# Hz S DB R 50
! CMT, M5065, 19127446, 24.2.4/2
! Date: 11/8/2024 3:17:53 PM
! Data: Format (Calibration Info)
! Freq	S11:dB/Ang(F2)	S21:dB/Ang(F2)	S12:dB/Ang(F2)	S22:dB/Ang(F2)
3.00000000000E+05	-1.64942999782E+01	-1.73819775562E+02	1.68696116578E+01	-1.77071974558E+02	-3.83775092957E+01	-1.66184902856E+01	-6.05672405234E+00	-3.28833672040E-01
3.22191354595E+05	-1.42643557023E+01	-1.78378346649E+02	1.68586024653E+01	-1.77553946791E+02	-4.62700196106E+01	-8.52232058676E+01	-5.97904913595E+00	-9.23169244540E-02
3.44382709190E+05	-1.33348173715E+01	-1.64221257546E+02	1.68621677728E+01	-1.78185244897E+02	-4.69882815908E+01	-1.29002015516E+02	-5.98350080185E+00	-8.62990745039E-02
3.66574063785E+05	-1.36335339185E+01	-1.73238854008E+02	1.68966457720E+01	-1.78497513971E+02	-5.02060894007E+01	-6.91954355516E+01	-5.99643808668E+00	-2.31225985321E-01
3.88765418380E+05	-1.57597068039E+01	-1.75586593006E+02	1.68606204985E+01	-1.78969128904E+02	-5.02745751491E+01	-6.00498622102E+01	-5.99119459752E+00	-4.82671175986E-01
4.10956772975E+05	-1.27931840466E+01	-1.75104004650E+02	1.68505065111E+01	-1.79431863481E+02	-3.66625193644E+01	-4.16564951535E+01	-6.04978899062E+00	6.27690457856E-02
4.33148127570E+05	-1.32670734360E+01	-1.65984692166E+02	1.68555748709E+01	-1.79905752241E+02	-5.47439915326E+01	9.14085556849E+01	-5.98942008413E+00	-4.29944160712E-01
4.55339482165E+05	-1.40769884744E+01	1.66344621380E+02	1.68795780847E+01	-1.79941939229E+02	-5.38713695983E+01	-9.08571640548E+01	-5.95887820976E+00	-1.09446386468E-01
4.77530836760E+05	-1.45290308750E+01	-1.59166929548E+02	1.68711820043E+01	1.79515410497E+02	-4.61805388857E+01	7.21354629754E+01	-6.00829221234E+00	-6.23703224177E-01
4.99722191355E+05	-1.61126568529E+01	-1.77266928789E+02	1.68642986230E+01	1.79055911601E+02	-5.67321912281E+01	-1.17074894643E+02	-5.98826159569E+00	-1.87961331299E-01
5.21913545950E+05	-1.37205473465E+01	1.59877373820E+02	1.68639728921E+01	1.79085566461E+02	-4.47934473450E+01	-1.71498917323E+02	-5.97163867541E+00	-2.70158320713E-01
5.44104900545E+05	-1.23291332663E+01	-1.71644529590E+02	1.68463084729E+01	1.78394832605E+02	-4.07642646420E+01	7.79560035940E+01	-6.00034917272E+00	-7.23648264876E-01
5.66296255139E+05	-1.76069140223E+01	-1.64135510183E+02	1.68904333875E+01	1.78254262271E+02	-3.65996366320E+01	8.66459363871E+01	-5.99214308732E+00	-6.63283979123E-01
5.88487609734E+05	-1.48909319484E+01	-1.70535365854E+02	1.68763494106E+01	1.77815619593E+02	-4.62542166992E+01	-2.34399640205E+01	-6.01247052035E+00	-4.33561170192E-01
6.10678964329E+05	-1.34719599072E+01	-1.78076380487E+02	1.68558896996E+01	1.77702810942E+02	-4.15960135204E+01	1.25905579006E-01	-6.03371963990E+00	3.48264584151E-02
6.32870318924E+05	-1.39710118190E+01	1.69938861991E+02	1.68545522224E+01	1.77535799411E+02	-4.73962330008E+01	-5.39332382384E+01	-5.99085870106E+00	-9.52841676840E-02
6.55061673519E+05	-1.22144114850E+01	-1.69533011732E+02	1.68630601486E+01	1.77170556711E+02	-4.54204862474E+01	-9.71872043359E+01	-6.03230109610E+00	-1.02819662708E-01
6.77253028114E+05	-1.71841176949E+01	-1.77389331203E+02	1.69096100840E+01	1.77146340346E+02	-4.70573819871E+01	-1.22234951641E+02	-5.99658950969E+00	-3.93348957581E-01
6.99444382709E+05	-1.51186859819E+01	-1.66145267500E+02	1.68665908951E+01	1.76545973593E+02	-4.12407807107E+01	-3.84351067935E+01	-6.04827040740E+00	-2.85641592930E-01
7.21635737304E+05	-1.50984003879E+01	-1.77517662011E+02	1.68722645030E+01	1.76457735145E+02	-3.65463768462E+01	-4.12384588688E+01	-6.04990021407E+00	-6.49634813344E-02
7.43827091899E+05	-1.52299573903E+01	1.78468986304E+02	1.68537715011E+01	1.76415235441E+02	-4.39691376055E+01	3.26279122086E+01	-5.98514274982E+00	-5.80226022722E-01
7.66018446494E+05	-1.25877282290E+01	-1.52754981864E+02	1.68407990342E+01	1.75836011883E+02	-4.00538828027E+01	1.69199584207E+02	-5.92369985659E+00	-4.76665860208E-01
7.88209801089E+05	-1.39738927023E+01	-1.77707501399E+02	1.68503018443E+01	1.75960219655E+02	-4.86962404701E+01	1.03575062646E+02	-6.00292639764E+00	-5.10796919195E-01
8.10401155684E+05	-1.26730614074E+01	-1.74006645362E+02	1.68444616091E+01	1.75494510393E+02	-5.21620841811E+01	-6.85229108191E+01	-6.00834413970E+00	-3.72809287121E-01
8.32592510279E+05	-1.47486202529E+01	1.57795681800E+02	1.68355422966E+01	1.75584739943E+02	-4.96159345067E+01	-9.58054990408E+01	-5.99797891383E+00	-2.59787057488E-01
8.54783864874E+05	-1.65657900907E+01	1.43320404456E+02	1.68627351988E+01	1.75264189135E+02	-4.48961629509E+01	-1.06186701163E+02	-5.98244855712E+00	-1.27724439607E-01
8.76975219469E+05	-1.39682418859E+01	-1.63727638923E+02	1.68284833827E+01	1.74940068339E+02	-4.70651788800E+01	-1.40305218505E+02	-5.98626836423E+00	-4.56462069937E-01
8.99166574064E+05	-1.22527152897E+01	1.76600455331E+02	1.68424973436E+01	1.74828904791E+02	-4.00733793524E+01	1.65967064149E+02	-5.91527467440E+00	-3.77650721544E-01
9.21357928659E+05	-1.43712085501E+01	-1.45565912226E+02	1.68614525547E+01	1.74212978156E+02	-4.04994187900E+01	-1.77370201137E+02	-5.97310643036E+00	-3.14367768069E-01
9.43549283254E+05	-1.57817016580E+01	1.79401913638E+02	1.68614628280E+01	1.74245369786E+02	-4.57266348771E+01	1.01621841641E+02	-6.00313861000E+00	-7.08182941190E-01
9.65740637849E+05	-1.54454842531E+01	-1.67727029074E+02	1.68700023539E+01	1.74061049071E+02	-4.48784599471E+01	-8.92573922366E-02	-6.03508910557E+00	-5.43898656021E-01
9.87931992444E+05	-1.33153995830E+01	-1.63886433645E+02	1.68538266694E+01	1.73662516716E+02	-5.98560677776E+01	1.30029862851E+02	-5.99745488619E+00	-4.55392270906E-01
1.01012334704E+06	-1.29114865669E+01	1.60657048103E+02	1.68094971192E+01	1.73750305844E+02	-4.02077919632E+01	-4.62131380677E+01	-6.03658405131E+00	-3.49528897131E-01
1.03231470163E+06	-1.38250946247E+01	1.79407570351E+02	1.68306985267E+01	1.73383010465E+02	-4.36633495928E+01	1.09803518480E+02	-5.99234088862E+00	-9.29208289741E-01
1.05450605623E+06	-1.43622142416E+01	-1.69881229442E+02	1.68490203079E+01	1.73266117578E+02	-4.29932597962E+01	1.37878007524E+02	-5.97102161673E+00	-6.20220314764E-01
1.07669741082E+06	-1.26254451160E+01	-1.78549267011E+02	1.68280512175E+01	1.72997706086E+02	-4.09162860074E+01	-1.44627475585E+02	-5.97191143871E+00	-1.10869916699E-01
1.09888876542E+06	-1.15370225525E+01	-1.77302927776E+02	1.68247817712E+01	1.72881077564E+02	-4.78811927863E+01	-6.23640724867E+00	-6.02448888486E+00	-4.82554026047E-01
1.12108012001E+06	-1.72835512816E+01	1.72548671233E+02	1.68541021126E+01	1.72900275083E+02	-4.17400944197E+01	3.30737513989E+01	-6.04558746166E+00	-8.32250609727E-01
1.14327147461E+06	-1.41267858883E+01	-1.79688707137E+02	1.68588788402E+01	1.72704963962E+02	-3.94300870249E+01	-1.11678132975E+02	-5.99134850333E+00	-1.53163861709E-01
1.16546282920E+06	-1.30188014062E+01	-1.66340330483E+02	1.68155890539E+01	1.72348937565E+02	-4.14578390740E+01	5.48660768850E+01	-5.99929739966E+00	-8.56615526291E-01
1.18765418380E+06	-1.58934592657E+01	1.78033320414E+02	1.68667336852E+01	1.72325109265E+02	-4.70076731877E+01	-6.93675875753E+01	-6.03500472644E+00	-3.38495943573E-01
1.20984553839E+06	-1.52781952647E+01	-1.68361482342E+02	1.68477206974E+01	1.71898304523E+02	-5.33957275447E+01	7.60480867520E+01	-5.98017961066E+00	-8.30563917631E-01
1.23203689299E+06	-1.18991895377E+01	-1.69600105153E+02	1.68250166560E+01	1.71734950854E+02	-4.24286225185E+01	-1.45477733757E+02	-5.97761351790E+00	4.22817446731E-02
1.25422824758E+06	-1.75762747555E+01	1.53145050970E+02	1.68375490841E+01	1.71688732256E+02	-4.89288723154E+01	-3.23752346961E+01	-6.01773746586E+00	-5.56495926298E-01
1.27641960218E+06	-1.17816307555E+01	-1.75406913754E+02	1.68012211450E+01	1.71350477721E+02	-4.68968462727E+01	-1.74330321013E+02	-5.99378379982E+00	-5.20678245869E-01
1.29861095677E+06	-1.31125837258E+01	1.78382015651E+02	1.68326045075E+01	1.71273876721E+02	-4.50721554695E+01	7.75227565493E+01	-6.00176182019E+00	-8.66515340465E-01
1.32080231137E+06	-1.31388340327E+01	-1.70897270383E+02	1.68227384586E+01	1.70934861989E+02	-4.82397520324E+01	-1.43750210378E+02	-6.00480388112E+00	-8.57061437809E-01
1.34299366596E+06	-1.28875900273E+01	-1.61039064290E+02	1.68398693755E+01	1.70678830948E+02	-5.02446960271E+01	-1.75821094691E+02	-5.98836235005E+00	-5.72898124460E-01
1.36518502056E+06	-1.39916408104E+01	-1.65882567277E+02	1.68260835059E+01	1.70585466067E+02	-4.48463085834E+01	-1.58627749576E+02	-5.96983047956E+00	-6.24777255994E-01
1.38737637515E+06	-1.33781264084E+01	-1.75910304085E+02	1.68231440819E+01	1.70447899073E+02	-4.56433308554E+01	-1.27737146269E+02	-5.99863384037E+00	-5.42872234616E-01
1.40956772975E+06	-1.39276476328E+01	-1.68121459012E+02	1.68371487260E+01	1.70230944985E+02	-4.32571932104E+01	1.74043606752E+02	-5.95361744412E+00	-6.60601621806E-01
1.43175908434E+06	-1.33003272986E+01	-1.73228378161E+02	1.68258339359E+01	1.70066038050E+02	-4.57814384487E+01	-8.26843564544E+00	-6.04240007007E+00	-8.75574022986E-01
1.45395043894E+06	-1.76849730257E+01	-1.76530180090E+02	1.68581632692E+01	1.70005322183E+02	-5.20205653209E+01	-6.49331244570E+01	-6.04450467155E+00	-5.92721803995E-01
1.47614179353E+06	-1.93486458432E+01	-1.72897547661E+02	1.68291015730E+01	1.69949309644E+02	-4.19472103320E+01	2.19705789672E+01	-6.06771464076E+00	-7.25584791007E-01
1.49833314813E+06	-1.29326771769E+01	-1.77373787728E+02	1.68151189237E+01	1.69496601088E+02	-4.92810857101E+01	5.62574556870E+01	-6.00593894364E+00	-6.90248137379E-01
1.52052450272E+06	-1.27989785064E+01	-1.73073960423E+02	1.68203501001E+01	1.69263889613E+02	-3.95076058477E+01	-1.53835850405E+02	-5.99576422236E+00	-3.17572305323E-01
1.54271585732E+06	-1.29763172159E+01	-1.69712422705E+02	1.68198215556E+01	1.69218866505E+02	-4.72019979147E+01	-1.18687926293E+02	-6.00108352751E+00	-7.20893796845E-01
1.56490721191E+06	-1.26601976688E+01	-1.77430316206E+02	1.68289641261E+01	1.68988149469E+02	-4.07139784116E+01	2.74624549561E+01	-6.03507453230E+00	-8.75392445660E-01
1.58709856651E+06	-1.21308984083E+01	-1.69003659291E+02	1.68308359488E+01	1.68604870319E+02	-4.16688577007E+01	-1.44226875403E+02	-5.97145238453E+00	-4.42283799334E-01
1.60928992110E+06	-1.67750329538E+01	-1.49762650647E+02	1.68576356216E+01	1.68602884670E+02	-3.95883493303E+01	-8.54022292434E+01	-6.03531263164E+00	-3.77392853079E-01
1.63148127570E+06	-1.61009456624E+01	1.66812184511E+02	1.68136510298E+01	1.68546500607E+02	-3.95495395024E+01	-5.68589432103E+01	-6.05101425190E+00	-5.15186592876E-01
1.65367263029E+06	-1.37273470379E+01	-1.61143714251E+02	1.68199022223E+01	1.68130310352E+02	-4.27977195623E+01	-3.26229735518E+01	-6.01026782775E+00	-6.38480363814E-01
1.67586398489E+06	-1.49851369012E+01	-1.72467620565E+02	1.68413700503E+01	1.68092256142E+02	-3.86426023138E+01	4.84176140997E+01	-6.01192902715E+00	-9.33021239730E-01
1.69805533948E+06	-1.38060409115E+01	-1.63067220389E+02	1.68421463890E+01	1.67831686489E+02	-4.93338636026E+01	-6.08153459306E+01	-6.02072591742E+00	-7.34015798338E-01
1.72024669408E+06	-1.29189790045E+01	1.73241205834E+02	1.68010460169E+01	1.67785616455E+02	-4.46412694329E+01	-3.73461361996E+01	-6.01205344775E+00	-7.31319390300E-01
1.74243804867E+06	-1.64481563653E+01	1.75925134791E+02	1.68305221721E+01	1.67631325423E+02	-4.15917706802E+01	-1.48299718714E+01	-6.04609857583E+00	-9.47992721588E-01
1.76462940327E+06	-1.27931975269E+01	-1.68448088882E+02	1.68154357817E+01	1.67365273704E+02	-4.19815641592E+01	-5.30202859441E+01	-6.03699332189E+00	-5.80798876048E-01
1.78682075786E+06	-1.56107414086E+01	-1.12200287359E+02	1.68942706972E+01	1.67178604882E+02	-6.87241734181E+01	3.68808127680E+01	-5.98728838811E+00	-7.19404650890E-01
1.80901211246E+06	-1.22027733560E+01	-1.53486363858E+02	1.68297512878E+01	1.66941291937E+02	-3.96102471752E+01	1.50391850996E+02	-5.93341909275E+00	-8.06170143082E-01
1.83120346705E+06	-1.54202314302E+01	-1.71146705745E+02	1.68383425319E+01	1.66965674221E+02	-3.44518497699E+01	1.62407449962E+02	-5.94176102068E+00	-5.20519657706E-01
1.85339482165E+06	-1.18896976912E+01	1.76342753149E+02	1.68061795735E+01	1.66763081862E+02	-5.82290230395E+01	-1.01641029061E+02	-6.00119914782E+00	-8.15578806642E-01
1.87558617624E+06	-1.33814467125E+01	1.78382932989E+02	1.68064580088E+01	1.66452322692E+02	-4.47055346861E+01	1.33578896239E+02	-5.96268015880E+00	-9.93658937471E-01
1.89777753084E+06	-1.42800598112E+01	1.79988875298E+02	1.68374962159E+01	1.66534260728E+02	-4.54971264796E+01	1.43189010678E+00	-6.04331283164E+00	-9.42072127656E-01
1.91996888543E+06	-1.50859093008E+01	-1.62711585611E+02	1.68231854126E+01	1.66203935858E+02	-4.67016360707E+01	-5.84211436277E+01	-6.01018094777E+00	-7.31835370635E-01
1.94216024003E+06	-1.55059489419E+01	-1.78971470304E+02	1.68202551900E+01	1.66128192150E+02	-5.22669236247E+01	-4.35438807783E+01	-6.00277191015E+00	-9.22869964564E-01
1.96435159462E+06	-2.15052948906E+01	-1.30722997485E+02	1.68687568590E+01	1.65863072767E+02	-4.03798039530E+01	4.45335480377E+01	-6.02966329609E+00	-1.32711611852E+00
1.98654294922E+06	-1.13516948691E+01	-1.60594165042E+02	1.67973265751E+01	1.65270128703E+02	-4.50250164713E+01	-9.98520874336E+01	-6.01752150399E+00	-4.45198052373E-01
2.00873430381E+06	-1.75526220610E+01	-1.65628554193E+02	1.68372713750E+01	1.65591860375E+02	-4.50197130595E+01	-1.34615701508E+02	-5.98041711932E+00	-7.77653567929E-01
2.03092565841E+06	-1.44301892545E+01	1.73674130930E+02	1.68162875491E+01	1.65490690339E+02	-4.23856998069E+01	-8.55999825659E+01	-5.99981113512E+00	-6.08873277134E-01
2.05311701300E+06	-1.46349328203E+01	-1.60580913235E+02	1.68305849349E+01	1.65056808350E+02	-4.82163850977E+01	-1.45195631964E+01	-6.02021680798E+00	-8.22891203721E-01
2.07530836760E+06	-1.30704144126E+01	-1.64510793778E+02	1.68220551043E+01	1.64862704056E+02	-4.30262232380E+01	5.51941190619E+01	-6.02375548520E+00	-1.19001123790E+00
2.09749972219E+06	-1.56849720967E+01	-1.66543108578E+02	1.68625518185E+01	1.64770891395E+02	-4.37237543519E+01	7.15891852654E+01	-5.99871738775E+00	-1.38058980250E+00
2.11969107679E+06	-1.24601795579E+01	-1.50756989468E+02	1.68150952018E+01	1.64410116477E+02	-4.27228763095E+01	1.50796380362E+02	-5.93555685351E+00	-9.46165674854E-01
2.14188243138E+06	-1.60712965247E+01	-1.70297768205E+02	1.68347859844E+01	1.64475945293E+02	-3.45939391143E+01	-1.10399818408E+02	-6.00786252634E+00	-4.38664102761E-01
2.16407378598E+06	-1.52482590492E+01	1.69778442624E+02	1.68037984182E+01	1.64467007266E+02	-4.38986984596E+01	-1.36182691657E+02	-5.98558031963E+00	-6.56237345594E-01
2.18626514057E+06	-1.23154059343E+01	-1.78062621009E+02	1.68063778143E+01	1.63888642696E+02	-5.79056451174E+01	-7.60292197696E+01	-6.01812522274E+00	-9.02957394947E-01
2.20845649517E+06	-1.25563158064E+01	1.68653411924E+02	1.67553518232E+01	1.64061058776E+02	-4.22023244121E+01	1.41841390397E+02	-5.94443660769E+00	-9.93812287400E-01
2.23064784976E+06	-1.28405245337E+01	1.73102166284E+02	1.67810749145E+01	1.63767993535E+02	-4.08966709388E+01	-1.15534613689E+02	-5.94323430587E+00	-4.87442255659E-01
2.25283920436E+06	-1.77116427732E+01	-1.57159213545E+02	1.68285968312E+01	1.63709087984E+02	-5.62607668952E+01	-3.03951733413E+00	-6.01503387785E+00	-1.13372119279E+00
2.27503055895E+06	-1.37783317288E+01	1.44626449250E+02	1.67829303005E+01	1.63470604810E+02	-5.39868885482E+01	-1.56000186974E+02	-5.96710322615E+00	-1.06315541739E+00
2.29722191355E+06	-1.27076185367E+01	-1.59256817975E+02	1.68242630932E+01	1.63063488669E+02	-3.16454073068E+01	1.46082280903E+02	-5.90259817232E+00	-9.55537357581E-01
2.31941326814E+06	-1.37584662663E+01	-1.68819432000E+02	1.68306378529E+01	1.62929951306E+02	-5.09712210337E+01	1.66930839849E+02	-5.99710978702E+00	-8.93655192465E-01
2.34160462274E+06	-1.20140064719E+01	-1.61024174084E+02	1.68340176248E+01	1.62747892926E+02	-4.42956958602E+01	8.37846911168E+01	-5.97971483633E+00	-1.29800067934E+00
2.36379597733E+06	-1.28031131865E+01	-1.61590309875E+02	1.68282326814E+01	1.62639124917E+02	-5.20277259195E+01	-1.77598034112E+02	-5.97191331138E+00	-9.77422394713E-01
2.38598733193E+06	-1.42137050873E+01	-1.73022772131E+02	1.68176490338E+01	1.62434950204E+02	-5.04384348062E+01	5.66122814064E+00	-6.01939216525E+00	-9.36019956309E-01
2.40817868652E+06	-1.37206000225E+01	-1.37775512712E+02	1.68425584156E+01	1.62304838077E+02	-4.29458448699E+01	1.30111082322E+02	-5.98147158870E+00	-1.34972214463E+00
2.43037004112E+06	-1.00232049237E+01	-1.60488747267E+02	1.68239579614E+01	1.61757039835E+02	-3.87555592390E+01	1.28781070142E+02	-5.94152242479E+00	-1.81528654887E+00
2.45256139571E+06	-1.13497694410E+01	1.69803237595E+02	1.67678159018E+01	1.62157863344E+02	-4.72813617489E+01	-1.44476786053E+02	-5.99090961320E+00	-9.05712827953E-01
2.47475275031E+06	-1.15678463922E+01	-1.69105126072E+02	1.68194642991E+01	1.61728178816E+02	-4.29110764068E+01	3.44076566785E-01	-6.03789595136E+00	-1.06726470032E+00
2.49694410490E+06	-1.61413369290E+01	-1.56744875374E+02	1.68260108871E+01	1.61696246236E+02	-4.34386985118E+01	-1.17464433145E+02	-6.00922152833E+00	-8.47338942950E-01
2.51913545950E+06	-1.64427732544E+01	-1.68178689981E+02	1.68243355251E+01	1.61537910960E+02	-4.61364168658E+01	-1.65173081925E+02	-5.97166297989E+00	-1.13193372348E+00
2.54132681409E+06	-1.45890516137E+01	-1.67528218265E+02	1.68388084956E+01	1.61370404169E+02	-5.06796641718E+01	-1.45858556489E+02	-5.98995917987E+00	-1.04860576300E+00
2.56351816869E+06	-2.04737581172E+01	-1.75513001138E+02	1.68342898389E+01	1.61276049842E+02	-4.85707464282E+01	-1.40782423438E+02	-6.01213424048E+00	-1.01381112125E+00
2.58570952328E+06	-1.34890359069E+01	1.66423348554E+02	1.68084345878E+01	1.60966938536E+02	-4.61781265467E+01	2.38408425433E+01	-6.04993289751E+00	-1.38243693346E+00
2.60790087788E+06	-1.61186690776E+01	-1.71955534198E+02	1.68342359507E+01	1.60867905674E+02	-3.94875820837E+01	1.22084864568E+02	-5.95896719171E+00	-1.13814015372E+00
2.63009223247E+06	-1.39521685199E+01	1.79183988111E+02	1.67869930724E+01	1.60731453213E+02	-4.12462353079E+01	-4.02368119250E+01	-6.06263725832E+00	-6.94753608755E-01
2.65228358707E+06	-1.20900675813E+01	-1.78771401465E+02	1.67922193653E+01	1.60360897313E+02	-4.88980700941E+01	4.56042920610E+01	-5.98778427454E+00	-1.31451378453E+00
2.67447494166E+06	-1.46607378298E+01	-1.75373506818E+02	1.68227028784E+01	1.60316806030E+02	-3.67754344044E+01	-6.88138645967E+01	-6.05166393174E+00	-7.90497253036E-01
2.69666629626E+06	-1.60922264319E+01	-1.37611862040E+02	1.68568310695E+01	1.60124409381E+02	-5.34936844855E+01	-1.64364535704E+02	-5.97657282080E+00	-1.10433915772E+00
2.71885765085E+06	-1.24296655471E+01	1.68364760923E+02	1.67918701840E+01	1.60043581253E+02	-4.59557109798E+01	-7.20235019024E+01	-6.02171944673E+00	-8.70186189119E-01
2.74104900545E+06	-1.10657398310E+01	-1.52942030578E+02	1.68519555203E+01	1.59618969932E+02	-3.98723871638E+01	-4.97213709538E+01	-6.03934217787E+00	-8.98183490570E-01
2.76324036004E+06	-1.37242763018E+01	-1.75470653789E+02	1.67994774179E+01	1.59449224141E+02	-4.50822253500E+01	-1.59211652720E+02	-5.97800876592E+00	-1.15151902155E+00
2.78543171463E+06	-1.48643470325E+01	-1.56275903623E+02	1.68492210931E+01	1.59273221940E+02	-3.74256569938E+01	-2.55814301897E+00	-6.08946847590E+00	-1.37141708667E+00
2.80762306923E+06	-1.31017875989E+01	-1.73093796091E+02	1.67683216213E+01	1.59262593363E+02	-4.40453962238E+01	-6.21989262078E+01	-6.01725800759E+00	-1.08721580092E+00
2.82981442382E+06	-1.24154181147E+01	-1.70753956312E+02	1.67934702175E+01	1.58830431256E+02	-6.78719638849E+01	-1.23457711153E+02	-5.99299442424E+00	-1.28315954205E+00
2.85200577842E+06	-1.25895788971E+01	-1.49805129844E+02	1.68561453403E+01	1.58699476825E+02	-4.95018029632E+01	-1.66267594872E+02	-5.96465495186E+00	-1.23293824507E+00
2.87419713301E+06	-1.38381437327E+01	-1.52791131708E+02	1.68312842130E+01	1.58451169013E+02	-4.29656181750E+01	1.51902227238E+02	-5.95877719312E+00	-1.44018158973E+00
