# Hz S DB R 50
! CMT, M5065, 19127446, 24.2.4/2
! Date: 11/8/2024 2:42:51 PM
! Data: Format (Calibration Info)
! Freq	S11:dB/Ang(F2)	S21:dB/Ang(F2)	S12:dB/Ang(F2)	S22:dB/Ang(F2)
3.00000000000E+05	-1.25239793754E+01	-1.77315596430E+02	4.97017537081E+00	-1.77774341975E+02	-3.95829369495E+01	4.68653110663E+01	-6.01702444342E+00	-3.45713637690E-01
3.22191354595E+05	-1.14645722110E+01	1.74244970913E+02	5.02154896725E+00	-1.77939875622E+02	-4.67051049049E+01	1.96876887389E+01	-6.02668891250E+00	-2.77896767299E-01
3.44382709190E+05	-1.32528275954E+01	-1.60038283969E+02	5.00845087742E+00	-1.78439071834E+02	-5.36834971573E+01	-1.91994617717E+01	-6.00084914934E+00	-2.21924544130E-01
3.66574063785E+05	-1.21760565400E+01	1.66427720779E+02	5.00739681804E+00	-1.78400909039E+02	-5.21592856376E+01	1.04782697508E+02	-6.00808345434E+00	-2.19142075763E-01
3.88765418380E+05	-1.47800754808E+01	-1.76245943585E+02	5.02639711786E+00	-1.78464354722E+02	-4.05996109343E+01	1.09881474289E+02	-6.01290973544E+00	-4.41006752711E-01
4.10956772975E+05	-1.13110597695E+01	-1.74514702639E+02	4.98125592161E+00	-1.79053070650E+02	-5.29474289354E+01	-3.89490448198E+01	-5.99273312413E+00	-2.64796306126E-01
4.33148127570E+05	-1.88681006569E+01	-1.69415621034E+02	5.08892779956E+00	-1.79355523195E+02	-5.43643956007E+01	3.72179439216E+01	-6.02862645257E+00	-3.53423202343E-01
4.55339482165E+05	-1.29237567869E+01	-1.60443884112E+02	5.05252098745E+00	-1.79593268959E+02	-3.93721704028E+01	-2.14675228149E+01	-6.01310124618E+00	-3.06736461631E-01
4.77530836760E+05	-1.22052302294E+01	1.78137672424E+02	5.05545696531E+00	-1.79626561253E+02	-4.28338841691E+01	-7.90006186958E+00	-6.02643914763E+00	-2.16843145734E-01
4.99722191355E+05	-1.44564632398E+01	1.77388899563E+02	5.06029307992E+00	-1.79654687380E+02	-4.62819933158E+01	1.41180654166E+02	-5.98850136904E+00	-3.11581615945E-01
5.21913545950E+05	-1.71250139153E+01	-1.64545960544E+02	5.03852649869E+00	-1.79662967923E+02	-4.39106105086E+01	1.72731261302E+02	-6.01186979258E+00	-3.45897893975E-01
5.44104900545E+05	-1.64176695570E+01	-1.67799061791E+02	5.05100966984E+00	-1.79903014714E+02	-4.79123714319E+01	1.17374825991E+02	-5.98109332823E+00	-3.20677020638E-01
5.66296255139E+05	-1.19374692411E+01	1.76087073499E+02	5.05567980973E+00	1.79712362338E+02	-4.32994944582E+01	1.37033627169E+02	-6.00316162880E+00	-3.63492151218E-01
5.88487609734E+05	-1.24762451217E+01	-1.68796035177E+02	5.03122451300E+00	1.79639843573E+02	-3.38778941051E+01	1.37249204403E+02	-6.00139291925E+00	-3.33478169130E-01
6.10678964329E+05	-1.40480796831E+01	1.79734431396E+02	5.06442177914E+00	1.79379839618E+02	-4.42201813678E+01	1.06688980331E+02	-6.00931104091E+00	-3.79589659595E-02
6.32870318924E+05	-1.44878413194E+01	-1.68382906019E+02	5.04451693938E+00	1.79059035699E+02	-4.52244405642E+01	7.11309433604E+01	-6.02295465568E+00	-1.65914853740E-01
6.55061673519E+05	-1.35709053315E+01	1.75247661391E+02	5.03866520810E+00	1.78856182806E+02	-4.23883758424E+01	-2.57275739915E+01	-6.00121127332E+00	-3.10084606590E-01
6.77253028114E+05	-1.28492590005E+01	-1.63711620928E+02	5.02399934837E+00	1.78659173126E+02	-4.86670993088E+01	-1.64459606272E+02	-5.99056554806E+00	-5.75912244299E-01
6.99444382709E+05	-9.64873497460E+00	1.71536689686E+02	4.99512428693E+00	1.79078645115E+02	-4.43115782760E+01	1.49284830323E+02	-6.00172427088E+00	-4.76222164165E-01
7.21635737304E+05	-1.73137408003E+01	1.75673699268E+02	5.01611336558E+00	1.79061636909E+02	-4.96540705238E+01	7.93202722905E+01	-6.00506995817E+00	-3.39511548192E-01
7.43827091899E+05	-1.00587727819E+01	-1.78446559994E+02	5.00622783629E+00	1.78474228106E+02	-5.87646891482E+01	-8.58850055217E+01	-5.99520940115E+00	-3.30139961267E-01
7.66018446494E+05	-1.68578563908E+01	-1.61203504420E+02	5.06042690288E+00	1.78425968538E+02	-4.67118053208E+01	1.27951510251E+02	-5.98761485258E+00	-4.86526756349E-01
7.88209801089E+05	-1.33644426617E+01	-1.77155756416E+02	4.98225759560E+00	1.78346875363E+02	-5.23031495634E+01	1.17229525010E+02	-6.00894048935E+00	-4.38930495425E-01
8.10401155684E+05	-1.27623368429E+01	1.77207771581E+02	5.02449857499E+00	1.78407897818E+02	-5.33824193942E+01	-1.72669966310E+00	-6.00067185300E+00	-3.79648635920E-01
8.32592510279E+05	-1.26471741588E+01	-1.75348350335E+02	5.02730099534E+00	1.78246489307E+02	-4.61903850030E+01	-9.60248249287E+00	-6.01365157759E+00	-5.99581861153E-01
8.54783864874E+05	-1.41438763461E+01	-1.74393069943E+02	5.07925746925E+00	1.78158446449E+02	-6.08812371462E+01	-4.68384623201E+01	-6.01174417571E+00	-4.12291187590E-01
8.76975219469E+05	-1.45966287611E+01	1.66708340046E+02	5.07311884287E+00	1.78148336806E+02	-4.53765293153E+01	2.30274796181E+01	-6.03007608890E+00	-3.46129557194E-01
8.99166574064E+05	-1.38122711225E+01	-1.64842626251E+02	5.04837510835E+00	1.77700546113E+02	-5.00963826477E+01	1.59095494181E+02	-6.00132766343E+00	-4.58453395494E-01
9.21357928659E+05	-1.31478320051E+01	-1.62173619654E+02	5.02657563504E+00	1.77883505417E+02	-4.22972230587E+01	1.78421895267E+02	-5.98936782767E+00	-2.80787436134E-01
9.43549283254E+05	-1.52231832762E+01	-1.71389451333E+02	5.04513323873E+00	1.77370272589E+02	-5.22730375786E+01	4.73785892552E+01	-5.99897456711E+00	-5.45258398748E-01
9.65740637849E+05	-1.31291607108E+01	-1.74540762691E+02	5.08419041104E+00	1.77543416883E+02	-4.51860513688E+01	-1.19743797208E+01	-6.01995719750E+00	-3.93714055766E-01
9.87931992444E+05	-1.32874316232E+01	1.61993424635E+02	5.02168108675E+00	1.77454622383E+02	-4.65867297974E+01	-1.06299964351E+02	-5.99911279127E+00	-3.85112572995E-01
1.01012334704E+06	-1.15837607790E+01	-1.67186221272E+02	5.04679161495E+00	1.77131757913E+02	-5.12333899242E+01	-1.65916256422E+02	-6.01900108604E+00	-4.70232150136E-01
1.03231470163E+06	-1.49096143630E+01	1.71376428205E+02	5.02401877594E+00	1.77304586724E+02	-3.85757685589E+01	-1.60621759835E+02	-5.97822897611E+00	-4.30500812444E-01
1.05450605623E+06	-1.24620189270E+01	1.73414881325E+02	5.00921428295E+00	1.77239631218E+02	-4.28865978123E+01	1.22007764169E+02	-5.98430603522E+00	-4.23389408688E-01
1.07669741082E+06	-1.43893870819E+01	-1.66801437890E+02	5.04355954577E+00	1.77076925214E+02	-5.81442281465E+01	1.29271177200E+02	-6.00421118200E+00	-6.98533821766E-01
1.09888876542E+06	-1.40225821392E+01	-1.78219058344E+02	5.07650702816E+00	1.77130053397E+02	-4.22587102346E+01	-2.07317697047E+01	-6.00897490992E+00	-6.06382976054E-01
1.12108012001E+06	-1.26475979144E+01	-1.71913242487E+02	5.05127779374E+00	1.76728202429E+02	-4.74612645494E+01	-7.60877933522E+01	-6.00762984259E+00	-5.04712761541E-01
1.14327147461E+06	-1.16268555540E+01	-1.72733677829E+02	4.99539522486E+00	1.76685035805E+02	-5.00812620919E+01	-9.46996804473E+01	-6.00297265541E+00	-4.68658123118E-01
1.16546282920E+06	-1.70089408974E+01	-1.69671972180E+02	5.10148765805E+00	1.76963603239E+02	-5.16758341223E+01	-7.67800994974E+01	-6.01174772487E+00	-5.65005119918E-01
1.18765418380E+06	-1.23229896132E+01	1.75346952124E+02	5.01995153822E+00	1.76501085624E+02	-3.98870107939E+01	1.29767328452E+02	-6.00387061721E+00	-5.05148808257E-01
1.20984553839E+06	-1.30980584023E+01	1.64252911303E+02	5.05006237565E+00	1.76765520092E+02	-4.27530621128E+01	-2.85653813905E+01	-6.03607838333E+00	-8.07956307324E-01
1.23203689299E+06	-1.20734572260E+01	1.76485366949E+02	5.01717325742E+00	1.76407149412E+02	-3.72773924678E+01	-7.06139531881E+00	-6.03037674288E+00	-4.42098732201E-01
1.25422824758E+06	-1.31798305929E+01	-1.77264586919E+02	5.01896254475E+00	1.76102188047E+02	-4.45452805418E+01	-9.53572783749E+01	-6.00496574043E+00	-4.98228443660E-01
1.27641960218E+06	-1.63615365372E+01	-1.72489293905E+02	5.07733815520E+00	1.75857359152E+02	-4.47115477649E+01	1.28155919923E+02	-5.98574331223E+00	-6.90434343347E-01
1.29861095677E+06	-1.42111949071E+01	-1.67291588298E+02	5.07530623548E+00	1.75923970070E+02	-4.11325679580E+01	-8.37027762277E+01	-6.00919676281E+00	-5.26874796382E-01
1.32080231137E+06	-1.52216504384E+01	1.66733783086E+02	5.01212481608E+00	1.75814484154E+02	-4.24550621356E+01	9.69095755919E+01	-5.99170708984E+00	-9.56454254015E-01
1.34299366596E+06	-1.67599468336E+01	-1.34884093547E+02	5.10802632852E+00	1.75852618207E+02	-4.25295254108E+01	-1.10804501191E+02	-5.99268571223E+00	-6.95172224138E-01
1.36518502056E+06	-1.53176062236E+01	-1.79118907859E+02	5.08162285167E+00	1.76069938560E+02	-4.51841773557E+01	-6.29264430669E+01	-5.99924954618E+00	-5.14212614893E-01
1.38737637515E+06	-1.41970027089E+01	1.59608441231E+02	5.00675188052E+00	1.75800008075E+02	-4.20914391120E+01	8.46802066242E+01	-6.00251635234E+00	-7.21224167541E-01
1.40956772975E+06	-1.58289949221E+01	-1.73417544861E+02	5.07006082634E+00	1.75541271176E+02	-5.59492528019E+01	-9.36136201002E+01	-6.01177341909E+00	-6.53748603281E-01
1.43175908434E+06	-1.31989283119E+01	-1.62122932287E+02	5.05331383822E+00	1.75454859218E+02	-5.19856091473E+01	-1.10956234247E+02	-6.00003632544E+00	-6.88925764372E-01
1.45395043894E+06	-1.44660985739E+01	-1.78014022890E+02	5.00177761437E+00	1.75568994197E+02	-4.41163333885E+01	-3.70296706319E+01	-6.03615802274E+00	-5.77640035768E-01
1.47614179353E+06	-1.25479703780E+01	-1.66692122627E+02	5.03612902477E+00	1.75085550365E+02	-4.92281407290E+01	5.73535405807E+01	-6.00461611899E+00	-7.49039122415E-01
1.49833314813E+06	-1.37835638049E+01	-1.71862266936E+02	4.99729065788E+00	1.75147562834E+02	-5.93904983151E+01	-9.21584189734E+01	-6.00048113619E+00	-6.29690607817E-01
1.52052450272E+06	-1.32481164881E+01	-1.68308437205E+02	5.06792293735E+00	1.75264420351E+02	-5.21734906055E+01	1.43863220069E+02	-6.01018015182E+00	-6.66720496877E-01
1.54271585732E+06	-1.26126331594E+01	-1.70681462489E+02	5.02798738318E+00	1.74926765771E+02	-3.32507548536E+01	1.54818840721E+02	-5.98311734931E+00	-6.49061418185E-01
1.56490721191E+06	-1.58849722508E+01	1.79264223491E+02	5.04065616267E+00	1.74861351492E+02	-5.39146255168E+01	1.40353623532E+02	-5.98454740492E+00	-6.71754021036E-01
1.58709856651E+06	-1.50964298510E+01	-1.65524615139E+02	5.01618859255E+00	1.74912725617E+02	-4.54474313627E+01	1.26177518038E+02	-5.99049347188E+00	-6.64877405003E-01
1.60928992110E+06	-1.17293191724E+01	-1.77699141916E+02	5.04148583973E+00	1.74952531958E+02	-4.75375102306E+01	-1.70704717744E+01	-6.00370979396E+00	-7.23776951119E-01
1.63148127570E+06	-1.55835868911E+01	1.61410430399E+02	5.09850070994E+00	1.74980300042E+02	-5.23145620094E+01	-6.67866786904E+01	-6.00855055486E+00	-7.01296099444E-01
1.65367263029E+06	-1.61931620817E+01	1.60290114435E+02	5.07771512295E+00	1.74660872510E+02	-5.47918616378E+01	6.56776188024E+01	-6.00446237641E+00	-7.38047586436E-01
1.67586398489E+06	-1.23411926465E+01	1.75026011216E+02	5.00490666377E+00	1.74661924837E+02	-6.31287276923E+01	-1.59002132590E+02	-6.00202645309E+00	-7.01315749148E-01
1.69805533948E+06	-1.30643688661E+01	-1.74578173400E+02	5.01954180166E+00	1.74409869217E+02	-4.50002653185E+01	4.23763717288E+01	-6.00538560738E+00	-9.31018487506E-01
1.72024669408E+06	-1.33130537586E+01	-1.62119628292E+02	5.06008670611E+00	1.74324435480E+02	-4.63508422779E+01	3.45023246705E+01	-6.00504185074E+00	-6.44289363596E-01
1.74243804867E+06	-1.32188452786E+01	-1.57455704456E+02	5.07429661841E+00	1.73976346024E+02	-5.20444006170E+01	-1.07057525519E+02	-5.98877467708E+00	-6.53088748848E-01
1.76462940327E+06	-1.38220652567E+01	-1.74414648072E+02	5.04190617771E+00	1.73925185804E+02	-5.28206026353E+01	-1.15808691052E+02	-5.98161827541E+00	-7.26445827319E-01
1.78682075786E+06	-1.38688587416E+01	1.71501620159E+02	5.07230862392E+00	1.74169209335E+02	-4.14959447263E+01	-1.04244154845E+02	-6.00313468243E+00	-8.42903990544E-01
1.80901211246E+06	-9.73528857069E+00	-1.32364879160E+02	5.09252559594E+00	1.73478810147E+02	-4.03047615221E+01	-7.71836949155E+01	-6.00094529621E+00	-7.30009357403E-01
1.83120346705E+06	-9.66399989613E+00	-1.78660637878E+02	5.01639744590E+00	1.73975961172E+02	-5.11805194118E+01	-1.45200966191E+02	-6.00522960317E+00	-7.04724855171E-01
1.85339482165E+06	-1.32930654347E+01	-1.69831865819E+02	5.10312212115E+00	1.73718418619E+02	-3.73180346601E+01	1.46825901289E+02	-5.98342436791E+00	-7.50608311476E-01
1.87558617624E+06	-1.37686071719E+01	1.66571221771E+02	5.05349240468E+00	1.74068430781E+02	-5.34682547821E+01	1.63500822848E+02	-6.00587285832E+00	-7.74914005018E-01
1.89777753084E+06	-1.23727176264E+01	1.73969712491E+02	5.05156913759E+00	1.73615372044E+02	-5.75777294206E+01	-1.22345725796E+02	-6.01891471465E+00	-8.41604535151E-01
1.91996888543E+06	-1.79610783419E+01	-1.75861758527E+02	5.08468823260E+00	1.73909464652E+02	-4.51944776062E+01	1.79200117422E+01	-6.01042230479E+00	-8.16976991486E-01
1.94216024003E+06	-1.29920736922E+01	1.77272445506E+02	5.10433069380E+00	1.73106300596E+02	-4.45906816576E+01	-1.43977612473E+02	-6.01716458955E+00	-6.19523103319E-01
1.96435159462E+06	-7.62960097635E+00	-1.68044697708E+02	5.01386812029E+00	1.72629918044E+02	-3.71190241862E+01	-4.73558544982E+00	-6.02447109399E+00	-8.33608565554E-01
1.98654294922E+06	-1.12420117903E+01	1.77457549441E+02	5.08262291527E+00	1.73143325603E+02	-4.37874888646E+01	-1.04829091156E+02	-5.99275776802E+00	-7.76058189180E-01
2.00873430381E+06	-1.23959968368E+01	1.79660530269E+02	5.07400578980E+00	1.73157552842E+02	-5.02766014241E+01	-9.91650131776E+01	-6.02284119945E+00	-8.18972403071E-01
2.03092565841E+06	-1.25540412740E+01	-1.71694121342E+02	5.03688753112E+00	1.73084518589E+02	-4.12058915215E+01	7.23437207899E+01	-5.99521450076E+00	-9.84800419143E-01
2.05311701300E+06	-1.60102120493E+01	-1.55657552111E+02	5.10110000667E+00	1.73034600957E+02	-4.60698248361E+01	-2.44014324805E+01	-5.99048118606E+00	-7.22878659174E-01
2.07530836760E+06	-1.41876765698E+01	-1.63376925441E+02	5.10421201999E+00	1.73100653999E+02	-3.89310516275E+01	-1.76112565125E+02	-5.98464779011E+00	-7.87398220233E-01
2.09749972219E+06	-1.16312374616E+01	1.53844226831E+02	5.03899695549E+00	1.72680766688E+02	-4.76118655640E+01	-7.28238313649E+01	-5.99764135261E+00	-9.64115469114E-01
2.11969107679E+06	-1.16097066293E+01	1.22250640890E+02	4.97212803900E+00	1.73198036922E+02	-4.41703636310E+01	-3.49907511595E+01	-6.00010073682E+00	-7.80640992548E-01
2.14188243138E+06	-1.68713080810E+01	-1.65060251920E+02	5.08126955342E+00	1.72906807242E+02	-4.41961849518E+01	1.19883174891E+01	-5.98990329317E+00	-1.07380809652E+00
2.16407378598E+06	-1.09046154776E+01	-1.67159345908E+02	5.09128223500E+00	1.72503197650E+02	-4.17228732671E+01	-1.33992802559E+02	-6.00455521389E+00	-8.23373040510E-01
2.18626514057E+06	-1.36756798428E+01	-1.70081639534E+02	5.07022872723E+00	1.72741879387E+02	-3.87870267858E+01	6.53687510484E+00	-6.00992689249E+00	-9.62760186962E-01
2.20845649517E+06	-1.16262758289E+01	-1.67894774108E+02	5.08534301359E+00	1.72150799753E+02	-4.42217136687E+01	-3.76848144953E+01	-6.01115766964E+00	-8.89950674673E-01
2.23064784976E+06	-1.52809352974E+01	-1.70086019910E+02	5.08052253559E+00	1.72338260309E+02	-4.41735348373E+01	-1.53559402146E+01	-6.02646610870E+00	-1.01304913133E+00
2.25283920436E+06	-1.57042599738E+01	-1.53562042527E+02	5.10929682209E+00	1.71941112963E+02	-4.75987481761E+01	-1.20136876395E+02	-5.99289044474E+00	-9.19370609541E-01
2.27503055895E+06	-1.18702425677E+01	-1.51957088092E+02	5.08877346179E+00	1.72249277183E+02	-4.63764596272E+01	-1.78426659892E+02	-5.98729423212E+00	-9.26001603251E-01
2.29722191355E+06	-1.29888414375E+01	-1.67436003985E+02	5.08197755182E+00	1.72237110552E+02	-4.22043556892E+01	1.37129899186E+02	-5.98490398846E+00	-8.71656063859E-01
2.31941326814E+06	-1.75239266737E+01	-1.65634464190E+02	5.15553379111E+00	1.71869744428E+02	-3.95970511212E+01	-1.53339775967E+02	-6.02132137707E+00	-9.48390587512E-01
2.34160462274E+06	-1.12649052061E+01	-1.70762484000E+02	5.02603247931E+00	1.71775681568E+02	-4.31727797561E+01	5.58930954696E+01	-6.01811552889E+00	-1.16286168443E+00
2.36379597733E+06	-1.30760086869E+01	-1.64218141634E+02	5.07979455505E+00	1.71851831060E+02	-5.79737333411E+01	1.48866625067E+02	-6.00118331416E+00	-1.06052817645E+00
2.38598733193E+06	-1.33295748164E+01	-1.59276466781E+02	5.12811017270E+00	1.71424822250E+02	-4.55010358672E+01	-1.79106855586E+02	-5.98647663904E+00	-1.23499705263E+00
2.40817868652E+06	-1.62330383468E+01	-1.73778637455E+02	5.11584668123E+00	1.71533414681E+02	-5.79934526613E+01	-1.32699103495E+02	-6.02131201914E+00	-1.10343831765E+00
2.43037004112E+06	-1.58133611256E+01	-1.66270488168E+02	5.07619026013E+00	1.71485025599E+02	-4.30858865965E+01	1.74718232190E+02	-5.98587820331E+00	-1.45514237741E+00
2.45256139571E+06	-1.33656156865E+01	-1.76733046374E+02	5.08417979908E+00	1.71540764031E+02	-5.72160121109E+01	4.31606317703E+01	-6.01827808347E+00	-1.08312650866E+00
2.47475275031E+06	-1.10569989367E+01	-1.52118236005E+02	5.10896339950E+00	1.71097819187E+02	-3.68241210588E+01	1.54957807159E+02	-5.99191625932E+00	-9.02858209755E-01
2.49694410490E+06	-1.16712490140E+01	1.69587287687E+02	5.02761498987E+00	1.71590323726E+02	-3.97965122032E+01	-3.12194698921E+01	-6.02293945410E+00	-1.08116639561E+00
2.51913545950E+06	-1.41002682108E+01	1.72040289818E+02	5.04901394247E+00	1.71221605279E+02	-4.23401871836E+01	9.75308424354E+01	-5.98804462778E+00	-1.05965926738E+00
2.54132681409E+06	-1.34929209435E+01	-1.79494226684E+02	5.11512280444E+00	1.71216765923E+02	-4.84950084907E+01	1.71563148068E+02	-5.99696728550E+00	-1.06718679736E+00
2.56351816869E+06	-1.13343309782E+01	-1.72124406283E+02	5.05377652927E+00	1.70964864138E+02	-4.66956930987E+01	2.09042814964E+01	-6.03184138184E+00	-1.04572048870E+00
2.58570952328E+06	-9.01776316717E+00	1.54192797318E+02	4.98209831982E+00	1.71234039975E+02	-3.86615373718E+01	-1.56803631148E+02	-5.98756590765E+00	-9.63708907323E-01
2.60790087788E+06	-1.73462428623E+01	-1.58211459872E+02	5.12219411546E+00	1.71168017073E+02	-5.32948892997E+01	1.28272513415E+02	-5.99957984036E+00	-9.55701650403E-01
2.63009223247E+06	-1.27953595771E+01	-1.74316767673E+02	5.11211063294E+00	1.70712493328E+02	-4.57632123870E+01	-9.01063602745E+01	-6.01884036976E+00	-6.67146947880E-01
2.65228358707E+06	-1.35890148508E+01	-1.71253781688E+02	5.09642605319E+00	1.70624281963E+02	-4.42148314480E+01	-1.40433277314E+02	-5.98255539629E+00	-9.70517329833E-01
2.67447494166E+06	-1.72013807647E+01	-1.60639027447E+02	5.14239929419E+00	1.70602911869E+02	-4.88368352632E+01	9.19284634081E-01	-6.01535546728E+00	-1.20830189092E+00
2.69666629626E+06	-1.47886160061E+01	-1.76475824806E+02	5.08679100528E+00	1.70781076162E+02	-4.98326098212E+01	8.24162266222E+01	-5.99913756671E+00	-1.25564377916E+00
2.71885765085E+06	-1.35187402753E+01	-1.73696824773E+02	5.06777901958E+00	1.70525477413E+02	-4.39589267213E+01	1.66994382171E+02	-6.01163172193E+00	-1.17975313709E+00
2.74104900545E+06	-1.24205785902E+01	-1.60461187764E+02	5.09100950706E+00	1.70127474865E+02	-4.65966417381E+01	-8.63473792487E+01	-5.99191395921E+00	-1.10720126781E+00
2.76324036004E+06	-1.35677079076E+01	-1.52640173940E+02	5.14603540100E+00	1.69985369157E+02	-5.35388499266E+01	-1.77164562271E+02	-5.99518842926E+00	-1.13465955154E+00
2.78543171463E+06	-1.34554142421E+01	1.75090973982E+02	5.04763675827E+00	1.70488863282E+02	-4.65921745019E+01	-1.36641110195E+02	-6.00159162810E+00	-1.12305057545E+00
2.80762306923E+06	-1.50122559174E+01	-1.73499801402E+02	5.13351970821E+00	1.70012701340E+02	-4.11592243572E+01	-9.88165651223E+01	-5.99914220387E+00	-1.16289306884E+00
2.82981442382E+06	-1.47877008040E+01	-1.79522672439E+02	5.12352988160E+00	1.69972378483E+02	-4.36516017393E+01	-4.01684741388E+01	-6.01585432700E+00	-1.20378066428E+00
2.85200577842E+06	-1.53575202556E+01	-1.64208909666E+02	5.12293478152E+00	1.70054984367E+02	-4.22322369046E+01	-4.89587058429E+01	-6.01577804142E+00	-1.09276212982E+00
2.87419713301E+06	-1.83910751185E+01	1.69039019502E+02	5.12774812279E+00	1.70491186656E+02	-4.38274875252E+01	1.35076877074E+02	-5.99260019177E+00	-1.24491811183E+00
