# Hz S DB R 50
! CMT, M5065, 19127446, 24.2.4/2
! Date: 11/8/2024 2:53:10 PM
! Data: Format (Calibration Info)
! Freq	S11:dB/Ang(F2)	S21:dB/Ang(F2)	S12:dB/Ang(F2)	S22:dB/Ang(F2)
3.00000000000E+05	-1.80843782073E+01	-1.58872251768E+02	7.37623326955E+00	-1.77842781319E+02	-3.93361597086E+01	-1.24575990992E+02	-6.00009363967E+00	-1.72611584197E-01
3.22191354595E+05	-1.51343413467E+01	-1.76365403162E+02	7.33949394321E+00	-1.77916072828E+02	-4.87349724416E+01	4.51687729270E+01	-6.00583812316E+00	-6.28553304248E-01
3.44382709190E+05	-1.95524716770E+01	-1.52973520446E+02	7.36502236522E+00	-1.78216358201E+02	-4.11792267404E+01	-1.23916518930E+02	-6.00619058275E+00	-8.98635159419E-02
3.66574063785E+05	-1.37132798261E+01	-1.68662737521E+02	7.35089712640E+00	-1.78614467025E+02	-5.14299841883E+01	9.46879161500E+01	-6.00449313199E+00	-3.25422662647E-01
3.88765418380E+05	-1.27032248220E+01	1.76167187693E+02	7.32682617023E+00	-1.78612792731E+02	-4.10969706223E+01	5.49448951638E+01	-6.00433820642E+00	-1.47478255129E-02
4.10956772975E+05	-1.31228029556E+01	1.78146342707E+02	7.30677223609E+00	-1.79109478797E+02	-4.21167136507E+01	-9.75725540451E+01	-5.98452032672E+00	-1.63725771799E-01
4.33148127570E+05	-1.51046069026E+01	-1.48214305270E+02	7.36570329073E+00	-1.79425386406E+02	-4.36412679228E+01	-1.61351024717E+01	-5.99156740418E+00	-2.93787363434E-01
4.55339482165E+05	-1.58606346956E+01	-1.60612865614E+02	7.32167059857E+00	-1.79774135421E+02	-5.72870286331E+01	4.53165311079E+01	-5.99611861160E+00	-3.26649799650E-01
4.77530836760E+05	-1.27552224487E+01	1.67354114962E+02	7.32090541674E+00	-1.79733930227E+02	-4.87661486841E+01	9.12331050758E+00	-6.03203053545E+00	-3.10111172873E-01
4.99722191355E+05	-1.28333604780E+01	-1.65835511173E+02	7.30964848328E+00	-1.79902412039E+02	-5.40330561784E+01	7.51562795574E+01	-5.99869844774E+00	-2.56196800701E-01
5.21913545950E+05	-1.15542130935E+01	-1.65945071981E+02	7.30008285675E+00	1.79716369688E+02	-4.41704351862E+01	-1.26095753789E+02	-6.00189768069E+00	-2.12373245898E-01
5.44104900545E+05	-1.26465316372E+01	-1.79179921326E+02	7.31747072840E+00	1.79707209986E+02	-3.92123872102E+01	-2.53343805971E+01	-6.00552855559E+00	-2.70767375436E-01
5.66296255139E+05	-2.21296960173E+01	-1.66378775654E+02	7.38017467544E+00	1.79436347173E+02	-5.31645812879E+01	-6.93677948727E+01	-5.99997579437E+00	-3.48413687323E-01
5.88487609734E+05	-1.49798750904E+01	-1.53694173223E+02	7.36527649800E+00	1.79184446323E+02	-5.01627424347E+01	5.70693948511E+01	-6.00142752619E+00	-2.03116008541E-01
6.10678964329E+05	-9.55173920856E+00	-1.59840402426E+02	7.32647032121E+00	1.78867518021E+02	-3.95417691982E+01	3.54166351801E+01	-6.01418509541E+00	1.07265621300E-01
6.32870318924E+05	-1.38046035261E+01	1.74158103610E+02	7.31913241616E+00	1.79169174722E+02	-4.70203425959E+01	7.64488951256E+01	-6.00305250158E+00	-1.23959188417E-01
6.55061673519E+05	-1.24173750676E+01	-1.78107070885E+02	7.31877398511E+00	1.79077901858E+02	-4.94474121935E+01	-3.23201994290E+00	-5.98792562132E+00	-2.05524729338E-01
6.77253028114E+05	-1.86242027337E+01	-1.69162621875E+02	7.40430666994E+00	1.78925210953E+02	-4.20203954224E+01	1.65776619102E+01	-6.01958646942E+00	-7.00282270170E-01
6.99444382709E+05	-2.07512048371E+01	1.76931117068E+02	7.36789900771E+00	1.78801245732E+02	-4.25923871320E+01	-1.53201444850E+02	-6.00334948034E+00	-3.54736388771E-01
7.21635737304E+05	-1.82410775439E+01	-1.79331179974E+02	7.39138131365E+00	1.78495932756E+02	-4.47576826968E+01	-6.85433957196E+01	-6.00952965204E+00	-4.63158564867E-01
7.43827091899E+05	-1.43960652655E+01	-1.69169409066E+02	7.38210987856E+00	1.78073086479E+02	-5.73163142597E+01	-6.50004938852E+01	-6.01556335820E+00	-4.79648678720E-01
7.66018446494E+05	-1.41586683011E+01	1.78956653819E+02	7.33652597623E+00	1.78197060194E+02	-4.34067352131E+01	-7.64115776413E+01	-6.01349247347E+00	-3.38004406721E-01
7.88209801089E+05	-1.24861435343E+01	1.74643813284E+02	7.35307636670E+00	1.78037921581E+02	-5.55731709495E+01	-2.30808300438E+01	-5.99730784105E+00	-3.57942378127E-01
8.10401155684E+05	-1.81492939074E+01	-1.74954282423E+02	7.36483766450E+00	1.77918077186E+02	-4.41732312553E+01	8.85613117863E+01	-6.01657322127E+00	-4.37792044673E-01
8.32592510279E+05	-1.52787551920E+01	1.76574499016E+02	7.34114821438E+00	1.77902674280E+02	-4.47956235266E+01	1.38272981959E+02	-5.98755027751E+00	-4.44479874254E-01
8.54783864874E+05	-1.37807994543E+01	-1.79919798288E+02	7.32735785344E+00	1.77772744920E+02	-4.42853518134E+01	-1.57095935881E+02	-5.98531541013E+00	-3.67755603917E-01
8.76975219469E+05	-1.62427392038E+01	1.67924510927E+02	7.35588337667E+00	1.77869981170E+02	-4.04195712328E+01	-1.31638836162E+02	-5.99267396180E+00	-2.97338064930E-01
8.99166574064E+05	-1.30091909193E+01	-1.74815487859E+02	7.34966536981E+00	1.77397659535E+02	-4.21685732469E+01	-2.44950391588E+01	-5.99807318123E+00	-3.50208510089E-01
9.21357928659E+05	-1.28183026678E+01	-1.79368238510E+02	7.32985939573E+00	1.77390313217E+02	-4.22122623437E+01	1.76301714903E+02	-5.99120468427E+00	-3.68029152639E-01
9.43549283254E+05	-1.69293677384E+01	-1.58385041241E+02	7.37893171243E+00	1.77069106673E+02	-3.92540658479E+01	1.22662375736E+02	-5.97930478020E+00	-5.12815009055E-01
9.65740637849E+05	-1.30343058175E+01	-1.67705380109E+02	7.32963883796E+00	1.76859484729E+02	-4.11225087227E+01	5.83277814397E+01	-6.00876458867E+00	-5.52792709431E-01
9.87931992444E+05	-1.68251709911E+01	-1.79369833797E+02	7.34395356861E+00	1.77137334731E+02	-5.50983622116E+01	-2.19376139133E+01	-6.01715958480E+00	-3.89079430267E-01
1.01012334704E+06	-1.13273609878E+01	1.71390600450E+02	7.29467117741E+00	1.76953714761E+02	-4.79658113583E+01	4.73933096857E+01	-5.99343452888E+00	-6.31221645482E-01
1.03231470163E+06	-1.53859315776E+01	-1.52487059499E+02	7.38513091807E+00	1.76526607399E+02	-4.15730089857E+01	-9.11128832674E+01	-6.00787554027E+00	-3.34667056808E-01
1.05450605623E+06	-1.60107489102E+01	-1.51500854443E+02	7.40953225038E+00	1.76674907900E+02	-5.15228460024E+01	1.72070227811E+02	-5.99489190851E+00	-6.90248713136E-01
1.07669741082E+06	-1.37445165364E+01	-1.71223111340E+02	7.35123727070E+00	1.76149397314E+02	-4.58926350564E+01	4.82415491171E+01	-6.00711624535E+00	-6.01979162886E-01
1.09888876542E+06	-1.14769549088E+01	-1.69959217863E+02	7.33303777496E+00	1.76410590766E+02	-4.26264856103E+01	9.17784847540E+01	-6.01015935622E+00	-5.86676279675E-01
1.12108012001E+06	-1.83167990122E+01	-1.53674877225E+02	7.38865366395E+00	1.76184005597E+02	-4.63612296244E+01	-3.54373620253E+00	-6.00184148553E+00	-3.76897996956E-01
1.14327147461E+06	-1.45981713791E+01	-1.36556274885E+02	7.43383702636E+00	1.76000520355E+02	-4.64882396299E+01	-9.63927174219E+01	-5.99482049435E+00	-3.62518345568E-01
1.16546282920E+06	-1.62700181750E+01	1.50827407945E+02	7.37529649358E+00	1.76430827934E+02	-4.34611254712E+01	-5.45016982563E+01	-6.02715312986E+00	-3.87703745893E-01
1.18765418380E+06	-1.86483759509E+01	-1.39839789275E+02	7.40964670647E+00	1.76101411581E+02	-5.66669212053E+01	1.79500200408E+02	-5.98843658117E+00	-5.24415437830E-01
1.20984553839E+06	-1.31128365863E+01	-1.64347141991E+02	7.32538557544E+00	1.75751632490E+02	-5.12247691873E+01	-2.38961506385E+01	-6.01732821778E+00	-6.13586398284E-01
1.23203689299E+06	-1.65682279922E+01	-1.66160869252E+02	7.37419651928E+00	1.75592527673E+02	-4.16139149717E+01	3.64444315144E+01	-6.00486851433E+00	-3.55073493918E-01
1.25422824758E+06	-1.42893559483E+01	-1.75900067735E+02	7.35284242591E+00	1.75659856965E+02	-4.17152319226E+01	-2.65285594410E+01	-6.00389913665E+00	-5.95326579964E-01
1.27641960218E+06	-1.39525836313E+01	-1.71085488379E+02	7.35062329675E+00	1.75593025320E+02	-4.35476608492E+01	1.46918170704E+02	-6.00887744162E+00	-5.20858080842E-01
1.29861095677E+06	-1.32744418857E+01	1.78726689513E+02	7.33880055127E+00	1.75536069734E+02	-4.69159818077E+01	2.16355667796E+00	-6.00551569675E+00	-5.28555970783E-01
1.32080231137E+06	-1.22360596299E+01	-1.70652704494E+02	7.35596351684E+00	1.75339648497E+02	-4.75051769934E+01	5.85702386338E+00	-6.01890891722E+00	-9.86178294210E-01
1.34299366596E+06	-1.32076990852E+01	-1.71844951759E+02	7.36726327186E+00	1.74908955618E+02	-4.78531794728E+01	-1.73846502679E+02	-5.98895795628E+00	-6.53053250263E-01
1.36518502056E+06	-1.26231423901E+01	-1.75090026822E+02	7.37966195625E+00	1.75202832818E+02	-3.91022094309E+01	-7.18711170981E+01	-6.01669702488E+00	-5.14148399550E-01
1.38737637515E+06	-1.43156709233E+01	-1.60272323954E+02	7.36936415582E+00	1.74871540475E+02	-6.41910140448E+01	4.02285385506E+01	-6.00565538214E+00	-6.70028006382E-01
1.40956772975E+06	-1.24281261663E+01	-1.77857737473E+02	7.33176096976E+00	1.74977113406E+02	-4.42141300998E+01	1.28004647986E+02	-5.98637733461E+00	-6.93529643687E-01
1.43175908434E+06	-1.55889389746E+01	-1.61129578358E+02	7.36553330065E+00	1.74620098735E+02	-4.11492354967E+01	-1.67665110325E+02	-5.99452918059E+00	-6.12188354272E-01
1.45395043894E+06	-1.24531799712E+01	-1.63737558792E+02	7.31612676852E+00	1.74679636668E+02	-4.38085235770E+01	1.05367289211E+01	-6.00333654098E+00	-5.55026089660E-01
1.47614179353E+06	-1.56033423099E+01	-1.74178173408E+02	7.38409465490E+00	1.74821417948E+02	-4.93019864352E+01	1.76517506890E+02	-5.98727243045E+00	-6.07718560341E-01
1.49833314813E+06	-1.68608935208E+01	-1.39599269968E+02	7.38339216306E+00	1.74506272498E+02	-4.10297913402E+01	-1.71907002235E+01	-6.02576742737E+00	-6.55363664666E-01
1.52052450272E+06	-1.38866193941E+01	1.70341916581E+02	7.34759003506E+00	1.74612614217E+02	-4.60309746003E+01	1.67701495519E+02	-6.00703920829E+00	-5.54687832710E-01
1.54271585732E+06	-1.38899839351E+01	1.63401408635E+02	7.37388470171E+00	1.74635867860E+02	-5.19454267055E+01	-1.28492293519E+02	-5.99587226921E+00	-6.41084379538E-01
1.56490721191E+06	-1.59721174772E+01	-1.59053961943E+02	7.39426886338E+00	1.74062192251E+02	-5.31185948508E+01	-9.35925498970E+01	-6.00678083300E+00	-6.92496436601E-01
1.58709856651E+06	-1.80650411345E+01	-1.59274906526E+02	7.36441381344E+00	1.74431844453E+02	-4.55853078376E+01	-1.60321914068E+02	-6.00873151855E+00	-6.92624375360E-01
1.60928992110E+06	-1.42311905251E+01	-1.63479542915E+02	7.35521137039E+00	1.74036634200E+02	-4.30067896165E+01	-6.39351911814E+01	-6.01840000918E+00	-6.05267152284E-01
1.63148127570E+06	-1.32538455843E+01	-1.72966743026E+02	7.39114878409E+00	1.74035782258E+02	-4.47900017918E+01	7.31621318225E+01	-6.01582293120E+00	-8.98557527094E-01
1.65367263029E+06	-1.29920232352E+01	-1.79745520498E+02	7.35361576225E+00	1.73798726956E+02	-5.18712607619E+01	2.29391638396E+01	-5.99487067286E+00	-8.08660866193E-01
1.67586398489E+06	-1.14992142286E+01	-1.58587752873E+02	7.33937265430E+00	1.73567364368E+02	-3.10003919904E+01	1.71419593874E+02	-5.93999402551E+00	-5.96913939672E-01
1.69805533948E+06	-1.43387874748E+01	1.79591534600E+02	7.35365602881E+00	1.73527113373E+02	-4.73842183030E+01	-2.54601452314E+01	-6.01013319318E+00	-6.74326766641E-01
1.72024669408E+06	-1.53126234945E+01	-1.64085950069E+02	7.41668908221E+00	1.73654135540E+02	-4.90554222277E+01	7.55395273963E+01	-5.97723177748E+00	-9.15150519496E-01
1.74243804867E+06	-1.34197880522E+01	-1.78543785484E+02	7.34046854114E+00	1.73467901456E+02	-5.59776062233E+01	1.64308323322E+02	-5.99873341520E+00	-8.50549314075E-01
1.76462940327E+06	-1.58065796204E+01	1.79095523777E+02	7.35883276819E+00	1.73450432683E+02	-3.78890826800E+01	1.27728821800E+02	-5.97802680328E+00	-8.33700050049E-01
1.78682075786E+06	-1.59476138472E+01	-1.56413792020E+02	7.41288304294E+00	1.73214497047E+02	-5.41977474318E+01	6.89608884596E+01	-6.01482930682E+00	-7.59596434055E-01
1.80901211246E+06	-1.36881776196E+01	-1.63558534708E+02	7.37311931950E+00	1.73314869340E+02	-4.86205952144E+01	4.19322524010E+01	-6.01025926865E+00	-7.45495059988E-01
1.83120346705E+06	-1.19957245069E+01	-1.67830117213E+02	7.35978502822E+00	1.72689070794E+02	-3.51613182244E+01	-6.92357115952E+01	-6.02529443368E+00	-8.38641946675E-01
1.85339482165E+06	-1.45651083135E+01	1.73796169633E+02	7.37766653587E+00	1.73093796721E+02	-4.06536162376E+01	9.64524869170E+01	-6.00161958832E+00	-8.94850873770E-01
1.87558617624E+06	-1.23776222941E+01	-1.61449208745E+02	7.38752261620E+00	1.72741067833E+02	-4.19762376368E+01	4.05630727982E+01	-6.00247781856E+00	-9.66678222883E-01
1.89777753084E+06	-1.45033452337E+01	-1.72082997899E+02	7.35883746400E+00	1.72876347111E+02	-4.61661842014E+01	-4.98097901025E+00	-6.00269268318E+00	-9.35619260826E-01
1.91996888543E+06	-1.38062581507E+01	-1.69614284692E+02	7.37052030485E+00	1.72767796665E+02	-4.41768529488E+01	-3.46160812914E+01	-6.00256532503E+00	-8.51963325536E-01
1.94216024003E+06	-1.30137645749E+01	-1.51651231295E+02	7.39322697252E+00	1.72555554983E+02	-4.48969641213E+01	-9.07916976397E+00	-6.00565925829E+00	-8.45140239992E-01
1.96435159462E+06	-1.16645887868E+01	-1.75224899660E+02	7.34500836218E+00	1.72453730512E+02	-5.11331014075E+01	3.84028472703E+01	-6.01081556213E+00	-8.79939338216E-01
1.98654294922E+06	-1.39475426108E+01	-1.59241446352E+02	7.38112001173E+00	1.72432189672E+02	-3.92560469713E+01	1.16370708794E+02	-5.97452471263E+00	-9.59902919654E-01
2.00873430381E+06	-1.18992294092E+01	-1.66312040092E+02	7.36616459402E+00	1.72172223476E+02	-3.44258555144E+01	8.57145726833E+01	-5.97741386301E+00	-1.17254730584E+00
2.03092565841E+06	-1.54586539919E+01	-1.57072294328E+02	7.41399218295E+00	1.72089020630E+02	-4.58360085913E+01	8.91941611141E+01	-5.98278045875E+00	-1.01208008638E+00
2.05311701300E+06	-1.43165330615E+01	-1.73733920978E+02	7.40086510366E+00	1.72027041627E+02	-4.55939164573E+01	-6.21413370785E+01	-6.02395093846E+00	-8.73939511390E-01
2.07530836760E+06	-1.43191310685E+01	1.79810785983E+02	7.34258097749E+00	1.72089613016E+02	-4.19740039961E+01	1.64154479580E+02	-5.99887172753E+00	-8.85473849301E-01
2.09749972219E+06	-1.32112610304E+01	1.69885721008E+02	7.38198260796E+00	1.72226310827E+02	-4.74086815101E+01	8.46208611802E+00	-6.03112529339E+00	-8.62138149304E-01
2.11969107679E+06	-1.29918102275E+01	-1.55532035434E+02	7.41759772670E+00	1.71633760540E+02	-4.41670727866E+01	2.58774488679E+01	-6.01431144349E+00	-1.14787851821E+00
2.14188243138E+06	-1.48167649767E+01	1.43126418229E+02	7.33819251323E+00	1.71854855136E+02	-3.64313609920E+01	-7.36302594299E+01	-6.03798093344E+00	-7.84176036486E-01
2.16407378598E+06	-1.17846227665E+01	-1.52427681815E+02	7.40049105679E+00	1.71604740843E+02	-4.17639976039E+01	1.71446702457E+02	-5.99040626431E+00	-9.67825846295E-01
2.18626514057E+06	-1.60857017700E+01	-1.53908081332E+02	7.43674665838E+00	1.71661520847E+02	-4.77354193564E+01	-1.60994113803E+01	-6.00120304116E+00	-9.80699184107E-01
2.20845649517E+06	-1.42450416578E+01	-1.61948033724E+02	7.38594721224E+00	1.71353493481E+02	-4.39035453152E+01	-4.64012645139E+01	-6.01482519914E+00	-9.50335063242E-01
2.23064784976E+06	-1.16998898309E+01	-1.70776206355E+02	7.35478696460E+00	1.71468277813E+02	-3.89374212052E+01	-3.36901969194E+01	-6.04321173982E+00	-9.55791958534E-01
2.25283920436E+06	-1.20121096865E+01	1.78709924642E+02	7.38703117831E+00	1.71268044997E+02	-5.59144186839E+01	2.53157835092E+01	-5.99345505151E+00	-9.28660253833E-01
2.27503055895E+06	-1.48933994973E+01	1.75123094299E+02	7.36852400559E+00	1.71234289058E+02	-4.89403929662E+01	-3.04504500033E+01	-5.99867245037E+00	-9.69724958075E-01
2.29722191355E+06	-2.01249117454E+01	-1.73114887217E+02	7.39452538752E+00	1.71455016112E+02	-4.25122978299E+01	9.14117881790E+01	-6.00266048333E+00	-9.86709249228E-01
2.31941326814E+06	-1.27310127714E+01	-1.59859520016E+02	7.37245904214E+00	1.70761542857E+02	-3.47875738413E+01	-6.25981212033E+01	-6.03561987872E+00	-8.91991619712E-01
2.34160462274E+06	-1.53006704574E+01	-1.50318820860E+02	7.39584495717E+00	1.70688627045E+02	-4.10854587992E+01	-6.32707461965E+01	-6.01479079543E+00	-9.01821644882E-01
2.36379597733E+06	-1.19144146105E+01	-1.76253725557E+02	7.36844915474E+00	1.70743554992E+02	-4.53363295606E+01	1.51820670741E+02	-5.98521682408E+00	-1.01463160468E+00
2.38598733193E+06	-1.22495872312E+01	-1.76103386157E+02	7.38427626932E+00	1.70572064719E+02	-4.83246936368E+01	1.32782211219E+02	-5.98385373166E+00	-1.06859100005E+00
2.40817868652E+06	-1.16416396845E+01	-1.72292194412E+02	7.38985372348E+00	1.70420078088E+02	-4.02691237621E+01	1.77959794901E+02	-5.98226276040E+00	-1.05195975877E+00
2.43037004112E+06	-1.50987325232E+01	1.48449050557E+02	7.37946686071E+00	1.70889450392E+02	-4.56496624961E+01	-1.15271204422E+02	-6.01458678370E+00	-1.44904894275E+00
2.45256139571E+06	-1.38111931250E+01	1.61860357563E+02	7.38189503922E+00	1.70997757921E+02	-5.24906982528E+01	-1.12597189101E+02	-5.98552065721E+00	-1.04807968970E+00
2.47475275031E+06	-1.33657114070E+01	-1.78813161576E+02	7.36929100820E+00	1.70456811829E+02	-3.82007219786E+01	-1.00008671371E+02	-5.99007606868E+00	-9.07937567576E-01
2.49694410490E+06	-1.23439975872E+01	-1.68881487576E+02	7.37564799281E+00	1.70043152297E+02	-4.79124019043E+01	7.77748385436E+01	-6.00479396557E+00	-9.78538447702E-01
2.51913545950E+06	-1.36287059471E+01	-1.51928166581E+02	7.42806020137E+00	1.70030684530E+02	-4.81319547500E+01	1.59342551971E+02	-5.99231988774E+00	-1.02612264605E+00
2.54132681409E+06	-1.64528919763E+01	-1.34062537819E+02	7.44173836768E+00	1.70096123862E+02	-5.12867324721E+01	8.11704894110E+01	-6.00297830004E+00	-1.09801175550E+00
2.56351816869E+06	-1.21355209334E+01	1.69416199488E+02	7.34769158783E+00	1.70019055020E+02	-5.89358452502E+01	3.89902987989E+01	-5.99131962766E+00	-1.13566695135E+00
2.58570952328E+06	-1.23471216787E+01	-1.63167942315E+02	7.40460403510E+00	1.69664246817E+02	-4.56736474172E+01	1.65180804138E+02	-5.96827202529E+00	-1.14159344989E+00
2.60790087788E+06	-1.19344708166E+01	1.63300294262E+02	7.35159205558E+00	1.69805688302E+02	-3.99705651604E+01	9.49030556741E+01	-6.00090345358E+00	-1.05463191918E+00
2.63009223247E+06	-1.49897617807E+01	-1.59295663840E+02	7.44007432058E+00	1.69464275677E+02	-4.27544238927E+01	2.93301463700E+01	-6.00738834139E+00	-8.12281103385E-01
2.65228358707E+06	-1.52361166634E+01	-1.67725417438E+02	7.42854403914E+00	1.69852275069E+02	-4.04248191234E+01	-1.50726277531E+02	-5.97338893487E+00	-1.02919653480E+00
2.67447494166E+06	-1.16242060590E+01	-1.65187648218E+02	7.42691317517E+00	1.69514213470E+02	-4.79446257650E+01	-1.67370231660E+01	-6.01029977078E+00	-1.22315667452E+00
2.69666629626E+06	-1.27620819076E+01	-1.57780831227E+02	7.41038724105E+00	1.69406488628E+02	-6.43463375555E+01	2.07940498481E+00	-6.00527716888E+00	-1.01079715156E+00
2.71885765085E+06	-1.19305411906E+01	-1.76542922763E+02	7.39343973320E+00	1.68985391441E+02	-4.51531514577E+01	-1.61034486028E+02	-5.98238194452E+00	-1.05068573693E+00
2.74104900545E+06	-1.45330772497E+01	-1.60647941432E+02	7.41019153111E+00	1.69230930412E+02	-4.13817552175E+01	-1.66918339099E+01	-6.02196166137E+00	-1.16577151046E+00
2.76324036004E+06	-1.20369305085E+01	1.65427323615E+02	7.36257831549E+00	1.69245606317E+02	-4.15407900966E+01	-9.31492983485E+01	-6.02007495853E+00	-1.17783770481E+00
2.78543171463E+06	-1.24823498254E+01	-1.66440314496E+02	7.40086464906E+00	1.68540004210E+02	-4.15435024378E+01	1.55288629598E+02	-5.98406276725E+00	-1.03081338323E+00
2.80762306923E+06	-1.33004791945E+01	-1.69366756520E+02	7.41833874132E+00	1.68824024255E+02	-5.20577929293E+01	3.62192222427E+01	-5.98338586718E+00	-1.29421643724E+00
2.82981442382E+06	-1.24776505895E+01	-1.49854754353E+02	7.38961736200E+00	1.68448167662E+02	-4.93330005300E+01	8.21464028379E+01	-5.97834437421E+00	-1.30110674990E+00
2.85200577842E+06	-1.33115656999E+01	1.70252994079E+02	7.39090693495E+00	1.68870223945E+02	-4.54826299705E+01	1.40614885875E+02	-5.98677731943E+00	-1.19201635447E+00
2.87419713301E+06	-1.10465106858E+01	-1.69807960556E+02	7.36508053209E+00	1.68495681907E+02	-4.96187075480E+01	-6.57805974316E+01	-5.98742146734E+00	-1.26010299384E+00
