# Hz S DB R 50
! CMT, M5065, 19127446, 24.2.4/2
! Date: 11/8/2024 2:40:26 PM
! Data: Format (Calibration Info)
! Freq	S11:dB/Ang(F2)	S21:dB/Ang(F2)	S12:dB/Ang(F2)	S22:dB/Ang(F2)
3.00000000000E+05	-1.33468155965E+01	-1.65664544026E+02	5.46822763139E+00	-1.77773033786E+02	-4.45411432077E+01	-1.14657475194E+02	-6.00674179656E+00	-7.81628817016E-02
3.22191354595E+05	-1.49723023047E+01	-1.74062538153E+02	5.50821381032E+00	-1.78065871241E+02	-4.01054130565E+01	-3.30039721708E+01	-6.01025818406E+00	-1.74809773998E-01
3.44382709190E+05	-1.59044858368E+01	-1.50527384357E+02	5.54413693610E+00	-1.78365329779E+02	-4.05980644015E+01	1.77444620267E+02	-5.99499514779E+00	-2.09326317918E-01
3.66574063785E+05	-1.04928934007E+01	1.79098088893E+02	5.46912983823E+00	-1.78304034798E+02	-4.06255506369E+01	3.05411700592E+01	-6.03412979111E+00	-2.81557608805E-01
3.88765418380E+05	-1.44584388538E+01	-1.61904244291E+02	5.51411453236E+00	-1.78965648677E+02	-4.35382300562E+01	-2.25569794357E+01	-6.01873979055E+00	-2.31657776115E-01
4.10956772975E+05	-1.31001851677E+01	-1.68354947954E+02	5.48288663748E+00	-1.79546241936E+02	-5.13982244317E+01	-9.20006683512E+01	-6.01372146564E+00	-3.41810109540E-01
4.33148127570E+05	-1.40368621808E+01	1.71238120079E+02	5.51716068603E+00	-1.79266442634E+02	-4.67580928929E+01	-7.20638306474E+01	-6.00909284527E+00	-2.96732290695E-01
4.55339482165E+05	-1.53319516571E+01	-1.67405563214E+02	5.47839271918E+00	-1.79237133839E+02	-3.83469044659E+01	-1.77808096825E+02	-5.98615464472E+00	-1.99439904195E-01
4.77530836760E+05	-1.07276490734E+01	1.79293108665E+02	5.47326566677E+00	-1.79243546366E+02	-5.30862669929E+01	5.90426677863E+01	-5.98171339202E+00	-3.75892298287E-01
4.99722191355E+05	-1.37526162905E+01	1.75016640656E+02	5.50510917124E+00	-1.79707956237E+02	-4.71636664635E+01	1.11558922368E+00	-6.00908991836E+00	-1.61578878701E-01
5.21913545950E+05	-1.41460623622E+01	-1.61997549231E+02	5.47172528219E+00	-1.79963503975E+02	-4.77610523400E+01	-1.13818040818E+02	-5.99669585491E+00	-2.98409258693E-01
5.44104900545E+05	-1.08413092538E+01	-1.74530547000E+02	5.42723577096E+00	1.79733864141E+02	-4.19729519684E+01	1.61820663039E+02	-5.98570505080E+00	-3.45678786023E-01
5.66296255139E+05	-1.53644572061E+01	-1.79033195530E+02	5.52377758355E+00	-1.79865187317E+02	-5.49140248518E+01	1.33597385996E+02	-5.99863485320E+00	-3.92034937277E-01
5.88487609734E+05	-1.30911323839E+01	-1.75665227561E+02	5.50663919178E+00	1.79605232521E+02	-3.90923921030E+01	-9.64707368304E+00	-6.03334243261E+00	-2.62462164659E-01
6.10678964329E+05	-1.66855792201E+01	1.74166279114E+02	5.52011039232E+00	1.79511761875E+02	-4.72762487260E+01	8.24435160553E+01	-6.01885170180E+00	2.03280710790E-01
6.32870318924E+05	-1.89335588257E+01	1.72054368316E+02	5.50724733192E+00	1.79290008176E+02	-5.15862463194E+01	1.33862289167E+02	-5.98583465365E+00	-3.63589938412E-01
6.55061673519E+05	-1.52035434891E+01	-1.73934941076E+02	5.49102002401E+00	1.79062821484E+02	-4.66460945067E+01	-4.91636941525E+01	-6.01856070471E+00	-1.66319532117E-01
6.77253028114E+05	-1.52689098111E+01	1.43182274657E+02	5.49542913473E+00	1.79314409337E+02	-4.91725714163E+01	-5.45359699559E+01	-6.01278982238E+00	-6.42819228905E-01
6.99444382709E+05	-1.23630202123E+01	-1.71509024861E+02	5.48184362794E+00	1.78671988779E+02	-3.74968765246E+01	-6.09726486842E+01	-6.01411814289E+00	-1.13317547351E-01
7.21635737304E+05	-1.75390004277E+01	1.79086635503E+02	5.49041964702E+00	1.78736751832E+02	-5.86584763113E+01	-6.98330572790E+01	-5.99983430387E+00	-3.99977939719E-01
7.43827091899E+05	-1.64844629161E+01	-1.62768466209E+02	5.49106343127E+00	1.78332718319E+02	-5.48418982649E+01	-2.61683681838E+01	-6.01973645920E+00	-2.62992836767E-01
7.66018446494E+05	-1.16733043105E+01	-1.75368194428E+02	5.50597036612E+00	1.78746603184E+02	-3.89879445143E+01	-1.48473884782E+02	-5.99670412849E+00	-2.33075397479E-01
7.88209801089E+05	-1.27640685385E+01	1.71211267059E+02	5.49115422024E+00	1.78217389391E+02	-5.28152543012E+01	-1.74077456141E+02	-6.00312979637E+00	-3.85800138518E-01
8.10401155684E+05	-1.09813829318E+01	-1.65975817825E+02	5.45506094807E+00	1.78000290570E+02	-3.77039513222E+01	1.55861827277E+02	-5.99084012567E+00	-3.37504630238E-01
8.32592510279E+05	-1.34969026228E+01	-1.72280329137E+02	5.52425757107E+00	1.78098151009E+02	-4.28964330142E+01	-6.37945899061E+01	-6.02613995431E+00	-3.49059299006E-01
8.54783864874E+05	-1.18622974691E+01	1.60806403452E+02	5.46816382272E+00	1.78398868736E+02	-4.04729663818E+01	8.65450897710E+01	-6.00677230486E+00	-4.58066675858E-01
8.76975219469E+05	-1.55038284305E+01	-1.69812866762E+02	5.50246235197E+00	1.77882665731E+02	-5.04746530995E+01	1.73345764127E+02	-5.99512215709E+00	-4.46679493399E-01
8.99166574064E+05	-1.19286715301E+01	-1.77197329146E+02	5.50546341927E+00	1.77716383728E+02	-4.13164954118E+01	1.33634815436E+02	-5.99205778058E+00	-4.02245755970E-01
9.21357928659E+05	-1.10015106166E+01	-1.68859286077E+02	5.45568974402E+00	1.77552784814E+02	-5.00200425132E+01	1.23416105073E+02	-6.00008220392E+00	-4.82714405319E-01
9.43549283254E+05	-1.32096090144E+01	-1.69265859742E+02	5.50144935235E+00	1.77455618413E+02	-3.96427611758E+01	-1.53052293969E+02	-6.01631071687E+00	-3.10831108355E-01
9.65740637849E+05	-1.36668419865E+01	-1.69742591951E+02	5.50358269013E+00	1.76862020236E+02	-4.07282872738E+01	2.90071006005E+01	-6.01271680925E+00	-5.05971537572E-01
9.87931992444E+05	-1.54685856057E+01	1.73921866043E+02	5.50350912562E+00	1.77327972248E+02	-4.29157316417E+01	-2.09778212193E+01	-6.05128633880E+00	-4.39501418452E-01
1.01012334704E+06	-1.48384639397E+01	1.68967988253E+02	5.53337654110E+00	1.77427785809E+02	-4.72324869218E+01	-1.77564806523E+02	-6.00657924974E+00	-4.55141811513E-01
1.03231470163E+06	-1.52412816540E+01	1.79660372499E+02	5.50125672590E+00	1.77058241768E+02	-4.91782810199E+01	-4.31566760849E+01	-6.01669980770E+00	-3.18448071617E-01
1.05450605623E+06	-1.27443009706E+01	-1.69244283574E+02	5.51195594532E+00	1.77131849467E+02	-4.89696996776E+01	7.59709889652E+01	-6.02384573590E+00	-4.70208750945E-01
1.07669741082E+06	-1.49778435519E+01	-1.43557510438E+02	5.59923649997E+00	1.76563416448E+02	-4.76201679389E+01	-2.86380121273E+01	-6.00885225038E+00	-5.79690853688E-01
1.09888876542E+06	-1.42435938331E+01	-1.59592750098E+02	5.52963915423E+00	1.76632281170E+02	-4.46140015310E+01	-1.36300237446E+02	-5.99362157708E+00	-4.23944235585E-01
1.12108012001E+06	-1.37662761833E+01	-1.66233279180E+02	5.47836945590E+00	1.76463664561E+02	-4.61678705958E+01	-1.29529815689E+02	-6.02319007007E+00	-4.94352859873E-01
1.14327147461E+06	-1.42234417955E+01	1.63145596077E+02	5.49350750783E+00	1.76856892666E+02	-3.54818695455E+01	7.42344711251E+01	-5.98349112576E+00	-5.52816580199E-01
1.16546282920E+06	-1.25065537063E+01	-1.71189314714E+02	5.53411452845E+00	1.76424977572E+02	-3.78408155210E+01	9.89893706080E+01	-5.99411909556E+00	-6.74321230222E-01
1.18765418380E+06	-1.64178296006E+01	1.72490452012E+02	5.51622015796E+00	1.76432431655E+02	-5.07996808519E+01	7.95004219439E+01	-6.01438995963E+00	-4.23169647831E-01
1.20984553839E+06	-1.91705063660E+01	1.55769983774E+02	5.54226298577E+00	1.76514735371E+02	-5.39391189189E+01	-8.29640239937E+01	-6.02065891372E+00	-6.98703362742E-01
1.23203689299E+06	-1.21359600834E+01	-1.67277246580E+02	5.50762092628E+00	1.76084553232E+02	-4.62507769286E+01	-1.48597982889E+02	-5.99505519159E+00	-4.03114921245E-01
1.25422824758E+06	-1.42135031377E+01	-1.75721211093E+02	5.54411280415E+00	1.76106051920E+02	-5.38024895594E+01	-6.49702377498E+01	-6.01112142817E+00	-6.67695236686E-01
1.27641960218E+06	-1.24144531323E+01	-1.41810705247E+02	5.53264656775E+00	1.75579736502E+02	-4.40469252225E+01	-1.24570026548E+02	-6.01107538910E+00	-6.00880866445E-01
1.29861095677E+06	-1.15667286734E+01	-1.68863988606E+02	5.46721961592E+00	1.76037862332E+02	-3.77121989411E+01	5.68155449604E+01	-5.99127264452E+00	-6.91343875421E-01
1.32080231137E+06	-1.20705497042E+01	1.58200670154E+02	5.45935211948E+00	1.75893724710E+02	-4.47654315090E+01	-9.63145979724E+01	-5.99513827334E+00	-8.78745615883E-01
1.34299366596E+06	-1.36911482907E+01	-1.71122221176E+02	5.47313994827E+00	1.75760850034E+02	-4.12669333232E+01	1.24865920139E+02	-6.00464016503E+00	-8.21069967903E-01
1.36518502056E+06	-1.59609810218E+01	1.76190882981E+02	5.53249371678E+00	1.75571901019E+02	-5.74736662584E+01	-1.63736285574E+02	-6.01567630563E+00	-5.69445083023E-01
1.38737637515E+06	-1.71598965323E+01	-1.55828468847E+02	5.55010087449E+00	1.75660979739E+02	-4.17628176813E+01	1.26786022896E+02	-6.00136264872E+00	-5.22363830907E-01
1.40956772975E+06	-1.49982040578E+01	-1.79125710978E+02	5.49608166901E+00	1.75312067615E+02	-4.70988099256E+01	2.01789763775E+01	-6.00317459050E+00	-6.12615892597E-01
1.43175908434E+06	-1.73953117733E+01	-1.69080560539E+02	5.51032864263E+00	1.75341536906E+02	-4.86488102906E+01	-8.30744782399E+01	-6.02155050360E+00	-5.99452005705E-01
1.45395043894E+06	-1.38217828826E+01	1.73080043623E+02	5.49495002026E+00	1.75432509364E+02	-4.31028379570E+01	3.81566936790E+01	-6.00548622655E+00	-6.71049735897E-01
1.47614179353E+06	-2.00305581742E+01	-1.41617768436E+02	5.49654501197E+00	1.75199387602E+02	-4.50941441769E+01	-1.35668089542E+02	-6.01297120931E+00	-7.69423496552E-01
1.49833314813E+06	-1.25843680525E+01	-1.61908528276E+02	5.49893396157E+00	1.74955069925E+02	-4.32849525630E+01	5.98811987790E+01	-5.99731001479E+00	-5.02325476367E-01
1.52052450272E+06	-1.22063814001E+01	-1.79132336019E+02	5.51702198525E+00	1.75051575861E+02	-4.23187069836E+01	1.49745885820E+02	-6.01064893363E+00	-4.62792122179E-01
1.54271585732E+06	-1.63881672207E+01	-1.61571639706E+02	5.51643487950E+00	1.74794911441E+02	-4.31797049670E+01	-1.13145436228E+02	-5.99781552437E+00	-5.06438593659E-01
1.56490721191E+06	-1.42720733817E+01	-1.76838071582E+02	5.46969319325E+00	1.75000619689E+02	-4.31066949465E+01	-1.31586519189E+02	-6.00096676182E+00	-6.38409574040E-01
1.58709856651E+06	-1.83871740037E+01	-1.71769436623E+02	5.55546950960E+00	1.74948685117E+02	-5.02476096369E+01	4.71292204792E+01	-6.00761974373E+00	-7.97246655826E-01
1.60928992110E+06	-1.19856718065E+01	-1.78437078245E+02	5.53980480042E+00	1.74671892428E+02	-3.06060416337E+01	5.79709373443E+01	-6.00168556344E+00	-8.25724352766E-01
1.63148127570E+06	-1.90038776203E+01	-1.70080605288E+02	5.54134286927E+00	1.74416753978E+02	-4.28739235508E+01	1.68405074221E+02	-5.97548929683E+00	-6.40577832239E-01
1.65367263029E+06	-1.56529240934E+01	-1.72079443532E+02	5.52145964749E+00	1.74545165545E+02	-4.41871600962E+01	6.40594376549E+01	-6.01994183705E+00	-7.50479081977E-01
1.67586398489E+06	-1.56618209165E+01	-1.51853088995E+02	5.54351614869E+00	1.74320748370E+02	-4.14779269335E+01	8.89934568752E+01	-5.99418597537E+00	-8.99244496532E-01
1.69805533948E+06	-1.15117348040E+01	-1.70212954269E+02	5.51871675625E+00	1.74001964387E+02	-4.82433012868E+01	-8.94230821233E+01	-6.00228978303E+00	-6.30638291995E-01
1.72024669408E+06	-1.18771730741E+01	1.78883047550E+02	5.54327019795E+00	1.73989799810E+02	-4.11624733335E+01	-1.13617266608E+02	-6.01979991112E+00	-5.45073220861E-01
1.74243804867E+06	-1.51482266605E+01	-1.64472094071E+02	5.54127262780E+00	1.74181412173E+02	-3.98749404254E+01	9.56098482445E+01	-6.00438842599E+00	-8.31381664921E-01
1.76462940327E+06	-1.50329683410E+01	1.53331295645E+02	5.52993716386E+00	1.74104450511E+02	-3.88028794371E+01	-6.93831778196E+01	-6.02346781964E+00	-7.10126131105E-01
1.78682075786E+06	-1.87665383007E+01	1.70562468441E+02	5.53847640122E+00	1.74116169178E+02	-3.71703396885E+01	1.53038855358E+02	-5.97670819110E+00	-8.11861878401E-01
1.80901211246E+06	-1.22780050907E+01	1.75539783249E+02	5.48055671803E+00	1.73892694582E+02	-4.09948946810E+01	1.39281819516E+02	-6.01894537828E+00	-8.28704197030E-01
1.83120346705E+06	-1.23280008161E+01	1.78921004989E+02	5.50123820929E+00	1.73913789607E+02	-4.52420912527E+01	1.76813152615E+02	-5.98668579021E+00	-8.35581547598E-01
1.85339482165E+06	-1.38365583300E+01	-1.79279654029E+02	5.47519080496E+00	1.73537862377E+02	-4.31479453520E+01	-3.93183228312E+01	-6.01415440367E+00	-6.75237141803E-01
1.87558617624E+06	-1.36448908535E+01	-1.71264592842E+02	5.51900428112E+00	1.73673393968E+02	-5.24557013041E+01	6.86479943396E+00	-6.01520665300E+00	-7.58886715677E-01
1.89777753084E+06	-1.48050770198E+01	-1.59609918153E+02	5.57828710069E+00	1.73417939364E+02	-4.63902925144E+01	-6.52103104871E+01	-6.01251174445E+00	-7.89852755001E-01
1.91996888543E+06	-1.19741006323E+01	-1.49995063377E+02	5.54087862601E+00	1.73085712950E+02	-4.18971930765E+01	1.34901470989E+02	-5.99388099655E+00	-8.01626345539E-01
1.94216024003E+06	-2.16519721146E+01	-1.50455881048E+02	5.56487498962E+00	1.73757238015E+02	-3.09440571288E+01	-7.67235172537E+01	-6.03341107126E+00	-7.42674413235E-01
1.96435159462E+06	-1.39498257731E+01	-1.55704638029E+02	5.53427000794E+00	1.73077554176E+02	-4.25914516066E+01	-1.78588828722E+02	-5.98974284027E+00	-7.35469827553E-01
1.98654294922E+06	-1.61216310550E+01	1.38805779648E+02	5.51804800760E+00	1.73822707538E+02	-4.14986143479E+01	-1.77884068381E+02	-5.97927522523E+00	-7.40387078163E-01
2.00873430381E+06	-1.46853329015E+01	-1.56703055544E+02	5.52163814614E+00	1.73074407992E+02	-4.06834133525E+01	-1.21880367329E+02	-5.99701371323E+00	-7.89563420557E-01
2.03092565841E+06	-1.79493287578E+01	-1.48774932998E+02	5.55063891145E+00	1.72727015768E+02	-4.61967929968E+01	9.94790007078E+01	-6.00071593222E+00	-9.17661852468E-01
2.05311701300E+06	-1.65324141761E+01	-1.50064009189E+02	5.53111191147E+00	1.72631413748E+02	-4.98806809082E+01	6.81868359543E+01	-5.98962988449E+00	-8.83738517361E-01
2.07530836760E+06	-1.08934921549E+01	1.61163326176E+02	5.50854699721E+00	1.73010712302E+02	-4.15607187610E+01	1.28297380144E+02	-5.98914907964E+00	-8.53258571858E-01
2.09749972219E+06	-1.84135537084E+01	-1.39398267050E+02	5.57213348600E+00	1.72876518292E+02	-2.97638446176E+01	-8.21803916669E+01	-6.04594986593E+00	-7.70349035325E-01
2.11969107679E+06	-1.48648831009E+01	-1.59086684955E+02	5.53591581775E+00	1.72633633307E+02	-4.20977348274E+01	-3.13764163996E+01	-5.99961668793E+00	-8.83219595276E-01
2.14188243138E+06	-1.46114877095E+01	-1.76958888964E+02	5.56223428228E+00	1.72611193943E+02	-5.43052651206E+01	-2.59612274080E+01	-6.00607229327E+00	-8.29456208470E-01
2.16407378598E+06	-1.55164357030E+01	-1.69910304536E+02	5.50839136532E+00	1.72241570935E+02	-3.97402155223E+01	7.19609639944E+01	-6.00544428966E+00	-9.77661765071E-01
2.18626514057E+06	-1.23008162813E+01	-1.78310686106E+02	5.51018175937E+00	1.72501860499E+02	-4.26493088207E+01	-3.65119517289E+00	-6.02974364248E+00	-9.84994980847E-01
2.20845649517E+06	-1.63110303071E+01	1.75168613983E+02	5.54739286586E+00	1.72470700097E+02	-4.75998334723E+01	1.00037945689E+02	-5.99484517999E+00	-9.94757663515E-01
2.23064784976E+06	-1.40648934143E+01	-1.65745796595E+02	5.52214110151E+00	1.72243781485E+02	-4.19297473084E+01	-5.04782154848E+00	-6.02800510384E+00	-1.05137146208E+00
2.25283920436E+06	-1.47296303242E+01	-1.36234262822E+02	5.59964600766E+00	1.72186210105E+02	-3.35614869481E+01	1.70126830225E+02	-5.96165128584E+00	-7.45259808490E-01
2.27503055895E+06	-1.66301617073E+01	-1.71576918983E+02	5.55099201648E+00	1.71942593850E+02	-6.12406012030E+01	1.61787088503E+02	-5.99629212947E+00	-9.90576152020E-01
2.29722191355E+06	-1.74270853601E+01	-1.57887774648E+02	5.56736947701E+00	1.72030943808E+02	-4.79634064208E+01	-1.09400367600E+00	-6.01146380230E+00	-1.20715568600E+00
2.31941326814E+06	-1.89905258184E+01	-1.71179935551E+02	5.55244378921E+00	1.72032053295E+02	-4.86674117918E+01	-1.48566495659E+02	-5.99217829427E+00	-9.46290530849E-01
2.34160462274E+06	-1.50742255342E+01	-1.65287262180E+02	5.57235669938E+00	1.71795749405E+02	-4.24696222200E+01	1.32998038522E+02	-5.98449634304E+00	-9.50978039058E-01
2.36379597733E+06	-1.29356618189E+01	-1.69519699669E+02	5.52775985040E+00	1.71536918034E+02	-4.52343396713E+01	3.17724092097E+01	-5.98589011177E+00	-1.08687881336E+00
2.38598733193E+06	-1.42100565644E+01	-1.66774282530E+02	5.53963953529E+00	1.71605630977E+02	-4.40057337582E+01	4.60655085007E+00	-5.99548287812E+00	-9.75409403032E-01
2.40817868652E+06	-9.40628175671E+00	-1.55747501480E+02	5.56572151488E+00	1.70972175976E+02	-3.65966701987E+01	1.29372404920E+02	-5.97829368551E+00	-1.15919601797E+00
2.43037004112E+06	-1.58529368019E+01	-1.72959816700E+02	5.56977284876E+00	1.71735935135E+02	-5.19817055679E+01	1.59035711244E+02	-6.00069710681E+00	-1.28423034566E+00
2.45256139571E+06	-1.78787620471E+01	-1.65633581396E+02	5.57270098785E+00	1.71328298580E+02	-5.08395022718E+01	3.21484410264E+00	-6.01462691805E+00	-1.11197369830E+00
2.47475275031E+06	-1.56424514367E+01	1.65585776733E+02	5.54230402443E+00	1.71358552513E+02	-4.75837236683E+01	-1.79908634124E+02	-5.99589311690E+00	-1.19251430726E+00
2.49694410490E+06	-1.27430390498E+01	1.77425531828E+02	5.55823160396E+00	1.71380055201E+02	-4.82758397876E+01	9.63391687705E+01	-6.00841037386E+00	-1.06434825252E+00
2.51913545950E+06	-1.42539094571E+01	-1.72458731215E+02	5.52498590824E+00	1.71195537744E+02	-5.33191460255E+01	-9.01160677170E+01	-5.99545930323E+00	-1.09823293343E+00
2.54132681409E+06	-1.05666465915E+01	-1.57503872636E+02	5.56374744367E+00	1.70513085521E+02	-5.10451586926E+01	1.06192978909E+02	-6.01037341282E+00	-1.03167618751E+00
2.56351816869E+06	-1.36334186537E+01	-1.45643445988E+02	5.57645936043E+00	1.70986779180E+02	-4.86316430552E+01	7.14120773181E+01	-6.01393767692E+00	-1.02918528587E+00
2.58570952328E+06	-1.37792641046E+01	-1.76017282876E+02	5.56180518287E+00	1.70814491695E+02	-4.37615344746E+01	3.67700338567E+01	-6.02865155574E+00	-1.17599833091E+00
2.60790087788E+06	-1.15684240291E+01	-1.71387958058E+02	5.55416814565E+00	1.70704760166E+02	-4.57415967711E+01	1.36359416961E+02	-6.00173610443E+00	-9.68026604579E-01
2.63009223247E+06	-1.24117658320E+01	-1.74028250569E+02	5.52445413995E+00	1.70479418458E+02	-4.63509493036E+01	-3.97455808229E+01	-6.03083488186E+00	-5.23055311242E-01
2.65228358707E+06	-1.31023646267E+01	-1.75090115285E+02	5.57244431225E+00	1.70477430886E+02	-4.65357084742E+01	-1.37062423122E+01	-6.01395762554E+00	-1.02708012155E+00
2.67447494166E+06	-1.44955922785E+01	-1.63605053961E+02	5.59903266184E+00	1.70377139073E+02	-6.28561240864E+01	-7.09164579463E+01	-6.02086760570E+00	-1.10933962240E+00
2.69666629626E+06	-1.35147134198E+01	-1.71556770361E+02	5.54974821324E+00	1.70615984840E+02	-5.10840020080E+01	-1.06187926541E+02	-5.99987259972E+00	-1.06736885447E+00
2.71885765085E+06	-1.35849429390E+01	-1.29861622605E+02	5.64776729919E+00	1.70057897170E+02	-5.05334096550E+01	-1.20098521582E+02	-6.02265826598E+00	-1.15501756647E+00
2.74104900545E+06	-1.41603083138E+01	-1.73322531427E+02	5.54625925528E+00	1.70066440736E+02	-5.22491599296E+01	1.34567929543E+02	-6.00428122318E+00	-1.26057842105E+00
2.76324036004E+06	-1.32748432416E+01	-1.57273115989E+02	5.54862589198E+00	1.69970295960E+02	-4.71836439906E+01	1.62339147801E+02	-6.00085790366E+00	-1.12359681710E+00
2.78543171463E+06	-1.49389410170E+01	-1.49095134761E+02	5.56308415752E+00	1.70060248159E+02	-4.55412410463E+01	9.88829562140E+01	-5.99416190181E+00	-1.21973921742E+00
2.80762306923E+06	-1.52116068802E+01	-1.66459098393E+02	5.56080429979E+00	1.69879306795E+02	-4.62756367033E+01	-7.59162383581E+01	-6.00613148011E+00	-1.24382136658E+00
2.82981442382E+06	-1.38991447715E+01	-1.72120904887E+02	5.50688142281E+00	1.70110228610E+02	-4.45080232108E+01	-1.53712977803E+02	-6.00381469953E+00	-1.18521267818E+00
2.85200577842E+06	-1.54878985515E+01	-1.72287906284E+02	5.59342882427E+00	1.70055415223E+02	-4.07403045156E+01	1.77145896283E+02	-5.97252513016E+00	-1.21657128127E+00
2.87419713301E+06	-1.75958144496E+01	1.57595636776E+02	5.52700299042E+00	1.70017795422E+02	-3.85245535658E+01	-5.66829290160E-01	-6.01769294054E+00	-1.50083756667E+00
