# Hz S DB R 50
! CMT, M5065, 19127446, 24.2.4/2
! Date: 11/8/2024 3:03:12 PM
! Data: Format (Calibration Info)
! Freq	S11:dB/Ang(F2)	S21:dB/Ang(F2)	S12:dB/Ang(F2)	S22:dB/Ang(F2)
3.00000000000E+05	-1.46630591999E+01	1.71313386607E+02	1.12157474556E+01	-1.77356822572E+02	-4.47993291588E+01	-1.60541587897E+02	-5.99136391683E+00	-1.63893401571E-01
3.22191354595E+05	-1.43776410663E+01	-1.78372905742E+02	1.12062795793E+01	-1.77834554472E+02	-4.08674900984E+01	1.58811941794E+02	-5.96321768835E+00	-3.30060346664E-01
3.44382709190E+05	-1.63818907177E+01	1.34863619460E+02	1.12709228086E+01	-1.77988381218E+02	-4.55069303874E+01	-7.96847240244E+01	-6.00754896616E+00	-2.03887288421E-01
3.66574063785E+05	-1.41394959600E+01	-1.66158434315E+02	1.12297771706E+01	-1.78659793858E+02	-4.31818927177E+01	-5.49896716317E+00	-6.01450962769E+00	-3.07486525035E-01
3.88765418380E+05	-1.45201135254E+01	1.59324169909E+02	1.12366128664E+01	-1.78729866754E+02	-3.74819167260E+01	-1.16555014144E+02	-6.15744552032E+00	2.90379543316E-01
4.10956772975E+05	-1.32156490077E+01	-1.63442706481E+02	1.12189904956E+01	-1.79291743184E+02	-4.20899863042E+01	-1.76037784498E+02	-5.97529440285E+00	-2.18477793759E-01
4.33148127570E+05	-1.43861433339E+01	1.74608083340E+02	1.12449215250E+01	-1.79392897618E+02	-4.00932110909E+01	-1.03145516752E+01	-6.01892067596E+00	-2.16633839141E-01
4.55339482165E+05	-1.44781781565E+01	-1.53183839031E+02	1.12479793068E+01	1.79982509176E+02	-4.97633128979E+01	-1.81898718869E+01	-6.00519406256E+00	-2.97921697907E-01
4.77530836760E+05	-1.29292888587E+01	1.70231646797E+02	1.12155963365E+01	-1.79870432968E+02	-5.54565488230E+01	1.23928798095E+02	-5.98359159818E+00	-3.45945525569E-01
4.99722191355E+05	-9.54225288096E+00	1.64916961114E+02	1.11788425251E+01	1.79836546845E+02	-4.67638900358E+01	-1.74717672624E+02	-5.96643950048E+00	-2.83709298321E-01
5.21913545950E+05	-1.63816444870E+01	-1.76933993783E+02	1.12318143408E+01	1.79217086253E+02	-4.31272805203E+01	-1.71796397441E+02	-5.99858105713E+00	-2.56323687612E-01
5.44104900545E+05	-1.90312401533E+01	-1.52408617713E+02	1.12708625463E+01	1.79320962731E+02	-4.27388781280E+01	8.77326257651E+01	-5.99853410516E+00	-3.70284174462E-01
5.66296255139E+05	-1.40760562513E+01	1.75298886911E+02	1.12469677808E+01	1.78997131747E+02	-3.90223255014E+01	-8.05809196882E+01	-5.99210387864E+00	-2.52714486718E-01
5.88487609734E+05	-1.28809132655E+01	-1.73293447308E+02	1.12297438604E+01	1.79073032727E+02	-4.39842575552E+01	1.24026858004E+01	-6.00582946116E+00	-4.36734216646E-01
6.10678964329E+05	-1.37955706925E+01	1.78086441086E+02	1.12422705437E+01	1.78662050280E+02	-5.19841513771E+01	6.20440224729E+01	-6.01941909070E+00	2.00127871129E-01
6.32870318924E+05	-1.56410211683E+01	1.76218115590E+02	1.12538201589E+01	1.78740057108E+02	-5.18854351520E+01	-4.99439787087E+01	-6.01481573152E+00	1.80516349485E-02
6.55061673519E+05	-1.85111528131E+01	1.61361423901E+02	1.12660789133E+01	1.78735823765E+02	-4.58696856046E+01	8.40230062199E+01	-5.99113661896E+00	-4.23684293079E-01
6.77253028114E+05	-1.21037235453E+01	1.77843841590E+02	1.12301331368E+01	1.78226880040E+02	-4.12009037360E+01	7.20711184064E+01	-5.99421226273E+00	-7.71703872503E-01
6.99444382709E+05	-1.60797984724E+01	-1.76982100139E+02	1.12461937143E+01	1.78089810380E+02	-4.47790811060E+01	-8.21573802009E+01	-5.99459588130E+00	-1.65496997130E-01
7.21635737304E+05	-1.36808739211E+01	-1.79701790542E+02	1.12513914055E+01	1.77878317437E+02	-3.98276197885E+01	-9.31230278351E+00	-6.01824455292E+00	-2.81618399677E-01
7.43827091899E+05	-1.27677295632E+01	1.74014923362E+02	1.12378038399E+01	1.77538366918E+02	-3.90766670423E+01	-1.60391438414E+02	-5.99138367983E+00	-4.35427151730E-01
7.66018446494E+05	-1.32271879634E+01	-1.67484792917E+02	1.12613553922E+01	1.77479628172E+02	-4.41177171733E+01	-3.79877350692E+01	-6.00952656470E+00	-3.74887017410E-01
7.88209801089E+05	-1.39886444985E+01	-1.75902862380E+02	1.12411178965E+01	1.77546634969E+02	-4.71478147941E+01	-5.90785536413E+01	-6.00453937623E+00	-4.52834865313E-01
8.10401155684E+05	-1.52251102971E+01	-1.53849867676E+02	1.12599044583E+01	1.77039977118E+02	-5.10970920255E+01	-8.10231032315E+01	-6.00811213363E+00	-3.22330523571E-01
8.32592510279E+05	-1.18875061971E+01	-1.77765069455E+02	1.12095489647E+01	1.77194295717E+02	-5.66434674991E+01	7.48576933539E+01	-6.00098461267E+00	-4.00753319699E-01
8.54783864874E+05	-1.40864411359E+01	1.72514045716E+02	1.12438049532E+01	1.77038891183E+02	-5.30389813248E+01	-1.56477251049E+02	-5.99247966674E+00	-2.60059240201E-01
8.76975219469E+05	-1.64965768442E+01	-1.67993063555E+02	1.12737951518E+01	1.76639487467E+02	-5.79105386144E+01	3.41395907340E+01	-6.00585124084E+00	-4.97203816449E-01
8.99166574064E+05	-1.14952351364E+01	-1.61368178572E+02	1.12424278044E+01	1.76405954967E+02	-5.32197294263E+01	1.07844916124E+02	-6.01548018288E+00	-4.00180314014E-01
9.21357928659E+05	-1.21224084299E+01	1.72678486986E+02	1.11961449490E+01	1.76628400506E+02	-4.00092944918E+01	1.34644994575E+02	-5.97540618111E+00	-4.12814053238E-01
9.43549283254E+05	-1.22860410442E+01	-1.72536941467E+02	1.12125572406E+01	1.76313053103E+02	-4.85832932407E+01	-7.27913122750E+01	-6.01857476457E+00	-3.05132783325E-01
9.65740637849E+05	-1.54916152986E+01	-1.68341371279E+02	1.12330904349E+01	1.76334017315E+02	-4.00298909609E+01	1.02955216419E+02	-5.97287684593E+00	-5.16628029813E-01
9.87931992444E+05	-1.39857141473E+01	1.75626103748E+02	1.12271643656E+01	1.76305855171E+02	-5.66291003082E+01	-1.16494165651E+02	-5.99631909234E+00	-2.63189590398E-01
1.01012334704E+06	-1.45484053576E+01	-1.66030918987E+02	1.12235043006E+01	1.75858618599E+02	-4.23876825005E+01	1.66291191109E+02	-5.98568249093E+00	-6.07198580764E-01
1.03231470163E+06	-1.31780956201E+01	1.54464744883E+02	1.12189494600E+01	1.75925822678E+02	-4.70233159713E+01	5.82034489527E+01	-5.99346808182E+00	-7.06476441381E-01
1.05450605623E+06	-1.47483628238E+01	-1.72121357448E+02	1.12216029587E+01	1.75595825144E+02	-4.46686370273E+01	1.05540747737E+01	-6.02666091451E+00	-5.15336786611E-01
1.07669741082E+06	-1.62221904581E+01	1.67012302681E+02	1.12750645959E+01	1.75627899579E+02	-4.31421613161E+01	-7.99276147994E+01	-5.98153563717E+00	-3.63301015489E-01
1.09888876542E+06	-1.32400840427E+01	-1.65160365373E+02	1.12379257150E+01	1.75289904394E+02	-5.26755095124E+01	7.47847265579E+01	-6.00529242681E+00	-5.16772524521E-01
1.12108012001E+06	-1.74791458513E+01	-1.73081277203E+02	1.12255437448E+01	1.75423540787E+02	-4.94125490127E+01	-1.42743058163E+02	-6.00630235943E+00	-4.21421722271E-01
1.14327147461E+06	-1.36082811587E+01	-1.71585468009E+02	1.12213969829E+01	1.75106344330E+02	-6.06603187728E+01	1.03984595833E+02	-6.00000693699E+00	-5.36324441773E-01
1.16546282920E+06	-1.55529715561E+01	-1.64090174705E+02	1.12507974145E+01	1.74958657864E+02	-4.51763307647E+01	-2.45528033168E+01	-6.01910752285E+00	-6.39557121385E-01
1.18765418380E+06	-1.31272223387E+01	-1.65839809826E+02	1.12413700702E+01	1.74921459528E+02	-4.24038554573E+01	6.89787824147E+00	-6.02606252646E+00	-4.09826143986E-01
1.20984553839E+06	-1.42008914394E+01	-1.72262765092E+02	1.12421583682E+01	1.74625181281E+02	-4.42016246255E+01	-1.21682768722E+02	-5.99639395905E+00	-6.76626824130E-01
1.23203689299E+06	-1.63438492361E+01	-1.61481209878E+02	1.12578668232E+01	1.74645018010E+02	-4.36060105070E+01	-1.65005890907E+02	-5.97721208054E+00	-8.31032629168E-02
1.25422824758E+06	-1.54119685250E+01	1.66899603831E+02	1.12229494984E+01	1.74594639175E+02	-5.90404831597E+01	-3.55880323319E+00	-5.98017948839E+00	-7.12060999802E-01
1.27641960218E+06	-1.36555667086E+01	1.67299183585E+02	1.12153619684E+01	1.74539180972E+02	-4.25409755947E+01	-1.13102777092E+02	-6.00602844059E+00	-4.47880434184E-01
1.29861095677E+06	-1.69580006879E+01	1.69013440492E+02	1.12358204045E+01	1.74507190709E+02	-4.62225368481E+01	1.65962345994E+02	-5.98968596374E+00	-5.86548070474E-01
1.32080231137E+06	-1.47914184696E+01	-1.73346137172E+02	1.12873899954E+01	1.73994018959E+02	-6.12321712571E+01	-7.71603214750E+01	-5.98064861834E+00	-9.31701358630E-01
1.34299366596E+06	-1.76077608261E+01	-1.79221932326E+02	1.12501918254E+01	1.74078983998E+02	-4.11061657260E+01	1.74706991863E+02	-5.96461406993E+00	-6.76704428912E-01
1.36518502056E+06	-1.42702627010E+01	1.74824436446E+02	1.12248818684E+01	1.73973649473E+02	-4.69544655731E+01	-1.59553838691E+02	-5.99287102644E+00	-4.83175434327E-01
1.38737637515E+06	-1.29560735397E+01	-1.68572232970E+02	1.12395065316E+01	1.73533385895E+02	-4.26137865625E+01	6.61601114022E+01	-6.01904674876E+00	-8.13065640193E-01
1.40956772975E+06	-1.41236370605E+01	1.79835061037E+02	1.12317227561E+01	1.73756960519E+02	-5.13540984696E+01	-9.64229076427E+00	-5.99347881304E+00	-7.41441818336E-01
1.43175908434E+06	-1.30667829263E+01	-1.77236050094E+02	1.12101844687E+01	1.73437135482E+02	-4.60809249631E+01	-1.31185633537E+02	-5.97624351994E+00	-6.05639032471E-01
1.45395043894E+06	-2.64833056635E+01	1.70929671469E+02	1.12786076565E+01	1.73877308270E+02	-4.44463088579E+01	6.59813902271E+01	-6.00663548579E+00	-6.79645522217E-01
1.47614179353E+06	-1.71654398280E+01	1.75837999185E+02	1.12510208996E+01	1.73186963063E+02	-4.03578509988E+01	-4.47393147985E+01	-6.00818504830E+00	-5.10168019479E-01
1.49833314813E+06	-1.12479328947E+01	-1.73742436245E+02	1.12203993292E+01	1.72889751711E+02	-3.39034632489E+01	1.45039365112E+02	-5.92971701122E+00	-7.67394654539E-01
1.52052450272E+06	-1.71958600718E+01	-1.77572706550E+02	1.12536491303E+01	1.72961030545E+02	-4.51201360957E+01	-1.71314414820E+02	-5.99192926218E+00	-7.04669519246E-01
1.54271585732E+06	-1.17707403622E+01	-1.67376903692E+02	1.12257675771E+01	1.72635955467E+02	-5.14122720501E+01	-3.87268685408E+01	-6.02154532606E+00	-8.11609266348E-01
1.56490721191E+06	-1.44601166862E+01	-1.54471252173E+02	1.12940955575E+01	1.72640939329E+02	-5.03915980801E+01	1.49693789282E+02	-5.99074671528E+00	-6.99781150805E-01
1.58709856651E+06	-1.35106435878E+01	1.77072146420E+02	1.12312589911E+01	1.72659324553E+02	-5.00569163814E+01	1.09726359687E+02	-6.00554087808E+00	-7.47745203914E-01
1.60928992110E+06	-1.27776468477E+01	1.44712383285E+02	1.12059297141E+01	1.72913710216E+02	-5.24030236970E+01	1.10989445156E+02	-5.98726971124E+00	-7.48684352826E-01
1.63148127570E+06	-1.24313132825E+01	-1.64909740240E+02	1.12436487729E+01	1.72042431457E+02	-4.06220263565E+01	-1.28898774752E+02	-5.99783972757E+00	-5.71968808918E-01
1.65367263029E+06	-1.41907453645E+01	-1.69719315679E+02	1.12563686967E+01	1.72256654471E+02	-5.38198269654E+01	-8.48935026255E+01	-6.02346448095E+00	-7.06932823314E-01
1.67586398489E+06	-1.26626159573E+01	-1.66898041100E+02	1.12596433698E+01	1.72058775551E+02	-4.33305612141E+01	8.89110545798E+01	-5.99776618833E+00	-7.47988350989E-01
1.69805533948E+06	-1.46571808949E+01	-1.69966373530E+02	1.12704883281E+01	1.71963186152E+02	-4.30742745799E+01	1.02938151774E+02	-6.00281951805E+00	-9.01365649560E-01
1.72024669408E+06	-1.54321642766E+01	-1.77681278589E+02	1.12583606892E+01	1.71909791521E+02	-4.72285162401E+01	-7.69192711550E+01	-6.01224865848E+00	-7.60137152323E-01
1.74243804867E+06	-2.10960808641E+01	-1.47614254668E+02	1.12965097890E+01	1.72008111244E+02	-4.93707274681E+01	6.59274896762E+01	-5.99263825893E+00	-7.82047351260E-01
1.76462940327E+06	-1.18240465391E+01	1.69402916725E+02	1.12160209654E+01	1.71570368773E+02	-5.52670967859E+01	-9.77779768036E+01	-5.97161556800E+00	-7.67630707556E-01
1.78682075786E+06	-1.42549230776E+01	-1.72349059594E+02	1.12353458038E+01	1.71454507187E+02	-7.33337867959E+01	-8.17167214405E+01	-5.98587419785E+00	-7.06501482175E-01
1.80901211246E+06	-1.32869970907E+01	-1.66935249239E+02	1.12400375090E+01	1.71150966370E+02	-3.18446824391E+01	-1.30790450634E+01	-6.04952865656E+00	-9.01882397722E-01
1.83120346705E+06	-1.39729691973E+01	-1.75759522468E+02	1.12588806087E+01	1.71222502396E+02	-4.09079366035E+01	-1.63904066569E+02	-5.98922989625E+00	-6.19803872432E-01
1.85339482165E+06	-1.42292229788E+01	1.70680039120E+02	1.12466127097E+01	1.71307309970E+02	-4.68441227400E+01	-1.61924208432E+02	-5.97201822682E+00	-7.81855313862E-01
1.87558617624E+06	-1.16493381832E+01	1.78474976838E+02	1.12432356140E+01	1.70980549492E+02	-4.20658883257E+01	7.91474236789E+01	-5.99315308903E+00	-1.12029620822E+00
1.89777753084E+06	-1.13816646913E+01	-1.67882715197E+02	1.12202785286E+01	1.70693801635E+02	-4.80159834623E+01	-4.31915382498E+01	-6.00961554138E+00	-7.74167191967E-01
1.91996888543E+06	-2.06084283575E+01	-1.62589265484E+02	1.12749771786E+01	1.70855183885E+02	-4.44428079206E+01	5.66259730544E+01	-5.99126578053E+00	-1.01241510966E+00
1.94216024003E+06	-1.39244480146E+01	1.72897889502E+02	1.12299196147E+01	1.70895306113E+02	-6.37697093452E+01	1.40399272711E+02	-5.98253661974E+00	-7.68506801615E-01
1.96435159462E+06	-1.41991044789E+01	-1.60909249891E+02	1.12747190771E+01	1.70449400885E+02	-4.79104002603E+01	8.52111365824E+01	-5.99400531096E+00	-9.38650951108E-01
1.98654294922E+06	-1.37463589393E+01	-1.65472667842E+02	1.12506182676E+01	1.70167395306E+02	-4.52430881916E+01	-1.38022059328E+02	-5.98473948113E+00	-8.33284710636E-01
2.00873430381E+06	-1.57359229791E+01	1.79245622724E+02	1.12674042816E+01	1.70565248678E+02	-4.03551178883E+01	1.07581188188E+02	-5.98424327915E+00	-1.01834132337E+00
2.03092565841E+06	-1.12747649004E+01	-1.77457096833E+02	1.12109468870E+01	1.70145696316E+02	-4.65037980874E+01	-1.12628013898E+02	-5.99317922593E+00	-7.58770376648E-01
2.05311701300E+06	-1.57406889736E+01	1.76049564049E+02	1.12477711927E+01	1.70017741559E+02	-5.16976399105E+01	-6.56203298302E+01	-5.98857514959E+00	-9.31323948760E-01
2.07530836760E+06	-1.58686201973E+01	-1.22357713262E+02	1.13181497081E+01	1.70001957218E+02	-5.49739390865E+01	-1.77403360989E+02	-6.00020989640E+00	-8.16396870319E-01
2.09749972219E+06	-1.29965489362E+01	-1.77798347573E+02	1.12524350011E+01	1.69941692024E+02	-4.40380801461E+01	1.46171959261E+02	-5.97381951401E+00	-8.59571252611E-01
2.11969107679E+06	-1.39806443191E+01	1.78665162598E+02	1.12363573354E+01	1.69655408244E+02	-4.68007895965E+01	1.30066938239E+02	-5.99033282772E+00	-8.98172172275E-01
2.14188243138E+06	-1.47257308492E+01	-1.54042379033E+02	1.12931931670E+01	1.69606931653E+02	-5.03011393976E+01	1.21618490499E+01	-5.99020282420E+00	-8.38853612507E-01
2.16407378598E+06	-1.26360550173E+01	-1.73188138022E+02	1.12390230894E+01	1.69172689124E+02	-3.76431301618E+01	-1.74774075052E+01	-6.04279360377E+00	-8.81711112736E-01
2.18626514057E+06	-1.27498622293E+01	1.62868238957E+02	1.12561730905E+01	1.69549836178E+02	-4.51333869181E+01	7.62946876526E+01	-5.97942503748E+00	-1.16249340038E+00
2.20845649517E+06	-1.34676686887E+01	-1.62910120210E+02	1.12695646219E+01	1.69153151739E+02	-4.39426248305E+01	8.99310930636E+01	-5.99627093999E+00	-1.18638375200E+00
2.23064784976E+06	-7.65108013034E+00	-1.77490620238E+02	1.12223792161E+01	1.68517366986E+02	-4.77927701799E+01	1.11686278650E+02	-6.01467987503E+00	-1.02054069171E+00
2.25283920436E+06	-1.02796601260E+01	-1.61260220147E+02	1.12386373934E+01	1.68517079813E+02	-5.08783942081E+01	-1.52377119187E+02	-5.99718490033E+00	-9.76591461185E-01
2.27503055895E+06	-1.33273068892E+01	-1.71442920435E+02	1.12611993810E+01	1.68878498359E+02	-4.14428966913E+01	-1.32616673923E+02	-5.97152929167E+00	-8.55383590553E-01
2.29722191355E+06	-2.00890236382E+01	-1.60540165317E+02	1.13050286296E+01	1.68883850898E+02	-4.45080403007E+01	1.27322849516E+02	-5.97128504968E+00	-1.10356440766E+00
2.31941326814E+06	-1.49214833551E+01	-1.68718444490E+02	1.12833190195E+01	1.68743818800E+02	-5.09989925816E+01	-5.61268899337E+01	-6.01035184265E+00	-9.54055839560E-01
2.34160462274E+06	-1.39449836336E+01	-1.69449173696E+02	1.12711606642E+01	1.68338280013E+02	-4.77318014092E+01	-1.46412062263E+02	-5.99423829437E+00	-1.00053072983E+00
2.36379597733E+06	-1.70681419035E+01	1.63965930075E+02	1.12864079681E+01	1.68692068217E+02	-4.41313712259E+01	6.50037036403E+01	-5.98531657331E+00	-1.23160389657E+00
2.38598733193E+06	-1.91619642288E+01	1.03751812440E+02	1.12586571745E+01	1.68962818777E+02	-4.45631423692E+01	1.73093925950E+01	-5.99845958902E+00	-1.13594097019E+00
2.40817868652E+06	-1.14872132035E+01	-1.63587417143E+02	1.12594941079E+01	1.67979565398E+02	-3.81781942125E+01	6.00771277119E+01	-5.98264461312E+00	-1.46759476720E+00
2.43037004112E+06	-1.22952107672E+01	-1.76605522659E+02	1.12441256184E+01	1.67871190341E+02	-4.27029384358E+01	-1.47691075861E+02	-5.98773123195E+00	-1.27256731735E+00
2.45256139571E+06	-1.26695060430E+01	-1.64484007265E+02	1.12775152613E+01	1.67856295309E+02	-3.57003114558E+01	1.51189308680E+02	-5.96764973600E+00	-1.00960043644E+00
2.47475275031E+06	-1.47449220380E+01	-1.66368118087E+02	1.12787111079E+01	1.67806922293E+02	-4.35308373622E+01	1.13716073176E+02	-5.99844056823E+00	-1.15341701294E+00
2.49694410490E+06	-1.59803511337E+01	-1.60635942709E+02	1.12705115162E+01	1.67570186491E+02	-6.18075834793E+01	-1.98509614651E+01	-6.01043306462E+00	-1.07358926731E+00
2.51913545950E+06	-1.41148343612E+01	-1.68060397594E+02	1.13007621709E+01	1.67371727827E+02	-5.31967021391E+01	4.99720376140E+01	-5.99302398855E+00	-1.17681129856E+00
2.54132681409E+06	-1.31517198271E+01	-1.70536386489E+02	1.12584661478E+01	1.67575943572E+02	-5.07052961464E+01	8.97518896487E+01	-6.00299366344E+00	-1.08546993176E+00
2.56351816869E+06	-1.39986591302E+01	-1.59919442980E+02	1.12729206132E+01	1.67304052398E+02	-4.69201539510E+01	1.55778556916E+02	-5.99372841001E+00	-1.11653166975E+00
2.58570952328E+06	-1.41187383976E+01	-1.77727787901E+02	1.12545273194E+01	1.67274161022E+02	-4.05807564919E+01	-1.52888869278E+02	-5.99709607416E+00	-1.01329352743E+00
2.60790087788E+06	-1.37496388788E+01	-1.71195290375E+02	1.12746607928E+01	1.66992326308E+02	-3.43819934276E+01	-1.39700860130E+00	-6.05171657108E+00	-1.48718268331E+00
2.63009223247E+06	-1.11206477710E+01	-1.60127614978E+02	1.12646198654E+01	1.66658317765E+02	-4.42113072944E+01	-1.10342685988E+02	-6.01630906995E+00	-6.00831010625E-01
2.65228358707E+06	-1.50393556553E+01	1.75602888934E+02	1.12630319908E+01	1.67042241636E+02	-4.98046867516E+01	-8.52067810295E+01	-5.99972682680E+00	-1.00171635162E+00
2.67447494166E+06	-1.11934196620E+01	1.77760796735E+02	1.12524356037E+01	1.66574826435E+02	-5.22482813583E+01	-7.48858292243E+00	-6.00995526176E+00	-1.12987608052E+00
2.69666629626E+06	-1.45894964622E+01	-1.52758610190E+02	1.12983473316E+01	1.66603698088E+02	-4.52296231895E+01	-1.17927413645E+02	-6.00283878321E+00	-8.56231284389E-01
2.71885765085E+06	-1.40342396232E+01	-1.67967379209E+02	1.12827399187E+01	1.66352405120E+02	-5.46938797098E+01	-6.53953860917E+01	-6.00627119295E+00	-1.02138880371E+00
2.74104900545E+06	-1.30203404699E+01	-1.65682475085E+02	1.12836523426E+01	1.66305065322E+02	-5.44407745287E+01	1.26905558511E+02	-5.98983594986E+00	-1.17678916464E+00
2.76324036004E+06	-1.05372112061E+01	-1.72237999235E+02	1.12387913673E+01	1.66109356931E+02	-4.32563912922E+01	-6.84594565242E+01	-5.99659380161E+00	-1.18828954691E+00
2.78543171463E+06	-1.33176918864E+01	-1.64880028883E+02	1.12799491996E+01	1.66179269876E+02	-7.58797037198E+01	4.36316633096E+01	-6.00436291615E+00	-1.11610382162E+00
2.80762306923E+06	-1.30382553878E+01	1.71311290292E+02	1.12558976371E+01	1.66344319832E+02	-4.84768791372E+01	-1.38571984968E+02	-5.99057140164E+00	-1.14246353983E+00
2.82981442382E+06	-1.22025288553E+01	-1.45262446123E+02	1.13122887874E+01	1.65657518601E+02	-4.20235492754E+01	-8.75935758437E+01	-6.02461861808E+00	-1.16429932411E+00
2.85200577842E+06	-1.93969635858E+01	1.78326200780E+02	1.13073287202E+01	1.66111780743E+02	-4.27402236894E+01	-6.04802343641E+01	-6.01316090398E+00	-1.03680168148E+00
2.87419713301E+06	-1.35493438004E+01	-1.57031779770E+02	1.13161285523E+01	1.65552873434E+02	-4.64448279722E+01	-1.50364238592E+02	-5.99187849786E+00	-1.10241715054E+00
