# Hz S DB R 50
! CMT, M5065, 19127446, 24.2.4/2
! Date: 11/8/2024 3:08:06 PM
! Data: Format (Calibration Info)
! Freq	S11:dB/Ang(F2)	S21:dB/Ang(F2)	S12:dB/Ang(F2)	S22:dB/Ang(F2)
3.00000000000E+05	-1.48445991926E+01	-1.61539957623E+02	1.01054601550E+01	-1.77602345135E+02	-3.89481950034E+01	4.67081195544E+01	-6.01050943551E+00	-4.64053217753E-01
3.22191354595E+05	-1.71526425427E+01	-1.59707921420E+02	1.01533676120E+01	-1.78046076974E+02	-4.80937410530E+01	1.08632664193E+02	-5.99876209072E+00	-2.23196911717E-01
3.44382709190E+05	-1.07906468959E+01	-1.68228888282E+02	1.00958250946E+01	-1.78535274367E+02	-5.33106646209E+01	-9.51685946202E+01	-6.00123490045E+00	-4.40653457834E-01
3.66574063785E+05	-1.24027143805E+01	-1.51646616931E+02	1.01439409970E+01	-1.79108917902E+02	-4.29162908236E+01	-2.14360913764E+01	-6.02351596299E+00	-3.12960102948E-01
3.88765418380E+05	-1.22166846759E+01	1.75304567785E+02	1.00871320428E+01	-1.79091521925E+02	-4.43276724853E+01	-2.10887230972E+01	-6.04261032641E+00	-4.66014994161E-01
4.10956772975E+05	-1.69742378651E+01	1.63123542977E+02	1.02018052164E+01	-1.79073960064E+02	-4.34188899298E+01	-1.62479335060E+01	-6.01179216313E+00	-1.81409578462E-01
4.33148127570E+05	-1.40217164986E+01	1.77826592510E+02	1.01410655586E+01	-1.79488650980E+02	-4.59094977605E+01	1.27956145927E+02	-6.00850141498E+00	-3.88725771670E-01
4.55339482165E+05	-1.60203073814E+01	-1.79473589241E+02	1.01233907430E+01	-1.79704094924E+02	-4.09452872069E+01	3.82557687641E+01	-6.03675893147E+00	-3.14533292830E-01
4.77530836760E+05	-1.48155781874E+01	-1.52383587973E+02	1.01693710147E+01	1.79889538226E+02	-4.29449407774E+01	-4.00976552352E+00	-6.01098265732E+00	-9.73680821239E-02
4.99722191355E+05	-1.28415429465E+01	-1.61971250899E+02	1.01399756645E+01	1.79833370588E+02	-4.45713367274E+01	4.73154961238E+01	-6.01311149094E+00	-2.63746691575E-01
5.21913545950E+05	-1.67913548094E+01	1.75654739616E+02	1.01687459087E+01	1.79820732151E+02	-4.01631970507E+01	-2.46629320699E+01	-6.02138680907E+00	-4.09395157123E-01
5.44104900545E+05	-1.24548712510E+01	-1.64997166451E+02	1.01138532123E+01	1.79386014935E+02	-4.10165477202E+01	2.96728837570E+00	-5.99215550918E+00	-3.73102203046E-01
5.66296255139E+05	-1.20636981086E+01	1.60965381368E+02	1.01308263187E+01	1.79390079038E+02	-4.85110397266E+01	-1.06053690062E+02	-5.97771655911E+00	-2.32158252170E-01
5.88487609734E+05	-1.44310808241E+01	-1.77395190264E+02	1.01573821327E+01	1.79053595788E+02	-5.18726106213E+01	-2.68362509304E+01	-5.97715788023E+00	-4.39653915591E-01
6.10678964329E+05	-1.35628857100E+01	1.78602971193E+02	1.01596240948E+01	1.78873738467E+02	-4.57086378646E+01	-1.55185537312E+02	-6.02392800048E+00	2.83851059555E-01
6.32870318924E+05	-1.31675873421E+01	-1.74858104100E+02	1.01714219472E+01	1.78859295742E+02	-4.53853160162E+01	-6.82130769062E+01	-6.02734518104E+00	-1.51583621562E-01
6.55061673519E+05	-1.36300855044E+01	1.77686391261E+02	1.01411439895E+01	1.78444116740E+02	-4.57355884403E+01	2.68215150811E+01	-5.99375528962E+00	-3.23426862084E-01
6.77253028114E+05	-1.11516618039E+01	-1.61235196224E+02	1.01477119054E+01	1.78013209309E+02	-4.36596601154E+01	5.84602437814E+00	-6.00152979413E+00	-6.88911039693E-01
6.99444382709E+05	-1.34338361445E+01	-1.65608932657E+02	1.01348889790E+01	1.78238400181E+02	-4.38458728595E+01	-8.77767284308E+00	-6.02065181766E+00	-4.68595683583E-01
7.21635737304E+05	-1.61048396357E+01	1.63628036591E+02	1.01318648665E+01	1.78200927275E+02	-4.40238910175E+01	-1.27391134528E+02	-6.00173388616E+00	-3.97880298674E-01
7.43827091899E+05	-1.51161587135E+01	1.60154428659E+02	1.01502894428E+01	1.77967633451E+02	-4.14654767143E+01	-3.96328947599E+01	-6.02577519982E+00	-2.94796596564E-01
7.66018446494E+05	-1.06180183921E+01	1.76426564250E+02	1.01043108090E+01	1.77831533800E+02	-5.81064480916E+01	2.66902223495E+01	-5.99279711746E+00	-3.12988241414E-01
7.88209801089E+05	-1.19195231808E+01	1.79368855352E+02	1.01273968731E+01	1.77579131691E+02	-5.16940430751E+01	-1.38340237501E+02	-5.98364919164E+00	-3.76230266117E-01
8.10401155684E+05	-1.59112385353E+01	1.59672969311E+02	1.01448872492E+01	1.77731510587E+02	-4.59265190715E+01	-2.44485385159E+01	-5.99084486656E+00	-1.86868071522E-01
8.32592510279E+05	-1.43614092513E+01	1.79112048012E+02	1.01541638882E+01	1.77209048750E+02	-4.14372042886E+01	-6.14010290160E+01	-6.02836991868E+00	-3.84034795503E-01
8.54783864874E+05	-1.62020500023E+01	1.71242335335E+02	1.01436250734E+01	1.77224041153E+02	-5.79203944426E+01	-4.82880683054E+01	-5.99163599784E+00	-4.61060577945E-01
8.76975219469E+05	-8.91382639713E+00	-1.68319890909E+02	1.00884820544E+01	1.76751905039E+02	-5.81372922383E+01	1.77460300523E+02	-5.97277150013E+00	-2.86767859363E-01
8.99166574064E+05	-1.30304923906E+01	-1.72130479290E+02	1.01451994526E+01	1.77090285404E+02	-4.83702493200E+01	-1.60186964737E+02	-5.96883647430E+00	-3.87620979429E-01
9.21357928659E+05	-1.57741701432E+01	1.73884123575E+02	1.01605263915E+01	1.76989706040E+02	-4.91283625025E+01	-1.51561920780E+02	-6.00527362474E+00	-3.93890671454E-01
9.43549283254E+05	-1.56581806103E+01	-1.77128601480E+02	1.01683630141E+01	1.76618570841E+02	-3.94181799107E+01	1.12657089347E+02	-6.00127433535E+00	-6.45633077789E-01
9.65740637849E+05	-1.41928189275E+01	-1.79083034657E+02	1.01749919133E+01	1.76447377675E+02	-4.38791669682E+01	-4.62336872494E+01	-6.01879902455E+00	-3.55071209384E-01
9.87931992444E+05	-1.52891055060E+01	-1.73209374661E+02	1.01871767454E+01	1.76034090779E+02	-4.12452331345E+01	1.79426948682E+02	-5.97959442870E+00	-3.58928921287E-01
1.01012334704E+06	-1.47212424586E+01	-1.43051259188E+02	1.01548020196E+01	1.75850378426E+02	-4.23203022002E+01	-8.90469464496E+01	-6.02171179646E+00	-3.16158151480E-01
1.03231470163E+06	-1.11833494573E+01	-1.77927078124E+02	1.01379354321E+01	1.75984430413E+02	-4.42298032564E+01	-5.12504202034E+01	-6.02083987469E+00	-4.26447805534E-01
1.05450605623E+06	-1.91887755106E+01	-1.63981746106E+02	1.01725933620E+01	1.76034052047E+02	-4.68809212148E+01	-1.45086009520E+02	-6.00940879016E+00	-5.05304206812E-01
1.07669741082E+06	-1.34247781950E+01	1.69541699446E+02	1.01535960978E+01	1.75990528289E+02	-5.12571247135E+01	1.64490917986E+02	-5.99292778318E+00	-6.70466696075E-01
1.09888876542E+06	-1.22907133459E+01	1.74653610560E+02	1.01388704904E+01	1.75799899952E+02	-4.33537595110E+01	-6.79499852713E+01	-6.00104434877E+00	-3.99014402765E-01
1.12108012001E+06	-1.65125765591E+01	-1.78713058276E+02	1.01381792847E+01	1.75677388639E+02	-6.87301974555E+01	-1.23033681189E+02	-5.98555281831E+00	-4.72927650498E-01
1.14327147461E+06	-1.53677719444E+01	1.70686404841E+02	1.01363391037E+01	1.75611868923E+02	-4.71393282551E+01	-8.14183545002E+01	-6.02126683124E+00	-5.06347976856E-01
1.16546282920E+06	-1.51272301411E+01	1.65313712962E+02	1.01719284360E+01	1.75445664320E+02	-4.37542332166E+01	3.21788195813E+01	-5.99125343729E+00	-5.35690493665E-01
1.18765418380E+06	-1.41656507699E+01	-1.50205311721E+02	1.01645484312E+01	1.75270105178E+02	-5.16012924391E+01	1.03739820813E+02	-5.99459914934E+00	-5.20393179703E-01
1.20984553839E+06	-1.34962679737E+01	-1.72438754387E+02	1.01561879502E+01	1.75163232619E+02	-4.38153073647E+01	1.40755002660E+02	-5.99004675990E+00	-8.06443876459E-01
1.23203689299E+06	-1.22446251661E+01	1.68700129528E+02	1.01404370844E+01	1.75117581271E+02	-4.90826519209E+01	6.09056686971E+01	-5.99912484811E+00	-3.43184956899E-01
1.25422824758E+06	-1.81194183102E+01	-1.40463178872E+02	1.02209342018E+01	1.74825184281E+02	-4.86798961073E+01	-4.50799101824E+01	-6.01353797659E+00	-6.99449914264E-01
1.27641960218E+06	-1.47086691744E+01	1.78329459067E+02	1.01548276819E+01	1.74809172640E+02	-4.51721307488E+01	-1.02625920808E+02	-6.01312405437E+00	-4.94222756853E-01
1.29861095677E+06	-1.45801310393E+01	-1.79487410150E+02	1.01442784321E+01	1.74474280503E+02	-5.31075972309E+01	6.96945955437E+01	-5.99733367111E+00	-6.17603765059E-01
1.32080231137E+06	-1.40197575316E+01	-1.76508782002E+02	1.01447028982E+01	1.74426563383E+02	-4.48738174004E+01	-8.04243171648E+01	-6.00669522603E+00	-8.36919439196E-01
1.34299366596E+06	-1.48322174584E+01	-1.65458474556E+02	1.01846508642E+01	1.74395649815E+02	-4.12937663171E+01	-1.12916456464E+02	-5.98567727178E+00	-5.09811607316E-01
1.36518502056E+06	-1.57577052683E+01	-1.59493836131E+02	1.01792559546E+01	1.74397048706E+02	-4.75491348127E+01	-6.50970850405E+01	-6.00375394550E+00	-5.74780549611E-01
1.38737637515E+06	-1.55937376036E+01	1.69134891792E+02	1.01595064583E+01	1.74336740203E+02	-4.66527103978E+01	6.52689439526E+01	-6.01105695107E+00	-6.61213016383E-01
1.40956772975E+06	-1.45918951631E+01	-1.64066918077E+02	1.01815080420E+01	1.73901848122E+02	-4.43778515976E+01	7.77796448635E+00	-6.01285845230E+00	-6.48338837827E-01
1.43175908434E+06	-1.26916472695E+01	-1.66218578335E+02	1.01366398236E+01	1.73697200231E+02	-4.34274099258E+01	1.22006265443E+02	-5.97531589005E+00	-7.95368484503E-01
1.45395043894E+06	-1.29856560148E+01	1.71638106662E+02	1.01493710927E+01	1.73914857133E+02	-4.31143889760E+01	-4.78482715241E+01	-6.00376681566E+00	-4.62512550507E-01
1.47614179353E+06	-1.45434450130E+01	-1.69341071769E+02	1.01701477261E+01	1.73511550863E+02	-4.92258625927E+01	-6.56258086755E+01	-6.01435058631E+00	-5.05577159972E-01
1.49833314813E+06	-1.48933425190E+01	1.78555474895E+02	1.01721299251E+01	1.73642164281E+02	-4.38386435248E+01	-1.75210732968E+02	-5.99202158624E+00	-6.46949425193E-01
1.52052450272E+06	-1.29987911407E+01	-1.71504563235E+02	1.01412379072E+01	1.73316827508E+02	-5.39355255420E+01	-5.57586012090E+01	-5.97500093099E+00	-7.57728862592E-01
1.54271585732E+06	-1.25987638849E+01	1.68650960359E+02	1.01023497981E+01	1.73343012187E+02	-4.37498589489E+01	-4.81325647946E+01	-6.00700369873E+00	-6.72390189284E-01
1.56490721191E+06	-1.31580893079E+01	1.71886664205E+02	1.01383726278E+01	1.73311443810E+02	-4.56465337209E+01	-1.64186832630E+02	-5.98496926201E+00	-6.95169541090E-01
1.58709856651E+06	-1.13460179769E+01	-1.69668687941E+02	1.01315306154E+01	1.72934243854E+02	-4.53925947519E+01	-8.91730268405E+01	-6.01236777283E+00	-5.82390846448E-01
1.60928992110E+06	-1.17568645566E+01	-1.65607890036E+02	1.01442691012E+01	1.72796600291E+02	-4.84991258637E+01	-3.51920687836E+01	-6.01502931811E+00	-6.27299989636E-01
1.63148127570E+06	-1.53313965914E+01	-1.77023740448E+02	1.01599637142E+01	1.72871024297E+02	-3.87975579701E+01	-6.97769228680E+01	-6.00638541686E+00	-6.02576051217E-01
1.65367263029E+06	-1.74371579534E+01	-1.39208551666E+02	1.01852677919E+01	1.72663458260E+02	-3.77246930385E+01	-1.31876188196E+02	-5.98276696695E+00	-5.60293321972E-01
1.67586398489E+06	-9.72690745746E+00	1.70796730152E+02	1.00851161658E+01	1.72737851770E+02	-4.45754098393E+01	1.16955547213E+02	-5.98854186703E+00	-8.27997240641E-01
1.69805533948E+06	-1.25149153553E+01	-1.66837120234E+02	1.01346623990E+01	1.72431596199E+02	-4.00633821146E+01	-8.81389151764E+01	-5.99891176689E+00	-6.76195583367E-01
1.72024669408E+06	-1.69412880824E+01	1.69205153673E+02	1.01422662092E+01	1.72549341348E+02	-5.27032513756E+01	-1.09483662971E+02	-6.00708917447E+00	-9.02360334397E-01
1.74243804867E+06	-1.49808947106E+01	-1.69646029338E+02	1.01623412403E+01	1.72230643058E+02	-5.22556217262E+01	-3.97966487766E+01	-6.01376611881E+00	-7.43268850321E-01
1.76462940327E+06	-1.37249509673E+01	-1.71452828022E+02	1.01961756269E+01	1.72205636362E+02	-5.25263762947E+01	-1.76304469356E+02	-5.99864730086E+00	-6.78891656493E-01
1.78682075786E+06	-1.31790304091E+01	-1.71540113908E+02	1.01418736800E+01	1.71870248833E+02	-4.21456271930E+01	-5.04576282805E+01	-6.01241318550E+00	-6.06334210222E-01
1.80901211246E+06	-9.12512004234E+00	-1.71341200945E+02	1.01619754040E+01	1.71673869645E+02	-3.21474153093E+01	-1.49791158461E+02	-5.98085243748E+00	-5.47762907054E-01
1.83120346705E+06	-9.04814191808E+00	1.74195949755E+02	1.01301603242E+01	1.71543096526E+02	-5.17238645979E+01	-9.69698255061E+01	-6.00435824218E+00	-9.44272500111E-01
1.85339482165E+06	-1.39341620564E+01	-1.57281955876E+02	1.01840407302E+01	1.71353431006E+02	-4.36518755760E+01	2.06323940711E+01	-6.02721139793E+00	-9.85841243871E-01
1.87558617624E+06	-1.09967373016E+01	-1.75410967676E+02	1.01388215364E+01	1.71410000061E+02	-4.01696577428E+01	-1.14807481547E+02	-5.99015809979E+00	-7.37281349972E-01
1.89777753084E+06	-1.14461969560E+01	-1.74113910571E+02	1.01387316521E+01	1.71377977475E+02	-3.83540075232E+01	-3.35420967666E+01	-6.02960475241E+00	-6.77847807792E-01
1.91996888543E+06	-1.43601174562E+01	-1.55151527383E+02	1.01882751509E+01	1.71495977220E+02	-3.88600171480E+01	1.74180883375E+02	-5.95948546381E+00	-8.32608220806E-01
1.94216024003E+06	-1.37984429090E+01	1.76209339071E+02	1.01629929545E+01	1.71295662533E+02	-4.83977171736E+01	8.01755340970E+01	-5.99776290479E+00	-8.87456051123E-01
1.96435159462E+06	-1.15971027812E+01	-1.75751683294E+02	1.01388535079E+01	1.70980608093E+02	-3.72671377621E+01	1.11223607612E+02	-5.98332262658E+00	-9.00004547985E-01
1.98654294922E+06	-1.44519513256E+01	1.58021458336E+02	1.01539897478E+01	1.71240459312E+02	-4.12784632134E+01	-7.32594047337E+01	-6.02521550557E+00	-7.03364163404E-01
2.00873430381E+06	-1.30757101874E+01	1.70573257260E+02	1.01645520809E+01	1.71017733172E+02	-5.33993602671E+01	-8.26063642785E+01	-6.00028057334E+00	-8.42535011646E-01
2.03092565841E+06	-1.41954093262E+01	1.79502143088E+02	1.01598966325E+01	1.70824946146E+02	-4.67595201610E+01	-3.61352507384E+01	-6.03183015479E+00	-8.63797281239E-01
2.05311701300E+06	-1.36095498450E+01	-1.55676480838E+02	1.02052473137E+01	1.70563989912E+02	-4.67725182223E+01	-1.45854723298E+02	-5.98271502136E+00	-8.75943760537E-01
2.07530836760E+06	-1.69287004806E+01	-1.66723438497E+02	1.01967222516E+01	1.70745661314E+02	-5.08143596174E+01	1.13709790214E+02	-5.99601884900E+00	-9.41682075709E-01
2.09749972219E+06	-1.25471792985E+01	-1.77237015975E+02	1.01403245299E+01	1.70396775872E+02	-3.94997220931E+01	-1.46601052481E+02	-6.00054648091E+00	-5.23320679921E-01
2.11969107679E+06	-1.34489215756E+01	-1.54404602813E+02	1.01943878287E+01	1.70150054777E+02	-4.84471165958E+01	-7.74544757679E+01	-6.00776117001E+00	-1.02716228723E+00
2.14188243138E+06	-4.72524362521E+00	-1.49211570271E+02	1.02104860047E+01	1.69218707061E+02	-4.85595985606E+01	-1.49250833564E+02	-6.01318736311E+00	-8.70366622722E-01
2.16407378598E+06	-1.33133802105E+01	-1.76390406790E+02	1.01909895893E+01	1.70107615566E+02	-5.01494023554E+01	1.94851297954E+01	-5.98366462568E+00	-1.02508904695E+00
2.18626514057E+06	-1.13565695869E+01	-1.68942557858E+02	1.01818217018E+01	1.69778686840E+02	-4.66997061710E+01	7.10502811954E+01	-5.99038304045E+00	-1.02518368471E+00
2.20845649517E+06	-1.27756269638E+01	-1.70816072313E+02	1.01786415400E+01	1.69739145916E+02	-4.61663734218E+01	-1.36988822091E+00	-5.99321874970E+00	-9.34826162340E-01
2.23064784976E+06	-1.53253038804E+01	-1.60122366555E+02	1.02063708115E+01	1.69820325305E+02	-6.46934765657E+01	1.77146286900E+02	-6.00793553647E+00	-1.02891888723E+00
2.25283920436E+06	-1.21102952948E+01	-1.67132598714E+02	1.01815319714E+01	1.69645953957E+02	-6.25462032109E+01	1.44682421118E+02	-5.96868181945E+00	-9.92806746532E-01
2.27503055895E+06	-1.09262943465E+01	1.70274662905E+02	1.01286186878E+01	1.69571355279E+02	-3.53255886272E+01	1.00514830316E+02	-5.96820564002E+00	-1.29090740029E+00
2.29722191355E+06	-1.03159158579E+01	-1.58468600841E+02	1.02001790311E+01	1.69339466405E+02	-4.97057503541E+01	6.51080937563E+01	-5.97947310319E+00	-1.11631374338E+00
2.31941326814E+06	-1.24315905487E+01	1.67996525428E+02	1.01487602238E+01	1.69448860672E+02	-4.91513107275E+01	6.85114330563E+00	-6.02641023878E+00	-8.40111630734E-01
2.34160462274E+06	-1.61567319438E+01	1.73045827083E+02	1.01878312354E+01	1.69590754553E+02	-4.81698306510E+01	9.66856720145E+01	-5.96936873525E+00	-1.20391754541E+00
2.36379597733E+06	-1.23561657667E+01	-1.55133656136E+02	1.02082364462E+01	1.68971254333E+02	-4.90533367119E+01	1.28061900503E+02	-5.98497423548E+00	-1.04814114760E+00
2.38598733193E+06	-1.13447704530E+01	-1.64759455155E+02	1.01646967923E+01	1.68894611302E+02	-4.78557083641E+01	-3.13684070423E+01	-6.00203632196E+00	-1.07384293447E+00
2.40817868652E+06	-1.24893173600E+01	-1.69295526454E+02	1.01791561652E+01	1.69033445385E+02	-4.82715746594E+01	3.54569724972E+01	-6.01186605458E+00	-1.04724725372E+00
2.43037004112E+06	-1.42458081370E+01	-1.46449256434E+02	1.02002430997E+01	1.68726234063E+02	-3.31796416990E+01	-9.62092244698E+01	-6.03906008620E+00	-1.07372990665E+00
2.45256139571E+06	-9.23871230819E+00	1.76723397528E+02	1.01409786332E+01	1.68674634960E+02	-5.54839835856E+01	-3.94399853411E+01	-6.01072480684E+00	-9.94952413081E-01
2.47475275031E+06	-1.76853775331E+01	-1.76529195944E+02	1.01928898188E+01	1.68750000452E+02	-4.63112908931E+01	-6.37962507349E+01	-6.00614335107E+00	-1.13966588838E+00
2.49694410490E+06	-1.16786914556E+01	-1.72716858767E+02	1.01441693105E+01	1.68176997492E+02	-4.95583401990E+01	-6.64173307500E+00	-6.01675566035E+00	-1.03582913130E+00
2.51913545950E+06	-1.16170774273E+01	1.79128567679E+02	1.01624351330E+01	1.68272572244E+02	-4.26820866947E+01	2.74348246462E+01	-6.01450882300E+00	-1.36462559357E+00
2.54132681409E+06	-1.51508480298E+01	-1.78995918574E+02	1.01965499430E+01	1.68389918742E+02	-4.70984602617E+01	-9.23805710309E+01	-6.00033775885E+00	-9.18483230073E-01
2.56351816869E+06	-1.52424543774E+01	-1.63063353219E+02	1.02046548603E+01	1.68128303177E+02	-4.36567071901E+01	3.42619331988E+01	-6.03076316331E+00	-1.11331086119E+00
2.58570952328E+06	-1.24451724128E+01	1.79341290525E+02	1.01639219251E+01	1.67996247178E+02	-3.83173487452E+01	-1.77147696201E+02	-5.96571319659E+00	-1.12731825326E+00
2.60790087788E+06	-2.86090945521E+01	1.58916506247E+02	1.01932286534E+01	1.68356657618E+02	-4.24528692785E+01	-2.47514828266E+01	-6.02325872457E+00	-9.54255334297E-01
2.63009223247E+06	-1.42458809237E+01	-1.60064895254E+02	1.02111509843E+01	1.67752496447E+02	-4.18248257746E+01	8.89597707712E+01	-5.98635578559E+00	-7.99829539196E-01
2.65228358707E+06	-1.23794549359E+01	-1.72616783240E+02	1.01766455065E+01	1.67599890377E+02	-4.43508556587E+01	1.63139276438E+02	-5.97957913889E+00	-1.27278471071E+00
2.67447494166E+06	-1.21840438495E+01	-1.70689611908E+02	1.01977298338E+01	1.67308093185E+02	-4.49934247583E+01	-4.30355288647E+01	-6.01087065445E+00	-1.12134779936E+00
2.69666629626E+06	-1.60807495078E+01	-1.71566603413E+02	1.02000836854E+01	1.67588095718E+02	-4.28785174828E+01	-1.36618027155E+02	-5.98142642275E+00	-1.03431516032E+00
2.71885765085E+06	-1.59002783452E+01	-1.72672686545E+02	1.01776813803E+01	1.67587982403E+02	-4.71494606693E+01	1.12478481959E+02	-5.99562325224E+00	-1.23580945006E+00
2.74104900545E+06	-1.58312936320E+01	1.74235358324E+02	1.01915719874E+01	1.67318200420E+02	-4.38137022606E+01	-1.28305090052E+02	-6.00626843393E+00	-1.12649667103E+00
2.76324036004E+06	-1.13036462451E+01	-1.70814804395E+02	1.02096295423E+01	1.66977436420E+02	-5.13683818142E+01	1.63605393559E+02	-6.00652684407E+00	-1.13116331263E+00
2.78543171463E+06	-1.35830229009E+01	-1.76972764474E+02	1.01926681313E+01	1.67141075944E+02	-5.60096401028E+01	-1.57761661754E+02	-6.02008670416E+00	-1.20398935996E+00
2.80762306923E+06	-1.28574900991E+01	-1.65858501030E+02	1.02005593641E+01	1.66765800433E+02	-5.19787563941E+01	7.35091845852E+01	-5.98941462243E+00	-1.24090110902E+00
2.82981442382E+06	-1.31055383499E+01	-1.68286024003E+02	1.02321111376E+01	1.66804500093E+02	-4.49050660502E+01	-1.33093774758E+02	-5.99332541676E+00	-9.33378220487E-01
2.85200577842E+06	-1.44719643334E+01	-1.72263811056E+02	1.02150797740E+01	1.66969318262E+02	-6.12706697797E+01	9.19426305713E+01	-6.00459696910E+00	-1.16649742231E+00
2.87419713301E+06	-1.13996155469E+01	-1.62610834516E+02	1.02343199856E+01	1.66392753873E+02	-5.51174716610E+01	-9.01051036001E+01	-6.00453754279E+00	-1.25262916325E+00
