# Hz S DB R 50
! CMT, M5065, 19127446, 24.2.4/2
! Date: 11/8/2024 3:14:46 PM
! Data: Format (Calibration Info)
! Freq	S11:dB/Ang(F2)	S21:dB/Ang(F2)	S12:dB/Ang(F2)	S22:dB/Ang(F2)
3.00000000000E+05	-1.33289775599E+01	-1.58834271571E+02	1.42814202618E+01	-1.77455540589E+02	-4.56374348866E+01	-7.84416381986E+01	-6.00454268764E+00	-5.02077576930E-02
3.22191354595E+05	-1.59500631721E+01	-1.73937475923E+02	1.43128009018E+01	-1.77778995186E+02	-4.62219815022E+01	4.44460894028E+01	-5.98961059335E+00	-4.56909414690E-01
3.44382709190E+05	-1.51090052258E+01	-1.72857808078E+02	1.42874689976E+01	-1.78171994697E+02	-4.38298415929E+01	-1.43627824983E+02	-5.96873613625E+00	-1.47631058529E-01
3.66574063785E+05	-1.35512541130E+01	-1.54220423034E+02	1.42732398276E+01	-1.78841185255E+02	-4.77592333633E+01	-8.68789506146E+01	-5.98322066894E+00	-2.56508303690E-01
3.88765418380E+05	-1.06437441966E+01	-1.56439382079E+02	1.42614987125E+01	-1.79330450207E+02	-4.94988263630E+01	7.14821294888E+01	-6.05132380227E+00	-3.46168455617E-01
4.10956772975E+05	-1.48013996794E+01	-1.70232592323E+02	1.42845187621E+01	-1.79302910335E+02	-4.45567628280E+01	9.62214675275E+01	-6.00175182520E+00	-5.25662237580E-01
4.33148127570E+05	-1.22753975056E+01	-1.66233643150E+02	1.42851652644E+01	-1.79756703030E+02	-4.65328626146E+01	-7.25409499172E+01	-5.99626109396E+00	-2.91907333464E-01
4.55339482165E+05	-1.39197064407E+01	1.75405249990E+02	1.42784748050E+01	-1.79901104715E+02	-4.72428232645E+01	-6.02037906403E+01	-6.01495529612E+00	-2.38793426373E-01
4.77530836760E+05	-1.36107008182E+01	-1.66315975012E+02	1.42965545933E+01	1.79721527801E+02	-5.67656573578E+01	1.08779860874E+02	-6.00820609556E+00	-3.90684322796E-01
4.99722191355E+05	-1.18209997195E+01	1.70751089007E+02	1.42818669981E+01	1.79564075585E+02	-5.23240264744E+01	-6.37107977846E+01	-6.02910600394E+00	-1.88105559257E-01
5.21913545950E+05	-1.39873204385E+01	1.78824248883E+02	1.42798120335E+01	1.79258111411E+02	-4.51436170597E+01	-1.67311883433E+02	-5.96776044423E+00	-3.51999724609E-01
5.44104900545E+05	-1.30784113316E+01	-1.61772754256E+02	1.42822932146E+01	1.78748210548E+02	-4.47983752280E+01	-9.20298011529E+01	-5.99990843159E+00	-2.98207384547E-01
5.66296255139E+05	-1.20426108226E+01	-1.77641431219E+02	1.42844831544E+01	1.78532041015E+02	-4.42083913510E+01	-3.53833525578E+01	-6.01549156485E+00	-3.19859461112E-01
5.88487609734E+05	-1.32548469941E+01	1.73414407423E+02	1.42972058175E+01	1.78566205195E+02	-4.20227365760E+01	3.31020151285E+01	-5.97751837416E+00	-3.42039157834E-01
6.10678964329E+05	-1.65081629360E+01	1.69234983978E+02	1.42993087940E+01	1.78349678813E+02	-4.05700365161E+01	-7.70145629904E+01	-6.01264444084E+00	3.47144031818E-01
6.32870318924E+05	-1.45907303284E+01	1.78239846165E+02	1.43068923569E+01	1.78051342882E+02	-4.53694290921E+01	-1.40171158314E+02	-5.98453509729E+00	-9.64520862170E-02
6.55061673519E+05	-1.59474432684E+01	1.51407368709E+02	1.43057826425E+01	1.78054144371E+02	-5.08255196503E+01	8.77464456341E+01	-6.01405782029E+00	-4.10387647931E-01
6.77253028114E+05	-1.63275812043E+01	-1.74069761231E+02	1.42883202868E+01	1.77533694843E+02	-4.13484627736E+01	1.60226477238E+02	-5.97015054955E+00	-6.78292929085E-01
6.99444382709E+05	-1.28671317852E+01	-1.77212550434E+02	1.42834556602E+01	1.77424917902E+02	-5.11288427076E+01	3.53926258009E+01	-6.01604551158E+00	-4.44437077488E-01
7.21635737304E+05	-1.47952063110E+01	-1.74406653815E+02	1.42868820606E+01	1.77072013736E+02	-4.18867915988E+01	1.42335817964E+02	-5.99799213323E+00	-6.34854642166E-01
7.43827091899E+05	-1.28203471642E+01	-1.68861129118E+02	1.42728504548E+01	1.77000964901E+02	-4.54931965743E+01	4.57616156133E+00	-6.04647968720E+00	-5.44209645320E-01
7.66018446494E+05	-1.30012904105E+01	-1.64207724212E+02	1.42999678594E+01	1.76566480049E+02	-4.67673219279E+01	-1.75280411012E+02	-5.98874744580E+00	-4.28179047460E-01
7.88209801089E+05	-1.28598960646E+01	-1.77835341257E+02	1.42814786387E+01	1.76672792883E+02	-4.52274042569E+01	-9.21339383412E+01	-6.00107304953E+00	-2.20285649869E-01
8.10401155684E+05	-1.38718611543E+01	1.72077535781E+02	1.43063436060E+01	1.76405555704E+02	-4.01864140476E+01	3.32605758991E+01	-6.03188544671E+00	-4.96631341190E-01
8.32592510279E+05	-1.06157818607E+01	1.77786456411E+02	1.42481691405E+01	1.76303919286E+02	-4.20449016754E+01	1.75324860889E+02	-5.97392530007E+00	-4.54035003622E-01
8.54783864874E+05	-1.47131759112E+01	-1.78679020825E+02	1.42808005766E+01	1.76203179767E+02	-5.31924132284E+01	1.55740984343E+01	-5.99009010840E+00	-5.25619559281E-01
8.76975219469E+05	-1.36138640943E+01	-1.68119439146E+02	1.42804410322E+01	1.75855864183E+02	-4.81989701131E+01	1.34838648849E+02	-5.98867722293E+00	-5.89283077133E-01
8.99166574064E+05	-1.28006146796E+01	-1.77312051168E+02	1.42827707808E+01	1.75795851365E+02	-3.45904316505E+01	4.25157602325E+01	-6.02241637132E+00	-8.32441318088E-01
9.21357928659E+05	-1.27948660467E+01	-1.73673833014E+02	1.42544641694E+01	1.75508965441E+02	-4.77440164791E+01	7.45311893960E+01	-6.02341282115E+00	-4.86115632267E-01
9.43549283254E+05	-1.22616413287E+01	-1.69927424966E+02	1.42650806854E+01	1.75298574865E+02	-4.49409374147E+01	-1.68607900883E+02	-5.96965432029E+00	-2.83931574862E-01
9.65740637849E+05	-1.90212638712E+01	-1.61637953534E+02	1.43284952411E+01	1.75271285912E+02	-4.81543483102E+01	6.33238406646E+00	-6.01397969295E+00	-4.54372154469E-01
9.87931992444E+05	-1.31027997827E+01	1.77162286449E+02	1.42595382523E+01	1.75171270736E+02	-4.24196574376E+01	6.88562765413E+01	-6.00012877790E+00	-6.38965866726E-01
1.01012334704E+06	-1.31482070736E+01	-1.58177238827E+02	1.43044639731E+01	1.74862947101E+02	-4.77427009460E+01	-1.18078934951E+01	-6.02667765996E+00	-5.47105336713E-01
1.03231470163E+06	-1.64204922428E+01	1.75165377100E+02	1.42696597805E+01	1.74873089785E+02	-4.53095925827E+01	-6.40358140138E+01	-6.00373128724E+00	-4.23647402916E-01
1.05450605623E+06	-1.35223886101E+01	-1.74011511853E+02	1.42833648370E+01	1.74608217279E+02	-4.24458497107E+01	-1.13280398723E+02	-6.01404304277E+00	-4.15645949217E-01
1.07669741082E+06	-1.32166225072E+01	-1.66868787315E+02	1.42811880068E+01	1.74270232808E+02	-4.35890792024E+01	-1.95904002315E+01	-6.00564674874E+00	-4.54416269077E-01
1.09888876542E+06	-1.55320605398E+01	1.75138776208E+02	1.42869484012E+01	1.74271392907E+02	-4.63990911488E+01	1.33602940319E+02	-5.99266892490E+00	-6.47591984091E-01
1.12108012001E+06	-1.25973492015E+01	1.79664113343E+02	1.42781610168E+01	1.74109788759E+02	-4.40616159083E+01	-1.03803975103E+02	-6.00559446987E+00	-3.06693657144E-01
1.14327147461E+06	-2.17139178723E+01	-1.03992889947E+02	1.43455835537E+01	1.73761443630E+02	-4.40939041502E+01	3.57383566617E+00	-6.03772300093E+00	-6.14753782463E-01
1.16546282920E+06	-1.28894201231E+01	1.61402763449E+02	1.42813738348E+01	1.73960690761E+02	-4.64676976249E+01	-8.60983274399E+01	-5.97585380823E+00	-6.20602043849E-01
1.18765418380E+06	-1.28959489635E+01	-1.73662762131E+02	1.42815422560E+01	1.73533295267E+02	-4.88623513259E+01	-1.62539000028E+02	-5.98340783864E+00	-5.38796445529E-01
1.20984553839E+06	-1.29690590027E+01	-1.75236981624E+02	1.42645267786E+01	1.73241555390E+02	-4.07331550862E+01	-1.22785569191E+02	-5.99474481653E+00	-4.92774141031E-01
1.23203689299E+06	-1.46554920732E+01	-1.62812466807E+02	1.42922383767E+01	1.73147743144E+02	-4.62095462878E+01	6.69707583752E+01	-6.00548876357E+00	-4.22057434146E-01
1.25422824758E+06	-1.22171382397E+01	-1.63459468288E+02	1.42669356515E+01	1.72894075657E+02	-4.26479703603E+01	-3.45250442499E+01	-6.02802606016E+00	-4.72358045645E-01
1.27641960218E+06	-1.22250552308E+01	-1.63991536910E+02	1.42832724874E+01	1.72827277527E+02	-4.11043181974E+01	4.85158057797E+01	-6.00700920226E+00	-6.56391112856E-01
1.29861095677E+06	-1.32998140305E+01	1.73801973632E+02	1.42619075029E+01	1.72792920403E+02	-6.54094723264E+01	1.56795743646E+01	-6.01319925605E+00	-5.59349700710E-01
1.32080231137E+06	-1.50745477996E+01	-1.72436112290E+02	1.42881432771E+01	1.72585933769E+02	-5.09456592095E+01	-1.69260867703E+02	-5.99677447370E+00	-9.40152494131E-01
1.34299366596E+06	-1.17653030265E+01	1.76222159262E+02	1.42118669052E+01	1.72574283141E+02	-4.46964813849E+01	9.45996230409E+00	-6.02781997607E+00	-7.92407011869E-01
1.36518502056E+06	-1.33320431006E+01	1.79893283491E+02	1.42845054944E+01	1.72535617912E+02	-3.87344497110E+01	1.18246888833E+02	-5.97603132911E+00	-6.91028115881E-01
1.38737637515E+06	-1.57087783635E+01	-1.69246074504E+02	1.42984823955E+01	1.72314075456E+02	-5.14454325165E+01	1.04728764085E+02	-5.99470652603E+00	-6.17600107950E-01
1.40956772975E+06	-1.55428844585E+01	1.71997991235E+02	1.42756623641E+01	1.72011177944E+02	-4.58048627477E+01	1.18803473133E+02	-5.98621869088E+00	-7.50288176712E-01
1.43175908434E+06	-1.45556274632E+01	-1.59928913750E+02	1.42932034760E+01	1.71804923102E+02	-4.58830280502E+01	2.89164401036E+01	-5.98910236887E+00	-9.26804275969E-01
1.45395043894E+06	-1.49616936417E+01	-1.77051449242E+02	1.42773105385E+01	1.71741573708E+02	-4.59285627224E+01	-1.76940979864E+02	-5.96675045378E+00	-5.83785612291E-01
1.47614179353E+06	-1.31352596402E+01	-1.76918353480E+02	1.42860936358E+01	1.71558456722E+02	-5.75576781768E+01	1.65484197525E+02	-5.97549591966E+00	-6.12586760707E-01
1.49833314813E+06	-1.17060131189E+01	-1.78429700269E+02	1.42789199974E+01	1.71393143952E+02	-4.73681097385E+01	8.44294258701E+00	-6.00603453565E+00	-6.14764969896E-01
1.52052450272E+06	-1.51994913417E+01	-1.72170755285E+02	1.42844334374E+01	1.71295150313E+02	-4.25259496449E+01	-3.84713829004E+01	-6.02733258961E+00	-8.34419073975E-01
1.54271585732E+06	-1.36473354876E+01	-1.74475305000E+02	1.42759080631E+01	1.71132344704E+02	-4.85715383732E+01	3.30148511603E+01	-6.02331717869E+00	-6.45139316447E-01
1.56490721191E+06	-1.21186010510E+01	-1.73942263319E+02	1.42579030159E+01	1.71099463184E+02	-5.06103961017E+01	1.16008840616E+02	-6.00175411325E+00	-7.35799281402E-01
1.58709856651E+06	-1.16666107095E+01	1.68555980223E+02	1.42624234409E+01	1.70971182924E+02	-4.22174170225E+01	-1.45212142482E+02	-5.98095161673E+00	-5.56325978047E-01
1.60928992110E+06	-1.01207578610E+01	-1.64773858149E+02	1.42614587619E+01	1.70522479107E+02	-4.24736933125E+01	-4.09924944811E+01	-6.03462711054E+00	-6.22973837588E-01
1.63148127570E+06	-1.19808947198E+01	-1.71147108078E+02	1.42674343801E+01	1.70416232813E+02	-4.59341948915E+01	1.34765953523E+02	-5.97714590770E+00	-8.19768594264E-01
1.65367263029E+06	-1.24842023458E+01	-1.66119544794E+02	1.42833857798E+01	1.70279783040E+02	-3.84830133334E+01	-1.10212755326E+02	-6.01806987598E+00	-5.20628298538E-01
1.67586398489E+06	-1.35378664772E+01	-1.72164910236E+02	1.42626687285E+01	1.70294727732E+02	-5.71874596390E+01	1.09933564900E+01	-5.99268914543E+00	-8.39424603174E-01
1.69805533948E+06	-1.41126908554E+01	-1.53634835706E+02	1.42793205715E+01	1.70058469570E+02	-4.56844107607E+01	6.37433044445E+01	-6.00667180603E+00	-8.03385451319E-01
1.72024669408E+06	-1.19255501457E+01	-1.79365893567E+02	1.42575603064E+01	1.69980581249E+02	-4.93093472474E+01	5.24332080867E+01	-6.02600114958E+00	-8.24807392201E-01
1.74243804867E+06	-1.57301026404E+01	-1.64231248149E+02	1.42979290691E+01	1.69800500603E+02	-4.99717301869E+01	4.14527876235E+01	-6.00879376034E+00	-7.57516678408E-01
1.76462940327E+06	-1.20843978004E+01	-1.51997601970E+02	1.42951906972E+01	1.69551755591E+02	-4.14422565771E+01	6.09895444362E+01	-6.00582404227E+00	-1.02356872527E+00
1.78682075786E+06	-1.37077608120E+01	-1.68043541823E+02	1.42822193454E+01	1.69421651039E+02	-4.41313259993E+01	-8.68829086575E+01	-6.01279591306E+00	-6.76254472655E-01
1.80901211246E+06	-1.25259410160E+01	1.71707096220E+02	1.42747090832E+01	1.69633300105E+02	-4.25791318822E+01	5.78071463767E+01	-6.01140798513E+00	-1.01308723456E+00
1.83120346705E+06	-1.30330196029E+01	-1.72974268672E+02	1.42789195903E+01	1.69121231793E+02	-3.85564863822E+01	1.74682096532E+01	-6.02881163194E+00	-1.25807505893E+00
1.85339482165E+06	-1.38985749430E+01	1.78584106742E+02	1.42798349749E+01	1.69095617418E+02	-4.23484221955E+01	-9.69798322266E+01	-6.02600561582E+00	-6.80691634755E-01
1.87558617624E+06	-1.25840914857E+01	1.77787261104E+02	1.42793006325E+01	1.68985048485E+02	-4.44545945801E+01	8.03887362825E+00	-6.03692491033E+00	-8.77974847185E-01
1.89777753084E+06	-1.65335559114E+01	1.67964225349E+02	1.43030976903E+01	1.68950813871E+02	-4.55713266247E+01	1.24995431537E+02	-5.97490967086E+00	-8.59789142460E-01
1.91996888543E+06	-1.62327561091E+01	1.77116217724E+02	1.43016745015E+01	1.68531399738E+02	-4.16982416349E+01	8.46857682957E+01	-5.98573003245E+00	-1.05824283137E+00
1.94216024003E+06	-1.36708079777E+01	1.73799731596E+02	1.42480577632E+01	1.68534641476E+02	-5.11535632962E+01	-6.11411949759E+01	-6.02350030233E+00	-6.41922969068E-01
1.96435159462E+06	-1.15919126916E+01	-1.64885687576E+02	1.42450320798E+01	1.68156848702E+02	-4.51074679578E+01	-6.01572221062E+00	-6.01274644543E+00	-9.12621302148E-01
1.98654294922E+06	-1.37435380143E+01	-1.68795872482E+02	1.42878155604E+01	1.68194116687E+02	-4.12597070712E+01	5.61828264178E+01	-5.98756703480E+00	-1.05449809658E+00
2.00873430381E+06	-1.26357557878E+01	-1.70224069713E+02	1.42613482327E+01	1.68069203186E+02	-4.42736639510E+01	-1.29209131530E+02	-5.99025459400E+00	-7.70259980323E-01
2.03092565841E+06	-1.18888047011E+01	-1.72414229966E+02	1.42754745445E+01	1.67891202812E+02	-4.25680107345E+01	-2.32302603143E+01	-6.03381577176E+00	-9.82426553061E-01
2.05311701300E+06	-1.15772688010E+01	-1.46773430154E+02	1.42804944211E+01	1.67242002194E+02	-4.58448048731E+01	-3.33570254851E+01	-6.03497672544E+00	-8.11606186624E-01
2.07530836760E+06	-8.16953709562E+00	1.50687771458E+02	1.42126739160E+01	1.67487689301E+02	-4.61521396127E+01	-1.59846420981E+01	-6.03531013419E+00	-8.37300039805E-01
2.09749972219E+06	-1.61881622981E+01	-1.49310310333E+02	1.43226611709E+01	1.67526433169E+02	-5.14980309838E+01	1.49805439474E+02	-5.99408053832E+00	-7.11733210743E-01
2.11969107679E+06	-1.52951254314E+01	1.74491965046E+02	1.42909663307E+01	1.67522961996E+02	-4.57955289006E+01	9.55981822942E+01	-6.01204437770E+00	-1.00338693752E+00
2.14188243138E+06	-1.37528587056E+01	1.79857569928E+02	1.42837892791E+01	1.67148658905E+02	-3.59702900243E+01	1.55797864229E+02	-5.94819138952E+00	-1.02345409867E+00
2.16407378598E+06	-1.52235411978E+01	1.75022180805E+02	1.43141298649E+01	1.67116603111E+02	-4.14618193721E+01	-3.17052173037E+01	-6.05248525434E+00	-8.58423512929E-01
2.18626514057E+06	-1.47913257490E+01	-1.79543375975E+02	1.42934734794E+01	1.66929880446E+02	-4.46065490856E+01	1.34852907288E+02	-5.96010368577E+00	-1.06186060401E+00
2.20845649517E+06	-1.11733047061E+01	-1.62520926493E+02	1.42827416295E+01	1.66467825082E+02	-4.68527659685E+01	-1.41227426056E+02	-5.98796899670E+00	-8.46043811132E-01
2.23064784976E+06	-1.78639940839E+01	-1.47688288722E+02	1.43043512660E+01	1.66704041152E+02	-4.49323337483E+01	5.42715323467E+01	-5.97914900345E+00	-1.08770882730E+00
2.25283920436E+06	-1.07919466525E+01	1.55259290891E+02	1.42406264710E+01	1.66387896340E+02	-4.82539395802E+01	-8.19487739998E+00	-5.98172083798E+00	-9.29886452554E-01
2.27503055895E+06	-1.45880970072E+01	-1.69013311708E+02	1.43164423404E+01	1.66232326323E+02	-4.02042147755E+01	1.25829387307E+02	-5.95776823708E+00	-1.14866653946E+00
2.29722191355E+06	-1.66768357541E+01	-1.69419800445E+02	1.43403682619E+01	1.66324583103E+02	-3.47302291824E+01	-1.81027011011E+01	-6.07022329175E+00	-1.25812116254E+00
2.31941326814E+06	-1.39755784664E+01	-1.73502242284E+02	1.42711453218E+01	1.66076635891E+02	-5.23250121694E+01	1.12768381036E+02	-6.00517127078E+00	-1.18677505732E+00
2.34160462274E+06	-1.55274555653E+01	-1.75939381705E+02	1.42991952020E+01	1.66120222267E+02	-4.95779662296E+01	1.44599259529E+02	-5.97542164066E+00	-9.85903701097E-01
2.36379597733E+06	-1.34948719972E+01	-1.77580126324E+02	1.42874588364E+01	1.65809105775E+02	-4.92317212968E+01	-3.35036325217E+01	-6.01376870901E+00	-1.05546597282E+00
2.38598733193E+06	-1.40707790328E+01	1.79849829096E+02	1.42629991258E+01	1.65510708601E+02	-4.86977480196E+01	-1.39120317227E+02	-5.97940676658E+00	-1.07768032392E+00
2.40817868652E+06	-1.12444873892E+01	-1.75113885454E+02	1.42702740191E+01	1.65279372047E+02	-5.00334754139E+01	1.46592749893E+02	-5.96895845336E+00	-1.27053067216E+00
2.43037004112E+06	-1.27125082530E+01	-1.72794745450E+02	1.42651868459E+01	1.65302108608E+02	-5.17385818793E+01	3.90410068548E+01	-6.02200863020E+00	-1.61641035024E+00
2.45256139571E+06	-1.34492515337E+01	-1.63885403167E+02	1.43020660632E+01	1.65025033561E+02	-3.87079288547E+01	5.14967430658E+01	-6.01842154329E+00	-1.31163945409E+00
2.47475275031E+06	-1.18725870922E+01	-1.53480269648E+02	1.42987236997E+01	1.64826580786E+02	-4.99558146467E+01	1.48995673129E+02	-5.98987362377E+00	-1.01466255305E+00
2.49694410490E+06	-1.45693826704E+01	-1.54952425198E+02	1.43369349600E+01	1.64700863812E+02	-5.58288116911E+01	2.41153555878E+01	-5.98799895039E+00	-1.18767602960E+00
2.51913545950E+06	-1.62792411911E+01	-1.74101728350E+02	1.43199842945E+01	1.64616089944E+02	-4.07901952034E+01	-3.60038083439E+01	-6.05062843724E+00	-9.81803055596E-01
2.54132681409E+06	-1.47146655916E+01	-1.78751206299E+02	1.43013783133E+01	1.64677534451E+02	-4.55094856457E+01	8.43307708529E+01	-5.99404821462E+00	-1.38128975420E+00
2.56351816869E+06	-1.02052419647E+01	-1.31505186760E+02	1.43682129559E+01	1.64175526404E+02	-5.07359185461E+01	1.17115622480E+01	-5.99993276128E+00	-1.08059441032E+00
2.58570952328E+06	-1.43897341030E+01	-1.54466456370E+02	1.43307287100E+01	1.64188350529E+02	-4.32536834996E+01	-7.28170468405E+01	-6.01511795153E+00	-9.28773280283E-01
2.60790087788E+06	-1.26829572080E+01	-1.76725883746E+02	1.42792042242E+01	1.64086185607E+02	-4.64709693190E+01	-1.44617156570E+02	-5.97550341064E+00	-9.70370996761E-01
2.63009223247E+06	-1.42097299345E+01	-1.76241111702E+02	1.43021924557E+01	1.64150730869E+02	-5.17734610721E+01	-1.16782010334E+01	-6.02503510265E+00	-9.13029923730E-01
2.65228358707E+06	-1.41298137201E+01	-1.75821256439E+02	1.42934850498E+01	1.63866015220E+02	-4.14900396673E+01	-1.68231247623E+02	-5.95898696269E+00	-1.12578361293E+00
2.67447494166E+06	-1.51251524331E+01	-1.65551135029E+02	1.43250694159E+01	1.63732090365E+02	-5.61321234482E+01	3.74806505850E+01	-6.01341441971E+00	-1.27370089790E+00
2.69666629626E+06	-1.33921473504E+01	-1.51665357639E+02	1.43338454306E+01	1.63238130188E+02	-5.28425547188E+01	9.52840110819E+00	-6.02038703982E+00	-1.19461032823E+00
2.71885765085E+06	-1.19396060147E+01	-1.65197537915E+02	1.43114429851E+01	1.63233508969E+02	-4.54291254856E+01	1.69931907277E+02	-5.97509073713E+00	-1.17271168100E+00
2.74104900545E+06	-1.15960499198E+01	1.79297612044E+02	1.42925672806E+01	1.63219304622E+02	-3.89263285638E+01	-4.15147807063E+01	-6.03093171315E+00	-9.53522819518E-01
2.76324036004E+06	-1.68045872225E+01	-1.79294167678E+02	1.43168309568E+01	1.63151395533E+02	-4.81777423474E+01	-6.09278188942E+01	-5.99162741005E+00	-1.09774755497E+00
2.78543171463E+06	-1.30993623004E+01	1.78615637304E+02	1.42648966363E+01	1.63072962118E+02	-4.08980132352E+01	-8.85611384217E+01	-6.02924432867E+00	-8.93157584494E-01
2.80762306923E+06	-1.95335131228E+01	1.72875386884E+02	1.43398277133E+01	1.63067656965E+02	-4.64518916816E+01	-5.25195677310E+01	-6.01217791159E+00	-1.04944685884E+00
2.82981442382E+06	-1.32807713731E+01	-1.76630546430E+02	1.42872870023E+01	1.62503297534E+02	-5.46666927004E+01	-5.79262557681E+01	-6.03075847160E+00	-1.28507003397E+00
2.85200577842E+06	-1.70492769041E+01	1.44255813638E+02	1.43046349777E+01	1.63003253320E+02	-4.19598310305E+01	9.41078483075E+00	-6.02000911846E+00	-1.21306780893E+00
2.87419713301E+06	-2.03577254358E+01	-1.77085764374E+02	1.43244765783E+01	1.62630923543E+02	-4.14101160172E+01	-1.50226839944E+02	-5.96433287482E+00	-1.13643489128E+00
