# Hz S DB R 50
! CMT, M5065, 19127446, 24.2.4/2
! Date: 11/8/2024 2:36:59 PM
! Data: Format (Calibration Info)
! Freq	S11:dB/Ang(F2)	S21:dB/Ang(F2)	S12:dB/Ang(F2)	S22:dB/Ang(F2)
3.00000000000E+05	-1.48989518549E+01	1.73372864326E+02	4.75745052652E+00	-1.77746781916E+02	-4.20965458604E+01	7.47292626774E+01	-6.02180495882E+00	-2.47664580083E-01
3.22191354595E+05	-1.39560383998E+01	1.76350341038E+02	4.80331723401E+00	-1.78146186758E+02	-4.24401238166E+01	-1.23853577758E+02	-6.02068448946E+00	-3.00122089549E-01
3.44382709190E+05	-1.47456573721E+01	1.75206421819E+02	4.81696544044E+00	-1.78370864985E+02	-3.97537581270E+01	-2.82354495248E+01	-5.99797464299E+00	-3.32026674092E-01
3.66574063785E+05	-1.34757973809E+01	-1.78997743082E+02	4.76543322707E+00	-1.78477837119E+02	-4.63019862387E+01	-1.99117941997E+01	-6.04465010720E+00	-1.49163010174E-01
3.88765418380E+05	-1.06591589472E+01	1.74875108887E+02	4.68668734052E+00	-1.78855918889E+02	-4.68213454342E+01	1.11505158282E+02	-6.00842881329E+00	-3.22737689707E-01
4.10956772975E+05	-1.76339742241E+01	1.76492879217E+02	4.77118672773E+00	-1.79015675362E+02	-4.41382051676E+01	-2.55821729834E+00	-6.02876610748E+00	-3.31378029339E-01
4.33148127570E+05	-1.43371782181E+01	1.71631109374E+02	4.74655213786E+00	-1.78783744823E+02	-4.78647409231E+01	7.86856439357E+01	-6.02531188282E+00	-4.24494511407E-01
4.55339482165E+05	-1.40809822439E+01	-1.60631080449E+02	4.80327037673E+00	-1.79537120621E+02	-5.01600198906E+01	-1.47260387558E+02	-6.01145968948E+00	-4.02152490580E-01
4.77530836760E+05	-1.56093678191E+01	-1.72193482528E+02	4.76846403502E+00	-1.79301192216E+02	-5.74500932527E+01	8.82508091307E+01	-6.00848781895E+00	-2.50282035838E-01
4.99722191355E+05	-1.43223377020E+01	-1.67794137079E+02	4.74510102262E+00	1.79937100110E+02	-3.52424975349E+01	-1.17340945090E+02	-5.97997803832E+00	-3.23609680466E-01
5.21913545950E+05	-1.57246022601E+01	-1.60359577497E+02	4.81110436938E+00	1.79843535621E+02	-3.80212893495E+01	-2.77664119928E+01	-6.01922848696E+00	-2.96373583414E-01
5.44104900545E+05	-1.41761855541E+01	-1.64552933023E+02	4.80677562663E+00	1.79910219670E+02	-4.21122188163E+01	8.29426723629E+01	-6.01599678521E+00	-4.96909509879E-01
5.66296255139E+05	-1.69422165885E+01	-1.57468080494E+02	4.83397356611E+00	1.79853862438E+02	-4.60049500845E+01	9.85204070773E+01	-5.99393700759E+00	-3.74678535484E-01
5.88487609734E+05	-1.49215472629E+01	-1.78071505527E+02	4.77909237162E+00	1.79945773565E+02	-4.10285018105E+01	4.12778671060E+01	-6.02760238502E+00	-2.76445658140E-01
6.10678964329E+05	-8.33282257592E+00	-1.47764231036E+02	4.73733399232E+00	1.79274997427E+02	-4.80621981108E+01	-1.29973662310E+02	-6.01212292845E+00	1.55958605055E-01
6.32870318924E+05	-1.09743681388E+01	-1.74783750613E+02	4.76651100204E+00	1.79183213765E+02	-4.22897693775E+01	-5.63717994102E+01	-5.99895516835E+00	-3.34313234982E-02
6.55061673519E+05	-1.38327587559E+01	1.75481356011E+02	4.78336249003E+00	1.79237101721E+02	-4.41262204841E+01	1.94524187368E+01	-6.02779523093E+00	-2.35454136850E-01
6.77253028114E+05	-1.32030548465E+01	-1.73194606840E+02	4.79360781884E+00	1.78815423845E+02	-4.47949073175E+01	-7.16897284522E+01	-6.03327173992E+00	-5.99019244606E-01
6.99444382709E+05	-1.20950794128E+01	1.71903515081E+02	4.79007134989E+00	1.78972916339E+02	-4.80105854258E+01	-1.49521470968E+02	-5.99342178634E+00	-2.99938826735E-01
7.21635737304E+05	-1.38648900901E+01	-1.76884495524E+02	4.79297113561E+00	1.79121106964E+02	-5.22518706530E+01	-1.32080624463E+02	-5.99347701553E+00	-4.59873860153E-01
7.43827091899E+05	-1.84275467170E+01	1.41104766711E+02	4.84485774807E+00	1.79085652695E+02	-4.65046833297E+01	-1.63710350329E+02	-6.00382808002E+00	-5.44761931375E-01
7.66018446494E+05	-8.03039089487E+00	1.68837386973E+02	4.76676431503E+00	1.78475747429E+02	-4.10421726933E+01	-1.35523982505E+02	-5.99903532538E+00	-2.71449533460E-01
7.88209801089E+05	-1.22513505212E+01	1.71760958991E+02	4.72137432174E+00	1.78227027074E+02	-4.76756397873E+01	1.40468958711E+02	-6.02085156697E+00	-3.88410183315E-01
8.10401155684E+05	-1.30156460109E+01	-1.79035997345E+02	4.74248287889E+00	1.78549757738E+02	-3.92721733930E+01	-1.50108540021E+02	-5.98883349178E+00	-2.03299541553E-01
8.32592510279E+05	-1.51667619847E+01	-1.71842675576E+02	4.79163732199E+00	1.78219517455E+02	-4.08544217770E+01	1.11367669325E+02	-6.00912677699E+00	-4.63751685946E-01
8.54783864874E+05	-1.95609301097E+01	-1.73059695047E+02	4.83969432886E+00	1.78170218782E+02	-5.15072751731E+01	1.03222142175E+01	-6.00176954545E+00	-3.65170793454E-01
8.76975219469E+05	-1.39354292333E+01	1.74015641093E+02	4.79481453452E+00	1.78147195230E+02	-4.12864537117E+01	1.48617787560E+02	-5.99689544933E+00	-4.40541853235E-01
8.99166574064E+05	-1.14228318550E+01	1.77325928899E+02	4.74816977409E+00	1.77871671529E+02	-4.67152734243E+01	-1.04639762210E+02	-6.00643748334E+00	-2.65546776972E-01
9.21357928659E+05	-1.09981552263E+01	1.62516357048E+02	4.76216600093E+00	1.77817983110E+02	-4.57510345855E+01	-8.40215004823E+01	-6.00534776871E+00	-3.92511514689E-01
9.43549283254E+05	-1.37458828725E+01	-1.67732964903E+02	4.75628102377E+00	1.77484117810E+02	-4.00898969952E+01	-4.75813559910E+01	-6.01081489633E+00	-4.06972476868E-01
9.65740637849E+05	-1.59704396168E+01	-1.49158480898E+02	4.84390711099E+00	1.77541080715E+02	-4.14459158748E+01	4.82496687235E+01	-6.01166248775E+00	-4.77891919055E-01
9.87931992444E+05	-1.42825765573E+01	1.78297499610E+02	4.77249532433E+00	1.77638541805E+02	-4.16257847670E+01	-5.07143637121E+01	-6.04514541127E+00	-4.88930588696E-01
1.01012334704E+06	-1.26164969086E+01	-1.69223638597E+02	4.78998359851E+00	1.76773544706E+02	-4.32016754046E+01	2.10514021251E+01	-6.01649461575E+00	-3.16931295442E-01
1.03231470163E+06	-1.56857134740E+01	-1.65197188902E+02	4.78958355727E+00	1.77141836580E+02	-4.75630347388E+01	5.02458843926E+00	-6.00527964461E+00	-4.36040984530E-01
1.05450605623E+06	-1.38998655055E+01	-1.74814715706E+02	4.78774856768E+00	1.77077529718E+02	-4.10692226967E+01	-1.03001557853E+02	-6.01492870555E+00	-4.00962651207E-01
1.07669741082E+06	-1.37861337915E+01	-1.70906350997E+02	4.80707864389E+00	1.77109873090E+02	-5.14169047499E+01	-3.87255233471E+01	-6.02116093791E+00	-6.52191941345E-01
1.09888876542E+06	-1.60783464900E+01	1.75600677216E+02	4.81638822752E+00	1.76722431568E+02	-4.27427422049E+01	-1.42373449605E+02	-5.98078352572E+00	-4.74775584125E-01
1.12108012001E+06	-1.23712480902E+01	-1.52347599045E+02	4.81197305532E+00	1.76697324900E+02	-5.25594929790E+01	5.53864124388E+01	-6.00395275541E+00	-4.36350145817E-01
1.14327147461E+06	-1.51506865293E+01	-1.70314379895E+02	4.77374469472E+00	1.76657075591E+02	-3.91061348036E+01	-5.48418482695E+01	-6.03119229039E+00	-4.09271125620E-01
1.16546282920E+06	-1.65709528557E+01	-1.70140296271E+02	4.85314591936E+00	1.76743618125E+02	-4.68756832966E+01	-1.68271642230E+02	-6.00853327270E+00	-6.74863063311E-01
1.18765418380E+06	-1.78207406359E+01	1.70730090365E+02	4.81246599512E+00	1.76578700108E+02	-4.70288389823E+01	-1.54534318381E+02	-6.02956034526E+00	-4.77928967677E-01
1.20984553839E+06	-1.36582769151E+01	-1.59920146297E+02	4.76656780411E+00	1.76381976861E+02	-5.20286692185E+01	1.20164780163E+01	-6.00278127458E+00	-6.59126859175E-01
1.23203689299E+06	-1.36696418912E+01	-1.61821072864E+02	4.80603563072E+00	1.76164763912E+02	-4.79134568552E+01	1.61526876695E+02	-6.01655370873E+00	-3.42980950280E-01
1.25422824758E+06	-1.48537159746E+01	-1.59016771929E+02	4.81235058525E+00	1.76676624428E+02	-5.18582411835E+01	-1.96574262332E+01	-6.01750381918E+00	-5.67740284006E-01
1.27641960218E+06	-1.22094808254E+01	-1.67005738978E+02	4.78516770509E+00	1.76190436381E+02	-5.73623981427E+01	7.14078775843E+01	-6.01275712229E+00	-5.22706358502E-01
1.29861095677E+06	-1.97446928751E+01	-1.65510638584E+02	4.85523864803E+00	1.76268353578E+02	-5.11057164180E+01	6.51976682433E+01	-6.01102467369E+00	-6.92038384947E-01
1.32080231137E+06	-1.33112751635E+01	1.79046661062E+02	4.74242281280E+00	1.76099678512E+02	-4.59784281385E+01	5.81515843887E+01	-5.99543343459E+00	-9.23442018178E-01
1.34299366596E+06	-1.75799012120E+01	-1.50170396714E+02	4.77557612220E+00	1.76053957140E+02	-4.36786743212E+01	1.03579624014E+02	-6.00348188061E+00	-7.81432709491E-01
1.36518502056E+06	-1.58677114728E+01	-1.62239951673E+02	4.81380161406E+00	1.75784681747E+02	-5.14549289730E+01	-1.57827631577E+02	-6.01803367399E+00	-5.98682721989E-01
1.38737637515E+06	-1.04720648279E+01	-1.21630599748E+02	4.86877458701E+00	1.75472991732E+02	-4.46657045381E+01	-3.48127257684E+01	-6.02132102492E+00	-5.47948439585E-01
1.40956772975E+06	-1.68214571727E+01	1.74242464469E+02	4.77746528752E+00	1.76102463631E+02	-4.99121994742E+01	2.43018015970E+01	-6.03514472347E+00	-6.41896667914E-01
1.43175908434E+06	-1.34731910006E+01	-1.70790590934E+02	4.76977523249E+00	1.75653423922E+02	-3.69079048124E+01	1.47031289916E+02	-5.99255718971E+00	-5.71216967618E-01
1.45395043894E+06	-1.50995416840E+01	1.72760969598E+02	4.79922858556E+00	1.75714989318E+02	-4.43985920851E+01	4.60319315355E+01	-6.02309779403E+00	-7.58807369963E-01
1.47614179353E+06	-1.48195326286E+01	1.78854088311E+02	4.79332288505E+00	1.75633083834E+02	-4.35461005095E+01	7.25002362737E+01	-5.99546306076E+00	-8.33712442730E-01
1.49833314813E+06	-1.29340921083E+01	-1.75736222338E+02	4.79709106349E+00	1.75438365759E+02	-3.87685774096E+01	1.29725354153E+02	-6.00215740853E+00	-7.72846931490E-01
1.52052450272E+06	-1.24840041293E+01	-1.66963974413E+02	4.80749499910E+00	1.75004825172E+02	-4.60609518820E+01	4.73916908056E+01	-6.01829283602E+00	-6.43959973213E-01
1.54271585732E+06	-1.49673443060E+01	-1.31741733074E+02	4.89960547031E+00	1.75158651842E+02	-4.25001616962E+01	5.27014880197E+01	-6.01699800330E+00	-5.99979562797E-01
1.56490721191E+06	-1.56755528365E+01	-1.72033292821E+02	4.79383771910E+00	1.74924065580E+02	-4.69492126668E+01	1.62824271928E+02	-5.99018966634E+00	-6.23095586436E-01
1.58709856651E+06	-1.16980923695E+01	1.76695088910E+02	4.79364648848E+00	1.75177347678E+02	-3.81875221268E+01	-9.79193567697E+01	-6.02759244143E+00	-4.58917195802E-01
1.60928992110E+06	-1.54610786076E+01	1.73227375491E+02	4.83644262259E+00	1.75143780315E+02	-3.90691652718E+01	-1.71415676357E+02	-5.98734220911E+00	-6.36223505758E-01
1.63148127570E+06	-1.44764005350E+01	1.73875118598E+02	4.83461636977E+00	1.75057077003E+02	-3.83531983590E+01	5.44490040565E+00	-6.02811403837E+00	-6.40868188229E-01
1.65367263029E+06	-1.28199874338E+01	-1.75949084479E+02	4.78055078552E+00	1.74561035248E+02	-5.20871177955E+01	-4.77522542926E+01	-6.03158804268E+00	-6.30939018550E-01
1.67586398489E+06	-1.10126557914E+01	1.60809080667E+02	4.76065556769E+00	1.74786210839E+02	-4.65744005043E+01	1.76834623847E+02	-6.00323292940E+00	-6.96022985287E-01
1.69805533948E+06	-1.24866709438E+01	-1.46291033754E+02	4.86130814229E+00	1.74581315089E+02	-4.14478101687E+01	1.26132711332E+02	-6.00356742300E+00	-7.88101064392E-01
1.72024669408E+06	-1.17139002834E+01	-1.70884380398E+02	4.76699266896E+00	1.74470982661E+02	-4.62112629868E+01	-8.97265612198E+01	-6.00305212044E+00	-6.72507118353E-01
1.74243804867E+06	-1.31397695734E+01	-1.67224200319E+02	4.79347818262E+00	1.74221866958E+02	-3.93352244709E+01	-6.67683108641E+01	-6.02877274636E+00	-6.03090251423E-01
1.76462940327E+06	-1.46769642642E+01	1.76904697277E+02	4.78504030327E+00	1.74448554547E+02	-3.62386090511E+01	6.91881018175E+01	-5.98348868716E+00	-7.38835008729E-01
1.78682075786E+06	-1.26950067657E+01	-1.67373600365E+02	4.83389006041E+00	1.74235198244E+02	-5.59783080607E+01	-1.06439775694E+02	-5.98872690432E+00	-7.96072630742E-01
1.80901211246E+06	-1.40484027294E+01	-1.72878726406E+02	4.82856628036E+00	1.74089215144E+02	-5.16472642623E+01	5.63973806049E+00	-6.01922274325E+00	-7.97524456616E-01
1.83120346705E+06	-1.50664825538E+01	-1.55303372183E+02	4.80945764090E+00	1.73737903562E+02	-4.89535994093E+01	1.26611593509E+02	-6.01950156721E+00	-6.67911722507E-01
1.85339482165E+06	-2.68652320950E+01	-1.67496598537E+02	4.83038976589E+00	1.74230185714E+02	-4.52458540209E+01	-7.73327888370E-01	-6.02820611218E+00	-8.09578774267E-01
1.87558617624E+06	-1.39601289042E+01	1.79012383375E+02	4.80445670621E+00	1.73757400952E+02	-3.92822339909E+01	1.11463121258E+02	-6.00291709582E+00	-8.76640417389E-01
1.89777753084E+06	-1.61715926154E+01	-1.64108350357E+02	4.79382979377E+00	1.73829326305E+02	-4.21638889419E+01	-3.15481277087E+01	-6.02579087125E+00	-7.18215218111E-01
1.91996888543E+06	-1.43728828299E+01	-1.79379925269E+02	4.81398151250E+00	1.73628695101E+02	-2.99588024896E+01	-1.79958427086E+02	-5.98006333224E+00	-5.63225370748E-01
1.94216024003E+06	-1.33454961577E+01	-1.78591309867E+02	4.81898350151E+00	1.73423253014E+02	-5.25997852624E+01	-6.17842677560E+01	-6.01125253159E+00	-8.33606702740E-01
1.96435159462E+06	-1.36481210468E+01	-1.73731093010E+02	4.79626783615E+00	1.73657172839E+02	-5.01704336200E+01	1.59884199933E+02	-6.01017374299E+00	-7.98385736468E-01
1.98654294922E+06	-1.74740138924E+01	-1.31949401561E+02	4.88825389589E+00	1.73319099724E+02	-5.34296875910E+01	9.55480973805E+01	-6.00486779330E+00	-7.61620319964E-01
2.00873430381E+06	-1.57575081049E+01	1.73966462359E+02	4.83184038962E+00	1.73429669094E+02	-4.44760986645E+01	1.01052164478E+02	-5.99827853467E+00	-8.90386899265E-01
2.03092565841E+06	-1.24928705657E+01	-1.53368273438E+02	4.84761706800E+00	1.72937090701E+02	-4.65115776153E+01	1.48986904203E+02	-5.99618673746E+00	-8.53680109578E-01
2.05311701300E+06	-1.54056562451E+01	-1.48705346681E+02	4.85253756475E+00	1.73166509443E+02	-5.52302894712E+01	1.14430785750E+01	-5.99504222050E+00	-9.71087090679E-01
2.07530836760E+06	-1.96534695488E+01	-1.37706943042E+02	4.85799551184E+00	1.73163218443E+02	-3.67000605581E+01	-1.54971525968E+02	-5.98485827288E+00	-6.50294888530E-01
2.09749972219E+06	-1.23708182679E+01	1.69405813510E+02	4.76867047581E+00	1.73212877006E+02	-4.28213849190E+01	-6.47916431452E+01	-5.99755404324E+00	-7.33786274749E-01
2.11969107679E+06	-1.46835461509E+01	-1.62917974474E+02	4.83781069103E+00	1.72718809370E+02	-4.42270771532E+01	1.24012030806E+02	-5.99806235160E+00	-1.00398949776E+00
2.14188243138E+06	-1.62213967433E+01	-1.69758884250E+02	4.83802280466E+00	1.72785035736E+02	-4.81786560908E+01	-7.39143628148E+01	-6.01570037438E+00	-9.69001858629E-01
2.16407378598E+06	-1.22232241122E+01	-1.63049224971E+02	4.82388556940E+00	1.72461569146E+02	-4.62186198547E+01	1.39222233706E+02	-6.00677959655E+00	-8.69404735024E-01
2.18626514057E+06	-1.53616516452E+01	-1.36017143325E+02	4.88877948486E+00	1.72491152766E+02	-5.28060187777E+01	4.58256828276E+01	-6.00115255461E+00	-9.08148245449E-01
2.20845649517E+06	-1.32841667450E+01	-1.73388451575E+02	4.81007046324E+00	1.72131760710E+02	-5.27681180356E+01	-1.56711227663E+02	-6.00894118624E+00	-7.84038398920E-01
2.23064784976E+06	-1.37901310460E+01	-1.71496391840E+02	4.83515936329E+00	1.72668744535E+02	-4.43619435831E+01	-1.18568928481E+02	-6.01273074729E+00	-7.66328205785E-01
2.25283920436E+06	-1.44238811149E+01	1.72051150773E+02	4.85889534761E+00	1.72843318473E+02	-4.24889815356E+01	7.60890876765E+01	-6.00460127650E+00	-1.00814776532E+00
2.27503055895E+06	-1.35188270364E+01	-1.58106381307E+02	4.83538755895E+00	1.72112571452E+02	-5.91690234657E+01	4.15790592610E+00	-6.02327628168E+00	-9.70190005463E-01
2.29722191355E+06	-1.79045855597E+01	-1.77128181649E+02	4.84209930938E+00	1.72284392335E+02	-4.57879995767E+01	9.47013409522E+01	-6.00626023644E+00	-9.35742533498E-01
2.31941326814E+06	-1.33514270482E+01	1.73441106528E+02	4.80686893432E+00	1.71816139978E+02	-4.36201408401E+01	-2.42533605293E+00	-6.01758056906E+00	-9.83688618665E-01
2.34160462274E+06	-8.38747102357E+00	1.75635223611E+02	4.75468331849E+00	1.71795899528E+02	-5.77055508858E+01	-1.70500279164E+02	-6.01564774310E+00	-1.05672377848E+00
2.36379597733E+06	-1.30240281807E+01	-1.68985134907E+02	4.84364165772E+00	1.71979467972E+02	-5.61222831512E+01	-4.84765788201E+01	-6.00727136678E+00	-1.06484911225E+00
2.38598733193E+06	-1.53580669837E+01	-1.76305879746E+02	4.83497053328E+00	1.72075032650E+02	-3.65426519971E+01	1.49043372560E+02	-5.97792140585E+00	-9.20786233717E-01
2.40817868652E+06	-1.44804010956E+01	-1.64199691318E+02	4.85756071558E+00	1.71847074254E+02	-3.94675187771E+01	2.04863984597E+01	-6.01994146108E+00	-1.23245138140E+00
2.43037004112E+06	-1.11162946125E+01	-1.72887617328E+02	4.76793604985E+00	1.71626659024E+02	-4.37885711612E+01	-5.80146084101E+01	-6.02507173277E+00	-1.41399645975E+00
2.45256139571E+06	-1.66356211215E+01	-1.57134701798E+02	4.87167180547E+00	1.71570796603E+02	-4.27019237638E+01	-1.69007886199E+02	-6.00281052337E+00	-9.72354537792E-01
2.47475275031E+06	-8.06777332544E+00	-1.77342309142E+02	4.76051786515E+00	1.71260050092E+02	-5.23496000474E+01	1.42228377628E+02	-6.00085542867E+00	-1.02539668793E+00
2.49694410490E+06	-9.50119142936E+00	-1.57666651198E+02	4.91823375647E+00	1.70945993177E+02	-5.61773239795E+01	-4.36198357943E+01	-6.01031734023E+00	-1.13799605048E+00
2.51913545950E+06	-1.45898550774E+01	-1.69776159596E+02	4.85715269275E+00	1.71356318903E+02	-4.65795540167E+01	1.56526685409E+00	-6.02430446937E+00	-1.12978062611E+00
2.54132681409E+06	-1.15492405556E+01	-1.60297721253E+02	4.80790731754E+00	1.71235776249E+02	-3.52955317746E+01	-9.28888730283E+01	-6.03412620384E+00	-9.38592371531E-01
2.56351816869E+06	-1.34426498812E+01	-1.73233708229E+02	4.81786280605E+00	1.71251153748E+02	-4.07558767684E+01	1.29370387390E+02	-5.99952787143E+00	-1.07017376182E+00
2.58570952328E+06	-1.27843063030E+01	1.77164182805E+02	4.78761519269E+00	1.71410820100E+02	-4.73542901158E+01	1.11800406553E+02	-6.04264893633E+00	-1.09851884487E+00
2.60790087788E+06	-1.64057920763E+01	1.68618543406E+02	4.83004272788E+00	1.71330336034E+02	-5.02287504970E+01	7.47398143007E+01	-5.99921041778E+00	-1.02333130227E+00
2.63009223247E+06	-1.35977848723E+01	1.79236778548E+02	4.80905725587E+00	1.70880067609E+02	-4.62542201173E+01	1.15592088933E+02	-5.98180318482E+00	-7.54570064715E-01
2.65228358707E+06	-1.80988826798E+01	-9.47734655090E+01	4.90887081378E+00	1.71377095199E+02	-4.96735557423E+01	4.11081176639E+01	-6.00197940512E+00	-1.13161298975E+00
2.67447494166E+06	-1.39673274926E+01	-1.71290906524E+02	4.84938234555E+00	1.70661973093E+02	-4.21352003147E+01	-6.23590349792E+01	-6.01428829491E+00	-1.16647718385E+00
2.69666629626E+06	-1.58489981202E+01	-1.72280352650E+02	4.85074646996E+00	1.70920931523E+02	-5.68950226318E+01	9.74204513178E+01	-6.02723600988E+00	-1.16027721066E+00
2.71885765085E+06	-1.46658036026E+01	1.72692710836E+02	4.83299481867E+00	1.70872408561E+02	-4.02341178439E+01	-1.13627060610E+02	-6.01380259560E+00	-9.19313755505E-01
2.74104900545E+06	-1.31495917580E+01	-1.63170206224E+02	4.85798139074E+00	1.70425618935E+02	-5.16276390069E+01	1.06012541541E+02	-6.00059615898E+00	-1.15316503390E+00
2.76324036004E+06	-1.81400428590E+01	-1.55112111351E+02	4.88039394104E+00	1.70817961631E+02	-4.72186243132E+01	-8.34849636360E+01	-6.01293265281E+00	-1.19085260723E+00
2.78543171463E+06	-1.37324727922E+01	-1.47087647552E+02	4.87312867680E+00	1.70281852838E+02	-5.03649982770E+01	-1.32111732224E+02	-5.98144098365E+00	-1.17473981776E+00
2.80762306923E+06	-1.93700850983E+01	-1.25179101036E+02	4.92441342674E+00	1.70595836035E+02	-5.05091875847E+01	1.37071332237E+02	-5.99736603788E+00	-1.09772496017E+00
2.82981442382E+06	-1.43223290068E+01	-1.66254259265E+02	4.86447009508E+00	1.70220836799E+02	-4.70248305852E+01	-1.71122818255E+02	-6.00466822749E+00	-1.14416797808E+00
2.85200577842E+06	-1.51893112409E+01	-1.61828672902E+02	4.87980204535E+00	1.69868380295E+02	-4.78652193436E+01	-5.04719431209E+01	-6.02105238494E+00	-1.21052157277E+00
2.87419713301E+06	-1.31735063521E+01	-1.56574963447E+02	4.87273322211E+00	1.69976755672E+02	-4.66429772364E+01	2.76547392506E+01	-6.01005684435E+00	-1.22078643994E+00
