# Hz S DB R 50
! CMT, M5065, 19127446, 24.2.4/2
! Date: 11/8/2024 3:14:12 PM
! Data: Format (Calibration Info)
! Freq	S11:dB/Ang(F2)	S21:dB/Ang(F2)	S12:dB/Ang(F2)	S22:dB/Ang(F2)
3.00000000000E+05	-1.49546082412E+01	1.54528122604E+02	1.39543767312E+01	-1.76781938889E+02	-4.93096608926E+01	8.92593019746E+01	-5.99759850607E+00	-3.90212725745E-01
3.22191354595E+05	-1.42971481186E+01	-1.74884479809E+02	1.39264037503E+01	-1.77875431310E+02	-4.20347206749E+01	-7.41195706648E+01	-6.02715191050E+00	-1.79966290615E-01
3.44382709190E+05	-1.22402429378E+01	-1.67004772683E+02	1.39416410822E+01	-1.78167173843E+02	-4.34611766346E+01	1.29268958692E+02	-5.98260602027E+00	-3.20265380186E-01
3.66574063785E+05	-1.42464334335E+01	-1.70326229845E+02	1.39359917585E+01	-1.78606654207E+02	-4.32968446505E+01	-1.23856037752E+02	-5.98909389003E+00	-9.71615130538E-02
3.88765418380E+05	-2.37464797868E+01	-1.71845739574E+02	1.38678365057E+01	-1.77481621112E+02	-4.08961787670E+01	1.25145420377E+02	-5.95576324146E+00	-6.76684751085E-01
4.10956772975E+05	-1.01033466790E+01	-1.75548532205E+02	1.39081392725E+01	-1.79350433723E+02	-4.02273096753E+01	-8.08788253269E+01	-5.99245183440E+00	-1.55242495137E-01
4.33148127570E+05	-1.41843782266E+01	1.68493363873E+02	1.39435179845E+01	-1.79464386089E+02	-4.64868651503E+01	1.36785909451E+02	-5.98583329038E+00	-3.08722353374E-01
4.55339482165E+05	-1.71448504020E+01	1.77314061150E+02	1.39566347978E+01	-1.79671718088E+02	-4.18365584307E+01	-6.53767162924E+01	-5.99262846125E+00	-2.89684530370E-01
4.77530836760E+05	-1.47444297232E+01	-1.59937690776E+02	1.39390336287E+01	1.79770940722E+02	-5.42516650836E+01	-4.40212391742E+01	-6.02664221970E+00	-2.53303835147E-01
4.99722191355E+05	-1.50738188187E+01	-1.58364252338E+02	1.39350723431E+01	1.79343976988E+02	-4.71665374697E+01	-1.52457303699E+02	-5.97600262572E+00	-2.70498820711E-01
5.21913545950E+05	-1.62091419203E+01	1.67740167147E+02	1.39527430194E+01	1.79247069701E+02	-4.78860388907E+01	-2.23677746729E+01	-6.02983445278E+00	-2.28249916462E-01
5.44104900545E+05	-1.46760358690E+01	-1.68160590200E+02	1.39346894678E+01	1.79081589629E+02	-4.33930709110E+01	1.56425247776E+02	-5.98282965168E+00	-4.08066292975E-01
5.66296255139E+05	-1.32796403800E+01	-1.69044459541E+02	1.39122616133E+01	1.78775406129E+02	-4.94633325852E+01	1.30724275718E+01	-6.02483934942E+00	-3.90365087123E-01
5.88487609734E+05	-1.43346846483E+01	-1.66790672362E+02	1.39394358958E+01	1.78592894660E+02	-4.33879804765E+01	-1.23597184954E+02	-5.99960315302E+00	-1.21267039161E-01
6.10678964329E+05	-1.58353044418E+01	1.77030522110E+02	1.39105349587E+01	1.78331589991E+02	-4.24920853311E+01	-3.20260143570E+01	-6.03654354392E+00	2.30103112396E-01
6.32870318924E+05	-1.52590384605E+01	1.75928301817E+02	1.39353262992E+01	1.78072083531E+02	-4.95992937896E+01	-1.03825339383E+02	-6.01408959641E+00	-1.38509951792E-01
6.55061673519E+05	-1.50220862676E+01	1.77792704968E+02	1.39555710648E+01	1.77909242793E+02	-4.76265459583E+01	1.75404178327E+02	-6.02520587870E+00	-4.26629565134E-01
6.77253028114E+05	-1.28998273321E+01	1.79211477821E+02	1.39046441863E+01	1.77766281137E+02	-4.88894684827E+01	5.06738335062E+01	-6.01419918704E+00	-7.31677285030E-01
6.99444382709E+05	-1.18217052913E+01	1.69481897252E+02	1.38984103245E+01	1.77712419968E+02	-4.66957818305E+01	-2.71591312807E+01	-6.02818009120E+00	-2.64053616557E-01
7.21635737304E+05	-1.53498240269E+01	-1.66133191332E+02	1.39783605661E+01	1.77166738949E+02	-4.12129443671E+01	-7.82081703688E+01	-6.00835789940E+00	-1.30931966830E-01
7.43827091899E+05	-1.21966479707E+01	1.75566026930E+02	1.39146704984E+01	1.77122557791E+02	-5.03753391194E+01	-9.63217252511E+01	-6.00639794260E+00	-5.17688180432E-01
7.66018446494E+05	-1.49868977451E+01	-1.71029663602E+02	1.39387264921E+01	1.77007525247E+02	-4.05211772159E+01	-3.57528494648E+01	-6.00991205776E+00	-3.65918469746E-01
7.88209801089E+05	-1.77786379680E+01	1.68455044239E+02	1.39395676116E+01	1.76976608557E+02	-4.54993753040E+01	-1.76216859766E+02	-5.98202823417E+00	-5.02798905019E-01
8.10401155684E+05	-1.30568885248E+01	1.79062077942E+02	1.39122636530E+01	1.76710062146E+02	-5.12889806910E+01	-1.29856423466E+02	-5.98564653167E+00	-4.55838827438E-01
8.32592510279E+05	-1.25180084685E+01	-1.70924349141E+02	1.39244764571E+01	1.76313308900E+02	-5.02733161019E+01	7.78042509339E+01	-5.99132956443E+00	-4.81316399383E-01
8.54783864874E+05	-1.45064047994E+01	-1.56683454661E+02	1.39356026175E+01	1.76061255576E+02	-4.21366166920E+01	1.58816581922E+02	-5.97050642142E+00	-4.14798655080E-01
8.76975219469E+05	-1.33350431041E+01	-1.69305040287E+02	1.38907010049E+01	1.76022237266E+02	-4.23353555196E+01	-1.33166443314E+02	-5.99563401340E+00	-2.14340147378E-01
8.99166574064E+05	-1.99580198402E+01	-1.77792730631E+02	1.39412274702E+01	1.76025499639E+02	-4.40364044443E+01	1.47004712942E+02	-5.96589976464E+00	-3.65215185360E-01
9.21357928659E+05	-1.57639677740E+01	-1.69032400165E+02	1.39435057665E+01	1.75646844410E+02	-4.19409081495E+01	1.36287909618E+02	-5.98173303569E+00	-5.11670974395E-01
9.43549283254E+05	-1.42781875728E+01	1.78841883123E+02	1.39059240661E+01	1.75477345149E+02	-4.32190338704E+01	1.74313178602E+01	-6.01621449126E+00	-4.86758791375E-01
9.65740637849E+05	-1.39951546985E+01	1.69295208149E+02	1.39155943775E+01	1.75615359512E+02	-5.06907966103E+01	8.33114830187E+01	-5.98420153685E+00	-4.77143830533E-01
9.87931992444E+05	-1.21586463344E+01	1.74721544940E+02	1.38946710362E+01	1.75350591273E+02	-4.79132126595E+01	2.87967506368E+01	-6.01028740709E+00	-5.48625540577E-01
1.01012334704E+06	-1.41776002179E+01	-1.64904594618E+02	1.39401270293E+01	1.74793863264E+02	-4.71951979719E+01	9.46760410076E+01	-5.99330600979E+00	-5.52579037798E-01
1.03231470163E+06	-1.17218736923E+01	1.66729484708E+02	1.39040497672E+01	1.74930576662E+02	-5.50196411967E+01	-1.31997883001E+02	-6.00882725573E+00	-5.26355788674E-01
1.05450605623E+06	-1.49573476592E+01	-1.69074152970E+02	1.39390010431E+01	1.74596205190E+02	-4.25506494062E+01	-4.12220611156E+01	-6.01446162151E+00	-5.11159312287E-01
1.07669741082E+06	-1.06047697754E+01	-1.77049701364E+02	1.39069231110E+01	1.74429901546E+02	-4.53533839748E+01	1.57172053196E+02	-5.98695827107E+00	-5.78901794615E-01
1.09888876542E+06	-1.41733076575E+01	-1.54854590430E+02	1.39222736689E+01	1.74362350806E+02	-3.27058785704E+01	7.88862743112E+01	-6.00170083924E+00	-1.15726075360E+00
1.12108012001E+06	-1.49058353319E+01	-1.75177775532E+02	1.39496070671E+01	1.74140952283E+02	-5.38803328313E+01	-7.37078856911E+01	-5.99323639032E+00	-3.77232551036E-01
1.14327147461E+06	-1.39646998369E+01	-1.77946574076E+02	1.39265796388E+01	1.74007873034E+02	-5.21542347572E+01	3.94643849614E+01	-6.00379297845E+00	-6.18688041569E-01
1.16546282920E+06	-1.85926552607E+01	1.72813723857E+02	1.39680600413E+01	1.74018247728E+02	-4.35811070276E+01	-1.37393553972E+02	-5.96671921209E+00	-3.63342884268E-01
1.18765418380E+06	-1.15910285596E+01	-1.69441793528E+02	1.39375743666E+01	1.73572156424E+02	-4.56133363058E+01	-7.64369542536E+01	-6.01679979016E+00	-4.51678977372E-01
1.20984553839E+06	-1.10270286628E+01	-1.72526342177E+02	1.39056168871E+01	1.73536483356E+02	-5.03743432318E+01	6.70931301522E+01	-6.00296951583E+00	-8.15944408454E-01
1.23203689299E+06	-1.71009721180E+01	-1.50411270341E+02	1.39508637531E+01	1.73383785050E+02	-3.85659738560E+01	-1.14568434581E+02	-6.01938375996E+00	-7.57247694258E-02
1.25422824758E+06	-1.39499766754E+01	-1.61399181720E+02	1.39230304472E+01	1.73285495136E+02	-4.02068915762E+01	-9.22786480737E+00	-6.02635389958E+00	-5.53650066022E-01
1.27641960218E+06	-1.54432939944E+01	-1.77608837852E+02	1.39370023260E+01	1.73109691170E+02	-5.91958068253E+01	5.75114627606E+01	-6.01571311175E+00	-7.40895650073E-01
1.29861095677E+06	-1.33903963797E+01	-1.65989563301E+02	1.39379613759E+01	1.72925200422E+02	-4.28077978718E+01	3.39732074365E+01	-6.02995856938E+00	-6.97647880152E-01
1.32080231137E+06	-1.85277326892E+01	1.46537779975E+02	1.39489459527E+01	1.73147737220E+02	-5.35786523916E+01	-1.19841524711E+02	-6.00237186851E+00	-7.38015265652E-01
1.34299366596E+06	-1.20300603711E+01	-1.73387637826E+02	1.39015210320E+01	1.72723176405E+02	-3.75949140506E+01	8.16162647432E+01	-5.96828978394E+00	-1.07228130562E+00
1.36518502056E+06	-2.25359915412E+01	1.39514319430E+02	1.39222095303E+01	1.72760959625E+02	-4.71841398586E+01	-2.80325576740E+01	-6.01245339982E+00	-5.28449467476E-01
1.38737637515E+06	-1.52081443158E+01	-1.66255401478E+02	1.39395543259E+01	1.72243349667E+02	-3.81474726220E+01	1.47159956431E+02	-5.96356299642E+00	-6.50052798495E-01
1.40956772975E+06	-1.37607246984E+01	-1.62952138947E+02	1.39312345519E+01	1.72157572625E+02	-3.86292112299E+01	-3.54756429923E+01	-6.04158028841E+00	-5.21584230588E-01
1.43175908434E+06	-1.60825453340E+01	-1.50622508902E+02	1.39548202460E+01	1.72112504848E+02	-5.14311150085E+01	1.47048977826E+02	-6.00679702652E+00	-5.93170295268E-01
1.45395043894E+06	-1.42302016168E+01	-1.71380376599E+02	1.39275037520E+01	1.71933918662E+02	-4.30428341678E+01	-1.35042217531E+02	-5.97822287584E+00	-5.81101901880E-01
1.47614179353E+06	-1.47981104835E+01	-1.56974844878E+02	1.39332038024E+01	1.71715176268E+02	-5.00336158618E+01	-1.87386075499E+01	-6.01613894051E+00	-6.63803103743E-01
1.49833314813E+06	-1.46709169063E+01	-1.69511966111E+02	1.39385072658E+01	1.71631385707E+02	-5.43469484858E+01	-6.62499711841E+01	-6.00149779972E+00	-6.61374031760E-01
1.52052450272E+06	-1.74014429386E+01	1.49837691603E+02	1.39296098950E+01	1.71852174884E+02	-4.12738768474E+01	-1.15890049355E+02	-6.00025464443E+00	-5.42615888765E-01
1.54271585732E+06	-1.24785674100E+01	1.75807814362E+02	1.39059862918E+01	1.71452319669E+02	-3.81616481509E+01	-1.77999138011E+02	-5.97485670152E+00	-6.61927033458E-01
1.56490721191E+06	-1.21722531362E+01	-1.64367950249E+02	1.39236335429E+01	1.71087262955E+02	-3.99119677022E+01	1.52520700937E+02	-5.97261911806E+00	-6.91028891528E-01
1.58709856651E+06	-1.03576099781E+01	-1.56431875006E+02	1.39193772422E+01	1.70792351211E+02	-4.27969795935E+01	1.18536255518E+02	-5.98883666778E+00	-7.91319661028E-01
1.60928992110E+06	-1.43710342436E+01	-1.61137923323E+02	1.39310085866E+01	1.70803401258E+02	-5.29901779364E+01	1.71945442774E+02	-6.01367236347E+00	-7.59452144183E-01
1.63148127570E+06	-1.30017945820E+01	1.67187409142E+02	1.39166119018E+01	1.70897938266E+02	-4.65036586588E+01	6.56494612889E+01	-6.01916405323E+00	-6.44049432638E-01
1.65367263029E+06	-1.30773852652E+01	-1.70217261531E+02	1.39171787723E+01	1.70519646261E+02	-4.41328447908E+01	-2.88979583047E+01	-6.02468111691E+00	-7.31470979923E-01
1.67586398489E+06	-1.23498583880E+01	1.74727499541E+02	1.39059788907E+01	1.70657291368E+02	-5.08134049479E+01	5.17130139253E+01	-6.01784717625E+00	-1.01531598221E+00
1.69805533948E+06	-1.33168836899E+01	-1.77032193979E+02	1.39265705453E+01	1.70430219381E+02	-4.41484395194E+01	-1.78759918892E+02	-5.98757345492E+00	-8.95439589761E-01
1.72024669408E+06	-1.61125115548E+01	-1.57621224611E+02	1.39415231197E+01	1.70123358583E+02	-3.88735958064E+01	-9.67526033803E+01	-5.97426788392E+00	-3.97186671490E-01
1.74243804867E+06	-1.49735897938E+01	-1.76168890420E+02	1.39254476472E+01	1.70168707836E+02	-5.80012682735E+01	1.20504265121E+02	-5.98900038853E+00	-7.26261584492E-01
1.76462940327E+06	-1.59870354419E+01	-1.70563192503E+02	1.39354080696E+01	1.70014882910E+02	-4.66268776473E+01	6.74113967544E+01	-5.96868394162E+00	-1.02468575944E+00
1.78682075786E+06	-1.78228644706E+01	1.50717537310E+02	1.39641200935E+01	1.70003139304E+02	-4.34473893215E+01	1.61214589989E+02	-5.96482079232E+00	-9.00591448135E-01
1.80901211246E+06	-1.46348422112E+01	-1.77859975880E+02	1.39132515684E+01	1.69574281251E+02	-4.57110134086E+01	1.52771586222E+02	-5.97172290174E+00	-7.23371464485E-01
1.83120346705E+06	-1.04172144645E+01	1.78342831480E+02	1.38887366023E+01	1.69283515824E+02	-4.39328758666E+01	3.56882507185E+01	-6.00519743315E+00	-1.11198765385E+00
1.85339482165E+06	-1.24535694698E+01	-1.77529457540E+02	1.39266167153E+01	1.69184426651E+02	-5.46953534452E+01	-3.11187185954E+01	-6.00977954807E+00	-8.18861039679E-01
1.87558617624E+06	-1.11224446155E+01	-1.53303039712E+02	1.39438748376E+01	1.68862998487E+02	-5.03808900579E+01	7.61330292259E+00	-5.99610515345E+00	-8.12475821821E-01
1.89777753084E+06	-1.50314404787E+01	-1.70091655556E+02	1.39347733153E+01	1.69087993053E+02	-4.72700083005E+01	1.25910492085E+02	-5.97745178536E+00	-9.00184180405E-01
1.91996888543E+06	-1.64329402819E+01	-1.79712949662E+02	1.39212539934E+01	1.69034775058E+02	-4.51961299425E+01	1.18990561721E+02	-5.99293897406E+00	-8.38852506220E-01
1.94216024003E+06	-1.41679162989E+01	-1.59580129649E+02	1.39598182260E+01	1.68729247010E+02	-4.62059266088E+01	-6.12302526346E+01	-6.01216583111E+00	-8.61008844656E-01
1.96435159462E+06	-1.51275338397E+01	-1.69463253166E+02	1.39623399590E+01	1.68620027405E+02	-4.35700402386E+01	-5.39891939515E+01	-6.01572534572E+00	-7.53391523335E-01
1.98654294922E+06	-1.62982425254E+01	-1.70348473186E+02	1.39603806499E+01	1.68656660749E+02	-4.62705843175E+01	-5.69733227132E+01	-6.03235003530E+00	-7.15441748520E-01
2.00873430381E+06	-1.44878429465E+01	-1.57808424081E+02	1.39441948727E+01	1.68217104935E+02	-4.50046433419E+01	7.04724429435E+01	-5.98457210555E+00	-9.83422206237E-01
2.03092565841E+06	-1.38136355910E+01	-1.71743596848E+02	1.39312313477E+01	1.68234852793E+02	-4.77497841524E+01	-7.04452581041E+01	-6.03670353063E+00	-6.53313628626E-01
2.05311701300E+06	-1.18991053611E+01	-1.65622283911E+02	1.39207636743E+01	1.67937678953E+02	-5.01810694260E+01	1.37182625519E+02	-5.97378095425E+00	-8.41665919371E-01
2.07530836760E+06	-1.57786776869E+01	-1.69829711526E+02	1.39492700328E+01	1.67948064076E+02	-4.46981008453E+01	3.36068424416E+01	-6.00710399671E+00	-1.16641094621E+00
2.09749972219E+06	-1.35259931068E+01	-1.72323361132E+02	1.39205258727E+01	1.67700986023E+02	-4.34439988820E+01	-9.34001599714E+01	-6.02328471400E+00	-7.83747301990E-01
2.11969107679E+06	-1.19921494996E+01	-1.53628875335E+02	1.39414277639E+01	1.67342149444E+02	-4.04128344240E+01	-1.61515500281E+02	-5.96741601497E+00	-6.29233113639E-01
2.14188243138E+06	-1.28837306834E+01	-1.53975890217E+02	1.39720916819E+01	1.67517907598E+02	-4.70762755433E+01	-1.46145650452E+02	-5.98340718063E+00	-8.05350499064E-01
2.16407378598E+06	-1.29459226540E+01	1.57984337474E+02	1.38759009019E+01	1.67316338363E+02	-4.38444920269E+01	-8.42597511967E+01	-5.99225478922E+00	-7.86371392967E-01
2.18626514057E+06	-1.68589739585E+01	-1.44177736368E+02	1.39612774083E+01	1.67288596017E+02	-3.68986298032E+01	1.27396265352E+02	-5.96170965922E+00	-1.00765949024E+00
2.20845649517E+06	-1.48947238233E+01	1.71496172739E+02	1.39575824116E+01	1.67339906534E+02	-5.24659730623E+01	6.65858559086E+01	-5.98540396995E+00	-1.09683494188E+00
2.23064784976E+06	-1.65259762195E+01	-1.63907104057E+02	1.39885554661E+01	1.67179658450E+02	-6.19899775544E+01	2.59334610075E+01	-5.98296309564E+00	-8.75133803320E-01
2.25283920436E+06	-1.65683550064E+01	-1.55670363122E+02	1.39737915010E+01	1.66949179709E+02	-4.61978239821E+01	-5.83179891061E+01	-6.02541482492E+00	-9.18753133375E-01
2.27503055895E+06	-1.31735013527E+01	-1.64291348340E+02	1.39504708191E+01	1.66602685964E+02	-3.74164343283E+01	1.70090705942E+02	-5.94046654140E+00	-8.80695470276E-01
2.29722191355E+06	-1.64752837410E+01	-1.38046708152E+02	1.39973465755E+01	1.66652550388E+02	-4.60049668630E+01	1.71191962811E+02	-5.98493656324E+00	-1.06999675486E+00
2.31941326814E+06	-1.33782072287E+01	-1.48335461673E+02	1.39525422140E+01	1.66335003636E+02	-4.65290119476E+01	6.31185124817E+01	-6.00207529319E+00	-1.06640507471E+00
2.34160462274E+06	-1.23777306307E+01	-1.57611869812E+02	1.39643619161E+01	1.66106514552E+02	-2.94423326923E+01	5.33338737289E+01	-5.97451645200E+00	-1.76494054704E+00
2.36379597733E+06	-1.40227996256E+01	-1.77879241457E+02	1.39408485629E+01	1.66386583935E+02	-4.22164826300E+01	-1.22666278704E+02	-6.00060185258E+00	-5.76321919453E-01
2.38598733193E+06	-1.54324320805E+01	-1.56221155639E+02	1.39663842375E+01	1.65915178968E+02	-4.52901584587E+01	-6.79737943737E+01	-6.01176402198E+00	-8.89156352452E-01
2.40817868652E+06	-1.24978881456E+01	-1.63530818756E+02	1.39319731012E+01	1.65705895323E+02	-4.65648154370E+01	1.64737761020E+02	-5.98221786743E+00	-1.23700164268E+00
2.43037004112E+06	-1.11025474977E+01	-1.70638083628E+02	1.38907895295E+01	1.65473398622E+02	-5.15198862009E+01	1.71164976210E+02	-5.98509782054E+00	-1.47826637863E+00
2.45256139571E+06	-1.32136364595E+01	-1.20808413945E+02	1.40164618133E+01	1.65449576539E+02	-4.50367244887E+01	1.71666287081E+02	-5.95877465258E+00	-9.89758038094E-01
2.47475275031E+06	-1.54774776357E+01	1.40073248071E+02	1.38880048204E+01	1.65468058839E+02	-4.50470938082E+01	3.42302209786E+01	-5.99739232224E+00	-1.16461385798E+00
2.49694410490E+06	-1.70753872627E+01	-1.54371627174E+02	1.39821449430E+01	1.65234952969E+02	-3.15154155551E+01	1.42013649259E+02	-5.89981006719E+00	-9.71760246090E-01
2.51913545950E+06	-1.64293264823E+01	-1.61297059054E+02	1.39744275090E+01	1.65266944183E+02	-3.75303688550E+01	-1.05220231926E+02	-6.01825403721E+00	-6.32712404484E-01
2.54132681409E+06	-1.43288453580E+01	-1.58985433531E+02	1.39631213577E+01	1.64824665943E+02	-4.52413342894E+01	-1.22035394070E+02	-6.00881359887E+00	-9.58620146777E-01
2.56351816869E+06	-1.39767658215E+01	-1.64433537597E+02	1.39561169053E+01	1.64845705580E+02	-5.00801613510E+01	-1.70799782309E+02	-5.99528509785E+00	-9.84618144253E-01
2.58570952328E+06	-1.22744661057E+01	-1.66172563771E+02	1.39306072910E+01	1.64612066196E+02	-4.07857559461E+01	1.43702596249E+02	-5.98966522229E+00	-1.10825547428E+00
2.60790087788E+06	-1.51148847306E+01	-1.75286462161E+02	1.39441262324E+01	1.64733746678E+02	-3.82140057062E+01	-5.80779375109E+01	-6.04849189124E+00	-8.29301532370E-01
2.63009223247E+06	-1.21430008351E+01	-1.63410822700E+02	1.39451893220E+01	1.64364262028E+02	-4.47151720585E+01	1.25018274382E+02	-5.96307820887E+00	-8.07376394085E-01
2.65228358707E+06	-1.68528751434E+01	-1.71366581228E+02	1.39713341166E+01	1.64351245596E+02	-3.93711102633E+01	-2.12728558029E+01	-6.04734800365E+00	-1.51723016925E+00
2.67447494166E+06	-1.47876059923E+01	-1.66965746265E+02	1.39592920197E+01	1.64249671240E+02	-5.63294870250E+01	-7.10636783066E+01	-5.99493052889E+00	-1.03499277560E+00
2.69666629626E+06	-1.28681392592E+01	-1.69910319260E+02	1.39230760330E+01	1.63830961967E+02	-4.49267196437E+01	-1.46507612034E+02	-5.97659391443E+00	-1.22223768059E+00
2.71885765085E+06	-1.28853079350E+01	-1.75591009428E+02	1.39389766780E+01	1.63882144075E+02	-5.15515141676E+01	-2.39823127225E+01	-5.99220289730E+00	-1.06721926416E+00
2.74104900545E+06	-1.53627518595E+01	-1.74941082217E+02	1.39850874700E+01	1.63839513850E+02	-5.34385966117E+01	1.07995757715E+01	-5.99771912622E+00	-1.34895929848E+00
2.76324036004E+06	-1.62805892365E+01	-1.56722773562E+02	1.39820746897E+01	1.63588202068E+02	-4.85492012045E+01	-4.30904980644E+01	-6.03112138016E+00	-1.27295021889E+00
2.78543171463E+06	-1.05830219928E+01	1.75289912878E+02	1.39047190478E+01	1.63463186599E+02	-5.05564509145E+01	-8.16573139409E+01	-6.01659914790E+00	-1.24320848986E+00
2.80762306923E+06	-1.48578629434E+01	-1.54288324315E+02	1.39756856443E+01	1.63185700371E+02	-4.49460837952E+01	-4.54415015331E+01	-6.01790079829E+00	-1.26792786709E+00
2.82981442382E+06	-1.23858347304E+01	-1.72027818998E+02	1.39521160863E+01	1.63099056177E+02	-5.03019907334E+01	-1.57781456131E+02	-5.97736351492E+00	-1.28631156337E+00
2.85200577842E+06	-1.35989533625E+01	-1.51406521656E+02	1.39747984465E+01	1.62876876351E+02	-4.72461355787E+01	1.32948063513E+02	-5.99668905620E+00	-1.25700403590E+00
2.87419713301E+06	-1.27246141779E+01	1.78250537118E+02	1.39347097395E+01	1.62914188567E+02	-6.93845128006E+01	-9.14146106904E+01	-5.99844080829E+00	-1.26773206152E+00
