# Hz S DB R 50
! CMT, M5065, 19127446, 24.2.4/2
! Date: 11/8/2024 2:59:55 PM
! Data: Format (Calibration Info)
! Freq	S11:dB/Ang(F2)	S21:dB/Ang(F2)	S12:dB/Ang(F2)	S22:dB/Ang(F2)
3.00000000000E+05	-1.46043679806E+01	-1.77491561638E+02	9.67052434967E+00	-1.77696232159E+02	-3.73787837516E+01	-1.46860222320E+02	-5.94945329200E+00	-1.26370195670E-01
3.22191354595E+05	-1.56280090815E+01	-1.68010307967E+02	9.66080531442E+00	-1.77815403364E+02	-5.72489538395E+01	9.76765492756E+01	-5.99338875893E+00	-4.29198266180E-01
3.44382709190E+05	-1.39223527855E+01	1.66472557248E+02	9.67715289310E+00	-1.78059993436E+02	-4.87677091236E+01	1.30529810797E+02	-5.96673581951E+00	-2.07310369167E-01
3.66574063785E+05	-1.55546494411E+01	1.77597066562E+02	9.69635377744E+00	-1.78428439258E+02	-4.88331243780E+01	1.00708988316E+02	-5.98165960211E+00	-3.28753026302E-01
3.88765418380E+05	-1.26855567558E+01	-1.75132210201E+02	9.65611907590E+00	-1.78922123945E+02	-6.49766256570E+01	-1.07229207639E+02	-5.99257108283E+00	-1.47750101314E-01
4.10956772975E+05	-1.40349900795E+01	-1.71863002413E+02	9.66520937296E+00	-1.79327888459E+02	-5.03458170284E+01	-6.81390233222E+01	-5.99534420721E+00	-2.18408421546E-01
4.33148127570E+05	-1.25937314083E+01	-1.79877868239E+02	9.66460804916E+00	-1.79605202001E+02	-4.39910280764E+01	-1.42803417244E+02	-5.99129173436E+00	-2.13278967079E-01
4.55339482165E+05	-1.36251462550E+01	-1.75636855161E+02	9.68989000252E+00	-1.79739565471E+02	-5.38138888749E+01	2.47178957276E+01	-6.01030182954E+00	-4.83925903275E-01
4.77530836760E+05	-1.52134521010E+01	-1.58479558306E+02	9.72015138368E+00	-1.79923067942E+02	-4.88983519589E+01	1.58835889375E+01	-6.00539096766E+00	-4.31400510824E-01
4.99722191355E+05	-1.46207569065E+01	-1.74732361543E+02	9.65792377656E+00	1.79947651524E+02	-4.97343765913E+01	-3.49480512965E+01	-5.97154503005E+00	-2.14568566183E-01
5.21913545950E+05	-1.43809752667E+01	-1.70621497878E+02	9.68537766898E+00	1.79645839596E+02	-3.74416575236E+01	-1.62924626220E-01	-6.02417530320E+00	-3.41533769070E-01
5.44104900545E+05	-1.61799597152E+01	1.53867450754E+02	9.69001514718E+00	1.79678170874E+02	-5.15936896242E+01	-5.24183446517E+01	-6.00305259679E+00	-3.06493108457E-01
5.66296255139E+05	-1.09523656141E+01	1.77960245114E+02	9.64320510189E+00	1.79344770614E+02	-4.29296266613E+01	1.94761457363E+01	-6.01253828860E+00	-2.74759618165E-01
5.88487609734E+05	-1.59917679462E+01	-1.56886796589E+02	9.72936790678E+00	1.79092410463E+02	-4.75910378990E+01	-1.29150793368E+02	-5.99380421238E+00	-2.85394876333E-01
6.10678964329E+05	-1.33316176974E+01	-1.72127673802E+02	9.68905774669E+00	1.78864783296E+02	-4.93910081515E+01	-1.55853472703E+02	-6.01011874797E+00	2.68773778578E-01
6.32870318924E+05	-1.30624074748E+01	-1.63467994870E+02	9.67682295328E+00	1.78737339893E+02	-4.60100164478E+01	-1.61882951784E+02	-5.98991777648E+00	-1.38725746134E-01
6.55061673519E+05	-1.34526032357E+01	1.62232806890E+02	9.67498754879E+00	1.78838823851E+02	-4.09350817355E+01	-9.92533316535E+01	-5.99802475269E+00	-9.94951024246E-02
6.77253028114E+05	-1.10959338647E+01	-1.68800286159E+02	9.63198186958E+00	1.78379519745E+02	-4.25593830142E+01	-1.79904209382E+02	-5.99064343429E+00	-6.56716690835E-01
6.99444382709E+05	-1.83838423934E+01	-1.75860594309E+02	9.73683160045E+00	1.78375681187E+02	-4.23623897068E+01	-5.27099884787E+01	-5.98997989719E+00	-3.11613145598E-01
7.21635737304E+05	-1.58947629107E+01	-1.72672563890E+02	9.68239511155E+00	1.78170601639E+02	-3.95219094232E+01	-1.65005087666E+02	-5.97981207929E+00	-3.56074891208E-01
7.43827091899E+05	-1.24406902503E+01	-1.75551035307E+02	9.70357308554E+00	1.77950222883E+02	-5.18259564763E+01	-1.34157357384E+02	-6.00335473455E+00	-4.48244645286E-01
7.66018446494E+05	-1.13724933563E+01	-1.66118342253E+02	9.67540094716E+00	1.77647730319E+02	-4.64504264296E+01	-6.27833062814E+01	-5.99531252091E+00	-2.69660755086E-01
7.88209801089E+05	-1.83272034373E+01	1.79498927266E+02	9.71779181679E+00	1.77703458230E+02	-5.38383400200E+01	-1.31774997345E+02	-5.99301624238E+00	-2.56471549987E-01
8.10401155684E+05	-1.38347059391E+01	1.79515596766E+02	9.69818954155E+00	1.77582041306E+02	-4.63222731134E+01	1.54261904342E+02	-5.98710424402E+00	-4.24006829671E-01
8.32592510279E+05	-1.44136594590E+01	1.75327229964E+02	9.71633195176E+00	1.77743105508E+02	-6.32149417736E+01	-1.50957913303E+02	-5.97863516763E+00	-3.60077676024E-01
8.54783864874E+05	-1.42764582893E+01	-1.63720796603E+02	9.68219381232E+00	1.77237639717E+02	-5.08899704043E+01	-1.17042273456E+02	-5.97513367627E+00	-3.35150103937E-01
8.76975219469E+05	-1.24682101744E+01	1.78627641221E+02	9.65917586058E+00	1.77091734196E+02	-4.19288412430E+01	5.92185327409E+01	-5.96861142237E+00	-5.73694520492E-01
8.99166574064E+05	-1.08196915356E+01	1.78631019936E+02	9.63212821422E+00	1.77093634102E+02	-4.99058850610E+01	-1.09788531153E+02	-5.97996617995E+00	-3.05740450926E-01
9.21357928659E+05	-1.36310307965E+01	1.68953470052E+02	9.69273437898E+00	1.76852670352E+02	-3.73246230187E+01	-1.99262097610E+01	-6.04317117978E+00	-4.06904912073E-01
9.43549283254E+05	-1.30927791463E+01	1.72333581197E+02	9.68425888133E+00	1.76868080945E+02	-4.15236330828E+01	1.61423248391E+02	-5.96335326128E+00	-4.60668753224E-01
9.65740637849E+05	-1.28112221731E+01	1.70650156329E+02	9.67746177486E+00	1.76762243791E+02	-5.08633128430E+01	9.73793154366E+00	-5.96128764588E+00	-5.52449540666E-01
9.87931992444E+05	-1.20575040263E+01	-1.67416933749E+02	9.67063773635E+00	1.76408289651E+02	-4.41895678655E+01	1.78292151301E+01	-5.99651930304E+00	-4.66093763744E-01
1.01012334704E+06	-1.50452994427E+01	1.65515847886E+02	9.68446785501E+00	1.76543137240E+02	-4.22567267536E+01	6.71888298291E+01	-6.00572647095E+00	-6.34065616420E-01
1.03231470163E+06	-1.52008533188E+01	1.70848958226E+02	9.69455194808E+00	1.76237681566E+02	-4.59807989313E+01	1.87582369152E+01	-6.00454699099E+00	-4.25959161259E-01
1.05450605623E+06	-1.37310556169E+01	1.61199072543E+02	9.64044191958E+00	1.76126524297E+02	-4.64510229747E+01	-1.10845525988E+02	-5.98719966367E+00	-4.82544104670E-01
1.07669741082E+06	-1.35660111049E+01	-1.73813587319E+02	9.69919300226E+00	1.75765935135E+02	-4.43145581851E+01	1.71601421649E+02	-5.98432373766E+00	-5.22022062687E-01
1.09888876542E+06	-1.49097409781E+01	-1.76476133303E+02	9.72144221065E+00	1.76106813621E+02	-3.78669112621E+01	1.16201580617E+02	-5.96788861914E+00	-7.41813690985E-01
1.12108012001E+06	-1.08723101031E+01	1.68037985087E+02	9.66525841184E+00	1.75850050749E+02	-5.75219281998E+01	1.10538293876E+02	-5.99526413826E+00	-6.76817060226E-01
1.14327147461E+06	-1.15361060560E+01	-1.62077064206E+02	9.66699501492E+00	1.75363768286E+02	-4.95212270423E+01	-1.04706272332E+02	-5.99076847751E+00	-5.16242590583E-01
1.16546282920E+06	-1.37975645654E+01	-1.69164251390E+02	9.67281984949E+00	1.75436102465E+02	-3.86805151335E+01	-1.73153466430E+02	-5.93558409817E+00	-4.72296151951E-01
1.18765418380E+06	-1.46467163506E+01	-1.73326551001E+02	9.69907951121E+00	1.75265463117E+02	-4.15440284965E+01	-3.43181962248E+01	-6.02395072266E+00	-4.12006115659E-01
1.20984553839E+06	-1.01931322360E+01	-1.66192234434E+02	9.65887880964E+00	1.75042642132E+02	-4.62807398808E+01	-8.68655672775E+01	-5.99143427923E+00	-6.39530940185E-01
1.23203689299E+06	-1.43287031372E+01	-1.75571069364E+02	9.71989685583E+00	1.75260479055E+02	-5.13063483154E+01	-2.41710130476E+01	-5.99336545320E+00	-2.83961959240E-01
1.25422824758E+06	-1.36345776601E+01	1.78351634400E+02	9.67851679726E+00	1.74906387855E+02	-4.14629842964E+01	6.81364392280E+01	-5.98706511299E+00	-6.22485999781E-01
1.27641960218E+06	-1.18394953400E+01	1.79128722485E+02	9.67531101291E+00	1.74828428525E+02	-4.75224412406E+01	-2.27204268070E+01	-6.01114943849E+00	-4.99472609451E-01
1.29861095677E+06	-1.41371222702E+01	1.76275149063E+02	9.70584188440E+00	1.74789785437E+02	-4.37829137427E+01	1.63114830400E+02	-5.96264909664E+00	-5.34347423349E-01
1.32080231137E+06	-1.69713828544E+01	-1.54905432293E+02	9.72030453938E+00	1.74614378204E+02	-5.21907566185E+01	4.39415748831E+01	-6.00053965803E+00	-8.32695162566E-01
1.34299366596E+06	-1.31084548592E+01	-1.59389857857E+02	9.67207265795E+00	1.74390131406E+02	-6.03699541955E+01	-1.44850431358E+02	-6.01923751206E+00	-5.44080509950E-01
1.36518502056E+06	-1.57018315297E+01	1.79715330938E+02	9.68060845228E+00	1.74554723667E+02	-4.19731196499E+01	6.63173580762E+01	-6.00232993157E+00	-8.16299475199E-01
1.38737637515E+06	-1.40681658584E+01	-1.56507020428E+02	9.72863387408E+00	1.74189227897E+02	-6.36251428744E+01	9.06928045199E+01	-6.00151448355E+00	-6.43525377651E-01
1.40956772975E+06	-1.65625455212E+01	-1.59057120895E+02	9.71293398104E+00	1.73923789145E+02	-3.61893310081E+01	-1.76032843733E+02	-5.96074782514E+00	-5.94209083883E-01
1.43175908434E+06	-1.45905322692E+01	1.72245468001E+02	9.66182698832E+00	1.73997104479E+02	-4.88787846685E+01	-1.05112580165E+02	-6.01409131263E+00	-5.94721320519E-01
1.45395043894E+06	-1.21362071156E+01	1.70876050539E+02	9.63781524090E+00	1.74130461182E+02	-4.15002900182E+01	2.92074430897E+01	-5.99711861156E+00	-6.82760168590E-01
1.47614179353E+06	-1.41569095962E+01	-1.54236319682E+02	9.72326109751E+00	1.73813570580E+02	-5.72745494439E+01	-4.21402049773E+01	-6.00907827401E+00	-6.96392163090E-01
1.49833314813E+06	-1.28977665238E+01	-1.70798598395E+02	9.70829119146E+00	1.73696327314E+02	-4.73096314047E+01	3.31518975957E+01	-5.98535338750E+00	-6.04704295938E-01
1.52052450272E+06	-1.42281459153E+01	1.65296717075E+02	9.71566126079E+00	1.73745715276E+02	-3.91098111691E+01	1.20350304386E+02	-5.96401141110E+00	-8.20707582119E-01
1.54271585732E+06	-1.12859029204E+01	-1.74874770300E+02	9.65847421484E+00	1.73420417135E+02	-4.16698188736E+01	1.79195207686E+02	-5.97547913718E+00	-6.50247312403E-01
1.56490721191E+06	-1.48221837487E+01	1.74521235666E+02	9.68906416095E+00	1.73438171984E+02	-4.38649017171E+01	1.70161891973E+02	-5.99935518946E+00	-6.42311345813E-01
1.58709856651E+06	-1.45529823189E+01	-1.70921671622E+02	9.69018143776E+00	1.73364082362E+02	-3.85772043443E+01	-1.33383483935E+02	-6.00634711036E+00	-4.48004694459E-01
1.60928992110E+06	-1.34840214985E+01	-1.78710170109E+02	9.68618539549E+00	1.73371042071E+02	-5.85534110700E+01	1.75518256398E+02	-6.01485904330E+00	-7.35277793353E-01
1.63148127570E+06	-1.23080561953E+01	-1.79148051685E+02	9.70087137929E+00	1.73156685378E+02	-5.64204512706E+01	2.83735546209E+00	-5.99785059019E+00	-6.02078655679E-01
1.65367263029E+06	-1.28816092545E+01	1.71851728813E+02	9.66637411683E+00	1.73025555867E+02	-4.72077130810E+01	7.74860574106E+01	-5.98784993189E+00	-8.92667847087E-01
1.67586398489E+06	-1.34876927412E+01	-1.73967769235E+02	9.68589391225E+00	1.72689655226E+02	-4.31562977048E+01	1.59545532167E+02	-5.97807986753E+00	-6.87327091138E-01
1.69805533948E+06	-1.83207897112E+01	-1.78474015631E+02	9.70447484538E+00	1.72883866463E+02	-6.43493712135E+01	3.53177904800E+00	-5.98427055827E+00	-6.81089839116E-01
1.72024669408E+06	-1.90471949158E+01	-1.68905640667E+02	9.73817822207E+00	1.72814921664E+02	-4.34994734443E+01	-1.45906809046E+02	-5.99405687474E+00	-6.30555163195E-01
1.74243804867E+06	-1.45903615523E+01	1.25223981920E+02	9.65344521644E+00	1.72934887344E+02	-3.13295882686E+01	-3.60083588862E+01	-6.03975141335E+00	-8.23930843638E-01
1.76462940327E+06	-1.40008528987E+01	-1.69248075207E+02	9.72000506082E+00	1.72236872181E+02	-4.28384421641E+01	1.42425770819E+02	-5.99473879373E+00	-8.67744600959E-01
1.78682075786E+06	-1.83431833371E+01	1.78461678353E+02	9.74340879702E+00	1.72377820153E+02	-4.54994435661E+01	-5.50719269603E+01	-5.99944870623E+00	-6.47506057838E-01
1.80901211246E+06	-2.03469943546E+01	1.73591835811E+02	9.73104251928E+00	1.72486018526E+02	-3.98207633782E+01	-1.10604357900E+02	-5.98495910134E+00	-6.15326357668E-01
1.83120346705E+06	-1.25870979332E+01	-1.65635576148E+02	9.70336879481E+00	1.71876293375E+02	-4.28928053783E+01	5.33357040545E+01	-5.98820833004E+00	-1.06210531401E+00
1.85339482165E+06	-1.45895192241E+01	-1.65511396124E+02	9.71864916814E+00	1.71878808396E+02	-4.75855643370E+01	1.40366289808E+02	-5.98699649719E+00	-8.78958254751E-01
1.87558617624E+06	-1.20975480029E+01	-1.66673698215E+02	9.71549111466E+00	1.71647220375E+02	-4.66755138054E+01	-5.44855456956E+00	-5.97867002114E+00	-7.83391428841E-01
1.89777753084E+06	-1.05139216295E+01	-1.48550649047E+02	9.75501725729E+00	1.71625054461E+02	-4.68240713974E+01	5.06203751949E+01	-5.98757927460E+00	-8.84097286886E-01
1.91996888543E+06	-1.38528299838E+01	-1.65759717310E+02	9.73157233033E+00	1.71504133466E+02	-4.30981415904E+01	6.06687702029E+01	-6.00983815289E+00	-9.35393089567E-01
1.94216024003E+06	-1.17537270147E+01	-1.71918063365E+02	9.70540168043E+00	1.71392062030E+02	-4.96741357028E+01	-1.16247869325E+02	-5.98826929609E+00	-7.22455222642E-01
1.96435159462E+06	-1.10483345837E+01	-1.55662058690E+02	9.73898578522E+00	1.71145541316E+02	-5.28660516820E+01	-1.52470311145E+02	-5.96931757793E+00	-9.15275813214E-01
1.98654294922E+06	-1.68215490204E+01	1.67492693858E+02	9.70434962016E+00	1.71562706248E+02	-4.32322600447E+01	-7.15803929542E+01	-5.99212616562E+00	-8.93535340371E-01
2.00873430381E+06	-1.21422422069E+01	-1.75120634835E+02	9.70916837510E+00	1.71181879744E+02	-5.87496805036E+01	1.53601990782E+02	-5.99665301453E+00	-7.70581411322E-01
2.03092565841E+06	-1.06141853947E+01	-1.79374124908E+02	9.65411339367E+00	1.70992003799E+02	-4.52476399467E+01	1.19844149056E+02	-5.95707393461E+00	-8.36452424239E-01
2.05311701300E+06	-9.69580915490E+00	-1.72876918005E+02	9.68396844067E+00	1.70638166413E+02	-3.69486172545E+01	1.51330607778E+02	-5.95293497601E+00	-8.75563803727E-01
2.07530836760E+06	-1.58651687165E+01	-1.73020694128E+02	9.70632585601E+00	1.71230695718E+02	-4.91943481962E+01	1.05240218238E+01	-6.01105801306E+00	-9.59797334301E-01
2.09749972219E+06	-1.27936780665E+01	-1.79660936031E+02	9.69490912476E+00	1.70807346729E+02	-5.20380280053E+01	-8.63275865488E+01	-6.01120378223E+00	-7.65919070576E-01
2.11969107679E+06	-1.23691400667E+01	-1.66374594335E+02	9.73462142853E+00	1.70524817386E+02	-4.17753303438E+01	6.93621086480E+01	-6.00509613184E+00	-1.14762388896E+00
2.14188243138E+06	-1.39400824091E+01	1.76146936759E+02	9.68412537690E+00	1.70628798065E+02	-4.78597092387E+01	7.89163309981E+01	-5.98217817194E+00	-1.12034739108E+00
2.16407378598E+06	-1.55560364570E+01	-1.60060864074E+02	9.77018140171E+00	1.70454721681E+02	-4.52835686891E+01	6.38949425833E+01	-6.00401948666E+00	-1.11422991291E+00
2.18626514057E+06	-1.40249431632E+01	-1.57350673284E+02	9.75163288961E+00	1.70252072098E+02	-4.12634776086E+01	6.90274904864E+01	-5.99877300789E+00	-9.90291881813E-01
2.20845649517E+06	-1.73730466119E+01	5.47607551002E+01	9.71872020375E+00	1.71085124242E+02	-4.10279628691E+01	-1.35694345535E+02	-5.99610304425E+00	-7.38923410175E-01
2.23064784976E+06	-1.46075141917E+01	-1.77999256881E+02	9.72714168073E+00	1.70303745150E+02	-4.92845850767E+01	-1.43560605741E+02	-5.98657731169E+00	-7.02318741253E-01
2.25283920436E+06	-1.25667106169E+01	-1.64655961988E+02	9.71535470849E+00	1.69879036600E+02	-4.21681237694E+01	8.96936060620E+00	-6.01269061773E+00	-1.05766566486E+00
2.27503055895E+06	-1.34211133756E+01	-1.45045311443E+02	9.75996896396E+00	1.69637981856E+02	-4.74337355122E+01	5.27171846654E+00	-6.01258151450E+00	-1.05196924727E+00
2.29722191355E+06	-2.08348654021E+01	-1.69648783684E+02	9.77159909779E+00	1.70167375136E+02	-4.75428479460E+01	-1.61093943461E+02	-5.98479523063E+00	-9.75752475854E-01
2.31941326814E+06	-1.23482164345E+01	-1.72434688640E+02	9.71623873142E+00	1.69682000584E+02	-4.72424042999E+01	-1.59493940754E+02	-5.97884956737E+00	-1.02422744560E+00
2.34160462274E+06	-1.21813947150E+01	-1.69632582783E+02	9.70211236817E+00	1.69413852526E+02	-3.79232930933E+01	-7.03591975819E+01	-5.99581149633E+00	-9.27782096197E-01
2.36379597733E+06	-1.58806192648E+01	-1.62586536169E+02	9.78176084904E+00	1.69636966101E+02	-4.39292118157E+01	1.83152398775E+01	-6.01061416789E+00	-1.13869521015E+00
2.38598733193E+06	-1.65276467507E+01	1.69156570454E+02	9.72620475988E+00	1.69412313901E+02	-4.10083280627E+01	-1.47521242528E+02	-5.98287638240E+00	-9.12705866637E-01
2.40817868652E+06	-1.39601545058E+01	-1.56573688936E+02	9.74103388712E+00	1.69077486153E+02	-4.33207707516E+01	9.69610049093E+01	-5.97977533241E+00	-1.17370900087E+00
2.43037004112E+06	-1.67662419670E+01	-1.62526118368E+02	9.76819135334E+00	1.69284576825E+02	-4.33526466836E+01	9.97243773048E+01	-5.97655814951E+00	-1.64589492739E+00
2.45256139571E+06	-1.47738504903E+01	-1.54535170980E+02	9.77894964655E+00	1.69061669405E+02	-4.66023684359E+01	-8.51797638981E+01	-6.02844548409E+00	-1.02869083913E+00
2.47475275031E+06	-1.91509990726E+01	1.74853679159E+02	9.73209887159E+00	1.69336193133E+02	-5.01650658155E+01	3.40239541450E+01	-6.01097694841E+00	-9.97837509234E-01
2.49694410490E+06	-1.29368289690E+01	-1.60603114818E+02	9.74127552043E+00	1.68816171825E+02	-4.75785542313E+01	8.13358638182E+01	-5.99346716838E+00	-1.14042005252E+00
2.51913545950E+06	-1.70558723017E+01	-1.72711603665E+02	9.73957107996E+00	1.68897330098E+02	-3.57474719018E+01	-8.56284607498E+01	-6.03796325832E+00	-8.57991312684E-01
2.54132681409E+06	-1.63151324213E+01	1.41960151334E+02	9.70956065072E+00	1.69156848773E+02	-5.42203986392E+01	1.16497685205E+02	-6.00524611416E+00	-1.21191398031E+00
2.56351816869E+06	-1.36522500204E+01	-1.63282601888E+02	9.74265802502E+00	1.68319641396E+02	-5.04090600543E+01	1.35308699039E+02	-6.01288210452E+00	-1.14604289080E+00
2.58570952328E+06	-1.58300912723E+01	-1.62507340578E+02	9.76909998451E+00	1.68508673181E+02	-4.70391644342E+01	-1.28407529214E+02	-6.01048531556E+00	-1.03302460962E+00
2.60790087788E+06	-1.01361753528E+01	-1.73350249782E+02	9.70130056679E+00	1.68091143270E+02	-4.26865830511E+01	-1.50758538116E+02	-5.98457783968E+00	-8.83680391592E-01
2.63009223247E+06	-1.36334335338E+01	-1.62231487620E+02	9.75027547745E+00	1.68062095696E+02	-4.02459680941E+01	8.76841398292E+00	-6.01193886283E+00	-8.61459991120E-01
2.65228358707E+06	-1.23567310588E+01	-1.60604419908E+02	9.76253526005E+00	1.67904114198E+02	-3.89833415544E+01	-5.86636492220E+01	-6.01959784649E+00	-1.06296474705E+00
2.67447494166E+06	-1.19828315844E+01	1.75025050678E+02	9.71936369334E+00	1.67948558968E+02	-4.23494754144E+01	-6.65725943046E+01	-6.02190014620E+00	-1.06108011131E+00
2.69666629626E+06	-1.16920927739E+01	1.79618142911E+02	9.70021413638E+00	1.67786159694E+02	-4.89445171764E+01	-1.72319498644E+02	-5.96938514820E+00	-1.13023797183E+00
2.71885765085E+06	-1.37899972833E+01	-1.60779982073E+02	9.76536617925E+00	1.67580435008E+02	-5.21036354316E+01	-1.66724408224E+02	-5.98606900348E+00	-1.06532577154E+00
2.74104900545E+06	-1.99018266635E+01	-1.57278084890E+02	9.80417613580E+00	1.67738687560E+02	-4.25490469154E+01	-1.13831496347E+02	-5.99453998813E+00	-1.04219883818E+00
2.76324036004E+06	-1.22858050141E+01	-1.76061031810E+02	9.71628730567E+00	1.67550177298E+02	-4.26689528106E+01	2.29237471364E+01	-6.02147265142E+00	-1.23538994881E+00
2.78543171463E+06	-1.78357437181E+01	-1.62221298878E+02	9.78851699508E+00	1.67765394720E+02	-4.23454535586E+01	-3.59385162380E+01	-6.03247395245E+00	-1.12891558343E+00
2.80762306923E+06	-1.43965632257E+01	1.73354587787E+02	9.72647573084E+00	1.67566997785E+02	-4.11419875959E+01	-1.52495592530E+02	-5.98229294041E+00	-1.13114254516E+00
2.82981442382E+06	-1.40259562838E+01	-1.52967811250E+02	9.81941929585E+00	1.66990611035E+02	-5.19981070186E+01	8.61068556987E+01	-5.99817204712E+00	-1.14639374932E+00
2.85200577842E+06	-1.32362255462E+01	1.75612856178E+02	9.73592672190E+00	1.67446965598E+02	-4.91742416942E+01	7.59896564962E+01	-6.00711482120E+00	-1.26476080071E+00
2.87419713301E+06	-1.22144974538E+01	-1.75073441522E+02	9.71835031036E+00	1.67043745357E+02	-4.48324502956E+01	6.85092942569E+01	-5.98249716799E+00	-1.27491715196E+00
