# Hz S DB R 50
! CMT, M5065, 19127446, 24.2.4/2
! Date: 11/8/2024 3:26:05 PM
! Data: Format (Calibration Info)
! Freq	S11:dB/Ang(F2)	S21:dB/Ang(F2)	S12:dB/Ang(F2)	S22:dB/Ang(F2)
3.00000000000E+05	-1.39801688770E+01	-1.73841821131E+02	3.18831662835E+01	-1.76154563275E+02	-4.03005525423E+01	-1.27304958737E+02	-5.83833748473E+00	1.01116459352E+00
3.22191354595E+05	-1.65673939050E+01	-1.65019135570E+02	3.19166681690E+01	-1.78099046930E+02	-4.22724664632E+01	-5.53253106068E+01	-6.11994168703E+00	5.88311783866E-01
3.44382709190E+05	-1.53156538117E+01	-1.79950561080E+02	3.18955484031E+01	-1.79529869001E+02	-5.21261833701E+01	-1.53804658728E+02	-5.94419071743E+00	-3.42327645431E-01
3.66574063785E+05	-1.35017002606E+01	-1.65699522056E+02	3.18795229675E+01	1.78897681303E+02	-4.10909290727E+01	-1.42093153086E+02	-5.84554230236E+00	1.49889642032E-01
3.88765418380E+05	-1.32013683793E+01	1.78196017709E+02	3.18860333305E+01	1.77587876160E+02	-4.97486996886E+01	1.24749561197E+02	-6.16894653951E+00	6.70789760230E-01
4.10956772975E+05	-1.44247283693E+01	-1.55286381631E+02	3.18633543342E+01	1.76081850802E+02	-4.10262359393E+01	1.51203949188E+02	-5.77497538904E+00	-1.40542879858E+00
4.33148127570E+05	-1.34417617727E+01	-1.71492819943E+02	3.18298537414E+01	1.74804702632E+02	-4.56015226560E+01	-1.71899790377E+02	-5.78699806034E+00	-7.55278172051E-01
4.55339482165E+05	-1.08753843738E+01	-1.62457487350E+02	3.17993108650E+01	1.73600421950E+02	-4.96527937924E+01	-7.94302167573E+00	-6.08932113485E+00	-8.71452804891E-01
4.77530836760E+05	-1.27883764772E+01	-1.57636239198E+02	3.17987617297E+01	1.72457367722E+02	-5.84421870876E+01	9.50733212886E+01	-5.94554036820E+00	-6.67285499248E-01
4.99722191355E+05	-1.43509031676E+01	-1.71323697573E+02	3.17743472117E+01	1.71455842678E+02	-5.06105224341E+01	1.77792496497E+02	-5.96928936536E+00	-6.73247111252E-01
5.21913545950E+05	-1.13789807089E+01	-1.51149818728E+02	3.17537840774E+01	1.70236364805E+02	-4.00233503756E+01	1.49641325251E+02	-5.77858244514E+00	-1.16603434093E+00
5.44104900545E+05	-1.20541821181E+01	1.70304177197E+02	3.17174007420E+01	1.69619671731E+02	-5.06028869490E+01	3.04374027241E+00	-6.13410024926E+00	-6.32615509856E-01
5.66296255139E+05	-1.11570716149E+01	-1.70356543179E+02	3.16747373362E+01	1.68337484869E+02	-4.59968758162E+01	-1.14913486942E+02	-5.89620918109E+00	3.37820383119E-02
5.88487609734E+05	-1.43232612157E+01	-1.77665348089E+02	3.16706529061E+01	1.67611241366E+02	-4.62516603010E+01	2.48510508351E+01	-6.16963409702E+00	-9.82074795206E-01
6.10678964329E+05	-1.33482810362E+01	-1.74082217612E+02	3.16307386338E+01	1.66575147368E+02	-4.19224298260E+01	2.82250679882E+00	-6.18394978677E+00	2.00616969999E-01
6.32870318924E+05	-1.36353923496E+01	-1.77478609957E+02	3.15950438013E+01	1.65657270846E+02	-4.93622584709E+01	1.05942352415E+02	-6.03045504560E+00	-9.51410967583E-01
6.55061673519E+05	-1.72884183349E+01	-1.41947927210E+02	3.16095134025E+01	1.64706354025E+02	-4.06668743026E+01	2.01182069058E+01	-6.23381039191E+00	-7.68124401996E-01
6.77253028114E+05	-1.36423087429E+01	1.79753707670E+02	3.15413823612E+01	1.64128709304E+02	-4.62383877051E+01	1.57934974548E+02	-5.87446376373E+00	-1.79246743117E+00
6.99444382709E+05	-1.31504933995E+01	-1.79501742037E+02	3.15218408906E+01	1.63180539849E+02	-4.43745135922E+01	-9.88229684174E+01	-5.94678406161E+00	6.55056085247E-01
7.21635737304E+05	-1.08798346630E+01	1.73679663584E+02	3.14529705917E+01	1.62432195444E+02	-4.90990520600E+01	1.77866666696E+02	-5.96052271516E+00	-6.14185908209E-01
7.43827091899E+05	-1.61837259875E+01	-1.67948289372E+02	3.14705837719E+01	1.61509220247E+02	-4.66365492626E+01	-1.64847859789E+02	-5.84954035087E+00	-4.61110764226E-01
7.66018446494E+05	-1.28666129134E+01	-1.59909988244E+02	3.14121693291E+01	1.60495331551E+02	-5.87203621990E+01	-1.23212276527E+01	-6.00404262385E+00	-4.94356672174E-01
7.88209801089E+05	-1.61008962401E+01	1.72340342093E+02	3.13843849686E+01	1.60068630447E+02	-3.97995545094E+01	5.36903066044E+00	-6.26460700269E+00	-7.47249213246E-01
8.10401155684E+05	-1.66304898596E+01	-1.59153657005E+02	3.13712003949E+01	1.59148430903E+02	-3.88561279138E+01	9.44675012036E+01	-6.03841700374E+00	-2.99662677083E+00
8.32592510279E+05	-1.51941265600E+01	1.74718691274E+02	3.13031413633E+01	1.58597651199E+02	-4.60303463187E+01	2.30710863624E+01	-6.14561471383E+00	-7.99240535699E-01
8.54783864874E+05	-1.66282576279E+01	-1.69827609949E+02	3.12841581356E+01	1.57890942700E+02	-6.00548587710E+01	-4.18383996777E-01	-6.01888056736E+00	-5.79125885244E-01
8.76975219469E+05	-1.04481658156E+01	-1.63434967108E+02	3.11993099776E+01	1.56697062470E+02	-4.57852464856E+01	-1.39235097152E+02	-5.88070429477E+00	-1.14309392936E-01
8.99166574064E+05	-1.27597717242E+01	-1.69936202882E+02	3.11975034518E+01	1.56297387624E+02	-4.58768717755E+01	8.42588209735E+01	-6.02558870297E+00	-1.56149314940E+00
9.21357928659E+05	-1.49378426522E+01	-1.60090121013E+02	3.11704020380E+01	1.55439603871E+02	-3.97569240132E+01	1.07920275701E+02	-5.94313557977E+00	-2.46393348954E+00
9.43549283254E+05	-1.30872972842E+01	-1.64776241485E+02	3.11297255294E+01	1.54784938758E+02	-5.16045572391E+01	-3.93677065407E+01	-6.04032572789E+00	-2.10416071011E-01
9.65740637849E+05	-1.25923986806E+01	1.78503816836E+02	3.10797576695E+01	1.54171325928E+02	-3.99194109382E+01	7.90087355633E+01	-6.05241779485E+00	-2.61798040278E+00
9.87931992444E+05	-1.04750505888E+01	1.77125093921E+02	3.10038493293E+01	1.53458648094E+02	-3.56386008324E+01	6.66336243894E+01	-6.21173868323E+00	-2.66813315274E+00
1.01012334704E+06	-1.37475238715E+01	-1.53374073110E+02	3.10226160666E+01	1.52747861810E+02	-4.37826512902E+01	-1.24676706313E+02	-5.87949771892E+00	1.65861218148E-01
1.03231470163E+06	-1.38436475330E+01	-1.68256766815E+02	3.09724478092E+01	1.52305806365E+02	-4.81289840382E+01	-1.25624108273E+02	-5.93296019861E+00	-1.31913194248E-02
1.05450605623E+06	-1.42740312441E+01	-1.64904803171E+02	3.09038308582E+01	1.51449276731E+02	-4.08342723644E+01	8.35905897404E+01	-6.10570430732E+00	-2.34701609298E+00
1.07669741082E+06	-1.40398399422E+01	1.79192243880E+02	3.08828461176E+01	1.50855657240E+02	-4.89175115998E+01	-8.11895953225E+01	-6.01995357225E+00	-2.84006547171E-01
1.09888876542E+06	-1.18167577486E+01	-1.53594089770E+02	3.08462523293E+01	1.49974415131E+02	-4.24074980376E+01	1.75069638541E+02	-5.78988010568E+00	-1.24074238292E+00
1.12108012001E+06	-1.51286693591E+01	-1.62383727435E+02	3.08338467712E+01	1.49533082129E+02	-4.32442840771E+01	-4.71915547654E+01	-6.06152085632E+00	6.08994961959E-01
1.14327147461E+06	-1.48510396261E+01	-1.74202129076E+02	3.07825823748E+01	1.49106522253E+02	-4.71205636824E+01	2.91100782818E+01	-6.10767950504E+00	-7.24971064028E-01
1.16546282920E+06	-1.51036711851E+01	-1.51795205561E+02	3.07386108955E+01	1.48360612943E+02	-4.38127859642E+01	1.13207846271E+02	-6.02117887223E+00	-1.79241368093E+00
1.18765418380E+06	-1.27973054862E+01	-1.67703317313E+02	3.06830617026E+01	1.47731564054E+02	-4.37746813802E+01	-1.20595418190E+02	-5.89234382603E+00	3.18409198003E-01
1.20984553839E+06	-1.74049581189E+01	-1.64922833808E+02	3.06764626467E+01	1.47265077711E+02	-4.36161472459E+01	-1.63177633208E+02	-5.80757638211E+00	-8.86418604201E-01
1.23203689299E+06	-1.30293967493E+01	1.71596422332E+02	3.05895605194E+01	1.46730168944E+02	-4.24489998521E+01	8.04358147031E+01	-6.02430903101E+00	-1.59982640395E+00
1.25422824758E+06	-1.70251245995E+01	-1.62164170409E+02	3.05885981583E+01	1.45941648866E+02	-4.37238336482E+01	-9.13079944129E+01	-5.99705710069E+00	4.07372737427E-01
1.27641960218E+06	-1.17755121543E+01	-1.64230937815E+02	3.05134707473E+01	1.45219892058E+02	-4.54383889055E+01	-1.21890665134E+02	-5.93531681837E+00	7.49314598469E-02
1.29861095677E+06	-1.60174098198E+01	1.79295032949E+02	3.04996733323E+01	1.44886338050E+02	-4.16919351789E+01	-1.41661035434E+02	-5.81471612578E+00	-4.46089650791E-01
1.32080231137E+06	-1.15364937221E+01	1.33740049416E+02	3.04269936898E+01	1.44748252599E+02	-4.12569031682E+01	-8.67294776693E+01	-5.94559670602E+00	5.85824284003E-01
1.34299366596E+06	-1.45547293195E+01	-1.47604426604E+02	3.04212880464E+01	1.43491136742E+02	-4.52308782117E+01	-1.16761626315E+02	-5.89365127809E+00	-6.98745745174E-02
1.36518502056E+06	-1.39015594611E+01	-1.75118686915E+02	3.03698983819E+01	1.43097316737E+02	-4.42293402828E+01	-4.25404833121E+01	-6.08347693042E+00	4.80784011075E-01
1.38737637515E+06	-1.14589068066E+01	-1.79159066394E+02	3.02779414536E+01	1.42552818511E+02	-5.29416761515E+01	1.00244575831E+02	-6.03846124159E+00	-1.24826478506E+00
1.40956772975E+06	-1.25854593426E+01	1.73705344649E+02	3.02513493652E+01	1.42031359068E+02	-5.02676694831E+01	-3.42166690021E+01	-6.07805516672E+00	-3.09081758179E-01
1.43175908434E+06	-1.95435471349E+01	1.60741536862E+02	3.02425676755E+01	1.41607170160E+02	-4.05294868774E+01	-6.62608994345E+01	-6.02497251248E+00	5.42849009396E-01
1.45395043894E+06	-1.34007840006E+01	1.68610083295E+02	3.01669750818E+01	1.41082868086E+02	-3.33790463092E+01	-6.63260143138E+01	-5.99991562900E+00	2.19057851267E+00
1.47614179353E+06	-1.21357104019E+01	-1.70302213109E+02	3.01190597680E+01	1.40356696854E+02	-4.72740126067E+01	-1.39476190999E+02	-5.90827425599E+00	-5.18122454472E-01
1.49833314813E+06	-1.42891681877E+01	-1.71505877069E+02	3.01152173693E+01	1.39785327263E+02	-4.70090192799E+01	8.53895858176E+01	-6.03251281037E+00	-1.41272875512E+00
1.52052450272E+06	-1.49607523510E+01	-1.78728169240E+02	3.00494525730E+01	1.39425862960E+02	-3.95726598695E+01	-1.25599773182E+02	-5.81217975527E+00	2.70591901697E-01
1.54271585732E+06	-1.63277515818E+01	1.60709129292E+02	3.00128890021E+01	1.39123651718E+02	-5.30095073211E+01	1.72493034096E+02	-5.96360962776E+00	-8.69644338162E-01
1.56490721191E+06	-1.56468390278E+01	-1.73182296466E+02	2.99708762460E+01	1.38418579480E+02	-6.06629624798E+01	3.30910105028E+01	-6.00828038453E+00	-6.97521410517E-01
1.58709856651E+06	-1.80179502319E+01	-1.71575719303E+02	2.99542501140E+01	1.37978012261E+02	-5.13279566247E+01	-9.01347061178E+01	-6.06467585694E+00	-3.30663350791E-01
1.60928992110E+06	-1.25189084329E+01	1.78125248949E+02	2.98596319373E+01	1.37296704057E+02	-4.03064519595E+01	-1.04897636753E+02	-5.83520954433E+00	1.29481270272E-01
1.63148127570E+06	-1.72700851824E+01	-1.77505477764E+02	2.98392249846E+01	1.36896839449E+02	-4.78976838948E+01	-5.10364527017E+01	-6.04861198166E+00	-1.02167843941E-01
1.65367263029E+06	-1.30020756407E+01	-1.77680160294E+02	2.97780350971E+01	1.36243407225E+02	-4.81281371036E+01	6.19799841939E+01	-6.11072815256E+00	-1.27288112510E+00
1.67586398489E+06	-1.18934705501E+01	-1.79779709990E+02	2.97224412661E+01	1.35735492219E+02	-4.79736815467E+01	1.15017392139E+02	-5.99814239766E+00	-1.78252261584E+00
1.69805533948E+06	-1.45177921690E+01	-1.77928971215E+02	2.96915623541E+01	1.35335817698E+02	-4.33394580997E+01	-9.54679561542E+01	-5.94212616543E+00	3.73180784386E-01
1.72024669408E+06	-1.51914801099E+01	1.78753285730E+02	2.96661735192E+01	1.34898585647E+02	-4.38744716600E+01	-5.54196482117E+01	-6.06407193783E+00	2.16988571956E-01
1.74243804867E+06	-1.13456253370E+01	1.78847408017E+02	2.95847952695E+01	1.34343172845E+02	-4.21198888478E+01	-6.14267124055E+01	-6.02510991182E+00	6.33770635502E-01
1.76462940327E+06	-1.62358799963E+01	1.59158892714E+02	2.95551352247E+01	1.34118928656E+02	-3.96754996600E+01	-9.08877949485E+00	-6.25035414160E+00	4.89075030617E-01
1.78682075786E+06	-9.33234467202E+00	-1.63347409908E+02	2.94641289061E+01	1.33101086032E+02	-4.51951750269E+01	-1.57257879063E+02	-5.85964096005E+00	-9.23298674456E-01
1.80901211246E+06	-1.53426653568E+01	-1.58700726904E+02	2.95120310524E+01	1.32738983425E+02	-3.74289508791E+01	6.83445178607E+00	-6.34899784744E+00	-3.38355952643E-01
1.83120346705E+06	-1.39412807747E+01	-1.76402038775E+02	2.94257860891E+01	1.32499058584E+02	-4.56554698900E+01	1.94263180225E+01	-6.13294439835E+00	-6.90111753910E-01
1.85339482165E+06	-1.21696355140E+01	1.69618010163E+02	2.93678258233E+01	1.32035471258E+02	-4.45605922058E+01	-1.38486884874E+02	-5.86247846875E+00	-7.34021145684E-01
1.87558617624E+06	-1.32388247480E+01	-1.64447983521E+02	2.93344726768E+01	1.31448346162E+02	-5.46779767756E+01	1.39761459405E+02	-5.99051518751E+00	-1.23089266613E+00
1.89777753084E+06	-1.26145228451E+01	-1.71832762565E+02	2.92864471259E+01	1.30981931030E+02	-5.51133646643E+01	-1.72646520133E+02	-5.95307905679E+00	-9.65442437473E-01
1.91996888543E+06	-1.40977844788E+01	-1.54534790234E+02	2.92764288954E+01	1.30465097270E+02	-4.03455316521E+01	3.43095426302E+00	-6.22317389063E+00	-1.03767641055E+00
1.94216024003E+06	-1.17115015992E+01	-1.49410680778E+02	2.92241617605E+01	1.29900703382E+02	-4.13199024970E+01	-6.75649452409E+01	-5.99649411606E+00	5.38384615788E-01
1.96435159462E+06	-1.00389172867E+01	1.66261077090E+02	2.91067804913E+01	1.29766899014E+02	-4.67176129374E+01	-1.07483726020E+02	-5.95578779648E+00	-2.82709288953E-01
1.98654294922E+06	-1.41362031108E+01	-1.64213406738E+02	2.91138079056E+01	1.29124057432E+02	-4.24711067121E+01	1.59737184144E+00	-6.18180261747E+00	-3.19202470927E-01
2.00873430381E+06	-1.52923573655E+01	1.75216469023E+02	2.90679802620E+01	1.28986884022E+02	-4.27948479792E+01	-1.34503716873E+02	-5.83627578718E+00	-3.62690793578E-01
2.03092565841E+06	-1.12944998903E+01	-1.78608420633E+02	2.88874429728E+01	1.28352997435E+02	-5.17264057322E+01	-1.10101160514E+02	-5.94130498439E+00	-7.34968974720E-01
2.05311701300E+06	-1.27029209118E+01	-1.63806064478E+02	2.89823480378E+01	1.27801093143E+02	-3.91452903129E+01	-6.61365184541E+01	-5.96170586201E+00	6.60703733047E-01
2.07530836760E+06	-1.64967118091E+01	1.72583452189E+02	2.89391320278E+01	1.27677407351E+02	-4.38847000671E+01	-1.04791651256E+02	-5.91646927673E+00	-5.44157525461E-02
2.09749972219E+06	-1.99242806865E+01	1.53003605850E+02	2.89416753374E+01	1.27176139523E+02	-5.41935918726E+01	2.94309624702E+01	-6.08548135479E+00	-7.72119254798E-01
2.11969107679E+06	-2.23622042798E+01	1.32653803264E+02	2.88818472998E+01	1.26907514066E+02	-4.51448780637E+01	2.26028973473E+01	-6.14889311642E+00	-9.93024148428E-01
2.14188243138E+06	-1.42072710431E+01	-1.59451040220E+02	2.88074826675E+01	1.26166824879E+02	-4.59393935802E+01	1.29745263589E+02	-5.93376139861E+00	-1.75507650279E+00
2.16407378598E+06	-1.44286039830E+01	-1.63760623061E+02	2.87622834770E+01	1.25679731574E+02	-4.68314200191E+01	1.77040480062E+02	-5.88717882027E+00	-1.41888349596E+00
2.18626514057E+06	-1.38614811572E+01	-1.52026746749E+02	2.87324031620E+01	1.25029247588E+02	-3.91537747774E+01	2.84260199291E+00	-6.26950348645E+00	-5.47259842941E-01
2.20845649517E+06	-1.41530409399E+01	1.76830720085E+02	2.86695743643E+01	1.25013790259E+02	-4.48939134752E+01	-1.08690342441E+02	-5.91860696067E+00	-4.99214714921E-01
2.23064784976E+06	-2.03497959609E+01	-1.45293292618E+02	2.86417857742E+01	1.24566335940E+02	-4.16779940644E+01	-9.97483332051E+01	-5.97416067490E+00	-6.69768613593E-01
2.25283920436E+06	-9.72543530005E+00	1.58048502552E+02	2.85073378893E+01	1.24344583081E+02	-4.57297987284E+01	1.12125309830E+02	-6.02165583754E+00	-1.84949816837E+00
2.27503055895E+06	-7.58694795287E+00	-1.45844874396E+02	2.85184067053E+01	1.23090853947E+02	-5.15147260607E+01	-8.63162797351E+01	-5.97366610025E+00	-7.55021258717E-01
2.29722191355E+06	-1.09136978657E+01	-1.71963917931E+02	2.84402032428E+01	1.23091320435E+02	-6.77754494440E+01	4.25715762273E+01	-5.99289416489E+00	-1.21713104568E+00
2.31941326814E+06	-1.41531804739E+01	-1.65321910749E+02	2.84639870295E+01	1.23015960395E+02	-4.26797367777E+01	-8.27207480944E+00	-6.15535374794E+00	-6.59600958961E-01
2.34160462274E+06	-1.63864109200E+01	1.73304603304E+02	2.83933049074E+01	1.22625070065E+02	-4.53803387688E+01	1.40441443245E+01	-6.11149594102E+00	-1.02457971415E+00
2.36379597733E+06	-1.29721035006E+01	-1.70893306338E+02	2.83291252779E+01	1.22086740979E+02	-4.55328717275E+01	1.19714418080E+02	-6.02194172329E+00	-2.12058196045E+00
2.38598733193E+06	-1.48995052692E+01	-1.61393690659E+02	2.83289137494E+01	1.21738949859E+02	-3.96296466573E+01	-1.71993225908E+02	-5.79327722591E+00	-2.15325399195E+00
2.40817868652E+06	-1.34363862866E+01	-1.64848648628E+02	2.82813650430E+01	1.21255546025E+02	-4.50636305861E+01	-1.26859861370E+02	-5.89305800540E+00	-7.86392293984E-01
2.43037004112E+06	-1.06128897179E+01	-1.55865977191E+02	2.81852313415E+01	1.20769048899E+02	-5.48012794852E+01	1.59589569490E+02	-5.93911952307E+00	-1.72516482701E+00
2.45256139571E+06	-1.28487219910E+01	-1.74691807841E+02	2.81470550955E+01	1.20653470862E+02	-5.60439719102E+01	7.95738912329E+01	-6.03650176829E+00	-1.25733730064E+00
2.47475275031E+06	-1.43536465127E+01	-1.71518951058E+02	2.81207175852E+01	1.20275378573E+02	-4.07447174177E+01	8.80120049837E+01	-6.12072768499E+00	-2.35209003216E+00
2.49694410490E+06	-1.12488573221E+01	-1.75757627672E+02	2.80457226411E+01	1.19768608681E+02	-4.62658314442E+01	-1.08704725095E+02	-5.94816073862E+00	-6.70505283511E-01
2.51913545950E+06	-1.25145291217E+01	-1.72152083481E+02	2.79509053917E+01	1.19388641129E+02	-5.05972821494E+01	5.22231499160E+01	-6.06530388252E+00	-1.51771246601E+00
2.54132681409E+06	-1.31694286039E+01	-1.78161519216E+02	2.79655465218E+01	1.19124194765E+02	-3.44594278800E+01	1.41547524544E+02	-5.93060217930E+00	-3.38078443136E+00
2.56351816869E+06	-1.27198790759E+01	-1.73404973762E+02	2.79271580025E+01	1.18860746315E+02	-5.21414110653E+01	-1.36486966016E+02	-5.97883313113E+00	-1.00313373007E+00
2.58570952328E+06	-1.42934692574E+01	-1.65699322154E+02	2.79008851648E+01	1.18474173022E+02	-4.40396188101E+01	1.33133324901E+02	-5.99190839275E+00	-2.26682303285E+00
2.60790087788E+06	-1.16269276482E+01	1.53677931751E+02	2.77755572533E+01	1.18397838314E+02	-4.60543946897E+01	3.33938095334E+01	-6.12564470043E+00	-1.13703702848E+00
2.63009223247E+06	-1.39435466856E+01	-1.65701478925E+02	2.78033460314E+01	1.17641471790E+02	-4.49620104462E+01	-1.44545546053E+02	-5.86503929894E+00	-6.98236519516E-01
2.65228358707E+06	-1.16921704961E+01	1.77436775037E+02	2.77179146233E+01	1.17248972584E+02	-4.60506912855E+01	8.65656360511E+01	-6.08144578854E+00	-1.95466898165E+00
2.67447494166E+06	-1.42736263247E+01	-1.65379009166E+02	2.77322281057E+01	1.16901797771E+02	-5.74667072512E+01	-2.65968523415E+01	-6.02997382954E+00	-7.65885153434E-01
2.69666629626E+06	-1.27574428928E+01	-1.64286608670E+02	2.76733844174E+01	1.16389063587E+02	-4.09671422968E+01	-1.18241880224E+02	-5.83660230711E+00	-5.10958716116E-01
2.71885765085E+06	-1.53699651335E+01	-1.45396678963E+02	2.76760795074E+01	1.16332239067E+02	-4.82575000486E+01	-1.35097714102E+02	-5.91372805522E+00	-1.05372148654E+00
2.74104900545E+06	-1.42988843850E+01	-1.57763103736E+02	2.76088868871E+01	1.15842798451E+02	-4.51375092450E+01	-7.83038024522E+01	-5.96883283935E+00	-4.78894158705E-01
2.76324036004E+06	-1.10246094681E+01	-1.68007841274E+02	2.75072390033E+01	1.15352415330E+02	-4.37198353716E+01	3.21874878151E+01	-6.15221404606E+00	-1.46092906027E+00
2.78543171463E+06	-1.07423364433E+01	-1.78971626481E+02	2.74537589224E+01	1.15261143663E+02	-5.42602324437E+01	-7.83556885888E+01	-6.00503663153E+00	-9.11934321290E-01
2.80762306923E+06	-1.44802248429E+01	-1.68048390814E+02	2.74627880840E+01	1.14925278789E+02	-4.74223867414E+01	6.63156695868E+01	-6.12417874767E+00	-1.93169626596E+00
2.82981442382E+06	-1.39265815545E+01	-1.51194361672E+02	2.74567126616E+01	1.14332437084E+02	-4.34705710342E+01	1.66317919363E+02	-5.90592143211E+00	-1.96318571184E+00
2.85200577842E+06	-1.42182743758E+01	-1.69678309185E+02	2.73604278013E+01	1.14133537081E+02	-5.92513660970E+01	4.46862215937E+01	-6.04000063580E+00	-1.15697096810E+00
2.87419713301E+06	-1.50635986100E+01	-1.69040077942E+02	2.73146258196E+01	1.13904201500E+02	-4.41236275847E+01	-1.19947388498E+02	-5.92889939469E+00	-1.08457816523E+00
