# Hz S DB R 50
! CMT, M5065, 19127446, 24.2.4/2
! Date: 11/8/2024 2:58:45 PM
! Data: Format (Calibration Info)
! Freq	S11:dB/Ang(F2)	S21:dB/Ang(F2)	S12:dB/Ang(F2)	S22:dB/Ang(F2)
3.00000000000E+05	-1.17550799044E+01	-1.65361945690E+02	9.13193562890E+00	-1.77655566823E+02	-8.45941675052E+01	-1.25104601976E+02	-6.00087173570E+00	-3.67879947255E-01
3.22191354595E+05	-1.27234299246E+01	-1.65785336282E+02	9.14566125506E+00	-1.78052872889E+02	-4.26860633719E+01	9.24529343693E+01	-6.00601461598E+00	-3.41136351035E-01
3.44382709190E+05	-1.43705345194E+01	-1.62761908098E+02	9.13750890059E+00	-1.78253690709E+02	-4.33730067933E+01	-6.52641298242E+00	-6.01417614797E+00	-2.98349546373E-01
3.66574063785E+05	-1.29803912647E+01	1.68276571693E+02	9.15050821675E+00	-1.78464983565E+02	-4.89355268035E+01	-1.23392829968E+02	-5.97348633600E+00	-2.05691324538E-01
3.88765418380E+05	-1.35725789320E+01	-1.54877699657E+02	9.17035525576E+00	-1.78924100600E+02	-4.39878168094E+01	1.31399524827E+02	-5.98174396505E+00	-3.07884257933E-01
4.10956772975E+05	-1.22026143474E+01	1.77368899826E+02	9.14916428392E+00	-1.79321161113E+02	-4.03850182811E+01	-1.13986182287E+01	-6.02750161265E+00	-4.72350380926E-01
4.33148127570E+05	-1.41218632072E+01	-1.75680128600E+02	9.16729240303E+00	-1.79589074565E+02	-4.97194715526E+01	1.07521398083E+02	-5.98115423523E+00	-3.25203161418E-01
4.55339482165E+05	-1.47395348043E+01	-1.75160085399E+02	9.19087180078E+00	-1.79836797381E+02	-4.27750248484E+01	-1.78861975861E+02	-5.97258288702E+00	-3.59178930029E-01
4.77530836760E+05	-1.30456996111E+01	-1.69157758508E+02	9.17127662478E+00	1.79985056916E+02	-4.34651159155E+01	1.63535027141E+01	-5.99202153493E+00	-2.72233186219E-01
4.99722191355E+05	-1.41381127050E+01	1.61861363810E+02	9.14981309418E+00	-1.79914875681E+02	-4.46381431526E+01	1.47847527010E+02	-5.98972019442E+00	-2.26150596275E-01
5.21913545950E+05	-1.22542933022E+01	-1.62150584205E+02	9.15722398912E+00	1.79653793795E+02	-5.03160005462E+01	1.36220430815E+02	-5.98178572893E+00	-3.53726111329E-01
5.44104900545E+05	-1.39227002590E+01	-1.72764477434E+02	9.15741554605E+00	1.79522353523E+02	-4.01616193756E+01	2.88728835782E+01	-5.98666668318E+00	-4.34056665671E-01
5.66296255139E+05	-1.47388444251E+01	-1.61572961188E+02	9.19584918892E+00	1.79197130353E+02	-4.58351624510E+01	1.64107837028E+02	-5.98546621038E+00	-4.51814813418E-01
5.88487609734E+05	-1.50433944267E+01	-1.65433239474E+02	9.19301166665E+00	1.79140994427E+02	-4.31852485874E+01	8.75649637337E+01	-5.98798106016E+00	-4.86729924712E-01
6.10678964329E+05	-1.27979438427E+01	1.75905077155E+02	9.14641969543E+00	1.79065032088E+02	-5.64338033390E+01	-1.95850446040E+01	-6.00973991428E+00	2.13603067262E-01
6.32870318924E+05	-1.36529925765E+01	-1.69238001053E+02	9.14381318502E+00	1.78825596875E+02	-4.54809226635E+01	-1.69138214373E+02	-5.97865322905E+00	-6.49672895461E-02
6.55061673519E+05	-1.35750979023E+01	-1.79030211751E+02	9.16660523917E+00	1.78721167060E+02	-4.82012612537E+01	4.44356635777E+01	-5.98526073089E+00	-3.96005126464E-01
6.77253028114E+05	-1.32620273657E+01	1.77913563205E+02	9.15508873027E+00	1.78310453269E+02	-5.28695371049E+01	1.28001663924E+02	-6.00109688503E+00	-5.62615414675E-01
6.99444382709E+05	-1.32195947563E+01	-1.70533922162E+02	9.14389380909E+00	1.78397554815E+02	-4.24856209807E+01	-2.65668126455E+01	-6.01041809332E+00	-4.51362096487E-01
7.21635737304E+05	-1.78491119899E+01	1.78852842459E+02	9.21718818006E+00	1.78125828438E+02	-5.75227158948E+01	5.60545709214E+01	-5.98426231249E+00	-1.94426987898E-01
7.43827091899E+05	-1.74419583127E+01	-1.55353190905E+02	9.18661287127E+00	1.77967207649E+02	-4.27895862593E+01	-1.79700541721E+02	-5.99043265727E+00	-4.00405033811E-01
7.66018446494E+05	-1.16133430492E+01	-1.73162506671E+02	9.15106608338E+00	1.77697638836E+02	-4.23346142782E+01	1.01882755505E+02	-5.99395025870E+00	-3.09118239992E-01
7.88209801089E+05	-1.68084783520E+01	1.73211493531E+02	9.17953495242E+00	1.77775171843E+02	-5.02518946962E+01	1.43911641982E+02	-5.99267954974E+00	-3.15065239057E-01
8.10401155684E+05	-1.75585510773E+01	-1.48080104506E+02	9.23771442501E+00	1.77692097298E+02	-6.02332625880E+01	-9.53778904627E+01	-6.01304107809E+00	-2.89857084521E-01
8.32592510279E+05	-1.19355427678E+01	-1.67411099999E+02	9.16640152967E+00	1.77436777560E+02	-4.66359817432E+01	1.79028010475E+02	-6.00159974067E+00	-3.13356021882E-01
8.54783864874E+05	-1.28263633379E+01	1.72755936533E+02	9.13856201386E+00	1.77382344770E+02	-4.59258491590E+01	-1.40678878019E+02	-5.97588584939E+00	-4.65837623575E-01
8.76975219469E+05	-1.23617953476E+01	1.73392502046E+02	9.16433786116E+00	1.77383427123E+02	-5.64089910668E+01	8.10584443406E+01	-5.99787486284E+00	-5.42250099598E-01
8.99166574064E+05	-1.26634964366E+01	1.70646733136E+02	9.17190987304E+00	1.77119874921E+02	-4.73687177123E+01	9.96234055601E+01	-6.01032668485E+00	-4.06450728347E-01
9.21357928659E+05	-1.20179736614E+01	-1.69742833128E+02	9.15303705014E+00	1.76858881520E+02	-3.97626313041E+01	-1.02156429138E+02	-5.99078618693E+00	-2.94111787955E-01
9.43549283254E+05	-1.36699551580E+01	-1.71202152288E+02	9.14127381302E+00	1.76564947433E+02	-4.47938458387E+01	-5.01471935490E+01	-5.99575276480E+00	-3.54987482841E-01
9.65740637849E+05	-1.85572927866E+01	-1.75600084510E+02	9.19013421387E+00	1.76715062743E+02	-5.27013253569E+01	3.34695304660E+01	-6.00793576664E+00	-4.32816781207E-01
9.87931992444E+05	-1.35400211642E+01	1.76828823418E+02	9.17074018394E+00	1.76558227049E+02	-4.19266645848E+01	-5.30342934264E+01	-6.00675179717E+00	-6.27327714833E-01
1.01012334704E+06	-1.33143006200E+01	-1.58832479966E+02	9.17484066439E+00	1.76323851574E+02	-4.83305324442E+01	-4.34918419087E+01	-5.99142070377E+00	-4.19011496770E-01
1.03231470163E+06	-1.39414714113E+01	-1.47472464133E+02	9.20680314201E+00	1.76139371388E+02	-4.98575096960E+01	5.09835411956E+01	-5.98472704835E+00	-4.74281546161E-01
1.05450605623E+06	-1.46157496889E+01	-1.72349609162E+02	9.16663531666E+00	1.75919487512E+02	-4.83249611303E+01	1.01898009582E+02	-5.98169016600E+00	-5.14732156244E-01
1.07669741082E+06	-1.31879198585E+01	-1.69662037051E+02	9.14948673110E+00	1.75902674372E+02	-5.77200535303E+01	-1.78318674625E+02	-5.99325122140E+00	-5.42493840791E-01
1.09888876542E+06	-1.67431861372E+01	1.55775117098E+02	9.19578960868E+00	1.76114085605E+02	-4.49750258693E+01	-1.04791203837E+02	-5.97777257983E+00	-5.17335721776E-01
1.12108012001E+06	-1.61616743769E+01	-1.73547434162E+02	9.17793121966E+00	1.75896289343E+02	-4.65262887881E+01	-1.12466676185E+02	-5.98194472828E+00	-3.70660829429E-01
1.14327147461E+06	-1.29581063216E+01	-1.79821517999E+02	9.15990490960E+00	1.75781477001E+02	-4.56479480476E+01	-2.45740704125E+01	-6.01829940007E+00	-4.92273000776E-01
1.16546282920E+06	-2.39177020250E+01	1.54203626365E+02	9.22103965018E+00	1.75882780987E+02	-6.55630101865E+01	4.32695795996E+01	-5.99379133303E+00	-4.09282377949E-01
1.18765418380E+06	-1.47916891354E+01	-1.56522906222E+02	9.18300377791E+00	1.75228019066E+02	-4.81679289375E+01	6.87992833456E+01	-6.00929762004E+00	-5.38164292417E-01
1.20984553839E+06	-1.29788089719E+01	-1.75028584510E+02	9.16180946435E+00	1.75284470109E+02	-4.28380013320E+01	-4.57991814764E+01	-5.98222614690E+00	-5.76756063420E-01
1.23203689299E+06	-1.34457560554E+01	-1.77237900409E+02	9.17293172971E+00	1.75368933883E+02	-3.96473495110E+01	-1.20228607638E+00	-6.00409835088E+00	-2.75384029344E-01
1.25422824758E+06	-1.67995079690E+01	-1.76216074044E+02	9.18286006695E+00	1.75181204739E+02	-4.62161126351E+01	-1.40984840636E+02	-5.99373824779E+00	-5.02015897673E-01
1.27641960218E+06	-1.42019688587E+01	-1.76795187889E+02	9.18186196819E+00	1.75106975855E+02	-4.55607971169E+01	-9.99332529412E+01	-6.00656255025E+00	-3.88397183110E-01
1.29861095677E+06	-1.46590367012E+01	-1.62202739383E+02	9.19171375250E+00	1.75000607353E+02	-4.27139748499E+01	-4.65091875633E+01	-6.01295892781E+00	-5.25744366928E-01
1.32080231137E+06	-1.39235764265E+01	-1.51094062828E+02	9.21104827623E+00	1.74226896055E+02	-4.34377319770E+01	-7.85716614102E+01	-5.99889657953E+00	-8.98063295384E-01
1.34299366596E+06	-1.02529711103E+01	1.79432139710E+02	9.10761924004E+00	1.74578196814E+02	-4.73878680120E+01	5.12718381538E+01	-5.99767346635E+00	-6.96172672894E-01
1.36518502056E+06	-1.43293181161E+01	-1.73338131980E+02	9.19327611022E+00	1.74666820287E+02	-5.73355879659E+01	1.09298743080E+02	-5.99030007978E+00	-5.97109622390E-01
1.38737637515E+06	-1.50685401297E+01	1.77342364134E+02	9.21113479942E+00	1.74500633819E+02	-4.58479071939E+01	2.97054659044E+01	-6.01368722120E+00	-6.71565808854E-01
1.40956772975E+06	-1.11072723842E+01	-1.77844524477E+02	9.14700386987E+00	1.74207806899E+02	-5.94142307930E+01	-1.12250694378E+02	-5.98868683615E+00	-6.98531524290E-01
1.43175908434E+06	-1.29512374275E+01	-1.73087344504E+02	9.16085756771E+00	1.74478573438E+02	-3.91040190336E+01	1.51720854715E+02	-5.98163974836E+00	-6.89206317658E-01
1.45395043894E+06	-1.61485376601E+01	1.71521869490E+02	9.21614331400E+00	1.74415488056E+02	-4.16214571773E+01	6.25081277702E+01	-5.99141711504E+00	-8.34977659926E-01
1.47614179353E+06	-1.52265000784E+01	1.74511000169E+02	9.21427553437E+00	1.74125508382E+02	-4.13323433857E+01	-1.40326970724E+02	-6.00952425349E+00	-6.39611087569E-01
1.49833314813E+06	-9.61085986302E+00	1.62732270981E+02	9.17727125112E+00	1.73834051424E+02	-3.96307858163E+01	-1.56236374789E+02	-5.98547244415E+00	-5.07030102279E-01
1.52052450272E+06	-1.41409717511E+01	-1.73307530230E+02	9.22868965361E+00	1.73704881720E+02	-4.75829590497E+01	-8.60362583835E+01	-5.98993912489E+00	-5.76130816190E-01
1.54271585732E+06	-1.67361331642E+01	-1.79176851758E+02	9.21388414649E+00	1.73858796224E+02	-5.74237143191E+01	1.42981704006E+02	-5.98804227945E+00	-6.96879677423E-01
1.56490721191E+06	-1.43123772245E+01	1.78682060079E+02	9.18362648853E+00	1.73571524235E+02	-4.13386091426E+01	-1.58675369112E+02	-5.99255312948E+00	-5.89232620069E-01
1.58709856651E+06	-1.29136162559E+01	-1.66315552926E+02	9.19793908271E+00	1.73428519201E+02	-6.10331529099E+01	1.32202736011E+02	-5.98563834332E+00	-7.66057888460E-01
1.60928992110E+06	-1.60342433554E+01	-1.79218786400E+02	9.22665018662E+00	1.73414275173E+02	-3.60104732760E+01	-8.18134106358E+01	-6.01342338894E+00	-5.28002846819E-01
1.63148127570E+06	-1.31034251603E+01	-1.59172209777E+02	9.18205258701E+00	1.73157425304E+02	-3.89286891864E+01	9.60699775423E+01	-5.97411960928E+00	-7.07524752968E-01
1.65367263029E+06	-6.94902054360E+00	-1.70505529382E+02	9.16378961507E+00	1.72695727874E+02	-4.60166955496E+01	4.97403331769E+01	-6.01712170082E+00	-8.19035775165E-01
1.67586398489E+06	-1.43228121837E+01	-1.79514959672E+02	9.17470472758E+00	1.73119937344E+02	-4.52805167349E+01	-9.07826201643E+01	-6.00892531919E+00	-6.87951906927E-01
1.69805533948E+06	-1.44664483256E+01	1.79607020061E+02	9.21670944749E+00	1.73078245704E+02	-5.29398641985E+01	-1.17002522676E+02	-5.98534186765E+00	-7.28911610343E-01
1.72024669408E+06	-1.28223618662E+01	-1.75300060125E+02	9.20159805724E+00	1.72651573302E+02	-4.84110731922E+01	1.55460683041E+01	-6.01269095311E+00	-7.23338241064E-01
1.74243804867E+06	-1.40674261103E+01	-1.76536638641E+02	9.16799519202E+00	1.72529923457E+02	-4.83972799320E+01	3.13496399697E+01	-6.02439829352E+00	-9.15067874823E-01
1.76462940327E+06	-1.13608498043E+01	-1.60297743047E+02	9.16658864995E+00	1.72530061034E+02	-5.47381081917E+01	-4.90647250553E+01	-5.99749706715E+00	-6.70959312002E-01
1.78682075786E+06	-1.47079410994E+01	-1.79925324788E+02	9.18141138539E+00	1.72530301467E+02	-4.24353492758E+01	1.89968185900E+01	-6.02674482733E+00	-8.34045674707E-01
1.80901211246E+06	-1.22087091855E+01	-1.69994930220E+02	9.20826934552E+00	1.72289539866E+02	-4.09662223044E+01	1.06462405644E+02	-5.99625241152E+00	-8.42295598824E-01
1.83120346705E+06	-1.59614018316E+01	-1.64729989910E+02	9.18958184541E+00	1.72302306984E+02	-5.81037037541E+01	4.90264654514E+01	-5.98503221301E+00	-8.25151164555E-01
1.85339482165E+06	-1.27575206538E+01	-1.58797977597E+02	9.19724166828E+00	1.71836675436E+02	-4.95445914336E+01	2.37887697305E+01	-6.00027181462E+00	-8.56946067284E-01
1.87558617624E+06	-1.47037396828E+01	-1.76133999075E+02	9.21515884088E+00	1.72173207585E+02	-5.03122709883E+01	1.68311296419E+02	-5.98594448808E+00	-7.08133864548E-01
1.89777753084E+06	-1.79285823190E+01	-1.72912479330E+02	9.20114202644E+00	1.72064926980E+02	-4.57607478037E+01	-1.10955584025E+01	-6.01001753681E+00	-1.00798403275E+00
1.91996888543E+06	-1.46163045979E+01	-1.79622927203E+02	9.19231509692E+00	1.71899362961E+02	-4.44457832229E+01	-1.11262195542E+02	-6.00529051571E+00	-7.69764325487E-01
1.94216024003E+06	-1.27915063934E+01	-1.61701550510E+02	9.21710128923E+00	1.71554327101E+02	-4.49291500403E+01	-5.58179907793E+01	-5.98391895927E+00	-6.94125148048E-01
1.96435159462E+06	-1.13397191655E+01	1.45618841725E+02	9.12446598370E+00	1.71644859142E+02	-3.91291748283E+01	-9.23784491638E+01	-6.01037913300E+00	-6.19426990446E-01
1.98654294922E+06	-1.72194876590E+01	-1.69523304347E+02	9.21386668332E+00	1.71568713252E+02	-4.80560871167E+01	-8.11111606244E+00	-6.01196497434E+00	-9.57429007719E-01
2.00873430381E+06	-1.24793424539E+01	1.71208312420E+02	9.15365112820E+00	1.71475925883E+02	-3.74132073195E+01	-6.21299113789E+01	-6.00909859307E+00	-6.65556368819E-01
2.03092565841E+06	-1.65576959812E+01	1.77732091126E+02	9.25183133954E+00	1.71356258092E+02	-4.48238125303E+01	-1.07248446811E+02	-5.99954992800E+00	-7.63905876633E-01
2.05311701300E+06	-1.67495412390E+01	-1.54535125501E+02	9.21140645637E+00	1.71422804160E+02	-5.27900623361E+01	1.09675954324E+02	-5.99386785334E+00	-1.01203032593E+00
2.07530836760E+06	-1.32400862227E+01	-1.61935483305E+02	9.19238345332E+00	1.71163316002E+02	-3.99558722895E+01	-4.23800058664E+01	-6.02875201085E+00	-8.32162984939E-01
2.09749972219E+06	-1.44290050916E+01	-1.70017442772E+02	9.21063824382E+00	1.71220453631E+02	-3.32288599957E+01	-8.33992926138E+01	-6.01622359066E+00	-7.72884740964E-01
2.11969107679E+06	-1.85812312898E+01	1.41033300325E+02	9.17979600943E+00	1.71317116786E+02	-4.65727678288E+01	8.01073419982E+01	-5.99700736672E+00	-9.25836110406E-01
2.14188243138E+06	-1.56145898866E+01	-1.74902505354E+02	9.23286897705E+00	1.70694745331E+02	-4.69009489214E+01	1.49667970193E+02	-5.99515078391E+00	-9.65114701141E-01
2.16407378598E+06	-1.43122399769E+01	-1.69900972506E+02	9.17615813481E+00	1.70665755193E+02	-4.56447213604E+01	1.39940986906E+02	-5.98637503600E+00	-8.01317065278E-01
2.18626514057E+06	-1.28688105017E+01	-1.71137781339E+02	9.16906212817E+00	1.70607979301E+02	-4.62623824331E+01	-8.67405536968E+01	-6.01091681643E+00	-7.68100473859E-01
2.20845649517E+06	-1.24754850431E+01	1.76893237059E+02	9.19554796410E+00	1.70603790990E+02	-3.82838174210E+01	-1.45950667292E+02	-5.98528805045E+00	-8.66584791374E-01
2.23064784976E+06	-1.17694380942E+01	-1.77890125352E+02	9.16309143364E+00	1.70422737869E+02	-4.69244766583E+01	-1.11861967154E+02	-5.99003891174E+00	-1.04053449424E+00
2.25283920436E+06	-1.28254085328E+01	1.77564186837E+02	9.16615769605E+00	1.70310867587E+02	-3.93122518631E+01	1.09540929133E+02	-5.94726996801E+00	-1.13461863335E+00
2.27503055895E+06	-2.05125156761E+01	-1.56989034464E+02	9.23661066979E+00	1.70462522313E+02	-5.60524706922E+01	-1.72703797682E+02	-5.97638672490E+00	-1.00922869596E+00
2.29722191355E+06	-1.50224910516E+01	-1.66306071055E+02	9.22547921784E+00	1.69951523742E+02	-4.75922745882E+01	-1.47254504774E+02	-6.01825471298E+00	-1.00852246377E+00
2.31941326814E+06	-1.37934697119E+01	-1.74119236160E+02	9.21480733514E+00	1.70033160182E+02	-4.97804575827E+01	7.63960745878E+01	-5.99024857830E+00	-9.23908123601E-01
2.34160462274E+06	-1.28470623465E+01	1.77897214875E+02	9.19607387874E+00	1.69865490285E+02	-4.39455001016E+01	1.08947650764E+02	-5.97795692200E+00	-1.11231534779E+00
2.36379597733E+06	-1.21752826763E+01	-1.74221143532E+02	9.19693567747E+00	1.69789656548E+02	-4.13907009910E+01	8.87863341677E+01	-5.97359211349E+00	-1.13522389234E+00
2.38598733193E+06	-1.24155354182E+01	1.76654425598E+02	9.18722361696E+00	1.69793159963E+02	-4.80379924370E+01	-8.95365450089E+01	-5.98408320466E+00	-9.05239211957E-01
2.40817868652E+06	-1.53448856442E+01	1.76063544082E+02	9.20324930897E+00	1.69838490977E+02	-4.57324170115E+01	5.22296328659E+01	-5.98292451462E+00	-1.13176312288E+00
2.43037004112E+06	-1.15616782233E+01	-1.69235852563E+02	9.20239389246E+00	1.69053029845E+02	-4.16956528274E+01	-1.40079854478E+02	-5.97787605431E+00	-1.39269072220E+00
2.45256139571E+06	-1.51923280860E+01	-1.73428854636E+02	9.22064030083E+00	1.69354530624E+02	-4.84584585542E+01	-1.13932956998E+02	-6.00146092514E+00	-9.38475058874E-01
2.47475275031E+06	-1.52234943995E+01	-1.64274897039E+02	9.22765624575E+00	1.69392333602E+02	-3.89435114259E+01	-1.36713111139E+02	-5.97986477356E+00	-9.09397588832E-01
2.49694410490E+06	-1.20613400955E+01	-1.75256903994E+02	9.18648569499E+00	1.69150547137E+02	-5.26383064321E+01	1.19890862876E+02	-5.98496180231E+00	-1.11565678499E+00
2.51913545950E+06	-1.27799179475E+01	-1.73408432087E+02	9.19632590997E+00	1.69071612122E+02	-4.47504624304E+01	6.44931050120E+01	-6.00881413195E+00	-1.10629059829E+00
2.54132681409E+06	-1.67667260673E+01	-1.64364216979E+02	9.26191077281E+00	1.69161612150E+02	-4.47295318658E+01	-3.51368478756E+01	-6.02744370499E+00	-1.06263336101E+00
2.56351816869E+06	-1.60559212422E+01	-1.58408891012E+02	9.25109979458E+00	1.68787809712E+02	-4.21023996708E+01	1.56342014079E+02	-5.97900484085E+00	-1.09853450938E+00
2.58570952328E+06	-1.16206358650E+01	-1.11690662538E+02	9.33433353569E+00	1.68884348314E+02	-3.89178640826E+01	4.39285884555E+01	-6.01368575698E+00	-1.27464710441E+00
2.60790087788E+06	-1.02827197249E+01	-1.69289332035E+02	9.20256196088E+00	1.68340643844E+02	-4.62373346502E+01	1.04854923688E+02	-5.97691245010E+00	-1.12186237938E+00
2.63009223247E+06	-1.43029614495E+01	-1.55371771544E+02	9.25794520888E+00	1.68511147685E+02	-7.15079755938E+01	9.59235211901E+01	-5.97795280833E+00	-8.08280218131E-01
2.65228358707E+06	-1.24878432296E+01	-1.61422804589E+02	9.22551297350E+00	1.68378302883E+02	-4.81808260906E+01	5.18822777939E+01	-5.96462843653E+00	-1.32153527870E+00
2.67447494166E+06	-1.47833154990E+01	1.73437663748E+02	9.23680788384E+00	1.68517240173E+02	-4.49022824767E+01	-1.05774759413E+02	-5.98994215121E+00	-9.70257609206E-01
2.69666629626E+06	-1.50782578530E+01	-1.57949773306E+02	9.27953598961E+00	1.68287755913E+02	-5.10750574929E+01	-1.79309757846E+02	-5.98172554914E+00	-1.17904809884E+00
2.71885765085E+06	-1.23833661017E+01	-1.64648253592E+02	9.19908258515E+00	1.68081752392E+02	-3.68064279797E+01	1.34745172256E+02	-5.95914049740E+00	-1.35457065489E+00
2.74104900545E+06	-1.27721402466E+01	-1.37773422803E+02	9.28285386224E+00	1.67817442623E+02	-4.15652958442E+01	-6.60807280031E+01	-6.01772157641E+00	-1.11561459571E+00
2.76324036004E+06	-1.64409654288E+01	-1.67603470039E+02	9.26802835427E+00	1.67808738661E+02	-5.13560579392E+01	6.61621747666E+01	-5.99225965367E+00	-1.16875811962E+00
2.78543171463E+06	-1.24185273358E+01	-1.62861063011E+02	9.22908082387E+00	1.67637329211E+02	-3.91866522703E+01	5.04274332731E+01	-6.02766660530E+00	-1.31650478898E+00
2.80762306923E+06	-1.46865771264E+01	-1.68024662612E+02	9.26907399095E+00	1.67657956602E+02	-4.49305815976E+01	1.70786784553E+02	-6.00465203581E+00	-1.18189916029E+00
2.82981442382E+06	-1.87413379635E+01	-1.73391254847E+02	9.26870092087E+00	1.67834285389E+02	-5.11715936386E+01	-1.59790840300E+02	-5.99751099477E+00	-1.11389860761E+00
2.85200577842E+06	-1.32366179597E+01	1.79288763121E+02	9.23037270517E+00	1.67510508818E+02	-4.43697081818E+01	-2.47259610220E+01	-6.01122822690E+00	-1.21618347814E+00
2.87419713301E+06	-1.47228727741E+01	-1.62939722163E+02	9.27957217813E+00	1.67368522417E+02	-4.32245713217E+01	-5.49173381896E+01	-6.02087858792E+00	-1.37986042707E+00
