# Hz S DB R 50
! CMT, M5065, 19127446, 24.2.4/2
! Date: 11/8/2024 2:38:59 PM
! Data: Format (Calibration Info)
! Freq	S11:dB/Ang(F2)	S21:dB/Ang(F2)	S12:dB/Ang(F2)	S22:dB/Ang(F2)
3.00000000000E+05	-1.28368930324E+01	-1.70032382591E+02	5.22185506469E+00	-1.77984378036E+02	-5.74837654017E+01	-1.16114979127E+01	-6.02259671600E+00	-2.18710831817E-01
3.22191354595E+05	-1.40484704839E+01	-1.69195562745E+02	5.22858664768E+00	-1.78126060783E+02	-5.19220913576E+01	1.20674184149E+02	-5.99791965714E+00	-2.62704923419E-01
3.44382709190E+05	-1.42405110509E+01	1.71410783770E+02	5.19122596466E+00	-1.78098316895E+02	-3.88820965614E+01	-1.48709208336E+02	-5.99576381926E+00	-1.58997395727E-01
3.66574063785E+05	-1.06774407188E+01	1.78083942267E+02	5.17817209141E+00	-1.78505637234E+02	-3.95822774924E+01	-1.16418408952E+02	-5.97947492578E+00	-3.51260475711E-01
3.88765418380E+05	-1.53363456461E+01	1.79455406838E+02	5.20556146998E+00	-1.78578347678E+02	-4.30852565183E+01	-1.22830498641E+02	-6.01895744499E+00	-2.80715523884E-01
4.10956772975E+05	-1.28402581934E+01	-1.61568557225E+02	5.24690999517E+00	-1.79243898883E+02	-3.98959942743E+01	-1.73216871247E+02	-5.99154178241E+00	-2.89999542949E-01
4.33148127570E+05	-1.38512932022E+01	1.73117877938E+02	5.23574013304E+00	-1.79036355421E+02	-4.71282108746E+01	1.19830980982E+01	-5.98596563107E+00	-3.06655412439E-01
4.55339482165E+05	-1.39114001920E+01	-1.68478948288E+02	5.24693296486E+00	-1.79593814832E+02	-5.08074020526E+01	-1.59001552699E+02	-5.99478786157E+00	-3.96332020906E-01
4.77530836760E+05	-1.85395610272E+01	-1.77369068476E+02	5.23343688934E+00	-1.79634546913E+02	-4.39628200274E+01	-3.22718331330E+01	-6.01373912160E+00	-1.12712813851E-01
4.99722191355E+05	-1.35703978465E+01	-1.76242550446E+02	5.19884347817E+00	-1.79991091443E+02	-4.01307325676E+01	1.10302235816E+02	-6.00098243802E+00	-2.24067123483E-01
5.21913545950E+05	-1.50470392311E+01	-1.66355061118E+02	5.23305326907E+00	1.79911103978E+02	-4.60251028056E+01	1.18975948106E+02	-6.01862767872E+00	-1.54663597091E-01
5.44104900545E+05	-1.79697506080E+01	1.76136888161E+02	5.28129506569E+00	1.79862102217E+02	-4.58085501657E+01	-1.26235232686E+02	-6.00684367486E+00	-3.38882247027E-01
5.66296255139E+05	-1.36762300265E+01	-1.64810837887E+02	5.23179272402E+00	1.79564700941E+02	-4.62454456735E+01	1.60096953928E+02	-5.98780907239E+00	-5.00639445992E-01
5.88487609734E+05	-9.59935668654E+00	-1.44803358684E+02	5.20009115462E+00	1.79232640843E+02	-4.11661354315E+01	-1.57771346985E+02	-6.01571641484E+00	-2.87305628280E-01
6.10678964329E+05	-1.67053821414E+01	1.78411557742E+02	5.28641090574E+00	1.79715117535E+02	-4.82785088821E+01	1.20548277107E+01	-6.00950274643E+00	1.81663602195E-01
6.32870318924E+05	-1.47786433285E+01	1.66709173626E+02	5.24749118568E+00	1.79473382973E+02	-4.62696967757E+01	2.11758941012E+01	-6.01216140537E+00	-1.40322786242E-01
6.55061673519E+05	-1.44915421250E+01	1.68993485257E+02	5.21633335035E+00	1.79372564319E+02	-3.91577381263E+01	1.60544371832E+02	-6.00293212551E+00	-2.54627216793E-01
6.77253028114E+05	-1.79876857220E+01	-1.64939400028E+02	5.22987741154E+00	1.79172947627E+02	-4.59294626764E+01	-1.03580750429E+02	-6.03295563969E+00	-6.15488337160E-01
6.99444382709E+05	-1.90729302412E+01	-1.79937027573E+02	5.27025979569E+00	1.78648040843E+02	-4.59805742595E+01	6.74988196824E+01	-6.01367582945E+00	-3.20039155125E-01
7.21635737304E+05	-1.65609576110E+01	1.76262148072E+02	5.29917939454E+00	1.78689261355E+02	-4.02503776469E+01	1.12152360778E+02	-6.00040405006E+00	-4.56246436654E-01
7.43827091899E+05	-1.11654065212E+01	1.57451083868E+02	5.22178523206E+00	1.78782290790E+02	-4.89751626934E+01	-1.12378657102E+02	-6.03157218326E+00	-4.03709222666E-01
7.66018446494E+05	-1.28325158836E+01	-1.69990569101E+02	5.26486932571E+00	1.78424066326E+02	-4.31416748554E+01	3.47515738587E+01	-6.02793332506E+00	-3.98543745243E-01
7.88209801089E+05	-1.55086987516E+01	-1.76568686478E+02	5.25683336213E+00	1.78369552729E+02	-3.79890138232E+01	1.69487414749E+02	-5.97616107447E+00	-4.58661871617E-01
8.10401155684E+05	-1.25436745626E+01	-1.58991337437E+02	5.21659854067E+00	1.78098913866E+02	-4.79313405181E+01	2.18497137977E+01	-6.01636405368E+00	-4.17714752146E-01
8.32592510279E+05	-1.06344000762E+01	-1.75299423929E+02	5.22426598529E+00	1.77944004609E+02	-4.32979302294E+01	-6.89524439084E+01	-6.02786898723E+00	-3.36021585987E-01
8.54783864874E+05	-1.38252604692E+01	-1.59188238633E+02	5.24758058590E+00	1.77868334847E+02	-4.55776636024E+01	-4.85600037813E+01	-6.00267708064E+00	-3.46912541145E-01
8.76975219469E+05	-1.39438423199E+01	-1.79927558308E+02	5.25827583886E+00	1.77886033645E+02	-4.61389978871E+01	-8.34277172014E+00	-6.01120195613E+00	-3.76450392595E-01
8.99166574064E+05	-1.24511623513E+01	-1.47340187601E+02	5.27118121972E+00	1.77668796104E+02	-4.99890548650E+01	3.90612045973E+01	-6.00278106639E+00	-3.36021793237E-01
9.21357928659E+05	-1.38287329254E+01	1.79921700113E+02	5.19996920230E+00	1.77715127211E+02	-4.07583868934E+01	1.38548196737E+02	-5.99329346609E+00	-5.68233810514E-01
9.43549283254E+05	-1.28322341679E+01	-1.47818656973E+02	5.25861435356E+00	1.77311705005E+02	-5.29394199119E+01	3.12963580662E+01	-6.01121968774E+00	-2.72574811682E-01
9.65740637849E+05	-1.72948100991E+01	1.74858123119E+02	5.25054825357E+00	1.77804275854E+02	-4.87936412572E+01	1.12005228738E+02	-5.99289955670E+00	-4.09858436876E-01
9.87931992444E+05	-1.42656514441E+01	-1.75371122391E+02	5.23803785428E+00	1.77372371364E+02	-4.37783171875E+01	-3.36655869055E+01	-6.02101113926E+00	-4.42796016806E-01
1.01012334704E+06	-1.67344140203E+01	1.78375420079E+02	5.23582215480E+00	1.77248110244E+02	-4.83508935752E+01	-6.73560965040E+01	-5.98296957417E+00	-3.89319829824E-01
1.03231470163E+06	-1.17195482190E+01	-1.77081634232E+02	5.20907731614E+00	1.76893854381E+02	-4.48680674768E+01	-5.40049548859E+01	-5.98831150903E+00	-4.05662845029E-01
1.05450605623E+06	-1.78514822523E+01	-1.47850883447E+02	5.28126121671E+00	1.77175336974E+02	-4.40544368290E+01	-1.21697684553E+02	-6.01713788080E+00	-3.46094268545E-01
1.07669741082E+06	-1.47816314347E+01	1.75214214891E+02	5.24657112631E+00	1.77164626048E+02	-4.28344348458E+01	6.24791303774E+01	-6.01056777060E+00	-4.94843093938E-01
1.09888876542E+06	-1.39514861623E+01	-1.76322622714E+02	5.24431640538E+00	1.77093992796E+02	-4.77199432732E+01	-1.59055045141E+02	-6.00862509269E+00	-3.43343193261E-01
1.12108012001E+06	-1.12604919213E+01	-1.77229907709E+02	5.17520104247E+00	1.76771703967E+02	-4.39531962460E+01	-4.45407502995E+01	-6.01806149023E+00	-5.77230476740E-01
1.14327147461E+06	-1.19563721380E+01	-1.73457323147E+02	5.23558215196E+00	1.76565442701E+02	-3.78276193136E+01	2.36012955524E+01	-6.04350581310E+00	-6.48659177047E-01
1.16546282920E+06	-2.17690911820E+01	1.73969907304E+02	5.26869469934E+00	1.76610635520E+02	-4.41190973503E+01	-1.77961734605E+02	-5.99763774547E+00	-3.74911135304E-01
1.18765418380E+06	-1.37415655904E+01	1.76108376757E+02	5.18476036203E+00	1.76473713658E+02	-3.83777806135E+01	8.80476868367E+01	-6.00507155622E+00	-6.81349194946E-01
1.20984553839E+06	-1.71789928173E+01	1.77443644865E+02	5.24343575429E+00	1.76484832194E+02	-4.67823267214E+01	-1.59386779068E+02	-6.00351288567E+00	-5.70240376707E-01
1.23203689299E+06	-1.32682022736E+01	-1.72604917337E+02	5.22336501847E+00	1.76330841665E+02	-6.01015451770E+01	-1.08845485613E+02	-6.01100142644E+00	-2.44228428668E-01
1.25422824758E+06	-1.22629389174E+01	-1.74485132352E+02	5.14868442614E+00	1.76318969734E+02	-4.77153671934E+01	-7.83564246886E+01	-6.00421113278E+00	-5.93759297599E-01
1.27641960218E+06	-1.61027118328E+01	-1.49317077279E+02	5.29968533746E+00	1.75932580130E+02	-4.01983236553E+01	1.76416526848E+02	-5.99945132574E+00	-4.79454744862E-01
1.29861095677E+06	-1.36216228718E+01	-1.63183342743E+02	5.29190679111E+00	1.75945994951E+02	-3.74666613061E+01	1.08394363951E+02	-6.02697807331E+00	-6.19198120699E-01
1.32080231137E+06	-1.06866426155E+01	-1.67520885031E+02	5.25666861370E+00	1.75810973568E+02	-4.56502494959E+01	-5.66030657995E+01	-6.00545474630E+00	-7.54118452965E-01
1.34299366596E+06	-1.24041614605E+01	1.69018161126E+02	5.21398192696E+00	1.75960599012E+02	-4.81142338983E+01	1.65846383537E+02	-5.99278344073E+00	-6.35464746756E-01
1.36518502056E+06	-1.42643667015E+01	-1.54104380600E+02	5.27480214084E+00	1.75691057759E+02	-4.11876971413E+01	1.16601928439E+02	-5.99422511574E+00	-5.76231558748E-01
1.38737637515E+06	-1.76359151373E+01	1.73089703772E+02	5.22587070723E+00	1.75720941489E+02	-4.31945209396E+01	9.73667616986E+01	-5.99694061204E+00	-6.96566350689E-01
1.40956772975E+06	-1.41275572862E+01	-1.64298371067E+02	5.25978270155E+00	1.75337589020E+02	-5.42253357376E+01	-1.73031590979E+02	-6.01382146997E+00	-5.83613672072E-01
1.43175908434E+06	-1.35688651274E+01	-1.61289503438E+02	5.24795984983E+00	1.75470354093E+02	-4.43556532035E+01	-1.78375221684E+02	-6.01850783158E+00	-6.56254856648E-01
1.45395043894E+06	-1.69193250038E+01	-1.59462663069E+02	5.29312513901E+00	1.75467046020E+02	-4.99166475460E+01	6.13828074195E+01	-6.00150490308E+00	-7.87967163290E-01
1.47614179353E+06	-1.35462132845E+01	1.61372839738E+02	5.24616921229E+00	1.75433034452E+02	-3.89041009421E+01	8.37088560162E+01	-5.99149728991E+00	-6.38435400337E-01
1.49833314813E+06	-1.67840661731E+01	-1.72724681913E+02	5.25516236028E+00	1.74985812402E+02	-4.73579353298E+01	3.82562359046E+01	-5.99605407693E+00	-7.08587114203E-01
1.52052450272E+06	-1.23070215243E+01	-1.66503799400E+02	5.26590658736E+00	1.74960107361E+02	-5.74969411090E+01	1.78019669085E+02	-5.98256893498E+00	-5.22035169035E-01
1.54271585732E+06	-1.66636923488E+01	1.71601251403E+02	5.26055435800E+00	1.75288437227E+02	-4.44555393568E+01	1.05955974650E+02	-6.00311216391E+00	-6.50212035457E-01
1.56490721191E+06	-1.43935595592E+01	-1.73556743978E+02	5.25290369287E+00	1.75123544332E+02	-4.23229330145E+01	1.73478164966E+00	-6.01025797376E+00	-7.68066957463E-01
1.58709856651E+06	-1.45276923657E+01	-1.66388159414E+02	5.29077842559E+00	1.74950678094E+02	-3.99132038521E+01	1.44872135180E+02	-6.00260165992E+00	-7.58363441914E-01
1.60928992110E+06	-1.44228190376E+01	1.71960087603E+02	5.19318340995E+00	1.75195342108E+02	-4.29967448827E+01	-7.36950051139E+01	-6.02095111546E+00	-8.09163148887E-01
1.63148127570E+06	-1.49697655175E+01	-1.56963125462E+02	5.24464214762E+00	1.74575475122E+02	-5.69116901666E+01	-1.02537008246E+02	-6.01896121972E+00	-6.36775799851E-01
1.65367263029E+06	-1.61344470557E+01	-1.78431245472E+02	5.25070202293E+00	1.74975316452E+02	-4.47691759842E+01	-1.89113382265E+01	-6.01732320254E+00	-5.88070864786E-01
1.67586398489E+06	-1.40252767521E+01	1.76762750477E+02	5.27064964454E+00	1.74734375632E+02	-4.84105314945E+01	7.92936199497E+01	-6.01008237775E+00	-7.38852591304E-01
1.69805533948E+06	-1.40992964036E+01	-1.64354618301E+02	5.19770304459E+00	1.74625584205E+02	-4.66200725978E+01	-1.76715481208E+02	-6.00981445828E+00	-8.33239870878E-01
1.72024669408E+06	-1.42114286393E+01	1.76440739008E+02	5.31354424454E+00	1.74235020740E+02	-4.08568145449E+01	4.30582340807E+01	-6.00578310909E+00	-8.56185587319E-01
1.74243804867E+06	-1.31426090170E+01	-1.65960467450E+02	5.28040969278E+00	1.74240180730E+02	-5.04014354982E+01	-1.28780950846E+02	-6.00060585149E+00	-7.45789789797E-01
1.76462940327E+06	-1.01821600841E+01	-1.72343842667E+02	5.22645028724E+00	1.74075048128E+02	-4.22857853180E+01	9.28403219411E+00	-6.00856573166E+00	-9.53087726063E-01
1.78682075786E+06	-1.19323343152E+01	-1.66387756071E+02	5.28725878549E+00	1.73749652156E+02	-4.19949559757E+01	-1.70435334142E+02	-6.01636514566E+00	-6.61796927494E-01
1.80901211246E+06	-1.38293430476E+01	-1.72568649339E+02	5.24197798116E+00	1.74012854955E+02	-4.37119686743E+01	-1.05203461603E+02	-5.97334374467E+00	-6.71794551584E-01
1.83120346705E+06	-1.64075323412E+01	1.60353080387E+02	5.25830606884E+00	1.73878182513E+02	-4.65591391303E+01	1.44299226642E+02	-5.99360972757E+00	-7.33660241499E-01
1.85339482165E+06	-1.85769331919E+01	1.62859759513E+02	5.24069096798E+00	1.73817612742E+02	-6.52982574950E+01	-1.33434622537E+02	-6.02225107792E+00	-8.92274261401E-01
1.87558617624E+06	-1.14185690261E+01	-1.61513705663E+02	5.24152511689E+00	1.73445647329E+02	-4.38592502794E+01	8.06766393294E+01	-5.99503149855E+00	-8.08487407600E-01
1.89777753084E+06	-1.56394674764E+01	-1.68123198132E+02	5.26021092890E+00	1.73692827911E+02	-4.46256044959E+01	8.58082171887E+01	-6.00789743921E+00	-9.15555704481E-01
1.91996888543E+06	-1.42627996405E+01	1.76314061896E+02	5.22534816444E+00	1.73327481205E+02	-4.61840418013E+01	-8.87647380534E+01	-6.02445659239E+00	-8.87171462221E-01
1.94216024003E+06	-1.54571032458E+01	-1.73909613661E+02	5.29166563699E+00	1.73476568734E+02	-4.49387273520E+01	4.63546877356E+01	-5.99920007094E+00	-7.39441375366E-01
1.96435159462E+06	-1.50190468179E+01	-1.72318439310E+02	5.28541942584E+00	1.73524439851E+02	-4.53157500215E+01	-8.48944149901E+01	-6.02854886994E+00	-4.81885031332E-01
1.98654294922E+06	-1.06582064573E+01	-1.66676395292E+02	5.28348316832E+00	1.73455281041E+02	-4.67238384894E+01	-4.88592211596E+01	-6.00575486005E+00	-8.62138892785E-01
2.00873430381E+06	-1.36955499696E+01	1.62593299031E+02	5.25257102110E+00	1.73522899409E+02	-4.52005243770E+01	-1.24322162381E+02	-6.00832679291E+00	-8.38967106360E-01
2.03092565841E+06	-1.47602619340E+01	-1.75472435729E+02	5.22978491930E+00	1.73205602491E+02	-5.67383543936E+01	1.22507979714E+02	-6.01252205608E+00	-7.58500823419E-01
2.05311701300E+06	-1.45978468933E+01	-1.73455574577E+02	5.27611343026E+00	1.73245222742E+02	-5.16990341262E+01	-1.12327447642E+02	-6.02251408919E+00	-9.06447138943E-01
2.07530836760E+06	-1.49341425989E+01	-1.46220631604E+02	5.29236009401E+00	1.72892618770E+02	-3.86314522872E+01	-1.48967415237E+02	-6.01779283529E+00	-9.98189118349E-01
2.09749972219E+06	-1.19223137357E+01	1.69560770642E+02	5.21290299084E+00	1.72676612138E+02	-4.45100384213E+01	-6.15025524486E+01	-6.01157555743E+00	-8.86678064795E-01
2.11969107679E+06	-1.78596060670E+01	-1.76006554473E+02	5.28232275154E+00	1.73157261820E+02	-4.63373184019E+01	6.06012454673E+01	-6.01955076433E+00	-9.17732704811E-01
2.14188243138E+06	-1.09915514475E+01	-1.67936837292E+02	5.23294481879E+00	1.72503768176E+02	-4.77666197786E+01	6.55265881342E+01	-6.00325706998E+00	-1.06364784904E+00
2.16407378598E+06	-1.35435733236E+01	-1.68198774671E+02	5.28784323448E+00	1.72578831433E+02	-5.49801920729E+01	-1.02519554517E+02	-5.98791775947E+00	-9.36284417538E-01
2.18626514057E+06	-1.15812462794E+01	-1.75482384029E+02	5.28762457544E+00	1.72361909054E+02	-4.58781277945E+01	1.41995291288E+02	-5.99300999332E+00	-9.37078408814E-01
2.20845649517E+06	-1.69274065000E+01	-1.68314583934E+02	5.28915225165E+00	1.72288733469E+02	-4.65327302674E+01	9.81287059575E+00	-6.01673509231E+00	-1.18065950920E+00
2.23064784976E+06	-1.44727467815E+01	-1.72603369903E+02	5.24009140506E+00	1.72151844834E+02	-4.62769666811E+01	-1.60634962895E+02	-6.00125040145E+00	-9.54959013460E-01
2.25283920436E+06	-1.33822369246E+01	-1.42584813212E+02	5.32255144091E+00	1.72117492702E+02	-3.72382186394E+01	1.54296398132E+02	-5.98471822873E+00	-9.56944745983E-01
2.27503055895E+06	-1.34373967264E+01	-1.75839485944E+02	5.27545233201E+00	1.72120537823E+02	-4.93270168728E+01	1.78743781840E+01	-5.99173936273E+00	-1.13432391728E+00
2.29722191355E+06	-1.47415977182E+01	-1.76005270065E+02	5.25424583491E+00	1.72090988265E+02	-4.82534673306E+01	8.14296320313E+01	-5.99717789149E+00	-1.13961479850E+00
2.31941326814E+06	-1.67781803091E+01	1.71051287925E+02	5.26720713307E+00	1.72245064475E+02	-4.05614553752E+01	-9.41323071759E+00	-6.03108742581E+00	-9.37819833899E-01
2.34160462274E+06	-1.48296448784E+01	-1.71037235629E+02	5.27165516947E+00	1.71748443384E+02	-4.37784313888E+01	4.68872746219E+01	-6.00355160979E+00	-1.06564054757E+00
2.36379597733E+06	-1.39200795224E+01	-1.52070161606E+02	5.28996709482E+00	1.71367066331E+02	-3.85598739093E+01	1.24650656059E+02	-5.99932630106E+00	-1.05689175188E+00
2.38598733193E+06	-1.66203609026E+01	-1.72581556226E+02	5.29989848024E+00	1.71748714801E+02	-4.71190195884E+01	-3.66267517790E+01	-6.01172550970E+00	-9.25119910729E-01
2.40817868652E+06	-1.58970560518E+01	-1.77447506384E+02	5.22637561346E+00	1.71633286770E+02	-4.84531752940E+01	-1.35980865203E+02	-6.00362431845E+00	-1.11092845322E+00
2.43037004112E+06	-1.44230263519E+01	-1.68003134987E+02	5.32000546143E+00	1.71470387800E+02	-5.01210905880E+01	3.02591927317E+01	-6.00283194203E+00	-1.55161518794E+00
2.45256139571E+06	-1.13293651912E+01	-1.62012884203E+02	5.23247046672E+00	1.71310608831E+02	-4.47504180932E+01	-1.55108856015E+02	-5.99666445157E+00	-9.68354739810E-01
2.47475275031E+06	-1.40416306961E+01	-1.63654938686E+02	5.27148686627E+00	1.71408427682E+02	-3.65203475721E+01	-3.72172357796E+01	-6.01592211653E+00	-9.08192541956E-01
2.49694410490E+06	-1.38540497151E+01	-1.77312684945E+02	5.26782386911E+00	1.71129464544E+02	-5.95268218833E+01	1.52115390322E+02	-6.00779608559E+00	-8.65995668215E-01
2.51913545950E+06	-1.18507533703E+01	-1.70929350981E+02	5.24120662217E+00	1.70876043026E+02	-5.15190968204E+01	-5.28646437963E+01	-6.00622159739E+00	-1.07702929972E+00
2.54132681409E+06	-1.44556721175E+01	-1.62350650536E+02	5.27850819142E+00	1.71042299749E+02	-3.44929188532E+01	1.58310246861E+02	-5.97849881968E+00	-1.03298944740E+00
2.56351816869E+06	-1.37456145388E+01	-1.64565821472E+02	5.29394339986E+00	1.70933839812E+02	-4.70992663098E+01	1.34714382812E+02	-5.99682318975E+00	-1.07267118785E+00
2.58570952328E+06	-1.32290148839E+01	-1.58415682236E+02	5.30794920439E+00	1.71088564458E+02	-4.12248064052E+01	-4.31844892585E+01	-6.02380848336E+00	-1.14171154829E+00
2.60790087788E+06	-1.58374249007E+01	-1.72882269698E+02	5.31847701021E+00	1.70765555014E+02	-4.22572466566E+01	1.29777221829E+02	-5.98553018917E+00	-9.91358044079E-01
2.63009223247E+06	-1.74642613996E+01	1.09647193845E+02	5.24722927783E+00	1.71411683257E+02	-4.54546106697E+01	-1.71432036110E+02	-5.98811063407E+00	-5.27593012715E-01
2.65228358707E+06	-1.18916661245E+01	-1.56445369812E+02	5.30061197382E+00	1.70404146011E+02	-3.95276534709E+01	8.27551747820E+01	-6.03101806366E+00	-1.18903425525E+00
2.67447494166E+06	-1.37352506380E+01	-1.78300787192E+02	5.27228419525E+00	1.70725216839E+02	-4.15982495179E+01	1.35972660400E+02	-5.99403751827E+00	-1.12228122383E+00
2.69666629626E+06	-1.44845270969E+01	-1.67430787776E+02	5.27491207089E+00	1.70517034827E+02	-4.11581727818E+01	-1.11990585928E+02	-6.01672486491E+00	-9.93463804290E-01
2.71885765085E+06	-1.40609775916E+01	-1.68696226818E+02	5.29121780010E+00	1.70593289204E+02	-5.75402706255E+01	-1.00547183599E+02	-6.01481479737E+00	-1.24404358425E+00
2.74104900545E+06	-1.73095086045E+01	-1.44614819731E+02	5.32543396318E+00	1.70337058620E+02	-4.30941002850E+01	1.56436392157E+02	-5.99886134450E+00	-1.25157562057E+00
2.76324036004E+06	-1.22762460721E+01	-1.77555192712E+02	5.25706711139E+00	1.70045706542E+02	-4.22071180591E+01	6.84136107219E+01	-6.02322387541E+00	-1.24290470022E+00
2.78543171463E+06	-1.91750237296E+01	1.48703470403E+02	5.32407239612E+00	1.70633822576E+02	-6.85202284290E+01	-4.81672078614E+01	-6.01746330044E+00	-1.28332973560E+00
2.80762306923E+06	-1.20107425285E+01	-1.67739402116E+02	5.25366141929E+00	1.69954691774E+02	-4.78307900096E+01	-1.74702147388E+02	-5.98820620826E+00	-1.19562232429E+00
2.82981442382E+06	-1.48480048368E+01	-1.61039402616E+02	5.32940828022E+00	1.70268368230E+02	-4.04386471082E+01	1.75816789719E+02	-5.98447274561E+00	-1.23130264777E+00
2.85200577842E+06	-1.85268168578E+01	-1.68860669484E+02	5.32587590013E+00	1.69974302691E+02	-3.76343293190E+01	-3.83362002765E+01	-5.99723499548E+00	-1.18689698960E+00
2.87419713301E+06	-1.29722754495E+01	-1.69649595267E+02	5.29950360699E+00	1.69570785862E+02	-3.98855518153E+01	3.83270210812E+01	-5.99899262088E+00	-1.21082790905E+00
