# Hz S DB R 50
! CMT, M5065, 19127446, 24.2.4/2
! Date: 11/8/2024 3:00:31 PM
! Data: Format (Calibration Info)
! Freq	S11:dB/Ang(F2)	S21:dB/Ang(F2)	S12:dB/Ang(F2)	S22:dB/Ang(F2)
3.00000000000E+05	-1.42653714014E+01	1.62339875124E+02	9.89712725161E+00	-1.77410176753E+02	-5.44199240689E+01	5.47637617271E+01	-5.99870235427E+00	-3.17995408067E-01
3.22191354595E+05	-1.53748879185E+01	-1.77325858428E+02	9.90267125580E+00	-1.77826741209E+02	-5.90208584961E+01	-1.13807693298E+02	-6.01131723007E+00	-1.29952426469E-01
3.44382709190E+05	-1.40368501423E+01	-1.78498410110E+02	9.90507186153E+00	-1.78358630837E+02	-4.59095095751E+01	9.41772592718E+01	-5.99582252861E+00	-3.84970610164E-01
3.66574063785E+05	-1.22873926264E+01	1.78954368507E+02	9.88205570244E+00	-1.78729489924E+02	-4.74558484464E+01	1.53484827090E+02	-5.98879449889E+00	-2.02409220936E-01
3.88765418380E+05	-1.48142658070E+01	-1.64346395826E+02	9.97227733810E+00	-1.79302892242E+02	-4.59966066144E+01	1.17863256584E+02	-6.00068980266E+00	-4.11551265522E-01
4.10956772975E+05	-1.27617542241E+01	-1.72888142386E+02	9.84393104145E+00	-1.79051933996E+02	-4.15808527483E+01	-8.52450453253E+01	-5.97906594467E+00	-2.81002022877E-01
4.33148127570E+05	-1.38021637182E+01	1.71666490021E+02	9.92512224352E+00	-1.79522923797E+02	-4.42426429259E+01	1.14775352749E+02	-6.00339802052E+00	-3.51894457468E-01
4.55339482165E+05	-1.32988272909E+01	-1.63484288289E+02	9.87285840132E+00	-1.79926985138E+02	-4.43784748654E+01	1.71930343190E+02	-6.01707862441E+00	-3.82973709073E-01
4.77530836760E+05	-1.31303784505E+01	-1.60784665181E+02	9.90201814047E+00	1.79848660427E+02	-4.72439251978E+01	-7.22550541235E+01	-6.00030183775E+00	-1.80647662676E-01
4.99722191355E+05	-1.52255921947E+01	1.78727555294E+02	9.91116350667E+00	1.79912207542E+02	-4.40387814329E+01	-1.28705033144E+02	-5.99634873175E+00	-3.29437613289E-01
5.21913545950E+05	-1.35442657987E+01	1.63523416870E+02	9.88301128528E+00	1.79929489884E+02	-4.84205151499E+01	-3.62447483803E+01	-5.98027372394E+00	-2.40659085113E-01
5.44104900545E+05	-1.53662778305E+01	-1.74743850605E+02	9.92853712707E+00	1.79575816795E+02	-4.71978822300E+01	2.52248041939E+01	-6.00239064392E+00	-4.54318208827E-01
5.66296255139E+05	-1.16801020331E+01	1.79711604068E+02	9.90423139463E+00	1.79275535908E+02	-4.68800193453E+01	-1.72360422263E+02	-5.98452527549E+00	-3.12830384366E-01
5.88487609734E+05	-1.68877366248E+01	-1.36051304208E+02	9.92946662126E+00	1.78861133029E+02	-5.63573171489E+01	3.15709955247E+01	-5.99222110677E+00	-2.85404156659E-01
6.10678964329E+05	-1.43155974963E+01	-1.64672785286E+02	9.91360564391E+00	1.78936980938E+02	-4.05494220540E+01	-5.81716753346E+01	-6.01642507253E+00	2.25452837275E-01
6.32870318924E+05	-1.60768137476E+01	1.72148134213E+02	9.91953295732E+00	1.78863268990E+02	-5.04214631603E+01	-1.76841013103E+02	-5.97987037976E+00	-2.60472318343E-01
6.55061673519E+05	-1.19785545145E+01	-1.68553849153E+02	9.89256300804E+00	1.78392426156E+02	-5.09418906145E+01	4.08390928357E+01	-5.99387762767E+00	-2.50912879279E-01
6.77253028114E+05	-1.24361714149E+01	-1.79415088966E+02	9.90853310008E+00	1.78184342348E+02	-4.47353816788E+01	-1.36946802918E+02	-5.99536885422E+00	-6.01938343426E-01
6.99444382709E+05	-1.87704971955E+01	1.47636960118E+02	9.94189953432E+00	1.78586740614E+02	-5.12855669308E+01	-1.04026986935E+02	-6.00176948006E+00	-4.89096793494E-01
7.21635737304E+05	-1.95679897606E+01	-1.67561941152E+02	9.92272137679E+00	1.78279269377E+02	-4.82644318730E+01	-6.09015073196E+01	-6.00616438472E+00	-3.42995101873E-01
7.43827091899E+05	-1.08360415987E+01	-1.53321511794E+02	9.88317679605E+00	1.77696118044E+02	-4.22820463813E+01	2.75601597896E+01	-6.01244419606E+00	-5.15340628005E-01
7.66018446494E+05	-1.11855636280E+01	1.72683020371E+02	9.86123989523E+00	1.77770762121E+02	-4.44439872616E+01	6.66465600109E+01	-5.99463627243E+00	-5.26511395021E-01
7.88209801089E+05	-1.50444155906E+01	-1.68300584120E+02	9.92023208903E+00	1.77615100241E+02	-4.68922613420E+01	-1.79986541586E+02	-5.97906655135E+00	-5.15234216812E-01
8.10401155684E+05	-1.28102093700E+01	-1.71586623147E+02	9.89774401145E+00	1.77392051247E+02	-4.30782605431E+01	6.92385780797E+01	-5.98942746255E+00	-4.53426585333E-01
8.32592510279E+05	-1.42080756966E+01	-1.75965747370E+02	9.91506885412E+00	1.77465626902E+02	-4.44109949361E+01	-1.01971621468E+02	-6.00085451074E+00	-2.82284116993E-01
8.54783864874E+05	-1.28854078633E+01	-1.72516269450E+02	9.90541008835E+00	1.77126870313E+02	-4.33808094353E+01	1.44914884653E+02	-5.97187448975E+00	-5.19137941222E-01
8.76975219469E+05	-1.83617472157E+01	-1.76624118564E+02	9.92511801153E+00	1.77063165678E+02	-4.69982322663E+01	-3.51371269444E+01	-5.99469395973E+00	-3.62887956459E-01
8.99166574064E+05	-1.48554976281E+01	1.73924528569E+02	9.91322201650E+00	1.77079573941E+02	-5.08382486988E+01	8.60863080542E+01	-5.99124845927E+00	-4.22055207353E-01
9.21357928659E+05	-1.55316480836E+01	-1.67441786985E+02	9.87779653723E+00	1.76778792102E+02	-4.95483665770E+01	-1.78976264852E+02	-5.98058405694E+00	-1.83115910697E-01
9.43549283254E+05	-1.43340224181E+01	-1.75836576596E+02	9.92207651230E+00	1.76615093540E+02	-3.69526559696E+01	1.17083784289E+01	-6.03233751808E+00	-5.70132888372E-01
9.65740637849E+05	-1.42973555851E+01	-1.76988512312E+02	9.89869691431E+00	1.76493848774E+02	-5.36517697850E+01	1.53692352286E+02	-5.99132675328E+00	-4.58937931212E-01
9.87931992444E+05	-1.44153406886E+01	-1.71965381213E+02	9.90505005266E+00	1.76538885889E+02	-4.40126863868E+01	1.65003129952E+02	-5.97640440128E+00	-6.19963615541E-01
1.01012334704E+06	-1.44876600336E+01	-1.58648909976E+02	9.92553568497E+00	1.75930165881E+02	-4.41149825615E+01	-3.28573895502E+01	-5.99885071521E+00	-4.33100829946E-01
1.03231470163E+06	-1.24288141262E+01	-1.71745557358E+02	9.90094045574E+00	1.76094673186E+02	-5.09208978953E+01	-1.61587837541E+02	-5.99530553289E+00	-4.36862601565E-01
1.05450605623E+06	-1.12859119307E+01	-1.60074938215E+02	9.87860057174E+00	1.75885971297E+02	-4.44896087987E+01	1.78164988792E+02	-5.99225766336E+00	-5.14000640711E-01
1.07669741082E+06	-1.15770295894E+01	1.65489743268E+02	9.90939340631E+00	1.75955432631E+02	-5.60840434149E+01	4.46711497054E+01	-5.99338356662E+00	-4.51145223584E-01
1.09888876542E+06	-1.26272390866E+01	1.73481008286E+02	9.91377488363E+00	1.75962205170E+02	-5.14097668713E+01	-7.97320082866E+01	-6.00416734761E+00	-5.05465012440E-01
1.12108012001E+06	-1.09004107174E+01	1.65229152765E+02	9.87802292756E+00	1.75911047514E+02	-6.04648552950E+01	-5.52009793555E+01	-5.98662959971E+00	-4.02124966499E-01
1.14327147461E+06	-1.31365173211E+01	-1.79821456519E+02	9.92946177390E+00	1.75420860390E+02	-5.22739913933E+01	-6.00353659069E+01	-6.00699951866E+00	-5.36762751796E-01
1.16546282920E+06	-1.77194362057E+01	1.76222085664E+02	9.91610754832E+00	1.75486255511E+02	-4.08620797061E+01	-5.32402566311E+01	-6.01334165235E+00	-3.11537076173E-01
1.18765418380E+06	-1.50072913221E+01	1.70860082193E+02	9.90940680735E+00	1.75674496797E+02	-4.85168563285E+01	-1.26082045520E+02	-5.98797660711E+00	-3.98371996619E-01
1.20984553839E+06	-1.53949453812E+01	-1.68873121860E+02	9.90503219191E+00	1.75217940537E+02	-4.21582029162E+01	1.08564308303E+01	-5.99466784530E+00	-7.40335219981E-01
1.23203689299E+06	-1.50622698734E+01	-1.70732467257E+02	9.92414037159E+00	1.75034367483E+02	-4.64459788573E+01	1.67873647254E+02	-5.99488424966E+00	-3.29977237948E-01
1.25422824758E+06	-1.25513004394E+01	-1.72071527110E+02	9.93174129115E+00	1.74704325250E+02	-4.31043375387E+01	1.14522848691E-01	-6.01157748079E+00	-5.95867689231E-01
1.27641960218E+06	-1.59034151201E+01	-1.72238009007E+02	9.90704895650E+00	1.74812744638E+02	-5.12210778238E+01	-1.45766540377E+02	-6.02458860499E+00	-5.59087733570E-01
1.29861095677E+06	-1.36402871503E+01	-1.77913176287E+02	9.89751500575E+00	1.74803627849E+02	-5.38695169513E+01	1.76864607920E+02	-6.00535585558E+00	-4.27991840486E-01
1.32080231137E+06	-1.36139566334E+01	-1.73017514246E+02	9.91116232199E+00	1.74627745818E+02	-5.04665598351E+01	-1.25203220892E+02	-6.00795135848E+00	-9.16698545770E-01
1.34299366596E+06	-1.50515357121E+01	-1.73720180190E+02	9.93056000272E+00	1.74415874445E+02	-3.67387850449E+01	-1.26903965127E+02	-5.97699572957E+00	-4.39142562182E-01
1.36518502056E+06	-1.61132712994E+01	1.74077556767E+02	9.91559299406E+00	1.74483559258E+02	-4.00816820479E+01	-1.50126278790E+02	-5.96240139886E+00	-5.53582641997E-01
1.38737637515E+06	-1.32800758123E+01	1.77470170689E+02	9.91363341550E+00	1.74347474317E+02	-4.81399513120E+01	1.53222923167E+02	-5.99557476475E+00	-5.05182737416E-01
1.40956772975E+06	-1.72851063074E+01	-1.62198886347E+02	9.93010785008E+00	1.74081470156E+02	-4.50528197740E+01	-8.37022778470E+01	-6.00466725720E+00	-6.27326461165E-01
1.43175908434E+06	-1.17228656901E+01	-1.61160433745E+02	9.87616717500E+00	1.73863015837E+02	-5.29351599103E+01	-1.53151803468E+02	-6.00122328286E+00	-6.41106190904E-01
1.45395043894E+06	-1.28726241893E+01	1.69391128890E+02	9.89679941098E+00	1.73846902602E+02	-4.51316720948E+01	2.87834489513E+01	-6.01009929646E+00	-6.84025725309E-01
1.47614179353E+06	-1.23847264938E+01	-1.79635704287E+02	9.90694955215E+00	1.73856712826E+02	-5.14858049005E+01	-6.82471959778E+01	-5.99836896298E+00	-6.15074578004E-01
1.49833314813E+06	-1.21361943664E+01	-1.79514021391E+02	9.88325603280E+00	1.73425354009E+02	-4.46189144327E+01	1.76952048115E+02	-5.96799348728E+00	-7.25894102869E-01
1.52052450272E+06	-1.21815296479E+01	-1.64435525012E+02	9.88009849381E+00	1.73454408136E+02	-3.94144545773E+01	-1.74313652540E+01	-5.99667925077E+00	-6.73331870954E-01
1.54271585732E+06	-1.69509626622E+01	1.72541812003E+02	9.92341533547E+00	1.73698127840E+02	-3.93241971381E+01	6.39848357883E+01	-5.98196581034E+00	-7.34226693059E-01
1.56490721191E+06	-1.67278534838E+01	-1.53075800993E+02	9.95733788649E+00	1.73024747004E+02	-4.02292619547E+01	8.20740175705E+01	-5.98930344352E+00	-8.60853524643E-01
1.58709856651E+06	-1.44701502940E+01	1.53506686400E+02	9.86393221843E+00	1.73315408437E+02	-4.69964836939E+01	-2.92183826325E+00	-6.00968026793E+00	-8.38458792387E-01
1.60928992110E+06	-1.72399213931E+01	-1.74043669025E+02	9.91003415773E+00	1.73263585786E+02	-5.16850814597E+01	-1.34259115757E+02	-5.99504422226E+00	-6.96281669398E-01
1.63148127570E+06	-1.28096457433E+01	1.69175777327E+02	9.91679335656E+00	1.73045501954E+02	-4.55685915762E+01	-1.62249641447E+01	-6.01752851523E+00	-7.63155396961E-01
1.65367263029E+06	-2.21019236972E+01	-1.35709305768E+02	9.98920395957E+00	1.72849469000E+02	-4.21894507900E+01	1.61463492586E+02	-5.97226819046E+00	-5.98266859461E-01
1.67586398489E+06	-1.22842588227E+01	-1.62321773665E+02	9.89649197992E+00	1.72380086909E+02	-4.74611554412E+01	-1.40017780491E+02	-6.00027285979E+00	-7.17353320810E-01
1.69805533948E+06	-1.40610171128E+01	1.78455544267E+02	9.89578892666E+00	1.72741647938E+02	-4.31605352363E+01	1.47751264952E+02	-5.99656156244E+00	-7.88209760491E-01
1.72024669408E+06	-1.09696144758E+01	-1.69495417899E+02	9.89965602349E+00	1.72502030995E+02	-5.47577146026E+01	2.11559814876E+01	-6.00283782669E+00	-7.81165800208E-01
1.74243804867E+06	-1.78272942379E+01	-1.57211258855E+02	9.97458537366E+00	1.72416288178E+02	-4.42452951738E+01	8.40366432818E+01	-5.99453895788E+00	-7.41895921913E-01
1.76462940327E+06	-1.51567086418E+01	-1.62201357464E+02	9.91700040249E+00	1.72194493942E+02	-4.64981636565E+01	1.43292558816E+02	-5.96545180263E+00	-8.95331168230E-01
1.78682075786E+06	-1.82745806074E+01	-1.70401198753E+02	9.96453955617E+00	1.72423625402E+02	-4.04249439923E+01	-1.27231594348E+00	-6.01260626103E+00	-9.82981478982E-01
1.80901211246E+06	-1.43343045213E+01	1.76050113393E+02	9.92685100448E+00	1.72195677423E+02	-4.04285065211E+01	9.01222503663E+01	-5.99705774423E+00	-9.56903748066E-01
1.83120346705E+06	-1.62290307286E+01	-1.52413596331E+02	9.91056676096E+00	1.71819214618E+02	-4.15705936778E+01	6.32999756568E+01	-5.99952676585E+00	-7.96833422385E-01
1.85339482165E+06	-1.28513736025E+01	-1.52257225331E+02	9.95063054887E+00	1.71618452131E+02	-4.50341210139E+01	-9.67640136534E+01	-6.01489070369E+00	-8.11943182942E-01
1.87558617624E+06	-1.33108763364E+01	-1.60829929198E+02	9.94124054637E+00	1.71551659278E+02	-4.35946649441E+01	5.16505508166E+01	-5.99015765076E+00	-8.55065402077E-01
1.89777753084E+06	-1.76399345382E+01	1.67650847229E+02	9.93823017594E+00	1.71881264511E+02	-4.07616644122E+01	2.05144654140E+01	-6.00394501632E+00	-8.88455367000E-01
1.91996888543E+06	-1.38669786290E+01	-1.65503210592E+02	9.94982706996E+00	1.71530083797E+02	-4.00473298890E+01	9.15080775207E+01	-5.99898455276E+00	-1.06283715768E+00
1.94216024003E+06	-1.35069448112E+01	-1.49113972997E+02	9.93862472148E+00	1.71240271159E+02	-4.14891719154E+01	1.30654648707E+02	-5.98695329118E+00	-8.11183789636E-01
1.96435159462E+06	-2.47754290952E+01	2.20064099176E+01	9.99332866792E+00	1.72137810123E+02	-5.26241050512E+01	-7.56160982280E+01	-6.01618432544E+00	-8.73171774944E-01
1.98654294922E+06	-1.68311391230E+01	-1.71947055549E+02	9.94674954784E+00	1.71153807084E+02	-3.86222791286E+01	-1.61581464270E+02	-5.97121906896E+00	-6.11440636164E-01
2.00873430381E+06	-1.40588914176E+01	1.74813234339E+02	9.93990540363E+00	1.71115928602E+02	-3.18716058902E+01	-4.74918005685E+01	-6.04985589869E+00	-7.83311173601E-01
2.03092565841E+06	-1.16852070136E+01	-1.57033005632E+02	9.93608111008E+00	1.70603482553E+02	-6.65036886009E+01	-1.55661458203E+01	-5.99979525142E+00	-9.23244753583E-01
2.05311701300E+06	-1.40208604655E+01	-1.61648506111E+02	9.93841869784E+00	1.70631285910E+02	-4.39787304315E+01	-7.51269066738E+01	-5.99474996124E+00	-6.87132698552E-01
2.07530836760E+06	-1.74837877670E+01	-1.62546895184E+02	9.96973242175E+00	1.70699153374E+02	-4.86795319808E+01	-3.37512975102E+01	-6.00180371509E+00	-8.53135385923E-01
2.09749972219E+06	-1.41361293102E+01	1.68474542046E+02	9.94555198297E+00	1.70552409001E+02	-4.40605977732E+01	3.92838829941E+01	-6.01610331512E+00	-1.05630943878E+00
2.11969107679E+06	-1.18155028033E+01	-1.69459819646E+02	9.92186585659E+00	1.70375322757E+02	-5.49570017937E+01	9.95745499878E+01	-5.99998320163E+00	-9.82980664145E-01
2.14188243138E+06	-8.05651396014E+00	-1.53201672667E+02	9.95846370023E+00	1.69969060752E+02	-3.92978387856E+01	-1.41833119679E+02	-5.98504897265E+00	-8.86418985914E-01
2.16407378598E+06	-1.37913167710E+01	-1.66742779002E+02	9.91463186223E+00	1.70202282309E+02	-3.92122735705E+01	-1.15263912157E+02	-5.99916080947E+00	-7.25754919852E-01
2.18626514057E+06	-1.68484412657E+01	-1.66341407464E+02	9.95903503294E+00	1.70181555958E+02	-4.09610708467E+01	-9.40695038377E+01	-5.98888518800E+00	-7.79470679366E-01
2.20845649517E+06	-1.32786231690E+01	-1.67847381244E+02	9.95114404844E+00	1.69884978064E+02	-4.63575067410E+01	1.61929071386E+02	-5.96490856991E+00	-9.72643286541E-01
2.23064784976E+06	-1.52361394497E+01	-1.75825895873E+02	9.94398250713E+00	1.70230049169E+02	-4.73826570288E+01	-3.41176454714E+01	-5.99162317931E+00	-9.70982879646E-01
2.25283920436E+06	-1.32622779907E+01	-1.76956806662E+02	9.91962944302E+00	1.69875307444E+02	-4.85648462078E+01	-2.09659059427E+01	-6.03003426387E+00	-9.54948720166E-01
2.27503055895E+06	-1.28834457171E+01	-1.78064933215E+02	9.91716597587E+00	1.69581686695E+02	-5.36876770023E+01	-1.78494876808E+01	-5.99021020669E+00	-9.91701286878E-01
2.29722191355E+06	-1.38009258823E+01	1.72963522095E+02	9.95247041907E+00	1.69618026393E+02	-4.68283437937E+01	7.37837025714E+01	-5.98513018281E+00	-1.07849929837E+00
2.31941326814E+06	-1.52072229651E+01	-1.77357027855E+02	9.97209141826E+00	1.69550626068E+02	-3.80241987813E+01	1.31976750605E+01	-5.99363475091E+00	-1.17620166652E+00
2.34160462274E+06	-1.23578175940E+01	-1.55025249820E+02	9.95072216696E+00	1.69136907049E+02	-5.59572050909E+01	-1.20966783019E+02	-6.00211294602E+00	-9.83748642126E-01
2.36379597733E+06	-1.49323636212E+01	1.74513436826E+02	9.94298133984E+00	1.69699186701E+02	-4.68610671120E+01	9.17968252129E+00	-6.00443218679E+00	-1.01817396484E+00
2.38598733193E+06	-1.29534755448E+01	-1.69378271886E+02	9.94021168244E+00	1.69087675434E+02	-4.25557114604E+01	5.73789629668E+01	-5.97148319778E+00	-1.28241828803E+00
2.40817868652E+06	-1.37617183190E+01	-1.70990353159E+02	9.94508157960E+00	1.69234087860E+02	-5.25427797216E+01	-9.78536295862E-01	-5.98718355397E+00	-1.11927217059E+00
2.43037004112E+06	-1.33944256826E+01	-1.79638811521E+02	9.93406201025E+00	1.68832487466E+02	-4.00359600001E+01	-2.52958497725E+01	-6.03353962259E+00	-1.57087438715E+00
2.45256139571E+06	-9.98846626565E+00	-1.73135838797E+02	9.93743038860E+00	1.68505774073E+02	-4.60792096186E+01	1.06965537663E+02	-5.95263284560E+00	-8.83899222786E-01
2.47475275031E+06	-1.36257583942E+01	-1.65799490043E+02	9.92730048786E+00	1.68667060054E+02	-4.53169077139E+01	1.38323895789E+02	-5.96803608790E+00	-9.66254421323E-01
2.49694410490E+06	-1.39206760325E+01	-1.66894219905E+02	9.91973437411E+00	1.68539640288E+02	-5.54109830184E+01	-6.99213615555E+00	-5.98954802861E+00	-1.11833892623E+00
2.51913545950E+06	-1.47640622302E+01	1.70922430758E+02	9.93044675693E+00	1.68765665841E+02	-4.40825844837E+01	-1.44191251126E+02	-5.99757462761E+00	-9.60109419041E-01
2.54132681409E+06	-1.19102465577E+01	-1.65628234415E+02	9.95349539454E+00	1.68373969574E+02	-4.89867042245E+01	-1.70467060440E+02	-5.98527329252E+00	-1.20008935526E+00
2.56351816869E+06	-1.40987273175E+01	-1.68459905127E+02	9.93161173571E+00	1.68347480228E+02	-4.99206827301E+01	-1.10239555736E+02	-5.99295273422E+00	-1.00193011704E+00
2.58570952328E+06	-1.67573333213E+01	-1.67616682466E+02	1.00005102373E+01	1.68365652045E+02	-5.15532616220E+01	-3.16841985569E+01	-5.98953505709E+00	-1.22463673667E+00
2.60790087788E+06	-1.08832500541E+01	1.62978918257E+02	9.87962269982E+00	1.67898944267E+02	-3.60525067785E+01	1.79841718598E+02	-5.96822378176E+00	-9.44114869123E-01
2.63009223247E+06	-1.58313340046E+01	-1.54241226063E+02	9.96725679937E+00	1.68159430226E+02	-3.49599319146E+01	1.28337660066E+01	-6.04826315433E+00	-9.30458951948E-01
2.65228358707E+06	-1.39589994585E+01	1.76383712551E+02	9.95737884996E+00	1.68136515670E+02	-4.25171665061E+01	-1.21954917703E+02	-5.98577537059E+00	-1.05352626619E+00
2.67447494166E+06	-1.47877479229E+01	-1.75317814913E+02	9.95029255051E+00	1.67760442644E+02	-4.53645948611E+01	2.31071502491E+01	-6.02205956385E+00	-1.19954790593E+00
2.69666629626E+06	-1.22480055857E+01	-1.73305505893E+02	9.95930206137E+00	1.67522418232E+02	-4.16518745597E+01	-5.70414139453E+01	-6.03886139644E+00	-1.12004054167E+00
2.71885765085E+06	-1.21483300384E+01	-1.61834491740E+02	9.97824123824E+00	1.67399812884E+02	-4.66665035546E+01	-5.32635516159E+01	-5.99898417909E+00	-1.06049868353E+00
2.74104900545E+06	-1.31008684541E+01	-1.64371757111E+02	9.98449917097E+00	1.67246491384E+02	-4.35155284442E+01	-2.27434525848E+01	-6.01730720021E+00	-1.33180357592E+00
2.76324036004E+06	-1.17633869839E+01	-1.70240664212E+02	9.96259709077E+00	1.67360297012E+02	-4.61345087796E+01	-1.49145638952E+01	-6.02559134223E+00	-1.31475937874E+00
2.78543171463E+06	-1.70744583975E+01	-1.76149229813E+02	9.99826708617E+00	1.67388457786E+02	-3.90837645423E+01	2.96442196050E+01	-6.01723777628E+00	-1.27705998848E+00
2.80762306923E+06	-1.19761064776E+01	-1.63113198597E+02	9.95377303810E+00	1.66956978045E+02	-5.03698362896E+01	-1.28033088445E+02	-6.00025014215E+00	-1.19851311320E+00
2.82981442382E+06	-1.24914895447E+01	-1.45716133039E+02	1.00062662053E+01	1.66906710416E+02	-5.13722277140E+01	3.53134950827E+01	-6.00803541224E+00	-1.34232241901E+00
2.85200577842E+06	-1.28725476952E+01	1.79575265481E+02	9.95374560046E+00	1.66920237180E+02	-4.46060178881E+01	-3.14447274900E+01	-6.02117738788E+00	-1.30552162523E+00
2.87419713301E+06	-1.62315718752E+01	-1.34357577032E+02	1.00237084944E+01	1.67021361887E+02	-4.79181210595E+01	-1.21983536225E+02	-6.01149174390E+00	-1.09224788386E+00
