# Hz S DB R 50
! CMT, M5065, 19127446, 24.2.4/2
! Date: 11/8/2024 2:37:34 PM
! Data: Format (Calibration Info)
! Freq	S11:dB/Ang(F2)	S21:dB/Ang(F2)	S12:dB/Ang(F2)	S22:dB/Ang(F2)
3.00000000000E+05	-1.17944056932E+01	-1.63563644499E+02	4.89578188162E+00	-1.77709662771E+02	-6.39819940967E+01	-9.61007014547E+01	-6.01670279101E+00	-1.19796729686E-01
3.22191354595E+05	-1.30267400134E+01	-1.71204659237E+02	4.89065901135E+00	-1.78159049485E+02	-5.35480275604E+01	1.02913078601E+01	-6.01547141320E+00	-2.74038175637E-01
3.44382709190E+05	-1.25351303226E+01	1.61686787668E+02	4.94693892443E+00	-1.78159943347E+02	-4.58175212037E+01	-3.91864371096E+01	-6.00813086487E+00	-2.81024433414E-01
3.66574063785E+05	-1.19276031891E+01	1.51373295456E+02	4.86866412018E+00	-1.78364766496E+02	-5.15029408674E+01	7.75821145128E+01	-6.02245891953E+00	-4.24464819678E-01
3.88765418380E+05	-1.30222180194E+01	1.73556147106E+02	4.92011515090E+00	-1.78507844526E+02	-4.16300964065E+01	-1.46249091047E+02	-6.01850398275E+00	-2.59968500439E-01
4.10956772975E+05	-1.84954030537E+01	-1.55397482215E+02	4.91951237578E+00	-1.79098816630E+02	-3.89559558986E+01	-1.32713569979E+02	-6.00666424189E+00	-1.78103978762E-01
4.33148127570E+05	-1.69144890297E+01	-1.79145785046E+02	4.93680678891E+00	-1.78852039968E+02	-4.71366138633E+01	2.44711960165E+00	-6.03419463896E+00	-3.53329414280E-01
4.55339482165E+05	-1.35362057898E+01	-1.59791475789E+02	4.96400771242E+00	-1.79565526029E+02	-4.94298278454E+01	1.78119359755E+02	-6.01984349867E+00	-3.31265507746E-01
4.77530836760E+05	-1.56241746090E+01	-1.61230470305E+02	4.90535437343E+00	-1.79533546774E+02	-4.15181770267E+01	-4.71652577865E+01	-6.03053425271E+00	-3.57375773909E-01
4.99722191355E+05	-1.49914726600E+01	-1.44397064319E+02	4.90360638774E+00	1.79718724732E+02	-4.71533871739E+01	-9.98748597673E+01	-6.00754162917E+00	-2.83615721429E-01
5.21913545950E+05	-1.23897126359E+01	1.79713092366E+02	4.91009814094E+00	-1.79690008306E+02	-4.86707543460E+01	1.34315880288E+02	-6.01800511599E+00	-3.97859963720E-01
5.44104900545E+05	-1.25473450964E+01	1.71163451265E+02	4.92972172050E+00	-1.79791185425E+02	-4.06461418692E+01	-4.21032435825E+01	-6.01211741591E+00	-2.19941159513E-01
5.66296255139E+05	-1.68812902005E+01	-1.71992989381E+02	4.92313026532E+00	1.79626770146E+02	-4.28624043491E+01	-1.30515331219E+02	-6.01633620428E+00	-4.49805819476E-01
5.88487609734E+05	-1.30962888597E+01	-1.57568063069E+02	4.96112241615E+00	1.79295670028E+02	-3.92616937295E+01	-9.66393268110E+01	-6.01068144020E+00	-1.74139713767E-01
6.10678964329E+05	-1.38239975973E+01	1.54887586254E+02	4.89390891627E+00	1.79792647561E+02	-4.65352079643E+01	1.48698484821E+02	-5.99964475014E+00	2.26279811486E-01
6.32870318924E+05	-1.03572864403E+01	1.79601359124E+02	4.85002997075E+00	1.79237915229E+02	-6.08524868758E+01	1.04056516257E+02	-5.97532216661E+00	-1.48933772867E-01
6.55061673519E+05	-8.54221910401E+00	1.74678670226E+02	4.86466918329E+00	1.79018839994E+02	-4.41623905414E+01	1.76838003210E+02	-6.00532973397E+00	-2.47321761984E-01
6.77253028114E+05	-1.75029689651E+01	-1.76902472055E+02	4.92739817088E+00	1.79035629265E+02	-6.43171072327E+01	-3.92565483243E+01	-6.02626201925E+00	-6.11785145703E-01
6.99444382709E+05	-1.71025211184E+01	1.56544002826E+02	4.94317993594E+00	1.78919788064E+02	-4.87958565152E+01	2.14762254817E+01	-6.01822348454E+00	-5.59578264865E-01
7.21635737304E+05	-1.58511761910E+01	1.76228841982E+02	4.95007338134E+00	1.78901654798E+02	-4.22702411238E+01	-2.95754869138E+01	-6.03265171776E+00	-3.96095218199E-01
7.43827091899E+05	-1.68525639416E+01	-1.77767081449E+02	4.94373822208E+00	1.78576025469E+02	-4.77979290590E+01	-5.52866077528E+01	-6.00681444065E+00	-4.31220981599E-01
7.66018446494E+05	-1.52657902480E+01	-1.61739209662E+02	4.93795870690E+00	1.78308203787E+02	-4.15216757855E+01	-2.38973668574E+01	-6.02698135573E+00	-3.83962652275E-01
7.88209801089E+05	-1.88731064910E+01	-1.54169255098E+02	4.94139359891E+00	1.78331819952E+02	-5.37777883356E+01	1.62063512751E+02	-6.01037909594E+00	-3.00009685537E-01
8.10401155684E+05	-1.58371041992E+01	-1.46791536809E+02	4.93855978469E+00	1.78525790634E+02	-7.90004729168E+01	-1.68991505105E+02	-6.01763248070E+00	-3.94974746488E-01
8.32592510279E+05	-2.15003688285E+01	1.62916094382E+02	4.93145898501E+00	1.78093087199E+02	-5.36981267807E+01	1.16017653809E+02	-5.99978952082E+00	-4.23890798839E-01
8.54783864874E+05	-1.51266305783E+01	1.71627172910E+02	4.92413748526E+00	1.78212986254E+02	-4.40002226345E+01	-1.20271381953E+02	-6.00089966213E+00	-3.76208511223E-01
8.76975219469E+05	-1.23804589472E+01	1.65506898094E+02	4.89211278460E+00	1.78194384316E+02	-4.14653773274E+01	1.49222527343E+02	-5.99310261884E+00	-3.05817184174E-01
8.99166574064E+05	-1.39990372735E+01	-1.67517092976E+02	4.96367975959E+00	1.77957308761E+02	-4.48849151378E+01	1.76325180422E+02	-5.99839892728E+00	-4.51208262622E-01
9.21357928659E+05	-1.22496196179E+01	-1.66565962644E+02	4.93883084903E+00	1.77782183865E+02	-3.90839813424E+01	1.01923650514E+02	-6.02289699857E+00	-4.94082760596E-01
9.43549283254E+05	-1.67512895212E+01	-1.66437640458E+02	4.97596146016E+00	1.77765045039E+02	-4.06329193306E+01	9.41754735181E+01	-6.00716377019E+00	-5.07986641855E-01
9.65740637849E+05	-1.41895505396E+01	-1.53807194930E+02	4.90772866669E+00	1.77452307708E+02	-3.83016496620E+01	-1.61228655705E+02	-5.98434802786E+00	-3.16396574415E-01
9.87931992444E+05	-1.59956003482E+01	1.62695072754E+02	4.94434114614E+00	1.77659891044E+02	-5.94485328481E+01	4.10421353348E+01	-6.00624909314E+00	-5.58608766545E-01
1.01012334704E+06	-1.45265739569E+01	1.78652818094E+02	4.93053970395E+00	1.77315295637E+02	-5.48382922007E+01	-7.95603575490E+01	-5.99838480016E+00	-5.56970319905E-01
1.03231470163E+06	-1.25332048961E+01	-1.61641171857E+02	4.93485796609E+00	1.77417849899E+02	-4.48450139498E+01	-1.20308215652E+02	-6.00386739052E+00	-4.21619327311E-01
1.05450605623E+06	-1.14054889619E+01	-1.76875404142E+02	4.88584816277E+00	1.76995972546E+02	-4.82102173624E+01	4.16897281636E+01	-6.02633209669E+00	-4.95316276956E-01
1.07669741082E+06	-1.54292227223E+01	-1.65630456706E+02	4.89426758248E+00	1.76890010962E+02	-4.47976249546E+01	9.08782797220E+01	-5.98751848795E+00	-3.76182332483E-01
1.09888876542E+06	-1.53425894073E+01	-1.53440016153E+02	4.91140307188E+00	1.76791680565E+02	-5.44905505537E+01	3.44488664783E+01	-6.00762808193E+00	-5.63657929162E-01
1.12108012001E+06	-1.23582655437E+01	-1.59049610569E+02	4.94359393137E+00	1.76473407151E+02	-4.43343987185E+01	5.66174941803E+01	-6.00388150951E+00	-5.49714175023E-01
1.14327147461E+06	-1.61806939907E+01	1.68494377406E+02	4.96258053304E+00	1.76896583240E+02	-4.85754402874E+01	1.12861512560E+02	-5.99900438859E+00	-4.92482553898E-01
1.16546282920E+06	-1.42170692063E+01	1.47546525564E+02	4.94455314199E+00	1.76662922616E+02	-4.35855762981E+01	-1.22098236542E+02	-5.99306024474E+00	-3.62967444949E-01
1.18765418380E+06	-1.93423091777E+01	-1.74587240827E+02	4.96176618609E+00	1.76588988485E+02	-4.46903166845E+01	6.94496907734E+01	-6.01692971875E+00	-5.75985918276E-01
1.20984553839E+06	-1.18998565775E+01	-1.56905536805E+02	4.94033478833E+00	1.76131168694E+02	-4.09982177099E+01	7.27060863880E+01	-6.00380283359E+00	-6.76870331411E-01
1.23203689299E+06	-1.65847178179E+01	-1.71472683823E+02	4.97244843720E+00	1.76215287482E+02	-4.64642007224E+01	-4.13233609472E+01	-6.01058125016E+00	-2.21846740669E-01
1.25422824758E+06	-1.39462220036E+01	-1.79416642655E+02	4.95039478134E+00	1.76206817557E+02	-4.32147907350E+01	-1.39131086135E+02	-6.04198996431E+00	-4.20855667351E-01
1.27641960218E+06	-1.74915630233E+01	-1.71130453481E+02	4.97487976092E+00	1.76227070708E+02	-5.32698687082E+01	1.98281632524E+01	-6.01552045318E+00	-6.88982165438E-01
1.29861095677E+06	-1.26754923858E+01	-1.75227125181E+02	4.95818400418E+00	1.76240748584E+02	-4.36136449655E+01	-2.26923818547E+01	-5.99685929055E+00	-5.10530249412E-01
1.32080231137E+06	-1.35462346112E+01	1.75288489762E+02	4.92502561814E+00	1.75898583342E+02	-4.28612557552E+01	1.25571312385E+02	-6.00533532788E+00	-9.24603773628E-01
1.34299366596E+06	-1.36350626567E+01	-1.71305177732E+02	4.95049652138E+00	1.76070028256E+02	-4.12900856618E+01	-1.32550904661E+02	-5.99717013554E+00	-6.29303721060E-01
1.36518502056E+06	-1.22104411596E+01	-1.79448496049E+02	4.88848271912E+00	1.75860443648E+02	-4.08010351983E+01	-4.88982689794E+01	-6.05051533538E+00	-6.64182936581E-01
1.38737637515E+06	-1.64559022866E+01	-1.62257448466E+02	4.94117779026E+00	1.75702415639E+02	-3.96391368356E+01	1.14514095389E+02	-5.99448276769E+00	-6.59231601280E-01
1.40956772975E+06	-1.32653910617E+01	-1.74620747592E+02	4.87549195823E+00	1.75762730886E+02	-4.78127793191E+01	1.69913930220E+02	-6.01094407505E+00	-5.99048717805E-01
1.43175908434E+06	-1.67686324249E+01	1.75368085202E+02	4.94215895986E+00	1.75671959044E+02	-4.03935325905E+01	1.31989979851E+02	-6.00434704925E+00	-6.95575081448E-01
1.45395043894E+06	-9.12614304231E+00	-1.63437001508E+02	4.87320958560E+00	1.75120193251E+02	-5.55092783239E+01	3.97147575635E+01	-6.02997811202E+00	-5.81391502177E-01
1.47614179353E+06	-1.40371844374E+01	1.74673769864E+02	4.96346529651E+00	1.75408216646E+02	-5.14528141267E+01	-6.10623344007E+00	-6.00920969498E+00	-4.67807633240E-01
1.49833314813E+06	-1.54147254246E+01	1.73589800087E+02	4.96054719629E+00	1.75116277488E+02	-4.82552270785E+01	-1.32256375667E+02	-6.00048441448E+00	-6.49954665577E-01
1.52052450272E+06	-1.45860309849E+01	-1.65520598548E+02	4.89630611838E+00	1.75206250179E+02	-4.52803339813E+01	-1.60966692710E+02	-6.01822097804E+00	-6.71428844535E-01
1.54271585732E+06	-1.25061107089E+01	-1.70607379386E+02	4.92232638167E+00	1.75190212080E+02	-3.74738102725E+01	-6.69034719960E+00	-6.01332646247E+00	-7.81289205068E-01
1.56490721191E+06	-1.35926257936E+01	1.76911961695E+02	4.91280478966E+00	1.75235455166E+02	-4.03500266050E+01	-7.03839807636E+01	-6.00292262730E+00	-5.07264738497E-01
1.58709856651E+06	-1.46959040575E+01	-1.78842521413E+02	4.93897612308E+00	1.75178613862E+02	-4.06909623865E+01	1.23794362722E+01	-5.99069137963E+00	-5.97823304650E-01
1.60928992110E+06	-1.72937661893E+01	-1.61689218500E+02	4.98903633128E+00	1.74862806834E+02	-4.57946050770E+01	-1.16893422256E+01	-6.02397740917E+00	-7.34588772680E-01
1.63148127570E+06	-1.32081386362E+01	-1.61431881104E+02	4.96718582344E+00	1.74426319654E+02	-4.87266581621E+01	-3.62409859919E+00	-6.03006484089E+00	-6.46619265610E-01
1.65367263029E+06	-1.35106522213E+01	-1.65128558963E+02	4.94870883899E+00	1.74778477148E+02	-4.14692384503E+01	-8.46701970033E+01	-5.98641706156E+00	-7.86712947240E-01
1.67586398489E+06	-1.51665829697E+01	-1.29366435334E+02	4.90855517091E+00	1.74390617344E+02	-3.85695421409E+01	1.07675412892E+02	-6.00086177207E+00	-8.57141926692E-01
1.69805533948E+06	-1.47033719272E+01	1.72756560423E+02	4.96538061460E+00	1.74890747944E+02	-3.88169541418E+01	4.68533058475E+01	-6.00080780167E+00	-7.26185675661E-01
1.72024669408E+06	-1.94255372706E+01	1.77882015698E+02	4.98068132123E+00	1.74329499873E+02	-4.12027059489E+01	-1.25087612704E+01	-6.01697406483E+00	-7.36140240109E-01
1.74243804867E+06	-1.13496031985E+01	-1.78751011263E+02	4.94237923193E+00	1.73839278190E+02	-5.20696923130E+01	2.83787245461E+01	-6.02662019506E+00	-7.52346802892E-01
1.76462940327E+06	-1.12041163826E+01	1.34411095062E+02	4.87785416754E+00	1.74426659294E+02	-4.57263310266E+01	1.20914904364E+01	-6.05218467333E+00	-9.42299320756E-01
1.78682075786E+06	-1.40328969404E+01	1.72172424537E+02	4.91766117852E+00	1.74397801046E+02	-4.63526733885E+01	-1.29560304583E+02	-5.99001850854E+00	-6.99923488106E-01
1.80901211246E+06	-1.20449002603E+01	-1.68422204434E+02	4.96226851382E+00	1.73967426620E+02	-5.20696028341E+01	-1.48847119637E+02	-6.00764792760E+00	-8.14708209378E-01
1.83120346705E+06	-1.21538886583E+01	-1.62739235411E+02	4.96668384287E+00	1.73855116922E+02	-5.59761391128E+01	5.26343748973E+01	-6.01514699635E+00	-8.12886875726E-01
1.85339482165E+06	-1.77087135677E+01	-1.32630939757E+02	4.98385048116E+00	1.73762513681E+02	-3.97000070030E+01	-7.03146112865E+00	-6.00370807140E+00	-1.00486367790E+00
1.87558617624E+06	-1.56562399455E+01	1.68366304958E+02	4.99316304256E+00	1.73619636196E+02	-3.86429012237E+01	-1.40501945740E+02	-5.99397104248E+00	-7.20062859884E-01
1.89777753084E+06	-1.28739283642E+01	-1.57423602958E+02	4.99751323372E+00	1.73440606747E+02	-4.57166753778E+01	7.66132992318E+01	-5.99623249154E+00	-9.09119571090E-01
1.91996888543E+06	-2.07594318518E+01	1.76738884609E+02	4.94587664040E+00	1.73949600918E+02	-5.09614004850E+01	-1.01416290684E+02	-6.00993187466E+00	-7.33936745702E-01
1.94216024003E+06	-1.22288109432E+01	-1.75427842869E+02	4.87475063377E+00	1.73891419935E+02	-5.26912263367E+01	-5.93042730026E+01	-5.98739279653E+00	-7.87728402778E-01
1.96435159462E+06	-1.42893703246E+01	-1.76667783782E+02	4.95828729054E+00	1.73303988523E+02	-4.48567480492E+01	-8.15338432270E+01	-6.03114604408E+00	-7.12242094008E-01
1.98654294922E+06	-1.44222550283E+01	-1.66229502896E+02	4.97088657736E+00	1.73564190757E+02	-5.21865889032E+01	-5.66291288510E+01	-6.01155394362E+00	-7.36571947689E-01
2.00873430381E+06	-1.47272022438E+01	-1.56700552337E+02	4.97295859125E+00	1.73313249036E+02	-4.24515355066E+01	9.23036779553E+01	-5.99640434127E+00	-8.50471697653E-01
2.03092565841E+06	-1.47920776720E+01	-1.78736064701E+02	4.94526263379E+00	1.73282051383E+02	-4.76021685170E+01	1.35101702601E+02	-5.99936813027E+00	-8.72546719882E-01
2.05311701300E+06	-1.03177238707E+01	-1.39019310805E+02	5.01102104405E+00	1.73144170683E+02	-3.86446575366E+01	1.16269662685E+02	-6.01320737162E+00	-1.07874018000E+00
2.07530836760E+06	-1.03210212134E+01	-1.52360127635E+02	4.94760909097E+00	1.73025570572E+02	-5.50036156478E+01	1.25268288262E+01	-6.00829777401E+00	-9.44849207220E-01
2.09749972219E+06	-1.70867630277E+01	-1.61961498595E+02	4.96394806036E+00	1.73026502744E+02	-4.28683393729E+01	-1.20971163818E+02	-6.01740998515E+00	-8.41131121943E-01
2.11969107679E+06	-1.23933562480E+01	1.79567517286E+02	4.92693850033E+00	1.72967192997E+02	-4.74152673992E+01	-1.69599319817E+02	-5.99070976220E+00	-9.44432600233E-01
2.14188243138E+06	-1.48519299540E+01	1.71322338339E+02	4.96256263293E+00	1.73133406469E+02	-3.74719127314E+01	-1.21586915112E+02	-6.01323139758E+00	-8.45677121220E-01
2.16407378598E+06	-1.48257642736E+01	-1.59074963062E+02	4.96099193245E+00	1.72843136395E+02	-6.55602140912E+01	2.82223894203E+01	-5.99342298128E+00	-7.77163059050E-01
2.18626514057E+06	-1.16540568601E+01	-1.67884784238E+02	4.94239135857E+00	1.72144744716E+02	-4.50922741312E+01	-1.39691262955E+02	-5.98880663394E+00	-8.58526078077E-01
2.20845649517E+06	-1.53690313287E+01	-1.78627574262E+02	4.99200565208E+00	1.72477309701E+02	-5.01375298801E+01	1.22600166767E+02	-6.00322596364E+00	-1.06396400485E+00
2.23064784976E+06	-1.46606470182E+01	-1.46763451431E+02	4.96434339912E+00	1.72062084322E+02	-4.70798321611E+01	-1.28132829171E+02	-5.99567357787E+00	-9.83554312861E-01
2.25283920436E+06	-1.39512812596E+01	1.78220447249E+02	4.95613329010E+00	1.72457031586E+02	-4.48093639191E+01	-3.12695942134E+01	-6.03082747069E+00	-9.06673425413E-01
2.27503055895E+06	-1.39799161786E+01	-1.64549538273E+02	5.01699153924E+00	1.72331587034E+02	-4.29002632559E+01	-6.77648434467E+01	-6.01583206096E+00	-9.50348653385E-01
2.29722191355E+06	-1.30839816970E+01	-1.66743673895E+02	4.94217983567E+00	1.72042224379E+02	-4.44178191347E+01	-1.60985084872E+02	-5.99567372484E+00	-8.10197438020E-01
2.31941326814E+06	-1.34932297296E+01	-1.62626627280E+02	4.99005070467E+00	1.72133880645E+02	-2.93646951057E+01	1.30063879000E+02	-5.96829329812E+00	-8.43629584082E-01
2.34160462274E+06	-1.54758544015E+01	-1.50927952397E+02	4.99141483911E+00	1.71944605413E+02	-5.05305161097E+01	9.13147814125E+01	-6.03978068906E+00	-1.08433425636E+00
2.36379597733E+06	-1.07721420183E+01	-1.61241494574E+02	4.98489864779E+00	1.71572464007E+02	-4.46762538369E+01	-3.23141172053E+01	-6.01948205882E+00	-1.05691615414E+00
2.38598733193E+06	-9.58790590617E+00	1.65262359787E+02	4.86965195261E+00	1.71291849139E+02	-4.87238531086E+01	1.25975950055E+02	-6.01289099199E+00	-9.56826814678E-01
2.40817868652E+06	-1.25573380057E+01	-1.63222918796E+02	4.96951665729E+00	1.71784440800E+02	-4.65509225155E+01	-2.38032038106E+01	-5.99696832505E+00	-1.16499788350E+00
2.43037004112E+06	-1.12957583037E+01	-1.62216616601E+02	4.93896824044E+00	1.71423206243E+02	-4.71131548235E+01	1.69625074697E+02	-6.00364739414E+00	-1.40122748571E+00
2.45256139571E+06	-1.52323993233E+01	-1.56100610240E+02	4.96982469644E+00	1.71177108019E+02	-5.98271593210E+01	-1.66098799215E+02	-6.00808998966E+00	-9.75601910001E-01
2.47475275031E+06	-1.44812730821E+01	-1.51809801522E+02	4.99501051309E+00	1.71437084668E+02	-4.58007887003E+01	1.70033044181E+02	-5.99496523759E+00	-1.07658862665E+00
2.49694410490E+06	-1.22201560571E+01	-1.71678946535E+02	4.94156377769E+00	1.71161354466E+02	-5.28305300408E+01	-1.01171379241E+01	-6.00748944604E+00	-9.04333389269E-01
2.51913545950E+06	-1.39522675755E+01	-1.77973016210E+02	4.93556197567E+00	1.71432911342E+02	-4.98977106167E+01	1.07038893312E+02	-6.00812656216E+00	-1.05341926169E+00
2.54132681409E+06	-1.28026135206E+01	-1.75150317818E+02	4.93202786292E+00	1.71154545545E+02	-5.05085833235E+01	6.24428412417E+01	-6.01588171263E+00	-1.03531225367E+00
2.56351816869E+06	-1.48244721307E+01	-1.46340733675E+02	5.01058230378E+00	1.71210316860E+02	-4.73806512527E+01	8.47824258418E+01	-6.01186786735E+00	-1.21569605817E+00
2.58570952328E+06	-1.50147580986E+01	-1.73501113448E+02	4.96825970519E+00	1.71422024642E+02	-4.27318666321E+01	1.00912555199E+02	-5.99322166414E+00	-1.26915635228E+00
2.60790087788E+06	-1.39301004243E+01	1.79588983688E+02	4.96097662429E+00	1.70962682313E+02	-4.19888373187E+01	-4.74016679393E+01	-6.04031249954E+00	-9.45159171237E-01
2.63009223247E+06	-1.41677849234E+01	1.69041899032E+02	4.99665107122E+00	1.70959623549E+02	-3.95479238313E+01	5.16836363399E+01	-6.00820162957E+00	-7.70178201794E-01
2.65228358707E+06	-1.44916930109E+01	-1.69339866593E+02	4.93969016160E+00	1.70706472891E+02	-4.76995933258E+01	-5.07833529873E+01	-6.00984602855E+00	-1.19262381004E+00
2.67447494166E+06	-1.44224504998E+01	-1.76395414950E+02	4.94381943066E+00	1.70818700309E+02	-4.05712956599E+01	-2.17054309880E+01	-6.02853052740E+00	-1.14259890363E+00
2.69666629626E+06	-1.37756045838E+01	-1.57096286170E+02	5.04330353049E+00	1.70803779633E+02	-4.57422515402E+01	1.61902108216E+02	-6.01581998269E+00	-1.04992048284E+00
2.71885765085E+06	-1.00108432809E+01	-1.77408944854E+02	4.91141680457E+00	1.70323014953E+02	-4.94094374997E+01	8.67560245949E+01	-6.00689517314E+00	-1.16759063464E+00
2.74104900545E+06	-1.43191217211E+01	-1.61070202140E+02	5.05467778843E+00	1.70235472595E+02	-4.01768106246E+01	-5.16127169535E+01	-6.02603316392E+00	-1.07831116204E+00
2.76324036004E+06	-1.49364810548E+01	-1.69459144110E+02	4.98539018757E+00	1.70140756245E+02	-4.31524415058E+01	8.43390274733E+01	-5.99089590969E+00	-1.33152543515E+00
2.78543171463E+06	-1.33687909541E+01	-1.73039111620E+02	4.96219169299E+00	1.70297850821E+02	-3.76492099672E+01	5.44977002664E+01	-6.00143844104E+00	-1.29270439216E+00
2.80762306923E+06	-1.59146564486E+01	-1.69540821020E+02	5.02527947111E+00	1.70902974662E+02	-4.81170566744E+01	4.19625517276E+01	-6.02053447099E+00	-1.15608351454E+00
2.82981442382E+06	-1.20545388036E+01	-1.36564057918E+02	5.02230521777E+00	1.69817825065E+02	-4.42129028993E+01	1.71812316820E+02	-6.02013584740E+00	-1.15307590230E+00
2.85200577842E+06	-1.24959119096E+01	1.41471523629E+02	4.96069192242E+00	1.70331896960E+02	-4.55599217600E+01	1.78728907411E+02	-5.99740970594E+00	-1.14153913075E+00
2.87419713301E+06	-1.27627057849E+01	1.77684828748E+02	4.95466077316E+00	1.69901229168E+02	-4.59430807051E+01	-4.33271659909E+01	-5.98907017744E+00	-1.25042654486E+00
