# Hz S DB R 50
! CMT, M5065, 19127446, 24.2.4/2
! Date: 11/8/2024 3:16:14 PM
! Data: Format (Calibration Info)
! Freq	S11:dB/Ang(F2)	S21:dB/Ang(F2)	S12:dB/Ang(F2)	S22:dB/Ang(F2)
3.00000000000E+05	-1.28946925036E+01	1.74373714645E+02	1.52070515887E+01	-1.77033728588E+02	-6.65197324634E+01	-3.46944272419E+01	-5.99300166473E+00	-4.18594742024E-01
3.22191354595E+05	-1.80202407130E+01	-1.79722375297E+02	1.52610642739E+01	-1.77732719182E+02	-5.11881691404E+01	3.85400892937E+01	-6.00815079094E+00	-3.70718377956E-01
3.44382709190E+05	-1.26712012870E+01	-1.76472562641E+02	1.52331608029E+01	-1.78168485704E+02	-4.54160792727E+01	4.05740482215E+01	-5.99601792954E+00	-4.82042190015E-01
3.66574063785E+05	-1.34774678767E+01	1.49652132963E+02	1.52359357565E+01	-1.78265912508E+02	-3.86126886704E+01	-1.36179863945E+02	-5.97975491901E+00	-9.14672712635E-02
3.88765418380E+05	-1.16706161084E+01	-1.68157335831E+02	1.52771759187E+01	-1.79046686848E+02	-5.53711153778E+01	-5.61451477442E+01	-6.02547724322E+00	-2.49172666577E-01
4.10956772975E+05	-1.45412140824E+01	-1.63591133553E+02	1.52498267794E+01	-1.79375905506E+02	-3.73234769882E+01	1.20982066874E+02	-5.98351749317E+00	-6.54847291771E-01
4.33148127570E+05	-1.16326983047E+01	-1.68169590190E+02	1.52216719477E+01	-1.79868177217E+02	-3.71526431930E+01	1.70448657617E+02	-5.93420256127E+00	-4.26556722733E-01
4.55339482165E+05	-1.39488960356E+01	-1.70319491640E+02	1.52743354125E+01	1.79823311496E+02	-4.46871828289E+01	3.72488632241E+01	-6.00391690934E+00	-5.06486880043E-01
4.77530836760E+05	-1.23029085394E+01	1.75979999923E+02	1.52138302480E+01	1.79703360336E+02	-4.99959568522E+01	-6.87478223077E+01	-5.99712916318E+00	-2.39190681926E-01
4.99722191355E+05	-1.46881403817E+01	1.55230967055E+02	1.52484605898E+01	1.79691113975E+02	-4.28141508393E+01	-8.25224240136E+01	-5.99628548659E+00	5.14733134046E-02
5.21913545950E+05	-1.16955826786E+01	1.78004677441E+02	1.52207797329E+01	1.79189104451E+02	-4.49204543024E+01	9.99609081375E+01	-5.97403576274E+00	-3.92616244037E-01
5.44104900545E+05	-1.13703480394E+01	1.79263907571E+02	1.52389836108E+01	1.79055909702E+02	-6.37622607754E+01	1.11311756461E+02	-6.00042153148E+00	-4.61329415351E-01
5.66296255139E+05	-1.37435224616E+01	-1.68458573111E+02	1.52608523995E+01	1.78607694135E+02	-4.14160581809E+01	-1.29045013527E+02	-5.99546496686E+00	-2.01989552195E-01
5.88487609734E+05	-1.57471433154E+01	1.74658625274E+02	1.52694438948E+01	1.78353512621E+02	-3.53865759230E+01	4.60934720112E+01	-6.00801332985E+00	-5.83110223804E-01
6.10678964329E+05	-1.35454315235E+01	1.77600773400E+02	1.52241343644E+01	1.78114133002E+02	-4.45835966723E+01	-8.32604417199E+01	-6.01415403225E+00	2.42696680954E-01
6.32870318924E+05	-1.10533288753E+01	-1.74229739861E+02	1.52071290209E+01	1.77742300287E+02	-4.91169053388E+01	-1.77236927831E+02	-5.97091797267E+00	-1.59074632457E-01
6.55061673519E+05	-1.06790463124E+01	-1.78690248372E+02	1.52268703616E+01	1.77577384057E+02	-5.52620673987E+01	1.70751310079E+02	-5.98307667824E+00	-3.17562797942E-01
6.77253028114E+05	-1.72317529073E+01	-1.35540331057E+02	1.52697041203E+01	1.77415634962E+02	-4.64776197200E+01	6.52475483902E-01	-6.03566781972E+00	-6.60874071971E-01
6.99444382709E+05	-1.47742434945E+01	-1.78683211762E+02	1.52481786311E+01	1.77084601533E+02	-5.21722669970E+01	1.34179089326E+02	-6.00141383484E+00	-5.14868908943E-01
7.21635737304E+05	-1.23032924365E+01	-1.72782736289E+02	1.52131272694E+01	1.77006452237E+02	-4.28121467445E+01	1.40926062908E+02	-5.95910724168E+00	-6.53740549409E-01
7.43827091899E+05	-1.30316688504E+01	-1.68643516545E+02	1.52291329404E+01	1.76683459570E+02	-4.19129467238E+01	-2.38108408104E+01	-5.99822609884E+00	-5.44703999930E-01
7.66018446494E+05	-1.63899674682E+01	-1.60083230578E+02	1.52764173179E+01	1.76524401348E+02	-5.32350427363E+01	7.03529146907E+01	-6.01111628545E+00	-3.31777946755E-01
7.88209801089E+05	-1.13125105185E+01	-1.65188247683E+02	1.52172747458E+01	1.76155356873E+02	-4.66723495376E+01	-1.04936448371E+02	-5.99375876358E+00	-2.08603026677E-01
8.10401155684E+05	-1.55458635530E+01	1.60522072622E+02	1.52333109103E+01	1.76337139913E+02	-4.35439417847E+01	1.07510872799E+02	-6.00167897425E+00	-6.61106276506E-01
8.32592510279E+05	-8.01231133404E+00	-1.72501012296E+02	1.52096968761E+01	1.75883144962E+02	-3.69813406467E+01	-5.97009585037E+01	-6.04072467981E+00	-1.06445213249E-01
8.54783864874E+05	-1.52978091848E+01	-1.54370692667E+02	1.52347302768E+01	1.75640242539E+02	-4.08229211866E+01	-6.68051123274E+01	-6.01342003155E+00	-3.24040732378E-01
8.76975219469E+05	-2.18682126512E+01	1.73472424383E+02	1.52543246381E+01	1.75772961680E+02	-4.63851388904E+01	-5.47315022200E+01	-6.02019584239E+00	-3.74737933201E-01
8.99166574064E+05	-1.22258190054E+01	1.70200967879E+02	1.52274763290E+01	1.75624723948E+02	-5.67383931971E+01	-1.49042473205E+02	-5.99341841250E+00	-4.15832997242E-01
9.21357928659E+05	-1.32750668090E+01	-1.67579958859E+02	1.52161798709E+01	1.75215698822E+02	-4.74167006541E+01	1.58775190935E+02	-5.98517916898E+00	-3.76523697010E-01
9.43549283254E+05	-1.37651349912E+01	-1.65045841654E+02	1.52420626129E+01	1.74920739004E+02	-5.30325876955E+01	-8.33972018754E+01	-6.00642091326E+00	-4.67000467710E-01
9.65740637849E+05	-1.33991569384E+01	1.64378494811E+02	1.52167693125E+01	1.75046107957E+02	-4.28305037343E+01	-1.41067741714E+02	-5.96899623933E+00	-3.09042453110E-01
9.87931992444E+05	-1.54564920205E+01	1.70781188920E+02	1.52393416168E+01	1.74782953860E+02	-4.51909216121E+01	8.30649474321E+01	-6.00787990626E+00	-5.52467379447E-01
1.01012334704E+06	-1.32764642492E+01	-1.78143143961E+02	1.52476043643E+01	1.74439507542E+02	-4.87507789858E+01	-8.86740028720E+01	-5.99705106397E+00	-3.32932537153E-01
1.03231470163E+06	-1.36375810852E+01	1.74872088600E+02	1.52276515393E+01	1.74401901797E+02	-4.27554537896E+01	-5.59815084274E+01	-6.04178042603E+00	-2.73792087871E-01
1.05450605623E+06	-1.39266138987E+01	-1.63663866504E+02	1.52312244062E+01	1.74015715085E+02	-4.39952831810E+01	1.44635115178E+02	-5.96428714680E+00	-6.84983457754E-01
1.07669741082E+06	-1.23732894313E+01	1.59811373524E+02	1.51961873490E+01	1.74223500607E+02	-4.74217391860E+01	9.42632182608E+00	-6.01545695502E+00	-5.98805514946E-01
1.09888876542E+06	-1.52541202030E+01	-1.75846915373E+02	1.52484249688E+01	1.73635799106E+02	-4.23963584321E+01	1.30747945915E+02	-6.00223719548E+00	-7.31312649523E-01
1.12108012001E+06	-1.16417562639E+01	-1.76176883107E+02	1.52137170439E+01	1.73598734322E+02	-5.17614139124E+01	1.78521408355E+02	-5.97876660623E+00	-5.38272881275E-01
1.14327147461E+06	-1.41588513237E+01	-1.72782461990E+02	1.52283719385E+01	1.73392876879E+02	-4.30135779215E+01	-1.61137859185E+02	-5.97279812061E+00	-4.04639912742E-01
1.16546282920E+06	-1.88272172269E+01	-1.70029918836E+02	1.52740960847E+01	1.73320017934E+02	-4.99289491673E+01	-8.46927539259E+01	-6.00267620808E+00	-4.28639298795E-01
1.18765418380E+06	-1.36113282699E+01	1.79718056781E+02	1.52335386793E+01	1.73168605701E+02	-4.15557751565E+01	9.40610080574E+01	-5.99047523388E+00	-8.08941533050E-01
1.20984553839E+06	-1.51792184502E+01	-1.67486882239E+02	1.51993018244E+01	1.72867409985E+02	-3.43790449912E+01	3.04275936927E+01	-6.03039852629E+00	-9.26074524430E-01
1.23203689299E+06	-1.69735944334E+01	-1.78287935999E+02	1.52414950748E+01	1.72963846991E+02	-4.89151008140E+01	1.12285267633E+02	-5.99487847863E+00	-3.47397846833E-01
1.25422824758E+06	-1.32137263058E+01	-1.67235417238E+02	1.52224061433E+01	1.72458270426E+02	-4.36697178733E+01	5.04597675224E+01	-6.02272691924E+00	-6.32368886834E-01
1.27641960218E+06	-1.17562815732E+01	1.70161108068E+02	1.51854488850E+01	1.72500410977E+02	-4.90669676670E+01	-1.06196948275E+02	-5.99547679619E+00	-3.93378303276E-01
1.29861095677E+06	-1.13566696240E+01	-1.63443575411E+02	1.52409247730E+01	1.72149194114E+02	-4.91624424123E+01	-1.23946607587E+02	-5.98885066808E+00	-3.95956022392E-01
1.32080231137E+06	-1.45009930391E+01	-1.54531929517E+02	1.52521538299E+01	1.71958151881E+02	-5.68688677338E+01	-6.01000525621E+01	-6.01834141732E+00	-9.06867307506E-01
1.34299366596E+06	-1.32016011058E+01	1.78987809742E+02	1.52146364237E+01	1.71951734678E+02	-4.31894828541E+01	-1.15773844356E+02	-5.99237194183E+00	-6.16377340325E-01
1.36518502056E+06	-1.34941977567E+01	-1.75174671602E+02	1.52007253652E+01	1.71710181664E+02	-4.56930269259E+01	-1.09402401618E+02	-6.01301330034E+00	-3.95022340375E-01
1.38737637515E+06	-1.31937129117E+01	-1.70009167239E+02	1.52330187915E+01	1.71523534785E+02	-4.10007983046E+01	-8.04177670145E+01	-6.03007370620E+00	-3.90250400382E-01
1.40956772975E+06	-1.57217060530E+01	1.58406013966E+02	1.52194005546E+01	1.71850992496E+02	-4.60045180242E+01	-3.40318981957E+01	-6.03326006586E+00	-6.18823367508E-01
1.43175908434E+06	-1.13994607613E+01	-1.76566070815E+02	1.52040596141E+01	1.71346160185E+02	-5.18053584059E+01	-3.98366662787E+01	-6.02180589290E+00	-5.74937969403E-01
1.45395043894E+06	-1.74862883234E+01	1.54976138259E+02	1.52241275676E+01	1.71459991528E+02	-4.20883533454E+01	8.61892895259E+01	-5.99618177684E+00	-8.49738421938E-01
1.47614179353E+06	-1.25571587468E+01	-1.59150925598E+02	1.52299720799E+01	1.70675306491E+02	-4.48897641585E+01	-4.17614805010E+01	-6.01585978725E+00	-5.05939224433E-01
1.49833314813E+06	-1.65081256716E+01	1.78545290858E+02	1.52317174959E+01	1.71008448049E+02	-4.14246728769E+01	-1.69009951541E+02	-5.98851010741E+00	-4.80200508911E-01
1.52052450272E+06	-1.68944969308E+01	-1.79973109662E+02	1.52485569835E+01	1.70744131716E+02	-5.39178877342E+01	-1.52470060384E+02	-6.00814680374E+00	-6.06725661380E-01
1.54271585732E+06	-1.19457020775E+01	-1.53819757146E+02	1.52346608018E+01	1.70230538532E+02	-4.33216697955E+01	-4.97202515928E+01	-5.99481002623E+00	-6.78089515389E-01
1.56490721191E+06	-1.20469679244E+01	-1.66677144462E+02	1.52283828041E+01	1.70141061572E+02	-4.33236698746E+01	1.58718922939E+02	-5.97252063126E+00	-8.27112253933E-01
1.58709856651E+06	-1.43556395195E+01	-1.56972411473E+02	1.52334577595E+01	1.70103733582E+02	-4.95888396910E+01	1.46627691841E+02	-5.97659870911E+00	-5.86294187510E-01
1.60928992110E+06	-1.24457310193E+01	-1.64500572616E+02	1.52410505549E+01	1.69973970011E+02	-4.45456908631E+01	1.00424889446E+02	-5.98319332578E+00	-8.44647500675E-01
1.63148127570E+06	-1.99943492683E+01	-1.42135791850E+02	1.52855171934E+01	1.69925715228E+02	-4.71706675135E+01	-3.76335905734E+01	-6.01362228250E+00	-5.48469229549E-01
1.65367263029E+06	-1.27348504884E+01	-1.69167204799E+02	1.52195171065E+01	1.69546835238E+02	-4.38125849234E+01	-1.62078389658E+01	-6.02241387177E+00	-6.64760813706E-01
1.67586398489E+06	-1.41760211487E+01	-1.58504685670E+02	1.52473353795E+01	1.69481376813E+02	-4.97995264910E+01	8.21554626110E+01	-6.00749865592E+00	-6.88960519385E-01
1.69805533948E+06	-1.59302477530E+01	1.79687174462E+02	1.52359922001E+01	1.69554925773E+02	-4.72289641458E+01	9.17722678177E+01	-6.00721168202E+00	-8.99048708020E-01
1.72024669408E+06	-1.41835643082E+01	-1.54482364367E+02	1.52657104066E+01	1.69036407942E+02	-4.58081647088E+01	7.99077879561E+01	-6.02118256246E+00	-1.05321454566E+00
1.74243804867E+06	-1.26526071000E+01	1.74163085256E+02	1.52218330647E+01	1.68948730416E+02	-4.76287331989E+01	-9.37459551816E-01	-5.99297397791E+00	-9.29476749068E-01
1.76462940327E+06	-1.01148722711E+01	1.77553249250E+02	1.52083579674E+01	1.68789749274E+02	-4.72015862834E+01	9.78261617435E+01	-5.99446551496E+00	-8.26455871891E-01
1.78682075786E+06	-1.32372479830E+01	1.57469566497E+02	1.52080591091E+01	1.68892780944E+02	-5.07275888028E+01	-1.05091796474E+01	-6.02126021024E+00	-9.34516424711E-01
1.80901211246E+06	-1.84516494728E+01	1.77113521642E+02	1.52445419831E+01	1.68602952783E+02	-4.52348874547E+01	9.51938871830E+01	-5.97995088575E+00	-9.19182089223E-01
1.83120346705E+06	-1.16875971145E+01	-1.76755356938E+02	1.51860980842E+01	1.68521057937E+02	-3.59785025824E+01	8.67812119025E+01	-5.94804963254E+00	-1.06691915489E+00
1.85339482165E+06	-1.53883354080E+01	-1.78780364668E+02	1.52515553264E+01	1.68284744731E+02	-3.86116469965E+01	6.76867277554E+01	-5.99993775353E+00	-1.10413955983E+00
1.87558617624E+06	-1.40646939802E+01	1.79111338119E+02	1.52374831240E+01	1.68243843192E+02	-4.37304953353E+01	1.65104469130E+02	-5.98067263190E+00	-7.77827576893E-01
1.89777753084E+06	-1.60273393665E+01	-1.69349940482E+02	1.52426235843E+01	1.67891549704E+02	-5.37372896630E+01	-4.39634639727E+01	-6.01215751648E+00	-9.08008114260E-01
1.91996888543E+06	-1.28727207897E+01	-1.63246877807E+02	1.52540174501E+01	1.67814591231E+02	-4.35984558378E+01	1.71558259131E+02	-5.97672805612E+00	-7.80942122783E-01
1.94216024003E+06	-1.46185385296E+01	1.75170722517E+02	1.52398186235E+01	1.67580556960E+02	-4.43536821189E+01	-6.92796560885E+01	-6.01031042514E+00	-8.53868916135E-01
1.96435159462E+06	-1.19449666869E+01	-1.66529760333E+02	1.52335939551E+01	1.67271846876E+02	-5.19329661244E+01	-8.69965697553E+01	-5.99942271401E+00	-7.69925698108E-01
1.98654294922E+06	-1.45782709602E+01	1.67309642591E+02	1.52072497273E+01	1.67506105895E+02	-4.02204167332E+01	1.40804800907E+02	-5.97785560075E+00	-8.41583680017E-01
2.00873430381E+06	-2.22254814786E+01	1.72456995957E+02	1.52644614310E+01	1.67453954172E+02	-3.64453485850E+01	-1.79743215488E+02	-5.93999873123E+00	-8.16801932203E-01
2.03092565841E+06	-1.56053649074E+01	-1.60682477156E+02	1.52567428811E+01	1.67020426282E+02	-4.52429977971E+01	7.36944372797E+01	-5.98368507069E+00	-1.00142684911E+00
2.05311701300E+06	-1.44132819487E+01	-1.78478893739E+02	1.52159862226E+01	1.66931890493E+02	-5.19159967227E+01	-2.20897817738E+01	-6.02972662976E+00	-8.75459347631E-01
2.07530836760E+06	-1.16885623011E+01	-1.60709973082E+02	1.52377682751E+01	1.66665248145E+02	-4.81689249093E+01	2.89752430164E+01	-5.98479252539E+00	-9.97580326953E-01
2.09749972219E+06	-1.15198081362E+01	1.77100046630E+02	1.52091109848E+01	1.66497216183E+02	-4.25184099720E+01	-1.65465001920E+02	-5.97372303901E+00	-7.53221984068E-01
2.11969107679E+06	-1.14318357983E+01	-1.69072803806E+02	1.52282641847E+01	1.66343756798E+02	-5.05713856866E+01	1.42822482099E+02	-6.00250318678E+00	-8.55971157225E-01
2.14188243138E+06	-1.22114836248E+01	1.76788460816E+02	1.51959558182E+01	1.66282783532E+02	-3.18228929599E+01	-1.76814212287E+02	-5.92600164353E+00	-3.89996623329E-01
2.16407378598E+06	-1.16662807887E+01	-1.65170100248E+02	1.52188777318E+01	1.65908025970E+02	-3.38563287140E+01	-1.32700025257E+02	-5.99240609841E+00	-4.27821345431E-01
2.18626514057E+06	-1.63916423813E+01	-1.56854212803E+02	1.52679354193E+01	1.66074581619E+02	-4.37977373675E+01	4.23162090955E+00	-6.03610498797E+00	-9.73421636809E-01
2.20845649517E+06	-1.20359591370E+01	-1.67403832559E+02	1.52315530059E+01	1.65554375669E+02	-4.67457958665E+01	-1.51229251176E+02	-5.98053422268E+00	-8.67134509794E-01
2.23064784976E+06	-1.35163395451E+01	-1.42790592224E+02	1.52896520808E+01	1.65515070899E+02	-4.90132287188E+01	-5.64750134291E+01	-6.00027192330E+00	-7.87888854793E-01
2.25283920436E+06	-1.25792103929E+01	-8.48495890690E+01	1.53207024924E+01	1.65722400342E+02	-4.26762830016E+01	1.47286598412E+02	-5.95383612974E+00	-1.07621331345E+00
2.27503055895E+06	-1.40213998532E+01	-1.76701930605E+02	1.52291121868E+01	1.65316687909E+02	-4.36036578624E+01	-1.64872648987E+02	-5.98203877499E+00	-7.77397962520E-01
2.29722191355E+06	-1.71730958661E+01	1.74559306018E+02	1.52587084117E+01	1.65382439967E+02	-4.64528561446E+01	1.72854299297E+02	-5.96034320310E+00	-9.09901059572E-01
2.31941326814E+06	-1.76081145071E+01	-1.76014639164E+02	1.52767533251E+01	1.65156685078E+02	-3.44197892370E+01	1.13254794170E+02	-5.95622317524E+00	-1.31901174283E+00
2.34160462274E+06	-1.44353702753E+01	-1.73869152332E+02	1.52403717909E+01	1.64864704426E+02	-3.92699923061E+01	-1.78582896383E+02	-5.94247877660E+00	-1.01186131853E+00
2.36379597733E+06	-1.22646660649E+01	-1.71827253409E+02	1.52307260460E+01	1.64619557647E+02	-4.34903519967E+01	-4.12059505755E+01	-6.03169641496E+00	-9.39517764522E-01
2.38598733193E+06	-1.25060153514E+01	-1.38317700038E+02	1.52846187026E+01	1.64563825103E+02	-5.42084656068E+01	-9.05139277734E+00	-6.00339702612E+00	-8.68936471235E-01
2.40817868652E+06	-9.98858088783E+00	-1.50961126811E+02	1.52647960060E+01	1.64050848521E+02	-4.77679336030E+01	3.87655115072E+01	-6.01074915366E+00	-1.28341233459E+00
2.43037004112E+06	-1.30476791359E+01	1.76532708381E+02	1.52239404609E+01	1.64350012160E+02	-5.09018400295E+01	-1.69694392484E+02	-5.98052173311E+00	-1.43019998015E+00
2.45256139571E+06	-1.50111932254E+01	-1.56349421217E+02	1.52689206495E+01	1.64092703038E+02	-4.09804745967E+01	-1.08986644829E+02	-5.98976876455E+00	-6.34873181403E-01
2.47475275031E+06	-1.59778912762E+01	-1.76245063534E+02	1.52616097709E+01	1.64038512825E+02	-3.65439350145E+01	-1.50011464468E+02	-5.98889532879E+00	-7.31010400876E-01
2.49694410490E+06	-1.60354193700E+01	-1.56723575813E+02	1.52657383374E+01	1.63921963623E+02	-4.44370483275E+01	-1.08827862824E+00	-6.02984876219E+00	-1.21930527259E+00
2.51913545950E+06	-1.64958120952E+01	-1.73088498772E+02	1.52546470164E+01	1.63791647935E+02	-4.18121007949E+01	8.23668300383E+01	-6.00840388939E+00	-1.32354876666E+00
2.54132681409E+06	-1.41260352678E+01	-1.76838412151E+02	1.52534407512E+01	1.63519846408E+02	-4.39672803703E+01	1.03600858884E+02	-5.99624603969E+00	-1.37649270828E+00
2.56351816869E+06	-8.97731916986E+00	-1.34212830898E+02	1.52962641126E+01	1.62916543880E+02	-4.59727667423E+01	1.61717274250E+02	-5.98111159799E+00	-1.04928599324E+00
2.58570952328E+06	-1.81371433496E+01	-1.77901249331E+02	1.52548770625E+01	1.63413652646E+02	-4.15583208956E+01	-1.11553542087E+02	-6.00087857449E+00	-7.73433629343E-01
2.60790087788E+06	-1.55608631736E+01	-1.74003289222E+02	1.52484604089E+01	1.63180182770E+02	-4.28169909033E+01	-1.51889759284E+02	-6.00742653700E+00	-9.74378782499E-01
2.63009223247E+06	-1.46391514035E+01	-1.70674769032E+02	1.52652605962E+01	1.62848459967E+02	-3.58534545671E+01	1.10085011582E+02	-5.95980362767E+00	-1.11562004284E+00
2.65228358707E+06	-1.27200978982E+01	-1.65043874931E+02	1.52366601992E+01	1.62475257480E+02	-4.93758376411E+01	1.76904349189E+01	-6.00823757329E+00	-1.24592200831E+00
2.67447494166E+06	-1.18482990678E+01	-1.66493943489E+02	1.52184724727E+01	1.62502575426E+02	-5.07945869432E+01	6.25056942981E+01	-5.99070385569E+00	-1.15826926661E+00
2.69666629626E+06	-1.72354754383E+01	-1.58456821654E+02	1.52753554189E+01	1.62468799712E+02	-4.72398517927E+01	1.38527992544E+02	-5.98999105709E+00	-1.20835977953E+00
2.71885765085E+06	-1.45439155323E+01	-1.65489994335E+02	1.52407675596E+01	1.62264977906E+02	-4.16257320713E+01	-6.09553054115E+01	-6.02904648971E+00	-9.68412510271E-01
2.74104900545E+06	-1.36465159352E+01	-1.69893804849E+02	1.52358848174E+01	1.62073164224E+02	-5.07407758958E+01	-1.52751372959E+02	-5.99300973648E+00	-1.11040499550E+00
2.76324036004E+06	-1.35924480512E+01	1.78294891090E+02	1.52304074427E+01	1.62071955729E+02	-4.59440445375E+01	1.44074944259E+02	-5.97772682738E+00	-1.22899144020E+00
2.78543171463E+06	-1.25036004785E+01	-1.72075108514E+02	1.52218179774E+01	1.61630678953E+02	-4.82185474086E+01	2.57003716900E+01	-6.01729936603E+00	-1.45582892399E+00
2.80762306923E+06	-1.18371585626E+01	-1.57224135026E+02	1.52497493810E+01	1.61510220642E+02	-5.40704408831E+01	2.69326354857E+01	-6.01797568059E+00	-1.45155375459E+00
2.82981442382E+06	-1.45170777334E+01	-1.62557480584E+02	1.52621818042E+01	1.61443626058E+02	-4.36563357503E+01	8.70758418353E+01	-6.00581208383E+00	-1.69424681264E+00
2.85200577842E+06	-1.24146538649E+01	-1.63320038039E+02	1.52496872155E+01	1.61171843270E+02	-4.28610884205E+01	1.61748177758E+02	-5.96084439460E+00	-1.25902940106E+00
2.87419713301E+06	-1.79199380480E+01	-8.71060660228E+01	1.52971433976E+01	1.61522572755E+02	-4.45653758888E+01	1.41044282699E+02	-5.99415063598E+00	-1.39683950475E+00
