# Hz S DB R 50
! CMT, M5065, 19127446, 24.2.4/2
! Date: 11/8/2024 2:52:33 PM
! Data: Format (Calibration Info)
! Freq	S11:dB/Ang(F2)	S21:dB/Ang(F2)	S12:dB/Ang(F2)	S22:dB/Ang(F2)
3.00000000000E+05	-1.93784899187E+01	-1.75103959247E+02	7.19697405603E+00	-1.77574409327E+02	-4.42278261635E+01	1.33992022936E+02	-6.01217844282E+00	-2.16612982629E-01
3.22191354595E+05	-1.23067343528E+01	1.73842111361E+02	7.16913821207E+00	-1.77991969583E+02	-5.31111025362E+01	4.53535514947E+01	-6.01157353885E+00	-2.99639998656E-01
3.44382709190E+05	-1.46022107687E+01	1.60572469395E+02	7.17246077490E+00	-1.78260819697E+02	-4.10544647164E+01	-8.48403890292E+01	-6.01831420357E+00	-2.29119570188E-01
3.66574063785E+05	-1.64417910231E+01	1.62263745270E+02	7.20301710052E+00	-1.78392406600E+02	-4.26474330310E+01	-2.22936982183E+01	-6.01796123777E+00	-2.06321128154E-01
3.88765418380E+05	-1.44964388391E+01	-1.79432935421E+02	7.10984556692E+00	-1.77897495343E+02	-4.66265627476E+01	5.44879106021E+01	-5.99921256593E+00	-2.77592228430E-01
4.10956772975E+05	-1.69280961481E+01	-1.77153146042E+02	7.21889818124E+00	-1.78970634429E+02	-4.26861093811E+01	-9.99275661567E+01	-6.01869018381E+00	-1.39177459656E-01
4.33148127570E+05	-1.29373355660E+01	-1.73912392084E+02	7.15279038330E+00	-1.79197631372E+02	-4.23313398722E+01	1.72888461651E+02	-5.99179457953E+00	-2.84109086118E-01
4.55339482165E+05	-1.58649202061E+01	-1.79339038374E+02	7.18532388998E+00	-1.79580374652E+02	-5.39458898673E+01	1.26926420345E+00	-5.97647346853E+00	-3.53103727515E-01
4.77530836760E+05	-1.21291812236E+01	1.69960024888E+02	7.12526540151E+00	-1.79654283671E+02	-4.93251234860E+01	-4.54696314110E+01	-6.01545203382E+00	-2.39567926900E-01
4.99722191355E+05	-1.05114701386E+01	-1.72614930167E+02	7.14057196598E+00	1.79987514779E+02	-3.82415145459E+01	1.09477422048E+02	-5.98685830092E+00	-3.89744808872E-01
5.21913545950E+05	-1.56858725123E+01	-1.49741473112E+02	7.20471403530E+00	1.79711109882E+02	-3.74982984651E+01	1.59544683687E+02	-5.96484035031E+00	-2.51223249192E-01
5.44104900545E+05	-1.36821769317E+01	1.78205126851E+02	7.14806268899E+00	1.79943674771E+02	-5.52995229505E+01	7.64520739221E+01	-5.97603612339E+00	-4.24992213826E-01
5.66296255139E+05	-1.21871574557E+01	-1.79296788300E+02	7.19505457227E+00	1.79546677043E+02	-4.53938142934E+01	7.23335216673E+01	-6.00027616762E+00	-3.66238646263E-01
5.88487609734E+05	-1.25364099704E+01	1.64187873170E+02	7.13637811458E+00	1.79158079073E+02	-5.23826235154E+01	-8.65075585785E+01	-5.98767256953E+00	-1.31858393244E-01
6.10678964329E+05	-1.28965504144E+01	-1.65409687844E+02	7.16984843556E+00	1.79133140161E+02	-5.72858919118E+01	-1.54863811461E+02	-6.00478965395E+00	1.80539172616E-01
6.32870318924E+05	-1.40236962877E+01	1.73194535425E+02	7.18287765506E+00	1.78975330812E+02	-4.08793651770E+01	-1.21610453694E+02	-5.99682394423E+00	-1.50334385198E-01
6.55061673519E+05	-1.46696630770E+01	1.78754295518E+02	7.17039185482E+00	1.78938314885E+02	-5.00683661426E+01	-5.18454676525E+01	-6.02129952592E+00	-1.23574725062E-01
6.77253028114E+05	-1.47020909636E+01	1.57347498522E+02	7.19399865774E+00	1.79249933005E+02	-4.53611358660E+01	-5.43031881452E+01	-6.02040629132E+00	-5.37741837909E-01
6.99444382709E+05	-1.39703350174E+01	1.74157284046E+02	7.16301111104E+00	1.78798282228E+02	-4.57392600250E+01	-1.36336867737E+01	-6.01165582911E+00	-3.40873761855E-01
7.21635737304E+05	-1.69552776351E+01	1.79819883471E+02	7.19549417273E+00	1.78755055428E+02	-3.83116662424E+01	-7.70078362320E+01	-6.01609307783E+00	-2.08605559341E-01
7.43827091899E+05	-1.39126019901E+01	-1.77750031734E+02	7.22486579217E+00	1.78365507718E+02	-4.38266401448E+01	1.77818396121E+02	-5.98697896440E+00	-2.33805263369E-01
7.66018446494E+05	-1.48879655135E+01	-1.74945726043E+02	7.13779764232E+00	1.78382773231E+02	-5.82833394625E+01	5.95775516997E+01	-5.99552065353E+00	-2.59183291174E-01
7.88209801089E+05	-1.32673510507E+01	-1.73320355213E+02	7.16311415206E+00	1.77966099092E+02	-5.92867055233E+01	-2.29657419475E+01	-5.99940431822E+00	-4.12796287358E-01
8.10401155684E+05	-1.37829725581E+01	-1.70143432478E+02	7.18094448076E+00	1.77852752640E+02	-4.99800983809E+01	-1.60895854841E+02	-6.01600797682E+00	-4.82426697001E-01
8.32592510279E+05	-1.12553185052E+01	1.66345228605E+02	7.09531271780E+00	1.77791321775E+02	-3.93038021696E+01	5.59427768049E+01	-6.00573465712E+00	-4.78338449882E-01
8.54783864874E+05	-1.40457793951E+01	1.65835661015E+02	7.15738331610E+00	1.77780729311E+02	-5.63009759646E+01	-1.61504778681E+01	-6.00775090052E+00	-4.72204372139E-01
8.76975219469E+05	-1.32968128772E+01	-1.77447838775E+02	7.15396394270E+00	1.77659026643E+02	-6.02740206371E+01	-1.44053395571E+02	-6.01249781963E+00	-4.58680682194E-01
8.99166574064E+05	-1.41972858343E+01	1.78297828375E+02	7.16377850885E+00	1.77560747703E+02	-4.50370155839E+01	-1.19741246765E+02	-6.02442212588E+00	-4.96280231743E-01
9.21357928659E+05	-1.21607448339E+01	-1.55158355706E+02	7.18787200716E+00	1.76888149943E+02	-4.90930494074E+01	-1.07153346428E+02	-5.98902187458E+00	-3.85627913067E-01
9.43549283254E+05	-1.61140788479E+01	-1.71133266542E+02	7.19044006705E+00	1.77288622929E+02	-6.19121093476E+01	1.77792327032E+02	-5.99039535573E+00	-3.17169283558E-01
9.65740637849E+05	-1.28741813460E+01	1.68443906985E+02	7.15087701109E+00	1.76969654060E+02	-4.55376482951E+01	-4.75742712003E+01	-6.02885465034E+00	-4.79828929062E-01
9.87931992444E+05	-1.33859006403E+01	-1.73996959237E+02	7.18023654682E+00	1.77027212153E+02	-4.21519374845E+01	2.56926023220E+01	-6.00909316975E+00	-2.92112625900E-01
1.01012334704E+06	-1.42706390156E+01	1.76794558697E+02	7.15764447664E+00	1.76893122857E+02	-4.35213824426E+01	1.06457255863E+02	-5.98724930004E+00	-4.66218149861E-01
1.03231470163E+06	-1.38819503566E+01	1.71049131503E+02	7.20468697167E+00	1.76910589184E+02	-4.25194028622E+01	1.29457635398E+02	-5.98897522575E+00	-4.29888330908E-01
1.05450605623E+06	-1.49974341245E+01	-1.58467873457E+02	7.24060921986E+00	1.76519403676E+02	-4.21478253358E+01	8.41051346873E+01	-6.02348873944E+00	-5.93408742291E-01
1.07669741082E+06	-1.36205104312E+01	1.53899702851E+02	7.20750907029E+00	1.76853012673E+02	-4.43282657345E+01	8.61824823423E+01	-6.02730775548E+00	-4.46062339193E-01
1.09888876542E+06	-1.31029455898E+01	-1.62969493977E+02	7.19943972523E+00	1.76150872429E+02	-4.59572111163E+01	1.14159937056E+02	-5.99564411728E+00	-5.56978293498E-01
1.12108012001E+06	-1.36093734534E+01	-1.73313954061E+02	7.15619601604E+00	1.76582673609E+02	-3.78147862253E+01	-9.54347084036E+01	-6.01666828299E+00	-3.75213549757E-01
1.14327147461E+06	-1.66134263726E+01	-1.67600262187E+02	7.18369458381E+00	1.76395163601E+02	-3.89905811759E+01	7.36593439466E+01	-6.00298890451E+00	-5.63685970619E-01
1.16546282920E+06	-1.55867279746E+01	-1.74258592685E+02	7.21233771599E+00	1.75981567180E+02	-5.39634120066E+01	4.75112857878E+01	-6.01274771230E+00	-5.85800869129E-01
1.18765418380E+06	-1.34826442381E+01	-1.71239676466E+02	7.19280251633E+00	1.75706709734E+02	-5.49241877920E+01	-9.39124772675E+01	-5.99063619654E+00	-6.97004251410E-01
1.20984553839E+06	-1.43373956944E+01	1.52953656604E+02	7.17256746453E+00	1.75999532596E+02	-4.21075601344E+01	3.73876834354E+01	-6.00858588977E+00	-7.94499684167E-01
1.23203689299E+06	-1.70301973493E+01	-1.58900100363E+02	7.22004903445E+00	1.75756692770E+02	-4.48573491964E+01	-3.28576603186E+01	-5.99572962215E+00	-3.27772480476E-01
1.25422824758E+06	-1.58690936320E+01	1.65191724060E+02	7.18513631502E+00	1.75715686546E+02	-4.21262410788E+01	9.96281935922E+01	-6.00169035496E+00	-6.04288614652E-01
1.27641960218E+06	-1.81032801318E+01	1.72715578821E+02	7.26046300995E+00	1.75777968667E+02	-4.69083792579E+01	1.69407778831E+02	-5.99906845267E+00	-4.66118428905E-01
1.29861095677E+06	-1.56994993235E+01	1.77054714446E+02	7.22406135217E+00	1.75535272774E+02	-4.79560845871E+01	7.27063008900E+01	-6.02146083832E+00	-5.81908271549E-01
1.32080231137E+06	-1.16349440664E+01	-1.72067880797E+02	7.18254832800E+00	1.75316104580E+02	-4.96201339305E+01	-3.61253375417E+00	-6.01038966873E+00	-1.02528230009E+00
1.34299366596E+06	-1.24571962419E+01	-1.59371352521E+02	7.19644513874E+00	1.75114528622E+02	-6.00553878496E+01	1.07383770802E+02	-6.01406397383E+00	-8.10886026048E-01
1.36518502056E+06	-1.28048606538E+01	-1.71359246336E+02	7.16458251076E+00	1.74865763640E+02	-4.32152790405E+01	9.81824661909E+01	-5.97757963835E+00	-7.07238318728E-01
1.38737637515E+06	-1.36492010946E+01	-1.48773198842E+02	7.21130141415E+00	1.74685910290E+02	-4.12334238615E+01	1.60730748550E+02	-6.00686966182E+00	-7.40081136667E-01
1.40956772975E+06	-1.43683736842E+01	1.65140810238E+02	7.21112418041E+00	1.75397902888E+02	-4.96407682245E+01	-1.73475700816E+02	-5.99019947760E+00	-4.14739723603E-01
1.43175908434E+06	-1.25942691130E+01	1.73454973809E+02	7.17688546935E+00	1.74770754905E+02	-4.36311144132E+01	4.80095023979E+00	-6.02636723644E+00	-4.96939781646E-01
1.45395043894E+06	-1.34181670629E+01	1.73085985527E+02	7.14836926340E+00	1.74831750905E+02	-4.73120279680E+01	1.18778878138E+02	-5.96317346230E+00	-6.08913571919E-01
1.47614179353E+06	-1.30756242128E+01	-1.61085298678E+02	7.18516527091E+00	1.74529664678E+02	-3.92909270215E+01	8.57552156018E+01	-5.99546262489E+00	-7.57920971660E-01
1.49833314813E+06	-1.55927974989E+01	-1.77249424880E+02	7.14753359516E+00	1.74913154630E+02	-4.33768982369E+01	-5.88674166035E+00	-5.99909257872E+00	-8.39850785934E-01
1.52052450272E+06	-1.19045391937E+01	-1.72372494534E+02	7.17430139545E+00	1.74471656523E+02	-5.31079146683E+01	-4.95470580560E+00	-6.02065838905E+00	-6.75056104778E-01
1.54271585732E+06	-1.13321685780E+01	1.63337351357E+02	7.16730077668E+00	1.74593446308E+02	-4.63593878104E+01	-1.62884680281E+02	-5.99560717179E+00	-7.28076259649E-01
1.56490721191E+06	-1.18881872885E+01	-1.65937285070E+02	7.18778074688E+00	1.74186857309E+02	-4.90698244409E+01	-1.11224577623E+02	-6.00610990176E+00	-8.87024459846E-01
1.58709856651E+06	-1.39537824385E+01	-1.65537996153E+02	7.18149214780E+00	1.74323867266E+02	-3.93710897888E+01	-6.49187804565E+01	-6.03160606393E+00	-6.85030175512E-01
1.60928992110E+06	-1.11462735996E+01	-1.59722510418E+02	7.16007696591E+00	1.74020413187E+02	-3.82943354048E+01	-1.68047274828E+02	-5.98311110689E+00	-5.60783791250E-01
1.63148127570E+06	-1.46184569981E+01	1.74542498043E+02	7.23073950757E+00	1.74086328900E+02	-4.61785925860E+01	1.01984752477E+02	-5.99419116756E+00	-8.08516859419E-01
1.65367263029E+06	-1.35841326009E+01	-1.78663953611E+02	7.20860030178E+00	1.74200674947E+02	-4.26714618355E+01	-6.58612984374E+01	-6.02989168460E+00	-7.29809874782E-01
1.67586398489E+06	-1.68936124201E+01	1.75337141969E+02	7.22454882383E+00	1.73838629027E+02	-4.44634644797E+01	-1.36862671966E+02	-6.00101366861E+00	-6.73695377922E-01
1.69805533948E+06	-1.32954774665E+01	-1.55234784622E+02	7.20093699491E+00	1.73657811825E+02	-4.90375047080E+01	-1.80219184922E+01	-5.99820205448E+00	-6.94341259503E-01
1.72024669408E+06	-1.27414769341E+01	-1.18769610571E+02	7.26710102985E+00	1.73430595604E+02	-4.79656153333E+01	-2.19597642157E+01	-6.00310876458E+00	-8.33576922066E-01
1.74243804867E+06	-1.56618447558E+01	-1.77824178547E+02	7.18843941216E+00	1.73383101836E+02	-4.62849985481E+01	1.27330166529E+02	-6.00872957905E+00	-7.50312034437E-01
1.76462940327E+06	-1.49113266013E+01	-1.69987562511E+02	7.21674807809E+00	1.73282669662E+02	-3.70679716152E+01	-1.71892862237E+01	-6.01359341802E+00	-7.60621034908E-01
1.78682075786E+06	-1.70036344748E+01	-1.72973397397E+02	7.23672322797E+00	1.73599009658E+02	-4.70962371313E+01	-1.06327360408E+02	-5.99231379508E+00	-6.99809246888E-01
1.80901211246E+06	-1.49348486071E+01	-1.72479820064E+02	7.23114790846E+00	1.73153169554E+02	-4.66759351610E+01	1.07779978525E+02	-5.98551628624E+00	-9.89452101092E-01
1.83120346705E+06	-1.29867135283E+01	1.79767822207E+02	7.16604180125E+00	1.73367906890E+02	-5.44362698296E+01	-7.83120308507E+01	-5.99716148610E+00	-7.23645343533E-01
1.85339482165E+06	-1.52959615054E+01	-1.45335065388E+02	7.25070693410E+00	1.73041425323E+02	-5.20085744152E+01	8.64670091512E+01	-5.98401465472E+00	-9.33076191275E-01
1.87558617624E+06	-2.66451378120E+01	-1.58782392219E+02	7.23728027830E+00	1.73082913610E+02	-3.80445442681E+01	-1.33107111974E+02	-5.97597832653E+00	-6.75315732788E-01
1.89777753084E+06	-1.20272908981E+01	-1.73748125829E+02	7.19982984167E+00	1.72774102955E+02	-5.35054465057E+01	1.08751727362E+02	-5.98437779813E+00	-8.74343360816E-01
1.91996888543E+06	-1.38208837746E+01	1.63399488034E+02	7.15935912244E+00	1.72955689160E+02	-3.33080494330E+01	6.19134961277E+01	-5.99973156963E+00	-1.18995533959E+00
1.94216024003E+06	-1.39394254566E+01	-1.72072083316E+02	7.23085957881E+00	1.72728707787E+02	-4.58153525009E+01	2.59181943398E+01	-5.99528979204E+00	-9.49336604750E-01
1.96435159462E+06	-1.35129427089E+01	-1.61969565531E+02	7.22113097554E+00	1.72506362506E+02	-4.81143056975E+01	1.59443578792E+02	-6.00244114247E+00	-9.66018600085E-01
1.98654294922E+06	-1.50586218687E+01	-1.60110716775E+02	7.23199433287E+00	1.72580604410E+02	-4.89984469234E+01	9.06977854841E+01	-5.99549915987E+00	-8.52100280396E-01
2.00873430381E+06	-1.64171023498E+01	1.70620417812E+02	7.23378170610E+00	1.72487287596E+02	-4.62123569708E+01	-1.75643564248E+02	-5.99650596450E+00	-8.88014812313E-01
2.03092565841E+06	-1.70664157386E+01	1.63408825511E+02	7.24197560254E+00	1.72420669178E+02	-5.33748718640E+01	-2.60705508675E+01	-6.00672202358E+00	-7.49622622620E-01
2.05311701300E+06	-1.20005387945E+01	-1.43447318493E+02	7.23180060026E+00	1.72111408393E+02	-4.31445505273E+01	-1.70026015683E+02	-5.99949871243E+00	-8.92440974835E-01
2.07530836760E+06	-1.52174408930E+01	1.71831811002E+02	7.22987344160E+00	1.72231518588E+02	-3.07840274325E+01	-1.01248864302E+02	-6.03072376325E+00	-6.65039607034E-01
2.09749972219E+06	-1.48734708024E+01	1.76007940456E+02	7.20653556700E+00	1.72163137387E+02	-5.25122661253E+01	-8.97911891683E+01	-5.98623119445E+00	-8.36233689150E-01
2.11969107679E+06	-1.78861429722E+01	1.77620020286E+02	7.19841577786E+00	1.72199970055E+02	-4.26751306246E+01	-8.83716238088E+01	-6.00172560383E+00	-8.94781454899E-01
2.14188243138E+06	-1.49678192952E+01	-1.75156403929E+02	7.20859106721E+00	1.72125368592E+02	-4.02837481348E+01	-2.58346267681E+01	-6.02960584669E+00	-1.04696873477E+00
2.16407378598E+06	-1.38878593866E+01	-1.71960785289E+02	7.19551847636E+00	1.71497944029E+02	-5.91039891465E+01	8.90839280110E+01	-5.99568945581E+00	-8.86081004390E-01
2.18626514057E+06	-2.43724193484E+01	-1.18140443868E+02	7.25815349017E+00	1.71871804268E+02	-4.24812615851E+01	1.15191262610E+02	-6.01645253807E+00	-1.08200940616E+00
2.20845649517E+06	-1.26480620173E+01	-1.68474060651E+02	7.23572943712E+00	1.71398894588E+02	-4.09366174738E+01	2.35015261377E+01	-6.02458440021E+00	-1.04055486597E+00
2.23064784976E+06	-1.33717696228E+01	1.72431315349E+02	7.19646329085E+00	1.71687714889E+02	-4.50434655736E+01	5.42015867927E+01	-5.99806689584E+00	-1.04331790105E+00
2.25283920436E+06	-1.27904818853E+01	-1.79364670819E+02	7.17438701750E+00	1.71295429882E+02	-3.98590668162E+01	1.36438298149E+00	-6.00060698135E+00	-1.07850652970E+00
2.27503055895E+06	-1.22655539607E+01	-1.64691837675E+02	7.18049487989E+00	1.71194458981E+02	-4.51495225202E+01	3.86098692005E+01	-5.99761552248E+00	-1.04137332318E+00
2.29722191355E+06	-1.18932981175E+01	-1.64667087942E+02	7.22895327200E+00	1.70908079712E+02	-5.49052119029E+01	-3.46355214036E+01	-6.00287467314E+00	-8.94847523525E-01
2.31941326814E+06	-1.40786658969E+01	1.65067276180E+02	7.18062923928E+00	1.71247815063E+02	-5.39874039670E+01	-1.28759156753E+02	-5.98661727598E+00	-9.30489528935E-01
2.34160462274E+06	-1.70108587136E+01	-1.38334096445E+02	7.27963903075E+00	1.70957547791E+02	-3.87662456361E+01	2.08868694250E+01	-6.01458788879E+00	-1.20567524017E+00
2.36379597733E+06	-1.39309132038E+01	-1.72816880024E+02	7.23167026632E+00	1.70681005071E+02	-6.19875922909E+01	-4.33772367656E+01	-5.97976871416E+00	-9.81246615205E-01
2.38598733193E+06	-1.19718012890E+01	1.74342699362E+02	7.19781723868E+00	1.70937516179E+02	-2.85932811403E+01	9.54589458527E+01	-6.00086319703E+00	-1.28133261405E+00
2.40817868652E+06	-1.26267795794E+01	1.75011805388E+02	7.20395243277E+00	1.70621958735E+02	-4.16304893814E+01	-2.94627196857E+01	-6.03124513185E+00	-1.16509687595E+00
2.43037004112E+06	-1.34340846258E+01	1.77528253179E+02	7.21382449785E+00	1.70711784685E+02	-5.30033915570E+01	-1.74732321212E+02	-5.99203029989E+00	-1.60831305680E+00
2.45256139571E+06	-1.25604855564E+01	-1.72796882154E+02	7.24501716419E+00	1.70543054051E+02	-4.94916130235E+01	-8.17546690332E+01	-5.98760473500E+00	-9.98710492924E-01
2.47475275031E+06	-1.50208912094E+01	-1.75467397449E+02	7.24532798247E+00	1.70530094736E+02	-4.19404949877E+01	-8.33818283117E+01	-6.00816513719E+00	-1.03530633429E+00
2.49694410490E+06	-1.32545242242E+01	-9.85975638326E+01	7.32743394546E+00	1.70545041814E+02	-4.94641324553E+01	-1.36771510684E+02	-6.00103700758E+00	-1.01722489349E+00
2.51913545950E+06	-1.51750934199E+01	-1.76524713113E+02	7.21558674704E+00	1.70334449480E+02	-4.85015491791E+01	-1.31448634404E+02	-6.00252442664E+00	-1.10542081371E+00
2.54132681409E+06	-1.25398969291E+01	-1.70259716355E+02	7.24810806351E+00	1.70093403382E+02	-4.99838700516E+01	1.04611377889E+02	-6.00563704700E+00	-1.18570915113E+00
2.56351816869E+06	-1.22579588191E+01	-1.66045269444E+02	7.20521302105E+00	1.69941079059E+02	-4.88332220304E+01	9.01985406398E+01	-6.00351530294E+00	-1.23916969930E+00
2.58570952328E+06	-1.28961516292E+01	-1.71234421073E+02	7.20544843535E+00	1.69980611780E+02	-4.60007326392E+01	1.79676338309E+02	-5.98493319965E+00	-1.11409291339E+00
2.60790087788E+06	-1.16511821527E+01	-1.77794515933E+02	7.20108309141E+00	1.69820847724E+02	-4.28140429924E+01	-1.44413847891E+02	-6.00551842028E+00	-9.45034282909E-01
2.63009223247E+06	-1.48839932576E+01	-1.68090492621E+02	7.21103826249E+00	1.69817566588E+02	-4.86767649212E+01	1.27918512630E+02	-5.97730641176E+00	-7.64723560608E-01
2.65228358707E+06	-1.45741892821E+01	1.60872696236E+02	7.18237214608E+00	1.69952759543E+02	-4.92052567471E+01	-1.29372311073E+02	-5.96993208367E+00	-1.05917995404E+00
2.67447494166E+06	-1.35719863739E+01	-1.66250775662E+02	7.23975825568E+00	1.69487374128E+02	-4.35825220581E+01	1.46495552037E+02	-5.98006338475E+00	-1.19302846883E+00
2.69666629626E+06	-1.48185787595E+01	-1.73069953479E+02	7.21557262090E+00	1.69631123411E+02	-3.78865936043E+01	-6.47970522171E+01	-6.03172117436E+00	-1.13814312328E+00
2.71885765085E+06	-1.61080640433E+01	1.63192606235E+02	7.21208980381E+00	1.69730963264E+02	-5.62015714794E+01	-8.67611289670E+01	-5.98732164076E+00	-1.21997976839E+00
2.74104900545E+06	-1.37580121532E+01	-1.55600037864E+02	7.23150918037E+00	1.69245055010E+02	-4.99915081359E+01	3.21325131489E+01	-5.98998159905E+00	-1.23767176725E+00
2.76324036004E+06	-1.22092536037E+01	-1.75006259357E+02	7.21707711098E+00	1.69150540672E+02	-4.87199529717E+01	-6.00726137921E+01	-6.01644983079E+00	-1.16969676336E+00
2.78543171463E+06	-1.65677968544E+01	-1.66587769296E+02	7.28397282134E+00	1.69296291922E+02	-4.27506807801E+01	-3.60620846942E+00	-6.01610741007E+00	-1.16972306265E+00
2.80762306923E+06	-1.61747510466E+01	-1.63523416185E+02	7.24707617218E+00	1.68994343303E+02	-5.29568020594E+01	1.67289174956E+02	-5.98915355698E+00	-1.24666089873E+00
2.82981442382E+06	-1.50526201382E+01	-1.71229538020E+02	7.23031415656E+00	1.69027352350E+02	-5.41403227774E+01	1.12239655358E+02	-5.99350685660E+00	-1.09683664170E+00
2.85200577842E+06	-1.45371104873E+01	-1.70721410728E+02	7.25548849547E+00	1.68688045859E+02	-3.96482516280E+01	-3.74149366919E+01	-6.01981524088E+00	-1.12242926349E+00
2.87419713301E+06	-1.54868768939E+01	-1.76172265881E+02	7.22171874027E+00	1.68892987801E+02	-4.56130026805E+01	-2.13176708587E+01	-6.02297666749E+00	-1.31132631926E+00
