# Hz S DB R 50
! CMT, M5065, 19127446, 24.2.4/2
! Date: 11/8/2024 3:28:37 PM
! Data: Format (Calibration Info)
! Freq	S11:dB/Ang(F2)	S21:dB/Ang(F2)	S12:dB/Ang(F2)	S22:dB/Ang(F2)
3.00000000000E+05	-1.35124792086E+01	-1.68976119192E+02	2.54096924231E+01	-1.76093544059E+02	-5.28129370899E+01	1.11735047567E+02	-5.97080945014E+00	-8.03456847988E-01
3.22191354595E+05	-1.43912393389E+01	1.75402836494E+02	2.54072194067E+01	-1.76830322100E+02	-6.28098401249E+01	8.94224023795E+01	-5.97683554091E+00	-6.26151989497E-01
3.44382709190E+05	-1.54844778827E+01	1.77224218117E+02	2.54367163545E+01	-1.77831219513E+02	-5.00014100549E+01	1.10065263486E+02	-5.96478494803E+00	-7.08771012534E-01
3.66574063785E+05	-1.46859300306E+01	1.49897464687E+02	2.54339398527E+01	-1.78581894199E+02	-4.89922417017E+01	-1.18952880897E+02	-5.97384554686E+00	-3.15896249250E-02
3.88765418380E+05	-1.30828169569E+01	1.64022219966E+02	2.54359510337E+01	-1.79486624667E+02	-4.69291763316E+01	2.92810905571E+01	-6.20597364943E+00	3.88895031549E-01
4.10956772975E+05	-1.22298650588E+01	-1.74818254718E+02	2.54122700980E+01	1.79579003844E+02	-4.85312034563E+01	1.03898815166E+01	-5.99453341434E+00	-6.04931113439E-01
4.33148127570E+05	-1.30982752335E+01	-1.78991028725E+02	2.54061559930E+01	1.78895723440E+02	-3.81905103863E+01	-1.03763991564E+02	-6.00973024465E+00	4.87054057352E-01
4.55339482165E+05	-1.42620749821E+01	-1.70476636108E+02	2.54091324863E+01	1.78208484133E+02	-4.82713888017E+01	1.44900439324E+02	-5.96956754704E+00	-5.44589527937E-01
4.77530836760E+05	-1.68600136873E+01	1.75846971665E+02	2.54216583216E+01	1.77563417191E+02	-4.55306810207E+01	-1.31845009040E+02	-5.92978942568E+00	-1.81008637597E-01
4.99722191355E+05	-1.41616397575E+01	-1.72397599974E+02	2.54025910776E+01	1.76662272838E+02	-4.34672907899E+01	-5.93900334251E+00	-6.08557213047E+00	-1.99969612497E-01
5.21913545950E+05	-1.45693012405E+01	-1.65925079747E+02	2.54109483964E+01	1.76049913766E+02	-3.87661793988E+01	9.86356825810E+01	-5.99084785732E+00	-1.45706978965E+00
5.44104900545E+05	-1.12486981934E+01	1.77283555888E+02	2.53777436721E+01	1.75588103179E+02	-5.10862362981E+01	-3.60570491162E+00	-6.05945120254E+00	-5.73552931510E-01
5.66296255139E+05	-1.48060500444E+01	-1.79632605063E+02	2.53910336576E+01	1.75129290067E+02	-5.58437571823E+01	-7.12349441586E+01	-5.98934918616E+00	-3.87352428955E-01
5.88487609734E+05	-1.49320816798E+01	-1.68802536638E+02	2.53838307810E+01	1.74457870219E+02	-4.34124063120E+01	-1.36569025293E+02	-5.96270639935E+00	1.15108984062E-01
6.10678964329E+05	-1.47550169999E+01	-1.70223790817E+02	2.53632129693E+01	1.74074701569E+02	-4.79555548911E+01	9.78512874559E+01	-5.97833742488E+00	-4.39454409200E-01
6.32870318924E+05	-1.22057981257E+01	1.69974605383E+02	2.53463156957E+01	1.73622780472E+02	-5.95139666337E+01	-7.30674294224E+01	-6.04358471059E+00	5.39190725100E-03
6.55061673519E+05	-1.22036354291E+01	1.63125745025E+02	2.53366414457E+01	1.73010191561E+02	-4.73456336566E+01	-4.76569411168E-01	-6.05767269331E+00	-5.03227687648E-01
6.77253028114E+05	-1.31835380925E+01	-1.63107358077E+02	2.53649642297E+01	1.72238244233E+02	-5.30358848744E+01	3.47673181089E+01	-6.02199190373E+00	-9.07198461912E-01
6.99444382709E+05	-1.33976602177E+01	1.64960956649E+02	2.53428503695E+01	1.71949354443E+02	-3.84285503268E+01	3.05062658667E+01	-6.11493528859E+00	-1.07976184621E+00
7.21635737304E+05	-1.10587079887E+01	1.66165220850E+02	2.52894518981E+01	1.71603265984E+02	-4.72085222748E+01	-2.67048028842E+01	-6.02020297495E+00	-2.30627564110E-01
7.43827091899E+05	-1.40295999460E+01	1.78579830134E+02	2.53384328360E+01	1.70923638036E+02	-4.21915847736E+01	-1.28642305202E+02	-5.91696749161E+00	6.37672136131E-02
7.66018446494E+05	-2.25246028825E+01	1.61370455531E+02	2.53760142082E+01	1.70654638434E+02	-4.37251164252E+01	1.36024619543E+02	-5.93466982443E+00	-9.16978857420E-01
7.88209801089E+05	-1.55073706542E+01	1.76097483510E+02	2.53057794144E+01	1.70149992169E+02	-4.63190861399E+01	-1.15576280535E+02	-5.92200227177E+00	-1.47904245400E-01
8.10401155684E+05	-1.51216556709E+01	-1.62514101814E+02	2.53174533426E+01	1.69524788767E+02	-5.08924641254E+01	5.89645968502E+01	-6.03045022098E+00	-9.28510339087E-01
8.32592510279E+05	-1.53167478459E+01	1.60371235829E+02	2.52944806961E+01	1.69199998467E+02	-4.36800254483E+01	-1.46196260356E+01	-6.07742974364E+00	-4.84859506825E-01
8.54783864874E+05	-1.23892802568E+01	-1.78852030168E+02	2.52490221279E+01	1.68838927570E+02	-4.69800433143E+01	1.24072906703E+02	-5.97256981286E+00	-1.00876435388E+00
8.76975219469E+05	-1.35376969742E+01	-1.75572746428E+02	2.52561139974E+01	1.68143188090E+02	-4.27559474662E+01	4.42234709926E+01	-6.02980883125E+00	-1.05024675544E+00
8.99166574064E+05	-1.33146462721E+01	1.75302517354E+02	2.52421401180E+01	1.67906774601E+02	-4.21737803585E+01	1.74728948189E+02	-5.92344119201E+00	-5.36516269386E-01
9.21357928659E+05	-1.44627444724E+01	1.77790186970E+02	2.52531745079E+01	1.67318870151E+02	-4.54514230527E+01	-1.24828977604E+02	-5.95786566763E+00	-1.14169696574E-01
9.43549283254E+05	-1.43188731568E+01	-1.77724003436E+02	2.52291459223E+01	1.66827053050E+02	-4.64004603008E+01	1.10609908918E+02	-5.95287542888E+00	-8.86561489692E-01
9.65740637849E+05	-1.74550238008E+01	-1.79047945853E+02	2.52644246499E+01	1.66411816123E+02	-4.15015492578E+01	7.19923411212E+01	-6.05090752712E+00	-1.16319280653E+00
9.87931992444E+05	-1.73521547887E+01	1.62436865360E+02	2.52477403159E+01	1.66249337136E+02	-4.92941080953E+01	5.29154108854E+01	-6.02263253785E+00	-7.82809049647E-01
1.01012334704E+06	-1.16714041268E+01	-1.68863218544E+02	2.51911820078E+01	1.65659514659E+02	-4.35385801734E+01	7.03823043299E+01	-6.02537909812E+00	-1.20250093256E+00
1.03231470163E+06	-1.51066708132E+01	-1.69225332276E+02	2.52081666628E+01	1.65411156017E+02	-3.89619275460E+01	1.16944510461E+02	-5.94636373677E+00	-1.42152757774E+00
1.05450605623E+06	-1.14805538005E+01	-1.67211517540E+02	2.51475072733E+01	1.64727203447E+02	-3.89009106436E+01	9.08355618849E+00	-6.10749344113E+00	-3.58594316283E-01
1.07669741082E+06	-1.25603327977E+01	-1.79510473970E+02	2.51570002531E+01	1.64530384849E+02	-4.57179299187E+01	-1.49418797292E+02	-5.93911001894E+00	-1.25279030526E-01
1.09888876542E+06	-1.44934453244E+01	-1.74148622023E+02	2.51754239658E+01	1.64171421166E+02	-4.66766323386E+01	1.47200370844E+02	-5.93084700894E+00	-6.47192389669E-01
1.12108012001E+06	-1.13562112076E+01	1.75645879669E+02	2.51140570386E+01	1.63765206065E+02	-4.65357010757E+01	-1.29718423476E+01	-6.06759174402E+00	-5.63042206722E-01
1.14327147461E+06	-1.21801267819E+01	-1.77848308795E+02	2.51449469676E+01	1.63377488765E+02	-4.08015739468E+01	1.19601841954E+02	-5.93297677540E+00	-1.21848084702E+00
1.16546282920E+06	-1.34354214262E+01	-1.65028351833E+02	2.51326658661E+01	1.62892398079E+02	-4.37012184444E+01	1.31775733822E+02	-5.94433017831E+00	-1.03000158023E+00
1.18765418380E+06	-1.35725650103E+01	1.66715792302E+02	2.51159827966E+01	1.62763562229E+02	-4.29690484327E+01	1.11312299563E+02	-5.96698727396E+00	-1.23512261409E+00
1.20984553839E+06	-1.62271794225E+01	-1.75928822685E+02	2.51568880594E+01	1.62265108549E+02	-5.64801271662E+01	1.32521216082E+02	-5.96658238719E+00	-7.15685564202E-01
1.23203689299E+06	-1.06590035743E+01	-1.62323696188E+02	2.51000731134E+01	1.61619898511E+02	-5.78895409024E+01	-1.96138987545E+01	-6.03390185627E+00	-4.00976132100E-01
1.25422824758E+06	-1.36113006377E+01	-1.65772508192E+02	2.51050037765E+01	1.61428178658E+02	-4.64312031197E+01	2.24195738088E+01	-6.07688509714E+00	-8.91652615487E-01
1.27641960218E+06	-1.22944904116E+01	-1.68452014444E+02	2.50899491508E+01	1.60995396427E+02	-4.91451757407E+01	-7.35772203710E+01	-6.04310580096E+00	-3.19354670231E-01
1.29861095677E+06	-1.30763450536E+01	-1.62306450253E+02	2.50940937525E+01	1.60464860473E+02	-4.48088780054E+01	9.84535301262E+01	-5.99168778355E+00	-1.03999141302E+00
1.32080231137E+06	-1.48717815004E+01	-1.59520063789E+02	2.50885622025E+01	1.60142092494E+02	-4.59332777671E+01	-7.49993940815E+01	-6.03943427425E+00	-5.89254027100E-01
1.34299366596E+06	-1.45651137755E+01	1.76136345188E+02	2.50509906276E+01	1.60108289515E+02	-5.20473587457E+01	3.34188597285E+01	-6.03130771395E+00	-1.00643619330E+00
1.36518502056E+06	-1.52426870076E+01	-1.69729015448E+02	2.50574151866E+01	1.59554664875E+02	-3.58021875052E+01	1.07854417008E+01	-6.17526863333E+00	-7.48833505182E-01
1.38737637515E+06	-1.21088074644E+01	-1.76114137949E+02	2.50232825803E+01	1.59164280828E+02	-3.88722397604E+01	-9.09576419710E+01	-6.00357853935E+00	2.62822308852E-01
1.40956772975E+06	-1.26502022331E+01	-1.73828313598E+02	2.50192156848E+01	1.58830581054E+02	-4.22382113800E+01	3.28758717527E+01	-6.08193275796E+00	-1.08060512418E+00
1.43175908434E+06	-1.41774523514E+01	1.72096701304E+02	2.49992483280E+01	1.58627511227E+02	-3.92625157351E+01	-4.54863986433E+01	-6.12651111992E+00	-3.81998528467E-03
1.45395043894E+06	-1.14221260984E+01	-1.67544173464E+02	2.49908355796E+01	1.57879684761E+02	-4.63511306801E+01	-3.71910484951E+01	-6.00964115698E+00	-5.75941844238E-01
1.47614179353E+06	-1.27048212832E+01	1.35228451467E+02	2.49750801806E+01	1.57882577407E+02	-5.31402220396E+01	-4.36592446258E+01	-6.04280605273E+00	-7.14047322265E-01
1.49833314813E+06	-1.31055145840E+01	-1.67864964574E+02	2.49661202475E+01	1.57281063056E+02	-4.46308793889E+01	-4.33551101111E+00	-6.11818111914E+00	-6.90133474737E-01
1.52052450272E+06	-1.22433141709E+01	-1.68079710470E+02	2.49608240493E+01	1.56869975254E+02	-3.67594352170E+01	-7.02845146267E+01	-6.02590798902E+00	1.14118286073E-01
1.54271585732E+06	-1.33104427689E+01	1.78052890405E+02	2.49463880399E+01	1.56678835525E+02	-4.36111699554E+01	8.87305101085E+01	-6.01128290464E+00	-1.34419807813E+00
1.56490721191E+06	-1.45834320748E+01	-1.79962507471E+02	2.49285002325E+01	1.56438515619E+02	-4.63066546930E+01	1.09815469555E+02	-5.95485483103E+00	-1.14785067166E+00
1.58709856651E+06	-1.36055510754E+01	-1.72728761126E+02	2.49188506170E+01	1.55956778974E+02	-5.92515655348E+01	-2.33147785624E+01	-6.02673695779E+00	-6.80507406197E-01
1.60928992110E+06	-1.24671098019E+01	-1.78759998734E+02	2.48889716946E+01	1.55566296696E+02	-4.41038325963E+01	-2.23404017501E+01	-6.12903587056E+00	-4.45249705670E-01
1.63148127570E+06	-1.26059200884E+01	1.78454905941E+02	2.48895975663E+01	1.55259824114E+02	-4.59169177538E+01	2.27002068422E+01	-6.06357946179E+00	-8.56285770227E-01
1.65367263029E+06	-1.41862235589E+01	-1.61195983624E+02	2.49050071159E+01	1.54893439711E+02	-4.68472401230E+01	4.44172301830E+01	-6.03839415839E+00	-1.13070502064E+00
1.67586398489E+06	-1.20532685414E+01	-1.76589078544E+02	2.48494685963E+01	1.54517601748E+02	-5.35509751470E+01	-1.05657113988E+02	-6.01350809593E+00	-7.12523052083E-01
1.69805533948E+06	-1.42537433790E+01	1.65314947087E+02	2.48577289330E+01	1.54368902001E+02	-4.49461160888E+01	1.27923950233E+02	-5.95072536771E+00	-1.26020488262E+00
1.72024669408E+06	-1.40846594164E+01	1.77538199204E+02	2.48514282862E+01	1.53832516870E+02	-4.99007435775E+01	1.05320648175E+01	-6.05923728880E+00	-8.19889676310E-01
1.74243804867E+06	-1.43370652233E+01	-1.69781686550E+02	2.48655898231E+01	1.53439518356E+02	-4.95751097040E+01	1.67324609708E+02	-5.97029661677E+00	-5.92467704805E-01
1.76462940327E+06	-1.35978852446E+01	-1.64524984083E+02	2.48252582091E+01	1.53085707701E+02	-4.08404844836E+01	-1.27944881717E+02	-5.92130273930E+00	-2.26735295817E-01
1.78682075786E+06	-1.25798202123E+01	-1.35086588652E+02	2.48468053527E+01	1.52484734030E+02	-4.52386998535E+01	7.59366225921E+01	-6.03590857665E+00	-1.27720791847E+00
1.80901211246E+06	-1.36506463383E+01	-1.74006332153E+02	2.47952323079E+01	1.52444575928E+02	-5.57951838455E+01	-2.39913639490E+00	-6.00737795319E+00	-8.23564410601E-01
1.83120346705E+06	-1.49983135394E+01	-1.78030778686E+02	2.47942723743E+01	1.52049746116E+02	-5.18822335918E+01	1.10076689307E+02	-5.93464073119E+00	-1.11734643272E+00
1.85339482165E+06	-1.54453679607E+01	1.64079248584E+02	2.47849324108E+01	1.51876207533E+02	-4.96667991697E+01	2.32724575493E+01	-6.06126288760E+00	-9.00199843932E-01
1.87558617624E+06	-1.39114579088E+01	-1.59471140177E+02	2.47752548996E+01	1.51292121928E+02	-4.82733799736E+01	6.51283311952E+01	-6.02519324090E+00	-1.23568017587E+00
1.89777753084E+06	-1.22992006932E+01	1.78082341881E+02	2.47240082282E+01	1.51028564338E+02	-4.50876844386E+01	7.49943869343E+01	-6.02526247799E+00	-1.31635331372E+00
1.91996888543E+06	-1.44445187772E+01	-1.76465996160E+02	2.47274728504E+01	1.50600087002E+02	-4.69030788664E+01	7.77352228621E+01	-6.02879349354E+00	-1.32534503381E+00
1.94216024003E+06	-1.76652346734E+01	1.76955057196E+02	2.47194127156E+01	1.50487200687E+02	-4.37339443846E+01	7.44688769979E+01	-6.04543843971E+00	-1.65591118765E+00
1.96435159462E+06	-1.56758579214E+01	1.64766101550E+02	2.47133698915E+01	1.50069788717E+02	-5.17623565564E+01	-1.70427008743E+02	-5.97556798296E+00	-9.05614944695E-01
1.98654294922E+06	-1.25784080569E+01	-1.64959015168E+02	2.46844951266E+01	1.49442531716E+02	-3.97358052517E+01	1.43383824844E+01	-6.09724254743E+00	-1.15844805429E+00
2.00873430381E+06	-1.15194313746E+01	1.73136886308E+02	2.46392085699E+01	1.49461293407E+02	-3.91425714459E+01	-1.24329671737E+02	-5.96203172251E+00	-6.84388817078E-01
2.03092565841E+06	-1.09441560865E+01	-1.72653038545E+02	2.46410386893E+01	1.48795167867E+02	-4.92658714235E+01	-8.91316776254E+01	-6.00964056292E+00	-7.02625826485E-01
2.05311701300E+06	-1.43879240556E+01	1.76931692698E+02	2.46586797290E+01	1.48830748182E+02	-4.06853554081E+01	1.02611703603E+02	-5.98594896980E+00	-1.84331564670E+00
2.07530836760E+06	-1.41295204090E+01	-1.67363950974E+02	2.46445478377E+01	1.48232136219E+02	-4.48337768848E+01	-1.53903194563E+02	-5.90660961509E+00	-5.10548477368E-01
2.09749972219E+06	-1.36060059387E+01	1.64275029039E+02	2.46224593155E+01	1.48022348418E+02	-4.79571265885E+01	-1.66265928119E+02	-5.95285599576E+00	-9.25539250040E-01
2.11969107679E+06	-1.30439277816E+01	1.75075682742E+02	2.45822562930E+01	1.47765692059E+02	-7.19466774046E+01	1.38823555390E+02	-5.98707262016E+00	-8.10804800657E-01
2.14188243138E+06	-1.61647923136E+01	1.74662091266E+02	2.46049816168E+01	1.47570439036E+02	-4.42198042000E+01	-9.23878023354E+01	-5.94625742601E+00	-5.76479747369E-01
2.16407378598E+06	-1.27985309195E+01	1.78118525846E+02	2.45702084099E+01	1.47082125146E+02	-4.13184826479E+01	-7.34864822611E+00	-6.07536969256E+00	-7.70482203962E-01
2.18626514057E+06	-1.43709591762E+01	-1.61041096840E+02	2.46061655188E+01	1.46610660763E+02	-3.99401301644E+01	-1.13549374265E+02	-5.92582861019E+00	1.19444658362E-01
2.20845649517E+06	-1.35259496358E+01	-1.79107238256E+02	2.45590721233E+01	1.46336009607E+02	-4.32371012161E+01	6.63937621792E+01	-6.02676908205E+00	-1.72953639718E+00
2.23064784976E+06	-1.45666439007E+01	-1.64647202136E+02	2.45423637868E+01	1.46035484454E+02	-4.31693152603E+01	-1.16623917521E+02	-5.99693774057E+00	2.07953394662E-01
2.25283920436E+06	-8.65529084210E+00	-1.66966340078E+02	2.45095995655E+01	1.45462491777E+02	-4.64319298664E+01	-8.10425627469E+00	-6.05982725029E+00	-9.94544099674E-01
2.27503055895E+06	-1.16795758036E+01	-1.54953013937E+02	2.45095397862E+01	1.45148913229E+02	-4.21163138550E+01	1.57599583574E+01	-6.10898349244E+00	-1.34603860368E+00
2.29722191355E+06	-1.76414125878E+01	1.59739779787E+02	2.45193817314E+01	1.45329844813E+02	-4.29643287568E+01	-4.69014913715E+01	-6.08447218592E+00	-5.71300052231E-01
2.31941326814E+06	-1.71268253743E+01	-1.62627669356E+02	2.45212832424E+01	1.44796126268E+02	-3.26613368400E+01	1.45676236117E+02	-5.83793135044E+00	-2.03015214930E+00
2.34160462274E+06	-1.80259988739E+01	-1.77785555334E+02	2.44780960445E+01	1.44520785184E+02	-4.55006452232E+01	1.26586663564E+02	-5.94215493068E+00	-1.49426476317E+00
2.36379597733E+06	-1.28329449910E+01	-1.73840234157E+02	2.44552240034E+01	1.44109079955E+02	-5.37292228421E+01	-1.66699808240E+00	-6.01884104174E+00	-1.08016805159E+00
2.38598733193E+06	-1.33823441853E+01	-1.62953019037E+02	2.44518917809E+01	1.43559165966E+02	-4.15780891042E+01	-1.49360043159E+02	-5.90226446544E+00	-9.04198033457E-01
2.40817868652E+06	-1.30302982195E+01	-1.55845911750E+02	2.44502966845E+01	1.43332294020E+02	-4.21225822754E+01	1.03357308380E+02	-5.97397040907E+00	-2.09586458453E+00
2.43037004112E+06	-1.23681433755E+01	1.77177920474E+02	2.43951512900E+01	1.43101582407E+02	-4.79162454691E+01	-1.40454640944E+02	-5.93596831072E+00	-1.23084623147E+00
2.45256139571E+06	-1.39464825833E+01	-1.71489335145E+02	2.43982289335E+01	1.42837003151E+02	-3.80073529945E+01	-8.09863034213E+01	-6.03757565572E+00	-1.43997278985E-01
2.47475275031E+06	-1.18415749898E+01	-1.62102313234E+02	2.43810754073E+01	1.42238973412E+02	-4.00349342434E+01	-1.71532798072E+02	-5.86629640656E+00	-1.08655274279E+00
2.49694410490E+06	-1.26282302405E+01	-1.54719766254E+02	2.43766344151E+01	1.41849135476E+02	-4.29040086137E+01	-2.30430993611E+01	-6.09086328627E+00	-7.75345794689E-01
2.51913545950E+06	-1.38268974422E+01	-1.63233516540E+02	2.43706852349E+01	1.41684359673E+02	-4.46941633899E+01	-1.71559679058E+02	-5.88095511018E+00	-9.54319835757E-01
2.54132681409E+06	-1.50983778596E+01	-1.58160199657E+02	2.43804958913E+01	1.41426181303E+02	-4.46003895947E+01	-1.47021026178E+02	-5.94675688637E+00	-8.86935668667E-01
2.56351816869E+06	-1.21339420005E+01	-1.32200371830E+02	2.43804497142E+01	1.40806732875E+02	-4.38950810151E+01	-1.05833679827E+02	-5.97599101455E+00	-4.87778299167E-01
2.58570952328E+06	-1.31657645746E+01	1.66658304793E+02	2.43158343977E+01	1.41009433250E+02	-4.72269678964E+01	7.80031625675E+00	-6.08095169397E+00	-1.09682676295E+00
2.60790087788E+06	-1.31996973323E+01	-1.58601763503E+02	2.42990487377E+01	1.40465820207E+02	-3.92642458128E+01	9.21716562774E+01	-6.00891060733E+00	-1.79880634543E+00
2.63009223247E+06	-1.44083174811E+01	-1.65344482196E+02	2.42623954690E+01	1.40204999015E+02	-4.76638452120E+01	1.14567400724E+02	-6.00112695684E+00	-9.59509087239E-01
2.65228358707E+06	-1.19293928017E+01	-1.57557162963E+02	2.42734467175E+01	1.39522464959E+02	-4.19639124968E+01	1.57515374945E+02	-5.88340772305E+00	-1.48770185174E+00
2.67447494166E+06	-1.26453261275E+01	-1.66697780890E+02	2.42359928230E+01	1.39350838244E+02	-4.56196979925E+01	1.47495026938E+02	-5.94292795839E+00	-1.55394129653E+00
2.69666629626E+06	-1.22125155673E+01	-1.53892867243E+02	2.42520270856E+01	1.39136896863E+02	-5.05319027859E+01	5.45154104749E+01	-6.06296074255E+00	-1.57580727304E+00
2.71885765085E+06	-1.31969776263E+01	-1.56038874311E+02	2.42412756732E+01	1.38813761159E+02	-5.25673735852E+01	1.24467407707E+02	-5.99210810227E+00	-1.50225296143E+00
2.74104900545E+06	-9.80130862798E+00	1.74497524186E+02	2.41285958490E+01	1.38596194749E+02	-4.81402103382E+01	-1.65273311364E+02	-5.93406211206E+00	-1.24124052133E+00
2.76324036004E+06	-1.36847863963E+01	-1.75151997756E+02	2.41715816486E+01	1.38346761287E+02	-3.98069794295E+01	3.51847631105E+01	-6.14707718866E+00	-1.70147454086E+00
2.78543171463E+06	-1.50740729685E+01	-1.48833848535E+02	2.42002765546E+01	1.37882604840E+02	-4.28049812743E+01	3.61120667671E+01	-6.09409540489E+00	-1.68856293143E+00
2.80762306923E+06	-1.31244382599E+01	1.77493662794E+02	2.41428190715E+01	1.37792640986E+02	-4.08607172458E+01	-8.23762177714E+01	-6.01965795607E+00	-3.77909765946E-01
2.82981442382E+06	-1.45240416080E+01	-1.66866878567E+02	2.41480205141E+01	1.37347893685E+02	-4.80895793275E+01	-3.73090301850E+01	-6.05668993731E+00	-8.58230849209E-01
2.85200577842E+06	-1.24897579051E+01	-1.78136900647E+02	2.40757136883E+01	1.36977466312E+02	-4.95598433067E+01	2.59084117257E+00	-6.07142587021E+00	-1.25128930696E+00
2.87419713301E+06	-1.81974556372E+01	1.67921393817E+02	2.41008174768E+01	1.36937929094E+02	-4.27823514864E+01	5.04819241185E+01	-6.06477230639E+00	-1.88299358886E+00
