# Hz S DB R 50
! CMT, M5065, 19127446, 24.2.4/2
! Date: 11/8/2024 3:27:09 PM
! Data: Format (Calibration Info)
! Freq	S11:dB/Ang(F2)	S21:dB/Ang(F2)	S12:dB/Ang(F2)	S22:dB/Ang(F2)
3.00000000000E+05	-1.30564957529E+01	-1.69909873106E+02	3.75226171874E+01	1.73576970203E+02	-5.56652230448E+01	-5.71854865397E+01	-5.95158427331E+00	-1.12756501513E+00
3.22191354595E+05	-1.78618283861E+01	-1.78923661671E+02	3.75710365944E+01	1.70296304985E+02	-4.99389212340E+01	1.69929882323E+02	-5.86002782118E+00	-8.94083399467E-01
3.44382709190E+05	-1.23572743283E+01	-1.70965157279E+02	3.74987242200E+01	1.67326996074E+02	-4.76601349492E+01	-3.36594259106E+01	-6.20938697202E+00	-6.70300258677E-02
3.66574063785E+05	-1.42944913799E+01	-1.43652395231E+02	3.75176739055E+01	1.64299585470E+02	-4.68432890274E+01	1.26236559790E+01	-6.30720299694E+00	-1.25177744513E+00
3.88765418380E+05	-1.79530487892E+01	-1.49846737594E+02	3.75712208449E+01	1.62089448001E+02	-3.79870550676E+01	1.06879280643E+02	-1.69098849766E+00	-8.89581191520E+00
4.10956772975E+05	-9.84919345555E+00	-1.67716108754E+02	3.74438041843E+01	1.59402820585E+02	-4.49468081960E+01	1.24844483223E+02	-5.88053078623E+00	-2.27544125721E+00
4.33148127570E+05	-1.75722050329E+01	-1.76702299903E+02	3.74723797863E+01	1.57377400065E+02	-4.22813508985E+01	6.62891456920E+01	-6.20286036905E+00	-2.45693933174E+00
4.55339482165E+05	-1.40328440629E+01	-1.78399869112E+02	3.74182663239E+01	1.55337481129E+02	-4.55022897189E+01	-2.51581744488E+01	-6.28237028807E+00	2.58024961398E-01
4.77530836760E+05	-1.25766838338E+01	-1.65980046888E+02	3.73829686179E+01	1.53054665011E+02	-4.41351047740E+01	8.55622364156E+01	-6.10829764591E+00	-3.07879415616E+00
4.99722191355E+05	-1.20698892097E+01	1.73740603263E+02	3.73259843624E+01	1.51511610747E+02	-4.83393353094E+01	-4.23699880159E+01	-6.13717024712E+00	8.22524543235E-02
5.21913545950E+05	-1.48224129888E+01	-1.66979024010E+02	3.73236543198E+01	1.49470642110E+02	-4.89552385192E+01	-9.38962659493E+01	-5.94533934351E+00	-4.20787278301E-01
5.44104900545E+05	-1.38478426229E+01	1.73715319391E+02	3.72738650066E+01	1.47890784840E+02	-4.56168195140E+01	-3.65750016288E+01	-6.15249089011E+00	3.82543855544E-01
5.66296255139E+05	-1.39154295874E+01	-1.76887160229E+02	3.71965002521E+01	1.46380305163E+02	-4.18218768514E+01	-3.31770563906E+01	-6.25089745276E+00	2.47787857955E+00
5.88487609734E+05	-1.18847569292E+01	1.77565718269E+02	3.71674209324E+01	1.44674216940E+02	-3.29985798031E+01	-3.63945608051E+01	-6.21571071490E+00	6.21091217039E+00
6.10678964329E+05	-1.21711563881E+01	1.67424140404E+02	3.71318616736E+01	1.43511422510E+02	-4.45760128679E+01	-2.24046609822E+01	-6.22867572899E+00	2.05325717922E+00
6.32870318924E+05	-1.25065999079E+01	1.70784151346E+02	3.70959156786E+01	1.42182307642E+02	-4.27597599277E+01	1.78286340649E+02	-5.69665572729E+00	-2.39862013501E+00
6.55061673519E+05	-1.34536402956E+01	-1.78991628230E+02	3.70532267184E+01	1.40646725292E+02	-4.53913322218E+01	-1.49420523145E+02	-5.65290021144E+00	-7.54990058043E-01
6.77253028114E+05	-1.34616175086E+01	-1.61824218364E+02	3.70082659360E+01	1.39098195840E+02	-5.02622065054E+01	-8.81491313240E+01	-5.95790903065E+00	-3.49527429907E-01
6.99444382709E+05	-1.50900723504E+01	-1.75207486069E+02	3.69308003347E+01	1.38044201378E+02	-4.74031629917E+01	1.11617050572E+02	-6.06612514394E+00	-2.32013430808E+00
7.21635737304E+05	-1.23048706514E+01	-1.78570144423E+02	3.68782141775E+01	1.36746396479E+02	-4.95476912082E+01	9.95320725581E+01	-6.20799958649E+00	-1.71862992852E+00
7.43827091899E+05	-1.38221626215E+01	-1.53398472957E+02	3.68041580584E+01	1.35405235265E+02	-4.62121732207E+01	1.97171090333E+01	-6.23614395093E+00	-1.22296222327E+00
7.66018446494E+05	-1.12805994173E+01	-1.63588344434E+02	3.67084909824E+01	1.34373362027E+02	-5.31865476746E+01	-2.53481958857E+01	-6.06052658084E+00	3.05789699570E-01
7.88209801089E+05	-1.00780719487E+01	-1.68707213809E+02	3.66353366893E+01	1.33220514447E+02	-4.95097230797E+01	6.39100777095E+00	-6.22638574513E+00	-4.65049350747E-01
8.10401155684E+05	-1.55168613658E+01	1.78714623856E+02	3.65922955710E+01	1.32328834386E+02	-4.05924440624E+01	-3.72803611196E-01	-6.47460189360E+00	1.68272492666E+00
8.32592510279E+05	-1.24818747516E+01	-1.62862468744E+02	3.65127917561E+01	1.31117633770E+02	-5.30373068596E+01	2.11568298281E+01	-6.09999513191E+00	-9.66939360169E-01
8.54783864874E+05	-1.28591171725E+01	-1.58143070727E+02	3.64217160111E+01	1.30263203097E+02	-4.86433139034E+01	9.94899539214E+01	-6.16680639548E+00	-2.17038841704E+00
8.76975219469E+05	-1.56168994120E+01	-1.69144747213E+02	3.63907460953E+01	1.29358534924E+02	-4.65599776865E+01	-9.99835937219E+01	-5.95730624239E+00	-5.56511819133E-04
8.99166574064E+05	-1.54272253583E+01	-1.65454954620E+02	3.61018011708E+01	1.28501251161E+02	-4.19164550766E+01	-1.25569828321E+02	-5.59646434467E+00	-3.17962706326E-01
9.21357928659E+05	-1.32476070804E+01	1.70100227746E+02	3.62035530161E+01	1.27615814750E+02	-4.41037493162E+01	-1.26151711643E+02	-5.76026943200E+00	-2.62302721238E-02
9.43549283254E+05	-1.27546057001E+01	-1.67207690593E+02	3.61059319398E+01	1.26536880549E+02	-5.05802235165E+01	1.77168052101E+02	-5.87293734222E+00	-1.10464526252E+00
9.65740637849E+05	-1.36742001089E+01	-1.73184883663E+02	3.60285569842E+01	1.25789348904E+02	-5.41866845490E+01	-1.14985271607E+02	-5.94556385084E+00	-3.65930644604E-01
9.87931992444E+05	-1.18100511170E+01	1.70527686314E+02	3.59074953982E+01	1.25080741589E+02	-5.02982283745E+01	5.18200993814E+01	-6.26419802181E+00	-4.81141175310E-01
1.01012334704E+06	-1.40344109111E+01	1.63902514205E+02	3.58480931685E+01	1.24328199256E+02	-4.16172029078E+01	1.60435692225E+02	-5.88508745253E+00	-3.11015987792E+00
1.03231470163E+06	-1.65874791753E+01	1.66931828842E+02	3.57756281638E+01	1.23501745533E+02	-4.20547278514E+01	6.49991772926E+01	-6.44918413640E+00	-1.31884575702E+00
1.05450605623E+06	-1.83644870572E+01	-1.43305614756E+02	3.57001118752E+01	1.22497725628E+02	-6.37602216041E+01	-2.80635711664E+00	-6.03300151010E+00	-1.49455844425E+00
1.07669741082E+06	-1.26377734531E+01	1.73978565210E+02	3.55313388054E+01	1.21865558212E+02	-4.47452322236E+01	3.65622708159E+01	-5.94557331839E+00	-2.13644936900E+00
1.09888876542E+06	-1.44956736736E+01	-1.72459324751E+02	3.54723757066E+01	1.21044680930E+02	-4.95041402189E+01	1.41755993603E+02	-5.96783260175E+00	-1.59907356187E+00
1.12108012001E+06	-1.45617494059E+01	1.76543632362E+02	3.53710778417E+01	1.20556561963E+02	-4.85263754465E+01	1.47822472769E+02	-6.00091313838E+00	-2.11611826796E+00
1.14327147461E+06	-1.52613105417E+01	1.66514968006E+02	3.52663951165E+01	1.20036057560E+02	-4.31241511031E+01	1.24957323574E+02	-6.05073950177E+00	-2.45290207532E+00
1.16546282920E+06	-1.49636661509E+01	1.73997022008E+02	3.51481088880E+01	1.19185785129E+02	-4.51229057923E+01	-7.35984316633E+01	-5.95116972954E+00	8.66297948859E-01
1.18765418380E+06	-1.20674835862E+01	-1.65742180046E+02	3.50509657815E+01	1.18392918999E+02	-4.38508907833E+01	8.73968819476E+01	-6.13979061875E+00	-2.08175379091E+00
1.20984553839E+06	-1.42106761612E+01	1.68058334275E+02	3.49544735039E+01	1.17949617746E+02	-6.04674114750E+01	6.72248962708E+01	-6.15762609102E+00	-6.32371583758E-01
1.23203689299E+06	-1.46660647429E+01	-1.67225917472E+02	3.48680537971E+01	1.17138480817E+02	-4.92011132529E+01	1.11612105139E+02	-6.04918097543E+00	-1.70176170862E+00
1.25422824758E+06	-1.43536543563E+01	1.68738538176E+02	3.47306761940E+01	1.16734583847E+02	-4.86511058394E+01	-2.81958007594E+01	-6.11014969244E+00	5.07417987140E-01
1.27641960218E+06	-1.20432745895E+01	-1.74118251294E+02	3.46191469413E+01	1.15970310731E+02	-5.08228322767E+01	6.48052164152E+01	-6.15771075305E+00	-8.78097480182E-01
1.29861095677E+06	-1.17438360794E+01	-1.57596292554E+02	3.45270213385E+01	1.15137876117E+02	-3.61675227514E+01	6.96719367671E+01	-6.57103494255E+00	-2.74473746241E+00
1.32080231137E+06	-1.53758763368E+01	1.63264764810E+02	3.44422573645E+01	1.15072753166E+02	-4.63829519938E+01	1.21042392101E+02	-6.12109628380E+00	-2.24392725237E+00
1.34299366596E+06	-1.67332095844E+01	1.77118026262E+02	3.43529312036E+01	1.14379329412E+02	-4.73818968044E+01	1.05593393827E+02	-6.04701673553E+00	-1.79587028635E+00
1.36518502056E+06	-1.27694147199E+01	1.70647026247E+02	3.42127608672E+01	1.13874629696E+02	-4.35348121266E+01	9.58773719239E+01	-6.17679394908E+00	-2.76447136110E+00
1.38737637515E+06	-1.39566794317E+01	1.77297027676E+02	3.41128375715E+01	1.13282100275E+02	-4.53516260368E+01	5.72288851564E+01	-6.21353250420E+00	-8.72347073931E-01
1.40956772975E+06	-1.58028080801E+01	-1.63397316350E+02	3.40145634611E+01	1.12619316940E+02	-5.53474851563E+01	-1.22250908700E+02	-5.94322509601E+00	-6.28860861478E-01
1.43175908434E+06	-1.26280825010E+01	-1.51715085866E+02	3.39124040630E+01	1.11922853075E+02	-4.97655903429E+01	1.69077226525E+01	-6.13216362552E+00	-3.71358342470E-01
1.45395043894E+06	-1.59147566138E+01	1.71490593918E+02	3.38032581308E+01	1.11770876281E+02	-4.97989451582E+01	-7.42683190848E+01	-5.97940852909E+00	7.19910463553E-02
1.47614179353E+06	-1.26023421946E+01	-1.73839102431E+02	3.36753460309E+01	1.11101411466E+02	-4.15190338126E+01	1.71566977104E+02	-5.83645304147E+00	-2.14816906677E+00
1.49833314813E+06	-1.44003042165E+01	-1.77951471482E+02	3.35892994691E+01	1.10810921483E+02	-4.58963347484E+01	6.54957361240E+00	-6.19544435799E+00	-1.83303028582E-01
1.52052450272E+06	-1.59688949539E+01	-1.76724457171E+02	3.35130222918E+01	1.10205142696E+02	-4.15425054632E+01	-1.37888868597E+01	-6.15576572573E+00	1.06356795081E+00
1.54271585732E+06	-1.72246473025E+01	-1.70048144697E+02	3.34146337388E+01	1.09778251063E+02	-4.95416462419E+01	-1.10955963734E+02	-5.88056269388E+00	-6.12424020783E-01
1.56490721191E+06	-1.04079409313E+01	-1.71070142218E+02	3.32558432669E+01	1.09184583862E+02	-4.45767660731E+01	5.28058470140E+00	-6.18089461286E+00	6.80280481805E-02
1.58709856651E+06	-1.36779266726E+01	1.73583305866E+02	3.31788999563E+01	1.08964032371E+02	-6.21334594357E+01	-1.41476767378E+02	-5.99070427738E+00	-7.89336672744E-01
1.60928992110E+06	-1.42254121128E+01	1.70689950775E+02	3.30692106324E+01	1.08608104761E+02	-4.87284808196E+01	-1.53921205941E+02	-5.90433691443E+00	-1.06478296230E+00
1.63148127570E+06	-1.15872763381E+01	-1.74477088002E+02	3.29528268398E+01	1.07905677451E+02	-3.96274633332E+01	1.01508679663E+02	-6.27924150353E+00	-2.87301296168E+00
1.65367263029E+06	-1.28433003005E+01	1.74252395430E+02	3.28772016260E+01	1.07595229868E+02	-4.91759739194E+01	-1.29149382751E+02	-5.90295308213E+00	-8.26522599546E-01
1.67586398489E+06	-1.77094827363E+01	-1.57747856954E+02	3.28135852728E+01	1.07021874277E+02	-3.30030979614E+01	-1.54095216878E+02	-5.31165666331E+00	-3.79227013163E+00
1.69805533948E+06	-1.49921356533E+01	-1.78040504925E+02	3.27001272752E+01	1.06770134485E+02	-4.29117838079E+01	1.70406924887E+02	-5.84092174917E+00	-2.04280336425E+00
1.72024669408E+06	-1.53833938370E+01	1.46119559889E+02	3.26010036966E+01	1.06518493746E+02	-4.24031518985E+01	-1.63056456843E+02	-5.79977884989E+00	-1.95543289246E+00
1.74243804867E+06	-1.65721496545E+01	-1.74126245089E+02	3.25109615003E+01	1.05918214257E+02	-4.24391870485E+01	1.49357908461E+02	-5.93467431202E+00	-2.98234198349E+00
1.76462940327E+06	-1.28931341763E+01	-1.79078609862E+02	3.23873321288E+01	1.05572009534E+02	-5.43416289477E+01	3.59947354197E+01	-6.05615572755E+00	-5.56408903213E-01
1.78682075786E+06	-1.27366734572E+01	-1.72703177926E+02	3.23030663225E+01	1.05104523039E+02	-4.70912326915E+01	-6.71929957684E+01	-5.95583499835E+00	1.72005321808E-01
1.80901211246E+06	-1.41553824047E+01	-1.57593826294E+02	3.22239810572E+01	1.04748490989E+02	-4.09415627029E+01	3.60632613206E+01	-6.31912277717E+00	-4.56512109302E-01
1.83120346705E+06	-1.42964192491E+01	-1.70804979617E+02	3.20979204276E+01	1.04387342782E+02	-3.05510799110E+01	9.37698977067E+01	-6.91271957487E+00	-5.60944639511E+00
1.85339482165E+06	-1.72553975796E+01	-1.55251851012E+02	3.20587000612E+01	1.04018767656E+02	-5.39822567551E+01	-8.53953844016E+01	-5.96112436884E+00	-8.50979780127E-01
1.87558617624E+06	-1.16850946199E+01	-1.66888064860E+02	3.18915827091E+01	1.03542237625E+02	-4.46846745354E+01	1.69242785611E+01	-6.16493107911E+00	1.51328761309E-02
1.89777753084E+06	-1.22886216478E+01	-1.52739758335E+02	3.18435977602E+01	1.03033468120E+02	-5.29964907432E+01	-1.21984755137E+02	-5.94083683728E+00	-6.45213470399E-01
1.91996888543E+06	-1.48553422310E+01	-1.75051134209E+02	3.17465007096E+01	1.02948523360E+02	-4.76544456044E+01	-1.11766991074E+02	-5.92381375381E+00	-6.36144698995E-01
1.94216024003E+06	-1.46730973961E+01	1.76516369822E+02	3.16543071957E+01	1.02718473843E+02	-4.13859983419E+01	-1.55609194165E+02	-5.79659717456E+00	-1.79292911225E+00
1.96435159462E+06	-1.23655132419E+01	-1.71617913778E+02	3.15537509394E+01	1.02268473407E+02	-4.72874853798E+01	4.62949826920E+01	-6.17376962103E+00	-8.78797540281E-01
1.98654294922E+06	-1.40120676852E+01	-1.68216415988E+02	3.14860362955E+01	1.01902220052E+02	-4.13374019884E+01	1.48236815994E+02	-6.00582061129E+00	-3.20479590388E+00
2.00873430381E+06	-1.50951800412E+01	-1.55841205970E+02	3.14164166781E+01	1.01497645170E+02	-3.76511844715E+01	-1.54230726059E+02	-5.60872720606E+00	-2.23438118074E+00
2.03092565841E+06	-1.85612378625E+01	1.79506381735E+02	3.13225153797E+01	1.01561471446E+02	-4.00242592013E+01	-8.14938481305E+01	-5.76090908163E+00	4.96005022295E-01
2.05311701300E+06	-1.63453436809E+01	-1.61493725260E+02	3.12645793211E+01	1.00910474601E+02	-4.55300077832E+01	-1.61600996699E+01	-6.06817579436E+00	5.42403727343E-02
2.07530836760E+06	-1.30640054024E+01	-1.58021368111E+02	3.11463643882E+01	1.00564938254E+02	-4.43115953775E+01	-6.47940576628E+01	-5.93483678274E+00	5.72891624061E-01
2.09749972219E+06	-1.23850990682E+01	1.76833963169E+02	3.10268785751E+01	1.00289916278E+02	-3.99857429119E+01	2.25398004870E+01	-6.30168080388E+00	3.83269693307E-01
2.11969107679E+06	-1.51178292275E+01	-1.60322807698E+02	3.09855690933E+01	9.99232161036E+01	-3.66446247056E+01	-1.43918759054E+02	-5.57125950389E+00	-1.69704290767E+00
2.14188243138E+06	-1.42149569353E+01	-1.77667807765E+02	3.08846262423E+01	9.98887996898E+01	-3.40621044080E+01	-1.65222417963E+02	-5.62450861152E+00	-3.67949382004E+00
2.16407378598E+06	-1.09150191008E+01	-1.65964733353E+02	3.07870561134E+01	9.92026067869E+01	-3.58164491547E+01	-1.14859160434E+02	-5.56031273696E+00	-7.52078283048E-01
2.18626514057E+06	-1.29725460239E+01	-1.46611081536E+02	3.07046945195E+01	9.88795086329E+01	-4.78251757802E+01	8.62404989988E+01	-6.11656501408E+00	-1.49188266841E+00
2.20845649517E+06	-1.58328735538E+01	1.39518701234E+02	3.06339641442E+01	9.92271919029E+01	-4.36746349598E+01	-9.43639446633E+01	-5.86141744818E+00	-3.02340689462E-01
2.23064784976E+06	-1.59671830202E+01	1.72639786599E+02	3.05719400716E+01	9.88628274587E+01	-5.04430152830E+01	4.66344042797E+01	-6.31275816722E+00	-9.48620351725E-01
2.25283920436E+06	-1.61183679088E+01	-1.62835458490E+02	3.04980733609E+01	9.83333485053E+01	-5.62535998660E+01	-2.22173730148E+00	-6.02995231354E+00	-9.99107272904E-01
2.27503055895E+06	-1.57926906269E+01	-1.72344195593E+02	3.04068430634E+01	9.79604912585E+01	-4.12851735711E+01	-7.79141670276E+01	-5.85022743993E+00	1.56673113281E-01
2.29722191355E+06	-1.44005130969E+01	-1.52473683913E+02	3.03393261199E+01	9.76802694866E+01	-4.11038958426E+01	-2.88125471377E+01	-5.99400716750E+00	1.11845654695E+00
2.31941326814E+06	-1.56422733426E+01	-1.43445492614E+02	3.02680358566E+01	9.74640013288E+01	-4.63027656430E+01	6.73860633106E+01	-6.11812777493E+00	-1.70497451795E+00
2.34160462274E+06	-1.27241220510E+01	1.75673776578E+02	3.01210541645E+01	9.72413016245E+01	-5.34928311022E+01	-1.25289686093E+02	-6.00626189603E+00	-1.01849800544E+00
2.36379597733E+06	-1.14135889971E+01	-1.66835216647E+02	3.00588593095E+01	9.67731048351E+01	-4.56053028636E+01	-1.69515860305E+02	-5.88726235958E+00	-1.69986536894E+00
2.38598733193E+06	-1.73934631529E+01	-1.78446392137E+02	3.00214134490E+01	9.68509041483E+01	-4.53183722274E+01	1.51501908565E+02	-5.98172727410E+00	-1.97792948691E+00
2.40817868652E+06	-1.42349794116E+01	1.63900225261E+02	2.99096143128E+01	9.65793013267E+01	-4.34945748503E+01	-7.10261004089E+01	-5.92715168237E+00	1.44981937629E-01
2.43037004112E+06	-1.41149716914E+01	-1.50477372110E+02	2.98741704068E+01	9.59306519492E+01	-4.09105353136E+01	-7.78375596667E+01	-5.84288513618E+00	-1.87092432792E-01
2.45256139571E+06	-1.55876461755E+01	-1.70481825011E+02	2.97903475638E+01	9.59456675227E+01	-4.03925039025E+01	-8.46961339708E+01	-5.84180363664E+00	3.73052270554E-01
2.47475275031E+06	-1.49769946108E+01	-1.70176562525E+02	2.97091872455E+01	9.55902277181E+01	-4.57830773562E+01	1.35809445024E+02	-6.08517040888E+00	-2.28326933249E+00
2.49694410490E+06	-1.33811076775E+01	-1.73169322398E+02	2.96059014260E+01	9.52962701537E+01	-4.21678907796E+01	-1.69452524617E+02	-5.82006971292E+00	-2.07950467428E+00
2.51913545950E+06	-1.35776923031E+01	1.43321108608E+02	2.95504812372E+01	9.55756670104E+01	-4.97112362336E+01	1.48833931506E+02	-6.00759344593E+00	-1.35563113045E+00
2.54132681409E+06	-1.47119680792E+01	-1.66722839904E+02	2.94964345106E+01	9.47584649103E+01	-4.05575176931E+01	-1.80088407494E+01	-6.09602541720E+00	1.30598881845E-01
2.56351816869E+06	-1.26680865229E+01	-1.69988319651E+02	2.93856088458E+01	9.44773725394E+01	-4.53821179163E+01	4.79155762292E+01	-6.15176844592E+00	-1.32252307532E+00
2.58570952328E+06	-1.64160866953E+01	-1.70746148761E+02	2.93658913704E+01	9.43843452907E+01	-5.60097053425E+01	-1.38876839683E+02	-5.97489034879E+00	-1.06549145462E+00
2.60790087788E+06	-1.15664085754E+01	-1.75345859577E+02	2.92333167933E+01	9.39762229400E+01	-4.34270259269E+01	-1.46540105007E+02	-5.82271214204E+00	-1.74607897857E+00
2.63009223247E+06	-1.40523998785E+01	-1.65145598233E+02	2.92082633147E+01	9.37302359119E+01	-3.21409771743E+01	-1.68616036479E+02	-5.55464200628E+00	-4.30268875627E+00
2.65228358707E+06	-1.20929881364E+01	-1.74729750042E+02	2.91121222236E+01	9.34973506940E+01	-5.82026896338E+01	-9.09588035918E+01	-5.97220070679E+00	-1.19881686346E+00
2.67447494166E+06	-9.73393161167E+00	-1.50417005593E+02	2.90632542215E+01	9.28341008009E+01	-3.96781037946E+01	1.83422142431E+01	-6.24952213253E+00	-2.81833293560E-01
2.69666629626E+06	-1.71187718953E+01	1.77873711468E+02	2.90166161762E+01	9.34020888197E+01	-4.43243651081E+01	1.01870210428E+02	-6.11938938539E+00	-2.26522957453E+00
2.71885765085E+06	-1.44857899967E+01	-1.61166892249E+02	2.89346521551E+01	9.28332774536E+01	-5.25493357416E+01	-7.40203221530E+01	-5.99385926560E+00	-7.93127296275E-01
2.74104900545E+06	-1.39794186950E+01	1.77051360489E+02	2.88543098412E+01	9.28470860362E+01	-5.04943104097E+01	-2.57257809995E+01	-6.03532269222E+00	-7.54497129033E-01
2.76324036004E+06	-1.39230076717E+01	-1.58406736598E+02	2.87993791032E+01	9.21832960277E+01	-4.48166071484E+01	-9.21580751616E+01	-5.81284443562E+00	-5.25758574336E-01
2.78543171463E+06	-1.64523137410E+01	-1.72612247109E+02	2.87336821764E+01	9.23595235381E+01	-4.35393612906E+01	-1.27753884509E+02	-5.78232076515E+00	-1.09298480889E+00
2.80762306923E+06	-1.43545247623E+01	-1.66121422380E+02	2.86706171626E+01	9.20379572865E+01	-4.70490450772E+01	9.98740509446E+01	-6.05245595112E+00	-1.80970020723E+00
2.82981442382E+06	-1.29494244532E+01	-1.52860177913E+02	2.86127586516E+01	9.15574516759E+01	-5.19200567043E+01	1.51784232988E+01	-6.07629705642E+00	-1.00207197661E+00
2.85200577842E+06	-1.39559803659E+01	1.73536466355E+02	2.84914070244E+01	9.16142413220E+01	-4.51048897255E+01	-9.85012054485E+01	-5.87689242319E+00	-7.91076489121E-01
2.87419713301E+06	-1.30928529633E+01	-1.62890597956E+02	2.84417663425E+01	9.11115657657E+01	-3.97355381714E+01	1.38206276412E+02	-6.02254639919E+00	-3.03532127664E+00
