# Hz S DB R 50
! CMT, M5065, 19127446, 24.2.4/2
! Date: 11/8/2024 2:51:22 PM
! Data: Format (Calibration Info)
! Freq	S11:dB/Ang(F2)	S21:dB/Ang(F2)	S12:dB/Ang(F2)	S22:dB/Ang(F2)
3.00000000000E+05	-1.21483196454E+01	-1.48430976753E+02	6.74824984158E+00	-1.77777968172E+02	-4.01209414492E+01	-1.66876313721E+01	-6.03239348325E+00	-2.81579086170E-01
3.22191354595E+05	-1.37256040615E+01	1.67603530189E+02	6.77297094370E+00	-1.78057931415E+02	-5.20057512763E+01	-1.05339070668E+02	-6.00768555627E+00	-3.39735259486E-01
3.44382709190E+05	-1.79917392939E+01	-1.63285713120E+02	6.76768591987E+00	-1.78421231924E+02	-4.87447696020E+01	-1.02080022773E+02	-5.97882797189E+00	-2.98878191005E-01
3.66574063785E+05	-1.34608777666E+01	1.70715321501E+02	6.75096580118E+00	-1.78488968288E+02	-5.71334195203E+01	-1.30073855238E+02	-6.00688214963E+00	-2.43497995453E-01
3.88765418380E+05	-1.59159191812E+01	-1.63886881867E+02	6.73585169385E+00	-1.79302023614E+02	-4.35732430009E+01	-3.60685665777E+00	-5.99640884172E+00	-3.37201454615E-01
4.10956772975E+05	-1.60365888699E+01	1.44274341383E+02	6.77223333286E+00	-1.78735761162E+02	-4.48131499677E+01	8.81079630320E+01	-6.02362833534E+00	-4.01334496030E-01
4.33148127570E+05	-1.50571623064E+01	-1.64234966529E+02	6.76505465515E+00	-1.79410061417E+02	-4.95818551976E+01	-2.31551225281E+01	-6.01371924419E+00	-9.04872680782E-02
4.55339482165E+05	-1.14840237273E+01	-1.60964179233E+02	6.76030914363E+00	-1.79771157480E+02	-5.52217543890E+01	-7.71409899305E+01	-6.00217398499E+00	-1.93681676068E-01
4.77530836760E+05	-1.17812359841E+01	-1.71191106347E+02	6.72649627000E+00	-1.79667480634E+02	-6.89517392418E+01	1.57664071707E+02	-6.01449349088E+00	-2.65461985501E-01
4.99722191355E+05	-1.48319938637E+01	-1.69746379616E+02	6.73626554601E+00	-1.79801790154E+02	-4.40572347010E+01	9.08134676407E+01	-5.97717089072E+00	-2.53649203576E-01
5.21913545950E+05	-1.42225205795E+01	1.57980363701E+02	6.77367891521E+00	-1.79904427346E+02	-5.05451604339E+01	-4.84984707289E+01	-6.01547627875E+00	-2.93069086444E-01
5.44104900545E+05	-1.32167422790E+01	-1.74870914795E+02	6.71185069680E+00	1.79909959160E+02	-4.03260951068E+01	1.03537137477E+02	-6.02218097909E+00	-4.18443065474E-01
5.66296255139E+05	-1.33031607043E+01	1.73740393155E+02	6.74445609875E+00	1.79779919226E+02	-4.69152479050E+01	9.53662172533E+00	-5.99530288303E+00	-1.64233429277E-01
5.88487609734E+05	-1.34536526791E+01	1.73035116555E+02	6.75821304867E+00	1.79378020517E+02	-4.06775874467E+01	8.61786323064E+01	-5.99659349015E+00	-4.28301437576E-01
6.10678964329E+05	-1.49668220362E+01	-1.35926154176E+02	6.79371093109E+00	1.79228728350E+02	-5.15380679697E+01	1.41967003031E+02	-5.99556957508E+00	1.03083724499E-01
6.32870318924E+05	-1.26771026578E+01	-1.64998156968E+02	6.75750837773E+00	1.79172322829E+02	-4.45757532889E+01	-1.93179551495E+01	-6.02191205811E+00	6.41587259947E-02
6.55061673519E+05	-1.26310722394E+01	1.74952717663E+02	6.76890206157E+00	1.79029733770E+02	-4.80281969550E+01	-4.36903615632E+01	-6.02581948160E+00	-1.83763041385E-01
6.77253028114E+05	-1.26339680748E+01	-1.74527855372E+02	6.74409123678E+00	1.78826384510E+02	-4.56178139191E+01	-1.69831244366E+02	-5.95966485483E+00	-6.04360994348E-01
6.99444382709E+05	-1.34975959952E+01	-1.79047214835E+02	6.78384410972E+00	1.78661683378E+02	-4.34004167543E+01	7.33102146818E+01	-5.99995892491E+00	-3.90287321622E-01
7.21635737304E+05	-1.40491472194E+01	-1.66914805680E+02	6.79347232086E+00	1.78408212165E+02	-4.74327870321E+01	6.77536976043E+01	-6.00469449150E+00	-2.24226301631E-01
7.43827091899E+05	-1.43520232923E+01	1.71634726922E+02	6.72418499642E+00	1.78351663517E+02	-4.16728478080E+01	1.13633974627E+01	-6.02896628560E+00	-4.11959945370E-01
7.66018446494E+05	-1.38367389132E+01	1.78271116185E+02	6.78447496929E+00	1.78351900431E+02	-5.23257601868E+01	1.47601958755E+02	-5.99023282142E+00	-3.30816792931E-01
7.88209801089E+05	-9.87848316803E+00	1.51415706907E+02	6.76341559355E+00	1.78575195304E+02	-5.52952853273E+01	1.45826542756E+02	-6.00419248771E+00	-3.16192755678E-01
8.10401155684E+05	-1.63876461980E+01	1.68163967195E+02	6.79459049372E+00	1.78092885250E+02	-4.81117828722E+01	-1.77300061655E+01	-6.02277228490E+00	-4.01846694609E-01
8.32592510279E+05	-1.34017730855E+01	1.68385930668E+02	6.79586162102E+00	1.77861390381E+02	-4.14108786221E+01	-1.00587080737E+02	-6.00697338557E+00	-4.02850303249E-01
8.54783864874E+05	-1.50477568740E+01	-1.64345088173E+02	6.80898226048E+00	1.78156902268E+02	-5.05561059115E+01	5.15859714809E+01	-5.99976057303E+00	-4.49155278277E-01
8.76975219469E+05	-1.63191651545E+01	-1.59596941884E+02	6.83874482781E+00	1.77588132850E+02	-4.68577702009E+01	-1.58988791771E+02	-5.99957678729E+00	-4.01590508641E-01
8.99166574064E+05	-1.30115908430E+01	1.73598923734E+02	6.74107670881E+00	1.77904546258E+02	-4.39689290382E+01	-1.43646033462E+02	-6.00307682842E+00	-2.22632022020E-01
9.21357928659E+05	-1.25934425333E+01	-1.58021967577E+02	6.76810998919E+00	1.77341634282E+02	-4.28165000362E+01	1.67235723547E+01	-6.01515145355E+00	-5.70354335497E-01
9.43549283254E+05	-1.60414568684E+01	-1.68629633609E+02	6.80213085718E+00	1.77355531363E+02	-4.66577555332E+01	1.16322164996E+02	-6.00146704845E+00	-7.08803507105E-01
9.65740637849E+05	-1.46891624226E+01	1.63282382191E+02	6.81309857632E+00	1.77416084225E+02	-4.69766525930E+01	1.24494128828E+02	-5.99622973202E+00	-4.84935842390E-01
9.87931992444E+05	-1.59681080104E+01	1.70267140422E+02	6.80086600606E+00	1.77292095718E+02	-4.55460935309E+01	-7.24070350700E-01	-6.01825313878E+00	-3.52668279576E-01
1.01012334704E+06	-1.49968871313E+01	-1.59254985795E+02	6.77722289146E+00	1.76943692789E+02	-4.64604501271E+01	1.29689712516E+02	-5.99037874844E+00	-4.90974557958E-01
1.03231470163E+06	-1.46351245518E+01	-1.76762197292E+02	6.75048685980E+00	1.76721127759E+02	-4.89987743661E+01	5.05675499469E+01	-5.99395158638E+00	-6.37470856656E-01
1.05450605623E+06	-1.26112285571E+01	-1.71666256819E+02	6.75857952315E+00	1.76998868705E+02	-4.12044967635E+01	-6.71803582939E+00	-6.00456858500E+00	-4.27106254655E-01
1.07669741082E+06	-1.07884692266E+01	-1.76108557908E+02	6.71752785832E+00	1.76705405163E+02	-4.62461722263E+01	2.81535791587E+01	-6.01286595391E+00	-6.50966999225E-01
1.09888876542E+06	-1.58728518932E+01	1.61720845113E+02	6.78880767351E+00	1.76611374193E+02	-4.52678944930E+01	1.79459471142E+02	-5.95605021478E+00	-5.63717950379E-01
1.12108012001E+06	-1.36750236998E+01	-1.75870978721E+02	6.75105270410E+00	1.76738274290E+02	-4.00322285277E+01	-1.95530377921E+01	-6.02714697643E+00	-5.05700883341E-01
1.14327147461E+06	-1.57233647994E+01	-1.63351814643E+02	6.81262149561E+00	1.76338160918E+02	-4.61691724651E+01	5.46325721323E+01	-6.01373822670E+00	-6.21959645587E-01
1.16546282920E+06	-1.37893951128E+01	-1.79107354572E+02	6.80497420084E+00	1.76343777524E+02	-4.38169831498E+01	-4.66972550691E+01	-6.01342916650E+00	-4.74186102409E-01
1.18765418380E+06	-1.30012293455E+01	-1.79938053865E+02	6.75572312839E+00	1.76014514550E+02	-4.54714303383E+01	-1.29827672013E+02	-5.97896156516E+00	-5.08796398784E-01
1.20984553839E+06	-1.34869616214E+01	-1.78763722956E+02	6.77011763974E+00	1.76104394240E+02	-4.49850448054E+01	-5.99387143284E+01	-5.99522969305E+00	-6.60741117989E-01
1.23203689299E+06	-1.39824794208E+01	1.78070467255E+02	6.79377800459E+00	1.75764493122E+02	-5.50014269007E+01	1.30125583014E+02	-5.99661277174E+00	-4.02657041813E-01
1.25422824758E+06	-1.20300741936E+01	-1.78879432991E+02	6.74278825630E+00	1.75900775947E+02	-4.66370767921E+01	-1.73464824247E+02	-5.99285333744E+00	-5.52158616486E-01
1.27641960218E+06	-1.38330787777E+01	-1.51836232188E+02	6.76902694135E+00	1.75545037035E+02	-5.46505670803E+01	1.23282396437E+02	-6.00013437190E+00	-5.60456168655E-01
1.29861095677E+06	-1.87971053898E+01	-1.58421146229E+02	6.81361533404E+00	1.75920022536E+02	-4.32933382934E+01	1.74880731619E+02	-5.96084139910E+00	-3.20866238886E-01
1.32080231137E+06	-1.34603018939E+01	-1.76485604866E+02	6.78902507234E+00	1.75426168210E+02	-4.72518496457E+01	-2.31182385609E+01	-5.99900799172E+00	-8.81043455267E-01
1.34299366596E+06	-1.49492709060E+01	1.77449366657E+02	6.77481990286E+00	1.75279808208E+02	-3.94716327784E+01	-4.67062037360E+01	-6.01558664749E+00	-6.91159571611E-01
1.36518502056E+06	-1.60238955634E+01	-1.62278106952E+02	6.82166794354E+00	1.75389115989E+02	-4.85690309265E+01	-4.53485513471E+01	-6.01588234054E+00	-4.71123980479E-01
1.38737637515E+06	-1.46676625714E+01	1.74216955277E+02	6.79610960271E+00	1.75309936783E+02	-4.61533854620E+01	-9.58167832168E+01	-5.98698987973E+00	-5.86151647147E-01
1.40956772975E+06	-1.48622889170E+01	1.65669268620E+02	6.79061631412E+00	1.74926953691E+02	-4.13754206859E+01	1.88893551190E+00	-6.02189476515E+00	-6.69471586871E-01
1.43175908434E+06	-1.53433569491E+01	1.48438355334E+02	6.82010725830E+00	1.75571446804E+02	-4.46102473361E+01	-9.37334676369E+01	-6.02597393666E+00	-6.29244338546E-01
1.45395043894E+06	-1.63057082022E+01	1.58535859939E+02	6.79913182302E+00	1.75016405094E+02	-5.35899417491E+01	5.05622120973E+01	-5.99609369828E+00	-6.69890806891E-01
1.47614179353E+06	-1.43961290498E+01	-1.73627981115E+02	6.78708766581E+00	1.74894396622E+02	-4.43867997750E+01	6.15333735903E+01	-6.00611341085E+00	-7.60724872762E-01
1.49833314813E+06	-1.23046397061E+01	1.65917609680E+02	6.77234362709E+00	1.75084512064E+02	-4.45021856624E+01	5.64222339728E+01	-6.01150005079E+00	-5.90306367176E-01
1.52052450272E+06	-1.28626330757E+01	-1.76443491857E+02	6.73895153922E+00	1.74849320772E+02	-3.81571789777E+01	-1.58026435499E+02	-5.98856335877E+00	-4.78586589175E-01
1.54271585732E+06	-1.39176699795E+01	-1.61779780420E+02	6.81503870353E+00	1.74393185894E+02	-4.73764381455E+01	9.74081179564E+01	-6.00264680333E+00	-6.22171016254E-01
1.56490721191E+06	-1.43683533541E+01	-1.60312912477E+02	6.77850702382E+00	1.74504791533E+02	-4.92315135646E+01	1.58968116244E+02	-6.02534910923E+00	-7.07250180462E-01
1.58709856651E+06	-1.22227573980E+01	-1.49687913480E+02	6.78275465810E+00	1.74272379095E+02	-4.28209025437E+01	-7.89151400129E+01	-5.99465013487E+00	-6.97808805676E-01
1.60928992110E+06	-1.33112122556E+01	-1.57809939621E+02	6.78758533007E+00	1.74013302446E+02	-4.71222750685E+01	-9.63203228895E+01	-6.00057185225E+00	-5.62034023329E-01
1.63148127570E+06	-1.41602624691E+01	-1.65003093482E+02	6.76615572064E+00	1.73922674198E+02	-4.42373713448E+01	-1.77724850743E+02	-5.99873911557E+00	-7.40573264137E-01
1.65367263029E+06	-1.46127372788E+01	-1.79887832328E+02	6.77462003242E+00	1.74253992814E+02	-3.81123865582E+01	-1.48152241993E+02	-5.97906196397E+00	-5.52775402102E-01
1.67586398489E+06	-1.59953178176E+01	1.75237648485E+02	6.78160737474E+00	1.74088571589E+02	-3.76651704483E+01	-8.13531771700E+01	-6.02451445459E+00	-6.32319447764E-01
1.69805533948E+06	-1.48608216765E+01	1.75868002075E+02	6.80889053666E+00	1.74079120047E+02	-4.72602847852E+01	1.65196800576E+02	-5.99248009000E+00	-7.31850167252E-01
1.72024669408E+06	-2.44225453159E+01	1.65158361999E+02	6.84701883931E+00	1.74038106118E+02	-4.54258412703E+01	-1.19020028575E+02	-6.00489005738E+00	-6.95008913568E-01
1.74243804867E+06	-1.40127132487E+01	-1.65359943046E+02	6.80047435637E+00	1.73526737541E+02	-3.99652959506E+01	-5.30509093929E+01	-6.01864608228E+00	-6.66395677071E-01
1.76462940327E+06	-1.51260390659E+01	-1.75977583703E+02	6.81820505575E+00	1.73806741161E+02	-5.83569989665E+01	3.87215106179E+01	-5.99628636804E+00	-6.01670263240E-01
1.78682075786E+06	-1.53486088294E+01	-1.73972312960E+02	6.80633114282E+00	1.73332829969E+02	-5.22638325488E+01	2.27338396047E+01	-6.01873844077E+00	-5.84447838117E-01
1.80901211246E+06	-1.34043239649E+01	-1.56063739453E+02	6.77214069091E+00	1.73054926639E+02	-4.32558026110E+01	7.42640842132E+01	-5.98796395462E+00	-8.60458514017E-01
1.83120346705E+06	-1.42713846708E+01	1.71410060448E+02	6.78782696106E+00	1.73307903878E+02	-3.11112233554E+01	-5.89091573889E+01	-6.04496658229E+00	-6.88778291799E-01
1.85339482165E+06	-1.46710295034E+01	1.74924537929E+02	6.77402113923E+00	1.73262461318E+02	-5.05268208933E+01	-3.68501047020E+01	-5.99223141452E+00	-1.00504048209E+00
1.87558617624E+06	-1.68508351364E+01	1.74654817821E+02	6.82739230515E+00	1.72968434580E+02	-5.39586791486E+01	1.08866951377E+01	-5.99820023269E+00	-9.04494573560E-01
1.89777753084E+06	-1.43163665268E+01	-1.62686409682E+02	6.78752946386E+00	1.72776627751E+02	-4.10847311747E+01	-4.90118095925E+01	-5.99946178906E+00	-6.64136595991E-01
1.91996888543E+06	-1.22813339069E+01	-1.78462084476E+02	6.76772751768E+00	1.72815355976E+02	-4.34793805201E+01	-1.50651367517E+02	-5.98372688335E+00	-8.10442432516E-01
1.94216024003E+06	-1.35873803007E+01	-1.63436646477E+02	6.78960402136E+00	1.72535428207E+02	-4.18590853653E+01	-9.08520146513E+01	-5.98240727580E+00	-7.17149580086E-01
1.96435159462E+06	-1.38673476404E+01	1.77598975876E+02	6.81038502934E+00	1.72944020214E+02	-5.11429804659E+01	9.07998465922E+01	-5.98263150880E+00	-8.59240834276E-01
1.98654294922E+06	-1.15011260015E+01	-1.66234074215E+02	6.76919548810E+00	1.72685935556E+02	-4.60884930061E+01	1.63677894016E+01	-6.00707954240E+00	-8.20250168409E-01
2.00873430381E+06	-1.75095301794E+01	-1.73504229357E+02	6.82839653312E+00	1.72512257139E+02	-3.53429719376E+01	-9.19921535529E+01	-6.00893287809E+00	-7.55969977813E-01
2.03092565841E+06	-1.13213681133E+01	-1.59409222955E+02	6.78909933488E+00	1.72396561258E+02	-4.74073081435E+01	-1.50200375151E+02	-5.98045190566E+00	-9.22197977705E-01
2.05311701300E+06	-1.25167503478E+01	1.77812149886E+02	6.81415323186E+00	1.72632293415E+02	-4.11033683902E+01	-1.67105843969E+02	-5.98645067454E+00	-7.77308653690E-01
2.07530836760E+06	-1.32323586719E+01	-1.67666947094E+02	6.78522611012E+00	1.72104302481E+02	-4.68077479742E+01	1.81918175417E+01	-6.01975098653E+00	-1.09461304875E+00
2.09749972219E+06	-1.21333328321E+01	1.75985931562E+02	6.78929384871E+00	1.72096082346E+02	-4.79759690032E+01	1.74134088436E+02	-5.99093434217E+00	-9.24403953431E-01
2.11969107679E+06	-1.25579095872E+01	1.79835884915E+02	6.77415507594E+00	1.72181545970E+02	-4.76151898749E+01	-9.87856050765E+01	-5.99983273979E+00	-8.13561002924E-01
2.14188243138E+06	-1.40625513761E+01	-1.64343276185E+02	6.79628722801E+00	1.71797781655E+02	-3.51689207657E+01	-1.05201163349E+01	-6.01420671725E+00	-8.32929453138E-01
2.16407378598E+06	-1.28525969642E+01	-1.53963992526E+02	6.83024717099E+00	1.71589242013E+02	-3.45759624226E+01	-1.04025302629E+02	-6.02348816803E+00	-7.77171619211E-01
2.18626514057E+06	-1.17337741765E+01	-1.51544296750E+02	6.85409066099E+00	1.71581734553E+02	-4.13119662886E+01	-4.47785942955E+01	-5.99908713796E+00	-7.30445181368E-01
2.20845649517E+06	-1.69968098999E+01	1.51232906238E+02	6.78649947205E+00	1.72094980642E+02	-5.09476116163E+01	-6.65954594375E+01	-5.98813382588E+00	-8.47731912127E-01
2.23064784976E+06	-1.17890756356E+01	1.72294132043E+02	6.75361151690E+00	1.71811951740E+02	-4.04043328674E+01	1.19140381491E+02	-5.98781538565E+00	-1.03658999641E+00
2.25283920436E+06	-1.44568954818E+01	-1.51050059635E+02	6.80143596919E+00	1.71520450921E+02	-4.34698400489E+01	6.52189816702E+01	-5.99986117473E+00	-9.10726508676E-01
2.27503055895E+06	-1.33304913290E+01	-1.52691560283E+02	6.81866280034E+00	1.71079746321E+02	-4.16174913724E+01	-1.25801533435E+02	-6.00308919632E+00	-8.95312523106E-01
2.29722191355E+06	-1.43110457589E+01	1.76255591936E+02	6.79559512167E+00	1.71318447461E+02	-4.13464766751E+01	1.53814681193E+02	-5.98151261330E+00	-9.69438714881E-01
2.31941326814E+06	-1.14491883190E+01	-1.47433733361E+02	6.82509031632E+00	1.70723980505E+02	-5.59257082888E+01	6.45558624214E+01	-6.01436786051E+00	-1.05408891608E+00
2.34160462274E+06	-1.42199261882E+01	1.19427773874E+02	6.77558429891E+00	1.71322221807E+02	-4.44016962297E+01	-1.53788766122E+02	-5.98561621043E+00	-9.29430873591E-01
2.36379597733E+06	-1.05650424932E+01	-1.61417128766E+02	6.78348990395E+00	1.70594143961E+02	-4.22143783215E+01	1.21881896431E+02	-5.99067453746E+00	-1.20726995817E+00
2.38598733193E+06	-1.41347313057E+01	-1.70457316683E+02	6.84695182788E+00	1.70922489438E+02	-5.08218236218E+01	1.80546156488E+01	-5.97884090365E+00	-1.10173252928E+00
2.40817868652E+06	-1.41994885860E+01	1.66777606116E+02	6.78587476683E+00	1.71288320208E+02	-4.08448201336E+01	-1.87335410909E+01	-6.02567652732E+00	-1.14091456932E+00
2.43037004112E+06	-1.19306766649E+01	-1.79641330325E+02	6.80362391220E+00	1.70810686651E+02	-4.39794941990E+01	-1.73557795992E+00	-6.00847726894E+00	-1.44643439178E+00
2.45256139571E+06	-1.31666618740E+01	-1.37267638569E+02	6.86723710711E+00	1.70518784499E+02	-3.39776871855E+01	-1.72142421035E+02	-6.00029267999E+00	-7.80788263442E-01
2.47475275031E+06	-1.31976265783E+01	-1.72188781558E+02	6.81324336079E+00	1.70351539918E+02	-4.20410892785E+01	6.60955627933E-01	-6.02675062628E+00	-1.19554544692E+00
2.49694410490E+06	-1.26742597208E+01	1.78775688415E+02	6.82825154920E+00	1.70571705024E+02	-5.45319245939E+01	-1.79411433478E+02	-5.97997120040E+00	-1.04982122794E+00
2.51913545950E+06	-1.05684802731E+01	1.54471698255E+02	6.72622348169E+00	1.70436181937E+02	-4.45835018480E+01	-1.57095363012E+02	-5.99390370354E+00	-9.61267355446E-01
2.54132681409E+06	-1.40699698090E+01	-1.76665169168E+02	6.79442716181E+00	1.70565522521E+02	-4.55623642415E+01	1.48351926069E+02	-6.01464678721E+00	-1.13353007486E+00
2.56351816869E+06	-1.45579135638E+01	-1.68396468533E+02	6.85689394747E+00	1.70323432489E+02	-4.47306096348E+01	7.92008750429E+01	-5.99211976813E+00	-1.21895436417E+00
2.58570952328E+06	-1.22657824450E+01	-1.71856680263E+02	6.80100501742E+00	1.70043761245E+02	-4.48912853712E+01	1.14314832249E+02	-5.98294117807E+00	-1.17718855257E+00
2.60790087788E+06	-1.46452697731E+01	-1.66086369214E+02	6.81762914626E+00	1.69824665165E+02	-4.54932069714E+01	1.41080761236E+02	-5.99387951294E+00	-1.04133239199E+00
2.63009223247E+06	-1.39319423850E+01	-1.64573053246E+02	6.82436683008E+00	1.69839586280E+02	-4.78738865555E+01	-8.87408977722E+01	-6.00761267939E+00	-6.00356491051E-01
2.65228358707E+06	-1.60190830037E+01	1.72563359740E+02	6.83493698528E+00	1.70051843568E+02	-4.59130412908E+01	-1.67877142384E+02	-5.98679870947E+00	-1.04078456294E+00
2.67447494166E+06	-8.61952650202E+00	-1.59575505430E+02	6.80376454235E+00	1.69289645784E+02	-4.75790528542E+01	1.31416176986E+02	-6.00568882336E+00	-1.23199097738E+00
2.69666629626E+06	-1.29886977789E+01	-1.66153014914E+02	6.83646396734E+00	1.69702024073E+02	-6.35537541191E+01	1.03344019445E+02	-5.99063749088E+00	-1.12189324299E+00
2.71885765085E+06	-1.28652645076E+01	-1.75053313500E+02	6.82914418294E+00	1.69623947733E+02	-4.79039333286E+01	2.27092310348E+01	-6.01488176871E+00	-1.20069276045E+00
2.74104900545E+06	-1.58300581275E+01	1.59669805447E+02	6.83932262134E+00	1.69794005279E+02	-4.43503252749E+01	9.80188128385E+00	-6.01722560313E+00	-1.18834705343E+00
2.76324036004E+06	-1.24083613431E+01	1.73050449525E+02	6.75471381587E+00	1.69221971151E+02	-3.90183538096E+01	2.67320627061E+01	-6.01489178787E+00	-1.45674733621E+00
2.78543171463E+06	-1.33152734686E+01	-1.61167854409E+02	6.84232213386E+00	1.69184995445E+02	-4.10672147799E+01	1.43659673334E+02	-5.98125916488E+00	-1.22303795506E+00
2.80762306923E+06	-1.52678590042E+01	-1.79099783173E+02	6.76667543936E+00	1.69297753383E+02	-4.25928325352E+01	5.36224860564E+01	-6.00150951875E+00	-1.19017956724E+00
2.82981442382E+06	-1.29569411127E+01	-1.60654414269E+02	6.85250875188E+00	1.68901388046E+02	-3.99736540282E+01	-5.51619526496E+01	-6.01787322550E+00	-1.05136507137E+00
2.85200577842E+06	-1.54474062890E+01	-1.72363984026E+02	6.86141738834E+00	1.69212530373E+02	-4.94253071612E+01	4.73273679261E+01	-5.99566812787E+00	-1.31493875781E+00
2.87419713301E+06	-1.50261780271E+01	-1.52699751229E+02	6.87691726039E+00	1.68744538093E+02	-3.98185663773E+01	-1.28490678946E+02	-6.00710429656E+00	-1.08750682032E+00
