# Hz S DB R 50
! CMT, M5065, 19127446, 24.2.4/2
! Date: 11/8/2024 3:09:28 PM
! Data: Format (Calibration Info)
! Freq	S11:dB/Ang(F2)	S21:dB/Ang(F2)	S12:dB/Ang(F2)	S22:dB/Ang(F2)
3.00000000000E+05	-1.32044526928E+01	-1.78717168856E+02	6.90913337788E+00	-1.77537653805E+02	-4.69415788206E+01	-1.38457408715E+02	-6.00263221468E+00	-2.43181434864E-01
3.22191354595E+05	-1.50088231460E+01	-1.55876800992E+02	6.90232292554E+00	-1.77898782495E+02	-5.07170203573E+01	4.71749282742E+01	-5.99789331029E+00	-3.79072164469E-01
3.44382709190E+05	-1.56929117697E+01	-1.69820181418E+02	6.92901333599E+00	-1.78239024637E+02	-5.25695743368E+01	5.76783504035E+01	-5.99615599116E+00	-3.00127682664E-01
3.66574063785E+05	-1.15818000525E+01	-1.78546387138E+02	6.90458707438E+00	-1.78539569508E+02	-4.63093881762E+01	-5.30261694397E+01	-6.02817690618E+00	-2.45811636377E-01
3.88765418380E+05	-1.50526875250E+01	1.69856815759E+02	6.89391279594E+00	-1.78898203103E+02	-4.94016645228E+01	1.56161693923E+02	-5.98039640139E+00	-2.39226483250E-01
4.10956772975E+05	-1.31193967327E+01	1.50401472387E+02	6.94971940202E+00	-1.79150456510E+02	-4.16649824534E+01	1.37147512681E+02	-6.00484407525E+00	-2.69485447361E-01
4.33148127570E+05	-1.28305946614E+01	-1.70670825265E+02	6.93159668111E+00	-1.79049885067E+02	-5.03112810959E+01	2.80935655661E+01	-5.99459403044E+00	-1.54039438863E-01
4.55339482165E+05	-1.36877906549E+01	-1.62958387704E+02	6.90859020117E+00	-1.79638680616E+02	-3.92310277743E+01	5.42199435515E+00	-6.02895909563E+00	-2.77905400611E-01
4.77530836760E+05	-1.31421675012E+01	-1.70428228622E+02	6.92135429742E+00	-1.79674756243E+02	-5.14804807612E+01	-1.20950393572E+02	-5.99641947395E+00	-3.69823717309E-01
4.99722191355E+05	-1.11728628208E+01	-1.76120864279E+02	6.93039616452E+00	1.79915824102E+02	-3.73777069269E+01	-1.61731688212E+02	-5.98534778068E+00	-1.03845534000E-01
5.21913545950E+05	-1.24163723864E+01	1.78722697903E+02	6.92017555608E+00	-1.79860081099E+02	-4.89641643791E+01	-2.98569119345E+01	-6.01122133422E+00	-3.92360381366E-01
5.44104900545E+05	-1.31286555495E+01	-1.45935720031E+02	6.94604144299E+00	1.79466541404E+02	-4.22614494629E+01	7.24108204347E+00	-6.01417285685E+00	-3.60930754511E-01
5.66296255139E+05	-1.25349956319E+01	1.52824932657E+02	6.92328354174E+00	1.79731215897E+02	-4.30360238622E+01	-1.66304672863E+02	-5.97244724741E+00	-2.41520691316E-01
5.88487609734E+05	-1.62195313578E+01	-1.71231739953E+02	6.94317974237E+00	1.79502280730E+02	-5.01130422194E+01	-1.50478344245E+02	-6.00718754507E+00	-2.82336865100E-01
6.10678964329E+05	-1.37176664780E+01	-1.79530754923E+02	6.97437600940E+00	1.79353687310E+02	-5.18337639504E+01	-1.19572553027E+02	-6.00283756713E+00	1.72253355001E-01
6.32870318924E+05	-1.65722019720E+01	1.70037670054E+02	6.92935746117E+00	1.79099720073E+02	-4.17989470815E+01	-3.84198310635E+01	-6.01769252709E+00	-1.24358989634E-01
6.55061673519E+05	-1.11638712161E+01	1.70477574867E+02	6.91535102177E+00	1.79027088086E+02	-5.60522636867E+01	1.17221385301E+02	-6.00073175127E+00	-3.15708635536E-01
6.77253028114E+05	-1.42494230631E+01	-1.64907933247E+02	6.96122282206E+00	1.78551100150E+02	-4.21119927860E+01	-9.19672105038E+01	-6.01455493622E+00	-6.31491379295E-01
6.99444382709E+05	-1.33534655866E+01	-1.73172325431E+02	6.94721864072E+00	1.78790269606E+02	-5.15989476797E+01	4.23189726816E+01	-5.99578097655E+00	-3.90597409141E-01
7.21635737304E+05	-1.24642127901E+01	-1.68462001876E+02	6.89833841194E+00	1.78492643815E+02	-4.31088767263E+01	1.61717866322E+02	-5.98077707388E+00	-2.71324107019E-01
7.43827091899E+05	-1.42698166670E+01	-1.50780975448E+02	6.93426185181E+00	1.78373920744E+02	-5.08129450107E+01	1.70593681984E+02	-6.00176120267E+00	-4.03983616804E-01
7.66018446494E+05	-1.49015338675E+01	-1.75067854467E+02	6.92701497751E+00	1.78377673248E+02	-5.10304807687E+01	-4.19697602874E+01	-5.99161479990E+00	-4.00043130520E-01
7.88209801089E+05	-1.69221457813E+01	-1.51308918626E+02	6.98515723183E+00	1.77932425151E+02	-4.15349546032E+01	1.53490874479E+02	-5.96258536075E+00	-3.04769799368E-01
8.10401155684E+05	-1.64081865956E+01	1.65249475522E+02	6.92259491018E+00	1.78063022261E+02	-5.49908879027E+01	1.94482688767E+00	-6.01642233189E+00	-3.53533394000E-01
8.32592510279E+05	-1.40575871519E+01	-1.78803792371E+02	6.89778958526E+00	1.77997214716E+02	-4.37924137819E+01	1.61530478185E+02	-5.99233404353E+00	-3.78537505864E-01
8.54783864874E+05	-1.35025692728E+01	-1.63969673616E+02	6.93301763519E+00	1.77598907144E+02	-4.75240057750E+01	-5.21645360744E+01	-5.99415630683E+00	-4.83605495477E-01
8.76975219469E+05	-1.46904562629E+01	-1.73879034948E+02	6.92635820336E+00	1.77673422897E+02	-6.69948378055E+01	-1.83274514661E+01	-5.99615954169E+00	-5.27960963857E-01
8.99166574064E+05	-1.40272901288E+01	1.79918844368E+02	6.92864753520E+00	1.77495306428E+02	-5.49335316438E+01	1.75636618471E+02	-5.99151293263E+00	-4.55882717382E-01
9.21357928659E+05	-1.26449297757E+01	1.76149454280E+02	6.90078379280E+00	1.77509350849E+02	-4.77971308205E+01	5.39644485179E+01	-6.02032642371E+00	-5.51592848846E-01
9.43549283254E+05	-1.16773458106E+01	-1.76254384216E+02	6.92673308746E+00	1.77382728670E+02	-5.20308157990E+01	-1.73240155242E+02	-5.99398930913E+00	-3.51433794034E-01
9.65740637849E+05	-1.22502988864E+01	1.58151201987E+02	6.87483012258E+00	1.77428059154E+02	-4.88726605842E+01	-1.23962169718E+02	-6.01040617851E+00	-5.06925585449E-01
9.87931992444E+05	-1.48308339218E+01	1.68590074042E+02	6.96085422779E+00	1.77136820809E+02	-5.04033274060E+01	1.63765672566E+00	-6.01783430787E+00	-4.08289493311E-01
1.01012334704E+06	-1.77184769682E+01	1.78771343920E+02	6.93513591346E+00	1.77035379726E+02	-5.36561028273E+01	-5.77413886290E+00	-6.01074103440E+00	-4.70078830327E-01
1.03231470163E+06	-1.37119190846E+01	-1.78847815088E+02	6.93817480885E+00	1.76764262937E+02	-4.83294469988E+01	1.08817446622E+02	-5.95680414101E+00	-4.78045046655E-01
1.05450605623E+06	-1.15188003294E+01	1.77992054950E+02	6.88229522770E+00	1.76698808033E+02	-4.93791342968E+01	-1.03899442266E+02	-6.00073745542E+00	-4.44552406346E-01
1.07669741082E+06	-1.41159791923E+01	-1.78887715253E+02	6.92300542917E+00	1.76730096690E+02	-5.03704746506E+01	1.43554138772E+02	-6.01574907313E+00	-4.76728108066E-01
1.09888876542E+06	-1.57938133797E+01	1.68341648413E+02	6.95459863344E+00	1.76674477982E+02	-4.10732762925E+01	-3.77620263703E+01	-5.99780005109E+00	-5.33145920313E-01
1.12108012001E+06	-2.61545829880E+01	-1.36593592678E+02	6.98420870448E+00	1.76609427479E+02	-4.55255731182E+01	-5.96439684026E+01	-6.03094782463E+00	-5.24554690445E-01
1.14327147461E+06	-1.68998503349E+01	-1.78715670283E+02	6.94406710642E+00	1.76410725032E+02	-4.37022255774E+01	-1.12671797558E+02	-6.01321570166E+00	-4.66250153485E-01
1.16546282920E+06	-1.35436853473E+01	-1.68966804477E+02	6.95151904507E+00	1.76146531572E+02	-4.49755698217E+01	-1.57023570200E+02	-5.99461032838E+00	-5.48635169797E-01
1.18765418380E+06	-1.57451192329E+01	-1.59677919995E+02	6.90759690840E+00	1.76004018081E+02	-4.63665430224E+01	1.76971512978E+02	-5.98991986906E+00	-5.98533218333E-01
1.20984553839E+06	-1.12447594120E+01	1.71715588442E+02	6.94098990952E+00	1.75708061156E+02	-4.59327561082E+01	5.56036335870E+01	-5.98961163778E+00	-6.95473011311E-01
1.23203689299E+06	-1.48528447434E+01	1.73360269702E+02	6.92410361359E+00	1.76186246431E+02	-4.32246693382E+01	4.64029130374E+01	-6.00824542065E+00	-3.88102269434E-01
1.25422824758E+06	-1.37583117197E+01	-1.76367072829E+02	6.94129505619E+00	1.75878011178E+02	-4.89948019147E+01	2.29023275979E+01	-6.02096126938E+00	-6.91630789393E-01
1.27641960218E+06	-1.54190668125E+01	-1.65165999006E+02	6.94037578555E+00	1.75623178608E+02	-3.98208103235E+01	-8.49946037834E+01	-6.00866261474E+00	-4.56204212200E-01
1.29861095677E+06	-1.71205174258E+01	-1.49968765533E+02	6.97379842207E+00	1.75525099682E+02	-6.47594844258E+01	-6.25835637121E+01	-5.99828754327E+00	-6.54493582595E-01
1.32080231137E+06	-1.77755250052E+01	-1.73938938660E+02	6.93786868903E+00	1.75610238742E+02	-5.25675225278E+01	7.42979389105E+01	-6.00062154133E+00	-1.03649039544E+00
1.34299366596E+06	-1.52105684166E+01	-1.69103716246E+02	6.91359031592E+00	1.75502779577E+02	-4.38343235201E+01	2.05966279299E+01	-5.98347563299E+00	-7.58683220557E-01
1.36518502056E+06	-1.51550478471E+01	-1.62181047000E+02	6.97047411679E+00	1.75296158582E+02	-4.64736212701E+01	1.72035245832E+01	-6.02104144139E+00	-6.45304914015E-01
1.38737637515E+06	-1.12028298030E+01	-1.74958065185E+02	6.90844931558E+00	1.75119613379E+02	-5.24010037985E+01	-9.15784769982E+01	-6.00800635855E+00	-6.13283751858E-01
1.40956772975E+06	-1.50147931615E+01	-1.79771733992E+02	6.88555578126E+00	1.75190452720E+02	-4.75249365641E+01	-9.79463359885E+01	-5.99753423516E+00	-4.12027982964E-01
1.43175908434E+06	-1.32673641089E+01	1.74516197183E+02	6.92072551447E+00	1.74857157173E+02	-4.26910773875E+01	1.24596146985E+02	-5.98274250521E+00	-7.42281109355E-01
1.45395043894E+06	-1.65570840518E+01	1.78041446313E+02	6.97071865896E+00	1.74995496967E+02	-4.24915118499E+01	9.46956237793E+01	-5.97920946541E+00	-8.60519919456E-01
1.47614179353E+06	-1.39524672523E+01	-1.56533747521E+02	6.95350454315E+00	1.74582011293E+02	-3.94855926069E+01	1.93918424581E+01	-5.98287051639E+00	-7.59344545112E-01
1.49833314813E+06	-1.48751518665E+01	-1.70737407683E+02	6.97315182022E+00	1.74743296058E+02	-3.92980860471E+01	-1.10661602628E+02	-5.99546085685E+00	-4.75818880891E-01
1.52052450272E+06	-1.41337878451E+01	-1.60789649529E+02	6.96356119539E+00	1.74331244499E+02	-4.68745656449E+01	-1.36145899695E+02	-5.99124482351E+00	-6.22859306519E-01
1.54271585732E+06	-1.52904364845E+01	1.61308648659E+02	6.94723456179E+00	1.74675466972E+02	-4.47226668783E+01	-1.04263805579E+02	-5.98957271501E+00	-5.73759239484E-01
1.56490721191E+06	-1.38849755285E+01	1.74270526443E+02	6.96284259427E+00	1.74737581999E+02	-4.67269157638E+01	-6.54711869037E+01	-5.99998175623E+00	-7.18872068913E-01
1.58709856651E+06	-1.37662853198E+01	1.79094676276E+02	6.90974153878E+00	1.74224157953E+02	-4.85395195500E+01	1.94624322884E+01	-6.00730413185E+00	-6.53783573622E-01
1.60928992110E+06	-1.39302913333E+01	-1.63046429794E+02	6.92689522689E+00	1.74358179325E+02	-4.81266605264E+01	1.53149643913E+02	-6.00362899386E+00	-7.39328316826E-01
1.63148127570E+06	-1.42623888498E+01	-1.60410630865E+02	6.95344617001E+00	1.74090669060E+02	-3.41324456205E+01	1.77183457615E+02	-5.98642491057E+00	-6.49944564143E-01
1.65367263029E+06	-1.48664578500E+01	-1.69304446810E+02	6.98117888936E+00	1.74232491621E+02	-3.42967664592E+01	1.04041280541E+02	-5.96845892628E+00	-8.88220743905E-01
1.67586398489E+06	-1.82357592098E+01	-1.74805040945E+02	6.96771671691E+00	1.73975088008E+02	-4.30674634531E+01	1.24501734501E+02	-5.97595388252E+00	-8.19347963603E-01
1.69805533948E+06	-1.13120245616E+01	-1.72219136403E+02	6.88778403621E+00	1.73702368534E+02	-4.21250982604E+01	-1.08678911643E+02	-5.96785102567E+00	-6.33084264786E-01
1.72024669408E+06	-1.24066230801E+01	1.65984084416E+02	6.92890110983E+00	1.73856640464E+02	-4.45775263620E+01	1.07567689630E+02	-5.98505487059E+00	-8.02356109677E-01
1.74243804867E+06	-1.06625199421E+01	1.26309381160E+02	6.91406502415E+00	1.74107899522E+02	-4.67668966833E+01	-2.57900405012E+01	-5.96868835035E+00	-7.28114509736E-01
1.76462940327E+06	-9.59137521817E+00	-1.54092379108E+02	6.95928576971E+00	1.73336651283E+02	-4.52277603519E+01	-6.40767555726E+01	-5.99716792650E+00	-6.61078807176E-01
1.78682075786E+06	-1.41725188577E+01	-1.61533306532E+02	6.94738845641E+00	1.73406034868E+02	-4.64129604484E+01	-1.08572378295E+02	-6.00888300089E+00	-6.41434870569E-01
1.80901211246E+06	-1.34917455775E+01	-1.68840125514E+02	6.93529194934E+00	1.73070711140E+02	-3.84429215814E+01	5.90448850054E+01	-5.96233315728E+00	-9.78832091031E-01
1.83120346705E+06	-1.30766611110E+01	-1.50761164043E+02	6.96192025763E+00	1.73072111401E+02	-4.56151401700E+01	-1.24121234389E+02	-6.02553399613E+00	-7.40426399034E-01
1.85339482165E+06	-1.83157264882E+01	-1.64223500784E+02	6.99363716797E+00	1.73078670587E+02	-4.32740539834E+01	-1.53234546062E+02	-6.00028522302E+00	-7.28988362671E-01
1.87558617624E+06	-1.74282280735E+01	-1.65762373232E+02	6.97033827997E+00	1.73127395951E+02	-5.44409522457E+01	-1.46620537801E+02	-6.00900909205E+00	-8.50185724942E-01
1.89777753084E+06	-1.38661434052E+01	-1.77002263786E+02	6.94643329310E+00	1.72818964990E+02	-5.17429743007E+01	-1.75466997579E+02	-5.98503301943E+00	-7.99246665916E-01
1.91996888543E+06	-8.15613726639E+00	-1.63635536502E+02	6.90212348793E+00	1.72476210357E+02	-5.24119712174E+01	-1.17855763781E+02	-6.01308837839E+00	-8.48400211818E-01
1.94216024003E+06	-1.52190886462E+01	-1.71898371077E+02	6.91653224837E+00	1.72628725498E+02	-4.39661406211E+01	6.02610493625E+01	-6.01298552775E+00	-8.86003277959E-01
1.96435159462E+06	-1.22336116551E+01	-1.71198139426E+02	6.93658389068E+00	1.72545527014E+02	-4.82037837386E+01	-1.23996836176E+02	-6.01308836701E+00	-8.90622981816E-01
1.98654294922E+06	-1.19412682196E+01	-1.73608976950E+02	6.91472033222E+00	1.72255897487E+02	-3.90596817424E+01	-6.86544414348E+01	-6.01755673987E+00	-6.82684235764E-01
2.00873430381E+06	-2.18317712161E+01	-1.17577084625E+02	7.00854111539E+00	1.72606000061E+02	-4.66349037463E+01	-2.79868931505E+00	-6.01524262297E+00	-8.90886461870E-01
2.03092565841E+06	-1.38772835219E+01	-1.64712523846E+02	6.97551637281E+00	1.72131418459E+02	-4.37999755893E+01	-1.07724316491E+02	-6.00052376145E+00	-8.66232250232E-01
2.05311701300E+06	-9.10656236076E+00	-1.76705361541E+02	6.90472479593E+00	1.71970394215E+02	-4.19181238940E+01	-3.38324340246E+01	-6.01696721694E+00	-8.24525115559E-01
2.07530836760E+06	-1.69627329023E+01	1.60323447596E+02	6.92103646306E+00	1.72429449398E+02	-4.25851543092E+01	2.65354426066E+01	-6.01114065581E+00	-1.14722350074E+00
2.09749972219E+06	-1.52406929594E+01	-1.57358929808E+02	6.99969296394E+00	1.71971587140E+02	-4.49636127534E+01	3.25631127672E+01	-6.01689691276E+00	-9.38413613845E-01
2.11969107679E+06	-1.24671778047E+01	-1.68715081224E+02	6.97506184166E+00	1.71847634092E+02	-4.80800106190E+01	-1.77109053168E+02	-5.99992893858E+00	-9.89422916656E-01
2.14188243138E+06	-1.57650055078E+01	1.78249078232E+02	7.00052093997E+00	1.71987627808E+02	-4.05215381600E+01	1.03803991708E+02	-5.98656229617E+00	-9.90791643311E-01
2.16407378598E+06	-1.31962270600E+01	-1.66094733478E+02	6.96323738187E+00	1.71614393473E+02	-4.69172286907E+01	1.33514373115E+02	-5.99764016484E+00	-9.60494381291E-01
2.18626514057E+06	-1.39467978971E+01	-1.53977479012E+02	6.98390756764E+00	1.71454753988E+02	-5.46421932976E+01	6.33252753812E+01	-6.00308404968E+00	-1.04469242598E+00
2.20845649517E+06	-1.37942624717E+01	1.79664690896E+02	7.00290804332E+00	1.71544015839E+02	-4.77465486582E+01	-5.76720071017E+01	-5.99506898944E+00	-1.02540185920E+00
2.23064784976E+06	-8.63386186842E+00	1.61539162601E+02	6.86411346339E+00	1.71361176116E+02	-4.83531357595E+01	-2.68266121487E+01	-6.00332069273E+00	-9.11965803671E-01
2.25283920436E+06	-1.28958047575E+01	1.77455824544E+02	6.98454955410E+00	1.71562543289E+02	-4.62412251269E+01	1.98649307563E+01	-6.01614178790E+00	-1.06648083838E+00
2.27503055895E+06	-1.50383899782E+01	-1.64685876068E+02	7.04867891575E+00	1.71270843389E+02	-3.91392856106E+01	9.95659054975E+01	-5.98237616655E+00	-1.08019693393E+00
2.29722191355E+06	-1.41567708076E+01	-1.66855243035E+02	6.92502660362E+00	1.71225897497E+02	-4.94827490977E+01	3.09236601451E+01	-6.00875662723E+00	-9.64380492459E-01
2.31941326814E+06	-1.40679184491E+01	1.76519451218E+02	6.99120143505E+00	1.71223102746E+02	-4.63291492301E+01	-4.39791065258E+01	-6.00455839352E+00	-1.11422585291E+00
2.34160462274E+06	-1.30463666368E+01	-1.65978615396E+02	6.98724736608E+00	1.71071269223E+02	-4.30264348261E+01	-3.32954191481E+01	-6.00899272722E+00	-9.01121735397E-01
2.36379597733E+06	-1.43995995690E+01	1.79530226171E+02	6.99301153588E+00	1.71025960728E+02	-4.64156332024E+01	-1.17919500637E+02	-5.99341463535E+00	-9.71177176779E-01
2.38598733193E+06	-1.40149629132E+01	-1.73049405443E+02	6.99672264438E+00	1.71059495494E+02	-5.13363227759E+01	-9.67754161796E+01	-5.98494996928E+00	-9.62983048613E-01
2.40817868652E+06	-1.38772595460E+01	-1.78022977359E+02	6.97628565693E+00	1.70714378466E+02	-4.91219103040E+01	3.70626557576E+01	-5.98678896676E+00	-1.13650054000E+00
2.43037004112E+06	-1.13761918977E+01	1.76504543558E+02	6.96344411965E+00	1.70572175755E+02	-4.33313014472E+01	1.09752328898E+02	-5.97915943526E+00	-1.47719285523E+00
2.45256139571E+06	-1.33931785680E+01	-1.76957800764E+02	6.98240536513E+00	1.70302287024E+02	-4.05279998644E+01	-1.03721578906E+02	-6.01206110939E+00	-8.53863883101E-01
2.47475275031E+06	-1.37863929965E+01	1.79089455096E+02	6.96038273247E+00	1.70404827219E+02	-4.33222642600E+01	-2.56718097342E+01	-6.01603427503E+00	-1.08879028675E+00
2.49694410490E+06	-1.32785457148E+01	-1.68929489516E+02	6.97425670840E+00	1.70523133047E+02	-4.47641792060E+01	4.39898406187E+01	-6.00860266136E+00	-1.12302661139E+00
2.51913545950E+06	-1.64366946749E+01	-1.67281560855E+02	6.99956461291E+00	1.70385118112E+02	-4.63595046650E+01	-5.62814695793E+01	-6.01883009503E+00	-9.63880145694E-01
2.54132681409E+06	-8.76068060183E+00	-1.69496561925E+02	6.94270320489E+00	1.69887816503E+02	-4.71990046010E+01	1.16592364270E+01	-6.00225510873E+00	-1.13310752949E+00
2.56351816869E+06	-1.48323248219E+01	-1.78119086223E+02	7.00850804630E+00	1.70374858235E+02	-4.84408200700E+01	-5.56228381941E+01	-6.00871814551E+00	-1.02833633156E+00
2.58570952328E+06	-1.23030680289E+01	-1.69955894038E+02	6.96631522197E+00	1.69872018744E+02	-3.96255961480E+01	-9.63481688951E+01	-6.01608778376E+00	-8.73598953325E-01
2.60790087788E+06	-1.37972928035E+01	1.77935058858E+02	6.96176335933E+00	1.70000251553E+02	-4.74161795018E+01	-1.22598261019E+02	-6.01856402242E+00	-9.07287851216E-01
2.63009223247E+06	-1.20303023946E+01	-1.67327942597E+02	6.96998007942E+00	1.69684930125E+02	-4.74925057178E+01	8.43616309273E+01	-5.98693921003E+00	-7.59262687588E-01
2.65228358707E+06	-1.40894568284E+01	-1.59021362090E+02	6.98697258621E+00	1.69668330485E+02	-5.72686886418E+01	1.52704803470E+02	-6.00942706570E+00	-1.09166114380E+00
2.67447494166E+06	-1.40526371165E+01	-1.63005393136E+02	7.01006730908E+00	1.69594697130E+02	-5.92064180263E+01	-4.26381523950E+00	-5.98796696249E+00	-1.10802882625E+00
2.69666629626E+06	-2.13644417343E+01	7.94162712673E+01	7.00832880269E+00	1.70324412722E+02	-4.26992926041E+01	3.73822313709E+01	-6.00347306229E+00	-1.36216898212E+00
2.71885765085E+06	-1.33611857185E+01	1.74249048760E+02	6.96497631472E+00	1.69430524564E+02	-4.38853064271E+01	1.60508665549E+02	-5.98284314150E+00	-1.16008878059E+00
2.74104900545E+06	-1.29383335157E+01	-1.72390403720E+02	6.98001079736E+00	1.69206499681E+02	-4.10634498056E+01	1.47051307159E+02	-5.97869495990E+00	-1.16876804838E+00
2.76324036004E+06	-1.36816975009E+01	-1.64056012214E+02	7.01588129176E+00	1.69129722224E+02	-5.00115260190E+01	-1.46325669135E+02	-5.99687611703E+00	-1.28048077136E+00
2.78543171463E+06	-1.38730426688E+01	-1.66559748986E+02	7.04446598880E+00	1.69199225015E+02	-4.18433997058E+01	1.78944346495E+02	-5.99748844525E+00	-1.08048288442E+00
2.80762306923E+06	-1.31288423165E+01	-1.53865353634E+02	7.00674706463E+00	1.68938362070E+02	-4.94422310432E+01	-2.74921136771E+01	-6.00512678923E+00	-1.27931329881E+00
2.82981442382E+06	-1.69711261269E+01	-1.54681002133E+02	7.07546610616E+00	1.68895548058E+02	-4.25959094409E+01	1.04410872285E-01	-6.00958840292E+00	-1.23324870536E+00
2.85200577842E+06	-1.19159025228E+01	-1.67125789956E+02	6.94134971738E+00	1.68805588958E+02	-4.04995746110E+01	-8.99357315428E+01	-6.01085490577E+00	-1.07354973716E+00
2.87419713301E+06	-1.23724146293E+01	-1.69090576472E+02	6.97809810517E+00	1.68676721071E+02	-5.15259205338E+01	-9.36000155010E+01	-5.99354037952E+00	-1.29416489302E+00
