# Hz S DB R 50
! CMT, M5065, 19127446, 24.2.4/2
! Date: 11/8/2024 2:50:45 PM
! Data: Format (Calibration Info)
! Freq	S11:dB/Ang(F2)	S21:dB/Ang(F2)	S12:dB/Ang(F2)	S22:dB/Ang(F2)
3.00000000000E+05	-1.43877478347E+01	-1.68640675539E+02	6.59848184444E+00	-1.77713195453E+02	-4.53341024176E+01	3.21385138042E+01	-5.99223338439E+00	-2.74161124369E-01
3.22191354595E+05	-1.25344367981E+01	-1.52707853329E+02	6.62019824318E+00	-1.78043945392E+02	-4.50930799439E+01	-8.58853062709E+01	-6.00359904810E+00	-2.22478895845E-01
3.44382709190E+05	-1.55554889912E+01	-1.68831206414E+02	6.59292591212E+00	-1.78276853565E+02	-3.90145184243E+01	-4.15885259684E+01	-6.00854244840E+00	-1.96122118074E-01
3.66574063785E+05	-1.29651906800E+01	-1.59577879542E+02	6.60001630142E+00	-1.78566833014E+02	-4.73554919575E+01	1.21521481681E+01	-6.00607507307E+00	-4.27187130937E-01
3.88765418380E+05	-1.44510342583E+01	1.74291163874E+02	6.60887299646E+00	-1.79260356965E+02	-5.56182428376E+01	7.05772158612E+00	-6.02682474268E+00	-3.15387837353E-01
4.10956772975E+05	-1.48722863957E+01	1.74058463538E+02	6.62425794942E+00	-1.79221978504E+02	-4.47798687985E+01	1.07731281482E+02	-6.00349232856E+00	-2.30636216735E-01
4.33148127570E+05	-1.40588570290E+01	-1.71563015975E+02	6.62635874883E+00	-1.79163634588E+02	-4.95481550106E+01	1.26697629643E+02	-5.98239432900E+00	-4.67913299105E-01
4.55339482165E+05	-1.65919470070E+01	-1.65662618679E+02	6.63434836797E+00	-1.79393137561E+02	-4.11982169367E+01	1.33714994186E+02	-5.99900854171E+00	-3.05862124121E-01
4.77530836760E+05	-1.55405304280E+01	-1.73311689474E+02	6.59601145212E+00	-1.79781533776E+02	-4.81283706288E+01	1.31995509302E+02	-5.97323136189E+00	-3.06515151812E-01
4.99722191355E+05	-1.26610449272E+01	1.77194280404E+02	6.60599324201E+00	-1.79981594133E+02	-5.23572758649E+01	-1.49243088754E+02	-6.00126019772E+00	-4.07550886745E-01
5.21913545950E+05	-1.17668707227E+01	-1.68129049658E+02	6.58845307513E+00	-1.79909782919E+02	-5.05611134719E+01	2.33785204214E+01	-6.00562539070E+00	-3.08262871075E-01
5.44104900545E+05	-1.46506236238E+01	1.61687668553E+02	6.62196061876E+00	-1.79975772886E+02	-4.07106832686E+01	-1.65217250752E+02	-5.98774694451E+00	-1.64274120773E-01
5.66296255139E+05	-1.44632557850E+01	-1.73938300354E+02	6.65614265480E+00	1.79428346773E+02	-4.34556201290E+01	-4.45373096073E+01	-6.01685543464E+00	-3.02839780327E-01
5.88487609734E+05	-1.56628141158E+01	-1.55079090127E+02	6.65269727579E+00	1.79364314814E+02	-5.09042161443E+01	1.25980605017E+02	-6.00087412979E+00	-3.81562820210E-01
6.10678964329E+05	-1.28467763936E+01	1.72566534924E+02	6.59557627372E+00	1.79360102771E+02	-3.86115340153E+01	-4.81392764422E+00	-6.01567271899E+00	2.26670800156E-01
6.32870318924E+05	-1.11278403275E+01	1.79576189240E+02	6.59591488257E+00	1.79038079476E+02	-4.19828652589E+01	2.71360016710E+00	-6.02393302830E+00	1.14379333952E-01
6.55061673519E+05	-1.46613137825E+01	-1.39133332922E+02	6.62272236327E+00	1.78916995267E+02	-4.00728734763E+01	-5.48206364848E+01	-6.00595363220E+00	-2.70803285207E-01
6.77253028114E+05	-1.02008050542E+01	-1.58373445991E+02	6.55947804190E+00	1.78712263222E+02	-4.80027416309E+01	-8.88613733928E+01	-5.98562314936E+00	-5.37973140288E-01
6.99444382709E+05	-1.31973853132E+01	1.79510528800E+02	6.62082972197E+00	1.78972145861E+02	-4.44553809943E+01	7.25227946160E+01	-5.99633061017E+00	-4.50154007423E-01
7.21635737304E+05	-1.43141057926E+01	1.74718753675E+02	6.62089148110E+00	1.78498814616E+02	-4.60318799465E+01	-5.28916358723E+01	-6.02291899841E+00	-3.81272377725E-01
7.43827091899E+05	-1.25909480874E+01	-1.60489176390E+02	6.57783370468E+00	1.78202986414E+02	-5.15839803020E+01	-1.62696163620E+02	-5.99537389604E+00	-2.48899208698E-01
7.66018446494E+05	-1.10342497274E+01	1.76253811206E+02	6.57580293658E+00	1.78383144232E+02	-4.95318260998E+01	1.09212293510E+02	-5.99772844010E+00	-3.46009284643E-01
7.88209801089E+05	-1.61291263813E+01	1.53593329766E+02	6.61453564753E+00	1.78188346489E+02	-4.71839645756E+01	1.10540282246E+01	-6.00397354078E+00	-2.97200610961E-01
8.10401155684E+05	-1.69106727406E+01	-1.62124484926E+02	6.66529858147E+00	1.78040992957E+02	-6.42038719082E+01	-6.00674202616E+01	-6.01157395725E+00	-2.85515913805E-01
8.32592510279E+05	-1.30557971068E+01	-1.61508120208E+02	6.60919594202E+00	1.77764467359E+02	-4.57455215205E+01	-3.41862860670E+00	-6.01435579234E+00	-5.05423459190E-01
8.54783864874E+05	-1.64226128007E+01	-1.75562993708E+02	6.62631303474E+00	1.77942021797E+02	-4.74162588542E+01	-1.16536952813E+02	-5.99135634111E+00	-4.91075410312E-01
8.76975219469E+05	-1.37020885580E+01	-1.63133399279E+02	6.60590699441E+00	1.77666169197E+02	-4.12385798975E+01	4.96294074092E+01	-6.02905580023E+00	-5.46513361669E-01
8.99166574064E+05	-1.54648076577E+01	1.75223655271E+02	6.61303869114E+00	1.77523435364E+02	-4.39140138165E+01	-4.28662035547E+01	-6.04098737161E+00	-4.23065605690E-01
9.21357928659E+05	-1.50148014081E+01	-1.68384884191E+02	6.60649712823E+00	1.77486747324E+02	-5.11182351418E+01	-1.23128269495E+02	-6.01032854033E+00	-4.42373068685E-01
9.43549283254E+05	-1.36926440867E+01	-1.56347582697E+02	6.64963383507E+00	1.77130254087E+02	-4.37617177425E+01	-1.62372393914E+02	-5.96746745003E+00	-3.03158814790E-01
9.65740637849E+05	-1.51643917917E+01	1.77289257543E+02	6.62204048532E+00	1.77407734901E+02	-4.27892494402E+01	-4.48481941696E+01	-6.01484345013E+00	-1.71311940107E-01
9.87931992444E+05	-1.64639619157E+01	-1.37959057504E+02	6.64955612977E+00	1.76855807508E+02	-4.18037429853E+01	-2.57611686927E+01	-5.99886779589E+00	-3.45246831025E-01
1.01012334704E+06	-1.16765762134E+01	-1.75601752751E+02	6.62248071135E+00	1.76967225247E+02	-4.20266178526E+01	-7.69265450388E+01	-6.00040524016E+00	-3.94390856215E-01
1.03231470163E+06	-1.31164478447E+01	-1.63900962804E+02	6.63208161589E+00	1.76760594878E+02	-4.77372467616E+01	1.64431966280E+02	-5.97667768982E+00	-5.46636777990E-01
1.05450605623E+06	-1.22689377421E+01	1.71925013924E+02	6.61709685316E+00	1.77049522380E+02	-4.77502305519E+01	8.61989600004E+01	-6.02070164534E+00	-5.86539144064E-01
1.07669741082E+06	-1.16667271789E+01	-1.69528511335E+02	6.61163985296E+00	1.76577406653E+02	-4.43787643058E+01	-1.26915356115E+02	-6.01304664746E+00	-5.24240986229E-01
1.09888876542E+06	-1.77095632546E+01	-1.78403029386E+02	6.65694781411E+00	1.76712396742E+02	-4.85676978492E+01	-1.68632098218E+02	-5.98600394484E+00	-4.74725396674E-01
1.12108012001E+06	-1.59501528996E+01	1.75613375603E+02	6.59916453189E+00	1.76584678268E+02	-4.65214882780E+01	3.79929438235E+01	-6.01435199496E+00	-7.59005776022E-01
1.14327147461E+06	-1.19648608903E+01	-1.70082223886E+02	6.60983025579E+00	1.76430743807E+02	-4.59962719699E+01	-6.56217048907E+01	-5.99831864047E+00	-4.30380762037E-01
1.16546282920E+06	-1.54362424477E+01	-1.78798565980E+02	6.66890063829E+00	1.76097760178E+02	-5.98744983873E+01	5.70184018338E+01	-5.99430034242E+00	-5.56211012133E-01
1.18765418380E+06	-1.39672869800E+01	-1.79355552446E+02	6.58468895424E+00	1.76338716261E+02	-4.85383529044E+01	1.86253921657E+01	-6.01970879056E+00	-5.06439741508E-01
1.20984553839E+06	-1.37660141346E+01	1.75220542906E+02	6.66005480194E+00	1.76227607242E+02	-4.17943679376E+01	-1.63778117489E+02	-5.98840936250E+00	-6.88795850043E-01
1.23203689299E+06	-1.69341219458E+01	1.78879385856E+02	6.64230218080E+00	1.75989375249E+02	-5.06857929846E+01	-1.19398371162E+01	-6.00957081581E+00	-3.77837948219E-01
1.25422824758E+06	-1.34526878042E+01	-1.66458366819E+02	6.62653999571E+00	1.75719555718E+02	-4.50845945099E+01	-1.69430841785E+02	-6.00143592893E+00	-5.04244977555E-01
1.27641960218E+06	-1.20588571956E+01	-1.76435997458E+02	6.60317554577E+00	1.75989432899E+02	-4.73676653164E+01	4.68912466309E+01	-5.99882269268E+00	-6.86507257149E-01
1.29861095677E+06	-1.48049738455E+01	-1.63548596135E+02	6.66096379658E+00	1.75600753225E+02	-5.46754720121E+01	-1.41462278621E+02	-5.99778589180E+00	-6.16936179846E-01
1.32080231137E+06	-1.31284199847E+01	-1.78808486593E+02	6.60789050463E+00	1.75261126726E+02	-4.54735959706E+01	1.14193268163E+02	-6.01545019834E+00	-1.11650323106E+00
1.34299366596E+06	-1.45208148326E+01	1.74224821763E+02	6.61979523924E+00	1.75827284752E+02	-4.40121912370E+01	-1.59525098149E+02	-5.98265240933E+00	-7.39933513298E-01
1.36518502056E+06	-1.35132235288E+01	-1.73591450821E+02	6.62010195015E+00	1.75393708738E+02	-4.82868023773E+01	1.13853580329E+02	-5.99723207419E+00	-5.98453807118E-01
1.38737637515E+06	-1.41075070455E+01	-1.73274442254E+02	6.61223923003E+00	1.75156068122E+02	-4.69854829818E+01	8.36808888245E+01	-6.01369119733E+00	-6.98955912525E-01
1.40956772975E+06	-1.50960677825E+01	-1.79493520306E+02	6.61976168367E+00	1.75121687397E+02	-6.34174739855E+01	1.79592038845E+01	-5.99315468992E+00	-4.96671050599E-01
1.43175908434E+06	-1.55081101548E+01	-1.65366967781E+02	6.62797037815E+00	1.75208531210E+02	-5.30812157691E+01	5.05126644644E+01	-5.98589643565E+00	-7.65295516975E-01
1.45395043894E+06	-1.47856931668E+01	-1.59509804849E+02	6.67016272268E+00	1.74941064495E+02	-3.81200644307E+01	-1.79811585994E+02	-5.96942083453E+00	-6.77909529075E-01
1.47614179353E+06	-1.25121943507E+01	-1.57402724774E+02	6.63349984413E+00	1.74901293323E+02	-4.66202718153E+01	-1.60185677619E+02	-5.99970134077E+00	-5.68641208775E-01
1.49833314813E+06	-1.66398071880E+01	-1.74360089669E+02	6.60619039066E+00	1.74967919899E+02	-3.94485740870E+01	2.28872253708E+01	-6.01425507788E+00	-7.33613785480E-01
1.52052450272E+06	-1.38613844575E+01	-1.61731458534E+02	6.65187225746E+00	1.74583946361E+02	-4.67544724128E+01	-1.01153650975E+02	-5.99284218729E+00	-6.58353885488E-01
1.54271585732E+06	-1.67434001538E+01	-1.64003968822E+02	6.66078553756E+00	1.74737604714E+02	-5.82058251601E+01	-2.20524986425E+01	-5.99880225242E+00	-6.36409456745E-01
1.56490721191E+06	-1.38773708786E+01	-1.65788074346E+02	6.63678526624E+00	1.74394119196E+02	-4.81573704613E+01	1.00243183606E+01	-6.00424405994E+00	-5.14097887355E-01
1.58709856651E+06	-1.37677346630E+01	-1.71283656576E+02	6.63249752361E+00	1.74350778910E+02	-4.64073404322E+01	-1.54815859129E+02	-6.00096893113E+00	-6.77963321970E-01
1.60928992110E+06	-1.08709992312E+01	1.51562085847E+02	6.60645170336E+00	1.74494389570E+02	-5.53423944723E+01	-6.47912640404E+01	-5.99669822750E+00	-6.31084499127E-01
1.63148127570E+06	-1.20544846680E+01	-1.48250743911E+02	6.65779516810E+00	1.73765560768E+02	-4.44534026162E+01	-3.59548195993E+01	-6.00123068497E+00	-6.43907724489E-01
1.65367263029E+06	-1.48174549483E+01	-1.75631304250E+02	6.63173362141E+00	1.74102287936E+02	-4.34807779130E+01	8.48397719633E+01	-6.01175051801E+00	-8.59165071233E-01
1.67586398489E+06	-1.27447796931E+01	1.72227038506E+02	6.61454035491E+00	1.73865820609E+02	-4.39168629160E+01	1.60652247140E+02	-5.98440974723E+00	-7.61609608557E-01
1.69805533948E+06	-1.34490618975E+01	-1.71001062469E+02	6.64824511181E+00	1.73968797970E+02	-4.54162026188E+01	1.38343293057E+01	-6.00847659947E+00	-7.56668764430E-01
1.72024669408E+06	-1.52247661100E+01	1.69967187241E+02	6.65956106684E+00	1.73956954282E+02	-5.52593055587E+01	-9.56865038248E+01	-5.98068984708E+00	-6.12071410594E-01
1.74243804867E+06	-1.22886947178E+01	-1.59944237322E+02	6.67358055283E+00	1.73613642962E+02	-4.43826874968E+01	9.28595573760E+01	-6.02284499337E+00	-9.57034012533E-01
1.76462940327E+06	-1.13399629576E+01	-1.55025471380E+02	6.67219959324E+00	1.73498539418E+02	-3.29773138582E+01	2.70263295506E+01	-6.01450213770E+00	-9.23249001187E-01
1.78682075786E+06	-1.37452596792E+01	1.71461946489E+02	6.58671983654E+00	1.73642936230E+02	-4.41263081545E+01	-2.69728053749E+01	-6.01229082532E+00	-7.67544778063E-01
1.80901211246E+06	-1.40469596366E+01	-1.72803528236E+02	6.61628499701E+00	1.73464839692E+02	-4.78557686758E+01	2.72772532026E+01	-5.99139323916E+00	-7.07869111569E-01
1.83120346705E+06	-2.10285239832E+01	-1.66268704480E+02	6.68121906634E+00	1.73531611549E+02	-4.49374933956E+01	-2.32629306988E+01	-6.02534896225E+00	-6.55055024065E-01
1.85339482165E+06	-1.87863484076E+01	1.78740681283E+02	6.68890409285E+00	1.73482773329E+02	-4.07836441092E+01	-4.81791013505E+00	-6.00921971275E+00	-8.12723105953E-01
1.87558617624E+06	-1.63292280720E+01	1.76341145497E+02	6.61350055250E+00	1.73462453547E+02	-4.64318120798E+01	8.19728090928E+01	-6.00002279633E+00	-9.98836493072E-01
1.89777753084E+06	-1.53157174908E+01	-1.67046554720E+02	6.67606283932E+00	1.73270560084E+02	-4.03094866231E+01	3.79380794116E+01	-6.03134932647E+00	-9.34316904748E-01
1.91996888543E+06	-1.19509278928E+01	-1.58604740679E+02	6.66260039273E+00	1.72887726100E+02	-4.24686280585E+01	-1.62109917276E+02	-5.99072996514E+00	-7.99732625984E-01
1.94216024003E+06	-1.66886627629E+01	1.53967358145E+02	6.63216671826E+00	1.73366031747E+02	-4.00758472690E+01	-3.20689548809E+01	-6.02081497156E+00	-8.49353484216E-01
1.96435159462E+06	-1.19072400910E+01	-1.69977685765E+02	6.63523987913E+00	1.72550174738E+02	-4.42966655537E+01	-1.56384286767E+02	-6.01021707655E+00	-8.21711279412E-01
1.98654294922E+06	-1.45076454519E+01	-1.70759413004E+02	6.61570779582E+00	1.72505112369E+02	-3.87781764184E+01	1.72004333309E+02	-5.97807151559E+00	-8.07771203999E-01
2.00873430381E+06	-1.38996938865E+01	1.73352568946E+02	6.65376323538E+00	1.72643811241E+02	-5.50326522560E+01	1.20465721991E+02	-5.99056561843E+00	-9.93728626346E-01
2.03092565841E+06	-1.36672698985E+01	-1.72607869286E+02	6.63494617240E+00	1.72441294418E+02	-4.21764231831E+01	1.22154487802E+02	-5.99956107330E+00	-9.32223378577E-01
2.05311701300E+06	-1.30752999707E+01	1.74590012740E+02	6.63231838304E+00	1.72397190610E+02	-4.76788106077E+01	7.83324800478E+01	-5.99009093798E+00	-8.34343874384E-01
2.07530836760E+06	-1.35128157670E+01	1.78133365429E+02	6.66731362192E+00	1.72311041954E+02	-3.53168696819E+01	9.01089529218E+01	-5.98461057742E+00	-9.11971735822E-01
2.09749972219E+06	-1.78544675257E+01	1.53726840337E+02	6.65363047390E+00	1.72790184327E+02	-4.16116825520E+01	-3.90711752056E+01	-6.02041329670E+00	-1.04222556290E+00
2.11969107679E+06	-1.34530615230E+01	-1.77123087358E+02	6.62601840529E+00	1.72204133545E+02	-4.58551175073E+01	1.48869766470E+02	-5.98055539875E+00	-9.86928543941E-01
2.14188243138E+06	-1.46815128748E+01	1.59645280919E+02	6.60635831877E+00	1.72291251969E+02	-4.99983371083E+01	9.29901456998E+01	-6.00194025841E+00	-9.13548324113E-01
2.16407378598E+06	-1.25684218544E+01	-1.79522561822E+02	6.61136769674E+00	1.72063581219E+02	-5.19096666908E+01	-5.21814725274E+01	-6.02236860198E+00	-9.89923061634E-01
2.18626514057E+06	-1.61998872447E+01	-1.57350877808E+02	6.68842383579E+00	1.71743100645E+02	-3.86007254273E+01	1.37527534621E+02	-5.97200706605E+00	-9.42041383939E-01
2.20845649517E+06	-1.70350970086E+01	-1.75555758395E+02	6.67299404309E+00	1.71905576093E+02	-4.24833311114E+01	1.17669388580E+02	-5.98622612581E+00	-1.15509015252E+00
2.23064784976E+06	-1.69653631077E+01	1.79768744005E+02	6.69296542686E+00	1.71963289056E+02	-6.00164462599E+01	-1.18278518655E+02	-6.01910664652E+00	-9.29017549557E-01
2.25283920436E+06	-1.54737856245E+01	1.76712676515E+02	6.64642675817E+00	1.71787483776E+02	-3.53606073078E+01	1.00317762721E+02	-5.96880061114E+00	-9.74446612159E-01
2.27503055895E+06	-1.23136324789E+01	-1.61503311630E+02	6.63758063489E+00	1.71248963306E+02	-4.13989756555E+01	-1.78025595691E+02	-5.99059097183E+00	-7.45056101839E-01
2.29722191355E+06	-1.08201271778E+01	-1.75938443391E+02	6.59523318263E+00	1.71367271474E+02	-4.73639376763E+01	-2.45630066796E+01	-6.02014693741E+00	-1.11621270896E+00
2.31941326814E+06	-1.67031404264E+01	-1.61229488203E+02	6.69740404724E+00	1.71443494015E+02	-4.73968868996E+01	-8.51086079657E+01	-5.99861596643E+00	-1.08006575077E+00
2.34160462274E+06	-1.32816129019E+01	-1.49675020254E+02	6.67875947317E+00	1.71361198303E+02	-4.75829482010E+01	-5.03738769568E+00	-6.00865246556E+00	-1.04620485241E+00
2.36379597733E+06	-1.86122256961E+01	-1.77191377791E+02	6.65291008303E+00	1.71238853182E+02	-4.44880552871E+01	1.30703453971E+02	-5.97902184450E+00	-1.06822274171E+00
2.38598733193E+06	-1.42627055709E+01	-1.57656968632E+02	6.63653307812E+00	1.70936178054E+02	-4.59252976183E+01	1.17585310695E+02	-5.96727452762E+00	-9.62585931047E-01
2.40817868652E+06	-1.40463047241E+01	1.65934500984E+02	6.62695196503E+00	1.71027586513E+02	-4.05746211686E+01	-3.45856518160E+01	-6.01203827233E+00	-1.22327630817E+00
2.43037004112E+06	-1.33733256400E+01	1.75660800002E+02	6.66744623086E+00	1.70995098321E+02	-4.75763095642E+01	4.47853516434E+01	-5.97608830993E+00	-1.58888423085E+00
2.45256139571E+06	-1.35022030521E+01	-1.75665460993E+02	6.63652935203E+00	1.71102640918E+02	-5.39422469172E+01	7.03559885564E+01	-5.99959279893E+00	-1.25128954818E+00
2.47475275031E+06	-1.48277929670E+01	-1.75315060750E+02	6.66405420462E+00	1.70919555819E+02	-4.61573893640E+01	3.54545515796E+00	-6.02957502287E+00	-1.13019131586E+00
2.49694410490E+06	-1.30706505257E+01	1.75811924526E+02	6.60820409877E+00	1.70770523151E+02	-5.66374412687E+01	-1.25903644739E+02	-6.01005526641E+00	-1.11870410422E+00
2.51913545950E+06	-1.44971809769E+01	1.64181906862E+02	6.64955089998E+00	1.70572317341E+02	-4.41910352472E+01	-1.47188840455E+02	-5.99180206201E+00	-8.94496444852E-01
2.54132681409E+06	-1.34510979961E+01	-1.56627641330E+02	6.68837341397E+00	1.70346936788E+02	-4.08614772855E+01	8.22808201339E+01	-5.99161158013E+00	-1.31385526097E+00
2.56351816869E+06	-8.79261732308E+00	-1.38326742618E+02	6.68965657938E+00	1.69748377050E+02	-3.67316615091E+01	-1.16996757958E+02	-5.99918365545E+00	-8.92695050949E-01
2.58570952328E+06	-1.64694818468E+01	-1.62726925234E+02	6.63509474766E+00	1.70348906228E+02	-4.82886377040E+01	-6.54031135527E+01	-6.02580794080E+00	-1.05570327043E+00
2.60790087788E+06	-1.49438723818E+01	-1.64654667607E+02	6.67667158178E+00	1.70153245836E+02	-4.44457388016E+01	7.58836156439E+01	-5.99077389419E+00	-1.18172001154E+00
2.63009223247E+06	-1.36491925595E+01	-1.79925444041E+02	6.66499500484E+00	1.70184241226E+02	-3.94681123781E+01	-1.50702303654E+02	-5.96416352948E+00	-6.27069420655E-01
2.65228358707E+06	-1.30548201534E+01	-1.63842508732E+02	6.69601481124E+00	1.69733992949E+02	-4.23377626089E+01	-1.43182825842E+02	-6.00263620470E+00	-1.06772629791E+00
2.67447494166E+06	-1.43497593063E+01	-1.74339150070E+02	6.67334367764E+00	1.69964986624E+02	-4.81814348248E+01	4.13992451643E+01	-6.01610523672E+00	-1.25637116310E+00
2.69666629626E+06	-1.37165501524E+01	-1.71373274722E+02	6.67325757329E+00	1.69642645371E+02	-3.84422803929E+01	-3.59746423311E-01	-6.03315549776E+00	-1.28469991808E+00
2.71885765085E+06	-1.12825444671E+01	1.71947867228E+02	6.59798207027E+00	1.69571302577E+02	-3.87629569713E+01	-8.59046530076E+01	-6.03456832817E+00	-1.19437728699E+00
2.74104900545E+06	-1.57788480846E+01	-1.56872147741E+02	6.67935253290E+00	1.69457778676E+02	-4.39245918131E+01	7.02951520452E+01	-5.97345529575E+00	-1.39797765502E+00
2.76324036004E+06	-1.18520865326E+01	-1.70178742323E+02	6.64538846205E+00	1.69455991063E+02	-4.55649595075E+01	-1.77219895325E+02	-5.99467793545E+00	-1.18274167504E+00
2.78543171463E+06	-1.53385898529E+01	-1.63401670543E+02	6.66741104451E+00	1.69532615172E+02	-4.63424361899E+01	4.83826171516E+01	-6.01494600451E+00	-1.20921828571E+00
2.80762306923E+06	-1.45018678482E+01	-1.74604388469E+02	6.68341541617E+00	1.69336112889E+02	-4.29821412150E+01	-6.65710663014E+01	-6.02067752985E+00	-1.09420556889E+00
2.82981442382E+06	-1.57513711325E+01	-1.77804595604E+02	6.69428269060E+00	1.69505657247E+02	-5.69625798405E+01	-1.14204903002E+02	-6.00249093751E+00	-1.26788849493E+00
2.85200577842E+06	-1.66467957664E+01	-1.74634019274E+02	6.69451250315E+00	1.69139055412E+02	-4.89913283642E+01	-1.57314453956E+02	-5.98511640504E+00	-1.22225645605E+00
2.87419713301E+06	-1.38633655668E+01	-1.77840747712E+02	6.70270853299E+00	1.69285900126E+02	-4.09211723927E+01	-7.47848220761E+01	-6.03207838044E+00	-1.05443384906E+00
