# Hz S DB R 50
! CMT, M5065, 19127446, 24.2.4/2
! Date: 11/8/2024 3:22:23 PM
! Data: Format (Calibration Info)
! Freq	S11:dB/Ang(F2)	S21:dB/Ang(F2)	S12:dB/Ang(F2)	S22:dB/Ang(F2)
3.00000000000E+05	-1.66285624483E+01	-1.75725061395E+02	2.17727948223E+01	-1.76377502417E+02	-4.58074256085E+01	1.06647859621E+02	-5.94596039688E+00	-5.16271773247E-01
3.22191354595E+05	-1.26028839638E+01	-1.78629646111E+02	2.17570992134E+01	-1.77098991231E+02	-4.92410132862E+01	1.47158983567E+02	-5.92249501136E+00	-4.01257419691E-01
3.44382709190E+05	-1.36963985358E+01	-1.65976799015E+02	2.17569715527E+01	-1.77856910938E+02	-4.04386430712E+01	6.18660494103E+01	-6.01953006117E+00	-7.74424094499E-01
3.66574063785E+05	-1.14446216564E+01	1.59839808226E+02	2.17677822421E+01	-1.78381678273E+02	-5.49247431746E+01	1.33363711685E+02	-5.96979283594E+00	-4.08298020932E-01
3.88765418380E+05	-1.22951138351E+01	-1.73399858912E+02	2.17384889060E+01	-1.79493014394E+02	-4.81241455272E+01	1.53553277147E+01	-6.08220852009E+00	-8.98187664288E-01
4.10956772975E+05	-1.61637974249E+01	-1.54849355877E+02	2.17884673122E+01	1.79947107955E+02	-4.05221798089E+01	1.54293917182E+01	-6.06899079139E+00	-5.20232899696E-01
4.33148127570E+05	-1.21736790156E+01	-1.77834855832E+02	2.17501393150E+01	1.79649836271E+02	-5.51710239424E+01	-1.38632838130E+02	-5.98786284487E+00	-3.67660560257E-01
4.55339482165E+05	-1.53824595812E+01	-1.70129184477E+02	2.17665551786E+01	1.79062332808E+02	-4.98822231919E+01	-4.34653714037E+01	-6.04188664815E+00	-4.68193572760E-01
4.77530836760E+05	-1.75233424847E+01	1.76081851161E+02	2.17576193827E+01	1.78713872020E+02	-4.17492637398E+01	-8.62714940915E+01	-6.01408321962E+00	1.72439614180E-01
4.99722191355E+05	-1.51221078036E+01	1.75598138054E+02	2.17401534705E+01	1.78392942850E+02	-4.91848450385E+01	1.39064834801E+02	-5.97232769027E+00	-5.16114912348E-01
5.21913545950E+05	-1.52544098882E+01	1.53095131591E+02	2.17460969144E+01	1.77710181199E+02	-4.29194458156E+01	-2.92498686216E+01	-6.05195403746E+00	-7.77131162120E-02
5.44104900545E+05	-1.09254032473E+01	-1.65984352452E+02	2.17328450046E+01	1.77144808907E+02	-4.56269361926E+01	-1.55061196035E+02	-5.95432440274E+00	-2.91850267930E-01
5.66296255139E+05	-1.53998131433E+01	-1.68836890750E+02	2.17487798303E+01	1.76834533028E+02	-4.71198777335E+01	8.37647970082E+01	-6.01925729094E+00	-7.13958531683E-01
5.88487609734E+05	-1.33345115630E+01	-1.58292924459E+02	2.17664804893E+01	1.76382643798E+02	-4.23732975312E+01	-1.33798448685E+02	-5.94579848412E+00	3.66734450636E-02
6.10678964329E+05	-1.33086283957E+01	-1.75833163277E+02	2.17289435121E+01	1.76180013692E+02	-4.99754761101E+01	-1.00893279629E+01	-6.00482600587E+00	1.30448253547E-01
6.32870318924E+05	-1.18449623432E+01	-1.68044062982E+02	2.17371354901E+01	1.75762028702E+02	-4.38059317437E+01	7.52911787971E+01	-6.01572362136E+00	-4.87850774842E-01
6.55061673519E+05	-1.15494076475E+01	1.73523439821E+02	2.17190703732E+01	1.75421534319E+02	-4.00515339597E+01	4.17118603529E+01	-6.03878071737E+00	-7.03548937492E-01
6.77253028114E+05	-1.23003801068E+01	1.64297371403E+02	2.17223038804E+01	1.75057176522E+02	-6.12473521147E+01	1.50613135801E+02	-5.97923367368E+00	-8.95679825529E-01
6.99444382709E+05	-1.27437783477E+01	1.65269934657E+02	2.17038903117E+01	1.74766151438E+02	-4.31401058575E+01	-1.01220915429E+02	-5.98222140274E+00	3.59338429720E-02
7.21635737304E+05	-1.41782643159E+01	-1.68369908671E+02	2.17459407588E+01	1.74172224579E+02	-4.77775078979E+01	-7.58445101085E+01	-6.00369232007E+00	-2.50546995110E-01
7.43827091899E+05	-1.29081446811E+01	1.65337997272E+02	2.17235720409E+01	1.74106687430E+02	-4.01706321015E+01	7.57862711078E+01	-6.00655979539E+00	-1.02958428597E+00
7.66018446494E+05	-1.25864776285E+01	-1.64738697500E+02	2.16903499330E+01	1.73356222239E+02	-3.60371104670E+01	-9.39280050638E+00	-6.15306513958E+00	-3.85419261063E-01
7.88209801089E+05	-1.35041563136E+01	-1.69561010296E+02	2.17112193952E+01	1.73203164710E+02	-4.24921565777E+01	-5.80255649051E+01	-6.03394630760E+00	-4.27367399200E-02
8.10401155684E+05	-1.58443229494E+01	-1.79585083109E+02	2.17240621417E+01	1.72920304113E+02	-4.22367164363E+01	-3.34662652781E+01	-6.04914718900E+00	-2.19981279181E-01
8.32592510279E+05	-1.40670874976E+01	1.46741717971E+02	2.17223791929E+01	1.72789803242E+02	-4.44871609883E+01	4.36268863924E+01	-6.04730182745E+00	-4.22276295098E-01
8.54783864874E+05	-1.31067055147E+01	-1.79959733099E+02	2.16866467171E+01	1.72304425693E+02	-4.21026237547E+01	2.83509465351E+01	-6.06969818166E+00	-6.16281858070E-01
8.76975219469E+05	-1.21378962345E+01	-1.74596452403E+02	2.16693009482E+01	1.71942318446E+02	-4.30227332563E+01	5.67740043303E+01	-6.05395913657E+00	-9.90016573487E-01
8.99166574064E+05	-1.48801457332E+01	-1.53404372235E+02	2.17295415176E+01	1.71352374479E+02	-5.01230481913E+01	8.42245204312E+01	-5.99194275988E+00	-7.32824106564E-01
9.21357928659E+05	-1.42902950559E+01	-1.73748364382E+02	2.16892598340E+01	1.71275311292E+02	-4.22026800563E+01	-8.65155224806E+01	-6.01676663706E+00	3.20512248793E-02
9.43549283254E+05	-1.09181045383E+01	-1.59204215280E+02	2.16652611535E+01	1.70744052363E+02	-4.95805258220E+01	1.17653441918E+02	-6.00119743780E+00	-4.88809563661E-01
9.65740637849E+05	-1.77155783845E+01	-1.47975939537E+02	2.17087529139E+01	1.70556766367E+02	-5.32797810164E+01	-1.23098838317E+02	-6.00210801436E+00	-3.56628866414E-01
9.87931992444E+05	-1.36409850893E+01	-1.64871926659E+02	2.16896387816E+01	1.70306926794E+02	-5.21121255474E+01	-4.51108955537E+00	-6.00344846210E+00	-3.46484539406E-01
1.01012334704E+06	-1.38156663272E+01	-1.59374778430E+02	2.16683865471E+01	1.69888654607E+02	-4.69213369922E+01	1.33167301904E+02	-5.93341934798E+00	-8.12653985461E-01
1.03231470163E+06	-1.37589745055E+01	1.76640706184E+02	2.16572450013E+01	1.69822549975E+02	-4.61523396446E+01	1.11780405106E+02	-5.97080523864E+00	-8.25648978444E-01
1.05450605623E+06	-1.53134607824E+01	-1.79806989187E+02	2.16577494235E+01	1.69471721975E+02	-3.78101934418E+01	-8.13781244436E+01	-6.02366548763E+00	4.67703631983E-03
1.07669741082E+06	-1.25027651367E+01	1.77689286862E+02	2.16412691798E+01	1.69202825385E+02	-4.53521004452E+01	-8.98610081053E+01	-6.01794502549E+00	-1.47958006825E-01
1.09888876542E+06	-1.22666299083E+01	-1.77514140279E+02	2.16600747393E+01	1.68881850234E+02	-4.91570851546E+01	1.77462956011E+02	-5.95879154756E+00	-5.82975841043E-01
1.12108012001E+06	-1.31964978994E+01	-1.78765731627E+02	2.16523151197E+01	1.68610362259E+02	-4.47017778657E+01	5.66603577844E+01	-6.05613359742E+00	-1.03190132080E+00
1.14327147461E+06	-1.84720200150E+01	-1.65534944297E+02	2.16794678182E+01	1.68316686164E+02	-3.74296324994E+01	9.31570356736E+01	-6.02074436042E+00	-1.38647957580E+00
1.16546282920E+06	-1.40493354149E+01	-1.73462449438E+02	2.16350238096E+01	1.68075072324E+02	-4.02525528460E+01	-1.62473438017E+02	-5.91904007489E+00	-2.49194175490E-01
1.18765418380E+06	-1.40627745017E+01	-1.71837432080E+02	2.16445432474E+01	1.67788658127E+02	-4.47994089635E+01	-9.65234671526E+01	-5.99157172895E+00	-1.82564901076E-01
1.20984553839E+06	-1.56332918852E+01	-1.68620540619E+02	2.16410676562E+01	1.67398160014E+02	-5.18984643337E+01	-1.47972671243E+02	-5.97452306242E+00	-6.66311871017E-01
1.23203689299E+06	-1.27548208776E+01	1.53098263175E+02	2.16172380699E+01	1.67430330059E+02	-4.15789183544E+01	-1.06123342583E+01	-6.09678179049E+00	-4.40167355441E-01
1.25422824758E+06	-1.30690643955E+01	-1.62131523086E+02	2.16293865215E+01	1.66856132946E+02	-4.58180551300E+01	1.13422988116E+02	-5.95617767254E+00	-8.50000173667E-01
1.27641960218E+06	-1.20562114019E+01	1.69652960907E+02	2.16035736119E+01	1.66688743916E+02	-5.08124362932E+01	-6.86246836183E+01	-6.04274441932E+00	-6.04672440489E-01
1.29861095677E+06	-1.23168649322E+01	-1.58456414519E+02	2.16263478138E+01	1.66236078210E+02	-4.65098926579E+01	-1.48909580934E+02	-5.95431062980E+00	-4.98862587819E-01
1.32080231137E+06	-1.70442360509E+01	-1.65418005480E+02	2.16332723705E+01	1.66037859884E+02	-5.21463960399E+01	3.77709174535E+01	-6.02032023208E+00	-1.04619720835E+00
1.34299366596E+06	-1.35020335082E+01	1.71844597684E+02	2.16143279510E+01	1.65942918147E+02	-4.14286943791E+01	-7.09507009240E+01	-6.04015002788E+00	-1.67253944724E-01
1.36518502056E+06	-1.33839079199E+01	-1.78762733309E+02	2.16043411592E+01	1.65500158962E+02	-5.06715300281E+01	1.18559657609E+02	-5.98669788016E+00	-8.00850905055E-01
1.38737637515E+06	-1.16463884030E+01	-1.73891085472E+02	2.15811600609E+01	1.65143568020E+02	-4.04367502771E+01	1.50283147324E+02	-5.91382347257E+00	-7.03961503604E-01
1.40956772975E+06	-1.33756224723E+01	1.71446680634E+02	2.15711061752E+01	1.65093592766E+02	-4.53834824294E+01	6.38615096934E+01	-6.03073531759E+00	-1.14247988449E+00
1.43175908434E+06	-1.26954282816E+01	-1.69622188477E+02	2.15977876338E+01	1.64644017584E+02	-3.93819520124E+01	6.80078992135E+01	-6.04687037902E+00	-1.15508267295E+00
1.45395043894E+06	-1.93557155379E+01	1.50248055950E+02	2.16099337062E+01	1.64699915535E+02	-3.94866429086E+01	-6.06835011952E+01	-6.07311447025E+00	-3.06537858458E-01
1.47614179353E+06	-1.44777844274E+01	1.72236760497E+02	2.15843645556E+01	1.64252833537E+02	-4.92116877994E+01	2.19794650210E+01	-6.02240376411E+00	-8.15388566254E-01
1.49833314813E+06	-1.81132131910E+01	-1.67022039963E+02	2.16274169824E+01	1.63922617904E+02	-4.80327106318E+01	-6.81863778292E+01	-6.02550691548E+00	-4.11176275128E-01
1.52052450272E+06	-9.75077733592E+00	-1.70582925300E+02	2.15249208713E+01	1.63380796599E+02	-4.10469035708E+01	1.22354831000E+02	-5.96286803500E+00	-1.25975012943E+00
1.54271585732E+06	-1.35556730674E+01	-1.51483269636E+02	2.15971386570E+01	1.63161410841E+02	-4.01603687505E+01	-2.21934906453E+00	-6.12317835203E+00	-6.58282352786E-01
1.56490721191E+06	-1.57336433417E+01	-1.75499022651E+02	2.15774585584E+01	1.63102450318E+02	-5.62804604497E+01	-8.13215528291E+01	-5.99763497119E+00	-6.00239785722E-01
1.58709856651E+06	-1.18119920741E+01	1.79552719576E+02	2.15462027561E+01	1.62845782534E+02	-3.94886210777E+01	7.50449084643E+01	-6.01027404972E+00	-1.19194398155E+00
1.60928992110E+06	-1.08812111109E+01	-1.79325093789E+02	2.15235772453E+01	1.62550384410E+02	-4.76847459886E+01	6.47043074558E+01	-6.02271833997E+00	-8.86649951028E-01
1.63148127570E+06	-1.47077297184E+01	1.72554515483E+02	2.15401587561E+01	1.62328632198E+02	-4.58155303661E+01	7.07993497762E+00	-6.05785928761E+00	-8.23496632177E-01
1.65367263029E+06	-1.25991569045E+01	1.73823548648E+02	2.15342037036E+01	1.62052657692E+02	-4.50314517419E+01	-7.28294699236E+01	-5.99757302566E+00	-4.25088945996E-01
1.67586398489E+06	-1.31189036962E+01	-1.61757476317E+02	2.15504485266E+01	1.61624720331E+02	-4.83349751614E+01	-1.69179026979E+02	-5.95549526695E+00	-6.34282807367E-01
1.69805533948E+06	-1.38255135855E+01	-1.75636735438E+02	2.15383491666E+01	1.61473366260E+02	-4.54454404596E+01	-2.39302276969E+01	-6.04293670106E+00	-8.69690606578E-01
1.72024669408E+06	-1.60858250367E+01	-1.74380898621E+02	2.15665820470E+01	1.61381965222E+02	-4.99435878565E+01	-2.71779835103E+01	-6.01811554350E+00	-6.42824928085E-01
1.74243804867E+06	-1.60035099313E+01	1.78424082255E+02	2.15360874256E+01	1.61114849991E+02	-3.67563743122E+01	-1.28135066039E+02	-5.97448528510E+00	-1.33880759965E-01
1.76462940327E+06	-1.19888461301E+01	1.59361329474E+02	2.14843886511E+01	1.60913271470E+02	-4.34929377183E+01	-2.01648218108E+01	-6.07358574524E+00	-7.98457101716E-01
1.78682075786E+06	-1.32510724128E+01	-1.68264214218E+02	2.15346847756E+01	1.60339392376E+02	-4.83500751476E+01	8.62289753444E+01	-5.99783242693E+00	-1.09409633828E+00
1.80901211246E+06	-1.43169819304E+01	-1.79062109513E+02	2.15222104506E+01	1.60184412424E+02	-5.40327503083E+01	4.91465597174E+01	-6.03152343546E+00	-1.07149502837E+00
1.83120346705E+06	-1.15256049686E+01	-1.68189123603E+02	2.14943919052E+01	1.59806829285E+02	-4.54184101406E+01	-1.38708942678E+02	-5.96714882634E+00	-5.40343410458E-01
1.85339482165E+06	-1.24088314983E+01	-1.73640382767E+02	2.14839946343E+01	1.59540940839E+02	-5.20180921079E+01	1.51638314070E+02	-5.98698773711E+00	-8.85651783976E-01
1.87558617624E+06	-1.41203042091E+01	1.77824623489E+02	2.15063070140E+01	1.59474701569E+02	-5.11390996619E+01	-5.65827073242E+01	-6.02503801855E+00	-9.56850573668E-01
1.89777753084E+06	-1.45547754317E+01	1.75649214597E+02	2.15030364257E+01	1.59123413391E+02	-4.88119153805E+01	-4.97845671535E+01	-6.05695773327E+00	-9.65429195124E-01
1.91996888543E+06	-1.53301632687E+01	1.71506463275E+02	2.15011852903E+01	1.59023335661E+02	-3.57647625591E+01	9.73160003233E+01	-5.98780158926E+00	-1.52445837366E+00
1.94216024003E+06	-1.21173554730E+01	1.78161582590E+02	2.14612817286E+01	1.58734781129E+02	-4.14288850972E+01	-4.46490578740E+01	-6.05918203619E+00	-7.13885705260E-01
1.96435159462E+06	-1.30432722011E+01	1.78717987800E+02	2.14760846485E+01	1.58386979273E+02	-5.13139125739E+01	8.95922335106E+01	-5.99816432244E+00	-9.00987827591E-01
1.98654294922E+06	-1.31915457189E+01	-1.63882941703E+02	2.14822750944E+01	1.58018575815E+02	-5.83783818579E+01	-2.20662283060E+01	-6.00911974843E+00	-8.49611384065E-01
2.00873430381E+06	-1.35637393870E+01	1.70269479706E+02	2.14596269654E+01	1.57982169404E+02	-4.19255179780E+01	-3.65961963002E+01	-6.05553446831E+00	-9.15751630482E-01
2.03092565841E+06	-1.72913784293E+01	1.46195787063E+02	2.14926657608E+01	1.57874320674E+02	-4.15176560760E+01	-1.78902860023E+02	-5.93458715994E+00	-7.41673570371E-01
2.05311701300E+06	-1.32688663481E+01	-1.74113935488E+02	2.14639928614E+01	1.57302993779E+02	-3.62776919916E+01	5.55067193473E+01	-6.03513166088E+00	-1.44375130492E+00
2.07530836760E+06	-1.37839722484E+01	-1.55523875923E+02	2.14832899831E+01	1.56966846874E+02	-3.35993037274E+01	-1.00256549973E+02	-6.01901451403E+00	3.12672555752E-01
2.09749972219E+06	-1.63324572448E+01	-1.50016109151E+02	2.14996951561E+01	1.56712035755E+02	-5.41037441874E+01	8.61287141575E+01	-6.00024891691E+00	-1.02784975539E+00
2.11969107679E+06	-1.33570256761E+01	1.78148829985E+02	2.14437786852E+01	1.56655406295E+02	-4.82573679462E+01	-5.69810083890E+01	-6.03389561863E+00	-8.00850338687E-01
2.14188243138E+06	-1.44310195496E+01	-1.68654788843E+02	2.14545517218E+01	1.56237517278E+02	-4.32755279137E+01	1.31501752108E+02	-5.94520118294E+00	-1.27912487549E+00
2.16407378598E+06	-1.34489665233E+01	-1.76480527835E+02	2.14443941118E+01	1.56094078447E+02	-4.76949600651E+01	-8.07046403114E+01	-6.00564888305E+00	-7.58610028971E-01
2.18626514057E+06	-1.22504160122E+01	-1.72413235323E+02	2.14311130785E+01	1.55738050764E+02	-4.44591738371E+01	-8.00355541653E+01	-6.01737538870E+00	-6.21893507854E-01
2.20845649517E+06	-1.22943009375E+01	-1.72284302420E+02	2.14151774065E+01	1.55486970258E+02	-4.29398724210E+01	1.76268349955E+02	-5.92672518079E+00	-7.72422779225E-01
2.23064784976E+06	-1.65750264874E+01	1.58730603580E+02	2.14486133698E+01	1.55722080183E+02	-3.63224891148E+01	1.27645310524E+00	-6.13535023462E+00	-9.73387701446E-01
2.25283920436E+06	-7.27330341530E+00	1.61886239728E+02	2.13541465433E+01	1.55103817708E+02	-4.74758589259E+01	-1.10838641625E+02	-5.99019817233E+00	-7.98525769096E-01
2.27503055895E+06	-1.16223668657E+01	-1.61065448304E+02	2.14194271841E+01	1.54521993353E+02	-5.57063373392E+01	1.13885732528E+02	-5.99534615535E+00	-1.03073228984E+00
2.29722191355E+06	-1.25739481427E+01	-1.77476874613E+02	2.13909598993E+01	1.54421997367E+02	-4.15456389560E+01	1.19609186315E+02	-5.96810378396E+00	-1.64214186437E+00
2.31941326814E+06	-1.49885288230E+01	-1.60927198944E+02	2.14291985288E+01	1.54223502354E+02	-4.71222603879E+01	-4.50499849234E+00	-6.03372144267E+00	-9.53894741539E-01
2.34160462274E+06	-1.44554166029E+01	1.78841302518E+02	2.13951739502E+01	1.54019495950E+02	-4.87584621368E+01	7.65946462895E+01	-5.97115405055E+00	-1.50931829924E+00
2.36379597733E+06	-1.51604016272E+01	-1.53548277918E+02	2.14474707065E+01	1.53696227666E+02	-3.98448030472E+01	-1.02113459460E+02	-5.99073397747E+00	-5.05349938088E-01
2.38598733193E+06	-1.22497579268E+01	1.65524375848E+02	2.13657141172E+01	1.53598440816E+02	-4.96335160551E+01	-1.14216557175E+02	-6.01445303214E+00	-9.90556356172E-01
2.40817868652E+06	-1.72387661801E+01	1.16985684729E+02	2.13764697433E+01	1.53618474364E+02	-4.98287400972E+01	1.17612121055E+02	-6.00159471235E+00	-1.45698128470E+00
2.43037004112E+06	-1.49073519929E+01	-1.73057057983E+02	2.13995103100E+01	1.52939877835E+02	-4.47715708386E+01	-1.22491383870E+02	-5.97618592181E+00	-1.09538981048E+00
2.45256139571E+06	-1.54298584949E+01	-1.65001916756E+02	2.13928361435E+01	1.52758831514E+02	-4.78812272033E+01	-1.70460965692E+01	-6.04431715945E+00	-1.17742682929E+00
2.47475275031E+06	-1.48356410453E+01	-1.60200496140E+02	2.13747243512E+01	1.52326672219E+02	-6.08811896748E+01	6.42697050627E+01	-6.01195505806E+00	-1.19214874861E+00
2.49694410490E+06	-1.51374819587E+01	-1.62137231406E+02	2.13903536630E+01	1.52109206298E+02	-4.40861062937E+01	9.35207371442E+00	-6.07948503029E+00	-1.25658829105E+00
2.51913545950E+06	-1.61050661899E+01	-1.70336758634E+02	2.13893846615E+01	1.52004244147E+02	-3.66737078280E+01	-1.51335358611E+02	-5.94538555112E+00	-5.79528384133E-01
2.54132681409E+06	-1.55283180766E+01	-1.79293219415E+02	2.13343650598E+01	1.51855023166E+02	-4.06931341285E+01	1.11991412097E+02	-5.99016637558E+00	-1.28738329570E+00
2.56351816869E+06	-8.22980461514E+00	-1.54758537299E+02	2.13648092029E+01	1.51149058515E+02	-4.55473230442E+01	1.94870001208E+01	-6.04069380297E+00	-1.36970657006E+00
2.58570952328E+06	-1.31881506826E+01	-1.63372495158E+02	2.13639075166E+01	1.51082438429E+02	-4.00014206789E+01	1.48275144669E+02	-5.88585063601E+00	-1.39257404417E+00
2.60790087788E+06	-1.23247404589E+01	1.72827016122E+02	2.13219119677E+01	1.50932978160E+02	-6.50874460284E+01	-5.60493292087E+01	-5.99262884165E+00	-1.07506948780E+00
2.63009223247E+06	-1.44164992310E+01	-1.60786794495E+02	2.13284743805E+01	1.50670359486E+02	-4.43622964242E+01	4.11410777167E+01	-6.06759182785E+00	-1.11880357606E+00
2.65228358707E+06	-1.68807935391E+01	-1.60858677365E+02	2.13550041502E+01	1.50623245642E+02	-4.96344702159E+01	5.27518118999E+01	-6.03120819674E+00	-1.51102798356E+00
2.67447494166E+06	-1.45988013310E+01	-1.78222707931E+02	2.13294751740E+01	1.50313701377E+02	-6.33378641179E+01	-4.63258910623E+01	-6.03031594751E+00	-1.14347064768E+00
2.69666629626E+06	-1.20351273969E+01	-1.77131466294E+02	2.12746724153E+01	1.49991105418E+02	-3.14324730083E+01	6.83767744945E+01	-5.99996331090E+00	-2.11403026093E+00
2.71885765085E+06	-1.56393432290E+01	-1.75618326216E+02	2.13034064902E+01	1.49760569424E+02	-4.39737006742E+01	4.87085416931E+01	-6.03622667132E+00	-1.61999365886E+00
2.74104900545E+06	-1.23961766844E+01	-1.50614055402E+02	2.13243458397E+01	1.49171035132E+02	-3.96341349152E+01	-1.24978878416E+02	-5.96597072117E+00	-5.78069327379E-01
2.76324036004E+06	-1.61959312346E+01	1.54639488383E+02	2.13051763172E+01	1.49577319062E+02	-4.69634738547E+01	1.55517599748E+02	-5.95622020680E+00	-1.32027947189E+00
2.78543171463E+06	-1.50152092197E+01	-1.62977593515E+02	2.13167709332E+01	1.48926856204E+02	-4.50703952083E+01	-1.12357666433E+02	-5.98833923470E+00	-9.01159669985E-01
2.80762306923E+06	-1.64216183971E+01	-1.56371104596E+02	2.13163627440E+01	1.48726523100E+02	-4.71948794353E+01	-7.87341120132E+01	-6.03226519678E+00	-7.83357256476E-01
2.82981442382E+06	-1.26428823462E+01	-1.75854516206E+02	2.12526562918E+01	1.48400357192E+02	-4.59013485553E+01	-7.55701691078E+01	-6.03308218985E+00	-1.18131347913E+00
2.85200577842E+06	-1.40560015977E+01	-1.62452299451E+02	2.12974345431E+01	1.48112780466E+02	-4.10723082595E+01	1.13624088362E+02	-5.94218847290E+00	-1.65011028964E+00
2.87419713301E+06	-1.16078168804E+01	1.76020697329E+02	2.12383185854E+01	1.48035588216E+02	-6.49816462754E+01	-1.39947454760E+02	-6.00750066568E+00	-1.30624199604E+00
