# Hz S DB R 50
! CMT, M5065, 19127446, 24.2.4/2
! Date: 11/8/2024 3:23:33 PM
! Data: Format (Calibration Info)
! Freq	S11:dB/Ang(F2)	S21:dB/Ang(F2)	S12:dB/Ang(F2)	S22:dB/Ang(F2)
3.00000000000E+05	-1.57330043811E+01	1.76957572361E+02	2.41162114384E+01	-1.75814533275E+02	-4.16384296603E+01	-6.52595415619E+01	-6.06468203046E+00	1.49288094084E-01
3.22191354595E+05	-1.81753404737E+01	1.77201739203E+02	2.41126810143E+01	-1.76859782062E+02	-4.84978702668E+01	1.75305041875E+01	-6.00575893175E+00	-4.01965656679E-01
3.44382709190E+05	-1.69723018211E+01	-1.75353271793E+02	2.41440376283E+01	-1.77746299396E+02	-5.13241432722E+01	1.07311664092E+02	-5.99706147159E+00	-6.77075901323E-01
3.66574063785E+05	-1.63462757577E+01	1.68808756936E+02	2.41429986982E+01	-1.78491915780E+02	-4.45723846548E+01	-1.65613141588E+02	-5.95627681709E+00	-1.28520760044E-01
3.88765418380E+05	-1.49562131351E+01	1.77079479138E+02	2.40924086288E+01	-1.79681002837E+02	-4.02508576244E+01	-1.63037603187E+02	-5.83802246463E+00	-3.30534166677E-01
4.10956772975E+05	-1.18792201233E+01	-1.53800487174E+02	2.41206065158E+01	1.79688689452E+02	-4.24969432474E+01	-9.84274418523E+00	-6.06045552473E+00	-2.61060961294E-01
4.33148127570E+05	-1.28632212266E+01	1.75722737319E+02	2.41032398516E+01	1.79372866289E+02	-4.54744279349E+01	5.22128457902E+01	-6.01727783292E+00	-8.53885182405E-01
4.55339482165E+05	-1.32339829724E+01	-1.78413273825E+02	2.40995268096E+01	1.78625712394E+02	-4.54913058804E+01	-1.19489288110E+02	-5.98492457309E+00	-8.65706048184E-02
4.77530836760E+05	-1.15192666601E+01	1.76936761900E+02	2.40981397846E+01	1.78155311367E+02	-5.89838121259E+01	1.26961406727E+02	-6.02375475104E+00	-2.71815087720E-01
4.99722191355E+05	-1.59475152948E+01	-1.55585891855E+02	2.41354990989E+01	1.77255112808E+02	-4.34939944525E+01	-5.63189308434E+00	-6.07874891065E+00	-3.82331488940E-01
5.21913545950E+05	-1.19367144794E+01	-1.74060051365E+02	2.41224954067E+01	1.76853188844E+02	-4.41015270977E+01	1.79034158705E+02	-5.93309603559E+00	-2.61994242732E-01
5.44104900545E+05	-1.53548925669E+01	-1.67958077077E+02	2.41388831071E+01	1.76247419514E+02	-4.76055573758E+01	-1.01696870325E+02	-5.97774144283E+00	-2.61107109986E-01
5.66296255139E+05	-2.47367038520E+01	1.76621589180E+02	2.41430606813E+01	1.75909825283E+02	-4.44653398025E+01	-8.57286194659E+01	-6.00027253699E+00	-3.83813957469E-02
5.88487609734E+05	-1.27803768515E+01	-1.76245535394E+02	2.40764637179E+01	1.75446454213E+02	-4.25545243356E+01	-1.69957836558E+02	-5.90917019239E+00	-1.22597760595E-01
6.10678964329E+05	-1.41274478630E+01	-1.65562346365E+02	2.40827511191E+01	1.74732727717E+02	-4.60709864561E+01	-9.23649272692E+01	-5.99102088546E+00	4.04141278687E-01
6.32870318924E+05	-1.37174217904E+01	-1.48907195146E+02	2.40879977954E+01	1.74190658753E+02	-5.01316030163E+01	-7.51286957867E+01	-6.00397159246E+00	1.50474885566E-01
6.55061673519E+05	-1.47846658193E+01	-1.56428601340E+02	2.40944385727E+01	1.73737762820E+02	-5.51933812980E+01	1.27176257202E+01	-6.00587446339E+00	-3.15053896527E-01
6.77253028114E+05	-1.06511474754E+01	-1.68462404023E+02	2.40574010281E+01	1.73249428444E+02	-5.04776952022E+01	4.84305048315E+01	-6.03530555551E+00	-7.78282724951E-01
6.99444382709E+05	-1.35269798883E+01	1.74784253587E+02	2.40626546995E+01	1.73055775578E+02	-4.21490557396E+01	5.22016379748E+01	-6.01777545780E+00	-5.24209168083E-01
7.21635737304E+05	-1.73534818995E+01	-1.45992805079E+02	2.40827608538E+01	1.72421817969E+02	-4.63901864632E+01	-6.49168414161E+01	-6.06780063954E+00	-1.54242454584E-01
7.43827091899E+05	-1.34006579278E+01	-1.71282558275E+02	2.40223002210E+01	1.72115025565E+02	-5.29532487375E+01	-1.71266590124E+01	-6.02484219592E+00	-5.13283125009E-01
7.66018446494E+05	-1.33903463456E+01	-1.69866125173E+02	2.40390866984E+01	1.71632984867E+02	-5.88119500800E+01	1.09132501719E+02	-5.99415228036E+00	-5.33043770407E-01
7.88209801089E+05	-1.44029481155E+01	-1.67308969104E+02	2.40588654679E+01	1.71311204795E+02	-4.49840450569E+01	-9.96935159975E+01	-5.98019850787E+00	-2.41711680024E-02
8.10401155684E+05	-1.32844321815E+01	1.76827249440E+02	2.40517115420E+01	1.70932948775E+02	-4.17470808504E+01	1.09586935930E+02	-5.98547216841E+00	-1.06084788457E+00
8.32592510279E+05	-1.18313496291E+01	1.79428398326E+02	2.40078875472E+01	1.70701363251E+02	-4.69573044361E+01	5.82753998105E+01	-6.02542424989E+00	-5.35277477700E-01
8.54783864874E+05	-1.55731558320E+01	-1.58926322297E+02	2.40389775007E+01	1.70088932529E+02	-5.80288130171E+01	-1.10364683461E+02	-5.99469609885E+00	-6.05697582596E-01
8.76975219469E+05	-2.48208457575E+01	-1.54293915216E+02	2.40566002152E+01	1.69734626478E+02	-5.55641127492E+01	9.30270263083E+00	-6.01932054822E+00	-6.12251152309E-01
8.99166574064E+05	-1.26910111984E+01	-1.62044724591E+02	2.39953440124E+01	1.69190994065E+02	-4.14225405923E+01	-1.61062778218E+02	-5.93657923490E+00	-2.65152335961E-01
9.21357928659E+05	-1.66897246336E+01	-1.71061458657E+02	2.40224244618E+01	1.69104722531E+02	-4.13719348490E+01	-1.42148720115E+02	-5.93294274334E+00	-5.11161592310E-02
9.43549283254E+05	-1.93885247399E+01	1.56854768878E+02	2.40282823302E+01	1.68845576952E+02	-4.68813344080E+01	-1.26044467743E+02	-5.97739354829E+00	-1.98524894653E-01
9.65740637849E+05	-1.28834567313E+01	1.76908293347E+02	2.39596078429E+01	1.68355509359E+02	-4.58313811106E+01	-2.14690253716E+01	-6.02122689504E+00	-1.92969646714E-01
9.87931992444E+05	-1.50755838950E+01	1.78700077780E+02	2.39905098192E+01	1.67977527460E+02	-4.46157777829E+01	-1.60147422450E+02	-5.90093643849E+00	-2.24048590714E-01
1.01012334704E+06	-1.94758961133E+01	1.43106234450E+02	2.39817956320E+01	1.67731252010E+02	-4.21618993689E+01	-1.60792314232E+01	-6.08106783577E+00	-3.51727665269E-01
1.03231470163E+06	-1.24089122275E+01	-1.79335448148E+02	2.39397051677E+01	1.67142111961E+02	-6.46333316279E+01	-4.10602333732E+01	-6.00359846843E+00	-4.09026540190E-01
1.05450605623E+06	-1.35029063715E+01	-1.76411209924E+02	2.39636046124E+01	1.66759016969E+02	-4.28306559230E+01	1.49392178733E+02	-5.89609138633E+00	-9.45755356329E-01
1.07669741082E+06	-1.40269829134E+01	-1.73729697380E+02	2.39572279153E+01	1.66435619995E+02	-4.39793025333E+01	-1.61992382510E+02	-5.95097164070E+00	-4.86038854543E-01
1.09888876542E+06	-1.47173716368E+01	1.73838564782E+02	2.39463560579E+01	1.66308558334E+02	-4.13673285191E+01	1.98053351817E+01	-6.08597603090E+00	-7.38267764473E-01
1.12108012001E+06	-1.31535273986E+01	-1.76334799027E+02	2.39388685570E+01	1.65753393579E+02	-5.32629965566E+01	5.43343681888E+01	-6.02176395410E+00	-7.60146192184E-01
1.14327147461E+06	-1.31268651836E+01	-1.52323601261E+02	2.39376489570E+01	1.65270782280E+02	-4.91798169617E+01	-6.82423464824E+01	-6.00340445301E+00	-2.70173880092E-01
1.16546282920E+06	-1.52001287324E+01	1.78846784156E+02	2.39301759524E+01	1.65132371925E+02	-4.17565131870E+01	-8.54415884473E+01	-6.02280615889E+00	-3.91735915206E-02
1.18765418380E+06	-9.06422857796E+00	-1.65487868916E+02	2.38879735572E+01	1.64482683828E+02	-4.18549325476E+01	1.21230632486E+02	-5.94211095276E+00	-1.12617271112E+00
1.20984553839E+06	-1.48591396253E+01	1.59582254440E+02	2.38940785532E+01	1.64587017594E+02	-4.59459596199E+01	-5.92751414671E+01	-6.04401481896E+00	-6.02816173866E-01
1.23203689299E+06	-1.68247611353E+01	-1.43707318759E+02	2.39188391862E+01	1.63982152909E+02	-4.83093492692E+01	9.67162539764E+01	-6.01638275382E+00	-6.70414558416E-01
1.25422824758E+06	-1.44387300680E+01	-1.58744108060E+02	2.39172153833E+01	1.63761184566E+02	-4.96953750003E+01	9.03049484690E+01	-6.02770803249E+00	-8.13421902178E-01
1.27641960218E+06	-1.34078120903E+01	-1.72475415607E+02	2.38678583727E+01	1.63395150810E+02	-5.11964107141E+01	-9.15455133676E+01	-5.98553334531E+00	-5.68938336831E-01
1.29861095677E+06	-1.31168166479E+01	-1.78578919919E+02	2.38683466253E+01	1.62955077167E+02	-4.39693339364E+01	4.08280311733E+01	-6.05111554241E+00	-1.01078255533E+00
1.32080231137E+06	-2.03565036788E+01	-5.66069097218E+01	2.39329243349E+01	1.62741359227E+02	-4.34167588417E+01	1.39047010300E+02	-5.94425226851E+00	-1.36968525074E+00
1.34299366596E+06	-1.28411706431E+01	-1.68118089291E+02	2.38485502246E+01	1.62268188542E+02	-4.59614025220E+01	-9.98550322926E+00	-6.04288705820E+00	-6.50689860740E-01
1.36518502056E+06	-1.41982134820E+01	-1.75170761906E+02	2.38509680813E+01	1.61953677304E+02	-5.47203420458E+01	-3.25135585937E+01	-6.00857495795E+00	-5.97683138150E-01
1.38737637515E+06	-1.16751450537E+01	-1.69137684802E+02	2.38274931342E+01	1.61585382382E+02	-4.07755372732E+01	2.90242162165E+01	-6.09291420041E+00	-9.69607210092E-01
1.40956772975E+06	-1.84214521234E+01	1.77098135771E+02	2.38464800991E+01	1.61508901571E+02	-4.50833744760E+01	-1.32344041958E+02	-5.96720390873E+00	-5.00341197730E-01
1.43175908434E+06	-1.33491630733E+01	-1.65328626261E+02	2.38300820186E+01	1.61000067957E+02	-4.82864194610E+01	-1.53594305829E+02	-5.95553814515E+00	-5.72139150267E-01
1.45395043894E+06	-1.13580080144E+01	-1.73108930475E+02	2.37997550415E+01	1.60631957637E+02	-4.94991384165E+01	7.48320667656E+01	-6.00513497673E+00	-7.36353357899E-01
1.47614179353E+06	-1.51929770220E+01	1.66958129222E+02	2.38125425156E+01	1.60535526396E+02	-4.68615715560E+01	-1.60034664725E+02	-5.91153512942E+00	-4.55083626598E-01
1.49833314813E+06	-1.79085442805E+01	-1.79583788948E+02	2.38184005957E+01	1.60078110715E+02	-4.54279017548E+01	1.78552564757E+02	-5.92015199262E+00	-4.85768177476E-01
1.52052450272E+06	-1.86108515567E+01	-1.61169745379E+02	2.38246956823E+01	1.59785692897E+02	-4.64613949918E+01	-8.02734958958E+01	-5.99179443898E+00	-3.41986361982E-01
1.54271585732E+06	-1.40499445108E+01	-1.66005344743E+02	2.37940380510E+01	1.59248697750E+02	-4.93788241013E+01	-1.75970831826E+01	-6.01881610814E+00	-4.74707751180E-01
1.56490721191E+06	-1.29424875617E+01	-1.69888956020E+02	2.37789083713E+01	1.58882822837E+02	-4.87563467051E+01	-6.56328271036E+01	-6.01743909245E+00	-6.63633017276E-01
1.58709856651E+06	-1.75984813945E+01	-1.55337317317E+02	2.38124597873E+01	1.58790136623E+02	-4.94872751651E+01	4.78340390627E+01	-6.03565283905E+00	-1.04681353477E+00
1.60928992110E+06	-1.44209136318E+01	-1.77953477924E+02	2.37619608610E+01	1.58581260407E+02	-4.68338332819E+01	4.00017105551E+01	-6.02256481555E+00	-1.15279605632E+00
1.63148127570E+06	-1.17799525359E+01	1.77362695465E+02	2.37251402294E+01	1.58098721685E+02	-4.26794273768E+01	-9.77104362305E+01	-5.99366248926E+00	-3.00268639296E-01
1.65367263029E+06	-1.10476770456E+01	1.66206902234E+02	2.37104708189E+01	1.57878690724E+02	-3.63124122932E+01	2.84074671201E+01	-6.10728184251E+00	-1.04752428867E+00
1.67586398489E+06	-1.25810781848E+01	-1.55333174049E+02	2.37443071522E+01	1.57090304184E+02	-5.66371012866E+01	-1.72740432144E+02	-5.99118894889E+00	-7.77229208356E-01
1.69805533948E+06	-1.32118647269E+01	-1.72705301686E+02	2.37217653025E+01	1.57108305001E+02	-4.24015256174E+01	4.21356159791E+01	-6.09574651013E+00	-1.14577430452E+00
1.72024669408E+06	-1.39480880075E+01	-1.71621186491E+02	2.37178641676E+01	1.56884523108E+02	-4.05548702893E+01	-1.09796584271E+02	-5.96300682051E+00	-8.99533149643E-02
1.74243804867E+06	-1.47568404345E+01	1.67617707492E+02	2.36921285363E+01	1.56712311956E+02	-6.06184253356E+01	-1.74381948598E+02	-6.00743666233E+00	-8.95515850528E-01
1.76462940327E+06	-1.33721532177E+01	-1.59474810453E+02	2.37134747866E+01	1.55945350480E+02	-5.61296401517E+01	-1.29532388015E+02	-5.99369186897E+00	-7.47763004741E-01
1.78682075786E+06	-1.11695959739E+01	-1.72667661702E+02	2.36754048989E+01	1.55751302250E+02	-3.14756400553E+01	-5.39583271305E+01	-6.18602915602E+00	5.52443227839E-01
1.80901211246E+06	-1.41418970121E+01	-1.26438669451E+02	2.37172138265E+01	1.55486832402E+02	-4.01120132198E+01	1.60579291710E+02	-5.88987792762E+00	-7.86880970007E-01
1.83120346705E+06	-1.68881333187E+01	-1.62384793168E+02	2.37011192286E+01	1.55267788032E+02	-5.00744729438E+01	1.49483301285E+02	-5.96023186860E+00	-1.05111024263E+00
1.85339482165E+06	-1.69672609098E+01	1.79011418268E+02	2.36858898568E+01	1.55134424594E+02	-4.71106208146E+01	9.19874323679E+01	-5.99245116260E+00	-1.06662607214E+00
1.87558617624E+06	-1.54502758210E+01	-1.38713353939E+02	2.37090072802E+01	1.54421585197E+02	-5.25837908723E+01	9.36358240308E+01	-6.01301558489E+00	-1.22689807613E+00
1.89777753084E+06	-1.44278944300E+01	-1.77895633369E+02	2.36465927093E+01	1.54374637518E+02	-4.24684143583E+01	1.33872789066E+02	-5.94755414067E+00	-1.28168872759E+00
1.91996888543E+06	-1.20378023811E+01	-1.56398291203E+02	2.36529139019E+01	1.53878308498E+02	-4.82450844363E+01	1.45969955848E+02	-5.97277833173E+00	-1.12729327530E+00
1.94216024003E+06	-1.62721691190E+01	-1.46998913503E+02	2.36545938844E+01	1.53651526181E+02	-4.15249014237E+01	1.57355958513E+02	-5.94640807357E+00	-1.12009504046E+00
1.96435159462E+06	-1.59496344643E+01	-1.52947323580E+02	2.36449969694E+01	1.53293907211E+02	-4.30688156392E+01	-1.51695701520E+02	-5.91559739868E+00	-3.17978477679E-01
1.98654294922E+06	-1.40721664412E+01	-1.77097061951E+02	2.35955055372E+01	1.53138494203E+02	-5.14364828207E+01	-1.41246845785E+02	-5.94938687666E+00	-7.33201523251E-01
2.00873430381E+06	-1.32487692106E+01	1.67547299662E+02	2.35672240327E+01	1.52899818735E+02	-5.10148717255E+01	-1.28337764328E+02	-5.97255025996E+00	-7.68719509868E-01
2.03092565841E+06	-1.33313610836E+01	-1.60950243281E+02	2.35986048627E+01	1.52421502293E+02	-5.95144069672E+01	1.31830444642E+02	-5.94842221459E+00	-8.94919124655E-01
2.05311701300E+06	-1.43678377672E+01	-1.53127648314E+02	2.35899166277E+01	1.52069418758E+02	-5.73555587649E+01	1.31846668879E+02	-6.01064562924E+00	-9.75546468171E-01
2.07530836760E+06	-8.61583967389E+00	-1.78695476413E+02	2.35004939923E+01	1.51700562114E+02	-4.80787895552E+01	-4.34473371971E+01	-6.04847069035E+00	-6.82879987682E-01
2.09749972219E+06	-1.26293834264E+01	-1.77619398192E+02	2.35202641316E+01	1.51462129577E+02	-3.77787838194E+01	1.13982871743E+02	-5.95180551946E+00	-2.01013726123E+00
2.11969107679E+06	-1.49514367879E+01	-1.46137868899E+02	2.35796018492E+01	1.51099868321E+02	-3.87759038754E+01	-1.33654606058E+02	-5.94818122944E+00	-3.13609761174E-01
2.14188243138E+06	-1.19652694396E+01	-1.67680145931E+02	2.35256438038E+01	1.50777039062E+02	-5.86432630756E+01	1.14132390371E+02	-6.02415073976E+00	-1.13344316867E+00
2.16407378598E+06	-1.29448024874E+01	-1.60270452362E+02	2.35338771464E+01	1.50451150316E+02	-4.55901594374E+01	1.05712195940E+02	-6.00173280235E+00	-1.52606542052E+00
2.18626514057E+06	-1.54556263417E+01	-1.65973832948E+02	2.35452199868E+01	1.50330774567E+02	-5.20294265923E+01	1.27059191985E+02	-5.95830632128E+00	-1.23021444712E+00
2.20845649517E+06	-1.19582924790E+01	-1.61288956499E+02	2.35162338505E+01	1.49760701486E+02	-4.19651393099E+01	-6.41216266413E+01	-6.02763389641E+00	-3.30267696708E-01
2.23064784976E+06	-1.62834680626E+01	-1.74592767792E+02	2.35158685251E+01	1.49736615894E+02	-3.93318370492E+01	1.45881788602E+02	-5.96882263580E+00	-1.47461770603E+00
2.25283920436E+06	-1.35834896645E+01	-1.74008957742E+02	2.34822466482E+01	1.49378171653E+02	-4.48175857493E+01	-1.57665231021E+02	-5.94242869692E+00	-9.67396818237E-01
2.27503055895E+06	-8.53444305777E+00	1.70298501297E+02	2.34161803332E+01	1.49021411077E+02	-4.19257300181E+01	1.70988655601E+02	-5.92210625196E+00	-1.24039049572E+00
2.29722191355E+06	-1.55299098762E+01	-1.59165979878E+02	2.34934362231E+01	1.48877817546E+02	-5.35383729725E+01	6.00883724502E+01	-6.03302282978E+00	-1.13979906618E+00
2.31941326814E+06	-1.70363924270E+01	-1.63058890116E+02	2.34962944623E+01	1.48689881488E+02	-5.41429169523E+01	1.78938641919E+02	-5.97422741371E+00	-9.10436534239E-01
2.34160462274E+06	-1.45812160238E+01	-1.70786613459E+02	2.34790095795E+01	1.48464053057E+02	-4.85186787200E+01	9.17185847796E+01	-5.98372800955E+00	-1.43838856954E+00
2.36379597733E+06	-1.30765024316E+01	-1.76950822706E+02	2.34244867596E+01	1.48126637808E+02	-4.51984289784E+01	-1.53292011267E+02	-5.92637006651E+00	-7.59090232679E-01
2.38598733193E+06	-1.60972251582E+01	-1.67423190160E+02	2.34493332434E+01	1.47574723260E+02	-4.58748680009E+01	2.40498984053E+01	-6.03846829482E+00	-1.22144821513E+00
2.40817868652E+06	-1.45158030198E+01	1.79372312503E+02	2.34099941865E+01	1.47502391460E+02	-3.98374417402E+01	1.58166691813E+02	-5.89590242933E+00	-1.48792952622E+00
2.43037004112E+06	-1.14034529714E+01	-1.71097333122E+02	2.33980167449E+01	1.46929499957E+02	-3.97098131593E+01	1.34828565123E+02	-5.91007788240E+00	-1.67839827273E+00
2.45256139571E+06	-1.36307315665E+01	-1.66733119926E+02	2.34031961233E+01	1.46725056393E+02	-4.34567303312E+01	-7.80109224301E+01	-5.99944974920E+00	-4.51024300818E-01
2.47475275031E+06	-1.16795103221E+01	-1.76660173221E+02	2.33574017450E+01	1.46291637547E+02	-5.99862371073E+01	-1.02700052274E+01	-6.02168120458E+00	-1.10194459950E+00
2.49694410490E+06	-1.38539007756E+01	-1.65470753986E+02	2.33993450833E+01	1.46046860557E+02	-4.33435202706E+01	-3.94199259775E+01	-6.06446896630E+00	-8.15609688727E-01
2.51913545950E+06	-1.31132540997E+01	-1.72410801546E+02	2.33634866341E+01	1.45873467871E+02	-5.61485615904E+01	-1.14578069304E+02	-6.00420279792E+00	-9.23808401960E-01
2.54132681409E+06	-1.80156097611E+01	-1.71150787137E+02	2.33829935104E+01	1.45811145762E+02	-5.22552192047E+01	2.33125524309E+01	-6.01863314708E+00	-1.10698623447E+00
2.56351816869E+06	-1.60037217824E+01	1.74447540473E+02	2.33463286737E+01	1.45423052689E+02	-3.85938017584E+01	7.51319337696E+01	-6.07201241295E+00	-1.97867479169E+00
2.58570952328E+06	-9.04952786913E+00	-1.62512949737E+02	2.33143552988E+01	1.44725832264E+02	-4.04798293807E+01	-2.38208246513E+01	-6.08601146206E+00	-5.72959512177E-01
2.60790087788E+06	-1.20094963827E+01	-1.68355692971E+02	2.33194098241E+01	1.44520413282E+02	-4.72595755351E+01	3.45759019487E+00	-6.06819255391E+00	-1.05610397959E+00
2.63009223247E+06	-1.24575551399E+01	-1.74945122065E+02	2.32944066279E+01	1.44281830046E+02	-4.15986980456E+01	-5.02048819850E+01	-6.10058050738E+00	-3.11785580716E-01
2.65228358707E+06	-1.41810851427E+01	-1.67947274198E+02	2.32868012032E+01	1.44052223758E+02	-4.80399396783E+01	7.80117521920E+01	-6.00770363951E+00	-1.62319300827E+00
2.67447494166E+06	-1.35693545215E+01	-1.43357118282E+02	2.33234995973E+01	1.43552370562E+02	-5.81781051697E+01	2.92208533912E+01	-6.01192432612E+00	-9.99501513978E-01
2.69666629626E+06	-1.34649308948E+01	-1.55411006334E+02	2.32831816126E+01	1.43259464217E+02	-4.19846675499E+01	-9.47626189876E+01	-6.00076358049E+00	-4.27416381385E-01
2.71885765085E+06	-1.66321710751E+01	-1.64780983246E+02	2.32751318939E+01	1.43199543524E+02	-4.03717873662E+01	8.29169938940E+01	-6.01028904686E+00	-1.94031429128E+00
2.74104900545E+06	-1.15541652176E+01	-1.59543982619E+02	2.32578692872E+01	1.42691419122E+02	-3.44257476067E+01	-2.33485008839E+01	-6.18507501189E+00	-5.44957456791E-01
2.76324036004E+06	-1.26854203152E+01	1.72435332197E+02	2.32168776865E+01	1.42657022913E+02	-4.25776350659E+01	-1.82211625516E+01	-6.08636498891E+00	-1.08346261670E+00
2.78543171463E+06	-1.37761283398E+01	-1.53365136470E+02	2.32553327574E+01	1.42208667959E+02	-4.93439495607E+01	-6.48443749746E+01	-6.03239121661E+00	-9.91903143004E-01
2.80762306923E+06	-1.16690187889E+01	-1.70406698988E+02	2.31809275457E+01	1.41847725358E+02	-4.20051588587E+01	4.35759915605E+01	-6.09546004555E+00	-1.95961200714E+00
2.82981442382E+06	-1.21775947985E+01	1.79397916772E+02	2.31982331699E+01	1.41587586799E+02	-4.35483014242E+01	-1.34979537346E+02	-5.92848283246E+00	-8.58827252845E-01
2.85200577842E+06	-1.83436598119E+01	-1.66129977274E+02	2.32227791009E+01	1.41588615660E+02	-4.26139756642E+01	-8.67752403443E+01	-6.01929666088E+00	-7.63555102964E-01
2.87419713301E+06	-1.25711325346E+01	-1.66222323498E+02	2.31618976387E+01	1.41144762682E+02	-4.16365012495E+01	5.56361573347E+01	-6.04626599054E+00	-1.80504097918E+00
