# Hz S DB R 50
! CMT, M5065, 19127446, 24.2.4/2
! Date: 11/8/2024 2:49:38 PM
! Data: Format (Calibration Info)
! Freq	S11:dB/Ang(F2)	S21:dB/Ang(F2)	S12:dB/Ang(F2)	S22:dB/Ang(F2)
3.00000000000E+05	-1.33907225608E+01	1.74975613319E+02	6.19651478194E+00	-1.77851777495E+02	-4.98755254510E+01	-8.80156610666E+01	-5.99551165788E+00	-3.41795767056E-01
3.22191354595E+05	-1.49066562191E+01	1.55943902026E+02	6.23246400772E+00	-1.77638845394E+02	-4.70835506933E+01	-1.46660302801E+02	-6.01881928916E+00	-1.85304453172E-01
3.44382709190E+05	-1.30944844617E+01	-1.74244026256E+02	6.20335901892E+00	-1.78317047981E+02	-4.33826216489E+01	5.27922919079E+01	-6.00742033226E+00	-2.52276852639E-01
3.66574063785E+05	-1.52621706527E+01	-1.65460611248E+02	6.24035034961E+00	-1.78636924040E+02	-4.92640625958E+01	1.76436070655E+02	-6.00093463907E+00	-3.48487509698E-01
3.88765418380E+05	-1.41907789667E+01	-1.72016779487E+02	6.26843437477E+00	-1.78838968690E+02	-4.12330078570E+01	6.58829175578E+01	-6.01336461210E+00	-3.02792799269E-01
4.10956772975E+05	-1.67689538971E+01	-1.75523925556E+02	6.29666305572E+00	-1.79130384201E+02	-4.51659803606E+01	-5.06645971842E+01	-6.01613949297E+00	-1.86677532861E-01
4.33148127570E+05	-1.36010575763E+01	-1.76498154195E+02	6.20235704698E+00	-1.79244484410E+02	-4.81232340802E+01	1.15862723517E+02	-5.98148977971E+00	-3.13140005920E-01
4.55339482165E+05	-1.54026658630E+01	1.55867259486E+02	6.28432829778E+00	-1.79444704554E+02	-4.76915032418E+01	1.02756223565E+02	-5.98611914476E+00	-3.37053647222E-01
4.77530836760E+05	-1.75881208964E+01	-1.61016667472E+02	6.31363214872E+00	-1.79746619788E+02	-4.57689068723E+01	8.53710047246E+01	-5.99686375889E+00	-3.41661187520E-01
4.99722191355E+05	-1.29071373469E+01	1.76488520026E+02	6.23014464334E+00	-1.79755225172E+02	-4.28099185131E+01	-1.55534989183E+02	-5.98277378387E+00	-2.74767747776E-01
5.21913545950E+05	-1.59436161658E+01	1.76940017084E+02	6.25176954553E+00	1.79889244187E+02	-4.22756251379E+01	-1.16019590040E+02	-5.99343497851E+00	-9.28469078529E-02
5.44104900545E+05	-1.43487616513E+01	-1.65555386563E+02	6.25493490718E+00	1.79705064661E+02	-5.09705143493E+01	4.28534827845E+01	-6.00943117391E+00	-2.89529239126E-01
5.66296255139E+05	-1.52744229776E+01	1.66399533070E+02	6.23328925529E+00	1.79721804075E+02	-4.58941833062E+01	-1.04826933678E+02	-5.98036131272E+00	-1.99111711339E-01
5.88487609734E+05	-1.15977604769E+01	-1.69814217960E+02	6.23315924625E+00	1.79569222618E+02	-4.33899723353E+01	-1.51310555760E+02	-5.97192712684E+00	-2.11170471300E-01
6.10678964329E+05	-1.33127136051E+01	1.68396728294E+02	6.22570173714E+00	1.79548492348E+02	-5.34163282090E+01	1.17768983937E+02	-6.01199062222E+00	2.32258785652E-01
6.32870318924E+05	-1.21019729000E+01	-1.56327948324E+02	6.23415232653E+00	1.79320466619E+02	-4.82824973445E+01	5.11853475607E+01	-6.01983637827E+00	-2.56362181344E-01
6.55061673519E+05	-1.52436215455E+01	1.69204650836E+02	6.24113364842E+00	1.79311827316E+02	-4.32137180114E+01	-1.77998116559E+02	-6.01496629417E+00	-2.75835670097E-01
6.77253028114E+05	-1.29865453814E+01	1.70579950062E+02	6.27613580176E+00	1.79241251014E+02	-5.02342875484E+01	8.32264035829E+01	-6.00218301512E+00	-7.85038397976E-01
6.99444382709E+05	-1.08678626657E+01	1.69357294868E+02	6.22368592774E+00	1.78691866386E+02	-5.01797703253E+01	8.86280165231E+01	-5.99641560491E+00	-3.92800739561E-01
7.21635737304E+05	-1.40599768451E+01	-1.61723447447E+02	6.23442105881E+00	1.78544835461E+02	-4.29625550471E+01	3.23345538143E+01	-5.99330601010E+00	-4.22851937073E-01
7.43827091899E+05	-1.57963869745E+01	1.65619751583E+02	6.25564481138E+00	1.78626137792E+02	-4.73696583467E+01	3.24122398644E+01	-6.03403511675E+00	-4.66590324723E-01
7.66018446494E+05	-1.29604457268E+01	1.54499623129E+02	6.24377863673E+00	1.78500411617E+02	-4.27165443399E+01	1.58459083057E+02	-6.00012611126E+00	-2.75126601729E-01
7.88209801089E+05	-1.23985172895E+01	-1.78170381379E+02	6.25551157179E+00	1.78152141082E+02	-4.50825639017E+01	7.43781967639E+01	-6.00952084760E+00	-5.24566136606E-01
8.10401155684E+05	-1.29750024373E+01	1.68449011955E+02	6.26221248501E+00	1.78122065055E+02	-4.62338594912E+01	-1.33656714603E+02	-5.98910885639E+00	-4.69048100170E-01
8.32592510279E+05	-1.14497442207E+01	-1.64100377937E+02	6.21006413143E+00	1.77776789802E+02	-4.53505520521E+01	7.00650847556E+01	-6.00516379502E+00	-4.48621334303E-01
8.54783864874E+05	-1.43374986101E+01	1.76867123704E+02	6.24537872781E+00	1.78004952147E+02	-5.20255305815E+01	-5.55972922024E+01	-6.00592400960E+00	-4.93141929876E-01
8.76975219469E+05	-1.27151847918E+01	-1.65118427771E+02	6.27612591965E+00	1.77603827035E+02	-4.24459408756E+01	1.04205325667E+02	-5.98609762831E+00	-6.36702084616E-01
8.99166574064E+05	-1.77603722918E+01	1.73241936678E+02	6.30220888918E+00	1.77742896763E+02	-4.12848436010E+01	8.94535531158E+01	-6.01022057470E+00	-4.96365308067E-01
9.21357928659E+05	-8.35578752689E+00	-1.76352362273E+02	6.24083876724E+00	1.77332123033E+02	-4.31638520651E+01	6.07849227190E+01	-6.02532997936E+00	-5.12950117158E-01
9.43549283254E+05	-1.26836001335E+01	-1.61125964633E+02	6.26290255707E+00	1.77195525881E+02	-3.88829501407E+01	-1.73965267229E+01	-6.02088921283E+00	-3.51325952038E-01
9.65740637849E+05	-1.80307287683E+01	-1.70367983334E+02	6.30962039508E+00	1.77345814678E+02	-4.85062766861E+01	-1.48349760581E+02	-5.99045802902E+00	-3.79910016899E-01
9.87931992444E+05	-1.46827521666E+01	-1.42185690675E+02	6.29271404572E+00	1.77189472931E+02	-3.97182224865E+01	-1.11703741346E+02	-6.01120300261E+00	-3.20063529702E-01
1.01012334704E+06	-1.67033984762E+01	1.79284546732E+02	6.29479455478E+00	1.77237747540E+02	-4.31669680225E+01	-7.26930348241E+01	-6.00266326812E+00	-5.03925285518E-01
1.03231470163E+06	-1.78161748156E+01	-1.43710235657E+02	6.31145965649E+00	1.76848229127E+02	-6.94275238688E+01	-6.10502477043E+01	-6.01626549028E+00	-4.51517482832E-01
1.05450605623E+06	-1.39697039185E+01	-1.63116860423E+02	6.23068564338E+00	1.76862296120E+02	-4.13108536416E+01	8.67185397436E+01	-6.01390579158E+00	-6.47914540032E-01
1.07669741082E+06	-1.60576086880E+01	-1.72751820273E+02	6.29066948093E+00	1.76678781198E+02	-4.20794799339E+01	1.63718004379E+02	-5.98449730445E+00	-5.44992441216E-01
1.09888876542E+06	-1.48706213246E+01	-1.45233757697E+02	6.23934358272E+00	1.76525517915E+02	-5.60463659108E+01	1.51280733860E+02	-6.00497052603E+00	-4.35953393302E-01
1.12108012001E+06	-1.56687189618E+01	-1.61851171307E+02	6.29209979255E+00	1.76534454218E+02	-4.33793765711E+01	-1.00563892986E+02	-5.99853697663E+00	-4.76764490640E-01
1.14327147461E+06	-1.29523960864E+01	-1.71526908750E+02	6.26237287812E+00	1.76474215721E+02	-5.24439302325E+01	1.19322866802E+02	-5.99996070908E+00	-4.68643873782E-01
1.16546282920E+06	-1.42408522830E+01	-1.64694351649E+02	6.26393235886E+00	1.76227367264E+02	-5.08882961688E+01	-1.57891004764E+01	-5.99742669532E+00	-4.43482578768E-01
1.18765418380E+06	-1.26657626749E+01	1.69502909346E+02	6.22691777633E+00	1.76465677312E+02	-3.79594456280E+01	8.11261731451E+01	-5.99319994494E+00	-6.12826134636E-01
1.20984553839E+06	-1.52614709764E+01	-1.68475143408E+02	6.27238300773E+00	1.75919839989E+02	-4.47153475510E+01	-9.64000334858E+01	-5.99905693689E+00	-5.24548798395E-01
1.23203689299E+06	-1.42623028391E+01	-1.72974987508E+02	6.22492921924E+00	1.75896730995E+02	-4.17886413820E+01	-6.79436800397E+00	-6.02097170530E+00	-3.08342122329E-01
1.25422824758E+06	-1.14182008435E+01	-1.61191482856E+02	6.19737518050E+00	1.75804011060E+02	-4.30454082430E+01	-1.84263432883E+00	-6.02541442112E+00	-6.25457131798E-01
1.27641960218E+06	-1.44862191419E+01	1.65170894645E+02	6.27301704806E+00	1.75926144561E+02	-5.24544605272E+01	3.02328724883E+00	-6.00744421681E+00	-6.27797415240E-01
1.29861095677E+06	-1.50582923645E+01	-1.75200921589E+02	6.30042554046E+00	1.75744015557E+02	-4.44599925167E+01	5.50327249259E+01	-6.02013561803E+00	-5.36768044106E-01
1.32080231137E+06	-1.49081172346E+01	-1.56401293178E+02	6.28267807011E+00	1.75491381805E+02	-5.05830797000E+01	1.09108468916E+02	-6.01371611646E+00	-1.02645808054E+00
1.34299366596E+06	-1.66905494628E+01	1.74587017316E+02	6.25398039256E+00	1.75656537878E+02	-4.33479428684E+01	3.55495442272E+01	-6.00162303230E+00	-8.36832488619E-01
1.36518502056E+06	-1.17484984287E+01	1.72364461603E+02	6.23842103041E+00	1.75608424891E+02	-4.63419265166E+01	2.17858054575E+01	-6.01479403826E+00	-6.76460059184E-01
1.38737637515E+06	-1.36410782522E+01	1.68812273445E+02	6.24108066439E+00	1.75380125250E+02	-4.50205762388E+01	-1.25170601559E+02	-6.00144872985E+00	-6.94746032611E-01
1.40956772975E+06	-1.95534615375E+01	1.64682755619E+02	6.25390070858E+00	1.75575525192E+02	-5.14547947901E+01	6.29624682808E+01	-6.00912082865E+00	-7.33933118153E-01
1.43175908434E+06	-1.60277081213E+01	-1.78937175663E+02	6.27030182365E+00	1.75183737952E+02	-5.17077325120E+01	9.80848341107E+01	-6.03477526543E+00	-7.17630692050E-01
1.45395043894E+06	-1.63086157297E+01	1.65479657870E+02	6.26101672041E+00	1.75487261551E+02	-4.49253587439E+01	-1.45112285239E+02	-5.99135075563E+00	-5.65609440395E-01
1.47614179353E+06	-1.50335536815E+01	1.74229177101E+02	6.25796986977E+00	1.75184318401E+02	-4.62136134312E+01	-1.46528027061E+01	-6.01591328921E+00	-4.84640907964E-01
1.49833314813E+06	-1.84414496983E+01	-1.68498650002E+02	6.27614938469E+00	1.74908847323E+02	-4.68914998423E+01	-1.11748931780E+02	-6.01481062811E+00	-6.92057522796E-01
1.52052450272E+06	-1.44992188273E+01	-1.72065157595E+02	6.28515718375E+00	1.74464777497E+02	-4.19595539865E+01	8.66395671910E+01	-6.01381327501E+00	-8.03465145066E-01
1.54271585732E+06	-1.30763896701E+01	-1.72652552223E+02	6.29199010972E+00	1.74541370952E+02	-4.77670283630E+01	8.77898576445E+00	-5.99899368091E+00	-7.28271866722E-01
1.56490721191E+06	-1.06117529770E+01	-1.76633955213E+02	6.29135139270E+00	1.74318103548E+02	-4.29602258292E+01	-1.28570383039E+02	-6.01618237322E+00	-4.79229969973E-01
1.58709856651E+06	-1.42754425642E+01	-1.64943524014E+02	6.27041363146E+00	1.74543858043E+02	-5.98952684018E+01	-9.51501332747E+01	-6.01205024458E+00	-7.07323871017E-01
1.60928992110E+06	-1.46008896917E+01	-1.78502981621E+02	6.24655913587E+00	1.74476065299E+02	-4.90920259694E+01	5.69231233840E+01	-6.01161245483E+00	-7.77900885241E-01
1.63148127570E+06	-1.45332056865E+01	-1.65640327885E+02	6.31663559840E+00	1.74002453586E+02	-5.24688846785E+01	-1.42617559681E+02	-6.02012557759E+00	-7.71799125975E-01
1.65367263029E+06	-1.26417238999E+01	1.76712617178E+02	6.24446843315E+00	1.74188415724E+02	-3.69256648062E+01	-7.65601379353E+01	-6.02898291439E+00	-6.85871336056E-01
1.67586398489E+06	-1.57676044959E+01	-1.71768693731E+02	6.30241623741E+00	1.74029747767E+02	-4.30997106598E+01	-1.33015743460E+02	-5.99534972377E+00	-5.87738861853E-01
1.69805533948E+06	-1.43144940543E+01	-1.60352426899E+02	6.27895671535E+00	1.74248168025E+02	-4.78011262631E+01	-1.64864533485E+01	-6.00199809832E+00	-7.43850741491E-01
1.72024669408E+06	-1.12995436964E+01	-1.73984281897E+02	6.23410719427E+00	1.73785753902E+02	-5.71985542391E+01	-2.88608510258E+01	-6.00597520611E+00	-6.86030453100E-01
1.74243804867E+06	-1.26258330730E+01	-1.77452647338E+02	6.21892117637E+00	1.73529922611E+02	-6.06650889584E+01	-1.58383594828E+02	-5.98277170630E+00	-8.83689221235E-01
1.76462940327E+06	-1.27872786144E+01	-1.75473668953E+02	6.26339436156E+00	1.73811089875E+02	-4.23032992997E+01	-4.71571385641E+01	-6.01685320492E+00	-6.66658634679E-01
1.78682075786E+06	-1.27296546047E+01	-1.54284487660E+02	6.27781013567E+00	1.73412092610E+02	-3.94453441290E+01	1.45494607581E+02	-5.97170574109E+00	-6.88761358706E-01
1.80901211246E+06	-1.42985630861E+01	1.65648396095E+02	6.28600770805E+00	1.73762387947E+02	-5.10442868710E+01	-1.54161127179E+02	-5.99744138528E+00	-7.36732760377E-01
1.83120346705E+06	-1.73865538023E+01	-1.69691335216E+02	6.28449943643E+00	1.73642937347E+02	-4.31288414772E+01	1.10014759500E+02	-6.00941497443E+00	-8.54515982767E-01
1.85339482165E+06	-1.09525567572E+01	1.59977156749E+02	6.22431710578E+00	1.73395011796E+02	-4.75870222033E+01	-5.40455780052E+01	-6.00111425824E+00	-8.34548183208E-01
1.87558617624E+06	-1.09449705801E+01	-1.51725198404E+02	6.27684720475E+00	1.73029777706E+02	-4.50681504090E+01	2.85710595809E+01	-5.99404119895E+00	-8.11575305067E-01
1.89777753084E+06	-1.24850947817E+01	-1.65508362155E+02	6.32331231001E+00	1.72991581766E+02	-4.51645761576E+01	1.03882425731E+01	-6.01590550621E+00	-8.69522341783E-01
1.91996888543E+06	-1.30030777366E+01	-1.77086497390E+02	6.28556468680E+00	1.73123712891E+02	-3.91626178335E+01	1.27990643349E+02	-5.99613598749E+00	-9.55119434396E-01
1.94216024003E+06	-1.42327007528E+01	1.77941306152E+02	6.25748134945E+00	1.73135658951E+02	-4.04384511525E+01	1.85929761272E+01	-6.00261937572E+00	-8.55871290559E-01
1.96435159462E+06	-1.55234436573E+01	-1.42792333630E+02	6.28795680154E+00	1.72701334665E+02	-5.24487235172E+01	-3.70384020683E+01	-6.00686023905E+00	-7.84669124286E-01
1.98654294922E+06	-1.08507627243E+01	-1.64141746676E+02	6.26131959150E+00	1.72805095359E+02	-3.98200952470E+01	-5.77555782485E+01	-6.03762097525E+00	-8.44024864961E-01
2.00873430381E+06	-1.82104974765E+01	1.75872608091E+02	6.30296016928E+00	1.73109018187E+02	-4.48837327462E+01	3.07859445075E+01	-5.98950206783E+00	-8.14786028402E-01
2.03092565841E+06	-1.33514138652E+01	1.51414344343E+02	6.25546610342E+00	1.73233134524E+02	-4.97985877613E+01	6.04389672344E+01	-5.99798082601E+00	-8.07296596975E-01
2.05311701300E+06	-1.24967075152E+01	-1.64894450748E+02	6.24656088208E+00	1.72461312771E+02	-4.50249284753E+01	-1.05840825495E+02	-5.98096942859E+00	-7.54464225857E-01
2.07530836760E+06	-1.59085126716E+01	-1.68973893289E+02	6.29753124778E+00	1.72265503836E+02	-4.94772434837E+01	6.71770405736E+01	-6.02783202703E+00	-8.89990364262E-01
2.09749972219E+06	-1.21782321449E+01	-1.71282012456E+02	6.23649723708E+00	1.72307366999E+02	-4.57318325562E+01	-1.46273895374E+02	-5.98396078625E+00	-7.12308543725E-01
2.11969107679E+06	-1.45470607064E+01	1.79479842617E+02	6.27382341040E+00	1.72483853892E+02	-5.68644645036E+01	1.13790698306E+02	-6.00659666788E+00	-9.54977838855E-01
2.14188243138E+06	-1.42652550726E+01	-1.54120049953E+02	6.28941877787E+00	1.72241126811E+02	-3.39958403856E+01	1.58741472027E+02	-5.96661315485E+00	-8.77971121560E-01
2.16407378598E+06	-1.42586066587E+01	1.77500473629E+02	6.30061821924E+00	1.72259081989E+02	-4.89838195214E+01	1.23978987491E+02	-5.98337555691E+00	-8.89969584096E-01
2.18626514057E+06	-9.73081784010E+00	-1.62947558021E+02	6.27882226731E+00	1.71617310735E+02	-4.57297575784E+01	-2.50359323707E+01	-6.01953938070E+00	-8.84417375982E-01
2.20845649517E+06	-1.29119802095E+01	-1.70538481260E+02	6.33241319984E+00	1.71970741484E+02	-4.03377587445E+01	-5.28226397986E+01	-6.01291028598E+00	-8.41223832067E-01
2.23064784976E+06	-1.38649865567E+01	-1.70932693758E+02	6.27197074797E+00	1.71838005541E+02	-4.28581198029E+01	7.09809362326E+01	-5.99348359403E+00	-9.95893720088E-01
2.25283920436E+06	-1.35797698285E+01	-1.79405611108E+02	6.25833117332E+00	1.71935838088E+02	-4.57026586836E+01	-2.50148634500E+01	-5.99297965812E+00	-9.89913895781E-01
2.27503055895E+06	-1.33244622370E+01	1.72034528203E+02	6.26079620846E+00	1.71691036223E+02	-4.16096517490E+01	-1.34912695454E+02	-5.99378035814E+00	-9.84093208405E-01
2.29722191355E+06	-1.23772530613E+01	1.69771136439E+02	6.26403135390E+00	1.71177143647E+02	-3.11776612434E+01	-2.88890260251E+01	-6.03678932102E+00	-1.12533122495E+00
2.31941326814E+06	-1.12839029315E+01	-1.74081692076E+02	6.24207786020E+00	1.71393435730E+02	-4.20940964923E+01	-1.20005566894E+02	-6.01490302890E+00	-8.77878409944E-01
2.34160462274E+06	-1.08119841355E+01	-1.43005292490E+02	6.34877526580E+00	1.71229085666E+02	-4.95202452294E+01	-1.27330565661E+02	-5.98529084006E+00	-9.13575178535E-01
2.36379597733E+06	-1.49565206252E+01	-1.73742961239E+02	6.31565625165E+00	1.71577459180E+02	-4.43936194132E+01	7.38838911223E+01	-5.98897752230E+00	-1.08412629110E+00
2.38598733193E+06	-1.96109381729E+01	-1.54289849378E+02	6.32257393151E+00	1.71319779053E+02	-4.71772976219E+01	-1.06278245925E+02	-5.98869507764E+00	-9.28774702987E-01
2.40817868652E+06	-1.17955672756E+01	-1.70048988079E+02	6.29022242013E+00	1.70848321073E+02	-4.69550264104E+01	1.19049765066E+02	-5.99999301587E+00	-1.07497324351E+00
2.43037004112E+06	-1.31885918242E+01	-1.64463761694E+02	6.31341009518E+00	1.70915503134E+02	-4.40653739962E+01	-5.11158580680E+00	-6.02209694398E+00	-1.55576307463E+00
2.45256139571E+06	-1.14729411033E+01	-1.58514708459E+02	6.31551899439E+00	1.70624237221E+02	-3.59901391803E+01	-1.32397157892E+02	-6.02213445465E+00	-8.49587423614E-01
2.47475275031E+06	-1.39193965844E+01	-1.71715531508E+02	6.28232267910E+00	1.70775797937E+02	-7.12038781967E+01	6.42943046713E+01	-6.00830591969E+00	-1.15222388947E+00
2.49694410490E+06	-1.06105301099E+01	1.70801168991E+02	6.28316696329E+00	1.70891723310E+02	-5.13457071266E+01	-5.67977731892E+01	-6.00375269106E+00	-9.51493056560E-01
2.51913545950E+06	-1.35721640894E+01	-1.56832483700E+02	6.31506675863E+00	1.70643152722E+02	-4.74935129584E+01	-9.33552528082E+01	-6.00415909278E+00	-1.01373137315E+00
2.54132681409E+06	-1.48123122845E+01	-1.66385470476E+02	6.29184591538E+00	1.70325228103E+02	-4.18303102624E+01	-8.65525700612E+01	-6.02717958424E+00	-9.80716310565E-01
2.56351816869E+06	-1.36302149618E+01	-1.71721307751E+02	6.28053051393E+00	1.70369485648E+02	-5.48811382047E+01	5.99465245099E+00	-6.01109666074E+00	-1.05884250363E+00
2.58570952328E+06	-1.23289375270E+01	-1.77366995951E+02	6.29188197449E+00	1.70666177214E+02	-4.67988837320E+01	7.98381636077E+01	-6.00664367905E+00	-1.12599050923E+00
2.60790087788E+06	-1.34060966401E+01	1.72620128173E+02	6.26219571352E+00	1.70466159431E+02	-3.96307425380E+01	-1.70589990482E+02	-5.97184310795E+00	-8.99154347980E-01
2.63009223247E+06	-1.40641008522E+01	1.69709009707E+02	6.24783723367E+00	1.70350198778E+02	-4.33795421379E+01	1.17140571907E+02	-5.98248117630E+00	-6.93882618195E-01
2.65228358707E+06	-1.53552466651E+01	-1.53645573277E+02	6.33551134051E+00	1.70172213252E+02	-4.59598005426E+01	-1.08399836637E+02	-6.02613926048E+00	-1.31693884884E+00
2.67447494166E+06	-1.28738143026E+01	-1.65572529419E+02	6.28761511129E+00	1.69806187736E+02	-4.32601545825E+01	9.54682059756E+01	-5.98728834185E+00	-1.09694272601E+00
2.69666629626E+06	-1.38569151476E+01	-1.79276990243E+02	6.30214196979E+00	1.69707226424E+02	-4.63572703940E+01	-1.20669851162E+02	-5.99069105887E+00	-1.08085108904E+00
2.71885765085E+06	-1.36950225153E+01	1.75713336634E+02	6.28106028990E+00	1.69924511488E+02	-4.61269877452E+01	-5.60287284100E+01	-6.02648147524E+00	-1.23729800607E+00
2.74104900545E+06	-1.45536870060E+01	-1.61625665533E+02	6.29813844778E+00	1.70043195701E+02	-4.52900124608E+01	3.26580259236E+01	-5.98945460064E+00	-1.32447651656E+00
2.76324036004E+06	-1.70318976982E+01	-1.72022510819E+02	6.33789053640E+00	1.69693295583E+02	-4.43068512703E+01	-3.22667859349E+01	-6.01790661995E+00	-1.02816411838E+00
2.78543171463E+06	-1.24798491082E+01	-1.67176360589E+02	6.31746520733E+00	1.69552661274E+02	-4.74430468295E+01	5.74522968245E+00	-5.99948540782E+00	-1.08656977329E+00
2.80762306923E+06	-1.33598367398E+01	1.78622536912E+02	6.30016137742E+00	1.69557841873E+02	-4.29859738594E+01	3.39819010841E+01	-6.02283327350E+00	-1.26605732982E+00
2.82981442382E+06	-1.88868164323E+01	1.78661407835E+02	6.32379891680E+00	1.69588562180E+02	-4.66472851281E+01	1.21433754480E+01	-5.98904491995E+00	-1.19744408452E+00
2.85200577842E+06	-1.68714609214E+01	-1.69651361612E+02	6.36853143473E+00	1.69288025292E+02	-4.60335693233E+01	5.07053546292E+01	-6.01809568938E+00	-1.31977943093E+00
2.87419713301E+06	-1.61741954309E+01	-1.51269283640E+02	6.35469809670E+00	1.69176481761E+02	-4.23257997199E+01	9.72023123051E+01	-5.97706718861E+00	-1.28035122891E+00
