# Hz S DB R 50
! CMT, M5065, 19127446, 24.2.4/2
! Date: 11/8/2024 2:48:28 PM
! Data: Format (Calibration Info)
! Freq	S11:dB/Ang(F2)	S21:dB/Ang(F2)	S12:dB/Ang(F2)	S22:dB/Ang(F2)
3.00000000000E+05	-1.75159913813E+01	1.53826361711E+02	5.98808492112E+00	-1.77385362422E+02	-4.25450334421E+01	-1.61591850459E+00	-5.99607785333E+00	-3.23016711596E-01
3.22191354595E+05	-1.43943233124E+01	-1.68855559038E+02	5.97470663037E+00	-1.78197423743E+02	-4.24802082118E+01	1.17628495625E+02	-5.99339677597E+00	-2.71331882050E-01
3.44382709190E+05	-1.78592676988E+01	-1.79759987238E+02	5.98574873211E+00	-1.78249456205E+02	-3.82093942346E+01	2.37827067880E+01	-6.02693772316E+00	-4.31079390200E-01
3.66574063785E+05	-1.55877634636E+01	-1.59471475843E+02	5.97947848255E+00	-1.78604896182E+02	-5.00096001834E+01	-1.37018200791E+02	-5.98819648860E+00	-1.45105300066E-01
3.88765418380E+05	-1.31902198707E+01	1.69568162517E+02	5.91864387418E+00	-1.78701424431E+02	-5.13656128194E+01	-1.22892318975E+02	-5.99136028578E+00	-6.30451541859E-02
4.10956772975E+05	-1.37194903997E+01	1.57135667385E+02	5.90731174766E+00	-1.78805551779E+02	-4.79471476148E+01	8.52087690078E+01	-6.01918472539E+00	-4.44772352382E-01
4.33148127570E+05	-1.28310710208E+01	-1.62247685237E+02	5.93753883604E+00	-1.79390865700E+02	-4.53229026470E+01	-7.39472419898E+01	-6.02321796286E+00	-1.32187815737E-01
4.55339482165E+05	-1.45300244214E+01	-1.67039144733E+02	5.98753060954E+00	-1.79390888411E+02	-3.89635580201E+01	1.31928545008E+02	-5.96883232014E+00	-1.93200414952E-01
4.77530836760E+05	-1.54700479440E+01	-1.69011979120E+02	5.95488732139E+00	1.79924030466E+02	-4.26360327918E+01	-1.17163497736E+01	-6.01600090149E+00	-2.93471330046E-01
4.99722191355E+05	-1.50109912665E+01	1.77970407339E+02	5.96234051354E+00	-1.79643280756E+02	-4.67175224148E+01	-1.59410871550E+02	-5.97430012577E+00	-2.79213131006E-01
5.21913545950E+05	-1.22041613491E+01	-1.52173179739E+02	5.95430703407E+00	1.79772723910E+02	-4.64653223562E+01	-1.66571913649E+02	-5.99352314572E+00	-3.89906560424E-01
5.44104900545E+05	-1.34867722984E+01	1.58347042251E+02	5.95172228042E+00	1.79890974274E+02	-5.49267498462E+01	1.36012849015E+02	-6.00319093294E+00	-4.54665416900E-01
5.66296255139E+05	-1.19093412807E+01	-1.71406905038E+02	5.96123680844E+00	1.79750660414E+02	-4.53190296291E+01	1.69387628249E+02	-5.99367042805E+00	-3.77536434946E-01
5.88487609734E+05	-1.37655433586E+01	-1.65048086097E+02	5.94591344201E+00	1.79354985716E+02	-4.93874213745E+01	-5.53984514637E+01	-6.00472540988E+00	-2.01343708335E-01
6.10678964329E+05	-1.55195882013E+01	-1.77036202217E+02	5.96006844118E+00	1.79399421210E+02	-4.20158746742E+01	2.75384503890E+01	-6.01168081069E+00	2.01281223462E-01
6.32870318924E+05	-1.09211033975E+01	-1.68328023849E+02	5.93543223282E+00	1.78998899292E+02	-7.20314524316E+01	-1.43471677891E+02	-6.01193108881E+00	7.87322448561E-02
6.55061673519E+05	-1.49916377788E+01	1.76189861484E+02	5.98980864317E+00	1.79220546329E+02	-4.58539399992E+01	-1.36909023209E+02	-5.99207142067E+00	-1.52565355546E-01
6.77253028114E+05	-1.36972748733E+01	-1.74379068244E+02	5.94874307245E+00	1.79048182949E+02	-4.24990637365E+01	-5.37895320705E+01	-6.01899115037E+00	-5.09161024396E-01
6.99444382709E+05	-1.26655411099E+01	-1.74368518573E+02	5.98907621415E+00	1.78808293506E+02	-4.26896789655E+01	-9.92874943689E+01	-5.95198012674E+00	-3.76149744431E-01
7.21635737304E+05	-1.27944199707E+01	-1.74360880369E+02	6.00565249129E+00	1.78513140033E+02	-4.52129828694E+01	-1.33038613100E+02	-6.00073616368E+00	-3.54299182898E-01
7.43827091899E+05	-1.20651200812E+01	-1.73994794680E+02	5.96925141978E+00	1.78472671196E+02	-4.83005897701E+01	1.39148764856E+02	-6.01641085216E+00	-3.81523375693E-01
7.66018446494E+05	-1.70750771038E+01	-1.59818452010E+02	5.95319653511E+00	1.78529673506E+02	-4.28381223514E+01	1.23201527322E+02	-5.99132013046E+00	-4.31484845876E-01
7.88209801089E+05	-1.23895835225E+01	-1.79140916503E+02	5.93277748184E+00	1.78208235657E+02	-4.39663460467E+01	-1.03704141243E+02	-6.01359750324E+00	-2.92119035960E-01
8.10401155684E+05	-1.47635020900E+01	-1.74046001232E+02	5.97118896640E+00	1.78271862517E+02	-5.56005728262E+01	9.24372741242E+01	-6.00273230972E+00	-2.70921706459E-01
8.32592510279E+05	-1.80161207097E+01	1.71930792432E+02	6.01279558219E+00	1.78057874689E+02	-4.26163429600E+01	-1.45328201870E+02	-5.97988207468E+00	-3.25452104537E-01
8.54783864874E+05	-1.39770309358E+01	-1.78416239156E+02	5.99630898076E+00	1.77966596079E+02	-4.45882578918E+01	8.45307909536E+01	-6.00959221029E+00	-5.23892562844E-01
8.76975219469E+05	-1.54336559980E+01	-1.47856233205E+02	5.97763128868E+00	1.77579395864E+02	-4.40235153211E+01	-8.36400471852E+01	-6.00531768188E+00	-3.22996431607E-01
8.99166574064E+05	-1.76986075030E+01	-1.29903891200E+02	6.04060020829E+00	1.77857845404E+02	-4.93034497927E+01	5.13624229548E+01	-5.99465376513E+00	-3.95026294166E-01
9.21357928659E+05	-1.16270408847E+01	-1.78131281149E+02	5.91859783330E+00	1.77526126295E+02	-5.04928168395E+01	2.45433132177E+01	-5.98857396710E+00	-3.83998805059E-01
9.43549283254E+05	-1.22521627422E+01	1.60994365587E+02	5.95274283721E+00	1.77639796388E+02	-4.26496937524E+01	7.48462421271E+00	-6.00792556467E+00	-4.81298477475E-01
9.65740637849E+05	-1.55625850831E+01	-1.78355216102E+02	6.00775931691E+00	1.77329810582E+02	-4.33086191381E+01	3.32934192208E+01	-6.00747185701E+00	-3.34115998516E-01
9.87931992444E+05	-1.30493339429E+01	1.76006277110E+02	5.96452364563E+00	1.77223851122E+02	-4.62805656587E+01	-1.11829440618E+02	-5.99184541634E+00	-3.57425628475E-01
1.01012334704E+06	-1.13934520581E+01	1.74812305600E+02	5.93663629575E+00	1.77084321253E+02	-4.20537761131E+01	1.44447298225E+02	-6.00033413060E+00	-3.62270919234E-01
1.03231470163E+06	-1.25351622685E+01	1.71701030965E+02	5.97664795258E+00	1.76885570274E+02	-5.36955967446E+01	-8.04299046033E+01	-6.02137344586E+00	-4.58449572554E-01
1.05450605623E+06	-1.29277400549E+01	-1.65048469270E+02	5.94039680468E+00	1.76969193060E+02	-4.49666374461E+01	5.09159844316E+01	-6.00849350297E+00	-5.29613636521E-01
1.07669741082E+06	-1.43578082821E+01	-1.74543814008E+02	5.97053042328E+00	1.76861895970E+02	-5.04093012364E+01	1.50358034239E+02	-5.98169553173E+00	-5.17817543908E-01
1.09888876542E+06	-1.53616669652E+01	1.65770292311E+02	5.96675242339E+00	1.76832154597E+02	-3.87328456114E+01	3.11951294770E+01	-6.01962680630E+00	-5.61515468405E-01
1.12108012001E+06	-1.30715756583E+01	-1.57041118198E+02	5.94629586580E+00	1.76449890577E+02	-4.90387965639E+01	5.56651923463E+01	-6.00485621532E+00	-3.65213691988E-01
1.14327147461E+06	-1.56714114639E+01	1.79835262615E+02	5.98618478174E+00	1.76765466614E+02	-4.53437639703E+01	-5.19839336076E+01	-5.98481960843E+00	-2.75203888956E-01
1.16546282920E+06	-1.25906822157E+01	-1.70347867833E+02	5.97624750332E+00	1.76345367959E+02	-4.68861101004E+01	1.74183767420E+02	-5.99836714392E+00	-4.99141537603E-01
1.18765418380E+06	-1.90993932183E+01	-1.74305852701E+02	5.98142557410E+00	1.76618387044E+02	-4.47160320593E+01	-5.72269874034E+00	-6.00091825154E+00	-5.14081715022E-01
1.20984553839E+06	-1.59771754422E+01	1.67036927169E+02	5.96335566240E+00	1.76210453609E+02	-4.38587775598E+01	2.97775636455E+00	-6.03138991176E+00	-7.34196389668E-01
1.23203689299E+06	-1.49409021225E+01	-1.77204807814E+02	5.97854621122E+00	1.76131500209E+02	-4.47852296721E+01	-1.26981216087E+02	-6.00316092286E+00	-1.50081961172E-01
1.25422824758E+06	-1.36697368975E+01	-1.73534598869E+02	5.99622946457E+00	1.75995821064E+02	-3.93545647871E+01	1.10283894956E+02	-5.99910997216E+00	-6.55279619209E-01
1.27641960218E+06	-1.61380585862E+01	-1.67381227733E+02	5.97413212269E+00	1.75794442205E+02	-4.37735025450E+01	6.13004215800E+01	-6.00025991246E+00	-5.87674789636E-01
1.29861095677E+06	-1.36943522422E+01	-1.73237186161E+02	5.95582708169E+00	1.75679874064E+02	-4.20123994006E+01	1.22205584688E+02	-6.00406603349E+00	-6.26838931006E-01
1.32080231137E+06	-1.64590398420E+01	1.73212740386E+02	6.00995289335E+00	1.75944547790E+02	-5.04283588798E+01	-1.65732979014E+02	-5.98790122729E+00	-1.01019764038E+00
1.34299366596E+06	-1.32076809206E+01	1.63670993311E+02	5.92640587348E+00	1.76002392925E+02	-4.82316205004E+01	-1.17228974546E+02	-5.99593662256E+00	-6.02060784279E-01
1.36518502056E+06	-1.17053157074E+01	1.62518892254E+02	5.94643985102E+00	1.75559833365E+02	-4.92911219275E+01	6.52754875088E+01	-5.97820437527E+00	-5.89910102889E-01
1.38737637515E+06	-1.28347985815E+01	-1.74055085414E+02	6.00025311948E+00	1.75471431869E+02	-4.91370299413E+01	8.21926581632E+01	-6.02008668597E+00	-5.82167769518E-01
1.40956772975E+06	-1.51697905029E+01	-1.78927061638E+02	5.98605112247E+00	1.75192741962E+02	-4.60509621906E+01	-1.11102857722E+02	-5.98993101769E+00	-4.95657807189E-01
1.43175908434E+06	-1.52642699447E+01	1.73133137612E+02	5.96669201581E+00	1.75305226715E+02	-3.91562794961E+01	-1.32159241943E+02	-6.01878790041E+00	-5.85958439271E-01
1.45395043894E+06	-1.28387134987E+01	1.78979039356E+02	5.92112651053E+00	1.75344168199E+02	-4.14464945965E+01	1.47383496091E+02	-5.99053376582E+00	-6.08187221744E-01
1.47614179353E+06	-1.32274480647E+01	-1.76226751730E+02	5.95031239817E+00	1.75009567547E+02	-4.99314995801E+01	-7.45102546560E+01	-6.00853181439E+00	-5.50470040168E-01
1.49833314813E+06	-1.86867311081E+01	1.52519129839E+02	6.00057434195E+00	1.75324691687E+02	-4.33557573996E+01	-1.49384400489E+01	-6.00566083548E+00	-6.56644442234E-01
1.52052450272E+06	-1.73550272085E+01	-1.72444052930E+02	5.99918977298E+00	1.74953556618E+02	-4.89059907449E+01	-1.49882412767E+02	-6.00026280612E+00	-6.38154743935E-01
1.54271585732E+06	-1.62969211812E+01	-1.78586638357E+02	6.02187913396E+00	1.74900090487E+02	-4.04462444438E+01	-2.07002887791E+00	-6.01832675498E+00	-8.07243588644E-01
1.56490721191E+06	-1.29757316212E+01	-1.55988233864E+02	6.03270559733E+00	1.74634106228E+02	-3.95969910425E+01	1.77557978770E+02	-6.00019575331E+00	-7.54561897533E-01
1.58709856651E+06	-1.25619538865E+01	-1.66002832211E+02	5.97938275513E+00	1.74442829836E+02	-3.28695669750E+01	-1.62198304535E+02	-5.98321653945E+00	-5.51904016625E-01
1.60928992110E+06	-9.93956972407E+00	-1.76710925900E+02	5.91585972356E+00	1.74800008595E+02	-4.09371386507E+01	1.40106343700E+02	-5.99155809516E+00	-8.35399808810E-01
1.63148127570E+06	-1.38641366979E+01	-1.74632172035E+02	5.93175129944E+00	1.74739315437E+02	-5.57739385690E+01	4.42463901812E+01	-5.97781927362E+00	-8.27481368004E-01
1.65367263029E+06	-1.12801465585E+01	-1.59270243810E+02	5.95589319892E+00	1.74342648519E+02	-4.44904135722E+01	7.02862968641E+01	-6.01095856409E+00	-8.58472670093E-01
1.67586398489E+06	-1.32173897257E+01	1.79353174064E+02	5.96872774555E+00	1.74305496433E+02	-4.44757294297E+01	-4.77917861238E+01	-6.01609594906E+00	-6.77394134357E-01
1.69805533948E+06	-1.40109229280E+01	-1.67640823458E+02	5.98552857110E+00	1.74106879900E+02	-4.25002443710E+01	-4.47091623378E+01	-6.03301015181E+00	-5.08170522856E-01
1.72024669408E+06	-1.13515537758E+01	-1.69302886916E+02	5.93590616657E+00	1.73881503633E+02	-4.43505662302E+01	1.11018377880E+02	-5.97560995572E+00	-7.24340524966E-01
1.74243804867E+06	-1.28168621343E+01	-1.63940705367E+02	5.98619008234E+00	1.74126716973E+02	-6.72025615287E+01	3.77566184749E+00	-5.98344728383E+00	-7.63116368332E-01
1.76462940327E+06	-1.43327823587E+01	-1.61507669261E+02	5.99361500383E+00	1.73825749805E+02	-4.11538767639E+01	1.36020746177E+02	-5.98668844083E+00	-7.85457779964E-01
1.78682075786E+06	-1.13384777778E+01	-1.64756655246E+02	5.97161996420E+00	1.73425453997E+02	-4.81650162993E+01	-1.28935821948E+02	-6.00156299647E+00	-7.03195268817E-01
1.80901211246E+06	-1.83562783369E+01	1.68245185297E+02	6.00036463833E+00	1.73781751232E+02	-5.06526405270E+01	3.05254323960E+01	-5.96441150550E+00	-6.67722592983E-01
1.83120346705E+06	-3.29903443665E+01	-1.51738250024E+02	6.02260131386E+00	1.74037849977E+02	-4.80644285386E+01	-1.27549269894E+02	-6.00046707712E+00	-8.84001274721E-01
1.85339482165E+06	-1.26603253964E+01	-1.74889028544E+02	5.96052579290E+00	1.73624768768E+02	-4.16656726246E+01	-1.48954149100E+01	-6.02513392911E+00	-7.70478205595E-01
1.87558617624E+06	-1.36662489235E+01	-1.75972294096E+02	5.95715169744E+00	1.73494846014E+02	-4.50759932339E+01	1.76010088438E+01	-6.03894601866E+00	-8.88113135184E-01
1.89777753084E+06	-1.43353731027E+01	1.70626860427E+02	5.99665892403E+00	1.73496432237E+02	-3.85445910198E+01	1.67229125299E+01	-6.00112598656E+00	-9.28571111212E-01
1.91996888543E+06	-1.51148264446E+01	1.78773559746E+02	5.99485827099E+00	1.73225704939E+02	-4.17251904242E+01	-1.35035541027E+02	-5.98798883496E+00	-7.64602708611E-01
1.94216024003E+06	-1.44591534663E+01	-1.76171091340E+02	5.95873382478E+00	1.73206561851E+02	-5.05051907909E+01	3.32521089152E+01	-6.01236152211E+00	-9.64882150817E-01
1.96435159462E+06	-1.48042588646E+01	-1.36086006862E+02	6.03040708422E+00	1.72960827688E+02	-5.37216145108E+01	1.61934339212E+02	-5.98660675640E+00	-7.98560800713E-01
1.98654294922E+06	-2.84126185325E+01	-2.85557353025E+01	6.05612955342E+00	1.73649941988E+02	-4.73242297029E+01	5.61353726776E+01	-6.00870737386E+00	-1.01178593126E+00
2.00873430381E+06	-1.57733568177E+01	-1.71949527490E+02	6.00962161211E+00	1.72898986022E+02	-4.73309756024E+01	4.93101092320E+01	-5.98690372962E+00	-9.39855666437E-01
2.03092565841E+06	-1.67733510532E+01	1.76574414889E+02	6.02800307295E+00	1.72704736222E+02	-4.15030921940E+01	1.52910584071E+02	-5.99139507842E+00	-8.79555666392E-01
2.05311701300E+06	-1.26090851936E+01	-1.54620849032E+02	6.01871374440E+00	1.72225003039E+02	-3.55090111480E+01	2.37954461237E+01	-6.01424656803E+00	-1.00813946364E+00
2.07530836760E+06	-1.36402714099E+01	1.79281112940E+02	5.94939028110E+00	1.72473768843E+02	-4.18540357503E+01	1.77776907160E+02	-5.98521218067E+00	-9.66713929034E-01
2.09749972219E+06	-1.42004953177E+01	-1.63184933497E+02	5.98437147367E+00	1.72328889714E+02	-4.15040945516E+01	-5.97331086552E+01	-6.02536568167E+00	-6.85385824775E-01
2.11969107679E+06	-1.36242423400E+01	1.64913033815E+02	5.96242962985E+00	1.72659543193E+02	-4.73572115394E+01	-1.71850721734E+02	-5.97236314909E+00	-9.02533680476E-01
2.14188243138E+06	-1.22578249762E+01	-1.42186740210E+02	6.01480632509E+00	1.72283873630E+02	-3.92845882571E+01	2.41621232333E+01	-6.01303864149E+00	-8.43030728228E-01
2.16407378598E+06	-1.46106143685E+01	-1.71109219654E+02	6.02475961616E+00	1.72398387199E+02	-4.72003332274E+01	1.38672613366E+02	-5.98484387788E+00	-9.54228765847E-01
2.18626514057E+06	-1.51008536108E+01	-1.68406124313E+02	6.01373313433E+00	1.72042071366E+02	-4.74518731372E+01	-1.00157392332E+02	-6.01443906670E+00	-9.47644144481E-01
2.20845649517E+06	-1.61208634215E+01	-1.70748089494E+02	6.03936372885E+00	1.71982188779E+02	-5.39000294860E+01	1.95158418745E+01	-5.99734048393E+00	-8.43378358654E-01
2.23064784976E+06	-1.44527412640E+01	-1.75279888631E+02	6.04324451848E+00	1.72158172131E+02	-4.27092987113E+01	1.59285487063E+02	-5.98533124078E+00	-1.06182609861E+00
2.25283920436E+06	-1.52428977112E+01	-1.74177998576E+02	5.96477077752E+00	1.71956538881E+02	-5.77356379676E+01	5.51561274754E+00	-6.01830672323E+00	-8.44893339301E-01
2.27503055895E+06	-1.21357873158E+01	-1.58941753642E+02	6.02422698383E+00	1.71340015419E+02	-4.66162805423E+01	3.69884882956E+00	-6.00230779012E+00	-1.12887990550E+00
2.29722191355E+06	-1.70638010572E+01	1.52559156268E+02	5.98958424301E+00	1.72322683295E+02	-5.30616675468E+01	5.07135907714E+01	-6.00080439855E+00	-9.86359973972E-01
2.31941326814E+06	-1.55384610924E+01	1.79662298587E+02	5.97524773665E+00	1.71602564489E+02	-4.02580872492E+01	-3.47679440295E+01	-6.04383760089E+00	-1.03859288122E+00
2.34160462274E+06	-1.49776657806E+01	1.68331578737E+02	5.97836344532E+00	1.71656284659E+02	-4.93314193775E+01	1.77430385552E+02	-6.00752138086E+00	-1.04323734824E+00
2.36379597733E+06	-1.04281440833E+01	1.70617291648E+02	5.97208608794E+00	1.71724479235E+02	-4.69986944654E+01	-2.78587369737E+01	-6.01745980237E+00	-1.05682983753E+00
2.38598733193E+06	-1.25423168601E+01	-1.78726732637E+02	5.99594981294E+00	1.71531709771E+02	-6.27641966331E+01	-4.84509323312E+01	-5.98674795649E+00	-9.70586939168E-01
2.40817868652E+06	-1.55380296574E+01	1.78883549871E+02	6.02543812193E+00	1.71426769853E+02	-4.55501653511E+01	3.45121526658E+01	-6.02674515859E+00	-1.21741404185E+00
2.43037004112E+06	-1.29422091008E+01	-1.71013743859E+02	5.98553647411E+00	1.71161989581E+02	-4.18681416440E+01	-1.25035040410E+01	-6.02073889171E+00	-1.53343910668E+00
2.45256139571E+06	-7.74984099234E+00	-1.65623364453E+02	6.00137277217E+00	1.70552164067E+02	-4.53267739407E+01	-9.28264716846E+01	-6.01649851733E+00	-1.10642565407E+00
2.47475275031E+06	-1.25638251646E+01	-1.70869099032E+02	5.99250234343E+00	1.71176492390E+02	-5.44686220680E+01	1.37667541714E+02	-5.98579218297E+00	-1.12551509721E+00
2.49694410490E+06	-1.18521825083E+01	-1.66705523072E+02	6.00172960233E+00	1.70696703514E+02	-4.56244259856E+01	1.25171540263E+02	-5.99582459876E+00	-1.05865638467E+00
2.51913545950E+06	-1.55733384410E+01	-1.70116960221E+02	6.03168710801E+00	1.70840159350E+02	-3.87390663921E+01	4.73833441623E+01	-5.99455455597E+00	-1.17627004543E+00
2.54132681409E+06	-1.60564215943E+01	-1.49552188934E+02	6.03908160741E+00	1.70653626383E+02	-4.18946357118E+01	1.70704815586E+02	-5.99509348732E+00	-1.09396466317E+00
2.56351816869E+06	-1.14831880080E+01	-1.65393452554E+02	6.00332500678E+00	1.70744626952E+02	-5.01376408631E+01	8.13868152787E+01	-5.97666135205E+00	-1.05131960548E+00
2.58570952328E+06	-1.39237308567E+01	-1.53976365457E+02	6.02606615646E+00	1.70491006961E+02	-4.41433323108E+01	9.93948464527E+01	-5.98974141930E+00	-1.17787350550E+00
2.60790087788E+06	-1.17789835005E+01	1.70171519563E+02	5.98372413415E+00	1.70401956695E+02	-4.40056422937E+01	-1.83270580605E+01	-6.00397899979E+00	-9.99575835252E-01
2.63009223247E+06	-1.17094727266E+01	1.77714371757E+02	5.96481364561E+00	1.70338186773E+02	-4.07361351197E+01	1.43898914025E+02	-5.98871397170E+00	-7.06871022857E-01
2.65228358707E+06	-1.33166019538E+01	1.77676000084E+02	5.98231256099E+00	1.70487635523E+02	-4.79379068086E+01	1.11140569021E+02	-6.02486966100E+00	-1.06856579507E+00
2.67447494166E+06	-1.17984158572E+01	-1.68234203654E+02	6.00845179743E+00	1.69886644584E+02	-4.49051108025E+01	-9.14692038556E+00	-6.00518037058E+00	-1.28360742165E+00
2.69666629626E+06	-1.97365588385E+01	-1.62717982015E+02	6.08807220709E+00	1.70006378030E+02	-3.82018230029E+01	2.31500649611E+01	-5.99217191838E+00	-1.18353247923E+00
2.71885765085E+06	-1.22104214487E+01	1.73602282320E+02	5.98023443931E+00	1.70038956322E+02	-5.21778078315E+01	-2.43356881460E+00	-6.00826637628E+00	-1.21352827487E+00
2.74104900545E+06	-1.60230906336E+01	-1.46787490816E+02	6.08949369212E+00	1.69870702232E+02	-5.35841420049E+01	3.19679777875E+01	-6.02357608627E+00	-1.19584102800E+00
2.76324036004E+06	-1.64175981854E+01	-1.79766937144E+02	6.06871334186E+00	1.69845619681E+02	-4.36115753892E+01	-8.37823586368E+01	-6.02171616023E+00	-1.16843983793E+00
2.78543171463E+06	-1.47014238627E+01	1.77159522983E+02	5.96763906132E+00	1.69719077833E+02	-4.59623368855E+01	-1.56689583086E+01	-6.00126135414E+00	-1.20494992468E+00
2.80762306923E+06	-1.49439300067E+01	-1.72239704085E+02	6.06066497046E+00	1.69644865903E+02	-4.79850429697E+01	6.69006087220E+01	-5.97818120767E+00	-1.16028420990E+00
2.82981442382E+06	-1.72683484623E+01	1.70071641248E+02	6.01888840417E+00	1.69767592261E+02	-3.68035035833E+01	1.24871279587E+02	-5.96757769995E+00	-1.19948614464E+00
2.85200577842E+06	-1.66894392796E+01	1.59662073196E+02	6.03230332769E+00	1.69922018523E+02	-3.94012578699E+01	8.51269821832E+01	-5.98619707043E+00	-1.31320700561E+00
2.87419713301E+06	-1.56976122960E+01	1.70942148690E+02	6.03737649579E+00	1.69632847054E+02	-5.71333783814E+01	1.52044336346E+02	-6.01839278598E+00	-1.40731465086E+00
