# Hz S DB R 50
! CMT, M5065, 19127446, 24.2.4/2
! Date: 11/8/2024 3:07:24 PM
! Data: Format (Calibration Info)
! Freq	S11:dB/Ang(F2)	S21:dB/Ang(F2)	S12:dB/Ang(F2)	S22:dB/Ang(F2)
3.00000000000E+05	-1.53095648863E+01	1.53943279007E+02	1.03594164836E+01	-1.77227763500E+02	-4.03585031221E+01	1.33679935987E+02	-5.98925336227E+00	-4.10293905380E-01
3.22191354595E+05	-1.33234127224E+01	1.67862305887E+02	1.03544454208E+01	-1.77844169760E+02	-4.53373106786E+01	9.88104188316E+01	-5.97436314636E+00	-3.10269545403E-01
3.44382709190E+05	-1.65652687715E+01	-1.64695977674E+02	1.04059688229E+01	-1.78287906998E+02	-4.76485810753E+01	-1.08765775636E+02	-6.00797258399E+00	-5.30429641850E-02
3.66574063785E+05	-1.51296704329E+01	1.66826897799E+02	1.03924628592E+01	-1.78565477286E+02	-5.45833268283E+01	-6.04636348914E+01	-5.99965975635E+00	-2.16947690772E-01
3.88765418380E+05	-1.28978092953E+01	1.72115094038E+02	1.03396965336E+01	-1.79009705915E+02	-5.33506589669E+01	-1.41468711819E+02	-6.08200556118E+00	-1.21396942132E-01
4.10956772975E+05	-1.70151434070E+01	-1.62121871569E+02	1.03571101805E+01	-1.79343429008E+02	-4.00515642333E+01	8.06257859831E+01	-6.00757087657E+00	-4.22317786334E-01
4.33148127570E+05	-1.08566925681E+01	-1.70177023685E+02	1.03275252238E+01	-1.79692746330E+02	-3.95475900787E+01	8.08602856557E+01	-5.98131557255E+00	-5.38087847958E-01
4.55339482165E+05	-1.20148629265E+01	-1.60141391581E+02	1.03640156502E+01	-1.79912283537E+02	-3.83867134389E+01	-1.04799888821E+02	-6.00110500050E+00	-1.26882372847E-01
4.77530836760E+05	-1.33221255631E+01	-1.52945323274E+02	1.03689214977E+01	1.79760141491E+02	-4.97432635443E+01	-6.46839556245E+01	-5.98609417844E+00	-1.52828790780E-01
4.99722191355E+05	-1.29851626737E+01	1.71239935833E+02	1.03341457182E+01	-1.79984919098E+02	-4.11914554329E+01	-3.07811311218E+00	-6.01506972427E+00	-2.90088311512E-01
5.21913545950E+05	-1.19424286407E+01	-1.63812067857E+02	1.03625696785E+01	1.79614161420E+02	-4.56428861998E+01	-3.30549149008E+01	-6.01691004395E+00	-4.25331806634E-01
5.44104900545E+05	-1.48099840009E+01	-1.76427530699E+02	1.03619430810E+01	1.79482179263E+02	-4.72247044128E+01	6.49963265984E+01	-6.00564607503E+00	-5.02756459733E-01
5.66296255139E+05	-1.46978994847E+01	1.68283545932E+02	1.03589498165E+01	1.79360744692E+02	-3.87826203241E+01	-4.17600633419E+01	-6.02774633511E+00	-1.47365995440E-01
5.88487609734E+05	-1.46561924850E+01	-1.69203196421E+02	1.03656946409E+01	1.78901897056E+02	-4.09741147379E+01	1.03256395071E+01	-6.03861471439E+00	-2.46455150573E-01
6.10678964329E+05	-1.26889019740E+01	1.68412246781E+02	1.03339813563E+01	1.78774837175E+02	-5.45029368013E+01	-4.47886465150E+01	-5.98444994742E+00	1.71833954741E-01
6.32870318924E+05	-1.45947953586E+01	1.71735207456E+02	1.03472004801E+01	1.78507796032E+02	-5.16914693553E+01	-1.67998260988E+02	-5.98827004931E+00	-1.65306006786E-01
6.55061673519E+05	-1.37651461234E+01	1.72843453137E+02	1.03739280455E+01	1.78525664190E+02	-4.97055266751E+01	3.98841673751E+00	-6.02275997583E+00	-3.21166209368E-01
6.77253028114E+05	-1.56760163200E+01	-1.64776670551E+02	1.04226798274E+01	1.78342066269E+02	-4.48479681947E+01	-9.52634440062E+01	-5.98598536053E+00	-4.49421788864E-01
6.99444382709E+05	-1.39542792832E+01	1.67251888831E+02	1.03779909605E+01	1.78209796803E+02	-3.98241597219E+01	3.25771733005E+01	-6.01325023869E+00	-6.72450583154E-01
7.21635737304E+05	-1.50391850629E+01	-1.65207659678E+02	1.03967365095E+01	1.77983833355E+02	-3.43929900022E+01	1.59859789296E+02	-5.94859228746E+00	-4.35491160430E-01
7.43827091899E+05	-1.31671325019E+01	1.69425266791E+02	1.03720345171E+01	1.77887090279E+02	-4.33628420539E+01	-6.45241586473E+01	-6.00531741184E+00	-3.12137201144E-01
7.66018446494E+05	-1.33842537676E+01	1.78604362348E+02	1.03631711229E+01	1.77785490067E+02	-4.95899648451E+01	9.07264342023E+01	-5.99306462434E+00	-3.55771577233E-01
7.88209801089E+05	-1.30045779340E+01	1.71704410247E+02	1.03407457781E+01	1.77567613966E+02	-4.04370315781E+01	6.51023162869E+01	-6.00894858975E+00	-4.04472214866E-01
8.10401155684E+05	-1.54573828754E+01	1.75859288945E+02	1.03981961293E+01	1.77499896988E+02	-5.53129969413E+01	-4.63196014444E+01	-6.00647633802E+00	-3.14424875525E-01
8.32592510279E+05	-1.33104721993E+01	-1.72369336963E+02	1.03738185982E+01	1.77177867612E+02	-4.04587410203E+01	-8.07148794536E+01	-6.00582176532E+00	-3.49496255610E-01
8.54783864874E+05	-1.53537854287E+01	-1.79644460543E+02	1.04232419546E+01	1.77189887715E+02	-4.41277259015E+01	6.21629146756E+01	-6.00909415855E+00	-4.65033956672E-01
8.76975219469E+05	-2.05115071313E+01	-1.65780630433E+02	1.04256904976E+01	1.77009151168E+02	-4.68755981544E+01	1.51954259734E+02	-6.00151128355E+00	-3.89701895571E-01
8.99166574064E+05	-1.45758606564E+01	-1.65643532444E+02	1.03954251319E+01	1.76483138022E+02	-4.04170863715E+01	-8.34330307394E+01	-5.99683262496E+00	-4.32788738885E-01
9.21357928659E+05	-1.29659245613E+01	-1.64214145259E+02	1.04041518464E+01	1.76618770687E+02	-4.28715302928E+01	2.36238924259E+01	-5.99244821604E+00	-6.22243680908E-01
9.43549283254E+05	-9.84960576853E+00	1.64753532396E+02	1.03574443564E+01	1.76808044766E+02	-4.23342445117E+01	1.37670604657E+02	-5.98385237988E+00	-4.47765400548E-01
9.65740637849E+05	-1.60622144751E+01	-1.79592590055E+02	1.03778125583E+01	1.76356111679E+02	-3.96458553769E+01	-8.96033204028E+01	-6.01832078897E+00	-3.19091941898E-01
9.87931992444E+05	-1.22321574597E+01	-1.75421713276E+02	1.03905275371E+01	1.76253258402E+02	-5.54904868590E+01	-6.32915639334E+01	-6.00477654926E+00	-5.23317218169E-01
1.01012334704E+06	-1.26158066641E+01	-1.64531135739E+02	1.03793307404E+01	1.76101608118E+02	-3.89020789114E+01	-2.00557751782E+01	-6.03834370364E+00	-4.14377665148E-01
1.03231470163E+06	-1.65411711698E+01	-1.62948575887E+02	1.04179039978E+01	1.75999355377E+02	-5.52382312918E+01	-8.98643024741E+01	-6.00308856881E+00	-4.76797279492E-01
1.05450605623E+06	-1.57811817779E+01	1.74923930800E+02	1.03859610902E+01	1.75990304875E+02	-3.73386204472E+01	-7.04133504201E+01	-5.99953171474E+00	-3.22970644887E-01
1.07669741082E+06	-1.58565027985E+01	-1.69689652667E+02	1.04029523851E+01	1.75908112536E+02	-5.48173966875E+01	1.41285096068E+02	-5.98066687603E+00	-7.26039872120E-01
1.09888876542E+06	-1.19647856779E+01	1.78663011600E+02	1.03616056168E+01	1.75706663758E+02	-4.39239631805E+01	1.26956826927E+02	-5.99027730081E+00	-5.96324283758E-01
1.12108012001E+06	-2.29587086419E+01	1.68678479207E+02	1.04190750920E+01	1.75656380085E+02	-4.50703370567E+01	1.24914495445E+02	-5.98121946315E+00	-6.47937980578E-01
1.14327147461E+06	-1.25733493826E+01	-1.69086464544E+02	1.03894175297E+01	1.75463719251E+02	-4.37408638041E+01	1.57615185622E+02	-5.98940229709E+00	-4.95213116359E-01
1.16546282920E+06	-1.56572459107E+01	-1.76336854956E+02	1.03844294424E+01	1.75270443929E+02	-4.65848395145E+01	-1.66481349109E+02	-5.98831238939E+00	-5.82562255957E-01
1.18765418380E+06	-1.58220502312E+01	-1.69013325033E+02	1.03915142537E+01	1.75170045025E+02	-4.67624177132E+01	3.28062147902E+00	-6.01434789433E+00	-6.26685905552E-01
1.20984553839E+06	-1.63817606739E+01	1.77116260155E+02	1.03618690686E+01	1.75102197624E+02	-3.98546087607E+01	1.75037521781E+02	-5.96735832088E+00	-5.81176997848E-01
1.23203689299E+06	-1.74026810930E+01	-1.77014023295E+02	1.03970058391E+01	1.75016830627E+02	-4.95656755984E+01	1.66430159291E+02	-5.99702112621E+00	-1.04293298870E-01
1.25422824758E+06	-9.00675010810E+00	-1.67325866803E+02	1.03709071027E+01	1.74614775858E+02	-4.67624027783E+01	1.35142108723E+02	-5.99937487847E+00	-6.46786550822E-01
1.27641960218E+06	-1.46720709388E+01	1.63615755468E+02	1.03933235218E+01	1.74832318878E+02	-4.86676426883E+01	-6.24785896940E+01	-6.00486776072E+00	-5.13452885988E-01
1.29861095677E+06	-1.25485735778E+01	-1.70762502974E+02	1.03633960939E+01	1.74598746796E+02	-5.11629238068E+01	-1.46644346800E+02	-6.00281214945E+00	-4.88614190198E-01
1.32080231137E+06	-1.52301784842E+01	-1.68536454933E+02	1.04043600781E+01	1.74453482906E+02	-4.85943138884E+01	-8.64445886009E+01	-6.01163848914E+00	-8.00204355397E-01
1.34299366596E+06	-1.47574675429E+01	1.71428751560E+02	1.03615989781E+01	1.74339883612E+02	-3.91665883641E+01	4.37545326779E+01	-5.99990984376E+00	-8.50109896286E-01
1.36518502056E+06	-1.51912875667E+01	-1.68845849208E+02	1.03728602728E+01	1.74388744072E+02	-3.19984842209E+01	-1.44543552827E+02	-5.98476348037E+00	-1.62109474858E-01
1.38737637515E+06	-1.03508776883E+01	1.72159452294E+02	1.03634473010E+01	1.73903295754E+02	-4.18271081671E+01	3.49454610751E+00	-6.03968133084E+00	-7.26323672092E-01
1.40956772975E+06	-1.50699694934E+01	-1.69253687658E+02	1.03850684834E+01	1.73899762537E+02	-5.39043315082E+01	-1.19289017838E+02	-5.99380307453E+00	-6.35572923293E-01
1.43175908434E+06	-1.37901944676E+01	1.69909342165E+02	1.03594937540E+01	1.73945648194E+02	-4.97749099198E+01	-7.32503345534E+01	-6.00066660637E+00	-5.50472315138E-01
1.45395043894E+06	-1.32014664304E+01	-1.74167648999E+02	1.03787744803E+01	1.73760645589E+02	-4.78574119731E+01	-3.98293040735E+01	-5.99270013398E+00	-6.27904625754E-01
1.47614179353E+06	-1.52388542446E+01	-1.71171524516E+02	1.03866214850E+01	1.73445133037E+02	-4.64974595470E+01	-1.78492809169E+02	-5.99429908588E+00	-5.62319435122E-01
1.49833314813E+06	-1.38029007491E+01	-1.51557221762E+02	1.03989840393E+01	1.73094308787E+02	-4.66986462702E+01	-9.93257411977E+01	-6.01106025577E+00	-5.38682833285E-01
1.52052450272E+06	-1.73129516304E+01	-1.59217849625E+02	1.03785410435E+01	1.73155942126E+02	-4.25363301700E+01	-1.32020239281E+01	-6.00588907415E+00	-6.09576545665E-01
1.54271585732E+06	-1.43257595171E+01	-1.61485696804E+02	1.03949919695E+01	1.73141642958E+02	-4.06153369836E+01	-6.95289850254E+01	-6.00994021342E+00	-4.70740864132E-01
1.56490721191E+06	-1.27082712992E+01	-1.61838807648E+02	1.03852633615E+01	1.73193305737E+02	-4.26873240982E+01	-1.15011883361E+02	-6.01528713700E+00	-4.74059334764E-01
1.58709856651E+06	-1.57070337288E+01	-1.71656877815E+02	1.03668699312E+01	1.72963700252E+02	-4.53488838355E+01	-1.34690693350E+02	-6.00683400116E+00	-6.92621704344E-01
1.60928992110E+06	-1.47664449559E+01	-1.77632965815E+02	1.03872128449E+01	1.72966901458E+02	-4.24263077678E+01	-1.78782426298E+02	-5.97937773191E+00	-6.20359008852E-01
1.63148127570E+06	-1.29218933124E+01	-1.67214560698E+02	1.03930725183E+01	1.72774012299E+02	-6.39412387337E+01	-1.07739700711E+02	-5.99869461605E+00	-7.31704672794E-01
1.65367263029E+06	-1.66472753408E+01	-1.49325448654E+02	1.04184640541E+01	1.72618741025E+02	-4.16995093134E+01	-1.15515513100E+02	-5.99574723688E+00	-6.09025664475E-01
1.67586398489E+06	-1.21100062650E+01	-1.74039525384E+02	1.04130657664E+01	1.72196637827E+02	-4.34744159563E+01	7.49475574762E+01	-5.97978552648E+00	-8.81811109581E-01
1.69805533948E+06	-1.47761500414E+01	-1.77191156836E+02	1.03831547223E+01	1.72573224292E+02	-4.18129834111E+01	2.19870428494E+01	-6.00635685455E+00	-7.61053464532E-01
1.72024669408E+06	-1.86660785033E+01	-1.73653689981E+02	1.04242217357E+01	1.72385347916E+02	-4.50052731481E+01	-8.44181446183E+01	-6.00333320441E+00	-5.77590542644E-01
1.74243804867E+06	-1.20796714503E+01	-1.63447299958E+02	1.04203195691E+01	1.72108978091E+02	-4.86907869532E+01	-5.54172664506E+01	-6.02045470340E+00	-7.19197440532E-01
1.76462940327E+06	-1.48809110472E+01	-1.76525270056E+02	1.03748703752E+01	1.72232122720E+02	-4.66795155655E+01	-5.58152042551E+01	-6.01333074141E+00	-7.38886969332E-01
1.78682075786E+06	-1.57591985228E+01	-1.72523138372E+02	1.04130672213E+01	1.71981849408E+02	-4.58883850956E+01	-1.02917726536E+02	-5.99772563527E+00	-8.07267064936E-01
1.80901211246E+06	-1.15808842411E+01	-1.73296291450E+02	1.03908475500E+01	1.71733595297E+02	-6.75510188711E+01	-2.39625458354E+01	-5.98194409458E+00	-7.65565196018E-01
1.83120346705E+06	-1.36812041346E+01	-1.67152114392E+02	1.03976017114E+01	1.71741625478E+02	-3.32374692823E+01	1.65024651371E+02	-5.93818394316E+00	-5.63494343618E-01
1.85339482165E+06	-1.34785709751E+01	1.69674086362E+02	1.03851348933E+01	1.71806945994E+02	-4.88853617923E+01	-1.77263885894E+02	-5.98916388238E+00	-7.50342768695E-01
1.87558617624E+06	-1.24244811120E+01	-1.51966237473E+02	1.03813086797E+01	1.71169337373E+02	-4.81626783800E+01	1.28827625666E+02	-5.99339679392E+00	-7.75536631441E-01
1.89777753084E+06	-1.22207757814E+01	1.66554368056E+02	1.03724606798E+01	1.71431988409E+02	-5.34351928740E+01	-1.14730326846E+02	-5.98255294179E+00	-7.61192295074E-01
1.91996888543E+06	-1.24365718788E+01	-1.60579938030E+02	1.04080341519E+01	1.71054988698E+02	-5.39930202355E+01	1.64845282769E+02	-6.00036960590E+00	-8.50000963792E-01
1.94216024003E+06	-1.25375637711E+01	-1.77054054852E+02	1.03884310636E+01	1.71047843790E+02	-4.27177288055E+01	1.13120155317E+02	-5.99731872795E+00	-8.11443387810E-01
1.96435159462E+06	-1.40216371393E+01	-1.75518031453E+02	1.03910288543E+01	1.70982261349E+02	-5.76620748806E+01	-3.94427665083E+01	-5.98736692301E+00	-8.69896101773E-01
1.98654294922E+06	-1.40527206554E+01	-1.67333022618E+02	1.04028271792E+01	1.70929107767E+02	-4.50541222574E+01	-5.72414764485E+01	-6.02020877724E+00	-7.49952943950E-01
2.00873430381E+06	-1.41404514372E+01	-1.78238829087E+02	1.03755820791E+01	1.71032423298E+02	-5.47960049553E+01	-1.78579767845E+02	-5.99226359349E+00	-9.12484604246E-01
2.03092565841E+06	-1.08537035479E+01	-1.22725554122E+02	1.04788143181E+01	1.70327504264E+02	-4.59370512716E+01	-2.01870933532E+01	-6.03051650880E+00	-9.42273805309E-01
2.05311701300E+06	-1.03111360444E+01	-1.77299123339E+02	1.03816810192E+01	1.70709906010E+02	-4.54135806954E+01	-1.60481743934E+02	-5.96966284007E+00	-7.32637021063E-01
2.07530836760E+06	-1.50385572968E+01	-1.69246626931E+02	1.04100329093E+01	1.70351205120E+02	-4.16233247352E+01	-1.59769330127E+00	-6.01583318501E+00	-1.02634010007E+00
2.09749972219E+06	-1.48139181013E+01	-1.53129284559E+02	1.04250090859E+01	1.70179626240E+02	-4.59752871709E+01	7.56983006591E+01	-6.01404677662E+00	-1.18229952742E+00
2.11969107679E+06	-1.53886110437E+01	-1.76566376675E+02	1.04188024808E+01	1.70118080868E+02	-4.69217996999E+01	1.44495499126E+02	-5.98893550108E+00	-8.96143780728E-01
2.14188243138E+06	-1.20912728788E+01	-1.66767805959E+02	1.03826941286E+01	1.70004590227E+02	-3.29157955091E+01	-1.08664675693E+02	-6.02672820008E+00	-6.48520903304E-01
2.16407378598E+06	-1.25306874082E+01	-1.55550381969E+02	1.04152263753E+01	1.69780739715E+02	-4.02390220682E+01	1.02714689888E+02	-5.96051310954E+00	-1.19675570468E+00
2.18626514057E+06	-1.00726227515E+01	-1.70643205370E+02	1.04142631540E+01	1.69526579362E+02	-4.20479566952E+01	-2.20483541584E+01	-6.02557444320E+00	-9.95332707047E-01
2.20845649517E+06	-1.43170109076E+01	1.75322688690E+02	1.04256413666E+01	1.69857452030E+02	-4.51564079992E+01	3.57148491614E+01	-6.00014165188E+00	-1.12107649594E+00
2.23064784976E+06	-1.16532050799E+01	-1.68344768035E+02	1.03846986188E+01	1.69483641280E+02	-4.40231692587E+01	1.53558517180E+02	-5.97676422053E+00	-8.11473749835E-01
2.25283920436E+06	-1.35267856167E+01	-1.74483511776E+02	1.04239522149E+01	1.69447952258E+02	-4.77371938450E+01	-1.35039118780E+02	-5.98108235022E+00	-1.03690178608E+00
2.27503055895E+06	-1.47185965120E+01	-1.70299037177E+02	1.04167210077E+01	1.69489179440E+02	-4.45203575676E+01	2.49140191944E+01	-5.98885598202E+00	-9.77642597349E-01
2.29722191355E+06	-1.48825742310E+01	-1.63547477070E+02	1.04058410952E+01	1.69214644828E+02	-4.64945527627E+01	-4.32805166778E+01	-6.01614437053E+00	-9.66594243916E-01
2.31941326814E+06	-1.36525614589E+01	-1.55669537055E+02	1.04197826804E+01	1.69145777729E+02	-5.03075216992E+01	-1.44465373521E+02	-5.99357892892E+00	-1.04551802058E+00
2.34160462274E+06	-1.37645885586E+01	-1.68539072256E+02	1.04406296499E+01	1.69337414449E+02	-4.50020681596E+01	-7.43350255227E+01	-6.01635112494E+00	-8.53281628784E-01
2.36379597733E+06	-1.72160330907E+01	-1.64615793884E+02	1.04137313734E+01	1.69252474397E+02	-5.44963207038E+01	1.02582947166E+02	-6.01035103692E+00	-1.19613445467E+00
2.38598733193E+06	-1.41188947200E+01	-1.55967534851E+02	1.04363349731E+01	1.68830951287E+02	-4.84596963736E+01	-6.59430259308E+01	-5.99517960852E+00	-9.77741606716E-01
2.40817868652E+06	-1.41744025405E+01	-1.58826822429E+02	1.04493501522E+01	1.68773317006E+02	-7.68717894753E+01	7.65640325438E+01	-6.00014608656E+00	-1.17007695157E+00
2.43037004112E+06	-1.44223266569E+01	-1.68895367223E+02	1.04123111236E+01	1.68550883165E+02	-4.68737034664E+01	1.40109925119E+02	-5.98289708660E+00	-1.59666399554E+00
2.45256139571E+06	-1.29907255027E+01	1.79741336685E+02	1.04149850639E+01	1.68552924087E+02	-3.61896605892E+01	1.58421651627E+02	-5.99827929575E+00	-9.34365674448E-01
2.47475275031E+06	-1.20690021853E+01	-1.59341137369E+02	1.04036474303E+01	1.68228207183E+02	-4.13398781094E+01	1.44330879879E+02	-5.98542206047E+00	-1.05559343808E+00
2.49694410490E+06	-1.45399546776E+01	-1.48347621776E+02	1.04424758303E+01	1.68488251312E+02	-5.31779683341E+01	1.30751482993E+02	-6.00198234837E+00	-1.23147295813E+00
2.51913545950E+06	-7.28289877028E+00	1.48745840385E+02	1.03064207191E+01	1.67967578127E+02	-4.96281531999E+01	7.41512720437E+01	-5.99890125307E+00	-1.10803958640E+00
2.54132681409E+06	-1.27509689963E+01	-1.63812636769E+02	1.04117242474E+01	1.67988222504E+02	-5.16456250397E+01	3.25571853520E+01	-6.02615615074E+00	-1.18738990127E+00
2.56351816869E+06	-1.20232314964E+01	1.74680604211E+02	1.03856235915E+01	1.67941928415E+02	-4.69518338999E+01	-5.12895808326E+01	-6.02241829241E+00	-1.04729918691E+00
2.58570952328E+06	-1.26904502546E+01	-1.63954093603E+02	1.04225038989E+01	1.67774645546E+02	-4.08654808062E+01	-2.94442746057E+01	-6.02965801177E+00	-1.08985438826E+00
2.60790087788E+06	-1.24876105161E+01	-1.70049304536E+02	1.03993860942E+01	1.67640174816E+02	-4.05237928432E+01	1.23515221022E+02	-5.97511836794E+00	-1.15510026289E+00
2.63009223247E+06	-1.79322542288E+01	-1.57350646051E+02	1.04496234478E+01	1.67799746786E+02	-3.74902218453E+01	-1.70073936581E+02	-5.98122189342E+00	-6.16982995302E-01
2.65228358707E+06	-1.21080304429E+01	-1.50481226756E+02	1.04586642189E+01	1.67230899000E+02	-4.54275918423E+01	2.83596416980E+01	-5.99680186424E+00	-1.34376572494E+00
2.67447494166E+06	-1.40698111299E+01	-1.71845434929E+02	1.04325592310E+01	1.67627594450E+02	-5.22096521030E+01	1.76073479411E+02	-5.97658406516E+00	-1.15320607697E+00
2.69666629626E+06	-1.64344792477E+01	-1.39957586048E+02	1.04897428881E+01	1.67374979611E+02	-4.51137510640E+01	-9.96999381763E+01	-5.99532408994E+00	-1.17116299483E+00
2.71885765085E+06	-1.06405735449E+01	1.79767486885E+02	1.03909338980E+01	1.66957842937E+02	-3.93453502973E+01	-3.03258216405E+01	-6.03154815164E+00	-1.09718631806E+00
2.74104900545E+06	-1.21511376884E+01	-1.68166985703E+02	1.04151455777E+01	1.67199008053E+02	-4.38110540036E+01	5.50801195199E+01	-5.97989596199E+00	-1.33142338137E+00
2.76324036004E+06	-1.76041399889E+01	-1.62773937345E+02	1.04648413019E+01	1.67056162516E+02	-4.26209121115E+01	-7.69530347834E+01	-6.03240791497E+00	-1.01719589791E+00
2.78543171463E+06	-1.40938495250E+01	1.77428098966E+02	1.04189196760E+01	1.66865402774E+02	-4.00163358647E+01	9.62544974639E+01	-5.95890961634E+00	-1.25874655142E+00
2.80762306923E+06	-1.29298487928E+01	-1.56316572269E+02	1.04626475045E+01	1.66607750739E+02	-5.08322729026E+01	3.99397008627E+01	-6.00771150207E+00	-1.18016985856E+00
2.82981442382E+06	-1.21756138907E+01	-1.64311753627E+02	1.04288759918E+01	1.66487646416E+02	-5.62825097379E+01	1.57293219707E+01	-5.99205146668E+00	-1.24055569271E+00
2.85200577842E+06	-1.31358003397E+01	-1.69045387282E+02	1.04485874364E+01	1.66539984003E+02	-4.05475168830E+01	5.70668470538E+01	-6.00500334712E+00	-1.43856231509E+00
2.87419713301E+06	-1.28016768868E+01	-1.54710468392E+02	1.04325442080E+01	1.66272953268E+02	-4.14480624316E+01	-1.79661284987E+02	-5.98799623815E+00	-1.22664140204E+00
