# Hz S DB R 50
! CMT, M5065, 19127446, 24.2.4/2
! Date: 11/8/2024 2:41:56 PM
! Data: Format (Calibration Info)
! Freq	S11:dB/Ang(F2)	S21:dB/Ang(F2)	S12:dB/Ang(F2)	S22:dB/Ang(F2)
3.00000000000E+05	-1.50122851548E+01	-1.70662451925E+02	5.80426301837E+00	-1.77700620085E+02	-4.28224218087E+01	3.25837775278E+01	-6.00117447095E+00	-1.75426404986E-01
3.22191354595E+05	-1.28391242483E+01	-1.42227833383E+02	5.82650268971E+00	-1.78249579628E+02	-4.25652660417E+01	9.08036657411E+01	-6.00183569093E+00	-4.37347566355E-01
3.44382709190E+05	-1.28086993475E+01	-1.63795452071E+02	5.80646642366E+00	-1.78251908857E+02	-4.47333413034E+01	-8.76234408567E+00	-6.00356567188E+00	-2.77597739196E-01
3.66574063785E+05	-1.64066322213E+01	-1.76720424453E+02	5.84354996704E+00	-1.78675124176E+02	-4.39038351161E+01	8.31285443188E+01	-5.99561162050E+00	-2.79715002678E-01
3.88765418380E+05	-1.30542583605E+01	-1.67386048119E+02	5.75189815129E+00	-1.78933161192E+02	-4.38772836899E+01	8.39662507694E+01	-6.01442227290E+00	-2.78797095086E-01
4.10956772975E+05	-1.39633382882E+01	1.61964573907E+02	5.81749176652E+00	-1.79034284633E+02	-4.24332014327E+01	1.72610070596E+02	-5.98183161470E+00	-2.30923951501E-01
4.33148127570E+05	-1.43034433031E+01	1.69276460734E+02	5.82141456104E+00	-1.79086661140E+02	-5.45560705168E+01	-5.09903462552E+01	-6.02922215598E+00	-2.12283207078E-01
4.55339482165E+05	-1.23408196162E+01	1.76869539557E+02	5.78902786285E+00	-1.79144964359E+02	-4.52637844444E+01	1.03616532850E+02	-5.99324998466E+00	-3.65525520561E-01
4.77530836760E+05	-1.02517316204E+01	1.75318061580E+02	5.78217358756E+00	-1.79573272708E+02	-4.73017327652E+01	4.74961700529E+01	-5.99513711348E+00	-3.58321153055E-01
4.99722191355E+05	-1.40576798273E+01	1.79032666768E+02	5.85175492851E+00	1.79976551797E+02	-3.84249964060E+01	1.74741515199E+02	-6.01858509293E+00	-4.05158945361E-01
5.21913545950E+05	-1.48785501358E+01	-1.53263716184E+02	5.82655786164E+00	1.79755842014E+02	-5.10496627114E+01	1.61340146454E+02	-6.00898133864E+00	-3.00909542192E-01
5.44104900545E+05	-1.23600595016E+01	-1.68622057008E+02	5.80165108793E+00	1.79746380908E+02	-4.39332668116E+01	-3.57754430187E+01	-6.01561333040E+00	-2.93119817650E-01
5.66296255139E+05	-1.16457487855E+01	-1.75130968522E+02	5.80831290629E+00	1.79722257354E+02	-4.14470285660E+01	-3.37501895047E+01	-6.01145243386E+00	-3.68607142651E-01
5.88487609734E+05	-1.25691675211E+01	-1.52647221073E+02	5.80980695430E+00	1.79278843668E+02	-4.28494242464E+01	-1.11622211176E+02	-6.00355007915E+00	-1.96597395101E-01
6.10678964329E+05	-1.58136858586E+01	1.78151869424E+02	5.83621789355E+00	1.79497079219E+02	-4.92480251503E+01	1.27990783057E+02	-6.00433741837E+00	5.29468567093E-02
6.32870318924E+05	-1.30789031830E+01	-1.60728862933E+02	5.83415987689E+00	1.79230988742E+02	-3.89940902239E+01	6.26055248172E+01	-6.01823730635E+00	-2.84127310227E-01
6.55061673519E+05	-1.30641000345E+01	-1.68224488251E+02	5.84697510246E+00	1.79135585295E+02	-4.74512244908E+01	8.20776251777E+01	-6.02564467120E+00	-3.70780886900E-01
6.77253028114E+05	-1.31331449563E+01	-1.75372690671E+02	5.81299928181E+00	1.78950681411E+02	-4.32889561016E+01	-3.05242560839E+01	-6.00371410932E+00	-4.81678946211E-01
6.99444382709E+05	-1.24040852651E+01	1.74270985693E+02	5.80024361389E+00	1.78746651514E+02	-3.78635003366E+01	-1.50907501708E+02	-6.01319418354E+00	-3.25735804783E-01
7.21635737304E+05	-1.23285818619E+01	1.78552352552E+02	5.80840234416E+00	1.78766915153E+02	-4.84082802573E+01	5.16082607183E+01	-6.01781634605E+00	-3.40633561621E-01
7.43827091899E+05	-1.58598725077E+01	-1.55930153408E+02	5.84582083192E+00	1.78512272459E+02	-5.40175676474E+01	-1.42639815983E+01	-6.01393050650E+00	-3.60116895662E-01
7.66018446494E+05	-1.48728471088E+01	-1.42157003497E+02	5.85005565155E+00	1.78120426684E+02	-4.68027639577E+01	-9.32636324364E+00	-5.99282736862E+00	-4.16530933943E-01
7.88209801089E+05	-2.27560167746E+01	-1.35136418996E+02	5.87226477222E+00	1.78360395623E+02	-5.38834520483E+01	2.58894673380E+01	-6.00945799494E+00	-5.29795959806E-01
8.10401155684E+05	-1.21621714087E+01	-1.54093175803E+02	5.77550216786E+00	1.77889532183E+02	-4.16729721654E+01	1.73160769224E+02	-5.98775773074E+00	-4.03905700294E-01
8.32592510279E+05	-1.32794177262E+01	1.77836764180E+02	5.82912537869E+00	1.78177122890E+02	-4.14315848703E+01	4.89754252475E+01	-6.03241603965E+00	-4.30025469826E-01
8.54783864874E+05	-1.54666913119E+01	-1.55159554744E+02	5.83435167946E+00	1.78099509257E+02	-4.18005134765E+01	-5.78849331603E+01	-5.99387433862E+00	-2.91480568655E-01
8.76975219469E+05	-1.20764436854E+01	-1.73750911434E+02	5.82341965287E+00	1.77594623534E+02	-4.90930237312E+01	-6.57294727673E+01	-6.01010573470E+00	-4.39020392948E-01
8.99166574064E+05	-1.39340778913E+01	1.64022225502E+02	5.82016451883E+00	1.78011735166E+02	-4.99120398948E+01	9.78169846646E+00	-6.01204403910E+00	-3.78494478229E-01
9.21357928659E+05	-1.54907833495E+01	-1.79219513976E+02	5.82801778832E+00	1.77830897749E+02	-4.53212612562E+01	-7.54153298895E+01	-6.01479068894E+00	-4.48661868747E-01
9.43549283254E+05	-1.17127454981E+01	-1.78611092619E+02	5.82954919609E+00	1.77458553981E+02	-4.38443034703E+01	1.70280060249E+02	-6.00114866062E+00	-4.90815085411E-01
9.65740637849E+05	-1.30173541954E+01	-1.62000288158E+02	5.76228976180E+00	1.77345048074E+02	-4.21529943434E+01	-3.06599831225E+00	-6.00132084013E+00	-3.70063297997E-01
9.87931992444E+05	-1.34167207374E+01	1.66374952808E+02	5.81811954911E+00	1.77675187772E+02	-3.77587252985E+01	1.03885817873E+02	-5.99188134218E+00	-5.04873479111E-01
1.01012334704E+06	-1.45351814227E+01	-1.71732082495E+02	5.80654780309E+00	1.77106410205E+02	-4.48336886884E+01	-1.30876601692E+01	-6.01317900190E+00	-6.19389204332E-01
1.03231470163E+06	-1.35188189871E+01	-1.70506336188E+02	5.79260064258E+00	1.76726506824E+02	-5.87440118888E+01	-1.97625485498E+01	-5.99624940009E+00	-4.99496397266E-01
1.05450605623E+06	-1.68329572771E+01	1.66093098062E+02	5.84241027279E+00	1.77577602871E+02	-5.59666916827E+01	8.53787567878E+00	-6.03082636232E+00	-4.66528401146E-01
1.07669741082E+06	-1.52815127330E+01	-1.74091454027E+02	5.79218197329E+00	1.76851311438E+02	-4.78013203157E+01	1.62444390757E+02	-6.00174972942E+00	-3.79422402623E-01
1.09888876542E+06	-1.66332755408E+01	-1.58691459033E+02	5.84819494502E+00	1.76875645497E+02	-4.79866294578E+01	1.78333274849E+02	-5.99872027049E+00	-4.42231097920E-01
1.12108012001E+06	-1.39413075545E+01	-1.78319823224E+02	5.81501085071E+00	1.76566187083E+02	-3.82868482225E+01	-1.34608457819E+02	-5.99640782326E+00	-3.71014357878E-01
1.14327147461E+06	-1.34072633591E+01	1.72088750099E+02	5.79537447465E+00	1.76684820142E+02	-3.91186621594E+01	-1.40259042039E+02	-6.00953499951E+00	-5.11599005331E-01
1.16546282920E+06	-1.35896699680E+01	-1.64140091176E+02	5.82839525849E+00	1.76404125365E+02	-4.53168973945E+01	-9.60448761964E+01	-6.00563417296E+00	-4.81237350644E-01
1.18765418380E+06	-1.47941973697E+01	-1.79493440362E+02	5.82312972554E+00	1.76403415330E+02	-4.50105304617E+01	1.07506926477E+02	-5.98361200979E+00	-4.79917627485E-01
1.20984553839E+06	-1.49141733216E+01	-1.71782552587E+02	5.82704934443E+00	1.76235471890E+02	-4.68306846456E+01	7.04354679655E+01	-6.02746145199E+00	-6.16977195112E-01
1.23203689299E+06	-1.50601144506E+01	1.77955885428E+02	5.82471109326E+00	1.76199289673E+02	-4.72543810112E+01	1.19346471631E+02	-6.00706837804E+00	-3.11968444600E-01
1.25422824758E+06	-1.07123208818E+01	-1.67263259221E+02	5.80794887219E+00	1.75992986323E+02	-5.05947633722E+01	-1.42370682869E+02	-5.97995979584E+00	-5.54297756846E-01
1.27641960218E+06	-1.42654349352E+01	-1.71064896135E+02	5.86004070940E+00	1.75654294088E+02	-4.24098353371E+01	1.71024645783E+02	-6.00064950586E+00	-4.21518412987E-01
1.29861095677E+06	-1.41898716643E+01	-1.67860820474E+02	5.82660573575E+00	1.75826483650E+02	-6.45382955720E+01	1.49587349779E+02	-6.00570742467E+00	-5.18727669689E-01
1.32080231137E+06	-1.46783025592E+01	1.72990767307E+02	5.81496531220E+00	1.75801460992E+02	-4.79930051391E+01	2.64290747304E+01	-6.01283129947E+00	-1.02494061598E+00
1.34299366596E+06	-1.52957749746E+01	-1.65993804244E+02	5.84166813987E+00	1.75756308096E+02	-4.82505205932E+01	-1.03459867647E+02	-5.99604736535E+00	-6.73690335610E-01
1.36518502056E+06	-1.36256342559E+01	-1.77501214296E+02	5.86149338591E+00	1.75596183221E+02	-4.05139330160E+01	4.22169890948E+01	-6.03165956644E+00	-7.00812258553E-01
1.38737637515E+06	-1.65499225052E+01	1.74340599790E+02	5.84446486429E+00	1.75425545228E+02	-4.75614986424E+01	-1.34884026226E+02	-5.98366986827E+00	-5.09956016106E-01
1.40956772975E+06	-1.19092546831E+01	-1.58956928454E+02	5.83950359202E+00	1.75167295962E+02	-4.05975262264E+01	9.47330549754E+01	-6.00195910421E+00	-6.70706045505E-01
1.43175908434E+06	-1.48677411261E+01	-1.53777555359E+02	5.82439181175E+00	1.75246190948E+02	-6.60245728916E+01	-1.98213586914E+01	-6.02020468385E+00	-7.85280009078E-01
1.45395043894E+06	-1.53058871354E+01	-1.69250025965E+02	5.85898537567E+00	1.75137832944E+02	-3.98970248159E+01	1.36704188295E+02	-5.99796027504E+00	-6.93224549857E-01
1.47614179353E+06	-1.47306290029E+01	-1.74742275892E+02	5.84227878726E+00	1.75131301464E+02	-3.89300248462E+01	-1.79269145799E+02	-5.99822820424E+00	-4.31984944223E-01
1.49833314813E+06	-1.16998833493E+01	-1.62184599450E+02	5.86600009990E+00	1.74832642841E+02	-4.16541613053E+01	1.27941532705E+02	-5.98552502527E+00	-6.22527552474E-01
1.52052450272E+06	-1.27896041617E+01	-1.54575440611E+02	5.84806708725E+00	1.74926555381E+02	-5.91066643708E+01	1.47417101039E+02	-6.00564119392E+00	-6.33975744998E-01
1.54271585732E+06	-1.20077143974E+01	-1.75829691634E+02	5.80599226977E+00	1.74647900346E+02	-4.64673219079E+01	1.47217478494E+02	-5.99121508100E+00	-4.77946620390E-01
1.56490721191E+06	-1.34409821248E+01	1.74394475285E+02	5.83786701131E+00	1.75006203901E+02	-4.51376362675E+01	2.16297205083E+01	-6.04088493929E+00	-7.74066785140E-01
1.58709856651E+06	-1.73462546514E+01	-1.66221670461E+02	5.78867527164E+00	1.74884393423E+02	-4.76506939879E+01	5.62839097301E+01	-6.00160522107E+00	-8.08545751838E-01
1.60928992110E+06	-1.31890913924E+01	-1.64107331269E+02	5.83454138628E+00	1.74287432264E+02	-4.18066355984E+01	-1.42768767609E+02	-5.97329956161E+00	-6.85967591101E-01
1.63148127570E+06	-1.29111493513E+01	-1.62612906331E+02	5.85306628374E+00	1.74304803743E+02	-4.71879879683E+01	-3.90637330366E+01	-6.02971054269E+00	-7.90012386491E-01
1.65367263029E+06	-1.76473236935E+01	1.66885094164E+02	5.88476741729E+00	1.74389813534E+02	-4.63894048445E+01	-2.33600867428E+01	-5.99152637886E+00	-5.97139130822E-01
1.67586398489E+06	-1.36722274976E+01	1.76463795781E+02	5.82797732113E+00	1.74323074354E+02	-4.75663493127E+01	7.21184196084E+01	-6.02423611399E+00	-8.04081555644E-01
1.69805533948E+06	-1.31459203983E+01	-1.77545261252E+02	5.80480647021E+00	1.74278462215E+02	-5.33578995527E+01	-1.18104246580E+02	-5.98363911331E+00	-6.33713840573E-01
1.72024669408E+06	-8.68763633911E+00	-1.48839164341E+02	5.83713443902E+00	1.73560528671E+02	-5.20002473110E+01	-1.76051241666E+02	-5.99033374349E+00	-7.28293411877E-01
1.74243804867E+06	-1.52307230041E+01	-1.55107522835E+02	5.86341847445E+00	1.74027634302E+02	-4.71775644271E+01	-7.64663598230E+01	-6.01703240628E+00	-6.25689141329E-01
1.76462940327E+06	-1.45261522824E+01	1.78761253569E+02	5.82140518693E+00	1.74233539589E+02	-4.27185975173E+01	1.28184082323E+02	-5.98840585937E+00	-7.49229945631E-01
1.78682075786E+06	-1.33136381726E+01	1.70525407894E+02	5.81649566391E+00	1.73952121646E+02	-3.86042527694E+01	3.67354240454E+01	-5.99718515621E+00	-8.49015764229E-01
1.80901211246E+06	-1.56895678162E+01	1.77285461937E+02	5.83454222642E+00	1.74101753055E+02	-4.87316144209E+01	9.39969146791E+01	-5.98220604350E+00	-5.95998974155E-01
1.83120346705E+06	-1.32702145845E+01	1.66147667289E+02	5.84407182448E+00	1.73911803150E+02	-4.49392175129E+01	1.48985030114E+02	-6.00764213927E+00	-7.62251057995E-01
1.85339482165E+06	-1.19227496935E+01	-1.69656889177E+02	5.83119403240E+00	1.73731191245E+02	-5.19206975164E+01	5.47959860995E+00	-5.99931127121E+00	-7.46980910383E-01
1.87558617624E+06	-1.26186812982E+01	1.06263888138E+02	5.83970058765E+00	1.74135733865E+02	-4.93194689482E+01	-1.76670571814E+02	-6.00196811392E+00	-8.43543823314E-01
1.89777753084E+06	-5.64647161321E+00	-1.68098509742E+02	5.81878016225E+00	1.72862073035E+02	-4.79820018663E+01	8.37692160134E+01	-6.03062709802E+00	-8.21633428884E-01
1.91996888543E+06	-1.11419220878E+01	-1.66945186459E+02	5.81126429381E+00	1.72968732769E+02	-4.59630773670E+01	-1.49455399238E+02	-6.00975109996E+00	-6.12516816190E-01
1.94216024003E+06	-1.07214990391E+01	-1.78987139336E+02	5.83026449828E+00	1.73398194939E+02	-3.88281816534E+01	9.25324859998E+01	-5.98912866853E+00	-7.00959218834E-01
1.96435159462E+06	-1.36735007788E+01	-1.51637656235E+02	5.87538774401E+00	1.72477781798E+02	-4.47442258786E+01	8.67083062128E+01	-5.99840599952E+00	-9.13141085739E-01
1.98654294922E+06	-1.49719353390E+01	1.79852726908E+02	5.80506236938E+00	1.72905890852E+02	-4.56878454539E+01	1.01144868648E+02	-6.00352162173E+00	-8.20549263565E-01
2.00873430381E+06	-1.92762800558E+01	-1.66998101476E+02	5.85071376688E+00	1.73010351997E+02	-5.19218172013E+01	-7.98669140443E+01	-6.00865912378E+00	-7.80091544122E-01
2.03092565841E+06	-1.07177345531E+01	-1.63498135428E+02	5.81317385575E+00	1.72772674465E+02	-5.44114852523E+01	-6.36338554400E+01	-5.98339163457E+00	-8.56143183449E-01
2.05311701300E+06	-1.05539315403E+01	1.79860442879E+02	5.83583421563E+00	1.72546848268E+02	-4.48189159707E+01	9.58471865181E+01	-5.99885235241E+00	-9.47479521101E-01
2.07530836760E+06	-1.40417527236E+01	-1.59883959242E+02	5.87086925175E+00	1.72613647099E+02	-3.95928815767E+01	-1.45636514155E+02	-5.99977864326E+00	-7.88968445836E-01
2.09749972219E+06	-1.11163078877E+01	1.74794172171E+02	5.85994543447E+00	1.72522285584E+02	-3.93350001189E+01	-4.84962710650E+01	-6.04515237712E+00	-8.60015001683E-01
2.11969107679E+06	-1.44656779297E+01	-1.71841812936E+02	5.86141655398E+00	1.72438302678E+02	-4.15690673651E+01	-9.22267719175E+01	-5.98278725563E+00	-8.17821828471E-01
2.14188243138E+06	-1.31706648178E+01	-1.76742713823E+02	5.84450568253E+00	1.72364977541E+02	-5.30267039937E+01	6.32577758178E+01	-6.02634769699E+00	-1.00469363770E+00
2.16407378598E+06	-1.51113043697E+01	-1.60550745756E+02	5.86945527890E+00	1.72363919080E+02	-4.75563089507E+01	2.21819859006E+01	-6.00656158718E+00	-8.57073247656E-01
2.18626514057E+06	-1.62298201028E+01	1.61695090429E+02	5.83277719283E+00	1.72325496127E+02	-4.51865346034E+01	1.49955451511E+02	-5.99452785342E+00	-9.77800717251E-01
2.20845649517E+06	-1.12552712719E+01	-1.48688790031E+02	5.93889812478E+00	1.71821204410E+02	-4.60102120758E+01	4.82626291081E+01	-6.00200588301E+00	-8.92319202458E-01
2.23064784976E+06	-1.40008263197E+01	-1.74859262476E+02	5.84553953546E+00	1.72067726723E+02	-4.34582669461E+01	2.27445359502E+01	-6.01536948202E+00	-9.99994551600E-01
2.25283920436E+06	-1.71272251439E+01	1.78540514945E+02	5.89049584172E+00	1.72240789245E+02	-3.42626233455E+01	8.01399361260E+01	-5.96627693501E+00	-1.20157012382E+00
2.27503055895E+06	-1.51810265480E+01	-1.70787471502E+02	5.85260180419E+00	1.71854703566E+02	-5.10732115443E+01	-1.29900839535E+02	-5.99725988861E+00	-1.04316475791E+00
2.29722191355E+06	-1.44804384441E+01	-1.56031837336E+02	5.86950354616E+00	1.71928273847E+02	-5.16384438147E+01	1.50426814963E+02	-5.99558559662E+00	-1.07169195650E+00
2.31941326814E+06	-1.47645990320E+01	-1.54907084727E+02	5.85596814816E+00	1.71329919187E+02	-4.02765020452E+01	5.15255582767E+01	-6.03614494569E+00	-1.18585245020E+00
2.34160462274E+06	-2.32283085869E+01	-1.37142484808E+02	5.87258760320E+00	1.72195984146E+02	-4.78278671975E+01	-1.71796519789E+02	-5.99271545942E+00	-1.08306619172E+00
2.36379597733E+06	-5.14318071364E+00	-1.72600065457E+02	5.82627292853E+00	1.70639501660E+02	-4.72460939282E+01	-1.79462003788E+02	-5.99315426251E+00	-9.33637739134E-01
2.38598733193E+06	-1.26690680962E+01	1.73787538481E+02	5.83008172702E+00	1.71536640620E+02	-4.55589203038E+01	-8.58117662482E+01	-6.00374485031E+00	-1.03014474734E+00
2.40817868652E+06	-1.22797369190E+01	-1.72633772152E+02	5.85614743485E+00	1.71417119036E+02	-3.24422590408E+01	1.04851516090E+02	-5.96556618266E+00	-1.21411353113E+00
2.43037004112E+06	-1.14355763531E+01	-1.63631894499E+02	5.84169023052E+00	1.70951301158E+02	-4.00755036992E+01	8.96157650801E+01	-5.98609197735E+00	-1.52937591994E+00
2.45256139571E+06	-1.28162875380E+01	-1.54651237028E+02	5.88434326442E+00	1.71004640146E+02	-4.43213977891E+01	5.15016680503E+01	-6.00699369031E+00	-1.00929704318E+00
2.47475275031E+06	-1.76182615279E+01	-1.71968040086E+02	5.88513088552E+00	1.71276377607E+02	-5.31509697994E+01	3.33423461399E+01	-6.00724052988E+00	-9.26573127508E-01
2.49694410490E+06	-2.01721643346E+01	-1.56952039365E+02	5.91922212449E+00	1.70890490873E+02	-4.94363353743E+01	-1.34828544291E+02	-6.00156933300E+00	-1.03387075942E+00
2.51913545950E+06	-8.06211874980E+00	1.63231681044E+02	5.78945083512E+00	1.70652189958E+02	-5.06261398261E+01	-4.09098093977E+01	-6.02241419376E+00	-9.99420114055E-01
2.54132681409E+06	-1.27087442020E+01	-1.64549125845E+02	5.87215246918E+00	1.70740154746E+02	-4.18578685776E+01	-5.67060504141E+01	-6.01154447427E+00	-8.81651402068E-01
2.56351816869E+06	-1.31991004553E+01	-1.75589087842E+02	5.88813884481E+00	1.70749412906E+02	-4.23663406627E+01	5.39778411339E+01	-6.00758926408E+00	-1.23352059239E+00
2.58570952328E+06	-1.55438377569E+01	-1.75711010572E+02	5.92155564245E+00	1.70826226493E+02	-4.71215564022E+01	-1.48716110474E+02	-6.02208851617E+00	-9.41634445207E-01
2.60790087788E+06	-1.51466971565E+01	-1.55179801455E+02	5.91275263112E+00	1.70619042633E+02	-4.75924312802E+01	-1.12265330888E+02	-6.01352895409E+00	-1.02112219511E+00
2.63009223247E+06	-1.24983092721E+01	-1.61879223002E+02	5.89130699517E+00	1.70226197536E+02	-4.67347344349E+01	-5.99241557076E+01	-6.01354290606E+00	-8.80454185004E-01
2.65228358707E+06	-1.26027361073E+01	-1.73618536542E+02	5.87956714250E+00	1.70338752203E+02	-4.04320971449E+01	8.38785952834E+01	-5.98787987951E+00	-1.11335053667E+00
2.67447494166E+06	-1.01301170844E+01	-1.74511688674E+02	5.80583587074E+00	1.69888375289E+02	-4.93921452509E+01	-1.55005885323E+02	-5.98548223394E+00	-1.00754076022E+00
2.69666629626E+06	-1.38926515887E+01	-1.54141592197E+02	5.87752277652E+00	1.70191990412E+02	-4.84370007139E+01	7.19569205604E+01	-6.00217813698E+00	-1.26934079350E+00
2.71885765085E+06	-1.21881466922E+01	-1.70592433663E+02	5.82453898450E+00	1.70169999729E+02	-4.55262960922E+01	1.47298475562E+02	-6.00042443077E+00	-1.12489739077E+00
2.74104900545E+06	-1.62696759901E+01	-1.74474377817E+02	5.88653500551E+00	1.70209257176E+02	-4.57938717087E+01	-4.44983706643E+01	-6.00155046984E+00	-1.11660531011E+00
2.76324036004E+06	-1.38067299454E+01	1.75484244884E+02	5.82495871573E+00	1.70276417550E+02	-5.86996853035E+01	-2.48799276069E+01	-6.00483110701E+00	-1.03073490991E+00
2.78543171463E+06	-1.44168832921E+01	-1.56515343502E+02	5.90644141582E+00	1.69704357911E+02	-5.25337069131E+01	-1.72009550428E+02	-5.99704448983E+00	-1.16845818637E+00
2.80762306923E+06	-1.61408153043E+01	-1.48718827550E+02	5.91834777682E+00	1.69701854310E+02	-5.05052424893E+01	7.18550453354E+01	-6.00257027356E+00	-1.14456533497E+00
2.82981442382E+06	-1.66823719643E+01	1.63325713451E+02	5.90700347627E+00	1.70073824783E+02	-5.45277370918E+01	1.47000805357E+02	-5.96845132370E+00	-1.21352930200E+00
2.85200577842E+06	-1.72409666738E+01	-1.59491105575E+02	5.94033060588E+00	1.69502462774E+02	-4.25525992305E+01	9.70417127127E+01	-5.97665299084E+00	-1.29500478830E+00
2.87419713301E+06	-1.35090752445E+01	-1.78950261780E+02	5.88644409758E+00	1.69584155792E+02	-4.00732355049E+01	1.72542109359E+02	-5.98118458266E+00	-1.10058801241E+00
