# Hz S DB R 50
! CMT, M5065, 19127446, 24.2.4/2
! Date: 11/8/2024 2:49:03 PM
! Data: Format (Calibration Info)
! Freq	S11:dB/Ang(F2)	S21:dB/Ang(F2)	S12:dB/Ang(F2)	S22:dB/Ang(F2)
3.00000000000E+05	-1.84173184959E+01	-1.43318829523E+02	6.12548714527E+00	-1.77824378987E+02	-4.02919397492E+01	1.93397755405E+01	-6.01977591380E+00	-3.10776588602E-01
3.22191354595E+05	-1.49564843205E+01	1.78740654489E+02	6.12105027793E+00	-1.78186838292E+02	-4.17928702160E+01	1.01638828292E+02	-5.97987543744E+00	-3.11226795134E-01
3.44382709190E+05	-1.38606226015E+01	-1.65901946604E+02	6.11791631573E+00	-1.78489718530E+02	-4.19057811264E+01	8.36404399191E+01	-5.98790840465E+00	-3.96491867709E-01
3.66574063785E+05	-1.53266873213E+01	-1.51026830436E+02	6.10179761582E+00	-1.78870018752E+02	-4.20197790661E+01	-1.13122398985E+02	-6.01025217924E+00	-1.12442513151E-01
3.88765418380E+05	-1.66721956835E+01	1.71883335011E+02	6.12868197868E+00	-1.78740485515E+02	-5.59379291551E+01	-6.14685033447E+01	-5.99879287548E+00	-3.83255511046E-01
4.10956772975E+05	-1.32996005538E+01	-1.72343810037E+02	6.09895870053E+00	-1.78832564184E+02	-3.55094357188E+01	-8.23110299280E+01	-6.01377759614E+00	-9.40645964890E-02
4.33148127570E+05	-1.44978991616E+01	1.70214298002E+02	6.05501125380E+00	-1.79280962520E+02	-4.66454225567E+01	7.89084371817E+01	-6.00207910661E+00	-2.99215586048E-01
4.55339482165E+05	-1.27850775406E+01	-1.66444833445E+02	6.13435002801E+00	-1.79529748610E+02	-4.80154728074E+01	8.60220768745E+01	-5.96994162443E+00	-3.59591170586E-01
4.77530836760E+05	-1.24307948196E+01	-1.74474121219E+02	6.09072896479E+00	-1.79642433988E+02	-4.38832014075E+01	-1.48376286821E+01	-6.02358218132E+00	-3.15882574818E-01
4.99722191355E+05	-1.25193627670E+01	-1.58422005299E+02	6.06932385824E+00	1.79692158526E+02	-4.50772896466E+01	6.84552178749E+01	-5.97919840986E+00	-3.62900148126E-01
5.21913545950E+05	-1.50839641165E+01	1.60596288234E+02	6.11074738239E+00	1.79981453943E+02	-4.35072688090E+01	8.48972159562E+01	-6.02344333250E+00	-3.87617397311E-01
5.44104900545E+05	-1.22736335944E+01	1.72119853232E+02	6.09058847603E+00	1.79798602976E+02	-4.37309193443E+01	-8.94603425636E+00	-6.02126792310E+00	-2.24877569544E-01
5.66296255139E+05	-1.39568790965E+01	-1.77257709335E+02	6.07193458426E+00	1.79569522715E+02	-4.29772648647E+01	8.30562745452E+01	-5.98270954208E+00	-2.73552467460E-01
5.88487609734E+05	-1.31573603446E+01	1.74325426656E+02	6.14473232634E+00	1.79847724426E+02	-4.58469706046E+01	-1.34468003532E+02	-6.00936206950E+00	-2.46756348297E-01
6.10678964329E+05	-1.77351863017E+01	1.20052947837E+02	6.12503549420E+00	1.79436306014E+02	-4.36843000168E+01	-7.72823815466E+01	-6.00521740037E+00	2.44915550090E-01
6.32870318924E+05	-1.41346107168E+01	-1.61591480219E+02	6.05894465331E+00	1.78869543441E+02	-4.68563832979E+01	-3.74962121022E+00	-6.00742254274E+00	5.66964244711E-02
6.55061673519E+05	-1.59414221288E+01	-1.67572010407E+02	6.12771088170E+00	1.79119620335E+02	-4.69585323663E+01	7.08792469302E+01	-6.00827756128E+00	-2.11121554967E-01
6.77253028114E+05	-1.41451835676E+01	1.71259692535E+02	6.10900483046E+00	1.78988717927E+02	-4.49087422556E+01	-8.37579437369E+01	-6.02526135493E+00	-6.29815594850E-01
6.99444382709E+05	-1.68590039541E+01	1.74393941578E+02	6.16294054201E+00	1.78568918361E+02	-4.26952716035E+01	3.31016622797E+00	-5.99705411682E+00	-4.41809864457E-01
7.21635737304E+05	-1.40357333681E+01	1.66688414140E+02	6.12269819878E+00	1.78870383545E+02	-4.56049978226E+01	-8.51005581899E+01	-6.02305307752E+00	-3.10695823935E-01
7.43827091899E+05	-1.18465341714E+01	1.66950534374E+02	6.08716282031E+00	1.78347847560E+02	-4.45652239200E+01	2.24340616054E+01	-6.02883267631E+00	-4.05111086800E-01
7.66018446494E+05	-1.53310008837E+01	1.57879079120E+02	6.12233951620E+00	1.78490364313E+02	-5.18599539348E+01	-1.36411125389E+02	-5.99239595930E+00	-2.18680002563E-01
7.88209801089E+05	-1.27624041024E+01	-1.74050697313E+02	6.10382354808E+00	1.78438389656E+02	-4.51178115241E+01	1.00519996942E+02	-5.99557980782E+00	-4.08685817209E-01
8.10401155684E+05	-1.27639653998E+01	-1.54783213062E+02	6.12062739033E+00	1.78243837243E+02	-4.63306316390E+01	-1.49777707352E+02	-5.98705926797E+00	-2.85748509238E-01
8.32592510279E+05	-1.35604456012E+01	-1.74523865767E+02	6.07393660873E+00	1.77840419401E+02	-4.08535839495E+01	2.61001799463E+01	-6.01086867584E+00	-5.60367552166E-01
8.54783864874E+05	-1.74802289230E+01	-1.73544991244E+02	6.13305966052E+00	1.78090176205E+02	-4.49098578338E+01	-8.44056595954E+01	-6.00911861368E+00	-2.29053118206E-01
8.76975219469E+05	-1.49167004373E+01	-1.71791927371E+02	6.08360183591E+00	1.77834793373E+02	-5.83952759714E+01	5.94897050536E+01	-5.99176884523E+00	-4.57835405105E-01
8.99166574064E+05	-1.05054413804E+01	1.75450496283E+02	6.04902579131E+00	1.77730796955E+02	-4.74546219496E+01	1.73800502662E+02	-6.00825552509E+00	-4.70994537803E-01
9.21357928659E+05	-1.37612502102E+01	1.78148662594E+02	6.12541800480E+00	1.77521417295E+02	-4.32871100027E+01	-1.39117535185E+01	-6.00617053116E+00	-4.11394113289E-01
9.43549283254E+05	-1.20453004803E+01	-1.71415276810E+02	6.10539320763E+00	1.77126658389E+02	-4.16748282857E+01	8.56019949771E+01	-6.00835276515E+00	-5.72270091779E-01
9.65740637849E+05	-1.45053912722E+01	1.76710587233E+02	6.10263401414E+00	1.77474695549E+02	-4.96937403171E+01	-6.97274669547E+00	-5.99439486515E+00	-4.51579241746E-01
9.87931992444E+05	-1.38612673999E+01	-1.55124370830E+02	6.12820426724E+00	1.76806579193E+02	-5.21428094038E+01	-4.88356616429E+01	-6.00837277185E+00	-4.17874564844E-01
1.01012334704E+06	-1.60273659491E+01	1.66622786056E+02	6.12903127851E+00	1.77151994579E+02	-4.36996805234E+01	1.35018244412E+02	-5.97329275301E+00	-4.27727282793E-01
1.03231470163E+06	-1.29344558461E+01	-1.62287582439E+02	6.11255437362E+00	1.76877521247E+02	-4.00046806501E+01	1.70466899442E+02	-5.97482194291E+00	-5.85896770234E-01
1.05450605623E+06	-1.27222870589E+01	1.79854670862E+02	6.06322410520E+00	1.77045047723E+02	-4.92846325033E+01	-1.63866997901E+02	-6.01721109839E+00	-3.71740525385E-01
1.07669741082E+06	-1.57112041137E+01	-1.56810693141E+02	6.14420175490E+00	1.76986106188E+02	-4.41055559737E+01	9.64680260899E+01	-6.00396678106E+00	-5.47324477512E-01
1.09888876542E+06	-1.52038463466E+01	-1.74511479990E+02	6.14854783721E+00	1.76561970695E+02	-4.41184034239E+01	-1.44296209246E+02	-5.99996009210E+00	-4.57283720433E-01
1.12108012001E+06	-1.28740706466E+01	-1.78584655361E+02	6.14184816741E+00	1.76694202163E+02	-3.59023480043E+01	-1.36298257092E+02	-5.99558890847E+00	-3.80891714549E-01
1.14327147461E+06	-1.46558258453E+01	1.72095743069E+02	6.08932315474E+00	1.76584993503E+02	-5.38551086549E+01	1.37806871332E+02	-5.98345540062E+00	-5.14927483553E-01
1.16546282920E+06	-1.45124473158E+01	-1.68178960010E+02	6.13441652286E+00	1.76273026173E+02	-4.29894620066E+01	-9.24291767881E-01	-6.02807136561E+00	-5.05339139914E-01
1.18765418380E+06	-1.54358360021E+01	-1.64761868770E+02	6.17387354108E+00	1.76425387879E+02	-6.43458550623E+01	1.18634534896E+02	-6.01881419679E+00	-6.09410564955E-01
1.20984553839E+06	-1.44484233243E+01	1.79805934959E+02	6.11476185717E+00	1.76291405260E+02	-4.16999970781E+01	3.46892666343E+00	-6.01283467715E+00	-9.02278378715E-01
1.23203689299E+06	-1.19600826867E+01	-1.57779464240E+02	6.11430759138E+00	1.75931127155E+02	-4.92430168063E+01	1.69270908450E+01	-6.01433995993E+00	-4.46181778293E-01
1.25422824758E+06	-1.32107632128E+01	-1.77080864145E+02	6.09559071520E+00	1.75883018448E+02	-5.77159034211E+01	6.70604564318E+01	-5.98939312591E+00	-5.09611428809E-01
1.27641960218E+06	-1.41296558859E+01	-1.73743998860E+02	6.18041062218E+00	1.75813493907E+02	-4.66301316863E+01	-1.35749103104E+02	-5.99776539339E+00	-4.28821964826E-01
1.29861095677E+06	-1.33825853149E+01	-1.74679570749E+02	6.10522237484E+00	1.75732667347E+02	-3.95802382310E+01	-1.22188271319E+02	-5.99869522330E+00	-5.03007193437E-01
1.32080231137E+06	-1.18090603046E+01	-1.73088324680E+02	6.07519604127E+00	1.75627107917E+02	-5.51585583614E+01	1.08724910680E+02	-5.98880501144E+00	-7.75468353128E-01
1.34299366596E+06	-1.33506290099E+01	-1.72848932959E+02	6.11535122229E+00	1.75265564211E+02	-4.13144307024E+01	6.53421407867E+01	-5.98320091860E+00	-7.79347879955E-01
1.36518502056E+06	-1.28810522941E+01	-1.66805888065E+02	6.15424881292E+00	1.75024453681E+02	-5.87487800459E+01	8.23994294084E+01	-6.03407595253E+00	-6.90637532061E-01
1.38737637515E+06	-1.25523149446E+01	1.59640743058E+02	6.10518937478E+00	1.75267280767E+02	-5.32168060523E+01	1.41022493406E+02	-5.98651010384E+00	-6.08141127603E-01
1.40956772975E+06	-1.71851364164E+01	1.71780322790E+02	6.09491190852E+00	1.75192442736E+02	-3.87863195623E+01	1.60630079491E+02	-5.98960936505E+00	-6.82987091259E-01
1.43175908434E+06	-1.49765986089E+01	1.59449015271E+02	6.16575303704E+00	1.75394478947E+02	-3.60471248374E+01	-1.33475369254E+02	-6.01094201324E+00	-5.64116488113E-01
1.45395043894E+06	-1.26749547236E+01	1.64438550029E+02	6.12511002236E+00	1.75175540562E+02	-4.48959550577E+01	1.73941992653E+02	-5.99208260879E+00	-5.60313064272E-01
1.47614179353E+06	-1.40762557122E+01	-1.73617793904E+02	6.10057702755E+00	1.74923378328E+02	-4.08470684329E+01	-1.25541294458E+02	-6.01294014614E+00	-5.22502453991E-01
1.49833314813E+06	-1.29415669166E+01	-1.69562095857E+02	6.10789774592E+00	1.75014497642E+02	-4.74748263611E+01	8.35226129156E+00	-6.00938191332E+00	-8.41736092995E-01
1.52052450272E+06	-1.20398029297E+01	-1.77657218680E+02	6.08131386942E+00	1.74737895397E+02	-4.65869270398E+01	7.98463528946E+01	-6.00907965024E+00	-7.65983030906E-01
1.54271585732E+06	-1.78238802332E+01	-1.65177187904E+02	6.16724958475E+00	1.74918566617E+02	-4.53718492167E+01	-1.60169181492E+02	-5.98316132800E+00	-5.35796538104E-01
1.56490721191E+06	-1.68679036992E+01	1.70107367676E+02	6.13476466838E+00	1.74881910565E+02	-3.89938779455E+01	9.77937109828E+01	-6.00072692933E+00	-9.39741161808E-01
1.58709856651E+06	-1.25921984646E+01	-1.54053793058E+02	6.13045957064E+00	1.74191600596E+02	-4.33765985185E+01	-2.15251590721E+01	-6.01310623359E+00	-9.89441298718E-01
1.60928992110E+06	-1.30687955984E+01	-1.78679457381E+02	6.10050855790E+00	1.74445818765E+02	-4.90789448414E+01	-1.86453238360E+01	-6.01902157850E+00	-6.05218000063E-01
1.63148127570E+06	-1.20916048724E+01	-1.73175080194E+02	6.11267737684E+00	1.74119032676E+02	-5.06636237296E+01	3.24860211459E+01	-6.01243101276E+00	-6.47600865790E-01
1.65367263029E+06	-1.52155174770E+01	-1.75068421527E+02	6.13358368281E+00	1.74034437032E+02	-4.61885892095E+01	1.30413069700E+02	-5.96076278624E+00	-7.49420523755E-01
1.67586398489E+06	-1.27525503108E+01	-1.62364653820E+02	6.12450034966E+00	1.74039359500E+02	-4.07588628698E+01	-1.47315224945E+02	-6.00588577324E+00	-6.77178344478E-01
1.69805533948E+06	-1.12546747838E+01	1.62346533401E+02	6.08573263514E+00	1.73961571537E+02	-4.73809552862E+01	-2.19447672314E+01	-6.03104221283E+00	-7.84295659317E-01
1.72024669408E+06	-1.26477953482E+01	-1.63733281879E+02	6.12901536732E+00	1.73805959426E+02	-4.24216093331E+01	-1.55974403018E+01	-6.02044622408E+00	-8.30396441853E-01
1.74243804867E+06	-1.34805295059E+01	1.75157994051E+02	6.08775640908E+00	1.73782723131E+02	-4.58219643745E+01	-1.83517472384E+01	-6.01413078655E+00	-8.07275661319E-01
1.76462940327E+06	-1.40641960974E+01	-1.55811335469E+02	6.14018871059E+00	1.73840760939E+02	-4.18731970986E+01	-1.33830456440E+02	-6.00895203246E+00	-8.26911831830E-01
1.78682075786E+06	-1.30011032933E+01	-1.72772585958E+02	6.15765190887E+00	1.73769144409E+02	-4.03445841623E+01	-5.21858050771E+01	-6.00341466430E+00	-8.06348599478E-01
1.80901211246E+06	-1.19177092803E+01	-1.78400879479E+02	6.12368805076E+00	1.73531259575E+02	-4.00429509292E+01	1.01158993756E+02	-5.99529920671E+00	-9.42233679724E-01
1.83120346705E+06	-1.42404891652E+01	-1.69869178204E+02	6.13525851913E+00	1.73632022983E+02	-5.74196783874E+01	-1.53786739947E+02	-5.98957231324E+00	-7.62209669603E-01
1.85339482165E+06	-2.29982879448E+01	-1.45045865658E+02	6.17031921327E+00	1.73666355504E+02	-4.69125708374E+01	-3.21415820073E+01	-6.02060805634E+00	-7.21005648409E-01
1.87558617624E+06	-1.53621230615E+01	-1.76115052429E+02	6.15664770476E+00	1.73261298185E+02	-4.25786144244E+01	5.15171019424E+01	-5.99425611897E+00	-8.55828636230E-01
1.89777753084E+06	-1.33982995649E+01	-1.72523588576E+02	6.12220894272E+00	1.73369312025E+02	-3.88308242194E+01	1.40826420987E+02	-5.98759007152E+00	-7.56840512620E-01
1.91996888543E+06	-1.50846207590E+01	-1.73271583120E+02	6.15415929416E+00	1.72868582380E+02	-4.04089439902E+01	2.70086805288E+01	-5.98187324215E+00	-8.46334729201E-01
1.94216024003E+06	-1.63599683209E+01	-1.73259789968E+02	6.14603594358E+00	1.73445167535E+02	-4.64566580638E+01	-1.51025478463E+02	-5.98514276523E+00	-7.42923968239E-01
1.96435159462E+06	-1.03180075654E+01	-1.68568965681E+02	6.12613582060E+00	1.72937365956E+02	-4.41933625111E+01	-1.68234095187E+02	-6.00403047974E+00	-7.92047330116E-01
1.98654294922E+06	-1.17227650969E+01	-1.74080411631E+02	6.10747246655E+00	1.72743567365E+02	-5.11375079688E+01	1.37395378060E+02	-5.99811926072E+00	-7.76538528006E-01
2.00873430381E+06	-1.46963401243E+01	1.65888634656E+02	6.05781323878E+00	1.72827668553E+02	-4.91246596552E+01	1.63929019934E+02	-5.98698721391E+00	-8.23848573665E-01
2.03092565841E+06	-1.77238742209E+01	-1.74189443299E+02	6.16310013223E+00	1.73017134075E+02	-4.61871098755E+01	8.37460017287E+01	-5.99708191648E+00	-8.99255367294E-01
2.05311701300E+06	-1.99048219514E+01	-1.53243822953E+02	6.18586622595E+00	1.72671507778E+02	-3.78492950795E+01	-3.09192331124E+01	-6.00928292032E+00	-9.58893009379E-01
2.07530836760E+06	-1.43523753007E+01	1.67799241347E+02	6.10720844195E+00	1.72735138387E+02	-3.95945972513E+01	-1.26097457667E+02	-5.98224417319E+00	-7.59683538418E-01
2.09749972219E+06	-1.33259724930E+01	-1.71169005121E+02	6.12487417054E+00	1.72390817224E+02	-4.62653895785E+01	9.83584195615E+01	-5.99367871762E+00	-1.01004120726E+00
2.11969107679E+06	-1.44961464242E+01	1.73992471204E+02	6.13676654866E+00	1.72176630968E+02	-4.39182232947E+01	-8.72369430693E+01	-6.00418554825E+00	-7.61482923331E-01
2.14188243138E+06	-1.66317201032E+01	-1.65041634013E+02	6.16624267723E+00	1.72441265642E+02	-4.46180476366E+01	-1.84211437484E+01	-5.99846912942E+00	-9.19661113863E-01
2.16407378598E+06	-1.70445223574E+01	-1.70649444733E+02	6.13720890656E+00	1.72578306837E+02	-4.05998895641E+01	1.43094320304E+02	-5.96074800127E+00	-1.02101131391E+00
2.18626514057E+06	-1.48656201883E+01	-1.49086161649E+02	6.20494088253E+00	1.72182305947E+02	-4.20320122157E+01	-3.49694161758E+01	-6.00734324318E+00	-1.00761916401E+00
2.20845649517E+06	-1.41883665562E+01	-1.77492855038E+02	6.14383281211E+00	1.71917123842E+02	-3.52452136134E+01	6.76118987739E+01	-6.00030857366E+00	-1.26193382979E+00
2.23064784976E+06	-1.44305903735E+01	-1.74879755578E+02	6.14379334758E+00	1.72011983189E+02	-3.60687629194E+01	-1.08409667253E+02	-6.01858796395E+00	-8.31990041836E-01
2.25283920436E+06	-1.57700897902E+01	-1.62110017217E+02	6.16295297961E+00	1.71796976904E+02	-4.44160635965E+01	-3.38068206505E+01	-6.02437207578E+00	-1.00897974269E+00
2.27503055895E+06	-1.42482714481E+01	-1.72700312004E+02	6.12935241103E+00	1.71961982650E+02	-4.90695655572E+01	6.61289032584E+01	-6.01161131421E+00	-1.07872297759E+00
2.29722191355E+06	-1.55094210956E+01	-1.71945707817E+02	6.12864365072E+00	1.71408218942E+02	-5.02680290389E+01	-7.42091495997E+01	-6.00465079568E+00	-9.54366898671E-01
2.31941326814E+06	-1.37335184654E+01	1.67354655516E+02	6.12113699927E+00	1.72051134040E+02	-4.36348366958E+01	-5.67576446569E+01	-5.98893315620E+00	-9.92345588568E-01
2.34160462274E+06	-1.88467852794E+01	-1.35830647819E+02	6.19395681198E+00	1.71824242248E+02	-4.38133935991E+01	-1.43818019603E+02	-6.00855633688E+00	-9.38204864144E-01
2.36379597733E+06	-1.27935331458E+01	1.77051733335E+02	6.12202804846E+00	1.71593384048E+02	-3.12661466878E+01	-1.43457347898E+02	-5.99620039304E+00	-6.89897852639E-01
2.38598733193E+06	-1.32102454610E+01	-1.69394712783E+02	6.12006408412E+00	1.71303616801E+02	-4.07757972577E+01	-1.18754891545E+02	-6.00284307767E+00	-7.99556834813E-01
2.40817868652E+06	-1.24822580497E+01	-1.70658941880E+02	6.13885248179E+00	1.71091385594E+02	-3.81557486400E+01	1.04890650768E+02	-5.99425515540E+00	-1.20294737827E+00
2.43037004112E+06	-1.28772579196E+01	-1.73689926505E+02	6.14914736869E+00	1.70907800850E+02	-4.63921917336E+01	-9.31747039449E+01	-5.98042713284E+00	-1.45991733447E+00
2.45256139571E+06	-1.48566281946E+01	1.54685234354E+02	6.15103592418E+00	1.71357400401E+02	-4.89237161714E+01	5.98351828870E+00	-5.99472813733E+00	-9.71305859430E-01
2.47475275031E+06	-1.30588893984E+01	1.56858938786E+02	6.11356335496E+00	1.70818692384E+02	-4.71514942728E+01	7.41758170041E+01	-6.00349974785E+00	-1.18977877341E+00
2.49694410490E+06	-8.94959645462E+00	1.72804244769E+02	6.09829706244E+00	1.70559700091E+02	-4.11281277995E+01	-7.02915128526E+01	-5.98032100777E+00	-9.71037833314E-01
2.51913545950E+06	-1.63854871735E+01	1.79702856552E+02	6.15026521774E+00	1.70788332569E+02	-3.90277650996E+01	3.32919248152E+01	-6.01319632459E+00	-1.10713771502E+00
2.54132681409E+06	-1.44323373662E+01	-1.71519714561E+02	6.20209449894E+00	1.70551013009E+02	-3.60998857900E+01	1.57088272662E+02	-5.97779581247E+00	-1.12736241310E+00
2.56351816869E+06	-1.54429511302E+01	1.75871755215E+02	6.15344398198E+00	1.70574459868E+02	-4.71278436951E+01	4.16633499009E+01	-5.99606472337E+00	-1.18775967542E+00
2.58570952328E+06	-1.23244165238E+01	-1.67324034993E+02	6.15078163964E+00	1.70433150000E+02	-4.00428345113E+01	-8.37676933780E+01	-6.02893104089E+00	-1.03364043720E+00
2.60790087788E+06	-1.36711273699E+01	-1.76748820661E+02	6.15392469847E+00	1.70511765282E+02	-5.97292295365E+01	-1.10558351634E+02	-6.01282790294E+00	-1.07852868590E+00
2.63009223247E+06	-1.50133992138E+01	-1.68196943296E+02	6.20257704433E+00	1.70331217690E+02	-4.50182439655E+01	-2.79005459466E+01	-6.02272918269E+00	-8.57117237042E-01
2.65228358707E+06	-7.83704283968E+00	-1.61966650233E+02	6.17312732099E+00	1.69391004243E+02	-4.66847587248E+01	1.17926108868E+02	-5.98667336635E+00	-1.18985386689E+00
2.67447494166E+06	-1.41709092814E+01	-1.67539342764E+02	6.14964213482E+00	1.70153052563E+02	-4.36142484363E+01	-5.57354553207E+01	-5.99048249573E+00	-1.01541919751E+00
2.69666629626E+06	-1.05168507481E+01	-1.62913679014E+02	6.19471949103E+00	1.69448998115E+02	-4.03850101112E+01	1.49720329870E+01	-6.01334512443E+00	-1.38772825629E+00
2.71885765085E+06	-1.72861156488E+01	-1.65854959919E+02	6.19991011854E+00	1.70228307144E+02	-4.07299384053E+01	-5.87897886133E+01	-6.02473612597E+00	-1.12295459642E+00
2.74104900545E+06	-1.21159978046E+01	-1.76390244596E+02	6.14999646373E+00	1.69775171734E+02	-4.73611521612E+01	8.92920868664E+01	-5.98250177373E+00	-1.23353547279E+00
2.76324036004E+06	-1.25343879255E+01	-1.56216286555E+02	6.17382099083E+00	1.69349545361E+02	-4.62107496861E+01	-1.09160327566E+02	-6.02138033608E+00	-1.10476892509E+00
2.78543171463E+06	-1.30126093610E+01	1.56492199267E+02	6.12132468817E+00	1.69824451068E+02	-5.17499628102E+01	-1.43786565395E+02	-5.98751440502E+00	-1.20513195368E+00
2.80762306923E+06	-1.47062324922E+01	-1.62984152115E+02	6.22611206383E+00	1.69733774942E+02	-3.83579111353E+01	-6.58369710976E+01	-6.01048936192E+00	-1.18658090450E+00
2.82981442382E+06	-1.47939016726E+01	-1.68031291527E+02	6.16668940702E+00	1.69635348212E+02	-3.82510503677E+01	6.49740436083E+01	-5.99219176491E+00	-1.44205387045E+00
2.85200577842E+06	-1.30013718103E+01	-1.67382486336E+02	6.17092776284E+00	1.69346445639E+02	-4.05935097273E+01	7.15318779294E+01	-6.00254141872E+00	-1.31828569311E+00
2.87419713301E+06	-1.55172444298E+01	1.77203642336E+02	6.16530035497E+00	1.69641213029E+02	-4.31208227747E+01	3.65452843924E+01	-6.01132279920E+00	-1.34364023784E+00
