# Hz S DB R 50
! CMT, M5065, 19127446, 24.2.4/2
! Date: 11/8/2024 2:39:48 PM
! Data: Format (Calibration Info)
! Freq	S11:dB/Ang(F2)	S21:dB/Ang(F2)	S12:dB/Ang(F2)	S22:dB/Ang(F2)
3.00000000000E+05	-1.62765507030E+01	1.75555273954E+02	5.32508965565E+00	-1.77549720197E+02	-5.85373790191E+01	-6.56902244056E+00	-6.01329479892E+00	-4.06411997235E-01
3.22191354595E+05	-1.56933678411E+01	1.59389931706E+02	5.34234256165E+00	-1.77629727406E+02	-3.70287392995E+01	5.69933065245E+01	-6.02098570064E+00	-2.98187418714E-01
3.44382709190E+05	-1.47725218069E+01	-1.64941287850E+02	5.35911729845E+00	-1.78520082247E+02	-4.95565557974E+01	-8.68675812642E+01	-6.02416892511E+00	-7.37145204150E-02
3.66574063785E+05	-1.28584788395E+01	-1.69223127491E+02	5.37979585367E+00	-1.78469609501E+02	-4.32592916399E+01	1.69568714056E+01	-6.03296091909E+00	-2.28354230776E-01
3.88765418380E+05	-1.28277008223E+01	1.78179705571E+02	5.33095764470E+00	-1.78565525171E+02	-3.93642720172E+01	-1.23900303196E+02	-5.98434257248E+00	-1.71562172977E-01
4.10956772975E+05	-1.46835285517E+01	-1.66848158178E+02	5.36454477746E+00	-1.79289880252E+02	-4.22858361742E+01	1.76671810545E+02	-6.00227716787E+00	-3.07881760527E-01
4.33148127570E+05	-1.49511173865E+01	-1.72700874860E+02	5.36706132664E+00	-1.79062846115E+02	-4.64267050888E+01	-1.46270590843E+02	-6.01197837527E+00	-3.46258514775E-01
4.55339482165E+05	-1.43367097054E+01	1.78080321589E+02	5.35310071312E+00	-1.79453295251E+02	-4.23791299891E+01	-1.66104941591E+02	-5.99722923341E+00	-1.89206356033E-01
4.77530836760E+05	-1.38584656164E+01	1.68331273957E+02	5.36322687501E+00	-1.79454531016E+02	-5.10622653509E+01	9.36376653431E+01	-5.99223985745E+00	-2.51047362417E-01
4.99722191355E+05	-1.48014182863E+01	-1.33347254444E+02	5.40622671269E+00	-1.79992056010E+02	-4.45444375814E+01	8.28008597843E+01	-6.00540677095E+00	-3.03996170067E-01
5.21913545950E+05	-1.36885128698E+01	1.73069031181E+02	5.38404528005E+00	1.79965710625E+02	-5.36328695851E+01	-7.65713687807E+01	-6.00099385240E+00	-2.59538555983E-01
5.44104900545E+05	-1.28542156193E+01	-1.47694865961E+02	5.37111754632E+00	1.79635873877E+02	-4.32055913327E+01	9.40781241389E+01	-5.98384362157E+00	-3.96976518611E-01
5.66296255139E+05	-1.47182565391E+01	-1.51299835895E+02	5.35314911705E+00	1.79713727768E+02	-5.01336866406E+01	1.16791206465E+02	-5.99627482839E+00	-4.09457321278E-01
5.88487609734E+05	-1.57893192754E+01	-1.71917296667E+02	5.33042790809E+00	1.79624610058E+02	-5.73480966995E+01	-8.65985181456E+01	-6.01968649579E+00	-3.27334357804E-01
6.10678964329E+05	-1.28655549535E+01	-1.67944844732E+02	5.35285722353E+00	1.79146908538E+02	-4.33758610354E+01	-2.06104077526E+01	-6.02262999976E+00	2.68171506898E-01
6.32870318924E+05	-1.29841811137E+01	-1.63418192180E+02	5.31243481937E+00	1.79104482099E+02	-4.00317146010E+01	1.17310913342E+02	-6.00011442523E+00	-1.67788125862E-01
6.55061673519E+05	-1.51205710295E+01	-1.73552154858E+02	5.34834444099E+00	1.79176474226E+02	-4.97022334160E+01	-1.56246807985E+02	-6.03095188629E+00	-3.02985020677E-01
6.77253028114E+05	-1.22804647237E+01	-1.71942413195E+02	5.33178142205E+00	1.78871517061E+02	-4.08392896416E+01	-1.25928842635E+02	-6.01502091108E+00	-6.25775962371E-01
6.99444382709E+05	-1.37506967830E+01	1.72301829452E+02	5.33625206359E+00	1.78978936180E+02	-3.90458564288E+01	-2.32968394923E+01	-6.01799407510E+00	-1.77780922532E-01
7.21635737304E+05	-1.21039982006E+01	-1.78472430979E+02	5.37965928741E+00	1.78887527709E+02	-4.56091815190E+01	-1.72932658757E+02	-5.99077173324E+00	-2.74196659531E-01
7.43827091899E+05	-1.54214094193E+01	-1.70030118225E+02	5.37977027560E+00	1.78260770419E+02	-4.29209326358E+01	-1.21557382270E+02	-6.01391047610E+00	-3.30705790229E-01
7.66018446494E+05	-1.23419265568E+01	1.78649921144E+02	5.34838469273E+00	1.78693723175E+02	-4.80384619659E+01	6.72896411384E+01	-6.01444350384E+00	-4.90847762022E-01
7.88209801089E+05	-1.37568582566E+01	1.66839516444E+02	5.35772723847E+00	1.78268203116E+02	-6.06581678755E+01	-2.95360517222E+01	-6.01687543760E+00	-3.55783622893E-01
8.10401155684E+05	-1.13473449195E+01	-1.77077312069E+02	5.29532088284E+00	1.78274561936E+02	-4.44370477240E+01	-1.61371167104E+02	-5.99665140891E+00	-2.95040242890E-01
8.32592510279E+05	-1.45973196082E+01	1.75597552351E+02	5.35679268150E+00	1.78125226805E+02	-4.04076228071E+01	-6.63891937758E+01	-6.01535311456E+00	-2.13868446306E-01
8.54783864874E+05	-1.00644466276E+01	-1.71618918750E+02	5.34513942489E+00	1.77667863598E+02	-5.15201978930E+01	1.10607003498E+02	-6.00035870610E+00	-4.13478026109E-01
8.76975219469E+05	-1.02429302054E+01	-1.68161136397E+02	5.29869344108E+00	1.77696175718E+02	-4.26236862740E+01	-1.32018063913E+02	-5.99676085672E+00	-2.58859698926E-01
8.99166574064E+05	-1.17419844826E+01	1.77635098261E+02	5.35394466935E+00	1.77940806129E+02	-4.60927829901E+01	-1.46358964679E+02	-5.99340976018E+00	-3.32010283967E-01
9.21357928659E+05	-1.34126169074E+01	1.78154290936E+02	5.40445869593E+00	1.77694969162E+02	-4.01645751464E+01	1.78356878361E+01	-6.01623434369E+00	-4.40206877556E-01
9.43549283254E+05	-1.69433158653E+01	-1.67836077538E+02	5.41182636273E+00	1.77378361876E+02	-4.20339709151E+01	-1.41115480019E+02	-5.99055823608E+00	-5.33489347038E-01
9.65740637849E+05	-1.60237695766E+01	-1.67929225099E+02	5.36169707869E+00	1.77436047502E+02	-3.88813994199E+01	7.33357269112E+01	-6.00625849884E+00	-5.77467018494E-01
9.87931992444E+05	-1.28122470569E+01	-1.62700031883E+02	5.37636487656E+00	1.77330268888E+02	-4.98844534022E+01	-3.12609241868E+01	-6.00969260511E+00	-4.01277540328E-01
1.01012334704E+06	-1.18142005032E+01	1.75799236756E+02	5.31438059260E+00	1.77082769305E+02	-4.94497893024E+01	2.31286448581E+01	-5.99572995875E+00	-4.73338439599E-01
1.03231470163E+06	-1.18307731476E+01	1.77159153400E+02	5.35934113364E+00	1.77328629938E+02	-5.04920589986E+01	8.30628625571E+01	-6.01203013019E+00	-5.54248387957E-01
1.05450605623E+06	-1.31073579575E+01	-1.77078233524E+02	5.32886244542E+00	1.77149196126E+02	-4.43303138649E+01	1.30788952747E+02	-5.98689290737E+00	-6.30129177966E-01
1.07669741082E+06	-1.34463569036E+01	-1.74036294095E+02	5.35749340663E+00	1.77203945447E+02	-7.23721804265E+01	-1.13028067668E+02	-6.02545875642E+00	-4.18024989767E-01
1.09888876542E+06	-1.81947608394E+01	-1.78766054758E+02	5.34886483739E+00	1.77027527089E+02	-4.29387428763E+01	-1.74494711718E+02	-6.02478201030E+00	-5.07449710450E-01
1.12108012001E+06	-1.35459994410E+01	-1.42278220553E+02	5.38715301578E+00	1.76589862539E+02	-4.57734758920E+01	-9.52446380442E+01	-5.99884336415E+00	-4.93948702755E-01
1.14327147461E+06	-1.24475616291E+01	-1.78518957810E+02	5.38966754166E+00	1.76740769088E+02	-5.08125728156E+01	1.28000838893E+02	-5.99785555329E+00	-6.39173640288E-01
1.16546282920E+06	-1.30378461205E+01	-1.77454522962E+02	5.41222312025E+00	1.76626838675E+02	-5.26640963926E+01	6.24870116441E+00	-6.03190634652E+00	-5.02702021758E-01
1.18765418380E+06	-1.44298868595E+01	-1.64554592680E+02	5.39498656396E+00	1.76142300966E+02	-4.55747441578E+01	1.09203063744E+02	-6.00125002611E+00	-4.51735923226E-01
1.20984553839E+06	-1.45521463639E+01	-1.76339284424E+02	5.36777162339E+00	1.76486470844E+02	-4.55013012266E+01	-1.33907584431E+02	-6.01965257004E+00	-7.16273971113E-01
1.23203689299E+06	-1.42700776029E+01	1.60053526360E+02	5.32004244093E+00	1.76769583997E+02	-4.31824874289E+01	6.81102283857E+01	-6.02561549774E+00	-2.87597359199E-01
1.25422824758E+06	-1.35551817627E+01	1.79870360245E+02	5.39029221338E+00	1.76254348053E+02	-4.04935307793E+01	1.53895471239E+02	-6.02227837000E+00	-5.22053336845E-01
1.27641960218E+06	-1.44783071858E+01	-1.68496880959E+02	5.35929700198E+00	1.76298339611E+02	-5.24549650093E+01	6.03241741118E+01	-6.00408853206E+00	-5.25631699424E-01
1.29861095677E+06	-1.35265403095E+01	-1.72170868569E+02	5.37585655060E+00	1.75989168099E+02	-6.45390766428E+01	1.66073088011E+02	-6.01234225546E+00	-5.65246376515E-01
1.32080231137E+06	-1.28672231072E+01	1.49291548222E+02	5.37930031766E+00	1.76197239089E+02	-4.57934243902E+01	-5.34460677003E+01	-5.98786585030E+00	-8.97676875069E-01
1.34299366596E+06	-1.33576492913E+01	1.62578573321E+02	5.37451020641E+00	1.75878097572E+02	-4.79904037223E+01	1.20655415704E+02	-5.99843006361E+00	-5.54047135251E-01
1.36518502056E+06	-1.41939785260E+01	-1.51173985534E+02	5.38282446903E+00	1.75520134661E+02	-5.54772460745E+01	-1.65302882078E+02	-6.03506859945E+00	-7.45128244482E-01
1.38737637515E+06	-1.40323162388E+01	-1.55381080820E+02	5.40137152092E+00	1.75426883403E+02	-4.41542997774E+01	-4.10324110027E+01	-6.04317503983E+00	-4.78258664883E-01
1.40956772975E+06	-1.64726527593E+01	-1.78378152953E+02	5.39930123674E+00	1.75540360832E+02	-4.81463656702E+01	-3.97015336846E+01	-6.00471873851E+00	-6.04378400741E-01
1.43175908434E+06	-1.38106205958E+01	-1.49845059927E+02	5.36225350600E+00	1.75713988799E+02	-3.97713007644E+01	1.41250062951E+02	-5.99749114631E+00	-6.23576100903E-01
1.45395043894E+06	-1.41111905792E+01	-1.69846110011E+02	5.35787556929E+00	1.75070706123E+02	-4.24067004649E+01	1.49312952157E+02	-5.98094242054E+00	-6.78786263110E-01
1.47614179353E+06	-1.41734206958E+01	1.76190589070E+02	5.33262485371E+00	1.75477043676E+02	-4.68595045546E+01	-1.79987058673E+01	-6.01446504694E+00	-6.28949752750E-01
1.49833314813E+06	-1.41505581628E+01	-1.54002772643E+02	5.37074791554E+00	1.75198016096E+02	-4.69325883292E+01	-9.13168292723E+01	-6.01990797253E+00	-5.00515805631E-01
1.52052450272E+06	-1.44387448850E+01	1.71781706045E+02	5.33488050138E+00	1.74955604043E+02	-4.11314719924E+01	1.26866985738E+02	-5.99425247203E+00	-6.74250713075E-01
1.54271585732E+06	-1.22634744507E+01	1.66545347443E+02	5.35362197398E+00	1.75040709302E+02	-4.93967878729E+01	2.35569474107E+01	-6.00933484836E+00	-6.59380372008E-01
1.56490721191E+06	-1.23868762924E+01	1.75944704850E+02	5.37110823249E+00	1.74814862334E+02	-3.54644031260E+01	1.61944210715E+02	-5.98763171703E+00	-6.28521912088E-01
1.58709856651E+06	-1.47735717307E+01	1.77978557161E+02	5.40896317881E+00	1.75053232762E+02	-4.00846506850E+01	1.62252044514E+02	-6.00180729422E+00	-7.02070574238E-01
1.60928992110E+06	-1.24633895505E+01	1.72695187877E+02	5.35156138645E+00	1.74807063016E+02	-5.35115758977E+01	5.84023781677E+01	-6.00022139959E+00	-7.10227737653E-01
1.63148127570E+06	-1.41975061072E+01	-1.61713171123E+02	5.36680823844E+00	1.74252756344E+02	-5.57981252804E+01	1.02164354335E+01	-6.01320113191E+00	-6.77338774603E-01
1.65367263029E+06	-1.98176528690E+01	-1.78487341893E+02	5.38419165174E+00	1.74750071806E+02	-4.71670931724E+01	-5.17775663869E+01	-6.00945743227E+00	-6.50592141434E-01
1.67586398489E+06	-1.21247542734E+01	-1.64068730443E+02	5.31970405310E+00	1.74097752212E+02	-5.61129267805E+01	-8.55370511472E+01	-6.01666581298E+00	-7.04915398206E-01
1.69805533948E+06	-1.34015255446E+01	-1.73024405641E+02	5.41708328670E+00	1.74244799955E+02	-4.59736068964E+01	7.20258519907E+01	-6.00958718950E+00	-7.33835866059E-01
1.72024669408E+06	-1.15327175467E+01	-1.53628669214E+02	5.39646830341E+00	1.74013716042E+02	-4.25767734040E+01	1.02228511929E+02	-5.97632322878E+00	-6.96037546207E-01
1.74243804867E+06	-1.27341667189E+01	-1.65650722054E+02	5.35412165557E+00	1.73927811488E+02	-4.47150457144E+01	-4.85636818291E+01	-6.01253777939E+00	-8.74160536547E-01
1.76462940327E+06	-1.53360434035E+01	1.74840682595E+02	5.40097177317E+00	1.74269660691E+02	-3.54538369150E+01	-4.12220536096E+01	-6.03432515770E+00	-6.97663745543E-01
1.78682075786E+06	-1.39554430199E+01	-1.79783204191E+02	5.33233760641E+00	1.73997432884E+02	-5.42900198237E+01	1.28134925927E+02	-6.02173069945E+00	-5.58821070313E-01
1.80901211246E+06	-9.14009109193E+00	-1.67136678943E+02	5.32482425637E+00	1.73658239131E+02	-4.60959691358E+01	-6.54386116650E+01	-6.00399509094E+00	-7.20838985349E-01
1.83120346705E+06	-1.63506217754E+01	-1.76901469670E+02	5.37200166953E+00	1.73991958925E+02	-4.14124332480E+01	-1.76653672236E+02	-6.00001594253E+00	-6.33065194365E-01
1.85339482165E+06	-1.37735183942E+01	-1.70417488752E+02	5.36326548239E+00	1.73808656972E+02	-4.62465528583E+01	-6.36435357722E+01	-6.01792221434E+00	-8.23379868876E-01
1.87558617624E+06	-1.36608714542E+01	1.74636116447E+02	5.37913107001E+00	1.73541359422E+02	-3.60316542545E+01	4.84247247464E+01	-6.00530030883E+00	-8.59067128888E-01
1.89777753084E+06	-1.27430245928E+01	-1.77075563087E+02	5.37534788214E+00	1.73856505927E+02	-4.85329598945E+01	1.69168095829E+02	-5.97291736040E+00	-7.50802689600E-01
1.91996888543E+06	-1.60257188984E+01	-1.69075268383E+02	5.40291499861E+00	1.73181379934E+02	-4.58687325699E+01	-1.30748320353E+02	-6.00273593555E+00	-7.05930774576E-01
1.94216024003E+06	-1.44018701304E+01	1.70128874522E+02	5.40718685467E+00	1.73363275663E+02	-4.22762923373E+01	4.67300942772E+01	-6.00914869187E+00	-8.94027802721E-01
1.96435159462E+06	-1.31002955479E+01	-1.69374681231E+02	5.38688999970E+00	1.73160106729E+02	-4.45626394695E+01	-4.20112780229E+01	-6.00486573439E+00	-8.31259104222E-01
1.98654294922E+06	-1.58589217034E+01	-1.69548326740E+02	5.39102379181E+00	1.73605878416E+02	-5.72106209606E+01	6.04964699241E+01	-5.98733828900E+00	-8.63236167537E-01
2.00873430381E+06	-1.25453050220E+01	1.74394604495E+02	5.34868918162E+00	1.73341323131E+02	-5.87399412466E+01	1.14459976172E+02	-6.00048885649E+00	-8.30689962093E-01
2.03092565841E+06	-1.57253256684E+01	-1.59126851824E+02	5.40764282160E+00	1.73242552596E+02	-3.47081763211E+01	9.91696994153E+01	-5.97695343402E+00	-8.44444467782E-01
2.05311701300E+06	-1.34318477060E+01	-1.72875775805E+02	5.40333396770E+00	1.73143968419E+02	-3.66105123897E+01	-7.87296569133E+01	-6.02478351255E+00	-7.87744963836E-01
2.07530836760E+06	-1.34682854057E+01	-1.60925827899E+02	5.36647752380E+00	1.72690579689E+02	-4.34667345367E+01	5.81284715358E+01	-5.99619939414E+00	-9.66097676349E-01
2.09749972219E+06	-1.39990403015E+01	-1.79039967459E+02	5.40747952532E+00	1.72794508350E+02	-4.63683347894E+01	1.60926703838E+02	-5.98501069068E+00	-8.60867383338E-01
2.11969107679E+06	-1.58681503806E+01	-1.67731480945E+02	5.41869449065E+00	1.72698288271E+02	-4.62117824913E+01	1.04524077996E+01	-6.02238774834E+00	-8.43419939164E-01
2.14188243138E+06	-1.27262023169E+01	-1.69314384195E+02	5.36636446283E+00	1.72671119126E+02	-4.35487515124E+01	-1.59619513795E+02	-5.99968233254E+00	-7.69533616212E-01
2.16407378598E+06	-1.11234004824E+01	-1.65865540365E+02	5.39787038675E+00	1.72138304966E+02	-4.25101731634E+01	4.82565286660E+01	-6.00377993806E+00	-1.12532828829E+00
2.18626514057E+06	-1.49546150879E+01	-1.67761407385E+02	5.37935818190E+00	1.72166986349E+02	-3.79158004335E+01	1.17523169667E+02	-5.96861377829E+00	-9.57492442997E-01
2.20845649517E+06	-1.29100414815E+01	-1.70144201511E+02	5.37215394141E+00	1.72281153301E+02	-3.62817128501E+01	1.40599436261E+02	-5.98145064104E+00	-9.17535869721E-01
2.23064784976E+06	-1.34117456714E+01	-1.66410170258E+02	5.42685184875E+00	1.72242784891E+02	-4.62688435748E+01	-1.66530774819E+02	-6.01204490544E+00	-1.04837176360E+00
2.25283920436E+06	-1.31965335862E+01	-1.75809096653E+02	5.37511092331E+00	1.72235381761E+02	-4.33634616594E+01	-6.05883104479E+01	-6.00072505367E+00	-1.08968785338E+00
2.27503055895E+06	-4.52987450649E+00	-1.73827003620E+02	5.36726106276E+00	1.71182610320E+02	-4.39856888566E+01	-1.41099688007E+02	-5.99443217437E+00	-1.01624496003E+00
2.29722191355E+06	-1.28490216850E+01	1.69303902073E+02	5.35346806825E+00	1.72062206907E+02	-4.74162182351E+01	-9.58355711325E+01	-6.00359009220E+00	-9.16564750415E-01
2.31941326814E+06	-1.13451591935E+01	-1.72237579050E+02	5.37203413976E+00	1.71542589631E+02	-4.57142051741E+01	-6.98352167189E+01	-6.00465457126E+00	-9.55760628266E-01
2.34160462274E+06	-1.52004425774E+01	1.77152916887E+02	5.41577314642E+00	1.71868514938E+02	-5.28493593286E+01	-4.54167296701E+01	-5.97184626033E+00	-1.18079587442E+00
2.36379597733E+06	-1.02781192723E+01	-1.65789498121E+02	5.39258329310E+00	1.71291102453E+02	-3.67475950465E+01	-6.94764638104E+01	-6.04948002962E+00	-1.09137321330E+00
2.38598733193E+06	-1.21610952706E+01	-1.66485378114E+02	5.36893659220E+00	1.71364449952E+02	-4.16787075768E+01	1.09125868805E+02	-6.00183204293E+00	-1.06276260122E+00
2.40817868652E+06	-1.44771342827E+01	-1.69819437654E+02	5.39723515516E+00	1.71601132798E+02	-4.71464188408E+01	-1.01459765389E+02	-5.99473746364E+00	-1.13638820636E+00
2.43037004112E+06	-1.38279221577E+01	-1.70207289356E+02	5.45738117689E+00	1.71443436832E+02	-5.26722199741E+01	-8.93960914209E+01	-6.01116527080E+00	-1.29648466097E+00
2.45256139571E+06	-1.45822023076E+01	-1.73932264143E+02	5.41996816953E+00	1.71264266398E+02	-4.82741480704E+01	-2.68880949555E+01	-6.01790450400E+00	-8.34108021467E-01
2.47475275031E+06	-1.25125509336E+01	-1.69786582057E+02	5.36717598264E+00	1.71242480974E+02	-4.75603853776E+01	1.63654855669E+02	-5.99150273958E+00	-1.04921562725E+00
2.49694410490E+06	-1.50845160872E+01	-1.63732522490E+02	5.45689972867E+00	1.71036598752E+02	-4.82189465947E+01	4.05968998973E+01	-6.01220262118E+00	-1.04904581835E+00
2.51913545950E+06	-1.37417091496E+01	1.71861782160E+02	5.42489012053E+00	1.71098605696E+02	-4.12003324136E+01	-8.98959930685E+01	-6.00662864078E+00	-9.63807988119E-01
2.54132681409E+06	-1.32438539977E+01	-1.74100953442E+02	5.39109703246E+00	1.71100150177E+02	-4.47149598370E+01	-1.65816707215E+01	-6.03200854754E+00	-1.18408287665E+00
2.56351816869E+06	-1.21575511971E+01	-1.71668986037E+02	5.42056497814E+00	1.70699380272E+02	-4.43717929934E+01	-1.32103062687E+02	-5.99355346366E+00	-9.05824246034E-01
2.58570952328E+06	-1.26460097414E+01	-1.48659319174E+02	5.47843077570E+00	1.70496660981E+02	-4.61258438484E+01	2.34713664086E+01	-6.02936455313E+00	-1.22354180474E+00
2.60790087788E+06	-1.63428629758E+01	1.77421402533E+02	5.44260353867E+00	1.71084092745E+02	-4.52006731052E+01	1.55583668217E+02	-5.99102418332E+00	-1.07796299164E+00
2.63009223247E+06	-1.66835336039E+01	1.61184540979E+02	5.39123855874E+00	1.70718646305E+02	-4.46791524200E+01	1.29723658843E+02	-6.00593503424E+00	-7.64400415752E-01
2.65228358707E+06	-1.39335051939E+01	1.74339381156E+02	5.39887546509E+00	1.70862187183E+02	-4.29351351781E+01	1.46466980701E+02	-5.99374062335E+00	-1.10303377491E+00
2.67447494166E+06	-1.66447808083E+01	-1.72219651109E+02	5.41049716729E+00	1.70311374720E+02	-4.26848298520E+01	-1.18223898118E+02	-5.99486105915E+00	-1.07656204228E+00
2.69666629626E+06	-1.49005380839E+01	1.72669495136E+02	5.40670887620E+00	1.70577073134E+02	-4.82495836029E+01	-1.39263075212E+02	-6.00296779867E+00	-9.98927741002E-01
2.71885765085E+06	-1.39961032350E+01	-1.72304796232E+02	5.42349060287E+00	1.70198447151E+02	-4.82973242653E+01	-1.53432594389E+02	-5.99850687428E+00	-1.08437816201E+00
2.74104900545E+06	-1.08630603796E+01	1.79208940964E+02	5.37034659679E+00	1.70165318592E+02	-4.05193874490E+01	9.96728316485E+01	-6.01758915267E+00	-1.29993214511E+00
2.76324036004E+06	-1.07659931202E+01	1.60251443199E+02	5.35669798925E+00	1.70407270188E+02	-4.98500548839E+01	7.17849190296E+01	-5.99981330352E+00	-1.23619207614E+00
2.78543171463E+06	-1.45168366050E+01	-1.45867964012E+02	5.45340997846E+00	1.69952287257E+02	-4.42213056386E+01	-1.40818509737E+02	-5.99753774774E+00	-1.00115535756E+00
2.80762306923E+06	-1.56755574017E+01	-1.67490749028E+02	5.42927458300E+00	1.70164074567E+02	-4.52865908737E+01	-8.86442153294E+01	-6.01512014505E+00	-1.18949857319E+00
2.82981442382E+06	-1.26352524471E+01	-1.56569639304E+02	5.44017623453E+00	1.69669708770E+02	-4.12122188508E+01	8.72150740603E+01	-6.00735621847E+00	-1.25012876946E+00
2.85200577842E+06	-1.50437401998E+01	-1.46968178550E+02	5.44867240463E+00	1.69722792753E+02	-4.26641572633E+01	6.43830670035E+01	-6.02691995699E+00	-1.43433223711E+00
2.87419713301E+06	-1.22999710450E+01	-1.72199003808E+02	5.39260438160E+00	1.69795487041E+02	-4.52164010527E+01	1.35177829033E+02	-5.98302826617E+00	-1.33254917670E+00
