# Hz S DB R 50
! CMT, M5065, 19127446, 24.2.4/2
! Date: 11/8/2024 2:41:07 PM
! Data: Format (Calibration Info)
! Freq	S11:dB/Ang(F2)	S21:dB/Ang(F2)	S12:dB/Ang(F2)	S22:dB/Ang(F2)
3.00000000000E+05	-1.24863742149E+01	-1.73031335049E+02	5.58826342654E+00	-1.77870087952E+02	-5.37945030864E+01	-1.65029429484E+02	-6.00206459677E+00	-1.69420386490E-01
3.22191354595E+05	-2.03549602685E+01	-1.25300698552E+02	5.67404211711E+00	-1.78047433397E+02	-4.75177783439E+01	1.18661365692E+02	-6.01062899382E+00	-3.02837940485E-01
3.44382709190E+05	-1.66112994763E+01	1.61795528765E+02	5.61449275371E+00	-1.78376508563E+02	-4.81362575797E+01	8.63113287676E+01	-6.04422479088E+00	-2.77829263728E-01
3.66574063785E+05	-1.59793031446E+01	1.77943793634E+02	5.65990413269E+00	-1.78406015540E+02	-4.05996856690E+01	-1.66369155591E+02	-6.00699758472E+00	-3.07604567684E-01
3.88765418380E+05	-1.44414678511E+01	1.66162690245E+02	5.66342834272E+00	-1.77347830279E+02	-4.12505806443E+01	7.63137955982E+01	-6.00218248314E+00	-4.06142143088E-01
4.10956772975E+05	-1.70623146716E+01	-1.56277344173E+02	5.62958728092E+00	-1.78917970830E+02	-4.79893227464E+01	-7.37028402013E+01	-6.00407043343E+00	-3.42715779223E-01
4.33148127570E+05	-1.39899411476E+01	-1.58954491428E+02	5.62446779753E+00	-1.79591841015E+02	-5.33776369290E+01	-3.01778822489E+01	-6.00482361253E+00	-1.57444870604E-01
4.55339482165E+05	-1.27502294990E+01	-1.67445379471E+02	5.56532495190E+00	-1.79774441309E+02	-4.41849967579E+01	1.63386612848E+02	-5.99698500935E+00	-1.99432280865E-01
4.77530836760E+05	-1.05752025221E+01	-1.62974206836E+02	5.60560676178E+00	-1.79706224790E+02	-4.47038514182E+01	-7.50481868290E+01	-6.00999386900E+00	-1.34668374018E-01
4.99722191355E+05	-1.36634415725E+01	-1.70450128965E+02	5.57729018382E+00	1.79809725743E+02	-4.59584644434E+01	-1.61351878833E+02	-5.99366790217E+00	-3.35849788048E-01
5.21913545950E+05	-1.24147518047E+01	-1.76656424646E+02	5.59515694912E+00	-1.79965847787E+02	-3.49973460485E+01	1.67534297808E+02	-6.00347873879E+00	-1.45706710970E-01
5.44104900545E+05	-1.62745671593E+01	-1.55996805104E+02	5.67884162911E+00	-1.79922695013E+02	-4.03249638157E+01	1.26268713102E+02	-5.97588322537E+00	-5.23977461249E-01
5.66296255139E+05	-1.58277500500E+01	1.65115690182E+02	5.63981704123E+00	1.79756705262E+02	-4.57272128755E+01	-7.13680317592E+00	-6.01366791178E+00	-4.65714672410E-01
5.88487609734E+05	-1.51291166641E+01	-1.76886947904E+02	5.66021079240E+00	1.79751221316E+02	-4.64777906704E+01	-1.11946980085E+02	-6.00063053084E+00	-2.78679275229E-01
6.10678964329E+05	-1.47538249681E+01	-1.68760868267E+02	5.58397748657E+00	1.79322162437E+02	-4.62258170535E+01	1.38843819111E+02	-5.99714865964E+00	1.24033974316E-01
6.32870318924E+05	-1.74892506394E+01	-1.56626347774E+02	5.66613300475E+00	1.79030657162E+02	-4.45182960067E+01	-8.49278640706E+01	-5.99935247758E+00	-7.35736961195E-02
6.55061673519E+05	-1.84565698164E+01	-1.74423280472E+02	5.61715314653E+00	1.78947128889E+02	-4.99395293883E+01	-6.56549999694E+01	-6.00361523714E+00	-2.66815990604E-01
6.77253028114E+05	-1.41436402479E+01	-1.54411234169E+02	5.64490304575E+00	1.78805933008E+02	-4.29074297238E+01	-1.19952051911E+02	-6.01356679776E+00	-5.21785389885E-01
6.99444382709E+05	-1.36381214767E+01	1.73551020569E+02	5.64421636238E+00	1.78901860262E+02	-3.25449083591E+01	-6.22621397015E+01	-6.02973849923E+00	-1.59413983324E-01
7.21635737304E+05	-1.50052782904E+01	-1.61074184538E+02	5.63536118365E+00	1.78574553444E+02	-5.91528415013E+01	1.41612052744E+02	-5.98474126956E+00	-3.70942545693E-01
7.43827091899E+05	-1.49725447966E+01	-1.66440091675E+02	5.65195670466E+00	1.78585598075E+02	-4.63116406631E+01	1.34076627073E+02	-5.99065899590E+00	-4.45832622082E-01
7.66018446494E+05	-1.19855554881E+01	-1.79099912339E+02	5.61801157325E+00	1.78360260664E+02	-5.89910840480E+01	-1.06423225404E+02	-6.01596514828E+00	-4.36184802426E-01
7.88209801089E+05	-1.50097279179E+01	1.65410539196E+02	5.64438552189E+00	1.78665005620E+02	-5.36701140419E+01	9.99310865403E+01	-5.97940208261E+00	-4.68390582731E-01
8.10401155684E+05	-1.31401989211E+01	-1.72092125610E+02	5.64307201046E+00	1.78470826262E+02	-4.68563167470E+01	1.47760147551E+02	-5.98701854526E+00	-4.65011171806E-01
8.32592510279E+05	-1.32227283913E+01	-1.56517190753E+02	5.65470481854E+00	1.77962070398E+02	-4.72029525287E+01	-4.70274323916E+00	-6.02803448421E+00	-2.69404290173E-01
8.54783864874E+05	-1.25153662195E+01	-1.56288931785E+02	5.63531316074E+00	1.77855466013E+02	-5.32571466744E+01	1.72714856644E+02	-5.99869722128E+00	-3.60923478999E-01
8.76975219469E+05	-1.54075532248E+01	1.61776600663E+02	5.61975690370E+00	1.78241111396E+02	-4.36968200819E+01	-7.72940385229E+01	-5.98774035416E+00	-2.64294223928E-01
8.99166574064E+05	-1.42473729614E+01	-1.64358698757E+02	5.69106591022E+00	1.77495840121E+02	-3.73443675079E+01	1.72285832385E+02	-5.98987254697E+00	-3.64072499791E-01
9.21357928659E+05	-1.43680828503E+01	-1.62565473475E+02	5.65790056523E+00	1.77654465253E+02	-4.70093973779E+01	-1.64836279839E+01	-6.01411045686E+00	-3.62837244285E-01
9.43549283254E+05	-1.91528122601E+01	1.78708438770E+02	5.64824723312E+00	1.77777948692E+02	-4.37863486147E+01	1.60512551860E+02	-6.00164801269E+00	-4.84096512482E-01
9.65740637849E+05	-1.03935768847E+01	-1.68178076695E+02	5.64753852926E+00	1.77121649280E+02	-4.01923548011E+01	1.45291895946E+02	-6.00421174040E+00	-6.98968148400E-01
9.87931992444E+05	-1.32506441519E+01	1.76609295179E+02	5.66477115988E+00	1.77349029577E+02	-3.73780461067E+01	1.64340307242E+02	-5.99495336286E+00	-3.59328409318E-01
1.01012334704E+06	-1.38714604221E+01	-1.77985337017E+02	5.57388036148E+00	1.77225541557E+02	-4.32754993189E+01	8.69649229392E+01	-6.01638280993E+00	-5.37223921149E-01
1.03231470163E+06	-1.42058957489E+01	1.68842372248E+02	5.58931788700E+00	1.77057571339E+02	-4.90451376400E+01	-3.07488809724E+01	-6.01896078628E+00	-6.33378700008E-01
1.05450605623E+06	-1.15717223461E+01	-1.72202040408E+02	5.59980170438E+00	1.76701847701E+02	-4.31152756633E+01	-1.78450658645E+02	-5.99488514629E+00	-4.94619251376E-01
1.07669741082E+06	-1.16035328034E+01	1.76112462853E+02	5.61406093988E+00	1.77181204004E+02	-4.40231231807E+01	-7.66710709716E+01	-6.00928946167E+00	-5.07931074922E-01
1.09888876542E+06	-1.10796346924E+01	1.46162246924E+02	5.60570007985E+00	1.77276477645E+02	-5.10320943882E+01	-1.65459681261E+02	-6.01679034889E+00	-4.77406689702E-01
1.12108012001E+06	-1.20182575202E+01	-1.79803926577E+02	5.62995388970E+00	1.76785443244E+02	-5.47296068641E+01	-8.49468896701E+01	-6.00911901976E+00	-4.20979284538E-01
1.14327147461E+06	-1.02657788565E+01	1.73958405965E+02	5.61571725055E+00	1.76810495692E+02	-5.05069979371E+01	-3.89766225750E+01	-6.01186313563E+00	-3.79864490964E-01
1.16546282920E+06	-1.53635538921E+01	1.74495648464E+02	5.65614143287E+00	1.76644091775E+02	-4.34251523412E+01	-4.91960182480E+01	-6.01245363403E+00	-4.45026656019E-01
1.18765418380E+06	-1.42997059277E+01	-1.67637924394E+02	5.63966904046E+00	1.76342219429E+02	-3.78841216793E+01	-8.89949226221E+01	-6.01688826561E+00	-3.76897042957E-01
1.20984553839E+06	-1.35114770932E+01	-1.73749049349E+02	5.66241407202E+00	1.76327471360E+02	-4.83278828778E+01	-1.61303301937E+02	-5.99681034397E+00	-6.91422671568E-01
1.23203689299E+06	-1.42540091088E+01	-1.74623060367E+02	5.62241649121E+00	1.76382536849E+02	-4.95540555270E+01	4.25574250830E+01	-6.02841589179E+00	-3.79641309582E-01
1.25422824758E+06	-1.33548309641E+01	-1.78415018767E+02	5.67041339970E+00	1.76019201820E+02	-5.21645388849E+01	6.51508991055E+01	-6.01732924360E+00	-5.35297234578E-01
1.27641960218E+06	-1.20798867193E+01	-1.52830166612E+02	5.65192111448E+00	1.75720078923E+02	-4.61764796094E+01	1.35867008713E+02	-6.01119622118E+00	-6.25480035225E-01
1.29861095677E+06	-1.15568650396E+01	-1.71605498516E+02	5.62347212668E+00	1.75832077099E+02	-4.85339944270E+01	-7.58090380222E+01	-6.02500884412E+00	-5.18548124252E-01
1.32080231137E+06	-1.44840155029E+01	-1.66292189829E+02	5.62004868607E+00	1.75695603874E+02	-3.01943818750E+01	1.68993635093E+02	-5.95045919918E+00	-7.75952698847E-01
1.34299366596E+06	-1.55686509545E+01	-1.73314239679E+02	5.64687279319E+00	1.75492599794E+02	-4.27546377696E+01	1.58049534531E+02	-5.98943504036E+00	-5.22273897783E-01
1.36518502056E+06	-1.62037445724E+01	-1.74378690083E+02	5.64959829443E+00	1.75507880188E+02	-4.77265416055E+01	-6.26023217988E+01	-5.99661018605E+00	-5.11890318044E-01
1.38737637515E+06	-1.12886785144E+01	-1.75780311614E+02	5.66735909487E+00	1.75400205247E+02	-5.11166702952E+01	1.49189413482E+02	-5.98551744435E+00	-7.44788904107E-01
1.40956772975E+06	-1.39104279443E+01	1.69200437078E+02	5.66368101906E+00	1.75635265998E+02	-4.86295373501E+01	-1.10947566851E+02	-5.99413879427E+00	-7.31100501041E-01
1.43175908434E+06	-1.50978877862E+01	-1.77578586648E+02	5.65291573148E+00	1.75109893740E+02	-4.40516734694E+01	-2.83828833818E+01	-6.01135373122E+00	-5.78441399308E-01
1.45395043894E+06	-1.51018170611E+01	-1.78303921355E+02	5.64483698128E+00	1.75542503836E+02	-4.51315490953E+01	3.38083568777E+01	-6.01836386783E+00	-7.11623299360E-01
1.47614179353E+06	-1.41963052210E+01	-1.59075180223E+02	5.63831456883E+00	1.74962766415E+02	-3.87722224620E+01	1.42801344470E+02	-5.99251307390E+00	-6.86338376059E-01
1.49833314813E+06	-1.36343996319E+01	1.76047142939E+02	5.65994102302E+00	1.75135797160E+02	-4.49128889999E+01	1.61101239946E+02	-6.00409337200E+00	-4.79500247230E-01
1.52052450272E+06	-1.26264337872E+01	1.61623365381E+02	5.62259996731E+00	1.75020331163E+02	-5.37584269993E+01	1.95982406923E+01	-6.01277674649E+00	-5.49304251892E-01
1.54271585732E+06	-1.37757811465E+01	1.72299090897E+02	5.63604492875E+00	1.74818246576E+02	-4.87587239960E+01	-1.45638469041E+02	-6.00736198049E+00	-6.66996602870E-01
1.56490721191E+06	-1.48446791644E+01	-1.62262660741E+02	5.62340635887E+00	1.74663039113E+02	-4.69095211674E+01	-1.15486473520E+02	-6.01371568962E+00	-6.19134944535E-01
1.58709856651E+06	-1.46012997873E+01	-1.38664968162E+02	5.68819299595E+00	1.74873935676E+02	-5.20743127528E+01	2.02561613976E+01	-6.00676520522E+00	-5.04136626737E-01
1.60928992110E+06	-1.35967215568E+01	-1.75925271945E+02	5.64993931233E+00	1.74305511583E+02	-3.81410752347E+01	-8.51375848332E+01	-5.99139074423E+00	-6.47720571966E-01
1.63148127570E+06	-1.29012596318E+01	-1.56659513378E+02	5.66334744046E+00	1.74560430656E+02	-4.46190027284E+01	-3.84210278608E+01	-6.02048936466E+00	-9.24521711111E-01
1.65367263029E+06	-1.68928213118E+01	-1.40875837793E+02	5.70622580523E+00	1.74443494845E+02	-4.39088341929E+01	-1.11445620086E+02	-6.00526324922E+00	-5.71086143466E-01
1.67586398489E+06	-1.33186427307E+01	-1.61831411086E+02	5.69241741094E+00	1.74412468060E+02	-5.00857907186E+01	-1.55695567701E+02	-5.98712024574E+00	-5.88751151672E-01
1.69805533948E+06	-1.34947557948E+01	-1.69097630006E+02	5.66165501117E+00	1.74113392831E+02	-4.11990926875E+01	1.47756398484E+01	-6.01909904331E+00	-7.67157302449E-01
1.72024669408E+06	-1.91085424911E+01	1.78035869811E+02	5.69337534769E+00	1.74227519512E+02	-4.38649715183E+01	-1.77813984685E+02	-6.00755605661E+00	-7.69909263510E-01
1.74243804867E+06	-1.42511734287E+01	1.14404673380E+02	5.61370293828E+00	1.74564640002E+02	-4.92225157741E+01	5.55756078024E+01	-6.01684739032E+00	-8.33264023603E-01
1.76462940327E+06	-1.80493965712E+01	-1.78382049450E+02	5.69584664656E+00	1.74133806545E+02	-4.54572320283E+01	-1.58290076368E+02	-5.99206985662E+00	-7.08762789065E-01
1.78682075786E+06	-1.44135421887E+01	-1.57920206717E+02	5.63542258433E+00	1.73844071824E+02	-3.60175824640E+01	-5.48026175485E+01	-6.03581672445E+00	-6.26749752274E-01
1.80901211246E+06	-1.75132945340E+01	-1.76540275739E+02	5.64570478607E+00	1.73942236137E+02	-4.06802101547E+01	-1.78115048900E+02	-5.99076629247E+00	-6.62130705658E-01
1.83120346705E+06	-1.29705418817E+01	-1.62820501314E+02	5.68006194479E+00	1.73746240867E+02	-4.65711980121E+01	-4.41351508485E+01	-6.02120893868E+00	-7.60783644614E-01
1.85339482165E+06	-1.58149928675E+01	-1.55580326801E+02	5.67819351680E+00	1.73410183477E+02	-5.17359784046E+01	1.26762134520E+01	-6.01645379540E+00	-6.55097636930E-01
1.87558617624E+06	-1.26285482278E+01	-1.75279919730E+02	5.65352621830E+00	1.73723852723E+02	-5.36282325996E+01	-1.22941648606E+02	-5.99460935341E+00	-8.21446509748E-01
1.89777753084E+06	-1.31646148649E+01	-1.53346707251E+02	5.69216828577E+00	1.73482563204E+02	-4.27384248481E+01	-5.03416518961E+01	-6.01340060434E+00	-9.08228887234E-01
1.91996888543E+06	-1.11004822778E+01	-1.55647146153E+02	5.69294817998E+00	1.73004460926E+02	-3.61689307299E+01	-1.46933929275E+01	-6.04159700815E+00	-7.41072611491E-01
1.94216024003E+06	-1.33989340025E+01	1.79933485985E+02	5.67902140121E+00	1.73516280975E+02	-4.23257992369E+01	1.77599885095E+02	-5.98620589740E+00	-6.30732912829E-01
1.96435159462E+06	-1.19126545283E+01	-1.59910078851E+02	5.68057464244E+00	1.73071813687E+02	-5.60466657843E+01	-6.71179005142E+00	-5.99158859238E+00	-7.67400284815E-01
1.98654294922E+06	-1.30210951250E+01	-1.45515814197E+02	5.71023073180E+00	1.72870865865E+02	-4.44425406255E+01	-7.47515941381E+01	-6.02330251157E+00	-8.25218606024E-01
2.00873430381E+06	-1.71974985486E+01	1.75940618866E+02	5.70613867706E+00	1.72945037493E+02	-4.48274203155E+01	-1.66193994567E+02	-6.01216825406E+00	-8.36682351010E-01
2.03092565841E+06	-1.59600369009E+01	-1.60070555865E+02	5.68564363384E+00	1.72910922039E+02	-4.43320435021E+01	3.26651280990E+00	-6.02306100044E+00	-6.81008637158E-01
2.05311701300E+06	-1.59635374628E+01	-1.64082033099E+02	5.66325560704E+00	1.72634928497E+02	-5.40639611944E+01	5.63388569038E+01	-5.97422852735E+00	-8.16081469856E-01
2.07530836760E+06	-1.39911717102E+01	-1.71123021764E+02	5.66104847868E+00	1.72628380355E+02	-6.12887184166E+01	-2.29319218825E+01	-6.00322878447E+00	-9.52291727290E-01
2.09749972219E+06	-1.47390487890E+01	-1.73665970877E+02	5.64972830457E+00	1.72716843543E+02	-3.54856836861E+01	2.42670113104E+01	-6.02029332584E+00	-1.05777456811E+00
2.11969107679E+06	-1.65886026110E+01	-1.79973328334E+02	5.67201119702E+00	1.72709734076E+02	-4.38215465059E+01	2.65278702987E+01	-5.98630974325E+00	-1.09782068641E+00
2.14188243138E+06	-1.53409531672E+01	-1.52510012283E+02	5.69710156313E+00	1.72584639337E+02	-5.21739082302E+01	-1.38482270261E+02	-5.98298327605E+00	-8.34511781325E-01
2.16407378598E+06	-1.51205248501E+01	-1.56329347988E+02	5.68998778373E+00	1.72166620138E+02	-3.98157520056E+01	8.50665562264E+01	-6.01314880572E+00	-1.07998867833E+00
2.18626514057E+06	-1.31285630049E+01	-1.60415291036E+02	5.67852462373E+00	1.72081243398E+02	-4.57704579758E+01	1.56096282927E+02	-5.99651151561E+00	-8.75523951591E-01
2.20845649517E+06	-1.32150600220E+01	1.72633596777E+02	5.64060734839E+00	1.72377318017E+02	-4.77662385390E+01	1.03590542926E+02	-5.98504083044E+00	-9.87117185434E-01
2.23064784976E+06	-1.02237360226E+01	-1.77876734581E+02	5.65252158195E+00	1.71787691645E+02	-4.72207849106E+01	-1.24299587392E+02	-6.00603381462E+00	-9.22056368026E-01
2.25283920436E+06	-1.53849170634E+01	1.74284279267E+02	5.63380781080E+00	1.72015555165E+02	-3.11676163650E+01	1.39109390676E+02	-6.00570820212E+00	-8.43179049534E-01
2.27503055895E+06	-1.33603561048E+01	-1.61168614806E+02	5.67478137926E+00	1.71699756839E+02	-4.48213939995E+01	4.98015344400E+01	-5.98525291476E+00	-1.08311083900E+00
2.29722191355E+06	-1.46021164971E+01	1.72672597002E+02	5.66042650506E+00	1.71787283717E+02	-4.54302530439E+01	-1.43072364490E+02	-6.00027059290E+00	-9.31115781508E-01
2.31941326814E+06	-1.20831680879E+01	-1.62857120110E+02	5.67057415777E+00	1.71687232361E+02	-4.86066019056E+01	-7.50362491816E+01	-6.01371198553E+00	-9.66319668878E-01
2.34160462274E+06	-1.74161949063E+01	-1.61248272162E+02	5.70563370802E+00	1.71638469131E+02	-4.86764471605E+01	-1.06434358470E+02	-6.01342087279E+00	-9.99774025307E-01
2.36379597733E+06	-1.65262724737E+01	-1.24797113202E+02	5.73586464303E+00	1.71518330732E+02	-4.06029413786E+01	-1.39665923446E+02	-6.00054437688E+00	-8.85044888535E-01
2.38598733193E+06	-1.40554001566E+01	1.35097249289E+02	5.65200810652E+00	1.71787150350E+02	-4.65996494486E+01	7.87149255247E+01	-6.00840322536E+00	-1.01923727835E+00
2.40817868652E+06	-1.32130393130E+01	-1.70097534590E+02	5.68499360739E+00	1.71303679327E+02	-4.92228529559E+01	-1.24168613580E+02	-6.00489051733E+00	-9.91342695242E-01
2.43037004112E+06	-1.40518425002E+01	-1.75658245149E+02	5.68573565748E+00	1.71442269696E+02	-4.17190283859E+01	-2.68078402461E+00	-5.99681355936E+00	-1.40598541791E+00
2.45256139571E+06	-1.33079451289E+01	-1.69268054059E+02	5.71273414744E+00	1.70933875092E+02	-5.03733062991E+01	1.07667152961E+02	-5.98178936901E+00	-1.14365596973E+00
2.47475275031E+06	-1.28887447530E+01	-1.76591148380E+02	5.61197821586E+00	1.71085499131E+02	-4.61976721355E+01	-6.72169020794E+01	-6.01272169412E+00	-1.11369911146E+00
2.49694410490E+06	-1.22383186588E+01	1.77793955587E+02	5.68047071040E+00	1.71236536168E+02	-4.66103166840E+01	-1.13589944763E+02	-5.99887570388E+00	-1.04857244702E+00
2.51913545950E+06	-1.52045340076E+01	1.62820305703E+02	5.71333525961E+00	1.71224322422E+02	-4.65378236161E+01	-1.73426553458E+02	-6.00001203684E+00	-1.16171993916E+00
2.54132681409E+06	-1.25915230505E+01	1.77839273280E+02	5.67975639125E+00	1.70798634972E+02	-4.75031843500E+01	-2.51637389533E+01	-6.01020264549E+00	-1.09915412356E+00
2.56351816869E+06	-1.36155230060E+01	-1.63943051521E+02	5.70609320057E+00	1.70914059548E+02	-4.84277685964E+01	-1.73517344023E+02	-6.00768577290E+00	-1.11581244316E+00
2.58570952328E+06	-1.22562650894E+01	-1.68583884426E+02	5.71723617623E+00	1.70460032419E+02	-4.58030182467E+01	-5.06011225000E+01	-6.03630677600E+00	-1.15649908452E+00
2.60790087788E+06	-1.28398598598E+01	1.77143877456E+02	5.69476021925E+00	1.71092190258E+02	-4.47485991717E+01	6.07269193860E+01	-6.01436297297E+00	-1.21479052228E+00
2.63009223247E+06	-1.39249814140E+01	1.76719607740E+02	5.67522933841E+00	1.70559726106E+02	-5.65473903635E+01	-7.58931472346E+00	-6.02621262545E+00	-7.35458316182E-01
2.65228358707E+06	-1.26237720409E+01	-1.68035929958E+02	5.67929650043E+00	1.70227022398E+02	-5.45491058547E+01	3.09621277345E-01	-6.02522259552E+00	-1.19404464203E+00
2.67447494166E+06	-1.23616321301E+01	-1.64159024025E+02	5.67346670998E+00	1.70042465185E+02	-4.41562853507E+01	-1.07819215221E+02	-6.00281255095E+00	-9.58526090311E-01
2.69666629626E+06	-1.44424789607E+01	1.70918689342E+02	5.69811482476E+00	1.70588576231E+02	-4.35669947760E+01	9.20631181006E+01	-6.00959506379E+00	-1.15575877464E+00
2.71885765085E+06	-1.58854851945E+01	-1.70620748939E+02	5.66358026750E+00	1.70197457661E+02	-4.23188011679E+01	1.13564775116E+02	-5.97322176045E+00	-1.09599371676E+00
2.74104900545E+06	-1.27637297724E+01	-1.73671529668E+02	5.66267520046E+00	1.69897568973E+02	-4.27153399002E+01	8.04259960592E+01	-6.02226206075E+00	-1.23438080380E+00
2.76324036004E+06	-1.25362587221E+01	1.73345476903E+02	5.71000535303E+00	1.70438808302E+02	-3.95027962364E+01	2.07513341960E+01	-6.04353234739E+00	-1.25156151111E+00
2.78543171463E+06	-1.33614000558E+01	-1.52149512792E+02	5.71952569497E+00	1.69976933304E+02	-4.06929411740E+01	-1.74498556364E+02	-5.98136722199E+00	-1.15826258070E+00
2.80762306923E+06	-1.48688300773E+01	-1.76687111955E+02	5.65660285924E+00	1.69906570172E+02	-4.69661086326E+01	-1.71153379998E+01	-6.02011652126E+00	-1.17898432144E+00
2.82981442382E+06	-1.26647133322E+01	1.55908051067E+02	5.64103301768E+00	1.69971783239E+02	-4.33701613183E+01	-1.22794197904E+02	-5.99987949005E+00	-1.09936921886E+00
2.85200577842E+06	-1.32739403419E+01	-1.58181900580E+02	5.69745692534E+00	1.69385699247E+02	-4.45362376093E+01	7.53058974583E+01	-6.00630877320E+00	-1.27819867922E+00
2.87419713301E+06	-1.46968539129E+01	-1.63082289055E+02	5.72509934114E+00	1.69720516137E+02	-4.06115788671E+01	-1.71600430971E+02	-6.00041487338E+00	-1.21934651383E+00
