# Hz S DB R 50
! CMT, M5065, 19127446, 24.2.4/2
! Date: 11/8/2024 3:24:38 PM
! Data: Format (Calibration Info)
! Freq	S11:dB/Ang(F2)	S21:dB/Ang(F2)	S12:dB/Ang(F2)	S22:dB/Ang(F2)
3.00000000000E+05	-1.38243836118E+01	-1.62262241330E+02	2.68390581049E+01	-1.75956265944E+02	-4.88950373697E+01	-1.67783846326E+02	-5.87827485523E+00	-2.50559290453E-01
3.22191354595E+05	-1.48016479135E+01	-1.72019523372E+02	2.68540538014E+01	-1.76890014159E+02	-4.34932429471E+01	-8.45178420066E+01	-6.00630031169E+00	1.45587232941E-01
3.44382709190E+05	-1.66020703553E+01	1.65133814007E+02	2.68762893721E+01	-1.77956255204E+02	-4.56585233819E+01	-6.58144711592E+01	-6.03760116628E+00	-3.68288163869E-01
3.66574063785E+05	-1.46494834497E+01	-1.33204899576E+02	2.68818752910E+01	-1.79280466147E+02	-4.73462027664E+01	-1.52203493906E+02	-6.04740293214E+00	-1.78434746737E-01
3.88765418380E+05	-1.23231313271E+01	-1.78977356038E+02	2.68310387113E+01	1.79668934242E+02	-4.14296514414E+01	9.28994339822E+01	-5.91636819106E+00	-2.21157317655E+00
4.10956772975E+05	-1.22633312374E+01	-1.69175987435E+02	2.68361727415E+01	1.79074350973E+02	-4.94985288042E+01	6.63250954448E+01	-5.99416253837E+00	-6.18284702779E-01
4.33148127570E+05	-1.33477648167E+01	-1.67410834767E+02	2.68464012778E+01	1.78287739325E+02	-4.28262698182E+01	-5.96033950431E+00	-6.08415186276E+00	-5.81874583737E-01
4.55339482165E+05	-1.53931309695E+01	-1.58808316687E+02	2.68536824527E+01	1.77476643539E+02	-4.40734263385E+01	1.75316355585E+02	-5.91796799915E+00	-4.44257242975E-01
4.77530836760E+05	-1.69007808549E+01	-1.61714074506E+02	2.68739334178E+01	1.76770963226E+02	-4.22073709311E+01	1.41396504532E+02	-5.88323445845E+00	-8.95829482804E-01
4.99722191355E+05	-1.37239764269E+01	-1.73410282576E+02	2.68178480351E+01	1.76207871393E+02	-5.01310088519E+01	-1.01855044760E+02	-5.97387978583E+00	-1.49336293985E-01
5.21913545950E+05	-1.64181371138E+01	1.71475179483E+02	2.68328227409E+01	1.75631679451E+02	-5.29942308247E+01	1.29090896931E+01	-5.99041731661E+00	-5.02021561204E-01
5.44104900545E+05	-1.48757172083E+01	-1.74893782612E+02	2.68027030547E+01	1.74691693562E+02	-4.33730762184E+01	-9.93848304296E+01	-5.97605432961E+00	3.09116879156E-01
5.66296255139E+05	-1.57135816140E+01	-1.69116690425E+02	2.68153390087E+01	1.73999040939E+02	-4.41071939667E+01	9.18033642210E+01	-5.99083012768E+00	-1.26833539846E+00
5.88487609734E+05	-1.66218298438E+01	1.79819800313E+02	2.68065255264E+01	1.73446658529E+02	-4.92211888353E+01	-1.81268980622E+01	-6.07194905546E+00	-3.06309767568E-01
6.10678964329E+05	-1.46114672794E+01	1.74486093588E+02	2.67728749378E+01	1.72875757341E+02	-4.63477098850E+01	5.78307397081E+01	-6.04083621129E+00	-3.40403650008E-01
6.32870318924E+05	-1.44176506611E+01	-1.78727903999E+02	2.67681190234E+01	1.72248425060E+02	-4.46943474959E+01	2.54918196969E+01	-6.11387540797E+00	-4.05237065079E-01
6.55061673519E+05	-1.31512666089E+01	-1.44955237598E+02	2.67810291507E+01	1.71488437688E+02	-4.81949798780E+01	-1.50616036941E+02	-5.97617525297E+00	-2.64454313656E-01
6.77253028114E+05	-1.80230815420E+01	-1.79044960863E+02	2.67727500131E+01	1.71031523483E+02	-3.69463073842E+01	2.16259885654E+01	-6.14313924022E+00	-1.26603363082E+00
6.99444382709E+05	-1.39409336949E+01	-1.73513030831E+02	2.67367917799E+01	1.70450334677E+02	-4.64838040044E+01	7.84864175175E+01	-5.99726816563E+00	-1.09817638661E+00
7.21635737304E+05	-1.31486199946E+01	1.73242368689E+02	2.67212785833E+01	1.70024651946E+02	-6.01698166772E+01	1.32690163298E+02	-6.00134532880E+00	-6.79956139420E-01
7.43827091899E+05	-1.51983751106E+01	1.65735829683E+02	2.67184246162E+01	1.69492834798E+02	-4.25550545667E+01	-1.65940753790E+02	-5.90448895849E+00	-4.23689179532E-01
7.66018446494E+05	-1.91551462428E+01	-1.58311733892E+02	2.67322409984E+01	1.68794738746E+02	-4.74396817010E+01	3.77162219575E+00	-6.06308339298E+00	-5.33172510951E-01
7.88209801089E+05	-1.43652403232E+01	-1.66840292784E+02	2.67073527331E+01	1.68355987809E+02	-4.24499917624E+01	8.91443634189E+01	-6.03014177576E+00	-1.26262228950E+00
8.10401155684E+05	-1.92475761594E+01	1.67543545237E+02	2.67002368934E+01	1.67884810441E+02	-5.10952056894E+01	-1.70219912040E+01	-6.03777747688E+00	-3.22937966908E-01
8.32592510279E+05	-1.22344732515E+01	-1.76516099545E+02	2.66361728188E+01	1.67303118451E+02	-4.38385869338E+01	-5.87715003856E+01	-6.02455709317E+00	1.74947907649E-02
8.54783864874E+05	-1.04088409721E+01	-1.72640537395E+02	2.66060364942E+01	1.66695200418E+02	-6.13476358685E+01	1.40900588288E+02	-5.96644637032E+00	-4.91445307942E-01
8.76975219469E+05	-1.61988007095E+01	1.59000032576E+02	2.66483062044E+01	1.66533647796E+02	-4.25364957799E+01	-9.19372202219E+01	-5.98842740789E+00	2.99181620649E-01
8.99166574064E+05	-1.29138409750E+01	1.77275558902E+02	2.66065783498E+01	1.65869297765E+02	-4.10843778915E+01	-1.61403723596E+02	-5.87555257171E+00	-4.13920098714E-01
9.21357928659E+05	-1.46949098387E+01	-1.71037801248E+02	2.66097863436E+01	1.65292995820E+02	-5.16042114516E+01	9.25770536831E+01	-6.00985285774E+00	-8.58137808365E-01
9.43549283254E+05	-1.22495861950E+01	1.68895694649E+02	2.65863333646E+01	1.64963366548E+02	-5.95745564187E+01	-1.37274821609E+02	-5.98218003358E+00	-5.15563609436E-01
9.65740637849E+05	-1.30923077862E+01	-1.69685470363E+02	2.65731250794E+01	1.64395640612E+02	-4.00480586839E+01	-1.01272747539E+02	-5.93140301850E+00	3.27105701521E-01
9.87931992444E+05	-1.16006630001E+01	-1.68022708371E+02	2.65520139844E+01	1.63890234547E+02	-4.44921781645E+01	6.64361207237E+01	-6.06763079065E+00	-9.60400846853E-01
1.01012334704E+06	-1.13041186380E+01	1.69685616593E+02	2.65256740143E+01	1.63517510696E+02	-4.54732857711E+01	-1.01658621610E+02	-5.97522142882E+00	-9.86322669191E-02
1.03231470163E+06	-1.23574176106E+01	-1.69907733200E+02	2.65295136507E+01	1.62955180794E+02	-4.51997042888E+01	8.51343171290E-01	-6.11710431267E+00	-4.28298000471E-01
1.05450605623E+06	-1.60559484230E+01	1.78888601971E+02	2.65584297666E+01	1.62730095090E+02	-5.11234751782E+01	3.34745147644E+00	-6.04708406983E+00	-7.64723442124E-01
1.07669741082E+06	-1.87499415306E+01	-1.64336168973E+02	2.65630846354E+01	1.62213084099E+02	-4.62685040330E+01	1.91901478053E+01	-6.09729380394E+00	-2.87438163413E-01
1.09888876542E+06	-1.14012664144E+01	-1.66058677793E+02	2.64780364199E+01	1.61521373378E+02	-4.53118126608E+01	2.80302697904E+01	-6.09414877297E+00	-9.12319175541E-01
1.12108012001E+06	-1.54291613823E+01	-1.69821997072E+02	2.65003902070E+01	1.61162285387E+02	-4.59433405754E+01	-7.90891986495E+00	-6.09895412325E+00	-4.03280610999E-01
1.14327147461E+06	-1.45592645465E+01	1.67857055079E+02	2.64804347113E+01	1.60942857062E+02	-4.08999023850E+01	1.50949704329E+02	-5.92011722937E+00	-1.01806134381E+00
1.16546282920E+06	-1.19896410302E+01	-1.74168125534E+02	2.64359727093E+01	1.60362284262E+02	-4.72518038144E+01	-1.36564260704E+02	-5.92111709824E+00	-3.94341716193E-01
1.18765418380E+06	-1.21791590291E+01	-1.72430773791E+02	2.64175325896E+01	1.59986078076E+02	-5.15172514132E+01	-1.12394024491E+02	-6.00741291597E+00	-3.05505997280E-01
1.20984553839E+06	-1.39195988012E+01	-1.48586764238E+02	2.64649576208E+01	1.59362816429E+02	-4.76653632015E+01	1.21705538951E+02	-5.99206774788E+00	-1.17923465049E+00
1.23203689299E+06	-1.45748571576E+01	-1.63445535101E+02	2.64278660811E+01	1.59048194783E+02	-5.67077799688E+01	-1.17960659190E+02	-6.00997297379E+00	-3.59399128977E-01
1.25422824758E+06	-1.19341851978E+01	1.74761524292E+02	2.63714630826E+01	1.58657554556E+02	-4.23666625703E+01	2.12652481883E+00	-6.15521517120E+00	-5.55597043736E-01
1.27641960218E+06	-1.52146792706E+01	1.71224654962E+02	2.63819627080E+01	1.58322915725E+02	-4.68988626871E+01	1.05472490790E+02	-5.99970638062E+00	-8.48605007344E-01
1.29861095677E+06	-1.48166810648E+01	1.74496505976E+02	2.63651939604E+01	1.57848728595E+02	-4.60542677697E+01	7.22152073422E+01	-6.05222420805E+00	-1.11044162839E+00
1.32080231137E+06	-1.76736321558E+01	1.71664990049E+02	2.63681892486E+01	1.57472877508E+02	-4.87707718965E+01	-4.99168650186E+01	-6.03347745738E+00	-6.38217654159E-01
1.34299366596E+06	-1.32440888814E+01	-1.56112660355E+02	2.63368961982E+01	1.56774065692E+02	-4.90017039908E+01	5.40572698016E+01	-6.03823825431E+00	-9.17937171747E-01
1.36518502056E+06	-9.78535191986E+00	-1.76779843078E+02	2.62721310451E+01	1.56491948208E+02	-5.50790517986E+01	-6.21511710619E+01	-6.01695217210E+00	-5.52715814476E-01
1.38737637515E+06	-1.61500838232E+01	-1.68486587210E+02	2.63178413272E+01	1.56122789615E+02	-5.17295467348E+01	-1.06840941415E+01	-6.04156833394E+00	-5.33891810061E-01
1.40956772975E+06	-1.65378035631E+01	1.67394056829E+02	2.62850085224E+01	1.56000761326E+02	-4.82912994215E+01	1.67113115038E+02	-5.93110493163E+00	-8.32402644797E-01
1.43175908434E+06	-1.43596688158E+01	1.79094095860E+02	2.62799923581E+01	1.55408527010E+02	-4.69068316363E+01	-9.07992672888E+01	-6.02946609010E+00	-1.73577350770E-01
1.45395043894E+06	-1.15304600103E+01	-1.68638088145E+02	2.62200533146E+01	1.54957820477E+02	-4.13066106791E+01	-1.33841868632E+02	-5.97156131812E+00	1.38087610580E-01
1.47614179353E+06	-1.80877874278E+01	1.63657583853E+02	2.62520935575E+01	1.54807669565E+02	-4.27644072241E+01	1.51343092210E+02	-5.92084751517E+00	-1.09511493111E+00
1.49833314813E+06	-1.63159044861E+01	1.72694833995E+02	2.62359938390E+01	1.54295589082E+02	-4.64407782613E+01	1.50344111569E+02	-5.95915663637E+00	-8.81292934579E-01
1.52052450272E+06	-1.72113594294E+01	1.68607540020E+02	2.62351298023E+01	1.53947064254E+02	-4.88568936688E+01	-5.01187581338E+00	-6.06561538817E+00	-8.28384896375E-01
1.54271585732E+06	-1.19461470034E+01	-1.78043046386E+02	2.61692258869E+01	1.53329276388E+02	-4.57609385407E+01	-1.67750974484E+02	-5.94104337171E+00	-4.96762164021E-01
1.56490721191E+06	-1.73905246939E+01	-1.74612216281E+02	2.61794825398E+01	1.53074260093E+02	-4.88798825345E+01	-1.53917788288E+02	-5.96533609945E+00	-7.60600868701E-01
1.58709856651E+06	-1.32479494106E+01	-1.76821091756E+02	2.61491976421E+01	1.52521944334E+02	-4.72565463931E+01	-1.33924891779E+01	-6.06106906937E+00	-6.84344200795E-01
1.60928992110E+06	-1.70335450147E+01	-1.49870737205E+02	2.61686565215E+01	1.52216131828E+02	-3.21985942204E+01	7.02013121279E+01	-6.15617315406E+00	-2.31273021648E+00
1.63148127570E+06	-9.89653834247E+00	1.42137379116E+02	2.60579068753E+01	1.52167192050E+02	-4.63263183460E+01	5.06378729642E+01	-6.09327583269E+00	-1.17784034002E+00
1.65367263029E+06	-1.38338916052E+01	-1.65089953537E+02	2.61216531784E+01	1.51312095906E+02	-4.32908389607E+01	-1.08368925438E+02	-5.96565361291E+00	2.15066922435E-01
1.67586398489E+06	-1.38654703776E+01	-1.79073157403E+02	2.60927723505E+01	1.50962590322E+02	-4.30908065925E+01	5.27657565536E+01	-6.08704966022E+00	-1.42927082197E+00
1.69805533948E+06	-1.61742122140E+01	-1.66966602938E+02	2.61038603850E+01	1.50604067040E+02	-6.66147416870E+01	-7.14750662213E+01	-6.00213061413E+00	-5.69351807148E-01
1.72024669408E+06	-1.32327613481E+01	-1.69044502938E+02	2.60496420335E+01	1.50201851029E+02	-5.78650448564E+01	3.01372041439E+01	-6.00061452439E+00	-8.49918095517E-01
1.74243804867E+06	-1.14925127459E+01	1.78030021767E+02	2.59871594673E+01	1.49738716865E+02	-5.29833082157E+01	-9.65796368627E+01	-6.01140802344E+00	-4.77437769431E-01
1.76462940327E+06	-1.58581831725E+01	-1.77173632773E+02	2.60337016802E+01	1.49540943562E+02	-3.80087716526E+01	1.98130666984E+01	-6.13093688746E+00	-1.18973012227E+00
1.78682075786E+06	-1.42304337078E+01	1.63131516194E+02	2.60233216829E+01	1.49060984158E+02	-5.04570852346E+01	5.93450784298E+01	-6.03588873056E+00	-1.00132097205E+00
1.80901211246E+06	-1.54817694876E+01	-1.75690423011E+02	2.59771474649E+01	1.48757310902E+02	-4.36978778204E+01	5.34856278368E+01	-6.04576252564E+00	-1.28920327627E+00
1.83120346705E+06	-1.09580373851E+01	-1.75716884357E+02	2.59409111930E+01	1.48208270259E+02	-4.46341033074E+01	-7.30026829558E+01	-6.03823101375E+00	-3.43557075729E-01
1.85339482165E+06	-1.20322309707E+01	-1.58223267106E+02	2.59659280383E+01	1.47711101041E+02	-4.38899696204E+01	-1.42987923304E+02	-5.89679506198E+00	-6.21731442619E-01
1.87558617624E+06	-1.66097944462E+01	-1.75576423677E+02	2.59554206055E+01	1.47470544752E+02	-4.39785421324E+01	-8.93678071967E+01	-5.97844929909E+00	-1.25104443182E-01
1.89777753084E+06	-1.38448808509E+01	-1.69585868856E+02	2.58965542436E+01	1.47099248891E+02	-4.22407053292E+01	-3.26343494762E+01	-6.10221221370E+00	-6.87997520658E-01
1.91996888543E+06	-1.06328601742E+01	-1.44020577118E+02	2.58994878019E+01	1.46499983785E+02	-4.13576725525E+01	-3.01547239479E+01	-6.08823986485E+00	-3.37237889106E-01
1.94216024003E+06	-1.41099559602E+01	1.78142873908E+02	2.58718851407E+01	1.46533757518E+02	-4.46293443380E+01	1.44833799775E+02	-5.95051213219E+00	-1.26306026280E+00
1.96435159462E+06	-1.20478572741E+01	1.68583604939E+02	2.58229482658E+01	1.46117295402E+02	-4.28799533066E+01	9.35961446571E+01	-6.01589068349E+00	-1.81677132743E+00
1.98654294922E+06	-1.51545138986E+01	1.79776100860E+02	2.58404652433E+01	1.45854875893E+02	-4.22034177449E+01	-2.61416210286E+01	-6.11638859436E+00	-4.83968532455E-01
2.00873430381E+06	-1.35311409910E+01	-1.58977346258E+02	2.58314552498E+01	1.45159248962E+02	-5.99282554174E+01	1.13735791406E+01	-6.02670983597E+00	-1.04483858701E+00
2.03092565841E+06	-1.37542338139E+01	1.74312010870E+02	2.57898522709E+01	1.44993450679E+02	-4.74947028559E+01	-9.69327385522E+01	-6.00295096991E+00	-2.72334032585E-01
2.05311701300E+06	-1.42451993063E+01	-1.59392493676E+02	2.57880059047E+01	1.44407687473E+02	-3.92493928654E+01	-5.62791885369E+01	-6.09768905339E+00	-2.09684447312E-01
2.07530836760E+06	-1.58413478309E+01	-1.71393140568E+02	2.57819972327E+01	1.44185328060E+02	-4.48343446541E+01	1.74866816844E+02	-5.89712461089E+00	-1.08750218961E+00
2.09749972219E+06	-7.72731596966E+00	1.76583483210E+02	2.56730301362E+01	1.43755547726E+02	-4.73589716398E+01	-9.16272707422E+01	-5.95866186188E+00	-3.04346080984E-01
2.11969107679E+06	-1.33704439247E+01	-1.72775647612E+02	2.56913794294E+01	1.43319752265E+02	-5.19295157421E+01	4.71807039852E+01	-6.05626096194E+00	-1.21898923559E+00
2.14188243138E+06	-1.29525812445E+01	-1.68997362028E+02	2.56806728960E+01	1.43006531071E+02	-4.54615493656E+01	1.28086054621E+02	-5.95592246267E+00	-1.56175827277E+00
2.16407378598E+06	-1.46950454896E+01	-1.66764608332E+02	2.57014851528E+01	1.42702190820E+02	-4.40064554711E+01	5.06590478660E+01	-6.06938352958E+00	-1.42604453156E+00
2.18626514057E+06	-1.45665245314E+01	-1.63105481786E+02	2.56876720636E+01	1.42325360086E+02	-4.67452586522E+01	9.24667579037E+01	-6.01469030933E+00	-1.54165057284E+00
2.20845649517E+06	-1.22152135886E+01	-1.56010204681E+02	2.56563306654E+01	1.41812624383E+02	-3.98795219869E+01	1.48613679433E+00	-6.16812134775E+00	-7.90420201154E-01
2.23064784976E+06	-2.09909344766E+01	1.20319578196E+02	2.56739177698E+01	1.42210973310E+02	-3.98483744227E+01	-6.20836305991E+01	-6.03228295024E+00	-6.58992658858E-02
2.25283920436E+06	-1.28022414974E+01	-1.74555229291E+02	2.55931617349E+01	1.41281291954E+02	-4.81302514659E+01	1.10622964421E+02	-5.97385804664E+00	-1.63307670459E+00
2.27503055895E+06	-1.30589004377E+01	-1.49464921211E+02	2.56111788296E+01	1.40713398117E+02	-4.88758745631E+01	-6.78579598723E+01	-6.01198297983E+00	-7.13656587215E-01
2.29722191355E+06	-1.91809860645E+01	-1.45715304818E+02	2.56119555894E+01	1.40609067912E+02	-3.92826633114E+01	-1.50020348554E+02	-5.80216694539E+00	-5.04665709999E-01
2.31941326814E+06	-1.59659257494E+01	-1.64620118767E+02	2.55754448376E+01	1.40222792424E+02	-4.60677116781E+01	-6.53039480071E+01	-6.01784622668E+00	-5.52818249880E-01
2.34160462274E+06	-1.55053274729E+01	-1.56925497932E+02	2.55761801757E+01	1.39840917976E+02	-4.48781166258E+01	6.03163182121E+01	-6.06805209605E+00	-1.65443988468E+00
2.36379597733E+06	-1.36664498399E+01	-1.78422053554E+02	2.54800254852E+01	1.39438397567E+02	-4.99816644719E+01	6.44689856830E+01	-6.00208529265E+00	-1.42406449072E+00
2.38598733193E+06	-1.61439488075E+01	-1.77247979001E+02	2.54782604075E+01	1.39323007422E+02	-5.10667413958E+01	9.09932379088E+01	-6.03551395923E+00	-1.41510563693E+00
2.40817868652E+06	-8.04820143647E+00	-1.54394021104E+02	2.54553608865E+01	1.38290916151E+02	-5.15739208650E+01	1.56807176312E+02	-5.96493500848E+00	-1.41425491418E+00
2.43037004112E+06	-1.12925601011E+01	-1.63197970463E+02	2.54372594172E+01	1.38264520214E+02	-4.42581882997E+01	1.36442686996E+02	-5.93621529828E+00	-2.06879418389E+00
2.45256139571E+06	-1.64198035535E+01	-1.72702644933E+02	2.54423100952E+01	1.38262283424E+02	-4.97404771267E+01	-1.64159647069E+01	-6.05979571169E+00	-9.20353480049E-01
2.47475275031E+06	-1.28110380205E+01	1.70142731168E+02	2.53681478848E+01	1.37918572585E+02	-4.45822589090E+01	-2.75623465516E+01	-6.09232923191E+00	-5.17682163343E-01
2.49694410490E+06	-1.43084353626E+01	-1.79448338682E+02	2.53696965152E+01	1.37486263448E+02	-4.40939110492E+01	-1.75396961213E+02	-5.90971054766E+00	-1.15416817254E+00
2.51913545950E+06	-1.19903587785E+01	-1.46810691851E+02	2.53914880162E+01	1.36839853602E+02	-4.99564220901E+01	3.15008501297E+01	-6.05204337026E+00	-1.39996678248E+00
2.54132681409E+06	-1.30750110264E+01	-1.56802449170E+02	2.53402930451E+01	1.36700565692E+02	-3.82840686303E+01	5.17988594362E+01	-6.11500834686E+00	-1.90194300977E+00
2.56351816869E+06	-1.40921615708E+01	1.76246937259E+02	2.53082142895E+01	1.36543209787E+02	-4.28406618112E+01	-8.80867548494E+01	-5.97407083086E+00	-5.96995574368E-01
2.58570952328E+06	-1.33696963852E+01	-1.63565916660E+02	2.52907037519E+01	1.35926327011E+02	-4.47870867958E+01	-2.21200930771E+01	-6.11916052264E+00	-7.24140373567E-01
2.60790087788E+06	-1.57725263487E+01	-1.51171022349E+02	2.52974238342E+01	1.35765967990E+02	-4.96902487354E+01	-1.66051635947E+02	-5.94560255742E+00	-9.48903682905E-01
2.63009223247E+06	-1.32337223756E+01	1.76180950785E+02	2.52353807174E+01	1.35457175441E+02	-4.31728094982E+01	-4.98367302504E+01	-6.05069287191E+00	-4.93060089712E-02
2.65228358707E+06	-1.59291685848E+01	-1.70774408439E+02	2.52789356143E+01	1.35019622241E+02	-4.56376167593E+01	3.79660536865E+01	-6.11482542314E+00	-1.43803328564E+00
2.67447494166E+06	-1.38858825990E+01	1.65719441521E+02	2.51750001777E+01	1.34918897306E+02	-4.34020452453E+01	-1.54163883493E+02	-5.89239225990E+00	-8.17812171570E-01
2.69666629626E+06	-1.63704998412E+01	-1.44617388594E+02	2.52425777818E+01	1.34294137450E+02	-4.20855527107E+01	-1.04250222167E+02	-5.91386203065E+00	-5.63058758286E-01
2.71885765085E+06	-1.36266463235E+01	-1.72811284136E+02	2.51766458256E+01	1.33884795299E+02	-3.98672891500E+01	-4.28733634797E+01	-6.08283217335E+00	-4.73910007767E-01
2.74104900545E+06	-1.20613579874E+01	1.71681594236E+02	2.51090759139E+01	1.33752489844E+02	-4.78719331051E+01	6.98404619571E+01	-6.04766681240E+00	-1.65820143503E+00
2.76324036004E+06	-1.27877260798E+01	-1.77701949666E+02	2.51185052354E+01	1.33204640082E+02	-4.40884355706E+01	1.22470117615E+02	-5.97163937628E+00	-1.92765581991E+00
2.78543171463E+06	-1.58395454974E+01	1.75948864649E+02	2.51156247361E+01	1.33219528440E+02	-3.92757441079E+01	2.27475083294E+01	-6.19638640001E+00	-1.58480827928E+00
2.80762306923E+06	-1.58063655932E+01	1.78405748999E+02	2.50823238284E+01	1.32858968463E+02	-6.71803643948E+01	1.32119695138E+02	-5.99406239589E+00	-1.17648987168E+00
2.82981442382E+06	-1.58412468165E+01	1.74207877767E+02	2.50682906039E+01	1.32628590848E+02	-4.59949939203E+01	-1.14548265876E+02	-5.96175206523E+00	-8.24276744602E-01
2.85200577842E+06	-1.59439397723E+01	-1.59458596684E+02	2.50753464867E+01	1.32051270882E+02	-4.10668100732E+01	1.50469361220E+02	-5.94204647615E+00	-2.10837033667E+00
2.87419713301E+06	-2.01051672851E+01	-1.54016368390E+02	2.50520129751E+01	1.31780015559E+02	-3.95662168408E+01	-9.01079607754E+01	-5.93402070884E+00	-4.22472405883E-01
