# Hz S DB R 50
! CMT, M5065, 19127446, 24.2.4/2
! Date: 11/8/2024 2:36:25 PM
! Data: Format (Calibration Info)
! Freq	S11:dB/Ang(F2)	S21:dB/Ang(F2)	S12:dB/Ang(F2)	S22:dB/Ang(F2)
3.00000000000E+05	-1.34194245021E+01	-1.67545329470E+02	4.66621045107E+00	-1.77656246145E+02	-4.05239325482E+01	-4.02560427609E+01	-6.02524554774E+00	-1.41472676138E-01
3.22191354595E+05	-1.35492709338E+01	-1.67916729789E+02	4.67648437998E+00	-1.77950578603E+02	-4.57333121893E+01	1.57025055874E+02	-6.02605470874E+00	-3.49695934622E-01
3.44382709190E+05	-1.43029897535E+01	-1.45999744100E+02	4.67335556604E+00	-1.78781459167E+02	-4.64742703871E+01	8.72825626488E+01	-6.00534997253E+00	-4.23134839984E-01
3.66574063785E+05	-1.57496568072E+01	1.65639651236E+02	4.65338392727E+00	-1.78637807447E+02	-4.85398018392E+01	1.11058257847E+02	-6.00444269368E+00	-2.63975862766E-01
3.88765418380E+05	-1.51060099888E+01	-1.58575146870E+02	4.66277431539E+00	-1.79427901065E+02	-6.60041154657E+01	1.34213825393E+02	-6.03206983555E+00	-3.60401880139E-01
4.10956772975E+05	-1.77380373119E+01	1.71504811768E+02	4.68019850705E+00	-1.78949497014E+02	-4.73631407518E+01	1.03900466926E+01	-6.02666492780E+00	-3.75898732734E-01
4.33148127570E+05	-1.39317529860E+01	-1.72941197269E+02	4.64065350646E+00	-1.79301883423E+02	-4.48123043046E+01	-1.07965414517E+02	-6.00665022948E+00	-2.32799571959E-01
4.55339482165E+05	-1.60005282851E+01	1.49392931965E+02	4.67275373787E+00	-1.79064653404E+02	-4.42888438797E+01	-1.52341675030E+02	-6.00512365786E+00	-9.27845044508E-02
4.77530836760E+05	-1.37947368918E+01	1.67581143976E+02	4.66355859008E+00	-1.79524418341E+02	-4.40683299035E+01	-4.49138244717E+01	-6.01459388337E+00	-3.50481787766E-01
4.99722191355E+05	-1.07248367578E+01	-1.75919803967E+02	4.63404721827E+00	-1.79865237459E+02	-6.46334635018E+01	3.59191058320E+01	-6.01648824948E+00	-3.88424291842E-01
5.21913545950E+05	-1.40220799360E+01	1.68249023050E+02	4.67854887583E+00	1.79784773384E+02	-5.07715577988E+01	-3.12031652505E+01	-6.03309792158E+00	-1.83960286285E-01
5.44104900545E+05	-1.90061657934E+01	-1.51758000830E+02	4.70603028134E+00	1.79890583521E+02	-6.08895049970E+01	-8.34739488415E+01	-6.00725304367E+00	-4.54323388665E-01
5.66296255139E+05	-1.41206492255E+01	1.76410758695E+02	4.64772943934E+00	1.79745476107E+02	-4.35778091660E+01	-1.42842117204E+02	-6.01509327857E+00	-3.05003274787E-01
5.88487609734E+05	-1.41145635086E+01	-1.69910843569E+02	4.58046986703E+00	1.79378284487E+02	-4.35347394079E+01	1.61135648387E+02	-6.01961111168E+00	-3.12527259874E-01
6.10678964329E+05	-1.52270189699E+01	-1.76927048836E+02	4.68287432061E+00	1.79520993435E+02	-5.21047890932E+01	1.20532554774E+02	-6.01255788604E+00	1.02384624733E-01
6.32870318924E+05	-1.70153737345E+01	-1.79590898589E+02	4.66937355044E+00	1.79555791788E+02	-4.27092812352E+01	1.33451386107E+02	-5.99561249947E+00	-4.40642802216E-02
6.55061673519E+05	-1.18850730032E+01	1.67722143914E+02	4.65631056390E+00	1.79151605019E+02	-5.12968526497E+01	1.35995587206E+02	-6.00950255254E+00	-2.31429370421E-01
6.77253028114E+05	-1.30182439610E+01	1.78640649222E+02	4.61371741969E+00	1.79026534963E+02	-4.43726136518E+01	5.14101306560E+01	-6.03345615636E+00	-7.17351632893E-01
6.99444382709E+05	-1.40870170028E+01	-1.73198813027E+02	4.67759407220E+00	1.79074487421E+02	-4.34038702556E+01	1.27949332856E+02	-6.01336493551E+00	-2.29447574009E-01
7.21635737304E+05	-1.33745387801E+01	-1.68902766490E+02	4.69919652734E+00	1.78822526154E+02	-4.96594389365E+01	8.86737113033E+01	-5.99304620837E+00	-2.36969482944E-01
7.43827091899E+05	-1.21650914070E+01	-1.76744785745E+02	4.66356954068E+00	1.78462439524E+02	-3.96990212781E+01	-1.06519296222E+02	-6.02255915082E+00	-2.61279241132E-01
7.66018446494E+05	-1.41024365835E+01	-1.72271684401E+02	4.67633826155E+00	1.78169290066E+02	-4.04341857848E+01	-9.01894447879E+01	-6.00754462998E+00	-2.36501246485E-01
7.88209801089E+05	-1.44114258178E+01	1.76345240320E+02	4.65832536039E+00	1.78406409334E+02	-4.25340626872E+01	1.41873851370E+02	-6.02590156741E+00	-4.31905470762E-01
8.10401155684E+05	-1.06863213469E+01	1.76646156126E+02	4.66068902050E+00	1.78455623520E+02	-4.60655699739E+01	-1.19528855125E+02	-6.00468612761E+00	-2.93760238263E-01
8.32592510279E+05	-1.82134691085E+01	1.79123738572E+02	4.67480220604E+00	1.78173798246E+02	-4.63466073358E+01	1.58470007462E+02	-6.01218947741E+00	-3.42181693648E-01
8.54783864874E+05	-1.26799305214E+01	1.64358714253E+02	4.65551526075E+00	1.78486985580E+02	-4.20674220158E+01	-1.10382880650E+02	-6.02037927982E+00	-3.41726009094E-01
8.76975219469E+05	-1.60456767553E+01	-1.78665893936E+02	4.69311147950E+00	1.78063584410E+02	-4.30429620467E+01	1.71660507159E+02	-6.00558232838E+00	-2.86373643406E-01
8.99166574064E+05	-1.35893930647E+01	-1.54194171655E+02	4.69898427573E+00	1.77825626445E+02	-4.12740232721E+01	-1.61213291611E+02	-6.01505533662E+00	-1.73919825042E-01
9.21357928659E+05	-1.15330633228E+01	-1.58120404056E+02	4.72250420104E+00	1.77660474516E+02	-4.12478800790E+01	3.18114388971E+01	-6.02627603787E+00	-4.65945252034E-01
9.43549283254E+05	-1.51921548533E+01	-1.56953343040E+02	4.71915202202E+00	1.77475469162E+02	-4.64769945405E+01	1.88225455299E+01	-6.01989819193E+00	-5.01481889904E-01
9.65740637849E+05	-1.31162819921E+01	-1.78081751634E+02	4.66602797818E+00	1.77812405876E+02	-4.41327331664E+01	1.67062062964E+02	-5.98584880106E+00	-4.34438120409E-01
9.87931992444E+05	-1.27785584356E+01	-1.55770092509E+02	4.71727086688E+00	1.77074208866E+02	-5.11608121080E+01	-1.36238764170E+02	-6.03958795193E+00	-3.90779945205E-01
1.01012334704E+06	-1.33001725303E+01	-1.57641569311E+02	4.70683816213E+00	1.77428944757E+02	-4.26354370573E+01	6.03405804364E+01	-6.02358983184E+00	-5.15341755520E-01
1.03231470163E+06	-1.31253122605E+01	1.68554998544E+02	4.69065186669E+00	1.77402870973E+02	-4.19692421680E+01	1.27610619828E+02	-6.02157670623E+00	-3.79665520249E-01
1.05450605623E+06	-1.36509231565E+01	1.60582339301E+02	4.67527735594E+00	1.77258966106E+02	-4.38832932852E+01	1.26510912457E+02	-6.00537372287E+00	-5.57866526610E-01
1.07669741082E+06	-1.52773957519E+01	1.74430434963E+02	4.71111708859E+00	1.77183612925E+02	-4.28580574284E+01	-4.86850749586E+01	-6.02002579879E+00	-3.82530706024E-01
1.09888876542E+06	-1.64054345501E+01	-1.50035895265E+02	4.70010396778E+00	1.76829427219E+02	-3.85309034071E+01	-1.40627087215E+02	-6.00356072898E+00	-4.13532572368E-01
1.12108012001E+06	-1.13102158002E+01	1.49729674356E+02	4.63843785850E+00	1.77112859497E+02	-4.41299513413E+01	-4.74593371468E+01	-6.04292304828E+00	-4.34255312217E-01
1.14327147461E+06	-1.53668864727E+01	-1.76968992209E+02	4.68424637667E+00	1.76920771782E+02	-5.35890316078E+01	-3.30112836793E+01	-6.02015175471E+00	-4.06254968147E-01
1.16546282920E+06	-1.25807109980E+01	-1.59771983677E+02	4.66417100379E+00	1.76658098784E+02	-4.52043594331E+01	2.99831126455E+01	-6.01421661547E+00	-5.41913694259E-01
1.18765418380E+06	-1.54741063187E+01	1.65613592885E+02	4.68066500602E+00	1.76841123388E+02	-4.30874610356E+01	-1.50236042433E+02	-6.03281748375E+00	-3.69780172838E-01
1.20984553839E+06	-1.39925479168E+01	-1.68454648544E+02	4.68908785127E+00	1.76561615816E+02	-4.37695885870E+01	1.63297271217E+02	-6.00399464530E+00	-7.38630122924E-01
1.23203689299E+06	-1.15143847485E+01	-1.78768008053E+02	4.64846282261E+00	1.76706497016E+02	-3.97325615067E+01	-1.53354300384E+02	-6.00192443345E+00	-1.45075563087E-01
1.25422824758E+06	-1.44192683999E+01	-1.75094866213E+02	4.71453996742E+00	1.76389424594E+02	-4.64537282708E+01	6.89716783127E+01	-6.03313140636E+00	-6.95862326842E-01
1.27641960218E+06	-1.17014636805E+01	-1.37923271744E+02	4.67886187352E+00	1.75981410432E+02	-4.67144933721E+01	-6.72583174404E+01	-6.02218922396E+00	-5.18327533974E-01
1.29861095677E+06	-1.25693706726E+01	-1.72391610356E+02	4.68892690587E+00	1.76202449764E+02	-5.19544385454E+01	7.93369196151E+01	-6.03269228227E+00	-5.38717000647E-01
1.32080231137E+06	-1.16680385405E+01	1.79485929135E+02	4.70358469445E+00	1.76101608820E+02	-4.51149921880E+01	-1.71445087297E+02	-6.00131203391E+00	-9.00974968546E-01
1.34299366596E+06	-1.61134953191E+01	1.75662397650E+02	4.62890960156E+00	1.76484400254E+02	-4.31340615640E+01	1.53090287710E+02	-6.01163607277E+00	-6.62363838116E-01
1.36518502056E+06	-1.17057154711E+01	-1.77533029847E+02	4.60845457251E+00	1.75738548148E+02	-4.33717391617E+01	1.70780178123E+02	-6.00604185375E+00	-4.22356601449E-01
1.38737637515E+06	-1.28585812457E+01	-1.69756066883E+02	4.68146138555E+00	1.75590070462E+02	-4.27732381317E+01	-8.13672770440E+01	-6.00231901983E+00	-6.54225426490E-01
1.40956772975E+06	-1.66175833162E+01	1.75002045967E+02	4.69824143137E+00	1.75622777044E+02	-4.82148805009E+01	3.75813428829E+01	-5.99875822772E+00	-7.24231626156E-01
1.43175908434E+06	-1.49575394748E+01	1.74049207822E+02	4.65095051399E+00	1.75654730924E+02	-4.58079069485E+01	-1.61611707244E+02	-6.00871530939E+00	-5.11795840468E-01
1.45395043894E+06	-1.45343660728E+01	1.77351349351E+02	4.72240212222E+00	1.75574632411E+02	-5.46789529351E+01	1.54937194510E+02	-6.01711473588E+00	-7.25496239642E-01
1.47614179353E+06	-1.31265054085E+01	-1.78336338938E+02	4.69973839578E+00	1.75551296544E+02	-6.52395014707E+01	7.92253316639E+01	-6.00741980724E+00	-5.37985587979E-01
1.49833314813E+06	-1.33438702711E+01	-1.49456281410E+02	4.70067529196E+00	1.75255101843E+02	-4.64892618379E+01	-8.33073552224E+01	-6.01750645187E+00	-6.82198259147E-01
1.52052450272E+06	-1.41789797440E+01	1.76308935384E+02	4.66869017863E+00	1.75247269145E+02	-4.32575692446E+01	-1.39881415779E+02	-6.02932616641E+00	-6.39078790195E-01
1.54271585732E+06	-1.91113804858E+01	1.68602224988E+02	4.67267841648E+00	1.75327905122E+02	-4.79181083212E+01	-9.75123249483E+01	-6.02135217739E+00	-5.83123019966E-01
1.56490721191E+06	-1.77755524800E+01	1.73146218691E+02	4.73844266731E+00	1.75057918392E+02	-4.74699971752E+01	1.73550160586E+02	-6.00038657777E+00	-6.54302256566E-01
1.58709856651E+06	-1.57536023789E+01	1.55706219757E+02	4.68450867073E+00	1.74695911925E+02	-4.72425496692E+01	-1.78007779370E+02	-5.99698527792E+00	-7.18932871399E-01
1.60928992110E+06	-1.29541517805E+01	1.79935450351E+02	4.67907225384E+00	1.74824201604E+02	-3.95400548749E+01	2.51084439786E+01	-6.00918743538E+00	-8.50084974816E-01
1.63148127570E+06	-1.35502609208E+01	-1.70722889872E+02	4.66242230552E+00	1.74739492598E+02	-4.97215878892E+01	-2.82383027788E+01	-6.02397346235E+00	-6.41693688748E-01
1.65367263029E+06	-1.16213764016E+01	1.58842112730E+02	4.63304944209E+00	1.74971219175E+02	-4.63539581787E+01	-8.22372486938E+01	-6.03103796662E+00	-6.51356260845E-01
1.67586398489E+06	-1.47655800074E+01	-1.72861409947E+02	4.65321504679E+00	1.74517655565E+02	-4.48704465150E+01	-7.09405411881E+01	-6.01855566852E+00	-5.52499460834E-01
1.69805533948E+06	-1.63509584132E+01	-1.66780141709E+02	4.74684089954E+00	1.74822536582E+02	-3.99728710902E+01	-7.07219453020E+00	-6.02123996091E+00	-7.97434012837E-01
1.72024669408E+06	-1.28006796439E+01	-1.64187743973E+02	4.69818584113E+00	1.74110611345E+02	-4.70432978055E+01	-4.95975019729E+01	-6.03156143605E+00	-6.62645851692E-01
1.74243804867E+06	-1.38887263593E+01	-1.75490432772E+02	4.67580404628E+00	1.74604962960E+02	-5.09610800257E+01	1.07003943054E+02	-6.00141251274E+00	-7.67705266872E-01
1.76462940327E+06	-7.94434844969E+00	1.61705882767E+02	4.60374597079E+00	1.74080370590E+02	-4.12113148972E+01	8.30537521322E+01	-6.04026118816E+00	-7.14287830932E-01
1.78682075786E+06	-1.55879281109E+01	1.73726706932E+02	4.74157005910E+00	1.74234362681E+02	-4.64166047380E+01	7.40274299575E+01	-6.02296067988E+00	-8.31200401746E-01
1.80901211246E+06	-1.59893493591E+01	1.65702224562E+02	4.67645774006E+00	1.74360713655E+02	-4.78738208894E+01	-1.14544523456E+02	-6.01826419546E+00	-8.69396879092E-01
1.83120346705E+06	-1.20856975639E+01	-1.56946331384E+02	4.66622262679E+00	1.73888587269E+02	-4.34725647230E+01	8.66600260437E+01	-6.01434455233E+00	-7.51508119943E-01
1.85339482165E+06	-1.02811976800E+01	-1.65455088519E+02	4.66301698018E+00	1.73695416869E+02	-4.02110466787E+01	6.90746233861E+01	-5.98989291601E+00	-8.51881397696E-01
1.87558617624E+06	-1.35552655211E+01	-1.71060693501E+02	4.66260189658E+00	1.73750057654E+02	-6.21200429876E+01	1.75324285569E+01	-6.01056876868E+00	-9.28101362670E-01
1.89777753084E+06	-1.86674291856E+01	-1.55246537552E+02	4.72388133866E+00	1.73696716556E+02	-4.54681632475E+01	8.37474782013E+01	-6.01146712475E+00	-9.09619912240E-01
1.91996888543E+06	-1.55021042473E+01	1.31693791357E+02	4.65446369266E+00	1.74081326257E+02	-4.78844299057E+01	1.72216822498E+02	-6.02986756022E+00	-7.65193416228E-01
1.94216024003E+06	-1.38167491863E+01	-1.54532442816E+02	4.73380591538E+00	1.73810124268E+02	-3.73363318253E+01	-4.57056770959E+01	-6.03802234026E+00	-7.80683917203E-01
1.96435159462E+06	-1.33466843597E+01	1.68711194378E+02	4.66913236204E+00	1.73584464023E+02	-4.29769901993E+01	1.43568627312E+02	-5.99836463886E+00	-7.99794997576E-01
1.98654294922E+06	-1.52817318869E+01	-1.59504734867E+02	4.72712356770E+00	1.73104122562E+02	-5.35534441986E+01	-9.11519661850E+00	-6.00216785528E+00	-9.41174307041E-01
2.00873430381E+06	-1.38372198400E+01	-1.58142052070E+02	4.69318156807E+00	1.73481805346E+02	-3.94425156828E+01	1.60347996174E+01	-6.00604105684E+00	-8.75360413465E-01
2.03092565841E+06	-1.27007653138E+01	-1.70595800605E+02	4.70808210925E+00	1.73479797563E+02	-4.51486284456E+01	-1.18316632420E+02	-6.00606030055E+00	-9.29997338879E-01
2.05311701300E+06	-1.34553279929E+01	-1.56199604066E+02	4.73498859991E+00	1.73021722680E+02	-5.25005774537E+01	-1.21374565511E+02	-6.01347012738E+00	-7.87390024682E-01
2.07530836760E+06	-1.44619900978E+01	-1.76431336694E+02	4.67933196066E+00	1.73100612989E+02	-4.33141718221E+01	2.45730013127E+00	-6.01002887555E+00	-9.98246272879E-01
2.09749972219E+06	-1.66187673956E+01	1.68830264420E+02	4.68328266768E+00	1.73432226001E+02	-4.34488536618E+01	1.36138125961E+02	-5.99123658126E+00	-9.67305013583E-01
2.11969107679E+06	-1.57168477450E+01	-1.78089952303E+02	4.69076005056E+00	1.73104765350E+02	-4.70644230788E+01	1.59868113952E+02	-5.99324939182E+00	-8.84825763300E-01
2.14188243138E+06	-1.46591749719E+01	-1.78279659784E+02	4.73217137258E+00	1.73117821377E+02	-4.66980742291E+01	7.17235682366E+01	-6.01762499426E+00	-9.42191814729E-01
2.16407378598E+06	-1.46538086039E+01	-1.78588276711E+02	4.71461580666E+00	1.72928799505E+02	-3.33332812574E+01	-7.38645405688E+01	-6.04277960010E+00	-6.73991486968E-01
2.18626514057E+06	-1.13947292988E+01	1.74802648745E+02	4.69827806038E+00	1.72847718540E+02	-4.38214655031E+01	-1.25525652839E+02	-5.99672713260E+00	-9.28217841917E-01
2.20845649517E+06	-1.13976502782E+01	-1.63315474816E+02	4.71805570010E+00	1.72515762152E+02	-4.58831634175E+01	9.11065245976E+01	-6.00819425299E+00	-1.10796689130E+00
2.23064784976E+06	-1.57279003102E+01	-1.40075067299E+02	4.75114123617E+00	1.72773263074E+02	-4.26576592908E+01	-1.05327042459E+02	-6.02013149847E+00	-8.36280285162E-01
2.25283920436E+06	-1.55030678392E+01	1.78539095966E+02	4.67773656177E+00	1.72260399757E+02	-4.97686907476E+01	4.42177650755E+01	-6.01379420751E+00	-1.06284847396E+00
2.27503055895E+06	-1.51710495714E+01	-1.64166928340E+02	4.72399329517E+00	1.72031196561E+02	-4.14909857155E+01	-8.82892552729E+01	-6.01536966070E+00	-9.27547134707E-01
2.29722191355E+06	-1.21344940009E+01	-1.53287802903E+02	4.70626967620E+00	1.72197648953E+02	-3.87629076258E+01	2.48899123670E+01	-6.00943700906E+00	-1.00511431842E+00
2.31941326814E+06	-1.74104031905E+01	1.72502141194E+02	4.79280296489E+00	1.72790156764E+02	-4.33143049685E+01	-1.13245048191E+02	-6.02206839058E+00	-7.61481220769E-01
2.34160462274E+06	-1.39314848407E+01	-1.54574562737E+02	4.72006444299E+00	1.72143866707E+02	-5.02583649880E+01	2.00816733347E+01	-6.00337330330E+00	-9.95015167484E-01
2.36379597733E+06	-1.12506694048E+01	-1.79179074796E+02	4.68503987463E+00	1.72041991283E+02	-4.51335970261E+01	-6.59784849240E+01	-6.02791834877E+00	-9.73711727913E-01
2.38598733193E+06	-1.64878453331E+01	1.44149108794E+02	4.68869465833E+00	1.72100676393E+02	-5.11632795362E+01	4.70241044204E+01	-6.01754618468E+00	-9.46637368660E-01
2.40817868652E+06	-1.16847168042E+01	1.78363181646E+02	4.73266727034E+00	1.71912239118E+02	-4.64763592778E+01	-9.37308576822E+01	-6.01533824617E+00	-1.14344279836E+00
2.43037004112E+06	-9.73869339417E+00	-1.73646468179E+02	4.65631992024E+00	1.71571202321E+02	-4.98755142066E+01	-5.13857718215E+01	-6.03849934411E+00	-1.29576897033E+00
2.45256139571E+06	-1.45779232441E+01	-1.69066004181E+02	4.71221583552E+00	1.71643264879E+02	-3.74808192587E+01	-6.49478108040E+01	-6.03763792001E+00	-9.86371525362E-01
2.47475275031E+06	-1.27994094313E+01	-1.67303716463E+02	4.71999703280E+00	1.71600385731E+02	-3.47125966536E+01	1.48809397911E+01	-6.01611761994E+00	-1.24570274756E+00
2.49694410490E+06	-1.65148748808E+01	-1.76247283991E+02	4.68752883808E+00	1.71704415799E+02	-4.05741580436E+01	1.08963425278E+02	-6.00563041313E+00	-1.12203315255E+00
2.51913545950E+06	-1.70929431783E+01	-1.67616141684E+02	4.77848885398E+00	1.71796724799E+02	-4.74000694965E+01	-8.87222413629E+01	-6.00040410175E+00	-9.82495778867E-01
2.54132681409E+06	-1.13780859997E+01	-1.53298400987E+02	4.73482355973E+00	1.71295386718E+02	-4.09005844702E+01	-9.11043803905E+01	-6.01429775082E+00	-1.08361889991E+00
2.56351816869E+06	-1.25776419886E+01	-1.73100710997E+02	4.72061254101E+00	1.71318783609E+02	-4.43290339732E+01	-1.44092350903E+02	-6.00612885675E+00	-1.14229905713E+00
2.58570952328E+06	-1.43755702836E+01	1.68851177673E+02	4.70793585577E+00	1.71330043273E+02	-5.05376219186E+01	8.22850875291E+01	-6.02377185776E+00	-1.21210085748E+00
2.60790087788E+06	-1.45706564987E+01	-1.64966822745E+02	4.73064511914E+00	1.70967722839E+02	-4.35426322049E+01	-1.64216793250E+01	-6.03239360911E+00	-1.00522037394E+00
2.63009223247E+06	-1.38124443386E+01	1.78335737781E+02	4.74287368751E+00	1.71086748411E+02	-4.57518671293E+01	-5.16216923120E+01	-6.01535299899E+00	-7.10338072449E-01
2.65228358707E+06	-1.45929402287E+01	1.76398240441E+02	4.71713747810E+00	1.71094518321E+02	-4.51357194443E+01	1.49211880367E+02	-5.99253774697E+00	-1.17723684242E+00
2.67447494166E+06	-1.39970158836E+01	1.70954815657E+02	4.68735317020E+00	1.70928853541E+02	-5.27208626059E+01	1.76939029176E+02	-5.99969210902E+00	-1.09621513147E+00
2.69666629626E+06	-1.38819194741E+01	-1.60719306403E+02	4.74842005286E+00	1.70828936282E+02	-4.98017191825E+01	-1.16709277488E+02	-6.03387083323E+00	-1.24589939051E+00
2.71885765085E+06	-1.50104852699E+01	-1.63525893473E+02	4.73433970021E+00	1.70818380049E+02	-4.09305543571E+01	4.64403806123E+01	-6.02955970988E+00	-1.17731053850E+00
2.74104900545E+06	-1.43186436264E+01	-1.73785286942E+02	4.71732499409E+00	1.70362242537E+02	-4.21999606484E+01	-5.73719782649E+01	-6.01155963881E+00	-1.08117491234E+00
2.76324036004E+06	-1.23077276426E+01	-1.71449389741E+02	4.71435552257E+00	1.70290994886E+02	-4.64763656701E+01	-1.69058387284E+02	-5.99748909143E+00	-1.12576672847E+00
2.78543171463E+06	-1.41621167341E+01	1.74354267790E+02	4.74551252142E+00	1.70463075820E+02	-4.74389846972E+01	-1.72454216989E+02	-6.00349968535E+00	-1.10156458957E+00
2.80762306923E+06	-1.61469915767E+01	-1.47736349450E+02	4.76103163174E+00	1.70578811844E+02	-5.48350122419E+01	-1.59574266937E+02	-5.99789435695E+00	-1.12492572530E+00
2.82981442382E+06	-1.40528484538E+01	-1.55759771172E+02	4.78410442053E+00	1.70155511551E+02	-5.84444909272E+01	-1.82176783501E+00	-5.99297953710E+00	-1.23171985808E+00
2.85200577842E+06	-1.54578989333E+01	-1.13446087583E+02	4.78248334323E+00	1.69947444541E+02	-4.34945260871E+01	-1.71707934045E+02	-5.99574662772E+00	-1.25326826059E+00
2.87419713301E+06	-1.58011728126E+01	-1.67833383694E+02	4.76742348873E+00	1.70369319867E+02	-4.76459061947E+01	-1.03020615787E+02	-6.02075928513E+00	-1.30591321691E+00
