# Hz S DB R 50
! CMT, M5065, 19127446, 24.2.4/2
! Date: 11/8/2024 2:57:36 PM
! Data: Format (Calibration Info)
! Freq	S11:dB/Ang(F2)	S21:dB/Ang(F2)	S12:dB/Ang(F2)	S22:dB/Ang(F2)
3.00000000000E+05	-1.27028668213E+01	-1.62758633633E+02	8.74741758045E+00	-1.77808658203E+02	-4.20785409442E+01	4.08134306960E+00	-6.01601123898E+00	-2.92965326150E-01
3.22191354595E+05	-1.05306964197E+01	-1.57550149164E+02	8.72734657940E+00	-1.77984601072E+02	-5.14533071199E+01	-7.57645975520E+01	-5.98162086181E+00	-2.90897227307E-01
3.44382709190E+05	-1.60782031300E+01	1.66975286589E+02	8.77370615787E+00	-1.78084056820E+02	-4.65309934821E+01	4.35428580480E+01	-6.00726240770E+00	-3.47813268503E-01
3.66574063785E+05	-1.72455372550E+01	1.73464116128E+02	8.76186513471E+00	-1.78520650667E+02	-4.90065277518E+01	1.25232427191E+02	-6.00653967594E+00	-2.50228237733E-01
3.88765418380E+05	-1.51321897999E+01	-1.75141235873E+02	8.84153016288E+00	-1.78821967311E+02	-3.82751242883E+01	-5.60348122749E+01	-5.99189201549E+00	-1.67129997897E-01
4.10956772975E+05	-1.43645603290E+01	-1.72353882236E+02	8.75275729383E+00	-1.79143215302E+02	-4.49758592406E+01	-9.09047475704E+01	-6.01333405067E+00	-2.47942428215E-01
4.33148127570E+05	-1.45004432637E+01	1.67346391273E+02	8.75943972382E+00	-1.79247294724E+02	-4.62236665987E+01	-1.38157761491E+01	-6.00853907615E+00	-2.71614548799E-01
4.55339482165E+05	-1.63458728328E+01	-1.64501532933E+02	8.77650543002E+00	-1.79976489008E+02	-4.52063721285E+01	6.65786754812E+01	-6.02186785095E+00	-3.80419302077E-01
4.77530836760E+05	-1.66104790381E+01	1.52664499291E+02	8.75245956311E+00	-1.79897420344E+02	-4.68230740564E+01	-9.47554565959E+01	-5.99634481477E+00	-2.72408297341E-01
4.99722191355E+05	-1.20917645978E+01	-1.73152293725E+02	8.75321343931E+00	1.79744991066E+02	-4.62608014224E+01	-3.55233187395E+00	-6.01069542132E+00	-2.53536599002E-01
5.21913545950E+05	-1.49588660018E+01	-1.77003923410E+02	8.74740325897E+00	1.79813584131E+02	-4.82638013434E+01	4.95405698595E+01	-6.01056000533E+00	-3.93316866465E-01
5.44104900545E+05	-1.44649233449E+01	-1.63393277802E+02	8.75587224542E+00	1.79373266738E+02	-3.57242984192E+01	-1.10841237317E+02	-5.98229819711E+00	-1.98712087046E-01
5.66296255139E+05	-1.48037862324E+01	1.74797463925E+02	8.76769672059E+00	1.79342507359E+02	-3.79699775153E+01	5.76708846615E+01	-6.00805252643E+00	-5.90846466173E-01
5.88487609734E+05	-1.37441267664E+01	1.77226200225E+02	8.73243285953E+00	1.79269946064E+02	-4.76005524201E+01	1.55894192208E+02	-5.98314718199E+00	-3.42769214335E-01
6.10678964329E+05	-1.36349657145E+01	-1.56224075922E+02	8.78552789395E+00	1.78837754334E+02	-4.89553809912E+01	1.00307585840E+02	-6.00338590330E+00	1.36469443550E-01
6.32870318924E+05	-1.25563848732E+01	1.67774431335E+02	8.76666924118E+00	1.78944222791E+02	-4.99002524943E+01	1.13066612549E+02	-6.01850900842E+00	-2.26949923892E-01
6.55061673519E+05	-1.51775587396E+01	-1.61806834163E+02	8.75694059061E+00	1.78526380002E+02	-4.04835514950E+01	4.15471366746E+01	-6.02608750512E+00	-2.28061536161E-01
6.77253028114E+05	-1.52543855906E+01	1.79944638272E+02	8.77840386042E+00	1.78801989018E+02	-5.53565492931E+01	1.28278287976E+02	-6.00314050245E+00	-6.40039935482E-01
6.99444382709E+05	-1.21333649061E+01	-1.67185659328E+02	8.75835631932E+00	1.78002747076E+02	-4.63552436710E+01	1.06790727093E+02	-5.98827769799E+00	-5.11441531813E-01
7.21635737304E+05	-1.38150374839E+01	1.61083537169E+02	8.74079350402E+00	1.78523163575E+02	-5.22672945575E+01	-1.52659978956E+02	-5.99558820825E+00	-4.84427834130E-01
7.43827091899E+05	-1.46331714426E+01	1.79990144343E+02	8.75560375538E+00	1.78162304472E+02	-5.76174750165E+01	-2.19625603200E+01	-6.00645916803E+00	-3.53437287028E-01
7.66018446494E+05	-1.51083137600E+01	1.70411007922E+02	8.81112332395E+00	1.78050338117E+02	-3.67038172641E+01	2.48086295074E+01	-6.01989977908E+00	-4.44457653178E-01
7.88209801089E+05	-1.41761247062E+01	-1.79597520842E+02	8.73809887510E+00	1.77721922923E+02	-5.84192380449E+01	-1.61402741566E+02	-5.99424357513E+00	-4.53135002883E-01
8.10401155684E+05	-1.41554213157E+01	1.75261857642E+02	8.74273582870E+00	1.77740083795E+02	-5.37915492748E+01	-4.60304819553E+01	-5.98773837582E+00	-4.10270387100E-01
8.32592510279E+05	-1.10586748485E+01	-1.75708820135E+02	8.75937480670E+00	1.77482802441E+02	-5.67268819262E+01	-1.48751581329E+02	-5.99641136130E+00	-4.00752274506E-01
8.54783864874E+05	-1.17730891259E+01	-1.68137849601E+02	8.76521304086E+00	1.77210249123E+02	-3.76162366252E+01	-1.16212634622E+02	-6.00099429945E+00	-2.95528153699E-01
8.76975219469E+05	-1.56276103936E+01	-1.75136007132E+02	8.77517561652E+00	1.77275445000E+02	-5.82474342985E+01	1.58735623119E+02	-5.99798012827E+00	-5.00977344245E-01
8.99166574064E+05	-1.35359935309E+01	1.62932446022E+02	8.77978157295E+00	1.77228624511E+02	-4.20353988886E+01	-1.85836355213E+00	-6.03562659037E+00	-5.25350158738E-01
9.21357928659E+05	-1.40210232767E+01	1.77993124267E+02	8.74093887748E+00	1.77009493276E+02	-4.60984447953E+01	-9.94025932980E+01	-6.01641573325E+00	-3.19124156916E-01
9.43549283254E+05	-1.30715542609E+01	1.78514339572E+02	8.72998201120E+00	1.77039390641E+02	-4.26189623334E+01	-1.23675854413E+02	-5.96374420020E+00	-3.68204706225E-01
9.65740637849E+05	-1.26771000353E+01	-1.66774253787E+02	8.76178262284E+00	1.76594584356E+02	-5.82287331370E+01	-8.66314192281E+01	-5.99146098651E+00	-5.03679182214E-01
9.87931992444E+05	-1.11423888945E+01	1.61871501524E+02	8.74261775835E+00	1.76909438559E+02	-5.90173432073E+01	9.81030224817E+01	-5.99120807735E+00	-5.61240631464E-01
1.01012334704E+06	-1.16977975268E+01	-1.63269724906E+02	8.75323247888E+00	1.76325875368E+02	-4.79962904812E+01	-3.24348227357E+01	-6.01693627822E+00	-4.88209620840E-01
1.03231470163E+06	-1.58860567411E+01	1.67064043963E+02	8.75307343106E+00	1.76674207515E+02	-5.11744215531E+01	1.69401053741E+02	-5.99558404573E+00	-4.60921686019E-01
1.05450605623E+06	-1.23341198852E+01	1.75042348612E+02	8.78305975693E+00	1.76184875284E+02	-4.47049057959E+01	-1.08849913994E+02	-5.99648460663E+00	-2.99653115462E-01
1.07669741082E+06	-1.29306862915E+01	-1.66962009682E+02	8.72777841378E+00	1.75934462046E+02	-5.26993214204E+01	-1.40910723888E+02	-5.99707010184E+00	-3.05637024256E-01
1.09888876542E+06	-1.39107762177E+01	-1.55683864375E+02	8.78254529510E+00	1.75846220375E+02	-5.12673847810E+01	-1.79873061681E+02	-5.99587072005E+00	-4.36370773094E-01
1.12108012001E+06	-1.50613457581E+01	-1.74221998077E+02	8.76286925646E+00	1.76041762293E+02	-6.40736916038E+01	1.62111910285E+02	-5.99792373065E+00	-4.69045834817E-01
1.14327147461E+06	-1.21157582282E+01	-1.63067927707E+02	8.78416434455E+00	1.75827947642E+02	-4.70090320119E+01	1.71318750078E+02	-6.00478827613E+00	-5.18737320897E-01
1.16546282920E+06	-1.33235951602E+01	-1.60589429188E+02	8.76519840648E+00	1.75822931955E+02	-3.98231810021E+01	-9.50253226437E+01	-6.02075577932E+00	-4.54225190071E-01
1.18765418380E+06	-1.42179283443E+01	-1.65630079788E+02	8.77186537985E+00	1.75567515454E+02	-4.56396509909E+01	6.71098406947E+01	-5.99364793665E+00	-5.75211741453E-01
1.20984553839E+06	-1.27198441941E+01	-1.64417918448E+02	8.76578597017E+00	1.75050248541E+02	-4.14070694377E+01	1.23625344663E+02	-5.98508058592E+00	-6.67128343097E-01
1.23203689299E+06	-1.36786099756E+01	1.53673710935E+02	8.75924872868E+00	1.75598053809E+02	-5.19013533876E+01	8.67462931972E+01	-6.01214750172E+00	-4.41525056959E-01
1.25422824758E+06	-1.32184207809E+01	1.70079391664E+02	8.76791890140E+00	1.75493437563E+02	-4.14544226018E+01	1.12573716691E+02	-5.98393154557E+00	-7.84931885121E-01
1.27641960218E+06	-1.45351740338E+01	1.75684662024E+02	8.79381327223E+00	1.75331684124E+02	-5.39110834694E+01	-1.61858366607E+02	-5.99226065822E+00	-5.36678155223E-01
1.29861095677E+06	-1.36741623538E+01	-1.77028544371E+02	8.73556286754E+00	1.75013316493E+02	-4.73132108192E+01	9.35207460285E+01	-6.01424811548E+00	-5.28165621994E-01
1.32080231137E+06	-1.91648490191E+01	-1.73611528811E+02	8.78202009035E+00	1.75206555833E+02	-4.55452616284E+01	1.86130694519E+01	-6.00737291924E+00	-1.02512490551E+00
1.34299366596E+06	-1.36486252905E+01	-1.72226884081E+02	8.73398891813E+00	1.74862670037E+02	-3.90864372656E+01	1.61438923108E+02	-5.97101573355E+00	-5.26819835837E-01
1.36518502056E+06	-1.45659162311E+01	1.72406525712E+02	8.77632974008E+00	1.74955913428E+02	-4.66422107803E+01	-6.71118157559E+00	-6.03260447917E+00	-5.64713964383E-01
1.38737637515E+06	-1.30584697595E+01	1.68979025302E+02	8.76661803590E+00	1.74610739799E+02	-4.01685804083E+01	-1.78101473777E+01	-6.00618499792E+00	-6.31700174988E-01
1.40956772975E+06	-1.50585626963E+01	-1.52720156109E+02	8.82217729519E+00	1.74514057032E+02	-3.97483498819E+01	1.12037694994E+02	-5.99042806918E+00	-9.02355254466E-01
1.43175908434E+06	-1.96298344298E+01	-1.77609135377E+02	8.75704315839E+00	1.74408245388E+02	-5.05667136181E+01	1.19601556980E+02	-5.99170724149E+00	-5.56825351743E-01
1.45395043894E+06	-1.30808627827E+01	-1.60687220521E+02	8.78762971044E+00	1.74134083984E+02	-4.60259440426E+01	3.75890320654E+01	-5.99405143738E+00	-8.18503254973E-01
1.47614179353E+06	-1.51442387224E+01	-1.69405962788E+02	8.77340230237E+00	1.74178042441E+02	-4.02141550205E+01	-4.09019678253E+01	-6.01703720809E+00	-4.97711865261E-01
1.49833314813E+06	-1.30287672717E+01	-1.74525900135E+02	8.73521719928E+00	1.74209673042E+02	-4.88976185355E+01	-9.45300188451E+01	-6.00787323846E+00	-8.10898190714E-01
1.52052450272E+06	-1.14579615526E+01	-1.77026718824E+02	8.77746622485E+00	1.73675735409E+02	-4.57967194609E+01	3.73010637182E+01	-6.00656984575E+00	-7.36995920106E-01
1.54271585732E+06	-1.38006917932E+01	-1.56077911805E+02	8.78474156428E+00	1.73620947005E+02	-4.93671510720E+01	8.67829920309E+01	-6.00598081286E+00	-8.22978824951E-01
1.56490721191E+06	-1.21531551576E+01	1.76295891274E+02	8.78011089306E+00	1.73991158548E+02	-4.24608231055E+01	9.07346070719E+01	-6.00042873118E+00	-9.07620203701E-01
1.58709856651E+06	-1.54514148814E+01	-1.33537926488E+02	8.82543811416E+00	1.73383273657E+02	-5.18073113742E+01	2.57587157346E+00	-6.00363614982E+00	-8.40182473086E-01
1.60928992110E+06	-1.29120031972E+01	-1.62501073513E+02	8.80937854611E+00	1.73502581358E+02	-4.27019365596E+01	-7.92605346417E+01	-5.97933517750E+00	-6.27204632848E-01
1.63148127570E+06	-1.53386459103E+01	1.77008736244E+02	8.77006337424E+00	1.73412525284E+02	-4.39710862951E+01	5.11390121826E+01	-5.99606000840E+00	-7.65671593998E-01
1.65367263029E+06	-1.42848663380E+01	-1.63523481822E+02	8.78730860089E+00	1.73176332889E+02	-4.10436863638E+01	-1.26696599549E+02	-5.99881755909E+00	-7.09371096564E-01
1.67586398489E+06	-1.51891310095E+01	-1.55506487223E+02	8.79863695718E+00	1.73038838950E+02	-4.29499483698E+01	2.60014515236E+01	-6.01642433221E+00	-8.48016055162E-01
1.69805533948E+06	-1.56963914220E+01	-1.72004101319E+02	8.77794557040E+00	1.73256274689E+02	-4.38576153706E+01	-8.96018195462E+00	-5.98685203034E+00	-7.62292221645E-01
1.72024669408E+06	-1.28210671127E+01	-1.75271916074E+02	8.75768989940E+00	1.73199761670E+02	-4.88364934236E+01	8.08227735972E+01	-6.00043509685E+00	-8.21250348952E-01
1.74243804867E+06	-1.23667430681E+01	-1.70782087625E+02	8.80329468572E+00	1.72818983130E+02	-4.38564104525E+01	1.68736763096E+02	-5.97188244448E+00	-6.21388374663E-01
1.76462940327E+06	-1.19340437843E+01	-1.71745238223E+02	8.75402757288E+00	1.72709410612E+02	-4.81447124149E+01	-1.75608983001E+02	-5.96109636213E+00	-7.34800094158E-01
1.78682075786E+06	-1.85970628455E+01	-1.61442867570E+02	8.82328695358E+00	1.72722842952E+02	-3.85470393947E+01	8.57155458780E+01	-6.00809906554E+00	-8.63163575964E-01
1.80901211246E+06	-1.69840038036E+01	1.75813922073E+02	8.77529680058E+00	1.72718227816E+02	-3.31216630657E+01	-1.77206844751E+01	-6.01621533706E+00	-9.31642981973E-01
1.83120346705E+06	-1.48023069936E+01	-1.74686803945E+02	8.80227025475E+00	1.72621125649E+02	-4.24403220839E+01	4.61607776126E+01	-6.01891632370E+00	-8.80526714213E-01
1.85339482165E+06	-1.53154588243E+01	-1.68705897568E+02	8.82735573703E+00	1.72332912770E+02	-5.09252407056E+01	-4.82740370590E+01	-6.00788303369E+00	-6.76409220658E-01
1.87558617624E+06	-1.44451263873E+01	-1.45076785366E+02	8.81318800322E+00	1.72215558393E+02	-4.85515547676E+01	8.14285703267E+01	-6.01816517595E+00	-8.54696953003E-01
1.89777753084E+06	-1.19904316558E+01	-1.62518501164E+02	8.76535542566E+00	1.71930488135E+02	-6.81252912416E+01	4.27845935227E+01	-6.00087836381E+00	-7.19254312926E-01
1.91996888543E+06	-1.35763293153E+01	-1.64181530397E+02	8.79094603986E+00	1.71934325227E+02	-4.60303755999E+01	1.62790935057E+01	-6.00033056840E+00	-9.01084659048E-01
1.94216024003E+06	-1.42449648143E+01	-1.60134773987E+02	8.77453664240E+00	1.71999768020E+02	-4.34835583031E+01	-1.69149340128E+02	-5.98842210981E+00	-7.88735911214E-01
1.96435159462E+06	-1.37030725316E+01	-1.77139715158E+02	8.78323092559E+00	1.71971942015E+02	-3.59655587763E+01	-1.03431655635E+02	-6.00868806108E+00	-8.03261714429E-01
1.98654294922E+06	-1.34764086690E+01	1.73343963793E+02	8.79840573437E+00	1.71961205511E+02	-5.41807087894E+01	1.61467247243E+02	-5.99201678684E+00	-7.95310029752E-01
2.00873430381E+06	-1.16089599109E+01	-1.78015860112E+02	8.81275067513E+00	1.71665574777E+02	-4.79710344112E+01	-8.78574572974E+01	-6.00588860065E+00	-8.14881240809E-01
2.03092565841E+06	-1.46647479347E+01	-1.38974591325E+02	8.84651112022E+00	1.71397812690E+02	-5.39938341375E+01	-1.12648283963E+02	-6.00299924958E+00	-7.48689790019E-01
2.05311701300E+06	-1.74307437541E+01	1.67590431949E+02	8.80536193133E+00	1.71732940095E+02	-4.65820519481E+01	3.79030882260E+01	-6.00924220521E+00	-9.60546786605E-01
2.07530836760E+06	-1.34201047971E+01	-1.76326269117E+02	8.78074359520E+00	1.71265865267E+02	-5.60521242225E+01	6.10711273149E+01	-6.00999863630E+00	-7.79439457143E-01
2.09749972219E+06	-1.31251322648E+01	-1.66999577045E+02	8.78982317150E+00	1.71213325402E+02	-4.17470881964E+01	1.61198350375E+02	-5.97085922772E+00	-9.37043239705E-01
2.11969107679E+06	-1.47268833942E+01	-1.76981922856E+02	8.76613598869E+00	1.71198205190E+02	-4.11896059534E+01	-1.28770240767E+01	-6.00953765014E+00	-9.04137709095E-01
2.14188243138E+06	-1.21387067890E+01	-1.71479812427E+02	8.81690852081E+00	1.70757269341E+02	-4.78321050996E+01	-1.23336759976E+02	-5.98133530840E+00	-8.23601343685E-01
2.16407378598E+06	-1.18420657438E+01	-1.68530082586E+02	8.78711168835E+00	1.70901870331E+02	-4.28941587758E+01	-1.24128382009E+02	-5.99989823980E+00	-8.15693055175E-01
2.18626514057E+06	-1.65943252200E+01	1.70879418765E+02	8.80897721696E+00	1.71103870321E+02	-4.44538881658E+01	1.43982574126E+02	-5.96759113917E+00	-1.06302129339E+00
2.20845649517E+06	-6.20750740029E+00	1.75091656997E+02	8.68765980052E+00	1.70177360064E+02	-4.43426708358E+01	-1.46507829707E+02	-5.98034769749E+00	-8.80892465729E-01
2.23064784976E+06	-1.35951185350E+01	1.69752004910E+02	8.80036572228E+00	1.70638939228E+02	-6.26564594601E+01	-2.31511899328E+01	-6.01053321210E+00	-1.03427417323E+00
2.25283920436E+06	-1.42898654529E+01	-1.38876688694E+02	8.85292839675E+00	1.70447763686E+02	-4.86240469917E+01	-1.77907650285E+02	-6.00153805279E+00	-8.99446086097E-01
2.27503055895E+06	-1.59651093088E+01	1.62089824560E+02	8.81554753415E+00	1.70674598018E+02	-3.46150861170E+01	-9.06089815181E+01	-6.05305632316E+00	-7.71257454190E-01
2.29722191355E+06	-1.43018487929E+01	-1.71262596883E+02	8.81024959053E+00	1.70325267222E+02	-4.51317567856E+01	-9.57803872624E+01	-6.00118996250E+00	-8.68784714457E-01
2.31941326814E+06	-1.24694702901E+01	-1.68635859664E+02	8.80709288049E+00	1.70177436904E+02	-5.49855859395E+01	1.46314174850E+02	-5.95895398916E+00	-8.45980871034E-01
2.34160462274E+06	-1.32226832584E+01	-1.61422777149E+02	8.80906550986E+00	1.70148029017E+02	-4.48766866920E+01	-3.13868095505E+01	-6.01813735781E+00	-1.18201815120E+00
2.36379597733E+06	-1.39025968887E+01	-1.77908749231E+02	8.79528931982E+00	1.70255581122E+02	-4.40675744846E+01	-1.66713757864E+02	-5.97514009846E+00	-9.26747014942E-01
2.38598733193E+06	-1.32746906659E+01	1.77835058605E+02	8.80756770016E+00	1.70190451434E+02	-4.45191173747E+01	-1.74924704350E+02	-5.97297449307E+00	-1.09886589651E+00
2.40817868652E+06	-1.26105109799E+01	-1.62889163738E+02	8.78373670314E+00	1.69903945737E+02	-5.00917742411E+01	5.28979112509E+01	-6.00003762581E+00	-1.29194053258E+00
2.43037004112E+06	-1.46757567255E+01	-1.52562161015E+02	8.85616364877E+00	1.69735381539E+02	-3.75394825749E+01	1.34249031936E+02	-5.96206684990E+00	-1.46249238461E+00
2.45256139571E+06	-1.37467314873E+01	-1.61935992509E+02	8.80829487235E+00	1.69563812235E+02	-7.57119282740E+01	2.89154470945E+01	-6.00842941962E+00	-1.11725547447E+00
2.47475275031E+06	-1.36785347725E+01	-1.62913151408E+02	8.79943127416E+00	1.69282684312E+02	-4.67303237978E+01	1.44619770179E+02	-5.97807682929E+00	-1.19102120719E+00
2.49694410490E+06	-1.47983421195E+01	-1.67848796200E+02	8.79525312677E+00	1.69538199287E+02	-5.14228694044E+01	-1.67483292853E+02	-6.00368004821E+00	-9.68722128460E-01
2.51913545950E+06	-1.71337292037E+01	-1.77087965475E+02	8.83001408034E+00	1.69587998893E+02	-4.29482023826E+01	-2.39339853702E+00	-6.00929249333E+00	-1.06611877459E+00
2.54132681409E+06	-1.37577541340E+01	-1.79202642034E+02	8.78370791619E+00	1.69548268422E+02	-5.48920403335E+01	1.33967892615E+02	-5.98668623355E+00	-1.07621530842E+00
2.56351816869E+06	-1.45873278218E+01	-1.67231394738E+02	8.80208547731E+00	1.69200797073E+02	-4.82306764871E+01	2.34071575175E+01	-6.02118933139E+00	-1.22559671347E+00
2.58570952328E+06	-1.48933615634E+01	-1.66779875671E+02	8.82776892855E+00	1.68959130619E+02	-4.59468935117E+01	-1.49615555625E+02	-5.99828430071E+00	-1.11790416326E+00
2.60790087788E+06	-1.58089773393E+01	-1.61222562540E+02	8.84289448157E+00	1.68957588284E+02	-4.16769001675E+01	-1.08599476008E+00	-6.01408095697E+00	-9.17182520559E-01
2.63009223247E+06	-1.16043041089E+01	1.79429205416E+02	8.80690599574E+00	1.68895271314E+02	-5.17525722318E+01	3.37124220178E+00	-5.99533218530E+00	-7.37697515658E-01
2.65228358707E+06	-1.26363327633E+01	-1.62007534547E+02	8.80698740703E+00	1.68649317402E+02	-5.34035644392E+01	7.45854099126E+01	-5.99490271321E+00	-1.25861205299E+00
2.67447494166E+06	-1.16716871989E+01	1.72117611822E+02	8.80591736205E+00	1.68515477408E+02	-5.67519638292E+01	1.00075515521E+02	-5.96790246788E+00	-1.22308134294E+00
2.69666629626E+06	-1.24770054722E+01	-1.63789100439E+02	8.81418708804E+00	1.68337995182E+02	-4.46796766760E+01	-4.27707625163E+01	-5.98607175116E+00	-1.18776935704E+00
2.71885765085E+06	-1.45172176624E+01	-1.69491287802E+02	8.83260576632E+00	1.68414484006E+02	-5.05553870779E+01	-8.61731405653E+01	-6.01015594923E+00	-1.14480470698E+00
2.74104900545E+06	-1.25786491402E+01	-1.75699318918E+02	8.79836563499E+00	1.68331814554E+02	-3.89584597824E+01	-9.61457369530E+01	-6.01548706326E+00	-1.05130217179E+00
2.76324036004E+06	-1.97803176273E+01	1.62907949493E+02	8.85859926047E+00	1.68502966036E+02	-5.26281895412E+01	6.43030478818E+01	-5.99375671662E+00	-1.15022974632E+00
2.78543171463E+06	-1.41759976202E+01	1.72123897195E+02	8.77105988560E+00	1.68416252207E+02	-4.05982832732E+01	1.66136378266E+01	-5.99620593696E+00	-1.19054121141E+00
2.80762306923E+06	-1.07606592611E+01	-1.62894932063E+02	8.81192070528E+00	1.67827654567E+02	-3.98980258064E+01	-1.71954572931E+02	-5.96168011212E+00	-1.12558536513E+00
2.82981442382E+06	-1.32392929800E+01	-1.49385591090E+02	8.84141405542E+00	1.67677337607E+02	-4.57921391594E+01	3.27465147560E+01	-6.00858251957E+00	-1.16664981715E+00
2.85200577842E+06	-1.43792564376E+01	-1.77244481534E+02	8.82118699089E+00	1.68019194543E+02	-4.01825625383E+01	9.43600648215E+01	-5.98695712443E+00	-1.44452639131E+00
2.87419713301E+06	-1.42458530622E+01	-1.75690178163E+02	8.83384782979E+00	1.67818762480E+02	-4.22457299284E+01	-6.11092407591E+01	-6.01367433647E+00	-1.22969495017E+00
