# Hz S DB R 50
! CMT, M5065, 19127446, 24.2.4/2
! Date: 11/8/2024 2:50:10 PM
! Data: Format (Calibration Info)
! Freq	S11:dB/Ang(F2)	S21:dB/Ang(F2)	S12:dB/Ang(F2)	S22:dB/Ang(F2)
3.00000000000E+05	-1.50266284908E+01	-1.71985187921E+02	6.45498246630E+00	-1.77912160952E+02	-4.49429723081E+01	-1.62793076872E+02	-5.99959225093E+00	-1.02938769581E-01
3.22191354595E+05	-1.28450251782E+01	-1.64219017552E+02	6.38223687501E+00	-1.78031137815E+02	-4.12929964291E+01	1.16404181537E+01	-6.02152728069E+00	-2.53987934932E-01
3.44382709190E+05	-1.12415819830E+01	-1.62976251758E+02	6.47459137521E+00	-1.78761454720E+02	-4.16309078916E+01	1.74612155892E+02	-6.00781332602E+00	-2.89615191253E-01
3.66574063785E+05	-1.54956673417E+01	-1.68550262458E+02	6.46142400473E+00	-1.78458930280E+02	-4.62807657275E+01	-1.34195213591E+02	-6.00039855417E+00	-1.80079730606E-01
3.88765418380E+05	-1.41381249049E+01	-1.73492291780E+02	6.47800364636E+00	-1.78953294681E+02	-4.64251485474E+01	8.50282669909E+01	-6.01570893746E+00	-4.25962191286E-01
4.10956772975E+05	-1.19979362044E+01	1.76358451045E+02	6.41594785271E+00	-1.79165966804E+02	-4.47300317457E+01	5.46223852973E+01	-6.00231794383E+00	-3.52494326755E-01
4.33148127570E+05	-1.60240398587E+01	-1.70641681489E+02	6.51825621910E+00	-1.79218043087E+02	-4.58643560428E+01	5.84228707754E+01	-6.01248799739E+00	-2.21385203148E-01
4.55339482165E+05	-1.33377656084E+01	-1.41714260600E+02	6.48981306834E+00	-1.79825670951E+02	-4.77129655513E+01	-1.11459564005E+02	-5.99746399786E+00	-1.82392186223E-01
4.77530836760E+05	-1.77558277176E+01	-1.77075876367E+02	6.49954541991E+00	-1.79722501326E+02	-6.05700617680E+01	-6.12354758182E+01	-6.01795921491E+00	-1.60149484425E-01
4.99722191355E+05	-1.35780983959E+01	-1.51593361364E+02	6.46866728087E+00	-1.79989390964E+02	-4.89524184008E+01	-3.76964792919E+01	-6.02704390458E+00	-2.38327142591E-01
5.21913545950E+05	-1.26589146409E+01	1.78189432711E+02	6.44345226173E+00	-1.79972361993E+02	-3.16691069702E+01	-1.45620707645E+02	-5.97724384220E+00	-2.38603543055E-01
5.44104900545E+05	-1.55944686173E+01	-1.57005485296E+02	6.48587808576E+00	1.79698825237E+02	-4.19532904011E+01	-1.39712135819E+02	-5.97537742268E+00	-2.59997743898E-01
5.66296255139E+05	-1.51005805298E+01	1.63755387219E+02	6.42726052404E+00	1.79789418486E+02	-5.09231238280E+01	-7.85879819818E+01	-5.99998963239E+00	-2.81843427890E-01
5.88487609734E+05	-1.51674646391E+01	-1.71795539188E+02	6.46316347176E+00	1.79208062987E+02	-4.12824540103E+01	2.14964351936E+01	-6.00549543735E+00	-3.05416133463E-01
6.10678964329E+05	-1.43202810963E+01	1.73467805490E+02	6.44194675204E+00	1.79504811584E+02	-4.81740160743E+01	1.05891476611E+02	-5.99538880194E+00	2.60924893392E-01
6.32870318924E+05	-1.77734879433E+01	1.74373409741E+02	6.48296185677E+00	1.78976923612E+02	-4.09754057796E+01	-1.46204607312E+02	-5.99688801831E+00	-1.66175939118E-01
6.55061673519E+05	-1.07813973164E+01	-1.68258034393E+02	6.42664480048E+00	1.78751895915E+02	-4.84737282100E+01	3.44781952369E+00	-6.00170824973E+00	-2.72282271350E-01
6.77253028114E+05	-1.37803723385E+01	-1.64581732069E+02	6.48481782226E+00	1.78916358511E+02	-4.18626575782E+01	-1.36116688815E+02	-6.00710554541E+00	-6.20053534355E-01
6.99444382709E+05	-1.07321968889E+01	1.58519134168E+02	6.40952836677E+00	1.78932724517E+02	-4.46687838145E+01	1.12938361584E+02	-6.01349580247E+00	-3.78881490431E-01
7.21635737304E+05	-1.26588703254E+01	1.68450088673E+02	6.49306597303E+00	1.78545564849E+02	-4.88547482428E+01	-1.78403726493E+02	-5.98924506731E+00	-3.69325739814E-01
7.43827091899E+05	-1.20580221572E+01	1.73214534872E+02	6.48562672816E+00	1.78524506709E+02	-4.26925745435E+01	1.81485740183E+01	-6.02145226587E+00	-4.40722273036E-01
7.66018446494E+05	-1.36368825909E+01	1.71591364569E+02	6.46104198874E+00	1.78420259184E+02	-4.12700433086E+01	-2.73160056525E-01	-6.02648058818E+00	-3.42850105439E-01
7.88209801089E+05	-1.44662297371E+01	1.76836652343E+02	6.47822430045E+00	1.78283653826E+02	-5.05481942809E+01	-1.96837214346E+00	-6.00829312954E+00	-4.54792354044E-01
8.10401155684E+05	-1.57060863690E+01	1.67118479954E+02	6.47462496923E+00	1.78309847095E+02	-4.11663677784E+01	2.92792684355E+01	-6.01912565951E+00	-3.55315782326E-01
8.32592510279E+05	-1.53666447706E+01	-1.49525509109E+02	6.45730977155E+00	1.77663262172E+02	-4.15295616273E+01	1.20857655636E+02	-5.98602773240E+00	-3.62664925976E-01
8.54783864874E+05	-1.41677360986E+01	-1.65743354316E+02	6.48473482259E+00	1.77782308175E+02	-5.50676455104E+01	1.15634502463E+02	-6.02368223813E+00	-4.42693290303E-01
8.76975219469E+05	-1.41196764014E+01	-1.62969376252E+02	6.50262204971E+00	1.77621543812E+02	-5.04919798550E+01	-1.76258899684E+02	-6.01601076004E+00	-4.23947815932E-01
8.99166574064E+05	-1.06260460432E+01	1.79144100283E+02	6.45476275223E+00	1.77657354362E+02	-4.11987210329E+01	5.20908774621E+01	-5.98370299501E+00	-5.41494607913E-01
9.21357928659E+05	-1.15966098330E+01	-1.70302158617E+02	6.44562639300E+00	1.77511756777E+02	-4.68120780402E+01	7.17137865259E+01	-5.99782614344E+00	-2.93927140202E-01
9.43549283254E+05	-1.38055485342E+01	-1.60596095991E+02	6.48417330230E+00	1.77206424415E+02	-5.33930749674E+01	1.51766811360E+02	-6.01086894114E+00	-3.96538818608E-01
9.65740637849E+05	-1.84402561947E+01	1.55651470227E+02	6.50094555839E+00	1.77344921658E+02	-4.27526852447E+01	-3.85957372238E+01	-6.00491706061E+00	-3.36580521500E-01
9.87931992444E+05	-1.27270700100E+01	-1.67321242391E+02	6.47715802768E+00	1.77420389482E+02	-3.69299971881E+01	-1.47535136465E+02	-6.01196083445E+00	-2.49329418713E-01
1.01012334704E+06	-1.33924658044E+01	-1.67009877891E+02	6.46744514406E+00	1.77016626105E+02	-4.93098481165E+01	1.61091222540E+02	-6.01114437461E+00	-3.05406363629E-01
1.03231470163E+06	-1.67382280803E+01	1.76957366429E+02	6.48364033901E+00	1.77195482026E+02	-6.11482331367E+01	-2.16116241231E+01	-6.02355942526E+00	-4.67649696735E-01
1.05450605623E+06	-1.44322696169E+01	1.56496606121E+02	6.48498958981E+00	1.76891300701E+02	-4.54478811340E+01	2.01570779289E+01	-6.02301941648E+00	-5.52740559878E-01
1.07669741082E+06	-1.45113222834E+01	-1.74264656848E+02	6.45946803220E+00	1.76549658825E+02	-3.84403337089E+01	-4.11223901247E+01	-5.99736765433E+00	-3.85614749921E-01
1.09888876542E+06	-1.29430188267E+01	-1.78110828905E+02	6.48714456485E+00	1.76496310774E+02	-4.54338346412E+01	-6.99050653155E+01	-5.99839553367E+00	-3.31167404473E-01
1.12108012001E+06	-1.45339771304E+01	1.75028942657E+02	6.47610699119E+00	1.76576360180E+02	-4.53727441313E+01	4.94598575592E+01	-5.99446094064E+00	-5.02053382930E-01
1.14327147461E+06	-1.06818660288E+01	-1.63015235809E+02	6.45014869612E+00	1.76110484311E+02	-3.91610001342E+01	-3.12549520271E+01	-6.01141789242E+00	-5.46407918965E-01
1.16546282920E+06	-1.32065256248E+01	-1.77828777721E+02	6.43505360227E+00	1.76388492527E+02	-3.83610831023E+01	-1.65217155655E+02	-5.96794948353E+00	-3.21824213016E-01
1.18765418380E+06	-1.43369209666E+01	-1.61689303679E+02	6.48478990461E+00	1.76148128805E+02	-3.80120459200E+01	1.02620509000E+02	-5.98643823968E+00	-6.58157428137E-01
1.20984553839E+06	-1.68697530483E+01	-1.69571186077E+02	6.49441499595E+00	1.76166418172E+02	-4.22929793713E+01	1.18577403597E+02	-6.00839791185E+00	-5.49966690761E-01
1.23203689299E+06	-1.31876621154E+01	1.73722468086E+02	6.45326895705E+00	1.76040129818E+02	-4.72942267641E+01	1.56330052586E+02	-5.98024648570E+00	-4.95059552643E-01
1.25422824758E+06	-1.57526311285E+01	-1.65985460918E+02	6.49811147974E+00	1.75680418871E+02	-6.06391206970E+01	1.32054579190E+02	-5.99089497811E+00	-6.44521005945E-01
1.27641960218E+06	-1.59307368281E+01	1.75488609118E+02	6.45678656305E+00	1.75922026452E+02	-5.82672745571E+01	1.02138178542E+02	-5.99485303314E+00	-4.74150258144E-01
1.29861095677E+06	-1.71612142784E+01	1.73139826656E+02	6.46575792410E+00	1.75911061700E+02	-4.41430358269E+01	-1.39132498610E+02	-5.99680440184E+00	-6.23082502172E-01
1.32080231137E+06	-1.32534383372E+01	1.76436927398E+02	6.46309624701E+00	1.75750092441E+02	-3.90301464392E+01	4.28251181375E+01	-6.03259579969E+00	-1.02509927957E+00
1.34299366596E+06	-1.63662388338E+01	-1.63332395828E+02	6.49945361225E+00	1.75713896679E+02	-4.45231012589E+01	1.07876074178E+00	-6.00287480150E+00	-9.08007637190E-01
1.36518502056E+06	-1.32048002096E+01	1.76450766946E+02	6.46800592668E+00	1.75244784417E+02	-4.60473768013E+01	1.56540735805E+02	-5.98860158963E+00	-5.77486420097E-01
1.38737637515E+06	-1.42680309317E+01	-1.64546058108E+02	6.46094491258E+00	1.75385936900E+02	-4.55356398842E+01	2.48282046338E+01	-5.99942328120E+00	-7.76663666572E-01
1.40956772975E+06	-1.44606654706E+01	-1.68163542828E+02	6.51156723917E+00	1.75599461268E+02	-4.57951343348E+01	-1.77103807622E+02	-6.00468581060E+00	-5.72641581225E-01
1.43175908434E+06	-2.60167093686E+01	1.33717577831E+02	6.47380690300E+00	1.75380527865E+02	-4.22909797977E+01	1.75846293434E+02	-6.00433910696E+00	-7.33832326734E-01
1.45395043894E+06	-1.52974726054E+01	1.75229438226E+02	6.44407389437E+00	1.75290627850E+02	-4.61696465767E+01	1.14537919915E+02	-6.00394796704E+00	-7.10454720676E-01
1.47614179353E+06	-1.22355575576E+01	-1.68160408391E+02	6.45791818505E+00	1.74746525036E+02	-3.98807112682E+01	2.21374742848E+01	-6.00915153189E+00	-7.84636194680E-01
1.49833314813E+06	-1.07217803002E+01	-1.61036430580E+02	6.46346020656E+00	1.74450522449E+02	-4.46503869028E+01	-4.89860779692E+01	-6.03448500023E+00	-5.57393850519E-01
1.52052450272E+06	-1.14365007245E+01	-1.77547076088E+02	6.48455523363E+00	1.74610110370E+02	-4.37837788605E+01	-6.44381994232E+01	-6.00000791217E+00	-6.48795386774E-01
1.54271585732E+06	-1.46247436352E+01	-1.73101714516E+02	6.45028179301E+00	1.74326142082E+02	-4.90705318217E+01	-8.07619245224E+01	-5.99794805686E+00	-7.27348097222E-01
1.56490721191E+06	-1.42727384427E+01	-1.70765756382E+02	6.49135292868E+00	1.74586736261E+02	-4.14620988820E+01	-1.62548153105E+02	-6.01341372600E+00	-7.09553841164E-01
1.58709856651E+06	-1.26005140780E+01	1.77403856199E+02	6.47523814590E+00	1.74658813726E+02	-5.68152404750E+01	8.60035118856E+00	-5.98925603701E+00	-7.31025514673E-01
1.60928992110E+06	-1.31042154586E+01	1.68194182917E+02	6.47229106708E+00	1.74540501392E+02	-4.30279837034E+01	-1.41294118624E+02	-5.99058791056E+00	-5.83450981688E-01
1.63148127570E+06	-1.50334156590E+01	-1.67501468635E+02	6.46620333208E+00	1.74358140979E+02	-3.24548185800E+01	-7.64909875730E+01	-6.02125485386E+00	-6.56255019515E-01
1.65367263029E+06	-1.15489048010E+01	-1.57896120383E+02	6.48765025408E+00	1.74023179989E+02	-4.44658637478E+01	1.64058442411E+02	-5.98012444223E+00	-6.54467089115E-01
1.67586398489E+06	-1.65185329679E+01	-1.76915251932E+02	6.45940084659E+00	1.74323191598E+02	-3.81703597760E+01	-6.88970085826E+01	-6.02123388384E+00	-6.60623337027E-01
1.69805533948E+06	-1.38639466094E+01	1.72311324705E+02	6.43859054821E+00	1.74070446745E+02	-4.27900613581E+01	-1.75236920092E+02	-5.97507434165E+00	-6.31462204562E-01
1.72024669408E+06	-2.02789230740E+01	-1.65574557005E+02	6.53343813599E+00	1.73952139185E+02	-4.76033427039E+01	2.08959608888E+01	-5.99296477925E+00	-8.16572768762E-01
1.74243804867E+06	-1.09643117914E+01	1.60952910505E+02	6.40961384760E+00	1.73672531581E+02	-4.84691148943E+01	-1.16992036768E+02	-6.01762964876E+00	-6.43501280358E-01
1.76462940327E+06	-1.76784494231E+01	-1.74195245408E+02	6.48387987366E+00	1.73908983486E+02	-5.10083829147E+01	-4.16762319152E+01	-6.00035450609E+00	-7.85876750204E-01
1.78682075786E+06	-1.14396667250E+01	-1.77639188883E+02	6.44629003295E+00	1.73235011277E+02	-4.65838157895E+01	1.64248855029E+02	-5.99011949300E+00	-7.80793109284E-01
1.80901211246E+06	-1.40370759784E+01	1.73491725132E+02	6.49049474306E+00	1.73510451036E+02	-4.02460034482E+01	-1.47575849130E+02	-5.96118398719E+00	-7.30820688606E-01
1.83120346705E+06	-1.37524730492E+01	1.58748028654E+02	6.44020636896E+00	1.73744459426E+02	-4.24634463642E+01	-1.40616057208E+02	-5.99197274686E+00	-7.35396776958E-01
1.85339482165E+06	-1.60823895477E+01	1.65783720460E+02	6.51512608711E+00	1.73479760864E+02	-5.64885236496E+01	1.69534484339E+02	-6.00073983520E+00	-8.66625390844E-01
1.87558617624E+06	-1.82566885175E+01	-1.68775146772E+02	6.56388896162E+00	1.73346994359E+02	-4.40034303344E+01	1.15843700144E+02	-6.01303967014E+00	-8.23665696651E-01
1.89777753084E+06	-1.17838150507E+01	1.65321110618E+02	6.46786715760E+00	1.73313767545E+02	-6.06395819770E+01	-1.07505105058E+02	-6.00534978554E+00	-8.30810179007E-01
1.91996888543E+06	-1.11415973736E+01	-1.75356867914E+02	6.43111276518E+00	1.73073094273E+02	-4.59421059734E+01	1.15209518841E+02	-5.99742096267E+00	-7.76895897733E-01
1.94216024003E+06	-1.56186750165E+01	-1.49825705515E+02	6.49949903352E+00	1.72994269040E+02	-3.91012717986E+01	9.25067661996E+01	-5.97449669045E+00	-9.66104026165E-01
1.96435159462E+06	-1.33450069945E+01	-1.61449907984E+02	6.50978629939E+00	1.72866136236E+02	-4.48884664998E+01	-1.30381949481E+02	-5.99258514423E+00	-9.64532203102E-01
1.98654294922E+06	-1.68885579706E+01	1.79842579856E+02	6.53820658728E+00	1.72982512041E+02	-3.91853624432E+01	-9.69897416887E+01	-6.00020441811E+00	-8.49573686312E-01
2.00873430381E+06	-1.47111468190E+01	-1.70491640419E+02	6.53057659461E+00	1.72629576384E+02	-4.80307530463E+01	1.31541496766E+02	-5.98966557184E+00	-8.73294017029E-01
2.03092565841E+06	-1.34189046060E+01	-1.69794065940E+02	6.50668210884E+00	1.72630096523E+02	-4.63500530297E+01	-7.56292265269E+01	-6.01092287816E+00	-7.56962506286E-01
2.05311701300E+06	-1.10109365293E+01	-1.73941994870E+02	6.46243232385E+00	1.72234272499E+02	-4.19256884638E+01	7.04367770140E+01	-5.96527712025E+00	-9.06015809777E-01
2.07530836760E+06	-1.31236271654E+01	1.54516417856E+02	6.48178708494E+00	1.72599195504E+02	-5.24976168429E+01	-5.03086386641E+01	-5.99228562582E+00	-8.87727143196E-01
2.09749972219E+06	-1.29412536694E+01	1.77759603414E+02	6.46052300797E+00	1.72464710533E+02	-3.49317383053E+01	9.20885782227E+01	-5.97389396629E+00	-1.15589700210E+00
2.11969107679E+06	-1.41815111934E+01	-1.74787354705E+02	6.47900256702E+00	1.72365829233E+02	-4.64465743387E+01	6.89022761263E+01	-6.00170881563E+00	-1.03238712521E+00
2.14188243138E+06	-1.41451710971E+01	1.77306764357E+02	6.46809518164E+00	1.72271543560E+02	-5.79841596766E+01	2.69935328151E+01	-5.99548472187E+00	-7.98639544952E-01
2.16407378598E+06	-1.50571550764E+01	-1.76231318078E+02	6.48891559389E+00	1.72237829658E+02	-4.91039174551E+01	-9.15826983060E+01	-6.01398839992E+00	-9.29136733013E-01
2.18626514057E+06	-1.71022078649E+01	-1.53087203362E+02	6.56361521923E+00	1.72044520192E+02	-4.80718720067E+01	-7.65754319466E+01	-6.01404903883E+00	-8.07146540532E-01
2.20845649517E+06	-1.26972900769E+01	-1.74485927101E+02	6.51194135573E+00	1.71710773306E+02	-4.29697695249E+01	1.45799437247E+01	-5.99476459545E+00	-1.10331080558E+00
2.23064784976E+06	-1.39837830460E+01	-1.75277036486E+02	6.50424910758E+00	1.71645048077E+02	-4.44843904213E+01	1.47868764739E+02	-5.99118522812E+00	-1.04752492890E+00
2.25283920436E+06	-1.47212295504E+01	1.65128219445E+02	6.51880662135E+00	1.71882043336E+02	-4.56121407992E+01	-1.55399525101E+02	-6.02116760928E+00	-8.67748421591E-01
2.27503055895E+06	-1.60638994666E+01	1.63752551648E+02	6.52917820602E+00	1.71696616617E+02	-5.12687923194E+01	-1.06779934631E+02	-5.98103560538E+00	-8.73410435879E-01
2.29722191355E+06	-1.41421431693E+01	-1.78510610444E+02	6.49927201139E+00	1.71619460210E+02	-4.99570059611E+01	1.34997579035E+02	-5.99119502471E+00	-1.09542984274E+00
2.31941326814E+06	-1.33496772085E+01	-1.68210408978E+02	6.52663931816E+00	1.71457561844E+02	-4.65453035081E+01	5.93882541265E+01	-5.97452190830E+00	-1.06403153817E+00
2.34160462274E+06	-1.51934882558E+01	-1.57309136880E+02	6.57090712988E+00	1.71269233396E+02	-4.62897030613E+01	5.12359788845E+01	-5.99452125299E+00	-1.13182731217E+00
2.36379597733E+06	-1.00412547428E+01	-1.74931318123E+02	6.47873866940E+00	1.71338916469E+02	-5.05698268395E+01	-7.09202942439E+01	-5.99887879563E+00	-1.10282544792E+00
2.38598733193E+06	-1.13285212814E+01	1.53705673097E+02	6.47442358278E+00	1.71140124661E+02	-4.87563541715E+01	-1.54095264731E+02	-6.00181320485E+00	-9.34701089460E-01
2.40817868652E+06	-1.19754951114E+01	-1.67948740717E+02	6.50933798087E+00	1.70894227522E+02	-4.31829027894E+01	-1.83635248637E+01	-6.01195683180E+00	-1.04519809286E+00
2.43037004112E+06	-1.35273646726E+01	-1.69765031644E+02	6.54823406460E+00	1.70874585721E+02	-4.36322517577E+01	-4.03155878668E+01	-6.02265630763E+00	-1.28653306576E+00
2.45256139571E+06	-1.32973999909E+01	-1.70877054795E+02	6.47731244813E+00	1.71011634424E+02	-4.80256332897E+01	-1.56541845598E+02	-5.99698615818E+00	-1.02870964803E+00
2.47475275031E+06	-1.37488849548E+01	-1.77431797573E+02	6.51877737057E+00	1.70700544489E+02	-4.71615879777E+01	1.78696648169E+02	-5.99312038124E+00	-8.92231711215E-01
2.49694410490E+06	-1.54542962753E+01	-1.72376340019E+02	6.50306196854E+00	1.70956367476E+02	-4.66441339490E+01	5.23931205700E+01	-5.99399844126E+00	-1.00479403217E+00
2.51913545950E+06	-1.28045831698E+01	-1.54602387098E+02	6.49987530458E+00	1.70453076031E+02	-4.24854460303E+01	-5.16196327959E+01	-6.00373561844E+00	-9.43894820308E-01
2.54132681409E+06	-1.48024428578E+01	-1.79403457256E+02	6.51321616205E+00	1.70586946232E+02	-5.18755118142E+01	-1.10507499836E+02	-6.01086295363E+00	-9.67344024762E-01
2.56351816869E+06	-1.42288489800E+01	-1.77062477212E+02	6.52303178153E+00	1.70430516006E+02	-4.92041162611E+01	6.57268108149E+01	-5.99442158354E+00	-1.18005263994E+00
2.58570952328E+06	-1.33269792218E+01	-1.59552604917E+02	6.56425488712E+00	1.70289024832E+02	-4.78896706444E+01	1.63804476495E+02	-6.01480355604E+00	-1.01248573982E+00
2.60790087788E+06	-1.19703658392E+01	-1.69033443252E+02	6.46384056232E+00	1.70107246543E+02	-4.78900682541E+01	1.52458608648E+02	-5.95912978287E+00	-9.10185746878E-01
2.63009223247E+06	-1.48754415687E+01	-1.67563853670E+02	6.48147550580E+00	1.70076811796E+02	-4.12821698174E+01	6.61567665436E+01	-6.00380924036E+00	-8.96548201462E-01
2.65228358707E+06	-1.61395456564E+01	-1.63258283239E+02	6.53579206175E+00	1.70110391306E+02	-6.55193672411E+01	9.04875319473E+01	-6.00850404359E+00	-1.32871544874E+00
2.67447494166E+06	-1.58316207954E+01	1.78969184443E+02	6.51431971067E+00	1.70149622145E+02	-5.05204097969E+01	1.29572492366E+02	-6.00304870923E+00	-1.26075461577E+00
2.69666629626E+06	-1.00405694107E+01	1.77913692573E+02	6.44715701742E+00	1.69517330654E+02	-4.11502773794E+01	1.56799183194E+02	-5.98519312530E+00	-1.09961402772E+00
2.71885765085E+06	-1.29695651306E+01	-1.65649999445E+02	6.53406628416E+00	1.69799398777E+02	-3.78910929709E+01	1.31862327389E+02	-5.98081839959E+00	-1.12141663561E+00
2.74104900545E+06	-1.37324625700E+01	-1.66081073852E+02	6.53390586216E+00	1.69830541555E+02	-4.18147616295E+01	-1.02729078925E+02	-6.02018108135E+00	-1.07178597500E+00
2.76324036004E+06	-1.39940360792E+01	-1.63604041958E+02	6.55463556340E+00	1.69458804267E+02	-4.24928015750E+01	6.38239113149E+01	-5.96790629982E+00	-1.17497268829E+00
2.78543171463E+06	-1.42292493879E+01	1.56343788472E+02	6.47282453990E+00	1.69774853613E+02	-6.03824976521E+01	1.37072442124E+02	-6.01513922250E+00	-1.37816500939E+00
2.80762306923E+06	-1.20670143463E+01	1.79944539889E+02	6.48579155815E+00	1.69470779271E+02	-4.28113678495E+01	1.78813485018E+02	-5.99245667526E+00	-1.37487651574E+00
2.82981442382E+06	-1.32314131689E+01	1.78277735097E+02	6.51921652213E+00	1.69364043670E+02	-4.15535185089E+01	-1.75293813398E+02	-5.96934395086E+00	-1.29169507651E+00
2.85200577842E+06	-1.56533792307E+01	1.29252308933E+02	6.48422968998E+00	1.69572754704E+02	-5.13023566948E+01	1.09748027348E+02	-5.99304082278E+00	-1.24321147343E+00
2.87419713301E+06	-1.27496697273E+01	-1.66427894424E+02	6.53453818634E+00	1.68970151760E+02	-4.17205016749E+01	-1.32607972232E+02	-5.99957915547E+00	-1.03517484349E+00
