# Hz S DB R 50
! CMT, M5065, 19127446, 24.2.4/2
! Date: 11/8/2024 3:16:46 PM
! Data: Format (Calibration Info)
! Freq	S11:dB/Ang(F2)	S21:dB/Ang(F2)	S12:dB/Ang(F2)	S22:dB/Ang(F2)
3.00000000000E+05	-1.54009301750E+01	-1.78855950850E+02	1.56850734323E+01	-1.77020282941E+02	-4.19368775030E+01	-8.72235784909E+01	-6.00518496118E+00	-1.00138586560E-01
3.22191354595E+05	-1.21887814869E+01	-1.75570536537E+02	1.56416065110E+01	-1.77780707664E+02	-5.22672354213E+01	-3.41542565674E+01	-6.00933012587E+00	-2.28866683497E-01
3.44382709190E+05	-1.49818466611E+01	1.77848758299E+02	1.56849427306E+01	-1.78052752178E+02	-4.97518270614E+01	-2.96548056110E+01	-6.01077082994E+00	-1.80844160488E-01
3.66574063785E+05	-1.44704310542E+01	-1.78278335636E+02	1.56752137792E+01	-1.78645965252E+02	-4.62272964863E+01	-6.38406584692E+01	-6.03584284597E+00	-2.22660004890E-02
3.88765418380E+05	-1.60111644640E+01	1.70319823491E+02	1.57201142016E+01	-1.79041518266E+02	-4.26194257351E+01	-6.53532569145E+01	-6.00807665052E+00	-2.05026703624E-01
4.10956772975E+05	-1.61704936103E+01	1.75249540715E+02	1.57118922216E+01	-1.79289148093E+02	-4.76098181934E+01	-9.33260652712E+01	-6.00471956221E+00	-3.79804942206E-01
4.33148127570E+05	-1.18066355175E+01	-1.55796435377E+02	1.56878104773E+01	-1.79833026089E+02	-3.96543232989E+01	1.13782242773E+02	-5.97432598791E+00	-6.19951374909E-01
4.55339482165E+05	-1.76894357613E+01	1.75497914324E+02	1.57160532874E+01	1.79967749964E+02	-4.46848788221E+01	-1.54729382249E+02	-5.98844881186E+00	-2.14266798311E-01
4.77530836760E+05	-1.28123327793E+01	-1.77329432709E+02	1.56949115874E+01	1.79632722573E+02	-4.79334562386E+01	-1.74875378660E+02	-5.97937669414E+00	-3.48416229995E-01
4.99722191355E+05	-1.15664779192E+01	-1.72740700292E+02	1.56667444478E+01	1.79404295065E+02	-4.18706877295E+01	-1.69857160365E+02	-5.96534632713E+00	-2.52540368009E-01
5.21913545950E+05	-2.29777662724E+01	-1.65981045654E+02	1.57357840704E+01	1.78945035291E+02	-5.04378050713E+01	4.05265813544E+01	-6.00629001291E+00	-3.93748434113E-01
5.44104900545E+05	-1.47717615907E+01	1.73973250086E+02	1.57057471872E+01	1.78756889379E+02	-4.40882727871E+01	1.62509985817E+02	-5.99244394442E+00	-3.52783358217E-01
5.66296255139E+05	-1.70607954638E+01	1.37833254680E+02	1.56880275147E+01	1.78730298040E+02	-4.44701625413E+01	-4.29489007105E+01	-6.02892363578E+00	-1.78607886489E-01
5.88487609734E+05	-1.22392401536E+01	-1.65970240881E+02	1.56764807456E+01	1.78063673466E+02	-4.70941727479E+01	1.00683548422E+02	-5.98577399823E+00	-4.90269258907E-01
6.10678964329E+05	-1.55919463645E+01	-1.74592767799E+02	1.57038827962E+01	1.77977726571E+02	-6.47017268377E+01	-1.48868377877E+02	-5.99379540553E+00	1.36092047057E-01
6.32870318924E+05	-1.41100935630E+01	1.68392147672E+02	1.56840397948E+01	1.77968019519E+02	-5.75226034596E+01	-9.23843606427E+01	-5.99275423678E+00	-4.50360755684E-02
6.55061673519E+05	-1.50565968536E+01	1.69237811913E+02	1.56750000792E+01	1.77566304678E+02	-5.46724031308E+01	1.71980994267E+02	-5.99243607896E+00	-3.02258631477E-01
6.77253028114E+05	-1.82470476808E+01	-1.57736758649E+02	1.57097821712E+01	1.77360126294E+02	-4.41313656926E+01	8.35372344538E+01	-5.99865697916E+00	-8.96179912943E-01
6.99444382709E+05	-1.22076502826E+01	1.63158721989E+02	1.56829080676E+01	1.77069603977E+02	-4.34447956320E+01	-2.82503451497E+00	-6.03112985080E+00	-4.81876397570E-01
7.21635737304E+05	-1.40355117105E+01	1.71089677212E+02	1.56561075698E+01	1.77050337593E+02	-4.17234971584E+01	1.50525361473E+02	-5.96193025642E+00	-4.54848708997E-01
7.43827091899E+05	-1.35218726819E+01	-1.79609384228E+02	1.56658394479E+01	1.76598997782E+02	-4.59757986737E+01	1.09518624565E+02	-5.97124584956E+00	-4.80195491672E-01
7.66018446494E+05	-1.29641158253E+01	-1.74445647382E+02	1.56787770559E+01	1.76315720530E+02	-4.88224499749E+01	8.89615414775E+01	-5.97603797609E+00	-3.50746755543E-01
7.88209801089E+05	-1.02791737368E+01	-1.77764119657E+02	1.56343812810E+01	1.76302429489E+02	-3.68172249539E+01	-1.39943178595E+02	-5.97223975167E+00	-1.43709241488E-01
8.10401155684E+05	-1.07800532955E+01	-1.79658728509E+02	1.56574124877E+01	1.76080931023E+02	-4.08747830868E+01	1.37399743498E+02	-5.96657747690E+00	-4.46381604421E-01
8.32592510279E+05	-1.53784704224E+01	-1.70400687953E+02	1.56786503224E+01	1.75857507291E+02	-4.31621923030E+01	-1.41784718846E+02	-5.99165233422E+00	-2.81322767525E-01
8.54783864874E+05	-1.44640001048E+01	1.65451693823E+02	1.56932385905E+01	1.75771625458E+02	-4.89411295228E+01	-1.78956837347E+02	-5.98887568474E+00	-2.97639322879E-01
8.76975219469E+05	-1.31417558367E+01	1.54307085974E+02	1.56641240150E+01	1.75461799182E+02	-4.15771531134E+01	-1.53602068566E+02	-5.96319873339E+00	-2.02287927438E-01
8.99166574064E+05	-1.60718578953E+01	1.71179721292E+02	1.56820661583E+01	1.75233009206E+02	-4.80529136920E+01	1.71341051355E+02	-5.97233610455E+00	-4.10636936370E-01
9.21357928659E+05	-1.27604630940E+01	-1.66981001708E+02	1.56595335777E+01	1.74892624014E+02	-4.91542109681E+01	7.63767175077E+01	-5.99853132606E+00	-3.89760088751E-01
9.43549283254E+05	-1.42459655402E+01	1.74895173971E+02	1.56801360916E+01	1.74791720850E+02	-4.79835133310E+01	-8.15664289060E+01	-5.98807503099E+00	-3.63734388796E-01
9.65740637849E+05	-1.50941349034E+01	1.65970777696E+02	1.56990394473E+01	1.74831051122E+02	-4.74137273919E+01	-1.35035547440E+02	-5.96536732448E+00	-5.05188442773E-01
9.87931992444E+05	-1.41150758673E+01	1.77075192858E+02	1.56796298004E+01	1.74540543173E+02	-4.64028871765E+01	-1.71872854021E+02	-5.98147242771E+00	-5.32537838514E-01
1.01012334704E+06	-1.32285409849E+01	-1.75770487315E+02	1.56741169643E+01	1.74217098522E+02	-4.61823961755E+01	-6.45793237098E+01	-6.00749605870E+00	-4.37408735291E-01
1.03231470163E+06	-1.20471583245E+01	1.76959706288E+02	1.56399470676E+01	1.74059556550E+02	-4.60366783941E+01	-1.28157587936E+02	-5.97677553329E+00	-2.85146512436E-01
1.05450605623E+06	-1.27938416991E+01	-1.63997002671E+02	1.56687756541E+01	1.73774241880E+02	-4.75606494600E+01	-1.41137967907E-01	-6.01481750631E+00	-4.32985039858E-01
1.07669741082E+06	-1.33912729861E+01	1.55841014820E+02	1.56361197526E+01	1.74208654781E+02	-5.20849192177E+01	3.17202754942E+01	-6.00919168942E+00	-6.70374986232E-01
1.09888876542E+06	-1.59773910380E+01	-1.72809991809E+02	1.56836920366E+01	1.73535261101E+02	-4.47770973434E+01	-1.71967534154E+02	-5.98767687085E+00	-2.99807932204E-01
1.12108012001E+06	-1.52125684383E+01	1.77174172326E+02	1.56752177068E+01	1.73481811083E+02	-4.47989540242E+01	1.10671646322E+02	-5.97941347354E+00	-7.27518234974E-01
1.14327147461E+06	-1.29932181034E+01	1.78235968191E+02	1.56662887423E+01	1.73377617178E+02	-4.53034774363E+01	-4.80618776586E+00	-6.02125838672E+00	-6.88365418487E-01
1.16546282920E+06	-1.40151047008E+01	-1.72667509210E+02	1.56768787791E+01	1.72859628929E+02	-4.76892532065E+01	8.99497021703E+01	-5.99793949228E+00	-6.63179509671E-01
1.18765418380E+06	-1.20021361460E+01	1.66394805894E+02	1.56562209295E+01	1.72938770396E+02	-4.53493057976E+01	1.02560256766E+02	-5.97080486474E+00	-6.88411874941E-01
1.20984553839E+06	-1.44906273297E+01	-1.71033157417E+02	1.56901778948E+01	1.72723348529E+02	-5.69602910787E+01	-2.64480539444E+01	-6.01809223187E+00	-5.89032742284E-01
1.23203689299E+06	-1.16026497407E+01	1.72779653947E+02	1.56330700420E+01	1.72578864687E+02	-4.55263767711E+01	-4.19546072864E+01	-6.05606400087E+00	-1.87284394705E-01
1.25422824758E+06	-1.20944559150E+01	-1.71675059343E+02	1.56346455284E+01	1.72273130133E+02	-4.80094725887E+01	2.74386417418E+01	-6.01754356155E+00	-5.44905660635E-01
1.27641960218E+06	-1.50046822109E+01	-1.67399198393E+02	1.56774598711E+01	1.72263524972E+02	-4.61744877745E+01	1.62642902192E+01	-6.03614423198E+00	-6.09403340080E-01
1.29861095677E+06	-1.23186843584E+01	-1.60848835408E+02	1.56521913588E+01	1.71677658328E+02	-8.10413233212E+01	7.73253703902E+01	-5.98526585056E+00	-6.62210578034E-01
1.32080231137E+06	-1.53580012776E+01	-1.72797468929E+02	1.56746146652E+01	1.71830938919E+02	-4.61641789298E+01	-1.59981280842E+02	-5.96824161797E+00	-1.00819734982E+00
1.34299366596E+06	-1.20010906196E+01	-1.73057705277E+02	1.56446610092E+01	1.71609025057E+02	-5.97615114531E+01	-1.74806572515E+02	-5.96159668356E+00	-7.77608001550E-01
1.36518502056E+06	-1.76207027098E+01	-1.50163809372E+02	1.56946680649E+01	1.71428021614E+02	-4.70774953811E+01	-1.41442153601E+02	-5.98279022513E+00	-5.03323536408E-01
1.38737637515E+06	-1.32262772398E+01	-1.67386619202E+02	1.56737819041E+01	1.71283754114E+02	-3.54153369856E+01	-4.81925006317E+01	-6.06114450025E+00	-4.33135108621E-01
1.40956772975E+06	-1.39176186379E+01	-1.61192268004E+02	1.56842514562E+01	1.71129737455E+02	-4.25846409764E+01	-1.28980487949E+02	-5.98672124857E+00	-4.13214071504E-01
1.43175908434E+06	-1.19919768634E+01	1.77636869059E+02	1.56381544533E+01	1.70870175357E+02	-4.42157580353E+01	-6.31579838958E+01	-6.02763463921E+00	-6.91122075370E-01
1.45395043894E+06	-1.50634374088E+01	1.73047193859E+02	1.56839522095E+01	1.71028156045E+02	-4.84248519050E+01	5.67890297818E+01	-6.01435686965E+00	-6.03410711470E-01
1.47614179353E+06	-1.35731441993E+01	-1.73020184504E+02	1.56794634261E+01	1.70582811561E+02	-4.43170573281E+01	1.05623169523E+01	-6.03752975406E+00	-7.34238511241E-01
1.49833314813E+06	-1.15303633573E+01	-1.63307032490E+02	1.56754885533E+01	1.70375195905E+02	-5.20214672783E+01	-4.41690401370E+01	-6.01447782187E+00	-6.75584509011E-01
1.52052450272E+06	-1.56025063247E+01	1.72421473204E+02	1.56921312723E+01	1.70319914987E+02	-4.57248868224E+01	-5.39428308612E-01	-6.04699084033E+00	-8.53467970289E-01
1.54271585732E+06	-1.44578210301E+01	-1.69989101447E+02	1.56641129549E+01	1.69973048905E+02	-6.63095550564E+01	-2.99754292824E+01	-6.01752639368E+00	-7.11395925549E-01
1.56490721191E+06	-1.42103781968E+01	-1.76991139809E+02	1.56652668569E+01	1.70059580485E+02	-4.19291672576E+01	-1.63235147491E+02	-5.97013268545E+00	-5.95523400888E-01
1.58709856651E+06	-1.43074701864E+01	-1.74767522357E+02	1.56902975094E+01	1.69824460472E+02	-5.36204142331E+01	-5.52151959539E+01	-6.01741734034E+00	-9.12690989438E-01
1.60928992110E+06	-1.47957672809E+01	-1.70640249490E+02	1.56813274249E+01	1.69559240817E+02	-4.84578976483E+01	5.32899327271E+01	-6.02380691418E+00	-6.92863622537E-01
1.63148127570E+06	-1.39284409019E+01	1.76497465118E+02	1.56525388317E+01	1.69628171556E+02	-4.13932565340E+01	1.35153033578E+02	-5.96241647851E+00	-8.41338129688E-01
1.65367263029E+06	-8.76890596592E+00	-1.78541303597E+02	1.56073663382E+01	1.68967576327E+02	-4.28483297083E+01	7.88417703215E+01	-5.97006618315E+00	-1.06932123274E+00
1.67586398489E+06	-1.32048908535E+01	1.70220927619E+02	1.56368165174E+01	1.69234835336E+02	-4.33068612005E+01	-6.91866601561E+01	-6.04665504854E+00	-7.47090909685E-01
1.69805533948E+06	-1.41441318861E+01	-1.65334447789E+02	1.56709881316E+01	1.68992626985E+02	-4.17905685740E+01	6.51376788539E+01	-6.00932003264E+00	-1.03047963342E+00
1.72024669408E+06	-1.38213622028E+01	-1.63034639338E+02	1.56538506943E+01	1.68938189030E+02	-4.22507537819E+01	3.56790309532E+01	-6.04289791065E+00	-9.03928737835E-01
1.74243804867E+06	-1.51468746790E+01	1.56861345983E+02	1.56469858223E+01	1.68872444192E+02	-4.24385485085E+01	5.12974007226E+01	-5.99694256471E+00	-1.06301630929E+00
1.76462940327E+06	-1.41243274328E+01	-1.58612649515E+02	1.56830749487E+01	1.68355988847E+02	-4.79599919360E+01	5.30114102101E+01	-5.99864167581E+00	-9.82799239565E-01
1.78682075786E+06	-1.31847889575E+01	-1.58130380072E+02	1.56608481575E+01	1.68122875249E+02	-4.52566289168E+01	-3.29107898058E+01	-6.02283685642E+00	-7.59940288422E-01
1.80901211246E+06	-1.00467044168E+01	-1.72634061431E+02	1.56604989522E+01	1.67916495176E+02	-4.83146201666E+01	-4.56340938872E+00	-6.01801378151E+00	-7.90914865040E-01
1.83120346705E+06	-1.35171228286E+01	-1.67773602365E+02	1.56520052907E+01	1.67822587563E+02	-4.46570838052E+01	-2.29338524396E+01	-6.01466926073E+00	-7.29226667746E-01
1.85339482165E+06	-1.59530785512E+01	-1.75324063138E+02	1.56666422050E+01	1.67847672591E+02	-4.30721201106E+01	-4.67229588781E+01	-6.00360654990E+00	-5.89405799838E-01
1.87558617624E+06	-1.35621552493E+01	-1.71160621695E+02	1.56588883574E+01	1.67534188886E+02	-4.36555185694E+01	-1.17907108049E+02	-6.01485346742E+00	-6.73211687285E-01
1.89777753084E+06	-1.25352550389E+01	-1.73810208637E+02	1.56701221668E+01	1.67586302242E+02	-4.34095021610E+01	3.75159437229E+01	-5.98841380378E+00	-9.93012846929E-01
1.91996888543E+06	-1.18643630410E+01	1.71730366151E+02	1.56366270236E+01	1.67395584991E+02	-3.98717486265E+01	-1.20238359724E+02	-5.97791575118E+00	-3.04027646614E-01
1.94216024003E+06	-1.60432423710E+01	-1.77499556422E+02	1.56790055053E+01	1.67251432887E+02	-3.95667896602E+01	7.74895341128E-01	-6.05823043909E+00	-9.63918968620E-01
1.96435159462E+06	-1.69979625390E+01	1.74642630817E+02	1.56849015017E+01	1.67354509126E+02	-4.84318415201E+01	-9.25284602850E+01	-6.00228181338E+00	-7.82504782654E-01
1.98654294922E+06	-9.26062411440E+00	1.74875851599E+02	1.56422834919E+01	1.66829316744E+02	-5.14037847364E+01	-1.47551054347E+02	-5.97607404393E+00	-8.49754907359E-01
2.00873430381E+06	-1.45390977087E+01	1.69035635869E+02	1.56724317651E+01	1.66895173708E+02	-4.67692098141E+01	3.68268619223E+01	-6.01353639295E+00	-1.04144302636E+00
2.03092565841E+06	-1.51780176137E+01	1.79070015404E+02	1.56699238079E+01	1.66707199231E+02	-4.84210177643E+01	9.89550446899E+01	-5.99851774700E+00	-9.94469848428E-01
2.05311701300E+06	-1.56462611554E+01	-1.59000263855E+02	1.56911119304E+01	1.66274910405E+02	-3.72799262806E+01	1.32418369926E+02	-5.94156478407E+00	-1.02877157122E+00
2.07530836760E+06	-1.40237082384E+01	-1.77249134592E+02	1.56721568852E+01	1.66105920178E+02	-6.01168120394E+01	7.69350981539E+01	-5.97922138665E+00	-8.64258933443E-01
2.09749972219E+06	-1.54869235662E+01	-1.72496935423E+02	1.56682827192E+01	1.66027114117E+02	-4.73749528268E+01	-3.00235980688E+01	-6.04803990046E+00	-7.44144211199E-01
2.11969107679E+06	-1.18389767663E+01	-1.60378252464E+02	1.56716668160E+01	1.65781542522E+02	-3.83397333580E+01	8.64114288829E+01	-5.96003953852E+00	-1.30028391620E+00
2.14188243138E+06	-1.12049906138E+01	-1.73512323040E+02	1.56858085813E+01	1.65545117544E+02	-4.23033314482E+01	3.39546147783E+01	-6.03995142093E+00	-1.10395245372E+00
2.16407378598E+06	-1.47836369997E+01	1.79281371911E+02	1.56951829160E+01	1.65687797143E+02	-5.51614686872E+01	1.49330009986E+02	-5.97498876198E+00	-1.08330753716E+00
2.18626514057E+06	-1.05505779128E+01	-1.54216838959E+02	1.56842521187E+01	1.65133917945E+02	-4.57547535465E+01	-1.33447723474E+02	-5.98146200422E+00	-7.77952749561E-01
2.20845649517E+06	-1.61553998479E+01	-1.68033410756E+02	1.56807311840E+01	1.65276428134E+02	-4.51587352891E+01	-8.47105900636E+00	-6.05473717849E+00	-1.12086746330E+00
2.23064784976E+06	-1.46183942399E+01	-1.60012402540E+02	1.56676139125E+01	1.65041680388E+02	-5.24619861722E+01	8.15035297027E+01	-5.99057776644E+00	-1.19801492464E+00
2.25283920436E+06	-1.58461613497E+01	1.72385038246E+02	1.56781854303E+01	1.65075073700E+02	-4.68052701494E+01	6.66322842792E+01	-5.99575481270E+00	-1.19657874107E+00
2.27503055895E+06	-1.39205241167E+01	-1.78304551059E+02	1.56560216736E+01	1.64939291826E+02	-4.91410785016E+01	3.80478010169E+00	-6.01918110847E+00	-9.38115682762E-01
2.29722191355E+06	-1.09462419541E+01	1.79549964228E+02	1.56424340518E+01	1.64528654756E+02	-5.11193734178E+01	-8.27688835041E+00	-6.01791257248E+00	-1.03649221094E+00
2.31941326814E+06	-1.24958817135E+01	-1.65040515783E+02	1.56661282441E+01	1.64332536088E+02	-4.96942097671E+01	1.15416742420E+02	-5.97940503705E+00	-1.20094865927E+00
2.34160462274E+06	-1.45110327704E+01	-1.57410081443E+02	1.56798205414E+01	1.64230808388E+02	-3.97143693402E+01	-7.30745540734E+01	-6.03926464062E+00	-8.22269762809E-01
2.36379597733E+06	-1.55719513449E+01	-1.68956938675E+02	1.56907697263E+01	1.64109120907E+02	-4.67648574029E+01	1.61466854927E+02	-5.98840831092E+00	-1.03574628464E+00
2.38598733193E+06	-1.19290136857E+01	-1.67280794596E+02	1.56496582662E+01	1.63912357406E+02	-5.61819571090E+01	-9.94994561979E+01	-6.00291308363E+00	-1.05578851672E+00
2.40817868652E+06	-1.56393936305E+01	-1.62293588029E+02	1.56798011657E+01	1.63889928421E+02	-4.54395917023E+01	2.76904873121E+01	-5.99385205624E+00	-1.36123866329E+00
2.43037004112E+06	-1.28426587922E+01	-1.65651861632E+02	1.56870042571E+01	1.63534310316E+02	-5.40200168212E+01	-1.40218414340E+02	-5.98025246175E+00	-1.46171717451E+00
2.45256139571E+06	-4.95614426140E+00	-1.18477104565E+02	1.58001586102E+01	1.62835300552E+02	-4.30646789956E+01	-4.98385569457E+01	-6.05743772373E+00	-1.02295954295E+00
2.47475275031E+06	-1.28223995798E+01	-1.70347971840E+02	1.56622163975E+01	1.63350503347E+02	-4.79483688567E+01	-1.24223530010E+02	-5.98856473490E+00	-9.40871290290E-01
2.49694410490E+06	-1.32255721627E+01	-1.47080224955E+02	1.56836850743E+01	1.62839569985E+02	-4.11157526357E+01	-1.00613573171E+02	-6.00214578835E+00	-8.56362834325E-01
2.51913545950E+06	-1.33074206675E+01	-1.72589216823E+02	1.56546151084E+01	1.62858537196E+02	-4.11138831094E+01	9.39900697368E+01	-5.98725882172E+00	-1.23727923282E+00
2.54132681409E+06	-1.55344006941E+01	-1.61276083826E+02	1.56965226605E+01	1.62757318216E+02	-4.43141680912E+01	-1.00406061024E+02	-6.01077047918E+00	-8.24186880238E-01
2.56351816869E+06	-1.32400309659E+01	-1.65510072251E+02	1.56839774954E+01	1.62600179535E+02	-4.50081403308E+01	9.93483953970E+01	-5.97462942423E+00	-1.29877302242E+00
2.58570952328E+06	-1.31992830855E+01	-1.71135072654E+02	1.56620679106E+01	1.62570357000E+02	-4.79831327046E+01	1.39721402855E+02	-6.01477567250E+00	-1.16171942081E+00
2.60790087788E+06	-9.47391041733E+00	1.57414725860E+02	1.55617695595E+01	1.62370055202E+02	-5.56843961776E+01	-1.07810463363E+02	-5.98409876426E+00	-9.23699085167E-01
2.63009223247E+06	-1.38305098499E+01	-1.78511326104E+02	1.56550085614E+01	1.62369018313E+02	-4.10443664151E+01	-4.00476381335E+01	-6.07864902289E+00	-6.31407361670E-01
2.65228358707E+06	-1.38938281769E+01	1.72810991681E+02	1.56553730683E+01	1.62229312742E+02	-4.82841780822E+01	1.39740372817E+02	-5.98591587732E+00	-1.30714955022E+00
2.67447494166E+06	-1.45564579331E+01	-1.56480150354E+02	1.56937159429E+01	1.61842354686E+02	-3.36729841722E+01	-1.24408637708E+02	-6.00017883729E+00	-5.71859179203E-01
2.69666629626E+06	-1.29225096932E+01	-1.62621874400E+02	1.56859947145E+01	1.61671122289E+02	-4.58489173724E+01	-1.03859373969E+02	-6.00257167581E+00	-8.87393321610E-01
2.71885765085E+06	-1.29216834730E+01	-1.75502869721E+02	1.56842412347E+01	1.61700901308E+02	-4.98601745115E+01	1.14925994796E+02	-5.98074753442E+00	-1.22528931340E+00
2.74104900545E+06	-1.51800570153E+01	-1.71388554831E+02	1.57034197309E+01	1.61497463655E+02	-4.02051057709E+01	-1.09870253752E+00	-6.06059756135E+00	-1.25974573356E+00
2.76324036004E+06	-1.45280883450E+01	-1.43576003265E+02	1.56970751399E+01	1.61223809535E+02	-5.52740752415E+01	1.64199787931E+02	-6.00134101894E+00	-1.28857947696E+00
2.78543171463E+06	-1.19823453465E+01	-1.72246451592E+02	1.56615931669E+01	1.60906499259E+02	-4.89199924267E+01	1.48603157120E+02	-5.98005042535E+00	-1.24830849683E+00
2.80762306923E+06	-1.54126869759E+01	-1.75284457061E+02	1.56747152455E+01	1.60941227347E+02	-5.10449926352E+01	5.32560752665E+01	-6.01399255267E+00	-1.21138280903E+00
2.82981442382E+06	-1.34159873286E+01	-1.67968232711E+02	1.56775585955E+01	1.60789775401E+02	-4.15912044383E+01	-2.12226006656E+01	-6.03067455380E+00	-1.43484382657E+00
2.85200577842E+06	-1.32868394142E+01	-1.65504545943E+02	1.56552404460E+01	1.60647968018E+02	-4.54259659239E+01	-3.34136731992E+01	-6.02749315990E+00	-1.23212975876E+00
2.87419713301E+06	-1.34537944539E+01	-1.60855393669E+02	1.57006657357E+01	1.60307084481E+02	-3.86846335323E+01	-8.62576679771E+01	-6.01094443496E+00	-8.14029911160E-01
