# Hz S DB R 50
! CMT, M5065, 19127446, 24.2.4/2
! Date: 11/8/2024 3:29:50 PM
! Data: Format (Calibration Info)
! Freq	S11:dB/Ang(F2)	S21:dB/Ang(F2)	S12:dB/Ang(F2)	S22:dB/Ang(F2)
3.00000000000E+05	-1.45065929406E+01	-1.70434226157E+02	1.94424137944E+01	-1.76698187582E+02	-3.93570356017E+01	-1.17522942343E+02	-5.97693761303E+00	-3.66120122254E-02
3.22191354595E+05	-9.39073583136E+00	-1.61406914290E+02	1.94131147390E+01	-1.77537717340E+02	-4.77682635407E+01	-1.25741882341E+02	-5.97824125521E+00	-3.58983048308E-01
3.44382709190E+05	-1.26200890029E+01	-1.72841757147E+02	1.94357213699E+01	-1.78060738846E+02	-4.40074977117E+01	9.69982136386E+01	-5.99093583614E+00	-4.21189047807E-01
3.66574063785E+05	-1.38261260356E+01	1.62180881173E+02	1.94615266511E+01	-1.78326936023E+02	-4.72964487308E+01	-5.53147345327E+01	-5.98631556311E+00	-3.14155260503E-01
3.88765418380E+05	-1.79307796305E+01	-1.71234729073E+02	1.96277878173E+01	-1.78107862888E+02	-4.03277323364E+01	4.10370692542E+01	-6.04669710548E+00	-3.61740413003E+00
4.10956772975E+05	-1.33058705179E+01	-1.56603522970E+02	1.94642694794E+01	-1.79751926262E+02	-4.68710391047E+01	8.21688853817E+01	-5.99481010408E+00	-6.27016108632E-01
4.33148127570E+05	-1.45691328686E+01	-1.59308310304E+02	1.94637355256E+01	1.79934776180E+02	-4.55874516565E+01	5.88944000819E+01	-5.97945464167E+00	-6.15428041273E-01
4.55339482165E+05	-1.24804112420E+01	1.73362691722E+02	1.94207319645E+01	1.79496943267E+02	-5.23349688894E+01	9.82656164850E+01	-5.96950496061E+00	-6.56813454972E-01
4.77530836760E+05	-2.02878008923E+01	1.20732827780E+02	1.94828715301E+01	1.79385475787E+02	-4.77910924161E+01	9.66930531337E+00	-6.01626442930E+00	-4.08162866591E-01
4.99722191355E+05	-1.28312964373E+01	-1.77586184317E+02	1.94378211808E+01	1.78612629008E+02	-5.03747241187E+01	7.81045988900E+01	-5.99431917032E+00	-5.90070480601E-01
5.21913545950E+05	-1.37552122383E+01	-1.60981356807E+02	1.94441659094E+01	1.78193645769E+02	-4.09560335356E+01	2.86860426895E+01	-6.04768528546E+00	-6.37887971276E-01
5.44104900545E+05	-1.14876782467E+01	1.77264417443E+02	1.94174250046E+01	1.77935323285E+02	-5.23707541521E+01	1.50885049006E+02	-5.98181445010E+00	-5.52666820301E-01
5.66296255139E+05	-1.27178017471E+01	-1.72898833388E+02	1.94279423385E+01	1.77638500495E+02	-4.98069532423E+01	-8.77090409381E+01	-6.00761470762E+00	-2.04394398782E-01
5.88487609734E+05	-1.20240423111E+01	-1.61173132721E+02	1.94372580402E+01	1.77110426060E+02	-4.30422349079E+01	-1.59073011615E+02	-6.00988361791E+00	-1.47638120034E-01
6.10678964329E+05	-1.40269602774E+01	-1.66953698712E+02	1.94476195318E+01	1.76900774545E+02	-4.39508271254E+01	5.84749258377E+01	-6.00279691034E+00	-3.55723714460E-01
6.32870318924E+05	-1.47259632919E+01	-1.54085507719E+02	1.94515256641E+01	1.76668467917E+02	-4.91301783711E+01	8.95028579963E+01	-5.96054717309E+00	-4.72382986817E-01
6.55061673519E+05	-1.04194439368E+01	1.64889350998E+02	1.94087356040E+01	1.76598704482E+02	-4.57185819696E+01	-1.59953634854E+02	-5.96314369929E+00	-3.83437970971E-01
6.77253028114E+05	-1.19380053566E+01	1.67430777166E+02	1.94034273231E+01	1.76174893055E+02	-4.79810108445E+01	-1.57341964700E+02	-5.95152300105E+00	-5.39937001665E-01
6.99444382709E+05	-1.35273584622E+01	-1.70021688628E+02	1.94429143032E+01	1.75743212095E+02	-4.90558565093E+01	1.52101572318E+02	-5.97019163770E+00	-5.23687557640E-01
7.21635737304E+05	-1.26509224041E+01	-1.56857361126E+02	1.94491946769E+01	1.75319133378E+02	-4.30503558036E+01	-1.68364114553E+02	-5.96247691118E+00	-2.77126054834E-01
7.43827091899E+05	-1.16104506969E+01	-1.56032730938E+02	1.94249500358E+01	1.74832007679E+02	-3.66722024930E+01	-4.53224728832E+01	-6.06618428353E+00	-2.57634263497E-01
7.66018446494E+05	-1.37770879000E+01	1.68390282024E+02	1.94368185119E+01	1.74978397556E+02	-4.42066093047E+01	-9.01261702540E+00	-6.01922433969E+00	-5.28762201033E-01
7.88209801089E+05	-1.21415586047E+01	-1.77567186480E+02	1.94077802534E+01	1.74635035073E+02	-5.16229387619E+01	1.49590066808E+02	-5.99926064806E+00	-3.35478519921E-01
8.10401155684E+05	-1.12255153180E+01	1.69096882812E+02	1.93645168764E+01	1.74532612586E+02	-3.89487034449E+01	-8.89097194425E+01	-6.02881538438E+00	1.54463652256E-01
8.32592510279E+05	-1.49540903170E+01	-1.79122740639E+02	1.94217341237E+01	1.74071719979E+02	-5.04418119778E+01	-1.54425676462E+02	-5.98398225013E+00	-4.22215383115E-01
8.54783864874E+05	-1.22900771083E+01	1.73571057234E+02	1.93916019546E+01	1.73844888050E+02	-4.85677317526E+01	1.54614448782E+02	-5.96651322927E+00	-6.01227439705E-01
8.76975219469E+05	-1.16934144300E+01	-1.68660126813E+02	1.93920621819E+01	1.73577810008E+02	-4.81541234842E+01	-7.13601798620E+01	-6.01810339017E+00	-2.45729160416E-01
8.99166574064E+05	-1.66996510003E+01	1.65583043458E+02	1.94482286288E+01	1.73514375251E+02	-4.18535819718E+01	-1.76953916229E+02	-5.92662414687E+00	-5.30567485549E-01
9.21357928659E+05	-1.63874400047E+01	-1.55211246793E+02	1.94265333334E+01	1.72954352704E+02	-4.65377751813E+01	1.69006076202E+02	-5.97845648413E+00	-4.66024343582E-01
9.43549283254E+05	-1.27289856431E+01	-1.71866504036E+02	1.94124321704E+01	1.72696437143E+02	-4.03727751505E+01	2.04637684981E+01	-6.05421175013E+00	-6.46885939378E-01
9.65740637849E+05	-1.34085938712E+01	1.64631586326E+02	1.93938998155E+01	1.72716975287E+02	-4.85194680587E+01	-1.07978831376E+02	-5.97019000166E+00	-2.98728555446E-01
9.87931992444E+05	-1.56264025224E+01	1.69805281429E+02	1.94122079432E+01	1.72446038610E+02	-4.67882688103E+01	1.76895012303E+02	-5.94621836341E+00	-2.95882780550E-01
1.01012334704E+06	-1.37562095308E+01	1.72453056949E+02	1.93937503338E+01	1.72123958991E+02	-5.59054186372E+01	-1.38344154790E+02	-5.99161534882E+00	-4.35234013538E-01
1.03231470163E+06	-1.50397379723E+01	1.65109394886E+02	1.94038477465E+01	1.72012744078E+02	-5.51364095156E+01	-1.20110151304E+02	-6.00732308479E+00	-3.68306753388E-01
1.05450605623E+06	-1.27173577746E+01	1.66471447576E+02	1.93687433343E+01	1.71743528571E+02	-5.04280820615E+01	5.90731927037E+01	-6.01217126253E+00	-6.63618680092E-01
1.07669741082E+06	-1.54935554559E+01	-1.66029055146E+02	1.94562434558E+01	1.71270717186E+02	-4.44930406166E+01	1.78712911331E+02	-5.96863861317E+00	-2.97178619315E-01
1.09888876542E+06	-1.09893465567E+01	1.63717468239E+02	1.93644207810E+01	1.71130728470E+02	-4.28146215752E+01	6.75155950889E+01	-6.01598806916E+00	-8.87285431800E-01
1.12108012001E+06	-1.16502331469E+01	-1.78860811235E+02	1.93802493932E+01	1.70886682218E+02	-4.64326469638E+01	-1.97642075316E+01	-6.01789447430E+00	-4.22077199546E-01
1.14327147461E+06	-1.29361459323E+01	-1.74609464848E+02	1.93738981803E+01	1.70631578161E+02	-3.89394023380E+01	-8.05342306108E+01	-5.99562249159E+00	-1.41437168352E-01
1.16546282920E+06	-1.62079826346E+01	-1.53151271067E+02	1.93951932031E+01	1.70254159760E+02	-5.49731811731E+01	4.98825191518E+01	-6.00898737724E+00	-5.84007421745E-01
1.18765418380E+06	-1.50353585750E+01	-1.79533697034E+02	1.93804402547E+01	1.70269526659E+02	-4.30601356536E+01	-3.83124209704E+01	-6.05065011755E+00	-4.88929168199E-01
1.20984553839E+06	-1.41319627846E+01	-1.75263981733E+02	1.93658229624E+01	1.69837753403E+02	-4.28317414041E+01	-1.28390820848E+02	-5.99978630811E+00	-4.27996668391E-01
1.23203689299E+06	-1.47608116667E+01	1.70003380035E+02	1.93814575273E+01	1.69855361913E+02	-4.19468507384E+01	8.10396456485E+01	-5.98106640317E+00	-6.39900031629E-01
1.25422824758E+06	-1.14479202705E+01	-1.68439547648E+02	1.93751265576E+01	1.69343021248E+02	-5.33935807899E+01	-1.52501267762E+02	-5.98718243445E+00	-5.26387516007E-01
1.27641960218E+06	-1.23273155171E+01	-1.77385550020E+02	1.93626474762E+01	1.69184074593E+02	-4.25981858562E+01	-1.36379701403E+02	-5.95841093127E+00	-4.95125531587E-01
1.29861095677E+06	-1.57729362008E+01	-1.74505305570E+02	1.93798541208E+01	1.68931404733E+02	-5.45117224034E+01	9.10349838206E+01	-6.00222693569E+00	-5.94084990982E-01
1.32080231137E+06	-1.33014119595E+01	-1.61664147171E+02	1.93897716868E+01	1.68691349521E+02	-5.36604168414E+01	-1.18308553934E+02	-5.99753220706E+00	-1.15260662311E+00
1.34299366596E+06	-1.57111373953E+01	-1.72110759463E+02	1.94040279949E+01	1.68566847213E+02	-4.83155748327E+01	-8.54592531732E+01	-5.99189014198E+00	-5.93260007956E-01
1.36518502056E+06	-1.23516032231E+01	-1.73464344596E+02	1.93271093532E+01	1.68271974623E+02	-4.89806914913E+01	9.71735845977E+01	-6.02238578491E+00	-5.94817271701E-01
1.38737637515E+06	-1.49447725712E+01	-1.61935986886E+02	1.93804822495E+01	1.68005141127E+02	-4.73773316539E+01	-7.96360692698E+00	-6.00655102531E+00	-7.59543945370E-01
1.40956772975E+06	-1.15188924973E+01	1.63263942428E+02	1.93577761153E+01	1.67964428731E+02	-4.60933260264E+01	-7.44266667769E+01	-6.03290851088E+00	-3.57165410990E-01
1.43175908434E+06	-1.25692266207E+01	1.78339819477E+02	1.93579713700E+01	1.67545717009E+02	-5.00418532079E+01	-7.85387763079E+01	-5.99011138172E+00	-5.71761783476E-01
1.45395043894E+06	-1.49502636191E+01	1.73667500312E+02	1.93668152891E+01	1.67347375195E+02	-4.34470510515E+01	1.33937945878E+02	-5.97563359996E+00	-9.50992095794E-01
1.47614179353E+06	-1.32107948738E+01	-1.67848069172E+02	1.93584462243E+01	1.67107658294E+02	-4.60841404753E+01	1.24171887700E+02	-5.99466394297E+00	-7.66009118113E-01
1.49833314813E+06	-1.42198397758E+01	-1.52120591290E+02	1.93741114136E+01	1.66811502968E+02	-4.92530818136E+01	8.48397879003E+01	-5.97252481398E+00	-9.69629593492E-01
1.52052450272E+06	-1.75423386771E+01	-1.56284900157E+02	1.93932395884E+01	1.66871793307E+02	-4.45803012427E+01	-1.75256519646E+02	-5.96331211073E+00	-6.35226221584E-01
1.54271585732E+06	-1.18249478461E+01	-1.73790274049E+02	1.93294908051E+01	1.66469940786E+02	-4.52684305552E+01	1.46246483272E+02	-5.95474274737E+00	-8.02469220103E-01
1.56490721191E+06	-1.15681812679E+01	-1.61253448122E+02	1.93482851253E+01	1.66058597976E+02	-5.26824811038E+01	-5.68049736136E+01	-6.02398749892E+00	-5.47154403786E-01
1.58709856651E+06	-1.59803880466E+01	1.53332123362E+02	1.93569939512E+01	1.66243255962E+02	-4.80157429510E+01	-1.73655584506E+02	-5.97834788935E+00	-7.66771792829E-01
1.60928992110E+06	-1.11994065154E+01	1.72156017727E+02	1.93129628930E+01	1.65850756696E+02	-5.55685664852E+01	1.78459656516E+02	-6.00012665717E+00	-8.70234474051E-01
1.63148127570E+06	-1.38634058742E+01	-1.66078685838E+02	1.93492150943E+01	1.65616097891E+02	-4.93553612880E+01	5.56663363146E+01	-6.01768456678E+00	-1.18340220147E+00
1.65367263029E+06	-1.25894212792E+01	1.74599414517E+02	1.93434371876E+01	1.65478523331E+02	-4.54886120157E+01	-6.04434048474E+01	-6.02841834036E+00	-5.25404963275E-01
1.67586398489E+06	-1.32087994666E+01	1.68176764108E+02	1.93327726646E+01	1.65397026920E+02	-4.22546821677E+01	9.47835678972E+01	-5.97310224698E+00	-9.75672171552E-01
1.69805533948E+06	-1.11534769201E+01	-1.62864374494E+02	1.93405838528E+01	1.64766266022E+02	-4.31936079748E+01	1.10734043937E+02	-5.95120635669E+00	-9.99197160951E-01
1.72024669408E+06	-1.33660268439E+01	-1.64466115857E+02	1.93379027770E+01	1.64757627443E+02	-4.38147017731E+01	-7.90344677573E+01	-6.01417526852E+00	-4.17043480890E-01
1.74243804867E+06	-1.48200503267E+01	-1.25349579141E+02	1.93891737256E+01	1.64412337347E+02	-5.45677262075E+01	1.53460562497E+02	-5.96310354826E+00	-7.92253037507E-01
1.76462940327E+06	-1.51146072336E+01	1.74419071975E+02	1.93322460170E+01	1.64494055671E+02	-3.99629683077E+01	-1.71196851827E+02	-5.93448931679E+00	-7.77126548720E-01
1.78682075786E+06	-1.37039447113E+01	-1.74593426705E+02	1.93240648360E+01	1.64082200857E+02	-6.28339535460E+01	-3.32028939971E-01	-6.01765480648E+00	-8.17636759700E-01
1.80901211246E+06	-1.52156563834E+01	-1.74573327373E+02	1.93312906801E+01	1.63975432707E+02	-4.01960184898E+01	3.80938300601E+01	-6.05957813658E+00	-1.12646168979E+00
1.83120346705E+06	-1.12382118025E+01	1.77188652030E+02	1.92943319001E+01	1.63826014824E+02	-5.67356097681E+01	1.01136530733E+02	-5.98109609933E+00	-1.03963527322E+00
1.85339482165E+06	-1.18243603000E+01	-1.64958875715E+02	1.93211229014E+01	1.63196595945E+02	-4.01115576457E+01	-1.52257365990E+02	-5.97162821075E+00	-6.49431884851E-01
1.87558617624E+06	-1.36511113933E+01	-1.46694511174E+02	1.93525309930E+01	1.63050633209E+02	-5.14295387757E+01	8.13102070720E+01	-6.00968442131E+00	-9.18823169344E-01
1.89777753084E+06	-8.41452175795E+00	-1.69346291349E+02	1.92756234251E+01	1.62925973647E+02	-5.35999031338E+01	1.36125550461E+02	-5.99895596134E+00	-8.36044397369E-01
1.91996888543E+06	-1.05769992289E+01	1.68358380740E+02	1.93059356490E+01	1.62884234307E+02	-5.05937677407E+01	-3.66187493294E+01	-6.05738595364E+00	-7.77396058174E-01
1.94216024003E+06	-1.40645292783E+01	-1.72129277007E+02	1.93246309402E+01	1.62556104421E+02	-5.00961903279E+01	1.25973851154E+02	-5.97908624266E+00	-1.14176458222E+00
1.96435159462E+06	-1.13952376287E+01	-1.71044272449E+02	1.92958082056E+01	1.62219691648E+02	-4.71477287672E+01	1.34311797876E+02	-5.97016249152E+00	-1.06891917980E+00
1.98654294922E+06	-1.25906634551E+01	-1.71357710752E+02	1.93114387814E+01	1.62020511482E+02	-4.51902177884E+01	-1.73190233180E+02	-5.94165741832E+00	-6.92880211914E-01
2.00873430381E+06	-1.51855710285E+01	-1.58062715829E+02	1.93328187626E+01	1.61929407532E+02	-3.94296541356E+01	-7.47610261231E+01	-6.04850874754E+00	-4.11173894005E-01
2.03092565841E+06	-1.53652275051E+01	-1.66733356518E+02	1.93241501125E+01	1.61703114428E+02	-4.81116886796E+01	1.66362304496E+02	-5.96639118830E+00	-7.30692323574E-01
2.05311701300E+06	-1.15967058702E+01	-1.78324928729E+02	1.92864008624E+01	1.61560182184E+02	-4.58077381949E+01	-2.58495865735E+01	-6.04769971646E+00	-9.15849593408E-01
2.07530836760E+06	-1.11645016449E+01	-1.68654622193E+02	1.92720152471E+01	1.61217555281E+02	-4.30729644446E+01	-4.29712685112E+01	-6.07325532256E+00	-8.20023389680E-01
2.09749972219E+06	-1.66270748577E+01	-1.54962583926E+02	1.93407998773E+01	1.61154626047E+02	-4.39388692576E+01	-4.51350086776E+01	-6.04884013364E+00	-8.45993466970E-01
2.11969107679E+06	-1.44473133111E+01	-1.75836751974E+02	1.93146198343E+01	1.60982239632E+02	-4.67327055825E+01	1.42664851556E+02	-5.95761823278E+00	-1.11993390758E+00
2.14188243138E+06	-1.43526118018E+01	1.75987648470E+02	1.92833282777E+01	1.60802190558E+02	-4.86771871486E+01	-1.54562736133E+02	-5.98593797258E+00	-6.67328339582E-01
2.16407378598E+06	-1.32035733621E+01	-1.75647434027E+02	1.92995494221E+01	1.60533262245E+02	-3.32887483395E+01	1.37049337879E-01	-6.09318163807E+00	-1.47104232229E+00
2.18626514057E+06	-1.44745784160E+01	-1.55160321263E+02	1.93047092584E+01	1.60135457994E+02	-4.72222982916E+01	-8.41546376185E+01	-6.00949908354E+00	-8.74094669809E-01
2.20845649517E+06	-1.27925724081E+01	1.78524524611E+02	1.92785322702E+01	1.60084350677E+02	-4.92816708139E+01	7.94212122688E+01	-6.01059333815E+00	-1.07391786235E+00
2.23064784976E+06	-1.22318530992E+01	-1.69346532881E+02	1.93123092461E+01	1.59692716060E+02	-6.09247560494E+01	-4.98324177289E+01	-6.04256916578E+00	-7.62072154068E-01
2.25283920436E+06	-1.38877924640E+01	1.79510673551E+02	1.92792202892E+01	1.59589877725E+02	-4.45266051834E+01	2.02568100639E+01	-6.02904129434E+00	-1.24758472501E+00
2.27503055895E+06	-1.25261448953E+01	1.74211108799E+02	1.92717004354E+01	1.59493010276E+02	-5.40528068304E+01	-3.59331183470E+01	-6.02790851499E+00	-9.30859562777E-01
2.29722191355E+06	-1.37337370019E+01	-1.77860355527E+02	1.93056221190E+01	1.59324021998E+02	-4.45646110616E+01	-1.01609631393E+02	-6.03966945923E+00	-5.75753603912E-01
2.31941326814E+06	-1.58048711088E+01	-1.72509119071E+02	1.92951469440E+01	1.59141677261E+02	-3.34206688429E+01	-2.61332741011E+01	-6.10343543179E+00	-1.01760892641E+00
2.34160462274E+06	-1.34650277944E+01	-1.76196221056E+02	1.92757648494E+01	1.58776143636E+02	-4.33560343785E+01	4.07662147939E+01	-6.00680549287E+00	-1.19031886286E+00
2.36379597733E+06	-1.21542102751E+01	-1.64366850784E+02	1.92728993115E+01	1.58530952178E+02	-5.02046628385E+01	-2.22370263577E+01	-6.04939965626E+00	-1.04305384278E+00
2.38598733193E+06	-1.32998668441E+01	-1.76355236236E+02	1.92827921748E+01	1.58384890273E+02	-5.98489148792E+01	3.44906448539E+00	-6.01724488990E+00	-1.10843698801E+00
2.40817868652E+06	-1.35446067496E+01	-1.67004259679E+02	1.92889074680E+01	1.58111193232E+02	-4.70438073784E+01	-1.16818624042E+02	-5.98183877601E+00	-1.05068646974E+00
2.43037004112E+06	-1.16242826965E+01	-1.71920533079E+02	1.92655023366E+01	1.57677545189E+02	-4.68656148018E+01	-1.40278672210E+02	-5.99178832808E+00	-1.17319718572E+00
2.45256139571E+06	-1.64437996713E+01	-1.69108179835E+02	1.92935757343E+01	1.58013162293E+02	-4.68226434953E+01	-1.40484170605E+02	-5.95869200554E+00	-9.52138321692E-01
2.47475275031E+06	-1.51782851076E+01	-1.64365695846E+02	1.92972045221E+01	1.57572633251E+02	-3.63578312001E+01	7.86370086763E+01	-5.94856341557E+00	-1.45697027507E+00
2.49694410490E+06	-1.37844619399E+01	-1.52101910759E+02	1.92952083479E+01	1.57147604253E+02	-4.87009085895E+01	-1.35318444842E+01	-6.00747549844E+00	-1.07283533269E+00
2.51913545950E+06	-1.14985335123E+01	-1.65201467635E+02	1.92696660815E+01	1.56895931956E+02	-4.50907715187E+01	2.50724299006E+01	-6.01007601554E+00	-1.32130866708E+00
2.54132681409E+06	-1.40166673306E+01	-1.71430178017E+02	1.92715869976E+01	1.56824071490E+02	-4.46368006841E+01	1.76015902971E+02	-5.94747937647E+00	-1.12783691977E+00
2.56351816869E+06	-1.47820395205E+01	-1.53737447140E+02	1.92781720350E+01	1.56453579895E+02	-4.79825252262E+01	1.20023863229E+01	-6.03663454668E+00	-1.20943810828E+00
2.58570952328E+06	-1.27521241330E+01	-1.73778519792E+02	1.92514204202E+01	1.56515387522E+02	-4.38670485255E+01	3.92248935674E+01	-6.06504244871E+00	-1.48820673814E+00
2.60790087788E+06	-1.91287902961E+01	1.78263692569E+02	1.92838230795E+01	1.56476937999E+02	-4.76457946211E+01	5.58091514259E+01	-6.02612469601E+00	-1.24854617799E+00
2.63009223247E+06	-1.55978105139E+01	1.78275346029E+02	1.92655415033E+01	1.56114656520E+02	-4.18677480795E+01	1.60020969576E+02	-5.95547762354E+00	-6.54916023736E-01
2.65228358707E+06	-1.33466108379E+01	-1.70654490292E+02	1.92393282354E+01	1.55783264965E+02	-4.43238570483E+01	-8.94920525296E+01	-5.99432196215E+00	-7.30126102397E-01
2.67447494166E+06	-1.73853213574E+01	-1.41838901296E+02	1.93019513721E+01	1.55648702825E+02	-3.92038911610E+01	-7.94589202870E+01	-6.05425899641E+00	-6.05255674436E-01
2.69666629626E+06	-1.64011508527E+01	-1.42952317864E+02	1.93054398807E+01	1.55451086889E+02	-4.07561948567E+01	-3.01209273455E+01	-6.07139997247E+00	-1.26849346244E+00
2.71885765085E+06	-1.17067185442E+01	-1.75778106752E+02	1.92276588313E+01	1.55070848356E+02	-5.55705339242E+01	7.02115036380E+01	-5.98920030219E+00	-1.38709519015E+00
2.74104900545E+06	-1.84956239008E+01	-1.71701495007E+02	1.92780635536E+01	1.55257201642E+02	-4.89319946946E+01	1.55885159372E+02	-5.98846585664E+00	-1.37372693722E+00
2.76324036004E+06	-1.29378530467E+01	1.65597540838E+02	1.92077754308E+01	1.54941336272E+02	-4.43498842610E+01	5.68193710434E+01	-6.02195809940E+00	-1.52199848504E+00
2.78543171463E+06	-1.08880709785E+01	-1.73148530984E+02	1.92216710706E+01	1.54388679802E+02	-4.09272087449E+01	3.68937977427E+01	-6.02511096919E+00	-1.66395028492E+00
2.80762306923E+06	-1.39547917523E+01	-1.78686970401E+02	1.92435041002E+01	1.54182125898E+02	-6.15215613193E+01	-2.92973681238E+01	-6.00184381032E+00	-1.06910621034E+00
2.82981442382E+06	-1.10345825340E+01	-1.79817829850E+02	1.92067796165E+01	1.54015671887E+02	-4.79405079383E+01	9.40279817613E+01	-5.98946120301E+00	-1.53730819018E+00
2.85200577842E+06	-1.27095626874E+01	-1.75589528842E+02	1.92363201961E+01	1.53820921953E+02	-4.14761558060E+01	1.52014412129E+02	-5.94408313750E+00	-1.54787180705E+00
2.87419713301E+06	-1.38692308211E+01	-1.72277659230E+02	1.92294234013E+01	1.53710756179E+02	-3.62288725811E+01	-9.44901650399E+01	-5.99907559097E+00	-4.13671701346E-01
