# Hz S DB R 50
! CMT, M5065, 19127446, 24.2.4/2
! Date: 11/8/2024 3:11:24 PM
! Data: Format (Calibration Info)
! Freq	S11:dB/Ang(F2)	S21:dB/Ang(F2)	S12:dB/Ang(F2)	S22:dB/Ang(F2)
3.00000000000E+05	-1.64820585544E+01	-1.61593749717E+02	1.32487216102E+01	-1.77170986606E+02	-4.10504184961E+01	7.36952314748E+01	-6.01663913946E+00	-5.40319938203E-01
3.22191354595E+05	-1.13639736020E+01	-1.54235262096E+02	1.32042390875E+01	-1.77973695042E+02	-4.45850254779E+01	9.60595425276E+01	-5.96906994889E+00	-3.67238429227E-01
3.44382709190E+05	-1.24522363096E+01	-1.77518784936E+02	1.31842191990E+01	-1.78319152649E+02	-4.51880927458E+01	-3.44035528458E+01	-6.02208120314E+00	-1.66590581881E-01
3.66574063785E+05	-1.37711136478E+01	-1.70753027750E+02	1.32238028256E+01	-1.78420577234E+02	-4.21597473018E+01	-2.70988798187E+01	-6.01000323188E+00	-2.76864190892E-01
3.88765418380E+05	-1.79399757455E+01	-1.59904780505E+02	1.32460438066E+01	-1.78848172614E+02	-3.78362420952E+01	-1.66933038252E+02	-5.95342855437E+00	-2.54491729754E-02
4.10956772975E+05	-1.47319178462E+01	1.61998035473E+02	1.32248661060E+01	-1.78988650128E+02	-4.50852390034E+01	-1.24085099093E+02	-6.01559339534E+00	-1.95417370122E-01
4.33148127570E+05	-1.08748843299E+01	-1.70030199507E+02	1.32083419627E+01	-1.79757470115E+02	-4.55175089118E+01	1.05561379499E+02	-6.00370348243E+00	-3.62282973673E-01
4.55339482165E+05	-1.63096705948E+01	1.78058918935E+02	1.32676640618E+01	-1.79914309061E+02	-4.18404595965E+01	-6.53171878313E+01	-6.01283224860E+00	-1.02737313703E-01
4.77530836760E+05	-1.35018672460E+01	1.64454406591E+02	1.32235499540E+01	-1.79851679309E+02	-3.92888878995E+01	9.51571201164E+01	-6.00470966520E+00	-5.80093780536E-01
4.99722191355E+05	-1.47915303887E+01	-1.51212460418E+02	1.32422264079E+01	1.79555731174E+02	-5.32391744022E+01	-1.05903437562E+02	-5.98410513933E+00	-3.41425842602E-01
5.21913545950E+05	-1.14037977791E+01	-1.66421105934E+02	1.32104576259E+01	1.79262616598E+02	-5.60156878692E+01	-5.71066914864E+01	-5.99332657400E+00	-2.84562519244E-01
5.44104900545E+05	-1.32563744163E+01	1.79146198604E+02	1.32157468442E+01	1.79032371711E+02	-6.12610240195E+01	1.42686002427E+02	-5.97857474776E+00	-2.31332961858E-01
5.66296255139E+05	-1.57725816188E+01	1.79777599819E+02	1.32341548288E+01	1.78949162798E+02	-4.58349292378E+01	1.50576375242E+02	-5.99391615318E+00	-3.20843988901E-01
5.88487609734E+05	-1.74317806538E+01	1.71061188312E+02	1.32595088844E+01	1.78767742225E+02	-3.63479084521E+01	1.31187298803E+02	-5.97034073269E+00	-4.44381981107E-01
6.10678964329E+05	-1.21380523831E+01	1.73371509193E+02	1.32172956281E+01	1.78506000021E+02	-4.61102498212E+01	-1.76993413622E+02	-5.98369848534E+00	2.54752983699E-01
6.32870318924E+05	-1.38606090857E+01	-1.58480664065E+02	1.32347061669E+01	1.78152519988E+02	-5.11221602400E+01	-1.20283333876E+02	-5.98373115097E+00	-1.91266395623E-01
6.55061673519E+05	-1.53322663535E+01	1.74398823733E+02	1.32633746290E+01	1.78256815781E+02	-5.23115759061E+01	-1.65411279203E+02	-5.98575744051E+00	-2.00772670960E-01
6.77253028114E+05	-1.42274981428E+01	1.74335100815E+02	1.32616659297E+01	1.78050148004E+02	-4.20687188785E+01	-1.03144606772E+02	-5.99570376561E+00	-4.02074246645E-01
6.99444382709E+05	-1.18672545505E+01	-1.43792983354E+02	1.32476088985E+01	1.77381715661E+02	-5.99703660120E+01	-1.11311311879E+02	-5.98067919938E+00	-3.32907538473E-01
7.21635737304E+05	-8.47135145948E+00	1.70292075910E+02	1.31823566250E+01	1.77672213577E+02	-4.05473249396E+01	-1.55058741939E+02	-5.97523078479E+00	-3.52501268267E-01
7.43827091899E+05	-1.47955620613E+01	-1.71484399397E+02	1.32463099613E+01	1.77288672427E+02	-3.98029865512E+01	-2.67407251160E+01	-6.03048319612E+00	-1.50430160489E-01
7.66018446494E+05	-1.28668311259E+01	1.76470837625E+02	1.32205707482E+01	1.77114254649E+02	-5.44397510083E+01	3.94385666455E+01	-6.00743314724E+00	-4.49926790914E-01
7.88209801089E+05	-9.86949272115E+00	-1.58654737355E+02	1.31966376400E+01	1.76792789045E+02	-5.14400681365E+01	-8.40436478877E+01	-6.02992602738E+00	-2.83763875643E-01
8.10401155684E+05	-1.41225561532E+01	-1.65175887207E+02	1.32479546395E+01	1.76843715814E+02	-4.68261302016E+01	-3.07623809950E+01	-6.00642664815E+00	-2.48898625532E-01
8.32592510279E+05	-1.42426803854E+01	1.64137863382E+02	1.32326444291E+01	1.76860567457E+02	-5.35971670652E+01	-1.23664267464E+02	-5.97605571454E+00	-4.74059858368E-01
8.54783864874E+05	-1.91701080881E+01	-1.66775439390E+02	1.32633470540E+01	1.76493276849E+02	-5.41929798096E+01	-7.54516604258E+01	-5.98015487656E+00	-2.99585499252E-01
8.76975219469E+05	-1.20934273463E+01	1.66400326746E+02	1.32263874783E+01	1.76613599681E+02	-5.57731157957E+01	1.85067613608E+01	-6.01910940853E+00	-4.36808270426E-01
8.99166574064E+05	-1.34455629806E+01	-1.65461340428E+02	1.32377930847E+01	1.76097856379E+02	-5.86936432650E+01	-4.11163815501E+01	-6.01619335346E+00	-3.91139400532E-01
9.21357928659E+05	-1.87593489371E+01	1.75232685324E+02	1.32534405230E+01	1.76080476897E+02	-4.71228334711E+01	1.22929118447E+02	-5.98611343197E+00	-4.58473816888E-01
9.43549283254E+05	-1.44837678072E+01	-1.51564822372E+02	1.32457892070E+01	1.75677662862E+02	-5.26745652814E+01	1.56457150557E+02	-5.98313958960E+00	-5.29619838978E-01
9.65740637849E+05	-1.67300422421E+01	-1.67767391995E+02	1.32648437519E+01	1.75421618669E+02	-5.33049620912E+01	-2.36776458469E+01	-5.98340953485E+00	-5.01350838130E-01
9.87931992444E+05	-1.36296561974E+01	1.57631951494E+02	1.32245688854E+01	1.75735420095E+02	-4.00475305054E+01	-5.18630490176E+01	-6.00032193945E+00	-4.59958915405E-01
1.01012334704E+06	-1.32340274481E+01	1.60842266119E+02	1.32306205338E+01	1.75509729157E+02	-3.92478984791E+01	-1.42942711658E+02	-5.95339923160E+00	-3.17722211841E-01
1.03231470163E+06	-1.47111617141E+01	-1.56148405288E+02	1.32416357036E+01	1.75163088333E+02	-4.02228874563E+01	6.23639297729E+01	-6.00035426176E+00	-7.04451812235E-01
1.05450605623E+06	-1.49923217895E+01	-1.65075617626E+02	1.32314735042E+01	1.74906261765E+02	-6.07963860765E+01	-1.73850199123E+02	-5.97622993003E+00	-4.73394694051E-01
1.07669741082E+06	-1.29222742207E+01	1.70804568935E+02	1.32323619344E+01	1.74850569878E+02	-4.19048647715E+01	6.10828349729E+01	-5.99783534954E+00	-6.67670125404E-01
1.09888876542E+06	-1.41842094795E+01	-1.69083119341E+02	1.32578371428E+01	1.74704782685E+02	-4.55259525265E+01	1.36936863684E+02	-5.97788015715E+00	-6.29431070430E-01
1.12108012001E+06	-1.51057744569E+01	-1.65394315199E+02	1.32444496126E+01	1.74492932538E+02	-4.72795800907E+01	-1.22847213623E+02	-6.00177198325E+00	-5.59950693739E-01
1.14327147461E+06	-1.34416763518E+01	1.72581190202E+02	1.32077144447E+01	1.74511438775E+02	-4.06151145225E+01	2.49613700388E+01	-6.02767820995E+00	-7.27284516839E-01
1.16546282920E+06	-1.35755221718E+01	1.72486165943E+02	1.31993978357E+01	1.74379655462E+02	-4.18346284120E+01	-1.51712506152E+02	-5.99151276470E+00	-3.84773761503E-01
1.18765418380E+06	-1.53921828270E+01	1.71754014154E+02	1.32259700420E+01	1.74004961217E+02	-4.13076406871E+01	-3.42825087496E+01	-6.01848375117E+00	-7.62548425207E-01
1.20984553839E+06	-1.45883941787E+01	-1.63972759813E+02	1.32552455846E+01	1.73774712417E+02	-4.24558552745E+01	-9.77494908774E+01	-6.01947358875E+00	-4.47831588942E-01
1.23203689299E+06	-1.29507319654E+01	-1.52632181491E+02	1.32423511044E+01	1.73436414405E+02	-4.57427034687E+01	-7.53889062071E+01	-6.00123943634E+00	-2.55203270986E-01
1.25422824758E+06	-1.32228888674E+01	1.74052783571E+02	1.32041570464E+01	1.73717365547E+02	-5.15420474344E+01	-3.35482638606E+00	-6.00313498990E+00	-4.32556006232E-01
1.27641960218E+06	-1.05647523654E+01	-1.73966078752E+02	1.31792338686E+01	1.73326270523E+02	-5.86307724299E+01	-9.70560106554E+01	-6.00553718980E+00	-6.36563390977E-01
1.29861095677E+06	-1.44851075348E+01	1.71897742842E+02	1.32541778269E+01	1.73644556692E+02	-4.29382993338E+01	-9.45069994076E+01	-5.99540483086E+00	-3.95301162162E-01
1.32080231137E+06	-1.27955797267E+01	1.77626678699E+02	1.32230936793E+01	1.73221946592E+02	-4.66849652808E+01	-1.32322872436E+02	-5.99007324359E+00	-8.83884571327E-01
1.34299366596E+06	-1.51480220197E+01	1.60172645386E+02	1.32131961420E+01	1.73281098949E+02	-4.05967635767E+01	-1.02768210518E+02	-6.02003097662E+00	-4.47115784558E-01
1.36518502056E+06	-1.31452882956E+01	1.73553004296E+02	1.32118854094E+01	1.73078111234E+02	-3.86317873134E+01	1.36545711912E+02	-5.96116005789E+00	-6.42817183814E-01
1.38737637515E+06	-1.36753414761E+01	-1.49982159525E+02	1.32518406624E+01	1.72757903561E+02	-4.51822956852E+01	-3.63932027066E+01	-6.02154527563E+00	-6.00250865277E-01
1.40956772975E+06	-1.26528154940E+01	-1.70493896974E+02	1.32082148051E+01	1.72485565885E+02	-4.13771024709E+01	-1.02554897103E+02	-5.99930895295E+00	-4.32588317733E-01
1.43175908434E+06	-1.39825994319E+01	1.73179370349E+02	1.32486830981E+01	1.72778761180E+02	-4.38693332062E+01	1.70315802172E+02	-5.97698495762E+00	-6.51703435336E-01
1.45395043894E+06	-1.59541434686E+01	-1.78463048600E+02	1.32349220709E+01	1.72475259836E+02	-4.34059675114E+01	-1.40957621848E+02	-5.98155553030E+00	-5.55718733697E-01
1.47614179353E+06	-1.18388765186E+01	-1.66757789511E+02	1.32296654055E+01	1.72113257555E+02	-4.91728351528E+01	1.54284203939E+02	-5.96960746828E+00	-7.42086082256E-01
1.49833314813E+06	-1.37059377915E+01	1.78394974577E+02	1.32419039496E+01	1.72026011759E+02	-4.10590733784E+01	-8.12406624602E+01	-6.00305259164E+00	-5.76660482202E-01
1.52052450272E+06	-1.47712316185E+01	-1.72557071899E+02	1.32569693182E+01	1.71999148326E+02	-4.19725522853E+01	-1.78302039763E+02	-5.98360207562E+00	-5.91363199059E-01
1.54271585732E+06	-1.39014155090E+01	1.68548249993E+02	1.32252657705E+01	1.71849597177E+02	-4.65470991055E+01	1.54101075742E+02	-5.99811734379E+00	-6.99787459389E-01
1.56490721191E+06	-1.41956524375E+01	-1.68573118225E+02	1.32485893360E+01	1.71787921430E+02	-4.47735198052E+01	5.04544101051E+01	-5.99857964368E+00	-9.17684331098E-01
1.58709856651E+06	-1.50124557614E+01	-1.53572705429E+02	1.32779501479E+01	1.71557647067E+02	-4.46139395241E+01	-7.96506678590E+01	-6.00407587022E+00	-5.77647802326E-01
1.60928992110E+06	-1.63206063728E+01	-1.77467552063E+02	1.32499262716E+01	1.71428030088E+02	-4.04298797311E+01	-1.57037690505E+02	-5.94712551952E+00	-6.34429209824E-01
1.63148127570E+06	-1.14595590632E+01	-1.61647554290E+02	1.32079248379E+01	1.71117580026E+02	-4.77493301584E+01	1.52328251431E+02	-6.01080619405E+00	-6.75380228990E-01
1.65367263029E+06	-1.51648801043E+01	-1.69238208604E+02	1.32557394612E+01	1.71106914972E+02	-3.80730542527E+01	-6.73342877815E+01	-6.03165154156E+00	-6.01381193582E-01
1.67586398489E+06	-1.44624897225E+01	-1.65216420887E+02	1.32337097787E+01	1.70972519580E+02	-3.80096174588E+01	8.67538319987E+01	-5.99265756884E+00	-1.18473830458E+00
1.69805533948E+06	-1.88618957686E+01	-1.55227525409E+02	1.32589452471E+01	1.70860131802E+02	-4.84101457317E+01	1.43211026372E+02	-5.98692712048E+00	-8.46071850500E-01
1.72024669408E+06	-1.28321231344E+01	-1.69996737231E+02	1.32157140518E+01	1.70794846165E+02	-4.41553356791E+01	-1.30092412504E+02	-5.97793239916E+00	-7.39881600195E-01
1.74243804867E+06	-1.32813832866E+01	-1.57686768766E+02	1.32423594284E+01	1.70371386643E+02	-4.13373964326E+01	1.06194607524E+02	-5.98621737068E+00	-9.19671187405E-01
1.76462940327E+06	-1.54543393246E+01	1.75997066648E+02	1.32219000980E+01	1.70730055780E+02	-4.67648460763E+01	-1.55906568669E+02	-5.98615417552E+00	-8.83707806229E-01
1.78682075786E+06	-1.30330754602E+01	1.63680285249E+02	1.32384412708E+01	1.70470607600E+02	-4.38075073917E+01	-1.40304679583E+02	-5.98327300704E+00	-7.41428519338E-01
1.80901211246E+06	-1.28623410519E+01	-1.40976168521E+02	1.32595415058E+01	1.69876684974E+02	-4.55808343406E+01	1.55780199588E+02	-5.98759191852E+00	-7.82015199415E-01
1.83120346705E+06	-1.63608310027E+01	-1.67553355609E+02	1.32535394601E+01	1.70133877048E+02	-4.19467900248E+01	1.24593880992E+02	-5.95311913538E+00	-8.45000563654E-01
1.85339482165E+06	-1.26279488778E+01	-1.72615986002E+02	1.32512417069E+01	1.69732926764E+02	-6.34567021364E+01	3.64006494300E+01	-5.99807950988E+00	-8.30611538262E-01
1.87558617624E+06	-1.52408497046E+01	-1.66201942159E+02	1.32597158801E+01	1.69866666645E+02	-4.36839005800E+01	-2.47605466472E+01	-6.01739587906E+00	-7.50387762863E-01
1.89777753084E+06	-1.43096157705E+01	-1.74649328403E+02	1.32406971159E+01	1.69760071682E+02	-4.25999377517E+01	-1.79936734871E+02	-5.96863709321E+00	-6.19681342925E-01
1.91996888543E+06	-1.49014906652E+01	-1.60731636576E+02	1.32585953730E+01	1.69354424238E+02	-4.67305211219E+01	-1.48945275820E+02	-5.98761551088E+00	-7.21030364544E-01
1.94216024003E+06	-1.19355554108E+01	-1.78167406570E+02	1.32014081131E+01	1.69396990054E+02	-5.60031561072E+01	2.42739900213E+01	-5.99567939008E+00	-8.61850980710E-01
1.96435159462E+06	-1.33243582673E+01	-1.72581083548E+02	1.32387598193E+01	1.69253120542E+02	-4.19636651506E+01	3.05044343475E+00	-6.04232552161E+00	-8.79860340118E-01
1.98654294922E+06	-1.84248085583E+01	-1.63460125750E+02	1.32517680347E+01	1.69298030013E+02	-3.78437887918E+01	-1.52698816035E+02	-5.96212331636E+00	-6.63893053787E-01
2.00873430381E+06	-1.63220345179E+01	-1.73639309269E+02	1.32751354526E+01	1.68895634411E+02	-4.57456765253E+01	6.62400049351E+01	-6.00368967053E+00	-1.04460324234E+00
2.03092565841E+06	-1.38650665628E+01	1.75173461823E+02	1.32402268286E+01	1.68872648021E+02	-4.41385519681E+01	9.27675035953E+01	-5.97153055094E+00	-1.05874698144E+00
2.05311701300E+06	-1.53184102839E+01	-1.69317164122E+02	1.32611327681E+01	1.68759924948E+02	-4.66620739226E+01	-1.72330102301E+02	-5.96996920435E+00	-9.81698057468E-01
2.07530836760E+06	-1.46475613490E+01	-1.79930066022E+02	1.32472150752E+01	1.68659214847E+02	-4.59945258595E+01	-7.47017293438E+01	-6.00402185636E+00	-9.57327346936E-01
2.09749972219E+06	-1.48073660819E+01	-1.68947319341E+02	1.32767691669E+01	1.68410549044E+02	-5.10535493545E+01	1.80846021298E+01	-6.01278607348E+00	-8.60783799210E-01
2.11969107679E+06	-1.34164360118E+01	1.69624140781E+02	1.32316660742E+01	1.68284096198E+02	-5.05569466953E+01	-8.17995035302E+01	-5.98320991270E+00	-8.81096590898E-01
2.14188243138E+06	-1.79971952947E+01	-1.78074830667E+02	1.32454897241E+01	1.68443440522E+02	-5.75444787990E+01	-5.84408573894E+01	-5.98918470451E+00	-8.00080855844E-01
2.16407378598E+06	-1.46031178982E+01	-1.65427874793E+02	1.32639358738E+01	1.67934152645E+02	-4.64242017312E+01	-7.28852801902E+01	-6.01545528895E+00	-8.82373915097E-01
2.18626514057E+06	-1.35223013800E+01	-1.71135448583E+02	1.32452126263E+01	1.67781140986E+02	-5.17864888148E+01	4.31108819383E+01	-6.00769862074E+00	-1.01483107986E+00
2.20845649517E+06	-1.27146133733E+01	-1.65207696682E+02	1.32479502837E+01	1.67725538025E+02	-4.16688632613E+01	-2.47131939803E+01	-6.03890200727E+00	-8.70667332374E-01
2.23064784976E+06	-1.46946180591E+01	-1.64246849921E+02	1.32659399056E+01	1.67648498494E+02	-4.11590509775E+01	-9.16450891245E+01	-6.02996193628E+00	-7.81600965319E-01
2.25283920436E+06	-1.45515661321E+01	-1.69049419356E+02	1.32598016648E+01	1.67468138630E+02	-4.53198855794E+01	1.34859932707E+01	-5.99940288256E+00	-9.84836210510E-01
2.27503055895E+06	-1.22447081525E+01	1.53700406146E+02	1.31881514938E+01	1.67518582191E+02	-4.23059484709E+01	2.50613674708E+01	-6.01144604533E+00	-1.07496670325E+00
2.29722191355E+06	-1.76992351428E+01	-7.59028461720E+01	1.33395623805E+01	1.67453234880E+02	-3.55696426165E+01	7.87920375610E+01	-5.96232604217E+00	-1.49484019177E+00
2.31941326814E+06	-1.15876580057E+01	-1.55324310389E+02	1.32637054929E+01	1.66793020489E+02	-4.58716146359E+01	1.73043162172E+02	-5.97631991780E+00	-9.84085697246E-01
2.34160462274E+06	-2.11848356602E+01	1.76578006041E+02	1.32940419624E+01	1.67381400876E+02	-4.88407357172E+01	1.63071051690E+01	-6.01459701879E+00	-1.10462671275E+00
2.36379597733E+06	-1.38389998232E+01	-1.71361874299E+02	1.32649489400E+01	1.66837120800E+02	-4.47828904654E+01	-3.90908173187E+01	-6.02177833933E+00	-1.06816037930E+00
2.38598733193E+06	-1.30534019075E+01	-1.76848926599E+02	1.32296140851E+01	1.66762501296E+02	-5.04621593362E+01	-8.49513165428E+01	-6.01535672047E+00	-9.18177988884E-01
2.40817868652E+06	-1.33938126063E+01	-1.73664038924E+02	1.32527149810E+01	1.66388650282E+02	-5.01818871139E+01	-1.16808460109E+02	-5.98425769077E+00	-1.09471643206E+00
2.43037004112E+06	-1.32375816882E+01	-1.73650909777E+02	1.32377502931E+01	1.66417488622E+02	-4.55193476688E+01	-1.40353493301E+02	-5.99881231458E+00	-1.28128339199E+00
2.45256139571E+06	-1.54503336131E+01	-1.73570872081E+02	1.32692193614E+01	1.66247681966E+02	-3.89494738517E+01	-8.50570958259E+01	-6.02394366990E+00	-7.94889792002E-01
2.47475275031E+06	-1.41617953452E+01	-1.73505579900E+02	1.32754436466E+01	1.66316622429E+02	-4.37763280903E+01	1.63104485824E+02	-5.98876390752E+00	-1.37278922963E+00
2.49694410490E+06	-1.45866937532E+01	1.77902965232E+02	1.32546119369E+01	1.66157577572E+02	-6.12754567140E+01	9.91576264993E+01	-6.01665163646E+00	-9.71516073897E-01
2.51913545950E+06	-1.55478047836E+01	-1.67926446733E+02	1.32911154076E+01	1.66029144339E+02	-5.25232478596E+01	1.67194541612E+02	-5.98348583502E+00	-1.06184695916E+00
2.54132681409E+06	-1.39016428245E+01	-1.60840384440E+02	1.32766030903E+01	1.65542548113E+02	-4.78183990325E+01	-1.10453654611E+02	-5.99039775719E+00	-1.09816424582E+00
2.56351816869E+06	-1.63323070116E+01	-1.65226663227E+02	1.32875077834E+01	1.65891483601E+02	-4.73755773165E+01	-1.78709639784E+02	-5.99590382076E+00	-9.38975430788E-01
2.58570952328E+06	-1.74889735986E+01	-1.44276588513E+02	1.32961639633E+01	1.65510186744E+02	-4.34514711980E+01	5.48429771549E+01	-5.99824123292E+00	-1.28763972846E+00
2.60790087788E+06	-7.59945680788E+00	1.52905214533E+02	1.31471245018E+01	1.65226948547E+02	-3.41991680266E+01	1.66902701437E+01	-6.03734995782E+00	-1.54820692791E+00
2.63009223247E+06	-1.36262615474E+01	-1.73533926902E+02	1.32487025463E+01	1.65279190907E+02	-3.98367794921E+01	1.34384302699E+02	-5.97828702820E+00	-9.08580460516E-01
2.65228358707E+06	-1.23969656116E+01	-1.72647731676E+02	1.32551338516E+01	1.65026045491E+02	-5.43296891220E+01	-6.06574513525E+00	-5.99463449084E+00	-1.10025409356E+00
2.67447494166E+06	-1.35923249022E+01	1.71296647657E+02	1.32262619229E+01	1.65137006123E+02	-3.97190729989E+01	6.04047625632E+00	-6.07634034865E+00	-1.28607491475E+00
2.69666629626E+06	-1.53692806874E+01	1.73515653778E+02	1.32751846539E+01	1.64961052758E+02	-4.44443551126E+01	-4.43940023191E+01	-6.01440940961E+00	-1.30540007157E+00
2.71885765085E+06	-1.38875228423E+01	-1.68617576293E+02	1.32488927539E+01	1.64527195266E+02	-4.63589071457E+01	7.94635060276E+01	-6.00698103918E+00	-1.29899686138E+00
2.74104900545E+06	-1.97489753379E+01	-1.49217869089E+02	1.33026892605E+01	1.64573585433E+02	-4.65733166049E+01	6.41267513371E+01	-5.99772530057E+00	-1.26194082382E+00
2.76324036004E+06	-1.25298689648E+01	-1.60310923097E+02	1.32799843699E+01	1.64079583317E+02	-4.93542756385E+01	-8.43265405138E+01	-6.02050112076E+00	-9.94248989052E-01
2.78543171463E+06	-1.12568053600E+01	-1.63143061801E+02	1.32666876279E+01	1.64140434662E+02	-5.10747913994E+01	1.54747276738E+01	-6.00501881923E+00	-1.22566010023E+00
2.80762306923E+06	-1.60291266053E+01	1.63911491723E+02	1.32783834776E+01	1.64469624099E+02	-4.59383582482E+01	-1.56916771466E+02	-5.97917858042E+00	-1.06780398424E+00
2.82981442382E+06	-1.21995783235E+01	-1.77959376093E+02	1.32703630092E+01	1.63916306984E+02	-4.35035542256E+01	-3.29397783735E+01	-6.04759529498E+00	-1.22841759231E+00
2.85200577842E+06	-1.30017320395E+01	-1.56079473427E+02	1.32938380844E+01	1.63652004555E+02	-4.25053664142E+01	-5.47480579387E+01	-6.02434060426E+00	-1.05577240418E+00
2.87419713301E+06	-1.47958710714E+01	-1.78928842486E+02	1.32736718649E+01	1.63915699448E+02	-4.64321130236E+01	1.10012295126E+02	-6.00306477140E+00	-1.51209700379E+00
