# Hz S DB R 50
! CMT, M5065, 19127446, 24.2.4/2
! Date: 11/8/2024 3:22:56 PM
! Data: Format (Calibration Info)
! Freq	S11:dB/Ang(F2)	S21:dB/Ang(F2)	S12:dB/Ang(F2)	S22:dB/Ang(F2)
3.00000000000E+05	-1.39691057069E+01	-1.78590795053E+02	2.25860592431E+01	-1.76316615068E+02	-4.06361886807E+01	-1.50765595077E+02	-5.90832330563E+00	-6.60637885769E-02
3.22191354595E+05	-1.35529012262E+01	-1.61995132376E+02	2.30349225351E+01	-1.77177688532E+02	-5.07157502715E+01	1.37278217535E+02	-5.98225492633E+00	-4.30087434526E-01
3.44382709190E+05	-1.33715539396E+01	1.76430315684E+02	2.30533656874E+01	-1.77669303789E+02	-4.25126051730E+01	1.62372071617E+02	-5.93878644047E+00	-2.43792098975E-01
3.66574063785E+05	-1.16313842437E+01	-1.72928647575E+02	2.30409897800E+01	-1.78418366353E+02	-4.65702467307E+01	1.65065403061E+02	-5.91676843451E+00	-3.96212009216E-01
3.88765418380E+05	-1.97076145184E+01	-1.52191241384E+02	2.29537565631E+01	-1.77995515948E+02	-4.05357105989E+01	-6.28824756097E+01	-5.94683974998E+00	-2.95477746922E-01
4.10956772975E+05	-1.44051098105E+01	1.77910683311E+02	2.30631701937E+01	-1.79787020863E+02	-4.04056821106E+01	7.23099244416E+00	-6.07669484032E+00	-4.94069515533E-01
4.33148127570E+05	-1.65351454039E+01	-1.70405692275E+02	2.30732282847E+01	1.79419565443E+02	-4.85401666953E+01	-9.67305413359E-01	-6.03132332036E+00	-4.76745691035E-01
4.55339482165E+05	-1.68183461103E+01	-1.67701985866E+02	2.30659213187E+01	1.78984065036E+02	-4.45905941702E+01	-1.06182517803E+02	-6.00728152308E+00	-1.50810343309E-01
4.77530836760E+05	-1.66406816191E+01	1.77703820450E+02	2.30729640644E+01	1.78570735445E+02	-4.00836385607E+01	1.60244829536E+02	-5.89181290398E+00	-7.92111275032E-01
4.99722191355E+05	-1.31011946613E+01	-1.66055649117E+02	2.30375271544E+01	1.77779891529E+02	-4.75151078001E+01	-4.06736449494E+01	-6.02887854375E+00	-1.61262852314E-01
5.21913545950E+05	-1.33748715622E+01	1.78757460181E+02	2.30510216930E+01	1.77433858184E+02	-4.12400873297E+01	4.21673794285E+01	-6.06407816939E+00	-9.00106021262E-01
5.44104900545E+05	-1.46580469889E+01	-1.46487550670E+02	2.30393357670E+01	1.76698952518E+02	-3.88394456682E+01	1.19234487287E+02	-5.91842889607E+00	-1.06438516357E+00
5.66296255139E+05	-1.13995767289E+01	-1.71978005424E+02	2.30173405934E+01	1.76134732634E+02	-4.35834160365E+01	1.48287558745E+01	-6.04711396040E+00	-5.69466554056E-01
5.88487609734E+05	-1.36328729889E+01	-1.65751255709E+02	2.30441178497E+01	1.75789786536E+02	-5.08720145631E+01	1.19861346922E+02	-5.97709598262E+00	-5.19789373405E-01
6.10678964329E+05	-1.47391105726E+01	-1.58453017125E+02	2.30364389459E+01	1.75351665642E+02	-5.09742360205E+01	1.04774165137E+02	-6.00110599722E+00	-2.28582730947E-01
6.32870318924E+05	-1.34010059409E+01	-1.70828521148E+02	2.30002297092E+01	1.75033859049E+02	-4.64695884791E+01	-1.14150067735E+02	-5.98754957619E+00	1.27776822134E-01
6.55061673519E+05	-1.69243253771E+01	-1.74431719398E+02	2.30337824746E+01	1.74682129927E+02	-4.87747073478E+01	5.33013673803E+01	-6.03376331234E+00	-4.46578425372E-01
6.77253028114E+05	-1.42812062050E+01	1.73051693792E+02	2.30256809365E+01	1.74343413195E+02	-3.92933450164E+01	8.34357676930E+01	-5.99097296089E+00	-1.30443440165E+00
6.99444382709E+05	-1.09876747085E+01	-1.70586459479E+02	2.30120585143E+01	1.73621655298E+02	-5.52761488802E+01	-1.15397003169E+02	-5.99897415756E+00	-2.15361076830E-01
7.21635737304E+05	-1.48871709733E+01	-1.68021894370E+02	2.30220165020E+01	1.73383435772E+02	-3.84044554857E+01	-4.10235554166E+01	-6.09963850481E+00	1.66281666429E-01
7.43827091899E+05	-1.53521054669E+01	-1.65466813250E+02	2.30291206770E+01	1.72867353161E+02	-5.25941732009E+01	-7.01281330460E+01	-6.01580477851E+00	-3.84264363146E-01
7.66018446494E+05	-1.29081152305E+01	-1.68975961324E+02	2.29951522178E+01	1.72566718792E+02	-4.13435438280E+01	-6.77240702970E+01	-6.00449664790E+00	1.96323070244E-01
7.88209801089E+05	-1.43105213412E+01	1.43839107733E+02	2.29831072896E+01	1.72564963831E+02	-5.91916888212E+01	1.72618998169E+02	-5.98132203865E+00	-4.53846971782E-01
8.10401155684E+05	-1.24103076332E+01	-1.67303999552E+02	2.29906571107E+01	1.71794387180E+02	-4.58372942840E+01	1.32545866268E+02	-5.95084911309E+00	-7.70888733432E-01
8.32592510279E+05	-1.25985355217E+01	-1.69153661115E+02	2.29749608367E+01	1.71483920516E+02	-4.18597693813E+01	-1.58361276807E+02	-5.97181073283E+00	-1.68704386165E-01
8.54783864874E+05	-1.69835232582E+01	1.60577394729E+02	2.30013734052E+01	1.71239930109E+02	-4.06224369952E+01	-2.19127600672E+00	-6.09294399407E+00	-1.24180519607E-01
8.76975219469E+05	-1.54296269003E+01	1.54603680334E+02	2.29836288167E+01	1.71099042228E+02	-4.47457963336E+01	1.01685442084E+02	-5.95989057501E+00	-7.99367361408E-01
8.99166574064E+05	-1.51662058154E+01	-1.73825667251E+02	2.29794333337E+01	1.70417222886E+02	-5.43460254750E+01	1.12679965006E+02	-5.99222491073E+00	-6.52764775992E-01
9.21357928659E+05	-1.44101290881E+01	1.70222725129E+02	2.29736481519E+01	1.70220952966E+02	-5.43537523200E+01	9.90566104724E+01	-5.97501814087E+00	-6.29699481194E-01
9.43549283254E+05	-1.31179750805E+01	-1.59652322736E+02	2.29533384035E+01	1.69594244980E+02	-4.90316565510E+01	1.54364955228E+02	-5.97822685257E+00	-6.54610673522E-01
9.65740637849E+05	-1.58727879848E+01	-1.51301379240E+02	2.29872798285E+01	1.69363134829E+02	-4.86500341568E+01	-7.19098684674E+01	-6.00807388929E+00	-4.84552871438E-01
9.87931992444E+05	-1.70484617366E+01	-1.68369610336E+02	2.29707408782E+01	1.69158633279E+02	-4.70146722938E+01	3.06671990831E+01	-6.07533359435E+00	-8.35043694775E-01
1.01012334704E+06	-1.22227286848E+01	-1.49335487450E+02	2.29370368114E+01	1.68562283518E+02	-3.63267681125E+01	4.98537113455E+01	-6.09876414119E+00	-1.07152921768E+00
1.03231470163E+06	-1.29863216697E+01	-1.72220649418E+02	2.29296689349E+01	1.68357929025E+02	-3.99207143631E+01	-7.84033823467E+01	-6.05983296547E+00	1.05073651540E-01
1.05450605623E+06	-1.55635190541E+01	-1.71628229006E+02	2.29342101643E+01	1.68201279617E+02	-5.13315384410E+01	-6.75765170623E+01	-6.00009019035E+00	-2.70654873915E-01
1.07669741082E+06	-1.44339396365E+01	-1.72544545227E+02	2.29254989166E+01	1.67821559258E+02	-5.80300591077E+01	-1.48004180355E+02	-6.02396416915E+00	-4.80781912335E-01
1.09888876542E+06	-1.45156964363E+01	-1.67015440444E+02	2.29367928239E+01	1.67327874860E+02	-4.26459264964E+01	1.70630566199E+02	-5.92310570222E+00	-6.10100899716E-01
1.12108012001E+06	-1.82211937586E+01	-1.71630023684E+02	2.29293792349E+01	1.67278982908E+02	-4.59736739991E+01	1.70436426838E+02	-5.95951756266E+00	-6.31085302013E-01
1.14327147461E+06	-1.23610447584E+01	1.74960978548E+02	2.28783548558E+01	1.67085767525E+02	-4.28128435937E+01	1.33218539707E+02	-5.92266030140E+00	-8.93452629250E-01
1.16546282920E+06	-1.42629852668E+01	1.55413755018E+02	2.29053325211E+01	1.66808534190E+02	-4.02568932288E+01	-6.41092389481E+00	-6.06677925675E+00	-4.75866038213E-01
1.18765418380E+06	-1.71351374789E+01	1.78283135622E+02	2.29176006301E+01	1.66346073172E+02	-7.82832569583E+01	7.79242281151E+01	-5.99069144725E+00	-4.96467051343E-01
1.20984553839E+06	-1.55381795611E+01	-1.66708136037E+02	2.28965437738E+01	1.65942247394E+02	-4.58244497999E+01	5.63312242645E+01	-6.02461077543E+00	-9.18448023852E-01
1.23203689299E+06	-1.35481730247E+01	-1.65811377828E+02	2.28795792586E+01	1.65633650039E+02	-4.22821250626E+01	-6.67653985916E+01	-6.04424504491E+00	3.09058563196E-02
1.25422824758E+06	-1.54593764725E+01	-1.74340514612E+02	2.28888823127E+01	1.65302820028E+02	-4.68576062778E+01	-9.54621855921E+01	-6.04197681172E+00	-2.10753773886E-01
1.27641960218E+06	-1.26601539686E+01	-1.46610991902E+02	2.29074064212E+01	1.64746026432E+02	-5.65318746123E+01	-1.57146981009E+02	-6.00601175010E+00	-6.35895321915E-01
1.29861095677E+06	-1.13569294286E+01	-1.60564146949E+02	2.28669829668E+01	1.64425151841E+02	-4.85615454961E+01	-1.31229848857E+02	-5.96124067622E+00	-4.03117112621E-01
1.32080231137E+06	-1.55354106176E+01	1.59174384189E+02	2.28818278290E+01	1.64462482210E+02	-4.75707665344E+01	5.70977290990E+01	-6.00961412409E+00	-1.04031313522E+00
1.34299366596E+06	-1.22560478420E+01	1.74872332784E+02	2.28229941132E+01	1.63964187972E+02	-4.46002785901E+01	1.74618504556E+02	-5.94715848506E+00	-7.12773012903E-01
1.36518502056E+06	-1.30785929943E+01	-1.74465339178E+02	2.28482476578E+01	1.63676230227E+02	-4.96850648375E+01	-1.22952820113E+02	-5.97347563493E+00	-3.93291036562E-01
1.38737637515E+06	-1.36275616773E+01	-1.67584356928E+02	2.28433207331E+01	1.63385185815E+02	-4.39850279514E+01	-6.86008906747E+01	-6.02884061448E+00	-2.99455366007E-01
1.40956772975E+06	-1.20854425673E+01	-1.75321811871E+02	2.28244066897E+01	1.63098992378E+02	-5.13186092009E+01	8.01579074990E+01	-6.02599286608E+00	-8.26358558102E-01
1.43175908434E+06	-1.30290131207E+01	1.66464805981E+02	2.28234832532E+01	1.63115510123E+02	-3.90946135588E+01	5.08813248850E+00	-6.12733259438E+00	-8.77759907566E-01
1.45395043894E+06	-1.53854876516E+01	-1.70550571473E+02	2.28599969773E+01	1.62490433538E+02	-4.23671992382E+01	1.28400961918E+00	-6.08276830308E+00	-9.66385237394E-01
1.47614179353E+06	-1.33455592558E+01	-1.75329662913E+02	2.27900846421E+01	1.62276208383E+02	-4.40040389017E+01	-2.23510855549E+01	-6.05359157460E+00	-8.33813924300E-01
1.49833314813E+06	-2.46464046309E+01	1.45164929245E+02	2.28509422464E+01	1.62215518244E+02	-4.21071528922E+01	-1.63093975901E+02	-5.91764481669E+00	-4.42281641270E-01
1.52052450272E+06	-1.36909381606E+01	-1.64825231614E+02	2.28259902742E+01	1.61478111787E+02	-5.56435095652E+01	1.57386531715E+02	-5.99645098325E+00	-6.34324564063E-01
1.54271585732E+06	-1.33437687439E+01	-1.70672113799E+02	2.28179823059E+01	1.61401980814E+02	-4.93338721072E+01	1.38476721716E+02	-5.98047941442E+00	-8.72350260258E-01
1.56490721191E+06	-1.38333641141E+01	-1.65561524314E+02	2.28010826798E+01	1.61078264629E+02	-4.48827218866E+01	4.32630179191E+00	-6.04308238485E+00	-7.24345270461E-01
1.58709856651E+06	-1.44205260485E+01	-1.59618324955E+02	2.28086792433E+01	1.60647826737E+02	-5.22629162855E+01	5.67657059174E+01	-5.99273804840E+00	-8.60270984705E-01
1.60928992110E+06	-1.54519195741E+01	-1.54850541870E+02	2.28105385822E+01	1.60470311644E+02	-4.71091900298E+01	-1.65531342737E+02	-5.89954718226E+00	-6.47716591202E-01
1.63148127570E+06	-1.48374038014E+01	-1.42235170579E+02	2.27975755796E+01	1.60034241341E+02	-3.88144490578E+01	1.18197688089E+01	-6.11140907357E+00	-1.15550282221E+00
1.65367263029E+06	-1.14136475317E+01	-1.61277322377E+02	2.27540898782E+01	1.59659263404E+02	-4.87313493102E+01	-1.41137813735E+02	-5.99848128364E+00	-5.07301383514E-01
1.67586398489E+06	-1.36788637429E+01	-1.75519253430E+02	2.27734475919E+01	1.59547730338E+02	-4.37358086994E+01	9.19526498548E+00	-6.07523508072E+00	-8.72742082546E-01
1.69805533948E+06	-1.21998135197E+01	-1.76184132315E+02	2.27387322275E+01	1.59216873481E+02	-4.54445075386E+01	-4.76879565251E+01	-6.02049333231E+00	-4.99775920231E-01
1.72024669408E+06	-1.45564951095E+01	1.73657345627E+02	2.27638073757E+01	1.59172031341E+02	-4.71098672470E+01	-8.73638141832E+01	-6.01012926735E+00	-4.53812539067E-01
1.74243804867E+06	-1.42971097943E+01	1.75828104883E+02	2.27335110687E+01	1.58848383454E+02	-4.43771264600E+01	1.29176673688E+02	-6.01506424328E+00	-8.23652704693E-01
1.76462940327E+06	-1.29031235165E+01	-1.68187096308E+02	2.27386188639E+01	1.58397544955E+02	-4.68146039507E+01	9.55804380111E+01	-5.99925360810E+00	-1.20693179373E+00
1.78682075786E+06	-1.31437767663E+01	-1.72637510848E+02	2.27295787532E+01	1.58147504491E+02	-4.09203688657E+01	1.06769411435E+02	-5.92412948879E+00	-1.31930551067E+00
1.80901211246E+06	-1.44264524103E+01	1.47806165680E+02	2.27022506693E+01	1.58065509664E+02	-4.66926954544E+01	-6.78500130063E+01	-6.02439242628E+00	-5.27113503272E-01
1.83120346705E+06	-1.33592455328E+01	-1.77960341694E+02	2.27047460772E+01	1.57587142125E+02	-4.05130981314E+01	-5.34570106311E+01	-6.06135969234E+00	-3.37828580411E-01
1.85339482165E+06	-1.38916592723E+01	-1.72863256522E+02	2.27501186671E+01	1.57216471786E+02	-4.40686230668E+01	-1.60601490000E+01	-6.10149326571E+00	-6.65782761509E-01
1.87558617624E+06	-1.17077703760E+01	-1.65976766042E+02	2.26832462608E+01	1.56829313717E+02	-4.32088544378E+01	-1.49940542749E+02	-5.94187819324E+00	-3.92124110149E-01
1.89777753084E+06	-1.20031749817E+01	-1.63589741809E+02	2.26832556813E+01	1.56675419574E+02	-4.90954155387E+01	1.80048271377E+01	-6.03203288895E+00	-1.04622963624E+00
1.91996888543E+06	-1.10444197765E+01	1.79008882296E+02	2.26536744686E+01	1.56487868238E+02	-4.12429749726E+01	-3.02189714266E+00	-6.09358513786E+00	-9.09233656014E-01
1.94216024003E+06	-1.19235791905E+01	-1.77389293401E+02	2.26533690771E+01	1.56082123817E+02	-4.14125412412E+01	-6.24492125695E+00	-6.11178177489E+00	-1.00310014923E+00
1.96435159462E+06	-1.09036829503E+01	-1.71113869643E+02	2.26721715361E+01	1.55776782215E+02	-5.68300083565E+01	7.63566189190E+01	-5.98706625294E+00	-8.38648830890E-01
1.98654294922E+06	-1.49532649391E+01	-1.71194257419E+02	2.26848854122E+01	1.55646995417E+02	-4.18780027347E+01	-1.74292487430E+02	-5.88486039877E+00	-7.27037154781E-01
2.00873430381E+06	-1.45371713244E+01	-1.77048466727E+02	2.26547900423E+01	1.55405693762E+02	-4.53339061938E+01	-2.96573512159E+01	-6.08237635189E+00	-7.68085056771E-01
2.03092565841E+06	-1.53353118613E+01	1.71158198271E+02	2.26638301367E+01	1.55197544428E+02	-4.38910962646E+01	-5.95010230773E+01	-6.03878477052E+00	-5.68253659900E-01
2.05311701300E+06	-1.58919791993E+01	-1.53414610860E+02	2.26840359450E+01	1.54626878478E+02	-4.65882572101E+01	1.63620346269E+02	-5.92315367160E+00	-1.01951156063E+00
2.07530836760E+06	-1.49599392874E+01	1.77437484907E+02	2.26430478046E+01	1.54549571207E+02	-4.11352452974E+01	-2.81535795129E+01	-6.08394365058E+00	-7.45965282695E-01
2.09749972219E+06	-1.20462582450E+01	-1.74150988997E+02	2.26138413558E+01	1.54082522555E+02	-3.51566469338E+01	1.12814758490E+02	-5.90903567985E+00	-1.63047196394E+00
2.11969107679E+06	-1.40006860015E+01	-9.43214228701E+01	2.26878765361E+01	1.53812577509E+02	-4.45527907821E+01	-1.69998475353E+02	-5.95335993699E+00	-8.52793041995E-01
2.14188243138E+06	-1.46131125891E+01	-1.62736334703E+02	2.26262744188E+01	1.53526353011E+02	-4.28124627798E+01	-2.64027539637E+01	-6.09355655166E+00	-7.50664113314E-01
2.16407378598E+06	-1.33117487586E+01	-1.71034702376E+02	2.26078082037E+01	1.53353263260E+02	-4.08057725900E+01	-1.70439900738E+02	-5.88229237592E+00	-8.07704002847E-01
2.18626514057E+06	-1.31501193617E+01	1.59301005681E+02	2.26044244240E+01	1.53218103761E+02	-4.81842299069E+01	1.19370650708E+02	-5.96416566008E+00	-1.16328375491E+00
2.20845649517E+06	-1.39676551918E+01	-1.68907458241E+02	2.26025605888E+01	1.52689278927E+02	-4.98126507060E+01	3.11982691052E+01	-6.05094924207E+00	-1.23338028469E+00
2.23064784976E+06	-1.31662267113E+01	-1.62555007542E+02	2.26132484139E+01	1.52388125421E+02	-4.70103196982E+01	-3.73003236326E+01	-6.02496897931E+00	-1.15076391576E+00
2.25283920436E+06	-1.19600184355E+01	-1.72677739739E+02	2.25472521731E+01	1.52120022727E+02	-4.30852951334E+01	-3.47188004776E+01	-6.05492809101E+00	-6.48854690461E-01
2.27503055895E+06	-1.18905702425E+01	-1.72787249065E+02	2.25670179559E+01	1.51951812765E+02	-4.05044878246E+01	1.62432420096E+01	-6.09094144144E+00	-1.11758768036E+00
2.29722191355E+06	-1.45773970671E+01	-1.72441459039E+02	2.25680845463E+01	1.51587245057E+02	-4.66596258712E+01	-1.65779303198E+02	-5.95031462028E+00	-1.14872097253E+00
2.31941326814E+06	-1.53493679937E+01	-1.68649415138E+02	2.25609475659E+01	1.51307164744E+02	-5.75946575617E+01	-1.23551843896E+02	-5.99474581678E+00	-9.06097184731E-01
2.34160462274E+06	-1.17341885647E+01	-1.58345693884E+02	2.25548005975E+01	1.50932847031E+02	-4.48761788985E+01	-1.52345999920E+02	-5.94550772200E+00	-9.09780271710E-01
2.36379597733E+06	-1.57375991774E+01	-1.74295746581E+02	2.25377810433E+01	1.50865796334E+02	-5.25086081056E+01	-1.44507218528E+02	-5.97569911030E+00	-8.68597828096E-01
2.38598733193E+06	-1.17703848187E+01	-1.72596596418E+02	2.25079206686E+01	1.50385080629E+02	-4.13590879571E+01	1.00893149551E+02	-5.96824762615E+00	-1.65544776593E+00
2.40817868652E+06	-1.58126584439E+01	-1.75468429950E+02	2.25438867729E+01	1.50296045944E+02	-4.27218388785E+01	1.40775320368E+02	-5.94750731836E+00	-1.45154004155E+00
2.43037004112E+06	-1.65843216538E+01	1.73390716906E+02	2.25641999667E+01	1.50205935009E+02	-4.05730128773E+01	1.21839977831E+02	-5.96025801641E+00	-1.83085727275E+00
2.45256139571E+06	-1.41172615958E+01	1.75855933264E+02	2.25238480860E+01	1.49839364717E+02	-4.91202930790E+01	5.21032306273E+01	-6.02812000140E+00	-1.49471637275E+00
2.47475275031E+06	-1.16621484441E+01	-1.74214003100E+02	2.24870946012E+01	1.49393013296E+02	-5.25624241275E+01	1.36315236273E+02	-5.99626274214E+00	-1.09705915285E+00
2.49694410490E+06	-1.43290147875E+01	-1.57178538127E+02	2.25361722692E+01	1.48954966980E+02	-5.48074279892E+01	-1.80209075890E+01	-6.03271945382E+00	-9.63522903414E-01
2.51913545950E+06	-1.28676650411E+01	-1.57057573552E+02	2.25093650643E+01	1.48714538196E+02	-5.03380876948E+01	1.73571627891E+02	-5.96234716397E+00	-1.21442790849E+00
2.54132681409E+06	-1.21224356517E+01	-1.63322073003E+02	2.24684196417E+01	1.48429942665E+02	-5.69575780739E+01	1.16275473010E+02	-6.00190627860E+00	-1.14734133285E+00
2.56351816869E+06	-1.63022761852E+01	1.72355380989E+02	2.24814478133E+01	1.48555749762E+02	-3.92266850572E+01	-1.43405777802E+02	-5.91315350971E+00	-6.03089958878E-01
2.58570952328E+06	-1.15231882645E+01	-1.62351894890E+02	2.24354777339E+01	1.47844146583E+02	-3.65191558641E+01	4.81811043109E+00	-6.12575402616E+00	-1.42090871988E+00
2.60790087788E+06	-1.54817165005E+01	1.67938643783E+02	2.24580518618E+01	1.47946882126E+02	-5.17624846186E+01	-5.08852067166E+01	-6.04399690180E+00	-8.93494238118E-01
2.63009223247E+06	-1.40985665258E+01	-1.61674281325E+02	2.24742982364E+01	1.47459797708E+02	-4.77760002660E+01	-1.47077957600E+02	-5.95923444198E+00	-4.95680200769E-01
2.65228358707E+06	-1.24513779019E+01	-1.44334209718E+02	2.24587553931E+01	1.47054953250E+02	-3.94352647475E+01	-1.27384984985E+02	-5.92204775636E+00	-4.38026641094E-01
2.67447494166E+06	-9.80262732613E+00	-1.78639885219E+02	2.23729868755E+01	1.46779069818E+02	-4.47749248103E+01	-9.48619533190E+01	-5.98391337245E+00	-6.46419263175E-01
2.69666629626E+06	-1.49575721094E+01	-1.61745698677E+02	2.24482453445E+01	1.46657069771E+02	-4.82849055317E+01	8.82611193238E+01	-6.00453452220E+00	-1.62330601155E+00
2.71885765085E+06	-1.42175327145E+01	1.74671248177E+02	2.24055397568E+01	1.46475867028E+02	-4.15265561010E+01	-7.30818955166E+01	-6.03387097792E+00	-6.78608269443E-01
2.74104900545E+06	-1.26133297619E+01	-1.73075895548E+02	2.24045949509E+01	1.46052807283E+02	-3.89780269869E+01	-7.34814565812E+01	-6.01688536598E+00	-3.01364385831E-01
2.76324036004E+06	-1.19315341680E+01	-1.67704800170E+02	2.23939694662E+01	1.45665212470E+02	-4.24376903693E+01	-1.91556793956E+01	-6.10545894840E+00	-1.06758390219E+00
2.78543171463E+06	-1.28508136379E+01	1.74821502579E+02	2.23700670072E+01	1.45537570813E+02	-5.30553910431E+01	1.78740744434E+02	-5.97778957037E+00	-1.14197353426E+00
2.80762306923E+06	-1.31992941063E+01	1.75523097540E+02	2.23688139465E+01	1.45280859044E+02	-4.51510947061E+01	-5.83538463432E+01	-6.05383395595E+00	-8.98387675783E-01
2.82981442382E+06	-1.24937403109E+01	-1.63972891707E+02	2.23726661263E+01	1.44792461336E+02	-5.95523265693E+01	1.28573933658E+00	-6.00846413957E+00	-1.27539344121E+00
2.85200577842E+06	-1.46206265010E+01	-1.63422096901E+02	2.23641436123E+01	1.44724265319E+02	-4.68795825386E+01	-3.68089492059E+01	-6.03395368763E+00	-1.09080827774E+00
2.87419713301E+06	-1.52352384097E+01	1.79999725655E+02	2.23651611630E+01	1.44586905047E+02	-4.35729386956E+01	-1.39686972836E+02	-5.91812769347E+00	-9.16074905424E-01
