# Hz S DB R 50
! CMT, M5065, 19127446, 24.2.4/2
! Date: 11/8/2024 3:30:45 PM
! Data: Format (Calibration Info)
! Freq	S11:dB/Ang(F2)	S21:dB/Ang(F2)	S12:dB/Ang(F2)	S22:dB/Ang(F2)
3.00000000000E+05	-1.57903984347E+01	1.76685184414E+02	1.85164606842E+01	-1.76687749090E+02	-4.02955272609E+01	1.79506159288E+02	-5.94817756957E+00	-3.54642689491E-01
3.22191354595E+05	-1.40206337052E+01	1.52938430163E+02	1.85205079482E+01	-1.77230960812E+02	-5.17118370292E+01	1.37677671929E+02	-5.97047241765E+00	-3.37231225302E-01
3.44382709190E+05	-1.42182513275E+01	-1.70401293254E+02	1.85143882618E+01	-1.78089446060E+02	-4.43355456765E+01	1.28213947779E+01	-6.04916828017E+00	-5.35363367652E-01
3.66574063785E+05	-9.89986742543E+00	1.78697107252E+02	1.84521204250E+01	-1.78631740272E+02	-4.12554819424E+01	1.16850765886E+01	-6.03111233151E+00	-3.28816833824E-01
3.88765418380E+05	-1.36763864781E+01	-1.58448155289E+02	1.85784187119E+01	-1.79228501151E+02	-5.90941400334E+01	-1.52135457773E+02	-5.99271064410E+00	-3.57081132689E-01
4.10956772975E+05	-1.34029292792E+01	-1.74984229056E+02	1.85076933768E+01	-1.79577908501E+02	-4.99209214196E+01	-5.18296824564E+01	-6.00411151507E+00	-1.91267122407E-01
4.33148127570E+05	-1.36608932975E+01	-1.66442890821E+02	1.85120270934E+01	1.79984904529E+02	-5.59584640398E+01	1.75422378558E+02	-6.00203125314E+00	-4.58420098943E-01
4.55339482165E+05	-1.46576795700E+01	-1.56213619330E+02	1.85399277906E+01	1.79519929778E+02	-5.23545155912E+01	-1.76394880578E+02	-5.96928416038E+00	-5.39244334619E-01
4.77530836760E+05	-1.61606098761E+01	-1.68604419328E+02	1.85271283602E+01	1.79205991461E+02	-4.93077964476E+01	-2.73623566950E+01	-6.02634867173E+00	-3.33689416701E-01
4.99722191355E+05	-1.14091354242E+01	-1.78351600475E+02	1.84765925585E+01	1.78877914723E+02	-3.44458264458E+01	-1.66872878372E+02	-5.90409823342E+00	1.37832772777E-02
5.21913545950E+05	-1.11140716987E+01	-1.23303361511E+02	1.85507022634E+01	1.78094857482E+02	-4.37269945270E+01	-8.59040931375E+01	-5.99513716895E+00	-3.50792360744E-02
5.44104900545E+05	-2.02022885348E+01	-1.60622825810E+02	1.85465814294E+01	1.78201946145E+02	-3.97189680171E+01	1.08655534664E+02	-5.97125401859E+00	-7.35525037328E-01
5.66296255139E+05	-1.27911473214E+01	1.64183524444E+02	1.85231298677E+01	1.77961574372E+02	-4.78411770250E+01	-1.27846394823E+02	-5.98372030171E+00	-3.07116560754E-01
5.88487609734E+05	-1.38820695306E+01	-1.78831665034E+02	1.84909444446E+01	1.77863002163E+02	-4.46367401245E+01	-8.09140317081E+01	-6.03016641536E+00	-3.07489989517E-01
6.10678964329E+05	-1.32899614683E+01	1.73140588356E+02	1.85000625486E+01	1.77269708344E+02	-4.56367684002E+01	8.74575775465E+01	-5.99901151233E+00	-1.91905597502E-01
6.32870318924E+05	-1.80249880101E+01	-1.71156713552E+02	1.85296367547E+01	1.76952157744E+02	-4.44861840017E+01	-1.60196968369E+01	-6.03181936204E+00	-3.68824997418E-01
6.55061673519E+05	-1.01029760842E+01	-1.61798491032E+02	1.84816336703E+01	1.76401945390E+02	-4.95781862342E+01	1.74062797133E+02	-5.97298544675E+00	-2.76713903828E-01
6.77253028114E+05	-1.23542862729E+01	-1.71779993999E+02	1.85131236348E+01	1.76259942973E+02	-5.20300593887E+01	1.48401990450E+02	-5.96561128035E+00	-5.70103798312E-01
6.99444382709E+05	-1.47231434880E+01	-1.68435257125E+02	1.85153543688E+01	1.76065776038E+02	-4.08482563130E+01	-7.09563889652E+01	-6.03629754101E+00	-7.76670346690E-02
7.21635737304E+05	-1.23940082370E+01	-1.61986942347E+02	1.84915563827E+01	1.75656832062E+02	-4.28818220642E+01	-5.67435327964E+01	-6.02665717270E+00	-1.72284455066E-01
7.43827091899E+05	-1.28946950332E+01	1.64323234236E+02	1.85019270199E+01	1.75671340672E+02	-3.90529966492E+01	5.92597871190E+01	-6.04882267417E+00	-8.57836030108E-01
7.66018446494E+05	-1.38745283361E+01	-1.74410921918E+02	1.85145178199E+01	1.75239560287E+02	-5.58602382611E+01	1.75675173170E+01	-6.00225446921E+00	-4.30392905974E-01
7.88209801089E+05	-1.83312703384E+01	-1.53377333037E+02	1.85493114659E+01	1.74977348578E+02	-5.47996463810E+01	-9.69750618122E+01	-6.02345268271E+00	-3.03491019800E-01
8.10401155684E+05	-1.44845835944E+01	-1.71151867231E+02	1.85076427468E+01	1.74736443594E+02	-5.70701595391E+01	-7.10974468124E+01	-6.00631591047E+00	-5.08989318221E-01
8.32592510279E+05	-1.24985799079E+01	-1.79179465225E+02	1.84727435480E+01	1.74470215464E+02	-5.26241651579E+01	1.55507796867E+02	-5.96046322985E+00	-5.16364461153E-01
8.54783864874E+05	-1.41251295195E+01	-1.69673170719E+02	1.84954283263E+01	1.74206969874E+02	-4.43951231383E+01	1.27414295715E+02	-5.97596972328E+00	-5.12203883633E-01
8.76975219469E+05	-1.20441231064E+01	-1.75976676020E+02	1.84715823908E+01	1.74038146465E+02	-4.91719846221E+01	-4.54927313910E+01	-6.00441967835E+00	-2.72248075038E-01
8.99166574064E+05	-1.32702791821E+01	-1.77340708942E+02	1.84954155675E+01	1.73866816282E+02	-4.41683393799E+01	6.65462884371E+01	-6.01675056893E+00	-6.39999592261E-01
9.21357928659E+05	-1.79768620459E+01	-1.61582817876E+02	1.85334550773E+01	1.73526763164E+02	-4.71643208128E+01	3.03634365638E+01	-6.02523378003E+00	-6.30497000603E-01
9.43549283254E+05	-1.41825085839E+01	-1.64823267830E+02	1.84908496251E+01	1.73419450033E+02	-5.08073265419E+01	-1.70686125299E+02	-5.96963731981E+00	-3.72617053489E-01
9.65740637849E+05	-1.28358581313E+01	-1.62192461951E+02	1.84988469138E+01	1.73040609685E+02	-4.45376286738E+01	6.81389412680E+00	-6.04766000262E+00	-4.95838361861E-01
9.87931992444E+05	-1.00035173215E+01	-1.69799459725E+02	1.84624154974E+01	1.72659788649E+02	-3.91521449907E+01	-1.41080094803E+02	-5.99082030907E+00	-2.04691754741E-01
1.01012334704E+06	-1.43694876234E+01	1.72021673963E+02	1.85097445864E+01	1.72756008380E+02	-4.11171426633E+01	1.52200385905E+02	-5.94624282543E+00	-7.46919670336E-01
1.03231470163E+06	-1.37521525766E+01	-1.64074838597E+02	1.84827978101E+01	1.72178254960E+02	-4.30038182253E+01	1.27092206047E+02	-5.96254246125E+00	-7.82113301464E-01
1.05450605623E+06	-1.56164621004E+01	1.78409305700E+02	1.84887505082E+01	1.72156283366E+02	-5.01740102447E+01	4.47735521397E+01	-6.01869106230E+00	-6.98345814316E-01
1.07669741082E+06	-1.18686683129E+01	-1.74484111220E+02	1.84268727019E+01	1.71936510809E+02	-3.72930943327E+01	-1.03874747278E+02	-6.00430891352E+00	-8.21940815086E-02
1.09888876542E+06	-1.50160119129E+01	-1.66094452719E+02	1.84798409716E+01	1.71544445387E+02	-4.31930738037E+01	1.79750991489E+02	-5.97986434964E+00	-3.76903303925E-01
1.12108012001E+06	-1.39855016017E+01	-1.77828732269E+02	1.84871126953E+01	1.71483719777E+02	-4.72729796963E+01	1.40902906617E+02	-5.98045961656E+00	-5.27696279567E-01
1.14327147461E+06	-1.01728157256E+01	1.79138325647E+02	1.84709309234E+01	1.71307008871E+02	-3.90234087764E+01	-7.71211168512E+00	-6.05737579487E+00	-5.61839595977E-01
1.16546282920E+06	-1.27387036674E+01	-1.79272363798E+02	1.84736414869E+01	1.71255031796E+02	-4.32743418568E+01	6.06687648426E+01	-6.01891548901E+00	-9.01652367705E-01
1.18765418380E+06	-1.42214564797E+01	-1.62918698357E+02	1.84903518036E+01	1.70831817163E+02	-5.31728281734E+01	1.20048494996E+01	-6.02112596324E+00	-7.90046931293E-01
1.20984553839E+06	-1.35832777925E+01	1.61856089613E+02	1.84566428671E+01	1.70726695305E+02	-5.12549616478E+01	1.63937398041E+02	-5.95227760503E+00	-7.97337585285E-01
1.23203689299E+06	-1.31725532206E+01	-1.75976062888E+02	1.84416623717E+01	1.70370639249E+02	-6.16080037732E+01	1.24304771608E+02	-6.02728331274E+00	-4.26608330902E-01
1.25422824758E+06	-1.37790433205E+01	-1.72077693761E+02	1.84734559453E+01	1.70103830373E+02	-4.85210282121E+01	1.38156642383E+02	-5.98352076018E+00	-8.03912069904E-01
1.27641960218E+06	-1.64574871755E+01	1.74829622371E+02	1.85028932699E+01	1.70157990827E+02	-4.70277156756E+01	1.09292404344E+02	-5.99840680513E+00	-8.30478419812E-01
1.29861095677E+06	-1.41489782368E+01	1.62731416949E+02	1.84596421594E+01	1.69985600490E+02	-3.95208066274E+01	-1.12240653139E+02	-5.98213543304E+00	-1.32790364246E-01
1.32080231137E+06	-1.47606775798E+01	-1.69192647402E+02	1.84816896622E+01	1.69552595520E+02	-4.66465344607E+01	-7.17749841830E+01	-6.02587513278E+00	-7.27715095271E-01
1.34299366596E+06	-1.35023692644E+01	1.76035596485E+02	1.84665596315E+01	1.69428716624E+02	-5.44361219185E+01	6.94865383506E+01	-6.00512036384E+00	-7.10702191175E-01
1.36518502056E+06	-1.07883392766E+01	-1.70144670556E+02	1.84401326537E+01	1.68933008101E+02	-4.82074743605E+01	-1.68732554002E+02	-5.98117828647E+00	-5.53657028910E-01
1.38737637515E+06	-1.17992125826E+01	-1.53890155352E+02	1.84501595752E+01	1.68679601447E+02	-4.56299669484E+01	-2.22164780149E+01	-6.05535459505E+00	-6.11944530610E-01
1.40956772975E+06	-1.24900012284E+01	1.73789298824E+02	1.84263603878E+01	1.68671248440E+02	-6.42287064993E+01	-1.15513038292E+02	-5.99474572688E+00	-6.45502805361E-01
1.43175908434E+06	-1.32278470777E+01	1.76704313742E+02	1.84410468176E+01	1.68559300461E+02	-5.69489036955E+01	-1.34022370646E+02	-6.00948428533E+00	-7.41429229877E-01
1.45395043894E+06	-1.42229528595E+01	-1.49082782549E+02	1.84811296420E+01	1.68195905316E+02	-4.90500981826E+01	-1.61771921624E+02	-5.97548117438E+00	-5.64999257772E-01
1.47614179353E+06	-1.13703418553E+01	1.75104265427E+02	1.84359810048E+01	1.68105536201E+02	-4.26822127178E+01	-5.19451985679E+01	-6.03713174915E+00	-3.83841434300E-01
1.49833314813E+06	-1.10051309301E+01	1.77399421040E+02	1.84150854181E+01	1.67728962776E+02	-5.10355244703E+01	-1.33271726577E+02	-5.99745433536E+00	-6.34626290412E-01
1.52052450272E+06	-1.45732600248E+01	-1.75164570341E+02	1.84613138462E+01	1.67693722798E+02	-3.96305160141E+01	9.12809098739E+01	-6.00701225227E+00	-1.19626393812E+00
1.54271585732E+06	-1.16127065887E+01	1.77704487825E+02	1.84450267255E+01	1.67422382905E+02	-4.59286227910E+01	-7.24086489982E+01	-6.01973098655E+00	-6.12412664111E-01
1.56490721191E+06	-1.42306437744E+01	1.70517558947E+02	1.84337286364E+01	1.67513195455E+02	-4.48601733002E+01	-5.84125701996E+01	-6.01808010903E+00	-5.74599794989E-01
1.58709856651E+06	-1.14736384370E+01	-1.78842322423E+02	1.84273185293E+01	1.67082285877E+02	-4.24941518059E+01	-1.63679465720E+02	-5.94462872219E+00	-6.41605740032E-01
1.60928992110E+06	-1.55538444050E+01	-1.79666198327E+02	1.84234160850E+01	1.66950431986E+02	-3.95794548623E+01	-1.40484912097E+02	-5.99423290452E+00	-3.69081176711E-01
1.63148127570E+06	-1.24084123667E+01	-1.49918607669E+02	1.84687365621E+01	1.66355686863E+02	-3.79750459324E+01	1.52282004189E+02	-5.93023708310E+00	-5.76444697991E-01
1.65367263029E+06	-1.14346343057E+01	-1.57463319535E+02	1.84427592779E+01	1.66210836088E+02	-4.71647887074E+01	1.01842583665E+02	-5.98386990053E+00	-9.12194497694E-01
1.67586398489E+06	-1.43429274263E+01	-1.76529845089E+02	1.84465386555E+01	1.66310796904E+02	-4.17062323864E+01	1.51820293628E+02	-5.93255092608E+00	-8.14114076670E-01
1.69805533948E+06	-1.35006856157E+01	1.67648801721E+02	1.84159200567E+01	1.66147906174E+02	-5.10865554384E+01	-1.65352552076E+02	-5.97326316219E+00	-6.03162263346E-01
1.72024669408E+06	-1.44964736395E+01	-1.67859960238E+02	1.84617132120E+01	1.65782220083E+02	-4.87240330279E+01	-1.13971685011E+02	-5.98537875952E+00	-6.56438866407E-01
1.74243804867E+06	-1.89464557826E+01	1.71029953999E+02	1.84835421143E+01	1.65915293560E+02	-4.31434778160E+01	7.43033213212E+01	-5.96589341829E+00	-1.03521958693E+00
1.76462940327E+06	-1.28306024786E+01	-1.60611225612E+02	1.84427729941E+01	1.65248710733E+02	-4.55805687981E+01	2.43921648591E+01	-6.03308185456E+00	-7.92493757070E-01
1.78682075786E+06	-1.60974079013E+01	-1.78196799429E+02	1.84265775409E+01	1.65258831666E+02	-4.58664942619E+01	-6.78971555189E+01	-6.02718271859E+00	-6.02588212601E-01
1.80901211246E+06	-1.23448840732E+01	-1.67358349433E+02	1.84244733322E+01	1.64976675711E+02	-4.89186399570E+01	-1.25254831361E+02	-5.97916466689E+00	-7.57972773327E-01
1.83120346705E+06	-1.47496119381E+01	1.70356983361E+02	1.84268774673E+01	1.64884974968E+02	-4.60292747739E+01	-9.04621111676E+01	-6.00707110673E+00	-6.72745573246E-01
1.85339482165E+06	-1.34383103807E+01	1.76597075055E+02	1.84144423559E+01	1.64682883353E+02	-5.56652275417E+01	1.14639632525E+02	-5.99461902862E+00	-8.45237519766E-01
1.87558617624E+06	-1.40637532553E+01	-1.69679695518E+02	1.84380084472E+01	1.64509622582E+02	-5.40799667000E+01	1.69132518014E+02	-5.97943253599E+00	-7.84114123403E-01
1.89777753084E+06	-1.46609156199E+01	-1.63376419143E+02	1.84504192291E+01	1.64279713263E+02	-4.86942418405E+01	1.96675300107E-01	-6.02854206651E+00	-1.11093367141E+00
1.91996888543E+06	-1.07657305726E+01	-1.47965488411E+02	1.84494760759E+01	1.63658573378E+02	-4.33306202239E+01	-1.58409421289E+02	-5.95801193025E+00	-5.17437684948E-01
1.94216024003E+06	-1.52924794363E+01	-1.76510069811E+02	1.84295921189E+01	1.63833918501E+02	-4.95094530328E+01	-1.50132631830E+02	-6.00459123065E+00	-1.06316357417E+00
1.96435159462E+06	-1.60990652233E+01	1.78827397741E+02	1.84387695271E+01	1.63705834426E+02	-4.47537066238E+01	-1.49524832989E+02	-5.95200420090E+00	-6.73273763818E-01
1.98654294922E+06	-1.38913241553E+01	-1.79112899917E+02	1.84268377439E+01	1.63400369947E+02	-4.47871278134E+01	1.04490639550E+02	-5.95861469882E+00	-1.05719539194E+00
2.00873430381E+06	-1.34558982088E+01	-1.69907095889E+02	1.84380040992E+01	1.63037413783E+02	-5.71939534823E+01	-3.09025003074E+01	-6.02633552658E+00	-8.68237260430E-01
2.03092565841E+06	-1.30371612715E+01	-1.74079551432E+02	1.84105411803E+01	1.63161946196E+02	-5.48380408545E+01	1.37436058367E+02	-6.00049795847E+00	-8.78702876825E-01
2.05311701300E+06	-1.27273324721E+01	-1.74025999751E+02	1.84069181545E+01	1.62796007647E+02	-4.90147114514E+01	9.65835063898E+01	-5.98575090508E+00	-1.11490044732E+00
2.07530836760E+06	-2.30321391425E+01	-1.56613709400E+02	1.84542999228E+01	1.62755619335E+02	-4.46299326419E+01	2.31213223062E+00	-6.02758094173E+00	-9.65052745513E-01
2.09749972219E+06	-1.30456619502E+01	1.79950288707E+02	1.83957173466E+01	1.62384810829E+02	-3.74930678770E+01	-1.16308440275E+02	-6.03927607565E+00	-6.04078885491E-01
2.11969107679E+06	-1.04736495364E+01	-1.72627233119E+02	1.83859445332E+01	1.62116123739E+02	-4.56830838419E+01	1.27868070348E+02	-5.98098218752E+00	-1.14758601973E+00
2.14188243138E+06	-1.48130599209E+01	-1.59969629533E+02	1.84199593292E+01	1.62095593221E+02	-4.96275020578E+01	1.55151481898E+02	-5.96183026829E+00	-1.00380082421E+00
2.16407378598E+06	-1.37017719299E+01	-1.45369265788E+02	1.84303865586E+01	1.61508142808E+02	-4.13639860855E+01	-7.22284313847E+01	-6.02318776718E+00	-4.96104536444E-01
2.18626514057E+06	-1.76818933845E+01	-1.56745637799E+02	1.84514429957E+01	1.61835385595E+02	-4.06151171079E+01	1.59036042681E+02	-5.93314194531E+00	-9.42010396800E-01
2.20845649517E+06	-1.36820245861E+01	-1.64084159900E+02	1.84072673655E+01	1.61311316232E+02	-4.46028173183E+01	-3.49091132891E+01	-6.04116831819E+00	-7.18146309437E-01
2.23064784976E+06	-1.07970528026E+01	1.62260078999E+02	1.83764445943E+01	1.61397176515E+02	-4.50748133539E+01	-1.05536588878E+02	-5.97629788342E+00	-8.65726540457E-01
2.25283920436E+06	-1.23727885297E+01	1.79229352443E+02	1.83942703511E+01	1.61131773962E+02	-3.03558473036E+01	1.24344005377E+02	-5.86723908262E+00	-1.45050256679E+00
2.27503055895E+06	-1.11067342787E+01	-1.53965640594E+02	1.84112938979E+01	1.60469489717E+02	-4.19682315059E+01	2.77738629918E+01	-6.05817364753E+00	-1.22822544544E+00
2.29722191355E+06	-1.72940106324E+01	1.71520273467E+02	1.84313242898E+01	1.61009456756E+02	-5.17977675263E+01	1.12035377870E+02	-5.99502097333E+00	-1.09039867338E+00
2.31941326814E+06	-1.35194871218E+01	-1.73127259138E+02	1.84063757286E+01	1.60274155075E+02	-4.54743864816E+01	1.37664447720E+02	-5.96663288600E+00	-1.23068243128E+00
2.34160462274E+06	-1.26922211937E+01	1.69807461241E+02	1.83667981393E+01	1.60240309737E+02	-5.68512667068E+01	6.38885699999E+01	-6.01424640420E+00	-1.18340912260E+00
2.36379597733E+06	-1.26121458369E+01	-1.78339423409E+02	1.83949199403E+01	1.60021307761E+02	-5.27517014897E+01	6.52822634952E+01	-5.99884204685E+00	-1.12028253986E+00
2.38598733193E+06	-1.00428719208E+01	1.68784329624E+02	1.83620088469E+01	1.59937577616E+02	-4.99291678783E+01	1.69225798212E+02	-5.98548251262E+00	-1.13158778647E+00
2.40817868652E+06	-1.71402801162E+01	-1.58584490816E+02	1.84157505196E+01	1.59804420852E+02	-2.98541053451E+01	4.21552768309E+01	-6.03738106893E+00	-2.35111634571E+00
2.43037004112E+06	-1.31327958504E+01	-1.77152175446E+02	1.83643050451E+01	1.59499493244E+02	-5.54232292111E+01	6.07460443896E+01	-5.99775410234E+00	-1.45977337232E+00
2.45256139571E+06	-1.50000778485E+01	-1.77030407531E+02	1.83951071557E+01	1.59394115944E+02	-4.85721269034E+01	-5.88919767878E+01	-6.03909666727E+00	-1.08920307855E+00
2.47475275031E+06	-1.16483471831E+01	-1.74686604698E+02	1.83975078059E+01	1.58987435223E+02	-4.43328454018E+01	8.13090000548E+01	-5.98828683482E+00	-1.36062026655E+00
2.49694410490E+06	-1.42513050218E+01	-1.72863906606E+02	1.84157644572E+01	1.58835145994E+02	-3.93880893905E+01	-1.34170209897E+01	-6.08642606810E+00	-1.22775743288E+00
2.51913545950E+06	-1.26240386145E+01	-1.56842694074E+02	1.84090372183E+01	1.58302865603E+02	-4.95417433293E+01	1.66470735059E+02	-6.00601506996E+00	-1.18012991924E+00
2.54132681409E+06	-1.43545692855E+01	1.79854678912E+02	1.83842466839E+01	1.58518509344E+02	-4.13940457108E+01	-1.61565828966E+02	-5.94307792472E+00	-9.56230803261E-01
2.56351816869E+06	-1.23382968958E+01	-1.68710970831E+02	1.83700671298E+01	1.58337665189E+02	-3.81404257478E+01	7.12974443553E+01	-6.01352394830E+00	-1.50871115360E+00
2.58570952328E+06	-1.65944560189E+01	-1.48417057758E+02	1.84322906728E+01	1.58052716854E+02	-4.32481805795E+01	6.33929523433E+01	-6.01201099609E+00	-1.66420616809E+00
2.60790087788E+06	-1.34534917211E+01	-1.75374640287E+02	1.83752688807E+01	1.57806208048E+02	-4.06992087496E+01	5.03393828547E+01	-6.03589674446E+00	-1.44855763517E+00
2.63009223247E+06	-1.55010659119E+01	-1.59439915325E+02	1.84121407244E+01	1.57670624718E+02	-5.30517624191E+01	-8.54892627364E+01	-5.99093879978E+00	-7.14396706732E-01
2.65228358707E+06	-1.44099621423E+01	-1.47890903129E+02	1.84142916591E+01	1.57387890672E+02	-5.55113066583E+01	5.48474494826E+01	-6.02310139383E+00	-1.21329491651E+00
2.67447494166E+06	-1.50375206370E+01	-1.66122775072E+02	1.83843956762E+01	1.57254010919E+02	-4.03960224039E+01	2.56569455014E+01	-6.03786777243E+00	-1.56796529580E+00
2.69666629626E+06	-1.43360071386E+01	-1.75154068048E+02	1.83808230011E+01	1.57002997614E+02	-4.79584081085E+01	1.38865127001E+02	-5.95785275089E+00	-1.28328042771E+00
2.71885765085E+06	-1.23790925813E+01	-1.20847225647E+02	1.84246296386E+01	1.56720177698E+02	-3.90617335961E+01	-9.99547989435E+01	-6.02382945749E+00	-8.20923790081E-01
2.74104900545E+06	-1.39369551957E+01	1.79773095349E+02	1.83977723347E+01	1.56728062643E+02	-4.32917795466E+01	-1.50019596126E+02	-5.94362203142E+00	-9.79058238784E-01
2.76324036004E+06	-1.49948268052E+01	1.77016200489E+02	1.83637021841E+01	1.56693205240E+02	-5.24832595181E+01	-9.55971624049E+01	-5.98833835776E+00	-1.24434360807E+00
2.78543171463E+06	-1.21536521563E+01	-1.78281329188E+02	1.83360110022E+01	1.56203663717E+02	-4.77512748889E+01	-2.12021359511E+01	-6.03952868695E+00	-1.25498481594E+00
2.80762306923E+06	-1.38339882703E+01	1.77975481030E+02	1.83527011380E+01	1.56074418224E+02	-5.77108052933E+01	-1.08371061517E+01	-6.02488117533E+00	-1.19583873363E+00
2.82981442382E+06	-1.43968247985E+01	-1.69915033912E+02	1.83744240556E+01	1.55851266271E+02	-5.40238120619E+01	-5.61658753665E+01	-5.99824852915E+00	-1.18131225167E+00
2.85200577842E+06	-2.24977782304E+01	1.75377762929E+02	1.83740966057E+01	1.56058651992E+02	-4.05092258671E+01	1.27178411912E+02	-5.93562284922E+00	-1.55846076376E+00
2.87419713301E+06	-9.14538063238E+00	-1.61749568676E+02	1.83699535975E+01	1.55133811675E+02	-4.57515757955E+01	5.82644991990E+01	-6.01222360453E+00	-1.56465804932E+00
