# Hz S DB R 50
! CMT, M5065, 19127446, 24.2.4/2
! Date: 11/8/2024 3:21:29 PM
! Data: Format (Calibration Info)
! Freq	S11:dB/Ang(F2)	S21:dB/Ang(F2)	S12:dB/Ang(F2)	S22:dB/Ang(F2)
3.00000000000E+05	-1.57711516046E+01	1.76361021063E+02	2.09364390024E+01	-1.76403624648E+02	-4.88819342406E+01	-6.89137081639E+00	-5.99096769225E+00	-5.22411531619E-01
3.22191354595E+05	-1.32796890152E+01	-1.63822779955E+02	2.09347509582E+01	-1.77462128961E+02	-4.18156082807E+01	-5.77167568315E+01	-6.02744684933E+00	4.34570562105E-02
3.44382709190E+05	-1.58368649962E+01	-1.78176784245E+02	2.09704099625E+01	-1.77911264380E+02	-4.58747977864E+01	-1.41398465159E+02	-5.94138299875E+00	4.62838867825E-02
3.66574063785E+05	-1.69553598019E+01	-1.70358328641E+02	2.09670407693E+01	-1.78575939906E+02	-5.06527191158E+01	-7.65085775690E+01	-6.00810942958E+00	-1.90104734132E-01
3.88765418380E+05	-1.32241675650E+01	-1.75757503466E+02	2.09178871576E+01	-1.79019994037E+02	-4.82049523784E+01	-2.09308097143E+00	-5.99729747091E+00	-3.25243044785E-01
4.10956772975E+05	-1.73305627756E+01	-1.73001341507E+02	2.09621281940E+01	-1.79580243222E+02	-4.28544972345E+01	-1.66078260227E+02	-5.95136525089E+00	-3.05208343804E-01
4.33148127570E+05	-1.36767630732E+01	-1.43568142313E+02	2.09486240494E+01	1.79643380523E+02	-5.25678388137E+01	-4.99159520015E+01	-6.01999840257E+00	-3.36386958181E-01
4.55339482165E+05	-1.45124923782E+01	-1.38198582448E+02	2.09508736026E+01	1.79035559432E+02	-4.07993120827E+01	-2.13063515078E+01	-6.03802305918E+00	-1.81569547215E-01
4.77530836760E+05	-1.25568375652E+01	-1.68519094965E+02	2.09118729311E+01	1.78737694613E+02	-4.28480854736E+01	3.64182624115E+01	-6.04303121990E+00	-7.04783789757E-01
4.99722191355E+05	-1.56059224483E+01	-1.54870321849E+02	2.09440624857E+01	1.78283091722E+02	-4.29134281993E+01	-1.51018104454E+02	-5.92974643798E+00	-1.11177348430E-01
5.21913545950E+05	-1.32043042832E+01	1.43312544717E+02	2.09312412730E+01	1.78334747256E+02	-3.96040598514E+01	-1.67884347947E+02	-5.92405569091E+00	-2.25860221470E-01
5.44104900545E+05	-1.70969877392E+01	-1.74681963351E+02	2.09793380410E+01	1.77649642571E+02	-4.19941163591E+01	-8.81804550825E+01	-6.00615671688E+00	2.53402093438E-01
5.66296255139E+05	-1.30566471985E+01	1.79499414594E+02	2.09124568302E+01	1.77225437747E+02	-5.15633140006E+01	1.02678740708E+02	-6.01774659881E+00	-5.98441570688E-01
5.88487609734E+05	-1.14853744207E+01	1.79196298061E+02	2.09171239886E+01	1.76995980372E+02	-5.10608168883E+01	-2.02187318618E+01	-6.01069839720E+00	-5.31673874578E-01
6.10678964329E+05	-1.45956573350E+01	-1.35435960602E+02	2.09378479720E+01	1.76317529621E+02	-4.94477809870E+01	-8.79517662698E+01	-5.99360194871E+00	2.94952308823E-01
6.32870318924E+05	-1.49367277587E+01	-1.68836962036E+02	2.09278123906E+01	1.76028286541E+02	-4.64941086757E+01	3.05401017862E+01	-6.01639773490E+00	-2.32586813721E-01
6.55061673519E+05	-1.10912956059E+01	1.73561428573E+02	2.08971159265E+01	1.75853472297E+02	-4.29599510188E+01	4.22181763484E+01	-6.03063687499E+00	-7.54971799331E-01
6.77253028114E+05	-1.35598672913E+01	-1.74033069311E+02	2.08950482663E+01	1.75458282169E+02	-5.22932611746E+01	7.13374633126E+01	-6.01924583672E+00	-7.01953236319E-01
6.99444382709E+05	-1.53054195814E+01	1.75219317528E+02	2.09334638605E+01	1.75153612402E+02	-4.14066079741E+01	1.63198743438E+02	-5.93208910059E+00	-4.96916163174E-01
7.21635737304E+05	-1.61648489096E+01	-1.58544637902E+02	2.09374609617E+01	1.74622119507E+02	-4.90613248619E+01	-1.30204376430E+02	-5.97507135792E+00	-3.92698656822E-01
7.43827091899E+05	-2.06952510495E+01	1.34268403603E+02	2.09571112469E+01	1.74764935938E+02	-4.75864027305E+01	-3.15875948166E+01	-6.02220521453E+00	-4.06930428606E-01
7.66018446494E+05	-1.39155204409E+01	-1.74631993673E+02	2.08827562129E+01	1.74085881100E+02	-3.23327693856E+01	-7.85128426552E+01	-6.08142984650E+00	5.16466529816E-01
7.88209801089E+05	-1.50395538949E+01	-1.61886496322E+02	2.09230634182E+01	1.73621036600E+02	-4.41773717211E+01	1.67408611319E+02	-5.94160347290E+00	-3.72535693122E-01
8.10401155684E+05	-1.25783891254E+01	-1.65201316948E+02	2.08795679628E+01	1.73339608394E+02	-5.48867547977E+01	2.34195126439E+01	-5.99225942048E+00	-3.04685379296E-01
8.32592510279E+05	-1.21440091384E+01	1.75120146132E+02	2.08805870246E+01	1.73249010906E+02	-4.58611738720E+01	-1.20881286304E+02	-6.00869599482E+00	-1.90180858370E-01
8.54783864874E+05	-1.24128709778E+01	-1.78045788939E+02	2.08713591393E+01	1.72705514359E+02	-4.43311404441E+01	-1.51097380740E+02	-5.93262566972E+00	-3.60222652919E-01
8.76975219469E+05	-1.15825830525E+01	-1.78133763996E+02	2.08727743130E+01	1.72502705194E+02	-4.95746310966E+01	1.09392652426E+02	-5.97916891710E+00	-5.32411507807E-01
8.99166574064E+05	-1.26792388620E+01	-1.79707852906E+02	2.08982271620E+01	1.72212268885E+02	-5.75073976528E+01	-1.22628275166E+02	-5.98620029914E+00	-5.10435077539E-01
9.21357928659E+05	-1.72839506175E+01	-1.76660190300E+02	2.08933223631E+01	1.72072315475E+02	-4.40185889172E+01	-7.85667835901E+01	-6.00696902843E+00	-3.23297518230E-01
9.43549283254E+05	-1.30318381352E+01	-1.56809370809E+02	2.08808071455E+01	1.71483730451E+02	-4.64728119405E+01	-4.93489520740E+01	-6.05378749288E+00	-2.09403754881E-01
9.65740637849E+05	-1.42985985400E+01	1.74672442161E+02	2.08872343263E+01	1.71316513267E+02	-4.84127917825E+01	6.28271173279E+01	-5.98604405574E+00	-7.99232889474E-01
9.87931992444E+05	-1.75433567798E+01	-1.73592390470E+02	2.08860209377E+01	1.71143545522E+02	-4.76553234186E+01	2.05645545936E+01	-6.02000754547E+00	-6.21208397567E-01
1.01012334704E+06	-1.62946694490E+01	1.72131334640E+02	2.08804707774E+01	1.70968052548E+02	-6.57812689945E+01	1.19346458773E+02	-5.99936092123E+00	-5.25755436123E-01
1.03231470163E+06	-1.30083525328E+01	1.70935273976E+02	2.08462089781E+01	1.70644242420E+02	-4.79628839338E+01	4.95950269383E+01	-6.03406112214E+00	-5.72497713159E-01
1.05450605623E+06	-1.34607877617E+01	-1.68614114972E+02	2.08409531088E+01	1.70093006185E+02	-4.67385797269E+01	-6.14840316649E+01	-6.02248746884E+00	-3.37941956915E-01
1.07669741082E+06	-1.52230197174E+01	1.59631363944E+02	2.08106087542E+01	1.69957110213E+02	-4.90249434595E+01	-3.49340306799E+01	-6.05020272023E+00	-4.24420003923E-01
1.09888876542E+06	-1.18672410470E+01	1.75682845793E+02	2.08256756552E+01	1.69807050265E+02	-4.29833906527E+01	-9.41670532439E+01	-6.00928550860E+00	-2.31796065820E-01
1.12108012001E+06	-1.43405373256E+01	-1.74571726604E+02	2.08420595445E+01	1.69595883497E+02	-4.74774874494E+01	3.78704838732E+01	-5.99177508153E+00	-7.08698872795E-01
1.14327147461E+06	-1.42881789427E+01	-1.63314537304E+02	2.08525667813E+01	1.69249146753E+02	-4.52043059182E+01	-5.74299277087E+01	-6.03140493027E+00	-3.06935028132E-01
1.16546282920E+06	-1.26354166082E+01	-1.60533765392E+02	2.08280629332E+01	1.68881729305E+02	-4.48661929885E+01	1.56005419912E+02	-5.95088710588E+00	-7.19895727054E-01
1.18765418380E+06	-1.35146898999E+01	-1.76188788980E+02	2.08310834717E+01	1.68590180701E+02	-4.31757078025E+01	-1.25664469627E+02	-5.97244047820E+00	-2.25916100945E-01
1.20984553839E+06	-1.28950801629E+01	1.64649887637E+02	2.08228950809E+01	1.68542443523E+02	-4.07959183642E+01	5.26908322016E+01	-6.03608136747E+00	-1.01134916536E+00
1.23203689299E+06	-1.29941749853E+01	-1.75160208989E+02	2.08266120750E+01	1.68065872418E+02	-4.98948371825E+01	8.11438606430E+00	-6.00315802327E+00	-2.72696445615E-01
1.25422824758E+06	-1.32408963082E+01	-1.71790029208E+02	2.08080610275E+01	1.67829234596E+02	-4.67688663852E+01	-1.04965843615E+02	-5.99494781683E+00	-3.51912147130E-01
1.27641960218E+06	-1.59577392350E+01	1.77647679706E+02	2.08455411054E+01	1.67731331269E+02	-5.05053129248E+01	1.06175634783E+02	-5.99333361913E+00	-7.55839298873E-01
1.29861095677E+06	-1.16434260057E+01	-1.69338882701E+02	2.08078176509E+01	1.67294670442E+02	-4.70902639849E+01	-1.57825005460E+01	-6.04869314467E+00	-6.23991984675E-01
1.32080231137E+06	-1.38534340542E+01	-1.76183493294E+02	2.08228422242E+01	1.67143400860E+02	-4.31245143564E+01	1.17583445824E+02	-5.96883994016E+00	-1.19862310823E+00
1.34299366596E+06	-1.11855846633E+01	-1.73163548193E+02	2.08156226818E+01	1.66792327567E+02	-4.70066657094E+01	5.64280157313E+00	-6.04267718993E+00	-9.00486446223E-01
1.36518502056E+06	-1.56998880590E+01	-1.78408231680E+02	2.08463735704E+01	1.66725151311E+02	-4.65601181111E+01	-9.76398252777E+01	-6.01317558902E+00	-5.30407504930E-01
1.38737637515E+06	-1.52199339584E+01	-1.41752106954E+02	2.08428450585E+01	1.66416484738E+02	-5.62089770055E+01	-5.59587067441E+01	-6.00975733589E+00	-9.96098493478E-01
1.40956772975E+06	-1.54931027594E+01	-1.58677151472E+02	2.08408075104E+01	1.66015834293E+02	-4.19981785632E+01	-1.34502520676E+02	-5.95662284852E+00	-5.85764552151E-01
1.43175908434E+06	-1.32365422477E+01	-1.79297748702E+02	2.08119866630E+01	1.65912318905E+02	-5.72737097445E+01	2.73016793011E+01	-5.99916578408E+00	-6.10855840332E-01
1.45395043894E+06	-1.10931902684E+01	1.75696322771E+02	2.07772265034E+01	1.65565831844E+02	-5.05149902867E+01	7.28126631651E+01	-6.01304865027E+00	-7.61463550894E-01
1.47614179353E+06	-1.09930684874E+01	-1.68369436064E+02	2.07843387522E+01	1.65056191013E+02	-5.80612204984E+01	1.11861127174E+02	-5.98592982233E+00	-6.25825873454E-01
1.49833314813E+06	-1.33542157514E+01	-1.72494504148E+02	2.07918788820E+01	1.64969991607E+02	-4.78388524837E+01	-5.30166683629E+01	-6.00437576367E+00	-5.87763702499E-01
1.52052450272E+06	-1.60298051008E+01	-1.79892694575E+02	2.08134083857E+01	1.64805420569E+02	-4.54768265839E+01	1.72183647567E+02	-5.94832769441E+00	-7.92925851427E-01
1.54271585732E+06	-1.07194724307E+01	1.51985404825E+02	2.07528501647E+01	1.64716331687E+02	-4.45032062110E+01	-5.90716410326E+01	-6.03327605943E+00	-3.93208204926E-01
1.56490721191E+06	-1.15169959287E+01	1.52228634535E+02	2.07632869384E+01	1.64573534605E+02	-3.30272735663E+01	-3.70388753705E+00	-6.11106002678E+00	-1.13933042358E+00
1.58709856651E+06	-1.41233212865E+01	1.74345112890E+02	2.07832336081E+01	1.64231250841E+02	-4.81214435949E+01	-8.95449166289E+01	-5.99606303689E+00	-2.88828019065E-01
1.60928992110E+06	-1.33487719211E+01	1.61771700103E+02	2.07554832179E+01	1.63996854331E+02	-4.34862182793E+01	1.41738888577E+02	-5.96194995526E+00	-1.05507995973E+00
1.63148127570E+06	-1.40723510895E+01	1.71140078799E+02	2.07640830938E+01	1.63725484259E+02	-4.79560000066E+01	1.50523703327E+02	-5.96692795070E+00	-9.15633702797E-01
1.65367263029E+06	-1.14893988141E+01	-1.69807526881E+02	2.07513564344E+01	1.63135957945E+02	-4.50858389784E+01	-6.94491632237E+01	-6.01234984037E+00	-5.38621927687E-01
1.67586398489E+06	-1.14723133080E+01	1.69727875280E+02	2.07346739562E+01	1.63155928242E+02	-5.16933180901E+01	6.53672140581E+01	-6.01552105919E+00	-9.65831079043E-01
1.69805533948E+06	-1.74756493694E+01	-1.16769296628E+02	2.08266520911E+01	1.62791156472E+02	-4.82476425607E+01	-1.35565513899E+02	-5.98138075997E+00	-5.63464567357E-01
1.72024669408E+06	-1.38859436611E+01	1.30735805229E+02	2.07360017543E+01	1.62800512476E+02	-3.47342608434E+01	-1.31960806117E+02	-5.95382672151E+00	-7.95415797475E-02
1.74243804867E+06	-1.39099535418E+01	-1.60132489346E+02	2.07617008667E+01	1.62331252216E+02	-3.70884144136E+01	-6.54709947547E+01	-6.06844741394E+00	-5.33582471406E-02
1.76462940327E+06	-1.51475129338E+01	1.68689524425E+02	2.07516872881E+01	1.62308992195E+02	-5.30027244157E+01	1.86381139052E+01	-6.00650540918E+00	-8.66412855440E-01
1.78682075786E+06	-1.40164035754E+01	1.67170627619E+02	2.07616731621E+01	1.61992735288E+02	-5.14074063704E+01	-3.80475422931E+01	-6.02190713658E+00	-8.32895268129E-01
1.80901211246E+06	-1.32979501846E+01	-1.78573405874E+02	2.07431276955E+01	1.61678052982E+02	-4.09157708206E+01	1.38552806509E+02	-5.92187341358E+00	-9.33423559463E-01
1.83120346705E+06	-1.20345409078E+01	-1.70616741490E+02	2.07394783726E+01	1.61166936984E+02	-4.36710256124E+01	1.07457199668E+01	-6.06804658157E+00	-1.06440865328E+00
1.85339482165E+06	-1.16484884991E+01	-1.62977047433E+02	2.07629936898E+01	1.60839647936E+02	-3.94432207482E+01	3.63433942899E+01	-5.99990755558E+00	-1.40660132852E+00
1.87558617624E+06	-1.47908342795E+01	-1.78374494058E+02	2.07356283996E+01	1.60905806266E+02	-4.15666080275E+01	7.80242168577E+01	-6.01996590843E+00	-1.49257775331E+00
1.89777753084E+06	-1.46232926867E+01	-1.74946113481E+02	2.07446791254E+01	1.60595913949E+02	-5.10505858216E+01	-4.48943782243E+01	-6.01690200813E+00	-6.93515729052E-01
1.91996888543E+06	-1.40279466208E+01	-1.78451938288E+02	2.07132969588E+01	1.60364512913E+02	-5.66341143263E+01	-1.65684371927E+01	-6.00036761839E+00	-9.44484917643E-01
1.94216024003E+06	-1.33335424933E+01	-1.68017760384E+02	2.07185150737E+01	1.60168443781E+02	-4.07335860721E+01	-1.06550675217E+01	-6.11697070116E+00	-6.62537397654E-01
1.96435159462E+06	-1.56270875096E+01	-1.70977344560E+02	2.07274520575E+01	1.59951867207E+02	-4.73972812145E+01	1.13423837302E+02	-5.97182187966E+00	-1.18107889865E+00
1.98654294922E+06	-1.14452583140E+01	1.74283923722E+02	2.06856505544E+01	1.59636557530E+02	-5.03868358326E+01	9.91457547149E+00	-6.02711807525E+00	-9.51399375839E-01
2.00873430381E+06	-1.57194724725E+01	-1.68249659793E+02	2.07167288324E+01	1.59638182928E+02	-4.69092131612E+01	9.78839979865E+01	-5.99487125112E+00	-1.12833320033E+00
2.03092565841E+06	-1.25952779305E+01	1.68904808112E+02	2.06839460749E+01	1.59144120387E+02	-4.34422623450E+01	-3.75075593004E+01	-6.05264049738E+00	-7.45359745924E-01
2.05311701300E+06	-1.38617212796E+01	-1.70069866291E+02	2.07118510894E+01	1.58994104832E+02	-4.98953402118E+01	1.43938012377E+02	-5.96852677055E+00	-1.06171186814E+00
2.07530836760E+06	-1.45551172145E+01	1.67758814641E+02	2.07027285639E+01	1.58882607640E+02	-4.13788293207E+01	-1.03946859953E+02	-5.98255652742E+00	-2.96352057181E-01
2.09749972219E+06	-1.43887726681E+01	-1.69102245876E+02	2.07189252940E+01	1.58426095725E+02	-4.47881252688E+01	-1.27080023431E+02	-5.98966302881E+00	-6.04820328172E-01
2.11969107679E+06	-1.61163549647E+01	-1.65270331659E+02	2.07174385896E+01	1.58306939572E+02	-5.20237821402E+01	-1.20772375803E+02	-5.99389482195E+00	-8.58592843911E-01
2.14188243138E+06	-1.45081818047E+01	1.76666450648E+02	2.06892082878E+01	1.58015381940E+02	-4.33857715053E+01	-3.63185514779E+01	-6.04490461502E+00	-6.67107735855E-01
2.16407378598E+06	-1.23663205405E+01	-1.68577066048E+02	2.06799251709E+01	1.57647805913E+02	-4.50658321606E+01	2.90417426670E+00	-6.06211336386E+00	-1.25940289601E+00
2.18626514057E+06	-8.02699288648E+00	-1.76155605699E+02	2.06428635948E+01	1.57246091686E+02	-3.47371834181E+01	-1.51495562468E+02	-5.97020341181E+00	-5.42143656327E-01
2.20845649517E+06	-1.42354528512E+01	-1.64152580968E+02	2.06931204791E+01	1.57273083626E+02	-4.70153429228E+01	-4.41506582865E+00	-6.03909552838E+00	-9.30282669159E-01
2.23064784976E+06	-1.32209586203E+01	-1.70667865940E+02	2.06745947922E+01	1.56976400090E+02	-4.95336285703E+01	-2.27952214952E+01	-5.98040827495E+00	-7.13941178926E-01
2.25283920436E+06	-1.28084090499E+01	-1.61257383939E+02	2.06827494369E+01	1.56693438330E+02	-4.47707955713E+01	-1.03037582606E+01	-6.04932279042E+00	-1.09719302877E+00
2.27503055895E+06	-1.53493478209E+01	-1.74880495799E+02	2.06857861613E+01	1.56583508322E+02	-4.92598687383E+01	1.47779759405E+02	-5.95274094518E+00	-1.03372500468E+00
2.29722191355E+06	-1.57127597355E+01	-1.44149844382E+02	2.07029892715E+01	1.56205547404E+02	-5.61999880970E+01	-1.49447256913E+02	-5.97334621532E+00	-9.71928324855E-01
2.31941326814E+06	-1.27131414815E+01	1.73007055376E+02	2.06538644501E+01	1.56128077214E+02	-4.28398202389E+01	1.49782348955E+02	-5.98809154823E+00	-1.16374960144E+00
2.34160462274E+06	-1.13878588652E+01	-1.53215347893E+02	2.06624795491E+01	1.55658438580E+02	-3.13466926757E+01	-1.09322686888E+02	-6.00576162143E+00	-3.14252149767E-02
2.36379597733E+06	-1.19891701408E+01	-1.63288183396E+02	2.06576815074E+01	1.55403367992E+02	-4.90672162467E+01	-5.21408974292E+00	-6.01845653649E+00	-1.10486182142E+00
2.38598733193E+06	-1.30061246101E+01	1.78682043515E+02	2.06213209391E+01	1.55296404062E+02	-6.80587538683E+01	4.62433762774E+01	-5.98141260821E+00	-1.21868879654E+00
2.40817868652E+06	-1.19150431144E+01	-1.71980735750E+02	2.06162775408E+01	1.54896256029E+02	-5.20199270260E+01	2.39253841395E+01	-6.02639417684E+00	-1.31593045295E+00
2.43037004112E+06	-1.69228054631E+01	-1.68595265734E+02	2.06683393492E+01	1.54887798280E+02	-5.69209542290E+01	1.29523282496E+02	-6.01289604436E+00	-1.40145465252E+00
2.45256139571E+06	-1.41473317506E+01	-1.56334701978E+02	2.06546625961E+01	1.54511676328E+02	-4.73057732506E+01	-1.48832498485E+02	-5.97710725604E+00	-9.09796653605E-01
2.47475275031E+06	-1.15852844520E+01	-1.57896473332E+02	2.06564462343E+01	1.54187160147E+02	-4.44152903306E+01	-1.53841474131E+02	-5.96488725791E+00	-8.10910609071E-01
2.49694410490E+06	-1.42606109622E+01	-1.53939869015E+02	2.06722101878E+01	1.54153187082E+02	-4.52101608084E+01	4.54943337828E+01	-6.01629571307E+00	-1.45033531034E+00
2.51913545950E+06	-1.03019755741E+01	-1.72732239247E+02	2.05947136363E+01	1.53637483735E+02	-4.33032050913E+01	2.74262150962E+01	-6.06280426522E+00	-1.37557775576E+00
2.54132681409E+06	-1.39074347324E+01	-1.74883623416E+02	2.06290248025E+01	1.53669168297E+02	-5.15063270975E+01	-1.78242715279E+02	-5.98877199401E+00	-1.11735612299E+00
2.56351816869E+06	-1.33599856042E+01	-1.66373456636E+02	2.06127843640E+01	1.53257462193E+02	-5.88661508606E+01	-1.37020330765E+02	-5.98977584665E+00	-1.14962604850E+00
2.58570952328E+06	-1.75114525456E+01	-1.73831279456E+02	2.06329948315E+01	1.53331433254E+02	-5.21058493720E+01	-1.32994160676E+02	-6.02250211380E+00	-1.02772941506E+00
2.60790087788E+06	-1.37483277062E+01	-1.61879089237E+02	2.06172714345E+01	1.52942410810E+02	-4.27162030971E+01	5.31235863299E+01	-6.04790132905E+00	-1.47852168699E+00
2.63009223247E+06	-1.47574786953E+01	-1.50623673984E+02	2.06233339910E+01	1.52693099586E+02	-3.89682890076E+01	-1.36090113446E+02	-5.95188614115E+00	-3.68791348764E-01
2.65228358707E+06	-1.14621473179E+01	1.76299277024E+02	2.05647858368E+01	1.52564756604E+02	-3.20075814324E+01	-6.28928106782E+01	-6.10422653237E+00	-3.86408009477E-01
2.67447494166E+06	-1.40740839507E+01	-1.65763761886E+02	2.05989042667E+01	1.52254585777E+02	-5.31293457932E+01	7.32042362567E+01	-6.02554996636E+00	-1.17721294724E+00
2.69666629626E+06	-1.46718570281E+01	-1.77767542800E+02	2.05800614782E+01	1.51976948072E+02	-4.42609198442E+01	-2.36868036336E+01	-6.06685973642E+00	-1.07620640024E+00
2.71885765085E+06	-1.26602527048E+01	-1.69870394163E+02	2.05757150290E+01	1.51754675193E+02	-4.64225272831E+01	8.09376837219E+01	-5.99565467802E+00	-1.54342137099E+00
2.74104900545E+06	-1.37248406438E+01	-1.78527429238E+02	2.05680987216E+01	1.51643048964E+02	-5.04272013134E+01	1.05274494136E+02	-5.99773597453E+00	-1.30648199209E+00
2.76324036004E+06	-1.69334807083E+01	-1.71444742573E+02	2.05895151596E+01	1.51271783357E+02	-4.86512656884E+01	1.37399212220E+02	-5.97923886978E+00	-1.37308794114E+00
2.78543171463E+06	-1.30439697356E+01	-1.42174374585E+02	2.06227042455E+01	1.50725801482E+02	-4.40683929332E+01	-1.47228492413E+02	-5.97884418496E+00	-9.69431829332E-01
2.80762306923E+06	-1.24644586646E+01	1.79271932398E+02	2.05481023524E+01	1.50801478671E+02	-3.40624871832E+01	-5.21329503672E+01	-6.11039593896E+00	-5.66737053555E-01
2.82981442382E+06	-1.44511855627E+01	-1.67579973770E+02	2.05726500152E+01	1.50595431125E+02	-5.45115698698E+01	-7.88443829764E+01	-6.01000609468E+00	-1.15419982141E+00
2.85200577842E+06	-1.21019596827E+01	-1.72030760710E+02	2.05553170273E+01	1.50214834943E+02	-5.32214416131E+01	1.33373402900E+02	-5.95765031282E+00	-1.32910820644E+00
2.87419713301E+06	-1.22086384540E+01	-1.72237856649E+02	2.05442021990E+01	1.49995508462E+02	-4.09520513083E+01	1.74146422462E+02	-5.91264289072E+00	-1.15378024622E+00
