# Hz S DB R 50
! CMT, M5065, 19127446, 24.2.4/2
! Date: 11/8/2024 2:55:20 PM
! Data: Format (Calibration Info)
! Freq	S11:dB/Ang(F2)	S21:dB/Ang(F2)	S12:dB/Ang(F2)	S22:dB/Ang(F2)
3.00000000000E+05	-1.42504097385E+01	-1.70495360462E+02	7.93323296180E+00	-1.77698646469E+02	-6.05081156167E+01	1.56523123566E+02	-6.00195682930E+00	-3.77479615608E-01
3.22191354595E+05	-1.20909551557E+01	1.64091008630E+02	7.89431395338E+00	-1.77727581452E+02	-5.35694861527E+01	7.93851465341E+01	-5.99231485355E+00	-2.50358650636E-01
3.44382709190E+05	-1.69257467866E+01	1.65882014199E+02	7.95039109846E+00	-1.78454942983E+02	-4.63417370883E+01	1.54049729853E+02	-5.98968543180E+00	-2.32454476699E-01
3.66574063785E+05	-1.24139935807E+01	-1.64402682401E+02	7.90142111882E+00	-1.78676535023E+02	-4.02590414239E+01	-1.98343738661E+01	-5.99838580437E+00	-3.08480563333E-01
3.88765418380E+05	-1.51636517774E+01	-1.60757357275E+02	7.92254757103E+00	-1.79051378119E+02	-5.05315760064E+01	3.65514479133E+01	-6.01172570129E+00	-4.25539733682E-01
4.10956772975E+05	-1.21306621238E+01	-1.73855964293E+02	7.94856729463E+00	-1.79205346624E+02	-4.49002825021E+01	1.42881812951E+02	-5.96927267484E+00	-2.33325041324E-01
4.33148127570E+05	-1.40436244370E+01	-1.74572549361E+02	7.92558544959E+00	-1.79456536207E+02	-6.81558330615E+01	-1.13910247545E+01	-6.00031676509E+00	-3.24107513517E-01
4.55339482165E+05	-1.49704853218E+01	1.75260000352E+02	7.93658090904E+00	-1.79351247121E+02	-4.23555782826E+01	3.81629721028E+01	-6.01414932535E+00	-3.93417924232E-01
4.77530836760E+05	-1.31094776384E+01	-1.76933718162E+02	7.94667682753E+00	-1.79750141003E+02	-4.41370974637E+01	1.08083051877E+02	-5.98904797781E+00	-3.33612398513E-01
4.99722191355E+05	-1.67614279571E+01	-1.54960269811E+02	7.94744448821E+00	-1.79951016047E+02	-4.21821545279E+01	-1.63480844330E+02	-5.96974713485E+00	-1.59013441294E-01
5.21913545950E+05	-1.14700961130E+01	1.78487187654E+02	7.91342768782E+00	1.79951781615E+02	-6.10404467505E+01	-3.90835706508E+01	-6.02055474103E+00	-2.40851998405E-01
5.44104900545E+05	-1.50504217369E+01	1.73589464726E+02	7.93631627966E+00	1.79657414973E+02	-4.19812001855E+01	-1.89357554276E+01	-6.00094716907E+00	-2.63027276177E-01
5.66296255139E+05	-1.61299136851E+01	1.23309559359E+02	7.97295248722E+00	1.79467478543E+02	-3.92729022929E+01	7.57621328589E+01	-6.01626009663E+00	-4.71704122215E-01
5.88487609734E+05	-1.78908215443E+01	-1.55923112614E+02	7.97835818291E+00	1.79522621442E+02	-4.92291604011E+01	-1.09205037431E+02	-6.00108228109E+00	-1.67087616125E-01
6.10678964329E+05	-1.59444540619E+01	-1.65792163208E+02	7.97796006894E+00	1.78741300218E+02	-4.33770285156E+01	1.32678424549E+02	-5.99144167400E+00	7.21791022908E-02
6.32870318924E+05	-1.30357223110E+01	-1.76817186935E+02	7.91957002378E+00	1.78745160649E+02	-4.31706565302E+01	1.14662732121E+02	-5.99018786056E+00	-2.32647776334E-01
6.55061673519E+05	-1.53046333164E+01	-1.72894314449E+02	7.92951098061E+00	1.78744352019E+02	-5.15673451391E+01	-1.22195984776E+02	-6.00536313842E+00	-3.36862377803E-01
6.77253028114E+05	-1.31873838651E+01	1.77858859973E+02	7.89985289760E+00	1.78629823558E+02	-5.01152963273E+01	-1.73256243311E+02	-5.99822149117E+00	-7.63343572015E-01
6.99444382709E+05	-1.49620671265E+01	-1.66528729134E+02	7.96345223667E+00	1.78585694236E+02	-4.99613561882E+01	-1.83517700338E+01	-6.01010705185E+00	-3.53974172461E-01
7.21635737304E+05	-1.30765108061E+01	1.77488948759E+02	7.90182111215E+00	1.78568586757E+02	-5.69390909229E+01	4.02725686289E+01	-6.00862956721E+00	-2.38752697138E-01
7.43827091899E+05	-1.34780528813E+01	-1.73595845999E+02	7.93677714166E+00	1.78310402033E+02	-5.32225251712E+01	7.21979524510E+01	-5.99553829812E+00	-2.77830408862E-01
7.66018446494E+05	-1.44251002119E+01	1.78548831822E+02	7.93066648841E+00	1.78098089057E+02	-4.29425897880E+01	-1.14120183687E+02	-6.01081174889E+00	-2.90237535286E-01
7.88209801089E+05	-1.51610855090E+01	1.69744145641E+02	7.96740041243E+00	1.78140595675E+02	-3.93101962191E+01	-4.21767924932E+01	-5.99007040542E+00	-2.05406091607E-01
8.10401155684E+05	-1.36548526209E+01	1.72886828029E+02	7.94707720133E+00	1.77730264462E+02	-4.09885110771E+01	-7.26725400337E+01	-6.01570831856E+00	-1.92712336655E-01
8.32592510279E+05	-1.16907032646E+01	-1.61136672304E+02	7.92312129946E+00	1.77534386278E+02	-4.19247812849E+01	-7.67631210978E+01	-5.97531042601E+00	-2.49087945308E-01
8.54783864874E+05	-1.02202875640E+01	-1.79825639248E+02	7.89895740035E+00	1.77456586855E+02	-5.30925233805E+01	-1.68129622387E+02	-5.98300448266E+00	-3.82574681308E-01
8.76975219469E+05	-1.25655655327E+01	-1.56358247673E+02	7.98512169376E+00	1.77213480669E+02	-4.68062654772E+01	1.77947657920E+02	-5.98536082382E+00	-4.45766719061E-01
8.99166574064E+05	-1.30041671352E+01	-1.70513410461E+02	7.90547920195E+00	1.77232994666E+02	-4.22194774253E+01	-1.72914973685E+02	-6.00624252700E+00	-3.70010398588E-01
9.21357928659E+05	-1.22874246796E+01	1.79759990042E+02	7.92957089245E+00	1.77140538694E+02	-4.42202363365E+01	-1.49046333761E+02	-6.02695360658E+00	-3.79348837950E-01
9.43549283254E+05	-1.78490890987E+01	1.79079666031E+02	7.98910497392E+00	1.77141722353E+02	-5.07279547696E+01	-3.66459524553E+01	-6.01716651083E+00	-3.87175881941E-01
9.65740637849E+05	-1.22818801724E+01	1.77924981204E+02	7.88411705923E+00	1.76893854508E+02	-3.98714652359E+01	-1.40461001495E+01	-6.01119075358E+00	-3.81359675108E-01
9.87931992444E+05	-1.60639207865E+01	-1.66392956553E+02	7.95311615817E+00	1.76846162061E+02	-4.19107722802E+01	3.33242523596E+01	-6.00458239559E+00	-6.43491024416E-01
1.01012334704E+06	-1.53068812703E+01	1.66136410094E+02	7.91609576338E+00	1.76939761301E+02	-4.44336136339E+01	-1.60021634367E+02	-5.98929360526E+00	-4.69655416991E-01
1.03231470163E+06	-1.55693636746E+01	1.64521586742E+02	7.94418154558E+00	1.76577436884E+02	-5.36635994377E+01	-1.26328258312E+02	-5.98675561911E+00	-5.21318228848E-01
1.05450605623E+06	-1.60061890771E+01	-1.63043322734E+02	7.96616104659E+00	1.76591080646E+02	-5.33908749638E+01	-6.19602883695E+01	-5.99477141340E+00	-5.45758075828E-01
1.07669741082E+06	-1.57676208723E+01	1.74309030206E+02	7.94425127747E+00	1.76478606871E+02	-4.09701531462E+01	1.79852201057E+02	-5.99106376638E+00	-4.36536642599E-01
1.09888876542E+06	-1.46820031663E+01	-1.71542851677E+02	7.96663267054E+00	1.76295632522E+02	-4.02020903831E+01	-1.57469350166E+02	-5.98898710587E+00	-3.84186120986E-01
1.12108012001E+06	-1.48099961354E+01	-1.56814108968E+02	7.96811711323E+00	1.75989920215E+02	-3.98580067887E+01	-1.13053151023E+02	-5.99190619521E+00	-4.95121395796E-01
1.14327147461E+06	-1.57139857786E+01	1.78563078501E+02	7.96337488371E+00	1.76157752603E+02	-4.34080457247E+01	-1.44095082582E+02	-6.00389204500E+00	-4.25803496363E-01
1.16546282920E+06	-1.07844637893E+01	1.78199170509E+02	7.91917529133E+00	1.75924407358E+02	-4.34128796022E+01	6.80308395611E+01	-6.00042983762E+00	-5.62332381906E-01
1.18765418380E+06	-1.54335613738E+01	1.74576238588E+02	7.95422865797E+00	1.76020609583E+02	-4.47664479439E+01	8.81862309288E+01	-5.99769187199E+00	-5.81454998517E-01
1.20984553839E+06	-1.46685082019E+01	-1.53216811969E+02	7.97430381703E+00	1.75617057294E+02	-4.32679352468E+01	-1.72923023898E+02	-5.98823886023E+00	-7.35334224934E-01
1.23203689299E+06	-1.17851087984E+01	1.79284021217E+02	7.92498790722E+00	1.75526216576E+02	-4.38619687637E+01	-6.70118301100E+01	-6.02464677619E+00	-2.53335739095E-01
1.25422824758E+06	-1.28921910652E+01	-1.78410120760E+02	7.94190750484E+00	1.75594267719E+02	-4.47831760245E+01	5.25138033434E+01	-6.01275260384E+00	-5.98343622147E-01
1.27641960218E+06	-1.75715116656E+01	1.76072361254E+02	7.97192642404E+00	1.75393049000E+02	-4.70137366481E+01	-1.48650053293E+02	-6.00889275649E+00	-5.26563333682E-01
1.29861095677E+06	-1.20415111911E+01	-1.76826310654E+02	7.90735189564E+00	1.75304078207E+02	-4.96613195059E+01	9.01343939451E+00	-6.00697104669E+00	-6.10210112124E-01
1.32080231137E+06	-1.37449908170E+01	1.78276371850E+02	7.90867528336E+00	1.75777143583E+02	-5.15532868839E+01	1.80479445973E+01	-6.01514343455E+00	-8.49407551025E-01
1.34299366596E+06	-1.10777070421E+01	-1.55272237371E+02	7.97790906152E+00	1.74893509752E+02	-4.53855235784E+01	1.02733560871E+02	-5.99260471128E+00	-7.93433297810E-01
1.36518502056E+06	-1.27593487047E+01	-1.70492545602E+02	7.93252874889E+00	1.74838385962E+02	-4.66221875603E+01	-7.98236772745E+01	-5.98793705622E+00	-5.20550497315E-01
1.38737637515E+06	-1.54915783522E+01	1.77292188067E+02	7.93686335179E+00	1.74965125508E+02	-3.95561641633E+01	-1.66628029980E+02	-5.98340167999E+00	-4.48968728252E-01
1.40956772975E+06	-1.14714374895E+01	-1.65304098031E+02	7.92967807081E+00	1.74374145085E+02	-4.86278876933E+01	1.43631203925E+02	-6.01287561962E+00	-5.71853512135E-01
1.43175908434E+06	-1.49978232847E+01	-1.76114228347E+02	7.95813333033E+00	1.74884192881E+02	-4.34951640712E+01	1.06311722661E+02	-5.99569867309E+00	-6.80699855986E-01
1.45395043894E+06	-1.23411093042E+01	1.74863759363E+02	7.89767036487E+00	1.74711831081E+02	-4.42979205335E+01	-1.34203399905E+02	-5.99284497970E+00	-6.47422989892E-01
1.47614179353E+06	-1.79814185913E+01	-1.72372699881E+02	7.94001827988E+00	1.74637371158E+02	-4.30456509367E+01	-7.52438574047E+01	-5.99844402697E+00	-7.11839659393E-01
1.49833314813E+06	-1.18160635277E+01	1.60498286262E+02	7.92826963043E+00	1.74525645607E+02	-4.19799150245E+01	1.54494641955E+02	-5.95053154459E+00	-7.12733401593E-01
1.52052450272E+06	-1.29640243776E+01	-1.64000412165E+02	7.94944143048E+00	1.74173959789E+02	-4.30408888083E+01	8.35766570794E+01	-6.00771672290E+00	-7.75025555115E-01
1.54271585732E+06	-1.35888731685E+01	1.72262367465E+02	7.93897063853E+00	1.74264522526E+02	-3.76132631692E+01	3.57103093451E+01	-6.01063176422E+00	-8.18105128200E-01
1.56490721191E+06	-2.09669968683E+01	1.38161684239E+02	7.97859153297E+00	1.74430601983E+02	-4.22777049670E+01	1.46683305738E+02	-6.00196451454E+00	-6.86600908846E-01
1.58709856651E+06	-1.63005696811E+01	-1.62099189456E+02	7.98326715114E+00	1.73947961107E+02	-5.95791684765E+01	1.72684888991E+02	-5.98740333210E+00	-6.07106600582E-01
1.60928992110E+06	-1.32968576375E+01	1.76098350040E+02	7.89123798677E+00	1.73933968941E+02	-4.38615531099E+01	1.07163097480E+02	-5.99338262570E+00	-8.29946560853E-01
1.63148127570E+06	-1.28483804034E+01	-1.72593167881E+02	7.96562333535E+00	1.73537853068E+02	-4.74829113100E+01	5.87966784049E+01	-5.99120527333E+00	-7.77993835362E-01
1.65367263029E+06	-9.61551791869E+00	-1.76308830914E+02	7.89836193137E+00	1.73567596698E+02	-5.20437110214E+01	-5.78424425268E+01	-5.98733122273E+00	-7.46441781600E-01
1.67586398489E+06	-1.51552365717E+01	-1.77715415545E+02	7.96986911245E+00	1.73789989471E+02	-4.93165464482E+01	-3.56570909729E+01	-6.01619992044E+00	-7.65350340168E-01
1.69805533948E+06	-1.31701597008E+01	-1.69110259432E+02	7.95875747467E+00	1.73477842740E+02	-5.21211669352E+01	7.28826924140E+01	-5.99361139229E+00	-7.17524406545E-01
1.72024669408E+06	-1.59748572964E+01	-1.78594475355E+02	7.96023698070E+00	1.73596046948E+02	-4.65346617739E+01	1.08470475791E+02	-5.99206941863E+00	-9.27558652562E-01
1.74243804867E+06	-1.76837191107E+01	1.71705533108E+02	7.97320875769E+00	1.73519564245E+02	-3.84662202342E+01	6.82764144951E+01	-5.96939754915E+00	-7.64214883302E-01
1.76462940327E+06	-1.60544770077E+01	-1.50885855899E+02	8.02426741241E+00	1.73266785431E+02	-3.75733333100E+01	-1.05487724343E+02	-6.00097627769E+00	-6.37699709349E-01
1.78682075786E+06	-1.95771417818E+01	-1.72813295590E+02	7.99227318519E+00	1.73130012267E+02	-4.60524727092E+01	2.96801971866E+01	-5.98185531801E+00	-9.05489989691E-01
1.80901211246E+06	-1.44064308212E+01	-8.20321235239E+01	8.05678619819E+00	1.73203627880E+02	-4.77460781061E+01	9.88824643368E+01	-5.98661396071E+00	-8.03888388979E-01
1.83120346705E+06	-1.42315033866E+01	1.75397232369E+02	7.95961153991E+00	1.72787945326E+02	-4.38468743219E+01	1.82818847321E+00	-6.04023112963E+00	-7.75717681180E-01
1.85339482165E+06	-1.55834067622E+01	1.73953067992E+02	7.97716592311E+00	1.72850376918E+02	-4.24773868789E+01	-4.14467423691E+01	-6.02851220059E+00	-8.10614769433E-01
1.87558617624E+06	-1.43908216298E+01	-1.78553058657E+02	7.96108574659E+00	1.72603339196E+02	-4.50125004682E+01	1.60872839374E+02	-5.98406219866E+00	-8.29831104680E-01
1.89777753084E+06	-1.55989787248E+01	-1.45017190558E+02	8.00778417715E+00	1.72580930392E+02	-3.39245078739E+01	6.10674471833E+01	-5.98705617644E+00	-9.59162057988E-01
1.91996888543E+06	-1.21279351060E+01	-1.77156758878E+02	7.96446830857E+00	1.72574363924E+02	-4.48212599113E+01	7.58702409887E+01	-5.99538821123E+00	-9.25521119804E-01
1.94216024003E+06	-1.37493671302E+01	-1.61561846866E+02	7.97120777340E+00	1.72412396967E+02	-5.82482756208E+01	-1.42309343943E+02	-6.00054740035E+00	-7.34107008930E-01
1.96435159462E+06	-1.17588553269E+01	1.63343823462E+02	7.91119425425E+00	1.72262329203E+02	-6.03140576635E+01	-9.06166350954E+01	-6.01425514220E+00	-9.39898140390E-01
1.98654294922E+06	-1.54604575438E+01	-1.69301778354E+02	7.99119439013E+00	1.72227662032E+02	-4.62952549329E+01	2.18393875782E+00	-6.02330893853E+00	-8.95510524254E-01
2.00873430381E+06	-1.54117507556E+01	1.77173298143E+02	8.00313040080E+00	1.72132954175E+02	-4.27351967957E+01	1.49798478339E+02	-5.98846082346E+00	-8.56782905633E-01
2.03092565841E+06	-1.71335313892E+01	-1.72634850088E+02	7.97077555100E+00	1.72200891713E+02	-5.18409612501E+01	5.33405923089E+01	-5.97887446699E+00	-8.19138875710E-01
2.05311701300E+06	-1.42631780027E+01	-1.44901512142E+02	7.99318992995E+00	1.71815758066E+02	-4.35026639019E+01	4.71353873230E+01	-5.98168915060E+00	-1.12004666638E+00
2.07530836760E+06	-1.48415688816E+01	1.79866017145E+02	7.93062144851E+00	1.71734390883E+02	-5.36502656044E+01	-1.01179567547E+02	-6.00389767405E+00	-7.57813600475E-01
2.09749972219E+06	-1.43921050674E+01	-1.67485756155E+02	7.99969822503E+00	1.71910821751E+02	-4.20139993800E+01	1.46497207305E+02	-6.00120023318E+00	-1.03858993999E+00
2.11969107679E+06	-1.02421996214E+01	1.52014146881E+02	7.93204548869E+00	1.71549991685E+02	-6.14086999150E+01	-8.45634316756E+01	-5.99774204077E+00	-9.84739471856E-01
2.14188243138E+06	-1.29628338870E+01	-1.64899744354E+02	7.98221288659E+00	1.71231868305E+02	-4.73847130741E+01	9.58252282372E+01	-5.97256936221E+00	-9.62377529140E-01
2.16407378598E+06	-1.47840183331E+01	-1.66848524094E+02	8.00973869327E+00	1.71595762055E+02	-4.32629174185E+01	-2.59586845498E+01	-6.02155962821E+00	-8.14950992371E-01
2.18626514057E+06	-1.44140753219E+01	1.62809488915E+02	7.96500276087E+00	1.71397813913E+02	-4.29879620450E+01	-7.05703113676E+01	-6.01233748208E+00	-8.52097256776E-01
2.20845649517E+06	-1.65779658298E+01	1.74014750081E+02	7.98148722521E+00	1.71427010294E+02	-4.12434268319E+01	1.63533818004E+02	-5.97551402757E+00	-9.96613202577E-01
2.23064784976E+06	-1.41066918071E+01	1.79762124712E+02	8.00137693550E+00	1.71130713292E+02	-4.53270877632E+01	1.79729925763E+02	-5.98735613332E+00	-9.93866385448E-01
2.25283920436E+06	-1.14565564747E+01	1.79841752425E+02	7.95971521191E+00	1.70947874929E+02	-4.28181962135E+01	1.09387515059E+01	-6.01934913458E+00	-1.02350439467E+00
2.27503055895E+06	-1.21442956228E+01	1.55672033604E+02	7.92936233915E+00	1.71023655833E+02	-4.64912134333E+01	1.17081168047E+02	-5.98778126843E+00	-1.09503059892E+00
2.29722191355E+06	-9.49862879602E+00	-1.67475770117E+02	7.97088252691E+00	1.70449802140E+02	-4.40679613248E+01	-6.47322614766E+01	-5.99499965788E+00	-9.65095971550E-01
2.31941326814E+06	-1.37154736193E+01	-1.72885773916E+02	8.00369198828E+00	1.70913654393E+02	-4.43590326839E+01	1.03119632799E+02	-5.97828669148E+00	-1.20107288563E+00
2.34160462274E+06	-1.59702834737E+01	-1.54413331847E+02	8.01401549436E+00	1.70431402307E+02	-4.09229430540E+01	-7.95167320095E+01	-5.99887908610E+00	-9.90803021062E-01
2.36379597733E+06	-1.46072358707E+01	-1.49117641535E+02	8.05321812265E+00	1.70349896892E+02	-3.68512134045E+01	-7.30505634473E+01	-6.02449201977E+00	-1.20758134680E+00
2.38598733193E+06	-1.21621929469E+01	-1.78420744377E+02	7.99414183619E+00	1.70492862735E+02	-3.87873298560E+01	1.52225962583E+02	-5.97016316775E+00	-1.00838072768E+00
2.40817868652E+06	-1.19742627080E+01	-1.73077792198E+02	7.95000768797E+00	1.70098754591E+02	-4.56653408837E+01	-1.63017288441E+02	-5.99334442644E+00	-1.10534454033E+00
2.43037004112E+06	-1.17565265710E+01	-1.63823864368E+02	7.99260432616E+00	1.69893816915E+02	-3.88373752550E+01	-4.06826102607E+01	-6.02455309642E+00	-1.36407191879E+00
2.45256139571E+06	-1.55069488559E+01	-1.28831352525E+02	8.05080771847E+00	1.70290745081E+02	-4.63345337248E+01	5.92082111569E+01	-6.00124322054E+00	-1.16154884455E+00
2.47475275031E+06	-1.65629385939E+01	1.72778530854E+02	7.98893291544E+00	1.70297286345E+02	-5.02058571852E+01	3.51100554738E+01	-5.97912657743E+00	-1.04426928533E+00
2.49694410490E+06	-1.65366044528E+01	-1.47312687836E+02	8.05941970597E+00	1.69829360383E+02	-4.60611745560E+01	-1.22773616060E+02	-6.00670104198E+00	-8.52294170636E-01
2.51913545950E+06	-1.60069138248E+01	-1.79672339786E+02	7.99055110298E+00	1.69795756788E+02	-4.32229490052E+01	2.74157562890E+01	-6.01422493984E+00	-1.21936865946E+00
2.54132681409E+06	-1.38660521831E+01	-1.78437561851E+02	7.97247543610E+00	1.69755412357E+02	-3.76543944539E+01	2.66362347705E+01	-6.01782979631E+00	-1.30074453764E+00
2.56351816869E+06	-1.62653208527E+01	-1.77048748302E+02	8.02723283192E+00	1.69837191455E+02	-4.22955935752E+01	1.23368573226E+02	-5.97295016311E+00	-1.36917807712E+00
2.58570952328E+06	-1.48721479534E+01	-1.78689088457E+02	7.98583214025E+00	1.69465660331E+02	-5.52801063943E+01	-2.67689282565E+01	-5.99836687207E+00	-1.10380413551E+00
2.60790087788E+06	-1.12179721774E+01	-1.71416576785E+02	7.95447070058E+00	1.69142162007E+02	-4.76056078175E+01	-1.50370984309E+02	-5.99055441272E+00	-9.21362058228E-01
2.63009223247E+06	-1.31258844884E+01	1.65221250053E+02	7.98626079655E+00	1.69601605013E+02	-4.92764640544E+01	-6.20571702346E+01	-5.99979724793E+00	-5.71097095689E-01
2.65228358707E+06	-1.71125176301E+01	-1.39692000959E+02	8.05618742852E+00	1.69256840323E+02	-4.92843419024E+01	1.44555999271E+02	-5.99698799479E+00	-1.21935742093E+00
2.67447494166E+06	-1.19241601482E+01	-1.75889120754E+02	7.94645271235E+00	1.68973565514E+02	-4.52771153838E+01	-4.49047307211E+01	-5.99723650752E+00	-1.13869516273E+00
2.69666629626E+06	-1.52791911724E+01	-1.63977837374E+02	8.03929537985E+00	1.69245272014E+02	-4.46813008309E+01	1.17092906643E+02	-5.97167957249E+00	-1.04482492898E+00
2.71885765085E+06	-1.29499811384E+01	-1.72526774858E+02	7.98312228074E+00	1.68974315278E+02	-5.37515790165E+01	-4.34163722363E+01	-6.00084201100E+00	-1.15144414308E+00
2.74104900545E+06	-1.26981380337E+01	-1.76528412641E+02	7.98171689365E+00	1.68641161823E+02	-4.21119387023E+01	-1.64168365737E+02	-5.99858782252E+00	-1.11364680811E+00
2.76324036004E+06	-1.51891681010E+01	-1.76970381643E+02	8.00133793824E+00	1.68805560582E+02	-5.06810034851E+01	-8.86030301749E+01	-6.00958735103E+00	-1.08252634372E+00
2.78543171463E+06	-1.36635315785E+01	1.73386432570E+02	7.97425629460E+00	1.68753885493E+02	-4.50221966997E+01	1.75280087914E+02	-5.98750907840E+00	-1.17851214154E+00
2.80762306923E+06	-1.41504125872E+01	-1.59685587113E+02	8.04452302711E+00	1.68714598610E+02	-4.90448664602E+01	1.67400334071E+02	-5.99477759109E+00	-1.04213519466E+00
2.82981442382E+06	-1.57323290041E+01	-1.77822440297E+02	8.01425641691E+00	1.68540448907E+02	-3.94139520110E+01	1.50675825990E+02	-5.97692647748E+00	-1.19896888518E+00
2.85200577842E+06	-1.18555200795E+01	-1.71186699136E+02	8.00604317517E+00	1.68186520367E+02	-4.45771846517E+01	-8.50055767268E+01	-6.01826856552E+00	-1.11351546552E+00
2.87419713301E+06	-1.81654719684E+01	-1.32721888409E+02	8.08258134454E+00	1.68396449858E+02	-4.66943035883E+01	1.22760763938E+02	-5.99623479179E+00	-1.24298812537E+00
