# Hz S DB R 50
! CMT, M5065, 19127446, 24.2.4/2
! Date: 11/8/2024 3:31:47 PM
! Data: Format (Calibration Info)
! Freq	S11:dB/Ang(F2)	S21:dB/Ang(F2)	S12:dB/Ang(F2)	S22:dB/Ang(F2)
3.00000000000E+05	-1.33227916356E+01	-1.77215529955E+02	1.79154620061E+01	-1.76994363612E+02	-5.36750422735E+01	1.32267908959E+02	-5.99564542358E+00	-2.35546291894E-01
3.22191354595E+05	-1.71043798200E+01	-1.70011029597E+02	1.79599579567E+01	-1.77439843115E+02	-6.26848450771E+01	-1.40607721922E+02	-5.97537035939E+00	-2.21131909710E-01
3.44382709190E+05	-1.30708369615E+01	-1.60618318120E+02	1.79268710664E+01	-1.78108892468E+02	-5.34387813297E+01	-1.55680555928E+02	-5.98421001581E+00	-2.23584643895E-01
3.66574063785E+05	-1.35258487336E+01	-1.70720279697E+02	1.79391449778E+01	-1.78686564744E+02	-4.84849336700E+01	-1.32796384942E+02	-5.97036539607E+00	-8.60011284699E-02
3.88765418380E+05	-1.33896602451E+01	-1.55721103811E+02	1.79032468750E+01	-1.79270399223E+02	-4.64513595537E+01	5.73260206641E+01	-6.12197997342E+00	-6.53163071486E-01
4.10956772975E+05	-1.12273950814E+01	1.78709467582E+02	1.78946984433E+01	-1.79428729357E+02	-4.86371282395E+01	-1.37503979147E+02	-6.00978307081E+00	-1.59297203375E-01
4.33148127570E+05	-1.45491503914E+01	-1.74856831747E+02	1.79527286700E+01	-1.79800241691E+02	-4.55887605129E+01	-8.18159177977E+01	-6.02086289078E+00	-1.91028667097E-01
4.55339482165E+05	-1.10338385127E+01	1.79941179242E+02	1.79213313499E+01	1.79752103846E+02	-5.31806571795E+01	-1.22365351227E+02	-5.99800391880E+00	-1.52709399502E-01
4.77530836760E+05	-1.20186756016E+01	-1.55631820731E+02	1.79592211531E+01	1.79209610560E+02	-5.36352530427E+01	-1.32321017061E+02	-5.97609506768E+00	-3.28019329186E-01
4.99722191355E+05	-1.47108327793E+01	-1.79827477229E+02	1.79634836845E+01	1.78927866287E+02	-4.12717977944E+01	2.17398375982E+01	-6.04435900494E+00	-5.43274398426E-01
5.21913545950E+05	-1.13327761472E+01	1.65976885779E+02	1.79115588138E+01	1.78858819743E+02	-4.96504017765E+01	8.66689890325E+01	-5.96881566828E+00	-4.64747492709E-01
5.44104900545E+05	-1.33113787160E+01	1.77535487883E+02	1.79492637012E+01	1.78361550667E+02	-5.25157879180E+01	-8.34380932529E+01	-6.01466469621E+00	-1.35873414782E-01
5.66296255139E+05	-1.61734426827E+01	-1.69614563580E+02	1.79643940737E+01	1.78071728233E+02	-4.74665676661E+01	-1.53949691490E+02	-5.97028529772E+00	-4.95404313224E-01
5.88487609734E+05	-1.10562373566E+01	1.79179243877E+02	1.79071246733E+01	1.77765019741E+02	-4.47842743246E+01	-4.55406320377E+01	-6.02450663605E+00	-2.85573867788E-01
6.10678964329E+05	-1.37255584052E+01	-1.79012683503E+02	1.79223398030E+01	1.77423330304E+02	-4.55123975980E+01	-8.52414847425E+00	-6.01638975036E+00	2.02695705619E-01
6.32870318924E+05	-1.62871290247E+01	-1.73520304301E+02	1.79454326814E+01	1.77214804719E+02	-3.99490819692E+01	1.17922240012E+02	-5.99593956508E+00	-4.73066574149E-01
6.55061673519E+05	-1.47210441595E+01	1.45810041881E+02	1.79653867565E+01	1.77073475822E+02	-3.88992541779E+01	5.81748218416E+01	-6.03384583924E+00	-6.51101696963E-01
6.77253028114E+05	-1.54238284433E+01	-1.69761061115E+02	1.79501918973E+01	1.76595395103E+02	-4.42440174280E+01	1.64649054940E+02	-5.95669765624E+00	-7.68520762569E-01
6.99444382709E+05	-1.34943826070E+01	1.58644721622E+02	1.79387053160E+01	1.76436392486E+02	-4.31596480324E+01	2.31219159628E+01	-6.04332262712E+00	-3.99840294205E-01
7.21635737304E+05	-1.26616854408E+01	1.68862279331E+02	1.79023324648E+01	1.76081713988E+02	-3.94291436960E+01	1.51395220081E+02	-5.96558871239E+00	-5.53961447259E-01
7.43827091899E+05	-1.33532528402E+01	1.73241719749E+02	1.79140471973E+01	1.75907968088E+02	-4.54722691254E+01	-3.07334469746E+01	-6.03049714410E+00	-2.95306760137E-01
7.66018446494E+05	-1.32312035190E+01	-1.71344979671E+02	1.79182120420E+01	1.75592755887E+02	-4.45429485422E+01	-9.39643345346E+01	-5.97069518209E+00	-4.27904035983E-02
7.88209801089E+05	-1.00887451883E+01	1.73788888666E+02	1.78751234060E+01	1.75354355685E+02	-4.20086800550E+01	-1.76490720672E+02	-5.95824520236E+00	-4.67558597415E-01
8.10401155684E+05	-1.17945063961E+01	1.68015457782E+02	1.79235012068E+01	1.75103161499E+02	-4.21060909950E+01	7.18793991354E+01	-5.98832394929E+00	-7.13059564456E-01
8.32592510279E+05	-1.38988637896E+01	-1.61546228725E+02	1.79252080895E+01	1.74733165765E+02	-3.98773250247E+01	1.66580730268E+01	-6.08069821102E+00	-5.47310721058E-01
8.54783864874E+05	-1.31893083896E+01	-1.62002885895E+02	1.79395968064E+01	1.74368360624E+02	-4.71147057228E+01	-1.24507166688E+02	-5.98730362625E+00	-4.18937018126E-01
8.76975219469E+05	-1.39702665852E+01	1.73754389214E+02	1.79155422105E+01	1.74324183472E+02	-4.53182233464E+01	1.39230166603E+02	-5.98361985097E+00	-4.97194962820E-01
8.99166574064E+05	-1.51156584543E+01	-1.76074109766E+02	1.79209399574E+01	1.74260609790E+02	-3.81171524184E+01	1.10056313963E+02	-5.95431901343E+00	-9.83313951728E-01
9.21357928659E+05	-1.40837606306E+01	1.73076027683E+02	1.79115868422E+01	1.74078622353E+02	-4.34602197420E+01	3.04831621897E+01	-6.04292881174E+00	-6.88127877148E-01
9.43549283254E+05	-1.05718201669E+01	-1.64442274973E+02	1.78909948793E+01	1.73445331970E+02	-4.40407157873E+01	1.44291140494E+02	-5.93248483794E+00	-5.66686764725E-01
9.65740637849E+05	-1.16588778534E+01	1.71446828361E+02	1.78917276721E+01	1.73774597907E+02	-4.68340759697E+01	-7.23718213231E+01	-5.99358385165E+00	-2.74597388076E-01
9.87931992444E+05	-1.05523493502E+01	1.75212371821E+02	1.78945512871E+01	1.73270753375E+02	-4.89267989022E+01	6.54525956523E+01	-6.00596398564E+00	-6.41511026093E-01
1.01012334704E+06	-1.38457923013E+01	-1.76855079214E+02	1.79208500061E+01	1.73175238023E+02	-5.12464150772E+01	-6.13240584270E+01	-6.01996008528E+00	-3.61704819914E-01
1.03231470163E+06	-1.65853219317E+01	1.74858337918E+02	1.79195428731E+01	1.72818737730E+02	-4.54633639515E+01	-5.28677681440E+01	-6.01030450356E+00	-3.19982903994E-01
1.05450605623E+06	-1.36504797601E+01	-1.48586454411E+02	1.79082996631E+01	1.72255961824E+02	-5.12641136990E+01	-6.93426351790E+01	-6.02021287273E+00	-4.84212405589E-01
1.07669741082E+06	-1.28401989559E+01	-1.79945417617E+02	1.79021887886E+01	1.72340380172E+02	-4.76739669772E+01	1.21818391368E+02	-6.00506948819E+00	-7.80967480248E-01
1.09888876542E+06	-1.54530873617E+01	-1.61738772155E+02	1.79188450875E+01	1.71983212739E+02	-4.47189553025E+01	-1.10385194692E+02	-5.97320497605E+00	-2.40493968718E-01
1.12108012001E+06	-1.24633008689E+01	-1.74588189376E+02	1.78817354774E+01	1.71977956378E+02	-5.05883024097E+01	3.87492833191E+01	-5.98843961429E+00	-6.01483345212E-01
1.14327147461E+06	-1.50174305125E+01	1.56358305577E+02	1.79120408680E+01	1.71867800513E+02	-4.08569682120E+01	-5.87006830502E+01	-6.03303041309E+00	-3.63592136721E-01
1.16546282920E+06	-1.56378551858E+01	1.76037484070E+02	1.79065987261E+01	1.71542147603E+02	-4.67015669990E+01	1.48679260378E+02	-5.95369006056E+00	-4.42963118125E-01
1.18765418380E+06	-1.32916505826E+01	-1.65547022781E+02	1.78823615124E+01	1.71121289763E+02	-4.18143079653E+01	3.43084237183E+00	-6.00692941305E+00	-8.01941345170E-01
1.20984553839E+06	-1.77837876163E+01	-1.79783961875E+02	1.79063926609E+01	1.71214776231E+02	-4.32372136331E+01	5.61678969793E+01	-6.00168517320E+00	-1.03712060790E+00
1.23203689299E+06	-1.32772990214E+01	-1.65759798825E+02	1.79065300827E+01	1.70762568762E+02	-4.11075900154E+01	1.06890193133E+02	-5.98859601667E+00	-8.16125985483E-01
1.25422824758E+06	-1.24781476318E+01	-1.78758196422E+02	1.78769422647E+01	1.70681178354E+02	-5.28773681220E+01	-1.34790344403E+02	-5.99552155200E+00	-4.87566578706E-01
1.27641960218E+06	-1.56753450187E+01	1.73427442138E+02	1.79097829566E+01	1.70563230164E+02	-4.56015205465E+01	1.67348790646E+02	-5.98013857130E+00	-5.11898532265E-01
1.29861095677E+06	-2.13758102314E+01	-1.66771503319E+02	1.79348543865E+01	1.70371081960E+02	-4.62905297598E+01	-8.40010433742E+01	-6.00730730921E+00	-4.22890434757E-01
1.32080231137E+06	-1.25259938551E+01	-1.77681867945E+02	1.78968024220E+01	1.69934117897E+02	-4.77129517378E+01	7.50052904206E+01	-5.99397071420E+00	-1.19558305432E+00
1.34299366596E+06	-1.25979154080E+01	-1.68616977412E+02	1.79022124279E+01	1.70010370406E+02	-4.69564542827E+01	-8.00844750866E+01	-6.01981337916E+00	-4.93275042559E-01
1.36518502056E+06	-1.44266934713E+01	-1.68043076679E+02	1.78938731148E+01	1.69704349609E+02	-4.05363368327E+01	-1.16758304237E+02	-5.95365875472E+00	-1.34252739726E-01
1.38737637515E+06	-1.09715802239E+01	1.79424748396E+02	1.78723699443E+01	1.69382214277E+02	-4.17770748631E+01	-6.68301649100E+01	-6.04124617109E+00	-5.43825953584E-01
1.40956772975E+06	-1.48820217294E+01	-1.77919411226E+02	1.78917659657E+01	1.69301273214E+02	-4.90241020725E+01	1.53620631413E+01	-6.00825843567E+00	-8.09447448733E-01
1.43175908434E+06	-1.26756946264E+01	1.66338615987E+02	1.78771305984E+01	1.69185694482E+02	-4.50315298995E+01	-2.83669217531E+00	-6.02960356355E+00	-6.78963949093E-01
1.45395043894E+06	-9.13898139458E+00	-1.73101985388E+02	1.78669609125E+01	1.68808176996E+02	-4.26097223224E+01	-6.41602705360E+01	-6.02637550724E+00	-6.08649497904E-01
1.47614179353E+06	-1.36255783553E+01	1.79970873861E+02	1.78765700692E+01	1.68797321458E+02	-4.15787766901E+01	-1.07201543842E+02	-5.99731002517E+00	-2.96508838482E-01
1.49833314813E+06	-1.18775764939E+01	-1.64534342959E+02	1.78745876802E+01	1.68322896513E+02	-4.83177276659E+01	-8.34841702943E+01	-6.03604063425E+00	-5.91247136533E-01
1.52052450272E+06	-1.75149863084E+01	-1.64463112024E+02	1.79229433482E+01	1.68299097797E+02	-4.43485479023E+01	1.36099941433E+02	-5.98340937479E+00	-7.80191806096E-01
1.54271585732E+06	-1.05327927221E+01	-1.64041977035E+02	1.78761417133E+01	1.67842619556E+02	-4.25336708402E+01	-1.14482441934E+02	-5.99959493376E+00	-3.80529152600E-01
1.56490721191E+06	-1.40013618613E+01	-1.77399924604E+02	1.78936709886E+01	1.67926192255E+02	-4.49674090290E+01	1.34120536651E+02	-5.98077982815E+00	-9.28825847440E-01
1.58709856651E+06	-1.40692635108E+01	1.49621760932E+02	1.78625118766E+01	1.68044085583E+02	-4.17253231805E+01	1.49115125559E+02	-5.93942501355E+00	-7.27567040306E-01
1.60928992110E+06	-1.66845360513E+01	1.48450358342E+02	1.78884574019E+01	1.67622415756E+02	-4.62616195781E+01	2.81791202746E+01	-6.00616646845E+00	-8.01233667626E-01
1.63148127570E+06	-1.20899203617E+01	-1.73185758958E+02	1.78441192797E+01	1.67197439048E+02	-4.75236693969E+01	-2.82814401576E+01	-6.01914517537E+00	-6.99572281820E-01
1.65367263029E+06	-1.32270891393E+01	-1.64375681998E+02	1.78783445292E+01	1.67038579806E+02	-3.86137859300E+01	3.09975326052E+01	-6.02035310830E+00	-1.03872336288E+00
1.67586398489E+06	-1.35885527943E+01	-1.69019069443E+02	1.78954713149E+01	1.66780655939E+02	-4.63669298017E+01	1.47947251992E+02	-5.96227017728E+00	-7.47945973818E-01
1.69805533948E+06	-1.23533028825E+01	-1.63984968390E+02	1.78720314775E+01	1.66643837665E+02	-4.77723762944E+01	1.14602240847E+02	-5.97722226612E+00	-8.72686802611E-01
1.72024669408E+06	-1.17306000528E+01	-1.70734298855E+02	1.78665597772E+01	1.66366532591E+02	-4.42690815712E+01	-3.75606249307E+00	-6.04732781579E+00	-6.66855499233E-01
1.74243804867E+06	-1.32134899641E+01	-1.75273829705E+02	1.78683829520E+01	1.66116216036E+02	-5.33492923169E+01	-1.61268099445E+02	-5.97750468111E+00	-8.72693133681E-01
1.76462940327E+06	-2.00554121877E+01	-1.19292999881E+02	1.79015351607E+01	1.66152552344E+02	-4.81811371062E+01	1.77707710998E+02	-5.97261013335E+00	-8.24565723493E-01
1.78682075786E+06	-1.67395887050E+01	1.58467522616E+02	1.78672733233E+01	1.66121042578E+02	-4.72716272640E+01	8.78878204453E+00	-6.01539734764E+00	-8.55616345440E-01
1.80901211246E+06	-1.47225461643E+01	-1.67028444787E+02	1.78560551078E+01	1.65749971286E+02	-4.08135330894E+01	-5.23978074305E+01	-6.03181825362E+00	-8.30280567626E-01
1.83120346705E+06	-1.44914454581E+01	-1.64691996946E+02	1.78816096396E+01	1.65477168013E+02	-4.86909398592E+01	-1.17542795178E+02	-5.99557453324E+00	-6.10553578768E-01
1.85339482165E+06	-1.63209254285E+01	-1.60934489439E+02	1.78934124753E+01	1.65314411895E+02	-4.43706146602E+01	1.32021033783E+02	-5.96756552371E+00	-8.64944036232E-01
1.87558617624E+06	-1.40546597698E+01	-1.70703850470E+02	1.78886927625E+01	1.65113235747E+02	-6.00183019437E+01	-1.65704742434E+02	-5.98402364910E+00	-8.87054237351E-01
1.89777753084E+06	-1.21952474826E+01	-1.64749061869E+02	1.78743363725E+01	1.64890484741E+02	-4.71005379698E+01	-7.97285073759E+01	-6.02215129321E+00	-7.19127595703E-01
1.91996888543E+06	-1.27092679494E+01	-1.78122226066E+02	1.78644038398E+01	1.64804794312E+02	-4.72049727147E+01	5.88564214324E+01	-6.02453035038E+00	-1.05540847687E+00
1.94216024003E+06	-1.24456546862E+01	1.69872174552E+02	1.78429172107E+01	1.64689559841E+02	-4.16572996913E+01	3.81647757832E+01	-6.03165182091E+00	-1.13189186227E+00
1.96435159462E+06	-1.39332579942E+01	-1.70410099080E+02	1.78671115514E+01	1.64351910521E+02	-4.04544230309E+01	-1.37143793743E+02	-5.97757211750E+00	-7.23548154133E-01
1.98654294922E+06	-1.31393866061E+01	-1.68415555929E+02	1.78568168113E+01	1.64284844091E+02	-4.32500111586E+01	1.03000736741E+02	-5.92145071237E+00	-9.26444657260E-01
2.00873430381E+06	-1.39840214809E+01	-1.71578351742E+02	1.78685171929E+01	1.64031621991E+02	-4.99023884536E+01	-1.01323640358E+01	-6.00005556168E+00	-9.14907992865E-01
2.03092565841E+06	-1.26716016182E+01	-1.78117390596E+02	1.78286898101E+01	1.63896844299E+02	-4.45245918149E+01	-1.61397281029E+02	-5.93166593913E+00	-6.53634355128E-01
2.05311701300E+06	-1.12453203189E+01	-1.78532965723E+02	1.78163152362E+01	1.63599375028E+02	-4.01271150333E+01	-4.96668700783E+01	-6.04603553507E+00	-6.51962202998E-01
2.07530836760E+06	-1.57853606875E+01	1.60000138856E+02	1.78587503058E+01	1.63695483740E+02	-4.63936560140E+01	-3.95054405496E+01	-6.00576487905E+00	-8.83858415858E-01
2.09749972219E+06	-1.16397691616E+01	1.51554985838E+02	1.78174857479E+01	1.63300418447E+02	-4.09757566277E+01	-1.46791225160E+02	-5.96789457904E+00	-6.14022566775E-01
2.11969107679E+06	-1.53639824084E+01	1.77695653219E+02	1.78882025092E+01	1.63170866462E+02	-4.05690470338E+01	-3.30886068540E+01	-6.02432303456E+00	-9.50375915937E-01
2.14188243138E+06	-1.51425069595E+01	-1.77925557392E+02	1.78768435320E+01	1.62945527779E+02	-3.84680269643E+01	-1.17666461980E+02	-5.98918745524E+00	-6.07692256924E-01
2.16407378598E+06	-1.41656092162E+01	-1.60410670874E+02	1.78676496307E+01	1.62578464816E+02	-4.36180722169E+01	-6.19282703229E+00	-6.02984563137E+00	-9.88949341654E-01
2.18626514057E+06	-1.22578865283E+01	-1.74125734954E+02	1.78399445732E+01	1.62377212818E+02	-4.24565095869E+01	-1.16044590240E+01	-6.05368974873E+00	-9.09493179039E-01
2.20845649517E+06	-1.26652076000E+01	-1.66596926720E+02	1.78573618530E+01	1.62237999288E+02	-5.97362368097E+01	-1.59433578661E+02	-6.01178733448E+00	-1.19478449523E+00
2.23064784976E+06	-1.24216718035E+01	1.70077781129E+02	1.78445478659E+01	1.61997805744E+02	-6.31887165511E+01	7.26532779738E+01	-5.99242865884E+00	-9.53964629511E-01
2.25283920436E+06	-1.35033975244E+01	1.75778743462E+02	1.78429462862E+01	1.61909259731E+02	-4.19563792911E+01	-1.11920579830E+02	-5.98908873106E+00	-6.29988595242E-01
2.27503055895E+06	-1.78844581528E+01	-1.64896967239E+02	1.78973076151E+01	1.61860464566E+02	-4.02062808305E+01	-1.25879784014E+02	-5.97065053928E+00	-5.86398575262E-01
2.29722191355E+06	-1.30611534512E+01	-1.57189288702E+02	1.78667204461E+01	1.61323760665E+02	-3.60423268660E+01	-7.96959198216E+01	-6.03871563860E+00	-7.05303075906E-01
2.31941326814E+06	-1.44277387388E+01	1.71677581538E+02	1.78728234813E+01	1.61552091350E+02	-4.79753572975E+01	-1.12995642550E+02	-5.99198301864E+00	-8.29896862404E-01
2.34160462274E+06	-1.31495045734E+01	-1.63133973355E+02	1.78591018628E+01	1.61039879598E+02	-4.87189363999E+01	9.19547304117E+01	-6.01862980960E+00	-1.15677411066E+00
2.36379597733E+06	-1.75118445542E+01	-1.77869046090E+02	1.78762875268E+01	1.61101330800E+02	-4.37413112387E+01	-1.44342584949E+02	-5.96589951625E+00	-7.85240130114E-01
2.38598733193E+06	-1.51957225474E+01	-1.72571759764E+02	1.78612896940E+01	1.60841325394E+02	-4.81559292889E+01	1.31160356238E+01	-6.03000147831E+00	-1.15787618671E+00
2.40817868652E+06	-1.84134673658E+01	-1.74048037471E+02	1.78828628637E+01	1.60879131858E+02	-4.36121273926E+01	-1.10301506155E+02	-5.98505527702E+00	-8.90574633865E-01
2.43037004112E+06	-1.43431239383E+01	-1.60261684000E+02	1.78578990017E+01	1.60312159309E+02	-4.38580448851E+01	-1.22677295733E+02	-6.00093332441E+00	-1.01389135350E+00
2.45256139571E+06	-1.31746129552E+01	1.76383556113E+02	1.78101079614E+01	1.60353366147E+02	-3.51657892809E+01	-7.73381924200E+01	-6.04838415376E+00	-6.88389880555E-01
2.47475275031E+06	-1.51120320823E+01	-1.77524822784E+02	1.78552397360E+01	1.60166733005E+02	-5.03803753898E+01	7.05529298207E+01	-5.99228505414E+00	-1.14869591512E+00
2.49694410490E+06	-1.37538100724E+01	-1.56272778015E+02	1.78664265682E+01	1.59714722591E+02	-4.14498433350E+01	2.04563524266E+01	-6.04876513048E+00	-1.44750544709E+00
2.51913545950E+06	-1.53445150976E+01	1.71134821772E+02	1.78439241398E+01	1.59800891724E+02	-4.49536974792E+01	6.53954470316E+01	-6.00272273548E+00	-1.30179772997E+00
2.54132681409E+06	-8.82883669331E+00	-1.66455561172E+02	1.77925420204E+01	1.59024122206E+02	-4.97524388832E+01	9.10800219354E+01	-5.98659981718E+00	-1.31825308125E+00
2.56351816869E+06	-2.75172025700E+01	-1.53507927123E+02	1.78782818684E+01	1.59576520001E+02	-4.96803379472E+01	9.34561288576E+01	-5.98478431635E+00	-1.21816465024E+00
2.58570952328E+06	-1.25594023532E+01	-1.74106279763E+02	1.78080717976E+01	1.59142980677E+02	-5.01146579708E+01	5.59087010702E+00	-6.03283097139E+00	-1.09780882201E+00
2.60790087788E+06	-1.54402820027E+01	-1.78731099528E+02	1.78538558670E+01	1.58982757162E+02	-3.78507551731E+01	-1.10948357086E+02	-5.99031272557E+00	-3.63764482147E-01
2.63009223247E+06	-1.40642662396E+01	-1.79591057328E+02	1.78240817588E+01	1.58766942844E+02	-4.93917154003E+01	1.76804639388E+02	-5.97410752799E+00	-5.92001118200E-01
2.65228358707E+06	-1.37434249052E+01	-1.49242775834E+02	1.78649033456E+01	1.58508851927E+02	-4.26590207323E+01	4.06873958281E+01	-6.02661693195E+00	-1.60231341702E+00
2.67447494166E+06	-1.23685018480E+01	-1.76576742759E+02	1.78218361577E+01	1.58238836296E+02	-4.36932239297E+01	-3.48123862163E+01	-6.04686390706E+00	-1.18945097643E+00
2.69666629626E+06	-1.01557401394E+01	-1.77735116255E+02	1.78147718823E+01	1.58019625950E+02	-4.94061771702E+01	-1.58878751729E+02	-5.99130827678E+00	-1.19438452716E+00
2.71885765085E+06	-2.20523157442E+01	1.41443968816E+02	1.78414426437E+01	1.58436685995E+02	-5.20615418199E+01	1.53380520927E+02	-5.98156106289E+00	-1.28446226690E+00
2.74104900545E+06	-1.51135940869E+01	-1.72199607822E+02	1.78525870519E+01	1.57815081188E+02	-4.59053169114E+01	1.49121107817E+02	-5.94345227991E+00	-1.23221110166E+00
2.76324036004E+06	-1.35791533485E+01	-1.72687033806E+02	1.78125286359E+01	1.57652452319E+02	-4.04072633707E+01	1.74496788154E+02	-5.93410700009E+00	-1.25977183736E+00
2.78543171463E+06	-1.21893637599E+01	-1.76750107151E+02	1.78075400831E+01	1.57222412155E+02	-4.53650074465E+01	-1.26779381691E+02	-5.98502116514E+00	-9.76189367631E-01
2.80762306923E+06	-1.44536317860E+01	-1.71826376832E+02	1.78298598036E+01	1.57247747450E+02	-5.22269295177E+01	5.44696214415E+01	-6.01750550326E+00	-1.32173852051E+00
2.82981442382E+06	-1.54679448978E+01	-1.66516683606E+02	1.78360982386E+01	1.57037783171E+02	-4.83208062397E+01	-1.47578723890E+02	-5.97529827465E+00	-1.05300094404E+00
2.85200577842E+06	-1.65861053802E+01	-1.68454797696E+02	1.78581858853E+01	1.56840790800E+02	-6.16615083429E+01	1.83508706327E-01	-5.99944910180E+00	-1.24657420667E+00
2.87419713301E+06	-1.49962314304E+01	1.59788159457E+02	1.78239016574E+01	1.56687539751E+02	-3.98027118591E+01	-1.45219246865E+02	-5.93092232528E+00	-1.14441791762E+00
