# Hz S DB R 50
! CMT, M5065, 19127446, 24.2.4/2
! Date: 11/8/2024 2:54:45 PM
! Data: Format (Calibration Info)
! Freq	S11:dB/Ang(F2)	S21:dB/Ang(F2)	S12:dB/Ang(F2)	S22:dB/Ang(F2)
3.00000000000E+05	-1.34501604103E+01	-1.53628378650E+02	7.70573534641E+00	-1.77729962143E+02	-4.55462529756E+01	-1.07633747010E+02	-6.01314340236E+00	-2.67504279389E-01
3.22191354595E+05	-1.29518467403E+01	1.74948203975E+02	7.65596371219E+00	-1.77953094603E+02	-4.30960513328E+01	-1.73458073152E+02	-5.99022907340E+00	-1.94495597578E-01
3.44382709190E+05	-1.46754756394E+01	-1.58589115300E+02	7.68264573692E+00	-1.78483770879E+02	-3.87301065812E+01	-1.71872418686E+02	-5.99283497065E+00	-2.07666667388E-01
3.66574063785E+05	-1.32844817102E+01	-1.73895857729E+02	7.66281481953E+00	-1.78691221565E+02	-4.51661170351E+01	1.16843696124E+02	-5.98816755692E+00	-3.09439889884E-01
3.88765418380E+05	-1.66890173406E+01	-1.73096740704E+02	7.65686046223E+00	-1.77974958876E+02	-4.77722743950E+01	1.02989315580E+02	-5.99117501401E+00	-2.06554449167E-01
4.10956772975E+05	-1.39381930504E+01	1.73662064389E+02	7.66241079224E+00	-1.78917462503E+02	-4.68350953412E+01	1.00240455938E+02	-6.01040760708E+00	-2.97709993330E-01
4.33148127570E+05	-1.21157883766E+01	-1.69479315876E+02	7.65464009758E+00	-1.79267207880E+02	-4.50071067353E+01	-9.31342452462E+01	-6.00605918067E+00	-3.59971435988E-01
4.55339482165E+05	-1.33240630057E+01	-1.77693914630E+02	7.69894872949E+00	-1.79697880590E+02	-4.65359177010E+01	1.53508561199E+02	-5.99152717810E+00	-3.57994477995E-01
4.77530836760E+05	-1.64340164688E+01	-1.64571113375E+02	7.71199462621E+00	-1.79701741327E+02	-4.37654969970E+01	-4.28049825897E+01	-6.01829174626E+00	-3.56503175995E-01
4.99722191355E+05	-1.43901951409E+01	-1.63737610839E+02	7.64932373744E+00	1.79836472567E+02	-4.56793640402E+01	-5.52723144871E+01	-6.00522056410E+00	-4.16580012427E-01
5.21913545950E+05	-1.20469076892E+01	-1.74909315653E+02	7.68698303584E+00	1.79787450089E+02	-4.16121556842E+01	2.91745339196E+00	-6.01968907876E+00	-2.54144926739E-01
5.44104900545E+05	-1.00111067408E+01	1.77569113315E+02	7.68297906849E+00	1.79851496917E+02	-4.35498253969E+01	1.27515697541E+02	-5.99092420090E+00	-3.29491843135E-01
5.66296255139E+05	-1.66529106291E+01	-1.79662881958E+02	7.71795143836E+00	1.79386501214E+02	-4.35076442309E+01	2.48778079757E+01	-6.01923801282E+00	-4.00870553675E-01
5.88487609734E+05	-1.17064374860E+01	1.77486510549E+02	7.66505428569E+00	1.79307585710E+02	-5.45501905648E+01	-1.71296847036E+01	-6.00813426112E+00	-2.67121229505E-01
6.10678964329E+05	-1.78758401133E+01	-1.79419760918E+02	7.69384637919E+00	1.79150459359E+02	-4.94362328766E+01	-1.28761040754E+02	-6.00339068525E+00	2.00054735009E-01
6.32870318924E+05	-1.25313173967E+01	1.76369476232E+02	7.65265686698E+00	1.79000674598E+02	-3.88510859395E+01	2.08406849925E+01	-6.02916103041E+00	-1.08932026514E-01
6.55061673519E+05	-1.60711608652E+01	-1.71816772689E+02	7.67318191067E+00	1.78933681133E+02	-4.04243746632E+01	-1.77468530055E+02	-5.97792515709E+00	-3.52228926651E-01
6.77253028114E+05	-1.29403901774E+01	-1.75198098356E+02	7.67756015152E+00	1.78625692770E+02	-5.27968595316E+01	-1.11809467447E+02	-5.98627813681E+00	-6.75738286061E-01
6.99444382709E+05	-1.34774523603E+01	1.78078569304E+02	7.67284017420E+00	1.78561641083E+02	-4.82298874759E+01	2.78923281367E+01	-6.00678978079E+00	-4.16859112145E-01
7.21635737304E+05	-1.89369347545E+01	1.58735065786E+02	7.69446241539E+00	1.78581726705E+02	-4.43251585233E+01	-5.48153709457E+01	-6.01717248246E+00	-3.58430595019E-01
7.43827091899E+05	-1.76890547089E+01	-1.62922261754E+02	7.76271076229E+00	1.78446375948E+02	-5.33571042178E+01	-1.33897071090E+02	-6.03127192299E+00	-3.35794835846E-01
7.66018446494E+05	-1.36489842493E+01	1.74138315032E+02	7.70273794529E+00	1.78260043920E+02	-3.95929526242E+01	-1.70265356332E+02	-5.98841830453E+00	-3.43000976523E-01
7.88209801089E+05	-1.24176906469E+01	-1.70957693480E+02	7.69653707481E+00	1.77742130918E+02	-4.08827819146E+01	6.30073262452E+01	-6.01367276744E+00	-4.18065289166E-01
8.10401155684E+05	-1.29840482752E+01	1.78850565935E+02	7.67560545048E+00	1.77874070478E+02	-4.77632777272E+01	6.17912270294E+01	-5.98535408855E+00	-5.57239423242E-01
8.32592510279E+05	-1.18316188897E+01	1.67023861921E+02	7.65892564895E+00	1.77813370448E+02	-4.34230248380E+01	1.26343454499E+02	-6.00220279098E+00	-4.72533622685E-01
8.54783864874E+05	-1.55181728981E+01	-1.70109305595E+02	7.71123347871E+00	1.77630260778E+02	-4.76360231469E+01	-9.71060003180E+01	-6.00556033310E+00	-4.94334521901E-01
8.76975219469E+05	-1.12128856704E+01	1.70040356227E+02	7.67011050366E+00	1.77512047439E+02	-5.35313334964E+01	6.73267522464E+01	-6.00164657834E+00	-3.72459824932E-01
8.99166574064E+05	-1.21774100102E+01	1.67268998486E+02	7.65280195510E+00	1.77591935213E+02	-4.89336705021E+01	7.81223424206E+01	-6.01482620141E+00	-3.32213022834E-01
9.21357928659E+05	-1.55224824355E+01	-1.72414854897E+02	7.66899359056E+00	1.77321393428E+02	-4.86651221017E+01	-9.97148879669E+01	-5.99502220110E+00	-2.48776703492E-01
9.43549283254E+05	-1.44452132342E+01	-1.67084565162E+02	7.69800408698E+00	1.76981566335E+02	-4.55453528743E+01	-1.25833352133E+01	-5.99772829440E+00	-5.43118375777E-01
9.65740637849E+05	-1.68577691779E+01	1.78352422662E+02	7.70650384840E+00	1.77124223814E+02	-4.21347168496E+01	-1.52372141496E+02	-5.98145466248E+00	-3.56409604684E-01
9.87931992444E+05	-1.43258140272E+01	-1.56140821910E+02	7.68635971039E+00	1.76837139212E+02	-4.92866159077E+01	1.20835720537E+02	-6.00306090290E+00	-3.88843108577E-01
1.01012334704E+06	-1.40000494576E+01	-1.79293099495E+02	7.68867723065E+00	1.76943295949E+02	-4.53646544263E+01	5.86169816537E+00	-6.01366387070E+00	-4.49663081403E-01
1.03231470163E+06	-1.25126425955E+01	-1.64812318486E+02	7.68433714858E+00	1.76590399597E+02	-3.96613138661E+01	-1.25839226425E+02	-5.99726476633E+00	-3.13708489016E-01
1.05450605623E+06	-1.57404890370E+01	1.60353813859E+02	7.68940971113E+00	1.76681062427E+02	-4.44921128245E+01	-1.29911361588E+02	-5.99518000935E+00	-3.26601257189E-01
1.07669741082E+06	-1.21816459644E+01	-1.73312794031E+02	7.72620099587E+00	1.76578752000E+02	-4.38157985311E+01	-5.76184884207E+00	-5.99488436275E+00	-7.06946902500E-01
1.09888876542E+06	-1.56487359537E+01	-1.71709564510E+02	7.69026097148E+00	1.76356133418E+02	-4.87306313884E+01	-1.58569668211E+02	-6.00193749935E+00	-4.09873864579E-01
1.12108012001E+06	-1.33681492579E+01	-1.78532157385E+02	7.67151275297E+00	1.76202414257E+02	-3.99024679319E+01	-5.28131040950E+00	-5.99976165450E+00	-5.39964222359E-01
1.14327147461E+06	-1.57024724496E+01	-1.57997153510E+02	7.72332368896E+00	1.75966773563E+02	-4.89410284051E+01	-1.03813380148E+02	-6.00985715054E+00	-4.00670423755E-01
1.16546282920E+06	-1.23316584644E+01	-1.74334655524E+02	7.67327379763E+00	1.75806340569E+02	-4.28158883930E+01	-6.38387822196E+01	-6.00867811639E+00	-4.84111038315E-01
1.18765418380E+06	-2.44102284449E+01	1.49022550379E+02	7.74442760601E+00	1.76189202180E+02	-5.58824028220E+01	-9.46869073580E+01	-5.97470585401E+00	-7.23528551005E-01
1.20984553839E+06	-1.25278960640E+01	-1.71331694886E+02	7.70092651536E+00	1.76078301157E+02	-4.12149611422E+01	1.26988279620E+02	-5.96566056654E+00	-8.11752239541E-01
1.23203689299E+06	-1.47001790044E+01	1.73223730051E+02	7.65985409918E+00	1.75808414288E+02	-4.46959480369E+01	-5.06815190755E+01	-6.03000666508E+00	-2.30077294701E-01
1.25422824758E+06	-1.05781280345E+01	-1.73486444705E+02	7.64700468489E+00	1.75565241463E+02	-5.06883768235E+01	-5.92222425903E+01	-6.01306530763E+00	-4.71042548652E-01
1.27641960218E+06	-1.63299642761E+01	1.79485907994E+02	7.72526897196E+00	1.75533211223E+02	-4.25438008961E+01	4.73765440352E+01	-5.99014725367E+00	-7.53137936773E-01
1.29861095677E+06	-1.77968777970E+01	1.55128984186E+02	7.69445537737E+00	1.75546789571E+02	-5.11688995847E+01	7.45355790624E+01	-6.02593509922E+00	-4.66870772903E-01
1.32080231137E+06	-1.55202459858E+01	-1.76996773326E+02	7.70714943036E+00	1.75380170459E+02	-4.98725397663E+01	-8.30279063670E+01	-5.98692107171E+00	-7.30576796388E-01
1.34299366596E+06	-1.38236256958E+01	-1.74061278688E+02	7.70714403525E+00	1.75060212326E+02	-4.63173826296E+01	-1.20456962636E+02	-6.03281248520E+00	-6.67822532580E-01
1.36518502056E+06	-1.90804551513E+01	1.73030221958E+02	7.70879110799E+00	1.75209161512E+02	-4.59283583357E+01	1.61248271799E+01	-6.02649652476E+00	-6.97280606458E-01
1.38737637515E+06	-1.40885932074E+01	-1.69650277209E+02	7.71279209572E+00	1.75130722255E+02	-4.57120098452E+01	8.70326355937E+01	-5.96889857968E+00	-6.85805525881E-01
1.40956772975E+06	-1.46322617359E+01	1.78479248458E+02	7.71575950161E+00	1.74882641576E+02	-4.51786134130E+01	-1.45232311961E+02	-6.00160193644E+00	-4.48363962721E-01
1.43175908434E+06	-1.78302588794E+01	1.78778346982E+02	7.71614518075E+00	1.74620854579E+02	-5.70729813097E+01	1.68803519784E+00	-5.99681408068E+00	-5.47033901074E-01
1.45395043894E+06	-1.38410523845E+01	-1.70013886035E+02	7.70823415343E+00	1.74836326054E+02	-4.34221385550E+01	1.72170572848E+02	-5.98711744630E+00	-5.41777933035E-01
1.47614179353E+06	-1.22052558707E+01	-1.67993320977E+02	7.71307120497E+00	1.74324425851E+02	-4.64276763991E+01	1.06963619996E+01	-5.99419414785E+00	-5.72822851476E-01
1.49833314813E+06	-1.79950817419E+01	-1.42457851179E+02	7.75747673212E+00	1.74606608453E+02	-4.02036878882E+01	5.84642376692E+01	-5.99857500446E+00	-9.36336236191E-01
1.52052450272E+06	-1.21661411989E+01	1.76130018073E+02	7.68037613715E+00	1.74171559350E+02	-4.53685923234E+01	-5.31616655668E+01	-6.00004527233E+00	-5.91930508718E-01
1.54271585732E+06	-1.70136271701E+01	1.71239133755E+02	7.70123874028E+00	1.74554904574E+02	-4.02167266088E+01	6.16720994110E+01	-6.00484318054E+00	-7.85457550094E-01
1.56490721191E+06	-1.33411215418E+01	1.69707875669E+02	7.70574169101E+00	1.74281655293E+02	-3.71763216116E+01	1.79734697259E+02	-5.98278898883E+00	-7.23154773968E-01
1.58709856651E+06	-1.34236821971E+01	-1.79850409320E+02	7.69711921983E+00	1.73939369984E+02	-4.37395757180E+01	9.06506347351E+01	-5.97728418896E+00	-7.24707959018E-01
1.60928992110E+06	-1.30900433024E+01	-1.48417589765E+02	7.73627932485E+00	1.73707303834E+02	-4.22478001090E+01	4.06907922779E+00	-6.01178891350E+00	-8.12484705099E-01
1.63148127570E+06	-1.53777810661E+01	-1.69666256538E+02	7.75720513726E+00	1.73665341417E+02	-4.06948101812E+01	3.62842568477E+01	-5.98535716456E+00	-7.15315121957E-01
1.65367263029E+06	-9.10521302534E+00	1.74204610138E+02	7.63789582927E+00	1.73345942452E+02	-4.19178615072E+01	7.53606534653E+01	-5.99130969089E+00	-8.74835154978E-01
1.67586398489E+06	-1.53269873347E+01	-1.61431275246E+02	7.70423305528E+00	1.73508728213E+02	-4.92474173225E+01	-9.64279669161E+01	-6.01774880528E+00	-6.13476513133E-01
1.69805533948E+06	-1.15271960967E+01	-1.71741412913E+02	7.69307143237E+00	1.73499254496E+02	-4.70628433871E+01	-1.73977703861E+02	-5.99825138744E+00	-6.22637370843E-01
1.72024669408E+06	-1.29882110335E+01	-1.68807458263E+02	7.68359938060E+00	1.73308716771E+02	-3.90871901185E+01	-6.03785730905E+01	-6.01854891567E+00	-6.65308618961E-01
1.74243804867E+06	-1.14229564365E+01	-1.71041139655E+02	7.70133396069E+00	1.73188609881E+02	-4.29589457560E+01	-6.97421348524E+01	-6.01588946575E+00	-6.98114303124E-01
1.76462940327E+06	-1.05933122845E+01	-1.75667233524E+02	7.63862231471E+00	1.72941372557E+02	-4.33680772243E+01	-4.69237830849E+00	-6.03141455178E+00	-6.54685565435E-01
1.78682075786E+06	-1.36438085941E+01	-1.72348324626E+02	7.68929091730E+00	1.73093327680E+02	-5.53628789094E+01	1.59513077480E+02	-5.99901546704E+00	-6.93590725420E-01
1.80901211246E+06	-8.12979075084E+00	1.51941816032E+02	7.57828397828E+00	1.73020533147E+02	-3.99079634576E+01	-6.64904813514E+01	-6.01893038400E+00	-7.58318627156E-01
1.83120346705E+06	-1.20242041458E+01	1.78925655169E+02	7.67412998719E+00	1.72776863421E+02	-4.66943692283E+01	6.47256594564E+01	-5.98733162788E+00	-9.62521038358E-01
1.85339482165E+06	-1.19671125925E+01	-1.77572884617E+02	7.68226288739E+00	1.72646010105E+02	-5.42983651799E+01	-4.19959235318E+01	-5.99932376654E+00	-7.45057126352E-01
1.87558617624E+06	-1.55431981892E+01	1.62272989993E+02	7.71639467481E+00	1.72999537158E+02	-3.89142566079E+01	-9.72912643499E+01	-6.00703919847E+00	-5.92071012423E-01
1.89777753084E+06	-1.44539090317E+01	-1.74225755610E+02	7.71927169454E+00	1.72798693779E+02	-4.31986758572E+01	1.34528881377E+02	-5.98400306919E+00	-8.57915282013E-01
1.91996888543E+06	-1.08905573542E+01	-1.64718580604E+02	7.68874227705E+00	1.72311292466E+02	-4.03198285934E+01	-1.29010902637E+02	-6.00063509736E+00	-5.50834545070E-01
1.94216024003E+06	-1.38530389181E+01	1.79622298619E+02	7.67943198991E+00	1.72752035596E+02	-4.29152573681E+01	-1.08153095203E+02	-6.00467931212E+00	-8.15421509188E-01
1.96435159462E+06	-1.76871925170E+01	-1.31722535871E+02	7.76925636888E+00	1.72278112565E+02	-4.58481193525E+01	-8.83730691269E+01	-6.01151600784E+00	-8.06101524658E-01
1.98654294922E+06	-1.48958183574E+01	-1.74534655493E+02	7.74319415622E+00	1.72295699486E+02	-5.01642800901E+01	-3.62135214775E+01	-6.00334451099E+00	-9.69510429754E-01
2.00873430381E+06	-1.44319708188E+01	1.67306058233E+02	7.71512012142E+00	1.72330979386E+02	-4.70476770545E+01	-1.79473244154E+02	-5.98758817290E+00	-8.08189839856E-01
2.03092565841E+06	-1.18355544833E+01	-1.73273552608E+02	7.68999087404E+00	1.71917100616E+02	-3.58466823518E+01	2.75093744270E+01	-5.99882620554E+00	-9.81655499374E-01
2.05311701300E+06	-1.72692437403E+01	-1.70203356397E+02	7.72991344672E+00	1.72184146539E+02	-4.78793255822E+01	4.50874371994E+01	-5.99300424492E+00	-9.08912769391E-01
2.07530836760E+06	-1.64963080406E+01	-1.75450710375E+02	7.74676361620E+00	1.72229726948E+02	-4.61058484361E+01	6.13874873993E+00	-6.01169093407E+00	-9.55767120347E-01
2.09749972219E+06	-1.27194242430E+01	-1.61783829809E+02	7.71020837039E+00	1.71372569536E+02	-4.19686459309E+01	1.32178555388E+02	-5.97342885587E+00	-8.82644458704E-01
2.11969107679E+06	-1.20840578619E+01	-1.78491989582E+02	7.73081219985E+00	1.71501894031E+02	-5.29528924275E+01	5.91367664025E+01	-6.01314794271E+00	-1.05781625999E+00
2.14188243138E+06	-1.28629500271E+01	1.70849598415E+02	7.69395268960E+00	1.71468508106E+02	-4.19880258242E+01	-1.24658741398E+02	-6.00083656056E+00	-8.28790508438E-01
2.16407378598E+06	-1.50854009610E+01	-1.67075645623E+02	7.72679978817E+00	1.71587413750E+02	-4.08920814249E+01	1.10906422581E+02	-6.01573974673E+00	-1.12745457969E+00
2.18626514057E+06	-1.38293445806E+01	-1.63392980754E+02	7.74296899615E+00	1.71260285000E+02	-3.81571131879E+01	-5.87776856943E+01	-6.02876144275E+00	-8.87653802593E-01
2.20845649517E+06	-1.27707333493E+01	-1.49635019302E+02	7.73882069618E+00	1.71030350811E+02	-3.78842702652E+01	-1.57690413692E-01	-6.00338131977E+00	-1.03369793529E+00
2.23064784976E+06	-1.49658860071E+01	-1.72326599743E+02	7.74157630651E+00	1.71097562790E+02	-4.37784837223E+01	-1.51904641937E+02	-5.99291050426E+00	-8.09449271671E-01
2.25283920436E+06	-1.39357746231E+01	1.58958923627E+02	7.70596478839E+00	1.71413517545E+02	-4.82941887292E+01	1.48541111539E+02	-5.98690076894E+00	-1.03089085918E+00
2.27503055895E+06	-1.29138194086E+01	-1.72672104223E+02	7.69829791079E+00	1.71017657562E+02	-4.84773088129E+01	2.04988175696E+01	-5.99859631559E+00	-1.07382845870E+00
2.29722191355E+06	-9.65584579303E+00	-1.52312502907E+02	7.77500426504E+00	1.70559743712E+02	-4.92402100220E+01	-1.51911377031E+02	-5.99161665101E+00	-8.06880033983E-01
2.31941326814E+06	-1.39023666699E+01	1.74877456244E+02	7.72245978824E+00	1.70920928197E+02	-5.41124459537E+01	1.49184086180E+02	-5.97328360592E+00	-1.05230468231E+00
2.34160462274E+06	-1.15782684622E+01	-1.74324228817E+02	7.71501395478E+00	1.70583499900E+02	-3.26758216257E+01	6.85682732788E+01	-5.95450998585E+00	-1.33813205415E+00
2.36379597733E+06	-1.66298279200E+01	1.68580067370E+02	7.68747029064E+00	1.70906698360E+02	-3.54263068626E+01	1.78925605297E+02	-5.97817906725E+00	-8.50281484519E-01
2.38598733193E+06	-1.41688350619E+01	-1.66257538335E+02	7.74825318148E+00	1.70457930470E+02	-4.62361368664E+01	-1.29349836846E+02	-6.00547691392E+00	-8.78021475067E-01
2.40817868652E+06	-1.35727822290E+01	-1.79060187000E+02	7.74683484092E+00	1.70519749234E+02	-5.71789379781E+01	-1.18833743002E+02	-6.00469627331E+00	-1.09344961213E+00
2.43037004112E+06	-1.39523959241E+01	-1.71057299369E+02	7.74331519649E+00	1.70299505784E+02	-4.51332418742E+01	-7.48348560829E+01	-5.99903097972E+00	-1.43276343531E+00
2.45256139571E+06	-1.35100201342E+01	-1.63318016130E+02	7.74632503135E+00	1.70242785359E+02	-4.90303716141E+01	7.81323901054E+01	-5.99869854367E+00	-9.66968240187E-01
2.47475275031E+06	-1.40720374536E+01	1.79964267236E+02	7.74915346297E+00	1.70416219076E+02	-3.89696824326E+01	7.23283968908E+01	-5.98816379534E+00	-1.14372986872E+00
2.49694410490E+06	-1.73919983780E+01	1.79932397775E+02	7.73646995727E+00	1.70317730978E+02	-4.78477710467E+01	9.21185259323E+00	-5.99147930590E+00	-1.10770565907E+00
2.51913545950E+06	-1.25068463602E+01	-1.75516055827E+02	7.71880761783E+00	1.69859426399E+02	-4.12957393027E+01	-9.38271406868E+01	-6.02310765294E+00	-9.27186988896E-01
2.54132681409E+06	-1.21567811560E+01	-1.65298303617E+02	7.75657315995E+00	1.69805387172E+02	-4.62860659545E+01	1.28765697695E+02	-5.97990998552E+00	-1.18651734422E+00
2.56351816869E+06	-1.66927282484E+01	1.75799109298E+02	7.75244374093E+00	1.69925926396E+02	-4.14466095494E+01	-1.28544507235E+02	-5.99499272030E+00	-9.62161573460E-01
2.58570952328E+06	-1.43298461945E+01	-1.71746731742E+02	7.75006784360E+00	1.69564884530E+02	-4.75984397919E+01	-1.93219088289E+01	-6.01197995015E+00	-9.89513442017E-01
2.60790087788E+06	-8.00564918582E+00	-1.48242130484E+02	7.76582502101E+00	1.68670439374E+02	-3.75117160627E+01	3.74455807102E+01	-6.00877953174E+00	-1.17236200384E+00
2.63009223247E+06	-1.37467246829E+01	-1.58079664997E+02	7.76803749145E+00	1.69419043756E+02	-4.19930911677E+01	-1.05386630588E+02	-6.02183014360E+00	-6.89579727302E-01
2.65228358707E+06	-1.30479313211E+01	-1.69943766097E+02	7.72510274387E+00	1.69248587128E+02	-3.84646388494E+01	4.92107028689E+01	-5.99518739766E+00	-1.43959559490E+00
2.67447494166E+06	-1.40477152767E+01	-1.60251354297E+02	7.73518608924E+00	1.69394656985E+02	-4.12827695929E+01	1.71839144894E+02	-5.99496373599E+00	-1.24460950077E+00
2.69666629626E+06	-1.33904190373E+01	1.68830483641E+02	7.76456798343E+00	1.69463556071E+02	-4.94221005508E+01	-9.22581717215E+01	-5.99663513714E+00	-1.18265768244E+00
2.71885765085E+06	-1.42484020689E+01	-1.78199012311E+02	7.72208287241E+00	1.69043477289E+02	-4.74035383048E+01	-1.17152729227E+02	-5.99241487075E+00	-1.19489892659E+00
2.74104900545E+06	-1.37172943494E+01	-1.60232602480E+02	7.76801594860E+00	1.68773686970E+02	-4.45707249872E+01	1.02817552603E+02	-5.98661343202E+00	-1.35888255771E+00
2.76324036004E+06	-1.39359138801E+01	-1.58443991706E+02	7.76602279826E+00	1.68998941138E+02	-4.87606905985E+01	1.47127590529E+02	-6.00499312936E+00	-1.20856049573E+00
2.78543171463E+06	-1.55182529338E+01	1.73012786974E+02	7.75977123891E+00	1.68923406822E+02	-5.12888601599E+01	-5.78540945607E+01	-6.00970995865E+00	-1.20263068840E+00
2.80762306923E+06	-1.33716275808E+01	1.74543945459E+02	7.73817098731E+00	1.68793915790E+02	-5.16558107756E+01	1.02703626539E+02	-5.99874884045E+00	-1.27149026689E+00
2.82981442382E+06	-1.18578631300E+01	-1.66321652116E+02	7.70368261829E+00	1.68106341575E+02	-3.99030192745E+01	1.57862015792E+02	-5.96292100913E+00	-1.19659561274E+00
2.85200577842E+06	-1.20684419906E+01	1.69012218258E+02	7.73161655362E+00	1.68812758810E+02	-4.27762373918E+01	-1.60116294713E+02	-5.99708620749E+00	-1.21084937694E+00
2.87419713301E+06	-1.45111265449E+01	-1.73999530882E+02	7.76460173739E+00	1.68414424550E+02	-4.77219976123E+01	-2.13603182317E+01	-6.02275234944E+00	-1.19707284197E+00
