# Hz S DB R 50
! CMT, M5065, 19127446, 24.2.4/2
! Date: 11/8/2024 2:57:01 PM
! Data: Format (Calibration Info)
! Freq	S11:dB/Ang(F2)	S21:dB/Ang(F2)	S12:dB/Ang(F2)	S22:dB/Ang(F2)
3.00000000000E+05	-1.41983015656E+01	-1.78679920333E+02	8.47677915045E+00	-1.77423445973E+02	-3.95633759877E+01	-1.23854601644E+02	-5.97700216854E+00	-3.56474154799E-01
3.22191354595E+05	-1.25672709241E+01	1.70139935073E+02	8.47214811421E+00	-1.77932269431E+02	-4.01528118504E+01	-8.87652375100E+01	-6.01050715653E+00	-1.69324514702E-01
3.44382709190E+05	-1.49228750218E+01	1.65657789645E+02	8.48232593883E+00	-1.78455645614E+02	-4.71581729341E+01	5.44104874231E+01	-5.99982623406E+00	-2.89030084238E-01
3.66574063785E+05	-1.42980617373E+01	-1.79467908426E+02	8.48194637908E+00	-1.78756991852E+02	-6.02749457867E+01	-1.11256239182E+01	-6.00230989186E+00	-3.28403100525E-01
3.88765418380E+05	-1.29048960911E+01	1.77875012182E+02	8.27976189718E+00	-1.78417474142E+02	-4.80916448537E+01	-1.63127392331E+02	-5.97019463287E+00	-3.22264281429E-02
4.10956772975E+05	-1.27357570552E+01	-1.57394095958E+02	8.50368554299E+00	-1.79247445350E+02	-4.56851270094E+01	-1.66984372804E+02	-5.99713417672E+00	-3.55702067452E-01
4.33148127570E+05	-1.40702222982E+01	-1.52480072016E+02	8.49164570596E+00	-1.79530979277E+02	-5.73233343983E+01	3.21943697716E+01	-5.98745304027E+00	-7.53299946068E-02
4.55339482165E+05	-1.46293493752E+01	1.71326249447E+02	8.52732763973E+00	-1.79397670994E+02	-4.08359128044E+01	-9.64688532640E+01	-5.99762250696E+00	-2.90164288095E-01
4.77530836760E+05	-1.17770258029E+01	-1.65143680971E+02	8.49528115265E+00	1.79891848442E+02	-4.02813649217E+01	9.28202149797E+01	-5.98793702268E+00	-3.57848943036E-01
4.99722191355E+05	-1.15570838097E+01	-1.60709370553E+02	8.48824364608E+00	1.79590735253E+02	-5.16945358825E+01	-4.25182681525E+01	-5.99679901843E+00	-2.54331555651E-01
5.21913545950E+05	-1.50781038204E+01	-1.59301832522E+02	8.49722829493E+00	1.79626335710E+02	-4.27712082941E+01	7.33465949868E+01	-6.00837468301E+00	-4.61133207226E-01
5.44104900545E+05	-1.30199392515E+01	-1.69776510304E+02	8.46999413402E+00	1.79384003602E+02	-5.12874861226E+01	1.62069064897E+02	-6.00194622430E+00	-3.04438090576E-01
5.66296255139E+05	-1.62579844118E+01	1.73142895666E+02	8.52099973974E+00	1.79419145813E+02	-4.00102032552E+01	3.40903852918E+01	-6.01405731087E+00	-4.34913401500E-01
5.88487609734E+05	-1.30717763092E+01	1.76103167417E+02	8.52702192788E+00	1.79397954840E+02	-4.66906611567E+01	1.61188998604E+02	-5.98527170880E+00	-3.83538284541E-01
6.10678964329E+05	-1.41259387056E+01	-1.70542154117E+02	8.49253582319E+00	1.78970591222E+02	-3.51792245608E+01	1.20057247175E+02	-5.99298762625E+00	-4.19987526675E-03
6.32870318924E+05	-1.51596684538E+01	-1.70868462505E+02	8.51953392446E+00	1.79015894581E+02	-6.15644363949E+01	1.46649415732E+01	-6.02419940089E+00	-3.04810644277E-01
6.55061673519E+05	-1.56439752162E+01	-1.66163695080E+02	8.48852063550E+00	1.78685515278E+02	-4.56312900890E+01	-9.99524514915E+01	-6.00565339301E+00	-1.21322704388E-01
6.77253028114E+05	-1.95498984281E+01	1.65022885841E+02	8.50113267071E+00	1.78624371071E+02	-6.31422249359E+01	1.08532401362E+02	-6.00404887586E+00	-7.22815663759E-01
6.99444382709E+05	-1.55163129869E+01	1.71553191446E+02	8.51333176245E+00	1.78284856957E+02	-4.75814422248E+01	-1.51574466945E+02	-5.99448895443E+00	-2.61549246678E-01
7.21635737304E+05	-1.66443399404E+01	-1.70193715408E+02	8.53060188531E+00	1.78443565707E+02	-4.46836731658E+01	1.44047659107E+02	-5.99743736361E+00	-3.58400519692E-01
7.43827091899E+05	-1.37373256433E+01	-1.72672992455E+02	8.47034712346E+00	1.77971261407E+02	-3.70527941017E+01	-6.06722178136E+01	-6.00446128634E+00	-3.25874389783E-01
7.66018446494E+05	-1.42293084851E+01	1.66082855723E+02	8.50420726093E+00	1.78088803736E+02	-4.08735793058E+01	6.36338802697E+01	-6.00142265094E+00	-3.99689844838E-01
7.88209801089E+05	-1.12276188789E+01	-1.66931103176E+02	8.50288984407E+00	1.77722089410E+02	-3.90950752744E+01	-1.74442468004E+02	-5.95545219669E+00	-4.18307159851E-01
8.10401155684E+05	-1.59281921098E+01	1.47942337195E+02	8.48085099485E+00	1.77986183292E+02	-6.18979018560E+01	-1.50445986257E+02	-5.98712539993E+00	-3.75645059503E-01
8.32592510279E+05	-1.17097387980E+01	-1.70848526480E+02	8.49035976770E+00	1.77706438637E+02	-4.47020160334E+01	-5.49521139341E+01	-6.02213794930E+00	-4.09691120213E-01
8.54783864874E+05	-1.20651860410E+01	-1.76170507170E+02	8.45823858894E+00	1.77439651350E+02	-4.80982572711E+01	-6.09393839545E+01	-6.00438571071E+00	-3.34735346746E-01
8.76975219469E+05	-1.72582577585E+01	-1.75761715600E+02	8.55793396197E+00	1.77414615408E+02	-4.72280569703E+01	-7.95844676921E+01	-6.00755349111E+00	-3.44165810067E-01
8.99166574064E+05	-1.31473094571E+01	1.64071975407E+02	8.45244340037E+00	1.77379744675E+02	-5.28413488167E+01	-9.22637080058E+01	-6.00091389840E+00	-4.31104507055E-01
9.21357928659E+05	-1.60463685419E+01	1.77090148450E+02	8.49900321666E+00	1.77199734113E+02	-5.67929782298E+01	-1.25732822567E+02	-6.00629403348E+00	-4.77737408576E-01
9.43549283254E+05	-1.33872640788E+01	-1.78842797578E+02	8.50478361016E+00	1.76959654523E+02	-4.38738524657E+01	-2.00195224197E+01	-6.00768950802E+00	-3.28213796674E-01
9.65740637849E+05	-1.13377761954E+01	-1.73935590895E+02	8.49397171476E+00	1.76601455335E+02	-4.53304224962E+01	6.18916835224E+01	-6.01943875827E+00	-5.25046269009E-01
9.87931992444E+05	-1.37239265898E+01	-1.69609143844E+02	8.48192203994E+00	1.76544648508E+02	-6.26870116277E+01	7.19780250057E+01	-5.98783588449E+00	-5.69357494479E-01
1.01012334704E+06	-1.63286977769E+01	-1.48383576923E+02	8.52423579696E+00	1.76410233794E+02	-4.47846512562E+01	1.32222017105E+02	-6.00150494068E+00	-5.29993100701E-01
1.03231470163E+06	-1.51286217090E+01	1.71338334660E+02	8.50525339936E+00	1.76677864551E+02	-4.31999821162E+01	1.57234269272E+02	-5.99873061379E+00	-5.13003211379E-01
1.05450605623E+06	-1.69109823765E+01	-1.75451520976E+02	8.52785708996E+00	1.76516809100E+02	-4.57029676026E+01	-1.60376872573E+02	-5.99473503141E+00	-4.97283582438E-01
1.07669741082E+06	-1.41596295925E+01	-1.58198246828E+02	8.52435093992E+00	1.76083399260E+02	-5.07574154498E+01	-1.71673667098E+02	-6.00880697574E+00	-3.81449652049E-01
1.09888876542E+06	-1.40733735271E+01	1.66594359517E+02	8.51422667104E+00	1.76366020604E+02	-3.91654108798E+01	-5.93604029202E+01	-6.01758540246E+00	-4.20233228464E-01
1.12108012001E+06	-1.45721754100E+01	-1.73282275415E+02	8.48376134335E+00	1.76271041560E+02	-5.23478580072E+01	1.53339695000E+02	-6.00955421366E+00	-5.23117390870E-01
1.14327147461E+06	-1.24963162469E+01	-1.65532518729E+02	8.51548341180E+00	1.75586439416E+02	-4.58478251448E+01	-3.62375239195E+01	-6.00619215743E+00	-3.93708721609E-01
1.16546282920E+06	-1.42199459429E+01	-1.68635386654E+02	8.50364063780E+00	1.75729506565E+02	-5.32099617669E+01	1.32349598974E+02	-5.99462449459E+00	-5.39611903402E-01
1.18765418380E+06	-1.22472221440E+01	-1.70776102183E+02	8.45649208922E+00	1.75620345416E+02	-4.84026274364E+01	2.62949808249E+01	-6.00533716447E+00	-7.21198333750E-01
1.20984553839E+06	-1.26652342200E+01	-1.69181769711E+02	8.47955645452E+00	1.75594459219E+02	-5.04188328069E+01	1.41840274938E+02	-5.98551803739E+00	-7.06939569566E-01
1.23203689299E+06	-1.42099967125E+01	1.70240707808E+02	8.47146160279E+00	1.75487982658E+02	-4.45332860525E+01	-7.31151064126E+01	-6.00041515745E+00	-3.13326449478E-01
1.25422824758E+06	-1.40296136774E+01	1.77235912880E+02	8.48086506755E+00	1.75263273906E+02	-4.20122848608E+01	-1.46499345022E+02	-5.99702866904E+00	-5.71696357949E-01
1.27641960218E+06	-1.65852219961E+01	1.76589075804E+02	8.51592346017E+00	1.75109080684E+02	-5.34028017594E+01	1.50581325406E+02	-6.00488054855E+00	-4.64104506049E-01
1.29861095677E+06	-1.77298048237E+01	1.71701874583E+02	8.53282844255E+00	1.75196389784E+02	-4.70726694918E+01	1.08635792803E+02	-5.98600191847E+00	-6.08890698396E-01
1.32080231137E+06	-1.61579447461E+01	-1.57434419067E+02	8.51112266255E+00	1.74958427867E+02	-4.29322349369E+01	1.20999977420E+02	-5.99003430931E+00	-1.13496817140E+00
1.34299366596E+06	-1.16801678303E+01	-1.76054357467E+02	8.48837424500E+00	1.75081660229E+02	-4.18212361661E+01	6.43022418330E+01	-5.99222053738E+00	-7.57035126217E-01
1.36518502056E+06	-1.46559569392E+01	-1.60701237666E+02	8.50961380767E+00	1.74592087983E+02	-5.11329565987E+01	-2.44970807239E+00	-6.00084210966E+00	-6.90046132690E-01
1.38737637515E+06	-1.27037279732E+01	-1.78672540279E+02	8.47508077053E+00	1.74731396859E+02	-5.43631393326E+01	4.99682298184E+01	-6.01301807814E+00	-5.68463238265E-01
1.40956772975E+06	-1.52519491858E+01	1.76612008670E+02	8.48893161590E+00	1.74648196539E+02	-3.89940755370E+01	6.28569809897E+01	-5.99883575881E+00	-6.99382661666E-01
1.43175908434E+06	-1.54540452044E+01	1.68211182251E+02	8.52641940990E+00	1.74689315379E+02	-5.25014011874E+01	-8.66642473996E+00	-6.01402617762E+00	-5.84717281356E-01
1.45395043894E+06	-1.38935819737E+01	1.52697346065E+02	8.49305741613E+00	1.74784376937E+02	-4.89869629252E+01	8.01086639793E+01	-5.98780853637E+00	-7.95535281957E-01
1.47614179353E+06	-1.49185914926E+01	-1.70526066252E+02	8.50631029361E+00	1.74546066059E+02	-4.91096684457E+01	6.32778665086E+01	-5.98555189172E+00	-7.32847381007E-01
1.49833314813E+06	-1.35886150995E+01	-1.70988980714E+02	8.52024335608E+00	1.74323661522E+02	-4.80995106495E+01	8.59955529085E+01	-5.99087821124E+00	-6.60945104759E-01
1.52052450272E+06	-1.71968340881E+01	-1.66393491324E+02	8.51693585495E+00	1.74016846584E+02	-3.70844058195E+01	1.69513463990E+01	-6.00819470812E+00	-7.19513394539E-01
1.54271585732E+06	-1.54192773147E+01	-1.76046607206E+02	8.50032687775E+00	1.73953895183E+02	-3.75540529033E+01	-6.32933626879E+01	-5.99778905414E+00	-4.49939030700E-01
1.56490721191E+06	-1.25013867550E+01	-1.67261596146E+02	8.52057978323E+00	1.73702412528E+02	-5.20695109561E+01	6.67108447071E+01	-5.99266053582E+00	-7.97068566507E-01
1.58709856651E+06	-1.06835410914E+01	1.78822393228E+02	8.47202435623E+00	1.73777742731E+02	-5.43071525472E+01	1.24102191944E+02	-6.00000290423E+00	-7.56941066830E-01
1.60928992110E+06	-1.24746701093E+01	1.74771655213E+02	8.46150469298E+00	1.73536395665E+02	-4.25425882150E+01	-3.14115691301E+00	-6.03445246929E+00	-8.43149887712E-01
1.63148127570E+06	-1.46158942313E+01	-1.77227517123E+02	8.49461577343E+00	1.73543376762E+02	-5.80735216816E+01	1.17694132534E+02	-5.99867582208E+00	-7.77759106670E-01
1.65367263029E+06	-1.45259861986E+01	-1.79493106797E+02	8.50913619080E+00	1.73516510864E+02	-5.64284484250E+01	2.99903480788E+01	-5.99715317646E+00	-7.56248439592E-01
1.67586398489E+06	-1.22111117706E+01	-1.58100832476E+02	8.53351644169E+00	1.73095332632E+02	-4.38664972302E+01	8.47663243325E+01	-5.99461881197E+00	-7.96571123986E-01
1.69805533948E+06	-1.47280321388E+01	-1.39039310081E+02	8.54966001573E+00	1.73131198653E+02	-3.94744816165E+01	-1.15000922174E+02	-5.99384295953E+00	-7.19560822750E-01
1.72024669408E+06	-1.37981102033E+01	1.62071017777E+02	8.50823212999E+00	1.73393305708E+02	-3.98208342974E+01	-2.14543372294E+01	-6.00589053082E+00	-9.46483008494E-01
1.74243804867E+06	-1.27859365457E+01	-1.49025616796E+02	8.52532836658E+00	1.72912654208E+02	-4.93189068591E+01	-1.25054622499E+02	-6.00658849910E+00	-6.70273843935E-01
1.76462940327E+06	-1.17517937491E+01	1.34169003421E+02	8.45701229428E+00	1.73030425889E+02	-4.99778144398E+01	4.79620080438E+01	-5.99775230342E+00	-7.61723032032E-01
1.78682075786E+06	-1.43463763816E+01	-1.74209397125E+02	8.51690319694E+00	1.72868423046E+02	-4.99228769134E+01	-6.73451722926E+01	-6.01420341705E+00	-7.34353964493E-01
1.80901211246E+06	-1.64243762838E+01	1.79335444498E+02	8.50594630172E+00	1.72625976556E+02	-4.80989777185E+01	-1.48308711363E+02	-6.02347844289E+00	-7.63859452185E-01
1.83120346705E+06	-1.37294019889E+01	-1.79743378285E+02	8.50132791287E+00	1.72771748964E+02	-4.75728128754E+01	-9.23208879471E+01	-5.98306269924E+00	-7.51422767587E-01
1.85339482165E+06	-1.54621136711E+01	-1.64502133054E+02	8.55933101854E+00	1.72636339825E+02	-4.17706492990E+01	-3.38722557869E+01	-6.01566298299E+00	-7.97515931398E-01
1.87558617624E+06	-1.45821589125E+01	-1.75156271919E+02	8.52097673396E+00	1.72546446435E+02	-4.36289110938E+01	-7.06229443645E+01	-6.03159648798E+00	-8.16434398684E-01
1.89777753084E+06	-1.29560298214E+01	1.68203575777E+02	8.49307223406E+00	1.72328233074E+02	-3.75223150114E+01	8.17352447241E+01	-5.99055136965E+00	-9.91720833972E-01
1.91996888543E+06	-2.27774460114E+01	-1.44813545160E+02	8.57545381385E+00	1.72277917798E+02	-5.37465384272E+01	8.25303512435E+01	-5.98925846186E+00	-7.39403604119E-01
1.94216024003E+06	-1.44064508282E+01	-1.69107757962E+02	8.49960969654E+00	1.72064841249E+02	-5.04294977215E+01	1.16425202792E+02	-5.97651715800E+00	-9.23883340146E-01
1.96435159462E+06	-1.43307440098E+01	1.55842562264E+02	8.52408622621E+00	1.72564680010E+02	-5.03169199672E+01	3.06490813670E+01	-5.98230816770E+00	-8.84146334328E-01
1.98654294922E+06	-1.18406858047E+01	-1.73571014808E+02	8.51307483496E+00	1.71649268393E+02	-5.45373726774E+01	-1.28330360203E+02	-6.00236874215E+00	-7.38390202805E-01
2.00873430381E+06	-1.66164384835E+01	-1.74700798883E+02	8.53828125663E+00	1.71857480131E+02	-3.94235342399E+01	-1.77706171796E+02	-5.97485193942E+00	-7.96896304901E-01
2.03092565841E+06	-1.24359341686E+01	1.79750056685E+02	8.50769164176E+00	1.71468320384E+02	-4.35501571781E+01	-8.45993780580E+01	-5.99854344711E+00	-8.92068024382E-01
2.05311701300E+06	-1.44949327022E+01	-1.60160918849E+02	8.51961608111E+00	1.71548624135E+02	-4.12526255102E+01	-1.29718703616E+02	-5.99374658287E+00	-7.35889499072E-01
2.07530836760E+06	-6.44100922492E+00	-1.65842518584E+02	8.52554257305E+00	1.70843059850E+02	-4.68616732947E+01	1.60428460696E+02	-5.98460736832E+00	-8.25962589077E-01
2.09749972219E+06	-1.54758333816E+01	-1.58179467679E+02	8.55022000786E+00	1.71328066717E+02	-4.48292725565E+01	-1.26747144377E+02	-5.99483056160E+00	-8.03595012091E-01
2.11969107679E+06	-1.19428509569E+01	-1.75799303920E+02	8.53300600812E+00	1.71097985147E+02	-4.89471328181E+01	-1.33168679744E+02	-5.98297216896E+00	-8.40661884463E-01
2.14188243138E+06	-1.39328454924E+01	-1.76182950345E+02	8.53664284425E+00	1.71164130209E+02	-4.70473285855E+01	-7.90629995927E+01	-5.99687555241E+00	-9.21186659674E-01
2.16407378598E+06	-1.26848939706E+01	1.73830346074E+02	8.50388784033E+00	1.71183421298E+02	-5.24671850287E+01	1.76127150296E+01	-5.98481089725E+00	-9.63927129765E-01
2.18626514057E+06	-1.25520291038E+01	1.78303380541E+02	8.51549125639E+00	1.70977273137E+02	-3.66097040947E+01	2.31689872562E+01	-6.00913727253E+00	-9.98784409864E-01
2.20845649517E+06	-1.43012477549E+01	-1.62449923840E+02	8.56106692633E+00	1.71079472036E+02	-4.78973833602E+01	-8.41822293438E+01	-5.98745915909E+00	-8.60503784542E-01
2.23064784976E+06	-9.33268507674E+00	1.38920515854E+02	8.40608856432E+00	1.71107706789E+02	-4.04576652236E+01	-1.10473377951E+02	-5.99835288773E+00	-6.92773815019E-01
2.25283920436E+06	-1.34801241861E+01	-1.79939624992E+02	8.51508679532E+00	1.70865790546E+02	-5.93664993967E+01	-5.84860110402E+01	-6.00446868711E+00	-8.50064555260E-01
2.27503055895E+06	-1.32237427937E+01	-1.73654257625E+02	8.50726473335E+00	1.70682178030E+02	-4.35463548704E+01	8.04758237005E+01	-6.01192172489E+00	-1.22733336084E+00
2.29722191355E+06	-1.35760595438E+01	-1.67984720215E+02	8.55031074369E+00	1.70551830429E+02	-4.16163556668E+01	1.45785265582E+02	-5.99027149958E+00	-8.51991618421E-01
2.31941326814E+06	-1.31331460651E+01	1.79305989104E+02	8.49200216011E+00	1.70287106260E+02	-4.45761197172E+01	1.25893482416E+02	-5.99770457827E+00	-1.01469344124E+00
2.34160462274E+06	-1.59256468624E+01	-1.68201445334E+02	8.56041814248E+00	1.70233448277E+02	-2.92390477987E+01	-1.07463736755E+02	-6.03090161695E+00	-5.44174769066E-01
2.36379597733E+06	-1.18638684249E+01	-1.32676506546E+02	8.62182052604E+00	1.69926449035E+02	-5.84741381022E+01	-1.68399176914E+02	-5.97298079963E+00	-1.04560359220E+00
2.38598733193E+06	-1.04964788571E+01	-1.61540231923E+02	8.49319966010E+00	1.69752051302E+02	-4.50792139663E+01	-7.54032413871E+01	-6.00424805674E+00	-1.05292768799E+00
2.40817868652E+06	-1.45940932842E+01	-1.63090048387E+02	8.51918298954E+00	1.69889891697E+02	-4.27926232854E+01	1.49433735863E+01	-6.00473964825E+00	-1.29390644893E+00
2.43037004112E+06	-1.28520173589E+01	-1.75939737214E+02	8.55857278074E+00	1.69849367496E+02	-4.90329852542E+01	5.44026424584E+01	-6.00935846547E+00	-1.46610560203E+00
2.45256139571E+06	-1.24205809235E+01	1.79767850878E+02	8.51223053539E+00	1.69774653762E+02	-4.69739684055E+01	-7.47927066007E+01	-6.00836951232E+00	-9.11373849958E-01
2.47475275031E+06	-1.44124901360E+01	-1.79230356143E+02	8.53636555784E+00	1.69567901892E+02	-4.18655729903E+01	1.41075811481E+01	-6.00538205882E+00	-1.22504649586E+00
2.49694410490E+06	-1.52514139848E+01	-1.72904812762E+02	8.54871747651E+00	1.69643229427E+02	-4.04542944133E+01	1.59147434760E+02	-5.98648333029E+00	-1.14192233526E+00
2.51913545950E+06	-1.50585812047E+01	1.78045784349E+02	8.57140791740E+00	1.69471037536E+02	-5.22184602347E+01	3.52188842292E+00	-6.00458040079E+00	-1.04291283574E+00
2.54132681409E+06	-5.51319488409E+00	-1.69700612433E+02	8.49210876449E+00	1.68401783351E+02	-4.22664157263E+01	1.26347473825E+02	-5.99852317752E+00	-1.18984176262E+00
2.56351816869E+06	-1.21668418777E+01	-1.72115743521E+02	8.53751693155E+00	1.69215547421E+02	-5.06805782236E+01	-8.87818059820E+01	-5.99900792799E+00	-1.06976029007E+00
2.58570952328E+06	-1.32556227660E+01	-1.71391589929E+02	8.53422218331E+00	1.69150558950E+02	-4.23032105373E+01	-5.04228550039E+01	-6.04100077926E+00	-1.05670267908E+00
2.60790087788E+06	-1.32273733827E+01	-1.60302606885E+02	8.51803020057E+00	1.68874522893E+02	-4.06924921525E+01	1.01516257415E+01	-6.02268622367E+00	-1.04572917732E+00
2.63009223247E+06	-1.44855854035E+01	-1.68763496922E+02	8.55897890331E+00	1.68892337860E+02	-4.91244186196E+01	-1.57636322285E+02	-5.98959631885E+00	-6.55067458071E-01
2.65228358707E+06	-1.67750015812E+01	-1.57212599204E+02	8.59298697774E+00	1.69033648419E+02	-5.14589741348E+01	-8.41423045632E+01	-5.99501531423E+00	-1.04622740080E+00
2.67447494166E+06	-1.59928514341E+01	-1.73056062348E+02	8.59998112477E+00	1.68968978279E+02	-5.21803670727E+01	4.24672090386E+01	-5.98526796139E+00	-1.13072881939E+00
2.69666629626E+06	-1.01474016281E+01	-1.68086000520E+02	8.55862578771E+00	1.68343784500E+02	-4.65504975697E+01	-6.84441720430E+01	-6.00033081009E+00	-1.08048010037E+00
2.71885765085E+06	-1.20978966776E+01	-1.76806269365E+02	8.53777113026E+00	1.68483160678E+02	-5.34560762682E+01	-1.03991113977E+02	-5.98434356141E+00	-1.20919709596E+00
2.74104900545E+06	-1.69089436730E+01	1.64765175880E+02	8.54563998156E+00	1.68622864812E+02	-4.00118506195E+01	5.33970438456E+01	-6.01109827312E+00	-1.46331056404E+00
2.76324036004E+06	-1.40352333562E+01	-1.57078421279E+02	8.56444856877E+00	1.68198383118E+02	-4.41156822972E+01	-4.75043732397E+01	-6.01119323659E+00	-1.13136501816E+00
2.78543171463E+06	-1.30790190301E+01	-1.64344507075E+02	8.59341627165E+00	1.68250539085E+02	-4.49907104072E+01	1.26274518282E+02	-5.98434459273E+00	-1.19746156324E+00
2.80762306923E+06	-1.15343823003E+01	-1.61126792897E+02	8.55050177996E+00	1.67831646974E+02	-3.91408351912E+01	-7.94602196647E+00	-5.99387272727E+00	-1.38065549534E+00
2.82981442382E+06	-1.55313294068E+01	-1.64705756567E+02	8.60148967698E+00	1.68085617799E+02	-3.97071039801E+01	-9.96000716350E+01	-6.02440927723E+00	-1.00376451105E+00
2.85200577842E+06	-1.26278590251E+01	-1.71623307640E+02	8.59492347012E+00	1.67815939623E+02	-4.37187595899E+01	4.66270835818E+01	-5.98236632497E+00	-1.38292251804E+00
2.87419713301E+06	-1.29167849411E+01	-1.69856704433E+02	8.56663156130E+00	1.67666198797E+02	-4.21723517556E+01	4.21552895719E+01	-5.99398929109E+00	-1.35355008074E+00
