# Hz S DB R 50
! CMT, M5065, 19127446, 24.2.4/2
! Date: 11/8/2024 3:15:19 PM
! Data: Format (Calibration Info)
! Freq	S11:dB/Ang(F2)	S21:dB/Ang(F2)	S12:dB/Ang(F2)	S22:dB/Ang(F2)
3.00000000000E+05	-1.24902931274E+01	-1.72715761849E+02	1.48086303181E+01	-1.77079792278E+02	-4.59626361230E+01	-5.37854553079E+01	-6.00330011274E+00	-2.82208279579E-01
3.22191354595E+05	-1.54192582440E+01	1.71239152277E+02	1.48517648873E+01	-1.77658466893E+02	-4.19305594113E+01	6.48771233288E+01	-6.03718453279E+00	-5.60120793763E-01
3.44382709190E+05	-1.88520944507E+01	1.69537151829E+02	1.48642610325E+01	-1.78009304643E+02	-4.18406419403E+01	-9.68260846425E+01	-5.99070154703E+00	-1.29604322735E-01
3.66574063785E+05	-1.66865007826E+01	1.74076304890E+02	1.49064922485E+01	-1.78445474948E+02	-4.40639660653E+01	1.63804934015E+02	-5.97507316929E+00	-2.62654839423E-01
3.88765418380E+05	-1.30611128115E+01	1.78263170885E+02	1.48501903903E+01	-1.79776222060E+02	-4.24879868118E+01	6.03632694264E+01	-6.01115701286E+00	-6.49517672990E-01
4.10956772975E+05	-1.50881182191E+01	-1.66546078104E+02	1.48525851976E+01	-1.79535026327E+02	-5.09765475529E+01	3.67381595458E+01	-6.01013365414E+00	-2.91216266259E-01
4.33148127570E+05	-1.26395790889E+01	1.79175635445E+02	1.48324708631E+01	-1.79541449817E+02	-5.07959508258E+01	1.21843738937E+02	-5.99854415732E+00	-4.22039094945E-01
4.55339482165E+05	-1.42275017490E+01	-1.77731261425E+02	1.48549311372E+01	-1.79806014062E+02	-4.37027263296E+01	-1.90335247654E+01	-6.01385558066E+00	-3.60561236760E-01
4.77530836760E+05	-1.26980582568E+01	1.68612299968E+02	1.48325002496E+01	1.79998180944E+02	-4.42915711072E+01	-6.11301013736E+01	-6.00550140652E+00	-1.49083901160E-01
4.99722191355E+05	-1.67116049804E+01	-1.56040261807E+02	1.48568914550E+01	1.79534126141E+02	-4.89977109936E+01	1.51318505552E+02	-5.99617727026E+00	-3.48404782945E-01
5.21913545950E+05	-1.33730976426E+01	1.70103253500E+02	1.48447070529E+01	1.79376072591E+02	-4.33199362401E+01	1.33954020145E+02	-5.98383181538E+00	-3.50347690884E-01
5.44104900545E+05	-1.26013719166E+01	1.68921784847E+02	1.48537193820E+01	1.79141915733E+02	-4.45636063975E+01	8.09938086845E+01	-5.99153554943E+00	-4.49368573636E-01
5.66296255139E+05	-1.25679366278E+01	-1.71419253458E+02	1.48552139016E+01	1.78589872362E+02	-5.14050448401E+01	-3.88197279624E+01	-6.00887972131E+00	-1.12891181257E-01
5.88487609734E+05	-1.24138152241E+01	-1.61109386702E+02	1.48508251897E+01	1.78393174302E+02	-3.89399548479E+01	-1.62699971103E+02	-5.97325451715E+00	-3.54400816339E-01
6.10678964329E+05	-1.46887297237E+01	-1.70245531166E+02	1.48350682726E+01	1.78172172681E+02	-4.30062289191E+01	1.35304614195E+02	-5.99317237450E+00	2.31607370358E-02
6.32870318924E+05	-1.32806620373E+01	1.77462270303E+02	1.48145328231E+01	1.78011438146E+02	-4.72048103839E+01	-6.86413456057E+01	-6.00132473012E+00	-7.68881406373E-02
6.55061673519E+05	-1.50116006955E+01	-1.68844751117E+02	1.48604617892E+01	1.77711621803E+02	-4.78054526753E+01	-1.49981250242E+02	-5.98854280611E+00	-2.33062160618E-01
6.77253028114E+05	-1.55248878641E+01	-1.52336870850E+02	1.48649880346E+01	1.77354516458E+02	-4.14572872207E+01	1.02152567468E+02	-5.97934028798E+00	-8.23791047665E-01
6.99444382709E+05	-1.23431599909E+01	-1.55314414145E+02	1.48432596791E+01	1.77253756098E+02	-5.97999261590E+01	-1.41279923755E+02	-6.01445987521E+00	-3.13720800407E-01
7.21635737304E+05	-1.30674384154E+01	1.75067170544E+02	1.48283200207E+01	1.77249213183E+02	-6.12374615928E+01	-1.00881799424E+02	-6.00701022958E+00	-2.13115888997E-01
7.43827091899E+05	-1.51492788262E+01	-1.65585199651E+02	1.48754640709E+01	1.76738674142E+02	-4.58018460029E+01	1.54994821314E+02	-5.99387441964E+00	-5.86781096165E-01
7.66018446494E+05	-1.35417214862E+01	-1.55463562762E+02	1.48455818437E+01	1.76570721220E+02	-4.05645351227E+01	1.01683956085E+02	-5.99741043405E+00	-6.91746095417E-01
7.88209801089E+05	-1.38771881464E+01	-1.74776642741E+02	1.48579420078E+01	1.76583020519E+02	-5.34969262025E+01	-2.52121703266E+01	-6.00284964822E+00	-3.16541128523E-01
8.10401155684E+05	-1.15198892942E+01	1.62936598803E+02	1.48222896964E+01	1.76612639590E+02	-5.79468667533E+01	-1.71081432047E+02	-5.99645233251E+00	-4.66692529919E-01
8.32592510279E+05	-1.56628521943E+01	-1.49601158205E+02	1.48450993967E+01	1.75980051655E+02	-4.58768156621E+01	-8.25068452789E+01	-5.99946257740E+00	-2.61555527111E-01
8.54783864874E+05	-1.23144616214E+01	-1.59098294127E+02	1.48522177153E+01	1.75778900342E+02	-5.62814684729E+01	4.51391856191E+01	-6.00240738406E+00	-5.17933969597E-01
8.76975219469E+05	-1.35015359025E+01	-1.79204295976E+02	1.48566661671E+01	1.75930268523E+02	-4.66335851262E+01	-5.31996517982E+01	-6.04018185470E+00	-2.39615508979E-01
8.99166574064E+05	-1.29934900906E+01	1.75001819540E+02	1.48333168582E+01	1.75783781874E+02	-4.16311827834E+01	-3.14504981972E+01	-6.02580066346E+00	-4.22971855502E-01
9.21357928659E+05	-1.02375577979E+01	-1.75605868299E+02	1.48063857904E+01	1.75249228656E+02	-4.30359982392E+01	-1.36638013728E+02	-5.96945907026E+00	-3.29933079948E-01
9.43549283254E+05	-1.51849066934E+01	-1.72195374804E+02	1.48428397277E+01	1.75183250065E+02	-5.34670254669E+01	-6.07321911033E+01	-5.99118963629E+00	-4.11615402625E-01
9.65740637849E+05	-1.26731366490E+01	1.77160184387E+02	1.48275330393E+01	1.75021929997E+02	-4.61849743366E+01	1.57569896649E+02	-5.99452232743E+00	-4.12748181140E-01
9.87931992444E+05	-1.82693418804E+01	-1.74658441634E+02	1.48572626960E+01	1.74959184416E+02	-4.81337502910E+01	-1.33129323711E+02	-6.00553817122E+00	-2.42935863770E-01
1.01012334704E+06	-1.04442540865E+01	1.76491287588E+02	1.48192360795E+01	1.74629220895E+02	-4.73607161509E+01	6.78379976968E+01	-6.00399630463E+00	-5.32773508673E-01
1.03231470163E+06	-1.34600908971E+01	1.68234057358E+02	1.48272355592E+01	1.74627199933E+02	-4.97773214817E+01	1.65659898270E+02	-5.98462352685E+00	-5.08505722038E-01
1.05450605623E+06	-1.63555052385E+01	1.61298300548E+02	1.48457839940E+01	1.74530242574E+02	-4.33830255811E+01	6.36072696323E+01	-6.02651725692E+00	-6.20522630814E-01
1.07669741082E+06	-1.61348575214E+01	-1.66773536228E+02	1.48112625068E+01	1.74405902731E+02	-4.27104550742E+01	-1.45787612762E+02	-5.98629171146E+00	-3.59726567517E-01
1.09888876542E+06	-1.76556917018E+01	-1.79365737161E+02	1.48409533399E+01	1.74088881992E+02	-4.11652391546E+01	-1.27220761352E+02	-5.96229541986E+00	-4.62033559229E-01
1.12108012001E+06	-1.86574491776E+01	1.75054433382E+02	1.48478239261E+01	1.74031925963E+02	-3.62819569773E+01	-1.73288570527E+02	-5.93959215413E+00	-4.39264440099E-01
1.14327147461E+06	-1.10655763150E+01	-1.78411129696E+02	1.48076856720E+01	1.73478042836E+02	-4.30768458828E+01	8.43784532429E+01	-5.99598858971E+00	-7.07340146314E-01
1.16546282920E+06	-1.36199565911E+01	-1.76135950951E+02	1.48354976253E+01	1.73401658085E+02	-3.82869626522E+01	4.70717844179E+01	-6.01964906934E+00	-8.28587171318E-01
1.18765418380E+06	-1.31764584358E+01	1.59726077351E+02	1.48203482758E+01	1.73499143352E+02	-5.97818698017E+01	-7.12709298574E+01	-6.01068997036E+00	-4.99932340327E-01
1.20984553839E+06	-1.38131829715E+01	-1.70929111531E+02	1.48428305070E+01	1.73118888692E+02	-4.16627105967E+01	-8.40708539527E+01	-5.99239523813E+00	-4.55127641422E-01
1.23203689299E+06	-1.30721029050E+01	-1.70526642331E+02	1.48315485025E+01	1.72984041623E+02	-5.38148834348E+01	1.32707727103E+02	-6.00319841828E+00	-3.76130231737E-01
1.25422824758E+06	-1.52625551642E+01	1.77312439701E+02	1.48335656073E+01	1.72935164307E+02	-5.41190698789E+01	6.94769246374E+01	-6.00143260996E+00	-4.41810629879E-01
1.27641960218E+06	-1.29169586586E+01	-1.69845478637E+02	1.48419726878E+01	1.72564065048E+02	-5.33264169288E+01	-8.15666846054E+01	-6.00953309128E+00	-4.69830547036E-01
1.29861095677E+06	-1.26706801932E+01	-1.77770936139E+02	1.48007505894E+01	1.72645339637E+02	-4.12036239640E+01	-1.00804464000E+02	-5.99497332582E+00	-2.85850251749E-01
1.32080231137E+06	-1.54255417839E+01	-1.68970488869E+02	1.48503874814E+01	1.72311097407E+02	-4.51477054008E+01	-9.67904537291E+01	-6.01500094089E+00	-8.09148806192E-01
1.34299366596E+06	-1.45002109715E+01	-1.79189382910E+02	1.48319546289E+01	1.72241273407E+02	-5.27601380302E+01	-9.09098606488E+01	-6.01377544986E+00	-5.75545338860E-01
1.36518502056E+06	-1.53635054524E+01	1.66990404193E+02	1.48218119397E+01	1.72249039367E+02	-4.41497094472E+01	-7.27021769184E+01	-6.00035385239E+00	-4.40364556207E-01
1.38737637515E+06	-1.49833243545E+01	-1.76664945955E+02	1.48405732306E+01	1.71865275936E+02	-4.20893141279E+01	-4.21103391883E+00	-6.00895427090E+00	-6.80104202082E-01
1.40956772975E+06	-1.41179602570E+01	1.78610577433E+02	1.47970667681E+01	1.71840564773E+02	-3.83935998642E+01	3.60631302106E+01	-6.01099585393E+00	-7.94804364370E-01
1.43175908434E+06	-1.37461030278E+01	-1.49880452187E+02	1.48472964345E+01	1.71582678565E+02	-4.38211464847E+01	7.90650750807E+01	-6.01734396645E+00	-6.85964532849E-01
1.45395043894E+06	-1.29367058686E+01	-1.75821374715E+02	1.48506817391E+01	1.71267241919E+02	-4.43802501781E+01	1.56313489355E+02	-5.98941812221E+00	-6.51969330029E-01
1.47614179353E+06	-1.32973724997E+01	1.76282834958E+02	1.48166731166E+01	1.71392343429E+02	-6.04618784623E+01	-1.72483887627E+02	-5.98954692406E+00	-7.41003995622E-01
1.49833314813E+06	-1.18449899029E+01	-1.77155932260E+02	1.48293209014E+01	1.70943243175E+02	-6.21112484131E+01	-1.77560266174E+02	-5.96636813077E+00	-5.40624066355E-01
1.52052450272E+06	-1.36049719429E+01	1.74245671640E+02	1.48068545252E+01	1.71101174796E+02	-4.60072008848E+01	5.76466622729E+01	-6.00884981970E+00	-7.17996516882E-01
1.54271585732E+06	-1.78900235334E+01	1.77526516527E+02	1.48436032751E+01	1.70873077366E+02	-4.46052853711E+01	-1.75146990718E+01	-6.00624062652E+00	-7.80028473721E-01
1.56490721191E+06	-1.15712671878E+01	-1.70735854415E+02	1.48146844860E+01	1.70581624729E+02	-4.09668903237E+01	4.16742406031E+01	-5.99418660096E+00	-9.45031946992E-01
1.58709856651E+06	-1.43050134652E+01	1.60501459149E+02	1.48283906405E+01	1.70578805983E+02	-5.34775522512E+01	-4.44540361060E+01	-6.00614300127E+00	-7.46724880144E-01
1.60928992110E+06	-1.23523348773E+01	-1.58886336441E+02	1.48215734439E+01	1.70031140214E+02	-4.39894366885E+01	-6.80139044418E+01	-5.99867190220E+00	-5.08213012605E-01
1.63148127570E+06	-1.17445007105E+01	-1.77404264034E+02	1.48001703147E+01	1.70116497123E+02	-4.09347490752E+01	-1.06113011574E+02	-6.02052994945E+00	-6.43268157705E-01
1.65367263029E+06	-1.44686321980E+01	1.61252853400E+02	1.48189861336E+01	1.70229574795E+02	-4.26141579776E+01	-1.40174403080E+01	-6.03534705947E+00	-8.48141238022E-01
1.67586398489E+06	-1.41269393993E+01	-1.60004085923E+02	1.48306815531E+01	1.69719096912E+02	-5.85449732361E+01	1.62911966538E+02	-5.97947807843E+00	-7.64701814203E-01
1.69805533948E+06	-1.63812566954E+01	1.78698197803E+02	1.48233037828E+01	1.69951882220E+02	-4.12100060766E+01	2.15639922391E+00	-6.03861399564E+00	-9.45742233222E-01
1.72024669408E+06	-1.23415003074E+01	-1.69174712651E+02	1.48215626953E+01	1.69372741969E+02	-3.09567444135E+01	5.41338473150E-01	-6.05686198427E+00	-1.09804646582E+00
1.74243804867E+06	-2.04792676613E+01	1.54498864232E+02	1.48234610879E+01	1.69784454535E+02	-4.84990726117E+01	1.24039247223E+01	-5.98842385265E+00	-8.32613178406E-01
1.76462940327E+06	-1.33775637226E+01	1.65277759407E+02	1.48237204835E+01	1.69244460678E+02	-5.64912479992E+01	-1.01823841613E+02	-6.00372610836E+00	-7.65951394333E-01
1.78682075786E+06	-1.31578671863E+01	1.78729946904E+02	1.48018142360E+01	1.69138980012E+02	-4.50835300774E+01	-1.49011126861E+02	-6.00474494972E+00	-6.12984335720E-01
1.80901211246E+06	-1.72919975145E+01	1.74632156489E+02	1.48496089480E+01	1.69045575650E+02	-5.28602446706E+01	1.22660438162E+02	-5.99486625989E+00	-8.63531720909E-01
1.83120346705E+06	-1.82195904467E+01	-1.76471845945E+02	1.48557523853E+01	1.68821309267E+02	-4.95609892823E+01	-1.35583168335E+02	-5.98036159766E+00	-7.89837924152E-01
1.85339482165E+06	-1.19884918352E+01	-1.66695067726E+02	1.48249962946E+01	1.68594835942E+02	-5.71022450301E+01	5.39494902907E+01	-5.99733528504E+00	-8.98809725991E-01
1.87558617624E+06	-1.17274653322E+01	-1.72159923054E+02	1.48280535732E+01	1.68349865225E+02	-4.28149832219E+01	-2.05484394606E+01	-6.03823463746E+00	-8.65763243380E-01
1.89777753084E+06	-1.69762776552E+01	-1.47052701474E+02	1.48446712899E+01	1.68456406325E+02	-4.25036562269E+01	9.66076281502E+01	-5.95611481651E+00	-1.15400714576E+00
1.91996888543E+06	-2.17798296733E+01	-1.74830581718E+02	1.48430925667E+01	1.68578096115E+02	-5.34235666126E+01	-7.82927697672E+01	-6.00124302098E+00	-8.35590415300E-01
1.94216024003E+06	-1.19282139514E+01	-1.64307619054E+02	1.48250097904E+01	1.67817272600E+02	-4.08028231470E+01	1.17406542571E+02	-5.99326137211E+00	-9.51502772489E-01
1.96435159462E+06	-1.28606771047E+01	-1.52048114320E+02	1.48718682219E+01	1.67650939455E+02	-5.69401569092E+01	-6.51371883307E+01	-6.00761452586E+00	-9.67311781534E-01
1.98654294922E+06	-1.26402183697E+01	1.71050233189E+02	1.48172419426E+01	1.67901359585E+02	-5.02330042322E+01	-1.54203033020E+01	-5.99140710578E+00	-9.10785115755E-01
2.00873430381E+06	-1.45685844545E+01	-1.60627898586E+02	1.48467863492E+01	1.67569152248E+02	-4.25691622174E+01	1.60809708486E+02	-5.99759922036E+00	-8.53162070624E-01
2.03092565841E+06	-1.45862184551E+01	-1.53554851643E+02	1.48559106516E+01	1.67435496736E+02	-3.49517579027E+01	8.42511446271E+01	-5.95994715308E+00	-1.28608627379E+00
2.05311701300E+06	-1.08862469719E+01	-1.04875481344E+02	1.49217189885E+01	1.66958889648E+02	-4.59831256409E+01	1.62489510556E+02	-5.97271535046E+00	-8.07113023641E-01
2.07530836760E+06	-9.60943971872E+00	-1.34280348376E+02	1.48843950722E+01	1.66787250574E+02	-4.14329523677E+01	1.47261069138E+02	-5.96473418322E+00	-9.75340634562E-01
2.09749972219E+06	-1.52555681438E+01	1.76989377311E+02	1.48353681143E+01	1.67046098546E+02	-4.46724213302E+01	-4.40036138407E+01	-6.01380840123E+00	-7.94690123924E-01
2.11969107679E+06	-1.39264759690E+01	-1.72582546762E+02	1.48423214983E+01	1.66687445650E+02	-4.48523723112E+01	1.70498001980E+02	-5.98611147420E+00	-9.95187643503E-01
2.14188243138E+06	-1.43759167849E+01	-1.54256824198E+02	1.48585497006E+01	1.66560071009E+02	-5.63791258797E+01	1.61052157179E+02	-6.00282843230E+00	-9.81907027540E-01
2.16407378598E+06	-1.49495342965E+01	-1.77078032291E+02	1.48458845707E+01	1.66645036457E+02	-4.93504623425E+01	-1.06348047894E+02	-5.99417289335E+00	-7.56180208297E-01
2.18626514057E+06	-1.70531341296E+01	-1.61769031382E+02	1.48749080400E+01	1.66453817338E+02	-3.83441292122E+01	3.97264847661E+01	-5.99809567901E+00	-1.22538957416E+00
2.20845649517E+06	-1.21783679135E+01	-1.65050723498E+02	1.48552188424E+01	1.65990187424E+02	-4.61954533459E+01	1.32259025983E+02	-5.96059536711E+00	-9.42950199896E-01
2.23064784976E+06	-9.12004178902E+00	1.71971094754E+02	1.48002766721E+01	1.65928467186E+02	-4.69061846860E+01	1.10930180009E+02	-5.98012041362E+00	-1.18161798340E+00
2.25283920436E+06	-1.68451055479E+01	-1.58475525729E+02	1.48559185164E+01	1.66066073749E+02	-4.80293374016E+01	8.83963760022E+01	-5.96747372828E+00	-1.23727639397E+00
2.27503055895E+06	-1.54378720823E+01	-1.61486997094E+02	1.48321463841E+01	1.65878588071E+02	-4.23655570135E+01	1.50067533432E+02	-5.93868690664E+00	-1.17729425255E+00
2.29722191355E+06	-1.45562761831E+01	-1.62283836785E+02	1.48617715825E+01	1.65610548418E+02	-4.42970120466E+01	-9.94458730281E+01	-6.00088141165E+00	-9.10630646987E-01
2.31941326814E+06	-1.54512155790E+01	1.77623295684E+02	1.48403586879E+01	1.65637229367E+02	-4.50894479676E+01	-1.50947089493E+02	-5.98142506846E+00	-7.52486352399E-01
2.34160462274E+06	-1.23380571139E+01	-1.71883076651E+02	1.48272889475E+01	1.65143753266E+02	-3.31981254659E+01	8.89206551586E+01	-5.94745181433E+00	-1.39305092784E+00
2.36379597733E+06	-1.23431787629E+01	1.71630092352E+02	1.48249661662E+01	1.65386295737E+02	-5.40565906460E+01	-5.96873157089E+01	-6.02330115640E+00	-8.77797989983E-01
2.38598733193E+06	-1.67136469625E+01	1.73494247159E+02	1.48450228433E+01	1.65320168487E+02	-4.74137544771E+01	3.84498828655E+01	-5.99849988721E+00	-1.24395364211E+00
2.40817868652E+06	-1.44861444287E+01	-1.66073513404E+02	1.48537809158E+01	1.64931756104E+02	-5.32782850133E+01	-5.83162409236E+01	-6.03084878264E+00	-1.18589707676E+00
2.43037004112E+06	-1.53553920798E+01	-1.58488845387E+02	1.48789165619E+01	1.64790132354E+02	-4.47873750645E+01	1.57640505334E+02	-5.98857272330E+00	-1.24348704635E+00
2.45256139571E+06	-1.55944314452E+01	1.72331268397E+02	1.48390568722E+01	1.64901253763E+02	-4.23156859606E+01	-1.89884675024E+01	-6.01194288906E+00	-1.06146784685E+00
2.47475275031E+06	-1.43447991864E+01	-1.58689180487E+02	1.48712913165E+01	1.64351197445E+02	-4.77995491469E+01	8.91125574088E+00	-6.02015079470E+00	-9.89317510965E-01
2.49694410490E+06	-1.52415050451E+01	-1.55064582586E+02	1.48862923759E+01	1.64291757721E+02	-4.05653079270E+01	4.39615282277E+01	-6.01777845642E+00	-1.15552656843E+00
2.51913545950E+06	-1.29738348191E+01	-1.58274703876E+02	1.48549062269E+01	1.64052598683E+02	-4.13942868038E+01	1.75950514289E+02	-5.96522977075E+00	-1.17117814138E+00
2.54132681409E+06	-1.08628262570E+01	-1.45541462787E+02	1.48883298573E+01	1.63652355993E+02	-4.89284268655E+01	-3.10737145058E+01	-6.02495865987E+00	-1.10368122282E+00
2.56351816869E+06	-1.37194280106E+01	-1.63976960375E+02	1.48427154097E+01	1.63743374109E+02	-4.71719874944E+01	1.31501646515E+02	-5.99484876209E+00	-1.26256876881E+00
2.58570952328E+06	-1.48875420796E+01	-1.78948620548E+02	1.48281440751E+01	1.64103932658E+02	-5.69688517393E+01	1.42033795417E+02	-6.01017347274E+00	-1.02409440822E+00
2.60790087788E+06	-1.27225806835E+01	-1.60127664390E+02	1.48530414326E+01	1.63463431455E+02	-5.96295445873E+01	-1.26691175155E+02	-5.98547371184E+00	-8.43387447635E-01
2.63009223247E+06	-1.15019907461E+01	-1.66107303656E+02	1.48287141385E+01	1.63151848448E+02	-4.48567751643E+01	1.07877947033E+02	-5.98546419471E+00	-1.05075999646E+00
2.65228358707E+06	-1.52434988716E+01	-1.58351067367E+02	1.48728521370E+01	1.63225612053E+02	-4.44455497321E+01	-1.38627156784E+02	-5.99915171238E+00	-8.65019119479E-01
2.67447494166E+06	-1.54458719293E+01	-1.63018481417E+02	1.48768788987E+01	1.63199595929E+02	-5.19941657386E+01	-5.93501544588E+00	-6.00568950688E+00	-1.35173790047E+00
2.69666629626E+06	-2.57387870074E+01	1.70360425722E+02	1.48645113026E+01	1.63182688201E+02	-5.80247627001E+01	1.70484941880E+02	-5.99548811256E+00	-1.31645402405E+00
2.71885765085E+06	-1.39255053061E+01	-1.70395166390E+02	1.48686245603E+01	1.62792266096E+02	-3.96196459589E+01	1.29646775274E+02	-5.97599447854E+00	-1.22625497696E+00
2.74104900545E+06	-1.40147306177E+01	-1.60884264951E+02	1.48480404985E+01	1.62552117932E+02	-4.97831543337E+01	1.09495948220E+02	-6.00217049706E+00	-1.25774548926E+00
2.76324036004E+06	-1.51064216181E+01	-1.62287542250E+02	1.48610491865E+01	1.62521362723E+02	-4.31130938938E+01	-1.56454229856E+01	-6.04814092655E+00	-1.27522333002E+00
2.78543171463E+06	-1.33927853232E+01	-1.69603036196E+02	1.48630851750E+01	1.62223160845E+02	-6.07146856934E+01	-7.67567988542E+01	-5.99831316507E+00	-1.18211832135E+00
2.80762306923E+06	-1.21005311098E+01	-1.70767149355E+02	1.48482613132E+01	1.62055965328E+02	-4.14520856808E+01	-8.54002309185E+01	-5.98684923410E+00	-1.05387910251E+00
2.82981442382E+06	-1.33793351473E+01	-1.60227942433E+02	1.48887615284E+01	1.62020562049E+02	-4.20018315378E+01	-2.89755614636E+01	-6.04943407107E+00	-1.16921373000E+00
2.85200577842E+06	-1.50818955623E+01	-1.74752600229E+02	1.48735612864E+01	1.61920498516E+02	-3.84106821715E+01	9.92728994053E+00	-6.04612223636E+00	-1.49307042887E+00
2.87419713301E+06	-1.59007258662E+01	-1.48208193509E+02	1.49192440859E+01	1.61747816338E+02	-4.49463963076E+01	-1.22351554433E+02	-5.98532720427E+00	-9.70232924287E-01
