# Hz S DB R 50
! CMT, M5065, 19127446, 24.2.4/2
! Date: 11/8/2024 2:54:13 PM
! Data: Format (Calibration Info)
! Freq	S11:dB/Ang(F2)	S21:dB/Ang(F2)	S12:dB/Ang(F2)	S22:dB/Ang(F2)
3.00000000000E+05	-1.48938577236E+01	-1.30015304484E+02	7.49770913383E+00	-1.77710916900E+02	-4.79550839570E+01	-3.78724907923E+01	-6.00056036626E+00	-2.19484641235E-01
3.22191354595E+05	-1.31021868337E+01	-1.56435853773E+02	7.47541129941E+00	-1.78057108704E+02	-4.60279519421E+01	9.92129366622E+01	-6.00258451022E+00	-2.90120451902E-01
3.44382709190E+05	-1.49110582870E+01	1.77352047701E+02	7.51946084163E+00	-1.78331307882E+02	-4.63778516738E+01	-3.05988499776E+01	-6.01491093977E+00	-2.78207253421E-01
3.66574063785E+05	-1.67204665083E+01	1.48230542826E+02	7.50503826910E+00	-1.78486809589E+02	-4.18764445681E+01	6.00067703238E+00	-6.02899038069E+00	-3.98162834334E-01
3.88765418380E+05	-1.34453871781E+01	-1.74763569866E+02	7.47499101553E+00	-1.78969276359E+02	-4.80423272938E+01	4.47187332590E+01	-6.03257391807E+00	-2.70175463690E-01
4.10956772975E+05	-1.53776555828E+01	-1.61787797326E+02	7.54592697155E+00	-1.79290589347E+02	-4.68308537341E+01	-6.54244850116E+01	-5.98794752795E+00	-2.89618239727E-01
4.33148127570E+05	-1.76159547096E+01	-1.14511223537E+02	7.55679809359E+00	-1.79542095763E+02	-5.28324215866E+01	-8.57998437848E+01	-5.99480218165E+00	-2.22680480603E-01
4.55339482165E+05	-1.70106803366E+01	-1.50953628421E+02	7.55064148909E+00	-1.79492788988E+02	-4.86841924665E+01	-3.36652928792E+01	-6.00195258199E+00	-1.62777979477E-01
4.77530836760E+05	-1.43346277012E+01	-1.78273265686E+02	7.53149563071E+00	-1.79823268735E+02	-5.33724050616E+01	-1.42280003558E+02	-6.00344607590E+00	-1.88678052710E-01
4.99722191355E+05	-1.63065374104E+01	-1.69763146564E+02	7.56306963554E+00	-1.79935118363E+02	-4.27879955262E+01	-4.57444192976E+01	-6.01749928895E+00	-1.83356610357E-02
5.21913545950E+05	-1.84380411446E+01	1.63132622610E+02	7.54457421872E+00	-1.79789113606E+02	-3.91683519806E+01	1.41486165834E+02	-5.97580281865E+00	-3.05716290348E-01
5.44104900545E+05	-1.18185526962E+01	-1.78361242041E+02	7.47896840805E+00	1.79784724426E+02	-4.57590737262E+01	-4.29027832354E+01	-6.00380821374E+00	-3.32894614629E-01
5.66296255139E+05	-1.54094645149E+01	-1.49651013352E+02	7.52468890396E+00	1.79179949128E+02	-5.41876568637E+01	-4.04075899063E+01	-5.99767162054E+00	-2.95155033082E-01
5.88487609734E+05	-1.73958383513E+01	-1.67633840967E+02	7.52477229001E+00	1.79415771980E+02	-4.77353732276E+01	4.68982763237E+01	-5.98501078881E+00	-4.57677233225E-01
6.10678964329E+05	-1.29750171772E+01	-1.78717883761E+02	7.50771200081E+00	1.79104656643E+02	-4.82505531798E+01	-4.07843570639E+01	-5.99103724183E+00	6.71888837460E-02
6.32870318924E+05	-1.25075474767E+01	-1.73107722168E+02	7.49259404805E+00	1.78877922747E+02	-5.48486108935E+01	-1.48572848622E+02	-6.00086198291E+00	-9.72351896747E-02
6.55061673519E+05	-1.48860173517E+01	-1.71591050240E+02	7.50400082931E+00	1.78814786375E+02	-4.61470530124E+01	-1.54078027558E+02	-5.99160949980E+00	-8.67201552236E-02
6.77253028114E+05	-1.24383251447E+01	1.75533965223E+02	7.52169326986E+00	1.78555063351E+02	-4.90365962078E+01	7.84738903442E+01	-5.98057078567E+00	-6.16455105444E-01
6.99444382709E+05	-1.14728841405E+01	-1.52283613442E+02	7.52973070614E+00	1.78518265708E+02	-3.78557387008E+01	1.02023034275E+00	-5.98789371522E+00	-4.91899381378E-01
7.21635737304E+05	-1.28796722352E+01	-1.75903524660E+02	7.47929871702E+00	1.78262185164E+02	-5.15316791028E+01	-1.00291815796E+01	-6.02216728936E+00	-3.99413539819E-01
7.43827091899E+05	-1.22158691507E+01	1.73945823645E+02	7.50219295356E+00	1.78162910147E+02	-4.59133843354E+01	-1.40221758637E+02	-6.00801844064E+00	-3.50348397390E-01
7.66018446494E+05	-1.30143117607E+01	-1.72950231333E+02	7.56247757022E+00	1.78371309692E+02	-4.47325136319E+01	8.89808837556E+01	-6.01164558083E+00	-4.32942051417E-01
7.88209801089E+05	-1.25021401148E+01	-1.79757641173E+02	7.49412477302E+00	1.78153117774E+02	-4.36785592559E+01	1.60928470268E+02	-5.99141100360E+00	-3.36458108609E-01
8.10401155684E+05	-1.12956744092E+01	-1.72166328575E+02	7.49126852660E+00	1.77611032360E+02	-4.98160053357E+01	1.67958699940E+02	-6.00075412903E+00	-3.48143044768E-01
8.32592510279E+05	-1.57824268025E+01	-1.77396866289E+02	7.55416471656E+00	1.77411441798E+02	-3.93174504546E+01	1.02875429325E+02	-5.99719396942E+00	-5.42795811630E-01
8.54783864874E+05	-1.38928500152E+01	1.70778079888E+02	7.54705928058E+00	1.77652179010E+02	-4.62962658965E+01	6.71613992660E+01	-6.00866841262E+00	-5.79252418733E-01
8.76975219469E+05	-1.42678318951E+01	-1.70796485439E+02	7.52479633105E+00	1.77394725335E+02	-4.15065954222E+01	-1.30713204588E+02	-6.00124711862E+00	-3.73972292315E-01
8.99166574064E+05	-1.54281275697E+01	-1.77629462557E+02	7.54264143385E+00	1.77536634864E+02	-4.51544110029E+01	1.39545920016E+02	-6.00848870426E+00	-4.92211455910E-01
9.21357928659E+05	-1.58850631101E+01	1.66601185592E+02	7.52043062125E+00	1.77377690263E+02	-5.97949132004E+01	1.15703700091E+02	-6.00518429679E+00	-3.73952320309E-01
9.43549283254E+05	-1.34714444308E+01	-1.70081392783E+02	7.52407554741E+00	1.77102499150E+02	-4.04398518555E+01	5.84378530705E+01	-6.01095685306E+00	-6.04587228111E-01
9.65740637849E+05	-1.95523448529E+01	-1.59643880145E+02	7.55340240365E+00	1.76988254893E+02	-4.08276009475E+01	-2.94033282451E+01	-6.01323735612E+00	-4.07140408080E-01
9.87931992444E+05	-1.41412167690E+01	1.79661564954E+02	7.51854108896E+00	1.76958200336E+02	-3.75296196375E+01	-3.31930083980E+01	-6.00096405660E+00	-4.51449959388E-01
1.01012334704E+06	-1.32074863343E+01	-1.79138203025E+02	7.51839480445E+00	1.76812184846E+02	-5.01160474014E+01	-1.05832102299E+02	-5.98906497100E+00	-3.56736923599E-01
1.03231470163E+06	-1.15588123227E+01	-1.75028010873E+02	7.45980062801E+00	1.76632799096E+02	-4.09252855055E+01	3.72467035962E+01	-6.00378563115E+00	-5.30320701155E-01
1.05450605623E+06	-1.41080421695E+01	-1.69580436350E+02	7.51446152729E+00	1.76549159408E+02	-3.89572916732E+01	1.35059406604E+02	-5.97358270289E+00	-6.05900793594E-01
1.07669741082E+06	-1.61659064087E+01	-1.74361478421E+02	7.51922532906E+00	1.76485604905E+02	-4.13452978378E+01	1.44261303690E+02	-5.98639876422E+00	-4.69983273358E-01
1.09888876542E+06	-1.47659391807E+01	-1.70737882302E+02	7.45857548266E+00	1.76491486789E+02	-5.28401022977E+01	9.19503491903E+01	-6.00742568530E+00	-4.32811740137E-01
1.12108012001E+06	-1.33233709780E+01	-1.51845983114E+02	7.51879057157E+00	1.76067475791E+02	-4.55322168369E+01	-1.09279935947E+02	-6.00232954480E+00	-4.75008134753E-01
1.14327147461E+06	-1.51397544972E+01	1.77138187628E+02	7.53870870452E+00	1.76299253995E+02	-3.99215496427E+01	-1.73617065973E+01	-5.99866022595E+00	-4.67526281976E-01
1.16546282920E+06	-1.64255222510E+01	-1.70818200426E+02	7.53261934990E+00	1.75953195183E+02	-4.07758962598E+01	1.43749479548E+02	-5.98179345923E+00	-7.02288079220E-01
1.18765418380E+06	-1.42875529110E+01	-1.74783169167E+02	7.51967015711E+00	1.75856608296E+02	-3.92760486992E+01	1.36373446786E+02	-6.00299995391E+00	-7.31646270424E-01
1.20984553839E+06	-1.41152110917E+01	-1.67634007409E+02	7.53798854904E+00	1.75827836216E+02	-4.06680179466E+01	5.10986111240E+00	-6.01167250966E+00	-7.83818988967E-01
1.23203689299E+06	-1.23284264391E+01	1.75882937989E+02	7.49671547178E+00	1.75802111424E+02	-4.82790671914E+01	1.15364956921E+02	-5.99076861507E+00	-4.08283292720E-01
1.25422824758E+06	-1.23008758815E+01	-1.68679769519E+02	7.53071488005E+00	1.75748040519E+02	-4.31630468309E+01	-1.43186010647E+02	-6.01129203615E+00	-5.53654195496E-01
1.27641960218E+06	-1.29292784474E+01	-1.62046925138E+02	7.50403245844E+00	1.75388803801E+02	-4.33356839521E+01	-6.56474290371E+01	-6.01277397411E+00	-2.91534102810E-01
1.29861095677E+06	-1.31279250069E+01	-1.67867312471E+02	7.52718039159E+00	1.75472655491E+02	-5.52998385701E+01	1.51239595068E+02	-5.99467665005E+00	-6.12183051738E-01
1.32080231137E+06	-1.55975033129E+01	-1.78048289218E+02	7.54122690009E+00	1.75484992148E+02	-3.99731911617E+01	-1.18885470751E+02	-5.99138305353E+00	-7.59420932472E-01
1.34299366596E+06	-1.36973379633E+01	-1.67675464168E+02	7.55371247197E+00	1.74946310019E+02	-5.40672366378E+01	-1.53509706673E+02	-6.01033344325E+00	-6.47293159697E-01
1.36518502056E+06	-1.52513089355E+01	-1.76346042719E+02	7.56746269481E+00	1.75487057589E+02	-5.62585607949E+01	1.77484819071E+01	-6.00565478013E+00	-5.62263984463E-01
1.38737637515E+06	-1.45972076035E+01	1.75573120423E+02	7.50070601528E+00	1.75019906176E+02	-4.89966509737E+01	-9.44750401959E+01	-5.98725047125E+00	-5.45681740294E-01
1.40956772975E+06	-1.58068514934E+01	-1.75148883262E+02	7.55253013320E+00	1.74947689056E+02	-4.29538947668E+01	-6.93544492707E+01	-6.00425910221E+00	-6.31780034174E-01
1.43175908434E+06	-1.20621633969E+01	-1.64542252397E+02	7.50811997798E+00	1.74547225950E+02	-4.30930077952E+01	1.50662600507E+02	-5.97278110222E+00	-6.72379604798E-01
1.45395043894E+06	-1.34819241554E+01	-1.68527424530E+02	7.51151531608E+00	1.74683238317E+02	-4.67216728441E+01	6.62746171693E+01	-5.97545599619E+00	-5.72711753124E-01
1.47614179353E+06	-1.46015788280E+01	-1.67478271567E+02	7.53328195385E+00	1.74607008126E+02	-4.50726623256E+01	-9.77898984783E+01	-6.02165421615E+00	-5.48798927491E-01
1.49833314813E+06	-1.74626225084E+01	1.78019471286E+02	7.57560930633E+00	1.74602168221E+02	-3.82240516484E+01	-1.22599232429E+02	-6.01488512748E+00	-3.48707424468E-01
1.52052450272E+06	-2.10757265149E+01	1.55792956538E+02	7.54282151084E+00	1.74695322682E+02	-4.99429201374E+01	-3.87307262497E+01	-5.99967600037E+00	-6.62456196099E-01
1.54271585732E+06	-1.49295593668E+01	1.73540614574E+02	7.49562236275E+00	1.74693063747E+02	-4.22834486117E+01	-1.31198159069E+02	-6.00721680072E+00	-5.73666037990E-01
1.56490721191E+06	-1.32650413933E+01	-1.72595637181E+02	7.51926312372E+00	1.73994213056E+02	-4.72251738634E+01	2.80462250536E+01	-5.99888901397E+00	-5.97722991634E-01
1.58709856651E+06	-1.23754891289E+01	1.79743977935E+02	7.50765585598E+00	1.73842660266E+02	-4.46442636785E+01	1.61922509391E+01	-6.02871207413E+00	-7.19409500390E-01
1.60928992110E+06	-1.71911081264E+01	-1.76576977079E+02	7.54619341956E+00	1.74317930162E+02	-4.85345296369E+01	-7.66883051054E+01	-5.98809747854E+00	-6.57511058339E-01
1.63148127570E+06	-1.42926073007E+01	1.79432339481E+02	7.51644434285E+00	1.73977588808E+02	-4.19023218897E+01	4.21510367935E+01	-6.00688376206E+00	-9.64426543164E-01
1.65367263029E+06	-1.35099472440E+01	-1.71467438815E+02	7.51933729031E+00	1.73560865482E+02	-5.28322977822E+01	4.88369146935E+01	-5.98621228620E+00	-8.98304326487E-01
1.67586398489E+06	-1.20878270182E+01	1.75755218461E+02	7.55921496460E+00	1.73652200322E+02	-3.77916928221E+01	-3.99129513230E+01	-6.01570344666E+00	-6.91764234318E-01
1.69805533948E+06	-1.06609839859E+01	1.70806738815E+02	7.49075468336E+00	1.73677649383E+02	-4.34502814062E+01	3.97910241728E+01	-5.98443194044E+00	-8.08310728233E-01
1.72024669408E+06	-1.47722609178E+01	1.79135463763E+02	7.52978010017E+00	1.73589615777E+02	-4.58340441652E+01	-1.65147869748E+02	-6.00121148284E+00	-7.38410236405E-01
1.74243804867E+06	-1.63702650173E+01	1.69792063341E+02	7.52876296599E+00	1.73935886883E+02	-4.33046911205E+01	5.59762620563E+01	-5.99747964872E+00	-8.72104137147E-01
1.76462940327E+06	-1.46890775959E+01	-1.67353740165E+02	7.52953335060E+00	1.73340426464E+02	-5.11032889571E+01	1.83747788082E+01	-6.01132916756E+00	-8.08580079779E-01
1.78682075786E+06	-1.53714993843E+01	-1.63797652880E+02	7.56088626474E+00	1.73277919140E+02	-3.80485909119E+01	-6.98235763197E+01	-6.01685342113E+00	-7.89839768936E-01
1.80901211246E+06	-1.37690333965E+01	-1.69429135799E+02	7.51968120951E+00	1.72798638128E+02	-4.06131627416E+01	1.03163320773E+02	-6.00295409766E+00	-9.56551921927E-01
1.83120346705E+06	-1.26798736051E+01	-1.56684127946E+02	7.56629267331E+00	1.72756303136E+02	-4.25932864873E+01	8.10226420616E+01	-6.00657962682E+00	-7.89842911827E-01
1.85339482165E+06	-8.54371216098E+00	-1.38335679908E+02	7.58776435030E+00	1.72634061456E+02	-4.32095609349E+01	2.42467059296E+01	-6.03525768070E+00	-1.00312858639E+00
1.87558617624E+06	-1.57524712640E+01	-1.68354806413E+02	7.52534394471E+00	1.72888756575E+02	-4.53319412129E+01	-7.73099535016E+01	-6.01823042133E+00	-7.64131931552E-01
1.89777753084E+06	-1.39625961379E+01	-1.62888115181E+02	7.58860080891E+00	1.72618467706E+02	-5.45271302793E+01	-9.77755553095E+00	-5.99749311995E+00	-7.46320652049E-01
1.91996888543E+06	-1.09549714324E+01	-1.65332678118E+02	7.53358208513E+00	1.72343460662E+02	-4.28249701659E+01	-3.28059688667E+01	-6.01323632962E+00	-8.64337024472E-01
1.94216024003E+06	-1.49277826792E+01	-1.69059760818E+02	7.53303360576E+00	1.72320067293E+02	-3.86352688866E+01	1.52065095836E+02	-5.98948597421E+00	-7.43161224761E-01
1.96435159462E+06	-1.70278315714E+01	-1.72685884442E+02	7.53987509647E+00	1.72480194056E+02	-4.18856450938E+01	-1.47564225321E+01	-6.01870519030E+00	-8.04833521887E-01
1.98654294922E+06	-1.40246390048E+01	-1.53315404659E+02	7.59755926685E+00	1.72364852266E+02	-4.93419760177E+01	-1.44655612205E+01	-5.99183236437E+00	-8.25841207093E-01
2.00873430381E+06	-1.16490118978E+01	-1.56578209546E+02	7.56667780066E+00	1.72232729706E+02	-4.52755428039E+01	-1.03765557280E+02	-5.99881171634E+00	-8.23732078122E-01
2.03092565841E+06	-1.52153646447E+01	1.62085023350E+02	7.56320296424E+00	1.72523126756E+02	-5.38945040930E+01	8.62501998712E+01	-5.97579802625E+00	-8.85433679509E-01
2.05311701300E+06	-2.13558476810E+01	-1.73962084544E+02	7.53463270488E+00	1.72395826732E+02	-5.60268453222E+01	2.37259237021E+01	-6.00198967242E+00	-1.12883412334E+00
2.07530836760E+06	-1.52279711177E+01	-1.74863221863E+02	7.52253635650E+00	1.71844591639E+02	-4.42305773735E+01	-6.25384820916E+01	-6.02458368842E+00	-7.02024468889E-01
2.09749972219E+06	-1.42082961955E+01	-1.65072282286E+02	7.57182225934E+00	1.71943808437E+02	-3.53219964450E+01	1.73619184032E+02	-5.96790057302E+00	-5.59535099987E-01
2.11969107679E+06	-1.28174063883E+01	-1.74731684606E+02	7.53869725448E+00	1.71559862478E+02	-4.87896656716E+01	1.72347466991E+02	-5.98693878893E+00	-7.93227301794E-01
2.14188243138E+06	-1.26311513882E+01	-1.77050851623E+02	7.50871120238E+00	1.71647481628E+02	-4.34610202993E+01	-1.92217356221E+01	-6.01140331382E+00	-9.49736887835E-01
2.16407378598E+06	-5.19618519881E+00	-1.20155155724E+02	7.71823848162E+00	1.70923976505E+02	-4.77527837149E+01	7.11044257569E+01	-5.99720161135E+00	-1.07211593278E+00
2.18626514057E+06	-1.26617976234E+01	1.79276745279E+02	7.53186109861E+00	1.71363039418E+02	-4.30975337062E+01	-1.56434558518E+02	-5.97952173461E+00	-8.50981146023E-01
2.20845649517E+06	-1.34538359688E+01	-1.68558468057E+02	7.55397820515E+00	1.71454374169E+02	-4.72095130900E+01	-3.32743066493E+00	-6.01692218577E+00	-9.33177607522E-01
2.23064784976E+06	-1.34700504957E+01	-1.71405797873E+02	7.55942253039E+00	1.71353124373E+02	-4.58371001688E+01	-1.09564854254E+02	-5.99260618045E+00	-9.26142838202E-01
2.25283920436E+06	-1.47906915649E+01	-1.71338604299E+02	7.57745078548E+00	1.71160168598E+02	-5.16876150801E+01	-4.04815537359E+01	-5.98525290396E+00	-1.18262861376E+00
2.27503055895E+06	-1.57604167764E+01	-1.60976594614E+02	7.55788139262E+00	1.71230091916E+02	-3.83993075207E+01	1.60349469381E+02	-5.97263939558E+00	-1.06410259514E+00
2.29722191355E+06	-1.65265286278E+01	-1.73316461828E+02	7.57338459990E+00	1.70816506192E+02	-4.00263493692E+01	6.12481663085E+01	-6.01761691140E+00	-1.16851840333E+00
2.31941326814E+06	-1.07827836960E+01	1.66167883597E+02	7.54070530795E+00	1.70902464550E+02	-4.87803032951E+01	5.83980854093E+00	-5.99533108142E+00	-1.01883220166E+00
2.34160462274E+06	-2.00517724235E+01	-1.76861120620E+02	7.61033265835E+00	1.70880106718E+02	-4.13144694764E+01	9.09489329127E+01	-5.96444297706E+00	-1.21051644391E+00
2.36379597733E+06	-1.53300751174E+01	-1.70919607595E+02	7.57945166472E+00	1.70648092140E+02	-4.49776088926E+01	-1.47654504846E+02	-5.98544895032E+00	-9.92709367484E-01
2.38598733193E+06	-1.77977520488E+01	-1.58612720559E+02	7.58612787310E+00	1.70660298743E+02	-4.44647447869E+01	1.43891994656E+02	-6.00730656835E+00	-1.18868563001E+00
2.40817868652E+06	-1.43997180810E+01	1.72762178652E+02	7.52731435917E+00	1.70672036332E+02	-3.79341428765E+01	7.90637572035E+01	-5.97845692664E+00	-1.25596966812E+00
2.43037004112E+06	-1.25046834444E+01	-1.50505985856E+02	7.59816179956E+00	1.70305724712E+02	-4.81324023912E+01	-7.68689325744E+01	-6.01721725216E+00	-1.32797682119E+00
2.45256139571E+06	-1.38522843203E+01	-1.64345512855E+02	7.56755978426E+00	1.70253555046E+02	-4.22499488763E+01	-1.19746556154E+02	-6.01118923385E+00	-1.01214050088E+00
2.47475275031E+06	-1.28867182363E+01	-1.68637697410E+02	7.58784900996E+00	1.70297333606E+02	-5.34882607898E+01	1.38300480413E+02	-5.98341936913E+00	-1.13482509699E+00
2.49694410490E+06	-1.41382538676E+01	-1.65865075919E+02	7.55163469624E+00	1.70435231618E+02	-4.86828154414E+01	9.67940923056E+01	-5.97727239123E+00	-1.08272606591E+00
2.51913545950E+06	-1.30608683277E+01	-1.76442057259E+02	7.55600144677E+00	1.70134965636E+02	-4.26005299270E+01	1.33997167174E+02	-5.98774252709E+00	-1.16031869891E+00
2.54132681409E+06	-1.53334344567E+01	-1.79746681589E+02	7.60645457999E+00	1.69956054141E+02	-4.83819552993E+01	2.17511621538E+01	-6.01611273096E+00	-1.26551868118E+00
2.56351816869E+06	-1.76167402044E+01	1.79210189035E+02	7.57725196312E+00	1.70195567299E+02	-3.23384944202E+01	1.26914157926E+02	-5.94816583531E+00	-1.07659615318E+00
2.58570952328E+06	-1.72740388163E+01	-1.77145269578E+02	7.58881464058E+00	1.69738264584E+02	-3.75438218898E+01	8.87744468940E+01	-5.97852839930E+00	-1.18224826757E+00
2.60790087788E+06	-1.45591019105E+01	-1.62604432069E+02	7.57637786924E+00	1.69613827630E+02	-4.91822838020E+01	1.28469824751E+02	-5.98267263904E+00	-9.91954481295E-01
2.63009223247E+06	-1.08965792836E+01	-1.76770793994E+02	7.56253002150E+00	1.69395659320E+02	-4.88634239354E+01	-8.25440056711E+01	-6.02420288884E+00	-7.16117528792E-01
2.65228358707E+06	-1.37210913042E+01	-1.36733989542E+02	7.59915116657E+00	1.69357744932E+02	-6.87229728963E+01	-8.14478737483E+01	-5.99656418991E+00	-1.22840945295E+00
2.67447494166E+06	-1.48027436483E+01	-1.76269356507E+02	7.53968707969E+00	1.69383324873E+02	-4.20430373922E+01	1.65599998676E+01	-6.01213995767E+00	-1.13160381927E+00
2.69666629626E+06	-1.31796670466E+01	-1.66272204943E+02	7.52869463458E+00	1.69253622573E+02	-5.13418170675E+01	-1.03954006458E+02	-6.00874381306E+00	-1.10330572482E+00
2.71885765085E+06	-1.31294653260E+01	-1.60126292781E+02	7.61637890564E+00	1.68904051245E+02	-4.71116798643E+01	-5.16506622078E+01	-5.98590437442E+00	-1.12494098230E+00
2.74104900545E+06	-1.42804185309E+01	-1.59253561529E+02	7.60212028309E+00	1.69196019024E+02	-4.05611805157E+01	-1.76539441625E+02	-5.98240910895E+00	-9.38090584483E-01
2.76324036004E+06	-1.58354910717E+01	-1.55114635930E+02	7.59048642871E+00	1.68934503880E+02	-4.11946474571E+01	-4.54989855382E+01	-6.03615239873E+00	-1.03506137131E+00
2.78543171463E+06	-1.52713716057E+01	-1.53606551265E+02	7.59566173243E+00	1.68598328989E+02	-4.36591929348E+01	4.31743348619E+01	-6.01276744232E+00	-1.26159854292E+00
2.80762306923E+06	-1.35704916842E+01	-1.72690514055E+02	7.57539285673E+00	1.68768092853E+02	-5.32329914823E+01	1.01094406674E+01	-5.99857915822E+00	-1.41009336843E+00
2.82981442382E+06	-1.26874377758E+01	1.79688371866E+02	7.60837067493E+00	1.68640099697E+02	-5.18862370804E+01	1.68415478445E+02	-5.96863029591E+00	-1.39253271662E+00
2.85200577842E+06	-1.47250050390E+01	-1.59699658590E+02	7.59969687562E+00	1.68572170926E+02	-4.52029080248E+01	-1.13942675808E+02	-5.99084519902E+00	-1.23476202127E+00
2.87419713301E+06	-1.24324337748E+01	-1.63966615175E+02	7.55481707124E+00	1.68392252790E+02	-4.41198566696E+01	9.87793133277E+01	-5.97801333492E+00	-1.25044897307E+00
