# Hz S DB R 50
! CMT, M5065, 19127446, 24.2.4/2
! Date: 11/8/2024 2:55:55 PM
! Data: Format (Calibration Info)
! Freq	S11:dB/Ang(F2)	S21:dB/Ang(F2)	S12:dB/Ang(F2)	S22:dB/Ang(F2)
3.00000000000E+05	-1.40685308621E+01	1.75703655661E+02	8.04664942209E+00	-1.77463288391E+02	-4.61778175810E+01	-4.07275701392E+01	-5.97958023359E+00	-2.16402009440E-01
3.22191354595E+05	-1.08759409495E+01	1.77985582462E+02	8.06249780116E+00	-1.77943405835E+02	-4.67579117813E+01	1.00134809571E+02	-5.98723809266E+00	-3.00907149931E-01
3.44382709190E+05	-1.01398799742E+01	1.65360200497E+02	8.04838718070E+00	-1.78208143408E+02	-4.17281702862E+01	-1.38180927645E+01	-6.00125362023E+00	-2.48267944706E-01
3.66574063785E+05	-1.29540752808E+01	-1.63080460470E+02	8.10390773275E+00	-1.78750383572E+02	-4.68427052222E+01	-6.41292741117E+01	-5.99915894138E+00	-1.32449930031E-01
3.88765418380E+05	-1.18671142593E+01	-1.75958566387E+02	8.10985607512E+00	-1.78746805406E+02	-4.53795973789E+01	1.41203484422E+02	-5.99153645641E+00	-3.37053307921E-01
4.10956772975E+05	-1.36227588965E+01	-1.72238640642E+02	8.10144962642E+00	-1.79209946430E+02	-4.23595459952E+01	3.80406679147E+01	-5.98748828960E+00	-3.93904854604E-01
4.33148127570E+05	-1.08948580167E+01	1.61264334578E+02	8.06781956342E+00	-1.79093862197E+02	-5.23350556907E+01	-2.59230159493E+01	-6.00190756776E+00	-3.02732813242E-01
4.55339482165E+05	-1.68106887299E+01	-1.59194010654E+02	8.10624171945E+00	-1.79726001023E+02	-6.33029173489E+01	5.98883146193E+01	-6.00741305145E+00	-3.53247265318E-01
4.77530836760E+05	-1.64511771390E+01	-1.74755513312E+02	8.12098803226E+00	-1.79737530459E+02	-4.58232907584E+01	-9.24021017044E+01	-6.00757130784E+00	-3.28978321725E-01
4.99722191355E+05	-9.80869012994E+00	-1.75227783335E+02	8.07545963171E+00	-1.79952699964E+02	-4.52500557565E+01	7.27775447064E+01	-5.99463384319E+00	-2.92971342879E-01
5.21913545950E+05	-1.49548992719E+01	1.76406640308E+02	8.12493615733E+00	1.79882666479E+02	-5.83897873027E+01	-9.33319943708E+01	-5.97703991145E+00	-2.24471707183E-01
5.44104900545E+05	-1.43775729753E+01	-1.74845651976E+02	8.11586970843E+00	1.79716543213E+02	-4.78320536091E+01	6.34537558059E+01	-6.00395385777E+00	-2.27914424065E-01
5.66296255139E+05	-1.61346195633E+01	1.48424132614E+02	8.14711809059E+00	1.79631431117E+02	-4.11444538446E+01	-4.95604784302E+00	-5.99200840750E+00	-2.98428573595E-01
5.88487609734E+05	-1.03443149489E+01	-1.68330428884E+02	8.07743182292E+00	1.79100235062E+02	-4.74972719163E+01	1.58984981821E+02	-6.00063156246E+00	-3.44494349232E-01
6.10678964329E+05	-1.01546981933E+01	-1.78136321126E+02	8.06643655677E+00	1.79238479773E+02	-4.91517670650E+01	-1.71543234352E+02	-5.99737050200E+00	5.59903962267E-02
6.32870318924E+05	-1.48208496553E+01	-1.47422455060E+02	8.15341945181E+00	1.78546055355E+02	-5.33024838156E+01	-1.27972741739E+02	-5.97368468222E+00	-1.19852942675E-01
6.55061673519E+05	-1.04094618178E+01	-1.50505536748E+02	8.09161994427E+00	1.78518097399E+02	-3.34497582374E+01	-1.16454448595E+01	-6.03273750390E+00	-2.22233498293E-01
6.77253028114E+05	-1.32738097706E+01	-1.62773517389E+02	8.13231271243E+00	1.78484223757E+02	-4.52021604977E+01	-1.62085687146E+02	-5.99589678217E+00	-5.88227794714E-01
6.99444382709E+05	-1.30394739325E+01	1.69301422483E+02	8.11318339763E+00	1.78534373236E+02	-4.61728671599E+01	1.48948709948E+02	-5.97196452031E+00	-4.75059603045E-01
7.21635737304E+05	-1.35512746972E+01	-1.44952153441E+02	8.12641078501E+00	1.77968824807E+02	-4.67256455822E+01	-1.74829906216E+02	-6.00575379776E+00	-3.33191823255E-01
7.43827091899E+05	-1.51650904742E+01	-1.69671706057E+02	8.13985692705E+00	1.78243388145E+02	-4.61920044336E+01	8.30153226731E+01	-5.98877963579E+00	-4.66753747558E-01
7.66018446494E+05	-1.50625996524E+01	1.67064854624E+02	8.12311422707E+00	1.78292863378E+02	-3.92175815861E+01	-1.59037052107E+02	-5.98780215649E+00	-3.08121301815E-01
7.88209801089E+05	-1.33728288926E+01	-1.71215226891E+02	8.12454435469E+00	1.77777112171E+02	-4.35931386856E+01	6.11127009938E+01	-5.99964386231E+00	-4.55790607143E-01
8.10401155684E+05	-9.81900271525E+00	-1.78801917349E+02	8.09991030703E+00	1.77866575109E+02	-3.59330511039E+01	6.88616428344E+01	-5.99641887114E+00	-6.21851927036E-01
8.32592510279E+05	-1.27483188151E+01	1.72211142862E+02	8.09429745205E+00	1.77717797246E+02	-4.57988226695E+01	1.17928329549E+02	-6.01288904217E+00	-3.62788559598E-01
8.54783864874E+05	-1.37806805651E+01	1.73983284482E+02	8.11747770227E+00	1.77651925328E+02	-4.17960190578E+01	-3.69642211720E+01	-6.01140192502E+00	-3.76416966059E-01
8.76975219469E+05	-1.31756007645E+01	-1.73057714545E+02	8.11506289686E+00	1.77489753913E+02	-4.45217522410E+01	1.72621344321E+02	-5.99231742444E+00	-3.11806610609E-01
8.99166574064E+05	-1.63425156626E+01	1.75276727731E+02	8.12760178593E+00	1.77520421594E+02	-4.92291286120E+01	-9.41024153125E+01	-6.00870143779E+00	-3.66125763518E-01
9.21357928659E+05	-1.13990641383E+01	1.77367297979E+02	8.14126354287E+00	1.77214810439E+02	-5.12370047279E+01	-1.43213895258E+02	-5.99319351220E+00	-2.86955933233E-01
9.43549283254E+05	-1.23442571945E+01	-1.64259580425E+02	8.10498472238E+00	1.77090203678E+02	-4.92058761330E+01	1.16390606683E+02	-5.98791002564E+00	-3.69448614427E-01
9.65740637849E+05	-1.46283452018E+01	1.78228244402E+02	8.12314553822E+00	1.76830717700E+02	-4.63249083279E+01	5.69701363968E+01	-6.00963379382E+00	-6.48326331318E-01
9.87931992444E+05	-1.64338537229E+01	-1.55334459434E+02	8.14781118975E+00	1.76854550760E+02	-5.17342424408E+01	4.29463931194E+01	-6.01426845590E+00	-5.70395459286E-01
1.01012334704E+06	-1.73771054347E+01	1.48655671942E+02	8.12822874288E+00	1.76911585308E+02	-5.16903551001E+01	-7.47724872017E+01	-5.99943986442E+00	-4.48234308894E-01
1.03231470163E+06	-1.99761872388E+01	-1.66153971485E+02	8.15256673965E+00	1.76668455122E+02	-4.06534586346E+01	-8.83552464197E+01	-6.01785212140E+00	-3.01502190648E-01
1.05450605623E+06	-1.25678984171E+01	-1.79483880818E+02	8.11990461064E+00	1.76265192217E+02	-4.25020538866E+01	-1.32694561644E+02	-6.00746303851E+00	-3.73093803377E-01
1.07669741082E+06	-1.40715578761E+01	-1.70025290878E+02	8.08789332773E+00	1.76249773680E+02	-4.31287411010E+01	-9.15018874849E+01	-5.98972331914E+00	-3.67443845448E-01
1.09888876542E+06	-1.25925995357E+01	-1.72806586948E+02	8.10590565210E+00	1.76233381070E+02	-4.48960796053E+01	-1.50572723468E+02	-5.96279071686E+00	-4.33035256064E-01
1.12108012001E+06	-1.24534761774E+01	-1.63041554849E+02	8.11084479859E+00	1.76294932592E+02	-4.85223542061E+01	1.36064470717E+02	-5.98246118241E+00	-4.31087360805E-01
1.14327147461E+06	-1.21822682921E+01	1.71722509414E+02	8.11095172649E+00	1.75911842458E+02	-4.32449646561E+01	-6.98228478290E+01	-6.00236143767E+00	-3.37252049228E-01
1.16546282920E+06	-1.09260429021E+01	-1.70314011031E+02	8.07536498689E+00	1.75776583081E+02	-4.08651440679E+01	-8.80401219148E+01	-6.00037361360E+00	-3.75577447205E-01
1.18765418380E+06	-1.27000819881E+01	-1.69580094203E+02	8.11965269877E+00	1.75721324588E+02	-4.75278242669E+01	-6.45194028419E+01	-6.01859500900E+00	-3.80907610970E-01
1.20984553839E+06	-1.17012270391E+01	1.57394336918E+02	8.08644383562E+00	1.75930066258E+02	-4.80296201129E+01	5.10000232732E+01	-5.99736610316E+00	-7.29044592754E-01
1.23203689299E+06	-1.38891837809E+01	-1.64313099872E+02	8.12116048479E+00	1.75720320250E+02	-4.17993633820E+01	-8.86433438366E+00	-6.03179565298E+00	-2.73274669988E-01
1.25422824758E+06	-1.22164994602E+01	-1.75147521538E+02	8.11956866032E+00	1.75491825183E+02	-4.29544935580E+01	-7.98678733498E+00	-6.00873398364E+00	-5.93816728187E-01
1.27641960218E+06	-1.75302434108E+01	-1.70699004323E+02	8.15578034790E+00	1.75436409329E+02	-5.32699323112E+01	-7.96553390285E+01	-5.98225294709E+00	-5.65392864827E-01
1.29861095677E+06	-1.18847833450E+01	1.75283952234E+02	8.09359580718E+00	1.75190630988E+02	-4.19216969742E+01	-1.32142985616E+02	-6.00145855732E+00	-4.11987443986E-01
1.32080231137E+06	-1.56189077263E+01	-1.73126095822E+02	8.15836130675E+00	1.75352925051E+02	-5.05885213997E+01	-1.91598016420E+01	-6.00505726940E+00	-8.68454966736E-01
1.34299366596E+06	-1.62554356068E+01	1.51221712401E+02	8.12915401748E+00	1.75311401368E+02	-4.31708115022E+01	-1.22108279721E+02	-5.97539841439E+00	-6.06423801587E-01
1.36518502056E+06	-1.45160871191E+01	-1.77862489246E+02	8.12034384222E+00	1.74962585344E+02	-4.34201934331E+01	-1.20312096584E+02	-6.00062842897E+00	-5.39520349640E-01
1.38737637515E+06	-1.48219751617E+01	-1.62083458271E+02	8.12960622828E+00	1.74781553039E+02	-4.03417126265E+01	-1.29718081958E+02	-5.99173828700E+00	-5.93150808760E-01
1.40956772975E+06	-1.43810171253E+01	-1.79101192906E+02	8.11701458409E+00	1.74756333334E+02	-4.71506086121E+01	-1.71671772985E+01	-6.02064127792E+00	-6.24061625612E-01
1.43175908434E+06	-1.20097402718E+01	1.48602520178E+02	8.08473765258E+00	1.75126541427E+02	-3.80297894968E+01	-3.97922373678E+01	-6.03754768295E+00	-5.65318579460E-01
1.45395043894E+06	-2.21649789009E+01	1.79405985047E+02	8.15930927666E+00	1.74696102747E+02	-4.39571904383E+01	1.12878376544E+02	-5.98534820998E+00	-6.85741862872E-01
1.47614179353E+06	-1.74845164393E+01	-1.61815593375E+02	8.14502231067E+00	1.74629934747E+02	-6.09200334825E+01	-6.98927559847E+01	-5.99560012235E+00	-6.68392536284E-01
1.49833314813E+06	-1.20134870118E+01	-1.62973747211E+02	8.13694650317E+00	1.74131743527E+02	-4.04766395180E+01	1.61232610473E+02	-5.97514392591E+00	-6.51596003642E-01
1.52052450272E+06	-1.29684909534E+01	1.77570433448E+02	8.13520854418E+00	1.74166848726E+02	-5.56325425072E+01	-1.34425567768E+02	-6.00121418381E+00	-5.66126548010E-01
1.54271585732E+06	-1.49359760513E+01	-1.59020964464E+02	8.13972783957E+00	1.74122360857E+02	-4.06226632547E+01	6.03338601543E+01	-6.00202501922E+00	-8.60958986204E-01
1.56490721191E+06	-1.44084824620E+01	-1.79801470396E+02	8.14698791866E+00	1.74163918008E+02	-4.09692142259E+01	6.33050911552E+01	-5.99270000525E+00	-8.19368176923E-01
1.58709856651E+06	-1.58325880087E+01	-1.49363323354E+02	8.16889420574E+00	1.73853311115E+02	-4.07168671818E+01	-1.20485205682E+02	-5.98139586768E+00	-7.51107025294E-01
1.60928992110E+06	-1.25727838833E+01	-1.47114350632E+02	8.15216115397E+00	1.73749947070E+02	-4.45793527500E+01	-6.32057170913E+01	-6.02135386300E+00	-6.86613527679E-01
1.63148127570E+06	-1.43114219444E+01	-1.54380352619E+02	8.13341079110E+00	1.73610390117E+02	-4.67119744823E+01	1.36145910470E+02	-6.01597048946E+00	-7.44469276673E-01
1.65367263029E+06	-1.36109521179E+01	-1.75764719767E+02	8.15649233868E+00	1.73621604736E+02	-5.26383932617E+01	-4.23590583092E+01	-5.99985432505E+00	-8.72703052031E-01
1.67586398489E+06	-1.59019333996E+01	-1.57789705040E+02	8.19498742880E+00	1.73507317966E+02	-4.06523274572E+01	1.20695912406E+01	-6.01710852962E+00	-7.44901177381E-01
1.69805533948E+06	-1.47254516737E+01	1.74420212694E+02	8.12201813712E+00	1.73406622751E+02	-4.54615272121E+01	-3.73751095500E+01	-6.00886476850E+00	-6.30923726455E-01
1.72024669408E+06	-1.37614648091E+01	1.74636216134E+02	8.12565669157E+00	1.73323400387E+02	-5.66346518624E+01	1.48717033779E+02	-5.98564089673E+00	-6.85628223803E-01
1.74243804867E+06	-1.76341971420E+01	-1.70858758124E+02	8.16613762099E+00	1.73395578045E+02	-4.45554678054E+01	-1.00948088164E+02	-6.00056233019E+00	-6.57014409691E-01
1.76462940327E+06	-1.99228242390E+01	-1.67849437690E+02	8.15304988240E+00	1.73643592455E+02	-4.65514471803E+01	8.51020044306E+01	-6.00574657470E+00	-8.71292846145E-01
1.78682075786E+06	-1.33607813644E+01	-1.73662019046E+02	8.13302707885E+00	1.73042239548E+02	-4.43362003544E+01	1.53644918242E+02	-5.97450559252E+00	-8.36103306524E-01
1.80901211246E+06	-1.02988952014E+01	-1.68189969627E+02	8.11303605701E+00	1.72679539006E+02	-5.67146610060E+01	-1.17880528084E+02	-6.00224720622E+00	-7.70454718270E-01
1.83120346705E+06	-1.34817729851E+01	1.72686614094E+02	8.14400570293E+00	1.73152533825E+02	-4.29313361085E+01	-1.56225924853E+02	-5.97697635110E+00	-7.76984132600E-01
1.85339482165E+06	-1.25985901487E+01	1.75633131368E+02	8.12079257810E+00	1.72601489016E+02	-5.13875822777E+01	-1.18463161584E+02	-5.98043841283E+00	-7.67696443637E-01
1.87558617624E+06	-1.46544722942E+01	-1.76347915240E+02	8.13295906205E+00	1.72587880821E+02	-5.04222500130E+01	-6.38790296528E+01	-6.00431025311E+00	-7.23991125497E-01
1.89777753084E+06	-1.38644525462E+01	-1.60244316604E+02	8.16846499433E+00	1.72508840342E+02	-5.76831386389E+01	6.38033981209E+01	-6.00056330111E+00	-9.61413967266E-01
1.91996888543E+06	-1.52300817924E+01	-1.66521715644E+02	8.18931484256E+00	1.72348652938E+02	-4.69538073020E+01	-4.43921915644E+01	-6.00366103408E+00	-7.99037007558E-01
1.94216024003E+06	-1.35837359906E+01	1.73251564556E+02	8.11887500099E+00	1.72423863056E+02	-4.80770166913E+01	1.70471594952E+02	-5.97704946991E+00	-8.65294904714E-01
1.96435159462E+06	-1.35890245378E+01	1.73530129553E+02	8.13463004278E+00	1.72190803172E+02	-4.84189934350E+01	1.63068670602E+02	-5.98210052429E+00	-9.16142449869E-01
1.98654294922E+06	-1.43808162958E+01	1.59693457401E+02	8.11332275684E+00	1.72266607102E+02	-4.20881078869E+01	-1.33070839262E+02	-5.99032693445E+00	-8.11699813779E-01
2.00873430381E+06	-1.29222865727E+01	1.56980242011E+02	8.10788799755E+00	1.72031273085E+02	-4.83699091404E+01	4.75308510617E+01	-5.96771762711E+00	-8.94398561688E-01
2.03092565841E+06	-1.38482974418E+01	-1.64051162538E+02	8.14369486114E+00	1.71620030601E+02	-4.83767404074E+01	2.58636386346E+01	-6.00947641285E+00	-7.80125146686E-01
2.05311701300E+06	-1.17762435127E+01	1.74519025428E+02	8.09493919276E+00	1.71785768106E+02	-3.51690051397E+01	-8.64793243647E+01	-6.04034625904E+00	-7.33987685254E-01
2.07530836760E+06	-1.21314527933E+01	1.78649577747E+02	8.16657854949E+00	1.71686151065E+02	-3.50733486588E+01	-1.77288593308E+02	-6.00289574253E+00	-5.84488033004E-01
2.09749972219E+06	-1.33570119860E+01	-1.72891734054E+02	8.12625065357E+00	1.71570675309E+02	-4.22395363732E+01	-1.52870985294E+02	-5.99508263015E+00	-8.38476073269E-01
2.11969107679E+06	-1.43641619661E+01	-1.70453178925E+02	8.17455621343E+00	1.71758065975E+02	-5.12191717067E+01	1.30013467921E+02	-5.96591419154E+00	-8.64150319787E-01
2.14188243138E+06	-1.30409223193E+01	-1.74550481045E+02	8.12109904462E+00	1.71268564789E+02	-4.18162212346E+01	-1.23142329194E+02	-5.99388806193E+00	-8.39056890356E-01
2.16407378598E+06	-1.41223107112E+01	-1.60300412916E+02	8.15278486686E+00	1.71147776238E+02	-4.82942368852E+01	4.91028982663E+00	-6.02070665615E+00	-1.07077018835E+00
2.18626514057E+06	-1.35886653529E+01	1.75973563783E+02	8.14765967477E+00	1.71442114995E+02	-5.77949188620E+01	1.16879359513E+02	-6.00580545696E+00	-1.06998605213E+00
2.20845649517E+06	-1.49889439565E+01	-1.78229804034E+02	8.17925746044E+00	1.71032723260E+02	-3.65881874163E+01	-1.67186623113E+02	-5.98361800512E+00	-9.39463210873E-01
2.23064784976E+06	-7.81595746943E+00	-1.52572186591E+02	8.21117871428E+00	1.70431641829E+02	-3.20061815259E+01	5.48627939933E+01	-5.97236829484E+00	-1.37735781198E+00
2.25283920436E+06	-1.33370974607E+01	-1.48501000334E+02	8.12690814462E+00	1.70719135865E+02	-5.13545972219E+01	1.02246309437E+02	-6.00849770303E+00	-1.04875538836E+00
2.27503055895E+06	-1.33798719548E+01	-1.67617095252E+02	8.14112609827E+00	1.70765063247E+02	-5.10254821919E+01	-6.50171303016E+01	-6.00035615548E+00	-1.07673793205E+00
2.29722191355E+06	-1.33221147199E+01	-1.56503732505E+02	8.21949173211E+00	1.70628755723E+02	-4.24000422159E+01	-6.66021650244E+01	-6.00290169958E+00	-8.95779042212E-01
2.31941326814E+06	-1.22853063046E+01	-1.64962005751E+02	8.14034994522E+00	1.70441592527E+02	-4.54623521806E+01	3.03165669679E+01	-6.00412993251E+00	-9.79152964842E-01
2.34160462274E+06	-1.37287164415E+01	-1.74294884456E+02	8.17375216041E+00	1.70407105985E+02	-4.96712697873E+01	-1.40910343100E+02	-6.00303241702E+00	-9.77514314736E-01
2.36379597733E+06	-1.30500287012E+01	-1.72968762533E+02	8.13113159215E+00	1.70594315736E+02	-4.45784432715E+01	2.84760674030E+01	-6.01645408708E+00	-9.77392614762E-01
2.38598733193E+06	-1.65311620552E+01	1.58326782076E+02	8.13011564840E+00	1.70729790283E+02	-3.06843943339E+01	-1.17515400255E+02	-6.03568450460E+00	-6.37766170250E-01
2.40817868652E+06	-1.48027443011E+01	1.72393506524E+02	8.16147185464E+00	1.70581968980E+02	-4.60269043273E+01	1.47882649000E+02	-5.97437582499E+00	-1.16302817814E+00
2.43037004112E+06	-1.33852815313E+01	1.79372726530E+02	8.15202339274E+00	1.70156689301E+02	-3.63617480840E+01	4.95781791790E+01	-5.99687597716E+00	-1.68838134735E+00
2.45256139571E+06	-1.37144722303E+01	-1.75648159548E+02	8.14207823374E+00	1.70115242226E+02	-4.71582034012E+01	1.71888937612E+02	-5.99130433956E+00	-1.03530839391E+00
2.47475275031E+06	-1.38583909727E+01	-1.71375154746E+02	8.17187670289E+00	1.69739746298E+02	-4.65985491737E+01	-8.09445265676E+01	-6.02127999197E+00	-1.04198298496E+00
2.49694410490E+06	-1.27007363258E+01	1.66510302793E+02	8.14602059267E+00	1.69888511765E+02	-5.51673569822E+01	-1.79606293027E+02	-6.00472687411E+00	-9.44410601262E-01
2.51913545950E+06	-1.45188856250E+01	1.76183195401E+02	8.20922567211E+00	1.69506082432E+02	-4.59789097058E+01	-2.46080442322E+00	-6.00515909448E+00	-9.95384811737E-01
2.54132681409E+06	-1.29898033157E+01	-1.74103763795E+02	8.13187789534E+00	1.69336294147E+02	-3.06715445332E+01	-6.00772902577E+01	-6.03543306520E+00	-9.01952617315E-01
2.56351816869E+06	-1.26939061601E+01	-1.67466587071E+02	8.15867336614E+00	1.69700729840E+02	-4.90803678539E+01	-1.23512947368E+01	-6.01073579414E+00	-1.17894109784E+00
2.58570952328E+06	-1.48831862178E+01	-1.76401634198E+02	8.15005412160E+00	1.69294951144E+02	-4.27138070655E+01	-1.46010525877E+02	-5.99902108982E+00	-1.06057958597E+00
2.60790087788E+06	-1.45523704796E+01	1.73719317898E+02	8.15478104264E+00	1.69519319742E+02	-4.53927112968E+01	9.04565136478E+01	-5.99170690675E+00	-1.14120133129E+00
2.63009223247E+06	-1.71749033865E+01	-1.45436535202E+02	8.22933536480E+00	1.69244260542E+02	-5.70744308433E+01	-1.15736834870E+02	-6.01298408369E+00	-7.47109029227E-01
2.65228358707E+06	-1.57813251671E+01	-1.62422398066E+02	8.20056571002E+00	1.69045483884E+02	-4.07897410029E+01	-4.45408007799E+01	-6.01888793621E+00	-1.11120933071E+00
2.67447494166E+06	-1.43564100548E+01	1.73047595161E+02	8.12556105236E+00	1.69207445688E+02	-3.96746166156E+01	7.55215522393E+01	-5.99125681049E+00	-1.44919591725E+00
2.69666629626E+06	-1.28775199475E+01	-1.78065018130E+02	8.15381878328E+00	1.68832115226E+02	-4.18147763358E+01	1.66829936708E+02	-5.98868954316E+00	-1.12712094637E+00
2.71885765085E+06	-1.47459051383E+01	-1.66486002286E+02	8.19683496533E+00	1.68872152880E+02	-4.36468920088E+01	-1.44462173353E+01	-6.02708733246E+00	-1.16454645207E+00
2.74104900545E+06	-1.52176850793E+01	-1.74573498934E+02	8.16959900414E+00	1.68756637438E+02	-4.78569089559E+01	1.04221167997E+02	-5.99033263776E+00	-1.37166024598E+00
2.76324036004E+06	-1.92236455367E+01	1.78814236753E+02	8.23661446727E+00	1.68940036572E+02	-4.86323168176E+01	-1.12711969286E+02	-6.00604043609E+00	-1.09391572312E+00
2.78543171463E+06	-1.40509891977E+01	-1.61100606364E+02	8.20593744368E+00	1.68479624436E+02	-5.44543763561E+01	-1.03445859242E+02	-5.99945988893E+00	-1.20325605226E+00
2.80762306923E+06	-1.61172571449E+01	-1.70856255407E+02	8.20118757720E+00	1.68560585387E+02	-5.72567663265E+01	6.79890517759E+01	-6.00750579379E+00	-1.20642428958E+00
2.82981442382E+06	-1.67842324968E+01	-1.75135215965E+02	8.21134628909E+00	1.68728231516E+02	-3.89131697769E+01	-7.67841819119E+01	-6.02634865234E+00	-1.09260738129E+00
2.85200577842E+06	-1.38456957221E+01	1.77085016480E+02	8.18222323834E+00	1.68321589203E+02	-3.92224328531E+01	8.13547259044E+01	-5.97929960966E+00	-1.41204302951E+00
2.87419713301E+06	-1.77215269111E+01	-1.78145499455E+02	8.21007361213E+00	1.68323195488E+02	-4.79053255006E+01	4.63578606219E+01	-6.01135468680E+00	-1.49381535761E+00
