# Hz S DB R 50
! CMT, M5065, 19127446, 24.2.4/2
! Date: 11/8/2024 3:25:33 PM
! Data: Format (Calibration Info)
! Freq	S11:dB/Ang(F2)	S21:dB/Ang(F2)	S12:dB/Ang(F2)	S22:dB/Ang(F2)
3.00000000000E+05	-1.31784505890E+01	-1.62204572431E+02	2.95018756146E+01	-1.75821034666E+02	-4.60456034689E+01	3.49094057738E+01	-6.08228275487E+00	-9.80227984843E-01
3.22191354595E+05	-1.32789550696E+01	1.79876762205E+02	2.94949209173E+01	-1.77065204388E+02	-4.59413255937E+01	-1.26064044169E+02	-5.92646700416E+00	1.38709455535E-01
3.44382709190E+05	-1.50688451626E+01	-1.68498614687E+02	2.95328523416E+01	-1.78546074468E+02	-4.61993645634E+01	1.63472822819E+02	-5.81989900419E+00	-6.35151581486E-01
3.66574063785E+05	-1.26724225504E+01	-1.77777338727E+02	2.95037940124E+01	-1.79708278656E+02	-4.63231859210E+01	7.54095163062E+00	-6.06394781541E+00	-6.23393111165E-01
3.88765418380E+05	-1.62372891645E+01	-1.60517194093E+02	2.95739848703E+01	1.79015547802E+02	-4.37370337207E+01	1.32266175000E+02	-5.53431323853E+00	-5.29473652874E-01
4.10956772975E+05	-1.39272016755E+01	-1.57690435743E+02	2.95114337843E+01	1.77873802942E+02	-4.38873129740E+01	-1.33747750451E+01	-6.13889665020E+00	-3.22764651546E-01
4.33148127570E+05	-1.62139631579E+01	-1.77833618673E+02	2.95092595824E+01	1.77011392989E+02	-4.90555036135E+01	9.43334543019E+01	-5.98241691976E+00	-8.95985533133E-01
4.55339482165E+05	-1.58781456243E+01	1.65100613992E+02	2.94889497371E+01	1.76101189536E+02	-4.35177522627E+01	1.12227892026E+02	-5.89288305327E+00	-1.39065194143E+00
4.77530836760E+05	-1.21172441208E+01	-1.45769623548E+02	2.94507193429E+01	1.74794887576E+02	-4.32169312917E+01	-1.68528272874E+02	-5.81374817673E+00	-4.24071893688E-01
4.99722191355E+05	-1.21807532609E+01	-1.68956125524E+02	2.94173621191E+01	1.74136574489E+02	-4.69571266742E+01	1.56490422435E+02	-5.94710743309E+00	-7.78530700123E-01
5.21913545950E+05	-1.11410902817E+01	-1.74173636979E+02	2.94089762345E+01	1.73261538455E+02	-4.37482141369E+01	3.29552646959E+01	-6.13229924474E+00	-1.00485639086E+00
5.44104900545E+05	-1.37236710468E+01	-1.78401894763E+02	2.94242962381E+01	1.72544277572E+02	-3.61050092676E+01	-8.70970421644E+01	-5.93946682739E+00	1.42568077260E+00
5.66296255139E+05	-1.20042981124E+01	-1.67288026661E+02	2.93792223267E+01	1.71529051600E+02	-4.95076630388E+01	-6.35521897900E+01	-6.00692775381E+00	5.50728012908E-02
5.88487609734E+05	-1.31617739965E+01	-1.78698248784E+02	2.93976933264E+01	1.70937875294E+02	-4.99389409248E+01	3.68998012432E+01	-6.05471955277E+00	-7.98782940389E-01
6.10678964329E+05	-1.41344907775E+01	-1.71466420037E+02	2.93642780801E+01	1.70010821025E+02	-5.62017380255E+01	5.58792165295E+01	-5.99490345949E+00	-2.27571067774E-01
6.32870318924E+05	-1.17988391239E+01	1.69213703073E+02	2.93431823044E+01	1.69378914430E+02	-4.34649241984E+01	7.28056821644E+01	-6.04835689782E+00	-1.30645578133E+00
6.55061673519E+05	-1.37715199808E+01	1.71651370124E+02	2.93279312460E+01	1.68703949092E+02	-5.05325887895E+01	8.43445776911E+01	-5.98708792433E+00	-6.84850595553E-01
6.77253028114E+05	-1.18716590505E+01	-1.54050898974E+02	2.93129466377E+01	1.67693230189E+02	-4.70171909353E+01	8.75273605581E+01	-5.97935694784E+00	-1.46449006221E+00
6.99444382709E+05	-1.37637994648E+01	1.69555697919E+02	2.92921604047E+01	1.67353638205E+02	-4.62708114877E+01	-6.45022396511E+01	-6.07622109919E+00	1.58110596429E-01
7.21635737304E+05	-1.34728937013E+01	1.75114413993E+02	2.92766082168E+01	1.66637556599E+02	-4.25668073550E+01	-8.94517326072E+01	-5.99785419325E+00	3.74821802239E-01
7.43827091899E+05	-1.45656969224E+01	1.75389569398E+02	2.92502659551E+01	1.65927191871E+02	-5.09291770007E+01	1.54025529168E+02	-5.91381517909E+00	-1.06730216429E+00
7.66018446494E+05	-1.44664640293E+01	1.76629997602E+02	2.92344185608E+01	1.65419099827E+02	-4.38947759196E+01	3.63297426246E+01	-6.11201602125E+00	-1.10258304260E+00
7.88209801089E+05	-1.52048797253E+01	1.44967433322E+02	2.92343779687E+01	1.64998688192E+02	-6.32636042691E+01	-1.10871459707E+02	-5.99129766071E+00	-4.71526962018E-01
8.10401155684E+05	-1.24138237406E+01	1.77811020634E+02	2.91671070430E+01	1.63905727038E+02	-4.35657644918E+01	-7.61869003767E+01	-6.00632593944E+00	4.73684827681E-01
8.32592510279E+05	-1.24940850329E+01	-1.73908885354E+02	2.91399837450E+01	1.63209623200E+02	-4.61247466836E+01	-7.09236397609E+01	-6.03023380994E+00	4.34535927160E-02
8.54783864874E+05	-1.35763837309E+01	-1.65416314916E+02	2.91465197864E+01	1.62585834690E+02	-6.03251300809E+01	2.76116495166E+01	-5.97879404465E+00	-7.49255548509E-01
8.76975219469E+05	-1.21608810446E+01	1.74667235143E+02	2.91049213798E+01	1.62061569758E+02	-5.31165329398E+01	4.00377686022E+01	-6.05713270887E+00	-8.23267438978E-01
8.99166574064E+05	-1.40756548324E+01	-1.77180147503E+02	2.90886056930E+01	1.61567719172E+02	-4.82986199840E+01	-3.94486709222E+01	-6.06526147529E+00	-6.90525066090E-01
9.21357928659E+05	-1.30145469187E+01	-1.77894734059E+02	2.90564836294E+01	1.60806754234E+02	-4.29040949474E+01	1.65797538712E+01	-6.15464926160E+00	-6.41662972591E-01
9.43549283254E+05	-1.20681989950E+01	-1.78691310323E+02	2.90251484691E+01	1.60321302419E+02	-6.38491991286E+01	4.69753206906E+00	-6.03170889059E+00	-4.24805071634E-01
9.65740637849E+05	-1.34384218058E+01	-1.78342669397E+02	2.89974369426E+01	1.59674545524E+02	-4.17918151299E+01	-5.82658663639E+01	-6.09850845083E+00	4.36881392014E-01
9.87931992444E+05	-1.33421165757E+01	1.72368818797E+02	2.89821964760E+01	1.59268537058E+02	-4.22702376250E+01	-1.68064387876E+02	-5.84977721281E+00	-4.38906029867E-01
1.01012334704E+06	-1.47644898108E+01	1.62971660950E+02	2.89789088974E+01	1.58703366195E+02	-4.70322240652E+01	-6.43717354031E+01	-6.09971028159E+00	4.03233991306E-02
1.03231470163E+06	-1.19090179379E+01	-1.58307217805E+02	2.89460467029E+01	1.57841774158E+02	-5.70738877041E+01	1.66265048578E+02	-5.96786206277E+00	-6.09175617659E-01
1.05450605623E+06	-1.36749636094E+01	-1.61235528138E+02	2.89361312055E+01	1.57391182551E+02	-4.08602211758E+01	2.43981904741E+01	-6.17342212427E+00	-8.98171892871E-01
1.07669741082E+06	-1.54476876178E+01	-1.61143737043E+02	2.89299565156E+01	1.56903021263E+02	-4.89998081477E+01	1.80993672310E+01	-6.12608729801E+00	-6.40021560580E-01
1.09888876542E+06	-1.59662027112E+01	-1.55952702417E+02	2.89223580163E+01	1.56232405050E+02	-3.61588675661E+01	8.98524976923E+01	-6.02929965129E+00	-2.72376990493E+00
1.12108012001E+06	-1.39823776058E+01	-1.60710595690E+02	2.88842084549E+01	1.55661379002E+02	-3.97961254007E+01	-5.80310224687E+00	-6.20814267199E+00	-5.23152345846E-01
1.14327147461E+06	-1.56783416999E+01	-1.75901354548E+02	2.88506293226E+01	1.55321009141E+02	-4.66580255399E+01	1.31631196235E+02	-5.96985826453E+00	-1.23545638295E+00
1.16546282920E+06	-1.46427296127E+01	-1.69671496656E+02	2.88149561990E+01	1.54772906423E+02	-3.81274393640E+01	-1.69355993988E+02	-5.85693099536E+00	-6.44638525159E-01
1.18765418380E+06	-1.14883715576E+01	1.70174714978E+02	2.87596666446E+01	1.54327031440E+02	-5.27490649294E+01	-6.62247380974E+01	-6.02873053335E+00	-2.40848097171E-01
1.20984553839E+06	-1.25627510048E+01	-1.62268492365E+02	2.87603412139E+01	1.53571966755E+02	-4.47704852029E+01	-1.36687457000E+02	-5.92440996970E+00	-3.42977678619E-01
1.23203689299E+06	-1.44187828682E+01	-1.66256525741E+02	2.87313351853E+01	1.53201925708E+02	-4.31888312550E+01	4.90063539190E+01	-6.11864652180E+00	-1.06919376285E+00
1.25422824758E+06	-1.39088049882E+01	-1.74355338348E+02	2.86833704514E+01	1.52770627046E+02	-5.23976198673E+01	8.50184493316E+01	-6.04368504249E+00	-1.06564712998E+00
1.27641960218E+06	-1.57780658631E+01	1.73739173675E+02	2.86807993124E+01	1.52199317318E+02	-4.84964697041E+01	-1.76393179511E+02	-5.92392817661E+00	-7.55399512012E-01
1.29861095677E+06	-1.28097815650E+01	1.67579777441E+02	2.86507833934E+01	1.51869571347E+02	-4.51060097066E+01	-5.25747634705E+01	-6.08229423786E+00	6.31567085537E-02
1.32080231137E+06	-1.15327685299E+01	-1.57863488221E+02	2.86095595723E+01	1.50974890001E+02	-3.51115415723E+01	1.03597146411E+02	-5.93328368021E+00	-2.92205725982E+00
1.34299366596E+06	-1.65215577400E+01	-1.44690390124E+02	2.86485933915E+01	1.50575174664E+02	-5.14112870314E+01	9.36411664107E+01	-6.01834150827E+00	-1.38256974109E+00
1.36518502056E+06	-1.73449105886E+01	-1.66861076385E+02	2.85835719790E+01	1.50124584910E+02	-4.05076461730E+01	-1.53155157675E+02	-5.81513393099E+00	-2.85236527286E-01
1.38737637515E+06	-1.31760044578E+01	-1.47633992147E+02	2.85585209679E+01	1.49513692933E+02	-4.48312926948E+01	-9.98206714928E+01	-5.98195153763E+00	1.45165700788E-01
1.40956772975E+06	-1.53850335292E+01	-1.48060264836E+02	2.85041623039E+01	1.48966904293E+02	-4.53391241918E+01	-1.19276552921E+02	-5.91344790549E+00	-1.52312047805E-01
1.43175908434E+06	-9.96406641076E+00	1.77906254127E+02	2.84231145878E+01	1.48738142843E+02	-4.92704509703E+01	-5.10352522756E+01	-6.05701484653E+00	-3.44876414433E-01
1.45395043894E+06	-1.36195128090E+01	-1.71928009423E+02	2.84429159621E+01	1.48247727054E+02	-4.52547350301E+01	-1.24684184355E+02	-6.00010904155E+00	-5.95839175867E-01
1.47614179353E+06	-1.53423622832E+01	1.55132435332E+02	2.84048283616E+01	1.48024720777E+02	-4.96411501709E+01	1.79284082226E+02	-5.92862803870E+00	-7.37895562719E-01
1.49833314813E+06	-1.31423015957E+01	1.75051753522E+02	2.84094759294E+01	1.47271934609E+02	-5.14629310395E+01	4.67344536233E+00	-6.07095120897E+00	-7.18930264560E-01
1.52052450272E+06	-1.58526693194E+01	-1.51143098070E+02	2.83971796396E+01	1.46752815500E+02	-5.42164903067E+01	1.33406019741E+02	-5.97291315713E+00	-7.02358393535E-01
1.54271585732E+06	-1.48428348819E+01	-1.71093626330E+02	2.83437200701E+01	1.46340143906E+02	-4.14522200156E+01	-1.50677332401E+02	-5.84016508270E+00	-3.69546811816E-01
1.56490721191E+06	-1.45939300475E+01	1.58314614686E+02	2.83158483664E+01	1.45995003174E+02	-3.97933425330E+01	1.53221397276E+02	-5.86425630690E+00	-1.42834860780E+00
1.58709856651E+06	-1.23469486204E+01	-1.53251754249E+02	2.82801572643E+01	1.45155788982E+02	-4.81829872884E+01	2.07603400212E+01	-6.07278048239E+00	-9.60125652321E-01
1.60928992110E+06	-1.45277432374E+01	1.73617963368E+02	2.82508565046E+01	1.45111541633E+02	-5.09008419285E+01	1.06610959828E+02	-5.97752537683E+00	-1.08093995828E+00
1.63148127570E+06	-1.26627330998E+01	-1.76273769826E+02	2.82111773860E+01	1.44307031872E+02	-4.77304468744E+01	-1.26137433453E+02	-5.98022256972E+00	-2.60169489999E-01
1.65367263029E+06	-1.67209188680E+01	-1.72390615737E+02	2.82175763181E+01	1.44086704061E+02	-4.48180123521E+01	-5.25389678236E+01	-6.06944553911E+00	1.35976939612E-01
1.67586398489E+06	-1.35460800158E+01	-1.57314129735E+02	2.81833993235E+01	1.43417448760E+02	-4.42785700898E+01	-1.09508254898E+02	-5.94388430609E+00	-2.34170868307E-01
1.69805533948E+06	-1.78574151204E+01	1.78784617774E+02	2.81774615935E+01	1.43273661560E+02	-5.05306677765E+01	-9.42743643418E+01	-5.98567781309E+00	-4.22567306479E-01
1.72024669408E+06	-1.73209234816E+01	1.47684480148E+02	2.81388891080E+01	1.43047869899E+02	-4.67785235954E+01	-2.21108705909E+01	-6.07292444061E+00	-4.63338244161E-01
1.74243804867E+06	-1.42570134277E+01	-1.75147547149E+02	2.80980600836E+01	1.42213268715E+02	-4.86807632325E+01	-4.35985946212E+01	-6.04905580946E+00	-8.88185784602E-02
1.76462940327E+06	-1.04048386474E+01	-1.59019523637E+02	2.80355678017E+01	1.41391298938E+02	-4.41213642727E+01	-1.58213341988E+02	-5.85589349313E+00	-7.11612049221E-01
1.78682075786E+06	-1.27041900133E+01	1.79726300747E+02	2.80050674242E+01	1.41316716197E+02	-4.10757771460E+01	-8.58903974392E+00	-6.17749038975E+00	-4.09347596062E-01
1.80901211246E+06	-1.20939848892E+01	-1.77726668627E+02	2.79617353214E+01	1.40969234307E+02	-3.53806581594E+01	-4.54871244242E+01	-6.09356897787E+00	7.56495269444E-01
1.83120346705E+06	-1.38033183368E+01	-1.69146388006E+02	2.79626536836E+01	1.40538914373E+02	-4.74048553264E+01	-7.99951144852E+01	-5.99925491204E+00	-2.53166746123E-01
1.85339482165E+06	-1.34571501220E+01	-1.66163061385E+02	2.79444449218E+01	1.39944865779E+02	-4.63251694938E+01	1.71231209783E+02	-5.92378886621E+00	-1.06173194670E+00
1.87558617624E+06	-1.43152741599E+01	-1.60702442496E+02	2.79028751518E+01	1.39705829177E+02	-3.96161852383E+01	-1.11260535387E+02	-5.85110254962E+00	3.54025181173E-01
1.89777753084E+06	-1.76130273103E+01	-1.49938067642E+02	2.78971068189E+01	1.39165208173E+02	-4.74298874432E+01	7.27616796694E+01	-6.08544665413E+00	-1.34281158696E+00
1.91996888543E+06	-1.46239292165E+01	1.77123018178E+02	2.78300945545E+01	1.38919474003E+02	-4.22597960352E+01	3.06873085307E+01	-6.13530535780E+00	-1.17933829586E+00
1.94216024003E+06	-1.41618471736E+01	1.79715148885E+02	2.78136135104E+01	1.38469682004E+02	-4.03867604596E+01	9.86753482269E+01	-6.04444715555E+00	-2.30242763064E+00
1.96435159462E+06	-1.27728899187E+01	-1.74626955956E+02	2.77394433308E+01	1.37854310332E+02	-3.56681057131E+01	-2.11638318415E+01	-6.21883129923E+00	4.39165356073E-01
1.98654294922E+06	-1.78766847083E+01	-1.78124666359E+02	2.77500481422E+01	1.37685638279E+02	-5.02372554157E+01	-9.61962684201E+01	-5.96253980665E+00	-5.40548045435E-01
2.00873430381E+06	-1.53542350850E+01	-1.36132716855E+02	2.77598482827E+01	1.36900888262E+02	-4.96658054585E+01	1.89639309087E+00	-6.06919210914E+00	-9.46640089598E-01
2.03092565841E+06	-1.25964556378E+01	1.72778070693E+02	2.76716196475E+01	1.36650547781E+02	-3.94455086697E+01	8.67831962759E+01	-6.09309129476E+00	-2.60944330296E+00
2.05311701300E+06	-1.53442849193E+01	-1.74967647365E+02	2.76663038434E+01	1.36313856055E+02	-4.36777177226E+01	3.52253607394E+01	-6.11508312033E+00	-1.08970527122E+00
2.07530836760E+06	-1.57854007054E+01	-1.55343432485E+02	2.76440981164E+01	1.35703561596E+02	-4.35842143620E+01	-9.91319844331E+01	-5.94722376600E+00	-2.22007416891E-01
2.09749972219E+06	-1.59992698062E+01	-1.57584106881E+02	2.76294946795E+01	1.35398512630E+02	-4.19498109130E+01	-8.99829054339E+01	-5.98339781614E+00	-3.02611051399E-01
2.11969107679E+06	-1.05775133514E+01	-1.73578994080E+02	2.75034757429E+01	1.34816202932E+02	-4.11068359354E+01	1.18383528532E+01	-6.15706199219E+00	-7.05310027396E-01
2.14188243138E+06	-1.84346351588E+01	1.71840938322E+02	2.75428790825E+01	1.34802811213E+02	-5.00956005120E+01	-4.37778535865E+01	-6.03976438727E+00	-5.92013195133E-01
2.16407378598E+06	-1.42746292147E+01	-1.57870870663E+02	2.75114417845E+01	1.34058800121E+02	-5.29046801645E+01	-4.33281590925E+01	-6.02965733950E+00	-7.13218306918E-01
2.18626514057E+06	-9.72687815945E+00	-1.49969455812E+02	2.74349382617E+01	1.33458139301E+02	-5.61864563668E+01	-1.46868785140E+02	-5.94630489828E+00	-9.36112949707E-01
2.20845649517E+06	-9.33007673676E+00	1.62922744491E+02	2.73716001945E+01	1.33659997687E+02	-4.49205216647E+01	-1.59589071272E+02	-5.86274305664E+00	-8.86271698079E-01
2.23064784976E+06	-1.35333867704E+01	-1.69136359671E+02	2.74124731059E+01	1.33137599809E+02	-5.40653344561E+01	-2.92913071702E+00	-5.93177561142E+00	-1.24740768249E+00
2.25283920436E+06	-1.24029425518E+01	1.71472197687E+02	2.73362991119E+01	1.32694038966E+02	-3.44798725257E+01	-2.04013236141E+01	-6.28342805497E+00	4.29880789809E-01
2.27503055895E+06	-1.34453680996E+01	-1.71927868245E+02	2.73239297677E+01	1.32097137258E+02	-3.18508553327E+01	1.69917547711E+01	-6.45292965400E+00	-4.14521171973E-01
2.29722191355E+06	-1.08208421282E+01	-1.74254201294E+02	2.72631341379E+01	1.31595398002E+02	-4.34753376039E+01	-5.42225681928E+01	-6.05992122637E+00	-2.05556737689E-01
2.31941326814E+06	-1.19714918390E+01	-1.61702902340E+02	2.72619482601E+01	1.31161959551E+02	-4.71413294994E+01	1.41257093787E+02	-5.93072837115E+00	-1.37167211651E+00
2.34160462274E+06	-1.28945984534E+01	-1.61986584083E+02	2.72494444608E+01	1.30922723769E+02	-5.46568714117E+01	2.25538008267E+01	-6.08219844039E+00	-1.00337600142E+00
2.36379597733E+06	-6.54234858909E+00	1.70129153663E+02	2.71214103860E+01	1.30757208835E+02	-4.82240090134E+01	1.72254311010E+02	-5.90247427192E+00	-1.47747951654E+00
2.38598733193E+06	-1.39753541247E+01	-1.55942833504E+02	2.71838046150E+01	1.30232172826E+02	-4.25139308292E+01	-1.28104431958E+02	-5.87826849724E+00	-4.16738690749E-01
2.40817868652E+06	-1.33534370328E+01	1.77983785518E+02	2.71306964043E+01	1.30073140645E+02	-3.88199885035E+01	-1.67062975554E+02	-5.80909033747E+00	-1.20679152594E+00
2.43037004112E+06	-1.37990989275E+01	-1.66976066113E+02	2.71160262010E+01	1.29477140834E+02	-4.49052520451E+01	-1.67807752358E+02	-5.90713922079E+00	-1.76942501540E+00
2.45256139571E+06	-1.51059159509E+01	-1.68914707269E+02	2.70735653906E+01	1.29168065297E+02	-5.22396240628E+01	1.62637749885E+02	-5.97035437177E+00	-1.36420593631E+00
2.47475275031E+06	-1.37822041150E+01	-1.79831942943E+02	2.70351549571E+01	1.28790972999E+02	-4.82065830143E+01	-5.18768382860E+01	-6.04035107369E+00	-5.68855820719E-01
2.49694410490E+06	-1.28564022350E+01	-1.74266193905E+02	2.69846571291E+01	1.28427568327E+02	-4.62916959228E+01	-1.76752581374E+01	-6.08808264277E+00	-6.83878649357E-01
2.51913545950E+06	-8.67767169836E+00	1.77100198839E+02	2.69003740339E+01	1.28078273152E+02	-4.83085295632E+01	-9.01350313555E+01	-5.97295228552E+00	-6.87401996274E-01
2.54132681409E+06	-1.21801950848E+01	-1.76065358988E+02	2.69297400231E+01	1.27784665166E+02	-4.32784782642E+01	1.30652875278E+02	-5.93877130155E+00	-2.03735573372E+00
2.56351816869E+06	-1.11081043668E+01	-1.62856923739E+02	2.68968909377E+01	1.26980595707E+02	-4.54075589371E+01	-6.03523251054E+01	-6.04070389948E+00	-4.05476434888E-01
2.58570952328E+06	-1.75687202680E+01	-1.43369494111E+02	2.69181133358E+01	1.26962101286E+02	-3.65524486318E+01	8.18770626859E+01	-6.17789479896E+00	-2.42767580318E+00
2.60790087788E+06	-1.44143923191E+01	1.78240525111E+02	2.68194803744E+01	1.26740600178E+02	-5.31502187260E+01	1.24813711686E+02	-5.99873537907E+00	-1.39878282350E+00
2.63009223247E+06	-1.52456129607E+01	-1.60096326804E+02	2.68314380554E+01	1.26189649974E+02	-6.25663948186E+01	-6.79467019914E+01	-6.02470224360E+00	-7.05821458724E-01
2.65228358707E+06	-1.52773998970E+01	-1.64883810814E+02	2.67914515015E+01	1.25837694946E+02	-4.55111241596E+01	-1.71151611102E+01	-6.08372355833E+00	-7.48645498317E-01
2.67447494166E+06	-1.46135007250E+01	-1.73391804395E+02	2.67336386097E+01	1.25484803012E+02	-4.89486556262E+01	3.17022002145E+01	-6.09359290872E+00	-1.37251472490E+00
2.69666629626E+06	-1.33635696390E+01	-1.62475260736E+02	2.67249774132E+01	1.24980874840E+02	-4.81321714496E+01	-1.35324863968E+02	-5.92948267670E+00	-1.12462716113E+00
2.71885765085E+06	-1.68714221359E+01	-1.60994860692E+02	2.66987854279E+01	1.24888364812E+02	-4.19542970563E+01	2.14414469097E+01	-6.16443747341E+00	-1.05263170203E+00
2.74104900545E+06	-1.34535069309E+01	-1.67943392413E+02	2.66350568264E+01	1.24412516168E+02	-4.74849810905E+01	-5.11367691473E+01	-6.05049312765E+00	-7.54730739885E-01
2.76324036004E+06	-1.48577441897E+01	-1.65117276866E+02	2.66278913713E+01	1.23984179097E+02	-4.21478067185E+01	-6.56947194805E+01	-6.03071330100E+00	-2.38917108245E-01
2.78543171463E+06	-1.26194315886E+01	-1.79485429590E+02	2.65550275489E+01	1.23674182136E+02	-4.08542291642E+01	1.10249844520E+02	-5.99177111581E+00	-2.49426550550E+00
2.80762306923E+06	-1.37931248043E+01	1.71452936168E+02	2.65066508658E+01	1.23514273422E+02	-4.41355814516E+01	-1.59788988975E+01	-6.11190134098E+00	-8.35152382270E-01
2.82981442382E+06	-1.53974970068E+01	-1.41345785952E+02	2.65341593806E+01	1.22970039971E+02	-4.98384044323E+01	-4.12618609270E+01	-6.02481257296E+00	-9.65855720803E-01
2.85200577842E+06	-1.30504836286E+01	-1.61253585412E+02	2.64841595409E+01	1.22414267822E+02	-5.29008223296E+01	3.69097239438E+01	-6.05344054192E+00	-1.52221102745E+00
2.87419713301E+06	-1.20712739193E+01	-1.76446670321E+02	2.64024930733E+01	1.22233388258E+02	-4.95703971452E+01	4.61564512752E+01	-6.09602291260E+00	-1.30768398670E+00
