# Hz S DB R 50
! CMT, M5065, 19127446, 24.2.4/2
! Date: 11/8/2024 3:05:56 PM
! Data: Format (Calibration Info)
! Freq	S11:dB/Ang(F2)	S21:dB/Ang(F2)	S12:dB/Ang(F2)	S22:dB/Ang(F2)
3.00000000000E+05	-1.29087055165E+01	-1.79167436944E+02	1.14386282980E+01	-1.77291229579E+02	-4.51248623461E+01	1.24283680578E+02	-5.97980989031E+00	-3.63688133957E-01
3.22191354595E+05	-1.49721546790E+01	-1.69049088350E+02	1.15017591250E+01	-1.77885611005E+02	-4.72792258734E+01	3.31172542263E+01	-6.00655540465E+00	-2.68086025360E-01
3.44382709190E+05	-1.73606217192E+01	1.56399314722E+02	1.15248963686E+01	-1.78202478244E+02	-5.21076021075E+01	6.15938195453E+01	-5.99641884117E+00	-2.90650651775E-01
3.66574063785E+05	-1.21445919859E+01	-1.64121796040E+02	1.14710572453E+01	-1.78950428959E+02	-4.24495215961E+01	-7.13634036648E+01	-6.01109752238E+00	-2.63474769304E-01
3.88765418380E+05	-1.54013465452E+01	-1.76807147271E+02	1.15053278832E+01	-1.79185446697E+02	-3.72447585910E+01	-6.10714444766E+01	-6.04013980973E+00	4.42892040815E-02
4.10956772975E+05	-1.29561748377E+01	-1.68831741519E+02	1.14894954647E+01	-1.79215911701E+02	-4.91227088132E+01	-1.21346445914E+02	-5.96237049591E+00	-3.67566249674E-01
4.33148127570E+05	-1.23219471400E+01	-1.70972844778E+02	1.15001469622E+01	-1.79485745060E+02	-4.79599889703E+01	5.38899367284E+01	-5.99184360305E+00	-2.96572230119E-01
4.55339482165E+05	-1.41573796968E+01	1.73575265977E+02	1.14619080403E+01	-1.79534285845E+02	-4.22901845661E+01	-1.51805702097E+02	-5.97648347598E+00	-1.28698356001E-01
4.77530836760E+05	-1.37759241032E+01	1.76361829219E+02	1.14795396315E+01	1.79876695092E+02	-5.00108292484E+01	-1.18886470495E+01	-5.98823704453E+00	-3.81912072281E-01
4.99722191355E+05	-1.28924523138E+01	-1.73921772926E+02	1.14678082732E+01	1.79708552236E+02	-4.03965898370E+01	-4.57819187723E+01	-6.02734960216E+00	-2.55341371344E-01
5.21913545950E+05	-1.51681027609E+01	-1.79530827897E+02	1.14859062398E+01	1.79624953981E+02	-4.45627492460E+01	6.72783478689E+00	-6.01746320649E+00	-3.91039845359E-01
5.44104900545E+05	-1.54713662341E+01	1.77453133606E+02	1.15163902526E+01	1.79246030930E+02	-4.87718456142E+01	-1.69983071710E+02	-5.98655511427E+00	-3.84243968618E-01
5.66296255139E+05	-1.39562635536E+01	1.67360295078E+02	1.14787584054E+01	1.79390640863E+02	-4.54286397721E+01	-1.53058072581E+02	-5.99436081208E+00	-1.44142273304E-01
5.88487609734E+05	-1.39575968663E+01	-1.79156361474E+02	1.14999542863E+01	1.78781623544E+02	-4.83809444633E+01	-9.59809561761E+01	-5.99471497916E+00	-1.49931634786E-01
6.10678964329E+05	-1.44862752210E+01	-1.72097757490E+02	1.14938765690E+01	1.78763180004E+02	-4.36491049585E+01	-1.28750559912E+02	-6.01667011580E+00	2.72559983948E-01
6.32870318924E+05	-1.73564969262E+01	-1.72305544644E+02	1.15099043000E+01	1.78451825959E+02	-4.91693173555E+01	-1.30055498456E+02	-5.98536056328E+00	-3.03074702765E-01
6.55061673519E+05	-1.68725522682E+01	1.73599293930E+02	1.15030661722E+01	1.78487556224E+02	-5.46313077580E+01	6.26354586076E+01	-6.01178788384E+00	-2.58711656980E-01
6.77253028114E+05	-1.50787162652E+01	1.78988052613E+02	1.14904074008E+01	1.78240078124E+02	-4.46557871859E+01	-5.84340509605E+01	-6.01609201476E+00	-6.56731764308E-01
6.99444382709E+05	-1.46370675423E+01	-1.67935979746E+02	1.15076630277E+01	1.77832917348E+02	-4.39604764093E+01	6.37276553501E+01	-6.00070021683E+00	-4.35568247680E-01
7.21635737304E+05	-1.57770751755E+01	-1.72575145137E+02	1.14935326784E+01	1.77863888607E+02	-5.29914295179E+01	-1.76375289330E+02	-5.98641036512E+00	-3.22778732165E-01
7.43827091899E+05	-1.16090311794E+01	-1.78149189263E+02	1.14455142352E+01	1.77608532986E+02	-4.61063616554E+01	7.25490764164E+01	-5.96439731164E+00	-6.44473369464E-01
7.66018446494E+05	-1.47114094465E+01	-1.74828773608E+02	1.15201477382E+01	1.77545557163E+02	-5.23587312792E+01	6.69330826655E+01	-6.01146832172E+00	-3.65897120643E-01
7.88209801089E+05	-1.43053571794E+01	1.63226304271E+02	1.15290643951E+01	1.77449376477E+02	-4.46869309950E+01	1.46668826592E+01	-6.02791063546E+00	-4.92779267797E-01
8.10401155684E+05	-1.27709006782E+01	-1.60558804548E+02	1.15134689596E+01	1.76965557846E+02	-4.53293284110E+01	4.45650316088E+01	-6.02534715021E+00	-4.10999894730E-01
8.32592510279E+05	-1.54394823536E+01	-1.79325648562E+02	1.14910678940E+01	1.77071778771E+02	-4.29217320035E+01	2.50284351405E+01	-6.02256997109E+00	-6.13189179236E-01
8.54783864874E+05	-1.63300944857E+01	1.78529150905E+02	1.15070923531E+01	1.76976245059E+02	-4.46418520939E+01	1.20479889303E+02	-5.98901519872E+00	-4.91058664749E-01
8.76975219469E+05	-1.63444194192E+01	-1.66567695987E+02	1.15355684454E+01	1.76932819033E+02	-3.95433949997E+01	1.55416445588E+02	-5.98942763204E+00	-4.40029404110E-01
8.99166574064E+05	-1.49401390639E+01	-1.74634260016E+02	1.14784305737E+01	1.76551969810E+02	-4.11748602418E+01	5.30730308052E+01	-5.99352882326E+00	-4.22281455804E-01
9.21357928659E+05	-1.29945074510E+01	-1.77478636832E+02	1.15047620392E+01	1.76260907225E+02	-4.11500334785E+01	-1.34336948662E+02	-5.99567900878E+00	-2.70075245460E-01
9.43549283254E+05	-1.23597686691E+01	-1.59009164924E+02	1.14838741375E+01	1.76008543934E+02	-4.25610347299E+01	-8.91783891933E+01	-6.00120899778E+00	-3.11780704196E-01
9.65740637849E+05	-1.40290728045E+01	1.69035181531E+02	1.14696662095E+01	1.76273959927E+02	-4.43499439313E+01	4.34686773585E+01	-6.00395287525E+00	-4.83918965317E-01
9.87931992444E+05	-1.64135658720E+01	1.61452180828E+02	1.15297004682E+01	1.76014700798E+02	-3.97044638931E+01	-9.57085373632E+01	-5.99167334779E+00	-3.06004497432E-01
1.01012334704E+06	-1.38012547996E+01	1.78327613198E+02	1.15038554537E+01	1.75887547658E+02	-4.96010194220E+01	-1.11693083565E+02	-6.00816988683E+00	-4.02855420384E-01
1.03231470163E+06	-1.36220731718E+01	-1.75063656303E+02	1.14836384780E+01	1.75717917946E+02	-4.13412800228E+01	-2.46170876729E+01	-6.02782172189E+00	-5.78281294174E-01
1.05450605623E+06	-1.30180007303E+01	-1.70750630098E+02	1.14660187299E+01	1.75569810563E+02	-6.28859614727E+01	1.22712730645E+01	-6.00835725774E+00	-5.31451854444E-01
1.07669741082E+06	-1.19984143447E+01	-1.77177417418E+02	1.14900254574E+01	1.75304400346E+02	-5.46571246021E+01	-2.97297253713E+01	-6.00867215822E+00	-6.01728535300E-01
1.09888876542E+06	-1.37337632534E+01	-1.73170727494E+02	1.15019328144E+01	1.75328068668E+02	-4.80408424288E+01	3.86226100588E+01	-5.99692160879E+00	-4.62195332214E-01
1.12108012001E+06	-1.71538915771E+01	-1.68263611494E+02	1.15135682298E+01	1.75155063842E+02	-4.72800215499E+01	1.34322431404E+02	-6.00005272298E+00	-5.36704373758E-01
1.14327147461E+06	-1.57821732168E+01	-1.70982891818E+02	1.15302154495E+01	1.75072101771E+02	-6.93485536321E+01	-1.66300066602E+02	-5.99416536448E+00	-5.01239686937E-01
1.16546282920E+06	-1.48272178177E+01	-1.59037349688E+02	1.15207352178E+01	1.74948117793E+02	-4.00446334888E+01	8.36931449262E+01	-5.98455792458E+00	-7.23407170259E-01
1.18765418380E+06	-1.49964849539E+01	-1.73547601846E+02	1.15022912825E+01	1.74660060057E+02	-4.75890176361E+01	3.78541382385E+01	-5.99200736534E+00	-5.95818788429E-01
1.20984553839E+06	-1.55190692930E+01	-1.72069451224E+02	1.15221196230E+01	1.74503688007E+02	-3.69939318307E+01	-4.01645335294E+01	-6.03260800475E+00	-7.11009589465E-01
1.23203689299E+06	-1.23132449902E+01	-1.76483054491E+02	1.14851693884E+01	1.74287601294E+02	-5.14388099180E+01	-1.27081594626E+02	-6.00742631611E+00	-2.17923639009E-01
1.25422824758E+06	-1.33139734317E+01	1.76232534091E+02	1.14666826603E+01	1.74485400820E+02	-4.83352293172E+01	1.31615465131E+02	-5.99029038822E+00	-7.25987730548E-01
1.27641960218E+06	-1.50826513222E+01	-1.69291422219E+02	1.14999046470E+01	1.74290433502E+02	-4.15528292770E+01	1.74851689301E+02	-6.00239537505E+00	-5.37092337716E-01
1.29861095677E+06	-1.39954472126E+01	1.72348742578E+02	1.14850444062E+01	1.74191915463E+02	-5.57380692053E+01	1.22816826100E+02	-5.99920916832E+00	-6.20135981456E-01
1.32080231137E+06	-1.12019352018E+01	-1.67259003793E+02	1.14643344277E+01	1.73635652850E+02	-4.50278967341E+01	-4.03825153782E+01	-5.97475696539E+00	-9.29231599725E-01
1.34299366596E+06	-1.51246553467E+01	-1.74782996098E+02	1.15431602916E+01	1.73969836400E+02	-5.41153751523E+01	-6.36439419449E+00	-5.98832459565E+00	-6.99040821933E-01
1.36518502056E+06	-1.31659522126E+01	-1.74750871892E+02	1.14733417572E+01	1.73669700751E+02	-3.69237212157E+01	1.06953107037E+02	-5.96223206026E+00	-7.23230504554E-01
1.38737637515E+06	-1.58786400849E+01	-1.57080035934E+02	1.15123321940E+01	1.73491418383E+02	-5.05237034314E+01	-8.78858856982E+00	-6.00982074066E+00	-3.82692387244E-01
1.40956772975E+06	-1.76317210955E+01	-1.65179998434E+02	1.15270313114E+01	1.73480156281E+02	-5.46270851244E+01	-2.77866017347E+01	-5.99193199982E+00	-5.99271993428E-01
1.43175908434E+06	-1.41863916986E+01	1.74725082736E+02	1.15032875222E+01	1.73322113883E+02	-5.49888786860E+01	-7.18742193207E+01	-6.00832167829E+00	-4.60750504318E-01
1.45395043894E+06	-1.40100207233E+01	-1.78985617440E+02	1.14888167728E+01	1.73375997749E+02	-5.02144785172E+01	-1.42296379841E+02	-5.99576592626E+00	-5.03506048809E-01
1.47614179353E+06	-1.54250641747E+01	-1.64104507399E+02	1.15118252439E+01	1.72999808305E+02	-5.11109841513E+01	7.72613992493E+01	-5.98191191911E+00	-6.77611302316E-01
1.49833314813E+06	-1.49843647686E+01	-1.77819514340E+02	1.14958765852E+01	1.72917541540E+02	-3.96401688465E+01	-1.29387616210E+02	-6.00827356169E+00	-5.03713353081E-01
1.52052450272E+06	-1.46734490381E+01	-1.73436348742E+02	1.15093122376E+01	1.72805404247E+02	-3.58575675122E+01	-8.15848476160E+01	-6.06162720594E+00	-7.34874357309E-01
1.54271585732E+06	-1.33455932572E+01	-1.58051664440E+02	1.14939286269E+01	1.72407719989E+02	-4.55441064941E+01	4.18842499472E+01	-6.00099184168E+00	-7.33917766951E-01
1.56490721191E+06	-1.21138755231E+01	-1.72571626060E+02	1.14851637910E+01	1.72444895723E+02	-4.13075783639E+01	-3.33691667424E+01	-6.02122155980E+00	-6.64193680652E-01
1.58709856651E+06	-1.80272039759E+01	1.76743354660E+02	1.15423196674E+01	1.72622064378E+02	-4.69789166704E+01	-5.62237806554E+01	-6.00894810840E+00	-5.66389132687E-01
1.60928992110E+06	-1.23981656623E+01	-1.74488674013E+02	1.14704622491E+01	1.72377113415E+02	-5.02324328112E+01	-3.58352454983E+01	-6.03511671909E+00	-7.40081231748E-01
1.63148127570E+06	-1.54200354881E+01	1.77452886620E+02	1.15205599236E+01	1.72123859336E+02	-4.63897047348E+01	1.32591919478E+02	-5.96933693626E+00	-6.68265733669E-01
1.65367263029E+06	-1.64242867544E+01	-1.78251933757E+02	1.15100033637E+01	1.72439834459E+02	-4.19770833499E+01	-9.56312268333E+01	-6.04181538407E+00	-5.19479303684E-01
1.67586398489E+06	-1.35761196291E+01	-1.77869083828E+02	1.14945873646E+01	1.71884572520E+02	-3.90745190643E+01	-5.23286954981E+01	-6.01330219601E+00	-7.27180980540E-01
1.69805533948E+06	-1.39111087452E+01	-1.68887933706E+02	1.14995872212E+01	1.71874552644E+02	-3.81875899170E+01	1.31483641620E+02	-5.95632645571E+00	-9.63289894457E-01
1.72024669408E+06	-1.33635694319E+01	-1.70905406523E+02	1.15157265667E+01	1.71817513837E+02	-4.76299615834E+01	1.11108897474E+02	-5.98780653481E+00	-7.06720243069E-01
1.74243804867E+06	-1.59030811355E+01	1.65868429422E+02	1.14742300361E+01	1.71961300449E+02	-4.14459019548E+01	9.51291537656E+01	-5.99584162284E+00	-8.51662075794E-01
1.76462940327E+06	-1.09795722833E+01	-1.66947746756E+02	1.15090369488E+01	1.71308660544E+02	-4.20033392251E+01	9.02244560098E+01	-6.00529857053E+00	-8.64671069184E-01
1.78682075786E+06	-1.64643913487E+01	1.68507462207E+02	1.15022557596E+01	1.71397078648E+02	-4.49759977845E+01	2.76423511095E+01	-6.01347938960E+00	-8.41441986273E-01
1.80901211246E+06	-1.27893926547E+01	-1.60516970443E+02	1.14883081475E+01	1.71318996937E+02	-4.24752236544E+01	1.76559936435E+02	-5.98150546475E+00	-7.42545324318E-01
1.83120346705E+06	-1.19087303964E+01	1.73950090222E+02	1.14831237866E+01	1.71054555305E+02	-3.77809128348E+01	-2.47827503918E+01	-6.00174042595E+00	-8.45518819159E-01
1.85339482165E+06	-1.40798014267E+01	-1.79129940750E+02	1.15147160113E+01	1.71057924081E+02	-4.81072960227E+01	1.20753209298E+02	-5.98542563991E+00	-8.58713818122E-01
1.87558617624E+06	-1.28342567218E+01	1.73374110107E+02	1.14901799365E+01	1.71044766194E+02	-4.59441179294E+01	-1.22690095806E+02	-5.98113817286E+00	-7.34492497256E-01
1.89777753084E+06	-9.66474527592E+00	-1.78865722132E+02	1.14697867188E+01	1.70614444019E+02	-4.60835310622E+01	8.78427280985E+01	-5.99374130976E+00	-9.58841618705E-01
1.91996888543E+06	-1.33578431729E+01	-1.70373151226E+02	1.14995841482E+01	1.70587866490E+02	-4.86378003422E+01	-1.24662971290E+02	-6.00303034680E+00	-8.14400596117E-01
1.94216024003E+06	-1.28922846075E+01	1.78111375394E+02	1.14818874262E+01	1.70581738878E+02	-5.27636133678E+01	-1.16109373668E+02	-6.00620342621E+00	-7.90894824195E-01
1.96435159462E+06	-1.43272355228E+01	-1.62638704476E+02	1.15289131417E+01	1.70513437454E+02	-4.79569477347E+01	5.63643447528E+01	-6.01414777066E+00	-9.79833131893E-01
1.98654294922E+06	-1.68608669812E+01	-1.62868088339E+02	1.15341791309E+01	1.70245000613E+02	-3.95870518956E+01	-1.45940540037E+02	-5.99701035636E+00	-7.19283222691E-01
2.00873430381E+06	-1.59846103893E+01	-1.69322143428E+02	1.15317841656E+01	1.69997153672E+02	-5.01229140767E+01	-1.12350972497E+02	-5.99518971247E+00	-8.96357519057E-01
2.03092565841E+06	-1.30387009047E+01	1.73394121770E+02	1.15058207472E+01	1.69870166753E+02	-4.55841340925E+01	-1.68526584105E+02	-5.98629987083E+00	-7.65096542371E-01
2.05311701300E+06	-1.36562547473E+01	-1.72549131980E+02	1.15165126117E+01	1.69998472055E+02	-4.82241317496E+01	-5.60522071897E+01	-6.03130191288E+00	-8.47918711488E-01
2.07530836760E+06	-1.21273451769E+01	-1.75060487089E+02	1.14594154447E+01	1.69499031121E+02	-4.95951504363E+01	-4.58730461804E+00	-6.00229514788E+00	-9.16737506967E-01
2.09749972219E+06	-1.25033974680E+01	-1.63004506690E+02	1.15255904430E+01	1.69409318163E+02	-5.43820412102E+01	-1.13393013051E+02	-6.00399620745E+00	-8.74619750307E-01
2.11969107679E+06	-1.40033562279E+01	-1.76622188408E+02	1.15159736638E+01	1.69472736744E+02	-4.52550328012E+01	1.52947850658E+01	-6.00521414907E+00	-1.06983524017E+00
2.14188243138E+06	-1.31390628382E+01	1.73680359821E+02	1.15140009272E+01	1.69406797725E+02	-3.62913779670E+01	7.56405599074E+01	-5.97485861016E+00	-1.13073346051E+00
2.16407378598E+06	-1.44216819257E+01	-1.59533110807E+02	1.15208514478E+01	1.69259540156E+02	-4.20159207290E+01	1.77907213571E+02	-5.99066478337E+00	-8.72814537798E-01
2.18626514057E+06	-1.47056116743E+01	-1.60128128508E+02	1.15581292659E+01	1.69279012206E+02	-4.55682452979E+01	7.20479704599E+01	-6.00303494587E+00	-1.02858403652E+00
2.20845649517E+06	-9.27168357939E+00	-1.65020491863E+02	1.15268919287E+01	1.68757265747E+02	-4.71474574691E+01	-9.44097125529E+01	-5.99642725152E+00	-7.34753048971E-01
2.23064784976E+06	-1.65009632823E+01	1.69056588621E+02	1.14949417852E+01	1.69130742046E+02	-4.23605707789E+01	-1.65539710683E+02	-5.95878135618E+00	-8.02770950594E-01
2.25283920436E+06	-1.26201295999E+01	-1.78210725014E+02	1.15186209384E+01	1.68890092696E+02	-6.06191092518E+01	-6.36908002549E+01	-5.98458678619E+00	-9.09806013706E-01
2.27503055895E+06	-1.96215908151E+01	-1.68359332152E+02	1.15295870408E+01	1.68930247604E+02	-3.95089843047E+01	6.95929664828E+01	-5.99304334445E+00	-1.12880825799E+00
2.29722191355E+06	-1.09891160416E+01	-1.60772325018E+02	1.15114867935E+01	1.68409222835E+02	-3.04256029415E+01	-1.31816423098E+02	-6.00780818169E+00	-3.96465868334E-01
2.31941326814E+06	-1.34610451826E+01	1.76330310920E+02	1.15260809557E+01	1.68395307081E+02	-5.16801426916E+01	-1.90232154911E+01	-5.99607039739E+00	-1.06040808124E+00
2.34160462274E+06	-1.94758399823E+01	-1.69303650805E+02	1.15705721990E+01	1.68445577621E+02	-4.82983559944E+01	-4.52282465874E+01	-5.98644253934E+00	-1.05875887042E+00
2.36379597733E+06	-1.47935306212E+01	1.46988589765E+02	1.14862282807E+01	1.68352308911E+02	-4.95841768876E+01	-1.38595071099E+02	-5.98250525464E+00	-9.10858004428E-01
2.38598733193E+06	-1.18504034048E+01	-1.64430889710E+02	1.15240119482E+01	1.68017191537E+02	-4.83750313230E+01	-9.56629063219E+01	-6.00021835061E+00	-9.44571882300E-01
2.40817868652E+06	-1.77398182138E+01	-1.64095225286E+02	1.15638562633E+01	1.68034139523E+02	-4.47820665586E+01	-1.63675775923E+02	-5.98323699021E+00	-1.13853524536E+00
2.43037004112E+06	-9.76900007665E+00	-1.70534209129E+02	1.14866859231E+01	1.67539243937E+02	-3.66534389734E+01	-1.89213291931E+01	-6.03088586189E+00	-1.51569869019E+00
2.45256139571E+06	-1.47070502759E+01	-1.79195791243E+02	1.15082229412E+01	1.67955228678E+02	-3.82192671526E+01	-4.16459419346E+01	-6.02332746908E+00	-9.38718144530E-01
2.47475275031E+06	-1.53385153589E+01	-1.57830239954E+02	1.15681906296E+01	1.67667055140E+02	-4.30472611508E+01	-1.30898119504E+02	-5.99676258006E+00	-8.84073096017E-01
2.49694410490E+06	-1.32264356963E+01	-1.51582516357E+02	1.15576689328E+01	1.67374100392E+02	-4.46462832757E+01	-2.35096474219E+01	-6.02253618703E+00	-9.94934172357E-01
2.51913545950E+06	-1.26958632450E+01	1.71535800012E+02	1.15122099445E+01	1.67310149195E+02	-3.97523282247E+01	-1.41977223458E+02	-5.97939634525E+00	-8.88492766883E-01
2.54132681409E+06	-1.34208807560E+01	-1.71753685247E+02	1.15229006562E+01	1.67171611705E+02	-5.27681007741E+01	-9.09307476007E+01	-6.01113856063E+00	-1.03208451509E+00
2.56351816869E+06	-1.36165158545E+01	-1.71353847636E+02	1.15240872853E+01	1.67109992597E+02	-4.44061985304E+01	-1.29961794595E+02	-5.98327046833E+00	-9.18166157355E-01
2.58570952328E+06	-1.26837493984E+01	-1.69913595312E+02	1.15214150415E+01	1.66949269469E+02	-3.85869513251E+01	-1.12102338806E+02	-6.00020051201E+00	-8.66952090715E-01
2.60790087788E+06	-1.47244010147E+01	-1.61679639028E+02	1.15735962598E+01	1.66929057774E+02	-5.07642804125E+01	2.36392447394E+01	-5.99650184077E+00	-1.14819828071E+00
2.63009223247E+06	-1.36173550249E+01	1.77092191653E+02	1.15273084037E+01	1.66930228895E+02	-5.47728177219E+01	8.09070835053E-01	-5.99351889185E+00	-8.03980807521E-01
2.65228358707E+06	-1.30201131084E+01	-1.55954617938E+02	1.15783027205E+01	1.66584145921E+02	-4.29997482580E+01	1.57748459242E+02	-5.95370124322E+00	-1.24685941742E+00
2.67447494166E+06	-9.88812442475E+00	-1.55452982934E+02	1.15265450771E+01	1.66087245254E+02	-4.39403911153E+01	1.28207867542E+01	-6.00571281482E+00	-1.46446141523E+00
2.69666629626E+06	-1.44587704432E+01	-1.66617051287E+02	1.15587772113E+01	1.66335329061E+02	-4.24442981429E+01	-5.39009141032E+01	-6.02020071918E+00	-1.03073669431E+00
2.71885765085E+06	-1.33898405885E+01	-1.65120814954E+02	1.15486947269E+01	1.66003128634E+02	-5.46481789712E+01	-1.35157692759E+02	-6.00578188437E+00	-1.14433489379E+00
2.74104900545E+06	-1.32153294701E+01	-1.55609991671E+02	1.15676153915E+01	1.66065811280E+02	-4.31015969141E+01	6.68832652393E+01	-5.99516934117E+00	-1.11340412765E+00
2.76324036004E+06	-1.29880875059E+01	-1.50862148876E+02	1.15624571664E+01	1.65781856201E+02	-3.64312480820E+01	2.89034828983E+01	-6.02027548314E+00	-1.47727703689E+00
2.78543171463E+06	-1.65686019881E+01	-1.54678755042E+02	1.15599720638E+01	1.66024344989E+02	-6.00074010907E+01	-1.24479156771E+02	-5.99232144230E+00	-1.13254391364E+00
2.80762306923E+06	-1.74072286622E+01	1.73985688269E+02	1.15527567623E+01	1.66043733060E+02	-4.21486215468E+01	1.49578007649E+02	-5.97612350527E+00	-1.24630252102E+00
2.82981442382E+06	-1.48767884486E+01	-1.42419556712E+02	1.15876226497E+01	1.65697789793E+02	-4.69495420115E+01	8.75446830166E+01	-5.99046015180E+00	-1.26984013303E+00
2.85200577842E+06	-1.38581052966E+01	1.49559684670E+02	1.15230356500E+01	1.65921951162E+02	-4.56124661409E+01	-1.29221633933E+02	-5.99767580013E+00	-1.13604837800E+00
2.87419713301E+06	-1.13773603446E+01	-1.61391962382E+02	1.15669959217E+01	1.65184709983E+02	-5.03336963864E+01	1.71381038777E+02	-5.99865807109E+00	-1.36543816418E+00
