# Hz S DB R 50
! CMT, M5065, 19127446, 24.2.4/2
! Date: 11/8/2024 2:56:28 PM
! Data: Format (Calibration Info)
! Freq	S11:dB/Ang(F2)	S21:dB/Ang(F2)	S12:dB/Ang(F2)	S22:dB/Ang(F2)
3.00000000000E+05	-1.32711439977E+01	-1.64334693255E+02	8.27162688753E+00	-1.77642635627E+02	-4.91360070666E+01	5.66278542369E+01	-5.99061674100E+00	-2.62987649981E-01
3.22191354595E+05	-1.57545358587E+01	-1.76883927048E+02	8.32985013666E+00	-1.78173492791E+02	-4.94083465096E+01	-6.55162497996E+01	-6.00760481620E+00	-2.02422277085E-01
3.44382709190E+05	-1.15073498280E+01	-1.56547027005E+02	8.29482570796E+00	-1.78566398650E+02	-5.31816256430E+01	1.69860468054E+02	-5.99306374029E+00	-4.02307678083E-01
3.66574063785E+05	-1.68149581447E+01	-1.60893993102E+02	8.36618408353E+00	-1.78646873576E+02	-4.54353916160E+01	7.96154449138E+01	-5.99882826962E+00	-3.38684783605E-01
3.88765418380E+05	-1.33720648837E+01	-1.64881153190E+02	8.29522501975E+00	-1.79139616456E+02	-4.75080029118E+01	1.48567212744E+02	-6.02562887428E+00	-2.88210749315E-01
4.10956772975E+05	-1.21493721233E+01	1.59413527831E+02	8.28770862988E+00	-1.78888714305E+02	-5.36290559903E+01	1.26946183934E+02	-6.00298704590E+00	-3.00289715132E-01
4.33148127570E+05	-1.18121858531E+01	-1.71182247748E+02	8.30044101657E+00	-1.79551009507E+02	-4.50726685876E+01	-1.29803957308E+01	-6.00388971447E+00	-2.09112086251E-01
4.55339482165E+05	-1.30547810646E+01	-1.69075982930E+02	8.26089359163E+00	-1.79787980601E+02	-4.98381715558E+01	-2.38426622561E+01	-5.97851561826E+00	-1.39258385699E-01
4.77530836760E+05	-1.46840881474E+01	-1.79754387460E+02	8.30784333552E+00	-1.79693228989E+02	-4.92113871170E+01	-2.09838700967E+01	-5.99696102685E+00	-2.29700148444E-01
4.99722191355E+05	-1.31471549951E+01	-1.63352436840E+02	8.29600552539E+00	1.79823362073E+02	-4.36269122093E+01	1.11581143354E+02	-5.98781725621E+00	-4.53444856775E-01
5.21913545950E+05	-1.36839008324E+01	-1.67473536127E+02	8.33722068927E+00	1.79821879350E+02	-4.22081124992E+01	-7.25580066838E+01	-5.99245903801E+00	-1.16842952513E-01
5.44104900545E+05	-1.41732174051E+01	1.59324178004E+02	8.29969817386E+00	1.79585929311E+02	-5.25716288608E+01	-9.18828315173E+01	-5.99961437343E+00	-3.45488247217E-01
5.66296255139E+05	-1.35845107680E+01	-1.76572399118E+02	8.29356894720E+00	1.79589163180E+02	-4.22810776441E+01	1.49173898810E+02	-5.99173282688E+00	-4.45664633511E-01
5.88487609734E+05	-1.33542751727E+01	-1.79637230367E+02	8.29990943096E+00	1.79448823071E+02	-4.45897903235E+01	3.67224018075E+01	-6.02380353704E+00	-3.71879069918E-01
6.10678964329E+05	-1.52981569917E+01	-1.65845137276E+02	8.31524292209E+00	1.78922233775E+02	-5.51879034507E+01	9.77264702257E+01	-6.00569253310E+00	3.16503169617E-01
6.32870318924E+05	-1.20038330163E+01	1.79887193659E+02	8.26698734267E+00	1.78954411834E+02	-5.23447515029E+01	1.00058763615E+02	-5.99636827305E+00	-1.53192113421E-01
6.55061673519E+05	-1.17997541444E+01	-1.76128904230E+02	8.29720285996E+00	1.78766194509E+02	-4.48265907442E+01	4.66982600312E+01	-6.00084008956E+00	-2.88681554227E-01
6.77253028114E+05	-1.47132588062E+01	-1.48353324746E+02	8.32919066707E+00	1.78547426707E+02	-5.72105797655E+01	1.28524019793E+02	-5.98223901860E+00	-5.61503192661E-01
6.99444382709E+05	-1.37039417622E+01	-1.69512024083E+02	8.33551251956E+00	1.78305527730E+02	-4.21444012088E+01	-9.71703527344E+01	-5.99409886777E+00	-3.19207247527E-01
7.21635737304E+05	-1.17527910148E+01	-1.65359198523E+02	8.30448688529E+00	1.77992261776E+02	-4.86431366145E+01	-1.23018476468E+02	-5.99659815545E+00	-4.30928249035E-01
7.43827091899E+05	-2.18173057398E+01	-1.38678960423E+02	8.38515531824E+00	1.78132556387E+02	-5.29359320071E+01	3.80738158204E+01	-5.99980291504E+00	-4.72199835104E-01
7.66018446494E+05	-1.41376680486E+01	-1.76774493790E+02	8.29038945146E+00	1.78056128707E+02	-4.08017735264E+01	-6.44848125192E+00	-5.98520061406E+00	-3.18205002463E-01
7.88209801089E+05	-1.51226923973E+01	-1.59747848201E+02	8.29217489374E+00	1.77648001436E+02	-4.01532211742E+01	9.01355659402E+01	-6.00756686818E+00	-6.13157506948E-01
8.10401155684E+05	-1.17969393445E+01	1.77592522117E+02	8.27608612074E+00	1.77981444139E+02	-4.10086291560E+01	-5.27966492035E+01	-6.01990106929E+00	-3.77548817986E-01
8.32592510279E+05	-1.38624132057E+01	-1.70859068289E+02	8.34157379507E+00	1.77580350024E+02	-4.96965444683E+01	-3.59239020304E+01	-6.01020266604E+00	-5.28208299763E-01
8.54783864874E+05	-1.46002552807E+01	1.74656639821E+02	8.30155712719E+00	1.77712280671E+02	-5.52479307252E+01	-1.45618966875E+02	-5.99494514579E+00	-4.27254878023E-01
8.76975219469E+05	-1.65063854573E+01	1.75603722307E+02	8.35272237354E+00	1.77574648020E+02	-6.22010683597E+01	-5.12449372362E+01	-5.98720831371E+00	-3.65252736407E-01
8.99166574064E+05	-1.81329755556E+01	-1.45674868631E+02	8.35975516106E+00	1.77392465187E+02	-4.49981159791E+01	-1.67996814166E+02	-6.00265772197E+00	-4.65526087871E-01
9.21357928659E+05	-1.41539843938E+01	-1.79867611669E+02	8.30633648912E+00	1.77250342141E+02	-4.56966427169E+01	-4.24304787132E+01	-5.99433979271E+00	-3.23990050481E-01
9.43549283254E+05	-1.35682663397E+01	-1.63836971602E+02	8.30243311926E+00	1.76992858150E+02	-4.59941594973E+01	7.08954451755E+01	-5.99805684685E+00	-5.26267119807E-01
9.65740637849E+05	-1.54842855400E+01	-1.78411365911E+02	8.32488798784E+00	1.76860387257E+02	-4.80922489677E+01	1.40644802366E+02	-5.99727734893E+00	-5.10321191641E-01
9.87931992444E+05	-1.47164781888E+01	-1.77578593208E+02	8.32413836657E+00	1.76748114695E+02	-3.92767594701E+01	1.43013797549E+02	-5.97040713910E+00	-5.90550879329E-01
1.01012334704E+06	-1.30399586894E+01	-1.66646730492E+02	8.31856945271E+00	1.76399349525E+02	-4.24919830894E+01	-5.39977573033E+01	-6.00982318019E+00	-3.83948161860E-01
1.03231470163E+06	-1.86295042069E+01	1.71851244059E+02	8.35120642275E+00	1.76490612350E+02	-5.83533426344E+01	-1.46116535695E+02	-6.00297130777E+00	-5.14925131638E-01
1.05450605623E+06	-1.51034938293E+01	-1.67726966919E+02	8.33633279304E+00	1.76439015609E+02	-4.20975358321E+01	6.24349209133E+01	-6.00692891138E+00	-3.95311765011E-01
1.07669741082E+06	-1.61855789164E+01	-1.63120011440E+02	8.34103970037E+00	1.76443263898E+02	-4.02560355515E+01	-1.79441234407E+02	-5.97071470083E+00	-5.25620333214E-01
1.09888876542E+06	-9.77659633978E+00	1.79921019899E+02	8.28117863431E+00	1.75791553372E+02	-4.28094945478E+01	1.61586432800E+01	-6.00117175945E+00	-5.95664282846E-01
1.12108012001E+06	-1.40361636637E+01	-1.71004250397E+02	8.31627848583E+00	1.75878452797E+02	-3.76492900260E+01	-3.62347069827E+01	-6.02436287606E+00	-4.86024856261E-01
1.14327147461E+06	-1.16329875174E+01	-1.70698314178E+02	8.30412723066E+00	1.75767996217E+02	-4.93405535992E+01	-1.15400751083E+01	-6.00381785017E+00	-4.98209781908E-01
1.16546282920E+06	-1.23079511675E+01	1.74269819283E+02	8.32165455368E+00	1.75757987422E+02	-4.15267752332E+01	-1.26172837687E+02	-5.99862478174E+00	-5.22474378679E-01
1.18765418380E+06	-1.58273871814E+01	-1.73373838205E+02	8.30593904063E+00	1.75606632782E+02	-3.81470086536E+01	-4.74298772342E+01	-6.03005969793E+00	-4.60818810820E-01
1.20984553839E+06	-1.35527923089E+01	-1.77292970449E+02	8.28043635103E+00	1.75603301159E+02	-4.17349980230E+01	1.25240455698E+02	-5.98465630670E+00	-7.33657849266E-01
1.23203689299E+06	-1.28082534818E+01	1.60409768253E+02	8.31164287402E+00	1.75884095532E+02	-5.36974455153E+01	2.53294777844E+01	-6.00288323411E+00	-3.21467673878E-01
1.25422824758E+06	-1.37089556748E+01	1.78869132123E+02	8.29622135586E+00	1.75469016935E+02	-4.57675202093E+01	1.34452374104E+02	-5.98755595492E+00	-6.42930346664E-01
1.27641960218E+06	-1.41287819125E+01	-1.76662661732E+02	8.32217178500E+00	1.75235342059E+02	-4.97025845964E+01	1.19678342049E+02	-5.99810698870E+00	-5.54570393007E-01
1.29861095677E+06	-1.24685645247E+01	-1.60111653304E+02	8.30802731090E+00	1.74918205454E+02	-3.86683963027E+01	-8.40314106839E+01	-5.98738410960E+00	-4.82019019090E-01
1.32080231137E+06	-1.62956060629E+01	-1.62162006067E+02	8.32184765500E+00	1.75146777471E+02	-5.12512603164E+01	-1.87210326796E+01	-6.01968629050E+00	-1.05125554912E+00
1.34299366596E+06	-1.67849108246E+01	1.78103089429E+02	8.32330333999E+00	1.74962564707E+02	-5.34504368663E+01	1.57602742187E+01	-6.00270029489E+00	-6.24722420036E-01
1.36518502056E+06	-1.44597088827E+01	-1.65841237803E+02	8.31749782841E+00	1.74887283622E+02	-4.44193545418E+01	1.42826139354E+02	-5.96513478177E+00	-6.19528831383E-01
1.38737637515E+06	-1.47013356059E+01	1.64169503001E+02	8.33853871546E+00	1.74846896419E+02	-4.41750178621E+01	1.76131035886E+02	-5.96896284312E+00	-7.09200553875E-01
1.40956772975E+06	-1.12080061166E+01	-1.65212341449E+02	8.29687581617E+00	1.74623519205E+02	-4.68684280373E+01	-1.64879366259E+02	-5.98204337742E+00	-4.40400158717E-01
1.43175908434E+06	-1.36895736834E+01	-1.71002046583E+02	8.34583441241E+00	1.74443379964E+02	-4.52153654919E+01	-1.37912527689E+02	-6.00800425106E+00	-6.83488513368E-01
1.45395043894E+06	-1.12403528417E+01	-1.74623483408E+02	8.25830555213E+00	1.74210396629E+02	-5.41556913704E+01	-9.71447447095E+01	-5.98367829605E+00	-5.62875140225E-01
1.47614179353E+06	-1.23780614941E+01	1.73758272762E+02	8.33255106721E+00	1.74445614130E+02	-4.02658062898E+01	1.29867268184E+02	-5.97623685778E+00	-6.90355221054E-01
1.49833314813E+06	-1.17744976202E+01	-1.75731460070E+02	8.28999175767E+00	1.74347646971E+02	-5.04356547829E+01	-1.60762963336E+02	-6.00429774287E+00	-6.88269308019E-01
1.52052450272E+06	-1.43639522970E+01	-1.68123009953E+02	8.37786984750E+00	1.74036538770E+02	-4.38222585800E+01	1.27043798196E+02	-5.97769156858E+00	-7.52568702454E-01
1.54271585732E+06	-1.40122709350E+01	-1.34331111254E+02	8.38325474119E+00	1.73855603399E+02	-4.96872995354E+01	-2.97531911731E+01	-6.00074129718E+00	-5.35944839990E-01
1.56490721191E+06	-1.27434351617E+01	1.77335102894E+02	8.28784892456E+00	1.74018918207E+02	-5.13004602441E+01	-1.35139091822E+02	-6.00306114337E+00	-6.94124950924E-01
1.58709856651E+06	-1.35838291520E+01	-1.58553981311E+02	8.34711659364E+00	1.73743880362E+02	-4.37119875830E+01	1.67673256576E+02	-5.99859624719E+00	-7.00283411227E-01
1.60928992110E+06	-1.61040202720E+01	-1.59321591954E+02	8.36828895011E+00	1.73469168142E+02	-3.93160707589E+01	3.87803237176E+01	-5.99821643914E+00	-8.54292259241E-01
1.63148127570E+06	-1.34800077682E+01	-1.71146931465E+02	8.33302058859E+00	1.73767849286E+02	-5.02219564097E+01	-4.14306657197E+01	-5.98419209810E+00	-5.67257441019E-01
1.65367263029E+06	-1.51439996187E+01	-1.78181207438E+02	8.34287049148E+00	1.73428252830E+02	-4.75679927871E+01	1.68418530142E+02	-5.99122423878E+00	-6.69553680456E-01
1.67586398489E+06	-1.34176437599E+01	1.69847606848E+02	8.31716276453E+00	1.73478842588E+02	-3.94199051161E+01	1.49544267139E+02	-5.96635933895E+00	-8.68632641059E-01
1.69805533948E+06	-3.29720579870E+01	-1.17949047675E+02	8.37315141046E+00	1.73546359974E+02	-5.72499009963E+01	1.49028404906E+02	-5.99351078290E+00	-7.60233984591E-01
1.72024669408E+06	-1.49734833683E+01	-1.79517804137E+02	8.31845960013E+00	1.73343367081E+02	-4.13084315016E+01	-1.69482226269E+02	-5.97410336148E+00	-6.68774415263E-01
1.74243804867E+06	-1.66300383466E+01	-1.60866539406E+02	8.32864628413E+00	1.73231457354E+02	-4.08080640574E+01	6.85510556484E+01	-5.98169534911E+00	-9.28319304667E-01
1.76462940327E+06	-1.51552251766E+01	1.75321761493E+02	8.30311881830E+00	1.73099754932E+02	-4.54218942398E+01	-8.42769727044E+01	-6.00130420658E+00	-7.65258987310E-01
1.78682075786E+06	-1.37838073892E+01	1.75068033165E+02	8.31802502791E+00	1.73151764926E+02	-4.43011573095E+01	-1.18361994395E+02	-5.99431178979E+00	-6.84343332974E-01
1.80901211246E+06	-1.44212102488E+01	1.68619884318E+02	8.32749771144E+00	1.72795578501E+02	-5.32153301583E+01	1.00592441566E+02	-5.98332778525E+00	-8.62575511683E-01
1.83120346705E+06	-1.51186573697E+01	-1.59963535978E+02	8.32661553198E+00	1.72574753559E+02	-4.76788215359E+01	-5.95399994126E+01	-6.02354146714E+00	-9.13663108292E-01
1.85339482165E+06	-1.56048143077E+01	1.62816920097E+02	8.31591592632E+00	1.72929531979E+02	-3.71263520878E+01	-1.39280633127E+02	-5.98710970611E+00	-6.16896328474E-01
1.87558617624E+06	-2.03868780382E+01	1.76975362164E+02	8.37747105861E+00	1.72832833387E+02	-4.28247094994E+01	1.05972194435E+02	-5.99118935357E+00	-9.10355161394E-01
1.89777753084E+06	-1.48757712224E+01	-1.70292621317E+02	8.35192964358E+00	1.72500974008E+02	-4.50657660470E+01	-1.72501182939E+02	-5.99658299083E+00	-8.02186277155E-01
1.91996888543E+06	-1.50060818288E+01	-1.70456036297E+02	8.38436342572E+00	1.72236954177E+02	-4.02869122519E+01	1.34709925921E+02	-5.97792813292E+00	-6.97714200534E-01
1.94216024003E+06	-1.35910794288E+01	1.68404295079E+02	8.30926949542E+00	1.72351535557E+02	-4.16863812056E+01	-1.44155556018E+02	-5.98093398965E+00	-7.03469558850E-01
1.96435159462E+06	-1.35178738187E+01	-1.79914353806E+02	8.31601836043E+00	1.72012987011E+02	-4.67939183891E+01	-1.33668379980E+02	-6.00943476274E+00	-7.00759178083E-01
1.98654294922E+06	-1.35155715043E+01	-1.73543868572E+02	8.33478419738E+00	1.71816975400E+02	-4.63594832192E+01	-7.98274624364E+01	-6.02696300618E+00	-8.94389571642E-01
2.00873430381E+06	-7.12130282204E+00	1.49774360479E+02	8.22633197693E+00	1.71846417602E+02	-4.03007377851E+01	-1.24551027186E+02	-6.00416631674E+00	-7.65488474961E-01
2.03092565841E+06	-1.19427749423E+01	-1.70071869570E+02	8.30696244663E+00	1.71619766802E+02	-4.12680281211E+01	-7.33497703985E+01	-6.02355766903E+00	-8.85960112007E-01
2.05311701300E+06	-1.28569600550E+01	-1.68634921905E+02	8.31849319664E+00	1.71491404288E+02	-4.84414252730E+01	6.34828747408E+01	-6.01340202895E+00	-9.70946971651E-01
2.07530836760E+06	-1.61349219003E+01	1.73591764950E+02	8.37170955496E+00	1.71699916087E+02	-4.09043098415E+01	3.84253005737E+01	-6.00247956534E+00	-1.24589797604E+00
2.09749972219E+06	-1.22705566040E+01	-1.76009096554E+02	8.32749921831E+00	1.71240143207E+02	-5.08002002187E+01	1.61106248597E+02	-5.99366916143E+00	-8.63774031035E-01
2.11969107679E+06	-1.38309711779E+01	1.73315588195E+02	8.33921444452E+00	1.71550344538E+02	-4.30147518824E+01	-7.35767854471E+01	-6.01436012117E+00	-8.86761138570E-01
2.14188243138E+06	-1.42508850774E+01	-1.58440897502E+02	8.36095319378E+00	1.71268443096E+02	-4.85057024724E+01	-3.11350176334E+00	-5.99608026316E+00	-8.35090243149E-01
2.16407378598E+06	-9.50975013011E+00	-1.74359509056E+02	8.34443524570E+00	1.70843882452E+02	-4.92081634615E+01	3.03792331880E+01	-6.00852842222E+00	-1.18965811797E+00
2.18626514057E+06	-1.05494636288E+01	-1.50292447694E+02	8.33902499750E+00	1.70780185711E+02	-4.76419414207E+01	9.07407694400E+01	-5.99907724447E+00	-1.14761178401E+00
2.20845649517E+06	-1.38679335294E+01	-1.70535350529E+02	8.35541480196E+00	1.70814237548E+02	-3.90905092082E+01	1.32893938223E+02	-5.98313443551E+00	-8.63737905169E-01
2.23064784976E+06	-1.45374919684E+01	-1.65453531640E+02	8.38656015312E+00	1.71043295587E+02	-3.24066448746E+01	-1.25035323961E+02	-6.02040415756E+00	-7.11845289069E-01
2.25283920436E+06	-1.59120518116E+01	-1.71019463820E+02	8.36856997303E+00	1.70728744747E+02	-4.65607803356E+01	-2.51462933679E+01	-6.00168082468E+00	-9.34092056018E-01
2.27503055895E+06	-1.46366884748E+01	-1.57697730001E+02	8.36816270378E+00	1.70600680626E+02	-4.52586748731E+01	-1.35617384177E+02	-5.98798363289E+00	-9.35731811128E-01
2.29722191355E+06	-2.72238944562E+01	-1.58665779010E+02	8.41802089417E+00	1.70885167942E+02	-4.42370032183E+01	-1.06522277307E+02	-6.02534029104E+00	-1.08838532631E+00
2.31941326814E+06	-1.68990864320E+01	-1.53691724844E+02	8.36517795667E+00	1.70646528350E+02	-4.57139127540E+01	-1.29177685235E+02	-5.99238004917E+00	-9.14651955339E-01
2.34160462274E+06	-1.38808810126E+01	-1.70060591979E+02	8.32518255311E+00	1.70147234685E+02	-5.64994907551E+01	-1.03524855833E+02	-5.98441244384E+00	-9.39850139460E-01
2.36379597733E+06	-1.58576876590E+01	-1.76676297273E+02	8.38033936102E+00	1.70276838019E+02	-4.67261690618E+01	1.07130196569E+02	-5.99720008908E+00	-1.06195640525E+00
2.38598733193E+06	-1.18552415379E+01	-1.57503460123E+02	8.34862556795E+00	1.69718098022E+02	-3.70043557823E+01	-2.30139151867E+01	-6.00784868113E+00	-1.04931295035E+00
2.40817868652E+06	-1.21750358767E+01	-1.72337561941E+02	8.31662724031E+00	1.70020522932E+02	-3.95411908739E+01	1.65806990428E+02	-5.95178343801E+00	-1.18914911337E+00
2.43037004112E+06	-1.35933894149E+01	-1.58724644979E+02	8.38053387546E+00	1.70061314497E+02	-4.64112944297E+01	-3.05000513839E+01	-6.00678843089E+00	-1.24981073651E+00
2.45256139571E+06	-1.49370596800E+01	1.67632192206E+02	8.30488099321E+00	1.70100945085E+02	-4.70339189026E+01	1.49397829065E+02	-5.98164211692E+00	-1.00246720897E+00
2.47475275031E+06	-7.56211355218E+00	-1.69732144857E+02	8.34298774621E+00	1.69118660359E+02	-4.67649391425E+01	-7.06187690869E+01	-6.02225548606E+00	-1.00950658626E+00
2.49694410490E+06	-1.23422459451E+01	-1.76655834749E+02	8.34774918859E+00	1.69498670539E+02	-4.83105483158E+01	6.25417135244E+01	-6.02059445902E+00	-9.65827148112E-01
2.51913545950E+06	-1.16264915285E+01	-1.64489757498E+02	8.37207059626E+00	1.69283720444E+02	-4.09337210086E+01	-1.04471376454E+02	-6.00635976717E+00	-8.88391859514E-01
2.54132681409E+06	-1.41680961234E+01	-1.60925790175E+02	8.38116328234E+00	1.69443503689E+02	-3.78593084271E+01	1.56272122883E+02	-5.97538446414E+00	-1.04873241484E+00
2.56351816869E+06	-1.27336542738E+01	-1.68908030911E+02	8.36011074250E+00	1.69363654855E+02	-4.95770889274E+01	1.51876830845E+02	-5.98480755650E+00	-1.03821010108E+00
2.58570952328E+06	-1.09660220983E+01	-1.52608687782E+02	8.39841813537E+00	1.69067577014E+02	-5.02339054052E+01	1.53676516077E+02	-5.98693218869E+00	-1.13535797291E+00
2.60790087788E+06	-1.44323737532E+01	-1.50528117928E+02	8.38686096643E+00	1.69135489386E+02	-4.18471019803E+01	2.13402025423E+01	-5.99720759623E+00	-9.87748898947E-01
2.63009223247E+06	-8.42699881395E+00	1.77377449603E+02	8.31920645648E+00	1.68809912825E+02	-4.52086632359E+01	-8.04481047057E+01	-6.01365700265E+00	-5.72960508468E-01
2.65228358707E+06	-1.27173866382E+01	-1.68494562669E+02	8.34151666161E+00	1.68803437541E+02	-4.15481879970E+01	-1.24104620767E+01	-6.02393859297E+00	-1.27087297427E+00
2.67447494166E+06	-1.30427762108E+01	-1.56665388865E+02	8.39652235321E+00	1.68769593722E+02	-5.69304009509E+01	-1.26092877226E+02	-6.01524873719E+00	-1.12711606443E+00
2.69666629626E+06	-1.27846593589E+01	-1.65739698979E+02	8.37441635393E+00	1.68569380065E+02	-4.15804445759E+01	1.19695721980E+02	-5.98637159117E+00	-1.00577019418E+00
2.71885765085E+06	-1.57784266158E+01	-1.70260837930E+02	8.38321882452E+00	1.68710483738E+02	-4.57902757149E+01	2.08972622114E+01	-5.99304718533E+00	-1.15793998458E+00
2.74104900545E+06	-1.34843912257E+01	-1.59026410326E+02	8.37178289719E+00	1.68414998695E+02	-4.55663376640E+01	1.49848703346E+02	-6.00217581944E+00	-1.35525484040E+00
2.76324036004E+06	-1.42324080641E+01	-1.76045828823E+02	8.41507801308E+00	1.68605819141E+02	-4.64245515595E+01	-5.40404390479E+01	-6.03118869876E+00	-1.11542542959E+00
2.78543171463E+06	-1.64700419793E+01	-1.63367703073E+02	8.41489506549E+00	1.68426789709E+02	-5.57396338809E+01	1.16744603942E+01	-5.99535313448E+00	-1.30953940828E+00
2.80762306923E+06	-1.32269482244E+01	-1.72744893106E+02	8.35735426344E+00	1.68277028411E+02	-6.47168627512E+01	-1.02013266560E+02	-6.01479802234E+00	-1.22528711426E+00
2.82981442382E+06	-1.41314098190E+01	-1.77460123464E+02	8.35751808018E+00	1.68155421940E+02	-4.19391339640E+01	-6.35433349867E-01	-6.00897129513E+00	-1.15040630358E+00
2.85200577842E+06	-1.28200280659E+01	-1.64124644732E+02	8.35401740340E+00	1.68059541196E+02	-5.41608349941E+01	2.12181711971E+01	-6.00703816629E+00	-1.21616093133E+00
2.87419713301E+06	-1.23978743191E+01	1.78571603369E+02	8.37687354884E+00	1.67938274397E+02	-5.15000085485E+01	3.77811455132E+01	-6.00257475790E+00	-1.34912820952E+00
