# Hz S DB R 50
! CMT, M5065, 19127446, 24.2.4/2
! Date: 11/8/2024 3:18:26 PM
! Data: Format (Calibration Info)
! Freq	S11:dB/Ang(F2)	S21:dB/Ang(F2)	S12:dB/Ang(F2)	S22:dB/Ang(F2)
3.00000000000E+05	-1.79466815165E+01	-1.59807046340E+02	1.73686739996E+01	-1.76988875821E+02	-4.31157941883E+01	-8.40668137424E+01	-6.00964449624E+00	-7.24104469717E-02
3.22191354595E+05	-1.69824678705E+01	-1.63245016239E+02	1.73975324286E+01	-1.77544054140E+02	-5.07661874261E+01	-1.60119454223E+02	-5.97388202282E+00	-3.07738754051E-01
3.44382709190E+05	-1.43234425365E+01	-1.69581113231E+02	1.73561214149E+01	-1.78193664020E+02	-4.82815870846E+01	3.84218592146E+01	-6.01154889134E+00	-4.13089696523E-01
3.66574063785E+05	-1.47897906838E+01	1.79303660721E+02	1.73694507412E+01	-1.78528340381E+02	-5.04984504333E+01	1.19143930856E+02	-5.99678153308E+00	-3.61435236011E-01
3.88765418380E+05	-1.67559022990E+01	-1.54992020466E+02	1.74139171919E+01	-1.78933615063E+02	-4.28730219644E+01	4.90421293375E+01	-6.00868243733E+00	-6.70743138693E-01
4.10956772975E+05	-1.45414885358E+01	-1.72024180075E+02	1.73533147843E+01	-1.79529991673E+02	-4.64599352765E+01	-1.78929804230E+02	-5.97833760092E+00	-3.88819651349E-01
4.33148127570E+05	-1.90091023427E+01	1.74325884184E+02	1.73996771541E+01	-1.79775618757E+02	-4.83552973791E+01	-1.51416065336E+02	-5.97856348569E+00	-3.38199405382E-02
4.55339482165E+05	-1.51831067988E+01	1.79641760917E+02	1.73807468396E+01	1.79778789820E+02	-4.66568791767E+01	3.56722600897E+01	-6.00877384369E+00	-2.64755748913E-01
4.77530836760E+05	-1.06002801489E+01	1.65300307742E+02	1.73570788159E+01	1.79461627302E+02	-4.63427881072E+01	-1.79042906137E+02	-5.98507407851E+00	-4.02242843966E-01
4.99722191355E+05	-1.59468845091E+01	1.63782614745E+02	1.73779205221E+01	1.79393061177E+02	-4.49530375408E+01	5.22692323183E+01	-6.01386048672E+00	-4.45990096074E-01
5.21913545950E+05	-1.94022581735E+01	1.74308446690E+02	1.73781089229E+01	1.79033197424E+02	-3.96605122122E+01	1.25970072091E+01	-6.07343052976E+00	-4.91094359478E-01
5.44104900545E+05	-1.86355665659E+01	1.76421989282E+02	1.74028966286E+01	1.78420961516E+02	-5.10299367434E+01	-4.56734197567E+01	-5.99053186250E+00	-3.16728695071E-01
5.66296255139E+05	-1.43734236540E+01	-1.67673032563E+02	1.73690989264E+01	1.78054074391E+02	-6.25132962643E+01	-1.76578078776E+02	-5.98749786183E+00	-4.04767793944E-01
5.88487609734E+05	-1.54825265569E+01	-1.79349687313E+02	1.73657032998E+01	1.77904962740E+02	-4.10114376561E+01	1.19226341881E+02	-5.95971620111E+00	-6.95275884132E-01
6.10678964329E+05	-1.47008100057E+01	-1.75430747310E+02	1.73792653241E+01	1.77636430193E+02	-4.47835923109E+01	-3.89117068937E+01	-6.02880107999E+00	1.83901339548E-01
6.32870318924E+05	-1.55295954298E+01	-1.79610947691E+02	1.73876363203E+01	1.77270686282E+02	-5.23049911820E+01	2.11190670601E+01	-6.01530259047E+00	-1.54756617161E-01
6.55061673519E+05	-1.21915992986E+01	-1.71077999822E+02	1.73429191110E+01	1.76847204271E+02	-4.49932759582E+01	-1.73101344865E+02	-5.97266561064E+00	-1.79330303357E-01
6.77253028114E+05	-1.45357953521E+01	1.77666206297E+02	1.73832104978E+01	1.77004985548E+02	-4.69010075050E+01	-1.41739452946E+02	-6.01092437975E+00	-4.77265641171E-01
6.99444382709E+05	-1.15467850472E+01	-1.72555376999E+02	1.73530947338E+01	1.76570180990E+02	-4.71331883160E+01	2.81115040140E+01	-6.01871760676E+00	-6.96627296760E-01
7.21635737304E+05	-1.17647874035E+01	1.73773113550E+02	1.73265913524E+01	1.76319979481E+02	-5.13724535667E+01	-2.51672568729E+01	-6.01749672680E+00	-4.14417203447E-01
7.43827091899E+05	-1.50677917008E+01	1.76071291400E+02	1.73776511804E+01	1.75962547672E+02	-3.68953868669E+01	-1.63892778556E+02	-5.95849901043E+00	-2.24861312500E-01
7.66018446494E+05	-1.39738459262E+01	-1.76274841390E+02	1.73489636631E+01	1.75658294691E+02	-4.37142773498E+01	2.89975060215E+01	-6.01803203493E+00	-5.00722612254E-01
7.88209801089E+05	-1.15523811137E+01	1.71245537090E+02	1.73267082083E+01	1.75660448896E+02	-5.70323592775E+01	9.78410198740E+01	-6.00125710950E+00	-4.79365249548E-01
8.10401155684E+05	-1.50331472763E+01	1.54436432280E+02	1.73778138541E+01	1.75687098690E+02	-4.48621563286E+01	7.77516764952E+01	-5.96974361177E+00	-6.42032973243E-01
8.32592510279E+05	-1.64123946026E+01	1.69159286026E+02	1.73879397528E+01	1.75298548484E+02	-4.04085220120E+01	1.37538558484E+02	-5.95874724705E+00	-6.45359197293E-01
8.54783864874E+05	-1.42935446548E+01	-1.70085826705E+02	1.73710442839E+01	1.75014427169E+02	-4.28786893031E+01	-1.65518304761E+02	-5.97182476902E+00	-1.76441097985E-01
8.76975219469E+05	-1.23973151444E+01	-1.73582612682E+02	1.73415999038E+01	1.74628510039E+02	-4.54389009340E+01	2.08964847359E+01	-6.01986955929E+00	-6.69952607403E-01
8.99166574064E+05	-1.50802832089E+01	-1.77587696386E+02	1.73455479369E+01	1.74475041860E+02	-4.66842543292E+01	-1.68701695228E+02	-5.99953211909E+00	-3.06749711071E-01
9.21357928659E+05	-1.58269553563E+01	-1.60628291047E+02	1.73760672514E+01	1.74190878932E+02	-5.39340033588E+01	1.06391868839E+02	-6.00351850706E+00	-4.12254657206E-01
9.43549283254E+05	-1.50309461053E+01	1.77541070790E+02	1.73381052648E+01	1.74005192155E+02	-4.16284624099E+01	3.64301393728E+01	-6.03753105321E+00	-7.45896329935E-01
9.65740637849E+05	-1.09688705866E+01	-1.79920905131E+02	1.73066662723E+01	1.73778630883E+02	-4.32163367050E+01	1.72590796743E+01	-6.04072617724E+00	-6.51100141967E-01
9.87931992444E+05	-1.37270417348E+01	-1.77842496524E+02	1.73709322117E+01	1.73573730310E+02	-4.86491000493E+01	-6.73934538448E+01	-5.98793929510E+00	-2.78033685128E-01
1.01012334704E+06	-1.49136383371E+01	-1.74135535668E+02	1.73570645339E+01	1.73486714819E+02	-4.69908458535E+01	-8.65272197791E+01	-5.99933777226E+00	-4.21461723310E-01
1.03231470163E+06	-1.71342694556E+01	1.59999056968E+02	1.73641473265E+01	1.73432123470E+02	-4.08393132215E+01	1.42535167727E+02	-5.96120582978E+00	-5.96642240498E-01
1.05450605623E+06	-1.32727894619E+01	1.73492882014E+02	1.73128446177E+01	1.73111249730E+02	-4.20021284388E+01	7.83366101143E+01	-6.01380860634E+00	-6.95443496952E-01
1.07669741082E+06	-1.51208239569E+01	1.63924238045E+02	1.73404430305E+01	1.72873997105E+02	-5.32202065547E+01	-1.56182558858E+02	-5.99426960621E+00	-5.15626920711E-01
1.09888876542E+06	-1.23673569510E+01	-1.71798727833E+02	1.73256064756E+01	1.72315800348E+02	-4.42097390215E+01	1.40167166040E+02	-5.96089480337E+00	-6.84607213445E-01
1.12108012001E+06	-1.48928140348E+01	-1.40373129486E+02	1.73683803733E+01	1.72243885095E+02	-4.80939281869E+01	1.10211735059E+02	-5.99836498313E+00	-7.59162632941E-01
1.14327147461E+06	-1.45882068352E+01	-1.79163438716E+02	1.73517211395E+01	1.72187871282E+02	-4.65172500756E+01	-5.01163586016E+01	-5.99659823824E+00	-3.96475888572E-01
1.16546282920E+06	-1.52995698576E+01	1.76241370771E+02	1.73575099814E+01	1.72100397665E+02	-4.22439586651E+01	1.73077075435E+02	-5.93987574881E+00	-5.75721876672E-01
1.18765418380E+06	-1.25545179965E+01	-1.74223374666E+02	1.73488706563E+01	1.71784388554E+02	-4.24088331186E+01	1.72499033085E+02	-5.97971754050E+00	-6.35399346833E-01
1.20984553839E+06	-1.40296494109E+01	-1.69776263198E+02	1.73605785193E+01	1.71381575302E+02	-4.53813849768E+01	-6.76415867088E+01	-6.02985350575E+00	-5.67633873278E-01
1.23203689299E+06	-1.62985530446E+01	-1.69766341471E+02	1.73598504002E+01	1.71425675656E+02	-4.18805649477E+01	-1.63143416556E+02	-5.96798923247E+00	-7.94476380776E-02
1.25422824758E+06	-1.35414007049E+01	-1.70194503655E+02	1.73374398926E+01	1.71104415560E+02	-4.34631971218E+01	1.60122900331E+02	-5.96005109338E+00	-5.93317820715E-01
1.27641960218E+06	-1.14029704695E+01	1.70208358253E+02	1.73082594849E+01	1.70916721303E+02	-5.57562326039E+01	1.59913118994E+01	-6.01559016907E+00	-5.95621857858E-01
1.29861095677E+06	-1.33808983419E+01	-1.78697447306E+02	1.73366714310E+01	1.70807390384E+02	-5.21471485186E+01	-7.75629462752E+00	-6.01803319765E+00	-5.92196657011E-01
1.32080231137E+06	-2.11048761215E+01	-1.64943105640E+02	1.73872827320E+01	1.70758705502E+02	-5.25014953416E+01	-1.56763174461E+02	-5.96534305212E+00	-7.59073031166E-01
1.34299366596E+06	-1.27351241986E+01	1.76056414345E+02	1.73371988510E+01	1.70439880882E+02	-4.58882675540E+01	1.31381391258E+02	-5.95220947182E+00	-7.19217956051E-01
1.36518502056E+06	-1.36301959358E+01	1.78449716803E+02	1.73545352062E+01	1.70320259404E+02	-4.23308918662E+01	9.86366944990E+01	-5.98086245692E+00	-7.95173617859E-01
1.38737637515E+06	-1.22781417024E+01	1.76714523753E+02	1.73118684993E+01	1.69960362721E+02	-3.79071534942E+01	-2.50103272885E+01	-6.06963284491E+00	-6.06243697010E-01
1.40956772975E+06	-1.15143909123E+01	-1.57903014378E+02	1.73252549703E+01	1.69647559956E+02	-4.44571853853E+01	-1.41047003876E+02	-5.99129530141E+00	-3.95548897547E-01
1.43175908434E+06	-1.39781492619E+01	-1.77248947044E+02	1.73364200305E+01	1.69625057748E+02	-4.12941983590E+01	4.22566736137E+01	-6.03521721798E+00	-9.32671178500E-01
1.45395043894E+06	-1.49401079344E+01	1.59802805548E+02	1.73394355963E+01	1.69713769926E+02	-5.39640288606E+01	-1.78872317936E+02	-5.98816076278E+00	-8.83371529550E-01
1.47614179353E+06	-1.65416190991E+01	1.77476458169E+02	1.73657488594E+01	1.69391901657E+02	-4.66513080321E+01	8.85088649048E+01	-6.01675803229E+00	-8.12023874231E-01
1.49833314813E+06	-1.35107324446E+01	1.79932632728E+02	1.73381861278E+01	1.69172087512E+02	-5.45901215420E+01	1.48758318394E+02	-5.98643473016E+00	-5.43752285351E-01
1.52052450272E+06	-1.20429857226E+01	-1.79544393902E+02	1.73143363809E+01	1.68815603964E+02	-5.05763781096E+01	-2.47467814259E+01	-6.01369805342E+00	-7.15540238244E-01
1.54271585732E+06	-1.23904051365E+01	-1.62702250976E+02	1.73204029549E+01	1.68570024207E+02	-4.95932108989E+01	-4.02527593571E+01	-6.01187376019E+00	-3.25833007587E-01
1.56490721191E+06	-1.05710164168E+01	1.67463480828E+02	1.73062061538E+01	1.68413537987E+02	-4.48710895226E+01	-1.89345733842E+01	-6.02299264948E+00	-6.41006755424E-01
1.58709856651E+06	-1.45520350567E+01	-1.78805530521E+02	1.73109407082E+01	1.68266905535E+02	-4.80541753399E+01	6.66727521055E+00	-6.02048075034E+00	-7.80290102681E-01
1.60928992110E+06	-1.36180153385E+01	-1.54035487664E+02	1.73202563831E+01	1.67948260988E+02	-4.20836996772E+01	8.16947713650E+01	-5.97549470022E+00	-9.86004401812E-01
1.63148127570E+06	-1.15950251318E+01	1.75714521524E+02	1.73086823851E+01	1.67972884742E+02	-4.15601310586E+01	-6.77551258715E+01	-6.03833371566E+00	-3.81153453942E-01
1.65367263029E+06	-1.38345212704E+01	-1.64073131147E+02	1.73307376033E+01	1.67570631655E+02	-5.02814454370E+01	8.67759359135E+01	-5.97895741029E+00	-8.84565567790E-01
1.67586398489E+06	-1.34037427941E+01	1.77795562251E+02	1.73235741267E+01	1.67649446749E+02	-4.59498079741E+01	-9.18762287383E+01	-6.05774419950E+00	-6.08833382411E-01
1.69805533948E+06	-1.60056394087E+01	-1.49791213781E+02	1.73615433304E+01	1.67352996083E+02	-4.32841646444E+01	-1.16869569985E+02	-6.00117647796E+00	-5.14116315932E-01
1.72024669408E+06	-1.32077831037E+01	1.73134439180E+02	1.72944993111E+01	1.67193562063E+02	-4.76896250073E+01	4.68173180480E+01	-6.02132310777E+00	-7.74350219656E-01
1.74243804867E+06	-1.35302641373E+01	-1.32803022977E+02	1.73585053270E+01	1.66894877936E+02	-4.04205038202E+01	-1.02817469792E+02	-6.03320035379E+00	-4.35773661204E-01
1.76462940327E+06	-1.46124820615E+01	1.74264735429E+02	1.73161185854E+01	1.66847868937E+02	-4.71321945286E+01	-6.36211623114E+01	-5.99932432853E+00	-6.76170947217E-01
1.78682075786E+06	-1.51634306293E+01	1.70952596945E+02	1.73198062052E+01	1.66791802131E+02	-4.46574948879E+01	-2.80986549169E+01	-6.03314587008E+00	-7.50029639055E-01
1.80901211246E+06	-1.16928606497E+01	-1.75812991257E+02	1.72754566758E+01	1.66500837223E+02	-4.61768688714E+01	-1.66093796141E+02	-5.97391076029E+00	-6.32306158396E-01
1.83120346705E+06	-1.32362591270E+01	-1.63472150433E+02	1.73394181512E+01	1.66124841776E+02	-3.77353560048E+01	-1.52741822505E+02	-5.96453478446E+00	-3.31689413016E-01
1.85339482165E+06	-1.59769619059E+01	-1.75797325728E+02	1.73224411337E+01	1.66185406325E+02	-5.45584284751E+01	-1.21406275803E+02	-5.97704316629E+00	-6.85151069131E-01
1.87558617624E+06	-1.28884301860E+01	-1.57373098656E+02	1.73380946216E+01	1.65645960256E+02	-4.25631428223E+01	2.18993305852E+01	-6.03406706746E+00	-9.06053799564E-01
1.89777753084E+06	-1.09884831250E+01	1.61631557751E+02	1.72516031681E+01	1.65908716057E+02	-4.84420792918E+01	-7.44938396736E+01	-6.02406091176E+00	-7.81500663603E-01
1.91996888543E+06	-1.31349068939E+01	-1.78016951249E+02	1.73128754535E+01	1.65703903743E+02	-5.28288849249E+01	4.06606322698E+01	-5.99987448746E+00	-1.13253788633E+00
1.94216024003E+06	-1.55556247451E+01	-1.56325938934E+02	1.73319149580E+01	1.65420902540E+02	-4.54705535862E+01	1.28578985384E+02	-5.98590133338E+00	-9.99079535868E-01
1.96435159462E+06	-1.32084317681E+01	-1.77365642664E+02	1.72934978665E+01	1.65197852260E+02	-4.46217868282E+01	4.68945466387E+01	-6.01486601181E+00	-1.18235512315E+00
1.98654294922E+06	-1.37172204320E+01	-1.61544309101E+02	1.73152457139E+01	1.64988954476E+02	-3.78120261251E+01	-1.01999020444E+02	-6.03569631840E+00	-3.05627495136E-01
2.00873430381E+06	-1.21367943260E+01	-1.61823909542E+02	1.73288534674E+01	1.64635457222E+02	-3.88906310362E+01	1.63500026923E+02	-5.94381185811E+00	-8.51869338318E-01
2.03092565841E+06	-1.26903821303E+01	-1.64637665638E+02	1.73013843618E+01	1.64542118827E+02	-4.12938711150E+01	-1.21759244739E+02	-5.99268239706E+00	-5.86948044874E-01
2.05311701300E+06	-3.74731121958E+01	1.83004214571E+01	1.73506173814E+01	1.64674182677E+02	-4.23999276827E+01	-1.92165061352E+01	-6.06953376157E+00	-8.81551570117E-01
2.07530836760E+06	-1.22408184047E+01	1.75356647078E+02	1.72826532047E+01	1.64364367597E+02	-5.15034523312E+01	6.53899026209E+01	-5.99161124977E+00	-1.06389969928E+00
2.09749972219E+06	-1.80195603840E+01	-1.57440377089E+02	1.73524017353E+01	1.64218293716E+02	-4.45109217486E+01	4.19509719356E+01	-6.01535939116E+00	-1.11971725243E+00
2.11969107679E+06	-1.36701434385E+01	-1.66581208792E+02	1.73302883980E+01	1.63928978443E+02	-4.32488887483E+01	-1.35186227840E+02	-5.97019625476E+00	-7.41386953812E-01
2.14188243138E+06	-1.44938564796E+01	-1.75194203475E+02	1.73202125404E+01	1.63797591920E+02	-3.88220481762E+01	6.65470025187E+01	-6.00006659800E+00	-1.25654142638E+00
2.16407378598E+06	-1.50934916320E+01	1.78719807067E+02	1.73171293978E+01	1.63616362754E+02	-4.40733457557E+01	-5.36991742655E+01	-6.04830299414E+00	-9.56807054805E-01
2.18626514057E+06	-1.35386639855E+01	-1.79293191692E+02	1.73066783741E+01	1.63426008942E+02	-4.52286202403E+01	-1.36726057803E+02	-5.99172698562E+00	-7.82582694452E-01
2.20845649517E+06	-1.05089378660E+01	-1.38540238901E+02	1.73529310083E+01	1.62943508280E+02	-4.12925330642E+01	1.51623891014E+02	-5.95425609598E+00	-1.16283456808E+00
2.23064784976E+06	-1.34260730995E+01	-1.71395877183E+02	1.72790135562E+01	1.62847893479E+02	-5.56928940212E+01	1.86014318090E+01	-6.04304202262E+00	-9.26913778209E-01
2.25283920436E+06	-1.37153544629E+01	-1.72729451799E+02	1.73014642202E+01	1.62681516428E+02	-4.33044424308E+01	-1.87132230766E+01	-6.03991765929E+00	-1.03501736290E+00
2.27503055895E+06	-1.12099064313E+01	-1.70688270771E+02	1.72868430151E+01	1.62528897938E+02	-4.63445128040E+01	-2.64607501190E+00	-6.04096751582E+00	-1.08002471757E+00
2.29722191355E+06	-1.27057903121E+01	-1.78279594923E+02	1.72889195199E+01	1.62473741081E+02	-3.79574256229E+01	1.56181878538E+00	-6.05769628333E+00	-1.27611367616E+00
2.31941326814E+06	-1.54016916780E+01	-1.55917453153E+02	1.73329130244E+01	1.62213600397E+02	-3.43927646029E+01	1.38216592250E+02	-5.90683882438E+00	-1.25027224924E+00
2.34160462274E+06	-1.39539926471E+01	-1.72981615233E+02	1.73148657417E+01	1.62143058650E+02	-3.85753257139E+01	1.14167869877E+02	-5.92292916749E+00	-1.34295373124E+00
2.36379597733E+06	-1.17860854824E+01	-1.66631986775E+02	1.73132941750E+01	1.61897293682E+02	-4.58927444060E+01	-1.22213930657E+02	-5.97395599237E+00	-9.08529568089E-01
2.38598733193E+06	-1.48759826742E+01	-1.68253577527E+02	1.73151729101E+01	1.61832143198E+02	-5.03262270109E+01	-1.71425221467E+02	-5.95497671438E+00	-9.89284236597E-01
2.40817868652E+06	-1.63557348691E+01	-1.59750090338E+02	1.73560798370E+01	1.61508867296E+02	-4.68891952204E+01	7.70245633413E+01	-5.99739201882E+00	-1.21577987983E+00
2.43037004112E+06	-1.36230675743E+01	1.71156976553E+02	1.72757655440E+01	1.61482160183E+02	-4.60641645212E+01	7.28902014660E+01	-5.98680596087E+00	-1.64507555813E+00
2.45256139571E+06	-1.61423712997E+01	1.75475126335E+02	1.73141341163E+01	1.61469909372E+02	-3.66072013458E+01	8.92539017021E+01	-5.97550679044E+00	-1.43547887901E+00
2.47475275031E+06	-1.38935662152E+01	1.68459930730E+02	1.72840764081E+01	1.61336344638E+02	-4.77123407451E+01	4.73927506352E+00	-6.04901424840E+00	-9.65512625361E-01
2.49694410490E+06	-1.78876828299E+01	-1.62238051359E+02	1.73139132648E+01	1.60952770234E+02	-4.71810555567E+01	-8.92851459689E+01	-6.04288906543E+00	-9.38590767842E-01
2.51913545950E+06	-1.50264078007E+01	1.74077661276E+02	1.73013296559E+01	1.60710261040E+02	-4.39481510481E+01	1.31511147634E+02	-5.96819668412E+00	-1.14127091295E+00
2.54132681409E+06	-1.44885680473E+01	-1.74415335759E+02	1.73244832631E+01	1.60438278498E+02	-4.73923949141E+01	-1.11215929451E+02	-5.99232094440E+00	-9.64728885813E-01
2.56351816869E+06	-1.47793391769E+01	1.76958924930E+02	1.73058331459E+01	1.60449898296E+02	-4.29240030072E+01	1.17673534183E+02	-5.97571204648E+00	-1.29285285421E+00
2.58570952328E+06	-1.51788460888E+01	-1.56258134377E+02	1.73363361829E+01	1.60096674671E+02	-3.98339428424E+01	7.90909825782E+00	-6.06293338844E+00	-1.35943585851E+00
2.60790087788E+06	-1.25895355698E+01	-1.69317964636E+02	1.73000898637E+01	1.59888294642E+02	-3.78963286435E+01	-3.57022605942E+01	-6.10408713561E+00	-1.04478952800E+00
2.63009223247E+06	-1.61766381000E+01	-1.79225780654E+02	1.72895860589E+01	1.59923255651E+02	-3.38256983327E+01	5.61347057805E+01	-5.99716633852E+00	-1.57547282720E+00
2.65228358707E+06	-1.41841981526E+01	-1.65855164897E+02	1.72880083736E+01	1.59504042816E+02	-7.96409508380E+01	-4.76250872486E+01	-5.98852836812E+00	-1.24579031293E+00
2.67447494166E+06	-9.62415627204E+00	-1.70763446775E+02	1.72776478050E+01	1.59129203412E+02	-4.36809602651E+01	-9.95074382899E+01	-5.99057827345E+00	-9.22859254919E-01
2.69666629626E+06	-1.18106960746E+01	-1.79537621621E+02	1.72605822931E+01	1.59165443857E+02	-5.81521233140E+01	6.70158995207E+01	-6.00068908504E+00	-1.13280725764E+00
2.71885765085E+06	-1.44491309838E+01	-1.78055187311E+02	1.72881266687E+01	1.59094253388E+02	-4.48615766955E+01	-3.61227435313E+01	-6.04247884801E+00	-9.70432677555E-01
2.74104900545E+06	-1.71949019541E+01	-1.77040460462E+02	1.73189501512E+01	1.59115532260E+02	-5.88193787623E+01	-6.57952401035E+01	-5.99812902499E+00	-1.20368398360E+00
2.76324036004E+06	-1.68922354910E+01	-1.75354838815E+02	1.73030981695E+01	1.58980499111E+02	-4.63116200575E+01	-7.53037608337E-01	-6.01831736483E+00	-1.34142970201E+00
2.78543171463E+06	-1.59392236117E+01	-1.76920512800E+02	1.73042161955E+01	1.58633072448E+02	-3.66774168279E+01	-1.02871679602E+02	-6.05501362280E+00	-6.83182309894E-01
2.80762306923E+06	-1.29490393502E+01	-1.70810427583E+02	1.72674742055E+01	1.58193097779E+02	-4.41048318051E+01	6.36161240566E+01	-5.99661742275E+00	-1.77269945958E+00
2.82981442382E+06	-1.31093488363E+01	-1.62364735840E+02	1.72928513029E+01	1.58087474559E+02	-4.82250543824E+01	4.36389085775E+01	-6.01761806585E+00	-1.49131035145E+00
2.85200577842E+06	-1.37234248886E+01	-1.69335556642E+02	1.72947215443E+01	1.57878346631E+02	-4.97574373734E+01	1.76717732388E+02	-5.97160003305E+00	-1.25988025781E+00
2.87419713301E+06	-1.42665059492E+01	1.72301892356E+02	1.72719322840E+01	1.57857728101E+02	-4.52459593367E+01	3.19471288630E+01	-6.04125657278E+00	-1.35557415632E+00
