# Hz S DB R 50
! CMT, M5065, 19127446, 24.2.4/2
! Date: 11/8/2024 3:17:18 PM
! Data: Format (Calibration Info)
! Freq	S11:dB/Ang(F2)	S21:dB/Ang(F2)	S12:dB/Ang(F2)	S22:dB/Ang(F2)
3.00000000000E+05	-1.08804690217E+01	-1.61581766676E+02	1.61068122075E+01	-1.77320651941E+02	-3.91521110214E+01	-1.24044362927E+02	-5.97306760105E+00	1.96274845944E-01
3.22191354595E+05	-1.59346006988E+01	1.57092962539E+02	1.61261846955E+01	-1.77516898970E+02	-3.92522014972E+01	-1.65342050555E+02	-5.95396392621E+00	-1.82136428582E-01
3.44382709190E+05	-1.33562528549E+01	-1.67231557337E+02	1.61273243582E+01	-1.78348511897E+02	-4.60834732455E+01	1.26063745996E+02	-5.99437650383E+00	-2.37200009021E-01
3.66574063785E+05	-1.28629096243E+01	-1.79107838265E+02	1.61232390469E+01	-1.78503238821E+02	-4.28413797513E+01	6.70122751237E+01	-6.00694307382E+00	-4.45995781205E-01
3.88765418380E+05	-1.51980220821E+01	-1.52546930463E+02	1.60869703468E+01	-1.79205969794E+02	-4.38780620426E+01	-5.55888331521E+01	-6.06482110026E+00	-2.14595807391E-01
4.10956772975E+05	-1.55015415556E+01	1.78977921261E+02	1.61379090475E+01	-1.79270860934E+02	-5.22249111599E+01	-9.44426519829E+01	-6.00483129298E+00	-2.78466295711E-01
4.33148127570E+05	-1.35096545159E+01	-1.51247940725E+02	1.61237292468E+01	-1.79993822912E+02	-4.15476638282E+01	-2.65114063296E+00	-6.05502276958E+00	-5.75389261827E-01
4.55339482165E+05	-1.62680818599E+01	-1.62332359937E+02	1.61493407277E+01	1.79688794810E+02	-4.43653246923E+01	-3.41699874501E+00	-6.02655124892E+00	-2.61922569213E-01
4.77530836760E+05	-1.34254052172E+01	1.58494542278E+02	1.61053915337E+01	1.79784765083E+02	-5.06916219001E+01	-3.50300587650E+01	-6.03706029196E+00	-1.80266853749E-01
4.99722191355E+05	-1.32375252961E+01	-1.60329825773E+02	1.61332922360E+01	1.79204682627E+02	-3.89314028683E+01	-9.60804682000E+01	-6.02492364798E+00	1.63550940613E-01
5.21913545950E+05	-1.21534362255E+01	1.57094299554E+02	1.61042145402E+01	1.79295109650E+02	-5.77413274020E+01	1.37049616324E+02	-5.97571021111E+00	-2.08111390279E-01
5.44104900545E+05	-1.18448175199E+01	1.72929339576E+02	1.61117151658E+01	1.78947599563E+02	-4.84665805503E+01	-1.95932599670E+00	-6.00699868752E+00	-3.95780065771E-01
5.66296255139E+05	-1.82316973771E+01	-1.67488491906E+02	1.61581100329E+01	1.78454325324E+02	-4.13319295171E+01	9.83823050499E+01	-5.99086426658E+00	-5.06251829095E-01
5.88487609734E+05	-1.41555137121E+01	1.74529917450E+02	1.61298258941E+01	1.78315320943E+02	-4.29423790252E+01	1.77304915678E+02	-5.97452645118E+00	-3.37971864422E-01
6.10678964329E+05	-1.23489060184E+01	1.78501274458E+02	1.61002612261E+01	1.77901563364E+02	-4.30776922867E+01	5.16771128226E+01	-6.03098788158E+00	3.02197473942E-02
6.32870318924E+05	-1.44154579209E+01	1.53139242385E+02	1.61264482060E+01	1.77795530583E+02	-5.65129899986E+01	-1.11561032067E+02	-5.98881282657E+00	-1.59570341938E-02
6.55061673519E+05	-1.50596449678E+01	1.75048203193E+02	1.61364395698E+01	1.77554004844E+02	-4.60807117219E+01	-1.01413006899E+02	-6.01775530691E+00	-2.71997904191E-01
6.77253028114E+05	-1.12185095725E+01	-1.70636168796E+02	1.61089512398E+01	1.76957451380E+02	-4.63357387324E+01	-3.78852198696E+01	-5.97788219601E+00	-5.39684281555E-01
6.99444382709E+05	-1.50940632878E+01	1.64866852134E+02	1.61319012341E+01	1.77066708487E+02	-5.31582677365E+01	8.30576758195E+01	-5.98353747548E+00	-3.21170678496E-01
7.21635737304E+05	-1.42333620960E+01	-1.74249155786E+02	1.61172966509E+01	1.76675345282E+02	-4.12113120098E+01	-4.43996686784E+01	-6.01974373362E+00	-2.36270116608E-01
7.43827091899E+05	-1.55000846553E+01	1.46874865630E+02	1.61489560075E+01	1.76762392135E+02	-4.28545555304E+01	-1.35067941587E+01	-6.03490013765E+00	-3.32646671603E-01
7.66018446494E+05	-1.27369655431E+01	-1.78210285614E+02	1.61331703568E+01	1.76230590237E+02	-4.45051768569E+01	3.06756395161E+01	-6.03486700116E+00	-4.33607899283E-01
7.88209801089E+05	-1.32040994442E+01	1.76746416720E+02	1.61289139253E+01	1.76140049698E+02	-3.68356005269E+01	-7.45201377601E+01	-6.03383166090E+00	1.54163933988E-01
8.10401155684E+05	-1.59817873475E+01	-1.72749098557E+02	1.61486429630E+01	1.75725704287E+02	-4.64790140436E+01	-3.95242706541E+01	-6.03393512382E+00	-2.59231506655E-01
8.32592510279E+05	-1.42882679312E+01	-1.71221919760E+02	1.61329623354E+01	1.75492438754E+02	-4.56834443771E+01	4.13725933290E+01	-5.99483036292E+00	-6.31641598588E-01
8.54783864874E+05	-1.68620757892E+01	-1.63799644740E+02	1.61314196310E+01	1.75473107899E+02	-4.10808160007E+01	-1.70775879849E+01	-6.03831275018E+00	-3.90456758680E-01
8.76975219469E+05	-1.21761743919E+01	-1.69191185904E+02	1.61131881895E+01	1.75197049062E+02	-4.36103843272E+01	6.96165451959E+01	-5.99913497343E+00	-5.67319026000E-01
8.99166574064E+05	-1.45157218950E+01	-1.64510246886E+02	1.61250486796E+01	1.74815081227E+02	-4.31315474620E+01	-1.60616894949E+01	-6.03967878362E+00	-2.83734136176E-01
9.21357928659E+05	-1.66493651770E+01	1.57231354719E+02	1.61338005945E+01	1.74930873773E+02	-5.62123522195E+01	-1.12794606526E+02	-5.98701186338E+00	-3.72881009115E-01
9.43549283254E+05	-1.53540783599E+01	-1.53190330274E+02	1.61313697673E+01	1.74525903607E+02	-4.27846094862E+01	-5.00832027667E+01	-6.04701652426E+00	-4.49735908448E-01
9.65740637849E+05	-1.22201619568E+01	1.66461864494E+02	1.60874227870E+01	1.74601044595E+02	-4.34471179988E+01	-3.18929850695E+01	-6.02237981872E+00	-5.05105772522E-01
9.87931992444E+05	-1.05347004072E+01	-1.57325610562E+02	1.60885562760E+01	1.73855122262E+02	-5.20580458423E+01	-7.98267955164E+01	-6.00699848895E+00	-4.30039359930E-01
1.01012334704E+06	-1.41880664672E+01	-1.78162354162E+02	1.61198678060E+01	1.74058911255E+02	-4.46143697600E+01	-1.22684648557E+02	-5.98511371500E+00	-2.67521248801E-01
1.03231470163E+06	-1.29138955593E+01	-1.70571288266E+02	1.60870098109E+01	1.73902848060E+02	-4.79524744570E+01	2.89582194042E+01	-6.01872236433E+00	-6.52138534421E-01
1.05450605623E+06	-1.26934169019E+01	-1.78693749150E+02	1.60920698606E+01	1.73569941395E+02	-4.11898856722E+01	-1.77399032947E+02	-5.95184188128E+00	-3.45294630828E-01
1.07669741082E+06	-1.23644042272E+01	1.55833346291E+02	1.60886055448E+01	1.73625205276E+02	-5.60324036803E+01	-1.20887442241E+02	-6.00889890113E+00	-3.84884651977E-01
1.09888876542E+06	-1.49600051308E+01	-1.77387573747E+02	1.61299099060E+01	1.73282390255E+02	-4.75388820047E+01	5.70128489434E+01	-6.00537074121E+00	-6.00180201371E-01
1.12108012001E+06	-1.09730915207E+01	-1.66492617834E+02	1.60853595954E+01	1.72890230978E+02	-3.96626132840E+01	-9.19587810593E+01	-6.01618611429E+00	-2.15740520732E-01
1.14327147461E+06	-1.59933325992E+01	-1.60116676142E+02	1.61240584322E+01	1.72930589228E+02	-4.01208794628E+01	5.38366498963E+01	-5.99362173512E+00	-6.86568473998E-01
1.16546282920E+06	-1.51867683828E+01	-1.67325269106E+02	1.61299064270E+01	1.72630453912E+02	-5.20044568348E+01	-8.31756341990E+01	-6.01368286033E+00	-5.36637701058E-01
1.18765418380E+06	-1.59315230034E+01	-1.75221244575E+02	1.61317254994E+01	1.72543279913E+02	-4.49232060574E+01	6.22525046661E+01	-6.02481263794E+00	-8.16767350965E-01
1.20984553839E+06	-1.31289789297E+01	-1.70543807706E+02	1.61259281055E+01	1.72199766158E+02	-4.60868407996E+01	5.19591401947E+01	-6.03267059645E+00	-8.35009882922E-01
1.23203689299E+06	-1.47977614407E+01	-1.66277056188E+02	1.61197264827E+01	1.72184675900E+02	-5.25524845221E+01	-4.62711718523E+00	-5.98806905589E+00	-4.25489732486E-01
1.25422824758E+06	-1.49979468297E+01	-1.70042312336E+02	1.61047324462E+01	1.71919811944E+02	-4.60371305627E+01	-3.41684179629E+01	-6.03045162136E+00	-4.44961574605E-01
1.27641960218E+06	-1.50963687135E+01	-1.77741341593E+02	1.61330471489E+01	1.71786503968E+02	-4.77269034187E+01	1.35653835382E+01	-6.02517098044E+00	-6.77041463086E-01
1.29861095677E+06	-1.14485126221E+01	-1.66255460632E+02	1.60965334285E+01	1.71679045550E+02	-3.71085334362E+01	1.60629299331E+02	-5.96005054844E+00	-7.14788951205E-01
1.32080231137E+06	-1.23199338520E+01	1.73941247562E+02	1.60887598790E+01	1.71496792682E+02	-4.78902341469E+01	6.01940415622E+01	-5.99306033722E+00	-1.14212699558E+00
1.34299366596E+06	-1.80970301045E+01	1.58804832466E+02	1.61356654912E+01	1.71478100644E+02	-4.12090194816E+01	1.55273290705E+02	-5.97241669277E+00	-8.06459883442E-01
1.36518502056E+06	-1.29760890434E+01	-1.57327633123E+02	1.61191448088E+01	1.70876161955E+02	-5.69338132551E+01	-3.18885438649E+01	-6.00655901730E+00	-5.07829460102E-01
1.38737637515E+06	-1.75872783700E+01	-1.55793591814E+02	1.61355954428E+01	1.70994907212E+02	-4.17423686466E+01	6.90619881398E-02	-6.04335778154E+00	-6.72023227453E-01
1.40956772975E+06	-1.83575184443E+01	-1.43355386363E+02	1.61266064129E+01	1.70765333038E+02	-4.20679170743E+01	-5.87145390809E+00	-6.04349898147E+00	-6.10082345161E-01
1.43175908434E+06	-1.37169732122E+01	1.67142883983E+02	1.60787031726E+01	1.70810362503E+02	-4.52715624743E+01	1.49295213834E+02	-5.98496355113E+00	-6.38776050793E-01
1.45395043894E+06	-1.58951337586E+01	1.77559631070E+02	1.61249590614E+01	1.70601051689E+02	-4.34341440750E+01	1.50542534711E+02	-5.96766609223E+00	-6.61697094731E-01
1.47614179353E+06	-1.10812424897E+01	-1.74824085807E+02	1.60836875618E+01	1.70236013031E+02	-4.93635085701E+01	3.41201555621E+01	-6.02881595821E+00	-7.53182321384E-01
1.49833314813E+06	-1.43302512839E+01	1.74750502858E+02	1.60966239339E+01	1.70135509591E+02	-4.05512183702E+01	-1.36276037619E+02	-5.99526053540E+00	-3.68620326043E-01
1.52052450272E+06	-1.29194887312E+01	-1.61019931988E+02	1.61090857691E+01	1.69772614894E+02	-4.76261395529E+01	-1.58655976644E+02	-6.01081255258E+00	-6.85872094487E-01
1.54271585732E+06	-1.84786912014E+01	1.75697411050E+02	1.61419716248E+01	1.70071190336E+02	-5.70222022250E+01	-1.03803245799E+02	-5.99164195129E+00	-5.56805719994E-01
1.56490721191E+06	-1.78427242263E+01	-1.79446905869E+02	1.61071741594E+01	1.69724627665E+02	-5.59107499378E+01	-1.09343772009E+02	-5.99984560218E+00	-7.11085272833E-01
1.58709856651E+06	-1.39172776071E+01	-1.57830761920E+02	1.60768345121E+01	1.69304640991E+02	-4.84003608062E+01	6.13071440764E+01	-5.98592047191E+00	-8.65919118026E-01
1.60928992110E+06	-1.40111811308E+01	-1.73702181520E+02	1.60860712827E+01	1.69198555791E+02	-4.00383387839E+01	5.50413877708E+01	-5.99152192703E+00	-8.96743270626E-01
1.63148127570E+06	-1.70168651235E+01	-1.73664813374E+02	1.61121378632E+01	1.69222639870E+02	-5.75450731586E+01	-2.94487379325E+01	-6.03028483908E+00	-5.71605699866E-01
1.65367263029E+06	-1.25499855949E+01	-1.53684074869E+02	1.61075028862E+01	1.68618636865E+02	-4.04615787681E+01	-8.60165606933E+01	-6.04256066277E+00	-5.88272599694E-01
1.67586398489E+06	-1.60876355111E+01	-1.54161917521E+02	1.61471232247E+01	1.68787973939E+02	-4.71441136204E+01	1.23590234422E+02	-5.97578497786E+00	-7.33768070143E-01
1.69805533948E+06	-1.78330948674E+01	-1.78436562714E+02	1.60979006323E+01	1.68695139483E+02	-4.92513847262E+01	6.93959790802E+01	-5.99169111758E+00	-8.59682054573E-01
1.72024669408E+06	-1.01611445229E+01	1.69492207727E+02	1.60616516704E+01	1.68404358076E+02	-5.56595088256E+01	2.52350695956E+01	-6.00342587782E+00	-9.81427295369E-01
1.74243804867E+06	-1.08076626105E+01	1.74757629385E+02	1.60622115188E+01	1.68159821925E+02	-4.62576756812E+01	4.95815016643E+01	-5.99613233575E+00	-6.93087153018E-01
1.76462940327E+06	-1.38430824800E+01	-1.69025928418E+02	1.60989032386E+01	1.68066046689E+02	-3.44390351821E+01	3.90218188035E+01	-6.04026761067E+00	-1.30622812190E+00
1.78682075786E+06	-1.19906297566E+01	-1.57388403086E+02	1.61251951251E+01	1.67615095641E+02	-5.26221401373E+01	-3.05812541467E+01	-6.03290378189E+00	-7.64413147233E-01
1.80901211246E+06	-1.58940247291E+01	-1.66857164887E+02	1.61055373852E+01	1.67911851030E+02	-4.09082141056E+01	-2.93675433158E+01	-6.04451716464E+00	-6.37565085748E-01
1.83120346705E+06	-1.35408929083E+01	-1.79715811191E+02	1.61061541645E+01	1.67682973092E+02	-4.40017960903E+01	-1.64996537636E+02	-5.97854975394E+00	-6.90672102343E-01
1.85339482165E+06	-1.20281314369E+01	-1.73476989522E+02	1.60970111036E+01	1.67408861169E+02	-6.20885392860E+01	-3.58381048918E+01	-6.01017878415E+00	-8.12171955087E-01
1.87558617624E+06	-9.55882347446E+00	1.62778480507E+02	1.60298229048E+01	1.67292796045E+02	-4.59043508737E+01	-1.68395856250E+02	-5.94596795807E+00	-7.70513327206E-01
1.89777753084E+06	-1.66584759051E+01	-1.44667444206E+02	1.61199219679E+01	1.67152659611E+02	-4.00070467305E+01	1.12351464066E+02	-5.97447567612E+00	-1.05431615483E+00
1.91996888543E+06	-1.51948979807E+01	-1.47049843148E+02	1.61377485420E+01	1.66810809949E+02	-3.94131602525E+01	-1.02062344009E+02	-6.02053185097E+00	-5.04343802792E-01
1.94216024003E+06	-1.61025488808E+01	-1.68811608090E+02	1.61063634315E+01	1.66902435209E+02	-5.10837096122E+01	6.01832723289E+01	-5.99484485493E+00	-1.16452211502E+00
1.96435159462E+06	-1.17181945714E+01	-1.62822898694E+02	1.61051671181E+01	1.66279414977E+02	-4.08212197223E+01	-3.72471249760E+01	-6.07576647972E+00	-7.33527663175E-01
1.98654294922E+06	-1.72449844300E+01	1.64689025642E+02	1.60954060901E+01	1.66654695330E+02	-4.47248850335E+01	1.73108663843E+02	-5.95552768951E+00	-8.33204225179E-01
2.00873430381E+06	-1.75780096462E+01	-1.52738792607E+02	1.61424993628E+01	1.66269052221E+02	-5.28811505022E+01	-1.45008111198E+02	-5.98377658140E+00	-8.04809650597E-01
2.03092565841E+06	-1.92844857175E+01	-1.75930657192E+02	1.61291127923E+01	1.66336738572E+02	-5.22844919738E+01	-1.66962179566E+02	-5.99145758324E+00	-8.02188934848E-01
2.05311701300E+06	-1.32131970548E+01	-1.77622371674E+02	1.60878880641E+01	1.65903873291E+02	-4.58170445046E+01	-1.77241410558E+02	-5.99145444513E+00	-8.10273542234E-01
2.07530836760E+06	-1.44346625493E+01	-1.78300292371E+02	1.60773934675E+01	1.65768626408E+02	-3.15625901358E+01	-5.60250601706E+01	-6.13840961961E+00	-7.63896946180E-01
2.09749972219E+06	-1.40786757776E+01	1.71839141293E+02	1.60904538854E+01	1.65575455669E+02	-4.33870228816E+01	2.48211330092E+01	-6.02992535783E+00	-1.14661172735E+00
2.11969107679E+06	-1.51715161375E+01	-1.68467643937E+02	1.61014337793E+01	1.65329694311E+02	-6.09417410483E+01	-1.51506752103E+02	-5.99317488500E+00	-7.99244137622E-01
2.14188243138E+06	-1.23913464632E+01	1.71600929268E+02	1.60646408995E+01	1.65321499786E+02	-4.11848342647E+01	-1.29134874962E+01	-6.04521675028E+00	-9.51186374000E-01
2.16407378598E+06	-1.42354770385E+01	-1.63435622495E+02	1.61098094358E+01	1.64998898626E+02	-4.65327082632E+01	-2.09025320086E+01	-6.03853724997E+00	-1.03093974779E+00
2.18626514057E+06	-1.56270645990E+01	-1.66522872170E+02	1.61145059514E+01	1.64905731783E+02	-4.94509263917E+01	1.53964923387E+02	-5.98253634408E+00	-1.15843959346E+00
2.20845649517E+06	-1.24516777728E+01	-1.66002057195E+02	1.61065150539E+01	1.64615857938E+02	-4.30272365122E+01	2.93890663938E+01	-6.00043464052E+00	-1.26257017098E+00
2.23064784976E+06	-1.42328316216E+01	-1.64413565731E+02	1.61590483294E+01	1.64618928887E+02	-4.25800610012E+01	-1.29036017257E+02	-5.95815564995E+00	-7.42499577767E-01
2.25283920436E+06	-1.11947013535E+01	-1.69397618272E+02	1.60832808550E+01	1.64259763880E+02	-5.22733912303E+01	1.57468846806E+02	-5.98318062498E+00	-1.06752692391E+00
2.27503055895E+06	-1.31302845819E+01	-1.70049815718E+02	1.60976160805E+01	1.64243360479E+02	-6.31446022587E+01	-6.30429248260E+01	-6.01020391323E+00	-1.03458318620E+00
2.29722191355E+06	-1.25601208378E+01	-1.55250805706E+02	1.61094736382E+01	1.63863242581E+02	-4.33144547476E+01	-1.68827853858E+02	-5.94980274057E+00	-9.16095550941E-01
2.31941326814E+06	-1.46517818917E+01	1.74744202370E+02	1.60905862562E+01	1.64129685932E+02	-4.37361928027E+01	-2.05222836405E+01	-6.04788101290E+00	-1.05499435648E+00
2.34160462274E+06	-1.38831710333E+01	-1.70553104057E+02	1.61041822608E+01	1.63649604832E+02	-4.17531217502E+01	1.54157149187E+01	-6.03875056874E+00	-1.31332384818E+00
2.36379597733E+06	-9.10242971473E+00	-1.38204309998E+02	1.61512163724E+01	1.63208926960E+02	-4.67431065308E+01	8.26927225245E+01	-5.99520333699E+00	-1.15491684036E+00
2.38598733193E+06	-1.35996033761E+01	-1.63902682008E+02	1.61217953424E+01	1.63367819429E+02	-3.55779105300E+01	-4.55726589063E+01	-6.07246467619E+00	-9.38914467859E-01
2.40817868652E+06	-1.38164474556E+01	-1.68659328624E+02	1.61043782675E+01	1.63230372472E+02	-4.19749536131E+01	-4.91656574012E+01	-6.03549349827E+00	-1.05721927090E+00
2.43037004112E+06	-1.26699014455E+01	-1.64108359634E+02	1.60844765526E+01	1.62946590381E+02	-4.09625547442E+01	1.38480155382E+02	-5.94387401916E+00	-1.55271544046E+00
2.45256139571E+06	-1.63563461374E+01	-1.62116997735E+02	1.61045604747E+01	1.62928431500E+02	-4.33938435804E+01	5.75036308446E+01	-5.99697569835E+00	-1.34441784022E+00
2.47475275031E+06	-1.42256113698E+01	-1.53350626636E+02	1.61291643913E+01	1.62675065564E+02	-6.59039240140E+01	3.14947547571E+01	-6.00529960989E+00	-1.13253031189E+00
2.49694410490E+06	-1.74275526591E+01	-1.26454892223E+02	1.61302777590E+01	1.62697013448E+02	-4.60600531049E+01	-1.05144891262E+02	-6.01662001479E+00	-1.00232525350E+00
2.51913545950E+06	-1.39931474666E+01	7.04228313973E+01	1.60858755616E+01	1.63026258327E+02	-4.65655044040E+01	-8.02326083687E+01	-6.02372819454E+00	-9.54114586260E-01
2.54132681409E+06	-1.47753822226E+01	-1.73003440381E+02	1.61122202873E+01	1.62282671542E+02	-4.98190697596E+01	-1.05218224472E+02	-5.99941480335E+00	-1.05006817622E+00
2.56351816869E+06	-1.59751356954E+01	-1.77059696369E+02	1.60960536516E+01	1.62263054669E+02	-3.82907368240E+01	8.07865159006E+01	-5.98170935212E+00	-1.50892582906E+00
2.58570952328E+06	-1.43841893056E+01	-1.76590324179E+02	1.60855534332E+01	1.62105280543E+02	-5.36890936222E+01	1.31205490300E+02	-5.99212783241E+00	-1.32414517294E+00
2.60790087788E+06	-1.55238397538E+01	-1.51199255611E+02	1.61173714116E+01	1.61786911151E+02	-4.40106453254E+01	1.34407653118E+00	-6.02621598055E+00	-1.09234441484E+00
2.63009223247E+06	-1.34524058441E+01	-1.59833541636E+02	1.61178182012E+01	1.61408770868E+02	-5.30267898870E+01	-4.01031880443E+01	-6.03209086152E+00	-8.67362952845E-01
2.65228358707E+06	-1.56862316970E+01	-1.75511430529E+02	1.61056091340E+01	1.61539123347E+02	-5.60799622575E+01	6.52879838119E+01	-5.99890644800E+00	-1.09888982160E+00
2.67447494166E+06	-1.03907265882E+01	1.79370361096E+02	1.60765260262E+01	1.61041477326E+02	-5.54308112343E+01	1.28849956255E+02	-5.99167870132E+00	-1.29227155816E+00
2.69666629626E+06	-1.37959953023E+01	-1.78214829777E+02	1.61135009566E+01	1.61104175796E+02	-4.16792560919E+01	1.65108423228E+02	-5.94380219015E+00	-9.20815819900E-01
2.71885765085E+06	-1.31349525931E+01	-1.71499817025E+02	1.61054273045E+01	1.60762133189E+02	-7.15444722226E+01	2.26020999968E+01	-5.99951298507E+00	-1.26056968096E+00
2.74104900545E+06	-1.62999182631E+01	-1.59791012709E+02	1.61474901388E+01	1.60846144054E+02	-4.82203026782E+01	2.10961956813E+01	-6.02142407189E+00	-1.16195364945E+00
2.76324036004E+06	-1.27250251323E+01	-1.62686836893E+02	1.61176682658E+01	1.60416365159E+02	-4.70741748160E+01	9.33641981330E+01	-5.98886261204E+00	-1.23328777786E+00
2.78543171463E+06	-1.44068694858E+01	-1.63960470403E+02	1.61150029398E+01	1.60393453533E+02	-4.98009043646E+01	-7.54965347558E+01	-6.01096787607E+00	-1.06743084800E+00
2.80762306923E+06	-1.41903869063E+01	-1.68445366033E+02	1.61015181728E+01	1.60213838807E+02	-5.19065015981E+01	-1.65771311481E+02	-5.98627891883E+00	-1.34688566372E+00
2.82981442382E+06	-1.31926995246E+01	-1.69767153482E+02	1.61038774792E+01	1.60169866368E+02	-4.56235961262E+01	7.78553870391E+01	-5.98207489178E+00	-1.47478861800E+00
2.85200577842E+06	-1.35658247248E+01	-1.78611056403E+02	1.60944704190E+01	1.59980147775E+02	-5.11083522652E+01	3.74371758231E+01	-5.99576029617E+00	-1.44803717293E+00
2.87419713301E+06	-1.51933632181E+01	-1.64518257111E+02	1.61181638993E+01	1.59765207486E+02	-4.89049203576E+01	-1.70739306601E+02	-5.97339995680E+00	-1.25866278327E+00
