# Hz S DB R 50
! CMT, M5065, 19127446, 24.2.4/2
! Date: 11/8/2024 3:06:42 PM
! Data: Format (Calibration Info)
! Freq	S11:dB/Ang(F2)	S21:dB/Ang(F2)	S12:dB/Ang(F2)	S22:dB/Ang(F2)
3.00000000000E+05	-1.62165379392E+01	-1.72772376529E+02	1.07248282852E+01	-1.77450069229E+02	-4.65937096549E+01	2.87692216698E+01	-6.01466992049E+00	-2.76647005999E-01
3.22191354595E+05	-1.36699933199E+01	1.75383514549E+02	1.07013743255E+01	-1.77830365898E+02	-4.15870702538E+01	-9.60510811871E+01	-6.00380304207E+00	-6.86043815560E-02
3.44382709190E+05	-1.27152294660E+01	-1.67945750811E+02	1.06902388164E+01	-1.78405271017E+02	-4.15895091923E+01	1.40642188104E+02	-5.97802151645E+00	-2.76457151452E-01
3.66574063785E+05	-1.45141304353E+01	-1.63206419066E+02	1.07141033375E+01	-1.78793271296E+02	-3.77841263436E+01	-9.46334215980E+01	-5.99204839852E+00	-1.14916508806E-01
3.88765418380E+05	-1.76760914406E+01	1.61740129673E+02	1.08108338058E+01	-1.78597744969E+02	-6.21261824404E+01	1.24762303772E+01	-6.01430751881E+00	-3.81961488353E-01
4.10956772975E+05	-1.48089646232E+01	1.77540348777E+02	1.07209915446E+01	-1.79053636090E+02	-5.09012421993E+01	1.62016185420E+01	-6.01900694586E+00	-3.32364387587E-01
4.33148127570E+05	-1.44083367612E+01	1.79622892864E+02	1.07080400051E+01	-1.79312028082E+02	-4.39977783164E+01	1.17695200326E+02	-6.00424728760E+00	-4.89825542744E-01
4.55339482165E+05	-1.61531084305E+01	-1.64220667263E+02	1.07268368912E+01	-1.79823733538E+02	-3.95636743714E+01	-1.50306565516E+02	-5.97155061283E+00	-1.17137536309E-01
4.77530836760E+05	-1.61254941787E+01	1.72018107345E+02	1.07183972458E+01	-1.79786239244E+02	-4.77966946576E+01	-1.71436616763E+01	-6.02145989023E+00	-3.98979781175E-01
4.99722191355E+05	-1.30740220474E+01	-1.79225339750E+02	1.07048539088E+01	1.79889213639E+02	-4.63632953530E+01	5.66200436096E+01	-6.01233096297E+00	-2.87793461794E-01
5.21913545950E+05	-1.32868138356E+01	-1.62973882979E+02	1.07053748802E+01	1.79500395894E+02	-4.17381320618E+01	-1.23594574656E+02	-5.97574658300E+00	-2.78813151326E-01
5.44104900545E+05	-1.15165621696E+01	-1.68143298446E+02	1.07087152109E+01	1.79353408171E+02	-4.08069212139E+01	-7.09449133379E+01	-6.01637088869E+00	-7.29487044183E-02
5.66296255139E+05	-1.44858796530E+01	-1.67368604861E+02	1.07372128355E+01	1.79099026531E+02	-3.69563605728E+01	-1.35088992975E+02	-5.96720400603E+00	-2.14765973622E-01
5.88487609734E+05	-1.20598323010E+01	-1.73333933175E+02	1.06917778952E+01	1.79115852913E+02	-3.92894688338E+01	1.74395223886E+02	-6.00891818152E+00	-3.57442213048E-01
6.10678964329E+05	-1.57167727926E+01	1.77197498348E+02	1.07340140721E+01	1.78839903918E+02	-3.70261782179E+01	-1.11647645900E+02	-5.98345684369E+00	2.75615824474E-01
6.32870318924E+05	-1.27976977791E+01	-1.78256730830E+02	1.07106552046E+01	1.78552480794E+02	-4.77301515676E+01	1.45516154002E+02	-5.97454960820E+00	-1.77449352954E-01
6.55061673519E+05	-1.47413649330E+01	-1.65279606650E+02	1.07392374861E+01	1.78381853801E+02	-4.43652526484E+01	2.03550008874E+01	-6.02007169189E+00	-4.07121406191E-01
6.77253028114E+05	-1.79402326325E+01	1.70238838899E+02	1.07553261915E+01	1.78229146192E+02	-5.19862485099E+01	8.22367098439E+01	-6.01492401442E+00	-8.28974480159E-01
6.99444382709E+05	-1.10192817741E+01	-1.56638326201E+02	1.06910022500E+01	1.77881876250E+02	-4.50863848913E+01	-9.48173367591E+01	-5.99964617067E+00	-2.56761968895E-01
7.21635737304E+05	-1.39433503830E+01	-1.62051816956E+02	1.07200393692E+01	1.77754309582E+02	-4.73974999317E+01	4.22418686577E+01	-6.00615045329E+00	-5.22397349149E-01
7.43827091899E+05	-1.53707167258E+01	-1.71630529761E+02	1.07215707394E+01	1.77791765514E+02	-4.02623060622E+01	6.14768164760E+01	-5.99795080470E+00	-4.81344047054E-01
7.66018446494E+05	-1.26540944953E+01	1.70874589142E+02	1.07180151232E+01	1.77840803351E+02	-3.84639492270E+01	-7.86174906507E+01	-6.00431116962E+00	-2.98522977880E-01
7.88209801089E+05	-1.53522067399E+01	-1.63613100366E+02	1.07671712491E+01	1.77281414282E+02	-5.31884793254E+01	9.59983455435E+01	-6.00111184028E+00	-4.44937420228E-01
8.10401155684E+05	-1.13611253369E+01	-1.67597309518E+02	1.07331924792E+01	1.77134850470E+02	-4.78031221310E+01	-1.59935439740E+02	-5.99915587940E+00	-4.38249989720E-01
8.32592510279E+05	-1.34575366764E+01	-1.68988269503E+02	1.07195042737E+01	1.77133682662E+02	-4.49658567612E+01	1.03015505533E+02	-5.99650152897E+00	-4.06563847073E-01
8.54783864874E+05	-1.11793896746E+01	1.68085415247E+02	1.06825639899E+01	1.77054769633E+02	-4.14495074974E+01	1.71163161733E+02	-5.98479960786E+00	-3.40071440766E-01
8.76975219469E+05	-1.40564749873E+01	-1.74507604744E+02	1.07137014751E+01	1.76798430938E+02	-4.76549037759E+01	-1.31931513523E+02	-5.96291662029E+00	-4.23217690820E-01
8.99166574064E+05	-1.41970593717E+01	-1.67223259621E+02	1.07695119661E+01	1.76813973000E+02	-4.20552729883E+01	-1.39969133018E+02	-5.95646274412E+00	-2.64398272474E-01
9.21357928659E+05	-1.39717010420E+01	-1.55439055737E+02	1.07518850409E+01	1.76380909143E+02	-3.83517358577E+01	-1.63946110436E+02	-5.97887055890E+00	-4.24949676058E-01
9.43549283254E+05	-1.91781412742E+01	1.71006282604E+02	1.07326173366E+01	1.76647523009E+02	-4.34685758604E+01	-6.99903610853E+01	-6.02164971792E+00	-2.38219800698E-01
9.65740637849E+05	-1.44286160076E+01	1.77407103449E+02	1.07047300967E+01	1.76576492610E+02	-4.76792413755E+01	-8.97590903927E+01	-5.99507590809E+00	-4.47777544520E-01
9.87931992444E+05	-1.45094736465E+01	-1.74265150281E+02	1.07422524464E+01	1.76131890481E+02	-5.35629922860E+01	1.64364096509E+02	-5.96198479524E+00	-6.75442971324E-01
1.01012334704E+06	-1.10455113027E+01	-1.48248176356E+02	1.07327473637E+01	1.75828532271E+02	-4.72767735153E+01	1.06808506842E+02	-6.00162289318E+00	-6.07095097546E-01
1.03231470163E+06	-1.29659021539E+01	-1.46559201163E+02	1.07330373561E+01	1.75890897613E+02	-4.15792035155E+01	1.27145243115E+02	-5.98852951992E+00	-5.42212808926E-01
1.05450605623E+06	-1.59247385673E+01	-1.67412025327E+02	1.07315430308E+01	1.75815131331E+02	-4.32113759978E+01	1.29181885790E+02	-5.99817854916E+00	-6.31568763580E-01
1.07669741082E+06	-1.17474547263E+01	-1.73528750414E+02	1.07328554805E+01	1.75455983726E+02	-4.20736161688E+01	6.57076555413E+00	-6.01927516378E+00	-6.25979737653E-01
1.09888876542E+06	-1.33830184865E+01	1.74179178649E+02	1.06731559952E+01	1.75590929301E+02	-4.52860281715E+01	3.14710263679E+01	-6.01246996565E+00	-5.58836296988E-01
1.12108012001E+06	-1.51631036656E+01	1.73928354042E+02	1.07301219762E+01	1.75462918808E+02	-6.05131899392E+01	-1.15638725753E+02	-5.99480366736E+00	-3.03379087783E-01
1.14327147461E+06	-1.31603806429E+01	1.59244979035E+02	1.07170772730E+01	1.75459132500E+02	-4.36631831720E+01	1.73443675053E+02	-5.96959016193E+00	-4.91406079315E-01
1.16546282920E+06	-1.66812464765E+01	-1.78777255085E+02	1.07339182005E+01	1.75141009780E+02	-6.41819896164E+01	5.37278234358E+01	-6.02026978232E+00	-5.24359412874E-01
1.18765418380E+06	-1.24425117803E+01	-1.55598427425E+02	1.07015183836E+01	1.74739477452E+02	-4.18984734545E+01	1.49328751048E+02	-5.99055030346E+00	-6.36161245534E-01
1.20984553839E+06	-1.18240067596E+01	1.78859748190E+02	1.06806697444E+01	1.74865810671E+02	-6.40774621174E+01	9.39302136048E+01	-6.00186874151E+00	-8.36822298989E-01
1.23203689299E+06	-1.46012547754E+01	-1.79944923171E+02	1.07411154118E+01	1.74943686406E+02	-4.49416176852E+01	1.04329153593E+02	-5.98281823359E+00	-3.89874497644E-01
1.25422824758E+06	-1.91188128563E+01	1.74156023745E+02	1.07446453284E+01	1.74926288927E+02	-3.79083237692E+01	-2.53536635381E+01	-6.04264789008E+00	-6.71732626279E-01
1.27641960218E+06	-1.38717460794E+01	-1.54685168947E+02	1.07464049865E+01	1.74487890378E+02	-4.60467870588E+01	8.66125723077E+01	-6.00262862449E+00	-7.44307732392E-01
1.29861095677E+06	-1.32474369428E+01	-1.66354888505E+02	1.07381218411E+01	1.74241539660E+02	-5.86513807973E+01	-1.11444983394E+02	-6.01399815471E+00	-6.24220744791E-01
1.32080231137E+06	-1.41390989072E+01	-1.70886885677E+02	1.07273770968E+01	1.74247141197E+02	-4.59639502514E+01	-1.45046923498E+02	-5.99437406231E+00	-9.29185926829E-01
1.34299366596E+06	-1.23645497955E+01	1.24200090671E+02	1.06862174694E+01	1.74588436282E+02	-4.33798640299E+01	1.35345547568E+02	-5.97518753385E+00	-6.55340144803E-01
1.36518502056E+06	-1.36591050256E+01	-1.73937516801E+02	1.07380984432E+01	1.73938774229E+02	-4.81896985702E+01	-1.38640577010E+02	-5.99745502449E+00	-5.91061026925E-01
1.38737637515E+06	-1.25216969814E+01	-1.78937223178E+02	1.07089927509E+01	1.74024567645E+02	-4.85360277107E+01	1.12658556290E+02	-5.97184030633E+00	-7.60064976600E-01
1.40956772975E+06	-1.32369274373E+01	-1.56994834358E+02	1.07489115196E+01	1.73669903490E+02	-5.12976967115E+01	-1.35109525178E+02	-6.02069015877E+00	-6.48726741137E-01
1.43175908434E+06	-1.57909019432E+01	1.79700545012E+02	1.07328906938E+01	1.73726910625E+02	-4.76876550960E+01	-1.74562160662E+02	-5.97857386174E+00	-6.16656082893E-01
1.45395043894E+06	-1.41303725945E+01	1.70175935518E+02	1.07251945371E+01	1.73694930696E+02	-4.92657640213E+01	-4.04259204691E+01	-6.01422907266E+00	-7.52608230134E-01
1.47614179353E+06	-1.54148198334E+01	1.78059090385E+02	1.07375132712E+01	1.73728625352E+02	-4.28676701580E+01	-9.82757614331E+01	-5.98884952147E+00	-4.80609022533E-01
1.49833314813E+06	-1.44308644509E+01	-1.60090015922E+02	1.07707824359E+01	1.73359364258E+02	-3.96878670493E+01	-1.00015613390E+02	-6.00024661452E+00	-4.84939528795E-01
1.52052450272E+06	-1.36765070453E+01	-1.47115568694E+02	1.07818554037E+01	1.72924203162E+02	-4.46497502045E+01	-1.78748281069E+01	-6.02342257897E+00	-5.62412533371E-01
1.54271585732E+06	-1.33869798667E+01	-1.72204908552E+02	1.07321616414E+01	1.73111617729E+02	-3.85271010411E+01	-3.42192282930E+01	-6.01026061139E+00	-5.97803521266E-01
1.56490721191E+06	-1.34980269287E+01	-1.69130717684E+02	1.07386898619E+01	1.73077046867E+02	-5.03795116074E+01	1.09829601361E+02	-5.97855351314E+00	-8.52889228384E-01
1.58709856651E+06	-1.20251163616E+01	-1.70254871415E+02	1.07263798126E+01	1.72792929715E+02	-4.52355193991E+01	1.70116339379E+02	-5.97240540434E+00	-7.81213908627E-01
1.60928992110E+06	-1.23110541424E+01	1.73039899369E+02	1.07293370881E+01	1.72799716171E+02	-3.89806142115E+01	-1.62404928189E+02	-5.98561508368E+00	-6.20933655503E-01
1.63148127570E+06	-1.32222489069E+01	-1.51904947653E+02	1.07348033000E+01	1.72445191628E+02	-3.61752292307E+01	-1.22563793665E+02	-5.98567634314E+00	-3.97860389722E-01
1.65367263029E+06	-1.19638621868E+01	1.79131676542E+02	1.07320685920E+01	1.72396888638E+02	-4.35211213877E+01	1.79031481232E+02	-5.99138679345E+00	-9.70438487571E-01
1.67586398489E+06	-1.36602642038E+01	-1.46049828539E+02	1.07563847621E+01	1.72183212289E+02	-4.85545311331E+01	-1.49277313288E+01	-6.01027587381E+00	-8.32722189722E-01
1.69805533948E+06	-1.49706886256E+01	-1.61844936748E+02	1.07568165641E+01	1.72166134918E+02	-4.00020845373E+01	-5.92969239067E+01	-6.00571436296E+00	-8.47724446780E-01
1.72024669408E+06	-1.65876411699E+01	-1.60135923128E+02	1.07412145277E+01	1.71992622673E+02	-4.41948068201E+01	3.40334488508E+01	-5.99816559064E+00	-8.69357521268E-01
1.74243804867E+06	-1.03566274750E+01	-1.65054069569E+02	1.07522826515E+01	1.71657237528E+02	-4.61442281271E+01	-6.75179489428E+01	-5.99158485498E+00	-8.25091664894E-01
1.76462940327E+06	-1.18969203226E+01	1.75409044820E+02	1.07253333009E+01	1.71949338838E+02	-4.11924088062E+01	-1.39357527165E+02	-5.99974256210E+00	-7.07498383949E-01
1.78682075786E+06	-1.13088202026E+01	-1.77849934415E+02	1.06828151601E+01	1.71779441607E+02	-4.14272494383E+01	-1.25870357793E+02	-5.98533096110E+00	-6.08055554644E-01
1.80901211246E+06	-1.73789185443E+01	-1.38400052495E+02	1.07861570430E+01	1.71607973671E+02	-4.37439677330E+01	-3.22641848592E+01	-6.00707664591E+00	-6.28507787353E-01
1.83120346705E+06	-1.32301165056E+01	1.70491852963E+02	1.07111331831E+01	1.71689640001E+02	-3.93318608508E+01	7.76681470660E+01	-5.99855190870E+00	-1.10944490754E+00
1.85339482165E+06	-1.16416768061E+01	-1.77166634985E+02	1.07284357266E+01	1.71378434950E+02	-3.69692620101E+01	3.11634997315E+01	-5.99210962628E+00	-1.06109898259E+00
1.87558617624E+06	-1.15966392939E+01	-1.77536957844E+02	1.07019615247E+01	1.71184878981E+02	-3.90754620017E+01	1.45411186769E+02	-5.96292257363E+00	-8.27512207026E-01
1.89777753084E+06	-1.28723728225E+01	-1.73565703867E+02	1.07535056730E+01	1.71150105883E+02	-4.43035952304E+01	-1.43562834777E+02	-5.97732670334E+00	-7.76142279744E-01
1.91996888543E+06	-1.47348551649E+01	-1.72357432441E+02	1.07331283110E+01	1.71029991444E+02	-5.18007461224E+01	9.57231281730E+01	-5.97968828202E+00	-8.10579628381E-01
1.94216024003E+06	-1.55048814529E+01	-1.75106309915E+02	1.07394943996E+01	1.70912083599E+02	-4.87637431574E+01	-1.13265065984E+02	-5.99553721466E+00	-6.92983812896E-01
1.96435159462E+06	-1.11109831470E+01	1.69659238052E+02	1.07005092839E+01	1.70873719817E+02	-5.35642572620E+01	-1.43058670243E+02	-5.98707657643E+00	-7.83904259701E-01
1.98654294922E+06	-9.97364239522E+00	1.48776955691E+02	1.06580024135E+01	1.70746052269E+02	-5.83641133001E+01	-2.27269968419E+00	-5.99622216649E+00	-9.12290952020E-01
2.00873430381E+06	-1.10318009669E+01	1.76388107441E+02	1.07081785614E+01	1.70567375303E+02	-3.80057458780E+01	-1.07029657398E+02	-6.00814431969E+00	-6.02574067249E-01
2.03092565841E+06	-1.40769487255E+01	1.79186615924E+02	1.07456471493E+01	1.70443973030E+02	-4.69055020757E+01	-7.75433312290E+01	-6.00036344866E+00	-8.15324236587E-01
2.05311701300E+06	-1.13018578928E+01	1.75337000135E+02	1.07309437141E+01	1.70471111537E+02	-5.28733585066E+01	6.66807192348E+01	-5.98722376835E+00	-8.87647835020E-01
2.07530836760E+06	-1.18704473874E+01	1.72015775361E+02	1.07048325728E+01	1.70177805534E+02	-4.91541001619E+01	-4.19174577145E+01	-5.99367711684E+00	-8.92572724814E-01
2.09749972219E+06	-1.26181981833E+01	-1.64236332548E+02	1.07245922460E+01	1.70076870128E+02	-4.39568466099E+01	8.38401263863E+01	-6.00125240454E+00	-1.09745666719E+00
2.11969107679E+06	-1.19044848288E+01	-1.78178502820E+02	1.07151625770E+01	1.69910486638E+02	-4.67345693111E+01	9.13837541076E+01	-5.98427184849E+00	-9.50256734457E-01
2.14188243138E+06	-1.80891172016E+01	1.74289103778E+02	1.07614714786E+01	1.70387827667E+02	-5.30205477387E+01	-1.78836050100E+02	-5.98178803692E+00	-8.47034730488E-01
2.16407378598E+06	-1.45465863518E+01	1.75237690708E+02	1.07426281887E+01	1.69955885454E+02	-4.00155518585E+01	6.16609584987E+01	-5.97328438491E+00	-1.11320163106E+00
2.18626514057E+06	-1.35306298520E+01	1.70171627131E+02	1.07226149167E+01	1.69902116390E+02	-3.42527267886E+01	4.86507741499E+01	-6.00297001880E+00	-1.11999182841E+00
2.20845649517E+06	-1.31403442406E+01	1.79070659713E+02	1.07170521395E+01	1.69508704853E+02	-4.36247353542E+01	-1.74992371361E+02	-5.98516372676E+00	-9.97247628247E-01
2.23064784976E+06	-1.21109090333E+01	-1.66199514772E+02	1.07723121541E+01	1.69549467569E+02	-4.22463197509E+01	-1.15315140982E+02	-5.99527047020E+00	-9.09529250609E-01
2.25283920436E+06	-1.45857673600E+01	-1.71933720401E+02	1.07674722728E+01	1.69455548516E+02	-5.06363230100E+01	1.06094109953E+02	-5.98084164925E+00	-1.07749253275E+00
2.27503055895E+06	-1.83993781148E+01	-1.56686490509E+02	1.08032899756E+01	1.69375361939E+02	-5.35694679917E+01	-3.70269430681E+01	-6.00577662505E+00	-1.05450635147E+00
2.29722191355E+06	-9.90280547245E+00	1.59207082218E+02	1.06754539840E+01	1.69238014129E+02	-4.99811645555E+01	-1.66447577380E+02	-5.99678684701E+00	-1.00770872653E+00
2.31941326814E+06	-1.36532306630E+01	-1.74836310848E+02	1.07430708537E+01	1.68960556687E+02	-5.70973442030E+01	-1.09512027369E+01	-6.00280273603E+00	-1.09316477454E+00
2.34160462274E+06	-1.83743148308E+01	1.78040090193E+02	1.08077112305E+01	1.68948363818E+02	-3.23766696530E+01	-1.67608037388E+02	-5.96338638868E+00	-8.03382755683E-01
2.36379597733E+06	-1.18910017227E+01	-1.59675435686E+02	1.07708452184E+01	1.68575769870E+02	-4.65243883847E+01	1.24405138463E+02	-5.95896711649E+00	-1.00296854737E+00
2.38598733193E+06	-1.43153452485E+01	1.77439678259E+02	1.07261969653E+01	1.68645770098E+02	-4.70352671519E+01	2.54749029933E+01	-6.01088182231E+00	-1.14757264626E+00
2.40817868652E+06	-1.45577471681E+01	-1.74471832349E+02	1.07648711563E+01	1.68562119240E+02	-4.89917941341E+01	-4.81060923643E+01	-6.01565961475E+00	-1.06339651326E+00
2.43037004112E+06	-2.59621839492E+01	-1.72975362338E+02	1.08002445660E+01	1.68865715083E+02	-4.52051223190E+01	-6.00363809396E+01	-6.00767529324E+00	-1.40497504671E+00
2.45256139571E+06	-9.76913853329E+00	-1.74036575471E+02	1.07769463356E+01	1.68073608687E+02	-5.00224636784E+01	1.17313700714E+02	-5.97896542235E+00	-1.10516087873E+00
2.47475275031E+06	-1.47787919039E+01	-1.59500793055E+02	1.07790411911E+01	1.68362928459E+02	-5.03920064350E+01	-3.86805478214E+01	-6.02323925407E+00	-1.00357848317E+00
2.49694410490E+06	-1.30602009426E+01	1.79599051597E+02	1.07462748862E+01	1.67982746555E+02	-3.09692796555E+01	-1.17211544060E+02	-6.00990674785E+00	-6.16259021046E-01
2.51913545950E+06	-1.39045764526E+01	-1.74924420490E+02	1.07227623696E+01	1.67979482304E+02	-4.79059179341E+01	-4.55445647426E+01	-6.02914212567E+00	-1.14860838589E+00
2.54132681409E+06	-1.40214971703E+01	-1.56263072241E+02	1.07883438725E+01	1.67915567329E+02	-6.55166040884E+01	4.02607091589E+01	-6.00400610320E+00	-1.15697189935E+00
2.56351816869E+06	-1.18805026481E+01	-1.59220661385E+02	1.07817170346E+01	1.67615569429E+02	-5.40169257407E+01	5.43220304050E+01	-6.00499982308E+00	-1.08342397042E+00
2.58570952328E+06	-1.30282921501E+01	-1.62825094244E+02	1.07692721995E+01	1.67777717501E+02	-4.37828126032E+01	1.08062686317E+02	-5.99402707214E+00	-1.19298640532E+00
2.60790087788E+06	-1.06777181066E+01	1.52111494258E+02	1.07185251617E+01	1.67787417939E+02	-5.71133461527E+01	-1.32047089902E+01	-5.98898088443E+00	-1.05795674001E+00
2.63009223247E+06	-1.39602626266E+01	-1.74024140594E+02	1.07701436751E+01	1.67457736284E+02	-3.95819916288E+01	1.14560467355E+02	-5.96489384915E+00	-8.31129206698E-01
2.65228358707E+06	-1.22099400030E+01	-1.66471284025E+02	1.07948986378E+01	1.67237758031E+02	-4.28352312196E+01	-9.03059823430E+01	-6.02598319311E+00	-1.01835670620E+00
2.67447494166E+06	-1.22951827769E+01	-1.74140849451E+02	1.07536564044E+01	1.67224364673E+02	-4.04568912631E+01	5.76191584796E+01	-5.99924344717E+00	-1.31321538507E+00
2.69666629626E+06	-1.48019133283E+01	1.67388959602E+02	1.07628210103E+01	1.67440322430E+02	-4.96227135784E+01	-1.26247526708E+02	-5.98721863863E+00	-1.04458837435E+00
2.71885765085E+06	-1.24102605179E+01	-1.74969686470E+02	1.07370573518E+01	1.66935494963E+02	-4.67187263348E+01	-1.37584088695E+02	-5.99307145059E+00	-1.05398396282E+00
2.74104900545E+06	-1.35785154066E+01	-1.63559638056E+02	1.08050933665E+01	1.66899019893E+02	-4.27305815014E+01	-1.48013260709E+02	-6.00618414128E+00	-1.16985376627E+00
2.76324036004E+06	-1.20570914016E+01	-1.71357972045E+02	1.07547790751E+01	1.66840956245E+02	-5.48492966130E+01	4.58720842031E+01	-6.00427898892E+00	-1.31976308619E+00
2.78543171463E+06	-1.30041349065E+01	1.68775214318E+02	1.07622605504E+01	1.66794927622E+02	-4.89066509993E+01	1.75450334456E+02	-5.99342659774E+00	-1.29695722158E+00
2.80762306923E+06	-1.64992355741E+01	-1.71297267125E+02	1.08024405599E+01	1.66658378336E+02	-3.86106786256E+01	9.82088687482E+01	-5.99027129077E+00	-1.23368903275E+00
2.82981442382E+06	-1.07520311921E+01	-1.51866407086E+02	1.07968739329E+01	1.65929898719E+02	-5.70242520060E+01	1.16884687849E+02	-5.99044819280E+00	-1.20258934885E+00
2.85200577842E+06	-1.34970722168E+01	-1.73385276921E+02	1.07752516800E+01	1.66250130556E+02	-5.30142162394E+01	8.36777941226E+01	-5.99145787975E+00	-1.31477112290E+00
2.87419713301E+06	-1.41622788175E+01	-1.46183270767E+02	1.08353794272E+01	1.66109281436E+02	-4.61668361420E+01	5.80499773929E+01	-5.99898444833E+00	-1.31700978695E+00
