# Hz S DB R 50
! CMT, M5065, 19127446, 24.2.4/2
! Date: 11/8/2024 3:04:40 PM
! Data: Format (Calibration Info)
! Freq	S11:dB/Ang(F2)	S21:dB/Ang(F2)	S12:dB/Ang(F2)	S22:dB/Ang(F2)
3.00000000000E+05	-1.54579577419E+01	-1.63915532616E+02	1.18861565030E+01	-1.77461946887E+02	-5.17304893188E+01	1.61376417058E+01	-6.00402321817E+00	-3.30425065649E-01
3.22191354595E+05	-1.43518173243E+01	-1.69242201837E+02	1.18669911266E+01	-1.77821064702E+02	-4.88654926302E+01	1.56988275090E+02	-6.00897021200E+00	-3.26396331906E-01
3.44382709190E+05	-1.74853478865E+01	-1.77984632746E+02	1.19061533835E+01	-1.78049032519E+02	-3.65571641088E+01	-4.26575575532E+01	-6.02775363131E+00	-2.56826639924E-01
3.66574063785E+05	-1.33127380228E+01	1.65610232701E+02	1.18932159083E+01	-1.78340741956E+02	-4.66567250719E+01	7.87783748511E+01	-5.98348006569E+00	-4.37812586999E-01
3.88765418380E+05	-1.53088563539E+01	1.59671609997E+02	1.19040289460E+01	-1.77805044374E+02	-4.78945170343E+01	-1.58624582383E+02	-5.98879964863E+00	-2.47807264441E-01
4.10956772975E+05	-1.17269918530E+01	-1.54706272302E+02	1.18674811464E+01	-1.79496726091E+02	-4.76288334265E+01	3.63657482213E+01	-5.99070254398E+00	-2.28661816346E-01
4.33148127570E+05	-1.48497431253E+01	1.78843859898E+02	1.19067209667E+01	-1.79284267902E+02	-4.48754024188E+01	1.66133555895E+02	-5.97848520540E+00	-2.77478620905E-01
4.55339482165E+05	-1.35964530826E+01	-1.52137425481E+02	1.19160994643E+01	-1.79999967448E+02	-5.16443317436E+01	-3.08089962444E+01	-6.00046568428E+00	-3.19709119310E-01
4.77530836760E+05	-1.28462480414E+01	-1.70000874988E+02	1.18956303265E+01	1.79886609768E+02	-4.04736337906E+01	-1.06310566679E+02	-5.99488154788E+00	-1.44194011824E-01
4.99722191355E+05	-1.17329552604E+01	-1.63842359330E+02	1.18763416076E+01	1.79534897877E+02	-4.91307885884E+01	1.47502989198E+01	-5.99127065540E+00	-2.37626900555E-01
5.21913545950E+05	-1.36165521698E+01	-1.62353557059E+02	1.18880769756E+01	1.79282840677E+02	-3.99385624574E+01	1.34440604055E+02	-5.99076790393E+00	-3.05752708041E-01
5.44104900545E+05	-1.28590371899E+01	1.75556487846E+02	1.18740884660E+01	1.79417102337E+02	-3.85007018575E+01	7.94253548823E+00	-6.01963482465E+00	-4.92177766296E-01
5.66296255139E+05	-1.63401682234E+01	1.71766427641E+02	1.19027920969E+01	1.79190766843E+02	-5.00521221104E+01	6.70169137137E+01	-5.99218066739E+00	-3.84262472015E-01
5.88487609734E+05	-1.27964864453E+01	1.79873514970E+02	1.19044650718E+01	1.78674533057E+02	-5.46293670433E+01	9.33147939104E+01	-6.01588851458E+00	-5.69796767839E-01
6.10678964329E+05	-1.27217792590E+01	1.76329959238E+02	1.19028502095E+01	1.78786764091E+02	-3.90246697613E+01	1.09141360231E+02	-5.99209259051E+00	-4.20258733941E-02
6.32870318924E+05	-1.38339147112E+01	1.77351132099E+02	1.18866700212E+01	1.78515852150E+02	-4.39623391995E+01	5.42823018697E+01	-6.00738795369E+00	-2.35679126594E-01
6.55061673519E+05	-1.21783076379E+01	1.74571614123E+02	1.18955843104E+01	1.78237099745E+02	-4.57163583038E+01	-1.47302524656E+02	-5.99534422993E+00	-1.75871166303E-01
6.77253028114E+05	-1.89460299457E+01	1.75938478512E+02	1.19390739557E+01	1.78093266622E+02	-4.80717874096E+01	7.67688458871E+01	-5.99370902244E+00	-5.28497036883E-01
6.99444382709E+05	-2.72057930932E+01	-1.56147855730E+02	1.19425993655E+01	1.77950713176E+02	-4.71191342383E+01	6.47200265238E+01	-6.00004729835E+00	-4.21855662723E-01
7.21635737304E+05	-1.59777326628E+01	-1.68498404028E+02	1.19197617650E+01	1.77665527057E+02	-4.09059442908E+01	-5.45114132827E+01	-6.04174933452E+00	-2.26299993296E-01
7.43827091899E+05	-1.44319191050E+01	-1.46167700524E+02	1.19255130300E+01	1.77346859511E+02	-4.89685015458E+01	-5.52099925103E+01	-6.00614907749E+00	-3.42569048267E-01
7.66018446494E+05	-1.60585108765E+01	-1.72429921415E+02	1.19297798176E+01	1.77288847811E+02	-5.09203230745E+01	-1.28664691328E+02	-5.99628754720E+00	-3.52614835739E-01
7.88209801089E+05	-1.59991804044E+01	-1.48994870621E+02	1.19330375448E+01	1.77229117344E+02	-3.81809662525E+01	1.92725360683E+01	-6.04639009245E+00	-4.32977475234E-01
8.10401155684E+05	-1.48331624729E+01	1.66611160051E+02	1.19234918174E+01	1.77304075689E+02	-3.45343461951E+01	1.05193639419E+02	-5.96905138877E+00	-7.54897840360E-01
8.32592510279E+05	-1.45312498091E+01	1.52613930404E+02	1.19164833586E+01	1.77075655854E+02	-3.98024522786E+01	-1.28222594148E+02	-5.98607806782E+00	-2.74373282125E-01
8.54783864874E+05	-1.01316245918E+01	-1.66701210945E+02	1.18695079102E+01	1.76708939879E+02	-4.28405915928E+01	6.91694065742E+00	-6.03091114351E+00	-4.82116283268E-01
8.76975219469E+05	-1.49902290881E+01	-1.77164152117E+02	1.18999412797E+01	1.76565303930E+02	-4.11547001531E+01	5.44468905872E+01	-5.99364901251E+00	-5.82304590140E-01
8.99166574064E+05	-1.40814597022E+01	-1.57221845188E+02	1.19018191478E+01	1.76227847749E+02	-5.20870659510E+01	-9.91620223226E+01	-6.00841515355E+00	-3.66460433162E-01
9.21357928659E+05	-1.48015819492E+01	-1.33155046775E+02	1.19325913041E+01	1.75897037172E+02	-7.56782163336E+01	1.36108762620E+02	-5.99389549871E+00	-5.79532839359E-01
9.43549283254E+05	-1.49280020502E+01	1.78306802830E+02	1.19181558128E+01	1.76358376795E+02	-3.55700607442E+01	-1.20860530781E+02	-5.98477320082E+00	-1.10520176263E-01
9.65740637849E+05	-1.45019161696E+01	-1.64657712578E+02	1.19142061008E+01	1.75987068699E+02	-3.92840646586E+01	1.46037798458E+02	-5.98016923353E+00	-4.85334000752E-01
9.87931992444E+05	-1.53391868453E+01	1.49903510287E+02	1.19049473392E+01	1.76314892405E+02	-4.77907293782E+01	-1.34773516296E+02	-6.00555747060E+00	-4.39989019848E-01
1.01012334704E+06	-1.69979632066E+01	-1.66328230504E+02	1.19098341058E+01	1.75839898040E+02	-5.74418916236E+01	-4.19535419152E+01	-5.97746988923E+00	-4.04344259037E-01
1.03231470163E+06	-1.10876814472E+01	1.73114249535E+02	1.18859278215E+01	1.75793641605E+02	-4.39096679562E+01	4.84400391716E+01	-5.97226413751E+00	-5.01052870287E-01
1.05450605623E+06	-1.71868834814E+01	-1.79694450081E+02	1.19113415475E+01	1.75406772917E+02	-4.24892852798E+01	-8.87069167314E+01	-6.00286966118E+00	-5.28076316560E-01
1.07669741082E+06	-1.60047080664E+01	1.75500105215E+02	1.19131420127E+01	1.75360910710E+02	-4.46405277857E+01	1.53308674561E+02	-5.98523742737E+00	-6.22499693257E-01
1.09888876542E+06	-1.49724226460E+01	1.32175916057E+02	1.19192968133E+01	1.75606558349E+02	-4.39143729469E+01	-1.24550548173E+02	-5.98204457809E+00	-3.34150125980E-01
1.12108012001E+06	-1.77670550778E+01	1.77648478038E+02	1.19299709033E+01	1.75099302660E+02	-4.58855587098E+01	8.08300058049E+01	-5.98267651218E+00	-6.23797697227E-01
1.14327147461E+06	-1.25195358260E+01	1.70443415872E+02	1.18912940039E+01	1.74966033693E+02	-4.58214444002E+01	3.44609818291E+01	-6.02109914208E+00	-5.34705148881E-01
1.16546282920E+06	-1.05396987475E+01	-1.52637480142E+02	1.18875466807E+01	1.74448437125E+02	-4.43426603697E+01	1.06526896512E+02	-5.96892087520E+00	-7.25964683636E-01
1.18765418380E+06	-1.37994138300E+01	-1.57293431061E+02	1.18943723992E+01	1.74523543180E+02	-4.10732467244E+01	2.17567949717E+01	-6.04010236240E+00	-6.85972927597E-01
1.20984553839E+06	-1.20349933580E+01	-1.53696837747E+02	1.19240771794E+01	1.74231592795E+02	-4.55597163910E+01	-1.35782014570E+02	-5.98226987482E+00	-4.57621200493E-01
1.23203689299E+06	-1.28656841882E+01	-1.74222180795E+02	1.19055561587E+01	1.74206977917E+02	-4.50038868310E+01	8.13763632694E+01	-6.01458802253E+00	-3.83325091270E-01
1.25422824758E+06	-1.27620043800E+01	1.66368523652E+02	1.19045875457E+01	1.74332332815E+02	-4.40491240369E+01	-3.09913196195E+01	-6.01410994874E+00	-6.38626413790E-01
1.27641960218E+06	-1.63454637961E+01	-1.77103054390E+02	1.19079500979E+01	1.74196465897E+02	-3.64360435065E+01	-4.92681399572E+01	-6.04948754527E+00	-4.95638570944E-01
1.29861095677E+06	-1.68450108635E+01	-1.69512616648E+02	1.19333210422E+01	1.73971822509E+02	-4.77478258143E+01	1.57909065363E+01	-6.02026062119E+00	-7.22335801301E-01
1.32080231137E+06	-1.31590261393E+01	-1.55442345396E+02	1.18974747394E+01	1.73738756691E+02	-4.17515461059E+01	1.53249503938E+02	-5.97471493916E+00	-9.75087318024E-01
1.34299366596E+06	-1.62364345415E+01	1.75833457083E+02	1.18966446539E+01	1.73877298137E+02	-5.22026987497E+01	1.12832411979E+02	-5.98002542377E+00	-6.87545949261E-01
1.36518502056E+06	-1.60435651340E+01	-1.79780600904E+02	1.18958039431E+01	1.73699263895E+02	-4.33463452365E+01	-9.25933374639E+01	-6.00564577860E+00	-5.77173877587E-01
1.38737637515E+06	-1.47603727886E+01	-1.58125281702E+02	1.19195959089E+01	1.73254437665E+02	-5.45477399358E+01	4.84889696276E+00	-6.00566210332E+00	-5.84655615920E-01
1.40956772975E+06	-1.18164020925E+01	1.69150750896E+02	1.18503216803E+01	1.73225418654E+02	-4.73643447155E+01	-7.25927018140E+01	-5.99999813871E+00	-6.66065416131E-01
1.43175908434E+06	-1.51460874060E+01	1.76121559800E+02	1.19094716507E+01	1.73115605843E+02	-4.75479684979E+01	-1.06196370163E+02	-5.99715753313E+00	-5.15711930261E-01
1.45395043894E+06	-1.60635544756E+01	-1.79183038621E+02	1.18961264512E+01	1.73114613579E+02	-5.24726073904E+01	-1.21101119121E+02	-6.00866136271E+00	-6.43380026219E-01
1.47614179353E+06	-1.33174472527E+01	1.53896903521E+02	1.18457891626E+01	1.73121233093E+02	-4.87000529230E+01	-3.98883691677E+01	-6.00304806106E+00	-6.03665669579E-01
1.49833314813E+06	-1.24962682843E+01	1.69625522160E+02	1.18878781412E+01	1.72795653136E+02	-4.10692454533E+01	-3.17169459750E+01	-6.04411216393E+00	-7.54907217022E-01
1.52052450272E+06	-1.19778730486E+01	-1.71075223455E+02	1.18835082367E+01	1.72678595092E+02	-4.35414743063E+01	-1.07194198710E+02	-5.99135212816E+00	-6.45921571228E-01
1.54271585732E+06	-1.84455226491E+01	-1.71591575094E+02	1.19356222548E+01	1.72660659574E+02	-4.85701116809E+01	1.10264089165E+02	-5.99371466449E+00	-7.69799596611E-01
1.56490721191E+06	-1.35029196894E+01	-1.76191991949E+02	1.18987295910E+01	1.72439003624E+02	-4.39655168540E+01	-7.35279956905E+01	-6.00526560335E+00	-6.36318200251E-01
1.58709856651E+06	-1.55483828579E+01	-1.71761898666E+02	1.19217387531E+01	1.72220099128E+02	-4.53476960301E+01	1.18252664023E+02	-5.96387256122E+00	-7.73285761134E-01
1.60928992110E+06	-1.44642319260E+01	1.79383796579E+02	1.18917705098E+01	1.72209079498E+02	-4.31234100417E+01	-1.08342314320E+02	-6.00276444081E+00	-7.03560858076E-01
1.63148127570E+06	-1.12370575553E+01	-1.58685836391E+02	1.19124925447E+01	1.71765145245E+02	-5.50569800984E+01	-8.26393348766E+01	-6.00843727177E+00	-7.24356510592E-01
1.65367263029E+06	-1.29721658861E+01	1.78605906094E+02	1.19017627005E+01	1.71935549027E+02	-3.91417280979E+01	1.10432441301E+02	-5.98163357223E+00	-8.62566329385E-01
1.67586398489E+06	-1.48231248357E+01	-1.68601045852E+02	1.19075995597E+01	1.71693735850E+02	-4.20593046551E+01	-2.92257272759E+01	-5.99949045750E+00	-6.88597509657E-01
1.69805533948E+06	-1.64829238372E+01	-1.64927536841E+02	1.19487506299E+01	1.71541960848E+02	-4.21949067167E+01	-1.11824192775E+02	-5.97228027954E+00	-6.61532602029E-01
1.72024669408E+06	-1.28717407373E+01	-1.77960560744E+02	1.18798664997E+01	1.71556480236E+02	-4.49738347394E+01	1.58569371218E+02	-5.96262764048E+00	-7.31602542672E-01
1.74243804867E+06	-1.77625904022E+01	1.44242090618E+02	1.19007846608E+01	1.71698693028E+02	-3.98486451870E+01	8.64865832594E+01	-5.97610251162E+00	-9.08016632261E-01
1.76462940327E+06	-1.15932443917E+01	-1.74708591019E+02	1.18959907447E+01	1.71339254491E+02	-4.45797842925E+01	-4.03728167426E+01	-5.99766738940E+00	-7.24554132752E-01
1.78682075786E+06	-1.54163989194E+01	-1.78989814450E+02	1.19188169785E+01	1.71243106608E+02	-6.58542710661E+01	-1.15382596001E+02	-5.99654720803E+00	-8.43101184252E-01
1.80901211246E+06	-1.36528624125E+01	-1.63573762637E+02	1.19177792678E+01	1.70954382704E+02	-4.32229530878E+01	-1.32902791060E+02	-5.98398234606E+00	-6.67126950509E-01
1.83120346705E+06	-1.30681016780E+01	-1.74546824477E+02	1.19170014706E+01	1.70770792739E+02	-4.11109930200E+01	1.60730653878E+02	-5.93545874465E+00	-6.52486501854E-01
1.85339482165E+06	-1.24680892491E+01	-1.75137772951E+02	1.18951345765E+01	1.70579048015E+02	-5.22213359720E+01	6.42688622146E+01	-6.03035966645E+00	-8.64367586281E-01
1.87558617624E+06	-1.74453367468E+01	1.78382179602E+02	1.19366220122E+01	1.70823623460E+02	-5.35631816617E+01	-1.17262408284E+02	-5.98215088786E+00	-7.75018113936E-01
1.89777753084E+06	-1.31768960174E+01	-1.76218469845E+02	1.18832351712E+01	1.70425681300E+02	-4.65158478898E+01	-1.19799605776E+02	-6.00411387845E+00	-9.22121121514E-01
1.91996888543E+06	-1.38576997111E+01	-1.76639322178E+02	1.18913262569E+01	1.70402376634E+02	-3.77968799973E+01	7.38042404050E+01	-5.98231073821E+00	-8.36205951966E-01
1.94216024003E+06	-1.69327597899E+01	-1.25089018501E+02	1.19416933039E+01	1.70288907035E+02	-3.88020152935E+01	1.79148308175E+02	-5.97542816412E+00	-8.02831262135E-01
1.96435159462E+06	-1.26439385649E+01	1.78455872062E+02	1.18945670870E+01	1.69916916351E+02	-4.26327507273E+01	-1.60160851499E+02	-5.96056194241E+00	-7.17850166091E-01
1.98654294922E+06	-1.48393447834E+01	1.73014068462E+02	1.18970045658E+01	1.70270464838E+02	-4.38331445125E+01	5.22328625743E+01	-5.99711535736E+00	-1.04780355933E+00
2.00873430381E+06	-1.63712556567E+01	-1.55841527595E+02	1.19433526626E+01	1.69926792189E+02	-4.38800890535E+01	-1.55959949499E+02	-5.96967775386E+00	-6.29946503981E-01
2.03092565841E+06	-1.27921977167E+01	-1.62981218261E+02	1.19128024919E+01	1.69398514576E+02	-3.94967817033E+01	2.06931240106E+01	-6.00676298241E+00	-1.06578934402E+00
2.05311701300E+06	-1.60146977835E+01	-1.61444466132E+02	1.19228584339E+01	1.69696790111E+02	-4.12743573097E+01	-5.18962975605E+01	-6.01898732688E+00	-1.00269440729E+00
2.07530836760E+06	-1.66217529599E+01	1.65790974434E+02	1.18966369344E+01	1.69856497089E+02	-2.85581269570E+01	-1.79646117954E+01	-6.08155009914E+00	-1.37173755614E+00
2.09749972219E+06	-1.70460557708E+01	-1.79417167788E+02	1.19335627589E+01	1.69421901764E+02	-4.41221591887E+01	4.45839167847E+01	-6.00980782129E+00	-1.03760600080E+00
2.11969107679E+06	-1.24594175517E+01	-1.58316609507E+02	1.19435440886E+01	1.69136548905E+02	-4.46104451778E+01	3.47662274659E+01	-6.00564403309E+00	-1.10874377964E+00
2.14188243138E+06	-1.35207963933E+01	1.79924216726E+02	1.18972982284E+01	1.69401164551E+02	-5.43647459864E+01	1.23670961991E+01	-5.99240860317E+00	-7.21195262592E-01
2.16407378598E+06	-1.58608599950E+01	-1.62980925410E+02	1.19543844172E+01	1.68973241456E+02	-4.42396302121E+01	-8.30211653950E+01	-5.99267544039E+00	-6.66090502807E-01
2.18626514057E+06	-1.51581490219E+01	-1.69826025662E+02	1.19477182500E+01	1.68897025479E+02	-4.90162012570E+01	-6.37030335663E+01	-6.03980982733E+00	-7.92873098510E-01
2.20845649517E+06	-1.30520082491E+01	-1.65703766881E+02	1.19180781259E+01	1.68711843299E+02	-4.24175769570E+01	-1.25428115774E+02	-6.00051584000E+00	-9.11804993339E-01
2.23064784976E+06	-1.12785669115E+01	-1.68664907649E+02	1.18901553224E+01	1.68802847584E+02	-3.43476719396E+01	3.31099434390E+01	-6.01911857612E+00	-1.13793337288E+00
2.25283920436E+06	-1.89044232397E+01	-1.70854977826E+02	1.19403208255E+01	1.68662849047E+02	-5.15514024580E+01	5.75344657063E+01	-6.01866333124E+00	-1.05561497580E+00
2.27503055895E+06	-1.70677423137E+01	-1.63233562125E+02	1.19555919464E+01	1.68551577996E+02	-5.10597900000E+01	-1.42935864755E+02	-6.00013087067E+00	-1.03716219867E+00
2.29722191355E+06	-1.50964361604E+01	-1.66351161762E+02	1.19659908993E+01	1.68403922909E+02	-4.05380864035E+01	-4.55010026742E+01	-6.03643588652E+00	-1.08520967113E+00
2.31941326814E+06	-1.21162468813E+01	-1.72831956701E+02	1.19288261229E+01	1.68020662633E+02	-4.56627967618E+01	4.26779483903E+01	-5.99372252483E+00	-1.13398000792E+00
2.34160462274E+06	-1.45451441920E+01	-1.46875715796E+02	1.19823641587E+01	1.67888536826E+02	-4.82414035936E+01	1.00476250162E+02	-5.96987882721E+00	-1.14722913796E+00
2.36379597733E+06	-1.13772110207E+01	-1.71257172387E+02	1.19206016668E+01	1.67713405064E+02	-3.87641274133E+01	1.06981355751E+02	-5.98610655933E+00	-1.25655003889E+00
2.38598733193E+06	-1.17397724838E+01	-1.69663115177E+02	1.19089327694E+01	1.67619694026E+02	-4.41167255499E+01	1.52315330544E+02	-5.97622185812E+00	-1.07631250979E+00
2.40817868652E+06	-1.24653185193E+01	1.79215309496E+02	1.19170160884E+01	1.67746167621E+02	-4.13178862977E+01	1.29817725696E+02	-5.98756864904E+00	-1.32844242148E+00
2.43037004112E+06	-1.12467366409E+01	-1.49084902630E+02	1.19615155685E+01	1.67344084977E+02	-5.95378745652E+01	5.67590771479E+01	-5.98325855431E+00	-1.56463152448E+00
2.45256139571E+06	-1.42286655140E+01	-1.47284704932E+02	1.19650763290E+01	1.67450873419E+02	-4.66134295933E+01	1.59516777476E+02	-5.98549031374E+00	-8.97839373564E-01
2.47475275031E+06	-1.51779756440E+01	-1.71514138302E+02	1.19456240445E+01	1.67528510547E+02	-6.00929732271E+01	5.19080153302E+01	-5.98613000615E+00	-9.83581733160E-01
2.49694410490E+06	-1.40556048596E+01	-1.75149401592E+02	1.19224011584E+01	1.67232161034E+02	-3.85654910716E+01	1.15884094524E+02	-5.96804897735E+00	-1.29519673792E+00
2.51913545950E+06	-1.09186216076E+01	-1.60945621725E+02	1.19417157699E+01	1.66911997936E+02	-4.01658498159E+01	-1.37281234188E+02	-5.98532989223E+00	-9.55633461069E-01
2.54132681409E+06	-1.24732936752E+01	1.78690744599E+02	1.19045889575E+01	1.66965705786E+02	-5.05328877088E+01	8.55230890065E+01	-5.98011782669E+00	-1.22552457201E+00
2.56351816869E+06	-1.43097896447E+01	1.57615695518E+02	1.19006935779E+01	1.67128100229E+02	-6.01750209463E+01	-4.15998255020E+01	-6.00947180766E+00	-1.03720467790E+00
2.58570952328E+06	-6.64988072215E+00	-1.13721856897E+02	1.20828416948E+01	1.66302344961E+02	-6.14966204340E+01	1.24012763131E+02	-6.01047472003E+00	-1.07956944312E+00
2.60790087788E+06	-1.25134718202E+01	-1.47201734133E+02	1.19531593788E+01	1.66481771818E+02	-4.45847162160E+01	1.14230033759E+02	-5.98425117097E+00	-1.03514944511E+00
2.63009223247E+06	-1.37766636116E+01	-1.64928470056E+02	1.19433507483E+01	1.66392698191E+02	-4.28028015625E+01	2.35725279303E+01	-6.01441529276E+00	-8.64277755308E-01
2.65228358707E+06	-1.51771103791E+01	1.76696830074E+02	1.19309506287E+01	1.66572144696E+02	-4.56813296206E+01	-1.13178495761E+02	-5.99506591063E+00	-1.03386427314E+00
2.67447494166E+06	-1.15738242701E+01	-1.78723089275E+02	1.19672978528E+01	1.66002836072E+02	-4.49225865937E+01	-2.49568245222E+01	-6.02389798074E+00	-1.06508266627E+00
2.69666629626E+06	-1.48046200402E+01	-1.78538378011E+02	1.19241120519E+01	1.66138946022E+02	-3.47482121903E+01	-5.76249364959E+01	-6.06354407323E+00	-1.11654491834E+00
2.71885765085E+06	-1.56991037321E+01	-1.60814858767E+02	1.19667470414E+01	1.66104302765E+02	-3.99530663074E+01	-1.12546968381E+02	-6.01885386486E+00	-9.65629668866E-01
2.74104900545E+06	-9.39394142146E+00	-1.79979402265E+02	1.19230060254E+01	1.65731513912E+02	-4.08689008247E+01	-1.57692210950E+02	-5.96774030972E+00	-1.06998428030E+00
2.76324036004E+06	-1.40213675304E+01	-1.72501925508E+02	1.19370961681E+01	1.65778192350E+02	-5.11264944077E+01	-1.03596792176E+02	-6.01616598669E+00	-1.22137346646E+00
2.78543171463E+06	-1.24562968718E+01	-1.46435389872E+02	1.19835029851E+01	1.65223281097E+02	-4.16276737698E+01	-1.72459635005E+02	-5.98369770496E+00	-9.83220955181E-01
2.80762306923E+06	-1.37625691595E+01	-1.72673919519E+02	1.19661085455E+01	1.65423967302E+02	-3.87975144976E+01	-1.24288928052E+02	-5.99808688648E+00	-8.88201817604E-01
2.82981442382E+06	-1.25903464364E+01	-1.59830110674E+02	1.19698809795E+01	1.65239681732E+02	-4.38240673118E+01	-1.77843511446E+02	-5.98416886020E+00	-1.11487485890E+00
2.85200577842E+06	-1.14077844921E+01	-1.57159022540E+02	1.19728315520E+01	1.64953299967E+02	-4.16885053342E+01	-4.95491541852E+01	-6.03630135141E+00	-1.08899558994E+00
2.87419713301E+06	-1.52927255695E+01	-1.72360932189E+02	1.19878784394E+01	1.65231363808E+02	-4.71628450984E+01	-9.62258985061E+01	-6.01981872736E+00	-1.18328313706E+00
