# Hz S DB R 50
! CMT, M5065, 19127446, 24.2.4/2
! Date: 11/8/2024 3:13:32 PM
! Data: Format (Calibration Info)
! Freq	S11:dB/Ang(F2)	S21:dB/Ang(F2)	S12:dB/Ang(F2)	S22:dB/Ang(F2)
3.00000000000E+05	-1.45738792407E+01	-1.52053424081E+02	1.27909327573E+01	-1.77660466844E+02	-5.08446187687E+01	5.40546044817E+01	-6.03211090985E+00	-2.93403406337E-01
3.22191354595E+05	-1.60520023459E+01	-1.74311240737E+02	1.28273618773E+01	-1.77745713614E+02	-5.80760816882E+01	-8.53259880389E+01	-5.98822966302E+00	-2.63837866507E-01
3.44382709190E+05	-1.10782230560E+01	-1.71473886300E+02	1.27720373255E+01	-1.78453693872E+02	-3.92504539283E+01	-7.09108399334E+01	-6.01862311520E+00	-1.57269035517E-01
3.66574063785E+05	-1.73815715096E+01	-1.59433348497E+02	1.28069395505E+01	-1.78671120694E+02	-4.00471357034E+01	1.72451881346E+02	-5.98323856124E+00	-2.73207946662E-01
3.88765418380E+05	-1.42810526500E+01	1.77451477712E+02	1.28137692172E+01	-1.78620865405E+02	-4.88447236940E+01	1.41748925608E+02	-5.96920020363E+00	-4.17952642198E-01
4.10956772975E+05	-1.15811412809E+01	-1.67735930168E+02	1.27731279735E+01	-1.79553427840E+02	-5.23750812459E+01	8.22802872822E+01	-6.03012242566E+00	-4.46118522475E-01
4.33148127570E+05	-1.18945655006E+01	-1.72611244257E+02	1.27946467404E+01	-1.79426559302E+02	-5.55935815931E+01	-9.59100489126E+01	-5.99118861632E+00	-1.91080875270E-01
4.55339482165E+05	-1.51513412722E+01	-1.67278589587E+02	1.27576952205E+01	-1.79941114771E+02	-4.21638323376E+01	1.17271367720E+02	-5.96231445916E+00	-4.88837309343E-01
4.77530836760E+05	-1.64491108956E+01	1.66204419990E+02	1.28253586753E+01	-1.79952288018E+02	-4.96533050599E+01	-2.38840876989E+01	-6.02031820246E+00	-3.37152479613E-01
4.99722191355E+05	-1.36223710026E+01	-1.77872773128E+02	1.27723823282E+01	1.79654625557E+02	-5.44971496720E+01	-1.17232945255E+02	-5.98419804548E+00	-1.60639579220E-01
5.21913545950E+05	-1.19183636989E+01	-1.76949498142E+02	1.27687574657E+01	1.79388323692E+02	-5.57638913401E+01	-6.14412984889E+00	-6.01535268133E+00	-4.53029289672E-01
5.44104900545E+05	-1.72080719323E+01	-1.78878772195E+02	1.28162299507E+01	1.79261097448E+02	-4.61955320476E+01	9.30862484552E+01	-5.97498356090E+00	-5.20257261352E-01
5.66296255139E+05	-1.50382878272E+01	-1.68409015686E+02	1.28356020693E+01	1.79015616756E+02	-6.18196000745E+01	1.12391417620E+02	-5.98711841785E+00	-4.64729588572E-01
5.88487609734E+05	-1.24163030259E+01	-1.77887535727E+02	1.27778438333E+01	1.78904109983E+02	-4.89865463996E+01	-1.36567905562E+02	-5.98219934007E+00	-3.21476055469E-01
6.10678964329E+05	-1.47785716359E+01	-1.71703148733E+02	1.27976010913E+01	1.78775053848E+02	-4.45183889634E+01	1.40460866618E+02	-6.00005062593E+00	-1.27352281845E-02
6.32870318924E+05	-1.22017283815E+01	-1.77496299135E+02	1.27808627236E+01	1.78325852089E+02	-4.23796880840E+01	2.33728481028E+01	-6.04667214778E+00	-2.35677870841E-01
6.55061673519E+05	-1.45929839428E+01	-1.77866692949E+02	1.27852565540E+01	1.78124506349E+02	-3.87506850095E+01	-2.24666528221E+01	-6.04004876510E+00	-2.56085597751E-01
6.77253028114E+05	-1.55678297223E+01	-1.68322839746E+02	1.28141724428E+01	1.77685029713E+02	-6.33923653492E+01	-1.54383994116E+02	-5.99925626318E+00	-6.17130316690E-01
6.99444382709E+05	-1.31376902653E+01	-1.64388725432E+02	1.28014708960E+01	1.77629341817E+02	-4.73626724432E+01	8.37729239720E+01	-6.01167513099E+00	-5.91371282968E-01
7.21635737304E+05	-1.22390873720E+01	-1.71084758133E+02	1.28051346210E+01	1.77453774990E+02	-3.90788612343E+01	-1.06176070098E+02	-5.98971835975E+00	-1.94839400088E-01
7.43827091899E+05	-1.60435469694E+01	-1.72783589704E+02	1.27943084492E+01	1.77364655863E+02	-5.12465944926E+01	-1.51701123764E+02	-6.00414981516E+00	-5.17043530575E-01
7.66018446494E+05	-1.06833978978E+01	-1.79919280555E+02	1.27713045646E+01	1.77346056524E+02	-6.05086901223E+01	-1.52411997221E+02	-5.99802838456E+00	-3.76327203016E-01
7.88209801089E+05	-1.19268975529E+01	-1.68399150484E+02	1.27846931791E+01	1.76940315385E+02	-4.52354130377E+01	9.77247172950E+00	-6.02980653060E+00	-5.73878901298E-01
8.10401155684E+05	-1.25052733355E+01	-1.64866729109E+02	1.28258796739E+01	1.76900703587E+02	-4.83290355450E+01	-4.26711859793E+01	-5.97818707783E+00	-3.13620405118E-01
8.32592510279E+05	-1.46519114565E+01	-1.64731138356E+02	1.27904916709E+01	1.76724025728E+02	-4.90403180112E+01	-3.96549433781E+01	-6.01018865150E+00	-3.08263395497E-01
8.54783864874E+05	-1.33955653622E+01	-1.61076285908E+02	1.27838739701E+01	1.76518322479E+02	-3.94326931937E+01	1.96462685489E+01	-6.00140768420E+00	-6.50211341088E-01
8.76975219469E+05	-1.30570065423E+01	-1.74959873043E+02	1.27779639138E+01	1.76566656001E+02	-4.49640885237E+01	-1.14642035454E+02	-5.99102043575E+00	-2.04253628088E-01
8.99166574064E+05	-1.35188006304E+01	-1.60539041546E+02	1.27990677060E+01	1.76016868799E+02	-4.65043623281E+01	9.61055732413E+01	-5.99003373185E+00	-6.49631175490E-01
9.21357928659E+05	-1.29121159185E+01	1.62538776780E+02	1.27700247465E+01	1.76329690764E+02	-4.81685861019E+01	-1.21288581507E+02	-6.00496424174E+00	-4.18811258704E-01
9.43549283254E+05	-1.47813936620E+01	-1.72903172907E+02	1.27765472858E+01	1.75768599024E+02	-5.23566947053E+01	-1.79041501233E+02	-6.00521590246E+00	-3.34702791954E-01
9.65740637849E+05	-1.34132592077E+01	-1.65937961941E+02	1.28109064326E+01	1.75681050838E+02	-4.48295190777E+01	-2.61784956599E+01	-6.03787091529E+00	-4.35736078323E-01
9.87931992444E+05	-1.13736469730E+01	-1.74938107386E+02	1.27752487138E+01	1.75337763395E+02	-4.75979653386E+01	6.75281642649E+01	-5.99329306575E+00	-3.99844897067E-01
1.01012334704E+06	-1.27345188162E+01	1.71606492223E+02	1.27855180673E+01	1.75579172889E+02	-4.18756764919E+01	1.44682480143E+02	-5.94688967674E+00	-4.40137863766E-01
1.03231470163E+06	-1.23325156259E+01	-1.71077979850E+02	1.27756099543E+01	1.75174218850E+02	-4.78890486568E+01	1.08984598985E+02	-6.01205848854E+00	-5.55600219950E-01
1.05450605623E+06	-1.33713016615E+01	1.78227854049E+02	1.27953940116E+01	1.75291369203E+02	-4.01009798232E+01	3.33327686666E+01	-6.02630012281E+00	-6.24559380283E-01
1.07669741082E+06	-1.15104960434E+01	-1.72960762144E+02	1.27941203203E+01	1.74826373925E+02	-4.39577382202E+01	7.08720063650E+01	-5.99462643541E+00	-6.13203600506E-01
1.09888876542E+06	-1.46097841507E+01	1.74638071951E+02	1.28024754632E+01	1.74872830581E+02	-4.50310238761E+01	4.08367574308E+01	-6.04351432540E+00	-6.65352742495E-01
1.12108012001E+06	-1.53616081644E+01	-1.59454893389E+02	1.28017012683E+01	1.74587982442E+02	-4.46498820880E+01	-2.11711793208E+01	-6.01922085253E+00	-5.89773873358E-01
1.14327147461E+06	-1.31206641638E+01	-1.70490240127E+02	1.27960757263E+01	1.74516426292E+02	-4.45621522306E+01	-8.08046429606E+01	-6.02665167803E+00	-3.92902629260E-01
1.16546282920E+06	-1.26481114275E+01	-1.75255263982E+02	1.27693553557E+01	1.74502987016E+02	-4.44792579119E+01	-8.33420196894E+01	-6.00877285360E+00	-3.03873484538E-01
1.18765418380E+06	-1.30101007488E+01	-1.60764654758E+02	1.28142017383E+01	1.74230495484E+02	-4.52596309974E+01	2.24916833398E+01	-6.01192950518E+00	-6.59205125307E-01
1.20984553839E+06	-1.07911402712E+01	1.76363378958E+02	1.27288659063E+01	1.74150939512E+02	-4.82386686589E+01	5.60391121926E+01	-6.00096542081E+00	-9.80544877846E-01
1.23203689299E+06	-1.45040695300E+01	-1.63457297513E+02	1.27987708004E+01	1.74143154606E+02	-4.40946843008E+01	-6.30818939256E+01	-6.02280235821E+00	-3.12803074325E-01
1.25422824758E+06	-1.39085866290E+01	-1.72676316118E+02	1.27751974110E+01	1.73886519685E+02	-4.47632961945E+01	5.04181068832E+01	-6.03076996130E+00	-8.57597634410E-01
1.27641960218E+06	-1.11026799862E+01	-1.67447241905E+02	1.27873086991E+01	1.73534937257E+02	-4.95532711270E+01	-1.04907411905E+02	-6.01088971265E+00	-5.49910427659E-01
1.29861095677E+06	-1.42156212264E+01	-1.69571143179E+02	1.27953270958E+01	1.73387219365E+02	-4.82804249314E+01	-1.75621406872E+01	-6.01085522149E+00	-6.11246434015E-01
1.32080231137E+06	-1.54989538145E+01	1.77728089805E+02	1.27800933814E+01	1.73492370782E+02	-5.91780610303E+01	2.82103548058E+01	-5.99921813796E+00	-9.72869441963E-01
1.34299366596E+06	-1.57811249545E+01	1.61285898247E+02	1.27984720344E+01	1.73477944996E+02	-4.35673600001E+01	-4.62863395389E+01	-6.00453630875E+00	-7.10280531073E-01
1.36518502056E+06	-1.37334688840E+01	1.76645606014E+02	1.27808256741E+01	1.73110231687E+02	-4.22408225096E+01	1.70713334937E+02	-5.96005144444E+00	-5.26919474556E-01
1.38737637515E+06	-1.40539946223E+01	-1.71527856116E+02	1.28111133104E+01	1.72903711209E+02	-4.99521449441E+01	-3.88877183657E+01	-6.01287800371E+00	-7.04828585276E-01
1.40956772975E+06	-1.37346112413E+01	1.77768727625E+02	1.27849945469E+01	1.72862005859E+02	-5.00193881183E+01	-1.70548108283E+02	-5.99974091394E+00	-6.66543257913E-01
1.43175908434E+06	-1.48667356669E+01	1.67188313576E+02	1.28136723901E+01	1.72788222182E+02	-5.63669677569E+01	-1.61201764164E+02	-6.00192847297E+00	-5.47285620629E-01
1.45395043894E+06	-1.09214447401E+01	1.78317533608E+02	1.27681180801E+01	1.72466443538E+02	-4.39026507145E+01	-8.44021103893E+01	-5.98494392137E+00	-6.58374202416E-01
1.47614179353E+06	-1.34535311258E+01	-1.62433999656E+02	1.28042396413E+01	1.72344721661E+02	-4.72296776099E+01	-1.49199137673E+01	-6.01660262531E+00	-6.96540267546E-01
1.49833314813E+06	-1.16988773144E+01	1.79272620449E+02	1.27465731421E+01	1.72298100970E+02	-3.44953878509E+01	-2.11005573849E+01	-6.06904367498E+00	-7.31844463096E-01
1.52052450272E+06	-1.48829162674E+01	-1.78436984550E+02	1.28075799982E+01	1.72230201978E+02	-4.84888805340E+01	2.81891227002E+01	-6.00867494671E+00	-7.49722211674E-01
1.54271585732E+06	-1.35002033707E+01	-1.62287561312E+02	1.28004078000E+01	1.71869249767E+02	-4.07511568707E+01	1.35410760138E+02	-5.99002673293E+00	-9.68015645565E-01
1.56490721191E+06	-1.27682935674E+01	-1.55077102755E+02	1.28167535292E+01	1.71715877124E+02	-4.83961905756E+01	-9.99072259341E+01	-6.01963573157E+00	-6.61774029844E-01
1.58709856651E+06	-1.58154003840E+01	-1.67414918425E+02	1.27984147570E+01	1.71690097397E+02	-5.78544584319E+01	-2.65267263987E+01	-6.00929477158E+00	-7.12110984551E-01
1.60928992110E+06	-1.16560269405E+01	-1.74842275593E+02	1.27666838841E+01	1.71564992922E+02	-4.36763922050E+01	-1.14553767675E+01	-6.02376277974E+00	-8.15748093001E-01
1.63148127570E+06	-1.61024439042E+01	-1.69021348084E+02	1.28255297433E+01	1.71579262689E+02	-4.28371530727E+01	1.38970325548E+02	-5.97249674712E+00	-7.33207516048E-01
1.65367263029E+06	-1.53764168734E+01	-1.78309610439E+02	1.28126818767E+01	1.71353945290E+02	-5.36639935218E+01	1.84899594947E+01	-6.01002927220E+00	-8.36268902161E-01
1.67586398489E+06	-1.91521774992E+01	-1.76588500513E+02	1.28221529944E+01	1.71481762795E+02	-3.80179688946E+01	-1.61779995216E+02	-5.95503194949E+00	-5.20508032342E-01
1.69805533948E+06	-1.45201459464E+01	-1.66247846211E+02	1.28135854361E+01	1.71171053594E+02	-4.49742876733E+01	1.04049472416E+02	-5.96792311519E+00	-8.99725826062E-01
1.72024669408E+06	-1.43966126836E+01	1.69460955945E+02	1.27959045846E+01	1.71155376939E+02	-4.54603518015E+01	-1.10371743000E+02	-6.00130830449E+00	-6.66864531953E-01
1.74243804867E+06	-1.06830474959E+01	-1.76853551422E+02	1.27617511834E+01	1.70705971465E+02	-4.05592760875E+01	-8.13105317834E+01	-6.00981711052E+00	-5.17561202604E-01
1.76462940327E+06	-1.34715591813E+01	1.52008413480E+02	1.27868510279E+01	1.70826491344E+02	-3.91702581631E+01	-9.14831500846E+01	-6.01155939139E+00	-5.14953803424E-01
1.78682075786E+06	-1.29260987647E+01	1.79860057725E+02	1.27736609015E+01	1.70877502214E+02	-4.01810183335E+01	-1.49091626909E+01	-6.04206117664E+00	-8.72759380575E-01
1.80901211246E+06	-1.18562262872E+01	-1.71053085081E+02	1.27763435461E+01	1.70380867501E+02	-4.34297358862E+01	-7.78711684031E+01	-6.02223655895E+00	-7.71245152482E-01
1.83120346705E+06	-1.35659640181E+01	1.78468666916E+02	1.27996422216E+01	1.70248765295E+02	-4.53914249464E+01	-3.53069963756E+01	-6.02251593134E+00	-7.04252930287E-01
1.85339482165E+06	-1.38431049511E+01	-1.66760869897E+02	1.28264848659E+01	1.70198777197E+02	-4.61323458921E+01	6.45579536437E+01	-5.99007240046E+00	-9.98705995943E-01
1.87558617624E+06	-1.51482923965E+01	-1.69162836579E+02	1.27983815219E+01	1.69993936203E+02	-4.25892224304E+01	-1.63857915620E+02	-5.95740613440E+00	-7.03314125000E-01
1.89777753084E+06	-1.37790413855E+01	-1.36608685379E+02	1.28310869128E+01	1.69677548561E+02	-4.00633535313E+01	1.96953418435E+00	-6.03369082389E+00	-9.13476185839E-01
1.91996888543E+06	-1.03606575658E+01	1.29354923198E+02	1.27600515522E+01	1.69968033918E+02	-4.20544819370E+01	-1.25350305076E+02	-6.01514626531E+00	-7.35121637377E-01
1.94216024003E+06	-1.23482093210E+01	-1.65563636836E+02	1.28143933093E+01	1.69514229427E+02	-4.51534639772E+01	6.25552435159E+01	-6.00593275238E+00	-8.73185880847E-01
1.96435159462E+06	-1.41708689838E+01	-1.66617364938E+02	1.27967417071E+01	1.69359281966E+02	-3.41253133756E+01	-4.92431386601E+01	-6.05805889216E+00	-8.13042825642E-01
1.98654294922E+06	-1.80919363737E+01	-1.76326692027E+02	1.28440311301E+01	1.69266714786E+02	-4.04036044567E+01	4.36468573846E+01	-6.02270788700E+00	-1.29557763806E+00
2.00873430381E+06	-1.42335354364E+01	-1.74604787315E+02	1.28064408343E+01	1.69335444496E+02	-4.36530892201E+01	-8.22735800401E+01	-6.01190388681E+00	-6.55580817636E-01
2.03092565841E+06	-1.60785551173E+01	1.79482656418E+02	1.28333413991E+01	1.69200794766E+02	-4.64350545689E+01	8.70481926415E+00	-6.01042706288E+00	-8.76072975010E-01
2.05311701300E+06	-8.87503150126E+00	1.49086869070E+02	1.27403535613E+01	1.68962417743E+02	-4.30944294288E+01	-1.10102307649E+02	-6.00338537390E+00	-8.43080169505E-01
2.07530836760E+06	-1.64753607787E+01	-1.70949434829E+02	1.28319013157E+01	1.68947840162E+02	-5.10629818982E+01	-1.57962813833E+01	-6.02522011590E+00	-9.46044413634E-01
2.09749972219E+06	-1.85499201101E+01	-1.73843301440E+02	1.28215039341E+01	1.68928959494E+02	-3.74054402316E+01	-5.40075443449E+00	-6.02877884796E+00	-1.03428753737E+00
2.11969107679E+06	-1.21233974156E+01	-1.65384179194E+02	1.28010402262E+01	1.68306932806E+02	-3.80949105679E+01	-5.19348478575E+01	-6.04756410348E+00	-9.24008895858E-01
2.14188243138E+06	-1.75919687004E+01	-1.62611812931E+02	1.28136633767E+01	1.68553706909E+02	-4.52256816970E+01	1.59104984593E+02	-5.98701350100E+00	-7.88915210777E-01
2.16407378598E+06	-1.26644059519E+01	-1.70379609409E+02	1.28006419015E+01	1.68177243793E+02	-4.50331774514E+01	-5.54637386936E+01	-6.01765981956E+00	-8.96926697231E-01
2.18626514057E+06	-1.25603801448E+01	1.76151462834E+02	1.27801392139E+01	1.68135407251E+02	-4.61849903718E+01	-1.07957816972E+02	-5.98812589197E+00	-7.60534231799E-01
2.20845649517E+06	-1.46285745392E+01	-1.78076687184E+02	1.28140151348E+01	1.68091014943E+02	-3.82130214501E+01	-1.60093065331E+02	-5.95324121842E+00	-7.94126093244E-01
2.23064784976E+06	-9.16971398542E+00	-1.79368417542E+02	1.27674813635E+01	1.67589439470E+02	-4.31142156042E+01	-6.43724026675E+00	-6.00299376264E+00	-9.26513472029E-01
2.25283920436E+06	-1.22708764051E+01	1.78464809126E+02	1.27834029894E+01	1.67878671077E+02	-4.09829257572E+01	-9.82560058699E+01	-6.01828101790E+00	-7.67066768500E-01
2.27503055895E+06	-1.28104147718E+01	-1.68835178064E+02	1.28172795520E+01	1.67495845666E+02	-3.26523626279E+01	-4.50000451166E+01	-6.08256916609E+00	-9.69738469370E-01
2.29722191355E+06	-1.11150456317E+01	-1.58475865674E+02	1.28044903961E+01	1.67206820234E+02	-4.41341228354E+01	8.46928586997E+01	-5.98861571704E+00	-1.26823435894E+00
2.31941326814E+06	-1.51424253148E+01	-1.59806282885E+02	1.28339911546E+01	1.67308750230E+02	-5.04971568905E+01	1.79089484952E+01	-6.00704496279E+00	-1.05715697724E+00
2.34160462274E+06	-1.55929247844E+01	1.71172970481E+02	1.28314508442E+01	1.67450825566E+02	-4.09018676409E+01	6.42688400505E+01	-5.99307785375E+00	-1.22317177892E+00
2.36379597733E+06	-1.26638572216E+01	-1.51825271676E+02	1.28499362495E+01	1.66986274003E+02	-4.59185317529E+01	-8.75417673241E+01	-6.00465071744E+00	-8.55922072255E-01
2.38598733193E+06	-1.30029024067E+01	1.78189409434E+02	1.27929889444E+01	1.67122395720E+02	-4.26727685522E+01	-1.03453303969E+02	-6.01522968685E+00	-9.61811617029E-01
2.40817868652E+06	-1.62609086818E+01	1.77987617391E+02	1.28244897800E+01	1.67198564528E+02	-3.95331288845E+01	-1.72639608659E+02	-5.97787920104E+00	-1.13530987234E+00
2.43037004112E+06	-1.54187755813E+01	-1.69205152682E+02	1.28170188516E+01	1.66887650267E+02	-3.79510101431E+01	-1.64789698912E+02	-5.96075731592E+00	-1.23337382973E+00
2.45256139571E+06	-1.28638516685E+01	1.72338455739E+02	1.28124011907E+01	1.66644867118E+02	-4.78655919651E+01	-1.17319074323E+02	-6.00432508515E+00	-1.00600847359E+00
2.47475275031E+06	-1.35382472496E+01	-1.66151551381E+02	1.28458986965E+01	1.66313240040E+02	-6.50635094809E+01	5.59631036504E+01	-5.99218235972E+00	-1.08663566930E+00
2.49694410490E+06	-1.47073073786E+01	-1.79554132938E+02	1.28017055332E+01	1.66478604974E+02	-5.13298644867E+01	1.46091511813E+01	-6.01768915195E+00	-1.12784479388E+00
2.51913545950E+06	-1.16385177416E+01	-1.76582126900E+02	1.28110104402E+01	1.66159373739E+02	-5.68400876241E+01	5.70330331375E+01	-5.99802726617E+00	-1.15823866643E+00
2.54132681409E+06	-2.06497415684E+01	2.29055315316E+01	1.28361252626E+01	1.66846958252E+02	-5.42767676226E+01	-7.13202356524E+01	-6.02193972867E+00	-1.05013105788E+00
2.56351816869E+06	-1.21894891416E+01	-1.64247687422E+02	1.28390779577E+01	1.65864743187E+02	-4.20344330789E+01	1.48319973210E+02	-5.94430028172E+00	-1.18968390540E+00
2.58570952328E+06	-1.49757216991E+01	-1.50922996048E+02	1.28669361643E+01	1.65699172033E+02	-3.95676395624E+01	-6.64596955966E+01	-6.03915812395E+00	-9.51516856024E-01
2.60790087788E+06	-1.36740489090E+01	-1.74510947635E+02	1.28177487587E+01	1.65942495204E+02	-4.67278251769E+01	1.26524369807E+02	-5.98635707666E+00	-1.10154417441E+00
2.63009223247E+06	-1.29203537371E+01	-1.63749561230E+02	1.28378051205E+01	1.65511705619E+02	-4.82000752146E+01	1.40538625355E+02	-5.99159593689E+00	-7.27863255248E-01
2.65228358707E+06	-1.54160979530E+01	-1.57644405210E+02	1.28605751445E+01	1.65418760642E+02	-4.16449360779E+01	1.19555914005E+02	-5.98009879460E+00	-1.22447360439E+00
2.67447494166E+06	-1.20965870220E+01	1.79641528565E+02	1.28380454784E+01	1.65189318617E+02	-4.56126155922E+01	-1.66838525698E+02	-6.00558960631E+00	-1.00148452884E+00
2.69666629626E+06	-1.59872392467E+01	-1.57337864063E+02	1.28638242392E+01	1.65292282801E+02	-4.76246561175E+01	-7.34083545434E+00	-6.02157105033E+00	-1.32233456003E+00
2.71885765085E+06	-1.37126600891E+01	-1.69581142867E+02	1.28565429410E+01	1.64977673173E+02	-4.31426493829E+01	1.09573042053E+02	-5.99072820712E+00	-1.47313882132E+00
2.74104900545E+06	-1.45890212174E+01	-1.69135179851E+02	1.28256989078E+01	1.65002665115E+02	-4.02661684794E+01	-9.68475634277E+01	-6.02585369327E+00	-9.18146577418E-01
2.76324036004E+06	-1.67413180005E+01	-1.75377242131E+02	1.28496457358E+01	1.65013671881E+02	-4.58454947951E+01	-1.53960744539E+02	-6.00423313729E+00	-1.11841601310E+00
2.78543171463E+06	-1.03928560106E+01	-1.73297877407E+02	1.28156365379E+01	1.64686938728E+02	-4.52101892839E+01	4.71927259250E+01	-6.00229027060E+00	-1.47489589380E+00
2.80762306923E+06	-1.53485512064E+01	-1.66556952686E+02	1.28461701931E+01	1.64473026982E+02	-4.92938762005E+01	5.45391502610E+01	-5.99123011963E+00	-1.38995662647E+00
2.82981442382E+06	-1.36518525923E+01	-1.61610660881E+02	1.28375822838E+01	1.64298671040E+02	-3.96209463216E+01	1.10895413152E+01	-6.03106004365E+00	-1.41443833297E+00
2.85200577842E+06	-1.22238664921E+01	-1.57118111306E+02	1.28657521421E+01	1.64220816998E+02	-5.24232622441E+01	-1.30585349929E+02	-6.00735697364E+00	-1.14156201724E+00
2.87419713301E+06	-1.30920531061E+01	-1.75478966252E+02	1.28380280470E+01	1.64236537101E+02	-5.58470793400E+01	4.68545015478E+01	-5.99396621630E+00	-1.30687601452E+00
