# Hz S DB R 50
! CMT, M5065, 19127446, 24.2.4/2
! Date: 11/8/2024 3:11:55 PM
! Data: Format (Calibration Info)
! Freq	S11:dB/Ang(F2)	S21:dB/Ang(F2)	S12:dB/Ang(F2)	S22:dB/Ang(F2)
3.00000000000E+05	-1.24689390706E+01	1.74736525466E+02	1.35256766248E+01	-1.77206435242E+02	-3.93567709217E+01	-2.63042494663E+00	-6.03166932029E+00	-3.28300751377E-01
3.22191354595E+05	-1.30562960070E+01	-1.69795129212E+02	1.35592975129E+01	-1.77900651842E+02	-4.82595350001E+01	3.91636580031E+01	-5.99987263160E+00	-3.73141300352E-01
3.44382709190E+05	-2.04151396193E+01	-1.75142933950E+02	1.35930400341E+01	-1.78158388974E+02	-4.68471247027E+01	4.69700365526E+01	-5.99417088158E+00	-3.23820133935E-01
3.66574063785E+05	-1.22331115271E+01	-1.76574687857E+02	1.35503533462E+01	-1.78579663684E+02	-5.60671472442E+01	-3.27327034951E+01	-6.01079487046E+00	-3.65779721056E-01
3.88765418380E+05	-1.38885896845E+01	-1.75467712725E+02	1.36458147076E+01	-1.79792104257E+02	-6.13531397626E+01	-7.42476605040E+01	-6.01601238712E+00	-1.84288537586E-01
4.10956772975E+05	-1.48446064928E+01	-1.63445552530E+02	1.35989904621E+01	-1.79276052801E+02	-3.87393558216E+01	9.77457312256E+01	-5.98931772785E+00	-6.41884827243E-01
4.33148127570E+05	-1.29995732641E+01	1.54939291399E+02	1.35627574112E+01	-1.79404218607E+02	-4.16562322602E+01	-3.41929017631E+01	-6.02688320276E+00	-1.50532276398E-01
4.55339482165E+05	-1.18498519343E+01	-1.65420896422E+02	1.35553692391E+01	1.79936980250E+02	-4.63308003628E+01	-5.16619811817E+01	-6.00569940335E+00	-2.87355699201E-01
4.77530836760E+05	-1.42668233328E+01	1.68646593937E+02	1.35559411739E+01	1.79868177938E+02	-4.38006424171E+01	-1.75192579560E+02	-5.98743091231E+00	-2.45346916594E-01
4.99722191355E+05	-1.03705263489E+01	-1.77662316348E+02	1.35362622201E+01	1.79673853679E+02	-4.53839612134E+01	1.43474661136E+02	-5.99238518102E+00	-2.91353714877E-01
5.21913545950E+05	-1.35570959385E+01	-1.68070830645E+02	1.35267848533E+01	1.79215405043E+02	-4.08077464960E+01	-5.73564059789E+01	-6.01701031398E+00	-5.41399696790E-03
5.44104900545E+05	-1.29985061645E+01	1.73378337432E+02	1.35472147696E+01	1.79256913326E+02	-4.95691745040E+01	7.65971834667E+01	-5.98858435610E+00	-2.56332790030E-01
5.66296255139E+05	-1.28449014889E+01	1.72304041888E+02	1.35466510926E+01	1.79029920036E+02	-4.87723516994E+01	-3.99651897851E+01	-6.01722043209E+00	-2.31646751075E-01
5.88487609734E+05	-2.49774482698E+01	-8.00136647258E+01	1.36183058628E+01	1.78684244344E+02	-4.80623191874E+01	-1.76278060608E+02	-5.96748698229E+00	-4.20045864980E-01
6.10678964329E+05	-9.86860956563E+00	-1.68444609022E+02	1.35301143132E+01	1.78307046188E+02	-3.96585456513E+01	1.05547754328E+02	-5.97323640433E+00	-8.38130831707E-02
6.32870318924E+05	-1.07225008868E+01	-1.69003066087E+02	1.35522131484E+01	1.78150553789E+02	-5.89800876067E+01	-1.39507563153E+02	-5.97523756259E+00	-1.07896037761E-01
6.55061673519E+05	-1.14885147752E+01	1.69184360591E+02	1.35537003530E+01	1.78228610746E+02	-4.27327215741E+01	8.94246073182E+01	-6.01581600669E+00	-4.13865341859E-01
6.77253028114E+05	-1.19899887636E+01	-1.66815300274E+02	1.35552506492E+01	1.77751134875E+02	-4.35374562553E+01	1.15656274993E+02	-5.99405455209E+00	-9.33071472297E-01
6.99444382709E+05	-1.18849266417E+01	1.74992640550E+02	1.35629872347E+01	1.77512381625E+02	-4.17016509531E+01	-4.54227690526E+00	-6.03519911497E+00	-3.75142693939E-01
7.21635737304E+05	-1.48082231440E+01	1.76762490979E+02	1.35731756818E+01	1.77515451833E+02	-3.83498583161E+01	-1.63584403794E+02	-5.96442803049E+00	-4.83159711358E-01
7.43827091899E+05	-1.28915656186E+01	-1.75588974335E+02	1.35575541200E+01	1.77320159276E+02	-4.94879097067E+01	9.66470189493E+00	-6.00334173086E+00	-4.90271844554E-01
7.66018446494E+05	-1.37856013711E+01	-1.68300758237E+02	1.35985261216E+01	1.76971884458E+02	-5.51476775613E+01	-5.88287885889E+01	-6.01920067582E+00	-4.00763450647E-01
7.88209801089E+05	-1.25681981826E+01	1.76313928157E+02	1.35433941446E+01	1.76776346948E+02	-5.83586729964E+01	-5.60335901491E+01	-5.99673102712E+00	-2.96068862446E-01
8.10401155684E+05	-1.21856173740E+01	1.75002336005E+02	1.35390761307E+01	1.76732748621E+02	-5.25791516167E+01	-3.41466505208E+01	-6.01157272232E+00	-3.64232285856E-01
8.32592510279E+05	-1.84883203063E+01	1.41270953052E+02	1.35802436473E+01	1.76596037474E+02	-5.12226149538E+01	-4.91366588240E+01	-6.01383188045E+00	-2.60574107081E-01
8.54783864874E+05	-1.43168503043E+01	-1.71180520555E+02	1.35262392727E+01	1.76408119048E+02	-4.51037877085E+01	1.71184805644E+02	-5.97862352127E+00	-4.19282440938E-01
8.76975219469E+05	-1.40351386782E+01	1.77871809180E+02	1.35616025122E+01	1.76214851418E+02	-3.98813409797E+01	5.70739425650E+01	-6.01760892582E+00	-6.63956410080E-01
8.99166574064E+05	-1.22682786817E+01	-1.69313681230E+02	1.35490395114E+01	1.76032797715E+02	-4.42180117466E+01	4.70460308418E+01	-5.99390709697E+00	-7.19242837150E-01
9.21357928659E+05	-9.96804404768E+00	1.64263258506E+02	1.35074495144E+01	1.75967380039E+02	-4.09039596701E+01	1.56820536353E+02	-5.95869106462E+00	-4.11326993287E-01
9.43549283254E+05	-1.43479196148E+01	-1.76583710186E+02	1.35818694512E+01	1.75791819737E+02	-4.57920918452E+01	-5.38955440807E+01	-6.00287700500E+00	-2.89420375609E-01
9.65740637849E+05	-1.43340314788E+01	-1.77567388342E+02	1.35837377094E+01	1.75549619943E+02	-4.62982420995E+01	1.22305071328E+02	-5.98636178472E+00	-5.65999362101E-01
9.87931992444E+05	-1.53688960615E+01	-1.68564194368E+02	1.35628643215E+01	1.75382093566E+02	-4.84989210998E+01	1.66515133707E+02	-5.99173876800E+00	-4.73891577583E-01
1.01012334704E+06	-1.33499562989E+01	-1.78379617925E+02	1.35465011401E+01	1.75116162451E+02	-3.89014398973E+01	-1.01225374920E+02	-5.99991688660E+00	-2.70617933854E-01
1.03231470163E+06	-1.33717790291E+01	-1.56408156306E+02	1.35734837806E+01	1.74748859071E+02	-4.65494610122E+01	-1.16575262804E+02	-6.01470757097E+00	-3.51862759617E-01
1.05450605623E+06	-1.25065901076E+01	1.76941901507E+02	1.35304243367E+01	1.74927169666E+02	-5.65368856890E+01	-5.44034183191E+01	-5.99345025179E+00	-5.01441108036E-01
1.07669741082E+06	-1.44576904774E+01	-1.79894746505E+02	1.35379078257E+01	1.74624411992E+02	-4.61014437510E+01	1.64648359772E+01	-6.01772243347E+00	-5.01434506040E-01
1.09888876542E+06	-1.25839989842E+01	-1.71746866765E+02	1.35604180408E+01	1.74421725765E+02	-4.10762427211E+01	-5.99044344438E+01	-6.02812791023E+00	-4.20528890434E-01
1.12108012001E+06	-1.32765928354E+01	-1.64247720475E+02	1.35521169499E+01	1.74384024877E+02	-4.38774795680E+01	-6.21994321855E+01	-6.03919954761E+00	-5.39418962736E-01
1.14327147461E+06	-1.32833703430E+01	1.57910691189E+02	1.35521043839E+01	1.74653747710E+02	-4.85697673720E+01	-1.65367933954E+01	-6.01789617050E+00	-4.28989213667E-01
1.16546282920E+06	-1.75437634166E+01	-1.75067649007E+02	1.35787330971E+01	1.74253273298E+02	-4.43427867793E+01	1.45576728981E+01	-6.01756445663E+00	-4.93986515576E-01
1.18765418380E+06	-1.62709051256E+01	1.74635894886E+02	1.35657954562E+01	1.73965405181E+02	-5.69461463916E+01	-3.83753387266E+01	-6.01982146525E+00	-5.90262336585E-01
1.20984553839E+06	-1.49287301181E+01	1.62266621026E+02	1.35703771869E+01	1.74018149252E+02	-4.30158653482E+01	1.78592886101E+02	-5.96447981593E+00	-6.31809847701E-01
1.23203689299E+06	-1.54647639689E+01	-1.58801378367E+02	1.35633354150E+01	1.73668416814E+02	-4.00122100720E+01	3.93552966757E+01	-6.01172289341E+00	-5.65462365475E-01
1.25422824758E+06	-1.50243337053E+01	1.72305883569E+02	1.35544061727E+01	1.73904156195E+02	-4.36804678064E+01	-1.79240354068E+02	-5.98037736214E+00	-4.83903774974E-01
1.27641960218E+06	-1.53877814989E+01	-1.67694964424E+02	1.35727503394E+01	1.73366155131E+02	-6.09975590523E+01	7.57747009129E+00	-6.00367225739E+00	-5.55022983881E-01
1.29861095677E+06	-1.24775607973E+01	-1.67179769634E+02	1.35453945543E+01	1.73110805561E+02	-4.48833038461E+01	-1.13942963396E+02	-5.99983778279E+00	-3.52927016350E-01
1.32080231137E+06	-1.33136938290E+01	-1.72139668499E+02	1.35653861489E+01	1.72990410862E+02	-5.89723259335E+01	-9.77542429874E+01	-5.99133817285E+00	-9.08479883784E-01
1.34299366596E+06	-1.42107552633E+01	-1.64364212151E+02	1.35707330848E+01	1.72871963802E+02	-5.68240383190E+01	-1.02963419031E+02	-5.99872121323E+00	-6.27537095882E-01
1.36518502056E+06	-1.32635502576E+01	1.78508137104E+02	1.35323684740E+01	1.72716529826E+02	-4.64750862169E+01	-1.04464384715E+02	-6.00497343159E+00	-5.43919868215E-01
1.38737637515E+06	-1.31687180749E+01	1.65986512575E+02	1.35680887736E+01	1.72662728974E+02	-3.47407425027E+01	-1.72754528088E+02	-5.93044761040E+00	-4.71221618497E-01
1.40956772975E+06	-1.43809452325E+01	1.78781930668E+02	1.35639223379E+01	1.72504771100E+02	-5.01149509214E+01	1.66981264596E+02	-6.00891976044E+00	-7.20337448994E-01
1.43175908434E+06	-1.64758235183E+01	-1.69850072819E+02	1.35612091246E+01	1.72315419613E+02	-4.29900344388E+01	-1.68986941011E+02	-5.97848018328E+00	-4.76066259927E-01
1.45395043894E+06	-1.56042085915E+01	-1.39843541735E+02	1.36129569195E+01	1.72159140058E+02	-4.27002986942E+01	-3.67122544502E+01	-6.02524640069E+00	-4.45121740528E-01
1.47614179353E+06	-1.29736411960E+01	1.72641332652E+02	1.35461312585E+01	1.72162002919E+02	-3.76021207273E+01	-1.75209954340E+02	-5.95167271094E+00	-4.39465854029E-01
1.49833314813E+06	-1.45238595317E+01	-1.54828703981E+02	1.35878370395E+01	1.71674912090E+02	-4.46650246817E+01	-8.08338239967E+01	-6.00011671650E+00	-3.71377792858E-01
1.52052450272E+06	-1.62654295310E+01	-1.58970102253E+02	1.35929999248E+01	1.71654434176E+02	-4.54315040725E+01	1.49638654400E+02	-5.98620477445E+00	-6.66828537737E-01
1.54271585732E+06	-2.38074848259E+01	-1.44091187966E+02	1.35978830148E+01	1.71793406634E+02	-4.28631611664E+01	9.18296078317E+01	-5.97897452152E+00	-8.47030316166E-01
1.56490721191E+06	-1.64639861226E+01	1.68648128555E+02	1.35571367561E+01	1.71546952864E+02	-4.05930058369E+01	1.07046260841E+02	-5.98809202974E+00	-9.44325294991E-01
1.58709856651E+06	-1.23041449400E+01	-1.73776908782E+02	1.35469338634E+01	1.71262266840E+02	-4.72716305819E+01	-4.05835287399E+01	-6.01794241413E+00	-6.93086587178E-01
1.60928992110E+06	-1.52994678306E+01	-1.77509883168E+02	1.35821291529E+01	1.71207865598E+02	-5.13504653073E+01	-1.47905683822E+02	-5.97431690469E+00	-7.52126460730E-01
1.63148127570E+06	-1.56503779787E+01	-1.79381461232E+02	1.35691901185E+01	1.71064688058E+02	-4.07441026083E+01	-6.43531120398E+01	-6.01866727780E+00	-6.41358420818E-01
1.65367263029E+06	-1.53016730622E+01	-1.73292263063E+02	1.35710541280E+01	1.70801937058E+02	-4.41753442837E+01	-6.17963341522E+01	-5.99567456839E+00	-7.49314183465E-01
1.67586398489E+06	-1.42029195496E+01	-1.46485864058E+02	1.35851866785E+01	1.70563197483E+02	-4.36673986313E+01	1.00834024237E+02	-5.99067331163E+00	-9.56456518129E-01
1.69805533948E+06	-1.13004551807E+01	1.79176041734E+02	1.35137596368E+01	1.70631267411E+02	-3.84479450412E+01	1.41867295151E+02	-5.96123887818E+00	-7.16124299837E-01
1.72024669408E+06	-1.27011505518E+01	1.78504977448E+02	1.35496776738E+01	1.70490180629E+02	-3.75445262957E+01	7.37822440135E+01	-5.96838592967E+00	-8.27320904517E-01
1.74243804867E+06	-1.69067718447E+01	-1.70509345545E+02	1.35931935878E+01	1.70315576947E+02	-4.50563863325E+01	-1.24261850294E+02	-6.01425228119E+00	-6.89788106946E-01
1.76462940327E+06	-1.26987577317E+01	1.76842119292E+02	1.35415202255E+01	1.70199076121E+02	-4.23228226176E+01	8.57037569330E+01	-5.96987365055E+00	-8.37106281747E-01
1.78682075786E+06	-1.24377636679E+01	-1.72521441043E+02	1.35304902186E+01	1.69945276936E+02	-4.36860105934E+01	-7.94049521361E+01	-6.02240703250E+00	-6.99156330110E-01
1.80901211246E+06	-1.79107963222E+01	-1.73735559324E+02	1.35791382227E+01	1.70051355953E+02	-5.19343161917E+01	8.31331022938E+01	-6.00332553680E+00	-7.09460877843E-01
1.83120346705E+06	-1.13631074382E+01	-1.77569495112E+02	1.35254725495E+01	1.69638371677E+02	-4.77245859239E+01	-1.57379460032E+02	-5.98847021576E+00	-8.08915452348E-01
1.85339482165E+06	-9.97445550727E+00	1.61012811392E+02	1.35301252265E+01	1.69576073484E+02	-3.80735575432E+01	1.36217804206E+02	-5.97810063307E+00	-9.29983436245E-01
1.87558617624E+06	-1.36367902469E+01	1.77967960871E+02	1.35586009791E+01	1.69386512009E+02	-4.38175711995E+01	1.45143504733E+02	-5.98962117822E+00	-9.58163169807E-01
1.89777753084E+06	-1.35835232044E+01	-1.72031949162E+02	1.35661403250E+01	1.69378513918E+02	-4.28879524641E+01	1.66682527873E+02	-5.94582150137E+00	-7.59921789153E-01
1.91996888543E+06	-1.33720201589E+01	-1.72185047012E+02	1.35496076831E+01	1.69145297787E+02	-4.00461097300E+01	-1.27762284191E+02	-5.99850198030E+00	-6.40848056232E-01
1.94216024003E+06	-1.16785325894E+01	-1.65511211807E+02	1.35628408986E+01	1.68935297301E+02	-5.12042050204E+01	1.52737110202E+02	-5.97672329924E+00	-9.29619617808E-01
1.96435159462E+06	-1.04967644807E+01	-1.72676593315E+02	1.35358617831E+01	1.68821706626E+02	-4.74755365201E+01	-3.63292546165E+01	-6.03027766659E+00	-9.05520433345E-01
1.98654294922E+06	-1.20492827803E+01	1.49729278534E+02	1.35124674055E+01	1.69184837662E+02	-4.70223060632E+01	-8.80553833119E+01	-6.03015727690E+00	-6.33579375571E-01
2.00873430381E+06	-1.80374580776E+01	1.53234154197E+02	1.35621027569E+01	1.68978024922E+02	-4.36729788584E+01	1.11759438151E+02	-5.95534224382E+00	-7.55465533692E-01
2.03092565841E+06	-1.21176949550E+01	-1.53191691116E+02	1.35651125585E+01	1.68497693409E+02	-3.54273124365E+01	2.02615038007E+01	-6.00736573393E+00	-1.13799089338E+00
2.05311701300E+06	-1.40270393052E+01	-1.57976480756E+02	1.35771394379E+01	1.68281455208E+02	-4.48288458329E+01	8.59011937526E+01	-6.00317529720E+00	-1.15007124576E+00
2.07530836760E+06	-1.53314422072E+01	1.65288483349E+02	1.35762981189E+01	1.68432072459E+02	-5.58493445955E+01	1.47886605507E+02	-5.99375914611E+00	-9.69251437082E-01
2.09749972219E+06	-1.62503438773E+01	-1.63758355788E+02	1.36037889939E+01	1.68293297276E+02	-5.02571217219E+01	2.67065992206E+01	-6.01224513240E+00	-8.95630792545E-01
2.11969107679E+06	-1.25100695588E+01	-1.49507952708E+02	1.36000953501E+01	1.67704690477E+02	-4.52384293682E+01	6.46776394990E+01	-5.99095441920E+00	-1.04428284678E+00
2.14188243138E+06	-1.45294318627E+01	1.77500508621E+02	1.35684669884E+01	1.67894021558E+02	-4.22590253143E+01	-1.78485828209E+02	-5.97729858826E+00	-7.96985702203E-01
2.16407378598E+06	-1.31854759758E+01	-1.63629084502E+02	1.35634642789E+01	1.67818054262E+02	-3.61465031753E+01	-6.83527067125E+01	-6.06339903947E+00	-8.85198506732E-01
2.18626514057E+06	-1.39856394584E+01	-1.64640179782E+02	1.35706343725E+01	1.67510711653E+02	-3.53258109310E+01	4.85516801893E+01	-5.97590975885E+00	-1.41453334138E+00
2.20845649517E+06	-1.77352660562E+01	1.78210039286E+02	1.35844677561E+01	1.67736316211E+02	-4.69024732558E+01	1.04045571182E+02	-5.98515534473E+00	-1.18178410441E+00
2.23064784976E+06	-1.50392031308E+01	1.76084390987E+02	1.35369273027E+01	1.67411294218E+02	-4.19424323512E+01	1.60164766659E+02	-5.94635143479E+00	-9.61028107880E-01
2.25283920436E+06	-1.18980808010E+01	-1.68530982694E+02	1.35637870893E+01	1.67007673328E+02	-4.34827754954E+01	-6.99290461112E+01	-6.02416082283E+00	-9.53290306150E-01
2.27503055895E+06	-1.16588096079E+01	1.74548390927E+02	1.35413141417E+01	1.67180921329E+02	-4.52763718369E+01	2.33016643610E+01	-5.99524435223E+00	-1.10718141437E+00
2.29722191355E+06	-1.08601603620E+01	-1.60724523555E+02	1.35829550418E+01	1.66778256476E+02	-6.17590618410E+01	-9.01895861356E+01	-5.99597933059E+00	-1.09804490797E+00
2.31941326814E+06	-1.07749050958E+01	-1.34763022461E+02	1.36554672504E+01	1.66527183465E+02	-3.63851917690E+01	2.61947020224E+00	-6.05597233163E+00	-1.15088062962E+00
2.34160462274E+06	-1.57020359721E+01	-1.68375497479E+02	1.35835754381E+01	1.66719325521E+02	-3.45320027475E+01	-1.71576922804E+02	-5.97117637424E+00	-6.76538939486E-01
2.36379597733E+06	-1.52410667306E+01	-1.55655648671E+02	1.35939705732E+01	1.66454756969E+02	-4.96475440924E+01	1.63606584007E+02	-5.97747432837E+00	-9.19736687623E-01
2.38598733193E+06	-1.36541079224E+01	-1.75236593803E+02	1.35782913842E+01	1.66487844913E+02	-5.39869736954E+01	-7.35311278960E+01	-5.99899292554E+00	-1.08925677285E+00
2.40817868652E+06	-1.45100799830E+01	-1.62251972641E+02	1.35999903966E+01	1.66152391120E+02	-5.86985442124E+01	-2.16874522075E+01	-6.00606621593E+00	-1.17455327437E+00
2.43037004112E+06	-1.11305848740E+01	-1.55327639965E+02	1.36020554668E+01	1.65991959021E+02	-5.11155348259E+01	-1.70204957704E+02	-6.00526808795E+00	-1.41277359197E+00
2.45256139571E+06	-1.05991610895E+01	-1.55233637225E+02	1.35959571651E+01	1.65591731551E+02	-5.82573809715E+01	1.40120308697E+01	-5.99903371472E+00	-1.10234685265E+00
2.47475275031E+06	-1.18312300720E+01	1.71273033387E+02	1.35440086215E+01	1.65784769565E+02	-3.92760012194E+01	1.41448568252E+01	-6.01289538789E+00	-1.39123347807E+00
2.49694410490E+06	-1.48249204888E+01	-1.72658490393E+02	1.35961696083E+01	1.65860344240E+02	-2.69586634962E+01	5.39904262162E+01	-5.96461426079E+00	-1.98581518097E+00
2.51913545950E+06	-1.38563163378E+01	-1.69466426239E+02	1.35728310370E+01	1.65651030248E+02	-4.17622643919E+01	-1.18441066292E+02	-6.00028519513E+00	-7.88361290289E-01
2.54132681409E+06	-1.46624794791E+01	-1.77691545001E+02	1.35803124666E+01	1.65357486846E+02	-4.71674113895E+01	-3.01535113301E+01	-6.01978204777E+00	-1.06001365629E+00
2.56351816869E+06	-1.34473478526E+01	-1.76847728251E+02	1.35877289642E+01	1.65298710071E+02	-4.29676443415E+01	2.07630528049E+01	-6.02563916809E+00	-1.28802453823E+00
2.58570952328E+06	-1.09761408641E+01	1.78803643378E+02	1.35490029479E+01	1.65132631014E+02	-4.86722446903E+01	-1.08912091383E+01	-6.02107628075E+00	-1.18588115065E+00
2.60790087788E+06	-1.43895701360E+01	-1.62092915901E+02	1.36170185991E+01	1.64940204141E+02	-4.50628900786E+01	4.75261286306E+01	-6.00043035169E+00	-1.13914793898E+00
2.63009223247E+06	-1.27106517187E+01	1.49530163594E+02	1.35415863282E+01	1.65055132134E+02	-4.23970690950E+01	-7.80759468566E+01	-6.02173438486E+00	-4.88190668697E-01
2.65228358707E+06	-1.36981475339E+01	-1.66701946059E+02	1.35855188294E+01	1.64624629602E+02	-4.23405455897E+01	-4.30826222634E+01	-5.99598883611E+00	-1.03926202313E+00
2.67447494166E+06	-1.59455768348E+01	-1.76290073586E+02	1.35848688372E+01	1.64748189221E+02	-5.05616294474E+01	4.16235672263E+01	-6.01540810343E+00	-1.27711147304E+00
2.69666629626E+06	-1.40261846047E+01	1.77924876594E+02	1.35830478280E+01	1.64576774831E+02	-5.58030723897E+01	1.79666041629E+02	-5.98186691870E+00	-1.20282681309E+00
2.71885765085E+06	-1.58986801424E+01	-1.66953493302E+02	1.35916335222E+01	1.64410512458E+02	-4.56839391947E+01	-1.43508885855E+02	-5.98667479713E+00	-1.05079530787E+00
2.74104900545E+06	-1.39629644361E+01	-1.71234223260E+02	1.36009039486E+01	1.64022708416E+02	-4.49809861942E+01	-6.86467193484E+01	-6.02163776106E+00	-1.01857781487E+00
2.76324036004E+06	-1.72077927971E+01	1.72916877127E+02	1.36133794763E+01	1.64163685760E+02	-5.13976264136E+01	-7.20398780737E+01	-6.01216480739E+00	-1.22127430606E+00
2.78543171463E+06	-1.88782696690E+01	-1.62567382734E+02	1.36032830010E+01	1.64033118392E+02	-4.50772862861E+01	1.68043079050E+02	-5.97854625547E+00	-1.18223414363E+00
2.80762306923E+06	-1.34776929512E+01	-1.78890397334E+02	1.35772081384E+01	1.63780819259E+02	-4.25707838806E+01	1.26478399897E+01	-5.99443459156E+00	-1.28058577451E+00
2.82981442382E+06	-1.41606818539E+01	-1.57884999534E+02	1.36169536712E+01	1.63474151886E+02	-4.89414609591E+01	-6.10567902098E+01	-6.02141870311E+00	-1.16978683797E+00
2.85200577842E+06	-1.21948216232E+01	-1.74196917363E+02	1.35805446964E+01	1.63393955557E+02	-4.09918867468E+01	1.05192007157E+02	-5.97200082092E+00	-1.69259744058E+00
2.87419713301E+06	-1.08090987772E+01	-1.70160950014E+02	1.35723354424E+01	1.63101207037E+02	-4.46575685701E+01	-3.56267927141E+01	-6.03232148701E+00	-1.10870838183E+00
