# Hz S DB R 50
! CMT, M5065, 19127446, 24.2.4/2
! Date: 11/8/2024 3:26:37 PM
! Data: Format (Calibration Info)
! Freq	S11:dB/Ang(F2)	S21:dB/Ang(F2)	S12:dB/Ang(F2)	S22:dB/Ang(F2)
3.00000000000E+05	-1.33486115938E+01	-1.66360096334E+02	3.51777919355E+01	-1.78529085246E+02	-4.55432408637E+01	-1.04055079182E+02	-5.94560519762E+00	-2.28277466237E-01
3.22191354595E+05	-1.64883819704E+01	-1.50061573418E+02	3.52057381996E+01	1.79046937775E+02	-4.54132484566E+01	-1.00412260803E+02	-5.91086691215E+00	2.66202640784E-01
3.44382709190E+05	-1.65957080935E+01	-1.44094736429E+02	3.51970526837E+01	1.76961709440E+02	-4.28757554233E+01	1.04150617946E+02	-5.94216955460E+00	-2.69951269965E+00
3.66574063785E+05	-1.76502129487E+01	-1.59212741075E+02	3.51757492734E+01	1.75080206323E+02	-4.00929689403E+01	-1.33844375914E+02	-5.70312243793E+00	9.37065523603E-01
3.88765418380E+05	-1.33104596653E+01	1.68981461885E+02	3.51090253978E+01	1.73251641533E+02	-5.79741903440E+01	1.77373757788E+02	-6.05125587754E+00	-2.18296961093E-01
4.10956772975E+05	-1.51839775195E+01	-1.66045159489E+02	3.51236260481E+01	1.71442636239E+02	-4.05772946225E+01	-3.66519670939E+01	-6.24249756090E+00	5.51098109773E-01
4.33148127570E+05	-1.39239631675E+01	-1.78586939165E+02	3.50588079981E+01	1.70090200327E+02	-4.56993140519E+01	9.63171512094E+00	-6.18457987053E+00	-1.22244528571E+00
4.55339482165E+05	-9.53942800880E+00	-1.54331763771E+02	3.49911919593E+01	1.68124838299E+02	-4.69979555223E+01	1.26613480490E+01	-6.14424313894E+00	-4.77000275892E-01
4.77530836760E+05	-1.00815478636E+01	-1.62132777137E+02	3.49350294988E+01	1.66821296108E+02	-4.03487076417E+01	1.34652798087E+02	-5.69221993099E+00	-2.32929417162E+00
4.99722191355E+05	-1.27924877081E+01	1.77081485248E+02	3.49301374966E+01	1.65643785532E+02	-6.38437393153E+01	1.19815231315E+01	-5.97516066224E+00	-5.14013939986E-01
5.21913545950E+05	-1.39253754576E+01	-1.63791274455E+02	3.48882117258E+01	1.64012518757E+02	-4.75619400959E+01	-1.60003176355E+02	-5.86762966527E+00	-7.15284963163E-01
5.44104900545E+05	-1.42017544825E+01	-1.75134066460E+02	3.48358417305E+01	1.62860316772E+02	-4.72494890066E+01	-2.69656470012E+01	-6.03477932293E+00	-2.74273430050E-01
5.66296255139E+05	-1.65061944154E+01	-1.77484208371E+02	3.48041087933E+01	1.61784173432E+02	-4.91295308987E+01	-9.69433284287E+00	-6.19065122183E+00	-1.99771644107E-01
5.88487609734E+05	-1.37590166781E+01	-1.68140608418E+02	3.47315615606E+01	1.60342520645E+02	-4.33056927837E+01	3.63262639377E+01	-6.26068645327E+00	-1.87613734480E+00
6.10678964329E+05	-1.14751432236E+01	-1.58528415423E+02	3.46669465497E+01	1.59009973540E+02	-5.23023216563E+01	2.01388186185E+01	-6.13236785210E+00	-7.89061131573E-01
6.32870318924E+05	-1.49392217732E+01	-1.67216944551E+02	3.46454093663E+01	1.58159134645E+02	-5.41950398133E+01	1.38056398364E+02	-5.87944835333E+00	-9.56622455357E-01
6.55061673519E+05	-1.47328246829E+01	-1.63295819811E+02	3.45920300061E+01	1.57148629069E+02	-4.03695801840E+01	-9.31664033482E+01	-5.84388398289E+00	2.05221500120E+00
6.77253028114E+05	-1.24307149097E+01	1.66836227515E+02	3.45093607718E+01	1.56192569149E+02	-4.95902352235E+01	9.51623516262E+01	-6.07760933064E+00	-1.37059252039E+00
6.99444382709E+05	-9.96597646482E+00	-1.70925254589E+02	3.44299872593E+01	1.54683047789E+02	-3.88896118400E+01	-8.39030447022E+01	-5.97840125834E+00	1.71323751464E+00
7.21635737304E+05	-1.61717143390E+01	1.67766228625E+02	3.44178709561E+01	1.53917195064E+02	-5.41124750801E+01	-7.71590167057E+01	-5.99851414299E+00	-1.38950973084E-01
7.43827091899E+05	-1.44793176462E+01	-1.73323911932E+02	3.43508079606E+01	1.52712510878E+02	-5.00395237609E+01	-3.46679113050E+00	-6.13928307087E+00	-1.70383111156E-01
7.66018446494E+05	-1.08261204053E+01	-1.78192450465E+02	3.42061594639E+01	1.51670653116E+02	-4.55504882330E+01	-8.75097434919E+01	-5.90439213422E+00	4.73715129416E-01
7.88209801089E+05	-1.63447246705E+01	1.23278174182E+02	3.42684933565E+01	1.51242735166E+02	-5.22847750743E+01	-4.29044379392E+01	-6.05543003406E+00	1.30311309086E-01
8.10401155684E+05	-1.15082617865E+01	1.79984039273E+02	3.41181622599E+01	1.50076114523E+02	-5.12002554257E+01	6.36535623983E+01	-6.09155402177E+00	-9.11163185006E-01
8.32592510279E+05	-1.66109349569E+01	-1.55398020773E+02	3.41099168710E+01	1.49007670104E+02	-4.08906303389E+01	-8.32805767880E+01	-5.93424895410E+00	1.73177814628E+00
8.54783864874E+05	-1.32234365622E+01	-1.72555081285E+02	3.40107176310E+01	1.48192976289E+02	-4.14869640368E+01	-1.03900598223E+02	-5.81034279526E+00	8.69707980739E-01
8.76975219469E+05	-1.10422147991E+01	-1.62516297897E+02	3.39344824519E+01	1.47047243070E+02	-4.59128173167E+01	5.64156112814E+01	-6.14605399850E+00	-1.35672576193E+00
8.99166574064E+05	-1.18126629425E+01	-1.64526768041E+02	3.38852725405E+01	1.46244362698E+02	-3.84371701761E+01	1.40393174571E+02	-5.77756546004E+00	-2.76089644035E+00
9.21357928659E+05	-1.15738710860E+01	1.76787850061E+02	3.37986874926E+01	1.45626537070E+02	-4.39976298536E+01	1.21570941847E+02	-5.94975952000E+00	-2.20456811828E+00
9.43549283254E+05	-1.24704841261E+01	1.67808006703E+02	3.37694426019E+01	1.44789223003E+02	-4.86987958569E+01	-1.43591877850E+02	-5.88319236679E+00	-3.90011947542E-01
9.65740637849E+05	-1.23810338633E+01	-1.75837674375E+02	3.36811892292E+01	1.43877900853E+02	-5.18910148391E+01	-1.37329113370E+02	-5.94247009442E+00	-3.36938458286E-01
9.87931992444E+05	-1.36589352921E+01	-1.75746903401E+02	3.36061466524E+01	1.43091234333E+02	-4.45352998899E+01	1.54645911430E+02	-5.85976543755E+00	-1.49586738165E+00
1.01012334704E+06	-1.39791353583E+01	-1.70167161490E+02	3.35414916433E+01	1.42339595330E+02	-3.76915667966E+01	1.33475654112E+02	-5.96268565404E+00	-3.48525028803E+00
1.03231470163E+06	-1.32749961453E+01	1.79570211523E+02	3.34794238127E+01	1.41563858908E+02	-4.87256977629E+01	-9.86220012117E+01	-5.97142967067E+00	6.43056900281E-02
1.05450605623E+06	-1.13323662417E+01	-1.77261461703E+02	3.33850834247E+01	1.40672801548E+02	-4.07026223334E+01	-1.59376093771E+02	-5.66619001132E+00	-1.03762928395E+00
1.07669741082E+06	-1.50372697937E+01	-1.72347151315E+02	3.33644095412E+01	1.40001871543E+02	-4.29392957577E+01	-9.85750555985E+01	-5.78411573468E+00	8.13742041030E-01
1.09888876542E+06	-1.48579842356E+01	1.76273351978E+02	3.32694208619E+01	1.39247610837E+02	-4.29137713075E+01	-4.58839708041E+01	-6.12061434519E+00	6.60610652649E-01
1.12108012001E+06	-1.11304437224E+01	-1.71826937945E+02	3.31778054606E+01	1.38454864324E+02	-5.71864472777E+01	3.06158903973E+01	-5.98045772652E+00	-6.00746536221E-01
1.14327147461E+06	-1.35244767893E+01	-1.68860325810E+02	3.31334315604E+01	1.37643819053E+02	-4.02039685607E+01	5.85497609129E+01	-6.25414184738E+00	-1.52846864806E+00
1.16546282920E+06	-1.36121533136E+01	-1.79464621102E+02	3.30789526976E+01	1.37032569601E+02	-5.04679070882E+01	2.81696172336E+01	-6.11039139138E+00	-4.11515192350E-01
1.18765418380E+06	-1.23906434247E+01	1.77714739143E+02	3.29732571594E+01	1.36415879385E+02	-4.45705781697E+01	2.91146137010E+01	-6.19109513424E+00	-9.05500484336E-01
1.20984553839E+06	-1.35307852284E+01	1.70922121166E+02	3.29110669992E+01	1.35881150714E+02	-4.71745571956E+01	-8.61532379693E+01	-5.95039191369E+00	2.25667304566E-01
1.23203689299E+06	-1.26023087324E+01	-1.47221399826E+02	3.28800039686E+01	1.34902086539E+02	-4.99815063928E+01	-1.10550392142E+02	-5.98712233046E+00	3.22879064780E-02
1.25422824758E+06	-1.36366799935E+01	-1.78876651348E+02	3.27861232285E+01	1.34454155302E+02	-5.14053692434E+01	5.23507086465E+01	-6.10791682483E+00	-1.01952516202E+00
1.27641960218E+06	-2.00263082967E+01	-1.45226926518E+02	3.27533326439E+01	1.33827737762E+02	-5.81757238942E+01	1.51530364730E+02	-5.97537014656E+00	-8.13482417817E-01
1.29861095677E+06	-1.42736080748E+01	-1.72777878317E+02	3.26267289661E+01	1.33218779470E+02	-4.07430352831E+01	-1.40499736415E+02	-5.72221085887E+00	-2.73113853595E-01
1.32080231137E+06	-1.26704207904E+01	1.65174538982E+02	3.25668235392E+01	1.32664049210E+02	-4.23845597260E+01	8.97483151416E+01	-6.14063299947E+00	-2.38073134024E+00
1.34299366596E+06	-1.63832053261E+01	-1.76337069405E+02	3.25173496547E+01	1.32003386575E+02	-4.39801600747E+01	1.44279107163E+02	-5.91420881362E+00	-1.92896397266E+00
1.36518502056E+06	-1.41412300803E+01	1.67927960631E+02	3.24204365042E+01	1.31470000815E+02	-4.26189408865E+01	1.05592117439E+02	-6.06939514324E+00	-2.62698878794E+00
1.38737637515E+06	-1.57519043806E+01	-1.64593743994E+02	3.23687405708E+01	1.30659877595E+02	-4.86119629838E+01	1.45640016540E+02	-5.90507504614E+00	-1.37236580933E+00
1.40956772975E+06	-1.10324518848E+01	-1.62725120997E+02	3.22748931943E+01	1.29814254582E+02	-3.98405493808E+01	1.72789356022E+02	-5.72044641849E+00	-1.93362582164E+00
1.43175908434E+06	-1.32034243435E+01	-1.74064587522E+02	3.22105341892E+01	1.29506255567E+02	-4.79229996513E+01	4.98155766507E+00	-6.19421595693E+00	-2.86664690756E-01
1.45395043894E+06	-1.48673691258E+01	-1.72222784455E+02	3.21244567503E+01	1.28933225312E+02	-4.49650970507E+01	-1.13888685440E+02	-5.76541747824E+00	-4.91281684725E-01
1.47614179353E+06	-1.42891504511E+01	-1.67164340082E+02	3.20755933297E+01	1.28286482632E+02	-4.08471702671E+01	-1.26390737140E+02	-5.85206454561E+00	9.06501526626E-02
1.49833314813E+06	-1.54880357661E+01	1.78719427691E+02	3.20014169527E+01	1.27865069189E+02	-4.64771833351E+01	-2.12412631762E+00	-6.12747901291E+00	-1.95838138760E-01
1.52052450272E+06	-1.30291234193E+01	-1.66159027487E+02	3.19236038965E+01	1.27131326836E+02	-5.01627075810E+01	-3.54363697871E+01	-6.07179588099E+00	-3.73862294969E-01
1.54271585732E+06	-1.21663165958E+01	-1.70895450968E+02	3.18498852003E+01	1.26576253145E+02	-6.13316734402E+01	-1.70309376682E+02	-5.97465889910E+00	-8.90496469309E-01
1.56490721191E+06	-1.25645690849E+01	1.63190243023E+02	3.17645892085E+01	1.26221818863E+02	-5.13024310421E+01	2.44397753731E+01	-6.08693441951E+00	-5.14513380366E-01
1.58709856651E+06	-1.29766324505E+01	-1.64928639024E+02	3.17264467633E+01	1.25329313997E+02	-4.86940867385E+01	-1.28990450009E+02	-5.89057484814E+00	-4.38763552264E-01
1.60928992110E+06	-1.34273362249E+01	-1.67509619163E+02	3.16472280735E+01	1.24925251320E+02	-4.58562920107E+01	-1.78904362903E+02	-5.90148992288E+00	-1.37464715930E+00
1.63148127570E+06	-1.36974929650E+01	1.76882248618E+02	3.15565220446E+01	1.24543103922E+02	-4.89889941090E+01	1.71179432310E+02	-5.99664203634E+00	-8.19204174051E-01
1.65367263029E+06	-1.23618668891E+01	-1.74790178490E+02	3.14908331571E+01	1.23983280426E+02	-4.62026732560E+01	-3.29629953034E+01	-6.07118972224E+00	4.01363303003E-01
1.67586398489E+06	-1.63553108898E+01	-1.79693294732E+02	3.14446175047E+01	1.23586122876E+02	-5.05565885651E+01	-1.50534358400E+02	-5.89799863506E+00	-5.62464906249E-01
1.69805533948E+06	-1.44627632786E+01	1.67973531855E+02	3.13616599436E+01	1.23092468330E+02	-5.15208377274E+01	7.06920328736E+01	-6.09918166457E+00	-1.16503000843E+00
1.72024669408E+06	-7.35947431541E+00	-1.55917331518E+02	3.12389829052E+01	1.22053010702E+02	-4.07922562024E+01	-2.30108481320E+01	-6.19687453809E+00	4.91001838920E-01
1.74243804867E+06	-1.27827046725E+01	-1.62330757604E+02	3.12224415364E+01	1.21900973170E+02	-5.08399008463E+01	1.90286917615E+01	-6.12761242068E+00	-1.21804763593E+00
1.76462940327E+06	-1.61453989369E+01	1.79908761237E+02	3.11577309791E+01	1.21645233567E+02	-4.26381017612E+01	1.76820860765E+02	-5.85447717390E+00	-1.54014051810E+00
1.78682075786E+06	-1.14910322718E+01	-1.76775735151E+02	3.10739335255E+01	1.21025829627E+02	-3.64878479192E+01	-2.31755357675E+01	-6.16005221122E+00	1.39116488540E+00
1.80901211246E+06	-1.12590458966E+01	1.60721750103E+02	3.09585801887E+01	1.20706778896E+02	-4.26051769003E+01	-2.99250143868E+01	-6.14492153211E+00	3.51820014470E-01
1.83120346705E+06	-1.30923183186E+01	1.58560454656E+02	3.09353372870E+01	1.20338974747E+02	-4.48451400838E+01	6.50438854860E+01	-6.13726179530E+00	-1.47915540669E+00
1.85339482165E+06	-1.23298511509E+01	1.75880714471E+02	3.08729242273E+01	1.19657120243E+02	-4.96473297601E+01	-8.69073750618E+01	-5.95360036469E+00	-2.19920681400E-01
1.87558617624E+06	-9.89805697784E+00	-1.64221152946E+02	3.07785817559E+01	1.19062714424E+02	-4.19259501996E+01	1.71226131263E+02	-5.83462394255E+00	-1.96427850354E+00
1.89777753084E+06	-1.99526649632E+01	-1.53278318170E+02	3.07980600261E+01	1.18721321266E+02	-4.17259832268E+01	-2.74902604056E+01	-6.13880843840E+00	7.24888736569E-01
1.91996888543E+06	-1.38553366165E+01	-1.65557352564E+02	3.06781060626E+01	1.18330753300E+02	-4.48077294906E+01	-5.91040343034E+01	-5.97277793437E+00	4.46969371834E-01
1.94216024003E+06	-1.35932060741E+01	-1.62030628626E+02	3.06347955927E+01	1.17813703354E+02	-3.41648096513E+01	3.03565971714E+01	-6.60520818165E+00	3.25914892537E-01
1.96435159462E+06	-1.45417386094E+01	1.68031974015E+02	3.05516254661E+01	1.17610952509E+02	-6.78652960248E+01	-7.35938050822E+01	-6.01244548733E+00	-8.80329222318E-01
1.98654294922E+06	-1.59296001932E+01	1.74556704166E+02	3.05025561581E+01	1.17088334182E+02	-4.10091758773E+01	-8.24485622798E+01	-5.88763930160E+00	5.79951917968E-01
2.00873430381E+06	-1.65523323775E+01	1.59430644606E+02	3.04158007197E+01	1.16848114770E+02	-5.43399809065E+01	-1.35522723835E+02	-5.97643315648E+00	-7.79479197795E-01
2.03092565841E+06	-1.38434886045E+01	-1.73844066169E+02	3.03418059714E+01	1.16092048262E+02	-4.86884379919E+01	5.52127302140E+01	-6.12314014278E+00	-1.51185908993E+00
2.05311701300E+06	-1.48802434604E+01	-1.48510031102E+02	3.03011159946E+01	1.15681816033E+02	-4.76225628872E+01	-1.56940331776E+02	-5.87255570367E+00	-1.06687157840E+00
2.07530836760E+06	-1.25669798163E+01	-1.77392726155E+02	3.02085888105E+01	1.15326822293E+02	-4.48779929506E+01	-1.58381420169E+01	-6.09173202507E+00	-2.03860886497E-01
2.09749972219E+06	-1.38269619014E+01	-1.41359750965E+02	3.01813470066E+01	1.14829173757E+02	-3.82961740196E+01	-7.15205813408E+01	-5.91104791256E+00	8.63539790192E-01
2.11969107679E+06	-1.60916625859E+01	-1.77859344820E+02	3.01011719327E+01	1.14627148677E+02	-5.08493499789E+01	4.36077222818E+01	-6.08112787206E+00	-9.31579027877E-01
2.14188243138E+06	-1.30020201574E+01	-1.71442214112E+02	3.00037803148E+01	1.14133962809E+02	-4.16987062411E+01	-1.29145315463E+00	-6.19778788570E+00	-1.78568283323E-01
2.16407378598E+06	-1.29910537102E+01	1.78611540685E+02	2.99334293334E+01	1.13692018574E+02	-5.12498242618E+01	-1.45224654013E+02	-5.92043265706E+00	-1.01559816350E+00
2.18626514057E+06	-1.31465791764E+01	-1.71280579403E+02	2.98993001788E+01	1.13339582898E+02	-5.35573867998E+01	-1.24363045262E+02	-5.95987955142E+00	-8.73677310900E-01
2.20845649517E+06	-1.54704822054E+01	1.66528338492E+02	2.98216106065E+01	1.13223679995E+02	-4.36857610271E+01	-1.46644526205E+02	-5.84178572482E+00	-9.34123144520E-01
2.23064784976E+06	-1.35470705381E+01	1.60066594440E+02	2.97530295229E+01	1.12873877703E+02	-4.76158835060E+01	1.44834413541E+00	-6.11550574758E+00	-2.53828035946E-01
2.25283920436E+06	-1.73897283157E+01	-1.52525462282E+02	2.97433899588E+01	1.12130016891E+02	-4.50294920763E+01	-1.71490455857E+02	-5.80991247950E+00	-1.55885102701E+00
2.27503055895E+06	-1.40997791776E+01	-1.69157941967E+02	2.96455196913E+01	1.11864682515E+02	-4.81468380087E+01	-9.74781173445E+01	-5.90195615600E+00	-7.99039102903E-01
2.29722191355E+06	-1.27643393240E+01	-1.70247278028E+02	2.95662096332E+01	1.11344851290E+02	-4.19318779002E+01	1.08668234500E+02	-6.07272227661E+00	-2.77439619448E+00
2.31941326814E+06	-1.34778175508E+01	-1.79041671175E+02	2.94968821021E+01	1.11009440794E+02	-4.98006017529E+01	-1.61034544713E+02	-5.93560678261E+00	-1.24421916747E+00
2.34160462274E+06	-1.44902828739E+01	-1.72443469054E+02	2.94469516891E+01	1.10680674415E+02	-5.63682728193E+01	1.29439912924E+02	-6.01440107347E+00	-1.53986299060E+00
2.36379597733E+06	-1.18735599185E+01	-1.73192682768E+02	2.93845844907E+01	1.10216069996E+02	-4.88764528865E+01	-4.47282787857E+01	-6.00583974372E+00	-1.23869203367E-01
2.38598733193E+06	-1.40065244426E+01	-1.73298376076E+02	2.93348466289E+01	1.10051947324E+02	-4.46752292141E+01	1.63319163957E+02	-5.94176099640E+00	-2.25102123360E+00
2.40817868652E+06	-1.20292288943E+01	-1.54214537697E+02	2.92610426875E+01	1.09324983348E+02	-3.72402154183E+01	-5.90183038816E+01	-5.91793537130E+00	5.22657176139E-01
2.43037004112E+06	-1.32418211934E+01	-1.79177078685E+02	2.91779485476E+01	1.09359796541E+02	-5.18912572166E+01	1.24751560061E+02	-6.02370848475E+00	-2.20033838414E+00
2.45256139571E+06	-9.89937128492E+00	1.77578076198E+02	2.90988234332E+01	1.08859040958E+02	-4.11476357662E+01	2.53458544623E+01	-6.25262390202E+00	-9.31949167695E-01
2.47475275031E+06	-1.24776772786E+01	1.66419475059E+02	2.90444250616E+01	1.08796454041E+02	-4.59013530602E+01	-1.01282256281E+02	-5.92300098460E+00	-6.04996771162E-01
2.49694410490E+06	-1.40329991528E+01	1.74251641310E+02	2.90305433313E+01	1.08458392462E+02	-4.91918172233E+01	4.82962729567E+01	-6.09486029773E+00	-1.47976661447E+00
2.51913545950E+06	-6.80878997061E+00	-1.67462557659E+02	2.88669781249E+01	1.07457141526E+02	-5.86021050471E+01	-3.13309088094E+01	-6.03864911473E+00	-5.66044113062E-01
2.54132681409E+06	-1.64582496589E+01	-1.75375192030E+02	2.89107894555E+01	1.07718470560E+02	-4.43339298819E+01	4.27275322067E+01	-6.17680303138E+00	-1.25653933269E+00
2.56351816869E+06	-1.18078175194E+01	1.78547598455E+02	2.88109876871E+01	1.07173701151E+02	-3.67610553481E+01	-7.42208830121E+01	-5.77551548947E+00	1.05514253831E+00
2.58570952328E+06	-1.39804403619E+01	-1.79997643121E+02	2.87627661680E+01	1.07025046052E+02	-4.38609022377E+01	1.00891585598E+02	-6.14193839708E+00	-2.38468025323E+00
2.60790087788E+06	-1.38385867389E+01	-1.73238075190E+02	2.87173356869E+01	1.06653588994E+02	-4.47926567164E+01	1.64493017746E+01	-6.14281620176E+00	-6.57643736545E-01
2.63009223247E+06	-1.35293500778E+01	-1.60517938572E+02	2.86745567434E+01	1.06238959733E+02	-5.22776816198E+01	-1.04196707348E+02	-5.94263163581E+00	-4.80269547559E-01
2.65228358707E+06	-1.67147552417E+01	-1.78948960207E+02	2.86149390734E+01	1.06062062299E+02	-5.00837367698E+01	-1.47323101207E+02	-5.93098707110E+00	-1.46010026491E+00
2.67447494166E+06	-1.28800757832E+01	-1.72588369863E+02	2.85288141516E+01	1.05646728087E+02	-5.25352320166E+01	9.82597302059E+01	-6.03681073515E+00	-1.62442977272E+00
2.69666629626E+06	-1.63849550120E+01	1.71169811558E+02	2.84877990494E+01	1.05593283549E+02	-4.47455720860E+01	-1.44741156031E+02	-5.84993510803E+00	-1.20758109252E+00
2.71885765085E+06	-1.79322194538E+01	-1.55920449454E+02	2.84690176929E+01	1.05137038463E+02	-5.57160247783E+01	1.40602464311E+02	-5.98938381521E+00	-1.56696803650E+00
2.74104900545E+06	-1.33473862937E+01	-1.79612270415E+02	2.83608770514E+01	1.04742680504E+02	-4.75866369573E+01	6.46274086177E+01	-6.13545104087E+00	-1.66671745397E+00
2.76324036004E+06	-1.40175848158E+01	1.76193516695E+02	2.82929952816E+01	1.04600755980E+02	-4.20356273334E+01	1.26075455082E+02	-6.02607654055E+00	-2.62033273431E+00
2.78543171463E+06	-1.28716635122E+01	-1.53002210319E+02	2.82793388523E+01	1.03852303872E+02	-5.73765224482E+01	7.00472468733E+01	-6.04679267019E+00	-1.50595908867E+00
2.80762306923E+06	-1.26112083714E+01	-1.64745278967E+02	2.81917413680E+01	1.03635663228E+02	-4.28980425028E+01	-4.44583196292E+01	-6.02517940279E+00	-1.46882289622E-01
2.82981442382E+06	-1.34771848679E+01	1.73245531042E+02	2.81113152350E+01	1.03602077936E+02	-4.92682742098E+01	-2.25922496288E+01	-6.04883816226E+00	-6.91720268640E-01
2.85200577842E+06	-1.38788458914E+01	-1.78856561626E+02	2.80557797641E+01	1.03288199318E+02	-4.77094393135E+01	1.73306219624E+02	-5.92809135856E+00	-1.69258503831E+00
2.87419713301E+06	-1.25514641000E+01	-1.64038059360E+02	2.80285842145E+01	1.02856917376E+02	-5.41922844721E+01	1.71582772193E+01	-6.04710988241E+00	-1.12451561944E+00
