# Hz S DB R 50
! CMT, M5065, 19127446, 24.2.4/2
! Date: 11/8/2024 3:20:57 PM
! Data: Format (Calibration Info)
! Freq	S11:dB/Ang(F2)	S21:dB/Ang(F2)	S12:dB/Ang(F2)	S22:dB/Ang(F2)
3.00000000000E+05	-1.65508743009E+01	1.61997045761E+02	2.01419191376E+01	-1.76463534561E+02	-4.44778115243E+01	1.32842999456E+02	-5.97565312394E+00	-4.58429903318E-01
3.22191354595E+05	-1.13951696595E+01	-1.69879717745E+02	2.01107740866E+01	-1.77439459983E+02	-4.87953310211E+01	8.00337467338E+01	-6.01987549664E+00	-4.50778070025E-01
3.44382709190E+05	-1.51972454267E+01	1.61421410575E+02	2.01539371100E+01	-1.77754062041E+02	-4.38056188195E+01	-1.01937762892E+02	-5.99879370070E+00	1.12315381104E-01
3.66574063785E+05	-1.83184683901E+01	-1.56609865934E+02	2.01804530039E+01	-1.78553406087E+02	-4.16450499639E+01	-9.35928776094E+01	-5.99574779538E+00	1.57358751116E-01
3.88765418380E+05	-1.30295080403E+01	1.78242564869E+02	2.01338345854E+01	-1.78947467324E+02	-4.34828793201E+01	4.56480309027E+01	-5.97435051544E+00	-1.16728069494E+00
4.10956772975E+05	-1.21533182775E+01	1.75981447632E+02	2.01251079538E+01	-1.79517066077E+02	-4.51010814694E+01	-1.03423083577E+02	-5.99634271312E+00	-6.17255596471E-02
4.33148127570E+05	-1.48750893116E+01	-1.67065389324E+02	2.01495127894E+01	1.79928936474E+02	-4.49801876774E+01	-8.85546185672E+01	-6.00186362500E+00	7.62147206706E-02
4.55339482165E+05	-1.46613631463E+01	1.77139147533E+02	2.01507416944E+01	1.79514631546E+02	-4.21243310023E+01	-5.93717566770E+00	-6.04691443210E+00	-5.24780398966E-01
4.77530836760E+05	-1.19551699290E+01	1.77828526623E+02	2.01103571902E+01	1.79089406223E+02	-4.51366380585E+01	-1.46474439210E+02	-5.96084045343E+00	-1.53578193663E-01
4.99722191355E+05	-1.28327283451E+01	1.61843889331E+02	2.01335299720E+01	1.78850723748E+02	-4.43378192839E+01	1.59263341045E+02	-5.93855259109E+00	-3.57532493529E-01
5.21913545950E+05	-1.33248533815E+01	1.66286856075E+02	2.01213330457E+01	1.78355997053E+02	-4.46219546598E+01	-6.98998014446E+01	-6.02635044055E+00	-1.70915608591E-01
5.44104900545E+05	-1.13000247773E+01	-1.78281000371E+02	2.01104784755E+01	1.77823603338E+02	-5.53265727543E+01	5.07909804726E+01	-6.02367212539E+00	-5.59900072236E-01
5.66296255139E+05	-1.47676081093E+01	-1.47974862373E+02	2.01465968740E+01	1.77229968366E+02	-4.08066223074E+01	7.08739235706E+01	-6.00071408925E+00	-9.30141390091E-01
5.88487609734E+05	-1.44691738544E+01	-1.78262022795E+02	2.01397108181E+01	1.77200319075E+02	-4.22256826896E+01	1.59138391170E+02	-5.90904278556E+00	-6.57220331512E-01
6.10678964329E+05	-1.23995794696E+01	-1.77332524948E+02	2.01057462837E+01	1.76646296951E+02	-5.08834636636E+01	5.34707315083E+01	-6.00705121019E+00	-1.33536116532E-01
6.32870318924E+05	-1.67282749729E+01	-1.74162362071E+02	2.01398492652E+01	1.76524154955E+02	-4.65712218400E+01	8.42639027259E+01	-5.98278774001E+00	-4.15419804972E-01
6.55061673519E+05	-1.36308997719E+01	-1.64925868533E+02	2.01351310089E+01	1.76001350560E+02	-5.37876261462E+01	1.22924328397E+02	-5.99906282602E+00	-3.50029525290E-01
6.77253028114E+05	-1.20101508741E+01	-1.71371591595E+02	2.01302982514E+01	1.75761752487E+02	-4.59079346338E+01	7.83055996607E+01	-5.97295415317E+00	-6.90372194758E-01
6.99444382709E+05	-1.29814191592E+01	-1.65561862200E+02	2.01230502699E+01	1.75369951053E+02	-4.23629712295E+01	1.04635379861E+02	-5.99212502818E+00	-7.64564240439E-01
7.21635737304E+05	-1.54082708641E+01	1.67959977904E+02	2.01376790331E+01	1.75261959132E+02	-4.80913230676E+01	-1.86104323477E+01	-6.02648411368E+00	-4.07062135932E-01
7.43827091899E+05	-1.75759614337E+01	-1.72208214585E+02	2.01625510628E+01	1.74859841444E+02	-4.12947526663E+01	-2.42835716898E+01	-6.06726253772E+00	-3.57583335810E-01
7.66018446494E+05	-1.37150856443E+01	-1.78029476402E+02	2.00971332800E+01	1.74572633198E+02	-4.23392178655E+01	-1.18630963681E+02	-5.97604280208E+00	-2.75776777242E-03
7.88209801089E+05	-1.34235509855E+01	1.72740725657E+02	2.00860004795E+01	1.74380857208E+02	-4.42797276590E+01	-1.59419304655E+02	-5.95660530554E+00	-3.41251180042E-01
8.10401155684E+05	-1.57216281693E+01	1.70925445001E+02	2.01162489021E+01	1.74018137072E+02	-4.23375854702E+01	-7.99650634694E+01	-6.02773252039E+00	-1.52283666496E-02
8.32592510279E+05	-1.31018214500E+01	1.68285107277E+02	2.00808446961E+01	1.73745445796E+02	-4.32570268659E+01	-7.29056231009E+01	-6.01451486550E+00	-2.84593203068E-01
8.54783864874E+05	-1.43088986351E+01	-1.64489162530E+02	2.00998854264E+01	1.73346150303E+02	-4.46072684206E+01	8.49883064385E+01	-5.97307656843E+00	-6.68316200762E-01
8.76975219469E+05	-1.25410902117E+01	-1.64669721943E+02	2.00981915575E+01	1.73034891946E+02	-4.55266439179E+01	-7.93383043707E+01	-5.99801701752E+00	-2.54495501998E-01
8.99166574064E+05	-1.16838683978E+01	-1.74648229304E+02	2.00926496819E+01	1.72756042710E+02	-4.56432782218E+01	-1.50523574146E+02	-5.98132699693E+00	-1.99651652090E-01
9.21357928659E+05	-1.49847103947E+01	-1.78673158423E+02	2.01030784450E+01	1.72614243855E+02	-4.52572480975E+01	-1.60533627190E+02	-5.98440072002E+00	-4.25175074593E-01
9.43549283254E+05	-1.29446783617E+01	1.75831441919E+02	2.00651245685E+01	1.72404428887E+02	-5.33591303026E+01	2.38602974163E+01	-5.98982040271E+00	-6.83878366305E-01
9.65740637849E+05	-1.31717629952E+01	1.73822686962E+02	2.00844826775E+01	1.72052859217E+02	-4.72370295890E+01	4.88969212811E+01	-6.03006511911E+00	-7.93129243148E-01
9.87931992444E+05	-1.43370034042E+01	-1.77462708778E+02	2.00747409991E+01	1.71668882317E+02	-3.94883759819E+01	-1.13321068444E+02	-5.95929772569E+00	-3.51252678920E-01
1.01012334704E+06	-1.94251575756E+01	1.57605557209E+02	2.00991365012E+01	1.71616355894E+02	-3.91108644244E+01	6.15214091540E+01	-6.02405348216E+00	-1.06617617255E+00
1.03231470163E+06	-1.17212686337E+01	-1.79900369777E+02	2.00541617240E+01	1.71197164551E+02	-4.80525083926E+01	6.83447990684E+01	-6.00356179876E+00	-7.35815035289E-01
1.05450605623E+06	-1.64693286858E+01	-1.69630350845E+02	2.01152316484E+01	1.71000360735E+02	-5.66877977486E+01	-1.23777975808E+02	-5.96560595532E+00	-4.91305698037E-01
1.07669741082E+06	-1.49308581922E+01	-1.70056864649E+02	2.00960541045E+01	1.70633175766E+02	-5.67537836722E+01	8.02409637614E+01	-6.00622800772E+00	-4.72131611182E-01
1.09888876542E+06	-1.26592488832E+01	1.69828480406E+02	2.00606951587E+01	1.70644763007E+02	-4.39293826800E+01	1.54893884602E+02	-5.94122607592E+00	-7.30421307283E-01
1.12108012001E+06	-1.11733367241E+01	1.63600582227E+02	2.00322071737E+01	1.70413487543E+02	-4.34012758715E+01	-8.06842844391E+01	-6.03089568144E+00	-3.29782744684E-01
1.14327147461E+06	-1.83505275276E+01	-1.33076811739E+02	2.01156937766E+01	1.70019775604E+02	-4.16826919705E+01	1.69286103566E+02	-5.96418013405E+00	-4.93176445395E-01
1.16546282920E+06	-2.17698754580E+01	-1.78477400401E+02	2.01285929544E+01	1.70018471896E+02	-3.82016869985E+01	-1.87688808004E+01	-6.09380365636E+00	-3.28660233451E-01
1.18765418380E+06	-1.57867026458E+01	-1.79145264323E+02	2.00810172194E+01	1.69524055437E+02	-4.25627554218E+01	1.57130471987E+02	-5.93996238350E+00	-6.50790309410E-01
1.20984553839E+06	-1.25056774173E+01	1.66943115885E+02	2.00418463367E+01	1.69506018730E+02	-5.66076368998E+01	9.58464466223E+01	-5.97686650894E+00	-8.26899982215E-01
1.23203689299E+06	-1.19488095279E+01	-1.74693989573E+02	2.00378087812E+01	1.69043916141E+02	-4.39268801558E+01	-1.63594134293E+02	-5.96759225236E+00	-3.05558041074E-01
1.25422824758E+06	-1.28561545916E+01	-1.66025800894E+02	2.00712508754E+01	1.68713582881E+02	-4.21439730677E+01	-8.44304255900E+01	-6.01449699637E+00	-2.28792864686E-01
1.27641960218E+06	-1.69766867897E+01	1.77859258210E+02	2.00790290588E+01	1.68681030410E+02	-4.85879968445E+01	1.04329232463E+02	-5.99402310973E+00	-8.09798386071E-01
1.29861095677E+06	-1.95210076783E+01	1.77510850622E+02	2.00682434533E+01	1.68314172962E+02	-4.21612194025E+01	-7.24772914780E+01	-6.00804518011E+00	-1.81369768357E-01
1.32080231137E+06	-1.08862634094E+01	1.65238361345E+02	2.00225840066E+01	1.68086673984E+02	-4.04762152472E+01	3.01512134547E+01	-5.99946688662E+00	-1.33819417379E+00
1.34299366596E+06	-1.26341143860E+01	-1.70380154718E+02	2.00454175228E+01	1.67691777864E+02	-5.17062133409E+01	-7.61967229101E+01	-5.99868148875E+00	-5.58104396698E-01
1.36518502056E+06	-1.58722240819E+01	1.71976943615E+02	2.00585303046E+01	1.67794797260E+02	-4.45473880572E+01	3.36206966069E+01	-6.02948098722E+00	-1.04019171478E+00
1.38737637515E+06	-1.05356105322E+01	-1.74632222662E+02	2.00014579052E+01	1.67154720143E+02	-4.19065587331E+01	8.72358774428E+01	-5.98296622713E+00	-9.71007830721E-01
1.40956772975E+06	-1.24812618105E+01	1.69117621291E+02	2.00241154916E+01	1.67193296703E+02	-3.92923935759E+01	-2.59662294940E+01	-6.09593051448E+00	-4.20489777476E-01
1.43175908434E+06	-1.46068474991E+01	-1.60067469632E+02	2.00211505005E+01	1.66710972304E+02	-5.60262481489E+01	-5.71151928762E+00	-5.99556319105E+00	-7.46561880198E-01
1.45395043894E+06	-1.29509627846E+01	1.65867757494E+02	2.00322066404E+01	1.66646219260E+02	-5.07623930952E+01	8.52561402682E+01	-5.99579247819E+00	-8.88638766559E-01
1.47614179353E+06	-1.27002677390E+01	-1.43049388428E+02	2.00366487246E+01	1.66236857238E+02	-3.73089712876E+01	1.30701278493E+02	-5.93356828515E+00	-1.09957400641E+00
1.49833314813E+06	-1.15717858442E+01	-1.64076842611E+02	2.00211092790E+01	1.65997179822E+02	-4.39364878603E+01	-1.28035162555E+02	-5.98308359617E+00	-1.40116754071E-01
1.52052450272E+06	-1.84831921958E+01	1.69243345478E+02	2.00649780925E+01	1.66134011584E+02	-4.83734999815E+01	6.48498953936E+01	-6.02140936645E+00	-8.84467864581E-01
1.54271585732E+06	-1.56103768014E+01	-1.64606032729E+02	2.00549161479E+01	1.65752153583E+02	-4.94188456311E+01	1.01756310953E+02	-6.00898474337E+00	-9.43377322132E-01
1.56490721191E+06	-1.46240387866E+01	-1.68188115429E+02	2.00318727260E+01	1.65410495396E+02	-4.77349558981E+01	3.61918062205E+01	-6.03969611308E+00	-8.67439070261E-01
1.58709856651E+06	-1.41883650593E+01	-1.73546908454E+02	2.00256786800E+01	1.65213343000E+02	-5.00979250963E+01	-6.49562179525E+01	-6.01628832005E+00	-6.20350231512E-01
1.60928992110E+06	-1.68820106249E+01	1.66567043295E+02	2.00336977989E+01	1.65106393723E+02	-5.06272770687E+01	-9.31777737916E+01	-5.99352693732E+00	-5.56671266433E-01
1.63148127570E+06	-1.02758565341E+01	-1.69410776978E+02	1.99985126912E+01	1.64672323208E+02	-3.66797314237E+01	1.66036421087E+02	-5.90427262256E+00	-4.30359702996E-01
1.65367263029E+06	-1.16094115063E+01	1.72188319810E+02	1.99605788612E+01	1.64682547606E+02	-4.61218170796E+01	-2.57843213235E+01	-6.03564126259E+00	-7.98379632502E-01
1.67586398489E+06	-1.24669629172E+01	-1.63465447224E+02	2.00018312695E+01	1.64211399636E+02	-4.50453027698E+01	1.25363820914E+02	-5.97919587920E+00	-9.20929821897E-01
1.69805533948E+06	-1.41712880980E+01	-1.76484479474E+02	2.00070342685E+01	1.64122893426E+02	-4.69001974775E+01	1.58537414970E+02	-5.95711703007E+00	-9.73916771787E-01
1.72024669408E+06	-1.37326126700E+01	1.67240318396E+02	2.00116963820E+01	1.63993641587E+02	-4.63386847448E+01	-1.11512048239E+02	-6.01352076176E+00	-5.67346317032E-01
1.74243804867E+06	-1.36405517675E+01	1.74233622291E+02	2.00089765898E+01	1.63721621807E+02	-4.33026508200E+01	-4.28602743311E+01	-6.04394764557E+00	-8.23617933983E-01
1.76462940327E+06	-1.16170758690E+01	1.51930960762E+02	1.99709076706E+01	1.63547152720E+02	-4.11644865728E+01	1.47195155038E+02	-5.95029095394E+00	-9.70919477133E-01
1.78682075786E+06	-1.17055859271E+01	1.49944610503E+02	1.99793573523E+01	1.63305579771E+02	-4.27478558311E+01	1.22015727296E+02	-5.96481614006E+00	-9.54229352228E-01
1.80901211246E+06	-1.44663855629E+01	-1.58196003468E+02	2.00129787318E+01	1.62915321372E+02	-5.20515920700E+01	-5.82912011176E+01	-6.02339844374E+00	-6.77996190992E-01
1.83120346705E+06	-1.87115206185E+01	-1.58335277279E+02	2.00429176040E+01	1.62761201529E+02	-4.70634866854E+01	2.85594561924E-01	-6.04122250180E+00	-8.03768977973E-01
1.85339482165E+06	-1.02622044519E+01	1.76400396226E+02	1.99388755853E+01	1.62403382122E+02	-4.49907813576E+01	-1.47482859743E+02	-5.96641507927E+00	-6.21697090931E-01
1.87558617624E+06	-1.57687802335E+01	-1.66026952178E+02	2.00047192538E+01	1.62310990818E+02	-5.07962237190E+01	-1.20225363455E+02	-5.99778978273E+00	-7.29210812664E-01
1.89777753084E+06	-1.37354515575E+01	-1.64232506530E+02	2.00054189363E+01	1.61980069564E+02	-4.71518795582E+01	1.65197213827E+02	-5.96569856297E+00	-9.92323592807E-01
1.91996888543E+06	-1.83734920492E+01	-1.75799280990E+02	2.00040968523E+01	1.61972339192E+02	-4.61631355091E+01	6.45115850582E+00	-6.04235053530E+00	-9.60732571826E-01
1.94216024003E+06	-1.46428370012E+01	-1.76996992000E+02	2.00033445316E+01	1.61527184243E+02	-3.56521988632E+01	-1.00688931074E+02	-5.99392978207E+00	-1.29928587426E-01
1.96435159462E+06	-1.52706691972E+01	-1.72350789514E+02	1.99643726541E+01	1.61291667650E+02	-5.07834860285E+01	1.72590287053E+02	-5.98688205161E+00	-8.63729469749E-01
1.98654294922E+06	-1.27953075693E+01	1.74868005763E+02	1.99447096299E+01	1.61224616930E+02	-4.81355604327E+01	3.95033089747E+01	-6.01069661224E+00	-1.07850129974E+00
2.00873430381E+06	-1.53993685177E+01	1.77732058185E+02	1.99850553121E+01	1.61047097501E+02	-6.60048849289E+01	-6.58212368551E+01	-6.01399971129E+00	-9.07993316144E-01
2.03092565841E+06	-1.10772041241E+01	-1.76571386148E+02	1.99116574546E+01	1.60570237047E+02	-5.16944905647E+01	6.66165965408E+01	-5.98523563191E+00	-7.52441889837E-01
2.05311701300E+06	-1.62305910478E+01	-1.68351261281E+02	1.99889775463E+01	1.60489412418E+02	-4.52444598453E+01	-8.62996758113E+01	-6.02354850596E+00	-5.96902409109E-01
2.07530836760E+06	-1.28584754206E+01	-1.51362743188E+02	1.99956442923E+01	1.59838575001E+02	-4.44646682581E+01	5.21625325970E+01	-6.01284946935E+00	-1.20564623550E+00
2.09749972219E+06	-1.25602844391E+01	1.54921721666E+02	1.99239002750E+01	1.60221867457E+02	-4.21353586945E+01	-1.32147527192E+02	-5.99441037187E+00	-6.84495262140E-01
2.11969107679E+06	-1.59423009916E+01	-1.67669658575E+02	1.99697193280E+01	1.59953081473E+02	-5.37142641403E+01	8.28623135256E+01	-6.00974323980E+00	-9.87748082226E-01
2.14188243138E+06	-1.36963129205E+01	-1.65278127912E+02	1.99554905079E+01	1.59436500037E+02	-6.49209402187E+01	-1.15211339817E+02	-6.00510412942E+00	-9.53922242759E-01
2.16407378598E+06	-1.33279232129E+01	-1.59519083649E+02	1.99415786850E+01	1.59157340565E+02	-4.84115639102E+01	-5.02260124595E+01	-6.01557802730E+00	-8.84023398163E-01
2.18626514057E+06	-1.36250345100E+01	1.61140516638E+02	1.99368452417E+01	1.59332741873E+02	-3.82284160455E+01	1.77467257810E+02	-5.89647968349E+00	-9.05485900443E-01
2.20845649517E+06	-1.38559473788E+01	-1.68559012733E+02	1.99529399179E+01	1.58748296945E+02	-4.90111263789E+01	-1.25786790106E+02	-5.97613322017E+00	-9.73974545868E-01
2.23064784976E+06	-1.25774937042E+01	-1.55518936408E+02	1.99592987650E+01	1.58533484702E+02	-4.20247941037E+01	1.72880300178E+02	-5.93882391355E+00	-7.53932901575E-01
2.25283920436E+06	-8.18521392774E+00	1.60970658808E+02	1.99051253167E+01	1.58405747037E+02	-3.78006559830E+01	-5.44511840627E+01	-6.08243561658E+00	-7.70611770573E-01
2.27503055895E+06	-1.51051736903E+01	-1.76500071423E+02	1.99430607030E+01	1.58248208656E+02	-4.05006364932E+01	1.19985500558E+02	-5.96345149279E+00	-1.40711708874E+00
2.29722191355E+06	-1.47804014101E+01	-1.76018471585E+02	1.99432599236E+01	1.58037573106E+02	-5.33576861182E+01	-4.56685590860E+01	-5.98793062595E+00	-9.38565432895E-01
2.31941326814E+06	-1.43368648813E+01	-1.57782125859E+02	1.99648733065E+01	1.57688439087E+02	-5.10168062453E+01	2.80513889519E+01	-6.00234781715E+00	-1.20782228885E+00
2.34160462274E+06	-1.25135001369E+01	-1.57252341778E+02	1.99458307883E+01	1.57401041772E+02	-4.25930680161E+01	3.57574713808E+00	-6.06293503945E+00	-1.11983985994E+00
2.36379597733E+06	-1.81288716186E+01	-1.71881385520E+02	1.99562203519E+01	1.57436669705E+02	-4.78884369887E+01	4.62910074363E+00	-6.02961875067E+00	-1.17673137341E+00
2.38598733193E+06	-1.89977864058E+01	-1.61401702800E+02	1.99609605877E+01	1.57262304565E+02	-6.76465387312E+01	-9.82589092803E+01	-6.00680600740E+00	-1.01527366609E+00
2.40817868652E+06	-1.87331764773E+01	-1.44829585034E+02	1.99565483228E+01	1.57048711693E+02	-4.68536989365E+01	-4.82620372859E+01	-6.05043710722E+00	-1.29334129201E+00
2.43037004112E+06	-1.68225156004E+01	-1.61549085893E+02	1.99761847279E+01	1.56738797013E+02	-4.20891397448E+01	3.51422483506E+01	-6.02368936863E+00	-1.77655133384E+00
2.45256139571E+06	-1.24599660271E+01	1.77316671169E+02	1.98931061168E+01	1.56339582897E+02	-4.42147222598E+01	-3.26143538650E+01	-6.04851867266E+00	-9.20685238971E-01
2.47475275031E+06	-1.38632976700E+01	-1.73766070387E+02	1.99010506581E+01	1.56146279708E+02	-4.15367589286E+01	-9.73534497644E+01	-5.98745439457E+00	-3.78574736321E-01
2.49694410490E+06	-1.34754567058E+01	-1.50241923016E+02	1.99484094721E+01	1.55838891588E+02	-5.36807823274E+01	1.58684383131E+02	-5.98368555115E+00	-1.07350848938E+00
2.51913545950E+06	-1.08641074366E+01	-1.70439021917E+02	1.98850465919E+01	1.55593350172E+02	-4.69225373312E+01	2.41677612553E+01	-6.00882579300E+00	-1.29376184231E+00
2.54132681409E+06	-1.47058405279E+01	1.79987443569E+02	1.99295697039E+01	1.55626010378E+02	-4.64321365481E+01	2.45528971094E+01	-6.02121988473E+00	-1.38865185523E+00
2.56351816869E+06	-1.49391682333E+01	-1.50304224807E+02	1.99025240551E+01	1.55310007228E+02	-2.97880898037E+01	-2.02816978425E+01	-6.22540838271E+00	-1.18129392295E+00
2.58570952328E+06	-1.15903645116E+01	-1.79710116186E+02	1.98545171071E+01	1.54952551779E+02	-4.52522661122E+01	2.28546068748E+01	-6.04245767835E+00	-1.43916665294E+00
2.60790087788E+06	-1.24088986417E+01	-1.54900104471E+02	1.99103811357E+01	1.54642184525E+02	-4.02630524370E+01	-5.38899410111E+01	-6.08646993941E+00	-6.25044733282E-01
2.63009223247E+06	-1.36699875253E+01	-1.71287485468E+02	1.98951302408E+01	1.54582872062E+02	-5.19996929403E+01	3.91333818240E+01	-6.03216246358E+00	-9.70509171730E-01
2.65228358707E+06	-1.82018748902E+01	-1.58551491412E+02	1.99350521363E+01	1.54514562313E+02	-4.36663351723E+01	3.58556246040E+01	-6.01362914904E+00	-1.42857621494E+00
2.67447494166E+06	-1.62578863273E+01	-1.67828284788E+02	1.99180719507E+01	1.54281249800E+02	-4.56400937504E+01	1.44609636416E+01	-6.05804018918E+00	-1.28873505545E+00
2.69666629626E+06	-1.42970655348E+01	-1.39923970717E+02	1.99296002363E+01	1.53799234684E+02	-5.15265171795E+01	-3.99906450479E+01	-6.01095214422E+00	-1.07779636023E+00
2.71885765085E+06	-1.47182217102E+01	-1.70321198528E+02	1.98973390023E+01	1.53826274848E+02	-4.31162505938E+01	5.84396790004E+00	-6.06747817882E+00	-1.15476419466E+00
2.74104900545E+06	-1.36170869710E+01	-1.68079235224E+02	1.98972861970E+01	1.53443733860E+02	-4.73277104990E+01	5.82667582688E+01	-6.02895799617E+00	-1.35843042897E+00
2.76324036004E+06	-1.47637558254E+01	-1.68652233978E+02	1.98693164649E+01	1.53369180827E+02	-5.17058058484E+01	5.51235855808E+01	-6.00030092186E+00	-1.28597260958E+00
2.78543171463E+06	-1.37014918263E+01	1.72259438750E+02	1.98718699769E+01	1.53216437753E+02	-5.69019100618E+01	1.23832890480E+02	-5.99628027967E+00	-1.16859491093E+00
2.80762306923E+06	-1.36701573649E+01	1.75007488013E+02	1.98494279917E+01	1.52822935425E+02	-4.03841882777E+01	1.29383580762E+02	-5.92732782739E+00	-1.62437788936E+00
2.82981442382E+06	-1.28999071803E+01	-1.71482105086E+02	1.98413295448E+01	1.52633128884E+02	-4.07171900493E+01	8.55459621947E+01	-5.98205746224E+00	-1.83457199911E+00
2.85200577842E+06	-1.36779690438E+01	1.67826671950E+02	1.98580994267E+01	1.52446835326E+02	-4.93598943464E+01	-1.78945221946E+01	-6.02907328219E+00	-1.29372578674E+00
2.87419713301E+06	-1.19334351770E+01	-1.70627549331E+02	1.98538506097E+01	1.52001619476E+02	-3.86093320524E+01	-9.43711177989E+01	-5.99713166137E+00	-7.29110798580E-01
