# Hz S DB R 50
! CMT, M5065, 19127446, 24.2.4/2
! Date: 11/8/2024 3:08:52 PM
! Data: Format (Calibration Info)
! Freq	S11:dB/Ang(F2)	S21:dB/Ang(F2)	S12:dB/Ang(F2)	S22:dB/Ang(F2)
3.00000000000E+05	-1.42421297049E+01	-1.73250219719E+02	1.21779604710E+01	-1.77426570883E+02	-5.10273906231E+01	1.65153608168E+02	-5.98010900210E+00	-3.37222931659E-01
3.22191354595E+05	-1.60607666018E+01	-1.49739306790E+02	1.21812085655E+01	-1.78015099062E+02	-4.13066927041E+01	-1.44910700013E+02	-5.96292625731E+00	-1.26673547553E-01
3.44382709190E+05	-1.49029226505E+01	1.68778386500E+02	1.21832893817E+01	-1.78158484530E+02	-4.41067971606E+01	8.55264565352E+01	-5.99331068800E+00	-3.53809319239E-01
3.66574063785E+05	-1.58611503156E+01	-1.71820738270E+02	1.21889133693E+01	-1.78638779184E+02	-4.70129292602E+01	1.29861899312E+02	-5.99337428325E+00	-2.24136502823E-01
3.88765418380E+05	-1.40674385434E+01	-1.65678731188E+02	1.22250762787E+01	-1.79327835723E+02	-5.64282621617E+01	1.19392808450E+01	-5.99705505207E+00	-3.39348490263E-01
4.10956772975E+05	-1.45705625134E+01	-1.59265060954E+02	1.21706478633E+01	-1.79399730451E+02	-4.42276239947E+01	1.22124664625E+02	-5.99471949473E+00	-4.18324788914E-01
4.33148127570E+05	-1.48308245130E+01	-1.63764599856E+02	1.21861355298E+01	-1.79337359780E+02	-4.38141569816E+01	-1.14015565816E+02	-5.98031311749E+00	-1.79047746171E-01
4.55339482165E+05	-1.17066899868E+01	-1.66019236367E+02	1.21597656530E+01	-1.79953962470E+02	-4.92574756531E+01	-4.23320936224E+01	-5.98691199524E+00	-1.75827753782E-01
4.77530836760E+05	-1.11303934628E+01	-1.75202064165E+02	1.21514176364E+01	1.79906207113E+02	-4.34426773846E+01	1.14767766534E+02	-5.99073295616E+00	-5.10134236394E-01
4.99722191355E+05	-1.54838031372E+01	-1.67077083009E+02	1.21829628502E+01	1.79703256340E+02	-4.40766828794E+01	-1.72064353613E+02	-6.01690122485E+00	-3.78340486054E-01
5.21913545950E+05	-1.42232608003E+01	1.76059482941E+02	1.21971344727E+01	1.79637167654E+02	-5.07091027215E+01	-1.65797907004E+02	-5.99616787753E+00	-1.80541942330E-01
5.44104900545E+05	-1.34891936196E+01	1.78270466866E+02	1.21680806698E+01	1.79332358031E+02	-4.95662298315E+01	3.86944156221E+01	-6.00614602902E+00	-2.10385737639E-01
5.66296255139E+05	-1.18969659820E+01	-1.75122991030E+02	1.21934444866E+01	1.79070592059E+02	-3.67096041002E+01	-8.53030378758E+01	-5.99603572043E+00	-1.15925313780E-01
5.88487609734E+05	-1.12620574055E+01	1.75608647630E+02	1.21590480306E+01	1.78803256750E+02	-4.47078294816E+01	3.51272456290E+00	-6.01061863353E+00	-4.96852265171E-01
6.10678964329E+05	-1.62160967140E+01	-1.75712261429E+02	1.22022742742E+01	1.78730134583E+02	-4.32927848932E+01	-1.74499651415E+02	-5.97987584178E+00	1.90605636509E-01
6.32870318924E+05	-1.34517125228E+01	-1.72754506147E+02	1.21721820698E+01	1.78162430419E+02	-3.76884062136E+01	-5.53116962622E+01	-6.00872227835E+00	1.82932872572E-01
6.55061673519E+05	-1.46147049983E+01	1.74083048847E+02	1.21935300140E+01	1.78261939680E+02	-4.72391222332E+01	-7.06019903151E+01	-5.99297353261E+00	-4.01273238395E-02
6.77253028114E+05	-1.18316518225E+01	-1.72044089961E+02	1.21781443388E+01	1.78048843147E+02	-4.34352837997E+01	4.76523728551E+01	-6.00773136048E+00	-7.45620673324E-01
6.99444382709E+05	-1.18339840534E+01	-1.63067595234E+02	1.21858239039E+01	1.77644605796E+02	-4.39228184010E+01	6.28245927723E+01	-5.99838418407E+00	-5.33046582784E-01
7.21635737304E+05	-1.55721805980E+01	-1.73741031259E+02	1.22083373344E+01	1.77706612620E+02	-4.99266481139E+01	4.89559169814E+01	-5.98741664659E+00	-4.54600794077E-01
7.43827091899E+05	-1.66231075431E+01	-1.55086491284E+02	1.22116636740E+01	1.77438404834E+02	-4.18017592648E+01	6.57305244874E+01	-6.02005583924E+00	-4.77812928784E-01
7.66018446494E+05	-1.38707008363E+01	1.55115444297E+02	1.21838844272E+01	1.77557664745E+02	-4.35891265240E+01	-1.53628494560E+02	-5.96446737481E+00	-2.78491720204E-01
7.88209801089E+05	-1.48643806942E+01	-1.55064574835E+02	1.21955427105E+01	1.76979432851E+02	-5.41357017491E+01	1.09550440536E+02	-5.99587084560E+00	-4.92478965010E-01
8.10401155684E+05	-1.64386105821E+01	1.61168286642E+02	1.21958339963E+01	1.77147830395E+02	-6.01265858100E+01	8.16919273305E+01	-6.01302978873E+00	-3.01825437396E-01
8.32592510279E+05	-1.33295400937E+01	1.68760175278E+02	1.21571112385E+01	1.76929159423E+02	-4.58622477054E+01	-4.94899049341E+01	-6.02160066490E+00	-2.40593509351E-01
8.54783864874E+05	-1.38597840322E+01	1.65865670357E+02	1.21586182563E+01	1.76963358082E+02	-4.58273794420E+01	3.44702467284E+01	-6.02908489219E+00	-4.47012321943E-01
8.76975219469E+05	-1.17583880419E+01	-1.61293618487E+02	1.21639995731E+01	1.76276499553E+02	-7.00066029359E+01	1.50715689737E+02	-5.97380889482E+00	-6.08148741411E-01
8.99166574064E+05	-1.26278627690E+01	1.69714951106E+02	1.21667351525E+01	1.76448281624E+02	-5.13939814668E+01	-1.67758883578E+01	-5.99800741261E+00	-3.52734989360E-01
9.21357928659E+05	-1.71306934593E+01	-1.67841611868E+02	1.22127357835E+01	1.76214577862E+02	-4.49567419204E+01	7.02789749940E+01	-6.01303398298E+00	-5.21149529850E-01
9.43549283254E+05	-1.14686890225E+01	-1.61795325370E+02	1.21550842535E+01	1.75920448417E+02	-3.81560274626E+01	8.72327881905E+01	-5.98833595607E+00	-6.01993279941E-01
9.65740637849E+05	-1.63438766759E+01	-1.61616319066E+02	1.22353321749E+01	1.75914667650E+02	-4.34872112284E+01	-1.74159182656E+02	-5.98373156633E+00	-4.05214187577E-01
9.87931992444E+05	-1.42559816782E+01	-1.78608010395E+02	1.21897867881E+01	1.75879608113E+02	-5.12385646643E+01	1.21851467219E+02	-5.96537312723E+00	-5.79409365136E-01
1.01012334704E+06	-1.46645577885E+01	1.79484746504E+02	1.21776757156E+01	1.75627035585E+02	-4.60984571094E+01	1.79463418409E+02	-6.00157169613E+00	-4.88835498570E-01
1.03231470163E+06	-1.29046215060E+01	1.77286025667E+02	1.21609965102E+01	1.75578586774E+02	-3.89619745249E+01	1.26107564454E+02	-5.99548983857E+00	-5.34075414447E-01
1.05450605623E+06	-1.63883388710E+01	-1.53569575607E+02	1.21798802905E+01	1.75522592764E+02	-4.65158530316E+01	8.65283638260E+01	-6.00118604892E+00	-5.17491055463E-01
1.07669741082E+06	-1.43794704754E+01	1.72177432091E+02	1.21918906631E+01	1.75366524937E+02	-4.89436863272E+01	1.60055671312E+02	-6.00217284560E+00	-6.53229680803E-01
1.09888876542E+06	-1.41701171165E+01	-1.74900085320E+02	1.21940734268E+01	1.74858727118E+02	-4.25321165032E+01	-1.72530149920E+02	-5.96477393008E+00	-3.96974283978E-01
1.12108012001E+06	-1.29703805655E+01	-1.68338485206E+02	1.21664001540E+01	1.74804098392E+02	-5.14191404905E+01	1.76096762781E+01	-5.99824325072E+00	-6.54992737020E-01
1.14327147461E+06	-1.51659158061E+01	-1.68604812016E+02	1.22031930141E+01	1.74902514690E+02	-4.24135801614E+01	1.42167577634E+02	-5.96671282690E+00	-6.70084396793E-01
1.16546282920E+06	-1.34584496453E+01	-1.67621007321E+02	1.21954446658E+01	1.74574282785E+02	-5.37207239907E+01	8.25133305070E+01	-5.99433980613E+00	-5.13703755382E-01
1.18765418380E+06	-1.38996113965E+01	-1.67458067439E+02	1.21899047935E+01	1.74292290298E+02	-4.78353568166E+01	4.39203760509E+01	-6.01997963737E+00	-5.96475758321E-01
1.20984553839E+06	-1.41753719668E+01	-1.68288198443E+02	1.21859491359E+01	1.74191745569E+02	-4.45680729684E+01	4.70004750285E+00	-6.01543402126E+00	-6.11968972612E-01
1.23203689299E+06	-1.33285238858E+01	1.56129866231E+02	1.21660695541E+01	1.74568694670E+02	-4.28367409082E+01	6.29273001104E+01	-6.00569196771E+00	-6.46611583873E-01
1.25422824758E+06	-1.37128944592E+01	1.72894436488E+02	1.21644359509E+01	1.74075033385E+02	-5.39507120261E+01	-7.52155812950E+01	-6.01095008033E+00	-5.27141348175E-01
1.27641960218E+06	-1.58024805940E+01	1.57211978796E+02	1.22070025813E+01	1.74276897390E+02	-4.58314517168E+01	-8.48305570434E+01	-6.00613557665E+00	-4.88640509168E-01
1.29861095677E+06	-1.13442820555E+01	-1.75546830136E+02	1.21702852315E+01	1.73728728803E+02	-4.29240838966E+01	-1.98029644569E+01	-6.04322565181E+00	-4.04592008564E-01
1.32080231137E+06	-1.48071081031E+01	-1.56161265128E+02	1.22092196484E+01	1.73661051181E+02	-5.43586915736E+01	1.46873987994E+02	-5.99232842631E+00	-9.79125967355E-01
1.34299366596E+06	-1.56004453969E+01	-1.77674771864E+02	1.21863594939E+01	1.73538679851E+02	-3.82745588147E+01	1.54546279326E+02	-5.99911086690E+00	-7.55988436976E-01
1.36518502056E+06	-1.10050699852E+01	1.66361767296E+02	1.21413784658E+01	1.73396297345E+02	-4.84116286505E+01	-1.01580911262E+02	-5.98906247233E+00	-5.16378638646E-01
1.38737637515E+06	-1.37522418461E+01	1.65066711700E+02	1.21882487991E+01	1.73455295936E+02	-3.96333329384E+01	-1.47331030810E+02	-5.98482489723E+00	-4.64678451581E-01
1.40956772975E+06	-1.38797773904E+01	-1.74094311689E+02	1.21569275258E+01	1.73088065320E+02	-5.73654761420E+01	-1.45083432124E+02	-5.98595005405E+00	-7.03645902701E-01
1.43175908434E+06	-1.37195704668E+01	-1.61303868281E+02	1.21862631702E+01	1.73033888353E+02	-5.13951150572E+01	6.65615969045E+01	-5.97478163183E+00	-5.87259375775E-01
1.45395043894E+06	-1.25262877312E+01	1.73153641541E+02	1.21804387121E+01	1.73000498341E+02	-4.52387544161E+01	-8.21836595489E+01	-6.00882076936E+00	-5.09674925933E-01
1.47614179353E+06	-1.60890634462E+01	1.78984302857E+02	1.22093854307E+01	1.72884295017E+02	-4.56778663673E+01	-1.12257936189E+02	-6.00709853248E+00	-5.46112857315E-01
1.49833314813E+06	-1.35104716852E+01	1.72781566426E+02	1.21676181388E+01	1.72764883523E+02	-4.26601545741E+01	1.17181759609E+02	-5.99613433394E+00	-7.39218741216E-01
1.52052450272E+06	-1.30362553780E+01	-1.72380775646E+02	1.21981646780E+01	1.72563864550E+02	-5.12203656466E+01	-6.67809314762E+01	-6.00058137600E+00	-6.62791798645E-01
1.54271585732E+06	-1.57523503738E+01	1.54657135107E+02	1.21878397496E+01	1.72631328021E+02	-4.28820871022E+01	1.04756574839E+02	-5.98255186491E+00	-9.02394581843E-01
1.56490721191E+06	-1.17472329614E+01	-1.56097231238E+02	1.22117851374E+01	1.72088707696E+02	-4.78890946497E+01	-1.65593644901E+02	-5.98511081680E+00	-6.90782442900E-01
1.58709856651E+06	-1.40507963371E+01	-1.59907925405E+02	1.21971359350E+01	1.72047087027E+02	-4.97571228380E+01	1.70354463131E+02	-5.97355248602E+00	-6.97452836292E-01
1.60928992110E+06	-1.26752019063E+01	-1.58393623488E+02	1.21808289428E+01	1.71976340380E+02	-4.64853680211E+01	-1.19331185387E+02	-5.98401644494E+00	-5.52419091477E-01
1.63148127570E+06	-1.42648631416E+01	-1.74206379843E+02	1.21824000571E+01	1.71997204533E+02	-4.60016668324E+01	4.57000075623E+01	-6.00804141633E+00	-8.42287541070E-01
1.65367263029E+06	-1.26095140936E+01	-1.74487784143E+02	1.21937153644E+01	1.71766057864E+02	-5.65887617409E+01	-4.23507362418E+01	-5.99281641992E+00	-5.47208548820E-01
1.67586398489E+06	-2.12508911098E+01	1.71735659788E+02	1.22147831878E+01	1.71872103546E+02	-3.48209246614E+01	4.57463399030E+01	-6.02406040227E+00	-1.01206316896E+00
1.69805533948E+06	-1.33022328492E+01	-1.77996407542E+02	1.21963592668E+01	1.71409090835E+02	-4.72063722825E+01	-1.50072433839E+02	-5.99840157089E+00	-7.85744854295E-01
1.72024669408E+06	-1.36993493161E+01	-1.78536512954E+02	1.21882879313E+01	1.71571983741E+02	-5.69510321434E+01	-7.57319153170E+00	-6.02592497540E+00	-9.30738915947E-01
1.74243804867E+06	-1.36075513664E+01	-1.73616948712E+02	1.22052690552E+01	1.71135001640E+02	-4.54797978177E+01	-6.01634086625E+01	-6.01347599662E+00	-7.57717880134E-01
1.76462940327E+06	-1.43532981972E+01	-1.68196396103E+02	1.22039646239E+01	1.71045288404E+02	-5.30859679549E+01	6.93539250258E+01	-6.00857932758E+00	-8.77432372042E-01
1.78682075786E+06	-1.43140827267E+01	1.70086493762E+02	1.21981856417E+01	1.71205807070E+02	-4.70687494261E+01	1.45281565271E+02	-5.97797257459E+00	-1.06339510133E+00
1.80901211246E+06	-1.81219892084E+01	1.73599753054E+02	1.22249253679E+01	1.71077315980E+02	-4.19643968045E+01	1.23905593077E+02	-5.99551152185E+00	-9.69297499263E-01
1.83120346705E+06	-1.28368237277E+01	-1.51987642604E+02	1.22398666685E+01	1.70552043822E+02	-3.86505004428E+01	-1.56243514282E+02	-5.98421838774E+00	-7.02188239602E-01
1.85339482165E+06	-1.74184348720E+01	-1.32548307779E+02	1.22771578649E+01	1.70650327591E+02	-4.95894062621E+01	1.27965563242E+02	-5.97641104465E+00	-8.54270542675E-01
1.87558617624E+06	-1.39263689576E+01	-1.55487205462E+02	1.22146708419E+01	1.70324494921E+02	-5.54579969802E+01	-1.55351327073E+02	-5.99150490380E+00	-8.89112044068E-01
1.89777753084E+06	-1.43968088758E+01	1.77065598788E+02	1.22197280348E+01	1.70421239807E+02	-4.37343962004E+01	1.60977006684E+02	-5.97973107758E+00	-8.68374465406E-01
1.91996888543E+06	-1.31862641925E+01	-1.51668633839E+02	1.22359276986E+01	1.69983920204E+02	-6.11137386632E+01	-1.25192144073E+02	-5.99890387986E+00	-9.41914313502E-01
1.94216024003E+06	-1.60131807642E+01	1.76287229587E+02	1.22234120159E+01	1.70165604037E+02	-4.30040072990E+01	1.54337243956E+01	-6.02473277671E+00	-9.36319427551E-01
1.96435159462E+06	-1.66376148288E+01	1.74137529256E+02	1.22130328831E+01	1.70052919208E+02	-3.79540944447E+01	1.90581200135E+01	-6.03984689469E+00	-8.83208715851E-01
1.98654294922E+06	-9.41634504737E+00	1.71396909149E+02	1.21471650663E+01	1.69660189008E+02	-4.27321814528E+01	1.65188756974E+02	-5.98890442339E+00	-8.70438928369E-01
2.00873430381E+06	-1.10345849793E+01	1.76389445970E+02	1.21805969442E+01	1.69617784699E+02	-4.29820425184E+01	1.59868209870E+02	-5.98594746157E+00	-9.52126554977E-01
2.03092565841E+06	-1.43236156540E+01	-1.49403996906E+02	1.22026938579E+01	1.69445948779E+02	-5.67872007653E+01	-1.27147530183E+02	-6.01218550801E+00	-7.80700709062E-01
2.05311701300E+06	-1.24041540703E+01	1.71620079088E+02	1.21680766002E+01	1.69538204136E+02	-4.30480850044E+01	8.25743288742E+01	-5.99613656508E+00	-9.44055937998E-01
2.07530836760E+06	-1.39588041906E+01	-1.70934452421E+02	1.21864314821E+01	1.69260768410E+02	-4.16266120401E+01	9.63152864101E+01	-5.97599818891E+00	-1.09122878082E+00
2.09749972219E+06	-1.67337393255E+01	1.75691372542E+02	1.21971196944E+01	1.69484407078E+02	-4.90175496066E+01	-1.06150490773E+02	-6.01583327322E+00	-7.96172346114E-01
2.11969107679E+06	-1.47278758760E+01	1.62694570704E+02	1.21736206774E+01	1.69229728826E+02	-3.26108017118E+01	1.17882992969E+02	-5.94154563459E+00	-1.02806456727E+00
2.14188243138E+06	-1.65219974787E+01	-1.70126883159E+02	1.21955689391E+01	1.69246864566E+02	-5.01382308822E+01	8.53702231883E+01	-6.01119474227E+00	-9.17343708180E-01
2.16407378598E+06	-1.23386628526E+01	-1.77656226500E+02	1.21758254889E+01	1.68716377836E+02	-5.00103560733E+01	1.74220243759E+02	-5.97435606409E+00	-7.91134059179E-01
2.18626514057E+06	-1.45751078605E+01	-1.79879986374E+02	1.22116646112E+01	1.68720202239E+02	-4.40276241985E+01	-1.68690438484E+02	-5.96456191666E+00	-7.36057732180E-01
2.20845649517E+06	-1.49768532246E+01	1.70152826705E+02	1.22163740913E+01	1.68679443742E+02	-4.37867294123E+01	1.51305051889E+02	-6.00062413727E+00	-1.03294897241E+00
2.23064784976E+06	-1.83555970897E+01	-1.57124497820E+02	1.22510961121E+01	1.68635245032E+02	-4.86717464512E+01	-1.12545312191E+02	-6.00074325799E+00	-1.00613931663E+00
2.25283920436E+06	-1.34312701573E+01	-1.71238703883E+02	1.21891313357E+01	1.68427754218E+02	-4.24766942824E+01	3.29476396963E+01	-6.00709938249E+00	-1.00403879156E+00
2.27503055895E+06	-1.59103813278E+01	-1.78531172617E+02	1.21958693650E+01	1.68279503701E+02	-4.24762537527E+01	2.75439073568E+01	-5.97957591054E+00	-1.07820438178E+00
2.29722191355E+06	-1.31647706624E+01	1.61856840391E+02	1.21554242562E+01	1.68260306664E+02	-3.63491808439E+01	-8.76586154421E+01	-6.01225787566E+00	-7.96009289348E-01
2.31941326814E+06	-1.78366576999E+01	1.70668597195E+02	1.21838876141E+01	1.68187743194E+02	-4.58184307857E+01	-6.20409670247E+01	-6.02814825434E+00	-9.57553815995E-01
2.34160462274E+06	-1.52083241876E+01	-1.70859791695E+02	1.22350670945E+01	1.67987760258E+02	-4.45086543689E+01	-1.18942347507E+02	-5.98420556548E+00	-7.89273184377E-01
2.36379597733E+06	-1.47739838066E+01	-1.77358036530E+02	1.22115166007E+01	1.67654046965E+02	-4.52751332967E+01	1.25403871319E+02	-5.98954451274E+00	-1.01370553300E+00
2.38598733193E+06	-1.32538614080E+01	-1.66849182389E+02	1.22184556572E+01	1.67571685181E+02	-4.78780706954E+01	3.12798701542E+01	-5.99164386888E+00	-1.27791373594E+00
2.40817868652E+06	-1.18650359951E+01	1.71139038747E+02	1.21658400560E+01	1.67486505604E+02	-4.27936697070E+01	1.28169269477E+02	-5.98252710910E+00	-1.43338153915E+00
2.43037004112E+06	-1.68271700934E+01	1.63504918013E+02	1.22197986002E+01	1.67643052617E+02	-3.87212162586E+01	-1.62235578513E+02	-6.00796575262E+00	-1.31491689675E+00
2.45256139571E+06	-1.53503662542E+01	-1.78585097247E+02	1.22270694961E+01	1.67397916789E+02	-4.74181621997E+01	4.72384750083E+01	-5.98526209822E+00	-1.21926111489E+00
2.47475275031E+06	-1.84568788751E+01	-1.37151341472E+02	1.22501269635E+01	1.67280162670E+02	-4.80081031441E+01	1.00192132432E+02	-6.00667418142E+00	-1.21304942365E+00
2.49694410490E+06	-1.23001375594E+01	-1.57212825033E+02	1.22412093493E+01	1.66624218935E+02	-4.76544364872E+01	1.41015158622E+02	-5.96788750497E+00	-1.23301569736E+00
2.51913545950E+06	-1.37915801021E+01	-1.62866023455E+02	1.22371260463E+01	1.66670296523E+02	-4.40126746302E+01	-1.37103631266E+02	-6.00089534426E+00	-9.48737207744E-01
2.54132681409E+06	-1.43382600789E+01	-1.71923609451E+02	1.22345978779E+01	1.66734996004E+02	-4.29876863615E+01	1.99975676969E+01	-6.02442577196E+00	-1.19332502349E+00
2.56351816869E+06	-1.33171482133E+01	1.66954305852E+02	1.21799630812E+01	1.66765881778E+02	-4.18826204861E+01	-8.24416054039E+01	-6.01954849649E+00	-8.30864214227E-01
2.58570952328E+06	-1.51180203271E+01	-1.69041481292E+02	1.22329431912E+01	1.66607235679E+02	-4.77569886575E+01	-6.84180777360E+01	-6.02319719512E+00	-1.08348449417E+00
2.60790087788E+06	-1.72773370828E+01	1.71561092838E+02	1.22424016999E+01	1.66498489301E+02	-4.17555495725E+01	-8.08038910228E+01	-6.03247789888E+00	-9.66259718015E-01
2.63009223247E+06	-1.33974824642E+01	-1.57733955566E+02	1.22441703557E+01	1.66333949300E+02	-4.86617011032E+01	-2.45845667197E+01	-6.00726073330E+00	-6.65405612322E-01
2.65228358707E+06	-1.36820271406E+01	1.65957029492E+02	1.21974880369E+01	1.66466623447E+02	-5.44775071398E+01	-5.89520395202E+01	-6.01504149245E+00	-1.03911828770E+00
2.67447494166E+06	-1.85226747282E+01	-1.61617401668E+02	1.22438433875E+01	1.65975392945E+02	-4.77836798625E+01	1.47392628312E+02	-5.99772126737E+00	-1.22072938510E+00
2.69666629626E+06	-1.48991582964E+01	1.72376108549E+02	1.22103628214E+01	1.66091604071E+02	-4.55614435996E+01	-7.53063645335E+01	-6.00166337230E+00	-1.03334326073E+00
2.71885765085E+06	-1.16002484698E+01	-1.76580042831E+02	1.21746159683E+01	1.65486891530E+02	-4.52282284167E+01	-1.74439868513E+01	-6.01955445884E+00	-1.26940854201E+00
2.74104900545E+06	-1.60694529206E+01	-1.66692351431E+02	1.22440457351E+01	1.65804977478E+02	-3.53195273402E+01	-2.89599397007E+01	-6.07221648152E+00	-1.13581752079E+00
2.76324036004E+06	-1.48078131314E+01	-1.79261826788E+02	1.21960150729E+01	1.65384569218E+02	-4.47181413093E+01	7.91173727206E+01	-6.00628438172E+00	-1.41334355034E+00
2.78543171463E+06	-1.52355896348E+01	1.68533332662E+02	1.22321187098E+01	1.65411424607E+02	-4.72017032945E+01	-1.17634163963E+02	-5.99451349855E+00	-1.14309322632E+00
2.80762306923E+06	-1.64065063550E+01	1.79033488390E+02	1.22472167327E+01	1.65424369017E+02	-4.56686023719E+01	-2.67210911408E+01	-6.03230117687E+00	-1.27581208762E+00
2.82981442382E+06	-1.30487505895E+01	1.74787826708E+02	1.22291744497E+01	1.65099674641E+02	-5.12879793693E+01	-1.28534178397E+02	-5.97544173976E+00	-1.23482252709E+00
2.85200577842E+06	-1.26930646184E+01	-1.64210858682E+02	1.22286542101E+01	1.64984295493E+02	-4.10859506609E+01	1.51817106894E+02	-5.96352534456E+00	-1.20747317280E+00
2.87419713301E+06	-1.30978077521E+01	-1.57780097914E+02	1.22396546757E+01	1.64678646620E+02	-4.75250534856E+01	1.31712852880E+02	-5.99339162680E+00	-1.15678535535E+00
