# Hz S DB R 50
! CMT, M5065, 19127446, 24.2.4/2
! Date: 11/8/2024 2:58:12 PM
! Data: Format (Calibration Info)
! Freq	S11:dB/Ang(F2)	S21:dB/Ang(F2)	S12:dB/Ang(F2)	S22:dB/Ang(F2)
3.00000000000E+05	-1.12831986896E+01	1.76115258642E+02	8.94536976088E+00	-1.77569453665E+02	-4.84222654388E+01	7.08700068285E+01	-6.00647049725E+00	-2.07796455757E-01
3.22191354595E+05	-1.53062335932E+01	1.66067063036E+02	8.95351183241E+00	-1.77835991790E+02	-5.04332412843E+01	8.41340987061E+01	-5.99156031293E+00	-3.56764290695E-01
3.44382709190E+05	-1.21510771337E+01	-1.76169270961E+02	8.92737460331E+00	-1.78208007835E+02	-4.74551271000E+01	1.60686529784E+02	-5.98377103350E+00	-3.63358789705E-01
3.66574063785E+05	-1.06920458508E+01	1.74186315194E+02	8.90251844563E+00	-1.78487104373E+02	-4.40297462627E+01	-8.51078894429E-01	-5.99309895165E+00	-1.43261269048E-01
3.88765418380E+05	-1.53783066479E+01	1.68238506824E+02	8.95219548412E+00	-1.78668304780E+02	-4.23764755261E+01	1.49764070973E+02	-5.99217664519E+00	-3.45856158593E-01
4.10956772975E+05	-1.34187263478E+01	-1.72695348004E+02	8.98009725991E+00	-1.79088496904E+02	-5.11750309781E+01	-1.51376129451E+02	-5.98832095162E+00	-3.54230387857E-01
4.33148127570E+05	-1.32810713050E+01	1.49829580876E+02	8.94901659563E+00	-1.79083423001E+02	-4.51066898725E+01	-1.06668543774E+01	-6.00637412239E+00	-2.51862725238E-01
4.55339482165E+05	-1.43613749011E+01	1.73753810274E+02	8.92307198964E+00	-1.79742030956E+02	-4.33086920135E+01	-1.10490996638E+02	-6.01102730943E+00	-1.22136228631E-01
4.77530836760E+05	-1.22992683817E+01	1.65779764370E+02	8.91953020951E+00	-1.79804550182E+02	-4.54116735956E+01	-1.76562913527E+02	-5.98585846691E+00	-3.85986763313E-01
4.99722191355E+05	-1.28786109275E+01	-1.53184904484E+02	8.94078513490E+00	1.79746371285E+02	-5.16947450324E+01	-5.63242892942E+01	-5.99135604230E+00	-2.79379131312E-01
5.21913545950E+05	-1.48537979343E+01	-1.71381549819E+02	9.00090491075E+00	1.79520206987E+02	-4.57572359782E+01	-7.13529910677E+01	-5.99148237506E+00	-1.29329106980E-01
5.44104900545E+05	-1.20116190430E+01	1.68188460469E+02	8.89831415652E+00	1.79779154056E+02	-3.68042933249E+01	1.79480962837E+02	-5.97927552747E+00	-3.49702260657E-01
5.66296255139E+05	-1.20414837953E+01	-1.61186198717E+02	8.94126730918E+00	1.79286858964E+02	-4.59159646315E+01	7.56194526193E+01	-5.97904135117E+00	-4.31240784327E-01
5.88487609734E+05	-1.50052083526E+01	1.73046814941E+02	8.95468951661E+00	1.79191322837E+02	-4.22969339537E+01	6.15428140267E+01	-6.01780130764E+00	-4.65083558114E-01
6.10678964329E+05	-1.52740473328E+01	-1.66344311173E+02	8.98838183226E+00	1.79048438958E+02	-4.60071856240E+01	6.29590945972E+01	-6.00386629415E+00	1.32859623276E-01
6.32870318924E+05	-1.58896961675E+01	-1.30333994930E+02	8.99993900016E+00	1.78761438090E+02	-4.30402862070E+01	-1.34335790143E+01	-6.02245341490E+00	-1.93330141708E-01
6.55061673519E+05	-2.44222188154E+01	-1.71853918421E+02	8.99086015274E+00	1.78842407792E+02	-4.17588766261E+01	7.33950510602E+01	-5.98566792023E+00	-4.10287898104E-01
6.77253028114E+05	-1.41160723381E+01	-1.76688800847E+02	8.95549639144E+00	1.78475980372E+02	-3.74073884571E+01	3.46355609468E+01	-6.02505705703E+00	-6.94466690164E-01
6.99444382709E+05	-1.43997430462E+01	-1.78078379973E+02	8.96234711425E+00	1.78375369316E+02	-5.17024332569E+01	-1.02237533885E+01	-6.00183731222E+00	-3.84138171027E-01
7.21635737304E+05	-1.72910327508E+01	-1.69605523199E+02	8.96172791348E+00	1.78192058229E+02	-4.30348160843E+01	-1.26235508354E+02	-5.99184918969E+00	-2.27731353686E-01
7.43827091899E+05	-1.35075671361E+01	-1.72246716618E+02	8.96883843429E+00	1.78321721972E+02	-5.05131891346E+01	5.12324632633E+01	-6.02362107961E+00	-4.16687887121E-01
7.66018446494E+05	-1.94340330762E+01	1.79470245240E+02	8.98735135473E+00	1.77972701940E+02	-4.20578100558E+01	-1.20108760249E+02	-5.98797474839E+00	-3.02855219438E-01
7.88209801089E+05	-1.29533524215E+01	-1.75249066744E+02	8.92663672547E+00	1.77711396698E+02	-4.62345543716E+01	9.39901672948E+01	-5.99575997216E+00	-5.30399187569E-01
8.10401155684E+05	-1.24102649811E+01	1.68113154840E+02	8.91844340331E+00	1.77863819044E+02	-4.28132174404E+01	-4.27713888381E+01	-5.99676996839E+00	-1.70754870133E-01
8.32592510279E+05	-1.37678099835E+01	-1.56690963267E+02	8.98924043960E+00	1.77508842997E+02	-5.22030786422E+01	1.12279253092E+02	-6.00193398735E+00	-4.64261446826E-01
8.54783864874E+05	-1.36323613810E+01	1.63517690769E+02	8.92667957225E+00	1.77400828621E+02	-5.15094245028E+01	-4.49907226626E+01	-6.02215943728E+00	-3.14660639788E-01
8.76975219469E+05	-1.56533408408E+01	-1.76157283627E+02	8.93643001947E+00	1.77507589874E+02	-4.27408247929E+01	-4.69304708474E+01	-6.00668985021E+00	-3.85036603919E-01
8.99166574064E+05	-1.27637404040E+01	-1.70048853999E+02	8.93468115069E+00	1.77071547285E+02	-4.55636167123E+01	-1.71631965391E+02	-5.98380516888E+00	-4.61949718472E-01
9.21357928659E+05	-1.69693028015E+01	1.61251844585E+02	8.98492043279E+00	1.77105925910E+02	-4.21350182497E+01	1.14917475799E+02	-5.98275198625E+00	-5.26122146564E-01
9.43549283254E+05	-1.31553283803E+01	-1.60500066952E+02	8.96333143152E+00	1.76760011414E+02	-4.43716029067E+01	-4.12467838647E+01	-6.01281065868E+00	-4.83276467058E-01
9.65740637849E+05	-1.89844275187E+01	1.58046138018E+02	8.97323934462E+00	1.76989744366E+02	-3.88283573661E+01	-8.15925655294E+01	-6.00805574851E+00	-2.83399648619E-01
9.87931992444E+05	-1.87500884625E+01	1.78434656835E+02	8.99879585460E+00	1.76832914501E+02	-4.74331178521E+01	-1.05426060229E+02	-6.00007025156E+00	-3.39269992710E-01
1.01012334704E+06	-1.55773240752E+01	-1.72214791247E+02	8.98698479840E+00	1.76541578035E+02	-4.06287615046E+01	-1.29556981955E+02	-5.99249485987E+00	-4.06601873822E-01
1.03231470163E+06	-1.26213747414E+01	-1.68204461694E+02	8.95069540334E+00	1.76270567565E+02	-4.32596902743E+01	-1.26928257467E+02	-5.96704195411E+00	-4.39455733207E-01
1.05450605623E+06	-1.66841773084E+01	-1.75247693657E+02	8.99701077651E+00	1.76530263367E+02	-4.23322291387E+01	-1.44486596283E+02	-5.96788756792E+00	-4.97271011277E-01
1.07669741082E+06	-1.45329108205E+01	-1.77359995744E+02	8.98730874210E+00	1.76147713425E+02	-6.19687138400E+01	-1.05889975129E+02	-6.00052985642E+00	-6.60970875904E-01
1.09888876542E+06	-1.25989900234E+01	1.77711478168E+02	8.93654736938E+00	1.75947862413E+02	-4.81837302999E+01	6.95465447642E+01	-5.98629147926E+00	-5.23922481815E-01
1.12108012001E+06	-1.29097235839E+01	-1.77831905297E+02	8.99014340758E+00	1.76065519066E+02	-4.90014840157E+01	9.81456679041E+01	-6.00142469547E+00	-6.30945447610E-01
1.14327147461E+06	-1.65942075917E+01	1.73701578013E+02	8.99837598449E+00	1.75988070196E+02	-5.00524376122E+01	-1.66155529367E+02	-5.99959098310E+00	-5.06115201565E-01
1.16546282920E+06	-1.56357901917E+01	-1.53438371760E+02	8.96986106506E+00	1.75739805530E+02	-4.23992286786E+01	-1.04372069968E+02	-6.00796750225E+00	-4.29979816857E-01
1.18765418380E+06	-1.49456043645E+01	-1.59740829056E+02	8.98037438831E+00	1.75496361187E+02	-5.74762296774E+01	2.92121167873E+01	-5.98363568856E+00	-5.18809092891E-01
1.20984553839E+06	-1.32310213123E+01	-1.71588671644E+02	8.96795765690E+00	1.75487457852E+02	-5.56230810740E+01	-9.97052233045E+01	-6.00436249581E+00	-4.10777885135E-01
1.23203689299E+06	-1.52100556590E+01	-1.77991186654E+02	8.97166499194E+00	1.75391360819E+02	-4.44773353293E+01	-1.75077605640E+01	-6.01916868553E+00	-2.29195235792E-01
1.25422824758E+06	-1.44041086884E+01	-1.79358362670E+02	8.97687591346E+00	1.75467763815E+02	-3.89525675220E+01	6.87632128249E+00	-6.04609766324E+00	-6.97309180154E-01
1.27641960218E+06	-1.14395826706E+01	1.67180171528E+02	8.96484019825E+00	1.75255472693E+02	-4.15800109521E+01	5.28042117674E+01	-5.99725122075E+00	-7.27768392832E-01
1.29861095677E+06	-1.16658412980E+01	-1.66453739557E+02	8.93392422582E+00	1.74667203315E+02	-4.35552946538E+01	5.33512656752E+01	-6.00206119627E+00	-7.35489658699E-01
1.32080231137E+06	-1.50122425461E+01	1.72622312269E+02	8.96218773329E+00	1.74962220504E+02	-4.34163512734E+01	-1.01901296448E+02	-6.01029610510E+00	-8.98841910837E-01
1.34299366596E+06	-1.29638522846E+01	-1.79962012791E+02	8.96375420859E+00	1.74810687966E+02	-4.62671600310E+01	1.65762153812E+02	-6.00729863744E+00	-7.30335822703E-01
1.36518502056E+06	-1.58598561906E+01	-1.55994692959E+02	8.97802756695E+00	1.74535225865E+02	-4.46828330861E+01	-1.98504682678E+01	-6.01882594045E+00	-6.01452900917E-01
1.38737637515E+06	-1.26494302122E+01	-1.74107905362E+02	8.94293734356E+00	1.74566894232E+02	-4.12958429212E+01	1.06475708280E+02	-6.00586530986E+00	-7.31889448851E-01
1.40956772975E+06	-1.73174980808E+01	-1.77670340072E+02	8.97411426163E+00	1.74499556956E+02	-4.82768549126E+01	1.33492051985E+02	-5.99682113615E+00	-5.92080716465E-01
1.43175908434E+06	-1.11254081935E+01	-1.73675609539E+02	8.93044861049E+00	1.74225804797E+02	-4.62803980031E+01	7.33345289370E+01	-5.99565483006E+00	-7.44909910554E-01
1.45395043894E+06	-2.07686073290E+01	1.57852390530E+02	8.95741732107E+00	1.74405409835E+02	-4.17760022089E+01	-1.10265796846E+02	-5.99025192632E+00	-4.78708308714E-01
1.47614179353E+06	-1.34778415838E+01	1.73051102744E+02	8.91607615884E+00	1.73874811613E+02	-5.04928485828E+01	6.42312538851E+01	-6.00933836745E+00	-7.35265942956E-01
1.49833314813E+06	-1.16318596840E+01	-1.70639441805E+02	8.95523457227E+00	1.73862489371E+02	-6.72513616525E+01	-1.14250776842E+02	-6.01676211212E+00	-6.65630242085E-01
1.52052450272E+06	-1.32150861504E+01	-1.64439118422E+02	8.96271371996E+00	1.73727020469E+02	-4.45094176630E+01	-2.54780801341E+01	-5.99810737724E+00	-6.15365139646E-01
1.54271585732E+06	-1.49300568210E+01	1.79301088140E+02	8.95646921319E+00	1.74041897331E+02	-5.53630121439E+01	1.40869110082E+02	-5.99525401725E+00	-5.64987655476E-01
1.56490721191E+06	-1.38902336931E+01	1.63041933250E+02	8.97605549915E+00	1.74004735161E+02	-5.17039191858E+01	1.67937550343E+02	-5.97425342128E+00	-6.17040683882E-01
1.58709856651E+06	-1.27019584809E+01	1.54218286616E+02	8.94425948702E+00	1.73740200585E+02	-4.64794767410E+01	4.19601227513E+01	-6.00571509581E+00	-8.20310331292E-01
1.60928992110E+06	-1.40670775076E+01	-1.66577426725E+02	8.98119534818E+00	1.73432419073E+02	-4.63495831107E+01	-4.81001063845E+01	-6.01598757256E+00	-6.51656556542E-01
1.63148127570E+06	-1.13930381636E+01	1.79057513693E+02	8.92685258074E+00	1.73202851703E+02	-4.92897527909E+01	1.18558606250E+02	-5.99457409628E+00	-6.97238548563E-01
1.65367263029E+06	-1.41839780917E+01	1.76452826574E+02	8.96999780330E+00	1.73310963122E+02	-4.22140073112E+01	-1.12557985060E+02	-5.98841857871E+00	-7.35167715693E-01
1.67586398489E+06	-1.22574983808E+01	-1.68447541918E+02	8.97388540869E+00	1.73093897768E+02	-4.87313215982E+01	9.55902348138E+00	-6.01484987231E+00	-8.65686903128E-01
1.69805533948E+06	-1.24783350764E+01	-1.65274974284E+02	8.95041398654E+00	1.72835144565E+02	-5.04144363469E+01	1.08944793749E+01	-5.99091459068E+00	-6.96851255841E-01
1.72024669408E+06	-1.55359126416E+01	-1.66385555915E+02	8.98951209691E+00	1.72948829311E+02	-4.20135782530E+01	-9.49760909662E+00	-6.03524298121E+00	-8.49481645547E-01
1.74243804867E+06	-1.45244497390E+01	-1.63156583788E+02	8.99214214257E+00	1.72705231971E+02	-4.84361759348E+01	2.57893062423E+01	-5.98079420428E+00	-8.54824900269E-01
1.76462940327E+06	-2.09799502711E+01	1.79619789961E+02	8.99654293675E+00	1.73167497087E+02	-4.60546957034E+01	1.13811271897E+02	-5.99635529217E+00	-9.24949466481E-01
1.78682075786E+06	-1.16334051535E+01	-1.79386639297E+02	8.90827103753E+00	1.72641581102E+02	-3.75096682625E+01	1.66795557791E+02	-5.96288750371E+00	-7.08503278632E-01
1.80901211246E+06	-1.45637979056E+01	-1.77742941468E+02	8.97235829815E+00	1.72528583663E+02	-5.70813380631E+01	1.22961398998E+02	-5.98166008986E+00	-8.25873891546E-01
1.83120346705E+06	-1.29241301743E+01	-1.61948949147E+02	9.00402985077E+00	1.72272721438E+02	-4.62265198859E+01	3.98239262314E+01	-6.01858664502E+00	-9.68245191420E-01
1.85339482165E+06	-1.49895213725E+01	1.65675519058E+02	8.94160151043E+00	1.72624208962E+02	-4.70602171373E+01	1.43905460711E+02	-5.99011025645E+00	-8.77730387135E-01
1.87558617624E+06	-1.47861593704E+01	-1.52702568623E+02	9.01297935252E+00	1.72271948404E+02	-5.03214498253E+01	4.41904293930E+01	-5.98982255300E+00	-9.67842692666E-01
1.89777753084E+06	-1.08546362602E+01	1.72476122170E+02	8.93574202387E+00	1.71877802466E+02	-4.31812347384E+01	-8.67915584021E+01	-6.00776606657E+00	-6.72277891494E-01
1.91996888543E+06	-5.42812415800E+00	-1.36308779390E+02	9.06879233039E+00	1.71285595796E+02	-4.55050064846E+01	-6.33549273784E+01	-6.00028170076E+00	-8.97402086106E-01
1.94216024003E+06	-1.28087700117E+01	1.59505872030E+02	8.96774993913E+00	1.71953878783E+02	-4.06685804059E+01	-5.43208654703E+01	-6.02148696781E+00	-8.08999630259E-01
1.96435159462E+06	-1.04689401704E+01	-1.63550745635E+02	8.99041165970E+00	1.71597807205E+02	-4.29692580641E+01	-3.49109755235E+01	-6.01809133502E+00	-9.06657554224E-01
1.98654294922E+06	-1.50625144399E+01	1.73422446355E+02	8.97654039900E+00	1.71755572978E+02	-5.26560731912E+01	-1.67763137092E+02	-5.96515571473E+00	-8.29595889609E-01
2.00873430381E+06	-1.59320919299E+01	1.76369348649E+02	8.99277377645E+00	1.71647773241E+02	-5.42735856304E+01	-1.53525717361E+02	-5.98177736055E+00	-8.88494845017E-01
2.03092565841E+06	-1.14909068347E+01	-1.63737595308E+02	8.96374903914E+00	1.70922454258E+02	-4.14831175771E+01	1.39263946256E+02	-5.96998677640E+00	-9.59592331392E-01
2.05311701300E+06	-1.35419602279E+01	1.58977157536E+02	8.94528730017E+00	1.71650491743E+02	-4.60361432715E+01	7.86449164358E+01	-6.00568706314E+00	-1.07914249235E+00
2.07530836760E+06	-1.26478987097E+01	1.70381247880E+02	8.98328928912E+00	1.71555737304E+02	-4.15871430304E+01	1.64278223125E+02	-5.97061133638E+00	-1.04053424714E+00
2.09749972219E+06	-1.16855191843E+01	-1.74336064132E+02	8.96748466573E+00	1.70806182195E+02	-4.34449923776E+01	-1.69642888656E+02	-5.99716739907E+00	-9.55634821384E-01
2.11969107679E+06	-1.36533454343E+01	-1.65379365115E+02	9.02687255346E+00	1.70989287531E+02	-4.54780961075E+01	1.51621648662E+02	-6.00208780794E+00	-8.68137876873E-01
2.14188243138E+06	-1.69066641772E+01	-1.78286257192E+02	9.01059298120E+00	1.71224544588E+02	-4.51657337570E+01	-1.75167784023E+02	-5.98273293504E+00	-9.35453474933E-01
2.16407378598E+06	-1.16614502528E+01	-1.69683283150E+02	9.00352407011E+00	1.70824849732E+02	-4.37248349824E+01	-6.05855538728E+01	-5.98417363013E+00	-1.00000908680E+00
2.18626514057E+06	-9.75552273275E+00	-1.70505246706E+02	8.96174367164E+00	1.70718729636E+02	-6.02704637910E+01	1.55191448182E+02	-5.98954080815E+00	-9.15066359241E-01
2.20845649517E+06	-1.78032211578E+01	1.77053505004E+02	9.01481229385E+00	1.70829319308E+02	-4.97070520373E+01	-1.67600792657E+02	-5.98260574207E+00	-7.78830041642E-01
2.23064784976E+06	-1.49968244476E+01	3.41869588235E+01	8.98172829221E+00	1.71341476712E+02	-4.76991455685E+01	9.52896595932E+01	-5.97150170969E+00	-9.46974009310E-01
2.25283920436E+06	-1.29314488124E+01	-1.72927558086E+02	8.99909137218E+00	1.70404861069E+02	-3.42065894815E+01	-1.64283472210E+02	-5.97012907352E+00	-7.24323618512E-01
2.27503055895E+06	-1.28923787124E+01	-1.79868082368E+02	8.98501434963E+00	1.70359975252E+02	-3.88906704183E+01	1.13889599621E+02	-5.96924800600E+00	-9.88953088015E-01
2.29722191355E+06	-1.44912133148E+01	-1.57888194874E+02	8.99563122762E+00	1.70159483673E+02	-4.51719481016E+01	1.75978610419E+02	-5.97674974332E+00	-9.19811067621E-01
2.31941326814E+06	-1.41355445870E+01	-1.52630500068E+02	9.01908063861E+00	1.69987726603E+02	-4.98283394504E+01	6.96150394344E+01	-6.00245023323E+00	-1.05255748646E+00
2.34160462274E+06	-1.50908284323E+01	-1.66396253411E+02	9.01283185474E+00	1.69923353147E+02	-4.34481700274E+01	2.00873813553E+01	-5.99798937112E+00	-1.19781346355E+00
2.36379597733E+06	-1.60119156066E+01	-1.67234927727E+02	8.99622696369E+00	1.69881832914E+02	-5.47039375216E+01	4.05117849245E+01	-6.01890256837E+00	-1.00387741270E+00
2.38598733193E+06	-1.42179501876E+01	-1.61317111676E+02	9.02282038714E+00	1.69544591139E+02	-4.08263776874E+01	9.83902427858E+01	-5.98338192329E+00	-1.21410250190E+00
2.40817868652E+06	-1.42563743977E+01	1.79481200828E+02	8.99941838576E+00	1.69796724595E+02	-4.83978384454E+01	5.28329636643E+01	-6.00006686084E+00	-1.30039704216E+00
2.43037004112E+06	-1.16587080373E+01	-1.55010823376E+02	9.02198435194E+00	1.69353814606E+02	-5.41391848704E+01	-7.24249751184E+01	-5.99068591708E+00	-1.29498526053E+00
2.45256139571E+06	-1.58225967561E+01	-1.58403269139E+02	9.03534798155E+00	1.69556221100E+02	-5.03049365562E+01	7.11687306248E+01	-6.00501945315E+00	-1.00625726799E+00
2.47475275031E+06	-1.28219183638E+01	-1.76489534824E+02	8.97540387022E+00	1.69351190478E+02	-4.57393664884E+01	-6.39813568492E+01	-6.00838892040E+00	-1.00261865188E+00
2.49694410490E+06	-1.61774997205E+01	1.72135358411E+02	9.00214457672E+00	1.69839218049E+02	-4.78410324705E+01	-2.98338190376E+00	-5.99928328450E+00	-1.22923502663E+00
2.51913545950E+06	-1.57960237706E+01	-1.71231638127E+02	9.02313237738E+00	1.69298442005E+02	-5.04592405551E+01	-1.03849313183E+02	-6.02681054233E+00	-9.63458915487E-01
2.54132681409E+06	-1.02911906712E+01	-1.63690699201E+02	8.98012806680E+00	1.68775173967E+02	-5.05242830292E+01	1.00979145189E+02	-5.98296930771E+00	-1.06117657052E+00
2.56351816869E+06	-1.23913369931E+01	-1.72187502128E+02	9.01524838525E+00	1.68795218283E+02	-4.70309815839E+01	-9.12239234628E+01	-5.99014471243E+00	-9.88929953560E-01
2.58570952328E+06	-1.20525979195E+01	-1.75817098892E+02	9.00989876256E+00	1.68766850673E+02	-4.38732672672E+01	2.61861969560E+01	-6.00501498641E+00	-1.32107900900E+00
2.60790087788E+06	-1.25865785397E+01	-1.76801100104E+02	9.02123296867E+00	1.68661865155E+02	-4.96174607392E+01	1.56690601826E+02	-5.97280011573E+00	-9.60994257487E-01
2.63009223247E+06	-1.26755436758E+01	-1.63276220221E+02	9.01350829522E+00	1.68441879809E+02	-4.57930489752E+01	-1.15883045141E+02	-6.01156279329E+00	-6.43907386690E-01
2.65228358707E+06	-1.16122196136E+01	1.74740378413E+02	8.95723003215E+00	1.68425160832E+02	-4.17399838424E+01	5.85220601611E+01	-5.99241458629E+00	-1.22996696415E+00
2.67447494166E+06	-1.39503076967E+01	1.79286255714E+02	9.01388796046E+00	1.68564016620E+02	-4.10038420143E+01	-1.45102165407E+02	-5.99743754722E+00	-9.61408537671E-01
2.69666629626E+06	-1.40298218597E+01	-1.73997741381E+02	8.99838079702E+00	1.68568659003E+02	-4.34118312596E+01	-7.88407542458E+01	-6.01355544988E+00	-1.12630362347E+00
2.71885765085E+06	-1.35417179090E+01	-1.65309782233E+02	9.01236187691E+00	1.68133605497E+02	-5.05963552495E+01	-4.46610241929E+01	-6.01252687652E+00	-1.20192073190E+00
2.74104900545E+06	-1.14396131114E+01	-1.70606498838E+02	8.98527670053E+00	1.67949320690E+02	-5.30979454303E+01	-6.08905598968E+01	-6.00742596325E+00	-1.07327661513E+00
2.76324036004E+06	-1.38664603108E+01	-1.62971448451E+02	9.01779026515E+00	1.68084422077E+02	-4.97524271914E+01	1.62927290908E+02	-5.99661653837E+00	-1.16444815755E+00
2.78543171463E+06	-1.23383553480E+01	-1.76065966919E+02	8.97688982697E+00	1.67689032801E+02	-4.95351052934E+01	6.08203330650E+01	-5.99238210696E+00	-1.18956649021E+00
2.80762306923E+06	-1.42464392987E+01	-1.72405629698E+02	9.03673936630E+00	1.67976740528E+02	-5.09286336946E+01	1.52496171829E+02	-5.99940135329E+00	-1.21745060057E+00
2.82981442382E+06	-1.39439981060E+01	-1.54591998495E+02	9.04167881238E+00	1.67420694759E+02	-5.35088894250E+01	1.71569569038E+02	-5.98721204951E+00	-1.18676041102E+00
2.85200577842E+06	-1.79408242587E+01	-1.59170795544E+02	9.04551109073E+00	1.67865644599E+02	-5.36748733743E+01	-1.65497190819E+01	-6.00371252585E+00	-1.17544187612E+00
2.87419713301E+06	-1.44576864104E+01	-1.53711523987E+02	9.09188871355E+00	1.67425516321E+02	-4.57164113260E+01	-2.68382140252E+01	-5.99857604990E+00	-1.33353094719E+00
