# Hz S DB R 50
! CMT, M5065, 19127446, 24.2.4/2
! Date: 11/8/2024 3:02:40 PM
! Data: Format (Calibration Info)
! Freq	S11:dB/Ang(F2)	S21:dB/Ang(F2)	S12:dB/Ang(F2)	S22:dB/Ang(F2)
3.00000000000E+05	-1.34403454188E+01	-1.67039062833E+02	1.09371576842E+01	-1.77504963183E+02	-4.93468902808E+01	3.61874015431E+01	-5.97672982557E+00	-2.26429015380E-01
3.22191354595E+05	-1.31095068898E+01	1.71667257638E+02	1.09550502661E+01	-1.77737930183E+02	-4.45163656064E+01	-6.34729762705E+01	-6.01550081781E+00	-2.35470190279E-01
3.44382709190E+05	-1.41178110685E+01	-1.55598152606E+02	1.09647546505E+01	-1.78488903138E+02	-4.90631319841E+01	-8.18411183212E+01	-5.99291869422E+00	-1.19529163571E-01
3.66574063785E+05	-1.18207134698E+01	-1.78129240172E+02	1.09246332685E+01	-1.78746536117E+02	-5.42742880512E+01	-1.44138430668E+02	-5.98975979956E+00	-3.00813070483E-01
3.88765418380E+05	-1.05260767017E+01	-1.46343911003E+02	1.09883175598E+01	-1.79271633219E+02	-6.99238188305E+01	7.06530490993E+01	-6.01001398995E+00	-1.52828710945E-01
4.10956772975E+05	-1.43851326244E+01	-1.68623889953E+02	1.09861108871E+01	-1.79129597685E+02	-3.78188758768E+01	-7.45385483750E+01	-6.01497349761E+00	-2.83232783748E-01
4.33148127570E+05	-1.11603550510E+01	-1.74789563767E+02	1.09470366654E+01	-1.79582391947E+02	-5.54582585346E+01	-1.56907282185E+02	-6.00769330840E+00	-2.06317496389E-01
4.55339482165E+05	-1.28138891195E+01	1.75236566331E+02	1.09673046153E+01	-1.79626797108E+02	-4.76560976114E+01	1.34579424967E+02	-5.98666114001E+00	-3.88235795753E-01
4.77530836760E+05	-1.35654565062E+01	-1.78334933303E+02	1.09473050725E+01	1.79854185307E+02	-3.94431722299E+01	7.87144044809E+00	-6.02913884111E+00	-4.21909308117E-01
4.99722191355E+05	-1.45467690279E+01	-1.67575054034E+02	1.09849134408E+01	1.79684748164E+02	-4.37439979225E+01	8.00602911569E+01	-6.01307962063E+00	-3.66422952710E-01
5.21913545950E+05	-1.60368672770E+01	-1.66484148530E+02	1.09842687524E+01	1.79544578869E+02	-5.52170939034E+01	3.05937033388E+01	-5.99994372195E+00	-4.28964750511E-01
5.44104900545E+05	-1.15848344628E+01	1.78234243879E+02	1.09818078897E+01	1.79324295198E+02	-4.10296653647E+01	-1.06181301167E+02	-5.99945059208E+00	-2.05272230685E-01
5.66296255139E+05	-1.32340218707E+01	1.62060806730E+02	1.09779424121E+01	1.79287231396E+02	-4.74628590837E+01	-1.64810316738E+02	-5.97719582292E+00	-3.61249107121E-01
5.88487609734E+05	-1.39895176596E+01	1.78913497684E+02	1.09650539669E+01	1.78968472178E+02	-4.00851800474E+01	-9.98759909071E+01	-5.98861123498E+00	-5.21233596965E-02
6.10678964329E+05	-1.13278104095E+01	-1.63295585715E+02	1.09566182206E+01	1.78684849214E+02	-4.11041623966E+01	6.88354842316E+01	-5.99899481732E+00	1.11053823837E-01
6.32870318924E+05	-1.31808728944E+01	1.51981449742E+02	1.09570628080E+01	1.78889578531E+02	-4.56776020284E+01	1.54555151445E+01	-6.01471793978E+00	-2.74828653581E-01
6.55061673519E+05	-1.32227484091E+01	-1.71404810729E+02	1.09392592595E+01	1.78277422270E+02	-5.41277387153E+01	-1.52030475751E+01	-6.01409942065E+00	-3.53311862714E-01
6.77253028114E+05	-1.19994264025E+01	-1.71531729178E+02	1.09552009204E+01	1.78199730058E+02	-4.96677957171E+01	1.70633936675E+00	-6.01434578943E+00	-5.11448970434E-01
6.99444382709E+05	-1.37333678555E+01	-1.52514123286E+02	1.10060128336E+01	1.77813158813E+02	-4.89629455053E+01	6.73877459888E+01	-6.00156585976E+00	-4.12825570266E-01
7.21635737304E+05	-1.34957263953E+01	-1.53650141028E+02	1.10004889573E+01	1.77551070886E+02	-4.45976908978E+01	1.38374612969E+01	-6.02464887380E+00	-4.52028291344E-01
7.43827091899E+05	-2.16568159941E+01	-1.68932852488E+02	1.10015409985E+01	1.77863999504E+02	-5.72789890515E+01	1.20662324586E+02	-5.97825113348E+00	-3.89342188880E-01
7.66018446494E+05	-1.36128246826E+01	-1.53907445085E+02	1.09944827105E+01	1.77447155334E+02	-4.52073105695E+01	1.08093169172E+02	-5.98000282974E+00	-3.95741383981E-01
7.88209801089E+05	-1.42745499345E+01	-1.72407307919E+02	1.09663508758E+01	1.77347761981E+02	-5.08611512114E+01	1.70247630787E+02	-5.99420284360E+00	-2.69447289259E-01
8.10401155684E+05	-1.19612850611E+01	1.69697499682E+02	1.09716314142E+01	1.77391465570E+02	-5.45951195617E+01	-3.03584576071E-01	-6.01896115540E+00	-4.58574641593E-01
8.32592510279E+05	-1.50884326797E+01	-1.75089298454E+02	1.09786422946E+01	1.76969437707E+02	-5.04785712378E+01	7.75083514578E+01	-6.01871965845E+00	-3.38811501081E-01
8.54783864874E+05	-1.32979152785E+01	-1.62956360032E+02	1.09761335787E+01	1.76823207604E+02	-4.84837325515E+01	1.21479729653E+02	-5.98550684810E+00	-5.01717113611E-01
8.76975219469E+05	-1.37065694453E+01	-1.62682298532E+02	1.09575078294E+01	1.76716610919E+02	-5.03666400303E+01	9.49770781084E+01	-5.97177161111E+00	-5.34053109212E-01
8.99166574064E+05	-1.30948391581E+01	1.54158220852E+02	1.09622291242E+01	1.76670627109E+02	-4.92879885356E+01	-4.67091170890E+01	-5.99663183192E+00	-3.15076155050E-01
9.21357928659E+05	-1.27524820318E+01	-1.77366304384E+02	1.09720713492E+01	1.76403120924E+02	-4.12965858328E+01	-7.16358562190E+01	-6.00656924009E+00	-2.29558666230E-01
9.43549283254E+05	-1.38667497463E+01	1.73902896555E+02	1.09651404889E+01	1.76428772995E+02	-4.26847806233E+01	4.90675547777E+01	-6.00767359575E+00	-5.63442759083E-01
9.65740637849E+05	-1.29596375045E+01	-1.67864218651E+02	1.09798218835E+01	1.76189720388E+02	-4.41509161752E+01	1.09598411602E+02	-5.99404762495E+00	-3.55886132677E-01
9.87931992444E+05	-1.41724384749E+01	1.79621911926E+02	1.09625876439E+01	1.76353883079E+02	-4.44968596724E+01	1.65269382466E+02	-5.98535706893E+00	-4.41260206434E-01
1.01012334704E+06	-1.31898618564E+01	-1.79281419691E+02	1.09544907774E+01	1.75945075581E+02	-4.96279987123E+01	1.16478758494E+02	-5.98631330761E+00	-6.97617107081E-01
1.03231470163E+06	-1.48024829263E+01	-1.75089089488E+02	1.09961218090E+01	1.76001851000E+02	-4.28973406094E+01	-6.12082338069E+01	-5.98028370192E+00	-3.95010338039E-01
1.05450605623E+06	-1.46025881286E+01	1.79549563389E+02	1.09574190762E+01	1.75687588565E+02	-4.26621638972E+01	1.69177420647E+02	-5.96771445121E+00	-5.71020242114E-01
1.07669741082E+06	-1.40988043925E+01	1.77872174415E+02	1.09819690970E+01	1.75717937160E+02	-6.29262548720E+01	-5.55029355584E+00	-5.99994982838E+00	-5.62085871981E-01
1.09888876542E+06	-1.66461881849E+01	1.74070215275E+02	1.09796990125E+01	1.75569785313E+02	-4.70525558490E+01	4.38565937948E+01	-6.02245300943E+00	-6.44168318732E-01
1.12108012001E+06	-1.31138600510E+01	-1.67985002100E+02	1.09716691189E+01	1.75271244619E+02	-5.18478831763E+01	8.61140406567E+01	-5.99461355669E+00	-5.35962720485E-01
1.14327147461E+06	-1.66286131986E+01	-1.69352311132E+02	1.10105543533E+01	1.75296600392E+02	-4.48092768206E+01	1.46314030669E+02	-5.98136417412E+00	-5.43020206988E-01
1.16546282920E+06	-1.12044169885E+01	1.79848994741E+02	1.09250042717E+01	1.75031704757E+02	-4.34592141295E+01	-1.51437604828E+02	-5.98891177896E+00	-4.84481906575E-01
1.18765418380E+06	-1.13610632793E+01	-1.68354391323E+02	1.09531944789E+01	1.74704015329E+02	-5.22998874057E+01	-1.26031124180E+02	-6.01558215829E+00	-4.87570908110E-01
1.20984553839E+06	-9.83388608535E+00	-1.79124626869E+02	1.09150666288E+01	1.74651086926E+02	-4.45330349462E+01	1.42642025453E+02	-5.98684130925E+00	-8.11137668966E-01
1.23203689299E+06	-1.22507211543E+01	-1.71522274617E+02	1.09528746383E+01	1.74847914500E+02	-4.15773266068E+01	4.16809044477E+01	-6.01612315954E+00	-3.97816464252E-01
1.25422824758E+06	-1.23072567177E+01	-1.71999953758E+02	1.09536125286E+01	1.74247692478E+02	-4.23995871792E+01	1.32046854532E+02	-5.97836095413E+00	-5.56567738210E-01
1.27641960218E+06	-1.33995626157E+01	-1.69747773182E+02	1.09614545082E+01	1.74308955881E+02	-5.18161472282E+01	1.52072181351E+02	-5.98351086308E+00	-5.83031506828E-01
1.29861095677E+06	-1.36049565173E+01	1.79877164368E+02	1.09587551898E+01	1.74261108548E+02	-4.11848167205E+01	-4.73864648977E+01	-6.02313830707E+00	-5.71346130782E-01
1.32080231137E+06	-1.23299551717E+01	1.79968196176E+02	1.09931685865E+01	1.74152263954E+02	-4.90152018500E+01	1.29181995062E+01	-6.02801463670E+00	-1.04727152902E+00
1.34299366596E+06	-1.28826865836E+01	1.73040226861E+02	1.09259649907E+01	1.74146770041E+02	-4.39279317526E+01	-1.17427227484E+01	-6.01719253104E+00	-8.67311457782E-01
1.36518502056E+06	-1.38639084244E+01	-1.73855849244E+02	1.09607243243E+01	1.74037635410E+02	-4.27260277756E+01	-1.32491812956E+02	-5.99564280871E+00	-4.35892192882E-01
1.38737637515E+06	-1.35780363271E+01	-1.69470568219E+02	1.09880040624E+01	1.73763476548E+02	-5.26575676257E+01	1.24013245849E+02	-5.98335228571E+00	-6.40620445873E-01
1.40956772975E+06	-1.20617475451E+01	-1.74448836020E+02	1.09559764962E+01	1.73551770290E+02	-5.03596360257E+01	-5.43006909127E+01	-5.99109196844E+00	-5.86204298036E-01
1.43175908434E+06	-1.34912025760E+01	1.76327022500E+02	1.09656068250E+01	1.73762078918E+02	-4.48761066122E+01	-1.14930666573E+02	-6.00331620580E+00	-4.83190699861E-01
1.45395043894E+06	-1.21937157213E+01	1.59375305221E+02	1.09484950411E+01	1.73644052165E+02	-5.78541058901E+01	7.68066280444E+01	-5.99007044186E+00	-6.72600579304E-01
1.47614179353E+06	-1.46556246719E+01	1.72583121619E+02	1.09888395789E+01	1.73363980277E+02	-4.55614895447E+01	9.69502316348E+01	-6.02850264953E+00	-7.65164691110E-01
1.49833314813E+06	-1.94399132110E+01	-1.64597123887E+02	1.10155403784E+01	1.73462239444E+02	-4.43246105860E+01	-1.20447379647E+01	-5.99693373673E+00	-6.87147746153E-01
1.52052450272E+06	-1.36198841906E+01	1.54880699847E+02	1.09841690853E+01	1.73344972161E+02	-4.54264274456E+01	-2.82227463637E+01	-6.02076110593E+00	-7.20972212310E-01
1.54271585732E+06	-1.55347225291E+01	-1.76522689924E+02	1.09807660941E+01	1.73041926165E+02	-4.16298834190E+01	7.56369258459E+01	-5.99455496713E+00	-6.95059540985E-01
1.56490721191E+06	-1.38402146723E+01	-1.78655236698E+02	1.09981519038E+01	1.72748542024E+02	-4.57179295030E+01	1.41460512132E+02	-5.98837462318E+00	-8.22421923188E-01
1.58709856651E+06	-1.49842378816E+01	-1.78884434065E+02	1.09947232930E+01	1.72787127812E+02	-4.92158747139E+01	-6.40550233990E+01	-6.00614915971E+00	-6.31301714173E-01
1.60928992110E+06	-1.13643543215E+01	1.72350911291E+02	1.09450678662E+01	1.72651449535E+02	-4.89242289413E+01	-1.71046559913E+02	-5.97442844455E+00	-8.07021217102E-01
1.63148127570E+06	-1.53630378413E+01	-1.74727555686E+02	1.09862085931E+01	1.72667971968E+02	-4.39619373620E+01	1.32127523386E+02	-5.97559537572E+00	-6.33243962173E-01
1.65367263029E+06	-1.73425596646E+01	-1.70587476136E+02	1.09972328605E+01	1.72396659865E+02	-5.02709774454E+01	3.48946934085E+00	-6.00682207088E+00	-7.71068600937E-01
1.67586398489E+06	-1.45599844751E+01	-1.76884520277E+02	1.09862765869E+01	1.72293558339E+02	-3.96755982213E+01	-1.77987052095E+02	-5.98290440859E+00	-6.99217054165E-01
1.69805533948E+06	-1.61129012987E+01	1.74940418518E+02	1.09772975807E+01	1.72455441436E+02	-5.08381054669E+01	2.12675381874E+01	-6.02176284196E+00	-8.53575259777E-01
1.72024669408E+06	-1.03227905317E+01	-1.69561149882E+02	1.09374672848E+01	1.71564171882E+02	-4.80107199753E+01	2.03940203150E+01	-6.01495353530E+00	-7.24770589202E-01
1.74243804867E+06	-1.62169109167E+01	1.61400686962E+02	1.09901528116E+01	1.72222586648E+02	-4.05335027892E+01	1.01590103898E+02	-5.96123813637E+00	-8.60920901382E-01
1.76462940327E+06	-1.50303475872E+01	1.74401792452E+02	1.09945654391E+01	1.71710523363E+02	-3.83491517463E+01	-1.31116729269E+02	-5.98486570768E+00	-6.46751764146E-01
1.78682075786E+06	-1.23256106468E+01	-1.74195742686E+02	1.10083112518E+01	1.71781010693E+02	-4.72069962847E+01	-8.18369266713E+01	-5.99774038808E+00	-6.76297679526E-01
1.80901211246E+06	-1.24335136428E+01	-1.79223174204E+02	1.09755182436E+01	1.71386477953E+02	-3.93446134721E+01	-1.00592556622E+02	-6.00755062997E+00	-5.15939070250E-01
1.83120346705E+06	-1.80863720668E+01	1.75896716799E+02	1.10037282118E+01	1.71554658946E+02	-4.76586337077E+01	-1.43180148762E+02	-5.96423412067E+00	-7.29506824281E-01
1.85339482165E+06	-1.56222031892E+01	1.74316324889E+02	1.09806534256E+01	1.71259256759E+02	-4.94396287863E+01	-1.64346375461E+02	-5.98483621894E+00	-6.85089919571E-01
1.87558617624E+06	-1.28841920456E+01	-1.70466249730E+02	1.09533539453E+01	1.71118247172E+02	-4.82115739034E+01	3.36053706085E+01	-6.00606349347E+00	-9.59282008736E-01
1.89777753084E+06	-1.28745821583E+01	1.72814699991E+02	1.09836661134E+01	1.71236635571E+02	-5.09691693955E+01	-7.00635932769E+01	-5.99608681905E+00	-8.92343133355E-01
1.91996888543E+06	-1.39061386620E+01	-1.79716527949E+02	1.09803756083E+01	1.71012704148E+02	-4.56989073851E+01	1.17623358263E+02	-5.96858859465E+00	-8.26836828682E-01
1.94216024003E+06	-1.39476038348E+01	-1.56379287226E+02	1.10308293287E+01	1.70692270273E+02	-6.24401533533E+01	1.55017117148E+02	-6.00019093944E+00	-8.47894958601E-01
1.96435159462E+06	-1.27688163824E+01	-1.69969230106E+02	1.09672848704E+01	1.70564939311E+02	-3.58522760163E+01	-9.16362948513E+01	-6.02104956875E+00	-5.81503855785E-01
1.98654294922E+06	-1.46834675722E+01	-1.59589417952E+02	1.10111609220E+01	1.70564392487E+02	-4.23775528013E+01	9.90831224027E+01	-5.97274976634E+00	-1.05600480157E+00
2.00873430381E+06	-1.20691761149E+01	1.69708086174E+02	1.09645533894E+01	1.70697316677E+02	-6.63128223085E+01	-9.65486380812E+01	-5.98845708622E+00	-8.30227949008E-01
2.03092565841E+06	-1.26355302545E+01	-1.63385086700E+02	1.09869572915E+01	1.70201446129E+02	-4.51409442109E+01	-1.48782239981E+02	-5.99676893994E+00	-7.15174905060E-01
2.05311701300E+06	-1.29150669655E+01	-1.71069296010E+02	1.10008479755E+01	1.70252741698E+02	-5.34935011205E+01	1.39403871792E+02	-5.98824651244E+00	-9.38848828355E-01
2.07530836760E+06	-1.33652052595E+01	1.74529403901E+02	1.09779994357E+01	1.70230127744E+02	-4.79511082848E+01	5.18888302468E+01	-6.00924096853E+00	-9.30860146286E-01
2.09749972219E+06	-1.07920609789E+01	-1.65194827793E+02	1.09538691271E+01	1.69964742619E+02	-4.47999627546E+01	-2.29534256804E+01	-5.99665428812E+00	-9.00701451417E-01
2.11969107679E+06	-1.04952849435E+01	1.66872767395E+02	1.09424150798E+01	1.69770807887E+02	-3.11914457169E+01	-1.52049752616E+02	-5.98647430273E+00	-3.84888231667E-01
2.14188243138E+06	-1.31877416240E+01	1.70027311343E+02	1.09707144382E+01	1.69941627372E+02	-4.33605636385E+01	1.22150837667E+02	-5.97980630745E+00	-9.15495109043E-01
2.16407378598E+06	-1.89671280590E+01	-1.44188444712E+02	1.10555006607E+01	1.69739607089E+02	-4.57761784675E+01	-7.49405596634E+01	-6.01576392110E+00	-8.33838681901E-01
2.18626514057E+06	-1.37062001914E+01	-1.59477666018E+02	1.10383728490E+01	1.69480757909E+02	-4.62479785208E+01	1.13577135136E+02	-5.97576881780E+00	-9.87658601513E-01
2.20845649517E+06	-1.36304025221E+01	1.68189190336E+02	1.09735219343E+01	1.69558467947E+02	-5.67289912399E+01	-8.21830583595E+01	-6.00606642692E+00	-9.22678995604E-01
2.23064784976E+06	-1.35827446345E+01	-1.63889713082E+02	1.10340555090E+01	1.69431700016E+02	-4.13612099462E+01	1.20425051384E+02	-5.96077300803E+00	-1.18014531910E+00
2.25283920436E+06	-1.70824164340E+01	-1.04961730609E+02	1.10677838080E+01	1.69336799009E+02	-5.65194919665E+01	1.77170484710E+02	-5.99733381896E+00	-1.03226305613E+00
2.27503055895E+06	-8.21983214057E+00	-1.76170165420E+02	1.09818867468E+01	1.68504014079E+02	-4.53796357984E+01	-5.04864110547E+01	-6.00860535176E+00	-1.05906355224E+00
2.29722191355E+06	-1.24611758449E+01	1.64071416131E+02	1.09605678934E+01	1.69116254446E+02	-3.86438758412E+01	1.10163508237E+02	-5.95115853830E+00	-1.03487124474E+00
2.31941326814E+06	-1.28323727978E+01	-1.63039304490E+02	1.10053052547E+01	1.68764511135E+02	-4.30365700007E+01	-1.08926911648E+02	-5.99322913963E+00	-9.81303976085E-01
2.34160462274E+06	-1.21794611076E+01	-1.55770607380E+02	1.10012019124E+01	1.68448375450E+02	-4.16021943951E+01	1.75773393071E+02	-5.95548636700E+00	-9.51485035553E-01
2.36379597733E+06	-1.24142064529E+01	-1.64141543283E+02	1.10275612419E+01	1.68703824230E+02	-5.27312382849E+01	5.32680057179E+01	-6.00249956740E+00	-1.12430595174E+00
2.38598733193E+06	-1.36471219449E+01	-1.53432912284E+02	1.10162329828E+01	1.68318676419E+02	-4.79676074369E+01	-1.68140815193E+02	-5.99998090910E+00	-8.80064483505E-01
2.40817868652E+06	-1.20557452557E+01	-1.78410924375E+02	1.09775798273E+01	1.68325437848E+02	-4.66399088696E+01	-1.61996094384E+02	-5.96788368166E+00	-1.02330986603E+00
2.43037004112E+06	-1.44817716861E+01	-1.68951970915E+02	1.09997611375E+01	1.68346679561E+02	-4.31901850883E+01	8.12481373107E+01	-5.98544560664E+00	-1.49690124785E+00
2.45256139571E+06	-1.26783657725E+01	-1.78521876208E+02	1.10013811069E+01	1.68289555656E+02	-3.82584998695E+01	-1.44550938574E+02	-5.98029217989E+00	-7.24051819335E-01
2.47475275031E+06	-1.47852571739E+01	-1.70831778864E+02	1.10047783310E+01	1.68088302562E+02	-5.55380146249E+01	-4.79481896689E+01	-6.01075917425E+00	-1.08152158472E+00
2.49694410490E+06	-1.38359967510E+01	-1.74257353039E+02	1.09826412752E+01	1.68100578001E+02	-3.81998186502E+01	3.41723166741E+01	-6.04014028372E+00	-1.21040698242E+00
2.51913545950E+06	-1.38668465469E+01	-1.50213131015E+02	1.10165076144E+01	1.67481400535E+02	-5.02800497694E+01	1.32795381592E+02	-5.98178251288E+00	-1.20724673619E+00
2.54132681409E+06	-1.27591279477E+01	-1.61244048233E+02	1.10108039815E+01	1.67520201173E+02	-5.00470885971E+01	-9.68369970207E+01	-5.98671965786E+00	-1.07494025894E+00
2.56351816869E+06	-1.35674655520E+01	-1.79554247973E+02	1.09965660906E+01	1.67696432207E+02	-4.50553063002E+01	1.44280458322E+02	-5.97563341155E+00	-1.17185176635E+00
2.58570952328E+06	-1.54022122999E+01	1.75485930995E+02	1.09772554553E+01	1.67679467801E+02	-4.63794335628E+01	9.27930145849E+01	-5.99896013182E+00	-1.15151253578E+00
2.60790087788E+06	-1.51826982974E+01	-1.65293567262E+02	1.10432493581E+01	1.67394245157E+02	-3.80902954513E+01	8.88704380382E+01	-5.98716863919E+00	-1.09871443849E+00
2.63009223247E+06	-1.43813618765E+01	-1.73756035622E+02	1.10259530541E+01	1.67268232302E+02	-4.93589359788E+01	-2.56170059750E+01	-6.00532419966E+00	-6.20089432541E-01
2.65228358707E+06	-1.28445231793E+01	1.70513099612E+02	1.09893630050E+01	1.67219315181E+02	-4.23224470429E+01	1.72222120794E+01	-6.03764908970E+00	-1.23653260266E+00
2.67447494166E+06	-1.23590341370E+01	-1.68378119303E+02	1.10117832453E+01	1.66955502678E+02	-4.43174749273E+01	1.17000301613E+02	-5.97502748298E+00	-1.24545568312E+00
2.69666629626E+06	-1.31041186871E+01	1.70101648420E+02	1.09938805510E+01	1.66899870523E+02	-4.04056493688E+01	-3.16963844421E+01	-6.03907808306E+00	-1.22360359998E+00
2.71885765085E+06	-1.02488946380E+01	1.78611290973E+02	1.09739893507E+01	1.66594925869E+02	-5.03803313855E+01	-1.38075517211E+02	-5.98870256792E+00	-1.18128088747E+00
2.74104900545E+06	-1.05607905014E+01	-1.63212082139E+02	1.10280403061E+01	1.66476312909E+02	-3.80111618468E+01	-1.70832674673E+02	-5.97450225681E+00	-9.19556621097E-01
2.76324036004E+06	-1.05499563675E+01	-1.76086173031E+02	1.09999669072E+01	1.66333601908E+02	-4.18958136987E+01	-5.06710555635E+01	-6.03906882721E+00	-1.17634935760E+00
2.78543171463E+06	-1.11395374836E+01	-1.66355964191E+02	1.10320407992E+01	1.66343055399E+02	-3.64707448638E+01	1.63629949261E+02	-5.95480160591E+00	-1.14435747949E+00
2.80762306923E+06	-1.16522980378E+01	-1.58230385020E+02	1.10216143144E+01	1.66216056534E+02	-4.74314736107E+01	-1.21393740961E+01	-6.03900779571E+00	-1.20040129793E+00
2.82981442382E+06	-1.47650703971E+01	1.77160421931E+02	1.10170520188E+01	1.66365426613E+02	-4.25773931697E+01	1.55689885377E+02	-5.98775976407E+00	-1.18893892732E+00
2.85200577842E+06	-1.79181191299E+01	1.61683672497E+02	1.10267349221E+01	1.66425269706E+02	-4.82327074969E+01	1.09183680875E+02	-5.98255571484E+00	-1.39310897844E+00
2.87419713301E+06	-1.41977014212E+01	1.66674699059E+02	1.10281361220E+01	1.65976609203E+02	-4.42765853337E+01	1.47244242760E+02	-5.97065164723E+00	-1.31292736109E+00
