# Hz S DB R 50
! CMT, M5065, 19127446, 24.2.4/2
! Date: 11/8/2024 2:59:20 PM
! Data: Format (Calibration Info)
! Freq	S11:dB/Ang(F2)	S21:dB/Ang(F2)	S12:dB/Ang(F2)	S22:dB/Ang(F2)
3.00000000000E+05	-1.28225235707E+01	-1.73915693900E+02	9.33520389676E+00	-1.77720184929E+02	-3.97630902307E+01	8.95221487269E+01	-6.01513691529E+00	-4.28913076641E-01
3.22191354595E+05	-1.51841823728E+01	-1.71571303978E+02	9.37867361256E+00	-1.78028498328E+02	-4.67196193250E+01	1.38425349950E+02	-6.00202033056E+00	-2.10983217466E-01
3.44382709190E+05	-1.56486718352E+01	1.79550194908E+02	9.37991451833E+00	-1.78220890543E+02	-4.37879791204E+01	-3.93333685731E+01	-6.02460909651E+00	-1.64516338989E-01
3.66574063785E+05	-1.54656524708E+01	1.67117114804E+02	9.38693291089E+00	-1.78363487138E+02	-3.90909406314E+01	-6.52554205321E+01	-6.02472471731E+00	-2.82572546594E-02
3.88765418380E+05	-1.15861763613E+01	-1.77716851647E+02	9.32164542559E+00	-1.78869132566E+02	-4.95471322040E+01	-5.92395461095E+01	-5.99190530517E+00	-4.12819998645E-01
4.10956772975E+05	-1.31335130170E+01	1.76377533834E+02	9.35831257842E+00	-1.79093984079E+02	-5.95160776253E+01	1.07732931084E+02	-6.00305750598E+00	-3.48349670242E-01
4.33148127570E+05	-1.60114414438E+01	1.76824960905E+02	9.39105879864E+00	-1.79211811396E+02	-4.31506850592E+01	-1.41358450333E+02	-5.97862762951E+00	-2.73741362279E-01
4.55339482165E+05	-1.09433239121E+01	1.61120771438E+02	9.34667631977E+00	-1.79425890525E+02	-4.60211371584E+01	1.07280051965E+02	-6.01724927751E+00	-3.02043934191E-01
4.77530836760E+05	-1.86519072347E+01	-1.44473845583E+02	9.40671021697E+00	1.79924383897E+02	-4.03727982866E+01	6.72982588645E+01	-6.00032638863E+00	-4.52240943924E-01
4.99722191355E+05	-1.25591408447E+01	-1.76724856785E+02	9.35317315462E+00	-1.79810244904E+02	-4.12787461760E+01	1.39744475629E+02	-5.96918733391E+00	-3.66038654486E-01
5.21913545950E+05	-1.23136390649E+01	-1.66342512891E+02	9.35809755974E+00	1.79370808237E+02	-4.05028382014E+01	1.42425276101E+02	-5.95807851613E+00	-3.95262175364E-01
5.44104900545E+05	-1.39170691615E+01	-1.59340934441E+02	9.40628182099E+00	1.79182210817E+02	-4.04381874830E+01	-1.12369613455E+02	-5.99900693665E+00	-1.65157657760E-01
5.66296255139E+05	-1.98304616375E+01	1.44670196191E+02	9.37662995201E+00	1.79403564282E+02	-4.75576733720E+01	1.74972106276E+02	-5.98116328104E+00	-4.56720353488E-01
5.88487609734E+05	-1.47645326168E+01	-1.68248271975E+02	9.38647026658E+00	1.79281465909E+02	-5.21986262063E+01	1.54363302979E+02	-5.98968412048E+00	-3.68614985884E-01
6.10678964329E+05	-1.59931533838E+01	1.76754238351E+02	9.40491272333E+00	1.79136377496E+02	-4.40005284870E+01	-6.44907309350E+01	-6.00228279818E+00	2.45597770980E-01
6.32870318924E+05	-1.38352793564E+01	1.74843053340E+02	9.38415197589E+00	1.78961006146E+02	-5.21214498145E+01	4.17317156782E+01	-5.96545515742E+00	-1.45564866085E-01
6.55061673519E+05	-1.21290145589E+01	-1.79904608128E+02	9.33422534133E+00	1.78549311312E+02	-5.43114691693E+01	-7.26309297712E+01	-5.99230972932E+00	-2.63644531860E-01
6.77253028114E+05	-1.59988402624E+01	-1.76411317906E+02	9.41814247013E+00	1.78446145432E+02	-5.27396416349E+01	7.45336328382E+01	-6.01581830260E+00	-4.99069319234E-01
6.99444382709E+05	-1.27489126756E+01	-1.71438396439E+02	9.35658680224E+00	1.78257672800E+02	-4.63854263788E+01	-1.72811644913E+02	-5.97794348963E+00	-1.61962007126E-01
7.21635737304E+05	-1.31140791664E+01	1.74570846694E+02	9.35623166527E+00	1.78317180766E+02	-4.46275477694E+01	-1.06618708608E+02	-5.99229734581E+00	-3.03323612228E-01
7.43827091899E+05	-1.45766185673E+01	1.65187126249E+02	9.36867517524E+00	1.78387617424E+02	-5.23563094072E+01	-3.83871385516E+01	-6.00876099306E+00	-3.36139765619E-01
7.66018446494E+05	-1.60692240502E+01	-1.76891196010E+02	9.40725664036E+00	1.78026263551E+02	-5.25042099274E+01	-5.05184305173E+01	-6.00068657392E+00	-3.77620144532E-01
7.88209801089E+05	-1.26097785647E+01	-1.79100048183E+02	9.36702052253E+00	1.77831283689E+02	-4.29486547994E+01	6.55678474679E+01	-5.98921217259E+00	-4.34591691150E-01
8.10401155684E+05	-1.16779081356E+01	1.77922323845E+02	9.34389259023E+00	1.77578416185E+02	-5.31046331631E+01	-1.49129905555E+02	-5.98847691097E+00	-4.77317390109E-01
8.32592510279E+05	-1.23252270497E+01	1.72412807165E+02	9.34787117466E+00	1.77416183649E+02	-4.45118759964E+01	1.19263368183E+02	-5.98646795087E+00	-4.67879337396E-01
8.54783864874E+05	-1.61743225807E+01	-1.66896728787E+02	9.39563170256E+00	1.77198783685E+02	-5.25492078574E+01	-1.34753959027E+02	-5.98857886655E+00	-4.50116822061E-01
8.76975219469E+05	-1.55756560829E+01	-1.56919663619E+02	9.38410574370E+00	1.76958984483E+02	-5.13550081044E+01	-2.17339714044E+01	-6.01511812964E+00	-4.47634144704E-01
8.99166574064E+05	-1.62149653288E+01	1.61465552181E+02	9.39536074767E+00	1.77086327178E+02	-4.67193232218E+01	-1.44708748679E+02	-6.00355298367E+00	-3.16076555644E-01
9.21357928659E+05	-1.38053646136E+01	-1.68654013953E+02	9.36953330882E+00	1.76992850780E+02	-4.62545069092E+01	-1.43202344806E+02	-6.00109838565E+00	-4.02073313772E-01
9.43549283254E+05	-1.16573622303E+01	-1.65790669640E+02	9.35751322685E+00	1.76560375217E+02	-5.12978520142E+01	-4.75222132349E+01	-5.97832625688E+00	-3.49595814011E-01
9.65740637849E+05	-1.22927463256E+01	-1.76489151361E+02	9.37359410346E+00	1.76563564192E+02	-5.74225037700E+01	1.16133461842E+02	-5.99112192802E+00	-5.27685058675E-01
9.87931992444E+05	-1.56736156117E+01	-1.77843147948E+02	9.36440239532E+00	1.76324425969E+02	-4.82365111424E+01	-6.12308531010E+01	-5.99944086744E+00	-3.18786941285E-01
1.01012334704E+06	-1.24591013484E+01	-1.63633881622E+02	9.36143322382E+00	1.76278291438E+02	-4.17695367950E+01	6.41585069626E+00	-6.00264549236E+00	-3.99622731738E-01
1.03231470163E+06	-1.38693930903E+01	1.78905420013E+02	9.36442283352E+00	1.76421970336E+02	-6.04210531629E+01	-1.39969649746E+02	-5.98636401551E+00	-2.65870743977E-01
1.05450605623E+06	-1.37805642989E+01	1.78529495010E+02	9.38731111899E+00	1.76113780111E+02	-4.19822534057E+01	-9.18736820454E+01	-6.00298028456E+00	-2.01115037838E-01
1.07669741082E+06	-1.25551751472E+01	-1.64694844365E+02	9.40367310423E+00	1.75642458884E+02	-4.78611875242E+01	-8.28166918637E+01	-6.00303608931E+00	-3.76911224210E-01
1.09888876542E+06	-1.16185786708E+01	1.79416481728E+02	9.37729071337E+00	1.75978095705E+02	-3.89920862541E+01	7.39859714636E+01	-6.00448314767E+00	-5.62635212018E-01
1.12108012001E+06	-1.04644712302E+01	-1.72815304297E+02	9.33637839866E+00	1.75582713379E+02	-4.68047372203E+01	3.39185416319E+01	-5.98639975454E+00	-6.85618591204E-01
1.14327147461E+06	-1.16182073351E+01	-1.65268544266E+02	9.33769280052E+00	1.75478239621E+02	-4.71947012744E+01	-1.40982315194E+02	-5.98536994390E+00	-4.84494485931E-01
1.16546282920E+06	-1.71975977346E+01	-1.69561203406E+02	9.41235022683E+00	1.75621919195E+02	-4.74769268391E+01	-1.40022501811E+02	-5.99068158592E+00	-3.69486248864E-01
1.18765418380E+06	-1.38813986676E+01	1.66096790462E+02	9.39583110787E+00	1.75660116508E+02	-5.00406090304E+01	3.62654845714E+01	-5.99251084088E+00	-4.77503276085E-01
1.20984553839E+06	-1.53770399361E+01	1.71595315446E+02	9.39037224773E+00	1.75233057126E+02	-4.58625279420E+01	-1.72661675532E+02	-5.97078370705E+00	-6.62900397034E-01
1.23203689299E+06	-1.59332459990E+01	-1.66245277698E+02	9.40171656707E+00	1.75158253124E+02	-5.00334269998E+01	-1.45323531601E+02	-6.00962428254E+00	-2.32965785545E-01
1.25422824758E+06	-1.29058145062E+01	-1.59978596943E+02	9.38903239724E+00	1.74734498981E+02	-5.00212892995E+01	9.37185193408E+01	-5.98840567722E+00	-5.42970188190E-01
1.27641960218E+06	-1.40515272187E+01	1.59984263692E+02	9.38952874310E+00	1.75042017491E+02	-4.75177780332E+01	-1.68849817366E+02	-6.00533026898E+00	-6.28062195505E-01
1.29861095677E+06	-1.30406474452E+01	1.67144141068E+02	9.38642594735E+00	1.75084219986E+02	-5.09723910933E+01	-1.64422181523E+02	-6.00306247168E+00	-6.39614084899E-01
1.32080231137E+06	-9.36964100638E+00	-1.68281218872E+02	9.35335449681E+00	1.74408745058E+02	-3.76755868802E+01	7.32658201624E+01	-6.00325161267E+00	-1.14184178290E+00
1.34299366596E+06	-1.29206861720E+01	-1.72039941236E+02	9.37974580673E+00	1.74360307986E+02	-5.00584992505E+01	-1.47083893070E+02	-5.98726134959E+00	-5.31914213135E-01
1.36518502056E+06	-1.38485465246E+01	-1.67279806674E+02	9.37790919953E+00	1.74423422032E+02	-6.06119985072E+01	-4.74318381064E+01	-5.99475341507E+00	-5.89768630349E-01
1.38737637515E+06	-1.34126364549E+01	-1.52729810416E+02	9.38700928730E+00	1.74125351691E+02	-3.84048142824E+01	-6.87957628947E+01	-6.02067701934E+00	-4.92060874856E-01
1.40956772975E+06	-1.32737677084E+01	-1.55881152613E+02	9.39967663167E+00	1.74232256250E+02	-4.75395213784E+01	-9.93721368573E+01	-5.99763756168E+00	-6.05220800313E-01
1.43175908434E+06	-1.43625683951E+01	-1.71742364100E+02	9.39206884763E+00	1.73885619410E+02	-4.34788785725E+01	5.68136618251E+01	-5.98854801333E+00	-7.30699031616E-01
1.45395043894E+06	-1.17857689378E+01	-1.74339705081E+02	9.36207354607E+00	1.73789205575E+02	-4.31262640539E+01	-6.84214833908E+01	-5.99691958695E+00	-4.32917527683E-01
1.47614179353E+06	-1.64089982683E+01	1.72978596780E+02	9.39642738213E+00	1.74052387195E+02	-4.36607433762E+01	7.66432690645E+01	-6.00034707880E+00	-5.64560341687E-01
1.49833314813E+06	-1.58126932794E+01	-1.77947116602E+02	9.37715091225E+00	1.73760558035E+02	-4.28186897666E+01	1.46942769632E+02	-5.99431807293E+00	-7.12323965026E-01
1.52052450272E+06	-1.44063993221E+01	-1.61560989231E+02	9.36427931214E+00	1.73688407822E+02	-4.69728180076E+01	1.68564418598E+02	-6.00389516784E+00	-7.22895681610E-01
1.54271585732E+06	-1.30730413901E+01	1.69036711421E+02	9.36533711739E+00	1.73904032933E+02	-5.15603644395E+01	-1.36537758704E+01	-6.01393539921E+00	-8.01162949831E-01
1.56490721191E+06	-1.37946003502E+01	-1.51925770617E+02	9.40207867954E+00	1.73216228951E+02	-4.12472490629E+01	-1.72456908788E+02	-5.98794892100E+00	-5.67062935428E-01
1.58709856651E+06	-1.59250110763E+01	1.61320006878E+02	9.40613336421E+00	1.73657286779E+02	-5.61467107172E+01	3.50713031846E+01	-5.98911235975E+00	-7.36071085517E-01
1.60928992110E+06	-1.63325965544E+01	-1.78196855320E+02	9.37247606286E+00	1.73349803823E+02	-4.24467026188E+01	-1.67820834182E+02	-5.99060815548E+00	-5.84716167629E-01
1.63148127570E+06	-1.42366179747E+01	-1.76913523752E+02	9.39397804533E+00	1.73300318537E+02	-4.55882570581E+01	5.53240023815E+01	-6.02174416043E+00	-6.96768557348E-01
1.65367263029E+06	-9.33376764422E+00	1.70794155370E+02	9.33918924461E+00	1.72962317702E+02	-4.87725511805E+01	1.75638182023E+02	-5.98911788524E+00	-6.39531238761E-01
1.67586398489E+06	-1.58329740481E+01	-1.60229951292E+02	9.41706521492E+00	1.73068041509E+02	-4.87047062438E+01	-1.47243371599E+02	-5.99102427171E+00	-6.78173024001E-01
1.69805533948E+06	-1.27311112668E+01	1.73245354238E+02	9.35290310938E+00	1.73200757726E+02	-4.47477796780E+01	1.52714986786E+02	-6.00183135241E+00	-6.96951672289E-01
1.72024669408E+06	-1.33391474688E+01	-1.58214024004E+02	9.42089168115E+00	1.72634569178E+02	-4.08235588031E+01	6.71388397651E+01	-5.99452177241E+00	-8.64428296417E-01
1.74243804867E+06	-1.30760458408E+01	-1.77657983897E+02	9.38041751619E+00	1.72813603795E+02	-3.67355675554E+01	8.25522976221E+01	-5.96341028523E+00	-9.45463757039E-01
1.76462940327E+06	-1.44514354728E+01	-1.61042912481E+02	9.42030536986E+00	1.72610072371E+02	-4.37844126950E+01	5.82593309069E+01	-5.97986419486E+00	-7.84846139665E-01
1.78682075786E+06	-1.05294958996E+01	1.66763891384E+02	9.35688260030E+00	1.72581197726E+02	-5.05473534083E+01	9.84125306204E+01	-5.99121108770E+00	-9.25692209788E-01
1.80901211246E+06	-1.35418374180E+01	1.73476731583E+02	9.42548173286E+00	1.72445761046E+02	-4.02168350815E+01	1.63021851743E+02	-5.95362947441E+00	-7.68309357278E-01
1.83120346705E+06	-1.42711103743E+01	-1.57430284447E+02	9.41456744670E+00	1.71903568384E+02	-4.99842841085E+01	1.45069625455E+02	-5.96706245743E+00	-8.12632489486E-01
1.85339482165E+06	-1.21180512646E+01	-1.57583478226E+02	9.38985938397E+00	1.71843799765E+02	-4.59388626393E+01	3.08381939716E+01	-5.98722656279E+00	-9.72145907303E-01
1.87558617624E+06	-1.48705049687E+01	-1.56015280326E+02	9.41626744657E+00	1.71593697934E+02	-3.68807635510E+01	7.58890016200E+01	-5.99762807426E+00	-9.88056499793E-01
1.89777753084E+06	-1.12995981183E+01	-1.70360480138E+02	9.38800674048E+00	1.71704751416E+02	-4.22449454530E+01	5.23304352155E+01	-6.00656582789E+00	-9.61375556182E-01
1.91996888543E+06	-1.20265426400E+01	1.76882694310E+02	9.37032344707E+00	1.71687590780E+02	-5.05860860239E+01	-2.27277056601E+00	-6.00679896313E+00	-8.68259932137E-01
1.94216024003E+06	-1.45630190637E+01	-1.77321990655E+02	9.40869783692E+00	1.71442542527E+02	-5.67231572170E+01	1.78181409801E+02	-5.99449999539E+00	-9.23793117550E-01
1.96435159462E+06	-8.83264599922E+00	-1.79814356966E+02	9.36262004370E+00	1.71622733191E+02	-4.97031988815E+01	1.23584684512E+02	-5.99594075024E+00	-8.76013347642E-01
1.98654294922E+06	-1.16623693856E+01	-1.57318685264E+02	9.38358453892E+00	1.71202911297E+02	-4.43523722402E+01	-6.35018418274E+01	-6.00827532753E+00	-8.14535653914E-01
2.00873430381E+06	-1.79679436680E+01	-1.62529135446E+02	9.42471387593E+00	1.71360281589E+02	-4.64198340730E+01	-5.31054185268E+01	-6.02438652885E+00	-9.56489623745E-01
2.03092565841E+06	-1.46985964390E+01	-1.62123551989E+02	9.40724654626E+00	1.71277675060E+02	-3.95359300202E+01	-1.36933228630E+02	-5.97640140714E+00	-7.47896572701E-01
2.05311701300E+06	-1.37241069639E+01	1.73733584809E+02	9.38088740624E+00	1.71210967214E+02	-4.00962563296E+01	-3.21804881864E+01	-6.00616684572E+00	-8.00771440391E-01
2.07530836760E+06	-1.28442270703E+01	-1.46951835673E+02	9.42642955763E+00	1.70849928511E+02	-4.11453524434E+01	6.23266898377E+01	-5.98573684735E+00	-1.04683425316E+00
2.09749972219E+06	-1.83404203305E+01	1.51853687667E+02	9.41433509207E+00	1.71301086554E+02	-5.74500380182E+01	4.29965878905E+01	-6.00005368223E+00	-8.59417341714E-01
2.11969107679E+06	-1.23960876083E+01	1.54745825109E+02	9.37920677138E+00	1.70941648628E+02	-4.44931009827E+01	9.95155215716E+01	-6.00738252505E+00	-1.10894269423E+00
2.14188243138E+06	-1.24425641283E+01	-1.54709398486E+02	9.42943633663E+00	1.70491509576E+02	-4.27697018759E+01	7.80089981910E+01	-6.01882918024E+00	-1.00557842509E+00
2.16407378598E+06	-1.42896879474E+01	-1.73044893338E+02	9.42440528262E+00	1.70805387631E+02	-4.88522928260E+01	-6.71108715327E+01	-6.01019479198E+00	-9.09470414608E-01
2.18626514057E+06	-1.44209351453E+01	-1.64843193828E+02	9.42799140896E+00	1.70422539376E+02	-3.82567641955E+01	1.79090789637E+02	-5.96657533945E+00	-7.41355228465E-01
2.20845649517E+06	-1.52967885893E+01	1.69764000771E+02	9.41579833276E+00	1.70624198008E+02	-4.00012743174E+01	-7.17758045099E+01	-6.03348582408E+00	-9.12085928832E-01
2.23064784976E+06	-1.35536801891E+01	-1.70718906742E+02	9.37568844059E+00	1.70177449698E+02	-4.55252023138E+01	1.07909064025E+02	-5.99812891746E+00	-1.07226332588E+00
2.25283920436E+06	-1.66721199959E+01	1.79344346368E+02	9.39943536120E+00	1.70224494256E+02	-4.63924265294E+01	5.90435289909E+00	-6.01391611253E+00	-9.60341522016E-01
2.27503055895E+06	-1.32745923324E+01	1.71123942388E+02	9.41429100348E+00	1.70078673211E+02	-4.11509911612E+01	7.36848052711E+00	-5.99748480532E+00	-1.03940287741E+00
2.29722191355E+06	-1.15256812160E+01	-1.55318608593E+02	9.41693462638E+00	1.69716211464E+02	-4.25914918597E+01	1.33206995027E+02	-5.99377219659E+00	-9.33376397391E-01
2.31941326814E+06	-1.31058301458E+01	-1.79517764297E+02	9.41732379546E+00	1.69904865576E+02	-4.89657809465E+01	9.22483345621E+01	-5.99315938631E+00	-1.20232641418E+00
2.34160462274E+06	-1.43611088849E+01	-1.73311322967E+02	9.40603904906E+00	1.69804607313E+02	-4.36116367913E+01	-3.86020656336E+01	-5.98557875396E+00	-9.57254093261E-01
2.36379597733E+06	-1.20421625049E+01	-1.79449941495E+02	9.41587195430E+00	1.69614729093E+02	-3.55051440746E+01	6.40812893472E+01	-5.99563722309E+00	-1.50325329193E+00
2.38598733193E+06	-1.46286747070E+01	-1.77113354572E+02	9.44275742380E+00	1.69655782740E+02	-4.04275021723E+01	-1.28466896170E+02	-5.97416398728E+00	-7.56714286249E-01
2.40817868652E+06	-1.31000966498E+01	-1.62613888497E+02	9.45063395874E+00	1.69040424860E+02	-4.48257575382E+01	-4.88443548089E+00	-6.00073888093E+00	-1.14039107714E+00
2.43037004112E+06	-1.69076621983E+01	-1.61885475530E+02	9.43371240901E+00	1.69511603444E+02	-4.60955407601E+01	1.62552486466E+02	-5.98495426721E+00	-1.53996122509E+00
2.45256139571E+06	-1.54992855483E+01	1.74983365887E+02	9.43085803697E+00	1.69408128316E+02	-4.20943681156E+01	-1.35205647961E+02	-5.98978786019E+00	-1.00607851124E+00
2.47475275031E+06	-1.28348739449E+01	-1.57701083318E+02	9.46185422557E+00	1.68945210492E+02	-4.26465654321E+01	3.42421866202E+01	-6.00505501861E+00	-1.15679343141E+00
2.49694410490E+06	-1.37122513792E+01	-1.75990170681E+02	9.40896590160E+00	1.69064047503E+02	-4.96324991309E+01	-6.00351240781E+01	-6.01483377739E+00	-1.06925409814E+00
2.51913545950E+06	-1.38729549696E+01	-1.69898361745E+02	9.43989862891E+00	1.68905858385E+02	-4.18144452058E+01	7.29490676933E+01	-6.01562963456E+00	-1.30621488507E+00
2.54132681409E+06	-1.19818882574E+01	-1.70314171780E+02	9.40923412084E+00	1.68558781685E+02	-4.43202052576E+01	-1.02226270361E+02	-6.01815735431E+00	-8.16905689928E-01
2.56351816869E+06	-1.20907476238E+01	-1.79170364737E+02	9.41871549858E+00	1.68829962828E+02	-4.68314098919E+01	-1.40481157744E+02	-6.01319200074E+00	-1.02765025357E+00
2.58570952328E+06	-1.29368597406E+01	1.61745302829E+02	9.41699509095E+00	1.68857924278E+02	-4.86853930294E+01	1.50411363308E+02	-6.00040314673E+00	-1.22679020407E+00
2.60790087788E+06	-1.42481319728E+01	-1.73370952154E+02	9.44326873358E+00	1.68694600600E+02	-4.62866960567E+01	8.05544484304E+01	-6.00399878320E+00	-1.09447824758E+00
2.63009223247E+06	-1.41604531280E+01	-1.57976482969E+02	9.43019175268E+00	1.68533571239E+02	-4.29833911780E+01	4.34783737439E+01	-6.00641190005E+00	-9.50107316204E-01
2.65228358707E+06	-1.25356900184E+01	-1.72374013338E+02	9.43549546653E+00	1.68289098677E+02	-5.30136924069E+01	2.45918165971E+01	-6.00493660153E+00	-1.24922866005E+00
2.67447494166E+06	-1.35962687472E+01	-1.57982568151E+02	9.46942235763E+00	1.68006296806E+02	-4.03069620564E+01	-2.11088900790E+01	-6.02227240498E+00	-1.24899915148E+00
2.69666629626E+06	-1.18518247705E+01	-1.78526946258E+02	9.43687844465E+00	1.68063608426E+02	-4.52865276001E+01	-1.03898916496E+02	-6.02756863825E+00	-1.01649354666E+00
2.71885765085E+06	-1.18758994027E+01	1.75779323949E+02	9.39871899988E+00	1.67817308789E+02	-4.94075542813E+01	-1.50195704529E+02	-6.00338566064E+00	-1.13429600494E+00
2.74104900545E+06	-1.91941371151E+01	-1.56967017758E+02	9.44849672197E+00	1.68245386130E+02	-4.63681915254E+01	1.15640667589E+02	-5.97753068105E+00	-1.30758340936E+00
2.76324036004E+06	-1.17558916774E+01	-1.46167707405E+02	9.47125650716E+00	1.67416531704E+02	-5.15816185731E+01	-8.70538655673E+01	-6.00476617446E+00	-1.25767162171E+00
2.78543171463E+06	-1.21022065313E+01	-1.63489636489E+02	9.45072809691E+00	1.67300297866E+02	-4.41140082863E+01	1.48117180610E-01	-6.01561509900E+00	-1.24265954879E+00
2.80762306923E+06	-1.39662792103E+01	-1.77141644170E+02	9.42989095626E+00	1.67661328308E+02	-4.67390508452E+01	-8.64287972555E+01	-6.01082181885E+00	-1.11262068658E+00
2.82981442382E+06	-1.21994341615E+01	-1.75419221707E+02	9.45371840947E+00	1.67176619625E+02	-4.66312399264E+01	1.35840364943E+02	-5.98066206840E+00	-1.26347881272E+00
2.85200577842E+06	-1.15192015894E+01	-1.49410326638E+02	9.47178457124E+00	1.67030418500E+02	-4.42710118810E+01	-8.47849266363E+00	-5.99890029979E+00	-1.22778461844E+00
2.87419713301E+06	-1.38768433346E+01	1.77068293858E+02	9.42494516665E+00	1.67211705825E+02	-5.24408687660E+01	-1.61319973449E+02	-5.98864488676E+00	-1.20983126415E+00
