# Hz S DB R 50
! CMT, M5065, 19127446, 24.2.4/2
! Date: 11/8/2024 3:10:18 PM
! Data: Format (Calibration Info)
! Freq	S11:dB/Ang(F2)	S21:dB/Ang(F2)	S12:dB/Ang(F2)	S22:dB/Ang(F2)
3.00000000000E+05	-1.66883386280E+01	-1.68367222571E+02	1.24912648248E+01	-1.77301306428E+02	-4.74362115292E+01	3.44578937172E+01	-6.02193778722E+00	-2.34775291649E-01
3.22191354595E+05	-1.08866294453E+01	-1.72926551634E+02	1.24260254103E+01	-1.77999636875E+02	-5.21784275898E+01	1.68521221199E+02	-5.97850385323E+00	-3.54341507069E-01
3.44382709190E+05	-1.16872202031E+01	1.74866053342E+02	1.24325451619E+01	-1.78163710426E+02	-4.01128624338E+01	5.01499089774E+01	-6.02380918804E+00	-4.15209137238E-01
3.66574063785E+05	-1.33894556747E+01	-1.76085034436E+02	1.24953103197E+01	-1.78591758065E+02	-4.33572408090E+01	-7.53421856474E+01	-6.00031543815E+00	-2.35510915155E-01
3.88765418380E+05	-1.86267215389E+01	-1.24804252805E+02	1.25382186135E+01	-1.79375528726E+02	-4.17501910848E+01	-1.48515644859E+02	-5.96625589021E+00	-2.59180565672E-01
4.10956772975E+05	-1.07653652511E+01	-1.65473002924E+02	1.25061936862E+01	-1.79257726424E+02	-4.86223959380E+01	8.46182352921E+01	-6.01422711752E+00	-2.68907033343E-01
4.33148127570E+05	-1.60602069988E+01	-1.70074024565E+02	1.25292536699E+01	-1.79511882360E+02	-3.75391375921E+01	3.70123115077E+01	-5.99133173266E+00	-4.51208448985E-01
4.55339482165E+05	-1.66007800901E+01	-1.76292619221E+02	1.24975907687E+01	-1.79814727586E+02	-5.88770441749E+01	1.06258044646E+01	-6.00337710224E+00	-3.76284336745E-01
4.77530836760E+05	-1.47408059826E+01	-1.74972754843E+02	1.25105070212E+01	1.79942789023E+02	-4.59729870835E+01	2.05402062345E+01	-5.99195643426E+00	-3.21899141734E-01
4.99722191355E+05	-1.41426316959E+01	-1.72638518828E+02	1.24683221077E+01	1.79687825729E+02	-6.25450883611E+01	4.45439784601E+01	-6.00436587495E+00	-4.01795827695E-01
5.21913545950E+05	-1.25994729597E+01	1.68806997925E+02	1.24838870663E+01	1.79679704375E+02	-5.49072808550E+01	-1.38050573774E+02	-5.98707881682E+00	-3.26196588750E-01
5.44104900545E+05	-1.41268025909E+01	-1.67141061229E+02	1.25041337770E+01	1.79064038883E+02	-4.34306051384E+01	1.25559269760E+02	-5.99137184313E+00	-4.39483539752E-01
5.66296255139E+05	-1.27550693569E+01	-1.75733082022E+02	1.25014351708E+01	1.78831323541E+02	-5.59717804047E+01	-1.00149864268E+01	-5.99820991409E+00	-4.69052245774E-01
5.88487609734E+05	-1.47666283319E+01	-1.79834362551E+02	1.25004791218E+01	1.78787518074E+02	-4.90083369255E+01	-1.58634252522E+02	-5.97687130604E+00	-5.20493741499E-01
6.10678964329E+05	-1.76405699897E+01	-1.70556345212E+02	1.25198754808E+01	1.78609960949E+02	-4.25153052665E+01	7.01367198971E+01	-6.01891021086E+00	5.73926499757E-02
6.32870318924E+05	-1.36759157659E+01	1.69311820748E+02	1.24893883960E+01	1.78478825864E+02	-4.20791882711E+01	-8.29953722437E+01	-6.01690638521E+00	7.90796055253E-02
6.55061673519E+05	-1.50978990445E+01	-1.66968900891E+02	1.24742012900E+01	1.77948286181E+02	-5.03799290829E+01	5.21797681091E+01	-5.99681658242E+00	-3.03041608064E-01
6.77253028114E+05	-1.14185063148E+01	-1.79167539980E+02	1.24631929425E+01	1.77884418780E+02	-6.00693915966E+01	-6.94867409036E+01	-6.00665853823E+00	-7.70562361982E-01
6.99444382709E+05	-1.39280808073E+01	1.70087489863E+02	1.24964883974E+01	1.77781685778E+02	-4.66637328336E+01	-3.47170907190E+01	-6.00606729319E+00	-3.40985381317E-01
7.21635737304E+05	-1.52855877547E+01	-1.74856338877E+02	1.24948485281E+01	1.77595044755E+02	-4.80034596082E+01	1.78665804011E+02	-5.99423120707E+00	-3.59259332589E-01
7.43827091899E+05	-1.31865289172E+01	-1.73117144216E+02	1.24941643441E+01	1.77619707248E+02	-4.40861619151E+01	-7.61294224106E-01	-6.01032949495E+00	-5.80483765026E-01
7.66018446494E+05	-1.36279926755E+01	1.63751879370E+02	1.24867400181E+01	1.77294944597E+02	-4.54945101785E+01	-8.78447197876E+01	-5.94853241550E+00	-2.36262305798E-01
7.88209801089E+05	-1.45829804583E+01	-1.72155311096E+02	1.24785808934E+01	1.77173201182E+02	-4.42172353830E+01	-7.40251921968E+01	-6.01563781488E+00	-4.28742284082E-01
8.10401155684E+05	-1.33033894184E+01	-1.63504111790E+02	1.25029620171E+01	1.76723649147E+02	-4.25484974810E+01	1.67641682489E+02	-5.96040326245E+00	-4.99299122628E-01
8.32592510279E+05	-1.47088345993E+01	-1.62510204712E+02	1.25015867951E+01	1.76704502655E+02	-5.16356195143E+01	-3.61633496247E+01	-6.02072949414E+00	-4.12935831637E-01
8.54783864874E+05	-1.45882280876E+01	-1.67756142862E+02	1.24835768447E+01	1.76376405939E+02	-5.01251476385E+01	1.55386872852E+02	-5.99178947171E+00	-4.86267147921E-01
8.76975219469E+05	-1.35768325777E+01	1.62239256761E+02	1.24950522336E+01	1.76800713336E+02	-4.52694996080E+01	-1.09341446518E+02	-5.97526050853E+00	-2.91031335918E-01
8.99166574064E+05	-1.21803832284E+01	-1.60050127253E+02	1.24879242776E+01	1.76269004795E+02	-5.19186128306E+01	8.04739491886E+01	-5.99627767787E+00	-4.00574271728E-01
9.21357928659E+05	-1.35587856692E+01	-1.76653675916E+02	1.25049412436E+01	1.76154431293E+02	-3.69480849638E+01	-3.34010146544E+01	-6.04611901924E+00	-4.52124301302E-01
9.43549283254E+05	-1.19510896595E+01	-1.79406267417E+02	1.24772072142E+01	1.76012759425E+02	-4.13567423801E+01	-6.66138395572E+01	-6.02107892188E+00	-3.00010775364E-01
9.65740637849E+05	-1.69580229270E+01	-1.79299338266E+02	1.25070242569E+01	1.75798819055E+02	-5.14861930059E+01	5.61696608099E+01	-5.98824544113E+00	-5.05657503190E-01
9.87931992444E+05	-1.46616013467E+01	-1.67435682659E+02	1.25116183534E+01	1.75679457649E+02	-4.58831096297E+01	-6.26076179979E+01	-6.01340421795E+00	-4.60254994422E-01
1.01012334704E+06	-1.16972555563E+01	-1.77678117240E+02	1.24563616597E+01	1.75703331759E+02	-5.27587079750E+01	1.79592348090E+02	-6.00518120915E+00	-5.57265459483E-01
1.03231470163E+06	-1.55070371321E+01	-1.60798309065E+02	1.24880753700E+01	1.75350930793E+02	-5.21485808986E+01	2.39689773519E+01	-6.01878824039E+00	-4.57581409636E-01
1.05450605623E+06	-1.35260032852E+01	-1.59834309148E+02	1.24856211361E+01	1.75198119166E+02	-4.58232148076E+01	1.40936492356E+02	-5.99429062801E+00	-5.63997231619E-01
1.07669741082E+06	-1.82749833871E+01	-1.76095181987E+02	1.25252073788E+01	1.75147496103E+02	-5.42926136215E+01	-1.43289914590E+02	-6.01883851228E+00	-4.63668367945E-01
1.09888876542E+06	-1.90294733897E+01	1.57212288226E+02	1.25427762909E+01	1.75205915879E+02	-5.29474743334E+01	-1.36366468872E+02	-5.99764531467E+00	-4.26962667438E-01
1.12108012001E+06	-1.73619084635E+01	-1.62252997333E+02	1.25161159733E+01	1.74695284959E+02	-4.90245470442E+01	1.46463409838E+02	-5.96051527821E+00	-4.85461703471E-01
1.14327147461E+06	-1.34748015829E+01	-1.78192057871E+02	1.24999725233E+01	1.74630170449E+02	-4.81675535133E+01	-2.22799255894E+01	-6.00293700288E+00	-5.41404822828E-01
1.16546282920E+06	-1.60024551960E+01	-1.74842435010E+02	1.25185452967E+01	1.74404974025E+02	-4.46186723439E+01	3.25261094893E+01	-6.02660304250E+00	-5.88828294459E-01
1.18765418380E+06	-1.42115237607E+01	-1.67151212563E+02	1.24860274450E+01	1.74298226016E+02	-5.48769887173E+01	-1.48300543648E+02	-5.99032254712E+00	-5.38287957259E-01
1.20984553839E+06	-1.39169194192E+01	-1.79405277559E+02	1.24831064982E+01	1.74298703044E+02	-3.54998852827E+01	-5.99676816324E+01	-6.03231440405E+00	-5.04938713133E-01
1.23203689299E+06	-1.34594845384E+01	-1.65531972836E+02	1.24824720634E+01	1.74121891941E+02	-4.19943712141E+01	-4.60385369526E+01	-6.03224193054E+00	-2.65818085920E-01
1.25422824758E+06	-1.36332331736E+01	-1.66718178347E+02	1.24900431119E+01	1.73860756537E+02	-4.41098599420E+01	3.16223832863E+01	-6.02767900567E+00	-5.73950511809E-01
1.27641960218E+06	-1.41091447524E+01	-1.60328852066E+02	1.24942393777E+01	1.73686495074E+02	-4.44575001603E+01	8.55609978876E+01	-5.99814883424E+00	-8.47651781150E-01
1.29861095677E+06	-1.23441496616E+01	-1.77491368184E+02	1.24708829099E+01	1.73661527398E+02	-4.73086522183E+01	-7.11827613374E+01	-6.00287165342E+00	-4.74213603075E-01
1.32080231137E+06	-1.43638087969E+01	-1.61514615639E+02	1.25315078250E+01	1.73542451861E+02	-4.86182270930E+01	7.71224666554E+01	-5.98764304504E+00	-1.10040143757E+00
1.34299366596E+06	-1.35619982264E+01	1.70226910278E+02	1.24705893747E+01	1.73356030758E+02	-4.49592789433E+01	-9.71538534077E+01	-6.00246518324E+00	-5.46658616118E-01
1.36518502056E+06	-1.16640599965E+01	1.78924553115E+02	1.24664161508E+01	1.73221975213E+02	-4.36930331921E+01	7.40935915918E+01	-6.00119246477E+00	-6.47580896994E-01
1.38737637515E+06	-1.39387708692E+01	-1.68399264001E+02	1.25059505608E+01	1.73003652672E+02	-3.76953243254E+01	1.03918924562E+02	-5.98690104554E+00	-8.19648250502E-01
1.40956772975E+06	-1.22779280348E+01	-1.71562562959E+02	1.24972784647E+01	1.72874506841E+02	-4.54138573450E+01	-2.91754009574E+01	-6.02193893253E+00	-6.04858096774E-01
1.43175908434E+06	-1.37300673093E+01	-1.76000716278E+02	1.24736331958E+01	1.72958379837E+02	-4.46480712305E+01	-6.97700871470E+01	-6.01246016908E+00	-6.42475094691E-01
1.45395043894E+06	-1.18634527206E+01	-1.71977725367E+02	1.24710068842E+01	1.72665683302E+02	-4.85959002778E+01	2.64715956029E+01	-6.00244947628E+00	-8.15266996403E-01
1.47614179353E+06	-1.55052063639E+01	-1.49035827480E+02	1.25045666168E+01	1.72588599569E+02	-5.14814410823E+01	-1.12213645851E+02	-5.98406314416E+00	-7.04452401087E-01
1.49833314813E+06	-1.21459409200E+01	-1.55971043147E+02	1.24812680482E+01	1.72258028799E+02	-4.35071153951E+01	-1.30921340170E+02	-5.99464865046E+00	-4.12803955088E-01
1.52052450272E+06	-1.33745821214E+01	-1.66730042683E+02	1.24935372276E+01	1.72177990905E+02	-3.75489186408E+01	-1.73402884913E+02	-5.95025684076E+00	-4.78005622525E-01
1.54271585732E+06	-1.58036580859E+01	-1.75470172140E+02	1.25048408527E+01	1.72333841148E+02	-5.04428087744E+01	-1.31782373748E+02	-6.01195100855E+00	-7.80243071518E-01
1.56490721191E+06	-1.21775559212E+01	1.78480492158E+02	1.24661726264E+01	1.72191186757E+02	-6.58371754128E+01	7.86120561115E+01	-6.00023845647E+00	-5.81693405583E-01
1.58709856651E+06	-1.47925739243E+01	-1.76900932640E+02	1.24767329664E+01	1.72019649770E+02	-4.64991506330E+01	1.16929926369E+02	-5.99316746464E+00	-7.05412276399E-01
1.60928992110E+06	-1.38031523675E+01	1.76715537800E+02	1.24912568673E+01	1.71811027575E+02	-4.04257875435E+01	1.44048847415E+02	-5.95629465139E+00	-8.71340772677E-01
1.63148127570E+06	-1.37928270249E+01	1.52984451402E+02	1.24878039230E+01	1.71837746463E+02	-5.43301058324E+01	-1.70660988863E+01	-5.99755112685E+00	-8.06560766046E-01
1.65367263029E+06	-1.30205209891E+01	-1.62576172365E+02	1.25261461540E+01	1.71327076525E+02	-4.41799916682E+01	-7.30784301149E+01	-6.01568883431E+00	-7.34114428443E-01
1.67586398489E+06	-1.61660701483E+01	-1.74252103589E+02	1.25180461662E+01	1.71476828468E+02	-4.52369577182E+01	-1.46311905748E+02	-5.96458779172E+00	-7.11227292028E-01
1.69805533948E+06	-1.65711725996E+01	-1.70290878047E+02	1.25206927165E+01	1.71381936798E+02	-3.36360083055E+01	-1.47457398151E+02	-5.98238127257E+00	-4.61613649754E-01
1.72024669408E+06	-1.33753804720E+01	-1.69358853670E+02	1.24971593410E+01	1.71016615201E+02	-3.91730748137E+01	-1.51097451049E+02	-5.96005149140E+00	-5.07912576508E-01
1.74243804867E+06	-1.46171351440E+01	-1.51536799029E+02	1.25282766573E+01	1.70664526315E+02	-4.18886560576E+01	-8.46957513673E+01	-5.99282693749E+00	-5.05476018937E-01
1.76462940327E+06	-1.25338260382E+01	-1.71237243240E+02	1.24966788419E+01	1.70931038128E+02	-4.37650207878E+01	-3.35961407415E+01	-6.03281124574E+00	-7.72149885974E-01
1.78682075786E+06	-1.61596290203E+01	-1.77440165759E+02	1.25211692568E+01	1.70837263879E+02	-4.92816548819E+01	-1.27598410584E+02	-6.01501796567E+00	-7.73117509341E-01
1.80901211246E+06	-1.26995125086E+01	-1.67936248516E+02	1.25049863490E+01	1.70553670409E+02	-4.67890629117E+01	6.49263686943E+01	-5.98905907622E+00	-9.71969894570E-01
1.83120346705E+06	-1.76560521418E+01	-1.78013356438E+02	1.25127167475E+01	1.70688487190E+02	-5.37492298590E+01	-3.92138595244E+01	-5.99855627792E+00	-7.00651589614E-01
1.85339482165E+06	-1.56965915419E+01	-1.75087720275E+02	1.24832762121E+01	1.70191965141E+02	-4.02890720651E+01	1.09979028737E+01	-6.02805459576E+00	-8.92711992935E-01
1.87558617624E+06	-1.33229495530E+01	-1.75845423935E+02	1.24966590505E+01	1.70191896206E+02	-5.14242092971E+01	-8.95612609436E+01	-5.98475483267E+00	-7.38138982200E-01
1.89777753084E+06	-1.38076658107E+01	-1.78714735593E+02	1.24999077605E+01	1.70133216634E+02	-4.60124533012E+01	-1.48190234395E+02	-5.97719854561E+00	-7.80344364776E-01
1.91996888543E+06	-1.21275706296E+01	-1.65065756617E+02	1.24808824861E+01	1.69809343977E+02	-6.08219594777E+01	2.18760432107E+01	-5.99522544732E+00	-7.26159470177E-01
1.94216024003E+06	-1.39954440780E+01	1.45410930397E+02	1.24929276668E+01	1.70088367230E+02	-4.71453194862E+01	-1.01684721344E+02	-6.02336400475E+00	-8.56390957936E-01
1.96435159462E+06	-1.69194291245E+01	-1.09572811358E+02	1.25657359102E+01	1.70068369817E+02	-4.37798810874E+01	5.25703290510E+01	-6.01926314607E+00	-1.11308682789E+00
1.98654294922E+06	-1.30870731664E+01	-1.60476149666E+02	1.25112003105E+01	1.69472762181E+02	-4.11021508551E+01	1.54272945279E+02	-5.96637163977E+00	-7.99286599863E-01
2.00873430381E+06	-1.79260357997E+01	1.51482648948E+02	1.25130790385E+01	1.69756837974E+02	-4.99005239758E+01	-1.07210779087E+02	-5.98972977420E+00	-8.90299062493E-01
2.03092565841E+06	-1.24989567808E+01	-1.78475907900E+02	1.25095312156E+01	1.69300723514E+02	-7.56840175130E+01	-1.50998390387E+02	-6.00866836453E+00	-8.91166817158E-01
2.05311701300E+06	-1.27598119939E+01	-1.66651940590E+02	1.24963009764E+01	1.68920745628E+02	-5.38747771590E+01	1.45476412183E+02	-5.97731739816E+00	-8.16196892624E-01
2.07530836760E+06	-1.33002236471E+01	-1.74221263515E+02	1.24755783575E+01	1.69016776028E+02	-4.69644102494E+01	-8.50856589685E+01	-6.02450205751E+00	-7.95605775073E-01
2.09749972219E+06	-1.30786668307E+01	-1.35120122404E+02	1.25714882519E+01	1.68771045454E+02	-4.03729204734E+01	1.67262726430E+02	-5.96347240176E+00	-8.20941971422E-01
2.11969107679E+06	-1.68914720352E+01	1.67186720951E+02	1.25031660272E+01	1.69241097068E+02	-4.51014832538E+01	-3.83620916081E+01	-6.04333630602E+00	-8.02184057996E-01
2.14188243138E+06	-1.37821104576E+01	-1.78889168899E+02	1.25004020099E+01	1.68665218822E+02	-3.90081344183E+01	-7.73221601390E+01	-5.99104476173E+00	-9.62643951889E-01
2.16407378598E+06	-1.44478274213E+01	-1.75542172804E+02	1.25226879854E+01	1.68690300454E+02	-3.27649903656E+01	8.90553802444E+01	-5.94159182663E+00	-1.31494203452E+00
2.18626514057E+06	-1.41042052755E+01	-1.67952878616E+02	1.25118994825E+01	1.68434018835E+02	-4.83352188538E+01	-5.42422795474E+01	-6.00297464102E+00	-9.94403566096E-01
2.20845649517E+06	-1.28355081599E+01	-1.70444739469E+02	1.24880763383E+01	1.68378048388E+02	-4.47019215480E+01	6.97623451361E+00	-6.00806998698E+00	-1.07453578244E+00
2.23064784976E+06	-1.61239067199E+01	1.72891599830E+02	1.25099516142E+01	1.68381184343E+02	-4.40012010807E+01	-1.10905464657E+02	-5.98394242525E+00	-9.19221220845E-01
2.25283920436E+06	-1.55604957062E+01	1.78992836411E+02	1.24999539809E+01	1.68241983981E+02	-4.97183483577E+01	1.66954167974E+02	-5.98749812542E+00	-9.41077964165E-01
2.27503055895E+06	-1.01923420415E+01	1.66201211692E+02	1.24734678890E+01	1.67838388359E+02	-5.43765044082E+01	3.87090723964E+01	-6.00031216466E+00	-1.05663889777E+00
2.29722191355E+06	-1.22730286060E+01	-1.63811323921E+02	1.24911576716E+01	1.67627056454E+02	-4.54818236882E+01	1.79016987383E+02	-5.99879819214E+00	-9.85320322614E-01
2.31941326814E+06	-1.45897878740E+01	-1.58866562962E+02	1.25363508173E+01	1.67498747206E+02	-3.52820901920E+01	1.22664898001E+02	-5.94840203491E+00	-1.06368072784E+00
2.34160462274E+06	-1.12793188692E+01	-1.62991973206E+02	1.24986878657E+01	1.67181953188E+02	-3.96333087046E+01	8.10280349183E+01	-5.99727885595E+00	-1.37615568571E+00
2.36379597733E+06	-1.58231915758E+01	-1.59550312073E+02	1.25308348697E+01	1.67449676970E+02	-5.66703285421E+01	1.49289090423E+02	-5.98107058853E+00	-1.08326770800E+00
2.38598733193E+06	-1.54613635185E+01	-1.54518359482E+02	1.25331452164E+01	1.67445261173E+02	-4.47485375771E+01	5.38793778804E+01	-5.98964905659E+00	-1.22120628007E+00
2.40817868652E+06	-1.58828946818E+01	1.64460051250E+02	1.24991501845E+01	1.67415799272E+02	-3.95402189610E+01	-8.03901552015E+01	-5.99919469691E+00	-9.60349300930E-01
2.43037004112E+06	-1.04867818635E+01	-1.68303405576E+02	1.25031211695E+01	1.66655527377E+02	-4.22910442356E+01	1.38555543772E+02	-5.98002773351E+00	-1.72542288920E+00
2.45256139571E+06	-1.24050553301E+01	-1.64231222405E+02	1.25402387617E+01	1.66743992575E+02	-4.52237866180E+01	-4.46245609357E+01	-6.03210077414E+00	-9.87382678499E-01
2.47475275031E+06	-1.66249486929E+01	-1.66287125897E+02	1.25513318388E+01	1.66873667288E+02	-3.00861918748E+01	-7.03950390662E+01	-6.12760980540E+00	-6.47071280859E-01
2.49694410490E+06	-1.10931345830E+01	-1.63148835002E+02	1.25212876060E+01	1.66324412131E+02	-4.51265790108E+01	-7.19407309009E+01	-6.02501381116E+00	-9.37350692617E-01
2.51913545950E+06	-1.46685512418E+01	-1.79709834562E+02	1.25216503658E+01	1.66684356583E+02	-5.24099489741E+01	-1.34644729585E+02	-5.99736044055E+00	-9.64813858359E-01
2.54132681409E+06	-1.21911085399E+01	-1.58099457497E+02	1.25193124979E+01	1.66364215780E+02	-5.30861969081E+01	-1.08619201069E+02	-6.00103211943E+00	-1.05098376897E+00
2.56351816869E+06	-1.33875526187E+01	1.67581675146E+02	1.25136882905E+01	1.66371466281E+02	-5.14488194041E+01	1.54207364810E+02	-5.97301699573E+00	-1.07572045406E+00
2.58570952328E+06	-1.05385147395E+01	1.53752190670E+02	1.24576998206E+01	1.66364607409E+02	-4.43892463869E+01	-6.53911162698E+01	-5.99203487994E+00	-1.05506789773E+00
2.60790087788E+06	-1.53351804201E+01	-1.71175740316E+02	1.25469360783E+01	1.65982679564E+02	-5.49037265008E+01	1.57343002007E+02	-6.00592510823E+00	-1.13221261506E+00
2.63009223247E+06	-1.49038673403E+01	-1.74209300338E+02	1.25436323719E+01	1.65977075597E+02	-4.35587479525E+01	1.60329533218E+02	-5.96194567394E+00	-8.24152140621E-01
2.65228358707E+06	-1.22147843973E+01	1.71894851721E+02	1.24907111420E+01	1.65725748690E+02	-5.48618999090E+01	-1.00446763315E+02	-5.99448119950E+00	-1.01529417612E+00
2.67447494166E+06	-1.25440571479E+01	1.65855990261E+02	1.24817955035E+01	1.65672586308E+02	-5.02471534851E+01	-1.53449132531E+02	-5.99805940212E+00	-1.11924937300E+00
2.69666629626E+06	-1.41675687414E+01	-1.74537118896E+02	1.25330646541E+01	1.65484665809E+02	-4.41004554176E+01	-9.69326826176E+01	-6.01405684324E+00	-1.06698524328E+00
2.71885765085E+06	-1.27404682554E+01	-1.55045440553E+02	1.25723090423E+01	1.65331324474E+02	-6.03161349356E+01	-1.77625091145E+02	-5.98251160299E+00	-1.24181747081E+00
2.74104900545E+06	-1.33970424103E+01	1.58808182453E+02	1.25094691336E+01	1.65486223159E+02	-4.08419841004E+01	-1.73018858004E+02	-5.95735378322E+00	-1.12960196793E+00
2.76324036004E+06	-1.20782317010E+01	-1.64997329389E+02	1.25248200636E+01	1.64986370790E+02	-5.63256130737E+01	-1.74368786746E+01	-5.98914858373E+00	-1.26914053436E+00
2.78543171463E+06	-1.38547021708E+01	-1.63671248025E+02	1.25420938097E+01	1.65091716503E+02	-4.61197369562E+01	1.30383167436E+02	-5.97409432243E+00	-1.15434764851E+00
2.80762306923E+06	-1.25554292105E+01	-1.76261560120E+02	1.25367449982E+01	1.64916134660E+02	-3.95511703545E+01	-4.68020999635E+01	-6.06711242833E+00	-1.11421320627E+00
2.82981442382E+06	-1.51619950117E+01	1.78229194440E+02	1.25419499576E+01	1.64935963629E+02	-4.46575552593E+01	-2.37244160629E+01	-6.03349766125E+00	-1.20661559358E+00
2.85200577842E+06	-1.27528684978E+01	-1.59896236455E+02	1.25439152311E+01	1.64473128379E+02	-4.59622035597E+01	-6.28547841944E+01	-6.01978997796E+00	-1.20216195276E+00
2.87419713301E+06	-1.22781619867E+01	-1.62068793584E+02	1.25650678951E+01	1.64428253536E+02	-4.29989830823E+01	1.32388012986E+02	-5.94437142791E+00	-1.22194583127E+00
