# Hz S DB R 50
! CMT, M5065, 19127446, 24.2.4/2
! Date: 12/3/2024 4:23:48 PM
! Data: Format (Calibration Info)
! Freq	S11:dB/Ang(F2)	S21:dB/Ang(F2)	S12:dB/Ang(F2)	S22:dB/Ang(F2)
3.00000000000E+05	-5.64342197948E+00	-1.75061175989E+02	3.21952966968E+01	8.64026078418E+01	-5.22562674972E+01	-2.88973338544E+01	-2.74123670010E+01	1.57079545924E+01
3.49972219135E+05	-6.17929371571E+00	-1.78235227134E+02	3.35520134118E+01	7.91636426288E+01	-5.02134195084E+01	1.13329142312E+02	-3.57210295761E+01	-1.54719694189E+02
3.99944438271E+05	-4.97652545736E+00	-1.70537712932E+02	3.43988173695E+01	7.18818763340E+01	-4.23674471438E+01	1.19054674444E+02	-2.17334506109E+01	-1.59270117555E+02
4.49916657406E+05	-5.99169988309E+00	1.79470688422E+02	3.53586688587E+01	6.78173026937E+01	-6.02409627650E+01	1.05527600482E+02	-4.00141005575E+01	1.39819140770E+01
4.99888876542E+05	-4.98562791785E+00	1.79726667637E+02	3.58700751059E+01	6.30931296008E+01	-4.94668494930E+01	-1.31851059836E+02	-2.60273084060E+01	-5.17083336362E+01
5.49861095677E+05	-5.60406758283E+00	-1.76836529003E+02	3.65046756923E+01	5.83913719068E+01	-4.68505252015E+01	-1.47155622992E+02	-2.12021806197E+01	-8.30643866839E+01
5.99833314813E+05	-6.26268771407E+00	-1.78126507167E+02	3.70272058611E+01	5.46566502696E+01	-5.67373324042E+01	1.48167568725E+02	-3.07926249163E+01	-1.76258774246E+02
6.49805533948E+05	-5.45111168854E+00	1.75155794597E+02	3.73275383767E+01	5.18883367854E+01	-4.06625781571E+01	4.68309559891E+00	-1.47279003465E+01	4.62311332874E+01
6.99777753084E+05	-5.61417935752E+00	-1.69031413688E+02	3.76869394126E+01	4.68027774795E+01	-4.50191988770E+01	-9.71060253808E+01	-1.81761278775E+01	-4.53422044447E+01
7.49749972219E+05	-5.39566387066E+00	-1.77338051908E+02	3.79467007479E+01	4.47914122616E+01	-4.90709323614E+01	-1.55623989534E+02	-2.29119936183E+01	-9.32534341918E+01
7.99722191355E+05	-4.91513085997E+00	1.73330675578E+02	3.81488945955E+01	4.34046870362E+01	-4.65342001992E+01	-6.10790636231E+00	-1.87367938407E+01	3.25307636208E+01
8.49694410490E+05	-4.96749651720E+00	1.77179577728E+02	3.83576743455E+01	4.05047798609E+01	-3.97971825153E+01	-1.53160380600E+02	-1.40102923714E+01	-1.10891873160E+02
8.99666629626E+05	-5.81966868607E+00	-1.77611247210E+02	3.86739396085E+01	3.71689705179E+01	-4.87284253929E+01	1.34516869815E+01	-2.02083669638E+01	3.85735367333E+01
9.49638848761E+05	-6.68953680540E+00	-1.78500229114E+02	3.89548825041E+01	3.51019257780E+01	-4.91982919888E+01	-1.03259939347E+02	-2.45556454496E+01	-3.02062738423E+01
9.99611067896E+05	-5.62937578165E+00	-1.76349151666E+02	3.89428415445E+01	3.28259773733E+01	-5.16492251998E+01	-1.22196486142E+02	-2.52907292856E+01	-6.71929697258E+01
1.04958328703E+06	-6.41788896175E+00	-1.79466183871E+02	3.92095202698E+01	3.08957211184E+01	-4.45012407539E+01	-3.61267424840E+01	-1.56810933416E+01	-2.89513631482E+00
1.09955550617E+06	-6.78478587098E+00	1.75263840085E+02	3.93259356139E+01	2.98241543640E+01	-4.31806984265E+01	1.53162542083E+02	-1.76920584477E+01	1.75522059402E+02
1.14952772530E+06	-5.86731606559E+00	-1.78601800267E+02	3.93417746052E+01	2.74067559560E+01	-4.45886199791E+01	-1.72410354928E+02	-1.87354262274E+01	-1.42896311687E+02
1.19949994444E+06	-5.96891277343E+00	1.77071621924E+02	3.94392194190E+01	2.65946798997E+01	-4.66063396855E+01	9.41343635040E+01	-1.92384314713E+01	1.01701189926E+02
1.24947216357E+06	-5.83304286611E+00	1.70761975773E+02	3.95211257328E+01	2.57157612066E+01	-4.68506236938E+01	1.26768540160E+02	-2.04596377185E+01	1.35748829691E+02
1.29944438271E+06	-6.75101205197E+00	1.77905248225E+02	3.96794426450E+01	2.32662976197E+01	-5.01197900502E+01	-2.83041408525E+01	-1.84821124143E+01	1.99402643514E+00
1.34941660184E+06	-5.77013409583E+00	1.73083394673E+02	3.96531627982E+01	2.25233054112E+01	-4.81170642310E+01	-7.73366886386E+01	-1.97298625830E+01	-4.36196966187E+01
1.39938882098E+06	-6.17440643683E+00	-1.77948778014E+02	3.97556424972E+01	1.99610966310E+01	-4.37134981790E+01	5.43641557185E+01	-1.49681069856E+01	6.14887017937E+01
1.44936104012E+06	-4.72608680303E+00	1.78920644596E+02	3.95772265471E+01	1.92661957795E+01	-5.02423554973E+01	7.60338391048E+01	-2.15618039638E+01	6.67779451894E+01
1.49933325925E+06	-5.69224299810E+00	1.78971331148E+02	3.97833747363E+01	1.78863778895E+01	-4.47433669770E+01	4.12598514296E+01	-1.57134206711E+01	4.54510692794E+01
1.54930547839E+06	-5.65985580674E+00	1.78073086087E+02	3.98478565360E+01	1.66634251653E+01	-4.52776345131E+01	-1.56616837916E+02	-1.98357263068E+01	-1.37502637057E+02
1.59927769752E+06	-5.86479855652E+00	1.75076970625E+02	3.99064461982E+01	1.58881800955E+01	-4.40815971033E+01	-7.37020229494E+01	-1.62308233702E+01	-5.35775686802E+01
1.64924991666E+06	-5.70020679589E+00	1.78656248230E+02	3.99199403540E+01	1.44693194021E+01	-4.74631449363E+01	-1.39436031416E+01	-1.94055059121E+01	-7.10922978497E+00
1.69922213579E+06	-5.09834936591E+00	1.72122568127E+02	3.98880848377E+01	1.42880088104E+01	-4.63873390431E+01	1.38057905338E+02	-1.93004296130E+01	1.34901472942E+02
1.74919435493E+06	-5.43516413124E+00	-1.79444485934E+02	3.99712800192E+01	1.22566844475E+01	-4.67103099840E+01	7.66575634318E+00	-1.63269560087E+01	1.30702330198E+01
1.79916657406E+06	-7.30895982027E+00	1.74912902165E+02	4.02027848441E+01	1.16472657545E+01	-4.62744520904E+01	-1.58316300039E+02	-2.02383055150E+01	-1.47326618240E+02
1.84913879320E+06	-5.34194540525E+00	-1.77980569959E+02	3.99779457137E+01	9.99167639306E+00	-4.88929378301E+01	5.01377140509E+01	-1.85553829647E+01	4.69323955322E+01
1.89911101233E+06	-6.33404810063E+00	1.73440990225E+02	4.01722202846E+01	9.73856180905E+00	-4.52641575292E+01	-7.83246306574E+01	-1.79297422929E+01	-6.07139597576E+01
1.94908323147E+06	-4.91583424954E+00	1.79505617296E+02	4.00076391810E+01	8.49504021077E+00	-4.49406519979E+01	-1.08908007523E+02	-1.81030362168E+01	-1.00223581738E+02
1.99905545061E+06	-5.38647402958E+00	1.74688889089E+02	4.00974239080E+01	8.28948565430E+00	-5.12841598347E+01	-1.64542758588E+02	-2.30887146621E+01	-1.54269878946E+02
2.04902766974E+06	-5.77705411684E+00	1.79189676494E+02	4.01587308187E+01	6.70439114426E+00	-4.47239408780E+01	-9.32257723520E+01	-1.76170019121E+01	-7.78495228453E+01
2.09899988888E+06	-6.05577241804E+00	1.71831400168E+02	4.02121389026E+01	6.55045475126E+00	-4.73287385101E+01	-4.16152220570E+00	-1.73903410967E+01	-6.57320394142E-01
2.14897210801E+06	-5.04360379057E+00	1.74195924889E+02	4.01413951370E+01	5.68717584260E+00	-4.77914424716E+01	-1.66349871624E+02	-2.23108561167E+01	-1.75053118413E+02
2.19894432715E+06	-6.05220745164E+00	1.79738312207E+02	4.02532680219E+01	4.07397220779E+00	-4.43141503502E+01	1.27990900420E+02	-1.60859255786E+01	1.14746107993E+02
2.24891654628E+06	-6.31003888548E+00	1.68478819940E+02	4.03564379955E+01	4.60479584852E+00	-4.43296922589E+01	1.13320684803E+02	-1.56464863518E+01	1.01744487293E+02
2.29888876542E+06	-6.22314789675E+00	1.79926376921E+02	4.03200907460E+01	2.53904851452E+00	-5.20391738666E+01	1.58256386402E+02	-2.61226028916E+01	1.30826420839E+02
2.34886098455E+06	-6.33006814169E+00	-1.79188364994E+02	4.03375284554E+01	1.64060147930E+00	-4.28082455775E+01	-5.58519077047E+01	-1.53583679595E+01	-5.41431806895E+01
2.39883320369E+06	-5.86993344672E+00	1.77953349194E+02	4.03139503672E+01	1.48892152230E+00	-4.59768773289E+01	-5.15086803071E+01	-1.65140400429E+01	-4.39093119159E+01
2.44880542282E+06	-5.78810403627E+00	1.79603209330E+02	4.03059254831E+01	5.59406970808E-01	-4.43158820374E+01	-1.74180140805E+02	-1.73996731277E+01	1.71957572958E+02
2.49877764196E+06	-5.01504386582E+00	1.78127270365E+02	4.02450908403E+01	-1.19715365297E-01	-4.59650438697E+01	1.49422138869E+02	-1.79982733587E+01	1.29482176230E+02
2.54874986110E+06	-5.81702898843E+00	1.73508621099E+02	4.03436279908E+01	-2.39214536967E-01	-4.33083954539E+01	-1.50198583750E+02	-1.65235602637E+01	-1.58125467833E+02
2.59872208023E+06	-5.82052789604E+00	-1.77332118873E+02	4.03301249099E+01	-2.00478423530E+00	-5.14510787399E+01	-5.24816551929E+01	-2.29804411497E+01	-4.04845062411E+01
2.64869429937E+06	-5.60685250321E+00	1.74843386991E+02	4.03250926775E+01	-1.68084855800E+00	-5.13721699962E+01	6.95319196661E+01	-1.99003058311E+01	4.57691861719E+01
2.69866651850E+06	-5.24476863610E+00	1.70878561233E+02	4.03358436518E+01	-1.78672172453E+00	-4.04588991763E+01	1.20024582342E+02	-1.35635607843E+01	1.12750862566E+02
2.74863873764E+06	-5.92478044013E+00	1.78277523882E+02	4.03992984746E+01	-3.59528616542E+00	-4.52293551922E+01	1.70723796809E+02	-1.79654388438E+01	1.49118344980E+02
2.79861095677E+06	-5.72229851844E+00	1.67492925410E+02	4.04209301170E+01	-2.93749347849E+00	-5.19562861633E+01	-5.00607148908E+01	-2.41227140179E+01	-3.28663907702E+01
2.84858317591E+06	-6.00105401334E+00	1.70249905266E+02	4.04508847315E+01	-3.93602432149E+00	-4.33659397624E+01	-1.67764487989E+02	-1.62235105842E+01	1.71466868849E+02
2.89855539504E+06	-4.89065289548E+00	1.72235340781E+02	4.03185191463E+01	-4.40080654800E+00	-4.83778652861E+01	1.12288202844E+02	-1.84878557915E+01	7.92441873203E+01
2.94852761418E+06	-5.62985818408E+00	1.72178783912E+02	4.04230355404E+01	-5.26260417424E+00	-5.41995328038E+01	4.75789699541E-01	-2.42963633649E+01	-4.30148757883E+00
2.99849983331E+06	-6.72690384530E+00	1.73363038665E+02	4.05561167200E+01	-6.24196245578E+00	-4.52237646817E+01	-5.09240934147E+01	-1.66892555343E+01	-5.70732035879E+01
3.04847205245E+06	-5.86054709219E+00	1.72109455619E+02	4.04701693885E+01	-6.59712477036E+00	-5.67979679275E+01	4.86849785707E+01	-2.59618533737E+01	3.22444638607E+01
3.09844427159E+06	-6.28554075071E+00	1.72457188367E+02	4.05172155674E+01	-7.47229896983E+00	-5.29658676164E+01	1.76120713265E+02	-2.71146153174E+01	1.30169667458E+02
3.14841649072E+06	-6.13648960022E+00	1.76790229974E+02	4.04884882930E+01	-8.55127642300E+00	-5.21662716720E+01	-1.49736231256E+02	-2.90189712299E+01	1.78713121911E+02
3.19838870986E+06	-6.77502329821E+00	1.75169159516E+02	4.05816080360E+01	-8.92389918429E+00	-4.67546887388E+01	3.31001283024E+01	-1.66859340031E+01	1.74030965867E+01
3.24836092899E+06	-5.29042562240E+00	1.76718479877E+02	4.03883834847E+01	-9.39032225016E+00	-3.99384211774E+01	-1.72916169594E+02	-1.17750123468E+01	1.61569205903E+02
3.29833314813E+06	-5.61955936746E+00	1.79620551484E+02	4.04200806317E+01	-1.04251098942E+01	-4.73305797148E+01	1.30615715699E+02	-1.79079407908E+01	9.62212723407E+01
3.34830536726E+06	-6.01163635556E+00	1.77055670327E+02	4.05044136835E+01	-1.07874093796E+01	-4.63578486911E+01	-1.17518409439E+02	-2.09728526309E+01	-1.38740056257E+02
3.39827758640E+06	-6.53790337781E+00	1.76189342237E+02	4.05690389777E+01	-1.12839494430E+01	-4.35836907686E+01	-1.37893371498E+02	-1.81756511133E+01	-1.58830451165E+02
3.44824980553E+06	-6.34627617111E+00	1.75640579440E+02	4.05378620866E+01	-1.18097097830E+01	-4.43661016675E+01	-1.32304474016E+02	-1.84436876735E+01	-1.54075250460E+02
3.49822202467E+06	-4.94976690787E+00	-1.73799848219E+02	4.03473623254E+01	-1.33119415437E+01	-4.20969536775E+01	-1.54834646102E+02	-1.47080215249E+01	1.75441980475E+02
3.54819424380E+06	-6.55451126502E+00	1.72056946114E+02	4.06042503454E+01	-1.24908308434E+01	-4.88020780294E+01	1.22706340348E+02	-1.87506292071E+01	7.85979726061E+01
3.59816646294E+06	-5.65804093218E+00	1.75893256572E+02	4.04800972467E+01	-1.33360947608E+01	-3.98942351481E+01	-1.71721600027E+02	-1.21138209765E+01	1.56296997215E+02
3.64813868208E+06	-4.91401017231E+00	1.75353468072E+02	4.03710678295E+01	-1.35694067964E+01	-4.73267461048E+01	1.56926671098E+02	-1.93021828141E+01	1.17309138254E+02
3.69811090121E+06	-6.70041895560E+00	1.74806266719E+02	4.06160685183E+01	-1.45671795164E+01	-5.15392990556E+01	-1.88793098718E+01	-2.22536632888E+01	-2.35903159321E+01
3.74808312035E+06	-6.13872088038E+00	1.76776648046E+02	4.05507564890E+01	-1.51116808843E+01	-4.68090852155E+01	8.97269375443E+00	-1.71010910440E+01	-6.83287955468E+00
3.79805533948E+06	-5.58374328496E+00	1.77205258334E+02	4.04727266933E+01	-1.56032516432E+01	-4.21157755457E+01	1.44686507363E+02	-1.32860534382E+01	1.06665049138E+02
3.84802755862E+06	-5.22748952346E+00	1.70513770698E+02	4.04922726642E+01	-1.51151872729E+01	-5.07230369977E+01	-1.59131592897E+02	-2.56616060287E+01	1.44777788086E+02
3.89799977775E+06	-5.36584031208E+00	1.78228713331E+02	4.04556539474E+01	-1.68645195635E+01	-5.02362727388E+01	1.61998907282E+02	-2.16233362537E+01	1.06718768200E+02
3.94797199689E+06	-5.42474318938E+00	1.71245958221E+02	4.05017939446E+01	-1.62972024668E+01	-4.68679769118E+01	3.73919273083E+01	-1.64423455157E+01	1.11536141437E+01
3.99794421602E+06	-5.47765251343E+00	1.73268967360E+02	4.04847778856E+01	-1.71095126706E+01	-4.78405815314E+01	6.35138225290E+01	-1.71940341220E+01	3.28488178646E+01
4.04791643516E+06	-5.80611745320E+00	1.76341817648E+02	4.05023277320E+01	-1.81595942089E+01	-4.80900836593E+01	1.27209860274E+02	-1.86763280413E+01	8.39851556507E+01
4.09788865429E+06	-5.90321608585E+00	1.73576661947E+02	4.05494731360E+01	-1.83093288257E+01	-4.30619600649E+01	-2.24346152289E+01	-1.47978723516E+01	-4.19213804000E+01
4.14786087343E+06	-5.94996330259E+00	1.71246406506E+02	4.05831694490E+01	-1.84145756652E+01	-4.87181113098E+01	-4.79067361832E+01	-2.10489381129E+01	-7.46577352234E+01
4.19783309257E+06	-6.82143195224E+00	1.64804048321E+02	4.07139685688E+01	-1.87626592426E+01	-4.49758623642E+01	1.12427771738E+02	-1.53502012355E+01	6.90117415243E+01
4.24780531170E+06	-5.17633295612E+00	1.76362281799E+02	4.04882300638E+01	-2.00897841696E+01	-4.51877306636E+01	7.55655290160E+01	-1.49596737741E+01	3.62841763224E+01
4.29777753084E+06	-5.39021991704E+00	1.74731213259E+02	4.04972100865E+01	-2.02868269994E+01	-5.19484142258E+01	6.23098390997E+01	-1.96556524804E+01	2.91990803264E+01
4.34774974997E+06	-6.05471482252E+00	1.75414893020E+02	4.05737764703E+01	-2.11460386710E+01	-4.33139870405E+01	-2.00972222321E+01	-1.45782358773E+01	-4.29307946674E+01
4.39772196911E+06	-6.05738011308E+00	1.76118753455E+02	4.05821571254E+01	-2.15219159416E+01	-5.35302608770E+01	6.45804012991E+01	-2.09174162185E+01	2.92553738909E+01
4.44769418824E+06	-6.80199205763E+00	1.75622429561E+02	4.06684746685E+01	-2.21790155771E+01	-5.40895011188E+01	-2.17677633893E+01	-2.36574501452E+01	-2.38574394529E+01
4.49766640738E+06	-5.56784751261E+00	1.73576986199E+02	4.05444619421E+01	-2.21890842128E+01	-4.74372575060E+01	1.48187605560E+02	-1.83176915615E+01	9.36834562010E+01
4.54763862651E+06	-6.15235324494E+00	1.72917710209E+02	4.06097625548E+01	-2.26351313661E+01	-5.00586916661E+01	-6.00820971863E+01	-2.47044906091E+01	-7.44936539914E+01
4.59761084565E+06	-5.50578079824E+00	1.69942878876E+02	4.05639687404E+01	-2.25103198568E+01	-4.61624855486E+01	2.20135653286E+01	-1.64011867411E+01	-6.13531976823E+00
4.64758306478E+06	-6.96007245283E+00	1.72748914813E+02	4.06921770332E+01	-2.38922596489E+01	-4.02050043864E+01	-1.20313636583E+02	-1.31441546602E+01	-1.64275857156E+02
4.69755528392E+06	-6.62419105980E+00	1.78107717638E+02	4.06194316265E+01	-2.48906223574E+01	-3.82848477838E+01	5.60496816094E+01	-9.25999153645E+00	1.74977165718E+01
4.74752750306E+06	-5.57840875914E+00	1.79841753766E+02	4.05105506639E+01	-2.53420371405E+01	-5.03382511203E+01	-5.20817140870E+01	-2.31045034052E+01	-7.04245052273E+01
4.79749972219E+06	-6.31131165200E+00	1.70635622934E+02	4.06484281701E+01	-2.49389390551E+01	-4.25789508504E+01	1.29248395005E+02	-1.33160504316E+01	6.63641300466E+01
4.84747194133E+06	-6.33607132194E+00	1.71596521472E+02	4.06500748046E+01	-2.54345034183E+01	-4.04499510757E+01	1.70918434324E+02	-1.08446741086E+01	1.15221424041E+02
4.89744416046E+06	-5.74518109992E+00	1.71610442041E+02	4.05778663794E+01	-2.57615306874E+01	-4.96364264595E+01	1.18818739188E+02	-1.88247238686E+01	6.67236728754E+01
4.94741637960E+06	-5.83007479194E+00	1.74720320588E+02	4.05706081115E+01	-2.65863032897E+01	-4.44433645038E+01	1.12931958162E+02	-1.48095561161E+01	6.47694236520E+01
4.99738859873E+06	-6.53827890831E+00	1.74472304106E+02	4.06591509945E+01	-2.72904810911E+01	-5.12338692731E+01	-2.94620164770E+00	-2.16363229902E+01	-2.19782220649E+01
5.04736081787E+06	-6.22520067984E+00	1.71984820573E+02	4.06198460513E+01	-2.73739730926E+01	-4.72851290758E+01	3.08069081045E+01	-1.72486549582E+01	-2.87150986794E+00
5.09733303700E+06	-6.17323190851E+00	1.72289273803E+02	4.06347989226E+01	-2.78548814032E+01	-4.56295753064E+01	-8.63443686731E+01	-2.06841937281E+01	-1.34585557826E+02
5.14730525614E+06	-5.79655766583E+00	1.77171899083E+02	4.05688981614E+01	-2.87282064945E+01	-4.51940237062E+01	-1.73166022657E+02	-1.71782649261E+01	1.22798963425E+02
5.19727747528E+06	-6.93311509281E+00	1.76840678054E+02	4.06547581392E+01	-2.95241430406E+01	-4.59530844497E+01	6.61737384204E+00	-1.64100468467E+01	-4.66534742089E+01
5.24724969441E+06	-6.50450888984E+00	1.72575703083E+02	4.06729387299E+01	-2.94214839304E+01	-4.35527156995E+01	1.06041893466E+02	-1.38134960417E+01	5.75742506566E+01
5.29722191355E+06	-6.12547795973E+00	1.72712471821E+02	4.06082155634E+01	-2.96584259401E+01	-5.05407850683E+01	-6.38422496729E+01	-2.56341963375E+01	-8.70688926681E+01
5.34719413268E+06	-5.35399410875E+00	1.73071879577E+02	4.05397905760E+01	-2.99947694393E+01	-5.04391186345E+01	-1.57937995953E+02	-2.25181794510E+01	1.25328726466E+02
5.39716635182E+06	-5.04761330423E+00	1.69596740895E+02	4.05445183275E+01	-2.97432408619E+01	-4.61585663798E+01	-5.41880320350E+01	-2.02163737603E+01	-8.93880281023E+01
5.44713857095E+06	-6.83244209960E+00	1.66211880020E+02	4.07700609890E+01	-3.07000247280E+01	-5.14158382666E+01	5.51517794053E+00	-2.12624655587E+01	-1.38074984054E+01
5.49711079009E+06	-6.18415215513E+00	1.73856636682E+02	4.06450855061E+01	-3.15594036300E+01	-5.01726185881E+01	2.55883621213E+01	-1.94423923645E+01	-7.43945369984E+00
5.54708300922E+06	-6.29202878588E+00	1.75785074830E+02	4.06299165920E+01	-3.22498027982E+01	-4.66102040343E+01	-4.25243965574E+01	-2.13218288229E+01	-7.19156181807E+01
5.59705522836E+06	-7.63867029617E+00	1.72137745365E+02	4.07976485420E+01	-3.28830517803E+01	-4.48514628183E+01	8.78717625089E+01	-1.46229890164E+01	3.86182117715E+01
5.64702744749E+06	-5.47712853818E+00	1.74296463366E+02	4.05853454641E+01	-3.29522440374E+01	-4.91243805179E+01	-9.21290326815E+01	-2.54249209355E+01	-1.48348431703E+02
5.69699966663E+06	-6.06252309199E+00	1.70055021914E+02	4.06708539069E+01	-3.29866313185E+01	-5.15245364461E+01	1.25167163613E+02	-1.97128242859E+01	6.35411405411E+01
5.74697188577E+06	-5.69723401437E+00	1.75002246598E+02	4.05914544266E+01	-3.38539501208E+01	-5.23232403047E+01	3.80259874552E+00	-2.49376026802E+01	-1.15496624280E+01
5.79694410490E+06	-6.22453347432E+00	1.76103611416E+02	4.06482507499E+01	-3.45319039974E+01	-4.76978223671E+01	9.07307832505E+01	-1.65864311477E+01	3.94450332351E+01
5.84691632404E+06	-5.86536824067E+00	1.69478599333E+02	4.06599091270E+01	-3.42386579271E+01	-5.04488779887E+01	2.97783442125E+01	-1.98218942888E+01	-1.42627486233E+00
5.89688854317E+06	-6.32117263716E+00	1.74842027800E+02	4.06806511499E+01	-3.53229314818E+01	-4.75512144092E+01	-1.86450501618E+01	-2.07015681618E+01	-5.87165061742E+01
5.94686076231E+06	-5.60977546601E+00	1.68938020158E+02	4.06523431994E+01	-3.48883453554E+01	-4.55895478475E+01	1.95883108027E+01	-1.63875549362E+01	-1.87474251175E+01
5.99683298144E+06	-7.01301064973E+00	1.79055075142E+02	4.07146590867E+01	-3.69083161430E+01	-4.73507032270E+01	-1.02439773403E+02	-2.21028845186E+01	-1.63903418915E+02
6.04680520058E+06	-6.34993212584E+00	1.70950336404E+02	4.07048490730E+01	-3.62593367080E+01	-4.48462924661E+01	-1.00669093919E+01	-1.81424073828E+01	-5.03721537758E+01
6.09677741971E+06	-6.26124183056E+00	1.76178395052E+02	4.06519513958E+01	-3.72284056751E+01	-5.71556904457E+01	6.37826790882E+01	-2.27331091822E+01	2.55608150192E+01
6.14674963885E+06	-6.52258177614E+00	1.73371028014E+02	4.07313559576E+01	-3.74047308416E+01	-5.21826798060E+01	-3.57641550524E+01	-2.73629366943E+01	-5.68116190193E+01
