# Hz S DB R 50
! CMT, M5065, 19127446, 24.2.4/2
! Date: 12/3/2024 4:25:40 PM
! Data: Format (Calibration Info)
! Freq	S11:dB/Ang(F2)	S21:dB/Ang(F2)	S12:dB/Ang(F2)	S22:dB/Ang(F2)
3.00000000000E+05	-6.96488675710E+00	-1.77725949092E+02	-5.84323385881E-01	9.15017351183E+01	-5.19312778951E+01	-1.55611515453E+02	-2.99713506452E+01	2.11110023338E+00
3.49972219135E+05	-5.36219434200E+00	-1.74637421266E+02	6.08450655912E-01	8.96405400344E+01	-4.04642825820E+01	-1.66267067050E+02	-3.02141449383E+01	-4.81474997141E+00
3.99944438271E+05	-6.39227491300E+00	1.74835333784E+02	1.94800947041E+00	8.95256041389E+01	-5.06513277247E+01	-9.44159202421E+01	-2.96090836758E+01	1.69739249122E+00
4.49916657406E+05	-5.41401309880E+00	-1.79636529286E+02	2.70467276817E+00	8.86402613431E+01	-4.80324016057E+01	-7.52933566914E+01	-2.99833276407E+01	3.94409868818E+00
4.99888876542E+05	-5.38324525239E+00	-1.78372749690E+02	3.70739922245E+00	8.80946742416E+01	-4.55186335650E+01	-1.14876590407E+02	-2.95797660242E+01	2.15672955456E+00
5.49861095677E+05	-5.89793669421E+00	-1.72481229841E+02	4.63493283599E+00	8.60443277138E+01	-5.08078080615E+01	1.04444870606E+02	-3.07554847221E+01	5.16805210715E+00
5.99833314813E+05	-5.90561137208E+00	-1.77573714462E+02	5.40363539555E+00	8.60269699511E+01	-4.75896275697E+01	9.21949565834E+01	-3.09160831153E+01	7.61148993052E+00
6.49805533948E+05	-6.43626647616E+00	1.72169188230E+02	6.09628950563E+00	8.73691381415E+01	-4.93898623971E+01	-5.66452495231E+01	-2.94230032644E+01	6.02707839642E+00
6.99777753084E+05	-7.30104142914E+00	-1.73995039958E+02	6.92831220943E+00	8.48503009908E+01	-4.31402040994E+01	-8.07224808446E+01	-2.93263138195E+01	5.87463461267E+00
7.49749972219E+05	-5.79900475293E+00	-1.72383440908E+02	7.27143235786E+00	8.36616273663E+01	-4.67804281715E+01	-1.66122272547E+02	-3.02779568942E+01	-1.64333584793E+00
7.99722191355E+05	-5.35679654341E+00	-1.74243188165E+02	7.88438341695E+00	8.42895674738E+01	-4.62994768558E+01	1.69472625368E+01	-2.98197427890E+01	8.21110432491E+00
8.49694410490E+05	-5.39076039043E+00	1.72019849457E+02	8.34384638387E+00	8.48423881490E+01	-4.78223026212E+01	9.71615383016E+01	-3.05621315212E+01	3.47921776193E+00
8.99666629626E+05	-5.56885832462E+00	-1.78348372216E+02	8.82989111013E+00	8.34726077996E+01	-4.20144844895E+01	8.90799677650E+01	-3.20850698256E+01	7.64115045032E+00
9.49638848761E+05	-5.61831267479E+00	1.76106753307E+02	9.41799550345E+00	8.35988562024E+01	-4.22198412708E+01	-9.76257046735E+01	-2.84421696244E+01	2.97509903696E-01
9.99611067896E+05	-6.08571937117E+00	1.73967063281E+02	9.85048397847E+00	8.33844312712E+01	-3.90906096938E+01	-1.48496810469E+02	-2.93023999779E+01	-8.35122236104E+00
1.04958328703E+06	-6.03325562406E+00	-1.78007450225E+02	1.02828566374E+01	8.16754266157E+01	-4.84351512425E+01	-1.03865086350E+02	-2.89056882723E+01	3.64498093836E+00
1.09955550617E+06	-5.45442152235E+00	1.78362728662E+02	1.06049462287E+01	8.16886207991E+01	-5.49845578944E+01	-5.52775288170E+01	-2.99488728971E+01	6.47874721562E+00
1.14952772530E+06	-5.74358534350E+00	1.79032352401E+02	1.10223040798E+01	8.15447664373E+01	-4.76072809768E+01	1.47430556873E+02	-3.08698334171E+01	2.53233762838E+00
1.19949994444E+06	-5.89610837829E+00	1.76314346401E+02	1.14425548714E+01	8.11966455642E+01	-4.70513078160E+01	3.85901954415E+01	-3.04703541662E+01	1.55895321199E+01
1.24947216357E+06	-6.03679973081E+00	-1.79509858062E+02	1.17998009948E+01	8.04039833337E+01	-4.93101278536E+01	-6.21589441010E+01	-2.91210533586E+01	6.67893925164E+00
1.29944438271E+06	-5.80302098938E+00	-1.79015707051E+02	1.21103092829E+01	7.94734693929E+01	-5.09538899249E+01	7.30272401034E+01	-3.03434874738E+01	1.27898312727E+01
1.34941660184E+06	-6.39322215251E+00	1.64818606347E+02	1.25374142167E+01	8.11599689788E+01	-5.69179411400E+01	1.51548707613E+02	-2.98026240920E+01	7.77753278317E+00
1.39938882098E+06	-6.27495155554E+00	-1.69931453083E+02	1.27715259527E+01	7.76628051719E+01	-4.28508406873E+01	-7.03934504157E+01	-2.80189854961E+01	9.82463153485E+00
1.44936104012E+06	-5.50667962269E+00	-1.76002668190E+02	1.30135538907E+01	7.77799183921E+01	-4.84582966955E+01	1.65432851317E+02	-3.06158959285E+01	-8.15444350701E-01
1.49933325925E+06	-4.67633519699E+00	-1.78950064959E+02	1.30626510177E+01	7.79814765013E+01	-4.56700246288E+01	8.28508001222E+01	-3.14380231110E+01	1.30069163510E+01
1.54930547839E+06	-6.01401154786E+00	1.75478872767E+02	1.36875613156E+01	7.80846878996E+01	-4.48561149914E+01	4.16865472461E+01	-3.00638623181E+01	2.33472482922E+01
1.59927769752E+06	-6.06347461923E+00	1.71804118557E+02	1.39508353780E+01	7.80511655483E+01	-4.83008539956E+01	-1.65133164082E+02	-3.08400474637E+01	4.19665440295E+00
1.64924991666E+06	-6.12232288302E+00	-1.77555263891E+02	1.42141170890E+01	7.62160379483E+01	-4.58314705314E+01	-1.07737904042E+02	-2.86389789320E+01	2.48718091438E+00
1.69922213579E+06	-5.57620466183E+00	-1.78555531541E+02	1.43753348270E+01	7.59388221959E+01	-4.21071426904E+01	-7.30229633912E+01	-2.76338178030E+01	5.28518682022E+00
1.74919435493E+06	-5.59678492328E+00	1.73792943509E+02	1.46531020826E+01	7.68457997609E+01	-4.57675579295E+01	4.24345646271E+01	-3.05060957446E+01	3.30198985214E+01
1.79916657406E+06	-5.82694053248E+00	1.78390364007E+02	1.48815449430E+01	7.56808202871E+01	-4.23918584109E+01	-8.33910777667E+01	-2.73376613069E+01	2.96377893986E+00
1.84913879320E+06	-5.39125963336E+00	-1.76843320037E+02	1.50804773125E+01	7.44482578332E+01	-4.29799626274E+01	7.55429970409E+01	-3.20539805847E+01	3.03151998564E+01
1.89911101233E+06	-5.85539817814E+00	1.76530292167E+02	1.53792971138E+01	7.47465538784E+01	-4.47328523921E+01	8.06111942456E+01	-3.18030333455E+01	2.75905162218E+01
1.94908323147E+06	-6.02995338679E+00	-1.78010612463E+02	1.56201689112E+01	7.38176404150E+01	-5.76812843579E+01	3.09503401388E-01	-2.88229634774E+01	1.43717452259E+01
1.99905545061E+06	-6.56988512379E+00	1.75877341115E+02	1.59326830466E+01	7.39727850012E+01	-5.27407976625E+01	3.30490345473E+01	-2.99586374184E+01	1.88842609445E+01
2.04902766974E+06	-5.54611184246E+00	1.74691903381E+02	1.60151980640E+01	7.39082355853E+01	-4.70589470972E+01	3.76950559233E+01	-2.97833232462E+01	2.66751234800E+01
2.09899988888E+06	-5.98868019135E+00	1.78207496618E+02	1.62971613822E+01	7.27293094872E+01	-5.22208900467E+01	-3.89245997000E+01	-2.76141949281E+01	1.50382250003E+01
2.14897210801E+06	-6.31373841945E+00	1.74167352876E+02	1.65360796355E+01	7.25711263730E+01	-4.46256014698E+01	-1.01401050788E+02	-2.80017579723E+01	3.84863091429E+00
2.19894432715E+06	-5.49891452800E+00	1.76143399379E+02	1.66416477102E+01	7.21113658258E+01	-4.73418220470E+01	-1.25841263019E+02	-2.89324933956E+01	4.82187511384E+00
2.24891654628E+06	-5.22284762839E+00	-1.78383862525E+02	1.67622536834E+01	7.13299217826E+01	-4.67827163737E+01	-1.73288264457E+02	-3.10581319997E+01	1.44134615450E+00
2.29888876542E+06	-5.14392451463E+00	1.75852718308E+02	1.69660337239E+01	7.17637476655E+01	-5.77366821883E+01	-3.15528286437E+01	-2.91692560567E+01	1.41234552157E+01
2.34886098455E+06	-5.34732800208E+00	1.75645596015E+02	1.71735753808E+01	7.13579430454E+01	-3.97606957680E+01	-1.37228849539E+02	-2.84981736674E+01	-1.70320608119E+01
2.39883320369E+06	-5.61175332389E+00	1.73457790307E+02	1.74295334415E+01	7.13766119879E+01	-5.50212877804E+01	1.23268384062E+02	-3.03364205261E+01	1.87558827036E+01
2.44880542282E+06	-6.11694802840E+00	-1.75216623159E+02	1.76121178769E+01	6.92802349415E+01	-4.13860163565E+01	-1.57825879498E+02	-3.08314547442E+01	-1.31350883161E+01
2.49877764196E+06	-5.27353466439E+00	1.79354646801E+02	1.76667111341E+01	6.94317354389E+01	-4.58337055729E+01	-1.29766135273E+02	-2.80179187443E+01	-1.10939966530E+01
2.54874986110E+06	-5.01815940512E+00	1.70962151814E+02	1.78311454757E+01	7.05718809183E+01	-5.02089124539E+01	-1.65693711321E+01	-2.83526313199E+01	2.38425395769E+01
2.59872208023E+06	-6.38348138813E+00	1.79163421490E+02	1.81676884097E+01	6.83243972763E+01	-4.47371449233E+01	-2.17104910315E+01	-2.72622284563E+01	2.14897920479E+01
2.64869429937E+06	-5.69931488384E+00	1.79106000027E+02	1.82468363079E+01	6.83292749431E+01	-4.35010930381E+01	-1.53619896656E+02	-3.02933579233E+01	-8.69676512126E+00
2.69866651850E+06	-5.62201262797E+00	1.78564158660E+02	1.83976198730E+01	6.77976981625E+01	-5.24837368071E+01	1.35959872841E+02	-3.15791978567E+01	1.11082447536E+01
2.74863873764E+06	-6.50702294914E+00	-1.78197513401E+02	1.86359223345E+01	6.70717726757E+01	-5.80943880780E+01	-8.25582736992E+01	-2.94219066504E+01	1.63995939222E+01
2.79861095677E+06	-6.15598832588E+00	-1.75744179645E+02	1.87794186948E+01	6.63102940748E+01	-4.28850843743E+01	-2.88430601715E+01	-2.61905852904E+01	2.00144150492E+01
2.84858317591E+06	-5.76973252027E+00	1.73776847107E+02	1.89298752483E+01	6.70923561697E+01	-4.21141168272E+01	1.52628767633E+02	-3.78187794064E+01	-2.07307491676E+01
2.89855539504E+06	-5.78003248325E+00	1.63755902125E+02	1.91700852378E+01	6.80421438322E+01	-5.81585247760E+01	-9.90415075583E+01	-2.98974753512E+01	1.09267943264E+01
2.94852761418E+06	-5.52130305040E+00	-1.77800124583E+02	1.91471508631E+01	6.52700330837E+01	-4.35291296316E+01	-2.79589987564E+01	-2.65420419890E+01	2.32960091256E+01
2.99849983331E+06	-6.08307350181E+00	1.76098267826E+02	1.93799779751E+01	6.55900987179E+01	-5.68766366452E+01	-7.48695499911E+00	-2.90404501579E+01	2.14336849299E+01
3.04847205245E+06	-5.48101929878E+00	1.78083428959E+02	1.94502326241E+01	6.50897106851E+01	-4.35405295430E+01	4.95911845496E+01	-2.78705128094E+01	4.18182311024E+01
3.09844427159E+06	-5.08192199363E+00	1.79988619068E+02	1.95268800901E+01	6.44254486278E+01	-4.39796072107E+01	8.00590997195E+01	-3.02174303446E+01	4.84498003339E+01
3.14841649072E+06	-6.06264146293E+00	1.77963845069E+02	1.98128585642E+01	6.41227963341E+01	-4.64366254655E+01	9.05788024123E+01	-3.09507665398E+01	3.52896625920E+01
3.19838870986E+06	-5.66512288398E+00	1.77061287492E+02	1.99147965867E+01	6.37347485510E+01	-4.41750665056E+01	1.54242350935E+02	-3.66522880148E+01	1.55483688965E+01
3.24836092899E+06	-6.28608141382E+00	-1.78428595946E+02	2.00558224810E+01	6.26898550789E+01	-4.65102180034E+01	-7.95158380371E+01	-2.70498803784E+01	7.76978170491E+00
3.29833314813E+06	-5.89279693603E+00	1.77915713646E+02	2.01937133676E+01	6.28710569862E+01	-4.98380324404E+01	1.08475705392E+02	-3.20821836258E+01	3.49672498571E+01
3.34830536726E+06	-5.46086151236E+00	-1.77635347214E+02	2.02753630064E+01	6.18315532565E+01	-4.54064286009E+01	6.98574525276E+01	-2.95026911272E+01	4.74099172280E+01
3.39827758640E+06	-5.77769192799E+00	1.76115539978E+02	2.04366533405E+01	6.20797162207E+01	-5.87036052561E+01	1.01690037112E+02	-3.06086347505E+01	2.69541389152E+01
3.44824980553E+06	-6.21908901259E+00	1.70586282045E+02	2.06846435270E+01	6.23690072855E+01	-4.68344548069E+01	-1.21502305854E+02	-2.97095822950E+01	3.04968075096E+00
3.49822202467E+06	-5.82110745738E+00	1.77399234855E+02	2.06776431357E+01	6.12834497390E+01	-5.07896876754E+01	-1.62761059676E+02	-3.09316329341E+01	1.36151421378E+01
3.54819424380E+06	-5.41672719684E+00	1.73929162951E+02	2.07980151346E+01	6.13680447014E+01	-5.47305123380E+01	-7.71980378574E+01	-2.94178718255E+01	1.57844522709E+01
3.59816646294E+06	-5.82319179575E+00	-1.78435955403E+02	2.09275665837E+01	5.99553512291E+01	-4.59410931903E+01	1.03295043488E+02	-3.11304862274E+01	4.71788455973E+01
3.64813868208E+06	-6.21171992863E+00	1.74652017686E+02	2.11249497196E+01	6.01488759119E+01	-4.72292093595E+01	-8.61653570271E+00	-2.70800788689E+01	2.87602983728E+01
3.69811090121E+06	-5.51882239500E+00	1.78918786194E+02	2.11633658548E+01	5.93995548575E+01	-4.59232238327E+01	-1.25525177923E+02	-2.98152587852E+01	4.49061240533E+00
3.74808312035E+06	-6.00155105160E+00	1.71265788462E+02	2.13821907583E+01	5.96388491642E+01	-4.30107557071E+01	-2.94731258687E+01	-2.55705950661E+01	2.08156184901E+01
3.79805533948E+06	-5.79857594839E+00	1.73873537223E+02	2.14400724670E+01	5.89771335823E+01	-5.24914661482E+01	2.02554325424E+01	-2.80298148710E+01	3.37537548901E+01
3.84802755862E+06	-6.11751525919E+00	1.75021046057E+02	2.15750641832E+01	5.85234942568E+01	-5.33218165370E+01	9.68377351789E+00	-2.90624729922E+01	3.07166079341E+01
3.89799977775E+06	-5.41400841042E+00	1.77493866979E+02	2.15947839870E+01	5.79130362028E+01	-5.06832634232E+01	-1.52036917862E+02	-3.17753728553E+01	8.47959175937E+00
3.94797199689E+06	-5.87495998380E+00	1.79025106171E+02	2.17559645955E+01	5.73212555970E+01	-4.38294315035E+01	4.81656617381E+01	-2.67668677983E+01	4.97199322370E+01
3.99794421602E+06	-7.42789602517E+00	1.67392103435E+02	2.21124299202E+01	5.75389812796E+01	-4.63987558070E+01	-9.75621693265E+01	-2.83311599456E+01	3.62190779485E+00
4.04791643516E+06	-5.29190276245E+00	1.77687813214E+02	2.19105972031E+01	5.68076516799E+01	-5.01517879333E+01	-1.68298120060E+02	-3.16875755010E+01	1.68433715794E+01
4.09788865429E+06	-6.58675890582E+00	1.75467405595E+02	2.21777883800E+01	5.61771808121E+01	-5.20081593499E+01	1.11659066355E+02	-3.03582853043E+01	4.30574827770E+01
4.14786087343E+06	-5.59591691602E+00	1.76352495141E+02	2.21801620458E+01	5.59924064894E+01	-4.87782154086E+01	-1.03729339953E+02	-2.89381750308E+01	1.04156910391E+01
4.19783309257E+06	-5.87016909468E+00	1.77840691905E+02	2.23019778668E+01	5.51230099798E+01	-5.87773561801E+01	-9.28174820428E+01	-2.93556808974E+01	1.87156034551E+01
4.24780531170E+06	-5.43920630348E+00	1.75852196637E+02	2.23539151492E+01	5.50176021791E+01	-4.67923046635E+01	1.55525623845E+02	-3.36310929408E+01	4.50852728512E+01
4.29777753084E+06	-5.74429802899E+00	1.74761529943E+02	2.24858450609E+01	5.50102474358E+01	-4.13479233137E+01	5.52385754482E+01	-2.56171148505E+01	5.70500856962E+01
4.34774974997E+06	-5.78311248182E+00	1.76540850919E+02	2.26013680688E+01	5.40900540492E+01	-4.74908366983E+01	1.17295620560E+02	-3.06036411170E+01	5.47838215470E+01
4.39772196911E+06	-6.97269618749E+00	1.72135411002E+02	2.28610795916E+01	5.38866302012E+01	-5.20665883998E+01	-9.39226411877E+01	-2.84265009193E+01	1.68518653907E+01
4.44769418824E+06	-6.19846551188E+00	1.75604960478E+02	2.28425778365E+01	5.31808691768E+01	-4.32418080901E+01	4.29526042441E+01	-2.53558620894E+01	5.02940281358E+01
4.49766640738E+06	-5.99592062890E+00	1.74731266520E+02	2.29107694971E+01	5.28942355038E+01	-5.07694744029E+01	-1.68690291362E+02	-3.15746271650E+01	3.13265155221E+01
4.54763862651E+06	-5.42706464818E+00	1.71195176076E+02	2.29809233877E+01	5.30172398497E+01	-4.85342683424E+01	-6.54967247168E+01	-2.73435655130E+01	1.28869981705E+01
4.59761084565E+06	-6.06087171026E+00	1.77126419904E+02	2.31194059055E+01	5.18722533689E+01	-4.62080962198E+01	-8.87638341784E+01	-2.85726455142E+01	3.04613763737E+00
4.64758306478E+06	-5.03958650153E+00	1.78860378998E+02	2.30897451964E+01	5.16963119023E+01	-4.72616655225E+01	8.81481039472E+01	-2.88421363980E+01	5.28212564208E+01
4.69755528392E+06	-5.71089679536E+00	1.77831490966E+02	2.32389094616E+01	5.10173725101E+01	-4.28084203926E+01	-1.01079734864E+02	-2.78166743445E+01	-6.49955565962E+00
4.74752750306E+06	-5.86156772516E+00	1.73638504133E+02	2.34021677075E+01	5.09432497005E+01	-4.49265518061E+01	1.69424431557E+02	-3.53692086601E+01	4.34849370044E+01
4.79749972219E+06	-5.69661002082E+00	1.75157404600E+02	2.34502353063E+01	5.05468075951E+01	-4.74250659869E+01	-6.62057611190E+00	-2.59680212818E+01	3.21696255600E+01
4.84747194133E+06	-7.63375493127E+00	-1.77702984847E+02	2.37239263777E+01	4.88406142011E+01	-4.34819892083E+01	1.20069386652E+02	-3.00507458665E+01	7.87658427621E+01
4.89744416046E+06	-5.54402598505E+00	1.73129819448E+02	2.36187792937E+01	4.97934872634E+01	-4.77283008945E+01	-1.07623161360E+01	-2.58257645097E+01	2.67969604240E+01
4.94741637960E+06	-6.55472276876E+00	1.73157943138E+02	2.38247305691E+01	4.91138471135E+01	-5.46783325837E+01	-3.86217437573E+00	-2.74355213515E+01	2.27655034934E+01
4.99738859873E+06	-5.66197894234E+00	1.79868763126E+02	2.37480418088E+01	4.85416475649E+01	-4.33873774732E+01	1.71513091225E+02	-3.87728401292E+01	6.86596835995E+01
5.04736081787E+06	-7.14890379589E+00	1.77526025159E+02	2.40443498710E+01	4.75573475692E+01	-4.28351081565E+01	-3.61889730372E+01	-2.42905019082E+01	1.88368622063E+01
5.09733303700E+06	-6.53631000399E+00	-1.77904932220E+02	2.40432496395E+01	4.69217459801E+01	-5.55226376800E+01	6.89115222895E+01	-2.78056290011E+01	4.33534741006E+01
5.14730525614E+06	-5.81797877862E+00	1.75239006233E+02	2.40787508623E+01	4.74130664675E+01	-4.62165703402E+01	1.65077702298E+02	-3.36063264056E+01	5.40551270509E+01
5.19727747528E+06	-5.73810042744E+00	1.73469041634E+02	2.41750359992E+01	4.71126355477E+01	-4.13727525652E+01	-1.57288743856E+02	-3.82258481621E+01	-3.37787583260E+01
5.24724969441E+06	-6.03358707751E+00	1.75838430427E+02	2.42639652706E+01	4.63810010936E+01	-4.45359946915E+01	-1.11253296532E+02	-2.96463952075E+01	-2.26189271845E+00
5.29722191355E+06	-6.11162537840E+00	1.78654818525E+02	2.43300281653E+01	4.54827200279E+01	-5.47886718177E+01	-1.14366312162E+02	-2.94311475149E+01	2.58401967509E+01
5.34719413268E+06	-5.39876123322E+00	1.72998340124E+02	2.43961914212E+01	4.59485754959E+01	-4.43855343492E+01	-8.03084813555E+01	-2.69052407722E+01	2.23516853878E+00
5.39716635182E+06	-6.42234573112E+00	1.78060064772E+02	2.45490312032E+01	4.47764957626E+01	-4.71442403166E+01	-7.70686936389E+01	-2.70791239585E+01	1.46996657124E+01
5.44713857095E+06	-4.92920051826E+00	1.76679733748E+02	2.44702776251E+01	4.50534350119E+01	-4.68931296136E+01	9.53055578548E+01	-2.72288322045E+01	6.76012863898E+01
5.49711079009E+06	-6.10660076310E+00	1.79491508349E+02	2.46557183924E+01	4.37040921604E+01	-5.48681691892E+01	2.56805470270E+01	-2.72853035031E+01	3.70879136184E+01
5.54708300922E+06	-5.80396522169E+00	1.75968788246E+02	2.47165700055E+01	4.37881815560E+01	-5.07869378950E+01	-4.37093999432E+01	-2.70825985305E+01	2.58114019488E+01
5.59705522836E+06	-6.36202584012E+00	-1.77681479665E+02	2.48246613570E+01	4.25173792017E+01	-6.85653167709E+01	1.16754219075E+02	-2.80799950587E+01	3.64486966079E+01
5.64702744749E+06	-4.99365076427E+00	1.74021148118E+02	2.47991823621E+01	4.35338655887E+01	-5.63308799816E+01	3.83569722678E+01	-2.69989062888E+01	4.13996118024E+01
5.69699966663E+06	-5.74262732680E+00	1.71089745825E+02	2.49895362950E+01	4.29361498960E+01	-4.63479959042E+01	-1.26427547107E+02	-3.16317984406E+01	1.18082100624E+01
5.74697188577E+06	-6.52040830003E+00	1.75147203960E+02	2.50987491942E+01	4.20049524624E+01	-4.19143787691E+01	-1.61256274834E+02	-4.25149190251E+01	3.77458597901E+01
5.79694410490E+06	-6.04835115875E+00	1.74127517509E+02	2.51420733597E+01	4.17472530773E+01	-5.77850380521E+01	9.63860269314E+01	-2.77779593163E+01	4.63700274788E+01
5.84691632404E+06	-5.35429699452E+00	1.77578334710E+02	2.51392161175E+01	4.12288719159E+01	-4.77567372928E+01	-1.96223574964E+01	-2.51948194522E+01	2.81157321191E+01
5.89688854317E+06	-5.75731226725E+00	1.72949725589E+02	2.52846370979E+01	4.10340343204E+01	-4.47539133507E+01	-1.21889615880E+02	-3.24777212976E+01	1.83964532842E-01
5.94686076231E+06	-5.87607142608E+00	1.75861210052E+02	2.53538636398E+01	4.04149363571E+01	-4.38899988982E+01	1.46985796989E+02	-3.00603608073E+01	8.82328551034E+01
5.99683298144E+06	-6.67219520209E+00	1.77206859612E+02	2.55060036578E+01	3.93283564108E+01	-4.73144735158E+01	7.30024234791E+01	-2.50641738305E+01	5.48206863150E+01
6.04680520058E+06	-7.46980715322E+00	1.74280161698E+02	2.56469636382E+01	3.91902237969E+01	-4.89356924772E+01	-1.30468925711E+02	-3.21979367918E+01	2.67291959211E+01
6.09677741971E+06	-6.30896350974E+00	1.74191728628E+02	2.56280024286E+01	3.90902799751E+01	-5.49866279623E+01	1.35970087594E+02	-2.83190362409E+01	5.27728072012E+01
6.14674963885E+06	-7.24458163341E+00	1.71926821547E+02	2.57953643536E+01	3.86655193320E+01	-4.83290827675E+01	4.81424553991E+01	-2.50888876058E+01	4.73620204176E+01
