# Hz S DB R 50
! CMT, M5065, 19127446, 24.2.4/2
! Date: 12/3/2024 4:23:08 PM
! Data: Format (Calibration Info)
! Freq	S11:dB/Ang(F2)	S21:dB/Ang(F2)	S12:dB/Ang(F2)	S22:dB/Ang(F2)
3.00000000000E+05	-6.35823159964E+00	-1.72980407523E+02	-2.85546377025E+00	9.05145069332E+01	-5.94229571952E+01	1.10800103767E+02	-3.01219131903E+01	4.84757878466E-01
3.49972219135E+05	-5.90274494745E+00	-1.78168260934E+02	-1.45839657557E+00	8.88996056935E+01	-4.52196361779E+01	1.25851366251E+02	-3.01894297313E+01	1.38518284084E+00
3.99944438271E+05	-6.19518560190E+00	-1.67094934062E+02	-3.93532510872E-01	8.80746232718E+01	-5.37683415688E+01	-1.22672229744E+02	-3.02236813136E+01	2.54411543837E-01
4.49916657406E+05	-5.37761725229E+00	-1.77687885111E+02	5.06843394796E-01	8.88186026043E+01	-4.11632739883E+01	-1.43053698052E+01	-3.04353148974E+01	6.38455734557E+00
4.99888876542E+05	-6.19439818402E+00	1.78928409063E+02	1.71916376638E+00	8.76232099876E+01	-4.91904545394E+01	1.25880057668E+02	-3.04446258290E+01	-1.03477607970E+00
5.49861095677E+05	-6.11402758645E+00	-1.76697009558E+02	2.38233999094E+00	8.74130018035E+01	-4.47559764826E+01	1.19927798868E+02	-3.05421320430E+01	1.31352909352E+00
5.99833314813E+05	-6.93502541073E+00	-1.79804814688E+02	3.25106203037E+00	8.60959347175E+01	-4.49451324262E+01	-6.28370290001E+01	-2.93478246969E+01	5.23322704198E+00
6.49805533948E+05	-5.59583394184E+00	-1.78611947025E+02	3.83540785032E+00	8.60586891170E+01	-4.70697665418E+01	-1.49201090111E+02	-2.96427124276E+01	3.16423920506E+00
6.99777753084E+05	-5.60539895665E+00	-1.78050488028E+02	4.40828199950E+00	8.51620279707E+01	-4.45607121400E+01	1.48670720486E+02	-2.98793611899E+01	1.95863525150E+00
7.49749972219E+05	-6.28098669624E+00	1.74140976369E+02	5.07857429786E+00	8.59412797766E+01	-4.44383710780E+01	5.66845325389E+01	-3.03883835954E+01	1.07012216028E+01
7.99722191355E+05	-5.68025140927E+00	1.74896368944E+02	5.63820511765E+00	8.57416054577E+01	-5.34268576183E+01	-1.53554835349E+01	-2.93621708075E+01	2.90505822905E+00
8.49694410490E+05	-5.73219183984E+00	-1.74090916440E+02	6.14207206833E+00	8.35388734077E+01	-3.83647166864E+01	9.18658119172E+00	-2.98054834619E+01	1.67090452584E+01
8.99666629626E+05	-5.56701369804E+00	-1.76171875649E+02	6.60119162759E+00	8.36502280816E+01	-4.79503353936E+01	-5.84211618064E+01	-2.94697655951E+01	6.10029640781E+00
9.49638848761E+05	-5.80704877681E+00	-1.73006798673E+02	7.07665259037E+00	8.22811093439E+01	-4.64005149244E+01	5.01745137994E+01	-3.05752331686E+01	1.23371190119E+01
9.99611067896E+05	-5.18215317945E+00	1.78700854328E+02	7.50597521667E+00	8.27935438838E+01	-4.18046663440E+01	-1.74584262160E+02	-3.05261924606E+01	-1.11133419869E+00
1.04958328703E+06	-6.30123347058E+00	1.79454888402E+02	8.07592546505E+00	8.25861269736E+01	-4.06106064174E+01	-2.64038794265E+01	-2.92154287416E+01	1.16114887437E+01
1.09955550617E+06	-5.85186289929E+00	1.75144186816E+02	8.37977422719E+00	8.21701352709E+01	-4.70201658551E+01	1.59155262881E+02	-3.05853370952E+01	3.40696408199E+00
1.14952772530E+06	-5.51070081794E+00	1.76202526804E+02	8.77999656568E+00	8.18540948142E+01	-4.72766726655E+01	-1.46192910590E+02	-2.97543821408E+01	1.18426268816E+00
1.19949994444E+06	-7.03745628219E+00	-1.79063019486E+02	9.29566727473E+00	8.08311986575E+01	-4.83801995106E+01	-1.56280511215E+02	-2.98957909371E+01	3.96233883594E+00
1.24947216357E+06	-5.26284833331E+00	1.79909622093E+02	9.43612537195E+00	8.03523711775E+01	-5.02723366998E+01	1.11400822720E+02	-3.04024094579E+01	9.79299800748E+00
1.29944438271E+06	-5.60637213354E+00	1.76918549232E+02	9.80821725774E+00	8.07939328316E+01	-5.99648656295E+01	3.77912792611E+01	-3.00399341945E+01	1.06328961076E+01
1.34941660184E+06	-5.35917799078E+00	1.73537854120E+02	1.01168932578E+01	8.05126093254E+01	-5.08616622262E+01	-1.56460538374E+02	-3.01208589308E+01	5.79735979679E+00
1.39938882098E+06	-6.07836337593E+00	1.75591348943E+02	1.05849454913E+01	7.99863465008E+01	-4.45100118931E+01	-8.32731351969E+01	-2.82890788270E+01	7.75913046164E+00
1.44936104012E+06	-5.82086214260E+00	1.77817086998E+02	1.07620163149E+01	7.96383277588E+01	-5.21825766228E+01	9.56245775809E+01	-3.05959041771E+01	1.13199158776E+01
1.49933325925E+06	-6.27942876366E+00	-1.79129831448E+02	1.11172823372E+01	7.83047644405E+01	-5.29498943142E+01	-5.03405699630E+01	-2.94954954460E+01	1.70303566533E+01
1.54930547839E+06	-5.93286272028E+00	1.76987106143E+02	1.13555137858E+01	7.80923308663E+01	-4.89921611454E+01	7.39824021562E+01	-3.09904068242E+01	1.50867081071E+01
1.59927769752E+06	-5.71962822884E+00	1.73009683881E+02	1.15969606718E+01	7.85401251556E+01	-4.10993603779E+01	1.00243869330E+02	-3.21229654172E+01	1.65357106937E+01
1.64924991666E+06	-6.54681792544E+00	-1.76345209164E+02	1.19911071772E+01	7.68324688614E+01	-4.05111208763E+01	8.38833256567E+01	-3.21985827135E+01	1.96808016489E+01
1.69922213579E+06	-6.01840685546E+00	1.78103844773E+02	1.22022942868E+01	7.70365571101E+01	-4.08753663519E+01	1.41671170855E+02	-3.22725532944E+01	5.63862652734E+00
1.74919435493E+06	-6.66971488992E+00	1.76183863808E+02	1.25067914485E+01	7.67766792958E+01	-4.76195910892E+01	2.30821692264E+01	-2.92407094301E+01	1.94975905694E+01
1.79916657406E+06	-6.74814069284E+00	1.70540400324E+02	1.29120126576E+01	7.72921382136E+01	-5.25009877839E+01	8.65207648568E+01	-3.02542945149E+01	1.58566188636E+01
1.84913879320E+06	-5.44846277192E+00	1.77597964375E+02	1.28426313408E+01	7.61565593925E+01	-4.08564305486E+01	-8.63960500448E+00	-2.74205494437E+01	2.82507616807E+01
1.89911101233E+06	-5.46725866494E+00	1.78564644949E+02	1.30927953146E+01	7.54475149889E+01	-4.79093963851E+01	-5.39823024675E+01	-2.86435021267E+01	1.50994394350E+01
1.94908323147E+06	-5.95889277677E+00	1.74332868292E+02	1.33578750851E+01	7.55346058834E+01	-4.45544581632E+01	2.30567382590E+00	-2.85318085425E+01	2.07506171193E+01
1.99905545061E+06	-5.55945042135E+00	1.77506507981E+02	1.35471240031E+01	7.47536530635E+01	-4.74203256234E+01	1.09233859429E+01	-2.92742723817E+01	2.33425767482E+01
2.04902766974E+06	-7.18820985832E+00	1.74378104045E+02	1.39518774909E+01	7.44251214961E+01	-5.17014638737E+01	1.70676226972E+02	-3.05476692036E+01	1.32460742437E+01
2.09899988888E+06	-6.17150291417E+00	-1.73493945190E+02	1.40134028161E+01	7.24963404928E+01	-4.91725029459E+01	-1.15254448671E+02	-2.90671394471E+01	1.02652881089E+01
2.14897210801E+06	-4.98577925060E+00	-1.77906168706E+02	1.39111169136E+01	7.24215140995E+01	-5.02095527901E+01	-1.39690087879E+01	-2.88410502813E+01	1.65988946697E+01
2.19894432715E+06	-6.34383925054E+00	1.75101308409E+02	1.44923887153E+01	7.34802677122E+01	-4.24710861982E+01	1.76905359686E+02	-3.20981257007E+01	-7.07774534275E+00
2.24891654628E+06	-6.14574387045E+00	1.77920356815E+02	1.46396255814E+01	7.24630631847E+01	-4.45093456399E+01	8.42054935450E+01	-3.09656854418E+01	3.09319384012E+01
2.29888876542E+06	-6.40770803463E+00	-1.76717652166E+02	1.48275207599E+01	7.14910545910E+01	-4.63985604459E+01	-1.33620635168E+02	-2.92302204966E+01	1.23203565583E+00
2.34886098455E+06	-5.22386726553E+00	1.75654829686E+02	1.48693365301E+01	7.21868092532E+01	-4.16177325060E+01	2.40340557995E+01	-2.80216952593E+01	3.23486902190E+01
2.39883320369E+06	-5.05441371845E+00	-1.78407544096E+02	1.50171776697E+01	7.09257475578E+01	-4.63156562329E+01	-9.64558574808E+01	-2.90778526056E+01	9.95972338965E+00
2.44880542282E+06	-5.87628387578E+00	1.79925686203E+02	1.53187591216E+01	7.10996119941E+01	-4.53858684801E+01	1.01620231978E+02	-3.23866414634E+01	2.11261398543E+01
2.49877764196E+06	-6.24273822438E+00	1.79615710589E+02	1.56115807676E+01	7.01261878557E+01	-5.90781460870E+01	-2.08688456922E+00	-2.92228699570E+01	1.65188581847E+01
2.54874986110E+06	-6.04700359856E+00	1.76903616738E+02	1.57190899800E+01	7.03665319703E+01	-4.22753809035E+01	-8.67695730459E+01	-2.72203300858E+01	5.17402941344E+00
2.59872208023E+06	-8.57332658003E+00	1.73825980406E+02	1.61457391714E+01	6.98008418459E+01	-5.23881881385E+01	-9.69589848151E+01	-2.93973806106E+01	8.76752859837E+00
2.64869429937E+06	-5.82994257400E+00	1.75588144185E+02	1.60131141157E+01	6.95254916039E+01	-5.03230202010E+01	-1.11576072927E+00	-2.88911871000E+01	2.35226871566E+01
2.69866651850E+06	-5.79006555045E+00	1.76958104512E+02	1.61877673704E+01	6.91454967724E+01	-4.75447547924E+01	-1.50260890970E+02	-3.00756860241E+01	8.97018641936E+00
2.74863873764E+06	-5.31061807495E+00	-1.77001742447E+02	1.62437561196E+01	6.78517194178E+01	-5.42960546529E+01	2.47382334730E+01	-2.92439953130E+01	2.55758881342E+01
2.79861095677E+06	-5.96586946475E+00	-1.79289018857E+02	1.64924168587E+01	6.75663959897E+01	-5.54297827761E+01	-1.28715480198E+01	-2.92814029225E+01	2.01277354205E+01
2.84858317591E+06	-6.34480158330E+00	-1.79947355525E+02	1.67187445307E+01	6.74372538850E+01	-4.25643361954E+01	1.00043263632E+02	-3.17436026009E+01	3.93765233181E+01
2.89855539504E+06	-6.98389661926E+00	-1.72831418509E+02	1.68954245050E+01	6.61730795051E+01	-4.17377269481E+01	8.31228030565E+01	-3.08504666576E+01	4.38953107291E+01
2.94852761418E+06	-5.65516146155E+00	1.72943848050E+02	1.69342826353E+01	6.75485561641E+01	-4.95652608883E+01	-1.04480412883E+02	-2.92330084422E+01	8.94884254263E+00
2.99849983331E+06	-6.25179350591E+00	1.79783797768E+02	1.71477873779E+01	6.61796640613E+01	-5.41472076111E+01	2.51388065943E+01	-2.93210307462E+01	2.55569017175E+01
3.04847205245E+06	-5.60743779618E+00	-1.79892837902E+02	1.71970122506E+01	6.59736638686E+01	-5.14716093426E+01	-1.41482903004E+02	-2.97812516500E+01	9.38098643823E+00
3.09844427159E+06	-5.71527321338E+00	1.70995260398E+02	1.74027442467E+01	6.66861695070E+01	-4.57932634970E+01	1.55233745235E+02	-3.21052704472E+01	1.81430483444E+01
3.14841649072E+06	-6.79950819353E+00	1.71760694778E+02	1.77060588846E+01	6.57756820173E+01	-4.21132703673E+01	1.38252550930E+02	-3.47309166182E+01	2.56509878609E+01
3.19838870986E+06	-5.99056012634E+00	1.73669922271E+02	1.77343933427E+01	6.52595589576E+01	-5.16548398407E+01	-1.46676992387E+02	-2.99411939052E+01	1.13699749634E+01
3.24836092899E+06	-6.06443428601E+00	1.72721866265E+02	1.78732929408E+01	6.53185624129E+01	-5.21340994732E+01	1.23154400444E+01	-2.82342096123E+01	2.72632232472E+01
3.29833314813E+06	-6.40325550915E+00	1.71947910294E+02	1.80547625246E+01	6.46239731136E+01	-4.35529589297E+01	-1.25261771507E+02	-2.95221915363E+01	-1.43914329448E+00
3.34830536726E+06	-6.06074538902E+00	1.77549482759E+02	1.81184199940E+01	6.36677454664E+01	-4.19564951058E+01	1.19969141467E+02	-3.30119481796E+01	4.68869112213E+01
3.39827758640E+06	-6.25760138348E+00	1.76067664616E+02	1.82530553080E+01	6.35242689330E+01	-5.32290301088E+01	-1.11129939605E+02	-2.95789308225E+01	1.79510337668E+01
3.44824980553E+06	-5.89373359516E+00	1.72231527722E+02	1.83306248592E+01	6.36853438200E+01	-4.84325787308E+01	3.51418890762E+01	-2.87785230471E+01	3.20882385661E+01
3.49822202467E+06	-6.06426551087E+00	-1.78977908199E+02	1.84530121595E+01	6.20216479866E+01	-4.59997548781E+01	-1.79646752048E+02	-3.22171528235E+01	1.18117656797E+01
3.54819424380E+06	-5.63258601264E+00	1.73153413140E+02	1.85758741173E+01	6.27250033590E+01	-4.66220371690E+01	2.67185344754E+01	-2.78680745711E+01	3.63614111691E+01
3.59816646294E+06	-6.10023742041E+00	1.71208850607E+02	1.87756507416E+01	6.24318961112E+01	-4.63583831080E+01	-1.41124168471E+02	-3.01413641902E+01	1.22091140479E+00
3.64813868208E+06	-7.82047988073E+00	-1.79801489042E+02	1.89898789270E+01	6.07186165407E+01	-5.06982572258E+01	-1.46560236618E+02	-2.98344257372E+01	1.32854470162E+01
3.69811090121E+06	-5.94336197895E+00	-1.75504473523E+02	1.89134381200E+01	5.99713895002E+01	-4.55835189917E+01	1.59866605547E+02	-3.35980814749E+01	2.06071172796E+01
3.74808312035E+06	-6.35254865597E+00	-1.78915905682E+02	1.91014800675E+01	5.97494648200E+01	-4.35292368563E+01	1.35482065801E+02	-3.32310993246E+01	4.01691436597E+01
3.79805533948E+06	-6.05901200457E+00	1.77619839046E+02	1.91804884205E+01	6.00807794900E+01	-4.58815736323E+01	1.44188076710E+02	-3.28393590792E+01	3.44582346329E+01
3.84802755862E+06	-6.17861496522E+00	-1.79657377964E+02	1.93147801290E+01	5.93272883724E+01	-6.06521385915E+01	-1.69753115240E+02	-2.99213799755E+01	2.61513870122E+01
3.89799977775E+06	-5.64011481555E+00	1.75761327828E+02	1.94001622845E+01	5.93321439970E+01	-4.88495844968E+01	1.12502702046E+02	-3.09704088189E+01	3.85835986928E+01
3.94797199689E+06	-6.17819266539E+00	1.76505462146E+02	1.95637075718E+01	5.86734774385E+01	-4.22783538295E+01	-8.61062836237E+01	-2.76345143430E+01	-8.27581028477E-01
3.99794421602E+06	-7.52262906411E+00	1.78740890228E+02	1.97993824981E+01	5.78980506508E+01	-4.32254960380E+01	-9.96885840159E+01	-2.80431508954E+01	1.40324196711E+00
4.04791643516E+06	-5.70161781390E+00	1.73160770030E+02	1.97503504471E+01	5.86702375081E+01	-4.76376580937E+01	-8.71514824261E+01	-2.84065693199E+01	1.24480333819E+01
4.09788865429E+06	-5.29331344539E+00	1.75189343534E+02	1.98007483959E+01	5.80691031748E+01	-4.01290672941E+01	8.85448777559E+01	-2.84178750427E+01	6.56056482972E+01
4.14786087343E+06	-6.76280874519E+00	1.71415506726E+02	2.00886978041E+01	5.78223163271E+01	-4.88683047014E+01	-1.17205035898E+02	-2.91207973790E+01	1.39245201826E+01
4.19783309257E+06	-5.19288561727E+00	1.77855759393E+02	1.99869175879E+01	5.70847539864E+01	-4.35645025587E+01	7.78715105187E+01	-2.83490300088E+01	5.32843457257E+01
4.24780531170E+06	-5.49339057953E+00	1.69634121794E+02	2.01288374776E+01	5.74518430777E+01	-4.38645165643E+01	3.95561693116E+00	-2.58232499460E+01	3.37174538648E+01
4.29777753084E+06	-5.53518655613E+00	1.77274040808E+02	2.02155827960E+01	5.61351894452E+01	-5.51034093435E+01	8.06786064635E+01	-2.86843154470E+01	3.79799940886E+01
4.34774974997E+06	-6.25572645003E+00	1.70157924037E+02	2.04489444852E+01	5.62704084161E+01	-5.94907172903E+01	1.12232614340E+02	-2.95113551636E+01	3.55472302996E+01
4.39772196911E+06	-6.55991400138E+00	1.76343101689E+02	2.05596321756E+01	5.51792884684E+01	-4.41299496772E+01	1.11001479491E+02	-2.99366463999E+01	6.03009688269E+01
4.44769418824E+06	-6.45506142580E+00	1.76647096152E+02	2.06417250117E+01	5.46566150032E+01	-5.10474930405E+01	-1.52327459730E+02	-3.05288682311E+01	1.93532781222E+01
4.49766640738E+06	-5.70479620007E+00	1.76477048367E+02	2.06463693071E+01	5.45903022408E+01	-4.50597364609E+01	1.72452036330E+02	-3.41095353823E+01	2.95039306086E+01
4.54763862651E+06	-5.71731506826E+00	1.75144302330E+02	2.07446038303E+01	5.44994515803E+01	-6.01804515040E+01	-7.71251389099E+01	-2.88352066818E+01	2.57716032868E+01
4.59761084565E+06	-5.90300770322E+00	1.74403561690E+02	2.08803406094E+01	5.39769054268E+01	-5.57388246623E+01	-4.21764021092E+00	-2.79017381725E+01	3.25814850245E+01
4.64758306478E+06	-6.29686092010E+00	1.70224741223E+02	2.10422890933E+01	5.39472689946E+01	-4.84314159351E+01	1.59729709992E+02	-3.21277109981E+01	3.11215467249E+01
4.69755528392E+06	-6.14107881248E+00	1.73791048883E+02	2.10991315662E+01	5.31325848656E+01	-4.17421464767E+01	1.11396919653E+02	-3.00095122820E+01	7.32271394176E+01
4.74752750306E+06	-5.74598787949E+00	1.77288762482E+02	2.11199347557E+01	5.23915231048E+01	-4.50324846225E+01	-1.02592032184E+01	-2.58676673857E+01	3.13277009316E+01
4.79749972219E+06	-6.09924257691E+00	1.78248008764E+02	2.12499663699E+01	5.19004074814E+01	-5.03825168490E+01	-7.62216649600E+01	-2.82820926837E+01	2.03368017873E+01
4.84747194133E+06	-6.59257318685E+00	1.78476387654E+02	2.14040564294E+01	5.12856831849E+01	-5.43731163172E+01	-1.50299426869E+02	-2.95397348404E+01	3.07817170864E+01
4.89744416046E+06	-5.74204919179E+00	-1.70769372444E+02	2.13538945480E+01	4.97367735898E+01	-4.49527701865E+01	1.70766156722E+02	-3.40023063674E+01	4.03398440285E+01
4.94741637960E+06	-5.93673147736E+00	1.75262545537E+02	2.15354551159E+01	5.10539570429E+01	-4.26902743970E+01	1.60672895260E+02	-3.46716228541E+01	5.28480131279E+01
4.99738859873E+06	-5.84346225926E+00	-1.78133299727E+02	2.15344066344E+01	4.97655375190E+01	-4.94613183119E+01	9.28739104795E+01	-2.85789527334E+01	4.91501255258E+01
5.04736081787E+06	-5.45208514395E+00	1.70368791161E+02	2.16568073356E+01	5.08872728058E+01	-5.23525670348E+01	5.75027830946E+01	-2.73180970559E+01	4.54470324715E+01
5.09733303700E+06	-5.68860009578E+00	1.76179334664E+02	2.17297647055E+01	4.97721093663E+01	-4.50041644370E+01	1.75369815024E+01	-2.54601246165E+01	4.05367483385E+01
5.14730525614E+06	-5.33479274491E+00	1.78762711258E+02	2.17594943265E+01	4.90531921587E+01	-5.66769846777E+01	5.98883884423E+01	-2.80716060177E+01	3.91868259216E+01
5.19727747528E+06	-5.73104228992E+00	1.76639419733E+02	2.19126957529E+01	4.88299228301E+01	-4.13902385007E+01	-3.40217403460E+01	-2.45836727722E+01	2.01104688316E+01
5.24724969441E+06	-7.05504827374E+00	1.69274816209E+02	2.21773730117E+01	4.87720941669E+01	-4.35428235563E+01	8.53547405135E+01	-2.67635192175E+01	6.48218912954E+01
5.29722191355E+06	-6.59454627735E+00	1.70318010122E+02	2.22110565298E+01	4.83385100013E+01	-4.04436377269E+01	-1.40555612505E+02	-3.25315394985E+01	-7.64417437992E+00
5.34719413268E+06	-5.96274022876E+00	1.72818274128E+02	2.22308298313E+01	4.79418273962E+01	-4.16059237203E+01	4.62512377383E+01	-2.46360959002E+01	5.00699381278E+01
5.39716635182E+06	-5.90541869818E+00	1.72843010300E+02	2.22930178792E+01	4.74985894279E+01	-4.72529428216E+01	-7.54181677070E+01	-2.76614263212E+01	1.90419061132E+01
5.44713857095E+06	-6.09549378161E+00	1.75223871045E+02	2.23906594858E+01	4.68537398709E+01	-6.97038206500E+01	1.58626469771E+02	-2.88506820052E+01	3.66396106761E+01
5.49711079009E+06	-5.92507236582E+00	1.75896717683E+02	2.24431221948E+01	4.64941166840E+01	-4.45519977156E+01	1.43058936851E+02	-3.11618455826E+01	6.40476048450E+01
5.54708300922E+06	-6.98090697437E+00	1.70739230053E+02	2.26470177519E+01	4.61645266363E+01	-4.60165980975E+01	9.34827718216E+01	-2.72372629812E+01	6.01431909445E+01
5.59705522836E+06	-5.57972920365E+00	1.75219049711E+02	2.25741961458E+01	4.56858072157E+01	-5.22203658088E+01	-4.26463339810E+01	-2.71061977036E+01	2.93881401095E+01
5.64702744749E+06	-6.64017957268E+00	1.75109156586E+02	2.27613851025E+01	4.50473814896E+01	-5.27995659993E+01	-1.76153065427E+02	-3.01992296649E+01	3.74082956589E+01
5.69699966663E+06	-6.66157754619E+00	1.75431284347E+02	2.28144547358E+01	4.44554049675E+01	-4.42876060956E+01	-5.06798849867E+01	-2.57509728555E+01	2.02185443497E+01
5.74697188577E+06	-5.13357146334E+00	1.76640669446E+02	2.27311582784E+01	4.44301104506E+01	-4.99556150107E+01	-5.07091994377E+01	-2.70421816549E+01	3.20736719270E+01
5.79694410490E+06	-6.04749230150E+00	1.71837003862E+02	2.29548381137E+01	4.42562677980E+01	-4.63783332352E+01	-1.46088588561E+02	-3.27365822950E+01	2.51759803983E+01
5.84691632404E+06	-6.77518945388E+00	1.68826194052E+02	2.31017803871E+01	4.39205994070E+01	-7.29660270616E+01	1.74791276843E+02	-2.84752805547E+01	3.76188808179E+01
5.89688854317E+06	-5.68065013264E+00	1.71670413642E+02	2.30419010583E+01	4.36299606026E+01	-5.06729722281E+01	-1.16467850269E+02	-2.95243526772E+01	2.64799934748E+01
5.94686076231E+06	-6.22227105789E+00	1.77073635524E+02	2.31425834011E+01	4.24501857446E+01	-5.82368282866E+01	-3.05799700324E+01	-2.80043394738E+01	3.56636013816E+01
5.99683298144E+06	-5.28452038559E+00	1.74008589971E+02	2.31328698881E+01	4.26641511322E+01	-4.67284414638E+01	1.21792610805E+02	-2.83771295757E+01	6.66509268247E+01
6.04680520058E+06	-5.70995580148E+00	1.79948176900E+02	2.32240862833E+01	4.12989369026E+01	-5.03006137072E+01	2.97325724167E+01	-2.57453096924E+01	4.43122117942E+01
6.09677741971E+06	-6.50211105377E+00	1.74895114586E+02	2.34183684899E+01	4.12791923940E+01	-4.22223531914E+01	1.14837189802E+02	-2.63175831130E+01	7.73283476771E+01
6.14674963885E+06	-6.24503274773E+00	1.78435306609E+02	2.34395522482E+01	4.06373845527E+01	-6.43750486354E+01	1.11780568184E+02	-2.85691683482E+01	4.63210129450E+01
