# Hz S DB R 50
! CMT, M5065, 19127446, 24.2.4/2
! Date: 12/3/2024 4:25:06 PM
! Data: Format (Calibration Info)
! Freq	S11:dB/Ang(F2)	S21:dB/Ang(F2)	S12:dB/Ang(F2)	S22:dB/Ang(F2)
3.00000000000E+05	-6.31677528563E+00	-1.74953655519E+02	2.80580979663E+00	9.03880144706E+01	-4.45746105061E+01	1.61408710159E+02	-3.02825063429E+01	-3.27229649375E+00
3.49972219135E+05	-6.42338132307E+00	-1.77857491002E+02	4.03009647438E+00	8.92127470390E+01	-4.23563863513E+01	-1.55118177714E+02	-3.02084151416E+01	-2.77966980465E+00
3.99944438271E+05	-5.89490787372E+00	1.77197328780E+02	5.30170146794E+00	8.98377782720E+01	-4.22745743873E+01	-5.92091119281E+01	-2.90931360341E+01	7.73554931900E+00
4.49916657406E+05	-5.52031676004E+00	1.78978318605E+02	6.33395107330E+00	8.82240799242E+01	-5.34587627183E+01	1.27685212152E+02	-3.02258813284E+01	-2.47344563940E+00
4.99888876542E+05	-5.66419320688E+00	1.72648806805E+02	7.27259816107E+00	8.85476299067E+01	-4.37183957716E+01	-1.39029161258E+02	-2.93001413400E+01	-5.24682594899E+00
5.49861095677E+05	-6.81812993222E+00	-1.78670569366E+02	8.19644084475E+00	8.68443673710E+01	-5.16368285952E+01	1.69916518728E+02	-2.99727491161E+01	-4.50586558969E-01
5.99833314813E+05	-6.49696226367E+00	1.79717120935E+02	8.95418443450E+00	8.63192568579E+01	-4.77312307052E+01	-8.39086960425E+01	-2.96246064352E+01	5.97283400795E+00
6.49805533948E+05	-5.28898912636E+00	1.79930863833E+02	9.40085691759E+00	8.54818010670E+01	-3.99865241224E+01	-2.23650631102E+01	-2.89388914910E+01	1.39332932938E+01
6.99777753084E+05	-6.09158232965E+00	1.77641402909E+02	1.02175046371E+01	8.56754295341E+01	-4.26516010847E+01	1.73732926667E+02	-3.00546855624E+01	-4.71673728711E+00
7.49749972219E+05	-5.39962213982E+00	1.75083811966E+02	1.06337475190E+01	8.53180240545E+01	-5.77069437214E+01	-1.74545267483E+01	-3.00827624193E+01	2.94565158074E+00
7.99722191355E+05	-5.06853824624E+00	-1.74707709500E+02	1.12222131402E+01	8.30262103745E+01	-4.11946250241E+01	-1.56195587076E+02	-2.96311116238E+01	-3.38357298705E+00
8.49694410490E+05	-7.55004658358E+00	1.69803055244E+02	1.20966323068E+01	8.43500492263E+01	-4.09670838213E+01	-4.37669246487E+01	-2.77049553537E+01	1.27621693209E+01
8.99666629626E+05	-5.04759742856E+00	-1.78619819798E+02	1.22191505575E+01	8.28896971951E+01	-5.37440275036E+01	6.23543599892E+01	-3.04925456061E+01	7.78094457974E+00
9.49638848761E+05	-5.52818900535E+00	-1.78572862079E+02	1.27944339498E+01	8.20366253024E+01	-4.43670504189E+01	-6.49209408087E+01	-2.83621767385E+01	7.85293725470E+00
9.99611067896E+05	-5.30117123028E+00	1.69897662065E+02	1.32477388857E+01	8.34459591468E+01	-5.11459303533E+01	-3.29744275403E+00	-2.95225165303E+01	1.30995402346E+01
1.04958328703E+06	-4.96227273016E+00	1.77316662923E+02	1.35955862519E+01	8.11587565600E+01	-4.26728978581E+01	6.51358071048E+01	-3.16104726116E+01	1.27656498964E+01
1.09955550617E+06	-6.24025171494E+00	1.77717458896E+02	1.41925958997E+01	8.07819334574E+01	-4.75737578405E+01	-4.95560354383E+01	-2.85923936561E+01	6.02153277317E+00
1.14952772530E+06	-6.25266622355E+00	1.74665626006E+02	1.45136354972E+01	8.08078572446E+01	-5.50805355154E+01	1.32002501341E+02	-3.03765237412E+01	2.72418953069E+00
1.19949994444E+06	-5.28738691633E+00	1.77527851061E+02	1.47664866670E+01	8.00165048333E+01	-4.06058327596E+01	1.29279030118E+01	-2.87092966595E+01	2.95485746083E+01
1.24947216357E+06	-6.39194072911E+00	1.76517435584E+02	1.52653046758E+01	7.96337036551E+01	-4.33935431042E+01	-1.35426993419E+02	-2.90884744234E+01	-5.76682166090E+00
1.29944438271E+06	-5.63739071703E+00	-1.76357983518E+02	1.54895816910E+01	7.84385186071E+01	-4.63706816063E+01	-4.57422738599E+01	-2.80511917999E+01	1.25696784804E+01
1.34941660184E+06	-5.30928902010E+00	-1.75982600380E+02	1.57517977584E+01	7.74832351976E+01	-4.96743819099E+01	1.40030039744E+02	-3.12642218978E+01	4.99026503840E+00
1.39938882098E+06	-5.32800270159E+00	-1.78539408072E+02	1.59927788768E+01	7.74482356800E+01	-4.55191604301E+01	-7.42387039831E+01	-2.82326662984E+01	7.60611815459E+00
1.44936104012E+06	-5.12100296352E+00	1.74831885008E+02	1.63659789849E+01	7.79700385760E+01	-4.88849120537E+01	-1.31970031113E+02	-2.92145718377E+01	-4.35204722761E+00
1.49933325925E+06	-6.51037171166E+00	1.75006774645E+02	1.68582101444E+01	7.72557746220E+01	-4.94217560148E+01	1.09038298424E+02	-3.24893119064E+01	1.31953097003E+01
1.54930547839E+06	-5.13956482307E+00	1.78220052172E+02	1.69667000058E+01	7.64665662495E+01	-3.85252158636E+01	2.71330544767E+00	-2.69300806680E+01	3.30807767421E+01
1.59927769752E+06	-5.42484506255E+00	1.78308931234E+02	1.72640636277E+01	7.59277606834E+01	-5.73875269778E+01	-1.47695037488E+02	-3.09804818120E+01	5.18881855920E+00
1.64924991666E+06	-5.63815633828E+00	1.77758710477E+02	1.75500074027E+01	7.54936409900E+01	-3.86924122720E+01	-1.35601037782E+02	-2.73689971382E+01	-1.90192718118E+01
1.69922213579E+06	-6.40551236816E+00	-1.79209041186E+02	1.78775209850E+01	7.46755103481E+01	-4.82764017470E+01	1.69756047134E+02	-3.19943918239E+01	-2.64852341260E+00
1.74919435493E+06	-6.41218272138E+00	1.77441150359E+02	1.82364740097E+01	7.45475459394E+01	-4.98884446370E+01	-7.97428064359E+01	-2.84765778053E+01	5.94938375817E+00
1.79916657406E+06	-5.47536672066E+00	-1.76408248618E+02	1.82837567518E+01	7.37481200827E+01	-4.79582255245E+01	5.08721092819E+01	-3.05998584531E+01	2.90978694516E+01
1.84913879320E+06	-5.71725025528E+00	1.71776292401E+02	1.85771217977E+01	7.45201447388E+01	-4.96341153643E+01	-1.26131660949E+02	-2.89819429662E+01	2.17494175937E+00
1.89911101233E+06	-5.26343655944E+00	1.78133236211E+02	1.87162382108E+01	7.32269959999E+01	-3.76245150529E+01	-2.30218687540E+00	-2.35951280964E+01	4.73110914315E+01
1.94908323147E+06	-5.85213616416E+00	1.75332144012E+02	1.90336389884E+01	7.32090124071E+01	-4.42056292237E+01	9.14682054343E+00	-2.75546959104E+01	3.55793760026E+01
1.99905545061E+06	-5.73646352099E+00	-1.79119025508E+02	1.92122390307E+01	7.19231670807E+01	-4.39261253756E+01	5.36887781994E+01	-2.96961933037E+01	4.25806742919E+01
2.04902766974E+06	-5.36694000330E+00	1.79797244837E+02	1.93769563097E+01	7.17913978162E+01	-4.26506168045E+01	-7.84481137495E+01	-2.65241892588E+01	2.92428896267E+00
2.09899988888E+06	-5.32838375647E+00	1.75434294107E+02	1.96389956381E+01	7.17116664762E+01	-4.84046476088E+01	1.68817191789E+02	-3.15783615672E+01	4.43627457465E+00
2.14897210801E+06	-6.85530962122E+00	-1.79996077458E+02	1.99728895308E+01	7.04139144696E+01	-4.92670834017E+01	2.49714197798E+01	-2.90914716134E+01	2.92409662092E+01
2.19894432715E+06	-5.44389213440E+00	1.73565569473E+02	2.00372369450E+01	7.11342289890E+01	-4.62077591520E+01	1.13330692841E+02	-3.34445969563E+01	2.57005976366E+01
2.24891654628E+06	-5.39191057083E+00	1.76185875033E+02	2.01964200405E+01	7.03376790949E+01	-4.37557140605E+01	-2.98383169995E+01	-2.52191370406E+01	1.89053086165E+01
2.29888876542E+06	-5.98991296263E+00	1.77098218080E+02	2.04694428302E+01	6.95322563652E+01	-4.17148342498E+01	-8.46010050287E+01	-2.58132289994E+01	5.52882611326E-01
2.34886098455E+06	-5.74375719627E+00	1.69127744529E+02	2.06722853529E+01	7.01120207691E+01	-4.59361624899E+01	-6.55486588103E+01	-2.64978677801E+01	9.28200892667E+00
2.39883320369E+06	-5.98562690153E+00	1.75401841785E+02	2.08593012063E+01	6.89420223937E+01	-4.83010532586E+01	-9.56352748188E+01	-2.82083560626E+01	2.97333474477E+00
2.44880542282E+06	-5.19969544291E+00	1.71126386075E+02	2.09240506982E+01	7.00599509953E+01	-4.03983267705E+01	1.56282287417E+02	-3.87521002185E+01	-4.22084922076E+01
2.49877764196E+06	-5.86102960559E+00	1.75385477991E+02	2.11893928054E+01	6.80008737966E+01	-4.65510671396E+01	-3.56317909669E+01	-2.67675845305E+01	1.92458085799E+01
2.54874986110E+06	-5.05916696054E+00	1.79695206818E+02	2.12409474384E+01	6.71281895098E+01	-5.23307065644E+01	-7.00123911878E+01	-2.81531830395E+01	1.44731628223E+01
2.59872208023E+06	-7.10696256554E+00	1.75552506604E+02	2.16830182839E+01	6.67476998481E+01	-4.50177916510E+01	-8.70381838406E+01	-2.60130547343E+01	2.70034618779E-01
2.64869429937E+06	-5.92291720434E+00	1.75498664144E+02	2.16789103195E+01	6.65478177036E+01	-6.43229824356E+01	-1.62913518724E+01	-2.95227215919E+01	1.25767350524E+01
2.69866651850E+06	-7.08100474195E+00	-1.77380666772E+02	2.19798446522E+01	6.52179477352E+01	-4.45649105208E+01	1.32140375777E+02	-3.60472924815E+01	3.10634481690E+01
2.74863873764E+06	-5.28341933831E+00	1.79160779009E+02	2.19046681251E+01	6.52329773414E+01	-5.35080792619E+01	3.80535203336E+01	-2.93047624834E+01	3.01110190851E+01
2.79861095677E+06	-6.24389125787E+00	1.71003316964E+02	2.22178965138E+01	6.54602709756E+01	-4.28534969702E+01	3.24931163495E+01	-2.70144227738E+01	4.89875365669E+01
2.84858317591E+06	-6.50102842000E+00	1.76937736837E+02	2.23982672830E+01	6.43315883522E+01	-4.49250793756E+01	-1.48186242881E+02	-3.10550950694E+01	-1.32588546924E+01
2.89855539504E+06	-5.85626976283E+00	1.77030684427E+02	2.24632049314E+01	6.39584187036E+01	-4.82795588024E+01	-4.80042850917E+01	-2.70784646406E+01	1.53892511611E+01
2.94852761418E+06	-5.52015768018E+00	1.72487600393E+02	2.25844054113E+01	6.42482738528E+01	-5.08405511979E+01	-1.77965171346E+02	-3.36396329144E+01	2.48227815769E+00
2.99849983331E+06	-6.10102043008E+00	1.76043782422E+02	2.27934117477E+01	6.32401929710E+01	-4.91853675876E+01	-1.20297862075E+02	-2.89617185636E+01	-1.87899342051E+00
3.04847205245E+06	-5.99772067365E+00	1.70771079666E+02	2.29614113974E+01	6.34053729947E+01	-4.99288273699E+01	-1.04250775855E+02	-2.79551757194E+01	5.06687456509E+00
3.09844427159E+06	-6.08074400568E+00	1.79320246826E+02	2.30600640466E+01	6.18711734493E+01	-4.67888202661E+01	1.97010106195E+01	-2.65147386723E+01	3.94465351309E+01
3.14841649072E+06	-6.10983017756E+00	1.75321253977E+02	2.32035497488E+01	6.19178705215E+01	-4.44365440711E+01	1.62240806622E+02	-3.74287020351E+01	4.47784502845E+00
3.19838870986E+06	-5.99458505104E+00	1.73007999723E+02	2.33534013119E+01	6.15586179780E+01	-4.29341444524E+01	4.34995889851E+01	-2.62805870704E+01	5.29783784806E+01
3.24836092899E+06	-5.59613265228E+00	1.79162513297E+02	2.34151412445E+01	6.05929545760E+01	-4.35362868614E+01	-1.29764295276E+02	-2.88510101509E+01	-2.29983805651E+01
3.29833314813E+06	-5.91106765001E+00	-1.79902593360E+02	2.35766231598E+01	5.99252579854E+01	-4.58780198802E+01	-2.02020687574E+01	-2.61168046275E+01	2.38255738151E+01
3.34830536726E+06	-6.38328847642E+00	1.76218361205E+02	2.37832998232E+01	5.98414460377E+01	-5.12345544219E+01	-5.28008950708E+00	-2.65176707043E+01	2.88479718475E+01
3.39827758640E+06	-6.34333597503E+00	1.76463163684E+02	2.39245255618E+01	5.93797589866E+01	-4.36281473101E+01	-1.26027593560E+02	-2.83755837027E+01	-1.94970644346E+01
3.44824980553E+06	-5.51009931048E+00	1.78791150539E+02	2.39318735372E+01	5.89490746646E+01	-4.56594085852E+01	1.23792484849E+02	-3.43090530515E+01	5.19462700652E+01
3.49822202467E+06	-7.19742958770E+00	-1.76428452252E+02	2.42106517668E+01	5.75347379308E+01	-4.67318241218E+01	-5.46938436340E+01	-2.58598268002E+01	1.45937492032E+01
3.54819424380E+06	-5.80689932069E+00	1.71648178745E+02	2.42650036549E+01	5.86771226433E+01	-4.14875224856E+01	8.86599903686E+01	-2.87441416966E+01	8.23835838705E+01
3.59816646294E+06	-5.60275498595E+00	1.67595749233E+02	2.43709842636E+01	5.86091170172E+01	-4.75616602758E+01	1.70361378799E+02	-3.47294230822E+01	4.58478783633E+00
3.64813868208E+06	-6.54521107502E+00	1.77277483971E+02	2.45381377670E+01	5.68781830470E+01	-4.89151421648E+01	8.09463828870E+00	-2.65217341831E+01	3.58901402244E+01
3.69811090121E+06	-6.58509885837E+00	1.72661694489E+02	2.46759007140E+01	5.69030817599E+01	-5.02354036293E+01	-6.52937800029E+01	-2.73698628949E+01	9.30096554001E+00
3.74808312035E+06	-6.71742680295E+00	-1.78421999964E+02	2.47723572272E+01	5.55967015337E+01	-4.73439202737E+01	-1.49354135771E+02	-3.19335779736E+01	-2.81025847140E+00
3.79805533948E+06	-6.19920715180E+00	-1.79114481226E+02	2.48278022840E+01	5.51086774026E+01	-4.64286044534E+01	1.12521736426E+02	-3.12912385841E+01	6.35765171714E+01
3.84802755862E+06	-6.26061601806E+00	1.74010561463E+02	2.50194054761E+01	5.53911872638E+01	-5.15728681718E+01	-1.45831740313E+02	-3.13498171862E+01	7.72085281717E+00
3.89799977775E+06	-6.26463999246E+00	1.74445950490E+02	2.51094244019E+01	5.48249202324E+01	-4.28883886027E+01	-8.17449670229E+01	-2.50715313378E+01	-7.39192088490E+00
3.94797199689E+06	-6.81038355816E+00	1.77473276912E+02	2.52586967324E+01	5.39649377532E+01	-5.17210712388E+01	1.54666020112E+02	-3.24713390151E+01	3.45644460728E+01
3.99794421602E+06	-5.59638078635E+00	1.72319105553E+02	2.52585679667E+01	5.45207756461E+01	-4.20842357524E+01	1.17329433418E+01	-2.33422015924E+01	4.07509265416E+01
4.04791643516E+06	-5.49433973793E+00	1.77217053373E+02	2.53181494688E+01	5.34627448616E+01	-4.28899096728E+01	4.44619537510E+01	-2.35482988598E+01	5.15993046647E+01
4.09788865429E+06	-6.68855193361E+00	1.70113816802E+02	2.55945420984E+01	5.34226956859E+01	-4.20550989457E+01	1.65708344544E+02	-4.57406261250E+01	1.13332610813E+02
4.14786087343E+06	-5.73652635819E+00	1.78444997175E+02	2.55483951523E+01	5.22577068062E+01	-5.50609521015E+01	-9.67139475974E+01	-2.92778768577E+01	1.43116309456E+01
4.19783309257E+06	-5.67171561571E+00	1.71598357185E+02	2.56984219980E+01	5.24848920004E+01	-5.38466506332E+01	-2.50336988950E+01	-2.70930499814E+01	2.47071231330E+01
4.24780531170E+06	-5.52293488149E+00	1.75474392809E+02	2.57408951187E+01	5.16847993818E+01	-5.43886823007E+01	1.52117025855E+02	-3.16560459391E+01	3.24207059872E+01
4.29777753084E+06	-5.71286286790E+00	1.76374236559E+02	2.58690060729E+01	5.10545947540E+01	-5.95177646330E+01	1.44532307112E+02	-2.99920308293E+01	3.54667683035E+01
4.34774974997E+06	-6.45562599725E+00	1.73896377980E+02	2.60753690327E+01	5.06217114048E+01	-4.50418207573E+01	8.41345260753E+01	-2.77653009022E+01	6.23939842617E+01
4.39772196911E+06	-6.03698224503E+00	1.73542265282E+02	2.61292922316E+01	5.05134169892E+01	-4.09796664306E+01	3.57975912242E+01	-2.20045632693E+01	4.57354762260E+01
4.44769418824E+06	-5.83895560915E+00	-1.79493709096E+02	2.61440425090E+01	4.90582323802E+01	-4.93866242737E+01	1.15954086965E+02	-3.02152793641E+01	6.25356004529E+01
4.49766640738E+06	-5.49111056540E+00	1.76249820300E+02	2.62432116280E+01	4.92158044779E+01	-4.63974042401E+01	-1.02035820899E+02	-2.84622209863E+01	-1.06443300666E+01
4.54763862651E+06	-5.29277836995E+00	1.77890185071E+02	2.62760565709E+01	4.85577788045E+01	-5.04858316431E+01	5.70686255779E+01	-2.67532951596E+01	5.09828473360E+01
4.59761084565E+06	-6.78128665484E+00	1.74733100331E+02	2.65535158763E+01	4.82457020994E+01	-4.27568475057E+01	-8.14513749238E+00	-2.27630747688E+01	2.90250917964E+01
4.64758306478E+06	-6.41255066746E+00	1.74271714771E+02	2.66300174654E+01	4.79726443309E+01	-4.77536385567E+01	9.72332551569E+01	-2.84674538606E+01	6.80066794791E+01
4.69755528392E+06	-5.79278022145E+00	1.78491086492E+02	2.66132486355E+01	4.71103266140E+01	-4.53661896134E+01	6.67354674230E+01	-2.52754710149E+01	5.77344626047E+01
4.74752750306E+06	-6.27885752035E+00	1.79301908525E+02	2.67610709437E+01	4.65300662814E+01	-4.49260836391E+01	1.63377274861E+02	-3.39795213033E+01	1.15586537983E+02
4.79749972219E+06	-5.65958952206E+00	1.68586371625E+02	2.68682592418E+01	4.73706408705E+01	-5.33895301854E+01	7.35451596865E+01	-2.77827990125E+01	4.91167742009E+01
4.84747194133E+06	-5.98291042741E+00	1.73893079448E+02	2.69527093459E+01	4.62042509366E+01	-4.69066683857E+01	-2.20404026655E+01	-2.42333754319E+01	2.42387293670E+01
4.89744416046E+06	-6.40158501699E+00	1.74710256733E+02	2.70597325759E+01	4.53468494555E+01	-4.91495481657E+01	5.55253512179E+01	-2.58019323278E+01	5.12445867827E+01
4.94741637960E+06	-6.19480600009E+00	-1.76966368604E+02	2.70790166253E+01	4.41019341411E+01	-4.71532186980E+01	-1.63987117755E+01	-2.47468948929E+01	2.42651574570E+01
4.99738859873E+06	-5.63547625237E+00	1.77525583717E+02	2.71065708859E+01	4.45081631338E+01	-5.43611819435E+01	1.25273107819E+02	-2.95720849657E+01	5.65011422383E+01
5.04736081787E+06	-5.80218412426E+00	1.76329298298E+02	2.72549942229E+01	4.41200534228E+01	-4.23367653424E+01	-1.04026693472E+02	-2.79316375293E+01	-2.36005106351E+01
5.09733303700E+06	-8.06600001385E+00	1.75546459397E+02	2.75644583042E+01	4.31392420055E+01	-4.01931017674E+01	1.65209299511E+02	-2.90328850224E+01	1.36327984603E+02
5.14730525614E+06	-6.22410426253E+00	1.74360612727E+02	2.74669851121E+01	4.33057831104E+01	-4.34438857265E+01	1.21222059918E+02	-2.73781086433E+01	9.14924306963E+01
5.19727747528E+06	-6.35149562800E+00	1.74317334815E+02	2.75744668580E+01	4.27782053013E+01	-5.02501599734E+01	-6.07790191406E+00	-2.53610050682E+01	3.36816934310E+01
5.24724969441E+06	-5.53597680883E+00	1.74421589285E+02	2.76238925941E+01	4.23417618915E+01	-4.84555352106E+01	-6.94469344296E+01	-2.73466984873E+01	8.99572994942E+00
5.29722191355E+06	-6.72087407245E+00	1.78063757885E+02	2.77616429957E+01	4.12762143614E+01	-4.68421648070E+01	1.60855284004E+02	-3.36036596965E+01	8.61605570164E+01
5.34719413268E+06	-5.87933215705E+00	1.77340140633E+02	2.77483274041E+01	4.11179144803E+01	-5.86816798897E+01	1.02334221610E+02	-2.91324502710E+01	4.50008232737E+01
5.39716635182E+06	-5.65400212255E+00	1.69461181989E+02	2.78607459136E+01	4.16281320770E+01	-4.95641698145E+01	-6.73347096997E+01	-2.71828250877E+01	1.11149417112E+01
5.44713857095E+06	-6.68190582581E+00	1.73505994844E+02	2.80202262434E+01	4.02683110936E+01	-4.49448974310E+01	-5.47023826525E+01	-2.49637812312E+01	2.28489302050E-01
5.49711079009E+06	-7.50978561783E+00	1.68619115890E+02	2.81938752601E+01	4.02168083767E+01	-4.54064983460E+01	1.14070209394E+02	-2.68576590896E+01	8.23152147105E+01
5.54708300922E+06	-6.36200490497E+00	1.69811249433E+02	2.81566751612E+01	3.98562961727E+01	-4.79049418151E+01	-1.17326153046E+02	-3.05944192643E+01	-8.85098341673E-01
5.59705522836E+06	-6.33014384008E+00	1.75501735585E+02	2.81959430300E+01	3.87594311334E+01	-4.99367494374E+01	6.48257344116E+01	-2.55864242822E+01	5.40017544277E+01
5.64702744749E+06	-6.31819230845E+00	1.77790529945E+02	2.82588905836E+01	3.82032492401E+01	-5.96645444072E+01	-7.67675404530E+01	-2.84853275815E+01	2.80068596851E+01
5.69699966663E+06	-6.85891434743E+00	1.70727185506E+02	2.84114096602E+01	3.82214180449E+01	-4.54086853991E+01	-1.41731865081E+02	-4.07712351409E+01	-1.03949832348E+01
5.74697188577E+06	-7.04326724365E+00	1.72317258345E+02	2.84945348264E+01	3.73500605179E+01	-6.52724684408E+01	-7.90513814429E+01	-2.82592815193E+01	2.53949583213E+01
5.79694410490E+06	-6.40387895250E+00	1.74224772243E+02	2.85057063760E+01	3.69175663511E+01	-5.24024621649E+01	-7.04624391484E+01	-2.78988112462E+01	1.66311815032E+01
5.84691632404E+06	-6.34870112022E+00	1.71424473112E+02	2.86024113572E+01	3.68563276720E+01	-4.69012106962E+01	1.32861067300E+02	-2.79567585020E+01	8.34819531168E+01
5.89688854317E+06	-7.03345062759E+00	1.71798784276E+02	2.87316782216E+01	3.62358317015E+01	-4.65519092250E+01	-1.25592760505E+02	-3.34167014019E+01	-1.58413249260E+00
5.94686076231E+06	-6.45027292323E+00	1.78039740585E+02	2.86914879589E+01	3.52816500332E+01	-4.78701135929E+01	-1.58870662182E+02	-3.73421759491E+01	3.78803427891E+01
5.99683298144E+06	-6.74755002278E+00	1.78464356690E+02	2.88081126816E+01	3.45491765858E+01	-5.04944734790E+01	1.52797089218E+02	-2.98518895357E+01	7.09303863862E+01
6.04680520058E+06	-5.70009667451E+00	1.76813926251E+02	2.87605674512E+01	3.45842025495E+01	-5.34231769453E+01	6.35032401540E+01	-2.56578478829E+01	5.07795032638E+01
6.09677741971E+06	-6.09077368210E+00	1.68155418129E+02	2.89497559842E+01	3.49077423136E+01	-5.26682001587E+01	1.66038087800E+02	-3.08069561199E+01	6.06609720572E+01
6.14674963885E+06	-6.13588196020E+00	1.75276189305E+02	2.89703153346E+01	3.37304190647E+01	-3.84301889321E+01	-8.16772777519E+01	-2.24054276088E+01	-4.09865311980E+01
