# Hz S DB R 50
! CMT, M5065, 19127446, 24.2.4/2
! Date: 12/3/2024 4:24:30 PM
! Data: Format (Calibration Info)
! Freq	S11:dB/Ang(F2)	S21:dB/Ang(F2)	S12:dB/Ang(F2)	S22:dB/Ang(F2)
3.00000000000E+05	-6.99953097978E+00	-1.78276597133E+02	8.56378923548E+00	9.13333762257E+01	-4.26153598343E+01	1.10256882776E+02	-3.10105235836E+01	-7.66834852945E+00
3.49972219135E+05	-4.37161630029E+00	-1.77244290008E+02	9.76008939476E+00	9.03498929483E+01	-4.75379399112E+01	-2.02839556490E+01	-2.94118207665E+01	7.06583530789E+00
3.99944438271E+05	-6.78340297229E+00	1.76724915840E+02	1.13971916029E+01	8.92682857048E+01	-4.69272139647E+01	7.36433728882E+01	-3.12320314886E+01	5.26452822648E+00
4.49916657406E+05	-5.97089900484E+00	1.75307482388E+02	1.21315142168E+01	8.85753932001E+01	-4.23478581833E+01	7.72788821581E+01	-3.20727189327E+01	1.81005619188E+01
4.99888876542E+05	-6.09469275926E+00	1.78413527555E+02	1.29684152723E+01	8.74240739756E+01	-4.43284902226E+01	-6.88341848610E+01	-2.92958246168E+01	3.43840085175E+00
5.49861095677E+05	-6.12642557055E+00	-1.75810281952E+02	1.37975384650E+01	8.56906895920E+01	-4.93957531625E+01	6.37392709979E+01	-3.04416659381E+01	1.27614084742E+01
5.99833314813E+05	-6.65622028108E+00	-1.76891707509E+02	1.46622849296E+01	8.54673722227E+01	-4.13766344247E+01	1.28445367850E+02	-3.44072437120E+01	-1.36720568628E+01
6.49805533948E+05	-4.75391591720E+00	1.79913518818E+02	1.50769605441E+01	8.48498564946E+01	-4.64119951857E+01	5.35887677884E+01	-3.09347790616E+01	1.75256807735E+01
6.99777753084E+05	-5.30237110053E+00	-1.75643742496E+02	1.57879312099E+01	8.33889694697E+01	-4.20213187346E+01	-8.04062076660E+01	-2.71063905947E+01	3.57697824435E+00
7.49749972219E+05	-5.94316716206E+00	1.76081853907E+02	1.65150589075E+01	8.37113255473E+01	-4.37926205093E+01	-1.27064189380E+02	-2.79766415145E+01	-8.00469347573E+00
7.99722191355E+05	-6.55642217387E+00	1.78838249354E+02	1.71384938833E+01	8.32263058689E+01	-3.99369726858E+01	-4.15089271083E+01	-2.65799888423E+01	1.63167883508E+01
8.49694410490E+05	-6.29791902132E+00	1.75446228152E+02	1.76532652409E+01	8.24587475048E+01	-4.23067083665E+01	4.99955442825E+01	-3.15107289480E+01	3.31660912369E+01
8.99666629626E+05	-6.51325873977E+00	1.76385158260E+02	1.81251957616E+01	8.16521298731E+01	-4.43565589916E+01	-1.74873719433E+02	-2.93327815299E+01	-1.58930003094E+01
9.49638848761E+05	-7.68513350534E+00	1.79519357177E+02	1.87298030235E+01	8.05214138656E+01	-4.90730868599E+01	1.79659678663E+02	-3.17160189566E+01	1.10071090752E-01
9.99611067896E+05	-5.65286347721E+00	-1.78064211794E+02	1.89649197898E+01	7.95035317097E+01	-4.45957673263E+01	-1.07845936213E+01	-2.57842180111E+01	1.95563524419E+01
1.04958328703E+06	-6.28537116210E+00	1.76534147466E+02	1.94713207767E+01	7.96417969314E+01	-4.36330843621E+01	2.07671852223E+01	-2.94129689520E+01	3.58348860927E+01
1.09955550617E+06	-5.30586484987E+00	-1.78082963897E+02	1.96955715087E+01	7.81190538591E+01	-4.38970999084E+01	-8.60669142590E+01	-2.65072689648E+01	3.07179320477E+00
1.14952772530E+06	-5.72378340566E+00	-1.74655992238E+02	2.01624315918E+01	7.71350527212E+01	-6.17271850701E+01	-1.22380934485E+02	-2.98138115008E+01	3.12956267042E+00
1.19949994444E+06	-5.05788198742E+00	1.78404707729E+02	2.04215311803E+01	7.75217356024E+01	-4.28135818509E+01	1.29258596016E+02	-3.59850509561E+01	-3.05965159615E+01
1.24947216357E+06	-5.93777973495E+00	-1.79651338840E+02	2.08706379530E+01	7.67413262226E+01	-5.10646465264E+01	1.61389614230E+02	-3.19776454358E+01	-4.59608917296E+00
1.29944438271E+06	-5.14693180274E+00	1.73170552970E+02	2.11716093279E+01	7.69090726731E+01	-4.29573081180E+01	-1.37112606191E+02	-2.73419866325E+01	-2.10053567082E+01
1.34941660184E+06	-6.56953294174E+00	1.78875403546E+02	2.16348039255E+01	7.54933957028E+01	-4.94172985228E+01	1.39427069355E+02	-3.13019516760E+01	1.22323560081E+01
1.39938882098E+06	-6.78503258020E+00	-1.77523414870E+02	2.19826167639E+01	7.47571902925E+01	-4.39469509540E+01	-8.77014072156E+01	-2.59411652394E+01	-1.45759132944E+00
1.44936104012E+06	-5.92227355487E+00	1.68847986552E+02	2.22101352913E+01	7.54776993746E+01	-3.77490332752E+01	8.78766394694E+00	-2.39922063053E+01	4.91736291056E+01
1.49933325925E+06	-4.83019640386E+00	-1.78917424955E+02	2.22658770899E+01	7.42628528153E+01	-4.27439195403E+01	-7.25879637965E+01	-2.46238273308E+01	7.30546546851E-01
1.54930547839E+06	-5.86698359960E+00	1.77070178833E+02	2.27541599697E+01	7.33473258191E+01	-4.97453891804E+01	1.68497400950E+02	-3.33770336883E+01	-1.59726787848E+01
1.59927769752E+06	-5.92931354505E+00	1.76668961720E+02	2.30082876372E+01	7.27737695016E+01	-5.21411332094E+01	8.17998040315E+01	-3.18576009439E+01	2.67091575554E+01
1.64924991666E+06	-4.98032441455E+00	1.78640802829E+02	2.31294550195E+01	7.21059176068E+01	-4.91069454494E+01	7.05652048643E+01	-3.05612716493E+01	2.15632827770E+01
1.69922213579E+06	-6.54076479447E+00	1.79950930831E+02	2.36045511573E+01	7.10254602511E+01	-4.47530630306E+01	1.08654546129E+02	-3.35414837757E+01	6.75613795906E+01
1.74919435493E+06	-5.64106547099E+00	1.71676979971E+02	2.37487755077E+01	7.15935775562E+01	-3.68009189554E+01	2.41000889772E+01	-2.28648937171E+01	6.30207241362E+01
1.79916657406E+06	-5.98768777972E+00	-1.77807474453E+02	2.40280810204E+01	6.94442724427E+01	-4.05344670112E+01	-1.02082056254E+02	-2.43177366564E+01	-1.86696568212E+01
1.84913879320E+06	-6.20507730973E+00	-1.75119774895E+02	2.42830530982E+01	6.77208175138E+01	-4.67951068758E+01	2.98170259812E+01	-2.74815419549E+01	4.16914115295E+01
1.89911101233E+06	-5.41871411957E+00	1.75791864104E+02	2.44249815381E+01	6.94763962580E+01	-4.42132905776E+01	-6.12564583990E+01	-2.49447133042E+01	3.23644084477E+00
1.94908323147E+06	-5.18142514363E+00	-1.76620806138E+02	2.45909213960E+01	6.77188469679E+01	-4.71176378340E+01	1.24314624750E+02	-3.77305820941E+01	3.26339891965E+01
1.99905545061E+06	-6.26947903780E+00	-1.79194563697E+02	2.49248376970E+01	6.74531903265E+01	-4.98517810759E+01	1.04338191998E+02	-3.52670022408E+01	4.61659270944E+01
2.04902766974E+06	-6.37317934060E+00	1.79929779836E+02	2.51481253275E+01	6.68317191794E+01	-4.89679937074E+01	9.88243529775E+01	-3.64052821847E+01	2.06792687085E+01
2.09899988888E+06	-6.47465876535E+00	1.75781843159E+02	2.54025140536E+01	6.68567822762E+01	-5.43516846848E+01	1.55882771285E+02	-3.15968570264E+01	3.74413612379E+00
2.14897210801E+06	-6.13168535065E+00	1.78093079439E+02	2.55394030252E+01	6.59144994425E+01	-4.78086713934E+01	-1.07656149214E+02	-2.79946290864E+01	-1.42003838389E+01
2.19894432715E+06	-6.28762066307E+00	-1.79603168461E+02	2.57923910390E+01	6.51461663577E+01	-5.60988629574E+01	7.37055949400E+01	-3.00838370377E+01	2.45104293949E+01
2.24891654628E+06	-5.53619908857E+00	1.76729961558E+02	2.58625316958E+01	6.52137891248E+01	-4.64929808021E+01	-3.70860016920E+01	-2.49287130723E+01	1.43142181828E+01
2.29888876542E+06	-6.20205635526E+00	1.78491147944E+02	2.61269330591E+01	6.41477082959E+01	-4.72628043938E+01	-1.10348781094E+02	-2.70560470624E+01	-1.09974905649E+01
2.34886098455E+06	-5.11673227647E+00	1.77528333936E+02	2.61566876618E+01	6.38870900751E+01	-3.88162892052E+01	-8.62195168939E+01	-2.17951378859E+01	-1.74049716461E+01
2.39883320369E+06	-5.95849383266E+00	1.78691857578E+02	2.64610270744E+01	6.30345941263E+01	-4.36164037901E+01	1.27560306648E+02	-3.36755859648E+01	-1.69087536197E+02
2.44880542282E+06	-5.73645796322E+00	1.77398452357E+02	2.65953903249E+01	6.27526765759E+01	-5.27933838748E+01	2.09491180156E+01	-2.84178892552E+01	3.11195651194E+01
2.49877764196E+06	-6.01878341834E+00	1.73663284759E+02	2.67751190172E+01	6.23750220684E+01	-6.08455497782E+01	4.69231127791E+01	-2.90934009412E+01	1.78380451352E+01
2.54874986110E+06	-6.16010777056E+00	1.73588507946E+02	2.69997923525E+01	6.20929232248E+01	-4.90226374690E+01	-1.77351182919E+02	-3.26220463518E+01	-1.41409795846E+01
2.59872208023E+06	-6.46500854182E+00	-1.78615570327E+02	2.71834926314E+01	6.04917470873E+01	-4.32873668011E+01	1.11597275842E+02	-3.59405970701E+01	1.17769909564E+02
2.64869429937E+06	-5.64283859159E+00	-1.78316304378E+02	2.72440651302E+01	5.98568140571E+01	-5.73618835738E+01	-1.46807154234E+02	-3.22808815377E+01	5.18705312272E+00
2.69866651850E+06	-6.35763394185E+00	1.75626898568E+02	2.74944406768E+01	6.00589188321E+01	-4.63500702662E+01	1.44647159955E+01	-2.54993680273E+01	4.07689379809E+01
2.74863873764E+06	-5.19123346193E+00	1.79498335942E+02	2.74938264054E+01	5.91291402853E+01	-4.11387768271E+01	-8.28946562346E+01	-2.09957370132E+01	-1.68280673411E+01
2.79861095677E+06	-5.56537090103E+00	1.77259283425E+02	2.77177752934E+01	5.88296109441E+01	-5.06849594741E+01	7.58992422135E+01	-3.06792322672E+01	4.66756837390E+01
2.84858317591E+06	-6.10767858942E+00	1.78817758742E+02	2.79027147485E+01	5.79101483290E+01	-4.78314456138E+01	-1.52956267586E+02	-3.04196783889E+01	-3.26155942319E+01
2.89855539504E+06	-6.37737571004E+00	1.74420590763E+02	2.81435161227E+01	5.80734117438E+01	-5.34483736977E+01	9.10196553987E-01	-2.72628691177E+01	2.87594954483E+01
2.94852761418E+06	-5.50739380872E+00	1.77509310512E+02	2.81503197504E+01	5.70992921520E+01	-5.13156891154E+01	5.75120198878E+01	-2.90254779873E+01	5.09778313208E+01
2.99849983331E+06	-5.58934857541E+00	1.72872887078E+02	2.82972306548E+01	5.70239394808E+01	-4.63602955799E+01	-1.55963516006E+01	-2.41845751584E+01	2.87397937324E+01
3.04847205245E+06	-5.85987547567E+00	1.73889885064E+02	2.84865978314E+01	5.64602079875E+01	-4.35907676628E+01	1.48841149195E+02	-3.58597855411E+01	-1.79706411462E+02
3.09844427159E+06	-6.28085766033E+00	-1.72590257690E+02	2.86406138002E+01	5.39566479421E+01	-5.35530707581E+01	1.34412858564E+02	-3.38699074826E+01	2.11584977575E+01
3.14841649072E+06	-5.92664986153E+00	1.71075080339E+02	2.87871415733E+01	5.54881151118E+01	-4.68916604356E+01	4.04541406420E+01	-2.54990035078E+01	5.38063786096E+01
3.19838870986E+06	-5.51556158206E+00	1.74363389558E+02	2.88406739261E+01	5.45659889845E+01	-4.70150694295E+01	-1.08654122777E+02	-2.75503866914E+01	-2.02308814979E+01
3.24836092899E+06	-6.27906523004E+00	1.74095214666E+02	2.90254548463E+01	5.36314683723E+01	-4.30148462814E+01	-7.07564499273E+00	-2.19874954518E+01	3.30578110642E+01
3.29833314813E+06	-6.63692953605E+00	1.78271379774E+02	2.91766689952E+01	5.26281017345E+01	-4.76789943014E+01	1.36229038278E+01	-2.47897418402E+01	3.83643018589E+01
3.34830536726E+06	-5.94931410941E+00	1.70594353837E+02	2.92937678489E+01	5.32712794608E+01	-4.53753617409E+01	2.80547944239E+01	-2.42749729766E+01	4.92079187172E+01
3.39827758640E+06	-5.39871267420E+00	1.76934933230E+02	2.92909411095E+01	5.19783131971E+01	-4.66377095191E+01	-1.48753254476E+02	-3.29279088363E+01	-5.21748855269E+01
3.44824980553E+06	-5.33452599227E+00	1.74953026737E+02	2.94119509748E+01	5.16101115058E+01	-4.74113551482E+01	3.06079555923E-01	-2.44168637190E+01	3.63632768270E+01
3.49822202467E+06	-5.83364219318E+00	1.74956330635E+02	2.96054773723E+01	5.08389906507E+01	-4.77513251544E+01	8.98845316008E+00	-2.39992158085E+01	3.39711873873E+01
3.54819424380E+06	-5.70410583173E+00	1.76073668876E+02	2.96767991647E+01	5.01500158263E+01	-4.99730372101E+01	1.66669236199E+02	-3.86527947511E+01	2.03449068976E+01
3.59816646294E+06	-5.53989056554E+00	1.78940539016E+02	2.97783851557E+01	4.94051735452E+01	-4.47739086324E+01	5.28165760653E+01	-2.36049963373E+01	6.62313163656E+01
3.64813868208E+06	-5.32913828500E+00	1.76390251398E+02	2.98526657019E+01	4.92258579710E+01	-4.38104816357E+01	-5.36918244138E+01	-2.19058858592E+01	-2.98071914090E+00
3.69811090121E+06	-5.93621923473E+00	1.72837431531E+02	3.00987044495E+01	4.88599120826E+01	-4.83298382002E+01	-1.02220495952E+02	-2.68641524838E+01	-1.67886430294E+01
3.74808312035E+06	-5.43552000107E+00	1.76477195450E+02	3.01110115376E+01	4.80901251844E+01	-5.10229259991E+01	1.63612255447E+02	-3.96318765795E+01	4.25425891167E+01
3.79805533948E+06	-6.90233179694E+00	1.72607238915E+02	3.04074262568E+01	4.75465410072E+01	-5.49053269994E+01	1.42792984352E+02	-3.53383234522E+01	5.45551097177E+01
3.84802755862E+06	-5.94953685239E+00	-1.79061732141E+02	3.03605951798E+01	4.62154635937E+01	-4.36061634049E+01	-1.58505589680E+02	-2.91982995864E+01	-1.00505872732E+02
3.89799977775E+06	-6.22419705341E+00	1.70333473230E+02	3.05482834066E+01	4.66969113316E+01	-4.16788582658E+01	-7.68181373332E+01	-2.12620425842E+01	-2.37423686796E+01
3.94797199689E+06	-5.97505821781E+00	1.74194266620E+02	3.05846200264E+01	4.57299212546E+01	-5.70987245080E+01	-5.17915462948E+01	-2.67121047031E+01	1.72261458233E+01
3.99794421602E+06	-6.13345524182E+00	1.77653889922E+02	3.07104932365E+01	4.48661723221E+01	-4.54360987541E+01	-1.76868502462E+02	-3.57490609061E+01	-1.32906790554E+02
4.04791643516E+06	-6.28029584495E+00	1.79337968584E+02	3.08138851340E+01	4.39934254491E+01	-4.80496627635E+01	8.79804175622E+01	-2.63504778613E+01	7.91821599629E+01
4.09788865429E+06	-5.88316296114E+00	1.78915465745E+02	3.08845548924E+01	4.36398306999E+01	-4.67219016419E+01	-1.10211869583E+02	-2.73163622188E+01	-2.98559755868E+01
4.14786087343E+06	-7.26435468694E+00	1.73089409211E+02	3.11511346173E+01	4.33260816373E+01	-4.81679244034E+01	-2.51977787192E+01	-2.36474123405E+01	9.60727236127E+00
4.19783309257E+06	-6.02708317648E+00	1.71783056190E+02	3.11289019873E+01	4.32612001556E+01	-4.94569299396E+01	-5.59405803014E+01	-2.63826365995E+01	-2.04768894043E+00
4.24780531170E+06	-6.07888322479E+00	1.70740662770E+02	3.12302510742E+01	4.29205457172E+01	-5.36791626684E+01	-1.51627231911E+02	-3.47565620111E+01	6.99383641387E-01
4.29777753084E+06	-6.50674859980E+00	-1.77881798085E+02	3.12723249110E+01	4.07785703936E+01	-4.86583294864E+01	2.71448415878E+01	-2.37848101097E+01	4.20396607669E+01
4.34774974997E+06	-5.72572549619E+00	-1.79923096526E+02	3.13092885423E+01	4.06877839546E+01	-4.10182177953E+01	3.77973932494E+01	-1.92148392190E+01	5.30050525744E+01
4.39772196911E+06	-5.15155822687E+00	1.72997131018E+02	3.13942348613E+01	4.12466810590E+01	-4.52365457764E+01	8.92742071822E+01	-2.36647649244E+01	8.20849184385E+01
4.44769418824E+06	-5.74360105586E+00	1.78709788676E+02	3.15053743676E+01	3.98033730801E+01	-4.76141545530E+01	1.28946988428E+02	-2.92857734285E+01	1.04033169102E+02
4.49766640738E+06	-5.92459391972E+00	1.76651746029E+02	3.16254947424E+01	3.93098955962E+01	-7.35459106670E+01	-1.03383501430E+02	-2.75683208735E+01	3.25217761739E+01
4.54763862651E+06	-6.40600727986E+00	1.74451273934E+02	3.17945268077E+01	3.89695819876E+01	-4.47571635061E+01	6.72406874930E+01	-2.19215344372E+01	6.62217132130E+01
4.59761084565E+06	-6.87109447948E+00	1.74338735648E+02	3.19182501331E+01	3.82874545956E+01	-4.60893809120E+01	-1.28351602484E+02	-2.92277127266E+01	-5.72891129677E+01
4.64758306478E+06	-6.34032967062E+00	1.69193982144E+02	3.20103916752E+01	3.84343327077E+01	-5.47123478250E+01	5.09679231399E+01	-2.61281494910E+01	4.50620452418E+01
4.69755528392E+06	-6.04153564046E+00	1.71560886350E+02	3.20294579519E+01	3.76338440483E+01	-4.52563612214E+01	-4.93500990920E+01	-2.25471954926E+01	-4.31550760192E+00
4.74752750306E+06	-6.47301542598E+00	1.79945519903E+02	3.21206810358E+01	3.62116412283E+01	-5.16947200163E+01	4.40257099143E+01	-2.50575297057E+01	4.98846388199E+01
4.79749972219E+06	-5.74471967732E+00	1.71189019230E+02	3.21681972596E+01	3.67684022262E+01	-4.53515514760E+01	-9.15482924280E+01	-2.57767584877E+01	-2.85504073502E+01
4.84747194133E+06	-5.43711906905E+00	1.71191856055E+02	3.22055437610E+01	3.62157212650E+01	-3.89686727212E+01	4.03309176758E+01	-1.65489832324E+01	4.84068981606E+01
4.89744416046E+06	-5.78050140596E+00	1.72731586639E+02	3.23000732415E+01	3.53677905430E+01	-3.80160645165E+01	-1.55822661919E+02	-2.16029592044E+01	-1.56033505641E+02
4.94741637960E+06	-7.21034813061E+00	1.75626806716E+02	3.25055084334E+01	3.41600627339E+01	-4.73426458450E+01	-1.04331971437E+02	-2.72999966777E+01	-3.39168867215E+01
4.99738859873E+06	-5.78009245754E+00	1.76289133251E+02	3.24518336325E+01	3.36375295422E+01	-4.49732543998E+01	-1.27189421513E+02	-2.94199267862E+01	-7.37700062607E+01
5.04736081787E+06	-5.71552910896E+00	1.68947712364E+02	3.25652392806E+01	3.40042015048E+01	-6.01750540837E+01	3.50957108670E+01	-2.67401373531E+01	4.23699761372E+01
5.09733303700E+06	-5.83164568260E+00	1.71837382794E+02	3.26355917794E+01	3.33011505193E+01	-5.17408812233E+01	1.47838087608E+02	-3.04848472600E+01	7.95326333630E+01
5.14730525614E+06	-5.76938638794E+00	1.70291274117E+02	3.27111840924E+01	3.26959816307E+01	-6.08771432833E+01	-9.92965315843E+01	-3.02124387234E+01	2.15539377636E+01
5.19727747528E+06	-6.34302127293E+00	1.72346434200E+02	3.28284758234E+01	3.17300803190E+01	-5.00595752448E+01	-1.73970385740E+02	-4.09417349706E+01	1.66496320893E+02
5.24724969441E+06	-6.32229366726E+00	1.66763260274E+02	3.29323385642E+01	3.18999599092E+01	-4.88957232739E+01	-1.64278940916E+02	-3.73842732553E+01	9.74010829894E+01
5.29722191355E+06	-5.95398143379E+00	1.76022565775E+02	3.29091633983E+01	3.03514452556E+01	-4.64459842407E+01	-1.44048373810E+02	-3.56098389174E+01	-1.11127288962E+02
5.34719413268E+06	-6.53194354898E+00	1.73996930804E+02	3.30609611785E+01	2.98526770484E+01	-4.54990138026E+01	-1.41981293207E+02	-3.36993827464E+01	-1.12902720651E+02
5.39716635182E+06	-5.55385701964E+00	1.73533468808E+02	3.29955477735E+01	2.96238728707E+01	-4.66263781159E+01	-1.23661734336E+01	-2.12288064860E+01	1.56149083528E+01
5.44713857095E+06	-5.90013711877E+00	1.74258640745E+02	3.31276643716E+01	2.89644636166E+01	-4.96966674862E+01	-1.67072207569E+02	-3.74017626949E+01	1.01066561841E+02
5.49711079009E+06	-5.99303631070E+00	1.73465177805E+02	3.31928535375E+01	2.83343470999E+01	-4.76608212093E+01	6.76218786819E+01	-2.22252611537E+01	5.99020112445E+01
5.54708300922E+06	-5.91398424895E+00	1.74310933981E+02	3.32560919504E+01	2.78888182341E+01	-4.73908969460E+01	8.06533975952E+01	-2.19930759514E+01	6.49075631916E+01
5.59705522836E+06	-6.42869361156E+00	1.69788654057E+02	3.34157259529E+01	2.74325871909E+01	-4.78078134633E+01	-1.17246986189E+02	-3.90862800663E+01	-8.73146276226E+01
5.64702744749E+06	-6.57683798783E+00	1.73983323590E+02	3.34481356406E+01	2.65842058887E+01	-4.50667232107E+01	-1.32140240208E+02	-3.01125522376E+01	-1.01509702113E+02
5.69699966663E+06	-6.58224770000E+00	1.75411324817E+02	3.35104822957E+01	2.57232713878E+01	-5.15658385128E+01	-1.40107074761E+02	-4.07849729356E+01	6.14617635941E+00
5.74697188577E+06	-6.07556947839E+00	1.72592346912E+02	3.35365608033E+01	2.56240961715E+01	-4.40031043796E+01	1.42009014201E+02	-2.25722837006E+01	1.20897025559E+02
5.79694410490E+06	-5.76881660357E+00	1.70465950272E+02	3.36093128386E+01	2.55005887975E+01	-4.57424964739E+01	-1.17703288628E+02	-2.93787280338E+01	-7.65410090596E+01
5.84691632404E+06	-6.21991303293E+00	1.70164534133E+02	3.36989030716E+01	2.48738807825E+01	-5.92197450906E+01	-1.41324849065E+02	-3.19409679683E+01	3.28430421125E+01
5.89688854317E+06	-6.40308950802E+00	1.75074813911E+02	3.37739938530E+01	2.36025971291E+01	-5.66454407180E+01	1.48057280638E+02	-3.09725916510E+01	7.61895748359E+01
5.94686076231E+06	-6.50194423976E+00	-1.79763607480E+02	3.38144506393E+01	2.25023262012E+01	-5.10209735767E+01	-1.88028219068E+01	-2.35895740847E+01	1.13780553216E+01
5.99683298144E+06	-6.21984392143E+00	1.79213731945E+02	3.38477060274E+01	2.21651667616E+01	-5.14837938352E+01	1.04005444560E+02	-2.47545067198E+01	6.63849445101E+01
6.04680520058E+06	-6.26814399548E+00	1.74021876366E+02	3.39382170633E+01	2.21413786903E+01	-4.84982280307E+01	8.45944873937E+01	-2.21609225495E+01	6.63970433639E+01
6.09677741971E+06	-7.80878360534E+00	1.79771275817E+02	3.41142926394E+01	2.05243576162E+01	-4.62779973705E+01	1.73559218230E+02	-2.78958844423E+01	1.27930640721E+02
6.14674963885E+06	-5.32541226428E+00	1.76620700304E+02	3.39409600241E+01	2.09761455978E+01	-4.53047289425E+01	1.41278931601E+02	-2.28613198201E+01	1.11373810614E+02
