# Hz S DB R 50
! CMT, M5065, 19127446, 24.2.4/2
! Date: 11/8/2024 3:34:03 PM
! Data: Format (Calibration Info)
! Freq	S11:dB/Ang(F2)	S21:dB/Ang(F2)	S12:dB/Ang(F2)	S22:dB/Ang(F2)
3.00000000000E+05	-1.14803653631E+01	-1.73518836548E+02	4.57905497586E+00	-1.77743917907E+02	-4.44329528553E+01	3.52865245008E+01	-5.99627453695E+00	-3.07067810873E-01
3.22191354595E+05	-1.41776204476E+01	-1.79208532393E+02	4.60006554159E+00	-1.77861792262E+02	-4.95784366552E+01	3.36392253615E+01	-6.00176417066E+00	-4.01379247065E-01
3.44382709190E+05	-1.37954436346E+01	1.73265540384E+02	4.67006641544E+00	-1.78102631964E+02	-3.90368053275E+01	1.40289541924E+02	-5.98623416743E+00	-4.39770013133E-01
3.66574063785E+05	-1.04875634896E+01	-1.69844392674E+02	4.63627940817E+00	-1.78420591570E+02	-4.51090559894E+01	-5.49453492497E+00	-6.01255584480E+00	-2.73968233284E-01
3.88765418380E+05	-1.35185424358E+01	-1.69869496586E+02	4.67625483833E+00	-1.78822271242E+02	-4.42615283359E+01	6.02802570694E+01	-5.99306640175E+00	-2.50289049008E-01
4.10956772975E+05	-1.54375760656E+01	1.73585935742E+02	4.63504041194E+00	-1.79011164227E+02	-4.48532171235E+01	-1.02009861050E+02	-5.99449722039E+00	-2.20004873435E-01
4.33148127570E+05	-1.90938091468E+01	1.67486739781E+02	4.68150492984E+00	-1.79110950805E+02	-4.55536756814E+01	-1.60353647437E+02	-5.98217731553E+00	-3.54404401359E-01
4.55339482165E+05	-1.57849469632E+01	1.65074828783E+02	4.66929283773E+00	-1.79284738195E+02	-4.36485858459E+01	-6.20807429325E+01	-6.01674113621E+00	-3.35409795800E-01
4.77530836760E+05	-1.10869712906E+01	-1.77003014951E+02	4.59718502389E+00	-1.79713424828E+02	-4.38669154564E+01	1.12242150461E+02	-5.98263483985E+00	-4.24082046183E-01
4.99722191355E+05	-1.20238280320E+01	-1.70946393333E+02	4.66084001014E+00	1.79996967513E+02	-5.10227355814E+01	-3.70789406546E+01	-5.97947245456E+00	-2.13298372989E-01
5.21913545950E+05	-1.60294995340E+01	1.70833495676E+02	4.65290950947E+00	-1.79582723147E+02	-4.48074471344E+01	-1.11015220977E+02	-5.99548053262E+00	-1.67339810081E-01
5.44104900545E+05	-1.32714703070E+01	1.79405825626E+02	4.70477616036E+00	-1.79939343606E+02	-4.70170468083E+01	1.30704307386E+02	-6.00239579987E+00	-4.30823710754E-01
5.66296255139E+05	-1.08220576996E+01	-1.69922503085E+02	4.69328943577E+00	1.79739966799E+02	-4.27158419951E+01	1.48620026499E+02	-5.98865975356E+00	-3.82399632654E-01
5.88487609734E+05	-1.62523166330E+01	-1.51997248401E+02	4.67504638572E+00	1.79529341983E+02	-3.99730265676E+01	2.51706322851E+01	-5.99297850580E+00	-5.04477338435E-01
6.10678964329E+05	-1.34663874459E+01	1.67802550308E+02	4.66580309184E+00	1.79533117826E+02	-5.10033183475E+01	-1.49315531267E+01	-6.00495497901E+00	8.20108071464E-02
6.32870318924E+05	-1.15605792096E+01	-1.76156354962E+02	4.54852828144E+00	1.79177165080E+02	-4.10254939144E+01	-1.74674890916E+01	-6.01628265328E+00	-1.55321294830E-01
6.55061673519E+05	-1.49028209079E+01	-1.77190625289E+02	4.59980865300E+00	1.79229683668E+02	-8.44336216241E+01	-1.73698961917E+02	-6.01017546612E+00	-3.08974493236E-01
6.77253028114E+05	-1.11436300928E+01	-1.77679849585E+02	4.63364590467E+00	1.78827204815E+02	-4.51433900328E+01	8.85726285513E+00	-6.00187689703E+00	-7.22012186453E-01
6.99444382709E+05	-1.07269830039E+01	1.77571546661E+02	4.59875596974E+00	1.78929994408E+02	-4.28367259028E+01	7.80313557161E+01	-6.00803860441E+00	-4.31449502996E-01
7.21635737304E+05	-1.50086034430E+01	-1.50211433790E+02	4.68093625091E+00	1.78851241421E+02	-4.78473656793E+01	1.27024210234E+02	-5.99685966337E+00	-4.92514778629E-01
7.43827091899E+05	-1.23775659416E+01	-1.76146112199E+02	4.64549158767E+00	1.78642906683E+02	-3.22180668515E+01	-1.57593496906E+02	-5.97585446885E+00	-1.91656688494E-01
7.66018446494E+05	-1.58011937106E+01	-1.64946173948E+02	4.67108881380E+00	1.78611358268E+02	-5.12771480441E+01	3.74986434050E+01	-5.98292581932E+00	-4.72842965115E-01
7.88209801089E+05	-1.29200233979E+01	1.78121822943E+02	4.64832103204E+00	1.78413694615E+02	-4.33398395566E+01	-1.43485337678E+02	-6.01069950264E+00	-4.79042998376E-01
8.10401155684E+05	-1.51170172579E+01	1.70731816131E+02	4.66607231290E+00	1.78678173284E+02	-5.40691144387E+01	1.00056814518E+01	-6.00091618552E+00	-4.82795480520E-01
8.32592510279E+05	-1.60917160246E+01	1.66324557250E+02	4.65940995904E+00	1.78285733032E+02	-4.60288510122E+01	-1.03008879363E+02	-5.98976061020E+00	-5.62026311602E-01
8.54783864874E+05	-1.28522666656E+01	-1.63361770298E+02	4.68045600271E+00	1.77793030318E+02	-6.43366737078E+01	-1.74468198946E+02	-5.99429047331E+00	-3.69843661630E-01
8.76975219469E+05	-1.10964963588E+01	-1.70050108475E+02	4.65524110922E+00	1.77850814576E+02	-4.35486623649E+01	-8.17947709522E+01	-5.99382233977E+00	-3.89931941179E-01
8.99166574064E+05	-1.37250063504E+01	1.74621793945E+02	4.64594589535E+00	1.78269480579E+02	-4.28540987078E+01	-1.00771087977E+02	-6.00660920730E+00	-4.81711635994E-01
9.21357928659E+05	-1.23197603880E+01	1.66261006377E+02	4.62229934431E+00	1.77753450892E+02	-5.14250215563E+01	-6.20025034323E+01	-5.98717534786E+00	-4.51704358499E-01
9.43549283254E+05	-1.41565437725E+01	-1.64984773427E+02	4.68838797250E+00	1.77425995042E+02	-4.45192013018E+01	-6.84184125083E+01	-6.01884280055E+00	-4.99554700136E-01
9.65740637849E+05	-1.47544242654E+01	-1.68701882980E+02	4.67474368900E+00	1.77600805338E+02	-4.92017651875E+01	9.14002164839E+01	-6.00622156294E+00	-3.67754231409E-01
9.87931992444E+05	-1.22582991547E+01	1.64279600491E+02	4.63297804224E+00	1.77380421227E+02	-3.94560653553E+01	-1.59928041344E+02	-5.99176475892E+00	-4.40480126065E-01
1.01012334704E+06	-1.08128963392E+01	1.60546477906E+02	4.57383962081E+00	1.77376083387E+02	-5.80677452763E+01	-5.30075286831E+01	-6.00701618361E+00	-5.30376326835E-01
1.03231470163E+06	-1.08669518614E+01	1.73387521071E+02	4.58075227896E+00	1.77372068716E+02	-4.77791429453E+01	8.45657632692E+01	-5.99533218448E+00	-5.83876041944E-01
1.05450605623E+06	-1.50748842672E+01	1.78325129032E+02	4.65824307028E+00	1.77487713548E+02	-4.54441283490E+01	-1.30956878411E+02	-6.01596790343E+00	-5.07944518943E-01
1.07669741082E+06	-1.07634460624E+01	1.76395192502E+02	4.60938327302E+00	1.76756876810E+02	-4.53204064683E+01	-1.58535378413E+02	-5.99478651495E+00	-4.38138259312E-01
1.09888876542E+06	-1.67758107177E+01	-1.73847647604E+02	4.70368186221E+00	1.77254994252E+02	-4.12320340856E+01	1.53016992800E+02	-6.01259096557E+00	-5.83442192763E-01
1.12108012001E+06	-1.63896455031E+01	-1.72354393219E+02	4.71309043175E+00	1.76741154698E+02	-4.58258758216E+01	1.25224402745E+02	-5.99690183073E+00	-4.12900246004E-01
1.14327147461E+06	-9.73506353034E+00	-1.67799959090E+02	4.62715467508E+00	1.76668181038E+02	-4.23068798830E+01	-1.33358549378E+02	-6.00488322939E+00	-4.60120134520E-01
1.16546282920E+06	-1.82743522416E+01	-1.74264247235E+02	4.71780548869E+00	1.76745990834E+02	-4.72952057399E+01	-1.15698245074E+02	-5.99732962894E+00	-4.59336371559E-01
1.18765418380E+06	-1.46848756071E+01	1.57017760391E+02	4.65998698370E+00	1.76659230577E+02	-4.34582971756E+01	-9.99380997506E+01	-6.01557120581E+00	-5.41335431941E-01
1.20984553839E+06	-1.24606872556E+01	-1.74164202431E+02	4.65937313920E+00	1.76373203209E+02	-4.87218802948E+01	-3.38197664607E+01	-5.98394409977E+00	-7.19443509817E-01
1.23203689299E+06	-1.49299837308E+01	1.62300388824E+02	4.66034631960E+00	1.76432418390E+02	-4.85606880951E+01	7.15698040300E+01	-5.99730420787E+00	-4.61120858060E-01
1.25422824758E+06	-1.44891030468E+01	-1.57058863192E+02	4.64326559245E+00	1.76151863951E+02	-4.47423948965E+01	-1.71609609731E+02	-6.01598201511E+00	-5.91444361720E-01
1.27641960218E+06	-1.77760588910E+01	-1.79195146925E+02	4.66122491031E+00	1.76302532192E+02	-4.58762494784E+01	1.56341248674E+02	-5.99721826866E+00	-7.10219985814E-01
1.29861095677E+06	-1.65661132912E+01	-1.72860727187E+02	4.70531846460E+00	1.76050731712E+02	-4.77242719346E+01	1.69543489603E+02	-5.99696023234E+00	-6.11022047963E-01
1.32080231137E+06	-1.16920021502E+01	-1.63341445475E+02	4.68619807288E+00	1.75723844986E+02	-4.32975907575E+01	6.20052548986E+01	-5.99604113627E+00	-1.01862455568E+00
1.34299366596E+06	-1.39235204952E+01	-1.76526891807E+02	4.60000448814E+00	1.76097672009E+02	-4.11025236202E+01	6.24731339888E+01	-5.97338805860E+00	-7.78351254877E-01
1.36518502056E+06	-1.24575834632E+01	-1.67234242329E+02	4.64160705655E+00	1.75553536582E+02	-3.86599636960E+01	8.98496438957E+01	-5.98667706409E+00	-8.58248511261E-01
1.38737637515E+06	-1.33743041173E+01	-1.60292224129E+02	4.68842706611E+00	1.75717831125E+02	-4.21071441609E+01	3.72286990293E+01	-5.98592070222E+00	-8.01401593942E-01
1.40956772975E+06	-1.17337959280E+01	1.77258927660E+02	4.66034879922E+00	1.75734988396E+02	-4.18455794963E+01	-4.31261656803E+01	-6.01915304971E+00	-5.79378850047E-01
1.43175908434E+06	-1.45712135065E+01	1.72466797820E+02	4.66403577110E+00	1.75814488735E+02	-4.45356124273E+01	1.30087898895E+02	-5.97622630121E+00	-7.65092012213E-01
1.45395043894E+06	-1.49194299992E+01	-1.76946421704E+02	4.68422679408E+00	1.75717929955E+02	-4.50065001071E+01	-5.16031991578E+00	-6.01673929652E+00	-5.38450797051E-01
1.47614179353E+06	-1.37047494302E+01	-1.68920725204E+02	4.62705368451E+00	1.75544288550E+02	-4.48143964238E+01	1.06640420769E+02	-5.97906969870E+00	-7.99325256575E-01
1.49833314813E+06	-1.43398465699E+01	1.63082536682E+02	4.65721417062E+00	1.75792210972E+02	-6.72718902019E+01	-9.28356903948E+01	-5.98756227497E+00	-5.91866714942E-01
1.52052450272E+06	-1.33315055524E+01	1.76948398023E+02	4.67450422020E+00	1.75008320420E+02	-3.35328463906E+01	4.68423621219E+01	-5.98098582388E+00	-8.82041426051E-01
1.54271585732E+06	-1.27507756478E+01	-1.69144388316E+02	4.62307986541E+00	1.74829353608E+02	-4.73233331513E+01	1.64329981478E+02	-5.98077361097E+00	-8.92774760484E-01
1.56490721191E+06	-1.80762705336E+01	-1.59073396313E+02	4.73227802038E+00	1.75194962066E+02	-4.64515550782E+01	-7.89817060375E+01	-6.00512071828E+00	-6.69257101388E-01
1.58709856651E+06	-1.46017116340E+01	-1.69828764189E+02	4.68817410807E+00	1.74846096928E+02	-4.93592020063E+01	-1.75707940800E+02	-5.99397239581E+00	-7.31413985948E-01
1.60928992110E+06	-1.17192151662E+01	-1.66667583381E+02	4.64316840089E+00	1.74794226608E+02	-4.57353225658E+01	-5.93729436744E+01	-6.00803470700E+00	-8.46437119617E-01
1.63148127570E+06	-1.22652412598E+01	1.71807145029E+02	4.64995240771E+00	1.74875395599E+02	-4.76874222921E+01	-7.05441853422E+01	-6.02787226942E+00	-8.51590448661E-01
1.65367263029E+06	-1.43980379714E+01	1.71105163296E+02	4.62625482486E+00	1.74842931651E+02	-4.39193484164E+01	-3.97794627819E+01	-6.00863772112E+00	-6.91479644295E-01
1.67586398489E+06	-1.44207379424E+01	1.73526041252E+02	4.70884711283E+00	1.74480040801E+02	-3.98498115622E+01	-5.46794268319E+01	-5.99922949679E+00	-7.98295446930E-01
1.69805533948E+06	-1.17741116708E+01	1.75972464119E+02	4.62989807527E+00	1.74734245205E+02	-4.17157277787E+01	1.34525618242E+02	-5.99200665296E+00	-7.39853801521E-01
1.72024669408E+06	-1.49095962057E+01	1.78880442610E+02	4.69400430801E+00	1.74427341680E+02	-5.41409875642E+01	-7.88462889834E+01	-6.00074746169E+00	-7.09199647059E-01
1.74243804867E+06	-1.22936474178E+01	-1.67785474995E+02	4.64551171975E+00	1.74328238376E+02	-4.42927399650E+01	-3.64499666325E+01	-6.01431289852E+00	-7.98221424087E-01
1.76462940327E+06	-1.46024561757E+01	-1.75695733342E+02	4.63859893786E+00	1.74480680397E+02	-3.74507155859E+01	1.25757972829E+02	-5.98607186833E+00	-8.60969504767E-01
1.78682075786E+06	-1.58874423861E+01	1.56835044443E+02	4.65816524446E+00	1.74325973271E+02	-4.08795324519E+01	9.60817100092E-01	-6.01015498938E+00	-8.26320620865E-01
1.80901211246E+06	-1.11736584477E+01	-1.77921209817E+02	4.69337485313E+00	1.74099826063E+02	-4.71120255829E+01	-2.37588948242E+01	-6.02733411313E+00	-7.88798394863E-01
1.83120346705E+06	-1.25979515007E+01	-1.64530551834E+02	4.67199309074E+00	1.73915421908E+02	-3.04099176784E+01	-7.16792575413E+01	-6.02990944570E+00	-6.67761042071E-01
1.85339482165E+06	-1.38474811747E+01	-1.71097619100E+02	4.64307400136E+00	1.73695023669E+02	-4.09581841805E+01	7.24990911109E+01	-5.98986412411E+00	-9.29758588553E-01
1.87558617624E+06	-1.42681676506E+01	-1.62214897671E+02	4.67803579454E+00	1.74016457279E+02	-5.46416670793E+01	-1.07555646059E+02	-5.99067255106E+00	-8.13190842461E-01
1.89777753084E+06	-1.36727175637E+01	-1.58666814391E+02	4.69044495975E+00	1.73537474806E+02	-5.11259134865E+01	1.39242212779E+01	-6.00500465761E+00	-8.93356392255E-01
1.91996888543E+06	-1.22523874926E+01	1.76691020602E+02	4.60826707398E+00	1.73638762256E+02	-4.52770482581E+01	-9.20858584803E+01	-5.99148578957E+00	-7.96112734551E-01
1.94216024003E+06	-1.10100765439E+01	-1.53248055277E+02	4.70028969623E+00	1.73212481466E+02	-4.34791507111E+01	5.13284435040E+01	-5.98763625190E+00	-9.65133864894E-01
1.96435159462E+06	-1.18579707760E+01	-1.51824894772E+02	4.67235798093E+00	1.73203271279E+02	-5.07378853110E+01	1.57808588528E+02	-5.99108660126E+00	-9.36295312436E-01
1.98654294922E+06	-1.20588053142E+01	1.79383216936E+02	4.66727947480E+00	1.73461430711E+02	-3.45552950877E+01	-3.14557770681E+01	-6.02358836628E+00	-1.00046379825E+00
2.00873430381E+06	-1.06518408174E+01	-1.77366767468E+02	4.64815364384E+00	1.73166998143E+02	-5.39795460141E+01	-2.11746474296E+01	-5.99991861094E+00	-9.70090979528E-01
2.03092565841E+06	-1.46128674287E+01	-1.71211620580E+02	4.65250029026E+00	1.73241095625E+02	-5.12400195465E+01	-9.29045330680E+01	-5.98750696116E+00	-8.88002755778E-01
2.05311701300E+06	-1.29264585333E+01	1.79941607685E+02	4.72132115722E+00	1.73122497804E+02	-5.09140193342E+01	-1.26654008247E+00	-6.00657251641E+00	-1.02429334447E+00
2.07530836760E+06	-1.96773862062E+01	-1.66926094559E+02	4.74102359113E+00	1.73263634488E+02	-4.29748100429E+01	1.41540719744E+02	-5.97980106650E+00	-1.05014161906E+00
2.09749972219E+06	-1.33847582495E+01	-1.46958286414E+02	4.69016373932E+00	1.72573352807E+02	-4.77131348911E+01	-9.19566424829E+01	-6.00774577653E+00	-8.38433080697E-01
2.11969107679E+06	-1.53998791093E+01	-1.52679403845E+02	4.73038086058E+00	1.72701260485E+02	-4.22992599963E+01	1.17578848146E+02	-5.97074858071E+00	-1.06559862330E+00
2.14188243138E+06	-1.78766480225E+01	-1.64684956483E+02	4.68514564640E+00	1.72942368029E+02	-3.90704478048E+01	1.22098088590E+02	-5.95796489372E+00	-9.27611361934E-01
2.16407378598E+06	-1.45825647585E+01	-1.70066210758E+02	4.66760258488E+00	1.72675734128E+02	-5.31018860672E+01	-2.60266799984E+01	-5.99837405897E+00	-9.66716615027E-01
2.18626514057E+06	-1.40613102743E+01	-1.65082893680E+02	4.67768229998E+00	1.72678933545E+02	-5.31967677986E+01	-7.48045971252E+01	-5.99894437875E+00	-9.74767146760E-01
2.20845649517E+06	-1.41829348370E+01	-1.67544239975E+02	4.68887644593E+00	1.72175722969E+02	-4.21252192772E+01	2.16359431699E+01	-6.00549492889E+00	-1.02854891404E+00
2.23064784976E+06	-1.25912653707E+01	1.72725641968E+02	4.67687463269E+00	1.72477392374E+02	-4.55063426959E+01	3.31496486400E+01	-6.00368535662E+00	-1.11185701817E+00
2.25283920436E+06	-1.92905687309E+01	1.48648691360E+02	4.67250278116E+00	1.72648666079E+02	-4.74455606740E+01	-7.54850774630E+01	-5.99073135735E+00	-9.36548563683E-01
2.27503055895E+06	-1.44261131892E+01	-1.77856067912E+02	4.70904685277E+00	1.72003628451E+02	-4.27253210351E+01	1.02552688576E+02	-5.97643994909E+00	-1.16219858764E+00
2.29722191355E+06	-1.22482711636E+01	1.76362530672E+02	4.70780068131E+00	1.71890715976E+02	-3.67511262763E+01	-1.56066459291E+02	-5.98905981288E+00	-9.87821932503E-01
2.31941326814E+06	-1.24971211864E+01	1.75959839508E+02	4.70373997061E+00	1.72228796092E+02	-4.22636790194E+01	8.53903332420E+01	-5.99133327851E+00	-1.14044830845E+00
2.34160462274E+06	-1.50568193223E+01	-1.77824243495E+02	4.66637400917E+00	1.72054927236E+02	-4.88510186401E+01	-3.11155222826E-01	-6.00984024678E+00	-9.61348323104E-01
2.36379597733E+06	-1.37793461702E+01	-1.69627891088E+02	4.70476331889E+00	1.71847072550E+02	-4.63274861964E+01	-1.20171247627E+02	-5.98890062138E+00	-1.07895663383E+00
2.38598733193E+06	-1.74792120112E+01	-6.45967136370E+01	4.79329121589E+00	1.72563987427E+02	-4.23388823094E+01	-9.63289067249E+01	-6.00883356366E+00	-9.61867217227E-01
2.40817868652E+06	-1.18862648356E+01	-1.48514963547E+02	4.70642764613E+00	1.71494873449E+02	-5.04055502380E+01	1.80582805643E+01	-6.00349146129E+00	-1.25749007527E+00
2.43037004112E+06	-1.44403304770E+01	-1.53712784267E+02	4.72251508653E+00	1.71515977458E+02	-6.04606383847E+01	-2.97401343203E+01	-6.01627245302E+00	-1.58577213201E+00
2.45256139571E+06	-1.27137321174E+01	-1.70924775636E+02	4.67519183424E+00	1.71628255648E+02	-3.02256284994E+01	1.35021484985E+02	-5.97446403527E+00	-1.12650559546E+00
2.47475275031E+06	-1.34722759518E+01	1.79391398288E+02	4.66686843039E+00	1.71517590990E+02	-4.61438955032E+01	-3.29362666916E+01	-6.02480470122E+00	-1.18339252545E+00
2.49694410490E+06	-1.53778266461E+01	-1.79307888915E+02	4.70598612038E+00	1.71458356597E+02	-5.33179601856E+01	-4.07698791154E+01	-6.01183834606E+00	-1.00745706882E+00
2.51913545950E+06	-1.37486379774E+01	-1.68992964843E+02	4.70496044302E+00	1.71458485693E+02	-4.32592564718E+01	-1.00359361669E+02	-5.99999912846E+00	-1.11358364986E+00
2.54132681409E+06	-1.58393301748E+01	-1.37385143083E+02	4.70168329875E+00	1.71168381906E+02	-4.19042905799E+01	-1.18576715267E+02	-6.01058499320E+00	-9.40670449529E-01
2.56351816869E+06	-1.14222579048E+01	1.73984876813E+02	4.63075821141E+00	1.71233383783E+02	-4.62289332645E+01	8.61971409104E+01	-5.98824506102E+00	-9.78403030012E-01
2.58570952328E+06	-1.42732135006E+01	1.74027510799E+02	4.69241238902E+00	1.71256479742E+02	-4.65195784623E+01	1.68107547844E+02	-5.99776115958E+00	-1.06329933295E+00
2.60790087788E+06	-1.44499432860E+01	-1.70325511450E+02	4.68858010901E+00	1.70828877946E+02	-4.45895934202E+01	7.76548337212E+01	-6.00155824939E+00	-1.07250089957E+00
2.63009223247E+06	-1.24169773869E+01	-1.67803161967E+02	4.68184820122E+00	1.70927902446E+02	-4.68831183243E+01	1.36222619518E+01	-6.01550503529E+00	-8.05350607790E-01
2.65228358707E+06	-1.02163737360E+01	-1.70458075158E+02	4.69441068137E+00	1.70743173989E+02	-4.32120337668E+01	1.52857340096E+01	-6.00524944279E+00	-1.17856669900E+00
2.67447494166E+06	-1.46807183762E+01	-1.56212944806E+02	4.72397127700E+00	1.70598820992E+02	-5.45706685134E+01	-1.45556695097E+02	-5.99340209331E+00	-1.13915957811E+00
2.69666629626E+06	-1.11176706616E+01	-1.70679108282E+02	4.70000882809E+00	1.70644192026E+02	-4.51272908765E+01	-7.41324910995E+01	-5.99652495620E+00	-1.05615956810E+00
2.71885765085E+06	-1.36144962854E+01	-1.74409821230E+02	4.69802903490E+00	1.70683577219E+02	-5.23173414642E+01	1.64188111496E+02	-5.97699215975E+00	-1.20312533864E+00
2.74104900545E+06	-1.31411787696E+01	-1.63943409714E+02	4.73937876224E+00	1.70734688936E+02	-5.74302884511E+01	-4.09228763760E+01	-5.97760338144E+00	-1.30095663518E+00
2.76324036004E+06	-1.62049453751E+01	-1.77505810967E+02	4.69887221304E+00	1.70269827049E+02	-3.72477588511E+01	2.17927848785E+01	-5.99721937598E+00	-1.26914917753E+00
2.78543171463E+06	-1.39292336584E+01	-1.62047124900E+02	4.71044954609E+00	1.70225496096E+02	-4.85271491117E+01	9.29470412892E+01	-5.99809292765E+00	-1.28727730727E+00
2.80762306923E+06	-1.49597589088E+01	-1.59375340611E+02	4.76824826076E+00	1.70467650766E+02	-4.85763907963E+01	9.50796113036E+01	-5.99978254526E+00	-1.36330917822E+00
2.82981442382E+06	-1.36048408581E+01	-1.54278853639E+02	4.71923057912E+00	1.70081502041E+02	-4.52553102958E+01	9.83638911649E+01	-5.98701621977E+00	-1.27046274252E+00
2.85200577842E+06	-1.02548450543E+01	-1.68798330253E+02	4.69041895426E+00	1.69983564672E+02	-4.58906992161E+01	3.00584655816E+01	-6.01024617695E+00	-1.23420749071E+00
2.87419713301E+06	-1.26015291525E+01	-1.45980221075E+02	4.77903918839E+00	1.70034021496E+02	-4.51850734551E+01	2.75432183884E+01	-6.00235199203E+00	-1.40150187391E+00
