# Hz S DB R 50
! CMT, M5065, 19127446, 24.2.4/2
! Date: 11/8/2024 3:33:06 PM
! Data: Format (Calibration Info)
! Freq	S11:dB/Ang(F2)	S21:dB/Ang(F2)	S12:dB/Ang(F2)	S22:dB/Ang(F2)
3.00000000000E+05	-1.59212685355E+01	-1.71930101524E+02	4.66468914697E+00	-1.77755770452E+02	-3.94602112275E+01	9.93885877236E+01	-6.00995142617E+00	-3.20678364380E-01
3.22191354595E+05	-1.27646982354E+01	-1.75509713430E+02	4.66445448471E+00	-1.78213076984E+02	-5.34632770074E+01	-1.73807465278E+02	-5.99955658326E+00	-1.28842443979E-01
3.44382709190E+05	-1.51982644307E+01	1.77077214284E+02	4.63257256847E+00	-1.78369588540E+02	-4.97247616412E+01	2.86823705438E+01	-6.01664957282E+00	-3.57326465754E-01
3.66574063785E+05	-1.45479876730E+01	1.71586226300E+02	4.65028308836E+00	-1.78363820680E+02	-4.96615390146E+01	9.67446884812E+01	-5.98996850871E+00	-1.95801272069E-01
3.88765418380E+05	-1.27782322680E+01	-1.77939649132E+02	4.65305513672E+00	-1.78828089416E+02	-4.30806346338E+01	-1.41323937801E+02	-5.99710265628E+00	-2.10781585382E-01
4.10956772975E+05	-1.58535898215E+01	1.65182831662E+02	4.68321317641E+00	-1.78627674073E+02	-4.34310316767E+01	6.42703567877E+01	-5.98842061980E+00	-3.55219391540E-01
4.33148127570E+05	-1.45958843753E+01	1.61624486915E+02	4.65984788869E+00	-1.79113993978E+02	-4.61493354906E+01	3.17413313142E+01	-5.98737726278E+00	-3.97987099881E-01
4.55339482165E+05	-1.44374873766E+01	-1.55289823552E+02	4.69883905447E+00	-1.79612208946E+02	-5.23075281414E+01	3.15152334373E+01	-6.01881010177E+00	-2.18907957689E-01
4.77530836760E+05	-1.53629930618E+01	-1.74879439644E+02	4.60886467967E+00	-1.79594486509E+02	-4.76564850662E+01	-3.97624883976E+01	-6.00002294867E+00	-1.76162628023E-01
4.99722191355E+05	-1.58700615906E+01	1.73339191158E+02	4.68120245549E+00	-1.79810492743E+02	-4.84381788550E+01	-1.32090958734E+02	-6.00801563922E+00	-2.53381464541E-01
5.21913545950E+05	-1.56780419271E+01	1.75457154986E+02	4.67459080140E+00	-1.79441209404E+02	-5.11009499024E+01	-1.41626296567E+02	-5.99208385607E+00	-2.28906223169E-01
5.44104900545E+05	-1.60747192068E+01	-1.70977251059E+02	4.61906642930E+00	1.79924362685E+02	-4.37895167039E+01	-1.36245636725E+02	-6.00844471997E+00	-2.76056454982E-01
5.66296255139E+05	-1.54702930564E+01	-1.64068472901E+02	4.63516057603E+00	1.79722093126E+02	-4.28291173483E+01	-2.70463974468E+01	-6.01918941689E+00	-1.86417317002E-01
5.88487609734E+05	-1.70309625374E+01	1.75507901506E+02	4.65789837782E+00	1.79546974061E+02	-4.56162885207E+01	9.43871546489E+01	-5.99954997804E+00	-3.04588735728E-01
6.10678964329E+05	-1.35064559694E+01	1.76283132364E+02	4.66836200761E+00	1.79620937328E+02	-5.23348432760E+01	1.21219969059E+02	-5.99823434244E+00	5.82819862869E-02
6.32870318924E+05	-1.38140323158E+01	1.70752539524E+02	4.66096989764E+00	1.79484107723E+02	-5.53256463033E+01	1.00561002037E+02	-6.00292556905E+00	-2.46172169114E-02
6.55061673519E+05	-1.20408076115E+01	1.58335755882E+02	4.66121203513E+00	1.79378425441E+02	-4.80618563088E+01	4.82094667513E+00	-5.99352077924E+00	-4.50412718766E-01
6.77253028114E+05	-1.40386605850E+01	-1.64455616575E+02	4.65265602681E+00	1.79128982014E+02	-5.20473068053E+01	-1.78914269701E+02	-5.99471814228E+00	-6.79505863082E-01
6.99444382709E+05	-1.14902549316E+01	-1.74870828934E+02	4.67475826934E+00	1.78922237584E+02	-5.24328704567E+01	-1.57071390351E+01	-6.01192672609E+00	-4.25909700891E-01
7.21635737304E+05	-1.18487459634E+01	-1.60525890963E+02	4.66716714914E+00	1.78461858061E+02	-4.00266302158E+01	1.52045058724E+02	-5.97548892525E+00	-3.27292683611E-01
7.43827091899E+05	-1.11060668567E+01	1.79097758167E+02	4.64314993288E+00	1.78539828574E+02	-4.09881510050E+01	1.36141116568E+02	-5.99447868731E+00	-4.35644835043E-01
7.66018446494E+05	-1.39848898565E+01	-1.66098616441E+02	4.67672883867E+00	1.78858669987E+02	-4.42511088322E+01	-1.28346363585E+02	-5.99030245699E+00	-4.38338232205E-01
7.88209801089E+05	-1.22679967093E+01	-1.51232316528E+02	4.65490681788E+00	1.78344888488E+02	-4.06885332655E+01	1.11006291534E+02	-5.99297331318E+00	-4.69690037407E-01
8.10401155684E+05	-1.49795365591E+01	1.70584799373E+02	4.66976709717E+00	1.78408512893E+02	-4.44355566818E+01	1.35573208560E+02	-5.97166697272E+00	-3.70235617294E-01
8.32592510279E+05	-1.19682184097E+01	1.63216742968E+02	4.65826062915E+00	1.78667718337E+02	-4.92509883609E+01	-9.25575712044E+01	-5.99983219361E+00	-4.81228799076E-01
8.54783864874E+05	-1.07060275302E+01	-1.71248058941E+02	4.60359222144E+00	1.77992161431E+02	-4.26680467162E+01	8.96765927299E+01	-5.99575247036E+00	-5.71923640242E-01
8.76975219469E+05	-1.36506072835E+01	-1.56609227699E+02	4.66276246911E+00	1.77927878756E+02	-4.25359475253E+01	-1.66998284847E+02	-5.99407690300E+00	-3.47089533380E-01
8.99166574064E+05	-1.56882230567E+01	-1.75127251231E+02	4.65631001544E+00	1.77940651106E+02	-3.98720492149E+01	1.25403040437E+02	-5.99155113487E+00	-4.40313817029E-01
9.21357928659E+05	-1.19435145558E+01	1.73838383268E+02	4.63252204885E+00	1.77947124139E+02	-4.58471189749E+01	-1.21590067189E+02	-5.99164483148E+00	-5.12000229958E-01
9.43549283254E+05	-1.38064900922E+01	1.77381913451E+02	4.66634496469E+00	1.77350883458E+02	-4.29417506350E+01	1.35196016400E+02	-5.99764093135E+00	-5.43272609818E-01
9.65740637849E+05	-1.21751782862E+01	-1.69288532869E+02	4.67534905272E+00	1.77547681974E+02	-4.69736599383E+01	-1.55005496977E+02	-6.00717609082E+00	-2.33844031712E-01
9.87931992444E+05	-1.27892732981E+01	-1.78215237633E+02	4.64097500140E+00	1.77509579756E+02	-5.39168732663E+01	1.35367404126E+02	-5.96598356348E+00	-4.04403552236E-01
1.01012334704E+06	-1.51482329199E+01	-1.72138531918E+02	4.64512200131E+00	1.77433512498E+02	-4.32279941996E+01	-1.73797452607E+02	-6.00269250382E+00	-3.65973987843E-01
1.03231470163E+06	-1.45137832689E+01	-1.73598600198E+02	4.69445652195E+00	1.77540514462E+02	-4.33861397775E+01	-2.66367368573E+01	-6.00429972627E+00	-5.92448434326E-01
1.05450605623E+06	-1.67657861286E+01	-1.62299771747E+02	4.72165199534E+00	1.77274618254E+02	-4.71242541782E+01	1.59921281533E+02	-5.98123931718E+00	-3.74223128014E-01
1.07669741082E+06	-1.26452063530E+01	1.69117551524E+02	4.64046644019E+00	1.77224553258E+02	-4.32487233310E+01	-1.52520371515E+02	-5.98584674468E+00	-4.05750450734E-01
1.09888876542E+06	-1.29210314744E+01	1.79059285648E+02	4.66854134712E+00	1.76682869750E+02	-5.13648367643E+01	1.34333842177E+02	-5.99505424896E+00	-6.44643479295E-01
1.12108012001E+06	-1.29091519234E+01	-1.77149516560E+02	4.65068429496E+00	1.77094013354E+02	-4.86547238881E+01	3.78581580514E+01	-6.01670025957E+00	-5.86031399471E-01
1.14327147461E+06	-1.48339818068E+01	1.47359077483E+02	4.63770488346E+00	1.77445487627E+02	-4.94141703475E+01	-1.39196220307E+02	-5.99686478135E+00	-3.51622224669E-01
1.16546282920E+06	-1.42794926470E+01	-1.69540010358E+02	4.70852524985E+00	1.76833045244E+02	-4.30154175236E+01	1.24104364138E+02	-5.97796439444E+00	-6.73518588827E-01
1.18765418380E+06	-1.35209407955E+01	-1.66653523673E+02	4.68178328551E+00	1.76332836412E+02	-4.12207287723E+01	8.06843225895E+01	-5.99528970357E+00	-6.14192530602E-01
1.20984553839E+06	-1.43608435031E+01	1.58775218474E+02	4.63532016568E+00	1.76567286362E+02	-4.11383899572E+01	-1.48019865438E+02	-5.98454947355E+00	-5.47682070422E-01
1.23203689299E+06	-1.25341963458E+01	-1.78835895899E+02	4.64008657261E+00	1.76294076133E+02	-4.61083498118E+01	3.56277243437E+01	-5.99290822137E+00	-4.11160823259E-01
1.25422824758E+06	-1.35811397884E+01	-1.75982837909E+02	4.63913104493E+00	1.76259807083E+02	-4.70213170485E+01	-7.30471175730E+01	-6.01449707108E+00	-5.06036433372E-01
1.27641960218E+06	-1.39960418667E+01	-1.78194324694E+02	4.67580911363E+00	1.76359572497E+02	-4.77005986419E+01	-1.43362104004E+02	-5.98483919364E+00	-5.23609126970E-01
1.29861095677E+06	-1.39687005781E+01	-1.74331571040E+02	4.63542959640E+00	1.75923609107E+02	-4.26091023293E+01	1.00953989281E+02	-6.00145095239E+00	-6.50624987243E-01
1.32080231137E+06	-1.57894554132E+01	-1.61716055363E+02	4.67163277741E+00	1.75861671154E+02	-4.89012387069E+01	-5.91953054022E+01	-6.00180396369E+00	-8.79194248964E-01
1.34299366596E+06	-1.19588809204E+01	-1.73233290626E+02	4.66410286121E+00	1.75896471578E+02	-4.08502445575E+01	-9.89256270148E+00	-6.00478084156E+00	-7.06390137522E-01
1.36518502056E+06	-1.25837706901E+01	1.79956429176E+02	4.60913438894E+00	1.76119103082E+02	-3.48819784226E+01	3.49278504160E+01	-5.98886693604E+00	-7.81893934234E-01
1.38737637515E+06	-1.30886511154E+01	-1.53336021839E+02	4.65325868053E+00	1.76063980815E+02	-4.02532141001E+01	-3.97238933143E+01	-6.02644021419E+00	-6.02302053102E-01
1.40956772975E+06	-1.29648391864E+01	1.74325687686E+02	4.66316277338E+00	1.76017578315E+02	-4.15314261164E+01	1.25166436376E+02	-5.98216272403E+00	-7.26802865261E-01
1.43175908434E+06	-1.89408717713E+01	-1.77127399100E+02	4.70294379492E+00	1.75991498172E+02	-5.20440056347E+01	-1.52945861373E+02	-5.98265656058E+00	-5.34532055104E-01
1.45395043894E+06	-1.73247731596E+01	-1.76188011804E+02	4.66765551495E+00	1.75414149961E+02	-5.12268093378E+01	-8.35974318574E+01	-5.97860325994E+00	-6.93757683081E-01
1.47614179353E+06	-1.15894445591E+01	-1.79906785665E+02	4.63539304587E+00	1.75620402152E+02	-4.02321701462E+01	1.23742885695E+02	-6.00476078552E+00	-6.34646446202E-01
1.49833314813E+06	-1.51578299333E+01	-1.57450468338E+02	4.72647042640E+00	1.75010533810E+02	-4.04152534933E+01	-1.46579654921E+02	-6.00989161752E+00	-5.49978106613E-01
1.52052450272E+06	-1.31664325042E+01	1.75949224525E+02	4.65384489494E+00	1.75733472025E+02	-5.03308306578E+01	-6.87670639753E+01	-5.98969628987E+00	-6.44850707809E-01
1.54271585732E+06	-1.41361108511E+01	-1.57389776863E+02	4.71735972821E+00	1.75347630723E+02	-4.79475036321E+01	4.22435452462E+01	-5.99984666305E+00	-8.09544382546E-01
1.56490721191E+06	-1.13867116034E+01	-1.61790612587E+02	4.64577308380E+00	1.74776421602E+02	-5.21955268976E+01	-6.62497939657E+01	-5.99883281076E+00	-6.46857362924E-01
1.58709856651E+06	-1.17375347138E+01	-1.71701035051E+02	4.59521298309E+00	1.74911032860E+02	-4.76594095215E+01	-3.07175852508E+01	-6.00419024243E+00	-7.22991346732E-01
1.60928992110E+06	-1.69969238172E+01	1.44489483790E+02	4.71403257059E+00	1.75244095768E+02	-4.81870930220E+01	2.44149368144E+01	-6.01899115277E+00	-7.12038614256E-01
1.63148127570E+06	-1.42617083177E+01	-1.74329899276E+02	4.68094282292E+00	1.74735155549E+02	-3.81209693782E+01	1.03594290958E+02	-5.98291928933E+00	-8.46130201905E-01
1.65367263029E+06	-1.20570915870E+01	1.77002242916E+02	4.64915589496E+00	1.74890350127E+02	-3.96518156539E+01	1.33696764040E+02	-5.98714643166E+00	-7.21918399014E-01
1.67586398489E+06	-1.36040729058E+01	-1.46532108389E+02	4.67935259910E+00	1.74360477601E+02	-4.13536923192E+01	-2.49739210036E+01	-6.02457589068E+00	-6.27367374722E-01
1.69805533948E+06	-1.13193597434E+01	-1.77865469378E+02	4.68364433681E+00	1.74054324928E+02	-4.88014157988E+01	1.30682597612E+02	-5.99843798548E+00	-7.85989771888E-01
1.72024669408E+06	-1.19699026658E+01	-1.67040860031E+02	4.65143559258E+00	1.74446861875E+02	-4.51901369864E+01	-1.37260437277E+02	-5.99208328072E+00	-7.07505152147E-01
1.74243804867E+06	-1.44892570835E+01	1.59484252663E+02	4.65506973261E+00	1.74454754851E+02	-4.37625109539E+01	-4.39120189704E+01	-6.00725134778E+00	-6.98100928365E-01
1.76462940327E+06	-1.49341944654E+01	-1.77498732881E+02	4.71267559041E+00	1.74380048913E+02	-4.61808541866E+01	-9.93069594735E+00	-6.01465222678E+00	-1.01930165239E+00
1.78682075786E+06	-2.00220305383E+01	-1.53157606588E+02	4.73548813023E+00	1.74129627471E+02	-4.30154549316E+01	1.42680458381E+01	-6.00627506181E+00	-7.15333074551E-01
1.80901211246E+06	-1.05661611456E+01	1.73017565380E+02	4.65129824813E+00	1.74325994904E+02	-3.98197048233E+01	-1.61440034545E+01	-5.97839852274E+00	-8.86156377716E-01
1.83120346705E+06	-1.04065385520E+01	1.73012903206E+02	4.59518158405E+00	1.74027091440E+02	-3.31627532572E+01	-6.39780813821E+01	-6.02685780378E+00	-7.42552881920E-01
1.85339482165E+06	-1.60347080940E+01	-1.61244594888E+02	4.64127498848E+00	1.73662530010E+02	-4.47383236368E+01	1.67022031999E+02	-5.99892242800E+00	-7.97010504731E-01
1.87558617624E+06	-1.38478943572E+01	-1.63501460023E+02	4.72439085309E+00	1.73756325820E+02	-4.69512868193E+01	-1.01042085195E+02	-5.98140310652E+00	-8.16055811286E-01
1.89777753084E+06	-1.21730568083E+01	-1.42387610803E+02	4.75972192936E+00	1.73518380533E+02	-4.92568726797E+01	2.43952169214E+01	-5.99891491041E+00	-9.19415876561E-01
1.91996888543E+06	-1.46809121809E+01	-1.53219350321E+02	4.71817059548E+00	1.73565332828E+02	-4.03005640396E+01	1.50165119694E+02	-5.99852072235E+00	-7.96579842249E-01
1.94216024003E+06	-1.17737575374E+01	-1.72908673703E+02	4.65544398907E+00	1.73592647532E+02	-4.18077930734E+01	-8.02572900673E+01	-6.02785446892E+00	-8.29494711055E-01
1.96435159462E+06	-1.23897997397E+01	-1.75412294814E+02	4.66345538356E+00	1.73212430693E+02	-4.50744162339E+01	4.32529363258E+01	-5.99338091435E+00	-8.18990297038E-01
1.98654294922E+06	-1.33153319810E+01	-1.52713687297E+02	4.69890079140E+00	1.72971824979E+02	-4.85116368176E+01	-9.73313073097E+01	-6.00706921243E+00	-9.81349891441E-01
2.00873430381E+06	-1.39345310760E+01	-1.63139634169E+02	4.67810441621E+00	1.73561062396E+02	-4.62306386983E+01	-4.88303902986E+01	-5.98968975368E+00	-8.70303137857E-01
2.03092565841E+06	-1.38764960646E+01	-1.77071328258E+02	4.70248293247E+00	1.72864700157E+02	-4.19914503070E+01	1.56231455879E+02	-5.98552445532E+00	-9.29232986636E-01
2.05311701300E+06	-1.54562194444E+01	-1.74167358137E+02	4.69089353957E+00	1.73514572385E+02	-5.61131858165E+01	-4.65261560203E+01	-6.01594205045E+00	-7.26053031522E-01
2.07530836760E+06	-1.17806366098E+01	1.47493516958E+02	4.66032196526E+00	1.73556371583E+02	-4.99291990007E+01	8.77101654602E+01	-5.99033239744E+00	-9.85498068743E-01
2.09749972219E+06	-1.28729493351E+01	-1.73544733028E+02	4.64547464298E+00	1.72858246486E+02	-4.51449280623E+01	-2.47093800879E+01	-6.01543975485E+00	-9.22015789381E-01
2.11969107679E+06	-1.60160738755E+01	1.71316158347E+02	4.67244594975E+00	1.73132555373E+02	-4.79841414268E+01	-7.27978052971E+00	-6.00850608334E+00	-9.20025311479E-01
2.14188243138E+06	-1.53477301198E+01	-1.79705715134E+02	4.63170338426E+00	1.72945248932E+02	-3.33620659183E+01	-1.76203496436E+02	-5.97045406521E+00	-8.26531565817E-01
2.16407378598E+06	-1.38024039267E+01	1.78449626181E+02	4.67649877242E+00	1.72682077290E+02	-4.49619833625E+01	-1.42912618041E+02	-6.00613703285E+00	-1.01352107456E+00
2.18626514057E+06	-1.34681993326E+01	-1.48347457935E+02	4.72266330008E+00	1.72409224729E+02	-4.42281968035E+01	-5.13419223109E+00	-6.00739781966E+00	-9.70316833056E-01
2.20845649517E+06	-9.91445915478E+00	-1.55771201018E+02	4.72184769092E+00	1.72091282967E+02	-4.45073365045E+01	8.73923381188E+01	-5.99950879925E+00	-1.07806988891E+00
2.23064784976E+06	-1.32578753871E+01	1.51311572779E+02	4.63954341332E+00	1.72773189141E+02	-4.55332710350E+01	1.16572481525E+02	-5.98134455372E+00	-9.94174306172E-01
2.25283920436E+06	-1.39982752287E+01	-1.73799052382E+02	4.67197103381E+00	1.72266291820E+02	-4.42684222377E+01	-5.79023865943E+01	-5.99943499963E+00	-1.06102243111E+00
2.27503055895E+06	-1.84527109829E+01	-1.77272964600E+02	4.71074855356E+00	1.72743276784E+02	-4.61803982656E+01	6.96714857352E+01	-5.99155445467E+00	-1.07079217292E+00
2.29722191355E+06	-1.21824306898E+01	-1.73606539672E+02	4.67561088980E+00	1.72121884082E+02	-3.23241911981E+01	-1.47158690392E+02	-5.96982123347E+00	-8.79119458210E-01
2.31941326814E+06	-1.64051973488E+01	-1.74824271782E+02	4.71242035040E+00	1.72467378268E+02	-3.93478032408E+01	-5.66668066380E+01	-6.00388369786E+00	-1.02585502488E+00
2.34160462274E+06	-1.37874140158E+01	1.67399778486E+02	4.72977211653E+00	1.72362686740E+02	-4.83717114669E+01	-8.88754459992E+01	-6.01184911255E+00	-1.16883591722E+00
2.36379597733E+06	-1.34118018840E+01	-1.40008422856E+02	4.74750951169E+00	1.72025997612E+02	-4.72559296497E+01	1.04109753980E+02	-5.98815547929E+00	-1.07187557909E+00
2.38598733193E+06	-2.94457229209E+01	-1.45545157506E+02	4.73046929618E+00	1.72336412149E+02	-4.25240324386E+01	-1.07933383495E+02	-6.00440297390E+00	-9.14637624424E-01
2.40817868652E+06	-1.43661187175E+01	-1.63195725224E+02	4.69208779424E+00	1.71862966510E+02	-4.79534229826E+01	9.09789952821E+01	-5.97841971707E+00	-1.29269881590E+00
2.43037004112E+06	-1.20025296036E+01	-1.75495175031E+02	4.65354862111E+00	1.71512629466E+02	-4.94489093658E+01	-4.79316464747E+01	-5.99198989464E+00	-1.63636046313E+00
2.45256139571E+06	-1.41820644333E+01	-1.70527705205E+02	4.73780315086E+00	1.71809467063E+02	-3.96548442329E+01	6.48562006553E+00	-5.98333207346E+00	-1.14775999288E+00
2.47475275031E+06	-1.37171471721E+01	-1.72100564635E+02	4.69373961330E+00	1.71499285704E+02	-4.26819656076E+01	-1.66580472306E+02	-6.00462277210E+00	-1.09783093996E+00
2.49694410490E+06	-1.18597754476E+01	-1.54662193679E+02	4.67025903889E+00	1.71373053807E+02	-5.21927501696E+01	-1.75338304630E+02	-6.02383738099E+00	-9.61186846881E-01
2.51913545950E+06	-1.49112115141E+01	-1.73428142393E+02	4.67965829370E+00	1.71281667513E+02	-4.87523047999E+01	-1.64598416725E+02	-5.99742808468E+00	-1.12886205922E+00
2.54132681409E+06	-1.52307887001E+01	1.29162413553E+02	4.68173208298E+00	1.71669670333E+02	-5.13603113178E+01	-1.75915733178E+02	-6.00988883729E+00	-1.15002984849E+00
2.56351816869E+06	-1.91439140588E+01	-1.58660960303E+02	4.77683459112E+00	1.71273180713E+02	-4.76548866815E+01	1.12855689476E+02	-6.00624941505E+00	-1.16613022405E+00
2.58570952328E+06	-1.40864130195E+01	-1.75291316664E+02	4.73536056412E+00	1.71023750702E+02	-4.84662630137E+01	1.59722361357E+02	-6.00043677759E+00	-1.18024110157E+00
2.60790087788E+06	-1.39146455754E+01	-1.69709778563E+02	4.69951514791E+00	1.71194658094E+02	-4.46881991840E+01	6.45910162051E+01	-6.01493536117E+00	-1.02033639448E+00
2.63009223247E+06	-1.26646226170E+01	-1.65288989764E+02	4.69302097634E+00	1.70843235116E+02	-4.09930649111E+01	1.80303321344E+01	-6.01681479116E+00	-8.85490338866E-01
2.65228358707E+06	-1.17581800608E+01	1.76022130296E+02	4.67186360697E+00	1.70888321417E+02	-5.11972895128E+01	-1.18873819870E+02	-6.00057365682E+00	-1.16609815972E+00
2.67447494166E+06	-1.29182136728E+01	-1.56931290195E+02	4.73291182638E+00	1.70783148097E+02	-5.01493010786E+01	-5.85179262145E+01	-6.00625448345E+00	-1.19976943629E+00
2.69666629626E+06	-1.59719770355E+01	-1.69710624718E+02	4.71292133451E+00	1.70665285793E+02	-4.14170694925E+01	-1.53760279637E+01	-6.03321780167E+00	-1.15512358566E+00
2.71885765085E+06	-1.32967901531E+01	1.76412995169E+02	4.66814964481E+00	1.70825186509E+02	-5.04112919192E+01	5.86055857320E+01	-6.01134881435E+00	-1.19888409416E+00
2.74104900545E+06	-1.45064448426E+01	-1.70444383974E+02	4.74343417904E+00	1.70297267966E+02	-4.33463770533E+01	-1.38077739848E+02	-5.99795429903E+00	-1.10651395812E+00
2.76324036004E+06	-1.12556957036E+01	-1.66595945179E+02	4.66587827407E+00	1.70445217950E+02	-4.03796881154E+01	1.47191973699E+02	-6.00368975994E+00	-1.30338887833E+00
2.78543171463E+06	-1.46136354769E+01	-1.42064645336E+02	4.78462341028E+00	1.70373762519E+02	-4.02256554306E+01	1.63800932992E+02	-5.97306393516E+00	-1.17507402185E+00
2.80762306923E+06	-1.41048866850E+01	1.79356411637E+02	4.73235587013E+00	1.70531307161E+02	-5.17826670165E+01	7.69433413572E+00	-6.00235573790E+00	-1.26875997663E+00
2.82981442382E+06	-1.47336141443E+01	1.60870931994E+02	4.70666929136E+00	1.70294822179E+02	-4.69925093211E+01	3.06480466547E+01	-6.01030530770E+00	-1.42719916987E+00
2.85200577842E+06	-8.85209546306E+00	-1.78511507329E+02	4.64484227036E+00	1.69415096153E+02	-3.95998382708E+01	2.18568806386E+01	-6.02028374742E+00	-1.36727720189E+00
2.87419713301E+06	-1.18243370650E+01	-1.67699377046E+02	4.70113381747E+00	1.69786891024E+02	-4.81661836590E+01	2.98791948783E+01	-6.00238328138E+00	-1.24118977538E+00
