# Hz S DB R 50
! CMT, M5065, 19127446, 24.2.4/2
! Date: 11/8/2024 3:35:29 PM
! Data: Format (Calibration Info)
! Freq	S11:dB/Ang(F2)	S21:dB/Ang(F2)	S12:dB/Ang(F2)	S22:dB/Ang(F2)
3.00000000000E+05	-1.23786796031E+01	-1.65403137125E+02	4.66384066722E+00	-1.77379636641E+02	-4.88233481388E+01	1.31771975524E+02	-6.00439547018E+00	-3.47377551455E-01
3.22191354595E+05	-1.19408016041E+01	-1.62916333604E+02	4.66942878855E+00	-1.78007503362E+02	-4.36808581698E+01	1.16835128313E+02	-5.99384207100E+00	-1.97177719799E-01
3.44382709190E+05	-1.48899714925E+01	-1.45345866067E+02	4.61636339122E+00	-1.78628646926E+02	-4.70038883308E+01	1.31333864745E+02	-6.00158035922E+00	-2.72817641116E-01
3.66574063785E+05	-1.58848056551E+01	-1.75384113722E+02	4.64867945395E+00	-1.78453646070E+02	-4.33653712416E+01	1.00692253847E+02	-5.97054327948E+00	-2.68015802612E-01
3.88765418380E+05	-1.38658777451E+01	-1.66581494174E+02	4.64477718470E+00	-1.79574406074E+02	-4.02819355975E+01	2.80871472655E+01	-5.99780716459E+00	-4.01746043869E-01
4.10956772975E+05	-1.36901034533E+01	1.79005470496E+02	4.63274706882E+00	-1.79087688854E+02	-4.37617646600E+01	1.69540065433E+02	-5.99679954860E+00	-3.14680303621E-01
4.33148127570E+05	-1.79210827188E+01	1.72673289052E+02	4.66744285704E+00	-1.79071282331E+02	-4.82778215743E+01	-4.45414543356E+01	-5.98632140051E+00	-2.32915494386E-01
4.55339482165E+05	-1.17241179989E+01	1.77640780284E+02	4.66966126568E+00	-1.79063563311E+02	-4.46363567824E+01	-1.04529993727E+01	-5.99953623552E+00	-2.68935727739E-01
4.77530836760E+05	-1.25225899494E+01	1.79525395078E+02	4.65495738785E+00	-1.79320093852E+02	-4.15260731646E+01	-1.12606830716E+02	-5.99914067783E+00	-3.67126443946E-01
4.99722191355E+05	-1.01629350553E+01	1.61264854686E+02	4.60350354506E+00	-1.79712566538E+02	-4.05527752263E+01	9.26654568719E+01	-6.01470168550E+00	-2.14989764017E-01
5.21913545950E+05	-1.43051028084E+01	-1.72537338208E+02	4.61982153087E+00	1.79740814816E+02	-4.01912235381E+01	1.74920015127E+02	-6.00309562662E+00	-4.62877357045E-01
5.44104900545E+05	-1.22588626860E+01	1.71117624307E+02	4.63588987085E+00	-1.79801411270E+02	-4.57044283522E+01	-1.40875005746E+02	-5.97037567516E+00	-3.26356360979E-01
5.66296255139E+05	-1.21472234986E+01	1.67690376955E+02	4.65017923963E+00	1.79789979412E+02	-4.46613578687E+01	-1.53124668767E+02	-6.00158305250E+00	-3.64410933536E-01
5.88487609734E+05	-1.22784780340E+01	-1.73396713624E+02	4.61821482469E+00	1.79705341371E+02	-4.02105768962E+01	6.21443098047E+01	-5.99311498158E+00	-4.85928996288E-01
6.10678964329E+05	-1.21956927813E+01	-1.68440068889E+02	4.65524338041E+00	1.79569278746E+02	-6.47310721733E+01	8.77125840173E+01	-5.99894286570E+00	1.76397368341E-01
6.32870318924E+05	-1.50543309160E+01	-1.75252050092E+02	4.66602490518E+00	1.79422913496E+02	-4.95444355545E+01	-3.00599435463E+01	-6.01091791317E+00	-5.91951470267E-02
6.55061673519E+05	-1.31337091022E+01	-1.50976427602E+02	4.73549860146E+00	1.79179651741E+02	-4.70265062742E+01	7.61022534427E+01	-6.02050819229E+00	-3.85091683386E-01
6.77253028114E+05	-1.23730326437E+01	-1.78473118278E+02	4.63934382415E+00	1.79025676826E+02	-5.16255354057E+01	1.53573035574E+02	-6.00038049078E+00	-7.78947313985E-01
6.99444382709E+05	-1.54671238175E+01	1.76385744494E+02	4.68854669716E+00	1.79205259463E+02	-5.40637080992E+01	1.19256410401E+02	-6.00735842359E+00	-5.43622795856E-01
7.21635737304E+05	-1.37190462009E+01	-1.79493907699E+02	4.63374110824E+00	1.79084127764E+02	-4.86951891471E+01	-1.78008966334E+02	-6.00576419206E+00	-3.38246216965E-01
7.43827091899E+05	-1.18488841946E+01	-1.58823682237E+02	4.62589087529E+00	1.78570618677E+02	-4.22242045060E+01	1.22517920330E+02	-5.98801922800E+00	-3.58870764379E-01
7.66018446494E+05	-1.55111205210E+01	1.78615535359E+02	4.63845717993E+00	1.78334452331E+02	-4.26495975972E+01	9.51845247895E+01	-5.97304017644E+00	-4.99216436046E-01
7.88209801089E+05	-1.76288708661E+01	-1.27890697020E+02	4.70139705601E+00	1.78451379856E+02	-5.29961332180E+01	-1.60815403002E+02	-6.02695763576E+00	-4.81862301796E-01
8.10401155684E+05	-1.51958270220E+01	-1.63451099441E+02	4.69845894207E+00	1.78197122821E+02	-4.07666670983E+01	-1.12606091193E+02	-5.98245701727E+00	-2.80838507378E-01
8.32592510279E+05	-1.40348344816E+01	1.75548713446E+02	4.63661850717E+00	1.78411645112E+02	-5.33135534396E+01	1.76566257686E+02	-6.01633868227E+00	-3.68527092541E-01
8.54783864874E+05	-1.46850636924E+01	-1.62092642054E+02	4.67097178719E+00	1.78002764980E+02	-4.59195235106E+01	2.08420220273E+01	-6.01773905769E+00	-4.04341799777E-01
8.76975219469E+05	-1.58548397554E+01	1.74782968827E+02	4.68640276675E+00	1.78368416019E+02	-3.99745671602E+01	-1.41012627837E+02	-6.00973961190E+00	-2.98805423507E-01
8.99166574064E+05	-1.48637063552E+01	1.78973311536E+02	4.66202376135E+00	1.78059915186E+02	-4.65559191051E+01	9.77509014570E+01	-5.99119324765E+00	-4.85641971349E-01
9.21357928659E+05	-1.50064975713E+01	-1.79950940620E+02	4.64876214514E+00	1.77577595386E+02	-4.89848338987E+01	-1.47302058990E+02	-5.98090794705E+00	-5.24192334204E-01
9.43549283254E+05	-1.19943660040E+01	-1.78746546181E+02	4.61787430685E+00	1.77700318248E+02	-4.29993255599E+01	-9.97575732105E+01	-5.99276282749E+00	-3.67263722272E-01
9.65740637849E+05	-1.84196961638E+01	1.54775422309E+02	4.65580635533E+00	1.77713246344E+02	-4.27015869613E+01	1.51792692283E+02	-5.96046931277E+00	-3.65293930784E-01
9.87931992444E+05	-1.59912384371E+01	-1.77219231650E+02	4.65873438256E+00	1.77577071905E+02	-4.61371876616E+01	-7.01102099723E+00	-6.01758820021E+00	-5.21838196225E-01
1.01012334704E+06	-1.51213528094E+01	1.78939616839E+02	4.66802851894E+00	1.77529923817E+02	-4.96816607492E+01	-8.15771531441E+01	-6.01055990747E+00	-4.92322630735E-01
1.03231470163E+06	-1.51452712790E+01	1.71882750786E+02	4.64642456426E+00	1.77148865477E+02	-4.42429479779E+01	-8.18517093554E+01	-6.00228502975E+00	-5.46664189741E-01
1.05450605623E+06	-1.79544643668E+01	-1.70214303732E+02	4.67667404502E+00	1.77332214126E+02	-5.27193408733E+01	-1.02874274848E+02	-6.01032515196E+00	-3.99158546125E-01
1.07669741082E+06	-1.19597781612E+01	-1.79297213664E+02	4.58051190067E+00	1.77179013026E+02	-5.32409269888E+01	1.28697684161E+02	-5.99852882516E+00	-5.33375220847E-01
1.09888876542E+06	-1.18281031419E+01	-1.50671929532E+02	4.70116632997E+00	1.76623930504E+02	-4.22909945428E+01	6.49759082503E+01	-5.98783152385E+00	-5.78394049038E-01
1.12108012001E+06	-1.28766183340E+01	1.77066785735E+02	4.65550888214E+00	1.77009494016E+02	-4.17432091172E+01	-1.46121410941E+02	-6.02195011161E+00	-3.94474950239E-01
1.14327147461E+06	-1.15740792469E+01	1.79275559497E+02	4.66243340841E+00	1.76887384370E+02	-4.76737826555E+01	-4.62613577345E+00	-6.01346158767E+00	-4.56190698095E-01
1.16546282920E+06	-1.20254259197E+01	-1.70994073104E+02	4.68322456476E+00	1.76865649927E+02	-4.10159904109E+01	1.70153211858E+02	-5.96339088356E+00	-4.44084771597E-01
1.18765418380E+06	-1.37218194870E+01	-1.63233526600E+02	4.67172033464E+00	1.76512843536E+02	-6.38199926879E+01	1.52689750660E+01	-6.00853188354E+00	-6.08301782636E-01
1.20984553839E+06	-1.33550054759E+01	1.78889270019E+02	4.63948554356E+00	1.76615750247E+02	-6.60730484969E+01	7.51283108480E+00	-5.99915539048E+00	-7.18148992519E-01
1.23203689299E+06	-1.37763910741E+01	1.73176556239E+02	4.65167499710E+00	1.76514357219E+02	-4.96470059012E+01	1.14849382197E+02	-6.00276324842E+00	-3.57004826437E-01
1.25422824758E+06	-1.31636299425E+01	-1.71812063024E+02	4.64440848737E+00	1.76164926296E+02	-4.16592828022E+01	-7.28027684683E+01	-6.01107778184E+00	-4.75302806102E-01
1.27641960218E+06	-1.58454134224E+01	-1.74251971933E+02	4.65976903642E+00	1.76374289967E+02	-4.46248176284E+01	1.08324931180E+02	-6.00196357998E+00	-5.60427997225E-01
1.29861095677E+06	-1.47824987352E+01	1.75290622641E+02	4.67937371716E+00	1.76534974609E+02	-4.01947600121E+01	5.25022695857E+01	-6.00943407300E+00	-4.98937843154E-01
1.32080231137E+06	-9.92693061925E+00	-1.61982400370E+02	4.66205021149E+00	1.76015668818E+02	-4.19021638702E+01	-9.44886970377E+01	-6.00820243988E+00	-8.77901965835E-01
1.34299366596E+06	-1.34431429136E+01	1.66400175651E+02	4.66157041299E+00	1.75892201173E+02	-4.57736535714E+01	-9.18197699393E+01	-5.98605893365E+00	-5.91811559179E-01
1.36518502056E+06	-1.44501732876E+01	-1.78036373820E+02	4.67103442987E+00	1.75750143047E+02	-5.32659719534E+01	1.26830397335E+02	-5.99358763281E+00	-6.34792865325E-01
1.38737637515E+06	-1.33429216564E+01	-1.79172803241E+02	4.63657277232E+00	1.75959273844E+02	-4.87399741809E+01	-1.83815319124E+01	-5.99261853919E+00	-7.23855894524E-01
1.40956772975E+06	-1.37315576691E+01	1.74717811853E+02	4.67947265829E+00	1.75813986975E+02	-4.47988122626E+01	-1.13394300057E+02	-5.99554899942E+00	-5.22470182109E-01
1.43175908434E+06	-1.90897830842E+01	-1.29340308251E+02	4.69584175286E+00	1.75835888859E+02	-4.35621488456E+01	2.46170977353E+01	-6.01248838037E+00	-6.08553754070E-01
1.45395043894E+06	-1.60510979164E+01	-1.62803010589E+02	4.65365328016E+00	1.75509466482E+02	-4.98414876003E+01	-1.04068342965E+02	-5.98357475009E+00	-5.80846459840E-01
1.47614179353E+06	-1.23144664480E+01	-1.72333869124E+02	4.64623183211E+00	1.75379204361E+02	-3.89925900558E+01	-8.03014101954E+01	-6.00379874718E+00	-5.10068844385E-01
1.49833314813E+06	-1.49936762063E+01	-1.64136739193E+02	4.60701941425E+00	1.75486356379E+02	-4.52229310117E+01	-7.60397305183E+01	-5.99462184499E+00	-6.78672317226E-01
1.52052450272E+06	-1.41333857311E+01	-1.77560005114E+02	4.67050550322E+00	1.75281185557E+02	-5.24764584290E+01	1.08735364589E+01	-6.00322323840E+00	-8.07542822915E-01
1.54271585732E+06	-1.26685422627E+01	-1.68230973881E+02	4.65944352803E+00	1.74941044203E+02	-4.37530755607E+01	-1.87796181257E+00	-6.00575484539E+00	-7.19244488113E-01
1.56490721191E+06	-1.47696254802E+01	1.59562308537E+02	4.69088961606E+00	1.75050233106E+02	-4.27469121146E+01	-1.09350667984E+02	-5.98256710074E+00	-7.26652081042E-01
1.58709856651E+06	-1.75854831975E+01	-1.58302158060E+02	4.71247009516E+00	1.74850742673E+02	-4.03248164938E+01	-3.77679020294E+01	-6.01152259303E+00	-7.98495371569E-01
1.60928992110E+06	-1.31654315375E+01	-1.66552389936E+02	4.67998019310E+00	1.74594529917E+02	-4.52725015912E+01	3.96592995987E+01	-6.01019462763E+00	-8.10302096907E-01
1.63148127570E+06	-1.32954326873E+01	-1.70635648497E+02	4.63477738738E+00	1.74706241890E+02	-5.15831399901E+01	1.50609650325E+02	-5.98501868194E+00	-6.86898055461E-01
1.65367263029E+06	-1.28552661255E+01	-1.69569589246E+02	4.63810411353E+00	1.74362332715E+02	-3.94883178239E+01	6.05698133106E+01	-5.97280335691E+00	-9.09320845051E-01
1.67586398489E+06	-1.32701729381E+01	1.72293110816E+02	4.65271693588E+00	1.74609557356E+02	-3.90066535703E+01	-7.60869951904E+01	-5.99798504113E+00	-7.57533190567E-01
1.69805533948E+06	-1.20198527212E+01	1.63453827352E+02	4.64500903498E+00	1.74547044438E+02	-4.86632640254E+01	-2.14348798655E+01	-5.98907580490E+00	-7.98046238093E-01
1.72024669408E+06	-1.23389941777E+01	1.78731559083E+02	4.62763905910E+00	1.74483110179E+02	-4.74431784052E+01	-6.46120778938E+01	-6.01112712955E+00	-7.60429808113E-01
1.74243804867E+06	-1.71439487970E+01	-1.30040568571E+02	4.70359985291E+00	1.74573808241E+02	-3.82367487874E+01	-1.19635435959E+02	-6.01707052903E+00	-6.33233891671E-01
1.76462940327E+06	-1.08883958759E+01	-1.69851850736E+02	4.64230495484E+00	1.73982928468E+02	-4.10880155757E+01	-1.65717205206E+02	-6.00440291444E+00	-7.81166564588E-01
1.78682075786E+06	-1.53403607038E+01	-1.70384715368E+02	4.69466747563E+00	1.74332930729E+02	-4.93812778505E+01	-1.71672138228E+02	-5.97006609365E+00	-6.99549417593E-01
1.80901211246E+06	-1.35804050795E+01	-1.75948560343E+02	4.66697084372E+00	1.74110505512E+02	-4.54345322733E+01	1.20074669656E+02	-6.02194334637E+00	-8.89476560707E-01
1.83120346705E+06	-1.37243128974E+01	-1.59070253955E+02	4.69493306885E+00	1.73703162050E+02	-4.28366621142E+01	1.52319983949E+02	-5.97123009887E+00	-9.16268403785E-01
1.85339482165E+06	-1.23496802622E+01	-1.65240169740E+02	4.65432588908E+00	1.73792451763E+02	-4.69816560049E+01	2.75671381614E+01	-5.98234612709E+00	-8.34614572146E-01
1.87558617624E+06	-1.26090370820E+01	-1.73023739906E+02	4.72163633230E+00	1.73660464716E+02	-5.27739921510E+01	-1.44345951343E+02	-6.00412825371E+00	-7.72852106622E-01
1.89777753084E+06	-1.28121345321E+01	1.69685867463E+02	4.70889462059E+00	1.73753762987E+02	-3.87986453478E+01	1.43007129732E+02	-5.97045092432E+00	-7.43661162673E-01
1.91996888543E+06	-1.33388207569E+01	-1.34971462290E+02	4.73561717583E+00	1.73276083899E+02	-4.54146965664E+01	-5.73818628987E+01	-5.99197832345E+00	-8.60119441014E-01
1.94216024003E+06	-2.03442737555E+01	-1.72781662384E+02	4.72006527382E+00	1.73593898738E+02	-4.64196184992E+01	-1.63865632226E+02	-5.99052188805E+00	-8.54252382112E-01
1.96435159462E+06	-1.45117070574E+01	-1.56068722402E+02	4.69638734842E+00	1.73732110575E+02	-4.18122694800E+01	1.65600082793E+01	-5.99369862321E+00	-7.50265170464E-01
1.98654294922E+06	-1.53142551205E+01	-1.68503569502E+02	4.69847599776E+00	1.73343328739E+02	-4.42949869151E+01	1.10263346464E+02	-5.97894409986E+00	-9.19637543526E-01
2.00873430381E+06	-1.41094563507E+01	1.76474589902E+02	4.71033403743E+00	1.73327329487E+02	-4.56404156824E+01	-3.01637400446E+01	-6.00327333090E+00	-9.47410815940E-01
2.03092565841E+06	-1.48841787870E+01	-1.70721701003E+02	4.70336735176E+00	1.73321136343E+02	-3.84223605408E+01	-1.79769746627E+02	-6.00684185759E+00	-7.81531252168E-01
2.05311701300E+06	-9.91427245950E+00	-1.79615810567E+02	4.65096106912E+00	1.72803761597E+02	-3.26380388707E+01	-4.21037974874E+01	-6.01760382923E+00	-9.30335887901E-01
2.07530836760E+06	-1.41227524135E+01	-1.51458884902E+02	4.69686952819E+00	1.72917780370E+02	-3.91986648192E+01	-3.66112235247E+01	-6.01238267864E+00	-8.65304294327E-01
2.09749972219E+06	-1.40153812614E+01	-1.68293187558E+02	4.72984845537E+00	1.72830826881E+02	-4.92689315669E+01	-5.79315836011E+01	-6.01110075417E+00	-8.27067762090E-01
2.11969107679E+06	-1.67585762107E+01	-1.73949434017E+02	4.71339324710E+00	1.72991731304E+02	-4.07119122792E+01	-5.76439868239E+01	-6.01341638193E+00	-8.54728823064E-01
2.14188243138E+06	-1.53766598063E+01	-1.73875746816E+02	4.68972504028E+00	1.72734497950E+02	-4.80276433015E+01	-8.68760256076E+01	-6.01232557459E+00	-8.38700470010E-01
2.16407378598E+06	-1.44304076030E+01	-1.78913934350E+02	4.65902942483E+00	1.72846005219E+02	-5.67805264024E+01	1.41692176300E+02	-5.99184215667E+00	-1.00837378185E+00
2.18626514057E+06	-1.23938611019E+01	-1.77628580169E+02	4.66994927532E+00	1.72559725350E+02	-3.97378375852E+01	-1.36993149689E+02	-5.99661961105E+00	-1.00368360848E+00
2.20845649517E+06	-1.07467224002E+01	-1.70122788591E+02	4.70512601615E+00	1.72333807666E+02	-3.97927755142E+01	1.96009413662E+01	-6.00619864003E+00	-1.11566952453E+00
2.23064784976E+06	-1.12022333604E+01	-1.44571673114E+02	4.74488475333E+00	1.72192138121E+02	-4.55323142549E+01	-1.43490757688E+02	-6.00685995232E+00	-9.03209693228E-01
2.25283920436E+06	-1.44154519261E+01	-1.69933049936E+02	4.63875513156E+00	1.72426647755E+02	-4.33827988437E+01	-1.06975547719E+02	-5.99260979464E+00	-9.69026323822E-01
2.27503055895E+06	-1.36023403793E+01	1.71035232837E+02	4.70913284289E+00	1.72425662853E+02	-4.88842925745E+01	-8.86160230195E+01	-6.00051796640E+00	-9.86471290384E-01
2.29722191355E+06	-1.84503331929E+01	-1.48110810228E+02	4.76843079694E+00	1.72306078532E+02	-5.36646181051E+01	1.05122188581E+01	-6.00676928488E+00	-1.06026342681E+00
2.31941326814E+06	-1.43011154445E+01	-1.68666633461E+02	4.68212955996E+00	1.71893051306E+02	-4.67878156932E+01	-1.09628122545E+02	-6.00697601125E+00	-1.06873593561E+00
2.34160462274E+06	-1.18066694465E+01	1.77116182132E+02	4.68735601636E+00	1.72006843006E+02	-3.93981543841E+01	-9.01445284694E-01	-6.01688184666E+00	-1.12642898245E+00
2.36379597733E+06	-1.36130123415E+01	-1.65154542956E+02	4.66549457558E+00	1.71811032340E+02	-3.46801902163E+01	-3.55539966199E+01	-6.01778179870E+00	-1.11062143639E+00
2.38598733193E+06	-1.22075848348E+01	1.68375506834E+02	4.70414486347E+00	1.71520378548E+02	-4.22968226367E+01	-7.05017160200E+01	-6.01797765889E+00	-9.16418184716E-01
2.40817868652E+06	-1.36363895874E+01	-1.61999451345E+02	4.76381879646E+00	1.71677978360E+02	-4.97580991986E+01	-1.27229228146E+02	-5.99973369713E+00	-1.20660030638E+00
2.43037004112E+06	-1.52833744544E+01	-1.47697068514E+02	4.73729785853E+00	1.71549011052E+02	-5.24098857765E+01	1.18209333320E+02	-6.00756828397E+00	-1.50337797745E+00
2.45256139571E+06	-1.33205124703E+01	1.79664193248E+02	4.67242814807E+00	1.71530407226E+02	-4.74127700947E+01	-1.07960783534E+02	-5.99371988563E+00	-1.03860274145E+00
2.47475275031E+06	-1.49206706715E+01	1.78413451935E+02	4.70421417542E+00	1.71762899774E+02	-5.25869599385E+01	-1.69174314827E+02	-5.99202961950E+00	-1.13477741727E+00
2.49694410490E+06	-1.40260789552E+01	-1.68780144004E+02	4.71969240455E+00	1.71867169431E+02	-4.10374789221E+01	-1.04270327755E+02	-6.00775551941E+00	-1.03513743342E+00
2.51913545950E+06	-1.73640190256E+01	-1.61252190837E+02	4.69267416861E+00	1.71506753845E+02	-3.40345717655E+01	6.26106904655E+01	-5.98972944228E+00	-1.29064256158E+00
2.54132681409E+06	-1.43177119947E+01	1.19240113078E+02	4.66798661777E+00	1.71800869967E+02	-4.17932255891E+01	2.44903290415E+00	-6.00720494098E+00	-1.08940818337E+00
2.56351816869E+06	-1.37525901547E+01	-1.71635460434E+02	4.75111383333E+00	1.71336697108E+02	-4.72438632138E+01	1.30520504022E+02	-5.99939227596E+00	-1.19470033589E+00
2.58570952328E+06	-1.46794463093E+01	-1.69541269478E+02	4.66988505634E+00	1.71069273292E+02	-4.60486723598E+01	8.32993818030E+00	-5.99485717869E+00	-1.21206966747E+00
2.60790087788E+06	-1.33993987887E+01	-1.60833523960E+02	4.68521780220E+00	1.70873120039E+02	-4.50929068278E+01	-1.60492037078E+02	-5.99466380143E+00	-9.91089083912E-01
2.63009223247E+06	-1.24737872128E+01	-1.66566446177E+02	4.69129622504E+00	1.70824889751E+02	-4.54112491686E+01	-1.34866005190E+02	-6.00524928461E+00	-5.37565598275E-01
2.65228358707E+06	-1.42723986390E+01	-1.69218681656E+02	4.71183448314E+00	1.70880141437E+02	-4.65036104437E+01	7.84702470780E+00	-6.01035581964E+00	-1.28837194102E+00
2.67447494166E+06	-1.52726320321E+01	-1.58893865279E+02	4.72689894617E+00	1.70568226735E+02	-5.95132631273E+01	-5.57183558875E+01	-6.00641784679E+00	-9.96208570402E-01
2.69666629626E+06	-1.49217996301E+01	1.52046087814E+02	4.66057901790E+00	1.70732408969E+02	-4.39387627545E+01	1.26249373767E+02	-5.99077622594E+00	-1.23351725290E+00
2.71885765085E+06	-1.51345128085E+01	-1.53768395914E+02	4.73050203362E+00	1.70476361468E+02	-4.20582355031E+01	1.76625566407E+02	-5.98850448544E+00	-1.15039297170E+00
2.74104900545E+06	-1.58621245271E+01	-1.67641624075E+02	4.74659611297E+00	1.70473002626E+02	-4.83095767649E+01	1.20869345275E+02	-5.99279536369E+00	-1.19095240910E+00
2.76324036004E+06	-1.16097316983E+01	-1.58097672494E+02	4.70271233476E+00	1.70462387528E+02	-5.29735495420E+01	1.11781719037E+02	-5.97864977170E+00	-1.22056721692E+00
2.78543171463E+06	-1.21413140372E+01	-1.72228455190E+02	4.69351465180E+00	1.70456173313E+02	-4.71981473568E+01	-7.08399759395E+00	-6.01048824183E+00	-1.26496329567E+00
2.80762306923E+06	-1.32014060104E+01	1.76868903234E+02	4.69387234080E+00	1.70584428028E+02	-4.18136667463E+01	3.66010151876E+01	-6.01682567130E+00	-1.33586208840E+00
2.82981442382E+06	-1.26298825105E+01	-1.75534986591E+02	4.69821873045E+00	1.70124076839E+02	-5.62603475060E+01	8.22088069721E+01	-5.99346226266E+00	-1.18049059964E+00
2.85200577842E+06	-1.50268696728E+01	-1.72441145173E+02	4.76482400388E+00	1.70038717351E+02	-5.71907257919E+01	-1.11427333600E+02	-5.99517562526E+00	-1.36982597628E+00
2.87419713301E+06	-1.55898737537E+01	-1.59380264416E+02	4.75440199729E+00	1.70290431013E+02	-4.17635853472E+01	-8.59655941423E+01	-6.01698412280E+00	-1.22021736178E+00
