# Hz S DB R 50
! CMT, M5065, 19127446, 24.2.4/2
! Date: 11/8/2024 3:34:31 PM
! Data: Format (Calibration Info)
! Freq	S11:dB/Ang(F2)	S21:dB/Ang(F2)	S12:dB/Ang(F2)	S22:dB/Ang(F2)
3.00000000000E+05	-1.27742125866E+01	-1.75995917582E+02	4.61750311316E+00	-1.77520875034E+02	-4.56432823211E+01	-7.06476850652E+01	-6.00580765838E+00	-2.77613058370E-01
3.22191354595E+05	-1.44827643776E+01	-1.79876734280E+02	4.66962774187E+00	-1.77936852165E+02	-4.97869102616E+01	6.90200569427E+01	-6.00301329079E+00	-1.63866730901E-01
3.44382709190E+05	-1.44405029242E+01	-1.61842157697E+02	4.69643610704E+00	-1.78431946588E+02	-4.29333225523E+01	8.01791825166E+01	-6.01004574656E+00	-3.54982689332E-01
3.66574063785E+05	-1.42043890200E+01	-1.66485727332E+02	4.68281066396E+00	-1.78360384428E+02	-4.13639956781E+01	1.57962683056E+02	-5.97800657941E+00	-1.79278982064E-01
3.88765418380E+05	-1.22432835078E+01	-1.73811891403E+02	4.64777457107E+00	-1.78261423087E+02	-4.86085857212E+01	-7.70900205461E+01	-6.02193263414E+00	-2.02807568848E-01
4.10956772975E+05	-1.61520640522E+01	-1.68004856364E+02	4.59797630907E+00	-1.79070202406E+02	-4.69403656866E+01	6.49393027718E+01	-6.01735125429E+00	-2.69962301772E-01
4.33148127570E+05	-1.41241790506E+01	-1.79095943820E+02	4.66783899110E+00	-1.79122481577E+02	-5.54224788904E+01	1.43927459300E+02	-5.99844058186E+00	-2.95013089853E-01
4.55339482165E+05	-1.34608323533E+01	1.66257317693E+02	4.62617367085E+00	-1.79423717012E+02	-5.05741707353E+01	-1.20628213457E+01	-6.00908633103E+00	-4.06452956988E-01
4.77530836760E+05	-1.38984252011E+01	-1.68324581027E+02	4.61555348150E+00	-1.79554250823E+02	-4.30942759461E+01	7.63513291075E+01	-6.01926782733E+00	-3.50742083754E-01
4.99722191355E+05	-1.26180593275E+01	1.76099095076E+02	4.65358482523E+00	-1.79525603097E+02	-4.71610694775E+01	-3.60301852011E+01	-5.98149084548E+00	-4.08168755542E-01
5.21913545950E+05	-1.47400336575E+01	-1.64906304566E+02	4.66102180514E+00	-1.79829741852E+02	-4.45283290482E+01	-9.38345879513E+01	-5.99266066138E+00	-3.41792947042E-01
5.44104900545E+05	-1.65185182579E+01	1.57224933280E+02	4.64315876578E+00	-1.79604317516E+02	-3.77874324932E+01	-1.13161789551E+02	-5.97600729182E+00	-1.31600914488E-01
5.66296255139E+05	-1.59806584658E+01	-1.68039250074E+02	4.71719811734E+00	-1.79860262370E+02	-4.57334137889E+01	1.43270880798E+01	-5.99753805834E+00	-2.45687583019E-01
5.88487609734E+05	-1.12842285211E+01	1.75357716799E+02	4.62612593708E+00	1.79633203259E+02	-5.04791114796E+01	-4.52330168620E+01	-5.97871228679E+00	-2.82093779605E-01
6.10678964329E+05	-1.33223473466E+01	-1.73952062146E+02	4.69083428295E+00	1.79416142073E+02	-6.13784622390E+01	3.90763364531E+01	-6.00996151145E+00	1.48507913174E-01
6.32870318924E+05	-1.34733159196E+01	-1.65403049969E+02	4.68813459043E+00	1.79475077811E+02	-4.69097314256E+01	-3.10590815034E+01	-6.00972109724E+00	-2.18472283080E-01
6.55061673519E+05	-1.23889776897E+01	1.69584572586E+02	4.65466972160E+00	1.79439345362E+02	-3.95016880376E+01	1.76077458860E+02	-5.98389220280E+00	-1.97027517618E-01
6.77253028114E+05	-1.43712259385E+01	-1.58770143607E+02	4.66884750539E+00	1.78905181543E+02	-4.31451569122E+01	1.50963469853E+02	-5.97467657069E+00	-5.82667898702E-01
6.99444382709E+05	-1.36466966299E+01	-1.75696349047E+02	4.67091993994E+00	1.78901938964E+02	-4.57633220419E+01	1.10032341853E+02	-6.00406494937E+00	-4.23839435440E-01
7.21635737304E+05	-1.37905061543E+01	1.74143124250E+02	4.67172654816E+00	1.78780370877E+02	-5.38335961084E+01	3.48066006365E+01	-6.00484150227E+00	-3.03916173396E-01
7.43827091899E+05	-1.00226540365E+01	-1.67276514016E+02	4.62043052541E+00	1.78573913561E+02	-4.84564780477E+01	1.33835341371E+02	-5.99598724757E+00	-4.12346304947E-01
7.66018446494E+05	-1.71537966261E+01	-1.57406143223E+02	4.64461592075E+00	1.78261322724E+02	-4.70956659793E+01	8.15634963372E+01	-6.00296846814E+00	-2.62688544058E-01
7.88209801089E+05	-1.15975203628E+01	1.79180999940E+02	4.62669039142E+00	1.78286896443E+02	-3.90905792969E+01	1.03389307826E+01	-6.02013788172E+00	-3.70294971702E-01
8.10401155684E+05	-1.20762773139E+01	-1.63136130218E+02	4.63982359588E+00	1.78098439233E+02	-4.66580350721E+01	7.80448222297E+01	-5.98680825698E+00	-3.87665683445E-01
8.32592510279E+05	-1.42362886778E+01	-1.77113679314E+02	4.67459411929E+00	1.78384475906E+02	-4.69590126881E+01	4.60142941866E+01	-6.00040100586E+00	-5.04192488666E-01
8.54783864874E+05	-1.23820666980E+01	-1.74273410161E+02	4.63213741092E+00	1.78203337124E+02	-4.45752834724E+01	-1.63749368783E+02	-6.00674177317E+00	-3.44537408855E-01
8.76975219469E+05	-1.30003241133E+01	-1.68818196724E+02	4.61887076346E+00	1.77945039286E+02	-4.78958883952E+01	3.98652828238E+00	-6.01155994652E+00	-4.39602567996E-01
8.99166574064E+05	-1.34496352040E+01	-1.62461668955E+02	4.69122191103E+00	1.77674228386E+02	-4.99025968200E+01	1.46020127176E+02	-6.00277872434E+00	-5.14663092376E-01
9.21357928659E+05	-1.49655257956E+01	-1.55288519139E+02	4.70246244811E+00	1.77770880854E+02	-4.44441115872E+01	1.65418811290E+02	-6.00080266556E+00	-3.86221339463E-01
9.43549283254E+05	-1.27472947143E+01	-1.70379925554E+02	4.70903644077E+00	1.77786418223E+02	-4.59342574944E+01	1.42570444756E+02	-5.96584643983E+00	-5.64314791697E-01
9.65740637849E+05	-1.43744789865E+01	-1.55168447843E+02	4.69983721762E+00	1.77441166516E+02	-4.37104652490E+01	-3.27408877915E+01	-6.00950669018E+00	-2.45143785993E-01
9.87931992444E+05	-1.50781666720E+01	1.69277898061E+02	4.67185058718E+00	1.77528562765E+02	-4.15633444878E+01	-9.43031555673E+01	-6.00889954961E+00	-3.96292531453E-01
1.01012334704E+06	-1.32423255132E+01	-1.73216748883E+02	4.63470885888E+00	1.76971956159E+02	-5.60495224982E+01	-4.82935946881E+01	-6.00784687176E+00	-5.15345189206E-01
1.03231470163E+06	-1.33253233405E+01	1.67886024549E+02	4.59978098669E+00	1.77190447269E+02	-4.36639858855E+01	-1.04388221276E+02	-6.02027967580E+00	-4.12303644314E-01
1.05450605623E+06	-1.88280639675E+01	-1.58742460270E+02	4.66540349893E+00	1.77204726051E+02	-4.33432390028E+01	-6.17083239175E+01	-5.99617547700E+00	-4.10265062541E-01
1.07669741082E+06	-1.66212266394E+01	-1.76792043149E+02	4.64201657787E+00	1.77038558925E+02	-4.56210849225E+01	-9.75830680805E+01	-6.00133426073E+00	-5.28348612091E-01
1.09888876542E+06	-1.20121436222E+01	1.73532857451E+02	4.64994219871E+00	1.76998472190E+02	-5.45014957269E+01	1.44704006230E+02	-5.96863501631E+00	-5.35149931041E-01
1.12108012001E+06	-1.76416991086E+01	1.78690440639E+02	4.64809105708E+00	1.77086279552E+02	-4.30632513726E+01	5.22240996273E+01	-6.00496649515E+00	-5.12581220780E-01
1.14327147461E+06	-1.26400568730E+01	-1.72622730906E+02	4.62588328496E+00	1.76864639395E+02	-5.45549879736E+01	7.37199443156E+01	-6.01453728618E+00	-7.03775196886E-01
1.16546282920E+06	-1.16957430285E+01	-1.67765230812E+02	4.65440858644E+00	1.76687021902E+02	-4.07627293385E+01	1.24576526357E+02	-6.00445805736E+00	-5.17843439795E-01
1.18765418380E+06	-1.27940820962E+01	-1.76213651904E+02	4.61236511963E+00	1.76341189698E+02	-4.68752318651E+01	1.77920202371E+02	-6.01108740706E+00	-4.81352190111E-01
1.20984553839E+06	-1.07042984774E+01	-1.76914148487E+02	4.65170186382E+00	1.76276966337E+02	-4.94814446398E+01	-6.75494996594E+01	-5.99270093245E+00	-6.53499925843E-01
1.23203689299E+06	-1.18172803004E+01	-1.76056549827E+02	4.62829247067E+00	1.76697799714E+02	-4.35101598613E+01	-1.33954519844E+02	-5.99999663166E+00	-1.98975924300E-01
1.25422824758E+06	-1.34196028446E+01	1.70530607407E+02	4.61430622688E+00	1.76400250150E+02	-4.19379953717E+01	-1.92379888467E+01	-6.00730364092E+00	-4.19198775062E-01
1.27641960218E+06	-1.35642348415E+01	-1.67534991120E+02	4.65719072214E+00	1.76360303069E+02	-4.41866782774E+01	-4.78039175208E+01	-5.99857146368E+00	-4.95085078493E-01
1.29861095677E+06	-1.23818892743E+01	-1.76159718639E+02	4.68996007414E+00	1.76017673049E+02	-4.50299780933E+01	1.27386657069E+02	-5.99653409142E+00	-5.10772244609E-01
1.32080231137E+06	-1.12052467000E+01	-1.69655437510E+02	4.65192353667E+00	1.76228625842E+02	-5.52950662741E+01	1.72115511006E+02	-5.98815789229E+00	-9.97552412799E-01
1.34299366596E+06	-1.39520648389E+01	-1.69046732304E+02	4.64061440687E+00	1.76081981015E+02	-4.51094508333E+01	1.26517442289E+02	-5.98394902676E+00	-6.63455496170E-01
1.36518502056E+06	-1.43415499101E+01	1.70161615442E+02	4.66877779898E+00	1.76061010149E+02	-3.92633326015E+01	-1.10087334265E+02	-5.98539095321E+00	-5.33111097508E-01
1.38737637515E+06	-1.67530883118E+01	-1.72373782390E+02	4.70407052062E+00	1.75844380033E+02	-4.38853133840E+01	-1.37098212389E+02	-6.01030144133E+00	-6.01522151196E-01
1.40956772975E+06	-1.25569988145E+01	-1.79816331755E+02	4.66744203117E+00	1.75782506223E+02	-4.32438905540E+01	1.18072068085E+02	-5.98549348653E+00	-6.57271651169E-01
1.43175908434E+06	-1.48580306492E+01	-1.68673191369E+02	4.67105196656E+00	1.75418476304E+02	-3.77312414706E+01	-1.05213240010E+02	-5.99945731782E+00	-5.46121712818E-01
1.45395043894E+06	-1.43803629716E+01	-1.65026030162E+02	4.66064237779E+00	1.75508244661E+02	-4.28542017676E+01	1.03554166190E+02	-5.98948233223E+00	-7.43906689933E-01
1.47614179353E+06	-1.24814074344E+01	1.72015054801E+02	4.64490456395E+00	1.75619449021E+02	-4.71225682195E+01	6.81868602525E+01	-5.97754420293E+00	-8.19119299471E-01
1.49833314813E+06	-1.35354849583E+01	-1.67011714518E+02	4.65044708543E+00	1.75183785295E+02	-4.29647125819E+01	-8.79866458906E+01	-6.00567786019E+00	-6.16724249909E-01
1.52052450272E+06	-1.25405361759E+01	1.74307943340E+02	4.65368274163E+00	1.75270217761E+02	-4.21666393448E+01	-8.15841424694E+00	-6.01236785796E+00	-6.06439603898E-01
1.54271585732E+06	-1.27204176251E+01	-1.40087935087E+02	4.65155098448E+00	1.75044119882E+02	-5.66419830821E+01	1.77758308942E+02	-5.98552029050E+00	-7.60684893690E-01
1.56490721191E+06	-1.50286958335E+01	1.76192687241E+02	4.68281692338E+00	1.75032919466E+02	-3.70231216650E+01	5.79307582167E+00	-6.00585418380E+00	-6.49946181667E-01
1.58709856651E+06	-1.60843234204E+01	-1.64030116913E+02	4.70314139972E+00	1.74831144212E+02	-4.12387338831E+01	6.26534820228E+01	-6.00299910547E+00	-8.52791155291E-01
1.60928992110E+06	-1.60334027708E+01	-1.54924369071E+02	4.68610955867E+00	1.74779497317E+02	-4.91084998186E+01	-1.43460539404E+02	-6.01493996764E+00	-7.84965713512E-01
1.63148127570E+06	-1.46470968274E+01	1.78044092964E+02	4.68689052178E+00	1.74847891046E+02	-4.03809076456E+01	-7.44152757510E+01	-6.00807161577E+00	-6.12211091396E-01
1.65367263029E+06	-1.43454252506E+01	1.76040332139E+02	4.65333641314E+00	1.74569042989E+02	-5.13334302462E+01	9.42678573206E+01	-5.99310371380E+00	-7.05079523316E-01
1.67586398489E+06	-1.29475894122E+01	-1.58576323963E+02	4.66621176153E+00	1.74309398222E+02	-4.01335179658E+01	-1.09598274780E+02	-6.00939703597E+00	-6.80392067967E-01
1.69805533948E+06	-1.35826957767E+01	-1.73799892766E+02	4.67526122998E+00	1.74407372303E+02	-4.32972295468E+01	7.91047845159E+01	-6.00095437205E+00	-8.28534589251E-01
1.72024669408E+06	-1.36987309763E+01	-1.56374913644E+02	4.68221404201E+00	1.74301723917E+02	-4.41492229437E+01	1.26284665298E+02	-5.98330848722E+00	-9.06636093468E-01
1.74243804867E+06	-1.47981329826E+01	-1.77031450403E+02	4.73054394894E+00	1.74382113698E+02	-4.26162151009E+01	-2.07793730868E+01	-5.99836879519E+00	-8.33797464325E-01
1.76462940327E+06	-1.52675550802E+01	-1.62412045816E+02	4.68462792207E+00	1.74012416230E+02	-4.91102658301E+01	-1.63634412328E+02	-6.00936576524E+00	-7.92066413855E-01
1.78682075786E+06	-1.43468988276E+01	1.68268458809E+02	4.68447334670E+00	1.74480314026E+02	-4.21062600896E+01	-1.37962555481E+02	-6.02543630784E+00	-6.94865875481E-01
1.80901211246E+06	-1.51250650017E+01	-1.79312699017E+02	4.65230918726E+00	1.73965468542E+02	-4.57708492254E+01	3.20367110799E+01	-6.00113334391E+00	-1.00291626321E+00
1.83120346705E+06	-1.30066169883E+01	1.78439438981E+02	4.69867063698E+00	1.73950063930E+02	-4.92492274127E+01	-1.44284644851E+02	-6.01213467168E+00	-7.74726598008E-01
1.85339482165E+06	-1.70681214591E+01	-1.56690198086E+02	4.73680723959E+00	1.73631466705E+02	-3.63794938581E+01	-1.69104858377E+02	-5.99287130078E+00	-7.39695473661E-01
1.87558617624E+06	-1.23284736883E+01	1.75367663815E+02	4.61680029126E+00	1.73712974469E+02	-4.20122420628E+01	-1.69709032685E+01	-6.00392175150E+00	-8.16886223049E-01
1.89777753084E+06	-1.16100735195E+01	-1.61753657686E+02	4.62107412690E+00	1.73426885694E+02	-3.50841455221E+01	7.16727988686E+01	-5.96638726953E+00	-9.86837011065E-01
1.91996888543E+06	-1.46885160639E+01	-1.65297468353E+02	4.65265501411E+00	1.73524408511E+02	-5.01862327249E+01	-3.64610863929E+01	-6.02115809023E+00	-8.68222786893E-01
1.94216024003E+06	-1.39878227039E+01	-1.55672154104E+02	4.69785483343E+00	1.73304971177E+02	-4.59043854598E+01	1.64619181346E+02	-6.01064974426E+00	-8.22287083130E-01
1.96435159462E+06	-1.46431927601E+01	1.58645044015E+02	4.66449461540E+00	1.73808585620E+02	-4.92811904429E+01	6.94580010450E+01	-6.02484546965E+00	-8.40847193215E-01
1.98654294922E+06	-1.28627087471E+01	1.77209117873E+02	4.68146280986E+00	1.73619514975E+02	-4.08815812480E+01	2.57190012448E+01	-6.01127092390E+00	-1.10982976746E+00
2.00873430381E+06	-1.28656489221E+01	-1.70941646377E+02	4.70481903156E+00	1.73313559700E+02	-4.42528284547E+01	3.16550803664E+01	-5.99379007822E+00	-7.24947824090E-01
2.03092565841E+06	-1.36468001898E+01	-1.63336348552E+02	4.69024988292E+00	1.73201652307E+02	-5.38058066781E+01	-1.22550253974E+02	-6.01705219387E+00	-7.92371308821E-01
2.05311701300E+06	-1.12620076698E+01	-1.72905883655E+02	4.65532681395E+00	1.73049512005E+02	-3.71143602971E+01	-5.26839486208E+01	-6.00610307905E+00	-1.03627054981E+00
2.07530836760E+06	-1.41132768649E+01	1.72816231976E+02	4.66400638289E+00	1.73211677791E+02	-4.62375540874E+01	1.33658144322E+02	-5.97905455121E+00	-1.09911470964E+00
2.09749972219E+06	-1.73323773843E+01	-1.51491045346E+02	4.69593425788E+00	1.73358450043E+02	-4.67466414655E+01	-1.03013346764E+02	-6.00180561013E+00	-8.23643536843E-01
2.11969107679E+06	-1.43907525201E+01	-1.63321008919E+02	4.72423433296E+00	1.72646120345E+02	-5.86180981393E+01	8.02968899559E+01	-5.98056715611E+00	-8.37397510478E-01
2.14188243138E+06	-1.89793395701E+01	-1.62289678884E+02	4.68407307699E+00	1.72870716314E+02	-4.26079820943E+01	-1.28579454978E+02	-5.98880260204E+00	-8.42452900441E-01
2.16407378598E+06	-1.15703200218E+01	-1.41390363397E+02	4.74314819160E+00	1.72562408444E+02	-4.06942318431E+01	4.90278874545E+01	-6.00938232427E+00	-9.72010403795E-01
2.18626514057E+06	-1.64859341134E+01	1.77455266400E+02	4.72264822458E+00	1.72717291778E+02	-4.18071748512E+01	-1.52482229353E+02	-5.99963492466E+00	-9.51849550455E-01
2.20845649517E+06	-1.29564086161E+01	-1.62140803833E+02	4.68099105745E+00	1.72423053934E+02	-3.90232351810E+01	-1.05803717927E+02	-6.00813369966E+00	-8.66320780648E-01
2.23064784976E+06	-1.19044697680E+01	-1.54317780765E+02	4.66762542301E+00	1.71900477393E+02	-3.84203683566E+01	4.60225986880E+01	-5.98793503851E+00	-1.08029194111E+00
2.25283920436E+06	-1.25717245745E+01	-1.74310671197E+02	4.70910152292E+00	1.72500645241E+02	-4.68481493552E+01	2.76266853188E+01	-5.99444124126E+00	-9.95264859039E-01
2.27503055895E+06	-1.36198882798E+01	-1.69477233744E+02	4.74169303574E+00	1.72293118945E+02	-5.15695047886E+01	-2.18333768888E+01	-6.00789473821E+00	-7.51002111899E-01
2.29722191355E+06	-1.40274782644E+01	1.77448125310E+02	4.68940524988E+00	1.72344428421E+02	-4.42671354005E+01	5.14085906480E+01	-6.00112678816E+00	-1.09973163329E+00
2.31941326814E+06	-1.84344078448E+01	-9.44005831922E+01	4.70290803180E+00	1.72242580138E+02	-5.15445913381E+01	8.34546660781E+01	-5.98192125434E+00	-1.16190741529E+00
2.34160462274E+06	-1.26811841937E+01	-1.52530151143E+02	4.71571519385E+00	1.72048602793E+02	-4.92767066442E+01	-1.07406010416E+02	-6.00677495800E+00	-1.01656702209E+00
2.36379597733E+06	-1.34141462611E+01	-1.61896383359E+02	4.70982617055E+00	1.71996494215E+02	-3.61776666611E+01	-1.72966264858E+02	-6.00897528761E+00	-1.06427541245E+00
2.38598733193E+06	-1.27899966221E+01	-1.71527385687E+02	4.71161521001E+00	1.71687417008E+02	-4.86658289362E+01	-3.16474234994E+00	-6.00026827496E+00	-1.14590213998E+00
2.40817868652E+06	-1.42276481169E+01	1.76774672755E+02	4.68220806897E+00	1.71960838697E+02	-4.78970085698E+01	7.20779372287E+01	-5.99403033483E+00	-1.20697415939E+00
2.43037004112E+06	-1.34178538908E+01	-1.63209423083E+02	4.65935348449E+00	1.71742526085E+02	-4.63587927075E+01	1.02569981077E+02	-5.98554152416E+00	-1.47418604946E+00
2.45256139571E+06	-1.45871551473E+01	-1.65598221928E+02	4.75579896048E+00	1.71705173695E+02	-4.25763790666E+01	7.89425664009E+01	-5.99075003728E+00	-1.27511587550E+00
2.47475275031E+06	-1.05345148551E+01	1.44416788761E+02	4.65536168439E+00	1.72158611731E+02	-4.94182442430E+01	3.56547846547E+01	-6.00353336422E+00	-1.13637011615E+00
2.49694410490E+06	-1.38662851433E+01	-1.67966567334E+02	4.70521099991E+00	1.71412837098E+02	-4.28396428177E+01	-1.73188952636E+02	-6.00701904315E+00	-1.09296527250E+00
2.51913545950E+06	-1.15807597715E+01	-1.69030179581E+02	4.68866980265E+00	1.71182167645E+02	-5.78762665807E+01	9.73177774111E+01	-6.00217949927E+00	-1.02499861647E+00
2.54132681409E+06	-1.25804721422E+01	-1.78177242263E+02	4.67905417586E+00	1.71384092163E+02	-4.96373166460E+01	1.47795416610E+02	-5.98948866141E+00	-1.12067102085E+00
2.56351816869E+06	-1.55227524296E+01	1.70029953959E+02	4.71530329626E+00	1.71497215858E+02	-4.20961487502E+01	1.03215389574E+02	-5.99729396141E+00	-1.24495740516E+00
2.58570952328E+06	-1.65243795076E+01	-1.56153740763E+02	4.78720094801E+00	1.71429526156E+02	-4.84948566354E+01	-1.77678122379E+02	-6.00391341909E+00	-1.13798525268E+00
2.60790087788E+06	-1.39063923746E+01	-1.73584725761E+02	4.68602983213E+00	1.71045311054E+02	-4.87025152650E+01	-1.03507480534E+02	-6.02792669745E+00	-1.02768099670E+00
2.63009223247E+06	-1.86011339566E+01	1.74229303941E+02	4.75603646876E+00	1.71221869903E+02	-5.17421326023E+01	-5.42110179313E+01	-6.02092716503E+00	-7.48981619456E-01
2.65228358707E+06	-1.55139853916E+01	-1.71754840318E+02	4.71820496178E+00	1.70817168516E+02	-4.55835444365E+01	-1.33737692253E+02	-5.98173052239E+00	-1.16488659951E+00
2.67447494166E+06	-1.25911564364E+01	-1.55572383537E+02	4.73438344295E+00	1.70448026389E+02	-3.53498729621E+01	-1.10704279925E+02	-6.00930267359E+00	-1.12545142113E+00
2.69666629626E+06	-1.22931062196E+01	-1.69869591124E+02	4.73154965797E+00	1.70332179743E+02	-5.21083096689E+01	-9.77607524275E+01	-6.01295293274E+00	-1.14882570326E+00
2.71885765085E+06	-1.24929935675E+01	-1.79032410253E+02	4.66556214326E+00	1.70425568913E+02	-4.23907102616E+01	1.57350747653E+02	-5.99486208256E+00	-1.14901748429E+00
2.74104900545E+06	-1.40633336744E+01	1.79645275086E+02	4.67860768914E+00	1.70848473945E+02	-4.78778506382E+01	-1.40193543120E+02	-5.96507340539E+00	-1.15700332249E+00
2.76324036004E+06	-1.39102812196E+01	-1.61876981188E+02	4.75411208025E+00	1.70318735218E+02	-4.50872800608E+01	-5.63993465189E+01	-5.99654259531E+00	-1.11166467743E+00
2.78543171463E+06	-1.29868497354E+01	1.72604811783E+02	4.66201124847E+00	1.70256770185E+02	-5.27297432042E+01	-4.75983783397E+01	-6.00163061347E+00	-1.19353438463E+00
2.80762306923E+06	-1.23245840402E+01	-1.74740234268E+02	4.68185680826E+00	1.70084106489E+02	-4.17611278412E+01	1.03153605989E+02	-6.00310085033E+00	-1.30603168500E+00
2.82981442382E+06	-1.51308908015E+01	-1.72882209471E+02	4.69694314561E+00	1.69969435133E+02	-3.52722975621E+01	1.19737997601E+02	-5.98909649558E+00	-1.25091015587E+00
2.85200577842E+06	-1.13212415838E+01	-1.75293271951E+02	4.70139077037E+00	1.70056157528E+02	-5.18746305830E+01	-2.24606233694E+01	-6.01321726405E+00	-1.07395459816E+00
2.87419713301E+06	-1.21344376033E+01	-1.61235132160E+02	4.72776803876E+00	1.69764139316E+02	-3.73516334432E+01	-1.55537222005E+02	-5.97524821558E+00	-1.19908949614E+00
