# Hz S DB R 50
! CMT, M5065, 19127446, 24.2.4/2
! Date: 11/8/2024 3:35:00 PM
! Data: Format (Calibration Info)
! Freq	S11:dB/Ang(F2)	S21:dB/Ang(F2)	S12:dB/Ang(F2)	S22:dB/Ang(F2)
3.00000000000E+05	-1.49740125233E+01	-1.66928312625E+02	4.65711154003E+00	-1.77720993414E+02	-4.75163649255E+01	-1.08411715872E+02	-5.98970369174E+00	-1.94658610851E-01
3.22191354595E+05	-1.32725732728E+01	-1.78719148715E+02	4.63484311053E+00	-1.77674258859E+02	-5.08530838651E+01	-1.70842233195E+02	-5.98244288091E+00	-2.22523089764E-01
3.44382709190E+05	-1.08244361868E+01	1.77011184009E+02	4.65462745486E+00	-1.78390330519E+02	-5.00015842465E+01	-1.27492992326E+02	-5.99658415980E+00	-1.85153763231E-01
3.66574063785E+05	-1.85853419077E+01	1.79189160641E+02	4.64715008158E+00	-1.78466501836E+02	-6.30013312789E+01	3.58573970804E+01	-5.98016930809E+00	-1.94246299918E-01
3.88765418380E+05	-1.12574641235E+01	-1.62125975495E+02	4.69595609665E+00	-1.79957250200E+02	-4.65167297321E+01	-1.03701813294E+02	-6.01365972497E+00	-7.10329699344E-02
4.10956772975E+05	-1.32562088721E+01	-1.76665987340E+02	4.59896538874E+00	-1.78898392576E+02	-3.92528542075E+01	1.65498999913E+02	-5.96993011160E+00	-4.21543766088E-01
4.33148127570E+05	-1.36226807889E+01	-1.62528055168E+02	4.69130532584E+00	-1.79244508608E+02	-4.59641891890E+01	-7.57617887720E+00	-6.00056302470E+00	-3.14435798245E-01
4.55339482165E+05	-1.18533994415E+01	-1.78973819058E+02	4.57572614531E+00	-1.79260735516E+02	-5.20118196552E+01	1.32609607171E+02	-6.00928867551E+00	-3.19894249338E-01
4.77530836760E+05	-1.34172009723E+01	-1.70990146128E+02	4.64937227250E+00	-1.79445046747E+02	-4.84148580486E+01	-2.89708336417E+01	-6.01657681346E+00	-2.27454316604E-01
4.99722191355E+05	-1.34287059428E+01	1.75513801611E+02	4.64719768129E+00	-1.79808853159E+02	-4.42560492127E+01	-1.40944759337E+02	-5.98851194918E+00	-1.11669564468E-01
5.21913545950E+05	-1.35985978118E+01	1.51480105684E+02	4.67156835248E+00	-1.79656616777E+02	-4.90675352842E+01	-1.04238732693E+01	-6.01371226308E+00	-2.34127793753E-01
5.44104900545E+05	-1.42241686487E+01	-1.68742813296E+02	4.70027650379E+00	1.79909103652E+02	-3.93483602735E+01	-1.44386265660E+02	-5.99308937847E+00	-1.03430747865E-01
5.66296255139E+05	-1.43765270782E+01	-1.68770578646E+02	4.63242981740E+00	1.79520440721E+02	-4.56210974609E+01	-9.45960963025E+01	-6.00615879178E+00	-3.81991078606E-01
5.88487609734E+05	-1.14318403193E+01	-1.78916103487E+02	4.62620604807E+00	1.79450415304E+02	-4.67774572310E+01	4.91207345344E+01	-6.00689460230E+00	-4.13508146593E-01
6.10678964329E+05	-1.05673514915E+01	1.72158358813E+02	4.61757892042E+00	1.79673821632E+02	-5.43018533018E+01	1.07170435030E+02	-6.01635818093E+00	2.19802889111E-02
6.32870318924E+05	-1.32268711894E+01	-1.64433613742E+02	4.64706030150E+00	1.79261578505E+02	-5.31823842498E+01	-1.78931664648E+01	-6.00251757356E+00	-4.79890081453E-02
6.55061673519E+05	-1.14016212030E+01	-1.72679256150E+02	4.58416772334E+00	1.79229574859E+02	-4.34718558616E+01	-2.35124875184E+01	-6.01329296590E+00	-3.48146499485E-01
6.77253028114E+05	-1.37347156956E+01	1.69527375229E+02	4.65131299761E+00	1.79132360319E+02	-4.39801395022E+01	3.32917393158E+01	-5.99748815787E+00	-7.26925493764E-01
6.99444382709E+05	-1.58632864973E+01	-1.66719595311E+02	4.67485865357E+00	1.78889591101E+02	-4.04508966314E+01	1.19791541933E+02	-5.98872832821E+00	-4.99796774567E-01
7.21635737304E+05	-1.22750741873E+01	-1.51677415263E+02	4.65011069016E+00	1.78394070209E+02	-4.16005872535E+01	-9.83588524863E+01	-5.99894524647E+00	-3.27529409330E-01
7.43827091899E+05	-1.32992602485E+01	-1.75342093948E+02	4.72371707629E+00	1.78461113449E+02	-6.04570548257E+01	3.16665163144E+00	-6.00002747787E+00	-3.94629901690E-01
7.66018446494E+05	-1.29378054746E+01	-1.68905585072E+02	4.62677120122E+00	1.78348782593E+02	-4.68916841392E+01	8.46008473151E+01	-5.99353451451E+00	-3.39870310335E-01
7.88209801089E+05	-1.15502385374E+01	-1.70921462535E+02	4.69076551166E+00	1.78485979469E+02	-5.62079470657E+01	-1.20521665011E+02	-6.00849798651E+00	-4.76989891129E-01
8.10401155684E+05	-1.44345376113E+01	1.72699791749E+02	4.66261087655E+00	1.78388860936E+02	-4.48831280757E+01	-5.83188462436E+01	-5.97869461454E+00	-5.07989886507E-01
8.32592510279E+05	-1.64365354115E+01	-1.72938948636E+02	4.68432823538E+00	1.77957306509E+02	-4.29442264985E+01	-1.75472753536E+02	-5.96976253933E+00	-4.24869515185E-01
8.54783864874E+05	-1.20041155321E+01	-1.67540675054E+02	4.63771946408E+00	1.77928993423E+02	-5.21498592542E+01	-7.30321178729E+01	-6.01170232532E+00	-4.88835333439E-01
8.76975219469E+05	-1.36349353724E+01	1.73869488074E+02	4.66103558942E+00	1.77981519940E+02	-4.17588230509E+01	1.39221097329E+01	-6.00921969949E+00	-4.44790258402E-01
8.99166574064E+05	-1.53415711642E+01	-1.76727162667E+02	4.63758379276E+00	1.78116302494E+02	-4.21768703916E+01	1.52136169475E+02	-5.99126369412E+00	-4.23879485904E-01
9.21357928659E+05	-1.44469852221E+01	1.79076421296E+02	4.68199648016E+00	1.77751298359E+02	-5.28187710860E+01	5.55424271454E+01	-6.02751833895E+00	-4.84111956880E-01
9.43549283254E+05	-1.27665441650E+01	1.74629677455E+02	4.61629623143E+00	1.77884045076E+02	-4.84644851892E+01	-3.75047566489E+01	-5.98946487716E+00	-4.06408855151E-01
9.65740637849E+05	-1.38213017270E+01	-1.79485623283E+02	4.66235805666E+00	1.77661429456E+02	-4.08320781079E+01	1.21008641722E+02	-6.01056250877E+00	-2.58466819816E-01
9.87931992444E+05	-8.88535630853E+00	1.73277176703E+02	4.65014529014E+00	1.77298020522E+02	-4.52776233859E+01	1.35280645902E+02	-6.00153061056E+00	-4.63566303502E-01
1.01012334704E+06	-1.49341489477E+01	1.68219372127E+02	4.65822223987E+00	1.77682528191E+02	-4.68670458066E+01	9.01518698279E+01	-5.99727870992E+00	-5.63279227240E-01
1.03231470163E+06	-1.08169330492E+01	-1.77569513062E+02	4.67574485968E+00	1.77178075481E+02	-5.10184263479E+01	7.18633940532E+01	-5.99710759724E+00	-5.46925529974E-01
1.05450605623E+06	-1.32949187159E+01	1.74256930887E+02	4.63844615179E+00	1.77444709147E+02	-4.56281694872E+01	1.12980170392E+02	-5.98925539151E+00	-5.27545629742E-01
1.07669741082E+06	-1.86517500917E+01	-1.65329627738E+02	4.69557521126E+00	1.77121218285E+02	-4.57368125650E+01	-8.40928191985E+01	-5.99331105635E+00	-4.79365704696E-01
1.09888876542E+06	-1.62659015472E+01	1.61889943782E+02	4.66491635620E+00	1.77056094661E+02	-5.03677664661E+01	-7.52112753100E+00	-6.02677659269E+00	-5.15354193418E-01
1.12108012001E+06	-1.03979680084E+01	-1.65367783888E+02	4.60567231598E+00	1.76221222026E+02	-4.11708654246E+01	5.34906312034E+01	-5.99877372880E+00	-5.26818001810E-01
1.14327147461E+06	-1.29062241996E+01	-1.60473756759E+02	4.65487919080E+00	1.76565071968E+02	-4.31770431155E+01	-1.70886511700E+02	-5.97069121686E+00	-6.77053492233E-01
1.16546282920E+06	-1.29114350908E+01	-1.70223312826E+02	4.71889728318E+00	1.76744143725E+02	-4.57699039793E+01	1.03467253832E+02	-6.00084556026E+00	-6.03023616327E-01
1.18765418380E+06	-1.60573169173E+01	1.78356288085E+02	4.72294540396E+00	1.76639426104E+02	-4.59615829643E+01	-4.88764628800E+01	-5.99845919024E+00	-4.98963929309E-01
1.20984553839E+06	-1.50814753114E+01	-1.70386762487E+02	4.68107030729E+00	1.76566682952E+02	-4.08113954195E+01	-1.45476761132E+02	-6.00211744470E+00	-5.13740712855E-01
1.23203689299E+06	-1.53264966748E+01	1.78073171915E+02	4.66572614774E+00	1.76466269886E+02	-4.36292472612E+01	-5.82931706733E+00	-6.00536870732E+00	-2.78518458473E-01
1.25422824758E+06	-1.37331927642E+01	-1.77300168363E+02	4.63744555004E+00	1.76032013176E+02	-4.88132312950E+01	-1.11718030251E+02	-6.00854585313E+00	-6.29535597264E-01
1.27641960218E+06	-1.06334749660E+01	-1.72877763305E+02	4.69382213482E+00	1.76217571045E+02	-4.95258469963E+01	-7.25157417473E+01	-6.00961124404E+00	-6.34744569463E-01
1.29861095677E+06	-9.89720553081E+00	1.68205799636E+02	4.64082431527E+00	1.76216486191E+02	-4.23361639546E+01	2.74299641468E+01	-6.01744907841E+00	-6.02725200074E-01
1.32080231137E+06	-1.82446093811E+01	1.54597180676E+02	4.69851429373E+00	1.76320637481E+02	-4.87565587070E+01	1.93237005872E+01	-5.98610786023E+00	-8.64663527352E-01
1.34299366596E+06	-1.34503343494E+01	-1.75390841017E+02	4.65481455212E+00	1.76135486851E+02	-5.35802883449E+01	1.68862883108E+02	-5.95499074298E+00	-7.92565918422E-01
1.36518502056E+06	-1.31721117718E+01	1.78794188812E+02	4.68123916041E+00	1.75987446466E+02	-5.22851872982E+01	7.22972638639E+01	-6.00417692831E+00	-6.59025855794E-01
1.38737637515E+06	-1.31554154293E+01	-1.75664928460E+02	4.66658288784E+00	1.75763868930E+02	-4.08337249742E+01	8.57603653539E+01	-5.98546434692E+00	-6.88444091362E-01
1.40956772975E+06	-1.16617158195E+01	-1.54933149924E+02	4.69088857466E+00	1.75077942829E+02	-5.13293983240E+01	1.29683305417E+02	-5.99993196253E+00	-7.29560410494E-01
1.43175908434E+06	-1.40050840241E+01	-1.45731069359E+02	4.69519907901E+00	1.75358095540E+02	-4.00896597216E+01	7.64329648409E+00	-5.99921922433E+00	-8.29711903802E-01
1.45395043894E+06	-1.15290712978E+01	1.65522418157E+02	4.63746406856E+00	1.75448829138E+02	-3.74138587348E+01	-9.46875157131E+01	-5.99260449656E+00	-5.59519881295E-01
1.47614179353E+06	-1.20550147285E+01	-1.76791490861E+02	4.65156809915E+00	1.75361002848E+02	-3.96653615895E+01	-5.37608017614E+01	-6.00261104874E+00	-7.18542029535E-01
1.49833314813E+06	-1.67640188295E+01	-1.49155551841E+02	4.70966277627E+00	1.75446041739E+02	-5.38841812483E+01	5.56392860152E+01	-5.99715931103E+00	-4.76833136837E-01
1.52052450272E+06	-1.22980713722E+01	1.79264306901E+02	4.62161556386E+00	1.75388702671E+02	-5.06730023374E+01	-5.46179719453E+01	-6.01056118742E+00	-5.48324359154E-01
1.54271585732E+06	-1.33695048283E+01	1.73419601567E+02	4.62694583401E+00	1.75154234346E+02	-5.35318921610E+01	1.21590876827E+02	-5.99439232604E+00	-6.96352747529E-01
1.56490721191E+06	-1.24954076642E+01	-1.76696143976E+02	4.59389107721E+00	1.75098713686E+02	-4.08753957426E+01	1.46398856937E+02	-6.00417174810E+00	-6.63021520712E-01
1.58709856651E+06	-1.51093986145E+01	-1.40578554212E+02	4.67989702924E+00	1.74670295627E+02	-3.82862643051E+01	-6.09562544334E+01	-6.00543268872E+00	-6.97899826073E-01
1.60928992110E+06	-1.48120371693E+01	-1.71157804512E+02	4.68314449717E+00	1.74794619223E+02	-4.59546620950E+01	5.62936225373E+01	-6.00128099718E+00	-7.86477438038E-01
1.63148127570E+06	-1.67478480677E+01	-1.30366529232E+02	4.70176648472E+00	1.74700989345E+02	-4.66580582894E+01	-1.76308705760E+02	-5.99585296669E+00	-8.19828847726E-01
1.65367263029E+06	-1.19180662100E+01	-1.76630899302E+02	4.68261008677E+00	1.74819243264E+02	-4.61810232177E+01	-2.59855972361E+01	-6.00052403333E+00	-6.15391790302E-01
1.67586398489E+06	-1.30003212253E+01	-1.60318421484E+02	4.69162301448E+00	1.74378148602E+02	-3.95639091457E+01	1.67314484622E+02	-5.99689446065E+00	-8.44525487372E-01
1.69805533948E+06	-1.36404035964E+01	-1.78098495080E+02	4.63639099874E+00	1.74327435244E+02	-3.84154509996E+01	-1.66911382083E+02	-5.97497149679E+00	-7.43379489665E-01
1.72024669408E+06	-1.69749807707E+01	-1.62087116187E+02	4.69506582381E+00	1.74598815142E+02	-4.38335905715E+01	8.45765341337E+01	-5.99677288064E+00	-7.69849583971E-01
1.74243804867E+06	-1.16841629347E+01	-1.47604848648E+02	4.66625697549E+00	1.74145132362E+02	-4.36813658864E+01	6.04752093421E+01	-5.98426458226E+00	-6.66118810421E-01
1.76462940327E+06	-1.40115259301E+01	-1.45235729183E+02	4.72760067139E+00	1.74229969928E+02	-4.46772397743E+01	1.17878386697E+02	-6.00419565059E+00	-7.77409705905E-01
1.78682075786E+06	-1.12981651302E+01	1.68130933459E+02	4.68126196423E+00	1.73748193427E+02	-4.65520309707E+01	9.57598393825E+01	-5.99395602364E+00	-6.87481145673E-01
1.80901211246E+06	-1.40667369725E+01	-1.78523678213E+02	4.71492289271E+00	1.74128564780E+02	-4.52208412313E+01	-4.45080538813E+01	-5.98654226138E+00	-8.11780698057E-01
1.83120346705E+06	-1.21468818007E+01	-1.55146252031E+02	4.61758386149E+00	1.73613842728E+02	-4.45488061596E+01	1.07648281351E+02	-6.00367169654E+00	-9.18503871357E-01
1.85339482165E+06	-1.40196828516E+01	-1.55519748180E+02	4.66518770784E+00	1.73707025181E+02	-4.55398759267E+01	-1.00487612237E+02	-6.00520200204E+00	-8.42123118059E-01
1.87558617624E+06	-1.77881104166E+01	1.50884339196E+02	4.70122044528E+00	1.74536543545E+02	-4.47753753588E+01	-1.46010626918E+02	-6.01093655800E+00	-7.81422792158E-01
1.89777753084E+06	-1.29453067196E+01	-1.75266907894E+02	4.70972437110E+00	1.73418856733E+02	-4.13074256182E+01	-7.86302021248E+01	-5.99434286004E+00	-8.86284536952E-01
1.91996888543E+06	-1.45600449166E+01	1.54717909364E+02	4.65283965121E+00	1.73606693471E+02	-3.92487340782E+01	-1.02787108555E+02	-6.01694017099E+00	-8.36158256234E-01
1.94216024003E+06	-1.49602844239E+01	1.73291729241E+02	4.67362469470E+00	1.73825628230E+02	-4.91148993979E+01	-5.09629870804E+01	-6.01176398441E+00	-7.25277568909E-01
1.96435159462E+06	-1.36886341584E+01	-1.75836950276E+02	4.66693674016E+00	1.73801101585E+02	-4.38276524481E+01	-9.79189181286E+01	-6.00122089053E+00	-7.38546852015E-01
1.98654294922E+06	-1.05251601273E+01	-1.68520750744E+02	4.68670506805E+00	1.73198317482E+02	-4.69431399977E+01	2.69988104484E+01	-5.99504474266E+00	-8.51774666422E-01
2.00873430381E+06	-1.81808567566E+01	-1.64771451268E+02	4.69205604044E+00	1.73536815876E+02	-4.17560605669E+01	-1.06200071390E+02	-6.00033813234E+00	-7.99394005452E-01
2.03092565841E+06	-1.83819770710E+01	1.75582765713E+02	4.66576846664E+00	1.73058849976E+02	-4.71076982633E+01	1.12092959645E+01	-6.01789764412E+00	-9.58429065100E-01
2.05311701300E+06	-1.15750184754E+01	1.79687839990E+02	4.65810502676E+00	1.72719744280E+02	-5.03600181444E+01	-4.45678644710E+01	-5.98221201830E+00	-9.35230573216E-01
2.07530836760E+06	-1.16692856989E+01	1.76232095901E+02	4.69776430269E+00	1.72994986724E+02	-4.58187802301E+01	1.42298900828E+02	-6.00113385604E+00	-8.98807298305E-01
2.09749972219E+06	-1.34143517261E+01	1.79233578566E+02	4.64679998253E+00	1.72975774233E+02	-5.22406603744E+01	1.77637354455E+02	-5.99239454537E+00	-9.43447428716E-01
2.11969107679E+06	-1.06069602871E+01	1.76498479440E+02	4.66866667572E+00	1.72923301684E+02	-4.86232746717E+01	9.20670192741E+01	-5.98164338345E+00	-1.04341240990E+00
2.14188243138E+06	-1.27089906553E+01	-1.62707975000E+02	4.64554244693E+00	1.72870999129E+02	-4.70206312244E+01	-3.61591735674E+01	-5.99744980433E+00	-9.65155977205E-01
2.16407378598E+06	-1.40594630669E+01	-1.59914371490E+02	4.69546432714E+00	1.72369119434E+02	-5.59802804183E+01	-8.36266560006E+01	-5.99006828713E+00	-9.50897078399E-01
2.18626514057E+06	-1.29083710758E+01	-1.75147500648E+02	4.70776663263E+00	1.72373441060E+02	-5.28680571988E+01	-8.08175585951E+01	-5.98947627575E+00	-1.09635027362E+00
2.20845649517E+06	-1.34206912591E+01	-1.49026032546E+02	4.73247311939E+00	1.72529680751E+02	-6.10135464327E+01	6.62794372974E+01	-6.00740928672E+00	-1.04272714769E+00
2.23064784976E+06	-1.56541376157E+01	-1.74045704119E+02	4.75327823485E+00	1.72749173835E+02	-3.40712288135E+01	5.60528017421E+01	-6.00861515416E+00	-1.13361809847E+00
2.25283920436E+06	-1.77593697422E+01	-1.58970032918E+02	4.73578107973E+00	1.72405893647E+02	-5.03692776562E+01	-1.12816577448E+02	-6.00078043901E+00	-9.18957622699E-01
2.27503055895E+06	-1.44775043861E+01	-1.68719891436E+02	4.71339917668E+00	1.72176052969E+02	-5.43879900029E+01	1.00009975107E+02	-5.98551057535E+00	-1.02234457524E+00
2.29722191355E+06	-1.41320922061E+01	-1.56190416171E+02	4.73191726213E+00	1.72190649973E+02	-4.54612448244E+01	-6.17742590610E+01	-5.99549623869E+00	-9.12408973012E-01
2.31941326814E+06	-2.09194565949E+01	-1.51251682814E+02	4.72278480020E+00	1.72005463863E+02	-6.13049827138E+01	-1.28033043973E+02	-5.98007579912E+00	-1.09237584743E+00
2.34160462274E+06	-1.32980897093E+01	-1.52296239053E+02	4.70579397825E+00	1.71725141443E+02	-5.08774633773E+01	1.63283088877E+02	-5.99398450914E+00	-1.05183265809E+00
2.36379597733E+06	-1.49874363811E+01	-1.77576426140E+02	4.67421323629E+00	1.72198287765E+02	-4.02722981608E+01	-1.37649371980E+02	-6.02105574305E+00	-1.07875283644E+00
2.38598733193E+06	-1.64919734079E+01	-8.83218563088E+01	4.77959756790E+00	1.72133779672E+02	-4.31068313804E+01	-4.60999763787E+00	-5.99916259158E+00	-1.02763399938E+00
2.40817868652E+06	-1.41334275708E+01	1.42262897189E+02	4.62671288927E+00	1.71946700607E+02	-4.84704837818E+01	-1.77847546628E+02	-5.97675530674E+00	-1.27776410496E+00
2.43037004112E+06	-1.34075928922E+01	-1.64779970321E+02	4.69241014974E+00	1.71320107205E+02	-4.16628855184E+01	-1.17910533012E+01	-6.00137033875E+00	-1.48470794608E+00
2.45256139571E+06	-1.38367160159E+01	1.75580110108E+02	4.67038708611E+00	1.71545650046E+02	-4.41220431332E+01	-5.32094411145E+01	-6.00000659305E+00	-1.06436914504E+00
2.47475275031E+06	-1.46520750943E+01	-1.67069678228E+02	4.69436633594E+00	1.71718829714E+02	-4.57170463678E+01	-1.98479272600E+01	-6.00208288730E+00	-1.14442294975E+00
2.49694410490E+06	-1.25486290486E+01	1.73561540502E+02	4.66112132410E+00	1.71757936163E+02	-4.56910200896E+01	-1.00951668951E+00	-6.02859642455E+00	-1.11469004882E+00
2.51913545950E+06	-1.46317237496E+01	-1.61454476841E+02	4.69390669409E+00	1.71302017559E+02	-4.31612903210E+01	-1.17161362599E+02	-6.00475563630E+00	-1.00514194649E+00
2.54132681409E+06	-1.45124281611E+01	-1.77825960202E+02	4.68813092459E+00	1.71414993359E+02	-3.19597673815E+01	1.24686691005E+02	-5.95411063876E+00	-1.22990936839E+00
2.56351816869E+06	-1.35610044800E+01	-1.52920405971E+02	4.71013109714E+00	1.71040800286E+02	-4.85930868851E+01	9.79174337380E+01	-5.99721008201E+00	-1.09567724136E+00
2.58570952328E+06	-1.13835062474E+01	-1.66746541495E+02	4.65276844550E+00	1.70837022143E+02	-4.61466764013E+01	-1.27378655724E+02	-6.01312456732E+00	-1.02643596409E+00
2.60790087788E+06	-1.39304538611E+01	-1.70961159888E+02	4.69270913910E+00	1.71098184292E+02	-5.13306476460E+01	7.81394907730E+01	-6.00509636471E+00	-1.13871648023E+00
2.63009223247E+06	-1.32724171996E+01	-1.78457220475E+02	4.68836226119E+00	1.70821679987E+02	-4.88441540043E+01	-6.83091037057E+01	-6.01473530246E+00	-7.20594789462E-01
2.65228358707E+06	-1.21692670121E+01	-1.71458125253E+02	4.69096039578E+00	1.70601111054E+02	-4.06925999426E+01	1.43614398690E+02	-5.97366641105E+00	-1.11546543401E+00
2.67447494166E+06	-1.29685453812E+01	-1.77776235797E+02	4.65488351582E+00	1.70826371998E+02	-5.08491362566E+01	-3.48564974957E+01	-6.01879610323E+00	-1.13472534013E+00
2.69666629626E+06	-1.38665825362E+01	1.72537935845E+02	4.70349120798E+00	1.70790800008E+02	-4.58028559106E+01	-1.51290954850E+02	-6.01132089689E+00	-1.14713424912E+00
2.71885765085E+06	-1.15020162458E+01	-1.38799645322E+02	4.77734536370E+00	1.70479362135E+02	-4.49486905170E+01	4.13445283035E+01	-6.01124942980E+00	-1.34675466576E+00
2.74104900545E+06	-1.49482152713E+01	-1.74769870303E+02	4.73906039290E+00	1.70523007430E+02	-4.82665578119E+01	-1.30146900813E+02	-6.00974998195E+00	-1.08360863209E+00
2.76324036004E+06	-1.44961478781E+01	-1.66673119473E+02	4.68702388758E+00	1.70454649411E+02	-4.58385764749E+01	5.94399080786E+01	-6.00060895387E+00	-1.24750113470E+00
2.78543171463E+06	-1.30570621691E+01	-1.61235039922E+02	4.73183300126E+00	1.70337608454E+02	-4.15385586469E+01	-8.86545269920E+01	-6.00657461193E+00	-1.16962149879E+00
2.80762306923E+06	-1.73733968514E+01	-1.59544332306E+02	4.73154538450E+00	1.70412490113E+02	-4.54572067229E+01	-2.40676149066E+01	-6.02600952166E+00	-1.24172578692E+00
2.82981442382E+06	-1.23597497202E+01	-1.64314769208E+02	4.70881180811E+00	1.69880912301E+02	-4.86877825563E+01	3.74329163264E+00	-6.00307663200E+00	-1.26928994553E+00
2.85200577842E+06	-1.29278891933E+01	-1.60150146397E+02	4.72526087700E+00	1.69823820474E+02	-4.14549349049E+01	-1.69269019411E+02	-6.01484074147E+00	-1.25106945386E+00
2.87419713301E+06	-8.97873001491E+00	-1.61492553563E+02	4.69501416349E+00	1.69413684353E+02	-4.19690125118E+01	1.09051725675E+01	-6.00618950936E+00	-1.50741101517E+00
