# Hz S DB R 50
! CMT, M5065, 19127446, 24.2.4/2
! Date: 11/8/2024 3:35:56 PM
! Data: Format (Calibration Info)
! Freq	S11:dB/Ang(F2)	S21:dB/Ang(F2)	S12:dB/Ang(F2)	S22:dB/Ang(F2)
3.00000000000E+05	-1.35765656970E+01	-1.68961675524E+02	4.65488814468E+00	-1.77610860349E+02	-4.49282825407E+01	-9.38296960157E+01	-6.01804550055E+00	-2.00238090714E-01
3.22191354595E+05	-1.45014294723E+01	1.51562817407E+02	4.63524730707E+00	-1.77602166463E+02	-4.93507980986E+01	1.10910156990E+02	-5.98966834665E+00	-2.42466808073E-01
3.44382709190E+05	-1.35261798616E+01	1.68444668723E+02	4.63598664053E+00	-1.78230376724E+02	-5.77737369446E+01	-4.86273188649E+00	-6.00397787978E+00	-1.21858141034E-01
3.66574063785E+05	-1.61257382535E+01	-1.74639133814E+02	4.66896449047E+00	-1.78699092583E+02	-3.90199351475E+01	-8.64281212955E+01	-6.02249577050E+00	-1.79999159794E-01
3.88765418380E+05	-1.33282777509E+01	1.57228776723E+02	4.67163745260E+00	-1.78408048602E+02	-4.24742106343E+01	-8.79612611166E+01	-6.01328849503E+00	-2.95362247806E-01
4.10956772975E+05	-1.11469557594E+01	1.67807064181E+02	4.59501591753E+00	-1.78709070745E+02	-4.26758944797E+01	1.68168044622E+02	-5.97357996129E+00	-3.26624690946E-01
4.33148127570E+05	-1.35244022579E+01	-1.77789138064E+02	4.62374241327E+00	-1.79469705123E+02	-5.31186216841E+01	5.88188439893E+01	-6.00478804466E+00	-2.90926558315E-01
4.55339482165E+05	-1.13118311175E+01	1.77986167124E+02	4.61907180716E+00	-1.79306298597E+02	-4.60731545594E+01	1.55341368126E+02	-5.99543086955E+00	-2.73934665500E-01
4.77530836760E+05	-1.27549212709E+01	-1.53947306540E+02	4.66377715585E+00	-1.79895198100E+02	-5.11759833577E+01	7.19267133687E+01	-6.01173297314E+00	-3.46849001255E-01
4.99722191355E+05	-1.62309469385E+01	-1.68475154529E+02	4.65650785218E+00	-1.79446033197E+02	-6.35237384343E+01	-1.44493827047E+02	-5.97657676512E+00	-1.91296304332E-01
5.21913545950E+05	-1.24950325190E+01	-1.61806851598E+02	4.67701778326E+00	1.79477397117E+02	-3.12403901580E+01	-1.67799592544E+02	-5.98034562444E+00	-3.32696389618E-01
5.44104900545E+05	-1.44090675585E+01	-1.74350858756E+02	4.64394972059E+00	1.79855476428E+02	-4.13570115859E+01	-1.45298154234E+01	-5.98380364402E+00	-3.61699590113E-01
5.66296255139E+05	-1.38116040585E+01	-1.72886781123E+02	4.61079869596E+00	1.79801190205E+02	-4.22938419813E+01	-2.59380513846E+01	-5.99083205101E+00	-1.84355035548E-01
5.88487609734E+05	-1.22688254311E+01	-1.57726223543E+02	4.60137440534E+00	1.79472572252E+02	-4.19477250828E+01	4.67650845390E+01	-5.99154961243E+00	-4.77288802379E-01
6.10678964329E+05	-1.37367839217E+01	-1.64191091320E+02	4.61782046921E+00	1.79477093058E+02	-4.54718025996E+01	1.19434756561E+02	-6.01228190391E+00	9.94092000633E-02
6.32870318924E+05	-1.17202262027E+01	-1.62538739747E+02	4.63484305641E+00	1.79327945442E+02	-4.19548019863E+01	4.55877504689E+01	-5.99831019482E+00	-7.55559083218E-02
6.55061673519E+05	-1.20844180027E+01	1.71386681046E+02	4.61224935605E+00	1.79300773722E+02	-5.41998528161E+01	-5.97538109713E+01	-6.00079025372E+00	-3.49169529236E-01
6.77253028114E+05	-1.42608109960E+01	-1.77738695465E+02	4.69556564600E+00	1.78780268078E+02	-4.08746185526E+01	-4.48007184398E+01	-5.99482795007E+00	-5.69556447249E-01
6.99444382709E+05	-1.27189028354E+01	-1.47505589661E+02	4.66787467554E+00	1.78756034077E+02	-3.45832461439E+01	-1.22875629001E+02	-5.97398385876E+00	-3.11517784406E-01
7.21635737304E+05	-1.38985611037E+01	-1.79087899209E+02	4.67656355179E+00	1.78689258699E+02	-5.36263343961E+01	6.21750278068E+01	-6.00193586462E+00	-4.18937572288E-01
7.43827091899E+05	-1.38485299143E+01	-1.54189067748E+02	4.65768972990E+00	1.78575576200E+02	-4.24781327246E+01	-1.18544052422E+02	-5.99992849099E+00	-3.08704634700E-01
7.66018446494E+05	-1.36920017752E+01	-1.75100543494E+02	4.60813884869E+00	1.78380787636E+02	-4.07705573636E+01	-1.74569402096E+02	-5.98842697698E+00	-4.12765598998E-01
7.88209801089E+05	-1.14456707658E+01	1.73529400854E+02	4.65568687142E+00	1.78502623914E+02	-5.28542127097E+01	1.35704640951E+02	-6.02106105542E+00	-3.52595946243E-01
8.10401155684E+05	-1.31900812814E+01	-1.65648406865E+02	4.65520796880E+00	1.78431768611E+02	-5.93921617647E+01	-1.22716849062E+02	-6.02002916245E+00	-4.61535703455E-01
8.32592510279E+05	-1.36277083596E+01	-1.61453969865E+02	4.69985193511E+00	1.77998952094E+02	-4.31324762003E+01	9.81137556852E+01	-6.00644798468E+00	-3.39722356707E-01
8.54783864874E+05	-1.07921457820E+01	-1.78168174030E+02	4.62792648715E+00	1.78072643576E+02	-5.84227415139E+01	6.23027986015E+01	-5.99072874394E+00	-3.65912255158E-01
8.76975219469E+05	-1.52793703177E+01	-1.78372623096E+02	4.65465117355E+00	1.77908577587E+02	-5.69786856955E+01	-8.43847044549E+01	-5.99825581387E+00	-4.19636324636E-01
8.99166574064E+05	-1.37918331026E+01	-1.63064373647E+02	4.66755854218E+00	1.77849687806E+02	-6.01191080134E+01	1.43172051020E+02	-6.00612524505E+00	-5.25450895151E-01
9.21357928659E+05	-1.19697087827E+01	1.71979018758E+02	4.60296116476E+00	1.77843538569E+02	-4.49744636675E+01	-1.73176252287E+02	-5.98470325747E+00	-5.27873698389E-01
9.43549283254E+05	-1.47306466188E+01	1.61805553647E+02	4.64933151697E+00	1.77840564345E+02	-4.11000903201E+01	9.94300690104E+01	-5.98092980362E+00	-4.63123904039E-01
9.65740637849E+05	-1.10461309922E+01	-1.51730928286E+02	4.65143938084E+00	1.77086179785E+02	-4.65416984498E+01	5.95566289829E+01	-5.98871775009E+00	-6.54528506971E-01
9.87931992444E+05	-1.65992019515E+01	1.71104941201E+02	4.64868824245E+00	1.77515921837E+02	-4.32012152331E+01	-2.68031698112E+01	-5.99670947297E+00	-3.83578530694E-01
1.01012334704E+06	-1.72647404125E+01	1.75179021044E+02	4.68541542465E+00	1.77472881980E+02	-3.95717899356E+01	-1.63662793963E+02	-5.98007835285E+00	-3.97453512636E-01
1.03231470163E+06	-1.29115520101E+01	-1.70154483266E+02	4.64701896152E+00	1.77116515586E+02	-4.92189230549E+01	1.15810859173E+02	-5.98974399569E+00	-6.14822112607E-01
1.05450605623E+06	-1.36300160408E+01	-1.78116993289E+02	4.62013952578E+00	1.77382769024E+02	-4.83223614896E+01	6.53374092096E+01	-5.99320783320E+00	-5.11621776420E-01
1.07669741082E+06	-1.23673750327E+01	1.73853415800E+02	4.61784875921E+00	1.77244823685E+02	-5.41991508372E+01	1.39368114229E+02	-6.00645268453E+00	-5.24733350921E-01
1.09888876542E+06	-1.33064470791E+01	-1.73503255105E+02	4.64822659079E+00	1.76731477506E+02	-4.57171136408E+01	-2.22307697978E+01	-6.00168380739E+00	-6.80243686160E-01
1.12108012001E+06	-1.09851577762E+01	-1.71598842102E+02	4.63879402932E+00	1.76573986224E+02	-4.11658610976E+01	5.98125416914E+01	-6.00070085618E+00	-5.03915321206E-01
1.14327147461E+06	-1.57059131202E+01	-1.53201123500E+02	4.69008534617E+00	1.76569250087E+02	-4.47032517264E+01	3.88678889125E+01	-5.98595473542E+00	-5.32246138066E-01
1.16546282920E+06	-1.33604273394E+01	-1.68047341575E+02	4.65466361340E+00	1.76504261040E+02	-5.16112263774E+01	-6.92194940279E+01	-6.03239276313E+00	-6.39251782314E-01
1.18765418380E+06	-1.80889617274E+01	-1.72675876532E+02	4.71895068408E+00	1.76545304856E+02	-5.61131862965E+01	6.52017801574E+01	-6.00919144859E+00	-5.75466376798E-01
1.20984553839E+06	-1.24827318362E+01	-1.72488880268E+02	4.67409004823E+00	1.76529601682E+02	-4.23409634184E+01	-1.72445824368E+02	-5.99840405477E+00	-6.74647050247E-01
1.23203689299E+06	-1.29340752788E+01	1.71601385666E+02	4.66878186283E+00	1.76368760743E+02	-5.34841365291E+01	-5.22160776878E+01	-6.02659463658E+00	-1.99273491973E-01
1.25422824758E+06	-1.20276355870E+01	1.77076087464E+02	4.66550107929E+00	1.76358681482E+02	-6.21398363721E+01	1.74213976712E+02	-5.99937538147E+00	-4.86081564003E-01
1.27641960218E+06	-1.59516830652E+01	-1.70199050903E+02	4.70200574573E+00	1.76263436994E+02	-4.02054680618E+01	-2.00870853309E+01	-6.00397412728E+00	-5.44045450095E-01
1.29861095677E+06	-1.59264020709E+01	1.69171871092E+02	4.64689477351E+00	1.76120190474E+02	-4.24235818044E+01	-1.32326045832E+02	-6.00546164216E+00	-4.01316112249E-01
1.32080231137E+06	-1.44591422238E+01	-1.61363308094E+02	4.66886719965E+00	1.76060527237E+02	-4.34402895140E+01	-6.19533759865E+01	-6.00557667102E+00	-9.97099153437E-01
1.34299366596E+06	-1.36985938921E+01	1.79544185134E+02	4.61856515123E+00	1.76157168774E+02	-4.64607885575E+01	-5.48440380569E+01	-6.02009245304E+00	-6.24055756260E-01
1.36518502056E+06	-2.37907580718E+01	1.69898651152E+02	4.70668507599E+00	1.76076418330E+02	-4.63238776694E+01	-6.35918948019E+01	-6.00657469949E+00	-6.74052469470E-01
1.38737637515E+06	-2.35747090836E+01	-1.10703871884E+02	4.70552799138E+00	1.75849433255E+02	-4.32141717106E+01	-1.74988037515E+02	-5.97559211151E+00	-5.94096060953E-01
1.40956772975E+06	-1.30475564666E+01	-1.44697276411E+02	4.68780532815E+00	1.75455230038E+02	-4.87334353669E+01	-7.35326172540E+01	-6.00062248686E+00	-6.85391928176E-01
1.43175908434E+06	-1.51575635881E+01	-1.59292137147E+02	4.68300847627E+00	1.75463528884E+02	-4.74677417721E+01	1.56735135057E+02	-5.99030701660E+00	-6.68076985853E-01
1.45395043894E+06	-1.28137780250E+01	-1.76090893433E+02	4.63351217970E+00	1.75264747299E+02	-4.17255580853E+01	1.19318013948E+02	-5.99310806944E+00	-6.17684164587E-01
1.47614179353E+06	-1.23407514049E+01	-1.70382604405E+02	4.65684052758E+00	1.75388314576E+02	-3.88075571331E+01	1.77368782613E+02	-5.98296275925E+00	-4.46178432569E-01
1.49833314813E+06	-1.23517649561E+01	-1.59724388276E+02	4.71265212174E+00	1.75363541090E+02	-4.33874561611E+01	4.51920131200E+01	-6.02023699910E+00	-7.88870290119E-01
1.52052450272E+06	-1.34848997769E+01	-1.76349878304E+02	4.63113468772E+00	1.75011668946E+02	-3.88593110274E+01	7.85916282568E+00	-6.01513787139E+00	-7.55198239927E-01
1.54271585732E+06	-1.37504532457E+01	-1.67264394712E+02	4.69237290215E+00	1.75163791238E+02	-4.93184166245E+01	-1.65357230363E+02	-6.01422303572E+00	-7.41511778383E-01
1.56490721191E+06	-1.30800368957E+01	1.69605109781E+02	4.66952968847E+00	1.75413803899E+02	-5.35505738701E+01	1.62025595598E+02	-5.98117980365E+00	-7.35423731860E-01
1.58709856651E+06	-1.08255650092E+01	1.61023724869E+02	4.66090801802E+00	1.74852622864E+02	-6.55193437575E+01	4.19316998102E+01	-5.99684907227E+00	-8.95850062381E-01
1.60928992110E+06	-1.58225686348E+01	-1.68815187095E+02	4.65925193104E+00	1.74750195375E+02	-3.51903277188E+01	8.97979267273E+01	-5.98735601484E+00	-8.39644694503E-01
1.63148127570E+06	-1.53382791276E+01	-1.76909215869E+02	4.66962631056E+00	1.74885103819E+02	-3.69249779851E+01	-1.78682579969E+02	-5.99276826664E+00	-6.05892129019E-01
1.65367263029E+06	-1.66595078774E+01	-1.76953893910E+02	4.63761438199E+00	1.74520841321E+02	-5.03018871582E+01	-4.39306748521E+00	-6.01504280410E+00	-8.16035744860E-01
1.67586398489E+06	-1.47518183516E+01	1.79172773473E+02	4.68154580500E+00	1.74858961269E+02	-4.34956813715E+01	-3.57837923708E+00	-5.97427355531E+00	-7.21856065576E-01
1.69805533948E+06	-1.25779123020E+01	1.66214923580E+02	4.67318722004E+00	1.74524381858E+02	-4.49610659194E+01	-1.60546407002E+02	-6.01634227376E+00	-7.65071460281E-01
1.72024669408E+06	-2.50463341613E+01	-9.69193609604E+01	4.71482234348E+00	1.74639694925E+02	-4.82562482503E+01	4.82487108819E+01	-5.98559338482E+00	-8.67688225784E-01
1.74243804867E+06	-1.44172527829E+01	-1.44137144555E+02	4.69566232713E+00	1.74336198191E+02	-4.96743328270E+01	-6.67193564022E+01	-5.99792921871E+00	-8.21417278270E-01
1.76462940327E+06	-1.34682304647E+01	-1.79469758519E+02	4.71273296853E+00	1.74043750003E+02	-4.24517308092E+01	-4.13178601170E+01	-5.99725901945E+00	-8.65315498416E-01
1.78682075786E+06	-1.44860188011E+01	-1.58672678027E+02	4.69556373546E+00	1.73897799444E+02	-5.20343371568E+01	3.30173089165E+01	-6.00771181826E+00	-7.20101878523E-01
1.80901211246E+06	-1.43068962414E+01	-1.53995836267E+02	4.71593611342E+00	1.73789947243E+02	-4.78964426754E+01	1.42043479946E+02	-6.00551708944E+00	-7.31325286007E-01
1.83120346705E+06	-1.27078290238E+01	-1.75381698358E+02	4.64018908361E+00	1.73959469680E+02	-4.86707357041E+01	-3.58707958539E+01	-6.00061250904E+00	-7.43163704302E-01
1.85339482165E+06	-1.17274501909E+01	-1.70927922018E+02	4.64515905922E+00	1.73595421328E+02	-4.57633165566E+01	-3.04248733569E+01	-5.99612829927E+00	-7.60421282185E-01
1.87558617624E+06	-1.84487622242E+01	-1.40485639712E+02	4.69308082213E+00	1.73794459611E+02	-4.70411730718E+01	-1.54228110533E+02	-5.97008017796E+00	-8.08928928974E-01
1.89777753084E+06	-1.33714353910E+01	-1.73743126853E+02	4.64642586891E+00	1.73527459215E+02	-4.10423321863E+01	-1.88509545145E+01	-5.99143926924E+00	-9.43690199309E-01
1.91996888543E+06	-1.38662201604E+01	1.74363253335E+02	4.71151810635E+00	1.73778239269E+02	-4.49052742657E+01	-1.28896653943E+02	-6.00043741319E+00	-8.58477623181E-01
1.94216024003E+06	-1.45330692177E+01	1.69111842705E+02	4.73434020634E+00	1.73685786567E+02	-4.66690855649E+01	-1.76418547685E+02	-5.97986017177E+00	-8.81861904472E-01
1.96435159462E+06	-1.43101956940E+01	-1.74139850918E+02	4.69133034014E+00	1.73512490491E+02	-5.24598067054E+01	-1.02774955925E+02	-6.00006859032E+00	-6.97601368813E-01
1.98654294922E+06	-1.30082631116E+01	1.78081104283E+02	4.67135497614E+00	1.73199359036E+02	-4.74986894223E+01	6.69567158850E+00	-6.00446402260E+00	-7.81342502269E-01
2.00873430381E+06	-1.33006956948E+01	-1.68592560137E+02	4.68134316019E+00	1.73329950722E+02	-4.63305173761E+01	-1.75615019432E+02	-5.98746552187E+00	-8.33381145421E-01
2.03092565841E+06	-1.55522114076E+01	-1.51937848042E+02	4.71313316485E+00	1.73167792488E+02	-3.88390755173E+01	5.12371767524E+01	-6.00080840745E+00	-1.03661864892E+00
2.05311701300E+06	-1.22098366765E+01	1.79622815387E+02	4.65449228730E+00	1.73261711648E+02	-4.92270153106E+01	1.05746837615E+02	-5.99916091116E+00	-8.76672422919E-01
2.07530836760E+06	-1.90525796007E+01	-1.68294602466E+02	4.67122766316E+00	1.73271116472E+02	-4.01173129737E+01	-1.50821454788E+02	-5.99751286663E+00	-7.77789276906E-01
2.09749972219E+06	-1.26260214496E+01	-1.47486041339E+02	4.72392400048E+00	1.72776829778E+02	-4.13129437786E+01	1.28977101973E+02	-5.97681214045E+00	-1.11646683944E+00
2.11969107679E+06	-1.49439673550E+01	-1.70614124413E+02	4.72581735330E+00	1.72998798930E+02	-5.14604107971E+01	1.15686248586E+02	-6.00314813581E+00	-9.56539555972E-01
2.14188243138E+06	-1.42510139382E+01	-1.65114222389E+02	4.66165918437E+00	1.72775672289E+02	-3.78119494343E+01	6.90750415987E+01	-6.00301785934E+00	-1.03744459124E+00
2.16407378598E+06	-1.32849973600E+01	1.77578772586E+02	4.64080555372E+00	1.72776259979E+02	-4.43690039134E+01	-1.05966013402E+02	-5.97512188076E+00	-9.65665973798E-01
2.18626514057E+06	-1.84716881851E+01	1.49001699843E+02	4.70341266324E+00	1.73143896028E+02	-4.78903592470E+01	-7.69415884620E+01	-5.99716913636E+00	-8.86301385229E-01
2.20845649517E+06	-1.28359080054E+01	-1.48681760852E+02	4.78119618252E+00	1.72196425511E+02	-5.04779240400E+01	6.84495317584E+01	-5.99058622250E+00	-1.06361533127E+00
2.23064784976E+06	-1.16086337083E+01	-1.67832858806E+02	4.66812321616E+00	1.72031127097E+02	-4.34352292144E+01	1.59550817001E+02	-5.96093171590E+00	-1.06671225934E+00
2.25283920436E+06	-1.18562093567E+01	-1.75046624123E+02	4.68080109048E+00	1.72291739031E+02	-3.49522956923E+01	1.39296639823E+02	-5.98409762769E+00	-9.83444381173E-01
2.27503055895E+06	-1.27683635070E+01	-1.61765353927E+02	4.71858570195E+00	1.72317992295E+02	-5.52790250411E+01	-8.90827278762E+01	-5.99410078160E+00	-9.21345851559E-01
2.29722191355E+06	-1.55313649754E+01	-1.43842443780E+02	4.72636401673E+00	1.72250345266E+02	-4.70739825886E+01	-6.10208272554E+01	-6.04805502705E+00	-1.09758412689E+00
2.31941326814E+06	-1.48556970416E+01	-1.65407915015E+02	4.68335870402E+00	1.72351182215E+02	-4.42952389512E+01	4.19855412035E+01	-5.98795034184E+00	-1.00900881228E+00
2.34160462274E+06	-1.37432175619E+01	-1.50775689924E+02	4.74158272388E+00	1.71921410436E+02	-4.52562747962E+01	-5.00901656651E+01	-5.99157198068E+00	-1.00577540166E+00
2.36379597733E+06	-1.07028640055E+01	1.78773560593E+02	4.67644019000E+00	1.71908123729E+02	-4.41832953219E+01	3.26535740322E+01	-6.00184711224E+00	-1.08203864950E+00
2.38598733193E+06	-1.72946695373E+01	-1.62376573886E+02	4.74204905582E+00	1.71795606210E+02	-4.38918864939E+01	-6.66190586516E+00	-5.99366957515E+00	-1.25105385820E+00
2.40817868652E+06	-1.44333207420E+01	-1.77642715796E+02	4.66766389321E+00	1.71615564363E+02	-3.22615628012E+01	1.77617642950E+02	-5.96391653518E+00	-1.12955996053E+00
2.43037004112E+06	-1.39809340032E+01	-1.75560994220E+02	4.70793091421E+00	1.71737972732E+02	-4.48291013067E+01	-1.72897611197E+02	-5.99065822556E+00	-1.37928060276E+00
2.45256139571E+06	-1.54439691704E+01	-1.64536384185E+02	4.68679624653E+00	1.71682364042E+02	-6.32447086900E+01	-5.54260478434E+01	-6.00626440739E+00	-9.60793514908E-01
2.47475275031E+06	-1.44422584493E+01	-1.72151590045E+02	4.73895532300E+00	1.71597143760E+02	-4.90884850422E+01	5.80988543593E+01	-6.00427036849E+00	-1.12612812323E+00
2.49694410490E+06	-1.16547008262E+01	-1.76590697050E+02	4.69548863794E+00	1.71437027214E+02	-7.99985387719E+01	-2.18196995477E+01	-6.00816555820E+00	-1.30384348476E+00
2.51913545950E+06	-1.53409664049E+01	1.39781297686E+02	4.69251651454E+00	1.71839695799E+02	-4.50385210622E+01	-1.51652015292E+02	-5.99351088585E+00	-1.19022825855E+00
2.54132681409E+06	-1.38312072539E+01	-1.71437951826E+02	4.70186124939E+00	1.71186334828E+02	-4.39789878291E+01	2.72390074798E+01	-5.99965572918E+00	-1.10996384878E+00
2.56351816869E+06	-1.23437666289E+01	1.77758363408E+02	4.71128580267E+00	1.71148870548E+02	-3.47268080359E+01	1.10369853284E+02	-5.99077360909E+00	-1.27309624835E+00
2.58570952328E+06	-1.27429014264E+01	-1.70157526793E+02	4.67162320062E+00	1.70865231759E+02	-4.72459997885E+01	1.20738919005E+02	-6.01467085117E+00	-1.10118051664E+00
2.60790087788E+06	-1.38050541865E+01	-1.75947785937E+02	4.70066295144E+00	1.71173215546E+02	-4.07340027901E+01	-1.73833960513E+02	-5.98635057639E+00	-1.06476624976E+00
2.63009223247E+06	-1.48802823535E+01	-1.53032590145E+02	4.73367981102E+00	1.70618834967E+02	-4.62280802860E+01	1.05014637944E+02	-5.97502863497E+00	-7.69124712380E-01
2.65228358707E+06	-1.09920696813E+01	1.74501338891E+02	4.64739544767E+00	1.70643375118E+02	-5.02081445042E+01	1.24985536660E+02	-5.97877193458E+00	-1.10604972556E+00
2.67447494166E+06	-1.97410304146E+01	-1.24637211383E+02	4.79166259352E+00	1.70766022301E+02	-4.76922175232E+01	1.62489520589E+02	-5.98777555636E+00	-1.17686497118E+00
2.69666629626E+06	-1.20064904414E+01	-1.72564530825E+02	4.68475212940E+00	1.70619918828E+02	-3.88516252711E+01	1.57978744207E+02	-5.96911018946E+00	-1.18893206025E+00
2.71885765085E+06	-1.34882165699E+01	-1.75053609110E+02	4.72098767754E+00	1.70601797125E+02	-4.41232290171E+01	-3.27229727515E+01	-6.02273558199E+00	-1.24833786956E+00
2.74104900545E+06	-1.24097674956E+01	-1.69445749090E+02	4.70030764956E+00	1.70528823697E+02	-4.57563293009E+01	-3.25419202414E+01	-6.02970071545E+00	-1.22149198726E+00
2.76324036004E+06	-1.39042577343E+01	-1.77843167054E+02	4.73901264956E+00	1.70564812430E+02	-4.01145508853E+01	1.79805669124E+02	-5.99160629940E+00	-1.10035010986E+00
2.78543171463E+06	-1.56569919715E+01	1.71976004783E+02	4.71454725723E+00	1.70677948428E+02	-5.04024629482E+01	-2.05250548966E+01	-6.01587250580E+00	-1.09100915833E+00
2.80762306923E+06	-1.50309631360E+01	-1.46646465292E+02	4.74980071346E+00	1.70444932624E+02	-4.53199373197E+01	-4.07384615167E+01	-6.02861544548E+00	-1.14931014919E+00
2.82981442382E+06	-1.11443724330E+01	1.50501668566E+02	4.65338918696E+00	1.70515891810E+02	-5.30790843353E+01	-4.68408830418E+01	-6.00292887827E+00	-1.28439842613E+00
2.85200577842E+06	-1.24002912789E+01	-1.78279835773E+02	4.66753712545E+00	1.70221471607E+02	-4.41563559684E+01	-2.95579975721E+01	-6.00684680075E+00	-1.16049978297E+00
2.87419713301E+06	-1.36705688063E+01	1.77372589850E+02	4.70860913541E+00	1.70310584318E+02	-4.30695793844E+01	-1.38310424067E+02	-6.00561930932E+00	-1.35009066629E+00
