# Hz S DB R 50
! CMT, M5065, 19127446, 24.2.4/2
! Date: 11/8/2024 3:33:35 PM
! Data: Format (Calibration Info)
! Freq	S11:dB/Ang(F2)	S21:dB/Ang(F2)	S12:dB/Ang(F2)	S22:dB/Ang(F2)
3.00000000000E+05	-1.21657942145E+01	-1.67941700886E+02	4.62445831177E+00	-1.77772977981E+02	-4.56975831280E+01	1.40802259486E+02	-5.99751144383E+00	-3.14810895400E-01
3.22191354595E+05	-1.34035941256E+01	1.68036944690E+02	4.61385813249E+00	-1.77853677150E+02	-5.43764276672E+01	4.83193277402E+01	-5.99394655341E+00	-2.76034651258E-01
3.44382709190E+05	-2.06354414326E+01	-1.71435862334E+02	4.67602634506E+00	-1.78409044545E+02	-4.90664768550E+01	7.19916939143E+01	-6.00931324876E+00	-3.86760462532E-01
3.66574063785E+05	-1.40097630172E+01	1.76921237346E+02	4.63844330684E+00	-1.78331298279E+02	-4.45233869133E+01	-8.71686643049E+00	-5.98813378135E+00	-3.29136288723E-01
3.88765418380E+05	-1.42451663230E+01	1.74210836503E+02	4.70939725361E+00	-1.78431763940E+02	-4.19204549587E+01	1.30184370507E+02	-6.01515524137E+00	-2.29586240143E-01
4.10956772975E+05	-1.55095571991E+01	1.77284597308E+02	4.69155675185E+00	-1.79288217513E+02	-3.84253528138E+01	8.36390688094E+01	-6.00516247092E+00	-2.27076433269E-01
4.33148127570E+05	-1.11100642773E+01	-1.70588790549E+02	4.62381746087E+00	-1.79348806001E+02	-4.35909959420E+01	8.52510389466E+01	-6.00498986333E+00	-1.42102733849E-01
4.55339482165E+05	-1.34068588460E+01	1.53649013574E+02	4.67556330578E+00	-1.78957291944E+02	-4.04361229616E+01	-1.20920817154E+02	-5.97893652576E+00	-2.88504373317E-01
4.77530836760E+05	-1.57262584970E+01	1.78714623304E+02	4.65358757078E+00	-1.79326569158E+02	-3.96505874050E+01	-1.19592048191E+02	-6.01076656447E+00	-1.25554166854E-01
4.99722191355E+05	-1.36340676199E+01	-1.62383887573E+02	4.63963994961E+00	-1.79864947197E+02	-4.67543361021E+01	-3.62351185904E+01	-6.01957007221E+00	-2.92175027516E-01
5.21913545950E+05	-1.27395644563E+01	-1.79912972751E+02	4.66962408647E+00	-1.79954809558E+02	-4.59685265352E+01	5.65738015413E+00	-6.00167749406E+00	-1.55489223520E-01
5.44104900545E+05	-1.45599847196E+01	-1.77653969663E+02	4.67087434607E+00	1.79710893351E+02	-5.36308409526E+01	-1.14134363122E+02	-6.01169830939E+00	-3.58625652393E-01
5.66296255139E+05	-1.49882715898E+01	-1.79248838769E+02	4.72649872558E+00	1.79534101750E+02	-4.61764702732E+01	-1.45228353813E+02	-5.96907773289E+00	-3.14438857165E-01
5.88487609734E+05	-1.55525478012E+01	-1.66711595434E+02	4.64976300715E+00	1.79480096072E+02	-5.84550589203E+01	-7.86589489632E+01	-6.01832585245E+00	-2.46939533314E-01
6.10678964329E+05	-1.34685563456E+01	-1.70484632923E+02	4.65481057648E+00	1.79618874493E+02	-5.12357266759E+01	1.10396131291E+01	-5.98211079645E+00	1.30093756530E-01
6.32870318924E+05	-1.62440296896E+01	1.69319196705E+02	4.69639623244E+00	1.79463515364E+02	-4.36227861630E+01	1.30089845612E+01	-6.01302677045E+00	-1.55003787905E-01
6.55061673519E+05	-1.83711216026E+01	1.73905077050E+02	4.68458997598E+00	1.79208160080E+02	-4.49495385798E+01	4.40575106741E+00	-6.01478537516E+00	-3.28540689037E-01
6.77253028114E+05	-1.22255825264E+01	1.72519882606E+02	4.59718986970E+00	1.78915848275E+02	-6.24684652818E+01	-2.33920492872E+01	-6.02203250627E+00	-6.89208240404E-01
6.99444382709E+05	-1.46923435730E+01	1.72880118172E+02	4.67442442784E+00	1.79095142666E+02	-4.05767070531E+01	-1.29697034980E+02	-5.99043260561E+00	-2.52624379501E-01
7.21635737304E+05	-1.15041391151E+01	1.72788945107E+02	4.61543460620E+00	1.78803411387E+02	-5.38412748566E+01	-1.48894070034E+02	-5.99759627047E+00	-4.86874872657E-01
7.43827091899E+05	-1.49903780277E+01	-1.69148671393E+02	4.71694291721E+00	1.78398547906E+02	-4.21561106855E+01	-1.49439285310E+02	-5.97880864085E+00	-1.25375679874E-01
7.66018446494E+05	-1.20355542980E+01	-1.67856475857E+02	4.65880958082E+00	1.78431920837E+02	-3.55360839727E+01	-2.48264763030E+01	-6.02045027449E+00	-3.20686903932E-01
7.88209801089E+05	-1.29240708088E+01	-1.67043736910E+02	4.59587132216E+00	1.78166477654E+02	-4.56392189444E+01	1.18562984944E+02	-5.98427549334E+00	-4.31565027463E-01
8.10401155684E+05	-1.28475902257E+01	-1.69531344742E+02	4.67657728391E+00	1.78217803817E+02	-4.81976421406E+01	-8.47544121382E+01	-6.01175686992E+00	-3.62644041222E-01
8.32592510279E+05	-1.36081092584E+01	-1.74978114794E+02	4.66350374285E+00	1.78189688602E+02	-4.93923426409E+01	-2.00210658944E+01	-6.00608678263E+00	-2.80178430518E-01
8.54783864874E+05	-1.32373741347E+01	-1.78006142686E+02	4.63206611210E+00	1.77980915122E+02	-4.98492317964E+01	1.50075844254E+02	-5.99546111263E+00	-4.25056392459E-01
8.76975219469E+05	-1.79801936185E+01	-1.74069951895E+02	4.68389568455E+00	1.78161285329E+02	-4.06326605801E+01	-1.53724870037E+02	-5.99981803205E+00	-3.97563195761E-01
8.99166574064E+05	-1.23489303550E+01	-1.65413866073E+02	4.65580633259E+00	1.77758662853E+02	-4.01822143196E+01	-4.15249945261E+01	-6.01292061816E+00	-4.38557322799E-01
9.21357928659E+05	-1.44886510031E+01	-1.71692412966E+02	4.62437158456E+00	1.77777166911E+02	-6.32952352098E+01	-4.20512113672E+01	-5.98354829971E+00	-3.42990309141E-01
9.43549283254E+05	-1.46076418000E+01	-1.49407332048E+02	4.68099438164E+00	1.77395970174E+02	-3.82774717458E+01	-1.11197498255E+02	-6.02643251340E+00	-3.84388940784E-01
9.65740637849E+05	-1.56208304329E+01	-1.67900749377E+02	4.67851114276E+00	1.77575813861E+02	-4.36064781999E+01	-1.55730513021E+02	-6.01432282617E+00	-3.48345963296E-01
9.87931992444E+05	-1.37136773063E+01	-1.76447675838E+02	4.63228203536E+00	1.77390374108E+02	-4.60232280343E+01	-2.29357135312E+01	-5.98629363691E+00	-4.54891671713E-01
1.01012334704E+06	-1.31042605395E+01	-1.64588413238E+02	4.66489526538E+00	1.77139638244E+02	-5.04779045756E+01	9.71230582832E+01	-5.99751603844E+00	-5.23103405579E-01
1.03231470163E+06	-1.28961686335E+01	1.74170747568E+02	4.64317089381E+00	1.77250227828E+02	-4.43000234692E+01	1.24481550804E+02	-5.98791927098E+00	-5.57345296631E-01
1.05450605623E+06	-1.37559295652E+01	1.77769483335E+02	4.67251022666E+00	1.77332004593E+02	-4.35057618589E+01	-1.59925960460E+02	-5.97026444180E+00	-3.62803130295E-01
1.07669741082E+06	-1.24885205684E+01	1.70231390094E+02	4.61421369024E+00	1.77155721502E+02	-4.69505886207E+01	-1.53989933065E+02	-6.01493639821E+00	-5.75502574786E-01
1.09888876542E+06	-1.54215684019E+01	-1.41697552567E+02	4.67489370974E+00	1.76743334037E+02	-4.18303385445E+01	1.74877934335E+02	-5.98744988398E+00	-3.49706067472E-01
1.12108012001E+06	-1.37298184863E+01	1.61225693634E+02	4.64232375616E+00	1.76687328679E+02	-4.59352764350E+01	1.28067836653E+02	-6.00005513956E+00	-5.01354493732E-01
1.14327147461E+06	-1.55178264123E+01	-9.10654378421E+01	4.73813184359E+00	1.76792996451E+02	-4.79056717867E+01	1.23564685485E+02	-6.02168119363E+00	-5.74191747757E-01
1.16546282920E+06	-1.79929250085E+01	-1.69651738563E+02	4.69431357190E+00	1.76687665840E+02	-3.78990277368E+01	9.57573118311E+01	-5.99696613870E+00	-5.37674518243E-01
1.18765418380E+06	-1.26272567193E+01	1.75891219834E+02	4.66291045989E+00	1.76564836298E+02	-4.28649291084E+01	-6.91702549812E+01	-6.01613135659E+00	-5.91134222264E-01
1.20984553839E+06	-1.59829368214E+01	1.66916089209E+02	4.67264315505E+00	1.76477784708E+02	-5.18622424230E+01	-4.92901508497E+01	-6.01375478051E+00	-8.12745650014E-01
1.23203689299E+06	-1.45810781500E+01	-1.40654510738E+02	4.69915897168E+00	1.76136222265E+02	-3.97566895621E+01	-1.04706602579E+02	-6.02816328029E+00	-2.75726697633E-01
1.25422824758E+06	-1.14743259064E+01	-1.68823517042E+02	4.66446971826E+00	1.76110874251E+02	-4.39212672641E+01	4.50199781655E+01	-6.02188608815E+00	-7.27034272088E-01
1.27641960218E+06	-1.56517100806E+01	1.78295085696E+02	4.67610756843E+00	1.76084835190E+02	-4.21371027621E+01	1.10226151728E+01	-6.01628896589E+00	-6.14130350222E-01
1.29861095677E+06	-1.50848555862E+01	-1.46081250190E+02	4.75564816150E+00	1.76155676992E+02	-4.78670973151E+01	-1.39684754787E+02	-5.99660518061E+00	-5.77340344018E-01
1.32080231137E+06	-1.13750010742E+01	-1.71014044211E+02	4.63773026301E+00	1.75963142820E+02	-5.01408396555E+01	-8.82645687615E+01	-5.98817379702E+00	-9.31816959093E-01
1.34299366596E+06	-1.67159635516E+01	-1.75441033298E+02	4.67318343566E+00	1.75981048354E+02	-5.67155335148E+01	1.29095131915E+02	-5.99657320430E+00	-7.69426390638E-01
1.36518502056E+06	-1.35534363369E+01	-1.70316276809E+02	4.66744177844E+00	1.75707936090E+02	-4.32963918832E+01	-1.19997983014E+02	-6.00534175467E+00	-5.35882287733E-01
1.38737637515E+06	-1.42933563726E+01	-1.69058959372E+02	4.66345651633E+00	1.75656880495E+02	-4.73106588089E+01	1.34460058852E+02	-5.99523237058E+00	-5.77240121152E-01
1.40956772975E+06	-1.28404822383E+01	-1.65297278899E+02	4.64584975802E+00	1.75558648606E+02	-6.15169195026E+01	9.60573060352E+01	-6.02049969290E+00	-6.35467219091E-01
1.43175908434E+06	-1.65986855168E+01	1.62418716853E+02	4.67219299605E+00	1.75571123703E+02	-4.81141733857E+01	1.73569031955E+02	-5.98747452518E+00	-6.49394856900E-01
1.45395043894E+06	-1.00160953531E+01	-1.54371957866E+02	4.67172034823E+00	1.75162528737E+02	-4.56928187893E+01	-6.09294138754E+01	-5.98479733018E+00	-5.93973832466E-01
1.47614179353E+06	-1.35108710621E+01	1.63842916888E+02	4.65177171673E+00	1.75575116731E+02	-4.59151798750E+01	-1.34606931818E+02	-5.99605484300E+00	-6.67953694812E-01
1.49833314813E+06	-1.40842588177E+01	-1.70621571215E+02	4.64960699309E+00	1.75311772689E+02	-3.99657597968E+01	1.01677572786E+02	-5.99736574304E+00	-6.69848933360E-01
1.52052450272E+06	-1.36460360290E+01	1.61371375018E+02	4.70361442424E+00	1.75634942905E+02	-4.23522394977E+01	3.35680582781E+01	-6.02557783656E+00	-6.72461342735E-01
1.54271585732E+06	-1.48439447666E+01	-1.75879347273E+02	4.64079797069E+00	1.75150866312E+02	-4.78061843569E+01	-8.13271391085E+01	-6.02714004950E+00	-6.95407544949E-01
1.56490721191E+06	-1.62563042989E+01	-1.79007946929E+02	4.65642490769E+00	1.75251663242E+02	-4.32280908604E+01	2.21265831027E-01	-6.00446461660E+00	-8.92193445818E-01
1.58709856651E+06	-1.19752982940E+01	-1.68484976546E+02	4.70874586052E+00	1.75010725741E+02	-4.10884099536E+01	1.43205120519E+02	-5.98953205093E+00	-6.76939925992E-01
1.60928992110E+06	-8.49134922870E+00	-1.78335996491E+02	4.60853033101E+00	1.74550055150E+02	-4.97012609756E+01	1.53353282058E+02	-6.01411656511E+00	-8.18602199401E-01
1.63148127570E+06	-1.15606487514E+01	-1.77509345670E+02	4.66127201999E+00	1.74823668403E+02	-4.87579029398E+01	1.74428301298E+01	-6.00617555646E+00	-9.36081066928E-01
1.65367263029E+06	-1.42556538650E+01	-1.68350979623E+02	4.70842203566E+00	1.74650616541E+02	-4.64188096883E+01	1.24873374141E+02	-5.99126398892E+00	-7.42357358185E-01
1.67586398489E+06	-1.40211187429E+01	-1.77037332631E+02	4.65238198540E+00	1.74651915179E+02	-4.30146944828E+01	6.56133592577E+01	-6.00211873545E+00	-8.24717016908E-01
1.69805533948E+06	-1.44581133865E+01	1.74628543038E+02	4.63253915391E+00	1.74923965924E+02	-4.22169039133E+01	-2.14780809782E+01	-6.00758083577E+00	-7.28181677297E-01
1.72024669408E+06	-1.43329123659E+01	-1.62420872935E+02	4.65048919857E+00	1.74466227273E+02	-3.11119478786E+01	-4.49963702445E+00	-5.99059370575E+00	-9.52826858492E-01
1.74243804867E+06	-1.42818183445E+01	1.45534018663E+02	4.60734343430E+00	1.74802136894E+02	-4.78480628448E+01	-5.82301307854E+01	-5.99389931128E+00	-5.86991096728E-01
1.76462940327E+06	-1.62887045420E+01	1.70876717284E+02	4.73533738143E+00	1.74719647082E+02	-5.47856370085E+01	1.34489532604E+02	-6.02025151790E+00	-7.71819543194E-01
1.78682075786E+06	-1.73362380880E+01	-1.55273778214E+02	4.73660940571E+00	1.74252428604E+02	-4.63793807841E+01	-7.14131413742E+01	-6.01165229711E+00	-5.99952179965E-01
1.80901211246E+06	-1.35444073114E+01	1.79798268976E+02	4.63665253521E+00	1.74287333181E+02	-6.17054283419E+01	1.02439967420E+02	-5.98927815832E+00	-8.90915028732E-01
1.83120346705E+06	-1.28844081906E+01	-1.62139229765E+02	4.70744970893E+00	1.73873505927E+02	-5.68454861544E+01	-1.58224845331E+02	-6.00485420155E+00	-8.37788742680E-01
1.85339482165E+06	-1.49912084641E+01	-1.63057388777E+02	4.67288858166E+00	1.73889362233E+02	-3.42599936479E+01	-4.32256515968E+01	-6.03078742954E+00	-6.99037402544E-01
1.87558617624E+06	-1.44116658714E+01	1.71899830453E+02	4.68133793092E+00	1.74110507398E+02	-3.65008431252E+01	-1.18139290565E+02	-6.03313773894E+00	-7.40831727462E-01
1.89777753084E+06	-1.29976041470E+01	-1.78346743656E+02	4.65788994705E+00	1.73490276878E+02	-4.15314250999E+01	-3.78442916023E+00	-6.01462383304E+00	-9.05439261467E-01
1.91996888543E+06	-1.47281599609E+01	-1.69428413074E+02	4.69757014815E+00	1.73796491644E+02	-4.77095658053E+01	1.79753059799E+02	-5.99972268889E+00	-7.63059679804E-01
1.94216024003E+06	-1.63850751016E+01	-1.72215779850E+02	4.64331735944E+00	1.73985079850E+02	-5.75770462061E+01	-1.07455341268E+02	-6.00119482822E+00	-8.38212558831E-01
1.96435159462E+06	-1.38208876184E+01	-1.75885606580E+02	4.67598736362E+00	1.73427910462E+02	-4.50886857743E+01	8.78341856880E+01	-5.99355630814E+00	-9.64149157529E-01
1.98654294922E+06	-1.26223988515E+01	1.75581202375E+02	4.69188156897E+00	1.73406702958E+02	-4.33661483297E+01	-1.18411678582E+02	-5.98715420816E+00	-7.68936029759E-01
2.00873430381E+06	-1.48954361237E+01	-1.61285285166E+02	4.69539047299E+00	1.73117194686E+02	-4.81887376045E+01	-1.72645150589E+02	-5.99304868295E+00	-8.72164656759E-01
2.03092565841E+06	-1.45536436826E+01	-1.65678915795E+02	4.64984439303E+00	1.73347761064E+02	-3.82720613072E+01	1.03040259447E+02	-5.98295679352E+00	-8.81450415542E-01
2.05311701300E+06	-1.34131709658E+01	-1.62684928907E+02	4.66016485720E+00	1.72749357028E+02	-4.77369516285E+01	-1.62115028370E+02	-5.97992212540E+00	-8.07384201712E-01
2.07530836760E+06	-1.70156156521E+01	-1.73340883362E+02	4.70718702422E+00	1.73176854715E+02	-4.89141282248E+01	4.28762871976E+01	-5.97968032259E+00	-1.02320887008E+00
2.09749972219E+06	-1.31679574216E+01	1.78875262756E+02	4.67555657357E+00	1.73235619351E+02	-4.09027632779E+01	1.29811336457E+02	-5.98688317857E+00	-1.15324314890E+00
2.11969107679E+06	-1.58276834484E+01	-1.69578134000E+02	4.68722078422E+00	1.73064151884E+02	-4.81324009942E+01	-1.68097678287E+02	-5.97960192043E+00	-1.04937013386E+00
2.14188243138E+06	-1.31565221149E+01	-1.72339158589E+02	4.70819585303E+00	1.72662573801E+02	-4.75035402773E+01	1.01521459867E+02	-5.98829828938E+00	-1.01219500946E+00
2.16407378598E+06	-1.32338393648E+01	-1.73628665135E+02	4.66262877377E+00	1.72846796425E+02	-4.62515780228E+01	-1.36508347677E+02	-5.98563542539E+00	-1.00231865904E+00
2.18626514057E+06	-1.31037658704E+01	1.76703576349E+02	4.65917994166E+00	1.72747856127E+02	-3.68758004083E+01	-1.65674145575E+02	-6.00753624324E+00	-8.91337493348E-01
2.20845649517E+06	-1.17551502046E+01	-1.78030256688E+02	4.69908683937E+00	1.72444078623E+02	-4.33991692587E+01	1.02983799880E+02	-6.00259032400E+00	-9.72884882095E-01
2.23064784976E+06	-1.52383166973E+01	-1.75379496736E+02	4.70482632772E+00	1.72612024440E+02	-4.27475262809E+01	-9.41703709261E+01	-6.02420246384E+00	-9.37065170606E-01
2.25283920436E+06	-1.05352719070E+01	-1.58660777439E+02	4.67349526123E+00	1.72056765293E+02	-5.70121818709E+01	3.97440284338E+01	-5.99152726707E+00	-1.11903460404E+00
2.27503055895E+06	-1.32843033144E+01	-1.77482318359E+02	4.68958845978E+00	1.72544373660E+02	-4.42053858567E+01	2.63875866019E+01	-5.99855535083E+00	-1.14351545881E+00
2.29722191355E+06	-1.76897132742E+01	1.76195238759E+02	4.75467679931E+00	1.72420133716E+02	-4.46892905049E+01	-1.20003127279E+02	-6.01579936968E+00	-9.55655308103E-01
2.31941326814E+06	-1.39317085517E+01	-1.73444956416E+02	4.67901887968E+00	1.72148629804E+02	-4.64426096909E+01	5.58367125574E+01	-5.99421020724E+00	-1.01866817296E+00
2.34160462274E+06	-1.21705173256E+01	-1.61848087293E+02	4.69770848426E+00	1.71990504926E+02	-5.74241349378E+01	4.17690755140E+01	-6.02050475054E+00	-1.02756449053E+00
2.36379597733E+06	-1.34146338154E+01	-1.78555533617E+02	4.72616667638E+00	1.71863945584E+02	-4.83197461252E+01	-6.59886380594E+01	-6.01132931573E+00	-8.99723838935E-01
2.38598733193E+06	-2.44651099555E+01	8.75219108133E+01	4.70861758817E+00	1.72414385941E+02	-5.18050168786E+01	7.20912517969E+01	-6.00798180841E+00	-1.03454685400E+00
2.40817868652E+06	-1.33248646607E+01	-1.74422651847E+02	4.75502100608E+00	1.71461249481E+02	-4.69867174573E+01	1.01922496345E+02	-5.98144244689E+00	-1.17399590155E+00
2.43037004112E+06	-1.40922760578E+01	1.79330184765E+02	4.68080754083E+00	1.71997626787E+02	-4.23247965577E+01	1.03523483233E+02	-5.99312057797E+00	-1.81038417120E+00
2.45256139571E+06	-1.29068087291E+01	-1.68619252246E+02	4.74589123315E+00	1.71453736297E+02	-4.27187313645E+01	-7.76960795871E+01	-6.00729588551E+00	-1.10344108016E+00
2.47475275031E+06	-1.52289662010E+01	1.78409241975E+02	4.66627817468E+00	1.71817221115E+02	-4.54186907686E+01	-6.79264693774E+01	-6.00056243580E+00	-9.66217695099E-01
2.49694410490E+06	-1.44972346004E+01	-1.43994310723E+02	4.75333162919E+00	1.71709174818E+02	-3.64845480414E+01	5.88253789005E+01	-5.98736178414E+00	-1.22500339468E+00
2.51913545950E+06	-1.19174951800E+01	-1.66392082051E+02	4.69764680238E+00	1.71140705817E+02	-5.32486566570E+01	-1.40938322813E+02	-6.00921906136E+00	-9.08768391045E-01
2.54132681409E+06	-2.04231848715E+01	1.19430008874E+02	4.73911543090E+00	1.71710730270E+02	-5.00828377078E+01	-1.94217639871E+01	-6.01527878575E+00	-1.07496397653E+00
2.56351816869E+06	-1.58952200443E+01	-1.78146538490E+02	4.71191402283E+00	1.71471755598E+02	-4.94226556215E+01	-2.68373645151E+01	-5.99816618891E+00	-1.05147269519E+00
2.58570952328E+06	-1.67143615959E+01	-1.72659129319E+02	4.72682732874E+00	1.71412792867E+02	-4.36008452964E+01	-1.68223747689E+02	-5.98103221077E+00	-1.12661758045E+00
2.60790087788E+06	-1.15471475117E+01	-1.70305028895E+02	4.65922220323E+00	1.70985000971E+02	-4.51174529717E+01	1.51852508025E+00	-6.01342053148E+00	-9.81042806366E-01
2.63009223247E+06	-1.34539747383E+01	-1.77521765361E+02	4.70922232305E+00	1.71072394262E+02	-4.47455267889E+01	8.71246962771E+01	-5.97224684948E+00	-7.69964491178E-01
2.65228358707E+06	-1.37984807475E+01	-1.52078207675E+02	4.73982527780E+00	1.70760255316E+02	-3.44099061853E+01	-1.20472794675E+01	-6.02702255848E+00	-1.28684372750E+00
2.67447494166E+06	-1.22071297224E+01	-1.67761595615E+02	4.70045611853E+00	1.70451983755E+02	-4.66617597767E+01	1.78131127128E+02	-5.98942226388E+00	-1.13268051385E+00
2.69666629626E+06	-1.24413098449E+01	1.71465153954E+02	4.70805173099E+00	1.70739518822E+02	-4.98985603602E+01	8.72984015455E+01	-5.98513570987E+00	-1.19332281034E+00
2.71885765085E+06	-1.25772743187E+01	-1.68982992077E+02	4.66252118708E+00	1.70413875362E+02	-4.27726226808E+01	5.29397128320E+01	-6.00264477565E+00	-1.24043701962E+00
2.74104900545E+06	-1.55107680508E+01	-1.60789252343E+02	4.76024352940E+00	1.70648252041E+02	-4.54355185091E+01	-1.70631678132E+02	-6.00734399269E+00	-1.09431373217E+00
2.76324036004E+06	-1.28959636986E+01	-1.51815044399E+02	4.71703781218E+00	1.69929168383E+02	-5.01177795412E+01	-1.66783746572E+02	-6.00800868194E+00	-1.22337411703E+00
2.78543171463E+06	-1.25464687017E+01	-1.56489448451E+02	4.75475661031E+00	1.69995013282E+02	-4.69834830081E+01	-3.58247020592E+01	-6.02369996652E+00	-1.15449437027E+00
2.80762306923E+06	-1.30877328816E+01	-1.76868274256E+02	4.71121954746E+00	1.70825680913E+02	-4.47596336714E+01	-6.92414205542E+01	-6.00642905631E+00	-1.17996183157E+00
2.82981442382E+06	-1.27018522612E+01	-1.67639017933E+02	4.67723811814E+00	1.70122512037E+02	-5.52115187304E+01	-1.73667483095E+02	-5.97852822310E+00	-1.10478408607E+00
2.85200577842E+06	-1.21297271543E+01	-1.76040457972E+02	4.70107022777E+00	1.70058093470E+02	-4.19645970219E+01	-1.43372080674E+02	-5.99633182179E+00	-1.21935877177E+00
2.87419713301E+06	-1.44332878207E+01	-1.64425424016E+02	4.75402690936E+00	1.69967102991E+02	-4.55999923980E+01	-1.26581177763E+02	-5.99883503790E+00	-1.18416277409E+00
