# Hz S DB R 50
! CMT, M5065, 19127446, 24.2.4/2
! Date: 11/8/2024 3:36:26 PM
! Data: Format (Calibration Info)
! Freq	S11:dB/Ang(F2)	S21:dB/Ang(F2)	S12:dB/Ang(F2)	S22:dB/Ang(F2)
3.00000000000E+05	-1.20106910816E+01	-1.59870046179E+02	4.54192079714E+00	-1.77434281609E+02	-4.04570320829E+01	-5.22690419247E+01	-5.99414594737E+00	-2.55926441445E-01
3.22191354595E+05	-1.42564043622E+01	-1.53711395091E+02	4.65794072006E+00	-1.77946056282E+02	-3.45394014711E+01	-1.72532366541E+02	-6.02349389790E+00	-1.64966553989E-01
3.44382709190E+05	-1.49180344793E+01	1.77804349056E+02	4.62092551366E+00	-1.78146884793E+02	-4.77031221493E+01	-2.67073134132E+01	-5.99662485112E+00	-3.43355280529E-01
3.66574063785E+05	-2.49200044663E+01	-1.69005467562E+02	4.71388442504E+00	-1.78307975936E+02	-4.81206845509E+01	-7.73784428153E+01	-5.97991546823E+00	-2.60589313078E-01
3.88765418380E+05	-1.16169248414E+01	-1.52331097757E+02	4.63957706237E+00	-1.78908413675E+02	-4.34583519006E+01	7.93504125456E+01	-5.97896972146E+00	-4.08890450500E-01
4.10956772975E+05	-1.99852336289E+01	-1.56019707357E+02	4.65646281038E+00	-1.78930164998E+02	-4.31870155620E+01	-8.81698515998E+01	-5.99728203416E+00	-1.92116854248E-01
4.33148127570E+05	-1.56912124272E+01	1.67488645142E+02	4.63175803934E+00	-1.78740556265E+02	-4.39108199887E+01	-1.38956850328E+01	-6.00311407408E+00	-1.89600614962E-01
4.55339482165E+05	-1.47035311457E+01	1.77781678293E+02	4.65935162265E+00	-1.79061568728E+02	-4.31302299550E+01	1.64944510791E+02	-5.98576346966E+00	-3.73861792007E-01
4.77530836760E+05	-1.83930713132E+01	1.79489547996E+02	4.69134761043E+00	-1.79703703654E+02	-4.85250246096E+01	-1.50189580850E+02	-5.97995124388E+00	-3.16690496515E-01
4.99722191355E+05	-1.54038474300E+01	-1.68140956826E+02	4.69149921669E+00	1.79936953757E+02	-4.51889303242E+01	1.31558362473E+02	-6.00766477541E+00	-3.97042650155E-01
5.21913545950E+05	-1.37379890356E+01	1.71303618660E+02	4.66215329380E+00	-1.79821772498E+02	-4.41513733515E+01	1.37223206030E+02	-5.98619564413E+00	-2.34827774968E-01
5.44104900545E+05	-2.20045028539E+01	-1.52899769008E+02	4.67991468003E+00	1.79584644384E+02	-4.18737879869E+01	-1.65258586423E+02	-5.98368886896E+00	-3.34283186734E-01
5.66296255139E+05	-1.50419431799E+01	1.59009823565E+02	4.70471207960E+00	-1.79830907432E+02	-4.90008195765E+01	-1.63834953005E+02	-5.98732474842E+00	-2.91237419383E-01
5.88487609734E+05	-1.44337609788E+01	-1.76408318130E+02	4.68455422119E+00	1.79668131203E+02	-4.15166190893E+01	-4.71796995449E+01	-5.99571378228E+00	-2.05162641003E-01
6.10678964329E+05	-1.23022243448E+01	1.63596937422E+02	4.69888736249E+00	1.79706691113E+02	-4.09116713525E+01	-1.23240093633E+01	-5.98759101060E+00	7.98266525895E-02
6.32870318924E+05	-1.34895681849E+01	-1.74567804137E+02	4.65029835556E+00	1.79061453728E+02	-3.82282716233E+01	1.07114752386E+02	-5.98690043188E+00	-1.82940600088E-01
6.55061673519E+05	-1.54481457569E+01	-1.66303396383E+02	4.70612720234E+00	1.78929866827E+02	-4.26025304273E+01	6.20606197080E+01	-6.00238505715E+00	-3.52849931576E-01
6.77253028114E+05	-1.15806003499E+01	-1.76468822787E+02	4.62400370738E+00	1.79067936412E+02	-4.68240717296E+01	-1.19211808647E+02	-5.99776624975E+00	-6.30926835922E-01
6.99444382709E+05	-1.47213061422E+01	1.74801196378E+02	4.66857426114E+00	1.78944343103E+02	-5.93097868287E+01	-1.08460552753E+02	-6.00340652999E+00	-2.42867193455E-01
7.21635737304E+05	-1.52881179583E+01	1.48975664391E+02	4.71293827857E+00	1.79087324101E+02	-4.28541696031E+01	-2.56520056969E+01	-5.99432052840E+00	-2.86084769847E-01
7.43827091899E+05	-1.56071069018E+01	1.68671562783E+02	4.64876832004E+00	1.78816396858E+02	-5.12324276991E+01	1.13450657943E+02	-5.99965708764E+00	-4.50016459854E-01
7.66018446494E+05	-1.23499458943E+01	-1.63936411164E+02	4.62496856001E+00	1.78502418455E+02	-4.46408776984E+01	-4.71911186840E+01	-6.00465586712E+00	-2.05841261676E-01
7.88209801089E+05	-1.19549151361E+01	-1.78704088147E+02	4.64188786736E+00	1.78357578085E+02	-3.94822225922E+01	-8.28256767481E+01	-5.98996246769E+00	-3.49171632621E-01
8.10401155684E+05	-1.87403494550E+01	-1.43379621169E+02	4.70302581776E+00	1.78414056031E+02	-5.07339577820E+01	-1.37251781580E+02	-5.99313616348E+00	-3.75385975962E-01
8.32592510279E+05	-1.33323458666E+01	-1.71309715805E+02	4.62777821748E+00	1.78300786984E+02	-4.30189535872E+01	4.66029460553E+00	-6.03279213145E+00	-5.14051406239E-01
8.54783864874E+05	-1.58064959296E+01	1.59224339944E+02	4.63530780160E+00	1.78127995386E+02	-5.52163843635E+01	-1.48023802949E+02	-5.99219286175E+00	-3.80310685719E-01
8.76975219469E+05	-1.44677607635E+01	-1.56568956726E+02	4.64570898177E+00	1.77713482557E+02	-4.71660595223E+01	-8.91222526210E+01	-5.99398605688E+00	-1.81470905280E-01
8.99166574064E+05	-1.36488197698E+01	1.69999316341E+02	4.68424447359E+00	1.77980015326E+02	-4.99405833755E+01	-2.11668974946E+00	-6.01776439231E+00	-4.68263608400E-01
9.21357928659E+05	-1.15032124473E+01	-1.75734908487E+02	4.66135552789E+00	1.77683202087E+02	-4.80601175470E+01	-4.33878346911E+01	-6.01292302735E+00	-4.51847222003E-01
9.43549283254E+05	-1.16387975751E+01	-1.73273969853E+02	4.63759441142E+00	1.77316912379E+02	-4.66097153965E+01	1.70461942838E+02	-5.98190849463E+00	-4.59244938587E-01
9.65740637849E+05	-1.49035908710E+01	-1.70216171184E+02	4.70653781314E+00	1.77476270604E+02	-4.54852523580E+01	7.43396402289E+01	-5.99505092782E+00	-3.46155403295E-01
9.87931992444E+05	-1.48407366114E+01	1.76957261913E+02	4.68372087954E+00	1.77707444255E+02	-4.99037743482E+01	-8.92843426165E+01	-6.01081415056E+00	-4.67248926112E-01
1.01012334704E+06	-1.20548545223E+01	-1.76229861550E+02	4.69373155039E+00	1.77054391866E+02	-4.97603199701E+01	5.57143394646E+01	-6.00721998299E+00	-4.19266031763E-01
1.03231470163E+06	-1.30171404909E+01	-1.72020140328E+02	4.67932491690E+00	1.77128305641E+02	-5.06777382512E+01	-7.34990985922E+01	-5.99893291954E+00	-5.29396788652E-01
1.05450605623E+06	-1.38371690826E+01	-1.78100439858E+02	4.69505418199E+00	1.77040180944E+02	-4.66158180540E+01	1.10820261559E+02	-5.97889565347E+00	-5.98354371846E-01
1.07669741082E+06	-1.56375636587E+01	1.58860938851E+02	4.68955850240E+00	1.76966000015E+02	-5.09459703382E+01	-4.33749519517E+00	-6.01680876889E+00	-4.23578315481E-01
1.09888876542E+06	-1.59669242660E+01	-1.73295527539E+02	4.67056983580E+00	1.77205360979E+02	-4.32365289715E+01	-6.17137517292E+01	-5.97142536045E+00	-4.18308002795E-01
1.12108012001E+06	-1.18442374409E+01	-1.63748012144E+02	4.66758437310E+00	1.76905552192E+02	-4.47734220413E+01	1.84909052735E+01	-6.02007251142E+00	-5.84960422945E-01
1.14327147461E+06	-1.31955428513E+01	1.79209653690E+02	4.65518787969E+00	1.76652949523E+02	-4.16203392659E+01	7.58139226358E+01	-5.99584624078E+00	-6.76348380338E-01
1.16546282920E+06	-1.20862498233E+01	-1.61086394802E+02	4.68557980093E+00	1.76592655140E+02	-4.53258201568E+01	-1.20437773866E+02	-5.99617118127E+00	-3.07474959233E-01
1.18765418380E+06	-1.38277972094E+01	1.67443382025E+02	4.63912297340E+00	1.76965541817E+02	-4.41995263597E+01	-1.08409834106E+02	-6.00569691579E+00	-4.00618998964E-01
1.20984553839E+06	-1.39606707039E+01	-1.62036308784E+02	4.65265188428E+00	1.76543047344E+02	-4.52425949680E+01	2.12064315220E+01	-6.00198433244E+00	-7.86263511390E-01
1.23203689299E+06	-1.42827608427E+01	1.71402121097E+02	4.66890155985E+00	1.76487420768E+02	-4.28403584960E+01	1.06279977726E+02	-5.98812240057E+00	-4.06052216726E-01
1.25422824758E+06	-1.38618998143E+01	-1.72441486793E+02	4.65523599618E+00	1.76294558366E+02	-4.11665806504E+01	7.42387620476E+01	-6.01991004436E+00	-7.96946973523E-01
1.27641960218E+06	-1.53211976014E+01	-1.71126920416E+02	4.68171816461E+00	1.76205065502E+02	-4.14011050963E+01	-8.61128170724E+01	-5.99468341650E+00	-4.84503543264E-01
1.29861095677E+06	-1.34561291424E+01	-1.50196583344E+02	4.67733037638E+00	1.76208090964E+02	-4.49830531256E+01	-9.66401847326E+01	-6.00948041584E+00	-6.06224140457E-01
1.32080231137E+06	-1.39043406849E+01	1.73408299344E+02	4.71598920857E+00	1.76728825894E+02	-5.90659024408E+01	-2.29940954532E+01	-6.01623935093E+00	-8.55660422306E-01
1.34299366596E+06	-1.71683062391E+01	-1.61270200710E+02	4.67533785937E+00	1.76074003156E+02	-5.62409072050E+01	7.15133266389E+01	-5.98993531853E+00	-7.83588714687E-01
1.36518502056E+06	-1.40142348236E+01	-1.62609461748E+02	4.65586742032E+00	1.75957724450E+02	-4.29349467617E+01	-4.45345781356E+01	-6.01163364363E+00	-5.68120749539E-01
1.38737637515E+06	-1.73088437689E+01	-1.67813092843E+02	4.72843908195E+00	1.75686673384E+02	-4.68467051075E+01	-1.00998216763E+02	-5.99826722904E+00	-5.85813040966E-01
1.40956772975E+06	-1.23695479909E+01	1.76160547104E+02	4.65364830260E+00	1.75561570343E+02	-3.80809938834E+01	1.03866347659E+02	-5.98872773765E+00	-8.05990237613E-01
1.43175908434E+06	-1.48516103736E+01	-1.75821521137E+02	4.68124349631E+00	1.75842768904E+02	-4.83771888693E+01	1.27322533439E+02	-6.00973822070E+00	-7.93631309565E-01
1.45395043894E+06	-1.25343180032E+01	-1.78234494951E+02	4.62680441482E+00	1.75605485161E+02	-5.02834208175E+01	9.36622485581E+01	-5.99170882317E+00	-6.22534040934E-01
1.47614179353E+06	-1.25648971076E+01	1.71585322912E+02	4.62160456628E+00	1.75604792341E+02	-4.11587284546E+01	-6.55566084726E+01	-6.00998481485E+00	-6.94701170053E-01
1.49833314813E+06	-1.48983277799E+01	1.58191308551E+02	4.68314274793E+00	1.75717881956E+02	-5.17772900646E+01	8.62579197336E+01	-5.98262118473E+00	-8.06406719672E-01
1.52052450272E+06	-1.33649216624E+01	-1.57139960823E+02	4.63162344971E+00	1.74909868257E+02	-4.47171524416E+01	-6.87148949416E+01	-5.98077729438E+00	-6.91458405911E-01
1.54271585732E+06	-1.22165095605E+01	1.75278707579E+02	4.65843249103E+00	1.75140151974E+02	-6.30300453947E+01	-1.59549110467E+02	-5.98709201571E+00	-5.61242433634E-01
1.56490721191E+06	-1.44478085116E+01	-1.75272703628E+02	4.70114571800E+00	1.75407965822E+02	-5.58217006186E+01	4.48566134975E+00	-6.02322506589E+00	-8.41141282107E-01
1.58709856651E+06	-1.48302813955E+01	-1.74078503697E+02	4.68045182136E+00	1.74629165849E+02	-4.25417532030E+01	7.66288127369E+01	-6.00779144468E+00	-7.41217385020E-01
1.60928992110E+06	-1.26683854044E+01	-1.57974437292E+02	4.66181668232E+00	1.74481855247E+02	-5.95930082561E+01	1.05797836390E+02	-6.01822264780E+00	-6.96545342692E-01
1.63148127570E+06	-1.32579549962E+01	1.76184019057E+02	4.64297350840E+00	1.74826193821E+02	-4.98966256898E+01	8.36190677740E+01	-5.99427801275E+00	-8.19086611549E-01
1.65367263029E+06	-1.21779947797E+01	-1.78218730004E+02	4.62383826087E+00	1.74603478920E+02	-4.24098064471E+01	-1.02648883691E+02	-5.98430622385E+00	-5.54929875844E-01
1.67586398489E+06	-1.64125695504E+01	-1.64737671158E+02	4.69337523983E+00	1.74647699581E+02	-4.18060659466E+01	-3.10917662886E+01	-6.01733984006E+00	-7.57474240170E-01
1.69805533948E+06	-1.30517214496E+01	1.78113816116E+02	4.63178634986E+00	1.74592569229E+02	-5.02863570948E+01	1.48291845889E+02	-5.99568972850E+00	-6.13127208598E-01
1.72024669408E+06	-1.13291524905E+01	-1.59525981900E+02	4.59196331077E+00	1.74146236067E+02	-3.94395702747E+01	9.48923169571E+01	-6.00660104045E+00	-8.14756236681E-01
1.74243804867E+06	-1.54875470696E+01	-1.72116201867E+02	4.72956682053E+00	1.74286549815E+02	-4.12109065541E+01	-2.48629954309E+01	-6.01218025245E+00	-8.63326170230E-01
1.76462940327E+06	-1.57276830188E+01	1.79406455929E+02	4.69983553164E+00	1.74084770430E+02	-7.08901710645E+01	-1.97895849606E+01	-6.01153410611E+00	-7.79945345662E-01
1.78682075786E+06	-1.41805872397E+01	-1.68671010088E+02	4.67369667138E+00	1.73831742928E+02	-5.09581417568E+01	1.00773293710E+02	-5.99017962935E+00	-9.62721350119E-01
1.80901211246E+06	-1.29905497364E+01	-1.77059438259E+02	4.64127797954E+00	1.74143131784E+02	-4.36942690406E+01	7.42480054180E+01	-5.99260310315E+00	-9.02997446896E-01
1.83120346705E+06	-1.24199469779E+01	-1.52803075554E+02	4.67097995411E+00	1.74014983909E+02	-4.65587368543E+01	-1.51782842885E+02	-5.98555139249E+00	-7.54457287578E-01
1.85339482165E+06	-1.57912023898E+01	-1.65535813296E+02	4.68115547389E+00	1.73568674485E+02	-4.53059428963E+01	-1.25719231183E+01	-5.99649185645E+00	-8.34952732321E-01
1.87558617624E+06	-1.54371077015E+01	1.68508529289E+02	4.64704565402E+00	1.73871602767E+02	-4.66252228427E+01	1.67531919786E+01	-5.99866534732E+00	-8.07288700179E-01
1.89777753084E+06	-1.47210633625E+01	-1.61329330785E+02	4.65420353765E+00	1.73678426167E+02	-4.31937851669E+01	-1.32577147965E+02	-5.99498630574E+00	-7.77210630842E-01
1.91996888543E+06	-1.48958973611E+01	1.66243958926E+02	4.68636286848E+00	1.73682900054E+02	-4.14774015738E+01	2.79415358154E+01	-5.98883648762E+00	-1.04240563675E+00
1.94216024003E+06	-1.52119478643E+01	-1.64814877504E+02	4.72790024593E+00	1.73273881147E+02	-4.41759135158E+01	-1.46935969246E+02	-5.99861297476E+00	-8.27867579437E-01
1.96435159462E+06	-1.59283199163E+01	-1.66835800325E+02	4.72924262337E+00	1.73347782016E+02	-4.39629466607E+01	1.12087890483E+02	-5.98798741500E+00	-9.02634904970E-01
1.98654294922E+06	-1.47576023610E+01	1.76982405759E+02	4.70687739375E+00	1.73155057454E+02	-5.35433504466E+01	-2.15524165444E+01	-6.00210187759E+00	-8.36151064717E-01
2.00873430381E+06	-1.52197784638E+01	-1.60340112678E+02	4.72257707063E+00	1.73251333397E+02	-3.95714011832E+01	-2.68803680890E+01	-5.99870586436E+00	-8.02928313221E-01
2.03092565841E+06	-1.42201938638E+01	-1.55882475488E+02	4.72593715226E+00	1.72960634036E+02	-4.20127439782E+01	6.23446394332E+01	-5.98901501874E+00	-1.10916324540E+00
2.05311701300E+06	-1.21100229130E+01	-1.72073349555E+02	4.65330416819E+00	1.72915861428E+02	-4.51837223826E+01	-1.35500054935E+01	-5.98336975894E+00	-8.54475015168E-01
2.07530836760E+06	-1.32541424265E+01	-1.72389816499E+02	4.70916416408E+00	1.72984889086E+02	-4.30475191241E+01	-6.94289739304E+01	-6.02070161430E+00	-8.95542012390E-01
2.09749972219E+06	-1.23888422701E+01	1.72993650520E+02	4.60050829623E+00	1.73189907129E+02	-5.09588009605E+01	1.38974399707E+02	-5.98996494529E+00	-8.90140866081E-01
2.11969107679E+06	-1.15331310072E+01	-1.58836283773E+02	4.67615388784E+00	1.73000984162E+02	-4.80529092121E+01	-4.77035332606E+01	-6.01396263970E+00	-9.15348285486E-01
2.14188243138E+06	-1.17931546503E+01	-1.63319381841E+02	4.68979403014E+00	1.72665828219E+02	-4.38912378240E+01	6.62108014204E+01	-6.00418828659E+00	-9.95245834612E-01
2.16407378598E+06	-1.40942417780E+01	1.75496473131E+02	4.67033145223E+00	1.72872835422E+02	-4.04345731569E+01	9.07461840065E+01	-5.97014058779E+00	-1.08572383198E+00
2.18626514057E+06	-1.46034902000E+01	-1.72007172389E+02	4.66513297689E+00	1.72362348538E+02	-5.65153819729E+01	-1.53721652034E+02	-5.99171979386E+00	-9.10504714868E-01
2.20845649517E+06	-1.23889660661E+01	-1.61110234644E+02	4.70524709047E+00	1.72204351115E+02	-4.95880272525E+01	9.27407981800E+01	-6.00298517805E+00	-9.87146139178E-01
2.23064784976E+06	-1.03441539453E+01	-1.69327893987E+02	4.70330054332E+00	1.71959061235E+02	-5.42775274610E+01	-2.58556943386E+00	-6.02285706611E+00	-9.36761805850E-01
2.25283920436E+06	-1.83188522725E+01	-1.65226069367E+02	4.74504402168E+00	1.72654045344E+02	-5.09573501315E+01	7.61751842354E+01	-5.99519367131E+00	-1.01764296957E+00
2.27503055895E+06	-1.00139213960E+01	-1.69456626956E+02	4.65974417627E+00	1.72025049899E+02	-4.21752498660E+01	-1.61118757232E+02	-5.99010196507E+00	-1.03324230179E+00
2.29722191355E+06	-9.30203683719E+00	-1.58930882232E+02	4.71129413259E+00	1.71797664095E+02	-4.24893161375E+01	1.29617901769E+02	-5.98497024556E+00	-1.08005095821E+00
2.31941326814E+06	-1.16274964697E+01	-1.65551277900E+02	4.62708031133E+00	1.72055120361E+02	-4.49472383454E+01	-1.22175069140E+01	-6.01545782831E+00	-1.03401807369E+00
2.34160462274E+06	-1.80086655999E+01	-1.79318597287E+02	4.66432865985E+00	1.72333964381E+02	-3.72970109528E+01	6.52820549458E+01	-5.98012756873E+00	-1.20647537634E+00
2.36379597733E+06	-1.35436874494E+01	1.75737553272E+02	4.68743341755E+00	1.72141361243E+02	-3.13692045135E+01	-5.66926875060E+01	-6.03230776447E+00	-1.05970361032E+00
2.38598733193E+06	-1.29361950572E+01	1.76427149828E+02	4.68765148021E+00	1.72153763193E+02	-4.85976501171E+01	-1.08691791503E+02	-5.99301636295E+00	-1.03164790176E+00
2.40817868652E+06	-1.35125107502E+01	-1.61686228890E+02	4.70730913449E+00	1.71437290908E+02	-5.19189905078E+01	1.39723853863E+02	-5.97804018086E+00	-1.23436650384E+00
2.43037004112E+06	-9.89593752557E+00	1.67574542160E+02	4.64424375834E+00	1.71765387423E+02	-4.06436225829E+01	7.13841879868E+01	-5.98211903812E+00	-1.58996634313E+00
2.45256139571E+06	-1.11505926502E+01	-1.68351325965E+02	4.67704242854E+00	1.71599479806E+02	-4.98297755788E+01	6.67946415748E+01	-5.98939096524E+00	-1.21398159919E+00
2.47475275031E+06	-1.22493154884E+01	-1.66370643149E+02	4.71789502440E+00	1.71422046740E+02	-4.54718278135E+01	1.36487495374E+02	-5.99154850772E+00	-1.24552635138E+00
2.49694410490E+06	-1.36608069936E+01	-1.79157532215E+02	4.71340906559E+00	1.71455729243E+02	-4.42005217697E+01	-1.41129758457E+02	-6.00926126439E+00	-1.12431425453E+00
2.51913545950E+06	-1.71186417538E+01	-1.68695400405E+02	4.68481438069E+00	1.71615092170E+02	-3.84220881082E+01	-7.70966949332E+01	-6.02890755599E+00	-1.07391978018E+00
2.54132681409E+06	-1.63773392395E+01	-1.70265506885E+02	4.72579305110E+00	1.71441272980E+02	-5.35376815972E+01	1.78741193491E+02	-5.98657739572E+00	-1.11100062249E+00
2.56351816869E+06	-1.40654682732E+01	-1.67826035278E+02	4.70918862000E+00	1.71173872668E+02	-4.54190778160E+01	3.24412577742E+01	-6.02647518832E+00	-1.08693068224E+00
2.58570952328E+06	-1.33373926411E+01	-1.70787743742E+02	4.68254588628E+00	1.71429053210E+02	-5.46016578724E+01	4.78435084200E+01	-6.00851784416E+00	-1.14059972606E+00
2.60790087788E+06	-1.30072771131E+01	-1.45811119132E+02	4.77506208958E+00	1.70832307204E+02	-4.57622029259E+01	1.70194581363E+01	-6.00582921628E+00	-9.53223056107E-01
2.63009223247E+06	-1.31871401707E+01	1.77964899486E+02	4.68882627228E+00	1.71032314154E+02	-4.37699805695E+01	-5.88377174846E+01	-6.01416059373E+00	-7.46736447776E-01
2.65228358707E+06	-1.45879931161E+01	-1.78431538619E+02	4.69982883460E+00	1.70893833019E+02	-3.75698891450E+01	-1.48422186859E+02	-5.97520660874E+00	-9.46298826601E-01
2.67447494166E+06	-1.44224744295E+01	-1.70002041207E+02	4.72887583766E+00	1.70710892789E+02	-4.98365161756E+01	-8.76402535271E+01	-6.00929972852E+00	-1.01586972454E+00
2.69666629626E+06	-1.35091827690E+01	-1.59234394765E+02	4.72998749905E+00	1.70500283476E+02	-4.45275889505E+01	-1.67730120157E+02	-5.98811033732E+00	-1.00570470400E+00
2.71885765085E+06	-1.20915338152E+01	1.79520582910E+02	4.70187410978E+00	1.70615207089E+02	-4.22768504427E+01	2.59210490156E+01	-6.01552495738E+00	-1.30038762261E+00
2.74104900545E+06	-1.28473866828E+01	-1.62995094105E+02	4.69920664063E+00	1.69965781861E+02	-4.57922406761E+01	9.58447616291E+01	-5.99486308079E+00	-1.31878062459E+00
2.76324036004E+06	-1.59675201921E+01	-1.64751473326E+02	4.76268016846E+00	1.70426824611E+02	-4.81845402710E+01	-8.52915559006E+01	-5.99160667822E+00	-1.26448745688E+00
2.78543171463E+06	-1.57682444045E+01	-1.76354597920E+02	4.70378157623E+00	1.70594368794E+02	-4.42896528248E+01	9.07775954409E+01	-5.99340611739E+00	-1.31295081616E+00
2.80762306923E+06	-1.14108916794E+01	-1.77607230623E+02	4.69443999492E+00	1.69974850805E+02	-5.59734272121E+01	1.77483997253E+02	-6.00913997377E+00	-1.31485674165E+00
2.82981442382E+06	-1.48767753108E+01	-1.54475415564E+02	4.71915175036E+00	1.70220605027E+02	-4.39900684093E+01	-4.38912379778E+01	-6.01865786675E+00	-1.37904423881E+00
2.85200577842E+06	-1.42372630594E+01	1.75502239914E+02	4.65310457597E+00	1.70478362290E+02	-4.28359567210E+01	1.72851887684E+02	-5.98176579650E+00	-1.23688282753E+00
2.87419713301E+06	-1.22699276027E+01	-1.55690003984E+02	4.75392333795E+00	1.70015894152E+02	-3.78283272869E+01	1.79023960440E+02	-5.96470946244E+00	-1.36115247010E+00
