# Hz S DB R 50
! CMT, M5065, 19127446, 24.2.4/2
! Date: 11/1/2024 4:55:46 PM
! Data: Format (Calibration Info)
! Freq	S11:dB/Ang(F2)	S21:dB/Ang(F2)	S12:dB/Ang(F2)	S22:dB/Ang(F2)
3.00000000000E+05	-1.58695898006E+01	5.82152189073E+01	4.44504602094E+00	-1.77485723993E+02	-5.41029629188E+01	-6.51482188059E+01	-5.92207107239E+00	-2.78359977588E-01
3.00216845423E+05	-2.10802011057E+01	9.41164872033E+01	4.43731449498E+00	-1.77817347502E+02	-3.40999654443E+01	-2.65456849159E+01	-5.84987422656E+00	-2.49698586916E-01
3.00433847586E+05	-2.44752746816E+01	-1.68107018292E+02	4.42987571701E+00	-1.77615207278E+02	-3.95965990201E+01	-1.11199287033E+02	-5.89589601293E+00	-2.00594766525E-01
3.00651006602E+05	-2.07098890878E+01	9.01099784248E+01	4.43179108910E+00	-1.78390438039E+02	-4.21122512196E+01	-6.92982162855E+00	-5.87370098500E+00	-9.20815684410E-02
3.00868322584E+05	-1.50359320921E+01	4.50719772814E+01	4.28906008804E+00	-1.78018234617E+02	-3.78636626025E+01	-8.39124266533E+01	-5.87036261123E+00	-3.04973880376E-01
3.01085795647E+05	-1.74511789231E+01	8.92597322108E+01	4.31875636499E+00	-1.77801060485E+02	-3.59125993693E+01	-7.96837491438E+01	-5.89028968553E+00	-3.96469133783E-01
3.01303425902E+05	-2.94507063638E+01	1.76221986507E+01	4.40799630610E+00	-1.77603567156E+02	-4.33402269690E+01	-3.69709065568E+01	-5.88260917351E+00	-2.49088868059E-01
3.01521213465E+05	-1.69869101066E+01	-6.33763378690E+00	4.27352702865E+00	-1.77934548088E+02	-3.72898925552E+01	1.02087466426E+01	-5.86962431103E+00	-3.58517746820E-01
3.01739158449E+05	-2.01898544573E+01	-1.28467012095E+02	4.39201171433E+00	-1.77839874943E+02	-3.47076617495E+01	-9.59424027324E+01	-5.90132852344E+00	-5.52822197494E-01
3.01957260967E+05	-2.21104067374E+01	-6.54662809221E+01	4.39336195027E+00	-1.76833400316E+02	-3.86256922668E+01	6.68264428750E+01	-5.91156255974E+00	-1.27580179567E-01
3.02175521134E+05	-3.54209258279E+01	-6.52700055078E+01	4.46907483604E+00	-1.77371747143E+02	-4.06499259731E+01	-3.35799153032E+00	-5.83111579032E+00	-2.95426310767E-01
3.02393939063E+05	-2.40452780940E+01	-1.36904173491E+02	4.40310526453E+00	-1.77583278056E+02	-3.81088779813E+01	-1.71163409192E+02	-5.92252412823E+00	-6.14361029481E-01
3.02612514869E+05	-1.10853295591E+01	6.96085236024E+01	4.34845979180E+00	-1.78546565931E+02	-3.60412672547E+01	3.47123274979E+01	-5.88421316729E+00	-3.01952166234E-01
3.02831248665E+05	-1.94920508495E+01	-1.00707827364E+01	4.34714707782E+00	-1.77699829523E+02	-3.31481643934E+01	-7.73438985240E+01	-5.88516477632E+00	-4.96482787305E-01
3.03050140565E+05	-1.76904067379E+01	8.02442192821E+01	4.35211415675E+00	-1.78061462966E+02	-4.56190963250E+01	-1.25481110791E+01	-5.89274580722E+00	-1.41071884692E-01
3.03269190685E+05	-2.40788892928E+01	-1.68787389531E+02	4.45483019972E+00	-1.77601828843E+02	-3.65155621350E+01	-1.17909887206E+02	-5.88710231510E+00	-4.16189959705E-01
3.03488399138E+05	-1.91178816105E+01	1.59646163309E+02	4.36794322476E+00	-1.77662551684E+02	-4.92353950153E+01	-2.83321951740E+01	-5.87062200275E+00	-4.82544651630E-01
3.03707766039E+05	-3.21901284782E+01	-1.29470833898E+02	4.40278281176E+00	-1.77444409745E+02	-4.13041928631E+01	1.19770570832E+02	-5.92974327624E+00	-2.89997209849E-01
3.03927291503E+05	-3.23875197618E+01	-2.78559395712E+00	4.36270013136E+00	-1.77578705324E+02	-3.69715292804E+01	-5.07456927790E+01	-5.85321319809E+00	-3.89737208028E-01
3.04146975643E+05	-1.53065522579E+01	7.18782942998E+00	4.33793613322E+00	-1.77398324772E+02	-4.25892719245E+01	-3.80554222086E+01	-5.89599355444E+00	-3.63974866919E-01
3.04366818575E+05	-1.39438198029E+01	3.62090394150E+01	4.31084206438E+00	-1.79058046066E+02	-3.85350810832E+01	-1.35091005466E+02	-5.90197360508E+00	-1.28241931292E-01
3.04586820414E+05	-1.85009729630E+01	-1.01849286175E+02	4.46627339534E+00	-1.77124086625E+02	-3.37823223349E+01	9.35620454997E+01	-5.88786613197E+00	-8.14799934392E-02
3.04806981274E+05	-1.65687552699E+01	1.97964351659E+01	4.34091574418E+00	-1.77534940991E+02	-3.93978980368E+01	1.16757266158E+02	-5.91547620317E+00	-6.22270888214E-02
3.05027301270E+05	-1.89546679433E+01	7.59734806715E+01	4.37959721936E+00	-1.78156398015E+02	-3.65942585192E+01	-8.15592274835E+00	-5.83498608808E+00	-1.90256598830E-01
3.05247780517E+05	-2.48215182650E+01	5.04753428417E+01	4.31452069037E+00	-1.77559058393E+02	-4.30930099635E+01	-1.63499330807E+02	-5.88827857155E+00	-1.38570598400E-01
3.05468419131E+05	-4.26204572170E+01	9.45059138957E+01	4.39287233798E+00	-1.77877639146E+02	-3.80958893692E+01	-1.34964763939E+02	-5.88064162737E+00	-2.93012605241E-01
3.05689217226E+05	-1.56082313538E+01	-1.35149644255E+02	4.49684662385E+00	-1.78018604295E+02	-3.72292149033E+01	4.85724229631E+00	-5.89181310180E+00	-3.58417907362E-01
3.05910174918E+05	-1.77250852841E+01	-4.85703540178E+01	4.41652278520E+00	-1.77252842602E+02	-4.37692172002E+01	-1.56757497458E+02	-5.87873800307E+00	-2.59077187569E-01
3.06131292322E+05	-2.04067967793E+01	1.40848088191E+02	4.39720945184E+00	-1.77607744067E+02	-3.55191695027E+01	-1.43020549786E+02	-5.93242523254E+00	-4.15507379456E-01
3.06352569554E+05	-2.66262205678E+01	-5.13932830318E+01	4.39455177816E+00	-1.78153174707E+02	-4.19687396582E+01	5.92870225954E+01	-5.88369761864E+00	-1.81574824898E-01
3.06574006730E+05	-2.28114260268E+01	1.54769235219E+02	4.40865716743E+00	-1.77934895844E+02	-4.72705273247E+01	7.14198855077E+01	-5.92468171536E+00	-2.74701733276E-01
3.06795603964E+05	-2.49687577286E+01	1.21939399897E+02	4.36366009641E+00	-1.77817650934E+02	-3.67853446723E+01	-1.29313430110E+02	-5.91042137784E+00	-4.49900679994E-01
3.07017361372E+05	-1.50601902732E+01	-6.93097609433E+01	4.42730443142E+00	-1.76675622053E+02	-4.21692457944E+01	-1.10105695943E+02	-5.88419997836E+00	-1.74712430579E-01
3.07239279071E+05	-1.48618657078E+01	1.30084822815E+02	4.39238226022E+00	-1.77841083215E+02	-3.43713967139E+01	3.47832469460E+01	-5.85323808298E+00	1.97700727938E-02
3.07461357176E+05	-3.12006427657E+01	7.76971428459E+01	4.36329471696E+00	-1.77861087237E+02	-3.62933661144E+01	1.22656885587E+02	-5.94013923923E+00	-9.82358658793E-02
3.07683595803E+05	-1.98814103155E+01	8.65345503626E+01	4.30886367817E+00	-1.78310252430E+02	-2.83417818277E+01	4.93733909047E+01	-5.81519241670E+00	1.97900490361E-01
3.07905995068E+05	-2.76485122398E+01	1.69682788690E+02	4.34965054987E+00	-1.77900569594E+02	-5.55081025845E+01	-5.42852630568E+01	-5.87841809741E+00	-1.96887704511E-01
3.08128555087E+05	-2.53963765242E+01	2.58953956337E+00	4.35200793734E+00	-1.78012121544E+02	-4.03941817713E+01	-6.66339687945E+01	-5.89950125149E+00	-3.35495908837E-01
3.08351275976E+05	-2.76007889442E+01	-1.30824873526E+02	4.47802693792E+00	-1.78321195356E+02	-3.88983804142E+01	8.79299220461E+01	-5.88839865025E+00	1.06524937293E-01
3.08574157853E+05	-2.53320384218E+01	-1.07683174777E+02	4.38212346098E+00	-1.77725945646E+02	-3.61262030267E+01	1.35803309307E+02	-5.87333951366E+00	-3.05501842489E-01
3.08797200832E+05	-1.46983963022E+01	-5.17429466580E+01	4.38406192144E+00	-1.76673357594E+02	-4.41347160028E+01	1.73179854175E+01	-5.87580223199E+00	-3.12482253555E-01
3.09020405031E+05	-1.64301923959E+01	-6.94621388087E+01	4.36705436948E+00	-1.76975387615E+02	-4.43581218907E+01	1.02428575710E+02	-5.91124063857E+00	6.57627178588E-02
3.09243770566E+05	-2.89885147935E+01	-1.78727074102E+02	4.39509547732E+00	-1.77143920111E+02	-4.09801329046E+01	8.24845467364E+01	-5.87422034138E+00	-6.48290000943E-02
3.09467297553E+05	-2.90386715910E+01	3.40696156934E+01	4.46546478185E+00	-1.78248968581E+02	-4.49634302983E+01	-1.74275761900E+02	-5.87033238571E+00	-2.70871067996E-01
3.09690986110E+05	-2.58010774807E+01	-3.58200294393E+01	4.37968876883E+00	-1.77593741835E+02	-4.17213733090E+01	9.72580114937E+01	-5.89314635875E+00	1.50043593004E-01
3.09914836353E+05	-1.99512937056E+01	4.95643599963E+00	4.37607033828E+00	-1.77355209886E+02	-3.70786921414E+01	7.89944839559E+01	-5.89065051039E+00	-3.59625414150E-01
3.10138848399E+05	-2.41907729481E+01	-1.12749014106E+02	4.38991225820E+00	-1.77293971483E+02	-4.28518221923E+01	-8.72861754843E+01	-5.90749548129E+00	-4.27465227609E-01
3.10363022365E+05	-1.54440549453E+01	1.31339814607E+02	4.54120845776E+00	-1.78687982092E+02	-4.11121651300E+01	-1.01665893055E+02	-5.90794949834E+00	-3.88982374261E-01
3.10587358368E+05	-2.31006187623E+01	-1.49841306668E+02	4.37434508355E+00	-1.76851596329E+02	-3.58461234813E+01	-5.97242268006E+01	-5.89809725172E+00	-3.12715630185E-01
3.10811856525E+05	-2.17057148216E+01	-3.26073251702E+01	4.26939578565E+00	-1.77336354127E+02	-4.22558402629E+01	5.27222099876E+01	-5.87835752912E+00	-2.14486141851E-01
3.11036516954E+05	-1.88125301198E+01	-1.05415229793E+01	4.26199590044E+00	-1.78154855562E+02	-4.02225808705E+01	-1.44600759560E+02	-5.88438298962E+00	-3.03629488816E-01
3.11261339771E+05	-1.55113363693E+01	1.25865045139E+02	4.48842034266E+00	-1.78012545642E+02	-4.00741166429E+01	1.77033358160E+02	-5.92842646693E+00	-2.36721925635E-01
3.11486325094E+05	-1.43569851716E+01	7.61123447473E+01	4.27951161799E+00	-1.78527247939E+02	-3.53980689148E+01	1.35287452926E+02	-5.91924735840E+00	-3.45833986094E-01
3.11711473040E+05	-2.73612893514E+01	1.12261192680E+02	4.42139291576E+00	-1.77477725294E+02	-4.80253735729E+01	-1.11483404593E-01	-5.88592278112E+00	-2.89884898431E-01
3.11936783728E+05	-1.85718684369E+01	3.21881141103E+01	4.36658503334E+00	-1.78222343779E+02	-3.44236831262E+01	-2.64064179498E+01	-5.84834535247E+00	-4.52965706659E-01
3.12162257274E+05	-1.51725176524E+01	1.03336823009E+02	4.43650680739E+00	-1.78226668870E+02	-3.37529541421E+01	8.63378846575E+01	-5.87658795815E+00	1.68262905876E-01
3.12387893797E+05	-1.59561158140E+01	1.14436753157E+02	4.44283362299E+00	-1.77960316560E+02	-3.22196976924E+01	-1.42422492084E+02	-5.97625971491E+00	-4.91833679148E-01
3.12613693413E+05	-1.79124511213E+01	-1.71059800235E+02	4.46430116161E+00	-1.77776709403E+02	-4.02806557706E+01	-8.00497442619E+01	-5.89767968818E+00	-4.70745008083E-01
3.12839656242E+05	-2.36532352738E+01	1.36595000384E+02	4.40764065860E+00	-1.77458062103E+02	-4.18862458810E+01	-4.45334126139E+01	-5.86446700200E+00	-1.51813449772E-01
3.13065782401E+05	-2.22165471962E+01	1.05424392655E+02	4.40235784032E+00	-1.77813435037E+02	-5.11059080627E+01	1.34040789366E+02	-5.89056718621E+00	-5.72045698411E-01
3.13292072007E+05	-1.43342345350E+01	1.71607674414E+01	4.36142792535E+00	-1.78629179079E+02	-4.03468927858E+01	-3.31173351642E+01	-5.88440452121E+00	-3.17273364791E-01
3.13518525180E+05	-2.05937379782E+01	-1.00672107400E+01	4.33050836086E+00	-1.77745958948E+02	-3.96382849060E+01	-1.25312638160E+02	-5.89616908979E+00	-3.16023822385E-01
3.13745142038E+05	-1.60574188391E+01	-1.53684351822E+02	4.49079556621E+00	-1.77463051270E+02	-5.61918601763E+01	1.37242623739E+02	-5.91282811826E+00	-1.13183485065E-01
3.13971922698E+05	-3.83607390137E+01	-9.46241613383E+01	4.35827600710E+00	-1.78024230544E+02	-3.16056297841E+01	8.50514588435E+01	-5.86621840416E+00	2.46828424183E-01
3.14198867279E+05	-2.06899564292E+01	9.62258418184E+01	4.41811999852E+00	-1.78290137389E+02	-3.68444461248E+01	-1.55104808601E+02	-5.92297543680E+00	-3.87452641563E-01
3.14425975900E+05	-2.40325255092E+01	9.63447913539E+01	4.34299465770E+00	-1.78008613285E+02	-4.89758889277E+01	-1.29908755892E+02	-5.91816719779E+00	-4.38503821980E-01
3.14653248680E+05	-1.74122131689E+01	-5.78927901544E+01	4.47169822609E+00	-1.77384606264E+02	-4.21681213095E+01	-7.11861343799E+01	-5.90225811521E+00	-4.17419530108E-01
3.14880685736E+05	-1.52883382625E+01	8.97960472438E+01	4.40289216068E+00	-1.78422885615E+02	-3.54905552781E+01	-5.37807442022E+01	-5.88796939894E+00	-2.49105838761E-01
3.15108287188E+05	-1.39698442649E+01	-3.77147404422E+01	4.31631473174E+00	-1.76539264831E+02	-4.69884003196E+01	-2.09495764815E+01	-5.85335370660E+00	-1.05046989774E-01
3.15336053154E+05	-2.86978540649E+01	-6.76660016412E+01	4.40983548250E+00	-1.77427492596E+02	-4.14030180896E+01	9.72391386471E+01	-5.83580853024E+00	-2.43548517798E-01
3.15563983753E+05	-3.00978361998E+01	-4.13628453826E+01	4.38644109925E+00	-1.77657729036E+02	-3.83534657670E+01	-1.05898258183E+02	-5.91390800493E+00	-2.88981369443E-01
3.15792079105E+05	-2.78377561869E+01	-1.69868570128E+02	4.42577737390E+00	-1.78356135087E+02	-2.93214460125E+01	-9.89664918463E+01	-5.84479948024E+00	-8.66099468809E-01
3.16020339328E+05	-2.28864296035E+01	5.94853040177E+01	4.33048638634E+00	-1.77860609303E+02	-4.63939725197E+01	1.17583432314E+02	-5.87019586337E+00	-2.98582060383E-01
3.16248764542E+05	-2.17782732587E+01	-1.13318010531E+02	4.41647446249E+00	-1.78043767188E+02	-3.93048265304E+01	-3.85466131429E+01	-5.87812246293E+00	-3.47461226290E-01
3.16477354866E+05	-1.55616175830E+01	-2.33105238657E+01	4.34777099361E+00	-1.77483903785E+02	-3.92277034771E+01	-8.65513483278E+01	-5.86675105428E+00	-5.65554705595E-01
3.16706110419E+05	-2.28264541278E+01	4.06855448523E+01	4.37251638620E+00	-1.78297872824E+02	-3.95148487586E+01	-1.54797216990E+02	-5.93170322867E+00	-1.38044474469E-01
3.16935031321E+05	-1.46056870714E+01	7.41820802036E+01	4.24836863728E+00	-1.78363690538E+02	-4.04416712185E+01	-2.86899895927E+01	-5.88013776664E+00	-3.68655166610E-01
3.17164117691E+05	-2.63098094184E+01	-2.99718335511E+01	4.32915337448E+00	-1.77915759638E+02	-4.72544879374E+01	-1.39680503069E+02	-5.95163718496E+00	-5.66422056048E-01
3.17393369648E+05	-3.80327779477E+01	-1.56391739035E+02	4.40709583652E+00	-1.77832209407E+02	-3.43783129784E+01	9.27346286577E+01	-5.88529771363E+00	-1.57395053030E-02
3.17622787313E+05	-1.89922593179E+01	8.58317538153E-01	4.30073785893E+00	-1.77702491656E+02	-3.86940924933E+01	-1.76915216424E+02	-5.90086588845E+00	-3.13740859639E-01
3.17852370806E+05	-1.80425650706E+01	-7.19599014623E+01	4.36333977289E+00	-1.76930300334E+02	-3.99210920161E+01	-9.12287140072E+00	-5.87361507847E+00	-2.82713686420E-01
3.18082120245E+05	-3.25700990088E+01	-4.29888234427E+01	4.36086479276E+00	-1.77737821933E+02	-5.11375267914E+01	1.41284165004E+02	-5.91140976884E+00	-2.32023674939E-01
3.18312035752E+05	-1.83632228255E+01	1.18984947980E+02	4.45458333238E+00	-1.78681129523E+02	-4.09417090196E+01	-3.54934068732E+01	-5.90138707236E+00	-2.34246591749E-01
3.18542117445E+05	-1.74045933025E+01	7.85188161822E+01	4.31254537450E+00	-1.78713504803E+02	-4.21357335327E+01	-1.92230113560E+01	-5.84446684035E+00	-3.98164467204E-01
3.18772365446E+05	-2.26974311887E+01	1.61757713047E+02	4.40499682452E+00	-1.78524852447E+02	-4.08116340086E+01	-1.77246896707E+01	-5.86902750677E+00	-2.32437999729E-01
3.19002779874E+05	-3.33740192488E+01	1.28760794320E+02	4.46614673443E+00	-1.78044885051E+02	-3.57484551698E+01	-3.13593933282E+01	-5.86697077109E+00	-3.02471198162E-01
3.19233360850E+05	-2.71036967498E+01	-1.03499064895E+02	4.36351119660E+00	-1.78268881114E+02	-4.57042622099E+01	-5.71038273197E+01	-5.91388852070E+00	-2.48475086494E-01
3.19464108494E+05	-1.34464461391E+01	-1.63727096366E+02	4.42912302564E+00	-1.77700874316E+02	-4.05643371562E+01	1.66067481815E+02	-5.89428591661E+00	-3.62496296816E-01
3.19695022927E+05	-1.59958644656E+01	1.06540803000E+02	4.39761879691E+00	-1.78772461203E+02	-4.66654751453E+01	-1.91444064232E+01	-5.87295312190E+00	-3.07538670994E-01
3.19926104268E+05	-8.93160273771E+00	-1.51033476962E+02	4.62986845902E+00	-1.76897377539E+02	-3.88388279784E+01	8.98550706701E+01	-5.90155296021E+00	-1.41780406123E-02
3.20157352640E+05	-1.29485281055E+01	7.08150365580E+01	4.31609620380E+00	-1.78850161946E+02	-3.60142389849E+01	-7.38685912927E+01	-5.85763390831E+00	-6.14703126716E-01
3.20388768162E+05	-2.89361954009E+01	-9.45346460662E+00	4.37007108392E+00	-1.78510886876E+02	-3.09998282284E+01	-4.55230357740E+01	-5.80922322815E+00	-5.78931692839E-01
3.20620350955E+05	-1.89838320443E+01	1.07825645935E+02	4.37322599532E+00	-1.77896864663E+02	-4.14946258888E+01	9.78966734504E+01	-5.87211581760E+00	-6.64978501910E-02
3.20852101140E+05	-1.63253942689E+01	-1.67862762962E+02	4.57606974296E+00	-1.77997230244E+02	-3.43570293115E+01	-1.08440655120E+02	-5.96676365285E+00	-6.75895739930E-01
3.21084018839E+05	-1.82672718937E+01	-6.27601293254E+01	4.29484152420E+00	-1.77953862596E+02	-4.09119222382E+01	-1.59231313257E+02	-5.89233705497E+00	-3.83611010443E-01
3.21316104172E+05	-2.96356510279E+01	1.36128986884E+02	4.47550751177E+00	-1.78355034358E+02	-3.61474390110E+01	1.23342209457E+02	-5.93804159959E+00	3.31458055395E-02
3.21548357261E+05	-1.40402845830E+01	6.79286848256E+01	4.33901982347E+00	-1.78317522918E+02	-4.13034059330E+01	-1.33247773041E+02	-5.89770658467E+00	-3.65802212063E-01
3.21780778226E+05	-1.38195541086E+01	-1.42334990479E+02	4.60788637443E+00	-1.77484138137E+02	-3.26823590090E+01	-6.82985943627E+01	-5.86967153826E+00	-7.31385155003E-01
3.22013367189E+05	-2.94195271934E+01	-1.74747582691E+02	4.35030232584E+00	-1.78602512061E+02	-4.64278508793E+01	3.40121934315E+01	-5.87989792081E+00	-3.73737368232E-01
3.22246124272E+05	-3.68363634546E+01	-8.30940375622E+01	4.39326555187E+00	-1.78433257896E+02	-3.51080872851E+01	-1.51185855986E+02	-5.95907841278E+00	-4.44200823202E-01
3.22479049596E+05	-1.87463934076E+01	5.95798269229E+01	4.39795316186E+00	-1.78266952630E+02	-4.28217754457E+01	-4.55154045398E+01	-5.86187693867E+00	-2.33184220608E-01
3.22712143282E+05	-2.64589371790E+01	1.55442442187E+02	4.49558790260E+00	-1.78490374087E+02	-4.02033879523E+01	-2.09993337967E+00	-5.88741833747E+00	-2.72214851824E-01
3.22945405453E+05	-1.79594639702E+01	-8.50493909717E+00	4.33961002756E+00	-1.76895849449E+02	-4.16726194280E+01	-6.80234577476E+01	-5.89408979017E+00	-3.37209359692E-01
3.23178836230E+05	-2.25012272455E+01	1.38863733695E+02	4.42641949908E+00	-1.77714907015E+02	-4.27118841000E+01	-4.27426493140E+01	-5.88955555878E+00	-4.13037141413E-02
3.23412435735E+05	-9.80979483826E+00	-8.20960423655E+01	4.38291565600E+00	-1.76541921085E+02	-5.81827066881E+01	-1.41215180240E+02	-5.89597855536E+00	-2.83448456474E-01
3.23646204090E+05	-2.22240137748E+01	1.13398431513E+02	4.41930448110E+00	-1.77923125373E+02	-4.40217161005E+01	-1.15564457664E+01	-5.87645775910E+00	-5.56598338334E-01
3.23880141417E+05	-1.89754043814E+01	-3.88434573325E+01	4.35237603931E+00	-1.77966664531E+02	-4.21088254292E+01	-1.00907318556E+02	-5.90965398081E+00	-4.03025661504E-01
3.24114247838E+05	-1.91741643649E+01	-8.28858702690E+01	4.39732143893E+00	-1.77444740287E+02	-4.14705861958E+01	1.35141391722E+02	-5.91045556496E+00	1.97883423621E-01
3.24348523475E+05	-3.17272922846E+01	3.34371307377E+01	4.45788944274E+00	-1.78135246016E+02	-3.59123758180E+01	9.33511574292E+01	-5.93055302251E+00	-1.00494188269E-01
3.24582968451E+05	-3.44239072171E+01	1.18878448918E+02	4.41969299110E+00	-1.78048979994E+02	-4.36405773106E+01	1.15845667988E+02	-5.92982950160E+00	-1.64259205645E-01
3.24817582888E+05	-2.50107965242E+01	-3.62299644644E+00	4.37359156688E+00	-1.78764032264E+02	-4.84955042021E+01	5.99767734918E+01	-5.88981589037E+00	-3.88160949052E-01
3.25052366909E+05	-1.15231051844E+01	-1.58927138888E+01	4.15814949079E+00	-1.77229997567E+02	-4.60214024907E+01	4.55777932788E+01	-5.94474687017E+00	-9.13654553793E-02
3.25287320635E+05	-2.70567425671E+01	-1.71959700435E+02	4.36523560163E+00	-1.77637112146E+02	-4.15261101619E+01	-7.87707129966E+01	-5.89838506326E+00	-2.96506956134E-01
3.25522444191E+05	-2.05071345816E+01	1.68439548513E+02	4.44912225608E+00	-1.77510974094E+02	-4.29933120309E+01	1.64215218267E+02	-5.88227640928E+00	-4.34212247907E-01
3.25757737698E+05	-1.62942884790E+01	-9.12981829334E+01	4.30227941647E+00	-1.77800315262E+02	-3.38559813044E+01	-7.93649449265E+00	-5.85077425352E+00	-2.26479621779E-01
3.25993201280E+05	-2.60626609261E+01	-5.38069553692E+01	4.39910316144E+00	-1.77653017179E+02	-4.54698352887E+01	-3.73653332917E+01	-5.86126793710E+00	-5.20654268404E-01
3.26228835058E+05	-2.09071929309E+01	1.38008413564E+02	4.46516567022E+00	-1.78061105219E+02	-3.99483348598E+01	-1.23893566156E+01	-5.84938357438E+00	-5.02948402597E-01
