# Hz S DB R 50
! CMT, M5065, 19127446, 24.2.4/2
! Date: 11/1/2024 4:54:35 PM
! Data: Format (Calibration Info)
! Freq	S11:dB/Ang(F2)	S21:dB/Ang(F2)	S12:dB/Ang(F2)	S22:dB/Ang(F2)
3.00000000000E+05	-2.69897595118E+01	3.02535333584E+01	4.39706017736E+00	-1.77476299612E+02	-4.63256340297E+01	1.17043768763E+02	-5.90506186212E+00	-2.14274949205E-01
3.00216845423E+05	-2.02882234134E+01	7.98560120183E+01	4.30924915682E+00	-1.77869227470E+02	-3.59585202087E+01	-1.77169623416E+00	-5.82497018324E+00	-4.05852416433E-01
3.00433847586E+05	-1.36052974591E+01	-1.46404733131E+02	4.45393260866E+00	-1.77420473161E+02	-4.57348232436E+01	1.09447135609E+02	-5.89259238989E+00	-3.59450837882E-01
3.00651006602E+05	-2.49987511973E+01	-1.76932047644E+02	4.45852793220E+00	-1.77367847015E+02	-3.85966017205E+01	1.70210964925E+02	-5.89026564816E+00	-2.90577856469E-01
3.00868322584E+05	-2.23899301351E+01	8.39585920807E+00	4.34911278495E+00	-1.78093723909E+02	-3.67118059911E+01	1.92886309236E+01	-5.85356381040E+00	-1.17818114250E-01
3.01085795647E+05	-3.16406019237E+01	3.61579853745E+01	4.42113390598E+00	-1.77865667451E+02	-3.62847192665E+01	1.61532274191E+01	-5.86234233108E+00	-4.30071274342E-02
3.01303425902E+05	-1.69347492299E+01	1.52012720815E+02	4.52413674323E+00	-1.77958060790E+02	-3.60690335888E+01	-1.60093619528E+02	-5.87192657070E+00	-4.05007405102E-01
3.01521213465E+05	-2.54746137893E+01	5.84145881272E+01	4.33426116165E+00	-1.77864862224E+02	-4.54642459569E+01	3.69183435728E+01	-5.88373580369E+00	4.45911410172E-02
3.01739158449E+05	-1.72106329435E+01	-7.54891544617E+01	4.32911883232E+00	-1.77323239313E+02	-4.71947366045E+01	9.66079609959E+01	-5.86533093627E+00	-4.42291722757E-02
3.01957260967E+05	-2.63684088056E+01	1.07848844253E+02	4.42717437494E+00	-1.77356361787E+02	-3.66076281751E+01	3.50900857498E+01	-5.81800529112E+00	-3.32157722613E-02
3.02175521134E+05	-2.30806896300E+01	1.18480538339E+02	4.45294828559E+00	-1.78219095078E+02	-3.78903523044E+01	-5.77424132240E+01	-5.89100492523E+00	-1.69786813123E-01
3.02393939063E+05	-2.51347243368E+01	-1.61645283700E+02	4.47831310475E+00	-1.77932486803E+02	-2.91936666876E+01	8.95015534246E+01	-5.87087883436E+00	7.98835085104E-02
3.02612514869E+05	-2.83217350470E+01	5.90407438870E+01	4.41156727005E+00	-1.77892672062E+02	-3.79421281125E+01	1.17383148522E+02	-5.86777816031E+00	-3.62417004380E-02
3.02831248665E+05	-1.82427063906E+01	-2.52593063588E+01	4.30542696339E+00	-1.77312519866E+02	-3.98285031270E+01	-9.54829648249E+01	-5.89398947200E+00	-5.30966328373E-01
3.03050140565E+05	-2.61963160817E+01	-5.29093600594E+01	4.37414180068E+00	-1.77948404931E+02	-4.82604641052E+01	-1.50046405112E+01	-5.86426368906E+00	-5.85738314507E-01
3.03269190685E+05	-4.40688348475E+01	-5.88167459911E+01	4.33529625945E+00	-1.77470612988E+02	-4.60974581332E+01	2.19770374650E+01	-5.88275252234E+00	-3.87131134631E-01
3.03488399138E+05	-1.79373533124E+01	9.09789580628E+01	4.39449128677E+00	-1.78150144608E+02	-3.50731994849E+01	-2.95854943435E+01	-5.85609412781E+00	-3.58232541214E-01
3.03707766039E+05	-2.17433157849E+01	9.77367980517E+01	4.38139333641E+00	-1.77932071853E+02	-5.17359769772E+01	6.23964291937E+01	-5.85765419687E+00	-3.74464835320E-01
3.03927291503E+05	-2.38038157517E+01	-9.13350582961E+01	4.40076639222E+00	-1.77880330957E+02	-3.16883614689E+01	5.61562657056E+01	-5.82590045519E+00	7.43163253045E-02
3.04146975643E+05	-2.25638857650E+01	5.77827586108E+01	4.43553766849E+00	-1.77554155769E+02	-4.06800434122E+01	-1.02354895718E+02	-5.89607953865E+00	-6.24487936800E-01
3.04366818575E+05	-1.54049130085E+01	-1.08602234671E+02	4.37002324783E+00	-1.77329736843E+02	-4.22589369605E+01	4.35730670024E+01	-5.88384023547E+00	2.90863652817E-01
3.04586820414E+05	-1.49839703112E+01	-2.70694538146E+01	4.30764921388E+00	-1.77416792655E+02	-4.02450685861E+01	-1.10146925142E+02	-5.91736923632E+00	-8.94456200412E-02
3.04806981274E+05	-3.36519451441E+01	-1.69408595952E+02	4.37953805311E+00	-1.77610371452E+02	-4.45340954800E+01	-1.26694113449E+02	-5.86892233303E+00	-4.49792229570E-01
3.05027301270E+05	-2.00005399939E+01	-6.93658536929E+01	4.38231734393E+00	-1.77443942232E+02	-4.13043592219E+01	-1.39935769367E+02	-5.90316849311E+00	-4.22840399961E-01
3.05247780517E+05	-1.93154217720E+01	1.11361446715E+02	4.49443901224E+00	-1.77603083177E+02	-3.76053988046E+01	1.40681560581E+01	-5.86485465128E+00	-2.96083826334E-01
3.05468419131E+05	-3.01310587416E+01	7.78128988037E+01	4.33311092989E+00	-1.77957702716E+02	-3.57047678547E+01	3.77532544094E+01	-5.84799756008E+00	-2.28484999372E-02
3.05689217226E+05	-2.23149616124E+01	8.22726384436E+01	4.42676023394E+00	-1.77600411421E+02	-3.68896606164E+01	9.37524866373E+01	-5.85006664184E+00	-1.93642837613E-02
3.05910174918E+05	-1.70261280084E+01	-4.51793826221E+01	4.28782266913E+00	-1.76998877712E+02	-3.23970814220E+01	-6.07834944018E+01	-5.88086397735E+00	-3.32178632977E-01
3.06131292322E+05	-1.51404712465E+01	-1.82963822671E+01	4.26087960212E+00	-1.78002619189E+02	-3.93535599864E+01	1.02217435580E+02	-5.88662769406E+00	-1.43807117741E-01
3.06352569554E+05	-2.17340649803E+01	-1.51918231766E+01	4.33645901689E+00	-1.77711370715E+02	-4.35437274572E+01	3.51921274412E+01	-5.90501342486E+00	-2.33735031511E-01
3.06574006730E+05	-2.48032247149E+01	-3.39120393734E+01	4.34576467672E+00	-1.77698587738E+02	-4.06829653407E+01	-1.62938062596E+02	-5.90708146196E+00	-4.74356730122E-02
3.06795603964E+05	-2.84398398528E+01	7.10967632160E+00	4.43827781678E+00	-1.77493418340E+02	-3.62936960266E+01	-1.54754009357E+02	-5.90839415223E+00	-4.31669964164E-01
3.07017361372E+05	-2.72125057780E+01	-1.14021467599E+02	4.38923488240E+00	-1.77053325305E+02	-2.83164913170E+01	-6.96006895622E+00	-5.77483153107E+00	-2.48552237893E-01
3.07239279071E+05	-1.34979142138E+01	3.28263350826E+01	4.29662282107E+00	-1.78126253171E+02	-3.92004419332E+01	-1.49427602306E+02	-5.89707167832E+00	-2.98380168569E-01
3.07461357176E+05	-2.06047414563E+01	2.66581684929E+01	4.36095985969E+00	-1.77892018441E+02	-3.91274683291E+01	3.89628815569E+01	-5.87823920151E+00	1.16429980881E-01
3.07683595803E+05	-2.03417502152E+01	-1.06422305621E+02	4.41540983026E+00	-1.77460082036E+02	-4.76898087562E+01	2.82239420115E+01	-5.86480670909E+00	-1.87867935554E-01
3.07905995068E+05	-1.90092721791E+01	5.42023992203E+00	4.41285807740E+00	-1.77738520163E+02	-3.86033709532E+01	-9.59905821546E+00	-5.90290916194E+00	-2.66674311255E-01
3.08128555087E+05	-3.21246017725E+01	6.64636170461E+01	4.38679291303E+00	-1.77621809002E+02	-4.15923683354E+01	-5.01607003302E+01	-5.85991401123E+00	-2.43161373863E-01
3.08351275976E+05	-1.99051571226E+01	2.11081936233E+01	4.36197083020E+00	-1.77968771412E+02	-3.93745007987E+01	-2.13341111990E+01	-5.85498828143E+00	-5.43710373011E-01
3.08574157853E+05	-1.94286578260E+01	8.79085229706E+01	4.40992094324E+00	-1.78352980856E+02	-3.04119777863E+01	-1.67593840439E+02	-6.00564979882E+00	-1.56092967283E-01
3.08797200832E+05	-1.96538768877E+01	-5.42021123706E+01	4.35196168694E+00	-1.77941738413E+02	-3.43365362654E+01	4.77737218729E+01	-5.90372044061E+00	-1.37179538537E-01
3.09020405031E+05	-1.82131699659E+01	-1.40958588700E+02	4.53092725462E+00	-1.77623358341E+02	-4.71380728881E+01	-3.15200762358E+01	-5.87861103382E+00	-3.22937458592E-01
3.09243770566E+05	-1.24512649475E+01	1.07331553749E+02	4.50349357036E+00	-1.78817800632E+02	-4.55433598257E+01	1.34518021306E+02	-5.90636662160E+00	-7.52996032376E-02
3.09467297553E+05	-2.75749970507E+01	4.85986806578E+01	4.37768871944E+00	-1.77857408045E+02	-3.73754755733E+01	-8.45558547451E+01	-5.90210136438E+00	-6.20610068241E-01
3.09690986110E+05	-1.49582743390E+01	2.05594556989E+01	4.36845807813E+00	-1.78250828888E+02	-4.03053009436E+01	8.92580665323E+01	-5.90011860834E+00	-2.19893370774E-01
3.09914836353E+05	-1.66073157522E+01	1.38752182373E+02	4.49572828473E+00	-1.77832419860E+02	-4.64028026056E+01	-9.33045659476E+01	-5.86897403025E+00	-1.39613508313E-03
3.10138848399E+05	-2.13694083133E+01	-7.54341598344E+01	4.40804131901E+00	-1.77054841796E+02	-3.50982268547E+01	-4.50872498806E+01	-5.85479836319E+00	-3.74939548318E-01
3.10363022365E+05	-2.52664418678E+01	-1.34087193651E+02	4.34356375759E+00	-1.77967403905E+02	-4.41377327446E+01	-1.78157515474E+02	-5.93419686629E+00	-2.12714903228E-01
3.10587358368E+05	-1.14488071172E+01	9.36861450964E+01	4.40164783619E+00	-1.79442511217E+02	-4.89169857538E+01	2.48652848680E+00	-5.83081178694E+00	-1.89114546866E-01
3.10811856525E+05	-1.40844606663E+01	8.21565651779E+01	4.38762926214E+00	-1.78776925665E+02	-3.73379160880E+01	-1.93547408449E+01	-5.85984385899E+00	-1.13569880995E-01
3.11036516954E+05	-1.73357854187E+01	8.54865665869E+01	4.29300156443E+00	-1.78246565771E+02	-3.53146527015E+01	5.67836056464E+01	-5.91091633753E+00	-1.45356070720E-01
3.11261339771E+05	-3.08358494405E+01	-3.48049414895E+01	4.43251086407E+00	-1.77676784443E+02	-4.25787589954E+01	8.69986440783E+01	-5.87861228870E+00	-1.19230512977E-01
3.11486325094E+05	-2.53952905223E+01	-3.52871668588E+01	4.40269057076E+00	-1.77644102039E+02	-3.97291942377E+01	-1.07974384331E+02	-5.90842618236E+00	-5.48532584733E-01
3.11711473040E+05	-1.94035776647E+01	-1.35701750169E+02	4.45323541973E+00	-1.77506490150E+02	-3.51730610956E+01	2.15769897640E+01	-5.83282162596E+00	-2.69957672577E-01
3.11936783728E+05	-1.57691396658E+01	-9.12421068050E+01	4.37614393779E+00	-1.77265518026E+02	-4.96183258846E+01	1.73064260903E+02	-5.86710243128E+00	-3.24868763980E-01
3.12162257274E+05	-2.52969500541E+01	-1.57437833330E+02	4.37987635429E+00	-1.76907058250E+02	-3.82388821338E+01	-5.91247455800E+01	-5.86517846926E+00	-3.24082811449E-01
3.12387893797E+05	-1.97717544128E+01	1.78632379092E+02	4.38858806636E+00	-1.77751572771E+02	-4.80448862180E+01	6.70890598759E+00	-5.93028647548E+00	-2.90244708274E-01
3.12613693413E+05	-2.68073095909E+01	-9.37563294034E+01	4.42645074435E+00	-1.77853180200E+02	-4.02257439986E+01	-6.66033230091E+01	-5.86839447654E+00	-5.34970539854E-01
3.12839656242E+05	-2.23297158847E+01	5.04297381136E+00	4.35240507430E+00	-1.77830263263E+02	-3.92087717895E+01	-1.10103610202E+02	-5.88218677709E+00	-2.90235134392E-01
3.13065782401E+05	-1.47941898197E+01	2.87024831716E+01	4.29566030811E+00	-1.78159736183E+02	-4.52915855034E+01	-1.32820515709E+02	-5.87018232243E+00	-4.53124800326E-01
3.13292072007E+05	-1.98745879591E+01	1.23589523910E+02	4.44208383129E+00	-1.78185444819E+02	-3.18244169577E+01	-7.23598302370E+01	-5.90996041293E+00	-7.44185563193E-01
3.13518525180E+05	-2.51109588231E+01	-1.20363476855E+01	4.35806768460E+00	-1.77868898954E+02	-3.17359304554E+01	-4.41644822288E+01	-5.78563806025E+00	-3.70982405546E-01
3.13745142038E+05	-3.24280094475E+01	1.95398516521E+01	4.42747462157E+00	-1.78538342372E+02	-3.46691635843E+01	-4.67423600506E+01	-5.85691404219E+00	-4.61806649629E-01
3.13971922698E+05	-1.01654909983E+01	-4.53654854092E+00	4.22036811864E+00	-1.77507340834E+02	-4.25114877257E+01	1.51622908908E+02	-5.88296453470E+00	-2.06890169911E-01
3.14198867279E+05	-2.45890806109E+01	3.08818291370E+01	4.34094638940E+00	-1.78046035401E+02	-4.13383148416E+01	5.23542049205E+01	-5.84658266318E+00	-1.00417419377E-01
3.14425975900E+05	-1.30593179449E+01	1.13468806948E+02	4.43144989414E+00	-1.78255809404E+02	-4.74078987543E+01	-1.20765142305E+02	-5.89716271559E+00	-2.40370737607E-01
3.14653248680E+05	-2.17337294542E+01	3.83515154329E+01	4.35710239327E+00	-1.77771568312E+02	-3.60617659797E+01	-1.30351368181E+02	-5.92994635628E+00	-4.81835597403E-01
3.14880685736E+05	-4.08023462374E+01	-1.83065953486E+01	4.44637719489E+00	-1.78039255159E+02	-3.68009507879E+01	-5.31605533088E+01	-5.90148430531E+00	-2.80709059616E-01
3.15108287188E+05	-2.24248036458E+01	1.18334886420E+00	4.38919597912E+00	-1.77227115088E+02	-4.27728831881E+01	1.77940150395E+02	-5.87412292180E+00	-2.17644175399E-02
3.15336053154E+05	-2.59887564912E+01	-4.25420606028E+01	4.38875691108E+00	-1.77718479912E+02	-3.97205077729E+01	-9.07556255376E+01	-5.88136137665E+00	-4.02116377064E-01
3.15563983753E+05	-2.01295880017E+01	5.65404808784E+01	4.39982201446E+00	-1.78220846229E+02	-3.49529284730E+01	-5.77559161864E+01	-5.89846936517E+00	-4.03970923673E-01
3.15792079105E+05	-2.41901961812E+01	-1.13583764696E+01	4.38886492162E+00	-1.77492066192E+02	-3.87906348375E+01	-1.64128931112E+02	-5.89943093322E+00	-2.90959393323E-01
3.16020339328E+05	-2.53824212986E+01	6.60708979601E+00	4.29219021557E+00	-1.77860852478E+02	-3.67609762105E+01	3.20382498646E+01	-5.88124404181E+00	-2.03695244314E-02
3.16248764542E+05	-1.87431901002E+01	-4.23801529057E+01	4.39980282878E+00	-1.77440429330E+02	-4.02494611625E+01	9.28910607269E+01	-5.86651551272E+00	-2.10308042500E-01
3.16477354866E+05	-2.06102158831E+01	-1.01812232487E+02	4.43420454346E+00	-1.77754443163E+02	-3.88482454752E+01	6.02179206024E+01	-5.85306227221E+00	-1.92995138804E-01
3.16706110419E+05	-1.83934178524E+01	5.45078556819E+01	4.37817449159E+00	-1.77963735359E+02	-5.07738611128E+01	2.12115664344E+00	-5.91715140613E+00	-2.49125485548E-01
3.16935031321E+05	-2.22732391802E+01	2.86888434346E+01	4.33087562856E+00	-1.78195013088E+02	-4.03120434053E+01	1.79405234772E+02	-5.96835158909E+00	-2.88860425995E-01
3.17164117691E+05	-1.10311172886E+01	8.62419851986E+01	4.41994993327E+00	-1.79297952659E+02	-4.72761532577E+01	-1.52466880409E+02	-5.88259684320E+00	-5.17585726191E-01
3.17393369648E+05	-3.66961803624E+01	-1.72346881898E+02	4.36573593587E+00	-1.77606193775E+02	-4.74151562636E+01	-3.57783697030E+01	-5.87417340673E+00	-4.24811338407E-01
3.17622787313E+05	-1.67773188621E+01	5.73711556244E+00	4.30445155511E+00	-1.78028928094E+02	-4.59821109899E+01	-1.66835735328E+01	-5.91261618869E+00	-2.54161929347E-01
3.17852370806E+05	-2.51401035124E+01	1.46877425914E+02	4.45087933251E+00	-1.77977982008E+02	-4.69703312750E+01	-8.47683750977E+01	-5.88658187078E+00	-3.40894491787E-01
3.18082120245E+05	-2.89134131658E+01	4.09420638992E+01	4.42206103250E+00	-1.78424474246E+02	-4.06305357846E+01	1.11989897288E+02	-5.92113436925E+00	2.50101599348E-02
3.18312035752E+05	-2.03692442654E+01	1.73048843683E+02	4.47189070855E+00	-1.77990433673E+02	-3.51619151190E+01	1.16084344210E+02	-5.90454259392E+00	-8.47552637049E-02
3.18542117445E+05	-1.88288729257E+01	-1.28714110523E+02	4.35889366081E+00	-1.77496540823E+02	-5.14115598217E+01	1.13528394595E+02	-5.89258421784E+00	-1.00913423109E-01
3.18772365446E+05	-8.06650177045E+00	-1.13166891631E+02	4.53736227243E+00	-1.75931139247E+02	-3.62241671092E+01	-7.29726254971E+01	-5.89869496985E+00	-6.37398805890E-01
3.19002779874E+05	-1.87244785736E+01	-1.60169911721E+02	4.40323325512E+00	-1.77576536105E+02	-3.50503275261E+01	1.05496213055E+02	-5.84125422413E+00	2.77929302451E-01
3.19233360850E+05	-2.13707402084E+01	7.62230648017E+01	4.39446322952E+00	-1.77848351303E+02	-3.51143265530E+01	5.99468789214E+00	-5.84532421340E+00	2.16614125475E-02
3.19464108494E+05	-3.70231615312E+01	-1.76398803638E+02	4.46241218081E+00	-1.78068916210E+02	-3.76230041974E+01	5.36195630607E+01	-5.88841588722E+00	-7.50765123214E-02
3.19695022927E+05	-1.69739461465E+01	9.69358977228E+01	4.42325750448E+00	-1.79032754266E+02	-3.09114881511E+01	-8.01524527738E+01	-5.88724780455E+00	-8.66553382550E-01
3.19926104268E+05	-1.87548192553E+01	4.07112167113E+01	4.35557110698E+00	-1.78062897763E+02	-4.46865243556E+01	-1.35544699110E+02	-5.92117790999E+00	-3.49615650943E-01
3.20157352640E+05	-1.65490514201E+01	1.55120654743E+02	4.49436796810E+00	-1.78269378456E+02	-3.57067795488E+01	-7.92337297254E+00	-5.85532032748E+00	-1.93913463898E-01
3.20388768162E+05	-1.19092946981E+01	8.16077052080E+01	4.34461349832E+00	-1.78869639707E+02	-3.68606637260E+01	-9.90280930397E+01	-5.91154700214E+00	-1.88459632895E-01
3.20620350955E+05	-1.52903287582E+01	5.31632198406E+01	4.39907708694E+00	-1.78712694286E+02	-4.17323638601E+01	1.21182156977E+02	-5.90139318801E+00	-3.50975927792E-01
3.20852101140E+05	-3.41465328755E+01	7.47282838688E+01	4.33636350836E+00	-1.78629276239E+02	-4.06167097698E+01	-5.07212376799E+01	-5.83540230527E+00	-2.24128835188E-01
3.21084018839E+05	-1.82682250207E+01	1.30538545103E+02	4.49303728770E+00	-1.78154969234E+02	-3.96114902087E+01	4.80716851070E+01	-5.86575028465E+00	-4.24265305897E-01
3.21316104172E+05	-2.67058529506E+01	-1.10666465251E+02	4.35853217739E+00	-1.78005002845E+02	-3.54707236286E+01	1.04540635735E+02	-5.90124485575E+00	7.04911781374E-02
3.21548357261E+05	-3.30443019885E+01	1.56599783941E+02	4.42291918987E+00	-1.78464060277E+02	-3.84788108473E+01	1.60949214133E+02	-5.92387137136E+00	-4.45990712938E-02
3.21780778226E+05	-1.82796779532E+01	-1.40343747668E+02	4.49969650154E+00	-1.77435804833E+02	-3.83460051331E+01	1.05725419861E+02	-5.89218522870E+00	-2.96337933098E-01
3.22013367189E+05	-1.19663925871E+01	1.71199553712E+02	4.54374969657E+00	-1.78831256738E+02	-3.71794932794E+01	2.61285212850E+01	-5.90608895392E+00	-4.21737876510E-01
3.22246124272E+05	-2.28368958113E+01	3.24555890134E+01	4.39597152769E+00	-1.78366813083E+02	-3.81038821892E+01	1.23789179039E+00	-5.87586968508E+00	-3.05615392063E-01
3.22479049596E+05	-2.78012576060E+01	-8.97498152580E+01	4.36343469350E+00	-1.78081699112E+02	-3.89826338090E+01	1.20971166276E+02	-5.89909613425E+00	8.75915359077E-02
3.22712143282E+05	-2.66988903039E+01	-1.51597160484E+02	4.35438606454E+00	-1.77824380064E+02	-4.21812270336E+01	1.18392820540E+02	-5.87916278251E+00	-2.82812315323E-01
3.22945405453E+05	-2.20473597801E+01	-1.28822997525E+02	4.40421654394E+00	-1.77569916098E+02	-3.92800985295E+01	-1.33312029906E+02	-5.92005350161E+00	-8.03589616028E-01
3.23178836230E+05	-1.70759717616E+01	-3.73985640488E+01	4.33177252152E+00	-1.77463577067E+02	-3.82362623894E+01	-4.16380287359E+01	-5.87606120634E+00	-1.78056759641E-01
3.23412435735E+05	-1.36203219399E+01	2.58605100910E+01	4.23752688137E+00	-1.78065676741E+02	-3.96052295424E+01	-9.93150299703E+01	-5.91337253786E+00	-3.93909758293E-01
3.23646204090E+05	-1.19934409653E+01	-1.31843290052E+01	4.20641842781E+00	-1.77404001081E+02	-3.65336547188E+01	5.08137635410E+01	-5.87413438892E+00	-3.08781851379E-01
3.23880141417E+05	-2.26988550253E+01	-9.00029170656E+01	4.38210839335E+00	-1.77132629928E+02	-4.07919323443E+01	-1.41228559280E+02	-5.91027013753E+00	-5.18787623472E-01
3.24114247838E+05	-1.19895911351E+01	1.97715884849E+01	4.21295850179E+00	-1.78599231953E+02	-4.25968098470E+01	-2.02370707504E+00	-5.87226854988E+00	5.89205578881E-02
3.24348523475E+05	-3.63402131323E+01	-5.89640253140E+00	4.45632425280E+00	-1.78042167082E+02	-4.08150173358E+01	1.35498818356E+02	-5.90470094652E+00	-2.90525385301E-01
3.24582968451E+05	-2.53203398425E+01	-9.86966350625E+01	4.40289921446E+00	-1.77782141982E+02	-3.42809188441E+01	1.97837932733E+00	-5.83185750397E+00	-6.94016216918E-02
3.24817582888E+05	-2.47658331054E+01	1.54320132920E+02	4.37000830898E+00	-1.78092907944E+02	-4.14102321854E+01	3.14229698034E+01	-5.88848650585E+00	-2.76991923717E-02
3.25052366909E+05	-2.40111042440E+01	-1.59151841643E+02	4.44822714696E+00	-1.77802738019E+02	-3.74763408682E+01	-5.99984984994E+00	-5.88993472088E+00	-2.01451957796E-01
3.25287320635E+05	-1.53634673080E+01	-9.08310637721E+01	4.35399028692E+00	-1.77769430002E+02	-4.14566878724E+01	1.37844594078E+01	-5.83300412535E+00	-2.73549880154E-01
3.25522444191E+05	-1.85071352037E+01	6.28974436522E+01	4.39795263480E+00	-1.77910928070E+02	-4.76190442467E+01	2.08747096641E+00	-5.87291980791E+00	-1.13247498739E-01
3.25757737698E+05	-2.24123020917E+01	3.64781906712E+01	4.34176962515E+00	-1.78283375235E+02	-4.97317103676E+01	5.43669228861E+01	-5.88668768469E+00	-1.62602360216E-01
3.25993201280E+05	-2.54294613400E+01	-8.54554889324E+01	4.41311881257E+00	-1.77688175914E+02	-4.17846189570E+01	1.24865975955E+02	-5.90045595090E+00	1.34682855565E-01
3.26228835058E+05	-2.65022816843E+01	2.32951203055E+01	4.40564779386E+00	-1.78065453132E+02	-3.08412715684E+01	1.65402262397E+02	-5.95065896971E+00	1.30264277575E-02
