# Hz S DB R 50
! CMT, M5065, 19127446, 24.2.4/2
! Date: 11/1/2024 4:55:11 PM
! Data: Format (Calibration Info)
! Freq	S11:dB/Ang(F2)	S21:dB/Ang(F2)	S12:dB/Ang(F2)	S22:dB/Ang(F2)
3.00000000000E+05	-1.67813265497E+01	3.93780711334E+01	4.31008904423E+00	-1.78059396498E+02	-3.79285510486E+01	-2.52344227824E+01	-5.90857078825E+00	-4.94202987322E-01
3.00216845423E+05	-1.13012339810E+01	-6.35033688598E+01	4.27533704190E+00	-1.76404735968E+02	-3.45001271361E+01	-2.16839559795E+01	-5.84338012845E+00	-2.81212669383E-01
3.00433847586E+05	-1.47939835208E+01	1.35407942289E+01	4.29443393179E+00	-1.77284593942E+02	-3.15613214425E+01	-1.56756363017E+02	-5.95937636186E+00	-4.66047493275E-01
3.00651006602E+05	-2.18496092934E+01	-9.42864221894E+01	4.43361756587E+00	-1.77486742536E+02	-4.39797430557E+01	7.21711591608E+01	-5.86965398149E+00	-8.34989372412E-02
3.00868322584E+05	-2.31846675032E+01	-6.05856911907E+01	4.42827665032E+00	-1.77805871762E+02	-3.97131264305E+01	-7.87002918575E+01	-5.87398492210E+00	-5.00210283095E-01
3.01085795647E+05	-1.52158287472E+01	5.85177090188E+01	4.45704905059E+00	-1.78722946918E+02	-3.61545245209E+01	1.74446697805E+02	-5.91841409338E+00	-1.79824836749E-01
3.01303425902E+05	-1.92963384219E+01	9.69233203771E+01	4.43888520722E+00	-1.78101771167E+02	-4.13182557723E+01	-1.78782916834E+02	-5.90065321647E+00	-3.45906841726E-01
3.01521213465E+05	-3.69964864910E+01	8.09641755325E+00	4.37673662653E+00	-1.78353957650E+02	-3.78644892164E+01	1.34054966538E+02	-5.88604012977E+00	-1.27961975255E-01
3.01739158449E+05	-1.86215333592E+01	7.30531376562E+00	4.31693955615E+00	-1.77980055742E+02	-3.80193846808E+01	-5.85380406703E+01	-5.85392804987E+00	-6.26818012577E-01
3.01957260967E+05	-2.84565962910E+01	1.49233786922E+02	4.39943492388E+00	-1.77804278378E+02	-4.90637866903E+01	1.82066507395E+01	-5.88388034779E+00	-2.70375023822E-01
3.02175521134E+05	-2.09191965800E+01	1.24950940343E+02	4.45255563548E+00	-1.77867611860E+02	-4.89821481901E+01	5.83663565535E+01	-5.89773560261E+00	-3.93844895013E-02
3.02393939063E+05	-1.77769139822E+01	1.42866300952E+02	4.42235095268E+00	-1.77454627172E+02	-3.81011177452E+01	1.60772612480E+02	-5.91452775786E+00	-3.89149452853E-01
3.02612514869E+05	-1.94975240453E+01	-2.67206677131E+01	4.35021254680E+00	-1.77091637031E+02	-3.81339598366E+01	1.51783812307E+02	-5.90830814477E+00	-1.64357951086E-01
3.02831248665E+05	-1.89827137031E+01	1.02178824936E+02	4.42465313906E+00	-1.77662190456E+02	-3.98040192974E+01	-1.13916677306E+01	-5.89147602383E+00	-3.02438178488E-01
3.03050140565E+05	-2.09302871472E+01	-7.27972096954E+00	4.34607995559E+00	-1.77720471016E+02	-3.60890303764E+01	1.44466405019E+02	-5.90087358498E+00	-6.09779173806E-02
3.03269190685E+05	-1.41853295471E+01	-8.93429675294E+01	4.38321427737E+00	-1.76454244164E+02	-3.87663604435E+01	-1.61976668248E+02	-5.92718507637E+00	-3.36588491272E-01
3.03488399138E+05	-2.13175867404E+01	-4.31896597504E+01	4.31134854126E+00	-1.77964281997E+02	-2.81862832870E+01	-1.11552942635E+01	-5.78382860051E+00	-4.42490592922E-01
3.03707766039E+05	-2.83293311011E+01	1.20923621715E+02	4.46288829665E+00	-1.77801002268E+02	-4.27881792065E+01	-8.08564932823E+01	-5.93866158688E+00	-1.06755695544E-01
3.03927291503E+05	-2.49879717403E+01	-9.01730709376E+01	4.36589901454E+00	-1.77567673508E+02	-5.09275307593E+01	-1.58878546243E+02	-5.91726096255E+00	-7.63337875887E-02
3.04146975643E+05	-3.93188865185E+01	-1.05095468316E+02	4.49892978789E+00	-1.77415784613E+02	-3.87170373183E+01	1.88342725224E+01	-5.85254334308E+00	-8.05183484267E-02
3.04366818575E+05	-1.70265971354E+01	-1.44655095220E+02	4.36655871638E+00	-1.77007997064E+02	-4.04132720296E+01	9.90965630331E+01	-5.87146728201E+00	-3.29664238868E-01
3.04586820414E+05	-1.90569759820E+01	-8.41313695806E+01	4.38439650691E+00	-1.76466377354E+02	-4.14561109263E+01	-6.15865882466E+01	-5.88001303752E+00	-3.16118922643E-01
3.04806981274E+05	-9.46048881998E+00	5.21936575934E+01	4.18963704747E+00	-1.78749808516E+02	-5.03120629623E+01	-7.38337205094E+01	-5.87221323787E+00	-1.34317489483E-01
3.05027301270E+05	-2.27397613424E+01	1.29937213317E+02	4.42285268446E+00	-1.78104795070E+02	-2.80186714729E+01	1.11743306396E+02	-5.89976297261E+00	2.10909898228E-01
3.05247780517E+05	-1.71353222414E+01	-6.23606740016E+01	4.33001619969E+00	-1.77694286340E+02	-3.90293374209E+01	5.47874857109E+01	-5.88451795832E+00	1.72782360004E-01
3.05468419131E+05	-1.93742960321E+01	1.36850786453E+02	4.46198231075E+00	-1.77941567633E+02	-3.97503734267E+01	-5.81989711229E+01	-5.87027199433E+00	-2.72790133619E-01
3.05689217226E+05	-2.06712757991E+01	-1.30538158917E+02	4.39010785074E+00	-1.77210519540E+02	-3.67638832107E+01	-2.88477663064E+01	-5.84813015662E+00	-2.09764371688E-01
3.05910174918E+05	-1.99576641973E+01	-6.37351841707E+01	4.34335106120E+00	-1.77448209152E+02	-3.74228237285E+01	-1.60242913899E+02	-5.86873771964E+00	-4.47206256542E-01
3.06131292322E+05	-2.30687366357E+01	3.55852397212E+01	4.40559937719E+00	-1.77392349608E+02	-3.65411817757E+01	-2.26918190895E+01	-5.85782639709E+00	-4.70040747597E-01
3.06352569554E+05	-1.06868603700E+01	-9.30875496889E+01	4.45324232599E+00	-1.76707675475E+02	-4.07366944148E+01	-6.88224033396E+01	-5.89002424629E+00	-5.97641155671E-01
3.06574006730E+05	-2.40454397104E+01	-1.79311138608E+02	4.42898769280E+00	-1.77679875573E+02	-2.70084081012E+01	3.55968799910E+01	-5.79049191788E+00	-3.32310838183E-02
3.06795603964E+05	-1.93982820374E+01	1.09340870140E+02	4.41145957751E+00	-1.77657350335E+02	-4.75853282409E+01	-6.76167986642E+00	-5.91996728036E+00	-1.37809523787E-01
3.07017361372E+05	-2.80988482754E+01	1.36392395325E+02	4.41889677971E+00	-1.77621370138E+02	-4.89625223876E+01	4.20816812357E+01	-5.91732727905E+00	-2.45512326382E-01
3.07239279071E+05	-1.37823463852E+01	-8.78956417240E+00	4.29698936528E+00	-1.77582435405E+02	-5.18309585315E+01	-7.62570748947E+01	-5.87498709508E+00	-3.59374083771E-01
3.07461357176E+05	-4.12483605299E+01	1.48260088676E+02	4.43765513428E+00	-1.77651599107E+02	-4.19985094194E+01	3.11927515264E+01	-5.88937503540E+00	-3.31326548133E-01
3.07683595803E+05	-3.10753221092E+01	-1.58965287911E+02	4.35472329652E+00	-1.77904513165E+02	-3.32215797063E+01	-3.08837961598E+01	-5.88860027091E+00	-3.56836216120E-01
3.07905995068E+05	-9.30463782618E+00	1.49671050439E+01	4.15260559208E+00	-1.77704115115E+02	-4.05425313458E+01	-1.23685978662E+02	-5.89252451717E+00	-1.71966238083E-01
3.08128555087E+05	-1.76278440396E+01	-1.65158314524E+02	4.46021411541E+00	-1.77454807072E+02	-3.48406176172E+01	-1.11699039488E+02	-5.89971106077E+00	-4.14323943775E-01
3.08351275976E+05	-2.52859954377E+01	-1.37555074314E+02	4.42173927215E+00	-1.77685215556E+02	-2.99611567987E+01	-1.61096804648E+02	-5.97103185640E+00	-2.75052881662E-01
3.08574157853E+05	-1.73465453938E+01	-1.60774139300E+01	4.35181335319E+00	-1.77352889197E+02	-4.29629977115E+01	1.08243452308E+02	-5.86128776383E+00	-6.71269324481E-02
3.08797200832E+05	-2.03061474558E+01	-1.01413125821E+02	4.42038048708E+00	-1.78049888529E+02	-4.04656710732E+01	1.06974119057E+02	-5.93480465383E+00	7.10656887349E-02
3.09020405031E+05	-2.31862416090E+01	5.75035820053E+01	4.35790823148E+00	-1.78172293238E+02	-3.86935617181E+01	-1.26146327991E+02	-5.90417356264E+00	-3.30479916716E-01
3.09243770566E+05	-2.17842840745E+01	1.23867854180E+02	4.39816372611E+00	-1.77652408848E+02	-3.79376358433E+01	-6.06016109415E+01	-5.84846887975E+00	-5.71324253190E-01
3.09467297553E+05	-1.36233391064E+01	-6.25419852415E+01	4.37774990536E+00	-1.77182300484E+02	-3.76336034167E+01	-3.68585916181E+01	-5.90024287336E+00	-2.26832357705E-01
3.09690986110E+05	-1.18791077505E+01	1.19078575300E+02	4.44228828029E+00	-1.78992353662E+02	-3.99065353679E+01	-1.10171710204E+02	-5.88781870584E+00	-4.39375881166E-01
3.09914836353E+05	-3.40017716898E+01	1.72159479207E+02	4.44644186452E+00	-1.77749169358E+02	-4.03552109556E+01	4.15192106768E+01	-5.84013870330E+00	-2.54560933618E-01
3.10138848399E+05	-1.95254527009E+01	1.40682449713E+02	4.38972057008E+00	-1.77785241886E+02	-4.18076557929E+01	1.30836797552E+02	-5.86735234862E+00	-9.13697782208E-02
3.10363022365E+05	-2.71226490057E+01	1.66536811413E+02	4.23666303680E+00	-1.77987677295E+02	-3.41275915211E+01	5.88127520693E+01	-5.85384625095E+00	-1.56685856281E-01
3.10587358368E+05	-3.41651431716E+01	-1.45503056706E+02	4.43647039938E+00	-1.77618840502E+02	-5.51237539606E+01	1.29121875906E+02	-5.92286047464E+00	-3.01360999486E-01
3.10811856525E+05	-1.97722323842E+01	8.20676812079E+01	4.27372131580E+00	-1.78105139178E+02	-3.30201943990E+01	-5.06832038521E+00	-5.83645497433E+00	4.42515168288E-02
3.11036516954E+05	-1.69055013809E+01	-4.24127910029E+01	4.32331457584E+00	-1.76832226811E+02	-4.02814468916E+01	1.10505069418E+02	-5.92182227286E+00	-4.79062215660E-01
3.11261339771E+05	-1.31980434484E+01	5.52254328612E+01	4.26112931303E+00	-1.78799005325E+02	-3.12060260744E+01	-5.01626095242E+01	-5.82994153984E+00	-5.87760802308E-01
3.11486325094E+05	-1.80875916431E+01	-2.86590996045E+01	4.29847420775E+00	-1.77366891942E+02	-3.81494702472E+01	-8.81341294533E+01	-5.88488180638E+00	-2.44150263542E-01
3.11711473040E+05	-1.77552464592E+01	9.12581543713E+01	4.47490276011E+00	-1.78663084955E+02	-3.86083113922E+01	7.52990064230E+01	-5.88212116774E+00	-2.15866302123E-01
3.11936783728E+05	-2.04735509834E+01	3.09964274736E+01	4.39298441938E+00	-1.78352325202E+02	-4.70397263788E+01	-1.21369009633E+02	-5.89417396837E+00	-1.88376938014E-01
3.12162257274E+05	-2.07535486792E+01	3.20873835953E+01	4.35931075824E+00	-1.78093906346E+02	-5.13783740267E+01	1.20527679462E+02	-5.94767571141E+00	-4.01788095461E-01
3.12387893797E+05	-2.32262508714E+01	1.28434550178E+02	4.41018510128E+00	-1.78092477945E+02	-4.24810801419E+01	3.72088527413E+01	-5.88563134341E+00	-9.90211059424E-02
3.12613693413E+05	-1.33072394809E+01	-9.74335561950E+01	4.39750633725E+00	-1.76876801689E+02	-3.69726230114E+01	1.27276179377E+02	-5.93397981168E+00	-1.72186346282E-01
3.12839656242E+05	-8.29438992910E+00	1.63030717963E+02	4.73521128274E+00	-1.78062783067E+02	-3.29764926040E+01	1.01487065835E+02	-5.86751456592E+00	1.24315443077E-01
3.13065782401E+05	-2.25574245875E+01	1.40863153255E+02	4.45931761562E+00	-1.78175824025E+02	-4.91048060506E+01	-1.56606410004E+02	-5.86570285678E+00	-4.69454422554E-01
3.13292072007E+05	-1.93423178317E+01	-3.48615591144E+00	4.23263327627E+00	-1.77908398196E+02	-5.11945476715E+01	-6.57811089952E+00	-5.88889800650E+00	-4.64632899901E-01
3.13518525180E+05	-1.45787433362E+01	4.94743699712E+01	4.27325046321E+00	-1.78497431084E+02	-5.67257877878E+01	-1.65907492739E+02	-5.90749896103E+00	-3.55930430122E-01
3.13745142038E+05	-1.36352145530E+01	6.36413097725E+01	4.34503362801E+00	-1.79043570631E+02	-3.70395342856E+01	-9.24846607138E+01	-5.86971162882E+00	-5.15126002705E-01
3.13971922698E+05	-1.88701072276E+01	4.28258986782E+01	4.33998791546E+00	-1.78194395310E+02	-3.87727682317E+01	-5.06945112815E+00	-5.86639530240E+00	-2.88351065303E-01
3.14198867279E+05	-1.75974262784E+01	-8.94422831774E+01	4.41101212018E+00	-1.77229903302E+02	-3.74329528462E+01	-1.58173887687E+02	-5.88679294848E+00	-2.70143222702E-01
3.14425975900E+05	-1.65769899333E+01	1.14479713693E+02	4.42004469671E+00	-1.78946964656E+02	-3.43878252474E+01	-3.17189361885E+01	-5.88312910416E+00	-2.43609530323E-01
3.14653248680E+05	-1.99000316092E+01	-1.65446358383E+02	4.37359749259E+00	-1.77974328917E+02	-3.88004838594E+01	3.45524626925E+01	-5.86311643902E+00	-5.03237844126E-02
3.14880685736E+05	-1.62711015928E+01	4.73516856732E+01	4.37214636916E+00	-1.78550805550E+02	-3.82124269039E+01	1.32298702788E+02	-5.90270212918E+00	-1.03183978081E-01
3.15108287188E+05	-1.70237272206E+01	3.73531735964E+01	4.35641252771E+00	-1.78813380974E+02	-3.86086887397E+01	1.36322144741E+02	-5.88774472095E+00	-2.17822984310E-02
3.15336053154E+05	-1.85003469465E+01	1.31768846173E+02	4.48016505095E+00	-1.78327040886E+02	-4.78251015895E+01	-1.74649138641E+02	-5.90074825151E+00	4.07609537639E-02
3.15563983753E+05	-1.95274588800E+01	9.54880977380E+01	4.41274057106E+00	-1.77929270412E+02	-4.74300564612E+01	-3.01263652847E+01	-5.84438903424E+00	-3.59632336183E-01
3.15792079105E+05	-1.11022986423E+01	6.83773256966E+01	4.37003941854E+00	-1.78955279723E+02	-4.80276466136E+01	-9.90882006068E+01	-5.91823059031E+00	-3.82611259524E-01
3.16020339328E+05	-1.37787975304E+01	-3.67787488798E+01	4.31503001259E+00	-1.77235630324E+02	-4.28921121225E+01	6.01039460765E+01	-5.89395327204E+00	2.46032152867E-01
3.16248764542E+05	-1.72256084863E+01	3.84748815769E+01	4.33314098862E+00	-1.78383100057E+02	-3.86414381262E+01	-6.42417879617E+01	-5.89465214552E+00	-3.72923496511E-01
3.16477354866E+05	-2.65388700183E+01	-1.08584825954E+02	4.38623784279E+00	-1.78116742278E+02	-4.08359599588E+01	8.14969312527E+01	-5.87806007369E+00	-1.27534063808E-01
3.16706110419E+05	-2.72503849176E+01	8.47412455343E+01	4.35962012496E+00	-1.78007042394E+02	-4.01313686176E+01	-1.60111021316E+01	-5.83543928894E+00	-2.76038186333E-01
3.16935031321E+05	-2.31971161274E+01	-1.29810388061E+02	4.40990964238E+00	-1.77284036785E+02	-3.79808870908E+01	-2.95805764871E+01	-5.90413969182E+00	-1.73671605127E-01
3.17164117691E+05	-1.76039821320E+01	9.27245035596E+00	4.31371407300E+00	-1.77949900341E+02	-3.94360449957E+01	-1.52755209353E+02	-5.87834679009E+00	-7.92102011517E-02
3.17393369648E+05	-3.52454980180E+01	1.19340178481E+02	4.43229036913E+00	-1.78038748292E+02	-4.38427132473E+01	-4.31540697637E+01	-5.89622953598E+00	-2.02004938813E-01
3.17622787313E+05	-2.70818267072E+01	7.60901495970E+01	4.36191051105E+00	-1.78023347103E+02	-3.32465106225E+01	-5.56466187606E+01	-5.88864300740E+00	-7.18063583116E-01
3.17852370806E+05	-2.08700848822E+01	-1.03394066216E+02	4.34300728206E+00	-1.77506578483E+02	-3.63627982822E+01	-9.59014541083E+01	-5.90788517534E+00	-9.06871654689E-01
3.18082120245E+05	-1.79571827824E+01	-1.72752574303E+02	4.43717534977E+00	-1.77282895027E+02	-4.13368695388E+01	-1.03260737767E+02	-5.90548310466E+00	-1.45368939021E-01
3.18312035752E+05	-1.92504221336E+01	2.77530829616E+01	4.32664386023E+00	-1.77805310895E+02	-4.19440020308E+01	-1.05004755989E+02	-5.86916631389E+00	-4.41134454900E-01
3.18542117445E+05	-2.03449961704E+01	1.42175311878E+02	4.39755055830E+00	-1.78626936556E+02	-4.08466317126E+01	-1.15962572893E+02	-5.91359880252E+00	-6.84435068919E-01
3.18772365446E+05	-2.37280178026E+01	-3.83449455421E+01	4.44197083517E+00	-1.77576772396E+02	-4.59766544070E+01	-6.29831390207E+01	-5.88178290569E+00	-3.45196274436E-01
3.19002779874E+05	-3.15804248374E+01	1.04644019188E+02	4.45869748756E+00	-1.77862873887E+02	-4.23554787066E+01	9.73384296325E+00	-5.87115850878E+00	-2.75833929772E-01
3.19233360850E+05	-1.19872905554E+01	7.30160985194E+01	4.31943029146E+00	-1.79378852554E+02	-3.38147749138E+01	-1.75080003355E+01	-5.86039351212E+00	-2.33600441386E-01
3.19464108494E+05	-2.02107632492E+01	-8.17661454865E+01	4.35409445473E+00	-1.77291357225E+02	-4.67000846330E+01	-2.10419186607E+01	-5.88321594360E+00	-2.24835504922E-01
3.19695022927E+05	-1.30154988779E+01	4.67498296698E+01	4.23222015681E+00	-1.79194217212E+02	-4.14084515827E+01	1.65961681676E+00	-5.89450471085E+00	1.10365798353E-01
3.19926104268E+05	-1.79319378198E+01	1.53902905753E+02	4.39913404893E+00	-1.77778892099E+02	-3.48717735249E+01	1.06421243880E+02	-5.91911492951E+00	-5.20655096525E-02
3.20157352640E+05	-2.57851596728E+01	9.75996730286E+01	4.42317656758E+00	-1.77759228894E+02	-4.10372699243E+01	-1.28102713672E+02	-5.86346307400E+00	-4.52997905058E-01
3.20388768162E+05	-2.17583212425E+01	2.61895871331E+00	4.34637188341E+00	-1.78021548035E+02	-4.02701105495E+01	9.17929840677E+01	-5.89714442345E+00	-4.88873738279E-01
3.20620350955E+05	-1.71122074935E+01	-5.52647734477E+01	4.38634151573E+00	-1.77695220318E+02	-3.48620516132E+01	5.36995752226E+00	-5.88117859927E+00	-4.09608336442E-01
3.20852101140E+05	-2.71608286873E+01	-8.94580841289E+00	4.39749554454E+00	-1.77951841355E+02	-3.66048041090E+01	1.39202878849E+02	-5.94442319348E+00	5.66722060407E-02
3.21084018839E+05	-2.24291892171E+01	-7.98371800973E+01	4.39812848681E+00	-1.78043572424E+02	-3.25874265263E+01	-6.95234670933E+01	-5.85484975229E+00	-4.61287036331E-01
3.21316104172E+05	-2.09686957763E+01	-1.38194470731E+02	4.41163731775E+00	-1.78142377339E+02	-3.96376179186E+01	-1.41484559437E+02	-5.90157854384E+00	-4.75633986944E-01
3.21548357261E+05	-2.36816040905E+01	-1.38001309464E+02	4.46564131897E+00	-1.78029143981E+02	-3.92286300694E+01	1.36352171671E+01	-5.84574665855E+00	-6.84179575724E-02
3.21780778226E+05	-1.82782101886E+01	-4.41456486881E+01	4.28767762121E+00	-1.77355002066E+02	-4.03089372567E+01	-1.17973070598E+02	-5.93513437607E+00	-3.60727924581E-01
3.22013367189E+05	-2.40550995161E+01	1.34284228795E+02	4.46848946149E+00	-1.77796173842E+02	-4.55713459014E+01	-6.27061189862E+01	-5.89637525089E+00	-3.73445660499E-01
3.22246124272E+05	-2.04922190443E+01	4.84981921693E+01	4.31960641530E+00	-1.78237773109E+02	-3.75548861598E+01	-3.40051724823E+01	-5.86843983713E+00	-2.14968244646E-01
3.22479049596E+05	-1.24956279207E+01	1.67624070065E+02	4.64547680939E+00	-1.78814522190E+02	-3.32168347309E+01	-8.34478262065E+01	-5.91284575749E+00	-7.05635184359E-01
3.22712143282E+05	-1.26449141262E+01	3.10010089319E+01	4.24283050489E+00	-1.78811648638E+02	-3.59851049387E+01	-1.23210517590E+02	-5.91745262620E+00	-4.65679483158E-01
3.22945405453E+05	-1.99140393043E+01	-7.69462510876E+01	4.41754664710E+00	-1.77605246628E+02	-4.77760720724E+01	-3.18208921592E+01	-5.85917469310E+00	-3.29692380804E-01
3.23178836230E+05	-4.29314185141E+01	-4.88624386081E+00	4.42266462429E+00	-1.77437135988E+02	-4.40767910553E+01	-1.16286741990E+02	-5.89326225931E+00	-4.85581966521E-01
3.23412435735E+05	-1.45311457174E+01	4.88732299416E+01	4.44921442321E+00	-1.78032719766E+02	-3.39532033598E+01	-6.22520993482E+00	-5.85871728879E+00	-2.01913162430E-01
3.23646204090E+05	-1.87385108952E+01	1.52705683094E+02	4.35111257716E+00	-1.77722724346E+02	-3.90446735731E+01	1.20054891818E+02	-5.93746714294E+00	-8.72505043101E-02
3.23880141417E+05	-1.10521371659E+01	-1.69181901106E+02	4.51642030439E+00	-1.77076811020E+02	-3.73671090066E+01	-5.00504113455E+01	-5.86984130223E+00	-3.96612623969E-01
3.24114247838E+05	-8.76058122772E+00	-1.36589337411E+02	4.54345578365E+00	-1.76512766308E+02	-3.21840526854E+01	1.36632452313E+02	-5.89552447654E+00	-2.84120793552E-02
3.24348523475E+05	-3.12563589725E+01	1.82604608558E+01	4.33680234822E+00	-1.78477429872E+02	-2.73618291337E+01	-3.16533067825E+01	-5.78783853059E+00	-2.76630388645E-01
3.24582968451E+05	-1.76791189482E+01	-8.00502647754E+01	4.40821874663E+00	-1.77731236986E+02	-3.97666625619E+01	-9.46014585381E+01	-5.87594401861E+00	-3.21054751928E-01
3.24817582888E+05	-2.16946343733E+01	-1.55468448496E+02	4.37039702816E+00	-1.77522964294E+02	-3.86098894595E+01	-1.62319847107E+02	-5.87963220768E+00	-2.57473830713E-01
3.25052366909E+05	-1.78335766596E+01	-9.80659331276E+00	4.33586783607E+00	-1.78227857877E+02	-4.62574141457E+01	1.13647458509E+02	-5.86650578327E+00	-2.49724830018E-01
3.25287320635E+05	-3.28057877563E+01	9.13699884495E+01	4.45031333232E+00	-1.78195150609E+02	-3.49879650097E+01	-1.73303309268E+02	-5.94439362084E+00	-2.84845289921E-01
3.25522444191E+05	-1.63616342309E+01	8.51629704816E+01	4.32559153366E+00	-1.78451759456E+02	-4.32537070668E+01	-1.44605424337E+02	-5.93835171510E+00	-5.17192867861E-01
3.25757737698E+05	-1.82167168280E+01	1.18442264856E+01	4.34497314908E+00	-1.78372039470E+02	-3.34990173377E+01	-1.72508769091E+02	-5.90528859315E+00	-1.38445877510E-01
3.25993201280E+05	-1.71874290981E+01	8.44483414037E+01	4.40950664337E+00	-1.79073613509E+02	-4.31277558303E+01	4.02972947273E+01	-5.92171276736E+00	-3.23935671327E-01
3.26228835058E+05	-2.13040347376E+01	9.29426967470E+01	4.51198390200E+00	-1.78071656513E+02	-4.17718851754E+01	1.57441259590E+02	-5.90364768079E+00	-1.65411687858E-01
