# Hz S DB R 50
! CMT, M5065, 19127446, 24.2.4/2
! Date: 11/1/2024 4:56:51 PM
! Data: Format (Calibration Info)
! Freq	S11:dB/Ang(F2)	S21:dB/Ang(F2)	S12:dB/Ang(F2)	S22:dB/Ang(F2)
3.00000000000E+05	-2.26791243755E+01	-7.37560447175E+01	4.42777524911E+00	-1.77385231772E+02	-4.42679341369E+01	6.97721772365E+01	-5.92200039774E+00	-3.96086112213E-01
3.00216845423E+05	-2.87293129270E+01	-3.07608670686E+01	4.36368607403E+00	-1.77599054395E+02	-3.35603726199E+01	1.05219485813E+02	-5.89615892573E+00	1.17641444107E-02
3.00433847586E+05	-8.93725067499E+00	-3.52405204353E+01	4.25810204962E+00	-1.76846315962E+02	-2.59607513997E+01	-1.77284767390E+02	-5.99297821096E+00	-1.57241515719E-01
3.00651006602E+05	-3.42303115489E+01	-5.14226271779E+01	4.38237618832E+00	-1.78321942515E+02	-3.71057137633E+01	7.24534310810E+01	-5.88097191187E+00	-1.23457528322E-01
3.00868322584E+05	-2.02645353758E+01	1.03999593051E+02	4.41361760080E+00	-1.77427407874E+02	-3.99893751740E+01	-9.10195319152E+01	-5.89090024572E+00	-6.33378442214E-01
3.01085795647E+05	-1.81368482454E+01	8.30929099449E+01	4.36008589346E+00	-1.78469453585E+02	-3.36432575192E+01	1.57546659868E+02	-5.94961468653E+00	-6.17519834381E-02
3.01303425902E+05	-1.92219363068E+01	2.19735902809E+01	4.18269559147E+00	-1.77653981834E+02	-3.57385599071E+01	-1.92817544117E+01	-5.85061765138E+00	-3.99014807727E-01
3.01521213465E+05	-2.94967336765E+01	-8.64716776129E+01	4.40259055389E+00	-1.77399856626E+02	-4.67915857055E+01	-1.77688943170E+02	-5.88756446152E+00	-3.82243959461E-01
3.01739158449E+05	-2.04230608665E+01	-1.70708585864E+02	4.47060575384E+00	-1.77890922475E+02	-3.51274353820E+01	4.11231141235E+01	-5.83438073181E+00	1.61842744365E-01
3.01957260967E+05	-1.02820297795E+01	1.72925461793E+02	4.59181273904E+00	-1.77610871254E+02	-3.20962534461E+01	1.03933574801E+02	-5.90846393843E+00	2.67376656909E-01
3.02175521134E+05	-1.69868793579E+01	-5.30558791674E+01	4.26821810992E+00	-1.77030804898E+02	-4.46543447144E+01	1.73101670043E+02	-5.90739540373E+00	-4.89306758039E-01
3.02393939063E+05	-2.59816343978E+01	1.21066187756E+02	4.41352017990E+00	-1.77703170659E+02	-4.30875404540E+01	7.03650735024E+01	-5.88681737702E+00	-1.38932380076E-01
3.02612514869E+05	-2.12142819729E+01	-1.10761855303E+02	4.43290087210E+00	-1.76882500123E+02	-4.34678679852E+01	6.99335479793E+01	-5.89600040013E+00	-1.60704668925E-01
3.02831248665E+05	-1.51872551831E+01	5.60173426905E+01	4.38360163397E+00	-1.78267106845E+02	-4.03977107733E+01	7.81650718781E+01	-5.84970648795E+00	-4.75952441690E-02
3.03050140565E+05	-3.18458024603E+01	-1.49954573634E+02	4.44358291580E+00	-1.77732960951E+02	-3.86014175692E+01	-9.76352987496E+01	-5.89810819111E+00	-5.46947567857E-01
3.03269190685E+05	-2.08210210710E+01	-1.92452389435E+01	4.33983453753E+00	-1.77592225561E+02	-3.68331106614E+01	1.35477844019E+01	-5.88859671531E+00	-2.48430047594E-01
3.03488399138E+05	-1.52417044560E+01	1.33292647716E+02	4.40266439731E+00	-1.78247228219E+02	-3.73823996048E+01	-1.43267357316E+02	-5.96045321938E+00	-5.23475323471E-01
3.03707766039E+05	-1.53093391971E+01	2.85078228302E+01	4.34135172813E+00	-1.78054682835E+02	-4.11434262816E+01	-1.37429041792E+02	-5.87923982857E+00	-3.29316181291E-01
3.03927291503E+05	-2.54818278364E+01	4.57540441895E+01	4.37084981397E+00	-1.77881444330E+02	-4.44042481015E+01	1.04739568502E+02	-5.93012717343E+00	-6.96139839033E-03
3.04146975643E+05	-2.72059949030E+01	2.95868033857E+01	4.38862458607E+00	-1.77548726833E+02	-3.93825835717E+01	-1.63960167872E+01	-5.86199024997E+00	-2.89548668053E-01
3.04366818575E+05	-1.76947619075E+01	-1.09572192512E+01	4.35083019662E+00	-1.77486365179E+02	-3.86251621709E+01	6.19551303714E+01	-5.86878632118E+00	-9.08592204442E-02
3.04586820414E+05	-2.08119186475E+01	7.18269404336E+01	4.42800268647E+00	-1.77839060341E+02	-4.83480441953E+01	-1.68492328559E+02	-5.92956293594E+00	-2.71769351272E-01
3.04806981274E+05	-1.86549576206E+01	-1.82048192256E+01	4.22392890023E+00	-1.77675982149E+02	-3.51294866018E+01	-9.66964736031E+01	-5.89378010853E+00	-7.23453778039E-01
3.05027301270E+05	-1.41857338594E+01	5.76220772190E+01	4.24902152676E+00	-1.78780622391E+02	-3.73621801922E+01	1.51742755554E+02	-5.95068320286E+00	-8.91000210117E-03
3.05247780517E+05	-2.98129983266E+01	2.33269963379E+01	4.33313865603E+00	-1.77675027405E+02	-4.61070350163E+01	6.21904352664E+01	-5.89522866439E+00	-1.29559186172E-02
3.05468419131E+05	-1.74269409595E+01	5.84248831604E+01	4.32857562110E+00	-1.78057858100E+02	-4.23459364530E+01	1.07662420843E+02	-5.89869418812E+00	-2.66368444023E-01
3.05689217226E+05	-1.48148865446E+01	-1.64008562817E+02	4.47044131225E+00	-1.77440990163E+02	-3.69410849116E+01	-6.90900735668E+01	-5.86790363963E+00	-2.84414724141E-01
3.05910174918E+05	-2.02871041205E+01	-8.63571223231E+01	4.45089145633E+00	-1.77711996386E+02	-4.89282258114E+01	2.05338380051E+01	-5.85886621740E+00	2.18007355048E-03
3.06131292322E+05	-1.64441085086E+01	2.34807427743E+01	4.27403776566E+00	-1.78097862458E+02	-4.04580142931E+01	-1.37657771383E+02	-5.88567796346E+00	-2.64782769737E-01
3.06352569554E+05	-2.11235190413E+01	4.09677780135E+01	4.40264445647E+00	-1.78223282820E+02	-4.70354725810E+01	-9.21528350707E+01	-5.87886391929E+00	-5.64709149737E-01
3.06574006730E+05	-2.31522632608E+01	-1.56371755778E+02	4.40795666547E+00	-1.78315438506E+02	-3.28913111857E+01	7.70772593534E+01	-5.87403693485E+00	1.58636999232E-01
3.06795603964E+05	-1.62690960369E+01	-2.56794871840E+01	4.20727458606E+00	-1.77418178422E+02	-4.24010911819E+01	2.10872572451E+01	-5.88950482026E+00	-2.96211526067E-01
3.07017361372E+05	-2.12165497410E+01	1.38964043236E+01	4.37357486271E+00	-1.78339809924E+02	-4.74652916687E+01	-8.07487766206E+01	-5.90926538432E+00	-2.13069188633E-01
3.07239279071E+05	-2.02364213278E+01	3.30729988674E+00	4.25522316804E+00	-1.77542601964E+02	-3.42809636372E+01	-1.26320654365E+02	-5.88716994880E+00	-4.35038660233E-01
3.07461357176E+05	-2.54462984126E+01	-1.97663709552E+01	4.41759935481E+00	-1.77843579052E+02	-3.89606856946E+01	1.25503380851E+02	-5.87000070487E+00	-1.18813506691E-01
3.07683595803E+05	-2.11394097505E+01	5.35279455866E+01	4.32606310314E+00	-1.77746277968E+02	-3.47144812084E+01	-1.53261334430E+02	-5.90955850012E+00	-1.61539234637E-01
3.07905995068E+05	-2.57437285751E+01	-1.37675291069E+02	4.40153775903E+00	-1.77846335612E+02	-3.36485356327E+01	2.04676904663E+01	-5.85515203138E+00	-5.29966396532E-02
3.08128555087E+05	-2.65646021837E+01	1.37242777278E+02	4.41142114996E+00	-1.77829229223E+02	-3.14610156676E+01	-9.39972789592E+01	-5.87458287081E+00	-8.25052989390E-01
3.08351275976E+05	-1.29415442525E+01	-2.06936487902E+01	4.24590053669E+00	-1.76830397088E+02	-4.68359972949E+01	-1.23874408042E+02	-5.88654384751E+00	-3.62002081595E-01
3.08574157853E+05	-2.29092769974E+01	6.79120156186E+01	4.41514157459E+00	-1.78087726010E+02	-4.76827971653E+01	3.22671023164E+01	-5.83156919608E+00	-2.46146446068E-01
3.08797200832E+05	-3.11124070499E+01	1.30920840756E+02	4.39470483182E+00	-1.77602772214E+02	-3.05916878094E+01	-1.50134090420E+02	-5.90552053610E+00	-3.20143708111E-01
3.09020405031E+05	-1.96085844789E+01	-1.35223771840E+02	4.32507445581E+00	-1.77714312718E+02	-4.34103870285E+01	-1.25204374316E+02	-5.93374201008E+00	-1.38846276372E-01
3.09243770566E+05	-3.65733904056E+01	2.79387983533E+01	4.44882030552E+00	-1.77510086693E+02	-3.83594688548E+01	8.43879603691E+01	-5.88013147507E+00	1.29285305310E-01
3.09467297553E+05	-1.70539432289E+01	1.09688704401E+02	4.51828489345E+00	-1.78060788488E+02	-3.94865823057E+01	-1.76577488128E+02	-5.93350842193E+00	-3.02927392849E-01
3.09690986110E+05	-1.69694349245E+01	-1.01167105111E+01	4.34125361919E+00	-1.77985296762E+02	-3.61746459828E+01	-1.26447182042E+02	-5.94155782356E+00	-4.47532682036E-01
3.09914836353E+05	-1.51891005449E+01	4.56632678212E+01	4.32428442340E+00	-1.78345660047E+02	-3.93778536444E+01	-7.73124899495E+01	-5.86520420286E+00	-5.61295079913E-01
3.10138848399E+05	-2.14829567774E+01	1.21580373351E+02	4.33701095071E+00	-1.77858514213E+02	-3.70548617966E+01	7.92660789619E+01	-5.90952026174E+00	-3.55150225198E-01
3.10363022365E+05	-1.77619558169E+01	-1.41534326622E+02	4.45021144422E+00	-1.77659985066E+02	-3.92470578467E+01	1.02957986773E+02	-5.85438588301E+00	-2.36366663467E-01
3.10587358368E+05	-2.58554637677E+01	1.20178453755E+02	4.35780245806E+00	-1.78113635050E+02	-4.06130487789E+01	5.73740827040E+01	-5.89406967952E+00	-3.84742478630E-01
3.10811856525E+05	-2.33696339919E+01	1.26398255795E+02	4.44252934261E+00	-1.78476892164E+02	-4.26131504808E+01	-1.79824187141E-02	-5.87462332536E+00	-8.40048663478E-02
3.11036516954E+05	-1.55887349873E+01	9.81365405834E+01	4.38661010492E+00	-1.78204014450E+02	-3.47726873317E+01	-1.13272314083E+02	-5.90278160755E+00	-4.96421385769E-01
3.11261339771E+05	-1.67177503311E+01	-1.41066674624E+02	4.57121331347E+00	-1.77464367360E+02	-3.67565207560E+01	-7.31179548648E+01	-5.89421039584E+00	-5.35645984032E-01
3.11486325094E+05	-1.88595920352E+01	6.56496738405E+01	4.34418968971E+00	-1.78893944710E+02	-4.03008434869E+01	1.00130657414E+02	-5.86982428890E+00	-2.98680089819E-01
3.11711473040E+05	-3.14899052646E+01	-9.69366691838E+01	4.39908438375E+00	-1.78017112902E+02	-4.55103115770E+01	-3.37233493343E+01	-5.88488185514E+00	-5.28429065042E-01
3.11936783728E+05	-1.28444273490E+01	-1.49594349931E+02	4.52656486273E+00	-1.77319305174E+02	-4.86556201070E+01	-1.66413987552E+02	-5.88025779289E+00	-4.48968942136E-01
3.12162257274E+05	-2.92624634709E+01	-1.59205828524E+02	4.40674863171E+00	-1.77637413441E+02	-4.98135684799E+01	-1.10939031765E+02	-5.87415157373E+00	-2.10956212770E-01
3.12387893797E+05	-2.28302482712E+01	8.58539756150E+00	4.34294227378E+00	-1.78036796720E+02	-4.18089058341E+01	-8.55458857653E+01	-5.88687480294E+00	-2.25994532990E-01
3.12613693413E+05	-2.38008967868E+01	8.46257080515E+01	4.34967732733E+00	-1.77618275589E+02	-3.69802583562E+01	-1.73915895343E+02	-5.90245242424E+00	-1.80639599681E-01
3.12839656242E+05	-1.69330544976E+01	-7.88334559034E+01	4.41196994615E+00	-1.77130674855E+02	-3.74669335451E+01	1.78614242160E+02	-5.93014516511E+00	-2.05724967457E-01
3.13065782401E+05	-2.21634386327E+01	-1.34966606262E+02	4.44285129387E+00	-1.77050441684E+02	-3.27204097791E+01	-3.14747380596E+01	-5.86487493827E+00	-5.50280914473E-01
3.13292072007E+05	-1.85608894193E+01	1.49700756051E+02	4.48789455552E+00	-1.77647749082E+02	-3.65105540790E+01	5.85925722957E+01	-5.84372249342E+00	-1.32811822280E-02
3.13518525180E+05	-2.18827650391E+01	-1.06173045162E+02	4.38287822826E+00	-1.77801115705E+02	-3.42719687880E+01	1.23099649132E+02	-5.93205804287E+00	-1.58802511310E-02
3.13745142038E+05	-2.49573050912E+01	3.55848260516E+01	4.38333434580E+00	-1.77608376758E+02	-3.71688417689E+01	-4.74505337424E+01	-5.86830415536E+00	-2.91642578533E-01
3.13971922698E+05	-1.50922760113E+01	-7.52171023051E+00	4.27263258349E+00	-1.77955564333E+02	-4.33577036594E+01	3.25088496981E+01	-5.88781027145E+00	-3.34990904433E-01
3.14198867279E+05	-1.95002440673E+01	1.71562308827E+02	4.48703642617E+00	-1.77603063211E+02	-4.57844930895E+01	1.50812023546E+02	-5.90605145231E+00	-2.36709843619E-02
3.14425975900E+05	-2.79240109897E+01	-3.95779505847E+01	4.36725517737E+00	-1.78412368749E+02	-3.18277720650E+01	4.66199667396E+01	-5.84871228072E+00	-1.11501501665E-02
3.14653248680E+05	-1.85056333973E+01	-2.23845379837E+01	4.35360326496E+00	-1.77465871295E+02	-3.20834167330E+01	-1.72704134624E+02	-5.94786796860E+00	-8.65848408943E-02
3.14880685736E+05	-2.87332581247E+01	-4.10261566935E+01	4.38444462022E+00	-1.78115310814E+02	-3.90156212728E+01	-1.00902178859E+02	-5.89983989600E+00	-4.80775598230E-01
3.15108287188E+05	-1.73856446555E+01	-4.89734427882E+01	4.33823208156E+00	-1.77358226766E+02	-4.11864534365E+01	-7.01182474700E+01	-5.90832845251E+00	1.75718002282E-02
3.15336053154E+05	-1.84322464965E+01	-1.31799564080E+02	4.46675652435E+00	-1.77492893948E+02	-3.45717038393E+01	-5.26276874477E+01	-5.85801815686E+00	-3.93559355165E-01
3.15563983753E+05	-1.77241250777E+01	5.98284975456E+01	4.35974120555E+00	-1.77925085672E+02	-4.21310638127E+01	3.78216647004E+01	-5.88464834136E+00	-3.33628768184E-01
3.15792079105E+05	-1.65160076068E+01	1.93527177128E+01	4.39102223822E+00	-1.78031832235E+02	-4.09120546692E+01	1.14069166508E+02	-5.90990631715E+00	-2.43607745097E-01
3.16020339328E+05	-2.40043435224E+01	-1.68291006867E+02	4.44843644090E+00	-1.78050473115E+02	-2.92148880250E+01	9.55478335892E+01	-5.92659356598E+00	1.06448280624E-01
3.16248764542E+05	-2.37019181170E+01	1.15879144568E+02	4.42935237617E+00	-1.78813489843E+02	-4.14180309336E+01	-6.27518626106E+01	-5.88962395249E+00	-3.16178707748E-01
3.16477354866E+05	-1.63847499027E+01	8.95012664722E+01	4.34386968892E+00	-1.78487118308E+02	-4.25055717166E+01	5.17804689046E+01	-5.86202691964E+00	-7.06186404403E-02
3.16706110419E+05	-1.80729696538E+01	1.68494882484E+01	4.30188401146E+00	-1.78090299275E+02	-3.84769671073E+01	1.44971496457E+02	-5.94814122081E+00	-2.06911745107E-01
3.16935031321E+05	-2.26782879630E+01	-4.67811832351E+01	4.33061135864E+00	-1.77312098191E+02	-4.95266780090E+01	-1.21137335603E+02	-5.91346411090E+00	-3.66189493862E-01
3.17164117691E+05	-1.95479844278E+01	1.23202445735E+02	4.46078010909E+00	-1.78113922828E+02	-3.38428366574E+01	3.37874354210E+01	-5.86066692674E+00	-5.31688341367E-02
3.17393369648E+05	-2.44220560152E+01	5.71688422668E+01	4.34812937229E+00	-1.78285682179E+02	-4.03463720148E+01	1.34414968008E+01	-5.88338446576E+00	-4.97487509517E-01
3.17622787313E+05	-2.46810662400E+01	1.99936130795E+01	4.34333652770E+00	-1.78142190026E+02	-2.95247014665E+01	-5.79634218718E+00	-5.80058921059E+00	-3.63458158101E-01
3.17852370806E+05	-1.19072402352E+01	-9.34635993360E+01	4.46073158181E+00	-1.76882544548E+02	-3.67981072817E+01	9.49127554741E+01	-5.86907259638E+00	-1.41697855049E-01
3.18082120245E+05	-2.05422236394E+01	1.23550324955E+02	4.35208921843E+00	-1.78845483198E+02	-4.56241915954E+01	5.36818642371E+01	-5.87700199326E+00	-2.10968006384E-01
3.18312035752E+05	-1.92696981733E+01	1.52004213238E+02	4.48595826366E+00	-1.78014037233E+02	-4.35148537903E+01	6.77974863808E+01	-5.88684088118E+00	-1.24955211585E-01
3.18542117445E+05	-1.89131574853E+01	-1.53923997373E+02	4.51991908070E+00	-1.77558041383E+02	-3.53637819893E+01	-9.98261717326E+01	-5.88302044666E+00	-4.99079875207E-01
3.18772365446E+05	-2.75000783676E+01	-5.42940278239E+01	4.36498725584E+00	-1.78102324684E+02	-4.13371596406E+01	-4.46184301127E+01	-5.87642927715E+00	-6.27134281170E-01
3.19002779874E+05	-2.21349361375E+01	1.37931542817E+02	4.50156905089E+00	-1.78206585300E+02	-4.92656738631E+01	-2.50232808766E+01	-5.87187386575E+00	-2.16034136152E-01
3.19233360850E+05	-1.83388103316E+01	4.14503367356E+01	4.42166547281E+00	-1.78873996066E+02	-3.17955846882E+01	1.51166729304E+02	-5.94655892906E+00	3.14215184592E-02
3.19464108494E+05	-9.15496552745E+00	8.47354442722E+01	4.31841217124E+00	-1.79765465131E+02	-3.79669631869E+01	-8.53235826566E+00	-5.84954953183E+00	-3.24587817477E-01
3.19695022927E+05	-1.22683734626E+01	1.23869514231E+02	4.48107700833E+00	-1.78933608187E+02	-4.12070819695E+01	1.55479038327E+02	-5.88533585010E+00	-4.71144519959E-01
3.19926104268E+05	-1.94359657495E+01	-8.00444534830E+01	4.40366372014E+00	-1.77253534089E+02	-4.35708948780E+01	-8.08963596992E+01	-5.88092847211E+00	-7.05530698300E-01
3.20157352640E+05	-2.35347707037E+01	1.53321809275E+02	4.33542097815E+00	-1.77891694421E+02	-4.05926010880E+01	1.72569183801E+01	-5.88598205613E+00	-2.51881377307E-01
3.20388768162E+05	-2.06942114675E+01	1.26723165795E+02	4.40438793866E+00	-1.78599322830E+02	-3.92068908213E+01	-3.46364837124E+01	-5.85666065616E+00	-4.12263344962E-01
3.20620350955E+05	-2.66897541535E+01	-1.70873924653E+02	4.41755457157E+00	-1.78026673062E+02	-3.69685805907E+01	2.82981687755E+01	-5.82994342186E+00	-1.61940048817E-01
3.20852101140E+05	-2.45193147003E+01	1.35770680441E+02	4.41752356257E+00	-1.78122799419E+02	-3.48712671075E+01	1.32890300076E+02	-5.89650495429E+00	-3.02951397273E-01
3.21084018839E+05	-1.82925994178E+01	-5.06819718957E+01	4.28607922550E+00	-1.77111001357E+02	-2.53863019802E+01	1.47721919039E+02	-5.99182238069E+00	-1.17719368751E-01
3.21316104172E+05	-1.65941570905E+01	-1.95982924529E+01	4.29998890239E+00	-1.77721388373E+02	-3.95275058769E+01	3.14207240221E+00	-5.85995341202E+00	-4.01509620742E-01
3.21548357261E+05	-1.33605173830E+01	3.21806241391E+01	4.23750422492E+00	-1.78855860325E+02	-4.09528447009E+01	1.78492844942E+02	-5.87304136029E+00	-6.15252762658E-02
3.21780778226E+05	-1.85000808916E+01	-7.62609212892E+01	4.37548354604E+00	-1.77977143945E+02	-4.29872441760E+01	8.36221777861E+01	-5.91101357327E+00	-1.91313612169E-01
3.22013367189E+05	-1.88748856756E+01	-1.20599762983E+02	4.37086345945E+00	-1.77607036823E+02	-4.44477471564E+01	8.32384910931E+01	-5.90944570377E+00	-1.89750208561E-01
3.22246124272E+05	-2.68074561292E+01	1.43394201028E+02	4.37090528319E+00	-1.77994922262E+02	-5.75658904084E+01	4.73481769879E+01	-5.89410917012E+00	1.25258295653E-02
3.22479049596E+05	-2.45387105629E+01	1.27367331363E+02	4.42360339851E+00	-1.78204579212E+02	-4.84933698458E+01	1.56285503840E+02	-5.88645883226E+00	-3.80879516461E-01
3.22712143282E+05	-1.17139861787E+01	1.07562291205E+02	4.48029489171E+00	-1.79315107769E+02	-4.54643539339E+01	4.46961350520E+01	-5.92718006228E+00	-4.38461531692E-02
3.22945405453E+05	-2.31152030308E+01	-8.29845540452E+01	4.37634061100E+00	-1.78515109946E+02	-3.81944152363E+01	2.62051255149E+00	-5.88395651882E+00	-7.93571580892E-01
3.23178836230E+05	-2.02672470094E+01	5.92628963774E+01	4.38354473968E+00	-1.78584353115E+02	-4.84571054595E+01	1.59901858982E+02	-5.92098160941E+00	1.49107570311E-02
3.23412435735E+05	-2.61339789055E+01	6.45139045219E+01	4.45336178802E+00	-1.78383340138E+02	-4.01328558471E+01	-1.51067465998E+02	-5.90672229204E+00	-4.81500388789E-01
3.23646204090E+05	-1.82132539051E+01	8.00312926465E+01	4.41071930643E+00	-1.78115450780E+02	-4.58036279582E+01	6.53798957040E+01	-5.89497500026E+00	-3.39394397631E-01
3.23880141417E+05	-2.27680479420E+01	6.10886897605E+01	4.38671652907E+00	-1.78054635081E+02	-3.40545808995E+01	-5.10061024554E+01	-5.84396351830E+00	-6.69894668768E-01
3.24114247838E+05	-2.76506983722E+01	-1.03310103135E+02	4.31852159192E+00	-1.77568624954E+02	-3.78510522090E+01	-1.14058189482E+02	-5.91980921688E+00	-3.27176491239E-01
3.24348523475E+05	-1.12163175129E+01	1.14417728650E+02	4.45589538824E+00	-1.79016174337E+02	-2.97536498570E+01	-1.16964107583E+02	-5.89416873224E+00	-8.07962235893E-01
3.24582968451E+05	-2.71254498047E+01	7.27649925685E+01	4.31150152499E+00	-1.78412050936E+02	-4.22638974524E+01	1.32511696047E+02	-5.88517791307E+00	-1.18526653968E-01
3.24817582888E+05	-2.27692907277E+01	2.17000486048E+01	4.32669309722E+00	-1.78327360112E+02	-5.11264215381E+01	-1.15202473012E+02	-5.89943759372E+00	-1.79717287267E-01
3.25052366909E+05	-1.61777759345E+01	7.24692827884E+01	4.33301241418E+00	-1.78959576688E+02	-4.25656538578E+01	1.28534729208E+02	-5.86490823336E+00	-2.35468590398E-01
3.25287320635E+05	-1.57293544748E+01	-1.61589395126E+02	4.46861314298E+00	-1.77815567258E+02	-3.76925329240E+01	-1.10986459646E+02	-5.88822395030E+00	-3.79785535260E-01
3.25522444191E+05	-1.62824390109E+01	4.69313883258E+01	4.34740932574E+00	-1.78226215764E+02	-3.93349226677E+01	1.18741601965E+01	-5.85163368493E+00	-2.89866456536E-01
3.25757737698E+05	-2.21541627631E+01	-1.33050732297E+02	4.44397138077E+00	-1.78176657872E+02	-3.59582363349E+01	-1.55352610388E+02	-5.93294617082E+00	-6.45193606820E-02
3.25993201280E+05	-1.30718618774E+01	-1.40210242185E+02	4.54494627812E+00	-1.77684146432E+02	-3.09397013176E+01	-1.35774057045E+02	-5.96451543971E+00	-6.51039232788E-01
3.26228835058E+05	-9.61814904970E+00	2.22316381625E-01	4.13058970682E+00	-1.77643323612E+02	-4.31800582790E+01	1.33531542365E+02	-5.87306434759E+00	-1.91279647651E-01
