time	V(input_bode)	V(out)	V(out_fs)	V(out_preamp)
0.000000000000000e+00	0.000000e+00	4.000000e-08	0.000000e+00	0.000000e+00
8.002667555851951e-10	0.000000e+00	4.000000e-08	0.000000e+00	0.000000e+00
8.052684228076026e-10	5.426235e-07	4.000000e-08	1.256287e-11	-8.961576e-09
8.152717572524175e-10	2.575013e-06	4.000000e-08	2.806239e-10	-7.272795e-08
8.352784261420474e-10	1.103977e-05	4.000000e-08	2.358012e-09	-3.897549e-07
8.502834278092698e-10	2.008712e-05	4.000000e-08	5.590004e-09	-7.872759e-07
8.622874291430478e-10	2.844614e-05	4.000000e-08	1.485478e-08	-1.435479e-06
8.782927642547517e-10	4.055468e-05	4.000000e-08	4.105219e-08	-2.644829e-06
9.003001000333445e-10	5.843892e-05	4.000000e-08	9.612634e-08	-4.705256e-06
9.227075691897300e-10	7.696966e-05	4.000000e-08	2.366109e-07	-7.906435e-06
9.503167722574193e-10	9.939997e-05	4.000000e-08	5.046020e-07	-1.266859e-05
9.623207735911976e-10	1.088986e-04	4.000000e-08	6.972853e-07	-1.523916e-05
9.783261087029019e-10	1.211800e-04	4.000000e-08	1.027394e-06	-1.900976e-05
1.000333444481494e-09	1.375776e-04	4.000000e-08	1.568462e-06	-2.457160e-05
1.009936645548516e-09	1.450563e-04	4.000000e-08	1.888449e-06	-2.732056e-05
1.022740913637880e-09	1.559341e-04	4.000000e-08	2.394822e-06	-3.127407e-05
1.050350116705569e-09	1.817649e-04	4.000000e-08	3.654624e-06	-4.040218e-05
1.054351450483492e-09	1.859103e-04	4.000000e-08	3.884033e-06	-4.189148e-05
1.062354118039340e-09	1.945933e-04	4.000000e-08	4.371902e-06	-4.497730e-05
1.078359453151034e-09	2.138673e-04	4.000000e-08	5.471979e-06	-5.161182e-05
1.100366788929643e-09	2.431499e-04	4.000000e-08	7.151931e-06	-6.135905e-05
1.122774258086015e-09	2.739766e-04	4.000000e-08	9.368398e-06	-7.306033e-05
1.150383461153718e-09	3.115447e-04	4.000000e-08	1.253038e-05	-8.881304e-05
1.162387462487666e-09	3.274998e-04	4.000000e-08	1.420260e-05	-9.648129e-05
1.178392797599597e-09	3.481351e-04	4.000000e-08	1.667722e-05	-1.072685e-04
1.200400133377793e-09	3.756942e-04	4.000000e-08	2.036223e-05	-1.227197e-04
1.210003334444951e-09	3.873426e-04	4.000000e-08	2.222660e-05	-1.299731e-04
1.222807602534496e-09	4.023974e-04	4.000000e-08	2.493633e-05	-1.400219e-04
1.250416805601867e-09	4.336145e-04	4.000000e-08	3.124078e-05	-1.624344e-04
1.262420806931556e-09	4.465855e-04	4.000000e-08	3.442606e-05	-1.728316e-04
1.278426142037808e-09	4.632296e-04	4.000000e-08	3.902064e-05	-1.871315e-04
1.300433477825942e-09	4.852841e-04	4.000000e-08	4.573357e-05	-2.072720e-04
1.322840946974694e-09	5.065039e-04	4.000000e-08	5.367848e-05	-2.289796e-04
1.350450150050017e-09	5.311837e-04	4.000000e-08	6.433819e-05	-2.565544e-04
1.354451483860657e-09	5.349758e-04	4.000000e-08	6.604139e-05	-2.606955e-04
1.362454151481938e-09	5.430949e-04	4.000000e-08	6.953745e-05	-2.690732e-04
1.378459486724499e-09	5.619351e-04	4.000000e-08	7.689932e-05	-2.862538e-04
1.400466822274092e-09	5.916312e-04	4.000000e-08	8.750785e-05	-3.104619e-04
1.422874291613677e-09	6.242627e-04	4.000000e-08	9.966027e-05	-3.368579e-04
1.450483494498166e-09	6.656367e-04	4.000000e-08	1.156900e-04	-3.707610e-04
1.478492825447646e-09	7.067528e-04	4.000000e-08	1.340842e-04	-4.077838e-04
1.503701233116467e-09	7.423376e-04	4.000000e-08	1.518292e-04	-4.424343e-04
1.522907631481824e-09	7.683798e-04	4.000000e-08	1.667502e-04	-4.702551e-04
1.550516838946316e-09	8.044512e-04	4.000000e-08	1.893687e-04	-5.113232e-04
1.562520896810404e-09	8.213803e-04	4.000000e-08	2.000413e-04	-5.299398e-04
1.578526307295854e-09	8.470517e-04	4.000000e-08	2.149071e-04	-5.554223e-04
1.600533511170390e-09	8.863212e-04	4.000000e-08	2.360657e-04	-5.912382e-04
1.650550183394465e-09	9.780868e-04	4.000000e-08	2.901430e-04	-6.793027e-04
1.662552828000801e-09	1.000353e-03	4.000000e-08	3.044234e-04	-7.018120e-04
1.700566855618540e-09	1.074505e-03	4.000000e-08	3.523250e-04	-7.758729e-04
1.710168971303609e-09	1.094147e-03	4.000000e-08	3.653386e-04	-7.955285e-04
1.722971792217035e-09	1.121270e-03	4.000000e-08	3.833171e-04	-8.223991e-04
1.750583527842615e-09	1.182219e-03	4.000000e-08	4.233695e-04	-8.817081e-04
1.778668841024817e-09	1.243780e-03	4.000000e-08	4.678409e-04	-9.458771e-04
1.800600200066689e-09	1.290325e-03	4.000000e-08	5.041340e-04	-9.974847e-04
1.823068450612451e-09	1.338986e-03	4.000000e-08	5.441822e-04	-1.052961e-03
1.854357714399934e-09	1.409755e-03	4.000000e-08	6.028244e-04	-1.132799e-03
1.876802767054953e-09	1.462788e-03	4.000000e-08	6.482938e-04	-1.193124e-03
1.900633544514839e-09	1.520783e-03	4.000000e-08	6.983561e-04	-1.258773e-03
1.921582260326189e-09	1.570996e-03	4.000000e-08	7.454581e-04	-1.319162e-03
1.950650216738913e-09	1.637949e-03	4.000000e-08	8.136528e-04	-1.405228e-03
1.965015050438125e-09	1.669584e-03	4.000000e-08	8.495073e-04	-1.449356e-03
2.000666888962988e-09	1.743549e-03	4.000000e-08	9.423862e-04	-1.561428e-03
2.012158755922357e-09	1.766082e-03	4.000000e-08	9.741507e-04	-1.598660e-03
2.053748059042894e-09	1.841970e-03	4.000000e-08	1.094687e-03	-1.736325e-03
2.072135046177886e-09	1.872817e-03	4.000000e-08	1.151785e-03	-1.798984e-03
2.100700233411137e-09	1.917820e-03	4.000000e-08	1.243476e-03	-1.897561e-03
2.115409823119130e-09	1.939556e-03	4.000000e-08	1.293309e-03	-1.949309e-03
2.154639462890677e-09	1.993090e-03	4.000000e-08	1.431741e-03	-2.089110e-03
2.178174806423465e-09	2.022169e-03	4.000000e-08	1.520283e-03	-2.174555e-03
2.203871623663659e-09	2.051731e-03	4.000000e-08	1.620006e-03	-2.268601e-03
2.222699898489890e-09	2.071738e-03	4.000000e-08	1.696773e-03	-2.338315e-03
2.255751917305768e-09	2.104017e-03	4.000000e-08	1.836038e-03	-2.461526e-03
2.304768256085362e-09	2.145270e-03	4.000000e-08	2.056913e-03	-2.646431e-03
2.328776258752918e-09	2.162743e-03	4.000000e-08	2.171690e-03	-2.737738e-03
2.353984661553851e-09	2.179475e-03	4.000000e-08	2.295352e-03	-2.833876e-03
2.373191063687896e-09	2.190951e-03	4.000000e-08	2.393501e-03	-2.907382e-03
2.400800266755585e-09	2.205857e-03	4.000000e-08	2.537734e-03	-3.013190e-03
2.412804268089364e-09	2.213162e-03	4.000000e-08	2.602628e-03	-3.059298e-03
2.428809603201068e-09	2.225216e-03	4.000000e-08	2.690737e-03	-3.120932e-03
2.460420140046683e-09	2.254135e-03	4.000000e-08	2.868797e-03	-3.243174e-03
2.500833611203735e-09	2.297105e-03	4.000000e-08	3.107047e-03	-3.401221e-03
2.550850283427809e-09	2.349386e-03	4.000000e-08	3.418090e-03	-3.599848e-03
2.560453484494826e-09	2.359828e-03	4.000000e-08	3.480015e-03	-3.638377e-03
2.573257752584182e-09	2.375522e-03	4.000000e-08	3.563805e-03	-3.690035e-03
2.600866955651884e-09	2.414010e-03	4.000000e-08	3.746940e-03	-3.802042e-03
2.650883627875959e-09	2.489466e-03	4.000000e-08	4.093894e-03	-4.009310e-03
2.673291097032660e-09	2.522329e-03	4.000000e-08	4.255907e-03	-4.104077e-03
2.704901633876606e-09	2.565897e-03	4.000000e-08	4.489398e-03	-4.239061e-03
2.728909636536043e-09	2.596225e-03	4.000000e-08	4.672775e-03	-4.342992e-03
2.754118039345366e-09	2.625840e-03	4.000000e-08	4.868775e-03	-4.452817e-03
2.773324441472915e-09	2.646579e-03	4.000000e-08	5.022446e-03	-4.537254e-03
2.804934978358586e-09	2.677823e-03	4.000000e-08	5.280039e-03	-4.676906e-03
2.828942981221003e-09	2.698962e-03	4.000000e-08	5.481916e-03	-4.783729e-03
2.854151383820580e-09	2.719204e-03	4.000000e-08	5.697432e-03	-4.896230e-03
2.873357786110514e-09	2.733088e-03	4.000000e-08	5.866067e-03	-4.982274e-03
2.904968321994814e-09	2.753533e-03	4.000000e-08	6.148370e-03	-5.124135e-03
2.940122897440798e-09	2.772150e-03	4.000000e-08	6.472405e-03	-5.282735e-03
2.975277472886783e-09	2.787871e-03	4.000000e-08	6.806026e-03	-5.440834e-03
3.010432048332767e-09	2.800695e-03	4.000000e-08	7.149232e-03	-5.598432e-03
3.045586623778752e-09	2.810623e-03	4.000000e-08	7.502022e-03	-5.755530e-03
3.080741199224736e-09	2.817654e-03	4.000000e-08	7.864397e-03	-5.912127e-03
3.115895774670721e-09	2.821788e-03	4.000000e-08	8.236357e-03	-6.068223e-03
3.151050350116706e-09	2.823026e-03	4.000000e-08	8.617902e-03	-6.223819e-03
3.160652473679309e-09	2.823833e-03	4.000000e-08	8.723930e-03	-6.265983e-03
3.173455305096114e-09	2.826120e-03	4.000000e-08	8.866587e-03	-6.322107e-03
3.201067022340780e-09	2.834224e-03	4.000000e-08	9.176837e-03	-6.442992e-03
3.213103348807119e-09	2.839311e-03	4.000000e-08	9.314435e-03	-6.495608e-03
3.229151784095571e-09	2.847794e-03	4.000000e-08	9.499591e-03	-6.565791e-03
3.251083694564856e-09	2.861541e-03	4.000000e-08	9.754500e-03	-6.661756e-03
3.304843099506367e-09	2.895676e-03	4.000000e-08	1.039611e-02	-6.897754e-03
3.329576698373992e-09	2.909535e-03	4.000000e-08	1.069846e-02	-7.006802e-03
3.354310297241617e-09	2.921879e-03	4.000000e-08	1.100531e-02	-7.115729e-03
3.379043896109242e-09	2.932708e-03	4.000000e-08	1.131667e-02	-7.224535e-03
3.403777494976868e-09	2.942022e-03	4.000000e-08	1.163255e-02	-7.333220e-03
3.428511093844493e-09	2.949821e-03	4.000000e-08	1.195293e-02	-7.441783e-03
3.453244692712118e-09	2.956105e-03	4.000000e-08	1.227782e-02	-7.550226e-03
3.477978291579743e-09	2.960874e-03	4.000000e-08	1.260722e-02	-7.658548e-03
3.510365195611602e-09	2.965404e-03	4.000000e-08	1.304443e-02	-7.799649e-03
3.587648803402809e-09	2.964468e-03	4.000000e-08	1.412308e-02	-8.135369e-03
3.664932411194016e-09	2.956967e-03	4.000000e-08	1.523973e-02	-8.462463e-03
3.742216018985223e-09	2.942901e-03	4.000000e-08	1.639440e-02	-8.780931e-03
3.819499626776430e-09	2.922269e-03	4.000000e-08	1.758707e-02	-9.090772e-03
3.896783234567637e-09	2.895072e-03	4.000000e-08	1.881775e-02	-9.391987e-03
3.974066842358843e-09	2.861310e-03	4.000000e-08	2.008644e-02	-9.684576e-03
4.051350450150050e-09	2.820983e-03	4.000000e-08	2.139313e-02	-9.968539e-03
4.063354451488283e-09	2.816811e-03	4.000000e-08	2.159858e-02	-1.001135e-02
4.079359786605926e-09	2.815108e-03	4.000000e-08	2.187371e-02	-1.006821e-02
4.101367122374125e-09	2.817705e-03	4.000000e-08	2.225333e-02	-1.014619e-02
4.109083980369320e-09	2.819527e-03	4.000000e-08	2.238736e-02	-1.017345e-02
4.116800838364515e-09	2.821439e-03	4.000000e-08	2.252164e-02	-1.020069e-02
4.124517696359710e-09	2.823440e-03	4.000000e-08	2.265618e-02	-1.022793e-02
4.132234554354905e-09	2.825532e-03	4.000000e-08	2.279097e-02	-1.025516e-02
4.139951412350101e-09	2.827713e-03	4.000000e-08	2.292602e-02	-1.028237e-02
4.147668270345296e-09	2.829984e-03	4.000000e-08	2.306132e-02	-1.030958e-02
4.155385128340491e-09	2.832345e-03	4.000000e-08	2.319689e-02	-1.033677e-02
4.173105321645937e-09	2.837423e-03	4.000000e-08	2.350961e-02	-1.039922e-02
4.190825514951382e-09	2.841986e-03	4.000000e-08	2.382392e-02	-1.046155e-02
4.208545708256828e-09	2.846034e-03	4.000000e-08	2.413981e-02	-1.052377e-02
4.226265901562274e-09	2.849567e-03	4.000000e-08	2.445727e-02	-1.058587e-02
4.243986094867720e-09	2.852584e-03	4.000000e-08	2.477631e-02	-1.064786e-02
4.261706288173165e-09	2.855085e-03	4.000000e-08	2.509693e-02	-1.070973e-02
4.279426481478611e-09	2.857071e-03	4.000000e-08	2.541912e-02	-1.077149e-02
4.451483827942648e-09	2.851569e-03	4.000000e-08	2.862354e-02	-1.135929e-02
4.501500500166722e-09	2.846839e-03	4.000000e-08	2.958074e-02	-1.152517e-02
4.511104883537424e-09	2.847228e-03	4.000000e-08	2.976592e-02	-1.155677e-02
4.523910728031692e-09	2.849954e-03	4.000000e-08	3.001356e-02	-1.159886e-02
4.551517172390796e-09	2.861615e-03	4.000000e-08	3.054891e-02	-1.168959e-02
4.559118355364651e-09	2.865715e-03	4.000000e-08	3.069714e-02	-1.171462e-02
4.566719538338506e-09	2.869839e-03	4.000000e-08	3.084558e-02	-1.173966e-02
4.574320721312360e-09	2.873987e-03	4.000000e-08	3.099421e-02	-1.176472e-02
4.581921904286215e-09	2.878160e-03	4.000000e-08	3.114303e-02	-1.178980e-02
4.589523087260070e-09	2.882357e-03	4.000000e-08	3.129206e-02	-1.181490e-02
4.597124270233924e-09	2.886578e-03	4.000000e-08	3.144128e-02	-1.184002e-02
4.604725453207779e-09	2.890823e-03	4.000000e-08	3.159070e-02	-1.186515e-02
4.655835603499853e-09	2.916215e-03	4.000000e-08	3.260272e-02	-1.203475e-02
4.702588120628051e-09	2.933905e-03	4.000000e-08	3.353843e-02	-1.219122e-02
4.749340637756247e-09	2.947929e-03	4.000000e-08	3.448314e-02	-1.234673e-02
4.796093154884445e-09	2.958287e-03	4.000000e-08	3.543684e-02	-1.250127e-02
4.842845672012641e-09	2.964979e-03	4.000000e-08	3.639954e-02	-1.265486e-02
4.889598189140839e-09	2.968006e-03	4.000000e-08	3.737123e-02	-1.280749e-02
4.936350706269036e-09	2.967367e-03	4.000000e-08	3.835192e-02	-1.295915e-02
4.983103223397233e-09	2.963062e-03	4.000000e-08	3.934161e-02	-1.310986e-02
5.050062373258219e-09	2.952446e-03	4.000000e-08	4.077505e-02	-1.332201e-02
5.117021523119207e-09	2.938864e-03	4.000000e-08	4.222285e-02	-1.352860e-02
5.183980672980193e-09	2.922316e-03	4.000000e-08	4.368502e-02	-1.372961e-02
5.250939822841181e-09	2.902804e-03	4.000000e-08	4.516156e-02	-1.392504e-02
5.317898972702167e-09	2.880326e-03	4.000000e-08	4.665247e-02	-1.411491e-02
5.384858122563155e-09	2.854883e-03	4.000000e-08	4.815775e-02	-1.429920e-02
5.451817272424141e-09	2.826474e-03	4.000000e-08	4.967739e-02	-1.447792e-02
5.463396261237730e-09	2.822982e-03	4.000000e-08	4.994103e-02	-1.450804e-02
5.478834912989183e-09	2.821069e-03	4.000000e-08	5.029306e-02	-1.454802e-02
5.511097135699087e-09	2.823785e-03	4.000000e-08	5.103007e-02	-1.463124e-02
5.523448057100249e-09	2.826805e-03	4.000000e-08	5.131305e-02	-1.466302e-02
5.551850616872290e-09	2.836357e-03	4.000000e-08	5.196464e-02	-1.473610e-02
5.605819583944738e-09	2.856327e-03	4.000000e-08	5.320813e-02	-1.487539e-02
5.624547115395685e-09	2.862610e-03	4.000000e-08	5.364112e-02	-1.492389e-02
5.643274646846632e-09	2.868342e-03	4.000000e-08	5.407489e-02	-1.497236e-02
5.662002178297579e-09	2.873523e-03	4.000000e-08	5.450942e-02	-1.502082e-02
5.680729709748526e-09	2.878154e-03	4.000000e-08	5.494473e-02	-1.506925e-02
5.699457241199473e-09	2.882233e-03	4.000000e-08	5.538081e-02	-1.511766e-02
5.718184772650420e-09	2.885762e-03	4.000000e-08	5.581766e-02	-1.516604e-02
5.736912304101367e-09	2.888739e-03	4.000000e-08	5.625528e-02	-1.521440e-02
5.901967322440814e-09	2.895570e-03	4.000000e-08	6.014323e-02	-1.563440e-02
5.911570523507838e-09	2.896006e-03	4.000000e-08	6.037118e-02	-1.565838e-02
5.924374791597204e-09	2.898530e-03	4.000000e-08	6.067543e-02	-1.569034e-02
5.955985328442795e-09	2.911087e-03	4.000000e-08	6.142746e-02	-1.576930e-02
5.979993331110227e-09	2.924878e-03	4.000000e-08	6.200012e-02	-1.582962e-02
6.002000666888963e-09	2.939421e-03	4.000000e-08	6.252570e-02	-1.588515e-02
6.056018672891456e-09	2.974840e-03	4.000000e-08	6.382000e-02	-1.602327e-02
6.080026675561965e-09	2.989037e-03	4.000000e-08	6.439716e-02	-1.608539e-02
6.105235078359846e-09	3.002812e-03	4.000000e-08	6.500405e-02	-1.615087e-02
6.124441480496254e-09	3.012338e-03	4.000000e-08	6.546752e-02	-1.620104e-02
6.156052017327298e-09	3.026455e-03	4.000000e-08	6.623150e-02	-1.628385e-02
6.180060019923967e-09	3.035769e-03	4.000000e-08	6.681331e-02	-1.634696e-02
6.205268422798150e-09	3.044484e-03	4.000000e-08	6.742509e-02	-1.641331e-02
6.250083360978599e-09	3.057081e-03	4.000000e-08	6.851606e-02	-1.653138e-02
6.264659648332726e-09	3.060431e-03	4.000000e-08	6.887179e-02	-1.656978e-02
6.279235935686852e-09	3.063467e-03	4.000000e-08	6.922790e-02	-1.660814e-02
6.293812223040979e-09	3.066189e-03	4.000000e-08	6.958442e-02	-1.664644e-02
6.308388510395105e-09	3.068598e-03	4.000000e-08	6.994133e-02	-1.668470e-02
6.322964797749232e-09	3.070694e-03	4.000000e-08	7.029864e-02	-1.672291e-02
6.337541085103358e-09	3.072476e-03	4.000000e-08	7.065634e-02	-1.676106e-02
6.352117372457485e-09	3.073944e-03	4.000000e-08	7.101443e-02	-1.679917e-02
6.356118699430247e-09	3.074305e-03	6.666003e-02	7.111284e-02	-1.680961e-02
6.364121353375770e-09	3.074965e-03	2.666400e-01	7.130974e-02	-1.683046e-02
6.380126661266817e-09	3.075988e-03	3.999600e-01	7.170389e-02	-1.687208e-02
6.452150716905636e-09	3.077014e-03	3.999600e-01	7.348272e-02	-1.705795e-02
6.480161196618739e-09	3.077454e-03	3.999600e-01	7.417721e-02	-1.712940e-02
6.502167389129711e-09	3.078718e-03	3.999600e-01	7.472350e-02	-1.718535e-02
6.511770982174204e-09	3.080392e-03	3.999600e-01	7.496226e-02	-1.720970e-02
6.524575772900193e-09	3.084792e-03	3.999600e-01	7.528088e-02	-1.724219e-02
6.552184061353785e-09	3.099961e-03	3.999600e-01	7.596843e-02	-1.731237e-02
6.559786147557592e-09	3.105010e-03	3.999600e-01	7.615807e-02	-1.733182e-02
6.567388233761401e-09	3.110083e-03	3.999600e-01	7.634778e-02	-1.735131e-02
6.574990319965208e-09	3.115178e-03	3.999600e-01	7.653756e-02	-1.737083e-02
6.582592406169015e-09	3.120296e-03	3.999600e-01	7.672742e-02	-1.739040e-02
6.590194492372823e-09	3.125438e-03	3.999600e-01	7.691736e-02	-1.740999e-02
6.597796578576631e-09	3.130602e-03	3.999600e-01	7.710736e-02	-1.742963e-02
6.605398664780439e-09	3.135790e-03	3.999600e-01	7.729744e-02	-1.744930e-02
6.652217405801935e-09	3.165056e-03	3.999600e-01	7.847051e-02	-1.757157e-02
6.664503630914296e-09	3.173624e-03	3.999600e-01	7.877903e-02	-1.760396e-02
6.680885264397443e-09	3.187708e-03	3.999600e-01	7.919078e-02	-1.764741e-02
6.705510404722639e-09	3.212767e-03	3.999600e-01	7.981030e-02	-1.771319e-02
6.725168364902415e-09	3.234896e-03	3.999600e-01	8.030586e-02	-1.776662e-02
6.753994293799352e-09	3.269148e-03	3.999600e-01	8.103342e-02	-1.784584e-02
6.778403903489097e-09	3.297666e-03	3.999600e-01	8.165098e-02	-1.791436e-02
6.805057092152986e-09	3.327422e-03	3.999600e-01	8.232629e-02	-1.799006e-02
6.821795110225954e-09	3.345004e-03	3.999600e-01	8.275129e-02	-1.803835e-02
6.856747566184357e-09	3.379036e-03	3.999600e-01	8.364028e-02	-1.814021e-02
6.883528395101106e-09	3.402503e-03	3.999600e-01	8.432339e-02	-1.821943e-02
6.905871544111208e-09	3.420626e-03	3.999600e-01	8.489419e-02	-1.828596e-02
6.927296207244607e-09	3.436527e-03	3.999600e-01	8.544290e-02	-1.835034e-02
6.955174060897502e-09	3.455485e-03	3.999600e-01	8.615798e-02	-1.843449e-02
6.972313791404221e-09	3.466057e-03	3.999600e-01	8.659875e-02	-1.848656e-02
7.006904706172248e-09	3.485226e-03	3.999600e-01	8.748995e-02	-1.859203e-02
7.109486175528197e-09	3.518806e-03	3.999600e-01	9.015398e-02	-1.891338e-02
7.212067644884146e-09	3.540141e-03	3.999600e-01	9.283839e-02	-1.922688e-02
7.314649114240095e-09	3.549229e-03	3.999600e-01	9.554318e-02	-1.953251e-02
7.417230583596043e-09	3.546071e-03	3.999600e-01	9.826835e-02	-1.983028e-02
7.519812052951994e-09	3.530667e-03	3.999600e-01	1.010139e-01	-2.012019e-02
7.622393522307941e-09	3.503017e-03	3.999600e-01	1.037798e-01	-2.040223e-02
7.724974991663891e-09	3.463121e-03	3.999600e-01	1.065661e-01	-2.067642e-02
7.752584194731576e-09	3.453226e-03	3.999600e-01	1.073165e-01	-2.074667e-02
7.764588196065327e-09	3.449266e-03	3.999600e-01	1.076430e-01	-2.077683e-02
7.780593531176995e-09	3.444799e-03	3.999600e-01	1.080787e-01	-2.081678e-02
7.802600866955652e-09	3.439694e-03	3.999600e-01	1.086779e-01	-2.087145e-02
7.812204068022653e-09	3.438675e-03	3.999600e-01	1.089396e-01	-2.089510e-02
7.825008336111987e-09	3.439500e-03	3.999600e-01	1.092886e-01	-2.092658e-02
7.852617539179727e-09	3.447001e-03	3.999600e-01	1.100414e-01	-2.099440e-02
7.864621540514153e-09	3.452548e-03	3.999600e-01	1.103690e-01	-2.102394e-02
7.880626875626721e-09	3.461940e-03	3.999600e-01	1.108059e-01	-2.106347e-02
7.902634211403802e-09	3.477412e-03	3.999600e-01	1.114068e-01	-2.111802e-02
7.912237412471344e-09	3.485346e-03	3.999600e-01	1.116692e-01	-2.114203e-02
7.925041680561398e-09	3.497415e-03	3.999600e-01	1.120192e-01	-2.117429e-02
7.952650883627877e-09	3.527342e-03	3.999600e-01	1.127740e-01	-2.124437e-02
8.002667555851952e-09	3.583682e-03	3.999600e-01	1.141432e-01	-2.137489e-02
8.025075024979307e-09	3.607365e-03	3.999600e-01	1.147573e-01	-2.143484e-02
8.052684228076027e-09	3.634694e-03	3.999600e-01	1.155145e-01	-2.150946e-02
8.064688229783041e-09	3.646853e-03	3.999600e-01	1.158440e-01	-2.154235e-02
8.080693565392394e-09	3.664291e-03	3.999600e-01	1.162837e-01	-2.158658e-02
8.102700900300100e-09	3.689836e-03	3.999600e-01	1.168884e-01	-2.164781e-02
8.112304101665711e-09	3.701779e-03	3.999600e-01	1.171525e-01	-2.167492e-02
8.125108370153194e-09	3.718767e-03	3.999600e-01	1.175049e-01	-2.171143e-02
8.152717572524175e-09	3.758188e-03	3.999600e-01	1.182651e-01	-2.179090e-02
8.180726888068407e-09	3.798489e-03	3.999600e-01	1.190375e-01	-2.187372e-02
