# Hz S DB R 50
! CMT, M5065, 19127446, 24.2.4/2
! Date: 12/3/2024 4:15:31 PM
! Data: Format (Calibration Info)
! Freq	S11:dB/Ang(F2)	S21:dB/Ang(F2)	S12:dB/Ang(F2)	S22:dB/Ang(F2)
3.00000000000E+05	-5.55195381584E+00	1.75963684109E+02	-7.07002165887E-01	9.28052375520E+01	-5.75214476428E+01	6.29238014545E+01	-2.97837474107E+01	-3.57595754531E+00
3.49972219135E+05	-6.12714511169E+00	1.77170398684E+02	6.16895472254E-01	9.07948352418E+01	-4.77068603381E+01	-2.06058917255E+01	-2.98006301711E+01	3.39178386157E+00
3.99944438271E+05	-5.65934895516E+00	1.78255737097E+02	1.73867571101E+00	9.00261543752E+01	-5.33357419429E+01	1.07837471262E+02	-3.02412272371E+01	2.29351370481E+00
4.49916657406E+05	-5.43335778791E+00	-1.79149385921E+02	2.76093347874E+00	8.87142535448E+01	-5.14193944706E+01	2.22393757744E+00	-2.98529506685E+01	5.97718697001E+00
4.99888876542E+05	-5.58073471580E+00	-1.79621929616E+02	3.64749246491E+00	8.78369505701E+01	-4.29522003086E+01	1.42277477223E+02	-3.05573175610E+01	7.88517672576E-01
5.49861095677E+05	-5.66824074241E+00	-1.77775804977E+02	4.51258325389E+00	8.71385675390E+01	-4.70791180813E+01	1.13477781671E+02	-2.99468221993E+01	2.03412115118E+00
5.99833314813E+05	-5.94218816881E+00	-1.79957970684E+02	5.34071021910E+00	8.66129886807E+01	-4.36838156799E+01	-2.01147520850E+01	-2.90559969800E+01	4.02157279419E+00
6.49805533948E+05	-4.92606042957E+00	-1.75009255460E+02	5.90023886336E+00	8.58551878977E+01	-4.61187644114E+01	6.24242660969E+01	-3.09165849848E+01	6.80520740114E+00
6.99777753084E+05	-6.00145525801E+00	-1.76827985252E+02	6.71046191475E+00	8.48241454345E+01	-4.97835155867E+01	8.14150724562E+01	-3.05102674266E+01	2.75000907334E+00
7.49749972219E+05	-6.46914892561E+00	-1.72786394320E+02	7.38542920151E+00	8.45569685893E+01	-5.29812729100E+01	3.94642619466E+01	-3.00703857072E+01	6.75606045880E+00
7.99722191355E+05	-7.14362221867E+00	-1.78944531049E+02	8.02294103070E+00	8.43716695827E+01	-4.84761424703E+01	-1.05871779848E+02	-2.97134850377E+01	2.62193055334E+00
8.49694410490E+05	-5.97125535055E+00	-1.73944904089E+02	8.41793763084E+00	8.28331062925E+01	-4.51138993487E+01	2.98744912434E+01	-3.00937551736E+01	9.96494107224E+00
8.99666629626E+05	-7.44603723422E+00	-1.72160851216E+02	9.05880758118E+00	8.24189774774E+01	-4.65757094621E+01	9.25174916981E+01	-3.13968546308E+01	7.33617451038E+00
9.49638848761E+05	-5.36738868939E+00	1.79763358652E+02	9.20354740746E+00	8.37093555104E+01	-5.00983978954E+01	-1.57937017219E+02	-3.02999233934E+01	4.19070529488E+00
9.99611067896E+05	-5.88598632287E+00	-1.76133716002E+02	9.73873636641E+00	8.24093321624E+01	-3.72651439380E+01	-1.48733973083E+02	-2.91069525603E+01	-1.02331609715E+01
1.04958328703E+06	-5.45660827440E+00	1.78324706623E+02	1.01460200645E+01	8.25238366298E+01	-4.45370695561E+01	-1.38748606660E+02	-2.93494366906E+01	3.80517070908E-03
1.09955550617E+06	-6.80361597983E+00	1.76158885443E+02	1.07009826900E+01	8.22828923971E+01	-5.10895630975E+01	1.78366536052E+02	-3.09268613593E+01	2.35421823316E+00
1.14952772530E+06	-6.51435437411E+00	1.78407297082E+02	1.10653598922E+01	8.13584260885E+01	-4.21589330117E+01	-8.70265505613E+00	-2.90113578677E+01	1.64353788812E+01
1.19949994444E+06	-5.45998615558E+00	1.73947964405E+02	1.13216378924E+01	8.18794128121E+01	-4.51103821459E+01	1.52622950700E+02	-3.09646001840E+01	1.88850391317E+00
1.24947216357E+06	-4.86835052296E+00	-1.78761650495E+02	1.15210380663E+01	8.04389724965E+01	-4.79572745577E+01	2.28314317414E+01	-3.02424113336E+01	1.64969795714E+01
1.29944438271E+06	-6.01957527758E+00	-1.76879882189E+02	1.20608574273E+01	8.03108336544E+01	-4.66380808844E+01	1.90243625756E+01	-3.03961923070E+01	1.78660092108E+01
1.34941660184E+06	-5.85709941346E+00	-1.78692331825E+02	1.23610155851E+01	7.97906861166E+01	-4.81799276395E+01	-2.72992307468E+01	-2.93395539383E+01	1.76185355391E+01
1.39938882098E+06	-5.60947836484E+00	-1.73625768529E+02	1.26209798495E+01	7.82697983742E+01	-4.42893635193E+01	-2.18521722872E+00	-2.91979904088E+01	1.56731123811E+01
1.44936104012E+06	-7.07827737480E+00	-1.77027167016E+02	1.30902843471E+01	7.84678308969E+01	-4.86463626269E+01	-1.47612091124E+02	-2.94098956844E+01	5.30692426989E-01
1.49933325925E+06	-5.61921726568E+00	-1.78652902242E+02	1.31992975486E+01	7.80023847395E+01	-5.36064244673E+01	-9.99857032665E+01	-2.91984534827E+01	7.86054416714E+00
1.54930547839E+06	-5.09167605727E+00	-1.79971457876E+02	1.34789952864E+01	7.77761203253E+01	-4.49682127576E+01	-5.43913778769E+01	-2.83454996447E+01	8.11795802006E+00
1.59927769752E+06	-5.19953321023E+00	-1.77849237696E+02	1.37122194610E+01	7.73680473164E+01	-4.11242995425E+01	1.43892329336E+02	-3.28627674077E+01	1.19411891449E+01
1.64924991666E+06	-6.30934069751E+00	-1.79961773703E+02	1.41251155205E+01	7.78775022298E+01	-4.04871721978E+01	1.68198388851E+02	-3.19489948504E+01	-3.49116151567E+00
1.69922213579E+06	-6.22927028591E+00	-1.76238260632E+02	1.43125150866E+01	7.60074856645E+01	-4.02857479131E+01	1.39326795178E+02	-3.63290499085E+01	-4.93133558109E+01
1.74919435493E+06	-5.33450755879E+00	-1.79221766826E+02	1.45342463028E+01	7.61121462231E+01	-4.80716637608E+01	-4.83014882553E+01	-2.87259447535E+01	1.52044265130E+01
1.79916657406E+06	-5.82323262084E+00	-1.73026219888E+02	1.48180743410E+01	7.49571777446E+01	-4.09396761228E+01	-8.30393162645E+01	-2.73464522610E+01	5.08183035002E+00
1.84913879320E+06	-5.66705368920E+00	-1.77718470213E+02	1.50402858272E+01	7.51268372767E+01	-5.50059060040E+01	-6.09280477544E+01	-2.96189667259E+01	9.98253481293E+00
1.89911101233E+06	-5.70834731357E+00	-1.73999924941E+02	1.52893803901E+01	7.44297124998E+01	-5.47487615094E+01	-4.17470446012E+00	-2.96167349349E+01	1.24859995999E+01
1.94908323147E+06	-5.79519239180E+00	-1.73119174971E+02	1.55399250929E+01	7.40590217067E+01	-4.35294123155E+01	-1.74781245578E+02	-3.07119043449E+01	-2.23141049962E+00
1.99905545061E+06	-5.52267518119E+00	-1.79995436195E+02	1.57455435508E+01	7.47546935614E+01	-4.50897516021E+01	1.13219497434E+02	-3.29991042722E+01	7.83207093551E+00
2.04902766974E+06	-6.04609474397E+00	-1.71204935537E+02	1.59372785267E+01	7.23149741921E+01	-4.39505163716E+01	-1.16882654301E+02	-2.99527421415E+01	3.69544124928E-01
2.09899988888E+06	-6.98802489675E+00	-1.78187372871E+02	1.62871256877E+01	7.30591459162E+01	-3.87142293531E+01	1.47598314611E+02	-3.56173983432E+01	-1.03917209898E+01
2.14897210801E+06	-5.73247968481E+00	-1.72013591898E+02	1.63204093741E+01	7.20051352763E+01	-4.67313707266E+01	-3.04529711700E+01	-2.73133258540E+01	1.64798062876E+01
2.19894432715E+06	-6.50717199152E+00	-1.74500794290E+02	1.66522230996E+01	7.17125276770E+01	-4.86788020939E+01	-1.51006578816E+01	-2.81511392050E+01	2.03908174165E+01
2.24891654628E+06	-5.49925842808E+00	1.77028986333E+02	1.67424672234E+01	7.27651341955E+01	-5.80466676243E+01	5.69065902981E+01	-3.01305903613E+01	1.85712791123E+01
2.29888876542E+06	-5.66589278196E+00	-1.74993731419E+02	1.69674540079E+01	7.12413577062E+01	-4.21359526493E+01	-1.32995048200E+02	-2.85465975147E+01	-6.88917266174E+00
2.34886098455E+06	-5.82123417953E+00	-1.75955023914E+02	1.71351122148E+01	7.05276341278E+01	-4.78475276882E+01	1.45959182232E+02	-3.13826001705E+01	1.17692119963E+01
2.39883320369E+06	-4.91106112369E+00	-1.76039542467E+02	1.71802997594E+01	7.05723276523E+01	-4.74172317569E+01	6.66155189359E+01	-2.87088064917E+01	2.90798040947E+01
2.44880542282E+06	-5.04692835192E+00	-1.76416397370E+02	1.74055011500E+01	7.03133492444E+01	-6.36333434358E+01	-4.92786837009E+01	-2.95881872558E+01	1.71136275736E+01
2.49877764196E+06	-5.58213819982E+00	1.73483149575E+02	1.77021676127E+01	7.09127879895E+01	-4.41562932802E+01	-2.09448918012E+01	-2.73016982006E+01	2.30118547474E+01
2.54874986110E+06	-5.13103481408E+00	-1.77981841530E+02	1.77232678173E+01	6.95017488811E+01	-4.75408712263E+01	8.25335526298E+01	-3.09403140284E+01	2.92164496557E+01
2.59872208023E+06	-6.11271120486E+00	-1.78212937546E+02	1.80714763895E+01	6.90063680637E+01	-4.30291108452E+01	2.78225261752E+01	-2.92289630698E+01	3.77483035813E+01
2.64869429937E+06	-5.42474142675E+00	1.79730016818E+02	1.81162970199E+01	6.88810844705E+01	-4.69090882477E+01	-1.33797292497E+02	-2.93334467369E+01	9.75587479776E-02
2.69866651850E+06	-6.56259043265E+00	1.79042192680E+02	1.85030056410E+01	6.85789617219E+01	-5.01383724055E+01	-3.17493286830E+01	-2.84045469609E+01	2.48200391872E+01
2.74863873764E+06	-5.50111509351E+00	1.77535487045E+02	1.85215014978E+01	6.83192295121E+01	-4.61703010051E+01	-1.46484562353E+02	-3.11934150510E+01	-3.54033502862E+00
2.79861095677E+06	-6.71375792075E+00	-1.75081068271E+02	1.87821755094E+01	6.72106390319E+01	-5.21130000054E+01	1.03263138944E+02	-3.12619091075E+01	2.23084896811E+01
2.84858317591E+06	-5.48162049613E+00	-1.76693236600E+02	1.87785008947E+01	6.70125391194E+01	-5.30428573599E+01	2.44302687840E+01	-2.89829664666E+01	1.82362891282E+01
2.89855539504E+06	-5.11874446800E+00	-1.78482706358E+02	1.88783568201E+01	6.68702898686E+01	-4.50398622786E+01	-5.18778377725E+01	-2.72796038244E+01	1.35142315754E+01
2.94852761418E+06	-4.84816452120E+00	-1.79391085452E+02	1.89732577760E+01	6.64337632479E+01	-4.66886855943E+01	2.75324132829E+01	-2.89551825735E+01	3.16774405556E+01
2.99849983331E+06	-5.60577025127E+00	-1.72648757961E+02	1.92435843243E+01	6.52433697188E+01	-4.31358687399E+01	2.35978504248E+01	-2.83332462253E+01	3.80538873542E+01
3.04847205245E+06	-5.51331153576E+00	-1.76682181132E+02	1.93866487177E+01	6.55362088808E+01	-5.02789383885E+01	7.38145379845E+01	-3.01896026266E+01	2.95974232499E+01
3.09844427159E+06	-4.84619378184E+00	-1.77328529726E+02	1.94049255091E+01	6.49226965660E+01	-5.10817006525E+01	-1.35355791556E+02	-2.95428138562E+01	3.08452732097E+00
3.14841649072E+06	-5.40679949976E+00	-1.76315748732E+02	1.96543964583E+01	6.45238904620E+01	-4.36502617360E+01	-1.60129136182E+02	-3.18610439862E+01	-1.59017917491E+01
3.19838870986E+06	-5.50640542708E+00	-1.75993399373E+02	1.97604371767E+01	6.39924096736E+01	-4.34713900623E+01	1.16922595705E+02	-3.27393522996E+01	4.70047469413E+01
3.24836092899E+06	-5.16883644701E+00	-1.76217344852E+02	1.98740445298E+01	6.37912586677E+01	-4.66320977144E+01	-1.74529590299E+02	-3.27084711472E+01	1.08918608940E+01
3.29833314813E+06	-5.67573737038E+00	-1.78100879126E+02	2.00900449051E+01	6.33851318678E+01	-4.88686362594E+01	-9.86106874154E+01	-2.82496339366E+01	8.38378430162E+00
3.34830536726E+06	-5.96544952787E+00	-1.74690657162E+02	2.02454969292E+01	6.26648696203E+01	-4.39889366917E+01	-2.62347572359E+01	-2.62558553882E+01	2.25645314689E+01
3.39827758640E+06	-6.17597652757E+00	-1.72548504889E+02	2.04098295720E+01	6.18051595989E+01	-4.76850531274E+01	-7.02115366576E+01	-2.80263428772E+01	1.12125538715E+01
3.44824980553E+06	-6.18354758533E+00	-1.73257044115E+02	2.05615280607E+01	6.15940753639E+01	-5.49091660256E+01	-1.19649843256E+02	-2.99981148643E+01	2.44997108029E+01
3.49822202467E+06	-5.29527368241E+00	-1.76973444939E+02	2.05236184368E+01	6.16686569057E+01	-5.69407270758E+01	-7.37232907608E+01	-2.93655125213E+01	1.52703375458E+01
3.54819424380E+06	-6.75619795430E+00	1.73763918411E+02	2.08953087347E+01	6.20436303148E+01	-5.00595251081E+01	-7.55110782721E+01	-2.84029410279E+01	1.21963952689E+01
3.59816646294E+06	-5.96638376953E+00	-1.75700251635E+02	2.08838856253E+01	6.07373270017E+01	-4.88183659296E+01	1.42664867780E+02	-3.34819349160E+01	3.33355372320E+01
3.64813868208E+06	-6.18814777522E+00	-1.79349764596E+02	2.10194383370E+01	6.05389797390E+01	-4.50878144004E+01	5.62730812271E+01	-2.79970629872E+01	4.60993361041E+01
3.69811090121E+06	-6.21228263959E+00	-1.72264819853E+02	2.11330018276E+01	5.94225459614E+01	-5.17817705059E+01	-1.53074885478E+02	-3.16794555906E+01	1.24630725139E+01
3.74808312035E+06	-5.69942032951E+00	-1.76718725194E+02	2.11920170789E+01	5.97272413689E+01	-4.26772350469E+01	1.41728223952E+02	-3.79294553959E+01	3.88942150673E+01
3.79805533948E+06	-5.11855848099E+00	-1.79128345500E+02	2.12697020879E+01	5.96993877228E+01	-5.54045857740E+01	3.25594439540E+01	-2.96514877083E+01	2.92125393798E+01
3.84802755862E+06	-4.80320444169E+00	-1.70686342316E+02	2.12881593503E+01	5.81824288494E+01	-4.49710993753E+01	-2.66486552677E+01	-2.59147439557E+01	1.77478073673E+01
3.89799977775E+06	-6.33137185812E+00	1.79456898606E+02	2.16386489034E+01	5.86849522308E+01	-4.18505166770E+01	-1.60878634207E+02	-3.25921324995E+01	-2.25612642165E+01
3.94797199689E+06	-5.24788925133E+00	-1.76721399737E+02	2.16169540662E+01	5.81618332059E+01	-5.89200149455E+01	-5.92075344188E+01	-2.86669664573E+01	2.32264914855E+01
3.99794421602E+06	-4.99416673885E+00	-1.73456031524E+02	2.16505751472E+01	5.71627504593E+01	-5.72895853483E+01	8.63749949866E+01	-3.01294867078E+01	3.41394032038E+01
4.04791643516E+06	-6.33502537192E+00	-1.77501058770E+02	2.19305750354E+01	5.70541877545E+01	-4.86469967980E+01	-8.44278121935E+01	-2.77147347167E+01	8.22694214146E+00
4.09788865429E+06	-6.11529221991E+00	-1.76219725850E+02	2.20293498471E+01	5.66208606141E+01	-5.08946910083E+01	3.34982465898E+01	-2.84310211709E+01	4.05343644915E+01
4.14786087343E+06	-5.40269252405E+00	-1.71963068700E+02	2.20034407449E+01	5.59536199632E+01	-4.03956201164E+01	-6.43783592765E+01	-2.45588879828E+01	1.37558287649E+00
4.19783309257E+06	-5.30632634941E+00	-1.79368029686E+02	2.21619527042E+01	5.63901398489E+01	-4.74521112255E+01	7.52479522742E+01	-2.91397217162E+01	5.96337015445E+01
4.24780531170E+06	-5.62663710509E+00	-1.68577610007E+02	2.22739478053E+01	5.47135901297E+01	-4.12711121914E+01	1.19285629207E+02	-3.10387230884E+01	8.07180514313E+01
4.29777753084E+06	-5.79585529282E+00	1.78417006160E+02	2.24319755284E+01	5.56555429367E+01	-5.29507159031E+01	1.19126652564E+02	-3.10321387535E+01	4.08928288527E+01
4.34774974997E+06	-4.79860188999E+00	-1.72267278079E+02	2.23846274270E+01	5.42189338756E+01	-4.37375428904E+01	1.32933114137E+02	-3.35049430044E+01	5.92310681665E+01
4.39772196911E+06	-5.66492172552E+00	-1.77340331994E+02	2.25806779991E+01	5.45106084516E+01	-5.86908112056E+01	6.38276864202E+01	-2.86060634989E+01	3.28280307468E+01
4.44769418824E+06	-5.21451204919E+00	-1.74390609117E+02	2.26209831208E+01	5.37685341604E+01	-4.66146333504E+01	1.19301454871E+02	-3.06539242751E+01	5.38809426022E+01
4.49766640738E+06	-5.54713356947E+00	1.78720167073E+02	2.27616630596E+01	5.40326545666E+01	-6.13227066727E+01	6.27825323905E+01	-2.89103964187E+01	3.19913477117E+01
4.54763862651E+06	-4.54041650385E+00	-1.72855818741E+02	2.27017791148E+01	5.28427781703E+01	-4.28676863739E+01	4.55859162151E+01	-2.57060055927E+01	5.48855391806E+01
4.59761084565E+06	-5.17251275619E+00	-1.77286101147E+02	2.29403305989E+01	5.29163435386E+01	-4.65755306390E+01	-5.81480922986E+01	-2.65725755184E+01	1.57740665291E+01
4.64758306478E+06	-5.98819171726E+00	1.78068229889E+02	2.31497211349E+01	5.28414442873E+01	-5.11808537955E+01	-1.57431533191E+02	-3.08414942147E+01	1.72782756804E+01
4.69755528392E+06	-5.84458700301E+00	-1.71869951164E+02	2.31960696418E+01	5.11820109379E+01	-5.33426816723E+01	-6.93662851206E+01	-2.82227874233E+01	2.02446080324E+01
4.74752750306E+06	-6.41211912288E+00	-1.73516846521E+02	2.33404188371E+01	5.10007832904E+01	-4.86915306138E+01	1.18790877889E+02	-3.06383274982E+01	5.15854880546E+01
4.79749972219E+06	-6.30883532697E+00	-1.73724969808E+02	2.34172193854E+01	5.06566467977E+01	-4.76560735788E+01	-5.35579140612E+01	-2.63609532532E+01	1.65814059363E+01
4.84747194133E+06	-5.77473021927E+00	-1.78505383132E+02	2.34617552433E+01	5.09982155735E+01	-4.07271747775E+01	-1.52372060302E+02	-3.87635731498E+01	-5.05868572900E+01
4.89744416046E+06	-5.72146342020E+00	-1.76199526007E+02	2.35636853004E+01	5.01701496873E+01	-4.80962172578E+01	-1.76893649865E+01	-2.50031326913E+01	2.44188733953E+01
4.94741637960E+06	-5.94507298033E+00	-1.75573570581E+02	2.36586655900E+01	4.96344053911E+01	-5.25818989198E+01	1.67315978559E+02	-3.21293663456E+01	3.43525468226E+01
4.99738859873E+06	-5.21581199502E+00	-1.73818291361E+02	2.36536933799E+01	4.90352555240E+01	-5.55867424500E+01	1.79839706799E+02	-3.13162771654E+01	2.79181083993E+01
5.04736081787E+06	-5.79181687905E+00	1.79633616376E+02	2.38168429370E+01	4.94226197285E+01	-4.71414303059E+01	1.40167327854E+02	-3.22624089503E+01	5.47058382231E+01
5.09733303700E+06	-4.94525696037E+00	-1.74038855224E+02	2.37648691348E+01	4.85714990679E+01	-6.22845832518E+01	-1.45909416793E+02	-2.96704611129E+01	2.49962736552E+01
5.14730525614E+06	-5.57562532664E+00	1.79736236699E+02	2.39784294081E+01	4.85173095832E+01	-5.34410021749E+01	-3.60131835551E+01	-2.77413223657E+01	2.34472911555E+01
5.19727747528E+06	-5.70934896661E+00	1.77973890010E+02	2.41070430073E+01	4.83092201537E+01	-6.13565072474E+01	-6.28509599719E+01	-2.77351895170E+01	3.03087857312E+01
5.24724969441E+06	-5.40687071128E+00	-1.71807696466E+02	2.40958258831E+01	4.67432199483E+01	-6.37898463696E+01	-1.35157841116E+01	-2.78777511290E+01	2.53837463126E+01
5.29722191355E+06	-5.89380067198E+00	-1.75536608869E+02	2.42612813532E+01	4.67948318775E+01	-5.22573828566E+01	-1.06698372808E+02	-2.93786817223E+01	1.67925584231E+01
5.34719413268E+06	-4.68710099053E+00	-1.74000125996E+02	2.41775974232E+01	4.62469957449E+01	-5.09526842648E+01	1.55045953379E+01	-2.63802747947E+01	3.90596117525E+01
5.39716635182E+06	-5.47543848840E+00	-1.70858328536E+02	2.43366476201E+01	4.53869729410E+01	-4.78617065537E+01	-1.75584701588E+02	-3.40856525272E+01	3.62378521170E+01
5.44713857095E+06	-5.76667327202E+00	-1.73694330625E+02	2.44675189999E+01	4.51042278437E+01	-5.20938728238E+01	1.03020696866E+02	-2.86164820922E+01	4.93325515674E+01
5.49711079009E+06	-6.21381554768E+00	1.77715415880E+02	2.46503943885E+01	4.58443846527E+01	-5.06142265747E+01	-1.35866268689E+02	-3.13577277686E+01	2.31742612751E+01
5.54708300922E+06	-6.77875450261E+00	-1.76678035869E+02	2.47334430126E+01	4.46371778005E+01	-4.73723986563E+01	-1.09887016195E+02	-2.93777059205E+01	5.12636956306E+00
5.59705522836E+06	-5.62227930372E+00	-1.72023533837E+02	2.46894817668E+01	4.38284262527E+01	-4.57963426113E+01	-1.58962862554E+02	-3.31615135245E+01	1.50148060577E+01
5.64702744749E+06	-5.10673486583E+00	-1.74705824144E+02	2.47047411789E+01	4.40058651239E+01	-4.61191777640E+01	-1.71998064421E+02	-3.58441254953E+01	4.33257106722E+01
5.69699966663E+06	-5.41171498938E+00	-1.76697409042E+02	2.48176587986E+01	4.35048848668E+01	-5.29726398325E+01	4.38751439611E+01	-2.67432507101E+01	4.32312484932E+01
5.74697188577E+06	-5.02947993122E+00	-1.69998093059E+02	2.47064074689E+01	4.22746474789E+01	-5.00293176193E+01	-1.30454370932E+02	-2.78639812286E+01	-2.31276183325E+01
5.79694410490E+06	-4.57287522610E+00	-1.74171420343E+02	2.48516752643E+01	4.26496145155E+01	-5.23005555834E+01	5.63593300642E+01	-2.69161443230E+01	4.62996600591E+01
5.84691632404E+06	-5.31014024845E+00	-1.77442383722E+02	2.50454993930E+01	4.25436810881E+01	-4.64213112102E+01	2.82126359086E+00	-2.49902869283E+01	3.41984428759E+01
5.89688854317E+06	-5.53534374559E+00	-1.71831627126E+02	2.51280670308E+01	4.13859818013E+01	-5.18638683519E+01	-1.04756847688E+01	-2.63541155915E+01	3.21120263892E+01
5.94686076231E+06	-5.89097571042E+00	-1.74586625746E+02	2.52737393923E+01	4.12332400258E+01	-4.27568300653E+01	6.97455333471E+01	-2.44164649977E+01	6.49434401033E+01
5.99683298144E+06	-5.17462782049E+00	-1.73323559237E+02	2.52475775103E+01	4.07067216466E+01	-5.00697018469E+01	-8.97096413399E+01	-2.83381786720E+01	1.44844274816E+01
6.04680520058E+06	-5.52749718151E+00	-1.74067969076E+02	2.53565097578E+01	4.03233874931E+01	-4.87565268834E+01	-1.31796694865E+02	-3.21534723279E+01	1.76290688892E+01
6.09677741971E+06	-5.46192262005E+00	-1.77705868595E+02	2.54396907948E+01	4.04101489653E+01	-4.51948185892E+01	1.58478792992E+02	-3.22426153816E+01	7.58205054966E+01
6.14674963885E+06	-5.37160827970E+00	-1.73636205917E+02	2.54739249447E+01	3.94205454925E+01	-4.51857227886E+01	-1.50030798547E+02	-3.63761448700E+01	1.35471654808E+01
