# Hz S DB R 50
! CMT, M5065, 19127446, 24.2.4/2
! Date: 12/3/2024 4:13:33 PM
! Data: Format (Calibration Info)
! Freq	S11:dB/Ang(F2)	S21:dB/Ang(F2)	S12:dB/Ang(F2)	S22:dB/Ang(F2)
3.00000000000E+05	-5.65581026985E+00	-1.71243309931E+02	3.23232485550E+01	7.98823931691E+01	-5.04397223117E+01	1.78902183483E+02	-3.10122244888E+01	-8.56881151486E+01
3.49972219135E+05	-5.93854810968E+00	-1.79047750730E+02	3.35424612213E+01	7.47223841982E+01	-4.12902501405E+01	-1.89115629621E+01	-1.86633280062E+01	3.94952963448E+01
3.99944438271E+05	-5.77773416105E+00	-1.73989651353E+02	3.44461719255E+01	6.85096267069E+01	-6.54676554893E+01	-7.35819421941E+01	-3.14032929651E+01	-1.46684509299E+01
4.49916657406E+05	-6.16926131543E+00	-1.75758036346E+02	3.52879843456E+01	6.40421900182E+01	-4.20465812179E+01	-1.62087902755E+02	-1.86375193136E+01	-9.05263509202E+01
4.99888876542E+05	-5.89044299154E+00	-1.77838346686E+02	3.58828330508E+01	5.98775449561E+01	-4.85043739583E+01	-3.00288240791E+01	-2.25558523744E+01	2.29713579688E+01
5.49861095677E+05	-5.19475056700E+00	1.78018417426E+02	3.63566956959E+01	5.68017594649E+01	-4.56382435960E+01	4.90956609350E+01	-2.06548242790E+01	8.17543262074E+01
5.99833314813E+05	-6.55893021078E+00	-1.76928277657E+02	3.69814175034E+01	5.25829341705E+01	-4.19535767582E+01	-9.45706889851E+01	-1.61603700507E+01	-3.84130165769E+01
6.49805533948E+05	-5.12001299294E+00	-1.71775692531E+02	3.72017159476E+01	4.86687491946E+01	-4.80513692639E+01	-1.13677116086E+02	-2.08004722857E+01	-3.25070365226E+01
6.99777753084E+05	-6.55926321774E+00	-1.79345999327E+02	3.77048360357E+01	4.67599221396E+01	-4.90557557314E+01	-5.42318107890E+01	-2.04870491922E+01	-3.58701547321E+00
7.49749972219E+05	-5.46889662940E+00	-1.76860162362E+02	3.78820715527E+01	4.36886168462E+01	-4.31870704862E+01	7.99591186132E+01	-1.73561166790E+01	1.11947563284E+02
7.99722191355E+05	-5.95824394572E+00	-1.78064648921E+02	3.81907804075E+01	4.13423222184E+01	-4.35209252980E+01	-1.58173879559E+02	-1.88472087835E+01	-1.13097669155E+02
8.49694410490E+05	-6.15404431200E+00	-1.74184837052E+02	3.84658105261E+01	3.84965980091E+01	-5.97710948535E+01	8.51908439549E+01	-3.39521747276E+01	6.38034160867E+01
8.99666629626E+05	-5.80985046397E+00	-1.77924523975E+02	3.86111145501E+01	3.66519852867E+01	-4.57068495209E+01	-1.59706707435E+02	-2.06563670764E+01	-1.18911542298E+02
9.49638848761E+05	-5.84739590457E+00	1.75540268273E+02	3.88085144677E+01	3.54215497385E+01	-4.78523207500E+01	-1.03116826210E+02	-2.07775929425E+01	-6.78893714037E+01
9.99611067896E+05	-6.58985963960E+00	-1.75659701731E+02	3.90243974773E+01	3.24732228879E+01	-4.91630743447E+01	6.56569259199E+01	-2.03144862882E+01	6.56607567439E+01
1.04958328703E+06	-5.74237556483E+00	1.70656747255E+02	3.91124161171E+01	3.21336069695E+01	-4.13213450975E+01	8.77240636216E+01	-1.44433588139E+01	1.04738623384E+02
1.09955550617E+06	-5.09142669712E+00	-1.76313451889E+02	3.90872648201E+01	2.86771467809E+01	-4.95188846070E+01	-8.99481009120E+01	-2.05097618585E+01	-5.29130406747E+01
1.14952772530E+06	-5.84946412849E+00	-1.75560439952E+02	3.93208449047E+01	2.68743547214E+01	-4.12937281392E+01	-9.43454755634E+01	-1.37745158472E+01	-6.36786053968E+01
1.19949994444E+06	-6.46021965177E+00	1.77325103168E+02	3.94989010295E+01	2.62405984095E+01	-4.45190122530E+01	-8.39040924130E+01	-1.64779935218E+01	-4.82524611014E+01
1.24947216357E+06	-6.94456840299E+00	-1.77088262729E+02	3.96475993218E+01	2.42278764156E+01	-5.12380360858E+01	-1.64743719054E+01	-2.05677206248E+01	1.54409681615E+00
1.29944438271E+06	-6.81126278362E+00	-1.71586448338E+02	3.97256093402E+01	2.20059795030E+01	-4.54297045098E+01	-5.51379507596E+01	-1.71053733785E+01	-2.73563483490E+01
1.34941660184E+06	-5.33767113433E+00	-1.77442966343E+02	3.95932038191E+01	2.14064944500E+01	-4.84601531293E+01	-2.43214738852E+01	-1.89833695743E+01	1.24429532792E+01
1.39938882098E+06	-4.97938012903E+00	-1.70439552929E+02	3.96560531637E+01	1.89437340147E+01	-4.68961360314E+01	5.48680167580E+01	-1.79659712367E+01	5.97472859067E+01
1.44936104012E+06	-5.65498512302E+00	1.71643284804E+02	3.98074274998E+01	2.03042503890E+01	-4.47299190894E+01	-2.08652137773E+01	-1.51591103888E+01	-2.96406119505E+00
1.49933325925E+06	-4.86402793553E+00	-1.79246425731E+02	3.97166654611E+01	1.78606038342E+01	-4.37112596341E+01	1.77970899379E+02	-1.70562624732E+01	-1.69642973065E+02
1.54930547839E+06	-4.95953157824E+00	-1.79155197456E+02	3.97984414531E+01	1.68336368911E+01	-4.05782126070E+01	1.61431288860E+02	-1.37601016018E+01	1.69886876782E+02
1.59927769752E+06	-4.92041621695E+00	1.79524757345E+02	3.98176535385E+01	1.56599922103E+01	-4.89767040069E+01	-6.91612151808E+01	-2.02152394947E+01	-3.83161691180E+01
1.64924991666E+06	-5.72353276069E+00	-1.77070284179E+02	3.99690830880E+01	1.42962952980E+01	-4.19487055661E+01	-1.24818595557E+02	-1.39713136031E+01	-1.06268439978E+02
1.69922213579E+06	-6.15706939238E+00	-1.75983025033E+02	4.00609444086E+01	1.29779033579E+01	-4.23332480025E+01	-1.65996437434E+02	-1.83343092088E+01	-1.63276077026E+02
1.74919435493E+06	-6.46689452352E+00	-1.74369108968E+02	4.01110475420E+01	1.19362246327E+01	-5.17146653902E+01	-5.63752823609E+01	-2.12160976451E+01	-2.94663168153E+01
1.79916657406E+06	-5.98199215578E+00	-1.74298021031E+02	4.01087871358E+01	1.09608740616E+01	-5.30461454082E+01	1.58980677123E+02	-2.94001463454E+01	1.45359329919E+02
1.84913879320E+06	-5.05702465887E+00	1.78681526000E+02	4.00388986214E+01	1.09239462198E+01	-4.67955562555E+01	-9.99080366953E+00	-1.68759878692E+01	-1.64848768067E+00
1.89911101233E+06	-5.79667216827E+00	-1.78424629159E+02	4.01619862734E+01	9.60607332470E+00	-4.97135189341E+01	1.74924763833E+02	-2.61453431926E+01	1.75794038001E+02
1.94908323147E+06	-5.59591643936E+00	-1.77821270613E+02	4.01607329775E+01	8.59049406711E+00	-4.35573445496E+01	-1.75762790979E+02	-1.67775678308E+01	-1.73136114402E+02
1.99905545061E+06	-5.32089971817E+00	-1.77007216833E+02	4.01662665919E+01	7.60988388726E+00	-4.31485604569E+01	-1.47708504471E+02	-1.64090320200E+01	-1.43291710971E+02
2.04902766974E+06	-5.65832290455E+00	-1.78067808717E+02	4.02390236487E+01	6.86775316721E+00	-4.04529676497E+01	-1.13523010636E+02	-1.44960765969E+01	-1.02373475351E+02
2.09899988888E+06	-4.10344926114E+00	-1.76378924767E+02	4.00569710148E+01	5.87534178317E+00	-5.20695148477E+01	9.50791107907E+01	-2.24304611074E+01	7.13248408479E+01
2.14897210801E+06	-6.26436404195E+00	-1.76886935640E+02	4.03435563582E+01	4.94982005944E+00	-5.80529740792E+01	-1.27140457138E+02	-3.34553129961E+01	-8.57121359382E+01
2.19894432715E+06	-5.41394108023E+00	-1.77552979771E+02	4.02695904822E+01	4.46326159651E+00	-3.98835309659E+01	1.70343311842E+02	-1.21345186353E+01	1.65366354552E+02
2.24891654628E+06	-5.77712760237E+00	-1.77372647912E+02	4.03282028955E+01	3.52677600012E+00	-4.17254708095E+01	1.55291327004E+02	-1.42450192346E+01	1.43503074437E+02
2.29888876542E+06	-5.48079327533E+00	-1.75275742109E+02	4.03021655397E+01	2.56839025587E+00	-4.93807446076E+01	1.06463593932E+02	-2.12972762195E+01	9.33262761471E+01
2.34886098455E+06	-5.69018525940E+00	1.78730843490E+02	4.03626035467E+01	2.42672053891E+00	-4.04698503680E+01	-1.50976789290E+02	-1.25030272054E+01	-1.52622482329E+02
2.39883320369E+06	-4.77451388972E+00	-1.77609064828E+02	4.02442285834E+01	1.50752455578E+00	-4.56466267400E+01	2.25700017898E+01	-1.49514766423E+01	2.20122994632E+01
2.44880542282E+06	-7.00475047494E+00	-1.70820866945E+02	4.05370540725E+01	1.00349368299E-01	-4.56217660398E+01	-7.36614760170E+01	-1.74133182345E+01	-6.85610235692E+01
2.49877764196E+06	-5.33537747425E+00	-1.76773925251E+02	4.03667843626E+01	-2.12863037253E-01	-4.52903541716E+01	7.45736901597E+01	-1.55663828730E+01	5.76085696884E+01
2.54874986110E+06	-5.36215392090E+00	-1.71573802010E+02	4.03609954970E+01	-1.48805053866E+00	-4.69641249334E+01	8.44658187687E+01	-1.74445922635E+01	6.38812888215E+01
2.59872208023E+06	-5.49467436731E+00	-1.75832754451E+02	4.03915107305E+01	-1.72788822831E+00	-4.89668776833E+01	-1.54160110158E+02	-2.35772137488E+01	-1.70025748507E+02
2.64869429937E+06	-5.39938556572E+00	-1.73343194919E+02	4.03930755680E+01	-2.68139823866E+00	-4.70445034081E+01	-8.91934822525E+01	-1.97393089717E+01	-8.95837334786E+01
2.69866651850E+06	-5.37461498872E+00	-1.75920752322E+02	4.04194402826E+01	-2.85812464302E+00	-4.32969687391E+01	1.55964179706E+02	-1.49234982478E+01	1.31557084955E+02
2.74863873764E+06	-5.42383908520E+00	1.78288084726E+02	4.04488271711E+01	-2.72582872870E+00	-6.80735720358E+01	3.07755147341E+01	-2.46581188032E+01	9.75951430201E+01
2.79861095677E+06	-6.74163366444E+00	-1.73506943851E+02	4.05809607827E+01	-4.64415388127E+00	-4.63489629944E+01	1.34967938079E+02	-1.72053841581E+01	1.10320754193E+02
2.84858317591E+06	-6.59803962499E+00	-1.75397098386E+02	4.05970332426E+01	-4.87201601810E+00	-5.77626799641E+01	-1.00521163537E+02	-3.15901858938E+01	-5.56876904660E+01
2.89855539504E+06	-5.79234911753E+00	-1.78939737042E+02	4.04942106707E+01	-5.12726614704E+00	-5.12293462436E+01	9.12296087887E+01	-2.06780242985E+01	6.42786216862E+01
2.94852761418E+06	-5.93008704492E+00	-1.75335287796E+02	4.05467079614E+01	-6.26801639892E+00	-4.27919698954E+01	2.82126508716E+01	-1.29461460198E+01	1.61806595717E+01
2.99849983331E+06	-5.91545740503E+00	-1.79849975447E+02	4.05656099245E+01	-6.17093930786E+00	-5.70105328611E+01	1.02963357564E+02	-2.25390518474E+01	5.87417833523E+01
3.04847205245E+06	-5.41640481274E+00	1.77307080201E+02	4.04840503079E+01	-6.44570547035E+00	-5.04570290355E+01	1.18473518551E+02	-2.03089955612E+01	8.35899061520E+01
3.09844427159E+06	-5.25474008883E+00	-1.79105607410E+02	4.04902137567E+01	-7.48137229311E+00	-5.04693226137E+01	1.36564832246E+02	-2.40432189324E+01	1.00413903389E+02
3.14841649072E+06	-7.03880609779E+00	-1.75362430172E+02	4.06870045871E+01	-8.70066654740E+00	-5.68109412904E+01	-7.18076154759E+01	-2.95795476962E+01	-3.28811759470E+01
3.19838870986E+06	-6.02765923566E+00	1.76578711879E+02	4.06077017273E+01	-8.34510822431E+00	-5.28996874235E+01	-1.10211003392E+02	-3.00291392614E+01	-9.60179097558E+01
3.24836092899E+06	-6.06110064511E+00	-1.79589606254E+02	4.05863600660E+01	-9.36264021401E+00	-5.05643938726E+01	1.27582963306E+02	-2.08357548747E+01	8.59082524704E+01
3.29833314813E+06	-5.36604060444E+00	-1.79003615016E+02	4.05041238318E+01	-9.78846351726E+00	-5.06437740150E+01	2.59823374606E+01	-1.96224105228E+01	8.70795925238E+00
3.34830536726E+06	-5.90322801970E+00	-1.78909691581E+02	4.05781448027E+01	-1.04343713582E+01	-3.77079885847E+01	3.69016790518E+01	-8.61612242888E+00	1.70505898992E+01
3.39827758640E+06	-6.38038261314E+00	-1.72335335262E+02	4.06343854365E+01	-1.18899744942E+01	-4.47154689040E+01	-1.28236118600E+02	-1.81089702846E+01	-1.50429898368E+02
3.44824980553E+06	-4.86054200437E+00	1.79060777098E+02	4.04612399510E+01	-1.11416526902E+01	-4.31556516584E+01	1.39770223826E+02	-1.61146162707E+01	1.06965249120E+02
3.49822202467E+06	-5.47467341366E+00	-1.78633767660E+02	4.05634251641E+01	-1.21145664682E+01	-4.83363618975E+01	3.34004924257E+01	-1.74345613083E+01	2.33949896179E+01
3.54819424380E+06	-5.57926231918E+00	-1.77541836637E+02	4.05560631691E+01	-1.27134314041E+01	-4.52643230827E+01	4.67411359348E+01	-1.47879050942E+01	2.38363307487E+01
3.59816646294E+06	-5.67242100105E+00	-1.75363465113E+02	4.05585907136E+01	-1.35956988181E+01	-4.55214050827E+01	1.59339632205E+02	-1.75351713955E+01	1.22018402444E+02
3.64813868208E+06	-6.29074345990E+00	-1.76706351392E+02	4.06437833974E+01	-1.39503525922E+01	-4.83155771979E+01	-6.95527892479E+01	-2.15530660810E+01	-7.58630017704E+01
3.69811090121E+06	-5.86489184140E+00	1.77256922678E+02	4.06148632258E+01	-1.37153812536E+01	-4.45131785561E+01	2.93067126775E+01	-1.50832670422E+01	5.60096845270E+00
3.74808312035E+06	-5.41392365807E+00	1.79221373159E+02	4.05658246113E+01	-1.43270359961E+01	-4.26749014739E+01	5.69351293004E+01	-1.24430845268E+01	3.05283511219E+01
3.79805533948E+06	-4.99056720816E+00	-1.78264858204E+02	4.04985156170E+01	-1.52580450879E+01	-4.52838828989E+01	-1.69407630329E+02	-1.76478447406E+01	1.36248497978E+02
3.84802755862E+06	-5.55094350307E+00	-1.76784374934E+02	4.05617120210E+01	-1.61467742598E+01	-4.96699098696E+01	-1.37306537250E+02	-2.38803177147E+01	-1.55047566417E+02
3.89799977775E+06	-5.64432857589E+00	-1.76683983781E+02	4.06036767906E+01	-1.63220925198E+01	-4.37296772963E+01	8.10240772277E+01	-1.36442176602E+01	4.69665368167E+01
3.94797199689E+06	-6.26338869206E+00	-1.77681810921E+02	4.06658378437E+01	-1.68629583281E+01	-4.95222677512E+01	-1.14951432047E+00	-1.92769595364E+01	-1.76456933695E+01
3.99794421602E+06	-5.89312176375E+00	-1.79130790227E+02	4.06220355687E+01	-1.72489695599E+01	-4.68290258100E+01	6.58361378832E+01	-1.59541564048E+01	3.27755480107E+01
4.04791643516E+06	-6.10847617372E+00	-1.77799908031E+02	4.06656670094E+01	-1.79930427917E+01	-4.83800497989E+01	-1.65387237728E+02	-2.12771973473E+01	1.43385885819E+02
4.09788865429E+06	-6.16338665533E+00	1.78111826944E+02	4.06883309240E+01	-1.79364510280E+01	-5.05279283168E+01	-5.17077861753E+01	-2.30836512195E+01	-5.65287711787E+01
4.14786087343E+06	-6.13593186085E+00	-1.70208241642E+02	4.06470077880E+01	-1.96915793065E+01	-4.97641318713E+01	1.58897626894E+02	-2.08537849736E+01	9.07378114607E+01
4.19783309257E+06	-5.17112632898E+00	-1.77545606570E+02	4.05522800212E+01	-1.93743892450E+01	-5.29027134507E+01	-1.50646477337E+02	-3.09271556854E+01	1.06606666777E+02
4.24780531170E+06	-6.37581558174E+00	-1.71179552109E+02	4.06755603134E+01	-2.05866342068E+01	-4.11748931421E+01	1.44244704875E+01	-1.17319025088E+01	-1.25496599524E+01
4.29777753084E+06	-4.99524287298E+00	-1.78345873352E+02	4.05412660925E+01	-2.01550312243E+01	-4.88154253813E+01	1.00566483170E+02	-1.77416252939E+01	5.68835595366E+01
4.34774974997E+06	-5.37550395219E+00	-1.73078001202E+02	4.05707250949E+01	-2.13906709118E+01	-4.89928552612E+01	-7.45087387098E+01	-2.33315987313E+01	-8.79558731529E+01
4.39772196911E+06	-5.51466625173E+00	-1.73448978260E+02	4.05708209954E+01	-2.16255249489E+01	-4.13967507919E+01	2.72803233073E+01	-1.23517107998E+01	-3.43557146319E+00
4.44769418824E+06	-4.56621072883E+00	-1.75544667942E+02	4.04681083201E+01	-2.18054304994E+01	-5.25336358984E+01	-7.01769430968E+01	-2.77020291918E+01	-7.94252262855E+01
4.49766640738E+06	-5.57545415392E+00	1.79450490303E+02	4.06480705166E+01	-2.17419004285E+01	-4.55864839305E+01	4.56190847288E+01	-1.40296533313E+01	2.19411599861E+01
4.54763862651E+06	-4.63578726466E+00	1.79767166268E+02	4.05437852351E+01	-2.16324566930E+01	-4.32702126287E+01	1.51107558254E+02	-1.53804900900E+01	1.07128107187E+02
4.59761084565E+06	-5.21054216133E+00	1.75256021759E+02	4.07018900863E+01	-2.22509585412E+01	-4.69984482653E+01	3.95475381778E+01	-1.64826829668E+01	9.19041033563E+00
4.64758306478E+06	-4.82503035236E+00	-1.77156337213E+02	4.05001304504E+01	-2.34508299838E+01	-4.82396609219E+01	-4.16577409669E+01	-2.09698914559E+01	-6.12781573892E+01
4.69755528392E+06	-5.66589650438E+00	-1.74055853905E+02	4.06104679765E+01	-2.43612073750E+01	-4.62416480115E+01	-1.58098505159E+02	-1.94514761502E+01	1.47833704830E+02
4.74752750306E+06	-6.01701705030E+00	-1.78462618676E+02	4.06865157490E+01	-2.43948894490E+01	-4.72790042766E+01	-6.56301754450E+01	-2.16382586303E+01	-8.53596566741E+01
4.79749972219E+06	-5.10802785496E+00	-1.78350584069E+02	4.05650463978E+01	-2.46373506357E+01	-5.24858168076E+01	1.12805601202E+02	-2.10525540113E+01	5.95562204448E+01
4.84747194133E+06	-5.86559026101E+00	-1.77069589330E+02	4.06611108126E+01	-2.54981503621E+01	-5.23989555101E+01	3.74669303343E+01	-2.08151847521E+01	-3.86495066421E+01
4.89744416046E+06	-6.72396364363E+00	-1.73506391850E+02	4.07743539103E+01	-2.63271309230E+01	-4.06453072034E+01	-1.06725634726E+02	-1.23921137282E+01	1.74013224721E+02
4.94741637960E+06	-5.67170942701E+00	-1.75387967030E+02	4.06932299087E+01	-2.66734955284E+01	-5.45897653151E+01	-7.58675243289E+01	-3.33891664177E+01	-7.10716723853E+01
4.99738859873E+06	-4.87069580706E+00	-1.76235171292E+02	4.05293126341E+01	-2.66486945673E+01	-4.80558826852E+01	1.15601394916E+02	-1.76884775725E+01	6.29516389392E+01
5.04736081787E+06	-4.43947766337E+00	-1.72500175748E+02	4.04734475114E+01	-2.76242760984E+01	-5.19578055857E+01	-9.99391417352E+01	-2.92785284447E+01	-1.40320420853E+02
5.09733303700E+06	-5.57322510001E+00	-1.78212042349E+02	4.06499427484E+01	-2.74384431746E+01	-5.15018570387E+01	-9.39100562371E+01	-3.06731387046E+01	-1.29204107301E+02
5.14730525614E+06	-5.28202462072E+00	-1.78221221763E+02	4.06030646549E+01	-2.78465616369E+01	-4.73299006687E+01	1.18958743824E+02	-1.70299976364E+01	6.48428021822E+01
5.19727747528E+06	-6.47964163590E+00	-1.74980906050E+02	4.07337802748E+01	-2.87961299157E+01	-5.15876372312E+01	-1.18082665756E+02	-2.84782480654E+01	-1.68720004763E+02
5.24724969441E+06	-5.29833833516E+00	-1.77232803615E+02	4.06211776129E+01	-2.88542880627E+01	-4.46247463670E+01	2.16972630138E+01	-1.61801387851E+01	-2.68765324736E+01
5.29722191355E+06	-5.81871115827E+00	-1.72234915244E+02	4.06581229621E+01	-3.00039176578E+01	-4.58641854601E+01	9.66647796017E+01	-1.53845825691E+01	4.81101038869E+01
5.34719413268E+06	-5.61579892528E+00	-1.78733366044E+02	4.06768715551E+01	-2.94968937136E+01	-3.99650026452E+01	-1.30441217500E+02	-1.30437182747E+01	1.79703476020E+02
5.39716635182E+06	-5.89778047495E+00	-1.77581691391E+02	4.06939671045E+01	-3.01949368902E+01	-5.12819400755E+01	-4.86581045604E+01	-2.53261496541E+01	-6.08349855806E+01
5.44713857095E+06	-4.86683927487E+00	-1.76222227560E+02	4.05671412767E+01	-3.05768738433E+01	-5.01980810817E+01	1.03775591144E+02	-1.86731022584E+01	4.75021792603E+01
5.49711079009E+06	-5.33368764027E+00	-1.74069257399E+02	4.06209560858E+01	-3.13991723806E+01	-5.52007889673E+01	1.04573472902E+02	-2.20977440713E+01	4.97546721971E+01
5.54708300922E+06	-4.78985626480E+00	-1.75752680631E+02	4.05617835859E+01	-3.15172456504E+01	-6.46661563070E+01	1.58861972073E+02	-2.66255741163E+01	6.70515648420E+01
5.59705522836E+06	-6.78575133210E+00	-1.75684829386E+02	4.08041642841E+01	-3.24546679400E+01	-4.24871858624E+01	-5.42831022380E+00	-1.44044017511E+01	-4.35708636326E+01
5.64702744749E+06	-5.33695462340E+00	-1.74050105005E+02	4.06188315462E+01	-3.28835774573E+01	-4.60838761372E+01	-4.92463508910E+01	-1.97094448123E+01	-8.38396853218E+01
5.69699966663E+06	-5.58428297470E+00	-1.73300688313E+02	4.06443506138E+01	-3.32991402924E+01	-6.38304815048E+01	9.13381213380E+01	-2.49360198887E+01	3.13238765608E+01
5.74697188577E+06	-5.57543142993E+00	-1.75131279137E+02	4.06366259040E+01	-3.30318102649E+01	-4.58173823683E+01	-1.50505201066E+02	-1.44774931512E+01	1.60880173126E+02
5.79694410490E+06	-5.42613594659E+00	-1.76921054347E+02	4.06478152487E+01	-3.35886980071E+01	-4.65455526066E+01	-2.80575763886E+01	-1.84421105395E+01	-6.14015576161E+01
5.84691632404E+06	-6.08905495402E+00	-1.76469581525E+02	4.07512631687E+01	-3.42793965198E+01	-5.44288540696E+01	6.83276742742E+01	-2.07470935880E+01	2.07024423320E+01
5.89688854317E+06	-5.58166605344E+00	-1.75155566821E+02	4.07018494042E+01	-3.45511411876E+01	-5.91036793960E+01	-5.11068812478E+01	-3.74531563880E+01	-3.97337199560E+01
5.94686076231E+06	-5.05295269642E+00	-1.78446762922E+02	4.06567206764E+01	-3.46988450882E+01	-6.99126079291E+01	1.57958013430E+02	-2.23191745562E+01	5.36030629842E+01
5.99683298144E+06	-5.42261781238E+00	1.77200697191E+02	4.07587342037E+01	-3.48140194926E+01	-4.63211362214E+01	4.32420985895E+01	-1.60671006864E+01	-4.10417238766E+00
6.04680520058E+06	-5.90326673702E+00	-1.72330310052E+02	4.07188119391E+01	-3.63772489810E+01	-5.77342169675E+01	-1.40480041468E+02	-3.02785365338E+01	1.02621728594E+02
6.09677741971E+06	-5.27042140427E+00	-1.72182573900E+02	4.06239318458E+01	-3.66460422424E+01	-5.48610347600E+01	1.08078060656E+02	-2.17115086167E+01	4.39186875292E+01
