# Hz S DB R 50
! CMT, M5065, 19127446, 24.2.4/2
! Date: 12/3/2024 4:14:46 PM
! Data: Format (Calibration Info)
! Freq	S11:dB/Ang(F2)	S21:dB/Ang(F2)	S12:dB/Ang(F2)	S22:dB/Ang(F2)
3.00000000000E+05	-5.55538466220E+00	1.76669472803E+02	2.72271714650E+00	9.13017921682E+01	-3.71545946494E+01	-4.44329632627E+01	-3.01540032681E+01	8.57872148734E+00
3.49972219135E+05	-5.65113902269E+00	-1.72339098072E+02	3.89122638616E+00	8.92513052904E+01	-4.51576452930E+01	-4.65225203534E+01	-2.90800789504E+01	4.92818008201E+00
3.99944438271E+05	-6.26199668243E+00	-1.72211258673E+02	5.26650448826E+00	8.74635082700E+01	-3.88160364438E+01	-2.28090397959E+01	-2.91982125074E+01	8.52958011435E+00
4.49916657406E+05	-6.65117691800E+00	1.79349641873E+02	6.23189350044E+00	8.85809655705E+01	-4.16003528206E+01	-7.29896532043E+01	-2.95555018953E+01	3.37368482939E+00
4.99888876542E+05	-7.13933825543E+00	1.73626203244E+02	7.44028235455E+00	8.88002523508E+01	-4.92947756116E+01	2.21770653449E+01	-3.04956124478E+01	6.22560664330E+00
5.49861095677E+05	-6.24667740216E+00	-1.71635729268E+02	8.09661006280E+00	8.55726736961E+01	-5.10191651874E+01	1.14918158911E+02	-3.13661218100E+01	3.74283656888E+00
5.99833314813E+05	-6.25725112727E+00	-1.76872980928E+02	8.74755172631E+00	8.58633571603E+01	-4.98262921097E+01	1.09479617830E+02	-3.04316544863E+01	-1.31972203210E+00
6.49805533948E+05	-6.42159765109E+00	-1.73160189818E+02	9.51571246497E+00	8.46503677105E+01	-4.35635772952E+01	-1.36871159366E+02	-2.85188398773E+01	-6.52879557251E+00
6.99777753084E+05	-5.21909062910E+00	-1.70861349651E+02	1.00033170399E+01	8.40296661897E+01	-5.78120865989E+01	3.39045406959E+01	-3.04482657655E+01	8.45946081920E+00
7.49749972219E+05	-7.10307902324E+00	-1.79144035451E+02	1.07822788741E+01	8.44037130517E+01	-5.09617519746E+01	-1.77330130061E+02	-3.08486764046E+01	5.46369488113E+00
7.99722191355E+05	-6.19904978902E+00	-1.71528617310E+02	1.13038929276E+01	8.27537672966E+01	-5.09601382513E+01	-1.64835298751E+01	-2.90719858101E+01	9.72903256618E+00
8.49694410490E+05	-5.52895321103E+00	-1.78716641967E+02	1.18103832965E+01	8.34785280545E+01	-4.29351434243E+01	-1.26110197048E+02	-2.88762944022E+01	-4.25624917099E+00
8.99666629626E+05	-6.04223187755E+00	-1.78827448090E+02	1.23133247062E+01	8.31582264351E+01	-5.18307649802E+01	-1.00506111903E+02	-2.96773054758E+01	2.86324533330E+00
9.49638848761E+05	-5.64351335819E+00	-1.73298639931E+02	1.26821206935E+01	8.19693131236E+01	-4.29233607293E+01	7.06824713676E+01	-3.17748587340E+01	1.65281959428E+01
9.99611067896E+05	-5.19015316970E+00	-1.77573445138E+02	1.30674969208E+01	8.19890287929E+01	-5.50949174651E+01	-6.19278625938E+01	-2.90896698304E+01	8.60895280653E+00
1.04958328703E+06	-5.71906308509E+00	-1.75779191487E+02	1.35804157738E+01	8.09260301482E+01	-4.40187612773E+01	-8.20869153763E+01	-2.82608640056E+01	2.34980749687E+00
1.09955550617E+06	-6.82742172588E+00	1.71598723086E+02	1.41133041234E+01	8.19392378320E+01	-4.54926009175E+01	1.33394274465E+02	-3.22897900860E+01	4.87645417254E-01
1.14952772530E+06	-5.44767907746E+00	1.72738103302E+02	1.43857331786E+01	8.15665039388E+01	-4.08647049481E+01	1.41041909082E+02	-3.30908532974E+01	-1.20297766473E+01
1.19949994444E+06	-6.66142337959E+00	-1.72952234056E+02	1.48387466465E+01	7.88059792072E+01	-4.39158921060E+01	-6.89994690641E+01	-2.75381384842E+01	7.34006411562E+00
1.24947216357E+06	-5.88104346941E+00	-1.75428812247E+02	1.51076978162E+01	7.88241266368E+01	-4.53137748682E+01	-9.44391624824E+01	-2.84358885554E+01	1.14413130756E+00
1.29944438271E+06	-6.22498415606E+00	-1.73774659078E+02	1.54914901760E+01	7.82849633404E+01	-5.57051750483E+01	4.77209204429E+01	-3.12310940813E+01	6.29472330838E+00
1.34941660184E+06	-5.53861128593E+00	-1.75237139733E+02	1.57294222368E+01	7.79492674850E+01	-4.16806712264E+01	-3.95566063995E+01	-2.63724573125E+01	1.94146116362E+01
1.39938882098E+06	-5.64921521732E+00	-1.74190137350E+02	1.60766466070E+01	7.72625809337E+01	-5.12702551577E+01	-7.47778565805E+01	-2.84944935760E+01	7.02959827966E+00
1.44936104012E+06	-6.13566708180E+00	1.71914383784E+02	1.64184770098E+01	7.87474991460E+01	-5.05739612393E+01	1.19523441206E+01	-2.98841852563E+01	1.74175598856E+01
1.49933325925E+06	-6.24126389820E+00	-1.79756636915E+02	1.67417722177E+01	7.74210803206E+01	-4.29473718129E+01	-3.63590979467E+01	-2.77743511276E+01	1.36899956134E+01
1.54930547839E+06	-6.09186536470E+00	1.78684376437E+02	1.70080469838E+01	7.66954593571E+01	-7.10715440597E+01	9.73228188535E+01	-3.01381113403E+01	8.62400974222E+00
1.59927769752E+06	-5.26487940355E+00	-1.73687744698E+02	1.71865393807E+01	7.56374732643E+01	-4.50447133293E+01	1.77646005637E+02	-2.98279570249E+01	-2.30871508890E+00
1.64924991666E+06	-5.79265191480E+00	1.79205564056E+02	1.75029952707E+01	7.58757901751E+01	-4.78154410374E+01	1.15134980696E+02	-3.24458661766E+01	1.84631680773E+01
1.69922213579E+06	-5.78704204236E+00	1.78528033499E+02	1.77614992243E+01	7.58793809295E+01	-4.88144309248E+01	6.35627259628E+01	-2.94308308476E+01	1.50217770751E+01
1.74919435493E+06	-5.31797932245E+00	-1.74832321876E+02	1.79427220111E+01	7.42019201923E+01	-6.21576436368E+01	3.64991550258E+01	-3.00828293826E+01	1.40200925234E+01
1.79916657406E+06	-5.53157229284E+00	-1.76399232370E+02	1.82151657996E+01	7.40117010902E+01	-4.56272466610E+01	-1.75983714225E+02	-3.11119520259E+01	-5.93375112265E+00
1.84913879320E+06	-5.23814529041E+00	-1.77400949216E+02	1.84002322941E+01	7.37690933603E+01	-4.92282378081E+01	-4.93251652118E+01	-2.80995175269E+01	1.18882879479E+01
1.89911101233E+06	-5.43085178265E+00	1.78125744967E+02	1.86580675288E+01	7.44346753151E+01	-4.20326678520E+01	-5.50174025362E+01	-2.62667635311E+01	1.14981970915E+01
1.94908323147E+06	-5.68787681752E+00	-1.78944334502E+02	1.89167908381E+01	7.31078908574E+01	-4.48462940168E+01	-1.82134803790E+01	-2.76066000287E+01	2.37423315096E+01
1.99905545061E+06	-5.15314715107E+00	-1.75802054578E+02	1.91062960148E+01	7.23279302370E+01	-4.77172330667E+01	-2.46396897137E+00	-2.83032210120E+01	2.20467147553E+01
2.04902766974E+06	-4.81591518335E+00	1.79359980080E+02	1.92434934604E+01	7.24193611097E+01	-4.62287664428E+01	-1.18163678747E+02	-2.70516936360E+01	-3.63809370637E+00
2.09899988888E+06	-6.01213030399E+00	-1.74092585284E+02	1.96040257672E+01	7.10976533706E+01	-4.48412069959E+01	-1.64144418365E+02	-3.06672246841E+01	-1.49694573460E+01
2.14897210801E+06	-5.63692727372E+00	1.79596271988E+02	1.97390489105E+01	7.15374487504E+01	-4.65088094154E+01	1.33936766933E+02	-3.34737625944E+01	1.23148222623E+01
2.19894432715E+06	-6.33351858008E+00	-1.71528470152E+02	2.00542504773E+01	6.99570406900E+01	-5.10467279451E+01	9.47996370449E+01	-3.12792053088E+01	1.90567841905E+01
2.24891654628E+06	-7.40783722395E+00	1.79692470773E+02	2.04402646494E+01	7.06513467226E+01	-4.81570317389E+01	1.34719410685E+02	-3.33693667445E+01	6.42752263463E+00
2.29888876542E+06	-5.73312170616E+00	-1.75499917669E+02	2.03917655644E+01	6.99415970920E+01	-5.55906707666E+01	1.16415335651E+02	-3.23914792926E+01	7.79023249176E+00
2.34886098455E+06	-5.70553895893E+00	-1.76421887209E+02	2.05809854948E+01	6.90413516916E+01	-4.88820655907E+01	-1.37855362598E+02	-3.00117381485E+01	4.94443658195E+00
2.39883320369E+06	-5.13632986595E+00	-1.75617557393E+02	2.06375704506E+01	6.86997582022E+01	-4.94928699175E+01	1.27058511330E+02	-3.08618014185E+01	8.30944346728E+00
2.44880542282E+06	-6.51874602932E+00	-1.76423332077E+02	2.09880197923E+01	6.82057224837E+01	-4.39789453426E+01	9.92787564285E+01	-3.31636865561E+01	5.32803004657E+01
2.49877764196E+06	-4.98193500309E+00	-1.74644653982E+02	2.09869422100E+01	6.76442094673E+01	-4.14096027700E+01	1.77743112444E+02	-3.28277093570E+01	-3.68445999485E+01
2.54874986110E+06	-5.70684519484E+00	-1.76157350370E+02	2.12422602519E+01	6.73267335228E+01	-5.18744946781E+01	-5.91254040734E+01	-2.82189169886E+01	1.20303726305E+01
2.59872208023E+06	-6.06506168660E+00	-1.78915813641E+02	2.14042010986E+01	6.71042566856E+01	-4.97726003110E+01	-1.93909303727E+01	-2.74138089435E+01	2.19576326407E+01
2.64869429937E+06	-5.60623788073E+00	-1.76906740731E+02	2.15911932080E+01	6.64647623264E+01	-4.43024269050E+01	1.72928647847E+02	-3.38206693812E+01	-1.99851220986E+01
2.69866651850E+06	-6.00175794262E+00	-1.76435364179E+02	2.18029822346E+01	6.62381502562E+01	-4.73504720685E+01	-9.05800162092E+01	-2.80684754292E+01	5.31138644860E-01
2.74863873764E+06	-4.83733325908E+00	1.76473682223E+02	2.18495752547E+01	6.67307649801E+01	-4.53906897544E+01	4.17144298337E+01	-2.92267658096E+01	4.11637223577E+01
2.79861095677E+06	-5.47826226501E+00	-1.75829723751E+02	2.20249923809E+01	6.50294817417E+01	-5.29726037681E+01	-3.24999438388E+01	-2.87224046835E+01	2.41568159037E+01
2.84858317591E+06	-5.25926068607E+00	-1.75199816336E+02	2.21516022433E+01	6.46696193521E+01	-6.99229754051E+01	1.61507129271E+02	-3.06036863584E+01	1.63991042883E+01
2.89855539504E+06	-6.88808775463E+00	1.74778084969E+02	2.25280525542E+01	6.50643553475E+01	-4.16947264790E+01	1.31667093181E+02	-3.95440527050E+01	6.11667770094E+01
2.94852761418E+06	-5.22994344814E+00	-1.78654721815E+02	2.24495261133E+01	6.39591969468E+01	-5.48885666072E+01	-2.93126861896E+01	-2.89583140082E+01	1.83586748033E+01
2.99849983331E+06	-5.39943265680E+00	-1.79903331643E+02	2.26349206141E+01	6.40077788149E+01	-4.63938773954E+01	2.09269100915E+01	-2.63215616611E+01	3.84268931924E+01
3.04847205245E+06	-5.72001047435E+00	-1.79018238092E+02	2.27906620306E+01	6.30702768658E+01	-4.90107796201E+01	-5.21989147420E+01	-2.72380078521E+01	1.79557256347E+01
3.09844427159E+06	-6.61896783493E+00	1.77894903779E+02	2.30568016219E+01	6.28697665525E+01	-5.25167372142E+01	3.61589532600E+01	-2.77687980180E+01	2.84592785607E+01
3.14841649072E+06	-6.38932051878E+00	-1.74749271638E+02	2.31551731130E+01	6.16449470340E+01	-4.54703173147E+01	5.07891632765E+01	-2.81095094705E+01	5.12189186686E+01
3.19838870986E+06	-5.74575574329E+00	-1.73792853543E+02	2.32149880378E+01	6.11582234915E+01	-4.54571106805E+01	2.19708494154E+01	-2.70736455531E+01	3.62672853547E+01
3.24836092899E+06	-5.16179415409E+00	-1.78241142089E+02	2.32867471505E+01	6.14375097420E+01	-4.95521518080E+01	-1.67585965408E+02	-3.19539388326E+01	-3.56781949401E+00
3.29833314813E+06	-5.90949446002E+00	-1.75009446599E+02	2.35050369939E+01	6.03118105325E+01	-4.42755211473E+01	1.56094663330E+02	-3.87330511650E+01	4.51775788884E+00
3.34830536726E+06	-5.30132224708E+00	-1.76856807218E+02	2.35867619365E+01	6.04347151031E+01	-4.26647064112E+01	-2.93392774124E+01	-2.43473365889E+01	1.99128512535E+01
3.39827758640E+06	-5.36513636471E+00	-1.79758646082E+02	2.36938337545E+01	6.02040991212E+01	-4.59583507276E+01	1.78993230547E+02	-3.44044842093E+01	-5.15081893752E+00
3.44824980553E+06	-4.80210368364E+00	-1.74273187160E+02	2.37251025887E+01	5.90174432972E+01	-4.25175599403E+01	1.24623103607E+01	-2.39618407840E+01	3.93832015195E+01
3.49822202467E+06	-4.75342575317E+00	-1.77452557500E+02	2.38601959307E+01	5.92824395209E+01	-5.57419181752E+01	1.75670221972E+02	-3.46782033437E+01	2.56574309955E+01
3.54819424380E+06	-5.81234477992E+00	-1.77424237165E+02	2.41309537716E+01	5.87003041475E+01	-4.21437219603E+01	1.82180461798E+01	-2.44197446369E+01	4.51001195363E+01
3.59816646294E+06	-5.58519262184E+00	-1.75393844972E+02	2.42190199466E+01	5.79303253676E+01	-4.83284688106E+01	4.39777072312E+01	-2.76199009768E+01	4.27025435547E+01
3.64813868208E+06	-5.53449799586E+00	1.79789926748E+02	2.43574416487E+01	5.79367217391E+01	-4.06357356510E+01	-1.07688942364E+02	-2.51736778787E+01	-2.51356102596E+01
3.69811090121E+06	-5.47632942931E+00	-1.74109955888E+02	2.44192204042E+01	5.67867971551E+01	-4.89739911185E+01	1.72685248871E+02	-3.34855136204E+01	7.03590511034E+00
3.74808312035E+06	-5.75391510341E+00	-1.72414977597E+02	2.45854384698E+01	5.60713169195E+01	-5.27685614680E+01	-2.39943046993E+01	-2.74997883374E+01	1.88181692193E+01
3.79805533948E+06	-5.87704726230E+00	1.74406302917E+02	2.47750803776E+01	5.71589452016E+01	-5.19555551855E+01	-1.76667822210E+02	-3.29463972974E+01	1.61144766045E+01
3.84802755862E+06	-5.64160466283E+00	1.79860030674E+02	2.48301111474E+01	5.62292083911E+01	-5.42039694092E+01	-1.74516358032E+02	-3.09591818292E+01	1.41335154643E+01
3.89799977775E+06	-5.89351619000E+00	-1.76316121440E+02	2.49583663797E+01	5.51246827902E+01	-4.93178228082E+01	1.31389661601E+02	-3.31213773517E+01	4.29984224306E+01
3.94797199689E+06	-5.57344896643E+00	1.79825268471E+02	2.50384859859E+01	5.52401783476E+01	-4.63114817096E+01	-6.22857343387E+01	-2.55798311390E+01	7.99108602271E+00
3.99794421602E+06	-5.16355739936E+00	-1.73843904806E+02	2.50829190772E+01	5.41439183306E+01	-5.67501934507E+01	-1.68987826309E+02	-3.10935766447E+01	1.34341209740E+01
4.04791643516E+06	-5.22407920913E+00	-1.71941014899E+02	2.51583724940E+01	5.36759444779E+01	-4.75851589365E+01	-1.29889082749E+02	-3.09972194181E+01	-1.37416273644E+01
4.09788865429E+06	-5.50309028113E+00	-1.76326707735E+02	2.53522819727E+01	5.34655945014E+01	-4.55074340359E+01	-1.53824779646E+02	-3.31647311535E+01	-2.10611827715E+01
4.14786087343E+06	-5.40354583770E+00	1.76746762596E+02	2.54711484280E+01	5.40341703314E+01	-5.99000142855E+01	-3.00597931124E+01	-2.92554244311E+01	3.34057590494E+01
4.19783309257E+06	-6.49505143035E+00	1.78505157198E+02	2.56899500232E+01	5.31946991206E+01	-5.02013708772E+01	1.18968236772E+02	-3.24769666892E+01	3.75143774357E+01
4.24780531170E+06	-5.50190497598E+00	-1.74640820366E+02	2.56327180314E+01	5.18698971568E+01	-5.19352979614E+01	-1.22416260515E+02	-2.97392368019E+01	7.80210941846E+00
4.29777753084E+06	-6.01700697835E+00	-1.75870995215E+02	2.58455848914E+01	5.17331708224E+01	-5.34351820149E+01	1.49196236287E+02	-3.23986763906E+01	4.07752859227E+01
4.34774974997E+06	-5.86893769502E+00	1.77865151778E+02	2.59276589767E+01	5.18024985873E+01	-4.15589409741E+01	-1.31332811390E+02	-2.84771035818E+01	-3.94142462182E+01
4.39772196911E+06	-5.18134240635E+00	-1.70059632687E+02	2.59050124534E+01	5.02423442104E+01	-4.51865886189E+01	-1.72147688942E+02	-3.81159297878E+01	-8.63426720145E+00
4.44769418824E+06	-5.25455651071E+00	-1.71331967172E+02	2.59985731343E+01	4.96899491456E+01	-4.29484181020E+01	-4.67515714635E+01	-2.36428809255E+01	8.70735336442E+00
4.49766640738E+06	-5.90394639151E+00	-1.79926597935E+02	2.62134059366E+01	5.02876339446E+01	-4.97045267449E+01	7.79778684036E+01	-2.82910820498E+01	6.50560122219E+01
4.54763862651E+06	-5.74110358478E+00	-1.73049124560E+02	2.62705875084E+01	4.90185228299E+01	-4.56446479300E+01	-3.54678431033E+01	-2.54235240434E+01	1.38880614659E+01
4.59761084565E+06	-5.40250557537E+00	-1.71427138729E+02	2.63164324150E+01	4.83482523900E+01	-6.00035096409E+01	4.72184072812E+01	-2.81978206931E+01	3.73299454496E+01
4.64758306478E+06	-6.19959826349E+00	-1.75621228189E+02	2.65161534882E+01	4.85421406197E+01	-4.99086273268E+01	1.31291572144E+02	-3.21678530129E+01	5.74919998524E+01
4.69755528392E+06	-5.51426713748E+00	-1.78833367726E+02	2.65192172008E+01	4.84046561366E+01	-5.33236346986E+01	9.32562004349E+01	-2.99124986128E+01	4.82903846411E+01
4.74752750306E+06	-6.44040230104E+00	-1.79409343766E+02	2.67369097400E+01	4.77212596174E+01	-4.12408901596E+01	5.37462871446E+01	-2.28734556235E+01	6.26697190259E+01
4.79749972219E+06	-5.68559279092E+00	-1.71355469267E+02	2.66970450979E+01	4.65760577553E+01	-4.92014821228E+01	-7.96662071400E+01	-2.73382665091E+01	4.82676856970E+00
4.84747194133E+06	-4.93141500666E+00	-1.79627495296E+02	2.67176209214E+01	4.73649866498E+01	-5.20475407436E+01	-1.75423756062E+02	-3.10629810314E+01	3.11517501896E+01
4.89744416046E+06	-5.34288585710E+00	-1.75801473241E+02	2.68607359884E+01	4.62077876119E+01	-5.19343739934E+01	-3.05840340759E+01	-2.60257338092E+01	1.89390974156E+01
4.94741637960E+06	-5.78843713117E+00	-1.73005217467E+02	2.69922060584E+01	4.55161749872E+01	-4.92510551752E+01	1.62681533731E+02	-3.28734375983E+01	6.03856541129E+01
4.99738859873E+06	-5.42676193083E+00	-1.77882273385E+02	2.70239624451E+01	4.56603607586E+01	-4.98719903781E+01	2.90523742797E+01	-2.56791874309E+01	4.19996270370E+01
5.04736081787E+06	-5.44659361990E+00	-1.79449818211E+02	2.71149422518E+01	4.53500394738E+01	-4.68967851955E+01	-9.56719514624E+01	-2.84075409924E+01	-3.68082754766E+00
5.09733303700E+06	-5.41909641817E+00	1.78359843997E+02	2.72243619719E+01	4.52737943138E+01	-4.58536486891E+01	2.71918943171E+00	-2.35628098311E+01	3.26295092638E+01
5.14730525614E+06	-5.78108634192E+00	-1.77508184894E+02	2.73247051327E+01	4.40743354892E+01	-4.74739683261E+01	9.02031194012E+01	-2.68533216346E+01	6.59321929977E+01
5.19727747528E+06	-5.44197056911E+00	-1.76850075055E+02	2.73785693546E+01	4.36122137633E+01	-4.88349916414E+01	1.54136841052E+02	-3.44534647227E+01	5.79176876975E+01
5.24724969441E+06	-4.46546991768E+00	-1.76201132782E+02	2.73348524914E+01	4.34523221636E+01	-4.04785344976E+01	1.33539166108E+02	-2.59649479173E+01	1.10013124897E+02
5.29722191355E+06	-5.61639669229E+00	1.78435790885E+02	2.75905261070E+01	4.32755456448E+01	-5.36109302093E+01	1.53496599503E+02	-3.06297777988E+01	4.75953450301E+01
5.34719413268E+06	-6.11673398196E+00	-1.74746057188E+02	2.77106169045E+01	4.20954869053E+01	-5.24366554017E+01	-1.39220049329E+02	-3.17989032214E+01	1.97975612130E+01
5.39716635182E+06	-5.99525403399E+00	-1.73704927975E+02	2.77470842410E+01	4.14754954916E+01	-4.98402735976E+01	1.09634703000E+02	-2.82670946665E+01	6.11123576571E+01
5.44713857095E+06	-5.77940630423E+00	-1.76730142452E+02	2.78458166837E+01	4.14161672063E+01	-4.36690437925E+01	-1.62561694590E+01	-2.28127380982E+01	1.85927674119E+01
5.49711079009E+06	-4.87089798263E+00	-1.70801772220E+02	2.77544090369E+01	4.03760627988E+01	-4.65125638491E+01	-1.02266920229E+02	-2.92953481187E+01	-6.22129421294E+00
5.54708300922E+06	-4.92614979947E+00	-1.76895953581E+02	2.78648469372E+01	4.06384453681E+01	-5.40759133819E+01	-7.21423554383E+01	-2.81996737222E+01	2.63054215523E+01
5.59705522836E+06	-5.74115770543E+00	-1.75239519116E+02	2.80375860824E+01	3.97596535329E+01	-4.57403573798E+01	-1.10332124324E+02	-2.95232645266E+01	-2.06666470810E+01
5.64702744749E+06	-5.02129766882E+00	-1.77184970393E+02	2.80419213235E+01	3.97531092564E+01	-4.65358216710E+01	-9.23956790282E+01	-2.76173112783E+01	-7.04305676946E+00
5.69699966663E+06	-5.58086000445E+00	-1.68406045932E+02	2.81767837059E+01	3.81692931654E+01	-4.98545701476E+01	-1.53720992895E+02	-3.52130686267E+01	2.48310806836E+01
5.74697188577E+06	-5.80689678733E+00	-1.75032697735E+02	2.83436937676E+01	3.80424380282E+01	-4.59041421547E+01	-4.20928836957E+01	-2.36924490357E+01	3.76805666026E+01
5.79694410490E+06	-4.75845349291E+00	-1.72202065938E+02	2.81943862954E+01	3.77851566706E+01	-5.81481142728E+01	-6.25980857743E+01	-2.75065320741E+01	2.23473078639E+01
5.84691632404E+06	-6.19193579012E+00	-1.78107819087E+02	2.84829467376E+01	3.77687211620E+01	-5.18715253529E+01	3.08644143680E+01	-2.54882027196E+01	4.14162185642E+01
5.89688854317E+06	-5.75665207880E+00	-1.73528368444E+02	2.85115701545E+01	3.69591324812E+01	-6.69066490151E+01	-1.79662811829E+02	-2.97734974364E+01	3.35238572944E+01
5.94686076231E+06	-6.20868289279E+00	-1.73406037092E+02	2.85963439992E+01	3.62805685766E+01	-5.63346892593E+01	2.06345659128E+01	-2.59343621234E+01	3.31362368087E+01
5.99683298144E+06	-5.93892734867E+00	-1.75029439482E+02	2.86606546600E+01	3.61616785481E+01	-5.21086439486E+01	4.96360783385E+01	-2.60480049104E+01	4.19470871406E+01
6.04680520058E+06	-6.12214497395E+00	-1.75390596023E+02	2.87581365613E+01	3.57088916559E+01	-5.15599621114E+01	6.21035755199E+01	-2.61790159010E+01	4.96648859823E+01
6.09677741971E+06	-6.74235563021E+00	-1.76023461086E+02	2.88947430024E+01	3.52734110786E+01	-4.88476509655E+01	-6.88729126605E+01	-2.66138841674E+01	1.22302241013E+01
6.14674963885E+06	-5.20131294371E+00	-1.75455294638E+02	2.87684430873E+01	3.49757765300E+01	-4.34256110343E+01	-9.44108462362E+01	-2.71279649644E+01	-2.81903376705E+01
