# Hz S DB R 50
! CMT, M5065, 19127446, 24.2.4/2
! Date: 12/3/2024 4:14:07 PM
! Data: Format (Calibration Info)
! Freq	S11:dB/Ang(F2)	S21:dB/Ang(F2)	S12:dB/Ang(F2)	S22:dB/Ang(F2)
3.00000000000E+05	-6.24494798679E+00	-1.77909523022E+02	-2.94143313393E+00	8.96940612732E+01	-7.10792179672E+01	1.59594129882E+02	-3.00656023446E+01	3.57452985449E+00
3.49972219135E+05	-5.48424758203E+00	1.74390693089E+02	-1.56609045422E+00	9.07718681677E+01	-5.08766028917E+01	1.13284003702E+02	-3.04590937443E+01	7.12446900576E-01
3.99944438271E+05	-7.00148682632E+00	-1.76903110929E+02	-4.48088805255E-01	8.94242220352E+01	-4.24706670473E+01	9.72159477722E+01	-2.99687772119E+01	-2.46487548379E+00
4.49916657406E+05	-4.85678002898E+00	-1.79033949252E+02	4.04050915119E-01	8.82057195969E+01	-4.28147076259E+01	2.31006623056E+01	-3.03598949697E+01	9.06561965728E+00
4.99888876542E+05	-6.15344418108E+00	1.78628135029E+02	1.52709185113E+00	8.78957281923E+01	-4.30237109039E+01	2.08411085527E+01	-2.99378005708E+01	6.89404969026E+00
5.49861095677E+05	-5.93949979257E+00	-1.73827126878E+02	2.36854682375E+00	8.65045966518E+01	-5.28100113906E+01	2.08156609335E+01	-3.01427564222E+01	5.31186726680E+00
5.99833314813E+05	-4.97387916071E+00	-1.78983702105E+02	2.89152199268E+00	8.69933253209E+01	-4.19332338733E+01	-5.96921265665E+01	-2.90988657361E+01	3.68273863109E+00
6.49805533948E+05	-6.60067704890E+00	-1.70947512147E+02	3.88130150981E+00	8.54433410242E+01	-5.11389288883E+01	1.64917879021E+02	-2.96754723062E+01	1.67631104309E+00
6.99777753084E+05	-7.01553477002E+00	-1.74345075124E+02	4.57789574012E+00	8.55728722103E+01	-4.24967772731E+01	-1.70578997178E+01	-2.96145410845E+01	9.34365854428E+00
7.49749972219E+05	-4.98245977249E+00	1.77034239675E+02	4.89204595763E+00	8.57551218917E+01	-3.99720951436E+01	9.04883882731E+01	-3.11486876704E+01	6.19198753574E+00
7.99722191355E+05	-5.50301901755E+00	-1.75581415570E+02	5.53150837833E+00	8.40109345716E+01	-4.02477503179E+01	1.26329899194E+02	-3.15319156701E+01	-1.00154513045E+00
8.49694410490E+05	-5.47862412555E+00	1.74465961845E+02	6.08562415537E+00	8.55977220807E+01	-4.82389487265E+01	-6.92428061199E+01	-2.94923283885E+01	7.78862367050E+00
8.99666629626E+05	-4.99116443341E+00	1.76402608770E+02	6.39773382355E+00	8.40012167677E+01	-4.62033106735E+01	6.17796909894E+01	-3.04283391809E+01	9.93740111508E+00
9.49638848761E+05	-6.09151918735E+00	-1.79680160144E+02	7.05271056344E+00	8.37458844658E+01	-5.24188915913E+01	-4.42472871115E+01	-2.99023425023E+01	7.01327334071E+00
9.99611067896E+05	-6.64300879924E+00	1.74377838564E+02	7.62155561829E+00	8.36518554047E+01	-4.92714386228E+01	1.09506447004E+02	-3.01923302354E+01	4.80864720212E+00
1.04958328703E+06	-6.76980675663E+00	1.75397335901E+02	7.99574989314E+00	8.31920766935E+01	-4.60126472757E+01	-1.28842247376E+02	-2.96030386539E+01	1.65452209989E+00
1.09955550617E+06	-6.31248262801E+00	1.78826420477E+02	8.41802167186E+00	8.24696427142E+01	-5.02899543080E+01	-1.63470886413E+02	-3.01231595333E+01	5.00664989868E+00
1.14952772530E+06	-5.68489547402E+00	-1.79924271614E+02	8.67267186992E+00	8.14553225165E+01	-4.38536384175E+01	7.09221106530E+01	-3.19548622846E+01	2.10351626880E+01
1.19949994444E+06	-5.80128926675E+00	-1.75643525125E+02	9.04724129718E+00	8.04412960122E+01	-5.07876895048E+01	-8.27149132703E+01	-2.97534107594E+01	5.63071149158E+00
1.24947216357E+06	-5.60574271793E+00	1.78024651973E+02	9.38137220883E+00	8.12624795592E+01	-4.92609401992E+01	7.97333561120E+01	-3.09283639511E+01	1.29570680227E+01
1.29944438271E+06	-5.12380159747E+00	-1.79166984859E+02	9.70353319276E+00	8.06731755796E+01	-5.98755197499E+01	1.73534834933E+01	-2.98278956375E+01	8.60676342283E+00
1.34941660184E+06	-6.28943715254E+00	-1.78995986395E+02	1.01543602738E+01	7.96812030828E+01	-4.88612609655E+01	-1.66065993664E+02	-3.00738135865E+01	3.10946780866E+00
1.39938882098E+06	-4.93209014470E+00	1.74722415869E+02	1.02837433663E+01	8.08980982910E+01	-4.86029189790E+01	7.82859093134E+01	-3.06082823977E+01	1.07745979319E+01
1.44936104012E+06	-5.43614866404E+00	1.76066440416E+02	1.06589477342E+01	7.98909882514E+01	-4.46534784372E+01	5.53302241931E+01	-3.06231996024E+01	1.92126297784E+01
1.49933325925E+06	-5.77819847793E+00	1.77109901874E+02	1.09431416490E+01	7.92038753753E+01	-3.90393500653E+01	-1.70734289481E+02	-3.17078991308E+01	-8.48841651914E+00
1.54930547839E+06	-5.74389620788E+00	1.78355376463E+02	1.12925590736E+01	7.85990589067E+01	-5.63677152935E+01	-9.21354229821E+01	-2.93667249276E+01	6.42434643512E+00
1.59927769752E+06	-5.57739518875E+00	-1.77001865988E+02	1.14460802824E+01	7.78873599853E+01	-4.88707261270E+01	7.57158624356E+01	-3.12403188849E+01	1.34379189994E+01
1.64924991666E+06	-5.95705200387E+00	-1.78372038158E+02	1.17869200099E+01	7.73898855013E+01	-4.50018704721E+01	1.31513224493E+01	-2.98129249492E+01	2.31542738770E+01
1.69922213579E+06	-5.68934449911E+00	1.78042754762E+02	1.20778514088E+01	7.75184795318E+01	-4.90970752350E+01	-9.98041710720E+01	-2.91109479751E+01	8.91441965872E+00
1.74919435493E+06	-5.17006743773E+00	-1.78297530092E+02	1.22366551625E+01	7.67819325968E+01	-4.74186440440E+01	-8.93991162927E+01	-2.89746334635E+01	8.59343268040E+00
1.79916657406E+06	-6.26517203677E+00	-1.75913656568E+02	1.26221879252E+01	7.57771403590E+01	-4.68241882802E+01	5.99795253826E+01	-3.01550682747E+01	2.28631946282E+01
1.84913879320E+06	-5.04198128659E+00	-1.77501648689E+02	1.27146069502E+01	7.60315827956E+01	-4.50527727357E+01	-1.01745606377E+02	-2.93112760645E+01	2.14273947338E+00
1.89911101233E+06	-5.86004940615E+00	-1.79649683499E+02	1.30520366744E+01	7.58496875205E+01	-4.44486040328E+01	-1.39003765679E+02	-2.91720562109E+01	-3.48245948799E+00
1.94908323147E+06	-6.39137068830E+00	1.78253679563E+02	1.33192559124E+01	7.56346132956E+01	-5.23132051498E+01	1.20715072892E+02	-3.08445542518E+01	1.44193037911E+01
1.99905545061E+06	-5.03848091431E+00	-1.78670822001E+02	1.33399532534E+01	7.50805434854E+01	-4.50956328121E+01	1.61521943424E+02	-3.19926612733E+01	7.22076902209E+00
2.04902766974E+06	-5.48691319464E+00	1.79287828247E+02	1.36690845143E+01	7.45708396167E+01	-4.77624231697E+01	-1.48019256528E+02	-3.00892078121E+01	3.49477679047E+00
2.09899988888E+06	-6.52332256143E+00	-1.74570397181E+02	1.39924839649E+01	7.37176129417E+01	-4.60121330248E+01	-4.33096954625E+01	-2.81281321053E+01	1.59901383217E+01
2.14897210801E+06	-5.14879302299E+00	-1.75346043994E+02	1.40225684456E+01	7.27810367417E+01	-4.50789307359E+01	-8.84541372163E+01	-2.81997795026E+01	1.59646497207E+00
2.19894432715E+06	-6.17952380458E+00	-1.79022462066E+02	1.43760607824E+01	7.36950214209E+01	-4.24392960051E+01	-4.78172365957E+01	-2.65117914251E+01	1.71225432145E+01
2.24891654628E+06	-4.46124930791E+00	-1.69780815788E+02	1.43522802141E+01	7.14782621116E+01	-5.25207965362E+01	-8.81705563322E+01	-2.85157193923E+01	2.18150940711E+00
2.29888876542E+06	-5.44317855501E+00	1.75841241539E+02	1.46751967275E+01	7.34432864780E+01	-4.46345391160E+01	7.11272697650E+01	-3.06560068218E+01	3.17830118641E+01
2.34886098455E+06	-5.94137008937E+00	-1.78517028869E+02	1.49133000017E+01	7.19171588636E+01	-4.68281640854E+01	-1.79126029484E+02	-3.02892487518E+01	7.33177619589E+00
2.39883320369E+06	-5.77473325875E+00	-1.78345962306E+02	1.50557549365E+01	7.15916012954E+01	-4.56725884650E+01	-2.78182569574E+01	-2.78125428978E+01	2.13632047628E+01
2.44880542282E+06	-6.77275242144E+00	1.77340751760E+02	1.53715514558E+01	7.17588141002E+01	-5.89490582510E+01	-1.89898685038E+01	-2.98736621680E+01	1.78882535829E+01
2.49877764196E+06	-7.21750570227E+00	-1.77102275262E+02	1.55980907136E+01	7.06782798386E+01	-6.72738392029E+01	-2.34558218980E+01	-2.95817681258E+01	1.38444529895E+01
2.54874986110E+06	-5.14506588078E+00	-1.74743203204E+02	1.54943863738E+01	6.98842007039E+01	-4.10474205514E+01	-8.86069445537E+01	-2.71385934349E+01	4.04007872740E+00
2.59872208023E+06	-6.21537421723E+00	1.77876043069E+02	1.58668118215E+01	7.07211772042E+01	-5.03044505930E+01	5.97933700598E+01	-3.04631505429E+01	2.80036875330E+01
2.64869429937E+06	-6.32086831768E+00	-1.77798028075E+02	1.59506331844E+01	6.94900371982E+01	-4.28360857378E+01	-1.19911698407E+02	-2.84887121134E+01	-2.86476139989E+00
2.69866651850E+06	-6.01283115934E+00	-1.77794720120E+02	1.60783688006E+01	6.92835616024E+01	-4.58126971786E+01	-1.01669381687E+02	-2.77293111249E+01	4.32863608634E+00
2.74863873764E+06	-5.81628724867E+00	-1.74486379643E+02	1.62592503431E+01	6.85334853849E+01	-4.01878528649E+01	-8.10034292029E+01	-2.63153840956E+01	4.73787285310E+00
2.79861095677E+06	-6.22640915322E+00	-1.77195350311E+02	1.64597812539E+01	6.84269792373E+01	-4.90331569396E+01	5.89341926707E+01	-3.01209654923E+01	2.76873951663E+01
2.84858317591E+06	-6.32746044031E+00	-1.78394212425E+02	1.66230172350E+01	6.82098700748E+01	-4.47636385044E+01	1.26927203309E+02	-3.35802968313E+01	2.29630857084E+01
2.89855539504E+06	-5.83393812405E+00	-1.79268638331E+02	1.67303062725E+01	6.78368251387E+01	-4.03953371206E+01	1.65586766497E+02	-3.46852501916E+01	9.64765358221E-01
2.94852761418E+06	-5.06051522164E+00	-1.75317634157E+02	1.67729225145E+01	6.70803853454E+01	-4.31383987360E+01	-1.24901288088E+02	-2.91208783943E+01	-1.31545609572E+00
2.99849983331E+06	-5.50349561275E+00	-1.71799792456E+02	1.69948143551E+01	6.61666043156E+01	-5.03497835163E+01	-5.61434371283E+00	-2.82864615509E+01	2.45845316536E+01
3.04847205245E+06	-6.84288930365E+00	-1.72629312802E+02	1.73033737882E+01	6.57225992208E+01	-4.75139097302E+01	-8.33947189607E+01	-2.82026525904E+01	1.32439975363E+01
3.09844427159E+06	-6.00311829126E+00	-1.77365050444E+02	1.73473863847E+01	6.60580888150E+01	-5.57322883509E+01	-6.81081099182E+01	-2.88976610175E+01	1.63597561915E+01
3.14841649072E+06	-5.63743974315E+00	-1.77975129550E+02	1.74380053289E+01	6.58362729558E+01	-4.37617227260E+01	-1.46781336539E+02	-3.02072613350E+01	-3.72070040657E+00
3.19838870986E+06	-5.78380721265E+00	-1.67101184092E+02	1.75326245201E+01	6.39683164934E+01	-4.61436339992E+01	-8.12229829358E+00	-2.84496284852E+01	2.27765547732E+01
3.24836092899E+06	-5.52853050784E+00	-1.79474320487E+02	1.76732888771E+01	6.52317690848E+01	-4.84661750210E+01	-1.56756003790E+02	-3.00884687340E+01	8.92530148783E+00
3.29833314813E+06	-5.28800218611E+00	1.78146983038E+02	1.78042502520E+01	6.52780373433E+01	-5.47944498903E+01	-1.58545375652E+02	-3.05997369335E+01	1.59917364574E+01
3.34830536726E+06	-5.25693450559E+00	1.77991359326E+02	1.79229644598E+01	6.49623694288E+01	-4.69763609224E+01	-3.85262930487E+01	-2.74658735417E+01	2.01700699394E+01
3.39827758640E+06	-5.49177479809E+00	-1.74814470689E+02	1.80642052885E+01	6.34896192161E+01	-5.48313878399E+01	9.39316924155E+01	-3.00258032773E+01	2.48479094454E+01
3.44824980553E+06	-6.30076418547E+00	-1.73303802825E+02	1.82855822390E+01	6.29513670904E+01	-5.21250659384E+01	-1.56076569545E+02	-3.02214519876E+01	1.24214595337E+01
3.49822202467E+06	-5.49645483420E+00	-1.79848646664E+02	1.83117072635E+01	6.34917847727E+01	-5.26955602351E+01	5.00864238319E+01	-2.90388292196E+01	3.16091279408E+01
3.54819424380E+06	-5.41246836545E+00	-1.78909406417E+02	1.84299606889E+01	6.28295035234E+01	-4.80814345859E+01	1.39345482540E+01	-2.86557944320E+01	2.87799145491E+01
3.59816646294E+06	-5.41251298842E+00	1.79294385082E+02	1.85574367189E+01	6.26256681738E+01	-4.17511910532E+01	-1.77368158531E+02	-3.32157799592E+01	-6.40025074640E+00
3.64813868208E+06	-5.28663243134E+00	1.79597809889E+02	1.86553566383E+01	6.23990761282E+01	-4.91180234304E+01	8.56805661614E+01	-2.93479287735E+01	4.28407145584E+01
3.69811090121E+06	-5.25262179763E+00	-1.71178739654E+02	1.87743513645E+01	6.05576714258E+01	-5.04686405747E+01	-5.84454877232E+01	-2.81111802396E+01	1.36084215213E+01
3.74808312035E+06	-4.98031522318E+00	-1.78345560461E+02	1.88395106443E+01	6.15858608103E+01	-4.82623507986E+01	-2.01847086866E+01	-2.74103477085E+01	2.46691603357E+01
3.79805533948E+06	-5.82341574094E+00	-1.73456155492E+02	1.90843198078E+01	6.03412036720E+01	-5.55075444777E+01	1.10501691172E+02	-3.00600996767E+01	2.82751617911E+01
3.84802755862E+06	-5.77460787515E+00	-1.77191055237E+02	1.91790989641E+01	6.03690394435E+01	-4.50354310472E+01	-3.15565114064E+00	-2.72420412098E+01	2.89171488638E+01
3.89799977775E+06	-5.55636512579E+00	-1.73360467536E+02	1.92761140279E+01	5.94784281546E+01	-7.21877394453E+01	-1.18437018934E+02	-3.01731598693E+01	2.53646598324E+01
3.94797199689E+06	-5.36041360155E+00	-1.71653323071E+02	1.93249187907E+01	5.88645446947E+01	-4.89245912947E+01	1.57526660070E+02	-3.20373458949E+01	2.59589738265E+01
3.99794421602E+06	-5.70443587856E+00	-1.75776437077E+02	1.94860705598E+01	5.90500693503E+01	-4.65703016006E+01	9.15647297090E+01	-3.15465378188E+01	3.98852012455E+01
4.04791643516E+06	-6.01390954544E+00	-1.74737664565E+02	1.96490488356E+01	5.83289503047E+01	-4.58246804104E+01	1.53888644771E+02	-3.33674768146E+01	2.87418374695E+01
4.09788865429E+06	-4.79026773076E+00	-1.78587882036E+02	1.96341118155E+01	5.85024252701E+01	-5.39051444028E+01	-8.80510586135E+01	-2.96475842503E+01	1.90669361512E+01
4.14786087343E+06	-5.28391062555E+00	-1.77546861120E+02	1.97893763900E+01	5.81486333703E+01	-4.63635856201E+01	2.24305431669E+01	-2.74428184908E+01	3.46407679654E+01
4.19783309257E+06	-6.16304841779E+00	1.78426944373E+02	2.00471352733E+01	5.81092358980E+01	-4.96252014420E+01	-1.22269232832E+02	-2.98153987672E+01	1.35269747811E+01
4.24780531170E+06	-6.10209686593E+00	-1.73150330166E+02	2.00657408066E+01	5.66894427422E+01	-5.16608283906E+01	-8.84285268056E+01	-2.84481279025E+01	1.80862284802E+01
4.29777753084E+06	-6.31660796521E+00	-1.73221883513E+02	2.01835452959E+01	5.61684203153E+01	-4.50624944124E+01	8.66310820296E+01	-2.93510677487E+01	4.79294174361E+01
4.34774974997E+06	-6.55965811070E+00	1.78774129715E+02	2.03697900652E+01	5.67275129339E+01	-4.56725132552E+01	2.29317729647E+00	-2.60788916613E+01	2.89792884066E+01
4.39772196911E+06	-5.41796919660E+00	-1.74002787793E+02	2.03196394062E+01	5.57232828368E+01	-4.83908423768E+01	1.39377906691E+01	-2.72837001367E+01	3.07979683349E+01
4.44769418824E+06	-5.61624662559E+00	-1.77634394151E+02	2.04526442769E+01	5.55469723904E+01	-3.98676385050E+01	-9.19324604550E+01	-2.65238209217E+01	-3.34089307295E+00
4.49766640738E+06	-5.87335314318E+00	-1.73016993741E+02	2.05713396692E+01	5.46986081927E+01	-4.80025566565E+01	-6.37032395457E+01	-2.78027665921E+01	1.54548953771E+01
4.54763862651E+06	-5.65967576250E+00	-1.76097597031E+02	2.06373176315E+01	5.48294920420E+01	-5.00773186074E+01	6.17451931786E+01	-2.83014471110E+01	4.07123228475E+01
4.59761084565E+06	-6.27921469949E+00	-1.77372844133E+02	2.08082500934E+01	5.43776911497E+01	-5.36477617060E+01	4.60896548304E+01	-2.77178132107E+01	3.58705473984E+01
4.64758306478E+06	-5.51739632725E+00	-1.75407930882E+02	2.08196774013E+01	5.38430777174E+01	-4.62382476915E+01	-1.29514253037E+02	-3.09320952004E+01	7.16378677763E+00
4.69755528392E+06	-5.28080284477E+00	-1.79626838962E+02	2.09039514047E+01	5.42214923206E+01	-4.86790909962E+01	-1.57561682263E+02	-3.23850513696E+01	-9.02537597642E-02
4.74752750306E+06	-6.08562814695E+00	-1.73570114180E+02	2.10325070499E+01	5.26721612387E+01	-5.08425313068E+01	1.20918399100E+02	-3.03816163253E+01	4.06004731661E+01
4.79749972219E+06	-6.64883525393E+00	-1.72980445071E+02	2.12256316469E+01	5.19212017718E+01	-5.47987200426E+01	-1.70078001264E+02	-3.01874092502E+01	2.73874039182E+01
4.84747194133E+06	-5.44386150972E+00	-1.77073330912E+02	2.11758787711E+01	5.25107766827E+01	-4.28834177891E+01	-1.27754475729E+02	-3.05729877999E+01	-6.32766203905E+00
4.89744416046E+06	-6.15214758318E+00	-1.76422311251E+02	2.13592442934E+01	5.19039963276E+01	-5.07850485107E+01	-4.55446848609E+01	-2.75291716920E+01	2.70973164651E+01
4.94741637960E+06	-5.65461863429E+00	-1.73822811212E+02	2.13640639495E+01	5.13033639552E+01	-5.38753073813E+01	-6.47128573228E+01	-2.85450502137E+01	2.59659306545E+01
4.99738859873E+06	-5.15771026026E+00	-1.77048700956E+02	2.14083949084E+01	5.14190430923E+01	-4.75056937843E+01	-1.49909162806E+01	-2.65961817786E+01	2.65980755950E+01
5.04736081787E+06	-6.78482656903E+00	-1.77997053279E+02	2.16923590588E+01	5.07474079693E+01	-5.25403607846E+01	5.43118195092E+01	-2.73029319603E+01	3.36642162197E+01
5.09733303700E+06	-5.64604488203E+00	-1.77379932630E+02	2.16582544401E+01	5.08045673416E+01	-4.42519144298E+01	5.68596921023E+01	-2.67730075887E+01	4.99122117557E+01
5.14730525614E+06	-6.11280527264E+00	-1.76837360694E+02	2.17663268955E+01	5.01154175241E+01	-4.79096434231E+01	1.03397929446E+02	-2.91037464118E+01	5.43104500703E+01
5.19727747528E+06	-5.51928904599E+00	-1.75834962642E+02	2.17788530027E+01	4.94667791939E+01	-4.92328300450E+01	1.07146332622E+02	-2.88996383539E+01	4.92681948670E+01
5.24724969441E+06	-5.36830589154E+00	-1.78407776664E+02	2.18590041410E+01	4.94979568940E+01	-5.01698445702E+01	-1.07898664590E+02	-2.96878772039E+01	1.98740414073E+01
5.29722191355E+06	-6.06924331872E+00	-1.68534342564E+02	2.20214404659E+01	4.79510656925E+01	-4.61258844228E+01	-1.78549801813E+01	-2.57966567221E+01	3.06068202390E+01
5.34719413268E+06	-5.36374942047E+00	-1.75825810872E+02	2.19932790356E+01	4.83767182756E+01	-5.18083448007E+01	-1.54544770553E+02	-3.07118273263E+01	2.60139145560E+01
5.39716635182E+06	-5.14248429714E+00	-1.79635590911E+02	2.20941389758E+01	4.87268486193E+01	-4.83037188768E+01	8.48638630593E+01	-2.73808820190E+01	4.99053962887E+01
5.44713857095E+06	-4.98816699037E+00	-1.75475716011E+02	2.21329128753E+01	4.76472940028E+01	-4.32058491146E+01	-1.66341501909E+01	-2.47070110848E+01	2.67821929478E+01
5.49711079009E+06	-5.94104915769E+00	-1.79873128548E+02	2.23668679588E+01	4.72654118668E+01	-4.18800876835E+01	3.14693180246E+01	-2.43106081152E+01	4.28742357381E+01
5.54708300922E+06	-5.57792322586E+00	1.79381578168E+02	2.23980643716E+01	4.73653922589E+01	-4.30247327335E+01	-8.16178457774E+01	-2.70547863241E+01	3.37138413801E+00
5.59705522836E+06	-5.06839896388E+00	-1.78040150494E+02	2.23885608259E+01	4.68296367016E+01	-4.85827865133E+01	1.04899198779E+02	-2.86863461176E+01	5.19265707909E+01
5.64702744749E+06	-5.68241636445E+00	-1.70662738984E+02	2.25161100953E+01	4.54394063112E+01	-4.46873358981E+01	-3.20917366951E+01	-2.51627927967E+01	2.43304937314E+01
5.69699966663E+06	-5.40996408074E+00	-1.71874115775E+02	2.25872607101E+01	4.52168168847E+01	-4.97937392575E+01	-3.49230660952E+01	-2.65385461324E+01	2.78229311576E+01
5.74697188577E+06	-4.92757756137E+00	-1.76627150824E+02	2.24850810675E+01	4.54434203683E+01	-4.75996450372E+01	-5.98641927229E+01	-2.72978682209E+01	-5.59019832936E+00
5.79694410490E+06	-6.12344631407E+00	-1.68163258330E+02	2.27935087931E+01	4.38868021561E+01	-4.75189476192E+01	7.59338634258E+01	-2.67932511602E+01	5.33561082170E+01
5.84691632404E+06	-5.38273983431E+00	-1.78269814337E+02	2.28615771477E+01	4.46504183975E+01	-4.73597998966E+01	-2.88267570786E+01	-2.61079572475E+01	2.75544466855E+01
5.89688854317E+06	-5.56319844088E+00	-1.76497405363E+02	2.29188779592E+01	4.41394386688E+01	-5.12441240800E+01	1.60597812496E+02	-2.98308755008E+01	4.70058087523E+01
5.94686076231E+06	-6.08247723265E+00	-1.79899047287E+02	2.30792296171E+01	4.40680191209E+01	-4.18308601740E+01	-5.43664607776E+01	-2.57212872911E+01	8.56930880239E+00
5.99683298144E+06	-6.30867314003E+00	-1.77397747360E+02	2.31539356533E+01	4.32909715558E+01	-4.39855087932E+01	-9.86776918428E+01	-2.93932716860E+01	5.04684291378E+00
6.04680520058E+06	-5.92315946034E+00	-1.72314034681E+02	2.31739279083E+01	4.25208394183E+01	-5.23449471078E+01	1.26165263872E+01	-2.63673410950E+01	3.95758556046E+01
6.09677741971E+06	-5.33988369715E+00	-1.73524386551E+02	2.31556393926E+01	4.22174381109E+01	-4.90527060702E+01	-8.69964041455E+01	-2.85411066325E+01	1.61767272541E+01
6.14674963885E+06	-6.34025440070E+00	-1.72222048029E+02	2.33416130330E+01	4.17087192415E+01	-5.01630387368E+01	1.23039772019E-02	-2.62586659602E+01	3.40737820034E+01
