# Hz S DB R 50
! CMT, M5065, 19127446, 24.2.4/2
! Date: 12/3/2024 4:16:16 PM
! Data: Format (Calibration Info)
! Freq	S11:dB/Ang(F2)	S21:dB/Ang(F2)	S12:dB/Ang(F2)	S22:dB/Ang(F2)
3.00000000000E+05	-5.08194604667E+00	1.75216384406E+02	8.23911624054E+00	9.18284210708E+01	-4.71866769103E+01	-1.84901392242E+01	-3.06574251339E+01	1.52140255672E+00
3.49972219135E+05	-5.90387202698E+00	-1.72388472928E+02	9.67499340019E+00	8.90561785597E+01	-4.11794550365E+01	8.95819661681E+01	-3.22925406098E+01	2.78545085914E+00
3.99944438271E+05	-5.96182045388E+00	1.78274411670E+02	1.10086013750E+01	8.85075655594E+01	-4.24104656694E+01	-6.55057829708E+01	-2.84211610017E+01	7.01517541395E+00
4.49916657406E+05	-4.72670487820E+00	-1.71686540690E+02	1.18605113918E+01	8.62761082540E+01	-4.86316515099E+01	5.80451280513E+01	-3.09595226462E+01	9.25799404819E+00
4.99888876542E+05	-6.74114219679E+00	-1.78088329225E+02	1.30482343020E+01	8.72456132383E+01	-4.64409711475E+01	-1.22382823246E+02	-2.92977090349E+01	1.23954551739E-01
5.49861095677E+05	-5.09796875061E+00	1.78953244564E+02	1.36074301690E+01	8.62953880900E+01	-4.38775960831E+01	-1.38153826382E+02	-2.86614961775E+01	-4.78022263240E+00
5.99833314813E+05	-5.63783563472E+00	-1.77917148784E+02	1.44540051986E+01	8.52756566095E+01	-4.92050692249E+01	1.63700173530E+01	-3.00902832702E+01	1.09115526448E+01
6.49805533948E+05	-5.24830562363E+00	-1.74624972284E+02	1.51285952487E+01	8.38906173798E+01	-4.60679908239E+01	-1.35335583648E+02	-2.84452832319E+01	-6.46288238447E+00
6.99777753084E+05	-5.98950135160E+00	-1.77625550813E+02	1.58585866970E+01	8.36806804116E+01	-4.75200575557E+01	-1.51505341021E+02	-2.95521750686E+01	-1.08625248290E+01
7.49749972219E+05	-5.42466531766E+00	-1.73860009684E+02	1.63189830038E+01	8.28912678987E+01	-3.91527122577E+01	1.43054341834E+02	-3.35297715139E+01	-3.67430747161E+01
7.99722191355E+05	-6.16227875278E+00	-1.75165888973E+02	1.70446233953E+01	8.21843362295E+01	-4.40614300754E+01	1.21848129453E+02	-3.45893181254E+01	-1.24010174019E+00
8.49694410490E+05	-5.70633395330E+00	-1.75748706456E+02	1.74499725068E+01	8.10319569875E+01	-4.74495323778E+01	-9.27636537544E+01	-2.84322630555E+01	3.39866268299E+00
8.99666629626E+05	-5.96014725932E+00	1.76146116555E+02	1.80277730979E+01	8.16877566155E+01	-4.66941554692E+01	6.10691506227E+01	-3.44276621719E+01	1.90488324186E+01
9.49638848761E+05	-6.09972196606E+00	-1.77751024930E+02	1.84560199363E+01	8.03070170276E+01	-4.34159184490E+01	-7.72640451016E+01	-2.68629441011E+01	7.93813630287E+00
9.99611067896E+05	-6.16032602911E+00	-1.70974393636E+02	1.89437065364E+01	7.90361690135E+01	-4.51841544889E+01	-6.21701886543E+01	-2.76039469553E+01	7.14444980896E+00
1.04958328703E+06	-6.00767369547E+00	-1.78034986635E+02	1.92740487904E+01	7.91351930003E+01	-5.39902972096E+01	2.25493141220E+01	-3.01899671438E+01	1.80862285999E+01
1.09955550617E+06	-5.48050464982E+00	-1.79162278760E+02	1.96918147779E+01	7.88440980850E+01	-6.04595517034E+01	1.09396057094E+02	-3.16137347417E+01	8.12124819767E+00
1.14952772530E+06	-5.81028321047E+00	-1.78609735206E+02	2.00691424466E+01	7.78164124959E+01	-4.93670350251E+01	1.39224931748E+02	-3.28472452988E+01	3.44526834038E+00
1.19949994444E+06	-6.92148878235E+00	-1.79376798378E+02	2.05554915955E+01	7.76940683535E+01	-4.91115454715E+01	6.66014485994E+01	-3.30605560992E+01	3.66025657611E+01
1.24947216357E+06	-5.03718832045E+00	-1.77725933331E+02	2.07188434515E+01	7.66124283001E+01	-4.18917872603E+01	-6.13653685414E+01	-2.55675674618E+01	7.00197265894E+00
1.29944438271E+06	-5.82512128726E+00	-1.74007160559E+02	2.11577318596E+01	7.54940125320E+01	-4.23431245223E+01	-7.21609825085E+01	-2.51727045635E+01	3.47240300584E+00
1.34941660184E+06	-5.85614902220E+00	1.77337888957E+02	2.14693459561E+01	7.61643651247E+01	-4.28944474538E+01	-8.61081045515E+01	-2.56821842199E+01	-8.99024112575E-01
1.39938882098E+06	-5.90193261556E+00	-1.74075001691E+02	2.17711914486E+01	7.44338474461E+01	-5.53728862720E+01	7.30286991362E+01	-3.06480804006E+01	1.93849438416E+01
1.44936104012E+06	-6.31196738923E+00	-1.72828555797E+02	2.21401137005E+01	7.37786752329E+01	-5.41054556783E+01	-9.68256596624E-01	-2.92013204228E+01	1.37971611042E+01
1.49933325925E+06	-6.07031756224E+00	1.78358316275E+02	2.24084600787E+01	7.42328154354E+01	-4.92698508526E+01	-6.52355741728E+01	-2.83741105708E+01	8.84547417582E+00
1.54930547839E+06	-5.12052053696E+00	1.78713583687E+02	2.25683850315E+01	7.38899046012E+01	-5.56202401833E+01	7.45113149117E+01	-3.24359847208E+01	2.24878354804E+01
1.59927769752E+06	-6.18248266785E+00	-1.76982254029E+02	2.29712749272E+01	7.25507477000E+01	-5.41662194255E+01	-8.04768398021E+01	-2.77688148161E+01	-2.05627195591E+00
1.64924991666E+06	-6.94897676220E+00	-1.76486019487E+02	2.33014216387E+01	7.19083065681E+01	-4.64651020911E+01	-1.71405497119E+02	-3.11068695095E+01	-1.73192851180E+01
1.69922213579E+06	-6.42758645034E+00	-1.78073775978E+02	2.35004145104E+01	7.13865669117E+01	-6.28321989442E+01	9.59877666526E+01	-3.09886441436E+01	3.43120794989E+00
1.74919435493E+06	-4.91851004700E+00	1.79817555436E+02	2.35320290019E+01	7.13540097924E+01	-4.49486378354E+01	-1.37486339828E+02	-2.85048889888E+01	-2.11233852370E+01
1.79916657406E+06	-5.76445241163E+00	1.79176578640E+02	2.39352686800E+01	7.05859157056E+01	-4.11496539851E+01	-9.88356881720E+00	-2.43630415372E+01	3.38932474966E+01
1.84913879320E+06	-5.91173236190E+00	-1.76235773866E+02	2.41494556578E+01	6.96734272979E+01	-5.35306549087E+01	-1.58870203673E+02	-3.01099242969E+01	-9.30648633298E+00
1.89911101233E+06	-5.73983664850E+00	1.77446864654E+02	2.43444279473E+01	7.06965621675E+01	-4.40131316929E+01	9.17910903145E+01	-3.60326802306E+01	8.16254864703E+01
1.94908323147E+06	-5.31530422477E+00	-1.79731220312E+02	2.45165674006E+01	6.89317550865E+01	-5.04436987156E+01	-1.21408174391E+02	-3.18181191145E+01	-3.28355406075E+01
1.99905545061E+06	-5.16467859439E+00	-1.76720446619E+02	2.47185861181E+01	6.78283670142E+01	-4.93433706788E+01	1.18274214605E+02	-3.59820893410E+01	2.43484519038E+01
2.04902766974E+06	-4.86768021382E+00	-1.73288096035E+02	2.48961824234E+01	6.69726982487E+01	-5.68334044534E+01	1.34744258433E+02	-3.44756539685E+01	1.26362447030E+01
2.09899988888E+06	-5.15008363664E+00	-1.75451581432E+02	2.51412303593E+01	6.64130302174E+01	-5.75664373614E+01	1.27437036788E+02	-3.24891760896E+01	1.01656158406E+01
2.14897210801E+06	-6.01931516845E+00	-1.78063174895E+02	2.54798045975E+01	6.61605766610E+01	-4.79577718699E+01	-1.70342859382E+02	-3.02805246910E+01	-1.80650873261E+01
2.19894432715E+06	-6.90996282183E+00	-1.78544080793E+02	2.57629905545E+01	6.57314140934E+01	-4.78129036148E+01	3.28291881706E+01	-2.57495339087E+01	5.07137131983E+01
2.24891654628E+06	-4.02373998375E+00	-1.72739450510E+02	2.53832806666E+01	6.46007912647E+01	-4.29896732864E+01	3.77201639269E+01	-2.65621787619E+01	5.75359426914E+01
2.29888876542E+06	-5.27058371596E+00	-1.72036375096E+02	2.59370313014E+01	6.37730124956E+01	-3.82985324732E+01	-1.13878592567E+02	-1.52211207882E+01	-4.06972289504E+01
2.34886098455E+06	-5.46753413536E+00	-1.77092900325E+02	2.61480621691E+01	6.40922976577E+01	-4.49805846523E+01	-1.18341408007E+02	-2.48500057679E+01	-2.13022645288E+01
2.39883320369E+06	-5.32638837519E+00	-1.73538864781E+02	2.62848432585E+01	6.30195483773E+01	-5.18879330562E+01	3.56568561819E+01	-2.79966090944E+01	3.27730406500E+01
2.44880542282E+06	-6.23802855200E+00	1.77107865078E+02	2.65982792215E+01	6.37507685569E+01	-4.20834077660E+01	-9.56524356948E+01	-2.37381695309E+01	-1.86513011742E+01
2.49877764196E+06	-6.48866753632E+00	-1.72640068998E+02	2.67894875869E+01	6.19125191952E+01	-5.06117825479E+01	2.49918887352E+01	-2.80581551223E+01	3.85713258787E+01
2.54874986110E+06	-5.83957493372E+00	1.79162430101E+02	2.68680637476E+01	6.22762234564E+01	-5.29284404114E+01	1.60566375495E+02	-3.51373006435E+01	9.14409559029E+00
2.59872208023E+06	-6.51772062867E+00	-1.78342266453E+02	2.72299581190E+01	6.15320874592E+01	-5.31628330815E+01	-5.59493653047E+01	-2.67025996049E+01	9.76037341978E+00
2.64869429937E+06	-6.48686074431E+00	-1.76701648644E+02	2.72626755266E+01	6.06455477195E+01	-4.59867788170E+01	6.71329560412E+01	-2.53637578041E+01	7.30863135839E+01
2.69866651850E+06	-5.63413786949E+00	-1.75908876164E+02	2.73203611107E+01	6.00529811450E+01	-5.92292687840E+01	1.78353356643E+01	-2.74936229209E+01	2.26435260484E+01
2.74863873764E+06	-5.73651068001E+00	-1.79068525708E+02	2.74901592668E+01	5.98115107827E+01	-6.23845811026E+01	7.07308381273E+01	-3.01304030145E+01	2.22407437912E+01
2.79861095677E+06	-6.01810060181E+00	-1.72554479460E+02	2.77039299816E+01	5.83644219565E+01	-5.23908355117E+01	1.19885810457E+02	-3.42023726754E+01	3.22422025045E+01
2.84858317591E+06	-7.33959856417E+00	-1.76988854514E+02	2.79671633735E+01	5.85221996176E+01	-5.72051883022E+01	-5.91734643627E+01	-2.84145825623E+01	1.51105427968E+01
2.89855539504E+06	-5.76769934796E+00	-1.79454378203E+02	2.79672182421E+01	5.82078979746E+01	-5.13750280795E+01	-1.27458121974E+01	-2.66309756759E+01	2.19219770108E+01
2.94852761418E+06	-5.56774167404E+00	1.76855109497E+02	2.80923756920E+01	5.82719433822E+01	-5.81254287146E+01	-8.20508113609E+01	-2.81201508868E+01	4.85496910885E+00
2.99849983331E+06	-6.09178760014E+00	-1.70784198860E+02	2.82555206289E+01	5.60351007441E+01	-6.21028478003E+01	-6.85625925820E+00	-2.81921704268E+01	1.18494854496E+01
3.04847205245E+06	-5.70677405041E+00	-1.75072074528E+02	2.83712363529E+01	5.60750200206E+01	-4.44638979752E+01	5.99248670856E+01	-2.43851289044E+01	6.76381436644E+01
3.09844427159E+06	-5.45135022748E+00	-1.68702034376E+02	2.84441275627E+01	5.45758194770E+01	-4.08935590650E+01	1.44815472548E+02	-3.08846291819E+01	1.78675160062E+02
3.14841649072E+06	-5.98589742257E+00	-1.76934188236E+02	2.86825825672E+01	5.51100881118E+01	-5.58696993769E+01	2.39085950451E+01	-2.83752084630E+01	3.13688635913E+01
3.19838870986E+06	-6.23275108996E+00	-1.74213927771E+02	2.88292343534E+01	5.43173373099E+01	-4.42645253204E+01	-9.70628324947E+01	-2.53860775878E+01	-1.78973596552E+01
3.24836092899E+06	-4.98648213763E+00	-1.78665727485E+02	2.87979676170E+01	5.42858362478E+01	-5.52185321255E+01	-1.72632392268E+02	-3.59793059430E+01	1.55264494874E+01
3.29833314813E+06	-4.89025154643E+00	-1.79996384268E+02	2.89140206641E+01	5.42865420295E+01	-5.73214696284E+01	-1.05446708757E+02	-2.93317590444E+01	4.38981029284E+00
3.34830536726E+06	-6.28890954615E+00	-1.64779095696E+02	2.92216185574E+01	5.16006319464E+01	-4.74126710524E+01	-5.71861480770E+01	-2.43502111416E+01	3.94030648628E+00
3.39827758640E+06	-6.04880449291E+00	-1.77457911348E+02	2.93089547141E+01	5.24561060964E+01	-4.25445221501E+01	1.30014923252E+02	-3.10462907689E+01	1.48111752784E+02
3.44824980553E+06	-5.54252695357E+00	-1.75863684577E+02	2.93632109062E+01	5.16682702677E+01	-4.78375685368E+01	-1.37116355969E+02	-3.07585958679E+01	-2.91027114217E+01
3.49822202467E+06	-5.61008778126E+00	-1.77242827194E+02	2.94931052015E+01	5.13088943895E+01	-4.80866615052E+01	6.25783993164E+01	-2.59580691323E+01	6.01720900190E+01
3.54819424380E+06	-6.07696990642E+00	-1.73823028059E+02	2.96646690332E+01	5.03291570780E+01	-5.13692479770E+01	-9.71304971634E+01	-2.79600384443E+01	-5.47858313309E+00
3.59816646294E+06	-5.69370053643E+00	-1.78188103281E+02	2.97507234809E+01	5.04768986567E+01	-4.36451400337E+01	-1.68426889651E+01	-2.13724799336E+01	2.05870741051E+01
3.64813868208E+06	-5.81223983820E+00	-1.76107161469E+02	2.98797573310E+01	4.97914024735E+01	-4.80525394234E+01	-1.97410104736E+01	-2.35265355804E+01	1.95052776621E+01
3.69811090121E+06	-5.46578209513E+00	-1.75545975637E+02	2.99665584660E+01	4.90532848327E+01	-4.89299641426E+01	6.13430997584E+00	-2.50392605539E+01	4.12947391449E+01
3.74808312035E+06	-5.91446452225E+00	1.78635022106E+02	3.01240925207E+01	4.91524383505E+01	-4.22543510847E+01	-1.27570201606E+02	-2.74612203088E+01	-6.78298117326E+01
3.79805533948E+06	-5.79779637174E+00	-1.76457681171E+02	3.01947761314E+01	4.78767666695E+01	-4.51959396109E+01	-5.41043014506E+01	-2.32219480140E+01	2.80234408920E+00
3.84802755862E+06	-5.06416544491E+00	-1.74095002494E+02	3.01925286016E+01	4.73709832119E+01	-4.99940891559E+01	-1.76212428206E+02	-4.06429976781E+01	-2.43424010245E+01
3.89799977775E+06	-5.77817415609E+00	-1.75832844104E+02	3.04164383707E+01	4.66389151381E+01	-5.47380304113E+01	1.72968838954E+02	-3.51434378416E+01	2.51485152744E+01
3.94797199689E+06	-4.96320395870E+00	-1.74242104061E+02	3.03805393886E+01	4.62428700725E+01	-5.11512986391E+01	-1.34231625109E+02	-3.12909824999E+01	-7.76574319452E+00
3.99794421602E+06	-5.95003646386E+00	-1.73489110135E+02	3.05640374883E+01	4.52753110868E+01	-4.46577849188E+01	6.48144553478E+00	-2.17688803419E+01	3.36275210888E+01
4.04791643516E+06	-5.29314440532E+00	-1.79681375265E+02	3.06574907826E+01	4.57037591091E+01	-5.02911391538E+01	9.59100945774E+01	-2.73796275074E+01	8.19006232714E+01
4.09788865429E+06	-6.97928209158E+00	-1.78535436279E+02	3.09704588280E+01	4.47656491108E+01	-4.66687258351E+01	1.34751655319E+02	-3.09323125157E+01	1.17606259402E+02
4.14786087343E+06	-4.47885065094E+00	-1.78486250566E+02	3.07423173454E+01	4.46814720742E+01	-6.39778314064E+01	-1.09563063147E+02	-2.92145253817E+01	2.18809564782E+01
4.19783309257E+06	-5.87301360752E+00	-1.77580585765E+02	3.10371497816E+01	4.37896043030E+01	-5.09449487737E+01	-6.78194029577E+01	-2.62377135263E+01	-6.18232870967E-01
4.24780531170E+06	-6.57136171283E+00	-1.77064238136E+02	3.12119854351E+01	4.29886595211E+01	-4.94910496838E+01	-1.48894196127E+02	-3.41518795807E+01	-3.89023157067E+01
4.29777753084E+06	-5.59414072391E+00	-1.75485502034E+02	3.11788660136E+01	4.22886920531E+01	-4.87310542711E+01	-8.18489321245E+01	-2.76262925784E+01	-1.98201381543E+01
4.34774974997E+06	-5.55490067045E+00	1.78182350259E+02	3.13467446557E+01	4.28581588285E+01	-4.01356835757E+01	3.73966926224E+01	-1.84380070359E+01	5.46569710492E+01
4.39772196911E+06	-5.43987556511E+00	-1.77851305230E+02	3.13382783755E+01	4.16026543853E+01	-5.83033228922E+01	6.01336006342E+01	-2.74414647874E+01	2.51120188781E+01
4.44769418824E+06	-6.09438833107E+00	-1.76185129105E+02	3.15268451604E+01	4.07389321242E+01	-5.56505673337E+01	8.39247157661E+01	-2.65219683243E+01	5.37962070048E+01
4.49766640738E+06	-4.73815208777E+00	-1.73839723762E+02	3.14245996802E+01	4.00715608653E+01	-5.20625209006E+01	1.54976434037E+02	-3.44059424791E+01	6.88349286719E+01
4.54763862651E+06	-5.25673017857E+00	-1.73240929457E+02	3.15687817696E+01	3.95163310907E+01	-5.01801634491E+01	1.43083952132E+02	-3.27377427578E+01	9.13908360242E+01
4.59761084565E+06	-5.41098543253E+00	-1.73808991463E+02	3.16849098589E+01	3.88753039454E+01	-4.70548802431E+01	8.75646015379E+01	-2.52247637756E+01	7.65452512622E+01
4.64758306478E+06	-6.41367008085E+00	1.76339885860E+02	3.19369093392E+01	3.94266369844E+01	-4.79355826198E+01	-5.53116257907E+01	-2.43500459528E+01	-4.07467926097E+00
4.69755528392E+06	-6.36375723732E+00	1.76811721112E+02	3.20499445002E+01	3.85671001233E+01	-5.34358906578E+01	1.68250022016E+02	-3.50997184851E+01	5.83483158990E+01
4.74752750306E+06	-6.10699381982E+00	1.78566524167E+02	3.20787072598E+01	3.80508508635E+01	-4.79873395084E+01	5.72472062865E+01	-2.26685658846E+01	4.25239392208E+01
4.79749972219E+06	-5.21709328645E+00	-1.72728816229E+02	3.19854716223E+01	3.65969177988E+01	-4.25236695637E+01	1.44517290048E+02	-1.97202086591E+01	1.07417928980E+02
4.84747194133E+06	-5.09226529392E+00	-1.75667315428E+02	3.20697281758E+01	3.65940817757E+01	-6.52210497732E+01	-1.64197109513E+02	-3.09378391796E+01	2.33764605348E+01
4.89744416046E+06	-5.46920022817E+00	-1.74097401790E+02	3.22040549012E+01	3.55012109917E+01	-4.53495528422E+01	1.15889603446E+02	-2.48529341075E+01	9.74549880159E+01
4.94741637960E+06	-5.32597833391E+00	-1.77518294293E+02	3.22856357255E+01	3.56171889671E+01	-5.83699175484E+01	1.25035437436E+02	-3.05634790955E+01	4.90165225408E+01
4.99738859873E+06	-6.23241254871E+00	-1.69482290063E+02	3.24474241590E+01	3.40725454294E+01	-5.15108408045E+01	-5.50072083467E+01	-2.59106955074E+01	5.94644137560E+00
5.04736081787E+06	-5.31678075729E+00	-1.74882027382E+02	3.23958976411E+01	3.42300394901E+01	-4.69096654057E+01	-1.78976577004E+02	-3.52576920670E+01	1.50626393452E+02
5.09733303700E+06	-5.96802130219E+00	-1.70531517465E+02	3.25062103715E+01	3.30278082021E+01	-5.23149810616E+01	2.48037032447E+01	-2.45060838459E+01	4.14741800978E+01
5.14730525614E+06	-5.52544904842E+00	-1.75246566072E+02	3.25998781552E+01	3.31816031876E+01	-5.80345556323E+01	-1.76885195878E+02	-3.21343869566E+01	6.85459651980E+01
5.19727747528E+06	-5.47341385083E+00	-1.75064832905E+02	3.26561723341E+01	3.25713312441E+01	-4.96058732452E+01	7.01851891697E+01	-2.44653347648E+01	5.94698237815E+01
5.24724969441E+06	-5.33517982132E+00	-1.75719985010E+02	3.27292558874E+01	3.21985307975E+01	-4.63402015158E+01	-7.84362282814E+01	-2.50893413092E+01	-2.27877480893E+01
5.29722191355E+06	-5.87005573029E+00	-1.68933411350E+02	3.28438318392E+01	3.06947623131E+01	-5.54411600897E+01	-3.69250107853E+01	-2.65565468897E+01	1.26781888093E+01
5.34719413268E+06	-5.49279968098E+00	-1.70473949556E+02	3.28550887202E+01	3.02806187840E+01	-4.69727736195E+01	-1.77632381332E+02	-3.55730003686E+01	1.54683353708E+02
5.39716635182E+06	-6.31484973906E+00	-1.72355282181E+02	3.30759937811E+01	2.98155499507E+01	-4.95426481921E+01	-1.43502632176E+02	-3.62396583244E+01	-3.39081125454E+01
5.44713857095E+06	-5.85007858157E+00	-1.74461725792E+02	3.30517497711E+01	2.99097568066E+01	-4.90542087089E+01	-1.20131462128E+02	-3.29051491177E+01	-1.63022829417E+01
5.49711079009E+06	-5.19684254669E+00	-1.77694484380E+02	3.30533272007E+01	2.98523684821E+01	-5.09127794164E+01	9.82190859144E+01	-2.48667178606E+01	6.75356001219E+01
5.54708300922E+06	-6.11617141084E+00	-1.72403296974E+02	3.32356720517E+01	2.83646134843E+01	-4.63568898212E+01	-7.78364108392E+01	-2.52502720724E+01	-2.62440689243E+01
5.59705522836E+06	-5.85511453496E+00	-1.73965059370E+02	3.32639563445E+01	2.78932236547E+01	-5.00851847625E+01	-1.26550018065E+02	-3.51050573676E+01	-2.59725571717E+01
5.64702744749E+06	-5.55734231723E+00	-1.76552811654E+02	3.33182044895E+01	2.78178676098E+01	-4.85801650225E+01	-1.03430177497E+02	-2.93815062916E+01	-3.03616256039E+01
5.69699966663E+06	-5.07685683898E+00	-1.73401446828E+02	3.33103798232E+01	2.70839616087E+01	-4.77034513530E+01	1.65742007619E+02	-2.99523791631E+01	1.25359524574E+02
5.74697188577E+06	-5.30019556209E+00	-1.76806660210E+02	3.34326046100E+01	2.62374753945E+01	-4.52700276358E+01	9.45130829718E+01	-1.65293151389E+01	9.48697117481E+01
5.79694410490E+06	-5.26433380567E+00	-1.73722165955E+02	3.34504862916E+01	2.59548447363E+01	-4.54341622177E+01	-1.24196547948E+02	-3.03220182365E+01	-8.28186087475E+01
5.84691632404E+06	-4.91606625824E+00	-1.78023007662E+02	3.34938179646E+01	2.60617438161E+01	-4.34359331370E+01	-7.64657569077E+00	-2.07875677717E+01	1.26305107486E+01
5.89688854317E+06	-5.65300386219E+00	-1.78065730268E+02	3.36628579835E+01	2.52273431968E+01	-4.56506335345E+01	1.45616683903E+02	-2.48159680562E+01	1.14379553544E+02
5.94686076231E+06	-5.66941634890E+00	-1.79889507517E+02	3.37309261931E+01	2.49547809550E+01	-6.16159145805E+01	5.48880029905E+01	-2.51392782015E+01	4.28936975918E+01
5.99683298144E+06	-5.18463955681E+00	-1.74156188987E+02	3.36894221613E+01	2.38431574081E+01	-4.95824012998E+01	3.68622369070E+01	-2.21886457971E+01	4.21071197898E+01
6.04680520058E+06	-6.07468548214E+00	-1.76518366130E+02	3.38908028161E+01	2.35274740933E+01	-5.05824012699E+01	1.15425210666E+02	-2.51520712488E+01	7.40189990136E+01
6.09677741971E+06	-5.02983176110E+00	-1.79458037196E+02	3.38359997213E+01	2.34774802452E+01	-4.48521351248E+01	-1.22052910153E+02	-2.99605416118E+01	-8.33136710970E+01
6.14674963885E+06	-5.56076331423E+00	-1.78532452713E+02	3.39726243418E+01	2.26987061028E+01	-4.11175738144E+01	-1.51621749117E+02	-2.37429632597E+01	-1.53258991306E+02
