Freq.	V(out_fs)
1.00000000000000e+05	(3.92188474524891e+00dB,8.90926015303044e+01°)
1.00023028502082e+05	(3.92388455706964e+00dB,8.90923925795384e+01°)
1.00046062307284e+05	(3.92588436880371e+00dB,8.90921835806606e+01°)
1.00069101416826e+05	(3.92788418045107e+00dB,8.90919745336601e+01°)
1.00092145831930e+05	(3.92988399201169e+00dB,8.90917654385258e+01°)
1.00115195553817e+05	(3.93188380348552e+00dB,8.90915562952466e+01°)
1.00138250583710e+05	(3.93388361487252e+00dB,8.90913471038115e+01°)
1.00161310922831e+05	(3.93588342617266e+00dB,8.90911378642093e+01°)
1.00184376572403e+05	(3.93788323738589e+00dB,8.90909285764289e+01°)
1.00207447533648e+05	(3.93988304851217e+00dB,8.90907192404593e+01°)
1.00230523807790e+05	(3.94188285955147e+00dB,8.90905098562893e+01°)
1.00253605396052e+05	(3.94388267050374e+00dB,8.90903004239080e+01°)
1.00276692299659e+05	(3.94588248136894e+00dB,8.90900909433041e+01°)
1.00299784519833e+05	(3.94788229214704e+00dB,8.90898814144666e+01°)
1.00322882057800e+05	(3.94988210283800e+00dB,8.90896718373843e+01°)
1.00345984914784e+05	(3.95188191344176e+00dB,8.90894622120462e+01°)
1.00369093092010e+05	(3.95388172395829e+00dB,8.90892525384412e+01°)
1.00392206590702e+05	(3.95588153438756e+00dB,8.90890428165581e+01°)
1.00415325412088e+05	(3.95788134472953e+00dB,8.90888330463859e+01°)
1.00438449557391e+05	(3.95988115498414e+00dB,8.90886232279134e+01°)
1.00461579027839e+05	(3.96188096515137e+00dB,8.90884133611295e+01°)
1.00484713824658e+05	(3.96388077523117e+00dB,8.90882034460230e+01°)
1.00507853949074e+05	(3.96588058522350e+00dB,8.90879934825829e+01°)
1.00530999402313e+05	(3.96788039512832e+00dB,8.90877834707981e+01°)
1.00554150185604e+05	(3.96988020494559e+00dB,8.90875734106574e+01°)
1.00577306300174e+05	(3.97188001467527e+00dB,8.90873633021496e+01°)
1.00600467747249e+05	(3.97387982431733e+00dB,8.90871531452637e+01°)
1.00623634528060e+05	(3.97587963387171e+00dB,8.90869429399884e+01°)
1.00646806643832e+05	(3.97787944333838e+00dB,8.90867326863127e+01°)
1.00669984095796e+05	(3.97987925271731e+00dB,8.90865223842255e+01°)
1.00693166885180e+05	(3.98187906200844e+00dB,8.90863120337155e+01°)
1.00716355013213e+05	(3.98387887121174e+00dB,8.90861016347717e+01°)
1.00739548481125e+05	(3.98587868032716e+00dB,8.90858911873828e+01°)
1.00762747290145e+05	(3.98787848935468e+00dB,8.90856806915378e+01°)
1.00785951441503e+05	(3.98987829829424e+00dB,8.90854701472255e+01°)
1.00809160936429e+05	(3.99187810714581e+00dB,8.90852595544346e+01°)
1.00832375776155e+05	(3.99387791590935e+00dB,8.90850489131542e+01°)
1.00855595961910e+05	(3.99587772458481e+00dB,8.90848382233729e+01°)
1.00878821494927e+05	(3.99787753317216e+00dB,8.90846274850797e+01°)
1.00902052376435e+05	(3.99987734167135e+00dB,8.90844166982633e+01°)
1.00925288607668e+05	(4.00187715008234e+00dB,8.90842058629126e+01°)
1.00948530189857e+05	(4.00387695840509e+00dB,8.90839949790165e+01°)
1.00971777124234e+05	(4.00587676663958e+00dB,8.90837840465637e+01°)
1.00995029412032e+05	(4.00787657478574e+00dB,8.90835730655431e+01°)
1.01018287054483e+05	(4.00987638284354e+00dB,8.90833620359435e+01°)
1.01041550052821e+05	(4.01187619081294e+00dB,8.90831509577537e+01°)
1.01064818408279e+05	(4.01387599869391e+00dB,8.90829398309625e+01°)
1.01088092122091e+05	(4.01587580648639e+00dB,8.90827286555588e+01°)
1.01111371195490e+05	(4.01787561419035e+00dB,8.90825174315313e+01°)
1.01134655629712e+05	(4.01987542180575e+00dB,8.90823061588689e+01°)
1.01157945425989e+05	(4.02187522933255e+00dB,8.90820948375603e+01°)
1.01181240585558e+05	(4.02387503677069e+00dB,8.90818834675944e+01°)
1.01204541109654e+05	(4.02587484412016e+00dB,8.90816720489600e+01°)
1.01227846999511e+05	(4.02787465138090e+00dB,8.90814605816458e+01°)
1.01251158256365e+05	(4.02987445855287e+00dB,8.90812490656406e+01°)
1.01274474881453e+05	(4.03187426563604e+00dB,8.90810375009334e+01°)
1.01297796876010e+05	(4.03387407263036e+00dB,8.90808258875128e+01°)
1.01321124241273e+05	(4.03587387953579e+00dB,8.90806142253675e+01°)
1.01344456978479e+05	(4.03787368635229e+00dB,8.90804025144865e+01°)
1.01367795088864e+05	(4.03987349307982e+00dB,8.90801907548585e+01°)
1.01391138573667e+05	(4.04187329971833e+00dB,8.90799789464723e+01°)
1.01414487434125e+05	(4.04387310626779e+00dB,8.90797670893166e+01°)
1.01437841671476e+05	(4.04587291272816e+00dB,8.90795551833802e+01°)
1.01461201286958e+05	(4.04787271909940e+00dB,8.90793432286519e+01°)
1.01484566281809e+05	(4.04987252538145e+00dB,8.90791312251205e+01°)
1.01507936657269e+05	(4.05187233157429e+00dB,8.90789191727747e+01°)
1.01531312414576e+05	(4.05387213767787e+00dB,8.90787070716032e+01°)
1.01554693554969e+05	(4.05587194369216e+00dB,8.90784949215950e+01°)
1.01578080079690e+05	(4.05787174961710e+00dB,8.90782827227386e+01°)
1.01601471989976e+05	(4.05987155545266e+00dB,8.90780704750229e+01°)
1.01624869287069e+05	(4.06187136119879e+00dB,8.90778581784366e+01°)
1.01648271972209e+05	(4.06387116685547e+00dB,8.90776458329685e+01°)
1.01671680046637e+05	(4.06587097242264e+00dB,8.90774334386073e+01°)
1.01695093511594e+05	(4.06787077790026e+00dB,8.90772209953418e+01°)
1.01718512368321e+05	(4.06987058328830e+00dB,8.90770085031606e+01°)
1.01741936618060e+05	(4.07187038858670e+00dB,8.90767959620526e+01°)
1.01765366262053e+05	(4.07387019379544e+00dB,8.90765833720065e+01°)
1.01788801301542e+05	(4.07586999891446e+00dB,8.90763707330110e+01°)
1.01812241737769e+05	(4.07786980394373e+00dB,8.90761580450549e+01°)
1.01835687571978e+05	(4.07986960888321e+00dB,8.90759453081268e+01°)
1.01859138805411e+05	(4.08186941373285e+00dB,8.90757325222156e+01°)
1.01882595439312e+05	(4.08386921849262e+00dB,8.90755196873098e+01°)
1.01906057474924e+05	(4.08586902316247e+00dB,8.90753068033983e+01°)
1.01929524913492e+05	(4.08786882774236e+00dB,8.90750938704698e+01°)
1.01952997756260e+05	(4.08986863223225e+00dB,8.90748808885130e+01°)
1.01976476004471e+05	(4.09186843663209e+00dB,8.90746678575166e+01°)
1.01999959659371e+05	(4.09386824094185e+00dB,8.90744547774693e+01°)
1.02023448722206e+05	(4.09586804516148e+00dB,8.90742416483598e+01°)
1.02046943194219e+05	(4.09786784929095e+00dB,8.90740284701769e+01°)
1.02070443076658e+05	(4.09986765333022e+00dB,8.90738152429092e+01°)
1.02093948370767e+05	(4.10186745727922e+00dB,8.90736019665454e+01°)
1.02117459077794e+05	(4.10386726113794e+00dB,8.90733886410743e+01°)
1.02140975198984e+05	(4.10586706490633e+00dB,8.90731752664845e+01°)
1.02164496735585e+05	(4.10786686858433e+00dB,8.90729618427647e+01°)
1.02188023688843e+05	(4.10986667217193e+00dB,8.90727483699036e+01°)
1.02211556060006e+05	(4.11186647566907e+00dB,8.90725348478900e+01°)
1.02235093850322e+05	(4.11386627907570e+00dB,8.90723212767124e+01°)
1.02258637061039e+05	(4.11586608239180e+00dB,8.90721076563596e+01°)
1.02282185693404e+05	(4.11786588561732e+00dB,8.90718939868203e+01°)
1.02305739748666e+05	(4.11986568875220e+00dB,8.90716802680831e+01°)
1.02329299228075e+05	(4.12186549179642e+00dB,8.90714665001367e+01°)
1.02352864132878e+05	(4.12386529474994e+00dB,8.90712526829697e+01°)
1.02376434464327e+05	(4.12586509761270e+00dB,8.90710388165709e+01°)
1.02400010223669e+05	(4.12786490038468e+00dB,8.90708249009290e+01°)
1.02423591412156e+05	(4.12986470306581e+00dB,8.90706109360325e+01°)
1.02447178031037e+05	(4.13186450565608e+00dB,8.90703969218702e+01°)
1.02470770081564e+05	(4.13386430815542e+00dB,8.90701828584306e+01°)
1.02494367564986e+05	(4.13586411056381e+00dB,8.90699687457026e+01°)
1.02517970482555e+05	(4.13786391288120e+00dB,8.90697545836746e+01°)
1.02541578835522e+05	(4.13986371510753e+00dB,8.90695403723354e+01°)
1.02565192625140e+05	(4.14186351724279e+00dB,8.90693261116737e+01°)
1.02588811852659e+05	(4.14386331928693e+00dB,8.90691118016780e+01°)
1.02612436519333e+05	(4.14586312123990e+00dB,8.90688974423369e+01°)
1.02636066626414e+05	(4.14786292310165e+00dB,8.90686830336393e+01°)
1.02659702175154e+05	(4.14986272487214e+00dB,8.90684685755736e+01°)
1.02683343166808e+05	(4.15186252655135e+00dB,8.90682540681286e+01°)
1.02706989602627e+05	(4.15386232813922e+00dB,8.90680395112928e+01°)
1.02730641483867e+05	(4.15586212963571e+00dB,8.90678249050549e+01°)
1.02754298811780e+05	(4.15786193104078e+00dB,8.90676102494035e+01°)
1.02777961587622e+05	(4.15986173235439e+00dB,8.90673955443273e+01°)
1.02801629812646e+05	(4.16186153357648e+00dB,8.90671807898148e+01°)
1.02825303488109e+05	(4.16386133470704e+00dB,8.90669659858547e+01°)
1.02848982615264e+05	(4.16586113574600e+00dB,8.90667511324356e+01°)
1.02872667195367e+05	(4.16786093669333e+00dB,8.90665362295462e+01°)
1.02896357229674e+05	(4.16986073754900e+00dB,8.90663212771750e+01°)
1.02920052719442e+05	(4.17186053831294e+00dB,8.90661062753106e+01°)
1.02943753665926e+05	(4.17386033898513e+00dB,8.90658912239416e+01°)
1.02967460070382e+05	(4.17586013956550e+00dB,8.90656761230567e+01°)
1.02991171934069e+05	(4.17785994005405e+00dB,8.90654609726445e+01°)
1.03014889258242e+05	(4.17985974045071e+00dB,8.90652457726935e+01°)
1.03038612044161e+05	(4.18185954075544e+00dB,8.90650305231924e+01°)
1.03062340293081e+05	(4.18385934096820e+00dB,8.90648152241297e+01°)
1.03086074006261e+05	(4.18585914108895e+00dB,8.90645998754941e+01°)
1.03109813184961e+05	(4.18785894111765e+00dB,8.90643844772741e+01°)
1.03133557830437e+05	(4.18985874105424e+00dB,8.90641690294583e+01°)
1.03157307943950e+05	(4.19185854089870e+00dB,8.90639535320353e+01°)
1.03181063526758e+05	(4.19385834065098e+00dB,8.90637379849937e+01°)
1.03204824580121e+05	(4.19585814031103e+00dB,8.90635223883220e+01°)
1.03228591105299e+05	(4.19785793987882e+00dB,8.90633067420088e+01°)
1.03252363103551e+05	(4.19985773935429e+00dB,8.90630910460428e+01°)
1.03276140576139e+05	(4.20185753873742e+00dB,8.90628753004125e+01°)
1.03299923524322e+05	(4.20385733802815e+00dB,8.90626595051064e+01°)
1.03323711949362e+05	(4.20585713722644e+00dB,8.90624436601131e+01°)
1.03347505852520e+05	(4.20785693633226e+00dB,8.90622277654212e+01°)
1.03371305235057e+05	(4.20985673534556e+00dB,8.90620118210192e+01°)
1.03395110098236e+05	(4.21185653426629e+00dB,8.90617958268957e+01°)
1.03418920443318e+05	(4.21385633309441e+00dB,8.90615797830392e+01°)
1.03442736271566e+05	(4.21585613182989e+00dB,8.90613636894384e+01°)
1.03466557584242e+05	(4.21785593047267e+00dB,8.90611475460817e+01°)
1.03490384382610e+05	(4.21985572902272e+00dB,8.90609313529577e+01°)
1.03514216667933e+05	(4.22185552747999e+00dB,8.90607151100549e+01°)
1.03538054441474e+05	(4.22385532584444e+00dB,8.90604988173619e+01°)
1.03561897704497e+05	(4.22585512411602e+00dB,8.90602824748673e+01°)
1.03585746458267e+05	(4.22785492229470e+00dB,8.90600660825595e+01°)
1.03609600704047e+05	(4.22985472038043e+00dB,8.90598496404271e+01°)
1.03633460443103e+05	(4.23185451837317e+00dB,8.90596331484586e+01°)
1.03657325676699e+05	(4.23385431627288e+00dB,8.90594166066425e+01°)
1.03681196406101e+05	(4.23585411407951e+00dB,8.90592000149674e+01°)
1.03705072632575e+05	(4.23785391179302e+00dB,8.90589833734219e+01°)
1.03728954357386e+05	(4.23985370941336e+00dB,8.90587666819943e+01°)
1.03752841581800e+05	(4.24185350694050e+00dB,8.90585499406733e+01°)
1.03776734307084e+05	(4.24385330437440e+00dB,8.90583331494473e+01°)
1.03800632534505e+05	(4.24585310171499e+00dB,8.90581163083050e+01°)
1.03824536265330e+05	(4.24785289896226e+00dB,8.90578994172347e+01°)
1.03848445500826e+05	(4.24985269611615e+00dB,8.90576824762249e+01°)
1.03872360242261e+05	(4.25185249317662e+00dB,8.90574654852643e+01°)
1.03896280490902e+05	(4.25385229014362e+00dB,8.90572484443412e+01°)
1.03920206248019e+05	(4.25585208701712e+00dB,8.90570313534442e+01°)
1.03944137514879e+05	(4.25785188379707e+00dB,8.90568142125619e+01°)
1.03968074292751e+05	(4.25985168048342e+00dB,8.90565970216826e+01°)
1.03992016582904e+05	(4.26185147707615e+00dB,8.90563797807949e+01°)
1.04015964386609e+05	(4.26385127357518e+00dB,8.90561624898872e+01°)
1.04039917705134e+05	(4.26585106998051e+00dB,8.90559451489481e+01°)
1.04063876539749e+05	(4.26785086629206e+00dB,8.90557277579660e+01°)
1.04087840891725e+05	(4.26985066250980e+00dB,8.90555103169294e+01°)
1.04111810762332e+05	(4.27185045863370e+00dB,8.90552928258268e+01°)
1.04135786152842e+05	(4.27385025466369e+00dB,8.90550752846467e+01°)
1.04159767064525e+05	(4.27585005059976e+00dB,8.90548576933775e+01°)
1.04183753498652e+05	(4.27784984644183e+00dB,8.90546400520078e+01°)
1.04207745456496e+05	(4.27984964218989e+00dB,8.90544223605259e+01°)
1.04231742939329e+05	(4.28184943784388e+00dB,8.90542046189204e+01°)
1.04255745948422e+05	(4.28384923340376e+00dB,8.90539868271796e+01°)
1.04279754485049e+05	(4.28584902886948e+00dB,8.90537689852921e+01°)
1.04303768550482e+05	(4.28784882424100e+00dB,8.90535510932464e+01°)
1.04327788145995e+05	(4.28984861951829e+00dB,8.90533331510308e+01°)
1.04351813272861e+05	(4.29184841470128e+00dB,8.90531151586338e+01°)
1.04375843932353e+05	(4.29384820978995e+00dB,8.90528971160440e+01°)
1.04399880125747e+05	(4.29584800478425e+00dB,8.90526790232496e+01°)
1.04423921854316e+05	(4.29784779968413e+00dB,8.90524608802392e+01°)
1.04447969119335e+05	(4.29984759448956e+00dB,8.90522426870012e+01°)
1.04472021922078e+05	(4.30184738920048e+00dB,8.90520244435241e+01°)
1.04496080263822e+05	(4.30384718381687e+00dB,8.90518061497963e+01°)
1.04520144145842e+05	(4.30584697833865e+00dB,8.90515878058061e+01°)
1.04544213569413e+05	(4.30784677276581e+00dB,8.90513694115422e+01°)
1.04568288535812e+05	(4.30984656709829e+00dB,8.90511509669927e+01°)
1.04592369046315e+05	(4.31184636133605e+00dB,8.90509324721463e+01°)
1.04616455102199e+05	(4.31384615547904e+00dB,8.90507139269913e+01°)
1.04640546704741e+05	(4.31584594952723e+00dB,8.90504953315162e+01°)
1.04664643855218e+05	(4.31784574348058e+00dB,8.90502766857093e+01°)
1.04688746554908e+05	(4.31984553733902e+00dB,8.90500579895591e+01°)
1.04712854805088e+05	(4.32184533110253e+00dB,8.90498392430540e+01°)
1.04736968607038e+05	(4.32384512477106e+00dB,8.90496204461823e+01°)
1.04761087962034e+05	(4.32584491834456e+00dB,8.90494015989326e+01°)
1.04785212871357e+05	(4.32784471182298e+00dB,8.90491827012932e+01°)
1.04809343336286e+05	(4.32984450520631e+00dB,8.90489637532525e+01°)
1.04833479358098e+05	(4.33184429849447e+00dB,8.90487447547988e+01°)
1.04857620938075e+05	(4.33384409168743e+00dB,8.90485257059207e+01°)
1.04881768077497e+05	(4.33584388478515e+00dB,8.90483066066065e+01°)
1.04905920777643e+05	(4.33784367778757e+00dB,8.90480874568446e+01°)
1.04930079039794e+05	(4.33984347069468e+00dB,8.90478682566233e+01°)
1.04954242865230e+05	(4.34184326350640e+00dB,8.90476490059311e+01°)
1.04978412255234e+05	(4.34384305622269e+00dB,8.90474297047564e+01°)
1.05002587211087e+05	(4.34584284884353e+00dB,8.90472103530874e+01°)
1.05026767734069e+05	(4.34784264136887e+00dB,8.90469909509127e+01°)
1.05050953825464e+05	(4.34984243379864e+00dB,8.90467714982205e+01°)
1.05075145486553e+05	(4.35184222613282e+00dB,8.90465519949993e+01°)
1.05099342718620e+05	(4.35384201837136e+00dB,8.90463324412373e+01°)
1.05123545522946e+05	(4.35584181051422e+00dB,8.90461128369231e+01°)
1.05147753900816e+05	(4.35784160256136e+00dB,8.90458931820449e+01°)
1.05171967853513e+05	(4.35984139451271e+00dB,8.90456734765911e+01°)
1.05196187382320e+05	(4.36184118636825e+00dB,8.90454537205501e+01°)
1.05220412488522e+05	(4.36384097812793e+00dB,8.90452339139102e+01°)
1.05244643173403e+05	(4.36584076979171e+00dB,8.90450140566598e+01°)
1.05268879438248e+05	(4.36784056135954e+00dB,8.90447941487871e+01°)
1.05293121284342e+05	(4.36984035283137e+00dB,8.90445741902807e+01°)
1.05317368712970e+05	(4.37184014420717e+00dB,8.90443541811288e+01°)
1.05341621725417e+05	(4.37383993548689e+00dB,8.90441341213197e+01°)
1.05365880322970e+05	(4.37583972667049e+00dB,8.90439140108418e+01°)
1.05390144506914e+05	(4.37783951775791e+00dB,8.90436938496835e+01°)
1.05414414278537e+05	(4.37983930874912e+00dB,8.90434736378330e+01°)
1.05438689639124e+05	(4.38183909964407e+00dB,8.90432533752787e+01°)
1.05462970589963e+05	(4.38383889044272e+00dB,8.90430330620090e+01°)
1.05487257132342e+05	(4.38583868114501e+00dB,8.90428126980121e+01°)
1.05511549267547e+05	(4.38783847175092e+00dB,8.90425922832764e+01°)
1.05535846996867e+05	(4.38983826226040e+00dB,8.90423718177902e+01°)
1.05560150321591e+05	(4.39183805267340e+00dB,8.90421513015418e+01°)
1.05584459243006e+05	(4.39383784298986e+00dB,8.90419307345195e+01°)
1.05608773762402e+05	(4.39583763320977e+00dB,8.90417101167117e+01°)
1.05633093881067e+05	(4.39783742333306e+00dB,8.90414894481067e+01°)
1.05657419600291e+05	(4.39983721335968e+00dB,8.90412687286927e+01°)
1.05681750921364e+05	(4.40183700328961e+00dB,8.90410479584581e+01°)
1.05706087845576e+05	(4.40383679312280e+00dB,8.90408271373911e+01°)
1.05730430374216e+05	(4.40583658285918e+00dB,8.90406062654801e+01°)
1.05754778508577e+05	(4.40783637249874e+00dB,8.90403853427134e+01°)
1.05779132249948e+05	(4.40983616204141e+00dB,8.90401643690793e+01°)
1.05803491599621e+05	(4.41183595148716e+00dB,8.90399433445660e+01°)
1.05827856558887e+05	(4.41383574083593e+00dB,8.90397222691618e+01°)
1.05852227129039e+05	(4.41583553008770e+00dB,8.90395011428551e+01°)
1.05876603311368e+05	(4.41783531924240e+00dB,8.90392799656341e+01°)
1.05900985107166e+05	(4.41983510830000e+00dB,8.90390587374871e+01°)
1.05925372517727e+05	(4.42183489726045e+00dB,8.90388374584023e+01°)
1.05949765544343e+05	(4.42383468612371e+00dB,8.90386161283681e+01°)
1.05974164188308e+05	(4.42583447488973e+00dB,8.90383947473727e+01°)
1.05998568450915e+05	(4.42783426355846e+00dB,8.90381733154044e+01°)
1.06022978333458e+05	(4.42983405212988e+00dB,8.90379518324515e+01°)
1.06047393837231e+05	(4.43183384060391e+00dB,8.90377302985021e+01°)
1.06071814963529e+05	(4.43383362898053e+00dB,8.90375087135447e+01°)
1.06096241713647e+05	(4.43583341725969e+00dB,8.90372870775674e+01°)
1.06120674088880e+05	(4.43783320544134e+00dB,8.90370653905585e+01°)
1.06145112090522e+05	(4.43983299352543e+00dB,8.90368436525062e+01°)
1.06169555719870e+05	(4.44183278151194e+00dB,8.90366218633988e+01°)
1.06194004978220e+05	(4.44383256940079e+00dB,8.90364000232246e+01°)
1.06218459866868e+05	(4.44583235719196e+00dB,8.90361781319718e+01°)
1.06242920387110e+05	(4.44783214488541e+00dB,8.90359561896286e+01°)
1.06267386540244e+05	(4.44983193248108e+00dB,8.90357341961833e+01°)
1.06291858327567e+05	(4.45183171997892e+00dB,8.90355121516241e+01°)
1.06316335750375e+05	(4.45383150737889e+00dB,8.90352900559392e+01°)
1.06340818809967e+05	(4.45583129468096e+00dB,8.90350679091169e+01°)
1.06365307507641e+05	(4.45783108188506e+00dB,8.90348457111455e+01°)
1.06389801844696e+05	(4.45983086899117e+00dB,8.90346234620130e+01°)
1.06414301822429e+05	(4.46183065599923e+00dB,8.90344011617079e+01°)
1.06438807442140e+05	(4.46383044290919e+00dB,8.90341788102182e+01°)
1.06463318705129e+05	(4.46583022972102e+00dB,8.90339564075322e+01°)
1.06487835612694e+05	(4.46783001643467e+00dB,8.90337339536381e+01°)
1.06512358166136e+05	(4.46982980305008e+00dB,8.90335114485242e+01°)
1.06536886366754e+05	(4.47182958956723e+00dB,8.90332888921786e+01°)
1.06561420215849e+05	(4.47382937598605e+00dB,8.90330662845895e+01°)
1.06585959714723e+05	(4.47582916230652e+00dB,8.90328436257452e+01°)
1.06610504864676e+05	(4.47782894852856e+00dB,8.90326209156339e+01°)
1.06635055667008e+05	(4.47982873465216e+00dB,8.90323981542437e+01°)
1.06659612123023e+05	(4.48182852067727e+00dB,8.90321753415628e+01°)
1.06684174234022e+05	(4.48382830660382e+00dB,8.90319524775795e+01°)
1.06708742001307e+05	(4.48582809243178e+00dB,8.90317295622820e+01°)
1.06733315426181e+05	(4.48782787816111e+00dB,8.90315065956583e+01°)
1.06757894509947e+05	(4.48982766379176e+00dB,8.90312835776968e+01°)
1.06782479253907e+05	(4.49182744932368e+00dB,8.90310605083855e+01°)
1.06807069659366e+05	(4.49382723475683e+00dB,8.90308373877128e+01°)
1.06831665727627e+05	(4.49582702009116e+00dB,8.90306142156666e+01°)
1.06856267459994e+05	(4.49782680532663e+00dB,8.90303909922354e+01°)
1.06880874857771e+05	(4.49982659046318e+00dB,8.90301677174071e+01°)
1.06905487922263e+05	(4.50182637550080e+00dB,8.90299443911699e+01°)
1.06930106654776e+05	(4.50382616043940e+00dB,8.90297210135121e+01°)
1.06954731056613e+05	(4.50582594527896e+00dB,8.90294975844218e+01°)
