# Hz S DB R 50
! CMT, M5065, 19127446, 24.2.4/2
! Date: 9/20/2024 3:19:42 PM
! Data: Format (Calibration Info)
! Freq	S11:dB/Ang(F2)	S21:dB/Ang(F2)	S12:dB/Ang(F2)	S22:dB/Ang(F2)
3.00000000000E+05	-1.56293130238E+01	8.94039225240E+00	-1.25218265293E+01	8.67800202192E+01	-4.91038023971E+01	-8.02709949515E+01	-2.93064557432E+01	4.03873583085E+00
3.28532647521E+05	-1.53268368292E+01	1.62558911693E+01	-1.22540790933E+01	8.68586520676E+01	-4.73456844218E+01	-9.30992648042E+00	-2.84773064416E+01	1.83381341790E+00
3.57065295042E+05	-1.36839673911E+01	1.07317683294E+01	-1.12662782167E+01	8.57084532360E+01	-4.12142451756E+01	1.02009754832E+02	-2.90083959218E+01	4.04908016545E-01
3.85597942563E+05	-1.59399258479E+01	1.34889400271E+00	-1.03037645239E+01	8.29992440554E+01	-3.90760260256E+01	-1.68728179212E+02	-2.94754967012E+01	1.52419930612E+00
4.14130590084E+05	-1.28500532041E+01	4.92984097343E+00	-9.91703291402E+00	8.54365178245E+01	-3.89602753621E+01	-1.59547584001E+02	-2.90967787924E+01	3.36773680426E+00
4.42663237605E+05	-1.46299602018E+01	-2.36415315267E+01	-9.20608871840E+00	8.47115960150E+01	-4.95344403321E+01	1.24595687460E+02	-2.89344740227E+01	1.33730678283E+00
4.71195885126E+05	-1.62668718160E+01	-1.69035120671E+01	-8.94165157866E+00	8.40488047025E+01	-4.59610645900E+01	-1.34582785658E+01	-2.90779665813E+01	3.48316297738E+00
4.99728532648E+05	-1.53496650655E+01	-2.16267777325E+01	-8.55582026481E+00	8.30936050463E+01	-3.90085707872E+01	-1.34380255918E+02	-2.94229265242E+01	3.14004195817E+00
5.28261180169E+05	-1.58356655905E+01	1.17662244945E+01	-8.16928492032E+00	8.23976372127E+01	-4.31628998133E+01	2.24562993861E+01	-2.95931630858E+01	2.28370800789E+00
5.56793827690E+05	-1.56647521357E+01	-1.92873298416E+01	-7.42337252050E+00	8.10882742861E+01	-3.88825096383E+01	-1.53502351604E+02	-2.89560134997E+01	6.36526300108E-01
5.85326475211E+05	-1.80222881934E+01	-3.41407105466E+00	-7.02769776674E+00	8.19613957726E+01	-4.32494478214E+01	-1.62371007507E+02	-2.86172678470E+01	-6.75986594326E-01
6.13859122732E+05	-1.32563848654E+01	2.08669424729E+00	-6.58916043099E+00	8.26941748741E+01	-4.12060326853E+01	-1.28977289080E+02	-2.86563892836E+01	6.33399591313E+00
6.42391770253E+05	-1.36674928392E+01	1.06307892802E+00	-6.26471648162E+00	8.17160583729E+01	-5.34757236094E+01	-5.78267719773E+01	-2.90846536520E+01	2.78319844396E+00
6.70924417774E+05	-1.35155876987E+01	-8.80914072204E+00	-5.90258536547E+00	8.10719576925E+01	-4.00814317536E+01	-6.97328565964E+01	-2.90698566141E+01	1.24785243869E+00
6.99457065295E+05	-1.94430024205E+01	-1.92562479249E+01	-5.36944199185E+00	8.16385249388E+01	-4.36819098403E+01	-1.35163823539E+02	-2.88879893500E+01	3.16712747915E+00
7.27989712816E+05	-1.52637075630E+01	-4.43306670979E+01	-5.47391658118E+00	8.08789048485E+01	-3.93819244269E+01	-7.67523725225E+01	-2.88617980684E+01	3.96340246509E+00
7.56522360337E+05	-1.25839571349E+01	6.44343919852E+00	-4.91260675688E+00	7.97218754698E+01	-3.70469146371E+01	-7.65126287045E+01	-2.89009477301E+01	2.60226003226E+00
7.85055007858E+05	-1.51193114105E+01	3.07968143842E+01	-4.42418790030E+00	8.03577442413E+01	-5.12436351861E+01	-7.00012269124E+01	-2.92858928738E+01	3.47343185257E+00
8.13587655379E+05	-2.17837488154E+01	-1.64684150232E+01	-4.54548283823E+00	7.95317962701E+01	-4.52904969798E+01	9.70590199559E+01	-2.89186739120E+01	5.25480879477E+00
8.42120302900E+05	-1.13938227941E+01	-2.41978002321E+01	-3.95846984040E+00	7.80752779839E+01	-4.56170142742E+01	-1.23202721885E+02	-2.88513042153E+01	3.73481031705E+00
8.70652950421E+05	-1.54663484566E+01	1.72208786290E+01	-3.61465075584E+00	7.99231299461E+01	-6.01333967196E+01	-1.05315030448E+02	-2.90003716376E+01	6.54981188925E+00
8.99185597943E+05	-1.39736833857E+01	-4.71200313428E+00	-3.26463068075E+00	7.77185299333E+01	-5.02624230073E+01	-1.52170987259E+02	-2.90581293271E+01	3.15652552431E+00
9.27718245464E+05	-1.53956526848E+01	-1.67536834592E+01	-3.29544185832E+00	7.79767241940E+01	-4.55592215654E+01	9.98232463033E+01	-2.90626374200E+01	5.14966024824E+00
9.56250892985E+05	-1.61214806383E+01	-1.24553418295E+01	-2.74606789821E+00	7.82410196241E+01	-4.11396084696E+01	1.67280756133E+01	-2.87486993875E+01	8.13653015668E+00
9.84783540506E+05	-1.51584421546E+01	-2.18520756258E+01	-2.45007625071E+00	7.72668824481E+01	-4.82220999065E+01	-2.26389878849E+00	-2.85013616303E+01	7.07009269409E+00
1.01331618803E+06	-1.58235952052E+01	9.51472187027E+00	-2.41714069929E+00	7.82756258790E+01	-5.20613862671E+01	9.47537594288E+01	-2.92869610693E+01	7.02125491336E+00
1.04184883555E+06	-1.59471422308E+01	-1.85642213867E+01	-2.03539208910E+00	7.58338196177E+01	-3.79627679035E+01	-4.53260157979E+01	-2.91467262521E+01	4.78243634388E+00
1.07038148307E+06	-1.43085257879E+01	-2.26883374199E+01	-1.79911749921E+00	7.63893515970E+01	-4.86535254329E+01	-1.33340859407E+02	-2.93493082328E+01	7.49014619236E+00
1.09891413059E+06	-1.38409116989E+01	-3.17362893193E+01	-1.62013999511E+00	7.57505446145E+01	-4.30405445904E+01	4.22296715853E+01	-2.90803065479E+01	8.40801966388E+00
1.12744677811E+06	-1.21047415527E+01	1.09330777833E+01	-1.52701196812E+00	7.59538960489E+01	-4.68886157352E+01	-8.94604262007E+01	-2.88611396126E+01	4.33400081520E+00
1.15597942563E+06	-1.55064522447E+01	3.15316852094E+01	-1.34492020492E+00	7.50543451165E+01	-4.36395247352E+01	-1.59134142735E+02	-2.90785344480E+01	6.09425799409E+00
1.18451207315E+06	-1.90485699332E+01	-3.19646345612E+01	-1.11611076799E+00	7.49590768028E+01	-4.32479414895E+01	-1.39455615783E+02	-2.86282666276E+01	7.66658807950E+00
1.21304472067E+06	-1.36130227955E+01	-2.07430529312E+01	-7.06159411743E-01	7.38050537663E+01	-3.40286383845E+01	-1.93475220071E+01	-2.90408826155E+01	7.53019579921E+00
1.24157736820E+06	-1.56814403995E+01	9.29940517080E+00	-6.14557667338E-01	7.35992439372E+01	-4.90599779039E+01	1.43420598139E+02	-2.90937950480E+01	6.83665046573E+00
1.27011001572E+06	-1.20000679264E+01	-2.37345311171E+01	-4.07869352195E-01	7.36503847668E+01	-4.61229911811E+01	-1.13169508301E+02	-2.89980904409E+01	6.01546407115E+00
1.29864266324E+06	-1.82300031274E+01	-1.17721383975E+01	-1.32801595060E-01	7.41992785983E+01	-4.84628437639E+01	1.23476898643E+02	-2.89723256009E+01	7.51811379975E+00
1.32717531076E+06	-1.71601389475E+01	4.51134050136E+01	-5.14957376463E-02	7.29605926344E+01	-5.22359441639E+01	6.50765348875E+01	-2.92480637359E+01	8.40279293827E+00
1.35570795828E+06	-1.49766218294E+01	9.72941835665E+00	2.26958823618E-01	7.31105394574E+01	-3.53247480650E+01	1.06878139303E+02	-2.92296005431E+01	5.40577199420E+00
1.38424060580E+06	-2.20713410157E+01	-3.51026736670E+01	4.48617211768E-01	7.25070283816E+01	-4.32209757513E+01	1.07920454378E+02	-2.91981390429E+01	7.34422354569E+00
1.41277325332E+06	-1.78297622425E+01	4.61739123595E+01	6.53324494908E-01	7.16412058668E+01	-5.19213807861E+01	-6.91803061267E+01	-2.85893060447E+01	8.06147426429E+00
1.44130590084E+06	-2.05264522990E+01	-4.57670292463E+01	6.79130336211E-01	7.12231825462E+01	-4.83205918435E+01	9.82455063093E+01	-2.91091464938E+01	9.82134848162E+00
1.46983854836E+06	-1.39859144110E+01	6.74852534078E-01	9.48256918600E-01	7.22561671658E+01	-5.41714576862E+01	-1.31950004161E+02	-2.85259654075E+01	6.90589010412E+00
1.49837119589E+06	-1.46055493627E+01	-1.37313673419E+01	1.06023274966E+00	7.14295253320E+01	-4.52497456316E+01	7.98156268430E+01	-2.85305774810E+01	9.27385110393E+00
1.52690384341E+06	-1.91138884056E+01	-3.19522200480E+01	1.24310733193E+00	7.02199507375E+01	-4.38453534095E+01	-1.02757835443E+02	-2.90175906693E+01	6.87111932884E+00
1.55543649093E+06	-1.42498987333E+01	-4.15506977595E+01	1.22187756574E+00	7.02557118708E+01	-4.50839539323E+01	-1.05171743383E+02	-2.88133822225E+01	4.30104531139E+00
1.58396913845E+06	-1.46277827796E+01	9.55142003323E+00	1.56451228380E+00	6.90177735863E+01	-4.47343852444E+01	-1.04766088080E+02	-2.93233408013E+01	7.34958663419E+00
1.61250178597E+06	-1.18143152191E+01	-1.59330214316E+01	1.66533106697E+00	6.91479450272E+01	-4.17052063589E+01	-2.81484770137E+00	-2.93132242706E+01	1.04890752193E+01
1.64103443349E+06	-1.75768395128E+01	9.27752125120E+00	1.82596572998E+00	6.92258219082E+01	-3.66914664918E+01	7.27770376313E+01	-2.90228928079E+01	8.47236336686E+00
1.66956708101E+06	-1.79130460414E+01	-2.48780042084E+01	2.02368850784E+00	6.88062828589E+01	-4.81342267843E+01	3.12941898812E+01	-2.87189495441E+01	8.65120727809E+00
1.69809972853E+06	-1.18793393069E+01	-6.09600701021E+00	2.17577933786E+00	6.78512856188E+01	-4.84917586144E+01	7.58501152088E+00	-2.92370496440E+01	8.98645910015E+00
1.72663237605E+06	-1.33079799049E+01	-3.21997728848E+01	2.20632975743E+00	6.76876056085E+01	-4.64819036222E+01	-7.55694244018E+01	-2.89508768532E+01	1.13162362344E+01
1.75516502357E+06	-1.69628151768E+01	1.43439337178E+01	2.35519298745E+00	6.74324391415E+01	-4.35934073713E+01	1.28948854751E+02	-2.89526211034E+01	8.94781329774E+00
1.78369767110E+06	-1.63546851817E+01	-1.76176945192E+00	2.55806412039E+00	6.74645096532E+01	-4.10749495895E+01	1.30552407256E+01	-2.86356334386E+01	1.08463371737E+01
1.81223031862E+06	-1.42140839992E+01	1.83031929884E+01	2.64398070190E+00	6.72097865953E+01	-4.71660466789E+01	-1.50919593065E+02	-2.95224847475E+01	6.40548687475E+00
1.84076296614E+06	-1.41697032406E+01	5.08904252043E+00	2.72737099790E+00	6.68825978795E+01	-4.18413616530E+01	-5.03846275820E+01	-2.90040331414E+01	8.98048589571E+00
1.86929561366E+06	-2.68135706432E+01	3.08319001577E+01	2.90349928262E+00	6.72024632212E+01	-4.06305607535E+01	8.11641693636E+00	-2.88585477360E+01	8.95334646563E+00
1.89782826118E+06	-1.56962851153E+01	-2.71184964072E+01	3.10522241147E+00	6.51308656658E+01	-4.12119631604E+01	-1.48048474306E+02	-2.90415331691E+01	8.38301708737E+00
1.92636090870E+06	-1.61511413819E+01	2.26610097426E+00	3.24625401852E+00	6.50736020345E+01	-4.48672307733E+01	1.30316594128E+02	-2.89256966177E+01	1.44995135469E+01
1.95489355622E+06	-1.33743810735E+01	-2.22896748904E+01	3.26476987487E+00	6.47281955384E+01	-4.99457382509E+01	1.74544960770E+02	-2.89732388140E+01	7.39326331983E+00
1.98342620374E+06	-1.56748817530E+01	-1.80500349226E+01	3.30551676088E+00	6.46260330433E+01	-4.46700466725E+01	-1.70526831537E+02	-2.89865032838E+01	1.10158254783E+01
2.01195885126E+06	-1.27980875333E+01	-1.35127100161E+01	3.59725811941E+00	6.39577934543E+01	-5.00973762343E+01	4.47009879250E+01	-2.90988852698E+01	1.07826535272E+01
2.04049149879E+06	-1.76981053361E+01	-1.17759152024E+00	3.62055499518E+00	6.35385700934E+01	-4.30421392763E+01	7.16408753927E+01	-2.89037544304E+01	1.29887080009E+01
2.06902414631E+06	-1.98578058243E+01	-7.20987531952E+00	3.72661966664E+00	6.37362798278E+01	-5.00692853380E+01	-7.65245103940E+00	-2.88258548108E+01	1.29268639566E+01
2.09755679383E+06	-1.33344131379E+01	-1.85340727273E+01	3.80738408663E+00	6.30537394233E+01	-4.29903123458E+01	1.68453793511E+02	-2.87176360185E+01	1.48347855519E+01
2.12608944135E+06	-1.14039475102E+01	-1.93504116377E+01	4.08170553945E+00	6.29201920580E+01	-3.71766029331E+01	-9.51257643922E+01	-2.80783441643E+01	1.14981162434E+01
2.15462208887E+06	-1.71822309090E+01	-6.36759037299E+00	4.07131415318E+00	6.34572832459E+01	-4.24135339652E+01	1.08967689381E+02	-2.89254510184E+01	1.31619975962E+01
2.18315473639E+06	-1.44129255569E+01	-1.13893596048E+01	4.17849681356E+00	6.24951689426E+01	-4.48765710939E+01	-5.65170281800E+01	-2.88849824542E+01	9.26457477167E+00
2.21168738391E+06	-1.18185571109E+01	-2.00103231743E+01	4.31618742822E+00	6.21226117623E+01	-3.96991656851E+01	-1.28050372163E+02	-2.92001824813E+01	1.15333373818E+01
2.24022003143E+06	-1.59242962375E+01	-2.96859853561E+01	4.46052442996E+00	6.20774072922E+01	-4.33034484467E+01	-1.31429737156E+02	-2.89578540840E+01	1.28557623044E+01
2.26875267895E+06	-1.50956082486E+01	-1.00263981860E+01	4.57280480709E+00	6.10299029541E+01	-4.82322103622E+01	5.67269528073E+01	-2.89964820788E+01	1.32050646357E+01
2.29728532648E+06	-1.92519667593E+01	-1.29077491440E+01	4.64555515889E+00	6.06071369032E+01	-4.74030600769E+01	-5.91236214579E+01	-2.88079275391E+01	1.18553381393E+01
2.32581797400E+06	-1.97676840586E+01	-4.59498220063E+00	4.73145024647E+00	6.10143291104E+01	-5.94281507669E+01	1.26325180767E+02	-2.91839297906E+01	1.14588336593E+01
2.35435062152E+06	-1.58570644707E+01	-1.12456217285E+01	4.85816680414E+00	5.98038381644E+01	-4.43170944565E+01	1.30853744919E+02	-2.90110164031E+01	1.06082611836E+01
2.38288326904E+06	-1.44204285630E+01	-7.77813812217E+00	4.91879273398E+00	5.96146831815E+01	-5.14273584230E+01	-6.13596333061E+01	-2.93272883838E+01	1.35486213364E+01
2.41141591656E+06	-1.71224964837E+01	1.71841476034E+01	5.02417746462E+00	5.97725965811E+01	-4.50407261511E+01	2.08455880335E+01	-2.87583999577E+01	1.48211485475E+01
2.43994856408E+06	-1.32049609332E+01	-2.42852956363E+01	5.16867933775E+00	5.90043323335E+01	-4.38502646305E+01	-2.59018638058E+01	-2.90053663377E+01	1.02697407092E+01
2.46848121160E+06	-2.12316484914E+01	2.04791928216E+01	5.21542960756E+00	5.85844027506E+01	-4.11488162430E+01	-1.79459517342E+02	-2.87675109757E+01	1.06198967857E+01
2.49701385912E+06	-1.39593271351E+01	-8.17171081922E+00	5.35705156872E+00	5.79214025613E+01	-5.37430518324E+01	5.89834421410E+01	-2.90301052816E+01	1.29465732627E+01
2.52554650664E+06	-1.30141709107E+01	-1.54792735957E+01	5.41601597011E+00	5.75579500383E+01	-4.21620352318E+01	-1.54967761445E+02	-2.89797185618E+01	1.35435669473E+01
2.55407915416E+06	-1.73444831579E+01	-6.95174880962E+00	5.54300473327E+00	5.78657396262E+01	-4.57869137312E+01	-4.59537537642E+01	-2.88803892562E+01	1.32219120309E+01
2.58261180169E+06	-1.63384122752E+01	-1.06501010529E+01	5.63891771396E+00	5.65282752201E+01	-4.23755167273E+01	-7.28104400633E+01	-2.91147302995E+01	1.51249642050E+01
2.61114444921E+06	-1.56909264078E+01	6.92913072018E+00	5.73451041017E+00	5.70194702658E+01	-4.69816892727E+01	9.56491135692E+00	-2.94237456765E+01	1.41704888793E+01
2.63967709673E+06	-1.77229034633E+01	1.22329621544E+01	5.78475225864E+00	5.64700820059E+01	-4.44239438456E+01	-5.17626089911E+01	-2.90353853177E+01	1.39218561747E+01
2.66820974425E+06	-1.47818940190E+01	-2.57997684772E+01	5.95407182247E+00	5.59519650272E+01	-4.15198056626E+01	1.63812049556E+02	-2.90773690323E+01	1.48012647722E+01
2.69674239177E+06	-1.99631031498E+01	-5.17101048648E+01	6.05561188624E+00	5.58553399316E+01	-5.04326365987E+01	-9.58497332231E+01	-2.90965482629E+01	1.85073225168E+01
2.72527503929E+06	-1.51433601190E+01	-1.08393521886E+00	6.00707959297E+00	5.54212435844E+01	-4.19131598325E+01	1.30635991587E+02	-2.90951853179E+01	1.20356937972E+01
2.75380768681E+06	-1.54375677571E+01	-1.29651331320E+01	6.21803231499E+00	5.47852078452E+01	-4.58694783400E+01	1.04224204890E+02	-2.92219446405E+01	1.26258414189E+01
2.78234033433E+06	-1.55345900224E+01	-1.84408891636E+01	6.30535746884E+00	5.44422888731E+01	-4.25464032511E+01	-1.64240694099E+02	-2.90098942863E+01	1.59289634779E+01
2.81087298185E+06	-1.85382288436E+01	7.79391649102E+00	6.32756517944E+00	5.43523066558E+01	-4.53715039124E+01	1.64307618408E+02	-2.92452713786E+01	1.62961294696E+01
2.83940562938E+06	-1.70524617465E+01	-3.80512951879E+01	6.33983412534E+00	5.39076085509E+01	-5.15960828572E+01	-1.10507550204E+02	-2.88674396655E+01	1.50046420675E+01
2.86793827690E+06	-1.22706466962E+01	-1.59925122114E+01	6.60411333209E+00	5.38989309375E+01	-4.35322881185E+01	-2.37013957657E+01	-2.92700459516E+01	1.59629359745E+01
2.89647092442E+06	-1.98467752303E+01	-1.50979290839E+01	6.63637040439E+00	5.28571612582E+01	-5.96582711913E+01	-5.88535694835E+01	-2.88974524177E+01	1.72972846582E+01
2.92500357194E+06	-1.54026253616E+01	1.97559454508E+01	6.60974836233E+00	5.25596117181E+01	-3.60580005761E+01	1.41117413972E+02	-2.89218749363E+01	1.19381953231E+01
2.95353621946E+06	-1.87537412716E+01	1.66399883972E+01	6.75173148363E+00	5.26417177453E+01	-4.76623697336E+01	-4.35631085706E+00	-2.87248458648E+01	1.40392038685E+01
2.98206886698E+06	-1.78156514638E+01	1.90273361680E+00	6.75084100046E+00	5.19154475428E+01	-4.59751912474E+01	-7.05780597361E+01	-2.86835342236E+01	1.76497986305E+01
3.01060151450E+06	-1.68441615272E+01	-2.50734244092E+01	6.95008889071E+00	5.16692961661E+01	-3.85512464038E+01	-1.10073821935E+02	-2.94530321530E+01	1.43715771494E+01
3.03913416202E+06	-1.49121732882E+01	-7.64900931923E+00	6.94625831157E+00	5.19126717599E+01	-5.30260274104E+01	1.61975962198E+02	-2.86263976998E+01	1.67575254800E+01
3.06766680954E+06	-1.46135052482E+01	1.16381817505E+01	7.05690098234E+00	5.13313886473E+01	-4.66720222279E+01	-9.13964014478E+01	-2.88478281354E+01	1.48826074446E+01
3.09619945707E+06	-1.82513761280E+01	5.15209890367E+00	7.14145188380E+00	5.04382589640E+01	-4.05780968796E+01	-1.12532040566E+02	-2.89909604659E+01	1.92693197559E+01
3.12473210459E+06	-1.11793230565E+01	5.98055763506E+00	7.12663099471E+00	5.04037081530E+01	-3.65818790160E+01	1.16028697826E+02	-2.86722391929E+01	1.78771757141E+01
3.15326475211E+06	-1.44844705743E+01	-6.62941432089E+00	7.17176852070E+00	5.05356487537E+01	-4.88539017462E+01	-1.37715800677E+02	-2.87490385895E+01	1.99305483102E+01
3.18179739963E+06	-1.30841515556E+01	-2.32584565159E+01	7.35521752190E+00	4.97139957503E+01	-4.82397265112E+01	4.16772992727E+01	-2.88018923539E+01	1.43535973496E+01
3.21033004715E+06	-1.55080326208E+01	8.03974492133E-01	7.37739100561E+00	4.89999104546E+01	-4.61173766716E+01	-1.45429881391E+02	-2.91369911109E+01	1.65333379271E+01
3.23886269467E+06	-1.50159513480E+01	-4.11717455296E+01	7.46266698969E+00	4.92328842933E+01	-4.76885384488E+01	4.30631407748E+01	-2.89080667926E+01	2.10824296616E+01
3.26739534219E+06	-1.68599192674E+01	1.00412816328E-01	7.60173666618E+00	4.88179356259E+01	-5.54734495971E+01	-7.89979694314E+01	-2.88093043682E+01	1.65512198221E+01
3.29592798971E+06	-1.99190895400E+01	8.17436678631E+00	7.61651513263E+00	4.82012224857E+01	-5.00435625944E+01	1.51089208478E+02	-2.91738808426E+01	1.88881261147E+01
3.32446063723E+06	-1.25759396800E+01	-2.42381279004E+00	7.70245679644E+00	4.81321641127E+01	-3.81033039858E+01	-1.25970932013E+02	-2.87082646652E+01	2.09355920586E+01
3.35299328475E+06	-1.63288784339E+01	2.69590809215E+01	7.68921976151E+00	4.77427959693E+01	-4.39492564225E+01	4.07178673867E+01	-2.91533847548E+01	1.91333213204E+01
3.38152593228E+06	-1.34646599039E+01	7.37241842766E+00	7.83486920499E+00	4.75421639664E+01	-4.33460079456E+01	9.64747960565E+01	-2.90985521183E+01	2.12769357688E+01
3.41005857980E+06	-1.66292902377E+01	-3.44413033499E+01	7.89381151574E+00	4.70939194217E+01	-4.03236558083E+01	6.47671992944E+01	-2.89887055413E+01	1.79295319723E+01
3.43859122732E+06	-1.46009710662E+01	-2.03469332829E+01	7.94675710888E+00	4.68479105410E+01	-5.28584342765E+01	-1.62882278384E+01	-2.84178092127E+01	1.94948949836E+01
3.46712387484E+06	-1.05430381486E+01	-2.91097113176E+01	7.96598779069E+00	4.61389767634E+01	-4.36715778296E+01	1.15876206665E+02	-2.86671847037E+01	2.01045716598E+01
3.49565652236E+06	-1.28025065921E+01	-1.12504355393E+01	8.03025677032E+00	4.60583236036E+01	-6.21791393834E+01	1.57070050962E+02	-2.86998574257E+01	2.13424189457E+01
3.52418916988E+06	-1.35750712154E+01	-9.39918584102E+00	8.14733289030E+00	4.53272900536E+01	-4.33409973743E+01	-5.26037093101E+01	-2.85937324158E+01	1.93835747481E+01
3.55272181740E+06	-1.54576386310E+01	-2.46705705008E+01	8.24811254085E+00	4.55201001013E+01	-3.88282747195E+01	1.56416314686E+02	-2.87515381456E+01	1.94621442984E+01
3.58125446492E+06	-1.82532208116E+01	-4.04655414414E+00	8.27382236892E+00	4.50114298554E+01	-4.65345426300E+01	-1.22225518561E+02	-2.87190174582E+01	2.13844764961E+01
3.60978711244E+06	-1.37040287201E+01	-1.32820960628E+01	8.31008319131E+00	4.44348779742E+01	-3.93777029695E+01	-6.17943300372E+01	-2.90388524243E+01	1.75782250973E+01
3.63831975997E+06	-1.39957220899E+01	1.48565005924E+01	8.37740121209E+00	4.37479775811E+01	-4.57183381244E+01	1.66199335239E+02	-2.87277642427E+01	2.09085244816E+01
3.66685240749E+06	-1.28231472754E+01	-1.12821517685E+01	8.43756636062E+00	4.43034677123E+01	-4.98269916188E+01	-8.37757822437E+00	-2.89885957306E+01	1.70156589993E+01
