# Hz S DB R 50
! CMT, M5065, 19127446, 24.2.4/2
! Date: 9/20/2024 3:26:26 PM
! Data: Format (Calibration Info)
! Freq	S11:dB/Ang(F2)	S21:dB/Ang(F2)	S12:dB/Ang(F2)	S22:dB/Ang(F2)
3.00000000000E+05	-1.71043922073E+01	1.56133371659E+02	-2.17019516875E+00	9.05572871728E+01	-5.74522553583E+01	-1.57217138388E+02	-2.90864495106E+01	1.32226605553E+00
3.28532647521E+05	-1.72037573503E+01	1.53498986496E+02	-1.42550720266E+00	9.03696999045E+01	-4.42767284174E+01	-1.50117956524E+02	-2.88355835449E+01	-1.54474584607E+00
3.57065295042E+05	-1.49604866852E+01	1.77772224025E+02	-5.23247434337E-01	9.11136653140E+01	-5.60001252724E+01	-5.83329469886E+01	-2.90634676732E+01	7.12093861117E-01
3.85597942563E+05	-1.74148811312E+01	1.78404495063E+02	1.83023575433E-02	8.92544651241E+01	-4.75300874905E+01	-1.00834110554E+02	-2.90266574998E+01	-1.01548709551E+00
4.14130590084E+05	-2.00572413941E+01	1.73237870842E+02	5.28852669244E-01	8.87459558541E+01	-4.50513506255E+01	-9.62589522866E+01	-2.92469175321E+01	1.55025002393E-01
4.42663237605E+05	-1.66136446291E+01	1.70714347770E+02	1.15798185838E+00	8.83959124598E+01	-3.80412516025E+01	-4.51681814297E+01	-2.88407764302E+01	2.45291930817E+00
4.71195885126E+05	-1.90785649966E+01	-1.58029381802E+02	1.67534344175E+00	8.75932460670E+01	-3.74501011592E+01	1.21478666414E+02	-2.94185332697E+01	1.60078150603E+00
4.99728532648E+05	-2.42541913788E+01	1.48929063569E+02	2.21052223785E+00	8.74585181721E+01	-4.22050927364E+01	6.76585969591E+01	-2.89929892350E+01	1.49841084760E+00
5.28261180169E+05	-1.72566752614E+01	-1.79751930828E+02	2.72661006605E+00	8.80890447732E+01	-4.63477339037E+01	-2.09795595747E+01	-2.92590673720E+01	8.76199799779E-01
5.56793827690E+05	-1.88974825374E+01	-1.57442808091E+02	3.08659037665E+00	8.77819465215E+01	-4.38443861553E+01	-1.21479221961E+02	-2.90660163061E+01	4.31198332385E+00
5.85326475211E+05	-1.66209742855E+01	-1.78572616847E+02	3.47606428688E+00	8.69165661184E+01	-4.31699247069E+01	1.16300155075E+02	-2.87166535832E+01	4.51752913468E+00
6.13859122732E+05	-1.69826250011E+01	1.57756113373E+02	4.01051257247E+00	8.65490625808E+01	-5.14167463103E+01	4.57074421945E+01	-2.90892552319E+01	6.28740064118E+00
6.42391770253E+05	-1.62764001858E+01	1.40344277547E+02	4.35248802368E+00	8.67844487574E+01	-4.81994605952E+01	7.80575475665E+01	-2.90105775361E+01	3.79920548906E+00
6.70924417774E+05	-1.81748993844E+01	-1.65526677772E+02	4.76218829528E+00	8.66774293781E+01	-4.42410985314E+01	-1.01127878563E+00	-2.89230969594E+01	3.27156672838E+00
6.99457065295E+05	-1.50079198642E+01	1.67819090613E+02	5.16817855259E+00	8.57759402062E+01	-4.44328107493E+01	1.61259485909E+02	-2.88685926633E+01	4.09017946721E+00
7.27989712816E+05	-1.49653994599E+01	-1.55639946379E+02	5.49286776002E+00	8.57334039202E+01	-4.30332881236E+01	-9.87143984988E+01	-2.87691508195E+01	1.41312054299E+00
7.56522360337E+05	-1.34894977666E+01	-1.67621784295E+02	5.77041253209E+00	8.53934297613E+01	-4.03872139015E+01	-8.77440646916E+01	-2.87123440457E+01	4.68568394497E+00
7.85055007858E+05	-1.83633888184E+01	-1.37462923880E+02	6.11157633851E+00	8.49749510667E+01	-4.85920537263E+01	9.93651024782E+01	-2.91816414400E+01	3.98750626213E+00
8.13587655379E+05	-2.06102884124E+01	1.74271430282E+02	6.41867698082E+00	8.48624446300E+01	-5.46155660966E+01	-1.11179686394E+02	-2.91366739087E+01	3.63007675346E+00
8.42120302900E+05	-2.01123875405E+01	1.34421034177E+02	6.68713486501E+00	8.47984733456E+01	-4.87523534944E+01	8.30647913959E+01	-2.88027531960E+01	2.83085816471E+00
8.70652950421E+05	-1.92844379405E+01	1.78373704010E+02	7.04789423584E+00	8.39474603662E+01	-4.53176225607E+01	-1.58545674234E+02	-2.91049070687E+01	5.59984355334E+00
8.99185597943E+05	-1.08766085583E+01	-7.06172379168E+01	7.45754386601E+00	8.28537794387E+01	-3.99459443664E+01	7.69684951772E+01	-2.91429383195E+01	7.44237382961E+00
9.27718245464E+05	-2.11952007837E+01	-1.56552470993E+02	7.55605062514E+00	8.40998778138E+01	-4.87312358841E+01	7.70893332956E+01	-2.88266311775E+01	2.86276604316E+00
9.56250892985E+05	-1.86616817304E+01	1.78271571742E+02	7.78059222032E+00	8.37083249046E+01	-3.79855636869E+01	7.81433146028E+01	-2.94761031482E+01	5.37501486544E+00
9.84783540506E+05	-1.13147353633E+01	1.54666274921E+02	8.05622487253E+00	8.37920000146E+01	-6.06991892504E+01	-1.19092440080E+02	-2.89861663395E+01	6.27776053917E+00
1.01331618803E+06	-2.00526322106E+01	-1.63337322450E+02	8.32353622066E+00	8.30103478065E+01	-4.43227088225E+01	9.93601339605E+01	-2.89616637736E+01	4.09319536733E+00
1.04184883555E+06	-1.22751969148E+01	-1.79656976973E+02	8.53476310923E+00	8.33481215074E+01	-5.16012715001E+01	-9.84950903509E+01	-2.91584089964E+01	5.62510983547E+00
1.07038148307E+06	-1.68840802625E+01	-1.74055716749E+02	8.79731244229E+00	8.25376870378E+01	-4.36210100763E+01	-1.57713202907E+02	-2.89209470506E+01	8.21786216959E+00
1.09891413059E+06	-1.67011210255E+01	1.67397413267E+02	9.05858501820E+00	8.18299012063E+01	-4.69703174358E+01	-1.50171564212E+02	-2.88176485941E+01	7.31155941727E+00
1.12744677811E+06	-2.11728807185E+01	-1.56394806996E+02	9.26167899532E+00	8.18843112814E+01	-4.40730195626E+01	9.65310127016E+01	-2.91843616199E+01	4.18901077941E+00
1.15597942563E+06	-1.63730158991E+01	1.79978441116E+02	9.51056467093E+00	8.12961502687E+01	-4.30411057745E+01	1.70328554977E+02	-2.94063121577E+01	3.95616203337E+00
1.18451207315E+06	-1.55354318121E+01	-1.55341767245E+02	9.71152280227E+00	8.13678842722E+01	-4.71141340209E+01	7.79017493280E+01	-2.94355512969E+01	4.37273509653E+00
1.21304472067E+06	-1.79700589484E+01	-1.79584216864E+02	9.90515764377E+00	8.13064216916E+01	-4.23353520590E+01	5.90963794212E+01	-2.87225891920E+01	7.45313301636E+00
1.24157736820E+06	-1.27399861129E+01	-1.54847993821E+02	1.01061030475E+01	8.12669079970E+01	-4.26894031708E+01	-1.57607826401E+02	-2.89697322110E+01	4.35805417907E+00
1.27011001572E+06	-1.73864420883E+01	1.64562710011E+02	1.03327742429E+01	8.08970399212E+01	-3.95763393976E+01	1.17392368136E+01	-2.90253584465E+01	7.93920504276E+00
1.29864266324E+06	-1.15726214598E+01	-1.61280622788E+02	1.03801450686E+01	8.01466851465E+01	-5.20650946761E+01	7.00411135201E+01	-2.90554747989E+01	9.92984192627E+00
1.32717531076E+06	-1.65195896441E+01	1.50281658482E+02	1.06288745398E+01	8.03451133146E+01	-4.22849735233E+01	-1.28454357332E+02	-2.85365802332E+01	1.04146809098E+01
1.35570795828E+06	-2.18576937443E+01	-1.72655540510E+02	1.08768516817E+01	8.01830266118E+01	-3.38072316392E+01	-7.16009544276E+01	-2.85439361656E+01	5.84379529141E+00
1.38424060580E+06	-3.48663293539E+01	1.16649150014E+01	1.11056070917E+01	7.99111335616E+01	-4.73500322063E+01	-2.43219507268E+01	-2.93133981859E+01	9.75169957463E+00
1.41277325332E+06	-2.47832839943E+01	-1.46795292123E+02	1.11975828513E+01	7.97332091380E+01	-4.69238038592E+01	-5.03829031509E+01	-2.84381022685E+01	8.61431871873E+00
1.44130590084E+06	-1.67876600397E+01	-1.59212753229E+02	1.13923244558E+01	7.91908281055E+01	-4.71143189041E+01	1.34554208529E+02	-2.88145565796E+01	7.25390794051E+00
1.46983854836E+06	-1.85069711491E+01	1.70186807151E+02	1.15720521623E+01	7.91805092212E+01	-4.62113900348E+01	-1.48320295839E+02	-2.88116017693E+01	9.94201453586E+00
1.49837119589E+06	-1.97995586083E+01	-1.71665741151E+02	1.16855974057E+01	7.88812007652E+01	-4.43873328382E+01	1.58234519135E+02	-2.93190682970E+01	1.04592922845E+01
1.52690384341E+06	-3.63238461724E+01	3.67768847567E+01	1.18834588446E+01	7.84347084594E+01	-4.52753027036E+01	-4.98840097371E+01	-2.89009391955E+01	6.35906284538E+00
1.55543649093E+06	-1.39202218932E+01	1.43679175643E+02	1.20491906197E+01	7.86766251588E+01	-4.39902237406E+01	-3.75953860939E+01	-2.82717191133E+01	1.40354366075E+01
1.58396913845E+06	-2.00757446329E+01	-1.18371955810E+02	1.22597590384E+01	7.79738204515E+01	-5.45133581181E+01	1.49381264706E+02	-2.90281435487E+01	7.63858520984E+00
1.61250178597E+06	-1.55111855083E+01	-1.78857193537E+02	1.23580015535E+01	7.80484416736E+01	-4.33812325589E+01	-6.87609222829E+01	-2.87066853474E+01	7.74903536121E+00
1.64103443349E+06	-2.38849594816E+01	-1.31540675446E+02	1.24998554648E+01	7.77535430269E+01	-3.88947451446E+01	-1.61436735984E+02	-2.86847155207E+01	8.77479248655E+00
1.66956708101E+06	-1.49082943378E+01	1.67545624209E+02	1.26392333025E+01	7.75869584011E+01	-4.30215086720E+01	1.58621871099E+02	-2.89219454468E+01	8.68177677038E+00
1.69809972853E+06	-2.39796700324E+01	1.48130152508E+02	1.27846371660E+01	7.69957523758E+01	-4.05770068940E+01	1.13848366908E+02	-2.95103561737E+01	1.25561922602E+01
1.72663237605E+06	-1.47888676061E+01	-1.66005855959E+02	1.29316379421E+01	7.70057705360E+01	-4.13266301693E+01	-1.17475793255E+02	-2.92504353521E+01	9.24325061073E+00
1.75516502357E+06	-1.42536042272E+01	-1.57750613991E+02	1.30828898197E+01	7.66386616114E+01	-3.97937470998E+01	-1.35374749463E+02	-2.92129712344E+01	8.48328134440E+00
1.78369767110E+06	-1.69546192177E+01	-1.72119069663E+02	1.32349209844E+01	7.66546859956E+01	-4.69679904971E+01	-1.46769480723E+02	-2.92840527642E+01	7.81859907703E+00
1.81223031862E+06	-1.50152448267E+01	-1.70081722176E+02	1.33996508222E+01	7.64017016145E+01	-4.66325356170E+01	-1.52526859607E+02	-2.85266112738E+01	9.61106154437E+00
1.84076296614E+06	-1.77003700819E+01	1.59900602933E+02	1.35718001530E+01	7.60392274074E+01	-3.65860051498E+01	-1.04936739412E+02	-2.85277741731E+01	1.07086125394E+01
1.86929561366E+06	-3.82948853962E+01	-5.42939646661E+01	1.36143424071E+01	7.61460330950E+01	-5.53493930761E+01	-1.07482031867E+02	-2.92566446084E+01	1.09950522759E+01
1.89782826118E+06	-2.12413557248E+01	-1.69328366229E+02	1.37836079054E+01	7.57397897842E+01	-4.63222975149E+01	1.41837302783E+02	-2.89369322483E+01	1.18392277384E+01
1.92636090870E+06	-1.42555934966E+01	-1.21103265574E+02	1.39072859387E+01	7.53307531480E+01	-4.46858284107E+01	8.55415657660E+01	-2.89705226598E+01	1.01830553345E+01
1.95489355622E+06	-2.10380954459E+01	-1.41070120703E+02	1.40448629406E+01	7.50283304296E+01	-4.85357546140E+01	-7.97514970038E+01	-2.92206928314E+01	1.08005130267E+01
1.98342620374E+06	-1.74569747529E+01	1.78505470114E+02	1.41995029893E+01	7.50722411361E+01	-5.08524867584E+01	1.06586662136E+02	-2.90495956521E+01	1.24666956392E+01
2.01195885126E+06	-1.89607175477E+01	-1.03365284091E+02	1.42844297125E+01	7.45559104903E+01	-4.20940355395E+01	-1.05186920675E+02	-2.93760256575E+01	1.06573972390E+01
2.04049149879E+06	-1.63905951519E+01	-1.65799079878E+02	1.44152119162E+01	7.42324719535E+01	-4.87389780686E+01	1.46130015137E+02	-2.87853796797E+01	1.21453156748E+01
2.06902414631E+06	-1.16820213574E+01	-1.64439544402E+02	1.45716086470E+01	7.45180753597E+01	-4.23028467791E+01	-1.60046803972E+02	-2.89425929385E+01	1.17671166992E+01
2.09755679383E+06	-1.81401672665E+01	-1.51703721098E+02	1.46419697483E+01	7.40443846255E+01	-4.01105113091E+01	-3.79504527542E+01	-2.86516033513E+01	1.08772059958E+01
2.12608944135E+06	-1.72441521685E+01	-1.37439367457E+02	1.47444968186E+01	7.38988182504E+01	-4.64938929052E+01	1.80346833648E+01	-2.90650308874E+01	1.28628743643E+01
2.15462208887E+06	-1.78839242821E+01	-1.77853983459E+02	1.48826147214E+01	7.34454873979E+01	-4.45858325943E+01	-1.45907537330E+02	-2.91588226406E+01	1.22794777737E+01
2.18315473639E+06	-1.74032455958E+01	-1.77501724839E+02	1.50214953466E+01	7.32660729800E+01	-4.70760347213E+01	-4.48835009838E+01	-2.88605289838E+01	1.31866227343E+01
2.21168738391E+06	-1.49093582784E+01	1.71541857118E+02	1.51256872400E+01	7.30838509160E+01	-4.80900720303E+01	-8.26218682575E+01	-2.93500185038E+01	1.27178902957E+01
2.24022003143E+06	-2.31478435126E+01	-1.72368365377E+02	1.52117376326E+01	7.30193514444E+01	-4.02737674466E+01	-1.26436483782E+02	-2.88679878506E+01	1.12420377989E+01
2.26875267895E+06	-1.32388831846E+01	1.68081250237E+02	1.53467628740E+01	7.26967326112E+01	-4.31598244745E+01	6.63571876680E+01	-2.90518136542E+01	1.19892246223E+01
2.29728532648E+06	-2.25624686121E+01	-1.53054610599E+02	1.54369087309E+01	7.25193405541E+01	-4.94977094179E+01	-2.83190731577E+01	-2.90926448156E+01	1.28579624489E+01
2.32581797400E+06	-1.97355213829E+01	1.59339304847E+02	1.55285683474E+01	7.21661745352E+01	-4.82729807845E+01	1.70512405554E+02	-2.86013259724E+01	1.05092391700E+01
2.35435062152E+06	-2.24925877947E+01	-1.28956930256E+02	1.56292075864E+01	7.21602155681E+01	-4.58529559971E+01	-1.70803795076E+02	-2.88179077521E+01	1.47172180940E+01
2.38288326904E+06	-1.64363788573E+01	-1.75168973474E+02	1.57522789075E+01	7.18105439977E+01	-4.85015532495E+01	-8.57489470943E+01	-2.90354163647E+01	1.61542462935E+01
2.41141591656E+06	-1.91660698991E+01	1.78923890173E+02	1.58526097572E+01	7.16207807274E+01	-6.11113159668E+01	2.12105671171E+01	-2.90193472731E+01	1.45452103782E+01
2.43994856408E+06	-1.73066599832E+01	-1.63408055980E+02	1.59656950284E+01	7.12755200772E+01	-4.08551071104E+01	-1.20472688100E+02	-2.91820901357E+01	1.12851516491E+01
2.46848121160E+06	-1.70894860504E+01	1.55335147091E+02	1.60814176974E+01	7.12456566802E+01	-4.53258180215E+01	1.15283171364E+02	-2.88362365694E+01	1.17788042509E+01
2.49701385912E+06	-1.50143773062E+01	-1.72084988698E+02	1.61692386990E+01	7.08127426834E+01	-4.41839343847E+01	-1.60227111521E+02	-2.83514023197E+01	9.81318048876E+00
2.52554650664E+06	-1.97838799737E+01	-1.00508985839E+02	1.62551130273E+01	7.07852228762E+01	-4.31579330654E+01	6.41020152983E+01	-2.88176128720E+01	1.27774546349E+01
2.55407915416E+06	-1.64841043089E+01	1.55512630579E+02	1.63597722018E+01	7.06591784888E+01	-5.46880066288E+01	-8.96567185942E+01	-2.87565444345E+01	1.33764731798E+01
2.58261180169E+06	-2.04911070711E+01	-1.61274732015E+02	1.64501330565E+01	7.00982663595E+01	-4.84737278287E+01	-7.78857885062E+01	-2.89300558569E+01	1.17908373424E+01
2.61114444921E+06	-1.62839672871E+01	-1.57868868130E+02	1.65639857546E+01	6.99512413987E+01	-4.66285808043E+01	1.43320101011E+02	-2.86687495831E+01	1.51409647854E+01
2.63967709673E+06	-1.51008325306E+01	1.75253651694E+02	1.66486363053E+01	6.99410392997E+01	-4.44581704611E+01	-2.41149933082E+01	-2.86708788263E+01	1.32832182126E+01
2.66820974425E+06	-1.44023934422E+01	-1.61899897372E+02	1.67427358441E+01	6.95765886845E+01	-4.06750982065E+01	-8.63128944203E+01	-2.87110788835E+01	1.54417896418E+01
2.69674239177E+06	-2.20168533662E+01	1.45642985300E+02	1.67945454814E+01	6.93941426119E+01	-4.38149150549E+01	2.89109349309E+01	-2.91158598282E+01	1.28894461056E+01
2.72527503929E+06	-2.12911776542E+01	-1.65911085351E+02	1.69242316784E+01	6.92817099045E+01	-4.79779453701E+01	8.22373837348E+00	-2.89999824780E+01	1.33843970908E+01
2.75380768681E+06	-1.59384005588E+01	1.55023437445E+02	1.70037907525E+01	6.87360587331E+01	-4.92990139309E+01	1.00791472390E+02	-2.89195779335E+01	1.38250790159E+01
2.78234033433E+06	-1.88909200486E+01	-1.75380771428E+02	1.70999633077E+01	6.87829751198E+01	-4.20630912408E+01	-3.70447106524E+01	-2.85167993478E+01	1.56253409066E+01
2.81087298185E+06	-1.92616199560E+01	1.64277590538E+02	1.71740779663E+01	6.83684247296E+01	-3.99320653562E+01	-1.86085659952E+01	-2.92146001075E+01	1.69025250459E+01
2.83940562938E+06	-2.07843973208E+01	-1.77855305260E+02	1.72592623383E+01	6.82993365128E+01	-4.74092117891E+01	-5.63452756400E+01	-2.92729844890E+01	1.37494281034E+01
2.86793827690E+06	-1.40434911289E+01	-1.64522353995E+02	1.73653338487E+01	6.80507327208E+01	-4.62966340178E+01	-9.64920096229E+01	-2.91937572342E+01	1.32952347978E+01
2.89647092442E+06	-1.00378668087E+01	-1.39953793060E+02	1.74623433740E+01	6.80390044823E+01	-4.35334144383E+01	-8.99339386289E+01	-2.90005849182E+01	1.69156564448E+01
2.92500357194E+06	-1.43633137343E+01	-1.73585261747E+02	1.75219797310E+01	6.75779071307E+01	-4.05410676775E+01	-1.06866581635E+02	-2.88271624168E+01	1.35378949447E+01
2.95353621946E+06	-1.38757049349E+01	-1.77872642783E+02	1.76308275649E+01	6.74356746642E+01	-4.37150875753E+01	3.11548606512E+01	-2.89104982990E+01	1.68353496056E+01
2.98206886698E+06	-1.52725415449E+01	-1.61312719345E+02	1.77237440742E+01	6.71946875711E+01	-5.77386379021E+01	-9.03479209165E+01	-2.90566649099E+01	1.93988658640E+01
3.01060151450E+06	-1.95424755632E+01	1.48737106911E+02	1.77794917154E+01	6.70356831208E+01	-5.22045853245E+01	-1.27881559099E+02	-2.87205191830E+01	1.98244544786E+01
3.03913416202E+06	-2.01563079077E+01	1.78934281558E+02	1.78793737451E+01	6.66517052766E+01	-3.99728237627E+01	4.11619589869E+00	-2.94272208541E+01	1.34982434404E+01
3.06766680954E+06	-1.55467737663E+01	-1.57717166256E+02	1.79451947416E+01	6.63027499421E+01	-4.41590009166E+01	5.64488661182E-01	-2.86508536084E+01	1.47877076880E+01
3.09619945707E+06	-1.73091179317E+01	1.63021815564E+02	1.80549815828E+01	6.61939194934E+01	-4.83126204832E+01	-1.55168132060E+02	-2.91462169879E+01	1.81674147487E+01
3.12473210459E+06	-1.66816596560E+01	-1.75628646713E+02	1.81138907012E+01	6.60557364131E+01	-4.42284639874E+01	1.25686932942E+02	-2.88466158635E+01	1.54033978711E+01
3.15326475211E+06	-1.97842339943E+01	1.76390076276E+02	1.81824202564E+01	6.57989784613E+01	-4.29500085954E+01	1.61450861237E+02	-2.86277583694E+01	1.77065078098E+01
3.18179739963E+06	-1.90530394539E+01	-1.69564909590E+02	1.82801761966E+01	6.54988971635E+01	-4.14041018975E+01	1.65424994310E+01	-2.87489554363E+01	1.70119789139E+01
3.21033004715E+06	-1.21962096431E+01	-1.52503532028E+02	1.83574591322E+01	6.55122079600E+01	-4.10369608061E+01	-1.03097324177E+01	-2.86457362239E+01	1.83543321348E+01
3.23886269467E+06	-1.92911808136E+01	1.68747967250E+02	1.84262580057E+01	6.49346813646E+01	-4.79793156085E+01	-1.63093950791E+01	-2.87406250797E+01	1.92331445825E+01
3.26739534219E+06	-1.77115917719E+01	-1.58719782719E+02	1.84720760170E+01	6.49809439041E+01	-4.74216939524E+01	-2.24775259511E+01	-2.88204951341E+01	2.26458040864E+01
3.29592798971E+06	-1.83908926766E+01	1.19899544859E+02	1.85893883885E+01	6.44593807732E+01	-4.95858955999E+01	1.19447591623E+02	-2.93314711563E+01	1.60255811108E+01
3.32446063723E+06	-1.73622894429E+01	-1.54123211049E+02	1.86428646563E+01	6.45438535474E+01	-4.48175892313E+01	-3.36435211782E+01	-2.93787796279E+01	2.50978258870E+01
3.35299328475E+06	-1.87315069490E+01	-1.78883015573E+02	1.87332130660E+01	6.42254567255E+01	-4.81989978693E+01	1.58813274744E+02	-2.83613929486E+01	1.92804797841E+01
3.38152593228E+06	-1.60192955355E+01	-1.71730946470E+02	1.87928392482E+01	6.39940688893E+01	-3.99901395729E+01	-1.35136832028E+02	-2.79783851030E+01	1.87124195224E+01
3.41005857980E+06	-2.37736015036E+01	1.73984197602E+02	1.88673501670E+01	6.39486842402E+01	-3.90888915085E+01	1.20302536857E+02	-2.89426952380E+01	1.82546465937E+01
3.43859122732E+06	-1.30998011905E+01	-1.77501199221E+02	1.89824344120E+01	6.36106393627E+01	-6.36756218532E+01	1.26260338904E+02	-2.90058976246E+01	1.91908410763E+01
3.46712387484E+06	-1.55284090891E+01	-1.58935036524E+02	1.90149536168E+01	6.32347049752E+01	-4.87755193664E+01	-1.17138000758E+02	-2.86477212283E+01	2.38616726023E+01
3.49565652236E+06	-2.05368817380E+01	-1.53422216366E+02	1.91091324663E+01	6.30716037244E+01	-4.34598962987E+01	-3.10780104163E+01	-2.85924741464E+01	2.05934058425E+01
3.52418916988E+06	-1.76142103099E+01	-1.55770624519E+02	1.91461010457E+01	6.29486404731E+01	-4.97737658973E+01	8.18710927154E+01	-2.91695773537E+01	1.78342353055E+01
3.55272181740E+06	-2.10278084276E+01	-1.66323555749E+02	1.92048395288E+01	6.27723922882E+01	-6.01244847840E+01	2.01960278524E+01	-2.90503877292E+01	1.92367067436E+01
3.58125446492E+06	-1.88474772310E+01	1.52090739312E+02	1.92959016556E+01	6.23301733704E+01	-3.42270091563E+01	8.21026174051E+01	-2.83907451576E+01	1.55279562566E+01
3.60978711244E+06	-1.68592652411E+01	-1.56795460957E+02	1.93308586237E+01	6.24281352966E+01	-4.18905824552E+01	5.80070095613E+01	-2.88621487644E+01	1.69014609223E+01
3.63831975997E+06	-2.01116726056E+01	-1.73352180689E+02	1.94397389693E+01	6.19535684073E+01	-4.17764047181E+01	1.07827645436E+02	-2.83556758352E+01	1.97970475828E+01
3.66685240749E+06	-1.73654863583E+01	1.60793805879E+02	1.95060706453E+01	6.19031268060E+01	-4.43607812361E+01	8.85575249676E+01	-2.87188755816E+01	2.00632006107E+01
