# Hz S DB R 50
! CMT, M5065, 19127446, 24.2.4/2
! Date: 9/20/2024 3:24:49 PM
! Data: Format (Calibration Info)
! Freq	S11:dB/Ang(F2)	S21:dB/Ang(F2)	S12:dB/Ang(F2)	S22:dB/Ang(F2)
3.00000000000E+05	-1.77830432557E+01	-1.69510897963E+02	4.59261132557E+00	-1.78081574820E+02	-3.56805037633E+01	1.70630700435E+02	-5.96780455421E+00	-2.12374238924E-01
3.28532647521E+05	-2.04154141032E+01	1.72494085545E+02	4.61251083504E+00	-1.78291754028E+02	-5.84670801353E+01	2.27600468756E+01	-5.96987164317E+00	-2.76160876548E-01
3.57065295042E+05	-2.00307282242E+01	-1.35721939606E+02	4.58688742639E+00	-1.78332129564E+02	-4.11217272377E+01	-1.23865246449E+02	-5.99167640631E+00	-3.72228238707E-01
3.85597942563E+05	-1.42306391195E+01	-1.76787177530E+02	4.68738878639E+00	-1.78678285309E+02	-4.19238485336E+01	1.40575642411E+02	-5.97231294872E+00	-3.13099909834E-01
4.14130590084E+05	-1.53493812403E+01	1.73582606650E+02	4.60364090092E+00	-1.79299246779E+02	-4.61886615967E+01	1.13147694737E+02	-5.97096588924E+00	-5.03790399815E-01
4.42663237605E+05	-1.61151393872E+01	-1.57801697962E+02	4.67865303586E+00	-1.79453323739E+02	-3.42411976309E+01	-1.24625467803E+02	-5.97262573485E+00	-3.84853744814E-01
4.71195885126E+05	-1.23173269056E+01	1.69711850152E+02	4.67964315558E+00	-1.79621481462E+02	-4.59106096423E+01	1.57138660932E+02	-5.94548050638E+00	-5.05176202580E-01
4.99728532648E+05	-1.78110756246E+01	1.56505829896E+02	4.62929022977E+00	1.79803242121E+02	-4.58950863075E+01	-1.21241305030E+02	-5.94756961650E+00	-6.22135534202E-01
5.28261180169E+05	-1.71540917738E+01	-1.68126422144E+02	4.56799458077E+00	1.79817532427E+02	-4.78364271289E+01	1.43581958032E+02	-5.97464161087E+00	-5.78028831182E-01
5.56793827690E+05	-1.69941150797E+01	1.76468874006E+02	4.60314886934E+00	1.79553880106E+02	-4.54425749271E+01	-4.68280975609E+01	-5.94704112121E+00	-5.02124322149E-01
5.85326475211E+05	-1.47363464564E+01	1.75366824726E+02	4.63054977821E+00	1.79397463366E+02	-4.53321790574E+01	1.12489120028E+02	-5.97016114311E+00	-3.43655945055E-01
6.13859122732E+05	-1.55757556259E+01	1.57923713555E+02	4.65476000196E+00	1.79323672463E+02	-4.20713273695E+01	-1.29326998818E+02	-5.96350027793E+00	5.08512063514E-03
6.42391770253E+05	-1.52511354015E+01	1.70616645050E+02	4.64180320915E+00	1.79230783301E+02	-3.92075954852E+01	3.28798066173E+00	-5.95398803091E+00	-2.34940098674E-01
6.70924417774E+05	-1.34714003184E+01	-1.70489358573E+02	4.64249864483E+00	1.78990103326E+02	-4.87599085369E+01	-7.42565827574E+01	-5.92836780845E+00	-9.82371459321E-01
6.99457065295E+05	-2.40431713727E+01	1.56203363943E+02	4.67225771226E+00	1.78859671530E+02	-4.86080171367E+01	5.96608186978E+01	-5.96028345180E+00	-6.80229020537E-01
7.27989712816E+05	-1.03497286029E+01	1.71936820203E+02	4.66226207493E+00	1.78383846326E+02	-4.45083915031E+01	4.23815246974E+01	-5.96005441442E+00	-5.35862286962E-01
7.56522360337E+05	-1.56070274026E+01	1.79228983722E+02	4.61177239837E+00	1.78582681869E+02	-4.78499002777E+01	-1.11996774063E+02	-5.94839030322E+00	-4.89890507082E-01
7.85055007858E+05	-1.47721434491E+01	-1.43502107411E+02	4.62383275744E+00	1.78564902200E+02	-3.84525041279E+01	-8.81572544234E+01	-5.95863469403E+00	-4.24014170233E-01
8.13587655379E+05	-1.38576596784E+01	-1.72872284652E+02	4.66396679313E+00	1.78222343813E+02	-4.44529327982E+01	1.15231097850E+02	-5.92425512830E+00	-5.40744628276E-01
8.42120302900E+05	-1.84129389915E+01	1.78936295491E+02	4.62187206496E+00	1.77839023688E+02	-5.05370247706E+01	-3.09968166017E+01	-5.94931603657E+00	-7.54538800213E-01
8.70652950421E+05	-1.66834707083E+01	1.65176225356E+02	4.59552302159E+00	1.77934962205E+02	-4.29611645887E+01	4.78614074735E+01	-5.97655935837E+00	-5.94924370754E-01
8.99185597943E+05	-2.43047614121E+01	-1.70980876010E+02	4.61758153954E+00	1.77728042028E+02	-4.03694277302E+01	-1.07675887673E+02	-5.96545903583E+00	-6.38388684768E-01
9.27718245464E+05	-1.62814569178E+01	1.55990140433E+02	4.59992800773E+00	1.77423085005E+02	-3.79186736270E+01	-9.85419983777E+01	-5.94644055922E+00	-6.42628128589E-01
9.56250892985E+05	-2.63126149722E+01	-1.68989560978E+02	4.62254365699E+00	1.77357144339E+02	-4.40395288050E+01	3.52798880391E+01	-5.93068841236E+00	-5.68296435753E-01
9.84783540506E+05	-2.00662145986E+01	-1.49986277598E+02	4.65121779737E+00	1.77318610338E+02	-4.20364630662E+01	-5.42880281111E+01	-5.97389331048E+00	-7.50764544551E-01
1.01331618803E+06	-1.88102895461E+01	1.78809903273E+02	4.63030250952E+00	1.77466926938E+02	-5.28192801799E+01	-8.42949294473E+01	-5.96628036183E+00	-7.05492491862E-01
1.04184883555E+06	-1.87112118803E+01	1.61334794033E+02	4.60145759520E+00	1.76817557982E+02	-4.04821989762E+01	9.80383560849E+01	-5.95641910932E+00	-6.36472498137E-01
1.07038148307E+06	-1.64476513630E+01	-1.68243351910E+02	4.61736620107E+00	1.76932648520E+02	-4.18494988698E+01	-5.63339321691E-01	-5.96766575970E+00	-7.11371473134E-01
1.09891413059E+06	-2.47165658328E+01	-1.40211834091E+02	4.61948807422E+00	1.77214581845E+02	-4.08906657825E+01	1.37694536231E+02	-5.93206881011E+00	-7.29596770181E-01
1.12744677811E+06	-1.54212526564E+01	-1.51065401416E+02	4.65784884179E+00	1.76865025549E+02	-3.89107194364E+01	1.19988276447E+02	-5.97655003555E+00	-5.91361455350E-01
1.15597942563E+06	-1.44643013578E+01	-1.76010819958E+02	4.61911177287E+00	1.76337074455E+02	-3.81619030856E+01	-9.60234960445E+01	-5.99426992726E+00	-6.87850205166E-01
1.18451207315E+06	-1.36947182381E+01	-1.77755577127E+02	4.68881430143E+00	1.76094345463E+02	-3.51397465735E+01	-1.55929651212E+01	-5.93774107856E+00	-7.81502483032E-01
1.21304472067E+06	-1.58881846312E+01	-1.54757086328E+02	4.64371964551E+00	1.76497160359E+02	-5.19112976582E+01	1.21922380108E+02	-5.95574982245E+00	-9.37909270384E-01
1.24157736820E+06	-2.24829419615E+01	1.29514431214E+02	4.61662700932E+00	1.76036970401E+02	-4.76518293695E+01	-1.56097741928E+02	-5.97333504839E+00	-4.65278415766E-01
1.27011001572E+06	-3.19878503663E+01	9.36936993797E+01	4.64406928401E+00	1.76011813343E+02	-3.41343601636E+01	-1.79056969706E+02	-5.97567546981E+00	-7.62269989781E-01
1.29864266324E+06	-1.70265641767E+01	-1.62084931402E+02	4.62495282394E+00	1.75848334719E+02	-3.88078814882E+01	1.73114115915E+02	-5.97663923974E+00	-8.31720412673E-01
1.32717531076E+06	-2.04360750750E+01	1.77872519683E+02	4.62073349608E+00	1.75936508962E+02	-3.68041407867E+01	-1.52623058487E+02	-5.97208165571E+00	-1.17630540828E+00
1.35570795828E+06	-1.78531294223E+01	1.40110700103E+02	4.62967999246E+00	1.75545026455E+02	-4.82098173680E+01	1.29869694575E+02	-5.96237457829E+00	-1.04020952386E+00
1.38424060580E+06	-1.60216922218E+01	-1.78042917649E+02	4.62935211680E+00	1.75500571486E+02	-4.64724906127E+01	4.71388716353E+01	-5.96439843349E+00	-8.48742808373E-01
1.41277325332E+06	-1.67964707303E+01	1.71948824375E+02	4.63482275681E+00	1.75285602309E+02	-5.14986369216E+01	-6.07619389849E+00	-5.97288478480E+00	-8.24830321447E-01
1.44130590084E+06	-1.68866783397E+01	1.57641060941E+02	4.62077446522E+00	1.74850973092E+02	-4.15180616612E+01	5.17614947768E+01	-5.97706114321E+00	-8.92909585465E-01
1.46983854836E+06	-1.86722330189E+01	-1.28112219368E+02	4.65161662523E+00	1.75095955363E+02	-5.45494508837E+01	1.40478862246E+02	-5.96158878180E+00	-9.08021209623E-01
1.49837119589E+06	-1.35601427931E+01	-1.17852625284E+02	4.66236939606E+00	1.75406161636E+02	-4.24241821749E+01	7.38091948090E+01	-5.96129907696E+00	-8.29682716126E-01
1.52690384341E+06	-2.60149234754E+01	1.75539382920E+02	4.60714070337E+00	1.75099699843E+02	-3.67418267521E+01	-1.07531236897E+02	-5.95181729130E+00	-9.70180284307E-01
1.55543649093E+06	-1.90508886215E+01	-8.82158961912E+01	4.62852719595E+00	1.74924795412E+02	-6.06655044629E+01	3.21172366793E+00	-5.96722529854E+00	-8.22661362817E-01
1.58396913845E+06	-2.14467433215E+01	1.61932821948E+02	4.64139094526E+00	1.74747543903E+02	-4.49088460771E+01	-6.14326623815E+01	-5.97381645056E+00	-9.34547619863E-01
1.61250178597E+06	-1.51585414423E+01	-1.51620822122E+02	4.67236707302E+00	1.75079362387E+02	-4.03223614419E+01	-6.58275724754E+01	-5.95483976606E+00	-9.96748895760E-01
1.64103443349E+06	-1.38379499647E+01	1.58805130226E+02	4.70389126621E+00	1.74295083345E+02	-4.18377624868E+01	-6.21491009889E+01	-5.96177090071E+00	-9.82497115448E-01
1.66956708101E+06	-1.51730722181E+01	-1.47900201467E+02	4.64398982756E+00	1.74724777692E+02	-3.85725943048E+01	1.56503003665E+02	-5.96529631717E+00	-7.63400293988E-01
1.69809972853E+06	-1.18614720091E+01	1.69245026964E+02	4.68399079885E+00	1.74132801162E+02	-5.09786147933E+01	9.52927882223E+01	-5.95086877798E+00	-9.94588521158E-01
1.72663237605E+06	-1.63090638372E+01	1.78893045871E+02	4.64411926330E+00	1.74110061066E+02	-3.62858603582E+01	-9.39584702701E+01	-5.95168042595E+00	-9.55074502889E-01
1.75516502357E+06	-1.95991914853E+01	1.46056539460E+02	4.63667436914E+00	1.74147650525E+02	-4.55209876258E+01	1.66535259262E+02	-5.95666294330E+00	-8.23956575868E-01
1.78369767110E+06	-1.68841825603E+01	-1.60486445325E+02	4.63909505265E+00	1.73995798375E+02	-4.08518097813E+01	-1.24222998263E+01	-5.93607288536E+00	-9.55773147378E-01
1.81223031862E+06	-1.61217328581E+01	-1.67744440958E+02	4.65974443139E+00	1.73742533271E+02	-4.19708770272E+01	1.20159582791E+02	-5.95171485327E+00	-1.01671857750E+00
1.84076296614E+06	-1.46185391809E+01	1.73955387821E+02	4.65712168377E+00	1.73598403685E+02	-4.80705681175E+01	5.16705547710E+00	-5.96478258777E+00	-1.05164683437E+00
1.86929561366E+06	-1.40561740629E+01	-1.74844991484E+02	4.59869352784E+00	1.73745633185E+02	-5.60994638924E+01	4.22326695757E+01	-5.97020157726E+00	-9.92916376131E-01
1.89782826118E+06	-1.52067255352E+01	-1.59405627846E+02	4.67635937883E+00	1.73224826721E+02	-4.62832115348E+01	5.85998793096E+01	-5.95777132105E+00	-1.25639521911E+00
1.92636090870E+06	-1.52058195874E+01	1.64488965135E+02	4.67800820756E+00	1.73160451296E+02	-5.01067067859E+01	8.57697948710E+01	-5.95949571740E+00	-9.50748692011E-01
1.95489355622E+06	-1.70892197003E+01	-1.57461202196E+02	4.64186062992E+00	1.73151879946E+02	-4.69482625624E+01	2.10858719285E+01	-5.94534143429E+00	-1.15476652425E+00
1.98342620374E+06	-1.75585841715E+01	1.67301225255E+02	4.68002209309E+00	1.73028020000E+02	-4.35543197661E+01	-1.32515203943E+02	-5.96544148845E+00	-1.06048135405E+00
2.01195885126E+06	-2.12324853771E+01	-1.48396716141E+02	4.64645736773E+00	1.72807497885E+02	-3.40224929261E+01	-1.66820368025E+02	-5.97552070366E+00	-1.08564372962E+00
2.04049149879E+06	-2.24298181957E+01	1.12103726564E+02	4.61735735739E+00	1.72636475635E+02	-4.06004566229E+01	6.56217752036E+01	-5.95071420942E+00	-9.74072103551E-01
2.06902414631E+06	-1.51925565377E+01	1.69641188549E+02	4.66539536694E+00	1.72594034244E+02	-6.03670209632E+01	-7.78085354167E+01	-5.96242162055E+00	-1.09462602320E+00
2.09755679383E+06	-1.51687240272E+01	1.59636016619E+02	4.66701603726E+00	1.72464855534E+02	-6.22037838009E+01	1.11906519121E+02	-5.93492612269E+00	-1.20842456452E+00
2.12608944135E+06	-1.85595435248E+01	-1.69134905287E+02	4.58917914749E+00	1.72453934401E+02	-4.66715195004E+01	-1.45587533291E+02	-5.97737292663E+00	-1.18987878345E+00
2.15462208887E+06	-1.33768079609E+01	-1.65976889273E+02	4.61647249027E+00	1.72196214219E+02	-5.26165125319E+01	-1.05947601425E+02	-5.97507504160E+00	-1.05249680533E+00
2.18315473639E+06	-1.77734572618E+01	-1.69490936901E+02	4.66975234090E+00	1.72328482963E+02	-4.65844327223E+01	-1.78578958401E-01	-5.94285808956E+00	-1.23392172122E+00
2.21168738391E+06	-1.53504170019E+01	-1.71562038446E+02	4.62659899753E+00	1.72134952990E+02	-4.26908669367E+01	1.23151758569E+02	-5.96746420554E+00	-1.07492433248E+00
2.24022003143E+06	-1.41941207184E+01	-1.50203968183E+02	4.68852252507E+00	1.72225641881E+02	-6.55794481483E+01	-1.23717765243E+02	-5.95173519263E+00	-1.23048932593E+00
2.26875267895E+06	-1.99194515165E+01	-1.59913354976E+02	4.63964506808E+00	1.71844210949E+02	-4.79706983519E+01	-1.45922092625E+02	-5.97816549443E+00	-1.37257892223E+00
2.29728532648E+06	-1.57914349578E+01	-1.63723950221E+02	4.59895556401E+00	1.71720358293E+02	-5.51242203391E+01	-8.30748153155E+01	-5.95831236226E+00	-1.38445325532E+00
2.32581797400E+06	-1.96935032683E+01	1.52183259139E+02	4.61055541420E+00	1.71794881382E+02	-4.96098034417E+01	1.17683129229E+02	-5.95935950453E+00	-1.15415862603E+00
2.35435062152E+06	-1.66566165331E+01	-1.66772291415E+02	4.61455550243E+00	1.71658376054E+02	-4.15186963178E+01	-7.93077719190E+01	-5.94812827991E+00	-1.21707888802E+00
2.38288326904E+06	-1.87537943395E+01	-1.23608190148E+02	4.66850750025E+00	1.71383995515E+02	-5.39231993830E+01	-1.12289082232E+01	-5.96971603261E+00	-1.31903552338E+00
2.41141591656E+06	-1.76844178208E+01	-1.60803536727E+02	4.63422624783E+00	1.71169201624E+02	-4.49510617665E+01	-1.91853669110E+00	-5.93877138884E+00	-1.42536692634E+00
2.43994856408E+06	-1.54994727833E+01	-1.66687257965E+02	4.62781639152E+00	1.71517374439E+02	-4.12249563392E+01	-1.77784848842E+02	-5.96258360071E+00	-1.70337791525E+00
2.46848121160E+06	-1.76598043328E+01	-1.79724883017E+02	4.63369084598E+00	1.71025629138E+02	-4.72367681649E+01	-1.46605299070E+02	-5.96852627391E+00	-1.29120869660E+00
2.49701385912E+06	-1.70179432540E+01	-1.79946165240E+02	4.63375241138E+00	1.70911725998E+02	-4.72307451992E+01	4.63108474264E+00	-5.96144061466E+00	-1.28128249587E+00
2.52554650664E+06	-1.68151388639E+01	-1.64485082624E+02	4.64715550743E+00	1.71001875999E+02	-4.69780390343E+01	-1.01719481648E+02	-5.96389387549E+00	-1.29343069873E+00
2.55407915416E+06	-1.87026189824E+01	-1.69175421025E+02	4.68408351915E+00	1.71052362375E+02	-5.18104116075E+01	-1.18392892985E+02	-5.97451377834E+00	-1.34566707327E+00
2.58261180169E+06	-2.07429371765E+01	1.71181516133E+02	4.64614333372E+00	1.70384053126E+02	-4.64185962240E+01	9.46642938593E+01	-5.96994604254E+00	-1.34424727880E+00
2.61114444921E+06	-1.62394615030E+01	1.74815492108E+02	4.66743483542E+00	1.70641625832E+02	-4.10781922691E+01	6.54590328872E+01	-5.96615763618E+00	-1.29055787344E+00
2.63967709673E+06	-1.89008912067E+01	1.46170131753E+02	4.66718566488E+00	1.70224397898E+02	-3.89718508751E+01	5.06844515728E+00	-5.96459752469E+00	-1.26673546067E+00
2.66820974425E+06	-1.88062719906E+01	1.74837439795E+02	4.64647471764E+00	1.70297212163E+02	-4.07148291526E+01	1.64177445913E+02	-5.99477631464E+00	-1.70748685899E+00
2.69674239177E+06	-1.86602574192E+01	1.77948194023E+02	4.67897416290E+00	1.70192366678E+02	-4.22807615537E+01	-3.77691945467E+01	-5.96956741877E+00	-1.38306106663E+00
2.72527503929E+06	-2.09923196214E+01	-1.60312683747E+02	4.67587026841E+00	1.69909791213E+02	-5.12611814504E+01	6.96974391897E+01	-5.95227349196E+00	-1.42674161096E+00
2.75380768681E+06	-1.60223250492E+01	-1.60194117540E+02	4.70391436565E+00	1.69928554109E+02	-4.65584658267E+01	-7.51533919704E+01	-5.95923318892E+00	-1.35832103895E+00
2.78234033433E+06	-1.62205170235E+01	1.56234511616E+02	4.63316189842E+00	1.69645519331E+02	-4.06115495537E+01	3.94024373291E+01	-5.96219189533E+00	-1.43104262543E+00
2.81087298185E+06	-2.57059263498E+01	1.68945103793E+02	4.63420271354E+00	1.69755574276E+02	-3.68685242430E+01	-1.84054551295E+01	-5.93994898666E+00	-1.39124786480E+00
2.83940562938E+06	-1.91827527215E+01	1.67505110693E+02	4.58963577573E+00	1.69565690631E+02	-3.84615364142E+01	-3.72974388161E+01	-5.94864458343E+00	-1.56896967419E+00
2.86793827690E+06	-2.20995993905E+01	-1.31248932660E+02	4.67113421172E+00	1.69684653615E+02	-4.83703253147E+01	2.58802260687E+00	-5.93514781606E+00	-1.46972301765E+00
2.89647092442E+06	-1.80402661713E+01	-1.58680448195E+02	4.69168841026E+00	1.69613160904E+02	-4.47205112876E+01	1.05829236090E+02	-5.94940096004E+00	-1.43961815532E+00
2.92500357194E+06	-1.67397296035E+01	-1.64702639988E+02	4.65319860989E+00	1.69347625124E+02	-4.61561128864E+01	-1.18911381555E+02	-5.96702386736E+00	-1.42373403296E+00
2.95353621946E+06	-1.51071415970E+01	-1.50015212435E+02	4.70452650348E+00	1.69422248382E+02	-4.32798377664E+01	-4.21680806894E+01	-5.96286128112E+00	-1.54894951328E+00
2.98206886698E+06	-1.39541886438E+01	1.62933579402E+02	4.67277006556E+00	1.68838589212E+02	-4.88334591754E+01	-8.08489852531E+01	-5.97939709653E+00	-1.50593327176E+00
3.01060151450E+06	-1.92383542177E+01	1.69800108948E+02	4.68451846531E+00	1.69128161595E+02	-4.17519816640E+01	-4.30278663933E+01	-5.97014744549E+00	-1.55079947070E+00
3.03913416202E+06	-1.75313362984E+01	-1.38433746032E+02	4.67194826364E+00	1.69099037796E+02	-3.80552848669E+01	-1.12740068259E+02	-5.96395459318E+00	-1.54265684985E+00
3.06766680954E+06	-1.32345430415E+01	-1.51564800426E+02	4.65648630452E+00	1.68793466866E+02	-5.18677765804E+01	4.20548119131E+01	-5.98447929276E+00	-1.36229503822E+00
3.09619945707E+06	-1.87009773872E+01	-1.66548285251E+02	4.66411361913E+00	1.68586994982E+02	-4.26478890633E+01	-1.11572672862E+02	-5.96923533481E+00	-1.60581220707E+00
3.12473210459E+06	-1.89275842178E+01	1.65446622682E+02	4.64927961199E+00	1.68407468589E+02	-4.50092098276E+01	1.60239003005E+01	-5.95678509822E+00	-1.73877274557E+00
3.15326475211E+06	-1.73432263820E+01	-1.68229516077E+02	4.66971598604E+00	1.68346837317E+02	-5.77364821751E+01	-6.68336859515E+01	-5.95002685980E+00	-1.62207863270E+00
3.18179739963E+06	-1.40680130472E+01	-1.51499071154E+02	4.63257450778E+00	1.68365857581E+02	-5.15593506982E+01	3.96564023989E+01	-5.95298448852E+00	-1.68967912804E+00
3.21033004715E+06	-1.74615801478E+01	1.66753755272E+02	4.65568438632E+00	1.68006204721E+02	-4.03222807591E+01	-6.73642634246E+01	-5.97012410978E+00	-1.56451532459E+00
3.23886269467E+06	-1.57882021055E+01	-1.51166485815E+02	4.70404790760E+00	1.68301920169E+02	-4.43257278513E+01	1.11127157947E+02	-5.95210250995E+00	-1.59477418571E+00
3.26739534219E+06	-1.81151716643E+01	-1.57894330568E+02	4.68373456769E+00	1.67906330932E+02	-4.05118894374E+01	7.50737311150E+01	-5.97093525300E+00	-1.80568229679E+00
3.29592798971E+06	-1.51397005760E+01	1.56658394835E+02	4.65001600163E+00	1.67477628004E+02	-4.43159086802E+01	-5.37751909914E+01	-5.95973913952E+00	-1.72633149901E+00
3.32446063723E+06	-4.36880710570E+01	-1.59084446773E+02	4.64098512628E+00	1.67911002533E+02	-4.01419679393E+01	-5.94924708727E+01	-5.96935024550E+00	-1.75164369031E+00
3.35299328475E+06	-1.74736783966E+01	-1.72828264234E+02	4.69392947522E+00	1.67721298204E+02	-4.01544699816E+01	1.33737287381E+02	-5.97226328820E+00	-1.77551535457E+00
3.38152593228E+06	-1.57026188829E+01	-1.75878643274E+02	4.67059327652E+00	1.67640339227E+02	-3.98628207929E+01	-1.05173788417E+02	-5.95899653434E+00	-1.65038182065E+00
3.41005857980E+06	-1.42576218136E+01	-1.63558815311E+02	4.71088565042E+00	1.67578518232E+02	-5.02458593399E+01	-3.27374147438E+01	-5.96491996913E+00	-1.65914584159E+00
3.43859122732E+06	-1.44946250820E+01	-1.73723926498E+02	4.73005601028E+00	1.67248967695E+02	-4.10084150203E+01	-1.23339346949E+02	-5.95583417911E+00	-1.78946677964E+00
3.46712387484E+06	-1.59932737213E+01	-1.65932549314E+02	4.71305803600E+00	1.67113018442E+02	-4.35694997728E+01	1.70115166993E+02	-5.97929429061E+00	-1.73250797513E+00
3.49565652236E+06	-1.91798456759E+01	1.44205136170E+02	4.69373447045E+00	1.67166771711E+02	-4.39280417512E+01	6.23348205928E+01	-5.96089597101E+00	-1.58603898570E+00
3.52418916988E+06	-1.63294567519E+01	-1.75359793341E+02	4.66801101241E+00	1.66783186623E+02	-3.77395620294E+01	1.73582739891E+02	-5.97525765456E+00	-1.63544277069E+00
3.55272181740E+06	-1.83676979205E+01	-1.50433741867E+02	4.65613326730E+00	1.66668987566E+02	-4.29286662176E+01	1.44949983337E+02	-5.98010324166E+00	-1.75386599817E+00
3.58125446492E+06	-1.58922996999E+01	-1.45547148486E+02	4.69668275406E+00	1.66900109887E+02	-4.51385886977E+01	-1.54312568190E+02	-5.95652985879E+00	-1.65240608460E+00
3.60978711244E+06	-1.64143351591E+01	-1.68026272443E+02	4.73178514154E+00	1.66509312901E+02	-4.75297260788E+01	8.62455375692E+01	-5.98758741377E+00	-1.76375493246E+00
3.63831975997E+06	-1.86502955697E+01	1.76942959295E+02	4.69125008793E+00	1.66706338458E+02	-3.97532754118E+01	-1.41039059716E+02	-5.97784231702E+00	-1.78927267265E+00
