# Hz S DB R 50
! CMT, M5065, 19127446, 24.2.4/2
! Date: 9/20/2024 3:22:18 PM
! Data: Format (Calibration Info)
! Freq	S11:dB/Ang(F2)	S21:dB/Ang(F2)	S12:dB/Ang(F2)	S22:dB/Ang(F2)
3.00000000000E+05	-1.79969774255E+01	-2.02005342342E+01	-6.08446382903E+00	1.79175660566E+02	-5.17408997461E+01	1.15011915522E+01	-5.96574380172E+00	-2.05932133224E-01
3.28532647521E+05	-1.29018072166E+01	4.33240074354E+00	-5.92428139114E+00	1.77532755962E+02	-5.78660607008E+01	-8.81604997360E+01	-5.94294753870E+00	-3.04824494013E-01
3.57065295042E+05	-1.52123932652E+01	1.31640180880E+01	-5.80154312447E+00	1.77082250911E+02	-5.32539402178E+01	-7.71736739176E+00	-5.97621424531E+00	-4.27989390966E-01
3.85597942563E+05	-1.74789520775E+01	6.73302759700E+00	-6.03289782387E+00	1.77449178881E+02	-4.53265336359E+01	1.42641969437E+02	-5.95636631986E+00	-3.06066930185E-01
4.14130590084E+05	-1.91219540489E+01	3.05243394383E+01	-5.94969364717E+00	1.77319869556E+02	-3.97142073519E+01	-1.00982627354E+02	-5.94288084331E+00	-2.24838232745E-01
4.42663237605E+05	-1.40806882866E+01	-2.56666776576E+01	-5.82041123505E+00	1.76792735965E+02	-4.19372188467E+01	2.02397454774E+01	-5.96438846983E+00	-3.20064447666E-01
4.71195885126E+05	-1.33035936358E+01	-8.16862475286E+00	-5.96324640727E+00	1.76470146822E+02	-4.39672542257E+01	6.22466786498E+01	-5.97160534564E+00	-3.54146133333E-01
4.99728532648E+05	-1.80484135009E+01	2.41081632088E+01	-6.02821950665E+00	1.76986465154E+02	-4.97604920393E+01	1.56142780741E+02	-5.93913068700E+00	-4.37894665018E-01
5.28261180169E+05	-1.56468511684E+01	4.01050796377E+00	-6.00947569550E+00	1.76153495987E+02	-4.30043508702E+01	-1.12301425734E+02	-5.94814662255E+00	-5.10811770035E-01
5.56793827690E+05	-1.23124209727E+01	-7.23356856570E+00	-5.88499722156E+00	1.75894323400E+02	-4.65844300115E+01	1.37712057137E+02	-5.97925233929E+00	-4.65468273252E-01
5.85326475211E+05	-1.80498119217E+01	-2.88496619634E+01	-5.91671887373E+00	1.75402888303E+02	-4.93662516110E+01	2.84415055025E+01	-5.95882367399E+00	-3.34681636066E-01
6.13859122732E+05	-1.20302270042E+01	1.43745516739E+01	-5.99817611229E+00	1.75074710093E+02	-5.05883509502E+01	7.95806141905E+01	-5.96028261432E+00	2.30592402572E-02
6.42391770253E+05	-1.14524371217E+01	-2.06391940148E+01	-5.97925524074E+00	1.74717534916E+02	-4.99513160980E+01	1.79671704164E+02	-5.95649036390E+00	-2.71860796713E-01
6.70924417774E+05	-1.35525070116E+01	1.41694604698E+00	-5.88792998157E+00	1.74584289821E+02	-4.34695232501E+01	-3.54691854317E+01	-5.95330249463E+00	-1.07144649274E+00
6.99457065295E+05	-1.32264654571E+01	-7.61902549301E+00	-5.92867827886E+00	1.74660528556E+02	-4.77276826461E+01	1.31441739691E+01	-5.94303841165E+00	-6.99845065308E-01
7.27989712816E+05	-1.83794432828E+01	-2.39745950289E+01	-5.78568071164E+00	1.73723650731E+02	-3.87121256690E+01	-1.23454275931E+02	-5.94853798349E+00	-5.90404415387E-01
7.56522360337E+05	-1.38805715685E+01	-1.08856557320E+01	-5.93483055061E+00	1.74030398147E+02	-4.32536997041E+01	-1.32588169006E+02	-5.93419500542E+00	-5.42722818222E-01
7.85055007858E+05	-1.57265479398E+01	1.93098464608E+01	-5.96264757775E+00	1.73026104408E+02	-4.06974603114E+01	1.58191449206E+02	-5.98994082490E+00	-5.15735163515E-01
8.13587655379E+05	-1.52963078439E+01	-1.36051598767E+00	-5.90311736626E+00	1.72769158675E+02	-4.71900414760E+01	1.51620641919E+02	-5.95297446050E+00	-6.12102735756E-01
8.42120302900E+05	-1.44536178458E+01	2.42335518694E+01	-6.03675478959E+00	1.73311740345E+02	-4.85832332453E+01	1.64573403763E+02	-5.96454860322E+00	-5.92475666860E-01
8.70652950421E+05	-1.55412748323E+01	1.84342495172E+00	-6.18152645919E+00	1.72501370659E+02	-3.67523785628E+01	1.74375821274E+02	-5.98653432147E+00	-6.56890674934E-01
8.99185597943E+05	-1.63206935522E+01	-1.22139262938E+01	-6.11348166933E+00	1.71525636079E+02	-5.09910011991E+01	4.25027939261E+01	-5.95759288010E+00	-5.54425155191E-01
9.27718245464E+05	-1.44406930626E+01	-2.64930197858E+01	-5.87671843554E+00	1.72768285716E+02	-5.95617720720E+01	-8.11520356900E+01	-5.95659933581E+00	-5.53870029937E-01
9.56250892985E+05	-1.42123184383E+01	-6.75406040953E+00	-5.85399028008E+00	1.72040719937E+02	-3.91723373298E+01	1.07947477139E+02	-5.95844625673E+00	-6.07120807666E-01
9.84783540506E+05	-1.36623912795E+01	7.17532953701E+00	-5.97822419625E+00	1.70790004823E+02	-4.50986884762E+01	-3.32467713646E+01	-5.94047647498E+00	-5.12250901323E-01
1.01331618803E+06	-1.31820851179E+01	1.63242895413E+01	-6.07212137893E+00	1.71654672208E+02	-4.37579967643E+01	1.64212019444E+02	-5.96436628381E+00	-7.43874929985E-01
1.04184883555E+06	-1.29574570958E+01	1.12096128201E+01	-6.09655307024E+00	1.70740569174E+02	-3.98732418143E+01	1.49252094792E+01	-5.97827895280E+00	-6.90715184766E-01
1.07038148307E+06	-1.33370411551E+01	-1.68530688461E+01	-6.07050180264E+00	1.71066882466E+02	-5.46002268629E+01	1.33818408119E+02	-5.96532482783E+00	-7.96620863905E-01
1.09891413059E+06	-1.27190848111E+01	9.36592674538E+00	-6.07514672305E+00	1.69756185143E+02	-4.17772364594E+01	-5.62064883857E+01	-5.95015063162E+00	-7.71095035077E-01
1.12744677811E+06	-1.67152345616E+01	4.44877242169E+01	-5.93467129242E+00	1.69766045145E+02	-4.37092829598E+01	-1.58386161468E+02	-5.96498169637E+00	-8.25480126669E-01
1.15597942563E+06	-1.50939008842E+01	-2.28606140716E+00	-6.07938809798E+00	1.69899990909E+02	-4.14295705769E+01	-9.60045217551E+01	-5.96144632024E+00	-6.14336757065E-01
1.18451207315E+06	-1.48050706521E+01	1.11062203183E+01	-6.08699667279E+00	1.69133193779E+02	-4.72491159784E+01	-1.76991825334E+02	-5.93707448722E+00	-7.71502753613E-01
1.21304472067E+06	-1.53558476622E+01	5.32611783540E+00	-6.11324412142E+00	1.68367973338E+02	-4.24226092850E+01	8.83807657145E+00	-5.95196991682E+00	-8.40824238779E-01
1.24157736820E+06	-1.47187965432E+01	-2.10017331854E+01	-5.99565629496E+00	1.69769041069E+02	-4.43666182420E+01	1.75597417677E+01	-5.97147551393E+00	-4.04153424635E-01
1.27011001572E+06	-1.85856428967E+01	-6.75357193628E+00	-5.89747962227E+00	1.68791388273E+02	-3.61009222616E+01	-6.94161080381E+01	-5.96545594362E+00	-8.48957089684E-01
1.29864266324E+06	-1.27591223884E+01	7.14409778520E-01	-5.96704566195E+00	1.68267640735E+02	-3.71556001896E+01	-1.10815845754E+02	-5.97297977400E+00	-8.61374229525E-01
1.32717531076E+06	-1.67516233533E+01	-2.31390252179E+01	-5.89189437212E+00	1.68755481329E+02	-4.46061113887E+01	1.65010534419E+02	-5.95285622968E+00	-1.32730190809E+00
1.35570795828E+06	-1.75741601955E+01	1.70169528745E+01	-6.11830126471E+00	1.69032547638E+02	-3.97971549872E+01	1.27260608493E+02	-5.94909796100E+00	-1.06917670396E+00
1.38424060580E+06	-1.24904611703E+01	8.27200048665E+00	-6.12373522285E+00	1.68255936104E+02	-4.54907125841E+01	-1.50556071719E+02	-5.95069061797E+00	-8.84030820650E-01
1.41277325332E+06	-1.88282612386E+01	3.03147806813E+00	-5.92026827088E+00	1.67790740603E+02	-4.77008929716E+01	-7.73316781642E+01	-5.95160514179E+00	-9.21429171034E-01
1.44130590084E+06	-1.57222189346E+01	-8.18745413169E+00	-6.02890087505E+00	1.67911455611E+02	-4.21131257154E+01	1.39850993348E+02	-5.96187397605E+00	-7.57028553477E-01
1.46983854836E+06	-1.48943776838E+01	-4.45689195988E+01	-6.14494003434E+00	1.66686221892E+02	-4.06794243489E+01	-5.93955957421E+01	-5.97755032906E+00	-8.99437690507E-01
1.49837119589E+06	-1.30201042482E+01	-6.97142801111E+00	-6.08477648861E+00	1.67597501842E+02	-4.27064028825E+01	-5.61914207112E+01	-5.95332976142E+00	-8.34437266799E-01
1.52690384341E+06	-1.43056433350E+01	-5.01130547200E+00	-6.19462894476E+00	1.66904670321E+02	-5.57958043329E+01	-5.00738991646E-01	-5.96076454977E+00	-1.00382871596E+00
1.55543649093E+06	-1.38179011194E+01	-1.14968057229E+01	-6.00982258140E+00	1.66597239843E+02	-3.89582121954E+01	1.31083255589E+02	-5.96247720075E+00	-9.04124181285E-01
1.58396913845E+06	-1.61686821761E+01	3.19616882189E+01	-5.90315811277E+00	1.64891468495E+02	-4.50937446595E+01	-6.17535391967E+01	-5.94264827573E+00	-9.43055562174E-01
1.61250178597E+06	-1.25321048647E+01	-3.35711249626E+01	-5.93227124277E+00	1.67528370751E+02	-5.47205457012E+01	-2.30174422707E+01	-5.97954235388E+00	-9.65125050322E-01
1.64103443349E+06	-1.47995338766E+01	-2.35875281996E+01	-5.98052339922E+00	1.66484061612E+02	-3.81447760801E+01	-7.39050582448E+01	-5.97094281971E+00	-1.03304575542E+00
1.66956708101E+06	-1.46243519962E+01	-3.41839082066E+01	-6.11039679447E+00	1.65231714555E+02	-4.06833588254E+01	7.27320380497E+01	-5.95972531354E+00	-1.02269155159E+00
1.69809972853E+06	-1.26431334868E+01	-1.93298307106E+01	-6.03670317904E+00	1.64762021390E+02	-4.23641861528E+01	-9.99455624208E+01	-5.97120287187E+00	-1.09275951972E+00
1.72663237605E+06	-1.44513826419E+01	9.86574618346E+00	-5.92920566502E+00	1.65695341775E+02	-4.03004670488E+01	9.85790166284E+01	-5.95643892130E+00	-9.70308911971E-01
1.75516502357E+06	-1.17310484691E+01	1.63605385440E+01	-6.15723595455E+00	1.64709162825E+02	-4.49668619239E+01	1.02948390086E+02	-5.95651467720E+00	-1.00221510415E+00
1.78369767110E+06	-1.46643458404E+01	-3.32808250578E+00	-6.03120754983E+00	1.63625089529E+02	-4.41502414961E+01	8.76244305106E+01	-5.95172096910E+00	-1.06131852157E+00
1.81223031862E+06	-1.32739259277E+01	1.89331765602E+01	-6.16367391201E+00	1.64518725990E+02	-4.44349479678E+01	1.31721913185E+01	-5.95099016324E+00	-1.11773439986E+00
1.84076296614E+06	-1.22658993515E+01	-4.50352360047E+00	-6.16495341558E+00	1.63930484343E+02	-6.03192473686E+01	-1.57424128218E+02	-5.97568883364E+00	-9.49557665226E-01
1.86929561366E+06	-1.54514714014E+01	8.04812049600E+00	-6.11313173635E+00	1.63979874280E+02	-4.98300183641E+01	7.27260156728E+01	-5.98093120481E+00	-1.05110754824E+00
1.89782826118E+06	-1.33255710853E+01	-5.71748549230E+00	-6.09807101547E+00	1.63182255204E+02	-5.57580147910E+01	-1.14679317056E+02	-5.97337619504E+00	-1.13399309541E+00
1.92636090870E+06	-2.02103638646E+01	-2.96093994157E+01	-6.04374284094E+00	1.62716730103E+02	-4.73590694561E+01	-1.56562602431E+02	-5.96834151272E+00	-9.76547470607E-01
1.95489355622E+06	-1.92432554801E+01	1.80006177709E+01	-6.03814532271E+00	1.62641022972E+02	-4.35551012905E+01	-1.47893288505E+02	-5.94143143791E+00	-1.17015403142E+00
1.98342620374E+06	-1.42457877709E+01	-3.93164714153E+00	-6.30150136040E+00	1.62330853909E+02	-3.87594567543E+01	5.11561515205E+01	-5.92992244413E+00	-1.05218528882E+00
2.01195885126E+06	-1.34627889755E+01	2.05107186244E+00	-6.09792877776E+00	1.63681036855E+02	-4.08099902144E+01	-1.26308326851E+02	-5.96531298899E+00	-1.05150576835E+00
2.04049149879E+06	-1.61007717366E+01	8.28473108908E+00	-6.00430321737E+00	1.61546577004E+02	-5.51185749000E+01	5.17458417809E+01	-5.96940388296E+00	-1.01260467795E+00
2.06902414631E+06	-1.89926839442E+01	-1.60479293028E+01	-6.01909375933E+00	1.61886843672E+02	-5.11763972254E+01	2.52406544700E+01	-5.98476051487E+00	-1.09278653337E+00
2.09755679383E+06	-1.65630414420E+01	-1.71423317628E+01	-6.16938080365E+00	1.61312455107E+02	-3.97778413272E+01	1.18716464854E+02	-5.95712564252E+00	-1.06104485294E+00
2.12608944135E+06	-1.30547045815E+01	1.16252903064E+01	-6.09653566632E+00	1.61668160796E+02	-4.88623440757E+01	5.70586065808E+01	-5.94256383820E+00	-1.00639392159E+00
2.15462208887E+06	-1.15768395079E+01	5.31636037484E+00	-6.23512868641E+00	1.61855994057E+02	-3.94974026012E+01	-1.76672465532E+02	-5.94646410348E+00	-1.14273177291E+00
2.18315473639E+06	-1.22482292262E+01	-4.90543655759E+00	-6.02689261115E+00	1.60758288603E+02	-4.95975182886E+01	5.06178429508E+01	-5.94305859818E+00	-1.19097863633E+00
2.21168738391E+06	-1.21406856320E+01	-2.82173676275E+01	-6.10087166229E+00	1.62161180405E+02	-4.12680039802E+01	-1.15178569101E+02	-5.95110647257E+00	-1.23385854695E+00
2.24022003143E+06	-1.79567135131E+01	2.45268324762E+00	-5.91897293895E+00	1.59672931136E+02	-3.86454890026E+01	3.89160538883E+01	-5.96690494089E+00	-1.21437671984E+00
2.26875267895E+06	-1.43807774209E+01	-1.04343315685E+01	-6.02760651507E+00	1.60539963589E+02	-4.66891870741E+01	-1.75548251761E+01	-5.95081533207E+00	-1.23527211660E+00
2.29728532648E+06	-1.42480129710E+01	-7.60437895040E+00	-6.11788097534E+00	1.60849106162E+02	-4.63887416430E+01	-3.84607582394E+01	-5.96256067760E+00	-1.20855382314E+00
2.32581797400E+06	-1.51585376144E+01	4.60132156973E+00	-6.09189813619E+00	1.59532395148E+02	-4.44371083559E+01	1.42408379764E+02	-5.95536068945E+00	-1.23457605908E+00
2.35435062152E+06	-1.64150886882E+01	2.01291031451E+01	-6.11449493131E+00	1.59834904920E+02	-4.76495741517E+01	-1.10570434032E+02	-5.99372168107E+00	-1.28100695024E+00
2.38288326904E+06	-1.50408351401E+01	-4.50893242602E+01	-6.18149958895E+00	1.59793492115E+02	-4.62126848910E+01	1.45853622886E+02	-5.95138638322E+00	-1.18352779162E+00
2.41141591656E+06	-1.59849330419E+01	-1.56940806832E+01	-6.11075388312E+00	1.58661782819E+02	-5.88579464231E+01	-1.15892690054E+02	-5.95257202916E+00	-1.49382439263E+00
2.43994856408E+06	-1.29233063004E+01	-4.32657151800E+00	-6.17829784678E+00	1.58250880807E+02	-4.04122380643E+01	8.64782512786E+01	-5.96457299392E+00	-1.61041693643E+00
2.46848121160E+06	-1.43471430385E+01	-2.03672882115E+01	-6.20286728062E+00	1.58068740143E+02	-4.20796108655E+01	8.93090400952E+01	-5.95500801388E+00	-1.21367967028E+00
2.49701385912E+06	-1.86755088892E+01	-3.51417125551E+00	-6.03818865792E+00	1.58361396466E+02	-8.48574729948E+01	1.26410968303E+02	-5.97172199756E+00	-1.32064025493E+00
2.52554650664E+06	-1.45211664937E+01	-1.50138576709E+01	-6.21389591955E+00	1.58356031992E+02	-5.35222705059E+01	1.41687844197E+02	-5.94797282902E+00	-1.37292267381E+00
2.55407915416E+06	-1.18272366234E+01	1.72117832109E+01	-6.15005126428E+00	1.58363432014E+02	-5.90167411768E+01	1.39678464281E+02	-5.98871648576E+00	-1.32270915985E+00
2.58261180169E+06	-1.64303171836E+01	-1.92402259860E+01	-6.16403043012E+00	1.57865481281E+02	-3.89071800346E+01	-9.06088192980E+01	-5.98261450774E+00	-1.30559192538E+00
2.61114444921E+06	-1.32871477321E+01	9.76322506148E+00	-6.23394733784E+00	1.58080119736E+02	-4.78452246303E+01	7.58617784633E+01	-5.98945659766E+00	-1.42518000364E+00
2.63967709673E+06	-1.60106890428E+01	-3.56000218448E+01	-6.14445396994E+00	1.57604975470E+02	-3.86423015036E+01	-2.84764021782E+01	-5.97885836583E+00	-1.47850762390E+00
2.66820974425E+06	-1.56920897881E+01	3.69191015116E+00	-6.13637190397E+00	1.56766280294E+02	-5.07358399059E+01	-1.46341645520E+01	-5.98334908662E+00	-1.70694496448E+00
2.69674239177E+06	-1.38532286246E+01	3.32592002129E-01	-6.15534363488E+00	1.56748430242E+02	-5.00007273743E+01	9.19120574723E+01	-5.96009975542E+00	-1.44138199423E+00
2.72527503929E+06	-1.74678165459E+01	-1.99432793971E+01	-6.17421019130E+00	1.56617652794E+02	-4.29645378492E+01	-3.02843137454E+01	-5.96183545106E+00	-1.42830657857E+00
2.75380768681E+06	-1.74218273216E+01	-1.18253863522E+01	-6.24551883983E+00	1.56327199575E+02	-6.55180924914E+01	1.73954808149E+02	-5.95829022035E+00	-1.57821854806E+00
2.78234033433E+06	-1.38775280071E+01	-2.95095434309E+01	-6.40252255367E+00	1.55348234332E+02	-4.41469939267E+01	1.11199977025E+02	-5.97009552507E+00	-1.35791075729E+00
2.81087298185E+06	-1.39938159526E+01	-1.47988598898E+01	-6.18733326936E+00	1.55612953433E+02	-5.19345075742E+01	-7.20462207436E+01	-5.99142685785E+00	-1.47069825260E+00
2.83940562938E+06	-1.25046627343E+01	3.19016007321E+00	-6.21336813334E+00	1.55664306139E+02	-4.38449403795E+01	-1.58364869804E+02	-5.97342698638E+00	-1.45743624884E+00
2.86793827690E+06	-1.29919858461E+01	-5.50977604856E+00	-6.38054942361E+00	1.55552328999E+02	-5.42093175074E+01	2.00652656589E+00	-5.96047809109E+00	-1.53480498095E+00
2.89647092442E+06	-1.21991197896E+01	9.57925002572E+00	-6.24298349258E+00	1.55400337945E+02	-5.14144330276E+01	6.91082128604E+01	-5.94226596492E+00	-1.34016513900E+00
2.92500357194E+06	-1.35359608851E+01	-9.23658444692E+00	-6.25857512985E+00	1.53847071111E+02	-5.45069381376E+01	-1.67468827520E+02	-5.97868496107E+00	-1.51411062246E+00
2.95353621946E+06	-1.68922244073E+01	-6.17762150119E+00	-6.21923218850E+00	1.54954021273E+02	-4.73087221348E+01	-1.57577076265E+01	-5.97280881373E+00	-1.46848743989E+00
2.98206886698E+06	-1.98632518107E+01	-2.86415686347E+01	-6.26228643621E+00	1.53852728782E+02	-5.53256945965E+01	7.94125860641E+01	-5.97931794684E+00	-1.56469772630E+00
3.01060151450E+06	-1.33353916979E+01	-4.08239239497E+00	-6.46640595596E+00	1.54723119638E+02	-3.69435789311E+01	-1.38093834947E+02	-5.95077690654E+00	-1.61661767602E+00
3.03913416202E+06	-1.25439022640E+01	9.61859085839E+00	-6.22002763021E+00	1.53659204802E+02	-4.84627653036E+01	1.14410119566E+02	-5.95955833601E+00	-1.46046564764E+00
3.06766680954E+06	-1.51138139831E+01	2.37365204459E+00	-6.24162391129E+00	1.54644027275E+02	-4.93379814414E+01	1.75791916799E+02	-5.97213319123E+00	-1.66976088225E+00
3.09619945707E+06	-1.66031618019E+01	-9.78940343693E+00	-6.15318522669E+00	1.53108106384E+02	-4.33346446220E+01	-2.44640056574E+01	-5.95135083771E+00	-1.74403835258E+00
3.12473210459E+06	-1.54307844665E+01	-5.54993504978E+00	-6.28385454097E+00	1.53122279064E+02	-3.99364413298E+01	2.65564721136E+01	-5.97555772102E+00	-1.66938092387E+00
3.15326475211E+06	-1.44520682009E+01	-3.75972853006E+00	-6.36144335579E+00	1.52646357704E+02	-4.50322881036E+01	1.30186545804E+02	-5.93758198677E+00	-1.55709474333E+00
3.18179739963E+06	-1.55185181840E+01	-1.81617683424E+00	-6.21818787481E+00	1.52337692959E+02	-4.79691992971E+01	1.50458828784E+02	-5.95573788766E+00	-1.67592012308E+00
3.21033004715E+06	-1.65513180472E+01	-4.21487986438E+01	-6.23198859361E+00	1.51961188163E+02	-4.23252240462E+01	-1.49465279488E+02	-5.96031325955E+00	-1.57663307122E+00
3.23886269467E+06	-1.69740232431E+01	-1.60134756850E+01	-6.34711014979E+00	1.51149693786E+02	-4.85089573012E+01	-1.57939609592E+02	-5.95658786060E+00	-1.69943357784E+00
3.26739534219E+06	-2.04631208525E+01	4.50782325943E+00	-6.18158997185E+00	1.51872654328E+02	-4.59685662653E+01	1.09519020750E+01	-5.96197406406E+00	-1.74544663999E+00
3.29592798971E+06	-1.19839535216E+01	-2.35808217178E-01	-6.22707299147E+00	1.52041716939E+02	-4.41999102034E+01	-9.01481515483E+01	-5.97237630968E+00	-1.71020739826E+00
3.32446063723E+06	-1.63382482964E+01	-7.69255313932E+00	-6.20330292269E+00	1.51359199263E+02	-4.77132215903E+01	1.36112859672E+02	-5.96619908771E+00	-1.58109581470E+00
3.35299328475E+06	-1.86780227870E+01	-1.40770093449E+00	-6.18114113205E+00	1.51195653277E+02	-4.90100628838E+01	-6.96694876128E+01	-5.97278663144E+00	-1.72256432322E+00
3.38152593228E+06	-1.39070959437E+01	-1.81710580214E+01	-6.36845697979E+00	1.50604046009E+02	-4.20187046960E+01	3.79031321818E+01	-5.97920913476E+00	-1.66800523350E+00
3.41005857980E+06	-1.47747078871E+01	-1.93777961461E+01	-6.19824924504E+00	1.50374940262E+02	-3.65380323579E+01	1.22582988765E+02	-5.98065234610E+00	-1.70057101529E+00
3.43859122732E+06	-1.76256484646E+01	-2.49697072375E+01	-6.25329242068E+00	1.50389181693E+02	-5.20901710248E+01	7.44437984241E+01	-5.94781433562E+00	-1.71550823641E+00
3.46712387484E+06	-1.42424895592E+01	-1.99090058189E+01	-6.33442340540E+00	1.50033832259E+02	-3.63641579349E+01	1.70190234193E+02	-5.96623135992E+00	-1.80899146672E+00
3.49565652236E+06	-1.37750901746E+01	-1.86726771976E+01	-6.19319352664E+00	1.49545661744E+02	-4.04077007223E+01	-1.27107178075E+02	-5.97019133738E+00	-1.72312887796E+00
3.52418916988E+06	-1.54527245771E+01	-7.56451625204E+00	-6.30745212572E+00	1.48473717599E+02	-4.06870370947E+01	1.54873597615E+02	-5.96382692572E+00	-1.67633536536E+00
3.55272181740E+06	-1.64683826141E+01	1.02845553786E+01	-6.21220435430E+00	1.49709801522E+02	-4.25316634724E+01	1.79413151000E+02	-5.97830695020E+00	-1.85559046534E+00
3.58125446492E+06	-1.33874327399E+01	-6.93283599298E+00	-6.35173066142E+00	1.49017428362E+02	-4.59166505618E+01	9.27602493232E+01	-5.94669084302E+00	-1.81028387055E+00
3.60978711244E+06	-1.32595991221E+01	-2.37089864600E+01	-6.32887248806E+00	1.48594393307E+02	-3.66489221393E+01	-1.26786467409E+02	-5.95603593476E+00	-1.77338906070E+00
