# Hz S DB R 50
! CMT, M5065, 19127446, 24.2.4/2
! Date: 10/29/2024 1:06:06 PM
! Data: Format (Calibration Info)
! Freq	S11:dB/Ang(F2)	S21:dB/Ang(F2)	S12:dB/Ang(F2)	S22:dB/Ang(F2)
3.00000000000E+05	-1.20687692485E+01	1.67745721771E+02	5.94876323481E+00	-1.78395823181E+02	-5.00268815677E+01	1.21056567727E+02	-6.03864178794E+00	-1.65255473879E-01
3.22191354595E+05	-1.03661800434E+01	-1.75069505339E+02	5.84961857135E+00	-1.78043176040E+02	-3.97499866775E+01	4.03824968243E+00	-6.05155659927E+00	-3.45135720671E-01
3.44382709190E+05	-1.30209207013E+01	-1.64995581555E+02	5.94873653108E+00	-1.78391801244E+02	-3.29436057881E+01	4.46921228368E+01	-6.02959943359E+00	-3.75666767333E-01
3.66574063785E+05	-8.29889111818E+00	-1.58683250011E+02	5.91203296775E+00	-1.78924285773E+02	-4.05079614252E+01	8.51745170864E+01	-5.99154125396E+00	-1.27623762819E-01
3.88765418380E+05	-7.58615463104E+00	-1.77347617084E+02	5.88803827833E+00	-1.79276117385E+02	-4.12444205731E+01	2.45729203398E+01	-6.00551252004E+00	-1.37007006951E-01
4.10956772975E+05	-8.91605608629E+00	1.79978701584E+02	5.94842067317E+00	-1.78887903510E+02	-4.66208398201E+01	-2.10043235312E+01	-6.03651986625E+00	-1.63529154099E-01
4.33148127570E+05	-8.76647145743E+00	-1.78416876570E+02	5.93166818558E+00	-1.79654547976E+02	-3.72299437206E+01	1.81984646824E+00	-6.00705264693E+00	-1.59466076859E-01
4.55339482165E+05	-8.47418216602E+00	-1.73768597033E+02	5.92893513837E+00	-1.79106338923E+02	-4.09327721501E+01	-9.15569334157E+01	-6.00421685979E+00	-3.09085852859E-01
4.77530836760E+05	-1.06016027409E+01	1.63825713182E+02	5.89300135983E+00	1.79885874641E+02	-3.69359545719E+01	9.59767121993E+01	-6.00767494374E+00	-2.45616886024E-01
4.99722191355E+05	-9.96948581101E+00	1.58884872213E+02	6.00094285034E+00	1.79948112269E+02	-5.41655844445E+01	-1.56552554356E+02	-6.01869650479E+00	-4.79756939389E-01
5.21913545950E+05	-1.42878560295E+01	1.62921603452E+02	5.96666420617E+00	1.79710315804E+02	-5.03505150410E+01	-1.60016084583E+01	-6.04938781526E+00	-4.08811488292E-01
5.44104900545E+05	-1.06912873055E+01	1.74442538251E+02	6.03993578671E+00	1.79636461666E+02	-4.42490047948E+01	3.75032233928E+01	-6.03718059695E+00	-4.42747696471E-01
5.66296255139E+05	-1.06022061599E+01	1.74682541743E+02	5.95789205898E+00	1.79375571762E+02	-3.63771342394E+01	7.51763891931E+01	-6.06581975584E+00	-3.92633398449E-01
5.88487609734E+05	-9.52456174449E+00	-1.74928605603E+02	6.03023319470E+00	1.78979264979E+02	-4.20814516192E+01	1.66469709931E+02	-6.00283852730E+00	-6.90195513153E-01
6.10678964329E+05	-1.08671133899E+01	-1.73446644610E+02	5.95171958745E+00	1.79065581726E+02	-4.42006546668E+01	-7.93368605314E+01	-6.02731856539E+00	-1.00535995081E-01
6.32870318924E+05	-1.65398927287E+01	-1.78841341836E+02	5.94092600570E+00	1.78493207946E+02	-3.75756043056E+01	8.95653547362E+01	-6.02721306342E+00	-1.63055530953E-01
6.55061673519E+05	-1.19560345659E+01	1.52439230141E+02	5.93237201801E+00	1.78460980096E+02	-4.64933156633E+01	-1.04253289678E+02	-6.05863407460E+00	-1.81275281833E-01
6.77253028114E+05	-1.09172832333E+01	-1.65453984048E+02	5.93201720773E+00	1.78700445429E+02	-4.01886631466E+01	1.24075268321E+02	-5.98196179893E+00	-4.84980465561E-01
6.99444382709E+05	-1.23447989747E+01	-1.62833391745E+02	5.91011076864E+00	1.78298863773E+02	-3.88994252338E+01	-1.66988759976E+02	-5.99082043020E+00	-5.60638151918E-01
7.21635737304E+05	-9.81337645251E+00	1.52319081492E+02	5.87251815278E+00	1.78425996873E+02	-4.09405575200E+01	-1.59249117147E+02	-6.04861784066E+00	-1.82053598093E-01
7.43827091899E+05	-1.33188189265E+01	-1.78862931843E+02	5.88099911708E+00	1.77984401583E+02	-3.67909042132E+01	1.04994287780E+01	-5.98613568189E+00	-4.73316064951E-01
7.66018446494E+05	-9.41306034877E+00	1.70901108975E+02	5.98543744938E+00	1.78005442968E+02	-3.73439790804E+01	6.55559162398E+01	-6.03083296059E+00	-4.24473111628E-01
7.88209801089E+05	-9.04495313599E+00	1.64348210012E+02	5.92700824970E+00	1.78128057023E+02	-4.17669049977E+01	-1.02881692124E+02	-6.02728655126E+00	-3.07424948441E-01
8.10401155684E+05	-1.48456571112E+01	1.79095864073E+02	5.97741379896E+00	1.77647142667E+02	-3.53504585686E+01	-1.96069968347E+00	-6.04315582444E+00	-4.77482851133E-01
8.32592510279E+05	-1.06319515190E+01	1.69907181479E+02	5.88372241235E+00	1.77576699417E+02	-4.37102675291E+01	4.91383025128E+01	-6.03634087330E+00	-7.07677797471E-01
8.54783864874E+05	-8.59330877831E+00	-1.47430022724E+02	5.87751045250E+00	1.77055657876E+02	-3.70864414439E+01	8.74822348993E+01	-6.06649732530E+00	-6.56799120129E-01
8.76975219469E+05	-9.62814340379E+00	1.74212147029E+02	6.00313181140E+00	1.77372037651E+02	-3.54775562927E+01	-1.66264904518E+02	-6.01346628360E+00	-3.69945908800E-01
8.99166574064E+05	-1.10542240775E+01	-1.74203130172E+02	5.96770578373E+00	1.76896183655E+02	-4.01385397632E+01	4.36241095705E+01	-6.02460765214E+00	-1.65668624114E-01
9.21357928659E+05	-9.38828609169E+00	-1.61242651009E+02	5.83430650950E+00	1.77627790244E+02	-3.99414683596E+01	-1.02382298060E+02	-6.02222075932E+00	-6.37448312222E-01
9.43549283254E+05	-1.84682980625E+01	1.48988481000E+02	5.91745321959E+00	1.76465845065E+02	-4.57674277279E+01	-2.25029015503E+01	-6.03011162628E+00	-6.53717488677E-01
9.65740637849E+05	-8.41605092012E+00	1.70310851167E+02	5.84774573989E+00	1.77726779069E+02	-3.77056204724E+01	-1.54882262853E+02	-6.02160925234E+00	-6.97976930465E-01
9.87931992444E+05	-8.01725691442E+00	1.75522411512E+02	5.92816395108E+00	1.77080224628E+02	-3.49116283356E+01	-2.22704363602E+01	-6.02383528139E+00	-3.73771568619E-01
1.01012334704E+06	-1.08971150572E+01	1.73552072878E+02	5.95650638712E+00	1.75962065165E+02	-4.80230819930E+01	-1.28958789437E+02	-6.04846839351E+00	-4.92791800248E-01
1.03231470163E+06	-1.40254977288E+01	1.50149467306E+02	5.86800793307E+00	1.76923116475E+02	-3.87781757693E+01	-7.10740552650E+01	-6.03353357082E+00	-9.64127048244E-01
1.05450605623E+06	-1.15591477696E+01	1.76083027794E+02	5.90109065364E+00	1.76923863344E+02	-3.63021818825E+01	-1.30138106450E+02	-6.05364943770E+00	-6.77157391171E-01
1.07669741082E+06	-8.46617551486E+00	-1.79491875091E+02	5.98334184887E+00	1.75689619345E+02	-3.60774736548E+01	-1.71661067363E+02	-5.99977615280E+00	-5.80679658657E-01
1.09888876542E+06	-8.28364927540E+00	-1.79399925421E+02	5.88088050305E+00	1.76349260289E+02	-4.71568373031E+01	-1.13960568887E+02	-5.99192859501E+00	-8.68650305133E-01
1.12108012001E+06	-1.35161549947E+01	-1.75192097018E+02	5.90793477127E+00	1.76377977369E+02	-4.07930029687E+01	1.36077621421E+02	-5.99091710387E+00	-6.91750226658E-01
1.14327147461E+06	-1.06578827854E+01	1.64011554216E+02	5.94855658339E+00	1.75838811302E+02	-4.83233106815E+01	4.67227009945E+01	-6.04219533234E+00	-7.63648785512E-01
1.16546282920E+06	-1.38239230033E+01	1.75874076284E+02	5.97267590399E+00	1.75533343489E+02	-3.85272230370E+01	-1.51685810107E+02	-6.03612159521E+00	-6.80980485906E-01
1.18765418380E+06	-1.06913740645E+01	-1.72899123150E+02	5.88220779270E+00	1.75761665929E+02	-4.35756747164E+01	1.12071777334E+01	-6.04285334328E+00	-8.58647858441E-01
1.20984553839E+06	-8.98505350697E+00	1.75124472026E+02	5.96454992830E+00	1.75629708346E+02	-3.24699051717E+01	9.20438288708E+01	-6.04726314993E+00	-1.03026867475E+00
1.23203689299E+06	-8.89561097364E+00	-1.75357791087E+02	5.96263489949E+00	1.75036003393E+02	-4.38199403665E+01	2.37573399331E+01	-6.01470727375E+00	-3.92443881158E-01
1.25422824758E+06	-9.59837171621E+00	1.69867963665E+02	6.00234747070E+00	1.75397647907E+02	-3.74214270900E+01	1.58882950978E+02	-6.01149960378E+00	-8.77806774504E-01
1.27641960218E+06	-1.13407344557E+01	-1.66519100903E+02	5.94187247873E+00	1.75230168396E+02	-4.45797343349E+01	-1.03686855747E+02	-6.01387649789E+00	-6.01467729276E-01
1.29861095677E+06	-8.70842550106E+00	1.71424228775E+02	5.90866594020E+00	1.74761667149E+02	-3.91444075248E+01	-9.55415025049E+01	-6.00458156771E+00	-6.69309633681E-01
1.32080231137E+06	-1.00363265415E+01	1.57819371070E+02	5.89635649870E+00	1.75184316294E+02	-4.33359522562E+01	-9.43166440382E+01	-6.03360698117E+00	-9.12494080476E-01
1.34299366596E+06	-1.09270182128E+01	-1.50372676423E+02	5.85970279689E+00	1.74521377898E+02	-3.89678059297E+01	-3.23491307266E+01	-6.03925179276E+00	-8.26503348035E-01
1.36518502056E+06	-1.02857817579E+01	1.70375226035E+02	5.86507552796E+00	1.74264224802E+02	-3.64697134082E+01	1.39379910200E+02	-6.06805549896E+00	-1.02742471198E+00
1.38737637515E+06	-8.82413927445E+00	-1.58449132056E+02	5.87624608652E+00	1.74707480165E+02	-4.10143999197E+01	-1.55320288513E+02	-5.99843946010E+00	-8.37345518528E-01
1.40956772975E+06	-9.30766783944E+00	-1.61783618968E+02	6.03389062420E+00	1.74217927554E+02	-4.18820164279E+01	1.16360882222E+02	-5.99585767462E+00	-5.54579856125E-01
1.43175908434E+06	-7.86847766811E+00	1.73803061881E+02	5.92868472663E+00	1.74085276889E+02	-3.62997214122E+01	1.52300068459E+02	-6.05579918399E+00	-7.38201973987E-01
1.45395043894E+06	-1.23846146070E+01	-1.47411306481E+02	6.01319038472E+00	1.74364447732E+02	-3.74780831040E+01	7.36357788528E+01	-6.00419420671E+00	-7.53387158179E-01
1.47614179353E+06	-9.64701818669E+00	-1.72626835586E+02	5.94914452412E+00	1.73998897616E+02	-3.08521522508E+01	-3.94962442813E+01	-6.04875755369E+00	-8.98491633837E-01
1.49833314813E+06	-1.17196519615E+01	-1.72736930078E+02	5.92814363005E+00	1.74296653004E+02	-3.45032635585E+01	1.57343023404E+02	-6.00079263920E+00	-7.58214986377E-01
1.52052450272E+06	-1.27714738422E+01	1.77167930785E+02	6.01038691930E+00	1.73767901777E+02	-4.20173910569E+01	4.83998204421E+01	-5.98871830605E+00	-7.45454592419E-01
1.54271585732E+06	-8.88676385565E+00	1.74335627617E+02	5.98249267856E+00	1.73503736553E+02	-4.31627990128E+01	1.62703468158E+02	-5.99930861224E+00	-8.11318928678E-01
1.56490721191E+06	-1.41066030933E+01	1.74833327015E+02	5.89476032101E+00	1.73664923916E+02	-3.46300463528E+01	1.81035849523E+01	-6.04136605932E+00	-7.17854954975E-01
1.58709856651E+06	-9.70314473286E+00	1.76167644038E+02	6.02007766646E+00	1.73642422567E+02	-4.10608613026E+01	-1.69973643366E+02	-6.02121380918E+00	-7.34778023582E-01
1.60928992110E+06	-1.01181650274E+01	-1.60693599699E+02	5.88352822073E+00	1.73578118775E+02	-3.59885121028E+01	1.37461217151E+02	-6.02840477678E+00	-7.47511324281E-01
1.63148127570E+06	-5.52419757988E+00	1.67260557110E+02	5.95509224094E+00	1.73087228292E+02	-4.05766125003E+01	9.55038835780E+01	-6.01692236912E+00	-8.96945807715E-01
1.65367263029E+06	-1.29006260702E+01	-1.67597886895E+02	5.92435493321E+00	1.72837549157E+02	-4.25043888453E+01	-1.45948373916E+02	-6.00483172670E+00	-5.07797790000E-01
1.67586398489E+06	-8.33801789617E+00	-1.73877954717E+02	6.00857198171E+00	1.72831846231E+02	-4.43524902020E+01	1.53428892361E+02	-6.07236173841E+00	-6.31289627988E-01
1.69805533948E+06	-1.09289478588E+01	-1.63970454625E+02	5.95578372531E+00	1.74506947196E+02	-3.60421319632E+01	-9.85128178363E+01	-6.04790874542E+00	-7.77493287397E-01
1.72024669408E+06	-8.77718141710E+00	-1.66462664322E+02	5.91136072416E+00	1.72739214878E+02	-3.90495086732E+01	-8.09967381543E+01	-6.02575808034E+00	-9.78027918286E-01
1.74243804867E+06	-8.92314143732E+00	1.65863974568E+02	5.99264163371E+00	1.73169810908E+02	-4.37745371543E+01	-1.41125340881E+02	-6.05257973372E+00	-5.98846591436E-01
1.76462940327E+06	-1.03040941241E+01	1.55866519461E+02	5.89705241368E+00	1.72685335070E+02	-4.03284755544E+01	-1.69778297141E+02	-6.00479332429E+00	-8.52973981888E-01
1.78682075786E+06	-1.17242394606E+01	1.70575489649E+02	5.93603364912E+00	1.72634317838E+02	-3.68397645019E+01	-1.12437935202E+02	-6.02099409088E+00	-6.71299331992E-01
1.80901211246E+06	-9.26533434660E+00	-1.69215559042E+02	5.94639403608E+00	1.72676152296E+02	-4.40189746144E+01	-1.00303198032E+02	-5.98805912971E+00	-1.00248737891E+00
1.83120346705E+06	-9.21634165778E+00	1.67821646187E+02	5.89951599536E+00	1.72281203401E+02	-3.94471893138E+01	-1.16084108487E+02	-6.00527880180E+00	-7.72929739192E-01
1.85339482165E+06	-1.72380915285E+01	1.63585058933E+02	5.78714191684E+00	1.71750158162E+02	-4.81920221768E+01	-1.58222588855E+02	-6.00946869160E+00	-1.17695853364E+00
1.87558617624E+06	-1.48094338470E+01	1.78841580210E+02	5.88669379171E+00	1.72129695034E+02	-4.01335202294E+01	-1.32621954340E+02	-6.02199778054E+00	-8.51600684983E-01
1.89777753084E+06	-1.31188246115E+01	-1.63490257213E+02	5.99817216829E+00	1.71712967848E+02	-5.60621594713E+01	6.55970282157E+01	-6.00924065869E+00	-7.02708674867E-01
1.91996888543E+06	-9.34464807380E+00	-1.67129665040E+02	5.99009267104E+00	1.71661033429E+02	-4.60451689831E+01	-3.37065832058E+01	-6.00720602390E+00	-1.00469543268E+00
1.94216024003E+06	-9.65048834027E+00	1.77308286972E+02	5.88697506019E+00	1.72014831166E+02	-3.88411694081E+01	-1.37456551949E+02	-6.02023951077E+00	-9.93177248060E-01
1.96435159462E+06	-1.37520420222E+01	1.74866282613E+02	5.91811859720E+00	1.71755734736E+02	-4.56788282973E+01	-2.61784323246E+01	-6.00646370866E+00	-1.06148620266E+00
1.98654294922E+06	-6.50027098393E+00	-1.72682481011E+02	5.86415816885E+00	1.71762382989E+02	-4.89167466442E+01	6.36970050176E+01	-6.02418340267E+00	-1.01037232637E+00
2.00873430381E+06	-7.91370387525E+00	1.72590257237E+02	6.03368812771E+00	1.71896897292E+02	-4.06774916230E+01	-8.99105398144E+01	-6.02808413397E+00	-9.20969439092E-01
2.03092565841E+06	-1.43379148824E+01	1.73383753933E+02	5.92717141624E+00	1.71563534532E+02	-3.92518095506E+01	-9.81434331987E+01	-6.04078602044E+00	-9.82533462617E-01
2.05311701300E+06	-9.00548076090E+00	-1.69093536899E+02	5.90164870834E+00	1.71210389086E+02	-4.25891726067E+01	6.91423383598E+01	-5.99650841889E+00	-9.78252993252E-01
2.07530836760E+06	-9.66604063805E+00	1.71365681435E+02	5.89584853757E+00	1.70996439888E+02	-4.26328258967E+01	-5.62188985000E+01	-6.05848501179E+00	-9.61176676215E-01
2.09749972219E+06	-1.30794595998E+01	1.72303300064E+02	5.92842999391E+00	1.71026102217E+02	-3.56694278848E+01	-1.08520624026E+02	-6.02586504983E+00	-1.11422836314E+00
2.11969107679E+06	-1.07585706452E+01	1.63030651153E+02	5.88133928729E+00	1.70669325341E+02	-4.55237084006E+01	-3.50589584653E+00	-6.03883559323E+00	-1.05599193659E+00
2.14188243138E+06	-9.59184092021E+00	1.58890176520E+02	5.99157661159E+00	1.70463987789E+02	-4.17896377947E+01	4.75124687021E+01	-6.00092413275E+00	-8.79468432445E-01
2.16407378598E+06	-8.03539882582E+00	-1.79191004437E+02	5.98945773762E+00	1.70994783983E+02	-5.97443310248E+01	1.40288294378E+02	-6.00719473207E+00	-9.08929958975E-01
2.18626514057E+06	-7.44402066140E+00	1.49593983304E+02	5.97936202359E+00	1.70002571306E+02	-4.41850081128E+01	-1.44500561194E+02	-6.06517691707E+00	-1.26541262911E+00
2.20845649517E+06	-1.20139403800E+01	1.71530763222E+02	5.88821326715E+00	1.70244845000E+02	-4.46512376859E+01	-1.70422888896E+02	-5.99019804344E+00	-1.28213859486E+00
2.23064784976E+06	-1.14791529927E+01	1.46633178206E+02	5.94163115119E+00	1.70129340193E+02	-4.11106096928E+01	-1.19682055985E+02	-6.01594059707E+00	-1.03172385930E+00
2.25283920436E+06	-1.06265989107E+01	1.60845508652E+02	5.90690329471E+00	1.70743142072E+02	-4.16092694384E+01	-9.86049959612E+01	-6.03600817631E+00	-1.24671869965E+00
2.27503055895E+06	-1.46127716087E+01	-1.54335533158E+02	5.97041478059E+00	1.70203522351E+02	-3.90356613465E+01	-1.16322341828E+02	-6.04938166985E+00	-8.53659764955E-01
2.29722191355E+06	-8.78258612636E+00	-1.79051103666E+02	5.88532121754E+00	1.69661991649E+02	-4.08646318853E+01	1.45830179537E+02	-6.05778569249E+00	-1.06229807883E+00
2.31941326814E+06	-1.02772256094E+01	1.60081220125E+02	5.82620251401E+00	1.70076209345E+02	-3.57684910095E+01	-5.29614516905E+00	-5.98583844369E+00	-9.47983980691E-01
2.34160462274E+06	-1.12153990889E+01	1.68803112648E+02	5.92321824700E+00	1.70448700234E+02	-4.36179388610E+01	5.91229871854E+01	-6.03644540853E+00	-1.13110538035E+00
2.36379597733E+06	-9.48471677795E+00	-1.68191511849E+02	5.91270682217E+00	1.69953938549E+02	-3.53951338785E+01	1.00053342225E+02	-5.98182561826E+00	-9.63320882028E-01
2.38598733193E+06	-1.33100934884E+01	-1.55041309324E+02	5.89866903288E+00	1.69935177556E+02	-3.99771622794E+01	-1.51077850937E+02	-6.01937407160E+00	-1.12833040737E+00
2.40817868652E+06	-9.25952402272E+00	1.77518855048E+02	5.91545210425E+00	1.69325261566E+02	-4.74478665473E+01	-9.19161273311E+01	-6.03772113204E+00	-9.22951372056E-01
2.43037004112E+06	-1.19361817748E+01	1.72204542671E+02	5.96757186747E+00	1.69510192789E+02	-3.65486580990E+01	-1.09968803074E+02	-6.02790691792E+00	-1.44201134664E+00
2.45256139571E+06	-7.78097144262E+00	1.42625588808E+02	5.89211272744E+00	1.69561293405E+02	-3.71696045568E+01	-6.39848051078E+01	-6.04600486332E+00	-9.97408967231E-01
2.47475275031E+06	-6.81456757713E+00	1.56354506010E+02	5.96199668707E+00	1.69157643722E+02	-5.25819261921E+01	1.40191146458E+02	-6.02631257377E+00	-1.27289745821E+00
2.49694410490E+06	-9.02577738862E+00	-1.71799138985E+02	5.95092769324E+00	1.68895295490E+02	-4.88035244782E+01	-1.71167824809E+02	-6.00925442198E+00	-1.05985994219E+00
2.51913545950E+06	-1.26872347292E+01	-1.78156436650E+02	5.94625554272E+00	1.69084752761E+02	-4.45261022042E+01	-1.16656454847E+02	-6.05124959553E+00	-9.75366974913E-01
2.54132681409E+06	-9.86766760048E+00	1.68443844892E+02	5.95285843192E+00	1.69220850861E+02	-4.42223895588E+01	-8.06927022401E+01	-6.00753646216E+00	-1.18274671344E+00
2.56351816869E+06	-7.18959551249E+00	1.61696089389E+02	5.90772305452E+00	1.69295598551E+02	-3.42136379469E+01	-2.43939941413E+01	-6.04714870814E+00	-1.30223041968E+00
2.58570952328E+06	-1.01446870411E+01	-1.67789918368E+02	5.88322232905E+00	1.68777888934E+02	-4.27120557203E+01	-3.46845655039E+01	-6.01937579281E+00	-1.10464433802E+00
2.60790087788E+06	-7.51616365375E+00	1.72385583708E+02	5.86340788155E+00	1.68448771774E+02	-3.57635771940E+01	-1.76807410094E+02	-6.02141425955E+00	-1.29653573154E+00
2.63009223247E+06	-1.11151422517E+01	-1.70622800830E+02	5.82046719505E+00	1.68238231337E+02	-4.07512029850E+01	-1.79420315071E+02	-6.03253839071E+00	-1.30423893307E+00
2.65228358707E+06	-1.18853876991E+01	1.46371429932E+02	5.95711012799E+00	1.68621679470E+02	-3.83876120380E+01	-4.99426529891E+01	-6.03134673306E+00	-1.84321036383E+00
2.67447494166E+06	-1.41837382921E+01	1.75166116940E+02	5.91433146466E+00	1.68664276650E+02	-5.11377733586E+01	3.08585875502E+01	-6.03105466356E+00	-1.33860858990E+00
2.69666629626E+06	-1.16901517750E+01	1.77449920139E+02	5.91940886552E+00	1.68697437384E+02	-4.13547187068E+01	-1.03578808553E+02	-6.02088216825E+00	-1.32821328295E+00
2.71885765085E+06	-8.65044599421E+00	1.72124110734E+02	5.94834034130E+00	1.68297320176E+02	-3.71014785198E+01	-4.82341334319E+01	-5.99006251461E+00	-1.15920944037E+00
2.74104900545E+06	-1.12258905136E+01	1.61320091543E+02	5.91291065955E+00	1.67767037787E+02	-3.60550691085E+01	1.52768966306E+02	-5.97959838513E+00	-1.23368087796E+00
2.76324036004E+06	-7.48595730523E+00	-1.70969977773E+02	5.92290902189E+00	1.68356327478E+02	-3.72088713988E+01	-1.10194837172E+02	-6.00030368496E+00	-1.21592653054E+00
2.78543171463E+06	-8.89744932262E+00	-1.79706694213E+02	5.98548272267E+00	1.68160060497E+02	-4.62365498296E+01	3.99434308833E+01	-6.01036065311E+00	-1.02269548154E+00
2.80762306923E+06	-1.01293528352E+01	1.78667986281E+02	5.86111792685E+00	1.67851833217E+02	-3.59669912264E+01	6.53027639807E+01	-6.05140640795E+00	-1.35624092712E+00
2.82981442382E+06	-9.15959962924E+00	-1.77062311716E+02	5.90104847120E+00	1.68218554818E+02	-4.24239364449E+01	9.82184637228E+01	-6.01822703551E+00	-1.22434398566E+00
2.85200577842E+06	-7.68001620308E+00	1.64100697927E+02	5.92436866963E+00	1.67977869591E+02	-5.26420284677E+01	1.77984988259E+02	-6.01212417647E+00	-1.53819314962E+00
2.87419713301E+06	-8.49616361566E+00	1.77116825837E+02	5.88902477972E+00	1.67414239373E+02	-4.15967448395E+01	9.20790703744E+01	-6.00136012856E+00	-1.29715950318E+00
