# Hz S DB R 50
! CMT, M5065, 19127446, 24.2.4/2
! Date: 10/29/2024 1:14:22 PM
! Data: Format (Calibration Info)
! Freq	S11:dB/Ang(F2)	S21:dB/Ang(F2)	S12:dB/Ang(F2)	S22:dB/Ang(F2)
3.00000000000E+05	-1.07003036578E+01	-1.69534188671E+02	8.44882414981E+00	-1.77873386583E+02	-3.67150796811E+01	-1.85549966181E+01	-6.00626304229E+00	2.87357122288E-02
3.22191354595E+05	-9.31174037015E+00	-1.70725826858E+02	8.41763805921E+00	-1.78151130558E+02	-4.29517646077E+01	-5.26523645815E+01	-5.97766560684E+00	-2.32939400499E-01
3.44382709190E+05	-1.14905368584E+01	-1.65546833337E+02	8.39304589968E+00	-1.78661564124E+02	-3.32845954358E+01	-9.58203164548E+01	-6.00259461732E+00	-4.59355166648E-01
3.66574063785E+05	-1.06319795503E+01	-1.76170247719E+02	8.45050820040E+00	-1.78549019453E+02	-4.59427516879E+01	-6.38070465157E+00	-6.05153656387E+00	-2.85863595714E-01
3.88765418380E+05	-9.86099472259E+00	1.64322406759E+02	8.42551555142E+00	-1.79071363125E+02	-4.26090321188E+01	1.07777276661E+02	-6.01999808588E+00	-3.41762802128E-01
4.10956772975E+05	-1.01814654738E+01	-1.75551922155E+02	8.40243619618E+00	-1.79615295712E+02	-4.64246062437E+01	-1.65268927896E+02	-6.01764369220E+00	-1.82130595992E-01
4.33148127570E+05	-1.24313144299E+01	-1.65780034933E+02	8.46147522054E+00	-1.79486816398E+02	-3.84975283063E+01	-1.12694805555E+02	-6.01986178517E+00	-3.79123625827E-01
4.55339482165E+05	-1.53521882252E+01	1.63858632172E+02	8.46352928389E+00	-1.79704425978E+02	-3.68319967104E+01	-8.54582782523E+01	-5.96669457219E+00	-3.59683556837E-01
4.77530836760E+05	-1.12322841990E+01	-1.75542749777E+02	8.41873730026E+00	1.79571315496E+02	-4.34641121826E+01	-1.04321595965E+02	-6.01183375289E+00	-2.76833957374E-01
4.99722191355E+05	-1.02443099667E+01	-1.68051007851E+02	8.45289249879E+00	1.79336318696E+02	-3.88012605482E+01	7.97230140522E+01	-6.00505630668E+00	-3.28383740491E-01
5.21913545950E+05	-1.26996981375E+01	-1.72628409761E+02	8.35129333324E+00	1.79825832106E+02	-3.76090073757E+01	-5.15366121927E+01	-6.02324669825E+00	-3.18025943665E-01
5.44104900545E+05	-1.09951476788E+01	-1.58018077472E+02	8.42550436106E+00	1.79229530330E+02	-3.79523811519E+01	-2.28589755346E+01	-6.00644049850E+00	-4.29487845059E-01
5.66296255139E+05	-8.74201479028E+00	-1.48075761404E+02	8.39738330136E+00	1.79161423025E+02	-3.73916579788E+01	-1.77140471712E+02	-6.01971068319E+00	-6.67981884317E-01
5.88487609734E+05	-9.20147555173E+00	1.72052222520E+02	8.38279156943E+00	1.79042078026E+02	-3.78891121160E+01	-3.38937830214E+01	-6.02674623672E+00	-4.07511750897E-01
6.10678964329E+05	-9.89727906159E+00	-1.72000767206E+02	8.44397603567E+00	1.78287089218E+02	-5.25063446533E+01	-3.53860908307E+01	-6.02269885341E+00	-2.94121555146E-01
6.32870318924E+05	-1.03957292943E+01	1.66721778492E+02	8.36531450591E+00	1.78450758955E+02	-3.76798845925E+01	9.09023958364E+01	-6.06197200335E+00	-3.80482660083E-01
6.55061673519E+05	-1.17798457796E+01	1.52693084371E+02	8.35657716927E+00	1.78331253445E+02	-4.11126008937E+01	-1.18000210234E+00	-6.05460184190E+00	-2.91675506854E-01
6.77253028114E+05	-1.09237000202E+01	-1.74110111960E+02	8.42009167755E+00	1.77894781731E+02	-3.84496976070E+01	1.09160557836E+02	-6.02435804189E+00	-5.40464221435E-01
6.99444382709E+05	-1.61711400337E+01	-1.55277160925E+02	8.47775850914E+00	1.78022854804E+02	-3.88493737473E+01	8.08865824422E+01	-5.97648609546E+00	-4.79458967032E-01
7.21635737304E+05	-1.27218008331E+01	1.74746051767E+02	8.43795129013E+00	1.77656838135E+02	-3.93483812252E+01	2.07232510617E+01	-6.02709585901E+00	-5.59092652621E-01
7.43827091899E+05	-7.64493823933E+00	1.77229226062E+02	8.47579612093E+00	1.77473772875E+02	-3.91823232858E+01	1.71996117679E+01	-6.02892685234E+00	-5.55108214135E-01
7.66018446494E+05	-1.47028574701E+01	1.65415749348E+02	8.41373515620E+00	1.77694373498E+02	-4.78412548999E+01	4.18026429859E+01	-6.00470950081E+00	-5.65875338899E-01
7.88209801089E+05	-8.88628508389E+00	1.72700954664E+02	8.39243005824E+00	1.77367026563E+02	-4.84865368115E+01	5.29233880318E+01	-5.96620310863E+00	-8.13544575207E-01
8.10401155684E+05	-1.00917679512E+01	1.48967921238E+02	8.42249563287E+00	1.77596031923E+02	-4.21651202245E+01	-1.93275724589E+00	-6.03636569515E+00	-5.51968567158E-01
8.32592510279E+05	-1.01262385998E+01	1.76452438333E+02	8.41010469669E+00	1.76837992467E+02	-3.84836282770E+01	1.78920528350E+02	-6.00844376276E+00	-4.02239128365E-01
8.54783864874E+05	-9.38688677833E+00	1.76025191112E+02	8.45233047373E+00	1.76974817864E+02	-4.66167167137E+01	1.27257117686E+02	-6.02112763679E+00	-4.33244422288E-01
8.76975219469E+05	-8.43861803644E+00	-1.79016215438E+02	8.41663644978E+00	1.77365377650E+02	-3.56337231679E+01	4.79100764026E+01	-6.04142316009E+00	-7.14323476402E-01
8.99166574064E+05	-9.67842595690E+00	-1.64537631938E+02	8.47985460840E+00	1.76792047140E+02	-4.72808876957E+01	1.12094201493E+01	-6.01555156978E+00	-5.19890561045E-01
9.21357928659E+05	-1.28057067079E+01	-1.73094147094E+02	8.38355682061E+00	1.76412434791E+02	-3.62985748268E+01	-6.70291223851E+01	-6.01082097686E+00	-5.94489262706E-01
9.43549283254E+05	-8.77121884959E+00	-1.68744123142E+02	8.40541069555E+00	1.76605676692E+02	-5.43295181116E+01	-1.29323708355E+02	-6.04116860092E+00	-8.63455760579E-01
9.65740637849E+05	-1.63636537836E+01	1.49207946805E+02	8.39837273512E+00	1.76253306611E+02	-4.29728979398E+01	-1.44794178559E+02	-6.03145757627E+00	-4.55493129839E-01
9.87931992444E+05	-8.77028410360E+00	1.69815654547E+02	8.42219084957E+00	1.76470348670E+02	-4.17940319297E+01	2.58382604317E+01	-6.00239645999E+00	-1.43979962852E-01
1.01012334704E+06	-9.31578185186E+00	1.77277196441E+02	8.40264974375E+00	1.75840597386E+02	-3.79356213579E+01	-7.75843812576E+01	-6.04619653488E+00	-5.28952604140E-01
1.03231470163E+06	-1.10039404036E+01	1.77337400983E+02	8.38654132450E+00	1.76252671385E+02	-4.40774029923E+01	1.69729036489E+01	-6.03167325190E+00	-7.38056842003E-01
1.05450605623E+06	-8.80146091940E+00	-1.71024276233E+02	8.40154737305E+00	1.75625625020E+02	-4.00245258244E+01	-1.47661705260E+02	-6.02856744514E+00	-6.48535511948E-01
1.07669741082E+06	-1.18964366339E+01	1.73862402659E+02	8.44977065198E+00	1.75386002621E+02	-3.97602331182E+01	-1.05017469302E+02	-6.02366817936E+00	-4.85716867496E-01
1.09888876542E+06	-1.36175286119E+01	-1.75827465059E+02	8.41698644682E+00	1.75684677385E+02	-4.05452025774E+01	1.47190297585E+02	-6.00871125940E+00	-4.03537985178E-01
1.12108012001E+06	-1.12794522512E+01	1.67505357176E+02	8.46341440802E+00	1.75481430963E+02	-3.82247776716E+01	4.95786982517E+01	-6.03786543755E+00	-7.13485278956E-01
1.14327147461E+06	-1.14750750264E+01	-1.59566778258E+02	8.38771995770E+00	1.75708992909E+02	-5.05504225639E+01	9.59351440829E+01	-6.04592277293E+00	-7.07998318020E-01
1.16546282920E+06	-8.91117328181E+00	1.57715334970E+02	8.42148887096E+00	1.75007356818E+02	-4.46818495725E+01	-1.94779721489E+01	-6.05823835472E+00	-5.75083629695E-01
1.18765418380E+06	-1.44235677754E+01	1.68881047400E+02	8.39511422634E+00	1.74901230879E+02	-4.28611344673E+01	-1.67311825274E+01	-6.01939825107E+00	-8.13005593698E-01
1.20984553839E+06	-1.10344725594E+01	1.64752615727E+02	8.41081955246E+00	1.74837707569E+02	-3.64537583254E+01	-9.43880949454E+01	-6.01288322106E+00	-1.00031770715E+00
1.23203689299E+06	-1.77934513332E+01	-1.75861171119E+02	8.40331281705E+00	1.74828388627E+02	-4.17041943032E+01	-7.39722586967E+01	-6.03043182375E+00	-5.09246354829E-01
1.25422824758E+06	-1.15099783630E+01	1.72573195955E+02	8.43739046868E+00	1.74438797612E+02	-4.05215957346E+01	1.79660841671E+01	-6.04319516533E+00	-6.51730794363E-01
1.27641960218E+06	-9.00186879226E+00	-1.65704097027E+02	8.43351631023E+00	1.74026586633E+02	-3.94608752963E+01	-1.67451269568E+02	-6.03143561162E+00	-3.05903906950E-01
1.29861095677E+06	-7.79168208502E+00	1.70968749347E+02	8.47157473396E+00	1.74198737573E+02	-3.58903556376E+01	3.00447160364E+01	-6.01590803123E+00	-6.95558779763E-01
1.32080231137E+06	-1.05836361975E+01	1.63861318025E+02	8.43786853253E+00	1.73660161775E+02	-4.96286852258E+01	1.05236690954E+02	-6.02205420143E+00	-1.06732739724E+00
1.34299366596E+06	-1.12834088411E+01	1.77076217158E+02	8.35649160351E+00	1.73993879518E+02	-3.87773014594E+01	1.63931628220E+02	-5.98712228626E+00	-7.87056037969E-01
1.36518502056E+06	-7.05474511529E+00	1.72832486515E+02	8.52023376308E+00	1.73486243530E+02	-4.14137371098E+01	3.40113638674E+01	-6.00960336852E+00	-6.99323090478E-01
1.38737637515E+06	-7.83154416219E+00	1.57033277659E+02	8.39874949223E+00	1.73682002040E+02	-4.12415883249E+01	6.24826299448E+01	-6.00864216539E+00	-5.98163187008E-01
1.40956772975E+06	-1.10486802153E+01	-1.67888032097E+02	8.43996086555E+00	1.73481112055E+02	-3.32688879384E+01	-9.54328317147E+01	-6.03067066491E+00	-1.07414006515E+00
1.43175908434E+06	-9.03686366834E+00	1.77102287075E+02	8.41192967543E+00	1.73377601326E+02	-4.75310968807E+01	4.39576090270E+01	-6.06173876017E+00	-9.77182748297E-01
1.45395043894E+06	-1.38371726384E+01	1.78814929295E+02	8.46728906325E+00	1.73308602106E+02	-4.00459524818E+01	4.21755396886E+01	-6.02472577401E+00	-9.38658616627E-01
1.47614179353E+06	-7.84541707710E+00	-1.77340900411E+02	8.40937236872E+00	1.73520142448E+02	-3.59208688447E+01	-9.73185067017E+01	-6.04394921670E+00	-6.03222392167E-01
1.49833314813E+06	-8.20105611485E+00	-1.66868085879E+02	8.39636665314E+00	1.73269567408E+02	-3.68624113453E+01	-1.37943205402E+02	-6.03603403775E+00	-7.50449108939E-01
1.52052450272E+06	-1.17745656369E+01	1.59109969392E+02	8.41322958085E+00	1.73220599763E+02	-3.54574799524E+01	1.19837805275E+02	-5.98882273517E+00	-5.29479722247E-01
1.54271585732E+06	-1.32153455098E+01	1.67093639118E+02	8.47196502966E+00	1.73021165647E+02	-4.78023143695E+01	1.16389117126E+02	-6.00776697393E+00	-7.31215325904E-01
1.56490721191E+06	-1.03821436962E+01	-1.78980414181E+02	8.45929995895E+00	1.73028118917E+02	-3.73118251275E+01	-1.25046861844E+02	-6.05253280574E+00	-5.93149920884E-01
1.58709856651E+06	-9.52017826475E+00	1.64457954670E+02	8.35424805662E+00	1.73093120437E+02	-3.95746704487E+01	2.53691609607E+01	-5.99121384182E+00	-7.47950381824E-01
1.60928992110E+06	-9.97094846639E+00	1.66614945020E+02	8.41650550142E+00	1.72781296687E+02	-4.85172567937E+01	6.04422078694E+01	-6.02616123515E+00	-7.43556297485E-01
1.63148127570E+06	-1.32453487393E+01	-1.74487514890E+02	8.45510934158E+00	1.72446012535E+02	-3.65367973451E+01	2.15579400874E+01	-6.03990646144E+00	-8.11856881550E-01
1.65367263029E+06	-7.60738102961E+00	1.69889904802E+02	8.44163157629E+00	1.72511984859E+02	-4.17646670353E+01	1.36881247270E+02	-6.06675415919E+00	-8.46340698379E-01
1.67586398489E+06	-1.12909149461E+01	-1.77726497112E+02	8.46850705372E+00	1.72247134152E+02	-4.81172500423E+01	2.63827162999E+01	-5.99232750241E+00	-6.60121280670E-01
1.69805533948E+06	-9.92435416573E+00	1.78983633089E+02	8.42443235984E+00	1.72058261879E+02	-3.96599674554E+01	4.90926904110E+01	-6.02611595343E+00	-8.20339502521E-01
1.72024669408E+06	-1.19085664663E+01	-1.72574548494E+02	8.42082413863E+00	1.72107322541E+02	-4.36485250639E+01	-8.34806236348E+01	-6.01977240341E+00	-9.96963820936E-01
1.74243804867E+06	-1.04381506687E+01	1.63034937536E+02	8.43896645359E+00	1.72362760916E+02	-3.73434136010E+01	1.45068894539E+02	-6.03830863967E+00	-6.19341138320E-01
1.76462940327E+06	-1.03192535905E+01	1.58063511625E+02	8.38689899469E+00	1.71784606716E+02	-4.39865205822E+01	7.29675302131E+01	-6.03207779985E+00	-1.05289935979E+00
1.78682075786E+06	-9.20616071662E+00	-1.72782528412E+02	8.43728750937E+00	1.71384300672E+02	-6.05059841656E+01	9.47288429648E+01	-6.02003234804E+00	-1.03590861573E+00
1.80901211246E+06	-6.40217398335E+00	-1.69679712448E+02	8.44925992897E+00	1.71853636214E+02	-4.54888136313E+01	-1.02687416058E+02	-5.99773099980E+00	-1.01163789071E+00
1.83120346705E+06	-1.29641464203E+01	-1.55962797651E+02	8.34832693129E+00	1.71905902054E+02	-3.90534384401E+01	-1.48322882416E+02	-6.02523641942E+00	-1.10887800871E+00
1.85339482165E+06	-8.05722299237E+00	-1.73767106662E+02	8.40339824299E+00	1.70780033320E+02	-4.00845867215E+01	2.51121802725E+01	-6.01488614847E+00	-1.12689400306E+00
1.87558617624E+06	-8.70265733129E+00	1.60427626306E+02	8.37645228801E+00	1.70796407252E+02	-3.76753917996E+01	-1.07207529965E+02	-6.00603983783E+00	-1.04140104660E+00
1.89777753084E+06	-7.49547801751E+00	-1.64112366076E+02	8.42863922877E+00	1.71293446096E+02	-5.60240638652E+01	1.01590974562E+02	-6.02402867385E+00	-8.49411730054E-01
1.91996888543E+06	-9.29734522593E+00	1.64565960823E+02	8.44998668306E+00	1.70954336827E+02	-3.82717408182E+01	-1.02929928734E+02	-6.01805683193E+00	-1.03563438863E+00
1.94216024003E+06	-7.65094601822E+00	1.71967781345E+02	8.42002952883E+00	1.71026461420E+02	-4.47216248952E+01	2.23158716811E+01	-6.02465180987E+00	-7.94838983865E-01
1.96435159462E+06	-9.46201774104E+00	-1.79213673198E+02	8.40560854716E+00	1.70767055813E+02	-3.64649517458E+01	4.77559343871E+00	-6.04822173873E+00	-8.55759616901E-01
1.98654294922E+06	-1.08641794826E+01	1.68280698503E+02	8.46041389580E+00	1.70746648968E+02	-4.14115075764E+01	5.11955446091E+01	-6.04287777083E+00	-1.25449119797E+00
2.00873430381E+06	-7.56915590660E+00	-1.77419522362E+02	8.37376248478E+00	1.70315791767E+02	-3.99601307607E+01	6.19298929089E+01	-5.98607418828E+00	-1.04391091182E+00
2.03092565841E+06	-1.27082144395E+01	1.78480431567E+02	8.38955624102E+00	1.70039659877E+02	-3.61308777713E+01	6.07919572946E+01	-6.01369066993E+00	-9.39208367188E-01
2.05311701300E+06	-1.15259675252E+01	1.76487639901E+02	8.41879582038E+00	1.69980675013E+02	-4.12436275975E+01	-6.33980489654E-01	-6.02969119568E+00	-7.91280236050E-01
2.07530836760E+06	-1.19515767107E+01	-1.54450119361E+02	8.37349692232E+00	1.70046038927E+02	-4.34631763098E+01	-3.82619232413E+00	-6.02406050319E+00	-8.06125599621E-01
2.09749972219E+06	-1.01621055316E+01	1.78029905971E+02	8.38473397046E+00	1.69969864165E+02	-5.34108981650E+01	1.71559553991E+02	-6.03282050741E+00	-1.22909881790E+00
2.11969107679E+06	-1.19565409740E+01	1.63890199648E+02	8.39414248845E+00	1.70137950305E+02	-3.57381555914E+01	-5.09168187780E+00	-6.03781453877E+00	-1.07045114124E+00
2.14188243138E+06	-9.95906725175E+00	1.73033640165E+02	8.41455911956E+00	1.68858949807E+02	-4.62641537979E+01	-1.00292156062E+02	-6.02466819216E+00	-1.05026902106E+00
2.16407378598E+06	-8.62054489660E+00	1.60310898331E+02	8.51872112319E+00	1.69421005124E+02	-3.96037984791E+01	1.19393896702E+02	-5.98685202805E+00	-6.88898802355E-01
2.18626514057E+06	-1.11195961359E+01	1.78756784496E+02	8.41791567810E+00	1.69747571893E+02	-3.35850832156E+01	-4.27286320248E+01	-5.97458303150E+00	-1.60554543066E+00
2.20845649517E+06	-1.06901350301E+01	1.54498107745E+02	8.42890278938E+00	1.69585212978E+02	-3.64906980225E+01	-6.24565610426E+01	-6.01995380789E+00	-1.18388596676E+00
2.23064784976E+06	-9.48080245403E+00	1.52389978073E+02	8.43235910268E+00	1.69359030235E+02	-3.90285229705E+01	1.48415676799E+02	-6.05401145634E+00	-1.27022719410E+00
2.25283920436E+06	-1.83076219611E+01	1.64911370127E+02	8.42135905825E+00	1.69653818762E+02	-4.71960876103E+01	-1.54225586832E+02	-6.00134719522E+00	-1.17645158148E+00
2.27503055895E+06	-9.56445144276E+00	1.56497125343E+02	8.41868617413E+00	1.68939244793E+02	-3.93134035179E+01	-2.25109573571E-01	-6.00644865305E+00	-1.13511731031E+00
2.29722191355E+06	-1.01315256268E+01	1.62416175085E+02	8.42601757625E+00	1.68708577277E+02	-3.93369523030E+01	3.34711827097E+01	-6.04203290307E+00	-1.18664119747E+00
2.31941326814E+06	-1.61086461646E+01	-1.59006982128E+02	8.37731564468E+00	1.69014177476E+02	-4.18489343204E+01	-7.46359244202E+01	-6.05235609013E+00	-8.01228125752E-01
2.34160462274E+06	-9.07913276324E+00	1.68772867122E+02	8.48469233562E+00	1.68966370661E+02	-4.04112524362E+01	1.10781368545E+02	-6.00160894909E+00	-7.27711459589E-01
2.36379597733E+06	-1.11421687719E+01	1.68806983590E+02	8.42380231534E+00	1.68773606086E+02	-4.47008322358E+01	-1.48626737029E+02	-6.01491773653E+00	-1.00539005077E+00
2.38598733193E+06	-1.21196755145E+01	1.67238671544E+02	8.39692499496E+00	1.68390357728E+02	-3.69467449049E+01	7.33272098109E+01	-6.01105268116E+00	-1.00435433095E+00
2.40817868652E+06	-1.41502383717E+01	1.62211608177E+02	8.40260772278E+00	1.68423422587E+02	-4.07694128582E+01	-1.13020756986E+02	-6.03184569340E+00	-9.65168900523E-01
2.43037004112E+06	-7.60218305962E+00	1.77907309349E+02	8.39069618963E+00	1.68223056758E+02	-4.67813452148E+01	-1.00715818246E+02	-6.06775263724E+00	-1.21218395012E+00
2.45256139571E+06	-1.68139755069E+01	-1.62697757987E+02	8.37900087170E+00	1.68155081126E+02	-3.74731185845E+01	1.27016251440E+02	-6.03164345574E+00	-1.15587955338E+00
2.47475275031E+06	-1.08822434083E+01	1.66608659928E+02	8.41360836140E+00	1.68586203697E+02	-4.16758584991E+01	4.20585168891E+01	-6.04701665502E+00	-1.29361609890E+00
2.49694410490E+06	-1.23442434754E+01	1.76941919981E+02	8.39448630474E+00	1.68311646798E+02	-5.61258301994E+01	-1.66784266770E+02	-6.04392959133E+00	-1.21778015399E+00
2.51913545950E+06	-6.49821034652E+00	1.71864375637E+02	8.42181292810E+00	1.67675323608E+02	-4.10143656343E+01	1.53922191204E+02	-6.05036684229E+00	-1.15840663731E+00
2.54132681409E+06	-1.00137982283E+01	1.79150384953E+02	8.44377944527E+00	1.67370092789E+02	-3.94019422065E+01	-6.31138877503E+01	-5.98177696768E+00	-1.04413943927E+00
2.56351816869E+06	-1.01668540524E+01	-1.73157583250E+02	8.41374867544E+00	1.67664595184E+02	-4.27621903141E+01	-1.79397024177E+02	-6.00834971280E+00	-1.03013881664E+00
2.58570952328E+06	-1.10377522540E+01	-1.62730999598E+02	8.44223950036E+00	1.67339428910E+02	-4.33713717219E+01	-1.72617443032E+02	-6.02297383412E+00	-1.28248794284E+00
2.60790087788E+06	-1.03510521334E+01	1.54359847700E+02	8.42397834567E+00	1.67534706064E+02	-4.52273703363E+01	-8.62824622006E+01	-6.00349446165E+00	-1.34698226621E+00
2.63009223247E+06	-9.88301876753E+00	-1.60520507515E+02	8.41011018622E+00	1.67127666483E+02	-4.68477897487E+01	-8.41125463669E+01	-6.03142565813E+00	-1.16633765884E+00
2.65228358707E+06	-1.39848554640E+01	1.69631766291E+02	8.47368687550E+00	1.66930931141E+02	-5.00633569551E+01	-5.25207793623E+00	-6.05153322069E+00	-1.89130291610E+00
2.67447494166E+06	-9.76171737190E+00	1.63814939424E+02	8.46091730246E+00	1.67467920220E+02	-4.74608061202E+01	5.70997775201E+01	-6.00488269741E+00	-1.18843123660E+00
2.69666629626E+06	-9.43446723367E+00	1.75797111573E+02	8.41921273624E+00	1.66577167501E+02	-3.69533575289E+01	-7.65672009498E+01	-6.02334783640E+00	-1.25366798191E+00
2.71885765085E+06	-9.25191335721E+00	-1.73440736122E+02	8.36390957936E+00	1.67179146650E+02	-3.58842240446E+01	1.04904316212E+02	-6.03522133922E+00	-1.28952528403E+00
2.74104900545E+06	-1.04426046214E+01	-1.74075522978E+02	8.45748792284E+00	1.66785400553E+02	-4.35998737776E+01	1.01564943886E+02	-5.99326986180E+00	-1.43596519602E+00
2.76324036004E+06	-1.21230842945E+01	-1.66973616402E+02	8.46778069735E+00	1.66667115399E+02	-3.72218125796E+01	-1.50073563107E+01	-6.05763187791E+00	-1.47618597085E+00
2.78543171463E+06	-9.61497656956E+00	1.64804300990E+02	8.42979590895E+00	1.66472495973E+02	-4.59838259346E+01	-1.79352458896E+02	-6.03285007798E+00	-1.17200398885E+00
2.80762306923E+06	-1.63202981783E+01	1.33393551859E+02	8.39057285504E+00	1.66380410568E+02	-4.09094858064E+01	-1.21571302645E+02	-6.00945823908E+00	-1.07128579573E+00
2.82981442382E+06	-9.34277866381E+00	1.74200979331E+02	8.43991269875E+00	1.66670755986E+02	-3.96138596356E+01	-9.32651735591E+01	-6.01439404386E+00	-1.59088362212E+00
2.85200577842E+06	-8.15508829381E+00	1.71488260249E+02	8.42060400869E+00	1.66321132045E+02	-5.53285927302E+01	-1.06817791948E+02	-6.03843287310E+00	-1.19134046418E+00
2.87419713301E+06	-8.16467381152E+00	1.68481627074E+02	8.45210556212E+00	1.66103087798E+02	-4.00642513849E+01	7.62504535114E+01	-6.00539635299E+00	-1.30060459896E+00
