# Hz S DB R 50
! CMT, M5065, 19127446, 24.2.4/2
! Date: 10/29/2024 1:03:48 PM
! Data: Format (Calibration Info)
! Freq	S11:dB/Ang(F2)	S21:dB/Ang(F2)	S12:dB/Ang(F2)	S22:dB/Ang(F2)
3.00000000000E+05	-8.12072338029E+00	1.67580429238E+02	5.33821975691E+00	-1.77488483628E+02	-4.22960078683E+01	1.45015038956E+02	-6.04174163385E+00	2.59432930580E-02
3.22191354595E+05	-9.46170942652E+00	-1.75038719241E+02	5.26169185543E+00	-1.78109513982E+02	-5.00005323204E+01	1.00550016407E+02	-6.03153134317E+00	-2.24786149308E-01
3.44382709190E+05	-1.18055278817E+01	-1.72114840453E+02	5.22625756489E+00	-1.78376365958E+02	-3.57386101896E+01	1.41294445953E+02	-6.03625367288E+00	-1.54167378758E-01
3.66574063785E+05	-9.55986423205E+00	-1.42356086428E+02	5.32724468910E+00	-1.78364834711E+02	-3.65749002384E+01	1.08928106934E+01	-5.99219865141E+00	-9.61885582133E-02
3.88765418380E+05	-1.12386727197E+01	1.58571730839E+02	5.38580595555E+00	-1.79001925917E+02	-3.86942420595E+01	-6.05719294147E+01	-6.01512234960E+00	-2.46010653058E-01
4.10956772975E+05	-7.16388837171E+00	-1.70183548169E+02	5.38115890626E+00	-1.79062605568E+02	-4.09390996058E+01	4.85974212901E+01	-6.05445279133E+00	-1.82100333561E-01
4.33148127570E+05	-1.14992839002E+01	-1.70436337462E+02	5.32860057285E+00	1.79931863568E+02	-4.00020991599E+01	3.05483202684E+01	-6.05366311180E+00	-2.81100787204E-01
4.55339482165E+05	-1.09733758691E+01	1.50701071846E+02	5.33559768811E+00	1.79483866343E+02	-4.56966554073E+01	1.57460126301E+02	-6.06160808614E+00	-2.63909862948E-01
4.77530836760E+05	-7.47004175492E+00	1.78553676846E+02	5.31813402714E+00	-1.79861825853E+02	-4.44013590561E+01	1.36303604296E+02	-6.00049649051E+00	-4.19705831241E-01
4.99722191355E+05	-1.11847547811E+01	-1.69958120141E+02	5.32396359017E+00	1.79602969806E+02	-3.44305505140E+01	7.61973699631E+01	-6.01890096477E+00	-5.83478821722E-01
5.21913545950E+05	-8.08599651884E+00	-1.69683976360E+02	5.29233505947E+00	1.79759034329E+02	-3.80572786801E+01	-1.46983020739E+02	-6.01547812784E+00	-3.10269549543E-01
5.44104900545E+05	-9.81046845113E+00	-1.68591719155E+02	5.31152233649E+00	1.79342430556E+02	-3.88635203363E+01	-6.34745732852E+01	-6.02943244966E+00	-4.51193906389E-01
5.66296255139E+05	-9.92338715188E+00	1.70414192340E+02	5.34522181897E+00	1.79592620949E+02	-4.75195347941E+01	-4.03834666101E+01	-5.98248659655E+00	-6.07624469910E-01
5.88487609734E+05	-7.87411181295E+00	-1.71046883271E+02	5.35158274372E+00	1.78977536202E+02	-6.55921852447E+01	7.68043121353E+01	-6.01445308051E+00	-5.67179323167E-01
6.10678964329E+05	-1.15934652133E+01	-1.54254352699E+02	5.29790467331E+00	1.79361969807E+02	-4.17627395733E+01	-6.21596390917E+01	-6.02347736269E+00	-6.45351953687E-02
6.32870318924E+05	-1.11708507071E+01	1.65763188881E+02	5.33235561385E+00	1.79028947876E+02	-4.91039633902E+01	1.13325650169E+02	-6.06483755096E+00	-5.80053907320E-01
6.55061673519E+05	-7.67233436148E+00	1.57969645333E+02	5.40756377304E+00	1.78784097108E+02	-4.10360169568E+01	-8.31589332561E+01	-6.04883634648E+00	5.54712825734E-02
6.77253028114E+05	-1.55989773050E+01	-1.57879619301E+02	5.32436334749E+00	1.78848324342E+02	-3.58122357931E+01	-1.29452129066E+02	-6.01439062895E+00	-6.32732722403E-01
6.99444382709E+05	-1.46538295215E+01	1.73157818158E+02	5.45588518776E+00	1.78326587600E+02	-3.44373009355E+01	3.34935951925E+01	-6.02301950318E+00	-5.33244880017E-01
7.21635737304E+05	-7.01214812515E+00	1.71182317194E+02	5.37617485578E+00	1.78216041042E+02	-3.97349392665E+01	-9.35288650995E+01	-6.03879008417E+00	-4.39096958554E-01
7.43827091899E+05	-1.14517498777E+01	-1.55490962206E+02	5.30278766122E+00	1.78076718862E+02	-5.03175718432E+01	6.26823548586E+00	-6.01480741543E+00	-4.23798411100E-01
7.66018446494E+05	-1.03569334450E+01	1.50397623797E+02	5.31649401727E+00	1.78222905142E+02	-3.27739502048E+01	2.61817581063E+01	-6.05344282879E+00	-4.22225804733E-01
7.88209801089E+05	-1.09092595147E+01	1.67663037910E+02	5.27271725873E+00	1.77356343222E+02	-4.01163952654E+01	-4.26656373690E+01	-6.02028359170E+00	-3.67652974408E-01
8.10401155684E+05	-8.70574751256E+00	-1.60502916653E+02	5.31399701033E+00	1.77710345863E+02	-4.84914843322E+01	1.53779289834E+02	-6.01425865114E+00	-4.02290186587E-01
8.32592510279E+05	-1.18371304191E+01	-1.71884191457E+02	5.42228393694E+00	1.77705404169E+02	-4.00400341708E+01	-8.46960098736E+01	-5.96314686352E+00	-6.47216093168E-01
8.54783864874E+05	-1.31858939739E+01	1.77529252930E+02	5.38273693056E+00	1.77133300548E+02	-4.29634111560E+01	9.45871301827E+01	-6.03412969632E+00	-6.73919189340E-01
8.76975219469E+05	-1.21310517797E+01	1.72985195639E+02	5.31502569501E+00	1.77632877958E+02	-3.80575398290E+01	-8.70881050057E+01	-5.98500913524E+00	-6.14233415558E-01
8.99166574064E+05	-1.31609046583E+01	1.76190284416E+02	5.31881270847E+00	1.77531443232E+02	-3.91319074047E+01	5.40353900102E+01	-5.99845275110E+00	-4.36841286178E-01
9.21357928659E+05	-1.25262247495E+01	1.79393481898E+02	5.29578112189E+00	1.77333241249E+02	-3.76145378654E+01	-3.90690452189E+01	-5.97572865954E+00	-5.34932484393E-01
9.43549283254E+05	-1.15086206804E+01	1.62367634850E+02	5.35063897304E+00	1.76636785117E+02	-3.71706888403E+01	7.85882396094E+01	-6.03836989778E+00	-7.54796709256E-01
9.65740637849E+05	-8.76115147661E+00	1.62789432963E+02	5.38300697820E+00	1.76922046057E+02	-3.42158681352E+01	9.32042754176E+01	-6.01228309231E+00	-7.16676059303E-01
9.87931992444E+05	-1.49920619769E+01	1.78236309548E+02	5.28688323673E+00	1.76856444302E+02	-4.00398872409E+01	1.21385129897E+01	-6.05359513994E+00	-4.44446050757E-01
1.01012334704E+06	-8.89919098313E+00	-1.75337000355E+02	5.28598032762E+00	1.76934825968E+02	-4.24557363913E+01	-1.15464573834E+02	-5.98938796236E+00	-7.54926691437E-01
1.03231470163E+06	-9.93130540351E+00	-1.53006132220E+02	5.35509562833E+00	1.76615293025E+02	-3.70524485238E+01	2.53830215258E+01	-5.99603786724E+00	-6.02298320340E-01
1.05450605623E+06	-7.67470713438E+00	-1.71687454538E+02	5.35125352991E+00	1.76383630272E+02	-4.31055263506E+01	-4.40151597851E+01	-5.99809655603E+00	-4.97979087318E-01
1.07669741082E+06	-9.63806962480E+00	-1.70541653878E+02	5.34449292793E+00	1.76024862171E+02	-3.59292016271E+01	-1.01208917891E+02	-5.98316060544E+00	-8.11696845999E-01
1.09888876542E+06	-1.04073262168E+01	1.77438096453E+02	5.36775593926E+00	1.75975110546E+02	-4.79273276760E+01	-1.36250987952E+02	-6.03993009774E+00	-2.67544610981E-01
1.12108012001E+06	-8.27458574082E+00	-1.64947577896E+02	5.41515033697E+00	1.76506528817E+02	-4.57109773996E+01	-6.90306468484E+01	-5.99639291696E+00	-2.69505185509E-01
1.14327147461E+06	-7.40215718783E+00	-1.76126353339E+02	5.31181232653E+00	1.75175214674E+02	-3.96927899030E+01	-1.06922732680E+02	-6.01052973694E+00	-6.90733039308E-01
1.16546282920E+06	-1.26321614005E+01	1.78143020996E+02	5.32101296874E+00	1.75579975483E+02	-4.51340854274E+01	-6.54421885522E+01	-6.03999622614E+00	-6.22007341591E-01
1.18765418380E+06	-1.04051265242E+01	-1.77872735814E+02	5.32504328429E+00	1.75411315169E+02	-3.83170336642E+01	1.67175932872E+02	-6.02923451100E+00	-8.18715832820E-01
1.20984553839E+06	-9.72901609127E+00	-1.78098211880E+02	5.35678564916E+00	1.75902776652E+02	-3.58991895520E+01	5.04097591901E+01	-6.03584519890E+00	-8.53733282121E-01
1.23203689299E+06	-7.95383018277E+00	1.77574006555E+02	5.32310351224E+00	1.75602215164E+02	-4.22568667897E+01	1.21722587580E+02	-6.03757984802E+00	-3.53862447066E-01
1.25422824758E+06	-6.66124599559E+00	-1.76992022143E+02	5.32132807534E+00	1.75594223178E+02	-3.72228681803E+01	9.78735467566E+01	-6.01372595579E+00	-5.01870109741E-01
1.27641960218E+06	-1.25910506398E+01	-1.73515051418E+02	5.40996292392E+00	1.75265661330E+02	-4.38282837237E+01	6.52800392964E+01	-5.99575547307E+00	-6.41378313530E-01
1.29861095677E+06	-1.01377397540E+01	-1.78919629570E+02	5.27970684371E+00	1.74820531915E+02	-4.07141547878E+01	-7.69569964547E+01	-6.01580485967E+00	-7.88614379733E-01
1.32080231137E+06	-9.68784871023E+00	-1.76107949425E+02	5.31267819850E+00	1.74854034267E+02	-3.98700691682E+01	1.05564811857E+02	-6.00004972867E+00	-9.51941088604E-01
1.34299366596E+06	-7.11294943599E+00	1.76782248520E+02	5.26492214055E+00	1.75149701155E+02	-4.37134029366E+01	-1.73204034833E+02	-6.00296131312E+00	-9.33362252925E-01
1.36518502056E+06	-1.55671038169E+01	-1.50962127668E+02	5.37112885707E+00	1.75330777779E+02	-3.72066005008E+01	8.74395650586E+01	-6.01422782513E+00	-8.29684137963E-01
1.38737637515E+06	-1.20231651989E+01	-1.69822731367E+02	5.36436270833E+00	1.75332420748E+02	-3.97083767287E+01	8.72953087567E+01	-6.01881380742E+00	-8.20281956286E-01
1.40956772975E+06	-8.90684319486E+00	1.66420537688E+02	5.34458897289E+00	1.74416282979E+02	-3.53557187379E+01	2.66593168417E+01	-5.98982414967E+00	-8.04217301549E-01
1.43175908434E+06	-1.00813925440E+01	1.70935702263E+02	5.38263010359E+00	1.74491281572E+02	-4.72690863466E+01	-1.20284633469E+01	-6.06361787742E+00	-8.53643016030E-01
1.45395043894E+06	-7.74224672772E+00	1.62613196673E+02	5.32496388293E+00	1.74693288174E+02	-5.04138995972E+01	1.47036972774E+02	-6.04710163720E+00	-9.31760519565E-01
1.47614179353E+06	-1.07395565233E+01	-1.73716400243E+02	5.42034777487E+00	1.74400034676E+02	-4.41338045986E+01	1.44123733971E+02	-5.98821987426E+00	-8.05127313462E-01
1.49833314813E+06	-8.59569005740E+00	1.62320095442E+02	5.31496789174E+00	1.74008792606E+02	-4.57971462157E+01	1.32663954708E+02	-6.04079134005E+00	-7.18436371505E-01
1.52052450272E+06	-1.17093268037E+01	1.65019643366E+02	5.36815964511E+00	1.73389458636E+02	-3.85040183416E+01	-4.93806116569E+01	-6.02122078674E+00	-1.01576675391E+00
1.54271585732E+06	-1.22362322830E+01	1.76504779265E+02	5.32289070626E+00	1.74215976684E+02	-4.55560930165E+01	-1.11963311522E+02	-6.03396427457E+00	-6.28025496676E-01
1.56490721191E+06	-1.42936628545E+01	1.62946507466E+02	5.34960053872E+00	1.73643373221E+02	-3.75794591223E+01	-1.28709479220E+02	-5.99903984364E+00	-8.26385248895E-01
1.58709856651E+06	-8.55324635108E+00	1.67875761557E+02	5.32779114345E+00	1.73663610315E+02	-4.15523925155E+01	-9.75097961184E+01	-6.06199671756E+00	-7.05503967752E-01
1.60928992110E+06	-9.04110424946E+00	-1.77389577256E+02	5.29238775995E+00	1.73623058897E+02	-3.52815484713E+01	7.95808840850E+01	-6.02686820937E+00	-9.58432613011E-01
1.63148127570E+06	-5.11550761120E+00	1.74302723111E+02	5.38767721741E+00	1.73477814226E+02	-3.90377109339E+01	1.48134606765E+02	-6.02838028040E+00	-8.74609784657E-01
1.65367263029E+06	-1.24359887811E+01	1.72785403754E+02	5.35178102314E+00	1.73545161076E+02	-3.68096874484E+01	1.27693814186E+02	-6.04005756515E+00	-8.28810927808E-01
1.67586398489E+06	-1.04105941907E+01	1.73915747400E+02	5.37694800770E+00	1.72883352860E+02	-3.68282932852E+01	-8.39263273441E+01	-6.02844905962E+00	-8.02836457688E-01
1.69805533948E+06	-1.22812458846E+01	1.52966814807E+02	5.33757067164E+00	1.73949769748E+02	-4.15999949849E+01	1.61704731883E+02	-5.99728800579E+00	-3.22210275978E-01
1.72024669408E+06	-1.71994139193E+01	-1.66259416737E+02	5.34651143711E+00	1.73253999056E+02	-3.74350953132E+01	-2.45926391400E+01	-6.02117266242E+00	-6.31923903044E-01
1.74243804867E+06	-1.13018245547E+01	-1.75292373738E+02	5.36907562968E+00	1.72663175663E+02	-4.67908591001E+01	-1.21641646453E+01	-5.99116574373E+00	-9.92775349741E-01
1.76462940327E+06	-1.19828632102E+01	-1.67239516351E+02	5.33103250383E+00	1.73240146653E+02	-4.40388095867E+01	-4.07589418798E+01	-5.99722729302E+00	-1.07467578441E+00
1.78682075786E+06	-1.25481330481E+01	1.78110707143E+02	5.32175043835E+00	1.71920653268E+02	-3.55277392248E+01	8.23103399483E+01	-6.00320513891E+00	-6.63350847805E-01
1.80901211246E+06	-9.44302408938E+00	-1.73349914969E+02	5.29116130882E+00	1.72579030432E+02	-3.95743137270E+01	-8.65357813689E+01	-6.00062695781E+00	-9.27560010660E-01
1.83120346705E+06	-1.05217020192E+01	1.75939810914E+02	5.31208589421E+00	1.72554888751E+02	-4.04591379641E+01	-1.51295221504E+02	-6.00609313416E+00	-8.73589831407E-01
1.85339482165E+06	-1.01617891412E+01	1.77253045382E+02	5.33808908525E+00	1.72289469988E+02	-3.67848977119E+01	5.44147827317E+01	-6.00782126031E+00	-1.03862196525E+00
1.87558617624E+06	-8.36852624812E+00	1.75673259998E+02	5.33085155224E+00	1.72515653414E+02	-3.82453578038E+01	-5.39948045376E+01	-6.02782468299E+00	-8.22387871415E-01
1.89777753084E+06	-1.15613898320E+01	-1.73335324711E+02	5.34663280592E+00	1.71813057894E+02	-3.88695773407E+01	1.09869229267E+02	-5.99613765249E+00	-6.90792505187E-01
1.91996888543E+06	-1.25703479239E+01	-1.72242673360E+02	5.30515612696E+00	1.72226136746E+02	-3.97179985581E+01	-1.77104536905E+02	-5.99799879167E+00	-1.02510943269E+00
1.94216024003E+06	-9.83255584281E+00	-1.79681282787E+02	5.29923271601E+00	1.72586881146E+02	-4.40908913986E+01	4.75544565060E+01	-5.99022683551E+00	-1.11569197507E+00
1.96435159462E+06	-8.56816976541E+00	1.68219371901E+02	5.32460739444E+00	1.71529440264E+02	-4.60619160806E+01	-1.17634001413E+02	-6.01100200726E+00	-6.94110033650E-01
1.98654294922E+06	-1.23283996910E+01	1.34273482340E+02	5.24546105695E+00	1.71785658792E+02	-4.52808657114E+01	-1.48386735126E+02	-6.00441121572E+00	-1.12947777503E+00
2.00873430381E+06	-1.12415449967E+01	1.61653761725E+02	5.22854115851E+00	1.71099428393E+02	-4.01828101917E+01	-1.26093717444E+02	-5.99675234574E+00	-9.09844850404E-01
2.03092565841E+06	-1.15603761812E+01	-1.69905165211E+02	5.30212647051E+00	1.71748970509E+02	-5.02619810965E+01	2.09791256914E+01	-5.97654627869E+00	-1.13318570294E+00
2.05311701300E+06	-1.12530554092E+01	-1.74627979078E+02	5.31350888899E+00	1.71730494318E+02	-4.08195354047E+01	-2.52640211320E+00	-5.99616560694E+00	-1.19955265364E+00
2.07530836760E+06	-1.00584638988E+01	1.71902932500E+02	5.41308036302E+00	1.71190810400E+02	-3.79570737431E+01	-1.72222913549E+02	-5.98236781532E+00	-9.74195964971E-01
2.09749972219E+06	-1.11301757189E+01	1.58642471723E+02	5.32102300802E+00	1.71093460451E+02	-4.22468845269E+01	-7.04666065098E+01	-6.04320977094E+00	-9.27567936982E-01
2.11969107679E+06	-9.57410845940E+00	1.67445975394E+02	5.32539389739E+00	1.71399802255E+02	-4.20336038898E+01	7.18139668638E+01	-5.98821363701E+00	-1.33995740833E+00
2.14188243138E+06	-8.78075051424E+00	1.70951378823E+02	5.33335432891E+00	1.70681736358E+02	-4.48753439493E+01	-1.38321401794E+01	-6.02334879525E+00	-1.20190138210E+00
2.16407378598E+06	-9.53704827363E+00	-1.41889849265E+02	5.24839084644E+00	1.71673056517E+02	-4.53262389306E+01	-1.01860396145E+02	-5.99434778340E+00	-1.04385505083E+00
2.18626514057E+06	-1.21038187576E+01	-1.54874609313E+02	5.29085247003E+00	1.71346831783E+02	-5.09723114541E+01	4.37915329617E+01	-6.00348182469E+00	-1.04959495535E+00
2.20845649517E+06	-9.88586610654E+00	-1.76981109881E+02	5.32193602149E+00	1.70901498251E+02	-4.89989689560E+01	1.57001824912E+02	-5.99815875402E+00	-1.13437452349E+00
2.23064784976E+06	-9.87612438960E+00	-1.69686715463E+02	5.37717124544E+00	1.71217463172E+02	-3.60075508524E+01	-7.95895172238E+01	-5.99583641658E+00	-1.02700092544E+00
2.25283920436E+06	-8.13771674148E+00	-1.59032132574E+02	5.39425066351E+00	1.70333456508E+02	-3.50473259306E+01	-2.35699681614E+01	-6.00364057963E+00	-8.49214736841E-01
2.27503055895E+06	-1.00407160636E+01	-1.71327446330E+02	5.28856391786E+00	1.70159362047E+02	-5.07950989973E+01	1.41664920099E+02	-6.05051337816E+00	-1.11949130714E+00
2.29722191355E+06	-8.99911680105E+00	-1.67731023402E+02	5.35681002314E+00	1.70039710142E+02	-3.67269193241E+01	-1.19448337078E+02	-6.00631172108E+00	-1.03769411311E+00
2.31941326814E+06	-8.42668511744E+00	-1.79869208609E+02	5.31047321057E+00	1.70583257575E+02	-3.76114414526E+01	-8.79918763364E+01	-6.07701347249E+00	-1.16663418494E+00
2.34160462274E+06	-1.03670253476E+01	1.61533893159E+02	5.32935395658E+00	1.69951189021E+02	-3.92106235800E+01	-7.03152941380E+01	-5.98982208086E+00	-1.00712648844E+00
2.36379597733E+06	-1.27965617973E+01	1.70284637332E+02	5.32559278080E+00	1.69771916864E+02	-3.68887666125E+01	1.92915048409E+01	-6.03163538842E+00	-1.24892234682E+00
2.38598733193E+06	-7.32344284029E+00	1.76755668042E+02	5.33576418005E+00	1.70425632564E+02	-4.17535942577E+01	1.78021879834E+02	-6.02045974881E+00	-1.11075250888E+00
2.40817868652E+06	-8.71486658920E+00	-1.74199633897E+02	5.36963564344E+00	1.69834799658E+02	-3.54474544199E+01	1.08451612549E+02	-6.01298873493E+00	-1.35279551556E+00
2.43037004112E+06	-9.59983300453E+00	-1.69530708001E+02	5.36551538894E+00	1.69105087094E+02	-4.20045090142E+01	-1.51817894980E+02	-6.00284551220E+00	-1.21839741400E+00
2.45256139571E+06	-1.32655828827E+01	1.47456819112E+02	5.31285614447E+00	1.69606323411E+02	-3.95441498092E+01	1.35889334110E+02	-6.02225583069E+00	-8.39462550540E-01
2.47475275031E+06	-1.23867558622E+01	1.77147791755E+02	5.32572752484E+00	1.69874761153E+02	-3.61951411258E+01	6.26908341983E+01	-6.03295929784E+00	-1.11965482831E+00
2.49694410490E+06	-8.39092557635E+00	-1.74944793791E+02	5.41131088357E+00	1.69239388488E+02	-4.51668403603E+01	1.21710593764E+02	-6.05809457135E+00	-1.15040869290E+00
2.51913545950E+06	-1.07173772513E+01	-1.72345745095E+02	5.35817250515E+00	1.68805253330E+02	-3.46935953742E+01	4.12323020302E+01	-6.02181115618E+00	-1.26987345145E+00
2.54132681409E+06	-1.06965960444E+01	-1.64499944249E+02	5.38479866795E+00	1.69606520940E+02	-3.64364471079E+01	7.96714121431E+01	-6.00380564310E+00	-1.06800276979E+00
2.56351816869E+06	-8.31841471950E+00	1.73916315559E+02	5.33658317313E+00	1.69054965744E+02	-4.79448570470E+01	-5.15725121181E+01	-6.05557567315E+00	-1.27100174503E+00
2.58570952328E+06	-1.23638050965E+01	1.78958047942E+02	5.31172896644E+00	1.69007027393E+02	-4.03076997175E+01	-1.77172774145E+02	-6.01131063283E+00	-1.26680318856E+00
2.60790087788E+06	-8.88534808824E+00	1.78739371357E+02	5.25435608207E+00	1.69162043282E+02	-3.59393888046E+01	-8.31743564479E+01	-6.03683673133E+00	-1.27968634939E+00
2.63009223247E+06	-1.24481282373E+01	1.77316620533E+02	5.31154349195E+00	1.68609692060E+02	-4.78755804065E+01	1.10192243433E+02	-6.02507985767E+00	-1.26136148744E+00
2.65228358707E+06	-1.14329006498E+01	1.75921623415E+02	5.30201664385E+00	1.68712843566E+02	-7.22570191347E+01	-3.95929995693E+01	-5.99726772216E+00	-1.49514282526E+00
2.67447494166E+06	-1.52974103601E+01	-1.59007444696E+02	5.38275308767E+00	1.68912916775E+02	-4.00985256436E+01	-5.73135156220E+01	-5.98921034460E+00	-1.62286150711E+00
2.69666629626E+06	-1.05198436554E+01	1.70659752797E+02	5.27344365553E+00	1.68636407834E+02	-4.76490698809E+01	1.73834941383E+02	-6.04121072601E+00	-1.27794115711E+00
2.71885765085E+06	-8.25565713563E+00	1.73961405940E+02	5.30134280316E+00	1.68767005737E+02	-4.76476215199E+01	-4.86212661048E+01	-6.03405391539E+00	-9.33177807270E-01
2.74104900545E+06	-8.11656701089E+00	-1.76778476239E+02	5.38808011292E+00	1.68492804328E+02	-3.67220313350E+01	-4.40444220840E+01	-6.01735345722E+00	-1.19718940566E+00
2.76324036004E+06	-1.25763671930E+01	1.76383696353E+02	5.30152625790E+00	1.68850213184E+02	-3.67939982301E+01	-4.73865646886E+01	-6.04236794662E+00	-1.25227507225E+00
2.78543171463E+06	-1.23473660652E+01	1.66323412470E+02	5.30627354153E+00	1.68268551885E+02	-3.58135839751E+01	-8.97027361947E+01	-6.02417134260E+00	-1.34957853163E+00
2.80762306923E+06	-1.02492738105E+01	1.59597966441E+02	5.29486048682E+00	1.68495913877E+02	-4.02224528139E+01	-1.67056973976E+02	-6.04146460739E+00	-1.52701097793E+00
2.82981442382E+06	-8.53341648816E+00	1.73839888068E+02	5.33151580788E+00	1.68172668210E+02	-4.44231353654E+01	-2.51308990952E+01	-6.04226123961E+00	-1.08683146628E+00
2.85200577842E+06	-1.07617567473E+01	-1.77599726930E+02	5.40561436863E+00	1.67960986501E+02	-5.08026903937E+01	-1.48803772887E+02	-5.99838849013E+00	-1.45609513770E+00
2.87419713301E+06	-1.23685671738E+01	1.70115366097E+02	5.26824563944E+00	1.67328755222E+02	-4.37460946370E+01	3.91186730206E+01	-6.01275052439E+00	-1.40252086516E+00
