# Hz S DB R 50
! CMT, M5065, 19127446, 24.2.4/2
! Date: 10/29/2024 1:01:03 PM
! Data: Format (Calibration Info)
! Freq	S11:dB/Ang(F2)	S21:dB/Ang(F2)	S12:dB/Ang(F2)	S22:dB/Ang(F2)
3.00000000000E+05	-1.09123057525E+01	-1.73018935749E+02	4.74802293055E+00	-1.78137428647E+02	-3.91751204514E+01	6.57497773277E+01	-6.01154818739E+00	-4.54720723470E-01
3.22191354595E+05	-1.15703120872E+01	-1.66819723934E+02	4.71083929176E+00	-1.78059596072E+02	-5.00619304529E+01	1.34470678369E+02	-6.00945782054E+00	-2.13228547402E-01
3.44382709190E+05	-8.97204868033E+00	1.58535440115E+02	4.74499193264E+00	-1.78805621914E+02	-3.98734114930E+01	-9.46886537467E+00	-6.01813907072E+00	-1.33436230957E-01
3.66574063785E+05	-8.62086480985E+00	1.73667979072E+02	4.76327323657E+00	-1.79091484026E+02	-4.94239884895E+01	1.74411107198E+02	-6.07071691158E+00	-2.45683340631E-01
3.88765418380E+05	-7.46989932075E+00	1.71449626640E+02	4.76016808071E+00	-1.78355832442E+02	-4.39706369537E+01	1.36893724113E+01	-6.03949510287E+00	-2.60872249455E-01
4.10956772975E+05	-8.19444987863E+00	1.79156847529E+02	4.79640555272E+00	-1.78889871426E+02	-4.26813349613E+01	7.24138400359E+01	-6.04815553929E+00	-3.86095559360E-01
4.33148127570E+05	-1.30663150856E+01	-1.65158801568E+02	4.63943669364E+00	-1.79731292958E+02	-3.73475903383E+01	-2.05212588364E+01	-6.02023820545E+00	-2.14869132357E-01
4.55339482165E+05	-9.14067441781E+00	1.79695712248E+02	4.81442942988E+00	-1.79458058225E+02	-4.54660228079E+01	-7.10242521902E+01	-6.02244079952E+00	-5.29044502156E-01
4.77530836760E+05	-6.06277587450E+00	-1.71798118051E+02	4.73199690961E+00	1.79730578026E+02	-4.34365807496E+01	-5.24115404672E+01	-5.98566582920E+00	-2.17012273895E-01
4.99722191355E+05	-8.69821975992E+00	-1.71624404940E+02	4.74438849129E+00	1.79895818457E+02	-5.00587224721E+01	1.35517474379E+02	-6.04946394512E+00	-4.99346551169E-01
5.21913545950E+05	-1.47810244482E+01	1.57916404662E+02	4.78825941481E+00	1.79556419296E+02	-4.59523660600E+01	9.60018674752E+01	-6.01020061387E+00	-2.28315193942E-01
5.44104900545E+05	-1.17265132583E+01	1.71395887644E+02	4.76791130578E+00	1.79705093821E+02	-4.56995117020E+01	-1.01831182463E+02	-6.04888490411E+00	-5.55990247946E-01
5.66296255139E+05	-7.42861836183E+00	-1.69854796693E+02	4.70076966598E+00	1.78946972898E+02	-4.37863032078E+01	-1.47776479332E+02	-6.00214744577E+00	-2.74892415996E-01
5.88487609734E+05	-8.88028173295E+00	-1.67994452686E+02	4.74967577473E+00	1.79428215408E+02	-3.88014495043E+01	1.54479330347E+02	-5.99818389311E+00	-4.37053086389E-01
6.10678964329E+05	-1.15738404330E+01	1.74337988359E+02	4.77017595784E+00	1.79120774404E+02	-3.92297063831E+01	-1.53348237826E+01	-6.01661232676E+00	-2.39028353036E-01
6.32870318924E+05	-7.64330511103E+00	1.67723138420E+02	4.76687589929E+00	1.78832476908E+02	-5.54922542941E+01	1.00750042098E+02	-6.03587700871E+00	-4.63604938261E-01
6.55061673519E+05	-1.01378629076E+01	-1.57775746093E+02	4.79645879027E+00	1.78820790552E+02	-4.30697652824E+01	-8.18360022648E+01	-6.02246381998E+00	-3.42896920765E-01
6.77253028114E+05	-1.18692971697E+01	-1.72194259168E+02	4.76767689292E+00	1.78622439791E+02	-4.01176936753E+01	4.43067769213E+01	-6.02627961407E+00	-5.87324453288E-01
6.99444382709E+05	-8.88928944557E+00	-1.48947071470E+02	4.71823844386E+00	1.78198463045E+02	-3.72870851174E+01	1.66635463490E+02	-6.02682202583E+00	-4.40920250455E-01
7.21635737304E+05	-1.13778303592E+01	-1.66033980752E+02	4.78189748834E+00	1.78635443640E+02	-3.93557991516E+01	-1.57579243813E+02	-6.03031954415E+00	-6.46537646242E-01
7.43827091899E+05	-9.45930927009E+00	-1.79362048854E+02	4.74189419146E+00	1.78092967678E+02	-3.20943440361E+01	3.31478184651E+01	-5.98216660270E+00	-6.55315366659E-01
7.66018446494E+05	-1.24144355071E+01	-1.79681488364E+02	4.79809218615E+00	1.78240559346E+02	-4.55477207386E+01	-1.67373945343E+02	-6.04116984278E+00	-5.89361509397E-01
7.88209801089E+05	-9.39369684925E+00	1.66640253220E+02	4.79344637609E+00	1.77753355748E+02	-3.88467543162E+01	-4.73133850082E+01	-6.04222030409E+00	-1.63250731075E-01
8.10401155684E+05	-8.52758831667E+00	1.64665149407E+02	4.72046584551E+00	1.77773531269E+02	-3.84748083885E+01	3.20896493832E+01	-5.99152700863E+00	-3.94259612324E-01
8.32592510279E+05	-9.84410469545E+00	-1.55569979968E+02	4.88291197181E+00	1.77639254666E+02	-4.29415942992E+01	-9.79673840787E+01	-6.00664923338E+00	-5.34562890927E-01
8.54783864874E+05	-9.93904759227E+00	-1.79814193909E+02	4.85164843540E+00	1.77661102989E+02	-6.17952042694E+01	1.94458632727E+01	-6.06203863654E+00	-5.30991260897E-01
8.76975219469E+05	-1.10660695511E+01	-1.53161731605E+02	4.85022041134E+00	1.77506978783E+02	-4.67729868317E+01	-1.69550082497E+01	-6.02017141887E+00	-6.65929072254E-01
8.99166574064E+05	-9.80214104934E+00	1.64413778493E+02	4.75394859901E+00	1.77160347803E+02	-3.90053156427E+01	4.58704853798E+01	-6.02655483440E+00	-7.25261741295E-01
9.21357928659E+05	-1.11550753348E+01	1.75715122691E+02	4.72681452615E+00	1.76832140832E+02	-4.54116107469E+01	1.71011491488E+02	-6.03207799129E+00	-4.21048292372E-01
9.43549283254E+05	-9.02972843672E+00	-1.50874671096E+02	4.80195005512E+00	1.77327941003E+02	-4.39783055919E+01	-1.29475443803E+02	-6.01379021343E+00	-5.31962577442E-01
9.65740637849E+05	-9.39714684779E+00	-1.76659369713E+02	4.73514805666E+00	1.77262778768E+02	-4.34003162081E+01	3.21446540276E+01	-5.98922045231E+00	-7.33939249198E-01
9.87931992444E+05	-8.55358804564E+00	-1.69259572616E+02	4.75133660051E+00	1.76965514690E+02	-5.47986478836E+01	7.20606912470E+01	-6.01777649678E+00	-4.28805364538E-01
1.01012334704E+06	-1.32925137053E+01	1.52832381109E+02	4.71194041365E+00	1.76316994230E+02	-4.66581999948E+01	-9.29102428721E+01	-6.02769145957E+00	-7.01740983521E-01
1.03231470163E+06	-1.08216089807E+01	1.76042700486E+02	4.76326480940E+00	1.76482948091E+02	-3.45297809561E+01	9.41290224727E+01	-6.01479822134E+00	-7.13675070034E-01
1.05450605623E+06	-1.06853443076E+01	-1.70361321275E+02	4.82537262775E+00	1.76180651510E+02	-4.17747452929E+01	-1.78222130223E+01	-6.00392126632E+00	-4.49219495967E-01
1.07669741082E+06	-1.34449123684E+01	-1.61279786357E+02	4.77095849395E+00	1.76354420841E+02	-3.70185772171E+01	5.78082656561E+01	-6.04593466012E+00	-6.21378615563E-01
1.09888876542E+06	-6.59094907869E+00	-1.76454209596E+02	4.69761669737E+00	1.76418974046E+02	-5.01870121323E+01	1.47432310355E+02	-6.01030483947E+00	-7.91279273563E-01
1.12108012001E+06	-1.96926920577E+01	1.62267005857E+02	4.73627401741E+00	1.76092471875E+02	-3.86879683540E+01	-2.55984086694E+01	-6.01984874598E+00	-5.00126682559E-01
1.14327147461E+06	-8.27192668137E+00	1.64762824430E+02	4.72212589220E+00	1.76144665643E+02	-4.48885392186E+01	-1.71005656887E+02	-6.02883235573E+00	-3.50938517670E-01
1.16546282920E+06	-1.09329735702E+01	1.62850929997E+02	4.72043416353E+00	1.75407243222E+02	-4.11560444668E+01	1.44852195414E+02	-5.98744818570E+00	-7.20734525643E-01
1.18765418380E+06	-6.91675431842E+00	-1.73379037097E+02	4.79101227178E+00	1.75828222447E+02	-4.73286417631E+01	-7.70643552781E+01	-6.00995774614E+00	-3.86549838653E-01
1.20984553839E+06	-9.42159256522E+00	1.78352417426E+02	4.76952914946E+00	1.75573910929E+02	-4.49155010200E+01	-2.54413206938E+01	-6.04372760526E+00	-1.17618029898E+00
1.23203689299E+06	-9.01135638859E+00	1.67205163891E+02	4.76459268729E+00	1.75643087966E+02	-4.49957803114E+01	-4.32000191561E+01	-6.02318649751E+00	-4.73723385598E-01
1.25422824758E+06	-1.12141538206E+01	-1.63107920849E+02	4.80952652775E+00	1.75198394952E+02	-4.36036386044E+01	5.28221884272E+01	-6.00734920311E+00	-7.63362177305E-01
1.27641960218E+06	-8.61465331544E+00	-1.63769708969E+02	4.80516963167E+00	1.75712247820E+02	-3.60989056222E+01	3.14476246726E+01	-6.00915200970E+00	-4.59880820836E-01
1.29861095677E+06	-9.31417754659E+00	1.58585886212E+02	4.84962013645E+00	1.74923211856E+02	-3.71448240571E+01	6.27624126966E+01	-6.03472186318E+00	-7.59716895159E-01
1.32080231137E+06	-8.00216298041E+00	1.67503783280E+02	4.72684090813E+00	1.75254993521E+02	-3.89932207846E+01	2.31863977997E+01	-6.03649127992E+00	-1.04894263826E+00
1.34299366596E+06	-1.24402387582E+01	-1.74259792197E+02	4.73950584978E+00	1.74373457269E+02	-3.60355276168E+01	9.39251616726E+01	-5.98317683158E+00	-7.64598096909E-01
1.36518502056E+06	-1.00980757023E+01	1.75687541925E+02	4.81609382116E+00	1.75520426038E+02	-3.81346922202E+01	1.61394735981E+02	-6.01890298658E+00	-6.03457537571E-01
1.38737637515E+06	-1.28877662755E+01	1.66194514036E+02	4.79810997642E+00	1.74635587507E+02	-3.92515470936E+01	-6.06572478767E+00	-6.00405862058E+00	-8.93189030698E-01
1.40956772975E+06	-1.22652524748E+01	-1.69811559812E+02	4.77487650620E+00	1.75069782979E+02	-5.50419036341E+01	1.50064043883E+02	-6.03297757328E+00	-7.83739864298E-01
1.43175908434E+06	-6.49300821544E+00	1.71066685355E+02	4.79912823214E+00	1.74425887490E+02	-3.66064995715E+01	-9.54015236518E+01	-6.03549670354E+00	-8.61971628012E-01
1.45395043894E+06	-1.01201284519E+01	-1.75133599611E+02	4.67906603607E+00	1.74161873665E+02	-4.20226822826E+01	2.72090433872E+01	-6.03677580112E+00	-8.17149112369E-01
1.47614179353E+06	-1.24324838843E+01	1.64408474328E+02	4.82982734193E+00	1.74356218627E+02	-4.45282139429E+01	1.33346628579E+02	-6.03593564438E+00	-7.88671834174E-01
1.49833314813E+06	-9.69890515726E+00	1.57976360726E+02	4.71933198566E+00	1.74110545221E+02	-4.82924443961E+01	-1.51188948260E+02	-6.00565739343E+00	-7.32848649029E-01
1.52052450272E+06	-5.84421064372E+00	-1.67294816837E+02	4.84451589493E+00	1.74690155458E+02	-4.28374825058E+01	1.73084434496E+02	-6.00392705970E+00	-8.26933458491E-01
1.54271585732E+06	-1.10755656744E+01	1.56535730107E+02	4.89147894614E+00	1.73965596101E+02	-3.46955277370E+01	-4.87703711799E+01	-5.98968156589E+00	-7.57117700379E-01
1.56490721191E+06	-7.49996865692E+00	-1.77837020450E+02	4.79496313688E+00	1.73683089672E+02	-4.34967122502E+01	-9.22172552930E+01	-6.03421077883E+00	-6.60293549438E-01
1.58709856651E+06	-1.42403790624E+01	1.70215754275E+02	4.80191589839E+00	1.73975624788E+02	-4.13550040442E+01	-1.35019631070E+02	-6.02261580975E+00	-9.47458326086E-01
1.60928992110E+06	-9.49979214972E+00	1.61541014517E+02	4.79191135065E+00	1.73851022204E+02	-4.80645701624E+01	-3.14934172851E+01	-6.02454017356E+00	-9.71534674091E-01
1.63148127570E+06	-1.29469134011E+01	-1.61146328715E+02	4.82819671316E+00	1.73751485495E+02	-4.75829714062E+01	-8.27452895066E+01	-6.05935009729E+00	-9.75005170032E-01
1.65367263029E+06	-1.50109100353E+01	-1.67882980152E+02	4.79276865980E+00	1.72854112218E+02	-3.71736015049E+01	-2.36228030895E+01	-6.01025304001E+00	-1.10074425264E+00
1.67586398489E+06	-1.73717326583E+01	-1.57929468184E+02	4.79828190760E+00	1.73803738075E+02	-3.51216206160E+01	1.28572233734E+02	-5.99688295097E+00	-8.08748033030E-01
1.69805533948E+06	-1.13808900890E+01	-1.42292623863E+02	4.79599170860E+00	1.73515939175E+02	-4.49757873077E+01	-1.73928713708E+02	-5.99567321299E+00	-9.06537852026E-01
1.72024669408E+06	-1.14755816074E+01	-1.65083227286E+02	4.75542031958E+00	1.73479663998E+02	-3.87387392329E+01	-8.45982013717E+01	-6.03542215828E+00	-8.90508346342E-01
1.74243804867E+06	-9.24905928154E+00	-1.70581030217E+02	4.75106778958E+00	1.73186577745E+02	-4.20953773379E+01	7.32586521855E+01	-6.01344459713E+00	-9.86086789769E-01
1.76462940327E+06	-8.71710285269E+00	1.61222806875E+02	4.71408260462E+00	1.73353965142E+02	-4.74502271720E+01	-2.04576372085E+01	-6.05481618892E+00	-9.07516210070E-01
1.78682075786E+06	-9.00693828070E+00	-1.79877985965E+02	4.76344158487E+00	1.72953824586E+02	-3.69785296409E+01	-5.30885450432E+01	-6.04295067604E+00	-8.38324647962E-01
1.80901211246E+06	-1.62512530660E+01	-1.74009400061E+02	4.80554670637E+00	1.72528678110E+02	-4.91831006273E+01	-3.18897872957E+01	-6.05592750310E+00	-1.06960753796E+00
1.83120346705E+06	-9.67714719923E+00	-1.54795371970E+02	4.83102496773E+00	1.72977014643E+02	-4.37041075702E+01	-1.87016668449E+01	-6.05019058356E+00	-6.61790902299E-01
1.85339482165E+06	-9.05325789404E+00	1.79684552307E+02	4.78360859057E+00	1.72691605021E+02	-4.27888468322E+01	-4.70067019996E+01	-6.03774372018E+00	-1.02385794743E+00
1.87558617624E+06	-6.95910262612E+00	1.70289232912E+02	4.82447157396E+00	1.72179342888E+02	-4.43903973854E+01	-2.32642895094E+01	-6.03087236891E+00	-1.02256362788E+00
1.89777753084E+06	-6.31576464604E+00	-1.76502656824E+02	4.81407973623E+00	1.72276665212E+02	-3.90715459457E+01	6.19851016473E+00	-6.01373999430E+00	-9.65108909645E-01
1.91996888543E+06	-9.70692753419E+00	1.78707305684E+02	4.80709514649E+00	1.72719925915E+02	-3.74287199257E+01	-1.07328467408E+01	-6.00262707009E+00	-7.71139370243E-01
1.94216024003E+06	-1.05700304789E+01	-1.58483170266E+02	4.80634278439E+00	1.72087820892E+02	-4.69727858761E+01	6.03831661234E+01	-5.99012167328E+00	-1.00655404048E+00
1.96435159462E+06	-1.05480847010E+01	-1.78215320514E+02	4.76832800910E+00	1.71996988022E+02	-3.74117863451E+01	-8.48013758488E+01	-6.04709037392E+00	-9.85369869704E-01
1.98654294922E+06	-1.02461951917E+01	1.74419628081E+02	4.84307437405E+00	1.71045165057E+02	-4.77360869237E+01	-1.33508269789E+02	-6.03072227311E+00	-8.71371290103E-01
2.00873430381E+06	-1.11595112483E+01	1.49853393986E+02	4.76649598969E+00	1.72093948608E+02	-4.28830430821E+01	8.53858037554E+01	-6.01525502892E+00	-7.95500495781E-01
2.03092565841E+06	-1.58069121525E+01	1.52188993831E+02	4.79065143836E+00	1.71744148454E+02	-3.58139271723E+01	4.02580773251E+01	-6.04166198456E+00	-1.08879650573E+00
2.05311701300E+06	-8.65968102657E+00	-1.77007863528E+02	4.76282566184E+00	1.71347265332E+02	-4.36269327875E+01	7.77660936156E+01	-6.03953713939E+00	-1.04364205221E+00
2.07530836760E+06	-8.70894712160E+00	1.51770980865E+02	4.75098445245E+00	1.71308269430E+02	-4.61762981179E+01	-4.46411030370E+01	-6.01952453130E+00	-9.91351163916E-01
2.09749972219E+06	-1.09407765024E+01	-1.73090552267E+02	4.76290640691E+00	1.71418654795E+02	-3.63651253717E+01	-5.49128894511E+01	-6.06094993287E+00	-7.70520367994E-01
2.11969107679E+06	-1.38068314472E+01	1.71115815541E+02	4.80629446176E+00	1.71126197079E+02	-4.84598320889E+01	-1.53816845077E+02	-6.03369514913E+00	-1.01679976695E+00
2.14188243138E+06	-9.46835334422E+00	-1.69194165240E+02	4.83179603037E+00	1.71541484091E+02	-4.18756186089E+01	-1.37447882033E+02	-6.02145020831E+00	-1.16633501860E+00
2.16407378598E+06	-8.47041658320E+00	1.77579194818E+02	4.79715960709E+00	1.71209002116E+02	-5.12424761110E+01	1.16623776186E+02	-6.02322820638E+00	-1.15804060444E+00
2.18626514057E+06	-1.24168578539E+01	1.66083706360E+02	4.80988133263E+00	1.71655279952E+02	-4.29630294645E+01	1.35357932046E+02	-6.00338179829E+00	-9.70935625269E-01
2.20845649517E+06	-8.64222044063E+00	1.72649099051E+02	4.75143200145E+00	1.70902199928E+02	-3.52586166330E+01	2.84068093975E+01	-6.00161846245E+00	-1.13091357112E+00
2.23064784976E+06	-1.03399625921E+01	1.76866078128E+02	4.73110502619E+00	1.71362025866E+02	-3.80905929557E+01	1.07090642832E+02	-5.99705580146E+00	-1.16630274364E+00
2.25283920436E+06	-9.45172904586E+00	1.73594646462E+02	4.76464355777E+00	1.70800575502E+02	-4.00195673155E+01	2.55467301279E+01	-6.02748290052E+00	-1.09833404032E+00
2.27503055895E+06	-7.44392732068E+00	1.78732983779E+02	4.73778649882E+00	1.70511298018E+02	-5.51366225554E+01	8.41354840469E+00	-6.02595221438E+00	-8.65250171576E-01
2.29722191355E+06	-9.32019366799E+00	1.51201014364E+02	4.84602588948E+00	1.71140050023E+02	-3.79959496652E+01	1.56179455943E+02	-6.03449445732E+00	-1.35487575527E+00
2.31941326814E+06	-1.06835280061E+01	1.69136817642E+02	4.72464926776E+00	1.71016812211E+02	-4.11487504093E+01	6.32687364089E+01	-6.01743927080E+00	-9.95146343899E-01
2.34160462274E+06	-1.50123137234E+01	-1.78457336154E+02	4.75775622459E+00	1.70145641117E+02	-4.44279068821E+01	-1.19924566404E+02	-6.03825799089E+00	-8.98550474872E-01
2.36379597733E+06	-7.56004479489E+00	-1.71995580996E+02	4.76257203708E+00	1.70505104876E+02	-4.68248918584E+01	1.47386820107E+01	-6.06155122443E+00	-1.08598466016E+00
2.38598733193E+06	-1.05997614192E+01	1.70705662794E+02	4.80939364513E+00	1.69732898637E+02	-4.34229225678E+01	8.78746239712E+01	-5.98897290347E+00	-1.10270036773E+00
2.40817868652E+06	-1.16257827224E+01	1.66696180343E+02	4.77536843065E+00	1.70247645255E+02	-5.34782145456E+01	-1.41051814529E+02	-6.02989818065E+00	-1.13696510559E+00
2.43037004112E+06	-1.12490837719E+01	1.49064065210E+02	4.75376237436E+00	1.70448307972E+02	-4.07151175396E+01	1.21353187571E+02	-6.01100427196E+00	-1.48283311219E+00
2.45256139571E+06	-1.23519014862E+01	-1.73167156621E+02	4.84380461631E+00	1.69724698045E+02	-3.65099688100E+01	-1.61451714240E+02	-5.98170623641E+00	-1.12829523419E+00
2.47475275031E+06	-1.19317985082E+01	1.61560429867E+02	4.80444832969E+00	1.70023940966E+02	-4.57188840512E+01	-7.34188438547E+01	-6.04123548460E+00	-1.23922698137E+00
2.49694410490E+06	-7.79016120228E+00	1.64507380017E+02	4.70676526748E+00	1.69772954746E+02	-5.16847327839E+01	4.45353286841E+01	-6.02400746289E+00	-1.01425460261E+00
2.51913545950E+06	-1.16601735717E+01	-1.55843907657E+02	4.79140075030E+00	1.70113413899E+02	-4.30332316737E+01	8.09806263540E+01	-6.01895145275E+00	-9.74404599119E-01
2.54132681409E+06	-1.12958610059E+01	-1.76141587878E+02	4.76134259105E+00	1.69475105178E+02	-4.54382098893E+01	-1.09958766215E+02	-6.00873683690E+00	-1.15030478150E+00
2.56351816869E+06	-8.82587196575E+00	1.75377526609E+02	4.79261689743E+00	1.69462977090E+02	-4.10602315839E+01	-1.13691558089E+01	-6.01874283927E+00	-1.25062742891E+00
2.58570952328E+06	-1.04344063875E+01	1.67303670372E+02	4.83753957515E+00	1.69577873472E+02	-3.70171347778E+01	-1.73044124984E+02	-6.06395023147E+00	-1.05348137841E+00
2.60790087788E+06	-1.41999706840E+01	1.69160297730E+02	4.79432113679E+00	1.69761847462E+02	-3.52205993536E+01	1.63706459852E+02	-6.06115826431E+00	-1.18803026649E+00
2.63009223247E+06	-1.23742240159E+01	-1.69833519146E+02	4.78997858470E+00	1.69628486489E+02	-3.62041279075E+01	3.39339991386E+01	-6.02697295591E+00	-1.42423304501E+00
2.65228358707E+06	-8.59115766106E+00	1.57595848565E+02	4.86114781863E+00	1.69515455115E+02	-3.86596984253E+01	-2.50493208559E+01	-5.98912777498E+00	-1.67609797749E+00
2.67447494166E+06	-1.05361845631E+01	1.72179899893E+02	4.80991112149E+00	1.69306960225E+02	-5.13469225804E+01	5.74209029186E+01	-6.02232379407E+00	-1.37766270512E+00
2.69666629626E+06	-1.28034610453E+01	1.68095404408E+02	4.75173325050E+00	1.68930197700E+02	-4.69399457690E+01	-1.43388239754E+02	-5.97501546347E+00	-1.21747676878E+00
2.71885765085E+06	-7.46639889871E+00	1.72664201229E+02	4.79458365781E+00	1.69069230413E+02	-3.75180636721E+01	-2.76977081646E+01	-5.98640588761E+00	-1.12632917978E+00
2.74104900545E+06	-9.88546927525E+00	1.54929368570E+02	4.80200742373E+00	1.68143835221E+02	-3.71743115323E+01	1.49779018134E+02	-5.97268752347E+00	-1.20245989423E+00
2.76324036004E+06	-9.33914206363E+00	-1.74434688490E+02	4.74325954171E+00	1.68551180552E+02	-4.77825731838E+01	-1.98801290209E+01	-6.00463401861E+00	-1.36073508542E+00
2.78543171463E+06	-1.51037444403E+01	-1.77754174528E+02	4.68751737677E+00	1.68629670771E+02	-4.80027186648E+01	-9.59900572740E+01	-5.96170149897E+00	-1.36150267345E+00
2.80762306923E+06	-1.08728077827E+01	1.70232915634E+02	4.74277888852E+00	1.68197500645E+02	-3.75384922554E+01	7.06953990917E+01	-6.00781157564E+00	-1.42243351896E+00
2.82981442382E+06	-1.10911197196E+01	1.68218081167E+02	4.76762635860E+00	1.68069305284E+02	-4.10638156181E+01	-7.29295375814E+01	-5.99808635356E+00	-1.13524779182E+00
2.85200577842E+06	-1.22692608611E+01	1.77851044229E+02	4.80016931898E+00	1.68058358476E+02	-4.48817202347E+01	5.56624845582E+01	-5.98654073377E+00	-1.72573357591E+00
2.87419713301E+06	-1.27593110871E+01	-1.55829442426E+02	4.73790479382E+00	1.68261170562E+02	-4.36551468781E+01	-1.73733102520E+02	-6.02445588748E+00	-1.50823572603E+00
