# Hz S DB R 50
! CMT, M5065, 19127446, 24.2.4/2
! Date: 10/29/2024 1:17:44 PM
! Data: Format (Calibration Info)
! Freq	S11:dB/Ang(F2)	S21:dB/Ang(F2)	S12:dB/Ang(F2)	S22:dB/Ang(F2)
3.00000000000E+05	-9.37245152805E+00	1.75030032764E+02	9.47864530470E+00	-1.77756613217E+02	-5.20201825847E+01	9.90129627987E+01	-6.00732639913E+00	-1.33873838250E-02
3.22191354595E+05	-1.50482800774E+01	-1.70365035604E+02	9.46900549138E+00	-1.78116501816E+02	-4.83365791697E+01	2.76885294189E+01	-5.97118764130E+00	-7.55346066584E-02
3.44382709190E+05	-8.41311907234E+00	-1.61583025382E+02	9.47537120392E+00	-1.78281834579E+02	-4.38375140922E+01	-1.34815860160E+02	-6.04459925165E+00	-1.87441415710E-01
3.66574063785E+05	-8.51811176554E+00	-1.73408953871E+02	9.42161279371E+00	-1.78746434113E+02	-3.74685342948E+01	1.65336601534E+02	-6.00696656094E+00	-4.30741587219E-01
3.88765418380E+05	-1.16759868951E+01	-1.77850077050E+02	9.49999766424E+00	-1.78874739468E+02	-3.67189910200E+01	1.10034384112E+02	-6.02612773191E+00	-1.06740297055E-01
4.10956772975E+05	-9.33740864571E+00	1.55138048124E+02	9.55551922764E+00	-1.79511766993E+02	-4.59297634269E+01	-1.06492354133E+02	-6.04589122350E+00	-2.54342039578E-01
4.33148127570E+05	-1.26858850030E+01	-1.69452155734E+02	9.48811586129E+00	1.79892871343E+02	-3.75085604665E+01	-6.04330137230E+01	-6.00897507152E+00	-5.37516404393E-01
4.55339482165E+05	-8.07797790479E+00	-1.74572796800E+02	9.48250940414E+00	-1.79999706263E+02	-4.17722370885E+01	1.11033690517E+01	-6.00946348821E+00	-5.33471659734E-01
4.77530836760E+05	-1.16146053882E+01	-1.55042117136E+02	9.45494462949E+00	-1.79816015230E+02	-3.74998680306E+01	-6.89421828474E+00	-6.01013016682E+00	-3.40983120185E-01
4.99722191355E+05	-1.20004705362E+01	-1.65596362411E+02	9.47868208256E+00	1.79950456180E+02	-3.60966326656E+01	1.63170803579E+02	-6.03281924087E+00	-5.79905941438E-01
5.21913545950E+05	-1.11464873885E+01	-1.56232273251E+02	9.45389772979E+00	1.79348383082E+02	-4.08610651976E+01	2.69826516951E+01	-6.03329380837E+00	-4.54969860323E-01
5.44104900545E+05	-1.07537128986E+01	1.59062183582E+02	9.48248002823E+00	1.79101864215E+02	-3.92380832455E+01	-4.11995583700E+01	-5.99909780800E+00	-3.49559443810E-01
5.66296255139E+05	-1.98979112271E+01	-1.36887340038E+02	9.43207434712E+00	1.78901983391E+02	-3.49921518670E+01	1.48455956202E+02	-6.06349765982E+00	-5.85940941131E-01
5.88487609734E+05	-8.10227178884E+00	1.59018383910E+02	9.49530536689E+00	1.78959057232E+02	-4.00382853754E+01	8.31306919554E+01	-6.01432348660E+00	-5.62817228808E-01
6.10678964329E+05	-1.04622963153E+01	-1.60902383038E+02	9.52345766768E+00	1.78529421237E+02	-3.99405688936E+01	-1.48705999872E+01	-6.02287411585E+00	-1.98432314489E-01
6.32870318924E+05	-7.61944357050E+00	-1.79119462619E+02	9.53959359020E+00	1.78297450063E+02	-3.81113055635E+01	1.58800550492E+02	-6.07473223161E+00	-4.41104853794E-01
6.55061673519E+05	-1.22025673223E+01	-1.53313050473E+02	9.49462096703E+00	1.78226781956E+02	-4.83906424187E+01	6.40106027741E+01	-6.00912442161E+00	-4.64058390075E-01
6.77253028114E+05	-9.70106527238E+00	-1.73597385082E+02	9.50740166544E+00	1.77879779132E+02	-4.42134400589E+01	1.35273754822E+02	-6.02462163216E+00	-7.18527041075E-01
6.99444382709E+05	-9.03361479007E+00	1.75550159346E+02	9.48468090470E+00	1.77844418352E+02	-4.67715656722E+01	-8.05623445690E+01	-6.03408674673E+00	-6.81053952350E-01
7.21635737304E+05	-1.14494969354E+01	1.66288049797E+02	9.47257828513E+00	1.77635568013E+02	-4.18647697419E+01	4.87071407119E+01	-6.05368652974E+00	-6.22902143149E-01
7.43827091899E+05	-9.48023740893E+00	1.75084210192E+02	9.45326009656E+00	1.77480728675E+02	-3.50237040067E+01	-1.20979236934E+02	-6.03140144381E+00	-3.76764310800E-01
7.66018446494E+05	-9.59541328717E+00	-1.76463201568E+02	9.50072462329E+00	1.77055790451E+02	-4.07641613490E+01	1.03916360734E+02	-6.03721016649E+00	-3.89031473201E-01
7.88209801089E+05	-8.23543855741E+00	1.72418066700E+02	9.42631476658E+00	1.77246235036E+02	-4.35238064073E+01	-3.42353997922E+01	-6.01311141377E+00	-5.49832557083E-01
8.10401155684E+05	-1.12355635964E+01	-1.75998437535E+02	9.45826204040E+00	1.76984252048E+02	-4.39785424908E+01	5.63514057107E+01	-6.04469061604E+00	-6.28505107347E-01
8.32592510279E+05	-1.15518155451E+01	-1.50665242010E+02	9.45728542574E+00	1.76944172664E+02	-4.07077299390E+01	-8.83580617117E+01	-5.99793231794E+00	-4.41654990859E-01
8.54783864874E+05	-1.11650291444E+01	-1.61802825501E+02	9.53524121036E+00	1.77042342051E+02	-3.50919419474E+01	-1.64430129345E+02	-6.04923515976E+00	-3.54405713661E-01
8.76975219469E+05	-1.25231584704E+01	1.65708683979E+02	9.49746602424E+00	1.76549990970E+02	-4.53182978995E+01	-1.65067321198E+02	-6.01657717013E+00	-6.89502904345E-01
8.99166574064E+05	-9.04511557902E+00	1.76652062814E+02	9.49931921309E+00	1.76638375865E+02	-4.73356159391E+01	8.14703210649E+01	-5.99963268064E+00	-4.96665663552E-01
9.21357928659E+05	-1.01836027967E+01	1.42534009916E+02	9.42249211419E+00	1.76055404195E+02	-3.69000559477E+01	1.64416906011E+01	-6.01307579478E+00	-7.44827352807E-01
9.43549283254E+05	-6.04076962694E+00	1.72797245082E+02	9.53237980326E+00	1.76307068402E+02	-4.46936709072E+01	-1.22868153643E+02	-6.04598905382E+00	-8.13442141241E-01
9.65740637849E+05	-1.61393266467E+01	-1.58651766695E+02	9.47022964064E+00	1.75839898399E+02	-3.65022449195E+01	-2.14620867186E+01	-5.97342046463E+00	-7.41072943804E-01
9.87931992444E+05	-1.07627081431E+01	1.67178866026E+02	9.51988696639E+00	1.76026598112E+02	-3.50755276391E+01	-1.29817532382E+02	-6.04084399582E+00	-6.34489137625E-01
1.01012334704E+06	-9.43001816945E+00	-1.61884599541E+02	9.53224294248E+00	1.75501551560E+02	-3.56749912451E+01	-1.32673684504E+02	-5.99149125401E+00	-6.73524016047E-01
1.03231470163E+06	-1.21630947227E+01	-1.74549936930E+02	9.53330320581E+00	1.75639316886E+02	-4.12294332454E+01	-1.09437817147E+02	-6.03484778962E+00	-6.20483002399E-01
1.05450605623E+06	-1.10348680980E+01	-1.69653431770E+02	9.51593503563E+00	1.75301205366E+02	-4.55081061265E+01	-1.59033642019E+02	-6.02403671396E+00	-4.38870202115E-01
1.07669741082E+06	-8.01873841660E+00	-1.58939945502E+02	9.59172724813E+00	1.75147683370E+02	-4.49877489215E+01	-7.71526256884E+01	-6.05961016491E+00	-9.67807885899E-01
1.09888876542E+06	-1.39212635470E+01	1.78341893001E+02	9.42469834906E+00	1.75115027997E+02	-5.44710427905E+01	-1.69206039132E+02	-6.02697100589E+00	-6.79463310545E-01
1.12108012001E+06	-8.85647413846E+00	-1.68290902797E+02	9.50941032615E+00	1.74698636547E+02	-4.34898930199E+01	-1.17146061490E+02	-6.04222747952E+00	-4.16211117286E-01
1.14327147461E+06	-1.02437283397E+01	-1.70652848663E+02	9.51215826185E+00	1.74745301152E+02	-4.34958161252E+01	-1.24471595654E+02	-6.03564079180E+00	-6.12208768345E-01
1.16546282920E+06	-1.14875278208E+01	1.57876852574E+02	9.45674401656E+00	1.75274200009E+02	-3.78624377109E+01	1.05519039946E+02	-5.98450008687E+00	-7.86452644452E-01
1.18765418380E+06	-8.53106552236E+00	1.64219229833E+02	9.52837117019E+00	1.74674198263E+02	-3.84901722654E+01	-3.55381137677E+01	-6.01186325958E+00	-4.47631743324E-01
1.20984553839E+06	-9.14154332056E+00	-1.73451193445E+02	9.47255496841E+00	1.74647799873E+02	-3.49303685498E+01	1.52409599236E+02	-6.02182499071E+00	-9.02790436163E-01
1.23203689299E+06	-1.39278011111E+01	-1.70550966050E+02	9.48754099077E+00	1.74278400783E+02	-3.80391585896E+01	1.11534360527E+02	-6.06746210839E+00	-8.39331086875E-01
1.25422824758E+06	-9.81948497696E+00	1.63188114330E+02	9.51866020430E+00	1.74165946122E+02	-4.40922062701E+01	-2.07225719894E+01	-5.99727358258E+00	-6.42019342372E-01
1.27641960218E+06	-9.95991732430E+00	-1.78918924831E+02	9.53026866813E+00	1.74329033241E+02	-4.21633621475E+01	-1.44729175754E+02	-6.04094887423E+00	-7.70871441534E-01
1.29861095677E+06	-1.17352688569E+01	-1.69421547370E+02	9.51568398816E+00	1.74047480501E+02	-5.13432036555E+01	-1.26219973861E+02	-5.98408588292E+00	-8.03308415303E-01
1.32080231137E+06	-8.23706487967E+00	-1.58821779771E+02	9.50047641092E+00	1.73638439944E+02	-4.25589183141E+01	1.24516742460E+02	-5.99337065694E+00	-1.00805825314E+00
1.34299366596E+06	-9.84830203902E+00	-1.66389801694E+02	9.51996332964E+00	1.73899480113E+02	-4.24284980627E+01	-1.13205803433E+02	-6.00288395703E+00	-8.59088186245E-01
1.36518502056E+06	-1.10378528876E+01	1.74737737545E+02	9.52071939512E+00	1.73622230283E+02	-4.01500491471E+01	-1.51115337510E+02	-5.96906547884E+00	-8.61763219145E-01
1.38737637515E+06	-1.20563069627E+01	1.75145957940E+02	9.46131965300E+00	1.73536881846E+02	-3.92140323085E+01	1.76740421066E+02	-6.01179038206E+00	-7.63477335311E-01
1.40956772975E+06	-1.06593216871E+01	1.75535472468E+02	9.47690996088E+00	1.73372170563E+02	-5.94505799492E+01	-8.37880209994E+01	-6.03288510961E+00	-9.43364267469E-01
1.43175908434E+06	-1.26247154741E+01	-1.72887882342E+02	9.49995091721E+00	1.73057058399E+02	-3.10226156369E+01	1.70628659877E+02	-6.04404874380E+00	-1.01331640082E+00
1.45395043894E+06	-1.78648543289E+01	1.63245181828E+02	9.52651745497E+00	1.73327149676E+02	-4.37789778239E+01	1.49439898454E+02	-6.07174446065E+00	-5.72110312280E-01
1.47614179353E+06	-9.97385509467E+00	1.67005513088E+02	9.45835092845E+00	1.72481800343E+02	-4.51351932195E+01	-9.69562015857E+01	-6.00485940908E+00	-6.87774341851E-01
1.49833314813E+06	-1.11645200383E+01	1.72647824715E+02	9.50474389257E+00	1.73183653093E+02	-5.86641021952E+01	5.65721878733E+01	-6.04875683717E+00	-9.63147021956E-01
1.52052450272E+06	-1.41449647330E+01	-1.59745841515E+02	9.53754318669E+00	1.72191051311E+02	-4.55058279810E+01	5.15035157809E+01	-6.02182562942E+00	-8.46692153533E-01
1.54271585732E+06	-9.49561692396E+00	1.72758077768E+02	9.45230271731E+00	1.72835394980E+02	-4.40206758706E+01	-1.12939530079E+02	-6.02606536342E+00	-7.46949550026E-01
1.56490721191E+06	-7.53308239994E+00	1.79922017656E+02	9.53421067022E+00	1.72449567758E+02	-4.13528926342E+01	7.98393149837E+01	-5.98901249273E+00	-6.85645338907E-01
1.58709856651E+06	-1.13947796577E+01	1.62861493370E+02	9.42029453223E+00	1.71941570077E+02	-4.23139700516E+01	-2.27945287761E+01	-6.01177350124E+00	-8.87615724017E-01
1.60928992110E+06	-1.27714064525E+01	1.76928836313E+02	9.45677120565E+00	1.72030124012E+02	-4.02967281996E+01	-1.17547037182E+02	-6.02715906602E+00	-7.70872948057E-01
1.63148127570E+06	-5.75046040516E+00	1.78390686796E+02	9.53488766589E+00	1.71713223788E+02	-3.77883367387E+01	-1.67622546164E+02	-6.01248301027E+00	-7.02883703774E-01
1.65367263029E+06	-9.23288466594E+00	-1.59016507403E+02	9.48940471791E+00	1.72047395918E+02	-6.32626860319E+01	-7.34027934593E+01	-6.06579531402E+00	-7.62708241056E-01
1.67586398489E+06	-1.31934071523E+01	1.64106163667E+02	9.54396863998E+00	1.71553812488E+02	-3.65371324495E+01	1.22168570086E+02	-6.02197068355E+00	-6.50693885510E-01
1.69805533948E+06	-7.92343854641E+00	-1.69225677004E+02	9.53705170383E+00	1.71900765726E+02	-4.39652865932E+01	-1.45618212318E+02	-6.03463214066E+00	-1.13454610573E+00
1.72024669408E+06	-8.05624727509E+00	1.79912535042E+02	9.49986318601E+00	1.71393811784E+02	-4.25993337387E+01	6.37085840508E+01	-6.02406009310E+00	-8.71582639629E-01
1.74243804867E+06	-1.31586201497E+01	-1.68022837582E+02	9.46122083206E+00	1.71246574300E+02	-3.98138942038E+01	-8.11320708927E+01	-6.05656445893E+00	-6.83963140706E-01
1.76462940327E+06	-8.76547667315E+00	1.60615806166E+02	9.50844456493E+00	1.71043226883E+02	-3.58806185773E+01	-5.63456908115E+01	-6.01906783502E+00	-1.11859149066E+00
1.78682075786E+06	-8.93175082815E+00	1.52834092272E+02	9.49169477040E+00	1.70834812827E+02	-4.25467281119E+01	-7.41639137721E+01	-5.98386318165E+00	-9.28566999418E-01
1.80901211246E+06	-1.41158113242E+01	-1.59317980886E+02	9.51025486354E+00	1.71352425435E+02	-4.85517983479E+01	4.43911092307E+01	-6.03661664772E+00	-1.20444988632E+00
1.83120346705E+06	-7.82823269128E+00	-1.76222951482E+02	9.50490293120E+00	1.70865953616E+02	-4.21788277864E+01	1.00507909993E+02	-5.98244761807E+00	-1.13469341033E+00
1.85339482165E+06	-7.42480568007E+00	-1.77206389408E+02	9.48436434934E+00	1.70518109644E+02	-3.86974954275E+01	7.86277912522E+00	-6.02673239966E+00	-8.74687781168E-01
1.87558617624E+06	-9.00408361724E+00	1.52706037480E+02	9.46612590724E+00	1.71102441708E+02	-4.15997834423E+01	-4.07165539508E+01	-6.00469854822E+00	-1.03654669234E+00
1.89777753084E+06	-9.41276437013E+00	1.68992500026E+02	9.45513703505E+00	1.70118896282E+02	-3.32303741319E+01	-1.26535592532E+02	-6.08031405633E+00	-1.23267551150E+00
1.91996888543E+06	-6.73065247062E+00	-1.61966936295E+02	9.48626500908E+00	1.70509199314E+02	-4.70409714866E+01	4.24619263936E+01	-6.01395425879E+00	-1.00555826919E+00
1.94216024003E+06	-9.99773601945E+00	1.60454743285E+02	9.53263618415E+00	1.69956767641E+02	-4.13404566248E+01	-8.88105496456E+00	-6.03293194359E+00	-7.14203205861E-01
1.96435159462E+06	-1.04298369712E+01	-1.79907709888E+02	9.53155294159E+00	1.70182167934E+02	-3.79381382114E+01	-1.82502822403E+01	-5.99023675142E+00	-1.04170428528E+00
1.98654294922E+06	-9.44538662957E+00	-1.63157712304E+02	9.51692326364E+00	1.70069688206E+02	-4.71694743025E+01	2.40644371029E+01	-6.01116638970E+00	-1.05393952236E+00
2.00873430381E+06	-1.05402599237E+01	1.75386883505E+02	9.47765412510E+00	1.69731453023E+02	-4.28158380278E+01	1.40855803216E+02	-6.03898652185E+00	-9.63847023946E-01
2.03092565841E+06	-1.04010371435E+01	-1.67494372439E+02	9.48140199593E+00	1.70097520790E+02	-3.72447767315E+01	-8.86869448555E+01	-6.04153757342E+00	-7.53435163088E-01
2.05311701300E+06	-1.23866990756E+01	1.79190668344E+02	9.48411910839E+00	1.70184417160E+02	-3.85260512019E+01	7.47904408380E+01	-5.98983920774E+00	-1.12945277328E+00
2.07530836760E+06	-1.00912794917E+01	1.59722819166E+02	9.50753618063E+00	1.69804767943E+02	-3.91942600046E+01	9.66425662837E+01	-6.00348485205E+00	-9.67634343476E-01
2.09749972219E+06	-1.51435808651E+01	1.79550931358E+02	9.44567539523E+00	1.69350766861E+02	-3.77720712118E+01	-1.28102909548E+02	-6.01995296685E+00	-8.37012635465E-01
2.11969107679E+06	-9.76659183811E+00	-1.78084605846E+02	9.50470584522E+00	1.69308322610E+02	-4.47853587136E+01	1.56496747398E+02	-6.02316004699E+00	-9.71184395524E-01
2.14188243138E+06	-8.18375194281E+00	1.77963400648E+02	9.48014052614E+00	1.69143311099E+02	-3.48586215701E+01	5.41704805615E+01	-6.00346292797E+00	-1.11971964785E+00
2.16407378598E+06	-7.65583997228E+00	1.61450721622E+02	9.50705656395E+00	1.68616548828E+02	-3.91661994989E+01	1.05008463206E+02	-6.03286479409E+00	-1.16873851188E+00
2.18626514057E+06	-8.56290951851E+00	1.59572971491E+02	9.50919731742E+00	1.68872466392E+02	-3.92850472790E+01	-1.63818641797E+02	-6.04909616107E+00	-8.53142128506E-01
2.20845649517E+06	-1.16788915489E+01	1.59340959594E+02	9.47091682487E+00	1.68810493882E+02	-4.42769861498E+01	1.49846738617E+01	-5.96832127074E+00	-1.08566400030E+00
2.23064784976E+06	-1.02956669746E+01	-1.66224547291E+02	9.45860546442E+00	1.68883901780E+02	-4.45440940597E+01	-1.75147711051E+02	-5.99199493556E+00	-1.28904695267E+00
2.25283920436E+06	-1.10069300698E+01	-1.76207488437E+02	9.50653960761E+00	1.69163503551E+02	-3.90354773597E+01	1.47367601476E+02	-5.98344034889E+00	-1.10969180256E+00
2.27503055895E+06	-7.95100564276E+00	1.78501998080E+02	9.57379675786E+00	1.68898858922E+02	-3.81434352572E+01	3.39049682664E+01	-6.00208373894E+00	-1.07628467612E+00
2.29722191355E+06	-9.38420481138E+00	1.79199013222E+02	9.47700529456E+00	1.68839602120E+02	-5.18376511818E+01	1.61217413620E+02	-6.03094536619E+00	-1.16191260019E+00
2.31941326814E+06	-1.06960929828E+01	-1.79659621543E+02	9.48974061030E+00	1.68110585362E+02	-4.55878805436E+01	3.52498502098E+01	-6.04639656557E+00	-1.10592217758E+00
2.34160462274E+06	-9.03221226888E+00	1.64264783242E+02	9.49109842919E+00	1.68124143667E+02	-3.64837666380E+01	-1.73934857001E+02	-5.98077575957E+00	-1.06885693239E+00
2.36379597733E+06	-1.10073525776E+01	1.52942114362E+02	9.50002765421E+00	1.67917652220E+02	-4.13390157185E+01	-1.66274639920E+02	-6.08443528136E+00	-1.33917334516E+00
2.38598733193E+06	-1.33290583558E+01	1.77004612539E+02	9.52185701345E+00	1.68231260716E+02	-3.69352434690E+01	2.62703260111E+01	-6.03136009994E+00	-1.17130735430E+00
2.40817868652E+06	-1.09039428097E+01	1.75566936681E+02	9.53174725143E+00	1.67731191231E+02	-4.04187031458E+01	-5.27746730803E+01	-6.02847195236E+00	-1.06072818616E+00
2.43037004112E+06	-9.04727777374E+00	1.64387650754E+02	9.52805820558E+00	1.67865429263E+02	-3.60378880927E+01	1.23977988927E+02	-6.03115519286E+00	-1.46540601558E+00
2.45256139571E+06	-1.29543308467E+01	1.68315221709E+02	9.48738803150E+00	1.67637589318E+02	-3.93052555082E+01	8.85255986714E+01	-6.03930930925E+00	-8.22629991484E-01
2.47475275031E+06	-1.01820939729E+01	-1.74384957690E+02	9.52269250057E+00	1.67215097961E+02	-4.96288721879E+01	-3.14232088917E+01	-6.02145890746E+00	-1.07682443065E+00
2.49694410490E+06	-1.17683712429E+01	1.63940384959E+02	9.44533628839E+00	1.67183361244E+02	-4.20286772104E+01	1.34066547143E+02	-6.05660513357E+00	-1.00185773591E+00
2.51913545950E+06	-8.73258755412E+00	1.77717947831E+02	9.47182315837E+00	1.66997679433E+02	-4.15027717578E+01	-4.93154369344E+01	-6.03588063924E+00	-1.33981528565E+00
2.54132681409E+06	-1.02946301447E+01	1.58605776263E+02	9.50544906665E+00	1.67130389359E+02	-4.70454906660E+01	-1.67486328875E+02	-5.99449260347E+00	-1.09594345272E+00
2.56351816869E+06	-1.46669165022E+01	-1.55168418245E+02	9.51806200473E+00	1.66977181561E+02	-4.23033979968E+01	-2.52350506868E+01	-6.00814389846E+00	-1.23140282339E+00
2.58570952328E+06	-1.18330579848E+01	1.78889551310E+02	9.42394111097E+00	1.66685779633E+02	-3.87750591369E+01	-1.03593097224E+02	-6.02959721630E+00	-1.36878653364E+00
2.60790087788E+06	-1.08211819119E+01	1.46938042261E+02	9.45733955323E+00	1.66803595496E+02	-4.21793865153E+01	2.69915535284E+01	-6.02516902806E+00	-9.76560888870E-01
2.63009223247E+06	-1.37553665886E+01	1.49554836294E+02	9.47652105654E+00	1.66596907959E+02	-4.68386087426E+01	1.32306619149E+02	-6.05278335112E+00	-1.31815997212E+00
2.65228358707E+06	-1.05528101617E+01	-1.73456774245E+02	9.47541134987E+00	1.66506281905E+02	-4.46752264132E+01	1.52377559595E+02	-6.01081361594E+00	-1.85063586293E+00
2.67447494166E+06	-1.12295956485E+01	1.55977974513E+02	9.41614969704E+00	1.66409182229E+02	-3.97451836821E+01	-1.73029753521E+02	-6.06383643671E+00	-1.44938862303E+00
2.69666629626E+06	-1.36456138200E+01	1.66371696258E+02	9.49198582881E+00	1.66585914162E+02	-5.56982591044E+01	-1.06461799402E+02	-6.03653802990E+00	-1.33965889013E+00
2.71885765085E+06	-1.02794948228E+01	-1.56847011688E+02	9.50893475728E+00	1.66250931025E+02	-4.07330343141E+01	-1.32973255576E+02	-6.04353655151E+00	-1.43711576605E+00
2.74104900545E+06	-9.95048095063E+00	1.74947145871E+02	9.53479363028E+00	1.66112941598E+02	-4.08881889930E+01	1.73208842581E+02	-6.01480251536E+00	-1.20815380531E+00
2.76324036004E+06	-9.54259211025E+00	-1.76612872140E+02	9.50052954393E+00	1.65966936807E+02	-3.99590412172E+01	1.07917771182E+02	-6.01202292001E+00	-1.14174175421E+00
2.78543171463E+06	-1.74353024375E+01	-1.39248926913E+02	9.51771909420E+00	1.65842354026E+02	-3.80891526685E+01	7.20260252044E+00	-6.04440584576E+00	-1.36538008393E+00
2.80762306923E+06	-1.20210060059E+01	1.71039120215E+02	9.47856171383E+00	1.65712697807E+02	-5.14189230834E+01	9.11778408338E+01	-6.00011570950E+00	-1.09018097653E+00
2.82981442382E+06	-1.35108137221E+01	1.57896203066E+02	9.50108082753E+00	1.65298701643E+02	-4.97759599642E+01	-1.14262689703E+02	-6.04126226191E+00	-1.45175155481E+00
2.85200577842E+06	-1.02426319603E+01	1.70066788854E+02	9.50850352203E+00	1.65745585541E+02	-5.16114227066E+01	1.72311806558E+02	-6.02158871388E+00	-1.40198581207E+00
2.87419713301E+06	-1.33763199777E+01	-1.75483446742E+02	9.49317529494E+00	1.64938834510E+02	-5.02435764725E+01	-1.71981906790E+02	-6.01182637667E+00	-1.05119236037E+00
