# Hz S DB R 50
! CMT, M5065, 19127446, 24.2.4/2
! Date: 10/29/2024 1:11:33 PM
! Data: Format (Calibration Info)
! Freq	S11:dB/Ang(F2)	S21:dB/Ang(F2)	S12:dB/Ang(F2)	S22:dB/Ang(F2)
3.00000000000E+05	-1.13176590765E+01	-1.74439277771E+02	7.43969010728E+00	-1.78014254142E+02	-4.90851769592E+01	1.30712524941E+02	-6.02873969829E+00	-8.49967133692E-02
3.22191354595E+05	-9.00109180464E+00	-1.54707915292E+02	7.42567191110E+00	-1.78250548786E+02	-4.31662533737E+01	1.42239471028E+02	-6.02526109298E+00	-1.77125902543E-01
3.44382709190E+05	-8.38048409572E+00	-1.64756526266E+02	7.46067262062E+00	-1.77821864821E+02	-4.39208432689E+01	2.43593444839E+00	-6.00273804808E+00	-4.43755253028E-01
3.66574063785E+05	-1.20608314259E+01	-1.51753303694E+02	7.45415082715E+00	-1.78709431446E+02	-4.59246340941E+01	-1.31720521486E+02	-6.03655546289E+00	-6.37156401362E-01
3.88765418380E+05	-8.91226006109E+00	-1.78684379739E+02	7.38916068673E+00	-1.78854665576E+02	-4.46910220123E+01	-6.18960883751E+01	-6.04283836176E+00	-3.25649831893E-01
4.10956772975E+05	-1.38147208449E+01	-1.71691451807E+02	7.39898255354E+00	-1.78887394254E+02	-4.42903396646E+01	-2.41731977565E+01	-6.01801558101E+00	-3.73280256179E-01
4.33148127570E+05	-8.79469467985E+00	1.58315651112E+02	7.43320246440E+00	-1.79232359614E+02	-4.51787899866E+01	9.37043807411E+01	-6.00540115406E+00	-4.21708608936E-01
4.55339482165E+05	-8.87270178909E+00	1.47074551281E+02	7.48705483008E+00	-1.79995220609E+02	-5.16040539442E+01	1.14040436123E+02	-6.01055129723E+00	-4.34162759349E-01
4.77530836760E+05	-1.18564639897E+01	-1.55953044804E+02	7.45167491986E+00	-1.79942301647E+02	-4.52644081096E+01	1.13655073947E+02	-6.04820800019E+00	-1.82321809708E-01
4.99722191355E+05	-9.70480729790E+00	-1.76206902142E+02	7.42843436749E+00	1.79557975422E+02	-4.47285586048E+01	8.82762055952E+00	-5.98732431280E+00	-2.93492771629E-01
5.21913545950E+05	-1.15278406233E+01	1.64400998930E+02	7.46135093878E+00	1.79779055427E+02	-4.37916653641E+01	4.45863668632E+01	-6.03355741329E+00	-4.74293553860E-01
5.44104900545E+05	-9.17191395359E+00	-1.69999829127E+02	7.41154592280E+00	1.79450602783E+02	-3.77263047398E+01	1.18767192168E+02	-6.01781975874E+00	-5.86864656556E-01
5.66296255139E+05	-7.97482347497E+00	-1.68753068919E+02	7.46046528096E+00	1.79569923147E+02	-4.12258657067E+01	3.16152748576E+01	-6.04260249815E+00	-4.12153056461E-01
5.88487609734E+05	-1.12707083078E+01	-1.73095364655E+02	7.49595688616E+00	1.79292977744E+02	-4.25877771098E+01	-1.37378092322E+02	-6.05334039292E+00	-6.71580194745E-01
6.10678964329E+05	-7.97776930190E+00	1.65215006772E+02	7.43761623633E+00	1.78513195506E+02	-4.38358414035E+01	-1.57568723095E+01	-6.00917968153E+00	-2.99880944895E-01
6.32870318924E+05	-1.43369881184E+01	1.74306583295E+02	7.49270893543E+00	1.78821899126E+02	-4.08896625007E+01	3.79432123394E+01	-6.03094877701E+00	-5.19473892215E-01
6.55061673519E+05	-1.02816365109E+01	1.69560341982E+02	7.41978357396E+00	1.78270745874E+02	-4.73361796529E+01	7.38246317754E+01	-6.02859354404E+00	1.86513117292E-01
6.77253028114E+05	-8.43616345750E+00	1.72955518804E+02	7.42856692063E+00	1.78494942732E+02	-4.30347786830E+01	-5.69986805388E+01	-6.00142447144E+00	-5.84657227867E-01
6.99444382709E+05	-7.21143956121E+00	-1.56595914952E+02	7.48431551366E+00	1.78288033980E+02	-4.21180568723E+01	-1.48156029238E+01	-6.03032837676E+00	-5.09850200547E-01
7.21635737304E+05	-1.26341165901E+01	1.74500411589E+02	7.45782810743E+00	1.78073394025E+02	-3.74135756592E+01	1.73635114857E+02	-6.03511983451E+00	-6.43919200209E-01
7.43827091899E+05	-1.42755634231E+01	1.74806878292E+02	7.49430809488E+00	1.77961481670E+02	-4.44664039790E+01	-1.37475874016E+02	-6.00803419194E+00	-6.44732205314E-01
7.66018446494E+05	-1.27708793615E+01	-1.79585072001E+02	7.46824664484E+00	1.77683251173E+02	-3.83181852152E+01	9.71307025867E+01	-6.00797847679E+00	-1.13497067879E-01
7.88209801089E+05	-9.93978740967E+00	1.78863145103E+02	7.43991040523E+00	1.77105417604E+02	-4.87208776836E+01	1.32404648077E+02	-6.03895159473E+00	-6.37065169418E-01
8.10401155684E+05	-1.30950831425E+01	-1.77244045980E+02	7.48425896395E+00	1.77379767767E+02	-4.39781670877E+01	1.43572162088E+02	-6.02489479298E+00	-3.65655821965E-01
8.32592510279E+05	-7.88590935632E+00	1.71597769399E+02	7.47126617915E+00	1.77708330430E+02	-3.95008090212E+01	1.03104713155E+02	-6.01178409810E+00	-3.09198963552E-01
8.54783864874E+05	-9.65688765258E+00	-1.54072132381E+02	7.54050155147E+00	1.77451970245E+02	-3.62115632951E+01	-1.78043693542E+02	-6.03268403407E+00	-5.00842052774E-01
8.76975219469E+05	-1.13065805344E+01	-1.77678997458E+02	7.45250893829E+00	1.77433487582E+02	-4.99803881598E+01	-2.97187238651E+01	-6.02697756239E+00	-9.43247713052E-01
8.99166574064E+05	-1.06725323923E+01	1.66380491889E+02	7.44819085668E+00	1.76786341837E+02	-4.86169138721E+01	-1.41696244701E+02	-6.02856702556E+00	-4.35832376668E-01
9.21357928659E+05	-9.61614027236E+00	1.76010946955E+02	7.49753901275E+00	1.76513019705E+02	-4.08097148744E+01	1.75201494229E+02	-6.02247385548E+00	-5.16328495599E-01
9.43549283254E+05	-7.50437928551E+00	1.77145522550E+02	7.42834959141E+00	1.76624554612E+02	-4.89617043036E+01	1.81584963376E+01	-6.03047546693E+00	-3.65056389511E-01
9.65740637849E+05	-6.45288307529E+00	-1.69418525590E+02	7.52692071745E+00	1.76743123707E+02	-3.58724122614E+01	1.05737194673E+02	-6.04652130429E+00	-6.27322799040E-01
9.87931992444E+05	-8.25969746011E+00	-1.75094788704E+02	7.45796963892E+00	1.76836362769E+02	-3.87301192054E+01	7.60677197536E+01	-6.04466611777E+00	-7.40702108269E-01
1.01012334704E+06	-9.81148370544E+00	1.68249125818E+02	7.47146518004E+00	1.76513864950E+02	-4.32263025263E+01	2.69592561503E+01	-6.06335372523E+00	-5.46611415936E-01
1.03231470163E+06	-9.56626532673E+00	-1.75619779811E+02	7.40839596427E+00	1.76336180883E+02	-3.86364446717E+01	1.37787499753E+02	-6.02411912359E+00	-6.44261513628E-01
1.05450605623E+06	-1.19439129058E+01	-1.68827217242E+02	7.47722921290E+00	1.76131704010E+02	-4.86833320007E+01	7.94710373345E+01	-6.01908299835E+00	-8.14960485618E-01
1.07669741082E+06	-1.19470560926E+01	1.65956540417E+02	7.49207304955E+00	1.75658654621E+02	-4.13248977324E+01	-8.84140836947E+01	-5.95741565378E+00	-6.41082442045E-01
1.09888876542E+06	-1.13566122327E+01	-1.59655825260E+02	7.44087666342E+00	1.75084664047E+02	-4.04406334940E+01	-4.90158503286E+01	-6.01999868965E+00	-6.48863303531E-01
1.12108012001E+06	-1.06128609377E+01	1.71752315270E+02	7.49510441906E+00	1.75573017118E+02	-4.27512343415E+01	-9.79182533218E+01	-6.00072884156E+00	-3.82209087105E-01
1.14327147461E+06	-1.09737135471E+01	1.75821014076E+02	7.46638720884E+00	1.75689476078E+02	-3.91734397507E+01	1.15875394431E+02	-6.01919648591E+00	-6.77616208902E-01
1.16546282920E+06	-8.94778124032E+00	1.70705832455E+02	7.44960897389E+00	1.74758101386E+02	-4.23812396355E+01	3.98608237714E+01	-6.04555973738E+00	-7.14191143938E-01
1.18765418380E+06	-1.15281989940E+01	-1.72417391102E+02	7.49934905469E+00	1.75265558320E+02	-6.01509940238E+01	1.19767827592E+02	-6.03866721671E+00	-7.57706781196E-01
1.20984553839E+06	-7.44339968550E+00	-1.63227396728E+02	7.46131087589E+00	1.75294513102E+02	-3.76896569883E+01	1.39627604019E+02	-6.02470990348E+00	-7.20692236128E-01
1.23203689299E+06	-1.35112830670E+01	-1.58613104189E+02	7.45241299404E+00	1.74945718545E+02	-3.96362748783E+01	1.23389008141E+01	-6.05264065434E+00	-4.47730106203E-01
1.25422824758E+06	-1.08012017309E+01	1.75187387313E+02	7.43849612335E+00	1.75219602777E+02	-4.41429628294E+01	1.13509154495E+02	-6.06638863433E+00	-5.15755161209E-01
1.27641960218E+06	-7.52098348872E+00	-1.64127026536E+02	7.45374883784E+00	1.74834085096E+02	-4.34816844889E+01	4.83053422457E+01	-6.02812874341E+00	-6.72119931009E-01
1.29861095677E+06	-9.64172426100E+00	-1.75871731791E+02	7.40578306365E+00	1.74329706943E+02	-4.26032906643E+01	1.29088950870E+02	-6.06438222660E+00	-8.39852618074E-01
1.32080231137E+06	-1.18126262751E+01	1.54419224693E+02	7.43564064805E+00	1.74385331796E+02	-3.33506249797E+01	5.87911110768E+01	-6.04860452605E+00	-1.37974524292E+00
1.34299366596E+06	-9.42825609730E+00	1.63466385140E+02	7.42109058228E+00	1.74438011876E+02	-4.20545036312E+01	-3.49735020762E+00	-6.01820979507E+00	-7.01185710385E-01
1.36518502056E+06	-1.03306803558E+01	1.66650708912E+02	7.44417552124E+00	1.74178424280E+02	-3.91722832961E+01	-1.55540592354E+01	-6.02806909953E+00	-8.04503248959E-01
1.38737637515E+06	-7.84991794754E+00	-1.79249972131E+02	7.45287912785E+00	1.74099309087E+02	-6.18933198509E+01	-1.55535176161E+02	-6.05197854785E+00	-7.96434476875E-01
1.40956772975E+06	-9.83297995690E+00	1.69934392471E+02	7.42456677929E+00	1.73514263029E+02	-3.81237757874E+01	2.40010132379E+01	-5.98433154263E+00	-6.28941435501E-01
1.43175908434E+06	-8.66336751453E+00	1.75362392087E+02	7.38986393171E+00	1.73939889590E+02	-3.53690671370E+01	-1.51725799369E+02	-6.04238933501E+00	-4.87972702971E-01
1.45395043894E+06	-1.51559968314E+01	1.46918836475E+02	7.48349140906E+00	1.73885798389E+02	-4.30742124809E+01	6.11256714605E+01	-6.03470588732E+00	-9.17326736906E-01
1.47614179353E+06	-1.22042780230E+01	1.46121763396E+02	7.45791662883E+00	1.73703447859E+02	-4.19585429465E+01	8.70971774382E+01	-6.02901402368E+00	-6.03135531360E-01
1.49833314813E+06	-9.53164899279E+00	-1.78901658033E+02	7.43454651831E+00	1.73312274780E+02	-3.63038407536E+01	-1.14831260652E+02	-6.07655508718E+00	-1.03239074769E+00
1.52052450272E+06	-1.01576219619E+01	-1.54680912993E+02	7.50925588987E+00	1.73508141904E+02	-4.71559182741E+01	1.16539512908E+02	-6.01866756912E+00	-9.17481797140E-01
1.54271585732E+06	-1.19071118124E+01	-1.79091912014E+02	7.45977482100E+00	1.73732638065E+02	-4.32045018730E+01	-1.04780822971E+02	-6.02319603775E+00	-8.31408055222E-01
1.56490721191E+06	-1.10963732289E+01	1.54937818123E+02	7.42189689020E+00	1.72794270137E+02	-3.74003618750E+01	-2.42460085629E+01	-6.00466579977E+00	-9.61424035681E-01
1.58709856651E+06	-7.04826160457E+00	1.67855500980E+02	7.41128073885E+00	1.72761313544E+02	-3.62049171010E+01	1.39522726884E+02	-6.01710566697E+00	-1.05649926683E+00
1.60928992110E+06	-7.94701120841E+00	-1.74547655939E+02	7.51615766222E+00	1.72848993928E+02	-3.60500390422E+01	-7.44821296311E+01	-6.01925672809E+00	-9.56319162554E-01
1.63148127570E+06	-1.21947018790E+01	-1.71448109275E+02	7.43167029057E+00	1.72859602637E+02	-4.62197259080E+01	1.50558749159E+01	-6.02993461301E+00	-6.90047855582E-01
1.65367263029E+06	-9.58869624248E+00	1.78729814701E+02	7.47964748320E+00	1.72914319959E+02	-5.32323346737E+01	1.32830698565E+02	-6.03471151137E+00	-1.17702052524E+00
1.67586398489E+06	-1.22950842848E+01	1.58553262393E+02	7.52777203571E+00	1.72607484639E+02	-6.59350373712E+01	-8.03007557640E+01	-6.03336394831E+00	-8.93294368829E-01
1.69805533948E+06	-1.06256409867E+01	1.78062126601E+02	7.46161534946E+00	1.72009211942E+02	-4.24076533472E+01	-1.30314566186E+02	-6.00776040987E+00	-1.01720133384E+00
1.72024669408E+06	-1.25928264996E+01	-1.56064351545E+02	7.41675661153E+00	1.72547716829E+02	-3.90125036319E+01	6.90327715181E+01	-6.02350640082E+00	-8.81478661278E-01
1.74243804867E+06	-7.79223174132E+00	1.51973194407E+02	7.55886950048E+00	1.71953736425E+02	-3.72827936613E+01	1.55371423943E+02	-6.06739808522E+00	-9.21472900634E-01
1.76462940327E+06	-8.16196443359E+00	1.71140726605E+02	7.52461356823E+00	1.71672815598E+02	-4.25047807878E+01	2.46668962983E+01	-6.02690886598E+00	-8.75361340828E-01
1.78682075786E+06	-1.09229587478E+01	1.72910596828E+02	7.45884426006E+00	1.72257242310E+02	-4.05123236447E+01	7.89334933502E+01	-5.98901955436E+00	-5.89692985725E-01
1.80901211246E+06	-9.03286940078E+00	-1.60343865280E+02	7.43218359002E+00	1.71845457582E+02	-3.29556488248E+01	1.44630186082E+02	-6.04863716372E+00	-7.99035443437E-01
1.83120346705E+06	-1.16854907738E+01	1.65559385703E+02	7.47924460151E+00	1.71883303931E+02	-4.25264995869E+01	1.38547255167E+02	-6.01218360063E+00	-1.03157582219E+00
1.85339482165E+06	-1.08172273888E+01	1.77360211555E+02	7.48250157214E+00	1.71612348967E+02	-4.16564331620E+01	1.17573405895E+02	-6.00226090747E+00	-1.08254890858E+00
1.87558617624E+06	-9.18927472298E+00	1.60741931886E+02	7.46708006985E+00	1.71841359613E+02	-6.57774421753E+01	1.58329672664E+02	-6.03517000294E+00	-7.79956360232E-01
1.89777753084E+06	-1.09644498228E+01	-1.79254045745E+02	7.46793902380E+00	1.71467289712E+02	-3.34583271153E+01	-1.78643176651E+02	-6.00268273827E+00	-9.17386416626E-01
1.91996888543E+06	-8.30365260409E+00	1.60365709158E+02	7.46758099217E+00	1.71288730518E+02	-4.31939668333E+01	-9.29385394635E+01	-6.00594515990E+00	-1.04608544826E+00
1.94216024003E+06	-9.85437038255E+00	1.75560823335E+02	7.44575700891E+00	1.71312473210E+02	-4.08013053312E+01	-5.97576907877E+01	-6.03108021068E+00	-9.52999215410E-01
1.96435159462E+06	-1.03633647554E+01	1.71193662458E+02	7.40494992649E+00	1.71220265197E+02	-4.03589679048E+01	-9.02445207585E+01	-6.04602811658E+00	-9.39564134793E-01
1.98654294922E+06	-9.30663408820E+00	-1.59433198208E+02	7.47335705564E+00	1.70856057296E+02	-4.66569402438E+01	5.84638461382E+01	-5.99148651935E+00	-6.78913394058E-01
2.00873430381E+06	-1.00368433544E+01	-1.77979731108E+02	7.45516227182E+00	1.70984562303E+02	-3.69555868079E+01	-1.25521970843E+02	-6.03071048720E+00	-1.26209060679E+00
2.03092565841E+06	-8.67143785672E+00	1.58612669945E+02	7.48356083031E+00	1.70880994470E+02	-3.48087377231E+01	-3.54080887244E+01	-6.00223320263E+00	-1.08204863511E+00
2.05311701300E+06	-8.29867405925E+00	1.72145309037E+02	7.56927227326E+00	1.70362496059E+02	-3.50055710893E+01	1.57538371563E+02	-5.99077454639E+00	-8.98741061168E-01
2.07530836760E+06	-1.58553645938E+01	-1.42791814612E+02	7.41787621446E+00	1.70864140324E+02	-4.49943976751E+01	-1.53505193826E+02	-6.01027406653E+00	-1.31496002807E+00
2.09749972219E+06	-9.60759787310E+00	1.73833910868E+02	7.44511256272E+00	1.70655710732E+02	-4.40581022678E+01	-1.00842432408E+02	-5.98233358625E+00	-1.00271861553E+00
2.11969107679E+06	-1.50333844394E+01	-1.63794205195E+02	7.44904290160E+00	1.70543224889E+02	-3.47007858130E+01	-1.78168886015E+01	-5.98707133707E+00	-1.10824583207E+00
2.14188243138E+06	-1.18804967633E+01	1.52943512995E+02	7.44675290429E+00	1.70018772518E+02	-3.90818438047E+01	6.15077654885E+01	-6.03379453165E+00	-1.08430799911E+00
2.16407378598E+06	-9.66273522589E+00	1.75728403320E+02	7.38664336834E+00	1.70128855022E+02	-5.04473610540E+01	4.28598455247E+01	-6.02276164472E+00	-1.08527993893E+00
2.18626514057E+06	-1.02773003414E+01	-1.79879825900E+02	7.46841374777E+00	1.70310848764E+02	-4.63398652972E+01	-2.44087903479E+01	-6.03276689456E+00	-1.14850429087E+00
2.20845649517E+06	-1.40920175955E+01	1.64278939746E+02	7.41012179524E+00	1.69472720127E+02	-3.36709588912E+01	1.42044809099E+01	-5.89862704599E+00	-1.27718318557E+00
2.23064784976E+06	-1.12414407057E+01	-1.74828088633E+02	7.46304787083E+00	1.69723719677E+02	-3.78422932933E+01	8.18918010697E+01	-6.03209915473E+00	-8.25687745608E-01
2.25283920436E+06	-1.15285709429E+01	1.65868332785E+02	7.44293056300E+00	1.69648780973E+02	-5.77250033635E+01	-7.22565111695E+01	-6.02742149344E+00	-9.21137998017E-01
2.27503055895E+06	-1.15757960309E+01	1.46277573764E+02	7.46325283860E+00	1.69437847792E+02	-3.96902630113E+01	1.33788659900E+02	-5.97859824976E+00	-1.14775840149E+00
2.29722191355E+06	-1.14147422299E+01	1.68532877832E+02	7.44131580625E+00	1.69622172075E+02	-4.45526806184E+01	1.61588817472E+01	-5.99804404585E+00	-1.29200739809E+00
2.31941326814E+06	-1.06376215691E+01	1.70500572439E+02	7.45227966321E+00	1.69704494202E+02	-4.37107996633E+01	3.43138362102E+00	-6.06938923507E+00	-1.07878818648E+00
2.34160462274E+06	-1.11362816284E+01	-1.66286702164E+02	7.50167311314E+00	1.69341629699E+02	-4.43330671916E+01	-1.47989001522E+02	-6.05181707607E+00	-1.33243667835E+00
2.36379597733E+06	-9.01610139203E+00	1.50820334084E+02	7.50128168664E+00	1.69786529915E+02	-4.02616201693E+01	1.10939972488E+02	-6.07337539780E+00	-1.21655855542E+00
2.38598733193E+06	-1.27453740485E+01	1.75566499445E+02	7.48749633148E+00	1.69393317764E+02	-3.95350934802E+01	-7.56929849967E+01	-6.02977916429E+00	-9.96665715771E-01
2.40817868652E+06	-9.74326612100E+00	1.56659155646E+02	7.44649835823E+00	1.68830635123E+02	-3.86749498523E+01	-8.91603703496E+01	-6.02962672484E+00	-9.42891554459E-01
2.43037004112E+06	-1.17535108287E+01	1.53257190052E+02	7.42387243736E+00	1.68998605546E+02	-3.83995927944E+01	1.00818661673E+02	-5.99758944266E+00	-1.35974176286E+00
2.45256139571E+06	-1.19824302629E+01	1.68045315675E+02	7.47462410546E+00	1.68546634831E+02	-5.77861683526E+01	-1.04042530217E+01	-6.05756810919E+00	-1.06395491936E+00
2.47475275031E+06	-9.73665453970E+00	-1.76286452102E+02	7.50485389329E+00	1.68127417804E+02	-3.87494243823E+01	-2.89721057326E+01	-6.01889194643E+00	-1.26565119020E+00
2.49694410490E+06	-9.47720920963E+00	-1.72519867796E+02	7.46351770816E+00	1.68386797461E+02	-3.37877970731E+01	4.78595831066E+00	-6.02420121265E+00	-1.03859155924E+00
2.51913545950E+06	-7.73871002121E+00	1.61136855564E+02	7.48650265866E+00	1.68169960538E+02	-4.19958905532E+01	-2.36080023823E+01	-6.01655068678E+00	-8.94304969988E-01
2.54132681409E+06	-1.39724904857E+01	1.66788689910E+02	7.43352252554E+00	1.68299228609E+02	-4.10593975045E+01	1.71632050505E+02	-6.01764345918E+00	-1.22099336618E+00
2.56351816869E+06	-1.04820105422E+01	-1.73423141148E+02	7.46409542977E+00	1.67729515451E+02	-5.38518083811E+01	-1.61241206639E+02	-6.05732719836E+00	-1.21634909810E+00
2.58570952328E+06	-8.51729923317E+00	1.75880563173E+02	7.45291438117E+00	1.68469965162E+02	-4.49506798282E+01	1.46805073610E+02	-6.04760945006E+00	-1.15597957375E+00
2.60790087788E+06	-1.29199222450E+01	-1.57581632111E+02	7.45660646549E+00	1.67723427147E+02	-4.17208023931E+01	1.73448298785E+02	-6.00529785411E+00	-1.25484473936E+00
2.63009223247E+06	-1.15991278551E+01	1.75665340637E+02	7.47875965646E+00	1.67734482252E+02	-6.57565658320E+01	9.25890945300E+01	-6.02308578759E+00	-1.07850368272E+00
2.65228358707E+06	-9.69928317889E+00	1.64084171791E+02	7.45942812149E+00	1.67755134132E+02	-3.91796487845E+01	1.27730372293E+02	-6.02616461177E+00	-1.59131989697E+00
2.67447494166E+06	-1.13102493044E+01	1.77798500295E+02	7.41366755152E+00	1.67860500944E+02	-4.40008018350E+01	-8.25488566807E+01	-5.99449184485E+00	-1.16358845550E+00
2.69666629626E+06	-1.01643519349E+01	1.70069488315E+02	7.45912514470E+00	1.67272492518E+02	-3.82890324786E+01	-6.19419984062E+01	-6.05320920787E+00	-1.06526400126E+00
2.71885765085E+06	-1.04325940154E+01	1.72412491387E+02	7.41916941006E+00	1.67806405071E+02	-3.95285661450E+01	-3.00869583784E+01	-5.99247493063E+00	-1.25547165120E+00
2.74104900545E+06	-9.61613214768E+00	-1.74540159405E+02	7.44653789699E+00	1.67685598651E+02	-4.49819176506E+01	-1.02840728733E+02	-6.06841074787E+00	-1.12435138332E+00
2.76324036004E+06	-9.03346818673E+00	-1.77309615206E+02	7.44344137148E+00	1.67464414160E+02	-3.87370281898E+01	6.74122053600E+01	-6.02280509458E+00	-1.27560836765E+00
2.78543171463E+06	-1.02895224586E+01	-1.79807682094E+02	7.43085125110E+00	1.66913626470E+02	-4.75871701407E+01	-1.86339701065E+01	-6.00021762350E+00	-1.37299249997E+00
2.80762306923E+06	-9.45563896975E+00	-1.73751512605E+02	7.43283315732E+00	1.66938469844E+02	-4.05582756978E+01	-4.25716335413E+01	-6.02072692808E+00	-1.33913377013E+00
2.82981442382E+06	-1.09242933387E+01	1.70510101591E+02	7.51643292038E+00	1.67391850955E+02	-4.45487787694E+01	-9.26011892922E+01	-6.00867719664E+00	-1.21885508341E+00
2.85200577842E+06	-8.83333765040E+00	1.77747300347E+02	7.48025400689E+00	1.66995011652E+02	-4.19538711796E+01	-5.82429955656E+01	-5.99500636647E+00	-1.30157352155E+00
2.87419713301E+06	-1.25158994677E+01	1.59090209597E+02	7.42830846847E+00	1.66675387060E+02	-5.94551110491E+01	-1.50831127376E+02	-6.03379509986E+00	-1.38411129970E+00
2.89638848761E+06	-9.82604040803E+00	1.49489160729E+02	7.39664474909E+00	1.66713524269E+02	-3.78914206691E+01	-5.51300537549E+01	-6.01308031365E+00	-1.21941703948E+00
