# Hz S DB R 50
! CMT, M5065, 19127446, 24.2.4/2
! Date: 10/29/2024 1:12:43 PM
! Data: Format (Calibration Info)
! Freq	S11:dB/Ang(F2)	S21:dB/Ang(F2)	S12:dB/Ang(F2)	S22:dB/Ang(F2)
3.00000000000E+05	-1.10631204333E+01	-1.62632134061E+02	7.68945333691E+00	-1.77963135827E+02	-4.62621678970E+01	-1.38223771480E+02	-6.00352263725E+00	-2.61645683347E-01
3.22191354595E+05	-9.65204835174E+00	1.70150481176E+02	7.75654679945E+00	-1.78198782824E+02	-3.74368856628E+01	7.77078279968E+01	-6.00982863615E+00	-4.35246291803E-01
3.44382709190E+05	-1.19305389820E+01	1.73463635372E+02	7.83790038363E+00	-1.78750766300E+02	-3.45763107564E+01	-8.55037064038E+01	-6.02862397128E+00	3.10365008920E-02
3.66574063785E+05	-9.16947233994E+00	-1.55358409999E+02	7.89046867568E+00	-1.79034764138E+02	-3.94783016631E+01	2.09562832709E+00	-6.02502753564E+00	-3.99518041392E-01
3.88765418380E+05	-1.29567135791E+01	1.72411092359E+02	7.78639682758E+00	-1.78965283808E+02	-3.40074203622E+01	-1.85129029453E+01	-6.04022857885E+00	-6.46612290635E-01
4.10956772975E+05	-1.27311187392E+01	-1.47007041562E+02	7.85765420237E+00	-1.79136154921E+02	-4.24828751826E+01	4.22665026577E+01	-6.03831547574E+00	-3.83531503726E-01
4.33148127570E+05	-1.01731492609E+01	-1.58086996805E+02	7.74113176643E+00	-1.79649205980E+02	-4.26635372259E+01	-6.68175249555E+01	-5.98587355894E+00	-5.36977085858E-01
4.55339482165E+05	-1.01386688113E+01	-1.61438606504E+02	7.76470218967E+00	-1.79758823631E+02	-4.55891377536E+01	-6.95530249812E+00	-6.02769705277E+00	-2.34128082683E-01
4.77530836760E+05	-1.27649758340E+01	-1.69462457895E+02	7.74995700225E+00	1.79790378538E+02	-5.20133327415E+01	-7.16027580851E+01	-6.05237016373E+00	-4.61017305996E-01
4.99722191355E+05	-1.06989256809E+01	-1.68295957748E+02	7.79185127883E+00	1.79662477533E+02	-3.81121458834E+01	-2.05350006744E+00	-6.01209306835E+00	-6.66669943371E-01
5.21913545950E+05	-1.59097600168E+01	-1.75010198376E+02	7.84598093575E+00	1.79332109725E+02	-4.05317982171E+01	-8.80795179618E+01	-6.00912774405E+00	-1.40283855446E-01
5.44104900545E+05	-1.90771477112E+01	-1.77546489761E+02	7.77400542297E+00	1.79328882092E+02	-4.12268364529E+01	1.23467262471E+02	-5.99239899834E+00	-4.83275083096E-01
5.66296255139E+05	-1.32621780114E+01	1.48305327331E+02	7.79889166851E+00	1.78699820423E+02	-3.86167454443E+01	1.44520723750E+02	-6.00170064129E+00	-5.74605290721E-01
5.88487609734E+05	-7.56203817627E+00	-1.60730149258E+02	7.84390644140E+00	1.78616565930E+02	-4.12979665958E+01	-1.13637900450E+01	-6.00146624477E+00	-6.66626850250E-01
6.10678964329E+05	-1.13238831244E+01	-1.59085184180E+02	7.75495802162E+00	1.78808471566E+02	-4.16084807411E+01	3.05780856913E+01	-5.96356193331E+00	-1.29190195737E-01
6.32870318924E+05	-8.52662262986E+00	-1.56807578804E+02	7.85303541841E+00	1.78408711680E+02	-3.90849187892E+01	5.99621944026E+01	-6.02727027368E+00	-3.98935992583E-01
6.55061673519E+05	-1.01985976219E+01	-1.43593268627E+02	7.82284667803E+00	1.78618927121E+02	-4.55233113591E+01	6.21141755043E+01	-6.02056888557E+00	-1.81671675872E-01
6.77253028114E+05	-9.00849595121E+00	1.78291599386E+02	7.76460252560E+00	1.78252744254E+02	-4.49985999109E+01	-2.97188458632E+00	-6.03537471776E+00	-6.50160016522E-01
6.99444382709E+05	-6.48390541849E+00	1.77221368250E+02	7.81559772362E+00	1.78247187689E+02	-5.51818124021E+01	4.24660750501E+01	-5.99819185358E+00	-5.66483645666E-01
7.21635737304E+05	-9.95235465701E+00	-1.59089272051E+02	7.85818902527E+00	1.78347571511E+02	-4.06780035339E+01	-6.32262600974E+01	-6.02738280222E+00	-4.69222724869E-01
7.43827091899E+05	-9.92890909699E+00	1.69907800966E+02	7.79882078716E+00	1.77331179199E+02	-3.47789356213E+01	9.06803337426E+01	-6.04449281303E+00	-4.13837255827E-01
7.66018446494E+05	-1.14135918684E+01	1.63828132555E+02	7.82109206953E+00	1.77898894347E+02	-3.67640026829E+01	-1.50263560911E+02	-6.01298752392E+00	-5.08599103742E-01
7.88209801089E+05	-1.07001589914E+01	-1.77554348697E+02	7.78426416372E+00	1.77727232040E+02	-4.21715793246E+01	1.21936234602E+02	-6.03129953778E+00	-6.71573935685E-01
8.10401155684E+05	-9.08621988938E+00	-1.71170855050E+02	7.80789601777E+00	1.77653094027E+02	-3.41581292260E+01	-1.28094194442E+02	-6.00806831292E+00	-4.88808093925E-01
8.32592510279E+05	-8.92949494479E+00	-1.68184711958E+02	7.74837158644E+00	1.77428393663E+02	-3.78072836197E+01	-1.61212080697E+02	-6.00906914914E+00	-4.74505934249E-01
8.54783864874E+05	-8.30699877676E+00	1.65598724558E+02	7.78976913029E+00	1.76978732517E+02	-3.74276658611E+01	1.24932497126E+02	-6.03884902148E+00	-4.59047635139E-01
8.76975219469E+05	-9.37407787282E+00	-1.70422646211E+02	7.81443732301E+00	1.76481711402E+02	-4.25575863069E+01	1.61761915257E+02	-5.99741889222E+00	-7.92048396167E-01
8.99166574064E+05	-1.01477591400E+01	-1.64839106472E+02	7.83545057518E+00	1.76706459645E+02	-3.66239001894E+01	-1.22595553359E+02	-5.99494208254E+00	-8.10896521241E-01
9.21357928659E+05	-1.34547507986E+01	1.71168479072E+02	7.83383434018E+00	1.76905695964E+02	-4.68214003432E+01	5.22261773898E+01	-6.03276952071E+00	-7.43998543598E-01
9.43549283254E+05	-1.54795722618E+01	-1.78716013864E+02	7.80930435414E+00	1.76112528881E+02	-4.78028059402E+01	1.26755289095E+02	-6.05204347596E+00	-6.24901954303E-01
9.65740637849E+05	-8.38545683204E+00	-1.59942265259E+02	7.87444310331E+00	1.76560182423E+02	-4.10810507253E+01	1.05502190024E+02	-6.06804276030E+00	-6.14524614097E-01
9.87931992444E+05	-9.93077283345E+00	1.77520087789E+02	7.81067822303E+00	1.76267847014E+02	-4.43327810939E+01	1.19228205554E+02	-6.01820800972E+00	-4.94727435712E-01
1.01012334704E+06	-1.01377198698E+01	1.76946662821E+02	7.83532966664E+00	1.76080843624E+02	-4.15529904283E+01	3.17945805110E+01	-6.03567017235E+00	-8.20371563860E-01
1.03231470163E+06	-1.02669201338E+01	-1.71400560484E+02	7.82559959114E+00	1.76200388083E+02	-4.49795403388E+01	1.01952142026E+02	-6.05164738792E+00	-6.79559690901E-01
1.05450605623E+06	-1.22457393329E+01	1.60669108410E+02	7.77662538864E+00	1.75807287011E+02	-4.13005043289E+01	-5.63401473039E+01	-6.03888607547E+00	-3.51711153856E-01
1.07669741082E+06	-1.09556641195E+01	1.71547409097E+02	7.81024327301E+00	1.76152589780E+02	-3.63068803617E+01	-1.72155058270E+02	-6.02549466249E+00	-8.75188275651E-01
1.09888876542E+06	-8.33958718659E+00	1.75878576540E+02	7.79299245379E+00	1.75817945202E+02	-4.04130168063E+01	-1.48043232726E+02	-6.01006703550E+00	-3.90731373191E-01
1.12108012001E+06	-1.12301634035E+01	-1.75124693062E+02	7.80395015929E+00	1.75555463822E+02	-3.83098966375E+01	7.56936566074E+01	-6.04093929059E+00	-7.08038954376E-01
1.14327147461E+06	-8.70162777284E+00	-1.61310350211E+02	7.78531363128E+00	1.75732102167E+02	-5.10176401291E+01	-8.53304640758E+01	-6.05041869176E+00	-6.69168288992E-01
1.16546282920E+06	-9.29996553817E+00	1.70646789484E+02	7.81111722175E+00	1.75529708190E+02	-4.52153368295E+01	-2.19335636371E+01	-6.05488341510E+00	-9.23594269302E-01
1.18765418380E+06	-8.83723692451E+00	1.79691815202E+02	7.80464009798E+00	1.75172603927E+02	-4.20175189357E+01	9.84962101201E+01	-6.02335852802E+00	-4.10554144223E-01
1.20984553839E+06	-7.95396066437E+00	-1.68597870018E+02	7.79722460364E+00	1.74813618012E+02	-5.62810908688E+01	1.29845346948E+02	-6.02607040079E+00	-7.78304016068E-01
1.23203689299E+06	-1.00004957668E+01	1.67892196091E+02	7.77468565010E+00	1.75360604508E+02	-5.18902245914E+01	-1.05450730729E+02	-5.99593954446E+00	-5.03759800099E-01
1.25422824758E+06	-9.32066391710E+00	1.79365210534E+02	7.79385692251E+00	1.74690733320E+02	-4.59277063568E+01	-1.72485545092E+02	-6.08058670171E+00	-6.02055831060E-01
1.27641960218E+06	-1.07537939626E+01	1.64571579448E+02	7.85493681186E+00	1.74733581647E+02	-3.29457178161E+01	1.49636677413E+02	-6.04593563070E+00	-4.73900794102E-01
1.29861095677E+06	-8.60073700244E+00	-1.77762344949E+02	7.83822762671E+00	1.74862823184E+02	-3.92093591615E+01	-1.66494492843E+02	-6.05169648545E+00	-5.87676293588E-01
1.32080231137E+06	-1.15519080444E+01	-1.57837902549E+02	7.74788449222E+00	1.74545634192E+02	-4.24302254414E+01	-2.63651066427E+01	-6.03246805262E+00	-1.07098163338E+00
1.34299366596E+06	-8.11657769468E+00	1.76324416766E+02	7.81682294208E+00	1.74621279752E+02	-3.46241137981E+01	2.38935710774E+01	-6.01445962855E+00	-8.66092250502E-01
1.36518502056E+06	-1.40783769954E+01	1.69200329586E+02	7.85555677082E+00	1.73870163608E+02	-3.20491132875E+01	1.75273128725E+02	-6.01475866563E+00	-8.01798100131E-01
1.38737637515E+06	-1.12037587384E+01	-1.68896633028E+02	7.77577886101E+00	1.73777827151E+02	-3.73449843653E+01	1.07472440522E+02	-6.03097202744E+00	-5.92778563701E-01
1.40956772975E+06	-1.96538340556E+01	1.77526029383E+02	7.81955969788E+00	1.74003435485E+02	-5.50432966780E+01	1.48691191898E+02	-6.01970987281E+00	-9.39994574212E-01
1.43175908434E+06	-1.12318640241E+01	1.77187662740E+02	7.78629764884E+00	1.74032911465E+02	-5.19716015581E+01	1.50746517144E+02	-6.03326587508E+00	-5.69529734967E-01
1.45395043894E+06	-1.69538494901E+01	1.77031263419E+02	7.77270432390E+00	1.73540756152E+02	-5.69358552578E+01	-1.29319058782E+02	-6.00365160949E+00	-8.41165773949E-01
1.47614179353E+06	-1.09256901734E+01	1.63062877528E+02	7.78221314186E+00	1.73256430441E+02	-5.04373614140E+01	1.62976661777E+02	-6.01238028509E+00	-9.62253932487E-01
1.49833314813E+06	-1.13046663717E+01	1.68316189785E+02	7.84062208152E+00	1.73650977418E+02	-5.11538709379E+01	-8.15549956243E+01	-6.01044778239E+00	-5.36311053506E-01
1.52052450272E+06	-1.20951472046E+01	-1.65363793686E+02	7.82900532263E+00	1.72933402193E+02	-4.76208886523E+01	1.71833645087E+02	-5.99646318627E+00	-6.07020010723E-01
1.54271585732E+06	-9.16329893734E+00	1.68867211667E+02	7.79461584877E+00	1.73287921967E+02	-3.79030018579E+01	9.19296481914E+01	-6.00462289253E+00	-8.17836215201E-01
1.56490721191E+06	-8.64725547682E+00	1.62705585613E+02	7.76578732253E+00	1.72904203757E+02	-3.85577538241E+01	7.75650172233E+01	-6.01397230083E+00	-7.36711464536E-01
1.58709856651E+06	-1.17554575390E+01	1.62062330623E+02	7.77762056695E+00	1.72951163003E+02	-3.51244865031E+01	-1.65345158340E+02	-6.01097690424E+00	-7.01385579692E-01
1.60928992110E+06	-7.54304303671E+00	-1.61896794476E+02	7.80246349313E+00	1.72929028411E+02	-3.66100585044E+01	5.10814544227E+01	-6.01040619777E+00	-8.39961243051E-01
1.63148127570E+06	-7.69161525689E+00	-1.77261679088E+02	7.89361105732E+00	1.72933879816E+02	-4.97044461752E+01	1.67679769500E+02	-6.04306016292E+00	-1.06785649014E+00
1.65367263029E+06	-1.07023936873E+01	1.70389617719E+02	7.78861047155E+00	1.72396624949E+02	-3.46285068030E+01	7.72506963470E+00	-6.04691965996E+00	-6.96184032095E-01
1.67586398489E+06	-1.21719886720E+01	-1.79476500906E+02	7.74664361751E+00	1.72151068101E+02	-4.46887666917E+01	-5.76999076939E+01	-6.00503588961E+00	-7.20608661032E-01
1.69805533948E+06	-1.02366252580E+01	-1.56456645161E+02	7.76969646036E+00	1.72343398318E+02	-4.65787416608E+01	-2.17342792747E+01	-6.01682218736E+00	-9.29170442423E-01
1.72024669408E+06	-7.03890479024E+00	1.75533396218E+02	7.85010369597E+00	1.71929066303E+02	-4.14744869879E+01	-1.57771197000E+02	-6.00413828940E+00	-7.93656637486E-01
1.74243804867E+06	-9.75968248428E+00	-1.79115763931E+02	7.81609393907E+00	1.71991917382E+02	-4.13801595876E+01	-9.24179810183E+01	-6.06112005716E+00	-6.91262584279E-01
1.76462940327E+06	-1.66114118706E+01	1.44822026697E+02	7.82637837136E+00	1.72395176928E+02	-4.58289803491E+01	8.52039112752E+01	-6.07512692760E+00	-9.03460519531E-01
1.78682075786E+06	-6.39267917510E+00	-1.68108754389E+02	7.76365132973E+00	1.71569423294E+02	-4.08841863158E+01	-1.55467980924E+02	-6.04012413046E+00	-9.00206379908E-01
1.80901211246E+06	-8.67606424087E+00	1.68250387491E+02	7.81316903442E+00	1.71853906707E+02	-4.28886122693E+01	-1.05528933610E+02	-6.04512822402E+00	-9.25335980310E-01
1.83120346705E+06	-9.16717037708E+00	1.66612116719E+02	7.83124696992E+00	1.71668680422E+02	-3.68330873044E+01	5.69160145047E+01	-6.01424792219E+00	-1.11457008443E+00
1.85339482165E+06	-1.01618505652E+01	1.75720029594E+02	7.80022576362E+00	1.71653603082E+02	-4.12336369009E+01	-1.24640610566E+02	-6.02275738424E+00	-1.06814290994E+00
1.87558617624E+06	-1.21629162132E+01	1.71375730788E+02	7.81337974294E+00	1.71537274606E+02	-3.58556073685E+01	-8.56734800795E+01	-6.02512938083E+00	-7.55395288421E-01
1.89777753084E+06	-1.37533864603E+01	-1.61610596445E+02	7.76416265998E+00	1.71477837149E+02	-4.00041226429E+01	-1.51772182805E+02	-6.02254375031E+00	-1.08841149806E+00
1.91996888543E+06	-1.03856603347E+01	1.77520018292E+02	7.75741349343E+00	1.71133651755E+02	-5.75010097654E+01	1.20144998678E+02	-6.02198937614E+00	-8.60102513600E-01
1.94216024003E+06	-1.26525175292E+01	1.45511918360E+02	7.78370764888E+00	1.71094181733E+02	-4.08083039797E+01	-3.43382035653E+01	-6.01395110979E+00	-8.87432165597E-01
1.96435159462E+06	-1.05136853451E+01	1.74242610085E+02	7.80152341168E+00	1.70494325152E+02	-4.25184656089E+01	-1.71512915541E+02	-5.98157107419E+00	-1.08472393950E+00
1.98654294922E+06	-1.27309391290E+01	-1.72610987412E+02	7.78468811393E+00	1.71055922267E+02	-4.20954109661E+01	-1.47564008916E+02	-6.04435150612E+00	-9.02937739311E-01
2.00873430381E+06	-1.18014188988E+01	1.72543596355E+02	7.69610391073E+00	1.70204537156E+02	-6.66105643936E+01	1.88412197926E+01	-6.03752721849E+00	-1.12882853160E+00
2.03092565841E+06	-1.14066573377E+01	1.70587993779E+02	7.75797344746E+00	1.70636156968E+02	-4.42210130120E+01	-1.05285412298E+02	-6.04477949564E+00	-1.19486144384E+00
2.05311701300E+06	-1.15137038976E+01	1.70722558776E+02	7.80344353302E+00	1.71005603820E+02	-4.31079762574E+01	1.46695440111E+02	-5.99376742983E+00	-9.96802869151E-01
2.07530836760E+06	-1.08157846697E+01	1.73904175056E+02	7.86462366223E+00	1.70096403418E+02	-4.86004832326E+01	-1.54581336220E+02	-6.05810822162E+00	-1.27393506104E+00
2.09749972219E+06	-1.15941396460E+01	-1.59679188011E+02	7.77655399258E+00	1.70203048695E+02	-4.47957663291E+01	-1.36398069935E+02	-6.05171079394E+00	-1.08243533898E+00
2.11969107679E+06	-8.80081156182E+00	1.73584498638E+02	7.76396069718E+00	1.70213363054E+02	-3.59596480039E+01	-2.49559860176E+01	-6.04159458993E+00	-1.15994043322E+00
2.14188243138E+06	-7.83754891983E+00	1.66567104571E+02	7.79599783532E+00	1.70059051201E+02	-4.27292483876E+01	-7.09468608981E+01	-6.03692681267E+00	-1.02311185845E+00
2.16407378598E+06	-1.10803952568E+01	1.66790671628E+02	7.78385217862E+00	1.70307475924E+02	-3.95951170647E+01	1.04377072467E+02	-6.02146479993E+00	-8.98715284815E-01
2.18626514057E+06	-8.83886739727E+00	1.58105233581E+02	7.84637335483E+00	1.68850797164E+02	-3.96236876100E+01	-8.45644186350E+01	-6.01063364561E+00	-1.14331394936E+00
2.20845649517E+06	-1.49995424364E+01	1.73490402759E+02	7.78046191812E+00	1.70014062285E+02	-5.42796850651E+01	-1.26955819458E+02	-6.00025898612E+00	-1.29065043210E+00
2.23064784976E+06	-9.75075518591E+00	1.32345622064E+02	7.78817950166E+00	1.69498794614E+02	-4.24057374466E+01	1.16910661283E+02	-5.96674454724E+00	-9.95963357833E-01
2.25283920436E+06	-8.96921873962E+00	1.70189332100E+02	7.81134549089E+00	1.69586064238E+02	-3.43978516783E+01	-1.55790274805E+02	-6.03032615344E+00	-6.64404336930E-01
2.27503055895E+06	-1.34833315456E+01	1.50108296032E+02	7.80168875342E+00	1.69600352524E+02	-3.53803637587E+01	-7.30342192153E+01	-6.03292150609E+00	-1.31884179211E+00
2.29722191355E+06	-1.55560505612E+01	-1.73596460604E+02	7.75167782029E+00	1.69719835872E+02	-4.22954060353E+01	1.06900731488E+02	-6.00023913732E+00	-1.24846181188E+00
2.31941326814E+06	-1.17002006553E+01	1.77027874435E+02	7.86135030128E+00	1.69232469971E+02	-4.08219165529E+01	7.31129654674E+00	-5.99982908193E+00	-1.11480319747E+00
2.34160462274E+06	-7.77840340099E+00	-1.78665454137E+02	7.73472173209E+00	1.69156115297E+02	-3.87193126549E+01	-1.32429447993E+02	-6.00900598955E+00	-9.25579481825E-01
2.36379597733E+06	-7.07669949738E+00	1.79943014387E+02	7.79534673082E+00	1.69024454574E+02	-4.73997089451E+01	-3.07373314050E+01	-6.01219359333E+00	-1.09085412876E+00
2.38598733193E+06	-6.51102686411E+00	1.73372290853E+02	7.84752275273E+00	1.68257813749E+02	-3.94619522369E+01	3.28767262480E+01	-6.03401718118E+00	-1.12412228059E+00
2.40817868652E+06	-1.23582990702E+01	1.72611452997E+02	7.80047119916E+00	1.68808633451E+02	-4.59998141505E+01	4.98592526496E+01	-5.97612221055E+00	-1.11968644070E+00
2.43037004112E+06	-8.95236385312E+00	1.79408607424E+02	7.84375420435E+00	1.68405281845E+02	-3.52882751865E+01	-6.57141788865E+01	-5.95891366610E+00	-1.33081998292E+00
2.45256139571E+06	-1.32072829164E+01	1.79622477721E+02	7.79080000916E+00	1.68507825525E+02	-4.08579553573E+01	1.14488190243E+02	-6.04680288860E+00	-1.05831252644E+00
2.47475275031E+06	-1.05665320979E+01	1.77987110660E+02	7.80231454926E+00	1.68089705762E+02	-4.29608849904E+01	-9.61933091235E+01	-6.02986270016E+00	-1.10784920824E+00
2.49694410490E+06	-1.27400321417E+01	-1.72441257022E+02	7.79111262199E+00	1.68285379059E+02	-4.79884971015E+01	9.42455837354E+00	-6.01504855310E+00	-1.28837248041E+00
2.51913545950E+06	-7.42268303903E+00	1.65429239416E+02	7.82294971342E+00	1.68210359038E+02	-4.27815531044E+01	5.79560818798E+01	-6.02936927742E+00	-1.27805665816E+00
2.54132681409E+06	-9.42640783477E+00	1.74963487291E+02	7.82218872637E+00	1.68444046436E+02	-3.51918685022E+01	1.70181712059E+02	-6.03159107297E+00	-1.37009043669E+00
2.56351816869E+06	-1.00553572857E+01	1.70662350817E+02	7.80380732055E+00	1.67698654700E+02	-4.08598765665E+01	5.16989417011E+01	-6.02552039149E+00	-1.34730929878E+00
2.58570952328E+06	-7.99676147688E+00	-1.66467670661E+02	7.84859996935E+00	1.67919577180E+02	-3.78398002003E+01	-1.08990069340E+02	-6.06357325252E+00	-1.21607682502E+00
2.60790087788E+06	-1.06299330961E+01	1.52875913167E+02	7.82384166603E+00	1.67988781061E+02	-4.36623661521E+01	-1.18548796066E+02	-6.04913204992E+00	-1.41422896020E+00
2.63009223247E+06	-9.05871215186E+00	1.72657314536E+02	7.79498185903E+00	1.67741447736E+02	-4.43720625525E+01	-1.41804233554E+02	-6.04569422835E+00	-1.33695132330E+00
2.65228358707E+06	-1.27604682801E+01	1.73390941085E+02	7.79026220771E+00	1.68305841190E+02	-4.07845311629E+01	7.66985196009E+01	-6.05089731928E+00	-1.70665806455E+00
2.67447494166E+06	-1.21761859324E+01	1.59921537639E+02	7.73476606297E+00	1.67583065827E+02	-5.64299417489E+01	1.35424313034E+02	-6.05856944424E+00	-1.48057843862E+00
2.69666629626E+06	-1.27267360634E+01	-1.63343184877E+02	7.83514543066E+00	1.67294861834E+02	-5.74096196456E+01	1.64136865849E+02	-6.01799714412E+00	-1.28604071457E+00
2.71885765085E+06	-9.87573130626E+00	-1.79947617733E+02	7.77143694153E+00	1.67460839893E+02	-4.26438764177E+01	1.50356582162E+02	-6.06848751330E+00	-1.18559983317E+00
2.74104900545E+06	-1.10328371501E+01	1.72033648840E+02	7.82918539914E+00	1.67447980482E+02	-5.17111008498E+01	-5.21892719280E+01	-5.99404385480E+00	-1.21911925600E+00
2.76324036004E+06	-1.07543593439E+01	-1.76334775361E+02	7.79639511737E+00	1.66811838347E+02	-4.58080473716E+01	-2.34934727252E+01	-6.04361984020E+00	-1.58593228960E+00
2.78543171463E+06	-7.78900194864E+00	1.79298493738E+02	7.78975100323E+00	1.66757754395E+02	-3.57451875929E+01	4.95520021174E+01	-6.01199257064E+00	-1.24190516922E+00
2.80762306923E+06	-1.26665333646E+01	1.68391921252E+02	7.86427720251E+00	1.66618596342E+02	-3.51524240532E+01	1.29463059379E+02	-5.99408217554E+00	-1.59801062704E+00
2.82981442382E+06	-1.02104072144E+01	-1.72211940161E+02	7.77236403687E+00	1.66904391353E+02	-3.41148863788E+01	-9.16310926645E+01	-6.04142562789E+00	-1.37010673435E+00
2.85200577842E+06	-1.24861086349E+01	1.70992600947E+02	7.76919058143E+00	1.66482731811E+02	-3.77499051729E+01	6.45123290610E+01	-6.01405188368E+00	-1.28732493084E+00
2.87419713301E+06	-9.35814586983E+00	1.79530116843E+02	7.76845687616E+00	1.66467916703E+02	-4.53853349091E+01	9.72349789321E+01	-6.04750365219E+00	-1.43219102484E+00
