# Hz S DB R 50
! CMT, M5065, 19127446, 24.2.4/2
! Date: 10/29/2024 1:06:39 PM
! Data: Format (Calibration Info)
! Freq	S11:dB/Ang(F2)	S21:dB/Ang(F2)	S12:dB/Ang(F2)	S22:dB/Ang(F2)
3.00000000000E+05	-7.52827024986E+00	-1.69869749426E+02	6.11893071199E+00	-1.77365715537E+02	-3.26245613634E+01	-9.35935350506E+01	-6.03408702283E+00	-3.13430353057E-01
3.22191354595E+05	-9.05666794344E+00	-1.55461807884E+02	5.98645586341E+00	-1.77807717699E+02	-3.40540744709E+01	7.61673470039E+01	-6.02677798324E+00	-1.52609522423E-01
3.44382709190E+05	-9.64895932278E+00	-1.39492139075E+02	6.06076437062E+00	-1.78482051761E+02	-3.70699364470E+01	5.75909238097E+01	-6.00618212634E+00	-3.09905643120E-01
3.66574063785E+05	-8.99171878105E+00	-1.59300354918E+02	6.09267753790E+00	-1.78384649126E+02	-5.30182296184E+01	-6.99587703476E+01	-6.04366997111E+00	-3.29082659354E-01
3.88765418380E+05	-1.01101667484E+01	-1.76999967681E+02	6.11041535796E+00	-1.78827146740E+02	-4.46570718363E+01	6.03415727035E+01	-6.03023330264E+00	-1.44315032226E-01
4.10956772975E+05	-9.75246070430E+00	-1.67514720665E+02	6.10219602785E+00	-1.79269821618E+02	-4.43510920952E+01	-1.57548685031E+02	-6.05222230072E+00	-2.77172532031E-01
4.33148127570E+05	-1.36837728414E+01	1.53862243989E+02	6.10504078585E+00	-1.79609143673E+02	-4.46645282035E+01	1.62159452428E+02	-6.01242166486E+00	-2.95640215368E-01
4.55339482165E+05	-1.37995844848E+01	1.63474753486E+02	6.01789736244E+00	-1.79639469562E+02	-4.73401466080E+01	-1.31033530062E+02	-6.03449657979E+00	-2.93515515226E-01
4.77530836760E+05	-9.93542429188E+00	-1.53736918933E+02	6.03412745934E+00	-1.79640228132E+02	-5.26747658372E+01	-4.37279033846E+01	-6.01657463091E+00	-2.82177548264E-01
4.99722191355E+05	-1.27173202424E+01	-1.78462246524E+02	6.02660703170E+00	1.79768276152E+02	-3.78857529781E+01	1.30921994467E+02	-6.05842789132E+00	-3.35374994640E-01
5.21913545950E+05	-1.06241605534E+01	-1.46220739888E+02	6.09261145821E+00	1.79605497726E+02	-4.34329947857E+01	1.44434660241E+02	-6.03367903896E+00	-4.69294124675E-01
5.44104900545E+05	-9.56273508472E+00	1.73359583874E+02	6.03996112032E+00	1.79590260235E+02	-3.86988174311E+01	-1.23433570282E+02	-5.99148117145E+00	-4.29279004169E-01
5.66296255139E+05	-9.22200978770E+00	-1.79746219188E+02	6.14576242255E+00	1.79558436107E+02	-3.98687702074E+01	-1.30295861198E-02	-6.04679109362E+00	-2.14332407328E-01
5.88487609734E+05	-9.55748820143E+00	1.72513577684E+02	6.04484616313E+00	1.78897162835E+02	-4.07818709589E+01	-1.46464861786E+02	-6.01206993792E+00	-7.23223991485E-01
6.10678964329E+05	-1.86527606832E+01	1.72916899878E+02	6.02428972256E+00	1.79467378237E+02	-3.78349491849E+01	8.89482657760E+01	-6.02410277525E+00	-2.10848445172E-01
6.32870318924E+05	-1.54990547502E+01	1.46155665223E+02	6.08219973955E+00	1.78810997260E+02	-4.33748773121E+01	-8.04580663505E-01	-6.02980987321E+00	-3.57091729601E-01
6.55061673519E+05	-1.31218905273E+01	-1.51931873088E+02	6.05806497699E+00	1.78729688896E+02	-4.61283175948E+01	-2.17739232378E+01	-6.04603174547E+00	-3.93376648119E-01
6.77253028114E+05	-1.11280504585E+01	-1.63199870289E+02	6.05489579848E+00	1.78513356930E+02	-3.82546530222E+01	1.10859540202E+02	-5.99885087935E+00	-4.83754616461E-01
6.99444382709E+05	-1.21539858802E+01	1.77820161185E+02	6.03763401056E+00	1.78549505372E+02	-3.74843914689E+01	-8.83380082123E+01	-6.05909515011E+00	-3.96910159329E-01
7.21635737304E+05	-1.03755450294E+01	1.74212799259E+02	6.08870715591E+00	1.78239270239E+02	-4.08901414596E+01	-5.71409933865E+00	-6.04486359208E+00	-5.21392536056E-01
7.43827091899E+05	-7.44112773547E+00	-1.73953926907E+02	6.08756995808E+00	1.78285251604E+02	-3.53929577862E+01	-2.89907843465E+01	-6.03744386852E+00	-3.41999583264E-01
7.66018446494E+05	-1.01287644724E+01	-1.55800553880E+02	6.05551408560E+00	1.78172592069E+02	-4.84124863449E+01	-1.33052277503E+02	-6.04210175298E+00	-5.53837872101E-01
7.88209801089E+05	-9.18591997394E+00	1.79440927213E+02	6.03917674614E+00	1.77781615126E+02	-3.49161264497E+01	-1.00216824895E+02	-6.03939140454E+00	-7.31161307511E-01
8.10401155684E+05	-1.09347544951E+01	-1.79883346236E+02	6.01440448684E+00	1.77838030321E+02	-3.97939883428E+01	6.82085795392E+01	-6.04405907289E+00	-6.35150744066E-01
8.32592510279E+05	-7.47280573701E+00	-1.76862908468E+02	6.02351223308E+00	1.77656790620E+02	-4.57331210285E+01	1.26025379973E+02	-6.00957506250E+00	-3.66017353717E-01
8.54783864874E+05	-9.58908702599E+00	-1.56793510099E+02	6.05279795529E+00	1.77336398106E+02	-3.87563842145E+01	2.18088904820E+00	-6.01913062859E+00	-5.31071861268E-01
8.76975219469E+05	-1.24910800564E+01	1.62566575391E+02	6.10753052817E+00	1.77321052811E+02	-3.92979857528E+01	7.86331794529E+01	-6.00810483318E+00	-4.83094090836E-01
8.99166574064E+05	-9.08912492670E+00	1.78087157437E+02	6.05675846747E+00	1.77180251923E+02	-4.06473857648E+01	-1.10506692090E+02	-6.01142685055E+00	-5.24860717174E-01
9.21357928659E+05	-1.47588666861E+01	-1.45045070410E+02	6.07717771253E+00	1.77338983722E+02	-4.21229775392E+01	-1.12417144322E+02	-6.03336753793E+00	-4.85204119942E-01
9.43549283254E+05	-1.66950252492E+01	-1.64806351422E+02	6.01368053687E+00	1.76777650994E+02	-3.71768008677E+01	1.98581139148E+00	-5.99612757366E+00	-5.97936199843E-01
9.65740637849E+05	-1.23700023011E+01	-1.72008328435E+02	6.10723346043E+00	1.77413632570E+02	-3.94189520853E+01	-1.48586857252E+02	-6.04870464963E+00	-3.92956663128E-01
9.87931992444E+05	-1.20645552196E+01	1.71855534972E+02	6.05517472189E+00	1.76822074454E+02	-3.72429783877E+01	9.91133576008E+01	-6.01387525173E+00	-6.99201239017E-01
1.01012334704E+06	-7.56548457020E+00	1.68905337568E+02	6.06577454937E+00	1.76523282809E+02	-5.02515822153E+01	-1.50002792500E+02	-6.02477323714E+00	-3.42971697740E-01
1.03231470163E+06	-1.17881622025E+01	1.67105639621E+02	6.10426920097E+00	1.76283592893E+02	-3.98232598833E+01	1.42984647040E+01	-6.04080874938E+00	-4.84563810256E-01
1.05450605623E+06	-1.13476016452E+01	-1.68178112490E+02	6.04149253550E+00	1.75778252747E+02	-4.84287281724E+01	-1.27473639004E+01	-6.04289358422E+00	-7.10018369296E-01
1.07669741082E+06	-1.07760271102E+01	-1.57430207049E+02	6.04055833562E+00	1.76171603466E+02	-3.72302110370E+01	-6.55597138163E+01	-6.03309508376E+00	-5.62192898145E-01
1.09888876542E+06	-8.56899549119E+00	-1.75403386294E+02	5.99687898770E+00	1.75740280657E+02	-3.59658732631E+01	1.28114140722E+02	-6.05678744413E+00	-6.15348975198E-01
1.12108012001E+06	-1.34294621121E+01	-1.72221214880E+02	6.09268892387E+00	1.76360096345E+02	-4.06050936497E+01	-3.34359868658E+01	-6.01725648999E+00	-6.20999893965E-01
1.14327147461E+06	-9.42286771311E+00	-1.79434077173E+02	6.06441756343E+00	1.75557815254E+02	-3.54315978377E+01	-1.00033737400E+02	-5.99073628890E+00	-5.16177353495E-01
1.16546282920E+06	-1.15052680452E+01	-1.74945637938E+02	6.03135712476E+00	1.75682482388E+02	-3.70620830526E+01	4.78850179353E+01	-6.03670377328E+00	-7.22269542380E-01
1.18765418380E+06	-1.22634994057E+01	-1.78337321858E+02	6.10659975835E+00	1.75734911152E+02	-3.53434095687E+01	1.42526756352E+02	-6.07802324498E+00	-6.89336894123E-01
1.20984553839E+06	-1.07403798294E+01	1.70083098031E+02	6.00386432609E+00	1.75388407724E+02	-3.86973963743E+01	-1.19595950879E+01	-6.02102494690E+00	-1.09105395776E+00
1.23203689299E+06	-1.57302762118E+01	-1.49171530057E+02	6.02513355231E+00	1.75280004207E+02	-4.74200520453E+01	8.21459598384E+01	-6.02524879412E+00	-6.95626002211E-01
1.25422824758E+06	-1.25481028238E+01	1.58639517124E+02	6.10971902702E+00	1.75655454702E+02	-3.79297991902E+01	-1.32964247030E+02	-6.02310181438E+00	-7.27019779746E-01
1.27641960218E+06	-1.18193539351E+01	-1.65021362477E+02	6.09596676735E+00	1.75831579656E+02	-3.94228820951E+01	-1.68031219372E+02	-6.01190402873E+00	-5.31892932500E-01
1.29861095677E+06	-1.19297491948E+01	1.59954763364E+02	6.05569120641E+00	1.75127913283E+02	-3.93596222313E+01	1.39384910926E+02	-6.03775514144E+00	-8.82468716638E-01
1.32080231137E+06	-1.14111866826E+01	-1.68606599137E+02	6.08529338628E+00	1.74560300468E+02	-3.73309132378E+01	-1.90163556627E+01	-6.02113263483E+00	-9.76980045819E-01
1.34299366596E+06	-9.94815988152E+00	1.78041268617E+02	6.07854782034E+00	1.74347055677E+02	-3.52875262103E+01	-1.25971232338E+02	-6.03395860937E+00	-6.58310482334E-01
1.36518502056E+06	-9.84132812782E+00	1.46785517069E+02	6.05281037875E+00	1.74508993360E+02	-5.12455519026E+01	1.62169642282E+02	-5.99300676126E+00	-7.80901949281E-01
1.38737637515E+06	-1.55457808841E+01	1.51954799932E+02	6.01443004645E+00	1.74881800399E+02	-4.23574500370E+01	-9.98583650956E+01	-6.00909160493E+00	-7.02811045153E-01
1.40956772975E+06	-1.42192626972E+01	1.66232285727E+02	6.09914491015E+00	1.74490980936E+02	-4.57736879779E+01	3.63258649520E+01	-6.01698200465E+00	-7.51672346440E-01
1.43175908434E+06	-9.06383335844E+00	1.73881970840E+02	6.04704243695E+00	1.74791438321E+02	-3.34122297840E+01	-1.15887609885E+02	-6.00353731885E+00	-8.10010132756E-01
1.45395043894E+06	-1.22717181213E+01	-1.77860039453E+02	6.08912414959E+00	1.74648322504E+02	-4.41439516136E+01	-1.02086314294E+02	-6.00577487940E+00	-9.07172683310E-01
1.47614179353E+06	-8.69185428615E+00	1.72332558859E+02	6.08488665341E+00	1.73798532388E+02	-3.69153758186E+01	8.40133123370E+00	-6.02486842893E+00	-1.08518752930E+00
1.49833314813E+06	-1.26340065549E+01	-1.77932992448E+02	6.05400135841E+00	1.73614810224E+02	-3.90234979465E+01	-1.27604598094E+01	-6.01236888909E+00	-8.44614705080E-01
1.52052450272E+06	-7.39613350691E+00	-1.79151382189E+02	6.02956350204E+00	1.74570440217E+02	-4.24393781489E+01	1.09724624376E+02	-6.01784049918E+00	-1.00057240518E+00
1.54271585732E+06	-1.09484888153E+01	-1.64716853032E+02	6.12056264903E+00	1.73624162482E+02	-4.98366899291E+01	1.71774610605E+02	-6.00511619007E+00	-6.94762643103E-01
1.56490721191E+06	-1.31108966257E+01	-1.75672887762E+02	6.04162710245E+00	1.73469469077E+02	-3.93449964665E+01	-5.97524501293E+01	-6.04528995630E+00	-7.65058736118E-01
1.58709856651E+06	-9.37896625443E+00	1.58837403315E+02	6.05999613813E+00	1.73645962093E+02	-3.94052559581E+01	-7.25060950860E+01	-5.98708168889E+00	-6.76009456957E-01
1.60928992110E+06	-1.31134633895E+01	-1.77173746243E+02	5.99532133964E+00	1.72814679820E+02	-3.62972732145E+01	-1.19916973707E+02	-6.05473232282E+00	-7.54438531799E-01
1.63148127570E+06	-8.18268780398E+00	-1.79256145118E+02	6.12479333654E+00	1.73353492093E+02	-3.69010585039E+01	9.33449899828E+01	-6.06094956551E+00	-1.10156083315E+00
1.65367263029E+06	-7.65142832200E+00	1.79556995173E+02	6.11743495542E+00	1.72719666205E+02	-3.87766925444E+01	1.57596797317E+02	-6.01451740259E+00	-8.26514980982E-01
1.67586398489E+06	-7.20899404006E+00	1.79788545179E+02	6.12552727324E+00	1.72150004210E+02	-4.30603542225E+01	1.45116443383E+02	-6.00326861172E+00	-8.24407971341E-01
1.69805533948E+06	-1.04412988281E+01	-1.62116774982E+02	6.01114813577E+00	1.73250313586E+02	-4.48955720011E+01	7.06376904182E+01	-6.01537057521E+00	-8.50497206487E-01
1.72024669408E+06	-1.38694983885E+01	-1.74196411433E+02	6.06517024662E+00	1.72682318863E+02	-4.40725066760E+01	-8.26733483561E+01	-6.02322283747E+00	-1.08399342771E+00
1.74243804867E+06	-1.72487492492E+01	1.43794115004E+02	5.97448898873E+00	1.72711034889E+02	-3.93617912239E+01	-1.49348904949E+02	-6.03075778668E+00	-7.90925716629E-01
1.76462940327E+06	-1.06878923076E+01	-1.78566207227E+02	6.03222467391E+00	1.72316972825E+02	-4.16970169871E+01	1.49654101018E+02	-6.07679793380E+00	-1.31893567195E+00
1.78682075786E+06	-1.51617800224E+01	-1.76726442663E+02	6.05811726957E+00	1.72271280854E+02	-3.92144498656E+01	-1.65158571505E+02	-6.05540879908E+00	-1.10534699870E+00
1.80901211246E+06	-1.00964265370E+01	1.70174189365E+02	6.11814011581E+00	1.72490510681E+02	-4.47951246787E+01	-1.69364013579E+02	-6.04523250484E+00	-1.10216069024E+00
1.83120346705E+06	-9.73075221068E+00	1.77962963833E+02	5.98916357839E+00	1.72612354499E+02	-3.94000539199E+01	-7.58042116198E+01	-6.05085327486E+00	-9.78615352021E-01
1.85339482165E+06	-8.65490035252E+00	1.72667007170E+02	6.12394725440E+00	1.72147720649E+02	-4.25671281469E+01	1.23356351102E+02	-5.97667061960E+00	-8.20476893080E-01
1.87558617624E+06	-1.10060253895E+01	1.74031705800E+02	6.04302666589E+00	1.71943236238E+02	-3.76465623961E+01	7.49328417008E+01	-6.01829840259E+00	-8.72628150374E-01
1.89777753084E+06	-1.35755275099E+01	1.73436076665E+02	6.06235603565E+00	1.71971755858E+02	-3.74661943336E+01	-5.26774260342E+01	-6.02769080390E+00	-6.37767399490E-01
1.91996888543E+06	-1.17691973633E+01	-1.60940007341E+02	6.05131485952E+00	1.71753536418E+02	-4.09998616286E+01	-1.76542630003E+02	-6.02919612555E+00	-1.04506659387E+00
1.94216024003E+06	-9.56098669858E+00	-1.69905011698E+02	5.98918287580E+00	1.71640553495E+02	-3.91077417205E+01	1.84325894692E+01	-6.01730872530E+00	-1.02328271996E+00
1.96435159462E+06	-1.04465327212E+01	-1.48731672978E+02	6.13316496155E+00	1.72109212163E+02	-3.54275516627E+01	1.22924524587E+02	-6.03619432045E+00	-1.05459601157E+00
1.98654294922E+06	-8.62704135101E+00	-1.67373623627E+02	6.07235067224E+00	1.71735076421E+02	-3.82509332297E+01	-1.02873710782E+02	-6.03375786289E+00	-1.07167062720E+00
2.00873430381E+06	-1.18476400375E+01	-1.78307122950E+02	6.05335450350E+00	1.70925528479E+02	-3.65781810304E+01	8.07783744531E+01	-6.01045848925E+00	-8.01818299168E-01
2.03092565841E+06	-1.11471727844E+01	1.75627126356E+02	6.05906349107E+00	1.71146501692E+02	-4.94007390672E+01	-9.98728932457E+01	-6.02423703204E+00	-1.22876557060E+00
2.05311701300E+06	-8.99769873361E+00	1.69550855437E+02	6.09389422249E+00	1.71327963035E+02	-4.96060178984E+01	-5.04798002420E+01	-6.01275326390E+00	-1.03908967495E+00
2.07530836760E+06	-1.09883170664E+01	1.71767050877E+02	6.07276483230E+00	1.70969663012E+02	-4.08678522449E+01	-1.43045785229E+02	-6.03596238189E+00	-8.75711273833E-01
2.09749972219E+06	-9.91835470719E+00	1.68749973646E+02	6.03126559173E+00	1.71143763164E+02	-3.49064234273E+01	-7.24921556242E+01	-6.07777113465E+00	-9.02104884957E-01
2.11969107679E+06	-1.17654694991E+01	-1.69496106027E+02	6.01397523020E+00	1.70852016444E+02	-3.47757681130E+01	1.42512913725E+02	-5.99973551910E+00	-1.08076786849E+00
2.14188243138E+06	-8.97690482664E+00	-1.65418256749E+02	6.08210675384E+00	1.70463820999E+02	-3.83507668394E+01	-7.36031644944E+01	-6.01748196781E+00	-1.00665711789E+00
2.16407378598E+06	-9.72619594850E+00	-1.70312603052E+02	6.13441534853E+00	1.71713171585E+02	-3.94141776054E+01	1.42429362214E+02	-6.00600463136E+00	-8.90203798555E-01
2.18626514057E+06	-9.11623554085E+00	1.65466372720E+02	6.06390156787E+00	1.70619448444E+02	-4.25013366742E+01	1.55901218154E+02	-6.00949310425E+00	-9.13832951477E-01
2.20845649517E+06	-1.29570972164E+01	1.66503351436E+02	6.06318511263E+00	1.70789804032E+02	-4.37358222697E+01	7.63282207993E+00	-6.02422244131E+00	-1.32944971302E+00
2.23064784976E+06	-1.10428555061E+01	-1.58679369648E+02	6.09457623973E+00	1.70624738063E+02	-3.28993131827E+01	-1.31214170397E+02	-6.05840205535E+00	-1.06072163559E+00
2.25283920436E+06	-8.02731693498E+00	1.67770307981E+02	5.98051073515E+00	1.70094904137E+02	-3.39088874181E+01	4.48476992608E+01	-5.99672795403E+00	-7.67545793706E-01
2.27503055895E+06	-8.96242975070E+00	-1.72483740756E+02	6.00836997535E+00	1.70599894688E+02	-4.72055740060E+01	6.02972056642E+01	-5.99928668684E+00	-1.17008909349E+00
2.29722191355E+06	-1.25871212625E+01	-1.74210036542E+02	6.02443588548E+00	1.70682433299E+02	-3.31723873352E+01	1.24202222155E+02	-6.01140239809E+00	-1.02492054098E+00
2.31941326814E+06	-1.07582670650E+01	1.55217241095E+02	5.98808526420E+00	1.69720984855E+02	-5.09495546184E+01	-7.24142580363E+01	-6.05156538491E+00	-1.12022996879E+00
2.34160462274E+06	-1.15850810143E+01	1.57340937915E+02	5.96857725206E+00	1.69792230386E+02	-5.05458989461E+01	9.08980847525E+01	-6.03375313534E+00	-1.15302080045E+00
2.36379597733E+06	-1.10756955006E+01	1.76541462755E+02	6.05751823322E+00	1.69915205892E+02	-4.57716290431E+01	-1.79720316866E+02	-5.99687369918E+00	-1.05486525666E+00
2.38598733193E+06	-1.16001238396E+01	-1.77281851592E+02	6.06520037097E+00	1.69246265279E+02	-4.33870826354E+01	-1.62897230013E+02	-6.02946553489E+00	-1.03035701386E+00
2.40817868652E+06	-1.73034740742E+01	1.70992519305E+02	6.06627718792E+00	1.69995759829E+02	-3.68735627495E+01	9.75611244368E+00	-6.01863317103E+00	-1.00427896152E+00
2.43037004112E+06	-7.87957667923E+00	1.70347706868E+02	6.03841576328E+00	1.69633299794E+02	-4.57965723629E+01	-4.78870173842E+01	-6.06406078848E+00	-1.57666366308E+00
2.45256139571E+06	-1.21212139195E+01	-1.73030826221E+02	6.10034169486E+00	1.69046094026E+02	-4.33935148934E+01	6.00545133757E+01	-6.00083279693E+00	-9.76685325532E-01
2.47475275031E+06	-1.07937449377E+01	-1.78116985153E+02	6.05167642479E+00	1.68920963837E+02	-3.98262101333E+01	2.48366832816E+01	-6.00971113799E+00	-1.40482601763E+00
2.49694410490E+06	-1.07547849078E+01	1.72516354415E+02	6.06155147808E+00	1.69193778079E+02	-4.38490084209E+01	-1.30200627124E+02	-6.00578103407E+00	-1.24173207900E+00
2.51913545950E+06	-1.07576064706E+01	1.74256294291E+02	6.06420470089E+00	1.69529654624E+02	-4.52664029827E+01	7.28983491756E+01	-6.00965337278E+00	-1.09966391395E+00
2.54132681409E+06	-7.93716747434E+00	1.78645965062E+02	6.10192749419E+00	1.69093097596E+02	-3.14089583753E+01	-3.72436725648E+01	-6.03070314964E+00	-1.38751735591E+00
2.56351816869E+06	-8.94991473979E+00	1.70499045431E+02	6.04444870811E+00	1.68924462165E+02	-3.67781940147E+01	1.31535284663E+02	-6.03309609777E+00	-9.42001409549E-01
2.58570952328E+06	-1.27480960456E+01	-1.71222631099E+02	6.06461985413E+00	1.68890795801E+02	-4.35309363284E+01	1.22281770636E+02	-6.02541381048E+00	-1.03689475677E+00
2.60790087788E+06	-1.22180994118E+01	-1.63483538459E+02	6.14674534252E+00	1.68343359148E+02	-3.71865317609E+01	-1.34201829490E+01	-6.02159907900E+00	-1.12430900792E+00
2.63009223247E+06	-1.11783256459E+01	1.71008764022E+02	6.10677210564E+00	1.68601619647E+02	-3.86552874400E+01	-1.38423770989E+02	-6.03317996400E+00	-1.24206090314E+00
2.65228358707E+06	-7.29867614768E+00	1.63411310736E+02	6.08436689312E+00	1.68169625874E+02	-5.43678505273E+01	9.00021273213E+01	-6.01288719184E+00	-1.73708819884E+00
2.67447494166E+06	-9.03780093983E+00	1.71564850893E+02	6.04378890892E+00	1.67822418167E+02	-4.15350912279E+01	-3.52336552906E+01	-6.03551503900E+00	-1.28959361320E+00
2.69666629626E+06	-1.05598666773E+01	1.67849044968E+02	6.07778244744E+00	1.68550693494E+02	-3.87238163262E+01	8.54518291406E+01	-6.00764004275E+00	-1.67852517721E+00
2.71885765085E+06	-8.88870172115E+00	-1.76711099115E+02	6.01508709415E+00	1.68045853707E+02	-4.69779824808E+01	-1.40038937805E+02	-6.01885080454E+00	-1.38043231344E+00
2.74104900545E+06	-1.19786489138E+01	-1.70041920505E+02	6.06888042112E+00	1.67757832886E+02	-4.44374344494E+01	-1.76067187027E+02	-6.02829207675E+00	-1.22341891456E+00
2.76324036004E+06	-8.32651106853E+00	1.68754017441E+02	6.05986471632E+00	1.68122841939E+02	-5.52540450677E+01	6.90469947269E+01	-6.00599149073E+00	-1.23974814256E+00
2.78543171463E+06	-7.71043997025E+00	-1.73190911428E+02	6.08224893013E+00	1.68103255958E+02	-4.72631694764E+01	-3.47980274703E+01	-6.04085277467E+00	-1.24069780581E+00
2.80762306923E+06	-1.25865501184E+01	-1.74970499510E+02	6.02494443997E+00	1.67769706982E+02	-6.04805954163E+01	1.40790439041E+02	-6.01562046724E+00	-1.33895204472E+00
2.82981442382E+06	-7.58615839303E+00	-1.77626290090E+02	6.05119657127E+00	1.67643921227E+02	-3.65919340898E+01	9.32052896296E+01	-6.00820256259E+00	-1.26654278306E+00
2.85200577842E+06	-9.55766921277E+00	1.79733549109E+02	6.04458005748E+00	1.67902908279E+02	-4.24298776831E+01	-5.59621922992E+01	-6.02499926157E+00	-1.30933162386E+00
2.87419713301E+06	-1.20159481621E+01	-1.71825808598E+02	6.01216713876E+00	1.67673622223E+02	-4.30210394138E+01	8.17295991846E+01	-6.03827571652E+00	-1.32206996949E+00
