# Hz S DB R 50
! CMT, M5065, 19127446, 24.2.4/2
! Date: 10/29/2024 1:14:55 PM
! Data: Format (Calibration Info)
! Freq	S11:dB/Ang(F2)	S21:dB/Ang(F2)	S12:dB/Ang(F2)	S22:dB/Ang(F2)
3.00000000000E+05	-9.07131203698E+00	1.67302205391E+02	8.59611482924E+00	-1.78005992998E+02	-3.62097289505E+01	1.53442443445E+02	-6.03748935843E+00	-3.28272819141E-01
3.22191354595E+05	-9.53188325188E+00	-1.54637751394E+02	8.63482499277E+00	-1.78250152844E+02	-3.50948490071E+01	1.15320560635E+02	-6.00200555007E+00	-9.06414947966E-02
3.44382709190E+05	-9.61097399861E+00	1.78514576319E+02	8.62179695631E+00	-1.78899696371E+02	-5.84099713976E+01	-1.52322351140E+02	-6.01144911253E+00	-2.74792319513E-01
3.66574063785E+05	-7.64116525375E+00	-1.71736151278E+02	8.55108382306E+00	-1.78743315366E+02	-3.77755156998E+01	7.60781569831E+01	-6.00761622997E+00	-4.08781539481E-01
3.88765418380E+05	-8.16856436368E+00	-1.65875305615E+02	8.64069967518E+00	-1.79323584220E+02	-3.28823931950E+01	-9.60435784108E+01	-6.01878871113E+00	-2.29682475309E-01
4.10956772975E+05	-9.90007242235E+00	1.54696781908E+02	8.57155758374E+00	-1.79661618773E+02	-4.25908535803E+01	-1.14739941793E+02	-6.02278650034E+00	-2.74257147687E-01
4.33148127570E+05	-9.54101546194E+00	-1.53707042268E+02	8.55011780332E+00	-1.79817793876E+02	-4.32912077762E+01	3.76860210826E+01	-6.04142218002E+00	-5.44744388737E-01
4.55339482165E+05	-7.61109061203E+00	1.72974846416E+02	8.62846549627E+00	-1.79911999568E+02	-5.46752855571E+01	-2.20329375556E+01	-6.00012379343E+00	-1.99694119800E-02
4.77530836760E+05	-7.70029983359E+00	1.63442500804E+02	8.60335367898E+00	1.79580892482E+02	-4.07097924848E+01	4.79800813014E+00	-6.03618492897E+00	-4.65044512529E-01
4.99722191355E+05	-9.56030560553E+00	1.72335598155E+02	8.62902698026E+00	1.79531719017E+02	-3.87858508236E+01	1.56024384795E+02	-6.03925664225E+00	-4.86125559867E-01
5.21913545950E+05	-1.15491432459E+01	1.59341161811E+02	8.58796600956E+00	1.79368761258E+02	-3.19926154939E+01	1.14367999081E+02	-6.01029637711E+00	-6.67510602701E-01
5.44104900545E+05	-1.61726445044E+01	-1.78554649828E+02	8.61102222929E+00	1.79135324631E+02	-3.74810028648E+01	-3.26875359427E+01	-6.02258499935E+00	-3.39998447951E-01
5.66296255139E+05	-7.84837517132E+00	-1.76167184385E+02	8.61114417164E+00	1.79316211066E+02	-3.40787545162E+01	1.15624084073E+01	-6.04633429259E+00	-4.59785007812E-01
5.88487609734E+05	-1.23403735331E+01	-1.77160257060E+02	8.69422464498E+00	1.78985665709E+02	-3.63197906552E+01	1.27540065872E+02	-6.02415424747E+00	-5.19967877227E-01
6.10678964329E+05	-7.54325382781E+00	-1.61431959487E+02	8.62927245328E+00	1.78661036679E+02	-4.89314964689E+01	-3.47799432793E+01	-5.99303920140E+00	-6.04993940020E-02
6.32870318924E+05	-1.10499069349E+01	-1.78032725364E+02	8.58200838640E+00	1.78503825033E+02	-5.59400459901E+01	1.60197007006E+02	-6.04374043235E+00	-4.62050177200E-01
6.55061673519E+05	-8.08335977192E+00	-1.79215561506E+02	8.57417595368E+00	1.78444809862E+02	-3.85223636988E+01	-2.46994487904E+00	-6.01480903326E+00	-2.32423793982E-01
6.77253028114E+05	-1.15401043401E+01	1.64379169797E+02	8.65428931687E+00	1.77661889835E+02	-4.09290265292E+01	-7.65773790042E+00	-5.99873921677E+00	-6.77423782596E-01
6.99444382709E+05	-1.14935443097E+01	1.70156497186E+02	8.70779498932E+00	1.78118691194E+02	-4.41560969454E+01	1.43951194291E+02	-6.01512353816E+00	-4.29950113144E-01
7.21635737304E+05	-1.31277487411E+01	-1.52710805571E+02	8.65320582582E+00	1.77939736266E+02	-4.20961626086E+01	-3.36817211436E+01	-6.02874909192E+00	-4.84208848731E-01
7.43827091899E+05	-7.71906865895E+00	1.73115535356E+02	8.64234973220E+00	1.77753468122E+02	-3.78050365517E+01	-1.79800105705E+01	-6.02972085222E+00	-4.56696794772E-01
7.66018446494E+05	-1.09725365231E+01	-1.70886362315E+02	8.58992488470E+00	1.77282255578E+02	-3.66967256952E+01	7.96930790455E+00	-6.01691095613E+00	-4.73928080731E-01
7.88209801089E+05	-1.36976257028E+01	-1.74038697956E+02	8.63440661355E+00	1.77438794294E+02	-4.20704746225E+01	7.57035229204E+01	-6.04632630041E+00	-2.92434453368E-01
8.10401155684E+05	-9.03865207353E+00	-1.75087647537E+02	8.58683693012E+00	1.77182971449E+02	-4.30818619200E+01	-1.14516954638E+02	-6.02208791840E+00	-6.60627271358E-01
8.32592510279E+05	-7.97297667675E+00	-1.66248665942E+02	8.57442949954E+00	1.76951803003E+02	-4.03663676176E+01	-3.29298295376E+00	-6.00101406553E+00	-5.21627375815E-01
8.54783864874E+05	-7.57512329061E+00	1.54187183270E+02	8.61204959833E+00	1.77077687729E+02	-3.54622643288E+01	-9.23945169274E+01	-6.02185157200E+00	-5.57454382303E-01
8.76975219469E+05	-1.17191727698E+01	1.76762111317E+02	8.61956632373E+00	1.77024959813E+02	-4.05624490989E+01	1.81522479032E+01	-6.04802611283E+00	-6.96206633526E-01
8.99166574064E+05	-1.11995184913E+01	1.66020498900E+02	8.58705139782E+00	1.76259908694E+02	-4.65147515348E+01	-1.59202789748E+02	-6.01549941697E+00	-4.50150313860E-01
9.21357928659E+05	-9.67627549726E+00	1.47154241663E+02	8.64132462864E+00	1.76089485629E+02	-5.22490087242E+01	1.33610871630E+02	-6.03195849008E+00	-5.59684428929E-01
9.43549283254E+05	-1.15858337050E+01	-1.77902039755E+02	8.57600611291E+00	1.76363804256E+02	-5.38986249973E+01	1.26535443310E+02	-5.98808536414E+00	-5.05069827028E-01
9.65740637849E+05	-9.49517436395E+00	1.74214136829E+02	8.61412782387E+00	1.76358865013E+02	-5.31739412003E+01	-3.32003519852E+01	-6.04896398292E+00	-4.06246104347E-01
9.87931992444E+05	-1.05353417881E+01	-1.79858954952E+02	8.61408506851E+00	1.76017995758E+02	-5.04306491283E+01	-1.02278701582E+02	-6.02684033010E+00	-7.27887428099E-01
1.01012334704E+06	-1.04614285783E+01	-1.67727167024E+02	8.63100127243E+00	1.76325510924E+02	-4.31357456397E+01	-1.87234427623E+01	-6.04464372636E+00	-5.03950175201E-01
1.03231470163E+06	-8.60334552119E+00	-1.66645320889E+02	8.57774172846E+00	1.75686308423E+02	-3.84937087489E+01	-1.72226596057E+02	-6.02434016806E+00	-5.29312242046E-01
1.05450605623E+06	-1.18849002444E+01	1.75472697565E+02	8.62679228128E+00	1.75441905761E+02	-3.66358851691E+01	1.71856094244E+02	-6.05165583935E+00	-5.61715414039E-01
1.07669741082E+06	-9.39854333816E+00	-1.41513187529E+02	8.56766154215E+00	1.76208851656E+02	-4.26660081350E+01	6.48181572523E+01	-6.03228744293E+00	-1.12145013303E-01
1.09888876542E+06	-1.54429445204E+01	-1.65381515179E+02	8.59512620906E+00	1.75217516239E+02	-3.71097735015E+01	-1.13837495124E+02	-6.02766196959E+00	-6.16725564901E-01
1.12108012001E+06	-1.01392689942E+01	-1.73546252236E+02	8.59370868998E+00	1.74920068906E+02	-4.34019629205E+01	1.68090716278E+02	-6.01519940142E+00	-6.93848737747E-01
1.14327147461E+06	-7.54072817648E+00	1.61529920206E+02	8.69063526665E+00	1.75165884482E+02	-4.30943820673E+01	9.14327869873E+01	-6.00049061327E+00	-6.24166655099E-01
1.16546282920E+06	-1.05359635210E+01	-1.77946208926E+02	8.59867460758E+00	1.75045983293E+02	-3.98689892096E+01	8.26718605094E+01	-6.02605650296E+00	-4.83954231078E-01
1.18765418380E+06	-7.20805356901E+00	1.72763124328E+02	8.56131103745E+00	1.74743073430E+02	-4.14599289193E+01	-1.58850001351E+02	-5.99921356550E+00	-3.97750998516E-01
1.20984553839E+06	-1.05944179623E+01	-1.78516438970E+02	8.56829812241E+00	1.74802082829E+02	-3.66075412149E+01	3.34558149239E+01	-6.00960709519E+00	-7.25506374363E-01
1.23203689299E+06	-8.08665111402E+00	1.77797136119E+02	8.59509119294E+00	1.74820053144E+02	-4.63543989897E+01	8.59942812071E+01	-6.03117796750E+00	-4.41508575089E-01
1.25422824758E+06	-1.12084477768E+01	1.79898330011E+02	8.58084543479E+00	1.74325817053E+02	-4.77992348040E+01	1.46990351322E+02	-6.07772024508E+00	-5.20747382721E-01
1.27641960218E+06	-1.06556602116E+01	-1.42210991159E+02	8.56504599913E+00	1.74149651853E+02	-3.80530414614E+01	-9.35206973865E+01	-6.04837001826E+00	-3.61872076113E-01
1.29861095677E+06	-1.10285118566E+01	1.59648602258E+02	8.60577203043E+00	1.74005818403E+02	-3.92932527800E+01	7.96779503763E+01	-6.04616136224E+00	-6.64487660753E-01
1.32080231137E+06	-9.77304280660E+00	1.70219350554E+02	8.62666585419E+00	1.74067326973E+02	-4.52287649154E+01	-1.10391919730E+02	-5.98638974619E+00	-1.20852300602E+00
1.34299366596E+06	-7.37678917055E+00	1.77279588232E+02	8.59417643815E+00	1.74014605453E+02	-3.60053459517E+01	-1.54425756335E+02	-6.04628209363E+00	-7.46629668010E-01
1.36518502056E+06	-1.02373858841E+01	1.72260364658E+02	8.61443292500E+00	1.73565616230E+02	-4.39277628582E+01	-3.92944765110E+00	-6.01424920706E+00	-8.39240097412E-01
1.38737637515E+06	-7.26009447047E+00	1.69659291315E+02	8.65507031091E+00	1.73758539150E+02	-4.28531320725E+01	-1.20972882970E+01	-6.01641792894E+00	-6.86559439396E-01
1.40956772975E+06	-1.90776159820E+01	-1.42909720793E+02	8.57936842967E+00	1.74181504786E+02	-5.24258064812E+01	-5.39348437485E+01	-6.02220520912E+00	-9.11531666799E-01
1.43175908434E+06	-1.08102649041E+01	-1.69137535611E+02	8.62565772533E+00	1.73501967803E+02	-4.71141930762E+01	4.05691882813E+01	-6.06891822930E+00	-8.83314985715E-01
1.45395043894E+06	-9.38268656717E+00	1.72134971967E+02	8.54128615788E+00	1.73448919785E+02	-4.79385398910E+01	-9.94582240804E+01	-6.05438065843E+00	-5.87454185996E-01
1.47614179353E+06	-9.40762126848E+00	-1.71302372863E+02	8.63447416298E+00	1.73258909938E+02	-3.48630551163E+01	-1.13528494595E+02	-6.06384436310E+00	-6.13269102441E-01
1.49833314813E+06	-8.63568269924E+00	1.67485151324E+02	8.61092213043E+00	1.72642741092E+02	-4.57562630452E+01	1.52660797259E+02	-5.99372513701E+00	-5.07241849111E-01
1.52052450272E+06	-9.19393938155E+00	1.41605808143E+02	8.66688888140E+00	1.73079570191E+02	-4.26420956262E+01	1.66206054682E+02	-6.05340416123E+00	-8.71560904076E-01
1.54271585732E+06	-1.14522296572E+01	-1.79393024910E+02	8.58174777667E+00	1.72450019627E+02	-4.17376885713E+01	-4.04203401006E+01	-6.04648544091E+00	-8.98672879522E-01
1.56490721191E+06	-1.40151151778E+01	1.67948359153E+02	8.60298059341E+00	1.72350807106E+02	-3.36079250753E+01	-9.30951553423E+01	-6.02401206799E+00	-8.73849885796E-01
1.58709856651E+06	-1.19458323810E+01	1.57434619040E+02	8.60433546323E+00	1.72878434551E+02	-4.43071570024E+01	-4.27899718038E+01	-6.06161944211E+00	-9.80593278047E-01
1.60928992110E+06	-8.22266124348E+00	1.68917298578E+02	8.55839835550E+00	1.72665307605E+02	-4.15386856796E+01	-1.45854410042E+02	-6.03228943588E+00	-8.97423027758E-01
1.63148127570E+06	-1.42831472486E+01	-1.57611172856E+02	8.67801492132E+00	1.72292377034E+02	-4.41321955455E+01	-1.27490026111E+02	-6.08501135660E+00	-1.04299968531E+00
1.65367263029E+06	-9.89896528818E+00	1.64326055248E+02	8.59650358488E+00	1.72035538635E+02	-4.86396445031E+01	1.04866906564E+02	-6.02782709541E+00	-1.04983001341E+00
1.67586398489E+06	-9.73579919800E+00	-1.64563880547E+02	8.65546834626E+00	1.71966149905E+02	-3.79900494516E+01	-3.90019819423E+01	-6.00689136969E+00	-7.28506447319E-01
1.69805533948E+06	-1.19408650198E+01	-1.78866788361E+02	8.66862430195E+00	1.72247183649E+02	-3.96527772739E+01	1.20502977876E+02	-6.03127526260E+00	-6.50976960656E-01
1.72024669408E+06	-1.02489946024E+01	1.69317669895E+02	8.54433022589E+00	1.71977871728E+02	-3.59645024843E+01	1.69748366390E+02	-5.98295782909E+00	-1.02495300713E+00
1.74243804867E+06	-1.63082939629E+01	1.51959806190E+02	8.57516138715E+00	1.72395860151E+02	-6.71809980390E+01	-8.34779061038E+01	-6.04536707996E+00	-9.67845660154E-01
1.76462940327E+06	-1.21185618070E+01	-1.75607524005E+02	8.59214547420E+00	1.71471666554E+02	-3.72193174815E+01	1.07360478532E+02	-6.01081832019E+00	-8.14521265646E-01
1.78682075786E+06	-1.07113502257E+01	1.76944446500E+02	8.62187388149E+00	1.71766089978E+02	-3.50991284971E+01	1.64845059556E+02	-6.04496153398E+00	-6.62143494040E-01
1.80901211246E+06	-1.19847385709E+01	1.77455692145E+02	8.66752838790E+00	1.71455868825E+02	-3.76488379728E+01	1.46887726176E+02	-6.06881350810E+00	-7.95112507520E-01
1.83120346705E+06	-1.15606930732E+01	-1.79506411024E+02	8.61220414744E+00	1.71436087641E+02	-4.63056832492E+01	-8.67508710725E+01	-6.05411056589E+00	-9.03807636759E-01
1.85339482165E+06	-9.88883659643E+00	-1.64416465712E+02	8.50820953234E+00	1.71097668967E+02	-4.23784774675E+01	9.61143625545E+01	-6.02023587870E+00	-9.54928972951E-01
1.87558617624E+06	-1.00222505428E+01	1.65518075186E+02	8.59234822386E+00	1.70854349432E+02	-4.10263604822E+01	-1.68544150711E+02	-6.07509152363E+00	-1.15306289619E+00
1.89777753084E+06	-1.49184070039E+01	-1.54890337467E+02	8.61747863742E+00	1.70678759549E+02	-4.74923103336E+01	-7.40604850439E+01	-6.04204693056E+00	-8.64737353018E-01
1.91996888543E+06	-1.04250515495E+01	1.46823815315E+02	8.59205242446E+00	1.70665091069E+02	-5.98843066856E+01	1.38096984013E+02	-6.02061234674E+00	-8.12213145452E-01
1.94216024003E+06	-1.05259876317E+01	-1.74837704484E+02	8.64509767507E+00	1.70512606524E+02	-3.61651285109E+01	-4.94960221906E+01	-6.03784993545E+00	-9.40008204058E-01
1.96435159462E+06	-1.17494939506E+01	1.78276409666E+02	8.62127277617E+00	1.70664107568E+02	-4.08405763194E+01	-1.27295877290E+02	-6.02532310051E+00	-1.08714879663E+00
1.98654294922E+06	-1.30133622501E+01	-1.74842473117E+02	8.62391817253E+00	1.70432907354E+02	-4.46879261987E+01	1.04667598368E+02	-5.99468839903E+00	-9.57293958646E-01
2.00873430381E+06	-1.19355001550E+01	1.53699328499E+02	8.56802291053E+00	1.70824920671E+02	-5.16352807570E+01	-2.75776172327E+01	-6.00706469535E+00	-1.00220366847E+00
2.03092565841E+06	-9.13557036717E+00	-1.79613448838E+02	8.55905843952E+00	1.70631668595E+02	-4.92121737022E+01	1.23777036437E+02	-6.05268155828E+00	-1.10079430544E+00
2.05311701300E+06	-1.05364777230E+01	1.49303511297E+02	8.52490215764E+00	1.69728029417E+02	-4.17506305890E+01	1.00528851489E+02	-6.03790784774E+00	-7.77242011012E-01
2.07530836760E+06	-1.18938181833E+01	1.71209629433E+02	8.62486865469E+00	1.69895667889E+02	-4.69507319485E+01	-7.08777965848E+01	-6.01956757919E+00	-8.80003912117E-01
2.09749972219E+06	-7.93888140306E+00	1.69422501901E+02	8.61745853152E+00	1.69823708816E+02	-3.95179397619E+01	-1.67818683305E+02	-5.97699942324E+00	-8.22797616647E-01
2.11969107679E+06	-8.94930741452E+00	1.66860004062E+02	8.57673910962E+00	1.69674335663E+02	-4.86645574638E+01	1.27493857372E+02	-6.04144538886E+00	-1.07651856788E+00
2.14188243138E+06	-8.85756019203E+00	1.72690258891E+02	8.63815614880E+00	1.69700316102E+02	-3.52329876257E+01	7.42991830658E+01	-5.98465094361E+00	-8.02699582002E-01
2.16407378598E+06	-1.35930301802E+01	1.54133025343E+02	8.58309861430E+00	1.69532545034E+02	-3.84440249830E+01	9.69000315056E+01	-6.05505374712E+00	-8.22367522844E-01
2.18626514057E+06	-6.11426670322E+00	-1.74256466351E+02	8.64249338835E+00	1.69441250020E+02	-4.12267823226E+01	-7.87276457477E+01	-6.03246818747E+00	-1.00315459163E+00
2.20845649517E+06	-8.46039946100E+00	-1.77713324515E+02	8.58196584448E+00	1.69290163374E+02	-4.46780260024E+01	5.43074031006E+01	-6.05703996145E+00	-1.13198998643E+00
2.23064784976E+06	-1.00778306979E+01	1.61176488549E+02	8.59898615347E+00	1.68948493012E+02	-3.71595265945E+01	-8.88548999898E+01	-6.02419329386E+00	-1.14783663629E+00
2.25283920436E+06	-1.01912759329E+01	-1.72407998265E+02	8.62018758863E+00	1.68787725850E+02	-5.39121137581E+01	1.24671665750E+02	-6.04923647534E+00	-1.01955893607E+00
2.27503055895E+06	-9.02038487202E+00	-1.77575691565E+02	8.59686563526E+00	1.68658391712E+02	-3.84706609551E+01	8.23245828369E+01	-5.98922730888E+00	-1.11979296251E+00
2.29722191355E+06	-1.05256603309E+01	1.74443580351E+02	8.60652594321E+00	1.69525724492E+02	-4.01400905153E+01	-1.12970956766E+02	-6.05183853061E+00	-1.04497470007E+00
2.31941326814E+06	-1.33699369110E+01	-1.68084791172E+02	8.62516931929E+00	1.68508900409E+02	-3.89876919412E+01	4.26950647208E+01	-6.01664814442E+00	-9.59741239359E-01
2.34160462274E+06	-1.00391739506E+01	-1.72045501644E+02	8.53800024951E+00	1.68683603852E+02	-3.53776721102E+01	-1.36719432309E+01	-6.02882238132E+00	-1.14486775223E+00
2.36379597733E+06	-1.18686975213E+01	-1.77383835093E+02	8.60915469899E+00	1.68857612273E+02	-4.14466745123E+01	-2.19980010183E+01	-6.03877775926E+00	-1.27790554120E+00
2.38598733193E+06	-9.11339597307E+00	-1.64737001364E+02	8.53792706725E+00	1.68804357475E+02	-4.09916045697E+01	1.96828927109E+01	-5.99001548865E+00	-1.22060269417E+00
2.40817868652E+06	-1.29855736185E+01	1.60640455628E+02	8.59707754653E+00	1.68713069091E+02	-5.37148731643E+01	-1.26530560124E+01	-6.01585729590E+00	-1.16882221178E+00
2.43037004112E+06	-1.10312486406E+01	1.62380953165E+02	8.60453329190E+00	1.67948772746E+02	-3.83917587630E+01	6.80628028490E+01	-6.00022583702E+00	-9.88201709956E-01
2.45256139571E+06	-1.12822264044E+01	1.65691885569E+02	8.62731743882E+00	1.68037097916E+02	-4.01023812657E+01	-1.69665169751E+02	-6.00345874536E+00	-1.00129628026E+00
2.47475275031E+06	-9.49778695285E+00	-1.78918561303E+02	8.51072974450E+00	1.68101637058E+02	-6.55212875233E+01	1.54708519132E+02	-6.04591513759E+00	-9.95829080845E-01
2.49694410490E+06	-1.19288083103E+01	1.70417662829E+02	8.66502766032E+00	1.68275710802E+02	-3.63716428174E+01	1.46894173242E+01	-6.04446589735E+00	-1.02491316455E+00
2.51913545950E+06	-1.05005170950E+01	1.73249252707E+02	8.64792617862E+00	1.67654694868E+02	-3.77233528733E+01	-1.71195490060E+02	-6.05295300202E+00	-1.24917158771E+00
2.54132681409E+06	-1.18526448977E+01	-1.75860260783E+02	8.62686166599E+00	1.67907640055E+02	-4.72648613535E+01	-1.12222195015E+02	-6.02244407549E+00	-1.09494144673E+00
2.56351816869E+06	-8.73895716608E+00	1.70707630475E+02	8.55697048544E+00	1.67351332578E+02	-4.63565021960E+01	9.05784049268E+01	-6.02559801335E+00	-1.34565520524E+00
2.58570952328E+06	-8.81041927226E+00	1.71243319923E+02	8.58996417400E+00	1.67706428386E+02	-4.40881029848E+01	-1.22141782898E+02	-6.05944495879E+00	-1.15761386114E+00
2.60790087788E+06	-7.46279649660E+00	-1.66092573889E+02	8.58873761088E+00	1.67425902092E+02	-4.00728426840E+01	-6.83760907289E+01	-6.05220059584E+00	-1.27655340045E+00
2.63009223247E+06	-1.28792386010E+01	1.76881552417E+02	8.58563584259E+00	1.67191943949E+02	-3.78315093868E+01	1.71991951872E+02	-6.01608160376E+00	-1.35196496472E+00
2.65228358707E+06	-1.04643832620E+01	1.75320558881E+02	8.56251945542E+00	1.66762365936E+02	-4.92678765366E+01	1.89216760121E+01	-6.01534131200E+00	-1.81878813768E+00
2.67447494166E+06	-7.41311383766E+00	-1.75947573547E+02	8.62875384159E+00	1.67202809562E+02	-4.16968038286E+01	6.99115580147E+01	-5.98996731271E+00	-1.45695975009E+00
2.69666629626E+06	-9.22110297121E+00	1.74667950410E+02	8.55955242348E+00	1.66821483565E+02	-3.81190321412E+01	-1.51544232546E+02	-5.99289110615E+00	-1.12401584159E+00
2.71885765085E+06	-1.20522650339E+01	1.67524065841E+02	8.63606194608E+00	1.66696320260E+02	-3.87400769428E+01	3.39669954655E+01	-6.02400881972E+00	-1.27721562764E+00
2.74104900545E+06	-9.35966522465E+00	1.71264665823E+02	8.58875435542E+00	1.66129272965E+02	-4.11971922442E+01	1.70733415168E+02	-6.02089467494E+00	-1.19343367488E+00
2.76324036004E+06	-1.12127238747E+01	-1.74571080770E+02	8.58366613091E+00	1.66403525245E+02	-3.84205339531E+01	-1.49872452500E+02	-6.01449306113E+00	-1.34745077865E+00
2.78543171463E+06	-1.20664851395E+01	-1.79972053876E+02	8.60218432472E+00	1.66389262635E+02	-4.43896455463E+01	-8.47095192157E+01	-6.03909910802E+00	-1.07876467749E+00
2.80762306923E+06	-1.10376209685E+01	1.71259410721E+02	8.65570889694E+00	1.66172305790E+02	-4.91141207185E+01	5.41641831309E+01	-6.02665789118E+00	-1.45161276150E+00
2.82981442382E+06	-8.85467325065E+00	1.78877801634E+02	8.62370633809E+00	1.65852431749E+02	-3.68967845451E+01	-8.91184409759E+01	-6.05049707920E+00	-1.26634065678E+00
2.85200577842E+06	-7.11063588856E+00	-1.74563620587E+02	8.60905965251E+00	1.66003161256E+02	-4.91420148374E+01	8.47480971363E+01	-5.99164574954E+00	-1.19859504615E+00
2.87419713301E+06	-8.43851913831E+00	-1.71774553792E+02	8.59266836685E+00	1.65652196835E+02	-4.37426577260E+01	9.35566129154E+01	-6.00085965061E+00	-1.55317263478E+00
