# Hz S DB R 50
! CMT, M5065, 19127446, 24.2.4/2
! Date: 10/29/2024 1:04:59 PM
! Data: Format (Calibration Info)
! Freq	S11:dB/Ang(F2)	S21:dB/Ang(F2)	S12:dB/Ang(F2)	S22:dB/Ang(F2)
3.00000000000E+05	-1.06453743230E+01	-1.59624292845E+02	5.56204175694E+00	-1.78006795121E+02	-4.81667150640E+01	4.71179132584E+01	-6.04504279907E+00	-4.61211392060E-01
3.22191354595E+05	-1.12484178710E+01	-1.76072105820E+02	5.61296142932E+00	-1.78530866601E+02	-4.10387872331E+01	1.07034290410E+02	-6.04642914180E+00	6.91003590562E-02
3.44382709190E+05	-1.04807344574E+01	-1.79230578299E+02	5.54705253254E+00	-1.78618689451E+02	-4.17550278280E+01	-1.75778089202E+01	-6.03287057279E+00	-2.21520830221E-01
3.66574063785E+05	-6.82949153996E+00	1.79783298849E+02	5.57799672601E+00	-1.79098881625E+02	-3.60274148780E+01	-1.76920340344E+02	-6.03661937075E+00	-3.12134982884E-01
3.88765418380E+05	-8.61560318305E+00	-1.76324156668E+02	5.58171717152E+00	-1.79523501433E+02	-3.69766930238E+01	-1.66179332917E+02	-6.02878031175E+00	-2.14813783783E-01
4.10956772975E+05	-8.12527234735E+00	1.79989444962E+02	5.64119694302E+00	-1.79468388092E+02	-3.61406982491E+01	-1.79869143080E+01	-6.03667365946E+00	-5.11012557574E-01
4.33148127570E+05	-1.21860803095E+01	1.79767684036E+02	5.55058920950E+00	-1.79491786362E+02	-3.91853362283E+01	1.87789629710E+01	-6.02295614100E+00	-5.59986465949E-01
4.55339482165E+05	-1.09154302352E+01	1.79749659876E+02	5.47653598778E+00	-1.79666044927E+02	-3.71077325587E+01	-1.25144892668E+02	-6.00576116153E+00	-3.35153618092E-01
4.77530836760E+05	-7.12076314539E+00	-1.79204526874E+02	5.57537067330E+00	1.79449035418E+02	-4.64448220524E+01	3.69497534995E+00	-6.06774137085E+00	-4.07888955256E-01
4.99722191355E+05	-1.30743247551E+01	-1.55091110340E+02	5.61865733609E+00	1.79711592281E+02	-4.22583091129E+01	-4.85811132287E+01	-6.04767073257E+00	-7.76779241768E-01
5.21913545950E+05	-1.00139704100E+01	-1.68559433608E+02	5.58056213543E+00	1.79459265510E+02	-4.64803619978E+01	-1.35411587615E+02	-6.05386105141E+00	-3.94688470716E-01
5.44104900545E+05	-1.11111287320E+01	1.70507777989E+02	5.65721163550E+00	1.79030359797E+02	-4.46149884670E+01	7.27299816668E+01	-6.04090106949E+00	-1.45389946943E-01
5.66296255139E+05	-8.32694373728E+00	-1.77617341678E+02	5.66964755885E+00	1.79375393021E+02	-3.98112155389E+01	-1.34269611259E+02	-6.02258685050E+00	-6.95107956746E-01
5.88487609734E+05	-7.23941611544E+00	-1.76504718801E+02	5.55110429489E+00	1.78966061514E+02	-3.27214458815E+01	-1.10827396186E+02	-6.05938961359E+00	-6.18246075073E-01
6.10678964329E+05	-9.69413884237E+00	-1.69650627200E+02	5.60628628561E+00	1.78755784794E+02	-4.59728808288E+01	-1.20759459975E+02	-6.00339223872E+00	-2.14020298955E-01
6.32870318924E+05	-8.76966239582E+00	1.61679420445E+02	5.62095215099E+00	1.79077789305E+02	-5.44452007140E+01	1.21381117062E+02	-6.00253210848E+00	-1.70306422336E-01
6.55061673519E+05	-1.11668357835E+01	-1.64362749423E+02	5.61323066735E+00	1.78858154989E+02	-4.69628440188E+01	-1.40130778168E+02	-6.04901263207E+00	-2.45334980528E-01
6.77253028114E+05	-8.61939193808E+00	-1.71466151322E+02	5.70738912664E+00	1.78781931106E+02	-3.91640206803E+01	1.71833912801E+02	-6.05612695715E+00	-8.63915087638E-01
6.99444382709E+05	-8.93154521381E+00	1.77830421077E+02	5.60477794935E+00	1.78666893441E+02	-3.63082263379E+01	7.33200065363E+01	-6.03488849391E+00	-3.23351350297E-01
7.21635737304E+05	-6.36980065165E+00	1.66056802338E+02	5.53688199980E+00	1.78390685587E+02	-3.83804292366E+01	6.09476603094E+00	-6.04839502179E+00	-4.03224120215E-01
7.43827091899E+05	-8.30903167570E+00	-1.79243063770E+02	5.57822542801E+00	1.77844863524E+02	-3.36737480255E+01	6.99758320724E+01	-6.05801131409E+00	-4.13595363735E-01
7.66018446494E+05	-1.00779840363E+01	1.79659841333E+02	5.54630298933E+00	1.78330847833E+02	-3.94503165269E+01	-1.75080223136E+01	-6.06215378072E+00	-3.37337713918E-01
7.88209801089E+05	-1.60807670283E+01	1.58781252973E+02	5.58422637276E+00	1.78157765296E+02	-4.42855432757E+01	5.65142469299E+00	-6.04491954119E+00	-2.40159871106E-01
8.10401155684E+05	-1.28301769087E+01	-1.62777923499E+02	5.57724411605E+00	1.77328640100E+02	-6.02786707832E+01	7.26148650284E+01	-6.02706014384E+00	-7.95697461001E-01
8.32592510279E+05	-7.33271337945E+00	-1.74917269126E+02	5.52853883865E+00	1.78092073949E+02	-3.96583678081E+01	-8.67664264570E+01	-6.06655107465E+00	-3.44406456725E-01
8.54783864874E+05	-1.02566637922E+01	1.69348721660E+02	5.59205925172E+00	1.77884071688E+02	-4.54175531496E+01	-2.03869752139E+00	-6.05923700499E+00	-5.98120720008E-01
8.76975219469E+05	-1.21324699984E+01	-1.62727411768E+02	5.59768780627E+00	1.77574533593E+02	-4.52952345766E+01	1.00798743077E+02	-6.04513844623E+00	-5.30304567612E-01
8.99166574064E+05	-1.22510526900E+01	-1.76765396051E+02	5.59437734362E+00	1.77323238310E+02	-5.14009147649E+01	-1.10887981183E+01	-6.02434105634E+00	-6.81131100622E-01
9.21357928659E+05	-1.18076861422E+01	1.45932237284E+02	5.66736941297E+00	1.76962279826E+02	-5.45672868513E+01	-7.53150996939E+01	-6.01191664107E+00	-3.64993851017E-01
9.43549283254E+05	-8.38477507999E+00	-1.76605774341E+02	5.62346029128E+00	1.77062338963E+02	-4.66371031274E+01	9.21577050461E+01	-6.01196946425E+00	-5.56767310022E-01
9.65740637849E+05	-1.05247565141E+01	-1.73657848356E+02	5.58639064318E+00	1.76992230253E+02	-3.55911710603E+01	-1.54067455701E+02	-6.02331185590E+00	-6.86027810066E-01
9.87931992444E+05	-9.84294344524E+00	1.62396301845E+02	5.60867758252E+00	1.76835505096E+02	-3.71313739112E+01	-1.31358042351E+02	-6.05179142407E+00	-2.15329335519E-01
1.01012334704E+06	-1.46586645012E+01	-1.69880400333E+02	5.58848102490E+00	1.76998492265E+02	-3.83002117642E+01	4.47812085018E+01	-6.01034359485E+00	-7.40137924797E-01
1.03231470163E+06	-1.05747696426E+01	1.70835316600E+02	5.56851342396E+00	1.75662731872E+02	-4.41477080861E+01	-1.41969111450E+01	-6.03561227619E+00	-5.55920690243E-01
1.05450605623E+06	-9.59818287151E+00	1.64933199564E+02	5.61932007627E+00	1.76230271282E+02	-4.63574464398E+01	-1.64252993524E+02	-6.04152623177E+00	-6.85723870650E-01
1.07669741082E+06	-1.18894713576E+01	1.46738902341E+02	5.59474976981E+00	1.75857797684E+02	-4.45355716771E+01	-4.29129072502E+01	-6.04909613141E+00	-6.30940917278E-01
1.09888876542E+06	-7.06358866404E+00	1.79707473895E+02	5.65878368372E+00	1.76348799211E+02	-3.36785019967E+01	1.49244854970E+02	-6.03457233501E+00	-5.57854460990E-01
1.12108012001E+06	-8.85781855561E+00	1.64132799617E+02	5.63310633613E+00	1.75806908084E+02	-4.03187894909E+01	1.15074923574E+02	-5.99216231640E+00	-5.59924713872E-01
1.14327147461E+06	-1.00818065626E+01	1.77254222102E+02	5.65819792420E+00	1.75833468115E+02	-3.93875430781E+01	-1.27523452033E+02	-6.03040007669E+00	-5.52283743916E-01
1.16546282920E+06	-8.53612182321E+00	1.74073481104E+02	5.63854195700E+00	1.75786699671E+02	-3.31799428378E+01	-1.00370566299E+02	-6.02883546234E+00	-7.04185246531E-01
1.18765418380E+06	-8.04980006432E+00	1.67237721480E+02	5.64847335086E+00	1.75861230975E+02	-3.39476038353E+01	-1.76928265093E+01	-6.03776808931E+00	-4.12803901835E-01
1.20984553839E+06	-8.83854675939E+00	-1.67865380668E+02	5.57498000371E+00	1.75520095931E+02	-4.32887451090E+01	1.78524438040E+02	-6.04359220846E+00	-1.02107497699E+00
1.23203689299E+06	-1.42974760472E+01	1.63652966423E+02	5.61959728641E+00	1.75802126134E+02	-3.87690952905E+01	-1.50227430549E+01	-6.04275453308E+00	-3.94821555832E-01
1.25422824758E+06	-1.24819426558E+01	1.72442991038E+02	5.56290054268E+00	1.74808396512E+02	-4.78818326129E+01	1.08265099775E+02	-6.07402870698E+00	-7.15718676850E-01
1.27641960218E+06	-9.80393166711E+00	-1.68681417863E+02	5.60387214427E+00	1.75296537440E+02	-5.66058442962E+01	-9.00785975727E+01	-6.02127271478E+00	-6.17259065111E-01
1.29861095677E+06	-1.01087095237E+01	-1.66196019200E+02	5.63517665729E+00	1.75067737327E+02	-4.30656364728E+01	1.50921697992E+02	-6.04917207958E+00	-5.85928279180E-01
1.32080231137E+06	-1.15989560336E+01	-1.68414838833E+02	5.59033311688E+00	1.75172467040E+02	-4.22833001809E+01	-1.27010962621E+02	-6.01647259739E+00	-9.89808831739E-01
1.34299366596E+06	-9.60654949214E+00	1.71627932035E+02	5.55481016468E+00	1.74978517091E+02	-4.03987301648E+01	1.33991285527E+02	-6.02583337182E+00	-8.35288463019E-01
1.36518502056E+06	-1.05827259770E+01	-1.78648001706E+02	5.59922278555E+00	1.74568982788E+02	-3.89305993841E+01	1.34286552100E+02	-6.01707179026E+00	-5.15514392293E-01
1.38737637515E+06	-8.72763930075E+00	1.67543194921E+02	5.60098143179E+00	1.74027496934E+02	-4.49533858498E+01	-6.57853987180E+01	-6.04088877770E+00	-9.32336258753E-01
1.40956772975E+06	-1.23917414661E+01	-1.67037718507E+02	5.58141330860E+00	1.74512215334E+02	-4.58210002724E+01	-8.92302159194E+01	-5.97186261524E+00	-7.68711489643E-01
1.43175908434E+06	-9.07591860515E+00	1.78665352645E+02	5.59280110047E+00	1.74564338226E+02	-3.66142803713E+01	-1.53243324915E+02	-5.99972828645E+00	-7.53319421903E-01
1.45395043894E+06	-1.15116927736E+01	1.50385706026E+02	5.50007574918E+00	1.74485229325E+02	-4.82008038230E+01	-4.80716122827E+01	-6.05862945210E+00	-7.10420260098E-01
1.47614179353E+06	-9.53351593916E+00	-1.74034164662E+02	5.60782403552E+00	1.73813911838E+02	-3.71899348840E+01	-3.86813708377E+01	-6.01998396937E+00	-8.32069503097E-01
1.49833314813E+06	-7.84065571722E+00	-1.56367769575E+02	5.62534011933E+00	1.73989936556E+02	-3.68229233820E+01	1.45080977155E+01	-6.01073849332E+00	-5.03589371545E-01
1.52052450272E+06	-1.22730893807E+01	1.60829587944E+02	5.58808776204E+00	1.73838151982E+02	-3.94564140823E+01	1.44535741225E+02	-6.00874578311E+00	-6.57653639417E-01
1.54271585732E+06	-1.40898409101E+01	1.60020960537E+02	5.60159680162E+00	1.73980581876E+02	-4.87287262658E+01	7.64964004220E+01	-5.99536631674E+00	-6.88230844877E-01
1.56490721191E+06	-1.05885171456E+01	1.75799992097E+02	5.61629872843E+00	1.73741383279E+02	-3.81706475038E+01	1.69770204723E+02	-6.03683869059E+00	-6.28542969829E-01
1.58709856651E+06	-1.04810544103E+01	-1.72563437609E+02	5.61050087333E+00	1.73388595926E+02	-4.18033992797E+01	1.84689203688E+01	-6.03388216118E+00	-6.28659361363E-01
1.60928992110E+06	-8.11744691613E+00	-1.64408214984E+02	5.63507897371E+00	1.73355698599E+02	-4.22563197964E+01	2.98101665771E+01	-6.04102084255E+00	-6.95867533084E-01
1.63148127570E+06	-1.52525969174E+01	1.65427728550E+02	5.53940193012E+00	1.73235556856E+02	-4.41036819186E+01	1.20387674165E+02	-6.04432717311E+00	-7.84490688506E-01
1.65367263029E+06	-1.22754361575E+01	-1.78347841617E+02	5.61427069494E+00	1.73529330475E+02	-4.77056902171E+01	-1.03010026421E+02	-6.06368375187E+00	-6.44577174315E-01
1.67586398489E+06	-8.05037901279E+00	1.76624024741E+02	5.67650447002E+00	1.73053739870E+02	-3.54378691474E+01	7.43474616461E+01	-5.95973549552E+00	-7.88925087106E-01
1.69805533948E+06	-7.92827601631E+00	-1.54107274152E+02	5.67034490978E+00	1.72724075865E+02	-4.04947292113E+01	4.61000312534E+01	-5.99946831354E+00	-5.94630499435E-01
1.72024669408E+06	-1.05551275226E+01	1.74666479809E+02	5.67534626839E+00	1.73079289907E+02	-4.04479945601E+01	-1.43121116548E+01	-5.96326306299E+00	-6.17215031574E-01
1.74243804867E+06	-8.18085675482E+00	-1.74134518198E+02	5.64174493129E+00	1.73264164184E+02	-4.46999189876E+01	1.26521392082E+02	-6.00389519095E+00	-9.72888042735E-01
1.76462940327E+06	-1.12842156302E+01	-1.76089265560E+02	5.50968578503E+00	1.72908333769E+02	-4.09678777625E+01	-1.16402652700E+02	-6.02600846670E+00	-1.11831779270E+00
1.78682075786E+06	-1.24444403826E+01	-1.60814067155E+02	5.60400431493E+00	1.72442851345E+02	-3.88213943197E+01	-5.66543090414E+01	-6.01104778339E+00	-9.47825156856E-01
1.80901211246E+06	-9.47231397323E+00	1.73707623995E+02	5.61651856882E+00	1.72348913408E+02	-4.61407731595E+01	-4.96151058743E+01	-6.04354224857E+00	-8.89614733598E-01
1.83120346705E+06	-1.01453246677E+01	-1.69761296740E+02	5.65688967648E+00	1.72475887193E+02	-3.39378624863E+01	-1.51628359213E+02	-5.99586904690E+00	-9.39190880091E-01
1.85339482165E+06	-1.02846759114E+01	-1.70130552469E+02	5.55120327120E+00	1.72125294384E+02	-3.55035417160E+01	1.53512500184E+02	-6.03765052887E+00	-1.16440364843E+00
1.87558617624E+06	-1.03293264825E+01	1.77179101654E+02	5.59826064671E+00	1.72345311498E+02	-4.17818080909E+01	1.44307147548E+02	-6.00391402050E+00	-1.01342278201E+00
1.89777753084E+06	-1.14283570761E+01	-1.49505342723E+02	5.55349796937E+00	1.72038113314E+02	-4.48350235251E+01	-1.05765888829E+02	-6.04115744611E+00	-9.37508818346E-01
1.91996888543E+06	-1.16683416971E+01	-1.49509620656E+02	5.48099432925E+00	1.72081767053E+02	-3.73326527286E+01	7.56054034961E+01	-6.04023170217E+00	-9.12523392084E-01
1.94216024003E+06	-1.04895368373E+01	-1.71143150218E+02	5.54283501750E+00	1.72172631740E+02	-3.96882328654E+01	-5.83669949198E+01	-6.02708489558E+00	-8.29532853700E-01
1.96435159462E+06	-9.77403561938E+00	-1.76217005674E+02	5.60101769343E+00	1.71575268813E+02	-3.85123939156E+01	-5.15290494800E+01	-6.03197391766E+00	-8.39734609994E-01
1.98654294922E+06	-7.04527893080E+00	-1.78841420406E+02	5.59843755586E+00	1.71436599406E+02	-4.08956368158E+01	5.98074358022E+01	-5.98643462679E+00	-7.69470756899E-01
2.00873430381E+06	-8.21799272530E+00	1.73090600390E+02	5.63745050590E+00	1.71600365636E+02	-5.05467894164E+01	2.18177680566E+01	-6.00496270037E+00	-1.32321755571E+00
2.03092565841E+06	-9.00693704555E+00	1.74643149441E+02	5.63437072557E+00	1.71466714660E+02	-5.86220961900E+01	-9.63586038366E+01	-6.02446735678E+00	-1.03164863948E+00
2.05311701300E+06	-1.06817506316E+01	1.65282449668E+02	5.60348938523E+00	1.71150700460E+02	-4.08612880490E+01	-1.65195646414E+02	-6.01955308781E+00	-9.71098841283E-01
2.07530836760E+06	-1.23770245917E+01	-1.76808418458E+02	5.65050592680E+00	1.71612064864E+02	-5.24286352135E+01	1.62442417992E+01	-6.04400571161E+00	-1.08897523970E+00
2.09749972219E+06	-1.49761365654E+01	1.64902058970E+02	5.64984113228E+00	1.70991629962E+02	-4.41825448663E+01	-9.24612393202E+01	-6.01309672823E+00	-1.23315744700E+00
2.11969107679E+06	-7.97051391390E+00	1.56335762163E+02	5.66071897341E+00	1.70666098673E+02	-4.71447167779E+01	-1.15745424699E+02	-6.01116998311E+00	-8.12267686322E-01
2.14188243138E+06	-1.03551019603E+01	1.78203230777E+02	5.60645213598E+00	1.70364822222E+02	-3.44567374381E+01	4.14637343744E+01	-5.90315271420E+00	-1.07034440708E+00
2.16407378598E+06	-1.02938539499E+01	-1.76959882986E+02	5.63646751983E+00	1.71156260223E+02	-5.72541005059E+01	1.23330959927E+02	-6.02970401645E+00	-1.02680085974E+00
2.18626514057E+06	-7.11077762328E+00	-1.76029581163E+02	5.62511235514E+00	1.70979762070E+02	-3.45248775827E+01	1.61487427248E+02	-6.01174440733E+00	-1.31491773887E+00
2.20845649517E+06	-8.73904859335E+00	-1.63203052543E+02	5.57886441269E+00	1.70549898780E+02	-3.84360417162E+01	7.94121334673E+01	-6.02896524339E+00	-1.29985949520E+00
2.23064784976E+06	-1.68155815947E+01	1.51357660609E+02	5.59623045913E+00	1.70472318725E+02	-4.20650918844E+01	2.67774408140E+01	-5.97230014889E+00	-1.06942355965E+00
2.25283920436E+06	-1.12408297413E+01	-1.56221088106E+02	5.55101128799E+00	1.70557347053E+02	-3.81957944982E+01	2.03628220786E+01	-6.00715426122E+00	-1.04342891296E+00
2.27503055895E+06	-1.16640335998E+01	-1.75728957688E+02	5.66271225631E+00	1.70152569456E+02	-4.36467010437E+01	-1.93992313325E+01	-6.00955054349E+00	-1.04859755812E+00
2.29722191355E+06	-1.16265523583E+01	1.76951011503E+02	5.59303186949E+00	1.70384653504E+02	-3.95169417347E+01	1.39261880358E+02	-5.95853574668E+00	-1.23906249414E+00
2.31941326814E+06	-1.17050274613E+01	1.66434981581E+02	5.52269413344E+00	1.70146883723E+02	-4.48520101193E+01	3.80312084278E+01	-6.01720061615E+00	-9.65479167552E-01
2.34160462274E+06	-9.48884481392E+00	1.76378017918E+02	5.60992732366E+00	1.69951512454E+02	-3.66570296209E+01	-6.30352236169E+01	-6.00021593149E+00	-9.08288035788E-01
2.36379597733E+06	-8.60173016284E+00	1.74758070047E+02	5.57437338886E+00	1.70210604366E+02	-4.15541137253E+01	-1.35320684030E+02	-6.01956428783E+00	-1.00712313681E+00
2.38598733193E+06	-9.45103758213E+00	-1.62967385319E+02	5.68172724466E+00	1.70285075996E+02	-3.73692408871E+01	-1.31770755177E+02	-6.02376796677E+00	-1.15497768006E+00
2.40817868652E+06	-1.01246244858E+01	1.65437420600E+02	5.62273530604E+00	1.69892115669E+02	-4.30408800919E+01	6.41017520486E+01	-6.03297777535E+00	-1.34184586483E+00
2.43037004112E+06	-1.00665165992E+01	1.62385753284E+02	5.58146662944E+00	1.69522162288E+02	-3.91285583852E+01	-2.42926121660E+01	-6.03178191667E+00	-1.45568879905E+00
2.45256139571E+06	-1.03821559638E+01	1.61522574108E+02	5.57564979701E+00	1.69506280786E+02	-5.30451534451E+01	1.39637114077E+02	-6.05221473405E+00	-7.63821047087E-01
2.47475275031E+06	-1.01451891739E+01	1.78434588612E+02	5.55242542919E+00	1.69692496972E+02	-4.15947768380E+01	1.62227507974E+02	-6.03991593997E+00	-1.20606887451E+00
2.49694410490E+06	-1.16531393989E+01	1.45383308956E+02	5.59461619886E+00	1.69332794829E+02	-3.95439804734E+01	-1.51775866673E+02	-6.04250791356E+00	-1.06094849734E+00
2.51913545950E+06	-1.03985590707E+01	1.64698521593E+02	5.64662526940E+00	1.68788034306E+02	-3.52299888440E+01	6.14680864579E+01	-6.03812329643E+00	-1.28543494710E+00
2.54132681409E+06	-1.15630258669E+01	1.60259994139E+02	5.57364164828E+00	1.69312224580E+02	-5.06188664624E+01	-9.87202275079E+01	-6.02621645134E+00	-9.95259246077E-01
2.56351816869E+06	-9.02072076538E+00	1.70191467129E+02	5.58108220935E+00	1.69694805204E+02	-4.49020094737E+01	1.69411804898E+02	-6.00232025284E+00	-1.08421218624E+00
2.58570952328E+06	-1.41451104623E+01	1.39330533495E+02	5.57071052709E+00	1.69192257287E+02	-4.30437739539E+01	7.64832887180E+00	-6.03001608415E+00	-1.35429633204E+00
2.60790087788E+06	-9.71511492437E+00	1.62121212122E+02	5.63137910859E+00	1.69336438990E+02	-4.04847645923E+01	-1.28723398295E+02	-5.99824482104E+00	-1.24240328286E+00
2.63009223247E+06	-1.55954006280E+01	1.57614888714E+02	5.54721044089E+00	1.68406159639E+02	-4.38239779186E+01	-1.65175142708E+02	-6.01769551901E+00	-1.03755210193E+00
2.65228358707E+06	-1.10995105416E+01	-1.65728240494E+02	5.61457140227E+00	1.68585046928E+02	-4.33317542992E+01	-1.48937914647E+02	-6.03292799702E+00	-1.54024289396E+00
2.67447494166E+06	-1.29493726882E+01	-1.68492053528E+02	5.59825629883E+00	1.69041591419E+02	-4.39351603779E+01	1.09174908970E+02	-6.01169908320E+00	-1.44846007786E+00
2.69666629626E+06	-1.01950701498E+01	1.71127664269E+02	5.59720293296E+00	1.68783816446E+02	-3.89565706812E+01	1.54959653139E+02	-6.01466153360E+00	-1.31628760071E+00
2.71885765085E+06	-1.04162139012E+01	1.57811214933E+02	5.60690041368E+00	1.68544705139E+02	-3.82267302034E+01	2.84539244234E+01	-5.98895742591E+00	-1.11147194259E+00
2.74104900545E+06	-9.80169439100E+00	1.70985975563E+02	5.55268792651E+00	1.68113474617E+02	-4.48942426961E+01	1.12187534967E+02	-5.99972071698E+00	-1.35492507549E+00
2.76324036004E+06	-1.27065531238E+01	-1.79663945346E+02	5.52351878744E+00	1.67757191035E+02	-4.39175721173E+01	-1.24957956967E+02	-6.02301232363E+00	-1.02798045766E+00
2.78543171463E+06	-9.14902749742E+00	1.54401387748E+02	5.57445980462E+00	1.68064841759E+02	-3.78613849572E+01	5.19775430234E+01	-6.04639322903E+00	-1.48320206177E+00
2.80762306923E+06	-1.01741035742E+01	1.58777250819E+02	5.59198984951E+00	1.68496458993E+02	-4.09672530790E+01	1.45612834167E+02	-6.02894944274E+00	-1.35224457841E+00
2.82981442382E+06	-1.11813105720E+01	1.60511019878E+02	5.63235613226E+00	1.67725203173E+02	-3.72174614992E+01	-1.88635649056E+01	-6.00721982993E+00	-1.59538380019E+00
2.85200577842E+06	-8.42800611031E+00	1.64408818303E+02	5.63298983177E+00	1.67574980336E+02	-4.44890139297E+01	-5.00817120447E+01	-6.02711609296E+00	-1.08486333946E+00
2.87419713301E+06	-1.08555581465E+01	1.77420199217E+02	5.64930272688E+00	1.67832364117E+02	-3.71009450210E+01	1.40239864522E+02	-6.00418904417E+00	-1.59333385236E+00
