# Hz S DB R 50
! CMT, M5065, 19127446, 24.2.4/2
! Date: 10/29/2024 1:20:04 PM
! Data: Format (Calibration Info)
! Freq	S11:dB/Ang(F2)	S21:dB/Ang(F2)	S12:dB/Ang(F2)	S22:dB/Ang(F2)
3.00000000000E+05	-1.13836036068E+01	-1.59528709686E+02	1.08092364529E+01	-1.77775299612E+02	-3.47965099181E+01	-7.10665180324E+01	-5.97901073837E+00	-2.85122417449E-01
3.22191354595E+05	-1.11366541675E+01	-1.79323647017E+02	1.07730183223E+01	-1.78433567812E+02	-5.67859135274E+01	1.41427150325E+02	-6.01116279245E+00	-2.35133051106E-01
3.44382709190E+05	-1.22246630746E+01	-1.64016224044E+02	1.08127938327E+01	-1.78358980788E+02	-3.99433955876E+01	-8.26194464766E+00	-5.99903968493E+00	-1.11604196586E-01
3.66574063785E+05	-1.15130674635E+01	1.76296701772E+02	1.08599519763E+01	-1.78881221798E+02	-5.29299332870E+01	3.80177068919E+01	-6.02549418658E+00	-4.40483665945E-01
3.88765418380E+05	-7.96211091836E+00	-1.64163726310E+02	1.08707695868E+01	-1.79963223429E+02	-4.49909852058E+01	-5.17410255508E+01	-6.06876190208E+00	-1.88754022117E-01
4.10956772975E+05	-9.41209335288E+00	-1.74018524517E+02	1.08414927793E+01	-1.79435410801E+02	-3.96700264527E+01	-1.00854697973E+02	-6.03561346228E+00	-4.99332426181E-01
4.33148127570E+05	-1.23911150336E+01	-1.76180126460E+02	1.08376307842E+01	-1.79878538270E+02	-4.31364301628E+01	1.59948103264E+02	-6.07266301225E+00	-2.50876872930E-01
4.55339482165E+05	-7.65310878013E+00	-1.78944405701E+02	1.08122754289E+01	1.79545555750E+02	-3.67832508393E+01	-1.78872195728E+02	-6.03295468624E+00	-5.52870349489E-01
4.77530836760E+05	-1.08957876411E+01	1.73786864178E+02	1.08187021734E+01	1.79912121435E+02	-5.08602427113E+01	-3.24794274550E+01	-6.04866958049E+00	-4.35058012576E-01
4.99722191355E+05	-9.36346486844E+00	1.56850188255E+02	1.08674110447E+01	1.79394659611E+02	-4.62306983524E+01	-8.28350993840E+01	-6.00510836528E+00	-1.82877044185E-02
5.21913545950E+05	-1.00043221286E+01	1.77698455826E+02	1.07826708235E+01	1.79518316075E+02	-4.24983287672E+01	-1.33644417022E+02	-6.01343913795E+00	-7.13739623812E-01
5.44104900545E+05	-8.37567642702E+00	-1.74475412155E+02	1.08753718473E+01	1.79155114110E+02	-3.83467346003E+01	-1.61736095893E+02	-6.01549046369E+00	-6.34934983387E-01
5.66296255139E+05	-8.74195147298E+00	-1.44277224041E+02	1.07850780524E+01	1.79123663795E+02	-4.00569317687E+01	1.03513707091E+02	-6.03169119665E+00	-2.98069253306E-01
5.88487609734E+05	-9.99169154438E+00	-1.64799544745E+02	1.08356521147E+01	1.78809807625E+02	-3.93674256228E+01	3.12828025530E+01	-6.04160613109E+00	-6.55865102863E-01
6.10678964329E+05	-9.66986909975E+00	1.74782379932E+02	1.08443281322E+01	1.78321948430E+02	-4.69968348609E+01	1.77511462498E+02	-6.02391690072E+00	-1.89871733602E-01
6.32870318924E+05	-9.70883397807E+00	-1.51858048080E+02	1.08639767263E+01	1.78533502329E+02	-4.04501403323E+01	1.57482414670E+02	-6.03620447344E+00	-3.87280070808E-01
6.55061673519E+05	-7.37379256514E+00	1.68172031941E+02	1.08564913001E+01	1.78093423532E+02	-4.50970716893E+01	9.26217407670E+01	-6.05641607101E+00	-7.33391575278E-02
6.77253028114E+05	-1.05374712482E+01	-1.50946334912E+02	1.08703045799E+01	1.77705658024E+02	-3.95416546289E+01	-8.52716956405E+01	-6.00139832302E+00	-1.01203581058E+00
6.99444382709E+05	-1.10833294372E+01	1.74661198304E+02	1.08307672598E+01	1.77771904732E+02	-3.87193924445E+01	-1.45592112522E+02	-5.99146957254E+00	-2.95031938066E-01
7.21635737304E+05	-9.68742643648E+00	-1.71602000189E+02	1.08203123980E+01	1.77287371673E+02	-3.69991714312E+01	-2.98185974322E+01	-6.01283138120E+00	-3.54289146651E-01
7.43827091899E+05	-8.15116267559E+00	1.69582322355E+02	1.08685866214E+01	1.77371109035E+02	-4.32082601460E+01	-9.89928146058E+01	-6.01500443010E+00	-4.85007035259E-01
7.66018446494E+05	-9.82406970520E+00	-1.74816376339E+02	1.08722980004E+01	1.77608216347E+02	-4.12658796623E+01	3.60885993190E+01	-6.02805319620E+00	-4.62803880488E-01
7.88209801089E+05	-9.94434979941E+00	-1.61008084880E+02	1.08321816388E+01	1.76994916599E+02	-3.96674122014E+01	1.58967448873E+02	-6.01787461784E+00	-6.14465342913E-01
8.10401155684E+05	-1.62228305571E+01	-1.78023171964E+02	1.08085249636E+01	1.77198970339E+02	-4.01488135202E+01	-3.95958218651E+01	-6.02779573606E+00	-1.19232458494E-01
8.32592510279E+05	-8.70613942433E+00	1.75729400242E+02	1.08453789771E+01	1.76411942790E+02	-3.71270609346E+01	4.96880657249E+01	-6.02943239952E+00	-3.88166290795E-01
8.54783864874E+05	-1.17191273285E+01	1.76656136890E+02	1.08958223074E+01	1.76625422720E+02	-4.25401900590E+01	3.56580231246E+01	-6.02781487661E+00	-4.56597863174E-01
8.76975219469E+05	-9.43275023270E+00	1.65370770016E+02	1.08484928850E+01	1.76647481967E+02	-4.14855357823E+01	-7.71589199012E+01	-6.03906193019E+00	-7.47392729311E-01
8.99166574064E+05	-1.25829722834E+01	1.46801845939E+02	1.08001956820E+01	1.75813990209E+02	-3.50519589839E+01	1.59758159512E+02	-6.01345432335E+00	-4.01547381125E-01
9.21357928659E+05	-1.26712919226E+01	-1.60942605129E+02	1.08739035432E+01	1.75903854956E+02	-4.04543934675E+01	7.79554691804E+01	-6.03194280271E+00	-3.92821094051E-01
9.43549283254E+05	-6.79106131579E+00	-1.72670682691E+02	1.08675653450E+01	1.75783693546E+02	-5.14752468370E+01	-1.57278403838E+02	-6.03375337754E+00	-5.52450530322E-01
9.65740637849E+05	-1.26949097435E+01	-1.61222635111E+02	1.08479900406E+01	1.75707290034E+02	-5.35880442085E+01	5.11668587726E+01	-5.98368176695E+00	-5.28036995895E-01
9.87931992444E+05	-6.89911998224E+00	-1.65062867791E+02	1.08000482696E+01	1.75576066097E+02	-4.64665215593E+01	9.11288165919E+01	-6.03855083727E+00	-4.16649772351E-01
1.01012334704E+06	-9.32417922468E+00	-1.78975585624E+02	1.08373503506E+01	1.75299687189E+02	-3.54517105507E+01	-1.28319468371E+02	-6.09292169442E+00	-4.07507052604E-01
1.03231470163E+06	-8.78753683667E+00	-1.79534767167E+02	1.08209135493E+01	1.75455916406E+02	-4.61126284092E+01	-7.10313225100E+01	-6.02665947401E+00	-6.73969654380E-01
1.05450605623E+06	-1.23525510987E+01	-1.68074978599E+02	1.08543483018E+01	1.74975476122E+02	-4.07331045866E+01	1.02718968892E+02	-6.04593609176E+00	-8.13395983807E-01
1.07669741082E+06	-8.71367794625E+00	-1.75065690735E+02	1.08587653370E+01	1.75005348269E+02	-4.24292606402E+01	-7.92776887331E+01	-6.02110559579E+00	-4.45358858091E-01
1.09888876542E+06	-1.17596808549E+01	1.63371816500E+02	1.08329623829E+01	1.74855574432E+02	-3.75370342966E+01	8.87654676510E+01	-6.05981255104E+00	-7.30360966716E-01
1.12108012001E+06	-6.76451914521E+00	-1.69857050368E+02	1.08810324636E+01	1.74603798438E+02	-3.65182774275E+01	5.28285945767E+01	-6.02858527884E+00	-7.21958374008E-01
1.14327147461E+06	-7.59111420575E+00	-1.78772234396E+02	1.08455547831E+01	1.74205005063E+02	-4.55753656605E+01	2.19136098295E+01	-6.00928574745E+00	-3.69407698980E-01
1.16546282920E+06	-6.83482464674E+00	1.71307251586E+02	1.08437044648E+01	1.74253794288E+02	-4.08383739565E+01	-1.32848046912E+02	-6.04312201730E+00	-4.27702878731E-01
1.18765418380E+06	-7.49020549411E+00	1.62333005729E+02	1.08741863751E+01	1.74112950498E+02	-3.66405574165E+01	-9.29238486629E+01	-6.05348988096E+00	-8.49828228812E-01
1.20984553839E+06	-8.34485841719E+00	-1.64529350585E+02	1.08563074774E+01	1.74331143630E+02	-4.00558570039E+01	1.31609424633E+02	-6.01937077758E+00	-1.04255463034E+00
1.23203689299E+06	-1.68316576990E+01	1.72734025351E+02	1.08597307160E+01	1.73871828348E+02	-4.58420136671E+01	4.02997547759E+01	-6.06172254630E+00	-5.42289663860E-01
1.25422824758E+06	-8.79925758724E+00	1.57721922384E+02	1.08165091664E+01	1.73743220506E+02	-3.63885564871E+01	-1.09092423837E+02	-6.00225101298E+00	-6.82812505438E-01
1.27641960218E+06	-1.48545825346E+01	1.55457286271E+02	1.08257222248E+01	1.73269379486E+02	-4.62001065693E+01	-1.63336356213E+02	-6.02367741365E+00	-7.48039729869E-01
1.29861095677E+06	-9.59521395127E+00	-1.77209597972E+02	1.08334117639E+01	1.73376783139E+02	-4.44376027370E+01	-5.80008013072E+01	-6.02482365379E+00	-7.70856346338E-01
1.32080231137E+06	-7.30579585197E+00	-1.67671422830E+02	1.07968176308E+01	1.73599805591E+02	-4.86093615607E+01	-1.03501887652E+02	-6.06634748151E+00	-1.04412960333E+00
1.34299366596E+06	-9.55710514817E+00	-1.63775889610E+02	1.08641224677E+01	1.73041598435E+02	-3.81810716791E+01	4.13743143278E+01	-6.00627516922E+00	-1.00158708109E+00
1.36518502056E+06	-7.28366822420E+00	1.68538217310E+02	1.09071745051E+01	1.73106289754E+02	-4.06214905123E+01	-1.25075243166E+02	-6.02635638644E+00	-7.24433001389E-01
1.38737637515E+06	-8.65221340148E+00	1.78850309647E+02	1.08338300349E+01	1.72623774285E+02	-4.14557303281E+01	1.47270387027E+02	-6.03351813054E+00	-5.75368466751E-01
1.40956772975E+06	-1.05165953106E+01	1.56091045435E+02	1.08343377416E+01	1.72835429990E+02	-4.91689751737E+01	2.72668932289E+01	-6.05632785305E+00	-9.10974897503E-01
1.43175908434E+06	-1.05630251758E+01	-1.59268193377E+02	1.08970402560E+01	1.72881974308E+02	-4.40083255377E+01	4.85344510976E+01	-5.99910415402E+00	-8.83810480863E-01
1.45395043894E+06	-7.97073898349E+00	1.73606852680E+02	1.08569705224E+01	1.72622429570E+02	-4.50520737103E+01	-9.42521182663E+00	-6.03563571314E+00	-1.01822712330E+00
1.47614179353E+06	-1.12937082003E+01	1.62933701017E+02	1.08376755134E+01	1.72165841138E+02	-5.18840430226E+01	-1.77641553531E+02	-6.01475607715E+00	-8.06451421095E-01
1.49833314813E+06	-1.02008844825E+01	1.74598915271E+02	1.08832571232E+01	1.72079360268E+02	-4.25043572417E+01	-8.88946043156E+01	-6.02619736181E+00	-6.17244470906E-01
1.52052450272E+06	-1.24106128274E+01	1.62410752542E+02	1.08355134912E+01	1.72352443030E+02	-3.90184685805E+01	-8.59651146979E+00	-6.03014533384E+00	-9.45176081600E-01
1.54271585732E+06	-1.12999496686E+01	-1.78682037978E+02	1.07919967694E+01	1.72105239819E+02	-4.77903512740E+01	-3.45528812536E+00	-6.00806381849E+00	-7.47296098927E-01
1.56490721191E+06	-7.58254946108E+00	1.67575381437E+02	1.08178166744E+01	1.71788442816E+02	-4.10865826264E+01	-1.22565289905E+02	-5.99444285897E+00	-9.30502624826E-01
1.58709856651E+06	-9.44674298687E+00	1.62389751382E+02	1.08634717120E+01	1.71818622677E+02	-3.72995664060E+01	8.32829827320E+01	-6.05650915563E+00	-1.02858170700E+00
1.60928992110E+06	-9.39035166005E+00	-1.67700710839E+02	1.08764257558E+01	1.71198428455E+02	-4.40240640658E+01	3.79594534717E+01	-5.99160031803E+00	-6.00720325961E-01
1.63148127570E+06	-8.50151274741E+00	1.64481871133E+02	1.07907530452E+01	1.71268516003E+02	-3.80111154737E+01	1.35168871562E+02	-6.00191307282E+00	-6.03361010990E-01
1.65367263029E+06	-9.95336373494E+00	1.63521956553E+02	1.08219708047E+01	1.71572941097E+02	-4.20649714205E+01	-3.87694667995E+00	-6.00462961914E+00	-8.55594565889E-01
1.67586398489E+06	-9.68819344574E+00	1.66227760210E+02	1.08264114934E+01	1.71082104009E+02	-3.66327382404E+01	9.05265370611E+01	-6.01887503688E+00	-7.23387465744E-01
1.69805533948E+06	-1.32798222750E+01	1.73914101491E+02	1.08088101635E+01	1.71021833197E+02	-5.26589301441E+01	-6.30833608976E+01	-6.02268976939E+00	-8.52365242449E-01
1.72024669408E+06	-1.14900535753E+01	-1.65880769790E+02	1.08394443835E+01	1.70908696968E+02	-4.11484008459E+01	1.02113279310E+02	-5.99131784819E+00	-6.57608374390E-01
1.74243804867E+06	-6.12431561655E+00	1.41883203906E+02	1.08468645640E+01	1.69989924396E+02	-3.31748110409E+01	-1.43013878184E+02	-6.03409945733E+00	-8.97638351114E-01
1.76462940327E+06	-1.13541532676E+01	1.59699448614E+02	1.08039977066E+01	1.70269422496E+02	-3.54230543526E+01	-1.13633139125E+02	-5.98946098278E+00	-7.21766842755E-01
1.78682075786E+06	-1.07097582301E+01	1.73427428897E+02	1.08039441090E+01	1.70695702150E+02	-3.18803139829E+01	-1.71863946638E+02	-6.06375303266E+00	-7.14258566186E-01
1.80901211246E+06	-1.08768436601E+01	1.68647870358E+02	1.08113331684E+01	1.70360507584E+02	-3.67476990543E+01	-1.40670113785E+02	-6.03355506029E+00	-8.20025710742E-01
1.83120346705E+06	-7.64068514180E+00	1.73790253939E+02	1.08731832612E+01	1.70222909122E+02	-4.38261955689E+01	6.30674562413E+01	-6.00499594742E+00	-9.73754429658E-01
1.85339482165E+06	-1.04704560042E+01	-1.61575820619E+02	1.07830662224E+01	1.70413423012E+02	-3.70923294970E+01	1.59630072017E+01	-6.05043852847E+00	-8.15794146748E-01
1.87558617624E+06	-8.88280196501E+00	-1.72356400678E+02	1.08546489954E+01	1.69819789014E+02	-3.68401184354E+01	1.57073638012E+02	-6.01883051965E+00	-9.83347310627E-01
1.89777753084E+06	-9.98227873261E+00	-1.79391211697E+02	1.07444399981E+01	1.69673335647E+02	-3.73942403335E+01	-1.71901099542E+02	-6.02089164738E+00	-8.02355203981E-01
1.91996888543E+06	-1.47221066035E+01	-1.77051559136E+02	1.07933091739E+01	1.69507880527E+02	-4.14032918405E+01	1.28309500124E+02	-6.01283789311E+00	-8.60259127561E-01
1.94216024003E+06	-9.59986402891E+00	1.61770153068E+02	1.08378387242E+01	1.69728664193E+02	-3.26794444657E+01	4.19021092049E+01	-5.94844334524E+00	-9.37492056230E-01
1.96435159462E+06	-1.04390590770E+01	-1.65860612268E+02	1.08376563952E+01	1.69127232971E+02	-4.62979023390E+01	-9.80037254326E+01	-6.01618161539E+00	-8.95379453974E-01
1.98654294922E+06	-9.16864789251E+00	1.73112878092E+02	1.08304317660E+01	1.69476921784E+02	-4.20763697080E+01	-9.39252154198E+01	-6.04689543925E+00	-8.62470408562E-01
2.00873430381E+06	-1.02668688729E+01	-1.70179036233E+02	1.08382043102E+01	1.69002195054E+02	-4.37266645955E+01	1.17183157246E+02	-6.03048459766E+00	-1.34631074899E+00
2.03092565841E+06	-9.98092092203E+00	1.68822961771E+02	1.07978657181E+01	1.69060820028E+02	-4.86932633419E+01	-4.84380994857E+01	-6.01324361239E+00	-9.70327036802E-01
2.05311701300E+06	-8.94101312562E+00	1.72250462894E+02	1.07386923237E+01	1.69279681618E+02	-4.72243810658E+01	2.07139362335E+01	-6.07176215614E+00	-7.20442645723E-01
2.07530836760E+06	-9.32679397918E+00	-1.69793909806E+02	1.07916687297E+01	1.68529189243E+02	-3.76276732661E+01	4.48536991994E+01	-6.02370511785E+00	-9.40941219072E-01
2.09749972219E+06	-9.34122598282E+00	1.75783187605E+02	1.08075901217E+01	1.68725100813E+02	-3.77163843772E+01	-3.41750227205E+01	-6.01527366293E+00	-1.65153960100E+00
2.11969107679E+06	-1.10479179798E+01	1.73514404009E+02	1.08676666136E+01	1.68415713367E+02	-5.13481438757E+01	-1.66347530496E+02	-6.02001715268E+00	-1.12588841375E+00
2.14188243138E+06	-9.41106923627E+00	1.72528606137E+02	1.08625993556E+01	1.68146444016E+02	-4.02069649692E+01	-1.38508034696E+02	-6.01932993156E+00	-1.11591401928E+00
2.16407378598E+06	-1.13888698955E+01	-1.78337016183E+02	1.07712628191E+01	1.68271402473E+02	-4.07932687607E+01	-2.06374115125E+01	-5.98554313668E+00	-1.16038037701E+00
2.18626514057E+06	-1.18062424013E+01	-1.69892592310E+02	1.08235495558E+01	1.67864838892E+02	-4.25567008856E+01	-1.39093989991E+02	-6.01720868130E+00	-9.45162230649E-01
2.20845649517E+06	-1.22106379205E+01	1.76874200603E+02	1.08580797461E+01	1.69018642769E+02	-4.10859001771E+01	1.27145677846E+02	-6.02896565129E+00	-1.25485835720E+00
2.23064784976E+06	-1.05994871991E+01	-1.73233599251E+02	1.07930945297E+01	1.67912317640E+02	-3.96165567566E+01	1.55335278266E+02	-6.04029311239E+00	-4.70823005727E-01
2.25283920436E+06	-6.84428264331E+00	1.60312804672E+02	1.08619390881E+01	1.67778865767E+02	-4.14093959407E+01	-1.50298665429E+02	-6.03200175806E+00	-1.21006080144E+00
2.27503055895E+06	-2.05160217310E+01	-1.67330689836E+02	1.08394224815E+01	1.67758482029E+02	-4.13289765748E+01	6.28286437835E+01	-6.03304940860E+00	-1.23577057639E+00
2.29722191355E+06	-1.01403349768E+01	-1.75271754332E+02	1.08027094070E+01	1.67863894699E+02	-4.06600139403E+01	-4.34026156833E+01	-6.04266247783E+00	-1.15538555258E+00
2.31941326814E+06	-1.31889470363E+01	-1.71926264359E+02	1.08101502216E+01	1.67403410925E+02	-3.58310271584E+01	-1.67541755774E+02	-6.02791784307E+00	-9.65405305074E-01
2.34160462274E+06	-9.00541605247E+00	1.47486301481E+02	1.08501667186E+01	1.66988309910E+02	-4.79516183006E+01	6.98505561663E+01	-6.01860982630E+00	-1.16900632768E+00
2.36379597733E+06	-9.30769113784E+00	-1.77197024073E+02	1.08450409651E+01	1.67274268084E+02	-3.66171888026E+01	-8.42944615657E+01	-6.04512983620E+00	-9.86605180116E-01
2.38598733193E+06	-6.59753165891E+00	-1.78552487386E+02	1.08304361894E+01	1.66915039403E+02	-4.45956380694E+01	1.39585695106E+02	-6.04509067639E+00	-1.25396250797E+00
2.40817868652E+06	-8.34520616153E+00	1.74886705832E+02	1.08424061140E+01	1.66474168808E+02	-3.82274228362E+01	-2.37959941219E+01	-5.98118302448E+00	-1.19595450420E+00
2.43037004112E+06	-1.27318334168E+01	-1.62463617021E+02	1.07779869459E+01	1.66920388254E+02	-3.69863533878E+01	-7.41349879878E+01	-6.00687141044E+00	-1.48446454288E+00
2.45256139571E+06	-7.77565330119E+00	1.59398623302E+02	1.08287158419E+01	1.66582935888E+02	-4.07360713441E+01	1.69888094529E+02	-6.03359053116E+00	-1.01464061887E+00
2.47475275031E+06	-7.78320362279E+00	-1.70913609674E+02	1.08482920114E+01	1.66177335314E+02	-4.63790970235E+01	-1.04947403562E+02	-6.05606900778E+00	-1.42614115226E+00
2.49694410490E+06	-1.34531580242E+01	1.72034475116E+02	1.08269463002E+01	1.66284579481E+02	-4.40185433978E+01	-1.73560541969E+02	-6.03294088498E+00	-1.14031387395E+00
2.51913545950E+06	-9.47465922430E+00	1.44422544653E+02	1.08616799123E+01	1.66182154315E+02	-3.89089046805E+01	5.67840867385E-01	-6.05180886496E+00	-1.19935148305E+00
2.54132681409E+06	-8.56948098732E+00	1.57452658872E+02	1.08257656625E+01	1.66037359465E+02	-4.19425070096E+01	-7.48205493956E+00	-6.03026500159E+00	-1.21191910868E+00
2.56351816869E+06	-8.20616877243E+00	1.66120931014E+02	1.08282512111E+01	1.66031342232E+02	-3.40696148576E+01	2.22159001337E+01	-6.01894371333E+00	-1.56787218116E+00
2.58570952328E+06	-1.23666787180E+01	-1.66216529323E+02	1.07786217042E+01	1.65868820419E+02	-4.59451948654E+01	-4.35404465386E+01	-6.00608281917E+00	-1.22808383000E+00
2.60790087788E+06	-1.36682655824E+01	-1.79678658252E+02	1.08110419246E+01	1.65750268548E+02	-4.26785275725E+01	-1.09471637064E+02	-6.01613328065E+00	-1.13800994404E+00
2.63009223247E+06	-1.36687409929E+01	1.59775099693E+02	1.08759493290E+01	1.65648875177E+02	-4.22539549426E+01	-7.74471579675E+00	-6.02887066882E+00	-1.32327289569E+00
2.65228358707E+06	-1.07656293877E+01	1.72916765511E+02	1.07990999138E+01	1.65342782974E+02	-3.69183685701E+01	8.57648317423E+01	-6.01014893558E+00	-1.63543716225E+00
2.67447494166E+06	-1.03272431778E+01	-1.75279392855E+02	1.08325783378E+01	1.65209597382E+02	-4.09910956119E+01	1.06370907985E+01	-6.06398340637E+00	-1.44453792485E+00
2.69666629626E+06	-1.05623100556E+01	1.72355264892E+02	1.08334567438E+01	1.65019624576E+02	-3.82731716046E+01	1.25423394225E+02	-6.01162499075E+00	-1.22106240973E+00
2.71885765085E+06	-7.37894413011E+00	1.72881069958E+02	1.08336811184E+01	1.65224302366E+02	-4.01214138945E+01	-3.35146952663E+01	-6.02664048051E+00	-1.47831116894E+00
2.74104900545E+06	-1.06129672393E+01	-1.75355377313E+02	1.08659194113E+01	1.65071812325E+02	-5.52463862753E+01	1.37333404849E+02	-6.02222187907E+00	-1.13403438307E+00
2.76324036004E+06	-1.17594750046E+01	-1.68869617412E+02	1.08229107719E+01	1.64762103115E+02	-4.41891754905E+01	1.32384983770E+02	-6.09504902497E+00	-1.53974711896E+00
2.78543171463E+06	-9.39465197323E+00	-1.71913756209E+02	1.07882218096E+01	1.64865974801E+02	-5.01059620467E+01	9.18413586605E+01	-6.02943883235E+00	-1.22390257116E+00
2.80762306923E+06	-1.42113161745E+01	1.75734746346E+02	1.08499707161E+01	1.64629385045E+02	-4.11112189258E+01	-1.75961291551E+02	-6.04127076685E+00	-1.13805894455E+00
2.82981442382E+06	-9.87522869409E+00	-1.74822266442E+02	1.08473345225E+01	1.64405797545E+02	-5.18477368484E+01	1.32680910353E+02	-6.02939334065E+00	-1.22690188789E+00
2.85200577842E+06	-9.55664925852E+00	1.77063138007E+02	1.08013864588E+01	1.64267792370E+02	-3.63886026789E+01	-1.54887573997E+02	-5.97944485143E+00	-1.20095746279E+00
2.87419713301E+06	-1.18037068281E+01	1.71910334551E+02	1.08234472163E+01	1.64300280982E+02	-3.72285340398E+01	2.66807342630E+01	-6.00655303944E+00	-1.49541089520E+00
