# Hz S DB R 50
! CMT, M5065, 19127446, 24.2.4/2
! Date: 10/29/2024 1:12:06 PM
! Data: Format (Calibration Info)
! Freq	S11:dB/Ang(F2)	S21:dB/Ang(F2)	S12:dB/Ang(F2)	S22:dB/Ang(F2)
3.00000000000E+05	-1.47341819320E+01	-1.74584571422E+02	7.64639828434E+00	-1.77873022187E+02	-3.92102742575E+01	-5.92254263433E+01	-5.99598867134E+00	-3.03359114409E-01
3.22191354595E+05	-1.42168261760E+01	1.72986754020E+02	7.60857192053E+00	-1.78599770229E+02	-4.47505777778E+01	7.13182264164E+01	-6.02475139668E+00	-2.88231617947E-01
3.44382709190E+05	-9.15711519315E+00	-1.69409579524E+02	7.60584015978E+00	-1.78674878313E+02	-6.16637280727E+01	1.45249709212E+02	-6.04926356895E+00	-1.96959181415E-01
3.66574063785E+05	-7.97562241847E+00	-1.74486669592E+02	7.66694819349E+00	-1.78848990653E+02	-4.85810974387E+01	-4.88207018101E+01	-5.99073731067E+00	-1.37776497033E-01
3.88765418380E+05	-9.83238563880E+00	-1.79149241307E+02	7.67876577130E+00	-1.79246164489E+02	-3.46366751594E+01	-1.46951217672E+02	-6.03855265501E+00	-5.28042646475E-01
4.10956772975E+05	-9.40902144020E+00	1.50964178618E+02	7.58090751642E+00	-1.79709657967E+02	-4.51821043444E+01	-1.25833637379E+02	-5.98196316329E+00	-1.15474898275E-01
4.33148127570E+05	-9.06730334596E+00	1.53264772795E+02	7.64259753076E+00	-1.79532981502E+02	-4.17632606908E+01	-1.10029146189E+02	-5.99311028435E+00	-2.41820127845E-01
4.55339482165E+05	-7.77502853834E+00	-1.74058849560E+02	7.65276815716E+00	-1.79728454340E+02	-4.45870954034E+01	-1.46777829798E+02	-6.02933425795E+00	-3.93735871761E-01
4.77530836760E+05	-1.23157966847E+01	-1.67427492518E+02	7.66993887799E+00	-1.79934907313E+02	-3.84172535392E+01	2.46864102006E+01	-6.00819261504E+00	-3.19505660125E-01
4.99722191355E+05	-8.03922682713E+00	1.75766094011E+02	7.61346644659E+00	1.79511676673E+02	-3.62311423262E+01	-1.32425878206E+02	-5.99966493372E+00	-5.26171373231E-01
5.21913545950E+05	-8.41830524360E+00	1.68270378186E+02	7.64369570838E+00	1.79586483273E+02	-4.72631154128E+01	2.81015214184E+01	-6.00326668502E+00	-4.35799094614E-01
5.44104900545E+05	-7.73988005712E+00	-1.76949499187E+02	7.64564050755E+00	1.79530337973E+02	-4.79648680425E+01	-1.57084341578E+02	-6.04103213111E+00	-5.30800947238E-01
5.66296255139E+05	-1.11716990465E+01	1.60153893849E+02	7.63172826916E+00	1.78909301213E+02	-3.85052191218E+01	-1.08909034372E+02	-5.98043687514E+00	-3.42313489388E-01
5.88487609734E+05	-1.06078668503E+01	-1.63263423236E+02	7.55712351903E+00	1.79174833130E+02	-5.72770517643E+01	-7.30933670550E+01	-6.01342448499E+00	-6.52148308377E-01
6.10678964329E+05	-8.16392477892E+00	-1.69595123671E+02	7.57088247721E+00	1.78903344320E+02	-4.60716778375E+01	6.80137122114E+01	-6.02481296162E+00	-3.31668759508E-01
6.32870318924E+05	-8.49056758059E+00	1.68840163403E+02	7.60392881735E+00	1.78768579983E+02	-4.37224426349E+01	-2.88641091333E+01	-6.00158772189E+00	-3.41372341025E-01
6.55061673519E+05	-7.50306402208E+00	-1.74738382019E+02	7.63732340616E+00	1.78315728909E+02	-3.77634877095E+01	-7.74705908063E+01	-6.07256852332E+00	-1.69837785680E-01
6.77253028114E+05	-7.68177215162E+00	-1.72599053000E+02	7.63985788234E+00	1.78071003432E+02	-4.04620846007E+01	-7.41791918673E+00	-5.98329869010E+00	-7.39836302753E-01
6.99444382709E+05	-1.06707641407E+01	1.77469714376E+02	7.64142487293E+00	1.77693102229E+02	-3.95437689331E+01	1.05311866221E+02	-6.02220243226E+00	-3.18506666524E-01
7.21635737304E+05	-6.42454582806E+00	1.79913863432E+02	7.60996214551E+00	1.77824877207E+02	-3.94243680492E+01	-1.43001037956E+02	-6.02335191546E+00	-4.05160709535E-01
7.43827091899E+05	-8.79184980025E+00	-1.65684517944E+02	7.65275491183E+00	1.77757999785E+02	-3.79312653760E+01	-3.15490227340E+01	-6.02704852852E+00	-5.41370896448E-01
7.66018446494E+05	-1.54599484423E+01	-1.61548979862E+02	7.65029497436E+00	1.78042613884E+02	-5.10390936094E+01	4.66568754615E+01	-5.99964335959E+00	-4.62558290432E-01
7.88209801089E+05	-8.37087992148E+00	1.78639925309E+02	7.60594174748E+00	1.78130288655E+02	-5.60676528363E+01	5.36004677817E+01	-6.01942799987E+00	-4.38265869356E-01
8.10401155684E+05	-1.06439810097E+01	-1.42643265354E+02	7.64699140417E+00	1.77586324324E+02	-4.21548350382E+01	-1.73396564537E+02	-6.03941509909E+00	-7.12406069055E-01
8.32592510279E+05	-9.03320706093E+00	-1.77894591857E+02	7.57072045173E+00	1.77074653264E+02	-3.79928529157E+01	2.34553115269E+01	-6.05361773321E+00	-3.08216041476E-01
8.54783864874E+05	-1.15864042378E+01	-1.74408694494E+02	7.71905444370E+00	1.76943949242E+02	-4.55879324340E+01	6.12790877479E+01	-6.03385147261E+00	-2.00032028344E-01
8.76975219469E+05	-1.14315791633E+01	-1.76143838510E+02	7.56614455178E+00	1.76992460621E+02	-5.07156768633E+01	7.01113308555E+01	-6.08283430546E+00	-8.39251435648E-01
8.99166574064E+05	-9.22950594578E+00	1.69235344169E+02	7.70766842200E+00	1.76992497189E+02	-4.08072216337E+01	1.65550009487E+01	-6.04185284550E+00	-4.88452294200E-01
9.21357928659E+05	-1.17901338906E+01	-1.71258966556E+02	7.63724994207E+00	1.76871233787E+02	-3.82906378083E+01	-1.50982431620E+02	-6.04030304573E+00	-8.24036148259E-01
9.43549283254E+05	-1.13341585932E+01	-1.63343963711E+02	7.63417364921E+00	1.76528958869E+02	-3.40625627955E+01	-8.14282732221E-02	-6.01992451736E+00	-7.02547196034E-01
9.65740637849E+05	-9.38618761300E+00	-1.60023950169E+02	7.65403344727E+00	1.77202358386E+02	-3.26204826755E+01	-1.45703196243E+02	-6.03606904837E+00	-6.18116131182E-01
9.87931992444E+05	-8.11791114007E+00	1.67547547981E+02	7.61057268095E+00	1.76489191362E+02	-4.45338666569E+01	-2.51075938981E+01	-6.01129688926E+00	-6.17989076045E-01
1.01012334704E+06	-6.54323404847E+00	1.73720029553E+02	7.68503556167E+00	1.76197478220E+02	-5.03205782413E+01	1.55363789137E+02	-6.04777588632E+00	-3.86667865864E-01
1.03231470163E+06	-1.18767576436E+01	1.75638026382E+02	7.59134222067E+00	1.75873652157E+02	-5.11689737186E+01	2.71112458418E+01	-6.06206252446E+00	-5.78611681743E-01
1.05450605623E+06	-9.69446540765E+00	-1.69395902752E+02	7.63295606261E+00	1.76180391776E+02	-4.55194435287E+01	-1.47329183917E+02	-6.04897144575E+00	-4.47671227653E-01
1.07669741082E+06	-1.00209790336E+01	-1.72562620595E+02	7.59293239554E+00	1.76014436675E+02	-4.33351332555E+01	3.01639808525E+01	-6.01929972720E+00	-6.36004102085E-01
1.09888876542E+06	-1.13709657959E+01	1.75288900080E+02	7.65135902110E+00	1.75768211843E+02	-3.90380053812E+01	5.97984805865E+01	-6.01589654877E+00	-6.83411146768E-01
1.12108012001E+06	-5.10959043243E+00	-1.78358607099E+02	7.61853014756E+00	1.75704314825E+02	-3.97804215432E+01	-6.99850287917E+01	-5.99536807421E+00	-9.22753512373E-01
1.14327147461E+06	-1.02617646592E+01	1.70941553683E+02	7.59440774865E+00	1.75386894305E+02	-3.42952948279E+01	-6.66300464789E+01	-6.02188805416E+00	-4.50658624745E-01
1.16546282920E+06	-1.08850905403E+01	1.73759372238E+02	7.68347948519E+00	1.75320320182E+02	-4.43785563109E+01	1.22328828387E+02	-6.03921655372E+00	-6.23603993126E-01
1.18765418380E+06	-9.69636020895E+00	-1.78599249937E+02	7.67067741842E+00	1.75335703886E+02	-5.44805327150E+01	-1.54969536289E+02	-5.99105070377E+00	-8.77672306167E-01
1.20984553839E+06	-8.81641178743E+00	-1.52092028129E+02	7.61430286761E+00	1.75249651537E+02	-5.73872731769E+01	2.23965416694E+01	-6.04474429928E+00	-8.04726526648E-01
1.23203689299E+06	-8.60753934070E+00	1.66010085237E+02	7.59864962471E+00	1.75051113176E+02	-3.63520980004E+01	1.28906379064E+02	-6.03185852723E+00	-6.44353548777E-01
1.25422824758E+06	-6.53181493700E+00	1.73082238117E+02	7.67719905495E+00	1.74850118776E+02	-3.75915931445E+01	1.03612555631E+02	-6.08124566609E+00	-5.27614528511E-01
1.27641960218E+06	-6.26791480846E+00	-1.77068459991E+02	7.68732642055E+00	1.74682531788E+02	-4.68321752562E+01	-1.19594676456E+02	-6.04522570072E+00	-7.13119042815E-01
1.29861095677E+06	-9.19147557613E+00	1.71172590197E+02	7.65838887942E+00	1.74498319099E+02	-3.99169292200E+01	-4.82702453992E+01	-6.02675503147E+00	-5.57254256029E-01
1.32080231137E+06	-8.18793954327E+00	-1.74877790158E+02	7.60837901951E+00	1.74535872418E+02	-4.13853225840E+01	5.66986876696E+01	-6.02973582170E+00	-1.12937357806E+00
1.34299366596E+06	-1.01520669560E+01	1.65506352078E+02	7.71052801357E+00	1.74456307961E+02	-4.25932271241E+01	1.36565798408E+02	-6.02629559930E+00	-8.38493567920E-01
1.36518502056E+06	-1.01028011064E+01	1.49200248669E+02	7.65405683498E+00	1.74038207085E+02	-4.17686371612E+01	-1.12959774163E+02	-6.04033432945E+00	-8.12886001315E-01
1.38737637515E+06	-1.06642638690E+01	-1.77473069746E+02	7.64029917207E+00	1.74627532994E+02	-4.76069642942E+01	-4.89758321396E+01	-6.03691811889E+00	-6.57094110957E-01
1.40956772975E+06	-1.12471224262E+01	-1.75550324657E+02	7.55283734082E+00	1.73767279004E+02	-4.55235451426E+01	-7.07141230296E+01	-6.04579190454E+00	-8.21665163264E-01
1.43175908434E+06	-1.37290411133E+01	1.58101882564E+02	7.56113897466E+00	1.73307182994E+02	-4.51499731944E+01	-9.49975304306E+01	-6.04730409079E+00	-7.94771366450E-01
1.45395043894E+06	-1.02348063446E+01	1.68209218033E+02	7.67231424777E+00	1.73496064640E+02	-3.84022242627E+01	-1.32080708548E+02	-6.08794920908E+00	-9.39740947148E-01
1.47614179353E+06	-6.62762719836E+00	1.73033748558E+02	7.64083162084E+00	1.73835853886E+02	-4.30465867753E+01	1.60759015256E+02	-5.98794076422E+00	-7.55554904605E-01
1.49833314813E+06	-1.34429116543E+01	1.64189984521E+02	7.59344741512E+00	1.73175817044E+02	-5.23197719796E+01	1.44062875910E+02	-6.00836046775E+00	-8.59844637708E-01
1.52052450272E+06	-1.04370910030E+01	1.79572164956E+02	7.70684844583E+00	1.73150810189E+02	-4.42613807787E+01	-9.51544446001E+01	-6.04403065478E+00	-8.13433474091E-01
1.54271585732E+06	-1.06704887579E+01	-1.50934760210E+02	7.67954267315E+00	1.73400949802E+02	-3.94774479128E+01	1.36763134395E+02	-6.04694607467E+00	-7.24177350788E-01
1.56490721191E+06	-1.21640309242E+01	1.76021849118E+02	7.56010172275E+00	1.72908312305E+02	-5.32426716604E+01	5.89550205426E+01	-6.02459211538E+00	-9.03602444729E-01
1.58709856651E+06	-1.02362737848E+01	1.67836723586E+02	7.63248357633E+00	1.73066895084E+02	-4.85660903994E+01	1.64262164757E+02	-6.01947817736E+00	-8.97475286315E-01
1.60928992110E+06	-1.19516368924E+01	1.75662629183E+02	7.66725416964E+00	1.72764726953E+02	-3.79372305096E+01	-1.25967180211E+02	-6.01706998891E+00	-9.71392903391E-01
1.63148127570E+06	-1.09900097373E+01	1.59235801543E+02	7.65556950706E+00	1.72424866005E+02	-3.49309332924E+01	2.44254499494E+01	-6.03185305956E+00	-9.07680265107E-01
1.65367263029E+06	-8.76407535273E+00	1.63274695240E+02	7.62947984262E+00	1.72417003203E+02	-3.58338737867E+01	-6.91442962811E+01	-6.04674974634E+00	-9.83257319738E-01
1.67586398489E+06	-8.33431063710E+00	1.60726399650E+02	7.63113849608E+00	1.71914784393E+02	-3.75347548260E+01	-3.69145922768E+01	-6.03740316716E+00	-1.16948743215E+00
1.69805533948E+06	-8.91671920085E+00	1.55969488000E+02	7.59049505509E+00	1.72692298298E+02	-3.93407615864E+01	-1.32938919302E+02	-6.02246377910E+00	-6.13208459956E-01
1.72024669408E+06	-6.58800299348E+00	-1.75079623010E+02	7.64627952691E+00	1.72004053974E+02	-4.02566644169E+01	7.16131191299E+01	-6.00916958479E+00	-7.21271709305E-01
1.74243804867E+06	-1.13045253614E+01	1.67179005799E+02	7.62424701349E+00	1.72449545689E+02	-4.25034857826E+01	-1.83898930384E+01	-5.98309536479E+00	-8.53868570511E-01
1.76462940327E+06	-1.10544716938E+01	1.75479188215E+02	7.66132928742E+00	1.71299053759E+02	-5.17886149202E+01	-3.15061233310E+01	-6.07670755560E+00	-8.30514789091E-01
1.78682075786E+06	-1.45740538000E+01	1.63313166973E+02	7.58982060996E+00	1.72093441766E+02	-6.69434828154E+01	-5.48409469964E+01	-6.07275864637E+00	-9.69900347278E-01
1.80901211246E+06	-7.99057546649E+00	-1.72005924033E+02	7.55998775104E+00	1.71785006497E+02	-5.54316108866E+01	-7.26541361923E+01	-6.01208114359E+00	-1.07581452046E+00
1.83120346705E+06	-1.03155370758E+01	1.63034197443E+02	7.66078567040E+00	1.71878994506E+02	-4.45416066602E+01	1.69554057391E+02	-5.98470463923E+00	-1.05386461199E+00
1.85339482165E+06	-1.21874997206E+01	1.71320269087E+02	7.68469487858E+00	1.71521884046E+02	-3.65257250650E+01	-2.91194121353E+00	-5.99222574629E+00	-8.15143507882E-01
1.87558617624E+06	-1.08189478193E+01	-1.64713653642E+02	7.62016381955E+00	1.71640900479E+02	-3.71019807387E+01	9.52785435191E+01	-6.00248882443E+00	-1.08675692297E+00
1.89777753084E+06	-1.35108035802E+01	-1.79647996025E+02	7.60008092430E+00	1.71002097317E+02	-3.88785183085E+01	-1.35093507392E+02	-6.05069425164E+00	-8.08772258743E-01
1.91996888543E+06	-1.12392131365E+01	-1.66469522228E+02	7.71097013911E+00	1.72073044972E+02	-3.91655629687E+01	9.93394849587E+01	-5.99210594002E+00	-9.77406800089E-01
1.94216024003E+06	-9.74953328831E+00	1.59555394490E+02	7.63760140978E+00	1.70971780007E+02	-4.17841661480E+01	-6.31211443482E+01	-5.99686120399E+00	-7.37767821334E-01
1.96435159462E+06	-8.21230837763E+00	-1.68455784491E+02	7.63290635907E+00	1.71117851023E+02	-4.41097104022E+01	-9.28562845241E+01	-6.01460225527E+00	-9.16547974669E-01
1.98654294922E+06	-8.04979745756E+00	1.68354303954E+02	7.61708521672E+00	1.71021474019E+02	-4.21451114689E+01	-4.43779457912E+01	-6.03531789904E+00	-6.77520882382E-01
2.00873430381E+06	-7.55362375257E+00	1.78136055987E+02	7.62782017138E+00	1.70710416352E+02	-4.91917261121E+01	1.13244000113E+02	-6.01968457564E+00	-9.48291683170E-01
2.03092565841E+06	-9.29002862045E+00	1.79112743158E+02	7.68264331067E+00	1.70623558601E+02	-4.99165457449E+01	-1.23384814828E+02	-6.01256787108E+00	-1.15695411437E+00
2.05311701300E+06	-8.38312822748E+00	1.71328416389E+02	7.63675043101E+00	1.70523993642E+02	-5.37436138351E+01	-5.79903220452E+01	-6.07739434019E+00	-1.01429385801E+00
2.07530836760E+06	-9.94770850542E+00	-1.72055058009E+02	7.70119172320E+00	1.70612387049E+02	-4.10941029082E+01	1.62637859754E+02	-6.00154457183E+00	-1.14204967245E+00
2.09749972219E+06	-1.18161355312E+01	-1.67579437307E+02	7.59962008979E+00	1.70589105245E+02	-4.48798700769E+01	1.50935985309E+02	-6.03117100061E+00	-1.05610319706E+00
2.11969107679E+06	-1.01889495008E+01	1.66830368481E+02	7.55766797681E+00	1.70538913432E+02	-4.34167789410E+01	4.84192686378E+01	-6.07921887862E+00	-1.21382295535E+00
2.14188243138E+06	-1.22585742230E+01	-1.61027431911E+02	7.67160620938E+00	1.70092272935E+02	-3.69888146917E+01	-1.73852796187E+02	-6.03940624455E+00	-9.29225519865E-01
2.16407378598E+06	-1.15901817798E+01	1.73645606670E+02	7.64361500247E+00	1.69961237343E+02	-4.70237115164E+01	-1.70336376119E+02	-6.01585451004E+00	-1.15988727152E+00
2.18626514057E+06	-1.30576135563E+01	-1.74605940087E+02	7.68388269138E+00	1.70034718123E+02	-4.92368003124E+01	1.52136948240E+02	-6.04517179995E+00	-1.27808247337E+00
2.20845649517E+06	-9.98298686451E+00	1.65726492259E+02	7.59459611887E+00	1.69720116148E+02	-4.60224042008E+01	-7.92836009227E+01	-6.02646683800E+00	-1.46594962444E+00
2.23064784976E+06	-1.01762668204E+01	1.78026658740E+02	7.64824431055E+00	1.69377087514E+02	-5.33632581796E+01	-5.60841038592E+01	-6.01740997257E+00	-1.19995242481E+00
2.25283920436E+06	-9.81265724211E+00	-1.67424838192E+02	7.69140250783E+00	1.69538234965E+02	-3.59295331064E+01	7.01233550909E+01	-6.02128941852E+00	-9.77997163769E-01
2.27503055895E+06	-1.21934066154E+01	1.59655853176E+02	7.59142023479E+00	1.69676806463E+02	-3.79321017048E+01	1.34055147333E+02	-6.00127876883E+00	-1.08825178133E+00
2.29722191355E+06	-7.47586347942E+00	1.77971382424E+02	7.64732825232E+00	1.69250851432E+02	-3.65566072580E+01	3.93546220134E+00	-6.03320949760E+00	-1.02602405865E+00
2.31941326814E+06	-9.08890793085E+00	1.61599065410E+02	7.57733504556E+00	1.69111683799E+02	-3.94895604731E+01	-7.63622994717E+01	-6.01295850492E+00	-1.19656006595E+00
2.34160462274E+06	-1.01373489764E+01	1.61732428454E+02	7.65189555466E+00	1.69006578632E+02	-3.15111755852E+01	-8.94716749934E+00	-6.03335269463E+00	-1.25186498627E+00
2.36379597733E+06	-8.88945519992E+00	-1.76465695678E+02	7.65329892365E+00	1.68967844471E+02	-3.90150966697E+01	1.58706806252E+02	-6.03472322172E+00	-1.13040019017E+00
2.38598733193E+06	-1.16438878790E+01	1.66832161302E+02	7.64139948537E+00	1.68802299815E+02	-3.30477104806E+01	-4.24694925343E+01	-5.99978567520E+00	-1.30506297099E+00
2.40817868652E+06	-1.11804532341E+01	-1.66520671984E+02	7.61032909491E+00	1.69136433294E+02	-4.60389177104E+01	3.97844917202E+01	-6.02918526996E+00	-1.12265356126E+00
2.43037004112E+06	-9.37853152555E+00	1.61624148294E+02	7.67594700327E+00	1.68837190527E+02	-5.40350227909E+01	-1.30354414080E+02	-6.01436658334E+00	-1.48559750558E+00
2.45256139571E+06	-8.53577670597E+00	1.74209076138E+02	7.61106687646E+00	1.68634537567E+02	-4.88140387532E+01	-2.24585805810E+01	-6.03781744314E+00	-9.34000818424E-01
2.47475275031E+06	-1.00973001957E+01	-1.57271320409E+02	7.61930726128E+00	1.68461666537E+02	-4.46448667769E+01	1.68821711453E+02	-6.02528579436E+00	-1.11727676537E+00
2.49694410490E+06	-1.18484726389E+01	-1.73700026394E+02	7.60927160086E+00	1.68487976661E+02	-4.05807873258E+01	-1.26287511913E+02	-6.04799619846E+00	-1.19507317749E+00
2.51913545950E+06	-1.21968008503E+01	1.66141525436E+02	7.63548990440E+00	1.68588171722E+02	-4.10480235346E+01	-1.82347519764E+01	-6.02314302522E+00	-1.05033899726E+00
2.54132681409E+06	-9.72293979473E+00	1.74653926112E+02	7.62757566537E+00	1.68219908099E+02	-3.85630848467E+01	-2.19084747310E+01	-6.00674818524E+00	-1.75955871722E+00
2.56351816869E+06	-7.63419960095E+00	-1.71269546746E+02	7.63761287833E+00	1.68579855573E+02	-4.89619302371E+01	-5.75036003579E+01	-5.98998089013E+00	-1.20585007326E+00
2.58570952328E+06	-1.08580710759E+01	1.61918198846E+02	7.61991043429E+00	1.67765695828E+02	-4.04195981165E+01	-9.99588215810E+01	-6.06297751445E+00	-1.40935057823E+00
2.60790087788E+06	-1.00533166808E+01	1.64956617975E+02	7.63963766894E+00	1.67870481332E+02	-5.62833139571E+01	1.62077607067E+02	-6.02190751655E+00	-1.26926159610E+00
2.63009223247E+06	-1.34944221882E+01	1.70077724746E+02	7.64938449056E+00	1.67784035935E+02	-4.40128720819E+01	1.43533530707E+02	-6.02767998898E+00	-1.26129022585E+00
2.65228358707E+06	-1.13009418873E+01	1.68250224950E+02	7.60838849882E+00	1.67496892748E+02	-4.22717725947E+01	-9.58694859964E+01	-6.06408711366E+00	-1.81350816395E+00
2.67447494166E+06	-1.35620055148E+01	-1.70958309391E+02	7.63128454419E+00	1.67415546023E+02	-5.16780744699E+01	-8.58264797255E+01	-6.06479213134E+00	-1.33694010232E+00
2.69666629626E+06	-1.20430561425E+01	-1.72726288139E+02	7.64710990466E+00	1.67503258035E+02	-4.22142515292E+01	-1.04517693237E+02	-6.00777688378E+00	-1.42971552628E+00
2.71885765085E+06	-9.30717789551E+00	1.66865746900E+02	7.56942972453E+00	1.67219024477E+02	-4.25534676966E+01	1.50924480208E+02	-6.01463642641E+00	-1.16291700277E+00
2.74104900545E+06	-1.13722291790E+01	-1.70082155779E+02	7.65276597285E+00	1.67076078831E+02	-4.25548957348E+01	1.07627377945E+02	-5.99712034918E+00	-1.40327158681E+00
2.76324036004E+06	-1.22586417190E+01	1.71152263002E+02	7.65105181092E+00	1.67441171554E+02	-4.47257459722E+01	-3.07062476584E+01	-5.98953674855E+00	-1.30932998798E+00
2.78543171463E+06	-9.72903110629E+00	-1.75584334544E+02	7.68755213070E+00	1.66761760311E+02	-4.51995997763E+01	-1.26152730892E+01	-6.00272553273E+00	-1.16936231838E+00
2.80762306923E+06	-9.59338932185E+00	1.66777465051E+02	7.60913395458E+00	1.66681702338E+02	-3.70966493930E+01	7.16669737060E+01	-6.00302010924E+00	-1.35363138229E+00
2.82981442382E+06	-9.50403644226E+00	-1.76302676356E+02	7.61082858088E+00	1.66407309813E+02	-3.60309684601E+01	1.66034348793E+02	-5.99946184041E+00	-1.44687925871E+00
2.85200577842E+06	-7.46428173119E+00	-1.74956531766E+02	7.58469682224E+00	1.66822587972E+02	-3.74221676940E+01	-1.40291569083E+01	-6.05806580109E+00	-1.39449354965E+00
2.87419713301E+06	-8.51067331778E+00	-1.72725866678E+02	7.68130448892E+00	1.66844269359E+02	-4.73545714809E+01	-1.26415650049E+01	-6.01496122317E+00	-1.23571014606E+00
