# Hz S DB R 50
! CMT, M5065, 19127446, 24.2.4/2
! Date: 10/29/2024 1:07:13 PM
! Data: Format (Calibration Info)
! Freq	S11:dB/Ang(F2)	S21:dB/Ang(F2)	S12:dB/Ang(F2)	S22:dB/Ang(F2)
3.00000000000E+05	-7.11059637510E+00	-1.60962538371E+02	6.30491632977E+00	-1.78037296084E+02	-5.01058300131E+01	6.50076216650E+01	-6.00184792769E+00	-2.31819022718E-01
3.22191354595E+05	-1.49278902173E+01	1.78812376742E+02	6.21940689388E+00	-1.78031597352E+02	-5.57252016153E+01	-5.84312629398E+00	-6.04440082033E+00	-2.18521382425E-01
3.44382709190E+05	-1.04569911067E+01	-1.67868610259E+02	6.15768489490E+00	-1.78730655718E+02	-5.66557798395E+01	4.50723421447E+01	-6.04512526638E+00	-5.20325807398E-01
3.66574063785E+05	-1.16375389072E+01	1.77783577234E+02	6.20058908221E+00	-1.78955395573E+02	-3.55380907644E+01	3.52482127334E+01	-6.00762629430E+00	-2.86093603407E-01
3.88765418380E+05	-1.04466985307E+01	-1.52079314679E+02	6.24637525374E+00	-1.78847058923E+02	-3.69393047817E+01	1.74200862134E+02	-6.01746106264E+00	-3.37236568441E-01
4.10956772975E+05	-1.04276362293E+01	1.50460403164E+02	6.15603789726E+00	-1.79561115208E+02	-4.73473469806E+01	5.55361128254E+01	-6.02986558614E+00	-4.36952568455E-01
4.33148127570E+05	-8.27866008506E+00	1.77480626910E+02	6.17033153401E+00	-1.79509109713E+02	-3.93287983272E+01	-2.30088948196E+01	-6.03878690425E+00	-9.46950071689E-02
4.55339482165E+05	-1.64299833337E+01	-1.59637241905E+02	6.14256197816E+00	-1.79491769851E+02	-4.60175348928E+01	-3.05668131007E+01	-5.99129469058E+00	-2.12501992501E-01
4.77530836760E+05	-1.10149932744E+01	-1.67283579584E+02	6.15720323464E+00	1.79392966420E+02	-4.66167615163E+01	-1.58321362513E+02	-6.02548433388E+00	-5.10690145428E-01
4.99722191355E+05	-9.63432971210E+00	1.74256104935E+02	6.21722328099E+00	1.79818414321E+02	-4.35789986951E+01	-5.93646530634E+01	-6.06482965298E+00	-1.04958251307E-01
5.21913545950E+05	-8.77851700203E+00	1.73566929871E+02	6.19643538419E+00	1.79621334354E+02	-3.92600091495E+01	1.38051865828E+01	-5.98818899835E+00	-2.94226864701E-01
5.44104900545E+05	-9.53251052781E+00	-1.68970621895E+02	6.26934207132E+00	1.79931744450E+02	-3.77206429770E+01	-1.11793797213E+02	-6.01775560144E+00	-4.27614269076E-01
5.66296255139E+05	-1.28100368594E+01	1.64206202661E+02	6.20577417823E+00	1.79669978307E+02	-4.53560065578E+01	1.35368251138E+02	-6.04198840566E+00	-4.49231731135E-01
5.88487609734E+05	-1.01842050329E+01	-1.68395428285E+02	6.26879130839E+00	1.79071987997E+02	-3.57576730558E+01	-6.58351904738E+01	-6.00607793092E+00	-5.19689019212E-01
6.10678964329E+05	-1.03797186533E+01	-1.47533923938E+02	6.16060261961E+00	1.79015107928E+02	-4.24530142932E+01	1.02976735850E+02	-6.00762977902E+00	1.71771336511E-01
6.32870318924E+05	-9.98376429952E+00	-1.71516517660E+02	6.21937018827E+00	1.78873747909E+02	-4.72067868537E+01	9.53691718017E+01	-6.03289930772E+00	-4.37208398690E-01
6.55061673519E+05	-7.03457910124E+00	-1.72923792737E+02	6.17987297063E+00	1.78900717792E+02	-3.73898058349E+01	-7.77378628682E+01	-6.05904663135E+00	-3.82709437702E-01
6.77253028114E+05	-9.73310193820E+00	-1.64679819471E+02	6.16878317618E+00	1.78929880673E+02	-3.64042404016E+01	1.50907550771E+02	-6.02892596488E+00	-5.69151412341E-01
6.99444382709E+05	-1.10190707716E+01	-1.71721986598E+02	6.29322364263E+00	1.78214357936E+02	-4.42977645463E+01	1.73841748030E+02	-6.06756437075E+00	-3.16566786919E-01
7.21635737304E+05	-1.10377558467E+01	1.79002687333E+02	6.22577046623E+00	1.78461883050E+02	-4.03926546787E+01	7.69549634780E+01	-6.00516919002E+00	-3.68990600252E-01
7.43827091899E+05	-9.71802296370E+00	-1.77694754488E+02	6.29844447697E+00	1.77856566079E+02	-3.23949769072E+01	9.45460744808E+01	-6.07474792950E+00	-6.34643625255E-01
7.66018446494E+05	-9.93955626251E+00	-1.75151781383E+02	6.22729433530E+00	1.77596845309E+02	-4.45952634096E+01	1.71673741077E+02	-6.00770080220E+00	-6.51867096386E-01
7.88209801089E+05	-8.71636596486E+00	-1.74291516398E+02	6.24925770278E+00	1.77554979292E+02	-4.07051394504E+01	-4.46069045620E+01	-6.02065969290E+00	-5.02243403451E-01
8.10401155684E+05	-7.70053155453E+00	1.69387077098E+02	6.18395771354E+00	1.77026008336E+02	-4.34716546565E+01	-1.41507091966E+02	-5.97295954605E+00	-4.89739594037E-01
8.32592510279E+05	-1.17405827376E+01	1.69855894426E+02	6.23993654639E+00	1.77464698825E+02	-3.83710542250E+01	5.60543610217E+01	-5.99369396776E+00	-4.34541807520E-01
8.54783864874E+05	-8.21629633202E+00	1.73540085228E+02	6.16093290038E+00	1.77627409417E+02	-4.25316679289E+01	-3.38856710793E+01	-5.98282910423E+00	-3.98339983528E-01
8.76975219469E+05	-9.95052271639E+00	1.72328693130E+02	6.24767653415E+00	1.77421621303E+02	-3.87197495265E+01	-1.63861599651E+02	-6.02425699973E+00	-5.43994804308E-01
8.99166574064E+05	-1.52360946784E+01	1.69169369949E+02	6.22021910730E+00	1.76950928681E+02	-4.15379112866E+01	-1.48951373826E+02	-5.98134348166E+00	-5.77200700885E-01
9.21357928659E+05	-8.59004535807E+00	-1.74636961583E+02	6.19649685089E+00	1.77233056574E+02	-3.94779483563E+01	-7.96157835539E+01	-6.00972896321E+00	-5.94488018800E-01
9.43549283254E+05	-7.30269657559E+00	1.79371860403E+02	6.29985243776E+00	1.75877913753E+02	-3.90963767570E+01	1.39071725078E+01	-6.00675693923E+00	-4.76850651037E-01
9.65740637849E+05	-8.93475317827E+00	-1.76173360508E+02	6.22539095689E+00	1.76352680262E+02	-3.75702668741E+01	6.43381183629E+01	-6.02769809998E+00	-5.00756145932E-01
9.87931992444E+05	-9.29189787385E+00	-1.71622802335E+02	6.14946163038E+00	1.76676246185E+02	-4.63572263292E+01	-1.64357727591E+02	-6.04806570643E+00	-4.44411156197E-01
1.01012334704E+06	-1.41387555764E+01	1.70467191270E+02	6.14685653914E+00	1.76978459095E+02	-4.99752827450E+01	-4.26240894438E+01	-5.99957384167E+00	-4.75258848568E-01
1.03231470163E+06	-8.79711940802E+00	-1.69008384608E+02	6.19821568963E+00	1.76814845739E+02	-3.90188978551E+01	1.10579738277E+01	-6.03958918388E+00	-5.60084788590E-01
1.05450605623E+06	-7.67868379614E+00	1.68817787820E+02	6.24400694492E+00	1.75485845470E+02	-3.58336014377E+01	-8.90121047884E+01	-6.00928532416E+00	-7.54876359531E-01
1.07669741082E+06	-9.51755338590E+00	-1.73818693250E+02	6.25557686879E+00	1.76297870732E+02	-3.53040459185E+01	-5.59937398485E+01	-6.03619157415E+00	-3.91455052897E-01
1.09888876542E+06	-1.03290131643E+01	1.56241596097E+02	6.20584173933E+00	1.76020885389E+02	-4.49574621117E+01	1.15378364588E+02	-6.01922190903E+00	-5.80796154640E-01
1.12108012001E+06	-1.53451083632E+01	1.71858938922E+02	6.25880192010E+00	1.75650357290E+02	-3.67078720783E+01	-1.29309752675E+02	-6.01872617565E+00	-5.71411848110E-01
1.14327147461E+06	-1.70849103313E+01	-1.75738701649E+02	6.33311321598E+00	1.75760751898E+02	-4.55939996446E+01	1.23317054911E+01	-6.02877120403E+00	-7.73726608912E-01
1.16546282920E+06	-9.79391293922E+00	-1.71936225842E+02	6.29404460036E+00	1.75951058175E+02	-3.90020929463E+01	1.00521445353E+02	-6.02299645801E+00	-7.67880052521E-01
1.18765418380E+06	-1.22600071208E+01	1.61782915594E+02	6.24259157527E+00	1.75573107306E+02	-3.50979818612E+01	-4.55769792804E+01	-6.05297989174E+00	-4.99783924060E-01
1.20984553839E+06	-1.12511004254E+01	-1.75614001127E+02	6.17860458799E+00	1.75012462605E+02	-4.06854822770E+01	3.15015492261E+01	-6.03604929668E+00	-1.14018306264E+00
1.23203689299E+06	-9.38793683807E+00	-1.78568500887E+02	6.20307472788E+00	1.75343039549E+02	-3.74633844962E+01	5.33212789869E+01	-6.02400714002E+00	-4.91493608601E-01
1.25422824758E+06	-1.33529698478E+01	1.71145401617E+02	6.19506838289E+00	1.75023116848E+02	-4.25843081482E+01	2.95194935731E+01	-6.00471201646E+00	-5.39393240821E-01
1.27641960218E+06	-1.15860843595E+01	-1.67664145318E+02	6.20873924352E+00	1.75164607046E+02	-4.68516248962E+01	-5.44020702744E+00	-6.02544225370E+00	-3.67511531293E-01
1.29861095677E+06	-1.30665218981E+01	1.43857640508E+02	6.19723902412E+00	1.74681901791E+02	-5.10143131432E+01	2.60459259728E+01	-6.03512736984E+00	-4.30299691444E-01
1.32080231137E+06	-1.09500719676E+01	-1.76160152582E+02	6.22540636631E+00	1.74432965079E+02	-4.44860830512E+01	4.36355234957E+01	-6.02097077548E+00	-9.88363646406E-01
1.34299366596E+06	-1.00839909162E+01	-1.78580485523E+02	6.13844227357E+00	1.75102795669E+02	-4.01889953500E+01	-5.31112965865E+01	-6.03827748321E+00	-6.66265933952E-01
1.36518502056E+06	-9.82826686830E+00	1.70248862475E+02	6.27484832289E+00	1.74379710915E+02	-4.07841032104E+01	-1.25021426911E+02	-6.02098020012E+00	-7.09485310705E-01
1.38737637515E+06	-7.64235967019E+00	1.60135970972E+02	6.21327998574E+00	1.74008524575E+02	-5.19097776763E+01	-3.96824255990E+00	-6.05327862369E+00	-5.76133201050E-01
1.40956772975E+06	-1.17006384870E+01	1.76112804110E+02	6.30689089512E+00	1.74598829010E+02	-3.99173858170E+01	1.11952439768E+02	-6.02098881680E+00	-8.32996788264E-01
1.43175908434E+06	-1.13058774849E+01	1.71051611143E+02	6.22256938268E+00	1.74657082484E+02	-3.86657143691E+01	-4.29320739011E+01	-6.02792271657E+00	-8.02292320918E-01
1.45395043894E+06	-1.01336570497E+01	-1.65812554383E+02	6.23601413557E+00	1.74157648450E+02	-3.69005099225E+01	-1.60331981447E+02	-6.05090478918E+00	-5.77173298768E-01
1.47614179353E+06	-9.94084813272E+00	1.64560771180E+02	6.23194710537E+00	1.74154177772E+02	-3.58155696927E+01	-1.77240393898E+02	-6.05050095246E+00	-7.40419323112E-01
1.49833314813E+06	-9.40894960999E+00	1.50760966295E+02	6.20717980197E+00	1.74098639347E+02	-4.73515362678E+01	7.52492658715E+01	-6.03652714239E+00	-6.62836674022E-01
1.52052450272E+06	-1.06686313674E+01	-1.65259598277E+02	6.28961771898E+00	1.74255991307E+02	-3.68969059732E+01	-6.56501856181E+01	-6.02744495481E+00	-9.94974598272E-01
1.54271585732E+06	-9.60607370172E+00	1.73180618281E+02	6.17629382793E+00	1.73329128914E+02	-5.32502077903E+01	1.03037847644E+02	-6.03174021292E+00	-9.07180135341E-01
1.56490721191E+06	-6.09867361360E+00	1.54472227244E+02	6.21514166187E+00	1.73661363792E+02	-4.71889450985E+01	7.55584999956E+00	-6.03743128085E+00	-6.65362474653E-01
1.58709856651E+06	-9.96421612491E+00	1.79892588588E+02	6.24214733717E+00	1.73754948558E+02	-5.89900031447E+01	1.64665438555E+02	-6.05354435868E+00	-7.80056857752E-01
1.60928992110E+06	-9.38130164720E+00	1.64457328897E+02	6.20371922659E+00	1.73183050880E+02	-5.14051495972E+01	4.56489179030E+01	-6.05133558273E+00	-1.17787336692E+00
1.63148127570E+06	-1.29660367199E+01	1.78006997090E+02	6.26407143845E+00	1.73091699429E+02	-3.59569848482E+01	3.50395439058E+01	-6.00771173999E+00	-1.01579507485E+00
1.65367263029E+06	-1.11974034644E+01	1.69327867254E+02	6.20825815609E+00	1.73185560485E+02	-3.59515457337E+01	2.75310479900E+01	-6.04643880865E+00	-6.44839780376E-01
1.67586398489E+06	-1.16240650744E+01	1.75054818150E+02	6.21895521391E+00	1.72909903948E+02	-3.69630154850E+01	1.11296910558E+02	-6.01869623673E+00	-8.93661924609E-01
1.69805533948E+06	-9.25805910915E+00	1.60527894580E+02	6.28318734717E+00	1.72855342025E+02	-3.90960027525E+01	-1.13203954091E+02	-5.99432904960E+00	-7.31574926969E-01
1.72024669408E+06	-8.30976510552E+00	-1.73933244906E+02	6.16172416111E+00	1.72742445922E+02	-3.83518455216E+01	1.23969600805E+02	-5.98475365941E+00	-7.85666348826E-01
1.74243804867E+06	-8.48145143784E+00	1.68754443090E+02	6.21814312362E+00	1.72828691821E+02	-4.10791201312E+01	1.19228374004E+02	-6.02967579019E+00	-9.56205067463E-01
1.76462940327E+06	-9.79150248118E+00	1.73830059014E+02	6.19797080974E+00	1.72686053514E+02	-5.05294039356E+01	-9.94527249439E+01	-5.98894967776E+00	-1.02623942412E+00
1.78682075786E+06	-9.05816829076E+00	1.78302351297E+02	6.21235904394E+00	1.72637301648E+02	-4.07106669830E+01	1.67566691619E+00	-5.93050711837E+00	-8.44020866936E-01
1.80901211246E+06	-1.32423845818E+01	-1.75316571524E+02	6.14595111307E+00	1.72314916763E+02	-5.11840166284E+01	-8.53481714365E+01	-6.02701904801E+00	-9.25183748044E-01
1.83120346705E+06	-7.81944341464E+00	1.77091329458E+02	6.24045790083E+00	1.72328397488E+02	-3.58130483241E+01	-1.00001515395E+02	-6.05423276128E+00	-9.22292279443E-01
1.85339482165E+06	-8.60260002712E+00	-1.72043553230E+02	6.24720621174E+00	1.71891033586E+02	-4.19854804979E+01	1.18044248421E+02	-6.01383394782E+00	-9.81406820502E-01
1.87558617624E+06	-1.04834588203E+01	1.47164945549E+02	6.21224925561E+00	1.72126371277E+02	-4.92414361237E+01	2.65681124264E+01	-6.04406879566E+00	-1.05610796914E+00
1.89777753084E+06	-1.05583989267E+01	1.76567156402E+02	6.24048994054E+00	1.71787137244E+02	-4.47068355426E+01	1.67895551419E+02	-5.96702255769E+00	-1.12250488819E+00
1.91996888543E+06	-1.01719593122E+01	1.73649466159E+02	6.21743335890E+00	1.71851476099E+02	-4.35966695432E+01	5.05944141671E+01	-6.05491469464E+00	-1.02607199661E+00
1.94216024003E+06	-8.63173705823E+00	1.46420677152E+02	6.18956350743E+00	1.71506184198E+02	-3.65100118635E+01	4.16524161191E+01	-6.01044004834E+00	-9.55715288914E-01
1.96435159462E+06	-1.05546223249E+01	1.68831173328E+02	6.24401613184E+00	1.71523999976E+02	-3.96623304106E+01	3.60441542326E+01	-6.01813914385E+00	-1.11051887038E+00
1.98654294922E+06	-9.85520634464E+00	-1.66868747205E+02	6.15769483089E+00	1.71370483441E+02	-4.29208987044E+01	-6.50301010225E+01	-5.98122617844E+00	-1.18137524706E+00
2.00873430381E+06	-1.20573259577E+01	-1.54576708742E+02	6.33289410501E+00	1.71789179233E+02	-4.90672052262E+01	3.28514335390E+01	-6.02194907320E+00	-9.65303682906E-01
2.03092565841E+06	-1.31409059692E+01	1.78989544602E+02	6.17782584292E+00	1.71073288106E+02	-5.34275726603E+01	-1.72568730608E+02	-5.99747778167E+00	-1.03005050176E+00
2.05311701300E+06	-9.12428403284E+00	1.68895272087E+02	6.20517863109E+00	1.71408826101E+02	-5.34623882401E+01	1.77725366321E+02	-6.02231530185E+00	-9.60910461710E-01
2.07530836760E+06	-1.13983984984E+01	1.64373973512E+02	6.21858523022E+00	1.71358218989E+02	-3.94073426079E+01	9.71247413081E+01	-6.04037155619E+00	-1.24008904070E+00
2.09749972219E+06	-8.99296514719E+00	-1.67245991168E+02	6.26632708857E+00	1.70924705382E+02	-4.28266787338E+01	7.09079814877E+01	-6.01682456656E+00	-1.00676888562E+00
2.11969107679E+06	-9.51859333863E+00	-1.73957453944E+02	6.19410170709E+00	1.70751453001E+02	-4.79823101681E+01	6.19942698974E+01	-5.99762714239E+00	-9.50534039034E-01
2.14188243138E+06	-1.13860547548E+01	-1.65500636534E+02	6.20578295563E+00	1.70943767830E+02	-3.86323807233E+01	-1.76693953781E+01	-6.03174565433E+00	-1.10469712126E+00
2.16407378598E+06	-1.20404394389E+01	1.62049474859E+02	6.18576923667E+00	1.70612091311E+02	-3.73913179481E+01	2.02940388810E+01	-6.00470327126E+00	-1.20193156690E+00
2.18626514057E+06	-1.43564381079E+01	-1.70026254699E+02	6.23232460392E+00	1.71198918454E+02	-3.98742391522E+01	7.29439891084E+01	-6.02207886404E+00	-1.03420526927E+00
2.20845649517E+06	-9.70858997329E+00	1.69325129856E+02	6.26748975503E+00	1.70316793093E+02	-4.69749812154E+01	-1.56436073581E+00	-6.01697176189E+00	-1.04446207395E+00
2.23064784976E+06	-8.00818312583E+00	-1.64587354063E+02	6.23726797774E+00	1.70385972046E+02	-3.52826225090E+01	9.24455442142E+01	-6.02321620746E+00	-1.09486988386E+00
2.25283920436E+06	-1.22338708040E+01	-1.78894533411E+02	6.22128795252E+00	1.70055323263E+02	-3.58431992161E+01	1.37355302221E+02	-6.02325100165E+00	-1.11170246341E+00
2.27503055895E+06	-7.38993625668E+00	1.55278778282E+02	6.17244529914E+00	1.70007819237E+02	-3.99287847036E+01	6.03679551983E+01	-6.04100652943E+00	-1.03892121014E+00
2.29722191355E+06	-8.56742985127E+00	-1.74337289238E+02	6.20891083515E+00	1.69947915570E+02	-4.04814380086E+01	-1.37783194551E+02	-6.03168985468E+00	-1.00968449352E+00
2.31941326814E+06	-1.20783676432E+01	-1.75074890698E+02	6.16604095618E+00	1.70309474136E+02	-3.63556799843E+01	1.46762579746E+01	-6.02608284946E+00	-1.18339336611E+00
2.34160462274E+06	-8.45807086328E+00	1.41835110186E+02	6.15829075168E+00	1.69660604197E+02	-6.31815161058E+01	-1.03966653445E+02	-6.03384127267E+00	-1.01638063617E+00
2.36379597733E+06	-8.13145215636E+00	-1.65516638058E+02	6.18150170896E+00	1.69580146555E+02	-4.59350724848E+01	-9.61355983896E+01	-6.00041825197E+00	-9.84562211083E-01
2.38598733193E+06	-9.99610737303E+00	1.68712215074E+02	6.15014861737E+00	1.69202266449E+02	-5.32842959644E+01	-8.80564410749E+01	-6.00990548353E+00	-1.12382720530E+00
2.40817868652E+06	-9.87472085309E+00	-1.69435233386E+02	6.16049173090E+00	1.69554092438E+02	-4.46770652669E+01	-4.01828612331E+01	-6.03811546798E+00	-1.13414155431E+00
2.43037004112E+06	-1.04043243329E+01	-1.67369838691E+02	6.21075643091E+00	1.69441345187E+02	-4.23481556521E+01	-9.80410918458E+01	-6.02021294756E+00	-1.30914692798E+00
2.45256139571E+06	-8.98942135762E+00	-1.74755184985E+02	6.24910298027E+00	1.69432629979E+02	-4.00329467506E+01	2.79740478304E+00	-6.06209738290E+00	-9.90246687504E-01
2.47475275031E+06	-8.43642690783E+00	-1.76503499908E+02	6.19031823014E+00	1.69209923424E+02	-3.82687970644E+01	1.75394281265E+02	-6.05584407365E+00	-1.16119029872E+00
2.49694410490E+06	-1.31237550513E+01	1.77441352184E+02	6.18999964851E+00	1.68893344364E+02	-3.99508503680E+01	5.93817057434E+01	-6.00580776280E+00	-1.09660569245E+00
2.51913545950E+06	-9.30946672736E+00	1.70870636439E+02	6.22785292731E+00	1.68861546625E+02	-4.26408174671E+01	1.71772624797E+02	-6.02861711349E+00	-1.10498744912E+00
2.54132681409E+06	-9.42805669097E+00	1.52895758269E+02	6.21276995343E+00	1.69088806415E+02	-4.62569582207E+01	-8.59842282552E+01	-6.05173018750E+00	-1.13190822767E+00
2.56351816869E+06	-1.08072772300E+01	1.56703460324E+02	6.23426754779E+00	1.68900187534E+02	-3.83863399558E+01	9.03102038204E+01	-6.02860835046E+00	-1.35991897167E+00
2.58570952328E+06	-9.36272100330E+00	1.56121762561E+02	6.22799662161E+00	1.68650992721E+02	-3.72215366866E+01	1.75111241042E+02	-6.02206182924E+00	-1.13228720110E+00
2.60790087788E+06	-1.22794936638E+01	-1.75597536028E+02	6.20923913334E+00	1.68886673269E+02	-4.53672500619E+01	-7.62701314777E+00	-6.05893394592E+00	-1.35892079597E+00
2.63009223247E+06	-1.10006145707E+01	1.51704142760E+02	6.18086644523E+00	1.68449721006E+02	-4.40726273631E+01	9.72978204872E+01	-5.98225863023E+00	-1.26135546697E+00
2.65228358707E+06	-1.18810775963E+01	1.72964567512E+02	6.27540560475E+00	1.69103124178E+02	-4.70024830375E+01	1.46781652810E+01	-5.98118364334E+00	-1.72016761953E+00
2.67447494166E+06	-7.44836618728E+00	1.63356714450E+02	6.21479620753E+00	1.68576122342E+02	-4.58856004874E+01	-5.08196759061E+01	-5.99989750770E+00	-1.53044727298E+00
2.69666629626E+06	-1.41486847041E+01	-1.53241938068E+02	6.18479538775E+00	1.68378120527E+02	-3.76460064304E+01	1.29346053053E+02	-6.00732479114E+00	-1.42516620611E+00
2.71885765085E+06	-1.41987912203E+01	1.63283831761E+02	6.14560350284E+00	1.68133375965E+02	-3.83396344242E+01	3.04360257078E+01	-6.00751875369E+00	-1.42519081594E+00
2.74104900545E+06	-1.01420842992E+01	1.61088894682E+02	6.21397853747E+00	1.67815818993E+02	-4.12394310978E+01	-4.35687298704E+01	-5.99470667591E+00	-1.50324440692E+00
2.76324036004E+06	-8.38057873372E+00	1.68504036620E+02	6.26200710342E+00	1.67968630910E+02	-4.29642856190E+01	5.00627132758E+01	-6.02695552138E+00	-1.47711032820E+00
2.78543171463E+06	-1.04705544927E+01	1.47914472351E+02	6.25371474832E+00	1.67493899254E+02	-3.77155830269E+01	1.09879730096E+02	-5.97291863190E+00	-1.07040942501E+00
2.80762306923E+06	-1.02941561844E+01	-1.75104677559E+02	6.21789802960E+00	1.67549272801E+02	-3.71429254215E+01	-1.40073885771E+02	-6.00516059004E+00	-1.34869652720E+00
2.82981442382E+06	-9.11898830050E+00	1.78394030446E+02	6.23205634442E+00	1.67213096737E+02	-4.15523252927E+01	1.79387802125E+01	-6.02448814291E+00	-1.31189508472E+00
2.85200577842E+06	-1.14597011614E+01	1.42958162458E+02	6.19678975832E+00	1.67428430980E+02	-5.22174581290E+01	7.90956500891E+01	-6.01952938477E+00	-1.31257502928E+00
2.87419713301E+06	-1.28758213041E+01	1.59692277677E+02	6.19588295632E+00	1.67191562507E+02	-4.28779659449E+01	9.09640793333E+01	-6.00747081974E+00	-1.52039612877E+00
2.89638848761E+06	-8.06379226983E+00	-1.70071817355E+02	6.16768122068E+00	1.67336447974E+02	-3.98045731262E+01	-8.98574004132E+01	-5.98124010345E+00	-1.25439030140E+00
