# Hz S DB R 50
! CMT, M5065, 19127446, 24.2.4/2
! Date: 10/29/2024 1:07:48 PM
! Data: Format (Calibration Info)
! Freq	S11:dB/Ang(F2)	S21:dB/Ang(F2)	S12:dB/Ang(F2)	S22:dB/Ang(F2)
3.00000000000E+05	-1.23974023421E+01	-1.74628070038E+02	6.39159864614E+00	-1.77699293732E+02	-4.72376305145E+01	1.56516755174E+02	-6.02327109017E+00	-3.26293530505E-01
3.22191354595E+05	-1.16064321736E+01	-1.78443926056E+02	6.29319440724E+00	-1.78935578852E+02	-4.05872621924E+01	1.61083070675E+02	-6.03672477223E+00	5.52780749867E-02
3.44382709190E+05	-1.33041907514E+01	-1.47097804350E+02	6.29661718063E+00	-1.78566673678E+02	-4.00880579739E+01	-1.53315170287E+02	-5.97880613483E+00	-4.46515487854E-02
3.66574063785E+05	-1.39264107547E+01	1.75667941522E+02	6.31640154360E+00	-1.78626581631E+02	-4.48725386954E+01	1.20823370966E+02	-6.01545494076E+00	-2.41671264021E-01
3.88765418380E+05	-6.45203402268E+00	1.76679262038E+02	6.39260258895E+00	-1.78938828858E+02	-3.80789645558E+01	6.39457696945E+01	-6.03753166660E+00	-3.43110465210E-01
4.10956772975E+05	-6.60031671225E+00	-1.61548101132E+02	6.29654467032E+00	-1.79171687669E+02	-4.17235895555E+01	1.25158494677E+02	-6.01001828250E+00	1.96398621981E-02
4.33148127570E+05	-7.15397673279E+00	1.77157859495E+02	6.41809971501E+00	-1.79874369778E+02	-3.58236298465E+01	-1.00703797828E+02	-6.01070342920E+00	-3.47305772862E-01
4.55339482165E+05	-1.87377906395E+01	-1.74020883285E+02	6.32925070493E+00	-1.79871647941E+02	-4.25804402069E+01	-1.59397957801E+02	-6.00185754792E+00	-3.68066096301E-01
4.77530836760E+05	-1.18842350600E+01	1.66382500722E+02	6.35305944705E+00	-1.79988259605E+02	-3.77420337366E+01	-1.67572879597E+02	-6.04759286910E+00	-5.35498462296E-01
4.99722191355E+05	-1.30054231981E+01	-1.49178034454E+02	6.31472676405E+00	1.79352320791E+02	-3.70567719144E+01	4.05023311637E+00	-6.02886689379E+00	-2.69525063499E-01
5.21913545950E+05	-9.25366445058E+00	-1.70850596654E+02	6.30520487806E+00	1.79769866889E+02	-4.66177165469E+01	6.29858976155E+01	-6.03665139971E+00	-3.72611898433E-01
5.44104900545E+05	-1.24381584893E+01	1.55328267344E+02	6.31473202851E+00	1.79135187692E+02	-4.75274575949E+01	-1.27417866019E+02	-6.06238943141E+00	-4.62882591116E-01
5.66296255139E+05	-1.05075198840E+01	1.79485632386E+02	6.38327248791E+00	1.79250796492E+02	-3.47723773744E+01	1.20741492739E+02	-5.99622802117E+00	-1.72496433845E-01
5.88487609734E+05	-9.03817836476E+00	1.59824909042E+02	6.40633673850E+00	1.79097158528E+02	-3.66452448016E+01	-2.56057779287E+01	-6.02951207835E+00	-5.62675006884E-01
6.10678964329E+05	-1.27393409319E+01	-1.63088357331E+02	6.42114612668E+00	1.78942300165E+02	-4.33350620068E+01	1.64889594839E+02	-6.03547575123E+00	-3.55491512012E-01
6.32870318924E+05	-8.52437927687E+00	-1.79381543434E+02	6.36292139403E+00	1.78612858388E+02	-3.91599961978E+01	-1.14811403227E+02	-6.00089030502E+00	-5.01433667287E-01
6.55061673519E+05	-6.76920994675E+00	1.55614498861E+02	6.33413988483E+00	1.78713216130E+02	-4.61390952311E+01	-9.88261956358E+01	-5.99602158130E+00	-1.35474361002E-01
6.77253028114E+05	-1.15849841142E+01	-1.73699000566E+02	6.40117991207E+00	1.78765808808E+02	-5.19047539404E+01	-1.03183482222E+02	-6.01987136421E+00	-6.08162948280E-01
6.99444382709E+05	-9.95831609886E+00	-1.73597050171E+02	6.31562128888E+00	1.78697462307E+02	-4.41337726183E+01	-1.50094404184E+02	-6.04461845122E+00	-2.05794233277E-01
7.21635737304E+05	-1.16177946937E+01	-1.79385531668E+02	6.35358967495E+00	1.78066032773E+02	-4.57062891076E+01	1.13760877255E+02	-5.97424477247E+00	-3.91162438359E-01
7.43827091899E+05	-9.68615624504E+00	1.76839969084E+02	6.35960238201E+00	1.78122109298E+02	-3.46147691285E+01	4.33104243244E+01	-6.04190999430E+00	-4.22501836648E-01
7.66018446494E+05	-1.02047979354E+01	-1.68837891996E+02	6.33710759414E+00	1.77518526175E+02	-4.28601849300E+01	-1.32213560499E+02	-6.03106631492E+00	-6.91999743104E-01
7.88209801089E+05	-1.32572637881E+01	1.76139214789E+02	6.37765313097E+00	1.77840841452E+02	-4.53081593566E+01	7.04157191827E+01	-6.01337905659E+00	-6.23664987729E-01
8.10401155684E+05	-1.05423332836E+01	1.67923736613E+02	6.33067892890E+00	1.77660725475E+02	-3.87424305144E+01	-4.94422695002E+01	-6.04862627675E+00	-6.00725094912E-01
8.32592510279E+05	-7.91387271423E+00	1.76993618736E+02	6.36308000333E+00	1.77276358658E+02	-4.19508985760E+01	6.54427199238E+01	-6.05808655172E+00	-6.37569222821E-01
8.54783864874E+05	-8.31246824115E+00	-1.59428171746E+02	6.43905986238E+00	1.77845143519E+02	-4.31553820791E+01	-6.00506599166E+01	-6.06847934482E+00	-5.90708334821E-01
8.76975219469E+05	-1.00399794212E+01	-1.75612611647E+02	6.42192738951E+00	1.77326158861E+02	-4.89151127940E+01	9.95717338228E+01	-6.02773681704E+00	-3.95790836007E-01
8.99166574064E+05	-9.80785307056E+00	-1.66686082499E+02	6.39417952934E+00	1.76730342318E+02	-5.63290288243E+01	1.28616261737E+02	-5.99760828977E+00	-3.32691733876E-01
9.21357928659E+05	-1.40967677029E+01	1.59314900384E+02	6.35781793740E+00	1.77154016812E+02	-3.81372265546E+01	9.16527527220E+01	-5.99139565908E+00	-4.22213650184E-01
9.43549283254E+05	-1.38047705995E+01	1.67303879529E+02	6.34866822484E+00	1.76697973396E+02	-5.07141825845E+01	-5.57673266650E+01	-6.03130391430E+00	-3.69912174804E-01
9.65740637849E+05	-1.03332693571E+01	-1.72704142222E+02	6.37789535126E+00	1.76473423086E+02	-4.22183758529E+01	-7.97586819227E+01	-6.01854059332E+00	-5.39029354871E-01
9.87931992444E+05	-1.17459535023E+01	1.73221210605E+02	6.31774228945E+00	1.76526680212E+02	-4.05945444972E+01	6.49991146356E+01	-5.98706060776E+00	-5.97905465453E-01
1.01012334704E+06	-1.50098237678E+01	-1.63175867179E+02	6.40707632925E+00	1.76446360133E+02	-4.53409935123E+01	1.14030021890E+02	-6.02171557319E+00	-3.90869058842E-01
1.03231470163E+06	-1.04855676946E+01	1.76869599724E+02	6.39026072023E+00	1.76779534667E+02	-4.28246724874E+01	3.18297156633E+01	-6.01457468195E+00	-8.70661973725E-01
1.05450605623E+06	-8.57157059377E+00	-1.72951388719E+02	6.34197464792E+00	1.76378520484E+02	-3.49026939549E+01	1.05997876681E+02	-6.01784175702E+00	-3.28724744416E-01
1.07669741082E+06	-1.02350806181E+01	1.65980701447E+02	6.34071945304E+00	1.76107703561E+02	-4.29553719555E+01	3.16555653029E+00	-6.01206830136E+00	-8.06477097036E-01
1.09888876542E+06	-1.01831565228E+01	1.74151986629E+02	6.29524033015E+00	1.75317792593E+02	-3.96101372733E+01	-1.44263633808E+02	-6.00600620724E+00	-8.74202737567E-01
1.12108012001E+06	-9.15344499619E+00	-1.77090309261E+02	6.39205526863E+00	1.75955662297E+02	-3.61870003484E+01	-1.01702398182E+02	-6.04324435744E+00	-4.69101287681E-01
1.14327147461E+06	-9.29758625127E+00	1.70864354698E+02	6.36799132987E+00	1.75666867556E+02	-4.02545997492E+01	-1.67828471656E+02	-6.05396530396E+00	-5.78846319401E-01
1.16546282920E+06	-8.98541899111E+00	1.71266902322E+02	6.41322459394E+00	1.75714555596E+02	-3.92259325535E+01	7.76256492582E+01	-5.99786523145E+00	-5.07021524106E-01
1.18765418380E+06	-1.05016325759E+01	-1.53455101609E+02	6.45148188124E+00	1.75551679017E+02	-3.68325086724E+01	6.45977025315E+01	-6.00650304862E+00	-3.58513922685E-01
1.20984553839E+06	-9.04722239142E+00	-1.77946753084E+02	6.38411688846E+00	1.75547017089E+02	-3.31920267199E+01	-1.34626045120E+02	-6.02068962408E+00	-9.42114366004E-01
1.23203689299E+06	-1.22794404598E+01	1.50591354890E+02	6.36664627678E+00	1.75112245271E+02	-3.71728141166E+01	1.45322181029E+02	-6.02524792114E+00	-4.44663819510E-01
1.25422824758E+06	-7.33347646246E+00	1.67958349043E+02	6.36802122735E+00	1.74935145042E+02	-3.98714589201E+01	-9.85577369939E+01	-5.99309646380E+00	-5.93922502391E-01
1.27641960218E+06	-9.52741043773E+00	-1.66003218568E+02	6.35749863945E+00	1.75146515703E+02	-4.64753378871E+01	7.27592783324E+01	-6.03465811413E+00	-6.24393717288E-01
1.29861095677E+06	-8.52923056023E+00	1.78245783571E+02	6.43312221376E+00	1.74649967362E+02	-5.90109960933E+01	-5.24312016489E+01	-6.04098133778E+00	-7.25667249088E-01
1.32080231137E+06	-7.24625174368E+00	-1.78463618801E+02	6.38163435042E+00	1.75283640101E+02	-4.43334688498E+01	-3.38019803852E+01	-6.01830610100E+00	-1.18046083238E+00
1.34299366596E+06	-1.38278088864E+01	-1.62517260687E+02	6.39249371192E+00	1.74527916621E+02	-4.75676653089E+01	9.02502153881E+01	-5.99181068470E+00	-8.83982220938E-01
1.36518502056E+06	-8.99272249140E+00	-1.78773339256E+02	6.40125140966E+00	1.74598669776E+02	-4.11080056932E+01	4.19472773779E+01	-6.03665039910E+00	-6.27786816120E-01
1.38737637515E+06	-9.72714922571E+00	-1.57963758046E+02	6.43938336918E+00	1.74546599803E+02	-4.04431216462E+01	4.37235479415E+01	-5.99959019105E+00	-8.26704769124E-01
1.40956772975E+06	-8.07003210141E+00	-1.55898607016E+02	6.40052292759E+00	1.73914593280E+02	-3.41207968886E+01	1.56067600213E+02	-6.03811856632E+00	-7.92699681911E-01
1.43175908434E+06	-1.05907255500E+01	-1.75491117900E+02	6.30498820282E+00	1.74033370828E+02	-3.76810015844E+01	-1.06104438212E+01	-6.01120415796E+00	-7.86172163131E-01
1.45395043894E+06	-1.70590461297E+01	1.51210499935E+02	6.35481989528E+00	1.74226220681E+02	-4.26062767128E+01	-2.91420580357E+01	-6.03938301357E+00	-7.66263429357E-01
1.47614179353E+06	-1.36040438703E+01	-1.70044256319E+02	6.36205195460E+00	1.74008102549E+02	-3.51340133740E+01	-3.53511093398E+01	-5.99800370624E+00	-5.67740623893E-01
1.49833314813E+06	-1.22867489246E+01	-1.49618209399E+02	6.33392029886E+00	1.73760276552E+02	-5.20553890135E+01	5.49091204713E+01	-6.06787423164E+00	-1.03584214957E+00
1.52052450272E+06	-1.15939735732E+01	1.61224154757E+02	6.35753221747E+00	1.73752862614E+02	-3.71498762369E+01	1.75050791662E+02	-6.00902158722E+00	-4.78311087395E-01
1.54271585732E+06	-7.98801092039E+00	1.79105775767E+02	6.38238179838E+00	1.73549258128E+02	-4.42101811547E+01	-8.13796326658E+01	-6.01954815280E+00	-7.20279655001E-01
1.56490721191E+06	-1.12522782410E+01	1.77437737925E+02	6.35033671790E+00	1.73262053804E+02	-4.13587533917E+01	-3.64871569344E+01	-6.04015113817E+00	-9.70026732500E-01
1.58709856651E+06	-8.31057711672E+00	1.76519276324E+02	6.41427410878E+00	1.73383027931E+02	-5.19943178411E+01	1.24489898219E+02	-6.00096345279E+00	-7.69381935609E-01
1.60928992110E+06	-1.08836477727E+01	-1.74272618532E+02	6.39840090111E+00	1.73013137409E+02	-4.81560271829E+01	-6.67134818093E+00	-5.94841758260E+00	-8.67699630461E-01
1.63148127570E+06	-1.26829792676E+01	1.60294791319E+02	6.25787774343E+00	1.73015651708E+02	-4.35569676473E+01	-1.52022102527E+02	-6.03077788390E+00	-5.63524984358E-01
1.65367263029E+06	-1.54291362533E+01	-1.75878759160E+02	6.34923623018E+00	1.72578806805E+02	-4.22933987925E+01	-7.17230768069E+01	-5.97196063001E+00	-9.52699010746E-01
1.67586398489E+06	-1.05419805834E+01	1.64699634181E+02	6.42820992288E+00	1.73757173262E+02	-3.92317348847E+01	-1.52602506514E+02	-6.03031157341E+00	-8.93091482099E-01
1.69805533948E+06	-1.19358795137E+01	1.63988623682E+02	6.38137677544E+00	1.72687550169E+02	-4.56703177520E+01	6.75833302468E+00	-6.02563005572E+00	-4.34151585840E-01
1.72024669408E+06	-1.57594738045E+01	-1.74716175646E+02	6.36894813181E+00	1.72272733720E+02	-4.07454919657E+01	5.05565515862E+01	-6.00278456646E+00	-1.02039929730E+00
1.74243804867E+06	-1.19027445624E+01	1.40710691298E+02	6.37780574263E+00	1.72360883560E+02	-4.41155639877E+01	3.84629078832E+01	-6.01081798821E+00	-7.92445182810E-01
1.76462940327E+06	-1.26814942843E+01	1.77661705263E+02	6.32165742272E+00	1.72778349148E+02	-3.76641413840E+01	9.46386460164E+01	-6.01908857665E+00	-1.21387403328E+00
1.78682075786E+06	-1.00722075813E+01	1.72207899862E+02	6.28402597997E+00	1.72404935452E+02	-3.62471137259E+01	9.37234094286E+01	-6.02350740106E+00	-1.00981881376E+00
1.80901211246E+06	-1.11598898000E+01	-1.79468314609E+02	6.35900066638E+00	1.72231418598E+02	-4.35529079144E+01	1.50960908358E+02	-6.00358245793E+00	-9.86343834910E-01
1.83120346705E+06	-8.05200855984E+00	1.72038506360E+02	6.38291690061E+00	1.71973884756E+02	-3.93333368435E+01	4.04259887869E+01	-6.01234887861E+00	-1.08408943415E+00
1.85339482165E+06	-1.23966542784E+01	-1.78167520423E+02	6.36443405971E+00	1.71889276510E+02	-4.00755029459E+01	-1.67903477149E+02	-6.01046844350E+00	-9.44642191775E-01
1.87558617624E+06	-1.07259779545E+01	1.60140169585E+02	6.32162114578E+00	1.71929231423E+02	-4.29727083276E+01	1.05790983279E+02	-6.02308458051E+00	-6.99027100927E-01
1.89777753084E+06	-1.10059450923E+01	1.51149799181E+02	6.35307138615E+00	1.71541442002E+02	-3.95223387628E+01	1.29609691288E+02	-6.02717392283E+00	-8.28241472654E-01
1.91996888543E+06	-1.02529651237E+01	-1.62250881239E+02	6.37512523804E+00	1.71956096843E+02	-5.04050367982E+01	1.72431853628E+02	-6.03626962539E+00	-8.44935248256E-01
1.94216024003E+06	-9.47568324107E+00	-1.59089125803E+02	6.38982898153E+00	1.71427386058E+02	-3.73727440700E+01	1.55595446986E+02	-6.01848122343E+00	-8.87709827180E-01
1.96435159462E+06	-8.40755475181E+00	1.70708863222E+02	6.43504698107E+00	1.71678559578E+02	-4.19463553105E+01	1.71360078212E+02	-5.98351786176E+00	-6.67990715859E-01
1.98654294922E+06	-1.62403482122E+01	1.75672827883E+02	6.35487224074E+00	1.71281875800E+02	-4.01468077249E+01	2.52706751992E+01	-6.01831278155E+00	-1.05620785773E+00
2.00873430381E+06	-1.64900515850E+01	1.61341721965E+02	6.40390601118E+00	1.71170480061E+02	-4.10951725281E+01	1.32815502847E+02	-5.97940055130E+00	-9.70753172258E-01
2.03092565841E+06	-1.33296526330E+01	1.71885340668E+02	6.35302173962E+00	1.71315219454E+02	-3.56276321691E+01	-1.65636140037E+02	-6.03659195408E+00	-9.05076418427E-01
2.05311701300E+06	-1.47263026078E+01	1.78325527507E+02	6.36788418291E+00	1.71062999479E+02	-4.09426720814E+01	4.82033549627E+01	-6.01804661852E+00	-8.54252310751E-01
2.07530836760E+06	-9.67552787160E+00	-1.77664770327E+02	6.32394310546E+00	1.71172402335E+02	-3.68073006892E+01	-2.21798091907E+01	-6.02342598867E+00	-9.93204037574E-01
2.09749972219E+06	-1.63152078174E+01	1.57474644356E+02	6.23957411871E+00	1.70976401975E+02	-5.00510349980E+01	-1.54276718013E+02	-5.98833303658E+00	-1.11300653984E+00
2.11969107679E+06	-8.76434292074E+00	1.44402045285E+02	6.37156277465E+00	1.70585344640E+02	-3.73748109149E+01	-1.54399041983E+02	-6.11863596333E+00	-1.44948397752E+00
2.14188243138E+06	-1.11433689996E+01	-1.68539064224E+02	6.31992546210E+00	1.70687468025E+02	-3.83950639154E+01	-5.85663999028E+01	-5.99319415419E+00	-1.07056159170E+00
2.16407378598E+06	-6.78791554090E+00	1.74180435901E+02	6.38121524595E+00	1.71105830672E+02	-3.72932054014E+01	-3.89363259179E+00	-6.05319510215E+00	-8.61887204272E-01
2.18626514057E+06	-1.05694374789E+01	1.77844331939E+02	6.30347361833E+00	1.70262061447E+02	-4.66439364204E+01	-2.41490711890E+01	-6.02222420501E+00	-1.00475009782E+00
2.20845649517E+06	-9.11898449576E+00	-1.79585968551E+02	6.41247218453E+00	1.70339603836E+02	-4.75324754746E+01	-1.72121185133E+02	-6.01201884786E+00	-9.46560372940E-01
2.23064784976E+06	-1.02161815384E+01	1.67541132408E+02	6.36077560598E+00	1.70372917158E+02	-3.75131836878E+01	1.65902677790E+02	-6.02005514923E+00	-9.44068950089E-01
2.25283920436E+06	-9.93935333247E+00	1.52742397050E+02	6.37804762056E+00	1.70025091770E+02	-3.76970894112E+01	-1.55460781268E+01	-6.02180190458E+00	-1.10340829782E+00
2.27503055895E+06	-1.19617270970E+01	-1.77103797048E+02	6.35477820863E+00	1.69872063234E+02	-5.34860078958E+01	1.55349246265E+02	-6.03008975277E+00	-9.53710091435E-01
2.29722191355E+06	-1.21016991713E+01	1.38224041928E+02	6.29993034957E+00	1.69876861950E+02	-3.86257486648E+01	-1.38187545380E+02	-5.97927561001E+00	-1.15156816498E+00
2.31941326814E+06	-7.82882730977E+00	-1.65354685427E+02	6.40716382069E+00	1.69705118293E+02	-4.23344834970E+01	-4.60849726437E+01	-6.03647309490E+00	-1.07759960256E+00
2.34160462274E+06	-9.45368045523E+00	1.59760344145E+02	6.27800842237E+00	1.70378407308E+02	-3.41983392265E+01	1.35849021762E+01	-6.01291053877E+00	-1.34182724390E+00
2.36379597733E+06	-9.71503419131E+00	1.51126069232E+02	6.38205448809E+00	1.69401704051E+02	-3.38748859613E+01	1.43821314782E+01	-6.04057017007E+00	-8.48177686705E-01
2.38598733193E+06	-8.54706707390E+00	-1.66373595273E+02	6.29731140372E+00	1.69710999294E+02	-3.78033174519E+01	4.33261115073E+01	-6.01428880747E+00	-1.20259981682E+00
2.40817868652E+06	-8.98123237159E+00	-1.60103180753E+02	6.33490437650E+00	1.69332878828E+02	-4.49539023717E+01	-9.13101033370E+01	-6.03372352576E+00	-1.34415879974E+00
2.43037004112E+06	-9.59753227844E+00	-1.65388130791E+02	6.38865536616E+00	1.68974340986E+02	-3.59704423239E+01	-1.68155090757E+02	-6.09122512555E+00	-1.33540743088E+00
2.45256139571E+06	-7.97633578748E+00	-1.77412056180E+02	6.37558439126E+00	1.68882623169E+02	-4.36122853351E+01	1.21612770904E+02	-6.05285341628E+00	-8.65215228745E-01
2.47475275031E+06	-9.22321194441E+00	1.67328015520E+02	6.37478719659E+00	1.69409617699E+02	-4.01563973466E+01	2.14074097642E+01	-6.05149480328E+00	-1.30439550657E+00
2.49694410490E+06	-7.40173826853E+00	1.61711848820E+02	6.33338852877E+00	1.68899103295E+02	-4.25976689348E+01	-4.93974075117E+01	-6.02010370298E+00	-1.29878056843E+00
2.51913545950E+06	-1.53110971252E+01	1.68763899633E+02	6.34653009638E+00	1.69110812207E+02	-3.83129876970E+01	-9.98710536545E+01	-6.01100960628E+00	-1.15428838733E+00
2.54132681409E+06	-1.17120349079E+01	-1.79197068547E+02	6.40381894832E+00	1.68987615982E+02	-4.12374512360E+01	-1.16382916216E+01	-6.00896448454E+00	-1.05244967837E+00
2.56351816869E+06	-7.95224308566E+00	1.66919123890E+02	6.32702834095E+00	1.68396776815E+02	-4.27513440124E+01	-1.16328996949E+01	-6.03931914531E+00	-9.87117993630E-01
2.58570952328E+06	-1.08536544085E+01	1.58887529171E+02	6.28011710510E+00	1.69242137232E+02	-5.01411933616E+01	5.12814761846E+00	-5.99544861271E+00	-1.49763113774E+00
2.60790087788E+06	-9.38199675750E+00	1.62459498860E+02	6.33415982259E+00	1.68394334555E+02	-5.07793340935E+01	-1.45524422608E+02	-6.03660193607E+00	-1.25409350499E+00
2.63009223247E+06	-1.06147642743E+01	-1.62562000370E+02	6.36593491480E+00	1.68577863266E+02	-3.82948932373E+01	-5.25169240885E+01	-6.03785471160E+00	-1.06084567946E+00
2.65228358707E+06	-1.41099249397E+01	-1.67406740351E+02	6.31055183261E+00	1.68151393586E+02	-4.55634571621E+01	-2.08963757057E+01	-6.02284995297E+00	-1.67563953060E+00
2.67447494166E+06	-9.46813521260E+00	-1.76292202483E+02	6.39961702871E+00	1.68026265349E+02	-3.56644491724E+01	-9.16415350003E+00	-6.04709994127E+00	-1.50902303121E+00
2.69666629626E+06	-1.29397385407E+01	1.51695621144E+02	6.33459791139E+00	1.68077782724E+02	-4.03596343211E+01	4.23058893253E+01	-6.01490553160E+00	-1.43217438343E+00
2.71885765085E+06	-9.06199942217E+00	-1.69667771381E+02	6.34333629768E+00	1.67964631815E+02	-3.70633404879E+01	-3.80015393000E+01	-6.04587901469E+00	-1.13572570975E+00
2.74104900545E+06	-1.08696034606E+01	-1.69607164133E+02	6.34643443105E+00	1.67681411101E+02	-4.21938609299E+01	-1.50758913707E+02	-6.03346449164E+00	-1.42352721836E+00
2.76324036004E+06	-1.13083207747E+01	1.58924408323E+02	6.34982376926E+00	1.67677851189E+02	-5.51530965310E+01	1.75899489277E+02	-6.01050296186E+00	-1.27460140107E+00
2.78543171463E+06	-8.24335194826E+00	1.78479190076E+02	6.40512943826E+00	1.67969237031E+02	-4.02648451211E+01	-1.62883789117E+02	-6.04366841033E+00	-1.26453495338E+00
2.80762306923E+06	-1.17898182168E+01	-1.67100336675E+02	6.38815165119E+00	1.67414074633E+02	-4.25374515155E+01	-5.93512900145E+01	-6.06017094371E+00	-1.40304168922E+00
2.82981442382E+06	-1.32408458067E+01	1.78062458748E+02	6.35232816006E+00	1.67393340380E+02	-4.06332312132E+01	-3.07715770514E+01	-6.00293115304E+00	-1.24513221955E+00
2.85200577842E+06	-6.49883133260E+00	1.75993680564E+02	6.38935441982E+00	1.67145668146E+02	-5.21443275994E+01	5.09709630236E+01	-6.03260943896E+00	-1.38255552695E+00
2.87419713301E+06	-8.43799459075E+00	1.75423572473E+02	6.40268747668E+00	1.67287167013E+02	-3.90143673383E+01	1.32623659273E+01	-6.01791054768E+00	-1.39359859119E+00
