# Hz S DB R 50
! CMT, M5065, 19127446, 24.2.4/2
! Date: 10/29/2024 1:09:27 PM
! Data: Format (Calibration Info)
! Freq	S11:dB/Ang(F2)	S21:dB/Ang(F2)	S12:dB/Ang(F2)	S22:dB/Ang(F2)
3.00000000000E+05	-8.13489772474E+00	-1.72130146014E+02	6.89803942350E+00	-1.77776603284E+02	-5.74438428807E+01	1.42787111418E+02	-6.00581650201E+00	-4.02427311933E-01
3.22191354595E+05	-1.55552948127E+01	1.73205109368E+02	6.82890371993E+00	-1.77992792268E+02	-4.13394024524E+01	-1.62944995677E+02	-6.01934424084E+00	-1.92388180239E-01
3.44382709190E+05	-9.82002950221E+00	-1.66748924925E+02	6.92614234957E+00	-1.78180353904E+02	-4.99878580215E+01	1.21808558058E+02	-6.00970498742E+00	-3.27148741841E-01
3.66574063785E+05	-1.30333031803E+01	-1.74987019055E+02	6.87509304492E+00	-1.78688571143E+02	-5.31722675099E+01	-3.77986771544E+01	-6.04142202864E+00	-2.90383412736E-01
3.88765418380E+05	-7.32424658000E+00	1.67973372671E+02	6.90904875819E+00	-1.79252738146E+02	-3.75161053093E+01	-1.40423161093E+02	-6.02910507049E+00	-3.73464699839E-01
4.10956772975E+05	-1.22820600695E+01	-1.78148558210E+02	6.90572629108E+00	-1.79608969311E+02	-4.23653832224E+01	-1.78101780530E+02	-6.02427367611E+00	-3.31588325397E-01
4.33148127570E+05	-9.01482522791E+00	-1.74257747259E+02	6.91277146408E+00	1.79825755591E+02	-4.60295869645E+01	-5.21377903387E+01	-6.07415628738E+00	-2.29110597319E-01
4.55339482165E+05	-8.91857659215E+00	-1.54137115096E+02	6.90651187061E+00	1.79936545488E+02	-4.59800350145E+01	4.63067413682E+01	-6.02388824362E+00	-2.08173760175E-01
4.77530836760E+05	-1.02643020178E+01	1.54518315912E+02	6.89350935335E+00	-1.79606808357E+02	-4.33664497032E+01	6.74464389512E+01	-6.07383600047E+00	-3.95808207337E-01
4.99722191355E+05	-6.63877917468E+00	-1.65246932233E+02	6.84070194689E+00	1.79750989120E+02	-5.29688055790E+01	-1.62370428938E+02	-6.03496932878E+00	-6.15524547352E-01
5.21913545950E+05	-6.14246475882E+00	-1.70326398057E+02	6.88168206428E+00	1.79424528517E+02	-3.17199407747E+01	1.44753143892E+01	-6.00335776089E+00	-2.87298379640E-01
5.44104900545E+05	-7.81989110293E+00	-1.75017624014E+02	6.84928447470E+00	1.79463529592E+02	-4.39206865295E+01	-7.65172978377E+00	-6.04273126305E+00	-4.85044785991E-01
5.66296255139E+05	-8.27057636885E+00	1.79245011166E+02	6.87689561503E+00	1.79051104018E+02	-4.02915733005E+01	3.31206575745E+01	-6.01711967917E+00	-4.53681877249E-01
5.88487609734E+05	-1.19757986060E+01	-1.66304849872E+02	6.82346807784E+00	1.79189475574E+02	-4.03514900315E+01	-1.37075838651E+02	-6.02227151833E+00	-5.72866669864E-01
6.10678964329E+05	-8.14564922076E+00	1.74500685216E+02	6.91080557972E+00	1.78972557103E+02	-4.14170295832E+01	-1.42492203200E+02	-6.04142574934E+00	-1.76099751130E-01
6.32870318924E+05	-1.07942673570E+01	1.61728379117E+02	6.91758536941E+00	1.78775531357E+02	-5.34413065971E+01	1.78041319827E+02	-6.00243599194E+00	-4.26529601127E-01
6.55061673519E+05	-1.22475062263E+01	1.56380794473E+02	6.90793549131E+00	1.78635541743E+02	-4.09949881938E+01	1.46887022058E+02	-6.04588230609E+00	-4.84240070974E-01
6.77253028114E+05	-9.07776465488E+00	-1.74090135369E+02	6.91764966259E+00	1.78521632398E+02	-4.25043136726E+01	3.37186544080E+01	-6.03667296850E+00	-6.73633539650E-01
6.99444382709E+05	-6.59408214109E+00	1.64877972229E+02	6.93142630099E+00	1.77862441907E+02	-4.51073911759E+01	4.35342371540E+01	-5.98770481086E+00	-4.68363119127E-01
7.21635737304E+05	-1.09824370963E+01	1.55542018605E+02	6.90577574512E+00	1.78091490660E+02	-4.03096022804E+01	5.58182609527E+01	-6.01167483674E+00	-2.89341957943E-01
7.43827091899E+05	-6.46031706441E+00	1.66961316656E+02	6.90803435502E+00	1.77883715872E+02	-3.49768302254E+01	-2.42572985302E+01	-6.04980840022E+00	-3.27169088010E-01
7.66018446494E+05	-1.16555045103E+01	-1.58027602582E+02	6.83283788059E+00	1.78004175844E+02	-4.00119548419E+01	1.68551883724E+02	-6.00096963121E+00	-4.55744413922E-01
7.88209801089E+05	-1.31337663277E+01	1.70571276672E+02	6.92040067365E+00	1.77504023405E+02	-3.98133019104E+01	-1.23703582779E+02	-5.99526510759E+00	-6.35803646374E-01
8.10401155684E+05	-1.28096711948E+01	-1.65282545230E+02	6.89175036802E+00	1.77629059318E+02	-4.75395186790E+01	-1.22958873919E+02	-5.97520135093E+00	-2.90250684365E-01
8.32592510279E+05	-1.31995797031E+01	1.71870062288E+02	6.89568063952E+00	1.77174252924E+02	-4.06213662639E+01	1.39518824639E+02	-6.01209924497E+00	-5.70393775840E-01
8.54783864874E+05	-9.36141769347E+00	1.54319819621E+02	6.95712368453E+00	1.76772788582E+02	-4.72544484398E+01	-1.11113536692E+02	-6.03661768225E+00	-4.09434212861E-01
8.76975219469E+05	-6.79352230273E+00	1.78300927012E+02	6.88725489005E+00	1.76975272532E+02	-4.43410973248E+01	-1.09519805709E+02	-6.02747153434E+00	-4.30532635954E-01
8.99166574064E+05	-1.34820637309E+01	1.76119386588E+02	6.89016665042E+00	1.77061796643E+02	-3.83298606106E+01	4.95074638492E+01	-5.99943274806E+00	-4.78187213842E-01
9.21357928659E+05	-8.30063332467E+00	1.78175385356E+02	6.92360641827E+00	1.77087815081E+02	-3.91919217338E+01	-6.20207698810E+01	-6.02740961544E+00	-6.93715760747E-01
9.43549283254E+05	-7.06415523488E+00	1.77317153289E+02	6.91879418722E+00	1.76956250572E+02	-3.40250092855E+01	2.97444421058E+01	-6.01157026789E+00	-8.97766094333E-01
9.65740637849E+05	-1.11100936340E+01	1.73685432974E+02	6.88237997072E+00	1.76423699255E+02	-3.64351849357E+01	-1.46271456292E+02	-6.01025030028E+00	-6.20194695248E-01
9.87931992444E+05	-9.50817637961E+00	-1.62190641235E+02	6.88684739695E+00	1.77056134206E+02	-3.71823610596E+01	1.08412474930E+02	-6.04609044815E+00	-6.11957367572E-01
1.01012334704E+06	-7.29295133931E+00	1.75952303994E+02	6.93442227209E+00	1.76346908682E+02	-5.30008460671E+01	-4.84580197449E+01	-6.04824743129E+00	-4.99070699740E-01
1.03231470163E+06	-7.76267824644E+00	-1.74885808506E+02	6.92578741842E+00	1.76108984074E+02	-4.74374693918E+01	6.72794855736E+01	-6.01353269653E+00	-4.53329707830E-01
1.05450605623E+06	-9.32612187647E+00	-1.76639105156E+02	6.83495007327E+00	1.76184636630E+02	-4.46012897330E+01	-3.32065043059E+01	-6.03308016866E+00	-5.93906101469E-01
1.07669741082E+06	-1.00493512572E+01	-1.77527251191E+02	6.93914511233E+00	1.75889986551E+02	-5.03596175220E+01	-1.11764824831E+02	-6.01910457337E+00	-4.24826110502E-01
1.09888876542E+06	-8.08731417576E+00	1.73124030004E+02	6.95906466298E+00	1.76159857090E+02	-4.37758470988E+01	-2.89249074864E+01	-6.01245681905E+00	-5.92747368219E-01
1.12108012001E+06	-7.30284829941E+00	-1.69519584082E+02	6.83815628694E+00	1.75285635294E+02	-4.38167458626E+01	-5.52858080966E+01	-6.02761565083E+00	-3.28158054897E-01
1.14327147461E+06	-8.94695435967E+00	1.77490069512E+02	6.88673274956E+00	1.75448178219E+02	-4.49543480536E+01	-8.17134903845E+01	-6.02610890150E+00	-7.86197252959E-01
1.16546282920E+06	-9.51341570832E+00	-1.73106251108E+02	6.95812480678E+00	1.75671729545E+02	-4.27372488049E+01	1.64403140527E+02	-6.04961735754E+00	-3.85964940979E-01
1.18765418380E+06	-9.95020809514E+00	-1.69759170139E+02	6.89559201174E+00	1.75751002860E+02	-3.81914677900E+01	1.01211523543E+02	-6.07038850847E+00	-6.06163183768E-01
1.20984553839E+06	-1.06493436626E+01	1.78159461012E+02	6.94122487991E+00	1.75026186765E+02	-3.90060370505E+01	-1.12940898914E+02	-5.98702148729E+00	-7.18207153554E-01
1.23203689299E+06	-1.03673852957E+01	-1.76955478949E+02	6.94144210849E+00	1.75163818182E+02	-4.01031356484E+01	1.46425872597E+02	-6.05999617505E+00	-6.34125686975E-01
1.25422824758E+06	-1.09748614265E+01	-1.70313702966E+02	6.89735315274E+00	1.75072340441E+02	-4.38341593515E+01	1.52631921741E+02	-6.00448484898E+00	-8.18868470261E-01
1.27641960218E+06	-1.26008616588E+01	1.68066215224E+02	6.84377363848E+00	1.74781098560E+02	-3.56926462703E+01	1.49043928556E+02	-6.01897783925E+00	-7.25937042728E-01
1.29861095677E+06	-9.73499691967E+00	-1.69414250726E+02	6.92229957849E+00	1.74929615180E+02	-3.64143201621E+01	-1.08238859076E+02	-6.07382230565E+00	-8.00620545207E-01
1.32080231137E+06	-7.00066067245E+00	1.70551546785E+02	6.98272100518E+00	1.74302831828E+02	-3.94206231674E+01	1.56387304086E+02	-6.03077447543E+00	-9.60809646604E-01
1.34299366596E+06	-9.63689657254E+00	-1.49833903284E+02	6.86732411449E+00	1.74419005906E+02	-4.32517382591E+01	-9.39740867694E+01	-6.03979182219E+00	-1.09930593473E+00
1.36518502056E+06	-9.64746473589E+00	1.63630645323E+02	6.88299194605E+00	1.74559370162E+02	-3.71151079998E+01	6.26127966746E+01	-6.00257382565E+00	-5.46268820354E-01
1.38737637515E+06	-9.98116196410E+00	-1.69011079626E+02	6.91333965333E+00	1.74321886110E+02	-4.01485337317E+01	1.72203168574E+02	-6.05434666580E+00	-7.60164877500E-01
1.40956772975E+06	-1.01231762301E+01	-1.60641991050E+02	6.87776786787E+00	1.73667337571E+02	-3.60572952870E+01	-9.62212304687E+01	-6.06176686488E+00	-7.54836020928E-01
1.43175908434E+06	-8.62571323304E+00	-1.73630528825E+02	6.93231767904E+00	1.73885794052E+02	-3.63868433450E+01	-1.46995358412E+02	-6.00975652383E+00	-6.69875705536E-01
1.45395043894E+06	-8.84850768316E+00	1.67075674573E+02	6.87192969994E+00	1.73860750955E+02	-4.77478208713E+01	1.31505385981E+02	-5.99959849818E+00	-8.79683702356E-01
1.47614179353E+06	-7.30834852386E+00	-1.74561886378E+02	6.95516632628E+00	1.73230310818E+02	-4.87424183916E+01	-1.71020475706E+02	-6.04154725373E+00	-7.30527665801E-01
1.49833314813E+06	-1.32382442502E+01	1.73625967357E+02	6.83454220910E+00	1.73550210569E+02	-4.59934734492E+01	5.41541851897E+01	-6.04244911872E+00	-9.44350721817E-01
1.52052450272E+06	-9.65083148135E+00	1.75483600257E+02	6.93623992288E+00	1.73790417352E+02	-5.27243573419E+01	2.57629941029E+01	-6.08850554740E+00	-5.57077886051E-01
1.54271585732E+06	-1.19924098043E+01	-1.70351331448E+02	6.81523203550E+00	1.73941770313E+02	-4.28903824052E+01	1.04591441742E+02	-6.04085118848E+00	-7.01210542494E-01
1.56490721191E+06	-1.10244692443E+01	1.54476785899E+02	6.91607347998E+00	1.73597922889E+02	-4.07584666238E+01	-7.21576532378E+01	-6.01371734926E+00	-7.36903079740E-01
1.58709856651E+06	-1.26948203638E+01	1.73751415093E+02	6.87126553474E+00	1.73019796426E+02	-4.37043405088E+01	1.70516644322E+02	-6.03773121879E+00	-1.02043320763E+00
1.60928992110E+06	-9.50403944416E+00	1.66526147635E+02	6.92063247608E+00	1.72857430070E+02	-4.17668651317E+01	1.47624298758E+02	-6.03720948484E+00	-9.16933783225E-01
1.63148127570E+06	-9.86711577046E+00	1.69651373840E+02	6.80472267383E+00	1.72473506459E+02	-4.30055258308E+01	1.18148001161E+02	-6.02523327687E+00	-8.96878945211E-01
1.65367263029E+06	-1.31799344859E+01	1.75526715759E+02	6.85518905356E+00	1.72662992446E+02	-3.75444750847E+01	1.18372453107E+02	-5.99345427494E+00	-5.95651095615E-01
1.67586398489E+06	-1.71066772948E+01	-1.49242236579E+02	6.81030082308E+00	1.72910721150E+02	-4.23754706964E+01	1.17148987647E+02	-6.01854494249E+00	-7.59053537920E-01
1.69805533948E+06	-1.06513731245E+01	-1.75736451933E+02	6.85123404677E+00	1.72223159930E+02	-4.53813602102E+01	-3.07079156758E+01	-6.02504870244E+00	-9.74575351164E-01
1.72024669408E+06	-1.14451845373E+01	-1.57358015243E+02	6.87007086045E+00	1.72576564238E+02	-3.93055454912E+01	7.45309182092E+01	-6.03529099182E+00	-8.87643913340E-01
1.74243804867E+06	-1.09722812559E+01	-1.51834488115E+02	6.85714056815E+00	1.72394567660E+02	-4.66336716295E+01	1.13768948034E+02	-6.02889778813E+00	-7.04536811412E-01
1.76462940327E+06	-9.71347876851E+00	1.43501855024E+02	6.90982297961E+00	1.72102525508E+02	-4.23294080577E+01	-1.35281526336E+02	-6.03001403941E+00	-1.27620276643E+00
1.78682075786E+06	-9.71868192843E+00	1.74052185530E+02	6.94131348519E+00	1.72639812562E+02	-4.89386524467E+01	-5.27909388045E+01	-6.01290955946E+00	-7.12541233893E-01
1.80901211246E+06	-6.54864173664E+00	-1.73356117415E+02	6.90194048323E+00	1.71794085313E+02	-3.91267664240E+01	1.26986330296E+02	-6.04587201462E+00	-8.57331387799E-01
1.83120346705E+06	-8.95757277941E+00	-1.71710776294E+02	6.92527916593E+00	1.71968186844E+02	-4.38035278031E+01	1.61128535895E+01	-6.03778903371E+00	-1.10387603290E+00
1.85339482165E+06	-1.09482242517E+01	1.55305714859E+02	6.90997509668E+00	1.72100894838E+02	-5.19296151352E+01	-1.52053799724E+02	-6.04619101624E+00	-1.00861284192E+00
1.87558617624E+06	-1.27066084762E+01	-1.58949988615E+02	6.85609463849E+00	1.71994884561E+02	-4.66045618308E+01	8.15650881058E+01	-6.02208809830E+00	-8.11488724159E-01
1.89777753084E+06	-1.21221453338E+01	1.51374365184E+02	6.92805329220E+00	1.71696297827E+02	-3.90626923510E+01	-8.60329628729E+01	-5.97452392091E+00	-1.16579079715E+00
1.91996888543E+06	-1.04724639660E+01	1.71922483644E+02	6.81735346126E+00	1.71692247435E+02	-3.33087575580E+01	8.28975512596E+01	-5.98035414792E+00	-7.92604602313E-01
1.94216024003E+06	-8.22572839161E+00	-1.78940616055E+02	6.89324525036E+00	1.71296566093E+02	-4.35153899827E+01	1.77445803002E+02	-6.04801694511E+00	-6.11779271516E-01
1.96435159462E+06	-1.28986220756E+01	1.60849924423E+02	6.91179663855E+00	1.71546102092E+02	-3.68446700531E+01	1.75642090555E+02	-6.00352121490E+00	-9.58503029445E-01
1.98654294922E+06	-9.80066974587E+00	1.76121070158E+02	6.84893632742E+00	1.70537110485E+02	-4.98100254239E+01	8.78003624987E+01	-6.02463761630E+00	-1.01987932138E+00
2.00873430381E+06	-1.15125591941E+01	1.43899926315E+02	6.81929202118E+00	1.70874529841E+02	-3.74327379319E+01	-1.29576694742E+02	-6.03454366094E+00	-8.18598492635E-01
2.03092565841E+06	-1.01904363164E+01	-1.71672574907E+02	6.84248375285E+00	1.71082615975E+02	-3.65970012624E+01	-1.68239537298E+02	-5.98285987533E+00	-1.00244695745E+00
2.05311701300E+06	-1.02885071584E+01	1.53452339065E+02	6.93008550147E+00	1.70770989748E+02	-4.95838431845E+01	-7.58893052133E+01	-6.05868739378E+00	-9.48754402351E-01
2.07530836760E+06	-8.71022730592E+00	1.56558888075E+02	6.94004325683E+00	1.70791829146E+02	-4.03343843505E+01	1.31190163938E+02	-6.04199456809E+00	-1.19326522641E+00
2.09749972219E+06	-8.70889800649E+00	-1.64564716638E+02	6.93034398897E+00	1.71104269591E+02	-4.91679990988E+01	1.36503539212E+02	-6.02246962775E+00	-1.04694463821E+00
2.11969107679E+06	-9.10141646827E+00	-1.75594786307E+02	6.89940896897E+00	1.70238294700E+02	-3.54193469935E+01	-8.10003665727E+01	-6.05758956346E+00	-1.01561437491E+00
2.14188243138E+06	-9.92148822010E+00	1.66060238179E+02	6.86088712598E+00	1.70549560709E+02	-4.27561624608E+01	6.01796165239E+01	-6.00545831078E+00	-1.09615975857E+00
2.16407378598E+06	-1.04554920402E+01	-1.63920881189E+02	6.90401973220E+00	1.70300759737E+02	-4.37273928920E+01	6.24650502396E+01	-6.05530291907E+00	-9.59564176624E-01
2.18626514057E+06	-1.02356096329E+01	-1.72024293536E+02	6.88077924231E+00	1.70713563920E+02	-3.88536713435E+01	6.78464875692E+01	-6.00728276153E+00	-1.18141208352E+00
2.20845649517E+06	-1.08247340902E+01	-1.78604192085E+02	6.91219306623E+00	1.70606212572E+02	-4.54249106158E+01	-1.77198714177E+02	-5.99276974715E+00	-1.09980199093E+00
2.23064784976E+06	-1.06770418728E+01	-1.79785547361E+02	6.84073583562E+00	1.70060682532E+02	-4.52953569870E+01	-2.85182870379E+01	-5.99358170742E+00	-1.25193374695E+00
2.25283920436E+06	-1.12545703881E+01	1.44446594101E+02	6.80722729991E+00	1.70461175877E+02	-4.22984668150E+01	-8.72670040400E+01	-6.03574754773E+00	-1.21365269964E+00
2.27503055895E+06	-6.48190687911E+00	1.71721261257E+02	6.88734587261E+00	1.69721199305E+02	-5.45958816933E+01	5.02179210381E+01	-6.01146520039E+00	-6.72816503270E-01
2.29722191355E+06	-7.83144921409E+00	1.62715097160E+02	6.88288793410E+00	1.69861909235E+02	-3.78084641252E+01	1.75765468183E+02	-6.02464117678E+00	-1.13079091338E+00
2.31941326814E+06	-8.16907388548E+00	1.77476024011E+02	6.93865447475E+00	1.69616836964E+02	-4.00050946241E+01	1.67546368196E+02	-5.97700008970E+00	-1.09119899535E+00
2.34160462274E+06	-9.03244762933E+00	-1.71189466636E+02	6.83420945269E+00	1.69224329041E+02	-3.85216602677E+01	-1.42592397194E+02	-6.04169707787E+00	-8.85081622261E-01
2.36379597733E+06	-8.22636758200E+00	-1.78982635976E+02	6.83289398437E+00	1.68991165555E+02	-4.28805371724E+01	1.47451942866E+02	-6.01844643399E+00	-1.11405060672E+00
2.38598733193E+06	-1.12906567063E+01	-1.59909937122E+02	6.86172182901E+00	1.69484292606E+02	-3.94760942139E+01	-2.26474409656E+01	-5.98137831020E+00	-1.18644051518E+00
2.40817868652E+06	-6.19972504414E+00	1.74938466976E+02	6.91405580153E+00	1.68857080364E+02	-3.78133786994E+01	1.91809961223E+00	-5.97977485638E+00	-1.05352064162E+00
2.43037004112E+06	-1.23281080709E+01	1.38236971939E+02	6.86535333237E+00	1.69455503239E+02	-5.54241930236E+01	1.25226989786E+02	-5.97928636749E+00	-1.44153342642E+00
2.45256139571E+06	-1.15021316834E+01	1.64010089989E+02	6.86801416960E+00	1.68979240392E+02	-4.57704702478E+01	-1.19757062946E+02	-6.03626298144E+00	-9.37819334161E-01
2.47475275031E+06	-1.31855369356E+01	1.77980323399E+02	6.86705550806E+00	1.68849936556E+02	-5.83360542542E+01	-2.46330941145E+01	-6.02110833987E+00	-1.22564873097E+00
2.49694410490E+06	-8.39539294089E+00	1.64330444119E+02	6.88518816387E+00	1.68445269203E+02	-3.75835992538E+01	-1.46645299296E+01	-6.06151888192E+00	-1.26872116229E+00
2.51913545950E+06	-1.00915215828E+01	1.64801972586E+02	6.90700584429E+00	1.68711587591E+02	-4.90604833619E+01	2.24570823498E+01	-6.00131092228E+00	-1.10149270754E+00
2.54132681409E+06	-1.00215770267E+01	1.76214128558E+02	6.84423244271E+00	1.68439737776E+02	-3.69900575273E+01	-5.31006290258E+01	-6.02157222291E+00	-1.33028803230E+00
2.56351816869E+06	-1.24560733506E+01	-1.73137254082E+02	6.86639683171E+00	1.68666015781E+02	-4.98951905655E+01	2.22444869819E+01	-6.02085188190E+00	-1.10755224937E+00
2.58570952328E+06	-8.26290367636E+00	1.69139328799E+02	6.89497746226E+00	1.68262003578E+02	-4.04022680082E+01	6.77071898481E+00	-6.03182972406E+00	-1.39280414687E+00
2.60790087788E+06	-9.52323716570E+00	1.64767092019E+02	6.86422587034E+00	1.68098475654E+02	-3.63842309657E+01	1.39119262434E+02	-6.00803380482E+00	-1.24889629769E+00
2.63009223247E+06	-1.00441023196E+01	-1.67493850865E+02	6.85949633322E+00	1.68047356603E+02	-4.06837701755E+01	-1.42693943121E+02	-6.04218741270E+00	-1.39734641648E+00
2.65228358707E+06	-7.67839839071E+00	1.76080348650E+02	6.85168006630E+00	1.67963395964E+02	-4.33103660270E+01	1.50737120349E+02	-5.96659769478E+00	-1.41789121802E+00
2.67447494166E+06	-1.02465761708E+01	1.73526582377E+02	6.87852928033E+00	1.68238834249E+02	-4.64572437098E+01	1.22201883868E+02	-6.03104212923E+00	-1.61571547298E+00
2.69666629626E+06	-8.68287913695E+00	1.64887508174E+02	6.85963988406E+00	1.67601310925E+02	-4.01697812457E+01	-3.41745730763E+01	-6.02643014121E+00	-1.31279018203E+00
2.71885765085E+06	-1.32920885157E+01	1.56922861895E+02	7.01691611662E+00	1.67562418561E+02	-4.91303898542E+01	-3.20200398934E+01	-5.99616536262E+00	-1.17911864523E+00
2.74104900545E+06	-1.01823550546E+01	-1.69878890283E+02	6.89305923036E+00	1.68124617060E+02	-4.69820141588E+01	-1.33550727704E+00	-6.02832669802E+00	-1.44254906640E+00
2.76324036004E+06	-9.09427289706E+00	-1.76529000514E+02	6.89676096786E+00	1.67543019239E+02	-3.69001432347E+01	-5.80457853484E+01	-6.02661950548E+00	-1.45051017464E+00
2.78543171463E+06	-1.25206680798E+01	1.66632745590E+02	6.93047851357E+00	1.67470290963E+02	-4.24430434989E+01	-2.56832153883E+01	-6.03444606694E+00	-1.10810350744E+00
2.80762306923E+06	-9.52064284545E+00	1.66273303903E+02	6.90192927445E+00	1.67445651947E+02	-4.36091097727E+01	4.86578492642E+01	-6.02439061197E+00	-1.40658210957E+00
2.82981442382E+06	-9.21900876683E+00	1.65406102536E+02	6.93221599458E+00	1.67387407376E+02	-3.61824969139E+01	-1.34490504796E+02	-6.01086379737E+00	-1.35496290076E+00
2.85200577842E+06	-9.33373407812E+00	1.73042950744E+02	6.94690734780E+00	1.67155094863E+02	-3.53133491180E+01	-9.91213620390E+01	-5.98632940442E+00	-1.28683835463E+00
2.87419713301E+06	-9.09372398219E+00	1.77979939999E+02	6.85859874862E+00	1.66843909361E+02	-3.90057432904E+01	-8.40212094611E+01	-5.99599711765E+00	-1.32145599836E+00
