Freq.	V(out_preamp)
1.00000000000000e+00	(1.99999044536548e+01dB,1.79999993697522e+02°)
1.00230523807790e+00	(1.99999044536548e+01dB,1.79999993682993e+02°)
1.00461579027839e+00	(1.99999044536548e+01dB,1.79999993668431e+02°)
1.00693166885180e+00	(1.99999044536548e+01dB,1.79999993653835e+02°)
1.00925288607668e+00	(1.99999044536548e+01dB,1.79999993639206e+02°)
1.01157945425990e+00	(1.99999044536548e+01dB,1.79999993624543e+02°)
1.01391138573668e+00	(1.99999044536548e+01dB,1.79999993609846e+02°)
1.01624869287070e+00	(1.99999044536548e+01dB,1.79999993595115e+02°)
1.01859138805412e+00	(1.99999044536548e+01dB,1.79999993580350e+02°)
1.02093948370768e+00	(1.99999044536548e+01dB,1.79999993565552e+02°)
1.02329299228075e+00	(1.99999044536548e+01dB,1.79999993550719e+02°)
1.02565192625141e+00	(1.99999044536548e+01dB,1.79999993535851e+02°)
1.02801629812647e+00	(1.99999044536548e+01dB,1.79999993520950e+02°)
1.03038612044162e+00	(1.99999044536548e+01dB,1.79999993506014e+02°)
1.03276140576140e+00	(1.99999044536548e+01dB,1.79999993491044e+02°)
1.03514216667934e+00	(1.99999044536548e+01dB,1.79999993476039e+02°)
1.03752841581801e+00	(1.99999044536548e+01dB,1.79999993461000e+02°)
1.03992016582906e+00	(1.99999044536548e+01dB,1.79999993445926e+02°)
1.04231742939330e+00	(1.99999044536548e+01dB,1.79999993430817e+02°)
1.04472021922080e+00	(1.99999044536548e+01dB,1.79999993415674e+02°)
1.04712854805090e+00	(1.99999044536548e+01dB,1.79999993400495e+02°)
1.04954242865232e+00	(1.99999044536548e+01dB,1.79999993385282e+02°)
1.05196187382322e+00	(1.99999044536548e+01dB,1.79999993370034e+02°)
1.05438689639126e+00	(1.99999044536548e+01dB,1.79999993354750e+02°)
1.05681750921366e+00	(1.99999044536548e+01dB,1.79999993339431e+02°)
1.05925372517729e+00	(1.99999044536548e+01dB,1.79999993324077e+02°)
1.06169555719872e+00	(1.99999044536548e+01dB,1.79999993308687e+02°)
1.06414301822431e+00	(1.99999044536548e+01dB,1.79999993293262e+02°)
1.06659612123026e+00	(1.99999044536548e+01dB,1.79999993277802e+02°)
1.06905487922266e+00	(1.99999044536548e+01dB,1.79999993262305e+02°)
1.07151930523761e+00	(1.99999044536548e+01dB,1.79999993246773e+02°)
1.07398941234124e+00	(1.99999044536548e+01dB,1.79999993231205e+02°)
1.07646521362983e+00	(1.99999044536548e+01dB,1.79999993215602e+02°)
1.07894672222983e+00	(1.99999044536548e+01dB,1.79999993199962e+02°)
1.08143395129794e+00	(1.99999044536548e+01dB,1.79999993184286e+02°)
1.08392691402120e+00	(1.99999044536548e+01dB,1.79999993168575e+02°)
1.08642562361706e+00	(1.99999044536548e+01dB,1.79999993152827e+02°)
1.08893009333343e+00	(1.99999044536548e+01dB,1.79999993137042e+02°)
1.09144033644876e+00	(1.99999044536548e+01dB,1.79999993121221e+02°)
1.09395636627209e+00	(1.99999044536548e+01dB,1.79999993105364e+02°)
1.09647819614318e+00	(1.99999044536548e+01dB,1.79999993089470e+02°)
1.09900583943252e+00	(1.99999044536548e+01dB,1.79999993073540e+02°)
1.10153930954141e+00	(1.99999044536548e+01dB,1.79999993057573e+02°)
1.10407861990207e+00	(1.99999044536548e+01dB,1.79999993041569e+02°)
1.10662378397766e+00	(1.99999044536548e+01dB,1.79999993025528e+02°)
1.10917481526240e+00	(1.99999044536548e+01dB,1.79999993009450e+02°)
1.11173172728159e+00	(1.99999044536548e+01dB,1.79999992993335e+02°)
1.11429453359173e+00	(1.99999044536548e+01dB,1.79999992977183e+02°)
1.11686324778056e+00	(1.99999044536548e+01dB,1.79999992960994e+02°)
1.11943788346715e+00	(1.99999044536548e+01dB,1.79999992944768e+02°)
1.12201845430196e+00	(1.99999044536548e+01dB,1.79999992928504e+02°)
1.12460497396692e+00	(1.99999044536548e+01dB,1.79999992912202e+02°)
1.12719745617551e+00	(1.99999044536548e+01dB,1.79999992895863e+02°)
1.12979591467280e+00	(1.99999044536548e+01dB,1.79999992879486e+02°)
1.13240036323556e+00	(1.99999044536548e+01dB,1.79999992863072e+02°)
1.13501081567231e+00	(1.99999044536548e+01dB,1.79999992846619e+02°)
1.13762728582343e+00	(1.99999044536548e+01dB,1.79999992830129e+02°)
1.14024978756117e+00	(1.99999044536548e+01dB,1.79999992813601e+02°)
1.14287833478977e+00	(1.99999044536548e+01dB,1.79999992797035e+02°)
1.14551294144553e+00	(1.99999044536548e+01dB,1.79999992780430e+02°)
1.14815362149688e+00	(1.99999044536548e+01dB,1.79999992763787e+02°)
1.15080038894443e+00	(1.99999044536548e+01dB,1.79999992747106e+02°)
1.15345325782109e+00	(1.99999044536548e+01dB,1.79999992730386e+02°)
1.15611224219210e+00	(1.99999044536548e+01dB,1.79999992713628e+02°)
1.15877735615512e+00	(1.99999044536548e+01dB,1.79999992696831e+02°)
1.16144861384034e+00	(1.99999044536548e+01dB,1.79999992679996e+02°)
1.16412602941049e+00	(1.99999044536548e+01dB,1.79999992663121e+02°)
1.16680961706096e+00	(1.99999044536548e+01dB,1.79999992646208e+02°)
1.16949939101987e+00	(1.99999044536548e+01dB,1.79999992629256e+02°)
1.17219536554813e+00	(1.99999044536548e+01dB,1.79999992612265e+02°)
1.17489755493953e+00	(1.99999044536548e+01dB,1.79999992595234e+02°)
1.17760597352080e+00	(1.99999044536548e+01dB,1.79999992578164e+02°)
1.18032063565173e+00	(1.99999044536548e+01dB,1.79999992561055e+02°)
1.18304155572516e+00	(1.99999044536548e+01dB,1.79999992543907e+02°)
1.18576874816716e+00	(1.99999044536548e+01dB,1.79999992526719e+02°)
1.18850222743702e+00	(1.99999044536548e+01dB,1.79999992509491e+02°)
1.19124200802737e+00	(1.99999044536548e+01dB,1.79999992492224e+02°)
1.19398810446427e+00	(1.99999044536548e+01dB,1.79999992474916e+02°)
1.19674053130724e+00	(1.99999044536548e+01dB,1.79999992457569e+02°)
1.19949930314938e+00	(1.99999044536548e+01dB,1.79999992440182e+02°)
1.20226443461741e+00	(1.99999044536548e+01dB,1.79999992422755e+02°)
1.20503594037179e+00	(1.99999044536548e+01dB,1.79999992405288e+02°)
1.20781383510678e+00	(1.99999044536548e+01dB,1.79999992387780e+02°)
1.21059813355048e+00	(1.99999044536548e+01dB,1.79999992370232e+02°)
1.21338885046497e+00	(1.99999044536548e+01dB,1.79999992352644e+02°)
1.21618600064636e+00	(1.99999044536548e+01dB,1.79999992335015e+02°)
1.21898959892486e+00	(1.99999044536548e+01dB,1.79999992317345e+02°)
1.22179966016487e+00	(1.99999044536548e+01dB,1.79999992299635e+02°)
1.22461619926504e+00	(1.99999044536548e+01dB,1.79999992281883e+02°)
1.22743923115840e+00	(1.99999044536548e+01dB,1.79999992264091e+02°)
1.23026877081238e+00	(1.99999044536548e+01dB,1.79999992246258e+02°)
1.23310483322890e+00	(1.99999044536548e+01dB,1.79999992228384e+02°)
1.23594743344451e+00	(1.99999044536548e+01dB,1.79999992210469e+02°)
1.23879658653036e+00	(1.99999044536548e+01dB,1.79999992192512e+02°)
1.24165230759241e+00	(1.99999044536548e+01dB,1.79999992174514e+02°)
1.24451461177138e+00	(1.99999044536548e+01dB,1.79999992156474e+02°)
1.24738351424294e+00	(1.99999044536548e+01dB,1.79999992138393e+02°)
1.25025903021771e+00	(1.99999044536548e+01dB,1.79999992120270e+02°)
1.25314117494141e+00	(1.99999044536548e+01dB,1.79999992102105e+02°)
1.25602996369487e+00	(1.99999044536548e+01dB,1.79999992083899e+02°)
1.25892541179416e+00	(1.99999044536548e+01dB,1.79999992065650e+02°)
1.26182753459066e+00	(1.99999044536548e+01dB,1.79999992047360e+02°)
1.26473634747115e+00	(1.99999044536548e+01dB,1.79999992029027e+02°)
1.26765186585784e+00	(1.99999044536548e+01dB,1.79999992010652e+02°)
1.27057410520854e+00	(1.99999044536548e+01dB,1.79999991992235e+02°)
1.27350308101666e+00	(1.99999044536548e+01dB,1.79999991973775e+02°)
1.27643880881134e+00	(1.99999044536548e+01dB,1.79999991955273e+02°)
1.27938130415752e+00	(1.99999044536548e+01dB,1.79999991936728e+02°)
1.28233058265602e+00	(1.99999044536548e+01dB,1.79999991918140e+02°)
1.28528665994361e+00	(1.99999044536548e+01dB,1.79999991899509e+02°)
1.28824955169313e+00	(1.99999044536548e+01dB,1.79999991880836e+02°)
1.29121927361353e+00	(1.99999044536548e+01dB,1.79999991862119e+02°)
1.29419584144998e+00	(1.99999044536548e+01dB,1.79999991843359e+02°)
1.29717927098395e+00	(1.99999044536548e+01dB,1.79999991824556e+02°)
1.30016957803328e+00	(1.99999044536548e+01dB,1.79999991805710e+02°)
1.30316677845229e+00	(1.99999044536548e+01dB,1.79999991786820e+02°)
1.30617088813183e+00	(1.99999044536548e+01dB,1.79999991767887e+02°)
1.30918192299940e+00	(1.99999044536548e+01dB,1.79999991748910e+02°)
1.31219989901920e+00	(1.99999044536548e+01dB,1.79999991729889e+02°)
1.31522483219223e+00	(1.99999044536548e+01dB,1.79999991710825e+02°)
1.31825673855640e+00	(1.99999044536548e+01dB,1.79999991691716e+02°)
1.32129563418657e+00	(1.99999044536548e+01dB,1.79999991672563e+02°)
1.32434153519466e+00	(1.99999044536548e+01dB,1.79999991653367e+02°)
1.32739445772973e+00	(1.99999044536548e+01dB,1.79999991634126e+02°)
1.33045441797808e+00	(1.99999044536548e+01dB,1.79999991614840e+02°)
1.33352143216332e+00	(1.99999044536548e+01dB,1.79999991595511e+02°)
1.33659551654643e+00	(1.99999044536548e+01dB,1.79999991576136e+02°)
1.33967668742593e+00	(1.99999044536548e+01dB,1.79999991556717e+02°)
1.34276496113786e+00	(1.99999044536548e+01dB,1.79999991537254e+02°)
1.34586035405594e+00	(1.99999044536548e+01dB,1.79999991517745e+02°)
1.34896288259164e+00	(1.99999044536548e+01dB,1.79999991498191e+02°)
1.35207256319427e+00	(1.99999044536548e+01dB,1.79999991478593e+02°)
1.35518941235103e+00	(1.99999044536548e+01dB,1.79999991458949e+02°)
1.35831344658715e+00	(1.99999044536548e+01dB,1.79999991439260e+02°)
1.36144468246594e+00	(1.99999044536548e+01dB,1.79999991419525e+02°)
1.36458313658892e+00	(1.99999044536548e+01dB,1.79999991399745e+02°)
1.36772882559584e+00	(1.99999044536548e+01dB,1.79999991379919e+02°)
1.37088176616484e+00	(1.99999044536548e+01dB,1.79999991360048e+02°)
1.37404197501251e+00	(1.99999044536548e+01dB,1.79999991340131e+02°)
1.37720946889394e+00	(1.99999044536548e+01dB,1.79999991320168e+02°)
1.38038426460288e+00	(1.99999044536548e+01dB,1.79999991300159e+02°)
1.38356637897177e+00	(1.99999044536548e+01dB,1.79999991280104e+02°)
1.38675582887188e+00	(1.99999044536548e+01dB,1.79999991260002e+02°)
1.38995263121334e+00	(1.99999044536548e+01dB,1.79999991239854e+02°)
1.39315680294529e+00	(1.99999044536548e+01dB,1.79999991219660e+02°)
1.39636836105593e+00	(1.99999044536548e+01dB,1.79999991199419e+02°)
1.39958732257261e+00	(1.99999044536548e+01dB,1.79999991179132e+02°)
1.40281370456195e+00	(1.99999044536548e+01dB,1.79999991158798e+02°)
1.40604752412990e+00	(1.99999044536548e+01dB,1.79999991138417e+02°)
1.40928879842186e+00	(1.99999044536548e+01dB,1.79999991117989e+02°)
1.41253754462274e+00	(1.99999044536548e+01dB,1.79999991097513e+02°)
1.41579377995707e+00	(1.99999044536548e+01dB,1.79999991076991e+02°)
1.41905752168908e+00	(1.99999044536548e+01dB,1.79999991056421e+02°)
1.42232878712281e+00	(1.99999044536548e+01dB,1.79999991035804e+02°)
1.42560759360218e+00	(1.99999044536548e+01dB,1.79999991015140e+02°)
1.42889395851109e+00	(1.99999044536548e+01dB,1.79999990994427e+02°)
1.43218789927353e+00	(1.99999044536548e+01dB,1.79999990973667e+02°)
1.43548943335364e+00	(1.99999044536548e+01dB,1.79999990952860e+02°)
1.43879857825583e+00	(1.99999044536548e+01dB,1.79999990932004e+02°)
1.44211535152486e+00	(1.99999044536548e+01dB,1.79999990911100e+02°)
1.44543977074592e+00	(1.99999044536548e+01dB,1.79999990890148e+02°)
1.44877185354475e+00	(1.99999044536548e+01dB,1.79999990869147e+02°)
1.45211161758773e+00	(1.99999044536548e+01dB,1.79999990848099e+02°)
1.45545908058195e+00	(1.99999044536548e+01dB,1.79999990827001e+02°)
1.45881426027534e+00	(1.99999044536548e+01dB,1.79999990805855e+02°)
1.46217717445671e+00	(1.99999044536548e+01dB,1.79999990784661e+02°)
1.46554784095590e+00	(1.99999044536548e+01dB,1.79999990763417e+02°)
1.46892627764385e+00	(1.99999044536548e+01dB,1.79999990742125e+02°)
1.47231250243271e+00	(1.99999044536548e+01dB,1.79999990720783e+02°)
1.47570653327588e+00	(1.99999044536548e+01dB,1.79999990699392e+02°)
1.47910838816819e+00	(1.99999044536548e+01dB,1.79999990677952e+02°)
1.48251808514594e+00	(1.99999044536548e+01dB,1.79999990656463e+02°)
1.48593564228699e+00	(1.99999044536548e+01dB,1.79999990634924e+02°)
1.48936107771090e+00	(1.99999044536548e+01dB,1.79999990613335e+02°)
1.49279440957898e+00	(1.99999044536548e+01dB,1.79999990591696e+02°)
1.49623565609442e+00	(1.99999044536548e+01dB,1.79999990570008e+02°)
1.49968483550236e+00	(1.99999044536548e+01dB,1.79999990548269e+02°)
1.50314196609001e+00	(1.99999044536548e+01dB,1.79999990526481e+02°)
1.50660706618673e+00	(1.99999044536548e+01dB,1.79999990504642e+02°)
1.51008015416413e+00	(1.99999044536548e+01dB,1.79999990482753e+02°)
1.51356124843619e+00	(1.99999044536548e+01dB,1.79999990460814e+02°)
1.51705036745932e+00	(1.99999044536548e+01dB,1.79999990438824e+02°)
1.52054752973248e+00	(1.99999044536548e+01dB,1.79999990416783e+02°)
1.52405275379728e+00	(1.99999044536548e+01dB,1.79999990394691e+02°)
1.52756605823806e+00	(1.99999044536548e+01dB,1.79999990372549e+02°)
1.53108746168202e+00	(1.99999044536548e+01dB,1.79999990350355e+02°)
1.53461698279928e+00	(1.99999044536548e+01dB,1.79999990328110e+02°)
1.53815464030302e+00	(1.99999044536548e+01dB,1.79999990305814e+02°)
1.54170045294954e+00	(1.99999044536548e+01dB,1.79999990283467e+02°)
1.54525443953840e+00	(1.99999044536548e+01dB,1.79999990261068e+02°)
1.54881661891247e+00	(1.99999044536548e+01dB,1.79999990238618e+02°)
1.55238700995807e+00	(1.99999044536548e+01dB,1.79999990216115e+02°)
1.55596563160506e+00	(1.99999044536548e+01dB,1.79999990193561e+02°)
1.55955250282694e+00	(1.99999044536548e+01dB,1.79999990170955e+02°)
1.56314764264094e+00	(1.99999044536548e+01dB,1.79999990148297e+02°)
1.56675107010813e+00	(1.99999044536548e+01dB,1.79999990125586e+02°)
1.57036280433354e+00	(1.99999044536548e+01dB,1.79999990102823e+02°)
1.57398286446620e+00	(1.99999044536548e+01dB,1.79999990080008e+02°)
1.57761126969933e+00	(1.99999044536547e+01dB,1.79999990057140e+02°)
1.58124803927037e+00	(1.99999044536547e+01dB,1.79999990034219e+02°)
1.58489319246110e+00	(1.99999044536547e+01dB,1.79999990011246e+02°)
1.58854674859776e+00	(1.99999044536547e+01dB,1.79999989988219e+02°)
1.59220872705115e+00	(1.99999044536547e+01dB,1.79999989965140e+02°)
1.59587914723672e+00	(1.99999044536547e+01dB,1.79999989942007e+02°)
1.59955802861465e+00	(1.99999044536547e+01dB,1.79999989918821e+02°)
1.60324539069002e+00	(1.99999044536547e+01dB,1.79999989895581e+02°)
1.60694125301286e+00	(1.99999044536547e+01dB,1.79999989872288e+02°)
1.61064563517825e+00	(1.99999044536547e+01dB,1.79999989848942e+02°)
1.61435855682647e+00	(1.99999044536547e+01dB,1.79999989825541e+02°)
1.61808003764305e+00	(1.99999044536547e+01dB,1.79999989802086e+02°)
1.62181009735891e+00	(1.99999044536547e+01dB,1.79999989778578e+02°)
1.62554875575047e+00	(1.99999044536547e+01dB,1.79999989755015e+02°)
1.62929603263970e+00	(1.99999044536547e+01dB,1.79999989731398e+02°)
1.63305194789432e+00	(1.99999044536547e+01dB,1.79999989707726e+02°)
1.63681652142779e+00	(1.99999044536547e+01dB,1.79999989684000e+02°)
1.64058977319952e+00	(1.99999044536547e+01dB,1.79999989660219e+02°)
1.64437172321491e+00	(1.99999044536547e+01dB,1.79999989636384e+02°)
1.64816239152549e+00	(1.99999044536547e+01dB,1.79999989612493e+02°)
1.65196179822900e+00	(1.99999044536547e+01dB,1.79999989588547e+02°)
1.65576996346951e+00	(1.99999044536547e+01dB,1.79999989564546e+02°)
1.65958690743754e+00	(1.99999044536547e+01dB,1.79999989540490e+02°)
1.66341265037015e+00	(1.99999044536547e+01dB,1.79999989516379e+02°)
1.66724721255104e+00	(1.99999044536547e+01dB,1.79999989492211e+02°)
1.67109061431069e+00	(1.99999044536547e+01dB,1.79999989467988e+02°)
1.67494287602642e+00	(1.99999044536547e+01dB,1.79999989443710e+02°)
1.67880401812254e+00	(1.99999044536547e+01dB,1.79999989419375e+02°)
1.68267406107045e+00	(1.99999044536547e+01dB,1.79999989394984e+02°)
1.68655302538872e+00	(1.99999044536547e+01dB,1.79999989370537e+02°)
1.69044093164324e+00	(1.99999044536547e+01dB,1.79999989346033e+02°)
1.69433780044731e+00	(1.99999044536547e+01dB,1.79999989321473e+02°)
1.69824365246172e+00	(1.99999044536547e+01dB,1.79999989296857e+02°)
1.70215850839493e+00	(1.99999044536547e+01dB,1.79999989272184e+02°)
1.70608238900310e+00	(1.99999044536547e+01dB,1.79999989247453e+02°)
1.71001531509027e+00	(1.99999044536547e+01dB,1.79999989222666e+02°)
1.71395730750840e+00	(1.99999044536547e+01dB,1.79999989197822e+02°)
1.71790838715757e+00	(1.99999044536547e+01dB,1.79999989172920e+02°)
1.72186857498599e+00	(1.99999044536547e+01dB,1.79999989147961e+02°)
1.72583789199018e+00	(1.99999044536547e+01dB,1.79999989122945e+02°)
1.72981635921508e+00	(1.99999044536547e+01dB,1.79999989097871e+02°)
1.73380399775412e+00	(1.99999044536547e+01dB,1.79999989072739e+02°)
1.73780082874935e+00	(1.99999044536547e+01dB,1.79999989047549e+02°)
1.74180687339159e+00	(1.99999044536547e+01dB,1.79999989022301e+02°)
1.74582215292048e+00	(1.99999044536547e+01dB,1.79999988996995e+02°)
1.74984668862464e+00	(1.99999044536547e+01dB,1.79999988971630e+02°)
1.75388050184174e+00	(1.99999044536547e+01dB,1.79999988946207e+02°)
1.75792361395867e+00	(1.99999044536547e+01dB,1.79999988920725e+02°)
1.76197604641161e+00	(1.99999044536547e+01dB,1.79999988895185e+02°)
1.76603782068614e+00	(1.99999044536547e+01dB,1.79999988869586e+02°)
1.77010895831740e+00	(1.99999044536547e+01dB,1.79999988843927e+02°)
1.77418948089014e+00	(1.99999044536547e+01dB,1.79999988818210e+02°)
1.77827941003890e+00	(1.99999044536547e+01dB,1.79999988792433e+02°)
1.78237876744807e+00	(1.99999044536547e+01dB,1.79999988766597e+02°)
1.78648757485203e+00	(1.99999044536547e+01dB,1.79999988740702e+02°)
1.79060585403527e+00	(1.99999044536547e+01dB,1.79999988714746e+02°)
1.79473362683250e+00	(1.99999044536547e+01dB,1.79999988688731e+02°)
1.79887091512876e+00	(1.99999044536547e+01dB,1.79999988662656e+02°)
1.80301774085955e+00	(1.99999044536547e+01dB,1.79999988636521e+02°)
1.80717412601090e+00	(1.99999044536547e+01dB,1.79999988610325e+02°)
1.81134009261958e+00	(1.99999044536547e+01dB,1.79999988584069e+02°)
1.81551566277311e+00	(1.99999044536547e+01dB,1.79999988557753e+02°)
1.81970085860996e+00	(1.99999044536547e+01dB,1.79999988531376e+02°)
1.82389570231961e+00	(1.99999044536547e+01dB,1.79999988504938e+02°)
1.82810021614272e+00	(1.99999044536547e+01dB,1.79999988478439e+02°)
1.83231442237119e+00	(1.99999044536547e+01dB,1.79999988451879e+02°)
1.83653834334832e+00	(1.99999044536547e+01dB,1.79999988425258e+02°)
1.84077200146893e+00	(1.99999044536547e+01dB,1.79999988398575e+02°)
1.84501541917945e+00	(1.99999044536547e+01dB,1.79999988371831e+02°)
1.84926861897805e+00	(1.99999044536547e+01dB,1.79999988345025e+02°)
1.85353162341479e+00	(1.99999044536547e+01dB,1.79999988318158e+02°)
1.85780445509167e+00	(1.99999044536547e+01dB,1.79999988291229e+02°)
1.86208713666284e+00	(1.99999044536547e+01dB,1.79999988264237e+02°)
1.86637969083464e+00	(1.99999044536547e+01dB,1.79999988237183e+02°)
1.87068214036577e+00	(1.99999044536547e+01dB,1.79999988210067e+02°)
1.87499450806739e+00	(1.99999044536547e+01dB,1.79999988182889e+02°)
1.87931681680324e+00	(1.99999044536547e+01dB,1.79999988155647e+02°)
1.88364908948977e+00	(1.99999044536547e+01dB,1.79999988128343e+02°)
1.88799134909627e+00	(1.99999044536547e+01dB,1.79999988100976e+02°)
1.89234361864495e+00	(1.99999044536547e+01dB,1.79999988073546e+02°)
1.89670592121112e+00	(1.99999044536547e+01dB,1.79999988046053e+02°)
1.90107827992327e+00	(1.99999044536547e+01dB,1.79999988018496e+02°)
1.90546071796322e+00	(1.99999044536547e+01dB,1.79999987990876e+02°)
1.90985325856621e+00	(1.99999044536547e+01dB,1.79999987963192e+02°)
1.91425592502106e+00	(1.99999044536547e+01dB,1.79999987935444e+02°)
1.91866874067026e+00	(1.99999044536547e+01dB,1.79999987907633e+02°)
1.92309172891013e+00	(1.99999044536547e+01dB,1.79999987879757e+02°)
1.92752491319091e+00	(1.99999044536547e+01dB,1.79999987851817e+02°)
1.93196831701690e+00	(1.99999044536547e+01dB,1.79999987823812e+02°)
1.93642196394658e+00	(1.99999044536547e+01dB,1.79999987795743e+02°)
1.94088587759275e+00	(1.99999044536547e+01dB,1.79999987767610e+02°)
1.94536008162263e+00	(1.99999044536547e+01dB,1.79999987739411e+02°)
1.94984459975802e+00	(1.99999044536547e+01dB,1.79999987711148e+02°)
1.95433945577537e+00	(1.99999044536547e+01dB,1.79999987682819e+02°)
1.95884467350596e+00	(1.99999044536547e+01dB,1.79999987654425e+02°)
