Freq.	V(out_fs)
1.00000000000000e+00	(-9.00571067788255e+01dB,8.99999882257189e+01°)
1.00230523807790e+00	(-9.00371067788255e+01dB,8.99999881985764e+01°)
1.00461579027839e+00	(-9.00171067788255e+01dB,8.99999881713713e+01°)
1.00693166885180e+00	(-8.99971067788255e+01dB,8.99999881441035e+01°)
1.00925288607668e+00	(-8.99771067788255e+01dB,8.99999881167728e+01°)
1.01157945425990e+00	(-8.99571067788255e+01dB,8.99999880893791e+01°)
1.01391138573668e+00	(-8.99371067788255e+01dB,8.99999880619223e+01°)
1.01624869287070e+00	(-8.99171067788255e+01dB,8.99999880344022e+01°)
1.01859138805412e+00	(-8.98971067788255e+01dB,8.99999880068187e+01°)
1.02093948370768e+00	(-8.98771067788255e+01dB,8.99999879791715e+01°)
1.02329299228075e+00	(-8.98571067788255e+01dB,8.99999879514606e+01°)
1.02565192625141e+00	(-8.98371067788255e+01dB,8.99999879236859e+01°)
1.02801629812647e+00	(-8.98171067788255e+01dB,8.99999878958471e+01°)
1.03038612044162e+00	(-8.97971067788255e+01dB,8.99999878679442e+01°)
1.03276140576140e+00	(-8.97771067788255e+01dB,8.99999878399769e+01°)
1.03514216667934e+00	(-8.97571067788255e+01dB,8.99999878119451e+01°)
1.03752841581801e+00	(-8.97371067788255e+01dB,8.99999877838488e+01°)
1.03992016582906e+00	(-8.97171067788255e+01dB,8.99999877556876e+01°)
1.04231742939330e+00	(-8.96971067788255e+01dB,8.99999877274616e+01°)
1.04472021922080e+00	(-8.96771067788255e+01dB,8.99999876991705e+01°)
1.04712854805090e+00	(-8.96571067788255e+01dB,8.99999876708141e+01°)
1.04954242865232e+00	(-8.96371067788255e+01dB,8.99999876423924e+01°)
1.05196187382322e+00	(-8.96171067788255e+01dB,8.99999876139052e+01°)
1.05438689639126e+00	(-8.95971067788255e+01dB,8.99999875853523e+01°)
1.05681750921366e+00	(-8.95771067788255e+01dB,8.99999875567336e+01°)
1.05925372517729e+00	(-8.95571067788255e+01dB,8.99999875280489e+01°)
1.06169555719872e+00	(-8.95371067788255e+01dB,8.99999874992981e+01°)
1.06414301822431e+00	(-8.95171067788255e+01dB,8.99999874704810e+01°)
1.06659612123026e+00	(-8.94971067788255e+01dB,8.99999874415974e+01°)
1.06905487922266e+00	(-8.94771067788255e+01dB,8.99999874126473e+01°)
1.07151930523761e+00	(-8.94571067788255e+01dB,8.99999873836305e+01°)
1.07398941234124e+00	(-8.94371067788255e+01dB,8.99999873545467e+01°)
1.07646521362983e+00	(-8.94171067788255e+01dB,8.99999873253960e+01°)
1.07894672222983e+00	(-8.93971067788255e+01dB,8.99999872961780e+01°)
1.08143395129794e+00	(-8.93771067788255e+01dB,8.99999872668926e+01°)
1.08392691402120e+00	(-8.93571067788255e+01dB,8.99999872375398e+01°)
1.08642562361706e+00	(-8.93371067788255e+01dB,8.99999872081193e+01°)
1.08893009333343e+00	(-8.93171067788255e+01dB,8.99999871786310e+01°)
1.09144033644876e+00	(-8.92971067788255e+01dB,8.99999871490747e+01°)
1.09395636627209e+00	(-8.92771067788255e+01dB,8.99999871194502e+01°)
1.09647819614318e+00	(-8.92571067788255e+01dB,8.99999870897575e+01°)
1.09900583943252e+00	(-8.92371067788255e+01dB,8.99999870599963e+01°)
1.10153930954141e+00	(-8.92171067788255e+01dB,8.99999870301665e+01°)
1.10407861990207e+00	(-8.91971067788255e+01dB,8.99999870002680e+01°)
1.10662378397766e+00	(-8.91771067788255e+01dB,8.99999869703005e+01°)
1.10917481526240e+00	(-8.91571067788255e+01dB,8.99999869402639e+01°)
1.11173172728159e+00	(-8.91371067788255e+01dB,8.99999869101581e+01°)
1.11429453359173e+00	(-8.91171067788255e+01dB,8.99999868799829e+01°)
1.11686324778056e+00	(-8.90971067788255e+01dB,8.99999868497381e+01°)
1.11943788346715e+00	(-8.90771067788255e+01dB,8.99999868194237e+01°)
1.12201845430196e+00	(-8.90571067788255e+01dB,8.99999867890393e+01°)
1.12460497396692e+00	(-8.90371067788255e+01dB,8.99999867585849e+01°)
1.12719745617551e+00	(-8.90171067788255e+01dB,8.99999867280603e+01°)
1.12979591467280e+00	(-8.89971067788255e+01dB,8.99999866974653e+01°)
1.13240036323556e+00	(-8.89771067788255e+01dB,8.99999866667998e+01°)
1.13501081567231e+00	(-8.89571067788255e+01dB,8.99999866360636e+01°)
1.13762728582343e+00	(-8.89371067788255e+01dB,8.99999866052565e+01°)
1.14024978756117e+00	(-8.89171067788255e+01dB,8.99999865743785e+01°)
1.14287833478977e+00	(-8.88971067788255e+01dB,8.99999865434292e+01°)
1.14551294144553e+00	(-8.88771067788255e+01dB,8.99999865124086e+01°)
1.14815362149688e+00	(-8.88571067788255e+01dB,8.99999864813165e+01°)
1.15080038894443e+00	(-8.88371067788255e+01dB,8.99999864501527e+01°)
1.15345325782109e+00	(-8.88171067788255e+01dB,8.99999864189171e+01°)
1.15611224219210e+00	(-8.87971067788255e+01dB,8.99999863876095e+01°)
1.15877735615512e+00	(-8.87771067788255e+01dB,8.99999863562297e+01°)
1.16144861384034e+00	(-8.87571067788255e+01dB,8.99999863247775e+01°)
1.16412602941049e+00	(-8.87371067788255e+01dB,8.99999862932529e+01°)
1.16680961706096e+00	(-8.87171067788255e+01dB,8.99999862616556e+01°)
1.16949939101987e+00	(-8.86971067788255e+01dB,8.99999862299854e+01°)
1.17219536554813e+00	(-8.86771067788255e+01dB,8.99999861982422e+01°)
1.17489755493953e+00	(-8.86571067788255e+01dB,8.99999861664259e+01°)
1.17760597352080e+00	(-8.86371067788255e+01dB,8.99999861345362e+01°)
1.18032063565173e+00	(-8.86171067788255e+01dB,8.99999861025730e+01°)
1.18304155572516e+00	(-8.85971067788255e+01dB,8.99999860705362e+01°)
1.18576874816716e+00	(-8.85771067788255e+01dB,8.99999860384254e+01°)
1.18850222743702e+00	(-8.85571067788256e+01dB,8.99999860062407e+01°)
1.19124200802737e+00	(-8.85371067788255e+01dB,8.99999859739817e+01°)
1.19398810446427e+00	(-8.85171067788255e+01dB,8.99999859416484e+01°)
1.19674053130724e+00	(-8.84971067788256e+01dB,8.99999859092406e+01°)
1.19949930314938e+00	(-8.84771067788255e+01dB,8.99999858767580e+01°)
1.20226443461741e+00	(-8.84571067788256e+01dB,8.99999858442006e+01°)
1.20503594037179e+00	(-8.84371067788256e+01dB,8.99999858115681e+01°)
1.20781383510678e+00	(-8.84171067788255e+01dB,8.99999857788604e+01°)
1.21059813355048e+00	(-8.83971067788256e+01dB,8.99999857460773e+01°)
1.21338885046497e+00	(-8.83771067788255e+01dB,8.99999857132186e+01°)
1.21618600064636e+00	(-8.83571067788255e+01dB,8.99999856802841e+01°)
1.21898959892486e+00	(-8.83371067788256e+01dB,8.99999856472738e+01°)
1.22179966016487e+00	(-8.83171067788255e+01dB,8.99999856141873e+01°)
1.22461619926504e+00	(-8.82971067788256e+01dB,8.99999855810246e+01°)
1.22743923115840e+00	(-8.82771067788256e+01dB,8.99999855477854e+01°)
1.23026877081238e+00	(-8.82571067788256e+01dB,8.99999855144696e+01°)
1.23310483322890e+00	(-8.82371067788256e+01dB,8.99999854810770e+01°)
1.23594743344451e+00	(-8.82171067788256e+01dB,8.99999854476075e+01°)
1.23879658653036e+00	(-8.81971067788256e+01dB,8.99999854140607e+01°)
1.24165230759241e+00	(-8.81771067788256e+01dB,8.99999853804367e+01°)
1.24451461177138e+00	(-8.81571067788256e+01dB,8.99999853467351e+01°)
1.24738351424294e+00	(-8.81371067788256e+01dB,8.99999853129558e+01°)
1.25025903021771e+00	(-8.81171067788256e+01dB,8.99999852790987e+01°)
1.25314117494141e+00	(-8.80971067788256e+01dB,8.99999852451635e+01°)
1.25602996369487e+00	(-8.80771067788256e+01dB,8.99999852111501e+01°)
1.25892541179416e+00	(-8.80571067788256e+01dB,8.99999851770583e+01°)
1.26182753459066e+00	(-8.80371067788256e+01dB,8.99999851428879e+01°)
1.26473634747115e+00	(-8.80171067788256e+01dB,8.99999851086387e+01°)
1.26765186585784e+00	(-8.79971067788256e+01dB,8.99999850743106e+01°)
1.27057410520854e+00	(-8.79771067788256e+01dB,8.99999850399033e+01°)
1.27350308101666e+00	(-8.79571067788256e+01dB,8.99999850054167e+01°)
1.27643880881134e+00	(-8.79371067788256e+01dB,8.99999849708506e+01°)
1.27938130415752e+00	(-8.79171067788256e+01dB,8.99999849362049e+01°)
1.28233058265602e+00	(-8.78971067788256e+01dB,8.99999849014792e+01°)
1.28528665994361e+00	(-8.78771067788256e+01dB,8.99999848666736e+01°)
1.28824955169313e+00	(-8.78571067788256e+01dB,8.99999848317876e+01°)
1.29121927361353e+00	(-8.78371067788256e+01dB,8.99999847968213e+01°)
1.29419584144998e+00	(-8.78171067788256e+01dB,8.99999847617743e+01°)
1.29717927098395e+00	(-8.77971067788256e+01dB,8.99999847266466e+01°)
1.30016957803328e+00	(-8.77771067788256e+01dB,8.99999846914379e+01°)
1.30316677845229e+00	(-8.77571067788256e+01dB,8.99999846561480e+01°)
1.30617088813183e+00	(-8.77371067788256e+01dB,8.99999846207768e+01°)
1.30918192299940e+00	(-8.77171067788256e+01dB,8.99999845853240e+01°)
1.31219989901920e+00	(-8.76971067788256e+01dB,8.99999845497895e+01°)
1.31522483219223e+00	(-8.76771067788256e+01dB,8.99999845141731e+01°)
1.31825673855640e+00	(-8.76571067788256e+01dB,8.99999844784746e+01°)
1.32129563418657e+00	(-8.76371067788256e+01dB,8.99999844426938e+01°)
1.32434153519466e+00	(-8.76171067788256e+01dB,8.99999844068305e+01°)
1.32739445772973e+00	(-8.75971067788256e+01dB,8.99999843708845e+01°)
1.33045441797808e+00	(-8.75771067788256e+01dB,8.99999843348557e+01°)
1.33352143216332e+00	(-8.75571067788256e+01dB,8.99999842987438e+01°)
1.33659551654643e+00	(-8.75371067788256e+01dB,8.99999842625487e+01°)
1.33967668742593e+00	(-8.75171067788256e+01dB,8.99999842262701e+01°)
1.34276496113786e+00	(-8.74971067788256e+01dB,8.99999841899079e+01°)
1.34586035405594e+00	(-8.74771067788256e+01dB,8.99999841534619e+01°)
1.34896288259164e+00	(-8.74571067788256e+01dB,8.99999841169318e+01°)
1.35207256319427e+00	(-8.74371067788256e+01dB,8.99999840803176e+01°)
1.35518941235103e+00	(-8.74171067788256e+01dB,8.99999840436189e+01°)
1.35831344658715e+00	(-8.73971067788256e+01dB,8.99999840068356e+01°)
1.36144468246594e+00	(-8.73771067788256e+01dB,8.99999839699676e+01°)
1.36458313658892e+00	(-8.73571067788256e+01dB,8.99999839330145e+01°)
1.36772882559584e+00	(-8.73371067788256e+01dB,8.99999838959763e+01°)
1.37088176616484e+00	(-8.73171067788256e+01dB,8.99999838588527e+01°)
1.37404197501251e+00	(-8.72971067788256e+01dB,8.99999838216435e+01°)
1.37720946889394e+00	(-8.72771067788256e+01dB,8.99999837843486e+01°)
1.38038426460288e+00	(-8.72571067788256e+01dB,8.99999837469676e+01°)
1.38356637897177e+00	(-8.72371067788256e+01dB,8.99999837095005e+01°)
1.38675582887188e+00	(-8.72171067788256e+01dB,8.99999836719470e+01°)
1.38995263121334e+00	(-8.71971067788256e+01dB,8.99999836343070e+01°)
1.39315680294529e+00	(-8.71771067788256e+01dB,8.99999835965802e+01°)
1.39636836105593e+00	(-8.71571067788256e+01dB,8.99999835587664e+01°)
1.39958732257261e+00	(-8.71371067788256e+01dB,8.99999835208654e+01°)
1.40281370456195e+00	(-8.71171067788256e+01dB,8.99999834828771e+01°)
1.40604752412990e+00	(-8.70971067788256e+01dB,8.99999834448012e+01°)
1.40928879842186e+00	(-8.70771067788256e+01dB,8.99999834066375e+01°)
1.41253754462274e+00	(-8.70571067788256e+01dB,8.99999833683859e+01°)
1.41579377995707e+00	(-8.70371067788256e+01dB,8.99999833300460e+01°)
1.41905752168908e+00	(-8.70171067788256e+01dB,8.99999832916178e+01°)
1.42232878712281e+00	(-8.69971067788256e+01dB,8.99999832531010e+01°)
1.42560759360218e+00	(-8.69771067788256e+01dB,8.99999832144954e+01°)
1.42889395851109e+00	(-8.69571067788256e+01dB,8.99999831758008e+01°)
1.43218789927353e+00	(-8.69371067788256e+01dB,8.99999831370171e+01°)
1.43548943335364e+00	(-8.69171067788256e+01dB,8.99999830981439e+01°)
1.43879857825583e+00	(-8.68971067788256e+01dB,8.99999830591811e+01°)
1.44211535152486e+00	(-8.68771067788256e+01dB,8.99999830201284e+01°)
1.44543977074592e+00	(-8.68571067788256e+01dB,8.99999829809858e+01°)
1.44877185354475e+00	(-8.68371067788256e+01dB,8.99999829417529e+01°)
1.45211161758773e+00	(-8.68171067788256e+01dB,8.99999829024296e+01°)
1.45545908058195e+00	(-8.67971067788256e+01dB,8.99999828630156e+01°)
1.45881426027534e+00	(-8.67771067788256e+01dB,8.99999828235108e+01°)
1.46217717445671e+00	(-8.67571067788256e+01dB,8.99999827839149e+01°)
1.46554784095590e+00	(-8.67371067788256e+01dB,8.99999827442277e+01°)
1.46892627764385e+00	(-8.67171067788256e+01dB,8.99999827044491e+01°)
1.47231250243271e+00	(-8.66971067788256e+01dB,8.99999826645787e+01°)
1.47570653327588e+00	(-8.66771067788256e+01dB,8.99999826246164e+01°)
1.47910838816819e+00	(-8.66571067788256e+01dB,8.99999825845620e+01°)
1.48251808514594e+00	(-8.66371067788256e+01dB,8.99999825444153e+01°)
1.48593564228699e+00	(-8.66171067788256e+01dB,8.99999825041760e+01°)
1.48936107771090e+00	(-8.65971067788256e+01dB,8.99999824638440e+01°)
1.49279440957898e+00	(-8.65771067788256e+01dB,8.99999824234190e+01°)
1.49623565609442e+00	(-8.65571067788256e+01dB,8.99999823829008e+01°)
1.49968483550236e+00	(-8.65371067788256e+01dB,8.99999823422892e+01°)
1.50314196609001e+00	(-8.65171067788256e+01dB,8.99999823015839e+01°)
1.50660706618673e+00	(-8.64971067788256e+01dB,8.99999822607849e+01°)
1.51008015416413e+00	(-8.64771067788256e+01dB,8.99999822198917e+01°)
1.51356124843619e+00	(-8.64571067788256e+01dB,8.99999821789044e+01°)
1.51705036745932e+00	(-8.64371067788257e+01dB,8.99999821378225e+01°)
1.52054752973248e+00	(-8.64171067788256e+01dB,8.99999820966459e+01°)
1.52405275379728e+00	(-8.63971067788256e+01dB,8.99999820553744e+01°)
1.52756605823806e+00	(-8.63771067788256e+01dB,8.99999820140078e+01°)
1.53108746168202e+00	(-8.63571067788256e+01dB,8.99999819725458e+01°)
1.53461698279928e+00	(-8.63371067788256e+01dB,8.99999819309882e+01°)
1.53815464030302e+00	(-8.63171067788256e+01dB,8.99999818893349e+01°)
1.54170045294954e+00	(-8.62971067788256e+01dB,8.99999818475855e+01°)
1.54525443953840e+00	(-8.62771067788256e+01dB,8.99999818057398e+01°)
1.54881661891247e+00	(-8.62571067788256e+01dB,8.99999817637977e+01°)
1.55238700995807e+00	(-8.62371067788256e+01dB,8.99999817217589e+01°)
1.55596563160506e+00	(-8.62171067788256e+01dB,8.99999816796232e+01°)
1.55955250282694e+00	(-8.61971067788256e+01dB,8.99999816373904e+01°)
1.56314764264094e+00	(-8.61771067788256e+01dB,8.99999815950602e+01°)
1.56675107010813e+00	(-8.61571067788257e+01dB,8.99999815526325e+01°)
1.57036280433354e+00	(-8.61371067788257e+01dB,8.99999815101069e+01°)
1.57398286446620e+00	(-8.61171067788256e+01dB,8.99999814674833e+01°)
1.57761126969933e+00	(-8.60971067788257e+01dB,8.99999814247614e+01°)
1.58124803927037e+00	(-8.60771067788257e+01dB,8.99999813819411e+01°)
1.58489319246110e+00	(-8.60571067788257e+01dB,8.99999813390220e+01°)
1.58854674859776e+00	(-8.60371067788257e+01dB,8.99999812960040e+01°)
1.59220872705115e+00	(-8.60171067788256e+01dB,8.99999812528868e+01°)
1.59587914723672e+00	(-8.59971067788257e+01dB,8.99999812096703e+01°)
1.59955802861465e+00	(-8.59771067788257e+01dB,8.99999811663541e+01°)
1.60324539069002e+00	(-8.59571067788257e+01dB,8.99999811229381e+01°)
1.60694125301286e+00	(-8.59371067788257e+01dB,8.99999810794219e+01°)
1.61064563517825e+00	(-8.59171067788257e+01dB,8.99999810358055e+01°)
1.61435855682647e+00	(-8.58971067788257e+01dB,8.99999809920885e+01°)
1.61808003764305e+00	(-8.58771067788257e+01dB,8.99999809482708e+01°)
1.62181009735891e+00	(-8.58571067788257e+01dB,8.99999809043520e+01°)
1.62554875575047e+00	(-8.58371067788257e+01dB,8.99999808603320e+01°)
1.62929603263970e+00	(-8.58171067788257e+01dB,8.99999808162105e+01°)
1.63305194789432e+00	(-8.57971067788257e+01dB,8.99999807719873e+01°)
1.63681652142779e+00	(-8.57771067788257e+01dB,8.99999807276621e+01°)
1.64058977319952e+00	(-8.57571067788257e+01dB,8.99999806832348e+01°)
1.64437172321491e+00	(-8.57371067788257e+01dB,8.99999806387051e+01°)
1.64816239152549e+00	(-8.57171067788257e+01dB,8.99999805940727e+01°)
1.65196179822900e+00	(-8.56971067788257e+01dB,8.99999805493374e+01°)
1.65576996346951e+00	(-8.56771067788257e+01dB,8.99999805044990e+01°)
1.65958690743754e+00	(-8.56571067788257e+01dB,8.99999804595572e+01°)
1.66341265037015e+00	(-8.56371067788257e+01dB,8.99999804145118e+01°)
1.66724721255104e+00	(-8.56171067788257e+01dB,8.99999803693626e+01°)
1.67109061431069e+00	(-8.55971067788257e+01dB,8.99999803241093e+01°)
1.67494287602642e+00	(-8.55771067788257e+01dB,8.99999802787517e+01°)
1.67880401812254e+00	(-8.55571067788257e+01dB,8.99999802332895e+01°)
1.68267406107045e+00	(-8.55371067788257e+01dB,8.99999801877226e+01°)
1.68655302538872e+00	(-8.55171067788257e+01dB,8.99999801420506e+01°)
1.69044093164324e+00	(-8.54971067788257e+01dB,8.99999800962733e+01°)
1.69433780044731e+00	(-8.54771067788257e+01dB,8.99999800503904e+01°)
1.69824365246172e+00	(-8.54571067788257e+01dB,8.99999800044018e+01°)
1.70215850839493e+00	(-8.54371067788257e+01dB,8.99999799583072e+01°)
1.70608238900310e+00	(-8.54171067788257e+01dB,8.99999799121064e+01°)
1.71001531509027e+00	(-8.53971067788257e+01dB,8.99999798657990e+01°)
1.71395730750840e+00	(-8.53771067788257e+01dB,8.99999798193848e+01°)
1.71790838715757e+00	(-8.53571067788257e+01dB,8.99999797728637e+01°)
1.72186857498599e+00	(-8.53371067788257e+01dB,8.99999797262354e+01°)
1.72583789199018e+00	(-8.53171067788257e+01dB,8.99999796794995e+01°)
1.72981635921508e+00	(-8.52971067788257e+01dB,8.99999796326559e+01°)
1.73380399775412e+00	(-8.52771067788257e+01dB,8.99999795857043e+01°)
1.73780082874935e+00	(-8.52571067788257e+01dB,8.99999795386445e+01°)
1.74180687339159e+00	(-8.52371067788257e+01dB,8.99999794914762e+01°)
1.74582215292048e+00	(-8.52171067788257e+01dB,8.99999794441992e+01°)
1.74984668862464e+00	(-8.51971067788257e+01dB,8.99999793968132e+01°)
1.75388050184174e+00	(-8.51771067788257e+01dB,8.99999793493179e+01°)
1.75792361395867e+00	(-8.51571067788257e+01dB,8.99999793017132e+01°)
1.76197604641161e+00	(-8.51371067788257e+01dB,8.99999792539987e+01°)
1.76603782068614e+00	(-8.51171067788257e+01dB,8.99999792061742e+01°)
1.77010895831740e+00	(-8.50971067788257e+01dB,8.99999791582395e+01°)
1.77418948089014e+00	(-8.50771067788257e+01dB,8.99999791101943e+01°)
1.77827941003890e+00	(-8.50571067788257e+01dB,8.99999790620383e+01°)
1.78237876744807e+00	(-8.50371067788257e+01dB,8.99999790137713e+01°)
1.78648757485203e+00	(-8.50171067788257e+01dB,8.99999789653931e+01°)
1.79060585403527e+00	(-8.49971067788257e+01dB,8.99999789169033e+01°)
1.79473362683250e+00	(-8.49771067788257e+01dB,8.99999788683018e+01°)
1.79887091512876e+00	(-8.49571067788257e+01dB,8.99999788195882e+01°)
1.80301774085955e+00	(-8.49371067788257e+01dB,8.99999787707623e+01°)
1.80717412601090e+00	(-8.49171067788257e+01dB,8.99999787218238e+01°)
1.81134009261958e+00	(-8.48971067788257e+01dB,8.99999786727726e+01°)
1.81551566277311e+00	(-8.48771067788257e+01dB,8.99999786236082e+01°)
1.81970085860996e+00	(-8.48571067788257e+01dB,8.99999785743305e+01°)
1.82389570231961e+00	(-8.48371067788257e+01dB,8.99999785249393e+01°)
1.82810021614272e+00	(-8.48171067788257e+01dB,8.99999784754341e+01°)
1.83231442237119e+00	(-8.47971067788257e+01dB,8.99999784258149e+01°)
1.83653834334832e+00	(-8.47771067788257e+01dB,8.99999783760813e+01°)
1.84077200146893e+00	(-8.47571067788257e+01dB,8.99999783262330e+01°)
1.84501541917945e+00	(-8.47371067788257e+01dB,8.99999782762698e+01°)
1.84926861897805e+00	(-8.47171067788257e+01dB,8.99999782261914e+01°)
1.85353162341479e+00	(-8.46971067788257e+01dB,8.99999781759976e+01°)
1.85780445509167e+00	(-8.46771067788257e+01dB,8.99999781256881e+01°)
1.86208713666284e+00	(-8.46571067788257e+01dB,8.99999780752626e+01°)
1.86637969083464e+00	(-8.46371067788257e+01dB,8.99999780247208e+01°)
1.87068214036577e+00	(-8.46171067788257e+01dB,8.99999779740626e+01°)
1.87499450806739e+00	(-8.45971067788257e+01dB,8.99999779232876e+01°)
1.87931681680324e+00	(-8.45771067788257e+01dB,8.99999778723955e+01°)
1.88364908948977e+00	(-8.45571067788257e+01dB,8.99999778213861e+01°)
1.88799134909627e+00	(-8.45371067788257e+01dB,8.99999777702591e+01°)
1.89234361864495e+00	(-8.45171067788257e+01dB,8.99999777190143e+01°)
1.89670592121112e+00	(-8.44971067788257e+01dB,8.99999776676513e+01°)
1.90107827992327e+00	(-8.44771067788257e+01dB,8.99999776161699e+01°)
1.90546071796322e+00	(-8.44571067788257e+01dB,8.99999775645698e+01°)
1.90985325856621e+00	(-8.44371067788258e+01dB,8.99999775128508e+01°)
1.91425592502106e+00	(-8.44171067788257e+01dB,8.99999774610126e+01°)
1.91866874067026e+00	(-8.43971067788257e+01dB,8.99999774090549e+01°)
1.92309172891013e+00	(-8.43771067788257e+01dB,8.99999773569774e+01°)
1.92752491319091e+00	(-8.43571067788257e+01dB,8.99999773047798e+01°)
1.93196831701690e+00	(-8.43371067788257e+01dB,8.99999772524619e+01°)
1.93642196394658e+00	(-8.43171067788257e+01dB,8.99999772000234e+01°)
1.94088587759275e+00	(-8.42971067788257e+01dB,8.99999771474641e+01°)
