# Hz S DB R 50
! CMT, M5065, 19127446, 24.2.4/2
! Date: 11/1/2024 3:17:36 PM
! Data: Format (Calibration Info)
! Freq	S11:dB/Ang(F2)	S21:dB/Ang(F2)	S12:dB/Ang(F2)	S22:dB/Ang(F2)
3.00000000000E+05	-1.74292911093E+01	5.36527402509E+00	7.03685753607E+00	-1.77412076001E+02	-3.87986224026E+01	5.17989337664E+01	-6.03811960460E+00	5.26032987048E-02
3.00216845423E+05	-1.75030245769E+01	3.94990064892E+01	6.96787198587E+00	-1.77866874499E+02	-4.47629745952E+01	3.09573075226E+01	-6.04146986939E+00	-1.20554441127E-01
3.00433847586E+05	-2.16070018048E+01	6.82800681472E+01	7.03763762449E+00	-1.77645446581E+02	-4.43039961948E+01	-1.57182483801E+02	-6.04628253908E+00	-1.66498982083E-01
3.00651006602E+05	-1.48404020700E+01	5.70218373756E+01	7.06151000956E+00	-1.78153637710E+02	-4.20002442075E+01	2.46026702688E+01	-6.04606452529E+00	-5.80012818259E-02
3.00868322584E+05	-2.40453146246E+01	4.89142995615E+01	7.04503197309E+00	-1.77590072417E+02	-6.63571429927E+01	5.61891952590E+01	-6.04055390465E+00	-3.07077053704E-01
3.01085795647E+05	-1.40866748567E+01	8.56601369861E+00	6.89030119115E+00	-1.77871611393E+02	-5.15040501288E+01	-1.12593124337E+02	-6.03209332475E+00	-1.80207038583E-01
3.01303425902E+05	-1.75654308680E+01	2.56831906323E+01	6.98056857093E+00	-1.77548323141E+02	-3.95688786995E+01	-9.60335738989E+00	-6.01331828302E+00	-1.07708211342E-01
3.01521213465E+05	-2.36091960667E+01	5.46076561922E+01	7.01064369700E+00	-1.78301609055E+02	-4.15508210605E+01	6.93705620833E+01	-6.04407997109E+00	2.19324668847E-01
3.01739158449E+05	-2.20598105756E+01	3.01032664518E-01	7.03259282092E+00	-1.77649917812E+02	-3.84760893709E+01	9.38622834214E+01	-6.06453324755E+00	1.95051386754E-02
3.01957260967E+05	-2.27889600946E+01	-9.11551643103E+01	7.13699321574E+00	-1.76954764544E+02	-3.66681059741E+01	1.02953999667E+01	-6.00444230695E+00	-1.88031710630E-01
3.02175521134E+05	-3.47801019566E+01	1.97338490518E+01	7.01899652240E+00	-1.77504653554E+02	-3.50046102771E+01	3.12014948653E+01	-5.96828884261E+00	-1.06017984257E-01
3.02393939063E+05	-2.13103123585E+01	5.41948292816E+01	6.97277032760E+00	-1.78077424668E+02	-4.29995574760E+01	-3.83419052083E+01	-6.05316583378E+00	-4.06787800804E-01
3.02612514869E+05	-2.06816045945E+01	-8.18997970532E+00	7.02892676504E+00	-1.77361766167E+02	-3.85281908666E+01	-6.40604578499E+01	-6.02630328529E+00	-3.95811879934E-01
3.02831248665E+05	-1.43787278643E+01	2.53823759255E+01	6.93817164899E+00	-1.77801515494E+02	-4.77626722674E+01	-9.41501391822E+01	-6.05045159528E+00	-3.07260412215E-01
3.03050140565E+05	-1.99232175160E+01	4.17455488045E+01	7.00112485227E+00	-1.77779296148E+02	-4.05906249636E+01	-9.03644598231E+00	-6.01852932204E+00	-2.99049295153E-01
3.03269190685E+05	-2.10067153647E+01	4.83414764919E+01	7.06069049918E+00	-1.78093150426E+02	-4.21631014038E+01	4.72868845744E+01	-6.01988521685E+00	-2.80755588674E-01
3.03488399138E+05	-1.09936992825E+01	2.11636604153E+01	6.88349329838E+00	-1.78056170027E+02	-4.21773958853E+01	-1.16398123359E+02	-6.02974149137E+00	-3.91654979929E-01
3.03707766039E+05	-1.90246342789E+01	2.69794736656E+01	7.00599115106E+00	-1.77884107873E+02	-3.55911491336E+01	-1.74941860007E+02	-6.06905932597E+00	-1.04603543207E-01
3.03927291503E+05	-2.14424887952E+01	-2.55020196683E+01	7.05413726355E+00	-1.77717683502E+02	-3.82470609685E+01	-6.47090200859E+00	-6.00170364948E+00	-2.24770156091E-01
3.04146975643E+05	-2.01437030485E+01	2.14819250529E+01	7.01978634800E+00	-1.77805000653E+02	-4.50504683930E+01	-1.52253525096E+02	-6.05809988458E+00	-2.11520956753E-01
3.04366818575E+05	-1.66756108278E+01	1.06374304613E+02	7.16606472573E+00	-1.78011279980E+02	-4.02199718564E+01	-5.41755226647E+01	-6.02272164463E+00	-3.95822516156E-01
3.04586820414E+05	-2.28338130863E+01	-1.28181444714E+01	6.99829594453E+00	-1.77510171508E+02	-4.14428167934E+01	4.37897250246E+01	-6.03262076994E+00	-1.54020119297E-01
3.04806981274E+05	-2.41031381892E+01	5.10162066024E+01	7.05461337178E+00	-1.77767651197E+02	-4.04612872098E+01	-8.58836075919E+01	-6.01600036095E+00	-2.33886490738E-01
3.05027301270E+05	-2.07280113977E+01	7.47078768481E+01	7.08447164234E+00	-1.77832726413E+02	-4.40466697590E+01	6.01405312585E+01	-6.03407786565E+00	-8.04488628434E-02
3.05247780517E+05	-1.45523714686E+01	1.11570798632E+02	7.05695396297E+00	-1.78338251464E+02	-4.03630351416E+01	-1.12063781898E+01	-6.03703928453E+00	-3.27255508035E-01
3.05468419131E+05	-1.50651262134E+01	5.82922638738E+01	7.03254277770E+00	-1.78332116814E+02	-4.19100172494E+01	-2.22478576544E+01	-6.02051339583E+00	-3.04211360968E-01
3.05689217226E+05	-2.14909505728E+01	6.81757372049E+01	7.01619711115E+00	-1.77804529339E+02	-4.38159196283E+01	4.39329303791E-01	-6.00931924899E+00	-3.56803584662E-01
3.05910174918E+05	-2.73513637410E+01	1.24313799350E+02	7.07998875161E+00	-1.77848235714E+02	-4.37867739821E+01	-2.20451896248E+00	-6.00001287443E+00	-2.21501481499E-03
3.06131292322E+05	-1.44051108146E+01	-7.61989164524E+00	6.96283915955E+00	-1.77604763992E+02	-4.43431754385E+01	-3.47527563922E+01	-6.04171325785E+00	-1.45992975825E-01
3.06352569554E+05	-1.72898395832E+01	2.22063754236E+01	6.96095426375E+00	-1.78126207738E+02	-3.17111229324E+01	-1.78234123094E+02	-6.15914214820E+00	-2.07695899446E-01
3.06574006730E+05	-3.46374937472E+01	9.66335087660E+01	7.02751336229E+00	-1.77645095376E+02	-4.44334032096E+01	-7.30040777118E+01	-6.01871843828E+00	-4.28452638050E-01
3.06795603964E+05	-3.44245123908E+01	1.44476465289E+02	7.08678659340E+00	-1.77391693910E+02	-4.54970404873E+01	-1.69668227133E+02	-6.04370951273E+00	-2.23843039419E-01
3.07017361372E+05	-1.69915118502E+01	-2.12207441025E+01	6.99735398254E+00	-1.77214502841E+02	-4.51724938225E+01	3.55350829202E+00	-6.02849343048E+00	-2.34198505000E-01
3.07239279071E+05	-2.10971733895E+01	1.00153018348E+02	7.08360676199E+00	-1.78230954720E+02	-3.20804402103E+01	1.26466901458E+02	-6.09954484622E+00	1.16457692146E-01
3.07461357176E+05	-2.64980605008E+01	7.34794312465E+00	7.04761371403E+00	-1.77681933231E+02	-3.96499028019E+01	-1.30143409724E+02	-6.05990384522E+00	-2.58641455340E-01
3.07683595803E+05	-1.89016220231E+01	-7.14207132067E+01	7.06537187998E+00	-1.77611818643E+02	-4.46344980478E+01	-1.34107894457E+01	-6.03204522190E+00	-1.10752513888E-01
3.07905995068E+05	-1.53503910210E+01	9.96749940752E+01	7.07040594971E+00	-1.78549960441E+02	-3.63454497395E+01	-1.60051432322E+00	-6.00969604426E+00	-1.54449037413E-01
3.08128555087E+05	-1.74310461501E+01	4.17588374806E+01	6.99962043386E+00	-1.78122064565E+02	-3.13512121379E+01	9.21730463304E+00	-5.97950478736E+00	-4.78076556118E-02
3.08351275976E+05	-1.49990879865E+01	7.73130225663E+00	6.99714505630E+00	-1.77691611947E+02	-4.49803915303E+01	9.04765447430E+01	-6.03343561405E+00	-1.58879493905E-01
3.08574157853E+05	-2.75706960612E+01	5.88867069733E+00	6.98711103233E+00	-1.77988658532E+02	-4.15862476625E+01	5.98311050437E+01	-6.02904098828E+00	-2.72511371312E-01
3.08797200832E+05	-2.04670402610E+01	-4.47747876775E+01	7.05798240066E+00	-1.77184109937E+02	-4.27679615414E+01	-1.71825218150E+02	-6.07275036902E+00	-1.68578682005E-01
3.09020405031E+05	-1.91948356258E+01	7.13277079919E+01	7.04674066801E+00	-1.77924511590E+02	-4.25293535682E+01	-3.73421583297E+00	-6.00705206332E+00	-2.08750998661E-01
3.09243770566E+05	-2.02132105520E+01	4.47177974219E+01	7.03520835307E+00	-1.78040881779E+02	-6.14920439369E+01	-2.92075620684E+01	-6.04894642436E+00	-2.20268123571E-01
3.09467297553E+05	-1.06599012998E+01	3.82750091106E+01	6.92415788863E+00	-1.78743897636E+02	-4.32914086429E+01	-9.91494309423E+01	-6.02870085689E+00	-2.48332403679E-01
3.09690986110E+05	-1.67794588469E+01	-3.18189305532E+01	6.97718891017E+00	-1.77289951677E+02	-4.68698299425E+01	1.23504469721E+02	-6.05449106065E+00	-2.00496619488E-01
3.09914836353E+05	-1.91046463899E+01	1.94630237654E+01	7.04811960197E+00	-1.77762092932E+02	-4.33893846568E+01	-1.02795228778E+02	-6.04145933480E+00	-3.62525316632E-01
3.10138848399E+05	-2.12643605868E+01	1.03388151951E+01	6.99378238787E+00	-1.77656361500E+02	-5.85344104825E+01	5.80896470273E+01	-6.04423002544E+00	-2.25378211083E-01
3.10363022365E+05	-2.68044496561E+01	8.75098245870E+01	7.04337951550E+00	-1.77728941915E+02	-4.37382094660E+01	1.70803375828E+02	-6.04268323456E+00	-2.73020986295E-01
3.10587358368E+05	-2.48543618629E+01	6.64673979887E+01	7.03629080259E+00	-1.78025927749E+02	-3.97255416109E+01	-1.01793835769E+02	-6.04777642291E+00	-6.04749448575E-01
3.10811856525E+05	-2.07237278475E+01	1.07403255360E+02	7.04913903314E+00	-1.78136259422E+02	-4.22009194188E+01	7.08435481201E+00	-6.01539882061E+00	-2.76337924381E-01
3.11036516954E+05	-1.75104028231E+01	2.83149240838E+01	7.01351452606E+00	-1.78217489530E+02	-4.56321438950E+01	-8.24873331649E+01	-6.02129102258E+00	-5.06487492912E-01
3.11261339771E+05	-2.11218005681E+01	-7.99639527422E+01	7.05484375688E+00	-1.77729949022E+02	-4.19466525982E+01	-2.56984339151E+01	-6.01244355637E+00	-4.71582651487E-01
3.11486325094E+05	-2.00943358291E+01	7.03962031028E+01	7.05503340858E+00	-1.78098362222E+02	-3.35286009178E+01	-1.39764564030E+02	-6.10194240903E+00	-2.92580013597E-01
3.11711473040E+05	-1.92602894860E+01	6.98976727305E+00	6.95827855876E+00	-1.77654194183E+02	-4.41836532773E+01	-1.29572147976E+02	-6.06093081788E+00	-4.35576413349E-01
3.11936783728E+05	-2.65140242539E+01	-2.59315499257E+00	7.03066315435E+00	-1.78054804336E+02	-3.66556579213E+01	1.30325341604E+02	-6.07073814704E+00	-4.98873331140E-02
3.12162257274E+05	-1.73146942313E+01	9.19103481855E+01	7.04934707034E+00	-1.78123756433E+02	-3.77496523827E+01	-1.49161910173E+02	-6.08073890611E+00	-3.23978498749E-01
3.12387893797E+05	-2.76775987839E+01	1.12292931376E+02	7.08816074691E+00	-1.78269590300E+02	-3.19361567050E+01	-1.35785263811E+02	-6.10359531948E+00	-7.28524321951E-01
3.12613693413E+05	-2.43147437939E+01	1.08368996193E+01	7.04727099255E+00	-1.77692732356E+02	-4.17703037738E+01	-1.61919061350E+02	-6.07103945699E+00	-2.29531553667E-01
3.12839656242E+05	-1.97712263468E+01	-1.51215581379E+01	7.04243814738E+00	-1.77809807516E+02	-4.09004246254E+01	-6.91890781751E+01	-6.04221963887E+00	-1.39430312215E-01
3.13065782401E+05	-1.25791824117E+01	-3.94350244624E+01	7.01277160254E+00	-1.77157499533E+02	-4.13758580447E+01	-7.60547746630E+01	-6.02079604596E+00	-4.04553934561E-01
3.13292072007E+05	-1.77729097222E+01	5.69041249249E+01	7.00227491381E+00	-1.78442603140E+02	-3.58970912021E+01	-9.78533704440E+01	-6.04512852207E+00	-4.72206692307E-01
3.13518525180E+05	-1.77868831445E+01	-1.11269994679E+01	7.01114174206E+00	-1.77970232233E+02	-4.01795786231E+01	-5.21722453305E+01	-6.02118354622E+00	-3.83900663373E-01
3.13745142038E+05	-2.04887366762E+01	6.83183784461E+01	7.07373027987E+00	-1.78175157912E+02	-3.91806511079E+01	-9.31244639440E+01	-6.04272891163E+00	-4.62950362337E-01
3.13971922698E+05	-1.61224673115E+01	-1.49712462193E+01	6.95187782277E+00	-1.77560861169E+02	-3.82165045171E+01	1.77304644601E+02	-6.05810777361E+00	-3.88618723187E-01
3.14198867279E+05	-3.82465505198E+01	7.15311587705E+01	7.09329837679E+00	-1.77925112680E+02	-3.93402133513E+01	8.28153729077E+01	-6.06563978150E+00	3.27472878376E-02
3.14425975900E+05	-2.76979572424E+01	1.00437893278E+02	7.06620776666E+00	-1.77887715996E+02	-4.54614559884E+01	-7.82125342429E+01	-6.05300024768E+00	-4.05132222300E-01
3.14653248680E+05	-1.11277316968E+01	5.63738109432E+01	6.99650766379E+00	-1.79228009328E+02	-5.27200668120E+01	-3.09696998240E+01	-6.03358408471E+00	-2.69617399007E-01
3.14880685736E+05	-1.69032661632E+01	3.41139900587E+01	7.00727182494E+00	-1.78304191743E+02	-3.65795151970E+01	-2.18753776396E+01	-5.98882306850E+00	-2.39753247174E-01
3.15108287188E+05	-1.64253271063E+01	4.77646409979E+01	7.04020437079E+00	-1.78235012695E+02	-4.75664759468E+01	9.78331770066E+01	-6.02573133036E+00	-2.66277262505E-02
3.15336053154E+05	-2.19043449776E+01	-3.12155098917E+01	7.00116171599E+00	-1.77458281677E+02	-5.55652608497E+01	-7.89732873580E+01	-6.05857794142E+00	-2.96637366910E-01
3.15563983753E+05	-1.62859419611E+01	1.01476856125E+02	7.11493184310E+00	-1.78449526784E+02	-4.38521513887E+01	-6.17975839225E+01	-6.03920990492E+00	-3.92695143339E-01
3.15792079105E+05	-2.12731536430E+01	3.91375178002E+01	7.02583521124E+00	-1.77780489554E+02	-3.57370913143E+01	5.44176422121E+01	-6.02111466355E+00	1.02379558287E-01
3.16020339328E+05	-2.21248916185E+01	3.45038370209E+01	7.07906386648E+00	-1.78016814949E+02	-4.59995686030E+01	1.17673311881E+02	-6.05191240719E+00	-9.46155972908E-02
3.16248764542E+05	-2.33906167578E+01	8.77115799318E+01	7.11036120386E+00	-1.77915890556E+02	-4.92924137193E+01	9.80506759468E+01	-6.03751043939E+00	-1.99730652340E-01
3.16477354866E+05	-1.19658680728E+01	2.72349928384E+01	6.85892968654E+00	-1.78204174885E+02	-4.75277507372E+01	-9.48117489559E+00	-6.04981159957E+00	-2.48294038995E-01
3.16706110419E+05	-2.21949998219E+01	1.85825238955E+01	7.04741268155E+00	-1.78247432551E+02	-3.09955298115E+01	-1.51457964989E+02	-6.13790028796E+00	-5.29219717020E-01
3.16935031321E+05	-1.78651041005E+01	8.87204047426E+01	7.06986449405E+00	-1.78468452019E+02	-4.40894139074E+01	1.79162429200E+02	-6.04238309289E+00	-9.51414669453E-02
3.17164117691E+05	-1.79131677098E+01	-8.28664051508E+00	6.99743355153E+00	-1.77620902032E+02	-4.06061803296E+01	2.06914657575E+01	-6.00191181811E+00	-2.46848854649E-01
3.17393369648E+05	-1.31107317107E+01	8.33697089747E+01	7.06193590185E+00	-1.79274500479E+02	-4.38603433528E+01	-1.09242257931E+02	-6.06838593764E+00	-1.38337335972E-01
3.17622787313E+05	-2.01608106200E+01	4.62601342505E+01	7.03300197086E+00	-1.78230215843E+02	-4.23584697925E+01	-5.11705891831E+01	-6.01432475710E+00	-3.45019302070E-01
3.17852370806E+05	-1.47429892662E+01	4.57317958536E+01	6.96807709007E+00	-1.78615563466E+02	-4.13417945718E+01	-1.64800776042E+02	-6.05950460616E+00	-3.45501826981E-01
3.18082120245E+05	-2.54193711015E+01	-5.07636864409E+01	7.00978953160E+00	-1.77768732970E+02	-3.91633287722E+01	-6.82708042645E+01	-6.00579753980E+00	-3.67870187444E-01
3.18312035752E+05	-7.72204493579E+00	6.42650606716E+01	6.93839469854E+00	-1.79908599331E+02	-4.09082133872E+01	1.69706250462E+01	-6.03230007329E+00	-2.97481620817E-01
3.18542117445E+05	-2.15876980120E+01	6.27456120710E+01	7.06205810690E+00	-1.78067276061E+02	-3.36412792262E+01	9.77945155066E+01	-6.03957242842E+00	3.00846061288E-01
3.18772365446E+05	-1.90735131501E+01	4.57497555244E+01	7.00478552634E+00	-1.78254995906E+02	-4.59592722443E+01	7.86040590462E+01	-6.02022790471E+00	-1.28620395472E-01
3.19002779874E+05	-2.07049237540E+01	-1.79439431833E+01	7.03648689796E+00	-1.77851349829E+02	-4.06421906536E+01	-1.31687426440E+02	-6.03796853613E+00	-3.10210022698E-01
3.19233360850E+05	-1.29363311673E+01	7.39876885244E+01	7.02047774706E+00	-1.78681680238E+02	-3.94853131097E+01	-9.50703887896E+01	-6.03111244729E+00	-5.79081119916E-01
3.19464108494E+05	-2.52497003084E+01	1.18619922926E+02	7.10320802237E+00	-1.77825828774E+02	-4.04790926539E+01	1.73315890399E+02	-6.08029520337E+00	-1.74298996026E-01
3.19695022927E+05	-2.09639298027E+01	1.63192255962E+02	7.10457414339E+00	-1.77796922492E+02	-4.21650356995E+01	-1.61864463836E+02	-6.05157059314E+00	-1.07567965791E-01
3.19926104268E+05	-1.71025976118E+01	1.53701691713E+01	7.00507135973E+00	-1.77689575332E+02	-4.04811079884E+01	-1.97462848755E+01	-6.00493674803E+00	-3.63945125800E-01
3.20157352640E+05	-2.76993142816E+01	2.36294452900E+01	7.04132165978E+00	-1.78242563552E+02	-3.81477819021E+01	1.00111002047E+02	-6.02275326831E+00	1.57225941416E-01
3.20388768162E+05	-1.59858987241E+01	1.17421959479E+01	6.97887633500E+00	-1.77896858190E+02	-2.76841941777E+01	1.13003087162E+02	-6.11415550032E+00	6.54240960809E-01
3.20620350955E+05	-1.93295596675E+01	5.66444552687E+01	6.98444382802E+00	-1.78422261138E+02	-4.59323706490E+01	9.87504883241E+01	-6.06347002388E+00	-2.26313417646E-01
3.20852101140E+05	-2.16927424038E+01	1.70517210086E+01	6.96801042765E+00	-1.78296845988E+02	-4.72031616296E+01	3.61021596930E+01	-6.03752735166E+00	-1.03032797950E-01
3.21084018839E+05	-2.48196312847E+01	8.64888341877E+01	7.07879386441E+00	-1.78065143124E+02	-4.07728585570E+01	1.78979337157E+02	-6.06571767659E+00	-2.52558076550E-01
3.21316104172E+05	-2.13784115360E+01	6.58544285692E+01	7.02821950257E+00	-1.78419871744E+02	-4.23278945671E+01	-1.50875536744E+02	-6.01870227310E+00	-1.65696501311E-01
3.21548357261E+05	-1.73992977860E+01	6.60715395679E+01	7.01223045417E+00	-1.78540068586E+02	-4.48034413120E+01	-1.73983981573E+00	-6.01632634716E+00	-3.13046260133E-01
3.21780778226E+05	-1.38111880199E+01	-5.18310730680E+01	7.00097697427E+00	-1.77160033990E+02	-5.82982409822E+01	-9.84163971808E+01	-6.06062400272E+00	-1.49332347409E-01
3.22013367189E+05	-2.32361062420E+01	2.12476511266E+01	6.99866043834E+00	-1.77889478511E+02	-3.67182488924E+01	-1.40239285246E+02	-6.10002631853E+00	-3.77235622451E-01
3.22246124272E+05	-2.29292645249E+01	-3.96863470539E+01	7.06234108658E+00	-1.77815000935E+02	-6.04470472746E+01	8.78742213213E+01	-6.05827384339E+00	-2.44573776088E-01
3.22479049596E+05	-2.34837875098E+01	1.68065591474E+01	7.05336753335E+00	-1.78136888046E+02	-4.65978381162E+01	2.52485447135E+01	-6.01362549232E+00	-3.44317944207E-01
3.22712143282E+05	-1.69276357348E+01	1.76923945827E+02	7.22467237455E+00	-1.78153074613E+02	-5.05669670173E+01	-9.66349436176E+01	-6.06814923963E+00	-3.68840083247E-01
3.22945405453E+05	-1.83130622439E+01	-7.99219899078E+00	7.00454195314E+00	-1.77911691340E+02	-4.09105254094E+01	1.35409961559E+02	-6.05175473647E+00	-1.17356627095E-01
3.23178836230E+05	-1.52898135419E+01	4.47275287297E+01	7.06620157879E+00	-1.78298363033E+02	-3.39013625925E+01	-8.98287060256E+01	-6.03956503655E+00	-5.28505479349E-01
3.23412435735E+05	-2.33764484799E+01	6.56851055779E+01	7.03611611763E+00	-1.78235857218E+02	-4.79142958661E+01	1.28579589173E+02	-6.06577288900E+00	-1.27526289511E-01
3.23646204090E+05	-1.17546901391E+01	-1.51687148618E+01	6.86012941715E+00	-1.77072940348E+02	-3.93583971638E+01	-1.83167181579E+01	-6.02134034991E+00	-2.01631315541E-01
3.23880141417E+05	-3.83035787482E+01	8.51810417058E+01	7.06531507245E+00	-1.78277822334E+02	-3.45000777521E+01	1.74479743867E+02	-6.10497357560E+00	-1.85379436519E-01
3.24114247838E+05	-2.12729994188E+01	1.13370951851E+02	7.07234822427E+00	-1.78430213687E+02	-3.70084382239E+01	-1.16872373095E+01	-6.00891553297E+00	-5.63681296168E-02
3.24348523475E+05	-1.80416997098E+01	9.33835792186E+01	7.07790979439E+00	-1.78662823963E+02	-4.38901372906E+01	7.93065548937E+01	-6.02347343640E+00	-1.05402288614E-01
3.24582968451E+05	-2.56291693878E+01	-1.64888933362E+01	7.00430927657E+00	-1.77881173691E+02	-4.30930628431E+01	-2.32196978656E+01	-6.01826264560E+00	-2.67950946511E-01
3.24817582888E+05	-2.15797326258E+01	2.34233291369E+01	7.01942349405E+00	-1.78066794054E+02	-3.48361836448E+01	-9.18156727589E+01	-6.00979555137E+00	-7.30812348752E-01
3.25052366909E+05	-1.87069076203E+01	9.08836713371E+01	7.06271136674E+00	-1.78559242766E+02	-3.93392329386E+01	-1.70331225353E+02	-6.05186010671E+00	-1.58782295584E-01
3.25287320635E+05	-2.14302948289E+01	6.83258328857E+01	7.03658635135E+00	-1.78498772926E+02	-4.10735004812E+01	-1.00459562815E+02	-6.06532638154E+00	-2.44602707301E-01
3.25522444191E+05	-2.16796932273E+01	4.93335646091E+01	7.02466984579E+00	-1.78323699669E+02	-4.36270390931E+01	5.29927007804E+01	-5.99410932634E+00	-1.55770971384E-01
3.25757737698E+05	-2.07528588818E+01	3.63471566865E+01	7.05367545002E+00	-1.78192576321E+02	-3.77164440907E+01	-9.00061147810E+01	-6.04536785252E+00	-6.73970373820E-01
3.25993201280E+05	-2.36908146826E+01	2.14497567522E+01	7.04066701938E+00	-1.77973410546E+02	-4.56009110331E+01	-1.07896511880E+02	-6.06755793104E+00	-3.47246741833E-01
3.26228835058E+05	-1.52701918420E+01	9.67325677549E+00	6.98111800692E+00	-1.78105923476E+02	-4.05805847901E+01	-7.81542726432E+01	-6.03818645111E+00	-4.71631471058E-01
