# Hz S DB R 50
! CMT, M5065, 19127446, 24.2.4/2
! Date: 11/1/2024 3:21:24 PM
! Data: Format (Calibration Info)
! Freq	S11:dB/Ang(F2)	S21:dB/Ang(F2)	S12:dB/Ang(F2)	S22:dB/Ang(F2)
3.00000000000E+05	-2.46474374203E+01	1.30412095588E+02	8.01242680631E+00	-1.78076138314E+02	-3.12170159925E+01	-3.28271058994E+00	-5.93442777427E+00	-2.65657450245E-01
3.00216845423E+05	-1.81323227818E+01	-7.94107370449E+00	7.97092122270E+00	-1.77329981869E+02	-2.58770511129E+01	9.93180099927E+01	-6.02836194438E+00	8.71377040245E-01
3.00433847586E+05	-1.30657412362E+01	4.81059133393E+01	7.89523235168E+00	-1.78368577978E+02	-3.77653604676E+01	-1.15631675950E+02	-6.03993591289E+00	-3.00190316570E-01
3.00651006602E+05	-5.86136596258E+00	7.69086596559E+01	7.90169594563E+00	1.79831701130E+02	-4.60066888474E+01	1.62456130647E+02	-6.01190501445E+00	-3.08219434812E-02
3.00868322584E+05	-2.54153045456E+01	4.79797075120E+01	8.03926007843E+00	-1.77463589534E+02	-3.93684995498E+01	-8.79184006572E+01	-6.00677570399E+00	-5.69448641751E-01
3.01085795647E+05	-3.32208422657E+01	1.14286871459E+01	8.03118327061E+00	-1.77276960636E+02	-4.28779421100E+01	6.55413215410E+01	-6.04956879770E+00	-1.03726112586E-01
3.01303425902E+05	-2.12263030623E+01	3.85733204211E+01	7.90819839979E+00	-1.77949423880E+02	-3.79258311541E+01	-4.77245451100E+01	-6.00951622469E+00	-4.45861547641E-01
3.01521213465E+05	-3.20984127122E+01	-2.95101842904E+01	7.97792665401E+00	-1.77417147232E+02	-3.11672501848E+01	-1.72001650484E+02	-6.12193683361E+00	-2.15146897272E-01
3.01739158449E+05	-2.30587847765E+01	-1.43307023312E+02	8.03828663609E+00	-1.77629355054E+02	-3.65778815951E+01	-5.73827077825E+01	-5.98301027745E+00	-4.56721534190E-01
3.01957260967E+05	-1.51880156229E+01	1.15752182753E+02	8.10700626427E+00	-1.78876935461E+02	-4.10651199027E+01	1.22966094520E+02	-6.03850036454E+00	-2.50643035271E-02
3.02175521134E+05	-1.23146434355E+01	-1.28181106764E+02	8.05398358022E+00	-1.76773077249E+02	-4.63498427405E+01	1.40587892462E+02	-6.04743450366E+00	-4.81803799994E-01
3.02393939063E+05	-2.00781499311E+01	-4.07719236151E+00	7.96300833362E+00	-1.77688217019E+02	-3.43765529775E+01	-1.50256937294E+02	-6.07836720882E+00	-3.39262103874E-01
3.02612514869E+05	-2.36199569659E+01	-4.72616570869E+01	7.88554994399E+00	-1.77427420896E+02	-5.58879797127E+01	4.09932906588E+01	-6.07548792531E+00	-3.45863123311E-01
3.02831248665E+05	-2.06081025193E+01	1.60267276940E+02	8.06539096647E+00	-1.77691106101E+02	-4.49027237057E+01	4.25687363664E+01	-6.02752770237E+00	-4.51356748390E-02
3.03050140565E+05	-2.97149205527E+01	1.94269883199E+01	7.98831493133E+00	-1.77508371508E+02	-3.58203250683E+01	-1.81439834382E+01	-5.96555208869E+00	-3.54876275226E-01
3.03269190685E+05	-2.58318694956E+01	5.92689475918E+01	7.97615949560E+00	-1.77711066504E+02	-2.55263693054E+01	-1.22907152217E+02	-6.14721361245E+00	-1.06975260532E+00
3.03488399138E+05	-1.82217262757E+01	-1.15440413636E+02	7.98118448261E+00	-1.77197345647E+02	-4.05611371142E+01	6.16291990840E+01	-6.01111186458E+00	-2.30286321967E-01
3.03707766039E+05	-1.27980358110E+01	-1.22834709907E+02	8.06976361899E+00	-1.76708717611E+02	-4.09075095135E+01	9.34289471715E+01	-6.03445032590E+00	6.62738881990E-02
3.03927291503E+05	-2.23385451299E+01	7.38736544088E+01	8.00889440598E+00	-1.77917348883E+02	-4.07627570338E+01	6.31054389719E+01	-6.00116155549E+00	6.69706373913E-03
3.04146975643E+05	-2.68987383185E+01	1.01041336450E+02	8.03354152214E+00	-1.78289569206E+02	-3.70069840252E+01	-1.60050688694E+02	-6.07780068526E+00	-4.83399050285E-01
3.04366818575E+05	-3.25194407782E+01	-2.58741184320E+01	8.05136163290E+00	-1.77582119941E+02	-5.46877154496E+01	-1.04816129476E+02	-6.03145692607E+00	-3.54745783772E-01
3.04586820414E+05	-1.95189954441E+01	4.91247503185E+01	7.94482952836E+00	-1.77802457873E+02	-3.87553409354E+01	-1.32395827375E+02	-6.09020540965E+00	-3.87240714288E-01
3.04806981274E+05	-2.07576417117E+01	-1.10679939216E+01	7.99604475375E+00	-1.77930716920E+02	-3.83341897034E+01	-1.59298162137E+02	-6.07166904956E+00	-3.65554327086E-01
3.05027301270E+05	-1.41570729592E+01	6.87724318728E+01	7.98395952297E+00	-1.78809633646E+02	-3.58778981861E+01	1.31581304831E+02	-6.05058246259E+00	-1.90295617627E-01
3.05247780517E+05	-1.31167422186E+01	-2.89778715622E+01	7.89259910420E+00	-1.76947233443E+02	-4.20121140284E+01	1.05771476660E+02	-6.05285063715E+00	-8.91213804159E-02
3.05468419131E+05	-1.60741832214E+01	6.60205639738E+01	7.94130470992E+00	-1.78360594901E+02	-3.38532175634E+01	-1.06809589426E+02	-6.02630646778E+00	-3.65732341217E-01
3.05689217226E+05	-1.89353270081E+01	-1.81121357387E+01	7.94619575578E+00	-1.77714840751E+02	-4.44904613708E+01	1.66833900671E+02	-6.07741843845E+00	-3.14367993643E-01
3.05910174918E+05	-2.20764645613E+01	-5.86431093757E+01	7.99865460254E+00	-1.77663262621E+02	-3.95082282609E+01	-4.03683437792E+01	-6.02777885792E+00	-3.58628500356E-01
3.06131292322E+05	-2.29181033087E+01	8.47020976990E+01	7.96438626677E+00	-1.78174037078E+02	-3.94823905901E+01	2.19662253890E+01	-6.01888110297E+00	-1.14794723215E-01
3.06352569554E+05	-3.15368485072E+01	6.61389621051E+01	7.99040950908E+00	-1.77944776753E+02	-3.16489674224E+01	-6.45133739429E+01	-5.99951359522E+00	-8.12847458369E-01
3.06574006730E+05	-2.13049738807E+01	-1.36743611889E+02	8.01992205480E+00	-1.77421046401E+02	-6.54040047977E+01	9.58811102106E+00	-6.08098616334E+00	-4.17856401068E-02
3.06795603964E+05	-3.92494548454E+00	1.24620464056E+02	8.24010079622E+00	1.79877901308E+02	-3.69649598204E+01	1.77225013771E+02	-6.07765966706E+00	-9.62732354764E-02
3.07017361372E+05	-1.75846953866E+01	5.41996883101E+01	7.95827806828E+00	-1.78448106694E+02	-4.75844852484E+01	1.26953460889E+02	-6.03886981059E+00	-3.52758537415E-01
3.07239279071E+05	-2.07236316933E+01	3.03085825043E+01	7.97707001699E+00	-1.78001184783E+02	-4.07578923111E+01	1.78521016490E+02	-6.08449585804E+00	-2.46476516810E-01
3.07461357176E+05	-2.96160219992E+01	1.08411800580E+02	8.00396870755E+00	-1.77831096549E+02	-3.64792077763E+01	-1.57277255823E+02	-6.11514971222E+00	-3.59930275401E-01
3.07683595803E+05	-1.80980323114E+01	5.43677377974E+01	8.08211147426E+00	-1.77906788903E+02	-4.39676976301E+01	-1.09366268471E+02	-6.08886761458E+00	-4.70947784339E-01
3.07905995068E+05	-1.60007570849E+01	-3.02691302897E+01	7.97149595554E+00	-1.76829342572E+02	-3.40652045904E+01	-8.13267186940E+01	-6.06898821430E+00	-5.24269731571E-01
3.08128555087E+05	-1.52365192408E+01	7.35836574708E+01	7.98001620331E+00	-1.78478574279E+02	-4.62689771393E+01	1.27858792334E+02	-6.04920904903E+00	-2.24393085896E-01
3.08351275976E+05	-1.01566330211E+01	1.44122918335E+02	8.22515941079E+00	-1.78818476215E+02	-4.90335368770E+01	1.72981779185E+00	-6.02330460474E+00	-4.37663945598E-01
3.08574157853E+05	-1.80833933076E+01	2.43566351521E+01	7.94381340033E+00	-1.78038130768E+02	-4.23490544990E+01	-3.41159769194E+01	-6.01357141375E+00	-3.56532146313E-01
3.08797200832E+05	-2.96673372881E+01	1.37368178567E+02	8.04708194871E+00	-1.77940231098E+02	-4.64590537681E+01	-1.11349005199E+02	-6.03183490524E+00	-3.22641910399E-01
3.09020405031E+05	-2.84798370254E+01	1.66258779113E+02	7.97055530525E+00	-1.78054522994E+02	-3.55880831702E+01	1.95637345174E+00	-5.98760730609E+00	-1.87667795330E-01
3.09243770566E+05	-2.51621021052E+01	1.43629321258E+02	7.99032286191E+00	-1.78267065802E+02	-3.57699270260E+01	-3.65166544641E+01	-5.99938216537E+00	-3.84588510922E-01
3.09467297553E+05	-1.29570713267E+01	-1.26534172202E+01	7.88534228826E+00	-1.77381111940E+02	-3.17025335638E+01	4.41360964789E+00	-5.94483563469E+00	-1.21163905943E-01
3.09690986110E+05	-1.73222946516E+01	-1.50796590629E+02	8.13918139916E+00	-1.77498327241E+02	-4.58117765525E+01	2.04117087790E+01	-6.04961039997E+00	6.78152010753E-02
3.09914836353E+05	-9.94313039354E+00	1.06990074856E+02	8.03254801598E+00	-1.79102710468E+02	-4.01031912457E+01	1.52999758179E+02	-6.05637880494E+00	-9.39319813625E-02
3.10138848399E+05	-1.97303671971E+01	3.04372478581E+01	7.90198053757E+00	-1.77535497474E+02	-4.47693272706E+01	-1.82570674712E+01	-6.03416860391E+00	-3.67738064735E-01
3.10363022365E+05	-2.00044391735E+01	9.84714235635E+01	7.98298238982E+00	-1.78357319330E+02	-4.09525205167E+01	-1.64276608112E+02	-6.07755096744E+00	-3.00342385414E-01
3.10587358368E+05	-2.32304227991E+01	-3.27614442677E+01	7.97066386094E+00	-1.77952153667E+02	-4.14219632360E+01	1.14396045375E+02	-6.10134741034E+00	-1.35907351891E-01
3.10811856525E+05	-1.40136945094E+01	1.04784672078E+02	8.00368057730E+00	-1.78532162226E+02	-4.41467546878E+01	-3.33950246525E+01	-5.96759232049E+00	-3.72631563756E-01
3.11036516954E+05	-1.94484886716E+01	-9.46631299261E+00	7.87983256600E+00	-1.78005572895E+02	-2.51784197614E+01	-1.03596253461E+01	-5.85653131193E+00	-3.85561428015E-01
3.11261339771E+05	-1.10833974494E+01	2.17269194674E+01	7.89838280273E+00	-1.78141794994E+02	-3.63862733689E+01	5.59273239125E+01	-5.99979036236E+00	7.24946245944E-02
3.11486325094E+05	-6.06923765395E+00	4.67446488568E+01	7.79086059511E+00	-1.79838293570E+02	-3.48973391364E+01	1.11139498326E+02	-6.05523343106E+00	6.24790136548E-02
3.11711473040E+05	-1.67594276323E+01	9.21212062023E+00	7.93932040429E+00	-1.77515043618E+02	-3.75375326963E+01	-8.93380817680E+01	-6.09918427708E+00	-7.85264752294E-01
3.11936783728E+05	-2.86956809803E+01	1.52347231155E+02	8.03247778946E+00	-1.78123433463E+02	-4.90800662233E+01	1.34994824038E+02	-6.08000932890E+00	-3.49685342032E-01
3.12162257274E+05	-3.14044370880E+01	3.01514943692E+01	7.99541937895E+00	-1.77504237219E+02	-3.91555053102E+01	1.54655178940E+02	-6.05511503703E+00	-1.65277349205E-01
3.12387893797E+05	-1.76562251580E+01	8.13307071218E+01	7.91621764526E+00	-1.78307596683E+02	-4.27328181878E+01	-9.15458813388E+01	-6.04769561118E+00	-4.58757707359E-01
3.12613693413E+05	-2.70787907007E+01	8.72375170041E+01	8.04362873569E+00	-1.77983340352E+02	-3.79741491550E+01	-7.63371759113E+00	-5.99967825887E+00	-4.47645355777E-01
3.12839656242E+05	-1.79772009652E+01	-2.35138676056E+01	8.02156832233E+00	-1.77606177599E+02	-3.03420660957E+01	1.75742113085E+02	-6.14431504663E+00	5.22051181645E-02
3.13065782401E+05	-2.85969723757E+01	-1.43923653503E+02	8.06753148427E+00	-1.77255266229E+02	-4.53750893805E+01	1.20633876145E+02	-6.00459246326E+00	-2.92205160780E-01
3.13292072007E+05	-1.37239623137E+01	1.71453295406E+02	8.17679838432E+00	-1.77893125093E+02	-5.67498913545E+01	-2.45717624382E+01	-6.07187206859E+00	-3.25241166480E-01
3.13518525180E+05	-2.17596704212E+01	-9.55973796316E+00	7.96606484741E+00	-1.77389773444E+02	-4.30530287539E+01	1.63082532536E+01	-6.01481783215E+00	-4.38252728056E-01
3.13745142038E+05	-1.70205019244E+01	9.51835889285E+01	7.99809225877E+00	-1.78282756202E+02	-3.41323210311E+01	1.15713901005E+02	-6.07841476777E+00	-7.85792056210E-02
3.13971922698E+05	-1.82004046117E+01	2.02850691534E+01	7.92954465559E+00	-1.77778193749E+02	-3.91795974245E+01	-1.06409234196E+02	-6.07226461301E+00	-3.04958663642E-01
3.14198867279E+05	-2.09822787584E+01	-1.61006962400E+01	7.93534854373E+00	-1.77727286626E+02	-2.49627565619E+01	-8.32246878531E+01	-6.02997535244E+00	-1.28701532663E+00
3.14425975900E+05	-1.95169376421E+01	5.30702211077E+01	7.99990291576E+00	-1.77743058667E+02	-2.50993997291E+01	-2.29342537731E+01	-5.81794903118E+00	-5.39283746624E-01
3.14653248680E+05	-1.42908392739E+01	8.07485492014E+01	8.02782794398E+00	-1.78279731151E+02	-4.83988413587E+01	6.28067818188E+01	-6.06556423942E+00	-1.36214612103E-01
3.14880685736E+05	-1.60019021594E+01	-1.49139533281E+01	7.91001035468E+00	-1.77225123895E+02	-3.86318672645E+01	-2.05789508177E+01	-6.01056685745E+00	-6.86910563140E-02
3.15108287188E+05	-1.58355774992E+01	-4.94167802339E+01	7.98432788200E+00	-1.77170470204E+02	-3.58670421915E+01	-1.70740084589E+01	-6.01303779953E+00	-2.86847819481E-01
3.15336053154E+05	-1.79858331815E+01	-2.72009215939E+01	7.92464075120E+00	-1.77253086680E+02	-3.21901376158E+01	-4.77420189018E+01	-5.98624715549E+00	-4.52738432742E-01
3.15563983753E+05	-1.72801900318E+01	3.08572797293E+01	7.94713332693E+00	-1.78303740704E+02	-3.86084617364E+01	-1.49727025604E+02	-6.07431186807E+00	-2.10177722139E-01
3.15792079105E+05	-2.06707485309E+01	1.96943164554E+01	7.97835407737E+00	-1.78088843042E+02	-4.52614979011E+01	-7.47646525753E+01	-6.01158264944E+00	-3.20970113980E-01
3.16020339328E+05	-3.84257140379E+01	1.03070761114E+02	7.94272848680E+00	-1.78509206722E+02	-4.63120790106E+01	-3.15612312981E+01	-6.03283936217E+00	-5.04433360818E-01
3.16248764542E+05	-1.21928849767E+01	6.41200064899E+01	7.90776184849E+00	-1.79182257965E+02	-4.82408152631E+01	-1.59460229922E+02	-6.04259062528E+00	-2.04571210770E-01
3.16477354866E+05	-1.82529467931E+01	2.69580160692E+01	7.86293152047E+00	-1.78103744483E+02	-4.48937800519E+01	-1.37375524633E+02	-6.03572822069E+00	-1.47761443414E-01
3.16706110419E+05	-1.25316970096E+01	-1.75656649409E+01	7.90253537563E+00	-1.77604044132E+02	-4.95974316247E+01	-3.39596258087E+01	-6.06413228190E+00	-3.32550600730E-01
3.16935031321E+05	-2.52833817370E+01	5.39911934733E+00	7.94100195805E+00	-1.77965272038E+02	-3.77776928503E+01	-3.88145415864E+01	-6.01920852637E+00	-2.58861299941E-01
3.17164117691E+05	-2.53397689098E+01	-1.00413323781E+02	7.98653366823E+00	-1.77886090817E+02	-3.89063537754E+01	-1.48081861939E+02	-6.08662663528E+00	-1.75973888480E-01
3.17393369648E+05	-1.90239023711E+01	8.32824385292E+01	8.05296316133E+00	-1.78266764311E+02	-3.19017846769E+01	-6.91456637114E+00	-5.96557926123E+00	3.34751956908E-02
3.17622787313E+05	-2.98035583399E+01	-2.56858966507E+01	7.96753155360E+00	-1.77519410774E+02	-3.05693574538E+01	1.17689345732E+02	-6.14363736044E+00	3.98491695001E-01
3.17852370806E+05	-1.72393110062E+01	5.02633183180E+01	7.97052625442E+00	-1.78549562334E+02	-4.31068848103E+01	1.48421482789E+01	-6.03539545563E+00	-1.35355891341E-01
3.18082120245E+05	-1.95425472124E+01	-1.78854756224E+02	8.11058081242E+00	-1.77701076400E+02	-3.69988682630E+01	-1.04434411206E+02	-6.06452644021E+00	-4.17271238086E-01
3.18312035752E+05	-1.39347232611E+01	2.08584946214E+01	7.94954535233E+00	-1.78232777385E+02	-3.66674672421E+01	-7.04848509143E+01	-6.01748425036E+00	-6.10903572372E-01
3.18542117445E+05	-1.98394088439E+01	8.96250943846E+01	8.01933117379E+00	-1.78342893232E+02	-3.52605223842E+01	4.92850789890E+01	-5.99902404581E+00	-3.19618315092E-02
3.18772365446E+05	-1.71930201023E+01	-6.14776974622E+01	7.97229062966E+00	-1.77685455372E+02	-4.98622174829E+01	1.50267588613E+02	-6.05988225624E+00	-1.07123761494E-01
3.19002779874E+05	-2.54005977557E+01	1.01502021494E+02	8.07194287363E+00	-1.78278186092E+02	-3.42087890155E+01	1.60914186312E+01	-6.00802527529E+00	8.99952818488E-02
3.19233360850E+05	-2.01852060905E+01	-8.19671770856E+00	7.90099316270E+00	-1.77781403719E+02	-3.26536954306E+01	-9.76472045198E+01	-6.09026085338E+00	-7.28361628805E-01
3.19464108494E+05	-2.90980465368E+01	-1.36807755819E+02	8.02289851656E+00	-1.78592191824E+02	-3.89860022089E+01	2.36154040632E+00	-5.97352220498E+00	-3.20494063875E-01
3.19695022927E+05	-1.39998689286E+01	5.33677141753E+00	7.94391109772E+00	-1.78225463797E+02	-3.88813297046E+01	7.68056128140E+00	-6.02524779441E+00	1.83384326585E-01
3.19926104268E+05	-2.73777330082E+01	6.90630754498E+01	8.00569552735E+00	-1.78043642493E+02	-4.26400859606E+01	-1.12828219686E+02	-6.04068426603E+00	-1.18447551226E-01
3.20157352640E+05	-3.19053665495E+01	6.44622344066E+01	7.99661487393E+00	-1.77950789641E+02	-4.22195821921E+01	-8.36019674814E+01	-6.06763320827E+00	-4.28645868112E-01
3.20388768162E+05	-2.37407419226E+01	-3.65066397078E+01	7.94901879261E+00	-1.77336924124E+02	-3.84175879916E+01	-2.01010546262E+01	-6.08532891632E+00	-4.15797381991E-01
3.20620350955E+05	-1.54589247167E+01	6.69424793074E+01	7.94093647691E+00	-1.78808276019E+02	-3.48506070822E+01	1.24187744922E+02	-6.09031831654E+00	4.98235090846E-02
3.20852101140E+05	-2.47509487886E+01	-7.52986010007E+00	7.97112548323E+00	-1.77676280162E+02	-3.61450702402E+01	1.62869879470E+02	-6.11618275690E+00	1.68931982163E-01
3.21084018839E+05	-1.50384117646E+01	2.83130222528E+01	7.99560679816E+00	-1.78185235831E+02	-3.87028993892E+01	-1.11013259130E+01	-5.98975159224E+00	-4.51782740608E-01
3.21316104172E+05	-1.29711515782E+01	-1.07563147675E+02	8.05279528943E+00	-1.76357145125E+02	-4.06455421750E+01	-1.45136508618E+02	-6.07600184475E+00	-1.35042420340E-01
3.21548357261E+05	-1.76359103706E+01	1.90260047596E+01	8.02856133981E+00	-1.78108402238E+02	-4.38639021093E+01	1.51902432597E+02	-6.04318397103E+00	-1.98361661343E-01
3.21780778226E+05	-1.92185150098E+01	-2.31546636725E+01	8.01288112213E+00	-1.77725976692E+02	-3.40299454739E+01	-5.01151193082E+01	-6.05242614232E+00	-4.70019695124E-01
3.22013367189E+05	-2.01207008746E+01	-3.12074529927E+00	8.00042089965E+00	-1.77895360761E+02	-4.53325991624E+01	-4.62078111929E+01	-6.05621821611E+00	-1.48204062702E-01
3.22246124272E+05	-1.44711062217E+01	3.08467898813E+01	7.93390855227E+00	-1.78516631459E+02	-3.45831992912E+01	1.39332729662E+02	-6.02906197796E+00	-4.24292374715E-03
3.22479049596E+05	-1.53078999187E+01	6.49411259755E+01	7.95456731186E+00	-1.78381530928E+02	-4.21077591722E+01	8.97817774828E+01	-6.04533240206E+00	-1.91188677007E-01
3.22712143282E+05	-1.39367554079E+01	1.58439338395E+01	7.80210668023E+00	-1.78251069597E+02	-3.80361974773E+01	5.27282736847E+01	-6.01452082137E+00	-3.49268261922E-01
3.22945405453E+05	-1.16504771585E+01	-1.71059363244E+02	8.27779332488E+00	-1.78230678302E+02	-3.78283229143E+01	-1.66251082038E+02	-6.06777749637E+00	-2.35585376607E-01
3.23178836230E+05	-1.70456019744E+01	-6.21415336735E+01	7.97392170820E+00	-1.77577005136E+02	-4.06601088579E+01	1.22735736066E+02	-6.05854069361E+00	-1.67155245293E-01
3.23412435735E+05	-1.43115896927E+01	-1.89166058233E+01	7.93472869741E+00	-1.77474169116E+02	-4.01282847680E+01	8.49577230839E+01	-6.04787373169E+00	7.41227882238E-02
3.23646204090E+05	-2.03275347714E+01	4.88540737824E+01	7.98876173419E+00	-1.78380567618E+02	-3.99551587873E+01	-1.52148573743E+02	-6.08667689403E+00	-1.83671745414E-01
3.23880141417E+05	-1.94704453473E+01	6.19871133361E+01	7.93556523279E+00	-1.78149610111E+02	-3.67822821767E+01	-1.44545596190E+02	-6.06881844912E+00	-2.74136961667E-01
3.24114247838E+05	-1.94328199932E+01	-6.34490454921E+00	7.97373143936E+00	-1.78187123053E+02	-3.02011886757E+01	1.31786696208E+02	-6.11191997046E+00	2.32108713652E-01
3.24348523475E+05	-1.60975582086E+01	3.43962876586E+01	7.93308648826E+00	-1.77970167505E+02	-3.23881941367E+01	-4.07407865872E+01	-5.94556437753E+00	-3.61103724268E-01
3.24582968451E+05	-1.59009094895E+01	1.02595721708E+02	8.07897728583E+00	-1.78860132823E+02	-3.87989231578E+01	1.45453334834E+02	-6.04732286711E+00	-2.10145694988E-01
3.24817582888E+05	-2.37417284757E+01	-1.13372064373E+01	7.96713119876E+00	-1.78088815865E+02	-3.76866914439E+01	-1.22383253330E+01	-6.02048319764E+00	-3.17999237393E-01
3.25052366909E+05	-2.36850649510E+01	2.06849543257E+00	8.01590608429E+00	-1.77669480996E+02	-4.54943580157E+01	-4.56189527723E+01	-6.03290792087E+00	-3.48017175357E-01
3.25287320635E+05	-2.97032709930E+01	-1.17324339664E+02	7.96571454928E+00	-1.77974184512E+02	-3.73745015327E+01	-5.72492233685E+01	-6.05378800950E+00	-4.31196984215E-01
3.25522444191E+05	-3.03427118610E+01	-1.48813175705E+02	8.11277860363E+00	-1.78177259656E+02	-4.52587903182E+01	-1.04936628153E+02	-6.08376487532E+00	-1.18530608097E-01
3.25757737698E+05	-2.10559259862E+01	6.92340241674E+01	8.01240013270E+00	-1.78339274584E+02	-3.05482506196E+01	-6.24502701508E+01	-6.02708772967E+00	-1.04910795624E+00
3.25993201280E+05	-2.89465402851E+01	-7.99080510722E+01	7.93767249689E+00	-1.77739714174E+02	-3.49995711973E+01	-8.55334432073E+01	-6.02924171886E+00	-4.20635511853E-01
3.26228835058E+05	-1.05577059274E+01	3.85251101727E+01	7.87244497663E+00	-1.78834014585E+02	-4.95108613945E+01	1.70313709457E+01	-6.03172252041E+00	-3.10082040478E-01
