# Hz S DB R 50
! CMT, M5065, 19127446, 24.2.4/2
! Date: 11/1/2024 3:20:14 PM
! Data: Format (Calibration Info)
! Freq	S11:dB/Ang(F2)	S21:dB/Ang(F2)	S12:dB/Ang(F2)	S22:dB/Ang(F2)
3.00000000000E+05	-2.56279323573E+01	-1.54612621020E+02	7.58340164492E+00	-1.77367741287E+02	-3.64026806645E+01	3.69425207017E+01	-5.98236959668E+00	-1.08908845118E-01
3.00216845423E+05	-2.63413127667E+01	1.04768164327E+02	7.54399503764E+00	-1.77918082818E+02	-5.09266848785E+01	3.68975788387E+01	-6.03405970561E+00	4.03418185523E-02
3.00433847586E+05	-2.50084123678E+01	-3.74124328447E+01	7.51886521901E+00	-1.77440514518E+02	-4.02107602283E+01	-1.15467612958E+02	-6.05456069862E+00	-3.70039978112E-01
3.00651006602E+05	-1.53713548628E+01	1.26172031402E+02	7.65996050928E+00	-1.78257775006E+02	-4.53880948306E+01	-1.43387154633E+02	-6.05478481868E+00	-1.93817915726E-01
3.00868322584E+05	-7.68143330345E+00	9.92673062325E+01	7.64944042664E+00	-1.79661363870E+02	-4.55910377993E+01	-9.03157640601E+00	-6.03650973020E+00	-4.32564882886E-02
3.01085795647E+05	-2.70737835126E+01	5.22061704799E+01	7.55154641283E+00	-1.77780115898E+02	-3.75120753225E+01	1.49134329275E+02	-6.08070393376E+00	-2.53459063212E-01
3.01303425902E+05	-1.97513120740E+01	7.26143198453E+01	7.62816630957E+00	-1.77839296777E+02	-2.97815890889E+01	1.64076086493E+02	-6.12762019595E+00	-9.97858213142E-02
3.01521213465E+05	-2.75416724262E+01	-5.66014205650E+01	7.56268884524E+00	-1.77682430330E+02	-4.28385457588E+01	1.71064136038E+02	-6.09655229204E+00	9.16577488013E-02
3.01739158449E+05	-1.18492685061E+01	3.70657409283E+01	7.43137761197E+00	-1.78321210751E+02	-4.20666081583E+01	1.75370811681E+02	-6.08152513637E+00	-4.41491270590E-01
3.01957260967E+05	-1.54173232409E+01	3.36877639322E+01	7.46703227859E+00	-1.78211921992E+02	-4.38262347587E+01	7.42390206346E+01	-6.02037859258E+00	2.87702136628E-02
3.02175521134E+05	-2.22238440860E+01	-1.01090948364E+02	7.59700271510E+00	-1.77336754881E+02	-4.42921212114E+01	6.05651898735E+01	-6.04733835613E+00	-2.45011378060E-02
3.02393939063E+05	-1.39022032394E+01	-4.16313083368E+01	7.50954564099E+00	-1.76790200717E+02	-4.20067828032E+01	-8.34614267500E+01	-5.98183314559E+00	-4.70542382984E-01
3.02612514869E+05	-2.36995292201E+01	1.14116665164E+01	7.56252356814E+00	-1.78115230869E+02	-4.47819339184E+01	4.43391562900E+01	-5.98881722927E+00	4.68073519632E-02
3.02831248665E+05	-9.91264548443E+00	-1.24211963580E+01	7.36624706936E+00	-1.77222547425E+02	-2.92327925235E+01	-1.67336569679E+02	-6.14997138396E+00	-2.93101087171E-01
3.03050140565E+05	-1.73425269138E+01	1.16036355527E+00	7.57457876533E+00	-1.77413776236E+02	-3.51542774791E+01	-1.72642245893E+01	-5.97214098622E+00	-2.87573980508E-01
3.03269190685E+05	-2.58300283800E+01	4.55608258619E+01	7.56365672237E+00	-1.77961864980E+02	-3.55625567867E+01	1.67557122867E+02	-6.08547277941E+00	-7.54204790523E-02
3.03488399138E+05	-2.01632280015E+01	-9.94308432966E+01	7.56306970736E+00	-1.77121307483E+02	-4.42997487014E+01	5.44089521697E+01	-6.02347150537E+00	-1.68326286974E-01
3.03707766039E+05	-1.33807817928E+01	-6.75039588730E+01	7.56225522177E+00	-1.77008768514E+02	-4.43286548437E+01	1.57493386751E+01	-6.04149613877E+00	-2.83477059768E-01
3.03927291503E+05	-1.36816413278E+01	-6.00015081865E+01	7.50524959751E+00	-1.76827786488E+02	-5.07760403302E+01	-1.71689588112E+02	-6.06438838385E+00	-6.82837370250E-01
3.04146975643E+05	-1.81901459612E+01	-1.21612336493E+02	7.64067677749E+00	-1.77054432310E+02	-4.20068310377E+01	-1.46442048453E+02	-6.05105067879E+00	-8.01553287401E-02
3.04366818575E+05	-1.86441027183E+01	5.90781198751E+00	7.45961985138E+00	-1.77577928986E+02	-3.43967285261E+01	-1.19087340260E+02	-6.07128636155E+00	-4.92896063269E-01
3.04586820414E+05	-2.27561205606E+01	7.13941111877E+01	7.58552723370E+00	-1.78750846246E+02	-4.49429170140E+01	7.66843001480E+01	-6.04723377103E+00	-1.26999973090E-01
3.04806981274E+05	-1.68044363895E+01	1.08964651675E+02	7.61420900303E+00	-1.78008357864E+02	-3.98161223943E+01	-1.69345710019E+02	-6.09222289645E+00	-6.82534541089E-02
3.05027301270E+05	-2.08124142768E+01	1.64407650929E+01	7.55056595490E+00	-1.77468849379E+02	-5.30864400165E+01	1.87319687651E+01	-6.05119110496E+00	-4.20698170130E-03
3.05247780517E+05	-1.60859409412E+01	-5.98268710300E+01	7.48644879001E+00	-1.76811470668E+02	-3.56303151863E+01	-1.70946865906E+02	-6.07040201594E+00	-2.11263199459E-01
3.05468419131E+05	-1.45063482062E+01	-4.19270538676E+00	7.41035959921E+00	-1.77564261456E+02	-3.55862116617E+01	2.06680493262E+01	-6.03887263272E+00	-1.91403293505E-01
3.05689217226E+05	-2.28659970673E+01	1.77671318382E+01	7.53648770255E+00	-1.78171231725E+02	-5.34575181023E+01	1.59373710192E+02	-6.04482094889E+00	-2.71087141760E-01
3.05910174918E+05	-2.48961154486E+01	-5.24530335082E+01	7.61885112751E+00	-1.77527414529E+02	-3.26722356522E+01	-6.81085713995E+00	-5.98525863998E+00	-4.77950848155E-01
3.06131292322E+05	-2.44870220932E+01	3.79198521623E+01	7.58760530905E+00	-1.77886716078E+02	-3.29807311212E+01	-1.11655102500E+02	-6.10889199844E+00	-6.06752196922E-01
3.06352569554E+05	-1.63950277750E+01	6.84981478302E+01	7.55942112964E+00	-1.78338352028E+02	-3.70156048960E+01	6.81278799567E+01	-6.03959848100E+00	-1.48430585778E-01
3.06574006730E+05	-1.59898447207E+01	3.93174793373E+01	7.55017751740E+00	-1.78389856887E+02	-5.12020587280E+01	-1.45210080221E+02	-6.02394095745E+00	-1.32073841467E-01
3.06795603964E+05	-1.82896789927E+01	6.32143864987E+01	7.53777820341E+00	-1.78188220274E+02	-3.73227387890E+01	1.49333747856E+02	-6.06119757467E+00	4.73967571400E-02
3.07017361372E+05	-1.39631804462E+01	-7.34817214864E+01	7.53870257031E+00	-1.76449880695E+02	-4.35706574914E+01	-3.32948094954E+00	-6.04219099939E+00	-2.19191506672E-01
3.07239279071E+05	-2.01923732779E+01	-1.59504760874E+02	7.66236244933E+00	-1.77838706973E+02	-3.99265824742E+01	-1.34191707272E+02	-6.05713050782E+00	-2.76102547181E-02
3.07461357176E+05	-1.43372600102E+01	2.99534398161E+01	7.45585977004E+00	-1.77992421880E+02	-3.94138099355E+01	-1.25001190184E+02	-6.04616896277E+00	-7.20630972910E-01
3.07683595803E+05	-1.53601323112E+01	8.15297864128E+01	7.54602421039E+00	-1.78405900961E+02	-3.32380398501E+01	-1.61052848120E+02	-6.11218599069E+00	-1.34852453817E-01
3.07905995068E+05	-2.41610060657E+01	6.51066519440E+01	7.59848211619E+00	-1.77595390023E+02	-4.22954724667E+01	-7.05320833534E+01	-6.04206942977E+00	-2.91416489339E-01
3.08128555087E+05	-1.25887374272E+01	-9.59887348399E+00	7.46677502046E+00	-1.77111886930E+02	-3.99640496777E+01	1.58207961899E+02	-6.06085372519E+00	-3.14916872556E-01
3.08351275976E+05	-1.95754307078E+01	6.06391624007E+01	7.49637603611E+00	-1.78042430818E+02	-3.83319308150E+01	9.77346759190E+01	-6.05699844701E+00	1.22218139376E-01
3.08574157853E+05	-1.11170734570E+01	4.38472561301E+01	7.43075282978E+00	-1.78530261780E+02	-4.04189091220E+01	-8.94122327093E+00	-6.00833518601E+00	-3.73630067606E-01
3.08797200832E+05	-1.89421074343E+01	1.55812388315E+02	7.63250247389E+00	-1.77828785584E+02	-4.43700378495E+01	-5.41339662131E+01	-6.07305051057E+00	-4.66369793378E-03
3.09020405031E+05	-1.48498497525E+01	9.10220222896E+01	7.53648951302E+00	-1.78404762680E+02	-3.37161669042E+01	1.67074350835E+02	-6.12068531246E+00	-1.30001703712E-01
3.09243770566E+05	-1.52284459585E+01	3.29506103414E+01	7.50620078266E+00	-1.78333660939E+02	-3.65782343869E+01	-2.15406593916E+00	-6.02484544058E+00	-3.56208121746E-01
3.09467297553E+05	-1.59137696826E+01	2.08157458115E+01	7.55872844882E+00	-1.78058096435E+02	-3.55439341659E+01	-1.04416915772E+02	-6.03571455796E+00	-7.35735935117E-01
3.09690986110E+05	-2.21005843962E+01	5.78420735957E+01	7.53520116849E+00	-1.78561834875E+02	-3.61209541953E+01	-4.81748524626E+01	-6.03634495361E+00	-1.67432241178E-01
3.09914836353E+05	-1.55253824387E+01	6.00299558051E+01	7.55519809549E+00	-1.78776553276E+02	-3.72299274330E+01	-1.77577581598E+02	-6.08796268282E+00	-2.92564842241E-01
3.10138848399E+05	-1.06314446091E+01	-1.24684761680E+02	7.73145414089E+00	-1.76868905993E+02	-5.37677610968E+01	-1.59741130768E+02	-6.07157421917E+00	6.32260765889E-02
3.10363022365E+05	-2.85305758035E+01	-2.89822090861E+01	7.58438492267E+00	-1.77786115959E+02	-3.92495198239E+01	-1.44703167856E+02	-6.09322701872E+00	-1.77370143055E-01
3.10587358368E+05	-2.03328950902E+01	5.21101790550E+01	7.47781378217E+00	-1.78047926535E+02	-3.64983255676E+01	1.41184375269E+02	-6.06442437735E+00	-6.55027073555E-02
3.10811856525E+05	-2.08921246823E+01	4.05725553158E+01	7.58034955370E+00	-1.77964368510E+02	-2.89955838068E+01	1.71952381752E+02	-6.16192258357E+00	9.28346402508E-02
3.11036516954E+05	-3.26767306632E+01	-1.42215515066E+02	7.57904244012E+00	-1.77531700903E+02	-4.87528318221E+01	-1.02978203944E+02	-6.05506154028E+00	-2.40566002756E-01
3.11261339771E+05	-1.50228129679E+01	1.86267180427E+01	7.51698351172E+00	-1.78080857911E+02	-4.22741068377E+01	-1.36551797795E+01	-6.00482323511E+00	-3.76826648320E-01
3.11486325094E+05	-1.49583087162E+01	-6.79128967590E+01	7.48709878829E+00	-1.77320147100E+02	-4.55020109985E+01	-1.24121554234E+02	-5.98463782421E+00	-2.23888808492E-01
3.11711473040E+05	-6.31854633057E+00	3.51389776410E+01	7.33483668817E+00	-1.78757467057E+02	-4.11792904413E+01	-7.57466352012E+01	-6.02217930904E+00	-4.47799416050E-01
3.11936783728E+05	-1.62436100595E+01	2.42002124077E+01	7.51506093132E+00	-1.78161675505E+02	-4.96940078827E+01	8.47028222854E+01	-6.06668504613E+00	-9.04060956836E-02
3.12162257274E+05	-1.31852914834E+01	3.21617791279E+01	7.50570776192E+00	-1.78421216086E+02	-5.57403705851E+01	6.78876645951E+00	-6.01538489556E+00	6.45585742909E-02
3.12387893797E+05	-2.39362129439E+01	-5.02320537065E+01	7.52215165631E+00	-1.77595972804E+02	-3.37064671854E+01	-3.45916147988E+01	-5.97356225738E+00	-2.79873715680E-01
3.12613693413E+05	-2.73257420463E+01	1.66525226116E+02	7.60362670227E+00	-1.77740036896E+02	-3.87506494790E+01	-7.76903656021E+00	-6.02053400195E+00	-4.13280238349E-01
3.12839656242E+05	-1.95109788464E+01	2.16153476684E+01	7.48387646968E+00	-1.78112232130E+02	-3.91776033485E+01	-1.62889050048E+02	-6.08666669823E+00	-3.66414153202E-01
3.13065782401E+05	-1.37341787021E+01	-4.60485435424E+00	7.52674096659E+00	-1.77687735901E+02	-3.82006016925E+01	-1.73849413013E+02	-6.04253778779E+00	-1.25435819174E-01
3.13292072007E+05	-1.37826396998E+01	8.46316914739E+01	7.54485176704E+00	-1.78857626442E+02	-3.70609056584E+01	5.34960380145E+01	-5.98545395444E+00	-2.41567570323E-01
3.13518525180E+05	-1.13966397099E+01	-3.53102036991E+01	7.39224043417E+00	-1.76796536344E+02	-3.81529572489E+01	-1.77097084066E+02	-6.05721094338E+00	1.10999514741E-01
3.13745142038E+05	-1.76307380042E+01	-7.20452209808E+01	7.55346971571E+00	-1.77610054073E+02	-3.22139094786E+01	-6.97118410413E+01	-6.02790637276E+00	-6.67764963064E-01
3.13971922698E+05	-1.85236543897E+01	6.05864982139E+01	7.51079279620E+00	-1.78067183700E+02	-3.14992441299E+01	1.59753625795E+02	-6.15427416789E+00	5.93973084234E-03
3.14198867279E+05	-1.90166704302E+01	8.46271757232E+01	7.66212762161E+00	-1.77700080758E+02	-4.24938356131E+01	-1.34464005947E+02	-6.10229394159E+00	-4.10114894216E-01
3.14425975900E+05	-1.92961057767E+01	7.01377550075E+01	7.57886164984E+00	-1.78160890815E+02	-5.36748563911E+01	1.06562986368E+02	-6.01386215621E+00	8.60890788877E-02
3.14653248680E+05	-2.77612920172E+01	-6.32735255776E+01	7.53955903549E+00	-1.77419051851E+02	-3.52986392872E+01	-1.02592443176E+02	-6.00790289071E+00	-5.40489371188E-01
3.14880685736E+05	-8.89632003970E+00	7.29125709887E+01	7.53386503746E+00	-1.79676212018E+02	-4.27185809304E+01	6.97358454346E+01	-6.03587982957E+00	3.91027182542E-02
3.15108287188E+05	-4.65349262344E+00	-2.38196067131E+01	7.22378856619E+00	-1.76301928843E+02	-3.92743536392E+01	-7.38316705224E+00	-6.06237797750E+00	-7.06212976414E-02
3.15336053154E+05	-1.56481150828E+01	-6.23571132303E+00	7.50549579134E+00	-1.77779793140E+02	-3.11132138446E+01	-7.08244826882E+01	-6.02626439280E+00	-1.13634439846E+00
3.15563983753E+05	-2.42866191904E+01	4.73154573520E+01	7.63980836056E+00	-1.77734524350E+02	-3.13689732156E+01	8.93085612400E+01	-6.03979626191E+00	4.13587266549E-01
3.15792079105E+05	-2.31923190233E+01	-2.73470190851E+01	7.56864412424E+00	-1.77936605118E+02	-3.79304231597E+01	-1.25100790064E+01	-6.00444583161E+00	-1.54231515246E-01
3.16020339328E+05	-2.13149540352E+01	6.80148970022E+01	7.58053720381E+00	-1.78137104416E+02	-3.82499193452E+01	-4.36639070180E+01	-6.00694748199E+00	-6.20027283898E-01
3.16248764542E+05	-1.96449417538E+01	1.22813687763E+02	7.60773246626E+00	-1.77964860376E+02	-3.57828128622E+01	-1.00348470008E+02	-6.09442113619E+00	-5.68406439770E-01
3.16477354866E+05	-2.23279831408E+01	3.30455085421E+01	7.49984853952E+00	-1.78355936391E+02	-3.66352648750E+01	1.03013034051E+02	-6.06586533883E+00	1.00635576589E-01
3.16706110419E+05	-1.16961170859E+01	3.73361410172E+01	7.44413524284E+00	-1.78515824926E+02	-4.31765220388E+01	-8.62685675156E+01	-6.01827270708E+00	-3.52183103073E-01
3.16935031321E+05	-2.56232400274E+01	1.21072595688E+02	7.54234829867E+00	-1.77677483427E+02	-3.81416790432E+01	-4.73936550553E+01	-6.01321554164E+00	-3.50449589459E-01
3.17164117691E+05	-3.00008142280E+01	-8.99937092831E+01	7.58483109987E+00	-1.77822917387E+02	-3.36437796996E+01	-3.10869916081E+01	-5.97434407678E+00	-3.16788941711E-01
3.17393369648E+05	-1.86956391372E+01	9.07168635166E+01	7.64729846082E+00	-1.78282174430E+02	-3.48348737173E+01	-1.05666704176E+02	-6.01937537755E+00	-1.21616016915E-05
3.17622787313E+05	-1.36691072459E+01	3.72526603193E-01	7.43366923049E+00	-1.77295249286E+02	-3.63922037514E+01	3.11013522352E+01	-6.02150728481E+00	-1.19560869847E-01
3.17852370806E+05	-2.53418238418E+01	1.37023714409E+02	7.58687053239E+00	-1.78075615930E+02	-4.22198329359E+01	-3.44954699005E+01	-5.97192141154E+00	-2.77861954854E-01
3.18082120245E+05	-1.38904110213E+01	3.27164346610E+01	7.43722431597E+00	-1.78503623187E+02	-4.42628535010E+01	-1.43682950212E+02	-6.07803398457E+00	-6.63022842327E-01
3.18312035752E+05	-2.29924429713E+01	1.07286626724E+02	7.54675029703E+00	-1.77777339410E+02	-3.73936687700E+01	-1.66792595991E+02	-6.06534483033E+00	-1.60147744754E-01
3.18542117445E+05	-2.30452947058E+01	-2.91445736568E+01	7.58640610632E+00	-1.77796313912E+02	-3.23046353295E+01	-1.30179446247E+02	-6.06219276267E+00	-5.79717372475E-01
3.18772365446E+05	-2.00547131105E+01	1.19011549976E+02	7.56080663034E+00	-1.78255224541E+02	-3.27634079114E+01	1.91327759307E+01	-5.95559015792E+00	-4.95391725526E-01
3.19002779874E+05	-1.94516234961E+01	5.06200451495E+01	7.50995600799E+00	-1.77820519235E+02	-4.46568097931E+01	6.87000031551E+01	-6.00721503327E+00	-1.96582069097E-01
3.19233360850E+05	-2.66928495448E+01	-4.61943653954E+00	7.60268965987E+00	-1.77889616662E+02	-3.61660419385E+01	-9.71906863686E+01	-6.04097960671E+00	-6.29524894365E-01
3.19464108494E+05	-1.84089174807E+01	4.21361443953E+01	7.49604387047E+00	-1.78406767933E+02	-3.26076506887E+01	-1.29786135990E+02	-6.06535557854E+00	-7.09639573231E-01
3.19695022927E+05	-1.41724591837E+01	-1.36809861071E+02	7.64717256157E+00	-1.76955664069E+02	-3.70247450057E+01	1.77906433847E+02	-6.08976515186E+00	8.22015808703E-03
3.19926104268E+05	-2.43147764001E+01	1.42017233837E+02	7.61885059946E+00	-1.78044277024E+02	-3.80527512512E+01	-1.08926154252E+02	-5.96197642982E+00	-5.65759350573E-01
3.20157352640E+05	-2.74624683941E+01	7.09218394238E+00	7.49505137557E+00	-1.78334847719E+02	-3.01453425482E+01	8.34414211136E+01	-6.05420509861E+00	8.21854145436E-01
3.20388768162E+05	-2.72546411522E+01	-2.05739346928E+01	7.59253628860E+00	-1.77985230501E+02	-3.69824093350E+01	-1.01250549163E+02	-6.04918530537E+00	-4.73111597833E-01
3.20620350955E+05	-1.71349301930E+01	2.89186609896E+01	7.56342694358E+00	-1.77974266772E+02	-4.27262071519E+01	-1.06286248794E+02	-6.05654463863E+00	-3.72936378553E-01
3.20852101140E+05	-1.24687548895E+01	6.72184500389E+01	7.50514570216E+00	-1.78940667188E+02	-3.64850321256E+01	-1.37322780523E+02	-6.06264630261E+00	-2.37432131386E-01
3.21084018839E+05	-2.06016084087E+01	1.07150161060E+02	7.58598703491E+00	-1.78767886796E+02	-3.74012682784E+01	1.46395903556E+02	-6.05427311035E+00	-2.69239952085E-01
3.21316104172E+05	-1.89923570001E+01	1.49663125121E+01	7.51838472643E+00	-1.77754985700E+02	-4.38022169259E+01	-1.49041178027E+02	-6.07965024111E+00	-3.21410125375E-01
3.21548357261E+05	-1.52685539357E+01	-7.88877776305E+01	7.54851524194E+00	-1.77105283612E+02	-3.56548209332E+01	1.31196473201E+02	-6.04827346556E+00	-1.29493865802E-01
3.21780778226E+05	-2.35439537206E+01	-5.55266458927E+01	7.52644825984E+00	-1.77829800851E+02	-4.03175592946E+01	9.56631135339E+01	-6.01026275089E+00	1.27570004761E-01
3.22013367189E+05	-2.28446455209E+01	7.44481853919E+01	7.57833198086E+00	-1.78112388720E+02	-3.72569177385E+01	3.28043656361E+01	-5.98023530283E+00	1.24561930323E-01
3.22246124272E+05	-2.32430438971E+01	-5.94823550841E+01	7.57791259598E+00	-1.77385387950E+02	-4.59199894195E+01	7.70915166038E+01	-6.02280145048E+00	-2.61660439022E-01
3.22479049596E+05	-1.95162289060E+01	4.56399202855E+01	7.52033488000E+00	-1.78426653575E+02	-3.81912833449E+01	1.74044610525E+02	-6.04138559526E+00	-1.28628542617E-01
3.22712143282E+05	-1.38858479479E+01	6.41229371292E+01	7.50424953755E+00	-1.78659353758E+02	-4.07464080044E+01	-2.30671863368E+01	-6.00591746849E+00	-4.34562443741E-01
3.22945405453E+05	-2.42518941929E+01	2.45831677437E+01	7.56000117615E+00	-1.78140488600E+02	-5.99441745653E+01	-3.86343625272E+01	-6.04588677391E+00	-2.52369364368E-01
3.23178836230E+05	-1.27987778901E+01	7.61727043664E+01	7.54596153553E+00	-1.79082172715E+02	-5.11276151204E+01	1.11713149482E+02	-6.03534516509E+00	-3.33471048753E-02
3.23412435735E+05	-2.31317582795E+01	3.50897115524E+01	7.44688593668E+00	-1.78054744860E+02	-3.21991391182E+01	-5.23244175036E+01	-5.98951532197E+00	-5.55482528454E-01
3.23646204090E+05	-2.10936563399E+01	-2.39625469259E+01	7.53523866097E+00	-1.77937884580E+02	-3.30946454259E+01	-1.31868011964E+02	-6.14604401490E+00	-8.75234418648E-01
3.23880141417E+05	-1.53241239711E+01	2.18754216999E+01	7.51545714923E+00	-1.78004218911E+02	-5.16273783918E+01	-1.59154678626E+01	-6.04366403369E+00	-1.13929766286E-01
3.24114247838E+05	-2.33663057684E+01	1.20696908891E+02	7.63492962823E+00	-1.78236512094E+02	-3.48130263141E+01	8.32474685289E+01	-6.03047259913E+00	-7.67721232313E-02
3.24348523475E+05	-1.91219206784E+01	-3.65427319153E+01	7.53933216090E+00	-1.77807866984E+02	-4.30745393541E+01	1.21837376205E+02	-6.08112590483E+00	8.44813035052E-02
3.24582968451E+05	-1.47819281096E+01	-8.14676494409E+01	7.54398463627E+00	-1.77253389270E+02	-3.84936808973E+01	7.60904943782E+01	-5.98781900616E+00	-1.06200457142E-02
3.24817582888E+05	-1.75937477672E+01	9.01840116077E+01	7.60536392767E+00	-1.78724235448E+02	-3.60773887218E+01	8.28598282613E+01	-6.02413276496E+00	1.97870066559E-01
3.25052366909E+05	-2.46248232931E+01	-1.49383293441E+02	7.62026585041E+00	-1.77562757693E+02	-3.95234864340E+01	5.38152681436E+01	-6.00897270809E+00	-2.31969825034E-01
3.25287320635E+05	-2.13194054465E+01	8.36119153499E+01	7.59330099718E+00	-1.78601745928E+02	-3.16487260372E+01	1.75062595662E+02	-6.18880843102E+00	-1.83382413361E-01
3.25522444191E+05	-1.40097937705E+01	1.16875971749E+02	7.61580879947E+00	-1.78515995666E+02	-3.16360617113E+01	1.62226620895E+02	-6.12187354438E+00	8.98368689441E-03
3.25757737698E+05	-1.94059505891E+01	4.57272423298E+01	7.56611952236E+00	-1.78234796768E+02	-3.43250364062E+01	3.30821886728E+01	-5.99733525229E+00	-3.28596226919E-01
3.25993201280E+05	-3.24581311432E+01	6.02046110460E+01	7.60322588151E+00	-1.77714630372E+02	-3.99657911649E+01	2.61120567467E+01	-5.99781250107E+00	-5.27109731896E-01
3.26228835058E+05	-1.52818239846E+01	5.72022343377E+01	7.55531700532E+00	-1.78821458452E+02	-3.95603756302E+01	-2.68009281388E+01	-5.96566810294E+00	-2.06169468810E-01
