# Hz S DB R 50
! CMT, M5065, 19127446, 24.2.4/2
! Date: 11/1/2024 3:05:08 PM
! Data: Format (Calibration Info)
! Freq	S11:dB/Ang(F2)	S21:dB/Ang(F2)	S12:dB/Ang(F2)	S22:dB/Ang(F2)
3.00000000000E+05	-1.51843500094E+01	3.39023420035E+01	4.83334167856E+00	-1.78197667851E+02	-3.86447024262E+01	-5.32119981776E+01	-6.00030977179E+00	-3.86502547449E-01
3.00216845423E+05	-2.18931109990E+01	2.69478256036E+00	4.89197229715E+00	-1.77596530242E+02	-4.72880366038E+01	-1.66942700441E+02	-6.05409922871E+00	-1.89446379739E-01
3.00433847586E+05	-1.61608924041E+01	6.10026666314E+00	4.83035471356E+00	-1.77862129970E+02	-5.97278385352E+01	1.65827731946E+02	-6.05749563700E+00	-1.11684455987E-01
3.00651006602E+05	-2.54482454208E+01	3.72073303091E+01	4.89228738514E+00	-1.78112559250E+02	-4.26712825794E+01	-7.55742772005E+00	-6.02134837665E+00	-1.30552551469E-01
3.00868322584E+05	-1.90367851584E+01	4.70541258946E+01	4.87408650609E+00	-1.78068228513E+02	-4.17921927523E+01	1.31650167175E+02	-6.05287605756E+00	-1.83496088125E-01
3.01085795647E+05	-2.33663281971E+01	4.88373907185E+01	4.89167211993E+00	-1.78154278990E+02	-4.07151355424E+01	1.44073087735E+02	-6.08285971638E+00	-8.21374447171E-02
3.01303425902E+05	-1.88681421137E+01	6.57260762711E+01	4.87314309141E+00	-1.77899224985E+02	-3.92391219772E+01	1.63223135764E+02	-6.07316235821E+00	-1.39404443672E-01
3.01521213465E+05	-2.86323503167E+01	-1.79305343169E+02	4.96151144445E+00	-1.77533271292E+02	-2.86154197246E+01	1.10169058496E+02	-6.09530773961E+00	2.08156888588E-01
3.01739158449E+05	-2.04799912862E+01	5.44776999660E+01	4.81242226673E+00	-1.78300229458E+02	-4.17874379362E+01	-9.35617678597E+01	-6.04658503039E+00	-2.63074675089E-01
3.01957260967E+05	-2.45906949510E+01	2.88143271384E+01	4.93190782511E+00	-1.77929060687E+02	-6.60789843575E+01	7.33304048674E+01	-6.02793616853E+00	-1.72277702575E-01
3.02175521134E+05	-1.89881610972E+01	1.20229288195E+01	4.89081854832E+00	-1.78088608550E+02	-4.01872554861E+01	-1.53150958888E+02	-6.08417529693E+00	-3.20242632943E-01
3.02393939063E+05	-1.82793243819E+01	4.80876049730E+01	4.79538908328E+00	-1.77836240932E+02	-3.25457237330E+01	1.57634570110E+02	-6.10095563073E+00	2.09084081701E-01
3.02612514869E+05	-2.54381985151E+01	1.70293079170E+01	4.93194475369E+00	-1.77477397991E+02	-4.86100790218E+01	5.74605124430E+01	-6.03532150938E+00	-2.61566604101E-01
3.02831248665E+05	-1.94311652766E+01	3.92201067597E+01	4.87014205002E+00	-1.77672624969E+02	-4.37927173986E+01	6.05212885238E+01	-6.01699720923E+00	-6.84723173848E-02
3.03050140565E+05	-2.15272540180E+01	2.99715647973E+01	4.90223596898E+00	-1.77770978516E+02	-3.88379355464E+01	8.16760890352E+01	-6.04430491983E+00	1.12454616589E-01
3.03269190685E+05	-1.59085160852E+01	-5.37283329584E+01	4.87071802723E+00	-1.76753789006E+02	-3.65919470995E+01	-2.01129572403E+01	-5.99664855125E+00	-3.00578944920E-01
3.03488399138E+05	-1.67430235356E+01	5.30672601980E+01	4.89831493186E+00	-1.77890634810E+02	-4.32197525009E+01	1.16159995646E+02	-6.07421716583E+00	-1.33328460227E-01
3.03707766039E+05	-2.28645552173E+01	7.64336316931E+01	4.91580462811E+00	-1.78051628200E+02	-4.04849424035E+01	-2.14596809782E+01	-6.04302858967E+00	-3.73112840197E-02
3.03927291503E+05	-1.63202363098E+01	6.84868488557E+01	4.86115290893E+00	-1.78378635453E+02	-4.39985512037E+01	-1.32254403128E+02	-6.07062149147E+00	-2.94621379401E-01
3.04146975643E+05	-1.58957124668E+01	-1.62631003544E+02	5.01272766325E+00	-1.77418000456E+02	-3.42701401418E+01	-1.07357208193E+02	-6.04581012770E+00	-4.61329133080E-01
3.04366818575E+05	-2.47841703255E+01	7.37445332362E+01	4.96161886258E+00	-1.77909737343E+02	-5.23538288504E+01	-1.38469579942E+02	-6.05380710928E+00	-2.95538369938E-02
3.04586820414E+05	-1.79297088118E+01	-1.03718525332E+01	4.86557302979E+00	-1.77601910377E+02	-3.93223105008E+01	-9.66288657011E+01	-6.03089405669E+00	-3.19408903740E-01
3.04806981274E+05	-1.83498837029E+01	7.02998803274E+01	4.88378114131E+00	-1.78467406441E+02	-3.34510413252E+01	-1.06236307028E+02	-6.04299408058E+00	-4.76992566617E-01
3.05027301270E+05	-4.06737233747E+01	1.22636795282E+02	4.99463451280E+00	-1.77866372409E+02	-3.67626265207E+01	3.43023635008E+01	-5.98710265715E+00	-3.90822764027E-02
3.05247780517E+05	-1.47691753563E+01	7.67223911535E+00	4.79072565079E+00	-1.77798449593E+02	-4.79262481361E+01	-1.06276307040E+01	-6.05523143730E+00	-2.94457026975E-01
3.05468419131E+05	-3.25352530508E+01	-1.10581625033E+02	4.91906937173E+00	-1.77845652405E+02	-4.44817265804E+01	7.53427809862E+01	-6.05854437003E+00	-1.67505064948E-01
3.05689217226E+05	-1.35512741996E+01	3.06124832994E+01	4.87046462940E+00	-1.78278752695E+02	-3.78813635271E+01	2.96408647144E+01	-6.01613470347E+00	1.64369074695E-01
3.05910174918E+05	-3.42327274160E+01	8.84192718366E+00	4.98798383201E+00	-1.77631684735E+02	-5.24187166027E+01	2.99258048170E+00	-6.02410028891E+00	-2.85315620012E-01
3.06131292322E+05	-1.39333393612E+01	-4.55833833465E-01	4.81114362993E+00	-1.77675135027E+02	-4.05328087430E+01	2.75374431037E+01	-6.01352267499E+00	-3.45200486860E-01
3.06352569554E+05	-1.81953269069E+01	-1.43533044861E+01	4.85420265749E+00	-1.77644761373E+02	-4.58252394050E+01	1.01284119550E+01	-6.02347659421E+00	-3.31057166057E-02
3.06574006730E+05	-2.20824340764E+01	-1.04946402505E+02	4.98827598654E+00	-1.77582710242E+02	-4.27575715801E+01	3.54046393528E+01	-6.05878933374E+00	-2.94470384158E-01
3.06795603964E+05	-1.30109628419E+01	1.82046949357E+01	4.80704462783E+00	-1.77967065537E+02	-4.39145891882E+01	3.89114380714E+01	-6.01889822020E+00	-9.18798778336E-02
3.07017361372E+05	-2.15301948631E+01	5.82765762604E+01	4.91371031076E+00	-1.78157853928E+02	-4.93960806657E+01	1.02392498200E+02	-6.03782409898E+00	-1.25266961417E-01
3.07239279071E+05	-2.10891026235E+01	4.54987538342E+01	4.87887487857E+00	-1.78164363659E+02	-5.02114636888E+01	1.25090828782E+02	-6.04885394236E+00	-2.56801288898E-01
3.07461357176E+05	-1.75210724902E+01	1.82812406140E+01	4.79353129000E+00	-1.78316696536E+02	-3.18487223919E+01	-3.23436651912E+01	-5.99371167466E+00	-3.95913641045E-01
3.07683595803E+05	-1.94849307755E+01	5.18650738065E+01	4.84611608927E+00	-1.78061714407E+02	-4.08015016448E+01	-1.79874728402E+02	-6.06881939110E+00	-3.46468976925E-01
3.07905995068E+05	-2.01068942749E+01	2.42563249848E+01	4.93356276929E+00	-1.78154645867E+02	-4.26875875353E+01	1.44153410083E+02	-6.04794118600E+00	-2.40289823840E-01
3.08128555087E+05	-3.29922939087E+01	-1.37949204468E+02	4.93499720733E+00	-1.77705030138E+02	-4.02310186301E+01	-1.50272561383E+02	-6.02561618692E+00	-2.59956453710E-01
3.08351275976E+05	-1.56340592831E+01	-1.29443788778E+02	5.07993938636E+00	-1.77114859106E+02	-3.85034650908E+01	-2.85246395048E+01	-6.02705024379E+00	-1.39240172949E-01
3.08574157853E+05	-2.71914510313E+01	1.37425170700E+02	4.96592091554E+00	-1.77907292670E+02	-3.54535233683E+01	-4.05315762132E+01	-6.01254416488E+00	-3.19164773150E-01
3.08797200832E+05	-2.04089388569E+01	1.82406519460E+01	4.94129106560E+00	-1.77905738127E+02	-4.00652313586E+01	1.82944031963E+01	-6.02940204958E+00	-1.59201301285E-01
3.09020405031E+05	-1.99215739177E+01	4.93226646499E+01	4.91917284651E+00	-1.78213203569E+02	-3.59470987881E+01	-5.55888439882E+01	-6.03613834667E+00	-4.83423275765E-01
3.09243770566E+05	-8.19413903486E+00	4.25027240905E+01	4.70059244228E+00	-1.79332885905E+02	-3.97000904936E+01	-1.09274489767E+01	-6.00706020550E+00	-2.46784337410E-01
3.09467297553E+05	-1.85499409906E+01	2.93243865293E+01	4.85441602271E+00	-1.78266585662E+02	-3.77214806240E+01	1.33821621534E+02	-6.04792123361E+00	-2.35831197892E-01
3.09690986110E+05	-1.83124661794E+01	7.79072341759E+01	4.90305035835E+00	-1.78195935140E+02	-5.48623755950E+01	5.34687074898E+01	-6.03723089185E+00	-1.70176572412E-01
3.09914836353E+05	-2.01271375472E+01	-5.37311549462E+00	4.89146646574E+00	-1.77673188456E+02	-3.41691248295E+01	-4.73072026832E+01	-5.98801456231E+00	-7.19778077816E-01
3.10138848399E+05	-2.21098104283E+01	-2.80267535292E+01	4.87896735842E+00	-1.77337793871E+02	-3.57196952239E+01	1.65053638691E+02	-6.08781327435E+00	-2.17317875297E-01
3.10363022365E+05	-3.15021440663E+01	8.95558136938E+01	4.92609478697E+00	-1.77907146592E+02	-4.86648476601E+01	8.14256396164E+01	-6.04768368331E+00	-2.29829802823E-01
3.10587358368E+05	-1.72513593532E+01	4.07269448174E+01	4.89012008313E+00	-1.77980358217E+02	-4.62902258390E+01	2.70944015196E+01	-6.03922454411E+00	-9.54930822104E-02
3.10811856525E+05	-1.35835394869E+01	-2.53720624691E+01	4.82281946302E+00	-1.77299419573E+02	-3.66433105187E+01	-5.24777028770E+01	-6.00864757874E+00	-3.45697196624E-01
3.11036516954E+05	-1.64337811633E+01	7.78249846693E+01	4.93455202084E+00	-1.78166294732E+02	-4.26893018102E+01	1.42816377469E+02	-6.03798060055E+00	-4.50827093786E-02
3.11261339771E+05	-2.20706969429E+01	8.53346463029E+01	4.92578805573E+00	-1.78199585745E+02	-3.86468648084E+01	1.72203819389E+01	-6.00834290650E+00	-1.55185144378E-01
3.11486325094E+05	-2.58683829790E+01	5.26816064983E+01	4.93552882737E+00	-1.77940415753E+02	-3.79534351161E+01	-2.09798672792E+01	-6.00930729828E+00	-2.47883226343E-01
3.11711473040E+05	-1.54164252562E+01	5.06632963845E+01	4.85805665910E+00	-1.77830101060E+02	-3.17399873682E+01	6.27784802423E+01	-5.99654235817E+00	2.05052176109E-01
3.11936783728E+05	-1.90603274473E+01	8.16805315544E+01	4.95248792040E+00	-1.77893850373E+02	-4.16480569440E+01	-2.84057252999E+01	-6.03818513297E+00	-8.74879176738E-02
3.12162257274E+05	-1.96337532716E+01	6.01914492764E+01	4.89215822616E+00	-1.78183450208E+02	-4.87959272060E+01	-3.25528444097E+01	-6.05029096488E+00	-1.54377139727E-01
3.12387893797E+05	-2.53357855171E+01	-6.40555504603E+00	4.84406408880E+00	-1.77748222142E+02	-4.81659031219E+01	7.78371673034E+01	-6.05666143402E+00	-2.41223155152E-01
3.12613693413E+05	-1.40380513545E+01	4.23126658841E+01	4.87872756991E+00	-1.78221349681E+02	-3.73007219407E+01	5.03355165366E+01	-6.01861419485E+00	-7.40301197377E-02
3.12839656242E+05	-2.16635284009E+01	-1.64273785469E+01	4.80551837063E+00	-1.77773004372E+02	-3.66221187725E+01	6.49309194470E+01	-6.02768555770E+00	-1.33323873007E-01
3.13065782401E+05	-1.93971615023E+01	6.37379198686E+01	4.94458630180E+00	-1.77941898274E+02	-4.00261455812E+01	-8.99483855842E+01	-6.04807614246E+00	-2.82529516610E-01
3.13292072007E+05	-2.05867647006E+01	2.79236421874E+01	4.81169252550E+00	-1.78160340650E+02	-3.70886369284E+01	-6.41632210101E+01	-6.00741869789E+00	-3.75397767015E-01
3.13518525180E+05	-2.53561418078E+01	7.51590056063E+01	4.92422881138E+00	-1.78123234812E+02	-3.09900006917E+01	-1.38453881469E+02	-6.11861586491E+00	-5.20343868854E-01
3.13745142038E+05	-2.51519767556E+01	2.16693167932E+01	4.89958298769E+00	-1.77776741509E+02	-3.91636648746E+01	4.15914316391E+01	-6.02765565761E+00	-1.02184396861E-01
3.13971922698E+05	-1.69647615948E+01	5.98511364274E+01	4.87585111613E+00	-1.78533204194E+02	-4.72234132958E+01	1.33638760467E+02	-6.03196091378E+00	-1.06964597423E-01
3.14198867279E+05	-1.69708064064E+01	1.84650365592E+01	4.89823416137E+00	-1.77899227851E+02	-3.88049537601E+01	-1.43706763807E+02	-6.07198128703E+00	-3.66325227323E-01
3.14425975900E+05	-1.71794930064E+01	1.42792698592E+02	5.06006538284E+00	-1.78602540762E+02	-3.61299425917E+01	1.36413202345E+02	-6.06876884189E+00	6.80301071344E-02
3.14653248680E+05	-1.73591156561E+01	1.56612842692E+01	4.84956223032E+00	-1.77920606731E+02	-4.59307675790E+01	-1.59642706116E+02	-6.06225518999E+00	-1.30341684839E-01
3.14880685736E+05	-1.67037075277E+01	4.65923419663E+01	4.80146138997E+00	-1.78212100984E+02	-5.17598904995E+01	4.58600867034E+01	-6.04859263484E+00	-1.53508009181E-01
3.15108287188E+05	-2.14174241569E+01	1.28204929252E+01	4.87227209243E+00	-1.77996179934E+02	-4.11033872937E+01	4.98496699779E+01	-6.01937375017E+00	-1.49552637093E-01
3.15336053154E+05	-1.10922889096E+01	8.42267234197E+01	4.90490742295E+00	-1.79172477454E+02	-3.72915656868E+01	4.86629531681E+01	-6.00486802289E+00	1.17147983529E-01
3.15563983753E+05	-2.09383796207E+01	8.18666661215E+01	4.85062741004E+00	-1.77790849222E+02	-4.36078674673E+01	-4.23485225409E+01	-6.01228002808E+00	-2.68498865276E-01
3.15792079105E+05	-3.49157123515E+01	8.47538547411E+01	4.95165229584E+00	-1.78226564677E+02	-5.84829259266E+01	1.22087686545E+02	-6.03211782427E+00	-2.36601125003E-01
3.16020339328E+05	-1.77699377091E+01	1.30579860461E+02	4.95338523804E+00	-1.78191019172E+02	-4.00528531597E+01	1.05443609565E+02	-6.04025722795E+00	-3.36316417393E-02
3.16248764542E+05	-2.30431041562E+01	1.34812214483E+01	4.89440310270E+00	-1.77925413705E+02	-4.66709733213E+01	-5.05685760420E+01	-6.03634778237E+00	-2.39022354645E-01
3.16477354866E+05	-1.87738015348E+01	3.40692766924E+01	4.87445460826E+00	-1.78231353511E+02	-4.12933482455E+01	-3.29629522423E+01	-6.03016753097E+00	-4.43788197528E-01
3.16706110419E+05	-2.06677987542E+01	1.45296791522E+01	4.87164129142E+00	-1.77879004452E+02	-4.20979797486E+01	1.71097308468E+02	-6.05096987026E+00	-2.62478117065E-01
3.16935031321E+05	-2.05278439018E+01	8.64563720432E+01	4.92119712511E+00	-1.78351127761E+02	-4.10836459105E+01	4.25415219563E+01	-6.04563621754E+00	-1.96488158995E-01
3.17164117691E+05	-2.21039573993E+01	-1.10573356352E+01	4.85665069489E+00	-1.77869426347E+02	-4.45031401384E+01	1.43702876478E+02	-6.08841571263E+00	-1.25054716944E-01
3.17393369648E+05	-1.84744561864E+01	1.60783595692E+01	4.82911927771E+00	-1.78233119054E+02	-4.81810710708E+01	1.67465935133E+02	-6.05096646801E+00	-1.33862477207E-01
3.17622787313E+05	-3.07357403834E+01	-6.97023676782E+00	4.93286370375E+00	-1.77757859730E+02	-5.22998748523E+01	8.02323051681E+01	-6.04846386764E+00	-3.85629320897E-01
3.17852370806E+05	-1.49479420020E+01	-5.22648533234E+01	4.86693754682E+00	-1.77443715872E+02	-4.01623314354E+01	-1.47913270352E+02	-6.07069235647E+00	-3.35303883724E-01
3.18082120245E+05	-2.09504593992E+01	6.70160528711E+01	4.89883921685E+00	-1.78413622542E+02	-3.80065862413E+01	-5.93630873439E+01	-6.02867726655E+00	-3.51689192478E-01
3.18312035752E+05	-2.82888110828E+01	-2.18552147250E+01	4.88420012348E+00	-1.77951162713E+02	-4.11097618827E+01	-8.53798772512E+01	-6.01519693359E+00	-3.38263303914E-01
3.18542117445E+05	-3.01981619774E+01	-3.11675089183E+01	4.94795311879E+00	-1.77950934084E+02	-4.16767681302E+01	3.82418196433E+01	-6.04629838868E+00	-1.32352611143E-01
3.18772365446E+05	-1.31772512511E+01	3.97172128408E+01	4.82375674371E+00	-1.78497083684E+02	-4.53973400526E+01	-1.46471606905E+02	-6.06485122501E+00	-3.88332621002E-01
3.19002779874E+05	-1.57812551749E+01	3.38599605059E+01	4.83545467468E+00	-1.78458732339E+02	-4.15855707424E+01	3.15454083754E+00	-6.04856001264E+00	-2.14791808365E-01
3.19233360850E+05	-1.69631505652E+01	6.20425379293E+01	4.90283311542E+00	-1.78601626339E+02	-4.54350947075E+01	6.94074200516E+01	-6.01985707866E+00	-3.01418831355E-01
3.19464108494E+05	-1.50813298607E+01	-5.29579982230E+00	4.82242187264E+00	-1.77919612676E+02	-5.10282550118E+01	-7.32294303583E+01	-6.06119832148E+00	-1.52236691691E-01
3.19695022927E+05	-1.22362355951E+01	-7.72600798114E-01	4.79618625339E+00	-1.77876695403E+02	-3.74125148458E+01	-7.77334722231E+01	-6.07005137333E+00	-4.87035544314E-01
3.19926104268E+05	-3.45352762267E+01	-8.54312573941E+01	4.93487937810E+00	-1.77994403609E+02	-5.24106223406E+01	-1.01248885866E+02	-6.05826564745E+00	-4.54375288612E-01
3.20157352640E+05	-2.22276386472E+01	1.00708878035E+00	4.93566790620E+00	-1.77835069235E+02	-4.59735845450E+01	1.54585463820E+02	-6.03474050855E+00	-2.06576308352E-01
3.20388768162E+05	-1.93384809180E+01	6.20279188476E+01	4.92977549116E+00	-1.77982782894E+02	-4.09818816960E+01	4.42390873914E+01	-6.04961754119E+00	-1.98868579886E-01
3.20620350955E+05	-1.07541073730E+01	1.10560335023E+02	5.04442279776E+00	-1.79216670998E+02	-4.03981626406E+01	-7.12303319781E+01	-6.03405342275E+00	-3.97577658298E-01
3.20852101140E+05	-2.41061741313E+01	5.66114131994E+01	4.91595143985E+00	-1.77961710445E+02	-4.34474605662E+01	-6.13043866354E+01	-6.04188682276E+00	-3.97112691876E-01
3.21084018839E+05	-2.54362125787E+01	6.87468116926E+01	4.88546766726E+00	-1.77970626238E+02	-3.66359131352E+01	-8.21877655994E+01	-6.05648633583E+00	-2.67511894232E-01
3.21316104172E+05	-1.81491988603E+01	5.12467247931E+01	4.93130873824E+00	-1.78043499476E+02	-5.01952284266E+01	-3.11532115698E+01	-6.05352405717E+00	-3.03627408219E-01
3.21548357261E+05	-2.50524503711E+01	-1.58584912289E+02	4.96570351436E+00	-1.77842081896E+02	-3.87209889962E+01	-4.68240149107E+01	-6.04602741425E+00	-2.27253281573E-01
3.21780778226E+05	-2.61710896759E+01	-7.98248742452E+00	4.90985842382E+00	-1.78091900156E+02	-3.93406432349E+01	-1.30541502753E+02	-6.05256454310E+00	-9.07270313475E-02
3.22013367189E+05	-1.77879950643E+01	1.63150839643E+01	4.86574865692E+00	-1.78250463913E+02	-5.47525267381E+01	7.10012869760E+01	-6.04287485578E+00	-2.64769192732E-01
3.22246124272E+05	-2.74801195737E+01	-3.59105032331E+01	4.87088369259E+00	-1.77802058596E+02	-3.71761721737E+01	-1.76761012291E+02	-6.09212627973E+00	-3.43456971261E-01
3.22479049596E+05	-1.92848113106E+01	6.59797848640E+01	4.85027018940E+00	-1.78257783409E+02	-4.89587071510E+01	-1.34438749886E+02	-6.05302565890E+00	-1.84545004682E-01
3.22712143282E+05	-2.48687440658E+01	3.10227415920E+01	4.89672955696E+00	-1.78238279757E+02	-4.70972022638E+01	8.97109134775E+00	-6.03507738018E+00	-1.74484582774E-01
3.22945405453E+05	-1.99638048675E+01	1.92538443583E+01	4.90120018174E+00	-1.77532078005E+02	-3.94120155930E+01	-5.83253830829E+01	-6.01009812408E+00	-3.78814942268E-01
3.23178836230E+05	-1.85090347907E+01	7.12366650718E+01	4.85820705747E+00	-1.78340846409E+02	-3.33812883136E+01	-1.67568787089E+02	-6.08849909408E+00	-1.65068190840E-01
3.23412435735E+05	-3.16921148565E+01	2.09197306480E+01	4.91103857165E+00	-1.78213239038E+02	-4.04352965494E+01	3.80147705057E+01	-6.00925125328E+00	2.79175383139E-02
3.23646204090E+05	-1.82004150976E+01	3.65134148022E+01	4.92083188680E+00	-1.78509661174E+02	-4.18181694701E+01	-2.12285712154E+01	-6.03271590860E+00	-4.54490907539E-01
3.23880141417E+05	-2.21391568223E+01	4.82102116982E+01	4.87405003465E+00	-1.78475172008E+02	-4.14532640125E+01	-1.15242076279E+02	-6.03279002696E+00	-2.61038210965E-01
3.24114247838E+05	-1.35279918795E+01	6.61067619647E+01	4.88612843326E+00	-1.79141029801E+02	-4.84323016248E+01	-1.32203044884E+02	-6.02284650846E+00	-2.85026369598E-01
3.24348523475E+05	-1.87115036559E+01	-8.63724665906E-01	4.81496180452E+00	-1.78178086062E+02	-4.58518034485E+01	-3.08486573822E+01	-6.05243054558E+00	-2.35345404770E-01
3.24582968451E+05	-1.97840577703E+01	-2.22644480282E+01	4.80982174349E+00	-1.77760106415E+02	-3.77033356988E+01	-4.08016347412E+01	-6.02498612546E+00	-2.38950146148E-01
3.24817582888E+05	-1.97303874982E+01	2.02301392426E+01	4.81894089840E+00	-1.78299284779E+02	-4.87831295843E+01	1.10313253150E+02	-6.06274775515E+00	-2.18121281881E-01
3.25052366909E+05	-3.24980985095E+01	2.02779781400E+01	4.91201737730E+00	-1.78116433172E+02	-3.58633008756E+01	4.77163194174E+01	-6.03063561624E+00	1.93567181994E-02
3.25287320635E+05	-1.83897555741E+01	6.33732161895E+01	4.86632727420E+00	-1.78232716374E+02	-4.04956271335E+01	-9.47818545367E+01	-6.04500758618E+00	-2.66820962129E-01
3.25522444191E+05	-2.35409856689E+01	2.28865658957E+01	4.92991201172E+00	-1.78250143352E+02	-4.57854804481E+01	2.36814409109E+01	-6.02432561582E+00	-2.19423408564E-01
3.25757737698E+05	-1.88357786198E+01	9.93013697138E+01	4.91456395333E+00	-1.78152137617E+02	-5.32482644009E+01	-1.77038112231E+02	-6.02990314358E+00	8.36313141445E-03
3.25993201280E+05	-1.53898768620E+01	3.01435848513E+01	4.74837812501E+00	-1.78221670751E+02	-5.13272337000E+01	-7.32014303077E+01	-6.03024118988E+00	-2.92677159071E-01
3.26228835058E+05	-1.91476010111E+01	-3.88110680358E+01	4.89405643661E+00	-1.77896977792E+02	-3.76027454021E+01	-1.77666038369E+02	-6.08560765615E+00	-1.22086273409E-01
