# Hz S DB R 50
! CMT, M5065, 19127446, 24.2.4/2
! Date: 11/1/2024 3:33:03 PM
! Data: Format (Calibration Info)
! Freq	S11:dB/Ang(F2)	S21:dB/Ang(F2)	S12:dB/Ang(F2)	S22:dB/Ang(F2)
3.00000000000E+05	-2.38695634740E+01	1.18730833814E+01	1.10537613399E+01	-1.77405174239E+02	-4.28174321085E+01	-1.47816806814E+02	-6.04521731394E+00	-3.95444043318E-01
3.00216845423E+05	-1.33486878435E+01	1.18782115242E+02	1.11342147230E+01	-1.78395980507E+02	-3.94927349878E+01	3.98584782759E+01	-6.04679264739E+00	-1.09376407698E-01
3.00433847586E+05	-2.28315785002E+01	-6.95146413111E+01	1.11378049795E+01	-1.77247930442E+02	-4.12345766627E+01	-8.22608217093E+01	-6.05685434596E+00	-4.08751020934E-01
3.00651006602E+05	-1.54557376542E+01	-3.01622332532E+01	1.09904210396E+01	-1.77292815425E+02	-4.02328680718E+01	2.66064331808E+01	-5.99335949011E+00	-3.81610870421E-02
3.00868322584E+05	-2.48645459810E+01	-3.03352138346E+01	1.11195259913E+01	-1.77406065046E+02	-4.90203071537E+01	9.76568748726E+01	-6.02910077077E+00	9.62925080089E-02
3.01085795647E+05	-2.07582891921E+01	8.84790673927E+01	1.11137793751E+01	-1.77793999637E+02	-3.27563694928E+01	-1.65016646960E+02	-6.19060002876E+00	-5.70561492088E-01
3.01303425902E+05	-1.88800161657E+01	-2.00103839145E+01	1.10415167581E+01	-1.77381515600E+02	-4.23679891900E+01	1.00161494600E+00	-6.02447183344E+00	-3.64837549853E-01
3.01521213465E+05	-6.22023865862E+00	8.59301275385E+01	1.11318464423E+01	-1.79959453691E+02	-4.40131561035E+01	1.33256062181E+02	-6.05574246634E+00	-4.91594166486E-01
3.01739158449E+05	-1.35512533472E+01	-2.34973394931E+01	1.09461015843E+01	-1.77094484330E+02	-4.78439870763E+01	-6.88823418766E+01	-6.02319431460E+00	-2.04330447743E-01
3.01957260967E+05	-1.77188819993E+01	-2.34745428940E+00	1.10166691536E+01	-1.77707403120E+02	-4.05193490056E+01	-8.16983933346E+01	-6.07215659888E+00	-6.82116502517E-01
3.02175521134E+05	-2.06785537638E+01	9.80932376989E+01	1.11723394908E+01	-1.78000081306E+02	-4.45513863791E+01	9.63713120908E+01	-6.05453690576E+00	5.68742637736E-02
3.02393939063E+05	-1.82833100560E+01	-1.16120487188E+01	1.11011874668E+01	-1.77126262475E+02	-4.15439902987E+01	3.42186689309E+01	-6.02234502457E+00	-1.31068468395E-01
3.02612514869E+05	-1.59849559556E+01	3.44609907653E+01	1.10255696509E+01	-1.77824297144E+02	-3.53246720285E+01	-1.15441075003E+02	-6.06900702988E+00	-6.94378580787E-01
3.02831248665E+05	-2.61348413814E+01	6.23790549417E+01	1.11054603559E+01	-1.77379376310E+02	-2.64838331563E+01	-9.46724621941E+01	-6.02351154434E+00	-1.51617954351E+00
3.03050140565E+05	-2.24363205793E+01	-1.37591545230E+02	1.12093382648E+01	-1.77124814117E+02	-4.14727112486E+01	-7.17397648574E+01	-6.02545612278E+00	-5.81219628695E-01
3.03269190685E+05	-1.57966734902E+01	4.03011894426E+01	1.10221794212E+01	-1.78131601078E+02	-4.09320979120E+01	6.49835730770E+00	-6.02834572616E+00	-1.15219724663E-01
3.03488399138E+05	-1.80615575600E+01	1.07420097055E+01	1.10164804828E+01	-1.77948497140E+02	-4.49047653177E+01	-9.18660514650E+01	-6.03850525759E+00	-3.41381254021E-01
3.03707766039E+05	-2.02785305889E+01	1.04362273242E+02	1.11467975488E+01	-1.77964348045E+02	-4.49367910445E+01	-9.91953387704E+01	-6.06130515299E+00	-6.50330531593E-01
3.03927291503E+05	-2.17196860857E+01	3.49443417389E+01	1.11502355212E+01	-1.78061397115E+02	-3.62771573880E+01	-1.02670119179E+02	-6.03259415484E+00	-6.70133054999E-01
3.04146975643E+05	-1.61145516396E+01	7.20751737307E+01	1.11035160811E+01	-1.78404412604E+02	-3.67580601778E+01	7.45033144164E+01	-6.01147617814E+00	2.40459043711E-01
3.04366818575E+05	-2.67297833165E+01	-7.14723086980E+01	1.11163770618E+01	-1.77469010585E+02	-3.62280402183E+01	1.06392807910E+02	-6.06589593764E+00	1.53583377693E-01
3.04586820414E+05	-1.68790854630E+01	2.55534649639E+01	1.11087525970E+01	-1.78411706623E+02	-4.54293740699E+01	1.75056952538E+02	-6.05903747053E+00	-1.75881350309E-01
3.04806981274E+05	-1.53664506346E+01	5.41391566069E+01	1.10332574336E+01	-1.78395903943E+02	-4.88195854369E+01	-8.67845327045E+01	-6.02148261334E+00	-2.18943933456E-01
3.05027301270E+05	-1.86159275983E+01	1.48915149060E+02	1.12178689502E+01	-1.77544253050E+02	-3.84025054013E+01	-4.00889059437E+01	-5.97763478963E+00	-4.46354163603E-01
3.05247780517E+05	-2.39568568131E+01	3.03237622722E+01	1.10778245699E+01	-1.77810637410E+02	-6.27894911276E+01	1.69545291441E+01	-5.99130938841E+00	-1.12674978408E-01
3.05468419131E+05	-1.59551166243E+01	-2.40523668698E+01	1.10426927542E+01	-1.77418027024E+02	-4.11616461779E+01	1.08022353524E+02	-6.05585807858E+00	-7.71150508103E-02
3.05689217226E+05	-1.39867648381E+01	-3.01068528807E+00	1.10129342299E+01	-1.77615069016E+02	-3.41878596355E+01	-1.68246960598E+02	-6.11784419308E+00	-2.54278085080E-01
3.05910174918E+05	-9.90990199926E+00	2.76498335169E+01	1.09378924170E+01	-1.77983981453E+02	-2.99746030482E+01	-1.68344164856E+02	-6.26458190762E+00	-1.98870218398E-01
3.06131292322E+05	-1.96231669329E+01	-4.90638495483E+01	1.11125937358E+01	-1.77259409694E+02	-3.98781479340E+01	7.87549309744E+01	-6.04015787274E+00	2.38934615070E-01
3.06352569554E+05	-1.78289308359E+01	1.08002187871E+02	1.11368057203E+01	-1.77857528547E+02	-4.76118021253E+01	-3.40202105127E+01	-6.02867621488E+00	-3.20637578525E-01
3.06574006730E+05	-1.77726792237E+01	2.24362730021E+01	1.10575610620E+01	-1.77815483612E+02	-3.47435856860E+01	1.25904490761E+02	-6.09271548183E+00	8.89234316078E-02
3.06795603964E+05	-2.13766755039E+01	1.95157547817E+01	1.10908745377E+01	-1.77740082994E+02	-4.30759417378E+01	-1.05385449648E+02	-6.06535154371E+00	-2.46528345325E-01
3.07017361372E+05	-1.82448182332E+01	2.03810615161E+01	1.10622541147E+01	-1.77410473941E+02	-4.13307113436E+01	-6.42789233768E+01	-6.00849368614E+00	-5.19213634906E-01
3.07239279071E+05	-2.27529506783E+01	1.62938725673E+02	1.11574325085E+01	-1.77824775030E+02	-4.79097354072E+01	1.43301031068E+02	-6.02837296519E+00	1.89839164166E-03
3.07461357176E+05	-1.39760266883E+01	8.75906644572E+01	1.10769432957E+01	-1.78174272167E+02	-2.52904336816E+01	-2.70235931526E+01	-5.81024954089E+00	-1.33682339846E+00
3.07683595803E+05	-1.14214267456E+01	-5.89650101237E+01	1.10409217167E+01	-1.76433768396E+02	-4.11843363502E+01	7.58803012681E+01	-6.05150492144E+00	2.22558661529E-01
3.07905995068E+05	-8.79973901203E+00	1.73512200477E+01	1.08957335996E+01	-1.78232114557E+02	-3.82914016352E+01	-1.75370484038E+02	-6.12833279167E+00	-2.91971487828E-01
3.08128555087E+05	-2.98678873163E+01	-3.35601159763E+01	1.10918581618E+01	-1.77551717950E+02	-4.88075745343E+01	-9.05946903222E+01	-6.04364911726E+00	-3.76948730122E-01
3.08351275976E+05	-1.75171589511E+01	4.64229247779E+01	1.10822110481E+01	-1.77807104252E+02	-5.24674351893E+01	-4.51323081813E+01	-6.01257994548E+00	-3.87711212427E-01
3.08574157853E+05	-2.35617482321E+01	-7.94302677432E+01	1.11031357179E+01	-1.77570062247E+02	-3.93586910684E+01	6.57200099217E+00	-5.93644523564E+00	-7.61609670934E-02
3.08797200832E+05	-2.38609964941E+01	-8.67697268274E+01	1.11597585978E+01	-1.77465248827E+02	-5.30108374810E+01	-1.16785996610E+02	-6.03043090536E+00	3.12644065926E-02
3.09020405031E+05	-2.10080941005E+01	-6.93351321959E+01	1.11604723658E+01	-1.77687368306E+02	-3.34645497140E+01	-1.06448700392E+02	-6.05958991209E+00	-8.00616988911E-01
3.09243770566E+05	-1.63726273345E+01	2.98887441106E+01	1.10396743566E+01	-1.78415213626E+02	-3.88714637336E+01	1.15936509462E+02	-6.06791317195E+00	-2.64952012014E-02
3.09467297553E+05	-1.79630155104E+01	-1.07274523938E+02	1.12063896834E+01	-1.77222806696E+02	-4.12790627819E+01	-1.63211757585E+02	-6.09236246176E+00	-6.61796390439E-01
3.09690986110E+05	-1.93020041934E+01	-7.27571932494E+00	1.10865211193E+01	-1.77660197539E+02	-3.63485717432E+01	1.58046221050E+02	-6.08424879790E+00	-6.14189981627E-02
3.09914836353E+05	-1.76439882913E+01	-8.84009915768E+00	1.10586900504E+01	-1.77751924256E+02	-4.33414034125E+01	9.22177257899E+01	-6.06736363554E+00	-2.26479893752E-03
3.10138848399E+05	-1.52590703649E+01	2.34955473761E+01	1.10326967972E+01	-1.78008097078E+02	-3.83180237107E+01	-3.32811700939E+01	-6.03730084719E+00	-5.15644815475E-01
3.10363022365E+05	-2.34287526777E+01	1.45324961180E+02	1.11451652769E+01	-1.77976792916E+02	-3.57544714319E+01	1.74919653114E+02	-6.11843147105E+00	-1.21810515249E-01
3.10587358368E+05	-1.92009808183E+01	-6.96765108045E+01	1.11076067213E+01	-1.77542402734E+02	-3.80853777044E+01	1.67877663266E+02	-6.13290874910E+00	-4.25551555769E-01
3.10811856525E+05	-1.52601665227E+01	2.32268439568E+01	1.09845082213E+01	-1.77998651512E+02	-3.75098705175E+01	-1.16041821306E+02	-6.04950540371E+00	-5.37626640877E-01
3.11036516954E+05	-1.24138543641E+01	-4.13226323692E+00	1.10181936241E+01	-1.77868310808E+02	-3.98421148092E+01	1.48782396613E+02	-6.09250305131E+00	-1.87184248110E-01
3.11261339771E+05	-2.81624033108E+01	-1.26472982139E+02	1.11388899329E+01	-1.77370194417E+02	-3.66280457115E+01	2.78253610886E+01	-6.00245095703E+00	-6.42997509595E-02
3.11486325094E+05	-1.62240925220E+01	2.28521093321E+01	1.09949397700E+01	-1.77941824648E+02	-4.40975680758E+01	1.58828373516E+02	-6.04778703012E+00	5.18212781214E-02
3.11711473040E+05	-1.90790738863E+01	1.24274396036E+02	1.11874320002E+01	-1.78188017125E+02	-3.83901501996E+01	1.24390106302E+02	-6.07561239537E+00	-8.49661397763E-02
3.11936783728E+05	-1.85546556523E+01	2.63529216151E+00	1.10652187891E+01	-1.77838975154E+02	-3.15779102491E+01	7.38104800228E+01	-6.00472366691E+00	6.24354737683E-01
3.12162257274E+05	-2.00717036317E+01	1.01134347233E+02	1.11339926722E+01	-1.78386503157E+02	-3.93354652959E+01	-2.60257011938E+01	-5.99604038946E+00	-4.22426992885E-01
3.12387893797E+05	-1.98797173114E+01	2.81257033302E+01	1.11192771291E+01	-1.77904185118E+02	-5.09424765459E+01	-7.86053824426E+01	-6.07288279336E+00	-1.47364348076E-01
3.12613693413E+05	-1.15086838992E+01	-4.93482199234E+01	1.09822925312E+01	-1.76762503013E+02	-4.15191564203E+01	5.76077854207E+01	-6.02058836053E+00	-1.55761857372E-01
3.12839656242E+05	-1.77272298853E+01	-1.52464884420E+02	1.12507013696E+01	-1.77524057184E+02	-4.02365194316E+01	1.72187862012E+02	-6.09958138992E+00	-3.86254202799E-02
3.13065782401E+05	-1.64037378696E+01	4.04376779703E+01	1.11237745156E+01	-1.78389559111E+02	-4.94998307514E+01	-1.06795539325E+02	-6.03679833680E+00	-5.32119602690E-01
3.13292072007E+05	-1.69641486634E+01	3.07121356798E+01	1.10532388513E+01	-1.77903501813E+02	-3.74778157761E+01	-9.81360651821E+01	-6.05731230099E+00	-5.78176028290E-01
3.13518525180E+05	-1.90628518132E+01	1.85231004540E+01	1.11207164036E+01	-1.77867567472E+02	-3.56422735811E+01	-5.16502449474E+01	-5.97936906542E+00	-5.44886669626E-01
3.13745142038E+05	-1.63801818336E+01	9.43934267251E+01	1.11638235035E+01	-1.78095464172E+02	-3.62387614624E+01	-1.44432899238E+02	-6.03905359142E+00	-3.72102076684E-01
3.13971922698E+05	-2.38777244601E+01	-1.69639361253E+01	1.11050457154E+01	-1.77834160945E+02	-3.49037232146E+01	-1.04669134731E+01	-5.92011388725E+00	-1.81694990774E-01
3.14198867279E+05	-8.32424136058E+00	8.99075255870E+01	1.11578249526E+01	-1.79452089089E+02	-4.86449775993E+01	-2.27642909377E+01	-6.05479643964E+00	-3.72255456652E-01
3.14425975900E+05	-1.63752018527E+01	-6.62826278288E+01	1.10809645928E+01	-1.76916696061E+02	-4.07507047486E+01	1.27345396820E+02	-6.05942928206E+00	-1.67903580170E-01
3.14653248680E+05	-2.22471559804E+01	9.59442102057E-02	1.11076735590E+01	-1.77902831815E+02	-3.64833160987E+01	-6.12323742059E+01	-6.02296720529E+00	-6.30742891977E-01
3.14880685736E+05	-2.39821749785E+01	4.66808476245E+01	1.11218570273E+01	-1.78114619289E+02	-4.36130338695E+01	1.73227839046E+02	-6.10430718578E+00	-1.12453123352E-01
3.15108287188E+05	-1.37503443194E+01	2.77093603090E+01	1.10040375499E+01	-1.78350167065E+02	-4.12942467459E+01	-7.05648025916E+01	-6.01778177896E+00	-4.63302943448E-01
3.15336053154E+05	-1.51879783201E+01	3.23650806856E+00	1.09910882732E+01	-1.77863409076E+02	-3.18963823195E+01	9.40531732430E+01	-6.08775404139E+00	8.45340288075E-01
3.15563983753E+05	-1.90033137002E+01	3.73682107260E+01	1.10381942222E+01	-1.77869209618E+02	-3.92976645996E+01	-2.92896054900E+01	-6.03952858804E+00	-7.46646545265E-02
3.15792079105E+05	-5.08204948022E+00	-7.29931827285E+01	1.10534784833E+01	-1.75275005440E+02	-3.99479713288E+01	-1.10598437480E+02	-6.04318481848E+00	-2.92670156773E-01
3.16020339328E+05	-1.01553365362E+01	5.16788330436E+01	1.10203550490E+01	-1.79143162194E+02	-4.00948569243E+01	-7.49022051447E+01	-6.02431040645E+00	-5.07504053268E-01
3.16248764542E+05	-1.34957682338E+01	-1.31678736190E+01	1.09734665764E+01	-1.77582143768E+02	-4.21269063737E+01	-3.89445322407E+01	-6.05637432781E+00	2.11321665132E-02
3.16477354866E+05	-2.26446400438E+01	-1.80259680738E+01	1.10845594921E+01	-1.77787617065E+02	-3.92931172052E+01	4.03651480187E+01	-6.00499015489E+00	8.21414282582E-02
3.16706110419E+05	-2.66422391473E+01	-6.14476128431E+01	1.11198254985E+01	-1.77902295154E+02	-3.81676959288E+01	2.55293941189E+01	-5.93925725507E+00	-3.05836633949E-01
3.16935031321E+05	-1.36959477169E+01	3.11738951498E+01	1.10090345287E+01	-1.78174453219E+02	-3.00099343063E+01	5.94101980613E+01	-5.95269346547E+00	6.81212835854E-01
3.17164117691E+05	-2.08355522907E+01	9.08980343640E+01	1.11086036949E+01	-1.78405082440E+02	-4.77612751339E+01	-9.01249415429E+00	-6.02563119319E+00	-3.31200057017E-01
3.17393369648E+05	-2.42097095390E+01	1.74932766192E+02	1.12093747050E+01	-1.78238156648E+02	-4.10343233060E+01	-1.30851070427E+02	-6.05572667264E+00	-2.84964287115E-01
3.17622787313E+05	-1.22522245099E+01	-4.88774275905E+01	1.10143614844E+01	-1.76904731615E+02	-4.32135078512E+01	-1.18034897723E+02	-6.06084217744E+00	-1.01099315585E-01
3.17852370806E+05	-1.38993277350E+01	5.25398539275E+01	1.10565489863E+01	-1.78382328031E+02	-4.26024800987E+01	-1.20350001274E+02	-6.02012079737E+00	-4.11497147581E-01
3.18082120245E+05	-2.75608126673E+01	3.11433200499E+01	1.10585535833E+01	-1.77781142349E+02	-4.22972952851E+01	1.31347203189E+02	-6.04947725020E+00	-1.07405070185E-01
3.18312035752E+05	-3.61450835234E+01	-3.68294749663E+01	1.10949911302E+01	-1.77735853792E+02	-4.96417516599E+01	3.17473497359E+01	-6.01618982569E+00	-1.31922429765E-01
3.18542117445E+05	-1.68219179417E+01	1.25943853836E+01	1.10979520286E+01	-1.78194592584E+02	-3.73250209323E+01	-1.58830830156E+02	-6.13347150791E+00	-4.60978337868E-01
3.18772365446E+05	-2.20434771139E+01	5.20510832049E+01	1.11163178226E+01	-1.78324262923E+02	-4.30207471175E+01	7.05882188331E+01	-6.03041217438E+00	1.49107924048E-01
3.19002779874E+05	-1.00344831540E+01	2.41828014293E+00	1.08264571894E+01	-1.77576822065E+02	-3.87070928369E+01	-1.13517708905E+02	-6.04909078278E+00	-7.20963892985E-01
3.19233360850E+05	-1.49329073387E+01	1.47222714254E+02	1.12904110231E+01	-1.78570583199E+02	-4.22876715915E+01	-1.35074940882E+02	-6.05146464956E+00	-3.73061954633E-01
3.19464108494E+05	-4.18065924549E+01	8.94183432125E+01	1.12070637960E+01	-1.78008255747E+02	-4.22460625157E+01	1.62545175902E+02	-6.08241494355E+00	-9.17527759165E-03
3.19695022927E+05	-1.46021252733E+01	1.15615168859E+02	1.11865575132E+01	-1.78606022288E+02	-4.26640093893E+01	-7.84355991120E+01	-6.05453358836E+00	-1.22211221751E-01
3.19926104268E+05	-2.22604841370E+01	-1.79341245986E+01	1.11144866751E+01	-1.77834951923E+02	-4.55582597113E+01	1.10997722547E+02	-6.04846528421E+00	5.86064626877E-02
3.20157352640E+05	-2.66465777662E+01	-6.44843035334E+01	1.11573490895E+01	-1.77755083818E+02	-3.89301734145E+01	1.51771770744E+02	-6.15321172805E+00	1.62345206187E-01
3.20388768162E+05	-1.78882536014E+01	-3.12750359703E+01	1.10986351950E+01	-1.77833065198E+02	-4.69803441622E+01	1.21418014334E+02	-6.06686293273E+00	-2.59903450322E-01
3.20620350955E+05	-9.81878172589E+00	1.78912597525E+02	1.13488432880E+01	-1.78041903881E+02	-3.75904564558E+01	9.37053840600E+01	-6.07145472814E+00	1.05312599798E-01
3.20852101140E+05	-1.30693475846E+01	8.98591606566E+01	1.10956661336E+01	-1.78969062714E+02	-3.84365190870E+01	8.73373044998E+01	-6.03851647209E+00	5.98979259533E-01
3.21084018839E+05	-2.19290899471E+01	8.84192822618E-01	1.10550372594E+01	-1.78054669350E+02	-4.24070932478E+01	-8.72559498045E+01	-6.01899089879E+00	-6.25897362880E-01
3.21316104172E+05	-1.66180677855E+01	4.35202024105E+01	1.11148608560E+01	-1.78547990282E+02	-4.09056678031E+01	-6.81326889193E+01	-6.05323522157E+00	-5.27120284841E-01
3.21548357261E+05	-2.70395754896E+01	-4.94547734026E+00	1.10717653534E+01	-1.77621194766E+02	-3.13739429663E+01	8.88391053983E+00	-5.94730106770E+00	-7.80735672403E-02
3.21780778226E+05	-2.08381835078E+01	7.82443520469E+01	1.10916169452E+01	-1.78536634257E+02	-2.97958617750E+01	-4.31051330818E+01	-5.93168903211E+00	-8.69682131437E-01
3.22013367189E+05	-2.73059966408E+01	1.02801370975E+02	1.11377137953E+01	-1.78186717578E+02	-3.88082387128E+01	1.25504175332E+02	-6.07333571853E+00	1.75828446144E-01
3.22246124272E+05	-1.61112911961E+01	-3.91891959931E+01	1.10684590052E+01	-1.77531906268E+02	-3.70410283970E+01	-4.57035252587E+01	-6.02201598166E+00	-4.66046462726E-01
3.22479049596E+05	-1.67758742505E+01	-4.20011971330E+00	1.10605442715E+01	-1.77980467426E+02	-4.22293600308E+01	-6.33633615974E+00	-5.99252029909E+00	-4.66467231711E-02
3.22712143282E+05	-2.79819649482E+01	1.46070680934E+02	1.11375534762E+01	-1.78222493394E+02	-3.99080454932E+01	-1.08108733089E+02	-6.09412555482E+00	-4.68432692280E-01
3.22945405453E+05	-2.32840321056E+01	1.63825161660E+02	1.11787321799E+01	-1.78371432871E+02	-3.48952097735E+01	1.66620288031E+02	-6.10413775609E+00	-1.07860974252E-01
3.23178836230E+05	-2.58020700122E+01	4.86468237449E+01	1.11446789825E+01	-1.78142236297E+02	-4.84465633391E+01	-2.52863901108E+01	-6.06465821985E+00	-4.23028785280E-01
3.23412435735E+05	-1.88464337541E+01	3.38155975413E+01	1.11089794489E+01	-1.78157648835E+02	-4.32674396354E+01	-9.97438622401E+01	-6.05219148613E+00	-3.29677503154E-01
3.23646204090E+05	-2.61324883198E+01	5.03558007932E+01	1.10640677490E+01	-1.77944459503E+02	-3.71938372846E+01	-1.18589912903E+02	-6.08108910839E+00	-7.81765899402E-01
3.23880141417E+05	-2.26478073266E+01	1.01458067067E+02	1.11860572885E+01	-1.77845852149E+02	-3.59355567507E+01	2.65232915053E+01	-5.98522841862E+00	-1.43718687960E-02
3.24114247838E+05	-1.32868829554E+01	1.27154148402E+02	1.12366395010E+01	-1.78512463360E+02	-3.89792134133E+01	1.67982234223E+01	-5.98606349607E+00	8.05962780443E-02
3.24348523475E+05	-2.14260139020E+01	5.88587202109E+01	1.11063345926E+01	-1.78202602995E+02	-3.84583408881E+01	6.16993675741E+01	-6.00888458272E+00	-8.22535975152E-02
3.24582968451E+05	-3.38755266933E+01	1.16950977297E+02	1.11038846768E+01	-1.78051384365E+02	-3.44534856771E+01	-1.68123081874E+02	-6.09512480756E+00	-1.06074237014E-01
3.24817582888E+05	-3.43706184292E+01	8.91301792999E+01	1.11729532195E+01	-1.78069070439E+02	-4.22037508161E+01	7.01788248435E+01	-6.05203842738E+00	1.32333925280E-01
3.25052366909E+05	-1.56332500646E+01	4.58206773795E+01	1.10819552375E+01	-1.78311538452E+02	-3.56026779157E+01	3.27056825069E+01	-5.96130123350E+00	-1.24897507843E-01
3.25287320635E+05	-1.49671564312E+01	2.68882509259E+01	1.10417054903E+01	-1.78350884973E+02	-2.90143711987E+01	-6.33030325619E+01	-5.98304850282E+00	-1.31572804225E+00
3.25522444191E+05	-1.88646285602E+01	7.69041960098E+01	1.11280023874E+01	-1.78317348151E+02	-3.79789830890E+01	7.26831661153E+01	-6.01680527296E+00	2.77775622553E-02
3.25757737698E+05	-2.34751405508E+01	-1.01505089108E+02	1.12381714654E+01	-1.77907551748E+02	-4.81878318661E+01	-1.62128179512E+01	-5.97903335162E+00	-6.96828198121E-01
3.25993201280E+05	-1.55190547416E+01	4.41139487988E+00	1.10343506145E+01	-1.77998300484E+02	-3.86795199799E+01	3.30576054947E+01	-6.01355988098E+00	4.50289279391E-02
3.26228835058E+05	-1.54102009016E+01	5.40312523246E+01	1.10592311954E+01	-1.78515218212E+02	-3.96428353893E+01	1.64808852852E+02	-6.07960787572E+00	-2.16536927972E-01
