# Hz S DB R 50
! CMT, M5065, 19127446, 24.2.4/2
! Date: 11/1/2024 3:46:16 PM
! Data: Format (Calibration Info)
! Freq	S11:dB/Ang(F2)	S21:dB/Ang(F2)	S12:dB/Ang(F2)	S22:dB/Ang(F2)
3.00000000000E+05	-1.56712810315E+01	-6.50667853442E+01	2.07823264842E+01	-1.75949082493E+02	-4.65249023294E+01	9.92990084664E+01	-6.10665371961E+00	-1.36947539519E-01
3.00216845423E+05	-1.83738420522E+01	-3.19929867088E+01	2.07480370996E+01	-1.76207135878E+02	-3.49235263914E+01	1.51571055057E+02	-6.25183980948E+00	2.18540713512E-01
3.00433847586E+05	-1.89588493539E+01	-8.31978534753E+01	2.08038755132E+01	-1.76116872553E+02	-2.86491895487E+01	-6.42550504273E+01	-5.75280922689E+00	-3.01208296668E+00
3.00651006602E+05	-1.86254653916E+01	4.65114947341E+01	2.07963108468E+01	-1.76887521700E+02	-4.18190026600E+01	-1.65222009753E+02	-6.06009125150E+00	-5.70545530048E-01
3.00868322584E+05	-1.76081626302E+01	2.24965229867E+01	2.07823419420E+01	-1.76623751247E+02	-4.28104333106E+01	1.79118479997E+02	-6.07604229620E+00	-5.34602542545E-01
3.01085795647E+05	-8.75083268505E+00	-1.50702050078E+01	2.05915650539E+01	-1.76073753343E+02	-4.66828100490E+01	-8.92589610762E+01	-6.02100445013E+00	-4.79087846626E-01
3.01303425902E+05	-7.26783377450E+00	1.67978054047E+01	2.05901601115E+01	-1.77108268204E+02	-3.81873670449E+01	-6.29960592829E+01	-5.95127964832E+00	-8.47498910609E-01
3.01521213465E+05	-2.50241453577E+01	-2.51370580057E+01	2.07716198266E+01	-1.76495918812E+02	-3.85232148377E+01	1.46471027910E+02	-6.11538231642E+00	6.04068863203E-01
3.01739158449E+05	-1.92822155366E+01	1.64673724166E+02	2.08663638349E+01	-1.76905923042E+02	-3.01209436951E+01	4.72354342178E+01	-5.71646588963E+00	1.88343390913E+00
3.01957260967E+05	-4.47498610624E+01	1.19976761421E+02	2.08139733640E+01	-1.76458179201E+02	-3.54324766888E+01	-4.69605060312E+00	-5.71053464248E+00	-4.76401329858E-01
3.02175521134E+05	-1.34011774046E+01	1.51115564644E+01	2.07240200603E+01	-1.76900977937E+02	-3.46107749348E+01	-1.70574740290E+02	-6.25882970592E+00	-9.77761941280E-01
3.02393939063E+05	-1.46015308565E+01	6.59255833681E+00	2.07254843880E+01	-1.76453283018E+02	-4.18324543676E+01	-1.47123467481E+02	-6.10680118585E+00	-5.23929559327E-01
3.02612514869E+05	-1.27391622514E+01	-1.23651404284E+02	2.09201851973E+01	-1.75524319222E+02	-3.95263873218E+01	1.47069062232E+02	-6.15804666451E+00	2.26589157478E-01
3.02831248665E+05	-1.65162851035E+01	-2.16523388963E+01	2.07206356139E+01	-1.76460726407E+02	-4.36765979222E+01	1.41671033788E+02	-6.07771804459E+00	-2.54105241147E-01
3.03050140565E+05	-1.33349288380E+01	1.33017278108E+01	2.06960054119E+01	-1.76772250992E+02	-3.47212582435E+01	-6.06376443532E+01	-5.90008797907E+00	-1.28899582929E+00
3.03269190685E+05	-1.72453061776E+01	-1.76384974051E+00	2.07368226027E+01	-1.76915229104E+02	-2.95738496178E+01	8.23722607990E+00	-5.51964097807E+00	2.51785239430E-01
3.03488399138E+05	-2.09393243466E+01	-2.50373419000E+01	2.07427220072E+01	-1.76581845027E+02	-3.40369197089E+01	-1.07625953162E+02	-6.09569980842E+00	-2.02175557140E+00
3.03707766039E+05	-1.80309428842E+01	-4.93380109424E+01	2.07689450714E+01	-1.76400253100E+02	-5.11853315339E+01	-1.40821781133E+02	-6.06342551640E+00	-3.09698675380E-01
3.03927291503E+05	-1.94208013408E+01	2.98583041224E+01	2.07983002474E+01	-1.77165979551E+02	-4.69640194447E+01	-1.65287429179E+02	-6.04331237022E+00	-4.77962970543E-01
3.04146975643E+05	-1.26858814321E+01	-6.54717851504E+01	2.07619913584E+01	-1.75739753335E+02	-4.15298479077E+01	-7.71613963269E+01	-5.91942686849E+00	-9.59430770503E-01
3.04366818575E+05	-1.40480668778E+01	-6.21270668305E+00	2.07009959342E+01	-1.76730195956E+02	-3.18226824602E+01	-1.77074638564E+01	-5.70674261827E+00	-6.66584008873E-01
3.04586820414E+05	-2.66331563840E+01	-1.09773855897E+02	2.08403301658E+01	-1.76689415541E+02	-4.12436809317E+01	-2.50994591909E+01	-5.92605991717E+00	-7.10669761545E-01
3.04806981274E+05	-2.77110183233E+01	-1.37292428728E+02	2.08604452706E+01	-1.76664566289E+02	-3.34815552308E+01	1.00370985691E+02	-6.06160634283E+00	1.80054128512E+00
3.05027301270E+05	-1.63327551307E+01	-1.21070214184E+02	2.08538110227E+01	-1.76110945175E+02	-3.17285042001E+01	-7.84699550354E+01	-5.87671985946E+00	-2.76009024346E+00
3.05247780517E+05	-2.13765938524E+01	1.07715408654E+02	2.08150390111E+01	-1.76851216542E+02	-3.48269283383E+01	-9.66568678813E+01	-6.03911355588E+00	-1.81510832359E+00
3.05468419131E+05	-2.47273360954E+01	7.55940982324E+01	2.08367398725E+01	-1.76896283534E+02	-3.57319040554E+01	-5.76752745825E+00	-5.83199793787E+00	-4.34594968960E-01
3.05689217226E+05	-1.63870364838E+01	1.62275144842E+02	2.09275583189E+01	-1.77077216343E+02	-3.69190054988E+01	-1.51506463688E+02	-6.15822377720E+00	-7.37154859679E-01
3.05910174918E+05	-1.31963600540E+01	-1.45503193267E+02	2.09135595583E+01	-1.76414244984E+02	-4.56789656988E+01	-1.38688930369E+02	-6.04276310456E+00	-6.81989670878E-01
3.06131292322E+05	-2.56778989677E+01	9.76323166287E+01	2.08365636985E+01	-1.77064825517E+02	-3.61401671056E+01	-6.91576138931E+01	-5.94560774243E+00	-1.42321507845E+00
3.06352569554E+05	-2.27213077152E+01	2.95979123426E+00	2.07787287854E+01	-1.76835479885E+02	-4.13085934643E+01	1.70999388708E+02	-6.09365844187E+00	-3.36962612742E-01
3.06574006730E+05	-2.33775625725E+01	3.43292826072E+01	2.07676814049E+01	-1.77096715423E+02	-3.00610194599E+01	-8.96686868072E+01	-5.96915538312E+00	-3.58940769951E+00
3.06795603964E+05	-3.83081160125E+01	1.35713502799E+02	2.08281511310E+01	-1.76775396501E+02	-3.77282859331E+01	7.37040158927E+01	-5.97239899618E+00	5.43732187067E-01
3.07017361372E+05	-1.71293571587E+01	-8.19320187010E+01	2.07825825662E+01	-1.76227397270E+02	-3.69280837882E+01	1.35029803456E+02	-6.12604910389E+00	3.50109927820E-01
3.07239279071E+05	-1.44753649664E+01	7.70102469326E+01	2.07809973676E+01	-1.77462090322E+02	-4.66394614541E+01	1.01942309803E+02	-6.02508888988E+00	2.55595417938E-01
3.07461357176E+05	-2.60103192202E+01	-1.22902520382E+02	2.08502653545E+01	-1.76700598335E+02	-4.27102460847E+01	-1.26107810725E+02	-6.08261454490E+00	-7.91943061138E-01
3.07683595803E+05	-1.88645882935E+01	3.33290405204E+01	2.07912791208E+01	-1.76921518116E+02	-5.30407830824E+01	-7.06938896908E+01	-6.01763718868E+00	-5.16164601985E-01
3.07905995068E+05	-2.42246809449E+01	8.23188836224E+01	2.08301954346E+01	-1.76860060636E+02	-3.92340039206E+01	3.21848529875E+01	-5.92744601331E+00	7.95032590077E-02
3.08128555087E+05	-1.26311474967E+01	-2.71629109775E+00	2.06838615791E+01	-1.76935948499E+02	-2.94020687583E+01	-3.17912865238E+01	-5.63412252755E+00	-1.61885157015E+00
3.08351275976E+05	-2.11507581312E+01	1.09279351941E+02	2.08244357651E+01	-1.77174735047E+02	-4.55263413499E+01	-7.75277829194E+01	-5.98587998845E+00	-4.11809487983E-01
3.08574157853E+05	-2.33863040149E+01	5.22466873598E+01	2.07867519431E+01	-1.77170267337E+02	-4.09755470478E+01	-8.94468754860E+00	-5.88717643623E+00	-4.95406291489E-01
3.08797200832E+05	-1.61988050999E+01	-1.11911968740E+01	2.06925392338E+01	-1.76664489010E+02	-3.92347657126E+01	-1.57112610718E+02	-6.11497340843E+00	-4.95548118929E-01
3.09020405031E+05	-6.98870864428E+00	1.63569297611E+01	2.04922810159E+01	-1.77605973755E+02	-3.71696135167E+01	-2.54299455332E+01	-5.86379476754E+00	-4.40512178651E-01
3.09243770566E+05	-2.50192768894E+01	2.06702667965E+01	2.07820109511E+01	-1.76990177265E+02	-4.97660004937E+01	-6.36046634882E+01	-6.01912434110E+00	-6.86234332603E-01
3.09467297553E+05	-1.56982211325E+01	2.48475506555E+01	2.07404977302E+01	-1.77168594788E+02	-3.74489028431E+01	9.65253089739E+01	-6.09149333530E+00	1.02922465071E+00
3.09690986110E+05	-1.77596677171E+01	6.28496888495E+00	2.07470534796E+01	-1.76844158444E+02	-3.01590362812E+01	8.15309312987E+01	-5.98177957080E+00	2.89647345315E+00
3.09914836353E+05	-1.79074234452E+01	-1.42844511080E+01	2.07243454248E+01	-1.76899805239E+02	-3.88301035112E+01	-1.17773693853E+01	-5.83633727517E+00	-1.58960559350E-01
3.10138848399E+05	-1.87182168115E+01	4.72140148782E+01	2.07505824737E+01	-1.77156773032E+02	-4.25491976106E+01	1.07124868603E+02	-6.07724424709E+00	-1.69637113345E-01
3.10363022365E+05	-1.33223594558E+01	7.58281611945E+01	2.08131613855E+01	-1.77529972908E+02	-3.64978872188E+01	8.43408867245E+01	-6.01041025861E+00	7.86901890740E-01
3.10587358368E+05	-1.57987546303E+01	-1.64191647905E+02	2.09129929728E+01	-1.76817903896E+02	-4.32801472342E+01	-1.38798980294E+02	-6.07552943790E+00	-8.00856744433E-01
3.10811856525E+05	-2.27042914722E+01	-6.90109069183E+00	2.07779123751E+01	-1.76675066886E+02	-4.00432656875E+01	1.18062012744E+02	-6.01903937123E+00	4.53108870441E-01
3.11036516954E+05	-1.27518494275E+01	2.69754845439E+01	2.06937941134E+01	-1.77229029729E+02	-3.24200632087E+01	1.64148099279E+02	-6.36538429198E+00	-2.42546570103E-02
3.11261339771E+05	-2.65579646145E+01	-3.50779887607E+01	2.08055010973E+01	-1.76665840348E+02	-4.22060464211E+01	1.04445223573E+02	-6.00456372298E+00	1.57668817475E-01
3.11486325094E+05	-1.24925131908E+01	1.69470265680E+02	2.09726252282E+01	-1.76901361798E+02	-3.73753209198E+01	-3.97255905193E+01	-5.82993315253E+00	-1.20235580176E+00
3.11711473040E+05	-2.20870441047E+01	-5.42903865217E+01	2.08033996349E+01	-1.76695000021E+02	-3.61851515635E+01	-8.41540635691E+01	-6.00347193904E+00	-1.73410543671E+00
3.11936783728E+05	-2.44758474939E+01	1.10388379985E+02	2.08170087637E+01	-1.77208681039E+02	-4.95727165423E+01	1.62483014440E+02	-6.04204361364E+00	-2.59649460874E-03
3.12162257274E+05	-2.29796577426E+01	2.37790560683E+01	2.08029621478E+01	-1.77037989539E+02	-4.24634342708E+01	-1.08419567782E+02	-6.05256488382E+00	-1.11402609136E+00
3.12387893797E+05	-1.60336824598E+01	7.24135891208E+01	2.07689685362E+01	-1.77717975362E+02	-3.81194361235E+01	-7.96925993849E+01	-6.01354610723E+00	-1.58030699821E+00
3.12613693413E+05	-2.22746012892E+01	-7.26007651509E+00	2.07780475209E+01	-1.76764180397E+02	-3.86737697301E+01	-9.74521033375E+01	-5.98889168053E+00	-1.29015055231E+00
3.12839656242E+05	-2.96473116762E+01	1.59914867840E+02	2.08403344470E+01	-1.77281335444E+02	-3.85996018972E+01	-3.75242150534E+01	-5.90365034024E+00	-4.10064659347E-01
3.13065782401E+05	-1.58057542661E+01	1.18533383212E+02	2.08897124177E+01	-1.77543987730E+02	-3.39920559543E+01	1.34370879346E+02	-6.15866001851E+00	1.32144979435E+00
3.13292072007E+05	-1.98654119330E+01	1.08201467257E+02	2.08288845735E+01	-1.77436441154E+02	-3.84738453220E+01	-4.65900802434E+01	-5.92077646784E+00	-9.13687618489E-01
3.13518525180E+05	-1.46501242223E+01	1.18013524079E+02	2.08477032957E+01	-1.77484327994E+02	-4.01375805857E+01	-7.73704424762E+01	-5.99062395004E+00	-7.00623310544E-01
3.13745142038E+05	-6.30729416309E+00	-2.04673673486E+01	2.05432178022E+01	-1.76597654308E+02	-4.06174480274E+01	9.69203971984E+01	-6.05704833008E+00	3.19976262755E-01
3.13971922698E+05	-1.47994822564E+01	8.10368377857E+01	2.07999434939E+01	-1.77901272447E+02	-3.67019677368E+01	1.01791533267E+02	-6.11265508180E+00	5.15623894721E-01
3.14198867279E+05	-2.55952267980E+01	2.91970699445E+00	2.07651631623E+01	-1.77108625530E+02	-4.29997588729E+01	-6.06420801354E+01	-5.98406619834E+00	-9.67527119910E-01
3.14425975900E+05	-1.59523299307E+01	3.12476185420E+01	2.07523295251E+01	-1.77228116610E+02	-3.05689350474E+01	-1.41449267842E+02	-6.37206930891E+00	-1.90233424165E+00
3.14653248680E+05	-1.68993952652E+01	-1.12769789330E+02	2.08461794640E+01	-1.76347814573E+02	-3.05160131961E+01	9.06492496783E+01	-6.05138685493E+00	2.70986174820E+00
3.14880685736E+05	-1.81463703863E+01	1.81207235217E+01	2.07674014873E+01	-1.77382568416E+02	-5.73944780073E+01	-1.04889080073E+02	-6.01753113873E+00	-3.17351122220E-01
3.15108287188E+05	-1.17447459889E+01	-4.85854196356E+01	2.07218629749E+01	-1.76447347003E+02	-3.89172890347E+01	-7.16872439193E+01	-5.94732613510E+00	-9.92003398865E-01
3.15336053154E+05	-1.43778695693E+01	-1.49049316739E+02	2.09549154429E+01	-1.76532405941E+02	-3.39355625597E+01	-8.72351240813E+01	-5.91466472750E+00	-2.04907354768E+00
3.15563983753E+05	-2.08989498496E+01	2.68381502675E+01	2.07655832237E+01	-1.77065357044E+02	-4.91764121452E+01	1.53538096808E+02	-6.06365258482E+00	-3.04851784125E-01
3.15792079105E+05	-2.35677780356E+01	-1.12821842074E+02	2.08506904627E+01	-1.76909004048E+02	-3.74134188358E+01	-8.54582067932E+01	-6.01098786031E+00	-1.34931522620E+00
3.16020339328E+05	-2.14241234548E+01	-1.37491656124E+01	2.08124965786E+01	-1.77093529305E+02	-3.28897827922E+01	-9.72580987514E+01	-6.07150733731E+00	-2.39307508683E+00
3.16248764542E+05	-1.69587987690E+01	-3.42782984773E+00	2.07230826516E+01	-1.77178412075E+02	-3.16987125073E+01	1.40223762201E+02	-6.34330628984E+00	1.52419023180E+00
3.16477354866E+05	-1.30898259527E+01	5.96778580804E+01	2.07480532920E+01	-1.77782526062E+02	-4.60456197971E+01	5.59661361955E+01	-5.96949169621E+00	1.77118539427E-01
3.16706110419E+05	-3.22915629121E+01	-1.02122668520E+02	2.08363251696E+01	-1.77282391117E+02	-3.48182447696E+01	-5.13706349394E+01	-5.88661699446E+00	-1.23893571168E+00
3.16935031321E+05	-9.39066049022E+00	1.31848109822E+02	2.09701049487E+01	-1.78306380470E+02	-4.61089169168E+01	-1.09786817696E+02	-6.03606114202E+00	-8.19049180494E-01
3.17164117691E+05	-1.94436897675E+01	-1.76073019852E+02	2.08906171976E+01	-1.77049831342E+02	-4.34169363240E+01	-9.62753113936E+01	-6.02192382927E+00	-8.68550603520E-01
3.17393369648E+05	-1.64235416703E+01	9.33732139776E+01	2.08287972803E+01	-1.77368177614E+02	-4.32973456598E+01	4.12724474848E+01	-5.99663404412E+00	1.05844135992E-01
3.17622787313E+05	-2.31176873780E+01	8.24810465562E+01	2.07974649290E+01	-1.77071949519E+02	-3.96774323765E+01	-4.98552808712E+01	-5.89594039685E+00	-7.58101338130E-01
3.17852370806E+05	-1.33499936249E+01	1.73009965037E+01	2.06967368195E+01	-1.77390509963E+02	-3.11616000377E+01	1.08460872060E+02	-6.17694134412E+00	2.33882066134E+00
3.18082120245E+05	-1.47397853489E+01	4.63559026420E+01	2.07483627189E+01	-1.77682790492E+02	-3.91270107938E+01	-1.16461759682E+02	-6.07848704460E+00	-1.49116633772E+00
3.18312035752E+05	-1.73971895885E+01	1.48729576587E+01	2.07556005919E+01	-1.77264046846E+02	-4.51203051885E+01	-2.65215412673E+01	-6.00930741987E+00	-7.07204029644E-01
3.18542117445E+05	-1.46942237548E+01	1.08981562060E+02	2.08288018761E+01	-1.78224580483E+02	-4.71488702690E+01	-3.28068558551E+01	-5.95126766054E+00	-5.63274063367E-01
3.18772365446E+05	-1.52959640034E+01	1.33110958876E+02	2.08947298487E+01	-1.77778753035E+02	-3.90995780606E+01	-7.90055533494E+01	-5.99155756801E+00	-1.37609955833E+00
3.19002779874E+05	-2.09901072231E+01	-1.98369499387E+01	2.07747485200E+01	-1.76952500279E+02	-4.51634861154E+01	1.18151300863E+02	-6.04563537449E+00	-1.08985929890E-01
3.19233360850E+05	-2.39607705448E+01	-1.61758620206E+02	2.08467595952E+01	-1.76965878529E+02	-3.16782116347E+01	2.21655952437E+01	-5.60218964068E+00	1.07499354879E+00
3.19464108494E+05	-2.14600264395E+01	-1.78974256873E+01	2.07789696662E+01	-1.76891904431E+02	-3.21088013750E+01	1.38338968452E+02	-6.25522095625E+00	1.10343764248E+00
3.19695022927E+05	-1.69019491944E+01	5.82373825107E+01	2.07784521318E+01	-1.77706000082E+02	-4.51283598111E+01	9.71512039083E+01	-5.99905353557E+00	5.47515183833E-01
3.19926104268E+05	-2.27987956961E+01	3.06365335148E+01	2.07956475194E+01	-1.77452768609E+02	-3.96019249234E+01	-6.44532152524E+01	-5.92286466554E+00	-1.08504551780E+00
3.20157352640E+05	-1.21337290960E+01	-7.54772742824E+01	2.07781876671E+01	-1.76312298334E+02	-4.29960834434E+01	8.17434288647E+01	-6.03312247176E+00	4.67611243092E-01
3.20388768162E+05	-9.39301234821E+00	3.31901932828E+00	2.05813546156E+01	-1.77448426000E+02	-4.15587952010E+01	-2.25167863210E+00	-5.88189186452E+00	-1.73279812760E-01
3.20620350955E+05	-2.20551046804E+01	-6.91242201464E+00	2.07964638984E+01	-1.77309479028E+02	-3.96744771404E+01	-8.54737559599E+01	-6.04851566321E+00	-1.16425389545E+00
3.20852101140E+05	-2.03034952388E+01	-1.17867450662E+02	2.08604433877E+01	-1.76787080811E+02	-3.97241653547E+01	4.93966824172E+01	-5.97340443755E+00	8.80514422269E-01
3.21084018839E+05	-2.48237483831E+01	6.96470478074E+01	2.08329401456E+01	-1.77559028637E+02	-4.31910701542E+01	-1.49708268503E+02	-6.12006201244E+00	-1.11759020568E+00
3.21316104172E+05	-2.02928200380E+01	-6.41527323141E+01	2.08154493640E+01	-1.76845170777E+02	-3.94660318219E+01	-7.40798668384E+01	-6.01197591568E+00	-1.55555890729E+00
3.21548357261E+05	-1.94664892369E+01	3.28712573935E+01	2.07690303427E+01	-1.77231543706E+02	-4.97645450966E+01	1.73283178391E+02	-6.07737925004E+00	-2.04525861161E-01
3.21780778226E+05	-1.64005802312E+01	-4.61674702038E+01	2.07650337954E+01	-1.76544044805E+02	-3.86600780511E+01	5.07579550225E+01	-5.90851586995E+00	5.26990480974E-01
3.22013367189E+05	-1.89927795761E+01	4.10864876472E+01	2.07668819762E+01	-1.77886675915E+02	-4.81912193478E+01	1.10535420633E+02	-6.02237750833E+00	4.73060230754E-02
3.22246124272E+05	-3.17426931078E+01	-9.52119496660E+00	2.08199929433E+01	-1.77192339181E+02	-3.81217866387E+01	-1.34280345643E+02	-6.08851140015E+00	-1.14939063518E+00
3.22479049596E+05	-1.71430815539E+01	3.80329165274E+01	2.07630717569E+01	-1.77600231097E+02	-3.78069692395E+01	6.79969132507E+01	-5.91344848144E+00	1.15225710227E+00
3.22712143282E+05	-1.48358868344E+01	-1.91781241152E+01	2.07367235178E+01	-1.76812795748E+02	-3.91316870596E+01	-7.28486635417E+01	-5.99970317031E+00	-1.56988649121E+00
3.22945405453E+05	-1.72550784570E+01	-1.88020696309E+01	2.07671108294E+01	-1.77062864083E+02	-3.85570273352E+01	8.76307610769E+01	-5.97254206684E+00	5.89622241418E-01
3.23178836230E+05	-1.38798156979E+01	-4.52998986026E+01	2.07597135079E+01	-1.76749418144E+02	-4.05723457985E+01	-9.54813876283E+01	-6.06479552485E+00	-8.91732563749E-01
3.23412435735E+05	-1.34150876647E+01	-1.89584057173E+01	2.06800423437E+01	-1.77089127912E+02	-4.70620315500E+01	1.42689423200E+02	-6.07327745195E+00	6.49458676182E-02
3.23646204090E+05	-1.48838731170E+01	3.44565874606E+00	2.07020557415E+01	-1.77605118028E+02	-3.50426325679E+01	8.66094221955E+01	-6.02864995608E+00	8.87561321807E-01
3.23880141417E+05	-2.78494961097E+01	-1.29758524147E+02	2.08342870452E+01	-1.77298574502E+02	-4.54001061790E+01	1.75556910969E+01	-5.97108303722E+00	1.16865686041E-01
3.24114247838E+05	-1.84737451300E+01	1.01437439804E+02	2.07635472807E+01	-1.77502543218E+02	-3.92908734306E+01	1.02159565376E+02	-6.10120937692E+00	7.65403831604E-01
3.24348523475E+05	-1.76437688098E+01	7.64734772611E+01	2.07793173237E+01	-1.77710670598E+02	-3.89155399621E+01	1.29312549532E+02	-6.13439253281E+00	5.39457230873E-01
3.24582968451E+05	-2.10719276155E+01	-5.67206867974E+01	2.07967137963E+01	-1.76888026942E+02	-4.69110599414E+01	1.79054619814E+02	-6.05431984508E+00	-4.80727937711E-01
3.24817582888E+05	-2.56032722304E+01	-1.06215729761E+01	2.08043793653E+01	-1.77121721463E+02	-4.32260143494E+01	-8.90647729028E+01	-6.03582914195E+00	-1.03423399218E+00
3.25052366909E+05	-1.65522780183E+01	9.35931781514E+01	2.08459271957E+01	-1.77889036856E+02	-4.55063260285E+01	-9.45214685914E+01	-6.03023000501E+00	-7.03331499032E-01
3.25287320635E+05	-1.71834527189E+01	1.25749811075E+02	2.08606323930E+01	-1.77932507320E+02	-4.08248574361E+01	6.05059581549E+01	-5.93710240277E+00	3.06054333858E-01
3.25522444191E+05	-2.76979315475E+01	1.56155337026E+02	2.08131914298E+01	-1.77385891944E+02	-5.36764617769E+01	8.88260190897E+01	-6.00990774398E+00	-1.57552334106E-01
3.25757737698E+05	-1.57046028562E+01	3.69225891504E+01	2.07579641404E+01	-1.77686519365E+02	-4.40680549616E+01	-7.03940194992E+00	-5.89474450470E+00	-4.83944018835E-01
3.25993201280E+05	-1.72865317745E+01	9.57718986117E+01	2.08414977415E+01	-1.77903850888E+02	-3.44807423981E+01	-1.62799736268E+02	-6.25971226041E+00	-1.32154666968E-01
3.26228835058E+05	-1.80897902903E+01	1.33587361969E+01	2.07798648166E+01	-1.77387500357E+02	-3.41197039286E+01	6.02776194622E+01	-5.89461735432E+00	1.34590021533E+00
