# Hz S DB R 50
! CMT, M5065, 19127446, 24.2.4/2
! Date: 11/1/2024 3:46:50 PM
! Data: Format (Calibration Info)
! Freq	S11:dB/Ang(F2)	S21:dB/Ang(F2)	S12:dB/Ang(F2)	S22:dB/Ang(F2)
3.00000000000E+05	-1.89791016403E+01	-1.14541502258E+01	2.15861295113E+01	-1.76517296473E+02	-4.11511106836E+01	1.38839781220E-01	-5.89451624246E+00	-4.22598963004E-01
3.00216845423E+05	-1.85506267814E+01	-2.94056556722E+01	2.15907855177E+01	-1.76163196656E+02	-4.66314869716E+01	1.73426095435E+02	-6.01986056476E+00	-3.10454645560E-01
3.00433847586E+05	-3.64747838471E+01	-5.75281196251E+01	2.16564021204E+01	-1.76148576576E+02	-3.48576589528E+01	-3.18963112033E+01	-5.75669589788E+00	-1.04427351799E+00
3.00651006602E+05	-8.91995696458E+00	-1.06993389783E+02	2.17200013865E+01	-1.74961968878E+02	-3.13303040655E+01	1.06954530090E+02	-6.16147290256E+00	1.65895533059E+00
3.00868322584E+05	-1.35121010558E+01	1.06367770855E+02	2.17178313563E+01	-1.77169265473E+02	-4.08268791523E+01	-1.74943858126E+02	-6.11673041639E+00	-2.06373936991E-01
3.01085795647E+05	-1.79780855251E+01	7.27363500190E+01	2.16048503794E+01	-1.77217110585E+02	-3.88001550625E+01	-8.35369722886E+01	-6.00003222392E+00	-1.45314505962E+00
3.01303425902E+05	-1.92809591820E+01	-1.09556869904E+02	2.16429788976E+01	-1.76275058588E+02	-3.54651803308E+01	-1.24205108409E+02	-6.13517595724E+00	-1.55574445617E+00
3.01521213465E+05	-1.78705492208E+01	9.98593087974E+01	2.16388163147E+01	-1.77069604478E+02	-3.49845643489E+01	7.09646558159E+01	-5.95755508396E+00	1.11438697155E+00
3.01739158449E+05	-1.50539391549E+01	6.44449021985E+01	2.15814704455E+01	-1.77148909799E+02	-4.06379663120E+01	9.88092192746E+01	-6.03284191743E+00	4.81427339455E-01
3.01957260967E+05	-1.84473644558E+01	-5.28217438775E+00	2.15551891030E+01	-1.76309988582E+02	-2.82567154528E+01	5.72071076231E+01	-5.65311236991E+00	3.36098534361E+00
3.02175521134E+05	-1.59538665120E+01	4.14069984296E+00	2.15670264930E+01	-1.76604473658E+02	-3.15780564750E+01	-9.74083287206E+01	-6.03136307833E+00	-3.35524210481E+00
3.02393939063E+05	-2.51551627662E+01	-4.29531379289E+00	2.15967046809E+01	-1.76443303658E+02	-5.87941109462E+01	-1.32603331650E+02	-6.02822723138E+00	-5.09962559342E-01
3.02612514869E+05	-1.40871752302E+01	-2.68048561714E+01	2.15488313798E+01	-1.76214415441E+02	-4.61910402108E+01	2.50659052541E+00	-5.99054554326E+00	-3.28657990792E-01
3.02831248665E+05	-1.37621135364E+01	2.50559073912E+00	2.15604745415E+01	-1.76513855631E+02	-4.19418023494E+01	-1.05122746611E+02	-6.07871589845E+00	-1.08814875031E+00
3.03050140565E+05	-2.62487024406E+01	-4.47790248213E+01	2.16343059540E+01	-1.76303069227E+02	-3.40786379100E+01	8.42513337155E+01	-5.98260186610E+00	9.89990438622E-01
3.03269190685E+05	-2.16227061118E+01	1.74156001838E+01	2.16164508198E+01	-1.76591764013E+02	-3.61107595117E+01	-5.26497655382E+01	-5.83933543216E+00	-1.26768451644E+00
3.03488399138E+05	-2.18357255845E+01	4.42071714393E+01	2.16056213848E+01	-1.76624561187E+02	-3.51863478608E+01	-8.04010660828E+01	-5.94399149471E+00	-2.42587916663E+00
3.03707766039E+05	-1.03600198525E+01	-8.41713936807E+01	2.16385647519E+01	-1.75250319968E+02	-2.46664741785E+01	6.74953109991E+01	-5.72539453667E+00	4.97244208421E+00
3.03927291503E+05	-1.17040480591E+01	1.16590193278E+02	2.17166083462E+01	-1.77459561799E+02	-5.23322788460E+01	6.94745948775E+01	-6.02868262859E+00	-6.63901266650E-02
3.04146975643E+05	-2.78983804243E+01	-1.04768836855E+02	2.16892722345E+01	-1.76693980374E+02	-4.21796215579E+01	1.31756175104E+01	-5.91053872036E+00	-1.44889502489E-02
3.04366818575E+05	-1.80324279734E+01	-5.64959439419E+01	2.15837199629E+01	-1.76103509675E+02	-5.11710794628E+01	-1.13938784747E+02	-6.00661750888E+00	-4.98455680428E-01
3.04586820414E+05	-2.52047721938E+01	1.19556757339E+02	2.16318537685E+01	-1.76735231345E+02	-3.35125459682E+01	-1.74511441703E+02	-6.30424490456E+00	-3.65908500097E-01
3.04806981274E+05	-1.77873859434E+01	2.64224904628E+01	2.15870787494E+01	-1.76844329931E+02	-4.65529389159E+01	-3.61133284454E+01	-5.94317733748E+00	-3.86767835076E-01
3.05027301270E+05	-1.82628874354E+01	3.37726480492E+01	2.15697366065E+01	-1.76643408060E+02	-2.70270127604E+01	5.82684514072E+01	-5.64357812365E+00	4.07263301803E+00
3.05247780517E+05	-1.07882236726E+01	1.75073512102E+01	2.14803913050E+01	-1.76984901963E+02	-4.12982890594E+01	3.81565926928E+01	-5.81258251082E+00	5.71021134636E-01
3.05468419131E+05	-1.39457687685E+01	4.38024508132E+01	2.15189259379E+01	-1.77229792441E+02	-3.53433496920E+01	1.55148081003E+00	-5.85905247632E+00	-7.88431184518E-02
3.05689217226E+05	-2.29640397512E+01	8.27387149069E+01	2.16407067389E+01	-1.77121613643E+02	-3.70882055604E+01	-1.45577552716E+02	-6.15921097420E+00	-1.16139375480E+00
3.05910174918E+05	-3.00293105137E+01	-8.73643781948E+01	2.16537112372E+01	-1.76527350430E+02	-4.00046894257E+01	1.31703309288E+02	-6.04037184792E+00	1.06104761565E-01
3.06131292322E+05	-1.54265495377E+01	-1.66663172725E+01	2.15527681406E+01	-1.76414297098E+02	-4.64502009425E+01	-1.65183879495E+02	-6.09297375801E+00	-5.77784551609E-01
3.06352569554E+05	-1.96143932073E+01	-1.23322277593E+02	2.16943157766E+01	-1.76493663752E+02	-4.18966955127E+01	-4.08663896346E+01	-5.93152393315E+00	-7.43154114439E-01
3.06574006730E+05	-1.53001640789E+01	-6.89765103798E+01	2.16130754249E+01	-1.76161605882E+02	-3.88931433466E+01	1.61836570959E+02	-6.10748422748E+00	1.70381679322E-01
3.06795603964E+05	-1.53517404914E+01	1.16552166962E+02	2.17168568313E+01	-1.77285978447E+02	-2.40261195234E+01	1.76143104936E+02	-7.03226028352E+00	-1.17709688939E-01
3.07017361372E+05	-1.16433724674E+01	2.96614190122E+01	2.14784290496E+01	-1.77066805835E+02	-3.61454078629E+01	-1.23898321962E+01	-5.86459977711E+00	-1.81905500106E-01
3.07239279071E+05	-1.86912185126E+01	3.14839066343E+01	2.15864374295E+01	-1.76861783446E+02	-4.03730000726E+01	-5.04653856067E+01	-5.94432845815E+00	-8.19857847504E-01
3.07461357176E+05	-2.45573205231E+01	4.55203160432E+01	2.16178463003E+01	-1.76775271561E+02	-4.08119922501E+01	-3.22479053277E+01	-5.91898630977E+00	-7.06878770459E-01
3.07683595803E+05	-1.48688602339E+01	6.58310743293E+01	2.16382644513E+01	-1.77318009374E+02	-4.59486328647E+01	1.77766163368E+02	-6.06635970800E+00	4.68127000780E-02
3.07905995068E+05	-1.53577412608E+01	-4.64262123794E+01	2.15869871385E+01	-1.76269888842E+02	-4.01710557443E+01	-6.45890472670E+01	-5.93935646263E+00	-1.19825318722E+00
3.08128555087E+05	-1.75082140627E+01	1.48493094047E+02	2.17014790383E+01	-1.76548154323E+02	-3.04467928046E+01	6.81932556821E+01	-5.85329086740E+00	2.53548470522E+00
3.08351275976E+05	-1.70281548171E+01	-1.24749411851E+01	2.15454732487E+01	-1.76624108635E+02	-2.74689213885E+01	2.95744247107E+01	-5.45279990321E+00	1.84225494629E+00
3.08574157853E+05	-8.57771370292E+00	-9.32287362718E+01	2.16642788902E+01	-1.75209259548E+02	-4.09427725939E+01	4.98107920648E+01	-5.92901038713E+00	3.53781579659E-01
3.08797200832E+05	-1.64002349483E+01	-7.31822919096E+01	2.16143172393E+01	-1.76395553486E+02	-3.57422153596E+01	-4.63044050159E+01	-5.86473516265E+00	-1.04595538504E+00
3.09020405031E+05	-1.43350178226E+01	6.83937004402E+01	2.16227739892E+01	-1.77287864988E+02	-3.43407273398E+01	-1.50956340736E+02	-6.20044177120E+00	-8.23176106473E-01
3.09243770566E+05	-2.21171666518E+01	6.95722731284E+01	2.16373058051E+01	-1.77102821440E+02	-4.46637621053E+01	7.74458240837E+01	-6.01175922764E+00	9.87592030096E-02
3.09467297553E+05	-1.39466785233E+01	6.87094330898E+01	2.15774555492E+01	-1.77288108751E+02	-4.37149835330E+01	7.21424232655E+01	-6.02847720967E+00	6.01787218800E-03
3.09690986110E+05	-2.18668443317E+01	-9.43954725949E+01	2.16541005249E+01	-1.76424911748E+02	-3.89822994388E+01	1.30235202910E+02	-6.15020774808E+00	2.62712893507E-01
3.09914836353E+05	-2.43392569688E+01	-1.29165683391E+02	2.16740425465E+01	-1.76451586362E+02	-3.03516903135E+01	-6.95039766150E+00	-5.54773957683E+00	-9.14833327829E-01
3.10138848399E+05	-9.53485496999E+00	1.15978553316E+02	2.17372256776E+01	-1.78244034855E+02	-4.15910237264E+01	5.54040287379E+01	-5.97062199649E+00	2.61232405481E-01
3.10363022365E+05	-3.09774072784E+01	9.25557850068E+01	2.16417227219E+01	-1.77192063596E+02	-3.96534225848E+01	-6.46403210164E+00	-5.91594314069E+00	-5.93328997022E-01
3.10587358368E+05	-2.44164413156E+01	8.35443001024E+01	2.16504824574E+01	-1.77036936711E+02	-3.92870482448E+01	1.03238379348E+02	-6.03758431527E+00	6.17927029340E-01
3.10811856525E+05	-1.91057214039E+01	-2.80952030066E+01	2.15806364706E+01	-1.76411588907E+02	-4.09493847908E+01	1.34922338547E+02	-6.12000026129E+00	7.51624919228E-02
3.11036516954E+05	-2.54243096345E+01	3.88426089411E+01	2.16725656109E+01	-1.76930366734E+02	-4.24702644547E+01	1.63140108419E+02	-6.07992121978E+00	1.81360446107E-02
3.11261339771E+05	-1.79978193230E+01	1.19238923710E+02	2.17062163164E+01	-1.77475944164E+02	-3.71163281870E+01	-1.23050555141E+02	-6.04469750445E+00	-1.33560031174E+00
3.11486325094E+05	-1.62366036962E+01	-9.12700600606E+00	2.15911320874E+01	-1.77110166264E+02	-3.37405316794E+01	-2.60609847252E+01	-5.76097796906E+00	-1.10594361120E+00
3.11711473040E+05	-5.54178486826E+00	2.66899207447E+00	2.12548354597E+01	-1.76977399885E+02	-4.83009705820E+01	-1.77118432581E+01	-5.98168181578E+00	-2.39717685853E-01
3.11936783728E+05	-1.67226147898E+01	-2.55836185799E+01	2.15968369616E+01	-1.76551979741E+02	-3.81349654797E+01	-3.60270153585E+01	-5.86441698679E+00	-9.83411462405E-01
3.12162257274E+05	-2.01138973829E+01	-1.47487252358E+00	2.15937455255E+01	-1.76941349269E+02	-4.40393386900E+01	1.19391535703E+02	-6.07870221519E+00	5.23740324791E-01
3.12387893797E+05	-1.94079702752E+01	-5.88000486759E+01	2.16187332820E+01	-1.76585791687E+02	-3.46420366668E+01	-7.70853730128E+01	-5.96642155072E+00	-1.85562307428E+00
3.12613693413E+05	-2.12663441963E+01	4.86310104046E+01	2.15927067349E+01	-1.77352718923E+02	-4.02632227996E+01	7.43180982849E+01	-5.97904732842E+00	1.30115481722E-01
3.12839656242E+05	-1.72891356359E+01	4.00253308881E+01	2.16019106688E+01	-1.77266226680E+02	-2.93255098843E+01	1.77970619197E+02	-6.57669859776E+00	-3.30782677189E-01
3.13065782401E+05	-1.12454242843E+01	3.83758155197E+01	2.15449291995E+01	-1.77813232355E+02	-3.12159364550E+01	-1.50046770892E+02	-6.37907943202E+00	-1.91089285145E+00
3.13292072007E+05	-8.41193820535E+00	-1.66799633700E+01	2.13848073165E+01	-1.76472743657E+02	-3.78697743650E+01	-3.35116748474E+01	-5.90299954248E+00	-7.01196849943E-01
3.13518525180E+05	-1.74877285489E+01	6.72407824095E+01	2.16220345086E+01	-1.77422293343E+02	-4.03563554008E+01	3.31744070327E+01	-6.00388231708E+00	6.27340383855E-02
3.13745142038E+05	-2.17447636759E+01	2.39653328502E+01	2.15941261475E+01	-1.77260600958E+02	-4.20958462784E+01	-3.02725288902E+01	-5.96183990019E+00	-3.61170906599E-01
3.13971922698E+05	-1.92698462365E+01	-4.94165412099E+01	2.16595720156E+01	-1.76622524119E+02	-4.04002095637E+01	-9.31950515319E+01	-6.04849964719E+00	-1.39516633113E+00
3.14198867279E+05	-3.52341385447E+01	-3.41419905696E+01	2.16506100344E+01	-1.76788476583E+02	-3.92585835029E+01	-1.00015762797E+02	-6.01266514787E+00	-7.94537019340E-01
3.14425975900E+05	-1.70245908230E+01	-3.37866759050E+01	2.15853199516E+01	-1.76899314066E+02	-4.48800535131E+01	5.15181612654E+01	-5.94581792420E+00	1.60160331212E-01
3.14653248680E+05	-1.36293661684E+01	1.23694839377E+01	2.15594022722E+01	-1.77002204353E+02	-3.36160175100E+01	-9.08217851605E+01	-5.93537243945E+00	-2.29772587214E+00
3.14880685736E+05	-1.18578669726E+01	2.70627511191E+01	2.15047198021E+01	-1.77547350383E+02	-4.68430803485E+01	1.57831783530E+02	-6.04340835769E+00	-3.09719416264E-01
3.15108287188E+05	-2.63715206491E+01	1.72692760540E+01	2.16056090668E+01	-1.76778840045E+02	-4.18758446809E+01	-1.55562995963E+02	-6.10975133809E+00	-4.26926492637E-01
3.15336053154E+05	-2.19507065063E+01	-1.46303544800E+02	2.17081994248E+01	-1.76617075447E+02	-3.70355721656E+01	4.15393693205E+01	-5.86469712254E+00	2.21492893768E-01
3.15563983753E+05	-2.40599176680E+01	1.48898814205E+02	2.16957297525E+01	-1.77123127131E+02	-6.81515552476E+01	1.16944494997E+01	-6.00901836954E+00	-7.41040861393E-01
3.15792079105E+05	-2.23738383541E+01	-1.31272184557E+01	2.15704951867E+01	-1.76691286467E+02	-3.74266210665E+01	1.72045754102E+02	-6.15918938608E+00	-2.85801527871E-02
3.16020339328E+05	-2.24772670023E+01	1.43418139039E+02	2.16380041581E+01	-1.77233533612E+02	-3.47237747394E+01	1.65871563740E+02	-6.29131622808E+00	2.14940560198E-01
3.16248764542E+05	-2.10259624589E+01	-1.58059251295E+01	2.15984536302E+01	-1.77135006931E+02	-3.35161036845E+01	1.15813148979E+02	-6.21191456342E+00	1.56142155486E+00
3.16477354866E+05	-2.73021161428E+01	1.09914327698E+02	2.16531462485E+01	-1.77001540609E+02	-3.78752832630E+01	-1.75058798847E+02	-6.23161567587E+00	-6.22140771423E-01
3.16706110419E+05	-1.81468405430E+01	2.50657284132E+01	2.15556880652E+01	-1.77142749264E+02	-4.21580680148E+01	1.04524454234E+02	-6.00452511047E+00	1.55771600676E-02
3.16935031321E+05	-1.34266279972E+01	1.14676702776E+02	2.16850104728E+01	-1.77799206588E+02	-4.17878907188E+01	-1.30817720106E+01	-5.92445495880E+00	-3.60784220902E-01
3.17164117691E+05	-1.36666814583E+01	2.08275291598E+01	2.15539743365E+01	-1.77224005996E+02	-3.90009643845E+01	5.53466963241E+01	-5.93512457922E+00	6.17795646662E-01
3.17393369648E+05	-2.01908766873E+01	-1.84508748226E+01	2.15681478312E+01	-1.76817820953E+02	-3.72901435496E+01	5.18902040535E+01	-5.90729658532E+00	1.90016304570E-01
3.17622787313E+05	-2.05488686592E+01	6.43523918430E+01	2.16253453314E+01	-1.77685149897E+02	-3.75180225057E+01	1.44668605149E+02	-6.15994971986E+00	1.72548517030E-01
3.17852370806E+05	-1.90143849505E+01	-1.32423728852E+02	2.16897186531E+01	-1.76586286232E+02	-3.26524970007E+01	2.43007990343E+00	-5.59531826703E+00	-7.20017109019E-03
3.18082120245E+05	-1.86215990622E+01	1.75506138863E+01	2.16039849939E+01	-1.77375215019E+02	-3.63127603502E+01	-1.32812554561E+01	-5.79717934919E+00	-8.68088007463E-01
3.18312035752E+05	-2.01835986863E+01	8.41879951442E+01	2.16161392612E+01	-1.77545735379E+02	-4.51880970412E+01	-1.38164083688E+02	-6.05742038638E+00	-5.74985886134E-01
3.18542117445E+05	-2.39703899450E+01	3.22508101747E+01	2.16058988091E+01	-1.77417871996E+02	-4.32640741712E+01	2.88968081626E+01	-5.97263487515E+00	3.15583083856E-01
3.18772365446E+05	-2.20406447975E+01	1.01059762082E+02	2.16903465513E+01	-1.77365140661E+02	-4.33868601370E+01	1.78381529319E+02	-6.12019576903E+00	-4.12910711753E-01
3.19002779874E+05	-2.76413079677E+01	1.59739166649E+00	2.16477804107E+01	-1.77193288749E+02	-3.95271705509E+01	1.35260230358E+02	-6.04036887524E+00	-1.83554220155E-02
3.19233360850E+05	-2.09989136956E+01	-1.15172540794E+01	2.16339403395E+01	-1.77016178959E+02	-3.70153707462E+01	1.53477280109E+00	-5.84101979394E+00	-2.93711961166E-01
3.19464108494E+05	-1.52825325913E+01	5.72955345692E+01	2.16175247748E+01	-1.77667207106E+02	-6.23846712239E+01	-1.29673020423E+02	-6.02304889871E+00	-6.44215789333E-01
3.19695022927E+05	-1.30062793823E+01	7.54632844397E+01	2.15870828547E+01	-1.78224722229E+02	-4.55948055992E+01	-1.20059420960E+02	-6.10969681644E+00	-6.52074350260E-01
3.19926104268E+05	-2.77168358294E+01	1.19071747419E+01	2.16382528633E+01	-1.77321517737E+02	-3.40140105278E+01	-1.05198061571E+02	-6.06199534700E+00	-2.04463944343E+00
3.20157352640E+05	-1.78938545995E+01	-3.44656696274E+01	2.15602875113E+01	-1.76986933911E+02	-4.28717713541E+01	-1.23000937148E+02	-6.09301886456E+00	-1.02122135281E+00
3.20388768162E+05	-1.82057100740E+01	1.16280137057E+02	2.16807156315E+01	-1.77689593678E+02	-5.51113058605E+01	2.70094817521E+01	-5.98557680609E+00	-4.35100574427E-01
3.20620350955E+05	-1.54932415401E+01	-3.95635525514E+01	2.15490992930E+01	-1.76976814053E+02	-4.98376676022E+01	-4.11202490825E+01	-6.02956604441E+00	-6.64637353133E-01
3.20852101140E+05	-1.88585586843E+01	-1.15506175770E+01	2.16021867761E+01	-1.77215636237E+02	-3.44002586801E+01	1.03375475740E+02	-6.11739132125E+00	9.73707061096E-01
3.21084018839E+05	-1.27213152722E+01	-3.41288519207E+01	2.15045432562E+01	-1.76674033971E+02	-2.76343875844E+01	1.17503666543E+02	-6.32041281753E+00	3.47520672213E+00
3.21316104172E+05	-1.74624207244E+01	3.04719405842E+01	2.15558786064E+01	-1.77639877004E+02	-3.61136675010E+01	-4.15576691238E+01	-5.83472195130E+00	-1.57530063560E+00
3.21548357261E+05	-1.57198811154E+01	4.15148057599E+01	2.15708421196E+01	-1.77292105303E+02	-3.92853344159E+01	-4.35897991346E+01	-5.93248689029E+00	-9.42639986014E-01
3.21780778226E+05	-1.28187611859E+01	1.98911197144E+01	2.15257223677E+01	-1.77395249280E+02	-4.34814719282E+01	-2.01759981932E+01	-5.94286832385E+00	-7.21047063957E-01
3.22013367189E+05	-1.91498902076E+01	2.04155700076E+01	2.15734168496E+01	-1.77223883145E+02	-3.41369921535E+01	-5.43796863879E+01	-5.83739472935E+00	-1.52888852467E+00
3.22246124272E+05	-2.25770451459E+01	-5.15930372819E+01	2.16011773844E+01	-1.77118883536E+02	-4.62531921815E+01	-6.11824377894E+01	-5.99448590672E+00	-4.09390865402E-01
3.22479049596E+05	-2.34207310489E+01	-5.63054760853E+00	2.15677474409E+01	-1.77121334288E+02	-3.60549071805E+01	6.44970048624E+01	-5.98859349662E+00	6.08456378102E-01
3.22712143282E+05	-1.93373378029E+01	1.07380265002E+01	2.15600374644E+01	-1.77129327317E+02	-3.37234312400E+01	-1.08108170903E+02	-6.11476518090E+00	-2.06543481186E+00
3.22945405453E+05	-1.22424951679E+01	-4.39448069567E+01	2.15619131543E+01	-1.76638270361E+02	-3.62151726523E+01	-1.53280622910E+02	-6.24272296991E+00	-1.22086575210E+00
3.23178836230E+05	-1.12255510771E+01	2.73808188015E+01	2.15024117460E+01	-1.77661968809E+02	-3.95666626981E+01	-1.03322718229E+02	-6.03824602601E+00	-1.06348275443E+00
3.23412435735E+05	-1.75242455050E+01	-4.28248549149E+01	2.15794371516E+01	-1.76666436155E+02	-3.81694653401E+01	-1.33943542573E+02	-6.09088465589E+00	-1.26047567397E+00
3.23646204090E+05	-1.67096031118E+01	8.05955851524E+01	2.16343160650E+01	-1.77599796233E+02	-3.47646850149E+01	8.00162638640E+01	-6.02372242049E+00	9.26793021913E-01
3.23880141417E+05	-2.43404301552E+01	1.55262908863E+01	2.16312623243E+01	-1.77389057325E+02	-4.75236501678E+01	-1.10007286050E+02	-6.01168558821E+00	-5.67032589155E-01
3.24114247838E+05	-2.59533850829E+01	3.92624207445E+01	2.16522280117E+01	-1.77309407283E+02	-3.87062204665E+01	-4.17643656153E+01	-5.90360119981E+00	-8.49286683186E-01
3.24348523475E+05	-2.15605477405E+01	2.95355776230E+01	2.15337331976E+01	-1.77433840424E+02	-3.11949676099E+01	1.08761923109E+02	-6.17609423446E+00	2.32071545442E+00
3.24582968451E+05	-1.99722679420E+01	-1.96988636474E+01	2.15696150399E+01	-1.77088672199E+02	-4.72193893053E+01	-4.01785997983E+00	-5.95850038726E+00	-3.99251814881E-01
3.24817582888E+05	-1.58150664681E+01	-1.88813110107E+01	2.15798471771E+01	-1.76833448576E+02	-3.97110143204E+01	-5.25787188303E+01	-5.94147395725E+00	-1.06097253379E+00
3.25052366909E+05	-4.11136207122E+01	1.72599520854E+01	2.16464686175E+01	-1.77422926974E+02	-3.78583196541E+01	1.66586359435E+02	-6.20910009193E+00	-1.64001680776E-01
3.25287320635E+05	-2.03475612111E+01	7.35451280175E+01	2.16396069365E+01	-1.77732289669E+02	-4.20814834356E+01	7.93858281482E+01	-5.95958149438E+00	8.33575299205E-01
3.25522444191E+05	-2.19568767065E+01	-7.91676224465E+01	2.16509554713E+01	-1.76930180667E+02	-4.23741933373E+01	-1.44432234563E+01	-5.96118988893E+00	-4.25685657151E-01
3.25757737698E+05	-1.99274148908E+01	-5.68917588934E+01	2.16100778449E+01	-1.76963200644E+02	-3.66956962598E+01	9.75295755556E+01	-6.08305658675E+00	8.24535535669E-01
3.25993201280E+05	-2.01463430242E+01	6.07318363484E+01	2.16287099246E+01	-1.77674372688E+02	-3.15518354746E+01	2.97165763436E+00	-5.59909349113E+00	-1.56395290305E-01
3.26228835058E+05	-1.04997951640E+01	2.57108129104E+01	2.14821278066E+01	-1.77813718257E+02	-3.82917955948E+01	-1.51121879238E+02	-6.17164053056E+00	-8.57425853781E-01
