# Hz S DB R 50
! CMT, M5065, 19127446, 24.2.4/2
! Date: 11/1/2024 3:31:14 PM
! Data: Format (Calibration Info)
! Freq	S11:dB/Ang(F2)	S21:dB/Ang(F2)	S12:dB/Ang(F2)	S22:dB/Ang(F2)
3.00000000000E+05	-2.94891833782E+01	-5.39315616582E+01	1.02781529072E+01	-1.77609114697E+02	-4.19238437796E+01	-5.95557091301E+01	-6.02033829609E+00	-4.78611833624E-01
3.00216845423E+05	-2.00765903125E+01	2.08957951275E+01	1.01689111640E+01	-1.77547384679E+02	-4.31923083651E+01	-5.07563567505E+01	-6.02536817967E+00	-2.69600146490E-01
3.00433847586E+05	-1.75602795893E+01	5.11086283145E+01	1.02020050472E+01	-1.77857218555E+02	-4.30185738005E+01	-1.79091829343E+02	-6.03703706350E+00	8.36222052632E-03
3.00651006602E+05	-1.62038248009E+01	-1.20188866385E+01	1.01763171441E+01	-1.77534522182E+02	-3.46592885561E+01	-5.62738064818E+01	-5.99338695442E+00	-5.38642103465E-01
3.00868322584E+05	-3.24877602564E+01	4.92241085519E+01	1.02704699731E+01	-1.77543221844E+02	-3.66654429920E+01	4.80145729812E+01	-5.99639394182E+00	3.23987069973E-01
3.01085795647E+05	-1.80474342173E+01	3.79738725192E+01	1.02076154398E+01	-1.78129148313E+02	-3.44065934841E+01	-3.58928856810E+01	-5.96819080920E+00	-4.60876862797E-01
3.01303425902E+05	-1.53269017840E+01	-5.28037153804E+01	1.02112368726E+01	-1.77205254606E+02	-3.64867981807E+01	1.01556116995E+02	-6.00022227283E+00	-1.25088991548E-03
3.01521213465E+05	-3.10690928521E+01	2.14031904564E+01	1.02396121360E+01	-1.77695861684E+02	-3.95176139316E+01	-9.76993308762E+01	-6.05903996188E+00	-3.91282263740E-01
3.01739158449E+05	-1.46607321462E+01	-2.24562216810E+01	1.01985543348E+01	-1.77220864184E+02	-3.22737992946E+01	-4.84705887928E+01	-6.01906250789E+00	-4.49754180342E-01
3.01957260967E+05	-2.97893915173E+01	-7.14108419529E+01	1.02232336086E+01	-1.77372959000E+02	-4.06202913655E+01	3.86516006342E+01	-6.03470648513E+00	-6.07212410612E-03
3.02175521134E+05	-1.78271051456E+01	2.73456248126E+00	1.02247284639E+01	-1.77628122690E+02	-4.25386302422E+01	-1.11874171442E+02	-6.02654785439E+00	-4.51158682342E-01
3.02393939063E+05	-1.50638018263E+01	-3.06874119253E+00	1.01424803911E+01	-1.77386936020E+02	-4.70015892968E+01	6.28074277073E+01	-6.01088639008E+00	-1.00350557266E-02
3.02612514869E+05	-1.25838102429E+01	-9.58917050376E+01	1.03572232257E+01	-1.76774291040E+02	-3.20035778603E+01	-1.39749297457E+02	-6.13477621618E+00	-6.83256326397E-01
3.02831248665E+05	-2.76846130012E+01	-6.89072419032E+00	1.02308282957E+01	-1.77174921832E+02	-3.46845869276E+01	-1.32714708009E+02	-6.07816824595E+00	-7.40800152245E-01
3.03050140565E+05	-1.75839814152E+01	9.63519102945E+01	1.02479914126E+01	-1.77994977590E+02	-4.36878212055E+01	2.00009593146E+01	-5.96528037699E+00	-1.72515565736E-01
3.03269190685E+05	-3.95756007920E+01	-1.64847354236E+02	1.02979224855E+01	-1.77684749649E+02	-4.25179517600E+01	-4.67561615629E+01	-5.99175983585E+00	-2.24174332840E-01
3.03488399138E+05	-1.54385339426E+01	-8.32557796450E+01	1.02790186699E+01	-1.77227946581E+02	-5.42954190892E+01	8.75515733608E+01	-6.05580229234E+00	-7.52546356419E-02
3.03707766039E+05	-1.88925906969E+01	5.33117875227E+01	1.01897085429E+01	-1.78095510597E+02	-4.25543287344E+01	-7.21508587558E+01	-6.01370870039E+00	-3.16245511557E-01
3.03927291503E+05	-1.57464375835E+01	8.21705814565E+01	1.02382680152E+01	-1.78230731143E+02	-4.74544138376E+01	-1.63448621077E+02	-6.07847057247E+00	-3.07573720955E-01
3.04146975643E+05	-1.05626527095E+01	-5.35137234780E+01	1.01234282800E+01	-1.76404595767E+02	-2.87831266234E+01	-1.12439967127E+02	-6.08755635640E+00	-1.23321073655E+00
3.04366818575E+05	-1.38349874047E+01	2.60354345088E+01	1.01420379225E+01	-1.77529798132E+02	-3.56341851883E+01	1.14998212588E+02	-6.04647142344E+00	3.14185642229E-01
3.04586820414E+05	-1.46310209760E+01	1.29574413789E+01	1.01750532017E+01	-1.77719113809E+02	-4.43465675180E+01	1.37599385584E+02	-6.03066022586E+00	1.40723163014E-02
3.04806981274E+05	-1.40932978573E+01	1.07206359550E+01	1.01816104640E+01	-1.77681222735E+02	-4.20571842554E+01	1.00610606669E+02	-6.02950796689E+00	2.54979218383E-01
3.05027301270E+05	-1.29717857453E+01	7.61930839913E+01	1.02272676904E+01	-1.78688467250E+02	-4.92186271563E+01	-6.01654121047E+01	-6.03531828768E+00	-3.64875554223E-01
3.05247780517E+05	-1.51207088650E+01	-3.94405870167E+01	1.01795580368E+01	-1.77108533960E+02	-3.09427120192E+01	1.48548502800E+02	-6.10925839101E+00	3.40617609646E-02
3.05468419131E+05	-2.68821477659E+01	-1.07081243348E+02	1.02681538217E+01	-1.77755845259E+02	-3.68167655499E+01	-7.61087606135E+01	-6.01789920786E+00	-2.78766691255E-01
3.05689217226E+05	-2.14147176516E+01	1.33864042029E+02	1.03229805111E+01	-1.77891033677E+02	-2.72527848653E+01	6.66927240226E+00	-5.89513096846E+00	-3.75903418283E-03
3.05910174918E+05	-8.80977279118E+00	5.06904796908E+01	1.00691367921E+01	-1.78796684052E+02	-2.97967814387E+01	1.79330452931E+02	-6.22272239930E+00	-1.86353861875E-01
3.06131292322E+05	-2.06453679714E+01	-2.69047212092E+01	1.02406114716E+01	-1.77335291184E+02	-3.92663155518E+01	1.78590333937E+02	-6.05310758162E+00	3.06169815049E-02
3.06352569554E+05	-1.50885812142E+01	5.75334741586E+01	1.02017386576E+01	-1.78599712051E+02	-4.42361643239E+01	-1.60018032552E+02	-6.04891529051E+00	-1.93839588852E-01
3.06574006730E+05	-1.93398721220E+01	6.57321371908E+01	1.02297854829E+01	-1.77943062237E+02	-3.95285925107E+01	-1.02285251001E+02	-6.04478851562E+00	-4.54269021372E-01
3.06795603964E+05	-2.00593970967E+01	-4.50103765534E+01	1.02661732985E+01	-1.77065861573E+02	-3.77949055591E+01	-6.78802042392E+01	-5.98801104916E+00	-4.09305826284E-01
3.07017361372E+05	-2.23084598110E+01	2.57893197642E+01	1.02568050469E+01	-1.77584507536E+02	-3.79516734731E+01	-1.76397203569E+02	-6.11305226223E+00	-2.15874225493E-01
3.07239279071E+05	-1.31699451951E+01	1.26410339952E+01	1.01143566751E+01	-1.78287839052E+02	-3.71485807121E+01	1.13190858755E+02	-6.05399341951E+00	-6.68146308000E-02
3.07461357176E+05	-1.35576828983E+01	-1.47937464290E+02	1.04140853008E+01	-1.77223081457E+02	-2.71849329518E+01	-6.71198351323E+01	-5.93610281233E+00	-1.54220134120E+00
3.07683595803E+05	-2.02036563326E+01	4.40146924077E+01	1.02099579927E+01	-1.77983116458E+02	-3.41193410076E+01	1.32669878269E+02	-6.07093448273E+00	-1.05953288271E-01
3.07905995068E+05	-1.26759443184E+01	3.31912363734E+00	1.00803476892E+01	-1.77809630024E+02	-4.03803960639E+01	-6.39446907993E+01	-6.00247386950E+00	-3.07843843390E-01
3.08128555087E+05	-2.44788357219E+01	-5.65563661988E+01	1.02769415981E+01	-1.77130296794E+02	-3.78124344494E+01	4.72390037908E+01	-5.99238944205E+00	3.71270927714E-03
3.08351275976E+05	-3.77233651907E+01	1.63248749626E+02	1.02291636549E+01	-1.77200646698E+02	-5.89338364623E+01	-8.08347877307E+01	-6.07315152703E+00	-1.05799757123E-01
3.08574157853E+05	-1.71999325382E+01	4.83964912270E+01	1.01593892842E+01	-1.78196135912E+02	-4.03954089843E+01	1.21180383171E+02	-6.04221628058E+00	-1.98310125064E-01
3.08797200832E+05	-6.36661103193E+00	3.75291264724E+00	9.91503891264E+00	-1.77697750273E+02	-3.05242474931E+01	7.42553919632E+01	-6.02431241316E+00	5.58680992082E-01
3.09020405031E+05	-9.31795194014E+00	-3.27705683312E+01	1.01020837714E+01	-1.76918055022E+02	-3.25147689949E+01	1.30490439408E+01	-5.90349999821E+00	1.20950696220E-01
3.09243770566E+05	-3.75582146146E+01	-1.16257009841E+02	1.02280549921E+01	-1.77537615143E+02	-4.68880686242E+01	-1.24353809985E+02	-6.03537299824E+00	-4.11346554705E-01
3.09467297553E+05	-2.04139518942E+01	3.56673287147E+01	1.02186621493E+01	-1.77948722610E+02	-4.73144961751E+01	-1.11063417869E+02	-6.02998534972E+00	-4.99995156196E-01
3.09690986110E+05	-1.55943038056E+01	4.98135925839E+01	1.01985288541E+01	-1.78105907502E+02	-3.96186803994E+01	-3.86022397682E+01	-6.00830362300E+00	-3.83592308259E-01
3.09914836353E+05	-2.08284402707E+01	2.11579530848E+01	1.01800768194E+01	-1.77897452995E+02	-4.13141734217E+01	6.84989740559E+01	-5.97521974763E+00	-7.71908685910E-02
3.10138848399E+05	-3.15630779873E+01	-3.70906597906E+01	1.02662530802E+01	-1.77606157794E+02	-4.29242960402E+01	7.77954419426E+01	-6.05687627978E+00	-1.32084024477E-01
3.10363022365E+05	-1.56799665507E+01	-4.50043138258E+01	1.01711298267E+01	-1.76860897479E+02	-3.48747938656E+01	-6.28854577797E+01	-6.00416452760E+00	-7.06685784468E-01
3.10587358368E+05	-1.47394928448E+01	-1.54873599941E+02	1.04202719435E+01	-1.77221073012E+02	-3.19442045611E+01	1.13759807943E+02	-6.07263376979E+00	6.39818130974E-01
3.10811856525E+05	-1.56786277369E+01	-3.57885305880E+01	1.02095362959E+01	-1.77618286766E+02	-4.16355825992E+01	-1.73297493855E+02	-6.07797638120E+00	-8.23782361468E-02
3.11036516954E+05	-1.74789298403E+01	4.05075889350E+01	1.02554756774E+01	-1.78074836212E+02	-3.98271688165E+01	-2.26554691114E+01	-6.03950869038E+00	-4.13368153679E-01
3.11261339771E+05	-1.80309936174E+01	-4.63063013654E+01	1.02275339662E+01	-1.77222640009E+02	-4.35110393507E+01	-3.42927429023E+01	-6.02074481736E+00	-2.11785500499E-01
3.11486325094E+05	-1.77616477703E+01	6.90304286097E+01	1.02037701199E+01	-1.78167782131E+02	-3.47909966664E+01	-3.69989133858E+01	-5.99472191351E+00	-3.43058827748E-01
3.11711473040E+05	-1.89040941427E+01	-7.39775205455E+00	1.01802014760E+01	-1.77769557911E+02	-3.84950147111E+01	-1.35799721262E+02	-6.05971639837E+00	-5.17038889139E-01
3.11936783728E+05	-1.64489350198E+01	2.81418918916E+01	1.01795286956E+01	-1.77989252778E+02	-4.13797380266E+01	2.79039328063E+01	-5.97927023368E+00	-1.60284471273E-03
3.12162257274E+05	-4.35022148449E+00	-8.92776198250E+00	9.83948279414E+00	-1.77217381101E+02	-2.89774617616E+01	-1.31505669788E+02	-6.16587910421E+00	-1.21428435472E+00
3.12387893797E+05	-1.29363783817E+01	2.46119978481E+01	1.01369781080E+01	-1.77936806656E+02	-3.65518393348E+01	-1.68886375606E+02	-6.08821278141E+00	-4.27314324149E-01
3.12613693413E+05	-1.93529280152E+01	6.55413038311E+01	1.02761199734E+01	-1.78086492954E+02	-4.27177506421E+01	-1.48327440048E+02	-6.08675030246E+00	-1.29212325402E-01
3.12839656242E+05	-1.57990746572E+01	9.48768553239E+01	1.03285468977E+01	-1.78692705991E+02	-3.86411542481E+01	-9.16066281650E+01	-6.01662778062E+00	-4.69604243395E-01
3.13065782401E+05	-1.70128381496E+01	8.88594697278E+00	1.02231169384E+01	-1.77467411666E+02	-4.07806605789E+01	2.48650894101E+01	-6.01458201550E+00	-8.01297382027E-02
3.13292072007E+05	-1.24469339759E+01	6.41270853404E+01	1.01939658492E+01	-1.78409286953E+02	-4.30760092880E+01	1.09029907650E+02	-6.05607588040E+00	5.56532635456E-02
3.13518525180E+05	-1.00648333789E+01	9.45026950123E+01	1.02734978938E+01	-1.79124310363E+02	-2.65925437003E+01	-1.66009773818E+02	-6.27447348753E+00	-5.24641945834E-01
3.13745142038E+05	-2.21754178543E+01	-1.58731720292E+02	1.03642588927E+01	-1.77534182661E+02	-4.21512296729E+01	-1.61000966767E+00	-6.02711846700E+00	-1.27118077542E-01
3.13971922698E+05	-1.82924361286E+01	-1.04926948895E+00	1.01950117565E+01	-1.78011514948E+02	-3.80609003684E+01	-7.83289508464E+01	-6.03780340855E+00	-1.19767743853E-01
3.14198867279E+05	-1.73024940413E+01	5.41723869601E+01	1.02061217233E+01	-1.78209252300E+02	-4.32948790170E+01	-1.07261655199E+02	-6.05826749967E+00	-2.69994950753E-01
3.14425975900E+05	-1.82264697121E+01	-3.75343578060E+01	1.02181576908E+01	-1.77669796571E+02	-4.04743036601E+01	1.10375310724E+01	-5.96657061363E+00	-1.06695178033E-02
3.14653248680E+05	-3.30632711197E+01	2.04314610242E+01	1.02649094206E+01	-1.77590477035E+02	-4.48076431082E+01	-5.99491488496E+01	-5.98292431705E+00	-4.16945650510E-01
3.14880685736E+05	-2.05939023554E+01	1.96525522128E+01	1.02294274896E+01	-1.78422645744E+02	-3.65548971051E+01	-1.65753961420E+01	-6.01514223963E+00	-7.29677746861E-01
3.15108287188E+05	-1.70108430465E+01	6.33105598348E+01	1.02482173309E+01	-1.78216176006E+02	-4.05516726484E+01	-1.23097787098E+02	-6.07417878577E+00	-3.36421259992E-01
3.15336053154E+05	-7.02137237269E+00	3.87325470233E+01	1.00656119347E+01	-1.79141381044E+02	-3.14921246173E+01	1.05652100412E+02	-6.08027388608E+00	6.38571114047E-01
3.15563983753E+05	-1.98525015779E+01	1.79906471003E+02	1.03394561471E+01	-1.77925756843E+02	-5.73806389495E+01	9.28879249811E+01	-6.05078245768E+00	-1.14458328189E-01
3.15792079105E+05	-1.37797708799E+01	2.45910254585E+01	1.01240076058E+01	-1.77736332989E+02	-3.90004546912E+01	7.24943159385E+01	-6.01676299656E+00	1.86304793484E-01
3.16020339328E+05	-2.44923290886E+01	3.62471778049E+01	1.01919756856E+01	-1.77869252168E+02	-4.23839776267E+01	-5.46111939757E+01	-6.05086197823E+00	-5.53164713980E-01
3.16248764542E+05	-3.16338140940E+01	1.03916254322E+02	1.02343477900E+01	-1.77821778714E+02	-3.77043173102E+01	1.78778737397E+02	-6.08632558970E+00	-2.07774107409E-01
3.16477354866E+05	-2.09524480779E+01	-3.40640802667E+01	1.02847582039E+01	-1.77577262422E+02	-4.05997330665E+01	3.37235760127E+01	-5.98886937831E+00	-1.48196074938E-02
3.16706110419E+05	-1.50712222507E+01	7.71841544154E+01	1.02093216657E+01	-1.78551627856E+02	-3.34959087016E+01	-1.75108484279E+02	-6.10554302063E+00	-6.44260309326E-01
3.16935031321E+05	-2.91058810678E+01	-7.08874869355E+01	1.02673707799E+01	-1.77612003498E+02	-3.13412958169E+01	5.45156545308E+01	-6.00900107491E+00	2.74179269967E-01
3.17164117691E+05	-2.23707342213E+01	2.61230712858E+01	1.02400134756E+01	-1.77887599610E+02	-3.93965345745E+01	1.72434322767E+02	-6.05954616181E+00	-3.31627494406E-02
3.17393369648E+05	-1.86449873406E+01	-4.22574989953E+01	1.02151057000E+01	-1.77703580003E+02	-6.06407634687E+01	1.78437117503E+02	-6.03659139804E+00	-2.68305962950E-01
3.17622787313E+05	-1.70450454283E+01	8.83054217467E+00	1.02206208893E+01	-1.78076495528E+02	-5.09287652922E+01	-5.48938929838E+01	-6.04183451208E+00	-3.41466240253E-01
3.17852370806E+05	-1.87790307484E+01	-2.13257322180E+01	1.02612000193E+01	-1.77938171161E+02	-3.65055219043E+01	9.16733465301E+00	-5.95330706133E+00	-6.78970727752E-02
3.18082120245E+05	-1.54828829627E+01	-1.51334360558E+01	1.02033203949E+01	-1.77611411072E+02	-4.66876236916E+01	9.87096409684E+01	-6.02526085866E+00	-2.63765905552E-01
3.18312035752E+05	-2.06841551816E+01	1.90398328808E+01	1.02076795850E+01	-1.77786945054E+02	-4.19793138229E+01	1.70397038606E+02	-6.04549388474E+00	-5.49659721933E-02
3.18542117445E+05	-1.26260555536E+01	3.02572471461E+01	1.01065048943E+01	-1.78457644846E+02	-4.12921585956E+01	2.34584423485E+01	-6.00012354826E+00	-3.18579311989E-01
3.18772365446E+05	-1.52377665311E+01	1.05526301701E+02	1.02920978118E+01	-1.78644348391E+02	-6.49070401301E+01	-1.22311702203E+02	-6.05651828810E+00	-1.48756326807E-01
3.19002779874E+05	-1.62410129951E+01	2.41282633258E+01	1.02044657001E+01	-1.78080278721E+02	-4.43112207658E+01	-2.84124676707E+01	-6.00450632113E+00	-2.78249543495E-01
3.19233360850E+05	-1.48276108887E+01	5.83260917772E+01	1.01890638279E+01	-1.78840752334E+02	-4.85774642459E+01	3.07441563254E+01	-6.06507231285E+00	-1.21651407250E-02
3.19464108494E+05	-2.25506143811E+01	6.64486483980E+01	1.02203497119E+01	-1.78276098340E+02	-3.68996072051E+01	-6.94054312723E+01	-6.01330212540E+00	-4.20708679930E-01
3.19695022927E+05	-1.49455884516E+01	3.48851129565E+01	1.02193065505E+01	-1.78151936393E+02	-5.02212186419E+01	-1.59258366852E+02	-6.02280540950E+00	-1.38198230236E-01
3.19926104268E+05	-2.09597775421E+01	2.62605331302E+01	1.01692202656E+01	-1.78125544189E+02	-3.99494582509E+01	1.00174625966E+01	-6.02169599853E+00	-5.97672460893E-02
3.20157352640E+05	-1.19336764797E+01	1.32546169417E+02	1.03797441113E+01	-1.78904719118E+02	-2.81684679581E+01	-1.16265492123E+02	-6.13304418083E+00	-1.39931576804E+00
3.20388768162E+05	-1.70899208776E+01	5.84644802084E+01	1.02956141852E+01	-1.78503851165E+02	-4.50997659494E+01	-1.76643295029E+02	-6.05692020906E+00	-4.17908843928E-01
3.20620350955E+05	-2.04112800439E+01	3.53385953102E+01	1.02113651747E+01	-1.77885820759E+02	-6.05212237081E+01	3.77155015467E+01	-6.03341385903E+00	-9.53588926890E-02
3.20852101140E+05	-1.33159322592E+01	-4.45385268303E-01	1.01542014179E+01	-1.77662747665E+02	-3.84483353191E+01	-1.25952710999E+02	-6.07863218407E+00	-5.15909872136E-01
3.21084018839E+05	-2.10856580678E+01	1.39089024427E+02	1.02596060690E+01	-1.78051038618E+02	-3.76306721713E+01	7.20573130841E+01	-5.99879193292E+00	3.27276164961E-01
3.21316104172E+05	-1.65865626095E+01	1.14379496515E+01	1.01918561407E+01	-1.78442967918E+02	-3.65159867691E+01	1.31245876387E+02	-6.06754846253E+00	3.90537511974E-01
3.21548357261E+05	-1.87374969456E+01	5.86679095762E+01	1.02377577020E+01	-1.78329443974E+02	-3.16089417053E+01	-9.59234423153E+01	-6.01371321279E+00	-8.96189378858E-01
3.21780778226E+05	-1.71738892605E+01	1.38753483228E+02	1.02864956532E+01	-1.78292000820E+02	-3.72789637580E+01	-9.25624979774E+01	-6.04686828631E+00	-2.87861729367E-01
3.22013367189E+05	-1.49036146216E+01	8.15653945445E+01	1.02522312343E+01	-1.78777648237E+02	-3.70864160606E+01	-1.44817295935E+02	-6.09796740384E+00	-5.81355767711E-01
3.22246124272E+05	-2.05181182787E+01	6.57632100295E+00	1.02300625394E+01	-1.77950726191E+02	-3.58146862744E+01	1.71315288729E+00	-5.95813434148E+00	-2.46662253659E-01
3.22479049596E+05	-2.50498635637E+01	-2.81911357228E+01	1.02305049763E+01	-1.77622426730E+02	-3.90474938346E+01	-1.75061903364E+02	-6.04440473438E+00	-1.91034058988E-01
3.22712143282E+05	-1.85705094780E+01	2.03027097099E+01	1.02252197009E+01	-1.78220481519E+02	-3.38773948813E+01	-7.81391407466E+01	-6.03222894406E+00	-7.31334082580E-01
3.22945405453E+05	-1.50471108176E+01	8.20315050548E+01	1.02785023137E+01	-1.78417628229E+02	-4.46444465208E+01	-8.74297364590E+01	-6.03964578852E+00	-4.59206689492E-01
3.23178836230E+05	-2.03095304635E+01	-1.56335852493E+01	1.01819384456E+01	-1.77539140938E+02	-4.04437483240E+01	1.14516709362E+02	-6.09171687975E+00	1.27466386089E-01
3.23412435735E+05	-1.52484131425E+01	-7.87200556555E+01	1.01984018747E+01	-1.77294667920E+02	-4.18327556470E+01	-1.57669758627E+02	-6.07481178091E+00	-7.75789242106E-01
3.23646204090E+05	-1.48778523858E+01	8.17648733298E+01	1.02679956975E+01	-1.78786653606E+02	-3.71323947394E+01	-1.65318912859E+01	-5.98194329478E+00	-3.61010477683E-01
3.23880141417E+05	-2.17542759543E+01	7.17722595646E+01	1.02821500399E+01	-1.78354494363E+02	-4.51061523113E+01	-1.37839663764E+02	-6.04999687410E+00	-4.13847698479E-01
3.24114247838E+05	-1.34534315615E+01	6.09583213888E+01	1.01774123548E+01	-1.78502954797E+02	-3.65637197514E+01	1.12179246247E+02	-6.04340829541E+00	-1.25768629007E-02
3.24348523475E+05	-1.77959608614E+01	1.42775459014E+01	1.02032468432E+01	-1.78244213567E+02	-3.76074729899E+01	-1.05129282473E+02	-6.08819783289E+00	-6.59712143962E-01
3.24582968451E+05	-2.58923308869E+01	-1.64829746335E+02	1.03167011990E+01	-1.77837170973E+02	-3.84561699116E+01	1.59477253679E+02	-6.03880888408E+00	-1.18225697018E-01
3.24817582888E+05	-2.89870973954E+01	8.37778734994E+01	1.03062712663E+01	-1.77881513020E+02	-4.20160078628E+01	-2.27547278727E+00	-6.02375934144E+00	-1.16303039979E-01
3.25052366909E+05	-1.28486269190E+01	-2.61808889588E+01	1.01412378633E+01	-1.77476169034E+02	-3.16418133474E+01	-3.89944630759E+01	-5.97538912983E+00	-9.71841936994E-01
3.25287320635E+05	-1.87875975823E+01	-3.73676156407E+01	1.01860610160E+01	-1.77970175764E+02	-3.72412740222E+01	-2.71579122472E+00	-6.01725729858E+00	-2.60966514481E-01
3.25522444191E+05	-1.52142848077E+01	5.94007065641E+01	1.01819051637E+01	-1.78495503540E+02	-4.57189868544E+01	-1.63774727639E+02	-6.05469358145E+00	-2.33748728460E-02
3.25757737698E+05	-1.36952968015E+01	6.86083360149E+01	1.01854770710E+01	-1.78598596163E+02	-4.54751952056E+01	1.68297486447E+02	-6.09648147245E+00	-2.06666057469E-01
3.25993201280E+05	-1.68811741619E+01	4.96989696421E+01	1.02130240554E+01	-1.78312071644E+02	-4.21245522553E+01	-1.48816674994E+02	-6.05891734990E+00	-4.56962580548E-01
3.26228835058E+05	-3.23391272873E+01	-1.36646669791E+02	1.02582011269E+01	-1.77803925739E+02	-4.07315660794E+01	-1.77552167868E+02	-6.06623672066E+00	-3.14348979866E-01
