# Hz S DB R 50
! CMT, M5065, 19127446, 24.2.4/2
! Date: 11/1/2024 3:40:28 PM
! Data: Format (Calibration Info)
! Freq	S11:dB/Ang(F2)	S21:dB/Ang(F2)	S12:dB/Ang(F2)	S22:dB/Ang(F2)
3.00000000000E+05	-2.34665825073E+01	9.33938541215E+01	1.56009908630E+01	-1.77353482923E+02	-3.53412914653E+01	2.51802944285E+01	-5.90568237553E+00	4.09930126238E-01
3.00216845423E+05	-1.42366818188E+01	-1.14718418780E+01	1.55087405063E+01	-1.77564809083E+02	-2.89675657978E+01	-8.83912515926E+01	-6.01812001285E+00	-2.20260453695E+00
3.00433847586E+05	-1.60154547919E+01	3.23818701724E+01	1.55478474700E+01	-1.77643488034E+02	-2.80620173599E+01	-8.14084577466E+00	-5.71877258565E+00	-3.94418713491E-01
3.00651006602E+05	-2.14016467367E+01	1.58148944018E+01	1.55553611555E+01	-1.77279831822E+02	-3.72177715419E+01	2.36460773426E+01	-5.96265455955E+00	-1.90615485611E-01
3.00868322584E+05	-1.39793004030E+01	-7.26526951087E+00	1.54545300568E+01	-1.77144843036E+02	-4.29099193441E+01	9.69882361540E+01	-6.07394909805E+00	-3.51594040837E-02
3.01085795647E+05	-1.90937098134E+01	-6.83483825260E+00	1.55315428083E+01	-1.77236126544E+02	-3.58719914653E+01	-1.33718089008E+02	-6.10150491187E+00	-8.05806477720E-01
3.01303425902E+05	-1.62028805517E+01	4.62673569831E+01	1.54525297914E+01	-1.77562150661E+02	-3.28342024665E+01	-1.25869245440E+02	-6.11424444082E+00	-1.08921848735E+00
3.01521213465E+05	-1.59264329998E+01	7.09220715922E+01	1.55687895184E+01	-1.77944805309E+02	-4.29431495720E+01	-9.42162397577E+01	-6.00910049643E+00	-3.12011471443E-01
3.01739158449E+05	-2.07913631099E+01	5.85295467831E+01	1.55570667355E+01	-1.77493156144E+02	-3.39591432455E+01	2.96539763402E+01	-5.92172126184E+00	4.55722626648E-01
3.01957260967E+05	-1.99590514751E+01	-2.35056511464E+01	1.55369830971E+01	-1.77038613528E+02	-3.85626121163E+01	7.65600357026E+01	-6.02471867952E+00	7.50793713270E-01
3.02175521134E+05	-2.99589048832E+01	-5.48843012481E+01	1.55790538751E+01	-1.77105339930E+02	-4.15807140481E+01	1.29984912138E+02	-6.06170235788E+00	1.53834716873E-01
3.02393939063E+05	-1.70492082981E+01	6.04492235151E+01	1.55634838517E+01	-1.77639047253E+02	-4.02560182486E+01	-1.38062964701E+02	-6.04993397602E+00	-3.42758257297E-01
3.02612514869E+05	-9.76806901467E+00	7.18737981260E+00	1.53444947632E+01	-1.77278841921E+02	-4.25100846254E+01	-1.23734359013E+02	-6.03370823487E+00	-4.67809040758E-01
3.02831248665E+05	-2.09102795443E+01	8.73350056615E+01	1.55830506834E+01	-1.77777474359E+02	-4.15408600480E+01	-1.59472632632E+01	-6.01768729180E+00	-5.84725665476E-01
3.03050140565E+05	-1.60387914557E+01	-3.77144247148E+01	1.55168402121E+01	-1.77033643394E+02	-3.60118528175E+01	-6.83779788614E+01	-5.99223034203E+00	-9.80646218626E-01
3.03269190685E+05	-1.96774736049E+01	-6.42678258875E+01	1.55292409517E+01	-1.76904877243E+02	-3.42895962035E+01	-3.43539176217E+00	-5.86682907156E+00	-7.67372958820E-02
3.03488399138E+05	-1.93234231476E+01	-4.69911029209E+01	1.55733963833E+01	-1.76993744271E+02	-3.61950258193E+01	-1.70348018338E+02	-6.14656306478E+00	-1.33476872847E-01
3.03707766039E+05	-2.72000623220E+01	-4.69202806490E+00	1.55510818959E+01	-1.77333472781E+02	-3.66716242279E+01	-1.74438325655E+02	-6.14647478412E+00	-4.75754555401E-01
3.03927291503E+05	-1.94281418389E+01	-3.79486879803E+00	1.55327721071E+01	-1.77242503320E+02	-4.60293334591E+01	-7.59269234972E+01	-5.98550747104E+00	-5.92738611036E-01
3.04146975643E+05	-1.21762264462E+01	-5.92125201223E+01	1.54859308706E+01	-1.76049074372E+02	-4.17871295352E+01	1.72587167975E+02	-6.06908076064E+00	-2.53990214594E-01
3.04366818575E+05	-2.06800631733E+01	-1.75216861888E+02	1.56665352529E+01	-1.77101199732E+02	-3.68914561486E+01	-1.59163982775E+02	-6.15317568722E+00	-4.48100433395E-01
3.04586820414E+05	-2.57501183964E+01	5.75134697818E+01	1.55730364116E+01	-1.77377329096E+02	-4.13842732927E+01	-1.45589176074E+02	-6.13442392569E+00	-4.87793449263E-01
3.04806981274E+05	-1.37058531636E+01	2.69717228881E+01	1.54721518231E+01	-1.77607049232E+02	-4.84130715951E+01	1.60833752640E+02	-6.05431785337E+00	-8.32754579516E-02
3.05027301270E+05	-2.07106077702E+01	-1.63291550721E+01	1.55086670498E+01	-1.77134947937E+02	-3.02286463185E+01	1.32355295020E+02	-6.23249964119E+00	7.45511394044E-01
3.05247780517E+05	-2.29626940889E+01	1.58998813777E+02	1.56435988878E+01	-1.77539631492E+02	-3.03857813721E+01	-1.45192745286E+02	-6.22166048627E+00	-9.60997992604E-01
3.05468419131E+05	-1.96974094863E+01	-1.32202012317E+02	1.56363633083E+01	-1.77023923932E+02	-3.92851733329E+01	-3.14228892880E+01	-5.95373156357E+00	-3.84690893600E-01
3.05689217226E+05	-4.77097128324E+00	-3.13417694887E+01	1.52497137954E+01	-1.75847559565E+02	-3.70337882545E+01	-1.24686533212E+02	-6.08206391236E+00	-9.77735178739E-01
3.05910174918E+05	-1.41924871458E+01	1.93033630574E+01	1.54560373899E+01	-1.77742004314E+02	-3.22941369508E+01	-1.74730320702E+02	-6.18675727358E+00	-4.75959620524E-01
3.06131292322E+05	-1.76972803766E+01	1.06176479616E+01	1.55164922889E+01	-1.77551486694E+02	-3.86193110716E+01	-7.94169482294E+01	-6.01111700655E+00	-6.01056032426E-01
3.06352569554E+05	-1.32963999220E+01	-4.24556893524E+01	1.54809629753E+01	-1.76951028234E+02	-3.98428548710E+01	4.38585010738E+01	-6.01396144667E+00	1.71218134907E-01
3.06574006730E+05	-1.47378639417E+01	6.21046012166E+01	1.55337950547E+01	-1.78190498635E+02	-2.88802262961E+01	-1.19610981627E+02	-6.20210153367E+00	-1.77155358952E+00
3.06795603964E+05	-3.24301544387E+01	3.59865774727E+01	1.55996100098E+01	-1.77298678346E+02	-3.15553821283E+01	-1.53215511865E+02	-6.22691964458E+00	-5.16090686652E-01
3.07017361372E+05	-1.54980891598E+01	1.59148205840E+02	1.56597056480E+01	-1.77700674888E+02	-3.58659473471E+01	1.69125034353E+02	-6.12609181038E+00	-2.98719398464E-02
3.07239279071E+05	-1.38126529647E+01	-8.78139484007E+01	1.55474608170E+01	-1.76645344550E+02	-3.62313145386E+01	-1.45474592866E+02	-6.14736514607E+00	-8.40916552576E-01
3.07461357176E+05	-2.35930322501E+01	-1.87129008349E+01	1.55134654561E+01	-1.77336411940E+02	-3.75080057942E+01	-9.45140647951E+01	-6.07977256188E+00	-6.72644490472E-01
3.07683595803E+05	-1.69883930562E+01	-2.77846057122E+01	1.55007992182E+01	-1.77231065510E+02	-3.59284621498E+01	4.50080320174E+01	-5.94456680727E+00	9.92166410879E-02
3.07905995068E+05	-1.66787487395E+01	4.32720200044E+01	1.55358538054E+01	-1.77801676205E+02	-4.12207491730E+01	5.62726811026E+01	-6.02137665798E+00	1.17354415767E-01
3.08128555087E+05	-3.74032026828E+01	-8.49794596739E+00	1.56037561144E+01	-1.77426681268E+02	-3.46208071419E+01	-9.86915399167E+01	-6.04756166852E+00	-1.16708341071E+00
3.08351275976E+05	-1.99680194871E+01	-8.91131724603E+01	1.55840739325E+01	-1.76766283225E+02	-4.11612184744E+01	7.62356996129E+01	-5.97229481284E+00	3.52717946024E-01
3.08574157853E+05	-2.46627250809E+01	-4.87200733078E+00	1.55245779204E+01	-1.77573023737E+02	-3.93315467735E+01	-4.91534860096E+00	-5.95279271439E+00	-5.13073500113E-01
3.08797200832E+05	-4.62840766645E+00	3.87615545497E+01	1.52744054915E+01	-1.79089901757E+02	-4.98912531228E+01	1.70378455217E+02	-6.04596522877E+00	1.26971405255E-01
3.09020405031E+05	-1.46989009624E+01	-2.13149687382E+01	1.54826508874E+01	-1.77103674258E+02	-4.83326533421E+01	-2.01927837066E+01	-5.99213482521E+00	-6.67630807305E-01
3.09243770566E+05	-1.77301472853E+01	2.03438294736E+01	1.55226892531E+01	-1.77584378621E+02	-3.94041530181E+01	-4.37152870364E+01	-5.96435287272E+00	-3.77689164515E-01
3.09467297553E+05	-2.15480093168E+01	9.09754184618E+00	1.55444741764E+01	-1.77625852011E+02	-3.58345799066E+01	4.53795170110E+01	-5.92458679510E+00	1.99520049729E-01
3.09690986110E+05	-2.50108645570E+01	-5.74460918185E+01	1.55620229231E+01	-1.77415451240E+02	-3.59776355692E+01	-8.39852353560E+01	-6.07524622535E+00	-1.03653580245E+00
3.09914836353E+05	-1.94080637600E+01	4.31894486046E+01	1.55104529461E+01	-1.77852897924E+02	-3.44768724865E+01	-9.21160062308E+01	-6.03378912402E+00	-1.47737020552E+00
3.10138848399E+05	-2.25900102770E+01	6.39956214555E+01	1.55724723148E+01	-1.77662511783E+02	-3.53092163675E+01	-4.42107465103E+01	-5.94482465853E+00	-7.18767165961E-01
3.10363022365E+05	-1.36268341132E+01	5.85946796118E+01	1.55388945606E+01	-1.78223118311E+02	-3.95853155827E+01	-1.74243370341E+02	-6.10416351745E+00	-2.37273385752E-01
3.10587358368E+05	-1.44512735245E+01	-5.12913012392E+01	1.55156510206E+01	-1.76742717321E+02	-3.41708467837E+01	1.24972956737E+02	-6.11951799172E+00	2.53638774722E-01
3.10811856525E+05	-1.72307504760E+01	4.07325953474E+01	1.55417931431E+01	-1.77654946700E+02	-3.57143286501E+01	-1.11923226801E+02	-6.08046101051E+00	-1.09519787171E+00
3.11036516954E+05	-2.07578625686E+01	5.78305863899E+00	1.55052065847E+01	-1.77532116387E+02	-3.47564067740E+01	6.25281089199E+01	-5.96458224737E+00	4.16459232767E-01
3.11261339771E+05	-2.34552137260E+01	1.92398696646E+01	1.56098609837E+01	-1.77299137722E+02	-3.67267073308E+01	2.78283015160E+00	-5.88381144250E+00	-9.75216433380E-02
3.11486325094E+05	-1.72585071733E+01	1.02472705400E+01	1.55117648936E+01	-1.77521914821E+02	-4.29605085774E+01	-6.60238484916E-01	-5.96549173214E+00	-1.73851702311E-01
3.11711473040E+05	-1.58806437563E+01	-2.96997900250E+01	1.55145514248E+01	-1.77442309395E+02	-4.50183413763E+01	-7.42648672604E+01	-6.00961804815E+00	-4.42376899717E-01
3.11936783728E+05	-1.41403384805E+01	6.20032201342E+01	1.55782070510E+01	-1.78480596617E+02	-4.16426988437E+01	7.11224633877E+01	-6.01630375332E+00	1.96958382503E-01
3.12162257274E+05	-8.35384367370E+00	2.63319238792E+01	1.53240929618E+01	-1.78021228642E+02	-4.20613217864E+01	-1.57470136216E+02	-6.08111717804E+00	-2.32505209119E-01
3.12387893797E+05	-1.86693981405E+01	2.66964998694E+01	1.55672566689E+01	-1.77941743909E+02	-4.26224905531E+01	-9.19118873657E+01	-6.04702023907E+00	-2.59183807349E-01
3.12613693413E+05	-1.68547591307E+01	7.10425792309E+01	1.55636596323E+01	-1.77965937343E+02	-4.24937964088E+01	-7.52053333233E+01	-5.98973704612E+00	-7.18576720080E-01
3.12839656242E+05	-1.60115362355E+01	1.62518290404E+01	1.55140473593E+01	-1.77849641113E+02	-3.60094247459E+01	7.65746016066E+01	-6.01859772531E+00	4.39264344890E-01
3.13065782401E+05	-3.14474028709E+01	2.44724349722E+00	1.55290186873E+01	-1.77481123744E+02	-4.14728446344E+01	1.36786418438E+02	-6.05623473767E+00	2.38798364276E-01
3.13292072007E+05	-2.14462160898E+01	4.86721837050E+01	1.55318255312E+01	-1.77600685454E+02	-4.76848437340E+01	-2.97188296865E+01	-5.98898825465E+00	-4.14926111769E-01
3.13518525180E+05	-1.70460559085E+01	1.12602341944E+01	1.55006445710E+01	-1.77759906819E+02	-3.91540008402E+01	1.45807235205E+01	-5.97393966533E+00	-1.93621309934E-01
3.13745142038E+05	-1.35735820465E+01	1.74193490837E+01	1.54555440519E+01	-1.77898806894E+02	-4.42200212906E+01	-9.15045953634E+01	-6.02254123550E+00	-4.29263375132E-01
3.13971922698E+05	-1.34688397525E+01	7.71410704433E+01	1.55342600481E+01	-1.78314180835E+02	-5.07745802081E+01	1.16264924143E+02	-6.03785724769E+00	-3.00279360650E-01
3.14198867279E+05	-3.01411181235E+01	-1.04488232279E+02	1.56125349290E+01	-1.77510833339E+02	-4.16796484642E+01	-1.33707080428E+02	-6.08397607027E+00	-6.97021373697E-01
3.14425975900E+05	-2.25181209673E+01	9.64996288748E+01	1.55702924796E+01	-1.78047975804E+02	-2.97573836375E+01	-1.08884245174E+02	-6.15534677584E+00	-2.29852618630E+00
3.14653248680E+05	-1.00873142694E+01	3.14170779128E+01	1.54262553312E+01	-1.78128251332E+02	-3.49909249251E+01	1.40354974932E+02	-6.15627091069E+00	3.13768978434E-01
3.14880685736E+05	-1.89496714896E+01	2.97299091860E+01	1.55299100352E+01	-1.77534273971E+02	-4.18863713334E+01	-1.39287460148E+02	-6.07886956773E+00	-4.45904042014E-01
3.15108287188E+05	-1.73800053463E+01	-5.91365298007E+01	1.55351187332E+01	-1.76827461968E+02	-3.85595314685E+01	-6.24847257811E+01	-5.96856325728E+00	-9.86880188423E-01
3.15336053154E+05	-1.18807474263E+01	8.82451033252E+00	1.53819030868E+01	-1.77726716180E+02	-3.69834803143E+01	-1.38933133878E+02	-6.12089857753E+00	-8.86680521778E-01
3.15563983753E+05	-1.92794283864E+01	1.25956777364E+02	1.56630994103E+01	-1.77766007475E+02	-3.80880637675E+01	-1.32642144152E+02	-6.07350508916E+00	-7.06822448534E-01
3.15792079105E+05	-2.30653035177E+01	1.24477847383E+02	1.56046315479E+01	-1.77962201154E+02	-3.74707607342E+01	-6.86599280855E+01	-5.93899050424E+00	-7.83238511328E-01
3.16020339328E+05	-2.06150176771E+01	-7.52564184659E+00	1.55552220824E+01	-1.77609182851E+02	-4.03236959975E+01	-1.30707731085E+02	-6.04341476214E+00	-6.12680191183E-01
3.16248764542E+05	-1.34915704181E+01	-2.57860581444E+01	1.54717854956E+01	-1.77543636328E+02	-4.45817855683E+01	-5.60068903734E+01	-5.99632102631E+00	-7.88025703927E-01
3.16477354866E+05	-2.40432195447E+01	1.08157740789E+02	1.56227393480E+01	-1.78036372654E+02	-3.53399058721E+01	-1.40081848563E+02	-6.10008664922E+00	-8.09601777450E-01
3.16706110419E+05	-1.28120575036E+01	5.04648961833E+01	1.54690730048E+01	-1.78443505401E+02	-4.13653138940E+01	5.85830481478E+01	-6.01456359292E+00	3.68812295172E-01
3.16935031321E+05	-1.76248338290E+01	-3.50094852391E-01	1.55464785571E+01	-1.77788300023E+02	-4.03546072894E+01	-7.97950914350E+01	-6.04905143456E+00	-4.77355684656E-01
3.17164117691E+05	-2.04923616069E+01	4.98704446042E+01	1.55107092775E+01	-1.77857788031E+02	-3.97921613477E+01	9.55315330408E+01	-6.06050097314E+00	5.98144796371E-02
3.17393369648E+05	-2.07097282627E+01	4.45985046511E+00	1.55372017410E+01	-1.77699133819E+02	-4.17176065509E+01	1.47309726345E+02	-6.03833262406E+00	-4.46730881923E-01
3.17622787313E+05	-2.01046598289E+01	1.33573023724E+02	1.56224975972E+01	-1.78092267067E+02	-5.29944814037E+01	-4.98111867335E+01	-6.02247071344E+00	-8.28679948610E-02
3.17852370806E+05	-2.19765310760E+01	-1.24319067064E+02	1.56004398576E+01	-1.77417741300E+02	-4.17467854107E+01	-1.43812211850E+02	-6.09011163906E+00	-8.60534780441E-01
3.18082120245E+05	-1.88934736616E+01	-2.74208891668E+01	1.55738700174E+01	-1.77332494587E+02	-3.80225689980E+01	-4.09097124191E+01	-5.97985829548E+00	-3.33637294156E-01
3.18312035752E+05	-2.15000932952E+01	1.40634251134E+02	1.56233506138E+01	-1.78103631462E+02	-4.40653449438E+01	5.46883711726E+01	-6.01375528456E+00	2.31879626261E-01
3.18542117445E+05	-1.06536999616E+01	1.58678114024E+01	1.53934246106E+01	-1.77913541737E+02	-3.41780583546E+01	1.11408228512E+02	-6.08582729864E+00	9.81334024742E-02
3.18772365446E+05	-2.05293176031E+01	8.85057622186E+00	1.55191407012E+01	-1.77609732267E+02	-3.51532304581E+01	4.07623727266E+01	-5.95729788765E+00	9.89435257592E-02
3.19002779874E+05	-2.72666974091E+01	-5.55056675251E+01	1.55473859973E+01	-1.77693325945E+02	-4.39416696647E+01	-8.02317987994E+01	-6.02008501729E+00	-4.90224624207E-01
3.19233360850E+05	-1.69534952412E+01	-1.29501973993E+02	1.56172639935E+01	-1.77466264949E+02	-3.26345699671E+01	1.16841633135E+01	-5.89952632831E+00	-1.68476178159E-01
3.19464108494E+05	-1.69662263608E+01	1.18822783275E+02	1.56308016430E+01	-1.78021165954E+02	-3.87068626751E+01	9.29223810397E+01	-6.05531985633E+00	3.23533256579E-02
3.19695022927E+05	-1.29031345490E+01	7.49008027561E+01	1.56033885653E+01	-1.78498654809E+02	-3.41689565787E+01	4.86578171576E+01	-5.96593686131E+00	4.18281709189E-01
3.19926104268E+05	-1.84413752840E+01	4.52188804869E+01	1.55275372349E+01	-1.78143533562E+02	-3.60835794931E+01	1.01321638300E+02	-6.05823863383E+00	2.43404401377E-01
3.20157352640E+05	-1.46202483813E+01	-1.28769296340E+02	1.56406931361E+01	-1.77277491391E+02	-4.16294499279E+01	-7.77806677817E+01	-5.99891582302E+00	-2.18566491366E-01
3.20388768162E+05	-2.71706178760E+01	6.49487615282E+01	1.55867547539E+01	-1.77803247821E+02	-3.77405141298E+01	-2.39579220500E+01	-5.95431241520E+00	-5.59035953765E-01
3.20620350955E+05	-1.61249991664E+01	5.08407319570E+01	1.54863013142E+01	-1.77888040343E+02	-3.75884380865E+01	1.21714531188E+02	-6.10164778203E+00	2.79437675454E-01
3.20852101140E+05	-1.85879909621E+01	-7.55225534189E+00	1.55011583341E+01	-1.77595671458E+02	-3.77468429644E+01	-1.21645680794E+02	-6.07566216289E+00	-1.36119739969E+00
3.21084018839E+05	-1.94322639265E+01	6.15943381703E+01	1.55899062828E+01	-1.77995853218E+02	-2.52174700408E+01	-1.11409601311E+02	-6.21202491446E+00	-3.60062348872E+00
3.21316104172E+05	-1.60141568436E+01	1.02438255442E+02	1.56290082405E+01	-1.78538473324E+02	-3.76447111569E+01	1.21527265815E+02	-6.07444392758E+00	1.55620403524E-01
3.21548357261E+05	-1.42547930238E+01	1.34526720326E+02	1.56699223135E+01	-1.78140333687E+02	-3.39762049946E+01	-1.22752486932E+02	-6.11640764950E+00	-9.70297557158E-01
3.21780778226E+05	-1.02093026306E+01	3.51351785329E+00	1.54004348841E+01	-1.77738083116E+02	-5.25162487621E+01	5.43425788925E+01	-6.01548632965E+00	-1.58476135104E-01
3.22013367189E+05	-2.78036879769E+01	8.52375205139E+01	1.55628825007E+01	-1.78029655120E+02	-4.34552914461E+01	5.54044885294E+01	-6.03804465708E+00	1.10505572968E-01
3.22246124272E+05	-1.67460883165E+01	-2.49341178986E+01	1.55094508544E+01	-1.77472741546E+02	-3.98142669011E+01	4.51371739436E+01	-6.03176440085E+00	-1.21820192603E-02
3.22479049596E+05	-1.99422725767E+01	-4.27314128814E+01	1.55353241488E+01	-1.77686817512E+02	-3.88409266902E+01	-3.86882476372E+01	-5.96318248939E+00	-7.19452455538E-01
3.22712143282E+05	-1.54618789368E+01	1.32684871877E+01	1.55082291625E+01	-1.77636112319E+02	-3.64249769732E+01	1.46936798433E+02	-6.10420672020E+00	4.42731510710E-01
3.22945405453E+05	-1.85746298622E+01	-1.22844283906E+02	1.56164885036E+01	-1.77232749207E+02	-3.84476851201E+01	9.92133970313E+01	-6.05673525878E+00	2.85157275740E-01
3.23178836230E+05	-1.90252979568E+01	-9.81389187811E+00	1.55353476319E+01	-1.77668331146E+02	-4.44912997140E+01	-9.01045453422E+01	-6.00469909615E+00	-2.93025714056E-01
3.23412435735E+05	-1.07815207461E+01	-3.61698491650E+01	1.54384122964E+01	-1.76952199815E+02	-4.69852988924E+01	3.02495062656E+01	-6.01309880830E+00	1.00009124201E-01
3.23646204090E+05	-1.56419830505E+01	5.30763204935E+01	1.55166717021E+01	-1.78163822200E+02	-3.25159719277E+01	4.84813696996E+01	-5.95965669333E+00	5.35489156054E-01
3.23880141417E+05	-2.08678678966E+01	7.53532984588E+01	1.56276901616E+01	-1.78056411121E+02	-4.06613252812E+01	1.68653238406E+02	-6.12925405572E+00	-6.88194090238E-02
3.24114247838E+05	-3.87550467262E+01	-5.54247151987E+01	1.55753154986E+01	-1.78031508561E+02	-3.79979142145E+01	-1.20153609128E+02	-6.03606112188E+00	-7.29984370172E-01
3.24348523475E+05	-2.46824873913E+01	1.77958489635E-01	1.55672293327E+01	-1.77688509132E+02	-3.47621261859E+01	-4.49867821756E+01	-5.99568359808E+00	-7.95662952036E-01
3.24582968451E+05	-2.30788556745E+01	-1.55472395289E+01	1.55283243547E+01	-1.77736849803E+02	-3.60179263451E+01	-1.41972558580E+02	-6.08758902317E+00	-7.63812708425E-01
3.24817582888E+05	-1.78413764218E+01	7.78460050560E+00	1.54906988106E+01	-1.77856496954E+02	-3.58967835665E+01	1.73993821831E+02	-6.11842692812E+00	-4.84233547648E-01
3.25052366909E+05	-1.48959606558E+01	4.13416196638E+01	1.55117796177E+01	-1.78388843004E+02	-3.95837067537E+01	1.16078965366E+02	-6.06916714890E+00	1.65252449411E-01
3.25287320635E+05	-1.53367646240E+01	-1.25448544558E+01	1.55190652656E+01	-1.77452162565E+02	-4.36799564524E+01	-1.60263882330E+02	-6.06140294735E+00	-4.01356790945E-01
3.25522444191E+05	-2.35525526089E+01	-1.91895373283E+01	1.55626326327E+01	-1.77557345765E+02	-3.58491015537E+01	4.93195150846E+01	-5.98134583546E+00	6.96597209541E-01
3.25757737698E+05	-1.62512906481E+01	1.01044978041E+01	1.55033524134E+01	-1.77822996454E+02	-3.86096522580E+01	-3.86737313401E+01	-5.96587087261E+00	-5.58668605166E-01
3.25993201280E+05	-1.68723899421E+01	-1.28000206377E+01	1.54977635339E+01	-1.77874668162E+02	-4.69708150265E+01	-1.40608953630E+02	-6.09918684200E+00	-5.07892205842E-01
3.26228835058E+05	-1.84385978717E+01	-8.90552597760E+01	1.56235601794E+01	-1.77032865236E+02	-3.94806251299E+01	-1.22625946517E+02	-6.07251450708E+00	-5.62712215301E-01
