# Hz S DB R 50
! CMT, M5065, 19127446, 24.2.4/2
! Date: 11/1/2024 3:28:12 PM
! Data: Format (Calibration Info)
! Freq	S11:dB/Ang(F2)	S21:dB/Ang(F2)	S12:dB/Ang(F2)	S22:dB/Ang(F2)
3.00000000000E+05	-2.30980209646E+01	8.92727209813E+01	9.24108566486E+00	-1.78011682862E+02	-3.86439863064E+01	-2.41835579766E+01	-6.05263543481E+00	-4.91867575594E-01
3.00216845423E+05	-1.77467991073E+01	2.98280239609E+01	9.22647345175E+00	-1.77917441925E+02	-4.46810417185E+01	-3.30223699075E+01	-6.03014715326E+00	-8.02941554077E-02
3.00433847586E+05	-1.58256433820E+01	-2.10312450215E+01	9.18971257883E+00	-1.77771962670E+02	-3.26696314336E+01	8.28085269190E+01	-6.00518272918E+00	1.48717318389E-01
3.00651006602E+05	-1.19472818995E+01	-6.68827725280E+00	9.14388087164E+00	-1.77375096012E+02	-3.22104443086E+01	1.11648185926E+00	-5.93312412733E+00	-2.30060148161E-01
3.00868322584E+05	-1.07079158592E+01	-5.35809127642E+00	9.13613477880E+00	-1.76815263360E+02	-4.61617313741E+01	1.05188562430E+02	-6.03160390566E+00	-1.66235652941E-02
3.01085795647E+05	-1.64111597323E+01	3.00775260991E+01	9.15327813592E+00	-1.77815523798E+02	-3.54771068003E+01	-1.59591801426E+02	-6.09519789001E+00	-7.08838529041E-01
3.01303425902E+05	-2.44045206862E+01	5.48974571860E+01	9.26321136863E+00	-1.77572577276E+02	-3.98356141170E+01	-3.03076598071E+01	-6.02527844673E+00	-4.77376387367E-01
3.01521213465E+05	-1.90131056667E+01	-5.81217752287E+01	9.24223058475E+00	-1.77423898642E+02	-4.71753431408E+01	-1.29418343069E+02	-6.04540807523E+00	-2.78238071529E-01
3.01739158449E+05	-1.83419007958E+01	3.08188381577E+01	9.14233128858E+00	-1.77751770092E+02	-4.07165689394E+01	1.76135035460E+02	-6.08129489832E+00	-2.75267160159E-01
3.01957260967E+05	-2.53829031385E+01	9.70671716786E+01	9.23202396181E+00	-1.77724089740E+02	-3.32379069259E+01	-9.43164391608E+01	-6.07221167246E+00	-7.71912840832E-01
3.02175521134E+05	-1.26396475757E+01	-4.76367218050E+00	9.10212496850E+00	-1.77779806828E+02	-2.91001943188E+01	-2.76709085174E+00	-5.93212205507E+00	-1.98167353436E-01
3.02393939063E+05	-1.11249647642E+01	-5.50619074986E+01	9.15654690811E+00	-1.76445627724E+02	-4.71562698908E+01	-1.00717822989E+02	-6.06336835231E+00	-1.52671277868E-01
3.02612514869E+05	-1.58487919858E+01	1.68295936296E+01	9.20796196859E+00	-1.77977375409E+02	-4.55577646261E+01	1.58374901776E+02	-6.04454002293E+00	1.57475667935E-02
3.02831248665E+05	-1.66226286757E+01	-4.51902997881E+00	9.14889542745E+00	-1.77836459242E+02	-4.33876989335E+01	1.30124644101E+02	-6.06384728923E+00	-1.49089950812E-02
3.03050140565E+05	-2.37563436072E+01	3.56017934374E+01	9.21282751816E+00	-1.77781077020E+02	-5.99535439338E+01	-2.29669500139E+01	-6.05543098889E+00	-1.54743212130E-01
3.03269190685E+05	-2.39196326472E+01	1.63146516264E+02	9.35123083109E+00	-1.77942603812E+02	-4.77679625712E+01	-1.51928051939E+02	-6.00374233472E+00	-3.41486247652E-01
3.03488399138E+05	-2.01052793007E+01	-2.11399108115E+01	9.18805451296E+00	-1.77229528003E+02	-3.58066790647E+01	1.16560951642E+01	-6.03705128343E+00	-2.07753678801E-01
3.03707766039E+05	-1.33674573403E+01	-1.52773209779E+02	9.37921592002E+00	-1.76732794667E+02	-3.46292706127E+01	-7.86198167339E+01	-6.01889977329E+00	-8.46452997644E-01
3.03927291503E+05	-1.25239041875E+01	4.31636789346E+01	9.23581128551E+00	-1.78426066787E+02	-3.35219586034E+01	1.46051898892E+02	-6.14518097395E+00	-1.24029453478E-01
3.04146975643E+05	-1.39233865029E+01	2.07089210867E+01	9.12289482005E+00	-1.78077278672E+02	-4.94815860989E+01	7.09419470680E+01	-6.03389844064E+00	-6.57371624532E-02
3.04366818575E+05	-1.76292178970E+01	8.99413165537E+01	9.25116702043E+00	-1.78314773160E+02	-4.33961368747E+01	-1.42628937206E+02	-6.05397539237E+00	-2.59132512510E-01
3.04586820414E+05	-1.54655003198E+01	4.29939209324E+01	9.11827210053E+00	-1.78180119010E+02	-4.27504979725E+01	1.66401214504E+02	-6.04654164535E+00	-1.90161573515E-01
3.04806981274E+05	-1.60247767741E+01	3.08921859454E+01	9.21952690080E+00	-1.77911932454E+02	-4.68636410116E+01	1.14759855761E+02	-6.06608177524E+00	2.09591222198E-01
3.05027301270E+05	-1.63520264698E+01	1.24246378834E+00	9.18420819783E+00	-1.77615075069E+02	-4.36879258985E+01	1.47616404435E+02	-6.02739014864E+00	-2.06737182984E-01
3.05247780517E+05	-1.06859612897E+01	6.17197072390E+01	9.16690211887E+00	-1.79052074265E+02	-3.02952899513E+01	-1.55051470595E+02	-6.08934355750E+00	-6.62498025174E-01
3.05468419131E+05	-7.68393956575E+00	-5.04824450918E+01	9.11393024593E+00	-1.75676214040E+02	-4.01869853863E+01	3.64676371729E+01	-6.03663905852E+00	-3.93274637242E-01
3.05689217226E+05	-2.01530318783E+01	-4.51152801874E+00	9.26604967621E+00	-1.78034188711E+02	-5.25921936724E+01	1.11536149285E+02	-6.06908279501E+00	-4.52766125203E-01
3.05910174918E+05	-1.67761315848E+01	-1.42387731583E+01	9.13136994385E+00	-1.77573524073E+02	-3.79249265063E+01	1.71982608996E+02	-6.05557558129E+00	-2.91587099723E-01
3.06131292322E+05	-2.37509301576E+01	-4.91094354671E+01	9.23333229117E+00	-1.77786489644E+02	-4.17466553357E+01	1.63673268346E+02	-6.10100827271E+00	-2.22392437556E-01
3.06352569554E+05	-2.78039262727E+01	1.38982312520E+02	9.24384786174E+00	-1.77522546636E+02	-5.51248467152E+01	1.23571471451E+01	-6.02030254999E+00	1.94849598252E-01
3.06574006730E+05	-2.19252895410E+01	8.79977368217E+00	9.29073534341E+00	-1.77783883481E+02	-4.21079508071E+01	-1.26333407349E+02	-6.08406620336E+00	-2.20005252774E-01
3.06795603964E+05	-1.33707045204E+01	1.15875443750E+02	9.32906434608E+00	-1.78249311173E+02	-2.92115970023E+01	-1.58046544671E+02	-6.16062770874E+00	-4.43231632050E-01
3.07017361372E+05	-9.81069175640E+00	-6.86509705381E+01	9.21677260137E+00	-1.76065120050E+02	-3.57598041944E+01	5.54078848643E+01	-6.00261071219E+00	6.27225670028E-02
3.07239279071E+05	-1.34893121406E+01	3.62197970527E+01	9.17214667501E+00	-1.78132188768E+02	-4.05001535607E+01	8.65721854657E+01	-6.01231569786E+00	-4.17836910630E-02
3.07461357176E+05	-2.12801604715E+01	1.08732072110E+01	9.20127342395E+00	-1.78131552230E+02	-4.42120560192E+01	1.13549582386E+02	-6.03812704294E+00	-8.94337262905E-02
3.07683595803E+05	-1.64641845117E+01	-1.91151285811E+01	9.16871048736E+00	-1.77686617976E+02	-4.87508506350E+01	-1.31152266620E+02	-5.97738779640E+00	-2.83110871193E-01
3.07905995068E+05	-2.35046520390E+01	6.93827028043E+01	9.25707880120E+00	-1.77960014246E+02	-3.63695556216E+01	-4.93033281252E+01	-6.00869436679E+00	-4.26368725357E-01
3.08128555087E+05	-2.58457117243E+01	3.85312147089E+01	9.20667715298E+00	-1.77766448124E+02	-3.91116317617E+01	-1.21099555936E+02	-6.05081127271E+00	-5.45525054245E-01
3.08351275976E+05	-1.07669371148E+01	7.00211015352E+01	9.19104474720E+00	-1.78816585879E+02	-3.40362024921E+01	-1.61705689717E+02	-6.13157771866E+00	-2.19225984791E-01
3.08574157853E+05	-1.87810966705E+01	-6.70083754145E+00	9.18335638877E+00	-1.77437092142E+02	-3.03252918382E+01	8.72411622199E+01	-6.05674234213E+00	8.25742322218E-01
3.08797200832E+05	-2.03236039578E+01	-1.21950005467E+00	9.22724794650E+00	-1.77621866368E+02	-4.60582330244E+01	1.79097872962E+02	-6.07376924053E+00	-2.94005485497E-01
3.09020405031E+05	-1.71842369678E+01	4.12130423913E+01	9.20970120892E+00	-1.77950987471E+02	-3.75613596926E+01	2.97135371483E+01	-6.00255062555E+00	3.39508839322E-02
3.09243770566E+05	-1.94125913947E+01	8.09578099628E+01	9.24220097310E+00	-1.78371692010E+02	-3.48036238345E+01	-1.31706949334E+02	-6.09815848549E+00	-4.39260751540E-01
3.09467297553E+05	-2.03443809928E+01	9.59027342736E+00	9.19963680827E+00	-1.78057927667E+02	-4.62233988292E+01	1.32764783708E+02	-6.03595017492E+00	1.11183387289E-02
3.09690986110E+05	-1.89717828619E+01	4.14865929295E+01	9.22123344041E+00	-1.78084455690E+02	-4.43840731007E+01	2.39306306076E+01	-6.02754775889E+00	-2.13798265404E-01
3.09914836353E+05	-2.10322925312E+01	-8.20684633594E+01	9.24309022652E+00	-1.77999150694E+02	-3.19821987327E+01	-8.23775133076E+01	-6.04761002677E+00	-9.50614664930E-01
3.10138848399E+05	-1.00601768019E+01	8.13938542486E+01	9.24705117567E+00	-1.79070716129E+02	-3.00403584810E+01	6.22713212442E+01	-5.99837543286E+00	5.19551651408E-01
3.10363022365E+05	-1.34355759413E+01	7.51977871983E+01	9.22253263654E+00	-1.78140876010E+02	-4.67734174366E+01	-1.57588822019E+02	-6.04600475372E+00	-3.35763759551E-01
3.10587358368E+05	-1.83629154027E+01	-2.64833637583E+01	9.20677966234E+00	-1.77409554126E+02	-4.58760565153E+01	2.03384218575E+01	-6.01397706970E+00	-3.37527593480E-01
3.10811856525E+05	-2.23905253113E+01	-1.35110834749E+02	9.32801816681E+00	-1.77230709795E+02	-3.89545706341E+01	-4.54216575029E+01	-6.02591056665E+00	-1.72091133892E-01
3.11036516954E+05	-1.58303820067E+01	-3.72796621601E+01	9.19292201111E+00	-1.77370294130E+02	-4.03127766033E+01	-4.42639612974E+01	-5.98502766736E+00	-4.81642587553E-01
3.11261339771E+05	-1.71280416645E+01	-3.77482657599E+01	9.15420635532E+00	-1.77916562616E+02	-4.73049927049E+01	4.48372940514E+01	-6.06432803538E+00	-1.32995373895E-01
3.11486325094E+05	-1.43619882025E+01	3.75942219271E+01	9.10572383133E+00	-1.78368287091E+02	-2.82268966387E+01	1.58643894993E+02	-6.22275792749E+00	2.45433708300E-01
3.11711473040E+05	-8.25924618714E+00	8.27134235704E+01	9.21431460842E+00	-1.79782497013E+02	-3.57001339290E+01	-5.34429754133E+01	-5.99092065841E+00	-3.10839833818E-01
3.11936783728E+05	-1.68948236930E+01	-2.30019606328E+00	9.17665353872E+00	-1.77871133645E+02	-3.61512856545E+01	5.64172312760E+01	-6.00609452791E+00	-9.45986306350E-02
3.12162257274E+05	-1.70625298546E+01	6.20920059333E+01	9.21720943915E+00	-1.78431566612E+02	-3.56092546943E+01	-1.28338462482E+02	-6.08275317796E+00	-5.10494618727E-01
3.12387893797E+05	-2.62108102084E+01	5.99410842329E+01	9.27609552218E+00	-1.77692526197E+02	-4.68753998063E+01	-1.25618004801E+02	-6.06577695948E+00	-1.52094426113E-01
3.12613693413E+05	-2.79633244713E+01	9.85049678041E+01	9.24134320279E+00	-1.77756903179E+02	-5.23156144130E+01	-3.60901546106E+01	-6.01893774826E+00	-3.39066637184E-01
3.12839656242E+05	-2.04312356117E+01	-7.14999639117E+01	9.26135317774E+00	-1.77742852137E+02	-4.28116290716E+01	-9.35067313839E+01	-6.04526328118E+00	-1.99343268996E-01
3.13065782401E+05	-2.06922131057E+01	-1.78865400458E+02	9.32109983309E+00	-1.77605538870E+02	-3.88593357607E+01	6.85473029136E+01	-6.05618102698E+00	-2.05742137735E-01
3.13292072007E+05	-1.12784610157E+01	5.73324654463E+01	9.17795994783E+00	-1.78755392188E+02	-3.45538239174E+01	-5.31745258801E+01	-6.02938779130E+00	-6.03745968915E-01
3.13518525180E+05	-2.25771727367E+01	1.07828734861E+01	9.25071080659E+00	-1.77831697301E+02	-3.59864265499E+01	1.19939457292E+02	-6.10215738468E+00	1.86120481196E-01
3.13745142038E+05	-2.44456376515E+01	3.70959504718E+01	9.21460258047E+00	-1.77950350476E+02	-4.05437336808E+01	1.42696770632E+02	-6.06173276792E+00	-8.70844564661E-02
3.13971922698E+05	-2.42141323483E+01	-6.50182987374E+01	9.28506579823E+00	-1.77659056722E+02	-3.44378869376E+01	-1.29525495216E+02	-6.03692647488E+00	-4.37950763731E-01
3.14198867279E+05	-1.64897090060E+01	3.49484317749E+01	9.15193263647E+00	-1.78098091439E+02	-3.47638563878E+01	-5.69021352244E+01	-6.03076004163E+00	-5.87429891425E-01
3.14425975900E+05	-1.91573311326E+01	-3.19711327294E+01	9.25334038706E+00	-1.77541847185E+02	-4.96478617826E+01	-1.62482241551E+02	-6.04818100006E+00	5.82775265824E-02
3.14653248680E+05	-1.61931249718E+01	2.00979935780E+01	9.16257546065E+00	-1.78023766924E+02	-3.90260169575E+01	1.30449231469E+02	-6.06876602680E+00	-2.07228815072E-01
3.14880685736E+05	-1.38745444361E+01	1.28320383154E+02	9.39637232863E+00	-1.78637820529E+02	-2.70569801933E+01	1.34559074494E+02	-6.15396551664E+00	6.21230441030E-01
3.15108287188E+05	-1.75461629934E+01	-8.23933715234E+01	9.29888617937E+00	-1.77283658608E+02	-3.70156124986E+01	-1.10735618259E+02	-6.07409697816E+00	-5.39550809034E-01
3.15336053154E+05	-1.37504039767E+01	2.68578434664E+01	9.13561286291E+00	-1.78194496024E+02	-4.35229680449E+01	-3.24019240211E+01	-6.03733239464E+00	-2.00606747061E-01
3.15563983753E+05	-2.37456514881E+01	5.96719616160E+01	9.24699748182E+00	-1.78304017630E+02	-4.09546433252E+01	-5.44266019324E+01	-6.03633730703E+00	-7.05422033642E-01
3.15792079105E+05	-1.08067015530E+01	2.63969772305E+01	9.08219769060E+00	-1.78667793162E+02	-4.32530500519E+01	8.23705491671E+01	-5.98963881562E+00	-1.08857786273E-01
3.16020339328E+05	-3.03866494896E+01	1.77678518988E+02	9.28110489729E+00	-1.77922136115E+02	-3.86787156875E+01	-8.16690765150E+01	-6.02648323719E+00	-1.84213880229E-01
3.16248764542E+05	-2.65210310642E+01	1.98482927445E+01	9.21981417073E+00	-1.77748564835E+02	-3.38742175600E+01	-2.12498117744E+01	-5.91365038961E+00	-2.69434188607E-01
3.16477354866E+05	-9.94389584613E+00	8.87023755945E+01	9.23649238392E+00	-1.79246809534E+02	-2.75528392333E+01	-1.34524997465E+02	-6.15431306766E+00	-8.81582657706E-01
3.16706110419E+05	-1.94739134052E+01	-1.03986568323E+01	9.26422193255E+00	-1.77243141016E+02	-4.26073083544E+01	1.31151431063E+02	-6.05956651152E+00	-1.93195636542E-01
3.16935031321E+05	-1.95553742591E+01	2.74262555535E+01	9.18864610962E+00	-1.78148244782E+02	-3.94631371916E+01	5.34786669533E+01	-6.00301011617E+00	8.04381175156E-02
3.17164117691E+05	-2.14463982387E+01	-1.58294681788E+02	9.35804039283E+00	-1.77836383941E+02	-4.19173742690E+01	1.68236116135E+01	-6.00573193931E+00	-4.33962711334E-01
3.17393369648E+05	-2.67723206250E+01	2.92144692446E+01	9.26752190350E+00	-1.78270015206E+02	-4.52126311705E+01	-7.02058053234E+01	-6.01432914200E+00	-2.77608507217E-01
3.17622787313E+05	-1.59749261821E+01	4.94512055257E+01	9.18958969162E+00	-1.78357431783E+02	-4.40918432502E+01	1.34308435273E+02	-6.03075457759E+00	-2.93917916901E-01
3.17852370806E+05	-1.64158593950E+01	-2.51574321275E+00	9.22156363331E+00	-1.78053723552E+02	-3.36053206147E+01	-7.63176909302E+01	-6.00801559421E+00	-8.56484621793E-01
3.18082120245E+05	-8.12253252372E+00	-1.54193895689E+02	9.59040230285E+00	-1.76968154991E+02	-4.01755242577E+01	1.45235455866E+02	-6.11098939350E+00	-1.29542964477E-01
3.18312035752E+05	-1.66884766074E+01	1.50648162400E+02	9.39849283041E+00	-1.78534130743E+02	-4.09724219959E+01	-7.93429709525E+01	-6.05977202617E+00	-5.12270214342E-01
3.18542117445E+05	-2.32168884624E+01	-4.96420044331E+01	9.24896933217E+00	-1.77566768687E+02	-4.20010740919E+01	7.41539203682E+01	-6.04754253309E+00	-1.59727917337E-01
3.18772365446E+05	-1.72123718162E+01	-8.10856594427E+00	9.23981696454E+00	-1.77509895352E+02	-4.34124767674E+01	2.34145669038E-01	-5.97610053627E+00	-2.29012854817E-01
3.19002779874E+05	-1.95804050804E+01	4.54009347399E+01	9.19709174331E+00	-1.78163976687E+02	-3.79071872716E+01	-1.19285976259E+02	-6.09461014182E+00	-3.34779965671E-01
3.19233360850E+05	-1.22267588802E+01	8.14987588188E+01	9.23936391268E+00	-1.79134515855E+02	-6.35590170097E+01	1.18980239705E+02	-6.00386640826E+00	4.49372191872E-03
3.19464108494E+05	-2.11539022700E+01	8.82079412434E+00	9.24008187934E+00	-1.77969312716E+02	-3.86348908438E+01	-1.34260234729E+02	-6.05916677399E+00	-4.05654754254E-01
3.19695022927E+05	-2.55573648803E+01	-1.42648998696E+02	9.32549577947E+00	-1.77591768981E+02	-3.27145797452E+01	-9.17310433889E+01	-6.04768867553E+00	-7.61205021296E-01
3.19926104268E+05	-2.59871412664E+01	-7.69406099761E+01	9.20695661015E+00	-1.77998030010E+02	-4.18418251452E+01	-1.68749510945E+02	-6.06021064777E+00	-3.68988430824E-01
3.20157352640E+05	-2.33040484774E+01	-6.03848238412E+01	9.20286314205E+00	-1.77807007482E+02	-3.64099552739E+01	-1.04602661804E+02	-6.07577345724E+00	-6.46390542776E-01
3.20388768162E+05	-1.61749050288E+01	1.13495056607E+02	9.32374441657E+00	-1.78386409531E+02	-4.00205944018E+01	-5.78457023027E+01	-6.03184996950E+00	-4.16799148490E-01
3.20620350955E+05	-1.25125063854E+01	1.75123061924E+00	9.12523011868E+00	-1.77980438066E+02	-3.80295551854E+01	1.77394075225E+02	-6.11131712686E+00	-6.62381721113E-02
3.20852101140E+05	-1.46803596235E+01	5.69839231891E+01	9.18605118220E+00	-1.78947840249E+02	-4.20524263192E+01	-1.23290627708E+01	-6.00298782308E+00	-4.55044351144E-01
3.21084018839E+05	-1.11434115226E+01	2.67257829635E+01	9.07248696748E+00	-1.78830360454E+02	-3.66873978021E+01	4.51987589181E+01	-5.96486762488E+00	-1.26035632147E-01
3.21316104172E+05	-2.00420774676E+01	-4.88677756942E+00	9.16827474984E+00	-1.77962905444E+02	-3.25624019303E+01	-1.16829922184E+02	-6.11365598754E+00	-7.74117120181E-01
3.21548357261E+05	-1.23555361804E+01	1.03558865640E+02	9.27044462780E+00	-1.79198496820E+02	-3.75951193024E+01	-8.74827648304E+01	-6.03757357761E+00	-5.41817563755E-01
3.21780778226E+05	-2.02228064011E+01	3.21186782730E+00	9.18981201371E+00	-1.78037806447E+02	-3.74984526030E+01	-7.62013442011E+01	-6.03233586206E+00	-6.24983262709E-01
3.22013367189E+05	-1.57334070117E+01	3.79269189207E+01	9.20643798512E+00	-1.78130975660E+02	-4.15106953627E+01	-1.41350941093E+02	-6.12572144653E+00	-1.07787752392E-01
3.22246124272E+05	-1.39689421720E+01	3.45907124544E+01	9.13149968726E+00	-1.78675426409E+02	-4.74326914757E+01	-1.32806059861E+02	-6.09464448551E+00	-6.01457941197E-02
3.22479049596E+05	-1.59047151600E+01	1.02589989234E+02	9.26208321827E+00	-1.78762955453E+02	-3.58824334204E+01	-6.76504168009E+01	-6.04150698497E+00	-5.24907054072E-01
3.22712143282E+05	-2.05237695293E+01	7.97288812000E+01	9.22452540950E+00	-1.78508666395E+02	-3.66819148654E+01	6.60359964764E+01	-6.01790891907E+00	-8.19976931058E-02
3.22945405453E+05	-1.33452053670E+01	3.79304563811E+01	9.18619764053E+00	-1.78725234303E+02	-3.64688509655E+01	1.14388139964E+02	-6.06931671224E+00	9.22474946568E-02
3.23178836230E+05	-8.51781209012E+00	-6.65682285936E+01	9.17388688149E+00	-1.76293214828E+02	-3.66899921068E+01	1.09863491217E+02	-6.04033533098E+00	2.06421157505E-01
3.23412435735E+05	-2.00105319615E+01	1.87684833538E+01	9.26182079516E+00	-1.77985212563E+02	-4.30737503320E+01	1.61541616876E+02	-6.06374585280E+00	-1.87818715461E-01
3.23646204090E+05	-1.75931659249E+01	-2.39750972801E+01	9.14331467185E+00	-1.77661609598E+02	-3.85445822430E+01	-1.64270539147E+02	-6.11205942137E+00	-3.41904024460E-02
3.23880141417E+05	-1.31849902606E+01	-8.53627258050E+00	9.16418164587E+00	-1.77487423290E+02	-4.99387598762E+01	-1.62114595168E+02	-6.06128317791E+00	-3.14998059961E-01
3.24114247838E+05	-2.09569327108E+01	4.76084027305E+01	9.23572885628E+00	-1.78195779837E+02	-3.69976126039E+01	-1.17530900256E+02	-6.06244259372E+00	-5.13926942192E-01
3.24348523475E+05	-2.10786020974E+01	4.86924249812E+01	9.20422072707E+00	-1.78148624257E+02	-4.08012690676E+01	2.43241169740E+01	-5.99602462089E+00	-3.88410624242E-01
3.24582968451E+05	-1.37087026306E+01	3.60971115882E+01	9.14743859376E+00	-1.78738842108E+02	-3.95453022338E+01	-1.05269911908E+02	-6.00690114328E+00	-7.05297583906E-01
3.24817582888E+05	-1.71603200865E+01	-7.86739733164E+01	9.25776515360E+00	-1.77197966118E+02	-3.33038009796E+01	6.97341359718E+01	-6.02493021627E+00	3.11640816545E-01
3.25052366909E+05	-1.60317341836E+01	1.42797377581E+00	9.12421180054E+00	-1.77938975495E+02	-3.47319955822E+01	-3.00597066112E+01	-5.96894556515E+00	-2.81652979973E-01
3.25287320635E+05	-2.16370024427E+01	-2.15612049025E+01	9.26386137917E+00	-1.77967782468E+02	-4.15215927568E+01	-1.24610336666E+02	-6.05534368695E+00	-4.92371849255E-01
3.25522444191E+05	-2.74618881689E+01	5.52255643031E+01	9.25888877570E+00	-1.78311125638E+02	-5.09199498699E+01	-9.15376711823E+01	-6.05523476962E+00	-2.76603984911E-01
3.25757737698E+05	-1.41138329342E+01	6.80096943286E+01	9.23414387817E+00	-1.78859043618E+02	-4.31468510077E+01	-9.37193045246E+01	-5.99997105781E+00	-5.02991618726E-01
3.25993201280E+05	-3.76495812834E+01	-8.88613176094E+01	9.27002400037E+00	-1.77594730528E+02	-4.13257585770E+01	1.18624000594E+02	-6.06209179072E+00	-4.32054631184E-02
3.26228835058E+05	-9.03926883250E+00	1.03897464892E+01	8.99871238379E+00	-1.77955169765E+02	-3.87385374872E+01	1.62994392118E+02	-6.07602548266E+00	-2.34744729368E-01
