# Hz S DB R 50
! CMT, M5065, 19127446, 24.2.4/2
! Date: 11/1/2024 3:04:12 PM
! Data: Format (Calibration Info)
! Freq	S11:dB/Ang(F2)	S21:dB/Ang(F2)	S12:dB/Ang(F2)	S22:dB/Ang(F2)
3.00000000000E+05	-1.88914445676E+01	8.12950460629E-01	4.77018251459E+00	-1.77493061952E+02	-3.24864011779E+01	-9.36666128963E+01	-6.03767523204E+00	-4.26281405565E-01
3.00216845423E+05	-1.91717051734E+01	2.62504291027E+00	4.79857243734E+00	-1.77567989406E+02	-5.09036855478E+01	3.89088525021E+01	-6.05651672920E+00	-2.38623793731E-01
3.00433847586E+05	-1.33524062398E+01	4.37501508086E+01	4.70224096142E+00	-1.78818455820E+02	-4.60303014489E+01	-1.41963429642E+02	-6.05576879205E+00	-2.66456353223E-01
3.00651006602E+05	-3.31340066309E+01	-1.33888659981E+02	4.80827744140E+00	-1.77608338736E+02	-3.91698103088E+01	-7.85153912370E+01	-6.04838127356E+00	-3.45260867952E-01
3.00868322584E+05	-1.97816920890E+01	-2.81173948381E+01	4.72984270919E+00	-1.77344795085E+02	-3.45688560299E+01	-1.62350597823E+02	-6.08712993284E+00	-1.35195056107E-01
3.01085795647E+05	-2.26794124488E+01	5.42096416655E+01	4.80342458524E+00	-1.77827730859E+02	-3.97861329787E+01	-8.77302965712E+00	-6.04464048189E+00	-1.12754994985E-01
3.01303425902E+05	-1.65887942402E+01	9.00533937347E+01	4.87094793792E+00	-1.78572192145E+02	-4.19172678733E+01	-3.65352139288E+01	-6.02470488820E+00	-2.05590147872E-01
3.01521213465E+05	-1.32237286417E+01	5.46586965773E+01	4.69320167285E+00	-1.78184543447E+02	-4.47232397308E+01	-1.03227758828E+02	-6.07913060609E+00	-1.38907861640E-01
3.01739158449E+05	-2.69354214671E+01	1.06835605053E+02	4.76944388724E+00	-1.77635991313E+02	-3.47099352466E+01	-7.62187848426E+01	-6.04892150628E+00	-5.80333502510E-01
3.01957260967E+05	-2.09617184460E+01	2.80445554791E+01	4.74684765478E+00	-1.78050683722E+02	-4.39113667884E+01	1.58890876401E+02	-6.03417462691E+00	-8.02631739629E-02
3.02175521134E+05	-2.01905144571E+01	2.89195523503E+01	4.80003016075E+00	-1.78298255524E+02	-3.79751760103E+01	1.50138752632E+02	-6.07141354364E+00	-2.09829411903E-01
3.02393939063E+05	-2.15926073821E+01	8.50950694034E+01	4.82017331384E+00	-1.78239167896E+02	-5.02603977932E+01	1.41736322886E+02	-6.05113603948E+00	-7.07309037935E-02
3.02612514869E+05	-2.81719157998E+01	-1.96629098665E+01	4.74839189378E+00	-1.77879492070E+02	-4.21992959561E+01	1.72920495393E+02	-6.06279032965E+00	8.32376975794E-03
3.02831248665E+05	-1.74130443449E+01	2.94842907692E+01	4.77784767742E+00	-1.77937207675E+02	-5.13227374602E+01	-1.76571679367E+02	-6.04932166559E+00	-1.50245628537E-01
3.03050140565E+05	-7.96977484733E+00	-6.56194666280E+01	4.66847993762E+00	-1.75585797945E+02	-5.10199087922E+01	-1.49144122886E+02	-6.06518000230E+00	-1.11031406395E-01
3.03269190685E+05	-1.89862590363E+01	2.02687818197E+01	4.74045578488E+00	-1.78041470523E+02	-3.33082516412E+01	-9.83009359965E+01	-6.05766119097E+00	-4.10934911499E-01
3.03488399138E+05	-3.22304297707E+01	1.63373654608E+02	4.85982187376E+00	-1.77946943452E+02	-3.63055668366E+01	-4.61642283831E+01	-6.00035425678E+00	-2.96462664160E-01
3.03707766039E+05	-1.84116725869E+01	-1.28908066063E+01	4.73811667965E+00	-1.77950703197E+02	-4.45927371291E+01	-1.44955700311E+02	-6.08277693933E+00	-2.65234739799E-01
3.03927291503E+05	-3.38191017835E+01	-3.22604102296E+01	4.83224615051E+00	-1.77444980681E+02	-4.11579290969E+01	1.31662945464E+02	-6.04926634719E+00	-3.64421554384E-01
3.04146975643E+05	-1.63508830369E+01	2.26647105062E+01	4.74918915026E+00	-1.77876816082E+02	-3.80184834643E+01	1.71858588772E+02	-6.08141447870E+00	8.04048981969E-03
3.04366818575E+05	-2.51461083596E+01	5.83653980776E+00	4.75630240994E+00	-1.78042784968E+02	-4.38676524352E+01	-3.52225145403E+01	-6.03272081413E+00	-2.77141784769E-01
3.04586820414E+05	-2.61563964351E+01	1.78526729708E+01	4.69615794505E+00	-1.77813357134E+02	-3.99205098296E+01	-9.43188557401E+01	-6.02136976035E+00	-5.87025404199E-01
3.04806981274E+05	-1.47895195121E+01	2.95444632549E+01	4.64714664421E+00	-1.78303308977E+02	-3.96571929549E+01	6.09533881592E+01	-6.02180785638E+00	-1.21737776216E-01
3.05027301270E+05	-2.24829521089E+01	7.91914758003E+01	4.80110756875E+00	-1.78411189112E+02	-3.58180885394E+01	1.53898958596E+02	-6.08177458745E+00	-2.11525261028E-01
3.05247780517E+05	-3.38367426181E+01	4.77919000514E+01	4.77214890316E+00	-1.77774341213E+02	-3.93391292712E+01	-3.60167398505E+01	-6.03935656918E+00	-1.94878467306E-01
3.05468419131E+05	-2.47206332896E+01	-1.77789048692E+02	4.82716847856E+00	-1.77973172150E+02	-5.16554826450E+01	-2.57690716310E+01	-6.02091951609E+00	-9.26302735506E-02
3.05689217226E+05	-1.85614738676E+01	-8.97543649738E+01	4.83057015109E+00	-1.76987750855E+02	-4.12716096350E+01	9.22497736117E+01	-6.02746782072E+00	-2.05632309365E-01
3.05910174918E+05	-2.13209931690E+01	1.25857856309E+02	4.81592412005E+00	-1.78123357994E+02	-2.84631628270E+01	1.04115172293E+02	-6.06913727129E+00	3.28734178304E-01
3.06131292322E+05	-2.63024151997E+01	1.65809472177E+02	4.82625412067E+00	-1.77771214925E+02	-4.30990990497E+01	-3.96685921550E+01	-6.06122187229E+00	-1.00003509575E-01
3.06352569554E+05	-2.18305781991E+01	9.16736664363E+01	4.82982187559E+00	-1.77869129728E+02	-4.15627806396E+01	-3.95429005406E+01	-6.01431205065E+00	-3.07662928639E-01
3.06574006730E+05	-1.90679474853E+01	-2.01193198646E+01	4.74660457061E+00	-1.77606270268E+02	-4.37955158832E+01	-1.38710723334E+02	-6.04062511634E+00	-3.61051271792E-01
3.06795603964E+05	-1.45837462237E+01	2.50152949857E+00	4.74702875496E+00	-1.77742936694E+02	-3.53218386857E+01	1.67036686380E+02	-6.07865885080E+00	-4.42080180815E-01
3.07017361372E+05	-1.89835104288E+01	-5.80532114352E+01	4.75803946209E+00	-1.77843558648E+02	-4.40831750173E+01	5.34164264815E+01	-6.06508279703E+00	-2.74115769713E-01
3.07239279071E+05	-2.18450083041E+01	4.01481548391E+01	4.78014165956E+00	-1.77896424354E+02	-3.97578388843E+01	-1.02644930902E+02	-6.03583617181E+00	-5.01224582763E-01
3.07461357176E+05	-1.96754605730E+01	3.14038118459E+01	4.78865486292E+00	-1.77940329326E+02	-6.10399290921E+01	8.12899611121E+01	-6.02848545791E+00	-2.23330821692E-01
3.07683595803E+05	-2.49744610772E+01	3.14624728544E-01	4.72917162925E+00	-1.77520542227E+02	-3.90993319018E+01	-1.96084992295E+01	-5.98859154956E+00	-1.98906440725E-01
3.07905995068E+05	-1.21072645875E+01	-7.92839025917E+00	4.60414074865E+00	-1.77551718137E+02	-3.51808775255E+01	-1.22657611725E+02	-6.05968743984E+00	-4.14014018420E-01
3.08128555087E+05	-1.35578204383E+01	9.05201773335E+01	4.80180631180E+00	-1.78472178874E+02	-3.99419436200E+01	-1.65644449881E+02	-6.07112748320E+00	-2.95695251172E-01
3.08351275976E+05	-2.51833240648E+01	2.35733687077E+01	4.76174930690E+00	-1.77906327432E+02	-3.38051785799E+01	-1.07858384095E+02	-6.07955718162E+00	-4.82277431613E-01
3.08574157853E+05	-2.59060728895E+01	1.12600029455E+01	4.79879505613E+00	-1.78218193961E+02	-5.10589288022E+01	1.02180788148E+02	-6.03948075577E+00	-2.13034958373E-01
3.08797200832E+05	-2.01912634786E+01	2.77975995254E+01	4.77104877170E+00	-1.78224629406E+02	-3.71298593898E+01	-1.78484472478E+02	-6.08225605998E+00	-1.49683018926E-01
3.09020405031E+05	-2.13141136705E+01	3.56127240805E+01	4.76215077880E+00	-1.78240456900E+02	-4.73319680186E+01	1.52036651625E+02	-6.03870342720E+00	-3.43147124738E-01
3.09243770566E+05	-2.52599184167E+01	2.66177220934E+01	4.76976591606E+00	-1.77972428922E+02	-3.11827572833E+01	5.68984919305E+01	-6.03140444162E+00	3.83085962823E-01
3.09467297553E+05	-1.68185715049E+01	2.25961009738E+01	4.71702898529E+00	-1.78323686242E+02	-4.10738904419E+01	1.78374637166E+02	-6.06700736376E+00	-6.86260794242E-02
3.09690986110E+05	-1.84625025032E+01	-1.89244536611E+01	4.79424583563E+00	-1.77806960676E+02	-4.15116305871E+01	-2.70022374242E+01	-6.00709380025E+00	-1.10191411842E-01
3.09914836353E+05	-9.75514957867E+00	1.05594613731E+01	4.50601578381E+00	-1.78087787683E+02	-4.02372624283E+01	-8.75672752973E+01	-6.02160716457E+00	-4.04340239240E-01
3.10138848399E+05	-3.22498936396E+01	-1.94689610015E+01	4.80486022479E+00	-1.77397151221E+02	-3.49642346221E+01	1.77448834753E+02	-6.06009361468E+00	-3.10164883058E-01
3.10363022365E+05	-2.45560018232E+01	-7.33469112412E+01	4.77022233504E+00	-1.77309157976E+02	-5.30536110268E+01	-1.51530831639E+02	-6.04320023589E+00	-1.53980226532E-01
3.10587358368E+05	-2.20806008413E+01	-1.41876121833E+01	4.80049323288E+00	-1.77705625833E+02	-4.40949582123E+01	7.96461030513E+00	-6.02560209282E+00	-3.25654887164E-02
3.10811856525E+05	-1.95754855972E+01	9.70076651497E+01	4.75979817948E+00	-1.78402918850E+02	-4.41520706321E+01	-3.58136822684E+01	-6.02762374680E+00	-3.57953668359E-01
3.11036516954E+05	-1.89603026307E+01	9.84096072274E+00	4.79035695989E+00	-1.77977065370E+02	-3.59459402014E+01	-1.41109674932E+02	-6.05999913908E+00	-4.27419022276E-01
3.11261339771E+05	-1.72986737447E+01	-6.79557885888E+01	4.82109712684E+00	-1.77249831573E+02	-4.03989145843E+01	-1.28792854829E+02	-6.03836536158E+00	-8.70466543443E-02
3.11486325094E+05	-2.16411950827E+01	1.58580745925E+01	4.70272004642E+00	-1.78012649666E+02	-6.09009372682E+01	-1.69911562946E+02	-6.05241441015E+00	-1.96611551830E-01
3.11711473040E+05	-1.77869400990E+01	7.72011232573E+01	4.84163925501E+00	-1.78257617492E+02	-3.88669798161E+01	-1.42103236044E+02	-6.06588311589E+00	-3.64236327574E-01
3.11936783728E+05	-2.09161640295E+01	2.52450048435E+01	4.80973824104E+00	-1.77996622402E+02	-3.24414000651E+01	1.66202402697E+02	-6.10859003974E+00	-2.15471381314E-01
3.12162257274E+05	-1.82879869732E+01	1.18434183330E+02	4.81798738281E+00	-1.78079842328E+02	-4.45912326719E+01	1.30575144948E+02	-6.05956613036E+00	-1.39886369430E-01
3.12387893797E+05	-1.29653118902E+01	-3.64125901790E+01	4.71111874685E+00	-1.77179834158E+02	-4.66380405737E+01	5.15106086606E+01	-6.04747180451E+00	-5.67778841659E-02
3.12613693413E+05	-1.67631492945E+01	-3.10673403989E-01	4.75795101192E+00	-1.77492182064E+02	-3.90543497950E+01	1.77747236889E+02	-6.03090685690E+00	-1.91594490871E-01
3.12839656242E+05	-1.76826023074E+01	9.46144727247E+01	4.84709955724E+00	-1.78334115666E+02	-4.72950537009E+01	-8.55422964657E+01	-6.02072919774E+00	-4.14791003631E-01
3.13065782401E+05	-2.32972730115E+01	4.05836444356E+01	4.78609926746E+00	-1.78233036275E+02	-5.43882148116E+01	1.07481766920E+02	-6.06332327961E+00	9.52848249601E-03
3.13292072007E+05	-1.74374006276E+01	3.31746460350E+01	4.73487720610E+00	-1.77952639785E+02	-4.58210625711E+01	-1.77857927571E+02	-6.05983573927E+00	-2.44653704438E-01
3.13518525180E+05	-2.00633581796E+01	-5.92782124299E-01	4.79704053169E+00	-1.77842913898E+02	-3.47942647900E+01	-1.01784518280E+02	-6.05516184508E+00	-5.83727270261E-01
3.13745142038E+05	-3.58528402776E+01	-6.95655399216E+00	4.82904297015E+00	-1.77270009243E+02	-4.36828631107E+01	-5.00173477839E+01	-5.99635629733E+00	-2.21394189599E-01
3.13971922698E+05	-1.64541667516E+01	-7.07820098782E+01	4.77396289716E+00	-1.77716782714E+02	-4.20831226026E+01	1.78286153520E+02	-6.07599638595E+00	-3.80426466365E-02
3.14198867279E+05	-2.09079564333E+01	-1.74707073413E+02	4.86229381420E+00	-1.77929899566E+02	-5.78038862184E+01	-5.45569659768E+01	-6.03695901663E+00	-3.31247050454E-01
3.14425975900E+05	-2.06012642897E+01	4.74777972092E+01	4.79092299614E+00	-1.78090539508E+02	-3.71659943515E+01	-8.08214172660E+01	-6.04947195539E+00	-5.79564952968E-01
3.14653248680E+05	-1.72172410774E+01	4.15499967660E+01	4.72134892844E+00	-1.78468796580E+02	-4.05332645514E+01	1.74840857338E+02	-6.04376042914E+00	-1.47255030481E-01
3.14880685736E+05	-1.78977802305E+01	6.33562585648E+01	4.81838376906E+00	-1.78930529328E+02	-6.13480135229E+01	1.57436348745E+02	-6.05858992715E+00	-2.30520113550E-01
3.15108287188E+05	-2.47526118803E+01	3.87707737345E+01	4.75565581317E+00	-1.78182951964E+02	-3.96750804526E+01	6.08069873535E+01	-6.03183055620E+00	-6.10888506838E-02
3.15336053154E+05	-1.95963130802E+01	4.96534948209E+00	4.72613071951E+00	-1.77993282260E+02	-3.34903795222E+01	1.28459533122E+01	-5.99378020773E+00	-1.72065275867E-01
3.15563983753E+05	-2.86002339794E+01	1.99365344011E+00	4.81848680202E+00	-1.78337524682E+02	-4.09957446589E+01	-1.24133672414E+02	-6.04357555430E+00	-4.37156552652E-01
3.15792079105E+05	-2.07713516631E+01	-3.80702839588E+01	4.73372640036E+00	-1.77860624043E+02	-5.00567463526E+01	1.14975108093E+02	-6.06157359296E+00	-1.90622265484E-01
3.16020339328E+05	-1.69303020204E+01	3.59759121902E+01	4.72627708072E+00	-1.78365819739E+02	-3.81132826457E+01	-4.13343282259E+01	-6.03296960373E+00	-2.27838745118E-01
3.16248764542E+05	-1.65960166440E+01	3.52191034805E+01	4.73363244970E+00	-1.77819760713E+02	-4.60652431583E+01	6.76367899584E+01	-6.03957212461E+00	-1.17378972042E-01
3.16477354866E+05	-1.80910150803E+01	7.83958205580E+01	4.87289265246E+00	-1.78245824312E+02	-3.73389080238E+01	-6.85301574247E+00	-6.02693019603E+00	-1.64848891353E-01
3.16706110419E+05	-2.32255873909E+01	3.29128892392E+01	4.77276322220E+00	-1.78472752678E+02	-4.68441287520E+01	1.32705791036E+02	-6.02976447437E+00	-9.57927282091E-02
3.16935031321E+05	-2.46722472234E+01	-1.23481876012E+01	4.78787517201E+00	-1.77714640301E+02	-3.83828876013E+01	-7.52001034230E+01	-6.03760622869E+00	-3.15510286228E-01
3.17164117691E+05	-1.73316907972E+01	1.44921004808E+01	4.70031090016E+00	-1.78108951164E+02	-3.51031101596E+01	3.33641149197E+01	-6.01949639667E+00	8.39322941320E-02
3.17393369648E+05	-1.82009798148E+01	-3.91031816779E+01	4.67255964066E+00	-1.77786594470E+02	-4.51929527688E+01	3.45675640074E+01	-6.03053049237E+00	3.18341722643E-02
3.17622787313E+05	-1.59856613232E+01	-2.75332886899E+01	4.74431157870E+00	-1.77428812222E+02	-4.32951140324E+01	1.72102125475E+01	-6.02681005645E+00	-1.48016892246E-01
3.17852370806E+05	-2.21206555843E+01	-4.30191140497E+01	4.77992509908E+00	-1.77549366822E+02	-4.16474706347E+01	-1.79465532266E+02	-6.04739544095E+00	-1.95067037871E-01
3.18082120245E+05	-2.25611760884E+01	-1.47882919416E+01	4.75678599090E+00	-1.77863155827E+02	-4.17120322143E+01	1.63198350124E+02	-6.06181245798E+00	-1.43083302700E-01
3.18312035752E+05	-1.98690381792E+01	2.55756179076E+01	4.76117649876E+00	-1.78035140335E+02	-5.44093261817E+01	-3.15583281183E+01	-6.05975898144E+00	-4.40895359263E-01
3.18542117445E+05	-1.88218085171E+01	1.01792825613E+02	4.91550992526E+00	-1.78059970195E+02	-4.59260175676E+01	5.91873305226E+01	-6.03259635934E+00	-5.73373088541E-02
3.18772365446E+05	-1.59544089681E+01	5.87874577354E+01	4.75602882747E+00	-1.78193479990E+02	-3.88210277921E+01	1.73105668583E+02	-6.07130109941E+00	-2.09662659410E-02
3.19002779874E+05	-1.77327975621E+01	4.25060715925E+01	4.75066377080E+00	-1.78423334737E+02	-4.42963312959E+01	-1.28364544971E+02	-6.05920415947E+00	-4.42687435312E-01
3.19233360850E+05	-2.17871536735E+01	5.44676424928E+01	4.80246677124E+00	-1.78381474086E+02	-4.50382818291E+01	-1.25501214448E+02	-6.05162874129E+00	-2.01916461482E-01
3.19464108494E+05	-1.85618106978E+01	-1.39319097298E+02	4.85830711918E+00	-1.77866977984E+02	-4.82186919327E+01	-1.66091038588E+01	-6.05905132059E+00	-1.64109674268E-01
3.19695022927E+05	-1.73435157822E+01	-6.09387750292E+00	4.70774931960E+00	-1.77731187728E+02	-4.28902199127E+01	-1.15640332862E+02	-6.07864377534E+00	-4.50711022315E-01
3.19926104268E+05	-2.38340178587E+01	-5.43348716702E+01	4.75609361412E+00	-1.77549758343E+02	-6.07089667767E+01	9.08062811844E+01	-6.01739451957E+00	-1.70029368128E-01
3.20157352640E+05	-1.61672156554E+01	8.38945852325E+01	4.84870780540E+00	-1.78495455295E+02	-5.08339796246E+01	4.18581725054E+01	-6.02880540973E+00	-1.74773505249E-01
3.20388768162E+05	-1.60244282091E+01	2.71918256451E+01	4.60651043819E+00	-1.78732800987E+02	-4.22949828249E+01	-5.67585662330E+01	-6.04273021816E+00	-1.90764038833E-01
3.20620350955E+05	-2.04943618636E+01	-8.32694427238E+01	4.79479625180E+00	-1.77605505354E+02	-3.63006859016E+01	-1.11929428233E+02	-6.06439006583E+00	-3.21737080490E-01
3.20852101140E+05	-3.11467337379E+01	1.22824824664E+02	4.81979756937E+00	-1.78286394223E+02	-4.04754765464E+01	-3.62042004085E+00	-6.02054864093E+00	-2.40673250915E-01
3.21084018839E+05	-1.96612975381E+01	4.72068026158E+01	4.71710037204E+00	-1.78228384193E+02	-3.73948541296E+01	-9.24185030523E+01	-6.04220719116E+00	-3.01106904313E-01
3.21316104172E+05	-1.66439381402E+01	-2.14477979064E+01	4.71788145746E+00	-1.77844553782E+02	-4.73783389901E+01	1.00350139030E+02	-6.05393064620E+00	-3.33237565216E-01
3.21548357261E+05	-2.24993347710E+01	3.41850323237E+01	4.75354493158E+00	-1.77990672436E+02	-3.53141373322E+01	1.79882131401E+02	-6.08689818924E+00	-3.61232295243E-01
3.21780778226E+05	-2.46729029939E+01	-2.17850359279E+01	4.74504622613E+00	-1.77789494480E+02	-4.50260949661E+01	-6.46614283212E+01	-6.04757834303E+00	-2.90942635320E-01
3.22013367189E+05	-1.40548889876E+01	7.80794566913E+01	4.74495414051E+00	-1.78735877930E+02	-4.74104822620E+01	-4.25405198724E+01	-6.02497251551E+00	-2.11081859909E-01
3.22246124272E+05	-2.22356133474E+01	1.23469238197E+02	4.76540811871E+00	-1.78459004568E+02	-4.56532494210E+01	-7.34570239692E+01	-6.04770099734E+00	-2.22761555458E-01
3.22479049596E+05	-2.39692374735E+01	4.86263835107E+01	4.75397713026E+00	-1.78466029787E+02	-3.60495342159E+01	1.16932565260E+02	-6.05239859827E+00	1.03689915021E-01
3.22712143282E+05	-1.72541130350E+01	8.01658346911E+01	4.80533398599E+00	-1.78166592948E+02	-4.18542359474E+01	-1.15402094116E+02	-6.03754534652E+00	-2.85678329362E-01
3.22945405453E+05	-2.58936917121E+01	8.06359012163E+01	4.88366206581E+00	-1.78046368852E+02	-4.09293489405E+01	6.83287170844E+01	-6.02495472751E+00	7.35183357836E-02
3.23178836230E+05	-1.63934630278E+01	1.72810832181E+01	4.71023393249E+00	-1.77864579136E+02	-4.78394107988E+01	1.58930750298E+02	-6.06337115061E+00	5.22983967955E-03
3.23412435735E+05	-2.39096030952E+01	6.69601957638E+01	4.79244676750E+00	-1.77980454117E+02	-4.28776528443E+01	-7.84210783604E+01	-6.06682397898E+00	-2.50336547320E-01
3.23646204090E+05	-1.94192402735E+01	3.41018961193E+00	4.72600391969E+00	-1.77739007693E+02	-5.61549504262E+01	8.14029468973E+01	-6.06149525982E+00	-3.15906223076E-01
3.23880141417E+05	-1.65935804297E+01	2.08923011376E+01	4.73743063542E+00	-1.78232701683E+02	-3.98731603464E+01	-8.66884988775E+01	-6.04115555691E+00	-3.43876330978E-01
3.24114247838E+05	-2.01667080754E+01	2.26098427325E+01	4.74502954435E+00	-1.78253395926E+02	-3.64661736383E+01	-1.55554733529E+02	-6.06995004057E+00	-3.27130126309E-01
3.24348523475E+05	-2.00070713679E+01	3.49952252185E+01	4.72226072344E+00	-1.78219861978E+02	-4.20969345596E+01	-1.69637908566E+02	-6.05885551685E+00	-2.66579865946E-01
3.24582968451E+05	-1.68266854432E+01	7.96947559068E+01	4.73632619142E+00	-1.78457050499E+02	-4.28311048665E+01	1.00026370577E+02	-6.04117754800E+00	1.10974675589E-02
3.24817582888E+05	-2.50518188226E+01	1.81234546872E+00	4.77492949803E+00	-1.78151489522E+02	-4.62705592602E+01	-1.78368941433E+02	-6.02421688535E+00	1.00175074310E-02
3.25052366909E+05	-3.12572929946E+01	1.03563717636E+01	4.79656006597E+00	-1.77925774186E+02	-3.43729777045E+01	4.23261931531E+01	-5.98707933477E+00	-3.41672813420E-02
3.25287320635E+05	-2.03418409570E+01	3.67371639344E+01	4.70849529231E+00	-1.78043319412E+02	-3.58271195959E+01	7.07199598422E+01	-6.03945228769E+00	-1.99593373099E-02
3.25522444191E+05	-1.90684415157E+01	1.01653038454E+02	4.80449074747E+00	-1.78170133822E+02	-3.99811606045E+01	1.12857651179E+02	-6.05391011572E+00	-1.02769823618E-01
3.25757737698E+05	-1.34094521165E+01	-3.89796352458E+01	4.71667902959E+00	-1.77429651273E+02	-4.10172112589E+01	-9.27436442817E+01	-6.05574142604E+00	-4.17235522718E-01
3.25993201280E+05	-2.06910759680E+01	7.65641610296E+00	4.74802782396E+00	-1.78062986462E+02	-3.76888142284E+01	-2.19263864428E+01	-6.02304112642E+00	-4.22776565831E-01
3.26228835058E+05	-1.79536067635E+01	-1.24443490270E+01	4.77862151726E+00	-1.78526896835E+02	-3.65939417797E+01	-1.41583829035E+02	-6.07938966552E+00	-5.06780666813E-01
