# Hz S DB R 50
! CMT, M5065, 19127446, 24.2.4/2
! Date: 11/1/2024 3:10:59 PM
! Data: Format (Calibration Info)
! Freq	S11:dB/Ang(F2)	S21:dB/Ang(F2)	S12:dB/Ang(F2)	S22:dB/Ang(F2)
3.00000000000E+05	-2.08141842518E+01	3.73099129617E+01	5.78899283484E+00	-1.77850658880E+02	-3.18214714439E+01	-1.60769825474E+02	-6.10644314927E+00	-2.88577753273E-01
3.00216845423E+05	-2.03393453416E+01	2.80615710372E+01	5.80480988290E+00	-1.77824199142E+02	-5.11941078627E+01	-1.77509036056E+02	-6.06223876624E+00	-4.01893077496E-02
3.00433847586E+05	-1.84704164528E+01	1.00027409103E+02	5.87029689214E+00	-1.77844348482E+02	-3.92230329380E+01	7.30726493146E+01	-6.03764439690E+00	-1.10791658995E-01
3.00651006602E+05	-1.20171465869E+01	1.43621350182E+01	5.72723543086E+00	-1.77761951812E+02	-4.25125484361E+01	1.60596200440E+02	-6.03756819850E+00	-3.21478221280E-01
3.00868322584E+05	-3.22607356422E+01	5.87245844836E+01	5.83050776496E+00	-1.77720258776E+02	-4.25538865845E+01	1.65768218978E+02	-6.06416356788E+00	-1.28102742421E-01
3.01085795647E+05	-1.65759386067E+01	3.46050101957E+01	5.77275765325E+00	-1.77863689033E+02	-4.70329288541E+01	-1.05380982436E+02	-6.02788929971E+00	-2.99195436367E-01
3.01303425902E+05	-2.74587623997E+01	1.46468515700E+01	5.82058104879E+00	-1.77879313395E+02	-5.31478980918E+01	6.83060435271E+00	-6.05720992347E+00	-2.60451299166E-01
3.01521213465E+05	-1.63086517952E+01	1.17373009053E+02	5.87253602399E+00	-1.78094063657E+02	-3.69451300768E+01	-1.09722731067E+02	-6.04173290169E+00	-2.56469842712E-01
3.01739158449E+05	-2.17661326587E+01	6.31532471616E+01	5.79468834315E+00	-1.78004693088E+02	-3.58734406471E+01	-7.70194983277E+01	-6.01594750302E+00	-3.69752130353E-01
3.01957260967E+05	-2.98519450940E+01	1.10770450130E+02	5.84968657388E+00	-1.78042180808E+02	-4.35681915842E+01	-1.53093800372E+01	-5.98287532256E+00	-2.09973528236E-01
3.02175521134E+05	-1.89981827917E+01	3.94841654631E+01	5.84120197081E+00	-1.77795894787E+02	-4.00122677564E+01	1.02007291838E+02	-6.04120751524E+00	-3.22337266969E-02
3.02393939063E+05	-1.38154618741E+01	3.52031979270E+01	5.75708919645E+00	-1.78240674015E+02	-3.22499832616E+01	-8.55361560267E+01	-6.02645861968E+00	-7.39454700457E-01
3.02612514869E+05	-2.61768581991E+01	-9.88863001261E+01	5.94051921424E+00	-1.77611167366E+02	-4.24517901177E+01	-1.65438610410E+02	-6.02342922263E+00	-1.27925597465E-03
3.02831248665E+05	-2.81280442553E+01	1.31805350776E+02	5.92397017442E+00	-1.77727022183E+02	-3.72873515799E+01	-3.96078862909E+00	-6.03019748885E+00	-3.52825736133E-01
3.03050140565E+05	-1.45764950084E+01	2.35535599859E+01	5.75503098158E+00	-1.77622705404E+02	-3.89458985876E+01	1.19397309580E+02	-6.03338983361E+00	-6.74739581629E-03
3.03269190685E+05	-2.10226707064E+01	7.89805300111E+01	5.90351456972E+00	-1.77750738784E+02	-4.13876602247E+01	1.32074070107E+01	-6.05038060143E+00	4.09803072464E-02
3.03488399138E+05	-1.44024857144E+01	1.90579178240E+01	5.69991018406E+00	-1.77748897828E+02	-4.04619998350E+01	-1.03262466076E+02	-6.05993776375E+00	-4.90027858637E-01
3.03707766039E+05	-2.23451260017E+01	6.04311653377E+01	5.85886958409E+00	-1.77908042348E+02	-4.39651283965E+01	-6.52635468609E+01	-6.03146500164E+00	-2.49339570677E-01
3.03927291503E+05	-1.06266104549E+01	1.10222711442E+02	5.94668692676E+00	-1.78889593862E+02	-4.13006252384E+01	-6.33262835936E+01	-6.02498085064E+00	-3.02477061357E-01
3.04146975643E+05	-3.02748939324E+01	9.34011971281E+01	5.83413980453E+00	-1.78278478103E+02	-3.48470594205E+01	6.70781050673E+01	-6.02144072543E+00	-3.25972632844E-02
3.04366818575E+05	-2.02335059553E+01	5.73184781664E+00	5.71822591429E+00	-1.77781337007E+02	-3.49997973629E+01	-9.15039263555E+01	-6.02349584927E+00	-3.91557267700E-01
3.04586820414E+05	-2.28601542057E+01	7.80211015773E+01	5.86859212988E+00	-1.77894697184E+02	-3.78194814802E+01	-1.55452647135E+02	-6.04857462544E+00	-3.53277140324E-01
3.04806981274E+05	-2.08473677019E+01	-1.67992399543E+01	5.74588831810E+00	-1.77283998894E+02	-4.05308715296E+01	1.68090302949E+02	-6.05461886728E+00	-1.82911516602E-01
3.05027301270E+05	-2.65192851625E+01	-1.05082132817E+02	5.83482155762E+00	-1.77343319980E+02	-3.29383463670E+01	1.17037558236E+02	-6.06867226465E+00	-6.67231133041E-02
3.05247780517E+05	-2.49810808151E+01	3.57740214988E-01	5.83055613645E+00	-1.77379189125E+02	-3.67569344968E+01	-4.65568704208E+01	-6.00699806065E+00	-4.69291060186E-01
3.05468419131E+05	-1.53116626574E+01	3.85721348971E+01	5.76310952181E+00	-1.78025738334E+02	-6.43067602206E+01	5.74020095326E+01	-6.04118983242E+00	-1.73383174154E-01
3.05689217226E+05	-1.01766399324E+01	8.63751660236E+01	5.84235415059E+00	-1.79232944368E+02	-4.56558224227E+01	1.57586866085E+02	-6.04564621193E+00	-1.44699998908E-01
3.05910174918E+05	-2.58640575300E+01	2.48742869618E+01	5.80903393168E+00	-1.77608099005E+02	-3.34355132483E+01	8.35589740235E+01	-6.05842289374E+00	7.27515189375E-02
3.06131292322E+05	-2.14339971084E+01	1.00081252169E+02	5.85385333899E+00	-1.78217439253E+02	-5.07400672945E+01	-1.39408740703E+02	-6.02395765878E+00	-1.61190622712E-01
3.06352569554E+05	-1.37350887185E+01	-7.22280781621E+01	5.80764395457E+00	-1.76949371221E+02	-6.23907129482E+01	-1.11709543412E+02	-6.04954928664E+00	-2.77209996672E-01
3.06574006730E+05	-1.39626111549E+01	3.93965925096E+00	5.70516063712E+00	-1.77594467086E+02	-4.12517277222E+01	9.71944938419E+01	-6.02489105691E+00	-1.61074296857E-01
3.06795603964E+05	-2.82888126381E+01	7.41790209562E+01	5.78649905827E+00	-1.77882128986E+02	-3.44859314917E+01	-4.31772847451E+01	-5.95749277825E+00	-3.33626456154E-01
3.07017361372E+05	-1.71454425436E+01	1.52735161823E+01	5.77267955641E+00	-1.77720089288E+02	-4.15112921451E+01	1.58633479848E+02	-6.06257291655E+00	-1.73249730223E-01
3.07239279071E+05	-1.62513879299E+01	7.74003357915E+01	5.84233764206E+00	-1.78521791402E+02	-4.24947054710E+01	1.77174391829E+02	-6.04484278643E+00	-1.87766584968E-01
3.07461357176E+05	-1.73543236218E+01	4.66373695447E+00	5.77517701896E+00	-1.77729158204E+02	-2.89012076597E+01	-6.30812347584E+01	-5.99212336341E+00	-6.06051423827E-01
3.07683595803E+05	-2.14269093451E+01	8.29239839480E+01	5.85604927126E+00	-1.77942937553E+02	-3.69222441526E+01	-1.49390314381E+02	-6.07462902117E+00	-2.76530384685E-01
3.07905995068E+05	-3.12365319980E+01	6.56373860609E+01	5.85927780157E+00	-1.77683981132E+02	-3.80985591365E+01	-6.27847865804E+01	-6.03800256876E+00	-2.76851055401E-01
3.08128555087E+05	-1.15813000146E+01	1.64140893177E+02	6.03436236263E+00	-1.78106320797E+02	-3.55947282672E+01	-1.15307793037E+02	-6.04290630492E+00	-5.58904229539E-01
3.08351275976E+05	-2.53463790158E+01	1.98122399296E+01	5.84860536573E+00	-1.77689479222E+02	-3.23485946006E+01	-6.40153879997E+01	-5.99869497473E+00	-5.86236168927E-01
3.08574157853E+05	-1.67742611084E+01	1.67153181320E+01	5.76867090575E+00	-1.78002154470E+02	-3.94792094428E+01	-3.11623036791E+01	-6.00176458184E+00	-4.32244623889E-01
3.08797200832E+05	-1.65048679004E+01	1.22471580504E+01	5.78849153059E+00	-1.77855661393E+02	-5.14252147883E+01	-7.31427456534E+01	-6.04224843500E+00	-1.76668900724E-01
3.09020405031E+05	-1.30937261318E+01	3.46639110266E+01	5.72412169755E+00	-1.78495836237E+02	-4.01436262804E+01	-1.11719321146E+02	-6.05432652665E+00	-2.33781136678E-01
3.09243770566E+05	-2.47576754321E+01	7.27788920640E+01	5.83438004580E+00	-1.77834585213E+02	-2.76657619721E+01	-7.86945437815E+01	-6.02643597524E+00	-8.41646511125E-01
3.09467297553E+05	-3.39265326945E+01	-1.69237983807E+02	5.88173353571E+00	-1.77980967761E+02	-3.98453760884E+01	8.01498442034E+01	-6.03100046367E+00	5.37100028477E-02
3.09690986110E+05	-2.32605511266E+01	9.66871107434E+01	5.82869618109E+00	-1.77909222648E+02	-4.09093996602E+01	-1.06260473904E+02	-6.02997081371E+00	-2.93765115270E-01
3.09914836353E+05	-1.05818078001E+01	6.45613435989E+01	5.75484186597E+00	-1.78953715377E+02	-4.22361251701E+01	-1.57142975873E+02	-6.04992404531E+00	-3.84972768974E-01
3.10138848399E+05	-1.55366985523E+01	4.11778210820E+01	5.79064098083E+00	-1.78451528847E+02	-4.14561588386E+01	-1.08535499701E+02	-6.03892096371E+00	-5.47710947645E-01
3.10363022365E+05	-2.44271271950E+01	9.95674660087E+01	5.87444469380E+00	-1.78032649452E+02	-4.05420545953E+01	1.37349259858E+01	-6.02950047869E+00	-2.19047197284E-01
3.10587358368E+05	-1.61694185197E+01	-2.50852088489E+01	5.74991153619E+00	-1.77123263748E+02	-5.56381654656E+01	-1.68526885326E+02	-6.02819221781E+00	-2.44944071857E-01
3.10811856525E+05	-3.42544194413E+01	5.44887856135E+01	5.96405213849E+00	-1.77878366836E+02	-3.35312759950E+01	7.84348390385E+01	-6.02317330109E+00	2.91330357029E-01
3.11036516954E+05	-1.85920111228E+01	3.45931204813E+01	5.80501086681E+00	-1.77952177625E+02	-3.75054692051E+01	-2.92277725564E+01	-6.00049135207E+00	-3.76769556684E-01
3.11261339771E+05	-1.57959270084E+01	3.01956272100E+01	5.77803862405E+00	-1.78248675580E+02	-4.05763908839E+01	-1.69972408413E+02	-6.03778379227E+00	-9.81727547144E-02
3.11486325094E+05	-2.23050105664E+01	5.71262256603E+01	5.78558052694E+00	-1.78304406385E+02	-4.56763466367E+01	-1.19092283594E+02	-6.07338975400E+00	-3.65977930170E-01
3.11711473040E+05	-2.08259671781E+01	2.18231808464E+01	5.85535018936E+00	-1.78019731401E+02	-4.89383537895E+01	1.34161174815E+02	-6.07443143143E+00	-2.11032239587E-01
3.11936783728E+05	-2.37495106176E+01	1.40492872835E+02	5.88572653230E+00	-1.77926544694E+02	-4.74301709200E+01	-7.93342808030E+01	-6.01849100090E+00	-2.63300773544E-01
3.12162257274E+05	-2.11998338594E+01	1.16418911003E+01	5.73337834090E+00	-1.77978324504E+02	-5.20603770864E+01	1.30502824468E+02	-6.02419418951E+00	-2.39512109791E-01
3.12387893797E+05	-2.90134444642E+01	1.41534919299E+01	5.77787338118E+00	-1.77712060207E+02	-5.13900688041E+01	1.30578952450E+02	-6.02794005562E+00	-2.31369580030E-01
3.12613693413E+05	-2.21282242446E+01	-2.27698366983E+01	5.84877545337E+00	-1.77972490205E+02	-3.83841377807E+01	7.30099236835E+01	-6.03052688956E+00	1.60606157066E-01
3.12839656242E+05	-1.68866012860E+01	6.93705377080E+01	5.78693044960E+00	-1.78173730579E+02	-3.93971439853E+01	1.39130641046E+02	-6.03645421821E+00	-1.24714622305E-01
3.13065782401E+05	-2.87357107455E+01	-1.61765515701E+02	5.84116093703E+00	-1.77494911393E+02	-5.08034927834E+01	3.47793739947E+01	-6.01676960614E+00	-2.33159015566E-01
3.13292072007E+05	-2.14689638971E+01	5.50293350850E+01	5.75230768540E+00	-1.78186448990E+02	-3.98530539930E+01	-1.65501551684E+02	-6.07100624829E+00	-2.19450619584E-01
3.13518525180E+05	-1.66264682439E+01	8.60373402439E+01	5.84069591811E+00	-1.78372265487E+02	-2.84106124300E+01	-2.77414343754E+01	-5.90925975413E+00	-6.44135829996E-01
3.13745142038E+05	-2.07612600473E+01	4.14850776757E+01	5.83265702374E+00	-1.78104976113E+02	-4.46454139814E+01	1.56778656502E+02	-6.03642767586E+00	-1.44071930001E-01
3.13971922698E+05	-2.86121024022E+01	-3.13407860273E+01	5.86070278097E+00	-1.77872579182E+02	-3.77560432252E+01	1.95044183765E+01	-5.99832515153E+00	-3.14536633596E-01
3.14198867279E+05	-1.91303337841E+01	2.57929356785E+01	5.75920731006E+00	-1.77884891626E+02	-4.30264260354E+01	-5.03539868170E+01	-6.02403198260E+00	-3.77897256720E-01
3.14425975900E+05	-3.11419860179E+01	1.27068291295E+02	5.84617196754E+00	-1.78242412476E+02	-3.47254511330E+01	3.49086923916E+01	-5.97759166303E+00	-1.02902832816E-01
3.14653248680E+05	-1.96768987574E+01	-1.74948346456E+00	5.76399530029E+00	-1.77706366005E+02	-4.17145297386E+01	6.70860666777E+01	-6.04279030811E+00	-1.23245258818E-01
3.14880685736E+05	-2.19788639940E+01	3.04218232661E+01	5.77909076063E+00	-1.77771791188E+02	-4.19345289277E+01	-1.05035005288E+02	-6.03894109012E+00	-5.03691968813E-01
3.15108287188E+05	-1.97701677681E+01	1.23872985331E+02	5.91701948257E+00	-1.78375257697E+02	-3.68626699513E+01	-1.50516040813E+02	-6.07623131374E+00	-4.92959389940E-01
3.15336053154E+05	-2.38653913088E+01	5.23852324389E+01	5.74529588911E+00	-1.77681595166E+02	-4.43963081920E+01	2.56827039799E+01	-6.02778805867E+00	-2.48916111464E-01
3.15563983753E+05	-2.72555849880E+01	-1.76675047829E+01	5.80597447513E+00	-1.77704779776E+02	-3.88017152431E+01	-7.98198857484E+01	-6.05124167160E+00	-3.09003518773E-01
3.15792079105E+05	-2.28259893816E+01	7.03138889629E+01	5.86974545023E+00	-1.78291360242E+02	-4.52045290002E+01	1.15187852065E+02	-6.06257075908E+00	-6.27276859767E-03
3.16020339328E+05	-2.50544962334E+01	8.57647577145E+01	5.86736493805E+00	-1.78268439841E+02	-3.96398975947E+01	1.98491069296E+01	-6.03800829661E+00	-2.43315989552E-01
3.16248764542E+05	-2.66096639983E+01	2.35279407418E+01	5.81637391526E+00	-1.78152088949E+02	-4.44970233393E+01	1.34820718535E+02	-6.04884638586E+00	-2.15026123708E-02
3.16477354866E+05	-2.09765078460E+01	1.68629095258E+01	5.77825577654E+00	-1.78069366410E+02	-4.56283831858E+01	-1.18473706614E+01	-6.04248837605E+00	-3.65752716946E-01
3.16706110419E+05	-2.26091309599E+01	1.35895841616E+02	5.84403529394E+00	-1.77937866900E+02	-4.73507206425E+01	-5.61914290477E+01	-6.00004257497E+00	-4.12475596866E-01
3.16935031321E+05	-1.53181731118E+01	5.28919394636E+01	5.80792313570E+00	-1.78162220574E+02	-3.91088785102E+01	1.28850611379E+02	-6.07546694531E+00	-1.37809751136E-01
3.17164117691E+05	-1.82309023995E+01	1.18201841239E+01	5.72342042494E+00	-1.78073156839E+02	-5.39211704666E+01	-2.21773809161E+01	-6.03733104123E+00	-2.21826156153E-01
3.17393369648E+05	-1.47472878140E+01	-1.64190715709E+01	5.73155624474E+00	-1.77532898189E+02	-4.17046009542E+01	3.00456076520E+01	-6.03806976816E+00	-2.80713292138E-02
3.17622787313E+05	-1.30090927201E+01	-7.06636960156E+01	5.85190763178E+00	-1.76886278314E+02	-4.41554440725E+01	-6.35270168329E+01	-6.02465189871E+00	-4.57251942623E-01
3.17852370806E+05	-2.00660559626E+01	8.58830933494E+01	5.88228222140E+00	-1.78115024243E+02	-4.97668438531E+01	-2.95643417083E+01	-6.04906946526E+00	-1.81948975883E-01
3.18082120245E+05	-1.84578381076E+01	-1.68496830282E+01	5.83663496132E+00	-1.77635611938E+02	-4.24050072190E+01	-7.25656605608E+01	-6.04111484344E+00	-3.03615022190E-01
3.18312035752E+05	-3.22998256569E+01	1.24606901392E+02	5.85701145029E+00	-1.77870843894E+02	-4.66073174075E+01	-1.52727576411E+02	-6.01636465490E+00	-2.73341955890E-01
3.18542117445E+05	-1.53325143495E+01	2.31159966929E+01	5.73880464513E+00	-1.78172345094E+02	-4.26482241992E+01	-1.53061377574E+02	-6.03990297208E+00	-2.74918695778E-01
3.18772365446E+05	-1.74880408057E+01	6.63575723668E+01	5.84633183731E+00	-1.78425125784E+02	-4.11460189392E+01	1.01260289620E+02	-6.01471357831E+00	-1.00669126878E-01
3.19002779874E+05	-2.33621931294E+01	3.37882403908E+01	5.82295909063E+00	-1.78330757519E+02	-4.60992865883E+01	-5.65327493959E+01	-6.04590168431E+00	-5.37838857750E-01
3.19233360850E+05	-2.14282737964E+01	8.35487093530E+01	5.87117242275E+00	-1.78282156177E+02	-4.41392156103E+01	-1.50653259892E+02	-6.02745212076E+00	-3.68116411345E-01
3.19464108494E+05	-1.28993473894E+01	6.27406036685E+01	5.76117285772E+00	-1.78838764511E+02	-4.43930087029E+01	-1.36159327454E+02	-6.05159998416E+00	-2.90324783343E-01
3.19695022927E+05	-2.91096773581E+01	1.55945252517E+01	5.83499548234E+00	-1.77459989830E+02	-3.59511634511E+01	-1.33455120188E+02	-6.03984503600E+00	-5.17742176872E-01
3.19926104268E+05	-2.37039827335E+01	7.01290950260E+01	5.80534600984E+00	-1.78293971832E+02	-4.07793582502E+01	-8.07688711474E+01	-6.06849824569E+00	-3.22782614744E-01
3.20157352640E+05	-1.74722794072E+01	1.21974538011E+01	5.75034177907E+00	-1.77675203870E+02	-4.10372280844E+01	-1.10017773506E+02	-6.05586071021E+00	-2.38334509872E-01
3.20388768162E+05	-1.35873976422E+01	8.56709123636E+01	5.80216150012E+00	-1.78812461944E+02	-4.62684767404E+01	1.38941431991E+02	-6.03585932160E+00	-7.12175186614E-02
3.20620350955E+05	-2.24848432966E+01	4.86345870701E+01	5.76520231171E+00	-1.78039730832E+02	-3.58196369987E+01	1.31153732182E+02	-6.06826555704E+00	1.01105883070E-01
3.20852101140E+05	-1.69589673910E+01	1.98214496687E+01	5.76224799419E+00	-1.77945073774E+02	-3.94189198428E+01	1.19516912309E+02	-6.07073809978E+00	4.73546594997E-02
3.21084018839E+05	-1.95585890429E+01	1.59717980081E+01	5.82889127054E+00	-1.78196941454E+02	-5.14004787112E+01	-1.00196623890E+02	-6.05172253977E+00	-2.99364236874E-01
3.21316104172E+05	-1.39478401936E+01	5.84121120739E+01	5.80203156194E+00	-1.78717741668E+02	-4.97491007432E+01	-7.84871149481E+01	-6.04382860124E+00	-3.13350137942E-01
3.21548357261E+05	-2.41462906441E+01	2.51521476583E+01	5.79591559284E+00	-1.78025371319E+02	-4.06418582760E+01	-9.36749922132E+01	-6.05597441705E+00	-3.94936505030E-01
3.21780778226E+05	-2.29867379121E+01	4.88477929139E+01	5.83853833699E+00	-1.78196692883E+02	-4.34076509633E+01	1.70154729808E+02	-6.03127405117E+00	-1.68997839627E-01
3.22013367189E+05	-1.55301442518E+01	-3.11753416141E+01	5.72593812417E+00	-1.77745634623E+02	-3.85384547844E+01	1.17202162771E+02	-6.04528016259E+00	-1.28881196308E-01
3.22246124272E+05	-1.97168708944E+01	-5.38166914587E+01	5.87534799339E+00	-1.77546504140E+02	-3.17153558339E+01	1.15566088686E+02	-6.07054374605E+00	2.98375108071E-01
3.22479049596E+05	-1.93105264152E+01	2.96382807855E+00	5.76813929342E+00	-1.77850938280E+02	-3.65101784601E+01	-6.79653029372E+01	-6.02704646531E+00	-3.63673197252E-01
3.22712143282E+05	-1.78865608514E+01	3.39948379249E+01	5.74598501157E+00	-1.77917113526E+02	-4.61581525575E+01	-5.20544382773E+01	-6.03164787141E+00	-3.33442024541E-01
3.22945405453E+05	-1.52926690149E+01	1.50848185869E+02	5.92612438724E+00	-1.78259183735E+02	-4.85696718504E+01	3.75588244999E+01	-6.04872575919E+00	-1.76368726850E-01
3.23178836230E+05	-1.87145868757E+01	4.82907519446E+01	5.87058292538E+00	-1.78408102099E+02	-4.26224047183E+01	4.70037766117E+01	-6.00930165921E+00	-2.11162502873E-01
3.23412435735E+05	-2.18844362791E+01	8.71062123053E+00	5.80691219211E+00	-1.78128256533E+02	-4.60994448475E+01	-3.47374775958E+01	-6.04074424607E+00	-1.95282428764E-01
3.23646204090E+05	-2.11555522154E+01	8.98055496805E+01	5.85065080021E+00	-1.78383841503E+02	-5.01761273805E+01	-8.69125673364E+01	-6.02976188296E+00	-3.13333527713E-01
3.23880141417E+05	-1.35320559780E+01	3.96941273847E+01	5.72566837951E+00	-1.78811286426E+02	-3.81653737596E+01	-1.23331637188E+02	-6.02892139174E+00	-3.84419233466E-01
3.24114247838E+05	-2.05747943438E+01	8.78703210857E+01	5.84111953687E+00	-1.78264841801E+02	-3.77030257244E+01	1.24040882182E+02	-6.06590694028E+00	-1.10272613658E-01
3.24348523475E+05	-2.52141914770E+01	-2.01075197141E+01	5.82678872845E+00	-1.77820800201E+02	-4.15590042954E+01	8.65752160937E+01	-6.03814893715E+00	-1.70162163449E-02
3.24582968451E+05	-2.13692727804E+01	-1.14890197886E+01	5.86120119372E+00	-1.77964405229E+02	-4.77320855132E+01	8.81607373780E+01	-6.05561482842E+00	-9.53670077344E-02
3.24817582888E+05	-1.35272139635E+01	1.13135844963E+02	5.91877908590E+00	-1.78883286745E+02	-4.67419230947E+01	-1.78578608097E+02	-6.04272308563E+00	4.12267717919E-03
3.25052366909E+05	-1.86787223852E+01	9.96185330023E+01	5.82297849645E+00	-1.78470786563E+02	-3.23954054102E+01	-4.14139997154E+01	-5.97976735209E+00	-2.67689676736E-01
3.25287320635E+05	-2.70744946299E+01	-3.14382853276E+01	5.80347124520E+00	-1.77720622443E+02	-3.97605983715E+01	1.15354320288E+02	-6.03437378041E+00	1.00078106458E-01
3.25522444191E+05	-2.01515215635E+01	-3.31897573044E+01	5.83191950848E+00	-1.77562664563E+02	-4.16885354408E+01	-7.28037927205E+01	-6.02551392767E+00	-3.36025059683E-01
3.25757737698E+05	-1.73116318241E+01	-4.44528938930E+01	5.79671880299E+00	-1.77513645383E+02	-4.31549374573E+01	1.31360122081E+01	-6.02139045829E+00	-1.94885983537E-01
3.25993201280E+05	-1.80508607060E+01	2.96773556424E+01	5.73916453704E+00	-1.78223594390E+02	-3.42191141231E+01	1.42070250968E+02	-6.08054616829E+00	3.74856058784E-01
3.26228835058E+05	-2.24935652218E+01	5.38710243758E+00	5.79357170306E+00	-1.78187976219E+02	-4.68005659006E+01	1.44043994115E+02	-6.05694394279E+00	-1.80832172550E-01
