# Hz S DB R 50
! CMT, M5065, 19127446, 24.2.4/2
! Date: 11/1/2024 3:36:33 PM
! Data: Format (Calibration Info)
! Freq	S11:dB/Ang(F2)	S21:dB/Ang(F2)	S12:dB/Ang(F2)	S22:dB/Ang(F2)
3.00000000000E+05	-2.24898397993E+01	-2.83628506338E+01	1.31405366100E+01	-1.77618586601E+02	-4.29835559692E+01	-9.51681396580E+01	-6.05231108160E+00	-3.82768912650E-01
3.00216845423E+05	-1.71592892360E+01	7.99072998493E+01	1.31274823218E+01	-1.77617529854E+02	-5.70783955225E+01	-9.97258014131E+01	-6.03164694948E+00	-3.83881494220E-01
3.00433847586E+05	-2.12207416622E+01	1.23499114504E+02	1.31712020068E+01	-1.77696241527E+02	-4.32853689355E+01	-1.21590357616E+02	-6.00699393121E+00	-5.67453240331E-01
3.00651006602E+05	-1.57290710903E+01	9.33174920410E+01	1.31473460451E+01	-1.78112129644E+02	-4.20237307010E+01	9.32798768172E+01	-6.00513934280E+00	-2.16279875038E-01
3.00868322584E+05	-1.19561563838E+01	4.93818037881E+01	1.30136748898E+01	-1.77994647334E+02	-3.57543456417E+01	8.90549698915E+01	-6.00456398686E+00	4.96719663272E-01
3.01085795647E+05	-2.63979453540E+01	-2.42954835030E+01	1.31096319771E+01	-1.77238837033E+02	-3.55411514310E+01	-9.82472997346E+01	-6.04104641898E+00	-7.91471920858E-01
3.01303425902E+05	-1.87225079556E+01	-1.24762603803E-01	1.30695290030E+01	-1.77256852261E+02	-3.78593343810E+01	-1.21934260418E+02	-6.07474359203E+00	-5.57492479436E-01
3.01521213465E+05	-1.49938490011E+01	7.42906237955E+01	1.30929396039E+01	-1.77924810611E+02	-4.16042975381E+01	-5.57958652684E+01	-6.02750850061E+00	-3.49928998294E-01
3.01739158449E+05	-1.67991414250E+01	1.62531573579E+01	1.30186987003E+01	-1.77487898475E+02	-4.68862018286E+01	-1.42612010664E+02	-6.03710530206E+00	-8.87586420094E-02
3.01957260967E+05	-1.50771701966E+01	2.60664469379E+01	1.30321185494E+01	-1.77613778312E+02	-3.68256245943E+01	-9.53255398706E+01	-6.05091386075E+00	-7.66212121281E-01
3.02175521134E+05	-3.50601051589E+01	-1.18635236175E+02	1.31046104121E+01	-1.77410696945E+02	-4.43978496100E+01	1.20863005250E+02	-6.04307495207E+00	1.03982325084E-01
3.02393939063E+05	-2.35582496761E+01	1.67557717248E+01	1.31054387902E+01	-1.77439444462E+02	-3.20681658727E+01	2.65687230429E+01	-5.89980538533E+00	2.60684454024E-01
3.02612514869E+05	-1.49725126760E+01	6.08912327591E+00	1.30088599697E+01	-1.77897113677E+02	-3.16966511625E+01	-1.31397805250E+02	-6.15876264174E+00	-1.21098561709E+00
3.02831248665E+05	-3.11181149927E+01	-1.75223356873E+02	1.31345935264E+01	-1.77637901792E+02	-3.60110845897E+01	1.49661619535E+02	-6.09308771162E+00	-1.06305166393E-01
3.03050140565E+05	-2.02215271739E+01	1.46423536792E+02	1.31910968174E+01	-1.77519485157E+02	-5.01042659887E+01	1.38506054402E+02	-6.04504940160E+00	-1.43602581390E-01
3.03269190685E+05	-1.42997783673E+01	1.04637444234E+01	1.29975976990E+01	-1.77649319084E+02	-4.07679527107E+01	7.67650318175E+01	-5.99608620068E+00	8.09819816068E-02
3.03488399138E+05	-1.00853831311E+01	8.42004095322E+00	1.29181017670E+01	-1.77526705770E+02	-3.97176592785E+01	-1.37727287045E+02	-6.08343908545E+00	-5.40934988311E-01
3.03707766039E+05	-2.37831389092E+01	1.33825154308E+01	1.31207099143E+01	-1.77690205862E+02	-3.75801753706E+01	6.63988485202E+00	-5.95779465747E+00	-5.30254387288E-02
3.03927291503E+05	-2.58066689900E+01	-8.22469541223E+01	1.30830862912E+01	-1.77633409557E+02	-3.58754551062E+01	1.33170796303E+00	-5.94185855743E+00	-2.09658459924E-01
3.04146975643E+05	-1.74117466323E+01	1.66862778454E+02	1.32159714936E+01	-1.77787874262E+02	-3.53148385228E+01	5.08535440038E+01	-6.01711162979E+00	5.16677431166E-01
3.04366818575E+05	-1.74056026508E+01	7.72509173098E+01	1.31119616627E+01	-1.77896640632E+02	-3.68481672351E+01	1.63045704521E+02	-6.09292041116E+00	-1.67537671025E-01
3.04586820414E+05	-2.31847922153E+01	6.84537184203E+01	1.30913268998E+01	-1.77610448215E+02	-3.95976007187E+01	-1.17576641127E+02	-6.08065493933E+00	-4.21043878763E-01
3.04806981274E+05	-2.61879382066E+01	-9.92630005082E+00	1.30748782853E+01	-1.77769787937E+02	-5.47132644404E+01	7.28172547527E+00	-6.06415406148E+00	-2.55633219090E-01
3.05027301270E+05	-7.47551827960E+00	-2.14239730180E+01	1.28228361847E+01	-1.76644570553E+02	-4.39704982576E+01	-1.53340826574E+02	-6.07206948737E+00	-3.36266092298E-01
3.05247780517E+05	-1.35426061139E+01	4.38939578222E+01	1.30297304360E+01	-1.77977555575E+02	-3.54123714633E+01	3.60368110351E+01	-5.98471026641E+00	1.45631926808E-01
3.05468419131E+05	-1.87619118228E+01	3.55962691481E+01	1.30733032036E+01	-1.77462984096E+02	-4.10252458861E+01	-1.15248098005E+02	-6.02375730974E+00	-7.22705500900E-01
3.05689217226E+05	-2.15835042693E+01	2.60831666936E+01	1.31013454275E+01	-1.77657100453E+02	-3.00482505486E+01	-1.15614531552E+02	-6.17700553918E+00	-1.27540852554E+00
3.05910174918E+05	-2.32008163872E+01	4.02170645679E+01	1.30702415627E+01	-1.77595047170E+02	-3.90593598516E+01	-9.40127562343E+01	-6.01803838611E+00	-4.28827388712E-01
3.06131292322E+05	-2.23437098819E+01	-2.90850000577E+01	1.31063842125E+01	-1.77550996786E+02	-3.59714305133E+01	1.07900057855E+01	-5.96560984888E+00	-1.60346485796E-01
3.06352569554E+05	-2.58102105930E+01	-5.47660707112E+01	1.30924626134E+01	-1.77164223310E+02	-3.59794142135E+01	-1.05492151701E+01	-5.93506630698E+00	-1.61159210383E-01
3.06574006730E+05	-1.05201457839E+01	7.94511624906E+00	1.29324423207E+01	-1.77389054612E+02	-4.08073046584E+01	2.14098345680E+01	-6.02637760265E+00	-9.20792845958E-02
3.06795603964E+05	-1.88662536446E+01	1.11084269100E+02	1.31233543828E+01	-1.78068831043E+02	-3.91491434802E+01	-5.86174462719E+01	-6.04894732373E+00	-8.61029726613E-01
3.07017361372E+05	-2.01380940557E+01	6.31009942559E+01	1.30695096063E+01	-1.78023472942E+02	-2.65653997252E+01	-9.09353190939E+01	-6.01366896490E+00	-2.27729242946E+00
3.07239279071E+05	-1.86911328317E+01	-5.04233760014E+01	1.30882034766E+01	-1.77169869667E+02	-3.15114661842E+01	-2.20495255905E+00	-5.84714388483E+00	-2.82357309264E-01
3.07461357176E+05	-1.74846573246E+01	8.48635924038E+01	1.31329079186E+01	-1.78009109534E+02	-4.33970044137E+01	-8.77983098825E+01	-6.06026388960E+00	-3.27459086251E-01
3.07683595803E+05	-2.26008998588E+01	1.51735044928E+02	1.30869276192E+01	-1.77824738428E+02	-5.15169621847E+01	5.19038882397E+01	-6.04714851771E+00	2.07206352013E-02
3.07905995068E+05	-2.27059025296E+01	6.61800390174E+01	1.30919164878E+01	-1.78036564157E+02	-3.91624836484E+01	5.51282970600E+01	-5.99237839651E+00	1.58438335043E-01
3.08128555087E+05	-6.84925012151E+00	-2.90104145274E+01	1.28487602934E+01	-1.76447933377E+02	-4.08311013574E+01	-1.08768627689E+02	-6.03726596385E+00	-7.05181483996E-01
3.08351275976E+05	-2.77721829673E+01	2.19282681239E+01	1.30273079247E+01	-1.77444331477E+02	-3.42705119829E+01	1.46763578643E+02	-6.10251287258E+00	8.55125105881E-02
3.08574157853E+05	-2.85275555487E+01	8.65085259049E+01	1.31523629903E+01	-1.77615426353E+02	-3.66202864706E+01	-1.43805802354E+02	-6.07717205053E+00	-6.52233417406E-01
3.08797200832E+05	-1.83653893162E+01	-3.45229051721E+00	1.30725095992E+01	-1.77423103944E+02	-3.03848342995E+01	-1.36142853010E+02	-6.15508351984E+00	-1.17631334672E+00
3.09020405031E+05	-2.10685689504E+01	-1.20143931891E+02	1.31706839267E+01	-1.77311357442E+02	-3.87391379037E+01	1.43744160996E+02	-6.08578483123E+00	1.40810423650E-01
3.09243770566E+05	-1.78043771174E+01	-1.45358210868E+02	1.32536873980E+01	-1.77221308425E+02	-4.75247390674E+01	2.82301561836E+01	-6.03767886563E+00	-9.44962018081E-02
3.09467297553E+05	-2.15150643883E+01	6.86245620941E+00	1.31227245716E+01	-1.77596621804E+02	-3.88777608992E+01	-2.05074985350E+01	-5.99315936825E+00	-3.26149798432E-01
3.09690986110E+05	-1.83373953626E+01	-1.41973871260E+02	1.32270044950E+01	-1.77435753226E+02	-4.60850679156E+01	4.54697657039E+01	-6.06235486595E+00	-1.20753299745E-02
3.09914836353E+05	-9.92309618578E+00	8.65933541358E+01	1.31256898958E+01	-1.79244498136E+02	-4.77395871454E+01	-1.75370575383E+02	-6.03813937948E+00	-1.81944354660E-01
3.10138848399E+05	-2.37498260839E+01	1.26476384829E+02	1.31366758210E+01	-1.77843370777E+02	-3.60854147776E+01	-9.51225065427E+01	-6.03531313559E+00	-9.76557006030E-01
3.10363022365E+05	-2.85319646472E+01	-2.63268567672E+01	1.31168583475E+01	-1.77711707916E+02	-5.01846534392E+01	3.32108134071E+01	-5.95747190896E+00	-1.42335924516E-01
3.10587358368E+05	-1.61057701624E+01	-2.89224190193E+01	1.30829279812E+01	-1.77291997352E+02	-3.49160836331E+01	-1.04276297071E+02	-6.05852153324E+00	-7.73952946503E-01
3.10811856525E+05	-3.17397793057E+01	-1.63317815112E+02	1.31497339889E+01	-1.77651043604E+02	-3.89222160475E+01	7.68710455655E+01	-6.02272633454E+00	-2.36179747529E-01
3.11036516954E+05	-1.72272213893E+01	-2.50146884703E+01	1.30409298633E+01	-1.77418326469E+02	-4.54841386814E+01	4.55930880588E+00	-6.01228001453E+00	-2.50212378927E-01
3.11261339771E+05	-6.79023411863E+00	-6.97171465170E+01	1.30570082371E+01	-1.75813099053E+02	-3.51691639336E+01	1.71466189586E+02	-6.13741766371E+00	-3.82185926017E-01
3.11486325094E+05	-8.71374485039E+00	5.40399215070E+01	1.30128603610E+01	-1.79288327357E+02	-4.47624467844E+01	4.96038289302E+01	-6.01927009678E+00	-1.01277463910E-01
3.11711473040E+05	-2.02437847053E+01	1.67802038109E+02	1.32160606082E+01	-1.77955316945E+02	-5.22879293038E+01	-8.64852261729E+01	-6.05071393798E+00	-4.91577287453E-01
3.11936783728E+05	-2.14449373183E+01	6.37667412624E+01	1.30689656074E+01	-1.78190479587E+02	-3.44719530309E+01	5.18127347668E+01	-5.95605669497E+00	1.77205593200E-01
3.12162257274E+05	-1.48162576640E+01	4.56335707525E+01	1.30557057832E+01	-1.78270136517E+02	-5.41629142028E+01	-5.39660190712E+01	-6.03192292512E+00	-3.03806072604E-01
3.12387893797E+05	-1.63184246682E+01	-3.24222637633E+01	1.30763027600E+01	-1.77451576601E+02	-4.49052569146E+01	-9.33513858313E+01	-6.04946520902E+00	-1.46794749996E-01
3.12613693413E+05	-2.18216392800E+01	4.74305524839E+01	1.31282107368E+01	-1.77741499774E+02	-4.08466722679E+01	1.97320724098E+01	-5.98021059127E+00	1.28371191502E-01
3.12839656242E+05	-1.28893774847E+01	-1.18361712239E+02	1.32401811175E+01	-1.76806956094E+02	-3.61266338871E+01	8.55027110535E+00	-5.98292631486E+00	-7.11244978821E-02
3.13065782401E+05	-2.70505238993E+01	-8.77548872814E+01	1.30690845688E+01	-1.77006766223E+02	-3.63477017438E+01	-1.68227694574E+02	-6.08237876368E+00	-2.34919311580E-01
3.13292072007E+05	-1.74697724863E+01	1.38664339629E+01	1.30824714126E+01	-1.77982021062E+02	-4.40831894964E+01	8.18377786202E+01	-6.04832872561E+00	5.73428361908E-02
3.13518525180E+05	-1.56087695363E+01	5.24580849864E+01	1.30902229973E+01	-1.78111647429E+02	-2.32433970797E+01	3.55357183680E+01	-5.71223965258E+00	1.68402090442E+00
3.13745142038E+05	-2.01832336214E+01	7.63480628135E+00	1.30657667586E+01	-1.77784986957E+02	-4.36192417644E+01	1.51084032424E+02	-6.07960910593E+00	-4.43050141262E-01
3.13971922698E+05	-2.08753299875E+01	8.13685479175E+01	1.31331217837E+01	-1.77908421989E+02	-3.60801482252E+01	-2.87979904961E+00	-5.93345497650E+00	-3.12859735449E-01
3.14198867279E+05	-2.09667921064E+01	1.04831134960E+02	1.31191149344E+01	-1.78246489490E+02	-4.49074021935E+01	-7.84675824399E+01	-6.04284144651E+00	-4.89858924406E-01
3.14425975900E+05	-1.71466544870E+01	8.30475120732E+00	1.30287974826E+01	-1.77756975205E+02	-4.17912041157E+01	-6.03739974737E+01	-6.03951972678E+00	-5.94655339882E-01
3.14653248680E+05	-1.11741201034E+01	-6.37606991274E+01	1.30261084460E+01	-1.76296465508E+02	-4.04783294813E+01	-1.14175985837E+02	-6.05530513832E+00	-6.78623055651E-01
3.14880685736E+05	-2.01350612895E+01	1.26326860127E+02	1.31473683914E+01	-1.78065366811E+02	-4.58167261937E+01	1.79606858328E+02	-6.09192513488E+00	-2.99119598357E-01
3.15108287188E+05	-2.11139302725E+01	4.56522247484E+01	1.30852306151E+01	-1.78068331679E+02	-3.84338144859E+01	-1.76579764174E+02	-6.14241126966E+00	-3.31199755955E-01
3.15336053154E+05	-1.99740615049E+01	1.80660465556E+01	1.30533460533E+01	-1.78051001610E+02	-5.14130028411E+01	1.60087238461E+02	-6.02795033540E+00	-1.87530734313E-01
3.15563983753E+05	-1.53809203043E+01	6.97200567333E+01	1.30607224887E+01	-1.78519816536E+02	-4.25131834067E+01	-1.00643477433E+02	-6.02717161128E+00	-5.66802980100E-01
3.15792079105E+05	-1.93080092176E+01	1.38892281478E+02	1.31394270126E+01	-1.77791058996E+02	-4.42628726279E+01	-3.99781772422E+01	-6.03056729108E+00	-3.27366231420E-01
3.16020339328E+05	-1.12056021849E+01	-5.02661791325E+01	1.30451748621E+01	-1.76647135615E+02	-4.00391313949E+01	-1.77011353792E+02	-6.04136180602E+00	-3.82670781940E-01
3.16248764542E+05	-1.21359038875E+01	2.98573422717E+01	1.29510635640E+01	-1.77962691267E+02	-3.40684017492E+01	1.58952954761E+02	-6.13233642807E+00	1.59838598697E-01
3.16477354866E+05	-1.27379932108E+01	-2.23808255941E+00	1.30066620501E+01	-1.77767984666E+02	-5.00068026497E+01	1.78837507514E+02	-6.06093783834E+00	-2.01894310205E-01
3.16706110419E+05	-2.32769440642E+01	-1.12687737328E+02	1.31418794585E+01	-1.77619455191E+02	-2.60230847200E+01	7.21665051188E+01	-5.98201168846E+00	1.76891300361E+00
3.16935031321E+05	-2.52302862209E+01	3.01253141877E+01	1.31070675179E+01	-1.77924994002E+02	-3.22728738435E+01	-2.60748734216E+01	-5.96156414704E+00	-4.69171344397E-01
3.17164117691E+05	-2.03383656958E+01	-5.47699087019E+01	1.31090107151E+01	-1.77364309445E+02	-4.48588179476E+01	-1.61416408394E+02	-6.11174542051E+00	-2.72984238000E-01
3.17393369648E+05	-2.26292622528E+01	8.42801892045E+01	1.30893906737E+01	-1.78344906558E+02	-4.05250528507E+01	1.13224045600E+02	-6.06551503109E+00	1.34570170042E-01
3.17622787313E+05	-2.66514568732E+01	-4.22109046454E+01	1.31320452662E+01	-1.77463951475E+02	-4.36898899086E+01	-1.70844790221E+02	-6.04360334959E+00	-2.12262511565E-01
3.17852370806E+05	-1.67075032717E+01	1.12917082131E+02	1.31649144828E+01	-1.78483806222E+02	-3.73818847588E+01	8.42248543484E+01	-6.05313782996E+00	1.29535981596E-01
3.18082120245E+05	-1.44080292944E+01	2.86095180272E+01	1.30604103476E+01	-1.78291213803E+02	-3.66886587908E+01	3.15831115129E+01	-5.95886013178E+00	5.18990960362E-02
3.18312035752E+05	-1.66559189201E+01	1.39137420380E+01	1.31089175179E+01	-1.77933903589E+02	-3.19999230620E+01	8.96810245584E+01	-5.99129238966E+00	6.69127228157E-01
3.18542117445E+05	-1.41809971377E+01	7.02162406648E+00	1.30108742422E+01	-1.77588825287E+02	-5.27327142642E+01	-1.13486525138E+02	-6.06567035616E+00	-5.07128473479E-01
3.18772365446E+05	-1.67854302295E+01	4.32513425060E+01	1.30477171587E+01	-1.77852123057E+02	-3.89809480638E+01	1.17583908122E+02	-6.07695306636E+00	4.28539316122E-02
3.19002779874E+05	-1.63610982245E+01	1.48994213884E+01	1.30236701641E+01	-1.78069491268E+02	-4.28468854238E+01	1.11250157033E+01	-6.06512071341E+00	-1.40991650417E-01
3.19233360850E+05	-3.36949556502E+01	6.95852998681E+01	1.31459802346E+01	-1.78208372153E+02	-3.95334707829E+01	-3.77057336200E+01	-5.98892993264E+00	-2.93328558766E-01
3.19464108494E+05	-1.61988105456E+01	8.21283747670E+01	1.31031644867E+01	-1.78515546314E+02	-5.22406227934E+01	-5.86808425080E+01	-6.03016796789E+00	-3.31692792979E-01
3.19695022927E+05	-2.24623374633E+01	7.72181172395E+01	1.31091711711E+01	-1.78047487374E+02	-3.74742169993E+01	1.00608242123E+02	-6.08862514667E+00	2.63056312596E-02
3.19926104268E+05	-2.17461683898E+01	-1.76078318749E+01	1.31197101560E+01	-1.77876719519E+02	-2.76176321233E+01	-1.37337238697E+02	-6.21702769904E+00	-1.56887320612E+00
3.20157352640E+05	-2.57212651568E+01	-1.06017424034E+02	1.31121731365E+01	-1.77748291488E+02	-3.93426838287E+01	-1.61458979457E+02	-6.11658351941E+00	-4.17357639929E-01
3.20388768162E+05	-1.48317956208E+01	1.49346642906E+01	1.30191527780E+01	-1.77901494024E+02	-3.74717988499E+01	2.01644258654E+01	-5.97852729717E+00	-1.10965083950E-01
3.20620350955E+05	-1.71669408947E+01	9.02923251761E+00	1.30706299840E+01	-1.77863019735E+02	-3.95861284448E+01	-1.48060883422E+02	-6.05991752082E+00	-4.24249732901E-01
3.20852101140E+05	-1.52365514827E+01	-1.39595991501E+02	1.32167236624E+01	-1.77322555734E+02	-3.96005180727E+01	-1.41630118945E+01	-5.97428269320E+00	-4.29511710443E-01
3.21084018839E+05	-1.65735191822E+01	-1.31387092759E+02	1.32185085391E+01	-1.77435327044E+02	-3.31823746650E+01	-1.37221467325E+02	-6.11200043817E+00	-1.02766164983E+00
3.21316104172E+05	-2.08950414227E+01	6.71740131796E+01	1.31030517083E+01	-1.77947043932E+02	-4.15625169065E+01	1.77398808464E+01	-5.98178570120E+00	1.16374709830E-01
3.21548357261E+05	-2.33481466579E+01	-4.41247042482E+01	1.31040782736E+01	-1.77590420379E+02	-2.96750024324E+01	-3.41692722622E+01	-5.85204042835E+00	-1.01736076016E+00
3.21780778226E+05	-1.86996109030E+01	7.46535337758E+01	1.31438035121E+01	-1.78161274057E+02	-3.25127701043E+01	1.35173816892E+02	-6.16966087263E+00	8.35426643892E-01
3.22013367189E+05	-1.54829841233E+01	-9.63690273314E+00	1.30575373412E+01	-1.77897450208E+02	-4.61900200167E+01	6.35360488591E+01	-6.03611581155E+00	-1.88658697344E-01
3.22246124272E+05	-1.56271822956E+01	-2.32258162178E+01	1.30280032705E+01	-1.77492851731E+02	-3.28706110629E+01	7.35637385609E+01	-6.00690755400E+00	5.64986718289E-01
3.22479049596E+05	-1.49561769881E+01	7.88334679219E+00	1.30310762136E+01	-1.78200650730E+02	-4.13725362210E+01	7.22864018602E+01	-6.02902712550E+00	1.01375608253E-01
3.22712143282E+05	-1.28770645063E+01	-1.48376393390E+01	1.29860101704E+01	-1.77679302498E+02	-3.77140730869E+01	4.72026040164E+01	-5.98780217987E+00	-5.60675163745E-02
3.22945405453E+05	-1.83875424627E+01	1.19703292908E+01	1.30523211618E+01	-1.78047099426E+02	-4.04166048528E+01	-9.20516281077E+01	-6.05593254788E+00	-5.65480275646E-01
3.23178836230E+05	-2.73270682961E+01	-7.66256318903E+01	1.31564315916E+01	-1.77533815849E+02	-2.98795299254E+01	-7.40480918006E+01	-5.99141026831E+00	-1.68003789536E+00
3.23412435735E+05	-2.50007646250E+01	5.80868753149E+01	1.31046629609E+01	-1.77849891522E+02	-4.51955246309E+01	2.41751027387E+01	-5.97880503510E+00	-8.74806653882E-02
3.23646204090E+05	-2.12606804926E+01	-3.30911035179E+01	1.31212140852E+01	-1.77785952173E+02	-4.49034493008E+01	-1.72576855497E+02	-6.03857404985E+00	-2.06348103930E-01
3.23880141417E+05	-1.37188710227E+01	5.92259448599E+01	1.30402078653E+01	-1.78201749374E+02	-4.85870012382E+01	1.17132832802E+02	-6.03650159086E+00	-2.68946732787E-01
3.24114247838E+05	-1.59797210646E+01	-1.15318263288E+01	1.30262357952E+01	-1.77578520371E+02	-3.72629655786E+01	7.96275295070E+01	-6.00333662498E+00	2.56359243028E-01
3.24348523475E+05	-1.29712814165E+01	2.33911555237E+01	1.29878268581E+01	-1.78067836299E+02	-4.14223612826E+01	1.39695108391E+02	-6.10298216876E+00	-2.04103512929E-02
3.24582968451E+05	-2.16572693968E+01	8.00243821179E+01	1.30726040469E+01	-1.78179271855E+02	-4.41614172946E+01	-6.37439126291E+01	-6.02655960386E+00	-4.33572484914E-01
3.24817582888E+05	-1.94117148679E+01	-1.76399137388E+02	1.32052568210E+01	-1.77726594063E+02	-2.79204872635E+01	7.48753262692E+01	-5.95459196390E+00	1.69589984853E+00
3.25052366909E+05	-1.76376657064E+01	4.05271240754E+01	1.30790201144E+01	-1.77802335503E+02	-3.40186891644E+01	9.46440203829E+01	-6.05598622030E+00	5.49401206084E-01
3.25287320635E+05	-1.64142525387E+01	-4.93251723027E+01	1.31004982138E+01	-1.77534657285E+02	-3.52220414263E+01	-1.04803516423E+02	-6.07608678471E+00	-5.51856377390E-01
3.25522444191E+05	-2.29237531569E+01	-2.60382914729E+01	1.30786496374E+01	-1.77990969783E+02	-3.22555244926E+01	5.59891422949E+01	-5.96200578018E+00	3.80619225821E-01
3.25757737698E+05	-1.57761441071E+01	1.87200777493E+00	1.30365459913E+01	-1.77880514262E+02	-4.88396194830E+01	-1.09626202923E+01	-6.03767620149E+00	-1.72930643677E-01
3.25993201280E+05	-2.55040061096E+01	-5.89983234787E+01	1.31237152189E+01	-1.77800566312E+02	-4.46817216781E+01	-1.17750022315E+02	-6.04965066837E+00	-3.23981241516E-01
3.26228835058E+05	-1.49128332694E+01	9.70233616175E+01	1.31245551348E+01	-1.78619674898E+02	-3.84700568879E+01	8.10922234383E+01	-6.04708112097E+00	1.57435406498E-01
