# Hz S DB R 50
! CMT, M5065, 19127446, 24.2.4/2
! Date: 11/1/2024 3:41:02 PM
! Data: Format (Calibration Info)
! Freq	S11:dB/Ang(F2)	S21:dB/Ang(F2)	S12:dB/Ang(F2)	S22:dB/Ang(F2)
3.00000000000E+05	-2.88462721833E+01	1.00623063346E+02	1.60394475173E+01	-1.77179696917E+02	-3.53742401017E+01	4.80635071988E+01	-5.94747972236E+00	2.44152499077E-01
3.00216845423E+05	-1.41455405279E+01	6.50906414215E+01	1.59517103347E+01	-1.77555657217E+02	-2.77627309842E+01	-1.50233557306E+02	-6.37086576069E+00	-1.51501451181E+00
3.00433847586E+05	-1.30743479633E+01	-9.38894196185E+00	1.59178987521E+01	-1.77251843372E+02	-3.30798560257E+01	-1.49383572993E+02	-6.17190310373E+00	-9.54196013588E-01
3.00651006602E+05	-1.61200430381E+01	9.38799241757E+01	1.60115506212E+01	-1.77734559604E+02	-3.85222485249E+01	-9.18027530818E+01	-6.05553066210E+00	-8.75112659155E-01
3.00868322584E+05	-2.20216473626E+01	-1.17222408665E+02	1.60697279185E+01	-1.77039787125E+02	-4.02983156275E+01	-9.93879192587E+01	-6.03524398099E+00	-6.38465195261E-01
3.01085795647E+05	-2.56183836091E+01	5.05241955111E+01	1.60417246294E+01	-1.77253429502E+02	-3.69469368168E+01	-9.92163973509E+01	-6.07485127338E+00	-9.21026707631E-01
3.01303425902E+05	-1.66887962000E+01	4.24209893137E+01	1.59358032259E+01	-1.77337368196E+02	-3.75420969031E+01	-1.54989636235E+02	-6.10489721772E+00	-4.77129345357E-01
3.01521213465E+05	-2.15496738916E+01	-7.25477392241E+01	1.60105103077E+01	-1.76930406074E+02	-4.07147051028E+01	8.61518231147E+01	-6.04777353614E+00	2.29177796539E-01
3.01739158449E+05	-2.84990671321E+01	5.98662572439E+01	1.60268219271E+01	-1.77547318776E+02	-3.39625936113E+01	-6.16726500856E+01	-5.99834676537E+00	-1.29343838816E+00
3.01957260967E+05	-2.13876486290E+01	1.34303755766E+01	1.59537506581E+01	-1.77231710877E+02	-3.78703889757E+01	7.42447449647E+01	-5.94222439578E+00	6.83996515721E-01
3.02175521134E+05	-2.67776647652E+01	9.61023554652E+01	1.60367159178E+01	-1.77317242198E+02	-5.05124506242E+01	1.59480011855E+02	-6.04296185869E+00	-4.23239591830E-01
3.02393939063E+05	-1.42070287401E+01	1.33050732139E+02	1.61019782691E+01	-1.77928317875E+02	-3.98598970918E+01	1.64099356652E+02	-6.08736202001E+00	-2.99134333870E-01
3.02612514869E+05	-1.92055666070E+01	1.77326175400E+02	1.60983723299E+01	-1.77262253339E+02	-4.56634705494E+01	4.83646026471E+01	-6.02815367580E+00	-1.27660837502E-01
3.02831248665E+05	-1.53177021995E+01	-1.50328909749E+02	1.61198440475E+01	-1.76594608791E+02	-3.49841640309E+01	7.74654472688E+01	-6.04918617768E+00	7.13789333796E-01
3.03050140565E+05	-9.80394813372E+00	4.64087953051E+01	1.58932394770E+01	-1.78035414091E+02	-3.72073229617E+01	3.63501256018E+01	-5.97341098630E+00	6.88195400451E-02
3.03269190685E+05	-1.63468318835E+01	3.32384639707E+01	1.59673337674E+01	-1.77691361541E+02	-2.95132184648E+01	-1.26941790989E+02	-6.25600519591E+00	-1.68758062220E+00
3.03488399138E+05	-2.44468126826E+01	7.86324385177E+00	1.60460350002E+01	-1.77203092254E+02	-4.02064543017E+01	-1.58464148287E+02	-6.18338964341E+00	-5.31664962303E-01
3.03707766039E+05	-1.66419722278E+01	7.69223627054E+01	1.60563682488E+01	-1.78015474679E+02	-3.39581340427E+01	-1.18896109663E+02	-6.06469727210E+00	-9.35010648057E-01
3.03927291503E+05	-1.81954759387E+01	3.80519282175E+01	1.59915525816E+01	-1.77585703003E+02	-3.67765081071E+01	8.96218243680E+01	-5.99290643513E+00	3.50981154400E-01
3.04146975643E+05	-1.08002266138E+01	1.28755690430E+02	1.61694145701E+01	-1.78428307041E+02	-5.13652710148E+01	-7.85175643653E+01	-6.02314936426E+00	-7.36982487732E-01
3.04366818575E+05	-1.47945799570E+01	1.31804964317E+02	1.61113476659E+01	-1.78161191002E+02	-4.63565448944E+01	1.26113818336E+02	-6.09726006157E+00	-2.59300548682E-01
3.04586820414E+05	-1.76503900199E+01	4.61159594091E+01	1.59813400561E+01	-1.77611309658E+02	-3.26904422607E+01	-1.77726091899E+02	-6.20904780621E+00	-3.07056168720E-01
3.04806981274E+05	-1.33788026682E+01	-9.53215889100E+00	1.59275787415E+01	-1.77044406255E+02	-4.04262164201E+01	-9.48767394753E+01	-6.04839053963E+00	-8.17743276644E-01
3.05027301270E+05	-2.57601572256E+01	7.69465010312E+01	1.60394003998E+01	-1.77292404175E+02	-3.24737511480E+01	1.23511088115E+02	-6.08797138560E+00	7.39983643329E-01
3.05247780517E+05	-2.29193070931E+01	-9.66389352881E+00	1.59750333879E+01	-1.77155221392E+02	-4.19565007388E+01	-1.68314217295E+02	-6.05931069974E+00	-3.89789354059E-01
3.05468419131E+05	-1.65761566590E+01	-5.97038026244E+01	1.59776423013E+01	-1.76950733423E+02	-4.59907059788E+01	-1.71027288377E+02	-6.09081906439E+00	-4.25762934640E-01
3.05689217226E+05	-1.25846500764E+01	-1.03860088285E+01	1.58674724880E+01	-1.77234839207E+02	-3.90643870875E+01	1.68010899989E+02	-6.11437198635E+00	8.83346251923E-03
3.05910174918E+05	-1.32271734758E+01	9.49722601879E+01	1.60456937048E+01	-1.78349944336E+02	-3.71184937856E+01	1.08222213413E+02	-6.12386575217E+00	3.21430647291E-01
3.06131292322E+05	-2.62112400595E+01	-5.81751962263E+01	1.60070616810E+01	-1.77262864614E+02	-4.39734138687E+01	-1.24140309249E+02	-6.03599581501E+00	-5.57791019943E-01
3.06352569554E+05	-1.71544458756E+01	2.97266643281E+01	1.59732710129E+01	-1.77515865632E+02	-4.21039900224E+01	-6.02857784086E+01	-6.00237962449E+00	-9.23902511964E-01
3.06574006730E+05	-1.85945858269E+01	1.64646076508E+01	1.59728693781E+01	-1.77477611111E+02	-3.08130634025E+01	-1.59566329382E+02	-6.25103405687E+00	-5.92225153957E-01
3.06795603964E+05	-1.87301200640E+01	1.54273831824E+02	1.60640507693E+01	-1.77619543128E+02	-3.62676223449E+01	-7.62737228375E+01	-5.95322294837E+00	-9.95836357523E-01
3.07017361372E+05	-1.49587803892E+01	1.28696905310E+02	1.60751470535E+01	-1.77833888392E+02	-3.74739393884E+01	5.45862616757E+01	-5.98957909015E+00	2.19451504121E-01
3.07239279071E+05	-1.73498470703E+01	-2.06968585005E+01	1.59079445651E+01	-1.77407772463E+02	-3.87480449611E+01	3.33332279532E+01	-6.01751821862E+00	1.21451502327E-01
3.07461357176E+05	-2.32231808136E+01	-6.32668490163E+01	1.60144925131E+01	-1.76952857291E+02	-4.39294581222E+01	1.32386967447E+01	-5.98227078197E+00	-1.40321812145E-01
3.07683595803E+05	-1.45271127751E+01	-1.51261694584E+01	1.59280608521E+01	-1.77462762752E+02	-4.08845239325E+01	-5.98288176451E+01	-6.00068835597E+00	-6.88924145248E-01
3.07905995068E+05	-1.81423299484E+01	-1.90819481844E+01	1.59581550755E+01	-1.77311397973E+02	-3.75841232705E+01	-7.74332551390E+01	-6.00988487063E+00	-1.14880737879E+00
3.08128555087E+05	-1.28183203616E+01	5.12498225132E+01	1.58925825338E+01	-1.78263310661E+02	-3.20547903028E+01	-1.74784403474E+02	-6.24706139129E+00	-5.94323456328E-01
3.08351275976E+05	-2.45322338255E+01	5.84304370886E+01	1.59991861024E+01	-1.77592553900E+02	-3.87723053437E+01	-1.68603663485E+02	-6.13214862993E+00	-3.56230798821E-01
3.08574157853E+05	-1.61426961651E+01	3.80218417162E+01	1.60087535146E+01	-1.77653920308E+02	-4.72044143105E+01	1.91056814383E+01	-5.97587933297E+00	-3.61808405337E-01
3.08797200832E+05	-1.40530817681E+01	-5.20739775534E+01	1.59358281885E+01	-1.76577473295E+02	-3.98021049256E+01	1.59884086265E+02	-6.11186292643E+00	4.48426459833E-02
3.09020405031E+05	-1.91446006470E+01	-1.23515928541E+01	1.59372878786E+01	-1.76997242267E+02	-3.32825682402E+01	5.62148762714E+01	-5.96859536747E+00	7.18675903737E-01
3.09243770566E+05	-2.73247824957E+01	-3.46401304597E+01	1.59613042750E+01	-1.77186086736E+02	-3.87754816899E+01	-1.41926654156E+02	-6.16054091168E+00	-4.81647462035E-01
3.09467297553E+05	-2.06579728012E+01	2.59987854234E+01	1.59757840654E+01	-1.77617717263E+02	-3.96938146325E+01	8.85532148200E+01	-6.00730054594E+00	1.87081941633E-01
3.09690986110E+05	-1.81772625350E+01	2.99647815712E+01	1.59723776566E+01	-1.77849724040E+02	-3.25189501798E+01	-4.68868890194E+01	-5.90171265656E+00	-1.24932418099E+00
3.09914836353E+05	-2.48914196816E+01	-1.31969927551E+01	1.59870155237E+01	-1.77357400953E+02	-4.27634502000E+01	-1.39545579804E+02	-6.10597660333E+00	-3.78394938508E-01
3.10138848399E+05	-2.08622171918E+01	-1.64546901557E+01	1.59508333891E+01	-1.77276154173E+02	-4.92415455547E+01	6.41064826587E+01	-6.03717008065E+00	-2.17292834026E-01
3.10363022365E+05	-1.88325490427E+01	1.03375954467E+01	1.59547527353E+01	-1.77469130372E+02	-4.05009448959E+01	1.19782977551E+02	-6.03783929769E+00	-1.00801052999E-01
3.10587358368E+05	-1.85622013670E+01	4.64414099688E+00	1.59726444021E+01	-1.77662178253E+02	-4.15590173665E+01	1.70498701785E+02	-6.09553714922E+00	-3.69469872817E-01
3.10811856525E+05	-2.00864528096E+01	-7.03360242380E+00	1.59539581453E+01	-1.77554477138E+02	-4.06443871039E+01	1.50928751545E+02	-6.05488023831E+00	-1.92001292263E-01
3.11036516954E+05	-1.47076844499E+01	4.08095725226E+01	1.59253397887E+01	-1.78128357520E+02	-3.70812080598E+01	1.31799047093E+02	-6.07424157038E+00	5.51964310218E-02
3.11261339771E+05	-1.51188003866E+01	8.20724652938E+00	1.59284103965E+01	-1.77575867957E+02	-3.39206585482E+01	7.94399214248E+01	-5.99440992523E+00	6.01691561477E-01
3.11486325094E+05	-1.89776999826E+01	-6.71271336748E+00	1.59935160089E+01	-1.77822401267E+02	-3.28882394673E+01	1.26346523854E+02	-6.13050517707E+00	6.26858696140E-01
3.11711473040E+05	-1.79923253024E+01	5.04319178284E+01	1.59605702209E+01	-1.77819918444E+02	-4.55693010782E+01	1.76037278655E+02	-6.09728094064E+00	-4.19510373714E-01
3.11936783728E+05	-2.49691690746E+01	1.06322569178E+02	1.60194903562E+01	-1.77600169852E+02	-4.23881250553E+01	-7.23868546308E+01	-6.03101568020E+00	-7.68256507276E-01
3.12162257274E+05	-1.47697658142E+01	4.53627633383E+01	1.59483284130E+01	-1.77932265669E+02	-4.63717314209E+01	1.69643008791E+01	-6.04900088595E+00	-5.02262754605E-01
3.12387893797E+05	-1.93509141517E+01	6.10710103930E+01	1.59823224216E+01	-1.77762887226E+02	-4.02716832481E+01	-8.34426159801E+01	-6.01075290725E+00	-5.92823285029E-01
3.12613693413E+05	-1.64022929487E+01	4.43442772190E+01	1.59587949089E+01	-1.77889324685E+02	-3.95849674318E+01	-1.29615329385E+02	-6.06952975913E+00	-5.46288111031E-01
3.12839656242E+05	-2.76562240225E+01	-1.70407086517E+02	1.60443360816E+01	-1.77670845810E+02	-3.20371890544E+01	1.04156188346E+02	-6.09821951027E+00	1.03372329466E+00
3.13065782401E+05	-1.45658997078E+01	-1.99843202652E+01	1.59509955519E+01	-1.77044893507E+02	-3.28486089214E+01	2.99704387079E+01	-5.86240868320E+00	2.84333821877E-01
3.13292072007E+05	-1.62190272220E+01	1.89498344926E+01	1.59484685656E+01	-1.77461801837E+02	-3.78896590571E+01	5.07039954426E+01	-5.98599773042E+00	5.30518288989E-01
3.13518525180E+05	-1.32292488857E+01	8.97952057288E+01	1.60071002724E+01	-1.78318968170E+02	-3.71090396299E+01	1.43922851479E+02	-6.06048459337E+00	5.59067865031E-03
3.13745142038E+05	-1.71721436476E+01	1.63072124197E+02	1.60854096058E+01	-1.77506971294E+02	-3.93385222796E+01	-1.31173119653E+01	-5.97866206399E+00	-5.94655419312E-01
3.13971922698E+05	-2.30892394504E+01	-1.30996518877E+01	1.60354279473E+01	-1.77320108569E+02	-3.51010171545E+01	-2.88635476150E+01	-5.94344369433E+00	-8.09325492687E-01
3.14198867279E+05	-2.15378955181E+01	2.17992164037E+01	1.59332471652E+01	-1.77497005596E+02	-3.59539622478E+01	-4.41854653133E+01	-5.95061113968E+00	-5.93189409451E-01
3.14425975900E+05	-1.70623013342E+01	5.20998596315E+01	1.59564947135E+01	-1.77963280123E+02	-4.49053119948E+01	7.73592823832E+01	-6.11452021137E+00	-4.14371489824E-01
3.14653248680E+05	-1.57998875824E+01	9.63137982458E+01	1.60212366000E+01	-1.78236045194E+02	-4.29618118920E+01	1.79798458543E+02	-6.10978020524E+00	-2.45980698898E-01
3.14880685736E+05	-1.43683478977E+01	2.81928635692E+01	1.59456844826E+01	-1.78052203216E+02	-3.83478097312E+01	2.15359235570E+01	-5.94780579522E+00	-3.41746866692E-01
3.15108287188E+05	-2.35405433082E+01	-1.69720383569E+02	1.60548970796E+01	-1.77731767727E+02	-5.15049163111E+01	5.40175840699E+01	-6.04398700900E+00	-1.91160355952E-01
3.15336053154E+05	-1.02958293106E+01	4.43164439432E+01	1.59237702316E+01	-1.78505194240E+02	-4.37504742671E+01	1.66102785829E+02	-6.09312490145E+00	-2.63075324570E-01
3.15563983753E+05	-2.16745683061E+01	6.39334684216E+01	1.60172954935E+01	-1.77854625875E+02	-3.79785498512E+01	9.03919829096E+01	-6.03969611261E+00	3.98161007059E-01
3.15792079105E+05	-2.06581395122E+01	1.13780910994E+02	1.60358800638E+01	-1.78094661233E+02	-3.42450822819E+01	2.35126450675E+01	-5.90701334182E+00	-1.09580186898E-02
3.16020339328E+05	-1.91809833420E+01	-9.02158894668E+00	1.59694771013E+01	-1.77448917814E+02	-3.22209093522E+01	-8.79903518260E+00	-5.87174252367E+00	-7.17256699527E-01
3.16248764542E+05	-1.66962788412E+01	5.44937068558E+01	1.59615312992E+01	-1.78124283116E+02	-6.47930173757E+01	-9.88859945831E+01	-5.97305059230E+00	-2.38544867760E-01
3.16477354866E+05	-2.50964582472E+01	1.69478670631E+02	1.60764211342E+01	-1.77453331565E+02	-4.08177965324E+01	2.33191973526E+01	-5.99344939225E+00	1.30842899121E-01
3.16706110419E+05	-1.88150055885E+01	-8.29485750215E+01	1.59981048329E+01	-1.76963558976E+02	-4.15611012836E+01	1.28786258706E+02	-6.10240631056E+00	-3.93146963923E-01
3.16935031321E+05	-1.40252996795E+01	-1.74505511688E+02	1.61673416920E+01	-1.77758188138E+02	-4.37666732410E+01	6.29631818245E+01	-6.05306530602E+00	9.92193708681E-02
3.17164117691E+05	-2.09847199157E+01	1.27800362640E+02	1.60121690762E+01	-1.77969093567E+02	-4.09524236058E+01	1.02764957482E+02	-6.03314960897E+00	-6.13636147802E-02
3.17393369648E+05	-3.01493111105E+01	-1.03049327363E+01	1.60351754208E+01	-1.77667075606E+02	-3.81246051641E+01	-4.84860484219E+01	-5.96455850009E+00	-5.53711564304E-01
3.17622787313E+05	-2.30255500654E+01	5.68749319070E+00	1.59655147149E+01	-1.77539790601E+02	-3.34863056604E+01	3.28892944788E+01	-5.87870180880E+00	5.94999546669E-01
3.17852370806E+05	-1.87321251701E+01	-5.35694985540E+01	1.60150621615E+01	-1.77168693523E+02	-4.35679761987E+01	-8.12566038359E+01	-6.02423757467E+00	-3.46845724700E-01
3.18082120245E+05	-1.82391418640E+01	5.68774724485E+01	1.59634799089E+01	-1.78057007038E+02	-4.31483574072E+01	-8.61319073397E+01	-6.05608502231E+00	-3.57604159131E-01
3.18312035752E+05	-8.03563514279E+00	3.49915451524E+01	1.58102802794E+01	-1.78826017679E+02	-3.95325799059E+01	1.16175469266E+01	-5.94427941084E+00	3.53494936171E-02
3.18542117445E+05	-1.17824150077E+01	-8.91856810375E+01	1.60310708472E+01	-1.76296665755E+02	-3.50088072274E+01	2.91080529174E+01	-5.93650551403E+00	-2.51066921273E-02
3.18772365446E+05	-1.81539093532E+01	-7.40903886152E+00	1.59732027727E+01	-1.77903728869E+02	-4.03214827476E+01	1.16046584265E+02	-6.09496576072E+00	1.26846702334E-01
3.19002779874E+05	-3.12568570125E+01	1.13148186641E+02	1.60538329459E+01	-1.77743090065E+02	-4.29380617276E+01	-6.86611034844E+01	-6.02708564802E+00	-4.86788861790E-01
3.19233360850E+05	-2.30677244717E+01	-6.64606823633E+01	1.60448159870E+01	-1.77447905688E+02	-4.04188890557E+01	-2.21820320740E+01	-5.97218444706E+00	-5.36909380294E-01
3.19464108494E+05	-1.61748751194E+01	-9.22105755198E+00	1.58936692101E+01	-1.77640303509E+02	-3.39650091620E+01	1.67952956943E+02	-6.21995164474E+00	-3.17889926244E-02
3.19695022927E+05	-2.54789286279E+01	1.36569966077E+01	1.59811484258E+01	-1.77631347840E+02	-4.29765638893E+01	-2.69022810524E+01	-6.01655134584E+00	-5.07694649646E-01
3.19926104268E+05	-8.46605172837E+00	-7.89506302324E+00	1.57455695783E+01	-1.77495621840E+02	-3.79381559014E+01	-4.09054426628E+01	-5.94465457729E+00	-7.95599351852E-01
3.20157352640E+05	-6.74727979969E+00	-3.49943945687E+00	1.56920581707E+01	-1.77293227756E+02	-3.84526024392E+01	-1.52709092169E+02	-6.08429197516E+00	-6.13787002976E-01
3.20388768162E+05	-1.62127045947E+01	-3.28327226274E+01	1.59539365730E+01	-1.77477133876E+02	-3.56739675304E+01	1.32197610675E+02	-6.11240942640E+00	2.64759735380E-01
3.20620350955E+05	-1.78233371881E+01	4.13417668590E+01	1.59551515404E+01	-1.78007775599E+02	-4.03768478410E+01	1.49321465975E+02	-6.08028421268E+00	1.74343844646E-01
3.20852101140E+05	-2.61248527509E+01	2.44870364738E+01	1.59730890123E+01	-1.77709330191E+02	-4.14802747376E+01	-1.03048241942E+02	-6.02348026637E+00	-6.22164534623E-01
3.21084018839E+05	-2.18930050260E+01	-5.78181944525E+01	1.59826830993E+01	-1.77272320167E+02	-2.89102710427E+01	7.05965501484E+01	-5.91426815098E+00	2.08805995294E+00
3.21316104172E+05	-2.49818622453E+01	-1.04896492324E+02	1.60095152259E+01	-1.77305870349E+02	-3.97806661210E+01	9.23572997607E+01	-6.03856032059E+00	5.32259175152E-02
3.21548357261E+05	-1.79317951827E+01	1.42041508010E+02	1.61310475800E+01	-1.77857754081E+02	-5.33742831287E+01	-1.46880886815E+02	-6.02872276782E+00	-3.82799751177E-01
3.21780778226E+05	-2.04548099394E+01	3.53288536426E+00	1.59904571427E+01	-1.77820523875E+02	-4.27877328075E+01	4.07339424482E+01	-6.01416311202E+00	-2.39676153811E-01
3.22013367189E+05	-1.45750877138E+01	2.73803921044E+01	1.59473883106E+01	-1.77991666431E+02	-3.53180179885E+01	-1.02792266430E+02	-6.04002796001E+00	-8.28531182351E-01
3.22246124272E+05	-2.75601450096E+01	-4.43244937474E+01	1.60301021769E+01	-1.77323777496E+02	-4.06964463782E+01	-2.52470536127E+01	-5.94963316218E+00	-6.94583869134E-01
3.22479049596E+05	-2.24791264694E+01	2.43322070931E+01	1.59789243899E+01	-1.78033021299E+02	-3.49912486074E+01	-5.08913173715E+01	-5.92690841001E+00	-7.31081122536E-01
3.22712143282E+05	-1.60844994614E+01	8.30209543397E+00	1.59641981351E+01	-1.77564287352E+02	-3.34073425692E+01	1.20457011284E+02	-6.06176197214E+00	8.54994688692E-01
3.22945405453E+05	-1.94037348870E+01	4.24978682121E+01	1.59866587297E+01	-1.78213815808E+02	-3.73939824078E+01	-8.52314222157E+01	-6.04377170524E+00	-9.06946452472E-01
3.23178836230E+05	-1.69299754765E+01	-5.51474526403E+01	1.59975987524E+01	-1.77416558772E+02	-3.89321306300E+01	-1.05600908192E+02	-6.04783138375E+00	-7.95473307341E-01
3.23412435735E+05	-1.45078034421E+01	3.31120303246E+01	1.59685368607E+01	-1.78127790529E+02	-3.82130463096E+01	-6.55566527376E+01	-6.02258535893E+00	-7.99318132781E-01
3.23646204090E+05	-1.92285035246E+01	1.41168287695E+02	1.60537604097E+01	-1.78007626067E+02	-3.46932050718E+01	-1.18858818363E+02	-6.05587670606E+00	-1.16080648197E+00
3.23880141417E+05	-1.75133760509E+01	8.75522367731E+01	1.60536829823E+01	-1.78215682076E+02	-3.66904431234E+01	-7.77742561023E+01	-6.03662472703E+00	-8.81608353401E-01
3.24114247838E+05	-1.45483392901E+01	4.07882505285E-01	1.58823685643E+01	-1.77563261141E+02	-3.57286240556E+01	-4.99645380339E+01	-5.98596887327E+00	-1.23498895108E+00
3.24348523475E+05	-2.02703650331E+01	-1.15857898846E+02	1.60461826244E+01	-1.77549488289E+02	-3.08849428539E+01	-7.63153709401E+01	-5.96725150254E+00	-1.70730248663E+00
3.24582968451E+05	-1.37648966865E+01	6.90703758563E+01	1.59825359969E+01	-1.78584631506E+02	-4.26688116904E+01	6.63344103085E+01	-6.04081962107E+00	9.21886166170E-02
3.24817582888E+05	-1.43150031561E+01	1.59567145385E+02	1.61653142505E+01	-1.78103997963E+02	-3.59400426724E+01	-8.39402318677E+01	-6.03003473536E+00	-9.69251033831E-01
3.25052366909E+05	-5.37428303371E+00	5.91410119887E+01	1.58273755029E+01	1.79750037788E+02	-5.21979240852E+01	1.30921930761E+01	-6.02737650322E+00	-2.71497135213E-01
3.25287320635E+05	-1.35554412259E+01	1.23724204607E+01	1.59258678233E+01	-1.77832342984E+02	-4.90681155149E+01	6.85436343452E+01	-6.04740211506E+00	-2.46528187817E-01
3.25522444191E+05	-2.27946903945E+01	1.26433528365E+01	1.59561242053E+01	-1.77925860653E+02	-3.97663734668E+01	1.06680145096E+02	-6.08230585674E+00	8.62414744554E-02
3.25757737698E+05	-1.73678121028E+01	-7.98061312517E+00	1.59424644320E+01	-1.77407336488E+02	-3.75068910859E+01	-7.89742430367E+01	-6.08696373911E+00	-6.42855716524E-01
3.25993201280E+05	-1.64776152428E+01	1.01914596648E+02	1.60337474469E+01	-1.78412948976E+02	-2.93695738249E+01	-1.28688690330E+02	-6.22705824726E+00	-1.72518551947E+00
3.26228835058E+05	-2.36313308405E+01	8.13746771302E+01	1.60383236115E+01	-1.78280809574E+02	-3.70564484638E+01	-1.32803900372E+02	-6.08144103020E+00	-6.06268821718E-01
