# Hz S DB R 50
! CMT, M5065, 19127446, 24.2.4/2
! Date: 11/1/2024 3:39:52 PM
! Data: Format (Calibration Info)
! Freq	S11:dB/Ang(F2)	S21:dB/Ang(F2)	S12:dB/Ang(F2)	S22:dB/Ang(F2)
3.00000000000E+05	-1.93909784972E+01	-3.72589661652E+01	1.50774501853E+01	-1.76642232806E+02	-3.54896568338E+01	6.99688326298E+01	-5.98398735113E+00	9.31276795897E-01
3.00216845423E+05	-1.99714044038E+01	5.34087433608E+01	1.51040943596E+01	-1.77684070845E+02	-3.43279300005E+01	-7.98311372825E+01	-5.95769980965E+00	-1.22694244647E+00
3.00433847586E+05	-9.30135209005E+00	7.05353189877E+00	1.49041001503E+01	-1.77148303610E+02	-3.59128752552E+01	9.01284635805E+01	-6.06439054872E+00	2.33607306677E-01
3.00651006602E+05	-1.80884904854E+01	4.80983988193E+01	1.51243699062E+01	-1.77744164631E+02	-3.66569978324E+01	1.37601872236E+02	-6.08502880746E+00	1.57659874265E-01
3.00868322584E+05	-2.15455542626E+01	1.48434191850E+02	1.51757977049E+01	-1.77293407221E+02	-3.48048129938E+01	-1.03846869450E+02	-6.03669818592E+00	-8.33933426401E-01
3.01085795647E+05	-2.14905933002E+01	-2.30928247763E+01	1.50815191973E+01	-1.77029027946E+02	-4.54397985035E+01	-9.69292002193E+01	-6.02900142607E+00	-2.88074671553E-01
3.01303425902E+05	-1.85826556955E+01	-5.21302447688E+01	1.51062760094E+01	-1.76779537478E+02	-3.64192025390E+01	1.70682639136E+01	-5.96540877788E+00	-1.66733632219E-01
3.01521213465E+05	-2.22353037599E+01	7.51657173361E+01	1.51380334964E+01	-1.77609630213E+02	-3.28146142397E+01	1.01833263415E+02	-6.06246829938E+00	9.79351180717E-01
3.01739158449E+05	-1.36621794969E+01	2.57049536862E+00	1.50436784889E+01	-1.77649528991E+02	-3.99923849007E+01	-1.92603151557E+01	-5.95435118913E+00	-4.65950699700E-01
3.01957260967E+05	-8.52698996047E+00	-7.84657618949E+01	1.51111232093E+01	-1.75716844486E+02	-4.88987430363E+01	7.86562963448E+01	-6.02611521747E+00	-4.37098891940E-01
3.02175521134E+05	-1.35386852561E+01	1.65119931878E+01	1.49772050603E+01	-1.77743001378E+02	-3.54455107111E+01	8.41121147076E+00	-5.91073375117E+00	-1.21394760596E-02
3.02393939063E+05	-1.84706103137E+01	1.04116757350E+02	1.51659675533E+01	-1.78109411509E+02	-3.93418599901E+01	9.76913819364E+01	-6.02078146882E+00	2.37125926392E-01
3.02612514869E+05	-2.60388531229E+01	1.10834084754E+01	1.50645659765E+01	-1.77595729178E+02	-4.02563476210E+01	7.52766765556E+01	-6.03961243745E+00	1.49677360878E-01
3.02831248665E+05	-1.67340238482E+01	5.57444604014E+01	1.50659320908E+01	-1.77595177680E+02	-4.12239635788E+01	-8.28572354998E+01	-6.04500918764E+00	-6.54864785518E-01
3.03050140565E+05	-1.32396520459E+01	2.73230654792E+01	1.50300800638E+01	-1.77463060817E+02	-3.73736444485E+01	-1.35314595124E+02	-6.06168732130E+00	-7.14655733477E-01
3.03269190685E+05	-1.90006631361E+01	-1.67178713965E+01	1.50652615483E+01	-1.77424589873E+02	-3.30573394056E+01	-9.08203199357E+01	-6.02931173987E+00	-1.43173460758E+00
3.03488399138E+05	-9.08634076529E+00	7.79421122782E+01	1.51031129250E+01	-1.79079585940E+02	-3.74701681993E+01	-8.29797387383E+01	-6.03489090406E+00	-6.05684269768E-01
3.03707766039E+05	-1.84095521721E+01	-1.46015928519E+01	1.50559954321E+01	-1.77240717185E+02	-3.34776658809E+01	-2.75156523625E+01	-5.90526285127E+00	-4.93583678644E-01
3.03927291503E+05	-3.05457550429E+01	-8.37570502742E+01	1.51589376011E+01	-1.77573654283E+02	-5.35876449511E+01	5.52276726282E+01	-6.03101899575E+00	-7.08953209105E-02
3.04146975643E+05	-1.87813950135E+01	-4.91147754896E+01	1.50959097666E+01	-1.77003816609E+02	-4.64095383003E+01	5.55941925531E+01	-6.05169770563E+00	-2.46432886094E-02
3.04366818575E+05	-1.88775822737E+01	-1.70664375272E+01	1.50889136245E+01	-1.77192367132E+02	-4.98606903783E+01	-1.10871350102E+02	-6.03098744675E+00	-3.77924771767E-01
3.04586820414E+05	-1.91761216299E+01	9.08399685764E+01	1.51123902198E+01	-1.78002745194E+02	-3.18699098995E+01	-1.09313643083E+02	-6.14089726587E+00	-1.61912840724E+00
3.04806981274E+05	-2.28686831118E+01	-7.66932303481E+01	1.51127784251E+01	-1.77374667564E+02	-3.43832898054E+01	1.55418968727E+02	-6.22581898264E+00	1.35553947301E-02
3.05027301270E+05	-2.94422142977E+01	6.28346644434E+00	1.51068035156E+01	-1.77433717547E+02	-5.18094910280E+01	1.67777363398E+02	-6.03109818992E+00	-1.57759913597E-01
3.05247780517E+05	-6.82160421316E+00	-1.78617085031E+02	1.54618009431E+01	-1.77101786627E+02	-4.11567387440E+01	-6.14506266533E+01	-6.05745808950E+00	-9.69696674773E-02
3.05468419131E+05	-2.20981082481E+01	-3.70968702013E+01	1.50671532185E+01	-1.77287112492E+02	-5.27799852850E+01	-1.06806390456E+02	-6.05529773120E+00	-4.78105159243E-01
3.05689217226E+05	-2.60815838390E+01	1.12417213898E+02	1.51767608576E+01	-1.77518177342E+02	-3.95930187339E+01	-9.86970309920E+01	-6.08487519652E+00	-9.05002280418E-01
3.05910174918E+05	-2.23821072588E+01	-1.40510328414E+01	1.51035955917E+01	-1.77483441854E+02	-4.79231197768E+01	-1.20702405330E+02	-6.04676230529E+00	-1.88981091903E-01
3.06131292322E+05	-3.41160519914E+01	6.86175539784E+00	1.51275329603E+01	-1.77517352631E+02	-3.40318986282E+01	6.63394854475E+01	-5.94929082469E+00	6.97800398226E-01
3.06352569554E+05	-1.93443716952E+01	4.06612816139E+01	1.51068967085E+01	-1.77332932638E+02	-3.78523097918E+01	5.81566224001E+01	-5.99672365256E+00	5.61924579054E-01
3.06574006730E+05	-2.13772873012E+01	2.13167678356E+01	1.50878276110E+01	-1.77507375892E+02	-4.57643042812E+01	1.68894899486E+02	-6.10193148553E+00	-3.75968584666E-01
3.06795603964E+05	-9.72645807840E+00	6.04253989083E+00	1.49386407756E+01	-1.77487213329E+02	-3.76298320517E+01	4.01085744136E+01	-5.98510286999E+00	2.97855336756E-01
3.07017361372E+05	-1.78384655149E+01	-3.64529263307E+01	1.50922494239E+01	-1.77181212097E+02	-3.83714882586E+01	-1.45847373237E+02	-6.07587917820E+00	-7.06019986769E-01
3.07239279071E+05	-1.81449144348E+01	-2.06969970759E+01	1.50302186518E+01	-1.77445403926E+02	-4.18164437711E+01	9.77486972404E+01	-6.04206352373E+00	1.67001899237E-01
3.07461357176E+05	-1.40203204207E+01	1.16444129182E+00	1.50639693829E+01	-1.77458926337E+02	-3.68544793895E+01	-1.60366241647E+02	-6.09385425660E+00	-4.35851336397E-01
3.07683595803E+05	-2.14303919225E+01	6.45352351686E+01	1.50809309189E+01	-1.77803688433E+02	-3.15202905073E+01	2.81316269121E+01	-5.84556208702E+00	5.01502520751E-01
3.07905995068E+05	-1.75508624963E+01	-2.40568904202E+01	1.50450163688E+01	-1.77329775172E+02	-2.91548793288E+01	-1.00153841124E+02	-6.09626614844E+00	-2.19175346323E+00
3.08128555087E+05	-9.43010976403E+00	-9.37475691965E+00	1.49310252210E+01	-1.76952765894E+02	-4.20244315387E+01	6.67443294519E+01	-6.07221267747E+00	2.91977692549E-02
3.08351275976E+05	-2.72952403675E+01	1.63416895039E+02	1.51973190942E+01	-1.77638302109E+02	-4.01604372357E+01	1.24874986705E+02	-6.08999481154E+00	1.73424973886E-01
3.08574157853E+05	-2.03575681818E+01	-2.78604769659E+01	1.50800938483E+01	-1.77108966568E+02	-4.01539090545E+01	-6.92264834179E+01	-5.99689553209E+00	-6.63854145857E-01
3.08797200832E+05	-1.64406883773E+01	2.06370884073E+01	1.50772960188E+01	-1.77675144579E+02	-3.48089086922E+01	1.60065860840E+02	-6.16877422592E+00	4.28532946432E-01
3.09020405031E+05	-1.95003641983E+01	2.94071820589E+01	1.50759222122E+01	-1.77750062327E+02	-4.27084344215E+01	-5.36335768298E+01	-6.00838815960E+00	-5.53850596933E-01
3.09243770566E+05	-1.86200987670E+01	6.63350145447E+01	1.51667627673E+01	-1.77962337021E+02	-4.46440655429E+01	-6.95425148878E+01	-5.95782675589E+00	-3.80344604650E-01
3.09467297553E+05	-2.64070800112E+01	4.91424935896E-01	1.51058654698E+01	-1.77680214916E+02	-3.50170955779E+01	-9.42714278048E+01	-6.00256288775E+00	-1.31965055223E+00
3.09690986110E+05	-1.52486102303E+01	-1.52576658047E+02	1.52409069022E+01	-1.77292898965E+02	-3.56889648886E+01	4.26823989260E+01	-6.00828489471E+00	4.46916989205E-01
3.09914836353E+05	-2.06009464889E+01	1.36719346491E+01	1.51076125897E+01	-1.77597038267E+02	-4.53244922760E+01	1.65427788514E+02	-6.11293759251E+00	-2.64699019815E-01
3.10138848399E+05	-1.51838034608E+01	-2.48363174415E+01	1.50921092828E+01	-1.77226399912E+02	-5.07765748341E+01	1.73378789247E+02	-6.05143710322E+00	-6.61792440553E-01
3.10363022365E+05	-1.53899893434E+01	4.88007131880E+01	1.50424084925E+01	-1.77885981089E+02	-4.74870046984E+01	1.42613633139E+02	-6.08400277385E+00	-1.18499032206E-01
3.10587358368E+05	-3.03605923870E+01	-1.02870680163E+02	1.51277475477E+01	-1.77586532501E+02	-4.01744737180E+01	-1.15616763914E+01	-5.96105441986E+00	-3.83108308932E-01
3.10811856525E+05	-1.55476517923E+01	4.66404293500E+01	1.50554920219E+01	-1.77912468486E+02	-4.42327019203E+01	-6.52626418450E+01	-6.06856151479E+00	-5.78128709773E-01
3.11036516954E+05	-1.50938997700E+01	-2.82685230542E+01	1.50757203709E+01	-1.77320304527E+02	-3.02644522630E+01	8.86607370081E+00	-5.80742747560E+00	-2.04108195905E-01
3.11261339771E+05	-1.71616985795E+01	1.57366435119E+02	1.52361143161E+01	-1.77962881334E+02	-4.84446058382E+01	9.05749930689E+01	-6.04832537408E+00	-4.31944449146E-02
3.11486325094E+05	-1.58718029394E+01	-1.20857861483E+02	1.52018798740E+01	-1.76939452063E+02	-3.82738350370E+01	-1.07558061218E+02	-6.05240764498E+00	-1.01078594041E+00
3.11711473040E+05	-1.89970580742E+01	-4.95816226865E+01	1.50594833551E+01	-1.77207826196E+02	-6.13692773811E+01	-5.37065833710E+01	-6.03819292372E+00	-1.64676768204E-01
3.11936783728E+05	-1.58760777723E+01	6.08678648380E+01	1.50862939481E+01	-1.78170162966E+02	-4.31129735621E+01	6.24496658979E+01	-6.02926078021E+00	-4.19312290476E-02
3.12162257274E+05	-2.16703575950E+01	4.47871340811E+01	1.51205082549E+01	-1.78012730276E+02	-4.16696021672E+01	7.37650934939E+00	-5.97336654389E+00	-1.08112938576E-01
3.12387893797E+05	-2.66811932385E+01	-1.12751877937E+02	1.51526943361E+01	-1.77381257447E+02	-5.72890992335E+01	1.19283612870E+02	-6.00450552961E+00	-2.25746918189E-01
3.12613693413E+05	-2.01824207625E+01	-2.97307595905E+01	1.50804806669E+01	-1.77157857245E+02	-3.05156700792E+01	1.41804173615E+02	-6.21163426170E+00	5.60054191826E-01
3.12839656242E+05	-1.55698472175E+01	1.75219961247E+02	1.52636837300E+01	-1.77563977141E+02	-4.75088865394E+01	1.46962074413E+02	-6.06323288163E+00	-4.41490556502E-01
3.13065782401E+05	-6.31587198151E+00	3.73406263262E+01	1.48757095279E+01	-1.78855607577E+02	-3.79562794074E+01	5.54750512987E+01	-6.01146695426E+00	2.07529052820E-03
3.13292072007E+05	-2.74419685252E+01	-2.36035790703E+01	1.51256573363E+01	-1.77530333567E+02	-4.89500641978E+01	-1.52301459382E+02	-6.03915015715E+00	-2.75705149755E-01
3.13518525180E+05	-2.35662235153E+01	1.39376818144E+02	1.51731112033E+01	-1.77512358254E+02	-4.01909783822E+01	-1.22543591619E+02	-6.10153878727E+00	-5.13157799711E-01
3.13745142038E+05	-1.66514656433E+01	-5.37974123569E+00	1.50787600154E+01	-1.77539879119E+02	-4.08555019494E+01	-1.19443605378E+01	-5.95949613387E+00	3.51059955234E-02
3.13971922698E+05	-1.81875995781E+01	4.95868272627E+00	1.50980979284E+01	-1.77556154762E+02	-3.90994871528E+01	-1.37954708533E+02	-6.10885551046E+00	-7.29812754562E-01
3.14198867279E+05	-3.04683287495E+01	9.28803378822E+01	1.50918169870E+01	-1.77671000404E+02	-4.32141366628E+01	-1.08950855283E+02	-6.09300363206E+00	-7.33424258405E-01
3.14425975900E+05	-1.57034312271E+01	-1.17161620013E+02	1.52135336359E+01	-1.76852591823E+02	-4.67339778795E+01	-1.05320752167E+01	-5.97927693962E+00	-4.56799216494E-01
3.14653248680E+05	-1.13514034986E+01	-4.61899037453E+00	1.49600586705E+01	-1.77079465793E+02	-3.92855234258E+01	-4.19281066534E+01	-5.96969371334E+00	-5.70002253371E-01
3.14880685736E+05	-1.35214799172E+01	-1.73067563239E+01	1.50527370991E+01	-1.77202449183E+02	-4.55727365764E+01	-5.91120908272E+01	-6.05569632348E+00	-3.02604664639E-01
3.15108287188E+05	-2.53542231513E+01	-4.91209014364E+01	1.51405775444E+01	-1.77542067228E+02	-4.13863233657E+01	1.51415139300E+02	-6.07756361907E+00	-8.34825181092E-02
3.15336053154E+05	-2.00109900936E+01	1.63345596986E+01	1.50687748149E+01	-1.77720328401E+02	-4.57376357912E+01	-1.75502327941E+02	-6.09575361924E+00	-2.89760224284E-01
3.15563983753E+05	-2.45978627467E+01	1.32781848591E+02	1.51462239742E+01	-1.77865930316E+02	-3.98402959066E+01	-1.04549324771E+02	-6.10407795128E+00	-3.59497103737E-01
3.15792079105E+05	-1.99924711459E+01	9.58675422371E+01	1.51149766673E+01	-1.77968577858E+02	-3.87419872021E+01	7.64076539093E+00	-5.95791758458E+00	-1.86213301991E-01
3.16020339328E+05	-7.78936025177E+00	1.18800227251E+01	1.48566523243E+01	-1.77912863761E+02	-3.64525384853E+01	-1.78889096154E+01	-5.92855774801E+00	-2.31532286936E-01
3.16248764542E+05	-1.79446371752E+01	1.73986508429E+02	1.52577845683E+01	-1.77757442505E+02	-4.37422711646E+01	-4.95721773177E+01	-6.00346616158E+00	-5.21156453492E-01
3.16477354866E+05	-2.19920522121E+01	9.07147855185E+01	1.51111080554E+01	-1.78165954328E+02	-3.85150399133E+01	-4.95629218393E+01	-5.99720518795E+00	-4.39833914690E-01
3.16706110419E+05	-2.34372905065E+01	-3.47170872746E+01	1.51142364827E+01	-1.77313274577E+02	-4.35522154639E+01	-1.84794243343E+01	-6.02870777767E+00	-2.34449670150E-01
3.16935031321E+05	-4.59244258715E+01	2.41119525155E+01	1.51738641392E+01	-1.77630908266E+02	-4.23978593278E+01	-1.01820877109E+02	-6.04867058680E+00	-5.21882029972E-01
3.17164117691E+05	-2.24114683860E+01	2.55651213774E+00	1.50899344028E+01	-1.77754154295E+02	-4.32170039391E+01	-7.11373006831E+01	-5.99526855397E+00	-3.07563155800E-01
3.17393369648E+05	-1.99906535232E+01	1.31426758046E+01	1.50815585745E+01	-1.77814193528E+02	-2.82056377814E+01	9.49191653306E+01	-6.05955559865E+00	1.54944698790E+00
3.17622787313E+05	-1.37529589827E+01	-1.89230121265E+01	1.50429586268E+01	-1.77247520874E+02	-3.54294635145E+01	-1.01170087258E+02	-6.06448137511E+00	-9.78807271950E-01
3.17852370806E+05	-1.93730082647E+01	5.87765305338E+01	1.51212307688E+01	-1.77942796824E+02	-4.28466379067E+01	-1.68449290616E+02	-6.07278841043E+00	-4.99193088147E-01
3.18082120245E+05	-2.22873895260E+01	4.94433031286E+01	1.50918359893E+01	-1.77998158420E+02	-3.88645689268E+01	-5.05490184833E+01	-6.01736963554E+00	-5.66530865364E-01
3.18312035752E+05	-1.73300094960E+01	3.02596580318E+00	1.50146351936E+01	-1.77850783818E+02	-4.68760926407E+01	-1.68518878718E+02	-6.04563751638E+00	-3.33812958306E-01
3.18542117445E+05	-1.66935384745E+01	6.03664015794E+01	1.50493456979E+01	-1.78008461614E+02	-4.68682831135E+01	-2.20250307808E+01	-6.02269746457E+00	-4.13567725157E-01
3.18772365446E+05	-1.69141070312E+01	2.82071184059E+01	1.51023508443E+01	-1.78263570662E+02	-4.37036588889E+01	-1.36189560980E+02	-6.09622294038E+00	-6.82024944640E-01
3.19002779874E+05	-3.04487060624E+01	3.03527013653E+01	1.51172723865E+01	-1.77581932358E+02	-3.29365926825E+01	-4.08121491543E+01	-5.93848309670E+00	-1.20728197780E+00
3.19233360850E+05	-1.84823591143E+01	-1.60140566570E+01	1.50637572608E+01	-1.77338761943E+02	-3.69732003200E+01	-1.25856157408E+02	-6.08989679199E+00	-6.96815918290E-01
3.19464108494E+05	-1.28183273226E+01	-1.81570441524E+01	1.49984255399E+01	-1.77246230815E+02	-4.33621608542E+01	4.40132915490E+01	-6.00150319596E+00	-1.50465079201E-01
3.19695022927E+05	-1.89671914467E+01	-4.78930061010E+01	1.50911036610E+01	-1.77382408392E+02	-4.20992206735E+01	-1.68141971461E+02	-6.10317429650E+00	-1.95432347471E-01
3.19926104268E+05	-2.05099565981E+01	4.41050155522E+01	1.50939515750E+01	-1.77907632811E+02	-3.79873203047E+01	1.30320622618E+02	-6.15581805092E+00	1.20064572971E-01
3.20157352640E+05	-1.51689303811E+01	2.15234704939E+00	1.49850713302E+01	-1.77455392380E+02	-4.26064118963E+01	-4.96860417268E+00	-5.97956214264E+00	-1.53564745479E-01
3.20388768162E+05	-2.31175164166E+01	8.77323556341E+01	1.51168889268E+01	-1.77989306279E+02	-3.54987977780E+01	1.61725982931E+02	-6.07255392769E+00	-6.49252782482E-02
3.20620350955E+05	-1.75972931632E+01	4.70274383346E+01	1.51169167932E+01	-1.77831185278E+02	-3.05772010876E+01	5.72034007674E+01	-5.91772278102E+00	1.36997123425E+00
3.20852101140E+05	-1.38908709941E+01	1.86458715832E+01	1.50459187977E+01	-1.78102086170E+02	-3.84882058199E+01	-1.25348554272E+02	-6.06391827963E+00	-5.85380439779E-01
3.21084018839E+05	-1.63393344981E+01	-5.40444692996E+01	1.51113440574E+01	-1.76891280792E+02	-4.07781652359E+01	-2.88093882613E+01	-5.98018048116E+00	-5.03725687889E-01
3.21316104172E+05	-2.22207809028E+01	2.60147568087E+01	1.50972760719E+01	-1.78013811006E+02	-4.31045768009E+01	5.37928566199E+01	-6.02989137631E+00	-2.50137041130E-01
3.21548357261E+05	-1.56020886958E+01	8.51749234430E+01	1.51241757318E+01	-1.78520685047E+02	-4.55282219144E+01	7.65599743224E+01	-6.02209920138E+00	-1.25844914909E-01
3.21780778226E+05	-2.31946279763E+01	-5.67178724375E+00	1.51030136376E+01	-1.77725221755E+02	-3.96408631551E+01	7.94498094883E+01	-5.97358936582E+00	2.30194069372E-01
3.22013367189E+05	-1.86785618295E+01	2.42904998981E+01	1.50818317971E+01	-1.77897344006E+02	-3.93538083563E+01	1.72065445616E+02	-6.14225028875E+00	-2.35481453400E-01
3.22246124272E+05	-1.47803125032E+01	3.42809288236E+01	1.50798484995E+01	-1.78326580494E+02	-6.95826156484E+01	5.03756804292E+01	-6.05970910134E+00	7.10080295542E-02
3.22479049596E+05	-1.46159295175E+01	1.95514711641E+01	1.50280762899E+01	-1.78179151134E+02	-3.78353059740E+01	-7.07545179049E+01	-5.96362599295E+00	-7.13719708177E-01
3.22712143282E+05	-1.63465360414E+01	1.06878105782E+02	1.51228156833E+01	-1.78232890507E+02	-4.43144688332E+01	9.28090964305E+01	-6.04968272842E+00	-6.35510146332E-02
3.22945405453E+05	-1.70536558750E+01	2.79954529828E+01	1.50576341421E+01	-1.77923677192E+02	-4.26593853388E+01	1.69323934139E+02	-6.07937571442E+00	-1.67967836399E-01
3.23178836230E+05	-1.45648944475E+01	5.00176695695E+01	1.50859420861E+01	-1.78514393074E+02	-5.67414474982E+01	-3.40563414535E+01	-6.05406899892E+00	-2.86992421507E-01
3.23412435735E+05	-3.13635944579E+01	1.72636862657E+02	1.51409610140E+01	-1.77839907908E+02	-4.55037344593E+01	-1.65596038323E+02	-6.06081114887E+00	-2.17296931240E-01
3.23646204090E+05	-1.52073120754E+01	-2.43442753152E+01	1.50337781083E+01	-1.77636851353E+02	-4.88538727743E+01	-2.57662322711E+01	-6.04234065724E+00	-4.50738233404E-01
3.23880141417E+05	-1.58389537382E+01	1.88459811153E+01	1.50461519162E+01	-1.78334889889E+02	-5.21694344212E+01	4.57004788227E+01	-6.01972621087E+00	-2.63887561075E-01
3.24114247838E+05	-2.69738864833E+01	7.47036496733E+01	1.51497825667E+01	-1.77887081011E+02	-3.74218591362E+01	6.48148372521E+01	-5.97197579294E+00	3.41207716442E-01
3.24348523475E+05	-1.12274706028E+01	4.08296213425E+01	1.49818416322E+01	-1.78377420758E+02	-3.87882154925E+01	9.90771683079E+01	-6.02147005989E+00	3.88657108461E-01
3.24582968451E+05	-2.12828822239E+01	8.84735150972E+01	1.51259735933E+01	-1.78250236176E+02	-4.13633811606E+01	-1.71781186586E+02	-6.06126793186E+00	-2.49322522711E-01
3.24817582888E+05	-3.35723685067E+01	-1.57958094812E+01	1.51475414455E+01	-1.77990449231E+02	-3.93428789834E+01	6.36607058253E+01	-6.05196676660E+00	3.37447479583E-01
3.25052366909E+05	-2.61071313226E+01	-6.80562940193E+01	1.51247769407E+01	-1.77690763522E+02	-5.18663152898E+01	1.75667813888E+02	-6.09056803828E+00	-9.99626810679E-02
3.25287320635E+05	-1.52725254695E+01	-1.31587839619E+02	1.51945667723E+01	-1.77325329229E+02	-3.84424283991E+01	-4.19735938628E+01	-6.01127405188E+00	-3.33270062730E-01
3.25522444191E+05	-1.76615142489E+01	-4.85123705557E+01	1.50686978581E+01	-1.77653573109E+02	-2.94373344879E+01	8.75080328821E-01	-5.81473216462E+00	-1.19837540280E-02
3.25757737698E+05	-1.48421638885E+01	-4.30403854469E+01	1.50764243205E+01	-1.77236586149E+02	-3.88001129005E+01	-6.88655665097E+01	-6.00806776830E+00	-4.55936382760E-01
3.25993201280E+05	-8.96427270074E+00	1.60751903947E+02	1.54305058157E+01	-1.78416066033E+02	-3.80760981647E+01	3.40974486914E+00	-5.93020601405E+00	-1.30861159513E-01
3.26228835058E+05	-1.88564828999E+01	1.98400880617E+01	1.50538862472E+01	-1.78044530199E+02	-4.15639051285E+01	-7.16905278694E+01	-6.03025534227E+00	-5.70891661308E-01
