# Hz S DB R 50
! CMT, M5065, 19127446, 24.2.4/2
! Date: 11/1/2024 3:29:32 PM
! Data: Format (Calibration Info)
! Freq	S11:dB/Ang(F2)	S21:dB/Ang(F2)	S12:dB/Ang(F2)	S22:dB/Ang(F2)
3.00000000000E+05	-2.14775763569E+01	-1.06165946729E+02	9.85107195224E+00	-1.76824306407E+02	-4.06340337191E+01	4.01387684027E+01	-6.00211981257E+00	-1.52113835032E-01
3.00216845423E+05	-8.07650785024E+00	8.88491219456E+01	9.78274699491E+00	-1.79381149603E+02	-2.09146483818E+01	3.05366550303E+01	-5.69294312960E+00	1.12367870501E+00
3.00433847586E+05	-1.48501601971E+01	3.05013094412E+01	9.69944798301E+00	-1.77574582731E+02	-4.45295842353E+01	5.48623094123E+01	-6.04514213900E+00	-1.02919215900E-01
3.00651006602E+05	-1.87516968783E+01	8.67196322244E+01	9.83247462438E+00	-1.78209548870E+02	-3.60504340003E+01	-1.49157997778E+00	-6.04415741131E+00	-1.02396614611E-01
3.00868322584E+05	-1.94090571879E+01	5.27049277318E+01	9.75155521954E+00	-1.78014304659E+02	-3.32165570124E+01	1.74377711161E+02	-6.12638167477E+00	-2.69439378190E-01
3.01085795647E+05	-1.43637416468E+01	9.23374574646E+01	9.80997056014E+00	-1.78361038113E+02	-3.72008864750E+01	-8.45454266791E+01	-6.05721312105E+00	-6.32489926693E-01
3.01303425902E+05	-2.10440093802E+01	3.56951892627E+01	9.79178183538E+00	-1.77993007807E+02	-4.32380761989E+01	4.83554717645E+01	-6.02683855693E+00	-1.55005118360E-01
3.01521213465E+05	-1.94677711552E+01	3.86927244381E+01	9.75648932997E+00	-1.77564344159E+02	-3.77743279333E+01	-1.38148494172E+02	-6.07047748459E+00	-3.98296532131E-01
3.01739158449E+05	-2.11094441153E+01	9.11629495472E+01	9.76328221816E+00	-1.77906432238E+02	-2.65549476823E+01	-1.06292078458E+02	-6.09305414458E+00	-1.46373821877E+00
3.01957260967E+05	-2.27136817854E+01	7.38563848626E+01	9.78937764033E+00	-1.77822181935E+02	-4.16175078724E+01	-5.88982512009E+01	-5.99984923708E+00	-3.55338883904E-01
3.02175521134E+05	-3.83927427959E+01	-1.71443498137E+02	9.79714765473E+00	-1.77791496873E+02	-5.28673085877E+01	-1.40876865119E+02	-6.07787243116E+00	-5.29624435240E-01
3.02393939063E+05	-1.57457972531E+01	8.48511032150E+01	9.77151318767E+00	-1.77792716411E+02	-3.71589311182E+01	-9.99379883743E+01	-6.02124848002E+00	-5.82315572311E-01
3.02612514869E+05	-1.04574662998E+01	4.37074699378E+01	9.65210774196E+00	-1.78509006183E+02	-3.87977379864E+01	1.21039185715E+02	-6.04905938085E+00	1.59464385410E-01
3.02831248665E+05	-3.09123342552E+01	7.11156325477E+01	9.77781516648E+00	-1.77743462040E+02	-3.82604534242E+01	-1.10484013982E+02	-6.04684678228E+00	-3.74997995734E-01
3.03050140565E+05	-2.01541197749E+01	3.50299472940E+01	9.76652037730E+00	-1.77610130494E+02	-3.71104252570E+01	8.20071094831E+01	-6.01072626060E+00	-1.97168106275E-01
3.03269190685E+05	-1.61812492533E+01	-2.57767808372E+01	9.73485907659E+00	-1.77526668181E+02	-2.71533268315E+01	1.38848721187E+02	-6.17167963616E+00	7.45311985052E-01
3.03488399138E+05	-1.64424721656E+01	5.24100829605E+01	9.76826145218E+00	-1.78004029758E+02	-3.28021398459E+01	-9.27004635245E+01	-5.99116240523E+00	-8.09191805743E-01
3.03707766039E+05	-2.34899284088E+01	8.76080031683E+01	9.82440222264E+00	-1.77773209152E+02	-4.67264709139E+01	1.36931463861E+01	-5.97154923366E+00	9.80736428329E-03
3.03927291503E+05	-1.52136871943E+01	4.90812810708E+01	9.73312251393E+00	-1.78209157815E+02	-4.18645392786E+01	1.53144667601E+02	-6.05990563191E+00	-2.60925292751E-01
3.04146975643E+05	-1.70603200334E+01	2.68028942451E+00	9.75191737434E+00	-1.77768954390E+02	-3.22481227901E+01	5.71363890875E+01	-5.98938526600E+00	3.89180544955E-01
3.04366818575E+05	-1.56946327969E+01	5.72161961833E+01	9.79769228979E+00	-1.78276845399E+02	-3.68785763969E+01	1.44039278041E+02	-6.11664004797E+00	-6.02814432737E-02
3.04586820414E+05	-1.54437336411E+01	2.17680443815E+01	9.67554565086E+00	-1.77908691297E+02	-4.17754532034E+01	4.57235081127E+01	-6.00971943920E+00	-1.09903490469E-01
3.04806981274E+05	-2.12082603367E+01	7.52602355873E+01	9.78188089788E+00	-1.78147642762E+02	-3.03995846927E+01	3.80994940371E+01	-5.92159363373E+00	5.27569446135E-01
3.05027301270E+05	-1.91605615563E+01	-1.59454482182E+00	9.69234397463E+00	-1.77637170733E+02	-3.04040351373E+01	-9.16571377153E+01	-6.03847858471E+00	-1.36675828431E+00
3.05247780517E+05	-2.12105437132E+01	2.03125075905E+01	9.70646457064E+00	-1.77377736766E+02	-3.86605355947E+01	-5.18391189988E+01	-6.01587379051E+00	-4.00337158995E-01
3.05468419131E+05	-1.95162393557E+01	4.89730667377E+01	9.77254577105E+00	-1.77778236536E+02	-4.10174884210E+01	-9.37596159949E+01	-5.98762914247E+00	-4.37953242075E-01
3.05689217226E+05	-2.41510196718E+01	8.01265194351E+01	9.78008347640E+00	-1.78293810260E+02	-3.56973133220E+01	1.60505797173E+02	-6.08733353554E+00	-2.73739340954E-02
3.05910174918E+05	-1.43623742590E+01	-4.32968305215E+01	9.78114645631E+00	-1.77250977847E+02	-4.13403677398E+01	-5.00378642541E+01	-5.99439445473E+00	-2.03149794817E-01
3.06131292322E+05	-1.95565799721E+01	1.22194058286E+02	9.87677397877E+00	-1.77944026365E+02	-5.19243239512E+01	-9.34911901607E+01	-6.04321888898E+00	-3.35058712214E-02
3.06352569554E+05	-1.19014709240E+01	-2.58330576565E+01	9.62498943698E+00	-1.77046406719E+02	-3.51398674036E+01	1.45921163774E+01	-6.00424926796E+00	-1.93032566052E-01
3.06574006730E+05	-2.70294656045E+01	5.37675878083E+01	9.73246432518E+00	-1.77843299668E+02	-5.40338470065E+01	-1.04281367642E+02	-6.04177443831E+00	-3.59298597978E-01
3.06795603964E+05	-1.73631035672E+01	5.33990541407E+01	9.74391472211E+00	-1.78047907776E+02	-5.42379766424E+01	5.44779466684E+01	-6.07021334658E+00	-3.21657057501E-01
3.07017361372E+05	-1.39310473040E+01	1.08285051304E+02	9.80346829242E+00	-1.78461760607E+02	-4.03843693801E+01	-1.63573977116E+02	-6.09565392656E+00	-2.53055936581E-01
3.07239279071E+05	-2.77837269008E+01	1.72154737801E+00	9.79073926674E+00	-1.77716823747E+02	-3.58088219390E+01	-5.76110235639E+01	-6.00789685859E+00	-4.88469166156E-01
3.07461357176E+05	-1.90613930996E+01	-4.35329657880E+00	9.69907455415E+00	-1.77623443949E+02	-5.78852685877E+01	-8.53426876835E+01	-6.04786963107E+00	-5.58377646346E-01
3.07683595803E+05	-1.36023603365E+01	-6.78995940066E+01	9.77792977305E+00	-1.76558296296E+02	-4.78974068460E+01	-1.52167559685E+02	-6.07498826633E+00	-2.69886279646E-01
3.07905995068E+05	-1.57056796869E+01	5.53498873929E+01	9.77374015757E+00	-1.78354625019E+02	-3.26975208694E+01	1.19359583095E+01	-5.93091807192E+00	4.55722291180E-02
3.08128555087E+05	-2.21788065565E+01	-5.10347699939E+01	9.79138044321E+00	-1.77291673221E+02	-3.58454354280E+01	-9.87030098564E+00	-5.94426758429E+00	-1.62534836594E-01
3.08351275976E+05	-1.82829243992E+01	4.73790670886E+01	9.71879310925E+00	-1.78165361754E+02	-4.06170588735E+01	2.74269980131E+01	-6.00462232495E+00	7.56065739270E-02
3.08574157853E+05	-1.51328252526E+01	-4.12911447118E+01	9.72215279715E+00	-1.77208872852E+02	-4.56046162832E+01	1.18807379690E+02	-6.08583091377E+00	-3.41960447524E-01
3.08797200832E+05	-1.92221014030E+01	3.88055618308E+01	9.74993807434E+00	-1.78145329697E+02	-4.73859357058E+01	-8.70495182523E+01	-6.08218826613E+00	-2.13918159705E-01
3.09020405031E+05	-1.45572096545E+01	2.05334078654E+01	9.70109763735E+00	-1.77790663507E+02	-4.30056419467E+01	-1.01076768401E+02	-6.08994326244E+00	-2.73862530101E-01
3.09243770566E+05	-1.41468475382E+01	-1.04461024869E+02	9.90288623821E+00	-1.76820917936E+02	-3.67614306588E+01	-1.71819829313E+02	-6.07868197266E+00	-2.31079319958E-01
3.09467297553E+05	-1.47658163399E+01	3.63495832877E+01	9.73120236262E+00	-1.78161595051E+02	-2.93514495279E+01	-1.70586037573E+02	-6.19939345845E+00	-6.01206830567E-01
3.09690986110E+05	-1.50160288225E+01	3.62294083839E+01	9.68431729373E+00	-1.78040070583E+02	-3.43817444751E+01	1.67466428891E+02	-6.09700186400E+00	-2.51913073068E-01
3.09914836353E+05	-1.90946716418E+01	-2.18170016878E+01	9.78331931656E+00	-1.77355943392E+02	-6.56868778963E+01	1.06441897780E+02	-6.04274943275E+00	-1.87964677927E-01
3.10138848399E+05	-2.14224619760E+01	-1.21574908046E+02	9.84793068596E+00	-1.77645398542E+02	-4.23347821606E+01	-3.21660411033E+01	-6.03842995129E+00	-4.24689797271E-01
3.10363022365E+05	-1.54728290847E+01	-5.05466807382E+00	9.68549935826E+00	-1.77546043952E+02	-4.37902686473E+01	-1.74310372482E+02	-6.05937201099E+00	-3.08757133479E-01
3.10587358368E+05	-1.85715571779E+01	1.17544724607E+01	9.68176857218E+00	-1.77849951962E+02	-4.34563582629E+01	-7.51898000123E+01	-6.04255120679E+00	-1.06180250665E-01
3.10811856525E+05	-1.31421014676E+01	1.72061247203E+02	9.92917588539E+00	-1.78282742447E+02	-3.96401887862E+01	-1.47094023820E+02	-6.05396007606E+00	-5.11756734063E-01
3.11036516954E+05	-1.24398664335E+01	4.15045287675E+01	9.68398483752E+00	-1.78480958181E+02	-3.30918757039E+01	5.48645746422E+00	-5.98114362446E+00	-1.28637985222E-01
3.11261339771E+05	-1.83234812924E+01	-6.15868053320E+01	9.80905412929E+00	-1.77108712624E+02	-2.88621769225E+01	1.64388681187E+02	-6.19122154394E+00	2.01485668028E-02
3.11486325094E+05	-1.26928061636E+01	5.86829169984E+01	9.75336163637E+00	-1.78524859809E+02	-4.05066197060E+01	1.17281735916E+02	-6.02481394436E+00	-9.63348847474E-02
3.11711473040E+05	-1.59569008973E+01	7.87588714891E+01	9.77800846471E+00	-1.78418193804E+02	-3.78653430741E+01	-1.24307279449E+02	-6.07063919645E+00	-4.70220989608E-01
3.11936783728E+05	-2.10302866144E+01	-8.16648951824E+00	9.78110298760E+00	-1.77711041463E+02	-3.83618851168E+01	-1.39953764958E+01	-6.02645547873E+00	-1.95155560953E-01
3.12162257274E+05	-1.44345595426E+01	1.26223661109E+01	9.70572223865E+00	-1.77965285568E+02	-3.62582458838E+01	-9.09538826527E+01	-6.03215268164E+00	-6.53855667359E-01
3.12387893797E+05	-1.70129755014E+01	2.19348268943E+01	9.76558354583E+00	-1.77936088424E+02	-3.96188041320E+01	-1.47622226521E+02	-6.03539107455E+00	-3.15434628989E-01
3.12613693413E+05	-1.18861537751E+01	-1.67455659032E+01	9.65767878580E+00	-1.77482882157E+02	-4.06426976071E+01	-6.74424589313E+01	-6.02554628423E+00	-5.46608506211E-01
3.12839656242E+05	-1.50557219474E+01	-1.33595481497E+01	9.73988248347E+00	-1.77491898790E+02	-3.09779019950E+01	1.47326799355E+02	-6.13706960423E+00	2.05009777124E-01
3.13065782401E+05	-1.50390839295E+01	2.36432132213E+01	9.65719501544E+00	-1.77713529746E+02	-4.23545233554E+01	-8.85699939537E+01	-6.01909495565E+00	-5.04135896283E-01
3.13292072007E+05	-2.31604673754E+01	-1.03148098330E+02	9.79511470709E+00	-1.77411585084E+02	-3.83059097441E+01	-9.59939814708E+01	-6.02316408331E+00	-5.45938619958E-01
3.13518525180E+05	-1.72021398560E+01	-4.12291638507E+01	9.74362102241E+00	-1.77282066575E+02	-4.53689894260E+01	6.07089992897E+01	-6.01982425799E+00	-3.18475545752E-01
3.13745142038E+05	-1.75709211417E+01	1.13373466498E+02	9.85479709980E+00	-1.78080132777E+02	-4.72099943546E+01	1.05354748014E+02	-6.06783006247E+00	-1.43273112378E-01
3.13971922698E+05	-2.34276912040E+01	-3.60675049758E+01	9.82147018380E+00	-1.77570639587E+02	-4.45894800278E+01	-1.11315859460E+01	-6.00300864451E+00	-3.26216593111E-01
3.14198867279E+05	-1.63889916293E+01	1.66926302439E+02	9.89467357586E+00	-1.77919806277E+02	-4.28730098660E+01	7.68518957383E+00	-6.01278117117E+00	-1.91975398481E-01
3.14425975900E+05	-1.19694813830E+01	2.99721041735E+01	9.70670812482E+00	-1.78239347439E+02	-3.72843538636E+01	5.38192828192E+01	-6.01702701658E+00	3.64759114155E-01
3.14653248680E+05	-2.44975050449E+01	-1.77779812367E+02	9.84851462121E+00	-1.77622903080E+02	-3.63371094692E+01	-1.30895877669E+02	-6.01812798041E+00	-2.40350633554E-01
3.14880685736E+05	-2.56460830305E+01	1.69413578606E+02	9.82197305105E+00	-1.77865142435E+02	-4.40167234098E+01	-2.20126891634E+00	-6.04530344489E+00	-3.64184566343E-01
3.15108287188E+05	-1.90239145652E+01	1.39827248323E+02	9.86459492367E+00	-1.78097640215E+02	-4.39168879160E+01	1.26865372742E+02	-6.07059022221E+00	-1.90353811917E-01
3.15336053154E+05	-1.53491465672E+01	3.06644875095E+01	9.75817195471E+00	-1.77912532864E+02	-4.08892315305E+01	-8.79745537538E+01	-6.06226823531E+00	-2.54179235228E-01
3.15563983753E+05	-3.62751935064E+01	1.54207535534E+02	9.79603362107E+00	-1.77939589044E+02	-4.74210009881E+01	-7.75211290948E+01	-6.04393006084E+00	-6.68048885312E-01
3.15792079105E+05	-2.80898992251E+01	-2.50554230033E+01	9.74695255154E+00	-1.77763533149E+02	-4.43397655922E+01	-1.28112895420E+01	-6.02259893128E+00	-6.77465767037E-01
3.16020339328E+05	-1.36036947446E+01	6.34554579134E+01	9.75792329588E+00	-1.78227904336E+02	-2.71738926861E+01	8.51905766463E+01	-6.08661077612E+00	1.11317392285E+00
3.16248764542E+05	-1.59062421050E+01	-3.97320783515E+00	9.72778487913E+00	-1.78378357600E+02	-3.77595669040E+01	4.94338090200E+00	-5.98598968498E+00	-2.61350758535E-02
3.16477354866E+05	-1.39535822137E+01	-1.53950471259E+00	9.72094329122E+00	-1.77885846673E+02	-5.39843185911E+01	8.64261260184E+01	-6.03246977099E+00	-2.80573686178E-01
3.16706110419E+05	-2.26148039199E+01	-8.54739546320E+00	9.70804591663E+00	-1.77868911288E+02	-3.61394219193E+01	-5.56246270215E+01	-6.00377207484E+00	-3.99426238954E-01
3.16935031321E+05	-2.98775499979E+01	2.22232404059E+01	9.79894212356E+00	-1.77934479582E+02	-4.25946584456E+01	4.68023073345E+01	-6.01566090588E+00	-2.62839287184E-01
3.17164117691E+05	-2.36387592257E+01	1.56203870713E+02	9.81135652180E+00	-1.78273835592E+02	-5.34917194547E+01	-1.67078846509E+02	-6.03677829109E+00	-1.38754306332E-01
3.17393369648E+05	-1.13796903723E+01	-1.05899661135E+02	9.86734996979E+00	-1.76532629187E+02	-3.59128967921E+01	-1.35811045551E+02	-6.05245414003E+00	-6.47475370334E-01
3.17622787313E+05	-1.50419335936E+01	-1.28781362943E+02	9.85538495095E+00	-1.77610355964E+02	-4.04137956025E+01	-7.68294726347E+01	-6.02580315598E+00	-4.33377427861E-01
3.17852370806E+05	-2.09057440122E+01	4.70521207247E+01	9.71502969849E+00	-1.77685001176E+02	-4.01426636327E+01	6.28550023843E+01	-6.03435757829E+00	9.79683705232E-02
3.18082120245E+05	-2.90378611720E+01	7.16545922682E+01	9.78915872465E+00	-1.77999903203E+02	-3.64584896091E+01	7.86484104728E+01	-6.05019999413E+00	-2.25159039615E-03
3.18312035752E+05	-1.95872618647E+01	-5.50060114180E-01	9.72635503531E+00	-1.78110894498E+02	-4.29479844204E+01	-1.01851686886E+02	-6.07211911922E+00	-1.53029417260E-01
3.18542117445E+05	-1.79989232752E+01	-2.15653438075E+01	9.73173553146E+00	-1.78069433127E+02	-3.92412726750E+01	-8.08983712714E+01	-6.04626845811E+00	-3.77441836336E-01
3.18772365446E+05	-1.72850695003E+01	4.94490642199E+01	9.75996972020E+00	-1.78409765451E+02	-3.60082601622E+01	-1.72802616803E+02	-6.08937143466E+00	-2.14107716698E-01
3.19002779874E+05	-1.37085673988E+01	1.09629051299E+02	9.85762412799E+00	-1.79056664838E+02	-4.48390398084E+01	1.14251925156E+02	-6.04300868336E+00	-1.38713381000E-01
3.19233360850E+05	-1.76984139126E+01	4.91499591621E+01	9.74655710048E+00	-1.77943586176E+02	-2.84606299027E+01	-1.62324293154E+02	-6.21487155278E+00	-6.97252348560E-01
3.19464108494E+05	-2.28426907406E+01	1.35795242368E+02	9.83078965552E+00	-1.78236698562E+02	-6.83006784540E+01	9.15998888606E+01	-6.05563769182E+00	-3.58649601677E-01
3.19695022927E+05	-1.56647606021E+01	7.88709564204E+01	9.76537078776E+00	-1.78698971854E+02	-4.37563198504E+01	1.60173128254E+02	-6.06510160783E+00	-3.87452270406E-01
3.19926104268E+05	-1.52812825310E+01	5.14670593415E+00	9.68988235321E+00	-1.78066259967E+02	-4.87927146957E+01	-9.18682810310E+01	-6.02053616983E+00	-1.56043766846E-01
3.20157352640E+05	-1.78894516242E+01	8.78357133355E+01	9.75328156967E+00	-1.78474438829E+02	-4.12405720202E+01	1.28643589307E+02	-6.08976388263E+00	2.67526049619E-01
3.20388768162E+05	-1.73995131464E+01	4.60089169522E+01	9.77492829388E+00	-1.78944925258E+02	-4.61159298394E+01	-6.30753819203E+01	-6.00946723260E+00	-3.06306836213E-01
3.20620350955E+05	-3.31179299900E+00	-1.41883148899E+01	9.31891991027E+00	-1.76649556304E+02	-5.20469626530E+01	-6.31192806232E+01	-6.04519154913E+00	-2.90320859507E-01
3.20852101140E+05	-3.08612627093E+01	-4.21011514178E+01	9.78557929221E+00	-1.77717249300E+02	-2.68328097162E+01	-2.96762210870E+01	-5.87180666038E+00	-1.10669542971E+00
3.21084018839E+05	-2.77056380457E+01	-6.40381212447E+01	9.75324751269E+00	-1.77711338448E+02	-3.37571724119E+01	6.16999337446E+01	-6.03234844395E+00	4.42032997980E-01
3.21316104172E+05	-2.77530922225E+01	3.95963129668E+01	9.77173572958E+00	-1.77714852780E+02	-3.25225156165E+01	-4.13179785146E+01	-5.96647289773E+00	-5.78012859534E-01
3.21548357261E+05	-3.14807496296E+01	1.04420056664E+02	9.83559385114E+00	-1.77983891115E+02	-3.57115882964E+01	-1.33109887980E+02	-6.11393577360E+00	-4.05165884309E-01
3.21780778226E+05	-1.49664282126E+01	2.28140629816E+01	9.72428427473E+00	-1.78296287064E+02	-3.50215320336E+01	-1.74037865833E+02	-6.10974839332E+00	-3.93870672175E-02
3.22013367189E+05	-2.21550216191E+01	4.79365087412E+00	9.78858269930E+00	-1.78090686877E+02	-4.18588722143E+01	1.07544966580E+02	-6.06824079512E+00	4.51896285629E-02
3.22246124272E+05	-9.31191233859E+00	9.04920818958E+00	9.52711077678E+00	-1.78210885733E+02	-3.76238979680E+01	-1.98204269392E+01	-5.96589520472E+00	-3.00134424451E-01
3.22479049596E+05	-1.90400064703E+01	3.54633632981E+01	9.79209821784E+00	-1.78314741680E+02	-3.56767691618E+01	1.41613814033E+02	-6.08681529965E+00	1.61238875972E-01
3.22712143282E+05	-2.15408487833E+01	-4.29508780504E+00	9.72361463291E+00	-1.77780201959E+02	-4.59893131239E+01	-1.03965332242E+02	-6.03811816034E+00	-5.76935410997E-01
3.22945405453E+05	-1.43126148805E+01	8.26578745405E+01	9.78670056035E+00	-1.78655580572E+02	-5.23260239158E+01	1.25806893648E+01	-6.06760611387E+00	-8.97609780318E-02
3.23178836230E+05	-1.86163445866E+01	1.17243545037E+02	9.84154717508E+00	-1.78440509314E+02	-3.87739385078E+01	-1.54071659854E+02	-6.09478684388E+00	-3.90026291217E-01
3.23412435735E+05	-2.64602089928E+01	-6.34420379512E+01	9.78526528975E+00	-1.77850830643E+02	-5.86663929266E+01	-1.03109527014E+02	-6.03764921735E+00	-2.72912386063E-01
3.23646204090E+05	-2.34729311130E+01	-4.74499144556E+01	9.72962323880E+00	-1.77916138834E+02	-4.87708196179E+01	-4.42092808697E+01	-6.01547606277E+00	-2.01126712715E-01
3.23880141417E+05	-1.36551494715E+01	1.65063943253E+01	9.66398357164E+00	-1.78388884867E+02	-3.44148661244E+01	-1.68675478172E+02	-6.09208265504E+00	-2.67207480250E-01
3.24114247838E+05	-1.66923709008E+01	3.30949209508E+01	9.69002735334E+00	-1.78495963031E+02	-3.82894240508E+01	-1.65872208441E+02	-6.05192423970E+00	-5.32912389227E-01
3.24348523475E+05	-1.90402062943E+01	1.35799160022E+02	9.82436951273E+00	-1.77937846231E+02	-3.99615198577E+01	-8.50183687381E+01	-6.02217159401E+00	-4.85441067690E-01
3.24582968451E+05	-1.74848030559E+01	-2.45322700114E+01	9.69974740982E+00	-1.78160097844E+02	-3.71449566332E+01	-1.20276492490E+02	-6.12329232300E+00	-8.20327908578E-01
3.24817582888E+05	-1.24687171963E+01	-3.99969488221E-01	9.69440971438E+00	-1.78044395411E+02	-4.36010865529E+01	1.68615150286E+02	-6.02712557851E+00	-6.00240139685E-02
3.25052366909E+05	-2.48564271858E+01	4.72086576093E+01	9.72727559940E+00	-1.77893544973E+02	-4.57189234828E+01	-1.72664269023E+02	-6.04885538123E+00	8.94749240534E-02
3.25287320635E+05	-2.08071472192E+01	6.96985874301E+01	9.84637934812E+00	-1.78277307925E+02	-3.87128278478E+01	-3.54024970039E+01	-6.00342533801E+00	-1.18345328995E-01
3.25522444191E+05	-1.15007326211E+01	-6.08533097430E+01	9.75135072678E+00	-1.76451879085E+02	-4.67905668924E+01	1.33700020430E+02	-6.01906027266E+00	-8.09493931957E-02
3.25757737698E+05	-1.91319382939E+01	-1.37451681894E+01	9.77565954673E+00	-1.77754969967E+02	-3.56624422592E+01	-1.47397372880E+02	-6.12891009958E+00	-3.47710096701E-01
3.25993201280E+05	-1.56709421333E+01	-7.56860126293E+01	9.74982673597E+00	-1.77237058441E+02	-3.71705064928E+01	-1.53963511974E+02	-6.08176039360E+00	-3.48026425479E-01
3.26228835058E+05	-1.87408240652E+01	-2.65373894521E+01	9.70262398640E+00	-1.77759940226E+02	-4.04907733925E+01	5.19456628174E+00	-6.00019558153E+00	-2.28721490953E-01
