# Hz S DB R 50
! CMT, M5065, 19127446, 24.2.4/2
! Date: 11/1/2024 3:47:30 PM
! Data: Format (Calibration Info)
! Freq	S11:dB/Ang(F2)	S21:dB/Ang(F2)	S12:dB/Ang(F2)	S22:dB/Ang(F2)
3.00000000000E+05	-2.47044149311E+01	4.53812038159E+01	2.29118504682E+01	-1.76148027181E+02	-3.22567976560E+01	-1.33172764102E+02	-6.37427665133E+00	-2.33262878736E+00
3.00216845423E+05	-1.89630201803E+01	7.30263035580E+01	2.29073206378E+01	-1.76583649815E+02	-4.52105834742E+01	-4.14810553389E+01	-5.93234071591E+00	-1.08313316275E+00
3.00433847586E+05	-2.14383156805E+01	-7.04045774775E+01	2.29223461126E+01	-1.75930745625E+02	-3.93340098558E+01	-1.56277262658E+02	-6.10014850761E+00	-3.81942589774E-01
3.00651006602E+05	-2.08787283069E+01	-1.29929119889E+02	2.29985080942E+01	-1.75855406969E+02	-3.70748941980E+01	9.41029783267E+01	-6.01961446115E+00	8.38562586345E-01
3.00868322584E+05	-1.80272226439E+01	1.90990380056E+01	2.28471677405E+01	-1.76286687915E+02	-4.27767066769E+01	-1.26963140905E+02	-6.06119920050E+00	-9.25460111190E-01
3.01085795647E+05	-1.79148115765E+01	8.17508897531E+01	2.29468404316E+01	-1.76631326958E+02	-5.09288065526E+01	1.51636504734E+02	-6.03573541095E+00	-2.30467440162E-01
3.01303425902E+05	-1.76637790954E+01	1.12685159359E+02	2.29425137105E+01	-1.76626485255E+02	-4.51820829091E+01	8.75540360016E+01	-5.96794504978E+00	3.80221103804E-01
3.01521213465E+05	-1.07109375284E+01	1.78831497607E+02	2.31493033040E+01	-1.76016258015E+02	-3.71307278194E+01	-1.19052938381E+02	-6.04842256731E+00	-1.62965234275E+00
3.01739158449E+05	-2.10942759050E+01	-8.52555605107E+01	2.29483319663E+01	-1.75744304346E+02	-4.14676621128E+01	1.22804847783E+02	-6.04939536747E+00	6.26025139394E-01
3.01957260967E+05	-2.40409548857E+01	1.03529232062E+02	2.29688588028E+01	-1.76770140623E+02	-4.19736186038E+01	2.42869723958E+01	-5.98743982005E+00	-9.88970038112E-02
3.02175521134E+05	-2.24445740246E+01	5.20104470943E+01	2.28792452126E+01	-1.76489249150E+02	-4.07577923879E+01	-1.17730810280E+02	-6.02409358227E+00	-7.58005952102E-01
3.02393939063E+05	-1.81450876781E+01	5.74183072582E+01	2.29236600357E+01	-1.76582845033E+02	-4.11190069495E+01	-1.77245535458E+02	-6.13548353672E+00	-4.63573120895E-01
3.02612514869E+05	-2.57651192259E+01	-8.08903365992E+01	2.29257429227E+01	-1.75900057774E+02	-3.62987979408E+01	-7.43168313034E+01	-5.96914087035E+00	-1.90497983083E+00
3.02831248665E+05	-1.63522241873E+01	2.71197421492E+01	2.28984348511E+01	-1.76496541787E+02	-4.68728063269E+01	5.45443533402E+01	-6.02109247287E+00	-2.86535735085E-01
3.03050140565E+05	-1.65841856921E+01	1.11264005680E+02	2.29430743241E+01	-1.76622254565E+02	-3.50130877605E+01	-6.36980807263E+00	-5.69623263165E+00	-4.57108104148E-01
3.03269190685E+05	-1.50315653506E+01	-1.15336226104E+02	2.29617905565E+01	-1.75711295249E+02	-4.31543260302E+01	-9.66557178325E+01	-5.94685191485E+00	-8.91724530787E-01
3.03488399138E+05	-2.14962790117E+01	2.03038924770E+01	2.28848067625E+01	-1.76610228350E+02	-4.34885062561E+01	-5.05647046501E+01	-5.92905145958E+00	-1.08740327171E+00
3.03707766039E+05	-1.22925033062E+01	-1.48171553498E+01	2.28472841754E+01	-1.76108314781E+02	-3.49706291502E+01	-6.08132283745E+01	-5.93340677718E+00	-1.54527310891E+00
3.03927291503E+05	-1.99164841729E+01	-5.38644122108E+01	2.28960713317E+01	-1.76327220347E+02	-3.58854253606E+01	-1.66898391778E+02	-6.24730970893E+00	-5.47444348755E-01
3.04146975643E+05	-1.47800321779E+01	3.53138234122E+01	2.28765719546E+01	-1.76654876875E+02	-4.30991961252E+01	1.61806452683E+02	-6.08028445223E+00	-4.45369981591E-01
3.04366818575E+05	-1.37130511502E+01	-2.11622926342E+01	2.28258846631E+01	-1.76105117137E+02	-4.35359090160E+01	5.53871318665E+01	-6.00419320030E+00	-1.93303545534E-01
3.04586820414E+05	-8.44953443387E+00	3.47892147884E+01	2.27427725839E+01	-1.77599701915E+02	-2.70322550455E+01	-1.00310352537E+02	-6.07945215904E+00	-5.71049676180E+00
3.04806981274E+05	-2.31997702362E+01	-6.68542821805E+01	2.29459052775E+01	-1.75955145972E+02	-3.49916929376E+01	5.85205539019E+01	-5.91053972334E+00	1.88356369866E+00
3.05027301270E+05	-1.55060447340E+01	5.94086584201E+00	2.28345646169E+01	-1.76193101183E+02	-3.77783794185E+01	4.48560961674E+00	-5.83776299111E+00	-2.93982824384E-01
3.05247780517E+05	-1.97973709796E+01	-1.87933095086E+01	2.28742383015E+01	-1.76236490667E+02	-3.93279707013E+01	-1.22137640092E+02	-6.07778374341E+00	-1.26630288924E+00
3.05468419131E+05	-1.56254539143E+01	4.30930273432E+01	2.28736819459E+01	-1.76623708354E+02	-4.25101535405E+01	1.39476562173E+02	-6.10406299488E+00	-1.93986548637E-01
3.05689217226E+05	-2.82524802298E+01	-6.39892524702E+01	2.29068003475E+01	-1.76124620278E+02	-3.68682327230E+01	-1.50997945674E+02	-6.20249624025E+00	-1.14744053784E+00
3.05910174918E+05	-1.96162153401E+01	5.66217777728E+01	2.28867212651E+01	-1.76803154520E+02	-4.26746667193E+01	-1.11732843668E+02	-6.04034306956E+00	-1.18465538097E+00
3.06131292322E+05	-1.09403936822E+01	1.53478176036E+02	2.30686717373E+01	-1.76940720102E+02	-3.05353126630E+01	5.50408019370E+01	-5.72095255365E+00	2.63385866933E+00
3.06352569554E+05	-2.25203854172E+01	-8.97605928541E+01	2.29628154810E+01	-1.76063335411E+02	-3.72594876812E+01	-1.48253717238E+02	-6.19959050410E+00	-1.33809050731E+00
3.06574006730E+05	-1.51508814377E+01	2.09244206965E+00	2.28811424039E+01	-1.76448643309E+02	-4.16470062062E+01	2.38606139444E+01	-5.91933020671E+00	6.14858713075E-02
3.06795603964E+05	-2.34999927918E+01	-4.00680682513E+01	2.28781899968E+01	-1.76285469795E+02	-3.85511762435E+01	-1.68962789687E+01	-5.82287883614E+00	-8.87598596301E-01
3.07017361372E+05	-2.67184657011E+01	-1.25517382295E+02	2.29437662375E+01	-1.76130413770E+02	-3.84878422893E+01	-4.50746968789E+01	-5.87798680816E+00	-1.05753795033E+00
3.07239279071E+05	-2.07741596269E+01	2.45049733745E+01	2.28757296127E+01	-1.76286532421E+02	-6.21877320619E+01	-1.70950989419E+02	-6.00361139177E+00	-3.43473303799E-01
3.07461357176E+05	-1.23241721429E+01	1.48057962288E+01	2.28108087462E+01	-1.76636919803E+02	-3.24527307028E+01	5.62672088343E+01	-5.79357383414E+00	1.75518460353E+00
3.07683595803E+05	-1.84088993337E+01	2.71348963121E+01	2.28806596639E+01	-1.76671412517E+02	-3.61454876631E+01	2.91090536549E+01	-5.71243289289E+00	5.43322893465E-01
3.07905995068E+05	-1.00871522951E+01	9.93887158640E+01	2.29894005009E+01	-1.77602568070E+02	-3.50784503728E+01	-9.56599767806E+00	-5.77608519444E+00	-5.90221245341E-01
3.08128555087E+05	-1.29531463901E+01	2.73029357048E+01	2.28122074085E+01	-1.76665922136E+02	-4.64085371846E+01	6.91373093053E+01	-5.96082235072E+00	-1.03811098545E-01
3.08351275976E+05	-1.38523460727E+01	3.03379656073E+00	2.28554124530E+01	-1.76610480692E+02	-3.61446625077E+01	-1.55081709509E+02	-6.26181266120E+00	-5.63629495175E-01
3.08574157853E+05	-1.56665009123E+01	-4.52359692918E+01	2.28890335184E+01	-1.75942295501E+02	-3.93153988503E+01	-1.37954768081E+02	-6.11977094627E+00	-1.10348189244E+00
3.08797200832E+05	-2.19856516447E+01	1.43210868116E+02	2.30003478061E+01	-1.76737146575E+02	-4.05519500018E+01	-1.66351146237E+02	-6.15732370898E+00	-5.07220971162E-01
3.09020405031E+05	-1.49611637191E+01	2.87394309470E+01	2.28508988994E+01	-1.76939030661E+02	-3.83555115421E+01	-8.80898637252E+01	-5.99244936408E+00	-1.34409270204E+00
3.09243770566E+05	-2.74671491418E+01	8.90262114038E+01	2.29436599586E+01	-1.76555692761E+02	-3.26539649977E+01	1.48726303065E+02	-6.37409742721E+00	8.99286022663E-01
3.09467297553E+05	-1.91819621875E+01	2.06635928197E+01	2.28592101261E+01	-1.76533560618E+02	-2.61055218203E+01	-1.45567542732E+01	-5.15805388636E+00	-1.22046779162E+00
3.09690986110E+05	-2.26814271493E+01	6.23872584072E+01	2.28979848349E+01	-1.77014481312E+02	-4.14044478565E+01	-1.41358090476E+02	-6.12803630383E+00	-5.85297211791E-01
3.09914836353E+05	-1.95229178309E+01	1.29794022906E+01	2.28534938158E+01	-1.76632995569E+02	-3.56687492849E+01	6.89093469809E+01	-5.92096104481E+00	7.41695367949E-01
3.10138848399E+05	-2.28880189102E+01	-7.91970275227E+01	2.29385496359E+01	-1.76406347303E+02	-3.48123898643E+01	-1.73243165658E+02	-6.25410867827E+00	-6.33494841274E-01
3.10363022365E+05	-2.16120127890E+01	-4.04915629929E+01	2.28969503886E+01	-1.76504936855E+02	-4.63957710761E+01	1.72537122615E+01	-5.95843933073E+00	2.45516314109E-01
3.10587358368E+05	-2.92976249943E+01	8.73245604455E+01	2.29095453060E+01	-1.76899496791E+02	-4.23110033670E+01	-1.09808164829E+02	-6.08272686813E+00	-1.30281710666E+00
3.10811856525E+05	-1.11438448277E+01	-3.41429217405E+01	2.27925961929E+01	-1.76137131793E+02	-2.87382406791E+01	7.00370262960E+01	-5.77596948646E+00	3.59321442230E+00
3.11036516954E+05	-6.88201125558E+00	6.61583792139E+01	2.28329235474E+01	-1.78202573253E+02	-3.17830027094E+01	-2.92634007679E+00	-5.47988278405E+00	-1.74103480103E-01
3.11261339771E+05	-3.65305058538E+01	5.70688531129E+01	2.29150960892E+01	-1.76848372952E+02	-4.27469872619E+01	-7.87746647946E+01	-6.01585725015E+00	-7.85956061171E-01
3.11486325094E+05	-2.02758273936E+01	3.77901667164E+01	2.29222887301E+01	-1.76810906040E+02	-3.69772219210E+01	1.52755312736E+02	-6.17198570765E+00	4.83095377028E-01
3.11711473040E+05	-1.70506510073E+01	7.39294000988E+00	2.28917557600E+01	-1.76824939621E+02	-3.93497226610E+01	-8.19185499865E+01	-6.01365030665E+00	-1.11754485205E+00
3.11936783728E+05	-2.48847874537E+01	1.04414105674E+02	2.29594075307E+01	-1.76696845489E+02	-4.29946832094E+01	1.73342670097E+02	-6.11530479915E+00	-1.37664867975E-01
3.12162257274E+05	-3.26024867687E+01	4.75030812184E+01	2.29268716289E+01	-1.76773039222E+02	-3.83594723056E+01	-1.02466693813E+02	-5.98638304607E+00	-1.47688054174E+00
3.12387893797E+05	-2.15940217033E+01	2.56001634322E+01	2.28906659015E+01	-1.76709180576E+02	-2.71574868334E+01	-9.78762575072E+01	-6.01126874083E+00	-5.97776174511E+00
3.12613693413E+05	-1.53013109351E+01	3.81693908353E+01	2.28641643008E+01	-1.77162383056E+02	-2.68172985756E+01	1.16351567434E+02	-6.38649642629E+00	4.34943229767E+00
3.12839656242E+05	-1.42228472526E+01	-3.15682375175E+01	2.28460727593E+01	-1.76199188312E+02	-3.69763057968E+01	2.12305103729E+01	-5.82255172838E+00	3.93024008588E-02
3.13065782401E+05	-1.91859677357E+01	-7.02362621070E+01	2.29074340732E+01	-1.76474975298E+02	-3.49404847326E+01	8.63537283279E+01	-6.02885225459E+00	1.54267239501E+00
3.13292072007E+05	-2.00761679703E+01	1.73743662200E+01	2.28841267059E+01	-1.76580986965E+02	-3.94348984601E+01	3.23664354801E+01	-5.84279094113E+00	2.59075224958E-01
3.13518525180E+05	-1.75240176075E+01	-2.32044830134E+00	2.28567911290E+01	-1.76647528553E+02	-3.72152311470E+01	-3.97496694956E+01	-5.84907233374E+00	-9.12828559321E-01
3.13745142038E+05	-1.92196905034E+01	5.82074231536E+01	2.28974789634E+01	-1.76958126740E+02	-3.68796395283E+01	-9.05677931126E+01	-5.98148545384E+00	-2.19008741566E+00
3.13971922698E+05	-1.79090406131E+01	-1.31486760864E+00	2.28995391719E+01	-1.76535976220E+02	-3.48802498160E+01	-2.24195772646E+01	-5.70501758733E+00	-9.64265673685E-01
3.14198867279E+05	-1.51667599166E+01	1.04458473570E+02	2.30178122182E+01	-1.77014126880E+02	-3.68927639506E+01	-1.16119666901E+01	-5.79192901875E+00	-7.91213933229E-01
3.14425975900E+05	-1.44055477893E+01	1.23958133283E+00	2.28477836797E+01	-1.76552487493E+02	-4.29744347007E+01	7.05123389062E+01	-5.98563126756E+00	-4.52362520299E-02
3.14653248680E+05	-1.56822559698E+01	2.59350050131E+01	2.28611266273E+01	-1.76676997407E+02	-3.81624984951E+01	-1.41357860296E+02	-6.11624375578E+00	-1.10745852147E+00
3.14880685736E+05	-1.94614743859E+01	1.49563526324E+02	2.29928658257E+01	-1.77125801042E+02	-3.99089799402E+01	-1.07907359764E+02	-6.07849477121E+00	-1.77508313938E+00
3.15108287188E+05	-1.68182588248E+01	6.11081030049E+01	2.28659860284E+01	-1.77294596014E+02	-3.87456332400E+01	-6.95088202303E+01	-5.90050667100E+00	-1.22013033121E+00
3.15336053154E+05	-2.26686860077E+01	3.13136625534E+01	2.28968758470E+01	-1.76817982147E+02	-3.85537404182E+01	1.24329009341E+01	-5.83872459860E+00	-2.49865495311E-01
3.15563983753E+05	-1.59517724944E+01	-5.26082499663E+01	2.28825664610E+01	-1.76374736240E+02	-4.14683203686E+01	-5.10278312544E+00	-5.88769636243E+00	-4.77023565580E-01
3.15792079105E+05	-1.46204639065E+01	4.98541503792E+00	2.28164555738E+01	-1.76862074565E+02	-3.40705236809E+01	-7.25377931076E+01	-5.95322913057E+00	-2.84644516201E+00
3.16020339328E+05	-2.16476248346E+01	1.57288160091E+01	2.28905912804E+01	-1.77051443464E+02	-4.07199253574E+01	-1.72517016116E+02	-6.23599046040E+00	-6.41987750906E-01
3.16248764542E+05	-2.15722059668E+01	-7.30917700354E+01	2.29218354929E+01	-1.76596657082E+02	-3.56482004769E+01	6.50236157944E+01	-5.96389212433E+00	1.39169053770E+00
3.16477354866E+05	-1.84001403799E+01	6.64059163805E+01	2.29294903100E+01	-1.77287266249E+02	-4.60745397694E+01	-8.18543410593E+01	-5.98520005726E+00	-1.08245479220E+00
3.16706110419E+05	-1.28435178609E+01	-1.22105801428E+01	2.28281425280E+01	-1.76519265018E+02	-3.65340211019E+01	4.95145098607E+01	-5.93150024194E+00	9.06593174432E-01
3.16935031321E+05	-2.64366807065E+01	8.18156487506E+01	2.29123696634E+01	-1.76981603252E+02	-4.50823418122E+01	-1.00053871794E+02	-5.97773246107E+00	-8.94038030097E-01
3.17164117691E+05	-1.61252198523E+01	4.39720631004E+01	2.28450345933E+01	-1.76980793375E+02	-3.39769596675E+01	8.33354865116E+01	-5.97934552676E+00	1.88795434120E+00
3.17393369648E+05	-1.82661823784E+01	-9.54178147248E+00	2.28406511383E+01	-1.76842803287E+02	-3.77861114770E+01	9.33657830584E+00	-5.80807156090E+00	3.35786137718E-01
3.17622787313E+05	-1.34647156498E+01	-5.52875241995E+01	2.28653430355E+01	-1.76033294073E+02	-4.34391085338E+01	3.22631485079E+01	-5.94789570478E+00	-8.31262225557E-03
3.17852370806E+05	-3.27754382545E+01	8.20513750926E+01	2.29619967236E+01	-1.76868188253E+02	-4.46619046123E+01	-1.50190270198E+02	-6.14734178415E+00	-7.80312298596E-01
3.18082120245E+05	-1.84749797177E+01	8.13098488575E+01	2.29413551512E+01	-1.77136928093E+02	-3.78385492512E+01	-4.65915247340E+01	-5.84106242445E+00	-1.47921022834E+00
3.18312035752E+05	-1.84279219602E+01	3.15776952945E+01	2.28982523223E+01	-1.77434653883E+02	-4.48995954379E+01	-1.65991983720E+02	-6.11841064292E+00	-4.25651789811E-01
3.18542117445E+05	-2.68585973727E+01	-9.36447521262E+01	2.29265191538E+01	-1.76461378047E+02	-4.05217324961E+01	5.30179272322E+01	-5.90668163910E+00	4.54424439246E-01
3.18772365446E+05	-1.25151690592E+01	9.40686537706E+00	2.27913235748E+01	-1.76993593710E+02	-4.39264013214E+01	1.72012913627E+02	-6.16939671641E+00	-5.58204244702E-01
3.19002779874E+05	-1.73283349010E+01	6.02781172172E+01	2.29273819054E+01	-1.77301894305E+02	-4.15621540626E+01	-8.66675233890E+01	-6.10715417214E+00	-1.54031805416E+00
3.19233360850E+05	-1.84591229732E+01	4.35932781271E+01	2.29157033190E+01	-1.77497868676E+02	-4.49523974172E+01	6.95619906587E+01	-5.91700417076E+00	1.10433942870E-01
3.19464108494E+05	-1.62216392981E+01	4.76845856233E+01	2.28908020731E+01	-1.77271799201E+02	-4.59805889575E+01	-5.70154867472E+01	-5.98204210174E+00	-8.01517067096E-01
3.19695022927E+05	-2.13129826425E+01	3.72594890997E+00	2.28671823663E+01	-1.77014886026E+02	-3.99631455552E+01	1.62299937325E+01	-5.90568824849E+00	2.30698483658E-02
3.19926104268E+05	-1.73492672307E+01	2.81407907539E+01	2.28705435693E+01	-1.77510638283E+02	-3.50954850378E+01	7.23885582041E+01	-5.90963685276E+00	1.83696216191E+00
3.20157352640E+05	-2.34351582471E+01	2.24695827528E+01	2.29231187164E+01	-1.76885177532E+02	-4.33958756210E+01	-8.60588008531E+00	-5.94309788488E+00	-2.47731537743E-01
3.20388768162E+05	-1.53341952732E+01	-7.03073802660E+01	2.28991305770E+01	-1.76314835053E+02	-3.91328968739E+01	9.33080420518E+01	-6.07083433294E+00	7.10260845602E-01
3.20620350955E+05	-1.36352097250E+01	1.75765724085E+02	2.30760272501E+01	-1.76970386376E+02	-4.86321934383E+01	-7.67973618354E+01	-6.02560221510E+00	-1.19403025007E+00
3.20852101140E+05	-1.65597314194E+01	-1.32455773515E+00	2.28944759883E+01	-1.76846323926E+02	-3.84982747749E+01	-1.10359975014E+02	-6.04023736797E+00	-1.35538442645E+00
3.21084018839E+05	-1.55702770620E+01	2.14971744081E+01	2.28537572914E+01	-1.76955107977E+02	-4.69816311760E+01	-4.57216129287E+01	-5.98299759068E+00	-7.57920786147E-01
3.21316104172E+05	-1.42282443246E+01	3.80522169675E-01	2.28187086142E+01	-1.76664092929E+02	-4.27387745815E+01	3.12021338855E+01	-5.95089104436E+00	6.96522567237E-02
3.21548357261E+05	-2.01081298173E+01	7.51582332894E+01	2.29255671320E+01	-1.77316761053E+02	-4.18540225558E+01	-1.50153179973E+02	-6.11804083918E+00	-1.12398164948E+00
3.21780778226E+05	-2.40529293132E+01	3.73297118317E+01	2.28906980271E+01	-1.77231540985E+02	-3.91836039639E+01	-1.11453757072E+02	-6.01595688715E+00	-1.28321048833E+00
3.22013367189E+05	-1.84542100230E+01	1.30290090101E+02	2.29677021927E+01	-1.77539461344E+02	-3.61791044690E+01	1.33940492565E+02	-6.09331329584E+00	6.16784079205E-01
3.22246124272E+05	-1.24926064244E+01	-1.29455679271E+02	2.30513528802E+01	-1.76421950215E+02	-2.99817338156E+01	1.04346509485E+02	-6.19898363123E+00	3.28400826418E+00
3.22479049596E+05	-1.55817191455E+01	-2.57346030044E+01	2.28542643282E+01	-1.76717722233E+02	-4.19285664244E+01	-1.45842802534E+02	-6.13764235341E+00	-5.76583059636E-01
3.22712143282E+05	-2.21616915391E+01	-1.57504184787E+02	2.29811623499E+01	-1.76978139214E+02	-3.41440296882E+01	-8.29082084672E+01	-5.91132367734E+00	-1.96069939745E+00
3.22945405453E+05	-1.69072682284E+01	4.63389255452E+01	2.28866025562E+01	-1.77519883548E+02	-4.08971483653E+01	8.65549498929E+01	-6.01519141635E+00	2.33651884808E-01
3.23178836230E+05	-2.62183090052E+01	1.99844411166E+01	2.29101482172E+01	-1.77069682876E+02	-4.36371324759E+01	-1.55702105823E+02	-6.07583569517E+00	-6.67630322970E-01
3.23412435735E+05	-2.75783321242E+01	4.48230485408E+01	2.29121787849E+01	-1.77347712103E+02	-3.56639379099E+01	6.26275234049E+01	-5.94209567724E+00	1.12308818164E+00
3.23646204090E+05	-2.83960040181E+01	-1.58473383271E+02	2.29559608696E+01	-1.77050923592E+02	-3.93097511521E+01	-1.26210372639E+02	-6.14284547618E+00	-1.69196675810E+00
3.23880141417E+05	-1.25363446592E+01	1.49844596010E+01	2.27989817410E+01	-1.77105386345E+02	-2.94919959241E+01	1.12861745043E+02	-6.17104618864E+00	2.73825340840E+00
3.24114247838E+05	-1.55748285637E+01	-4.37394285288E+01	2.28190148675E+01	-1.76559053109E+02	-3.46899924094E+01	-5.58557071311E+01	-5.87681855517E+00	-1.90020628288E+00
3.24348523475E+05	-2.28598825247E+01	2.26196501400E+01	2.28824774009E+01	-1.77154169285E+02	-4.30084898269E+01	-6.06424934151E+01	-5.99275880217E+00	-9.77960589000E-01
3.24582968451E+05	-2.09046219423E+01	5.49353830739E+01	2.29297557801E+01	-1.77303183372E+02	-4.26223654523E+01	-5.40983317786E+01	-5.94055741969E+00	-1.03357279088E+00
3.24817582888E+05	-2.12338605726E+01	-1.25190888929E+02	2.29542684698E+01	-1.76646084007E+02	-4.72585555254E+01	2.39888975886E+01	-5.97184641849E+00	-3.94777451244E-01
3.25052366909E+05	-1.31349840888E+01	6.89199140519E+01	2.29140069938E+01	-1.77562094012E+02	-3.45534031199E+01	-1.30955033643E+02	-6.17718754381E+00	-1.90438797082E+00
3.25287320635E+05	-1.92996433668E+01	4.50771499986E+00	2.28638835629E+01	-1.77136592118E+02	-4.04526842332E+01	1.44930520214E+02	-6.12344036452E+00	-1.08432166423E-01
3.25522444191E+05	-1.72127864021E+01	3.08976750638E+00	2.28178260496E+01	-1.77043099597E+02	-3.57123634932E+01	4.38130765817E+01	-5.86289305087E+00	8.88566503708E-01
3.25757737698E+05	-1.41889062677E+01	-3.06477131923E+01	2.28538261929E+01	-1.76683151723E+02	-3.70948490729E+01	-7.80552980226E+01	-5.97133992824E+00	-1.80669744513E+00
3.25993201280E+05	-1.90289198533E+01	1.06252187064E+01	2.28710946847E+01	-1.77277510194E+02	-4.23429805095E+01	2.17381070528E+01	-5.94055874938E+00	-1.31834242677E-02
3.26228835058E+05	-2.20743407711E+01	-7.29574264409E+01	2.29199178227E+01	-1.76881997643E+02	-3.34704175708E+01	-9.37777900792E+00	-5.67721211061E+00	-5.96161492586E-01
