# Hz S DB R 50
! CMT, M5065, 19127446, 24.2.4/2
! Date: 11/1/2024 3:09:01 PM
! Data: Format (Calibration Info)
! Freq	S11:dB/Ang(F2)	S21:dB/Ang(F2)	S12:dB/Ang(F2)	S22:dB/Ang(F2)
3.00000000000E+05	-1.29251575089E+01	-5.91361887033E+01	5.45800314525E+00	-1.76723977902E+02	-4.41824937104E+01	-6.41508372695E+01	-6.05739983642E+00	-1.87582266107E-01
3.00216845423E+05	-1.59427815096E+01	3.79593301413E+01	5.45605413488E+00	-1.77914911616E+02	-3.82075049473E+01	-1.24677812238E+02	-6.04298736134E+00	-4.31676230497E-01
3.00433847586E+05	-1.93667160934E+01	1.06595159291E+02	5.56418213909E+00	-1.78076527400E+02	-4.64105787137E+01	1.35626566426E+02	-6.05668308005E+00	-1.40699488037E-01
3.00651006602E+05	-1.95342104799E+01	2.37875455669E+01	5.42683940423E+00	-1.78324023080E+02	-3.94024388377E+01	-8.39677206123E+01	-6.00821983462E+00	-4.99390063476E-01
3.00868322584E+05	-8.42870692818E+00	3.34369485993E+01	5.27497640444E+00	-1.78655143355E+02	-4.39844509947E+01	-1.32135449625E+02	-6.03226439038E+00	-3.72902415171E-01
3.01085795647E+05	-1.76549559737E+01	3.13464797688E+01	5.46727778586E+00	-1.78174817944E+02	-4.20980327750E+01	7.39522238105E+01	-6.02207954756E+00	6.55802096022E-02
3.01303425902E+05	-1.84298993385E+01	5.97131742518E+01	5.50149884717E+00	-1.78139602290E+02	-5.78914129206E+01	1.12687999594E+02	-6.03862205015E+00	-2.95177909563E-01
3.01521213465E+05	-1.70738989410E+01	6.61283831305E+01	5.50441430540E+00	-1.78035843443E+02	-4.42945058860E+01	-3.22727038413E+01	-6.02530102370E+00	-2.24366689538E-01
3.01739158449E+05	-1.71744128541E+01	3.38892880653E+01	5.43724540868E+00	-1.78131097323E+02	-3.63404494013E+01	3.24262569570E+01	-5.98507805340E+00	1.09244746796E-01
3.01957260967E+05	-1.82284605659E+01	3.29448883860E+01	5.43466380277E+00	-1.77910246766E+02	-6.24515130491E+01	-1.54457845254E+02	-6.05446778753E+00	-2.76602688543E-01
3.02175521134E+05	-1.25982671866E+01	2.49115892999E+01	5.34784898473E+00	-1.78353027555E+02	-4.79594993071E+01	2.40878629847E+01	-6.04138049814E+00	2.17611140798E-02
3.02393939063E+05	-1.44630530785E+01	8.18147623929E+01	5.50934524083E+00	-1.78398651258E+02	-4.21329544493E+01	4.38121951273E+01	-6.03112451562E+00	1.23702641278E-02
3.02612514869E+05	-1.58685255843E+01	2.12848036879E+01	5.48802345138E+00	-1.77742810184E+02	-3.76137432466E+01	-9.67893674061E+01	-6.02903750675E+00	-4.27600980695E-01
3.02831248665E+05	-2.45700389489E+01	-1.17744709113E+02	5.46165138754E+00	-1.77490258845E+02	-4.68858116109E+01	-6.46332208401E+01	-6.01699759180E+00	-2.08121073521E-01
3.03050140565E+05	-2.00926351974E+01	2.75408717664E+01	5.43153771152E+00	-1.77773811767E+02	-4.66590062933E+01	1.51358305702E+02	-6.04119322337E+00	-1.99027404169E-01
3.03269190685E+05	-2.41715080022E+01	-1.58419604498E+02	5.57352964275E+00	-1.77732632080E+02	-4.44274848831E+01	8.94840185663E+00	-6.02606061153E+00	-2.67187693228E-01
3.03488399138E+05	-1.85819728081E+01	5.93151332062E+01	5.46177542373E+00	-1.78253175687E+02	-3.40151787224E+01	1.14204572150E+02	-6.07371927220E+00	1.68753037144E-01
3.03707766039E+05	-2.89661952144E+01	3.48922066116E+01	5.51630378632E+00	-1.77622109580E+02	-4.19836929234E+01	-1.09562395888E+02	-6.04193971739E+00	-2.53583350408E-01
3.03927291503E+05	-2.25461816654E+01	1.73593314961E+02	5.58183481458E+00	-1.77652006417E+02	-4.36918360039E+01	6.33752560822E+01	-6.03046495639E+00	-1.84320358313E-01
3.04146975643E+05	-1.76343055826E+01	4.86805433688E+01	5.44158988638E+00	-1.78446880890E+02	-3.68086802412E+01	4.94574556865E+01	-6.02217216018E+00	7.42688758297E-02
3.04366818575E+05	-1.81930258508E+01	-2.66335030369E+01	5.44847270278E+00	-1.77473817399E+02	-4.16994194604E+01	1.25619692453E+02	-6.05735344741E+00	2.51236022738E-02
3.04586820414E+05	-2.25104587783E+01	5.20737069189E+01	5.50600375231E+00	-1.77678868133E+02	-3.95795318468E+01	5.48442882507E+01	-6.02825545665E+00	1.14196800271E-01
3.04806981274E+05	-1.87816436156E+01	2.57898288085E+01	5.39297584273E+00	-1.77806400624E+02	-4.18685330558E+01	1.06152082448E+02	-6.04707486862E+00	-1.64069026647E-01
3.05027301270E+05	-1.73109709321E+01	-2.70710830713E+01	5.39400839847E+00	-1.77665263046E+02	-4.28645176991E+01	-1.57980693947E+02	-6.06616469164E+00	-2.63994558628E-01
3.05247780517E+05	-2.06771129810E+01	-5.18952673928E+00	5.47104550463E+00	-1.77672219741E+02	-4.65275150968E+01	-1.41196273164E+02	-6.04926916728E+00	-3.12458126626E-01
3.05468419131E+05	-2.25934171352E+01	1.73602610204E+02	5.52849224263E+00	-1.77863691507E+02	-4.69174661234E+01	4.20861197966E+01	-6.04109800129E+00	-6.23036481139E-02
3.05689217226E+05	-3.41032744890E+01	3.80283020092E+01	5.52676146554E+00	-1.77793277297E+02	-4.85857196735E+01	-1.61372811043E+01	-6.04939866851E+00	-3.02873665472E-01
3.05910174918E+05	-2.50697833144E+01	-1.52156196129E+01	5.48351353034E+00	-1.77593657552E+02	-4.06530562627E+01	-2.95595282759E+01	-6.02535173690E+00	-3.16207586494E-01
3.06131292322E+05	-1.82914436902E+01	6.86063190641E+01	5.55341237829E+00	-1.77922921759E+02	-4.16968565942E+01	-4.90053318602E+01	-6.03451982697E+00	-3.60880222906E-01
3.06352569554E+05	-1.77856783020E+01	1.46328077803E+01	5.43947035936E+00	-1.77994048796E+02	-5.05843532871E+01	-5.73242802990E+01	-6.02553422421E+00	-2.67949054215E-01
3.06574006730E+05	-2.05927472118E+01	3.88887086274E+01	5.44482350282E+00	-1.77751317090E+02	-4.16683458432E+01	6.14755574675E+00	-6.01799791902E+00	-2.64449212979E-01
3.06795603964E+05	-1.24165787207E+01	3.11708898177E+01	5.41198095807E+00	-1.78331146365E+02	-4.08813440651E+01	-1.40983270659E+02	-6.06423380763E+00	-2.89712059022E-01
3.07017361372E+05	-2.33924255893E+01	5.51813691662E+01	5.51426329794E+00	-1.78130907016E+02	-3.71603420464E+01	6.47145985450E+00	-5.99555808776E+00	-1.72095244448E-01
3.07239279071E+05	-2.01785049023E+01	3.91925924834E+01	5.47223189574E+00	-1.77649254741E+02	-4.19943146076E+01	-1.23931018158E+02	-6.04513284660E+00	-4.22078017059E-01
3.07461357176E+05	-1.69599855171E+01	-4.48804621651E+01	5.45810935618E+00	-1.77368000062E+02	-4.35130862119E+01	-9.31546249217E+01	-6.02469685694E+00	-3.21315292508E-01
3.07683595803E+05	-2.19551295171E+01	6.44506476702E+01	5.47858085656E+00	-1.78123657870E+02	-3.24687085065E+01	-3.53829861063E+01	-5.97184818280E+00	-4.14658203092E-01
3.07905995068E+05	-2.70858298426E+01	-3.04577873418E+01	5.48689224732E+00	-1.77896097450E+02	-5.43236806991E+01	1.54292900492E+02	-6.03037706926E+00	-1.82420093173E-01
3.08128555087E+05	-2.15516635597E+01	3.39645965839E+00	5.48112762227E+00	-1.77781942663E+02	-4.01849964831E+01	-7.63100180469E+01	-6.04165046976E+00	-2.91611316481E-01
3.08351275976E+05	-1.71192970105E+01	6.86651185512E+01	5.50702560091E+00	-1.77758428576E+02	-4.43900791055E+01	-6.88693956602E+00	-6.03497396862E+00	-1.94703609048E-01
3.08574157853E+05	-1.42335555903E+01	4.90213597900E+01	5.40295401670E+00	-1.78363707445E+02	-4.60911494223E+01	-1.36215515518E+02	-6.05573002349E+00	-2.07456661164E-01
3.08797200832E+05	-2.08862160346E+01	1.16027467100E+02	5.56883617010E+00	-1.78081939348E+02	-4.66328831251E+01	-1.67243281278E+02	-6.05540036401E+00	-3.05669370693E-01
3.09020405031E+05	-3.23569796139E+01	-6.44669531360E+01	5.48254559024E+00	-1.77748388426E+02	-5.87461227859E+01	4.97596667876E+01	-6.03590882115E+00	-1.32223052368E-01
3.09243770566E+05	-2.46591842290E+01	-5.20546736721E+01	5.45531826664E+00	-1.76977108194E+02	-4.19015866396E+01	-7.17581630778E+01	-6.03126456173E+00	-2.98909205801E-01
3.09467297553E+05	-2.51270665741E+01	1.27741220151E+02	5.48773601359E+00	-1.77888512342E+02	-3.90354631188E+01	-1.19841793365E+02	-6.04981782260E+00	-2.26874254178E-01
3.09690986110E+05	-1.64529031286E+01	4.03161319944E+01	5.44226440773E+00	-1.78097410264E+02	-4.06402689129E+01	1.24419422813E+02	-6.04339353415E+00	-3.33942160743E-02
3.09914836353E+05	-1.87089551510E+01	-1.32292386961E+01	5.44716827887E+00	-1.77739755070E+02	-4.10152317188E+01	-4.50924411419E+01	-6.03003087695E+00	-2.51639712519E-01
3.10138848399E+05	-2.71482655562E+01	-2.11286166780E+00	5.42616492778E+00	-1.77687934964E+02	-3.67815928642E+01	-1.18181756362E+02	-6.07977606934E+00	-3.58127756527E-01
3.10363022365E+05	-2.91322560834E+01	2.45272448644E+01	5.55261350531E+00	-1.77635922372E+02	-3.23267636619E+01	-4.03143846092E+01	-5.99561790449E+00	-4.31510921684E-01
3.10587358368E+05	-2.31187519656E+01	1.18944595431E+02	5.49222279160E+00	-1.77734416537E+02	-4.93775215265E+01	-1.78431267719E+02	-6.03249138967E+00	-3.77489279933E-01
3.10811856525E+05	-2.11525553923E+01	4.98042466666E+01	5.49530732136E+00	-1.77852502615E+02	-4.62627749749E+01	-2.10092233731E+01	-6.05393979811E+00	-3.44504603040E-01
3.11036516954E+05	-1.61426886389E+01	5.00061185946E+00	5.45739099443E+00	-1.77957592529E+02	-4.61992791224E+01	-7.80099937416E+01	-6.01936331621E+00	-2.54835089640E-01
3.11261339771E+05	-1.95208713890E+01	-1.78847478894E+01	5.49286588344E+00	-1.77598536651E+02	-4.79145477082E+01	-1.52193210551E+02	-6.04642528816E+00	-3.84153798576E-01
3.11486325094E+05	-1.83807059113E+01	3.62605595049E+01	5.48751196928E+00	-1.78127047102E+02	-4.76311189421E+01	-1.71397282975E+02	-6.03344798350E+00	-2.42369973015E-01
3.11711473040E+05	-1.96961323714E+01	4.24466225991E+01	5.48380560114E+00	-1.77858951763E+02	-4.70009796331E+01	-4.33460823358E+01	-6.00052263848E+00	-2.65779985966E-01
3.11936783728E+05	-1.50899619654E+01	-5.25926826954E+01	5.45921782155E+00	-1.76967199568E+02	-3.39044442976E+01	1.31047787312E+02	-6.05409417151E+00	-9.18749426027E-02
3.12162257274E+05	-1.77006944445E+01	-2.20543956815E+00	5.46703340775E+00	-1.77949167803E+02	-3.99829522861E+01	-1.00065876216E+02	-6.01505600078E+00	-2.91530874722E-01
3.12387893797E+05	-1.55424952216E+01	5.32026152798E+01	5.42509180589E+00	-1.78193592963E+02	-3.81373444878E+01	-7.83975066221E+00	-6.02181346651E+00	-2.46538892920E-01
3.12613693413E+05	-1.97837929369E+01	-1.43480634605E+01	5.46544151866E+00	-1.77648175075E+02	-3.68810312401E+01	-2.37386236607E+01	-5.99029918123E+00	-2.59090000207E-01
3.12839656242E+05	-1.76029869808E+01	-5.03448377039E+01	5.48492016149E+00	-1.77081172831E+02	-4.34579263736E+01	1.37919613109E+02	-6.06279346663E+00	-1.28373971571E-01
3.13065782401E+05	-2.65436674585E+01	1.39897012057E+02	5.55384198862E+00	-1.77940767630E+02	-3.74793588597E+01	-1.09122491831E+02	-6.02219089012E+00	-3.80864741114E-01
3.13292072007E+05	-3.36451635683E+01	1.49073230576E+02	5.52810497143E+00	-1.77843585026E+02	-4.82087371583E+01	-1.47424497505E+02	-6.04244188936E+00	-2.63803768361E-01
3.13518525180E+05	-1.72106128666E+01	-1.52944635974E+02	5.61509916639E+00	-1.77629078634E+02	-5.02910596916E+01	3.28103623760E+01	-6.03039730916E+00	-3.12219304247E-01
3.13745142038E+05	-1.49081814033E+01	4.36486646227E+01	5.46526722721E+00	-1.78203500301E+02	-5.63584098570E+01	1.13283253792E+02	-6.03656330005E+00	-2.20239815159E-01
3.13971922698E+05	-1.71557267813E+01	-9.15705182816E+00	5.39043225030E+00	-1.77741041338E+02	-5.00248064444E+01	1.37603167630E+02	-6.04103270909E+00	-2.66539186338E-01
3.14198867279E+05	-2.10080684608E+01	3.47571069231E+01	5.44945895196E+00	-1.78168932766E+02	-4.02520387507E+01	1.31786958448E+02	-6.06040115155E+00	-1.83081927947E-02
3.14425975900E+05	-1.35682800509E+01	6.96511126485E+01	5.45122676755E+00	-1.78795525193E+02	-4.14689083691E+01	3.22875284069E+01	-6.03410177587E+00	-2.53040576443E-01
3.14653248680E+05	-1.87839243550E+01	2.90406241897E+01	5.50896476784E+00	-1.77857815602E+02	-3.43277706878E+01	4.88823571922E+01	-6.00278333919E+00	1.59577001927E-01
3.14880685736E+05	-1.68816299098E+01	2.28713005819E+01	5.45662265701E+00	-1.77892800008E+02	-5.20085977070E+01	-3.99226505585E+01	-6.03668682981E+00	-1.79261309997E-01
3.15108287188E+05	-2.07506561992E+01	3.36033909511E+00	5.47572902394E+00	-1.77958549491E+02	-4.50265145866E+01	1.57861039309E+02	-6.05219627621E+00	-2.45622112133E-01
3.15336053154E+05	-1.04521327152E+01	5.17720474487E+01	5.40117666717E+00	-1.79036617942E+02	-3.99785949635E+01	5.94853308563E+01	-6.00725361755E+00	-2.42342750236E-01
3.15563983753E+05	-3.18707020876E+01	1.92679572075E+01	5.48404958976E+00	-1.77994009091E+02	-4.22608367139E+01	9.14792611786E+01	-6.01389374088E+00	-3.17917884009E-02
3.15792079105E+05	-1.99599806739E+01	5.82188622806E+01	5.47484907956E+00	-1.78238790368E+02	-3.89012915957E+01	-1.28868438690E+01	-6.00127345329E+00	3.55113091623E-02
3.16020339328E+05	-1.89326198968E+01	2.06776217940E+01	5.48082563297E+00	-1.77859087085E+02	-4.08115671423E+01	4.83803195869E+01	-6.01678250513E+00	-2.77050432077E-01
3.16248764542E+05	-2.81341199179E+01	-1.07345309101E+02	5.54809950485E+00	-1.77717334602E+02	-3.74543011481E+01	2.43024927851E+01	-5.99241591636E+00	-3.62709879768E-02
3.16477354866E+05	-2.89007717223E+01	3.80403686637E+01	5.46663971749E+00	-1.78144379817E+02	-4.86577193815E+01	-1.76160605666E+02	-6.07687440312E+00	-2.12594155298E-01
3.16706110419E+05	-2.72613517666E+01	2.57338415033E+01	5.50254471979E+00	-1.77946768912E+02	-4.50992471360E+01	-1.00124667319E+02	-6.08640793062E+00	-1.80328579839E-01
3.16935031321E+05	-1.89423504920E+01	3.73758136633E+01	5.43206876033E+00	-1.78262103993E+02	-3.80322762086E+01	4.52912168505E+01	-5.98729418243E+00	-1.64671958033E-01
3.17164117691E+05	-1.98465346573E+01	2.80538002816E+01	5.43467137294E+00	-1.78389094960E+02	-3.42644729895E+01	7.34669960429E+01	-5.99644713525E+00	2.04526050633E-01
3.17393369648E+05	-1.57584055229E+01	2.44341336831E+01	5.46529634129E+00	-1.78231362067E+02	-4.68233859734E+01	1.67498918158E+02	-6.07002699011E+00	-2.39436481075E-01
3.17622787313E+05	-2.07134336862E+01	4.88756367891E+01	5.54884092009E+00	-1.78613801973E+02	-4.59269640290E+01	5.79236687839E+01	-6.02240296516E+00	-1.17651084662E-01
3.17852370806E+05	-1.31406259234E+01	7.91066359191E+01	5.52863564308E+00	-1.78802923333E+02	-4.07117505615E+01	-1.33399386630E+02	-6.02707752184E+00	-3.31042235072E-01
3.18082120245E+05	-1.67401017206E+01	4.23846408553E+01	5.44997107984E+00	-1.78352308243E+02	-3.43812729998E+01	-6.20552061656E+01	-5.99698374100E+00	-6.39126228045E-01
3.18312035752E+05	-1.67422455445E+01	4.82987050101E+01	5.48022256141E+00	-1.78495854825E+02	-3.52192359232E+01	3.30134491615E+01	-6.01391889103E+00	-4.60594770617E-02
3.18542117445E+05	-1.66432940575E+01	-1.62719645006E+01	5.42151287047E+00	-1.77307905241E+02	-4.63210202444E+01	-1.61016533665E+02	-6.03799229458E+00	-1.56995287241E-01
3.18772365446E+05	-1.49453016219E+01	5.30306905681E+01	5.51678527060E+00	-1.78678334476E+02	-4.31571588152E+01	-2.65761729154E+01	-6.02294517861E+00	-2.72660580419E-01
3.19002779874E+05	-2.13492482819E+01	-1.14981767500E+01	5.43167801327E+00	-1.78009229632E+02	-3.96240724542E+01	-1.17897486995E+02	-6.08493909089E+00	-4.90560569411E-01
3.19233360850E+05	-1.87841085667E+01	7.67552083282E+01	5.51807517256E+00	-1.78161350475E+02	-4.43249851242E+01	-8.81876167809E+01	-6.03123387962E+00	-2.50257001099E-01
3.19464108494E+05	-1.70116976698E+01	3.60289508555E+01	5.37459904125E+00	-1.78126092672E+02	-4.38342295006E+01	-1.21282676755E+01	-6.03613123219E+00	-3.49655590757E-01
3.19695022927E+05	-2.42209220059E+01	4.63755727163E+01	5.48629731581E+00	-1.78377913600E+02	-4.31518187469E+01	1.16326557619E+01	-6.05304963193E+00	-8.09048202447E-02
3.19926104268E+05	-2.19204008576E+01	3.67252952668E+01	5.53467681787E+00	-1.77998866411E+02	-3.75553067076E+01	-6.45597421835E+01	-6.01514441975E+00	-3.85737329592E-01
3.20157352640E+05	-2.00094835505E+01	5.38470895082E+01	5.52152143332E+00	-1.78130879500E+02	-4.78249479578E+01	-1.00905366054E+01	-6.02171661704E+00	-2.47376710057E-01
3.20388768162E+05	-2.59524392761E+01	-7.78796684958E-02	5.48294694048E+00	-1.78086293506E+02	-5.32030117721E+01	4.81990265412E+01	-6.03786370919E+00	-3.67143937742E-01
3.20620350955E+05	-1.00039315844E+01	2.21841360417E+01	5.24072765820E+00	-1.78253361710E+02	-3.77857632155E+01	-1.65776966081E+02	-6.07281421933E+00	-2.79837031387E-01
3.20852101140E+05	-2.11452407148E+01	8.71876522126E+01	5.48956565865E+00	-1.78454404096E+02	-4.24607756872E+01	1.31996669236E+02	-6.04670010702E+00	-5.42700282460E-02
3.21084018839E+05	-2.18655575626E+01	4.19496239653E+00	5.46672267635E+00	-1.77997014561E+02	-4.80267855078E+01	-6.05108336273E+01	-6.01229796328E+00	-2.03166561514E-01
3.21316104172E+05	-1.83585238072E+01	1.46934782248E+02	5.56635764679E+00	-1.78039458554E+02	-3.74610243831E+01	-3.41082437364E+00	-6.03645531156E+00	-2.86429437245E-01
3.21548357261E+05	-1.52847337201E+01	1.11906129806E+02	5.52575835386E+00	-1.78640869895E+02	-3.60412620483E+01	3.67144631051E+01	-5.99231866453E+00	-1.35426696759E-01
3.21780778226E+05	-2.30002041494E+01	4.90240438384E+01	5.48629870007E+00	-1.78168911013E+02	-3.82335170899E+01	1.45058263069E+02	-6.04114225239E+00	-8.72002527562E-02
3.22013367189E+05	-3.11639418932E+01	1.96429549896E+01	5.48665031771E+00	-1.78017751412E+02	-4.81587814394E+01	7.45419120850E+01	-6.05057228511E+00	-1.53590247117E-01
3.22246124272E+05	-1.44456497694E+01	1.42030001707E+01	5.41582710773E+00	-1.77944895418E+02	-4.16806852069E+01	-1.46827510707E+02	-6.03290089044E+00	-4.18770047612E-01
3.22479049596E+05	-1.19121869974E+01	5.12888237683E+00	5.28006672572E+00	-1.78048916415E+02	-4.31138390701E+01	-1.48400602067E+02	-6.04420625522E+00	-3.08982205661E-01
3.22712143282E+05	-1.79677570042E+01	5.80620869949E+01	5.44249406233E+00	-1.78311989052E+02	-4.77667136185E+01	2.91740678559E+01	-6.04317049823E+00	-1.29662276047E-02
3.22945405453E+05	-2.51917357809E+01	-4.97697213760E+01	5.49605123829E+00	-1.77747831214E+02	-3.97281281410E+01	1.61181861004E+01	-5.99955955844E+00	-3.05318290930E-01
3.23178836230E+05	-1.67954025619E+01	-9.25833270198E-01	5.37511045696E+00	-1.78474881971E+02	-5.30358649906E+01	1.14130362866E+02	-6.02099330405E+00	-1.85528086099E-01
3.23412435735E+05	-1.88441667585E+01	-1.39189481368E+02	5.47949039596E+00	-1.77670560506E+02	-3.58997953006E+01	-1.18673011974E+02	-6.07342012531E+00	-4.39930794758E-01
3.23646204090E+05	-1.78736561911E+01	-4.16199809522E+01	5.48181209248E+00	-1.77874314359E+02	-4.68185324151E+01	1.42500033540E+02	-6.05166000949E+00	-1.72348627010E-01
3.23880141417E+05	-3.25566940806E+01	-1.26858151267E+01	5.47631003179E+00	-1.78064715536E+02	-4.24865498812E+01	-1.73711581065E+02	-6.04472962414E+00	-2.41603856337E-01
3.24114247838E+05	-1.05017110473E+01	-1.03694822258E+01	5.32241527367E+00	-1.77935039289E+02	-4.75816004121E+01	1.89861202377E+01	-6.03268734109E+00	-1.49635771069E-01
3.24348523475E+05	-2.44897685368E+01	3.99495301367E+01	5.51619028699E+00	-1.78244366535E+02	-2.99288100211E+01	3.05776533071E+01	-5.95573583657E+00	1.02814291664E-01
3.24582968451E+05	-1.63189186860E+01	4.07387082416E+01	5.44146874430E+00	-1.78386781399E+02	-4.73596079558E+01	1.46657412375E+02	-6.02868229735E+00	-1.13953235473E-01
3.24817582888E+05	-2.08312002381E+01	-5.16088302662E+00	5.46708952925E+00	-1.77846197067E+02	-4.13150360540E+01	-1.26952535202E+02	-6.01402569737E+00	-2.20499784780E-01
3.25052366909E+05	-1.59211533444E+01	-1.58126753252E+01	5.43333874451E+00	-1.77484472778E+02	-4.86425386142E+01	-2.46253120438E+01	-6.05260074074E+00	-4.95650861509E-01
3.25287320635E+05	-1.89855325869E+01	2.78976306211E+01	5.46463149552E+00	-1.78402478409E+02	-3.59407038866E+01	-1.50127522338E+02	-6.09644286711E+00	-3.33461248874E-01
3.25522444191E+05	-2.65012984995E+01	4.54870344226E+01	5.50432403503E+00	-1.78564115294E+02	-3.67349725660E+01	-1.00485568069E+02	-6.05991049589E+00	-2.92612892604E-01
3.25757737698E+05	-2.10373506429E+01	-2.69181487237E+00	5.46590315140E+00	-1.78124160322E+02	-4.02067822483E+01	1.62402334162E+02	-6.07764178695E+00	-2.54011502921E-01
3.25993201280E+05	-1.76086155332E+01	-5.54654348249E+01	5.48083666191E+00	-1.77655223951E+02	-3.83984852391E+01	-4.08578962196E+01	-6.03358059643E+00	-3.04327788301E-01
3.26228835058E+05	-1.66995692691E+01	-1.38706170041E+01	5.44528975321E+00	-1.78033448514E+02	-3.40221864963E+01	-2.04043615582E+01	-6.01107850187E+00	-4.46032801819E-01
