# Hz S DB R 50
! CMT, M5065, 19127446, 24.2.4/2
! Date: 11/1/2024 3:20:47 PM
! Data: Format (Calibration Info)
! Freq	S11:dB/Ang(F2)	S21:dB/Ang(F2)	S12:dB/Ang(F2)	S22:dB/Ang(F2)
3.00000000000E+05	-2.58080978085E+01	8.17992462133E+01	7.58987361118E+00	-1.77641039322E+02	-3.42994786085E+01	1.52182265799E+01	-5.98823858287E+00	-3.78371772875E-01
3.00216845423E+05	-3.05239782154E+01	4.77920548844E+01	7.55843771237E+00	-1.77571756800E+02	-4.08891832605E+01	2.33277173533E+01	-5.99838227713E+00	-7.75555547434E-02
3.00433847586E+05	-1.84673583881E+01	5.68911779513E+01	7.56598780676E+00	-1.78081912220E+02	-4.12738110637E+01	-5.15557038497E+01	-6.00201427188E+00	-4.95336728166E-01
3.00651006602E+05	-2.80183871493E+01	-1.33830887457E+02	7.78075177623E+00	-1.76986515902E+02	-3.30393218211E+01	-4.57130793385E+01	-5.99789409333E+00	-6.26687374892E-01
3.00868322584E+05	-1.86439389183E+01	-1.25262025071E+01	7.84574110258E+00	-1.77784039758E+02	-4.61053003989E+01	-1.64285497486E+02	-6.04233570316E+00	-3.19308399745E-01
3.01085795647E+05	-3.27871084741E+01	1.22939334460E+02	7.82381826183E+00	-1.77691543654E+02	-3.80957021364E+01	-3.23146286905E+00	-6.02516657300E+00	-9.98652250692E-02
3.01303425902E+05	-1.69940460495E+01	-1.26464327382E+02	7.88921354027E+00	-1.77014721266E+02	-3.51269573577E+01	-6.58154528361E+01	-5.99817652435E+00	-8.37515631756E-01
3.01521213465E+05	-2.11050622631E+01	-1.35209858071E+01	7.76842081561E+00	-1.77959898556E+02	-3.27825611959E+01	6.88990367662E+01	-6.01448718577E+00	5.17416296492E-01
3.01739158449E+05	-1.81985509098E+01	6.78598273571E+01	7.82891301967E+00	-1.78115873647E+02	-4.08921927664E+01	-7.42591202160E+00	-6.00427831002E+00	-3.31076894361E-01
3.01957260967E+05	-2.65176304269E+01	1.73592494132E+01	7.88833707834E+00	-1.77672130071E+02	-4.02832882848E+01	1.56832762237E+02	-6.04150468555E+00	-1.57344581601E-02
3.02175521134E+05	-1.40129118113E+01	3.05267342377E+01	7.70595396658E+00	-1.78003394799E+02	-3.79254937313E+01	6.95136142102E+01	-6.01671009139E+00	2.16194798158E-02
3.02393939063E+05	-2.42307671707E+01	-8.03583580883E+01	7.83881635451E+00	-1.77070755864E+02	-4.37585844782E+01	-8.19630180160E+01	-6.07273581027E+00	-4.06021462546E-01
3.02612514869E+05	-1.26158223676E+01	-2.05040498157E+01	7.69249239747E+00	-1.77235043316E+02	-3.64675719251E+01	-1.59340410331E+02	-6.08542161776E+00	-5.97477334527E-02
3.02831248665E+05	-1.35141063554E+01	4.74221684815E+01	7.68583268712E+00	-1.78136786702E+02	-4.32608655962E+01	1.53242168123E+02	-6.08008527283E+00	-3.32050730926E-01
3.03050140565E+05	-2.00470429123E+01	-2.93851567770E+01	7.76795389776E+00	-1.77277058508E+02	-2.93998762959E+01	6.70384628563E+01	-6.02918168119E+00	7.02614884615E-01
3.03269190685E+05	-2.20620304065E+01	-8.38531974918E+00	7.78471159406E+00	-1.77765073919E+02	-3.84870522692E+01	-1.43141847053E+02	-6.10038116632E+00	-4.36693859905E-01
3.03488399138E+05	-1.58546629246E+01	8.40154151595E+00	7.70733167659E+00	-1.77512361093E+02	-4.29210917086E+01	-1.79393226955E+02	-6.02792556022E+00	-2.58982098952E-01
3.03707766039E+05	-2.09691251350E+01	1.54880073026E+01	7.76866123260E+00	-1.77686179018E+02	-4.21461983688E+01	1.38597753375E+00	-5.98686071515E+00	-1.87041551074E-01
3.03927291503E+05	-2.16962593914E+01	-1.63898602664E+02	7.90357907373E+00	-1.77441874493E+02	-3.66190862587E+01	-5.14287562482E+00	-6.00520273936E+00	-1.94196539543E-01
3.04146975643E+05	-1.71632338807E+01	-6.27622101582E+01	7.78305985272E+00	-1.77155485770E+02	-4.78145370176E+01	1.41022481871E+02	-6.03036730348E+00	8.76655793433E-02
3.04366818575E+05	-7.36879066232E+00	-7.60020030393E+01	7.74847911260E+00	-1.75441019803E+02	-3.65295837667E+01	8.64464820313E+01	-6.04384106883E+00	-4.84289582302E-02
3.04586820414E+05	-1.86336651760E+01	3.23833633589E+01	7.71880171671E+00	-1.78210757112E+02	-3.51001559654E+01	1.18684313573E+02	-6.08456609902E+00	2.76023088265E-01
3.04806981274E+05	-2.59601180391E+01	1.12214795566E+02	7.92533843777E+00	-1.78101371785E+02	-3.95590432712E+01	1.24344200720E+01	-6.00503854543E+00	-1.54022660884E-01
3.05027301270E+05	-2.45766978620E+01	3.32139929144E+01	7.84005652945E+00	-1.78041925053E+02	-4.56076028795E+01	-1.08784866663E+02	-6.01115465754E+00	-2.63651136255E-01
3.05247780517E+05	-1.38732149272E+01	7.64321703616E+01	7.79240581745E+00	-1.78162600025E+02	-3.75787877333E+01	8.62334666748E+00	-5.97876685017E+00	-3.83753428314E-01
3.05468419131E+05	-2.56942769745E+01	8.80182278974E+01	7.79155573446E+00	-1.77754479257E+02	-4.28695870316E+01	2.23953738061E+01	-6.00538983218E+00	-1.49720311206E-01
3.05689217226E+05	-1.13767579130E+01	-1.73936245893E+02	8.08861352104E+00	-1.77912334454E+02	-3.79007712695E+01	2.23809185252E+01	-6.04145603564E+00	-3.95583512938E-01
3.05910174918E+05	-1.25524192344E+01	2.65425101984E+01	7.74591883606E+00	-1.77930502669E+02	-4.14120247832E+01	-7.47458654114E+01	-6.02966903869E+00	-4.80778803462E-01
3.06131292322E+05	-1.75466228124E+01	5.06306468956E+01	7.85738965380E+00	-1.78312452569E+02	-2.48350886664E+01	-5.20705625789E+01	-5.89209896755E+00	-1.30432514646E+00
3.06352569554E+05	-1.86448542810E+01	-1.93548516305E+01	7.74627780895E+00	-1.77355448719E+02	-3.96974473721E+01	-4.04738623501E+01	-6.02190812536E+00	-6.64513839727E-01
3.06574006730E+05	-2.21585465688E+01	9.07989476777E+01	7.83049911248E+00	-1.78169128619E+02	-3.95294240999E+01	1.69610243256E+02	-6.05570492260E+00	9.12675911167E-03
3.06795603964E+05	-3.30082487465E+01	-6.93414795780E+01	7.79586123010E+00	-1.77765453119E+02	-4.76334443730E+01	-4.07126462099E+01	-5.99081052620E+00	-8.79671490653E-02
3.07017361372E+05	-2.86563379233E+01	6.72849807663E+01	7.88330479817E+00	-1.77284746238E+02	-3.80240890147E+01	-3.26105084030E+01	-6.01911457303E+00	-3.95187343495E-01
3.07239279071E+05	-1.05337964672E+01	-1.24194505225E+01	7.59323896353E+00	-1.77116631384E+02	-3.42717610747E+01	-2.70437948255E+01	-5.99084684743E+00	-1.14003431485E-01
3.07461357176E+05	-1.17651994362E+01	-1.07628714498E+02	7.89039275493E+00	-1.76528510260E+02	-2.52413975261E+01	-1.61762425964E+02	-6.25281350400E+00	-8.91307967038E-01
3.07683595803E+05	-1.67552639494E+01	3.08620882336E+01	7.76955824016E+00	-1.77688959083E+02	-2.50406716916E+01	1.63270662712E+01	-5.84398102843E+00	5.26836870978E-01
3.07905995068E+05	-1.18631423887E+01	-4.95518880753E+01	7.76555837858E+00	-1.76386647672E+02	-4.32689821525E+01	1.51363565416E+02	-6.03925225943E+00	7.56778932423E-02
3.08128555087E+05	-1.75191361273E+01	-2.60551840827E+01	7.79080962837E+00	-1.77534721542E+02	-4.23656089004E+01	-1.19749844789E+01	-6.02309802509E+00	-2.61594941736E-01
3.08351275976E+05	-2.25367588450E+01	6.64413117108E+01	7.77720568248E+00	-1.78133935525E+02	-3.77116930065E+01	-1.11317917266E+02	-6.04170007971E+00	-4.26385568043E-01
3.08574157853E+05	-2.31858083592E+01	4.12876827924E+01	7.86813949124E+00	-1.77781740980E+02	-4.40846672668E+01	-1.65904771001E+02	-6.05765599019E+00	-1.04423808929E-01
3.08797200832E+05	-9.79044947543E+00	5.51924200769E+01	7.75170736134E+00	-1.78981879851E+02	-3.64909680027E+01	1.44630214705E+02	-6.07624687851E+00	-1.74304583816E-02
3.09020405031E+05	-1.32873890361E+01	-2.45116703230E+01	7.69502045274E+00	-1.77714596640E+02	-4.51450697662E+01	-1.07067943169E+02	-6.03978293970E+00	-5.29050021184E-01
3.09243770566E+05	-1.46446994294E+01	-4.94718464713E+01	7.76286460493E+00	-1.76586270601E+02	-2.65512206911E+01	1.38704314610E+02	-6.16029714405E+00	5.04282999671E-01
3.09467297553E+05	-2.89353736762E+01	3.54310128274E+01	7.83536821205E+00	-1.77498264251E+02	-3.96392795519E+01	4.11723229808E+01	-6.02527193939E+00	-1.93642840947E-01
3.09690986110E+05	-1.58272330178E+01	-3.90573330831E+00	7.79839342033E+00	-1.77677086713E+02	-5.17719784712E+01	1.01332254410E+02	-6.02685234785E+00	-1.21091280343E-01
3.09914836353E+05	-2.25407849348E+01	3.31921236760E+01	7.87821053949E+00	-1.78164823446E+02	-3.99027088197E+01	6.88560448663E+01	-5.99712977452E+00	-2.34495253169E-01
3.10138848399E+05	-1.37627039251E+01	3.17030634696E+01	7.73748678399E+00	-1.78423524483E+02	-4.31871772092E+01	-2.89122715432E+01	-6.05351156790E+00	-4.30327532632E-01
3.10363022365E+05	-1.47661544897E+01	1.55640189795E+02	8.02023177678E+00	-1.78415435263E+02	-4.19447856939E+01	-5.26657525349E+01	-6.05003586490E+00	-2.95046889800E-01
3.10587358368E+05	-1.55081701238E+01	-1.13829304014E+01	7.78364918216E+00	-1.77378657804E+02	-3.34273852976E+01	-9.54133077888E+01	-6.08829751757E+00	-8.13479349528E-01
3.10811856525E+05	-1.62548771534E+01	2.98271210810E+01	7.74679500260E+00	-1.77986832801E+02	-3.66572510020E+01	1.74405154546E+02	-6.07844332968E+00	-1.16154518955E-01
3.11036516954E+05	-2.40751033753E+01	1.24254353540E+02	7.83615545934E+00	-1.78196571089E+02	-3.87561529042E+01	-1.20401559998E+01	-5.99985430448E+00	-2.18866537475E-01
3.11261339771E+05	-1.55944269297E+01	4.51031591373E+01	7.70762129281E+00	-1.77882547049E+02	-4.00548741934E+01	3.01365836983E+01	-6.02592144244E+00	-3.10116547895E-01
3.11486325094E+05	-1.56091274327E+01	-2.36760974441E+01	7.73189323547E+00	-1.77638045240E+02	-4.33056937529E+01	9.52342839363E+01	-6.04547889107E+00	1.12620222899E-01
3.11711473040E+05	-3.42160975750E+01	1.23729972136E+02	7.86188887730E+00	-1.78066394523E+02	-3.84097351211E+01	-5.56060648421E+01	-6.05018126733E+00	-2.42377534462E-01
3.11936783728E+05	-1.78300839612E+01	-1.45133045317E+02	7.92695256878E+00	-1.77663491194E+02	-4.66397062604E+01	-1.44912873986E+02	-6.04290656508E+00	-3.23342476800E-01
3.12162257274E+05	-8.21686869946E+00	2.06251744739E+00	7.58856909291E+00	-1.77803389221E+02	-3.44878015457E+01	-5.74063427109E+01	-5.97529668200E+00	-7.68788099099E-01
3.12387893797E+05	-2.46782181411E+01	-8.33439002683E+01	7.79986965303E+00	-1.77119273571E+02	-3.07908691140E+01	9.26909019851E+01	-6.05736327141E+00	6.47665412612E-01
3.12613693413E+05	-1.35974693792E+01	1.44466920124E+01	7.66815894335E+00	-1.77884731221E+02	-5.06306186908E+01	1.70065825657E+02	-6.07336303957E+00	-7.63076668010E-02
3.12839656242E+05	-2.04846038973E+01	1.66019584444E+01	7.72275857829E+00	-1.77888201436E+02	-3.97130581497E+01	-9.54708193919E+01	-6.04197554327E+00	-4.61859998128E-01
3.13065782401E+05	-1.46466066838E+01	7.87705932625E+00	7.74147009591E+00	-1.78028842311E+02	-3.52554233156E+01	-3.89130585491E+01	-6.00749493015E+00	-5.21805026275E-01
3.13292072007E+05	-2.61598908319E+01	9.72126896156E+01	7.83069549590E+00	-1.77922007370E+02	-4.14234609992E+01	-8.03618075507E+01	-6.03090595970E+00	5.56472127822E-02
3.13518525180E+05	-1.40135017237E+01	4.59122520370E+01	7.68676479124E+00	-1.78265427251E+02	-3.41643008378E+01	-6.95283425356E+01	-6.00726339269E+00	-6.66191500883E-01
3.13745142038E+05	-1.24224815850E+01	-1.08769040799E+00	7.69503437249E+00	-1.77887650737E+02	-4.16838127804E+01	-9.40351600494E+01	-6.06700469486E+00	-9.96857042970E-02
3.13971922698E+05	-2.27068265985E+01	6.03951704310E+01	7.82750866587E+00	-1.78164445531E+02	-3.13526722370E+01	8.74069010749E+01	-6.00160125269E+00	1.39072104486E-01
3.14198867279E+05	-1.38910140444E+01	3.14740830235E+01	7.71009692414E+00	-1.77899662780E+02	-4.34920752442E+01	1.65689137035E+02	-6.04498329707E+00	-7.29563544004E-02
3.14425975900E+05	-2.15596427110E+01	1.68912442507E+02	7.84432411381E+00	-1.77486905321E+02	-4.07470582943E+01	-1.10743591318E+02	-6.06041086265E+00	-2.50479438477E-01
3.14653248680E+05	-2.00199464886E+01	-4.23213055868E+01	7.77637967210E+00	-1.77650068874E+02	-4.58789016292E+01	-1.71175904019E+02	-6.06847771108E+00	-5.97676030715E-02
3.14880685736E+05	-1.47332012933E+01	7.53693121832E+00	7.78907767123E+00	-1.77749076611E+02	-3.68449720535E+01	-1.12830197542E+02	-6.03682597922E+00	-3.91527183626E-01
3.15108287188E+05	-1.32318375645E+01	-9.54044103028E+01	7.86839370365E+00	-1.76738846840E+02	-4.62149409759E+01	-9.28735787665E+00	-6.06070427883E+00	1.00512833566E-01
3.15336053154E+05	-1.49558897942E+01	-5.14088052738E+01	7.71245815126E+00	-1.77366477654E+02	-4.42596959154E+01	-8.12650827821E+01	-6.02427911444E+00	-2.98046552121E-01
3.15563983753E+05	-1.92852498015E+01	4.33793502361E+01	7.82269159557E+00	-1.77745937249E+02	-3.83784770387E+01	8.57738773727E+01	-6.06583014927E+00	-2.20164370927E-01
3.15792079105E+05	-2.68918821424E+01	4.90117259946E+01	7.84715712068E+00	-1.77815200502E+02	-3.85503594627E+01	-1.33594649978E+02	-6.03956626763E+00	-1.84793392784E-01
3.16020339328E+05	-2.11086122770E+01	-1.52674860908E+01	7.74593796563E+00	-1.77773211743E+02	-5.90121142340E+01	-8.26248817848E+01	-6.02531626307E+00	-4.05229216662E-01
3.16248764542E+05	-2.21715285951E+01	5.43980084192E+01	7.80691958315E+00	-1.78245665778E+02	-3.93053418401E+01	4.50127718468E+01	-5.99681006094E+00	-1.50377260261E-01
3.16477354866E+05	-2.42468943227E+01	4.72725247619E+01	7.80193514774E+00	-1.78208607335E+02	-3.85709845059E+01	-7.04743106644E+01	-6.02474072917E+00	-5.72586991631E-01
3.16706110419E+05	-1.48917987142E+01	1.44525872550E+02	7.94795877766E+00	-1.78369603660E+02	-4.36562639626E+01	-8.11123891267E+01	-6.04752563611E+00	-4.52219446889E-01
3.16935031321E+05	-1.32197427208E+01	1.37336782412E+02	7.94681242480E+00	-1.78918038657E+02	-3.29775205275E+01	-7.88423727112E+01	-6.00403911480E+00	-7.23856546048E-01
3.17164117691E+05	-1.67703966475E+01	-1.48832024907E+00	7.73398976684E+00	-1.78005362697E+02	-3.24375805126E+01	-1.11139224778E+02	-6.04256106410E+00	-6.78639883942E-01
3.17393369648E+05	-2.51863311712E+01	-1.73178998733E+01	7.77480329815E+00	-1.77433727722E+02	-3.80120959119E+01	9.53151014113E+01	-6.03634843383E+00	-1.22053310839E-01
3.17622787313E+05	-1.76239286856E+01	1.10320719247E+02	7.89217708310E+00	-1.78291491688E+02	-4.59216957641E+01	-1.45406210711E+02	-6.05534176317E+00	-1.51516602288E-01
3.17852370806E+05	-2.38051883962E+01	1.62328853835E+02	7.84094181065E+00	-1.78274823794E+02	-3.23906668316E+01	1.43222811964E+02	-6.09482735924E+00	4.06997013239E-02
3.18082120245E+05	-2.00676433029E+01	6.33530885059E+01	7.75174222845E+00	-1.78299868716E+02	-4.27150707879E+01	1.73713364147E+02	-6.07412675407E+00	-2.36860136389E-01
3.18312035752E+05	-1.35649252427E+01	-5.53029842057E+01	7.68556243577E+00	-1.77063320522E+02	-3.67010178384E+01	1.12856156610E+02	-6.05137099671E+00	6.16476336606E-02
3.18542117445E+05	-1.50212448233E+01	-3.76852380475E+01	7.80090312247E+00	-1.77474929331E+02	-3.97226545128E+01	-3.81783170041E+01	-6.00034234214E+00	-1.58472516003E-01
3.18772365446E+05	-1.48937090891E+01	1.11199125052E+02	7.87685726443E+00	-1.78613365104E+02	-2.60205625310E+01	1.69389824468E+02	-6.18500576464E+00	9.27001511927E-02
3.19002779874E+05	-2.07849793899E+01	3.23476425471E+01	7.81211049457E+00	-1.78211487627E+02	-4.06094769369E+01	-1.09918626128E+02	-5.98746455737E+00	-3.18588354359E-01
3.19233360850E+05	-2.39964528278E+01	-5.02090863386E+01	7.84250621326E+00	-1.77807930448E+02	-4.27076841506E+01	5.54007429928E+01	-5.97519358034E+00	-3.28632237260E-01
3.19464108494E+05	-1.12597602747E+01	-1.93492728382E+00	7.66457995357E+00	-1.78021703470E+02	-4.17765091220E+01	8.43742471032E+01	-6.03573381272E+00	5.25755317270E-02
3.19695022927E+05	-1.50918885072E+01	1.69102945240E+02	7.91802472868E+00	-1.77903406726E+02	-4.32663963482E+01	3.33177998469E+01	-6.02632338391E+00	-1.84102459681E-01
3.19926104268E+05	-1.37827650228E+01	-4.59467015323E+01	7.70979699895E+00	-1.77444695272E+02	-3.77886556673E+01	-1.65794529435E+02	-6.10015684912E+00	-2.12816311076E-01
3.20157352640E+05	-1.07470825642E+01	-1.08041929123E+02	7.99549263848E+00	-1.76198278150E+02	-3.86749798295E+01	6.17200517347E+01	-6.06353382258E+00	2.56780064433E-01
3.20388768162E+05	-1.68704438458E+01	-6.23910679987E+00	7.80993753814E+00	-1.77760823088E+02	-3.86303768429E+01	9.92098681143E+01	-6.01506603985E+00	8.57197078050E-02
3.20620350955E+05	-2.13924505280E+01	6.47815258305E+01	7.81216596903E+00	-1.77902189991E+02	-3.90626085441E+01	1.40440465088E-02	-6.00925993340E+00	-1.47359169595E-01
3.20852101140E+05	-1.32292442514E+01	2.16533445090E+01	7.76263056164E+00	-1.78419452762E+02	-4.51685146962E+01	-1.60977089835E+01	-6.01933162951E+00	4.28695308177E-02
3.21084018839E+05	-2.10760231369E+01	-1.34198786738E+02	7.84618150358E+00	-1.77610339739E+02	-5.30567139032E+01	-6.71158062462E+01	-6.04237566897E+00	-2.95765628778E-01
3.21316104172E+05	-1.46387630747E+01	3.21776545147E+01	7.76320526970E+00	-1.78172736545E+02	-3.82693468921E+01	-4.40258741599E+01	-6.03572632063E+00	-2.37049800303E-01
3.21548357261E+05	-1.86821203385E+01	1.70304603040E+02	7.87543623280E+00	-1.77904166923E+02	-3.73062098815E+01	5.63246354445E+01	-5.99843713968E+00	1.08553938158E-01
3.21780778226E+05	-1.99689276120E+01	-1.68291718056E+02	7.94234799494E+00	-1.77971981783E+02	-3.53077131896E+01	-6.04566524482E+01	-6.03350439070E+00	-8.28650093466E-01
3.22013367189E+05	-1.54267601577E+01	1.30898063683E+01	7.70197240903E+00	-1.77387917700E+02	-4.43866100435E+01	1.10109764298E+02	-6.05282962452E+00	-7.77759785902E-02
3.22246124272E+05	-1.75291985531E+01	9.72790276099E+01	7.81897965831E+00	-1.78597647426E+02	-3.45891141177E+01	5.38367797762E+01	-6.01631381133E+00	-9.92009662312E-02
3.22479049596E+05	-2.63210002124E+01	1.67858221719E+02	7.91630525567E+00	-1.77956299923E+02	-4.15508459979E+01	-2.11385179129E+01	-6.01549203911E+00	-1.76609493412E-01
3.22712143282E+05	-1.73077491942E+01	1.01918214481E+02	7.84107112071E+00	-1.78610481635E+02	-4.08169823546E+01	8.20487645054E+01	-6.08725203284E+00	-1.21327441712E-01
3.22945405453E+05	-2.20418093105E+01	1.46605218158E+02	7.86610182896E+00	-1.77841136442E+02	-4.37099714677E+01	1.58538086771E+02	-6.02967696395E+00	-1.83296735815E-01
3.23178836230E+05	-1.63053973569E+01	6.99569881558E+01	7.83578013679E+00	-1.78490589083E+02	-3.67902870985E+01	-1.97440026190E+01	-5.96129812869E+00	-2.30503698512E-01
3.23412435735E+05	-1.76966334437E+01	-1.19764405056E+02	7.88207578462E+00	-1.77242014957E+02	-4.98779855311E+01	-1.21004294180E+02	-6.02156504712E+00	-3.22559899762E-01
3.23646204090E+05	-2.41177900594E+01	6.54483157555E+01	7.83390538139E+00	-1.78413317768E+02	-3.78843375958E+01	-1.68619312450E+02	-6.05133254793E+00	-2.45120359799E-01
3.23880141417E+05	-3.21534846351E+01	8.84692689903E+01	7.84357804674E+00	-1.77702255929E+02	-3.24994403288E+01	-2.46071585363E+01	-5.97631009192E+00	-5.02506458661E-01
3.24114247838E+05	-2.70951047019E+01	-1.30115257157E+02	7.85114650772E+00	-1.77696930556E+02	-4.82067705840E+01	-1.50080897323E+02	-6.01664769177E+00	-3.67883359564E-01
3.24348523475E+05	-2.07650988580E+01	-1.24782234612E+01	7.73742379363E+00	-1.77545280055E+02	-4.65441756688E+01	-6.09875139658E+01	-6.06646654667E+00	-3.05160761683E-01
3.24582968451E+05	-2.37846788345E+01	1.28193826882E+02	7.85969529271E+00	-1.78187075757E+02	-4.10132961331E+01	-1.64012813945E+02	-6.06242381519E+00	-3.33278706010E-01
3.24817582888E+05	-1.54857847661E+01	-3.00613671818E+01	7.74494459539E+00	-1.77821969762E+02	-4.09452974863E+01	-1.54506180031E+02	-6.03447376149E+00	-9.88816938597E-02
3.25052366909E+05	-6.69258658160E+00	-3.90257356503E+01	7.59451914404E+00	-1.76740071713E+02	-4.32278966876E+01	-9.75593707333E+01	-6.07000876636E+00	-3.79565088344E-01
3.25287320635E+05	-1.51760599524E+01	8.94432129923E+00	7.68150848609E+00	-1.78209771135E+02	-2.68776358182E+01	1.08129329394E+02	-6.09213378266E+00	8.56927267203E-01
3.25522444191E+05	-9.65122964359E+00	9.17061553703E+01	7.84851308072E+00	-1.79014613363E+02	-3.22891481629E+01	-1.68802711300E+02	-6.07158006810E+00	-2.57716867390E-01
3.25757737698E+05	-1.17549204531E+01	6.85164149508E+01	7.74373738044E+00	-1.78824336159E+02	-4.25554770065E+01	-1.06842952886E+02	-6.05529681492E+00	-2.56856682205E-01
3.25993201280E+05	-1.68551640582E+01	3.14231909545E+01	7.77564654780E+00	-1.78383888129E+02	-3.17768530980E+01	-1.19331971722E+02	-6.06435667741E+00	-5.18925266973E-01
3.26228835058E+05	-1.20663949102E+01	-5.44976165713E+00	7.70632325704E+00	-1.77820893559E+02	-4.00391789315E+01	-1.45289868131E+02	-6.10985435647E+00	-3.85273538223E-01
