# Hz S DB R 50
! CMT, M5065, 19127446, 24.2.4/2
! Date: 11/1/2024 3:35:25 PM
! Data: Format (Calibration Info)
! Freq	S11:dB/Ang(F2)	S21:dB/Ang(F2)	S12:dB/Ang(F2)	S22:dB/Ang(F2)
3.00000000000E+05	-2.70764019126E+01	5.58201734856E+01	1.24107533090E+01	-1.77625318259E+02	-4.57440750030E+01	1.24551602377E+02	-6.03741937121E+00	-2.80243659640E-01
3.00216845423E+05	-2.85174312391E+01	2.58120086849E+01	1.23626783156E+01	-1.77527414953E+02	-5.13765239786E+01	1.52152739456E+02	-6.04956297468E+00	-3.45082104117E-01
3.00433847586E+05	-2.65139360814E+01	-7.32004905033E+01	1.23793542735E+01	-1.77041813569E+02	-4.70826963701E+01	-1.35483094175E+02	-6.02816021211E+00	-4.27673534447E-01
3.00651006602E+05	-1.66156232047E+01	2.63627440924E+01	1.22890317592E+01	-1.77764411597E+02	-4.36023224240E+01	-3.96536620307E+01	-6.00667365781E+00	-3.94024431553E-01
3.00868322584E+05	-1.51525667698E+01	-1.31376451491E+01	1.22980368123E+01	-1.76988698442E+02	-3.48799774787E+01	9.62298828552E+01	-6.06014759942E+00	5.81301569453E-01
3.01085795647E+05	-1.63690822015E+01	2.08378676125E+01	1.22994935459E+01	-1.77563787998E+02	-3.32573113861E+01	-4.55250271303E+01	-5.95302132438E+00	-6.73425405169E-01
3.01303425902E+05	-1.87183229368E+01	2.06821989204E+01	1.23083787606E+01	-1.77688886594E+02	-3.69222570837E+01	1.13102905304E+02	-6.07000401181E+00	-1.04487837215E-01
3.01521213465E+05	-2.78265880690E+01	-1.55470033168E+01	1.23935453693E+01	-1.77587716320E+02	-3.31998842581E+01	8.76060569346E+01	-6.03795910461E+00	5.76607369868E-01
3.01739158449E+05	-1.96311291949E+01	-2.26711310031E+01	1.22863394653E+01	-1.77167685144E+02	-3.91418857057E+01	-3.24487323417E+01	-5.99656596937E+00	-6.57495231646E-01
3.01957260967E+05	-1.15443360700E+01	5.21491316279E+01	1.23403151882E+01	-1.78372018176E+02	-4.58310111540E+01	-2.87641304500E+01	-5.96815067247E+00	-1.92722266253E-01
3.02175521134E+05	-1.61936841720E+01	9.56977807064E+01	1.23923653007E+01	-1.78139111777E+02	-4.21813442736E+01	-4.15738527043E+01	-5.96992553367E+00	-3.34014562537E-01
3.02393939063E+05	-1.29601467527E+01	2.77018962887E+01	1.22680215738E+01	-1.78038214222E+02	-3.59616794736E+01	-7.70949466611E+00	-5.95404034322E+00	-3.89055532598E-01
3.02612514869E+05	-1.86571073706E+01	7.15625301774E+01	1.23659997849E+01	-1.77956709690E+02	-4.37443221887E+01	-1.04553768830E+01	-6.04020515617E+00	-2.41163194815E-01
3.02831248665E+05	-1.44435723698E+01	6.78266595137E+01	1.23420237864E+01	-1.77847555097E+02	-4.20902112421E+01	-2.23739296512E+01	-6.01222229220E+00	-3.30832633760E-01
3.03050140565E+05	-1.92922053047E+01	2.93976425035E+01	1.23225785483E+01	-1.77615310926E+02	-3.92167051080E+01	-4.39998391271E+01	-5.99490373474E+00	-1.72288981030E-01
3.03269190685E+05	-1.49956747846E+01	1.87617360589E+01	1.23179860587E+01	-1.77782928912E+02	-3.92184987705E+01	1.73838420326E+02	-6.09428151012E+00	-2.71540640872E-01
3.03488399138E+05	-1.77085383268E+01	1.00529020266E+02	1.23760134826E+01	-1.78181549361E+02	-4.21113946186E+01	-1.18085182738E+02	-6.07280292469E+00	-4.22092681959E-01
3.03707766039E+05	-2.27428450377E+01	7.05872515476E+01	1.23960980023E+01	-1.77542636681E+02	-3.78455994480E+01	-4.69566827038E+01	-6.00546037721E+00	-7.27402203939E-01
3.03927291503E+05	-2.03126656864E+01	-4.08518084439E+01	1.23446982709E+01	-1.77350408221E+02	-4.05324216015E+01	-1.11342661172E+02	-6.03879844446E+00	-4.86532306260E-01
3.04146975643E+05	-3.71737601715E+01	2.61502424330E+00	1.23787874930E+01	-1.77465907095E+02	-3.66307836331E+01	-8.58825404603E+01	-6.05609895130E+00	-9.69924228970E-01
3.04366818575E+05	-1.94497568052E+01	7.31814171908E+01	1.23570487687E+01	-1.77908441355E+02	-3.42637859975E+01	1.10154664180E+02	-6.05754216408E+00	6.29319987359E-01
3.04586820414E+05	-2.35892100778E+01	1.10280559165E+01	1.23793320450E+01	-1.77468258254E+02	-3.60208869684E+01	1.20883041356E+01	-5.94709716898E+00	-2.34523249409E-01
3.04806981274E+05	-1.54996128917E+01	-1.04672723641E+01	1.22877031143E+01	-1.77282885858E+02	-3.65822272105E+01	-2.55240922055E+00	-5.94107050985E+00	-2.45867518203E-01
3.05027301270E+05	-2.62229920122E+01	-7.77011799771E+01	1.23683587841E+01	-1.77419417838E+02	-3.75738124499E+01	-1.04356544442E+02	-6.04571567008E+00	-5.95001159305E-01
3.05247780517E+05	-1.33966260925E+01	-7.64995614728E+01	1.23565068545E+01	-1.76861548552E+02	-4.65741982604E+01	6.78385112658E+01	-6.03651150439E+00	-3.86602802129E-01
3.05468419131E+05	-3.07451100394E+01	-1.70211090858E+02	1.23726984722E+01	-1.77613716237E+02	-2.97768677820E+01	1.15540990973E+02	-6.08985305834E+00	7.27669941588E-01
3.05689217226E+05	-2.14293740117E+01	-8.72594129829E+01	1.23630118377E+01	-1.77057263737E+02	-3.29879098915E+01	8.51774469674E+01	-6.04076679358E+00	4.42908283109E-01
3.05910174918E+05	-1.37587433133E+01	2.63815023767E+01	1.23114042697E+01	-1.78044770880E+02	-5.97451404467E+01	9.12075941724E+00	-6.08173415226E+00	-2.97725815254E-01
3.06131292322E+05	-2.10740939492E+01	-8.85915365764E+01	1.23843986022E+01	-1.77514587129E+02	-4.19896598568E+01	-3.59038342258E+01	-6.04310192971E+00	-3.73742786151E-01
3.06352569554E+05	-1.85108133214E+01	-4.47004982073E+01	1.23669267242E+01	-1.77308232780E+02	-4.33689226202E+01	-8.59717947512E+01	-6.03052368163E+00	-4.16787724750E-01
3.06574006730E+05	-1.68652486534E+01	1.30976491896E+02	1.24446503440E+01	-1.78409078970E+02	-4.14397221965E+01	-8.19432183208E+01	-6.03328690465E+00	-2.02533130949E-01
3.06795603964E+05	-2.07940549614E+01	1.91603940413E+01	1.23465345313E+01	-1.77523464897E+02	-4.74915616686E+01	9.28566297284E+01	-6.08618902864E+00	-3.24853328909E-01
3.07017361372E+05	-1.62276515670E+01	5.69666413473E+01	1.23796187698E+01	-1.77850058985E+02	-3.11900424776E+01	8.94321281104E+01	-6.02079645129E+00	3.52164526136E-01
3.07239279071E+05	-1.53721645806E+01	1.30098635109E+02	1.24467993472E+01	-1.78088333101E+02	-3.92916435976E+01	1.31637767055E+00	-5.97472187998E+00	8.13254014393E-02
3.07461357176E+05	-2.13590059983E+01	-5.85833466384E+00	1.23377623553E+01	-1.77306329670E+02	-4.47647133302E+01	-3.46118468432E+00	-6.02081025966E+00	-3.50505527357E-01
3.07683595803E+05	-1.52091646884E+01	5.18631735954E+01	1.23206236824E+01	-1.78539573369E+02	-3.97307194448E+01	3.65852187418E+01	-6.02344021126E+00	1.32083355995E-01
3.07905995068E+05	-2.86486471559E+01	8.26074062200E+01	1.23427103917E+01	-1.77882718012E+02	-4.46215504876E+01	-8.96824558031E+01	-6.05521523558E+00	-5.56292150324E-01
3.08128555087E+05	-1.60488176890E+01	9.42864530176E+01	1.23808213645E+01	-1.78600621490E+02	-4.39203672031E+01	4.72936399007E+01	-6.02541770687E+00	-1.44857470427E-01
3.08351275976E+05	-1.74078233445E+01	1.05814511994E+02	1.24725427366E+01	-1.78210230207E+02	-4.00772816364E+01	-7.37252314976E+01	-6.02522221656E+00	-3.55685064920E-01
3.08574157853E+05	-1.57001274436E+01	4.51947817280E+01	1.23444466211E+01	-1.78081965924E+02	-3.92768089488E+01	8.12200503217E+01	-6.05559130942E+00	4.74353454169E-01
3.08797200832E+05	-2.33864980038E+01	-9.19302682066E+00	1.23628813906E+01	-1.77605554893E+02	-3.83364686927E+01	1.70351675697E+02	-6.14209967849E+00	3.94832630977E-02
3.09020405031E+05	-1.59537986307E+01	-3.46319753760E+01	1.23099567879E+01	-1.76915130278E+02	-3.44957950794E+01	1.15220836734E+02	-6.06568688676E+00	1.97890202752E-01
3.09243770566E+05	-1.44105140313E+01	3.11666032819E+01	1.22916594220E+01	-1.78011303387E+02	-3.60152129036E+01	6.41972912976E+01	-5.99306794422E+00	2.80209231002E-01
3.09467297553E+05	-2.65956015473E+01	-2.06164204746E+01	1.23485181082E+01	-1.77653552729E+02	-4.12102649495E+01	-1.60677389269E+02	-6.06667454244E+00	-1.76693993068E-01
3.09690986110E+05	-3.22592058810E+01	-1.21592856192E+02	1.24462246125E+01	-1.77896106683E+02	-3.81077960775E+01	1.01345301043E+02	-6.06824644746E+00	5.71160358410E-02
3.09914836353E+05	-2.19176642637E+01	1.37104893771E+02	1.24248615721E+01	-1.77791407792E+02	-3.32026158325E+01	-1.27293059283E+02	-6.11796652562E+00	-6.78570357351E-01
3.10138848399E+05	-1.99566607570E+01	1.02782371487E+02	1.23834411772E+01	-1.78076053682E+02	-3.87993996977E+01	1.00853682400E+02	-6.07037252029E+00	2.97541349113E-01
3.10363022365E+05	-1.58905492293E+01	-7.59645872631E+00	1.23192100785E+01	-1.77808195330E+02	-3.80209335327E+01	1.56688499838E+02	-6.14264795364E+00	-9.39024897435E-03
3.10587358368E+05	-3.45673723962E+01	1.13753834075E+02	1.23663523978E+01	-1.77744295050E+02	-4.07253601722E+01	5.37714352411E+01	-6.02153037269E+00	3.28148133425E-01
3.10811856525E+05	-2.17187950864E+01	3.13238597405E+01	1.23673362042E+01	-1.78079051210E+02	-3.71906330047E+01	-9.13506097667E+01	-6.04938013803E+00	-2.95977227556E-01
3.11036516954E+05	-3.18209547415E+01	7.59642823960E+01	1.23592628036E+01	-1.78093747530E+02	-4.07546754412E+01	-5.78913617454E+01	-5.98732508575E+00	-2.09032103958E-01
3.11261339771E+05	-1.40759428826E+01	1.23192608248E+02	1.24702661018E+01	-1.78359156812E+02	-4.64650993088E+01	-1.08950311755E+02	-6.07512259420E+00	-3.69286645704E-01
3.11486325094E+05	-9.11275155476E+00	1.39926033277E+01	1.21787329847E+01	-1.78243650784E+02	-4.62751992270E+01	-8.26477747665E+01	-6.06975572831E+00	-5.70249316893E-01
3.11711473040E+05	-2.07125366747E+01	8.39940643381E+00	1.23195186584E+01	-1.77455221284E+02	-3.87238135998E+01	-9.40169699716E+01	-6.03006325701E+00	-8.00007928085E-01
3.11936783728E+05	-2.02943222599E+01	1.52845495976E+01	1.23212587202E+01	-1.77815697869E+02	-4.49520500211E+01	-1.03902237170E+02	-6.03098950774E+00	-5.68138476593E-01
3.12162257274E+05	-2.20418568541E+01	-3.32061156343E+01	1.23265280535E+01	-1.77406745444E+02	-4.32790127762E+01	-8.18545699623E+01	-6.02376672787E+00	-4.47150529598E-01
3.12387893797E+05	-2.31174046920E+01	2.47571817095E+01	1.23776862571E+01	-1.78100032799E+02	-4.25224386586E+01	1.38467546441E+02	-6.08359028561E+00	1.70760367766E-01
3.12613693413E+05	-2.56944540217E+01	7.11497528600E+01	1.24082293226E+01	-1.77909077059E+02	-3.77843677535E+01	-1.44000230973E+01	-6.00759286186E+00	-5.48998629687E-01
3.12839656242E+05	-1.56834484618E+01	-4.37749821009E+01	1.23206841360E+01	-1.77069460755E+02	-4.38660821009E+01	1.31870438530E+02	-6.05238519607E+00	-5.29547948566E-02
3.13065782401E+05	-1.36228638530E+01	-5.92453867768E+01	1.22807761741E+01	-1.76949116054E+02	-4.80209613026E+01	-5.80145671426E+01	-6.02474696305E+00	-2.83840336794E-01
3.13292072007E+05	-1.48100259218E+01	8.27499010801E+01	1.24141664135E+01	-1.78204471994E+02	-4.32825835737E+01	4.27762405679E+01	-5.98534177791E+00	1.31568975539E-02
3.13518525180E+05	-2.46774262227E+01	6.83754737587E+01	1.23861313842E+01	-1.77819559900E+02	-2.59737498942E+01	-3.15693907624E+00	-5.75574629807E+00	-2.67931641452E-01
3.13745142038E+05	-3.33133271582E+01	-1.15849761017E+01	1.23779731472E+01	-1.77682688907E+02	-4.06343496005E+01	-1.60814378705E+02	-6.09032709369E+00	-2.74955515940E-01
3.13971922698E+05	-1.96390355462E+01	7.52518965421E+01	1.23790296998E+01	-1.77941274245E+02	-4.76198489289E+01	-3.71252099472E+01	-6.02855190419E+00	-3.29111880016E-01
3.14198867279E+05	-2.78751343932E+01	2.32619626770E+01	1.23379725734E+01	-1.77563046289E+02	-4.81467872885E+01	9.02903098615E+01	-6.04171779123E+00	-1.26588083582E-01
3.14425975900E+05	-2.07534079924E+01	5.10474132237E+01	1.23480296476E+01	-1.78374529878E+02	-3.88309773503E+01	-9.44722380520E+01	-6.02946883261E+00	-4.77070357688E-01
3.14653248680E+05	-9.87894754711E+00	-2.77329072642E+01	1.21522723335E+01	-1.77108842853E+02	-3.93800361967E+01	-9.38241360170E+01	-6.04631962304E+00	-6.21257015949E-01
3.14880685736E+05	-1.74896696602E+01	8.24677174304E+01	1.23489068079E+01	-1.78112524117E+02	-3.28324930095E+01	1.53641834885E+02	-6.22080180468E+00	2.59632633019E-01
3.15108287188E+05	-2.05537357500E+01	4.42113075262E+01	1.23256707233E+01	-1.77922427646E+02	-3.73005226577E+01	4.36266567139E+01	-5.99076840599E+00	1.14397457952E-01
3.15336053154E+05	-1.70104711010E+01	6.92527897463E+01	1.23402190479E+01	-1.78225506140E+02	-4.39047748004E+01	7.63811507296E+00	-6.00103612172E+00	-3.54857686737E-01
3.15563983753E+05	-1.68742322758E+01	-1.05799606885E+02	1.24412475263E+01	-1.77231240536E+02	-4.19217707868E+01	1.72983483951E+02	-6.05135446832E+00	4.11389902350E-02
3.15792079105E+05	-2.00252955013E+01	7.21819901665E+01	1.23767926196E+01	-1.78308608479E+02	-3.66968899061E+01	-3.46398821374E+01	-5.96057681766E+00	-4.95653467354E-01
3.16020339328E+05	-2.24193551994E+01	-5.27805578664E+01	1.23636495866E+01	-1.77777064560E+02	-3.90173946147E+01	7.05383514746E+01	-6.03726116096E+00	-1.02604293897E-01
3.16248764542E+05	-9.39606006591E+00	-1.31556460102E+01	1.22049759925E+01	-1.77207499304E+02	-3.84497235320E+01	-1.11221143348E+02	-6.08653111290E+00	-5.15352327576E-01
3.16477354866E+05	-3.59205447448E+01	-8.82271890070E+01	1.23902428453E+01	-1.77982177591E+02	-3.60466612055E+01	1.62666029053E+02	-6.16616291072E+00	-2.74158250843E-01
3.16706110419E+05	-1.84124389954E+01	2.69168277423E+01	1.23422018078E+01	-1.78139207203E+02	-2.55207218493E+01	2.25557027930E+00	-5.71876941689E+00	-1.10150202909E-01
3.16935031321E+05	-1.33949116183E+01	2.38993392638E+01	1.22826113749E+01	-1.78264467461E+02	-5.17951579279E+01	-1.13907970339E+01	-6.02411138618E+00	-6.87441241598E-02
3.17164117691E+05	-1.85372900978E+01	1.65145012750E+02	1.24537277957E+01	-1.78214538134E+02	-4.13250329658E+01	-5.16547514554E+01	-6.06763754625E+00	-3.85017050294E-01
3.17393369648E+05	-2.34961289553E+01	-1.26107381089E+02	1.24206060133E+01	-1.77386383540E+02	-5.84740489960E+01	-4.96794283029E+01	-6.04721407280E+00	-2.89701234930E-01
3.17622787313E+05	-2.93638661747E+01	-1.45178453360E+02	1.24337759172E+01	-1.77995540297E+02	-3.60745419634E+01	2.88875544739E+01	-6.01459371463E+00	2.21235642850E-02
3.17852370806E+05	-4.19386728684E+00	-5.36683748015E+01	1.21421139481E+01	-1.75395838763E+02	-3.85277998472E+01	-1.20588669346E+02	-6.02772450766E+00	-3.99133119375E-01
3.18082120245E+05	-1.31587971476E+01	6.84276256929E+01	1.23011684865E+01	-1.78647881440E+02	-3.41344255974E+01	-1.00554332225E+01	-5.93652905155E+00	-3.99201891412E-01
3.18312035752E+05	-1.99996005349E+01	1.44784860261E+02	1.24414010879E+01	-1.78034217513E+02	-3.12111541983E+01	-5.81194954710E+01	-5.99949430025E+00	-1.34235920460E+00
3.18542117445E+05	-1.64058941766E+01	2.33639476406E+01	1.22719203059E+01	-1.77955605246E+02	-3.84829289540E+01	-2.50482951153E+01	-6.02803163714E+00	-4.59351977548E-01
3.18772365446E+05	-2.21790898286E+01	1.19359296449E+02	1.23755262585E+01	-1.78140927472E+02	-3.96320519094E+01	-1.48900281019E+02	-6.10343764913E+00	-5.79489647560E-01
3.19002779874E+05	-2.08345615269E+01	6.20047605402E+01	1.23399807696E+01	-1.77860257267E+02	-3.91041684940E+01	-1.40597473632E+02	-6.09353542983E+00	-5.75741133782E-01
3.19233360850E+05	-1.41637039528E+01	3.33974390423E+01	1.22777921243E+01	-1.78446188467E+02	-3.81436050059E+01	1.27231535227E+02	-6.12140545411E+00	1.49426491210E-01
3.19464108494E+05	-1.38764842906E+01	-1.60197355978E+02	1.25671388673E+01	-1.77643149078E+02	-4.42790548837E+01	8.89428188571E+01	-6.06080761135E+00	-1.73569143234E-01
3.19695022927E+05	-1.86084637446E+01	1.29936616758E+02	1.24767557532E+01	-1.77934021330E+02	-3.47888016758E+01	1.50347860426E+02	-6.16900759156E+00	-2.19992287351E-02
3.19926104268E+05	-2.74907488435E+01	1.02695996943E+02	1.23845099261E+01	-1.77833331337E+02	-2.62979029000E+01	-1.54140175107E+02	-6.28441438333E+00	-1.15466276275E+00
3.20157352640E+05	-2.13637586313E+01	1.11214705589E+00	1.23162074465E+01	-1.78055928018E+02	-4.28357100653E+01	-2.91757124890E+01	-5.98767648932E+00	-2.42557779292E-01
3.20388768162E+05	-1.38132084691E+01	2.70154436546E+01	1.23117177244E+01	-1.78086087181E+02	-3.84173878892E+01	1.79329198867E+01	-5.97901701597E+00	-5.25882473400E-02
3.20620350955E+05	-2.18690801023E+01	7.36305911480E+01	1.23372522442E+01	-1.78134748862E+02	-4.46355325358E+01	-1.35158218489E+02	-6.01808512464E+00	-4.86060694212E-01
3.20852101140E+05	-2.87823606168E+01	-1.42514270309E+02	1.23361740477E+01	-1.78107875808E+02	-4.08132491279E+01	9.91700566319E-01	-5.99743258818E+00	-4.02846268151E-01
3.21084018839E+05	-7.89594295348E+00	-4.73443041703E+01	1.22085650261E+01	-1.76548321697E+02	-3.69298816414E+01	1.17028409549E+02	-6.12337948202E+00	-7.98559174314E-02
3.21316104172E+05	-2.73991206355E+01	2.45378202684E+01	1.23705253285E+01	-1.78036114831E+02	-4.64814666409E+01	9.03205457188E+01	-6.04587129487E+00	-2.38628799219E-02
3.21548357261E+05	-1.80535407942E+01	3.35234518425E+01	1.23195199833E+01	-1.78081462929E+02	-3.78292941663E+01	-4.46582930601E+01	-6.00016205955E+00	-7.25427695581E-01
3.21780778226E+05	-2.49222460130E+01	1.59205260090E+02	1.23881524788E+01	-1.78169874048E+02	-4.78607109166E+01	6.70143414605E+01	-6.06820397522E+00	-6.11335982609E-02
3.22013367189E+05	-1.84080079094E+01	2.14798575003E+01	1.23122346038E+01	-1.77951366269E+02	-4.37810900443E+01	5.65382654947E+01	-5.99015374770E+00	-3.80054008503E-01
3.22246124272E+05	-3.29881028839E+01	3.94581420657E+01	1.23660361701E+01	-1.77983243506E+02	-4.25275320138E+01	1.23728803138E+02	-6.03602856104E+00	-1.01900669957E-01
3.22479049596E+05	-1.78687183169E+01	1.28606045214E+00	1.22847735637E+01	-1.78168764268E+02	-4.35951086789E+01	4.29904594601E+01	-6.02998478968E+00	-7.59056009105E-02
3.22712143282E+05	-1.45105692494E+01	1.10544357081E+02	1.24501140974E+01	-1.78761786013E+02	-4.30124878347E+01	8.42031772009E+01	-6.04114494104E+00	-1.45046184411E-01
3.22945405453E+05	-1.63227803366E+01	6.00760293854E+01	1.23153608234E+01	-1.78618973646E+02	-3.88894706808E+01	1.18467059148E+02	-6.03959212548E+00	2.18949701287E-02
3.23178836230E+05	-2.32819228739E+01	-5.77193974108E+00	1.22927073676E+01	-1.77718597594E+02	-3.76415996039E+01	-1.76946106670E+02	-6.11976912104E+00	-2.84983937712E-01
3.23412435735E+05	-2.80465480066E+01	-1.11448080831E+02	1.23858479895E+01	-1.77511830488E+02	-3.47679568270E+01	-9.27531004073E+01	-6.06362642614E+00	-9.29914360794E-01
3.23646204090E+05	-2.58793817827E+01	3.85840160307E+01	1.23861587169E+01	-1.78293824452E+02	-5.12367558238E+01	-1.44929752292E+02	-6.03280640430E+00	-1.59402796425E-01
3.23880141417E+05	-1.70793560133E+01	-1.49652768270E+02	1.24477500684E+01	-1.77931371202E+02	-4.62407830696E+01	1.02676767264E+01	-5.99860813290E+00	-4.27090135800E-01
3.24114247838E+05	-1.58147419538E+01	6.09289792825E+01	1.23372587064E+01	-1.78171992779E+02	-3.70172702327E+01	-1.05770330798E+02	-6.06166217876E+00	-6.48897779145E-01
3.24348523475E+05	-1.67256925132E+01	4.43502766276E+00	1.23189722805E+01	-1.78164295520E+02	-4.00107020514E+01	-3.66933506163E+01	-6.04432246184E+00	-2.07615540476E-01
3.24582968451E+05	-1.82262986072E+01	-3.12473555538E+01	1.23090827019E+01	-1.77651278212E+02	-4.16627342089E+01	-1.29128166629E+02	-6.04976033731E+00	-5.18552605602E-01
3.24817582888E+05	-2.03365244508E+01	6.52308779642E+01	1.24003835387E+01	-1.78467044638E+02	-3.17386718114E+01	-7.48992070426E+01	-6.01136697950E+00	-1.07874407845E+00
3.25052366909E+05	-2.12624119673E+01	-1.30882909269E+02	1.24056779810E+01	-1.77890072686E+02	-4.47736245701E+01	1.62020097481E+02	-6.10134092696E+00	-3.45989621824E-01
3.25287320635E+05	-1.62647716691E+01	6.69840315497E+01	1.23173336769E+01	-1.78200786250E+02	-5.10358838815E+01	-4.11128962630E+01	-6.02517661495E+00	-5.15561444631E-01
3.25522444191E+05	-1.71766961306E+01	-4.33162259047E+01	1.23201242028E+01	-1.77312188420E+02	-4.10153649785E+01	-6.81175770948E+01	-6.00480693988E+00	-4.22250282755E-01
3.25757737698E+05	-1.70102245157E+01	9.46806160884E+00	1.22707923891E+01	-1.78038136054E+02	-5.48368759490E+01	-7.68080529488E+01	-6.01559901418E+00	-4.37187026997E-01
3.25993201280E+05	-1.29570961985E+01	1.38998967421E+01	1.22277824593E+01	-1.78029255031E+02	-6.26125479897E+01	-1.61491131249E+02	-6.05576603874E+00	-1.48954199964E-01
3.26228835058E+05	-1.27850857128E+01	4.81800496321E+01	1.22643276433E+01	-1.78956824971E+02	-3.51164045199E+01	1.51129219267E+02	-6.07383058732E+00	-2.27790220842E-02
