# Hz S DB R 50
! CMT, M5065, 19127446, 24.2.4/2
! Date: 11/1/2024 3:31:53 PM
! Data: Format (Calibration Info)
! Freq	S11:dB/Ang(F2)	S21:dB/Ang(F2)	S12:dB/Ang(F2)	S22:dB/Ang(F2)
3.00000000000E+05	-1.51614317821E+01	-1.01264006690E+00	1.05726776730E+01	-1.77212619301E+02	-3.99031376778E+01	1.72501193590E+02	-6.08239843808E+00	-1.50285352291E-01
3.00216845423E+05	-2.10259679338E+01	2.43632042718E+01	1.05832981851E+01	-1.77192218153E+02	-4.16430581891E+01	-1.54332086819E+02	-6.03732244260E+00	-2.82885567076E-01
3.00433847586E+05	-1.58678572591E+01	-3.07645594511E+01	1.05739672303E+01	-1.77069218433E+02	-3.14690780891E+01	2.59808476989E+01	-5.88653041506E+00	2.36935581320E-01
3.00651006602E+05	-2.24363776686E+01	2.98800795849E+01	1.05324846732E+01	-1.77880632026E+02	-2.98074100496E+01	1.73188018390E+02	-6.19464889553E+00	-3.85918513555E-01
3.00868322584E+05	-2.94454450718E+01	-7.26720960890E+01	1.06631284203E+01	-1.77359463191E+02	-3.58680206927E+01	2.72055652624E+01	-5.97329824246E+00	8.86685660788E-03
3.01085795647E+05	-1.71310863981E+01	8.53404843072E+01	1.06069863422E+01	-1.78006924233E+02	-4.32039845603E+01	-1.54509015720E+02	-6.08785207712E+00	-2.65955914576E-01
3.01303425902E+05	-2.55733397934E+01	6.28707149053E+01	1.05829329099E+01	-1.77419850663E+02	-3.58818587621E+01	3.52259505559E+01	-5.97228340786E+00	6.07170305629E-02
3.01521213465E+05	-1.41370072977E+01	-1.75384522306E+01	1.04648420323E+01	-1.77302989320E+02	-4.07208369949E+01	-6.87686144414E+01	-6.00997104700E+00	-3.52861741709E-01
3.01739158449E+05	-1.90615593714E+01	4.39176670331E+01	1.06000859004E+01	-1.78015121224E+02	-3.99227053930E+01	-5.97901851473E+01	-5.96226450528E+00	-3.77004370577E-01
3.01957260967E+05	-2.00477562786E+01	1.54317153901E+01	1.05296819926E+01	-1.77851982170E+02	-2.90146204836E+01	4.29762909491E+01	-5.91303573703E+00	3.60388963152E-01
3.02175521134E+05	-2.06326141205E+01	-1.47054216202E+02	1.05890759717E+01	-1.77417385963E+02	-4.91539371632E+01	8.17250700158E+01	-6.03291333763E+00	4.16101317279E-02
3.02393939063E+05	-1.97317748282E+01	3.35214412067E+01	1.05767861793E+01	-1.77686008127E+02	-4.10765084466E+01	-1.14578567182E+02	-6.07073843309E+00	-4.81541830548E-01
3.02612514869E+05	-1.91220002229E+01	-1.75337693824E+01	1.05623327000E+01	-1.77115077332E+02	-5.06135814788E+01	-1.14024400439E+02	-6.02056179168E+00	-2.15761509279E-01
3.02831248665E+05	-1.52810337996E+01	4.35248791489E+01	1.05118614474E+01	-1.77791296861E+02	-5.22598277620E+01	4.71026841293E+01	-6.01579022531E+00	-4.38038643110E-01
3.03050140565E+05	-2.10544025604E+01	2.74784428600E+01	1.05351644630E+01	-1.78078641455E+02	-3.52187810989E+01	-8.21827537268E+00	-5.97619303882E+00	-2.49771050510E-01
3.03269190685E+05	-1.89662092440E+01	4.60500153063E+01	1.05387104020E+01	-1.77893223944E+02	-4.39880195526E+01	-1.36608933785E+02	-6.03927534809E+00	-3.55711438515E-01
3.03488399138E+05	-1.58905487559E+01	6.64502747501E+01	1.05834681962E+01	-1.78058989887E+02	-3.44816120392E+01	-1.64458791552E+02	-6.16198478680E+00	-4.43534776712E-01
3.03707766039E+05	-1.22221095264E+01	6.82913746541E+01	1.05460546726E+01	-1.78674781078E+02	-3.39807942884E+01	-3.20644497459E+01	-5.92767082432E+00	-5.97037736865E-01
3.03927291503E+05	-1.35065739136E+01	6.02167763549E+01	1.05502612153E+01	-1.78412188292E+02	-3.53419838575E+01	-9.02422645436E+01	-6.04817814175E+00	-5.31340223096E-01
3.04146975643E+05	-2.77073055174E+01	-7.41492891989E+00	1.05864799043E+01	-1.77430477346E+02	-3.25206258113E+01	-1.78957908168E+02	-6.12309108452E+00	-1.05216993648E-01
3.04366818575E+05	-2.30696787018E+01	9.28265402878E+01	1.06460022243E+01	-1.77928146310E+02	-4.02444390941E+01	1.23830514071E+02	-6.05119170601E+00	-4.96193620921E-02
3.04586820414E+05	-2.49716930898E+01	-1.14494017838E+02	1.06028780598E+01	-1.77718890509E+02	-4.13728055324E+01	-9.27645917373E+01	-6.06955477502E+00	-4.90400849055E-01
3.04806981274E+05	-1.12415276297E+01	2.89602069682E+01	1.04857575316E+01	-1.78303951755E+02	-5.17209957535E+01	-1.69271545595E+02	-6.10020045113E+00	-2.34172835647E-01
3.05027301270E+05	-2.08508382301E+01	-5.70662427478E+01	1.05919423436E+01	-1.77464298219E+02	-3.06810642942E+01	1.55599751401E+02	-6.19238071253E+00	2.59831433686E-01
3.05247780517E+05	-6.43446889897E+00	4.35492025087E+01	1.03606360193E+01	-1.78959480698E+02	-3.73007785389E+01	1.53236521864E+02	-6.10948025920E+00	-7.69973175005E-02
3.05468419131E+05	-1.25987464392E+01	1.06490447787E+00	1.04812778256E+01	-1.77557698551E+02	-4.02099189845E+01	2.69870830099E+01	-5.99797940366E+00	-1.63011112966E-01
3.05689217226E+05	-2.71997889701E+01	1.34629492344E+02	1.05926321027E+01	-1.78081775882E+02	-3.63511901638E+01	-1.05888925315E+01	-5.98630053897E+00	-2.30469809186E-01
3.05910174918E+05	-2.41760206649E+01	-4.82836063129E+01	1.06079753723E+01	-1.77569118045E+02	-3.71836366601E+01	-1.01078426471E+01	-5.98687554758E+00	-4.01599384872E-01
3.06131292322E+05	-1.66149262139E+01	-9.39523576626E+01	1.05868896074E+01	-1.77136217485E+02	-3.92719233783E+01	9.80640020387E+01	-6.10381105605E+00	-6.10313648329E-02
3.06352569554E+05	-1.96002392585E+01	-2.81184598182E+00	1.04794460823E+01	-1.77886818324E+02	-3.40199871122E+01	9.70456918603E+01	-6.05713682409E+00	2.20770291221E-01
3.06574006730E+05	-2.23250227015E+01	-2.19914436912E-01	1.05426056328E+01	-1.77549226790E+02	-3.60157036489E+01	-4.45923243111E+01	-5.99662253609E+00	-3.39499336550E-01
3.06795603964E+05	-7.49253025574E+00	7.98236120239E+01	1.05694911185E+01	-1.79200878481E+02	-4.52173416154E+01	1.79413158676E+02	-6.09414596561E+00	-3.94757643118E-01
3.07017361372E+05	-1.13000417896E+01	-1.32137373234E+02	1.06903104781E+01	-1.76907929606E+02	-4.09577439279E+01	-3.65181702980E+01	-6.00926647923E+00	-1.28857460677E-01
3.07239279071E+05	-2.04398074565E+01	4.62506624810E+01	1.05435196850E+01	-1.77902511719E+02	-3.72713367954E+01	8.99443824545E+01	-6.04899822287E+00	4.51348968635E-01
3.07461357176E+05	-1.89856315039E+01	-1.96666250915E+01	1.05577869863E+01	-1.77505002302E+02	-5.48800231215E+01	-1.04866981522E+02	-6.04398317468E+00	-3.19018031245E-01
3.07683595803E+05	-1.86078698898E+01	6.89075873517E+01	1.06416729067E+01	-1.78069195849E+02	-4.28710398666E+01	3.72880479486E+00	-6.00275137038E+00	-4.50952441566E-01
3.07905995068E+05	-2.62865260411E+01	-5.35345279206E+01	1.05577539327E+01	-1.77859382949E+02	-3.79708725170E+01	1.25648829035E+01	-5.96836482053E+00	-2.93217636807E-01
3.08128555087E+05	-1.55000184578E+01	3.65510401273E+00	1.05217101400E+01	-1.77898117450E+02	-3.13122336015E+01	-1.72893666845E+02	-6.17855123876E+00	-1.88559433401E-01
3.08351275976E+05	-1.86843756715E+01	1.18398466479E+01	1.05515264866E+01	-1.78179470295E+02	-3.13055284962E+01	1.09321701912E+02	-6.08883706620E+00	6.46438182848E-01
3.08574157853E+05	-1.58463474234E+01	1.68910775565E+02	1.07663831678E+01	-1.77870857053E+02	-3.58219142116E+01	2.02294709289E+01	-5.97193534248E+00	-1.23609423489E-01
3.08797200832E+05	-2.30117360359E+01	-3.65121735478E+01	1.05714927000E+01	-1.77790455264E+02	-4.04353599578E+01	9.13931765100E+01	-6.03983114432E+00	8.60806188157E-02
3.09020405031E+05	-1.76642111202E+01	-3.34967605023E+01	1.05529735053E+01	-1.77461877541E+02	-4.06213854006E+01	3.81301525342E+01	-6.03860338274E+00	-2.18372524430E-01
3.09243770566E+05	-2.03431779390E+01	5.96057034904E+01	1.05942479174E+01	-1.77937205390E+02	-3.98333741967E+01	1.56647091723E+02	-6.06129120219E+00	1.53900281328E-02
3.09467297553E+05	-2.11913354459E+01	-4.50912442144E+00	1.05306612830E+01	-1.77479918831E+02	-3.92040569708E+01	-1.49934287057E+02	-6.10922886222E+00	-1.97820437629E-01
3.09690986110E+05	-2.48122917950E+01	4.47864640776E+01	1.05908601968E+01	-1.78111121621E+02	-3.52312316576E+01	-1.79959092861E+02	-6.09037259447E+00	-3.56844626994E-01
3.09914836353E+05	-3.14588869083E+01	8.07610657080E+01	1.06073337233E+01	-1.77697554990E+02	-5.15516491158E+01	-2.02275748884E+01	-6.01263282119E+00	-4.61317222351E-01
3.10138848399E+05	-2.29419366227E+01	8.16752326152E+01	1.06310624947E+01	-1.78305927984E+02	-4.14936772973E+01	-7.50321545271E+01	-5.98165135595E+00	-3.83815654903E-01
3.10363022365E+05	-2.22408334691E+01	-1.31734320223E+02	1.06305002775E+01	-1.77418424095E+02	-3.78636519432E+01	1.52224061029E+02	-6.06920195141E+00	2.60546255865E-01
3.10587358368E+05	-1.84715267554E+01	-1.99001465960E+01	1.05794262763E+01	-1.77631488206E+02	-4.39096651356E+01	-1.74246676428E+02	-6.03666898498E+00	-2.83557272558E-02
3.10811856525E+05	-2.48897117724E+01	1.87054226588E+01	1.05871561205E+01	-1.77476849604E+02	-3.45913406434E+01	-1.04205996531E+02	-6.08687765217E+00	-5.98774555509E-01
3.11036516954E+05	-1.79352731363E+01	-6.58670164581E+01	1.05749330921E+01	-1.77556142342E+02	-3.73752905269E+01	-1.75402601459E+02	-6.09737912949E+00	-3.37302950036E-01
3.11261339771E+05	-1.88820134000E+01	1.60857845658E+02	1.06592850009E+01	-1.77886080142E+02	-3.44947396952E+01	1.42982263467E+02	-6.10249859381E+00	-2.10050791754E-01
3.11486325094E+05	-1.51483924565E+01	1.12147337071E+02	1.06948573914E+01	-1.78742937124E+02	-3.11292285743E+01	1.01661827876E+02	-6.09718533811E+00	5.33218323887E-01
3.11711473040E+05	-1.33075832162E+01	-1.00260306776E+01	1.05143455693E+01	-1.77727550045E+02	-3.72505656347E+01	7.01933478630E+01	-6.00942250597E+00	-1.39017081831E-01
3.11936783728E+05	-1.34211520005E+01	-6.51456178264E+00	1.05201807870E+01	-1.77688287428E+02	-3.56516746415E+01	-8.16262851811E+01	-6.03660595308E+00	-4.70249958162E-01
3.12162257274E+05	-1.85928642810E+01	2.98723661949E+01	1.05772841706E+01	-1.77948341013E+02	-4.32543872693E+01	5.42004342006E+00	-6.02460647952E+00	-7.27355696292E-02
3.12387893797E+05	-2.55559125274E+01	1.53683021923E+02	1.06297195879E+01	-1.77626811520E+02	-5.05225690070E+01	-2.53372315846E-01	-6.04132519306E+00	-2.31743577240E-01
3.12613693413E+05	-1.73725625987E+01	2.81915160964E+01	1.05638161290E+01	-1.77954676499E+02	-4.11817426170E+01	-1.95200989642E+01	-5.98343079973E+00	-3.01152349766E-01
3.12839656242E+05	-2.14778764701E+01	2.00230722576E-02	1.05342442875E+01	-1.77484797885E+02	-4.65041176365E+01	-1.27154504690E+02	-6.03814261123E+00	-4.57193132436E-02
3.13065782401E+05	-1.43895763673E+01	-7.30038160084E+01	1.05548807721E+01	-1.77055666014E+02	-3.05418397672E+01	3.33511560774E+01	-5.90005717557E+00	4.58769630744E-01
3.13292072007E+05	-1.38918417752E+01	-2.46578472705E+01	1.04484822098E+01	-1.77343089633E+02	-4.02902162337E+01	1.37073730103E+02	-6.09192803468E+00	-2.64293944712E-01
3.13518525180E+05	-1.51836087194E+01	6.13829011539E+01	1.05785424809E+01	-1.78312670183E+02	-4.36748543677E+01	2.31496578104E+01	-6.02899992392E+00	-1.20320452718E-01
3.13745142038E+05	-2.82960022338E+01	-1.38530072066E+02	1.06081819815E+01	-1.77693919993E+02	-5.50420560904E+01	-8.31627696959E+01	-6.00682970330E+00	-2.35177768733E-01
3.13971922698E+05	-2.51534435236E+01	4.99764418152E+01	1.05964157144E+01	-1.77959579661E+02	-4.14975929220E+01	5.97055118217E+01	-6.04150515310E+00	-1.85991546798E-01
3.14198867279E+05	-1.59472901442E+01	2.53173431592E+00	1.05490347286E+01	-1.77497360781E+02	-4.04959972966E+01	1.15232745022E+02	-6.05655484403E+00	1.29616562644E-01
3.14425975900E+05	-1.46308722728E+01	5.85789169010E+01	1.05380976995E+01	-1.78647866770E+02	-4.00251755235E+01	-8.55652595865E+01	-6.05380742256E+00	-1.77428305694E-01
3.14653248680E+05	-1.46558715553E+01	-2.16240721010E+01	1.05436013905E+01	-1.77234301514E+02	-3.02953220144E+01	6.36001901420E+01	-6.01827257920E+00	6.04579530222E-01
3.14880685736E+05	-1.69649222502E+01	-6.10649612489E+00	1.05169142032E+01	-1.77521533076E+02	-2.55881307983E+01	1.40160620751E+01	-5.76203461506E+00	2.82877913227E-01
3.15108287188E+05	-3.34222313223E+01	-9.94430567226E+01	1.05883765572E+01	-1.78158290330E+02	-4.10204133392E+01	4.33795809695E+01	-6.02084814406E+00	-3.68000959786E-01
3.15336053154E+05	-1.46116496164E+01	-1.37796292439E+01	1.05055439701E+01	-1.77544747371E+02	-3.82019022960E+01	-3.14194152651E+01	-6.03246490524E+00	-3.70102447702E-01
3.15563983753E+05	-1.61266463326E+01	-1.79266292813E+02	1.06739470374E+01	-1.77876560964E+02	-4.37229309834E+01	-1.46189843663E+02	-6.06639104895E+00	-1.83790524288E-01
3.15792079105E+05	-1.77233037350E+01	5.15680263966E+01	1.04951568729E+01	-1.78145119155E+02	-5.32729875409E+01	1.33348047171E+02	-6.02879210752E+00	-1.52813686318E-01
3.16020339328E+05	-2.11099369330E+01	1.51178267008E+02	1.06648248136E+01	-1.78144750800E+02	-3.62142888843E+01	4.94102470726E+01	-6.01684215864E+00	1.69025953489E-01
3.16248764542E+05	-1.66658297587E+01	-1.45814099515E+02	1.06813112545E+01	-1.77099581994E+02	-2.40079699202E+01	1.48177643767E+02	-6.30868407213E+00	8.89882195750E-01
3.16477354866E+05	-3.14570494944E+01	1.53867695627E+02	1.06678194427E+01	-1.78118887469E+02	-4.46334360609E+01	1.21601943519E+02	-6.07265115521E+00	-3.25190966864E-01
3.16706110419E+05	-2.69062686675E+01	7.11234748433E+01	1.06211659462E+01	-1.77883275875E+02	-4.20506886225E+01	1.18976049387E+02	-6.06285677495E+00	-1.06668635452E-01
3.16935031321E+05	-1.86631790687E+01	1.57259663566E+02	1.06518794831E+01	-1.78056711408E+02	-4.46600131643E+01	-1.63229709083E+02	-6.03276043568E+00	-2.17944620852E-01
3.17164117691E+05	-2.23373069537E+01	-4.42601413722E+01	1.05357667886E+01	-1.77806126102E+02	-3.87396706624E+01	-1.07719326809E+02	-6.04935022636E+00	-7.64414959382E-01
3.17393369648E+05	-2.59434658316E+01	-4.17419733526E+01	1.06172361269E+01	-1.77492006063E+02	-3.79604207268E+01	-1.23809270674E+02	-6.08664374910E+00	-4.25083774348E-01
3.17622787313E+05	-1.69154030074E+01	-2.51358821250E+01	1.05456826299E+01	-1.78063915006E+02	-4.52514076712E+01	-1.03974147390E+02	-6.01753668870E+00	-5.33696491358E-01
3.17852370806E+05	-1.84252887621E+01	4.41480692718E+01	1.05112324265E+01	-1.77860922315E+02	-3.04408740872E+01	3.54730173142E+01	-5.91698099870E+00	6.09683286467E-01
3.18082120245E+05	-2.01329585819E+01	-1.82099737344E+01	1.06154252767E+01	-1.77415082157E+02	-3.83344269293E+01	-5.06700906693E+01	-5.99627674189E+00	-5.80193245742E-01
3.18312035752E+05	-2.25942641607E+01	-1.73100979499E+01	1.05622620131E+01	-1.77915715974E+02	-3.73626197012E+01	1.16875318218E+02	-6.07881657081E+00	7.70798437250E-02
3.18542117445E+05	-2.53847632964E+01	2.28326644443E+01	1.06146201818E+01	-1.78227028713E+02	-3.68410826790E+01	1.57082723583E+02	-6.08482365490E+00	2.13719909442E-03
3.18772365446E+05	-2.06040834999E+01	-8.24678024131E+01	1.05958786624E+01	-1.77412636266E+02	-4.62452232406E+01	-9.40703678240E+01	-5.99438587678E+00	-1.67500113919E-01
3.19002779874E+05	-2.52725850733E+01	1.67236994670E+02	1.06548830567E+01	-1.77687400911E+02	-3.66575484316E+01	9.04490774146E+01	-6.04408206491E+00	-6.42875629563E-03
3.19233360850E+05	-1.80161725086E+01	-1.26252074779E+02	1.06879292653E+01	-1.77333084380E+02	-3.57077811498E+01	-1.10859694215E+02	-6.03912594004E+00	-5.19743710044E-01
3.19464108494E+05	-2.12181822707E+01	8.91909867124E+01	1.06429433315E+01	-1.78055502507E+02	-3.25779048859E+01	1.03474278147E+02	-6.09210610685E+00	4.78574486272E-01
3.19695022927E+05	-1.45671258738E+01	7.61319891815E+01	1.06573393526E+01	-1.79137014286E+02	-2.95762682926E+01	-3.44697812493E+01	-5.91934810109E+00	-7.45885952815E-01
3.19926104268E+05	-1.61597523541E+01	1.66421758957E+01	1.04744046272E+01	-1.77715289403E+02	-4.58355001102E+01	1.35127389571E+02	-6.07673113844E+00	-2.37764157294E-01
3.20157352640E+05	-1.58345137160E+01	-3.04132034813E+01	1.05233125817E+01	-1.77768888850E+02	-3.89801005191E+01	1.12068693349E+02	-6.10554853552E+00	9.04035984135E-02
3.20388768162E+05	-1.89424153279E+01	-2.50271902466E+01	1.05575444457E+01	-1.77919451286E+02	-4.76477691358E+01	8.63140948689E+01	-6.05118242084E+00	-3.63454601781E-01
3.20620350955E+05	-2.46339069302E+01	-6.68688259240E+01	1.05492240470E+01	-1.77571949082E+02	-3.97296106061E+01	-1.16397031449E+02	-6.06205506525E+00	-4.57017348252E-01
3.20852101140E+05	-1.45198636947E+01	2.97720041582E+01	1.05332254072E+01	-1.77993057926E+02	-5.01740540301E+01	-1.61175237060E+02	-6.00905707246E+00	-3.09792562471E-01
3.21084018839E+05	-2.66240686035E+01	1.39339338430E+02	1.06658479907E+01	-1.78053177750E+02	-3.20903085937E+01	-1.22275694301E+01	-5.99745831947E+00	4.34358436850E-02
3.21316104172E+05	-1.16105570766E+01	-4.42402919640E+00	1.04072679944E+01	-1.77538589865E+02	-3.32447291153E+01	6.40177221124E+01	-5.94234431049E+00	4.86851179619E-01
3.21548357261E+05	-2.31411514003E+01	9.09496352766E+01	1.06124584313E+01	-1.78505552262E+02	-3.31644213916E+01	-5.12276920995E+01	-6.03694477016E+00	-4.48310059600E-01
3.21780778226E+05	-2.27013126766E+01	1.32714869154E+02	1.06063985789E+01	-1.78293934001E+02	-4.36031832511E+01	-1.23022702647E+01	-6.00063917429E+00	-1.91635981850E-01
3.22013367189E+05	-1.91749628767E+01	5.10970297279E+01	1.05456141659E+01	-1.78402593143E+02	-4.38227541081E+01	-1.04948898037E+01	-5.99037198821E+00	-1.96345143535E-02
3.22246124272E+05	-1.71366417133E+01	-4.30076796931E+01	1.05522154981E+01	-1.77446885286E+02	-3.91421868233E+01	-3.93184061439E+01	-5.98048611176E+00	-4.71885059885E-01
3.22479049596E+05	-2.04946024975E+01	2.96211904713E+01	1.05732277286E+01	-1.77840935414E+02	-3.87070354770E+01	-1.16088058363E+02	-6.04218873017E+00	-4.01916397310E-01
3.22712143282E+05	-1.86980155734E+01	1.13712258873E+02	1.06334388237E+01	-1.78440505409E+02	-3.56781990341E+01	-5.96397260013E+01	-5.99541211963E+00	-8.52247363376E-01
3.22945405453E+05	-2.27627700997E+01	-1.53910413400E+02	1.06253418550E+01	-1.77891970353E+02	-3.13349594000E+01	-8.49963402862E+01	-6.02093512006E+00	-1.00238271810E+00
3.23178836230E+05	-2.05302814939E+01	-8.10516666942E+01	1.06419190114E+01	-1.77858763109E+02	-4.94288508884E+01	1.59420419131E+02	-6.08591491205E+00	-2.94274236632E-01
3.23412435735E+05	-3.07374188154E+01	4.67374945624E+01	1.05883325322E+01	-1.77789402090E+02	-4.06238274228E+01	1.48745158502E+02	-6.06993417702E+00	-3.95050466471E-01
3.23646204090E+05	-1.78056617587E+01	8.05356189165E+01	1.05840201774E+01	-1.78545204448E+02	-3.69720647931E+01	-3.20546343698E+01	-5.99473282977E+00	-3.99882837294E-01
3.23880141417E+05	-1.66152110403E+01	3.60075159746E+01	1.05329725864E+01	-1.78386130094E+02	-3.95446073270E+01	-9.00430635571E+01	-6.04825469166E+00	-4.22004326850E-01
3.24114247838E+05	-1.87261787551E+01	5.96103120097E+01	1.06095872304E+01	-1.78383002603E+02	-6.85867955986E+01	2.75883818359E+01	-6.01869298973E+00	-4.99307152038E-01
3.24348523475E+05	-1.96266875227E+01	5.53410346411E+01	1.05739188325E+01	-1.78478712232E+02	-4.36287104350E+01	-7.12027751770E+01	-6.04187011109E+00	-3.63020690171E-01
3.24582968451E+05	-2.27396800460E+01	-2.57712543950E+01	1.06123894910E+01	-1.77857699906E+02	-3.19799303231E+01	7.93398461683E+01	-6.06524303912E+00	5.84001424812E-01
3.24817582888E+05	-1.46711518331E+01	1.82983483639E+01	1.05312253666E+01	-1.78339689866E+02	-3.60586791059E+01	-1.09271758710E+02	-6.04208643461E+00	-4.86684917655E-01
3.25052366909E+05	-2.31587258075E+01	5.28149020923E+01	1.05817530047E+01	-1.78079322337E+02	-3.85099997410E+01	3.00344525272E+01	-6.01031572980E+00	-2.07821514466E-02
3.25287320635E+05	-4.62760819256E+01	3.66503745677E+01	1.06131703984E+01	-1.77937198148E+02	-4.96069719850E+01	-4.50608808496E+01	-6.05269854812E+00	-1.75111767357E-01
3.25522444191E+05	-1.62525050811E+01	8.99657416312E+00	1.04931926742E+01	-1.77883140066E+02	-4.41796393328E+01	4.97190325799E+01	-6.04167715467E+00	-1.37214974449E-01
3.25757737698E+05	-2.38615053485E+01	-6.21465228367E+01	1.05900241444E+01	-1.77860824797E+02	-4.71688336205E+01	-1.64491300946E+02	-6.08009355121E+00	-1.74060774701E-01
3.25993201280E+05	-2.11589675091E+01	-1.65892630929E+02	1.06668487783E+01	-1.77614068750E+02	-3.49142103979E+01	3.66876466193E+01	-5.98683909162E+00	2.51227265163E-01
3.26228835058E+05	-2.16366689640E+01	4.72567679412E+01	1.05803274248E+01	-1.78332897613E+02	-3.87939821020E+01	-2.87169532707E+01	-5.96524219221E+00	-4.13266881427E-01
