# Hz S DB R 50
! CMT, M5065, 19127446, 24.2.4/2
! Date: 11/1/2024 3:50:27 PM
! Data: Format (Calibration Info)
! Freq	S11:dB/Ang(F2)	S21:dB/Ang(F2)	S12:dB/Ang(F2)	S22:dB/Ang(F2)
3.00000000000E+05	-2.99204305875E+01	-1.03618318726E+02	3.18340042308E+01	-1.73815472279E+02	-5.43986529699E+01	9.74412632859E+00	-5.96961461188E+00	1.09167794797E-01
3.00216845423E+05	-1.91272690016E+01	-1.97403341687E+01	3.17931923990E+01	-1.73564411112E+02	-3.62317175897E+01	-3.89950293666E+01	-5.43155419278E+00	-3.23204063989E+00
3.00433847586E+05	-1.97658701806E+01	1.23269345200E+01	3.17483448016E+01	-1.73901238401E+02	-4.35048849592E+01	1.78304075340E+02	-6.29957477209E+00	-1.43346175338E+00
3.00651006602E+05	-1.37151629653E+01	-1.02916878002E+02	3.18631861189E+01	-1.73174495823E+02	-3.65833585118E+01	1.28006663822E+02	-6.33721896730E+00	6.37089158984E-01
3.00868322584E+05	-1.58283261553E+01	5.64652019609E+00	3.17192037066E+01	-1.74079712096E+02	-3.06641044579E+01	-1.39091268694E+02	-6.80747003490E+00	-9.59733477778E+00
3.01085795647E+05	-1.13920491707E+01	3.28141703010E+00	3.16556587592E+01	-1.73995507559E+02	-4.61195101030E+01	-4.32169318368E+01	-5.82494072209E+00	-1.03437603365E+00
3.01303425902E+05	-1.48138823403E+01	2.18403011502E+01	3.17345293437E+01	-1.73960763428E+02	-3.69744682284E+01	-1.44829649768E+01	-5.52277640643E+00	-3.15880555739E-01
3.01521213465E+05	-1.58240306961E+01	1.25436122949E+00	3.17273884352E+01	-1.73899283536E+02	-3.48531340797E+01	1.72150746631E+02	-6.76321563559E+00	-1.30065355465E-01
3.01739158449E+05	-2.48383256083E+01	-6.11547772072E+01	3.18253510419E+01	-1.74051446647E+02	-3.69081654581E+01	8.77449263464E+01	-5.96619843883E+00	3.45827336675E+00
3.01957260967E+05	-1.45545636316E+01	-2.70126361414E+01	3.17495078886E+01	-1.73914420255E+02	-5.56924766347E+01	-9.66160580820E+01	-6.02767446901E+00	-7.72932045068E-01
3.02175521134E+05	-2.22774143829E+01	1.10171028628E+02	3.18770406096E+01	-1.74324364154E+02	-3.70867474866E+01	-6.23711588755E+01	-5.58037163930E+00	-3.18195279157E+00
3.02393939063E+05	-2.21815559768E+01	-1.17776554910E+02	3.18380051942E+01	-1.73914166939E+02	-3.53099656270E+01	-3.73125383464E+01	-5.32093957382E+00	-3.34759882476E+00
3.02612514869E+05	-1.45358430655E+01	6.39820790794E+01	3.17540648461E+01	-1.74865578683E+02	-4.53991307381E+01	1.60308229765E+02	-6.27674651960E+00	-1.32973429265E+00
3.02831248665E+05	-1.91285223333E+01	-3.32502350771E+01	3.17375933030E+01	-1.73981422316E+02	-3.59546974164E+01	-1.12676496431E+02	-6.23530101384E+00	-4.25632523637E+00
3.03050140565E+05	-1.44348377996E+01	-3.15633859835E+01	3.17407371990E+01	-1.73758219521E+02	-3.90343421652E+01	-5.92022373138E+01	-5.64399998620E+00	-2.97720838564E+00
3.03269190685E+05	-2.07202343970E+01	-4.54095388746E+01	3.17556471767E+01	-1.73814947025E+02	-3.41888779920E+01	-1.05563985918E+02	-6.08990004746E+00	-5.15017664012E+00
3.03488399138E+05	-1.81534018723E+01	-1.47662673476E+02	3.18752604265E+01	-1.73853591690E+02	-3.58725054881E+01	1.05411067227E+02	-6.10456468203E+00	3.28978187904E+00
3.03707766039E+05	-1.86240644819E+01	9.16554612414E+01	3.18169427706E+01	-1.74774421093E+02	-3.39291450867E+01	-2.34629477871E+01	-5.05645495392E+00	-1.34034703266E+00
3.03927291503E+05	-1.68729781934E+01	-1.78052245317E+02	3.19047111943E+01	-1.74001855861E+02	-3.83476719674E+01	-4.80832616897E+01	-5.30731879536E+00	-3.04412366026E+00
3.04146975643E+05	-1.87461994531E+01	3.17790749030E+01	3.17539966236E+01	-1.74433171038E+02	-4.17113614705E+01	-1.20799305393E+02	-6.10855246751E+00	-2.83833508601E+00
3.04366818575E+05	-2.21354744057E+01	-6.55972823961E+01	3.18189848014E+01	-1.73974127350E+02	-5.05529370186E+01	1.56901879119E+02	-6.10281650459E+00	-4.67357173099E-01
3.04586820414E+05	-1.77848202914E+01	2.55795091817E+01	3.17763412429E+01	-1.74581481875E+02	-3.66241097401E+01	-1.33852717436E+02	-6.33435182614E+00	-3.67663822086E+00
3.04806981274E+05	-1.85780525863E+01	-1.12656136564E+01	3.17657583470E+01	-1.74060124315E+02	-4.39913192946E+01	7.23802368455E-02	-5.76135443746E+00	-9.09037385280E-01
3.05027301270E+05	-1.61258199262E+01	-4.55606622283E+01	3.17479103084E+01	-1.73967584435E+02	-4.83846285057E+01	-3.06525501372E+01	-5.73252341872E+00	-1.25018635035E+00
3.05247780517E+05	-2.92208428099E+01	-8.77818517579E+01	3.18220262409E+01	-1.74261043594E+02	-4.22103121356E+01	1.35888525231E+01	-5.74520081832E+00	-1.48170565045E-01
3.05468419131E+05	-1.13143526662E+01	2.70650468077E+01	3.16917539239E+01	-1.74533888705E+02	-3.05931112609E+01	-1.42467734111E+02	-7.01376053613E+00	-6.87839326369E+00
3.05689217226E+05	-1.55111039024E+01	2.98777997069E+01	3.17258798796E+01	-1.74690929635E+02	-4.13996228137E+01	2.43562320935E+01	-5.77230451696E+00	1.48599473902E+00
3.05910174918E+05	-1.75201424225E+01	-4.40005920537E+01	3.17582775608E+01	-1.73971060220E+02	-3.53768993885E+01	1.03299930268E+02	-6.16723955577E+00	3.92452025434E+00
3.06131292322E+05	-1.58256641198E+01	3.71912823428E+01	3.17626753952E+01	-1.74622551065E+02	-4.10005789247E+01	-2.30029997364E+01	-5.61164870539E+00	-1.98606053667E+00
3.06352569554E+05	-1.46343464125E+01	-4.68144278726E+01	3.17818972477E+01	-1.73905905189E+02	-3.60710631803E+01	1.45410714092E+02	-6.45107428221E+00	1.74385145421E+00
3.06574006730E+05	-2.32185748881E+01	-4.71704620443E+01	3.17982482190E+01	-1.74212496310E+02	-3.66062398999E+01	1.61414997213E+02	-6.64834710974E+00	-7.37605525080E-02
3.06795603964E+05	-1.80003732916E+01	-8.67881422626E+01	3.17916901812E+01	-1.73961390443E+02	-6.59917691496E+01	-3.08498920956E+01	-6.02653053778E+00	-9.75728761876E-01
3.07017361372E+05	-1.50196819357E+01	-4.70503955701E+00	3.17283037128E+01	-1.74122778744E+02	-3.90639956812E+01	1.38004276172E+01	-5.34771241625E+00	9.28485564833E-01
3.07239279071E+05	-2.07509568295E+01	-4.51924970596E+01	3.18103925298E+01	-1.74160785253E+02	-4.16367834660E+01	-1.42305784961E+02	-6.32283430248E+00	-1.09802841241E+00
3.07461357176E+05	-2.31175675390E+01	-8.05808152335E+01	3.18046617855E+01	-1.74476955788E+02	-6.55100196379E+01	1.77840524719E+02	-5.93634927113E+00	6.23304100606E-01
3.07683595803E+05	-2.68710785920E+01	-7.49566091376E+01	3.18047852484E+01	-1.74520453962E+02	-4.56413404258E+01	1.11186069831E+02	-6.15733030682E+00	6.74994700505E-01
3.07905995068E+05	-1.54804572494E+01	-1.86721084025E+01	3.17304176037E+01	-1.74249255142E+02	-4.77554575618E+01	1.20483425438E+02	-5.97211773332E+00	7.12016725731E-02
3.08128555087E+05	-1.61709420986E+01	7.27208621949E+01	3.17972204697E+01	-1.75112772654E+02	-3.43216542041E+01	3.33752658065E+01	-5.42641189835E+00	1.97304372168E+00
3.08351275976E+05	-2.20287639767E+01	-7.08216510955E+01	3.18029537423E+01	-1.74335467950E+02	-4.03894404935E+01	-1.48685355665E+02	-6.31037794142E+00	-2.13755464248E+00
3.08574157853E+05	-3.23905038832E+01	1.35089496701E+02	3.18254589867E+01	-1.74894684817E+02	-3.78369290045E+01	-2.34848151268E+01	-5.35265646319E+00	-2.24729004091E+00
3.08797200832E+05	-1.21514069889E+01	-4.64585281776E+01	3.17449044798E+01	-1.74033225506E+02	-4.02527666818E+01	-1.16282871065E+02	-6.00505868905E+00	-3.85064108408E+00
3.09020405031E+05	-2.42631382824E+01	3.24476373366E+01	3.17897038671E+01	-1.75013525366E+02	-3.54493900834E+01	-1.70178096055E+02	-6.74312718465E+00	-1.54040225425E+00
3.09243770566E+05	-2.43205442538E+01	-1.58083390349E+02	3.18561973979E+01	-1.74818604571E+02	-3.55206217391E+01	9.87255160265E+00	-5.27629806427E+00	7.83523132293E-01
3.09467297553E+05	-2.96909302552E+01	-3.00217024416E+00	3.17703681927E+01	-1.74910407173E+02	-4.29212642349E+01	6.74963768237E+01	-5.88301484920E+00	2.16374006538E+00
3.09690986110E+05	-1.74614913309E+01	-1.52712152058E+01	3.17569600060E+01	-1.74576107898E+02	-4.61492176019E+01	-1.14433029492E+02	-6.06687546720E+00	-2.39017254192E+00
3.09914836353E+05	-2.00396488701E+01	-1.08850282626E+02	3.18624513136E+01	-1.74401097233E+02	-4.10546756366E+01	1.31226683527E+02	-6.23195435956E+00	1.57157070048E+00
3.10138848399E+05	-1.97746689754E+01	-1.75881728594E+01	3.17565180825E+01	-1.74612507066E+02	-2.86308939577E+01	1.73729688414E+01	-4.48827515615E+00	3.79896428829E+00
3.10363022365E+05	-1.57743456504E+01	-7.44070517039E+01	3.17903250877E+01	-1.74105793203E+02	-3.93362967607E+01	-1.29179734753E+01	-5.35968011686E+00	-1.42189134128E+00
3.10587358368E+05	-1.61167679650E+01	3.26738992350E+01	3.17290222755E+01	-1.75175521500E+02	-5.28840624912E+01	1.39209939414E+02	-6.08270488452E+00	-5.38372861231E-01
3.10811856525E+05	-1.30445608158E+01	-3.91874160025E+01	3.16911084774E+01	-1.74435724238E+02	-4.07552047043E+01	9.35199521472E+00	-5.61250335803E+00	1.12610013261E-01
3.11036516954E+05	-2.96508908986E+01	4.10865113158E+00	3.18121073713E+01	-1.74987682144E+02	-4.32712925325E+01	-7.12849492311E+01	-5.89718086508E+00	-2.33325925073E+00
3.11261339771E+05	-1.60382963856E+01	6.22136365881E+01	3.17924302266E+01	-1.75374554619E+02	-3.39227392610E+01	-1.74313133287E+02	-6.83889051578E+00	-1.34599645787E+00
3.11486325094E+05	-1.61485045599E+01	-8.18020325222E+00	3.17331932799E+01	-1.74916677226E+02	-4.31177674015E+01	-1.39145999011E+02	-6.31583937555E+00	-2.33663533943E+00
3.11711473040E+05	-1.69077776555E+01	-1.33596349808E+02	3.19009892477E+01	-1.74596824043E+02	-3.26255369680E+01	1.45187684192E+02	-7.10591572228E+00	4.62647431857E+00
3.11936783728E+05	-2.51788916435E+01	-3.51651807257E+00	3.17925733672E+01	-1.74703865619E+02	-2.96774959647E+01	-1.66123996563E+02	-7.44251851643E+00	-4.15857442657E+00
3.12162257274E+05	-2.14686577690E+01	-1.14891648184E+02	3.18515694690E+01	-1.74736715018E+02	-4.10268270819E+01	4.12117002322E+01	-5.70966902278E+00	1.03008913448E+00
3.12387893797E+05	-2.68997546743E+01	7.06867517346E+01	3.17833407224E+01	-1.75096071093E+02	-4.41938496711E+01	1.49881423880E+02	-6.28015864302E+00	-5.54148637065E-03
3.12613693413E+05	-3.28270016418E+01	5.74398494358E+01	3.18077297019E+01	-1.75054589924E+02	-4.92169040599E+01	1.35997600674E+02	-6.05118623414E+00	-4.50732392394E-01
3.12839656242E+05	-1.97386441625E+01	-4.23766705872E+01	3.17964941867E+01	-1.74696408630E+02	-5.24013485792E+01	-1.77953543818E+02	-6.09881374779E+00	-1.11556898401E+00
3.13065782401E+05	-1.70250553477E+01	-3.21726209202E+01	3.17497977639E+01	-1.74690297596E+02	-5.29271174154E+01	-5.23482231178E+01	-6.02555553818E+00	-1.52166318760E+00
3.13292072007E+05	-1.82864372936E+01	-1.08849057346E+01	3.17672036174E+01	-1.75128566540E+02	-3.09915285872E+01	1.05361671302E+02	-6.51458618201E+00	7.87002110577E+00
3.13518525180E+05	-1.98390600550E+01	-1.40789700296E+02	3.18939225869E+01	-1.74718311327E+02	-3.21934088578E+01	-1.29129468732E+02	-6.73059083310E+00	-7.48594592931E+00
3.13745142038E+05	-2.22390451982E+01	-5.84929320525E+01	3.18322574848E+01	-1.74726535763E+02	-4.62739973677E+01	9.80125488947E+01	-5.98407791380E+00	5.47104181243E-01
3.13971922698E+05	-1.80544843001E+01	-2.86217061323E+01	3.17777495232E+01	-1.74680601812E+02	-4.40177347853E+01	5.22529680816E+01	-5.90081208538E+00	5.72316763560E-01
3.14198867279E+05	-2.12998256225E+01	-1.74106406044E+02	3.19097209410E+01	-1.75025896178E+02	-4.12924411755E+01	4.72300147826E+01	-5.81667464576E+00	1.23776543857E+00
3.14425975900E+05	-2.26629790117E+01	2.66794355257E+00	3.17837430943E+01	-1.75165377469E+02	-4.01710473047E+01	-1.00405243437E+02	-6.05421617674E+00	-2.45679345863E+00
3.14653248680E+05	-1.44600943182E+01	7.36066295815E+00	3.17027306051E+01	-1.75319154507E+02	-6.32349130341E+01	8.17834649329E+01	-5.98995223770E+00	-3.42064292599E-01
3.14880685736E+05	-2.22776375523E+01	-1.76753460256E+02	3.18601291281E+01	-1.75090543451E+02	-2.55645807837E+01	-1.03260374653E+02	-5.89106267069E+00	-1.65825051741E+01
3.15108287188E+05	-1.39037666470E+01	3.82684887312E+01	3.16938750490E+01	-1.75788092575E+02	-3.69015729487E+01	-1.02594209790E+02	-6.08414263821E+00	-4.36384342358E+00
3.15336053154E+05	-2.69187646095E+01	4.68142218382E+01	3.18369836592E+01	-1.75514108487E+02	-4.02906645309E+01	4.30591668815E+01	-5.72507042213E+00	1.69274369903E+00
3.15563983753E+05	-2.45133844101E+01	1.05559953982E+02	3.18483947904E+01	-1.75193874935E+02	-3.72883080334E+01	-3.73516971740E+01	-5.62745135850E+00	-2.51881902568E+00
3.15792079105E+05	-1.46333073411E+01	-3.37258538721E+01	3.17123698247E+01	-1.74932183473E+02	-4.53905161042E+01	1.43195383447E+00	-5.75645067488E+00	-6.10791616810E-01
3.16020339328E+05	-2.23194516310E+01	-6.28347663615E+01	3.17980050582E+01	-1.75178432050E+02	-3.73886311791E+01	8.51730871293E+01	-5.98696408692E+00	3.51274428244E+00
3.16248764542E+05	-1.81012351284E+01	2.98971379023E+01	3.17642099522E+01	-1.75685290945E+02	-4.04510373691E+01	1.31752473005E+02	-6.24083672648E+00	1.12100496729E+00
3.16477354866E+05	-1.54232408104E+01	-7.05405517228E+01	3.17729155993E+01	-1.74604803856E+02	-3.43635470058E+01	4.90383978315E+01	-5.72699446962E+00	3.94693524678E+00
3.16706110419E+05	-8.39502374939E+00	6.29396063512E+01	3.17520182533E+01	-1.76824605832E+02	-3.29484885850E+01	-1.29157021428E+02	-6.61385455348E+00	-6.75039322595E+00
3.16935031321E+05	-1.41829892775E+01	-5.83834475384E+00	3.16996579406E+01	-1.75265003307E+02	-4.05481783988E+01	-3.37400331469E+01	-5.72060954021E+00	-1.55270274864E+00
3.17164117691E+05	-2.36370640037E+01	5.55348132052E+01	3.17824559114E+01	-1.75534110066E+02	-4.99076993982E+01	1.33419193827E+01	-5.91512314673E+00	-3.92089929249E-01
3.17393369648E+05	-1.50406068941E+01	2.26569007135E+01	3.17499499699E+01	-1.75740673411E+02	-4.63432257875E+01	-7.55488223906E+01	-5.97627592201E+00	-1.77828387983E+00
3.17622787313E+05	-1.87679383667E+01	-8.90266363199E+00	3.17434027713E+01	-1.75195675650E+02	-5.05118361441E+01	-2.44151172572E+01	-5.85962174582E+00	-1.50382527713E-01
3.17852370806E+05	-1.84066061097E+01	2.66646884324E+00	3.17582716249E+01	-1.75437714501E+02	-3.55292281829E+01	-1.17794249749E+02	-6.28413901891E+00	-4.52106394006E+00
3.18082120245E+05	-1.29281378653E+01	3.91277971302E+01	3.17281388116E+01	-1.76152303114E+02	-3.08050728441E+01	-1.54076308870E+02	-7.06231253634E+00	-4.26303818211E+00
3.18312035752E+05	-1.44783263632E+01	-1.77776580770E+02	3.19602807033E+01	-1.75569705353E+02	-3.55761683053E+01	-7.69536574488E+01	-5.72332007149E+00	-4.26900834400E+00
3.18542117445E+05	-2.35065218551E+01	6.46447065729E+01	3.18529105872E+01	-1.76054643811E+02	-3.88664187123E+01	6.52906437370E+01	-5.79705938417E+00	2.67224913709E+00
3.18772365446E+05	-2.28630262621E+01	2.66876971131E+01	3.18188259422E+01	-1.75731082770E+02	-4.94763574443E+01	-2.77676911263E+00	-5.89057664713E+00	9.14988276709E-03
3.19002779874E+05	-1.39477761642E+01	-1.61149930748E+01	3.16987374042E+01	-1.75448535998E+02	-4.91283825485E+01	6.99073954514E+01	-5.95215548676E+00	1.17943393313E-01
3.19233360850E+05	-1.84957258249E+01	4.17405996692E+01	3.17641561463E+01	-1.75620783650E+02	-3.81109090330E+01	1.36162401872E+02	-6.32732548431E+00	2.03093669454E+00
3.19464108494E+05	-1.86191705617E+01	-1.54768830390E+01	3.17702789524E+01	-1.75609129635E+02	-4.38320160453E+01	-4.73619679187E+01	-5.85875052470E+00	-2.15813328548E+00
3.19695022927E+05	-1.84719342235E+01	6.18164111259E-01	3.17466006424E+01	-1.75329052004E+02	-3.47357474660E+01	-7.45211147043E+01	-5.62440619033E+00	-5.02747457076E+00
3.19926104268E+05	-1.20198322770E+01	-4.23686831346E+01	3.17034973021E+01	-1.74954649666E+02	-4.04218092643E+01	4.19536920697E+01	-5.62857733844E+00	1.36553340558E+00
3.20157352640E+05	-1.44433477799E+01	-7.80375877699E+00	3.17360524663E+01	-1.75452457344E+02	-5.01740853344E+01	1.49485230551E+02	-5.95828348244E+00	-3.52203088619E-01
3.20388768162E+05	-2.29752524711E+01	5.84213751194E+01	3.17942532001E+01	-1.75804975678E+02	-3.90693866692E+01	-5.86987743372E+01	-5.80796285235E+00	-2.61675363052E+00
3.20620350955E+05	-2.69114697086E+01	1.34597924854E+02	3.18479102073E+01	-1.76021638164E+02	-4.45541732544E+01	-1.41249810302E+02	-6.17855626729E+00	-1.34328092803E+00
3.20852101140E+05	-2.13222790547E+01	3.77327189216E+01	3.18038055429E+01	-1.75897050951E+02	-3.73652761348E+01	-1.23280302283E+02	-6.32176505302E+00	-3.87093100427E+00
3.21084018839E+05	-1.53350795148E+01	-1.70245831702E+01	3.17405153760E+01	-1.75542733537E+02	-3.75715172619E+01	1.55915556749E+02	-6.53034692215E+00	4.38839190555E-01
3.21316104172E+05	-1.82588940354E+01	5.75390733083E+01	3.17612130065E+01	-1.76078464904E+02	-5.10622573905E+01	6.31536730080E+01	-5.95557220000E+00	1.33038082092E-01
3.21548357261E+05	-1.21885358431E+01	7.78905797370E+01	3.18304914308E+01	-1.76777862609E+02	-3.39293178873E+01	1.39956025342E+02	-6.85383017581E+00	2.64460034814E+00
3.21780778226E+05	-1.71940553590E+01	-3.04411735883E+00	3.17788374752E+01	-1.76048220364E+02	-3.90993022763E+01	-1.36664188066E+02	-6.30371553478E+00	-3.38943557872E+00
3.22013367189E+05	-2.39614657662E+01	-6.57460992429E+00	3.17856736675E+01	-1.75644659951E+02	-4.69811950008E+01	9.94185350242E+00	-5.74529930897E+00	-4.19494475195E-01
3.22246124272E+05	-1.47005787088E+01	-2.99175004884E+01	3.17191085832E+01	-1.75545974191E+02	-5.29585723583E+01	-9.08978945764E+01	-5.92951445141E+00	-1.60242117095E+00
3.22479049596E+05	-1.87057891123E+01	-1.44947326914E+01	3.17713115627E+01	-1.75649414809E+02	-4.41229875910E+01	6.91367320945E+01	-5.95910886150E+00	1.76924745884E+00
3.22712143282E+05	-1.78758412825E+01	1.06298207905E+02	3.18595786030E+01	-1.76203162801E+02	-3.58004473896E+01	-1.58505356868E+02	-6.54145485465E+00	-1.82002913711E+00
3.22945405453E+05	-1.71039890633E+01	-6.85928326355E+01	3.17968295944E+01	-1.75271766017E+02	-3.63469638402E+01	-6.76495154993E+01	-5.65324432382E+00	-4.19282489583E+00
3.23178836230E+05	-1.20804703439E+01	7.33519936656E+01	3.17916656823E+01	-1.76625434824E+02	-2.94338378748E+01	-1.77486832868E+02	-7.43578626144E+00	-3.76634766453E+00
3.23412435735E+05	-2.50106512326E+01	-1.30053581261E+02	3.18480295773E+01	-1.75669918576E+02	-4.99086625675E+01	3.65092869727E+01	-5.94410546936E+00	-2.16256542412E-01
3.23646204090E+05	-2.15902197955E+01	6.10607393561E+01	3.17957415857E+01	-1.76357470645E+02	-4.52941300460E+01	7.86725094846E+01	-5.98188496279E+00	6.45608614291E-01
3.23880141417E+05	-3.00908561126E+01	-4.14560608793E+01	3.18037538613E+01	-1.75911834357E+02	-4.42280880693E+01	-1.28366814850E+02	-6.04509364866E+00	-2.35780441560E+00
3.24114247838E+05	-3.13130415237E+01	4.39019538756E+01	3.18021425308E+01	-1.76135152887E+02	-3.89527303026E+01	-3.15437315407E+00	-5.63985849277E+00	-2.27954927772E-01
3.24348523475E+05	-1.47342671678E+01	1.69373934880E+01	3.17449347052E+01	-1.76162973211E+02	-4.47342120708E+01	-5.26781773388E+01	-5.84824649735E+00	-2.06498545863E+00
3.24582968451E+05	-1.80049186936E+01	-2.00239529598E+01	3.17545510418E+01	-1.75630925806E+02	-4.64620094527E+01	4.26282232356E+01	-5.85506845879E+00	-3.30768556054E-01
3.24817582888E+05	-1.58496987474E+01	4.76533712741E+01	3.17496510402E+01	-1.76609982356E+02	-4.35004972877E+01	-1.01375954473E+02	-6.11390308635E+00	-3.44480712135E+00
3.25052366909E+05	-1.44085252061E+01	1.93218908885E+01	3.17483426458E+01	-1.76321481150E+02	-3.86819405781E+01	-4.94059720324E+01	-5.77250517586E+00	-2.20104451878E+00
3.25287320635E+05	-1.38118383777E+01	-1.90494312271E+01	3.17212147582E+01	-1.75606925803E+02	-3.99147853599E+01	-1.13244967260E+02	-6.13629380157E+00	-3.56058226515E+00
3.25522444191E+05	-2.71478280946E+01	1.21285040688E+02	3.18299120961E+01	-1.76414842892E+02	-4.09475180220E+01	-1.31506086938E+02	-6.16953693383E+00	-2.46103652432E+00
3.25757737698E+05	-3.44259286960E+01	1.04272755493E+02	3.18125815412E+01	-1.76150905504E+02	-4.32909983232E+01	9.88808820148E+01	-6.21544624363E+00	1.26085351185E+00
3.25993201280E+05	-2.75190796591E+01	-9.10871147928E+01	3.18285655869E+01	-1.76001067731E+02	-4.39018291830E+01	-1.32329970325E+02	-6.13928988208E+00	-2.40514287062E+00
3.26228835058E+05	-1.60579484104E+01	6.25568667242E+00	3.17451927293E+01	-1.76066775889E+02	-3.63200106537E+01	-8.62909186443E+01	-5.87383695101E+00	-4.60772649275E+00
