# Hz S DB R 50
! CMT, M5065, 19127446, 24.2.4/2
! Date: 11/1/2024 3:49:52 PM
! Data: Format (Calibration Info)
! Freq	S11:dB/Ang(F2)	S21:dB/Ang(F2)	S12:dB/Ang(F2)	S22:dB/Ang(F2)
3.00000000000E+05	-1.46838861185E+01	4.49567354445E+01	2.93257107189E+01	-1.75184521289E+02	-4.79192791944E+01	-1.20919357851E+01	-5.79367003389E+00	-6.95001229086E-01
3.00216845423E+05	-2.36532736566E+01	2.69305451241E+00	2.93761099400E+01	-1.74554474668E+02	-4.62385622891E+01	-4.25523357923E+01	-5.95626934166E+00	-6.39286170056E-01
3.00433847586E+05	-1.62970676397E+01	-6.78696617614E+00	2.92940967968E+01	-1.74237404788E+02	-3.75518388092E+01	-9.98006570526E+01	-5.90967551827E+00	-3.28054610663E+00
3.00651006602E+05	-2.12038060301E+01	1.16268397020E+02	2.94027115224E+01	-1.74795390157E+02	-3.80091573288E+01	-3.94751591547E+01	-5.65948238252E+00	-2.82739609397E+00
3.00868322584E+05	-2.09301993536E+01	-1.38054589959E+01	2.93525093773E+01	-1.74375120336E+02	-4.01086726793E+01	-1.57633518334E+02	-6.24171694322E+00	-1.23698954617E+00
3.01085795647E+05	-2.33747269259E+01	1.73430350396E+02	2.94299134398E+01	-1.74428751709E+02	-4.54955885035E+01	8.73505630810E+01	-5.99705379176E+00	3.43536236772E-01
3.01303425902E+05	-1.71930792921E+01	-2.24404427717E+01	2.93417919657E+01	-1.74144061895E+02	-3.92404406536E+01	-1.11351038559E+02	-6.09679903176E+00	-1.99243064928E+00
3.01521213465E+05	-1.41264590970E+01	1.33623687163E+02	2.94588113122E+01	-1.75155665578E+02	-3.98043325058E+01	3.65841083711E+01	-5.77031882301E+00	8.42778292174E-01
3.01739158449E+05	-1.65725773575E+01	-2.86400639414E+01	2.93335458348E+01	-1.74044570575E+02	-4.89589695172E+01	-9.53493339671E+01	-5.99572831648E+00	-1.72927006599E+00
3.01957260967E+05	-1.83596737483E+01	-5.12748329188E+00	2.93381979910E+01	-1.74523695963E+02	-3.67525741796E+01	-3.43053863904E+00	-5.43154881096E+00	4.92188448304E-01
3.02175521134E+05	-2.03241879691E+01	-3.76756646316E+01	2.93752404626E+01	-1.74308270694E+02	-2.84569293937E+01	-3.53893029477E+01	-4.80424168620E+00	-3.00893296162E+00
3.02393939063E+05	-9.16655513813E+00	-5.12296881669E+01	2.92715036381E+01	-1.73740014160E+02	-3.70007948474E+01	-1.99516737200E+01	-5.71793515536E+00	-1.45976206851E+00
3.02612514869E+05	-7.48792995307E+00	4.39856949329E+01	2.92818824437E+01	-1.75797879375E+02	-5.18463894463E+01	1.73893210976E+02	-6.08838573487E+00	-2.52236946264E-01
3.02831248665E+05	-1.82366832793E+01	1.58570085685E+01	2.93747160352E+01	-1.74846936083E+02	-4.05783576416E+01	-1.78409637984E+02	-6.31461277416E+00	-6.70999365784E-01
3.03050140565E+05	-1.33679928567E+01	7.19659801467E+01	2.93530904572E+01	-1.75275037369E+02	-4.27676107528E+01	-5.67946311641E+01	-5.89737817816E+00	-1.81184730105E+00
3.03269190685E+05	-2.87931064797E+01	-1.52416626306E+02	2.93942205203E+01	-1.74612739592E+02	-3.83685764135E+01	-1.74565486410E+02	-6.39245910389E+00	-1.00926199706E+00
3.03488399138E+05	-1.95061935740E+01	3.55686474677E+01	2.93266523285E+01	-1.74890197403E+02	-3.10570068972E+01	-3.88981517018E+01	-5.20350702136E+00	-3.77528170842E+00
3.03707766039E+05	-1.61120988916E+01	-2.30988693262E+01	2.93160081242E+01	-1.74256457680E+02	-3.06724111371E+01	-9.92390259157E+01	-5.95543937569E+00	-7.30974461965E+00
3.03927291503E+05	-1.29129383974E+01	-1.04473990796E+02	2.94079730098E+01	-1.73757630759E+02	-4.44447973816E+01	1.00237890943E+02	-6.07614310894E+00	5.98922646480E-01
3.04146975643E+05	-1.90018849910E+01	1.39506074441E+01	2.93457779662E+01	-1.74853755427E+02	-4.39089485744E+01	7.45714960777E+01	-5.89180681985E+00	4.03840177884E-01
3.04366818575E+05	-1.46232419624E+01	-7.80881187230E+00	2.92996599516E+01	-1.74970597656E+02	-4.51646591812E+01	-4.36376941032E+01	-5.84025341776E+00	-1.37167461798E+00
3.04586820414E+05	-2.44697625599E+01	-1.76159343793E+02	2.94332685617E+01	-1.75109274933E+02	-3.75921722062E+01	-1.38068433910E+00	-5.57352138386E+00	-6.69029169165E-01
3.04806981274E+05	-1.50003557452E+01	8.13875606656E+01	2.93899672757E+01	-1.75423136726E+02	-4.45943251945E+01	5.11867272184E+01	-5.87230716401E+00	2.09719343066E-01
3.05027301270E+05	-1.85233086396E+01	5.30910520451E+01	2.93484218965E+01	-1.75210318716E+02	-3.35159410481E+01	1.85506088530E+00	-5.32992280605E+00	-2.19157018382E-01
3.05247780517E+05	-2.74457664310E+01	5.21549636665E+01	2.94006864463E+01	-1.74925909994E+02	-2.47348343665E+01	1.78437202988E+02	-8.54066329246E+00	-2.95716331425E+00
3.05468419131E+05	-1.63697273954E+01	4.96121816937E+01	2.93527715586E+01	-1.75252403196E+02	-3.64954280183E+01	9.27361887941E+01	-6.10526652395E+00	2.39127760004E+00
3.05689217226E+05	-2.66930663159E+01	-9.02091740651E+01	2.94038581875E+01	-1.74670769767E+02	-4.28521577385E+01	8.61420134514E+01	-5.95371152205E+00	7.96556317939E-01
3.05910174918E+05	-2.46699393621E+01	1.33573717827E+02	2.94512236049E+01	-1.75046109245E+02	-3.80041747684E+01	1.70038957636E+02	-6.41301753342E+00	2.08865399993E-01
3.06131292322E+05	-2.07011194502E+01	-1.34696269538E+02	2.94115795441E+01	-1.74482279671E+02	-3.52957848445E+01	4.33774005973E+01	-5.62320704023E+00	1.70023564927E+00
3.06352569554E+05	-2.80668925041E+01	-1.44988319096E+02	2.94140544445E+01	-1.74852225024E+02	-5.01560771491E+01	1.66481397471E+02	-6.09580910055E+00	-8.03574028753E-01
3.06574006730E+05	-1.30126699145E+01	8.23072715925E+00	2.92807194759E+01	-1.74984271262E+02	-4.71215716797E+01	-1.48909942467E+02	-6.14746924677E+00	-3.73999094787E-01
3.06795603964E+05	-1.69524107818E+01	5.82819893159E+01	2.93521606081E+01	-1.75317056250E+02	-4.03258144114E+01	9.09980733679E+01	-6.06658731339E+00	1.96535171015E+00
3.07017361372E+05	-2.42300978555E+01	1.11491480600E+02	2.93965265312E+01	-1.75088151164E+02	-3.74842842671E+01	-9.76881291932E+01	-6.03366073947E+00	-2.92623243922E+00
3.07239279071E+05	-2.58758293303E+01	-1.79902017178E+02	2.94395991317E+01	-1.74936651125E+02	-3.63252580589E+01	-8.42329910202E+01	-5.87258148241E+00	-3.33178495417E+00
3.07461357176E+05	-1.79071197463E+01	1.58387469189E+01	2.93345844304E+01	-1.74940616459E+02	-3.98874310678E+01	1.50913813313E+02	-6.26923334924E+00	1.52036693124E-01
3.07683595803E+05	-1.99209905920E+01	9.37778819044E+00	2.93568074819E+01	-1.74919899195E+02	-3.83828315272E+01	-1.43835213591E+02	-6.27813267847E+00	-2.11992377360E+00
3.07905995068E+05	-2.90472288253E+01	6.15722811481E+01	2.93664318064E+01	-1.75119347293E+02	-3.83551637038E+01	4.86882459707E+01	-5.69568163350E+00	1.61880520835E+00
3.08128555087E+05	-1.79595123842E+01	-7.83511583814E+01	2.93860588589E+01	-1.74608455500E+02	-3.63098931676E+01	-1.94394988249E+01	-5.46128308888E+00	-3.43467028054E-01
3.08351275976E+05	-2.01343690746E+01	1.76462799755E+01	2.93691338312E+01	-1.75132535905E+02	-3.00659629756E+01	-7.55861392790E+01	-5.56860355286E+00	-8.08579886760E+00
3.08574157853E+05	-2.33069046346E+01	4.16726881304E+01	2.93607326077E+01	-1.75339673383E+02	-4.10489076265E+01	4.44255843554E+01	-5.76036539061E+00	1.30887556186E+00
3.08797200832E+05	-1.26643799400E+01	6.51249916519E+01	2.93433561464E+01	-1.75792882107E+02	-5.02500900128E+01	8.90502586810E+01	-6.04113241705E+00	6.56090413035E-02
3.09020405031E+05	-2.28108613386E+01	1.02229116932E+02	2.93881952900E+01	-1.75413984493E+02	-4.95800675784E+01	-4.82185666176E+01	-5.99760158801E+00	-9.94225073299E-01
3.09243770566E+05	-1.65948585636E+01	1.01061091590E+02	2.93960537741E+01	-1.75649753881E+02	-4.92131566048E+01	-3.55361490452E+01	-5.93547807663E+00	-7.22321702633E-01
3.09467297553E+05	-1.43414586697E+01	-4.26136215567E+01	2.93409984085E+01	-1.74841976450E+02	-4.51112515607E+01	4.20870314028E+01	-5.85881128415E+00	-7.11677036533E-03
3.09690986110E+05	-1.73664877272E+01	-6.47524918730E+01	2.93719354227E+01	-1.74462309172E+02	-3.39079289426E+01	3.40263591193E+01	-5.47410713058E+00	2.71093006764E+00
3.09914836353E+05	-2.71308173645E+01	1.28475866594E+02	2.94239269647E+01	-1.75002292983E+02	-2.75959529912E+01	-9.66244588807E+01	-5.82314579416E+00	-1.09699941557E+01
3.10138848399E+05	-1.36230699665E+01	-1.05620822299E+02	2.94199911890E+01	-1.74320996376E+02	-4.13707250244E+01	-2.48256402552E+01	-5.71315515203E+00	-7.97262906205E-01
3.10363022365E+05	-1.42145655228E+01	-4.58743914520E+01	2.93258157889E+01	-1.74676602471E+02	-4.70391846409E+01	-4.97501947677E+01	-5.85942731753E+00	-1.10333098278E+00
3.10587358368E+05	-1.06212028592E+01	4.35031097833E+00	2.92294704572E+01	-1.75035542620E+02	-3.72222510494E+01	-1.65886889227E+02	-6.39495383474E+00	-1.72789420324E+00
3.10811856525E+05	-1.95256027535E+01	-2.56536552779E+01	2.93563108818E+01	-1.74973662321E+02	-5.08529710702E+01	-3.76208221211E+01	-5.88164440618E+00	-1.00356346888E+00
3.11036516954E+05	-3.01438118967E+01	5.90200433640E+01	2.93886738736E+01	-1.75286114678E+02	-3.32921301427E+01	9.04663347045E+01	-5.98188452542E+00	3.66833690408E+00
3.11261339771E+05	-1.45784888953E+01	-1.25670442886E+00	2.93164837828E+01	-1.75209876248E+02	-3.75433830663E+01	-9.52136185627E+01	-6.05144613261E+00	-3.85743695459E+00
3.11486325094E+05	-1.72056889692E+01	-8.28231936709E+00	2.93438395237E+01	-1.75090954032E+02	-2.61583636748E+01	-1.67280313213E+02	-7.96323008275E+00	-5.25530419416E+00
3.11711473040E+05	-1.66207879464E+01	-7.87547635430E+01	2.93808255925E+01	-1.74795828652E+02	-3.40711561032E+01	-4.85241161991E+01	-5.53830479874E+00	-3.40535443840E+00
3.11936783728E+05	-5.92672911776E+00	-3.85260917305E+00	2.90792048800E+01	-1.75224609505E+02	-3.60423582415E+01	-5.50616488856E+01	-5.72185402502E+00	-2.76745403766E+00
3.12162257274E+05	-1.49216582469E+01	-1.52619867438E+01	2.93478480449E+01	-1.75147952558E+02	-3.79575352440E+01	1.22332324169E+02	-6.17991985174E+00	1.57593923915E+00
3.12387893797E+05	-2.10713777099E+01	-1.02897327818E+02	2.94062054082E+01	-1.75081824957E+02	-4.69268432629E+01	-6.35953703789E+01	-5.84657971808E+00	-1.06727081208E+00
3.12613693413E+05	-3.34099514013E+01	-9.39237099776E+01	2.94306754165E+01	-1.75388595774E+02	-4.37585202643E+01	-1.31123195323E+02	-6.09166624068E+00	-1.52502799105E+00
3.12839656242E+05	-2.02366526268E+01	1.05180842047E+02	2.94268025907E+01	-1.75752407740E+02	-3.95191857923E+01	-1.11035364146E+02	-6.16944293271E+00	-2.00536543928E+00
3.13065782401E+05	-2.02794784096E+01	-1.84598163555E+01	2.93772457093E+01	-1.75109303682E+02	-2.95138712152E+01	2.74188867385E+01	-5.03779569285E+00	3.43125589757E+00
3.13292072007E+05	-2.56263175697E+01	2.75509308511E+01	2.93710175111E+01	-1.75338426346E+02	-3.45845854668E+01	8.83211869750E+00	-5.45977691506E+00	7.82800954243E-01
3.13518525180E+05	-5.82287761040E+00	-6.27351414441E+01	2.92241337151E+01	-1.73467533636E+02	-5.26416780378E+01	-6.75481093749E+01	-5.97869499543E+00	-7.82156832916E-01
3.13745142038E+05	-1.44894217742E+01	8.98021966893E+01	2.94104598974E+01	-1.76132899675E+02	-3.96645047065E+01	-1.28664374718E+02	-6.23020071596E+00	-2.54762679747E+00
3.13971922698E+05	-2.18216779765E+01	-1.91725790684E+01	2.93593017333E+01	-1.75422639735E+02	-4.23840756840E+01	-1.23730708386E+02	-6.10630944962E+00	-2.30790704810E+00
3.14198867279E+05	-1.85795879496E+01	1.23870591934E+00	2.93904549393E+01	-1.75357711305E+02	-3.54322766206E+01	-1.59653266599E+02	-6.57001164958E+00	-1.85487976369E+00
3.14425975900E+05	-1.58618023949E+01	-1.36768610153E+01	2.93413022733E+01	-1.75154227515E+02	-3.96337481912E+01	-3.96062679611E+01	-5.77618441800E+00	-8.75149359363E-01
3.14653248680E+05	-2.53783718873E+01	8.17367993092E+01	2.93883437408E+01	-1.75775241915E+02	-3.46808159877E+01	-7.41462481440E+01	-5.74752918011E+00	-4.91598632609E+00
3.14880685736E+05	-1.39863217472E+01	9.39634119615E-01	2.93209898974E+01	-1.75836623365E+02	-3.30715930971E+01	-5.38461580192E+01	-5.49610587089E+00	-3.53633056404E+00
3.15108287188E+05	-1.40593865510E+01	-1.75389009674E+01	2.93358520336E+01	-1.75577499971E+02	-3.76887352812E+01	-7.25430672123E+01	-5.88878056816E+00	-2.85507329761E+00
3.15336053154E+05	-1.00893399557E+01	3.81500773699E+01	2.92376540695E+01	-1.76533003706E+02	-3.56856097323E+01	1.52422072230E+02	-6.43954960508E+00	9.94913404689E-01
3.15563983753E+05	-1.83525187834E+01	1.32619265892E+01	2.93417438663E+01	-1.75476224638E+02	-3.80148290053E+01	6.14650446106E+01	-5.89246855636E+00	2.12578547463E+00
3.15792079105E+05	-2.32229956369E+01	-1.10656984948E+02	2.94464335664E+01	-1.75188949114E+02	-4.64500489104E+01	8.38240853113E+01	-5.94939276680E+00	2.99444449467E-02
3.16020339328E+05	-2.57697857512E+01	-3.31806020310E+01	2.94150929307E+01	-1.75426089332E+02	-3.91648972751E+01	-6.86623974179E+01	-5.92631894859E+00	-1.73339861650E+00
3.16248764542E+05	-2.11718244926E+01	-1.47887379612E+02	2.94415334481E+01	-1.75515168999E+02	-3.56463448888E+01	-6.36490015274E+01	-5.57007371961E+00	-3.90842677204E+00
3.16477354866E+05	-1.84205989652E+01	-2.05540513710E+00	2.93222592399E+01	-1.75354413505E+02	-5.74070799508E+01	1.17257106096E+01	-5.90575904896E+00	-3.83040332508E-01
3.16706110419E+05	-9.51976009734E+00	8.48650629491E+01	2.93467178730E+01	-1.77132226763E+02	-4.04703205627E+01	1.34940207883E+01	-5.74892349741E+00	3.38249731690E-01
3.16935031321E+05	-1.64224321353E+01	-1.75307772986E+01	2.93454639254E+01	-1.75468985514E+02	-3.94923507561E+01	-1.77785434155E+02	-6.30855483504E+00	-9.05335127818E-01
3.17164117691E+05	-1.48312947864E+01	2.05813787519E+01	2.92931297233E+01	-1.75792013269E+02	-3.67823780715E+01	2.64915870461E+01	-5.66789611379E+00	1.12827960562E+00
3.17393369648E+05	-2.23432150774E+01	2.68381877451E+01	2.93294190261E+01	-1.75628775012E+02	-4.19514188983E+01	7.99253314274E+01	-6.01968170923E+00	1.52847964314E+00
3.17622787313E+05	-1.84627898145E+01	-6.52840126585E+01	2.93996896752E+01	-1.75485460441E+02	-4.81102224156E+01	-1.64539751847E+02	-6.05041084950E+00	-8.16245725620E-01
3.17852370806E+05	-2.12496461180E+01	1.67030035215E+01	2.93626275327E+01	-1.75913240362E+02	-3.11645653434E+01	5.36629785960E+01	-5.36231885934E+00	5.13134391752E+00
3.18082120245E+05	-2.09835188607E+01	6.67586959725E+01	2.93799985675E+01	-1.75939222332E+02	-3.19568751667E+01	-5.13239201628E+01	-5.39214706398E+00	-4.66431675776E+00
3.18312035752E+05	-1.58501419605E+01	2.46518643657E+01	2.93194593680E+01	-1.76140561890E+02	-3.51253202237E+01	1.20733670868E+02	-6.28974047909E+00	2.37628827830E+00
3.18542117445E+05	-1.53241630263E+01	1.14650647889E+02	2.94639710853E+01	-1.76571732593E+02	-4.39649343185E+01	-6.94221039839E+01	-5.96755440165E+00	-1.84572094812E+00
3.18772365446E+05	-3.51298375826E+01	6.36116163836E+01	2.93726244767E+01	-1.76078376055E+02	-4.35919834058E+01	-4.30822918189E+00	-5.89464547150E+00	-6.05676368995E-01
3.19002779874E+05	-1.92418947806E+01	-1.30676666954E-01	2.93420961490E+01	-1.75697792291E+02	-3.86192949439E+01	-1.21641854869E+01	-5.60881619303E+00	-8.56870871770E-01
3.19233360850E+05	-2.13817039527E+01	-6.73335323199E+01	2.94109326150E+01	-1.75630961031E+02	-3.45816224677E+01	-5.02696132654E+01	-5.69192899055E+00	-3.77330491256E+00
3.19464108494E+05	-1.60014816279E+01	4.45361991163E+01	2.93471701847E+01	-1.75972942661E+02	-2.50025470324E+01	1.51492993320E+02	-8.15469718236E+00	4.65605309425E+00
3.19695022927E+05	-1.65127184643E+01	4.98148961693E+01	2.93451395427E+01	-1.76245362709E+02	-5.27458578063E+01	1.42832681837E+02	-5.95868099326E+00	7.46882792522E-02
3.19926104268E+05	-1.06038769732E+01	1.62904268817E+02	2.95899576209E+01	-1.76166558778E+02	-4.07095698679E+01	-2.25245211605E+01	-5.80477998765E+00	-1.14254580781E+00
3.20157352640E+05	-1.50935820223E+01	1.16074008619E+02	2.94666003264E+01	-1.76725113454E+02	-3.90459288261E+01	8.15573814674E+01	-5.93930519028E+00	2.21472108567E+00
3.20388768162E+05	-1.80579334578E+01	1.32005372690E+02	2.94462736638E+01	-1.76202444507E+02	-4.32202255378E+01	1.25397231106E+02	-6.11783088463E+00	4.68649886445E-01
3.20620350955E+05	-1.76523586814E+01	2.55338537783E+01	2.93468479177E+01	-1.76251306688E+02	-3.22712483624E+01	-1.75597068727E+02	-6.84696020975E+00	-1.58814515522E+00
3.20852101140E+05	-1.95662714677E+01	-5.31611604486E+01	2.93742182310E+01	-1.75596548630E+02	-4.49214239913E+01	-1.09080232725E+02	-6.08190210339E+00	-1.15372433432E+00
3.21084018839E+05	-1.96559378557E+01	1.34074964604E+02	2.94918066531E+01	-1.76158358382E+02	-3.00927040958E+01	-9.59227771762E+01	-5.93753099314E+00	-7.64293450578E+00
3.21316104172E+05	-2.03869216473E+01	-6.41995749828E+01	2.93786135533E+01	-1.75613837307E+02	-4.18997470212E+01	-1.42363179977E+02	-6.13185883170E+00	-1.11716441529E+00
3.21548357261E+05	-1.56808841766E+01	-1.39567832836E+01	2.93140794624E+01	-1.75701083319E+02	-3.70260183560E+01	7.30404300055E+01	-5.96770014770E+00	1.61278070286E+00
3.21780778226E+05	-1.59752906342E+01	5.61464451200E+00	2.93018530326E+01	-1.75997928550E+02	-4.25961686954E+01	1.31238946877E+02	-6.21138156453E+00	1.71733012714E-01
3.22013367189E+05	-1.90065156703E+01	2.11192874398E+01	2.93443625667E+01	-1.76129182569E+02	-4.51011733748E+01	1.65510091586E+02	-6.17091565792E+00	3.21467786044E-02
3.22246124272E+05	-2.30846134320E+01	-6.89554849220E+01	2.93892920567E+01	-1.75813396858E+02	-3.84678257783E+01	1.28320406302E+02	-6.19583572770E+00	9.64877191486E-01
3.22479049596E+05	-1.57604050854E+01	6.83658046147E+00	2.93168265155E+01	-1.76028043282E+02	-3.63468293995E+01	-4.22459091621E+01	-5.60401291270E+00	-2.42181147680E+00
3.22712143282E+05	-1.69432666209E+01	3.48557443227E-01	2.93328600667E+01	-1.75967393525E+02	-3.71533505410E+01	-9.57828119382E+01	-5.83058778738E+00	-3.22133766517E+00
3.22945405453E+05	-2.15917297551E+01	-2.87451150702E+01	2.93622868604E+01	-1.75892395029E+02	-3.36237113407E+01	5.73649037924E+00	-5.20564183607E+00	4.85892870684E-01
3.23178836230E+05	-1.43351459669E+01	-1.50967513944E+01	2.93011894682E+01	-1.75842521079E+02	-3.83510153676E+01	-1.50944506487E+02	-6.30013928919E+00	-2.07569550125E+00
3.23412435735E+05	-1.86795375648E+01	8.82393247197E+01	2.94348967589E+01	-1.76568346426E+02	-4.40465050221E+01	3.63407009314E+01	-5.85539124207E+00	5.10782616964E-01
3.23646204090E+05	-2.86099563549E+01	-3.45157737758E+00	2.93639440481E+01	-1.76074651004E+02	-4.03041039839E+01	-3.30060421595E+00	-5.68929382946E+00	-7.77372263624E-01
3.23880141417E+05	-2.18584082715E+01	1.38062618391E+01	2.93562305561E+01	-1.76327106333E+02	-3.91270988702E+01	2.76754295546E+01	-5.74050484153E+00	6.27700137922E-01
3.24114247838E+05	-2.01509890240E+01	-4.30146031031E+01	2.93843525072E+01	-1.75792900138E+02	-4.95017533165E+01	-3.95128699688E+01	-5.92942426379E+00	-5.98436007403E-01
3.24348523475E+05	-2.37264046442E+01	-6.90435744833E+01	2.94125500638E+01	-1.75914601667E+02	-3.95932602888E+01	-1.47555885361E+02	-6.16455077766E+00	-1.45148208872E+00
3.24582968451E+05	-1.54646877546E+01	-3.43800062758E+01	2.93116939434E+01	-1.75777958549E+02	-3.49993609722E+01	-1.37743874012E+02	-6.36747508935E+00	-4.76456166870E+00
3.24817582888E+05	-1.73250548140E+01	-3.14961903015E+01	2.93323222164E+01	-1.75815029510E+02	-4.16883119295E+01	-6.34056303190E+01	-5.87355003473E+00	-1.74753875229E+00
3.25052366909E+05	-7.77575184281E+00	-1.97313389714E+01	2.91666039750E+01	-1.75641981398E+02	-3.52416099170E+01	-7.98179301273E+00	-5.46817005564E+00	-2.69153466584E-01
3.25287320635E+05	-2.33072457514E+01	4.23494349392E+01	2.94122447238E+01	-1.76512542815E+02	-3.83851375832E+01	-8.33675410056E+01	-5.89669535565E+00	-2.84159564480E+00
3.25522444191E+05	-2.67410463634E+01	3.65360256678E+01	2.93911731564E+01	-1.76231916169E+02	-3.56674280344E+01	1.76311015092E+01	-5.53377528747E+00	4.77892842593E-01
3.25757737698E+05	-2.42595949145E+01	-8.38422737973E+01	2.94310821693E+01	-1.76120943083E+02	-4.66836335062E+01	6.44931678385E+01	-6.00252537058E+00	7.61782186246E-01
3.25993201280E+05	-2.47426613791E+01	8.84202415979E+01	2.93888803002E+01	-1.76363264684E+02	-3.73517448148E+01	-1.15607775277E+02	-6.13015774724E+00	-3.95621140067E+00
3.26228835058E+05	-3.25002078607E+01	1.99070287919E+01	2.93963551036E+01	-1.76257658547E+02	-3.48677294073E+01	-1.27942035885E+02	-6.41473792232E+00	-4.89435539739E+00
