# Hz S DB R 50
! CMT, M5065, 19127446, 24.2.4/2
! Date: 11/1/2024 3:48:43 PM
! Data: Format (Calibration Info)
! Freq	S11:dB/Ang(F2)	S21:dB/Ang(F2)	S12:dB/Ang(F2)	S22:dB/Ang(F2)
3.00000000000E+05	-1.45990957055E+01	-1.32329986703E+02	2.53995050288E+01	-1.75264244240E+02	-3.88596768222E+01	-7.86949198591E+01	-5.93484371625E+00	-2.35025192980E+00
3.00216845423E+05	-1.55797915594E+01	-6.93177039202E+01	2.52920027407E+01	-1.75061955953E+02	-4.22517843637E+01	1.09649660589E+02	-6.07700130862E+00	5.18728019312E-01
3.00433847586E+05	-1.64897675190E+01	-3.15169271543E+01	2.52328434111E+01	-1.75438330867E+02	-3.86907221712E+01	7.44205010520E+01	-5.95461485919E+00	6.90884212025E-01
3.00651006602E+05	-1.68134339138E+01	-6.19585322388E+01	2.52916581770E+01	-1.75130977101E+02	-3.66168842723E+01	7.81726667098E+01	-5.96870765696E+00	1.30896098287E+00
3.00868322584E+05	-1.45053485243E+01	2.05740401380E+01	2.51775912375E+01	-1.76207279517E+02	-4.47116935294E+01	-1.30800777562E+00	-5.96344289343E+00	-8.25929327480E-01
3.01085795647E+05	-1.35053455981E+01	-4.51191389373E+01	2.51980002369E+01	-1.75185935239E+02	-3.68157696493E+01	2.02955343438E+01	-5.74128165021E+00	4.40350301388E-02
3.01303425902E+05	-1.87423990642E+01	1.19742329894E+02	2.53624222031E+01	-1.76126824141E+02	-3.77686132555E+01	9.98990500385E+00	-5.61548664391E+00	8.10418603155E-01
3.01521213465E+05	-2.05170317983E+01	3.94267863477E+01	2.52422802582E+01	-1.76033436244E+02	-4.39235895839E+01	1.60233214851E+02	-6.15969785782E+00	2.33789274087E-01
3.01739158449E+05	-2.06831112117E+01	5.33477469386E+01	2.52652377849E+01	-1.76003916757E+02	-4.85022319220E+01	-1.16087266471E+02	-6.02224812854E+00	-7.53489425348E-01
3.01957260967E+05	-2.16113920505E+01	-1.73038945590E+02	2.53578341646E+01	-1.75632968306E+02	-4.28750984800E+01	-7.73141577278E+01	-5.96197535540E+00	-9.58923016719E-01
3.02175521134E+05	-1.52709064567E+01	-2.71798863240E+01	2.52273953809E+01	-1.75602141831E+02	-4.61012822945E+01	-7.40721452876E+00	-5.91468544063E+00	-2.06855710429E-01
3.02393939063E+05	-1.57944050177E+01	1.05895541698E+02	2.53416890436E+01	-1.76349848601E+02	-4.56593662347E+01	-4.06472313941E+01	-5.90587469388E+00	-5.41685771022E-01
3.02612514869E+05	-2.27009854284E+01	-1.01382260198E+02	2.53339995914E+01	-1.75198483555E+02	-3.54570804020E+01	5.50568177944E+00	-5.74098229616E+00	1.31624366842E-01
3.02831248665E+05	-1.93411346737E+01	2.84529342329E+01	2.52732662164E+01	-1.75627354125E+02	-3.54489008270E+01	-1.57772616214E+02	-6.35821201435E+00	-2.18611002513E+00
3.03050140565E+05	-2.08142638107E+01	4.49511062685E+01	2.52733604834E+01	-1.75981684572E+02	-3.13186365288E+01	-4.89264793128E+01	-5.47804993184E+00	-3.36148191881E+00
3.03269190685E+05	-2.62042692804E+01	1.49740054169E+01	2.53024178726E+01	-1.75850369981E+02	-3.75002505722E+01	1.40118835689E+02	-6.26839143145E+00	1.12190955928E+00
3.03488399138E+05	-2.00360359961E+01	1.65949744988E+01	2.52458761328E+01	-1.75758584880E+02	-4.21596809519E+01	-4.84055231313E+01	-5.95339816178E+00	-1.09638990117E+00
3.03707766039E+05	-2.43060384717E+01	-1.12342594025E+02	2.53260362162E+01	-1.75500690726E+02	-6.10947953660E+01	1.43521132705E+02	-6.00687317823E+00	-3.81774786647E-01
3.03927291503E+05	-1.68526187197E+01	1.27633108483E+02	2.53797148049E+01	-1.76292906043E+02	-3.39048568686E+01	-6.07360361845E+01	-5.80258948887E+00	-2.30862027438E+00
3.04146975643E+05	-2.03079856039E+01	1.32355797728E+02	2.53421730939E+01	-1.76045669908E+02	-4.22819838974E+01	5.03817018816E+01	-5.90614561034E+00	4.52002856010E-01
3.04366818575E+05	-2.36666482219E+01	3.04145441085E+01	2.52751513305E+01	-1.75817607158E+02	-2.98035998564E+01	2.02678555917E+01	-5.42325127779E+00	1.78682907654E+00
3.04586820414E+05	-2.47391189106E+01	7.66423812962E+01	2.53209255611E+01	-1.75832134717E+02	-4.49498598361E+01	-1.78339040955E+02	-6.13888691940E+00	-8.16397705693E-01
3.04806981274E+05	-3.53257171963E+01	-6.62835135222E+01	2.52861557520E+01	-1.75725392247E+02	-3.76873762417E+01	1.33724079037E+02	-6.22549662367E+00	8.83516127778E-01
3.05027301270E+05	-1.46705715221E+01	3.66800653685E+01	2.52344804206E+01	-1.76207667393E+02	-3.98513304145E+01	-1.86537268399E+01	-5.82421114288E+00	-1.00291485445E+00
3.05247780517E+05	-2.35347823582E+01	-1.65375654417E+01	2.52760607465E+01	-1.75785927937E+02	-4.90188552061E+01	-1.24440040570E+02	-6.06895742735E+00	-7.80740074137E-01
3.05468419131E+05	-1.64119961748E+01	1.65396985286E+02	2.54117453773E+01	-1.75963055462E+02	-3.45537470841E+01	3.19118043295E+01	-5.67699039836E+00	1.04886596982E+00
3.05689217226E+05	-1.68350269102E+01	6.45496992545E+01	2.52913828780E+01	-1.76549197903E+02	-4.50463285415E+01	-9.44303151811E+01	-6.01834723092E+00	-1.30992352393E+00
3.05910174918E+05	-1.24023691068E+01	-3.98417158456E+01	2.52004704500E+01	-1.75439014502E+02	-4.23075821287E+01	8.55434011668E+01	-6.00090978447E+00	1.04419834439E+00
3.06131292322E+05	-1.49802557710E+01	-2.66518214030E+01	2.51946968964E+01	-1.75595836092E+02	-4.11762050031E+01	-2.64617272007E+01	-5.80925806805E+00	-1.43576978399E+00
3.06352569554E+05	-2.83450337118E+01	-1.14960713473E+02	2.53009084327E+01	-1.75913511765E+02	-3.96660066834E+01	-5.00885907689E+01	-5.84654905065E+00	-1.39284117055E+00
3.06574006730E+05	-2.40749626036E+01	-8.92873871602E+01	2.52937335558E+01	-1.75771833895E+02	-4.64142267564E+01	2.55462897009E-01	-5.96066009585E+00	-2.20745012513E-01
3.06795603964E+05	-2.15993522546E+01	-1.07115588323E+00	2.52849757804E+01	-1.76146883821E+02	-4.58889864046E+01	2.23784039228E+01	-5.86820067055E+00	-3.82957214689E-01
3.07017361372E+05	-1.27515895353E+01	-1.35837734782E+01	2.51728443198E+01	-1.76073054438E+02	-3.55834420691E+01	-3.69152318374E+01	-5.76339410594E+00	-1.70661038479E+00
3.07239279071E+05	-1.52542315043E+01	-1.00212363088E+02	2.53862941882E+01	-1.75249133993E+02	-4.18057354864E+01	1.72257049134E+02	-6.17233270711E+00	-1.85818010226E-02
3.07461357176E+05	-2.54343780207E+01	-6.99318274270E+01	2.52968305964E+01	-1.75788001435E+02	-3.62855610935E+01	-1.56470678132E+01	-5.61400113830E+00	-4.52225804296E-01
3.07683595803E+05	-1.89449553366E+01	7.99093331121E-02	2.52621738289E+01	-1.75916390334E+02	-3.21135603961E+01	-5.87910644478E+00	-5.48172661653E+00	-4.18858640051E-01
3.07905995068E+05	-1.58124584864E+01	-1.95412589396E+00	2.51932483597E+01	-1.75795638440E+02	-3.56141566969E+01	1.52151735303E+02	-6.35375198031E+00	3.52273100951E-01
3.08128555087E+05	-2.06575842117E+01	1.13572681961E+02	2.53306959790E+01	-1.76201251839E+02	-3.86777611024E+01	-1.36146632375E+02	-6.16232802800E+00	-1.53819869724E+00
3.08351275976E+05	-1.90597071203E+01	5.67075682681E+01	2.52622665865E+01	-1.76194124801E+02	-4.31060413343E+01	-4.99515483675E+01	-5.90908276664E+00	-1.02009716616E+00
3.08574157853E+05	-1.65891944742E+01	-1.15255433106E+02	2.53338206116E+01	-1.75612092273E+02	-3.25492208115E+01	7.38301601064E+01	-5.82403084348E+00	2.83783327834E+00
3.08797200832E+05	-1.00871555448E+01	4.05026885499E+01	2.51985961473E+01	-1.76907122866E+02	-4.70737713227E+01	6.54662920231E+01	-6.01952629871E+00	2.06795784498E-01
3.09020405031E+05	-2.79091906291E+01	4.31018773264E+01	2.52936858900E+01	-1.76327430787E+02	-3.49063624690E+01	-4.15501625925E+01	-5.66512006271E+00	-2.31080026891E+00
3.09243770566E+05	-2.08559354131E+01	1.55591421958E+02	2.53507401459E+01	-1.76105448066E+02	-3.86742960460E+01	-1.58962468606E+02	-6.39835862650E+00	-1.29759542609E+00
3.09467297553E+05	-2.89879615696E+01	-6.75361996165E+01	2.52962384163E+01	-1.76218605514E+02	-3.66882830868E+01	8.49655229555E+01	-5.98144862315E+00	1.65395597897E+00
3.09690986110E+05	-1.62344930376E+01	2.66432748181E+00	2.52492435851E+01	-1.76024309975E+02	-4.16242319560E+01	-1.52095604077E+02	-6.10326776401E+00	-5.25543828254E-01
3.09914836353E+05	-1.56641574073E+01	4.16812712387E+01	2.52239539875E+01	-1.76740414337E+02	-3.91780077216E+01	-9.11230285968E+01	-5.98421179285E+00	-1.85682409690E+00
3.10138848399E+05	-1.36562148322E+01	-6.18927024544E+01	2.52152744609E+01	-1.75233775234E+02	-4.12230188796E+01	1.56370741058E+02	-6.15906048660E+00	-2.20545913361E-01
3.10363022365E+05	-2.30339684484E+01	8.34117509145E+00	2.52624653158E+01	-1.76352453299E+02	-5.18133389841E+01	5.09426709972E+01	-5.99718928350E+00	3.17586761394E-02
3.10587358368E+05	-1.81079043039E+01	-5.36106489102E+01	2.52574459462E+01	-1.75940696315E+02	-3.00413595369E+01	-5.98167203436E+01	-5.63710467708E+00	-3.82236857642E+00
3.10811856525E+05	-1.33556769702E+01	-5.05202947415E+01	2.52166247427E+01	-1.75673980282E+02	-3.29330320075E+01	-1.41646339066E+02	-6.46264817202E+00	-4.14880426774E+00
3.11036516954E+05	-2.01051944442E+01	1.28053392171E+01	2.52423456848E+01	-1.76367700517E+02	-3.82603546477E+01	1.17712258292E+02	-6.15969121725E+00	9.71290002920E-01
3.11261339771E+05	-2.53312543511E+01	-7.99497639348E+01	2.52685211180E+01	-1.76135144439E+02	-3.44261600779E+01	-7.23374325128E+01	-5.80829318654E+00	-2.42822116177E+00
3.11486325094E+05	-2.32597710927E+01	7.37446465346E+01	2.53101644979E+01	-1.76372997375E+02	-5.22229704642E+01	1.27116431545E+02	-6.04199842393E+00	-3.98834793730E-03
3.11711473040E+05	-2.21077157655E+01	1.21662304506E+02	2.53465339330E+01	-1.76646013786E+02	-3.27871915235E+01	-2.34336593254E+01	-5.61594063091E+00	-1.67840786700E+00
3.11936783728E+05	-7.77826771118E+00	1.43022594889E+02	2.55403083739E+01	-1.77008559115E+02	-4.47480494063E+01	-5.08606246417E+01	-5.92583229982E+00	-1.61721769421E+00
3.12162257274E+05	-2.56421068553E+01	-1.54899381475E+02	2.53617000445E+01	-1.76132542577E+02	-4.51900265032E+01	-9.66619985150E+01	-6.05541695924E+00	-1.36246179939E+00
3.12387893797E+05	-1.80114638211E+01	-1.27270792584E+02	2.53492034807E+01	-1.76076026321E+02	-4.29204321229E+01	-3.97730844434E+01	-5.85555264425E+00	-1.29401169872E+00
3.12613693413E+05	-2.45311007323E+01	4.57693972596E+01	2.52984317425E+01	-1.76232881456E+02	-4.01866511305E+01	-1.06023482262E+02	-6.06652636868E+00	-1.77270965761E+00
3.12839656242E+05	-1.75969209931E+01	-2.46865547188E+01	2.52434629035E+01	-1.76182430122E+02	-3.49231898946E+01	-4.76809221894E+01	-5.80467615474E+00	-2.04393185116E+00
3.13065782401E+05	-1.45649960865E+01	7.07619301619E+01	2.52232223484E+01	-1.77198858074E+02	-3.68413300554E+01	-1.54388790642E+02	-6.22603569130E+00	-1.04509341129E+00
3.13292072007E+05	-1.68730477197E+01	-3.10123274637E+01	2.52268006318E+01	-1.76024646683E+02	-3.88718819399E+01	5.91771319662E+01	-5.87273880702E+00	1.34332373318E+00
3.13518525180E+05	-5.78214440702E+00	2.15199497738E+01	2.50035854924E+01	-1.77038660989E+02	-3.48487276647E+01	1.30699455998E+02	-6.19388979505E+00	1.39311613223E+00
3.13745142038E+05	-1.49306077974E+01	5.68283794911E+01	2.52771097838E+01	-1.76634326076E+02	-5.13730773304E+01	1.33316423924E+01	-5.91811704440E+00	-4.58103434032E-01
3.13971922698E+05	-1.74526561022E+01	3.32726112152E+01	2.52527134778E+01	-1.76395393770E+02	-2.42085410614E+01	1.54761144082E+02	-7.72002635865E+00	5.36015011913E+00
3.14198867279E+05	-2.17969776338E+01	8.49599844513E+01	2.53353854556E+01	-1.76482492088E+02	-3.26060677965E+01	-1.48117656046E+02	-6.35484336793E+00	-2.17727422515E+00
3.14425975900E+05	-1.74922282094E+01	-9.93841158979E+01	2.53331423371E+01	-1.75955422750E+02	-4.05095274754E+01	8.24462172833E+01	-6.03448588331E+00	6.69324460372E-01
3.14653248680E+05	-2.58240432611E+01	-1.59731807323E+02	2.53465137708E+01	-1.76211381883E+02	-3.81998357053E+01	-9.10161244070E+00	-5.79409634145E+00	-4.20490317922E-01
3.14880685736E+05	-3.54249248374E+01	-1.34274986290E+02	2.53464448447E+01	-1.76285512154E+02	-3.94129088997E+01	3.48513427236E+01	-5.85972379607E+00	1.52144135964E-01
3.15108287188E+05	-1.83723639691E+01	-3.71886062343E+01	2.52941907615E+01	-1.76220275761E+02	-5.14616894861E+01	-6.18368459996E+01	-5.92448880960E+00	-9.86041280846E-01
3.15336053154E+05	-2.81033080874E+01	1.31795163382E+01	2.53077235768E+01	-1.76395629633E+02	-3.70643273722E+01	-1.57151670115E+02	-6.31167507101E+00	-1.04108089571E+00
3.15563983753E+05	-2.10931367220E+01	9.24011326766E+01	2.53377986253E+01	-1.76787564363E+02	-2.39982433955E+01	1.18946504144E+02	-6.85333739821E+00	8.65762907093E+00
3.15792079105E+05	-1.78243764511E+01	-2.21133947821E+01	2.52793893052E+01	-1.76164127871E+02	-6.94801210479E+01	2.56106552028E+01	-6.03953638349E+00	-8.40051290117E-01
3.16020339328E+05	-1.36808059310E+01	-4.07565111147E+01	2.52107613687E+01	-1.75884241609E+02	-3.58466385314E+01	-1.67815175075E+02	-6.35424508256E+00	-9.61688850011E-01
3.16248764542E+05	-1.50391123513E+01	3.76935856739E+01	2.52226841367E+01	-1.76734916789E+02	-4.43708458261E+01	-6.00494582719E+01	-5.91078696431E+00	-7.61852635469E-01
3.16477354866E+05	-2.84320372896E+01	-1.17566193130E+01	2.52812254602E+01	-1.76232399279E+02	-3.62233326145E+01	-1.35183366277E+02	-6.20876131612E+00	-1.99603867334E+00
3.16706110419E+05	-1.50161200196E+01	-3.64136962689E+01	2.51886268231E+01	-1.75885107039E+02	-3.49945164974E+01	-4.73616650714E+01	-5.76525758383E+00	-2.14616930371E+00
3.16935031321E+05	-1.87758166051E+01	1.12245549846E+01	2.52919998122E+01	-1.76509034006E+02	-2.79173547982E+01	-3.86856506246E+01	-5.32733061148E+00	-3.84249567338E+00
3.17164117691E+05	-1.61315928174E+01	-3.28299742590E+01	2.52523134691E+01	-1.76221009143E+02	-3.16445579739E+01	-1.64464442662E+02	-6.61505224550E+00	-2.62724726118E+00
3.17393369648E+05	-2.93551466451E+01	-1.52550492527E+02	2.53397070735E+01	-1.76168764555E+02	-3.79866148404E+01	1.59675971712E+02	-6.20929750848E+00	8.85118777674E-02
3.17622787313E+05	-1.90261243233E+01	-5.03011991230E+01	2.52556428912E+01	-1.76190452058E+02	-4.08700556299E+01	-1.79829956441E+02	-6.18468339523E+00	-8.72593979823E-01
3.17852370806E+05	-2.04085750087E+01	4.88674919903E+00	2.52575232082E+01	-1.76532368948E+02	-3.64279646770E+01	1.32145340536E+02	-6.07001955843E+00	6.31362454628E-01
3.18082120245E+05	-1.18347656745E+01	4.53193944316E+01	2.51967947461E+01	-1.77399472313E+02	-4.09536978250E+01	1.92533479350E+01	-5.80021371963E+00	2.66321977657E-01
3.18312035752E+05	-1.94069072988E+01	1.95525179297E+01	2.52687414519E+01	-1.76505957856E+02	-4.41575267197E+01	1.25870846892E+02	-6.10564641007E+00	3.37977562848E-01
3.18542117445E+05	-2.31489356821E+01	1.17853867360E+02	2.52953371889E+01	-1.76892211150E+02	-4.81955122068E+01	-1.57356415508E+02	-6.11945822428E+00	-9.62142873940E-01
3.18772365446E+05	-1.50075768311E+01	-2.56412810072E+01	2.52143071406E+01	-1.76112939801E+02	-3.12175783851E+01	-4.35946001329E+00	-5.43499432981E+00	-3.33226772024E-01
3.19002779874E+05	-1.29279275154E+01	4.21384705340E+01	2.52144568012E+01	-1.77183491421E+02	-4.31095462538E+01	5.80170267906E+01	-5.97198235689E+00	4.47141593386E-01
3.19233360850E+05	-2.12216246626E+01	-8.67413653492E+00	2.52751378861E+01	-1.76553150121E+02	-3.52176607132E+01	9.69113361420E+01	-5.98308560047E+00	1.46965767106E+00
3.19464108494E+05	-1.75686565976E+01	2.44560596414E+01	2.52520952004E+01	-1.76479358419E+02	-3.38048794660E+01	1.36546667854E+02	-6.35199849478E+00	1.41115110374E+00
3.19695022927E+05	-2.47643953352E+01	1.09825598876E+02	2.53540134606E+01	-1.76823908685E+02	-4.36160293462E+01	-1.26684497706E+02	-6.05732562472E+00	-1.02185554454E+00
3.19926104268E+05	-7.78741913414E+00	-1.78981240468E+02	2.55927488178E+01	-1.76506631735E+02	-3.62492614556E+01	1.72511180488E+02	-6.29786604353E+00	-9.47131994299E-02
3.20157352640E+05	-1.83526753271E+01	2.86993486202E+01	2.52500925911E+01	-1.76444486274E+02	-2.58597178942E+01	-1.29315393154E+02	-6.63065368608E+00	-7.66926600318E+00
3.20388768162E+05	-2.48812958352E+01	1.11716470279E+00	2.52994297794E+01	-1.76810007185E+02	-3.37785690932E+01	2.08259104382E+01	-5.57063405495E+00	7.29946177260E-01
3.20620350955E+05	-2.91772414630E+01	1.65392264064E+02	2.53376758108E+01	-1.76327557775E+02	-4.40676952913E+01	6.48887439927E+01	-6.05401059846E+00	3.12200828277E-01
3.20852101140E+05	-2.13522851410E+01	5.44143960830E+01	2.52537561990E+01	-1.76925446293E+02	-3.84543992941E+01	-1.11364037150E+02	-6.09926142232E+00	-1.58353897834E+00
3.21084018839E+05	-2.13185139429E+01	2.08257807576E+01	2.52640110108E+01	-1.76844655582E+02	-3.86545258729E+01	-5.27141936986E+01	-5.85201917039E+00	-1.38353013967E+00
3.21316104172E+05	-1.64933135207E+01	1.08090913393E+02	2.53253660619E+01	-1.76987744313E+02	-3.87948349143E+01	-1.33125495063E+02	-6.15188864945E+00	-1.68389824476E+00
3.21548357261E+05	-1.04156740103E+01	2.24983244822E+01	2.51273552236E+01	-1.77326887989E+02	-4.53191335244E+01	4.00550639414E+01	-5.96072595469E+00	6.15032428019E-01
3.21780778226E+05	-2.10360245685E+01	-8.76936160050E+01	2.53003973097E+01	-1.76277000949E+02	-4.87974692589E+01	-1.46864168232E+02	-6.09157883299E+00	-7.83418315864E-01
3.22013367189E+05	-2.14396561207E+01	-6.87582791056E+01	2.53097865541E+01	-1.76346494825E+02	-2.86396737302E+01	1.31479832192E+01	-5.18233105387E+00	1.48697709938E+00
3.22246124272E+05	-2.38994831267E+01	7.86996979428E+00	2.53155952467E+01	-1.76688721595E+02	-3.58021376989E+01	1.65110155125E+02	-6.29423253592E+00	1.30458137328E-01
3.22479049596E+05	-1.21278158143E+01	5.08945171107E+01	2.52276033324E+01	-1.77232503150E+02	-3.80040149961E+01	1.55405981484E+01	-5.78096284871E+00	5.74515890191E-01
3.22712143282E+05	-2.73027170088E+01	-5.80649454354E+01	2.52847714430E+01	-1.76556858042E+02	-4.57937079999E+01	1.49587676635E+02	-6.10524627185E+00	-3.03217260326E-02
3.22945405453E+05	-7.96157109407E+00	4.36262780615E+01	2.51097864595E+01	-1.77979466277E+02	-3.60811418404E+01	-7.62103100074E+01	-5.96168268283E+00	-2.12615921766E+00
3.23178836230E+05	-2.18185273987E+01	1.02836643185E+02	2.53216630550E+01	-1.77337363067E+02	-4.14106045871E+01	9.35469414419E+01	-6.06277915549E+00	9.84076163995E-01
3.23412435735E+05	-2.52176616227E+01	5.85145968920E+01	2.52781115484E+01	-1.76962195769E+02	-3.94045460448E+01	-1.10366898513E+02	-6.07355373035E+00	-1.72201052072E+00
3.23646204090E+05	-2.11572034025E+01	-2.40169731602E+01	2.52317741655E+01	-1.76570559939E+02	-3.35711487137E+01	1.52801555034E+02	-6.56513968198E+00	5.58110501149E-01
3.23880141417E+05	-1.40527455363E+01	1.17605796870E+02	2.53888525351E+01	-1.77207040955E+02	-4.37217882692E+01	-1.45608983247E+02	-6.08472984432E+00	-6.86084043642E-01
3.24114247838E+05	-2.39609499443E+01	-1.50136041919E+02	2.52875248294E+01	-1.76733489022E+02	-3.79098626476E+01	-1.30748355547E+02	-6.19335387720E+00	-1.47437014230E+00
3.24348523475E+05	-2.31110795561E+01	-8.08705298286E+00	2.52721436527E+01	-1.76717091820E+02	-4.19698142302E+01	7.83814896231E+01	-5.95677644581E+00	8.50811927748E-01
3.24582968451E+05	-1.68235951674E+01	-3.37715570585E+01	2.52449835023E+01	-1.76290356281E+02	-3.67814252571E+01	-8.75582294491E+01	-6.04530770136E+00	-2.02133784223E+00
3.24817582888E+05	-1.71564357509E+01	-1.27879135744E+02	2.53497617152E+01	-1.76270101236E+02	-3.55556488907E+01	-2.94474180012E+01	-5.80985594363E+00	-1.14996310988E+00
3.25052366909E+05	-2.74995107144E+01	-1.26451865236E+01	2.52682805991E+01	-1.76832048475E+02	-3.96085108346E+01	-1.07833479260E+02	-6.07456496219E+00	-1.92990782915E+00
3.25287320635E+05	-2.76768629554E+01	6.32259224963E+01	2.52816559929E+01	-1.76909838243E+02	-5.23318286121E+01	-1.84732210703E+01	-5.95726832006E+00	-5.97355976000E-01
3.25522444191E+05	-3.36599727235E+01	6.61448881172E+01	2.52674337207E+01	-1.77035184143E+02	-3.44513531366E+01	-2.05007324719E+01	-5.61438143460E+00	-1.31453862652E+00
3.25757737698E+05	-1.72829924962E+01	5.59020954376E+01	2.52792181410E+01	-1.77259603261E+02	-3.90788081938E+01	-9.64771818783E+01	-6.03101693261E+00	-1.81369719591E+00
3.25993201280E+05	-1.94153457320E+01	-1.40484931624E+01	2.52548323417E+01	-1.76706674337E+02	-4.04424885630E+01	-1.79192098976E+02	-6.22487274599E+00	-7.96944055528E-01
3.26228835058E+05	-1.63490427940E+01	-9.20588347429E+01	2.53182901736E+01	-1.76119351326E+02	-3.63663377445E+01	8.53321235569E+01	-5.99101282035E+00	1.30243755485E+00
