# Hz S DB R 50
! CMT, M5065, 19127446, 24.2.4/2
! Date: 11/1/2024 3:08:04 PM
! Data: Format (Calibration Info)
! Freq	S11:dB/Ang(F2)	S21:dB/Ang(F2)	S12:dB/Ang(F2)	S22:dB/Ang(F2)
3.00000000000E+05	-1.68598845621E+01	1.13191818247E+01	5.28837467775E+00	-1.77582154827E+02	-4.34526685043E+01	2.42697564184E+01	-6.03410989169E+00	3.97225966460E-02
3.00216845423E+05	-2.18823610082E+01	-1.39629650441E+01	5.31991022616E+00	-1.77421277600E+02	-4.46831120479E+01	4.41936031070E+01	-6.01394186868E+00	5.68833988698E-02
3.00433847586E+05	-9.97486981743E+00	5.57179212509E+01	5.28296115409E+00	-1.79089274026E+02	-5.17625130350E+01	-3.79524204009E+01	-6.03997179887E+00	-1.95652124355E-01
3.00651006602E+05	-3.05416165590E+01	1.47452365057E+02	5.40315804886E+00	-1.77749290680E+02	-4.25995340472E+01	-4.66474298712E+01	-6.05064508700E+00	-1.22349175176E-01
3.00868322584E+05	-1.80602988680E+01	5.82892149800E+01	5.28217371846E+00	-1.77823188027E+02	-4.26484588830E+01	-1.77590617477E+02	-6.04165168371E+00	-6.31222979965E-02
3.01085795647E+05	-1.40655672154E+01	1.98270559740E+01	5.24039318997E+00	-1.78040797053E+02	-4.21250777859E+01	1.06753400767E+02	-6.05358533254E+00	-1.09920715508E-01
3.01303425902E+05	-2.64659518125E+01	-2.73419744075E+01	5.34972046350E+00	-1.77347603491E+02	-4.50479124491E+01	-3.24466303798E+01	-5.98861954843E+00	-1.96206923516E-01
3.01521213465E+05	-3.17830073078E+01	8.92412682913E+01	5.43030434497E+00	-1.77550360690E+02	-4.44890194140E+01	4.08045734942E+01	-6.05220864821E+00	-3.69879866284E-02
3.01739158449E+05	-2.76123942184E+01	1.63622992598E+02	5.44966397701E+00	-1.77638778126E+02	-4.33430619008E+01	-1.51656071675E+02	-6.06002033295E+00	-3.85218017957E-02
3.01957260967E+05	-1.67624655929E+01	-4.51517151053E+01	5.36292603085E+00	-1.76901799975E+02	-4.01689151433E+01	3.75314962644E+01	-6.03144235753E+00	-6.98412935826E-02
3.02175521134E+05	-1.20749037299E+01	2.40461151137E+01	5.26243480238E+00	-1.78062046926E+02	-3.78428590605E+01	1.11640643886E+02	-6.05185867175E+00	-4.59921353485E-02
3.02393939063E+05	-2.27433416280E+01	-1.46654921751E+01	5.36907509755E+00	-1.77487753494E+02	-3.94876060385E+01	-3.87834391643E+01	-6.04100334859E+00	-3.29815832004E-01
3.02612514869E+05	-3.22002082943E+01	1.37357785894E+02	5.36718505538E+00	-1.77688317006E+02	-3.91074652530E+01	-1.77415627099E+00	-6.01206475191E+00	1.30097353959E-01
3.02831248665E+05	-1.35487337452E+01	8.95261757032E+01	5.42523965314E+00	-1.78720553147E+02	-3.89725213185E+01	-1.23874695697E+02	-6.06477469408E+00	-3.67801233233E-01
3.03050140565E+05	-1.90648252997E+01	2.35581249323E+01	5.32811179928E+00	-1.77982783289E+02	-3.63108037910E+01	-1.86112131348E+01	-6.01505552959E+00	-4.48276273490E-01
3.03269190685E+05	-1.32081550673E+01	3.05498313004E+00	5.25288674039E+00	-1.77760344703E+02	-3.65578781729E+01	-6.70298400783E+01	-6.06708415338E+00	-4.79299034181E-01
3.03488399138E+05	-1.96752145944E+01	5.61971929787E+01	5.32371881331E+00	-1.78167650690E+02	-3.47809729973E+01	-3.03910315703E+01	-5.99182159318E+00	-2.28299799837E-01
3.03707766039E+05	-1.37157304099E+01	4.09755723173E+01	5.28059612950E+00	-1.78501935827E+02	-4.61546819429E+01	-1.19758445726E+02	-6.05833067602E+00	-2.65901005032E-01
3.03927291503E+05	-1.51977577851E+01	2.80682659860E+01	5.29565231506E+00	-1.77951013800E+02	-4.91339471446E+01	-1.70239345414E+02	-6.05343876915E+00	-3.29172652462E-01
3.04146975643E+05	-1.79936871583E+01	-1.47454271472E+01	5.29345838900E+00	-1.77857863276E+02	-3.72437818241E+01	-1.44059060614E+02	-6.07237198411E+00	-4.90981033818E-01
3.04366818575E+05	-2.32226991670E+01	6.84461556816E+01	5.37320486865E+00	-1.78064769422E+02	-3.99372521031E+01	-1.14190425478E+02	-6.04939207542E+00	-2.36678487448E-01
3.04586820414E+05	-1.97056542167E+01	3.47333365287E+01	5.29232099264E+00	-1.77650977200E+02	-3.72328612088E+01	-5.14597086590E+01	-6.00751454014E+00	-3.02234776948E-01
3.04806981274E+05	-1.86177674289E+01	3.14086316760E+01	5.28811276447E+00	-1.77983517370E+02	-4.44054044570E+01	1.50463622636E+02	-6.04857271099E+00	-2.14049829862E-01
3.05027301270E+05	-2.59554215053E+01	-4.05514895243E+01	5.35953877531E+00	-1.77563045337E+02	-3.82829983689E+01	1.13181026253E+02	-6.03180808711E+00	5.08583718176E-02
3.05247780517E+05	-2.45388898956E+01	9.40397067473E+01	5.39021083600E+00	-1.77729490622E+02	-2.85079857661E+01	9.91844249585E+01	-6.07607194306E+00	4.31974056813E-01
3.05468419131E+05	-1.91492183661E+01	1.94695219189E+00	5.30369309683E+00	-1.77589964055E+02	-4.26406746448E+01	-4.34637487182E+01	-6.02362368088E+00	-3.32780692586E-01
3.05689217226E+05	-3.21038508335E+01	5.60642119447E+01	5.36329338280E+00	-1.77755534061E+02	-4.08398309044E+01	-1.56494327329E+02	-6.05922131001E+00	-1.78444041823E-01
3.05910174918E+05	-1.71363594723E+01	3.49902389378E+01	5.26404337046E+00	-1.78072502519E+02	-4.63556114454E+01	2.29014688647E+00	-6.04937594798E+00	-1.67064064951E-01
3.06131292322E+05	-2.06446605904E+01	2.07792396066E+01	5.33977561660E+00	-1.78102957512E+02	-3.34455947822E+01	1.28652748685E+02	-6.07680789135E+00	1.29387030122E-01
3.06352569554E+05	-1.50444104242E+01	1.61540710638E+01	5.27726156784E+00	-1.77854928271E+02	-6.00052799286E+01	-7.24476849499E+01	-6.04371417759E+00	-1.13838984730E-01
3.06574006730E+05	-2.12803307644E+01	3.53938051559E+01	5.37206397808E+00	-1.77945657674E+02	-4.70858813848E+01	2.88029842422E+00	-6.02566394635E+00	-2.82771606568E-01
3.06795603964E+05	-1.83645378387E+01	4.59448403601E+01	5.28676660208E+00	-1.78152125249E+02	-5.44957860315E+01	5.80425847059E+01	-6.04964514929E+00	-2.64604591233E-01
3.07017361372E+05	-2.17722884029E+01	4.00375744295E+01	5.36068547294E+00	-1.77910978080E+02	-3.55755581591E+01	-7.05970007067E+01	-6.04194392641E+00	-6.14129297957E-01
3.07239279071E+05	-1.38982312363E+01	7.62008769109E+01	5.39590594448E+00	-1.78193993561E+02	-3.60205698587E+01	3.28744351613E+01	-6.00249587087E+00	-1.20988589726E-01
3.07461357176E+05	-1.74899122708E+01	2.80051000308E+01	5.34274850679E+00	-1.77705094985E+02	-4.07458492687E+01	2.88945526486E+01	-6.01320600935E+00	1.24026284340E-02
3.07683595803E+05	-1.80528728992E+01	4.75659159467E+00	5.30313848281E+00	-1.78029837809E+02	-4.75446896685E+01	-1.71018648908E+02	-6.08616981469E+00	-1.73621169539E-01
3.07905995068E+05	-1.78577079362E+01	5.85050124716E+01	5.36017507237E+00	-1.78522844704E+02	-3.49487964156E+01	5.18370421553E+01	-5.99189396532E+00	2.69809479612E-02
3.08128555087E+05	-1.30208259605E+01	3.77914443870E+01	5.27191371708E+00	-1.78383320113E+02	-3.46746053365E+01	-1.62395717934E+02	-6.07416236385E+00	-5.30833804525E-01
3.08351275976E+05	-2.11956479226E+01	-1.32421122389E+02	5.42090411179E+00	-1.77729331332E+02	-4.21506288396E+01	-5.29483285175E+01	-6.01375078145E+00	-2.63631873513E-01
3.08574157853E+05	-2.06567629052E+01	4.24588255223E+01	5.32551848465E+00	-1.77899873488E+02	-3.34921845716E+01	7.40032549226E+01	-5.98920550164E+00	2.24678561237E-01
3.08797200832E+05	-1.77905592434E+01	-1.55629429266E+02	5.48502887307E+00	-1.77668378773E+02	-3.91308987471E+01	-1.03397876314E+02	-6.03840658062E+00	-4.89650907259E-01
3.09020405031E+05	-2.12493233350E+01	5.22140339335E+01	5.33123386976E+00	-1.78099857119E+02	-4.10551540458E+01	-1.49326113870E+02	-6.03262470387E+00	-3.47860863220E-01
3.09243770566E+05	-2.77905220375E+01	1.57691016346E+01	5.32964622351E+00	-1.77689796855E+02	-7.23380897797E+01	-1.72879432683E+01	-6.02666900164E+00	-2.24404057006E-01
3.09467297553E+05	-1.98593216053E+01	6.28013000788E+01	5.36864606812E+00	-1.77763567281E+02	-3.61404178999E+01	-1.29652601934E+02	-6.08031065108E+00	-5.24358752096E-01
3.09690986110E+05	-1.98869528739E+01	-1.00858837130E+02	5.42165701194E+00	-1.77168201725E+02	-4.34642926034E+01	1.11849828210E+02	-6.06382192536E+00	-3.44021860377E-02
3.09914836353E+05	-1.99380648099E+01	2.98154156461E+01	5.35561127394E+00	-1.78143767590E+02	-4.07205364562E+01	-1.08658569639E+02	-6.02345760715E+00	-1.95957248301E-01
3.10138848399E+05	-2.23835364665E+01	4.78899235366E+01	5.36876736876E+00	-1.77684686536E+02	-3.59664388170E+01	1.11505575621E+02	-6.06397462628E+00	-3.63599012171E-02
3.10363022365E+05	-3.08850890903E+01	1.02654517393E+02	5.37692490890E+00	-1.77895431363E+02	-4.36656674899E+01	-2.82584443836E+01	-6.00934397875E+00	-9.61846380955E-02
3.10587358368E+05	-2.79467669444E+01	7.35103660451E+01	5.33412260865E+00	-1.78173833799E+02	-4.17024436527E+01	-3.77889801340E+00	-6.02990266063E+00	-1.42501153100E-01
3.10811856525E+05	-1.75517843279E+01	8.12601742094E+01	5.37133535635E+00	-1.78112508159E+02	-4.21809305071E+01	1.55733469865E+02	-6.04314865847E+00	-1.73187422854E-01
3.11036516954E+05	-2.88399633343E+01	-4.73021323854E+01	5.36798982755E+00	-1.77740274174E+02	-5.09339664065E+01	-1.43935231175E+02	-6.01603354911E+00	-3.24179550085E-01
3.11261339771E+05	-1.86011789496E+01	2.44920232910E+01	5.30702934651E+00	-1.77745900691E+02	-3.24192771026E+01	6.87364246415E+01	-5.99241922209E+00	2.10268533333E-01
3.11486325094E+05	-3.31035438561E+01	-8.46104103369E+01	5.41803569511E+00	-1.77432017749E+02	-5.92529584871E+01	-9.05558619326E+01	-6.03185476675E+00	-1.13002852773E-01
3.11711473040E+05	-2.27642980730E+01	1.32327558594E+02	5.43349275895E+00	-1.78179288294E+02	-3.86318778609E+01	-6.27858746216E+01	-6.03132238055E+00	-3.44187078037E-01
3.11936783728E+05	-2.20122393157E+01	9.27461866617E+01	5.41535398463E+00	-1.78362952536E+02	-5.83612853143E+01	4.30628293037E+01	-6.02226239677E+00	-1.29954070694E-01
3.12162257274E+05	-2.22560069427E+01	1.84166677944E+01	5.32759069388E+00	-1.78029871190E+02	-4.45025855624E+01	-7.32300246777E+01	-6.03208441804E+00	-1.58788866887E-01
3.12387893797E+05	-3.69424813569E+01	1.17164601016E+02	5.39758861434E+00	-1.77532895704E+02	-4.08018423514E+01	-4.31053821918E+01	-6.02147878470E+00	-2.98835447563E-01
3.12613693413E+05	-3.58766345373E+01	-1.64944590302E+02	5.43485414955E+00	-1.78126197716E+02	-4.41733750846E+01	-4.58910560728E+01	-6.01569814133E+00	-2.16083404225E-01
3.12839656242E+05	-2.08659658721E+01	1.80382977787E+01	5.38175953706E+00	-1.77858742997E+02	-4.52534431779E+01	-1.71576320922E+02	-6.06325904966E+00	-1.35933710070E-01
3.13065782401E+05	-2.05250228818E+01	5.41584758357E+01	5.36706321483E+00	-1.78344119568E+02	-4.16796038494E+01	1.67436528178E+01	-6.00689936444E+00	-3.33696715311E-01
3.13292072007E+05	-1.86629946203E+01	1.21744268360E+02	5.48248752570E+00	-1.78002315964E+02	-5.38790027549E+01	2.24490879659E+01	-6.01859915007E+00	-4.09832054381E-01
3.13518525180E+05	-1.99725062743E+01	4.69328592826E+01	5.32501608961E+00	-1.78111568428E+02	-4.57875063285E+01	-4.99400201567E+01	-6.01710507530E+00	-2.74350104093E-01
3.13745142038E+05	-1.93664466266E+01	2.66094458873E+01	5.39267369541E+00	-1.78082296492E+02	-4.30549099059E+01	4.39111438586E+01	-6.02608419347E+00	-1.27254545558E-01
3.13971922698E+05	-2.05238538162E+01	-8.18296938901E+01	5.37828087592E+00	-1.77220849268E+02	-4.99852509208E+01	-1.51610469657E+01	-6.01116393267E+00	-3.09140231424E-01
3.14198867279E+05	-1.66069997766E+01	6.32967917336E+01	5.35632479641E+00	-1.78373677973E+02	-3.98970143588E+01	-1.16822212873E+02	-6.07528683649E+00	-3.62867954449E-01
3.14425975900E+05	-2.13184112072E+01	5.86709884131E+01	5.34575210219E+00	-1.78059988935E+02	-4.14489020450E+01	-1.07471715285E+01	-5.99674545990E+00	-2.40656144261E-01
3.14653248680E+05	-2.54475788353E+01	4.51772939917E+01	5.35504711153E+00	-1.77991110360E+02	-3.44217171241E+01	1.77569416246E+02	-6.08783332849E+00	-2.35635537369E-01
3.14880685736E+05	-2.30166217393E+01	7.90611064301E+01	5.42095620617E+00	-1.78061945632E+02	-4.16854755641E+01	7.91507564637E+01	-6.04884600483E+00	-1.05231879343E-01
3.15108287188E+05	-1.50030331738E+01	1.11069579570E+02	5.41910276287E+00	-1.78603051096E+02	-4.20105500336E+01	1.54680822978E+02	-6.02799443815E+00	-2.43849795934E-01
3.15336053154E+05	-1.88266788629E+01	4.70290625572E+01	5.33831505074E+00	-1.78381029730E+02	-4.96241692123E+01	-8.70203770959E+01	-6.03769110883E+00	-4.50637262003E-01
3.15563983753E+05	-1.43113548492E+01	3.72656283765E+00	5.18929753464E+00	-1.77780257592E+02	-3.72792981520E+01	-1.53216201898E+01	-5.96695760062E+00	-3.27956004479E-01
3.15792079105E+05	-3.40654962528E+01	-4.01643673664E+01	5.36853812818E+00	-1.77664399149E+02	-4.15252007248E+01	6.25605344908E+01	-6.04559438229E+00	-7.73897369141E-02
3.16020339328E+05	-1.83170505434E+01	1.55345826550E+01	5.34749301751E+00	-1.78183461781E+02	-4.96333050268E+01	-8.07525698865E+01	-6.02683596807E+00	-2.86710365327E-01
3.16248764542E+05	-3.00387819148E+01	1.97874140459E-01	5.38452874299E+00	-1.77629759051E+02	-5.71339261150E+01	2.03953991006E+01	-6.04231553240E+00	-1.26176111587E-01
3.16477354866E+05	-2.44943426051E+01	3.93400766080E+01	5.35411675177E+00	-1.77996179496E+02	-4.20992917650E+01	1.79183433386E+02	-6.04213234319E+00	-1.62822901036E-01
3.16706110419E+05	-1.42710879597E+01	3.24666612101E+01	5.30874027855E+00	-1.78650930179E+02	-4.54970755003E+01	2.13636646321E+01	-6.02826848890E+00	-1.53956725053E-01
3.16935031321E+05	-2.86223001444E+01	1.38507710904E+01	5.39396292575E+00	-1.78053474955E+02	-4.47111366994E+01	-1.23430220293E+02	-6.02598960915E+00	-2.93652896187E-01
3.17164117691E+05	-2.46249098462E+01	1.35886309011E+01	5.38490551566E+00	-1.78159769694E+02	-4.66256800106E+01	-1.44714530173E+02	-6.04802483152E+00	-2.41475840247E-01
3.17393369648E+05	-2.15178840949E+01	2.42940552667E+01	5.40735265105E+00	-1.77760716936E+02	-3.17681358033E+01	1.53536092715E+02	-6.11582881959E+00	2.25653495180E-02
3.17622787313E+05	-1.41614926641E+01	1.65664129493E+01	5.26600914376E+00	-1.77754940198E+02	-4.85690868762E+01	-4.12321574862E+01	-6.03389077890E+00	-1.43862171953E-01
3.17852370806E+05	-1.94556969981E+01	-1.73204933738E+01	5.25097934270E+00	-1.77863950373E+02	-4.11018744453E+01	-2.35479416929E+01	-6.02262271844E+00	-2.68677456623E-01
3.18082120245E+05	-1.70188256252E+01	9.43323504468E-01	5.28102448247E+00	-1.78126477319E+02	-5.06140889089E+01	-1.30555175323E+02	-6.05753657921E+00	-3.94572286623E-01
3.18312035752E+05	-1.33137433277E+01	1.96187809390E+01	5.25159071821E+00	-1.77941112031E+02	-3.08913820531E+01	-8.83501864669E+01	-6.03623299507E+00	-6.68171207678E-01
3.18542117445E+05	-2.88860609612E+01	6.43802576076E+01	5.38656458157E+00	-1.77779873949E+02	-5.22813171845E+01	1.33970678470E+01	-5.99376200100E+00	-1.94463336079E-01
3.18772365446E+05	-1.75756597065E+01	3.33628131530E+01	5.31201331248E+00	-1.78384287337E+02	-4.09799092712E+01	-1.07785834667E+02	-6.03023314724E+00	-5.31091056754E-01
3.19002779874E+05	-1.87717909554E+01	1.04866797665E+01	5.29388097117E+00	-1.77939166488E+02	-4.48260595165E+01	1.39482742331E+01	-6.04236408329E+00	-1.69289634194E-01
3.19233360850E+05	-1.61764736155E+01	7.39821634386E+01	5.33191857383E+00	-1.78518417561E+02	-4.74319937982E+01	-3.96288193885E+01	-6.07623581047E+00	-2.89261177705E-01
3.19464108494E+05	-1.96656597640E+01	2.62876376674E+01	5.30657823360E+00	-1.78134300245E+02	-4.44534427981E+01	-1.66327801515E+02	-6.05833437238E+00	-2.99001160971E-01
3.19695022927E+05	-2.21619742785E+01	2.80161499877E+01	5.40842282176E+00	-1.78140045485E+02	-4.33351064163E+01	1.24069076483E+02	-6.05938525481E+00	4.76151988315E-02
3.19926104268E+05	-2.38056587997E+01	-2.36691597435E+01	5.35815035724E+00	-1.77482721550E+02	-3.24698672498E+01	-1.57920818900E+02	-6.10798467981E+00	-3.86624910610E-01
3.20157352640E+05	-1.13708726605E+01	2.70995164866E+01	5.18210531931E+00	-1.78409678552E+02	-4.52490305789E+01	4.54057203659E+01	-6.06789684672E+00	-1.54720344903E-02
3.20388768162E+05	-2.40863173423E+01	5.52998308021E+01	5.32067300737E+00	-1.77943973380E+02	-4.29983591865E+01	-7.15404611829E+01	-6.02789149506E+00	-4.61982296469E-01
3.20620350955E+05	-2.23255458156E+01	-3.15362418450E+01	5.37035253636E+00	-1.77972215012E+02	-4.49320320253E+01	-1.73128862293E+02	-6.05707231566E+00	-9.24789949826E-02
3.20852101140E+05	-1.55733544948E+01	9.73842479800E+00	5.27502199130E+00	-1.78535474718E+02	-3.25483291988E+01	8.24624310371E+01	-6.02271884574E+00	2.01903190760E-01
3.21084018839E+05	-1.79149178258E+01	-9.24430251756E+01	5.47509486420E+00	-1.77425095484E+02	-3.99804125957E+01	-1.55900912279E+01	-6.02078625452E+00	-2.46540470057E-01
3.21316104172E+05	-1.85516374175E+01	8.89554349872E+00	5.34727447417E+00	-1.78522643098E+02	-4.44101236762E+01	-4.58917021547E+01	-6.01871289221E+00	-3.92802242735E-01
3.21548357261E+05	-1.49514851378E+01	2.27693386388E+01	5.28509244368E+00	-1.78198728562E+02	-3.62653951375E+01	6.80171709675E+01	-6.01847881707E+00	4.09293995815E-05
3.21780778226E+05	-1.94939269868E+01	4.82104675148E+01	5.33121833143E+00	-1.78273788579E+02	-3.08218153948E+01	-7.10568114277E+01	-6.01537276844E+00	-6.71010903737E-01
3.22013367189E+05	-1.40121322940E+01	1.34302845376E+02	5.49711523271E+00	-1.78623781572E+02	-4.19538334460E+01	-1.78414440221E+02	-6.07703276792E+00	-1.63482035574E-01
3.22246124272E+05	-2.46090716320E+01	1.26137169627E+02	5.38324368781E+00	-1.78222341078E+02	-4.08314730747E+01	1.01641385453E+02	-6.05338546408E+00	-2.20608037842E-01
3.22479049596E+05	-1.36042028830E+01	4.93290978612E+01	5.29974220957E+00	-1.78312679110E+02	-4.36704806898E+01	-4.39174364491E+01	-6.04290224930E+00	-3.58940726044E-01
3.22712143282E+05	-2.33813988967E+01	8.76465604597E+00	5.33445353564E+00	-1.77795897445E+02	-3.48796992918E+01	-1.68306604353E+02	-6.10066246575E+00	-1.50533353836E-01
3.22945405453E+05	-2.35912979576E+01	-4.32329733088E+01	5.38085381986E+00	-1.77393998637E+02	-3.47189054806E+01	-8.06776206861E+01	-6.06371552537E+00	-4.67569769181E-01
3.23178836230E+05	-2.14386918881E+01	-4.45761785366E+00	5.37075809912E+00	-1.77887643733E+02	-3.86653975773E+01	7.55289727941E+00	-6.00459826351E+00	-1.24603031844E-01
3.23412435735E+05	-2.42296323349E+01	3.00534767370E+01	5.33636182773E+00	-1.77929376502E+02	-3.91592421706E+01	-1.67627502312E+02	-6.05600100194E+00	-3.27018497080E-01
3.23646204090E+05	-2.09429063695E+01	1.11682496647E+02	5.35366572297E+00	-1.78506794904E+02	-4.09579206532E+01	-1.02809627284E+02	-6.04976207774E+00	-5.01081261837E-01
3.23880141417E+05	-1.99097503362E+01	-6.36196013787E+01	5.37297748362E+00	-1.77746306916E+02	-4.53956197154E+01	-4.56064584969E+01	-6.02831379653E+00	-1.27604914690E-01
3.24114247838E+05	-1.39878298096E+01	5.62443142429E+01	5.33395450974E+00	-1.78539905694E+02	-4.45051778951E+01	5.86955995425E+01	-6.05033684237E+00	-2.60289256076E-01
3.24348523475E+05	-1.99378206018E+01	-1.06218464080E+01	5.28473169064E+00	-1.77738092611E+02	-4.41518008303E+01	-1.49244430498E+02	-6.07183899817E+00	-1.33139118129E-01
3.24582968451E+05	-1.80308529115E+01	2.78368008183E+01	5.29267213424E+00	-1.78198904814E+02	-3.96803360724E+01	1.44091260216E+02	-6.06566569269E+00	-1.75504961389E-01
3.24817582888E+05	-1.97295711383E+01	7.57698931926E+00	5.28422474076E+00	-1.77915577418E+02	-5.75365929857E+01	4.33495801611E+01	-6.05985675586E+00	-3.79664216500E-01
3.25052366909E+05	-1.99255988204E+01	5.20281758458E+01	5.32972211143E+00	-1.78622201507E+02	-4.07230459410E+01	-1.21724041514E+02	-6.03273462877E+00	-5.15697013711E-01
3.25287320635E+05	-1.42807605007E+01	7.58404655058E+01	5.40641721492E+00	-1.78653058832E+02	-4.03659828365E+01	-7.25674623555E+01	-6.02235389246E+00	-3.42892867402E-01
3.25522444191E+05	-1.44069929243E+01	1.85272288558E+01	5.22700722296E+00	-1.78088856135E+02	-4.75747396089E+01	-1.70855082070E+02	-6.07705381795E+00	-1.08268224481E-01
3.25757737698E+05	-3.71973021543E+01	1.20346147560E+02	5.39800368775E+00	-1.78048394691E+02	-3.41341153467E+01	-1.52943403726E+02	-6.08559173250E+00	-3.44257685377E-01
3.25993201280E+05	-2.10055777962E+01	2.25139832726E+01	5.28867661162E+00	-1.78180789735E+02	-4.47361887015E+01	-7.91631815419E+01	-6.02624378999E+00	-2.25761178118E-01
3.26228835058E+05	-1.61742323794E+01	4.03610128015E+01	5.35212175625E+00	-1.78572311529E+02	-4.57312708878E+01	1.63972376302E+02	-6.04675432138E+00	-4.45029280850E-01
