# Hz S DB R 50
! CMT, M5065, 19127446, 24.2.4/2
! Date: 11/1/2024 3:12:53 PM
! Data: Format (Calibration Info)
! Freq	S11:dB/Ang(F2)	S21:dB/Ang(F2)	S12:dB/Ang(F2)	S22:dB/Ang(F2)
3.00000000000E+05	-3.62476891102E+01	-4.46335357797E+01	6.17247158854E+00	-1.77546073445E+02	-4.01877232269E+01	7.95958112735E+01	-6.01543982594E+00	-1.02158804689E-03
3.00216845423E+05	-1.53764848960E+01	-4.49480668824E+00	6.06857328532E+00	-1.77616451649E+02	-4.50816834638E+01	1.58890035452E+02	-6.06593726472E+00	-2.20888000094E-01
3.00433847586E+05	-1.72625538524E+01	-1.49851615030E+01	6.10574257067E+00	-1.77313126674E+02	-3.17333431132E+01	-1.30282196106E+02	-6.10020771896E+00	-6.19860433035E-01
3.00651006602E+05	-2.24491615054E+01	4.50652000217E+01	6.10438082795E+00	-1.78079834590E+02	-5.76907119270E+01	-1.35356100884E+02	-6.05987790400E+00	-1.15691293271E-01
3.00868322584E+05	-1.99936406710E+01	3.93775814926E+01	6.14581202397E+00	-1.77807757360E+02	-3.99273147276E+01	-1.10285172909E+02	-6.07560615923E+00	-3.65750117586E-01
3.01085795647E+05	-2.40875189575E+01	5.31978022253E+01	6.17552924546E+00	-1.77622970391E+02	-3.32829007784E+01	3.95068002649E+01	-5.97480496329E+00	-1.00433027494E-02
3.01303425902E+05	-1.72812028432E+01	-2.69035450269E+01	6.08780541592E+00	-1.77249892406E+02	-3.51649860894E+01	1.18242431458E+02	-6.08167426410E+00	9.78832826906E-04
3.01521213465E+05	-1.72321346310E+01	4.73836793663E+01	6.12883687712E+00	-1.78095012100E+02	-4.52223341508E+01	-1.27574113677E+02	-6.02297628366E+00	-2.04550312176E-01
3.01739158449E+05	-1.97650905719E+01	1.19456718869E+02	6.17536728763E+00	-1.78008606073E+02	-4.03758105311E+01	-9.19609038540E+00	-6.00926256064E+00	-3.22396700257E-01
3.01957260967E+05	-2.22310238977E+01	-1.34412298304E+02	6.25650305856E+00	-1.77296514984E+02	-4.08482108085E+01	-1.73324538700E+02	-6.06320192786E+00	-8.93761090666E-02
3.02175521134E+05	-2.43534311608E+01	-3.16926649991E+01	6.12347686141E+00	-1.77691667265E+02	-5.23163550678E+01	-1.45519248086E+02	-6.03805703324E+00	-3.54868424865E-01
3.02393939063E+05	-1.97626631153E+01	6.25146405239E+01	6.06244200134E+00	-1.77921703812E+02	-7.00665516990E+01	-6.85713063092E+01	-6.04387413954E+00	-9.05154258711E-02
3.02612514869E+05	-2.03731202128E+01	5.35909663649E+01	6.15560142419E+00	-1.77880819818E+02	-3.76074251534E+01	3.97601710748E+01	-5.98791083329E+00	5.82321102535E-02
3.02831248665E+05	-1.48003221224E+01	1.75417390591E+01	6.10778805204E+00	-1.77813344498E+02	-3.98310588615E+01	6.24893856014E+01	-6.04119832265E+00	-1.89923860587E-01
3.03050140565E+05	-1.37326299040E+01	8.32592336599E+01	6.12017194404E+00	-1.78625519553E+02	-5.24093243824E+01	-6.22470200297E+01	-6.03656765154E+00	-1.88376857929E-01
3.03269190685E+05	-1.76716770261E+01	1.09495173110E+01	6.05171227122E+00	-1.77705508266E+02	-4.05751345040E+01	8.15159260979E+01	-6.04244965966E+00	-2.82024118986E-01
3.03488399138E+05	-2.02327186637E+01	6.05659136054E+01	6.06507622836E+00	-1.78022735428E+02	-4.07708349946E+01	1.12962388987E+02	-6.02270826650E+00	5.88716209644E-02
3.03707766039E+05	-2.01823280605E+01	1.56716294732E+02	6.20444334408E+00	-1.77849745971E+02	-3.12395207870E+01	-1.64672960584E+02	-6.12081641466E+00	-2.20186002481E-01
3.03927291503E+05	-1.78883116804E+01	4.30675515837E+01	6.02565952916E+00	-1.78072109663E+02	-4.95921794772E+01	1.49396933064E+01	-6.04397012574E+00	-1.13771030752E-01
3.04146975643E+05	-2.07091495520E+01	3.48887006246E+01	6.09924388797E+00	-1.77590787750E+02	-3.65525231753E+01	1.66040239656E+01	-6.02637925838E+00	-1.92045257325E-01
3.04366818575E+05	-2.32622701581E+01	-3.19453329452E+01	6.14459886319E+00	-1.77741214430E+02	-4.61584965111E+01	1.27643864400E+02	-6.05148508930E+00	-2.03939295440E-01
3.04586820414E+05	-1.33214889285E+01	4.45833827143E+01	6.07790035124E+00	-1.78594969913E+02	-3.73023421202E+01	-8.81408490274E+01	-6.03785348270E+00	-2.84030295028E-01
3.04806981274E+05	-1.89765658998E+01	5.29868105937E+00	6.04731655191E+00	-1.77623933559E+02	-3.70133622390E+01	-1.99208975457E+01	-5.99062532651E+00	-3.27990868880E-01
3.05027301270E+05	-2.45959231790E+01	1.41349290301E+02	6.18863570844E+00	-1.77556875204E+02	-5.17715600864E+01	-9.27021654978E+01	-6.01906373320E+00	-2.46523173313E-01
3.05247780517E+05	-1.50536278554E+01	4.30278928096E+01	6.00052774266E+00	-1.78108109435E+02	-3.91059166829E+01	-3.62918706352E+01	-6.01409007032E+00	-1.96000962963E-01
3.05468419131E+05	-2.93899928308E+01	7.33628154225E+01	6.07152616299E+00	-1.77672916922E+02	-2.99244625130E+01	1.77999960379E+02	-6.10210706394E+00	-2.94850544801E-01
3.05689217226E+05	-1.49557946861E+01	3.78532248700E+01	6.08256686533E+00	-1.77881807633E+02	-4.00717872707E+01	-4.61699867829E+01	-6.02161889733E+00	-2.95715936641E-01
3.05910174918E+05	-3.29188053322E+01	7.49422733137E+01	6.10232279957E+00	-1.77776635042E+02	-4.65898137375E+01	-7.77251262047E+01	-6.04991316360E+00	-2.60336509876E-01
3.06131292322E+05	-1.45684077946E+01	5.29327142105E+01	6.08939042916E+00	-1.78180882586E+02	-4.17522154038E+01	-9.30479000955E+01	-6.02006727034E+00	-2.41226388381E-01
3.06352569554E+05	-1.61782761194E+01	1.48694487244E+01	6.05846871819E+00	-1.77766531977E+02	-3.79337928478E+01	1.28333977752E+02	-6.07698858751E+00	2.48650511434E-01
3.06574006730E+05	-2.69196018338E+01	3.66409197403E+01	6.13780282326E+00	-1.77836581725E+02	-4.26569943105E+01	-6.25475111418E+01	-6.03759384846E+00	-2.63194013555E-01
3.06795603964E+05	-2.49253534765E+01	2.97689759119E+01	6.08059280919E+00	-1.77995950081E+02	-5.08540421402E+01	-4.51211140191E+01	-6.03053062246E+00	-1.96262944697E-01
3.07017361372E+05	-2.34519596184E+01	2.69845538774E+01	6.04443413302E+00	-1.78096819791E+02	-4.50042585463E+01	-1.35028473403E+02	-6.05437339762E+00	-2.74963745476E-01
3.07239279071E+05	-1.88914796087E+01	-8.16296430860E+00	6.10903358087E+00	-1.77265624553E+02	-4.19647969578E+01	4.60496825118E+01	-5.98400221859E+00	-9.08910453782E-02
3.07461357176E+05	-3.38103862336E+01	-6.26771291546E+01	6.19452230665E+00	-1.77672146885E+02	-4.62310021431E+01	1.17877547523E+01	-6.03411340098E+00	-2.23456536842E-01
3.07683595803E+05	-2.14131933507E+01	-5.36092948777E+01	6.12413522797E+00	-1.77238804425E+02	-4.61767812880E+01	8.14047577617E+01	-6.03231335339E+00	-2.60041260705E-01
3.07905995068E+05	-1.77915640885E+01	1.07023326356E+02	6.16157982660E+00	-1.78540751769E+02	-4.71346688349E+01	8.46863284094E+01	-6.06899466891E+00	1.76288515301E-03
3.08128555087E+05	-4.23536136784E+01	-9.90015380259E+01	6.12978708446E+00	-1.77581879911E+02	-4.33000750225E+01	1.74979129236E+02	-6.05589643708E+00	-1.45385576799E-01
3.08351275976E+05	-2.42796502282E+01	1.22450501537E+01	6.10343033882E+00	-1.77824155521E+02	-5.40839739821E+01	-1.79024308636E+02	-6.02501268395E+00	-3.82568137851E-01
3.08574157853E+05	-2.86267660262E+01	1.08245893246E+01	6.10757303600E+00	-1.77800936047E+02	-4.22544841207E+01	9.56194599201E+01	-6.06122033069E+00	-7.70422792524E-02
3.08797200832E+05	-1.60162297304E+01	-1.38932543966E+01	6.02403679045E+00	-1.77701891771E+02	-3.13079122506E+01	1.57088058762E+02	-6.12938029872E+00	9.48441952862E-02
3.09020405031E+05	-1.95822169118E+01	3.70921722482E+00	6.13798172731E+00	-1.77741002867E+02	-4.30945176916E+01	-1.45876790879E+01	-6.01584984393E+00	-2.45484598098E-01
3.09243770566E+05	-2.53385350585E+01	-4.16150559220E+01	6.12249729798E+00	-1.77647094377E+02	-4.28328083247E+01	1.64438076840E+02	-6.03853896498E+00	-1.79503652184E-01
3.09467297553E+05	-2.11506754833E+01	-1.32419483627E+01	6.09610618796E+00	-1.77500199324E+02	-4.93407754443E+01	1.51360921675E+02	-6.05782662502E+00	-1.46482807637E-01
3.09690986110E+05	-2.05759331905E+01	-3.08334912540E+01	6.12475074976E+00	-1.77157571244E+02	-3.30801964939E+01	-1.41301143340E+02	-6.10603323696E+00	-5.24339276146E-01
3.09914836353E+05	-1.82360979086E+01	-4.74977541977E+00	6.11300687879E+00	-1.78125437481E+02	-4.17573144457E+01	4.70481407261E+01	-6.02073890548E+00	-6.24697698850E-02
3.10138848399E+05	-2.63235475962E+01	-5.82153506412E+00	6.13544865684E+00	-1.78012870772E+02	-4.42275175376E+01	1.64527363204E+01	-6.02797950515E+00	-1.83666041352E-01
3.10363022365E+05	-2.34026587211E+01	3.95231259579E+01	6.13449753207E+00	-1.77776988504E+02	-4.42730048047E+01	1.31190619519E+02	-6.06056241886E+00	-2.51375404051E-01
3.10587358368E+05	-1.94053696926E+01	-5.41140592457E+01	6.10020282026E+00	-1.77316633629E+02	-3.14866528359E+01	-1.74869013777E+02	-6.12520197650E+00	-3.10513498540E-01
3.10811856525E+05	-2.37670049416E+01	3.44879055573E+01	6.10798003770E+00	-1.77562793822E+02	-5.10974773796E+01	-9.08554920832E+00	-6.03172254649E+00	-3.83089373889E-01
3.11036516954E+05	-1.63395913745E+01	2.74297057493E+01	6.06942315301E+00	-1.78405944449E+02	-4.02228794229E+01	-1.14430745450E+02	-6.00486737075E+00	-4.92494644250E-01
3.11261339771E+05	-1.81880665036E+01	1.04713733309E+02	6.17409285862E+00	-1.78433628793E+02	-5.17165746388E+01	3.95141172196E+01	-6.05304679304E+00	-2.58126675451E-01
3.11486325094E+05	-2.12858385166E+01	2.20140991821E+01	6.07572861942E+00	-1.77934424891E+02	-3.86156166180E+01	9.67658879394E+01	-6.03742820055E+00	-1.91096392228E-01
3.11711473040E+05	-1.77719631975E+01	3.17673050098E+01	6.05304023127E+00	-1.78181420456E+02	-4.11676724511E+01	4.82487049958E+01	-6.02880125503E+00	-1.89187062038E-01
3.11936783728E+05	-2.89783473587E+01	1.01182837876E+02	6.14226306816E+00	-1.77790430451E+02	-3.83481544220E+01	5.40490374171E+01	-6.00894705690E+00	-3.33849475415E-02
3.12162257274E+05	-1.52057375946E+01	1.78127531685E+00	6.00466171249E+00	-1.77589658780E+02	-4.13002004632E+01	-7.76341940913E+01	-6.00984545821E+00	-4.52199678337E-01
3.12387893797E+05	-2.14246674654E+01	1.65904863459E+01	6.12449796362E+00	-1.77790849679E+02	-3.59869879935E+01	-1.32024483737E-01	-5.98422037917E+00	-1.21934535483E-01
3.12613693413E+05	-4.36215034444E+01	-5.27227532786E+01	6.14807798146E+00	-1.77627730668E+02	-4.11112092420E+01	-1.45879074536E+02	-6.03260393877E+00	-2.39766152366E-01
3.12839656242E+05	-1.74067449313E+01	2.79598812123E+01	6.08896513697E+00	-1.78220460581E+02	-4.57742515866E+01	1.56933507157E+01	-6.05478038582E+00	-1.54217273319E-01
3.13065782401E+05	-2.41297832109E+01	-2.27572942720E+01	6.14744225664E+00	-1.77455226490E+02	-4.05463387719E+01	-1.45691794740E+01	-6.01857524475E+00	-3.98115795039E-01
3.13292072007E+05	-1.67051444220E+01	1.50815066477E+01	6.08296102876E+00	-1.77624716550E+02	-4.37155007264E+01	1.06786669782E+02	-6.05213126202E+00	-3.00814090164E-01
3.13518525180E+05	-2.20721542424E+01	8.38642925789E+01	6.13174312695E+00	-1.78454254794E+02	-3.94055196882E+01	-4.43460215891E+01	-6.02292255680E+00	-2.50331343464E-01
3.13745142038E+05	-1.91612353037E+01	2.18997507133E+01	6.09161677281E+00	-1.77923860861E+02	-4.70468627329E+01	2.21470226988E+01	-6.01814002275E+00	-2.44022843923E-01
3.13971922698E+05	-2.17795989950E+01	3.48515344775E-02	6.10624786872E+00	-1.77742581025E+02	-4.31160186117E+01	-1.33629145155E+02	-6.03743580015E+00	-5.77450417155E-01
3.14198867279E+05	-2.32466591300E+01	-2.34069700664E+01	6.10904106673E+00	-1.78201255993E+02	-3.90921410356E+01	-8.72391569078E+01	-6.05248373825E+00	-1.89597222520E-01
3.14425975900E+05	-2.70233626737E+01	6.83655431439E+01	6.12820718623E+00	-1.78580935370E+02	-4.16433113820E+01	1.74030980744E+02	-6.04896953078E+00	-1.62248106298E-01
3.14653248680E+05	-2.14576965372E+01	1.17973116997E+02	6.15268982044E+00	-1.78385001238E+02	-3.99766147739E+01	-1.28259009595E+01	-5.99447037829E+00	-4.71609464914E-02
3.14880685736E+05	-3.27394248024E+01	3.89834846782E+00	6.10582291821E+00	-1.78034761622E+02	-3.39615854603E+01	2.10629573866E+01	-5.95759008577E+00	-1.87324434459E-01
3.15108287188E+05	-1.72317155330E+01	1.55209211919E+01	6.04721867531E+00	-1.78319775208E+02	-4.63021084610E+01	-1.61423667049E+02	-6.04329865258E+00	-3.82812102909E-01
3.15336053154E+05	-2.40193743794E+01	1.41478950650E+02	6.17164896629E+00	-1.78067705740E+02	-4.30161503741E+01	-1.61686014148E+02	-6.06843185291E+00	-2.63419837162E-01
3.15563983753E+05	-1.85895385690E+01	-1.59954108392E+01	6.04647653133E+00	-1.77815843041E+02	-5.18912654335E+01	-4.04118526436E+01	-6.01619628544E+00	-3.26629024595E-01
3.15792079105E+05	-8.14754614128E+00	-3.93856315647E+01	5.90988212489E+00	-1.76094451564E+02	-4.42377428323E+01	-8.58627637704E+01	-6.02473974796E+00	-5.00507691446E-01
3.16020339328E+05	-2.01344512356E+01	6.27357665122E+01	6.14160950445E+00	-1.78289565939E+02	-4.09483122223E+01	-1.07931038022E+01	-6.00970503944E+00	-2.62541409266E-01
3.16248764542E+05	-2.73510538670E+01	-1.05973163222E+01	6.13948958465E+00	-1.77699590589E+02	-4.95669107272E+01	8.48363850614E+01	-6.04297470907E+00	-3.25586868386E-01
3.16477354866E+05	-1.87541094491E+01	-1.36273638749E+01	6.07317823702E+00	-1.77853663269E+02	-3.87480502209E+01	-1.45074306381E+02	-6.04892535905E+00	-2.85522183865E-01
3.16706110419E+05	-1.55152812612E+01	2.89393525920E+01	6.04917944708E+00	-1.77946690647E+02	-4.04668520204E+01	1.40352377549E+02	-6.03517356532E+00	-7.72831210071E-02
3.16935031321E+05	-2.46972511885E+01	5.03292846279E+01	6.14772204797E+00	-1.78173879160E+02	-4.91460863726E+01	-1.07216893259E+02	-6.04628030333E+00	-2.41841961437E-01
3.17164117691E+05	-2.43140880977E+01	5.11138319463E+01	6.12259490099E+00	-1.78181867400E+02	-4.14491542891E+01	1.61792739894E+02	-6.05646278103E+00	-8.87736110125E-02
3.17393369648E+05	-2.20636869503E+01	9.48058669323E+01	6.14082952295E+00	-1.78254710503E+02	-4.05409760852E+01	1.75587194120E+02	-6.05128855389E+00	-3.01249723383E-01
3.17622787313E+05	-2.13247124140E+01	-8.56925864565E+01	6.15531871619E+00	-1.77345401343E+02	-3.58885249402E+01	-1.40254462379E+02	-6.04659515794E+00	-4.40724091910E-01
3.17852370806E+05	-1.81136961152E+01	8.52594958844E+01	6.12844759969E+00	-1.78501211886E+02	-4.08729831675E+01	-6.89890481013E+01	-6.03950244683E+00	-3.04139798404E-01
3.18082120245E+05	-1.98771767254E+01	9.65427730783E+01	6.14048449246E+00	-1.78145375884E+02	-4.76057059702E+01	-4.21674299351E+01	-6.01458831883E+00	-1.58653783205E-01
3.18312035752E+05	-1.14981674881E+01	4.24574838770E+01	5.99575637248E+00	-1.78894065384E+02	-4.89917834838E+01	1.79682250343E+02	-6.06832114864E+00	-3.11012580359E-02
3.18542117445E+05	-2.78412416583E+01	-1.62934507006E+02	6.19239737819E+00	-1.77834967336E+02	-4.03090215663E+01	-1.60594960539E+02	-6.07788013080E+00	-3.14996986927E-01
3.18772365446E+05	-2.97936110899E+01	3.70911623646E+01	6.09644802574E+00	-1.77572020069E+02	-4.51210121529E+01	5.63246675275E+01	-6.02000651606E+00	9.49530192031E-03
3.19002779874E+05	-2.17807913169E+01	5.35380655549E+01	6.09227209598E+00	-1.78124542222E+02	-4.44971914765E+01	3.34952839482E+01	-6.03473307357E+00	-1.04387525769E-01
3.19233360850E+05	-1.48112540718E+01	1.26518566630E+02	6.19428961816E+00	-1.78088492960E+02	-3.82615149802E+01	-1.68389853302E+02	-6.08769113253E+00	-2.26851225672E-01
3.19464108494E+05	-2.42632677486E+01	7.03960343334E+01	6.11496219592E+00	-1.78348638389E+02	-4.83878926621E+01	-7.84636272309E+01	-6.03391516981E+00	-4.86280707457E-01
3.19695022927E+05	-1.96041398879E+01	-6.93861837372E+00	6.12754520371E+00	-1.77681629312E+02	-4.26764480541E+01	-1.27283964124E+02	-6.04796115156E+00	-2.74695126404E-01
3.19926104268E+05	-1.86603879837E+01	9.48593099621E-01	6.07235975254E+00	-1.77927255798E+02	-5.07406515298E+01	3.42814422678E+01	-6.05551545331E+00	-2.98332074149E-01
3.20157352640E+05	-1.40268476754E+01	1.58865382717E+02	6.30062370325E+00	-1.78085102439E+02	-3.43980921537E+01	1.69121490789E+02	-6.12215639983E+00	-3.54188819104E-01
3.20388768162E+05	-2.34764210983E+01	-1.20374987895E+01	6.04130408506E+00	-1.77819730439E+02	-4.30445288735E+01	1.45807861947E+02	-6.05813107428E+00	-1.84702873555E-01
3.20620350955E+05	-2.55468720802E+01	3.59460433505E+01	6.08895644698E+00	-1.77841744834E+02	-4.91851367340E+01	7.27999754652E+01	-6.03262485626E+00	-2.49768645353E-01
3.20852101140E+05	-2.17484521092E+01	6.02266640118E+01	6.11186060579E+00	-1.78180547036E+02	-4.16922807714E+01	-1.75926154614E+02	-6.07684146431E+00	-3.09259948214E-01
3.21084018839E+05	-1.65575656188E+01	-3.34208884471E+01	6.03503791227E+00	-1.77198117885E+02	-4.55282613741E+01	1.38207563736E+02	-6.04685428126E+00	-2.77723115640E-01
3.21316104172E+05	-2.61327252029E+01	8.40840906881E+01	6.14114807313E+00	-1.77988745086E+02	-4.19808369342E+01	1.31786075991E+01	-6.01302866415E+00	-2.63994598329E-01
3.21548357261E+05	-2.00317889387E+01	8.61100896038E+01	6.11510811117E+00	-1.78307547386E+02	-4.06358382109E+01	-1.60992763332E+02	-6.01954191497E+00	-1.90960011089E-01
3.21780778226E+05	-2.32369390692E+01	-4.83699894202E+00	6.13216915538E+00	-1.77887023259E+02	-3.88938350036E+01	-5.36363817889E+01	-6.01514415705E+00	-3.88506054507E-01
3.22013367189E+05	-2.17336919673E+01	1.76439702002E+02	6.27661844644E+00	-1.78160327582E+02	-4.93906391381E+01	1.46993217379E+02	-6.06423463612E+00	-4.54512774070E-02
3.22246124272E+05	-2.32012644820E+01	1.10329174096E+02	6.15366551426E+00	-1.78005595893E+02	-4.09036564904E+01	-1.05736368779E+02	-6.04367436693E+00	-3.89216496953E-01
3.22479049596E+05	-3.16702597870E+01	3.84309727147E+01	6.17023741047E+00	-1.77738522484E+02	-4.36759938951E+01	1.29371309265E+02	-6.06936138535E+00	-6.05576233319E-02
3.22712143282E+05	-1.01510242755E+01	3.24480638725E+01	5.91827243355E+00	-1.79053906470E+02	-3.95461722359E+01	-1.64382875208E+02	-6.05219803183E+00	-3.82185578037E-01
3.22945405453E+05	-1.85463712463E+01	1.57853375230E+01	6.07051994326E+00	-1.77869909870E+02	-4.20466262530E+01	1.36217499017E+01	-6.01203585050E+00	-9.35404444706E-02
3.23178836230E+05	-1.77187523538E+01	1.13988333830E+02	6.17651828462E+00	-1.78206438331E+02	-3.41562723887E+01	-6.34791996748E+01	-6.02703099024E+00	-3.34070446998E-01
3.23412435735E+05	-2.06478985476E+01	2.63779465332E+01	6.08834720762E+00	-1.78261284423E+02	-5.34738223042E+01	1.24128814650E+02	-6.03295266242E+00	-1.67867047232E-01
3.23646204090E+05	-1.04700064096E+01	1.75726639663E+01	5.91603554466E+00	-1.78316309092E+02	-4.12104341644E+01	2.15395301992E+01	-6.00645216429E+00	-2.42869889540E-01
3.23880141417E+05	-2.45009094101E+01	9.79182478753E+01	6.14003377345E+00	-1.78140300092E+02	-3.90029087574E+01	-1.48293222322E+02	-6.08800930336E+00	-1.75139252239E-01
3.24114247838E+05	-1.88627754668E+01	2.60192345285E+01	6.03503547103E+00	-1.78298533600E+02	-4.79921907651E+01	1.45973991399E+02	-6.04728718024E+00	-2.51137182691E-01
3.24348523475E+05	-2.44291578568E+01	1.34946446491E+00	6.13431411796E+00	-1.77910275687E+02	-4.53722003894E+01	-1.53625688693E+02	-6.05474897042E+00	-4.40416825807E-02
3.24582968451E+05	-1.58625873044E+01	-5.47305594216E+01	6.05585376596E+00	-1.77259177265E+02	-4.02714177296E+01	-1.00571823363E+02	-6.04448698306E+00	-2.69876009551E-01
3.24817582888E+05	-1.81275432086E+01	4.26366010844E+01	6.05356198824E+00	-1.78092930344E+02	-4.56707104434E+01	6.78993658485E+01	-6.04174290376E+00	-1.48018850113E-01
3.25052366909E+05	-2.26098976145E+01	6.52611348510E+01	6.18373784875E+00	-1.78006558860E+02	-5.35499937916E+01	7.36222542005E+01	-6.03215823518E+00	-3.05572619483E-01
3.25287320635E+05	-2.07384788008E+01	5.36153156143E+01	6.11284374757E+00	-1.78289530985E+02	-4.38451848023E+01	2.81158869814E+01	-6.00185725331E+00	-2.25599338906E-01
3.25522444191E+05	-3.57635690568E+01	-1.31352863317E+02	6.18724503525E+00	-1.77933018721E+02	-3.87787479601E+01	-1.52177906383E+02	-6.06470691563E+00	-3.86991293839E-01
3.25757737698E+05	-1.93491198069E+01	6.88783933418E+01	6.11156147081E+00	-1.78653632224E+02	-4.54906736820E+01	-1.03443720036E+02	-6.03561018471E+00	-1.60682944793E-01
3.25993201280E+05	-2.41199383167E+01	-5.29306147307E+01	6.10928549121E+00	-1.77912292508E+02	-6.30576490485E+01	-4.66043420914E+01	-6.03104979510E+00	-1.06550834295E-01
3.26228835058E+05	-2.20104350561E+01	4.61230739122E+01	6.06680372294E+00	-1.78265932737E+02	-4.16962623743E+01	-2.84590922649E+01	-6.03693904588E+00	-3.07644614600E-01
