# Hz S DB R 50
! CMT, M5065, 19127446, 24.2.4/2
! Date: 11/1/2024 3:37:43 PM
! Data: Format (Calibration Info)
! Freq	S11:dB/Ang(F2)	S21:dB/Ang(F2)	S12:dB/Ang(F2)	S22:dB/Ang(F2)
3.00000000000E+05	-1.38789195671E+01	3.49251470837E+01	1.37487356296E+01	-1.77932397290E+02	-2.93587356628E+01	1.62363276455E+01	-5.81340854780E+00	3.28339123662E-01
3.00216845423E+05	-1.40236351288E+01	3.64585833788E+01	1.36930000481E+01	-1.77881762032E+02	-4.38981562392E+01	1.44991455838E+02	-6.01783420489E+00	-1.80931972191E-01
3.00433847586E+05	-1.18802933914E+01	5.86094222960E+01	1.37524939812E+01	-1.78272239947E+02	-4.90451339155E+01	-1.78949346514E+02	-6.04848474045E+00	-5.05897951242E-01
3.00651006602E+05	-1.85044703945E+01	4.76799394912E+01	1.38024806808E+01	-1.77624455360E+02	-4.09633542616E+01	-9.37059774678E+01	-6.02393895396E+00	-6.05941262403E-01
3.00868322584E+05	-2.23996092714E+01	-1.55625267326E+01	1.37864134375E+01	-1.77380814337E+02	-4.15250242067E+01	-7.19275252125E+01	-6.00496315729E+00	-3.88740896276E-01
3.01085795647E+05	-1.34087542774E+01	5.43090855122E+01	1.37599109839E+01	-1.77904981706E+02	-4.28514885172E+01	-1.45738944731E+02	-6.04277401309E+00	-3.07743292730E-01
3.01303425902E+05	-2.87008216335E+01	-3.46690915697E+01	1.37982565224E+01	-1.77445893534E+02	-3.94861752264E+01	-8.91159843477E+01	-6.07078668184E+00	-9.47335002285E-01
3.01521213465E+05	-1.93709630328E+01	2.92221159725E+01	1.37774866222E+01	-1.77887967705E+02	-3.60306767616E+01	-6.75726839309E+01	-5.97527134014E+00	-5.92031287546E-01
3.01739158449E+05	-1.49748766532E+01	8.50987480169E+01	1.38100504105E+01	-1.78271119213E+02	-5.63361515967E+01	-1.14927360535E+02	-6.02593867231E+00	-1.32914973282E-01
3.01957260967E+05	-1.28142192191E+01	9.06831307870E+01	1.38480960244E+01	-1.78185080924E+02	-4.18011998544E+01	7.59998897573E+01	-6.00214515357E+00	4.13635794558E-02
3.02175521134E+05	-1.69577742480E+01	-3.55300028457E+01	1.37235727137E+01	-1.77454082139E+02	-4.42366912865E+01	9.92989876214E+01	-6.07034275210E+00	-1.34935471850E-01
3.02393939063E+05	-2.15357285029E+01	-2.26938132196E+01	1.37752240649E+01	-1.77512778013E+02	-3.77986309480E+01	-2.38729850057E+01	-5.92599282337E+00	-5.47925165482E-01
3.02612514869E+05	-2.06365607861E+01	-6.89901793934E+01	1.37593975700E+01	-1.77387349366E+02	-4.22117168529E+01	1.58565905546E+02	-6.04259623579E+00	-2.78468200121E-01
3.02831248665E+05	-1.25712980371E+01	-2.59160106069E+00	1.36807758957E+01	-1.77498724538E+02	-3.21175191999E+01	1.03901603214E+02	-6.07076713351E+00	1.01291018413E+00
3.03050140565E+05	-2.56194435643E+01	4.06137086270E+01	1.37640516446E+01	-1.77653998452E+02	-2.98917750630E+01	1.33773912508E+02	-6.23375138045E+00	8.89432885201E-01
3.03269190685E+05	-1.85374267721E+01	3.29226150008E+01	1.37809144518E+01	-1.77508713723E+02	-3.58872691130E+01	-1.02858499708E+02	-6.04286486084E+00	-1.02376418729E+00
3.03488399138E+05	-9.75233660346E+00	2.63891591320E+01	1.35828783710E+01	-1.77885546780E+02	-4.12712070609E+01	1.12580831268E+02	-6.02648607982E+00	1.74730893535E-01
3.03707766039E+05	-2.55047636950E+01	2.67812924122E+00	1.38092770764E+01	-1.77368212743E+02	-5.89869483724E+01	-1.50001202409E+02	-6.05846854547E+00	-4.99333302465E-02
3.03927291503E+05	-1.43899257072E+01	4.87953870511E+01	1.37397043894E+01	-1.78026848491E+02	-4.36181164665E+01	1.11250573271E+02	-6.06549511696E+00	5.10202827755E-03
3.04146975643E+05	-1.75643732172E+01	-1.16641720183E+01	1.37753315263E+01	-1.77320349338E+02	-3.39694004412E+01	-7.37427490179E+01	-5.97245251825E+00	-1.05964654396E+00
3.04366818575E+05	-1.73229779399E+01	1.87224769449E+01	1.37727018572E+01	-1.77676096658E+02	-2.93576069336E+01	6.52496152909E+01	-5.91973864545E+00	1.54337420880E+00
3.04586820414E+05	-1.21074410262E+01	-7.66724352973E+00	1.36763721732E+01	-1.77322576762E+02	-2.64601957536E+01	1.74529671437E+02	-6.41188111795E+00	2.94164791004E-01
3.04806981274E+05	-2.05019860791E+01	5.92423304177E+01	1.37933080485E+01	-1.77655715962E+02	-3.86567045534E+01	-8.54304826181E+01	-6.02524866151E+00	-3.02912447287E-01
3.05027301270E+05	-1.07735544148E+01	7.96720425100E+01	1.37805276465E+01	-1.78756697285E+02	-3.75097218927E+01	6.24760840451E+01	-6.00529699909E+00	5.00108949603E-02
3.05247780517E+05	-1.47403963645E+01	-2.32085626605E+01	1.37247781851E+01	-1.76932623561E+02	-4.13046265037E+01	4.03130921911E+01	-6.00978136224E+00	2.38679686845E-03
3.05468419131E+05	-2.25098716859E+01	-1.18068100242E+02	1.38507078715E+01	-1.77059351660E+02	-4.10352022670E+01	-5.29333107609E+01	-5.98246045536E+00	-3.39724915421E-01
3.05689217226E+05	-2.26599445528E+01	5.00075725074E+01	1.37688901037E+01	-1.77514033950E+02	-4.01195857262E+01	2.59090601479E+01	-5.99244439118E+00	-1.75453062744E-01
3.05910174918E+05	-1.29932908561E+01	7.60301446588E+00	1.37314812114E+01	-1.77779389481E+02	-3.89750005785E+01	8.61221518942E+00	-5.96283765201E+00	-1.14484276847E-02
3.06131292322E+05	-1.82785154785E+01	1.02627399598E+02	1.37945406818E+01	-1.77822734133E+02	-2.97956357921E+01	-7.75314128795E+01	-5.99387519285E+00	-1.82619929964E+00
3.06352569554E+05	-2.80659123272E+01	-6.10937546893E+00	1.37808520717E+01	-1.77646008815E+02	-4.28164586872E+01	-4.09980976788E+00	-6.04156406651E+00	-3.50340773110E-01
3.06574006730E+05	-2.27080567013E+01	5.38089031146E+01	1.38253578859E+01	-1.77630703707E+02	-4.29432373603E+01	-8.32084422833E+01	-6.09910442029E+00	-6.85850184640E-01
3.06795603964E+05	-2.60845515272E+01	-1.12043078932E+01	1.37947357092E+01	-1.77380485237E+02	-4.08705232071E+01	-2.59907512237E+01	-5.97687723455E+00	-4.74968610842E-01
3.07017361372E+05	-2.51603898060E+01	-3.28397399452E+01	1.38201218878E+01	-1.77438232901E+02	-3.36776474921E+01	-4.40373542064E+01	-5.94762346396E+00	-5.01354756800E-01
3.07239279071E+05	-1.64763183761E+01	-5.30895947575E+00	1.37393680075E+01	-1.77257171477E+02	-4.22589655444E+01	9.50268814530E+01	-6.02577264718E+00	-1.03229420390E-02
3.07461357176E+05	-1.66106686461E+01	2.19577978948E+01	1.37914199433E+01	-1.77465753914E+02	-3.31433706218E+01	7.20784656305E+01	-5.95136774504E+00	8.54189907435E-01
3.07683595803E+05	-2.83933788906E+01	9.60778180832E+01	1.38217455344E+01	-1.77435954349E+02	-2.92977034406E+01	-9.53933821332E+01	-6.05001174501E+00	-1.83509242203E+00
3.07905995068E+05	-1.46777522065E+01	1.45348808589E+02	1.38972847966E+01	-1.77752800405E+02	-3.76254357454E+01	1.59021112131E+02	-6.09992535586E+00	-1.96613926558E-01
3.08128555087E+05	-1.40488136398E+01	-4.42978566948E+01	1.37444204551E+01	-1.77112097064E+02	-3.72582448519E+01	1.18463044242E+02	-6.07163190701E+00	2.34367685810E-01
3.08351275976E+05	-1.75704443602E+01	-8.05502812479E+01	1.38492731100E+01	-1.77017521691E+02	-4.50854361502E+01	-1.39205687580E+02	-6.09104644936E+00	-1.55537540139E-01
3.08574157853E+05	-2.19458109480E+01	6.47604391171E+01	1.37669619948E+01	-1.77554996049E+02	-3.55838133470E+01	7.83636908286E+01	-6.02294023949E+00	2.89462960567E-01
3.08797200832E+05	-3.59735461497E+01	1.09156680961E+01	1.38175276486E+01	-1.77697704816E+02	-4.80983839862E+01	-1.12755082362E+02	-6.04242429680E+00	-2.12968119522E-01
3.09020405031E+05	-1.73859003141E+01	1.72744227417E+01	1.37570291006E+01	-1.77789927156E+02	-3.34727817254E+01	-1.70199616042E+02	-6.13328660251E+00	-2.64390878246E-01
3.09243770566E+05	-2.20596801813E+01	-1.25483153638E+01	1.37697294121E+01	-1.77507277310E+02	-3.32948401829E+01	5.21475074728E+00	-5.87840892291E+00	-1.20290960102E-01
3.09467297553E+05	-1.87460668976E+01	-1.69250182964E+01	1.38306950116E+01	-1.77581352191E+02	-4.82457313124E+01	6.69712140647E+01	-6.06185070034E+00	-2.70788880235E-01
3.09690986110E+05	-6.79905120067E+00	-1.55582419511E+02	1.41493685540E+01	-1.76592183562E+02	-4.52456840213E+01	-4.22452953246E+01	-6.02835478168E+00	-5.01226500858E-01
3.09914836353E+05	-2.07483824105E+01	1.72356872006E+02	1.38550863177E+01	-1.77792256990E+02	-4.58605680773E+01	1.73476368427E+01	-6.02872202582E+00	-1.75879551021E-01
3.10138848399E+05	-2.05102194998E+01	3.09701909715E+01	1.37766548702E+01	-1.77873332933E+02	-4.62032900267E+01	-7.58806156022E+01	-6.06596893552E+00	-8.72344215351E-01
3.10363022365E+05	-1.74486957436E+01	4.61549307085E+01	1.37652909578E+01	-1.78203766954E+02	-3.86304318120E+01	-8.10393840967E+01	-6.01231554670E+00	-5.80512933535E-01
3.10587358368E+05	-1.99934668711E+01	1.23631435461E+01	1.37473610923E+01	-1.77393826870E+02	-3.95864235913E+01	1.53064496802E+02	-6.06174494561E+00	-1.50073873611E-01
3.10811856525E+05	-3.09212893160E+01	-1.28094658582E+02	1.38475207061E+01	-1.77571104762E+02	-3.06428275600E+01	7.49534558808E+01	-5.97304022237E+00	1.28375030193E+00
3.11036516954E+05	-2.09061799078E+01	1.98972881622E+01	1.37659670219E+01	-1.77738780855E+02	-3.74909672396E+01	-3.43538587457E+01	-6.00607591003E+00	-4.03342217434E-01
3.11261339771E+05	-8.86946506151E+00	-2.88200686697E+01	1.36612888422E+01	-1.76809427810E+02	-3.60588919508E+01	-1.39884273675E+02	-6.09903358069E+00	-3.85959692927E-01
3.11486325094E+05	-1.61184730795E+01	1.05838275750E+01	1.37455625976E+01	-1.77740469629E+02	-3.52502468579E+01	-1.77813021964E+02	-6.11808340683E+00	-2.07731248644E-01
3.11711473040E+05	-2.03203075200E+01	-3.19595597422E+01	1.37998578065E+01	-1.77350557072E+02	-4.40312539514E+01	3.49018058803E+01	-6.02371629295E+00	-1.17150289097E-01
3.11936783728E+05	-2.25069882112E+01	1.70480314548E+02	1.38891712117E+01	-1.77743873999E+02	-4.80505072582E+01	1.78704888698E+02	-6.06108520430E+00	-3.32506104234E-01
3.12162257274E+05	-1.95657752428E+01	5.22879120683E+01	1.37487181070E+01	-1.77896396655E+02	-4.15103416492E+01	-1.03596827721E+02	-6.05231837313E+00	-4.73030305022E-01
3.12387893797E+05	-1.94928124549E+01	4.57045118647E+01	1.38072864317E+01	-1.78024800828E+02	-5.04927859674E+01	1.70245951664E+02	-6.05221918342E+00	-1.55626341944E-01
3.12613693413E+05	-2.19651888373E+01	-5.60729499928E+01	1.38023662305E+01	-1.77543450764E+02	-4.22901333663E+01	-1.01087096844E+02	-6.04324730491E+00	-5.97729422158E-01
3.12839656242E+05	-1.42328128239E+01	-2.11774277832E+01	1.37751918774E+01	-1.77207539295E+02	-4.23853528125E+01	2.19654192581E+01	-6.00621676025E+00	-8.61073708104E-02
3.13065782401E+05	-1.17172254151E+01	-8.13696512055E+01	1.38017213808E+01	-1.76621252141E+02	-3.75620768747E+01	2.75205684922E+01	-5.97466295208E+00	3.41191960512E-02
3.13292072007E+05	-2.36252589159E+01	2.42235171691E+01	1.37678969551E+01	-1.77832839244E+02	-4.03323304787E+01	-1.93252317058E+01	-5.99683893537E+00	-1.94780200866E-01
3.13518525180E+05	-2.37729799484E+01	1.25939399713E+02	1.38643439853E+01	-1.77923882661E+02	-4.51904685091E+01	2.79622891540E+01	-5.96903412238E+00	-1.59470197191E-01
3.13745142038E+05	-2.76716752812E+01	1.56648716042E+02	1.38207000866E+01	-1.77928351652E+02	-3.51993522178E+01	6.42225393436E+00	-5.93448022267E+00	-3.90818032474E-02
3.13971922698E+05	-2.13080491385E+01	3.32319615526E+01	1.37694669280E+01	-1.78035570259E+02	-2.92290317672E+01	1.38091201307E+02	-6.21304245292E+00	4.63086642645E-01
3.14198867279E+05	-2.36566762883E+01	6.49639709941E+01	1.37924121040E+01	-1.78000348618E+02	-5.48249043621E+01	3.82810257938E+01	-6.00466644069E+00	-3.03645052364E-01
3.14425975900E+05	-1.66760215954E+01	-6.93783065398E+01	1.37577567800E+01	-1.77087991807E+02	-4.20664608541E+01	1.96247341025E+01	-5.97958233424E+00	-1.46192786976E-01
3.14653248680E+05	-1.40231733245E+01	4.09680385252E+01	1.37386860418E+01	-1.78350047807E+02	-4.91614166316E+01	5.83930285630E+01	-6.04819792198E+00	-1.78543176892E-01
3.14880685736E+05	-2.39811118387E+01	5.15375500389E+00	1.37692879627E+01	-1.77634647668E+02	-4.29398140852E+01	-5.56585057706E+01	-6.02634537370E+00	-4.96415426925E-01
3.15108287188E+05	-2.69601252787E+01	-1.38523285297E+01	1.37684268394E+01	-1.77276341405E+02	-4.45118436777E+01	2.95830346880E+01	-6.02642524754E+00	-2.36182582321E-01
3.15336053154E+05	-2.27587239930E+01	-1.78837481805E+02	1.38460693507E+01	-1.77610975912E+02	-4.15517775513E+01	-8.31217633914E+01	-6.03414742836E+00	-6.91522172774E-01
3.15563983753E+05	-2.25322847388E+01	7.18452248906E+01	1.38023577266E+01	-1.78189298531E+02	-3.46027632763E+01	1.51697380259E+02	-6.15844499023E+00	1.46682927472E-01
3.15792079105E+05	-1.62842833290E+01	-2.79482884079E+01	1.37479727509E+01	-1.77481690341E+02	-4.11299685223E+01	5.29264222934E+01	-6.03075030473E+00	-2.81624804982E-02
3.16020339328E+05	-1.24697513233E+01	-2.29517380209E+01	1.36782227905E+01	-1.77425140877E+02	-3.53208650012E+01	-1.37386199596E+02	-6.09892643130E+00	-9.70299999325E-01
3.16248764542E+05	-1.58038386703E+01	4.48871741093E+01	1.37576443884E+01	-1.78094278581E+02	-3.57634525103E+01	-7.79827277271E+01	-6.00676737822E+00	-6.49587319186E-01
3.16477354866E+05	-1.77672743669E+01	4.45706648246E+01	1.37920756404E+01	-1.78195406430E+02	-3.74110854498E+01	-1.58863086061E+02	-6.11873757596E+00	-4.27725479534E-01
3.16706110419E+05	-1.61540649003E+01	5.87159535409E+01	1.38115023556E+01	-1.78224018175E+02	-3.53960011588E+01	-2.96662165630E+01	-5.93459246740E+00	-5.04920028330E-01
3.16935031321E+05	-1.62431423824E+01	-1.24055237830E+01	1.37329575422E+01	-1.77507388413E+02	-3.35370085550E+01	-6.47004053686E+00	-5.91018376579E+00	-5.34092511622E-02
3.17164117691E+05	-2.66302584034E+01	9.67860696078E+00	1.37938794033E+01	-1.77729042173E+02	-5.69727597605E+01	9.61113803599E+01	-6.05926136937E+00	-4.63077397742E-01
3.17393369648E+05	-1.78749606404E+01	-8.99043061089E+00	1.37480610622E+01	-1.77682892686E+02	-3.00308595468E+01	1.71926783811E+02	-6.24145618799E+00	-9.92149772156E-02
3.17622787313E+05	-1.32853560877E+01	5.14531693213E+01	1.37287153767E+01	-1.78205994041E+02	-5.52898233354E+01	-5.33164158658E+01	-5.97680033872E+00	-3.32732997773E-01
3.17852370806E+05	-9.01923801072E+00	1.47316543439E+02	1.40551703928E+01	-1.78551072216E+02	-3.94873506751E+01	-1.58551018336E+02	-6.09995814889E+00	-3.00546698085E-01
3.18082120245E+05	-2.25342164633E+01	9.30252866052E+00	1.38094810877E+01	-1.77920457562E+02	-6.22723585412E+01	-9.89290304470E+01	-6.03079768737E+00	-2.74212142826E-01
3.18312035752E+05	-2.07283167114E+01	4.47791617837E+01	1.38047023628E+01	-1.78328277905E+02	-5.02774231927E+01	5.08005476562E+01	-6.01134460463E+00	-2.16251637951E-01
3.18542117445E+05	-1.42999052546E+01	4.19690811555E+01	1.36947262463E+01	-1.78366132914E+02	-6.21132480019E+01	4.06200622102E+01	-6.03491969801E+00	-5.61764020045E-01
3.18772365446E+05	-1.72623715212E+01	-3.91067144021E+01	1.37652341919E+01	-1.77515890410E+02	-3.63606618117E+01	8.39962283006E+01	-6.01648568059E+00	3.17526018253E-01
3.19002779874E+05	-1.60945806743E+01	3.45150679973E+00	1.37460561049E+01	-1.77943763663E+02	-3.78755582588E+01	-1.37700330737E+01	-5.98764822753E+00	-5.22743240396E-01
3.19233360850E+05	-9.35496284460E+00	3.86497537485E+01	1.36564000658E+01	-1.78618058408E+02	-4.52583790295E+01	-8.83695817408E+01	-6.05630458875E+00	-4.36148568880E-01
3.19464108494E+05	-6.30156454454E+00	1.64457414152E+01	1.34872700354E+01	-1.78385518267E+02	-4.41453720122E+01	9.39862196077E+01	-6.04977629891E+00	-1.26567242061E-01
3.19695022927E+05	-2.04466614047E+01	4.38955182395E+01	1.37275213614E+01	-1.78286268669E+02	-4.77722485352E+01	5.46030884995E+01	-6.02001955073E+00	-2.83028289291E-01
3.19926104268E+05	-1.91411164640E+01	9.59626267148E+01	1.38585977856E+01	-1.78271443228E+02	-5.59418436970E+01	-1.30470623639E+02	-6.00767622201E+00	-1.47417884407E-01
3.20157352640E+05	-1.39718911856E+01	8.14688336272E+01	1.38154299672E+01	-1.78648978305E+02	-3.28240446562E+01	-9.93698449921E+01	-6.08194752317E+00	-9.63140612566E-01
3.20388768162E+05	-1.74483884864E+01	-2.32769185883E+01	1.37586950790E+01	-1.77805899784E+02	-4.16597732245E+01	1.53654060601E+02	-6.10971606217E+00	-2.79487019775E-01
3.20620350955E+05	-2.94897312036E+01	2.82165776310E+01	1.37715110075E+01	-1.77901333878E+02	-3.73600032414E+01	-1.46478822729E+02	-6.11409886922E+00	-8.03558619593E-01
3.20852101140E+05	-1.62639412033E+01	1.11088739525E+02	1.38616679932E+01	-1.78660571903E+02	-4.54658623726E+01	-1.77499891297E+02	-6.04779201299E+00	-3.88896903791E-01
3.21084018839E+05	-1.15459329981E+01	1.71819046863E+02	1.40185461724E+01	-1.78301338077E+02	-4.01311397342E+01	-2.81533487675E+01	-5.98773586343E+00	-3.20490296623E-01
3.21316104172E+05	-2.65174131206E+01	-4.55644476438E+01	1.38113382912E+01	-1.77577301332E+02	-3.69405295995E+01	-4.66193539577E+01	-5.98760305382E+00	-6.96277728909E-01
3.21548357261E+05	-2.22818649600E+01	-3.36431895350E+01	1.38038147154E+01	-1.77634738992E+02	-4.20837470443E+01	-4.56814808111E+01	-6.03992201147E+00	-6.27760741116E-01
3.21780778226E+05	-2.02926665002E+01	7.02644699545E+01	1.37589709774E+01	-1.78193252760E+02	-3.91014461434E+01	-6.68926904468E+00	-5.98279877162E+00	-2.51252017590E-01
3.22013367189E+05	-1.74074519857E+01	-2.36664938877E+01	1.37576534417E+01	-1.77473041216E+02	-3.32933114617E+01	6.73995111729E+01	-5.99148482873E+00	7.88735974419E-01
3.22246124272E+05	-2.16257232792E+01	9.48851631494E+01	1.38395088205E+01	-1.78357946072E+02	-4.47710818048E+01	2.80865454741E+01	-6.04874884541E+00	-3.67878314930E-02
3.22479049596E+05	-1.23425887275E+01	1.49469824932E+01	1.36767052278E+01	-1.78078778617E+02	-4.00256133951E+01	1.42662553837E+02	-6.05329127725E+00	2.24943893422E-02
3.22712143282E+05	-7.16808470362E+00	-5.71149770542E+01	1.37163609583E+01	-1.76069948767E+02	-4.61915916274E+01	-1.28016554696E+02	-6.06066115237E+00	-3.40254839610E-01
3.22945405453E+05	-1.99877534910E+01	-3.56752477447E+01	1.37470911789E+01	-1.77688851809E+02	-3.19564476082E+01	-1.05756901362E+01	-5.91561535713E+00	-4.15748535296E-01
3.23178836230E+05	-1.98816893981E+01	7.19959284845E+01	1.37982590383E+01	-1.78015242819E+02	-3.75330350790E+01	-7.67039563504E+01	-6.03734222381E+00	-4.63166588938E-01
3.23412435735E+05	-1.69175109353E+01	9.10786753047E+01	1.38137224043E+01	-1.78318890617E+02	-3.64785969078E+01	-6.47535868718E+00	-5.93604470262E+00	-2.79387722952E-01
3.23646204090E+05	-1.19850609052E+01	3.85602401640E+01	1.36674027738E+01	-1.78571158197E+02	-3.50066746709E+01	7.03224836784E+01	-6.00483426835E+00	8.67657259090E-01
3.23880141417E+05	-3.49705164303E+01	-1.31191686426E+02	1.38158832626E+01	-1.77901328132E+02	-3.33499861284E+01	3.68152831287E+01	-5.90930070717E+00	3.97692914424E-01
3.24114247838E+05	-2.09647650436E+01	-3.17394920344E+01	1.37366219104E+01	-1.77443960770E+02	-4.24790112969E+01	1.13143007290E+02	-6.06021566649E+00	1.11559963931E-02
3.24348523475E+05	-1.37867846456E+01	-1.57079283540E+01	1.37133700631E+01	-1.77789814226E+02	-3.42100506680E+01	-3.36904179180E+01	-5.97574425679E+00	-5.52885197226E-01
3.24582968451E+05	-1.79040683717E+01	-3.46455393197E+01	1.37742474426E+01	-1.77478498641E+02	-4.04435735863E+01	-5.16610633365E+01	-6.01807458506E+00	-3.94915537775E-01
3.24817582888E+05	-1.85557790805E+01	-3.80023642500E+01	1.37874373374E+01	-1.77610510427E+02	-3.92756179154E+01	5.72470171109E+01	-5.99232490554E+00	2.10632881725E-01
3.25052366909E+05	-2.20119415803E+01	2.78178835526E+01	1.38203983879E+01	-1.77958924964E+02	-3.65043650166E+01	-1.46491588377E+01	-5.98403445397E+00	-3.99762145498E-01
3.25287320635E+05	-1.34372426174E+01	8.23993206829E+01	1.37838507296E+01	-1.78877939769E+02	-3.99879535166E+01	1.25547205230E+02	-6.11765018841E+00	1.48729747400E-01
3.25522444191E+05	-2.55404514339E+01	1.18907484502E+02	1.38334279108E+01	-1.78095892781E+02	-2.95841353414E+01	-5.52722613352E+01	-5.90918663422E+00	-1.66694164762E+00
3.25757737698E+05	-1.29201791402E+01	-5.69298276922E+01	1.37406495169E+01	-1.76967067702E+02	-4.30604807333E+01	9.86588543098E+01	-6.04590635773E+00	-3.80991356935E-01
3.25993201280E+05	-1.12216871123E+01	-2.27831205382E+00	1.36645182215E+01	-1.77543677205E+02	-4.12118887537E+01	5.62819992619E+01	-6.01589612918E+00	7.68844439548E-02
3.26228835058E+05	-2.80685984724E+01	5.77211328861E+00	1.38129285848E+01	-1.78027402157E+02	-3.38599566897E+01	-1.24933246551E+02	-6.07599306088E+00	-6.36535797015E-01
