# Hz S DB R 50
! CMT, M5065, 19127446, 24.2.4/2
! Date: 11/1/2024 3:51:36 PM
! Data: Format (Calibration Info)
! Freq	S11:dB/Ang(F2)	S21:dB/Ang(F2)	S12:dB/Ang(F2)	S22:dB/Ang(F2)
3.00000000000E+05	-6.14710316435E+00	2.11355512676E-01	4.02305346235E+01	-1.78662732089E+02	-3.99430075807E+01	1.51624561412E+02	-6.67871247087E+00	2.53601177795E+00
3.00216845423E+05	-1.24625134756E+01	-4.41752055097E+01	4.04176226565E+01	-1.78497969494E+02	-3.98290933521E+01	-9.96030848723E+01	-6.05542460261E+00	-7.59005429290E+00
3.00433847586E+05	-1.61011883918E+01	-4.94267251969E+01	4.04418925447E+01	-1.78976856218E+02	-4.39959940526E+01	-9.02795649196E+01	-5.93017462012E+00	-7.32800313520E+00
3.00651006602E+05	-1.03300690768E+01	-5.86368363537E+01	4.04188702247E+01	-1.78451765569E+02	-3.76644577200E+01	1.60423300422E+02	-7.35820388793E+00	3.44794727654E+00
3.00868322584E+05	-2.72303338132E+01	2.54747030429E+01	4.04609048780E+01	-1.79409324505E+02	-3.73114336921E+01	-8.20354755961E+01	-5.68803194434E+00	-9.30432235004E+00
3.01085795647E+05	-1.31955133272E+01	3.19725480686E+01	4.03796398565E+01	-1.79650516618E+02	-3.09258151249E+01	-1.01254001348E+02	-5.04804707954E+00	-2.62228091318E+01
3.01303425902E+05	-1.74521962951E+01	-2.38963896100E+01	4.04110178225E+01	-1.79009999676E+02	-4.34635262058E+01	3.79567269496E+01	-5.22959551049E+00	2.86873267940E+00
3.01521213465E+05	-8.73205552450E+00	-5.79228503609E+01	4.03318024052E+01	-1.78176816671E+02	-5.67774847139E+01	7.83778088450E+01	-5.78674172876E+00	3.12205582540E-01
3.01739158449E+05	-1.38118860195E+01	-3.39319858424E+01	4.03738349266E+01	-1.79206822797E+02	-4.07251625435E+01	-5.93233641424E+01	-5.13148114683E+00	-6.53754053855E+00
3.01957260967E+05	-1.17394435433E+01	-7.02331511205E+01	4.04308146823E+01	-1.78484361243E+02	-5.45897525580E+01	5.03565235339E+01	-5.75375413011E+00	1.81376119586E+00
3.02175521134E+05	-1.51614518316E+01	-7.08166034526E+01	4.04520104260E+01	-1.78989261884E+02	-3.66008746841E+01	7.26596009046E+00	-4.39825676638E+00	-7.29824117110E-01
3.02393939063E+05	-1.53404928150E+01	-4.38149991901E+01	4.04233426678E+01	-1.79437788140E+02	-3.65573085221E+01	1.76974110781E+02	-7.40827053543E+00	-3.07093585036E-01
3.02612514869E+05	-1.21001250796E+01	-6.67630921761E+01	4.04449769855E+01	-1.78847435382E+02	-3.65462226597E+01	-8.55064917653E+01	-5.69293912847E+00	-1.21844028888E+01
3.02831248665E+05	-1.62460261632E+01	-5.44603221518E+01	4.04514820608E+01	-1.79230311564E+02	-4.43917971599E+01	-8.53420171937E+01	-5.96587328426E+00	-6.23024945847E+00
3.03050140565E+05	-9.11072984325E+00	2.35226060143E+00	4.02483833802E+01	-1.79639381409E+02	-4.08541119309E+01	1.31694591366E+02	-6.50119025915E+00	4.76671560415E+00
3.03269190685E+05	-1.18031286565E+01	-4.38698170412E+01	4.03696664500E+01	-1.79274174735E+02	-4.14555567231E+01	1.21525842643E+02	-6.36026533451E+00	1.90020211636E+00
3.03488399138E+05	-2.73365234240E+01	-5.04329452568E+01	4.04403895703E+01	-1.79763239548E+02	-6.36374364378E+01	-1.35770166511E+02	-5.90475428639E+00	-1.81252997384E-01
3.03707766039E+05	-1.35569938259E+01	-4.28466182435E+01	4.03777311168E+01	-1.79392464706E+02	-4.65638056058E+01	1.26193578830E+02	-6.01170241108E+00	1.39152320356E+00
3.03927291503E+05	-1.65064305337E+01	-4.49394197899E+01	4.04444933550E+01	-1.79542109201E+02	-3.65067008499E+01	-5.72124805942E+01	-4.77300100057E+00	-8.64561471205E+00
3.04146975643E+05	-1.22043656412E+01	-7.21223931037E+01	4.04565724175E+01	-1.79311369802E+02	-3.58857965723E+01	-4.80941001626E+01	-4.87278960671E+00	-4.91875229928E+00
3.04366818575E+05	-1.30681543015E+01	-6.74719356594E+01	4.04517804478E+01	-1.79283378585E+02	-3.94660738882E+01	-6.85602946503E+01	-5.17083376646E+00	-9.99850867449E+00
3.04586820414E+05	-1.01144580362E+01	-4.23228288238E+01	4.03860168732E+01	-1.79255655919E+02	-4.06063083319E+01	1.01027688549E+02	-6.17943596809E+00	4.05986051317E+00
3.04806981274E+05	-1.09114796816E+01	-2.66767245617E+01	4.03576570511E+01	-1.79577065328E+02	-3.98602012131E+01	-1.70473915749E+02	-7.01190653403E+00	-1.95708669440E+00
3.05027301270E+05	-2.19307315671E+01	-3.52150802390E+01	4.04449218211E+01	1.79999960693E+02	-3.70767717380E+01	3.84317613480E+01	-5.13442668820E+00	5.44272877593E+00
3.05247780517E+05	-2.48883856012E+01	-1.22779295605E+02	4.05176107917E+01	1.79925848128E+02	-3.96058729784E+01	8.03292855207E+01	-5.89379387833E+00	7.58679740063E+00
3.05468419131E+05	-1.45591505366E+01	-6.57818776889E+01	4.04583632124E+01	-1.79582394298E+02	-4.57259406311E+01	1.75987308515E+02	-6.09665986342E+00	-1.63873421236E-01
3.05689217226E+05	-9.30311080092E+00	-9.75464734077E+01	4.05261409874E+01	-1.79098969050E+02	-3.19567508452E+01	5.92573247544E+00	-3.68253677625E+00	4.82028093697E+00
3.05910174918E+05	-1.77019094378E+01	-7.31669549699E+01	4.04421100972E+01	1.79897700646E+02	-3.57424586385E+01	1.32217775971E+02	-7.40539533330E+00	9.69308330087E+00
3.06131292322E+05	-1.44754947890E+01	-7.02520098033E+01	4.04268730552E+01	-1.79848296859E+02	-3.59059780797E+01	-1.60285276093E+02	-8.03233805047E+00	-7.45682997012E+00
3.06352569554E+05	-1.54865371388E+01	6.56798901947E+01	4.04491050533E+01	1.78892942316E+02	-4.93773953022E+01	1.73489360717E+02	-6.10610010139E+00	-1.37419112317E+00
3.06574006730E+05	-1.74910022825E+01	-6.86778987020E+01	4.04547383539E+01	1.79762049107E+02	-3.63115303770E+01	7.92192118115E+01	-5.34194052212E+00	9.10636184396E+00
3.06795603964E+05	-1.05572834703E+01	-4.14482599043E+01	4.03794562890E+01	-1.79574022924E+02	-4.89614363665E+01	1.62833468499E+01	-5.30829063251E+00	-1.77255977548E+00
3.07017361372E+05	-1.38316798139E+01	3.53074226779E+00	4.04016943023E+01	1.79348817545E+02	-4.54315981459E+01	-1.17794705904E+02	-6.55656045556E+00	-6.98310366243E+00
3.07239279071E+05	-1.13743776578E+01	-8.07889304536E+01	4.04608708889E+01	-1.79439984815E+02	-3.35856989139E+01	6.28487544182E+01	-5.35471407181E+00	1.43904705249E+01
3.07461357176E+05	-1.81275034874E+01	-4.79534646895E+01	4.04216492516E+01	-1.79961806842E+02	-4.76701896882E+01	-2.78412745550E+01	-5.46941533524E+00	-2.72553925300E+00
3.07683595803E+05	-1.30286389646E+01	2.77211184008E+00	4.03600436915E+01	1.79357840198E+02	-4.51982475352E+01	-1.38726338474E+02	-6.14182769302E+00	-3.88381284004E+00
3.07905995068E+05	-1.38556703460E+01	-3.17325236524E+01	4.03958021877E+01	1.79595595385E+02	-4.07160374558E+01	-7.90643258740E+01	-5.53942925523E+00	-7.86066310366E+00
3.08128555087E+05	-1.53666994323E+01	-4.60659599859E+01	4.04330437935E+01	1.79650248202E+02	-3.73311074674E+01	-1.42955534384E+02	-7.04550484311E+00	-8.18168803450E+00
3.08351275976E+05	-2.04287806009E+01	-1.22566359342E+02	4.05217189622E+01	1.79533561249E+02	-3.75581538464E+01	-4.94241205399E+01	-4.87284578124E+00	-7.00232977766E+00
3.08574157853E+05	-1.24019687020E+01	-4.98672845353E+01	4.04479311879E+01	1.79853434458E+02	-4.04077195022E+01	-3.33794312242E+00	-4.82261028457E+00	6.71290544347E-01
3.08797200832E+05	-1.90725322567E+01	-5.44032713979E+00	4.04205224097E+01	1.79444530504E+02	-3.35434032283E+01	4.30045125906E+01	-3.69838453998E+00	8.15208136957E+00
3.09020405031E+05	-1.40351634650E+01	-2.44879232845E+01	4.04047369837E+01	1.79540755595E+02	-4.72622462414E+01	1.75925317873E+02	-6.33798444794E+00	-1.90084316115E+00
3.09243770566E+05	-6.67292961497E+00	-5.79173498972E+01	4.03406371720E+01	-1.79667618976E+02	-4.23296980609E+01	9.75416950946E+01	-5.71256171222E+00	4.12701611520E+00
3.09467297553E+05	-1.13828062513E+01	-2.79153311006E+01	4.03533140747E+01	1.79545263359E+02	-4.42094125967E+01	-5.75188970413E+01	-5.42425103092E+00	-5.26587303267E+00
3.09690986110E+05	-1.87854756078E+01	3.31398800991E+00	4.04407265815E+01	1.78998555424E+02	-3.77016855103E+01	1.74630855684E+02	-7.48352685887E+00	1.17311734907E+00
3.09914836353E+05	-1.42013342651E+01	-2.16980153559E+01	4.04062854778E+01	1.79234373935E+02	-4.68129227729E+01	-3.85013607781E+01	-5.54180153979E+00	-3.63469002761E+00
3.10138848399E+05	-2.31763952766E+01	-3.44192377203E+01	4.04424628108E+01	1.79226804821E+02	-4.19065193191E+01	-6.74463518530E+01	-5.41504185127E+00	-6.72456044064E+00
3.10363022365E+05	-1.26356506350E+01	-3.50705563322E+01	4.03737274503E+01	1.79438976220E+02	-3.15156904519E+01	4.36790646781E+01	-3.93953096854E+00	1.14318694536E+01
3.10587358368E+05	-1.67431545013E+01	-7.29955697073E+01	4.04857087873E+01	1.79297122073E+02	-3.42169428183E+01	4.37053343825E+01	-4.55196696167E+00	6.78246960263E+00
3.10811856525E+05	-1.28304409630E+01	2.11628455270E+01	4.03777868507E+01	1.78434505569E+02	-3.73670004977E+01	-1.12527674747E+02	-6.26782445236E+00	-1.05125404091E+01
3.11036516954E+05	-8.09387636488E+00	-1.10582924707E+02	4.05476929808E+01	1.79906072326E+02	-5.73297401378E+01	1.02524631617E+00	-5.55058538040E+00	2.46638705899E-01
3.11261339771E+05	-1.41994858162E+01	-8.19313327534E+01	4.05057140667E+01	1.79313005056E+02	-4.30731056006E+01	-1.26105935197E+02	-6.16947340933E+00	-4.69880406115E+00
3.11486325094E+05	-1.19864364924E+01	-3.91634735872E+01	4.03969962650E+01	1.79247601775E+02	-3.78358610457E+01	-9.92390173760E+01	-6.00159050338E+00	-1.04713607448E+01
3.11711473040E+05	-1.13000749293E+01	-8.29154746279E+01	4.04738039250E+01	1.79579141251E+02	-3.42693717735E+01	1.36274553732E+02	-7.39185917874E+00	1.22272137868E+01
3.11936783728E+05	-1.10883215871E+01	-3.83145904481E+01	4.03468368437E+01	1.79289167632E+02	-3.02926453833E+01	1.02431894985E+02	-6.04164508457E+00	3.82061830385E+01
3.12162257274E+05	-2.01394694593E+01	-1.08611637996E+02	4.05051902562E+01	1.78722065257E+02	-2.96715479971E+01	-9.06149807665E+01	-4.66096116279E+00	-2.58832378948E+01
3.12387893797E+05	-1.51900891896E+01	-8.71986070799E+01	4.05042764671E+01	1.79224727336E+02	-4.26039841895E+01	4.57795583016E+01	-5.00236398935E+00	5.80876323497E-01
3.12613693413E+05	-5.67781469284E+00	-3.41105450653E+01	4.02352971437E+01	1.79596024902E+02	-4.38390256788E+01	-2.75784521590E+01	-5.16472376045E+00	-2.60691665929E+00
3.12839656242E+05	-1.89306340925E+01	-6.46240436424E+01	4.04462530819E+01	1.78705879495E+02	-3.91912429837E+01	4.67359470243E+01	-5.41321010279E+00	2.17594926299E+00
3.13065782401E+05	-1.59063892768E+01	-1.41218810762E+01	4.04033673858E+01	1.78764874994E+02	-4.08648119661E+01	-1.12163163269E+02	-6.27794382703E+00	-7.40863585992E+00
3.13292072007E+05	-2.03992420541E+01	-3.19964136246E+01	4.04162703052E+01	1.78598035950E+02	-3.79230154356E+01	-5.69425830457E+01	-5.07097404907E+00	-7.27506125420E+00
3.13518525180E+05	-2.79889431286E+01	-3.63014122382E+01	4.04672339582E+01	1.78419450328E+02	-3.48005308507E+01	1.74886861921E+02	-8.40868825634E+00	-9.78862861620E-01
3.13745142038E+05	-2.21931159059E+01	-7.78837405042E+01	4.04779730048E+01	1.78719775545E+02	-4.25831711604E+01	-1.27598557589E+02	-6.20986859059E+00	-3.16595181864E+00
3.13971922698E+05	-1.05898995528E+01	-5.71638037556E+01	4.04269263540E+01	1.79459820629E+02	-3.92799037406E+01	-1.77202587129E+02	-6.92579824713E+00	-1.30430521319E+00
3.14198867279E+05	-8.00900790805E+00	9.38972729481E+01	4.05005977912E+01	1.76217462942E+02	-4.05210399099E+01	4.22260299658E+01	-5.21284311367E+00	3.71790407471E+00
3.14425975900E+05	-1.69355387898E+01	1.80156886603E+01	4.04277347966E+01	1.78187649461E+02	-4.16973724735E+01	1.54516350867E+02	-6.51678952302E+00	-8.15406223322E-01
3.14653248680E+05	-1.15551354453E+01	-1.81050169536E+01	4.03385662217E+01	1.78394189282E+02	-3.15283705724E+01	-1.30852918027E+02	-7.76020079825E+00	-1.76474513810E+01
3.14880685736E+05	-1.77701885720E+01	3.85565168172E+00	4.04212616310E+01	1.77793051791E+02	-4.75469357331E+01	-1.62259347215E+02	-6.32457443704E+00	-1.65114298756E+00
3.15108287188E+05	-3.19939579779E+01	-9.07734199622E+01	4.05158560034E+01	1.78212639503E+02	-3.22591236283E+01	1.61498497828E+02	-9.04842531193E+00	1.31733496132E+01
3.15336053154E+05	-1.41575559187E+01	-4.39248166456E+01	4.04298458189E+01	1.78649616607E+02	-2.90425712629E+01	4.68924941036E+01	-2.64789693698E+00	2.03188002653E+01
3.15563983753E+05	-1.62542368680E+01	-3.35842114042E+01	4.04317725191E+01	1.78326488025E+02	-4.48159993446E+01	7.26144843914E+01	-5.63800576930E+00	3.27978916258E+00
3.15792079105E+05	-1.36144445704E+01	-1.95234005089E+00	4.03784849481E+01	1.77859697044E+02	-3.11478328898E+01	-3.95229559498E+01	-3.80677318679E+00	-1.16363684288E+01
3.16020339328E+05	-1.47584716018E+01	-7.05764183080E+01	4.04538642222E+01	1.78331941377E+02	-4.72240981461E+01	-7.90339436035E+01	-5.81188909715E+00	-5.03172163360E+00
3.16248764542E+05	-1.63631851954E+01	-5.28333234297E+01	4.04561576710E+01	1.78252671965E+02	-5.56097720896E+01	2.80204524813E+01	-5.75886562735E+00	-1.66012048090E+00
3.16477354866E+05	-1.48889033878E+01	-8.55667582755E+01	4.04589143407E+01	1.78429483227E+02	-3.77775171600E+01	-5.30644276592E+01	-4.98653762860E+00	-6.61079150741E+00
3.16706110419E+05	-1.19849369600E+01	-2.46701273149E+01	4.03751024902E+01	1.78007232956E+02	-3.40763008470E+01	1.39765829455E+02	-7.61129210131E+00	9.04721432533E+00
3.16935031321E+05	-1.77573310053E+01	-1.00958796764E+02	4.05115397281E+01	1.78203524826E+02	-3.49756151691E+01	-5.07107096893E+01	-4.97450519283E+00	-8.25671225434E+00
3.17164117691E+05	-1.40324729926E+01	-6.90384476855E+01	4.04569186608E+01	1.78500846736E+02	-4.46640812482E+01	-1.34273812863E+02	-6.45017354199E+00	-4.84758453466E+00
3.17393369648E+05	-2.99929618914E+00	-1.06602507827E+02	4.06447297960E+01	1.79955120807E+02	-4.05505282660E+01	1.69372030160E+02	-6.84285148187E+00	3.57962670439E-01
3.17622787313E+05	-1.72287317908E+01	1.01721355950E+01	4.04233957083E+01	1.77397215497E+02	-3.82505207676E+01	-1.25493364251E+02	-6.57153680484E+00	-8.76298941623E+00
3.17852370806E+05	-1.39819840559E+01	-7.98614726766E+01	4.04675261943E+01	1.78002066418E+02	-4.07830810449E+01	1.00995767373E+02	-5.90931320542E+00	5.94951149362E+00
3.18082120245E+05	-1.40862231623E+01	-4.08345943762E+01	4.04226475811E+01	1.77923765516E+02	-4.31190439450E+01	1.30245708248E+02	-6.05846984733E+00	2.23912962288E+00
3.18312035752E+05	-1.56236892258E+01	-4.30597790360E+01	4.04399528447E+01	1.77829237193E+02	-3.61145277956E+01	-9.33840973102E+01	-6.14183160847E+00	-1.30757300440E+01
3.18542117445E+05	-2.55220349300E+01	-1.50013591806E+02	4.05271336101E+01	1.77348927593E+02	-3.35270269773E+01	-5.67271943308E+01	-4.68277379524E+00	-1.44809991253E+01
3.18772365446E+05	-1.36886478583E+01	-8.24060046292E+01	4.04677930800E+01	1.77909531254E+02	-3.79044172124E+01	-9.87804085343E-01	-4.68937064056E+00	-2.53244484307E+00
3.19002779874E+05	-1.65410890750E+01	-3.72513517880E+00	4.03677785101E+01	1.77326493175E+02	-4.59345106079E+01	-1.41754225091E+02	-6.45515658181E+00	-3.77762357318E+00
3.19233360850E+05	-1.61929746418E+01	8.03314338644E+00	4.03909032962E+01	1.77286576619E+02	-4.86586234965E+01	-6.28026425601E+01	-5.66843870698E+00	-3.41107280131E+00
3.19464108494E+05	-1.56988950228E+01	-5.26461992801E+01	4.04418646912E+01	1.77660093906E+02	-3.94548880140E+01	-2.97336006197E+01	-5.02728400604E+00	-5.04541156481E+00
3.19695022927E+05	-1.88494474485E+01	-1.10950886546E+01	4.04448507518E+01	1.77356008867E+02	-5.14984178921E+01	-8.20303714095E+01	-5.96855694880E+00	-2.35797526687E+00
3.19926104268E+05	-1.39221621414E+01	-1.92963071895E+01	4.04137157031E+01	1.77495260574E+02	-3.19373946455E+01	-1.48241253942E+02	-8.64697101568E+00	-1.43318923764E+01
3.20157352640E+05	-1.64163147595E+01	-3.05471535332E+01	4.04595782421E+01	1.77238219738E+02	-2.89473190387E+01	1.68761171409E+02	-1.12771456808E+01	8.58636203073E+00
3.20388768162E+05	-2.46329873467E+01	4.02587857799E+00	4.04454218779E+01	1.77258648042E+02	-3.60584668214E+01	-9.31106030163E+01	-6.00581549109E+00	-1.09804867657E+01
3.20620350955E+05	-1.06511480411E+01	-2.34073149373E+01	4.02979360527E+01	1.77442012791E+02	-3.63362619159E+01	-7.96562977487E+01	-5.53990776758E+00	-1.26095842968E+01
3.20852101140E+05	-1.09219244227E+01	-5.68829407952E+01	4.04184997690E+01	1.77848791466E+02	-4.52408851325E+01	1.61122140799E+02	-6.49389849103E+00	-7.12524461115E-02
3.21084018839E+05	-2.28549889377E+01	2.04692606971E+01	4.04458239665E+01	1.76996764525E+02	-4.99519307795E+01	5.10177577779E+01	-5.63560956847E+00	-6.94206170109E-01
3.21316104172E+05	-1.58732219906E+01	-6.32778030785E+01	4.04427906634E+01	1.77652178423E+02	-4.03610509497E+01	1.59195246601E+02	-6.96170333733E+00	4.02867863903E+00
3.21548357261E+05	-2.35589968074E+01	2.73148989792E+01	4.04468125420E+01	1.77017880964E+02	-4.95495932836E+01	-9.35465325623E+01	-5.87448594749E+00	-5.30284949248E+00
3.21780778226E+05	-1.49181372777E+01	-1.21738460003E+01	4.04020643374E+01	1.77044146091E+02	-2.88353327121E+01	-6.98599240146E+01	-4.15724539443E+00	-2.13512067809E+01
3.22013367189E+05	-1.75133999228E+01	-8.78995880626E+01	4.04786933350E+01	1.77480954889E+02	-4.25432650353E+01	-3.13814098502E+01	-5.13960720239E+00	-5.17621337301E+00
3.22246124272E+05	-2.21080384805E+01	-5.54953856856E+01	4.04277198197E+01	1.76974035516E+02	-4.37450920862E+01	-1.27356884861E+02	-6.20402789533E+00	-4.66659635602E+00
3.22479049596E+05	-1.55340061741E+01	-7.76557256843E+01	4.04589191108E+01	1.77157825401E+02	-3.76761956290E+01	-1.78358589016E+02	-7.84991557453E+00	-5.94174265858E-01
3.22712143282E+05	-1.83494123177E+01	-4.20584427728E+01	4.04490864415E+01	1.76908850822E+02	-4.57179475980E+01	8.00695255149E+01	-5.62942917935E+00	2.14217158027E+00
3.22945405453E+05	-2.28054070774E+01	-3.86176839253E+01	4.04439812037E+01	1.77055378480E+02	-3.69785806486E+01	-1.76892788313E+02	-7.67881233979E+00	-5.39011206835E-01
3.23178836230E+05	-1.67602305258E+01	-6.80669219401E+01	4.04393293132E+01	1.77469913741E+02	-3.16273367401E+01	6.37147139377E+01	-4.31597134120E+00	1.45538824198E+01
3.23412435735E+05	-1.42909060340E+01	-4.06592895311E+01	4.04303539146E+01	1.76950006921E+02	-3.86102545286E+01	7.35395726290E+01	-5.88090192144E+00	8.52992407202E+00
3.23646204090E+05	-1.85374365251E+01	-6.28246369416E+01	4.04742067968E+01	1.77074077255E+02	-5.97132898309E+01	-1.09755510027E+02	-5.83142299783E+00	-1.27434636251E+00
3.23880141417E+05	-1.43943531342E+01	-1.24613078550E+02	4.05183531402E+01	1.76935825516E+02	-3.76777367934E+01	-7.03597287322E+01	-5.68434745242E+00	-1.19729826837E+01
3.24114247838E+05	-1.56461311527E+01	-4.51226018737E+01	4.04128293376E+01	1.76764494477E+02	-4.15035359164E+01	-1.43104074287E+02	-6.92016118268E+00	-4.92178280497E+00
3.24348523475E+05	-1.38542154902E+01	-7.99864427152E+01	4.04812080955E+01	1.77239354925E+02	-4.28403295989E+01	-1.90920785869E+01	-5.22591951267E+00	-1.89022900409E+00
3.24582968451E+05	-1.88371093431E+01	-8.99144394161E+01	4.05037444287E+01	1.76812283864E+02	-3.55688883798E+01	-2.93399629975E+01	-4.29885063329E+00	-6.11734837608E+00
3.24817582888E+05	-3.84391515653E+01	-1.09362122918E+02	4.04946087077E+01	1.76420431533E+02	-6.02630936516E+01	1.46196021061E+02	-6.07297501324E+00	-7.17644869798E-01
3.25052366909E+05	-1.21480413378E+01	-8.05313259579E+01	4.04208678565E+01	1.77241127963E+02	-3.69690342547E+01	6.82239787136E+01	-5.07219587254E+00	5.93473552918E+00
3.25287320635E+05	-1.85109262952E+01	-1.26401287021E+01	4.04254724870E+01	1.76464554918E+02	-4.41111238548E+01	5.57243310792E+01	-5.44359112911E+00	2.72066883187E+00
3.25522444191E+05	-1.35576878878E+01	-6.50370963863E+01	4.04286828270E+01	1.76766384185E+02	-3.99308164163E+01	4.77305881323E+01	-5.26430344580E+00	2.70612668348E+00
3.25757737698E+05	-1.96076949116E+01	-9.66638944429E+01	4.04851703320E+01	1.76459102359E+02	-3.41822665910E+01	-1.36316178669E+02	-7.81845009753E+00	-1.30480522816E+01
3.25993201280E+05	-1.59343045474E+01	-9.66231885074E+01	4.05255493490E+01	1.76555298052E+02	-3.84128207901E+01	8.66033886034E+01	-5.74520126530E+00	7.98253197057E+00
3.26228835058E+05	-1.36592486093E+01	-4.52422231366E+01	4.04327136584E+01	1.76385409339E+02	-3.86420835855E+01	-1.74841799247E+02	-7.17277987228E+00	-2.94533171679E+00
