# Hz S DB R 50
! CMT, M5065, 19127446, 24.2.4/2
! Date: 11/1/2024 3:01:13 PM
! Data: Format (Calibration Info)
! Freq	S11:dB/Ang(F2)	S21:dB/Ang(F2)	S12:dB/Ang(F2)	S22:dB/Ang(F2)
3.00000000000E+05	-2.48722373799E+01	9.69877442833E+01	4.56227440195E+00	-1.77768263351E+02	-5.18889435128E+01	-7.81261904880E+01	-6.01650684097E+00	-4.00943487896E-01
3.00216845423E+05	-1.52124493936E+01	1.92858444169E+01	4.39140845573E+00	-1.77871875510E+02	-4.04535609795E+01	-8.53647392964E+01	-6.02260087560E+00	-2.37675473192E-01
3.00433847586E+05	-2.18168835108E+01	-9.32914607692E+00	4.52312143886E+00	-1.77602513576E+02	-3.95514674584E+01	-4.29687988795E+01	-6.01008064394E+00	-3.90033608814E-01
3.00651006602E+05	-1.91690535523E+01	7.56661225358E+01	4.57165241604E+00	-1.77986678181E+02	-3.69784462664E+01	3.86628419525E+01	-6.01683234431E+00	1.09789205665E-01
3.00868322584E+05	-8.47487261767E+00	5.71445732593E+01	4.38031083335E+00	-1.78933132758E+02	-4.12679844928E+01	1.32499516711E+02	-6.06228437479E+00	-1.79571745236E-01
3.01085795647E+05	-2.01126471607E+01	3.65347285754E+01	4.46104331160E+00	-1.77665579122E+02	-5.08889365001E+01	-6.31377901339E+00	-6.03467044309E+00	-3.49413056625E-01
3.01303425902E+05	-2.69525179097E+01	2.07506445042E+01	4.47105191382E+00	-1.77559445052E+02	-4.29648296095E+01	-1.09793614104E+02	-6.06413288363E+00	-1.93743502454E-01
3.01521213465E+05	-1.93716237824E+01	1.78467629873E+01	4.42720105499E+00	-1.77955958553E+02	-3.36754888036E+01	-1.76446664195E+02	-6.11639153042E+00	-2.96114755410E-01
3.01739158449E+05	-1.79366806168E+01	1.17262615477E+01	4.41144597459E+00	-1.77257102259E+02	-4.25227981295E+01	-1.34278888738E+02	-6.05308958389E+00	-4.00171500080E-01
3.01957260967E+05	-1.54516149488E+01	6.98391555779E+01	4.43547973866E+00	-1.78501515438E+02	-4.02741637872E+01	-7.14458655360E+00	-6.01802754953E+00	4.66344221677E-03
3.02175521134E+05	-1.64764134369E+01	-1.75410398647E+00	4.50459019029E+00	-1.77854431522E+02	-4.22493755974E+01	-3.20988311218E+01	-6.02427272483E+00	-4.27396800818E-01
3.02393939063E+05	-1.30447828361E+01	6.06507345237E+01	4.40704666164E+00	-1.78257526246E+02	-4.48065923813E+01	-7.33728138438E+01	-6.04180302847E+00	-2.74169919102E-01
3.02612514869E+05	-2.31411698077E+01	-1.36290158249E+02	4.67612015113E+00	-1.77389358075E+02	-3.86981224202E+01	-1.79900860676E+01	-6.01224332066E+00	-2.23743825111E-01
3.02831248665E+05	-4.00677457362E+01	-1.67777997596E+02	4.53037249129E+00	-1.77394458448E+02	-3.94382618489E+01	1.69100121557E+02	-6.04467198593E+00	-1.31811554205E-01
3.03050140565E+05	-1.84582794885E+01	5.65405500442E+01	4.56534762615E+00	-1.77888112635E+02	-4.23191797183E+01	-9.17494526050E+01	-6.03214344298E+00	-1.42309122579E-01
3.03269190685E+05	-1.68903876287E+01	7.06084023846E+01	4.49626375709E+00	-1.78193555347E+02	-5.19937139278E+01	1.68885774969E+02	-6.10268933029E+00	-4.61791553189E-02
3.03488399138E+05	-1.34850315289E+01	5.25702247752E+01	4.49592593513E+00	-1.78742429656E+02	-4.92356036430E+01	7.51671021547E+01	-6.07389632198E+00	-1.71680167273E-01
3.03707766039E+05	-1.45984350280E+01	2.71926358893E+01	4.46522224241E+00	-1.78305438579E+02	-3.82983211887E+01	-1.55665043545E+02	-6.05051920271E+00	-3.42351868326E-01
3.03927291503E+05	-2.29727880963E+01	5.77507647325E+01	4.60811204517E+00	-1.78049225387E+02	-3.94416190760E+01	7.82173811852E+01	-6.05659589580E+00	-1.58702697061E-01
3.04146975643E+05	-1.95297870963E+01	3.92739414881E+01	4.56560445231E+00	-1.78055429164E+02	-3.16465007348E+01	1.27416183497E+02	-6.03196746884E+00	-5.43764248026E-02
3.04366818575E+05	-1.22769848415E+01	1.05175240567E+02	4.60112484972E+00	-1.79489698097E+02	-3.48058594925E+01	6.42346429725E+01	-6.01430668096E+00	-4.37386688144E-02
3.04586820414E+05	-2.49952428772E+01	-6.16422289882E+01	4.61743211180E+00	-1.77592639009E+02	-3.76083216953E+01	1.53551111469E+02	-6.04649042666E+00	-9.51649424250E-02
3.04806981274E+05	-1.34689580589E+01	-1.79696827554E+01	4.45518876605E+00	-1.77051710754E+02	-4.26001007126E+01	-9.08905915289E+01	-6.04710136973E+00	-2.13884688714E-01
3.05027301270E+05	-2.21405534050E+01	1.24475549898E+01	4.54785521935E+00	-1.78155647463E+02	-4.07579298044E+01	-1.61391929705E+02	-6.07200150850E+00	-2.07378737584E-01
3.05247780517E+05	-1.96283423501E+01	-5.48592874697E+01	4.51143495119E+00	-1.77668429295E+02	-4.35468975998E+01	-1.24191967481E+02	-6.04807628112E+00	-3.53780853262E-01
3.05468419131E+05	-1.23454571652E+01	-3.33397808349E+01	4.51304287386E+00	-1.77463533116E+02	-5.03545068307E+01	-7.54516327799E+00	-6.02397471768E+00	-3.13372132282E-01
3.05689217226E+05	-1.48224773036E+01	1.12184208575E+02	4.57933316779E+00	-1.78204852332E+02	-4.47173212620E+01	-3.89592395100E+01	-6.01596509250E+00	-3.03974740274E-01
3.05910174918E+05	-2.64817383546E+01	4.72933717978E+01	4.48804507773E+00	-1.78349301760E+02	-4.18927527484E+01	-1.19253630541E+02	-6.07062457188E+00	-3.40534461494E-01
3.06131292322E+05	-1.69752993433E+01	-3.74728975536E+01	4.53011175193E+00	-1.77533158867E+02	-4.33668715386E+01	-1.66622841936E+02	-6.04804068174E+00	-1.45473272973E-01
3.06352569554E+05	-1.91604086813E+01	4.60363062068E+01	4.50748599316E+00	-1.77842984885E+02	-3.96317697984E+01	6.14086981591E+01	-6.02775646704E+00	-2.05222935851E-01
3.06574006730E+05	-1.66305415424E+01	2.21649128041E+01	4.49536471970E+00	-1.78013884732E+02	-5.18904961792E+01	4.57435908337E+01	-6.03493429123E+00	-2.67134303905E-01
3.06795603964E+05	-2.01083728089E+01	1.07436254435E+01	4.55180519807E+00	-1.77860007903E+02	-3.97619681414E+01	1.72774152506E+02	-6.08725940519E+00	-2.49760106885E-01
3.07017361372E+05	-2.16850714016E+01	-2.03453883143E+01	4.50374159050E+00	-1.77185347352E+02	-4.24358331545E+01	-1.78142417723E+02	-6.06120261001E+00	-3.34887072093E-01
3.07239279071E+05	-2.05120674108E+01	5.67095654805E+01	4.52241942479E+00	-1.78155115677E+02	-4.44240058161E+01	7.59553552804E+00	-6.02401584823E+00	-9.07532030412E-02
3.07461357176E+05	-1.91758276698E+01	7.10113083862E+00	4.48145087791E+00	-1.77693907420E+02	-4.22714950099E+01	5.53460621667E+01	-6.05379310320E+00	-2.06443949607E-01
3.07683595803E+05	-1.67818528591E+01	-1.16904504678E+02	4.64708040258E+00	-1.77178211137E+02	-6.69345191214E+01	1.62186419879E+02	-6.05043984205E+00	-1.13787089025E-01
3.07905995068E+05	-1.70002200492E+01	-3.77879866803E-01	4.48798539780E+00	-1.77669174894E+02	-4.43111893545E+01	1.50186365859E+02	-6.01449723369E+00	-1.50696114952E-01
3.08128555087E+05	-1.45115589432E+01	1.59196816448E+01	4.53283281902E+00	-1.78244848453E+02	-4.17934050509E+01	-6.94479144435E+01	-6.02635054123E+00	-3.31762349067E-01
3.08351275976E+05	-1.71576697494E+01	-7.08969586624E+00	4.52039288753E+00	-1.77741146735E+02	-3.83659521907E+01	-8.88717132773E+01	-6.02962049722E+00	-3.54010453496E-01
3.08574157853E+05	-1.54213790006E+01	1.69330734353E+01	4.45272024014E+00	-1.77726513359E+02	-4.05439859520E+01	-1.59128073605E+02	-6.06466025297E+00	-2.75438193175E-01
3.08797200832E+05	-2.46723001176E+01	7.07184459726E+01	4.50550758681E+00	-1.78214975372E+02	-4.51734957522E+01	4.35639327953E+01	-6.03527904747E+00	-2.65203775333E-01
3.09020405031E+05	-2.19009114950E+01	4.63589363137E+01	4.46865564596E+00	-1.77990613532E+02	-4.43081636878E+01	1.31311278109E+02	-6.06149192864E+00	-3.18078799727E-01
3.09243770566E+05	-2.05636183799E+01	3.32409719578E-01	4.52139104653E+00	-1.77749052293E+02	-4.84075781811E+01	-1.54432057042E+02	-6.06029088241E+00	-4.00866696462E-01
3.09467297553E+05	-1.35932158165E+01	-4.33982135532E+01	4.47836953301E+00	-1.76890375191E+02	-5.90049559229E+01	-2.16264828246E+01	-6.03972426940E+00	-1.87871513559E-01
3.09690986110E+05	-1.74666553634E+01	5.53798157317E+01	4.50793428663E+00	-1.78285755138E+02	-4.08528003224E+01	4.06306498543E+01	-6.05603972908E+00	-1.19055118858E-01
3.09914836353E+05	-2.06690590564E+01	-5.69995429379E+01	4.51190330169E+00	-1.77330534079E+02	-3.88859363771E+01	-1.79975808985E+02	-6.08527549748E+00	-2.54482303937E-01
3.10138848399E+05	-2.11985912660E+01	6.28412411856E+01	4.44793126211E+00	-1.77958075102E+02	-4.83764388235E+01	-9.59130914904E+01	-6.01118311428E+00	-3.77673665696E-01
3.10363022365E+05	-1.32628644497E+01	4.22190107022E+01	4.43965893151E+00	-1.77995433721E+02	-5.45389067469E+01	-2.43504468527E+01	-6.02987744675E+00	-2.44946966067E-01
3.10587358368E+05	-2.45767960305E+01	-4.67150146959E+01	4.51707869852E+00	-1.77688372274E+02	-4.25084854511E+01	-2.67139317090E+00	-6.02921047448E+00	-3.53201255430E-01
3.10811856525E+05	-1.51519059202E+01	7.05266338807E+01	4.57166261383E+00	-1.78609149358E+02	-3.54278448209E+01	1.36635495342E+02	-6.08454776374E+00	2.06757462629E-01
3.11036516954E+05	-1.36430781005E+01	6.33333783452E+01	4.53026578434E+00	-1.78342294635E+02	-5.38358282165E+01	1.67713576003E+02	-6.04755574323E+00	-2.06480639918E-01
3.11261339771E+05	-3.29840488083E+01	4.38915185753E+01	4.51107232161E+00	-1.77434281024E+02	-4.45630336412E+01	2.51826834586E+01	-6.03419029407E+00	-2.32190526775E-01
3.11486325094E+05	-1.93287165906E+01	1.86359396959E+01	4.44425521975E+00	-1.78000667046E+02	-4.75559712178E+01	-9.49883156274E+01	-6.06258633304E+00	-1.65887755277E-01
3.11711473040E+05	-2.68951699058E+01	7.96275538359E+01	4.61520243904E+00	-1.78117535551E+02	-4.67849575112E+01	-1.22014386888E+01	-6.02269379649E+00	-2.51267011434E-01
3.11936783728E+05	-1.43533761218E+01	-8.87681338247E+01	4.56517951208E+00	-1.76675947586E+02	-4.86459290677E+01	1.58118652661E+02	-6.06701722681E+00	9.54171500579E-03
3.12162257274E+05	-1.63687025145E+01	6.70229121123E+01	4.50916733098E+00	-1.78438048940E+02	-5.63196329122E+01	3.34040466734E+01	-6.05275215746E+00	-2.10374265319E-01
3.12387893797E+05	-2.06784055024E+01	1.09101853412E+01	4.51751047653E+00	-1.78067294594E+02	-5.34332188431E+01	-5.89504556746E+01	-6.02279662236E+00	-2.90514919710E-01
3.12613693413E+05	-1.53749387576E+01	-2.96032655902E+00	4.49897074070E+00	-1.77835881575E+02	-3.86227072676E+01	1.79748441120E+02	-6.06590783074E+00	-2.36165438305E-01
3.12839656242E+05	-1.37710256536E+01	-1.15492023599E+01	4.35890002078E+00	-1.77586640465E+02	-3.92302925937E+01	-3.94885302728E+01	-6.01375233097E+00	-7.33969837267E-02
3.13065782401E+05	-1.75228281118E+01	1.10116714222E+02	4.66380003682E+00	-1.77950214235E+02	-4.79255068576E+01	-9.74649680637E+01	-6.05735975334E+00	-2.68019642014E-01
3.13292072007E+05	-1.40277951586E+01	4.43559050170E+01	4.50928877863E+00	-1.78641028013E+02	-3.89224944720E+01	1.25638495838E+02	-6.06420721482E+00	-1.49088390312E-01
3.13518525180E+05	-1.73547185964E+01	6.16479215848E+01	4.45281628817E+00	-1.78626018000E+02	-3.87819791446E+01	-4.98244585083E+01	-6.05548767017E+00	-2.65371225269E-01
3.13745142038E+05	-1.62405391033E+01	-4.27200831481E+01	4.51099782408E+00	-1.77215396205E+02	-4.28168532839E+01	1.94864359656E+01	-6.01425416212E+00	-3.27267742026E-01
3.13971922698E+05	-1.90574928882E+01	-2.63794153151E+01	4.55920597768E+00	-1.77778261352E+02	-4.07614804301E+01	-1.15643344165E+02	-6.04328285565E+00	-9.61901118748E-02
3.14198867279E+05	-1.75750721922E+01	3.74333842755E+01	4.50183899663E+00	-1.78282936254E+02	-5.30059331189E+01	1.66205357044E+02	-6.07246266033E+00	-1.98988905737E-01
3.14425975900E+05	-1.62125521847E+01	-2.36223781065E+01	4.50170343606E+00	-1.77345140600E+02	-3.98329751421E+01	6.50352294093E+01	-6.04644590681E+00	3.23253965461E-02
3.14653248680E+05	-2.26633817460E+01	-2.29407486281E+01	4.52673378960E+00	-1.77928103573E+02	-4.57649468286E+01	1.46426972861E+02	-6.07590611741E+00	-9.62454834090E-02
3.14880685736E+05	-2.12712759247E+01	1.11012204026E+00	4.59020413668E+00	-1.77931033508E+02	-3.60422141125E+01	-1.40501075944E+02	-6.08614189489E+00	-3.64196939520E-01
3.15108287188E+05	-2.33532216884E+01	4.56615588471E+01	4.53884904291E+00	-1.77570376229E+02	-4.65683724361E+01	-4.82230040953E+00	-6.04029734108E+00	-4.96674972331E-02
3.15336053154E+05	-1.50582758464E+01	4.03018879966E+01	4.47353531974E+00	-1.78011167531E+02	-3.63720029721E+01	-1.09067614299E+02	-6.06852680640E+00	-5.35360062026E-01
3.15563983753E+05	-2.37948296641E+01	1.14026134785E+02	4.60430825959E+00	-1.77906349791E+02	-4.78556136276E+01	-1.10176206229E+02	-6.03387476208E+00	-1.83887525530E-01
3.15792079105E+05	-1.80541496592E+01	8.21484733025E+00	4.51504116857E+00	-1.78117125254E+02	-4.17700207704E+01	9.53802548501E+01	-6.03970225353E+00	-2.07045892683E-01
3.16020339328E+05	-2.12838116149E+01	4.12931246727E+00	4.46871071042E+00	-1.78158922804E+02	-3.22811726025E+01	1.15355923701E+02	-6.06842339265E+00	9.92588993031E-02
3.16248764542E+05	-2.06910339855E+01	-1.63278141330E+02	4.64679959496E+00	-1.78080326919E+02	-4.54603239406E+01	-1.73015556088E+00	-6.03325730658E+00	-8.44377550947E-02
3.16477354866E+05	-2.63024576407E+01	-8.82288785799E+01	4.53103535473E+00	-1.77504586658E+02	-4.23616240885E+01	-2.49353273154E+01	-6.04371384807E+00	-1.12857459316E-01
3.16706110419E+05	-1.91267027992E+01	8.75751827564E+01	4.58593175735E+00	-1.78207223934E+02	-4.72357787991E+01	7.89570525124E+00	-6.04148060080E+00	-3.41220280164E-01
3.16935031321E+05	-2.72697824381E+01	4.16479504757E+01	4.55817809352E+00	-1.77918484761E+02	-6.14269324873E+01	1.03367188823E+02	-6.04684204405E+00	-2.22884659861E-01
3.17164117691E+05	-3.04009195073E+01	-9.88356122447E+01	4.56958401405E+00	-1.77808546381E+02	-4.92819212846E+01	8.87071539250E+00	-6.04164615881E+00	-2.10894961509E-01
3.17393369648E+05	-3.68925912334E+01	1.23050364078E+02	4.53214685579E+00	-1.78107269730E+02	-5.31209293166E+01	6.71378641267E+01	-6.04541278417E+00	-9.79627489927E-02
3.17622787313E+05	-2.36917558825E+01	2.26184132400E+01	4.56697516618E+00	-1.78281557376E+02	-5.12724423280E+01	3.81476896048E+01	-6.05400297262E+00	-1.05287037849E-01
3.17852370806E+05	-1.92127240263E+01	1.98764175933E+01	4.52014797695E+00	-1.78109129397E+02	-3.97598089084E+01	4.99580980896E+01	-6.00205377092E+00	-1.91099199741E-02
3.18082120245E+05	-9.24245694536E+00	2.56319531703E+01	4.37191926943E+00	-1.78476645234E+02	-4.71925194583E+01	-1.54959965430E+02	-6.04846609117E+00	-3.41182433715E-01
3.18312035752E+05	-1.75218493797E+01	-6.52100817053E-01	4.43960641088E+00	-1.77908626650E+02	-4.10117125341E+01	3.62730216684E+00	-6.04570472792E+00	-1.92713078291E-01
3.18542117445E+05	-2.66990284198E+01	1.56620439209E+01	4.50564548351E+00	-1.78022510403E+02	-4.11663891630E+01	1.78337808398E+02	-6.07630639757E+00	-1.86906918832E-01
3.18772365446E+05	-3.45587085034E+01	8.91410350604E+01	4.54741145058E+00	-1.78358229985E+02	-4.34682544798E+01	-1.78843882622E+02	-6.05521717611E+00	-2.04873088658E-01
3.19002779874E+05	-1.31654802470E+01	2.41338991256E+01	4.41792779624E+00	-1.78479183144E+02	-4.09043175347E+01	1.69811929971E+02	-6.06014392662E+00	-2.07167446060E-01
3.19233360850E+05	-2.37530408861E+01	1.38793098228E+01	4.54682577209E+00	-1.77939007351E+02	-4.15324619006E+01	1.56536653359E+02	-6.05700043468E+00	-7.91966465613E-02
3.19464108494E+05	-1.61881719565E+01	1.25765059051E+01	4.44041667590E+00	-1.78276689898E+02	-4.17949417634E+01	-1.61579952018E+02	-6.06436862247E+00	-1.02080825101E-01
3.19695022927E+05	-1.53091590997E+01	3.92991797501E+01	4.48016916123E+00	-1.78416068393E+02	-4.20764319307E+01	-4.37821865382E+01	-6.03358388600E+00	-3.65565271997E-01
3.19926104268E+05	-2.82288636038E+01	-7.67552224978E+00	4.54074586231E+00	-1.77803188546E+02	-4.50230593230E+01	-1.21512009156E+02	-6.04560866743E+00	-4.28249543296E-01
3.20157352640E+05	-2.20305743729E+01	4.89734146242E+01	4.50543476195E+00	-1.78398695151E+02	-5.10389040429E+01	7.00825643334E+01	-5.99660013463E+00	-2.50842861494E-01
3.20388768162E+05	-2.02909974312E+01	-6.31382936589E+00	4.55051395743E+00	-1.77821775455E+02	-4.68488443485E+01	-2.19178969149E+01	-6.03207168559E+00	-3.08959682167E-01
3.20620350955E+05	-1.92707266023E+01	-1.60826258080E+02	4.71036211525E+00	-1.77984605128E+02	-4.40078556152E+01	3.46616483098E-01	-6.02452024528E+00	-1.40173899450E-01
3.20852101140E+05	-2.23601514876E+01	1.26657752662E+02	4.58683486346E+00	-1.78349129091E+02	-4.14300034470E+01	1.20886275516E+01	-6.00804386202E+00	-2.09485480275E-01
3.21084018839E+05	-1.92623174917E+01	1.84755290257E+01	4.50836109122E+00	-1.77988628022E+02	-4.37139852950E+01	2.50730191735E+00	-6.03470570794E+00	-3.25138759986E-01
3.21316104172E+05	-2.19211819266E+01	2.18838172147E+01	4.50727150662E+00	-1.77787167508E+02	-4.29115007667E+01	9.25411859301E+01	-6.04996550573E+00	-9.97679567092E-02
3.21548357261E+05	-1.46947106260E+01	1.88968899002E+01	4.45471236744E+00	-1.78134062233E+02	-4.13601799715E+01	-8.12423608440E+01	-6.05871327261E+00	-2.70443322069E-01
3.21780778226E+05	-1.96007439195E+01	5.68805814722E+01	4.49786190266E+00	-1.78182709376E+02	-4.74289281467E+01	-8.47983749812E+01	-6.04179103883E+00	-3.30740793820E-01
3.22013367189E+05	-2.11522949926E+01	-1.79316307546E+01	4.48415788566E+00	-1.77615205090E+02	-5.89919551880E+01	-3.40141530236E+01	-6.04776516265E+00	-5.92987403926E-02
3.22246124272E+05	-2.14496388432E+01	6.70868031005E+00	4.50540024092E+00	-1.77854489017E+02	-4.28788285768E+01	-1.68971502517E+02	-6.06736755011E+00	-2.14089972677E-01
3.22479049596E+05	-1.56853818972E+01	1.19327489932E+02	4.59639145553E+00	-1.78857053512E+02	-3.84320790967E+01	-1.20767396058E+02	-6.04347124398E+00	-2.93767248765E-01
3.22712143282E+05	-2.25480315513E+01	-8.42563153257E+00	4.47758276504E+00	-1.77612692692E+02	-4.86462802508E+01	6.94298403843E+01	-6.02915017884E+00	-1.01684458483E-01
3.22945405453E+05	-2.07952194453E+01	5.94525850206E+01	4.48015352496E+00	-1.78657843631E+02	-4.74508810751E+01	7.72960406437E+01	-6.04100269063E+00	-1.43513828022E-01
3.23178836230E+05	-1.76816465410E+01	-8.18567834170E+00	4.46900715442E+00	-1.78039691594E+02	-3.88391103559E+01	-6.71607940738E+01	-6.01729775552E+00	-3.36934066089E-01
3.23412435735E+05	-1.17443692378E+01	3.44489293466E+01	4.34816318709E+00	-1.78430456400E+02	-4.39941134692E+01	-1.51326936179E+02	-6.04537819867E+00	-3.26912172609E-01
3.23646204090E+05	-3.12143454144E+01	1.09482039542E+02	4.57640651753E+00	-1.77905310556E+02	-4.94314779736E+01	-4.36143896115E+01	-6.03410567488E+00	-2.04247171645E-01
3.23880141417E+05	-1.59422354457E+01	6.38022286035E+01	4.52528184845E+00	-1.78612865996E+02	-3.71959893198E+01	-1.40700353318E+02	-6.04439902521E+00	-4.96493832767E-01
3.24114247838E+05	-2.42716473589E+01	4.07850885884E+01	4.52062844062E+00	-1.78108516128E+02	-3.27215185851E+01	7.52605599639E+01	-6.03717905125E+00	2.54887350226E-01
3.24348523475E+05	-1.97720966053E+01	-3.64140497123E-01	4.46650961953E+00	-1.77707824072E+02	-3.89159984163E+01	1.48743684084E+02	-6.05569548640E+00	-2.56937230036E-01
3.24582968451E+05	-3.20009963745E+01	1.29384370940E+02	4.52707106254E+00	-1.78008720020E+02	-4.03859726449E+01	5.04967933855E+01	-6.03449703113E+00	-9.76986332898E-02
3.24817582888E+05	-1.94753312940E+01	1.09632417714E+02	4.58508737188E+00	-1.78491024732E+02	-4.36255961860E+01	-1.63730457284E+02	-6.04859068407E+00	-2.77618374835E-01
3.25052366909E+05	-1.28864312222E+01	4.44019628796E+01	4.49829605182E+00	-1.79020892946E+02	-3.85672456931E+01	-9.37489618791E+01	-6.06241432386E+00	-3.95954153135E-01
3.25287320635E+05	-1.64315168073E+01	1.50144363912E+01	4.47175701312E+00	-1.78319125242E+02	-4.15160458414E+01	-1.29914673643E+02	-6.06243518862E+00	-2.89235023157E-01
3.25522444191E+05	-2.39424658071E+01	6.25961998729E+01	4.50590108141E+00	-1.78421777321E+02	-4.82178305865E+01	-1.63140952735E+02	-6.06187634490E+00	6.73148146916E-02
3.25757737698E+05	-2.00180296257E+01	3.92804745150E+01	4.51475250874E+00	-1.78235806584E+02	-4.47163285178E+01	-2.64762588246E+00	-6.00100575941E+00	-9.28237846875E-03
3.25993201280E+05	-1.39287800771E+01	6.90900375325E+00	4.43512871980E+00	-1.78346311208E+02	-4.50809622616E+01	-5.63648960224E+01	-6.03246931123E+00	-2.79440978609E-01
3.26228835058E+05	-2.19838296291E+01	4.05761173956E+01	4.50464914851E+00	-1.78445352019E+02	-4.32822011767E+01	-5.65068144653E+01	-6.02487294377E+00	-2.82604745987E-01
