# Hz S DB R 50
! CMT, M5065, 19127446, 24.2.4/2
! Date: 11/1/2024 3:48:05 PM
! Data: Format (Calibration Info)
! Freq	S11:dB/Ang(F2)	S21:dB/Ang(F2)	S12:dB/Ang(F2)	S22:dB/Ang(F2)
3.00000000000E+05	-3.19146427401E+01	-7.60993211323E+01	2.39934515320E+01	-1.75853511844E+02	-3.55674189829E+01	1.21883394646E+02	-6.15400274950E+00	1.12022261557E+00
3.00216845423E+05	-1.49748515029E+01	8.49119314978E+01	2.40006337488E+01	-1.76511318795E+02	-4.21750811092E+01	-9.92401384693E+01	-6.04431225155E+00	-9.99046036507E-01
3.00433847586E+05	-1.87455524505E+01	-8.40657154718E+01	2.40065490479E+01	-1.75429086211E+02	-3.93431093037E+01	1.54786302850E+02	-6.25304207001E+00	4.96609796888E-01
3.00651006602E+05	-2.79712956476E+01	-1.47435592322E+02	2.40446645916E+01	-1.75773818411E+02	-4.95231721959E+01	7.15124054525E+01	-5.99928327456E+00	-2.73568701124E-01
3.00868322584E+05	-1.75556268052E+01	-8.75695804206E+00	2.39558921545E+01	-1.75929493305E+02	-5.01579471669E+01	-2.45188951001E+01	-5.93041894485E+00	-7.91190498140E-01
3.01085795647E+05	-2.73267060467E+01	-3.61019854462E+01	2.39376546413E+01	-1.76110768204E+02	-4.49036196559E+01	-9.04843542101E+01	-5.97740641333E+00	-1.01103512601E+00
3.01303425902E+05	-2.23253771587E+01	-3.61695365359E+00	2.39821177169E+01	-1.76154958263E+02	-4.84924979385E+01	-1.47824003292E+02	-6.06660174377E+00	-5.96095048698E-01
3.01521213465E+05	-2.78179417988E+01	-1.91282071006E+01	2.39876922605E+01	-1.75837448677E+02	-3.67597849236E+01	-1.64084496650E+02	-6.21229264681E+00	-1.06550833246E+00
3.01739158449E+05	-1.61294299623E+01	-1.25350069815E+02	2.40489712436E+01	-1.75651760725E+02	-4.56485237251E+01	-5.16906666474E+01	-6.01613903604E+00	-7.98159958063E-01
3.01957260967E+05	-1.52497792213E+01	4.32001970348E+01	2.39353867736E+01	-1.76184554327E+02	-3.59224720861E+01	-1.59169279312E+02	-6.29592256938E+00	-1.76196023829E+00
3.02175521134E+05	-1.06060399114E+01	-1.66557429776E+02	2.41568156570E+01	-1.75868452290E+02	-3.69887676514E+01	-1.51431041535E+02	-6.28669387843E+00	-2.04721791131E+00
3.02393939063E+05	-1.63506640697E+01	7.64881325059E+01	2.39640418596E+01	-1.76635232815E+02	-3.90343703775E+01	1.64995393065E+02	-6.15961444340E+00	-4.82101722681E-01
3.02612514869E+05	-2.69044361771E+01	9.16843769198E+01	2.40168940851E+01	-1.75934725013E+02	-3.78516275920E+01	-8.69386881284E+01	-6.01411312216E+00	-1.54014421047E+00
3.02831248665E+05	-2.07290119367E+01	-1.45154270864E+01	2.39652365543E+01	-1.76028956898E+02	-4.16287860612E+01	1.08948279933E+02	-6.08009136302E+00	5.49943066870E-01
3.03050140565E+05	-2.17135328361E+01	9.11607527820E+00	2.39642904454E+01	-1.75922772774E+02	-4.52619184293E+01	-1.66213575440E+02	-6.11522921521E+00	-2.86121575083E-01
3.03269190685E+05	-1.70824180146E+01	-5.66412190910E+01	2.39681394893E+01	-1.75477751141E+02	-3.48524703560E+01	6.18935519789E+01	-5.90705252861E+00	1.31645219338E+00
3.03488399138E+05	-1.31950584166E+01	1.01775177616E+02	2.40222972998E+01	-1.77275457230E+02	-3.55780664460E+01	-3.45081694841E+01	-5.72539086305E+00	-8.19140252800E-01
3.03707766039E+05	-1.82537325874E+01	-5.39450603176E+01	2.39414963132E+01	-1.75696487175E+02	-2.83515132871E+01	-5.95109536063E+01	-5.61120522746E+00	-4.50193290629E+00
3.03927291503E+05	-1.91833223109E+01	-1.16607831988E+02	2.40498167485E+01	-1.75841271644E+02	-3.92319920949E+01	6.71481273940E+00	-5.91420069019E+00	-1.03874145397E-01
3.04146975643E+05	-1.63722507445E+01	-1.58864613772E+01	2.38973416198E+01	-1.75922817310E+02	-3.97403921828E+01	-1.61666131278E+02	-6.19577305263E+00	-8.17764637363E-01
3.04366818575E+05	-1.82424380237E+01	4.31135692806E+01	2.39414208578E+01	-1.76390381990E+02	-3.68400727553E+01	-1.30787315727E+02	-6.16959693766E+00	-1.65828914031E+00
3.04586820414E+05	-2.35239114590E+01	-1.57783304923E+02	2.40127112238E+01	-1.75976191527E+02	-4.07251972156E+01	-6.70399653416E+01	-5.94868709779E+00	-1.32275180215E+00
3.04806981274E+05	-1.76141942368E+01	5.50916977008E+00	2.39266382871E+01	-1.75858233565E+02	-3.76309759796E+01	-1.70001329012E+02	-6.28692609033E+00	-4.39995520326E-01
3.05027301270E+05	-1.36703460417E+01	-7.99246181852E+01	2.40112201817E+01	-1.75307957180E+02	-4.11934018292E+01	7.45368707149E+01	-5.93851224697E+00	5.10750742903E-01
3.05247780517E+05	-1.22175059378E+01	-4.70312782868E+01	2.39335839770E+01	-1.75216303809E+02	-2.61392889995E+01	1.71489798718E+01	-5.15942294353E+00	2.38544478717E+00
3.05468419131E+05	-2.33443625716E+01	1.16962271680E+02	2.40352379610E+01	-1.76124029135E+02	-3.66509706165E+01	-1.70623521296E+01	-5.75595616922E+00	-5.68014628251E-01
3.05689217226E+05	-3.55216648975E+01	4.47525002143E+01	2.39771258519E+01	-1.76230786979E+02	-3.66988206834E+01	1.08464264775E+02	-6.07998686360E+00	1.27892774323E+00
3.05910174918E+05	-1.67877264596E+01	-9.70682921176E+00	2.39735772172E+01	-1.75895156186E+02	-4.43360538050E+01	-8.08766556284E+01	-6.05384798166E+00	-1.01429504659E+00
3.06131292322E+05	-1.58876325104E+01	1.57519150035E+02	2.40942018907E+01	-1.76483316699E+02	-4.51611807708E+01	-9.11727173372E+01	-6.01174334339E+00	-9.71262818486E-01
3.06352569554E+05	-2.09883653317E+01	-5.63492381579E+01	2.39597478214E+01	-1.75717645598E+02	-3.84339680908E+01	9.69857161118E+01	-6.02358815482E+00	1.11320716745E+00
3.06574006730E+05	-2.18467962672E+01	8.58765901914E+01	2.39741681139E+01	-1.76466087494E+02	-3.23135074389E+01	1.53459285700E+02	-6.37581282077E+00	9.98680435235E-01
3.06795603964E+05	-1.27248058853E+01	1.03585623259E+02	2.40524384824E+01	-1.77157338076E+02	-2.48347240247E+01	5.44893213199E-01	-4.94869094684E+00	1.50030193429E-01
3.07017361372E+05	-1.53339837493E+01	-8.30323401347E+01	2.40053879405E+01	-1.75507487509E+02	-4.19890232106E+01	4.73455919945E+01	-5.92154021905E+00	2.45316145467E-01
3.07239279071E+05	-1.89717688600E+01	-1.49933588778E+01	2.39281878613E+01	-1.76220675640E+02	-4.06620519079E+01	-1.43962309747E+01	-5.85368122982E+00	-1.80193074001E-01
3.07461357176E+05	-1.82259598159E+01	-2.30736375731E+01	2.39494090449E+01	-1.75849169771E+02	-3.80160226852E+01	1.28781751424E+02	-6.10734465404E+00	8.28932649685E-01
3.07683595803E+05	-2.68840952080E+01	-2.10464691662E+01	2.39705328636E+01	-1.76040740912E+02	-4.83304687289E+01	-3.35597910836E+01	-5.99690987996E+00	-8.17572631890E-01
3.07905995068E+05	-2.73259646214E+01	2.49216975364E+01	2.39777607539E+01	-1.76262258897E+02	-3.56216471259E+01	1.60896524664E+02	-6.31863735226E+00	-8.41209266917E-02
3.08128555087E+05	-1.40137370469E+01	6.91024734496E+01	2.39702064588E+01	-1.76963939174E+02	-4.51159863055E+01	1.01925925395E+02	-6.02177076142E+00	-1.68823513353E-01
3.08351275976E+05	-2.02854121994E+01	9.35634555162E+01	2.40626748248E+01	-1.76581309844E+02	-2.85203736123E+01	5.70887611287E+00	-5.24310976059E+00	5.92851676320E-01
3.08574157853E+05	-1.52976278162E+01	6.83621992063E-01	2.39320411443E+01	-1.76109947152E+02	-3.73259850697E+01	5.76398669495E+00	-5.76659299668E+00	-5.18944891029E-01
3.08797200832E+05	-1.89075712198E+01	2.64759336225E+01	2.39629314930E+01	-1.76294186213E+02	-3.81679705798E+01	-1.25800984785E+02	-6.10258861887E+00	-1.39373506354E+00
3.09020405031E+05	-2.23017767618E+01	-4.60679873283E+00	2.39449053444E+01	-1.76232089011E+02	-4.62144446847E+01	1.75214950647E+02	-6.11673952228E+00	-1.61002741782E-01
3.09243770566E+05	-1.73885917437E+01	-1.78059913719E+02	2.40865201658E+01	-1.76290545060E+02	-5.10277723594E+01	1.59064537434E+02	-6.05257048773E+00	-1.51887125527E-01
3.09467297553E+05	-1.11180769311E+01	5.54582375076E+00	2.38350891442E+01	-1.76460211410E+02	-4.26056561403E+01	-1.64415691523E+02	-6.13645124469E+00	-8.53878374771E-01
3.09690986110E+05	-1.97594389600E+01	1.32650804186E+02	2.40274140001E+01	-1.76741122448E+02	-4.01807766602E+01	9.40124294441E+01	-6.00474646635E+00	1.12133837078E+00
3.09914836353E+05	-1.32408569851E+01	-4.73873903264E+01	2.39031080445E+01	-1.75931465701E+02	-3.01778684206E+01	-1.79583213744E+02	-6.76604628434E+00	-6.57177166561E-01
3.10138848399E+05	-1.86395751570E+01	-4.70500986395E+01	2.39472371968E+01	-1.76130903806E+02	-3.59193023610E+01	-7.82289061889E+01	-5.86069598171E+00	-3.04394416264E+00
3.10363022365E+05	-3.04400724403E+01	7.10099880581E+01	2.40042378454E+01	-1.76457479116E+02	-3.91331090329E+01	-2.61120195147E+00	-5.75921254000E+00	-1.27798389536E-01
3.10587358368E+05	-1.95656262786E+01	-3.91752634699E+01	2.39954950232E+01	-1.76056004482E+02	-5.28507401126E+01	8.21880530854E+01	-6.06151575886E+00	-2.13357441612E-01
3.10811856525E+05	-2.59416744745E+01	-2.55781513785E+01	2.39590703802E+01	-1.76297457294E+02	-4.57031850199E+01	1.39530750396E+02	-6.06462013614E+00	-2.39437713945E-01
3.11036516954E+05	-1.82445918078E+01	-8.15509009894E+00	2.39190212193E+01	-1.76278063303E+02	-3.96246213595E+01	4.83490922054E+01	-5.90335889459E+00	2.01622124850E-01
3.11261339771E+05	-2.16547237035E+01	1.35113015141E+02	2.40190979978E+01	-1.76805195339E+02	-3.88309765600E+01	4.82336718283E+00	-5.85463463182E+00	6.17400174281E-02
3.11486325094E+05	-3.23557156820E+01	-1.29755888530E+02	2.40214929150E+01	-1.76503872826E+02	-3.85972155679E+01	-1.03903199730E+02	-5.90558221421E+00	-2.53868436852E+00
3.11711473040E+05	-1.87832396594E+01	2.03943077353E+01	2.39645465331E+01	-1.76546528121E+02	-3.14045586862E+01	-2.56220680177E+01	-5.48652969611E+00	-1.35513676493E+00
3.11936783728E+05	-2.30392238565E+01	-5.32109559236E+01	2.39456245503E+01	-1.76353335721E+02	-3.74345169933E+01	8.17962363872E+01	-5.98362483011E+00	1.24283647035E+00
3.12162257274E+05	-1.19882355537E+01	6.41638516381E+01	2.39200697255E+01	-1.77221903099E+02	-3.96960598557E+01	1.65081906189E+02	-6.17109433129E+00	-1.35128283624E-01
3.12387893797E+05	-2.98092353145E+01	2.22346871684E+01	2.39708837012E+01	-1.76613683920E+02	-3.73371960052E+01	-5.60877843936E+01	-5.93691367256E+00	-1.15016189162E+00
3.12613693413E+05	-1.68135274258E+01	-1.09695271162E+02	2.40261514274E+01	-1.75896268851E+02	-4.55339419816E+01	9.06090916284E+01	-6.04253528478E+00	1.93165930648E-01
3.12839656242E+05	-2.22163061234E+01	-2.19066213328E+00	2.39793195065E+01	-1.76392342044E+02	-4.37158217693E+01	1.62238866077E+02	-6.11843540450E+00	-5.20564398211E-01
3.13065782401E+05	-1.44217295121E+01	1.58600137476E+02	2.41224465722E+01	-1.76843563903E+02	-3.54364123466E+01	-4.55764637640E+01	-5.82779940617E+00	-1.42118427742E+00
3.13292072007E+05	-2.00661080382E+01	7.77719698431E+01	2.40285225489E+01	-1.76951772275E+02	-3.09514237911E+01	7.34625269493E+01	-5.78212853950E+00	3.52654231667E+00
3.13518525180E+05	-2.40654327946E+01	2.72183657052E+01	2.39891504318E+01	-1.76563834693E+02	-4.89480603344E+01	1.19116419932E+02	-6.01788731859E+00	-3.68382805175E-02
3.13745142038E+05	-2.40742772014E+01	-8.01130943898E+00	2.39727681640E+01	-1.76447962450E+02	-3.70542045996E+01	1.63453992040E+02	-6.26176341769E+00	6.64634694227E-02
3.13971922698E+05	-2.70590473156E+01	1.38330648611E+02	2.39798490681E+01	-1.76569058904E+02	-3.68359575165E+01	-3.33935898571E+01	-5.79091115835E+00	-1.22293589817E+00
3.14198867279E+05	-1.79361137207E+01	8.60751469508E+01	2.40008220175E+01	-1.76732697061E+02	-3.92350823200E+01	-1.58631484178E+02	-6.19401273340E+00	-1.01590061676E+00
3.14425975900E+05	-1.80629031925E+01	6.69050846795E+01	2.39922479889E+01	-1.76887803651E+02	-3.52577434751E+01	6.79273097284E+01	-5.95604864095E+00	1.22034592779E+00
3.14653248680E+05	-1.10277007970E+01	1.34715336009E+01	2.38390808093E+01	-1.76918937496E+02	-3.12838795924E+01	-1.43497645874E+02	-6.39281839923E+00	-2.78760011793E+00
3.14880685736E+05	-1.70039318899E+01	-8.40394587469E+01	2.40150712321E+01	-1.76220090801E+02	-5.49912801542E+01	1.77390907148E+02	-6.03554816343E+00	-5.73607427497E-01
3.15108287188E+05	-1.38761602703E+01	4.35971206677E+01	2.39108365796E+01	-1.77058782656E+02	-3.48934052247E+01	7.08376201894E+00	-5.70408520240E+00	-1.14714464954E-01
3.15336053154E+05	-2.61005588722E+01	7.62330481526E+01	2.39897686594E+01	-1.76606050564E+02	-4.08503304594E+01	1.32100164965E+02	-6.06037267037E+00	6.79359965431E-01
3.15563983753E+05	-2.22259862421E+01	7.49440259528E+01	2.39713474937E+01	-1.76577463222E+02	-4.52693778614E+01	-1.08043083925E+00	-5.94676583234E+00	-4.47505835047E-01
3.15792079105E+05	-1.89907465243E+01	-1.14771136998E+01	2.39471050570E+01	-1.76339899720E+02	-4.52838047976E+01	-6.49972148218E+01	-5.97365764438E+00	-9.23638373205E-01
3.16020339328E+05	-3.41568901927E+01	1.54851440680E+02	2.40013596412E+01	-1.76590110485E+02	-3.89554823564E+01	-1.48868513791E+02	-6.19684538431E+00	-1.42558475482E+00
3.16248764542E+05	-4.79625205988E+00	3.44205658220E+01	2.36944896734E+01	-1.77992281012E+02	-4.73392730861E+01	7.87095575994E+01	-6.06950098753E+00	-6.67918099491E-02
3.16477354866E+05	-1.56679907480E+01	-1.15569451728E+01	2.39529511598E+01	-1.76464942540E+02	-2.35504483296E+01	5.05500564969E+01	-5.12428848959E+00	6.23778008868E+00
3.16706110419E+05	-1.85195030262E+01	2.33404593667E+01	2.39389696075E+01	-1.76852092786E+02	-3.89176508204E+01	5.35846609281E+01	-5.89552359712E+00	4.11001688590E-01
3.16935031321E+05	-2.33210445060E+01	2.01737928965E+01	2.39874742412E+01	-1.76678891416E+02	-4.27159244774E+01	9.39547993018E+01	-6.02881347927E+00	4.59105522990E-01
3.17164117691E+05	-1.37614618742E+01	3.14199790643E+01	2.38789082777E+01	-1.76962478534E+02	-5.26672963805E+01	6.15326036858E+01	-5.98772726716E+00	-3.00566261302E-01
3.17393369648E+05	-1.35449172944E+01	-1.86288517120E+01	2.39003994361E+01	-1.76317086371E+02	-3.90780064795E+01	1.64499212112E+02	-6.20796149374E+00	6.97177520170E-02
3.17622787313E+05	-2.10558883660E+01	9.38935052227E+01	2.40088775910E+01	-1.77164128459E+02	-3.87993737792E+01	-4.27998120919E+01	-5.85987151670E+00	-1.15747980955E+00
3.17852370806E+05	-1.96112803651E+01	9.24136816115E+01	2.40334316264E+01	-1.77189463337E+02	-3.32179149236E+01	-1.39131805337E+02	-6.26832418024E+00	-2.61833494235E+00
3.18082120245E+05	-1.41656386802E+01	-6.81194752262E+00	2.38696972179E+01	-1.76840855989E+02	-4.61678464200E+01	-5.49761189959E+01	-5.95111038545E+00	-7.92009242876E-01
3.18312035752E+05	-1.71667129030E+01	4.72908144218E+01	2.39541228977E+01	-1.76742227060E+02	-3.47330191211E+01	-7.02106671813E+00	-5.73420404677E+00	-3.81068199939E-01
3.18542117445E+05	-2.08162674916E+01	-6.17667983494E+01	2.39393145680E+01	-1.76340274290E+02	-4.52593008095E+01	-6.15429636411E+01	-5.96702613846E+00	-9.75535837946E-01
3.18772365446E+05	-2.04354984566E+01	-6.63287712676E+01	2.39995229645E+01	-1.76347410058E+02	-3.26994818704E+01	-1.33276568635E+02	-6.25916204322E+00	-2.62557171919E+00
3.19002779874E+05	-1.43979137057E+01	-6.29643574455E+00	2.39420638338E+01	-1.76589483232E+02	-4.73536955190E+01	-5.90441538020E+01	-5.96680161061E+00	-1.03918072392E+00
3.19233360850E+05	-2.07674600889E+01	7.22585520086E+01	2.40098971897E+01	-1.77124128758E+02	-4.16489183550E+01	1.50555669589E+01	-5.91288973522E+00	-6.84116541516E-02
3.19464108494E+05	-1.62284375988E+01	-1.53430490956E+02	2.41214023625E+01	-1.76425191270E+02	-3.42268627926E+01	1.61335972883E-03	-5.69126244952E+00	2.92012168347E-02
3.19695022927E+05	-1.80843830015E+01	1.01438689655E+00	2.39698666485E+01	-1.76711797708E+02	-3.58807982519E+01	-5.12402262703E+00	-5.70347558296E+00	1.28055952820E-01
3.19926104268E+05	-1.56252316666E+01	3.09004937794E+01	2.39147913274E+01	-1.77138504642E+02	-4.30975097286E+01	1.63185139644E+02	-6.15849214077E+00	4.34109208592E-01
3.20157352640E+05	-1.47797913220E+01	-2.25388689907E+00	2.38688648323E+01	-1.76834922364E+02	-3.94612427134E+01	-1.51212031832E+02	-6.19562074001E+00	-9.08029414432E-01
3.20388768162E+05	-1.96287831498E+01	-3.41786273927E+01	2.39377298683E+01	-1.76612232614E+02	-4.31077519700E+01	7.47617032595E+00	-5.89693043717E+00	-2.96167169350E-02
3.20620350955E+05	-2.08366138328E+01	-5.69555314577E+01	2.39563552552E+01	-1.76481639429E+02	-4.25180355980E+01	1.79536350746E+02	-6.09654578849E+00	-1.55783613294E-01
3.20852101140E+05	-1.41047475840E+01	3.82791576275E+00	2.38956750708E+01	-1.76617028426E+02	-4.15336427207E+01	3.08871439767E+00	-5.87434168082E+00	-4.13939997879E-02
3.21084018839E+05	-9.27702687170E+00	-3.65451180150E+01	2.38211468212E+01	-1.75871647408E+02	-2.80265489683E+01	-5.68103492990E+01	-5.53880066077E+00	-4.84485211015E+00
3.21316104172E+05	-6.87002214204E+00	-6.06814300714E+00	2.36610316621E+01	-1.76726368368E+02	-3.19962265310E+01	1.41500368762E+02	-6.40636686941E+00	1.36452810626E+00
3.21548357261E+05	-1.94178358876E+01	3.17744589892E+01	2.39703603962E+01	-1.76959026479E+02	-4.82519340799E+01	1.26121684810E+02	-6.06942240922E+00	-7.11791399585E-02
3.21780778226E+05	-1.93240705738E+01	6.82607914698E+01	2.39930041673E+01	-1.77077127102E+02	-3.52930921433E+01	-5.98694096705E+01	-5.94417475796E+00	-1.69374068683E+00
3.22013367189E+05	-2.18939570369E+01	-2.24783496740E+01	2.39492224006E+01	-1.76793166786E+02	-4.54443216533E+01	1.68572023471E+02	-6.06996099383E+00	-7.25857790341E-02
3.22246124272E+05	-1.84235928976E+01	-8.63328832848E+01	2.39818111396E+01	-1.76589732587E+02	-3.77942430618E+01	1.48888145331E+02	-6.22542736754E+00	2.26611629454E-01
3.22479049596E+05	-1.67504873815E+01	-1.30540432100E+01	2.38834876903E+01	-1.76652485299E+02	-3.85989413324E+01	-8.48356270402E+01	-5.95067018793E+00	-1.66735102547E+00
3.22712143282E+05	-1.00926183282E+01	9.14950883615E+01	2.40473131675E+01	-1.78124372244E+02	-3.99261814378E+01	1.55867094063E+01	-5.75630270372E+00	-5.42547589679E-01
3.22945405453E+05	-1.41514535154E+01	1.13212929015E+02	2.40851339313E+01	-1.77404829410E+02	-3.17355131689E+01	-3.99673770493E+01	-5.62049444407E+00	-2.63439724686E+00
3.23178836230E+05	-1.57595664282E+01	3.43479879833E+01	2.39326567318E+01	-1.77182819873E+02	-4.35296614531E+01	1.66804272663E+02	-6.15157572836E+00	-3.63016298823E-01
3.23412435735E+05	-2.29000908873E+01	6.82449370391E+01	2.40038729694E+01	-1.77175572507E+02	-4.70984056265E+01	-5.08991379492E+01	-5.93659838823E+00	-6.46873665566E-01
3.23646204090E+05	-2.00871751497E+01	9.13663079612E+00	2.39431722599E+01	-1.76667062412E+02	-3.86485303695E+01	-6.70424848373E+01	-5.87066576222E+00	-1.60360369338E+00
3.23880141417E+05	-1.84491074518E+01	-1.04864168974E+02	2.40525389831E+01	-1.76330071906E+02	-4.36287439499E+01	1.31612294191E+02	-6.05982922689E+00	1.80569570123E-01
3.24114247838E+05	-2.67470975761E+01	-1.50436405187E+02	2.40220737279E+01	-1.76894074154E+02	-4.26757209538E+01	1.76758063760E+02	-6.17249092002E+00	-1.50540381813E-01
3.24348523475E+05	-1.38579156795E+01	-1.05316276077E+02	2.40396534815E+01	-1.76211646645E+02	-3.01327148904E+01	6.75991032124E+01	-5.82257078239E+00	3.83365219941E+00
3.24582968451E+05	-9.54098115044E+00	-7.66680508887E+01	2.39701062780E+01	-1.75392636817E+02	-4.12986313304E+01	1.30391622605E+02	-6.20943973108E+00	8.03028932113E-01
3.24817582888E+05	-2.79776365604E+01	-2.90396172013E+01	2.39605516963E+01	-1.76946784708E+02	-5.17662194217E+01	7.92810045675E+01	-5.96488079202E+00	-1.39859096591E-01
3.25052366909E+05	-1.61451789602E+01	-3.56969452387E+01	2.39171486540E+01	-1.76778990327E+02	-4.02276677316E+01	1.05529178159E+02	-6.06138841781E+00	5.89340427993E-01
3.25287320635E+05	-1.87735000382E+01	-2.50316875202E+01	2.39710716394E+01	-1.76982890804E+02	-3.66558949166E+01	-1.24534028648E+02	-6.11599239609E+00	-1.35362889618E+00
3.25522444191E+05	-1.66211150607E+01	-1.69259876457E+02	2.40654135988E+01	-1.76843391987E+02	-4.45992595567E+01	1.50198634981E+02	-6.16928126125E+00	-2.81951176799E-01
3.25757737698E+05	-1.66306257582E+01	3.17357685348E+00	2.39491437758E+01	-1.76785076612E+02	-4.23153344726E+01	-4.08213271591E+01	-5.96548533837E+00	-1.38862769403E+00
3.25993201280E+05	-1.35481014045E+01	-5.67040372212E+01	2.39055339248E+01	-1.76313458531E+02	-3.02966825030E+01	-1.14787234532E+02	-6.18574778360E+00	-4.06376482525E+00
3.26228835058E+05	-1.27701644945E+01	2.08386905568E+01	2.38860767640E+01	-1.77385459756E+02	-4.13455539229E+01	-6.91637927765E+00	-5.90263106426E+00	-8.01610423100E-01
