# Hz S DB R 50
! CMT, M5065, 19127446, 24.2.4/2
! Date: 11/1/2024 3:16:39 PM
! Data: Format (Calibration Info)
! Freq	S11:dB/Ang(F2)	S21:dB/Ang(F2)	S12:dB/Ang(F2)	S22:dB/Ang(F2)
3.00000000000E+05	-2.43849847624E+01	-1.09463442345E+02	6.88351792184E+00	-1.77821903884E+02	-3.77156985942E+01	2.63380111100E+00	-5.97914131674E+00	-2.79733714401E-01
3.00216845423E+05	-2.90634900342E+01	-1.64302484521E+02	6.84520466356E+00	-1.77640345272E+02	-4.70989039528E+01	1.77184203061E+02	-6.05642863140E+00	-6.31918539957E-02
3.00433847586E+05	-2.69431668727E+01	2.49595154503E+01	6.86036741544E+00	-1.77813250554E+02	-4.58596825676E+01	4.73001053232E+01	-6.02506812407E+00	-5.80379606637E-02
3.00651006602E+05	-1.47094564049E+01	3.30704314484E+01	6.73806938223E+00	-1.78001028008E+02	-4.96281785320E+01	-1.57834241677E+02	-6.04708234943E+00	-3.84105527816E-01
3.00868322584E+05	-3.38216986654E+01	-3.52195230797E+01	6.82178106093E+00	-1.77337455211E+02	-3.54100557855E+01	3.87113834968E+01	-6.00896848449E+00	-6.50062072194E-02
3.01085795647E+05	-2.39739383196E+01	5.19675532654E+01	6.80221247814E+00	-1.77720480038E+02	-3.93025773454E+01	-5.81522679347E+01	-6.04519740988E+00	-4.49453122282E-01
3.01303425902E+05	-3.07004409973E+01	1.29858817692E+01	6.83790524645E+00	-1.77866485439E+02	-5.37829719725E+01	1.15320184440E+01	-6.05213828361E+00	-2.82394438152E-01
3.01521213465E+05	-1.55920910024E+01	2.65940167513E+01	6.74194834849E+00	-1.78125836026E+02	-4.57650321055E+01	-6.03298217528E+01	-6.02841543911E+00	-1.19952289147E-01
3.01739158449E+05	-2.49932053388E+01	4.13357213932E+01	6.78553655340E+00	-1.77707588707E+02	-4.53452800533E+01	5.92424604864E+01	-6.05710762934E+00	-3.72706655410E-02
3.01957260967E+05	-3.82711346622E+01	3.07820076228E+01	6.82450502371E+00	-1.77485607575E+02	-3.74005656931E+01	8.03696557042E+01	-6.02902195760E+00	1.51016868431E-01
3.02175521134E+05	-2.22469302151E+01	-4.01259228150E+01	6.77480281433E+00	-1.77471679082E+02	-4.15539590588E+01	1.72324175422E+02	-6.06385702613E+00	-2.17872718453E-01
3.02393939063E+05	-8.32270035465E+00	3.02226819471E+01	6.58556102825E+00	-1.78440355487E+02	-4.20463527920E+01	-2.63673720474E+01	-6.02139689564E+00	-1.63804306065E-01
3.02612514869E+05	-3.20180332818E+01	-1.63429173571E+02	6.87052723730E+00	-1.77272719071E+02	-4.22030506598E+01	-1.24414356492E+02	-6.04328977770E+00	-4.12111806772E-01
3.02831248665E+05	-1.62311358163E+01	-5.30331453279E+01	6.79762543274E+00	-1.76987284973E+02	-6.13727099956E+01	-8.24164621272E+01	-6.06132008553E+00	-2.47587546006E-01
3.03050140565E+05	-1.85996037331E+01	6.94321175511E+01	6.80538309036E+00	-1.77897782541E+02	-5.04168009913E+01	-5.95046353306E+01	-6.04945826782E+00	-4.15863738462E-01
3.03269190685E+05	-2.90356786671E+01	-1.11999145929E+02	6.85185096198E+00	-1.77658129719E+02	-3.64812779323E+01	1.23281666370E+00	-5.98834764259E+00	-4.11973052134E-01
3.03488399138E+05	-2.10912519138E+01	-8.12693700205E+00	6.77135888323E+00	-1.77952708898E+02	-4.48464062739E+01	-4.46406939602E+01	-6.00630932779E+00	-1.75478011530E-01
3.03707766039E+05	-1.64105711566E+01	4.85187761111E+01	6.80755348588E+00	-1.77942411784E+02	-4.99933488136E+01	-1.50529703173E+02	-6.06144819657E+00	-2.86876143794E-01
3.03927291503E+05	-1.66747054211E+01	6.89874139908E+00	6.68050378806E+00	-1.77979041903E+02	-4.34064909858E+01	1.20150605547E+02	-6.04012302036E+00	-1.75306075625E-01
3.04146975643E+05	-1.58598950559E+01	-1.71137779525E+01	6.65242576457E+00	-1.76975784538E+02	-3.04349477813E+01	-4.20630397805E+01	-5.93581897703E+00	-4.99122131286E-01
3.04366818575E+05	-2.30820784437E+01	1.28751444452E+01	6.79549079629E+00	-1.77816682540E+02	-4.56683857437E+01	1.87740255320E-01	-6.04565331477E+00	-7.20989049396E-03
3.04586820414E+05	-2.39259980910E+01	-2.47449682244E+01	6.79337292436E+00	-1.77435563953E+02	-4.07376556779E+01	-3.59657758426E+01	-6.03555912392E+00	-2.70483883726E-01
3.04806981274E+05	-1.77325922733E+01	9.45166523806E+00	6.73591863294E+00	-1.77815770050E+02	-4.32979557526E+01	4.23739982067E+01	-6.04749958985E+00	-1.59064498155E-01
3.05027301270E+05	-2.09239782177E+01	4.54245803035E+00	6.79565625912E+00	-1.77703746263E+02	-3.70433892487E+01	8.87750178398E+01	-6.04343173308E+00	1.00160010114E-01
3.05247780517E+05	-1.71076658959E+01	4.55852789160E+00	6.74497850166E+00	-1.77637002373E+02	-4.56591835561E+01	-1.35721823096E+01	-6.02857093545E+00	-1.49715081631E-01
3.05468419131E+05	-2.24815854747E+01	-6.36203062912E+01	6.87619260246E+00	-1.77576179770E+02	-4.15030268700E+01	2.25168291326E+01	-6.01405069714E+00	-2.56641885719E-01
3.05689217226E+05	-1.80910464756E+01	2.44098833941E+01	6.75408440137E+00	-1.78112563966E+02	-3.97858826592E+01	1.13334146910E+02	-6.05064280890E+00	-5.69925804322E-03
3.05910174918E+05	-1.78297304278E+01	2.28554413698E+00	6.69396955690E+00	-1.77430463121E+02	-4.56297352278E+01	1.54539105020E+02	-6.04040820578E+00	-2.43983341742E-01
3.06131292322E+05	-1.30694997981E+01	-3.49197924322E+01	6.72080070825E+00	-1.77252224935E+02	-3.91993435941E+01	-1.11974546769E+02	-6.03034753954E+00	-2.81836337493E-01
3.06352569554E+05	-2.09948699519E+01	6.33653279971E+01	6.75924683068E+00	-1.78198252394E+02	-4.36000596945E+01	1.74321232122E+02	-6.08018078468E+00	-1.78913259809E-01
3.06574006730E+05	-1.83843973775E+01	2.98151924558E+01	6.78870572439E+00	-1.78179956777E+02	-4.93650711465E+01	4.46145644316E+01	-6.01472824165E+00	-1.45935781984E-01
3.06795603964E+05	-1.39979244076E+01	1.21074440666E+02	6.90432120069E+00	-1.78652372157E+02	-3.68040053431E+01	1.32524562480E+02	-6.06773669950E+00	9.13426013112E-02
3.07017361372E+05	-1.75521765154E+01	-2.90689534192E+01	6.79127799751E+00	-1.77234378056E+02	-3.74433395814E+01	-9.53586132910E+01	-6.04807034882E+00	-4.68865731494E-01
3.07239279071E+05	-1.58144081190E+01	2.32618601209E+00	6.69956725356E+00	-1.77976233209E+02	-4.18709229543E+01	-1.66536214413E+02	-6.05606158265E+00	-2.22767030442E-01
3.07461357176E+05	-1.80609016629E+01	-2.16407673327E+00	6.78844778456E+00	-1.77742596260E+02	-4.64179155655E+01	-9.07803179644E+01	-5.99933571856E+00	-3.87117397197E-01
3.07683595803E+05	-1.86613613392E+01	2.44704470347E+01	6.75883803845E+00	-1.77792670090E+02	-4.25628419083E+01	-9.37817731647E+01	-6.03396535121E+00	-2.52060601603E-01
3.07905995068E+05	-1.66835359234E+01	6.59342932983E+00	6.73131045729E+00	-1.77814787533E+02	-4.54061238117E+01	3.05998791946E+00	-6.01546541374E+00	-1.96112085794E-01
3.08128555087E+05	-1.94986915810E+01	2.59643149292E+01	6.76144789468E+00	-1.77884371811E+02	-4.80906070355E+01	-3.46144667719E+01	-6.03405953049E+00	-2.62666440317E-01
3.08351275976E+05	-1.52310524603E+01	-5.62874818801E+00	6.68190465933E+00	-1.77669507450E+02	-3.94776387513E+01	2.54380529739E+01	-6.02336096750E+00	-9.12977279892E-02
3.08574157853E+05	-1.78010106606E+01	2.56332352023E+01	6.72795820838E+00	-1.77944340286E+02	-3.50273766898E+01	-6.91848441345E+01	-6.03274311131E+00	-7.18775530725E-01
3.08797200832E+05	-1.91136483940E+01	3.44371730223E+00	6.75408885258E+00	-1.77606102152E+02	-5.09154314644E+01	4.57465240282E+00	-6.02395128735E+00	-6.64566842718E-02
3.09020405031E+05	-1.77735351620E+01	4.48435671420E+01	6.78977054623E+00	-1.78075242591E+02	-5.30992781785E+01	-1.17594882528E+02	-6.03380216708E+00	-1.26342448188E-01
3.09243770566E+05	-1.30478359654E+01	2.92430371081E+01	6.69717195043E+00	-1.78052138580E+02	-3.82706125299E+01	-7.98423529029E+01	-6.01510240144E+00	-3.25432653723E-01
3.09467297553E+05	-1.57774730927E+01	2.74155820619E+01	6.72727697250E+00	-1.78207657957E+02	-5.44700277728E+01	1.24983042544E+02	-6.02045058892E+00	-3.58606711583E-01
3.09690986110E+05	-2.64443375107E+01	1.68596241977E+02	6.84147482385E+00	-1.77689776093E+02	-4.94290640338E+01	4.57925779367E+00	-6.05616151679E+00	-2.15001119502E-01
3.09914836353E+05	-1.84976639241E+01	8.56643237618E+01	6.84190859289E+00	-1.78173976388E+02	-4.01543653146E+01	-1.36255590302E+02	-6.05050023456E+00	-2.36870485117E-01
3.10138848399E+05	-1.07124628683E+01	3.92237162142E+01	6.67017726046E+00	-1.78550446151E+02	-3.67574775381E+01	-7.50261906550E+01	-6.04528685227E+00	-4.31546229671E-01
3.10363022365E+05	-2.36752837810E+01	7.51747743618E+00	6.76720209194E+00	-1.77614471793E+02	-4.32631357957E+01	-2.11727658129E+01	-6.00461032528E+00	-2.12520670494E-01
3.10587358368E+05	-2.19182693685E+01	2.98635889283E+01	6.78937392558E+00	-1.78080458095E+02	-5.28865247558E+01	8.47024465298E+01	-6.02461314990E+00	-1.99428602533E-01
3.10811856525E+05	-1.84491708996E+01	-9.80423193238E+00	6.73826863615E+00	-1.77853515086E+02	-3.51956516034E+01	-9.55087263323E+01	-6.01323928702E+00	-6.57881528163E-01
3.11036516954E+05	-1.46782917618E+01	-4.10114411771E+01	6.74697589123E+00	-1.77164019372E+02	-3.48478739706E+01	5.42385303946E+01	-6.00463549589E+00	9.60527962415E-02
3.11261339771E+05	-2.01470905066E+01	8.36137787274E+01	6.81867832542E+00	-1.78571754944E+02	-3.95272487310E+01	1.10672241757E+02	-6.03541511673E+00	-2.52060243402E-02
3.11486325094E+05	-3.56760128545E+01	8.18017096348E+01	6.82487712344E+00	-1.77866806716E+02	-4.28832004598E+01	-5.16620500104E+01	-6.05591717752E+00	-1.26954360499E-01
3.11711473040E+05	-2.08539883231E+01	-3.62601653346E+01	6.76307623033E+00	-1.77506058076E+02	-3.61934783434E+01	-1.76751809997E+02	-6.07022594152E+00	-8.82035207150E-02
3.11936783728E+05	-1.10068077236E+01	4.27203382154E+01	6.67765958279E+00	-1.78981859568E+02	-3.44490879675E+01	-1.13267900181E+01	-6.00535983608E+00	-2.16041848552E-01
3.12162257274E+05	-2.19719167283E+01	4.91807468744E+01	6.78875791985E+00	-1.78093309709E+02	-4.03345659421E+01	-1.58469572005E+02	-6.08331665799E+00	-3.31168264345E-01
3.12387893797E+05	-1.63003569668E+01	3.95652813471E+01	6.76426648084E+00	-1.78107841526E+02	-3.83179282898E+01	-1.62085413051E+02	-6.09743214869E+00	-4.03558087146E-01
3.12613693413E+05	-2.55874376711E+01	7.87725729452E+00	6.80555571088E+00	-1.77502334090E+02	-4.23224906017E+01	8.51408487300E+01	-6.03524500971E+00	-1.20974597800E-01
3.12839656242E+05	-1.28272019503E+01	2.20480901194E+01	6.63909752959E+00	-1.78267811048E+02	-4.23674831547E+01	-5.59940353422E+01	-6.02064262697E+00	-4.57101573906E-01
3.13065782401E+05	-2.00081344509E+01	-2.47227591256E+00	6.77378128021E+00	-1.77778363073E+02	-4.20774646246E+01	1.42781642673E+02	-6.05515414539E+00	-2.18883974124E-01
3.13292072007E+05	-2.24503448926E+01	5.73276482116E+01	6.78064236418E+00	-1.77934342157E+02	-4.34475530469E+01	7.80481371497E+01	-6.01621733833E+00	-1.99112912366E-01
3.13518525180E+05	-1.43692319747E+01	1.50624756676E+02	6.92793972594E+00	-1.78576624934E+02	-4.43458793741E+01	-5.60919035327E+01	-6.02507680082E+00	-2.66762109244E-01
3.13745142038E+05	-1.75560055798E+01	-1.64847579201E+01	6.77176102903E+00	-1.77760133359E+02	-3.92169304429E+01	9.52983055239E+01	-6.04247583409E+00	2.14481650919E-02
3.13971922698E+05	-1.91662690899E+01	2.45937529766E+01	6.78313408834E+00	-1.77604649980E+02	-3.87326283306E+01	8.00680326417E+01	-6.02674649374E+00	1.12042287264E-02
3.14198867279E+05	-1.89583568629E+01	-6.66874257815E+00	6.79362883352E+00	-1.77302891487E+02	-4.25472778835E+01	1.63689521671E+02	-6.05455952373E+00	-1.86355629462E-01
3.14425975900E+05	-1.87626537113E+01	-1.38614699101E+02	6.88846041061E+00	-1.77608394359E+02	-3.99603394548E+01	1.35267329982E+02	-6.04248312123E+00	-8.24388536464E-02
3.14653248680E+05	-2.33897102207E+01	2.47329814117E+01	6.75378407229E+00	-1.77934175732E+02	-4.30015733595E+01	-3.55301228382E+01	-6.04743089862E+00	-4.18361848850E-01
3.14880685736E+05	-1.79825412549E+01	3.37953745479E+01	6.72893548875E+00	-1.77820183415E+02	-4.93696766099E+01	7.11982309039E+01	-6.03284075551E+00	-1.17054446832E-01
3.15108287188E+05	-2.33716099833E+01	8.03129605648E+01	6.78289723648E+00	-1.78016614164E+02	-4.54192482399E+01	6.04803707535E+01	-6.00359221581E+00	-5.93681071636E-02
3.15336053154E+05	-2.15584098665E+01	-3.09434711412E+01	6.74975621512E+00	-1.77585894274E+02	-4.17718272942E+01	-7.28071641050E+01	-6.04946945903E+00	-3.21542258902E-01
3.15563983753E+05	-1.95179182935E+01	5.65622939411E+01	6.77050064040E+00	-1.78395492904E+02	-4.67650938676E+01	-7.21093061143E+01	-6.02938254979E+00	-2.16900971587E-01
3.15792079105E+05	-2.53875950376E+01	3.06125180751E+01	6.80005144287E+00	-1.78035226045E+02	-3.70834507538E+01	-7.92713114207E+01	-6.03710373998E+00	-5.30165153094E-01
3.16020339328E+05	-1.99431313851E+01	6.58033496603E+01	6.79466238837E+00	-1.77781945997E+02	-3.98663875510E+01	-1.59162448202E+02	-6.07478437542E+00	-3.34572462097E-01
3.16248764542E+05	-1.39755785272E+01	5.37566070456E+01	6.75995318285E+00	-1.78600535611E+02	-3.90255890588E+01	-7.12742308856E+01	-6.02140731463E+00	-4.16422812326E-01
3.16477354866E+05	-1.86920250675E+01	-1.12657333708E+01	6.77787217815E+00	-1.77831227993E+02	-3.73230149490E+01	-1.12264358636E+02	-6.05754312651E+00	-3.93408180465E-01
3.16706110419E+05	-2.32050264495E+01	4.19146743783E+01	6.77665184979E+00	-1.78164493449E+02	-4.06147450437E+01	-1.61748759923E+02	-6.08410342509E+00	-5.64630156032E-02
3.16935031321E+05	-2.50369779699E+01	-1.65914212647E+01	6.80972516066E+00	-1.77808280185E+02	-4.48044643992E+01	-4.75649445804E+01	-6.04326801202E+00	-1.74928619062E-01
3.17164117691E+05	-3.17958297504E+01	6.87535380649E+01	6.86361937652E+00	-1.77911548068E+02	-3.30615693257E+01	1.11228711830E+01	-5.95975467682E+00	-1.81547275064E-01
3.17393369648E+05	-1.99300515865E+01	2.67950040654E+01	6.77884468169E+00	-1.77869913640E+02	-3.91753847830E+01	-1.57994931179E+02	-6.03995315442E+00	-3.86204052036E-02
3.17622787313E+05	-3.29042309316E+01	-1.47343166901E+02	6.88918403393E+00	-1.77968346762E+02	-4.79192773399E+01	7.17484215644E+01	-6.03603766975E+00	-6.02469974166E-02
3.17852370806E+05	-2.90939620149E+01	-1.60234794201E+02	6.85201901065E+00	-1.77622233755E+02	-4.22046784304E+01	-1.43592794289E+02	-6.04900579491E+00	-2.79774868160E-01
3.18082120245E+05	-1.54914486355E+01	1.28042414300E+02	6.95685280096E+00	-1.78581540571E+02	-2.69779329096E+01	-2.84211041974E+01	-5.90444004996E+00	-6.97531930500E-01
3.18312035752E+05	-2.97273230478E+01	-9.71049043803E+01	6.88296101825E+00	-1.77787534729E+02	-4.47459661124E+01	-1.38423533538E+02	-6.05918747410E+00	-4.27472089818E-01
3.18542117445E+05	-1.76969138000E+01	2.13247450425E+01	6.78436265315E+00	-1.77894434140E+02	-3.63389277232E+01	4.15222081510E+01	-6.01192899659E+00	-1.03837141732E-01
3.18772365446E+05	-9.00902181603E+00	-3.44753444053E+01	6.65157739827E+00	-1.77020444265E+02	-4.16563806464E+01	5.82839730881E+01	-6.03968480912E+00	-8.66235347494E-02
3.19002779874E+05	-3.22894445273E+01	1.35567975381E+02	6.84709776754E+00	-1.77941495016E+02	-3.72630855698E+01	-1.55906739289E+02	-6.07845067667E+00	-2.50739182696E-01
3.19233360850E+05	-2.82630290218E+01	-3.13191475898E+01	6.79281769700E+00	-1.77898128647E+02	-5.15998046283E+01	1.76441738655E+02	-6.06674368879E+00	-4.65730548099E-01
3.19464108494E+05	-3.25155892377E+01	5.31902399302E+01	6.80872502844E+00	-1.78081605808E+02	-4.70768143070E+01	-1.93023758906E+01	-6.02705067095E+00	-1.49318754559E-01
3.19695022927E+05	-1.40101119338E+01	6.30324256985E+01	6.78111579014E+00	-1.78579336791E+02	-3.81158491712E+01	-1.75452259240E+02	-6.09490183421E+00	-3.26369361280E-01
3.19926104268E+05	-1.54044008840E+01	4.14112730676E+01	6.79061063485E+00	-1.78309720040E+02	-4.68726320398E+01	-2.32507212281E+01	-6.03687315683E+00	-1.88292150105E-01
3.20157352640E+05	-1.93353086697E+01	-3.67190235036E+00	6.73369104660E+00	-1.77828845293E+02	-3.87372256576E+01	4.17526855893E+01	-5.98921206809E+00	-1.99614900404E-01
3.20388768162E+05	-2.11732500245E+01	4.45497142529E+00	6.76282826154E+00	-1.77906876636E+02	-4.29427394762E+01	5.67046053819E+01	-6.05567070203E+00	-2.02356075712E-02
3.20620350955E+05	-1.90428010406E+01	1.00749526705E+02	6.84355553474E+00	-1.78417760417E+02	-3.48729145271E+01	1.31963407497E+02	-6.07738322055E+00	-1.60555831212E-01
3.20852101140E+05	-2.14863485736E+01	3.45694454242E+01	6.79416916365E+00	-1.78157805478E+02	-4.52465749343E+01	-9.36690144003E+00	-6.02645436390E+00	-1.83221293736E-01
3.21084018839E+05	-2.76249755115E+01	8.46759916663E+01	6.82635548973E+00	-1.78005331987E+02	-4.22299563244E+01	-7.94797249200E+01	-6.02244458542E+00	-4.81898270290E-01
3.21316104172E+05	-1.70871913449E+01	9.75076230480E+00	6.69705629319E+00	-1.77946121199E+02	-3.71810790053E+01	-1.40982102336E+02	-6.06016311692E+00	-4.83024910245E-01
3.21548357261E+05	-2.38614818711E+01	7.07755949862E+01	6.79417217032E+00	-1.78236528335E+02	-3.11274622503E+01	-3.51474338045E+00	-5.95319797992E+00	-3.58773229149E-01
3.21780778226E+05	-3.10944013596E+01	-3.12894735214E+01	6.82899313013E+00	-1.77800052578E+02	-4.81394136142E+01	-9.93616081471E+01	-6.03576869136E+00	-4.31673249935E-01
3.22013367189E+05	-1.69815291014E+01	-1.21758585121E+01	6.73005528235E+00	-1.77870991464E+02	-3.90943243420E+01	-7.45572891272E+01	-5.99886514650E+00	-4.69091868707E-01
3.22246124272E+05	-1.74836957708E+01	1.83536374775E+01	6.79804589209E+00	-1.78330642314E+02	-4.67162259651E+01	-4.91756813433E+00	-6.01291274715E+00	-1.97122288382E-01
3.22479049596E+05	-1.27840484934E+01	-1.32415875202E+01	6.66701924994E+00	-1.77530272550E+02	-3.24681638116E+01	-1.23055058172E+02	-6.06163171405E+00	-6.93266318393E-01
3.22712143282E+05	-2.28274950948E+01	1.38255047974E+01	6.79732886420E+00	-1.77895207176E+02	-4.51637660642E+01	-1.57189589636E+02	-6.05148832711E+00	-2.05515339273E-01
3.22945405453E+05	-1.96995903163E+01	1.87791186364E+01	6.76146039008E+00	-1.78228677586E+02	-4.24732235867E+01	1.29188654558E+00	-6.00151460731E+00	-3.84189977164E-01
3.23178836230E+05	-2.43317160181E+01	7.62278226299E+01	6.86312498874E+00	-1.78119021028E+02	-4.46766694087E+01	-6.65067189860E+01	-6.03861704856E+00	-3.77125866770E-01
3.23412435735E+05	-1.14331966948E+01	8.84915630435E-01	6.66952072142E+00	-1.78165958169E+02	-4.31283513092E+01	-1.65699377108E+02	-6.03997069493E+00	-1.66804628612E-01
3.23646204090E+05	-2.46169632476E+01	3.97759595504E+01	6.82954607127E+00	-1.77898961000E+02	-4.37894814215E+01	-1.56969445899E+02	-6.06344382367E+00	-4.34451691118E-01
3.23880141417E+05	-1.91531351505E+01	4.43725720815E+01	6.77857116582E+00	-1.78003363794E+02	-4.74406574197E+01	9.62865798822E+01	-6.02944165993E+00	-1.01359887183E-01
3.24114247838E+05	-1.65872569835E+01	2.42389961050E+00	6.73323066528E+00	-1.78013521385E+02	-3.83116790631E+01	-9.81828105617E+00	-5.99465813444E+00	-2.86118991361E-01
3.24348523475E+05	-2.25495795312E+01	1.62984149682E+01	6.73937111486E+00	-1.77970193721E+02	-4.90008062299E+01	1.44330178596E+02	-6.02141839821E+00	-7.47466891754E-02
3.24582968451E+05	-1.85812741904E+01	4.98077604648E+01	6.74715135948E+00	-1.78177770432E+02	-4.35402015444E+01	-7.51488929574E+01	-6.03729206257E+00	-4.15927802748E-01
3.24817582888E+05	-1.59898318515E+01	7.05168490325E+01	6.81674006256E+00	-1.78525178994E+02	-3.94781802393E+01	7.35722067108E+01	-6.05121217084E+00	6.29731143748E-02
3.25052366909E+05	-1.19795645510E+01	1.65001561439E+01	6.66164323438E+00	-1.78320544777E+02	-4.01563109757E+01	8.60775406571E+01	-6.07085576262E+00	1.95807610892E-01
3.25287320635E+05	-1.36067967768E+01	1.09935707163E+01	6.73586334467E+00	-1.77994697755E+02	-4.33183832968E+01	-9.11484945670E+01	-6.03549840378E+00	-2.94157159067E-01
3.25522444191E+05	-2.13277969473E+01	5.97135373488E+01	6.83323886942E+00	-1.78166546334E+02	-4.14097650676E+01	1.77475095690E+02	-6.06510062886E+00	-1.06386092693E-01
3.25757737698E+05	-2.58431954673E+01	-1.94954295137E+01	6.77304328268E+00	-1.77855006510E+02	-4.68955372733E+01	-7.58609056997E+01	-6.05380829810E+00	-5.10624264691E-01
3.25993201280E+05	-1.03626504507E+01	5.57594708433E+01	6.71413987781E+00	-1.79622045948E+02	-4.66313079933E+01	-4.50544835639E+00	-6.04572311484E+00	-1.64551513252E-01
3.26228835058E+05	-2.08004659902E+01	3.07577531933E+01	6.76368421164E+00	-1.77979673426E+02	-3.92559909360E+01	1.53463801486E+02	-6.06357478614E+00	-5.87813389716E-02
