# Hz S DB R 50
! CMT, M5065, 19127446, 24.2.4/2
! Date: 11/1/2024 3:45:42 PM
! Data: Format (Calibration Info)
! Freq	S11:dB/Ang(F2)	S21:dB/Ang(F2)	S12:dB/Ang(F2)	S22:dB/Ang(F2)
3.00000000000E+05	-2.71810324891E+01	-1.04719747894E+02	2.00107429688E+01	-1.76541231381E+02	-4.31954336701E+01	-1.20422266812E+02	-6.06030636801E+00	-8.59125706216E-01
3.00216845423E+05	-1.55132172423E+01	1.43783716171E+02	2.01203763101E+01	-1.77299148658E+02	-4.28968722418E+01	-3.82219347721E+01	-5.92576708830E+00	-6.48272431229E-01
3.00433847586E+05	-2.52349297140E+01	8.50584701700E+01	2.00225843604E+01	-1.76942191995E+02	-3.68763884592E+01	-5.18673586026E+01	-5.90722202245E+00	-1.20232944108E+00
3.00651006602E+05	-1.71047299564E+01	2.30687142180E+01	1.99612347340E+01	-1.76957075238E+02	-3.46034451889E+01	1.87550205700E+01	-5.87229540799E+00	2.00953909312E-01
3.00868322584E+05	-1.75905232225E+01	1.03975423184E+02	2.00042832611E+01	-1.77012879194E+02	-4.13860474428E+01	9.33941928051E+01	-5.99794057198E+00	1.56940701440E-01
3.01085795647E+05	-2.89325792770E+01	2.30078765571E+01	2.00105518699E+01	-1.76790889207E+02	-4.30915595324E+01	-4.90874904168E+01	-5.97269616115E+00	-6.61308232563E-01
3.01303425902E+05	-2.12137454265E+01	1.27071917762E+02	2.00679404949E+01	-1.76735387157E+02	-4.72304809842E+01	1.50247336306E+02	-6.04511235851E+00	-8.68479981862E-02
3.01521213465E+05	-2.28613423373E+01	9.78920382406E+00	1.99656546026E+01	-1.76897466241E+02	-4.26179106739E+01	-1.75006393405E+02	-6.09123970832E+00	-4.19392616518E-01
3.01739158449E+05	-1.12905068072E+01	4.56106761181E+01	1.99279186599E+01	-1.77291846912E+02	-4.50009750110E+01	-1.01935997563E+02	-5.99589501003E+00	-5.86116018769E-01
3.01957260967E+05	-2.32166796776E+01	9.98591671830E+01	2.00526662713E+01	-1.76879629036E+02	-2.82423331060E+01	1.73821029854E+02	-6.56512821520E+00	2.29105327016E-01
3.02175521134E+05	-1.55897980737E+01	-5.60194698578E+01	1.99254458232E+01	-1.76239689274E+02	-4.36995072541E+01	7.09986230468E+01	-6.01011612741E+00	1.78455764809E-01
3.02393939063E+05	-2.46908226568E+01	3.27401957382E+01	1.99914452494E+01	-1.76856600823E+02	-5.02906420008E+01	1.66493955942E+02	-6.10762041829E+00	-2.64161985195E-01
3.02612514869E+05	-2.08409017297E+01	8.01655134076E+01	2.00392370481E+01	-1.77126340963E+02	-4.60086269844E+01	1.66607583691E+02	-6.05948623188E+00	6.90483170244E-04
3.02831248665E+05	-1.87443505292E+01	1.64678584977E+02	2.00671232344E+01	-1.76803422370E+02	-3.69319909462E+01	6.79918275233E+01	-5.98744000036E+00	7.69908155907E-01
3.03050140565E+05	-1.86093641762E+01	4.47811366719E+01	1.99732449506E+01	-1.76898187163E+02	-4.33750118610E+01	-1.06082422116E+02	-6.04423300777E+00	-8.28521632419E-01
3.03269190685E+05	-1.78504917075E+01	1.28630924071E+02	2.00767668262E+01	-1.77343724659E+02	-3.20735062307E+01	-4.03966473207E+01	-5.81316065717E+00	-1.67146694596E+00
3.03488399138E+05	-1.64458396952E+01	9.06272527531E+01	1.99779819843E+01	-1.77483981751E+02	-3.19832381163E+01	4.48962000306E+00	-5.67256893756E+00	-1.11515314122E-01
3.03707766039E+05	-2.47854329671E+01	-3.30846999941E+01	1.99684248642E+01	-1.76856927489E+02	-4.73200556083E+01	6.39023354005E+01	-6.01328094617E+00	-1.33108940833E-01
3.03927291503E+05	-2.01811998997E+01	1.21311088869E+01	2.00000851906E+01	-1.76859475188E+02	-5.00161592718E+01	1.21653764915E+02	-6.00489103217E+00	-8.60805674165E-02
3.04146975643E+05	-2.21445275990E+01	-6.21978050644E+01	1.99876445579E+01	-1.76703937113E+02	-4.04180400283E+01	4.19963424082E+01	-5.92397497286E+00	3.13314775070E-01
3.04366818575E+05	-1.85777501491E+01	-1.15116507282E+02	2.00140180007E+01	-1.76194798477E+02	-3.48889838905E+01	-1.11874917213E+02	-6.09576117582E+00	-1.30421625403E+00
3.04586820414E+05	-1.95512759438E+01	5.62730587652E+01	2.00336097985E+01	-1.77026288749E+02	-3.75771205633E+01	5.89829242639E+01	-5.94739356924E+00	5.81982468459E-01
3.04806981274E+05	-1.82975111647E+01	1.13719400821E+02	2.00396839939E+01	-1.77347487885E+02	-3.65443956948E+01	-1.42552045128E+02	-6.13248912771E+00	-5.45004720533E-01
3.05027301270E+05	-1.55863857311E+01	-2.02295874238E+01	1.98752885243E+01	-1.76696238259E+02	-3.97185361134E+01	-2.55920972942E+01	-5.92720157405E+00	-5.14586311036E-01
3.05247780517E+05	-1.61966643576E+01	3.66190335768E+00	1.99437824209E+01	-1.76916679394E+02	-3.41024150580E+01	-1.00783552722E+02	-6.03688516552E+00	-1.93988525816E+00
3.05468419131E+05	-2.22985247350E+01	2.07880478960E+01	1.99951176093E+01	-1.76949099098E+02	-5.00166758946E+01	-1.50031087285E+02	-6.04392862793E+00	-7.90832755109E-01
3.05689217226E+05	-1.51743926626E+01	1.27332410630E+01	1.99570817998E+01	-1.76872354979E+02	-4.02031809381E+01	-1.46205983371E+01	-5.85790471579E+00	-3.54000224099E-01
3.05910174918E+05	-1.45538595336E+01	1.51325858721E+02	2.01054728424E+01	-1.77206919817E+02	-3.48358803336E+01	-1.13431725346E+02	-6.04498668199E+00	-1.19434612022E+00
3.06131292322E+05	-2.11912703512E+01	-1.61429135142E+02	2.00368133030E+01	-1.76737494631E+02	-4.39857064650E+01	1.08651881699E+02	-6.05981224867E+00	2.79938872362E-01
3.06352569554E+05	-1.53716830757E+01	6.77661167966E+01	1.99636185460E+01	-1.77461719542E+02	-3.81261980096E+01	3.49208247671E+01	-5.94220742083E+00	6.05553057856E-02
3.06574006730E+05	-2.25977315490E+01	1.37930700614E+01	1.99358744390E+01	-1.76794877761E+02	-3.06167295036E+01	-8.79622795027E+01	-5.95469957047E+00	-2.84777316801E+00
3.06795603964E+05	-1.57217242451E+01	6.38183705981E+01	1.99509787673E+01	-1.77442311436E+02	-3.44768092840E+01	-7.66775199923E+01	-5.94808121905E+00	-1.73892138706E+00
3.07017361372E+05	-3.98004128436E+01	-1.55716313138E+01	1.99921271938E+01	-1.76756032405E+02	-4.52280685822E+01	-1.55861750331E+02	-6.05806352715E+00	-3.76147219373E-01
3.07239279071E+05	-1.43570122154E+01	-6.40433388770E+01	1.99594790896E+01	-1.76255037646E+02	-3.96731576132E+01	-1.65160515093E+02	-6.09949734852E+00	-5.02775929847E-01
3.07461357176E+05	-1.39866375543E+01	-4.83201252856E+00	1.98980297674E+01	-1.76883490356E+02	-4.51252148451E+01	1.04738698631E+02	-6.07203092588E+00	-8.70260070746E-02
3.07683595803E+05	-2.71795709787E+01	-1.41696251947E+02	2.00407876523E+01	-1.76856675338E+02	-3.66739811960E+01	1.65842909926E+02	-6.20692326383E+00	-2.66452078735E-01
3.07905995068E+05	-2.11897225376E+01	-7.24940252464E+01	2.00028192973E+01	-1.76669382166E+02	-3.74664704521E+01	7.27279919109E+01	-5.97772922539E+00	6.14221542804E-01
3.08128555087E+05	-1.31829379348E+01	-5.35741097050E+00	1.98969878326E+01	-1.76727396729E+02	-3.03458023216E+01	-2.38593180890E+01	-5.61089645059E+00	-1.26685810033E+00
3.08351275976E+05	-2.71717570778E+01	-4.69732553468E+01	2.00072723188E+01	-1.77052077515E+02	-3.86036894891E+01	1.48832887672E+02	-6.10092153217E+00	2.37226078873E-01
3.08574157853E+05	-2.28835105584E+01	-1.64439293745E+01	1.99670435028E+01	-1.76629555915E+02	-3.85957630284E+01	6.18411776215E+01	-5.95950239917E+00	2.75924999614E-01
3.08797200832E+05	-1.62075677196E+01	-1.62283816355E+02	2.00663680110E+01	-1.76833186764E+02	-3.43982607244E+01	1.06347331046E+02	-6.10584655706E+00	1.04824856754E+00
3.09020405031E+05	-2.97724148150E+01	1.75925498661E+02	2.00255051883E+01	-1.76936253992E+02	-4.27101264889E+01	-1.60333951802E+02	-6.06949420997E+00	-1.94558135270E-01
3.09243770566E+05	-2.30338563719E+01	2.45303295809E+01	1.99782997411E+01	-1.77126083386E+02	-5.33097321479E+01	2.93398486821E+01	-5.97735117325E+00	-5.11658718932E-01
3.09467297553E+05	-2.04700367655E+01	1.66435391283E+00	1.99502070109E+01	-1.76722268649E+02	-3.85954434295E+01	1.00837076953E+02	-6.02618072047E+00	9.11685892255E-01
3.09690986110E+05	-1.93144985983E+01	-4.70706048150E+01	1.99843277015E+01	-1.76628163055E+02	-2.77352511457E+01	6.15865085084E+01	-5.74156291163E+00	2.93412338579E+00
3.09914836353E+05	-3.89562806445E+01	-1.04643399417E+02	2.00322679220E+01	-1.77245130277E+02	-3.70409388669E+01	3.55001188268E+01	-5.83323710003E+00	3.59740060437E-01
3.10138848399E+05	-1.59638709471E+01	-2.67853587297E+01	1.99682819505E+01	-1.76903044197E+02	-4.95997155078E+01	3.12799972336E+01	-5.97092956909E+00	5.25326447378E-02
3.10363022365E+05	-3.29790851910E+01	5.32588669597E+01	2.00451897227E+01	-1.77321059324E+02	-4.01713060356E+01	-1.35371673129E+02	-6.05823388529E+00	-1.10434318330E+00
3.10587358368E+05	-1.45758295271E+01	2.83770486532E+01	1.99364904663E+01	-1.77487960526E+02	-3.97153737875E+01	-1.30082886730E+02	-6.12716499426E+00	-9.91452623562E-01
3.10811856525E+05	-1.93404619695E+01	1.83712924891E+01	1.99822612805E+01	-1.76958053968E+02	-4.97792640002E+01	6.97378029289E+01	-6.03468969562E+00	-2.62287226407E-01
3.11036516954E+05	-2.05001988583E+01	5.31627111738E+01	2.00178033293E+01	-1.77483200559E+02	-4.45151786630E+01	1.28181400564E+02	-6.12774282824E+00	-2.36504646713E-01
3.11261339771E+05	-8.67085285106E+00	-4.02607847963E+01	1.98271862735E+01	-1.75997978963E+02	-3.70628356221E+01	-1.85451079642E+01	-5.84469946719E+00	-5.37098099227E-01
3.11486325094E+05	-1.53803734527E+01	8.57845291212E+01	2.00534185898E+01	-1.77480185537E+02	-3.47562553346E+01	1.17597117686E+02	-6.18372838955E+00	1.08417794992E+00
3.11711473040E+05	-1.95261328327E+01	-1.24449476041E+01	1.99807969417E+01	-1.77024659252E+02	-3.61311485550E+01	2.84321680748E+01	-5.82632003932E+00	3.42838960296E-01
3.11936783728E+05	-2.84837364817E+01	5.53549332361E+01	1.99995420491E+01	-1.77165641904E+02	-5.42234727438E+01	2.89463462132E+01	-6.00762838253E+00	-1.07158248575E-01
3.12162257274E+05	-2.30485665824E+01	2.91755546063E+01	2.00210431333E+01	-1.77367145325E+02	-4.12632671760E+01	7.16065595439E+01	-5.99819979361E+00	1.23426665657E-01
3.12387893797E+05	-2.76059075230E+01	-1.88546018370E+01	2.00192451274E+01	-1.76974507293E+02	-6.52663102711E+01	-1.16151854266E+02	-5.98177312413E+00	1.03563420497E-01
3.12613693413E+05	-1.72529321609E+01	-3.19118796585E+01	1.99977234153E+01	-1.76587643398E+02	-4.09941325581E+01	-1.60137638351E+00	-5.91133450265E+00	-2.16538799055E-01
3.12839656242E+05	-1.12000923287E+01	-1.16430488506E+02	2.01280989953E+01	-1.76069574064E+02	-4.38527871870E+01	-5.88683684066E+01	-5.94448503180E+00	-8.22949329642E-01
3.13065782401E+05	-3.62795744371E+01	4.20349554142E+01	2.00425502304E+01	-1.77297002568E+02	-2.73678008657E+01	-7.38800488705E+00	-5.47574992436E+00	-5.96102188157E-01
3.13292072007E+05	-1.79401694505E+01	8.09792180298E+01	1.99942791753E+01	-1.77612048565E+02	-3.56328273724E+01	-9.84064627346E+01	-6.09193264881E+00	-1.49406214891E+00
3.13518525180E+05	-1.66439725613E+01	4.72321972461E+01	1.99657958787E+01	-1.77536220778E+02	-4.41040267791E+01	2.78286888404E+01	-5.98893411126E+00	3.30977144586E-02
3.13745142038E+05	-2.10970353939E+01	-7.57137179808E+01	1.99954930906E+01	-1.76954199490E+02	-4.33362840262E+01	-6.39409145778E+01	-5.97357948718E+00	-5.90832390945E-01
3.13971922698E+05	-1.66777031871E+01	1.46922637358E+01	1.99304497112E+01	-1.77209078831E+02	-4.12570970456E+01	-9.15810413283E+01	-6.02843236591E+00	-7.16693496478E-01
3.14198867279E+05	-2.27434440297E+01	8.75495638493E+01	2.00084241987E+01	-1.77632918342E+02	-5.01354172795E+01	1.75317143551E+02	-6.09635402590E+00	1.93606243042E-01
3.14425975900E+05	-1.46016799072E+01	-9.31601074388E+00	1.99039744450E+01	-1.76826624076E+02	-2.52787573106E+01	1.34246281617E+02	-6.56088610064E+00	3.21696966026E+00
3.14653248680E+05	-2.11006183409E+01	-6.97735103373E+01	1.99840296218E+01	-1.76627172662E+02	-4.18294586649E+01	3.30572367786E+01	-5.94061230193E+00	1.73173147894E-01
3.14880685736E+05	-1.94554894760E+01	1.80318737772E+01	2.00170547120E+01	-1.77247038382E+02	-4.01921936486E+01	1.32591912013E+02	-6.12708441983E+00	-2.16075749011E-01
3.15108287188E+05	-1.42384460345E+01	6.29276581139E+01	1.99387178138E+01	-1.77765680208E+02	-3.75047341970E+01	-5.24524643842E+01	-5.86539863377E+00	-1.22867496891E+00
3.15336053154E+05	-2.27821614474E+01	6.72928438729E+01	2.00278697027E+01	-1.77379587620E+02	-4.74950898351E+01	3.24050303886E+01	-5.97660333759E+00	-1.43693106136E-01
3.15563983753E+05	-2.80742726052E+01	-9.49847397999E-01	1.99589201796E+01	-1.76938712112E+02	-4.72615099905E+01	-9.20169472621E+01	-5.98209830113E+00	-7.51080216224E-01
3.15792079105E+05	-1.56239205763E+01	1.99617194463E+01	1.99262656579E+01	-1.77461541811E+02	-4.15471312217E+01	-4.62695908136E+01	-6.01548070904E+00	-7.43695459482E-01
3.16020339328E+05	-2.43628141347E+01	-1.38435782323E+01	2.00031665334E+01	-1.77095103765E+02	-2.71036136637E+01	1.63357798579E+02	-6.56341027903E+00	5.52802263617E-01
3.16248764542E+05	-1.52015443340E+01	1.38656575335E+02	2.00831524540E+01	-1.77476117486E+02	-4.79190783368E+01	1.47243576260E+02	-6.01336381682E+00	-6.08849185224E-02
3.16477354866E+05	-2.40492914668E+01	1.68226903708E+01	1.99692152850E+01	-1.77416918194E+02	-3.83279390218E+01	-5.07944424300E+01	-5.87848924121E+00	-9.76983795495E-01
3.16706110419E+05	-2.55561489153E+01	-7.70648489489E+01	1.99962021102E+01	-1.77123698989E+02	-4.01410558600E+01	-1.68682725072E+02	-6.06430507705E+00	-6.77660107666E-01
3.16935031321E+05	-2.55132306020E+01	7.97115736480E+01	2.00170348341E+01	-1.77305817394E+02	-3.70542116576E+01	-9.42085929172E+00	-5.84287548082E+00	-3.79322430678E-01
3.17164117691E+05	-1.52073018561E+01	8.45736231646E+01	2.00138768141E+01	-1.77770798078E+02	-4.33479162679E+01	7.26487910284E+01	-5.98494743590E+00	9.87108190197E-02
3.17393369648E+05	-1.70065264726E+01	4.51272558952E+01	1.99584358843E+01	-1.77488452914E+02	-4.32351785601E+01	-3.34269067288E+01	-5.95387007346E+00	-3.98718967258E-01
3.17622787313E+05	-1.67264295239E+01	-8.95141687412E+01	2.00766365197E+01	-1.76630179156E+02	-4.24737601733E+01	-1.23169427003E+02	-6.05283711062E+00	-6.90798932510E-01
3.17852370806E+05	-2.35788935946E+01	-8.42926184914E+01	2.00718867390E+01	-1.77122117144E+02	-2.89395487803E+01	-5.92942523673E+01	-5.70432500169E+00	-2.55515571984E+00
3.18082120245E+05	-1.73605087453E+01	-2.26962076769E+01	1.99452681265E+01	-1.77076172455E+02	-3.95486298761E+01	-1.20126020424E+02	-6.09387260844E+00	-9.10500548635E-01
3.18312035752E+05	-1.63418604071E+01	-3.62935499107E+01	1.99737065171E+01	-1.76988374193E+02	-5.20972806847E+01	1.59771428550E+02	-6.00157070934E+00	-4.70734307162E-01
3.18542117445E+05	-1.48830477694E+01	2.46031598619E+01	1.99236917515E+01	-1.77345706675E+02	-4.89607987422E+01	-1.99351739363E+01	-5.96557431800E+00	-4.49175334761E-01
3.18772365446E+05	-3.93111362580E+01	2.34590293236E+01	2.00272575585E+01	-1.77531332217E+02	-5.01604018047E+01	1.49009021627E+02	-6.07216687715E+00	-1.47197300120E-01
3.19002779874E+05	-2.65363778779E+01	-3.73285749320E+00	2.00470303885E+01	-1.77203212362E+02	-3.62537980949E+01	-2.78178447624E+01	-5.87877713515E+00	-8.87384919709E-01
3.19233360850E+05	-1.24302481311E+01	-1.50585555992E+02	2.01397201239E+01	-1.76805842799E+02	-2.90823740583E+01	6.20842640233E+01	-5.79423064553E+00	2.11065416590E+00
3.19464108494E+05	-2.46104806583E+00	-9.63786339408E+00	1.95419799548E+01	-1.76605180113E+02	-3.44385982894E+01	-8.06773889045E+01	-5.93839626987E+00	-1.86822434751E+00
3.19695022927E+05	-1.50592110376E+01	4.88947407675E+01	1.99768885358E+01	-1.77715440787E+02	-3.41193532143E+01	-7.70662369127E+01	-5.96287382946E+00	-1.49024898434E+00
3.19926104268E+05	-1.97094304252E+01	3.15772056575E+01	1.99336026910E+01	-1.77673884583E+02	-3.89445438866E+01	1.20352017207E+00	-5.91783278116E+00	-4.65526271556E-01
3.20157352640E+05	-1.52017896000E+01	1.53163369521E+01	1.99548265605E+01	-1.77236106830E+02	-3.66551333251E+01	5.65940213879E+01	-5.89874912431E+00	4.34967670277E-01
3.20388768162E+05	-1.75439397935E+01	-1.46013293589E+01	1.99447548270E+01	-1.77274694884E+02	-3.92972044097E+01	-1.53850913455E+02	-6.16230180254E+00	-9.59196147739E-01
3.20620350955E+05	-2.82228154211E+01	6.36680547920E+01	2.00181466669E+01	-1.77513731305E+02	-3.73338116104E+01	1.24626967602E+02	-6.12507801986E+00	4.58601584775E-01
3.20852101140E+05	-1.99677346973E+01	5.63927801021E+01	1.99710825346E+01	-1.77828227662E+02	-3.11833406104E+01	1.77034324659E+02	-6.35635452295E+00	-2.12074306320E-01
3.21084018839E+05	-2.25407205211E+01	-1.52987836720E+02	2.00922495687E+01	-1.77379044540E+02	-3.03577679523E+01	-3.07050553120E+01	-5.60891790655E+00	-1.19605532571E+00
3.21316104172E+05	-1.98510224148E+01	4.51864095225E+01	1.99949011184E+01	-1.77791927080E+02	-4.04169104878E+01	7.38457092686E-01	-5.89374371828E+00	-2.32648937273E-01
3.21548357261E+05	-1.69504918788E+01	-2.73201282792E+01	1.99505704006E+01	-1.77239819363E+02	-5.71590033534E+01	-6.55086051921E+01	-6.00227833835E+00	-8.43737054912E-01
3.21780778226E+05	-1.65912569946E+01	6.68376329865E+01	2.00311193021E+01	-1.77802856147E+02	-4.00291500995E+01	6.22165122354E+01	-6.00532633068E+00	2.45860166986E-01
3.22013367189E+05	-2.11404690103E+01	-3.55741060315E+01	1.99407297950E+01	-1.77013216831E+02	-3.82933135107E+01	-1.00962627130E+02	-6.03526206887E+00	-7.67941423566E-01
3.22246124272E+05	-2.39916581163E+01	6.57295321092E+01	1.99991224416E+01	-1.77755039253E+02	-3.69354608855E+01	-3.34192610616E+00	-5.83305918194E+00	-2.49501649369E-01
3.22479049596E+05	-1.37881550940E+01	-5.06357643616E+01	1.99793421760E+01	-1.76572193829E+02	-2.88202087127E+01	-1.68512652354E+02	-6.49702710293E+00	-5.41249161766E-01
3.22712143282E+05	-1.19935773606E+01	2.82121519960E+01	1.98163833883E+01	-1.77678932270E+02	-2.71292909052E+01	7.41612189742E+01	-5.86503812677E+00	3.24947667878E+00
3.22945405453E+05	-2.11653268887E+01	5.47469310289E+01	2.00022056649E+01	-1.77585129805E+02	-4.42101384689E+01	-5.00319847875E+00	-5.96459197909E+00	-4.42093283610E-01
3.23178836230E+05	-2.44124937629E+01	1.59624194550E+02	2.00493763534E+01	-1.77351278637E+02	-4.07813513197E+01	8.45370310867E+01	-6.02424302732E+00	3.98494306896E-01
3.23412435735E+05	-2.76691182664E+01	7.30887881124E+01	2.00131354686E+01	-1.77451020522E+02	-3.87645263791E+01	8.21877884070E+00	-5.92461440857E+00	-1.78741316901E-01
3.23646204090E+05	-1.30771837339E+01	-6.46408625102E+01	1.99718367674E+01	-1.76603506694E+02	-3.93105156109E+01	-4.00609887981E+00	-5.88657960142E+00	-1.63641732347E-01
3.23880141417E+05	-1.68109401360E+01	9.66708944839E+01	2.00454697669E+01	-1.77925454144E+02	-4.01931472680E+01	-4.04183820104E-01	-5.89838714013E+00	-1.73176340218E-01
3.24114247838E+05	-1.97990548723E+01	4.18961961718E+01	1.99872608168E+01	-1.77647863841E+02	-3.63651566076E+01	-1.03257908594E+02	-6.05652259326E+00	-1.93075801213E+00
3.24348523475E+05	-6.47913622486E+00	2.41075747995E+01	1.97806198090E+01	-1.78612435967E+02	-3.53799083121E+01	-1.60483627637E+02	-6.23568691690E+00	-8.06265502000E-01
3.24582968451E+05	-2.05081328943E+01	-7.69258641298E+01	1.99796781913E+01	-1.76983649189E+02	-4.55742847238E+01	1.33979421881E+02	-6.04926133743E+00	-2.76090092865E-01
3.24817582888E+05	-1.49714807030E+01	1.12644560377E+01	1.99141033453E+01	-1.77463745792E+02	-3.79530879981E+01	-7.92418815668E+01	-5.96571895942E+00	-1.17678460555E+00
3.25052366909E+05	-1.83035090685E+01	5.10963262898E+01	1.99594373520E+01	-1.77772283084E+02	-5.12473487399E+01	1.77757836123E+00	-5.96778127810E+00	-1.37722299283E-01
3.25287320635E+05	-1.63909210709E+01	9.80383481895E+01	2.00223296101E+01	-1.78009919979E+02	-4.60704903863E+01	1.49003440865E+02	-6.02401181787E+00	3.19012769570E-02
3.25522444191E+05	-1.36781061953E+01	3.34513840464E+01	1.99484429477E+01	-1.77730674196E+02	-3.88511505399E+01	-1.55594810943E+02	-6.14351334712E+00	-6.84402123167E-01
3.25757737698E+05	-1.84840276172E+01	4.88115550855E+01	1.99596894876E+01	-1.77912501690E+02	-4.01838876378E+01	-1.41546566823E+02	-6.12125593489E+00	-8.95459167177E-01
3.25993201280E+05	-1.45239640514E+01	-7.50668472588E-01	1.98803390738E+01	-1.77590715294E+02	-3.81531903757E+01	-1.70972976906E+02	-6.16975672287E+00	-5.68595602915E-01
3.26228835058E+05	-1.39074785559E+01	-3.67696816680E+01	1.99144871605E+01	-1.76954484071E+02	-5.41351409830E+01	-7.40863101881E+01	-5.98761307640E+00	-6.55671676445E-01
