# Hz S DB R 50
! CMT, M5065, 19127446, 24.2.4/2
! Date: 11/1/2024 3:42:52 PM
! Data: Format (Calibration Info)
! Freq	S11:dB/Ang(F2)	S21:dB/Ang(F2)	S12:dB/Ang(F2)	S22:dB/Ang(F2)
3.00000000000E+05	-2.12425634530E+01	-2.66412122299E+01	1.77703983912E+01	-1.76942602681E+02	-3.41342645220E+01	7.62334949503E+01	-6.05746707016E+00	9.18690466040E-01
3.00216845423E+05	-1.56390302766E+01	2.60613379247E+01	1.77745668895E+01	-1.77473679236E+02	-4.56703592370E+01	1.44427625555E+02	-6.09093012515E+00	-2.07797768140E-01
3.00433847586E+05	-2.89105088967E+01	-1.24729621528E+02	1.78625742763E+01	-1.76680315720E+02	-4.62212215129E+01	-1.66683899138E+02	-6.04169512812E+00	-4.96944325518E-01
3.00651006602E+05	-1.29187617862E+01	6.06664929410E+01	1.77610920175E+01	-1.78209161965E+02	-3.76495098985E+01	-1.08382606668E+02	-6.08396783858E+00	-7.54663829659E-01
3.00868322584E+05	-4.00967076011E+01	-1.54496239068E+02	1.78541465988E+01	-1.77131697084E+02	-4.13475290760E+01	1.13856386793E+02	-6.05482391415E+00	6.43429282082E-02
3.01085795647E+05	-2.59213745595E+01	-1.39025952643E+02	1.78480684427E+01	-1.76732475289E+02	-5.07617831661E+01	-5.94428214938E+00	-6.00615145740E+00	-3.43701603487E-01
3.01303425902E+05	-1.84208418520E+01	4.92309327864E+01	1.78074104992E+01	-1.77186339635E+02	-3.31993983198E+01	-2.61908104519E+01	-5.83367522567E+00	-9.06916741465E-01
3.01521213465E+05	-2.23446745715E+01	4.02721221692E+01	1.77929902967E+01	-1.77429919472E+02	-3.34104141869E+01	5.71614095683E+01	-5.97315446814E+00	1.04118485572E+00
3.01739158449E+05	-2.16297701623E+01	-1.29514704104E+02	1.78872948391E+01	-1.76957746079E+02	-4.54669332599E+01	8.12714817040E+01	-6.03078035345E+00	-2.59604978802E-01
3.01957260967E+05	-7.96564026253E+00	9.67313486884E+01	1.78803940125E+01	-1.78887054593E+02	-3.52996130409E+01	1.66315648199E+02	-6.16233975348E+00	-1.15368608219E-01
3.02175521134E+05	-1.11900055324E+01	-7.85875470853E+01	1.78118629769E+01	-1.75909323124E+02	-4.01867648431E+01	-1.46109774776E+02	-6.13325932911E+00	-5.50050496653E-01
3.02393939063E+05	-2.34502917826E+01	-8.94123503570E+01	1.78646849070E+01	-1.76850758393E+02	-3.99402582811E+01	6.06377651667E+01	-5.99479237782E+00	3.62945666080E-01
3.02612514869E+05	-1.40923513360E+01	4.44464024464E+01	1.77801595210E+01	-1.77356070473E+02	-3.29157176403E+01	-6.25938235267E+01	-5.89001442434E+00	-1.25726307843E+00
3.02831248665E+05	-1.81972122960E+01	6.66259540520E+01	1.77808795367E+01	-1.77534941253E+02	-3.09040528402E+01	5.92033658567E+01	-5.86217115534E+00	1.24617947880E+00
3.03050140565E+05	-2.99318247884E+01	-1.67771607266E+01	1.78328138819E+01	-1.77208545818E+02	-3.12438858383E+01	4.32325702542E+01	-5.90378194827E+00	1.05018329846E+00
3.03269190685E+05	-1.69285989958E+01	-1.59962772178E+01	1.77571357623E+01	-1.76920283183E+02	-3.54084296395E+01	1.09654037757E+02	-6.05430075299E+00	3.99170981051E-01
3.03488399138E+05	-1.36763793010E+01	4.07446801556E+00	1.76943196474E+01	-1.77145106197E+02	-4.23663703987E+01	1.04728205517E+02	-6.10085201496E+00	5.56132541282E-02
3.03707766039E+05	-9.10915992485E+00	3.25652952090E+01	1.76362156651E+01	-1.77880931055E+02	-4.74328331607E+01	-1.39797517530E+02	-6.03637482219E+00	-8.85505583342E-02
3.03927291503E+05	-2.02018283077E+01	-2.74943458305E+01	1.78075279614E+01	-1.76866450630E+02	-3.23877832124E+01	1.43793240473E+02	-6.21116134357E+00	4.03477251233E-01
3.04146975643E+05	-2.07777204809E+01	-1.54308832554E+02	1.78315308294E+01	-1.77097457806E+02	-3.27961385835E+01	-1.36647065426E+02	-6.17562892876E+00	-1.31891283429E+00
3.04366818575E+05	-3.88748659220E+01	-1.19289101749E+02	1.78144741731E+01	-1.77145142798E+02	-4.07060002730E+01	-7.49472178162E+01	-6.01063447898E+00	-9.58372384466E-01
3.04586820414E+05	-1.70586930648E+01	-2.77822482059E+01	1.77840900609E+01	-1.76722557727E+02	-3.77290974521E+01	5.64367926662E+00	-5.85997286975E+00	-1.13316735366E-01
3.04806981274E+05	-1.86071624068E+01	9.02947851094E+01	1.78518447070E+01	-1.77311452729E+02	-3.90823541745E+01	-3.26342481125E+01	-5.91656124523E+00	-4.59983166985E-01
3.05027301270E+05	-1.68882124611E+01	-1.63711813963E+01	1.77589283938E+01	-1.77002242034E+02	-4.09231504512E+01	1.57067284383E+02	-6.11701839883E+00	9.54365428780E-02
3.05247780517E+05	-2.06807764776E+01	1.29622769628E+02	1.78930596347E+01	-1.77959790584E+02	-3.83109975054E+01	9.25787895129E+01	-6.03855049997E+00	1.62781059518E-01
3.05468419131E+05	-2.48350709492E+01	1.17168865396E+02	1.78925958599E+01	-1.77320889357E+02	-4.34208960510E+01	8.33185972124E+01	-6.03430142463E+00	5.71565013933E-02
3.05689217226E+05	-2.31500743900E+01	4.24403087722E+01	1.77993820166E+01	-1.77460105488E+02	-4.10795281813E+01	9.15607675508E+01	-6.04225665022E+00	-3.79126090153E-02
3.05910174918E+05	-2.03416704895E+01	-3.88767770090E+01	1.77946612139E+01	-1.76816671314E+02	-3.33086485951E+01	4.79056276073E+01	-5.87757745678E+00	6.54663612634E-01
3.06131292322E+05	-4.94330382354E+01	-1.27144400669E+02	1.78161168918E+01	-1.77068222709E+02	-3.69857017579E+01	-9.44520730130E+01	-6.01199885115E+00	-1.46145172285E+00
3.06352569554E+05	-2.17071607489E+01	-4.70680047394E+01	1.77868530392E+01	-1.76952601348E+02	-4.94373377271E+01	3.01398533820E+01	-6.04063420067E+00	-1.45385346133E-01
3.06574006730E+05	-1.14940721611E+01	-1.60649771366E+02	1.79762757727E+01	-1.76667515361E+02	-4.04390122098E+01	-1.05645518831E+02	-6.07171254687E+00	-8.66418894112E-01
3.06795603964E+05	-1.62290073302E+01	1.00010113428E+02	1.78560813030E+01	-1.77651295939E+02	-3.65161887972E+01	5.58138409023E+01	-5.99541621668E+00	2.68845131531E-01
3.07017361372E+05	-1.75167236615E+01	-1.47751042964E+01	1.77469770373E+01	-1.76966475834E+02	-3.75706328727E+01	-4.85003187667E+01	-5.89429153811E+00	-5.95053452697E-01
3.07239279071E+05	-2.01461462574E+01	2.21761830383E+01	1.77487446200E+01	-1.77358181083E+02	-3.60603310789E+01	9.62419599793E+01	-6.02321667921E+00	1.66631690178E-01
3.07461357176E+05	-1.78845994011E+01	4.95446888141E+01	1.78183282711E+01	-1.77422512427E+02	-3.40520029954E+01	-8.19592658202E+01	-5.97032152990E+00	-1.47093643428E+00
3.07683595803E+05	-1.96084378761E+01	8.57651256327E+01	1.77674567891E+01	-1.77833461721E+02	-2.91679924052E+01	-1.74900723243E+02	-6.38425950536E+00	-9.46361700592E-01
3.07905995068E+05	-1.71551904027E+01	1.51908531137E+01	1.77436017748E+01	-1.77421221420E+02	-3.99531626647E+01	-1.32684804512E+02	-6.06244967081E+00	-8.09388785858E-01
3.08128555087E+05	-1.64265596496E+01	6.43270677659E+01	1.78061921573E+01	-1.77646891331E+02	-4.00471298178E+01	5.52047703204E+01	-5.93398792896E+00	3.80241330922E-01
3.08351275976E+05	-1.73760366428E+01	4.12220332024E+01	1.77723154743E+01	-1.77557027395E+02	-4.28354237016E+01	3.80093718911E+01	-5.96777886643E+00	1.62295865836E-02
3.08574157853E+05	-1.76974230471E+01	1.14616867661E+02	1.78312157209E+01	-1.77524418838E+02	-4.26135630938E+01	-7.87339956062E+01	-6.03735403947E+00	-7.89465528724E-01
3.08797200832E+05	-2.10637004413E+01	-5.06437030047E+01	1.78121772189E+01	-1.77207185278E+02	-3.97835739704E+01	-5.30966144363E+01	-5.97685832122E+00	-8.47515327946E-01
3.09020405031E+05	-2.77399384651E+01	1.58285627722E+02	1.78461424024E+01	-1.77061652949E+02	-3.16383161000E+01	9.13096221852E+00	-5.76655043154E+00	1.64987428471E-01
3.09243770566E+05	-3.16070452502E+01	1.32777511991E+02	1.78485303149E+01	-1.77114260541E+02	-3.26649074250E+01	-1.65995798352E+02	-6.21108685140E+00	-5.23184001743E-01
3.09467297553E+05	-1.77278934428E+01	1.42663154569E+02	1.79113570424E+01	-1.77583140914E+02	-5.07330020353E+01	1.26813423130E+02	-6.06516307680E+00	-5.32415817645E-01
3.09690986110E+05	-1.36911207180E+01	6.22734482837E+01	1.77675462102E+01	-1.77884405447E+02	-4.81725767570E+01	1.15316683936E+02	-6.02339234845E+00	-3.52192068769E-01
3.09914836353E+05	-1.54057113309E+01	9.75293836576E+01	1.78567668431E+01	-1.77649077310E+02	-4.51914299078E+01	-9.40134454457E+01	-6.00988367762E+00	-4.29336580533E-01
3.10138848399E+05	-1.24400649642E+01	1.48345432747E+01	1.76965674507E+01	-1.77529275767E+02	-3.67459574915E+01	4.77814861150E+01	-5.94434805606E+00	1.75033933374E-01
3.10363022365E+05	-2.09878459967E+01	5.61234094190E+01	1.78117286646E+01	-1.77544466090E+02	-4.13107578143E+01	1.49214559834E+02	-6.05914593068E+00	6.02680446838E-02
3.10587358368E+05	-1.65614560048E+01	-1.17920201466E+02	1.78685823479E+01	-1.76909082364E+02	-4.39055690259E+01	-1.35889971335E+02	-6.10910751900E+00	-1.99865418352E-01
3.10811856525E+05	-2.62502957477E+01	-3.79306523589E+01	1.78165632112E+01	-1.77367903995E+02	-3.52890235195E+01	4.31122436486E+01	-5.89575169575E+00	6.29761735314E-01
3.11036516954E+05	-2.43724131997E+01	-4.06532225478E+01	1.77856998626E+01	-1.76884746239E+02	-3.62072786153E+01	8.31914573949E+01	-6.02938962843E+00	7.13495567289E-01
3.11261339771E+05	-1.68848204691E+01	-1.47279005557E+02	1.79584711725E+01	-1.77018687043E+02	-3.87009018721E+01	1.62523916295E+02	-6.11709344078E+00	-4.50103412994E-02
3.11486325094E+05	-1.06052211791E+01	-6.22022979626E+00	1.76532753736E+01	-1.76709187617E+02	-4.56826896808E+01	1.57563225681E+01	-6.04728578228E+00	-2.93259794774E-02
3.11711473040E+05	-2.16042757870E+01	1.45416426187E+02	1.79074403320E+01	-1.77641115434E+02	-4.15263533525E+01	-9.47173511522E+01	-6.02130133178E+00	-7.37426254317E-01
3.11936783728E+05	-1.60375040894E+01	2.42755002970E+01	1.77007249425E+01	-1.77462342131E+02	-4.48672564111E+01	1.04446488701E+02	-6.02134360858E+00	1.76684332558E-01
3.12162257274E+05	-1.83248562005E+01	-2.09112554689E+01	1.77812834510E+01	-1.77019539097E+02	-3.55801513902E+01	-1.16135224786E+02	-6.09950209126E+00	-1.24317014522E+00
3.12387893797E+05	-1.76887031628E+01	-3.06571614862E+01	1.77572728975E+01	-1.77150840869E+02	-3.36313480295E+01	3.36491701703E+01	-5.78914687151E+00	4.71717349982E-01
3.12613693413E+05	-2.19250056375E+01	5.04255314207E+01	1.78276895119E+01	-1.77523937018E+02	-4.15023494146E+01	7.41439340967E+01	-6.08021725561E+00	1.32464496267E-01
3.12839656242E+05	-2.80536201119E+01	5.50390620874E+01	1.78590251873E+01	-1.77485485117E+02	-4.91714238260E+01	-3.54553547071E+01	-5.99597119581E+00	-4.25225192381E-01
3.13065782401E+05	-1.68145694437E+01	3.75202281120E+01	1.77515001884E+01	-1.78119962440E+02	-4.19284434017E+01	-1.75340156633E+02	-6.09348562946E+00	-5.01403442420E-01
3.13292072007E+05	-1.83036773413E+01	2.48221102245E+01	1.77803808489E+01	-1.77484838186E+02	-3.91777448997E+01	3.15936852085E+01	-5.96613831009E+00	3.82775592364E-01
3.13518525180E+05	-3.39883850962E+01	-5.66134340592E+01	1.78031757983E+01	-1.77354882445E+02	-3.91052437506E+01	6.24261824878E+01	-5.98088180836E+00	8.47244580602E-02
3.13745142038E+05	-1.07190702296E+01	3.21192469543E+01	1.76854365890E+01	-1.77932790595E+02	-4.26878550033E+01	2.74840168218E+01	-5.96127379337E+00	-3.87678575909E-02
3.13971922698E+05	-1.51201717869E+01	5.78518411742E+01	1.78233529194E+01	-1.77710958318E+02	-3.03602714331E+01	-1.02277491956E+01	-5.67420688221E+00	-2.06827972373E-01
3.14198867279E+05	-1.66337465842E+01	-1.61258323094E+01	1.77551817211E+01	-1.77102122670E+02	-3.61010170833E+01	2.40774799484E+01	-5.84256049872E+00	1.77955131359E-01
3.14425975900E+05	-1.63415120242E+01	4.01061626100E+01	1.77772412359E+01	-1.77842764868E+02	-4.98356049415E+01	-1.46670899708E+02	-6.05119019140E+00	-3.25073515615E-01
3.14653248680E+05	-6.78186800432E+00	2.40459912587E+01	1.75387126611E+01	-1.77964399899E+02	-4.15286266880E+01	1.02865601808E+02	-6.06772238241E+00	2.31117338671E-01
3.14880685736E+05	-2.20179104342E+01	1.67654458096E+02	1.78594796552E+01	-1.77413972805E+02	-3.54362914444E+01	5.58441035532E+01	-5.90593678828E+00	3.11572883233E-01
3.15108287188E+05	-1.39874213049E+01	-3.67851430278E+01	1.77674849299E+01	-1.77237758326E+02	-5.89807524405E+01	1.26663268027E+01	-6.03307704039E+00	-3.32460590348E-01
3.15336053154E+05	-1.99308909717E+01	-3.09633905307E+00	1.77935290353E+01	-1.77256480669E+02	-3.42129620268E+01	3.77164271430E+01	-5.93983440419E+00	5.42064254097E-01
3.15563983753E+05	-2.58810503950E+01	7.07807981980E+01	1.78532967485E+01	-1.77522535269E+02	-2.77364126669E+01	2.87283464491E+01	-5.70813306047E+00	1.32635416704E+00
3.15792079105E+05	-1.55996710797E+01	-3.46861971646E+01	1.77551230216E+01	-1.76881750443E+02	-4.25025505988E+01	-1.29132112557E+02	-6.06445665320E+00	-1.26550498147E+00
3.16020339328E+05	-2.14256894991E+01	9.91137839957E+01	1.78358159894E+01	-1.77617079153E+02	-4.13090155332E+01	7.90996529820E+01	-5.98711989320E+00	-2.92890428113E-02
3.16248764542E+05	-8.71253046590E+00	-5.73499496772E+01	1.77186507486E+01	-1.76028265507E+02	-4.07826630994E+01	1.79577457100E+02	-6.09646613845E+00	-4.07842454476E-01
3.16477354866E+05	-2.13845144321E+01	3.04812238404E+01	1.78214450851E+01	-1.77659843276E+02	-3.30458123242E+01	-1.51564584503E+02	-6.19863858509E+00	-9.71781185461E-01
3.16706110419E+05	-1.70748990323E+01	-5.43148351944E+01	1.78175221862E+01	-1.77189143991E+02	-3.58100299959E+01	-1.02072293449E+02	-6.01198477153E+00	-1.20300277732E+00
3.16935031321E+05	-2.80185593585E+01	-1.88008738948E+01	1.78145089017E+01	-1.77471091115E+02	-3.53358909986E+01	-1.03015846777E+02	-6.06644084811E+00	-1.11558932631E+00
3.17164117691E+05	-1.96846334863E+01	-3.72823479245E+01	1.77758949253E+01	-1.77308179956E+02	-3.33217979597E+01	3.31895744246E+01	-5.87763012128E+00	2.76219062814E-01
3.17393369648E+05	-1.92089329339E+01	2.65492546681E+01	1.77650502172E+01	-1.77752948761E+02	-4.41371835492E+01	1.99461605206E+01	-5.91817535013E+00	6.69936152823E-02
3.17622787313E+05	-2.22301842830E+01	-4.84740211999E+01	1.78580708822E+01	-1.77220228483E+02	-4.64741159097E+01	1.31707822606E+02	-6.04467378799E+00	-7.09200664066E-02
3.17852370806E+05	-1.91487986464E+01	-1.20849480048E+02	1.78832459108E+01	-1.76970737626E+02	-4.63834259619E+01	1.04363546732E+02	-5.99797138250E+00	-2.75330921155E-02
3.18082120245E+05	-2.66079930716E+01	6.13322604643E+01	1.78163583299E+01	-1.77867265340E+02	-4.03279143571E+01	-8.33767317022E+01	-6.03569036036E+00	-9.35410305383E-01
3.18312035752E+05	-1.79608497619E+01	-1.44573003104E+01	1.78260283827E+01	-1.77278132784E+02	-3.58614367468E+01	1.47281708921E+02	-6.12348993985E+00	7.23439201339E-02
3.18542117445E+05	-1.88737167280E+01	-2.66438386829E+01	1.78065591330E+01	-1.77379919816E+02	-5.73213019425E+01	1.60734697816E+02	-6.01050126548E+00	-4.81337484021E-01
3.18772365446E+05	-1.94979975986E+01	1.35716979657E+02	1.78314869746E+01	-1.77593126852E+02	-3.19490169581E+01	-2.53442451065E+01	-5.78456124759E+00	-8.72084060979E-01
3.19002779874E+05	-1.94807725453E+01	4.62438210895E-01	1.77846069481E+01	-1.77342525909E+02	-3.12899674216E+01	-1.07228364471E+02	-6.09867163773E+00	-2.15529145375E+00
3.19233360850E+05	-3.38911496768E+01	1.79818441994E+02	1.78705368004E+01	-1.77591071976E+02	-4.10814439786E+01	-1.10426320322E+02	-6.04812898849E+00	-8.34650834265E-01
3.19464108494E+05	-1.51471186509E+01	1.20505109919E+02	1.79214490769E+01	-1.78142354926E+02	-3.59101068681E+01	-1.65562124922E+02	-6.10045637365E+00	-7.18723582832E-01
3.19695022927E+05	-1.73774904198E+01	-2.21271436799E+00	1.77138310202E+01	-1.77482926513E+02	-3.64969090262E+01	5.78424508622E+01	-5.98075033472E+00	3.92507919615E-01
3.19926104268E+05	-2.56993756844E+01	1.63824589331E+02	1.78852616866E+01	-1.77659305685E+02	-3.69617847783E+01	-1.37364998928E+02	-6.15392184240E+00	-9.93971716619E-01
3.20157352640E+05	-2.01142241368E+01	-3.13458006700E+01	1.77722782035E+01	-1.77304908529E+02	-3.04466597799E+01	-5.16168228148E+00	-5.75697796855E+00	-1.45270277031E-01
3.20388768162E+05	-1.92015164135E+01	5.69566465521E+01	1.77941813604E+01	-1.77773423611E+02	-4.98175560297E+01	8.34133944197E+01	-6.05131272017E+00	2.34016988551E-01
3.20620350955E+05	-2.02150125230E+01	4.70335333575E+01	1.77879353168E+01	-1.77799423757E+02	-3.67218763679E+01	6.23858714198E+01	-5.98831640978E+00	6.70789369669E-01
3.20852101140E+05	-2.23377538922E+01	-1.90033593817E+01	1.78060540236E+01	-1.77390108287E+02	-4.39978189141E+01	-1.57927454707E+02	-6.04729106403E+00	-6.20155125841E-01
3.21084018839E+05	-8.10684804070E+00	6.06328638028E+01	1.76678257247E+01	-1.78991217880E+02	-4.12344275086E+01	-2.69348491800E+01	-5.98201584425E+00	-3.77382512281E-01
3.21316104172E+05	-2.07674148488E+01	-1.95535475224E+01	1.78163386796E+01	-1.77399950446E+02	-3.68181396444E+01	1.54356446368E+02	-6.13782620288E+00	-2.89362154751E-01
3.21548357261E+05	-1.73154608621E+01	-2.81913781108E+01	1.77612597415E+01	-1.77537499736E+02	-4.03711225915E+01	1.00491872455E+01	-5.98647757449E+00	-1.18440857975E-01
3.21780778226E+05	-2.02579356232E+01	-4.01756508473E+01	1.78049622480E+01	-1.77215680697E+02	-4.34877049698E+01	1.64875260263E+02	-6.05834556053E+00	-3.12537903149E-02
3.22013367189E+05	-2.01594802563E+01	6.26518988337E+01	1.78172741083E+01	-1.78073263643E+02	-4.04059858522E+01	1.72971094785E+01	-5.92418423735E+00	-1.17504694188E-01
3.22246124272E+05	-1.61173760189E+01	3.56610801952E+01	1.77943542407E+01	-1.77869293594E+02	-5.18149892033E+01	-1.16553702492E+02	-6.01913559302E+00	-3.25049548180E-01
3.22479049596E+05	-1.68986152338E+01	-5.73508291276E+01	1.77710908504E+01	-1.77214005141E+02	-4.34798364229E+01	8.92737157342E+01	-6.02252775472E+00	1.06871614722E-01
3.22712143282E+05	-1.38793244339E+01	9.88853732862E+01	1.78608914502E+01	-1.78411713908E+02	-4.57335522443E+01	1.74920824423E+02	-6.11909908168E+00	-2.40867120115E-01
3.22945405453E+05	-1.70010335277E+01	-4.87615522094E+00	1.77209559124E+01	-1.77587124639E+02	-3.74422411484E+01	-1.02307143139E+02	-6.05700647394E+00	-9.00937491201E-01
3.23178836230E+05	-1.94211535986E+01	4.71816740738E+01	1.77924069125E+01	-1.77658048679E+02	-4.02323687189E+01	-2.16100442283E+01	-5.94817594248E+00	-8.86056831585E-01
3.23412435735E+05	-2.44385312371E+01	5.91050159855E+00	1.78109827621E+01	-1.77606492357E+02	-4.01968060661E+01	7.72409164910E+01	-6.02821011138E+00	3.53714024350E-01
3.23646204090E+05	-1.85368475080E+01	-7.21915812261E+01	1.78085452998E+01	-1.77126912844E+02	-4.28392019639E+01	-1.47906516697E+02	-6.08928164897E+00	-3.15191264848E-01
3.23880141417E+05	-2.27981572800E+01	-4.92712461490E+01	1.78187804877E+01	-1.77441992301E+02	-2.61756462158E+01	3.91291933960E+01	-5.58353652107E+00	1.77778818222E+00
3.24114247838E+05	-1.98731094962E+01	7.18909596048E+01	1.78130109443E+01	-1.77979944848E+02	-3.63821938551E+01	-1.49550121289E+01	-5.92266084545E+00	-5.93233279377E-01
3.24348523475E+05	-8.48283057317E+00	2.09389256977E+01	1.75592368779E+01	-1.78301387794E+02	-3.81804392804E+01	6.27791696599E+01	-5.96731074068E+00	3.43180460797E-01
3.24582968451E+05	-1.23726483498E+01	3.17866185708E+01	1.76940273762E+01	-1.78206061457E+02	-4.19667212534E+01	1.23039412278E+02	-6.08682722781E+00	3.40814505090E-01
3.24817582888E+05	-2.44676954249E+01	-2.00958713086E+01	1.78082917854E+01	-1.77625622612E+02	-4.12763948999E+01	-3.46156801585E+01	-5.94898281205E+00	-7.43750322939E-01
3.25052366909E+05	-1.74951433689E+01	3.34378179443E+01	1.77559404782E+01	-1.77859330366E+02	-4.13109890979E+01	-2.49927713926E+01	-5.98051895325E+00	-4.88897777755E-01
3.25287320635E+05	-2.74886300334E+01	-5.05370781312E+01	1.78253577416E+01	-1.77547229712E+02	-3.73729065107E+01	6.62463848473E+01	-6.00891890967E+00	7.19099727535E-01
3.25522444191E+05	-2.15758434057E+01	1.19292903243E+02	1.78178953044E+01	-1.77918858974E+02	-3.71538124920E+01	-1.90718542733E+01	-5.87174234650E+00	-6.32377453854E-01
3.25757737698E+05	-1.57750062774E+01	4.49505289181E+01	1.77546311669E+01	-1.77982932678E+02	-3.57748038840E+01	-3.30764934575E+01	-5.95263532579E+00	-9.35024438033E-01
3.25993201280E+05	-8.24446813998E+00	9.43434305225E+01	1.78584100142E+01	-1.79457402112E+02	-5.14641357865E+01	4.07542685512E+00	-6.03996848103E+00	-1.74277999705E-01
3.26228835058E+05	-1.52290831156E+01	-1.19036830272E+02	1.79044798810E+01	-1.76895249172E+02	-4.21353477734E+01	-2.50723233044E+01	-5.97636986437E+00	-5.74172254262E-01
