# Hz S DB R 50
! CMT, M5065, 19127446, 24.2.4/2
! Date: 11/1/2024 3:49:17 PM
! Data: Format (Calibration Info)
! Freq	S11:dB/Ang(F2)	S21:dB/Ang(F2)	S12:dB/Ang(F2)	S22:dB/Ang(F2)
3.00000000000E+05	-1.77251785000E+01	1.77554797870E+02	2.68252405199E+01	-1.75012425051E+02	-5.21073123647E+01	-1.70177628511E+01	-5.92831703089E+00	-4.91052579416E-01
3.00216845423E+05	-1.59159583569E+01	3.31420687484E+01	2.66773221932E+01	-1.75514270570E+02	-4.47696652241E+01	1.21381351251E+02	-6.10388244250E+00	2.24230960967E-02
3.00433847586E+05	-1.63887357486E+01	-1.67853830249E+02	2.68348330855E+01	-1.75261298466E+02	-3.18249374118E+01	1.66724922054E+01	-5.32100744432E+00	1.07936977475E+00
3.00651006602E+05	-1.65763308097E+01	3.39092604585E+01	2.66542278497E+01	-1.75665319550E+02	-2.61347675545E+01	4.58272086269E+01	-5.17188404345E+00	5.51985887557E+00
3.00868322584E+05	-1.25051021904E+01	5.56181714197E+00	2.66156304147E+01	-1.75242623596E+02	-4.08847723593E+01	-4.69382336495E+00	-5.87737555037E+00	-6.22740177067E-01
3.01085795647E+05	-1.42045927319E+01	-2.36774071381E+01	2.66512904052E+01	-1.75044283916E+02	-3.60559732835E+01	-1.74968146194E+02	-6.34216788159E+00	-4.73049285337E-01
3.01303425902E+05	-7.14599566235E+00	1.18655397436E+01	2.64728306959E+01	-1.75915496565E+02	-4.27434702359E+01	-2.69278595220E+01	-5.86567035511E+00	-1.28879549073E+00
3.01521213465E+05	-1.25018124685E+01	-2.84455877846E+01	2.66084388208E+01	-1.74853115853E+02	-4.94305148526E+01	-2.12383476960E+01	-5.96548211428E+00	-5.64488425106E-01
3.01739158449E+05	-2.02725870247E+01	5.41671243733E+00	2.66929088294E+01	-1.75352266706E+02	-3.84938444308E+01	-1.14748880792E+02	-6.14013200403E+00	-2.48438116965E+00
3.01957260967E+05	-1.87015096160E+01	-1.12121752676E+01	2.67220111449E+01	-1.75158354735E+02	-3.02234127421E+01	-1.53254322699E+02	-6.60830124217E+00	-2.92991622555E+00
3.02175521134E+05	-2.07782709825E+01	-5.34783452666E+01	2.67278798280E+01	-1.75184034553E+02	-3.28255355685E+01	1.91477253598E+01	-5.47054212038E+00	1.00453492810E+00
3.02393939063E+05	-2.23919724945E+01	6.49348116137E+01	2.67512268095E+01	-1.75430142535E+02	-4.86878900603E+01	-4.68016947701E+00	-5.90506499721E+00	-3.34026903807E-01
3.02612514869E+05	-1.80175763233E+01	-1.74895805675E+01	2.66967306836E+01	-1.75594834291E+02	-4.38367253582E+01	-4.40331370763E+01	-5.95911537949E+00	-8.99200865349E-01
3.02831248665E+05	-1.46369614439E+01	-2.57880166132E+00	2.66144161182E+01	-1.75518066847E+02	-3.51890688999E+01	-1.12262721606E+01	-5.58288029554E+00	-6.96184763626E-01
3.03050140565E+05	-1.78153108910E+01	-6.87672600915E+01	2.67510556776E+01	-1.74943958149E+02	-3.82287633834E+01	1.74969569857E+02	-6.33901693065E+00	-5.94069153563E-01
3.03269190685E+05	-2.83216593645E+01	-5.95762691075E+01	2.67262283621E+01	-1.75373647997E+02	-4.12693074081E+01	-5.97705740852E+01	-5.84160762246E+00	-1.55358301105E+00
3.03488399138E+05	-2.41353246974E+01	-8.57901207393E+01	2.67354277936E+01	-1.75214885306E+02	-4.32038628998E+01	-9.82525633086E+01	-5.91256684340E+00	-1.22090952582E+00
3.03707766039E+05	-2.00961840229E+01	-3.91790507843E+01	2.67269485232E+01	-1.75168257590E+02	-2.78682950504E+01	4.82994717223E+01	-5.33079818906E+00	5.81170702578E+00
3.03927291503E+05	-2.05583355584E+01	1.48772240595E+01	2.66873816851E+01	-1.75698180649E+02	-4.91261364459E+01	-1.66241903291E+02	-6.02377205795E+00	-7.02703941087E-01
3.04146975643E+05	-2.40660846195E+01	1.07215425674E+02	2.67273391891E+01	-1.75788873285E+02	-4.07827761937E+01	-4.93000703322E+01	-5.86251527246E+00	-1.65696867626E+00
3.04366818575E+05	-1.25146654802E+01	1.14756861714E+01	2.66059126398E+01	-1.75686240667E+02	-3.57911128342E+01	-1.54207049871E+02	-6.29317405809E+00	-1.91479427524E+00
3.04586820414E+05	-4.01298130913E+00	-9.72920084779E+01	2.67666162448E+01	-1.72711318812E+02	-4.10710277309E+01	4.43113259258E+01	-5.88434488506E+00	7.25479831561E-01
3.04806981274E+05	-2.28756041078E+01	7.15816889043E+01	2.67496259551E+01	-1.75820130304E+02	-4.87133472958E+01	-1.33606702295E+02	-6.08718329785E+00	-1.09508603659E+00
3.05027301270E+05	-1.66958343256E+01	-3.75502691569E+01	2.66892008951E+01	-1.75036746639E+02	-3.25899437795E+01	-1.06192128660E+02	-6.09493786455E+00	-3.58450371248E+00
3.05247780517E+05	-2.61809212394E+01	7.53871493255E+01	2.67279195756E+01	-1.75610908815E+02	-3.03294717874E+01	-1.50077745216E+02	-6.66805422394E+00	-2.89999635932E+00
3.05468419131E+05	-2.23181319172E+01	5.35968797481E+01	2.67413258611E+01	-1.75816182077E+02	-3.46003864721E+01	-3.26999668132E+01	-5.71575511540E+00	-1.57672977130E+00
3.05689217226E+05	-1.77707172080E+01	4.42561352787E+01	2.67175291731E+01	-1.75737955477E+02	-3.67561919417E+01	-1.44808475970E+02	-6.34147042468E+00	-2.22045367654E+00
3.05910174918E+05	-1.35606406342E+01	-5.16704988736E+01	2.66548928668E+01	-1.74581716354E+02	-4.64941603532E+01	1.10244985854E+02	-6.05566156072E+00	5.07717993707E-01
3.06131292322E+05	-1.28565469681E+01	2.36582025920E+00	2.65749337299E+01	-1.75595324828E+02	-3.40404953038E+01	8.11590357448E+01	-6.00288521083E+00	2.91534477113E+00
3.06352569554E+05	-1.94924174487E+01	4.98970785129E+01	2.66746140607E+01	-1.75702442899E+02	-3.82393974335E+01	-2.85611944190E+01	-5.75198606705E+00	-1.01190209887E+00
3.06574006730E+05	-2.58372282999E+01	-4.14638548607E+01	2.67170319970E+01	-1.75504062947E+02	-2.60188074387E+01	1.40475081624E+02	-7.19708360376E+00	4.90015954608E+00
3.06795603964E+05	-2.03818633694E+01	-4.57952011440E+01	2.67067438777E+01	-1.75306036703E+02	-4.00460879258E+01	1.79740962352E+02	-6.32240824414E+00	-4.40151494481E-01
3.07017361372E+05	-1.60699851113E+01	2.29805053599E+00	2.66122965652E+01	-1.75551171141E+02	-3.82920001085E+01	1.35879976820E+02	-6.20049280540E+00	9.25461375198E-01
3.07239279071E+05	-1.38280045020E+01	2.99229841244E+00	2.65916928955E+01	-1.75545894274E+02	-3.72535181342E+01	-7.33703293042E+01	-5.90969542542E+00	-1.85798976905E+00
3.07461357176E+05	-1.29702797809E+01	-8.01011156794E+00	2.66112320508E+01	-1.75743101337E+02	-4.54797358243E+01	9.74164537052E+01	-5.96038233182E+00	1.26884894761E-01
3.07683595803E+05	-2.47570447468E+01	1.83991264711E+01	2.67004517718E+01	-1.75519746359E+02	-4.38125467769E+01	1.66677273085E+02	-6.12586638242E+00	-1.45801806175E-01
3.07905995068E+05	-3.85707764903E+01	-1.56349049490E+02	2.67580497310E+01	-1.75685502363E+02	-5.57107155661E+01	1.70950126339E+02	-6.00316181994E+00	-7.12565476309E-01
3.08128555087E+05	-2.22955049427E+01	1.63549098523E+02	2.68017079418E+01	-1.75659108046E+02	-4.51471878144E+01	6.31035065349E+01	-5.94522158826E+00	4.49307269683E-01
3.08351275976E+05	-1.63678457189E+01	3.53968254640E+01	2.66806422705E+01	-1.76214038765E+02	-2.84967844779E+01	-1.68004118660E+02	-7.14507893334E+00	-1.82346324802E+00
3.08574157853E+05	-2.05457632136E+01	2.10172619920E+00	2.66754278121E+01	-1.75486395602E+02	-3.79611072479E+01	-1.18068040036E+02	-6.15469258886E+00	-2.24983173344E+00
3.08797200832E+05	-2.00809997165E+01	4.22386239693E+01	2.66830576142E+01	-1.75982318434E+02	-5.50128731214E+01	-4.28583725309E+01	-5.97245234864E+00	-2.30619660597E-01
3.09020405031E+05	-1.60614332148E+01	1.04059471920E+02	2.67404463001E+01	-1.76147959753E+02	-4.48260098736E+01	-1.46951977316E+02	-6.07302548245E+00	-5.13181726213E-01
3.09243770566E+05	-9.88201121719E+00	-1.50883055933E+02	2.69092014002E+01	-1.75067850160E+02	-4.65826271526E+01	1.09444973088E+02	-5.90941996168E+00	3.01157884655E-01
3.09467297553E+05	-1.31317258817E+01	3.21734767020E+01	2.66139414373E+01	-1.76237034104E+02	-3.87262854083E+01	4.60846905726E+01	-5.83174008400E+00	7.33590153311E-01
3.09690986110E+05	-2.43191832302E+01	-5.04738530735E+01	2.67369696107E+01	-1.75590452111E+02	-4.96647579509E+01	-8.16007339002E+01	-6.04478515389E+00	-1.23113842208E+00
3.09914836353E+05	-2.30119006322E+01	1.65203893496E+02	2.67892227278E+01	-1.75791410844E+02	-3.45998042690E+01	-7.58282171174E+01	-5.88434294882E+00	-3.02010269349E+00
3.10138848399E+05	-1.78908886477E+01	-2.44325280752E+01	2.66658877630E+01	-1.75615030981E+02	-3.83215140044E+01	6.47599742793E+01	-5.94542066884E+00	1.32718388449E+00
3.10363022365E+05	-2.30348370912E+01	9.42710446595E+01	2.67725541938E+01	-1.75832278360E+02	-3.76315361816E+01	-2.67644566479E+01	-5.65094538701E+00	-1.40685025835E+00
3.10587358368E+05	-1.90938249130E+01	-8.18967616229E-02	2.66679957171E+01	-1.75787061258E+02	-3.29365417989E+01	1.43903933625E+02	-6.38691269475E+00	1.31753496259E+00
3.10811856525E+05	-1.92365055663E+01	-1.77882150182E+02	2.67769896881E+01	-1.75745504711E+02	-4.43858624523E+01	7.46250034744E+01	-5.98733717296E+00	1.18253906880E-01
3.11036516954E+05	-1.77857952089E+01	7.72515116829E+01	2.67278781911E+01	-1.76231412721E+02	-3.82197238715E+01	-6.15830740497E+01	-5.90713518446E+00	-1.82702073455E+00
3.11261339771E+05	-1.94950697120E+01	7.09472622576E+00	2.66958299094E+01	-1.75715791466E+02	-3.84850397459E+01	8.30146151609E+01	-5.98720042205E+00	1.49582836588E+00
3.11486325094E+05	-1.66563791030E+01	-5.61167891132E+01	2.66952839451E+01	-1.75405136151E+02	-2.91071705652E+01	-6.91448391839E+01	-5.49809560050E+00	-6.20730689515E+00
3.11711473040E+05	-1.94525719532E+01	1.42870182029E+01	2.66751947478E+01	-1.76163171455E+02	-3.57572626528E+01	1.68633343964E+02	-6.40279529973E+00	-2.73763675014E-01
3.11936783728E+05	-2.62465016888E+01	1.26065664184E+02	2.67689199475E+01	-1.76013092571E+02	-3.58458877122E+01	-1.19740450673E+02	-6.12802655293E+00	-2.38964273085E+00
3.12162257274E+05	-1.47968410685E+01	-5.35215987085E+01	2.66412255961E+01	-1.75184671464E+02	-3.97402488640E+01	1.00445242969E+02	-6.07631896857E+00	1.33724907480E+00
3.12387893797E+05	-9.65346681454E+00	4.03130927160E+01	2.65846526524E+01	-1.77095901305E+02	-4.36771452744E+01	7.31335049920E+01	-5.91206233445E+00	6.16249428869E-01
3.12613693413E+05	-1.79218746370E+01	1.75461132117E+02	2.68093656318E+01	-1.75880086915E+02	-3.92233276637E+01	3.89936951682E+01	-5.80025473331E+00	5.17151503475E-01
3.12839656242E+05	-1.43390290817E+01	-6.04801284664E+01	2.66985641465E+01	-1.75425960282E+02	-4.53438892220E+01	1.02886601422E+02	-6.04366198814E+00	9.67417231152E-02
3.13065782401E+05	-1.75958154140E+01	1.61244765472E+02	2.68126301911E+01	-1.76170341659E+02	-3.66378798457E+01	1.19033121953E+02	-6.09548310487E+00	1.59181242110E+00
3.13292072007E+05	-1.48118495812E+01	3.54924432007E+01	2.66748825197E+01	-1.76495159933E+02	-4.11432537087E+01	3.23891061033E+01	-5.77144568371E+00	3.35187704120E-01
3.13518525180E+05	-1.66062519089E+01	-4.69418743546E+01	2.66775253067E+01	-1.75575223602E+02	-3.54363688290E+01	1.27974932784E+02	-6.28154248427E+00	1.32211945042E+00
3.13745142038E+05	-2.59090584258E+01	5.57806275075E+01	2.67331101762E+01	-1.76041287130E+02	-3.94054277907E+01	3.28375723153E+01	-5.77205920168E+00	8.10186567985E-01
3.13971922698E+05	-1.74232073182E+01	3.68962783544E+01	2.66846767285E+01	-1.76769393801E+02	-5.54443044528E+01	1.06438667962E+02	-5.94799041817E+00	-8.74957224346E-02
3.14198867279E+05	-1.50896586474E+01	2.07577227704E+01	2.66632687325E+01	-1.76325229565E+02	-4.53486521084E+01	-1.44027729980E+02	-6.12135632789E+00	-8.70683494218E-01
3.14425975900E+05	-2.35857828012E+01	-1.40276500490E+02	2.67779285250E+01	-1.75839513491E+02	-3.99827230746E+01	-1.20133731230E+02	-6.14571572761E+00	-1.85779548056E+00
3.14653248680E+05	-1.82329673802E+01	-1.90362349623E+01	2.66829031299E+01	-1.75894903829E+02	-2.47644811368E+01	9.36896845521E+01	-6.08885043721E+00	1.02514881412E+01
3.14880685736E+05	-2.15468192291E+01	1.07906864773E+02	2.67655431918E+01	-1.76342070600E+02	-5.00451687482E+01	-1.37741925942E+02	-6.11070346128E+00	-8.72088866496E-01
3.15108287188E+05	-1.92259146700E+01	9.85839610820E+01	2.67630536925E+01	-1.76412654387E+02	-4.59068698447E+01	1.22015231046E+02	-6.12677345158E+00	2.38242861237E-01
3.15336053154E+05	-2.95801884359E+01	-1.78497944236E+02	2.67395749288E+01	-1.75827074348E+02	-4.55536793552E+01	-1.65920509266E+02	-6.19267427776E+00	-7.31201398552E-01
3.15563983753E+05	-1.33075609354E+01	1.08253090815E+02	2.68246706431E+01	-1.77070659642E+02	-3.93498248100E+01	1.54348124790E+02	-6.22486186028E+00	-6.34894938646E-02
3.15792079105E+05	-2.57486771514E+01	-1.00984261044E+02	2.67399624521E+01	-1.75614147089E+02	-4.52988745917E+01	-2.03635621947E+01	-5.83566653497E+00	-4.79821173293E-01
3.16020339328E+05	-1.93533909052E+01	3.95926126190E+01	2.66911259090E+01	-1.76341516670E+02	-4.17448915650E+01	-8.60284706175E+01	-5.98297416779E+00	-1.45056763954E+00
3.16248764542E+05	-2.24814848146E+01	-1.07806985931E+02	2.67403925706E+01	-1.75924647947E+02	-3.82777257887E+01	4.88060724107E+00	-5.71488142113E+00	-1.61073815202E-01
3.16477354866E+05	-3.24581895928E+01	-1.18474588030E+02	2.67469176646E+01	-1.76210105994E+02	-4.12325863634E+01	6.91845569780E+01	-5.89713457020E+00	1.43248226836E+00
3.16706110419E+05	-1.98856278864E+01	-1.34249471315E+01	2.66692426237E+01	-1.75988966348E+02	-3.65215199106E+01	1.78698112723E+02	-6.35463753255E+00	-4.23348942828E-01
3.16935031321E+05	-1.57867793352E+01	-3.38859522679E+01	2.66749705612E+01	-1.75782321018E+02	-5.41341327655E+01	-9.98617265869E+01	-6.00514940475E+00	-7.78251012750E-01
3.17164117691E+05	-1.57910257811E+01	-2.29440891637E+01	2.66803139929E+01	-1.75830550307E+02	-3.89042225092E+01	-8.17155393221E+01	-6.01066121792E+00	-1.87054671678E+00
3.17393369648E+05	-1.84400551018E+01	5.61033099036E+01	2.66941108589E+01	-1.76656655709E+02	-4.19995048114E+01	1.04124245537E+02	-6.05486872323E+00	8.95429625758E-01
3.17622787313E+05	-3.95315811047E+01	-1.61308078449E+02	2.67337755601E+01	-1.76098836664E+02	-3.55073671751E+01	7.71495534038E+01	-5.98788441237E+00	1.67175847085E+00
3.17852370806E+05	-2.01776782936E+01	1.60327652374E+01	2.66905850258E+01	-1.76431179425E+02	-3.61032311465E+01	1.45015383154E+02	-6.52032662017E+00	9.63999525440E-01
3.18082120245E+05	-2.01510326165E+01	-7.19859522044E+00	2.67063401720E+01	-1.76197378159E+02	-4.03583835102E+01	-1.62850007559E+02	-6.18196225467E+00	-6.63048402792E-01
3.18312035752E+05	-1.48306708922E+01	-1.25612899951E+02	2.68327143249E+01	-1.75727248028E+02	-4.27578463998E+01	6.97643154093E+01	-5.87948189274E+00	4.56226433372E-01
3.18542117445E+05	-1.58074486418E+01	1.24651572274E+01	2.66558839141E+01	-1.76428383409E+02	-4.52658756754E+01	1.55315665313E+02	-6.24126827395E+00	-4.08458105958E-01
3.18772365446E+05	-1.26100975000E+01	-1.48827982173E+00	2.65963204293E+01	-1.76266381580E+02	-4.33153531907E+01	-2.57975169053E+01	-5.84150156254E+00	-3.79498623067E-01
3.19002779874E+05	-1.32771197031E+01	1.35317842033E+02	2.68981209873E+01	-1.77103762883E+02	-4.05753382280E+01	-3.78716213178E+01	-5.84290339584E+00	-1.70933404778E+00
3.19233360850E+05	-1.89789307896E+01	-7.51022247887E+01	2.67129114187E+01	-1.76098785972E+02	-4.16778928755E+01	-5.26967081771E+01	-5.85274418771E+00	-1.80402084262E+00
3.19464108494E+05	-3.51936939211E+01	-2.77659193538E+01	2.67268814156E+01	-1.76193581747E+02	-3.33250541728E+01	-1.63249358849E+02	-6.60869273003E+00	-2.52411096810E+00
3.19695022927E+05	-1.30830709787E+01	5.68094260667E+01	2.66665953277E+01	-1.76987438054E+02	-3.99983807978E+01	-1.02121985042E+02	-5.98583286288E+00	-1.84103528159E+00
3.19926104268E+05	-1.70045706002E+01	3.91754366300E+01	2.66681501791E+01	-1.76747837197E+02	-4.15090263185E+01	9.73312725511E+01	-6.02215475527E+00	6.83050003021E-01
3.20157352640E+05	-1.95406902798E+01	-1.20904402459E+01	2.66840608202E+01	-1.76136789986E+02	-4.52392866380E+01	8.83179324158E-01	-5.93104956018E+00	-5.10025949614E-01
3.20388768162E+05	-1.77775277285E+01	-6.91041457613E+00	2.66829194685E+01	-1.76118178251E+02	-4.38466676096E+01	1.51329977538E+02	-6.07991330538E+00	-4.12727752012E-01
3.20620350955E+05	-1.46885795138E+01	-3.89334145651E+01	2.66763653439E+01	-1.75917304041E+02	-3.84571330218E+01	-8.60690708490E+01	-5.99934658323E+00	-2.62972107993E+00
3.20852101140E+05	-2.66634288209E+01	-2.63489181506E+01	2.67368362048E+01	-1.76431961075E+02	-3.77877268501E+01	-1.23447675894E+02	-6.23691202950E+00	-1.97943782042E+00
3.21084018839E+05	-2.24077593476E+01	-2.66971278132E+01	2.67282024902E+01	-1.76382198420E+02	-3.34015215326E+01	-3.97796488003E+01	-5.54660628904E+00	-2.33719437396E+00
3.21316104172E+05	-2.81159078101E+01	-7.29452399542E+00	2.66970147573E+01	-1.76405471129E+02	-3.17309517346E+01	7.26702250024E+01	-5.81678708257E+00	3.78532178780E+00
3.21548357261E+05	-1.98358437596E+01	-1.17215705760E+02	2.67414368767E+01	-1.76124236107E+02	-4.29509538529E+01	-1.40408968241E+02	-6.12650204759E+00	-7.08695238154E-01
3.21780778226E+05	-1.68728306522E+01	6.46844709819E+01	2.67036835751E+01	-1.76748675410E+02	-4.69199916029E+01	1.72613892639E+01	-5.99609021637E+00	-3.22873006679E-01
3.22013367189E+05	-1.53047029681E+01	3.56596550329E+01	2.66660880182E+01	-1.76881217903E+02	-3.88732292738E+01	1.60844428971E+02	-6.19927622629E+00	3.25042372716E-01
3.22246124272E+05	-1.77193626175E+01	-1.44826940048E+02	2.68327448134E+01	-1.76013306980E+02	-5.28168755852E+01	1.63106234478E+02	-6.06754974805E+00	-1.91018238554E-01
3.22479049596E+05	-1.83582842377E+01	7.57756752999E+01	2.67374346402E+01	-1.76822357705E+02	-3.56902412840E+01	1.19714927471E+02	-6.15869681866E+00	1.91503087554E+00
3.22712143282E+05	-3.06267650164E+01	-9.34682164822E+01	2.67345527650E+01	-1.76396105602E+02	-4.06673485889E+01	2.17839442025E+01	-5.74635875869E+00	-3.62867586469E-01
3.22945405453E+05	-2.96003974418E+01	-2.40075086606E+01	2.67012956808E+01	-1.76388632402E+02	-2.91276462703E+01	-9.90206705583E+01	-6.06420013186E+00	-6.23572368992E+00
3.23178836230E+05	-1.71794592636E+01	-6.03340944674E+01	2.66992851070E+01	-1.76023532139E+02	-4.14698337055E+01	8.45095497419E+01	-6.00833706364E+00	7.31789417074E-01
3.23412435735E+05	-1.39646994413E+01	6.42922283787E+01	2.66621690142E+01	-1.77239795795E+02	-4.26614937537E+01	5.31208146865E+01	-5.84838588288E+00	8.41339965375E-01
3.23646204090E+05	-1.52652214662E+01	1.56920990956E+01	2.66699910443E+01	-1.76780823251E+02	-4.51874824912E+01	-1.76113857624E+02	-6.11652520345E+00	-4.31350397978E-01
3.23880141417E+05	-1.50797051207E+01	1.51209476066E+02	2.68769845194E+01	-1.76824977360E+02	-3.77481671173E+01	-7.93203439386E+01	-6.02350056252E+00	-2.36492482409E+00
3.24114247838E+05	-3.04478119054E+01	-8.83485796565E+01	2.67571450032E+01	-1.76468717203E+02	-3.64323362957E+01	-1.07634666235E+02	-6.14036681892E+00	-2.42593978942E+00
3.24348523475E+05	-1.83855681822E+01	-5.54004427940E+01	2.67037926517E+01	-1.76280180688E+02	-3.55335236038E+01	1.31776304110E+02	-6.36326915654E+00	1.89582714599E+00
3.24582968451E+05	-2.27090769061E+01	-5.41788420193E+01	2.66741063425E+01	-1.76443305491E+02	-4.55178332820E+01	4.46196705041E+01	-5.92198552026E+00	-4.59375828835E-01
3.24817582888E+05	-3.10485457656E+01	1.96201278557E+01	2.67321984986E+01	-1.76606969957E+02	-4.65192260605E+01	1.20403003181E+02	-6.09019105709E+00	-3.04496514550E-01
3.25052366909E+05	-2.64294382119E+01	8.93790555202E+00	2.67020395379E+01	-1.76329469190E+02	-4.14762613565E+01	-4.93693563716E+01	-5.83118707120E+00	-1.03403040606E+00
3.25287320635E+05	-1.97595701961E+01	-5.96692018646E+01	2.66955559512E+01	-1.76427636395E+02	-3.94393450057E+01	-1.48312843705E+02	-6.13550865655E+00	-1.32434060920E+00
3.25522444191E+05	-1.48886460932E+01	1.23681355057E+01	2.66511751790E+01	-1.76732628507E+02	-3.67252356494E+01	1.68720952646E+02	-6.40218916103E+00	4.14522773112E-01
3.25757737698E+05	-1.98288562135E+01	-5.79493493645E+01	2.66890202138E+01	-1.76302328512E+02	-4.42036089864E+01	1.32179553182E+02	-6.08823353245E+00	5.11247934357E-01
3.25993201280E+05	-1.96783071459E+01	4.78558089769E+01	2.66704442267E+01	-1.77006224021E+02	-3.98560978797E+01	-1.38332927707E+02	-6.26382137025E+00	-1.83146273353E+00
3.26228835058E+05	-1.80806464988E+01	3.58086344287E+01	2.66459972910E+01	-1.76972452952E+02	-4.14233402885E+01	-1.40692293312E+02	-6.11949723351E+00	-1.56838966109E+00
