# Hz S DB R 50
! CMT, M5065, 19127446, 24.2.4/2
! Date: 11/1/2024 3:19:39 PM
! Data: Format (Calibration Info)
! Freq	S11:dB/Ang(F2)	S21:dB/Ang(F2)	S12:dB/Ang(F2)	S22:dB/Ang(F2)
3.00000000000E+05	-2.64004089180E+01	-1.55520191175E+02	7.44078853301E+00	-1.77547795698E+02	-3.95899097684E+01	-7.84653187142E+01	-6.02803798558E+00	-1.81202140806E-01
3.00216845423E+05	-1.68061514201E+01	5.15978729284E+01	7.37939085087E+00	-1.77945096710E+02	-4.37197227363E+01	-4.53283013416E+01	-6.02916456960E+00	-2.25507824873E-01
3.00433847586E+05	-1.86358699418E+01	7.84898486079E+01	7.43273144701E+00	-1.78133363004E+02	-3.62470937543E+01	-1.55507697500E+02	-6.05049274484E+00	-2.85134638080E-01
3.00651006602E+05	-2.10222926903E+01	4.11838916876E+01	7.35617152558E+00	-1.77930483804E+02	-4.24869079288E+01	-9.03204164824E+01	-6.05463416497E+00	-4.75569209199E-01
3.00868322584E+05	-1.19602167435E+01	4.84080466709E+01	7.36155853280E+00	-1.78163283138E+02	-4.24090462798E+01	-7.38043330484E+01	-6.04354252014E+00	-1.77621562271E-01
3.01085795647E+05	-1.97808760726E+01	9.18740466889E+01	7.41572921267E+00	-1.78211495422E+02	-2.86653846571E+01	-1.23253662756E+02	-6.12996791223E+00	-1.20494485796E+00
3.01303425902E+05	-1.79493227475E+01	-8.57759276599E+01	7.39659960486E+00	-1.76948047823E+02	-3.47884940999E+01	-9.01843107425E+01	-6.06580699209E+00	-7.07566559776E-01
3.01521213465E+05	-2.02939021250E+01	4.73318602289E+01	7.40173432391E+00	-1.78158961733E+02	-4.86144149118E+01	3.25614625349E+01	-6.02153299998E+00	-1.31712644042E-01
3.01739158449E+05	-1.36843686253E+01	5.68703640177E+01	7.34362449235E+00	-1.78114067018E+02	-3.53349600401E+01	-1.25295687138E+02	-6.06541526613E+00	-5.74758760757E-01
3.01957260967E+05	-2.57799733890E+01	6.35149839436E+01	7.37318060040E+00	-1.77769782549E+02	-3.95484420290E+01	1.69747563151E+02	-6.07407658553E+00	-2.21926837458E-01
3.02175521134E+05	-1.43583970919E+01	6.16338768743E+01	7.34156451315E+00	-1.77994350637E+02	-3.18630145496E+01	-1.55494588516E+02	-6.13889029661E+00	-6.42717177295E-01
3.02393939063E+05	-1.34029621171E+01	2.26192086727E+00	7.22362784594E+00	-1.78060381716E+02	-3.70247417338E+01	5.32872592987E+01	-6.03589081741E+00	-6.42226984045E-02
3.02612514869E+05	-1.27097278660E+01	7.24236295477E+01	7.33739386290E+00	-1.78406060642E+02	-4.52629021691E+01	1.26366253456E+02	-6.02947995416E+00	3.42373686077E-01
3.02831248665E+05	-1.91219113584E+01	-3.75039165995E+01	7.31853611193E+00	-1.77686077524E+02	-3.04906835913E+01	-1.98887056328E+01	-5.95254038627E+00	-5.54110540290E-01
3.03050140565E+05	-1.76919270078E+01	-4.52425505518E+00	7.27287268064E+00	-1.77673116610E+02	-4.25102986121E+01	8.85258883687E+01	-6.03995657411E+00	-2.41499506273E-01
3.03269190685E+05	-1.48263611804E+01	6.30391355644E+01	7.37446083155E+00	-1.78250849386E+02	-5.70582973405E+01	1.52926651620E+02	-6.07006110045E+00	-4.20019892326E-01
3.03488399138E+05	-2.88798933730E+01	1.24894485358E+02	7.41954785241E+00	-1.78357603169E+02	-4.38262957422E+01	-8.61465183227E+01	-6.02645252757E+00	-3.43912251818E-01
3.03707766039E+05	-1.37151761935E+01	7.17221195162E+01	7.38101358888E+00	-1.78400413670E+02	-4.53892998002E+01	-1.37455353739E+02	-6.02103231425E+00	-3.38625112266E-01
3.03927291503E+05	-1.27201256713E+01	7.88638915569E+00	7.28739210155E+00	-1.77668662951E+02	-3.75682766323E+01	9.02182831250E+01	-6.05252983038E+00	3.25687884583E-01
3.04146975643E+05	-1.55154342945E+01	-1.71126989903E+02	7.55527756263E+00	-1.77329131745E+02	-3.87240374174E+01	-5.98601697789E+01	-6.04546185004E+00	-4.30093388146E-01
3.04366818575E+05	-1.07725911786E+01	3.68582832378E+01	7.21950668349E+00	-1.78638065519E+02	-3.15763921638E+01	1.44692964984E+01	-5.95738123737E+00	-3.06565458314E-01
3.04586820414E+05	-2.12873749961E+01	1.02690767983E+02	7.42638590350E+00	-1.78206811350E+02	-3.66003114092E+01	8.82506454941E+01	-6.02459906962E+00	2.87081661002E-01
3.04806981274E+05	-1.73923770741E+01	-2.05226661100E+01	7.33787246451E+00	-1.77689116522E+02	-3.24690165343E+01	-4.61194922595E+01	-6.00500722558E+00	-5.44394883037E-01
3.05027301270E+05	-1.55487503726E+01	6.29285405784E+01	7.36266290718E+00	-1.78382522908E+02	-5.07760503956E+01	1.12336948668E+02	-6.04164536014E+00	-3.99663035978E-01
3.05247780517E+05	-2.10271911611E+01	3.70877961680E-01	7.34011786964E+00	-1.77695262731E+02	-4.11664667041E+01	-6.65756795088E+01	-6.02771975784E+00	-2.87801963610E-01
3.05468419131E+05	-1.66244231045E+01	3.43933383664E+01	7.32367698927E+00	-1.78039627147E+02	-4.24650147175E+01	1.29155823109E+02	-6.02315917906E+00	-9.58253615066E-02
3.05689217226E+05	-2.56303098722E+01	9.32572726636E+01	7.43080434271E+00	-1.78074064183E+02	-3.88691081045E+01	-6.97607672938E-01	-5.97441439041E+00	-2.89451178700E-01
3.05910174918E+05	-1.03241284306E+01	-1.78582211714E+02	7.58515237143E+00	-1.77573550199E+02	-4.41624742568E+01	5.14467161343E+01	-6.01044845882E+00	-4.04465776908E-02
3.06131292322E+05	-1.65693150401E+01	-3.65709938187E+01	7.33493187115E+00	-1.76792340456E+02	-3.43189539478E+01	1.35541632151E+02	-6.08882701074E+00	-1.61018673835E-01
3.06352569554E+05	-1.64064128851E+01	5.10661481747E+00	7.36787878503E+00	-1.77408761544E+02	-4.17418691160E+01	-3.68299414176E+01	-6.01814175536E+00	-2.97390696953E-01
3.06574006730E+05	-1.87646432065E+01	6.09324164142E+01	7.45616641439E+00	-1.77827804455E+02	-5.33304646446E+01	-4.51961290742E+01	-6.03787281138E+00	-3.08309650748E-01
3.06795603964E+05	-1.74158299074E+01	-2.14400186893E+01	7.30506532608E+00	-1.77869807549E+02	-3.62570593503E+01	1.15830812944E+02	-6.06369729400E+00	2.84375645831E-01
3.07017361372E+05	-2.58487121525E+01	3.49442463352E+01	7.39668160799E+00	-1.78218521314E+02	-3.28601582171E+01	-9.19958616307E+00	-6.02499087693E+00	-5.03195995965E-01
3.07239279071E+05	-1.64280684527E+01	-7.66734757585E+00	7.25752994436E+00	-1.77815104381E+02	-4.77049391104E+01	1.74674873274E+02	-6.01056190694E+00	-1.45866448205E-01
3.07461357176E+05	-7.09107174746E+00	1.70639473038E+02	7.78234658609E+00	-1.78543799703E+02	-2.76564412942E+01	-8.97317516205E+01	-6.04488263184E+00	-1.07338791304E+00
3.07683595803E+05	-1.98796973226E+01	5.26264737806E+01	7.34148556367E+00	-1.78416552673E+02	-4.02055710953E+01	-2.86506053463E+01	-6.00811419871E+00	-2.02234763989E-01
3.07905995068E+05	-3.11439266971E+01	6.55612346391E+01	7.40572534158E+00	-1.78142971740E+02	-3.65427860567E+01	-1.27278445298E+02	-6.05097079708E+00	-4.94308736951E-01
3.08128555087E+05	-1.89382711972E+01	1.00081429537E+02	7.43301726738E+00	-1.78215490896E+02	-3.81441003072E+01	-5.35359919988E+01	-6.00792309829E+00	-4.41779966242E-01
3.08351275976E+05	-1.39137135141E+01	7.97272002915E+01	7.39488982689E+00	-1.78128735285E+02	-3.57272642231E+01	1.52471773745E+02	-6.03058370091E+00	-4.74821113541E-01
3.08574157853E+05	-2.71044860004E+01	1.49870965620E+01	7.40031911884E+00	-1.77914907239E+02	-3.65360537787E+01	1.23232193703E+02	-6.06526328414E+00	-9.94425338794E-02
3.08797200832E+05	-2.08565986993E+01	-1.59242746571E+02	7.41091954838E+00	-1.77593683819E+02	-3.50946481899E+01	6.17303635181E+01	-5.98122447611E+00	-7.20852791553E-02
3.09020405031E+05	-1.93707516547E+01	-4.61554459700E+01	7.37509401934E+00	-1.77371703414E+02	-3.71493405811E+01	-1.53982894898E+02	-6.09374149630E+00	-3.86468244586E-01
3.09243770566E+05	-1.38310639808E+01	2.07252848017E+01	7.22066779681E+00	-1.78014786024E+02	-5.53585950153E+01	-1.73036354207E+02	-6.00823044502E+00	-8.28426287806E-02
3.09467297553E+05	-1.56151896049E+01	-2.52007530957E+01	7.30987008634E+00	-1.77176558585E+02	-4.65243740143E+01	-2.91218592815E+01	-6.00224950257E+00	-5.06130177533E-01
3.09690986110E+05	-2.64617395514E+01	2.69359790496E+01	7.40570610580E+00	-1.78050607717E+02	-4.42780014076E+01	1.22484260734E+02	-6.03765951907E+00	-2.77940871746E-01
3.09914836353E+05	-1.22937202204E+01	-1.71415521104E+01	7.26878809155E+00	-1.77699410347E+02	-4.27633184792E+01	-1.01361068766E+02	-6.07001322464E+00	-3.53095306603E-01
3.10138848399E+05	-1.33119744788E+01	7.48808629741E+01	7.38520269010E+00	-1.78698640232E+02	-4.45019126297E+01	-1.34912815789E+02	-6.06106215726E+00	-2.45814713099E-01
3.10363022365E+05	-2.11367955578E+01	2.67384612271E+01	7.31943560714E+00	-1.77644602551E+02	-3.82129012278E+01	-9.53186219236E+01	-6.02355009922E+00	-6.39534942838E-01
3.10587358368E+05	-8.63664946786E+00	-6.30460750446E+01	7.29470037998E+00	-1.76270145835E+02	-3.91876100525E+01	1.45127946920E+02	-6.05613267889E+00	1.34618147079E-01
3.10811856525E+05	-2.44255294912E+01	-6.51170623750E+01	7.41513567754E+00	-1.77564270085E+02	-4.07877514935E+01	-9.44970133771E+01	-6.04147605666E+00	-2.37452974828E-01
3.11036516954E+05	-1.99744749836E+01	3.60832464035E+01	7.35018367200E+00	-1.77617239898E+02	-4.47612612589E+01	-6.02146955765E+01	-6.02168472016E+00	-3.75735150297E-02
3.11261339771E+05	-1.56194954056E+01	1.89503661356E+01	7.33372246990E+00	-1.78107088062E+02	-4.73309643275E+01	1.06753310495E+02	-6.03608217002E+00	-9.75087632879E-02
3.11486325094E+05	-1.65493460817E+01	8.57803589382E+01	7.41021786077E+00	-1.78301936610E+02	-4.54312960405E+01	1.14649720974E+02	-6.04052948138E+00	-2.28502736096E-01
3.11711473040E+05	-1.92342104056E+01	4.77079837839E+00	7.37947599301E+00	-1.77821391011E+02	-4.04564578694E+01	4.71569008228E+01	-6.01972275834E+00	-1.31595759127E-01
3.11936783728E+05	-1.65103568792E+01	3.79875479273E+01	7.34962801182E+00	-1.78148474386E+02	-4.00598755675E+01	-7.12274827320E+01	-5.99477508982E+00	-3.52174931904E-01
3.12162257274E+05	-1.12617836669E+01	1.19284183852E+02	7.46582842439E+00	-1.78636068401E+02	-2.93866049789E+01	1.42663155302E+02	-6.11065916822E+00	4.59615564410E-02
3.12387893797E+05	-9.50380658246E+00	1.00906519149E+02	7.48160536105E+00	-1.79532198663E+02	-3.70901899457E+01	-1.26315634492E+02	-6.07050372389E+00	-5.35807747976E-01
3.12613693413E+05	-1.89745460032E+01	-1.48885777989E+01	7.42540632516E+00	-1.77549732464E+02	-3.69662276938E+01	8.20152718798E+01	-6.02120245341E+00	-1.01264664130E-01
3.12839656242E+05	-2.32672706082E+01	1.87669922365E+01	7.30169913732E+00	-1.77878433783E+02	-3.60090204431E+01	-1.16601852780E+02	-6.04330286202E+00	-6.25626546158E-01
3.13065782401E+05	-2.86068597801E+01	-3.04722071940E+01	7.40029160179E+00	-1.77893571598E+02	-3.95280644448E+01	-1.39022440692E+01	-5.99990967773E+00	-3.12609195039E-01
3.13292072007E+05	-2.02031646651E+01	1.07051500305E+02	7.36778393805E+00	-1.78150276202E+02	-5.13686798674E+01	-6.64608726176E+01	-6.07912225345E+00	-3.61978839778E-01
3.13518525180E+05	-1.81205723836E+01	-2.93529702863E+01	7.38972510354E+00	-1.77402580813E+02	-4.65077267715E+01	-7.64092908863E+01	-6.03382750160E+00	-3.03499966198E-01
3.13745142038E+05	-1.31236691007E+01	1.36494985320E+01	7.28693644378E+00	-1.77998622392E+02	-2.95748166818E+01	-1.75240524318E+02	-6.12231783047E+00	-2.16632822174E-01
3.13971922698E+05	-1.83213014421E+01	1.47709916377E+02	7.50011130718E+00	-1.77559575394E+02	-3.33743827985E+01	-1.19071612027E+02	-6.08670618822E+00	-4.92361944445E-01
3.14198867279E+05	-1.77393988058E+01	6.37971602977E+01	7.41182765745E+00	-1.78292625602E+02	-3.44110534324E+01	1.11325567776E+02	-6.05319371934E+00	2.81055361779E-01
3.14425975900E+05	-3.19136151177E+01	9.23227508359E+01	7.38582060104E+00	-1.77548246233E+02	-4.50219594885E+01	-2.15756288393E+01	-6.04652391524E+00	4.11177798158E-02
3.14653248680E+05	-1.43135687281E+01	4.79741991286E+01	7.36254329983E+00	-1.77842132709E+02	-4.33593343339E+01	-1.37897521433E+01	-6.00496170801E+00	-9.52389598421E-02
3.14880685736E+05	-1.34930281927E+01	1.19260582212E+01	7.25011520731E+00	-1.78532698598E+02	-3.97028817119E+01	-1.37643856097E+02	-6.04891928455E+00	-3.80734969199E-01
3.15108287188E+05	-1.88394915407E+01	1.01978240124E+02	7.43499743581E+00	-1.78388509743E+02	-3.33059745977E+01	-4.30848008512E+01	-5.99387101007E+00	-5.79848182980E-01
3.15336053154E+05	-1.01217239333E+01	1.21524701924E+02	7.59055019786E+00	-1.79242895727E+02	-3.80352558875E+01	7.40616022335E+01	-6.01218160537E+00	1.45179568127E-01
3.15563983753E+05	-1.32674808644E+01	1.97021168955E+00	7.21359566876E+00	-1.77693275566E+02	-2.99928637573E+01	5.66617711546E+01	-5.97949819021E+00	4.54191016327E-01
3.15792079105E+05	-2.52771623273E+01	-5.02386626408E+01	7.38691676660E+00	-1.77596160246E+02	-4.70861116073E+01	8.89107847921E+01	-6.04102811279E+00	1.35212991003E-02
3.16020339328E+05	-2.68888845678E+01	9.75507403538E+01	7.42879040422E+00	-1.78095423741E+02	-3.76698548004E+01	9.89736847967E+01	-5.99928167702E+00	8.70473962931E-02
3.16248764542E+05	-1.52403278519E+01	5.61930226505E+01	7.33231087261E+00	-1.78201138117E+02	-4.82363421292E+01	-1.48078866083E+02	-6.03709624735E+00	-3.20774574350E-01
3.16477354866E+05	-2.22042850839E+01	3.82892486331E+01	7.33945566937E+00	-1.78228290707E+02	-3.79541942691E+01	1.22527174914E+02	-6.06283371738E+00	3.51083447973E-02
3.16706110419E+05	-2.19920980888E+01	4.63988414817E+01	7.43788455097E+00	-1.78277376237E+02	-3.36865910490E+01	-7.66807344225E+00	-6.00655830284E+00	-1.83121570465E-01
3.16935031321E+05	-1.78179796320E+01	1.30052623202E+02	7.48313540874E+00	-1.78530189793E+02	-4.38159408478E+01	-4.92530124739E+01	-6.06636985498E+00	-4.93693312174E-01
3.17164117691E+05	-1.89603077855E+01	1.70329985952E+02	7.54380295123E+00	-1.77967373150E+02	-4.15102161851E+01	-1.61015857472E+02	-6.07947297186E+00	-2.26427226490E-01
3.17393369648E+05	-1.80834366280E+01	-7.41047050795E+01	7.36510794111E+00	-1.77364815707E+02	-4.89870578512E+01	-6.43836252848E+01	-6.06532080723E+00	-3.18185117017E-01
3.17622787313E+05	-1.31301398825E+01	2.04849746420E+01	7.29801343900E+00	-1.78178727398E+02	-4.04331631467E+01	-5.77363289696E+01	-6.04705263748E+00	-2.23502954325E-01
3.17852370806E+05	-2.28383053543E+01	8.48219679582E+01	7.39744291426E+00	-1.78240090145E+02	-4.04112172569E+01	2.46407137364E+01	-6.00974235138E+00	9.54445053058E-02
3.18082120245E+05	-1.65993063779E+01	-5.65311952232E+01	7.34493474905E+00	-1.77524535682E+02	-4.19813996912E+01	8.09925597074E+01	-6.00546910634E+00	-3.86347749741E-01
3.18312035752E+05	-2.57744109808E+01	1.77343898686E+02	7.41759957457E+00	-1.77976167950E+02	-4.49604739061E+01	-2.34427388135E+01	-6.05996325929E+00	-1.74280352511E-01
3.18542117445E+05	-1.80226041597E+01	1.56824959983E+01	7.27499097677E+00	-1.78084855059E+02	-3.08193161208E+01	2.46934595817E+01	-5.97639660560E+00	1.11558935252E-01
3.18772365446E+05	-1.46439695715E+01	7.68601445096E+01	7.30842042996E+00	-1.78589453230E+02	-3.37926312437E+01	8.94906409957E+01	-6.04334766085E+00	4.00909297181E-01
3.19002779874E+05	-2.43370808378E+01	6.90248055720E+01	7.43792688475E+00	-1.78223310181E+02	-4.50243888746E+01	-1.40402333130E+02	-6.05580422171E+00	-3.02405904802E-01
3.19233360850E+05	-1.59788773043E+01	-1.52752353151E+01	7.39489221195E+00	-1.77738482944E+02	-3.53722124498E+01	-7.36518304207E+01	-6.00598385768E+00	-4.21929912290E-01
3.19464108494E+05	-1.50964820012E+01	2.91803173694E+01	7.36837978222E+00	-1.77712368015E+02	-5.22499295565E+01	1.27982294638E+02	-6.10317546828E+00	-5.27745757882E-01
3.19695022927E+05	-3.04571535380E+01	5.22959266629E+01	7.35847052628E+00	-1.77719938351E+02	-3.51639183542E+01	-3.48678681427E+01	-6.01396635571E+00	-3.43001351165E-01
3.19926104268E+05	-1.96631224113E+01	7.27622465220E+01	7.40331780403E+00	-1.78451161131E+02	-3.70690538176E+01	-7.46639452900E+01	-6.03103072165E+00	-2.66991010961E-01
3.20157352640E+05	-1.51822854006E+01	1.51899685503E+02	7.51407775076E+00	-1.78294700159E+02	-4.39942061788E+01	-1.22731856341E+02	-6.05530611213E+00	-3.54529306524E-01
3.20388768162E+05	-1.06417179929E+01	2.48379034057E+01	7.24532806209E+00	-1.78462617917E+02	-2.83995274317E+01	1.13283801816E+02	-6.09870381709E+00	5.42556329469E-01
3.20620350955E+05	-1.91642088323E+01	1.15298558882E+02	7.40937907858E+00	-1.78210338326E+02	-5.26160389581E+01	-1.24695085588E+02	-6.04293877406E+00	-2.19346741349E-02
3.20852101140E+05	-1.43701320163E+01	3.93356187419E+01	7.38872204751E+00	-1.78284446905E+02	-3.46640012865E+01	-8.81559598487E+01	-6.00414189176E+00	-4.69154149472E-01
3.21084018839E+05	-2.57051519659E+01	5.04004561671E+01	7.43606199283E+00	-1.78220469121E+02	-4.33809971852E+01	1.57523181245E+02	-6.03595478701E+00	-3.61358228913E-01
3.21316104172E+05	-2.50944448343E+01	-1.18711669981E+02	7.44265526081E+00	-1.77699417782E+02	-3.81148709383E+01	3.48463155515E+01	-5.98550490264E+00	8.75950079044E-02
3.21548357261E+05	-1.88402794494E+01	-3.77629017003E+01	7.38321770905E+00	-1.77571831250E+02	-3.74647496622E+01	-1.65737390696E+02	-6.08789595752E+00	2.10949537653E-01
3.21780778226E+05	-2.79532249614E+01	-2.77878218230E+01	7.42760012578E+00	-1.77820508676E+02	-3.45489650401E+01	1.07652812327E+01	-5.98015962954E+00	-1.17931481390E-01
3.22013367189E+05	-1.74171962703E+01	1.27700696952E+02	7.50306419555E+00	-1.78622310343E+02	-3.50299994119E+01	-5.23017048292E+01	-6.03146362078E+00	-7.63192144884E-01
3.22246124272E+05	-1.84078762547E+01	6.33942289257E+01	7.39724627953E+00	-1.78772779368E+02	-3.75782906487E+01	2.21091917803E+01	-5.98514722728E+00	-1.83173131558E-01
3.22479049596E+05	-2.42120106720E+01	9.06908668506E+01	7.48231092459E+00	-1.78082468881E+02	-4.75077538555E+01	6.59837961736E+01	-6.04776735029E+00	-2.16642082750E-01
3.22712143282E+05	-1.88855968516E+01	9.17685427106E+01	7.39157006846E+00	-1.78354721963E+02	-4.92127320453E+01	1.18100033329E+02	-6.00704271418E+00	-1.77062901159E-01
3.22945405453E+05	-2.52285634343E+01	2.35959972861E+01	7.37665327817E+00	-1.77994590684E+02	-4.32799983600E+01	1.49173877259E+02	-6.03120742140E+00	-2.50503685209E-01
3.23178836230E+05	-2.58738384991E+01	-7.26025494870E+01	7.43731528324E+00	-1.77819204877E+02	-4.06591409468E+01	-9.83386552304E+01	-6.02905893755E+00	-3.98458177891E-01
3.23412435735E+05	-1.46839004930E+01	4.98206242479E+01	7.34246813546E+00	-1.78280193531E+02	-3.98373229127E+01	1.32851689832E+02	-6.08399400449E+00	1.30511863442E-01
3.23646204090E+05	-1.39480403561E+01	5.42281455978E+01	7.31155775035E+00	-1.79015067015E+02	-2.85176513007E+01	1.33248855774E+01	-5.90081894937E+00	-2.10682023650E-01
3.23880141417E+05	-1.60494898402E+01	4.80448125831E+01	7.36267999235E+00	-1.78448957636E+02	-3.94984330716E+01	-5.09313251230E+01	-6.00764499268E+00	-4.29272516878E-01
3.24114247838E+05	-1.57117513035E+01	1.09453453563E+02	7.48309802776E+00	-1.78370177850E+02	-4.02318848377E+01	-8.29213805797E+01	-6.04282710773E+00	-5.68546279911E-01
3.24348523475E+05	-1.28905910957E+01	2.91400472387E+01	7.24510717758E+00	-1.78537116082E+02	-4.32685304697E+01	-1.70378932384E+02	-6.06373207987E+00	-1.50249867921E-02
3.24582968451E+05	-2.03014732321E+01	-4.37420989006E+01	7.43486168436E+00	-1.77970770019E+02	-3.72883588193E+01	-3.40306723061E+01	-5.99613259401E+00	-4.45588276058E-01
3.24817582888E+05	-2.93114620353E+01	-3.38572235979E+01	7.36513467420E+00	-1.78218901862E+02	-3.54300898838E+01	-7.41897903016E+01	-6.00950142026E+00	-5.44187513788E-01
3.25052366909E+05	-1.65008957177E+01	-1.65605817389E+00	7.30445624990E+00	-1.77967211152E+02	-3.78359716628E+01	-5.15067824749E+01	-6.00976485845E+00	-8.92481599826E-01
3.25287320635E+05	-1.49679561422E+01	2.00845733408E+01	7.34493539465E+00	-1.77717542013E+02	-3.08689201737E+01	1.37309784369E+01	-5.91569523738E+00	6.43418945685E-02
3.25522444191E+05	-1.26085134812E+01	5.24406870141E+01	7.33065681502E+00	-1.78749641178E+02	-4.50029427931E+01	1.68088637945E+02	-6.05274319394E+00	2.79467636500E-03
3.25757737698E+05	-1.98722908598E+01	-7.91889141206E+01	7.31754633444E+00	-1.78052006036E+02	-4.02890732884E+01	-9.56269833198E+01	-6.07607685872E+00	-5.99685226696E-01
3.25993201280E+05	-2.15368044010E+01	-1.67617172186E+02	7.44409445532E+00	-1.78093969871E+02	-4.69018084256E+01	-3.55683376253E+01	-6.04383244260E+00	-3.85109550667E-01
3.26228835058E+05	-3.24170536784E+01	2.42716741214E+01	7.34377297328E+00	-1.78394505433E+02	-4.35975515495E+01	-1.47404500381E+02	-5.99385005762E+00	-1.88300004356E-01
