# Hz S DB R 50
! CMT, M5065, 19127446, 24.2.4/2
! Date: 11/1/2024 3:11:57 PM
! Data: Format (Calibration Info)
! Freq	S11:dB/Ang(F2)	S21:dB/Ang(F2)	S12:dB/Ang(F2)	S22:dB/Ang(F2)
3.00000000000E+05	-1.91984288653E+01	5.32325642895E+01	5.96570109173E+00	-1.77880602105E+02	-4.13443592682E+01	-4.46502828668E+01	-6.02278863193E+00	-3.49169999239E-01
3.00216845423E+05	-1.65856227011E+01	1.71615149401E+02	6.16953121268E+00	-1.77634267809E+02	-4.59050889502E+01	-1.23096063941E+02	-6.04175813997E+00	-3.25470739418E-01
3.00433847586E+05	-4.29935660863E+01	-1.80266719231E+01	5.98803247432E+00	-1.77666578771E+02	-4.50926856845E+01	9.18865363705E+01	-6.03098255955E+00	-6.31739567209E-02
3.00651006602E+05	-1.45588049812E+01	1.62968693329E+01	5.88269195093E+00	-1.78006718191E+02	-5.02968541585E+01	6.00565529392E+01	-6.05558448632E+00	-1.77800028709E-01
3.00868322584E+05	-2.55047659783E+01	-1.09028117775E+02	6.07457522238E+00	-1.77066760106E+02	-5.03997049810E+01	1.25200405049E+02	-6.04585272376E+00	-1.16538419528E-01
3.01085795647E+05	-2.52304275820E+01	-1.11854686205E+02	6.03267438397E+00	-1.77460445508E+02	-4.46247449981E+01	1.70149622443E+02	-6.06522900063E+00	-2.34796469839E-01
3.01303425902E+05	-1.40311108376E+01	2.85711127599E+01	5.86758414984E+00	-1.77802142175E+02	-3.44659994220E+01	-1.21065100483E+01	-6.00299924045E+00	-3.73793109833E-01
3.01521213465E+05	-1.69706912399E+01	1.55518781378E+01	5.94993697957E+00	-1.77885011828E+02	-4.24878134325E+01	4.57569601031E+01	-6.02017217979E+00	-3.67378683143E-02
3.01739158449E+05	-1.26306816103E+01	5.13451564829E+01	5.93532619175E+00	-1.78200304194E+02	-4.47736914693E+01	-1.52457613397E+02	-6.07908980871E+00	-4.01579399981E-01
3.01957260967E+05	-2.34147289536E+01	-3.85799861164E+00	5.96850909312E+00	-1.77533595634E+02	-4.94321248999E+01	-6.01333060056E+01	-6.05232766887E+00	-1.91763781404E-01
3.02175521134E+05	-1.68412119150E+01	-7.58609287672E-01	5.91466010507E+00	-1.77481760593E+02	-3.91285305069E+01	1.49677653722E+02	-6.05538910603E+00	6.16000070919E-02
3.02393939063E+05	-1.99188930273E+01	8.08455191920E+01	5.99396834216E+00	-1.77850448614E+02	-4.91878709958E+01	-1.78604057890E+02	-6.05272815482E+00	9.87866811831E-04
3.02612514869E+05	-1.60738868551E+01	6.11100329730E+01	6.03499542717E+00	-1.78455012212E+02	-4.67204290695E+01	1.40753351830E+01	-6.02985954841E+00	-1.77347299543E-01
3.02831248665E+05	-2.39149141125E+01	7.47686047122E+00	5.96205191881E+00	-1.77669927670E+02	-4.15214972666E+01	1.08995882691E+02	-6.03401036483E+00	-1.14744580918E-01
3.03050140565E+05	-1.72855756845E+01	3.66372433502E+01	5.98400237373E+00	-1.77783463008E+02	-3.95746436381E+01	-7.43079443187E+01	-6.03196356004E+00	-2.32051778056E-01
3.03269190685E+05	-1.93399261817E+01	3.49510652410E+01	5.98555284421E+00	-1.77943598073E+02	-5.45255913847E+01	-9.12871105453E+01	-6.01577155988E+00	-4.74369712622E-01
3.03488399138E+05	-1.13700046714E+01	-1.20320784844E+02	6.15121341324E+00	-1.76375650898E+02	-5.65099949023E+01	-1.60977296691E+02	-6.01804132998E+00	-1.96794944995E-02
3.03707766039E+05	-1.85695815706E+01	8.35555399645E+01	5.98839696384E+00	-1.77893321328E+02	-2.86895249536E+01	6.08926525896E+01	-5.96414168344E+00	5.27217432859E-01
3.03927291503E+05	-2.00362372384E+01	7.85757448376E+01	5.95230761517E+00	-1.78024842358E+02	-4.49309277858E+01	-1.47644527844E+02	-6.02945380913E+00	-1.41364925649E-01
3.04146975643E+05	-2.07317569775E+01	9.17454283427E+00	5.94566103782E+00	-1.77559765733E+02	-4.32019892328E+01	1.75945512363E+02	-6.06313875455E+00	-2.30627231742E-01
3.04366818575E+05	-1.45187120878E+01	5.87676771077E+01	5.93086344313E+00	-1.78600806815E+02	-3.92517283718E+01	2.20014111669E+01	-6.02868666981E+00	3.50373545362E-02
3.04586820414E+05	-1.96822532837E+01	-2.46680438210E+01	5.98736072771E+00	-1.77220082484E+02	-4.19842982811E+01	-5.76612839703E+01	-6.02399848957E+00	-1.31281838047E-01
3.04806981274E+05	-1.72708676453E+01	8.15359345530E+01	5.98160344627E+00	-1.78247432401E+02	-3.86815427153E+01	-1.23216217815E+02	-6.05497552315E+00	-2.92118760250E-01
3.05027301270E+05	-2.14981756133E+01	6.43119697524E+01	6.00188194825E+00	-1.77872860856E+02	-4.81163888252E+01	-9.67396883892E+01	-6.04119968696E+00	-2.95384808574E-01
3.05247780517E+05	-8.40713391010E+00	4.89483127987E+01	5.82598547925E+00	-1.79089562983E+02	-4.10903885098E+01	-7.66409800753E+01	-6.02123829267E+00	-3.27906087248E-01
3.05468419131E+05	-1.99334199311E+01	1.54246799480E+01	5.91275368234E+00	-1.77959429735E+02	-3.51386725745E+01	-2.49805378131E+01	-5.97479892258E+00	-1.96699239936E-01
3.05689217226E+05	-1.96907064139E+01	-4.42517629689E+01	5.99329015580E+00	-1.77296737101E+02	-4.69001750648E+01	-5.94935454030E+01	-6.03492185487E+00	-3.22016927502E-01
3.05910174918E+05	-1.99806380486E+01	-5.39368889193E+01	5.96770706905E+00	-1.77597172347E+02	-3.96397052623E+01	-5.69771412123E+01	-6.01126739418E+00	-3.72316611040E-01
3.06131292322E+05	-1.90524617383E+01	-1.59531237128E+02	6.02753059433E+00	-1.77503909620E+02	-4.16682192026E+01	3.04052628538E+01	-6.03906685065E+00	-1.00110082323E-01
3.06352569554E+05	-3.20407311568E+01	1.76196362014E+01	5.93872194594E+00	-1.77520097842E+02	-3.39796676279E+01	8.00569495704E+01	-6.04535360277E+00	1.44811811868E-02
3.06574006730E+05	-2.49271154560E+01	8.83420158242E+01	5.98466415878E+00	-1.77927663391E+02	-4.79528703915E+01	8.34561496098E+01	-6.05719797546E+00	-7.39864367355E-02
3.06795603964E+05	-1.83786638943E+01	-4.46043066706E+00	5.91095109843E+00	-1.77761557738E+02	-3.84236059034E+01	1.75272624518E-01	-6.00168892199E+00	-6.30705989035E-02
3.07017361372E+05	-2.80489111750E+01	9.93124907256E+01	6.01357191549E+00	-1.77952713840E+02	-5.11745205536E+01	-1.68050704151E+02	-6.07688696978E+00	-2.29692470617E-01
3.07239279071E+05	-2.40377988476E+01	9.34903528410E+01	5.93621235138E+00	-1.77983484776E+02	-4.27284444925E+01	-5.48879501886E+01	-6.03529559634E+00	-2.22519248173E-01
3.07461357176E+05	-1.78195429798E+01	9.19504799605E+01	6.00352453715E+00	-1.77989103469E+02	-4.19269836067E+01	-8.46691630657E+01	-5.99822782711E+00	-3.94156593287E-01
3.07683595803E+05	-1.28067365773E+01	1.31043111397E+02	6.12510691628E+00	-1.78824930426E+02	-5.31850051873E+01	1.77403155503E+01	-6.03066501867E+00	-1.32755158359E-01
3.07905995068E+05	-2.20026429870E+01	1.20056953757E+01	5.99974304751E+00	-1.77786104181E+02	-3.39373144847E+01	-1.18560919546E+02	-6.06088587434E+00	-6.35629051404E-01
3.08128555087E+05	-2.01087122327E+01	3.65131035136E+01	5.98152452349E+00	-1.77617579856E+02	-3.64321731401E+01	-6.57651281955E-01	-5.98758630332E+00	-2.76127926904E-01
3.08351275976E+05	-2.08757661317E+01	-3.38317178966E+01	5.93802225641E+00	-1.77649687275E+02	-4.34783874941E+01	6.68763603716E+01	-6.02329163179E+00	-1.74167483785E-01
3.08574157853E+05	-1.24052062713E+01	5.99030232524E+01	5.92185981772E+00	-1.78630849672E+02	-4.35153257401E+01	-2.49647905292E+01	-6.02390124167E+00	-2.61534758584E-01
3.08797200832E+05	-2.02890857344E+01	-1.68266550284E+01	5.94597846804E+00	-1.77577678819E+02	-3.58464580412E+01	9.22076262856E+01	-6.03551365688E+00	1.24807767160E-01
3.09020405031E+05	-1.99787094638E+01	3.28000733759E+01	5.95803765936E+00	-1.77846163157E+02	-4.92569775190E+01	-4.23629041262E+01	-6.04588734474E+00	-2.12234517135E-01
3.09243770566E+05	-1.90137090773E+01	-6.96819668436E-01	5.90958735010E+00	-1.77945684785E+02	-4.34904923923E+01	2.10158367931E+01	-6.02205864290E+00	-2.06057317112E-01
3.09467297553E+05	-2.41922129199E+01	-1.36986753979E+02	6.03233305632E+00	-1.77420483881E+02	-4.55006033137E+01	1.68437511622E+02	-6.04616267573E+00	-1.31707124509E-01
3.09690986110E+05	-2.33031959273E+01	1.01084289666E+02	5.98658718355E+00	-1.78267134240E+02	-2.62021203848E+01	-3.65887110046E+01	-5.92964457497E+00	-8.17838661719E-01
3.09914836353E+05	-1.30978054012E+01	8.40390304167E+01	5.93868613575E+00	-1.78702820637E+02	-5.23293844235E+01	-3.06151822236E+01	-6.01574550172E+00	-1.74026576378E-01
3.10138848399E+05	-3.42568150093E+01	4.57680316440E+01	5.98013053884E+00	-1.77674874127E+02	-3.63626335584E+01	1.23157479157E+02	-6.05101619569E+00	-7.51258838965E-02
3.10363022365E+05	-2.11169467870E+01	1.48740638424E+02	6.06203636381E+00	-1.78009274149E+02	-4.18754518137E+01	3.88945017901E+01	-6.01955750462E+00	-1.84254883449E-01
3.10587358368E+05	-2.53124591332E+01	-1.54435779511E+01	5.95704754343E+00	-1.77648382766E+02	-3.24128725721E+01	-3.68719587529E+01	-5.98222933582E+00	-5.11811038909E-01
3.10811856525E+05	-2.41840974458E+01	-8.22965898593E+01	5.99413820344E+00	-1.77610567370E+02	-4.41235843936E+01	4.12439061994E+01	-6.06655756704E+00	-8.11022379573E-02
3.11036516954E+05	-2.98161457087E+01	-3.28019734930E+01	6.01076576384E+00	-1.77701159317E+02	-5.44360502259E+01	2.29704317691E+01	-6.04615328035E+00	-1.61405537912E-01
3.11261339771E+05	-1.57346028372E+01	-1.34452851513E+02	6.05113746736E+00	-1.77434707998E+02	-4.36044712939E+01	1.41013994616E+02	-6.01350118925E+00	-1.43574650523E-01
3.11486325094E+05	-1.89851336819E+01	9.29469384761E+01	6.00122208306E+00	-1.78415191767E+02	-5.08397209136E+01	4.54998702888E+01	-6.03549487565E+00	-7.53996609277E-02
3.11711473040E+05	-1.90779281919E+01	6.18066852247E+01	5.96939033238E+00	-1.78214089650E+02	-3.98758102492E+01	-1.56932900315E+02	-6.06783589549E+00	-3.53203001653E-01
3.11936783728E+05	-1.38211675214E+01	7.55054401183E+01	5.99559801256E+00	-1.78717576838E+02	-4.89974214844E+01	1.76849488146E+02	-6.04390874648E+00	-8.50779696293E-02
3.12162257274E+05	-2.94475903511E+01	1.50693795148E+02	6.02571245524E+00	-1.78133155257E+02	-3.99747655658E+01	-8.69390611830E+01	-6.02630633618E+00	-4.17650785989E-01
3.12387893797E+05	-2.78470654886E+01	-3.29182488411E-01	6.02807082083E+00	-1.77755267317E+02	-3.56726402065E+01	1.79754648925E+02	-6.10611792125E+00	-1.75743821871E-01
3.12613693413E+05	-1.66644478768E+01	3.18447134837E+01	5.90103972758E+00	-1.77829930628E+02	-5.08369656146E+01	-7.37725425790E+00	-6.03232790741E+00	-3.07033557036E-01
3.12839656242E+05	-1.87892261576E+01	1.16167238093E+01	5.93843641073E+00	-1.77920286968E+02	-4.53498228755E+01	1.75627660211E+02	-6.03751423473E+00	-1.33160930320E-01
3.13065782401E+05	-1.96134809386E+01	8.69459177050E+01	5.98125868508E+00	-1.78049722119E+02	-4.19946631913E+01	1.56934157130E+02	-6.06882374120E+00	-1.51509292068E-01
3.13292072007E+05	-2.40710689866E+01	-1.26766668473E+01	5.94165835082E+00	-1.77903535676E+02	-4.83614796651E+01	1.23196771201E+01	-6.03477654369E+00	-1.32639579598E-01
3.13518525180E+05	-2.35543244147E+01	3.35618117378E+01	5.96052066284E+00	-1.77961887026E+02	-5.08007388164E+01	5.84020489213E+01	-6.00573583530E+00	-2.31296359225E-01
3.13745142038E+05	-1.61151428885E+01	6.48694593237E+01	5.96323804191E+00	-1.78578430295E+02	-3.73755852331E+01	-8.06771269112E+01	-6.01725194710E+00	-1.72918322091E-01
3.13971922698E+05	-3.07214050254E+01	1.35029136940E+02	6.01990618059E+00	-1.78026931122E+02	-3.18778331908E+01	1.30130557692E+02	-6.07031373222E+00	6.84175576615E-02
3.14198867279E+05	-2.43538909712E+01	6.93216247438E+01	5.93239277901E+00	-1.77996675362E+02	-4.25267160577E+01	1.38923462748E+02	-6.05986028382E+00	-1.65418123615E-01
3.14425975900E+05	-1.73263501903E+01	3.70242097331E+01	5.93425710503E+00	-1.78294112428E+02	-4.23290333333E+01	-1.61944083880E+02	-6.09434045161E+00	-1.05891378948E-01
3.14653248680E+05	-1.25564725372E+01	4.07924475309E+01	5.88243655552E+00	-1.78600036744E+02	-4.03319717058E+01	-1.23348427501E+02	-6.06059644834E+00	-4.71228898600E-01
3.14880685736E+05	-2.10041698232E+01	1.45404575480E+01	5.95595297885E+00	-1.77857942825E+02	-3.96743913461E+01	3.79220098400E+01	-6.04630190317E+00	-8.64222479093E-02
3.15108287188E+05	-1.56641653863E+01	4.87641978524E+01	5.92235058612E+00	-1.77974863940E+02	-3.62904071520E+01	7.83603209719E+01	-6.04137334472E+00	-6.49932013652E-02
3.15336053154E+05	-1.53013658449E+01	-3.71096047322E-02	5.90452344607E+00	-1.77616492573E+02	-4.54446726918E+01	-1.37504858892E+02	-6.03656921369E+00	-3.62184248271E-01
3.15563983753E+05	-1.58354125416E+01	-7.26148592292E+01	6.00265937706E+00	-1.76807606660E+02	-4.15394010512E+01	1.72605607144E+02	-6.05711300355E+00	-3.93263056254E-01
3.15792079105E+05	-2.33254539278E+01	4.63614370941E+01	5.98071927004E+00	-1.78163797227E+02	-3.78081076661E+01	3.72321404808E+01	-6.00549816152E+00	1.12252691608E-01
3.16020339328E+05	-2.29854086949E+01	6.24043250534E+01	5.92165294964E+00	-1.78165622107E+02	-4.04319850873E+01	-4.14031196334E+01	-6.04262507265E+00	-4.28318597596E-01
3.16248764542E+05	-2.24001246682E+01	7.33299166653E+01	5.92962321995E+00	-1.78055426381E+02	-4.41495494556E+01	-1.20994580363E+02	-6.04102855717E+00	-2.84882263608E-01
3.16477354866E+05	-2.21107804133E+01	-1.21917973632E+02	6.04765337708E+00	-1.77446472028E+02	-4.43646999219E+01	-3.65862116291E+01	-6.04805080138E+00	-2.15036946852E-01
3.16706110419E+05	-2.08794717360E+01	3.53470274430E+01	5.97508700719E+00	-1.78193117422E+02	-3.57508858803E+01	-1.16507307809E+02	-6.05177722159E+00	-4.40811923218E-01
3.16935031321E+05	-2.43449300696E+01	-1.28900762116E+01	5.94438639063E+00	-1.77678833821E+02	-4.49411928162E+01	-8.54859973326E+01	-6.06459531428E+00	-2.24940520303E-01
3.17164117691E+05	-2.07992215186E+01	1.38299208965E+01	5.95601012538E+00	-1.77812757652E+02	-5.98158347127E+01	-1.03429597441E+02	-6.05105911356E+00	-1.24275500517E-01
3.17393369648E+05	-1.96829240479E+01	6.35337295279E+01	6.01062511639E+00	-1.78225368549E+02	-4.12893845407E+01	1.19279627754E+02	-6.05205470033E+00	-1.68149147150E-02
3.17622787313E+05	-1.88194001426E+01	7.50442593409E+00	5.93590504776E+00	-1.77941060496E+02	-4.12723637721E+01	-1.15513764430E+02	-6.05659305374E+00	-3.24286410510E-01
3.17852370806E+05	-2.35139305602E+01	6.53658028686E+01	6.02306306056E+00	-1.78313829257E+02	-4.07836884979E+01	-6.82441691950E+00	-6.03660889447E+00	-3.99918177817E-01
3.18082120245E+05	-1.91932922122E+01	-5.66015525315E+01	5.88214088477E+00	-1.77413420555E+02	-3.98126495517E+01	2.64015312849E+01	-6.03019743467E+00	-1.15421019981E-01
3.18312035752E+05	-1.85264727024E+01	2.29457516923E+01	5.90730069897E+00	-1.77760887317E+02	-4.08261389756E+01	-1.09559091526E+01	-5.99133084622E+00	-1.28337324229E-01
3.18542117445E+05	-2.31797149738E+01	7.81629592665E+01	5.96795231204E+00	-1.78320194065E+02	-4.49015982314E+01	5.83080225782E+01	-6.03639805389E+00	-2.65761063460E-01
3.18772365446E+05	-1.55179032775E+01	4.26487781628E+01	5.88938076575E+00	-1.78314429660E+02	-4.46892880116E+01	-1.59447598678E+02	-6.04600426606E+00	-4.40308044960E-01
3.19002779874E+05	-9.06259904031E+00	-7.26366109487E+00	5.78819813653E+00	-1.77655260431E+02	-5.99622631571E+01	-6.61819803645E+01	-6.05757518970E+00	-2.51685127669E-01
3.19233360850E+05	-1.87852773335E+01	2.02404125690E+01	5.88768572517E+00	-1.78312689288E+02	-3.91817975958E+01	-1.35974664917E+02	-6.06415777717E+00	-3.54983777165E-01
3.19464108494E+05	-1.70306883206E+01	-5.36106498736E+01	5.94484263249E+00	-1.77430567053E+02	-3.94956035547E+01	-6.79661454752E+01	-6.03759200946E+00	-3.82446545838E-01
3.19695022927E+05	-2.13851798264E+01	8.36381523445E+01	6.01889600514E+00	-1.78381953856E+02	-4.87780328109E+01	-4.85981464545E+01	-6.04125527360E+00	-1.83179274102E-01
3.19926104268E+05	-1.49865786111E+01	-1.55377300465E+01	5.85679186245E+00	-1.77670090650E+02	-3.63445974798E+01	1.46594037013E+01	-6.01145308757E+00	-7.67215587284E-03
3.20157352640E+05	-2.25693445429E+01	1.06936552258E+02	6.03850094695E+00	-1.78368634136E+02	-3.10898733564E+01	3.18338080868E+01	-5.98119737639E+00	-1.40200669638E-01
3.20388768162E+05	-2.05354542487E+01	8.38746997466E+01	5.99700675069E+00	-1.78133644509E+02	-5.08693141586E+01	-1.48047198365E+02	-6.04145930667E+00	-2.74054541860E-01
3.20620350955E+05	-2.20983792663E+01	2.29098771037E+01	5.93942085361E+00	-1.77792691050E+02	-3.89680285637E+01	7.61480195688E+01	-6.03579313256E+00	-5.41500926297E-02
3.20852101140E+05	-1.57255378968E+01	5.25700169490E+01	5.92377507048E+00	-1.78260929636E+02	-3.71879554618E+01	-7.24945022541E+01	-6.02769179351E+00	-4.19065633630E-01
3.21084018839E+05	-2.67302288606E+01	1.17698249995E+02	5.97131170654E+00	-1.78004512687E+02	-3.07352109100E+01	-2.14844657638E+01	-5.94780618937E+00	-2.94278333901E-01
3.21316104172E+05	-1.61163255873E+01	3.20664990186E+01	5.89357196662E+00	-1.77953516199E+02	-5.10060522436E+01	1.13847991004E+02	-6.02117464578E+00	-2.53241547051E-01
3.21548357261E+05	-2.55021426504E+01	-1.61887735737E+02	5.99120466953E+00	-1.77842280241E+02	-4.32876722269E+01	-1.47033951061E+02	-6.06038018186E+00	-1.87333658828E-01
3.21780778226E+05	-1.77013596417E+01	7.46303208445E+00	5.90364934497E+00	-1.77813483478E+02	-3.74448186445E+01	3.84052308309E+01	-6.00097550688E+00	-3.13029673111E-01
3.22013367189E+05	-3.54688428431E+01	1.68093196677E+02	6.03597559349E+00	-1.78116453053E+02	-3.85963243349E+01	-1.13740612804E+02	-6.06895595058E+00	-3.86428793374E-01
3.22246124272E+05	-3.05481001395E+01	3.33279732536E+01	5.99556429565E+00	-1.77750705000E+02	-4.41500756783E+01	-4.29443805794E+01	-6.04958726571E+00	-2.91491865409E-01
3.22479049596E+05	-2.10437008735E+01	5.16303287972E+00	5.89994769561E+00	-1.78073514518E+02	-4.12824461193E+01	1.22306103838E+02	-6.04239269018E+00	1.65158217047E-02
3.22712143282E+05	-1.50134251475E+01	5.52293218924E+01	5.89165402445E+00	-1.78591352339E+02	-3.81188626135E+01	2.56865639463E+01	-6.00824242004E+00	-2.02239800961E-01
3.22945405453E+05	-1.99927533262E+01	4.87004227513E+01	5.91599759859E+00	-1.78431850392E+02	-3.48648926876E+01	1.02485565982E+02	-6.08980488781E+00	6.53949485597E-02
3.23178836230E+05	-2.20184965239E+01	1.74239467814E+02	6.01357593056E+00	-1.77993200671E+02	-4.34813731283E+01	-1.03378009240E+02	-6.05060538242E+00	-3.59929576284E-01
3.23412435735E+05	-1.69230769995E+01	3.41872292233E+01	5.99971354013E+00	-1.78125846966E+02	-6.05175891372E+01	-1.03516117670E+02	-6.04596582996E+00	-1.21350712120E-01
3.23646204090E+05	-1.62074297111E+01	6.85981123756E+01	5.95932572677E+00	-1.78576290544E+02	-3.96808239399E+01	-8.03508172753E+01	-6.04324484649E+00	-6.07980379655E-01
3.23880141417E+05	-2.34061583187E+01	-2.19288182145E+01	5.92581386230E+00	-1.78261601474E+02	-4.82409637264E+01	-1.75913112853E+01	-6.00709488933E+00	-1.94442610119E-01
3.24114247838E+05	-1.77255025744E+01	4.37687384629E+01	5.94246755826E+00	-1.78107875828E+02	-4.22622722307E+01	-7.33866001583E+01	-6.03293971588E+00	-5.49096096926E-01
3.24348523475E+05	-1.58527582187E+01	7.58552032066E+01	5.94578151415E+00	-1.78728039364E+02	-3.81517923959E+01	-1.22669175821E+02	-6.05286508002E+00	-2.94063578575E-01
3.24582968451E+05	-1.75590680711E+01	2.33693542300E+01	5.86675202903E+00	-1.78426990267E+02	-3.31862773897E+01	-9.29968838700E+00	-5.96713535133E+00	-1.11778707808E-01
3.24817582888E+05	-2.09614075237E+01	3.91490384257E+01	5.95299952152E+00	-1.78519119338E+02	-3.87595515344E+01	-1.11625529071E+02	-6.04427186732E+00	-3.40308365287E-01
3.25052366909E+05	-2.16522065319E+01	1.43072694173E+01	5.95979628834E+00	-1.78247645388E+02	-4.70086388565E+01	-3.49166811477E+00	-6.04480700874E+00	-2.11719832233E-01
3.25287320635E+05	-1.33663982915E+01	-7.30612536939E+01	5.97991763496E+00	-1.77121949549E+02	-4.41190147490E+01	1.73015066986E+02	-6.04687247778E+00	3.24581181091E-02
3.25522444191E+05	-2.14229658337E+01	8.95967337945E+00	5.92327860827E+00	-1.77829959848E+02	-4.62306096004E+01	-1.21562213482E+02	-6.02909096978E+00	-3.55211800263E-01
3.25757737698E+05	-1.68047790317E+01	-2.66297660917E+01	5.95540135806E+00	-1.77782963417E+02	-4.49545851141E+01	-1.58132559887E+02	-6.02683467628E+00	-3.49046259896E-01
3.25993201280E+05	-1.90242047703E+01	2.59258441714E+01	5.98607255654E+00	-1.78030153152E+02	-4.29000331286E+01	-2.91750362706E+01	-6.02340948705E+00	-2.92669984384E-01
3.26228835058E+05	-1.55482285481E+01	1.19063337974E+02	6.09938940364E+00	-1.78927478485E+02	-3.93018579540E+01	-1.16109359647E+02	-6.01426741878E+00	-1.94285311147E-01
