# Hz S DB R 50
! CMT, M5065, 19127446, 24.2.4/2
! Date: 11/1/2024 3:42:13 PM
! Data: Format (Calibration Info)
! Freq	S11:dB/Ang(F2)	S21:dB/Ang(F2)	S12:dB/Ang(F2)	S22:dB/Ang(F2)
3.00000000000E+05	-1.28130055332E+01	-1.28163488791E+01	1.71349289228E+01	-1.76842913731E+02	-3.74261906508E+01	-9.61512821318E+01	-6.03547629287E+00	-1.28931419249E+00
3.00216845423E+05	-1.85072520510E+01	-7.19948885253E+01	1.72260243683E+01	-1.76648924101E+02	-4.29470114477E+01	-3.73638662818E+01	-5.94022366972E+00	-4.06532230979E-01
3.00433847586E+05	-2.14458486408E+01	1.49741657256E+01	1.72508317307E+01	-1.77431760995E+02	-4.17552446685E+01	-4.35651225246E+01	-6.03457777410E+00	-1.68451935564E-01
3.00651006602E+05	-1.55285834932E+01	7.55003411448E+01	1.72360057604E+01	-1.77668401091E+02	-4.67978267421E+01	1.22311725731E+02	-6.01985273925E+00	-3.63587586817E-02
3.00868322584E+05	-1.62422209119E+01	2.56219516913E+01	1.72004924919E+01	-1.77239577314E+02	-3.91447806244E+01	-4.09866615081E+01	-5.97289444979E+00	-7.67452555557E-01
3.01085795647E+05	-1.93430632784E+01	-2.92271287285E+00	1.71971381931E+01	-1.77141386608E+02	-5.06855523129E+01	1.23011718301E+02	-6.07089752212E+00	3.16975043192E-02
3.01303425902E+05	-2.42140332553E+01	1.18888438788E+02	1.72900340980E+01	-1.77511712596E+02	-5.16456440947E+01	-1.08901715969E+02	-6.04814857473E+00	-3.98995292954E-01
3.01521213465E+05	-7.89446214015E+00	-1.37157634206E+02	1.74572416546E+01	-1.75690852203E+02	-3.63740676999E+01	1.53269200457E+02	-6.13996977539E+00	-1.15447247670E-01
3.01739158449E+05	-1.66138646027E+01	4.63277964932E+00	1.71725631378E+01	-1.77341590616E+02	-3.95118042891E+01	-9.70423795440E+01	-6.05522948830E+00	-5.59380803008E-01
3.01957260967E+05	-1.40680446435E+01	5.81683437500E+01	1.72214485423E+01	-1.77566979151E+02	-3.62115297038E+01	-1.15529988686E+02	-6.08347968800E+00	-1.25120655046E+00
3.02175521134E+05	-1.43757655366E+01	4.05747051337E+01	1.71821531260E+01	-1.77516513813E+02	-3.65080272977E+01	1.16033238752E+02	-6.11679788079E+00	5.11517484058E-01
3.02393939063E+05	-2.59066127925E+01	-9.08731634189E+00	1.72500556382E+01	-1.77153239388E+02	-3.57546177339E+01	-4.16807317904E+01	-5.96521828063E+00	-9.91394421335E-01
3.02612514869E+05	-1.72112906313E+01	-5.86824928197E+01	1.72020691686E+01	-1.76674164099E+02	-3.81322467676E+01	-1.30727553823E+02	-6.17925045213E+00	-8.59222101995E-01
3.02831248665E+05	-1.70648448101E+01	4.71095095510E+01	1.72238656393E+01	-1.77516254478E+02	-4.93032156664E+01	-4.49243970842E+01	-5.97229747040E+00	-5.37225743700E-01
3.03050140565E+05	-1.13022175515E+01	4.71838799456E+01	1.71587684821E+01	-1.78023968940E+02	-3.39786306159E+01	1.16412672140E+02	-6.10490519605E+00	6.62316773991E-01
3.03269190685E+05	-2.37342723223E+01	6.64483018435E+01	1.72697236629E+01	-1.77538452252E+02	-3.76491344455E+01	7.41759987349E+01	-6.01679941967E+00	4.25236038779E-01
3.03488399138E+05	-1.84953047894E+01	-7.66957076310E+01	1.72157142606E+01	-1.76694976951E+02	-3.89990977081E+01	2.43583197027E+01	-5.96239860434E+00	-6.01686726989E-02
3.03707766039E+05	-1.68783323012E+01	4.86483870613E+01	1.71902216750E+01	-1.77290860714E+02	-3.75991376128E+01	6.84172853452E+01	-5.99223603326E+00	3.30761999244E-01
3.03927291503E+05	-1.76305432433E+01	9.25925560563E+01	1.72498030701E+01	-1.77505414614E+02	-4.11377590272E+01	8.95929905960E+01	-6.00107888060E+00	1.42743447784E-01
3.04146975643E+05	-2.03983162719E+01	1.31143070269E+02	1.73043755494E+01	-1.77571216255E+02	-3.97747593718E+01	7.53127740491E+01	-5.97323755864E+00	3.50782973162E-01
3.04366818575E+05	-1.31183312747E+01	-9.82002419945E+00	1.70905057349E+01	-1.77010848995E+02	-3.16782015453E+01	1.23143203141E+02	-6.14887482729E+00	1.09516368669E+00
3.04586820414E+05	-1.47032717197E+01	-1.04391372223E+01	1.71329978447E+01	-1.76873807520E+02	-3.87060040271E+01	-1.41557226577E+02	-6.09610593953E+00	-5.55945054659E-01
3.04806981274E+05	-2.77790435794E+01	-1.24825040652E+02	1.72555182318E+01	-1.76972742654E+02	-4.22300327435E+01	-1.00442953000E+02	-6.01789913487E+00	-6.65558627151E-01
3.05027301270E+05	-1.93355652045E+01	4.63468137450E+01	1.72034022238E+01	-1.77567111630E+02	-3.72996589495E+01	1.42721473163E+02	-6.13541446664E+00	2.14562017828E-01
3.05247780517E+05	-1.65359261049E+01	-1.71180528351E+00	1.72124836871E+01	-1.77045648458E+02	-4.24031058025E+01	-1.89870728615E+01	-5.98707438408E+00	-1.68216859828E-01
3.05468419131E+05	-2.04043680526E+01	-9.70735855356E+01	1.72518246098E+01	-1.76772519613E+02	-3.96046039546E+01	-1.66506157959E+02	-6.09816427485E+00	-2.64802760829E-01
3.05689217226E+05	-1.76652383699E+01	5.23765245646E+01	1.72295434253E+01	-1.77609035682E+02	-3.82100787658E+01	-6.83007616836E+01	-6.02311105139E+00	-8.93180500723E-01
3.05910174918E+05	-2.97094153943E+01	1.15160191630E+02	1.72524249498E+01	-1.77042878128E+02	-3.88181798804E+01	5.65973740690E+01	-5.98588479653E+00	3.04483860318E-01
3.06131292322E+05	-2.30375481019E+01	-1.68545202106E+02	1.73105855220E+01	-1.77024521292E+02	-6.34580394891E+01	1.16734472533E+02	-5.99415281572E+00	-4.27625175962E-01
3.06352569554E+05	-1.61469223309E+01	1.06336586246E+02	1.73092976509E+01	-1.77664930445E+02	-3.28982693113E+01	-8.27193239483E+01	-5.96533731638E+00	-1.18635263831E+00
3.06574006730E+05	-2.54581419978E+01	-9.98394122873E+01	1.72630775703E+01	-1.77041355112E+02	-3.54101469599E+01	-4.46839740315E+01	-5.90960269903E+00	-7.06425526939E-01
3.06795603964E+05	-1.22411433690E+01	2.22686754260E+01	1.71761344391E+01	-1.77697352782E+02	-3.78562645317E+01	-7.13814810983E+01	-6.00580992464E+00	-8.61806528080E-01
3.07017361372E+05	-1.78958650950E+01	4.38770370054E+01	1.72508492257E+01	-1.77819752561E+02	-4.11704016725E+01	7.80197999456E+01	-5.98427362513E+00	3.33152734934E-01
3.07239279071E+05	-1.99177561425E+01	-1.17976607349E+02	1.72740990587E+01	-1.77018625047E+02	-4.15028606957E+01	7.08232031126E+00	-5.91530486339E+00	6.05196443059E-02
3.07461357176E+05	-2.59607822053E+01	-4.22148335272E+00	1.72478296896E+01	-1.77470800669E+02	-2.94310735981E+01	-4.43066111853E+01	-5.80594510041E+00	-1.75955116330E+00
3.07683595803E+05	-7.80032969680E+00	-8.42096546781E+01	1.72383013485E+01	-1.75356477634E+02	-4.57655550493E+01	-9.99004365931E+01	-6.06445548646E+00	-6.22520220833E-01
3.07905995068E+05	-1.85821051658E+01	5.35898671012E+01	1.71821753327E+01	-1.77759151179E+02	-3.72760577597E+01	-9.11023496688E+01	-5.98904298564E+00	-1.23605802781E+00
3.08128555087E+05	-2.52670973345E+01	-6.90711774050E+01	1.72677694535E+01	-1.76942467031E+02	-3.87980512827E+01	4.32027657742E+00	-5.94421732033E+00	1.92878985612E-02
3.08351275976E+05	-2.34794010908E+01	1.70555358873E+02	1.73173532053E+01	-1.77311988968E+02	-4.32719885944E+01	7.97907654724E+01	-6.02532522292E+00	5.37398192995E-02
3.08574157853E+05	-2.36498388630E+01	8.76790117647E+01	1.72698288400E+01	-1.77672268543E+02	-5.20236533507E+01	-1.71544274067E+02	-6.02815666877E+00	-2.38959344059E-01
3.08797200832E+05	-3.36820971874E+01	-4.78197281003E+01	1.73007044943E+01	-1.77116334390E+02	-4.22814467108E+01	-1.59813331726E+02	-6.09452406691E+00	-5.91141152673E-01
3.09020405031E+05	-1.13070140627E+01	5.63241629244E+01	1.71827821602E+01	-1.77921427836E+02	-2.80844466623E+01	7.33297323095E+01	-5.94118679387E+00	1.66578245539E+00
3.09243770566E+05	-1.02211269218E+01	-1.55400112411E+01	1.70723414974E+01	-1.77104839290E+02	-3.76355642971E+01	1.09337898241E+02	-6.08129806737E+00	3.34223004543E-01
3.09467297553E+05	-1.38280171148E+01	3.69488616260E+01	1.71300159181E+01	-1.78028976493E+02	-3.92894199589E+01	7.55485301792E+01	-5.97379826412E+00	3.60050725967E-01
3.09690986110E+05	-3.75524978583E+01	1.09043026485E+02	1.72780120734E+01	-1.77077521142E+02	-4.37006882861E+01	8.06761224143E+01	-6.04668738777E+00	1.99913464174E-01
3.09914836353E+05	-3.11478426535E+01	1.24451646798E+02	1.73068348745E+01	-1.77333388003E+02	-4.45255982386E+01	2.63241289384E+01	-5.99405727862E+00	9.65021216884E-02
3.10138848399E+05	-1.39461408637E+01	1.50353509027E+01	1.71234308710E+01	-1.77570294335E+02	-4.24097637809E+01	1.32459525703E+01	-6.02452717593E+00	-8.76922191800E-02
3.10363022365E+05	-1.67310443432E+01	2.55573856815E+01	1.71827075672E+01	-1.77367749626E+02	-4.85989274162E+01	4.44364394782E+01	-6.00611958726E+00	6.74555913201E-02
3.10587358368E+05	-1.84376560720E+01	4.94197202757E+01	1.71845977946E+01	-1.77904632806E+02	-4.09432735691E+01	-1.27578324000E+02	-6.14418694737E+00	-6.65622754224E-01
3.10811856525E+05	-8.47688121444E+00	4.52992852884E+01	1.71291807969E+01	-1.78775442843E+02	-4.81526213909E+01	1.74390809562E+02	-6.04676686783E+00	-4.58553968625E-01
3.11036516954E+05	-1.39201217556E+01	4.14740789775E+01	1.72010630842E+01	-1.77573831939E+02	-4.55731906255E+01	7.60877535463E+00	-6.02232035949E+00	8.08457778274E-02
3.11261339771E+05	-2.60141721400E+01	9.14927031564E+01	1.72836032988E+01	-1.77472444127E+02	-4.79029666726E+01	4.81698095252E+01	-6.01275121674E+00	1.67169298830E-02
3.11486325094E+05	-2.48115278896E+01	1.17776404079E+02	1.72815559870E+01	-1.77518445789E+02	-4.04131253740E+01	1.66396376285E+02	-6.10322511307E+00	-2.58194144982E-01
3.11711473040E+05	-2.28867131367E+01	5.00888220117E+01	1.72475253842E+01	-1.77652065842E+02	-4.09438998560E+01	-2.66852549289E+01	-5.90927898875E+00	-3.36999925996E-01
3.11936783728E+05	-1.86505299411E+01	3.03260807391E+01	1.72096030633E+01	-1.77470834658E+02	-3.90508671439E+01	-1.27706352592E+02	-6.11843158391E+00	-6.99662248523E-01
3.12162257274E+05	-2.52742573001E+01	-1.38692691508E+02	1.72856228322E+01	-1.76960237208E+02	-2.89692938743E+01	6.55709295417E+01	-5.89436209116E+00	2.03809142520E+00
3.12387893797E+05	-6.30005909825E+00	1.34576149830E+02	1.74792315855E+01	-1.79026757623E+02	-3.74959063339E+01	-1.06353682838E+02	-6.01587297479E+00	-1.23184167693E+00
3.12613693413E+05	-2.00803637442E+01	1.58524898716E+02	1.72913051637E+01	-1.77347269202E+02	-4.89510140902E+01	-1.59235653208E+02	-6.06497762726E+00	-2.19425544755E-01
3.12839656242E+05	-2.14702477086E+01	-1.38265478461E+01	1.72221202690E+01	-1.77369037739E+02	-4.27117620737E+01	-1.42624412289E+02	-6.08100492118E+00	-3.88279727721E-01
3.13065782401E+05	-1.63167441296E+01	-9.04286687602E-01	1.72341783596E+01	-1.77320744603E+02	-3.97556664572E+01	-1.16426882884E+02	-6.01407857678E+00	-6.40258334416E-01
3.13292072007E+05	-2.05826608887E+01	1.61949531863E+02	1.73023164570E+01	-1.77681711222E+02	-3.52082635453E+01	-1.92771657866E+01	-5.87975486730E+00	-3.94521500374E-01
3.13518525180E+05	-2.43665784483E+01	-1.67636890435E+02	1.73103775907E+01	-1.77148937933E+02	-4.37264157362E+01	-1.29471311443E+02	-6.10877599224E+00	-5.67751001867E-01
3.13745142038E+05	-1.94428605745E+01	9.04689254175E+01	1.72751760893E+01	-1.77999882717E+02	-2.72084244134E+01	-9.70708423535E+01	-6.08907514020E+00	-3.13499905796E+00
3.13971922698E+05	-1.97589869890E+01	-1.33945292191E+01	1.71734050176E+01	-1.77508137740E+02	-4.22010499315E+01	1.50501256571E+01	-6.00438867120E+00	-3.45898974209E-01
3.14198867279E+05	-2.14485954533E+01	8.06847960256E+01	1.72694942542E+01	-1.77656601330E+02	-4.02020651888E+01	1.52626156836E+02	-6.14369065836E+00	1.79843273124E-02
3.14425975900E+05	-2.05245730734E+01	1.20624931745E+02	1.72519376221E+01	-1.77606452902E+02	-3.82229383826E+01	5.38549045405E+00	-5.94086047489E+00	-1.54499533819E-01
3.14653248680E+05	-2.16493009057E+01	8.97759057632E+01	1.72884862690E+01	-1.77852086807E+02	-4.40339594349E+01	1.38951764579E+02	-6.02483643582E+00	-1.10571728400E-01
3.14880685736E+05	-1.36207868345E+01	4.22761331370E+01	1.72091423589E+01	-1.78281615524E+02	-4.26386904818E+01	-7.78153731883E+01	-6.03225015317E+00	-7.27613847351E-01
3.15108287188E+05	-1.72808431214E+01	-1.89951227794E+01	1.71967848491E+01	-1.77321666009E+02	-3.99086999206E+01	-4.84882503465E+01	-5.97223164901E+00	-9.66980305408E-01
3.15336053154E+05	-1.48966121976E+01	6.06088203087E+01	1.72552357561E+01	-1.77735348355E+02	-4.01886918944E+01	-1.79242250024E+02	-6.11112244477E+00	-5.13760116689E-01
3.15563983753E+05	-6.77872773912E+00	1.20873787666E+02	1.74474935897E+01	-1.79345701145E+02	-3.55936710521E+01	-4.51002047474E+01	-5.90583806526E+00	-6.89412983544E-01
3.15792079105E+05	-2.27285317063E+01	3.81323460146E+01	1.72269670483E+01	-1.77669776812E+02	-4.56576988406E+01	1.28636488871E+02	-6.07519653766E+00	-5.13141977460E-02
3.16020339328E+05	-1.75339985359E+01	-6.61506995059E+00	1.72133840944E+01	-1.77429832822E+02	-4.44115455447E+01	5.15910242627E+01	-6.00889460468E+00	-2.43249892679E-01
3.16248764542E+05	-1.90119779812E+01	5.21366195557E+01	1.72180000428E+01	-1.77842550218E+02	-4.31541309798E+01	1.39164666661E+02	-6.07998928740E+00	-2.63949470918E-01
3.16477354866E+05	-1.72140937601E+01	2.10763812705E+01	1.71854218686E+01	-1.77773937430E+02	-3.95437673026E+01	-2.02356653760E+01	-5.99379338509E+00	-3.53540401085E-01
3.16706110419E+05	-2.50007150210E+01	1.58028637435E+02	1.73053896259E+01	-1.77684829796E+02	-5.35427595467E+01	1.07160482739E+02	-6.05221609207E+00	-5.16509700338E-02
3.16935031321E+05	-2.37873378133E+01	6.15523790557E+01	1.72380542048E+01	-1.77669459489E+02	-2.71399124658E+01	-2.60885332647E+01	-5.66790385812E+00	-1.37461660444E+00
3.17164117691E+05	-1.30239011123E+01	-5.43880969441E+01	1.71779066198E+01	-1.76904680775E+02	-2.53470688350E+01	1.21981472286E+02	-6.29356552913E+00	2.67631649641E+00
3.17393369648E+05	-6.22529149736E+00	2.15682586324E+00	1.68912131557E+01	-1.77628803831E+02	-4.43142653592E+01	9.24128359962E+01	-6.02507523621E+00	8.36714529796E-02
3.17622787313E+05	-1.21722438465E+01	1.91881350778E+01	1.71065992984E+01	-1.78283350015E+02	-3.43065055789E+01	1.61070307568E+01	-5.91830340945E+00	-7.43981064325E-02
3.17852370806E+05	-2.54623881135E+01	1.16573410092E+02	1.72978778992E+01	-1.77545677195E+02	-3.63484292938E+01	7.99903987813E+01	-5.98075842010E+00	3.70175773035E-01
3.18082120245E+05	-2.19177863880E+01	8.75584502664E+01	1.72912418150E+01	-1.77531696474E+02	-3.61300083030E+01	3.37218125917E+01	-5.90851273791E+00	1.05751450158E-01
3.18312035752E+05	-3.11779238261E+01	-6.12217451248E+01	1.72476077697E+01	-1.77385740636E+02	-4.11037572624E+01	-3.03192020882E+01	-5.98040349856E+00	-3.62242057413E-01
3.18542117445E+05	-2.24802311272E+01	-2.18897884703E+01	1.72254933764E+01	-1.77376891594E+02	-3.21178781384E+01	-6.89050815447E+01	-5.93630781779E+00	-1.91121868055E+00
3.18772365446E+05	-1.09725363711E+01	-1.16070687910E+02	1.73668469181E+01	-1.76321287352E+02	-3.92409814777E+01	-8.84255089000E+01	-5.96846624410E+00	-1.11217275457E+00
3.19002779874E+05	-1.19675988190E+01	2.89577204498E+01	1.71343675281E+01	-1.78342991567E+02	-4.66048320894E+01	7.50918097471E+01	-6.01091939290E+00	-9.57715018585E-02
3.19233360850E+05	-3.93412495803E+01	-9.47680858103E+01	1.72563811849E+01	-1.77227141282E+02	-3.83902987102E+01	1.45660857043E+02	-6.11537819942E+00	-3.91821989074E-02
3.19464108494E+05	-2.63482057413E+01	-9.84979307444E+01	1.72559144462E+01	-1.77470003383E+02	-3.38307446698E+01	-1.08449281893E+02	-6.04442994242E+00	-1.42092193138E+00
3.19695022927E+05	-1.40260901927E+01	1.37904621508E+01	1.71734346620E+01	-1.77637991359E+02	-4.32242784964E+01	-7.35668376650E+01	-5.99669019039E+00	-4.25290497155E-01
3.19926104268E+05	-1.76734283673E+01	2.41162914419E+01	1.71991035094E+01	-1.77917336285E+02	-3.58767879630E+01	-1.32131605396E+02	-6.13016169181E+00	-9.51043158248E-01
3.20157352640E+05	-2.13661885836E+01	-7.09963521176E+01	1.72371159715E+01	-1.77244505023E+02	-3.07001901546E+01	7.41698995881E+01	-6.01872712932E+00	1.26274739959E+00
3.20388768162E+05	-1.58443794725E+01	-2.09662323694E+01	1.71743233545E+01	-1.77223530830E+02	-2.78036300238E+01	-1.16423381823E+01	-5.60276324078E+00	-9.26671107376E-01
3.20620350955E+05	-1.83859274266E+01	-1.46654855669E+02	1.73776552275E+01	-1.77188051443E+02	-4.01240374472E+01	-1.61544335391E+02	-6.10916807312E+00	-6.70560816184E-01
3.20852101140E+05	-2.31195377380E+01	-7.48485427922E+01	1.72650283177E+01	-1.76982519558E+02	-3.86440073347E+01	-1.05301529357E+02	-6.01949952096E+00	-7.51896067498E-01
3.21084018839E+05	-2.44380891649E+01	2.68755874349E+01	1.72085523272E+01	-1.77739552759E+02	-4.87650417971E+01	1.14299636159E+02	-6.03338594709E+00	-3.32849357738E-01
3.21316104172E+05	-1.42835095886E+01	4.20184344788E+00	1.71814179515E+01	-1.77718282257E+02	-4.33435906086E+01	-1.53474783369E+02	-6.05412250589E+00	-2.12481432419E-01
3.21548357261E+05	-2.76118507225E+01	-4.04898618178E+01	1.72274427919E+01	-1.77670869967E+02	-4.68544216569E+01	1.40507967105E+02	-6.03702584335E+00	-3.87505735198E-01
3.21780778226E+05	-1.69939503884E+01	1.24377801048E+02	1.73489926140E+01	-1.78461057954E+02	-3.67288353769E+01	-1.81357490091E+01	-5.87960189632E+00	-9.72880698569E-01
3.22013367189E+05	-1.59116419201E+01	6.39042912529E+01	1.72235515126E+01	-1.78193632413E+02	-3.63118738398E+01	1.61711175030E+02	-6.15816299248E+00	2.23282644412E-01
3.22246124272E+05	-1.51818544758E+01	-8.59584668530E+01	1.72493357601E+01	-1.76846638471E+02	-4.44857534011E+01	-1.51652316536E+01	-5.95763910256E+00	-4.62772428105E-01
3.22479049596E+05	-1.28051920969E+01	-2.61112819065E+01	1.71488793189E+01	-1.77385599981E+02	-3.39994779974E+01	-4.51059202980E+01	-5.96009790761E+00	-1.13089452055E+00
3.22712143282E+05	-1.98683404700E+01	9.23093361767E+01	1.72565918025E+01	-1.77847758658E+02	-3.72797373627E+01	1.76835000393E+02	-6.16828965604E+00	-3.06239548199E-01
3.22945405453E+05	-1.62106527506E+01	4.08860192371E-01	1.71858155091E+01	-1.77359042780E+02	-4.24636082984E+01	7.29483498127E+01	-6.01181534146E+00	1.60054988321E-01
3.23178836230E+05	-1.90801100632E+01	1.60772036800E+02	1.72913464775E+01	-1.77754212923E+02	-3.65582508053E+01	1.79264254632E+02	-6.15116403650E+00	-1.69110813573E-01
3.23412435735E+05	-2.02444940056E+01	2.38412373372E+01	1.72077632626E+01	-1.77969250763E+02	-3.03252569336E+01	1.36396042384E+02	-6.23967481765E+00	1.28414667100E+00
3.23646204090E+05	-3.11344167836E+01	9.42829551982E+01	1.73324410217E+01	-1.77824453169E+02	-2.69748812941E+01	1.66672498890E+02	-6.45314374801E+00	3.55861655339E-01
3.23880141417E+05	-1.75504931133E+01	1.53967538109E+02	1.73483261409E+01	-1.78105888311E+02	-4.71450107316E+01	3.90985454205E+01	-6.02968671626E+00	-1.39339305367E-01
3.24114247838E+05	-1.93086791884E+01	8.30272280026E+01	1.72376710463E+01	-1.78150766358E+02	-3.78669844800E+01	-1.67394842721E+02	-6.11247655668E+00	-1.91839328272E-01
3.24348523475E+05	-2.63848421062E+01	-3.98770706644E+01	1.72390995011E+01	-1.77622484217E+02	-3.28124615866E+01	1.63115725166E+02	-6.20776823613E+00	-2.13293595167E-01
3.24582968451E+05	-2.65420727512E+01	-1.33715801137E+02	1.72837551762E+01	-1.77640697394E+02	-3.71521169306E+01	-1.87302577888E+01	-5.90625235554E+00	-4.94976869749E-02
3.24817582888E+05	-1.12770290027E+01	4.99306842079E+01	1.71428777471E+01	-1.78288466533E+02	-4.66738717226E+01	1.16848457341E+02	-6.07953576282E+00	1.76936784459E-01
3.25052366909E+05	-1.20964705538E+01	5.09256126934E+01	1.72132416963E+01	-1.78097598688E+02	-3.77502076432E+01	-1.25915448422E+02	-6.13505869735E+00	-9.15429556769E-01
3.25287320635E+05	-1.65615890083E+01	3.04047951244E+00	1.71860360457E+01	-1.77573259963E+02	-3.33147921494E+01	8.93772633039E+01	-5.96414315365E+00	1.18460203472E+00
3.25522444191E+05	-2.61714497271E+01	1.32484687270E+02	1.72762556392E+01	-1.78152796900E+02	-4.29721264239E+01	-4.15493933548E+01	-6.02508182918E+00	-5.67096162276E-01
3.25757737698E+05	-1.88705450286E+01	3.59701321733E+01	1.71858407882E+01	-1.77910819058E+02	-4.84176390274E+01	5.63854501973E+01	-5.98003040070E+00	-2.34412479423E-01
3.25993201280E+05	-2.57392789333E+01	4.27273276670E+01	1.72396574491E+01	-1.77841311100E+02	-3.80060114296E+01	2.33713339129E+01	-5.92678056382E+00	2.18169023171E-01
3.26228835058E+05	-1.67570828734E+01	3.96942011432E+01	1.71962138790E+01	-1.77961311103E+02	-3.89894558509E+01	2.04697618356E+01	-5.93123265131E+00	1.34321467923E-01
