# Hz S DB R 50
! CMT, M5065, 19127446, 24.2.4/2
! Date: 11/1/2024 3:27:36 PM
! Data: Format (Calibration Info)
! Freq	S11:dB/Ang(F2)	S21:dB/Ang(F2)	S12:dB/Ang(F2)	S22:dB/Ang(F2)
3.00000000000E+05	-1.09911044442E+01	1.06438190607E+02	9.15553178304E+00	-1.78838274110E+02	-3.57807739756E+01	-1.55042617530E+02	-6.09808453625E+00	-6.76238895454E-01
3.00216845423E+05	-1.61976202094E+00	1.53967083159E+02	9.63433636946E+00	-1.79239160065E+02	-3.44700561049E+01	-6.06037231761E+01	-6.00243325989E+00	-5.27495618926E-01
3.00433847586E+05	-2.32187818564E+01	1.21859423571E+01	9.02258594122E+00	-1.77224766508E+02	-3.73624403516E+01	-1.41318600454E+02	-6.08733253005E+00	-5.00976577974E-01
3.00651006602E+05	-2.88838896077E+01	4.30127715177E+01	9.06624965533E+00	-1.77912909065E+02	-3.60116333041E+01	4.56059141186E+01	-6.00697494162E+00	-6.51858388955E-02
3.00868322584E+05	-2.20631996801E+01	-1.34100267552E+02	9.06666270790E+00	-1.77439688461E+02	-4.00897844690E+01	8.52370333883E+01	-6.04442275520E+00	-1.60875027571E-01
3.01085795647E+05	-1.85778494308E+01	-5.64847438238E+01	8.98817976963E+00	-1.77317320769E+02	-3.30902184050E+01	1.69544243513E+02	-6.09809247065E+00	-1.52685958887E-01
3.01303425902E+05	-1.38070801436E+01	3.79547161320E+01	9.00336869350E+00	-1.78328934382E+02	-3.33086922828E+01	-4.45676323510E+01	-6.00119204518E+00	-6.57421672086E-01
3.01521213465E+05	-1.30063399482E+01	7.34393471615E+01	9.04992331106E+00	-1.78314360014E+02	-3.97387834736E+01	7.81067459655E+01	-6.00901167686E+00	-4.44885694256E-02
3.01739158449E+05	-1.81087496821E+01	3.60784427911E+01	8.98039771613E+00	-1.78160241765E+02	-3.89875507082E+01	5.78969866867E+01	-6.03436082931E+00	1.74041670781E-01
3.01957260967E+05	-1.47121503099E+01	3.50645088775E+01	8.91340128549E+00	-1.77929232747E+02	-3.62470467338E+01	1.86723453819E+00	-6.01510621732E+00	-7.64246792058E-02
3.02175521134E+05	-2.09465144373E+01	1.57281485401E+01	9.03250037785E+00	-1.77701193022E+02	-5.08603080819E+01	1.11125640994E+02	-6.03734707267E+00	-3.70132487411E-01
3.02393939063E+05	-3.89053899608E+01	8.09286151116E+01	9.04830468839E+00	-1.77650015393E+02	-3.63069599856E+01	1.46317507394E+02	-6.07704192445E+00	-2.24085195829E-01
3.02612514869E+05	-1.69643160800E+01	4.33538707280E+01	8.99181615608E+00	-1.78119419696E+02	-3.28784546347E+01	1.75358478658E+02	-6.14406347959E+00	-1.07410602637E-01
3.02831248665E+05	-3.26273087636E+01	-1.08288859539E+02	9.08162560726E+00	-1.77319567730E+02	-3.79442048052E+01	-7.35587387895E+01	-6.02454461163E+00	-5.89531966420E-01
3.03050140565E+05	-1.55807869333E+01	2.36124868071E+01	8.98740647153E+00	-1.77720608046E+02	-4.12252930515E+01	8.71872431819E+01	-5.98821846335E+00	-9.17383825563E-02
3.03269190685E+05	-9.62620879721E+00	1.35140614630E+02	9.20915613887E+00	-1.78798838506E+02	-4.07863282313E+01	-5.21820807451E+01	-6.01790394775E+00	-3.12470492784E-01
3.03488399138E+05	-2.33715804115E+01	5.81666508343E+01	9.05664080463E+00	-1.77857307919E+02	-5.09339160572E+01	-2.09521083546E+01	-6.05599776768E+00	-2.21287094001E-01
3.03707766039E+05	-2.12289688374E+01	9.16198656686E+00	8.95722791713E+00	-1.77790965872E+02	-4.56948042793E+01	7.51447768438E+01	-6.02130237974E+00	-1.54993093235E-01
3.03927291503E+05	-2.19930140009E+01	-1.35264538087E+02	9.09378140352E+00	-1.77797357532E+02	-3.40708383068E+01	1.18325010347E+02	-6.07301409971E+00	5.06186252077E-02
3.04146975643E+05	-3.69328586802E+01	1.36824988945E+02	9.12966589395E+00	-1.77739012915E+02	-3.07220294800E+01	-4.23417445985E+01	-5.95046169080E+00	-9.50168268798E-01
3.04366818575E+05	-1.58992892896E+01	2.87634131815E+01	8.95852980928E+00	-1.77808899381E+02	-5.40901027288E+01	-1.07194377221E+02	-6.09831660881E+00	-4.29694020083E-01
3.04586820414E+05	-1.79547246285E+01	1.74704029335E+01	8.98428493273E+00	-1.77550061808E+02	-4.37860125289E+01	5.51374958121E+01	-6.05497608842E+00	-2.65202966656E-01
3.04806981274E+05	-3.14062814440E+01	-1.74545318827E+02	9.02334528988E+00	-1.77462748654E+02	-4.12757032975E+01	9.68690429597E+01	-6.03963015600E+00	-1.27546609183E-01
3.05027301270E+05	-1.54486845001E+01	-2.15712759607E+01	8.97192532323E+00	-1.77059936533E+02	-4.00842107059E+01	-1.46370240979E+02	-6.06962712931E+00	-4.59955911843E-01
3.05247780517E+05	-2.39690141025E+01	1.20023856585E+01	9.01892524693E+00	-1.77521228133E+02	-3.68866647484E+01	-1.36858787132E+02	-6.07328931057E+00	-2.70893476535E-01
3.05468419131E+05	-1.87458051235E+01	6.78487472345E+01	9.07425417678E+00	-1.78234459684E+02	-3.90859935682E+01	3.73657620716E+01	-6.01821722678E+00	-5.95259568323E-02
3.05689217226E+05	-1.61984310591E+01	1.72711485349E+02	9.15292704311E+00	-1.77338880891E+02	-2.54396929063E+01	1.75666291788E+02	-6.28571735098E+00	-1.24777096854E-01
3.05910174918E+05	-1.29737052981E+01	-6.28242175432E-01	8.90300359659E+00	-1.77513676893E+02	-3.05380569056E+01	1.38452509464E+02	-6.09439866740E+00	2.32013791179E-01
3.06131292322E+05	-1.63796773410E+01	-2.45383083649E+01	8.94774309595E+00	-1.77315516375E+02	-4.01075480035E+01	-5.48878747694E+01	-6.03555475245E+00	-1.20467193323E-01
3.06352569554E+05	-1.19501541955E+01	-4.91119421769E+01	8.96712590342E+00	-1.76662822449E+02	-3.86482514116E+01	-1.62457396780E+02	-6.08440183896E+00	-3.01390118735E-01
3.06574006730E+05	-2.76125791390E+01	4.79382199355E+01	9.02622801018E+00	-1.78021347340E+02	-3.69651128670E+01	-1.64033610800E+02	-6.10722998079E+00	-2.65428690314E-01
3.06795603964E+05	-1.19454730297E+01	2.34049702493E+01	8.96906161438E+00	-1.77941337925E+02	-5.53561432980E+01	-8.20327476378E+01	-6.03931854476E+00	-5.01207878075E-02
3.07017361372E+05	-1.38882894872E+01	5.14183096506E+01	8.98057976204E+00	-1.78071779581E+02	-3.71195854059E+01	-4.52984028712E+01	-6.05961923907E+00	-3.64132434220E-01
3.07239279071E+05	-2.09205883988E+01	3.78716817552E+01	9.05875033495E+00	-1.77866505968E+02	-2.64941152915E+01	1.35404160262E+02	-6.19124777424E+00	6.62959237478E-01
3.07461357176E+05	-2.15924480741E+01	1.23959923133E+01	9.01985022121E+00	-1.77790888072E+02	-4.30077177778E+01	-3.79402943998E+01	-6.01633112018E+00	-5.24240849180E-01
3.07683595803E+05	-1.66450227258E+01	5.18865772805E-01	8.98842281026E+00	-1.77718560649E+02	-4.22372555587E+01	1.43846569610E+02	-6.03893150350E+00	-2.31037203446E-01
3.07905995068E+05	-2.18487622602E+01	-1.14956340990E+02	9.15274471430E+00	-1.77268743592E+02	-4.61600743421E+01	1.69241950497E+02	-6.05947257138E+00	-1.78224897699E-01
3.08128555087E+05	-2.85321221801E+01	2.51866136873E+00	9.04437574406E+00	-1.77698686362E+02	-4.78226324527E+01	7.43176950854E+01	-6.03118740081E+00	2.69597856097E-02
3.08351275976E+05	-2.23135421951E+01	6.05050480055E+01	9.07779727575E+00	-1.77884284402E+02	-3.89484983581E+01	3.24771490462E+01	-6.06450355806E+00	5.20958983630E-02
3.08574157853E+05	-1.29384718065E+01	7.76804341692E+01	9.01404394567E+00	-1.78746011903E+02	-4.42369675085E+01	-1.37702694328E+02	-6.08474635513E+00	-5.37463430951E-01
3.08797200832E+05	-1.86283553536E+01	-4.02826800413E+00	8.95332239913E+00	-1.77905693638E+02	-2.72092669822E+01	-1.72020138554E+01	-5.85445201864E+00	-7.15066240172E-01
3.09020405031E+05	-2.08069842417E+01	6.61047290982E+01	9.08061299265E+00	-1.77915827622E+02	-3.50490199690E+01	1.25822479526E+02	-6.03520460465E+00	4.34325930637E-01
3.09243770566E+05	-1.37791475935E+01	3.35172664341E+01	8.99732850196E+00	-1.77951351716E+02	-3.87644031932E+01	-1.44180342938E+02	-6.08152937365E+00	-4.31006850799E-01
3.09467297553E+05	-9.17411270804E+00	-1.47906589090E+01	8.85532336522E+00	-1.77280222007E+02	-4.16248504651E+01	1.64959500702E+02	-6.05642299150E+00	-1.26882957776E-01
3.09690986110E+05	-1.52613514603E+01	3.19884088325E+01	9.00180491760E+00	-1.78284563907E+02	-4.10243368708E+01	-7.02763876640E+01	-6.04527661956E+00	-5.35886247910E-01
3.09914836353E+05	-2.30910345411E+01	1.31923980024E+01	9.02940772416E+00	-1.77856139546E+02	-4.41877312572E+01	-1.51059598458E+02	-6.01754613554E+00	3.40861220660E-02
3.10138848399E+05	-2.25887338010E+01	-5.26581205233E+01	9.01417724616E+00	-1.77513407719E+02	-4.11029126481E+01	1.11330413291E+02	-5.97855974289E+00	3.99439166839E-03
3.10363022365E+05	-1.96821427140E+01	2.13252706758E+01	9.00374600081E+00	-1.77882204386E+02	-2.99117646013E+01	4.47393324871E+01	-5.97918472592E+00	6.43891236079E-01
3.10587358368E+05	-1.90113458447E+01	7.86217455633E+01	9.02769273294E+00	-1.78258576488E+02	-3.72798288252E+01	-5.53111500376E+00	-5.95941693665E+00	-2.13482645067E-01
3.10811856525E+05	-1.40120139499E+01	9.29454584708E+01	9.06012278382E+00	-1.78834911381E+02	-4.13000180115E+01	-3.16286947980E+01	-6.04214690208E+00	-3.51687317283E-01
3.11036516954E+05	-1.74502055561E+01	1.33758500454E+02	9.10494227702E+00	-1.77961629647E+02	-4.22131128828E+01	-1.38047812146E+02	-6.07550628428E+00	-1.15425476159E-01
3.11261339771E+05	-1.89728518840E+01	8.80193774607E+01	9.01979761633E+00	-1.78642934455E+02	-4.22907642688E+01	1.24991602313E+02	-5.98692813034E+00	1.71883786651E-01
3.11486325094E+05	-1.60617001601E+01	5.17443958852E+00	8.97877002214E+00	-1.77586931293E+02	-4.62839324454E+01	1.43206932596E+02	-6.08210749744E+00	-1.84313441115E-01
3.11711473040E+05	-2.66548419460E+01	-6.80056149036E+01	9.02675561749E+00	-1.77613241349E+02	-3.83118602843E+01	1.04354949826E+02	-6.05180544007E+00	-2.57962374082E-02
3.11936783728E+05	-2.91254419624E+01	9.01739426779E+01	9.08594610431E+00	-1.78141619238E+02	-3.31850750068E+01	-1.37113412315E+02	-6.10535377672E+00	-3.48348342461E-01
3.12162257274E+05	-1.99200019660E+01	-2.62183433081E+01	9.04402420103E+00	-1.77788719870E+02	-2.79073788835E+01	-2.74649367269E+01	-5.87289566484E+00	-9.94268363246E-01
3.12387893797E+05	-2.45438052598E+01	-8.52970701233E+01	9.06190201664E+00	-1.77329695744E+02	-3.78823203039E+01	3.39003062742E+01	-5.98816672231E+00	-1.89358986338E-01
3.12613693413E+05	-8.07956258896E+00	1.31088044543E+02	9.29691777948E+00	-1.79312530226E+02	-3.58540600229E+01	-3.71745593613E+01	-6.02157474055E+00	-3.77173746497E-01
3.12839656242E+05	-1.86719427083E+01	-3.15948741696E+01	8.94877820035E+00	-1.77703018412E+02	-4.79396813807E+01	-9.78756964685E+01	-6.03350355190E+00	-5.46976600949E-01
3.13065782401E+05	-1.35184814391E+01	-2.57576071219E+00	8.97827759951E+00	-1.77964717003E+02	-3.46400842537E+01	-1.40205506423E+02	-6.08864846009E+00	-5.78933302805E-01
3.13292072007E+05	-2.50568561918E+01	-4.35729554025E+01	9.04265812531E+00	-1.77402840238E+02	-3.96434359830E+01	-1.48822616858E+02	-6.09184818765E+00	-4.55711810908E-01
3.13518525180E+05	-2.66951557258E+01	2.48145432643E+01	9.02628764947E+00	-1.77720555980E+02	-4.23491742884E+01	-1.43854083092E+02	-6.05634047951E+00	-4.75833771588E-01
3.13745142038E+05	-1.54365530667E+01	-1.27713695201E+01	8.98842966498E+00	-1.77769372450E+02	-3.61433866723E+01	-4.29640149710E+01	-6.00331306872E+00	-7.23432668352E-01
3.13971922698E+05	-1.35915816499E+01	5.72740431387E+01	9.04381580977E+00	-1.78415688892E+02	-5.33953021394E+01	4.05866287044E+01	-6.02336229030E+00	-3.07797508057E-01
3.14198867279E+05	-1.49058043186E+01	-7.13908849825E+01	9.04209730499E+00	-1.77120050838E+02	-4.08104244526E+01	1.09121885816E+01	-6.05929926479E+00	-1.71188136289E-01
3.14425975900E+05	-1.29363999722E+01	-9.80198887368E+01	9.12655127276E+00	-1.76695858369E+02	-3.74106523245E+01	1.50088960204E+02	-6.09256665820E+00	1.58182373628E-01
3.14653248680E+05	-2.08638879180E+01	-7.77868388677E+01	9.02510729643E+00	-1.77565716684E+02	-3.54504565303E+01	-1.45669471474E+02	-6.05641111293E+00	-3.69215818146E-01
3.14880685736E+05	-3.20955823314E+01	1.42751128598E+02	9.03514487704E+00	-1.77853777732E+02	-4.33787484357E+01	1.66545805695E+02	-6.05011760451E+00	-1.27421692973E-01
3.15108287188E+05	-2.17650292011E+01	2.94339225510E+01	9.00769520983E+00	-1.78231611578E+02	-3.43181376412E+01	-1.03972265896E+02	-6.02117526836E+00	-9.78519025918E-01
3.15336053154E+05	-1.87563618603E+01	1.26563566688E+02	9.09330598700E+00	-1.78494054999E+02	-2.78414184422E+01	-6.24880518243E+01	-5.94424911365E+00	-1.19653233833E+00
3.15563983753E+05	-1.29746634660E+01	6.62179025122E+01	9.02663909172E+00	-1.78614252261E+02	-3.86638879607E+01	5.60377385198E+01	-6.02355108234E+00	-1.58392883557E-01
3.15792079105E+05	-1.54584764761E+01	-1.27417974732E+02	9.15118706017E+00	-1.76939781786E+02	-3.83779278844E+01	-1.49864970834E+02	-6.08813814293E+00	-4.42415795503E-01
3.16020339328E+05	-9.72227016669E+00	-2.19367580242E+01	8.79595124470E+00	-1.77149498205E+02	-4.10806199220E+01	3.80960382973E+01	-6.01757033116E+00	-1.16820503770E-01
3.16248764542E+05	-2.04618853218E+01	2.85492009584E+01	8.99514912251E+00	-1.78004579434E+02	-4.32861621458E+01	2.98961876025E+01	-6.00894032226E+00	-9.76799412737E-03
3.16477354866E+05	-2.56394936567E+01	-4.49018736499E+01	8.98776572581E+00	-1.77889050769E+02	-4.61713539574E+01	1.66622405950E+02	-6.03438222708E+00	-3.31449617324E-01
3.16706110419E+05	-3.44416399089E+01	-9.88568908218E+01	9.09987479637E+00	-1.77452240968E+02	-3.00094244865E+01	1.19246744354E+02	-6.07988257050E+00	6.42371521773E-01
3.16935031321E+05	-1.47557072141E+01	3.44588605560E+01	8.99947684107E+00	-1.78175546211E+02	-2.82773650840E+01	1.78870437024E+02	-6.20093933170E+00	-2.28207691234E-01
3.17164117691E+05	-2.56207237375E+01	6.51304547803E+01	9.02695576591E+00	-1.78145534803E+02	-5.29953650755E+01	8.28574696590E+00	-6.00909969761E+00	-2.60205981815E-01
3.17393369648E+05	-2.41331155917E+01	5.31763342134E+01	9.02314434315E+00	-1.78060147098E+02	-4.29369116864E+01	-1.40411968215E+02	-6.08226897265E+00	-4.40066804947E-02
3.17622787313E+05	-1.41378398384E+01	-3.78567429316E+01	8.97079388472E+00	-1.77271807934E+02	-3.57552178148E+01	3.59355728516E+01	-6.01457806793E+00	-2.75322570412E-01
3.17852370806E+05	-2.78894764534E+01	8.60374817437E+00	9.01790836330E+00	-1.77578464276E+02	-3.90889595788E+01	-2.43443450985E+01	-5.95937195318E+00	-1.90821066906E-01
3.18082120245E+05	-1.83397480432E+01	6.81878756278E+01	9.08262115278E+00	-1.78368761143E+02	-5.29550494508E+01	1.15239861187E+02	-6.02645237212E+00	-2.81510574994E-01
3.18312035752E+05	-1.42601531997E+01	3.20035631863E+01	8.95623560067E+00	-1.78601245417E+02	-3.91234908472E+01	7.83269552731E+01	-6.03128910486E+00	-1.73123834751E-01
3.18542117445E+05	-1.69191726726E+01	-1.83893646952E+00	8.97585660266E+00	-1.78167061682E+02	-3.84028938701E+01	-1.02995977122E+02	-6.01394978426E+00	-4.79323512370E-01
3.18772365446E+05	-2.60772506904E+01	1.11375991574E+02	9.11266878406E+00	-1.78159153489E+02	-4.44544818410E+01	-2.45555576409E+01	-5.99244632523E+00	-9.06630082578E-02
3.19002779874E+05	-2.39380616039E+01	-9.61558943091E+01	9.03882738750E+00	-1.77696237514E+02	-4.37233251044E+01	1.77293304962E+02	-6.03036720416E+00	-3.81160481621E-01
3.19233360850E+05	-1.39043896854E+01	-7.74535016821E+01	9.07131369540E+00	-1.76783480276E+02	-4.46034142881E+01	6.95451567425E+01	-6.01041733311E+00	-2.36337119667E-02
3.19464108494E+05	-2.13365154862E+01	-6.98328563632E+00	8.99906995141E+00	-1.77743052864E+02	-4.24325090175E+01	1.09828037912E+01	-6.06111088442E+00	-1.92051435850E-01
3.19695022927E+05	-2.01521331146E+01	1.47613522541E+01	9.07958815646E+00	-1.78060693964E+02	-4.11931351330E+01	-4.58917408301E+00	-6.01067783184E+00	-4.84245608093E-01
3.19926104268E+05	-1.26776118921E+01	2.79766003670E+00	8.92629338130E+00	-1.77889088165E+02	-3.57393344909E+01	-6.28126313612E+01	-6.02930774679E+00	-7.19424890870E-01
3.20157352640E+05	-1.39176201398E+01	5.26631954962E+01	8.98198985825E+00	-1.78467375797E+02	-5.50157627354E+01	4.06870328548E+01	-6.10679215530E+00	-8.29717083290E-02
3.20388768162E+05	-1.38390120717E+01	2.17646860960E+01	8.94912382835E+00	-1.78835424520E+02	-4.00740338282E+01	1.21125663450E+02	-6.08949893255E+00	2.51023416413E-01
3.20620350955E+05	-1.27553810317E+01	7.34767441031E+01	8.96875672726E+00	-1.78989123860E+02	-5.89964765467E+01	-1.57455073737E+02	-6.00403615524E+00	-1.35692456544E-01
3.20852101140E+05	-1.65648323182E+01	1.18573243400E+02	9.16252828305E+00	-1.78503720000E+02	-3.94574895063E+01	-1.27197548724E+02	-6.08494043236E+00	-6.37303110169E-01
3.21084018839E+05	-1.52047769647E+01	-2.73039162134E+00	8.95494942617E+00	-1.77809186902E+02	-3.68541993955E+01	-1.56818681473E+02	-6.05211833311E+00	-3.27686295424E-01
3.21316104172E+05	-2.25532359661E+01	4.86002962098E+01	9.02699841462E+00	-1.78514344194E+02	-4.27427821993E+01	1.31750497962E+01	-6.06102452221E+00	1.14625869420E-02
3.21548357261E+05	-2.49768513372E+01	-6.98388526513E+00	8.99055768412E+00	-1.78299665675E+02	-3.22549529467E+01	-1.22229389282E+02	-6.06992703219E+00	-6.44703372137E-01
3.21780778226E+05	-2.06909670296E+01	4.92206324113E+01	9.05687537293E+00	-1.78473070837E+02	-4.81064889933E+01	-7.01177433025E+01	-6.01154855211E+00	-4.55463046546E-01
3.22013367189E+05	-1.20678365492E+01	4.48781678552E+01	8.95850749154E+00	-1.78458957363E+02	-4.44802349515E+01	1.06456259894E+02	-6.02755051117E+00	-1.40579902771E-01
3.22246124272E+05	-1.76732081281E+01	-8.68781832041E+01	9.09970841833E+00	-1.77307417604E+02	-3.60687710953E+01	7.11767089959E+01	-6.01461342352E+00	3.82074712080E-02
3.22479049596E+05	-1.16951465195E+01	8.20145211808E+01	9.02462071720E+00	-1.79274540628E+02	-4.42913381916E+01	-1.49418530620E+02	-6.07324155272E+00	-2.27205750115E-01
3.22712143282E+05	-2.09780314357E+01	-2.22484968924E+00	8.97550058196E+00	-1.78176553546E+02	-4.91688577793E+01	-4.55081600062E+00	-6.06425247314E+00	-2.15645008038E-01
3.22945405453E+05	-2.45064183458E+01	5.69345100869E+01	8.98532315128E+00	-1.78205147008E+02	-3.25512458609E+01	-1.74830526680E+02	-6.13746080525E+00	-3.46009927996E-01
3.23178836230E+05	-2.49542817582E+01	-6.59507433372E+01	9.06880774165E+00	-1.77965443833E+02	-5.01232338297E+01	9.83139143969E+01	-6.04620769492E+00	-9.45909260858E-02
3.23412435735E+05	-2.85263559345E+01	-9.76680275039E+01	9.05325260333E+00	-1.78116430902E+02	-2.90180626998E+01	-1.70902999948E+02	-6.20861373445E+00	-1.54298680505E-01
3.23646204090E+05	-2.07246631819E+01	4.44678541850E+01	9.00821703894E+00	-1.77999397598E+02	-3.53027958182E+01	-1.38135947054E+02	-6.04359920611E+00	-6.83303103616E-01
3.23880141417E+05	-1.08732328864E+01	-2.41224292990E+01	8.91369144449E+00	-1.77288143204E+02	-3.74955886050E+01	-1.45115300449E+02	-6.05898792608E+00	-3.28648445367E-01
3.24114247838E+05	-1.52297088231E+01	-1.48446618377E+02	9.20141207957E+00	-1.77500193471E+02	-4.03978508649E+01	-1.50164623502E+02	-6.04136796417E+00	-1.66144114752E-01
3.24348523475E+05	-2.04338712230E+01	5.30445022691E+01	9.01145900780E+00	-1.77961678856E+02	-4.42907167107E+01	-1.11328452450E+02	-6.03717156867E+00	-1.83772634590E-01
3.24582968451E+05	-3.03902344128E+01	-5.03085121927E+01	8.99984645051E+00	-1.77914335692E+02	-4.65011980024E+01	-8.78066424975E+01	-6.03834516918E+00	-1.41402969706E-01
3.24817582888E+05	-1.89812388373E+01	-1.04824773722E+02	9.09114342136E+00	-1.77365374431E+02	-3.66145862453E+01	-1.23574358177E+02	-6.06355667988E+00	-6.82311946595E-01
3.25052366909E+05	-1.73097784143E+01	-9.38205730919E+00	8.98203114259E+00	-1.77847053132E+02	-3.52690358727E+01	-4.81906221530E+01	-6.03163403174E+00	-3.00374888398E-01
3.25287320635E+05	-1.94813952188E+01	5.47832853095E+00	9.00730410746E+00	-1.78149701629E+02	-3.38181456540E+01	6.99660151105E+01	-5.98321494706E+00	4.21440840230E-01
3.25522444191E+05	-1.94797777044E+01	7.80584649941E+01	9.02776632849E+00	-1.78136611829E+02	-4.80753481712E+01	1.37228754873E+02	-6.06957227744E+00	-2.37311634053E-02
3.25757737698E+05	-1.34722225572E+01	4.36789571986E+01	8.91144894233E+00	-1.78285709881E+02	-5.72217136180E+01	9.62483436180E+01	-6.08060929857E+00	-3.52355651893E-01
3.25993201280E+05	-1.67440400863E+01	-2.88999014168E+01	8.98595788527E+00	-1.77767600584E+02	-3.54062620291E+01	2.31754412426E+01	-6.02332524797E+00	-1.18428727152E-01
3.26228835058E+05	-3.50365758021E+01	-1.34005024774E+01	9.02600533903E+00	-1.77820514725E+02	-4.15817173762E+01	-8.42070257563E+01	-6.04177223568E+00	-5.89035057454E-01
