# Hz S DB R 50
! CMT, M5065, 19127446, 24.2.4/2
! Date: 11/1/2024 3:03:15 PM
! Data: Format (Calibration Info)
! Freq	S11:dB/Ang(F2)	S21:dB/Ang(F2)	S12:dB/Ang(F2)	S22:dB/Ang(F2)
3.00000000000E+05	-1.68871789148E+01	-2.46390666219E+01	4.62224618277E+00	-1.76918408613E+02	-4.31600564910E+01	-3.70992358152E+01	-6.02868019869E+00	-2.95595059302E-01
3.00216845423E+05	-1.53983295788E+01	-1.30085104901E+01	4.57750547799E+00	-1.77438951966E+02	-4.47686040917E+01	-3.77274981116E+01	-6.01839601392E+00	-1.57631330616E-01
3.00433847586E+05	-8.04652873408E+00	5.54796760142E+01	4.50679180108E+00	-1.79257175577E+02	-4.71308523257E+01	2.24344318703E+01	-6.01120716365E+00	-2.46464559477E-01
3.00651006602E+05	-2.18231281333E+01	8.19945683868E+01	4.67425887912E+00	-1.78063658373E+02	-3.35188833338E+01	-1.23882543407E+02	-6.09803134819E+00	-5.38461666890E-01
3.00868322584E+05	-1.63164145844E+01	-1.68076317596E+01	4.59481444331E+00	-1.77805488510E+02	-3.96135408897E+01	1.33986584716E+02	-6.07125855008E+00	-4.80517455572E-02
3.01085795647E+05	-2.74411994651E+01	-3.01266747247E+01	4.65289772942E+00	-1.77297103447E+02	-3.81284532982E+01	1.23139210491E+02	-6.04561277571E+00	7.55611661513E-02
3.01303425902E+05	-2.33864135350E+01	1.18056116177E+02	4.73313418248E+00	-1.77935057584E+02	-4.18451823579E+01	1.61960722698E+02	-6.08319609368E+00	-2.72884793664E-01
3.01521213465E+05	-2.05594819021E+01	1.41670912473E+01	4.69655276478E+00	-1.77778174068E+02	-3.87621770812E+01	-1.51247938326E+02	-6.06434386257E+00	-2.01384460333E-01
3.01739158449E+05	-2.51678796253E+01	1.53946940546E+01	4.62977287466E+00	-1.78134109887E+02	-4.26775939718E+01	-1.08480320469E+02	-6.01003198323E+00	-2.10562240267E-01
3.01957260967E+05	-1.41240121849E+01	6.93739842017E+01	4.66665447098E+00	-1.78694355851E+02	-4.56554296496E+01	1.68824961348E+02	-6.07122904848E+00	-3.49411870156E-01
3.02175521134E+05	-1.89466917086E+01	3.53852172700E+01	4.60100067889E+00	-1.77774287395E+02	-3.27657693351E+01	-6.33704467901E+01	-6.02894167697E+00	-6.07714599710E-01
3.02393939063E+05	-3.10886134140E+01	-2.41177371588E+01	4.62520741060E+00	-1.77548712761E+02	-4.39291785487E+01	-1.31098401996E+02	-6.07631641537E+00	-2.33572791929E-01
3.02612514869E+05	-2.11910584274E+01	7.31367740414E+01	4.71370543970E+00	-1.78252569026E+02	-3.93369539442E+01	1.24651249172E+02	-6.04706865067E+00	5.42136406695E-02
3.02831248665E+05	-2.21668528496E+01	1.70626668386E+02	4.77078258084E+00	-1.78180446186E+02	-4.18122636360E+01	-5.14443569417E+01	-6.04898442356E+00	-4.37409993604E-01
3.03050140565E+05	-1.86745991398E+01	3.90385052684E+00	4.63078605187E+00	-1.77966798602E+02	-3.52485945168E+01	6.26412592769E+01	-6.00661942419E+00	-1.22089654898E-01
3.03269190685E+05	-2.44634386492E+01	1.79565434060E+01	4.62289039501E+00	-1.77585776984E+02	-3.76046315219E+01	-1.71700225029E+01	-6.04523443166E+00	-2.17241636847E-01
3.03488399138E+05	-2.51896761377E+01	3.19871933348E+01	4.63139529851E+00	-1.77893361092E+02	-4.69396485082E+01	5.57415502879E+01	-6.02524907281E+00	-2.44271563179E-01
3.03707766039E+05	-1.46235514524E+01	-1.24278166166E+02	4.73598280788E+00	-1.77066030911E+02	-4.76428355074E+01	-5.48196405670E+01	-6.04446896872E+00	-1.54797503858E-01
3.03927291503E+05	-2.20194722876E+01	8.86222654524E+01	4.66980522134E+00	-1.78084121454E+02	-3.57462538310E+01	1.08251547473E+02	-6.06626785218E+00	1.68792862464E-01
3.04146975643E+05	-1.84982161548E+01	3.00803342160E+01	4.58496761863E+00	-1.78159102212E+02	-4.85032725147E+01	-1.63288165310E+02	-6.03041429194E+00	-2.19594165564E-01
3.04366818575E+05	-1.72176479766E+01	5.82071132906E+01	4.53360430736E+00	-1.78062323953E+02	-3.80762365834E+01	-3.42840215869E+01	-6.02309087306E+00	-3.65933810341E-01
3.04586820414E+05	-1.57632421100E+01	-1.79573026265E+01	4.57179056559E+00	-1.77438088893E+02	-5.23987992318E+01	-1.01534749819E+02	-6.03695369126E+00	-2.18863285109E-01
3.04806981274E+05	-1.84591194025E+01	6.21379391753E+01	4.60058707188E+00	-1.77981194617E+02	-3.22323874401E+01	1.37389978219E+02	-6.10324611118E+00	2.85343065312E-02
3.05027301270E+05	-1.36536437611E+01	5.16129284604E+01	4.56776081223E+00	-1.78346738712E+02	-4.41380364809E+01	6.92770300723E+01	-6.03190490884E+00	-9.70978905216E-02
3.05247780517E+05	-2.06282942944E+01	-2.60711571536E+01	4.62413725192E+00	-1.77530372845E+02	-5.32937788689E+01	-9.52323262369E+01	-6.02331470175E+00	-2.58945850998E-01
3.05468419131E+05	-1.19063365761E+01	-3.75953631903E+01	4.53397333787E+00	-1.76654654785E+02	-3.79032196302E+01	-1.10811617780E+02	-6.03762315950E+00	-2.69193936040E-01
3.05689217226E+05	-1.91367049445E+01	-2.61076552712E+00	4.63360288506E+00	-1.78186380364E+02	-4.15484564587E+01	1.51727635796E+02	-6.05987269177E+00	-8.83246561973E-02
3.05910174918E+05	-2.51547859610E+01	8.20208073798E+01	4.64810824525E+00	-1.77948549969E+02	-4.24176277810E+01	5.17876125761E+01	-6.04648790522E+00	3.00956539083E-03
3.06131292322E+05	-2.86494809817E+01	-1.56572936890E+02	4.77183940634E+00	-1.77637900093E+02	-4.51609044739E+01	1.59009157926E+01	-6.05206328208E+00	-1.95008123784E-01
3.06352569554E+05	-1.21995867128E+01	4.13970903250E+01	4.53115047593E+00	-1.78256272829E+02	-4.01765902220E+01	-1.30166340717E+02	-6.05690751748E+00	-3.35162877571E-01
3.06574006730E+05	-2.47679391199E+01	2.71047391105E+01	4.62112518053E+00	-1.77801608409E+02	-4.38953228679E+01	-4.99066694265E+01	-5.98499832403E+00	-2.70717913748E-01
3.06795603964E+05	-1.38500351190E+01	3.40148636958E+01	4.56061591361E+00	-1.77968966689E+02	-3.84104614885E+01	-4.22359417374E+01	-6.05013591795E+00	-4.46405841007E-01
3.07017361372E+05	-2.42925143096E+01	1.76828667405E+02	4.77043037139E+00	-1.77755800243E+02	-4.16533384632E+01	1.58260027739E+02	-6.06871671402E+00	-2.90614685036E-01
3.07239279071E+05	-1.55205017337E+01	3.48026248127E+01	4.53989666392E+00	-1.78298389944E+02	-3.65349882266E+01	-5.88730877129E+01	-6.00631133761E+00	-2.83637750513E-01
3.07461357176E+05	-1.99321549551E+01	5.11975459530E+01	4.64308449899E+00	-1.77745799762E+02	-4.72152506070E+01	6.37873096209E+01	-6.02353939043E+00	-3.24275594282E-01
3.07683595803E+05	-2.06687649260E+01	6.81476835572E+01	4.66295307000E+00	-1.77765605978E+02	-4.43002098515E+01	-1.06932821213E+02	-6.04565000592E+00	-4.43783018153E-01
3.07905995068E+05	-1.16902413200E+01	-1.49753379688E+02	4.88406047928E+00	-1.77081643559E+02	-4.16199359404E+01	-1.92689144334E+01	-6.02744434585E+00	-2.14434608446E-01
3.08128555087E+05	-1.23150359418E+01	4.02287989727E+01	4.56667195906E+00	-1.78167142645E+02	-3.66451748200E+01	9.11258539449E+00	-6.01502575762E+00	-2.95260947641E-01
3.08351275976E+05	-2.10268502115E+01	3.03831494793E+01	4.63278625128E+00	-1.77920259241E+02	-5.27629009605E+01	-9.79171415672E+01	-6.07192143699E+00	-3.93461856094E-01
3.08574157853E+05	-2.31956144675E+01	1.04892947102E+02	4.61817898957E+00	-1.78420672592E+02	-3.91533473576E+01	-8.72445122392E+01	-6.04722547573E+00	-3.56094523410E-01
3.08797200832E+05	-1.79566477199E+01	6.69631093573E+01	4.67742761372E+00	-1.78458897603E+02	-4.47957391227E+01	1.16806292780E+02	-6.07090973996E+00	3.70571114688E-02
3.09020405031E+05	-2.02015562880E+01	1.02922566672E+02	4.71896866990E+00	-1.78147033101E+02	-4.03884855994E+01	-8.38657768917E+01	-6.00486592071E+00	-2.86889731220E-01
3.09243770566E+05	-2.47491131938E+01	6.93275078811E+01	4.66152878246E+00	-1.78030852303E+02	-3.64709651545E+01	-5.13093937579E+01	-6.03141362631E+00	-3.27007148031E-01
3.09467297553E+05	-2.52752255328E+01	4.91845800712E+01	4.68215132917E+00	-1.77972540938E+02	-3.97747846973E+01	-1.79793006095E+02	-6.05118791552E+00	-1.59890395377E-01
3.09690986110E+05	-1.10638240236E+01	-5.03678851743E+01	4.57477000827E+00	-1.76423835472E+02	-4.49063923279E+01	-1.72810258282E+02	-6.05164132531E+00	-1.83265431882E-01
3.09914836353E+05	-1.75070815443E+01	5.21491125225E+01	4.68660034422E+00	-1.78236932835E+02	-4.18066990448E+01	-3.91045583733E+01	-6.03624692069E+00	-2.19793524517E-01
3.10138848399E+05	-1.93464911139E+01	-3.36115412277E+01	4.65933490899E+00	-1.77468335816E+02	-4.34296004626E+01	6.74722241764E+01	-6.05196612777E+00	-1.47319237073E-01
3.10363022365E+05	-1.51399915656E+01	6.08300448323E+01	4.59972075441E+00	-1.78341434621E+02	-3.62061123251E+01	4.64813053748E+01	-6.05990058201E+00	-5.30146175495E-04
3.10587358368E+05	-6.90042071731E+00	7.76082784485E+01	4.52224195737E+00	1.79580517493E+02	-4.40183830077E+01	-1.11434668730E+02	-6.04824096881E+00	-2.73811794796E-01
3.10811856525E+05	-3.72669370196E+01	-6.14073949315E+01	4.66472029301E+00	-1.77486375468E+02	-4.29395626185E+01	1.06369583704E+02	-6.04785817313E+00	-1.21321616604E-01
3.11036516954E+05	-2.31582490405E+01	3.03328711453E+01	4.57561596965E+00	-1.77999326158E+02	-3.78217535327E+01	-1.65439402124E+02	-6.06549527129E+00	-2.96273302531E-01
3.11261339771E+05	-1.88908822743E+01	-2.38056377247E+01	4.61598929583E+00	-1.77574327571E+02	-5.09057735431E+01	8.86543351800E+01	-6.02656002049E+00	-1.63536538154E-01
3.11486325094E+05	-1.08004312188E+01	-2.17444439209E+01	4.49546203324E+00	-1.77518566254E+02	-4.08779522876E+01	1.08814372304E+01	-6.02599729124E+00	-1.45781611321E-01
3.11711473040E+05	-2.64908343784E+01	1.56560169867E+01	4.60984433648E+00	-1.77774869465E+02	-3.68543767237E+01	1.35595456781E+02	-6.07164664940E+00	-4.46711860457E-02
3.11936783728E+05	-1.97659865469E+01	6.19857235012E+00	4.60612415886E+00	-1.77979224720E+02	-4.53323174100E+01	-7.95687690584E+01	-6.05938180733E+00	-2.52879257604E-01
3.12162257274E+05	-1.64123874120E+01	7.24975667905E+01	4.68074170071E+00	-1.78780078639E+02	-4.30583035351E+01	3.84708723756E+00	-6.03209059822E+00	-1.40141627447E-01
3.12387893797E+05	-1.98712750560E+01	9.53690143733E+01	4.73686489354E+00	-1.78067769459E+02	-4.30063155943E+01	-3.26059735530E+01	-6.01751289846E+00	-3.67423921631E-01
3.12613693413E+05	-1.97746401889E+01	-5.89845696309E+01	4.59914776656E+00	-1.77528142394E+02	-3.52712201787E+01	8.56999385070E+00	-5.99993096803E+00	-2.16209048285E-01
3.12839656242E+05	-1.69713625631E+01	2.33120402756E+01	4.62736479436E+00	-1.77960461149E+02	-3.90796361516E+01	-1.74606151254E+02	-6.05511762476E+00	-1.95738182223E-01
3.13065782401E+05	-2.70894581695E+01	8.96821839167E+01	4.68124536724E+00	-1.77948735381E+02	-3.97606691212E+01	-5.47996880112E+01	-6.02047629519E+00	-2.05524597217E-01
3.13292072007E+05	-1.88388310537E+01	1.63358285117E+01	4.54159812107E+00	-1.77916717268E+02	-3.62258208494E+01	1.27182421305E+02	-6.06861057602E+00	7.37577933637E-02
3.13518525180E+05	-1.91063012440E+01	2.28278100059E+01	4.63010109940E+00	-1.77849483237E+02	-3.79058920507E+01	-2.56571226696E+01	-6.02518110706E+00	-2.70926508764E-01
3.13745142038E+05	-2.13444854689E+01	4.81803568355E+01	4.67170321422E+00	-1.78224695778E+02	-4.21570479198E+01	3.24122903836E+01	-6.03061100950E+00	-6.42409436376E-02
3.13971922698E+05	-2.12720213180E+01	1.30972474224E+02	4.72945005169E+00	-1.78169435239E+02	-3.90720678928E+01	-7.01112504821E+01	-6.02892702609E+00	-4.81295937812E-01
3.14198867279E+05	-1.70373566429E+01	3.77147872850E+01	4.66204432130E+00	-1.78083852570E+02	-3.78793371494E+01	-9.61024571908E+01	-6.04139481382E+00	-4.45479868907E-01
3.14425975900E+05	-2.39854833783E+01	9.97249101054E+00	4.56288923394E+00	-1.77873342546E+02	-4.18320606465E+01	-1.40779388342E+02	-6.06117683063E+00	-1.53811153776E-01
3.14653248680E+05	-2.21143133369E+01	-1.70873297084E+01	4.69579926036E+00	-1.77634399849E+02	-4.63866210076E+01	1.31628815858E+02	-6.05427352234E+00	-1.26137153726E-01
3.14880685736E+05	-1.66694827327E+01	-1.86556066840E+01	4.62363893602E+00	-1.77593532738E+02	-4.76552139955E+01	5.64964458016E+01	-6.02208421067E+00	-1.31164776368E-01
3.15108287188E+05	-2.16256569579E+01	1.23156797125E+02	4.70852697088E+00	-1.78025122252E+02	-3.22035299381E+01	-1.51082250980E+02	-6.07700063134E+00	-4.93243559934E-01
3.15336053154E+05	-1.31171790722E+01	2.96277189772E+01	4.60286946361E+00	-1.78381750208E+02	-6.44755286018E+01	6.62823838982E+01	-6.03666576614E+00	-3.69493152149E-01
3.15563983753E+05	-2.39253389237E+01	-6.39111527662E+01	4.71321072276E+00	-1.77390440594E+02	-3.65041297734E+01	8.00885303229E+01	-6.05077789370E+00	-1.40460613113E-02
3.15792079105E+05	-1.61692682542E+01	5.99882650034E+01	4.62308908120E+00	-1.78509975919E+02	-4.20212447048E+01	-5.43233432863E+01	-6.02630863970E+00	-3.54954699497E-01
3.16020339328E+05	-2.06037309355E+01	2.63488236531E+01	4.62355521512E+00	-1.78192565311E+02	-3.98770057617E+01	-2.87193096338E+00	-6.01847048780E+00	5.99474332901E-02
3.16248764542E+05	-2.33870275966E+01	2.85045437695E+01	4.64201787170E+00	-1.78104015536E+02	-4.50043498459E+01	-7.23058381780E+01	-6.03512971503E+00	-1.68083856716E-01
3.16477354866E+05	-2.28283386430E+01	4.03686968159E+01	4.63536050032E+00	-1.78088551775E+02	-4.39712469898E+01	-2.88943119230E+01	-6.03844365312E+00	-1.45740058825E-01
3.16706110419E+05	-2.13648921929E+01	1.61720113416E+01	4.57977154321E+00	-1.78436150159E+02	-4.31713262277E+01	1.71627211913E+02	-6.07574539233E+00	-2.65209311535E-01
3.16935031321E+05	-2.01811566707E+01	-2.90664456819E+00	4.58758891876E+00	-1.77986629170E+02	-4.62515741769E+01	-8.37439085704E+01	-6.07189713572E+00	-2.30970779921E-01
3.17164117691E+05	-2.53406040138E+01	-1.41781750988E+02	4.69045826693E+00	-1.77423529432E+02	-3.89348230306E+01	-9.81817573249E+01	-6.04644315067E+00	-4.14195886312E-01
3.17393369648E+05	-2.87844238603E+01	5.34363702172E+01	4.63125301061E+00	-1.78122245437E+02	-4.09068691993E+01	-1.14507804694E+02	-6.04474136562E+00	-4.42274686751E-01
3.17622787313E+05	-1.55895248567E+01	6.08737172769E+01	4.63266465530E+00	-1.78790553103E+02	-4.05593817513E+01	-7.39907506125E+01	-6.05130968498E+00	-1.13065923378E-01
3.17852370806E+05	-2.27238932988E+01	-2.45816674253E+01	4.63720351317E+00	-1.78376373670E+02	-3.47636827546E+01	-5.03083009180E+00	-5.99306654805E+00	-1.56127574735E-01
3.18082120245E+05	-2.60277746130E+01	-1.66266685556E+02	4.69385045194E+00	-1.78059990678E+02	-4.67569496220E+01	-1.11402624036E+02	-6.02968315360E+00	-3.92955282550E-01
3.18312035752E+05	-2.84579038663E+01	5.84948901490E+01	4.67378189129E+00	-1.78011172725E+02	-3.73054635633E+01	5.38753016605E+01	-6.01536966576E+00	-4.98047675081E-02
3.18542117445E+05	-2.03356218248E+01	5.38560845830E+00	4.64872605369E+00	-1.77880799922E+02	-3.19966777079E+01	-9.23286874793E+01	-6.06367325710E+00	-5.95740174826E-01
3.18772365446E+05	-2.31960579064E+01	-8.01213237988E+01	4.63726399860E+00	-1.77956702292E+02	-4.26990426001E+01	-5.43112162930E+01	-6.03331440571E+00	-3.96956423538E-01
3.19002779874E+05	-2.15486241291E+01	-5.54072095792E+01	4.73269594025E+00	-1.77474411038E+02	-5.26536114259E+01	1.46466138822E+02	-6.06327104718E+00	-2.09692893583E-01
3.19233360850E+05	-1.33052483077E+01	1.39230672850E+01	4.55770019308E+00	-1.78388426954E+02	-5.50230280616E+01	-1.75604924577E+02	-6.06100367344E+00	9.20003431239E-03
3.19464108494E+05	-1.81526778608E+01	1.52497850728E+01	4.63799741590E+00	-1.78063610294E+02	-3.34351557684E+01	-1.56344350651E+02	-6.09646456040E+00	-1.99203968620E-01
3.19695022927E+05	-2.20418379883E+01	3.76812629910E+01	4.65249953246E+00	-1.78029229144E+02	-4.31377321385E+01	-2.30543629328E+01	-6.05628985135E+00	-2.04356074780E-01
3.19926104268E+05	-2.70414722836E+01	4.74607610979E+01	4.66037496280E+00	-1.77954646275E+02	-5.50827276040E+01	8.68443341464E+01	-6.03781880130E+00	-1.67613942422E-01
3.20157352640E+05	-1.65401542720E+01	1.67695129884E+02	4.79164220164E+00	-1.77574516607E+02	-3.73924166472E+01	1.02858414153E+02	-6.06107348675E+00	9.71770408794E-03
3.20388768162E+05	-1.65252812194E+01	-2.13316974422E+01	4.56589632843E+00	-1.77429506186E+02	-3.43473744546E+01	-1.11052045217E+02	-6.07509698381E+00	-3.63828555024E-01
3.20620350955E+05	-1.80780675102E+01	9.39149732644E+00	4.55898029167E+00	-1.78083669389E+02	-3.70729465703E+01	-8.08241627193E+01	-6.05949242105E+00	-3.84877785982E-01
3.20852101140E+05	-3.50635331717E+01	7.72158469450E+01	4.69004172120E+00	-1.78180195631E+02	-4.55522881110E+01	4.36992372733E+00	-6.03439349492E+00	-4.31176484580E-01
3.21084018839E+05	-1.32516314113E+01	8.88314289803E+01	4.59795487103E+00	-1.79068264250E+02	-5.00606214546E+01	7.73613212892E+01	-6.01171998655E+00	-2.72161054473E-01
3.21316104172E+05	-1.92364996743E+01	4.69039468367E+01	4.62490018140E+00	-1.78318648954E+02	-3.72043882613E+01	1.73404362157E+02	-6.06185697950E+00	-1.42409232116E-01
3.21548357261E+05	-2.36998327211E+01	-8.26626330237E+01	4.66797927393E+00	-1.77932221866E+02	-3.80248789235E+01	-1.04422842730E+02	-6.03903330249E+00	-4.55152894853E-01
3.21780778226E+05	-2.35627986902E+01	8.89461313019E+01	4.69422464001E+00	-1.78049404217E+02	-4.79924866101E+01	-1.22037003755E+02	-6.05751051951E+00	-1.18648704531E-01
3.22013367189E+05	-1.24182873191E+01	1.74982915894E+00	4.43601498396E+00	-1.78145340804E+02	-4.64207992704E+01	8.11068595537E+01	-6.02472786807E+00	-2.01918911147E-01
3.22246124272E+05	-2.64233821406E+01	-3.38982849113E+01	4.63557302070E+00	-1.77943044732E+02	-3.19425694333E+01	-5.95569577819E+00	-5.98415426491E+00	-2.72551656083E-01
3.22479049596E+05	-1.90304437176E+01	2.51619051697E+01	4.65476145733E+00	-1.77970427017E+02	-4.01178042815E+01	-2.15719344651E+01	-6.01558444660E+00	-4.45108842870E-01
3.22712143282E+05	-1.43700436395E+01	8.83134284050E+00	4.54950154573E+00	-1.78153240934E+02	-4.69153651608E+01	-1.21563586720E+02	-6.06679134437E+00	-3.99491881757E-01
3.22945405453E+05	-1.61570689492E+01	5.15900534322E+01	4.58921178790E+00	-1.78457171318E+02	-5.11828940008E+01	-1.51421137744E+02	-6.05204517224E+00	-2.88767055189E-01
3.23178836230E+05	-2.06784171743E+01	2.84682060056E+01	4.63350042852E+00	-1.78306209215E+02	-3.26299164268E+01	1.64894053116E+02	-6.08169495310E+00	-1.43701613282E-01
3.23412435735E+05	-1.86930879548E+01	5.07911304571E+01	4.58825642541E+00	-1.78296770992E+02	-4.26715093388E+01	1.78914181172E+02	-6.04043790043E+00	-7.38166274825E-03
3.23646204090E+05	-2.37701589741E+01	1.42771871146E+02	4.65703198335E+00	-1.78367517822E+02	-4.73147082585E+01	-1.47463630718E+02	-6.06340790159E+00	-3.62822784136E-01
3.23880141417E+05	-1.89079577320E+01	-1.20741143477E+01	4.63603565606E+00	-1.77669622393E+02	-3.56483247522E+01	3.62319711205E+01	-6.01719984820E+00	-2.02514984829E-01
3.24114247838E+05	-2.20406844842E+01	-3.57304063959E+01	4.65127833910E+00	-1.77722610326E+02	-4.04778028537E+01	-1.48410096279E+02	-6.08471593290E+00	-1.88294853074E-01
3.24348523475E+05	-1.95815848683E+01	6.40557303752E+00	4.59549575071E+00	-1.78174790063E+02	-5.31569378483E+01	1.28934159900E+02	-6.03023919489E+00	-1.45921340985E-01
3.24582968451E+05	-1.53173642418E+01	1.36578517820E+02	4.79351196220E+00	-1.77987211714E+02	-4.41939458701E+01	1.78511553990E+02	-6.07046756806E+00	-4.10802540801E-01
3.24817582888E+05	-1.75149171130E+01	-4.40387440793E+01	4.61309659532E+00	-1.77709324398E+02	-4.03290620911E+01	2.16867485844E+01	-6.02490151308E+00	4.54083629179E-02
3.25052366909E+05	-2.11042329929E+01	4.81533353675E+01	4.65682737595E+00	-1.78386337005E+02	-3.90458582057E+01	-8.62077868860E+01	-6.04921651553E+00	-2.80823726775E-01
3.25287320635E+05	-1.94373520334E+01	1.52356923324E+01	4.58698655488E+00	-1.78095322845E+02	-4.16419764133E+01	-6.63097273537E+01	-6.05548146847E+00	-2.84043032430E-01
3.25522444191E+05	-2.41221375956E+01	-1.74566184870E+02	4.81843475657E+00	-1.78086686341E+02	-5.49098208170E+01	3.78004148617E+01	-6.04562315686E+00	-1.27314216296E-01
3.25757737698E+05	-2.38786258201E+01	6.90404012136E+01	4.65317557614E+00	-1.78334391814E+02	-3.38579905908E+01	-4.56660333137E+01	-6.01275912403E+00	-4.15163894402E-01
3.25993201280E+05	-1.79950873915E+01	4.36032737692E+01	4.66671184689E+00	-1.78481451645E+02	-4.37419416581E+01	-1.65215544564E+02	-6.07683942447E+00	-3.53798261077E-01
3.26228835058E+05	-1.97428481248E+01	6.54329073672E+01	4.72103522014E+00	-1.78129615655E+02	-3.83930392901E+01	4.10462466800E+01	-6.02070119633E+00	-4.96023171356E-02
