# Hz S DB R 50
! CMT, M5065, 19127446, 24.2.4/2
! Date: 11/1/2024 3:06:08 PM
! Data: Format (Calibration Info)
! Freq	S11:dB/Ang(F2)	S21:dB/Ang(F2)	S12:dB/Ang(F2)	S22:dB/Ang(F2)
3.00000000000E+05	-2.29206457278E+01	-3.35719458816E+01	5.09776746420E+00	-1.77724732875E+02	-3.82993485329E+01	-4.09025755655E+01	-6.02600975094E+00	-1.29983228052E-01
3.00216845423E+05	-2.85314033520E+01	2.19795175486E+01	5.10467100906E+00	-1.77914134671E+02	-4.18737042999E+01	1.52705331493E+02	-6.07328920143E+00	-3.47655031813E-01
3.00433847586E+05	-2.03265202478E+01	5.28702352443E+01	5.08616401221E+00	-1.77902399603E+02	-4.27766550295E+01	-1.11494628583E+02	-6.03835476077E+00	-9.59988098231E-02
3.00651006602E+05	-1.49651488959E+01	6.34204901358E+00	4.96488829470E+00	-1.77579815751E+02	-4.11810969895E+01	-7.91186736103E+01	-6.03225658607E+00	-2.62786246755E-01
3.00868322584E+05	-2.54835732308E+01	2.35953610401E+01	5.13556983571E+00	-1.77906056293E+02	-4.47995473372E+01	1.56634855160E+02	-6.05289256592E+00	-3.22622778507E-01
3.01085795647E+05	-2.33997974319E+01	1.15775544676E-01	5.06711935979E+00	-1.77626514394E+02	-3.78207758704E+01	-3.71512296734E+00	-6.00500572377E+00	-2.35998524534E-01
3.01303425902E+05	-2.04094576542E+01	5.86011875465E+01	5.08737593565E+00	-1.77810761608E+02	-4.80307697422E+01	-6.25054464399E+01	-6.02894696937E+00	-1.42691072212E-01
3.01521213465E+05	-1.58914242301E+01	6.14550342250E+01	5.03383520276E+00	-1.78814340028E+02	-4.96577498243E+01	-1.63073724557E+02	-6.04297045846E+00	-1.99262453932E-01
3.01739158449E+05	-2.20682496327E+01	-1.03965500715E+01	5.03909741842E+00	-1.77646981602E+02	-2.92169660816E+01	5.91245155304E+00	-5.94748236842E+00	-2.48972841182E-01
3.01957260967E+05	-1.89702555276E+01	6.57579011186E+01	5.06835335654E+00	-1.78057494417E+02	-3.84799659744E+01	-2.69903099122E+01	-5.99925593583E+00	-3.55335203741E-01
3.02175521134E+05	-1.76243925628E+01	1.48021495859E+02	5.14244696826E+00	-1.78081342917E+02	-4.01003609406E+01	1.06633045545E+02	-6.05747304054E+00	7.92073074317E-02
3.02393939063E+05	-1.85233496196E+01	5.64843981081E+01	5.07286370766E+00	-1.78138385651E+02	-4.59961730718E+01	1.37217418126E+02	-6.05731411888E+00	-2.00379786141E-01
3.02612514869E+05	-2.59800341399E+01	8.80760987045E+00	5.11151652291E+00	-1.77579467429E+02	-3.89266093030E+01	-9.73260572745E+01	-6.04949393860E+00	-4.27604618746E-01
3.02831248665E+05	-1.67270781008E+01	2.95406419731E+01	5.04325323928E+00	-1.78206138836E+02	-4.57288624552E+01	-1.62310524537E+02	-6.03403640508E+00	-2.03930495753E-01
3.03050140565E+05	-1.75594866683E+01	9.82276832651E+01	5.12920371682E+00	-1.78688689099E+02	-6.10071485827E+01	4.84278101204E+01	-6.01020728896E+00	-1.97141912230E-01
3.03269190685E+05	-2.56908686962E+01	2.15098103136E+01	5.13661495098E+00	-1.77938795330E+02	-3.99537945242E+01	4.21081139880E+01	-6.01400500035E+00	-2.39867905266E-01
3.03488399138E+05	-3.45147114398E+01	3.87569603920E+01	5.09754487883E+00	-1.77615067374E+02	-3.07991370601E+01	-2.32356480333E+01	-5.97469408077E+00	-2.80288931217E-01
3.03707766039E+05	-2.15126827769E+01	2.82448179049E+01	5.08032976380E+00	-1.77883986793E+02	-4.06749468502E+01	7.91405443665E+01	-6.01779869190E+00	-8.37069787088E-02
3.03927291503E+05	-1.91491295895E+01	2.71235883667E+00	5.05047090226E+00	-1.77663463738E+02	-4.30596975002E+01	6.92409771734E+01	-6.05881175419E+00	-1.50909342235E-01
3.04146975643E+05	-1.74882476966E+01	4.50453317756E+01	5.11235460786E+00	-1.78213004270E+02	-4.84317194583E+01	5.00086200700E+01	-6.03281629414E+00	-1.77973912022E-01
3.04366818575E+05	-2.03125449958E+01	6.02985170927E+01	5.13075162615E+00	-1.77863008347E+02	-3.65995301207E+01	9.99090036359E+01	-6.02836568346E+00	2.17143775284E-02
3.04586820414E+05	-1.92873439992E+01	2.18897165186E+01	5.03311458220E+00	-1.77537002810E+02	-4.78012010646E+01	1.77556131637E+02	-6.05875514691E+00	-1.73691448117E-01
3.04806981274E+05	-1.40215270827E+01	-2.08090610028E+00	5.00517557600E+00	-1.76910574480E+02	-4.26834220414E+01	-1.33774191325E+02	-6.06183155879E+00	-2.46338982160E-01
3.05027301270E+05	-1.90817101404E+01	5.16862765576E+01	5.08828113756E+00	-1.78113833028E+02	-3.58375946983E+01	-1.07086061216E+02	-6.04891229946E+00	-6.43453145725E-01
3.05247780517E+05	-4.43282175794E+01	-2.47998850209E+01	5.10386493653E+00	-1.77936225165E+02	-4.39129272106E+01	-1.43391947180E+02	-6.06033458956E+00	-1.36669128412E-01
3.05468419131E+05	-2.02065085490E+01	2.68396974706E+01	5.07687071445E+00	-1.78019674378E+02	-4.23122847082E+01	4.76825022719E+01	-6.01969990618E+00	-9.64655142265E-02
3.05689217226E+05	-1.31001756614E+01	-7.76369501004E+01	5.06108986847E+00	-1.76771984262E+02	-6.57101484383E+01	-3.27914616719E+01	-6.02021896878E+00	-2.03746200393E-01
3.05910174918E+05	-1.64037865657E+01	4.81793478012E+01	5.07980514601E+00	-1.78286244157E+02	-5.87915612469E+01	1.70893241621E+01	-6.04221852746E+00	-1.99695624186E-01
3.06131292322E+05	-2.17887736418E+01	-2.93151854189E+01	5.10931154017E+00	-1.77949309661E+02	-3.34631511903E+01	3.42677421354E+01	-5.98668676266E+00	-9.89600679585E-03
3.06352569554E+05	-2.51963668021E+01	1.53109078088E+01	5.09850746592E+00	-1.78057998047E+02	-5.12687672852E+01	1.74140943855E+02	-6.04786229842E+00	-2.82806644881E-01
3.06574006730E+05	-2.12883574082E+01	-8.55759535538E+01	5.13364838028E+00	-1.77062518206E+02	-3.83340113121E+01	-1.13917895166E+02	-6.06233339797E+00	-2.78704440802E-01
3.06795603964E+05	-2.71709020661E+01	-1.60847397676E+01	5.05903453547E+00	-1.77633173416E+02	-3.45797673989E+01	-4.20199387880E+00	-5.98870471287E+00	-3.46360891461E-01
3.07017361372E+05	-2.15451848090E+01	1.53132702027E+01	5.07571003458E+00	-1.78461116093E+02	-4.00961601849E+01	-8.97669933629E+01	-6.07833347374E+00	-4.92121144602E-01
3.07239279071E+05	-3.12013478233E+01	1.54060216820E+01	5.11583704988E+00	-1.77457374506E+02	-4.41237074931E+01	-9.42832610819E+01	-6.03240726946E+00	-2.10836729054E-01
3.07461357176E+05	-2.00250565488E+01	-1.43604343742E+02	5.18847331647E+00	-1.77309329235E+02	-4.25077524519E+01	-1.05428926809E+02	-6.04431996388E+00	-4.28583063475E-01
3.07683595803E+05	-1.18685751750E+01	2.61900909413E+01	5.00649811853E+00	-1.77703490049E+02	-3.61927643427E+01	5.87033673833E+00	-5.98257566606E+00	-4.66202488591E-02
3.07905995068E+05	-2.06831262063E+01	-1.29494917651E+01	5.05419187307E+00	-1.77134179145E+02	-5.03765140434E+01	1.46289499890E+01	-6.02582359584E+00	-9.90631333165E-02
3.08128555087E+05	-1.33613474326E+01	3.87179835534E+00	4.98207335828E+00	-1.77871660615E+02	-3.84743310977E+01	1.48932756900E+02	-6.04611070673E+00	-3.17367800405E-01
3.08351275976E+05	-2.04683915007E+01	-6.21473229724E+01	5.11474167126E+00	-1.77422344457E+02	-3.91680375803E+01	1.82228168454E+01	-6.02328513315E+00	-2.41897983286E-01
3.08574157853E+05	-3.93022784262E+01	-3.68187127811E+01	5.17387411789E+00	-1.77891932438E+02	-4.26857396589E+01	-1.70668182465E+02	-6.04734712803E+00	-9.03697518722E-02
3.08797200832E+05	-4.44968118629E+01	1.13059415439E+02	5.13431252230E+00	-1.77851885941E+02	-4.07431388833E+01	-2.47826328948E+01	-5.99396826357E+00	-6.28517594838E-02
3.09020405031E+05	-1.70343336430E+01	-1.75993097941E+02	5.19818403963E+00	-1.77578945517E+02	-4.31087977939E+01	2.96121138091E+01	-6.02947763552E+00	-1.68560254657E-01
3.09243770566E+05	-2.35780539344E+01	2.99287134303E+01	5.07690131183E+00	-1.77926376340E+02	-4.62838288925E+01	1.05920652284E+02	-6.07071133257E+00	-1.00627864220E-01
3.09467297553E+05	-1.73797450454E+01	1.81190831402E+01	5.01714383862E+00	-1.78120648646E+02	-2.83197151300E+01	7.24205033831E+00	-5.90005773650E+00	-1.04766345459E-01
3.09690986110E+05	-1.90054945503E+01	3.14836193722E+01	5.13241522478E+00	-1.78304436791E+02	-4.16753135549E+01	1.39484541305E+02	-6.07944520741E+00	-2.17677948367E-01
3.09914836353E+05	-1.76041457148E+01	9.66143816249E+01	5.13872588359E+00	-1.78315262598E+02	-3.91646041161E+01	-6.45643984920E+01	-6.04241275380E+00	-4.49501610721E-01
3.10138848399E+05	-1.96542872319E+01	2.57418265556E+01	5.06189961887E+00	-1.77979926311E+02	-5.52457899275E+01	6.48007718038E+01	-6.03211852292E+00	-1.81919489641E-01
3.10363022365E+05	-2.19470250700E+01	3.63561663829E+01	5.07840872890E+00	-1.78123543724E+02	-5.46867784640E+01	-1.30150102950E+02	-6.08300629187E+00	-1.61068024865E-01
3.10587358368E+05	-1.41751613400E+01	4.35003808523E+01	5.08115816525E+00	-1.78556722316E+02	-4.84113617547E+01	-9.52322552478E+01	-6.03724732742E+00	-4.00173832393E-01
3.10811856525E+05	-9.45147595192E+00	5.36120547606E+01	4.96417595884E+00	-1.79099036589E+02	-4.30398056097E+01	-1.78027460983E+02	-6.03770526388E+00	-2.48226200820E-01
3.11036516954E+05	-3.03740680479E+01	-1.45705330498E+01	5.03343760381E+00	-1.77770649671E+02	-5.16270397807E+01	-7.88773829016E+01	-6.03129479778E+00	-7.31626755179E-03
3.11261339771E+05	-2.41671763350E+01	7.46530745480E+01	5.12537085308E+00	-1.78148429219E+02	-4.64517921090E+01	-8.25668457284E+01	-6.02605044667E+00	-4.90325500148E-01
3.11486325094E+05	-2.26206487796E+01	4.76066926666E+01	5.05274435839E+00	-1.78161784158E+02	-4.43744603321E+01	-1.43740702467E+02	-6.06097784694E+00	-4.41346126180E-01
3.11711473040E+05	-1.16356582663E+01	7.51440287913E+00	4.92520003719E+00	-1.77743952960E+02	-4.94989737798E+01	-1.19785575684E+02	-6.03676939188E+00	-1.37992704264E-01
3.11936783728E+05	-1.53893252517E+01	2.47973129756E+00	4.99825248763E+00	-1.77787576500E+02	-3.73811241274E+01	-1.59312869358E+02	-6.09350314897E+00	-3.06628389433E-01
3.12162257274E+05	-1.91717374077E+01	-2.25858932497E+01	4.99294244212E+00	-1.77273428638E+02	-5.65459220579E+01	1.04073173423E+02	-6.02450000587E+00	-2.17643282452E-01
3.12387893797E+05	-1.87927128057E+01	-5.87087908302E+01	5.11367117895E+00	-1.77279481658E+02	-4.25658886609E+01	1.19207026789E+02	-6.07589055588E+00	2.76985576747E-02
3.12613693413E+05	-1.37666601937E+01	1.55031904390E+01	4.97746521028E+00	-1.78149821314E+02	-5.16863838186E+01	-4.11703489262E+01	-6.05426468964E+00	-1.04984885734E-01
3.12839656242E+05	-1.80031473242E+01	2.51381177214E+01	5.02979116436E+00	-1.77679621685E+02	-4.09800916050E+01	1.19619303284E+02	-6.06431317009E+00	-1.94283933078E-02
3.13065782401E+05	-3.34166777116E+01	3.23015878145E+01	5.09877788309E+00	-1.77674282101E+02	-5.35135545697E+01	1.50346108065E+02	-6.04796815813E+00	-2.73719216792E-01
3.13292072007E+05	-2.08509014390E+01	-3.90461241979E+01	5.09844647753E+00	-1.77202754369E+02	-4.66217786072E+01	9.27892364282E+01	-6.04438090863E+00	-2.73817487406E-01
3.13518525180E+05	-2.23166091164E+01	5.45356615759E+01	5.07680607555E+00	-1.78036205232E+02	-4.03899579435E+01	7.38200963347E+01	-6.05984413210E+00	-3.49070055903E-02
3.13745142038E+05	-2.19430981987E+01	5.43154844452E+01	5.12161580544E+00	-1.77721288896E+02	-4.67916805530E+01	1.14772313801E+02	-6.03022014437E+00	-5.67563462908E-02
3.13971922698E+05	-1.51143363940E+01	5.57981022676E+01	5.03087911625E+00	-1.78583568291E+02	-5.17246206857E+01	-1.48237091588E+02	-6.05052922941E+00	-1.16946529651E-01
3.14198867279E+05	-3.45671251695E+01	6.13273658139E+01	5.17378054665E+00	-1.77936952560E+02	-3.82930984696E+01	3.65900994646E+01	-6.01408916332E+00	-1.08088246860E-01
3.14425975900E+05	-1.54207112716E+01	4.28874907969E+01	5.04184403938E+00	-1.78504077289E+02	-4.31321430421E+01	-8.27494340019E+00	-6.05374692989E+00	-1.52482250269E-01
3.14653248680E+05	-1.76483115705E+01	-2.11179954552E+00	5.08038675233E+00	-1.77965954143E+02	-3.79768748782E+01	-1.23630949903E+00	-6.01834511212E+00	-2.64476741789E-01
3.14880685736E+05	-1.52152135341E+01	7.01543822635E+01	5.11834294730E+00	-1.78358416813E+02	-4.26731826369E+01	-3.34204896031E+01	-6.04316869451E+00	-1.50611170137E-01
3.15108287188E+05	-1.38317137727E+01	5.64103011818E+01	5.04464550151E+00	-1.78823987498E+02	-4.29410473924E+01	9.22773686184E+01	-6.05249967437E+00	-1.51759276767E-02
3.15336053154E+05	-3.53515423212E+01	-3.71919048061E+00	5.09287193626E+00	-1.77985617825E+02	-4.73962660790E+01	-1.61335031562E+02	-6.06162773095E+00	-2.76929475707E-01
3.15563983753E+05	-1.74054466213E+01	3.89217150782E+01	5.04423295087E+00	-1.78175442200E+02	-3.86446565103E+01	9.68596427657E+01	-6.07442553713E+00	5.55546102175E-02
3.15792079105E+05	-2.77450304434E+01	7.07355041058E+01	5.09676304204E+00	-1.78014058260E+02	-5.38324730145E+01	2.16215912290E+01	-6.02799880045E+00	-1.22508684082E-01
3.16020339328E+05	-1.93408989053E+01	6.71363563117E+00	5.07324647877E+00	-1.77889955516E+02	-4.45452539281E+01	-1.60965221736E+01	-6.04697879620E+00	-2.98276281078E-01
3.16248764542E+05	-2.33825334158E+01	1.34300757056E+02	5.11707578133E+00	-1.78010273407E+02	-3.40440661138E+01	-1.20832504133E+02	-6.07372813933E+00	-3.77894460990E-01
3.16477354866E+05	-2.17009200015E+01	4.53874844520E+01	5.07218836707E+00	-1.78043209501E+02	-3.75236730918E+01	2.43010535884E+01	-6.02915764981E+00	-9.49601775877E-03
3.16706110419E+05	-2.10789866853E+01	3.21742431417E+01	5.04535629173E+00	-1.78051403694E+02	-4.08372275508E+01	-8.17999403974E+01	-6.04214554350E+00	-4.32722007820E-01
3.16935031321E+05	-1.42113197796E+01	-1.66907732412E+01	4.98798113531E+00	-1.77467421240E+02	-4.99100948294E+01	2.58595705482E+01	-6.05462768664E+00	-3.61771960193E-01
3.17164117691E+05	-3.41882153395E+01	-1.01825317463E+02	5.14810194214E+00	-1.77978769849E+02	-3.85458822213E+01	5.36040743623E+01	-6.05042626279E+00	-4.90323725991E-02
3.17393369648E+05	-1.55107997407E+01	-2.15850195637E+01	5.06898176521E+00	-1.77755584986E+02	-4.98270700235E+01	-3.59411170964E+01	-6.04751918604E+00	-2.23256646061E-01
3.17622787313E+05	-2.43274699139E+01	2.94792953552E+01	5.13320709685E+00	-1.78101433962E+02	-3.80111670303E+01	-5.11117824839E+00	-6.00189255153E+00	-1.54966682338E-01
3.17852370806E+05	-2.26446081789E+01	-5.15380835404E+00	5.08790146755E+00	-1.77915525559E+02	-4.42638686717E+01	-6.04837217071E+00	-6.02384823885E+00	-5.02469269324E-01
3.18082120245E+05	-2.33940554472E+01	2.02311847261E+01	5.04566528872E+00	-1.77730267617E+02	-3.08066532881E+01	-5.12421509171E+01	-5.96948453625E+00	-5.46910302167E-01
3.18312035752E+05	-1.98704940596E+01	-5.72466404205E+01	5.04431890059E+00	-1.77640044590E+02	-4.22682424465E+01	-1.78953283685E+02	-6.07176400822E+00	-7.48621474017E-02
3.18542117445E+05	-1.67557621135E+01	2.21870849565E+01	5.01067605066E+00	-1.78048324213E+02	-4.45842001492E+01	-1.18334596860E+02	-6.04026809369E+00	-4.35950652024E-01
3.18772365446E+05	-2.62417097400E+01	-2.19568298224E+01	5.08896174479E+00	-1.77865911751E+02	-4.24746220206E+01	-1.47806069213E+02	-6.07144148523E+00	-2.25974888592E-01
3.19002779874E+05	-2.97412458054E+01	1.09471212737E+02	5.15079101607E+00	-1.78337246903E+02	-4.01308329172E+01	4.05769021285E+00	-6.04255965585E+00	-3.45736493825E-01
3.19233360850E+05	-1.53099302251E+01	2.00120760531E+01	5.00739876934E+00	-1.78234400572E+02	-4.83672233503E+01	-5.46595928640E+01	-6.01002698938E+00	-2.75110774258E-01
3.19464108494E+05	-1.59316682259E+01	2.68680216083E+01	5.07741828986E+00	-1.78185572119E+02	-4.06316568844E+01	1.00911584149E+02	-6.03961436220E+00	-1.32327486701E-01
3.19695022927E+05	-1.70156394801E+01	3.98472816656E+01	5.02209879112E+00	-1.77956637859E+02	-4.77016994703E+01	-7.96177535297E+01	-6.05291609481E+00	-8.87158509438E-02
3.19926104268E+05	-1.89252892081E+01	5.01417753199E+01	5.06227378381E+00	-1.78264030168E+02	-3.82668302508E+01	7.72433652130E+01	-6.04293055773E+00	-4.98026124518E-02
3.20157352640E+05	-2.13063550713E+01	-1.12364998897E+00	5.03617187265E+00	-1.77804623673E+02	-4.96214781626E+01	2.61132329590E+01	-6.04846073217E+00	-2.60822484869E-01
3.20388768162E+05	-1.27691550020E+01	7.56451175556E+01	5.09804914583E+00	-1.79257214384E+02	-4.46478317681E+01	1.05859596489E+02	-6.05857485197E+00	-1.02253872786E-01
3.20620350955E+05	-3.26751546431E+01	8.23564534730E+01	5.08554733693E+00	-1.77943163226E+02	-3.87618922490E+01	1.21262016384E+02	-6.05016099324E+00	-8.23241679168E-02
3.20852101140E+05	-3.31549291137E+01	-2.96455712058E+01	5.08290587603E+00	-1.77723058658E+02	-3.49051594978E+01	1.15380503079E+01	-6.00387287002E+00	-1.13561918617E-01
3.21084018839E+05	-1.63843733682E+01	6.95132976679E+01	5.10337448423E+00	-1.78654952400E+02	-3.83789979117E+01	9.98023793236E+01	-6.04691945336E+00	7.52921952489E-02
3.21316104172E+05	-2.38705477291E+01	1.22311213344E+01	5.05119783956E+00	-1.77954214105E+02	-4.17142943165E+01	-9.88670537580E+01	-6.04446391295E+00	-1.99821193254E-01
3.21548357261E+05	-1.97942553992E+01	-1.92474849114E+00	5.07265531454E+00	-1.78129082106E+02	-4.18757664820E+01	1.37413442071E+02	-6.07620459884E+00	-1.98058836649E-01
3.21780778226E+05	-2.44457849614E+01	-2.15964695257E+01	5.09471027127E+00	-1.77461551055E+02	-4.27071271199E+01	-5.29171960551E+01	-5.99792585000E+00	-2.27439902561E-01
3.22013367189E+05	-1.97715098994E+01	9.10825427161E+01	5.09932782196E+00	-1.78727338928E+02	-3.90560516699E+01	-1.36298140865E+02	-6.05072443866E+00	-2.23868561829E-01
3.22246124272E+05	-1.98477567714E+01	-8.96008130156E+01	5.07418121806E+00	-1.77600916849E+02	-4.49978581822E+01	-1.78337615144E+02	-6.04226103035E+00	-3.53879225258E-01
3.22479049596E+05	-2.03340599997E+01	-2.31205833937E+01	5.02773664706E+00	-1.77880868724E+02	-4.50631973378E+01	-9.06835567484E+01	-6.08841547132E+00	-3.33363789100E-01
3.22712143282E+05	-2.15606681185E+01	1.87212537673E+01	5.05617855060E+00	-1.78264121901E+02	-4.20972053867E+01	5.67920564749E+01	-6.02856216224E+00	1.07898019042E-01
3.22945405453E+05	-4.27110330120E+01	-6.34876920752E+01	5.09187620169E+00	-1.77933240893E+02	-4.05850794501E+01	1.09604710754E+02	-6.04787379647E+00	-6.87326882408E-02
3.23178836230E+05	-1.74741083468E+01	3.32280248395E+01	5.07128103766E+00	-1.78341283069E+02	-4.77963099282E+01	1.34065033018E+02	-6.03999907243E+00	-1.58223520230E-01
3.23412435735E+05	-2.88883666872E+01	4.99534640172E+01	5.08036412927E+00	-1.78097970268E+02	-4.15802725941E+01	1.70290822738E+02	-6.07244802384E+00	-2.11267902560E-01
3.23646204090E+05	-2.33048071608E+01	-1.30635857436E+01	5.06979931928E+00	-1.77729931325E+02	-3.77144176390E+01	-1.55869395940E+02	-6.04551507023E+00	-3.81433637029E-01
3.23880141417E+05	-1.32641740377E+01	1.01415826617E+02	5.15244311929E+00	-1.79159324008E+02	-4.41822302120E+01	1.79688185892E+02	-6.04311482040E+00	-1.98662793521E-01
3.24114247838E+05	-2.17469480819E+01	-8.52607595838E+00	5.07911942823E+00	-1.78409987096E+02	-4.65081059157E+01	-7.57811761416E+01	-6.02766620824E+00	-1.76520785731E-01
3.24348523475E+05	-2.71914512941E+01	-2.64127542204E+01	5.13272980973E+00	-1.77735205185E+02	-3.50606475744E+01	9.98081963906E+01	-6.02560837981E+00	1.21248949022E-01
3.24582968451E+05	-3.01353361624E+01	9.12069688066E+01	5.10034810887E+00	-1.78099921298E+02	-4.38533803043E+01	-1.41537107936E+02	-6.05140397193E+00	-2.69316007787E-01
3.24817582888E+05	-1.97108016355E+01	3.05579100145E+01	5.12813224817E+00	-1.77985718094E+02	-4.39228171411E+01	5.47844309375E+01	-6.02915267453E+00	-9.60483736126E-02
3.25052366909E+05	-4.88944131015E+01	1.22048433513E+02	5.09994059778E+00	-1.77923797451E+02	-4.35422028801E+01	1.62391276838E+02	-6.07137804778E+00	-3.00353118099E-01
3.25287320635E+05	-1.82106075475E+01	-1.20224332357E+01	4.99424178722E+00	-1.77958421048E+02	-4.16581799096E+01	1.73397272665E+02	-6.03035990688E+00	-2.62685771873E-01
3.25522444191E+05	-1.94802319054E+01	2.12468595868E+00	5.07448119561E+00	-1.77792212541E+02	-5.43349620597E+01	1.05277581233E+02	-6.08346200840E+00	-1.97524345528E-01
3.25757737698E+05	-1.67324342531E+01	1.22574391147E+02	5.16831393105E+00	-1.78550621889E+02	-3.69065012634E+01	-1.47622953480E+02	-6.07635545434E+00	-3.38269538508E-01
3.25993201280E+05	-2.19854587691E+01	2.71205682379E+01	5.06194005489E+00	-1.78170200115E+02	-3.82906063962E+01	-2.92308619818E+01	-6.00305125401E+00	-3.02456727448E-01
3.26228835058E+05	-2.72812098694E+01	-1.18321229607E+02	5.12494239131E+00	-1.78177273068E+02	-5.43998542111E+01	1.52793032050E+02	-6.01959713435E+00	-3.71289919135E-01
