# Hz S DB R 50
! CMT, M5065, 19127446, 24.2.4/2
! Date: 11/1/2024 3:32:28 PM
! Data: Format (Calibration Info)
! Freq	S11:dB/Ang(F2)	S21:dB/Ang(F2)	S12:dB/Ang(F2)	S22:dB/Ang(F2)
3.00000000000E+05	-2.86418851290E+01	6.88823503964E+01	1.08794852145E+01	-1.77862003056E+02	-4.12258273912E+01	-1.00202081161E+02	-6.04022856421E+00	-4.73949694106E-01
3.00216845423E+05	-1.74617000120E+01	-5.88616961178E+01	1.07962059484E+01	-1.76977893212E+02	-3.57069688320E+01	-1.64148014131E+02	-6.08467983387E+00	-1.48166801035E-01
3.00433847586E+05	-1.72167306289E+01	-5.43878178606E+01	1.07798306643E+01	-1.77222646683E+02	-3.72348518092E+01	-8.75892346519E+01	-6.04876916462E+00	-5.72737467849E-01
3.00651006602E+05	-1.00859320929E+01	3.97859515390E+01	1.07029707827E+01	-1.78539551090E+02	-3.94566467871E+01	1.62035172247E+02	-6.06694654221E+00	-1.11744785234E-01
3.00868322584E+05	-1.09748734602E+01	1.79096420099E+01	1.06962094744E+01	-1.77484266332E+02	-3.97928561303E+01	9.77611851913E+01	-6.02442518087E+00	4.66253899013E-01
3.01085795647E+05	-2.40311683368E+01	-1.51564194385E+02	1.08747115294E+01	-1.77229567380E+02	-3.02903348324E+01	3.70059727672E+00	-5.87402325160E+00	-2.68690959545E-01
3.01303425902E+05	-1.98863402115E+01	7.70235572077E+01	1.08386176506E+01	-1.78046389194E+02	-4.33344478260E+01	-3.68178966636E+01	-6.02888421021E+00	-2.73900230155E-01
3.01521213465E+05	-2.31122444286E+01	-8.04999349614E+00	1.07879220548E+01	-1.77785494398E+02	-4.99833856922E+01	1.03012884864E+02	-6.06826064540E+00	1.91579132944E-02
3.01739158449E+05	-1.84054230268E+01	4.92470300795E+01	1.08656218848E+01	-1.78218998239E+02	-3.89259087335E+01	7.22812430477E+01	-6.02688330563E+00	4.83283648113E-02
3.01957260967E+05	-1.75790512471E+01	9.26920476155E+01	1.08747728235E+01	-1.78254505548E+02	-4.54108998828E+01	1.56653677367E+02	-6.06034184091E+00	-1.01178699971E-01
3.02175521134E+05	-5.64659242778E+00	-5.66537839599E+01	1.06084744690E+01	-1.75591948972E+02	-3.58924469736E+01	-3.36401841007E+01	-5.95886213415E+00	-4.22761557231E-01
3.02393939063E+05	-2.74698691216E+01	-1.27701798092E+02	1.09043878523E+01	-1.77216301408E+02	-3.45781716376E+01	5.30190019489E+01	-5.99112373793E+00	3.00593205524E-01
3.02612514869E+05	-1.33874289538E+01	2.90388758180E+01	1.07626487226E+01	-1.77771106974E+02	-3.49457878362E+01	1.00815376788E+02	-6.01918373828E+00	4.41103772745E-02
3.02831248665E+05	-2.77086587536E+01	-2.83791949497E+01	1.08206590234E+01	-1.77776834163E+02	-4.51671951969E+01	-5.27157262874E+01	-6.05550374277E+00	-1.13712062926E-01
3.03050140565E+05	-2.21480231148E+01	-8.03320055299E+00	1.08235112005E+01	-1.77514517307E+02	-4.60837846034E+01	3.03129722510E+01	-6.02751009000E+00	-1.00825735946E-01
3.03269190685E+05	-2.08851099405E+01	-4.19313949314E+00	1.08973326099E+01	-1.77816249455E+02	-3.77331239244E+01	-1.19287487431E+02	-6.03269665116E+00	-6.41381462035E-01
3.03488399138E+05	-1.42864134103E+01	1.84000135915E+01	1.07282043007E+01	-1.78137609766E+02	-3.87574084315E+01	-3.34070259677E+01	-5.99804623338E+00	-4.60938549237E-01
3.03707766039E+05	-1.60725390940E+01	9.23557882042E+01	1.08315761357E+01	-1.78381609493E+02	-5.88468185157E+01	-8.84050708973E+01	-6.01797669447E+00	-3.95135867544E-01
3.03927291503E+05	-1.68483052833E+01	8.17432526113E+01	1.08317233745E+01	-1.78335543712E+02	-4.08831411233E+01	9.75672524978E+00	-5.99173039864E+00	-1.46313119401E-01
3.04146975643E+05	-1.49760440591E+01	2.27320251432E+01	1.07264079597E+01	-1.77779986367E+02	-2.98017537797E+01	-9.03865330090E+01	-6.01834890450E+00	-1.21288534582E+00
3.04366818575E+05	-3.40749027515E+01	-4.40357005791E+01	1.08947988301E+01	-1.77727148636E+02	-3.59071421466E+01	3.89612315114E+01	-6.02028522483E+00	1.81657605120E-01
3.04586820414E+05	-1.67479784610E+01	4.06155350403E+00	1.07805011932E+01	-1.77594893620E+02	-3.61904739631E+01	2.83294781345E+01	-6.01576403483E+00	-2.76406025304E-01
3.04806981274E+05	-1.65366083862E+01	6.50456441403E+01	1.08003126988E+01	-1.78459414652E+02	-4.93178905674E+01	6.52495219488E+01	-6.03772008615E+00	-8.10286419290E-02
3.05027301270E+05	-1.28757563239E+01	-1.34818442799E+01	1.07481576561E+01	-1.77128577910E+02	-4.00442762412E+01	9.60754865527E+01	-6.06474468494E+00	-1.93835333954E-01
3.05247780517E+05	-1.04209645438E+01	-7.10278040189E+01	1.07864282356E+01	-1.76509980464E+02	-3.81069130927E+01	-8.55736390116E+01	-5.99516655242E+00	-4.35792789355E-01
3.05468419131E+05	-1.80084030416E+01	3.67233854844E+01	1.07653413708E+01	-1.77652163155E+02	-4.51543056375E+01	1.78295626944E+02	-6.03603286058E+00	-3.37713547835E-01
3.05689217226E+05	-2.08104861505E+01	5.17059931186E+01	1.08045783537E+01	-1.78002929828E+02	-3.26498794393E+01	-1.13720574277E+02	-6.10010054077E+00	-8.97640280563E-01
3.05910174918E+05	-2.09909849140E+01	-4.74846144507E+01	1.08173689378E+01	-1.77610812339E+02	-4.31979192793E+01	1.22299298655E+02	-6.03665331526E+00	-1.79292085035E-01
3.06131292322E+05	-1.48763663252E+01	-1.14439547485E+01	1.07266837490E+01	-1.77724965131E+02	-4.10000888433E+01	5.57439176945E+01	-5.99976821570E+00	7.14727829163E-02
3.06352569554E+05	-2.13899229898E+01	4.62822293677E+01	1.07987118282E+01	-1.77918896777E+02	-3.67214271842E+01	3.17092639832E+00	-5.98548162707E+00	-9.46195719580E-02
3.06574006730E+05	-1.63801574219E+01	-1.19917059279E+02	1.09026803161E+01	-1.77147916616E+02	-4.78751476963E+01	-1.32743255822E+02	-6.02410073481E+00	-2.37607806070E-01
3.06795603964E+05	-7.67395831238E+00	8.62828978918E+01	1.08255577978E+01	-1.79500925601E+02	-4.48863789077E+01	-5.90017970505E+01	-6.00553568642E+00	-4.37874481681E-01
3.07017361372E+05	-2.49906535364E+01	-1.27571518672E+02	1.09012371254E+01	-1.77535186535E+02	-4.54044532560E+01	1.68337746578E+02	-6.09321196411E+00	-2.00185778172E-01
3.07239279071E+05	-3.36740728048E+01	4.76300370679E+01	1.08547208985E+01	-1.77812902815E+02	-3.85385416038E+01	-6.00565124586E+01	-5.99343249991E+00	-9.49680367748E-01
3.07461357176E+05	-3.27515985549E+01	-1.20878586098E+01	1.08431136661E+01	-1.77819033115E+02	-3.93391190271E+01	-1.34267356007E+02	-6.06484621472E+00	-6.87088576180E-01
3.07683595803E+05	-2.50874327985E+01	2.96342345166E+01	1.08364934857E+01	-1.77707505845E+02	-4.63527851787E+01	-2.18573069030E+01	-5.99595031910E+00	-2.60706253247E-01
3.07905995068E+05	-2.07609660845E+01	5.66872534116E+01	1.08414648586E+01	-1.78127341515E+02	-3.80190098059E+01	1.76318893567E+02	-6.11665913899E+00	2.25906257016E-03
3.08128555087E+05	-1.60199278439E+01	1.04899635155E+02	1.09224089234E+01	-1.78217420272E+02	-4.04518138564E+01	-2.91076969982E+00	-6.00207334639E+00	-6.95684508958E-02
3.08351275976E+05	-1.39447535875E+01	-1.26642497763E+02	1.09115038747E+01	-1.77091829960E+02	-4.32485557773E+01	5.90637698222E+01	-6.03758171872E+00	-6.63161834209E-02
3.08574157853E+05	-2.17264943628E+01	1.01808059806E+02	1.08921508399E+01	-1.78087377845E+02	-3.03698151407E+01	1.45717617831E+02	-6.16624625810E+00	1.51581763393E-01
3.08797200832E+05	-1.48055753127E+01	1.05708175556E+02	1.08655349306E+01	-1.78327523478E+02	-3.59529218068E+01	8.31705335454E+01	-6.05500919419E+00	3.50192923067E-01
3.09020405031E+05	-3.09205814461E+01	-2.30390092911E+01	1.08682918890E+01	-1.77634334296E+02	-3.74869313743E+01	-1.60660474631E+02	-6.09589520768E+00	-5.52130192567E-01
3.09243770566E+05	-1.77042614195E+01	-7.03511326971E+01	1.07884151695E+01	-1.77270414235E+02	-5.27541384290E+01	-1.57577767177E+02	-6.07197460837E+00	-3.92494630074E-01
3.09467297553E+05	-2.14411532008E+01	-1.57183608325E+00	1.08123183227E+01	-1.77890714922E+02	-3.41078266262E+01	1.15052566223E+02	-6.05748974043E+00	1.51767280105E-01
3.09690986110E+05	-1.54228094966E+01	1.38177952989E+01	1.07054541859E+01	-1.77841547904E+02	-4.15266687705E+01	1.51588642507E+02	-6.05586731196E+00	1.60443709072E-01
3.09914836353E+05	-1.18325531436E+01	6.56403367133E+01	1.08086872214E+01	-1.78863796341E+02	-3.97341013545E+01	-1.40919850950E+02	-6.01696495402E+00	-3.91768920571E-01
3.10138848399E+05	-1.28652920626E+01	7.50469626090E+01	1.07999639883E+01	-1.78727940962E+02	-3.82360569265E+01	-1.40017177588E+02	-6.11692004328E+00	-6.55516061839E-01
3.10363022365E+05	-2.34776397659E+01	-2.29473655015E+01	1.07479331202E+01	-1.77653199426E+02	-3.59485303872E+01	-3.09507583210E+01	-5.95369323211E+00	-4.68867064358E-01
3.10587358368E+05	-1.72646235997E+01	2.72924260101E+01	1.07685680672E+01	-1.77934006202E+02	-4.57682740148E+01	-9.84135401267E+01	-6.00920394856E+00	-2.47556328313E-01
3.10811856525E+05	-1.43288651623E+01	-7.22982992206E+00	1.07525031092E+01	-1.77859031296E+02	-4.42559902513E+01	1.27175766642E+02	-6.04337288430E+00	5.27742662185E-02
3.11036516954E+05	-1.60685283678E+01	7.02933251501E+01	1.08150014135E+01	-1.78375703728E+02	-3.57052779264E+01	-5.26365715806E+01	-6.01285851645E+00	-5.15273496076E-01
3.11261339771E+05	-2.47149628718E+01	-1.70872083614E+01	1.08566237903E+01	-1.78080771365E+02	-3.91029062541E+01	-8.05641701431E+01	-6.05574682926E+00	-7.49795162650E-01
3.11486325094E+05	-1.17667049251E+01	1.26819750380E+01	1.06838012958E+01	-1.78357945169E+02	-6.00761059010E+01	2.41762184288E+01	-6.01926343338E+00	-1.84960288130E-01
3.11711473040E+05	-1.87881791264E+01	-2.08208821966E+01	1.08295092502E+01	-1.77639836396E+02	-4.47595918087E+01	-1.05012246695E+02	-6.04228832806E+00	-3.76398609468E-01
3.11936783728E+05	-2.87550344273E+01	-9.35465694490E+01	1.08567915781E+01	-1.77546676254E+02	-2.78369888433E+01	1.27728676236E+02	-6.12882314316E+00	6.55550275060E-01
3.12162257274E+05	-2.01639688158E+01	-3.04247369328E+01	1.07523520459E+01	-1.77305913240E+02	-3.56528387975E+01	-1.55123721660E+02	-6.08568795356E+00	-4.86384711385E-01
3.12387893797E+05	-1.46684877426E+01	2.96239883950E+01	1.07959259094E+01	-1.78433782435E+02	-4.29952961958E+01	8.12823760172E+00	-6.03181682656E+00	-9.19113487550E-02
3.12613693413E+05	-2.52451867234E+01	-9.18913054073E+01	1.08687166844E+01	-1.76953556042E+02	-3.58546375305E+01	3.08045009915E+01	-5.96055462679E+00	4.69169675516E-04
3.12839656242E+05	-2.56154475744E+01	-1.76813246830E+00	1.08316226244E+01	-1.77744075815E+02	-4.01064902377E+01	-8.30694880219E+00	-5.98182552014E+00	-1.54281469922E-01
3.13065782401E+05	-2.23887324054E+01	2.48413175601E+01	1.08316556117E+01	-1.77696508311E+02	-4.44779035079E+01	7.68088148900E+01	-5.98884957157E+00	-1.72958090359E-01
3.13292072007E+05	-2.36047812814E+01	4.02930253163E+01	1.08304374891E+01	-1.77643187735E+02	-4.92287880328E+01	1.11904151485E+02	-6.01972285196E+00	-1.14668457133E-01
3.13518525180E+05	-1.66755517493E+01	8.27517660861E+01	1.08423904709E+01	-1.78163996601E+02	-3.91462335968E+01	8.34355376742E+01	-6.02169057795E+00	1.29242648243E-01
3.13745142038E+05	-1.69457197589E+01	6.41762176550E+01	1.08573322716E+01	-1.78133339607E+02	-4.36851409675E+01	1.54772618187E+02	-6.00287066947E+00	3.66112520802E-02
3.13971922698E+05	-1.93705121510E+01	1.03972020440E+01	1.07930243302E+01	-1.77781381171E+02	-3.92590485051E+01	1.00514195066E+02	-6.04017269825E+00	3.47937336847E-01
3.14198867279E+05	-1.29556305471E+01	-3.92082767826E+01	1.07899687609E+01	-1.77241632783E+02	-4.25917241297E+01	-1.49541777302E+01	-6.04667795249E+00	9.46432073686E-03
3.14425975900E+05	-2.50595615926E+01	-1.74573388596E+01	1.08262623093E+01	-1.77586856786E+02	-3.40225079467E+01	-1.18773024707E+02	-6.03125862336E+00	-8.35199782200E-01
3.14653248680E+05	-2.06744236268E+01	5.06839400036E+01	1.07996065788E+01	-1.78045506481E+02	-3.74910804103E+01	-7.52792775604E+01	-6.01979444948E+00	-6.83573957359E-01
3.14880685736E+05	-2.76997908909E+01	-8.02853823574E+00	1.08448511211E+01	-1.77933861232E+02	-3.38392557094E+01	-1.75280120973E+02	-6.12485431762E+00	-4.80610661619E-01
3.15108287188E+05	-2.12807158450E+01	8.09312459240E+01	1.08794217946E+01	-1.78054522004E+02	-3.79268871500E+01	1.61481353425E+02	-6.08867815535E+00	-2.06497576060E-01
3.15336053154E+05	-1.38799422909E+01	3.12975948329E+01	1.07226628874E+01	-1.78417104515E+02	-3.37989127670E+01	-4.79856583724E+01	-5.95053593201E+00	-5.01123126226E-01
3.15563983753E+05	-2.28182482620E+01	2.68755393113E+01	1.08124607487E+01	-1.77925439321E+02	-5.17764550594E+01	1.24796490271E+02	-6.09853764497E+00	-8.00139715515E-02
3.15792079105E+05	-2.23214084027E+01	4.61268602088E+00	1.08268677459E+01	-1.77794961153E+02	-3.69241944887E+01	-1.70956690587E+02	-6.09059705564E+00	-2.68695843479E-01
3.16020339328E+05	-2.48593695876E+01	-4.64002481203E+01	1.08549894970E+01	-1.77517052616E+02	-4.24688631593E+01	-7.85753969426E+01	-6.04677495134E+00	-2.49476545262E-01
3.16248764542E+05	-1.87075150727E+01	-1.91570673312E+01	1.08441867719E+01	-1.77505372745E+02	-3.77870024549E+01	1.25460754383E+02	-6.07515500397E+00	2.93064502204E-01
3.16477354866E+05	-6.81919968360E+00	1.54573166422E+02	1.11561139255E+01	-1.78395890050E+02	-3.97589582411E+01	-7.21497703150E+01	-6.04613156217E+00	-4.65316286058E-01
3.16706110419E+05	-1.34731284554E+01	1.67623385214E+01	1.07490673739E+01	-1.78330186922E+02	-3.64587640937E+01	8.73776656828E+01	-6.02035632633E+00	4.63419607361E-01
3.16935031321E+05	-2.81578673280E+01	-1.21974400544E+02	1.08661846233E+01	-1.77425639709E+02	-4.43032543949E+01	4.29202839147E+01	-5.98245726184E+00	-4.46754846559E-02
3.17164117691E+05	-2.65386666526E+01	2.32867557039E+01	1.08366612863E+01	-1.78077937190E+02	-5.18977034563E+01	5.02166152290E+01	-6.02567278083E+00	-1.01752236199E-01
3.17393369648E+05	-1.37676564269E+01	-3.78959914650E+00	1.06898776978E+01	-1.77675494369E+02	-4.65088649719E+01	3.45236195112E+01	-6.01538973586E+00	-7.24459844585E-02
3.17622787313E+05	-1.61585880893E+01	-8.09606288743E+00	1.07732111307E+01	-1.77347189006E+02	-4.33622586862E+01	-1.26120547976E+02	-5.99245232248E+00	-1.63167900506E-01
3.17852370806E+05	-1.52397859929E+01	1.70197845643E+02	1.10160339439E+01	-1.77925882276E+02	-5.58107125367E+01	-4.41287048555E+01	-6.04073633400E+00	-2.49668313522E-01
3.18082120245E+05	-1.20802183812E+01	-1.71420226527E+02	1.11054828371E+01	-1.77519804651E+02	-3.35884477008E+01	2.06945714984E+01	-5.98567650998E+00	4.36842148649E-02
3.18312035752E+05	-3.10672195297E+01	4.90887917130E+01	1.08279862185E+01	-1.77714895317E+02	-2.99763592581E+01	1.53981727862E+02	-6.21617656401E+00	7.10437920374E-01
3.18542117445E+05	-2.02929124522E+01	1.16947180963E+02	1.08452608044E+01	-1.78297577951E+02	-2.88300661279E+01	-2.10511073994E+01	-5.84065655718E+00	-7.08185806565E-01
3.18772365446E+05	-1.36926392741E+01	4.90979633011E+01	1.07847731340E+01	-1.78445627787E+02	-3.88205945033E+01	-1.67522230030E+02	-6.04951168411E+00	-1.88445762681E-01
3.19002779874E+05	-2.15474348588E+01	2.41531636161E+01	1.08019596623E+01	-1.78164342412E+02	-3.43506465193E+01	1.79386056668E+02	-6.09740440788E+00	-5.68740369635E-02
3.19233360850E+05	-2.45208457258E+01	-5.89233071858E+01	1.08489484826E+01	-1.77766212637E+02	-3.70129578785E+01	1.11915721177E+02	-6.06262749115E+00	8.40686597227E-02
3.19464108494E+05	-1.79555724906E+01	1.11703547569E+02	1.09383014027E+01	-1.78452268103E+02	-3.66871987056E+01	1.18654088889E+02	-6.12408386691E+00	1.04476586684E-01
3.19695022927E+05	-2.03215518980E+01	-3.11059618581E+01	1.08085604989E+01	-1.77642380442E+02	-4.59259541937E+01	8.68461964559E+00	-6.01854485569E+00	-1.98639181461E-01
3.19926104268E+05	-1.61751323820E+01	3.63389534650E+01	1.08030615013E+01	-1.78377509597E+02	-3.27676769677E+01	1.79666432198E+02	-6.16551496626E+00	-2.84200597469E-01
3.20157352640E+05	-2.15880927753E+01	-5.93083978916E+01	1.08107996794E+01	-1.77551140507E+02	-4.22875803922E+01	1.15820031141E+01	-5.97628884119E+00	-1.39977818411E-01
3.20388768162E+05	-2.72613454856E+01	-1.01930838903E+02	1.08265454848E+01	-1.77818146940E+02	-4.18201382793E+01	-8.09755685407E+01	-6.01305832304E+00	-2.76881822852E-01
3.20620350955E+05	-1.84414753950E+01	5.03687470141E+01	1.08084135030E+01	-1.78052202500E+02	-4.36401177297E+01	8.35183059285E+01	-6.03933859241E+00	-1.98404407931E-01
3.20852101140E+05	-3.59765430957E+01	-5.92746273548E+01	1.08635684869E+01	-1.77952885432E+02	-3.88898197261E+01	-1.99306111665E+01	-6.00396365024E+00	-1.15245377309E-01
3.21084018839E+05	-2.51939616425E+01	-7.13200512269E+00	1.08157952853E+01	-1.77689797001E+02	-3.98213908560E+01	-1.05843662986E+02	-6.01280779724E+00	-3.23859107847E-01
3.21316104172E+05	-8.46830037225E+00	-5.47262905730E+01	1.07330578268E+01	-1.76667923209E+02	-4.05321696680E+01	-4.43474250916E+01	-6.01684503470E+00	-5.07931202277E-01
3.21548357261E+05	-2.28771817579E+01	-2.37734149981E+01	1.07899131984E+01	-1.77558284233E+02	-2.91729305890E+01	9.40878305719E+01	-6.04153387392E+00	7.97840430575E-01
3.21780778226E+05	-2.08000140192E+01	-3.61931399584E+01	1.08509744439E+01	-1.77667635711E+02	-3.60074098102E+01	-1.12122148094E+02	-6.03967239428E+00	-7.53458186331E-01
3.22013367189E+05	-1.73895828307E+01	1.25772733488E+01	1.08001311673E+01	-1.78302128851E+02	-4.00005665462E+01	-3.64537756779E+01	-6.02693838405E+00	-4.22977271518E-01
3.22246124272E+05	-1.91185881327E+01	3.89487372762E+01	1.08356702438E+01	-1.78195124783E+02	-4.63416908047E+01	1.31267562498E+02	-6.04073964608E+00	-3.23748310072E-01
3.22479049596E+05	-1.75099445072E+01	9.24811228414E+01	1.09161963001E+01	-1.78607950965E+02	-4.04943780285E+01	-2.41579982879E+01	-5.98126318817E+00	-2.23411021342E-01
3.22712143282E+05	-1.31890753678E+01	-3.58134351052E+01	1.06972501126E+01	-1.77386664028E+02	-3.96644160733E+01	1.77104135964E+02	-6.07350844013E+00	-4.74646458727E-01
3.22945405453E+05	-1.62246234318E+01	9.30958668599E+00	1.07162276503E+01	-1.78052977601E+02	-4.00448610355E+01	1.54300661771E+02	-6.08186865734E+00	-3.87401007141E-01
3.23178836230E+05	-1.86643158128E+01	-3.78488741739E+00	1.08149908313E+01	-1.78070959829E+02	-3.88662302310E+01	-3.31837781269E+01	-6.03370161366E+00	-3.98957753070E-01
3.23412435735E+05	-1.43852462099E+01	7.21635012409E+01	1.08466160657E+01	-1.79063045518E+02	-2.64247458205E+01	6.66135030401E+01	-5.96406624779E+00	1.16947224894E+00
3.23646204090E+05	-1.30627764373E+01	1.21336597590E+02	1.09110781095E+01	-1.78400882396E+02	-4.21007515799E+01	-9.47379790109E+01	-6.01089750439E+00	-2.86214391752E-01
3.23880141417E+05	-2.05169073273E+01	3.76859354170E+00	1.08000657641E+01	-1.77628567738E+02	-3.59627403884E+01	-1.08728073532E+02	-6.06521376065E+00	-7.02625140987E-01
3.24114247838E+05	-2.41464680759E+01	-8.63168831862E+01	1.09053930152E+01	-1.77653041246E+02	-3.88085151384E+01	-5.39649982287E+01	-6.06212711312E+00	-2.99401398984E-01
3.24348523475E+05	-2.03949501087E+01	6.35862607046E+01	1.08384145814E+01	-1.78534854431E+02	-4.02946409743E+01	-4.69716432467E+01	-6.01704266325E+00	-2.58688281178E-01
3.24582968451E+05	-1.35888417827E+01	5.59738804609E+01	1.07335017992E+01	-1.78600470088E+02	-3.98123203649E+01	1.46160420553E+02	-6.09252252739E+00	-2.54824860608E-01
3.24817582888E+05	-1.66129380710E+01	1.69203747393E+02	1.09514868963E+01	-1.78150066998E+02	-3.27322513703E+01	1.06783658307E+02	-6.01652785484E+00	2.95007992647E-01
3.25052366909E+05	-2.55865464815E+01	1.11448998493E+02	1.08918390855E+01	-1.78063828162E+02	-3.63669464613E+01	-3.68240388028E+01	-5.93904007677E+00	-4.54844040153E-01
3.25287320635E+05	-1.24686617637E+01	1.99021229312E+01	1.07144167832E+01	-1.77957665485E+02	-4.44871200591E+01	1.09498989917E+01	-6.01567453982E+00	-2.81137672458E-01
3.25522444191E+05	-1.71987096526E+01	5.00002775353E+01	1.08155711430E+01	-1.78109459178E+02	-4.22175195609E+01	-6.18140330222E+01	-6.00349906163E+00	-4.28796102726E-01
3.25757737698E+05	-1.94092484529E+01	5.91505798785E+01	1.08349551007E+01	-1.78076110430E+02	-3.89045444199E+01	-9.47435378936E+01	-6.06270231442E+00	-5.03603154774E-01
3.25993201280E+05	-2.16717409828E+01	7.69666740747E+00	1.08046963951E+01	-1.78019395426E+02	-4.86534875954E+01	-9.27243077395E+01	-5.97161603189E+00	-5.02264963388E-01
3.26228835058E+05	-1.59290934990E+01	-1.52012851126E+02	1.09567432515E+01	-1.77510677210E+02	-3.72692074212E+01	9.08750894704E+01	-6.06476069668E+00	3.44210028770E-01
