# Hz S DB R 50
! CMT, M5065, 19127446, 24.2.4/2
! Date: 11/1/2024 3:41:37 PM
! Data: Format (Calibration Info)
! Freq	S11:dB/Ang(F2)	S21:dB/Ang(F2)	S12:dB/Ang(F2)	S22:dB/Ang(F2)
3.00000000000E+05	-1.32965978418E+01	1.35626487284E+02	1.68500425019E+01	-1.77825597668E+02	-4.15878041661E+01	4.45203665756E+00	-5.94239017391E+00	-1.88976534688E-01
3.00216845423E+05	-1.13552404915E+01	-1.60223122041E+02	1.69426933138E+01	-1.76759337364E+02	-4.28045504241E+01	-2.65322205639E+01	-5.99426868163E+00	-4.20946489117E-01
3.00433847586E+05	-1.69797549461E+01	1.34761681834E+02	1.68378720924E+01	-1.77640080865E+02	-4.24499193721E+01	-9.58791271192E+01	-6.04033613576E+00	-2.45110807802E-01
3.00651006602E+05	-1.59509452796E+01	-2.59320379138E+01	1.66649379437E+01	-1.76854261826E+02	-3.39363221127E+01	-1.31619170000E+02	-6.17828485876E+00	-9.62196723509E-01
3.00868322584E+05	-3.77362788147E+01	1.55296351797E+02	1.67603562446E+01	-1.77158445735E+02	-3.34377824962E+01	2.01291432071E+01	-5.86412471231E+00	3.24607524543E-01
3.01085795647E+05	-2.15723531634E+01	4.16882229392E+01	1.67453611859E+01	-1.77171248836E+02	-3.73950649411E+01	-3.98592492726E+01	-5.94846257869E+00	-7.57169850637E-01
3.01303425902E+05	-1.43608439022E+01	4.69627627650E+01	1.66978387690E+01	-1.77752739069E+02	-3.44164048742E+01	-1.18748367052E+02	-6.11256170951E+00	-8.03834078391E-01
3.01521213465E+05	-1.78946433479E+01	7.74993495830E+01	1.67432386551E+01	-1.77646512977E+02	-4.23868399702E+01	-1.25638641120E+02	-6.05019606947E+00	-4.91224040706E-01
3.01739158449E+05	-1.43900780197E+01	-1.22634708549E+01	1.66343271757E+01	-1.76819802618E+02	-4.85784131138E+01	9.43583718294E+01	-6.02958680655E+00	-2.49927963947E-01
3.01957260967E+05	-1.62667923327E+01	4.55046481201E+01	1.66726298245E+01	-1.77276389338E+02	-3.50454860874E+01	1.21097688287E+02	-6.14597231915E+00	6.31763997087E-01
3.02175521134E+05	-1.87603832697E+01	4.97057728190E+01	1.67028548963E+01	-1.77363134190E+02	-4.01571216215E+01	2.87499740548E+01	-5.98193666264E+00	5.10462478760E-02
3.02393939063E+05	-1.66382160033E+01	2.28048866392E+01	1.67095907433E+01	-1.77463240152E+02	-3.67986459272E+01	-6.57212997847E+01	-6.01598464711E+00	-1.36289123775E+00
3.02612514869E+05	-1.60055051416E+01	-6.00201940380E+01	1.67156854858E+01	-1.76627582587E+02	-4.67256263364E+01	-8.88626215836E+01	-6.01235261996E+00	-7.28205754243E-01
3.02831248665E+05	-2.80320052799E+01	4.53799214750E+01	1.67726736768E+01	-1.77367706374E+02	-3.34228967443E+01	1.33316099470E+02	-6.15189131466E+00	5.28838515319E-01
3.03050140565E+05	-1.29455193314E+01	4.44384951706E+01	1.66878092095E+01	-1.77536426735E+02	-4.58390839339E+01	-3.87660062638E+00	-5.98626755973E+00	-2.35561446752E-01
3.03269190685E+05	-1.25491542214E+01	-3.40150500219E+01	1.66521257962E+01	-1.76413357043E+02	-3.68175895455E+01	7.85165580269E+01	-6.06680001016E+00	4.73937535439E-01
3.03488399138E+05	-1.41693205229E+01	9.03457678085E+01	1.67404801476E+01	-1.77914729159E+02	-4.75919924276E+01	1.33138131379E+02	-6.03285006811E+00	-2.02087335404E-01
3.03707766039E+05	-3.76443532878E+01	-6.44205200828E+01	1.67378835220E+01	-1.77284856258E+02	-4.41887941271E+01	-1.01343214550E+02	-6.01598466006E+00	-4.38488937842E-01
3.03927291503E+05	-1.97873463108E+01	5.04250552219E+00	1.67095495973E+01	-1.77473107193E+02	-4.51008393111E+01	1.66919985855E+02	-6.07895178756E+00	3.44542833409E-01
3.04146975643E+05	-1.52501091423E+01	3.57764990864E+01	1.66692422964E+01	-1.77689621443E+02	-4.77093073265E+01	-1.58602572550E+02	-6.05883467230E+00	-2.67600768289E-01
3.04366818575E+05	-1.66424879474E+01	2.53684659870E+01	1.67069555711E+01	-1.77370413527E+02	-4.12722967770E+01	-1.30685350007E+01	-5.96586593163E+00	-2.30110231045E-01
3.04586820414E+05	-1.33013401114E+01	-1.20721962824E+02	1.68431165566E+01	-1.76536874727E+02	-3.70412408332E+01	1.61846794885E+02	-6.12880968229E+00	8.42595490947E-02
3.04806981274E+05	-1.25418137505E+01	-4.28647424752E+01	1.66105200676E+01	-1.76375083020E+02	-4.17666598175E+01	-1.65108886089E+02	-6.09590733866E+00	-5.39791309311E-01
3.05027301270E+05	-2.44646716492E+01	-3.24492644308E+01	1.67079268937E+01	-1.76903430929E+02	-5.36130774588E+01	-1.69360250573E+02	-6.05985164875E+00	-7.48634915099E-03
3.05247780517E+05	-1.39492122209E+01	-2.83362418323E+01	1.66572186375E+01	-1.76949440924E+02	-4.00405906523E+01	-6.83741590575E+01	-6.04726358156E+00	-5.86719234709E-01
3.05468419131E+05	-1.56129382767E+01	-4.15775714447E+01	1.67040151799E+01	-1.76962321980E+02	-2.24741535897E+01	-7.28690745732E+01	-5.80473629616E+00	-4.40683582325E+00
3.05689217226E+05	-1.29472882567E+01	1.26890177165E+02	1.68188017006E+01	-1.77896540969E+02	-3.64823186023E+01	-4.18706339415E+01	-5.93999973386E+00	-7.77183079970E-01
3.05910174918E+05	-2.05419048932E+01	1.33412984972E+02	1.67885057685E+01	-1.77613062872E+02	-4.46158618263E+01	1.10163099487E+02	-6.10420887097E+00	-2.91624041615E-01
3.06131292322E+05	-1.13484029267E+01	6.12606132277E+01	1.66892818309E+01	-1.78347944592E+02	-4.55295431224E+01	-1.05014579900E+02	-6.06265565454E+00	-6.24750614535E-01
3.06352569554E+05	-1.21816304813E+01	7.74167668461E+01	1.67607259441E+01	-1.78154861124E+02	-4.13927950106E+01	1.46816149732E+02	-6.09440964695E+00	-1.77473142513E-01
3.06574006730E+05	-1.58397237627E+01	5.15281090918E+00	1.66687984494E+01	-1.77419886666E+02	-4.94319994521E+01	1.60509181681E+02	-6.05748582172E+00	-1.86535521991E-01
3.06795603964E+05	-2.25678244999E+01	8.73480713802E+01	1.67263498067E+01	-1.77525013399E+02	-4.08310860903E+01	-1.05675498985E+02	-6.05329456093E+00	-9.04061269017E-01
3.07017361372E+05	-2.20769942227E+01	1.24359928817E+01	1.67252327893E+01	-1.77494650244E+02	-3.94277706558E+01	-4.17461558896E+01	-5.95430133970E+00	-5.01788129927E-01
3.07239279071E+05	-1.85832071575E+01	4.03611122713E+01	1.67146392733E+01	-1.77566734208E+02	-3.87722483986E+01	-3.91130148307E+00	-5.93628667793E+00	-4.49670133312E-01
3.07461357176E+05	-1.76601041195E+01	-7.29888738988E+01	1.67618483175E+01	-1.76862235833E+02	-3.72092474308E+01	3.55707714034E+01	-6.00750716365E+00	-8.43440313300E-02
3.07683595803E+05	-1.32802210470E+01	3.31952438612E+01	1.66710817124E+01	-1.77781333292E+02	-4.16406993019E+01	-1.28835152439E+02	-6.09065056772E+00	-5.45687684194E-01
3.07905995068E+05	-1.29964381082E+01	4.88005048194E+01	1.66507862149E+01	-1.78013583010E+02	-4.58451215906E+01	1.15586830192E+02	-6.07675140369E+00	-3.92596610457E-01
3.08128555087E+05	-1.89817033822E+01	1.28522867727E+01	1.67018040425E+01	-1.77157043015E+02	-3.58649262526E+01	1.04798901878E+02	-6.08176536848E+00	6.25343644875E-01
3.08351275976E+05	-2.55510518315E+01	-6.34902557086E+01	1.67542975622E+01	-1.77123002914E+02	-4.33461344056E+01	1.03953883314E+02	-6.04305051420E+00	-8.97840573712E-02
3.08574157853E+05	-2.62387150372E+01	-4.60032570070E+01	1.67749413077E+01	-1.77180739104E+02	-3.61126174738E+01	1.34122771716E+02	-6.20189696992E+00	6.62637851335E-01
3.08797200832E+05	-2.06333003453E+01	-1.86096298756E+01	1.67296096313E+01	-1.77151104378E+02	-3.48255265531E+01	4.14678730919E+01	-5.92988572270E+00	3.85249623713E-01
3.09020405031E+05	-3.38566448709E+01	-1.34371508140E+02	1.67758009650E+01	-1.77232440862E+02	-4.24393732265E+01	4.83633975459E+01	-6.01341340159E+00	-4.75980419142E-02
3.09243770566E+05	-1.70276900381E+01	6.46957725503E+01	1.67167867495E+01	-1.77861808407E+02	-4.30173591060E+01	-7.55366223736E+01	-5.99187378531E+00	-3.94096932710E-01
3.09467297553E+05	-1.47640395397E+01	1.25095856438E+02	1.68401120635E+01	-1.78130625320E+02	-4.35430242744E+01	-4.24365967071E+01	-5.96548653174E+00	-5.72832978622E-01
3.09690986110E+05	-1.72511352784E+01	1.39851730135E+00	1.66957694336E+01	-1.77356275090E+02	-4.43706307307E+01	-3.59441627662E+00	-5.96547249641E+00	-2.01393557563E-01
3.09914836353E+05	-2.59849132484E+01	6.06855774821E+01	1.67712736142E+01	-1.77526012356E+02	-4.47563029802E+01	-5.04749436146E+01	-5.96634314438E+00	-5.69064407395E-01
3.10138848399E+05	-2.84867582059E+01	2.17647176043E+01	1.67244681350E+01	-1.77464780571E+02	-4.13361405203E+01	1.13118255609E+02	-6.09266873431E+00	2.67584976141E-01
3.10363022365E+05	-1.83139169808E+01	1.04285341994E+02	1.67348718077E+01	-1.78019586193E+02	-2.98153603337E+01	-4.15366087394E+01	-5.79514871840E+00	-1.66927457149E+00
3.10587358368E+05	-1.37356405740E+01	6.08075726489E+01	1.66970589327E+01	-1.78228132341E+02	-4.04598801942E+01	5.29169853187E+01	-5.98043185918E+00	4.11713091354E-02
3.10811856525E+05	-1.94670833795E+01	-1.64299047689E+02	1.68323311954E+01	-1.77268568483E+02	-4.01090692873E+01	-1.71361808003E+02	-6.06403683047E+00	-3.05929988296E-01
3.11036516954E+05	-8.00651779681E+00	5.82374672843E+01	1.66266474478E+01	-1.79005658499E+02	-3.94756336599E+01	-8.64054576665E+01	-5.99772056428E+00	-1.14254712454E+00
3.11261339771E+05	-2.72226444645E+01	6.66223255927E-01	1.67515896859E+01	-1.77475104906E+02	-4.32017893432E+01	6.35063188496E+01	-6.01171755132E+00	2.37254089285E-01
3.11486325094E+05	-2.16528730166E+01	-1.60211586294E+02	1.67957484816E+01	-1.77078239125E+02	-3.59585555176E+01	-8.40957113881E+01	-5.99189279061E+00	-1.01321095353E+00
3.11711473040E+05	-1.68497586198E+01	2.98035372998E+00	1.66542794849E+01	-1.77240889991E+02	-3.00063145723E+01	7.68852842869E+01	-5.91820298253E+00	2.10197900953E+00
3.11936783728E+05	-1.92907346507E+01	7.13459885635E+01	1.67319122436E+01	-1.77706218768E+02	-2.94206353976E+01	1.62732828359E+02	-6.35555560304E+00	2.27378809507E-01
3.12162257274E+05	-2.81693668160E+01	8.72565732678E+01	1.67332625020E+01	-1.77741231893E+02	-3.85888559666E+01	-1.46560152753E+02	-6.11316749957E+00	-4.93556366020E-01
3.12387893797E+05	-2.16052716191E+01	-1.35296831385E+02	1.67615908916E+01	-1.76931621939E+02	-4.30735745268E+01	2.50204346269E+01	-5.99171015909E+00	-1.98043876226E-01
3.12613693413E+05	-1.40267149347E+01	-5.39321366856E+01	1.66506710427E+01	-1.76638075248E+02	-5.65368863190E+01	2.20256968016E+01	-6.06357748974E+00	-2.94129648258E-02
3.12839656242E+05	-2.63023002930E+01	1.06168144979E+02	1.67606107415E+01	-1.77668090284E+02	-4.18449477894E+01	-1.29741706045E+02	-6.07860359583E+00	-2.76801943075E-01
3.13065782401E+05	-2.73003465038E+01	-1.24154531347E+02	1.67393019012E+01	-1.77244600392E+02	-3.66019571855E+01	-3.21892951778E+01	-5.93018999950E+00	-7.87778115940E-01
3.13292072007E+05	-2.95352071362E+01	-4.74425874522E+01	1.67681848107E+01	-1.77433269019E+02	-2.88805079028E+01	-1.09036092907E+02	-6.15448767655E+00	-2.25785970862E+00
3.13518525180E+05	-2.84089705348E+01	-7.16742058192E+01	1.67755280526E+01	-1.77412903069E+02	-3.89114210200E+01	-1.98021327514E+00	-5.91317212129E+00	-6.99437323704E-02
3.13745142038E+05	-1.95923227251E+01	1.38628040057E+02	1.67584292534E+01	-1.77617871897E+02	-5.19625866317E+01	1.56912364743E+02	-6.02968085533E+00	-1.49382420471E-02
3.13971922698E+05	-1.95301804871E+01	1.25720081126E+01	1.67167900360E+01	-1.77369952323E+02	-3.66111937639E+01	-7.75127184169E+01	-6.02588498865E+00	-1.03971339670E+00
3.14198867279E+05	-1.96081527726E+01	-4.45766725970E+01	1.67445690348E+01	-1.77024231916E+02	-4.74077497697E+01	-1.46353319029E+02	-6.10825282426E+00	-4.87553731632E-01
3.14425975900E+05	-1.01573238985E+01	-5.32339252266E+01	1.66348571579E+01	-1.76353351545E+02	-3.65799402547E+01	-2.26952733731E+00	-5.91319288216E+00	-1.96476970965E-01
3.14653248680E+05	-1.58268513409E+01	1.97685392423E+01	1.66721906487E+01	-1.77603277638E+02	-5.26305537616E+01	1.18608301291E+02	-6.03431023347E+00	-2.64191348438E-01
3.14880685736E+05	-1.69408293282E+01	1.25437500953E+02	1.68212801660E+01	-1.77788660521E+02	-3.97495055842E+01	1.27068939521E+02	-6.09471276953E+00	-3.26697548804E-02
3.15108287188E+05	-1.61989561659E+01	6.04287178797E+01	1.67029340949E+01	-1.78267138013E+02	-3.04753214607E+01	-1.71666317196E+02	-6.33215059430E+00	-6.35878719788E-01
3.15336053154E+05	-2.29313679355E+01	1.67811720929E+02	1.68120047191E+01	-1.77683463593E+02	-4.76773795253E+01	-1.40971847892E+02	-6.07106267610E+00	-3.26995118162E-01
3.15563983753E+05	-2.06683493521E+01	7.12208045750E+01	1.67644782899E+01	-1.77962903466E+02	-5.08554076798E+01	1.12951373810E+02	-6.03338004678E+00	-3.37874359055E-01
3.15792079105E+05	-9.12221890478E+00	-1.54042196725E+02	1.70039660011E+01	-1.76599637282E+02	-4.23147241815E+01	-1.05442818642E+02	-6.03430371743E+00	-5.42619977344E-01
3.16020339328E+05	-1.51773882481E+01	4.75044922697E+01	1.66907999000E+01	-1.77900794339E+02	-4.49552179653E+01	1.54774536626E+02	-6.06737622531E+00	-1.70903755834E-01
3.16248764542E+05	-2.68684931137E+01	1.24885069998E+02	1.67548753912E+01	-1.77541036090E+02	-3.68457193453E+01	-7.14692625571E+01	-5.99481455059E+00	-1.11318742919E+00
3.16477354866E+05	-2.56187771523E+01	6.45470400026E+01	1.67536138993E+01	-1.77809215510E+02	-3.29193788546E+01	1.25659923235E+02	-6.17909269528E+00	1.08931281979E+00
3.16706110419E+05	-1.83034607384E+01	-8.37223663648E+01	1.67589483835E+01	-1.77101320121E+02	-3.13673763244E+01	1.71735248109E+02	-6.35667840337E+00	-4.96889729083E-01
3.16935031321E+05	-1.34757724904E+01	9.87126294093E+00	1.66810975107E+01	-1.77421241005E+02	-3.81316676127E+01	1.55489294716E+02	-6.13975782364E+00	1.59027407065E-02
3.17164117691E+05	-2.30467418294E+01	3.49235784883E+01	1.67492727427E+01	-1.77887693458E+02	-4.34571030932E+01	1.36219995086E+02	-6.06871760308E+00	-9.83242362697E-02
3.17393369648E+05	-1.09554767870E+01	1.70923869949E+01	1.65799886851E+01	-1.77955995858E+02	-4.54265402288E+01	-8.38640581584E+01	-6.02298758933E+00	-6.63684141550E-01
3.17622787313E+05	-1.24308681736E+01	1.03535071422E+02	1.67951518410E+01	-1.78707913076E+02	-3.70536931995E+01	1.58004997140E+02	-6.15918469924E+00	4.53269665464E-02
3.17852370806E+05	-1.99391726408E+01	5.09408390636E+01	1.67078986833E+01	-1.77869694210E+02	-5.86683113189E+01	1.15603750740E+02	-6.01152900865E+00	2.61099116382E-01
3.18082120245E+05	-2.03738428549E+01	3.86836756815E+01	1.67233837079E+01	-1.77585159948E+02	-3.57318451646E+01	1.31170101888E+02	-6.15374386058E+00	7.20626312239E-01
3.18312035752E+05	-1.50132629356E+01	8.53774852020E+00	1.67218147343E+01	-1.77649415314E+02	-3.26576396891E+01	6.13681328395E+00	-5.81415626529E+00	-1.37140518277E-01
3.18542117445E+05	-1.72492711833E+01	8.94845354653E+01	1.67615563513E+01	-1.77899597088E+02	-4.23593398492E+01	-1.19203361387E+02	-6.13276483640E+00	-6.50659027129E-01
3.18772365446E+05	-2.44617479778E+01	8.93645175697E+01	1.67778696422E+01	-1.77462340202E+02	-4.25593712879E+01	-1.48346426245E+02	-6.07135935609E+00	-6.51192834139E-01
3.19002779874E+05	-1.36223100016E+01	9.78163592813E+01	1.67719809872E+01	-1.78644290795E+02	-4.09591742000E+01	-1.09343491655E+02	-6.04498924273E+00	-5.20515014018E-01
3.19233360850E+05	-1.12373668778E+01	6.34474310830E+01	1.66725264625E+01	-1.78676571660E+02	-3.61743959977E+01	-7.93202896335E+01	-6.00714889158E+00	-8.43530743316E-01
3.19464108494E+05	-3.70051304072E+01	-1.15849494283E+02	1.67716412103E+01	-1.77457089347E+02	-4.37498331708E+01	-2.36946749954E+01	-5.94503503715E+00	-6.46952344615E-02
3.19695022927E+05	-1.83896392226E+01	6.88371191254E+01	1.67232751026E+01	-1.78029715477E+02	-2.80036632020E+01	-1.21272126480E+02	-6.21334012634E+00	-2.44026620973E+00
3.19926104268E+05	-2.86653492777E+01	9.89386082119E+01	1.67559690404E+01	-1.77820037632E+02	-3.46429287968E+01	5.30076489658E+01	-5.92363733542E+00	7.13411229363E-01
3.20157352640E+05	-1.94645104805E+01	1.23151917079E+02	1.67810682202E+01	-1.77741721434E+02	-5.05814973460E+01	1.65885602865E+02	-6.02073604021E+00	-1.83651958192E-01
3.20388768162E+05	-2.12092270444E+01	-1.35631507400E+02	1.67893865277E+01	-1.77090281061E+02	-4.28157767911E+01	-6.63068638859E+01	-6.00562455578E+00	-5.81112997610E-01
3.20620350955E+05	-1.82651147766E+01	-1.73090316510E+02	1.68646043677E+01	-1.77378555348E+02	-3.82075593295E+01	-3.74678251287E+01	-5.95584462015E+00	-6.02184315443E-01
3.20852101140E+05	-1.25593339471E+01	9.95737951043E+01	1.67525123161E+01	-1.78695556878E+02	-4.43483895776E+01	1.34107406119E+02	-6.06441284793E+00	1.14962671143E-01
3.21084018839E+05	-2.11744134498E+01	-1.17856438880E+01	1.66839202020E+01	-1.77776789955E+02	-4.38424322695E+01	-1.40354976854E+02	-6.05632809197E+00	-4.96899962043E-01
3.21316104172E+05	-2.33820572535E+01	1.66563783532E+02	1.67829248776E+01	-1.77738547438E+02	-5.39245861617E+01	-3.40497612782E+01	-6.01385610834E+00	-1.87642282760E-01
3.21548357261E+05	-1.57421178738E+01	4.79600266220E+01	1.66940750432E+01	-1.78140975929E+02	-3.51903819831E+01	9.42114349440E+01	-6.08684782209E+00	9.97072436302E-01
3.21780778226E+05	-1.41823143497E+01	-2.12021168370E+01	1.66428683303E+01	-1.77425924357E+02	-5.13955376139E+01	-2.42812958509E+01	-6.06077471715E+00	-2.97908389794E-01
3.22013367189E+05	-1.89818683282E+01	9.32556426448E+01	1.67215425498E+01	-1.78023361497E+02	-4.22864977183E+01	-1.39560854936E+02	-6.12239420815E+00	-7.33274468457E-01
3.22246124272E+05	-2.54564343734E+01	-5.37728317757E+00	1.67020985924E+01	-1.77547210561E+02	-3.51826124185E+01	-1.43484083637E+02	-6.14053812895E+00	-9.19602840720E-01
3.22479049596E+05	-1.64489626205E+01	-8.10820093263E+01	1.67739392105E+01	-1.76656240334E+02	-4.63595296209E+01	-1.56870616239E+02	-6.07188295536E+00	-2.01171599044E-01
3.22712143282E+05	-1.88604093374E+01	-1.43815351862E-01	1.66762901522E+01	-1.77736312090E+02	-3.71879912220E+01	-8.50448614701E+01	-6.03061541387E+00	-1.19495711534E+00
3.22945405453E+05	-1.82562185243E+01	9.22276214922E+01	1.67629264693E+01	-1.78300090743E+02	-3.55792861773E+01	-1.47685360765E+02	-6.21576614596E+00	-7.62650703679E-01
3.23178836230E+05	-2.80182289420E+01	9.55267952702E+01	1.67684970833E+01	-1.77909811308E+02	-3.50061560777E+01	7.59124689253E+01	-5.96693698633E+00	1.12515754126E+00
3.23412435735E+05	-1.72241133987E+01	-4.14010888971E+01	1.66926789436E+01	-1.77570700774E+02	-3.63748152089E+01	1.64721570005E+02	-6.14875980105E+00	1.45947266820E-01
3.23646204090E+05	-1.74134783225E+01	3.41583250075E+01	1.66801648072E+01	-1.77898823718E+02	-4.18014824039E+01	1.17453369394E+02	-6.07345910144E+00	-7.99733450031E-03
3.23880141417E+05	-1.82491904450E+01	-3.98471822412E+01	1.67010579393E+01	-1.76920083974E+02	-4.64062072436E+01	5.72103155818E+01	-6.00510956144E+00	-2.32202158195E-02
3.24114247838E+05	-1.61201600029E+01	6.48634555242E+01	1.67195975760E+01	-1.78438876510E+02	-3.49311582072E+01	2.62608398828E+01	-5.92753507267E+00	1.23094864360E-01
3.24348523475E+05	-1.63844926464E+01	3.31533772880E+01	1.66932602826E+01	-1.78179711741E+02	-3.57539591788E+01	-1.29144930011E+02	-6.09838102792E+00	-8.56751404888E-01
3.24582968451E+05	-2.80185567712E+01	7.43364808374E+01	1.67787166408E+01	-1.78223727556E+02	-4.21869648958E+01	1.76891812805E+02	-6.09885902700E+00	-4.07420109162E-01
3.24817582888E+05	-1.93679767550E+01	1.03764333489E+02	1.67661198534E+01	-1.78075750439E+02	-2.94125159978E+01	-1.34129707661E+02	-6.29547861364E+00	-1.20164732778E+00
3.25052366909E+05	-2.19158517887E+01	2.81302112478E+01	1.67227114633E+01	-1.78127349818E+02	-5.49719297999E+01	1.03128016184E+02	-6.05363525471E+00	-1.16786079950E-02
3.25287320635E+05	-1.84864570274E+01	-1.51974733126E+01	1.66671250785E+01	-1.77503997956E+02	-4.56389596160E+01	3.63828949359E+01	-6.02427359782E+00	-6.57857166967E-02
3.25522444191E+05	-1.50249959631E+01	8.85400910314E+01	1.67290578512E+01	-1.78372016660E+02	-5.84013549527E+01	-1.16537998231E+01	-6.02591027649E+00	-5.46665285042E-01
3.25757737698E+05	-4.01827271031E+00	-9.94177768834E+00	1.63495681938E+01	-1.76789475050E+02	-5.24190724093E+01	-4.50883114211E+01	-6.03369459588E+00	-5.35778350120E-01
3.25993201280E+05	-2.87759850457E+01	6.35971464054E-01	1.67691177610E+01	-1.77548041013E+02	-4.88714276219E+01	-3.15161810739E+01	-6.02292115364E+00	-4.64419806638E-01
3.26228835058E+05	-2.90652164040E+01	-8.79269274576E+00	1.67409838256E+01	-1.77654289510E+02	-4.70330699295E+01	1.17372789525E+02	-6.04421612686E+00	-1.31972595576E-01
