# Hz S DB R 50
! CMT, M5065, 19127446, 24.2.4/2
! Date: 11/1/2024 3:51:01 PM
! Data: Format (Calibration Info)
! Freq	S11:dB/Ang(F2)	S21:dB/Ang(F2)	S12:dB/Ang(F2)	S22:dB/Ang(F2)
3.00000000000E+05	-2.18302630669E+01	-3.71004137833E+01	3.53354915561E+01	-1.73752254111E+02	-3.36523308098E+01	1.54843506614E+02	-7.70406769267E+00	5.06967513339E+00
3.00216845423E+05	-1.57064648636E+01	1.56598364583E+01	3.53124244484E+01	-1.74097241745E+02	-4.29806521168E+01	1.38241097834E+02	-6.21601546017E+00	-5.59160190617E-01
3.00433847586E+05	-1.96848753810E+01	2.98836744196E+01	3.53294499394E+01	-1.74433390026E+02	-3.52612455829E+01	-8.17012592469E+01	-5.56826228140E+00	-6.72848641516E+00
3.00651006602E+05	-1.40139980318E+01	-4.27684452619E+01	3.53048907538E+01	-1.73516379174E+02	-3.96694334210E+01	1.51298200523E+02	-6.60457874726E+00	1.05600959790E+00
3.00868322584E+05	-1.46215606094E+01	1.93216693967E+01	3.52938641882E+01	-1.74019572378E+02	-4.24443842319E+01	-9.52294351981E+01	-5.85050624334E+00	-4.37513409049E+00
3.01085795647E+05	-1.27347388847E+01	-5.04935605006E+01	3.52913518330E+01	-1.73565631050E+02	-4.35994986166E+01	1.49533541974E+02	-6.18698642493E+00	5.31253656059E-01
3.01303425902E+05	-1.74881752592E+01	-9.62658082946E+01	3.53615545548E+01	-1.73551192382E+02	-2.84785025892E+01	1.63693114670E+02	-8.63560473342E+00	-2.67389020714E-01
3.01521213465E+05	-1.76546843121E+01	-2.99128705194E+01	3.53353882763E+01	-1.73637139560E+02	-3.29850881138E+01	4.47031312205E+01	-5.10669786479E+00	6.35551830556E+00
3.01739158449E+05	-2.47380733169E+01	-1.34149715438E+01	3.53572670177E+01	-1.73961723626E+02	-3.81664453957E+01	-2.38610872068E+01	-5.32393342463E+00	-1.71707295468E+00
3.01957260967E+05	-2.07188752001E+01	-1.81597671763E+00	3.52985858588E+01	-1.74034381384E+02	-4.03989866044E+01	-8.55996001286E+00	-5.39287360419E+00	-1.53601549132E+00
3.02175521134E+05	-1.71428462605E+01	2.07453448910E+01	3.52922116409E+01	-1.74150263788E+02	-3.69895611139E+01	-7.75837844330E+01	-5.65573696373E+00	-5.49509471522E+00
3.02393939063E+05	-1.82310327399E+01	9.18538253596E+01	3.54204236865E+01	-1.74535093236E+02	-3.84037917450E+01	-3.31776758908E+01	-5.33163591862E+00	-2.49408348757E+00
3.02612514869E+05	-7.71048324456E+00	-1.52408434506E+02	3.56632286556E+01	-1.73477250819E+02	-4.51426621909E+01	-7.25593320038E+01	-5.75242905672E+00	-2.59834639816E+00
3.02831248665E+05	-2.30063022531E+01	4.95788488420E+01	3.53521151533E+01	-1.74488221183E+02	-3.35624034982E+01	-1.19865414593E+02	-6.29634077299E+00	-1.06284548430E+01
3.03050140565E+05	-2.45392033284E+01	4.24498835793E-01	3.53431490240E+01	-1.74121736494E+02	-2.62465631709E+01	7.60788156672E+01	-4.99738445067E+00	1.86102387386E+01
3.03269190685E+05	-1.34583703532E+01	-4.36897786024E+01	3.53071184336E+01	-1.73730991157E+02	-5.04070130424E+01	3.29144810885E+01	-5.86217541818E+00	-8.28417094771E-01
3.03488399138E+05	-2.20919900666E+01	1.40187352402E+01	3.53625200317E+01	-1.74485187342E+02	-3.38721354765E+01	-1.00206036296E+02	-5.92016189741E+00	-8.08945687221E+00
3.03707766039E+05	-1.73429185003E+01	-1.61142106684E+01	3.52815721208E+01	-1.74141790363E+02	-4.49955563339E+01	1.42918301759E+02	-6.28823851289E+00	2.10220904757E-01
3.03927291503E+05	-1.28336849468E+01	-7.31894849725E+01	3.53585973715E+01	-1.73657040702E+02	-3.53115004610E+01	1.34175267812E+02	-6.81850440468E+00	3.66015918476E+00
3.04146975643E+05	-1.67266842702E+01	-1.14245007594E+02	3.54246095269E+01	-1.74086347256E+02	-4.41638254343E+01	9.72810631773E+01	-5.94098682132E+00	2.00551261478E+00
3.04366818575E+05	-1.97300907520E+01	1.47985068898E+01	3.52914809983E+01	-1.74431082359E+02	-4.06245125514E+01	-2.39651810251E+01	-5.40532164799E+00	-2.43132748412E+00
3.04586820414E+05	-2.39249168096E+01	-1.41150976038E+01	3.53448558618E+01	-1.74445824031E+02	-3.42632985127E+01	1.21071256889E+01	-4.88805448707E+00	1.44074026495E+00
3.04806981274E+05	-1.21901633961E+01	-4.06048571872E+01	3.52890890777E+01	-1.74052223559E+02	-4.12724443631E+01	2.34910629429E+01	-5.55092418979E+00	1.10531534735E+00
3.05027301270E+05	-2.24015633925E+01	-2.90350382368E+01	3.53165122627E+01	-1.74608937813E+02	-3.74958916180E+01	-8.03306235173E+01	-5.90682143086E+00	-5.85644176313E+00
3.05247780517E+05	-1.80754210764E+01	-9.34917307117E+01	3.53647220008E+01	-1.74408502839E+02	-3.90843509444E+01	1.43970781675E+01	-5.38698656129E+00	7.71767356793E-01
3.05468419131E+05	-2.17725455084E+01	-2.24635449791E+01	3.53554028894E+01	-1.74342395291E+02	-4.40190051589E+01	-6.16104390836E+01	-5.74128764343E+00	-3.21534061309E+00
3.05689217226E+05	-1.76365176385E+01	7.31515487405E+00	3.53250011074E+01	-1.74900124248E+02	-3.65005970352E+01	1.21215931747E+02	-6.48810511105E+00	4.56103826096E+00
3.05910174918E+05	-1.83752731765E+01	-1.30975601169E+02	3.54039470368E+01	-1.74440907100E+02	-4.41310081413E+01	-5.45742240386E+01	-5.64452344785E+00	-3.46014426025E+00
3.06131292322E+05	-1.77026992864E+01	-4.85491324547E+01	3.53504492393E+01	-1.74585253271E+02	-2.96596974856E+01	1.22732627544E+02	-7.55061849180E+00	1.25557061859E+01
3.06352569554E+05	-1.90766226909E+01	2.28218022212E+01	3.53260686996E+01	-1.74968373615E+02	-3.77892228641E+01	6.84708064062E+01	-5.84740549913E+00	3.72922425751E+00
3.06574006730E+05	-1.52125225554E+01	-3.47010228503E+01	3.53007350798E+01	-1.74227874786E+02	-4.24554600178E+01	9.55285806653E+01	-6.12089867162E+00	2.34940582260E+00
3.06795603964E+05	-2.11406640388E+01	-6.38311627311E+00	3.53471312823E+01	-1.74624552625E+02	-4.08872166415E+01	-1.31404273848E+02	-6.46531139443E+00	-2.54810412264E+00
3.07017361372E+05	-1.77828697359E+01	-2.27754422576E+01	3.53259738934E+01	-1.74684419882E+02	-4.03902293058E+01	-2.10281560171E+00	-5.49774808076E+00	-4.16839141324E-01
3.07239279071E+05	-1.22269668191E+01	-7.60776850830E-01	3.52866220206E+01	-1.75009348195E+02	-3.70204153544E+01	1.57396538817E+02	-6.81009524671E+00	2.43928491825E-01
3.07461357176E+05	-1.18025142598E+01	5.55058465092E+00	3.52573489378E+01	-1.74895890597E+02	-3.10243482893E+01	-8.99568253196E+01	-5.52253692878E+00	-1.30376263749E+01
3.07683595803E+05	-2.56952850315E+01	4.30118658390E+01	3.53832500460E+01	-1.74874992110E+02	-2.89056810377E+01	-4.24707625042E+01	-4.27639637110E+00	-1.03637346056E+01
3.07905995068E+05	-2.28450217130E+01	-1.65592705764E+02	3.54269701588E+01	-1.74922540869E+02	-5.95527825591E+01	-4.68138921723E+01	-5.81633203891E+00	-1.14873504814E+00
3.08128555087E+05	-1.84916889060E+01	4.49067676513E+00	3.53156378197E+01	-1.74815958912E+02	-3.98340185356E+01	9.67919451496E+01	-5.97868595487E+00	3.42056834400E+00
3.08351275976E+05	-2.74574808833E+01	-5.11664105990E+01	3.53921206609E+01	-1.74779796133E+02	-3.77383876932E+01	8.23094999370E+01	-5.80474958030E+00	3.47753167993E+00
3.08574157853E+05	-1.05491812698E+01	-5.50163189540E+01	3.52980805099E+01	-1.74130938743E+02	-3.62654997568E+01	4.46084528483E+01	-5.32415799160E+00	3.33149686501E+00
3.08797200832E+05	-1.48180233412E+01	-3.17114044853E+01	3.52881699309E+01	-1.74904595847E+02	-3.65974336839E+01	-1.17899274462E+02	-6.12079454214E+00	-6.93401885011E+00
3.09020405031E+05	-2.06091539112E+01	1.09179932118E+02	3.54153996605E+01	-1.75558977301E+02	-4.73968986046E+01	3.02026441114E+01	-5.79528153879E+00	1.26325705809E+00
3.09243770566E+05	-2.68641749982E+01	-1.47662664777E+02	3.54289076659E+01	-1.74956623062E+02	-3.31179464212E+01	-6.38895668983E+01	-5.16880958666E+00	-9.07078345872E+00
3.09467297553E+05	-2.07860715571E+01	-3.98979749130E+01	3.53395247008E+01	-1.75114649916E+02	-3.96550936796E+01	4.80290664635E+01	-5.55243041413E+00	2.93689393610E+00
3.09690986110E+05	-2.31434218191E+01	-8.48131929389E+01	3.54132398175E+01	-1.74812338482E+02	-3.36112869395E+01	1.25596030319E+02	-6.67784945991E+00	6.16353758181E+00
3.09914836353E+05	-2.02568693175E+01	-4.43676605071E+01	3.53575869883E+01	-1.74916376930E+02	-4.00760261514E+01	-2.83141673906E+01	-5.45169340316E+00	-1.22264176509E+00
3.10138848399E+05	-1.42928584756E+01	-5.31175607523E+01	3.53685404018E+01	-1.74755210723E+02	-3.87992721634E+01	9.87542158639E+01	-6.02604908679E+00	4.69985430012E+00
3.10363022365E+05	-1.07782540684E+01	1.16127859948E+01	3.52156448370E+01	-1.75797195213E+02	-3.64458764512E+01	1.60620641881E+02	-6.93081283160E+00	4.03096704198E-01
3.10587358368E+05	-1.38986500869E+01	5.36671276948E+01	3.53053199073E+01	-1.76186985679E+02	-3.67703587605E+01	1.01056078800E+02	-6.28465443826E+00	4.50722125457E+00
3.10811856525E+05	-1.83179474585E+01	3.50109228660E+00	3.53481409978E+01	-1.75370719578E+02	-3.30876558450E+01	-1.01826545334E+02	-5.88893268214E+00	-1.04445725424E+01
3.11036516954E+05	-2.07692420815E+01	-3.66854860857E+01	3.53295442406E+01	-1.74893847841E+02	-3.73431065895E+01	-5.22190441280E+01	-5.52697848243E+00	-4.42737902868E+00
3.11261339771E+05	-1.79133798912E+01	-2.46897899759E+01	3.53333251722E+01	-1.74986957932E+02	-4.54695815476E+01	1.68403202883E+02	-6.15571681671E+00	-7.19809654561E-01
3.11486325094E+05	-1.41829246401E+01	-2.72016942235E+01	3.52857970510E+01	-1.75110636863E+02	-4.47281979022E+01	-1.27432350422E+01	-5.64540191362E+00	-1.82366395607E+00
3.11711473040E+05	-1.70956195645E+01	-4.13476132597E+01	3.53399984530E+01	-1.75063464215E+02	-3.72003909545E+01	1.25534854724E+02	-6.56319495869E+00	3.54295828113E+00
3.11936783728E+05	-7.49668366120E+00	-1.26868245261E+02	3.55330333914E+01	-1.74106595938E+02	-4.72765788302E+01	1.36727990783E+02	-6.23214823352E+00	1.67784534609E-01
3.12162257274E+05	-9.66280240081E+00	-2.52477472078E+01	3.52522887678E+01	-1.74947163519E+02	-4.02183488038E+01	-1.71787536617E+02	-6.46115881797E+00	-2.86001417986E+00
3.12387893797E+05	-2.17084913415E+01	1.56830893818E+01	3.53684504060E+01	-1.75533823711E+02	-3.04243569526E+01	8.79837064324E+01	-5.89739669289E+00	1.19501260353E+01
3.12613693413E+05	-2.63891158943E+01	-7.58664268751E-01	3.54024491079E+01	-1.75381773601E+02	-4.39446696433E+01	7.63035374314E+01	-5.82560328838E+00	1.19771175735E+00
3.12839656242E+05	-1.96249988710E+01	-1.03014092310E+02	3.54209561027E+01	-1.75063124321E+02	-4.04867192977E+01	7.99876831088E+01	-5.82933386596E+00	3.53815903394E+00
3.13065782401E+05	-1.55516338178E+01	-4.28792917855E+01	3.53385180129E+01	-1.75293858005E+02	-3.98845591086E+01	6.46315837536E+01	-5.75328517790E+00	2.28378952151E+00
3.13292072007E+05	-2.00001768836E+01	-1.11839012053E+01	3.53283411656E+01	-1.75645524732E+02	-3.64042464712E+01	-1.59988518522E+02	-6.90399350013E+00	-3.05831293572E+00
3.13518525180E+05	-5.89461239520E+00	-2.98545924007E+01	3.51356248053E+01	-1.74669633126E+02	-3.34488452527E+01	9.00143316920E+01	-5.90255770890E+00	7.53847301968E+00
3.13745142038E+05	-2.00017700165E+01	-1.54308606785E+01	3.53498430028E+01	-1.75505844791E+02	-3.36022360920E+01	1.79440474920E+02	-7.45080410060E+00	-9.09646434315E-01
3.13971922698E+05	-2.00455237386E+01	-7.30558561546E+01	3.53792431975E+01	-1.75347950107E+02	-3.17290514950E+01	1.11613502876E+02	-6.61751153477E+00	1.18391154187E+01
3.14198867279E+05	-1.77717996307E+01	-1.33532958675E+01	3.53059724303E+01	-1.75592122663E+02	-3.60232727496E+01	-4.89656107379E+01	-5.38102910018E+00	-5.40250239732E+00
3.14425975900E+05	-1.86595130166E+01	-1.21906098153E+01	3.53357162028E+01	-1.75562387268E+02	-3.46527763269E+01	1.45367062298E+01	-4.99227198111E+00	1.41459886350E+00
3.14653248680E+05	-3.26719369822E+01	1.47856766761E+02	3.53842800183E+01	-1.75627445149E+02	-3.56483813373E+01	-3.65811111426E+00	-4.96855523644E+00	-3.00143179203E-01
3.14880685736E+05	-1.50340094277E+01	-2.96305591371E+01	3.53311037042E+01	-1.75435451808E+02	-3.99778031658E+01	2.85953945941E+01	-5.51370124951E+00	1.66927584813E+00
3.15108287188E+05	-2.25430758471E+01	-1.68656705797E+02	3.54588178431E+01	-1.75664655795E+02	-3.71736607045E+01	1.23996361493E+02	-6.42869793117E+00	2.80890585748E+00
3.15336053154E+05	-1.27987492777E+01	-2.96508217330E+01	3.52796904362E+01	-1.75451020065E+02	-3.66303682433E+01	-1.33680582523E+02	-6.45394712187E+00	-5.78013882660E+00
3.15563983753E+05	-1.68212289592E+01	1.66970067413E+01	3.53434779146E+01	-1.76055984429E+02	-3.61293528130E+01	5.49671243925E+01	-5.33398131980E+00	4.55970871321E+00
3.15792079105E+05	-1.61777631309E+01	-1.03747621532E+00	3.53275291718E+01	-1.75633493421E+02	-3.41847491892E+01	-1.23311707122E+02	-6.47512381264E+00	-7.76994154711E+00
3.16020339328E+05	-1.85972585139E+01	-1.11666308796E+02	3.54666600083E+01	-1.75598484964E+02	-4.13240345964E+01	4.88324184805E+01	-5.51530899556E+00	2.06252540934E+00
3.16248764542E+05	-2.77584496211E+01	2.09748455346E+01	3.53849123539E+01	-1.75810963131E+02	-4.07072494229E+01	1.58253633207E+02	-6.43710050915E+00	4.72296654228E-01
3.16477354866E+05	-2.03832924114E+01	-2.37862875431E+01	3.53752248732E+01	-1.76007869735E+02	-3.71014220037E+01	1.44895408250E+02	-6.67179989089E+00	1.05037632386E+00
3.16706110419E+05	-2.77218885013E+01	4.21344110236E+01	3.53499285850E+01	-1.76222501474E+02	-3.61647984552E+01	1.60701171006E+02	-6.77601946044E+00	1.35321473434E+00
3.16935031321E+05	-1.57231105434E+01	-7.84048535984E+01	3.53751677971E+01	-1.75577278448E+02	-3.95524841568E+01	9.54201281016E+01	-5.92410954129E+00	3.85415042670E+00
3.17164117691E+05	-1.91997382515E+01	-3.96941981794E+01	3.53532682800E+01	-1.75740339818E+02	-3.62205830689E+01	-2.05133363042E+01	-4.77365425660E+00	-2.75812041720E+00
3.17393369648E+05	-2.14814856355E+01	-4.17007850812E+01	3.53794978539E+01	-1.75981693322E+02	-4.99076364787E+01	-1.04405065690E+02	-5.97265362939E+00	-2.49093915848E+00
3.17622787313E+05	-1.36968956622E+01	-5.82241949348E+01	3.53465073370E+01	-1.75493648952E+02	-4.47986101225E+01	9.28322852305E+01	-5.93154182352E+00	1.26653048929E+00
3.17852370806E+05	-1.60797860751E+01	3.00974374093E+01	3.53405390435E+01	-1.76319347357E+02	-3.71493888459E+01	1.60570147159E+02	-6.66103649224E+00	1.42226255486E-01
3.18082120245E+05	-1.79239781814E+01	-7.59156766338E+01	3.53610511905E+01	-1.75849676896E+02	-4.55480267686E+01	-3.93382774256E+00	-5.71391293614E+00	-1.75376747328E-01
3.18312035752E+05	-1.18054789458E+01	1.16306921746E+02	3.54510862385E+01	-1.76945976119E+02	-5.16070520228E+01	-1.66279941599E+02	-6.15167025190E+00	-1.26496346235E+00
3.18542117445E+05	-1.96430518030E+01	6.21239253831E+01	3.53669798541E+01	-1.76318534622E+02	-3.82101164778E+01	-2.39528877663E+01	-5.17212193123E+00	-7.74928007216E-01
3.18772365446E+05	-1.63123283796E+01	1.57835187731E+02	3.54835143199E+01	-1.76431641916E+02	-2.91027572545E+01	-6.24582395419E+01	-4.57122030940E+00	-1.09475398458E+01
3.19002779874E+05	-3.58986097035E+01	-2.08649888341E+01	3.53863918762E+01	-1.76281923226E+02	-2.98310495700E+01	-2.43427867499E+01	-4.30716985795E+00	-5.40361936879E+00
3.19233360850E+05	-2.89498991190E+01	2.40693454660E+01	3.53618852585E+01	-1.76262313513E+02	-4.05282337663E+01	1.19761714753E+02	-6.25737608431E+00	1.97680302856E+00
3.19464108494E+05	-2.14957725878E+01	-2.45521916614E+01	3.53633839642E+01	-1.76102802255E+02	-3.53412103056E+01	6.89703707813E+01	-5.62418852961E+00	5.88254001280E+00
3.19695022927E+05	-2.20869447296E+01	-7.02121265500E+01	3.53987442327E+01	-1.76050123869E+02	-3.63043327662E+01	-1.72728484654E+02	-7.12557540290E+00	-1.68200708732E+00
3.19926104268E+05	-2.41646921474E+01	1.36625644076E+02	3.54565521586E+01	-1.76845340935E+02	-4.01041313476E+01	9.16778929219E+01	-5.95291911036E+00	3.23094603020E+00
3.20157352640E+05	-2.39471100710E+01	-4.49505459256E+01	3.53402633370E+01	-1.76435293698E+02	-4.42158604554E+01	-1.12169992063E+02	-6.09694981064E+00	-2.83859601523E+00
3.20388768162E+05	-2.49258391153E+01	-2.70233709034E+01	3.53875551517E+01	-1.76256704673E+02	-3.15432338391E+01	1.42963278814E+02	-7.68865512666E+00	9.28411003197E+00
3.20620350955E+05	-2.26646838831E+01	1.06919403280E+02	3.53807492950E+01	-1.76750649113E+02	-3.88107716313E+01	1.52502908492E+02	-6.64697315704E+00	1.34670858179E+00
3.20852101140E+05	-1.50273573680E+01	-4.22573285053E+01	3.52969680828E+01	-1.76045169928E+02	-3.30396458547E+01	-1.33157404329E+02	-6.83053607133E+00	-8.49643899383E+00
3.21084018839E+05	-2.01628589925E+01	-2.13403784844E+01	3.53673751750E+01	-1.76214633020E+02	-4.03012861701E+01	-6.32907573583E+00	-5.26675245353E+00	-1.76378131429E+00
3.21316104172E+05	-2.14155851824E+01	-1.57903978543E+01	3.53752007620E+01	-1.76335393715E+02	-4.49804202298E+01	1.55283849422E+02	-6.21623748473E+00	3.21910093522E-02
3.21548357261E+05	-1.53855783976E+01	-2.17131034907E+01	3.53204452272E+01	-1.76206241869E+02	-4.03502936957E+01	4.23518333437E+01	-5.55759990711E+00	1.50628650973E+00
3.21780778226E+05	-8.93317960086E+00	-6.40025853964E+01	3.52814459724E+01	-1.75172051919E+02	-4.03577767929E+01	-1.44665951617E+02	-6.28322643413E+00	-3.75783967313E+00
3.22013367189E+05	-1.83760371839E+01	4.31067850789E+01	3.53767245611E+01	-1.76796584234E+02	-3.27079237817E+01	-8.81032387765E+01	-5.40044229869E+00	-1.08117544386E+01
3.22246124272E+05	-2.23487366186E+01	7.04772639523E+01	3.53775748632E+01	-1.76944997581E+02	-3.48240622971E+01	3.67159354079E+01	-5.18001691538E+00	4.88842192975E+00
3.22479049596E+05	-1.62564625273E+01	-5.10429692895E+01	3.53637767243E+01	-1.76376461070E+02	-4.48464852172E+01	-8.73528422488E+01	-5.89776387598E+00	-2.43157033646E+00
3.22712143282E+05	-2.10456843239E+01	3.56275452760E+01	3.53520884800E+01	-1.76644162051E+02	-4.61694371992E+01	1.51101673237E+02	-6.33676165870E+00	3.75461765219E-01
3.22945405453E+05	-1.09036028199E+01	1.94018409223E+01	3.52650930767E+01	-1.76784329611E+02	-4.43862214507E+01	-2.35899704653E+01	-5.59619061984E+00	-1.46377850334E+00
3.23178836230E+05	-1.45426429961E+01	-1.75700705716E+01	3.53247622510E+01	-1.76556670704E+02	-4.39214636381E+01	3.07427853957E+01	-5.62621193490E+00	1.21671719706E+00
3.23412435735E+05	-1.32867079480E+01	-6.88169662025E+01	3.53344009681E+01	-1.76017745757E+02	-4.30835152868E+01	1.77845046440E+02	-6.39529811599E+00	-1.03172282008E-01
3.23646204090E+05	-1.91008901865E+01	3.00298350082E+00	3.53212296064E+01	-1.76755174053E+02	-2.95128595889E+01	1.18782616556E+02	-7.28264542693E+00	1.15129620228E+01
3.23880141417E+05	-2.13778726231E+01	-9.11868017236E+01	3.53955395056E+01	-1.76460850460E+02	-3.60879823390E+01	-4.46036376000E+00	-5.00688957098E+00	-3.61714516336E-01
3.24114247838E+05	-1.96040754437E+01	-5.78916089754E+01	3.53981026860E+01	-1.76575761770E+02	-3.99751403458E+01	1.08942812700E+02	-6.20269167704E+00	1.79981928162E+00
3.24348523475E+05	-2.03762988655E+01	-2.08622293885E+01	3.53347227476E+01	-1.76845113213E+02	-4.46118383341E+01	1.44669342509E+02	-6.22700174962E+00	4.53173132265E-01
3.24582968451E+05	-2.14820973029E+01	2.69377104284E+01	3.53558161686E+01	-1.77019492784E+02	-4.50153156310E+01	-1.19672748730E+02	-6.17562579046E+00	-3.13360293748E+00
3.24817582888E+05	-1.49601280593E+01	-5.85734810756E+01	3.53371781338E+01	-1.76263205497E+02	-4.26189127198E+01	1.91014077652E+01	-5.78418434138E+00	9.61786466246E-02
3.25052366909E+05	-1.23118268190E+01	1.17975662297E+02	3.54676885934E+01	-1.77750643543E+02	-3.68828175058E+01	5.02612777822E+01	-5.44353947147E+00	2.66696597062E+00
3.25287320635E+05	-2.16775172770E+01	-6.62818584223E+01	3.53892487932E+01	-1.76770302306E+02	-3.66090714927E+01	8.15677231999E+01	-5.95714735227E+00	5.12315105674E+00
3.25522444191E+05	-2.49867879257E+01	-1.35295965941E+01	3.53919049992E+01	-1.76891003459E+02	-4.11081074552E+01	-1.19328089003E+02	-6.14187682875E+00	-5.02871334121E+00
3.25757737698E+05	-2.15269076603E+01	-1.24330875773E+02	3.53984401299E+01	-1.76690242933E+02	-4.11578447112E+01	-7.19452329651E+01	-5.66633365338E+00	-3.44826354675E+00
3.25993201280E+05	-1.79302459292E+01	-6.93793024051E+01	3.53832671046E+01	-1.76553465810E+02	-3.91160851892E+01	3.41395126922E+01	-5.42703267803E+00	2.14124329804E+00
3.26228835058E+05	-1.85782898833E+01	6.87863361872E+01	3.53908279877E+01	-1.77532641437E+02	-4.48556020381E+01	-1.60473846655E+02	-6.27888060360E+00	-1.35757914929E+00
