# Hz S DB R 50
! CMT, M5065, 19127446, 24.2.4/2
! Date: 11/1/2024 3:24:53 PM
! Data: Format (Calibration Info)
! Freq	S11:dB/Ang(F2)	S21:dB/Ang(F2)	S12:dB/Ang(F2)	S22:dB/Ang(F2)
3.00000000000E+05	-1.98875311044E+01	-5.26468158562E+01	8.16451743550E+00	-1.77575282977E+02	-3.64300760818E+01	-1.50523031882E+01	-5.96355972329E+00	-2.51789316429E-01
3.00216845423E+05	-2.06110619337E+01	-2.27873810312E+01	8.18949844017E+00	-1.77220679916E+02	-3.89673427160E+01	2.25646137129E+01	-6.01592971349E+00	-1.40065268070E-01
3.00433847586E+05	-2.34492113454E+01	1.56358490270E+02	8.17590549064E+00	-1.77510460272E+02	-3.87672849809E+01	1.48198680857E+02	-6.07365924809E+00	1.47595260927E-01
3.00651006602E+05	-1.60703472398E+01	9.25545872455E+01	8.23620947901E+00	-1.78251242630E+02	-3.45258282369E+01	-6.43991138394E+00	-6.00340207278E+00	-5.00462561960E-01
3.00868322584E+05	-5.59315618143E+00	2.00484251994E+01	7.81812916794E+00	-1.78508041176E+02	-6.02920025920E+01	1.08587597421E+02	-6.05415725019E+00	-1.66765802424E-01
3.01085795647E+05	-1.64919200021E+01	2.94124570821E+01	8.13144140636E+00	-1.77880190177E+02	-3.39246408739E+01	-1.31676201344E+02	-6.10254379671E+00	-6.02802622102E-01
3.01303425902E+05	-2.14093409506E+01	-9.64585493306E+01	8.19140074511E+00	-1.77296163551E+02	-3.83259085972E+01	-1.08846920895E+02	-6.10578415375E+00	-5.96436756209E-01
3.01521213465E+05	-1.90942545818E+01	7.63264262485E+01	8.15514971487E+00	-1.77884744421E+02	-4.29789411958E+01	7.72914996051E+00	-6.06146100172E+00	-1.69258036059E-01
3.01739158449E+05	-2.36156049685E+01	6.94363553058E+01	8.20381070759E+00	-1.78316194839E+02	-4.50587175282E+01	1.57170963881E+02	-6.06061385104E+00	-2.23247890212E-02
3.01957260967E+05	-1.63547019207E+01	-4.42676583345E+01	8.13769605335E+00	-1.77086589438E+02	-5.00754474834E+01	1.29720315437E+02	-6.05087937115E+00	-1.56623764318E-01
3.02175521134E+05	-2.20171384137E+01	7.92561150483E+01	8.23820486099E+00	-1.77932685259E+02	-4.39232551082E+01	-6.03687105049E+01	-6.03485488640E+00	-3.48118615869E-01
3.02393939063E+05	-1.75004814698E+01	1.07469462604E+02	8.22201085015E+00	-1.78262304951E+02	-3.77950149752E+01	1.54540343699E+02	-6.02022036461E+00	6.94511974784E-02
3.02612514869E+05	-1.74068103872E+01	-2.10028721033E+00	8.11570676858E+00	-1.77738155082E+02	-3.07664392989E+01	-4.20518518751E+01	-5.99586993438E+00	-7.19295555656E-01
3.02831248665E+05	-1.67913325469E+01	-7.07279426996E+01	8.18844502621E+00	-1.76957398080E+02	-4.28592229958E+01	1.23925819680E+02	-6.02708501836E+00	8.07682985862E-02
3.03050140565E+05	-1.49994715368E+01	4.96380384686E+01	8.11760361462E+00	-1.78038501301E+02	-5.62641282525E+01	1.31805527007E+02	-6.05243120220E+00	-3.38546660023E-02
3.03269190685E+05	-1.54472337889E+01	-2.24360445532E+00	8.08977701011E+00	-1.77588789593E+02	-4.33593990906E+01	-1.36714744980E+02	-6.08273089791E+00	-2.40836950026E-01
3.03488399138E+05	-1.80253157960E+01	8.15204125622E+01	8.22477094331E+00	-1.77983394083E+02	-3.34451393104E+01	1.23672820067E+02	-6.09130369211E+00	-1.25457319751E-01
3.03707766039E+05	-1.57227570678E+01	-8.93613338769E+01	8.16247361989E+00	-1.76821455650E+02	-3.48050325662E+01	-8.49290737737E+01	-6.04460950252E+00	-6.20398027849E-01
3.03927291503E+05	-1.96862871066E+01	1.23106561957E+02	8.33320979894E+00	-1.77968610241E+02	-3.93470152783E+01	2.26579746517E+01	-6.00200523532E+00	-3.53655819095E-02
3.04146975643E+05	-1.51243809521E+01	-2.04427251749E+01	8.10123513242E+00	-1.77501527302E+02	-3.49805428224E+01	7.18484522900E+01	-6.00746702376E+00	-4.77209698500E-02
3.04366818575E+05	-2.36844185957E+01	-5.74248565549E+01	8.13734175769E+00	-1.77549861930E+02	-3.53906772128E+01	1.18735132583E+02	-6.10106379447E+00	1.56366607003E-01
3.04586820414E+05	-1.21743260826E+01	2.95876936324E+01	8.08261550783E+00	-1.78175033606E+02	-4.16592862647E+01	-1.51110231608E+01	-6.01082081563E+00	-7.47283200611E-02
3.04806981274E+05	-2.60893219553E+01	4.00494953728E+01	8.24650420668E+00	-1.77785776806E+02	-3.71863486751E+01	-1.01699140252E+02	-6.08927289489E+00	-5.09496911696E-01
3.05027301270E+05	-1.57504937421E+01	9.76564409176E+01	8.24211022347E+00	-1.78474620099E+02	-4.49837677182E+01	3.17700414418E+01	-6.02305413677E+00	-8.32228283933E-02
3.05247780517E+05	-1.58063753589E+01	7.54554071880E+01	8.14620498169E+00	-1.77813646265E+02	-3.64585229971E+01	-3.83643095857E+00	-5.96585793199E+00	-4.15731722171E-01
3.05468419131E+05	-9.37296033190E+00	3.10181448250E+01	8.07213513818E+00	-1.78806139573E+02	-5.31124226563E+01	-1.18143810610E+02	-6.08395389666E+00	3.74190046688E-02
3.05689217226E+05	-2.21125049584E+01	1.08963016621E+02	8.21072627072E+00	-1.78192955782E+02	-3.33785738299E+01	-1.44453480635E+02	-6.12144024680E+00	-2.44158356505E-01
3.05910174918E+05	-1.24289979733E+01	-4.78199183834E+01	8.08975489534E+00	-1.77219391868E+02	-3.00126586893E+01	1.50082001514E+01	-5.90425719592E+00	3.59717957322E-01
3.06131292322E+05	-1.98130392191E+01	-5.58413933737E+01	8.14538076045E+00	-1.77762513603E+02	-3.91560648479E+01	-1.52533929131E+02	-6.04270770155E+00	-3.87875428338E-01
3.06352569554E+05	-3.58871377192E+01	1.54077723649E+02	8.19940964761E+00	-1.77468185979E+02	-4.00251713249E+01	-2.28575249807E+01	-5.98447830431E+00	-2.09036188505E-01
3.06574006730E+05	-1.70300354632E+01	-2.65903484511E+01	8.11496032739E+00	-1.77606053013E+02	-4.85217626260E+01	-2.37437435089E+01	-6.03617174688E+00	-1.30525642296E-01
3.06795603964E+05	-2.47682814867E+01	1.07698337771E+02	8.17446467348E+00	-1.78230209441E+02	-5.28524860325E+01	-1.46829776605E+02	-6.03499593750E+00	-2.16366324653E-01
3.07017361372E+05	-2.77282306608E+01	1.52327103193E+02	8.24473275151E+00	-1.77739038633E+02	-4.20736896256E+01	-3.11040498371E+01	-5.99819439443E+00	-4.92677063508E-02
3.07239279071E+05	-1.49337818748E+01	2.65380201035E+01	8.06354381788E+00	-1.78277860386E+02	-3.86146082104E+01	-1.56359885454E+02	-6.06510766016E+00	-5.78487438851E-02
3.07461357176E+05	-1.49741600668E+01	2.55807158443E+01	8.14837981394E+00	-1.78198649468E+02	-2.81834076228E+01	-1.18881007988E+02	-6.10705393495E+00	-1.37194106230E+00
3.07683595803E+05	-1.92363270208E+01	9.24141315262E+00	8.12295258344E+00	-1.78367137618E+02	-4.35439512117E+01	1.17960246893E+02	-6.04871576984E+00	-1.05240204115E-01
3.07905995068E+05	-1.69771034512E+01	6.65801391767E+01	8.14187805853E+00	-1.78097004944E+02	-4.10080722813E+01	1.29063277398E+02	-6.07321330839E+00	-1.50039949284E-01
3.08128555087E+05	-1.77655606736E+01	5.03509894117E+01	8.11230461266E+00	-1.77774427620E+02	-3.97136711833E+01	6.42840592066E+01	-6.05452221508E+00	2.29743722647E-02
3.08351275976E+05	-1.78039860572E+01	4.53688208236E+01	8.16979101664E+00	-1.78213467406E+02	-4.13062160839E+01	1.78147319419E+02	-6.06003860039E+00	-1.24221047692E-01
3.08574157853E+05	-1.71156479030E+01	-1.34655055008E+02	8.26085612637E+00	-1.77209603638E+02	-4.56939420881E+01	-2.49255809066E+01	-6.05072297673E+00	-8.67309853777E-02
3.08797200832E+05	-1.29710594798E+01	-2.31906288884E+01	8.07456700943E+00	-1.77180379561E+02	-3.45932299520E+01	1.39679239064E+02	-6.08505262083E+00	-2.89061949246E-02
3.09020405031E+05	-1.32598397577E+01	-1.13294485972E+02	8.24240712002E+00	-1.76817137038E+02	-3.91115829793E+01	1.70029881078E+02	-6.11804221638E+00	-1.23844287447E-01
3.09243770566E+05	-2.45659090982E+01	1.59579150130E+02	8.18654843409E+00	-1.77950187034E+02	-4.37387741170E+01	4.46135504572E+01	-6.00606486809E+00	-1.32926986496E-01
3.09467297553E+05	-1.89872199292E+01	1.30341942768E+02	8.27377178454E+00	-1.78028268588E+02	-4.78340334363E+01	1.71033420547E+02	-6.06579205224E+00	-2.25520169055E-01
3.09690986110E+05	-2.48261764162E+01	-4.02233962191E+01	8.20575898933E+00	-1.77732514324E+02	-3.65613983304E+01	-3.29190209568E+01	-6.01621441695E+00	-4.12095854002E-01
3.09914836353E+05	-1.78768605190E+01	1.56585634830E+01	8.14909189845E+00	-1.77712069920E+02	-4.04569949639E+01	9.07508331635E+01	-6.04107491235E+00	-4.10184340481E-01
3.10138848399E+05	-1.04455904091E+01	6.02978010375E+01	8.02278340301E+00	-1.79494284870E+02	-4.49390581862E+01	-1.61416774363E+02	-6.04389909342E+00	-2.49719865317E-01
3.10363022365E+05	-1.46482000742E+01	6.30459333609E+00	8.08469122087E+00	-1.77651692928E+02	-4.49955198825E+01	1.05577944513E+01	-5.99184898210E+00	-1.40139879073E-01
3.10587358368E+05	-2.43491490697E+01	-3.66082807936E+01	8.21068644940E+00	-1.77491469809E+02	-3.83082961409E+01	1.10122972637E+02	-6.06049113080E+00	-1.65772713423E-01
3.10811856525E+05	-2.16913090230E+01	3.93708688697E+01	8.12644356485E+00	-1.77672227286E+02	-5.20896359348E+01	-1.57668620515E+02	-6.06251526841E+00	-3.31373996682E-01
3.11036516954E+05	-2.46767947432E+01	-2.68391149128E+01	8.13216829603E+00	-1.77833097830E+02	-4.25859482184E+01	9.78465637377E+01	-5.99010412491E+00	-2.42038452434E-01
3.11261339771E+05	-1.99979808740E+01	7.10337251872E+01	8.17026257291E+00	-1.78191733768E+02	-4.26349285699E+01	-5.72767980720E+01	-6.04131792364E+00	-6.50698995021E-01
3.11486325094E+05	-1.93599989743E+01	1.04918917093E+01	8.10163276312E+00	-1.77815754430E+02	-6.44718540112E+01	-1.53001599687E+01	-6.04538085173E+00	-4.01402642511E-01
3.11711473040E+05	-1.46081143086E+01	6.99285923600E+00	8.05245928502E+00	-1.77904823440E+02	-4.05916048418E+01	9.91100506932E+01	-5.98926176383E+00	-8.91915913756E-02
3.11936783728E+05	-2.01512027948E+01	-4.73910907204E+01	8.18665380577E+00	-1.77087784360E+02	-3.75052887340E+01	3.89195335538E+01	-6.01496663790E+00	-1.69404275597E-01
3.12162257274E+05	-1.84623651263E+01	2.20703367997E+01	8.17983656084E+00	-1.78086788324E+02	-3.81070601573E+01	9.23422085840E+01	-6.02595769383E+00	-5.27999358240E-02
3.12387893797E+05	-2.93292668543E+01	1.18470703628E+02	8.23518251264E+00	-1.77731518526E+02	-3.95042270461E+01	2.15781059453E+01	-6.03504101175E+00	-1.18344963964E-01
3.12613693413E+05	-1.97028352750E+01	-1.41751266609E+02	8.29806174120E+00	-1.77633912952E+02	-3.80415923578E+01	-6.28123131259E+01	-6.02152379340E+00	-3.39684525633E-01
3.12839656242E+05	-2.05266915150E+01	7.27913579817E+00	8.11786758833E+00	-1.77497180271E+02	-4.00459091492E+01	1.22381635631E+01	-6.01110979914E+00	-3.31696221991E-01
3.13065782401E+05	-1.37529855317E+01	5.57715498921E+01	8.16819158497E+00	-1.78944908833E+02	-4.23908030536E+01	-5.98772246939E+01	-6.01912594441E+00	-6.30060905750E-01
3.13292072007E+05	-1.44741287618E+01	5.05874838017E+01	8.13569543048E+00	-1.78588761393E+02	-4.26998408175E+01	-2.20907497356E+01	-6.03851147144E+00	-3.66508870766E-01
3.13518525180E+05	-1.58212296697E+01	2.32750046474E+01	8.06979405937E+00	-1.78289313956E+02	-3.81259168726E+01	-6.31379848218E+01	-5.97623515994E+00	-3.40193471181E-01
3.13745142038E+05	-2.13589067901E+01	-1.69050501200E+01	8.20896054885E+00	-1.77354961042E+02	-3.96858205551E+01	-4.93623928527E+01	-5.98545654313E+00	-6.04515221260E-01
3.13971922698E+05	-1.79174242041E+01	1.43055235716E+02	8.24815676223E+00	-1.78315998034E+02	-4.80242251951E+01	1.64529048876E+02	-6.04019083605E+00	-1.53957089484E-01
3.14198867279E+05	-1.72341853785E+01	3.18140278177E+01	8.09702126618E+00	-1.77809736162E+02	-4.17840754306E+01	1.49188383969E+01	-6.01665421835E+00	-1.82680238964E-01
3.14425975900E+05	-2.49728278478E+01	1.48041103679E+02	8.26004068909E+00	-1.77500314624E+02	-4.45056572711E+01	1.53574943496E+02	-6.04727911599E+00	-4.01007143932E-01
3.14653248680E+05	-1.59668586294E+01	8.98975315644E+01	8.22223384854E+00	-1.78915494570E+02	-4.40835080616E+01	-1.50193753612E+02	-6.06833813921E+00	-4.00517319261E-01
3.14880685736E+05	-1.62510110185E+01	-1.75621919583E+02	8.32064000448E+00	-1.77845141440E+02	-3.70998567213E+01	-1.62395476926E+02	-6.07298172936E+00	-3.70607202712E-01
3.15108287188E+05	-1.72837396025E+01	9.19398168422E+00	8.10216590012E+00	-1.77935888651E+02	-3.71722605849E+01	-1.43800716899E+02	-6.06347691993E+00	-5.97691522716E-01
3.15336053154E+05	-1.43897151091E+01	-2.22473087995E+01	8.12431087360E+00	-1.77446128453E+02	-2.89560126733E+01	1.11903419096E+02	-6.13733563419E+00	5.21148694728E-01
3.15563983753E+05	-2.28567078648E+01	2.23110519077E+00	8.12266081482E+00	-1.77593388869E+02	-4.30063624360E+01	-2.97518213326E+01	-6.02259986905E+00	-2.82381950309E-01
3.15792079105E+05	-1.28747029140E+01	8.17139448873E+01	8.23120274380E+00	-1.78730188975E+02	-4.10068624706E+01	1.78969202204E+02	-6.09769880683E+00	-1.91040032319E-01
3.16020339328E+05	-3.81773609886E+01	-5.33231723746E+01	8.22024138371E+00	-1.78086856154E+02	-4.38654765088E+01	-1.11767648570E+01	-6.01149769565E+00	-3.87072156403E-01
3.16248764542E+05	-1.80421835054E+01	2.95500454481E+01	8.10238425818E+00	-1.77849914838E+02	-3.68932670294E+01	-8.74901433519E+01	-6.04229441139E+00	-1.60391683456E-01
3.16477354866E+05	-1.07252135571E+01	-2.97412779893E+01	8.08677268633E+00	-1.77042253480E+02	-4.44272905303E+01	-1.62360858036E+02	-6.06151262487E+00	-2.13539113991E-01
3.16706110419E+05	-1.41330086859E+01	-1.59780182494E+02	8.35643550094E+00	-1.77388212030E+02	-4.86825068131E+01	1.09064406851E+02	-6.02879282053E+00	2.22958197144E-03
3.16935031321E+05	-1.86260675990E+01	-4.38640792516E+01	8.11380283345E+00	-1.76948596568E+02	-3.78242731439E+01	-5.62752851464E+01	-6.00378085090E+00	-2.73725611845E-01
3.17164117691E+05	-1.42535031753E+01	2.33922720331E+00	8.17217818343E+00	-1.77748405658E+02	-3.65003963850E+01	8.28123516688E+01	-6.01800159428E+00	7.74572541516E-02
3.17393369648E+05	-1.89333938155E+01	-1.16128295435E+02	8.23712822311E+00	-1.77026098700E+02	-4.65196408952E+01	-6.61643027888E+01	-6.05653587960E+00	-1.67589038360E-01
3.17622787313E+05	-1.91689165504E+01	5.81594731913E+01	8.17926601459E+00	-1.78403027539E+02	-4.64470113358E+01	-1.06233280719E+02	-6.07537814135E+00	-3.55025796679E-01
3.17852370806E+05	-1.98270444798E+01	5.29921685729E+01	8.19754917582E+00	-1.77990629668E+02	-4.36423264647E+01	-4.89069233227E+01	-5.99600258005E+00	-3.63313594932E-01
3.18082120245E+05	-9.34143380504E+00	-7.08853035598E+01	8.19568293887E+00	-1.76497509753E+02	-3.68879188482E+01	-1.62666849136E+02	-6.09237546456E+00	-2.07883151944E-01
3.18312035752E+05	-2.01955127651E+01	1.05184965468E+02	8.20622474037E+00	-1.78561137346E+02	-3.89059207375E+01	1.34745602658E+02	-6.10317500757E+00	-2.52573641828E-01
3.18542117445E+05	-2.58244204808E+01	-4.50668361977E-01	8.10413067235E+00	-1.77970114122E+02	-2.41216746555E+01	1.35871025410E+02	-6.20793980006E+00	1.12977512521E+00
3.18772365446E+05	-2.75108728591E+01	8.35603068970E+01	8.20218208493E+00	-1.77690354115E+02	-2.47080317416E+01	-3.81678838308E+01	-5.83895648900E+00	-1.14747510396E+00
3.19002779874E+05	-1.84432333853E+01	2.17564402940E+01	8.17067304816E+00	-1.78184512191E+02	-3.71748513514E+01	-3.02528806576E+01	-6.04697542335E+00	-3.70866226237E-01
3.19233360850E+05	-1.81338885514E+01	-4.06365209609E+01	8.10273927806E+00	-1.77835743860E+02	-4.58650013931E+01	-9.65418717877E+01	-6.03526188075E+00	-5.84237322584E-02
3.19464108494E+05	-1.32263500247E+01	5.46664749682E+00	8.07491588231E+00	-1.78168101077E+02	-4.22195297689E+01	-1.09332420265E+02	-6.03068537591E+00	-4.85243749868E-01
3.19695022927E+05	-2.22520372153E+01	-2.49977581204E+01	8.14393371615E+00	-1.77926088057E+02	-3.71327824068E+01	4.02394702543E+01	-6.02298854906E+00	1.64294069528E-01
3.19926104268E+05	-2.22379525591E+01	1.03447424923E+01	8.12402034677E+00	-1.77621972578E+02	-4.13832151804E+01	1.34800625410E+02	-6.07802972998E+00	-1.08990662107E-01
3.20157352640E+05	-1.86571228109E+01	7.45483209530E+01	8.20771846219E+00	-1.78198415355E+02	-4.03882288937E+01	-1.33226457553E+02	-6.04153310476E+00	-1.56556112961E-01
3.20388768162E+05	-1.98258847808E+01	-1.03049012193E+02	8.20772058532E+00	-1.77565186547E+02	-4.15394812957E+01	8.64274150769E+01	-6.06629408932E+00	-1.42523437652E-01
3.20620350955E+05	-1.30772533041E+01	5.98300732413E+01	8.18874453241E+00	-1.78753578092E+02	-3.78792713181E+01	-1.71920727496E+02	-6.07490187199E+00	-2.69900207786E-01
3.20852101140E+05	-2.36284470522E+01	7.76329226460E+00	8.11791594797E+00	-1.77529173387E+02	-4.67277058178E+01	2.33656971217E+01	-6.04325756569E+00	-7.45547698565E-02
3.21084018839E+05	-2.00963448202E+01	4.35296952170E+01	8.15828234270E+00	-1.77973017000E+02	-3.78679765386E+01	8.22316461693E+01	-6.01613076695E+00	4.01827573187E-01
3.21316104172E+05	-1.61950285205E+01	2.03382022672E+01	8.06359102467E+00	-1.78262607975E+02	-4.02301415840E+01	8.75581117014E+01	-6.08250191495E+00	-1.46646737534E-01
3.21548357261E+05	-1.78225136238E+01	-7.08937887532E+01	8.26215746662E+00	-1.77205253728E+02	-4.93470108050E+01	1.25403789909E+02	-6.08354833733E+00	-4.10836811900E-01
3.21780778226E+05	-2.10455370705E+01	1.46534142101E+02	8.25666228068E+00	-1.77834246672E+02	-2.89519870643E+01	-1.66030233659E+02	-6.16313180688E+00	-5.09612965286E-01
3.22013367189E+05	-2.33971447499E+01	4.06488417306E+01	8.16403470641E+00	-1.78080107789E+02	-3.46843526337E+01	-2.74633172043E+01	-5.99370938516E+00	-5.90723149103E-01
3.22246124272E+05	-1.86810403848E+01	1.13977450531E+02	8.26052812699E+00	-1.78442668612E+02	-4.08732638893E+01	4.14745591794E+01	-5.99508834609E+00	-8.78229801629E-02
3.22479049596E+05	-1.45549797687E+01	-5.65986347498E+01	8.07580558208E+00	-1.77463031278E+02	-4.11507240369E+01	4.84206003180E+01	-6.02329935830E+00	-4.65573725026E-02
3.22712143282E+05	-1.95582766909E+01	1.40530678301E+01	8.11200512574E+00	-1.78458795069E+02	-4.18185632967E+01	-8.68059508286E+00	-5.97840061626E+00	-3.16922546064E-01
3.22945405453E+05	-1.44169324404E+01	-1.06138773714E+02	8.22308769984E+00	-1.77589377615E+02	-3.31755854244E+01	-1.45485220925E+02	-6.05652966493E+00	-4.81079556968E-01
3.23178836230E+05	-8.75676212259E+00	2.15810537745E+01	7.94099788944E+00	-1.78348634781E+02	-4.11469947439E+01	-1.02832364562E+02	-6.05832529227E+00	-2.52594535303E-01
3.23412435735E+05	-3.13647948450E+01	3.35286413974E+01	8.11964155459E+00	-1.77605579553E+02	-3.13299189810E+01	5.68569328188E+01	-6.00927403999E+00	6.26160047206E-01
3.23646204090E+05	-3.84160786313E+01	-2.52793610692E+01	8.22659573707E+00	-1.78141270331E+02	-4.38980506848E+01	-3.26791890421E+00	-6.04119715927E+00	-3.21441055398E-01
3.23880141417E+05	-1.53636294487E+01	-7.16498616211E+00	8.06926188764E+00	-1.77550231140E+02	-4.62391256681E+01	4.55971653181E+01	-6.00385739399E+00	-2.67750905357E-01
3.24114247838E+05	-2.41684718704E+01	-4.11126103546E+00	8.17860544485E+00	-1.77562433100E+02	-4.66558262248E+01	2.63018217733E+01	-6.04412075107E+00	-9.28213874922E-02
3.24348523475E+05	-1.55077896338E+01	4.28315084999E+01	8.15149382301E+00	-1.78258844021E+02	-4.37596690431E+01	3.41225860368E+01	-6.01964745472E+00	-2.85797590649E-02
3.24582968451E+05	-1.32654422840E+01	-7.83562345906E+01	8.16096358620E+00	-1.76588556190E+02	-3.41292562501E+01	-1.53963634754E+02	-6.11287239024E+00	-3.86670084524E-01
3.24817582888E+05	-1.41545244690E+01	-1.84492231512E+01	8.02317454105E+00	-1.77322328590E+02	-3.50952443882E+01	-8.88722273721E+01	-6.04037478115E+00	-7.31769424478E-01
3.25052366909E+05	-1.64348425586E+01	-3.06563647297E+01	8.14380014352E+00	-1.77935541270E+02	-3.78945810690E+01	8.00852133339E+01	-6.04935993500E+00	2.31888342323E-01
3.25287320635E+05	-3.08581655537E+01	-6.69619319191E+01	8.24397519969E+00	-1.77960729286E+02	-3.76538776668E+01	-1.72867546524E+01	-6.04463319273E+00	-3.33096091731E-01
3.25522444191E+05	-1.82672068583E+01	5.59648798175E+01	8.16911601974E+00	-1.78616837903E+02	-3.64884605101E+01	-3.02628128927E+01	-6.00616295916E+00	-1.89970362859E-01
3.25757737698E+05	-1.60399091236E+01	3.67377720095E+01	8.13505653511E+00	-1.78322489618E+02	-4.21263352482E+01	9.14298611994E+01	-6.04964619312E+00	-1.54083573840E-01
3.25993201280E+05	-1.80612541941E+01	-5.51985872250E+01	8.16438037019E+00	-1.77265642178E+02	-3.77449796379E+01	-9.54954053661E+01	-6.05105339883E+00	-6.01093850868E-01
3.26228835058E+05	-1.72932643795E+01	8.30947294598E+01	8.20043961623E+00	-1.78939651588E+02	-3.85981489664E+01	-1.61341468264E+01	-5.95205239282E+00	-3.26853740337E-01
