# Hz S DB R 50
! CMT, M5065, 19127446, 24.2.4/2
! Date: 11/1/2024 3:25:27 PM
! Data: Format (Calibration Info)
! Freq	S11:dB/Ang(F2)	S21:dB/Ang(F2)	S12:dB/Ang(F2)	S22:dB/Ang(F2)
3.00000000000E+05	-1.52998938496E+01	3.51732619121E+01	8.27091257294E+00	-1.77939248920E+02	-3.90832247939E+01	-5.07554488062E+01	-6.01642455799E+00	-4.16860031840E-01
3.00216845423E+05	-1.87486169592E+01	-9.31445476331E+01	8.39632228548E+00	-1.76882755997E+02	-4.05479477676E+01	-9.67110641436E-01	-6.03098784892E+00	-3.97944929799E-01
3.00433847586E+05	-1.88497415411E+01	3.42110257015E+01	8.30467475581E+00	-1.78296325001E+02	-3.09175164388E+01	-1.60071098208E+02	-6.14889691702E+00	-5.94646773365E-01
3.00651006602E+05	-2.13008952053E+01	4.94460651589E+01	8.33147792332E+00	-1.77437431813E+02	-3.11559221888E+01	-1.46669607936E+02	-6.10267103652E+00	-8.15717663631E-01
3.00868322584E+05	-2.67960883382E+01	4.47288757295E+01	8.39477479112E+00	-1.78098290627E+02	-4.21639396947E+01	-8.06975963357E+01	-6.08302178717E+00	-2.36667163736E-01
3.01085795647E+05	-1.61878570048E+01	1.20669968787E+02	8.42966520597E+00	-1.78061103650E+02	-4.04906903882E+01	1.63327245312E+02	-6.08299735459E+00	-3.89566128334E-01
3.01303425902E+05	-1.84157105116E+01	1.75146193038E+02	8.49327011147E+00	-1.77808524378E+02	-3.94053298688E+01	5.89153840605E+01	-6.05191691851E+00	3.36726203811E-02
3.01521213465E+05	-2.51453648076E+01	-1.15825766695E+02	8.36711349087E+00	-1.77365854480E+02	-3.98251074072E+01	-4.00701726138E+01	-6.02027294096E+00	-4.03917150678E-01
3.01739158449E+05	-1.25107692718E+01	4.98515656966E+01	8.27882855663E+00	-1.78001327949E+02	-3.52381276303E+01	-8.40680357270E+01	-6.02252126658E+00	-3.64698168831E-01
3.01957260967E+05	-1.92371879213E+01	1.72877214445E+02	8.49321511485E+00	-1.77852761780E+02	-3.49413368994E+01	-2.47689089082E+01	-5.99761482325E+00	-4.44517823593E-01
3.02175521134E+05	-1.75486306409E+01	8.50722835855E+01	8.42229422724E+00	-1.77888021963E+02	-3.48621127615E+01	1.26825162775E+02	-6.08287381846E+00	4.97473805562E-01
3.02393939063E+05	-1.81125519400E+01	3.29799484585E+01	8.32303948982E+00	-1.77935902035E+02	-3.74963089683E+01	7.89832223387E+00	-5.98499024514E+00	-2.01040066667E-01
3.02612514869E+05	-1.95980756609E+01	-2.92951096057E+01	8.38531098657E+00	-1.77351818787E+02	-4.34267178519E+01	1.46295987565E+02	-6.04251233191E+00	-6.35416946052E-02
3.02831248665E+05	-1.94063565691E+01	5.32826518996E+01	8.30778894359E+00	-1.77991015911E+02	-4.67178328382E+01	1.85366480144E+01	-5.99086518113E+00	-1.69113609975E-01
3.03050140565E+05	-2.12019210398E+01	1.15774006962E+02	8.38809349541E+00	-1.77781183458E+02	-3.97082875731E+01	1.18876317248E+02	-6.08704647933E+00	1.28672277056E-01
3.03269190685E+05	-1.41348976541E+01	1.30639663514E+01	8.26943100216E+00	-1.77778534622E+02	-4.04341917635E+01	-1.25185907395E+02	-6.03214545313E+00	-2.78562897889E-01
3.03488399138E+05	-2.05969456423E+01	6.37255067266E+01	8.39782701650E+00	-1.77918952875E+02	-3.58638133282E+01	1.36136594736E+02	-6.03939250945E+00	-2.05824091549E-01
3.03707766039E+05	-1.90366353538E+01	-4.31122824766E+01	8.39491217006E+00	-1.77757763613E+02	-3.47797858719E+01	-1.66608979118E+02	-6.09746561562E+00	-1.75550110238E-01
3.03927291503E+05	-1.50933496960E+01	1.79332079620E+00	8.29588945050E+00	-1.77676623105E+02	-3.59822866075E+01	-1.32393123745E+01	-5.99209559666E+00	-3.36368110776E-01
3.04146975643E+05	-1.16739912222E+01	2.24095817424E+01	8.26008903386E+00	-1.78158054214E+02	-4.76102306837E+01	-1.38802536485E+02	-6.05961062384E+00	-1.96500685165E-01
3.04366818575E+05	-3.25300892992E+01	-2.80733987011E+01	8.45726514710E+00	-1.77592534231E+02	-4.57116494027E+01	4.98370175679E+01	-6.04493658333E+00	-2.27100818462E-01
3.04586820414E+05	-1.52645229210E+01	7.26104634617E+01	8.35275935274E+00	-1.78223297822E+02	-4.21709245440E+01	1.68799013661E+02	-6.08897436718E+00	-4.36810497191E-01
3.04806981274E+05	-1.94077047468E+01	-1.70895610161E+02	8.49129864635E+00	-1.77698563241E+02	-5.44008882743E+01	-8.07830242526E+01	-6.02679862544E+00	-3.11447178920E-01
3.05027301270E+05	-1.93847557565E+01	4.65353260346E+01	8.29210741360E+00	-1.77878215179E+02	-4.95964808229E+01	7.01734529007E+01	-6.02185458038E+00	-1.76356532447E-01
3.05247780517E+05	-2.33501315533E+01	2.48062093891E+01	8.36720703571E+00	-1.78150868012E+02	-3.11637668015E+01	-4.13639684488E+01	-5.94765059011E+00	-9.37504289064E-01
3.05468419131E+05	-2.06501497357E+01	7.51028208433E+01	8.37682587552E+00	-1.77906090968E+02	-3.73159536232E+01	8.90415902030E+01	-6.05604660957E+00	1.73105387001E-01
3.05689217226E+05	-1.47968872099E+01	7.15549613944E+01	8.36792595767E+00	-1.78519176193E+02	-5.05137978352E+01	-1.27025737449E+02	-6.03277426648E+00	-2.05790336689E-01
3.05910174918E+05	-2.75630715503E+01	1.70677120107E+02	8.36923348399E+00	-1.77619045104E+02	-3.75704701602E+01	1.40253574916E+02	-6.07067684658E+00	-1.05115247984E-01
3.06131292322E+05	-2.27221187383E+01	-5.82413467064E+01	8.40007855870E+00	-1.77309287770E+02	-3.58669602559E+01	1.24480775926E+02	-6.09416119201E+00	1.18436334184E-02
3.06352569554E+05	-1.83312008458E+01	8.73584435707E+01	8.38266777853E+00	-1.78504293324E+02	-3.24327084667E+01	-1.36775693888E+00	-5.95795231377E+00	1.46113675646E-02
3.06574006730E+05	-2.19286179334E+01	-1.01385548231E+02	8.43538863638E+00	-1.77902143433E+02	-2.89580967790E+01	-1.26447026019E+02	-6.14578116193E+00	-1.05571997970E+00
3.06795603964E+05	-2.18209005323E+01	1.02624365299E+02	8.35135982797E+00	-1.78141059384E+02	-3.11369402338E+01	-2.15883016221E+01	-5.91801054578E+00	-5.30394600715E-01
3.07017361372E+05	-1.41749923689E+01	7.62123685286E+01	8.38993695760E+00	-1.78343204423E+02	-5.53915121927E+01	-1.21281811590E+02	-6.04683768502E+00	-4.16576981268E-01
3.07239279071E+05	-1.76275805255E+01	4.37897292855E+01	8.35553741858E+00	-1.77890153501E+02	-4.19661145659E+01	1.47679376808E+02	-6.07322943199E+00	-3.06681783963E-01
3.07461357176E+05	-2.01239220024E+01	1.37409552041E+02	8.45934897398E+00	-1.77935405072E+02	-4.65381015484E+01	-8.73248798476E+01	-6.04230456715E+00	-1.02347739542E-01
3.07683595803E+05	-1.74595220363E+01	4.89939904397E+01	8.30844761631E+00	-1.78052875458E+02	-3.75583333619E+01	-3.71518418304E+01	-6.00825303981E+00	-5.12554092120E-01
3.07905995068E+05	-1.63822481899E+01	8.87534165964E+01	8.38223338414E+00	-1.78280231670E+02	-4.61222579209E+01	6.87599705910E+01	-6.07277168677E+00	2.70199828276E-01
3.08128555087E+05	-1.44989386856E+01	-1.33408654859E+02	8.45032906407E+00	-1.77166647158E+02	-4.24541784582E+01	3.60361258402E+01	-5.99091356436E+00	-2.57059438779E-01
3.08351275976E+05	-1.59443185711E+01	-1.84127702122E+01	8.32131480582E+00	-1.77815876523E+02	-4.02976245236E+01	-8.67977592288E+00	-6.02657891768E+00	-2.09674713045E-01
3.08574157853E+05	-2.10275484414E+01	2.84101197391E+01	8.34907167980E+00	-1.77601333600E+02	-3.59867812413E+01	1.32872843463E+02	-6.02453902801E+00	2.38918408396E-01
3.08797200832E+05	-1.89841474899E+01	-1.13150012222E+02	8.38700523026E+00	-1.77610119975E+02	-4.92996710437E+01	-2.21141368658E+01	-6.04232159432E+00	-2.42038477743E-01
3.09020405031E+05	-1.61202579844E+01	5.26974124997E+01	8.35874258292E+00	-1.78258716119E+02	-3.96459800504E+01	5.69621706777E+01	-5.99742542022E+00	-3.26647053298E-02
3.09243770566E+05	-2.95029234483E+01	-3.16819885334E+01	8.40502482994E+00	-1.77822856070E+02	-4.29915462533E+01	-1.07853418723E+02	-6.10997755163E+00	-4.24199511834E-01
3.09467297553E+05	-3.10662331309E+01	1.17309684088E+02	8.36960226591E+00	-1.77715638111E+02	-3.94534739533E+01	1.75064163912E+02	-6.02944613506E+00	-8.83434097904E-02
3.09690986110E+05	-8.16185462847E+00	1.84688013326E+01	8.16672098857E+00	-1.78433590268E+02	-3.02824498173E+01	-1.76458305496E+02	-6.19476506057E+00	-1.64211297032E-01
3.09914836353E+05	-3.35277974471E+01	6.52365286455E+01	8.39883070364E+00	-1.77827812747E+02	-3.56940460105E+01	-1.02517558132E+02	-6.04307128599E+00	-7.20963766290E-01
3.10138848399E+05	-1.36753731127E+01	-2.94188769302E+01	8.29295941857E+00	-1.77658124384E+02	-4.70855013969E+01	1.77573740243E+02	-6.02168816359E+00	-1.58554412135E-01
3.10363022365E+05	-1.93863437883E+01	-2.22360001951E+00	8.33892511400E+00	-1.78049682550E+02	-3.78029728968E+01	5.14214216402E+01	-6.02307302614E+00	1.29158465298E-01
3.10587358368E+05	-1.50235211053E+01	4.63000343070E+01	8.31322814393E+00	-1.78469338412E+02	-4.28668816539E+01	-6.77795874910E+01	-6.03868044723E+00	-3.17802532931E-01
3.10811856525E+05	-1.43409789582E+01	6.01159646583E+01	8.33091641499E+00	-1.78413550435E+02	-5.52276229812E+01	7.39422676267E+01	-6.03759541455E+00	-2.77327108910E-01
3.11036516954E+05	-1.22272744851E+01	-5.07263746938E+01	8.26984443443E+00	-1.76519738688E+02	-3.50586243582E+01	1.30590201699E+02	-6.04547068710E+00	1.25986898007E-01
3.11261339771E+05	-1.17646817865E+01	8.92104096581E+01	8.33843895254E+00	-1.79150756258E+02	-3.76156256507E+01	1.21584458613E+02	-6.06053324550E+00	1.45714319417E-01
3.11486325094E+05	-2.16719871794E+01	-1.68261703576E+02	8.40030208147E+00	-1.77316553806E+02	-3.53838505038E+01	-6.91206148400E+01	-6.02613387748E+00	-3.10819988741E-01
3.11711473040E+05	-1.91438192821E+01	7.41969672992E+01	8.39979010138E+00	-1.78347780046E+02	-4.10721731016E+01	-8.75725389539E+01	-6.06394514071E+00	-4.37684163181E-01
3.11936783728E+05	-1.61403620353E+01	1.34594163888E+02	8.43541940005E+00	-1.78373028389E+02	-4.28974350513E+01	-6.72246626151E+01	-5.97864804705E+00	-2.70930598194E-01
3.12162257274E+05	-1.77161170963E+01	-3.45958571214E-01	8.23397853859E+00	-1.77960779555E+02	-4.16227133477E+01	-5.92791290915E+01	-6.07339660076E+00	-1.42914904318E-01
3.12387893797E+05	-2.60773655371E+01	1.37716861009E+01	8.33113151268E+00	-1.77885673051E+02	-3.67590457634E+01	1.32156098792E+02	-6.06622573355E+00	-8.82455682465E-02
3.12613693413E+05	-1.38116955796E+01	6.17960304403E+01	8.35747907860E+00	-1.78809624266E+02	-4.50257895063E+01	-7.95052399794E+01	-6.08467272417E+00	-4.27246589424E-01
3.12839656242E+05	-1.21728404665E+01	-1.65008288710E+02	8.59564953452E+00	-1.77724436422E+02	-3.47185247150E+01	1.64344915337E+02	-6.12328112655E+00	-1.49550445920E-01
3.13065782401E+05	-1.36383747354E+01	4.55352253867E+01	8.30196483335E+00	-1.78124276892E+02	-3.30439750650E+01	-1.38849864221E+02	-6.13618082540E+00	-3.36124491898E-01
3.13292072007E+05	-1.77014021893E+01	7.77447931602E+01	8.38911266801E+00	-1.77930497547E+02	-4.78644042779E+01	-9.74611317063E+01	-6.04908485384E+00	-5.18997517717E-01
3.13518525180E+05	-2.08996174348E+01	5.07394283358E+01	8.45947386736E+00	-1.77753256539E+02	-4.78251578107E+01	-1.25528357437E+02	-6.03522168988E+00	-5.58278903419E-02
3.13745142038E+05	-1.97692936663E+01	1.17499931170E+02	8.41732139302E+00	-1.78658000038E+02	-4.43825021065E+01	-1.18748874661E+02	-6.04324711603E+00	-6.30495252908E-01
3.13971922698E+05	-1.83455040848E+01	2.28078004195E+01	8.36584860720E+00	-1.77907784623E+02	-3.44539116803E+01	-4.42715743445E+01	-6.00368479902E+00	-4.78992956939E-01
3.14198867279E+05	-1.59407498797E+01	-1.32778265554E+02	8.48360102932E+00	-1.77097641660E+02	-4.03078467318E+01	2.96019704352E+01	-6.00132912055E+00	-2.02400412415E-01
3.14425975900E+05	-1.88215613399E+01	1.76408270964E+02	8.43056933230E+00	-1.77747413095E+02	-3.69760797640E+01	1.75884545927E+02	-6.13460983265E+00	-2.76636742814E-01
3.14653248680E+05	-1.37373097785E+01	9.00146803409E+00	8.25069035755E+00	-1.77864589609E+02	-3.09926883734E+01	-1.62781276966E+02	-6.16358182332E+00	-4.60063772940E-01
3.14880685736E+05	-2.42854607647E+01	-4.43570290223E+01	8.40009737167E+00	-1.77671547184E+02	-4.34571675508E+01	1.08370795330E+02	-6.04574031266E+00	-8.77722018019E-02
3.15108287188E+05	-2.45547542036E+01	-2.13245351277E+01	8.32565128696E+00	-1.77778045479E+02	-3.69313783269E+01	-7.00668665925E+01	-5.99267474878E+00	-6.24315693125E-01
3.15336053154E+05	-3.56999235909E+01	1.27364200531E+02	8.39006693969E+00	-1.77644944528E+02	-4.96433530140E+01	-5.04153572166E+01	-6.03010929767E+00	1.79402901928E-01
3.15563983753E+05	-2.48743233747E+01	-4.09342323856E+01	8.36398327663E+00	-1.77726553101E+02	-4.23430068902E+01	6.58727867647E+01	-6.02266422277E+00	-1.59628492163E-01
3.15792079105E+05	-1.81315952239E+01	6.19583883433E+01	8.31675129858E+00	-1.78633180654E+02	-5.05061547551E+01	5.19270376659E+01	-6.02938222974E+00	-2.28391264838E-01
3.16020339328E+05	-2.16895454482E+01	-9.19647697176E+01	8.38035545595E+00	-1.77839524006E+02	-3.56556023273E+01	-3.31238780330E+01	-5.98455593445E+00	-1.48439353247E-01
3.16248764542E+05	-1.54489400531E+01	1.85925078759E+01	8.31024717404E+00	-1.78202454927E+02	-3.21866985416E+01	5.59208426645E+01	-5.99553571291E+00	5.37705217185E-01
3.16477354866E+05	-2.14823084630E+01	-1.34512784371E+02	8.45142494734E+00	-1.77605924796E+02	-4.01365940405E+01	1.07358499037E+02	-6.08339972282E+00	-4.57080192185E-02
3.16706110419E+05	-1.31582117746E+01	3.88035343162E+01	8.23199843825E+00	-1.78683031811E+02	-4.72242149122E+01	1.13664167685E+02	-6.09826997711E+00	-1.52452087514E-01
3.16935031321E+05	-2.28235555388E+01	2.33785360884E+00	8.42535335626E+00	-1.77799881360E+02	-5.63785162247E+01	3.67816827951E+01	-6.02334233568E+00	-3.38401724391E-01
3.17164117691E+05	-1.60717981734E+01	9.25488021225E+01	8.41031219289E+00	-1.78235352178E+02	-3.81361218011E+01	-1.78118217668E+02	-6.02853476688E+00	-1.12801740369E-01
3.17393369648E+05	-1.34553063960E+01	1.60410046792E+01	8.20812496948E+00	-1.78129873910E+02	-4.42360405522E+01	-4.32966880213E+01	-6.01184975057E+00	-1.74239052359E-01
3.17622787313E+05	-9.36244982008E+00	1.43574988075E+02	8.61538942783E+00	-1.78767983219E+02	-3.50667258777E+01	-1.35284019047E+01	-5.98646765492E+00	-3.21970698474E-01
3.17852370806E+05	-1.78950214586E+01	-2.09880174170E+01	8.28226951908E+00	-1.77841503695E+02	-2.51662895798E+01	5.71719410361E+01	-5.94112945978E+00	8.47028535500E-01
3.18082120245E+05	-2.27494262621E+01	1.29521065763E+02	8.47066401480E+00	-1.77813989897E+02	-4.83897980106E+01	9.12931755817E+01	-6.04919168042E+00	-5.00117828899E-02
3.18312035752E+05	-2.20099471594E+01	2.33588041511E+01	8.34229723569E+00	-1.78007891981E+02	-4.87123910615E+01	-1.55092407530E+02	-6.03267233303E+00	-3.85658581293E-01
3.18542117445E+05	-1.43559853113E+01	1.09240250321E+02	8.42633775075E+00	-1.79023134045E+02	-3.90018075969E+01	1.71408900931E+02	-6.06832537022E+00	-3.09033695984E-01
3.18772365446E+05	-1.88172273230E+01	-1.00259155719E+02	8.42079019952E+00	-1.77576963004E+02	-4.54316883137E+01	7.84253752123E+01	-6.05396510261E+00	-2.06595401169E-01
3.19002779874E+05	-1.95053673128E+01	5.34643786204E+01	8.31831227210E+00	-1.78592713583E+02	-4.82910157625E+01	9.53332554902E+01	-6.02339407483E+00	-8.38791515174E-02
3.19233360850E+05	-1.77173418790E+01	-9.61910827371E+01	8.35932294956E+00	-1.77314795380E+02	-2.99857216091E+01	1.55994989164E+02	-6.17917821305E+00	-5.71433221763E-02
3.19464108494E+05	-1.59761130500E+01	7.06721530157E+01	8.32497920562E+00	-1.77986101386E+02	-2.57746608722E+01	1.71451278195E+02	-6.21991887931E+00	3.54566032740E-01
3.19695022927E+05	-1.63130903309E+01	2.90525269437E+01	8.30140249157E+00	-1.78538882692E+02	-3.99779739411E+01	-1.13881643125E+02	-6.04268081748E+00	-3.36411288608E-01
3.19926104268E+05	-2.64669141195E+01	4.19686951066E+01	8.33121812220E+00	-1.78119758305E+02	-4.36704823756E+01	3.41856858570E+01	-6.02663486073E+00	-1.24279764166E-01
3.20157352640E+05	-1.49929561949E+01	-1.56352575700E+01	8.29796768777E+00	-1.78021339289E+02	-6.53714666568E+01	-1.57073012756E+02	-6.05641462057E+00	-4.28926524415E-03
3.20388768162E+05	-1.50936796178E+01	2.15050708604E+01	8.33976470594E+00	-1.77842463538E+02	-3.86063567156E+01	-1.25851674636E+01	-5.97895301639E+00	-4.65087189452E-01
3.20620350955E+05	-2.09247524250E+01	2.16296775349E+01	8.34363484139E+00	-1.78330368006E+02	-4.60408663647E+01	1.55344809497E+02	-6.05181743496E+00	-7.78660455124E-02
3.20852101140E+05	-1.23057156491E+01	-1.18479804811E+02	8.46323311753E+00	-1.77337167691E+02	-3.75084452936E+01	-6.56064852286E+01	-6.07653120614E+00	-5.04695745101E-01
3.21084018839E+05	-2.49958910150E+01	-1.41658434013E+02	8.42503088559E+00	-1.77632962354E+02	-2.57027639331E+01	-1.59429399560E+02	-6.23883986574E+00	-5.71833453584E-01
3.21316104172E+05	-1.64975995073E+01	2.06146844489E+00	8.32488340717E+00	-1.77581338320E+02	-3.87251752046E+01	1.39600841659E+02	-6.06909971670E+00	-7.52743913061E-02
3.21548357261E+05	-1.90177255088E+01	1.51504780657E+01	8.35019434845E+00	-1.78212466475E+02	-5.21693372536E+01	1.00589049471E+02	-6.07292621172E+00	-2.43442276998E-01
3.21780778226E+05	-1.80821233830E+01	5.18812411287E+00	8.28934569765E+00	-1.77743720273E+02	-4.04317702758E+01	-7.98393903416E+01	-6.07938330850E+00	-2.69482752814E-01
3.22013367189E+05	-1.67099889735E+01	9.47216006416E+00	8.34127771511E+00	-1.78094690759E+02	-4.28235484260E+01	3.81442865087E+01	-6.08481899952E+00	-4.16690875911E-01
3.22246124272E+05	-2.00690646514E+01	8.22163065556E+01	8.34060797135E+00	-1.78155035737E+02	-3.94368438042E+01	9.82871263400E+01	-6.09841129608E+00	9.66044876284E-02
3.22479049596E+05	-7.18997669152E+00	-5.08818999061E+01	8.19874713590E+00	-1.76313291447E+02	-4.66317929677E+01	-4.60024289449E+01	-6.01765657001E+00	-4.61513604420E-01
3.22712143282E+05	-1.16347452758E+01	5.13938796028E+01	8.28114965850E+00	-1.78421382058E+02	-4.10787809265E+01	-2.41626056744E+01	-6.02511590017E+00	-3.74481960953E-01
3.22945405453E+05	-1.89505433556E+01	4.74649304498E+01	8.35398241140E+00	-1.78220511673E+02	-3.29846707232E+01	-1.07787672057E+02	-6.10935992359E+00	-7.62472418948E-01
3.23178836230E+05	-3.26741200780E+01	1.53026380564E+02	8.36174508901E+00	-1.78111041725E+02	-4.33216765724E+01	-8.12998155673E+01	-6.04779272047E+00	-5.49112757761E-01
3.23412435735E+05	-1.92942822774E+01	1.19540274127E+02	8.36657082692E+00	-1.78448196138E+02	-4.46914705595E+01	5.83820031129E+01	-6.04357429472E+00	-8.79882786774E-02
3.23646204090E+05	-1.83775171601E+01	3.07093632844E+01	8.31326196943E+00	-1.78151131058E+02	-4.20188377718E+01	-9.60285859214E+00	-6.02420287049E+00	-4.89081045821E-01
3.23880141417E+05	-1.78262785827E+01	2.66713704450E+01	8.36956434146E+00	-1.78036596969E+02	-3.94448108161E+01	1.50461519878E+02	-6.03825871487E+00	-3.59395998837E-02
3.24114247838E+05	-7.63051987185E+00	4.93182405146E+01	8.13955358878E+00	-1.79936918798E+02	-4.17626370506E+01	3.22367383704E+01	-5.99587415069E+00	-5.22264341926E-02
3.24348523475E+05	-1.42756147788E+01	2.54630270008E+01	8.27677888503E+00	-1.78120203544E+02	-3.42100954731E+01	6.30498249082E+01	-5.98360679508E+00	4.04261976520E-01
3.24582968451E+05	-2.56243546644E+01	-4.13316822107E+01	8.31556074867E+00	-1.77782099844E+02	-3.54342167527E+01	-1.39337361404E+02	-6.08826257966E+00	-4.15839198866E-01
3.24817582888E+05	-1.34378965545E+01	-1.19191326747E+01	8.23012395237E+00	-1.77882463702E+02	-3.99542144230E+01	1.17871788841E+02	-6.01394001046E+00	8.43628244593E-03
3.25052366909E+05	-1.48700950891E+01	5.95937923900E+01	8.32303175998E+00	-1.78144651751E+02	-5.50210956764E+01	1.21043771978E+02	-6.05482385762E+00	-2.69797506367E-01
3.25287320635E+05	-1.64249130617E+01	-2.86803080622E+01	8.28753845856E+00	-1.77720764072E+02	-4.24176399076E+01	-9.83922507542E+01	-6.04241662007E+00	-3.01019791689E-01
3.25522444191E+05	-1.99033039917E+01	2.06629219818E+01	8.31660585590E+00	-1.77857302951E+02	-4.84275587380E+01	1.24156731304E+02	-6.04727668145E+00	-2.70133448049E-01
3.25757737698E+05	-1.04444951737E+01	7.34567006159E+00	8.12728876663E+00	-1.77926212991E+02	-3.56099183523E+01	8.76339791849E+01	-6.02416845006E+00	2.39802022071E-01
3.25993201280E+05	-1.71918233914E+01	1.07348720579E+02	8.39431207751E+00	-1.78939818426E+02	-3.16476260839E+01	1.03314534380E+02	-5.96497784703E+00	3.71927400526E-01
3.26228835058E+05	-1.74254371453E+01	6.14871031434E+01	8.35501717229E+00	-1.78229425885E+02	-3.65063076671E+01	-1.61647609720E+02	-6.10030826170E+00	-3.96289739740E-01
