# Hz S DB R 50
! CMT, M5065, 19127446, 24.2.4/2
! Date: 11/1/2024 3:37:09 PM
! Data: Format (Calibration Info)
! Freq	S11:dB/Ang(F2)	S21:dB/Ang(F2)	S12:dB/Ang(F2)	S22:dB/Ang(F2)
3.00000000000E+05	-2.10772103126E+01	6.97129556154E+01	1.34521780023E+01	-1.77631196183E+02	-3.64917215998E+01	1.66451410785E+02	-6.12187846828E+00	8.69461062601E-02
3.00216845423E+05	-2.81723773180E+01	1.92940301861E+01	1.34626156226E+01	-1.77631834032E+02	-4.57005272019E+01	-1.52536810872E+02	-6.13368955995E+00	-3.34824456893E-01
3.00433847586E+05	-8.28890890434E+00	7.88508955716E+01	1.33942330412E+01	-1.79020335154E+02	-3.70834658460E+01	7.37817100032E+01	-6.01586076500E+00	2.68123715013E-01
3.00651006602E+05	-1.61182305272E+01	-4.22596384472E+00	1.33698979574E+01	-1.77424200429E+02	-3.29082798916E+01	1.23431136266E+02	-6.06711150904E+00	6.17800502098E-01
3.00868322584E+05	-2.75421075294E+01	-9.12393724149E+01	1.34438000140E+01	-1.77348128812E+02	-3.91000187672E+01	-9.74166630714E+00	-5.95388362263E+00	-2.88572097834E-01
3.01085795647E+05	-1.74857053860E+01	1.70016157700E+02	1.35646467731E+01	-1.77470809027E+02	-4.09354020255E+01	-1.21144838159E+02	-6.04088712440E+00	-5.55608947763E-01
3.01303425902E+05	-1.23136791059E+01	3.89791310475E+01	1.33767823650E+01	-1.78245945538E+02	-4.15062393972E+01	3.66833578423E+01	-6.01719890582E+00	-3.22578724473E-01
3.01521213465E+05	-2.15849961071E+01	-3.94115598488E+01	1.34259197557E+01	-1.77033035506E+02	-3.85898854986E+01	-1.65391318038E+02	-6.10447975673E+00	-4.84826323541E-01
3.01739158449E+05	-2.74120424439E+01	6.18746646675E+01	1.34586871161E+01	-1.77198110552E+02	-3.73132049492E+01	-1.56837502451E+02	-6.11574536908E+00	-4.42088622191E-01
3.01957260967E+05	-1.82621176231E+01	-8.68637451864E+01	1.34736282103E+01	-1.76902033260E+02	-3.92046207030E+01	1.78763293062E+02	-6.10618981563E+00	-1.86304157927E-01
3.02175521134E+05	-2.23455076282E+01	-1.38220531471E+01	1.34701618069E+01	-1.77365554457E+02	-2.80417647186E+01	2.40006121584E+01	-5.81017592113E+00	7.06561920847E-01
3.02393939063E+05	-1.74096986724E+01	-2.86451182784E+01	1.33670465093E+01	-1.77019022247E+02	-3.07973277616E+01	2.99723132942E+01	-5.84228363876E+00	2.88223141074E-01
3.02612514869E+05	-1.79506947557E+01	-1.00994500907E+01	1.33673763717E+01	-1.77479409523E+02	-3.91949128846E+01	-8.35848295094E+01	-6.00301116499E+00	-5.23645011088E-01
3.02831248665E+05	-1.88909115346E+01	-5.86390274142E+01	1.34134285787E+01	-1.77072499446E+02	-4.00288360168E+01	4.25637181129E+01	-5.98836604473E+00	-2.04685896271E-02
3.03050140565E+05	-1.77776937814E+01	-3.02720628222E+01	1.33561535152E+01	-1.77311429662E+02	-3.96830754137E+01	5.06529409117E+01	-5.99707293471E+00	9.54646077441E-02
3.03269190685E+05	-1.47865625988E+01	7.98595691746E+01	1.34747298441E+01	-1.78215353743E+02	-4.94973467542E+01	-5.34191161248E+01	-6.02582424093E+00	-3.84382292241E-01
3.03488399138E+05	-1.90463720305E+01	-8.06067036071E+01	1.34427747457E+01	-1.76543816900E+02	-3.54135775548E+01	1.18053386378E+02	-6.06292463851E+00	5.68603643508E-01
3.03707766039E+05	-1.93141683256E+01	1.49651243161E+02	1.34712585752E+01	-1.77730556216E+02	-4.25204301832E+01	1.76194794606E+02	-6.11118781649E+00	-6.94049890611E-02
3.03927291503E+05	-1.58905303302E+01	-3.48053275260E+01	1.33266713552E+01	-1.77365127565E+02	-2.99801530163E+01	6.30974189451E+00	-5.86128554761E+00	-1.39482322650E-01
3.04146975643E+05	-1.86278001579E+01	3.62439149378E+00	1.33874380164E+01	-1.77430316862E+02	-4.43420998117E+01	4.99226313170E-01	-6.02205078240E+00	-3.56075546824E-01
3.04366818575E+05	-1.73076233072E+01	2.44122803595E+01	1.34477717289E+01	-1.77769424165E+02	-4.26704459503E+01	2.77075965411E+01	-6.02006458419E+00	-6.86579099808E-03
3.04586820414E+05	-2.40553284367E+01	-7.82023098056E+01	1.34190681431E+01	-1.76899977061E+02	-3.72605236612E+01	-1.58063193472E+02	-6.08085499887E+00	-7.35716693017E-01
3.04806981274E+05	-1.30824606403E+01	1.82339815109E+01	1.33555068721E+01	-1.77888559999E+02	-4.08774160401E+01	1.54557543458E+02	-6.08998189094E+00	1.65810446499E-01
3.05027301270E+05	-1.11676980045E+01	1.44843061611E+01	1.32385507080E+01	-1.77665590426E+02	-3.58737936947E+01	1.54405284840E+02	-6.10590117473E+00	-3.23180233954E-01
3.05247780517E+05	-1.44092742378E+01	5.75933454803E+01	1.33502509812E+01	-1.78407908105E+02	-2.73736231921E+01	1.62693669735E+02	-6.30901003803E+00	4.58589296940E-01
3.05468419131E+05	-1.72234264744E+01	1.12216648380E+02	1.35214246671E+01	-1.77637934397E+02	-4.09482850637E+01	-5.87711209252E+01	-6.01652062696E+00	-5.16850973329E-01
3.05689217226E+05	-1.61597912420E+01	-6.48105223618E+00	1.33793555795E+01	-1.77441927250E+02	-4.18962384650E+01	-9.62214405080E+01	-6.03477212948E+00	-6.08560479212E-01
3.05910174918E+05	-2.54255895743E+01	6.02327400406E+01	1.34527058966E+01	-1.77570191640E+02	-3.96903431978E+01	-2.67651019378E+01	-6.02207519442E+00	-1.91830350647E-01
3.06131292322E+05	-2.21659777967E+01	3.34952942398E+01	1.33768208021E+01	-1.77793172818E+02	-3.91665225970E+01	-1.59197426768E+02	-6.11193713497E+00	-3.98333278211E-01
3.06352569554E+05	-2.15909299507E+01	7.61631219144E+01	1.34251968134E+01	-1.77705216771E+02	-3.32743978708E+01	-1.51066814142E+02	-6.15450372443E+00	-6.90025466906E-01
3.06574006730E+05	-8.88417748934E+00	3.62817079268E+01	1.32679455055E+01	-1.78367723477E+02	-3.72607434014E+01	-1.40921944741E+02	-6.10557557803E+00	-3.91718126622E-01
3.06795603964E+05	-1.71017126213E+01	-1.09156301438E+02	1.34471024968E+01	-1.76775982474E+02	-3.42200203474E+01	-4.46552038178E+01	-5.90269390269E+00	-5.24886828382E-01
3.07017361372E+05	-2.06806107444E+01	-8.23715960763E+01	1.35050522582E+01	-1.77191955536E+02	-3.70437169212E+01	-5.12413292993E+00	-5.92336884518E+00	5.26116602772E-02
3.07239279071E+05	-3.16211256014E+01	1.08371931998E+02	1.34556915612E+01	-1.77858579591E+02	-3.62466664044E+01	4.31027304502E+00	-5.95529431619E+00	9.43746662586E-02
3.07461357176E+05	-1.44339742371E+01	2.53586190934E+01	1.33618576021E+01	-1.77964772564E+02	-3.71955653707E+01	-1.59901816667E+02	-6.12071250418E+00	-3.89408347858E-01
3.07683595803E+05	-1.40298749404E+01	2.81255560357E+01	1.33125030794E+01	-1.78005855339E+02	-4.03335762903E+01	3.99163397611E+01	-5.97153674614E+00	1.78827852159E-01
3.07905995068E+05	-1.77480037018E+01	1.91170382301E+01	1.33235569759E+01	-1.77681186900E+02	-5.36247300926E+01	-5.94325265789E+01	-6.04482117090E+00	-9.92458502506E-02
3.08128555087E+05	-1.94677792750E+01	9.10288858913E+01	1.34108999219E+01	-1.78238629290E+02	-3.81922873149E+01	-4.00172682074E+01	-5.96035494944E+00	-4.98601057204E-01
3.08351275976E+05	-1.98826004534E+01	-3.39166042183E+00	1.34023031792E+01	-1.77837013639E+02	-3.69401251424E+01	-5.76105453593E+01	-5.99463993139E+00	-8.63128024550E-01
3.08574157853E+05	-1.95591988826E+01	6.48940845030E+01	1.33727537279E+01	-1.78098368458E+02	-4.20922842023E+01	8.53574776619E+00	-6.01750826809E+00	-3.11214546860E-01
3.08797200832E+05	-1.77692347968E+01	-8.92357954821E+01	1.34845074733E+01	-1.77183893645E+02	-3.97405059395E+01	-7.04978375600E+01	-6.05939710476E+00	-5.36891380539E-01
3.09020405031E+05	-2.30010335438E+01	-1.38609046200E+01	1.34385104019E+01	-1.77267959703E+02	-3.97882648560E+01	1.72012460168E+02	-6.08821348178E+00	-1.50665009340E-01
3.09243770566E+05	-1.97316591490E+01	9.73911182986E+01	1.34444949467E+01	-1.78076750659E+02	-3.56289263204E+01	1.95342246260E+01	-5.97719290116E+00	8.77825983089E-02
3.09467297553E+05	-1.38143335550E+01	1.28300519948E+01	1.33802505604E+01	-1.77805404402E+02	-4.76279116071E+01	-7.59050936152E+01	-5.98853572215E+00	-3.65563285617E-01
3.09690986110E+05	-1.58528060947E+01	-2.20236908823E+01	1.33703356713E+01	-1.77217405185E+02	-4.32718398674E+01	3.36777784712E+01	-5.99390501665E+00	-2.05844559048E-01
3.09914836353E+05	-1.15707367339E+01	5.11576609612E+00	1.32776128492E+01	-1.77474489845E+02	-4.01705365259E+01	7.62842891265E+01	-6.02189248651E+00	3.23887783824E-01
3.10138848399E+05	-2.65689715168E+01	1.74218477940E+02	1.34634097426E+01	-1.77617622028E+02	-3.59282628220E+01	-1.14905297283E+02	-6.13991797612E+00	-8.02710325258E-01
3.10363022365E+05	-4.65704639096E+01	-1.67531286741E+02	1.34339553823E+01	-1.77497358092E+02	-4.27392403974E+01	1.14210746210E+01	-5.97988674664E+00	-2.84524173573E-01
3.10587358368E+05	-1.55820911430E+01	-5.91629067796E+00	1.33585975596E+01	-1.77772059104E+02	-4.02748500606E+01	4.52172798109E+01	-6.01945973771E+00	2.86430710352E-01
3.10811856525E+05	-2.09191421804E+01	6.48037970569E+01	1.34233616821E+01	-1.78253564988E+02	-4.62334708959E+01	-1.74534710331E+02	-6.09786355794E+00	-2.02109251574E-01
3.11036516954E+05	-2.22837914375E+01	1.22372792903E+02	1.34740825494E+01	-1.78015082500E+02	-3.71863296816E+01	-1.12075814128E+02	-6.04704778760E+00	-5.63152656678E-01
3.11261339771E+05	-2.25981286793E+01	4.42697693459E+01	1.34618509138E+01	-1.78042231311E+02	-3.91444689794E+01	-6.22706968668E+01	-6.01846257618E+00	-2.73714074589E-01
3.11486325094E+05	-1.59527099654E+01	-2.90203626854E+01	1.33857485961E+01	-1.77215466215E+02	-4.29691435853E+01	-9.68017348913E+01	-6.02065864435E+00	-4.68862921801E-01
3.11711473040E+05	-1.66340777790E+01	4.27485443284E+01	1.33773373977E+01	-1.78141262971E+02	-4.39958605129E+01	-1.54447468004E+02	-6.05043419856E+00	-3.43935484110E-01
3.11936783728E+05	-1.71222019911E+01	2.44410653158E+00	1.33983866831E+01	-1.77667016669E+02	-3.42592316712E+01	-1.42862587146E+02	-6.09451006196E+00	-7.40206419163E-01
3.12162257274E+05	-2.01282392083E+01	6.57963392602E+01	1.34269630564E+01	-1.77829600194E+02	-3.93173855617E+01	-1.58789628836E+02	-6.05879006453E+00	-4.96190532026E-01
3.12387893797E+05	-2.86063861998E+01	9.98622105182E+01	1.34594165188E+01	-1.77604480116E+02	-4.26022546825E+01	-5.90552307971E+01	-6.03142127935E+00	-5.55650930065E-01
3.12613693413E+05	-2.03578466533E+01	5.48105390941E+01	1.34644526782E+01	-1.77731919580E+02	-4.29974138485E+01	1.70016620291E+02	-6.03425832074E+00	-2.07435144682E-01
3.12839656242E+05	-1.58242593537E+01	-2.12564988046E+01	1.33681324032E+01	-1.77057915286E+02	-3.85105390367E+01	1.45405587425E+02	-6.08402615565E+00	-1.43864734022E-01
3.13065782401E+05	-7.83751172303E+00	1.31693331457E+02	1.37041029249E+01	-1.78770278335E+02	-3.83859921680E+01	-8.07839256316E+01	-5.99115819814E+00	-6.76577139573E-01
3.13292072007E+05	-1.81858695387E+01	7.37040821622E+01	1.34829409913E+01	-1.78222448351E+02	-3.14822300370E+01	1.27184160122E+02	-6.18801637283E+00	6.81065055978E-01
3.13518525180E+05	-2.02373170467E+01	6.63558004257E+01	1.34594138283E+01	-1.78006298392E+02	-4.92716422630E+01	1.16008212052E+02	-6.07931557889E+00	3.18363596242E-02
3.13745142038E+05	-1.61425487748E+01	1.93632055351E+01	1.33410144280E+01	-1.77727986562E+02	-4.33533107936E+01	-7.26798332762E+01	-6.02579635060E+00	-5.02137571481E-01
3.13971922698E+05	-2.85040803763E+01	-1.25094322376E+02	1.34652298209E+01	-1.77517023055E+02	-4.50027750291E+01	1.36400367955E+02	-6.07553502286E+00	-1.54647254356E-01
3.14198867279E+05	-1.68367789094E+01	-2.35828901921E+01	1.33764863749E+01	-1.77353019760E+02	-4.27865311446E+01	4.94985587804E+01	-6.00154559366E+00	1.97005185484E-01
3.14425975900E+05	-1.86224083781E+01	-2.37865802322E+01	1.33597452309E+01	-1.77445384158E+02	-4.13557722490E+01	-1.04574844676E+02	-6.07818399498E+00	-4.44806049898E-01
3.14653248680E+05	-1.28183693382E+01	-1.33158550162E+02	1.35980421916E+01	-1.77053968487E+02	-4.40202266901E+01	-1.79033799844E+02	-6.09920713577E+00	-2.44083979431E-01
3.14880685736E+05	-1.99815639647E+01	1.29546208370E+01	1.34233068181E+01	-1.77890478101E+02	-2.86256232519E+01	-1.52011986970E+02	-6.22540305838E+00	-1.23848215019E+00
3.15108287188E+05	-1.85974158536E+01	6.36406489252E+01	1.34362007116E+01	-1.78207592306E+02	-3.25330402113E+01	-4.54941573532E+01	-5.94961154784E+00	-9.25915501077E-01
3.15336053154E+05	-2.32474715821E+01	1.62641059155E+02	1.34693788344E+01	-1.77868830802E+02	-4.11524933042E+01	3.87228623568E+01	-6.03590557170E+00	-6.09929652510E-02
3.15563983753E+05	-2.64408327015E+01	2.34687409061E+01	1.34266201675E+01	-1.77809255695E+02	-3.82989836066E+01	-1.07862756719E+02	-6.05318211421E+00	-7.27765128197E-01
3.15792079105E+05	-1.99048310858E+01	-6.78156870791E+01	1.34116315229E+01	-1.77425595054E+02	-4.02567941390E+01	1.11957278197E+02	-6.09022417835E+00	1.35681831680E-01
3.16020339328E+05	-2.25497100837E+01	1.08921540266E+02	1.34999516712E+01	-1.78180529335E+02	-4.41639701757E+01	4.54385136580E+01	-6.02476701067E+00	-2.74474198821E-01
3.16248764542E+05	-1.09533734868E+01	-5.97372027979E+01	1.33723443813E+01	-1.76437646472E+02	-4.86250598010E+01	9.81462671333E+01	-6.06250629134E+00	-1.57731221577E-01
3.16477354866E+05	-1.40550851697E+01	9.86184131612E+00	1.33415545168E+01	-1.77990204705E+02	-2.83348705296E+01	1.30442738289E+02	-6.21833728584E+00	1.05051191949E+00
3.16706110419E+05	-1.67160766700E+01	4.30315229414E+01	1.33977172001E+01	-1.78478347044E+02	-3.26261272537E+01	3.50402145324E+01	-5.93776881757E+00	4.06156123555E-01
3.16935031321E+05	-2.26806106251E+01	8.47377718535E+01	1.34653097594E+01	-1.78158400498E+02	-4.67267473701E+01	-1.20175859140E+02	-6.07566810333E+00	-5.71480590385E-01
3.17164117691E+05	-2.04740504365E+01	-6.21885138419E+01	1.34467665762E+01	-1.77389497979E+02	-4.62903128931E+01	1.60094449977E+02	-6.04947185274E+00	-2.91760582433E-01
3.17393369648E+05	-1.75337637102E+01	3.85531175506E+00	1.33663624747E+01	-1.77851269938E+02	-4.02455663334E+01	-1.36595404230E+02	-6.09374373815E+00	-5.67547003033E-01
3.17622787313E+05	-2.54963750298E+01	-4.76766945191E+01	1.34541147790E+01	-1.77443055996E+02	-3.84458422332E+01	6.79441534415E+00	-6.00303556521E+00	-3.11664621463E-01
3.17852370806E+05	-2.32976183761E+01	2.41350197214E+01	1.34073770072E+01	-1.77858973649E+02	-4.41734504251E+01	-1.97872028519E+01	-6.02656340661E+00	-2.23417627214E-01
3.18082120245E+05	-1.93012806126E+01	1.22039956200E+02	1.34692317764E+01	-1.78173811236E+02	-3.50651053973E+01	-3.37761382292E+01	-5.93823734472E+00	-9.68209289015E-01
3.18312035752E+05	-1.43728872357E+01	-5.51242651691E+01	1.33984922912E+01	-1.77232027588E+02	-3.05218478178E+01	8.98947953680E+01	-6.08266357257E+00	1.04073482042E+00
3.18542117445E+05	-2.30500417133E+01	-1.74712880127E+02	1.34649086241E+01	-1.77776670926E+02	-4.95020285773E+01	6.41085659708E+01	-6.03752289347E+00	-1.73649514314E-01
3.18772365446E+05	-1.19402049597E+01	-3.51509667526E+01	1.33836896212E+01	-1.77121003452E+02	-5.07848152446E+01	4.98984746168E+01	-5.99046129971E+00	-1.67565477591E-01
3.19002779874E+05	-2.35703633481E+01	-2.22548442432E+01	1.34250550070E+01	-1.77491696016E+02	-5.14471600951E+01	-2.12213512041E+01	-6.01367851995E+00	-3.12321880115E-01
3.19233360850E+05	-4.99977605386E+01	1.75401779934E+02	1.34695920349E+01	-1.77989459168E+02	-3.59607424843E+01	1.74828842481E+02	-6.12802671930E+00	-3.71591352768E-01
3.19464108494E+05	-1.26797624289E+01	1.03372041796E+02	1.34718954862E+01	-1.78966656394E+02	-3.92604956627E+01	-1.24975668542E+02	-6.05719451247E+00	-2.78648441811E-01
3.19695022927E+05	-2.44834334282E+01	4.38979554350E+01	1.34337222400E+01	-1.77933556771E+02	-2.94319457553E+01	-3.81438095701E+01	-5.85545018496E+00	-7.44232220371E-01
3.19926104268E+05	-2.07546845428E+01	-1.56327435796E+02	1.34650514640E+01	-1.77709815798E+02	-2.39230538878E+01	-1.40860757535E+01	-5.64693212259E+00	-4.28736845381E-01
3.20157352640E+05	-2.79634605127E+01	-1.14145574042E+02	1.34279672149E+01	-1.77743496094E+02	-3.97117935446E+01	1.13785289683E+02	-6.07674749760E+00	-9.17040304853E-02
3.20388768162E+05	-1.87550097446E+01	3.63240279948E+01	1.34245912982E+01	-1.78103456427E+02	-4.04207711793E+01	7.42730541659E+01	-5.98679556833E+00	-9.97273494426E-02
3.20620350955E+05	-2.62071009665E+01	2.09227275585E+01	1.34393717308E+01	-1.77889391345E+02	-4.17832709148E+01	-9.56074837190E+01	-6.01894677341E+00	-5.17353625422E-01
3.20852101140E+05	-1.95284370269E+01	-8.03992707395E+01	1.34503233026E+01	-1.77283802802E+02	-3.41311793455E+01	1.67736891202E+02	-6.13455719440E+00	-2.90132884383E-01
3.21084018839E+05	-1.96315524441E+01	-9.42345542993E+01	1.34798106203E+01	-1.77355421155E+02	-3.76941932370E+01	4.47170925044E+01	-6.02515549812E+00	6.76173583617E-02
3.21316104172E+05	-2.02225150632E+01	-5.76462770800E+01	1.34187407449E+01	-1.77606668911E+02	-3.61083164226E+01	-1.00956448017E+01	-5.94315479483E+00	-3.18758208736E-01
3.21548357261E+05	-2.48229675488E+01	1.33067803149E+02	1.34855120032E+01	-1.78004449629E+02	-3.04911853775E+01	1.25760540399E+02	-6.17529875705E+00	5.83808603835E-01
3.21780778226E+05	-2.77186069398E+01	1.28280919036E+02	1.34688144147E+01	-1.77725703753E+02	-5.49645727621E+01	-1.39770131942E+02	-6.09409663839E+00	-2.19306526585E-01
3.22013367189E+05	-1.41494818078E+01	2.87614800467E+01	1.33751066815E+01	-1.78379947233E+02	-3.67503190045E+01	-9.08687650057E+01	-6.03528738757E+00	-7.01843866464E-01
3.22246124272E+05	-1.81549169742E+01	-4.19464152962E+01	1.33673075398E+01	-1.77599033233E+02	-4.24106214234E+01	-9.03289353665E+01	-6.02591347905E+00	-7.40951410207E-01
3.22479049596E+05	-1.97681837263E+01	1.77616004951E+02	1.35634699170E+01	-1.77903996183E+02	-3.82581086098E+01	-1.65665362439E+02	-6.09615149451E+00	-6.23934216493E-01
3.22712143282E+05	-1.18568789691E+01	7.49801766391E+01	1.34323023100E+01	-1.78622544158E+02	-4.17577700373E+01	4.45553794878E-01	-6.00350154087E+00	-2.25406483263E-01
3.22945405453E+05	-1.65505366069E+01	3.02615346886E+01	1.32980600567E+01	-1.78205179934E+02	-3.63328639640E+01	1.47071129216E+02	-6.12429056328E+00	-3.33155244257E-01
3.23178836230E+05	-1.54668228920E+01	-9.87060339047E+00	1.33445819062E+01	-1.77790479727E+02	-4.67304098193E+01	-2.16485139410E+01	-5.98521597485E+00	-1.45049823071E-01
3.23412435735E+05	-1.81976221358E+01	4.21369365339E+00	1.34107808932E+01	-1.77981669995E+02	-4.10951681218E+01	-1.37585504219E+02	-6.07763477107E+00	-5.49766696147E-01
3.23646204090E+05	-2.23653831974E+01	9.39348259959E+01	1.34640230468E+01	-1.77914495151E+02	-3.32871020788E+01	-1.50795380239E+02	-6.14005631876E+00	-7.53948357128E-01
3.23880141417E+05	-2.02051664171E+01	7.34792897696E+01	1.34547264643E+01	-1.78449016450E+02	-3.88155692518E+01	-1.74329270067E+02	-6.08530237397E+00	-2.26908136957E-01
3.24114247838E+05	-2.66299667923E+01	-3.01761344007E+01	1.33814481371E+01	-1.78108557367E+02	-4.08384404410E+01	1.66803026184E+02	-6.06305008851E+00	6.98258932414E-02
3.24348523475E+05	-1.19271757031E+01	1.13992983124E+01	1.32935950110E+01	-1.78122375922E+02	-3.49715577736E+01	8.40960215756E+01	-5.99677424303E+00	2.67952748004E-01
3.24582968451E+05	-2.01241910012E+01	-1.04705035007E+02	1.34483429110E+01	-1.77841782894E+02	-3.86703286804E+01	-9.69904988833E+01	-6.04336266944E+00	-5.96465426861E-01
3.24817582888E+05	-2.27427181308E+01	8.57187742176E+00	1.33972704561E+01	-1.77832495489E+02	-3.32102484328E+01	1.54799305328E+02	-6.17753710855E+00	1.17929514508E-01
3.25052366909E+05	-2.83135968710E+01	2.81870490920E-01	1.34232816120E+01	-1.77827518728E+02	-3.49387791675E+01	-9.52517455663E+01	-6.04859980858E+00	-1.01050029636E+00
3.25287320635E+05	-2.18456363640E+01	3.05372074621E+01	1.33659720892E+01	-1.78486090036E+02	-4.01464924066E+01	6.93738148597E+01	-6.03648200351E+00	1.16901149434E-01
3.25522444191E+05	-1.64965952744E+01	1.43736593954E+01	1.33768170890E+01	-1.78181596378E+02	-3.76061436863E+01	9.29668231356E+01	-6.03585744206E+00	2.12067426487E-01
3.25757737698E+05	-2.47285393065E+01	9.84089426115E+01	1.34645360803E+01	-1.78195513118E+02	-3.87048287429E+01	9.90807055304E+01	-6.05614078733E+00	1.30880138538E-01
3.25993201280E+05	-8.38839842358E+00	-6.71483934991E+01	1.34369444055E+01	-1.76402707545E+02	-3.82259975488E+01	-1.08483996402E+02	-6.07634285383E+00	-5.68702744562E-01
3.26228835058E+05	-2.10943113920E+01	9.64361079394E+00	1.34554151772E+01	-1.77865553945E+02	-4.06829973973E+01	-6.75267535837E+01	-6.02334108266E+00	-4.58766033131E-01
