# Hz S DB R 50
! CMT, M5065, 19127446, 24.2.4/2
! Date: 11/1/2024 3:30:14 PM
! Data: Format (Calibration Info)
! Freq	S11:dB/Ang(F2)	S21:dB/Ang(F2)	S12:dB/Ang(F2)	S22:dB/Ang(F2)
3.00000000000E+05	-1.86799499857E+01	1.28820553880E+02	1.01168881427E+01	-1.77571207969E+02	-3.14924998799E+01	-2.04130879825E+01	-5.94931743682E+00	-5.14328080147E-01
3.00216845423E+05	-1.41583805241E+01	3.98234865616E+01	9.95895622323E+00	-1.77906096760E+02	-3.19351898513E+01	-9.34155405865E+01	-6.05034682545E+00	-8.48231170671E-01
3.00433847586E+05	-1.59665457841E+01	3.47423084063E+01	9.98749448986E+00	-1.78044662413E+02	-3.61515613960E+01	-1.35974196938E+02	-6.06942827328E+00	-4.54393818963E-01
3.00651006602E+05	-1.31671027901E+01	-5.40965818367E+01	9.97881324076E+00	-1.76944196996E+02	-4.81642981751E+01	-3.03016317022E+01	-6.06792590975E+00	-6.30528717911E-01
3.00868322584E+05	-2.03733092664E+01	-4.12249387827E+01	9.99592475183E+00	-1.77895563728E+02	-4.37686859269E+01	-1.77286941235E+02	-6.06386074192E+00	-1.39143811558E-01
3.01085795647E+05	-1.62656045931E+01	5.13129413241E+01	9.98063358979E+00	-1.77753936361E+02	-3.56048916310E+01	-4.82106036418E+01	-5.99119611004E+00	-5.87380799188E-01
3.01303425902E+05	-2.19143170325E+01	5.92088484012E+01	1.00715358572E+01	-1.77965723076E+02	-4.03263955095E+01	1.41162332145E+02	-6.05474960491E+00	-1.47502296161E-01
3.01521213465E+05	-2.21861001416E+01	1.81770319935E+00	9.99923015484E+00	-1.77379904915E+02	-2.65428081118E+01	-1.47249240969E+02	-6.24180061607E+00	-8.25933446102E-01
3.01739158449E+05	-2.57390823275E+01	2.32689555044E+01	1.00369956097E+01	-1.77442578090E+02	-4.42120387050E+01	9.47307369138E+01	-6.08220585250E+00	-2.57205829977E-01
3.01957260967E+05	-1.86732759293E+01	-5.72348406876E+01	1.00306915572E+01	-1.77038616319E+02	-5.72619295256E+01	-1.03027634263E+02	-6.03130590847E+00	-1.17822967467E-01
3.02175521134E+05	-1.75063846307E+01	5.30211285810E+01	9.98883454971E+00	-1.77914004487E+02	-4.24406167203E+01	-1.23053613378E+02	-6.04432685318E+00	-5.88417487921E-01
3.02393939063E+05	-1.26173471644E+01	6.87623316098E+01	1.00062119973E+01	-1.78204302609E+02	-4.14223208662E+01	-1.48873005293E+02	-6.07576403489E+00	-4.92532691508E-01
3.02612514869E+05	-2.06274969915E+01	3.90874301890E+01	9.99587710548E+00	-1.78042271168E+02	-3.31338507442E+01	-2.92934633999E+01	-5.93217390503E+00	-2.58039618701E-01
3.02831248665E+05	-2.00888466826E+01	-2.71742234823E+01	1.00065454653E+01	-1.77407934515E+02	-3.76433380182E+01	-3.44020380636E+01	-5.96555302574E+00	-5.09511399556E-01
3.03050140565E+05	-2.59554144665E+01	6.04407707470E+01	1.00184244528E+01	-1.78064333476E+02	-3.29860142289E+01	1.16286209512E+02	-6.12224700272E+00	1.78416809580E-01
3.03269190685E+05	-1.21877822067E+01	-1.55892705740E+02	1.02500084844E+01	-1.77116566699E+02	-2.89675986981E+01	-6.17277224640E+01	-5.94502862112E+00	-1.24964195905E+00
3.03488399138E+05	-1.77181972476E+01	1.46221400482E+02	1.01523989684E+01	-1.78182520357E+02	-3.99318297200E+01	-1.40611251005E+02	-6.06364792258E+00	-4.94816717749E-01
3.03707766039E+05	-1.38407239565E+01	1.08570415480E+01	9.97092697267E+00	-1.77716303589E+02	-4.02450251051E+01	7.50058264063E+01	-5.98836105224E+00	1.53768988803E-02
3.03927291503E+05	-1.90259740739E+01	3.65908866850E+00	9.96515762794E+00	-1.77822132402E+02	-4.05944931515E+01	9.27853243658E+00	-6.04502705735E+00	1.19421491424E-01
3.04146975643E+05	-1.56246937488E+01	3.86819994289E+01	9.95668725200E+00	-1.78174406235E+02	-3.37766622527E+01	-1.35768109138E+02	-6.08762984809E+00	-5.53501354350E-01
3.04366818575E+05	-1.71837021370E+01	8.34951391519E+01	1.00374007599E+01	-1.78331511360E+02	-3.39672100373E+01	-3.53342304932E+01	-5.97498620204E+00	-6.99637544714E-02
3.04586820414E+05	-1.81772730204E+01	8.12939752896E+01	1.00239454416E+01	-1.77896134887E+02	-4.14507925535E+01	-8.48987776255E+00	-5.99723287078E+00	-2.39005452733E-01
3.04806981274E+05	-2.95555102047E+01	-1.01802260357E+02	1.00444788993E+01	-1.77451451146E+02	-3.22439550471E+01	1.69590051126E+02	-6.15194909019E+00	2.57963685408E-02
3.05027301270E+05	-1.02694760174E+01	-4.60334963466E+01	9.94912661601E+00	-1.76368935972E+02	-4.24842717243E+01	1.23889266745E+02	-6.02993282519E+00	-5.06400424131E-01
3.05247780517E+05	-1.75462490701E+01	3.63938204081E+01	9.94314546173E+00	-1.78215182294E+02	-3.74663133681E+01	-1.37187685948E+02	-6.11426670151E+00	-5.94196207382E-01
3.05468419131E+05	-2.53127569314E+01	-1.29545692468E+01	1.00186428145E+01	-1.77219184865E+02	-3.67322702281E+01	-1.39128267440E+02	-6.05612932629E+00	-5.71746250037E-01
3.05689217226E+05	-2.83038041454E+01	-8.42697517169E+01	1.00094803484E+01	-1.77453737008E+02	-5.06839604154E+01	1.77693549769E+02	-6.04448954306E+00	-2.14004350542E-01
3.05910174918E+05	-2.91714375178E+01	8.22112170199E+01	1.00480238112E+01	-1.77698017807E+02	-5.14160621983E+01	1.05496797000E+02	-6.04186451842E+00	-1.49400038958E-01
3.06131292322E+05	-2.47533873467E+01	1.23421496585E+02	1.00349692913E+01	-1.77779022524E+02	-5.14709970609E+01	1.09141715106E+02	-6.02989281114E+00	-2.56575473977E-01
3.06352569554E+05	-1.15780987061E+01	1.68214970515E+01	9.94011309330E+00	-1.77787656359E+02	-3.04883313086E+01	-3.23746974474E+01	-5.92312848768E+00	-6.14492682787E-01
3.06574006730E+05	-1.27649036833E+01	-1.57772643080E+02	1.02332420333E+01	-1.77235940139E+02	-3.15052445350E+01	4.08181877711E+01	-5.98027896519E+00	2.19979525398E-01
3.06795603964E+05	-2.01755661657E+01	-1.54507076688E+01	9.92243065944E+00	-1.77967243151E+02	-3.95703384243E+01	-1.43065112600E+02	-6.08983030486E+00	-3.83315528074E-01
3.07017361372E+05	-2.05638582262E+01	-6.00266336975E+01	1.00198207680E+01	-1.77851223570E+02	-5.21562706700E+01	-6.27488155963E+00	-6.02399302880E+00	-1.16054007828E-01
3.07239279071E+05	-2.51800328879E+01	-1.64311384240E+02	1.00418957995E+01	-1.77757320526E+02	-3.65474750487E+01	-1.15578407790E+02	-6.07352175306E+00	-5.72443750592E-01
3.07461357176E+05	-1.49040009222E+01	9.65867670591E+01	1.00047721595E+01	-1.78106766911E+02	-3.77814829276E+01	-1.40860910058E+02	-6.06258845764E+00	-2.81689814302E-01
3.07683595803E+05	-1.98840307092E+01	9.15929051207E+01	9.97396515824E+00	-1.78094070680E+02	-2.53020852145E+01	-1.21977352156E+02	-6.17066909609E+00	-1.57007669417E+00
3.07905995068E+05	-1.25033770988E+01	-1.49191936697E+01	9.93227190322E+00	-1.77340743226E+02	-2.68434385753E+01	-3.16119344152E+01	-5.87122813940E+00	-9.78263079491E-01
3.08128555087E+05	-2.95244319629E+01	1.35144922127E+02	1.00686696462E+01	-1.77556524458E+02	-4.05155456335E+01	7.97925740872E+01	-6.03553676601E+00	-4.69567709650E-02
3.08351275976E+05	-2.44584713528E+01	2.88963874356E+01	1.00647562889E+01	-1.77608372577E+02	-4.76499407819E+01	1.20935709862E+02	-6.06872473540E+00	-2.16946955307E-01
3.08574157853E+05	-3.19084746241E+01	1.37014286714E+02	1.00353572338E+01	-1.77495551262E+02	-3.73436311658E+01	1.07308893836E+02	-6.05151204230E+00	1.67974540809E-01
3.08797200832E+05	-1.91445702330E+01	3.06575338801E+01	1.00054673931E+01	-1.77643519211E+02	-3.78888355149E+01	-1.66527360173E+02	-6.09229038402E+00	-4.61042488424E-01
3.09020405031E+05	-1.74950437563E+01	5.15953406846E+01	1.00139177496E+01	-1.77940765716E+02	-5.39666367142E+01	-6.16855860096E+01	-6.05496424164E+00	-1.66516037526E-01
3.09243770566E+05	-1.53950655517E+01	-4.53180656115E+01	1.00253438422E+01	-1.77430355297E+02	-2.59573163694E+01	1.52528035438E+02	-6.25098884193E+00	3.55656106316E-01
3.09467297553E+05	-2.20306135591E+01	2.17920528847E+01	9.96621584494E+00	-1.77844772122E+02	-3.53581247269E+01	1.25989176826E+02	-6.12232473298E+00	1.04847747338E-01
3.09690986110E+05	-1.10430007852E+01	-4.18948478489E+01	9.86573335017E+00	-1.76823868311E+02	-4.18617089769E+01	2.74899945932E+01	-6.06500427110E+00	-1.63583791968E-01
3.09914836353E+05	-3.43221389019E+01	-1.43818263369E+02	1.00274664472E+01	-1.77820450026E+02	-3.95989380614E+01	3.09375225813E+01	-6.03732001198E+00	-2.43867072057E-02
3.10138848399E+05	-2.03702185355E+01	1.02241398678E+01	1.00034189842E+01	-1.77510298558E+02	-4.90204864451E+01	-1.32511958803E+02	-6.02269113131E+00	-3.01594073986E-01
3.10363022365E+05	-1.71686700868E+01	-8.31862264626E+00	9.94638599913E+00	-1.77504539777E+02	-4.54214204287E+01	5.94145362501E+01	-6.04904047749E+00	-3.31079751577E-01
3.10587358368E+05	-1.77098651003E+01	1.79358324618E+01	1.00119504916E+01	-1.78247604052E+02	-4.35901250171E+01	1.20863644433E+02	-6.07805491499E+00	1.07917727615E-01
3.10811856525E+05	-2.10975298003E+01	7.19633659631E+01	9.99969930817E+00	-1.78075589554E+02	-3.63809676109E+01	2.68806981968E+01	-5.94923699305E+00	6.66770130483E-02
3.11036516954E+05	-1.71348586770E+01	4.19325493796E+01	9.99050750652E+00	-1.78101051601E+02	-3.13549629967E+01	-4.44718607610E+01	-5.92527692974E+00	-6.61281540081E-01
3.11261339771E+05	-1.99539707144E+01	7.16634879246E+01	1.00787420654E+01	-1.78746027686E+02	-3.93375598166E+01	-2.56159383480E+01	-6.00102144415E+00	-3.72813631708E-01
3.11486325094E+05	-2.16915482207E+01	1.23947434715E+02	1.00926137516E+01	-1.77879241930E+02	-4.29645014889E+01	4.71420248568E+01	-6.01164501944E+00	-2.69997876100E-01
3.11711473040E+05	-1.70566396354E+01	7.91326836854E+01	1.00113206301E+01	-1.78932142337E+02	-3.36792235822E+01	-5.52822732021E+01	-6.02352883628E+00	-6.11474301195E-01
3.11936783728E+05	-1.76249338810E+01	-8.46770952575E+00	1.00179698962E+01	-1.77397386348E+02	-4.11994447435E+01	-1.07983643705E+02	-6.05927957071E+00	-4.79106550632E-01
3.12162257274E+05	-1.70507226947E+01	5.31883828358E+01	9.93685248782E+00	-1.78205178389E+02	-4.03901062735E+01	-2.75348634763E+01	-6.03530691649E+00	-4.64344261091E-01
3.12387893797E+05	-1.37078410151E+01	5.51957092246E+01	9.97443061779E+00	-1.78132694324E+02	-3.18773557049E+01	1.14479791914E+02	-6.09103743094E+00	9.22614894305E-01
3.12613693413E+05	-1.96211473480E+01	6.85440350258E+01	1.00162235657E+01	-1.78084157934E+02	-3.07723446187E+01	-7.65942759077E+01	-6.02064722269E+00	-1.13276137857E+00
3.12839656242E+05	-1.84300565574E+01	-5.44571521771E+01	1.00024109951E+01	-1.77520411027E+02	-4.46515755378E+01	7.36500309895E+01	-6.06084511739E+00	8.40391670630E-02
3.13065782401E+05	-1.13314584753E+01	5.46031026653E+01	9.89568765272E+00	-1.78912264153E+02	-3.90881086363E+01	-1.13271525773E+02	-6.03846039989E+00	-6.04380102789E-01
3.13292072007E+05	-1.89965814801E+01	9.57456651363E+00	9.95257277617E+00	-1.78103295704E+02	-4.18999313932E+01	-1.26400381128E+02	-6.08225170615E+00	-5.09090059090E-01
3.13518525180E+05	-1.69114756947E+01	6.74350915743E+01	1.00018233592E+01	-1.78398196316E+02	-4.08872593465E+01	-9.71304965675E+01	-6.04949881131E+00	-5.20776100361E-01
3.13745142038E+05	-1.83839830938E+01	1.14078217890E+02	1.00660430770E+01	-1.77982734846E+02	-3.56559634421E+01	8.17684342883E+01	-6.10074437915E+00	3.29210901597E-01
3.13971922698E+05	-2.62560893496E+01	-6.41427298428E+01	9.97983047917E+00	-1.77783570241E+02	-3.10140127304E+01	1.71609393032E+02	-6.15179646938E+00	9.06610485014E-03
3.14198867279E+05	-1.55010162695E+01	2.86884832817E+01	9.92684194534E+00	-1.77899204899E+02	-3.33630680043E+01	3.07578614183E+01	-5.92587265289E+00	-2.71892137699E-01
3.14425975900E+05	-1.60383869525E+01	1.75852058965E+02	1.01926692542E+01	-1.77940031326E+02	-4.34977926253E+01	1.11356722775E+02	-6.05452854230E+00	1.35802120589E-01
3.14653248680E+05	-1.86538366731E+01	-1.44418448191E+02	1.01469933127E+01	-1.77277177165E+02	-4.44830487518E+01	-9.09324917038E+01	-6.03493683937E+00	-4.75211098839E-01
3.14880685736E+05	-1.52883205274E+01	1.03657740559E+02	1.00025223438E+01	-1.78428636241E+02	-4.31905328365E+01	3.99461188762E+01	-6.04539262412E+00	1.25209197562E-01
3.15108287188E+05	-4.05914536108E+01	-1.28452341036E+02	9.97886576939E+00	-1.77812809635E+02	-3.56017445347E+01	-2.08972364146E+01	-5.98488478030E+00	-5.65927105311E-01
3.15336053154E+05	-1.74408057016E+01	7.66827724924E+00	9.95984278036E+00	-1.78062992327E+02	-3.67328128557E+01	-8.25067326478E+01	-6.02694987266E+00	-7.68738834485E-01
3.15563983753E+05	-1.12382903421E+01	7.36437905016E+01	9.98785997024E+00	-1.78539561396E+02	-3.30271573946E+01	-3.83274507162E+01	-5.96883459155E+00	-6.79114038782E-01
3.15792079105E+05	-1.76384772027E+01	6.72849245379E+01	9.92517480907E+00	-1.78103784916E+02	-2.90740385112E+01	-2.47608577963E+01	-5.93774989435E+00	-5.78142932563E-01
3.16020339328E+05	-1.13185036608E+01	-1.36847196205E+02	1.02263460222E+01	-1.76819307895E+02	-4.16139972105E+01	-1.29357291760E+02	-6.06032583841E+00	-1.79256656549E-01
3.16248764542E+05	-1.24135085328E+01	1.48285643590E+01	9.80144757982E+00	-1.78125421624E+02	-4.11432182132E+01	6.10981456288E+01	-6.01357928277E+00	-3.64470745799E-01
3.16477354866E+05	-2.47146232514E+01	7.41578269210E+01	1.00059944671E+01	-1.78013795667E+02	-4.01415554542E+01	1.52172762320E+02	-6.07142586093E+00	1.41626859734E-03
3.16706110419E+05	-1.62713997050E+01	7.47628949819E+01	1.00067034162E+01	-1.78505309362E+02	-4.78271012428E+01	-1.13593524059E+02	-6.03757863470E+00	-2.12576261968E-01
3.16935031321E+05	-1.49198200902E+01	1.02769297170E+02	1.00761732824E+01	-1.78188546343E+02	-4.00144259221E+01	1.58595824430E+02	-6.08527384705E+00	-4.04190904302E-01
3.17164117691E+05	-1.40447380564E+01	7.03900448349E+01	1.00018413276E+01	-1.78649216110E+02	-3.31674108056E+01	-1.78913962847E+02	-6.16994594665E+00	-1.84682841407E-01
3.17393369648E+05	-9.15060271270E+00	4.61911212201E+01	9.93925804484E+00	-1.78831606076E+02	-3.05833936479E+01	-1.68035838244E+02	-6.15489787985E+00	-1.34079966135E-01
3.17622787313E+05	-1.54765655009E+01	-1.11169497718E+01	9.94244701652E+00	-1.78020175023E+02	-3.96648583341E+01	1.31698297213E+02	-6.06775489894E+00	6.94437797888E-02
3.17852370806E+05	-2.27943642635E+01	-1.28745107795E+02	1.00802922646E+01	-1.77438086048E+02	-4.02126771919E+01	-1.22148305719E+02	-6.07487309155E+00	-5.23973613242E-01
3.18082120245E+05	-2.06787694795E+01	-1.09158041665E+01	1.00211987609E+01	-1.77904446467E+02	-5.09588396702E+01	-3.50182781441E+01	-6.05133427243E+00	-1.99016109040E-01
3.18312035752E+05	-3.00422696168E+01	1.23436509840E+01	1.00717889744E+01	-1.78118142526E+02	-5.22082487458E+01	-1.94857898933E+01	-6.06250280326E+00	-1.59859321221E-01
3.18542117445E+05	-1.95282888406E+01	4.29957374183E+01	9.96142681369E+00	-1.78144184534E+02	-4.10742598926E+01	5.32352952206E+01	-6.05295088518E+00	-1.30794462209E-02
3.18772365446E+05	-2.06911019104E+01	-1.58478131383E+01	1.00163458675E+01	-1.78149166533E+02	-3.44212745105E+01	3.31789280782E+01	-6.01602510416E+00	4.69524588318E-02
3.19002779874E+05	-1.72882302104E+01	1.13143452957E+02	1.00692454668E+01	-1.78754834277E+02	-2.51582350592E+01	-1.44448641201E+02	-6.26039296154E+00	-1.42903493634E+00
3.19233360850E+05	-1.34648687913E+01	2.65041271661E+01	9.89942137068E+00	-1.78162231106E+02	-3.49728354776E+01	1.35333085825E+02	-6.08021362137E+00	-4.82114767903E-02
3.19464108494E+05	-1.41905053164E+01	3.04339979363E+00	9.95214166452E+00	-1.78066560993E+02	-5.13791406641E+01	-3.53302866282E+00	-6.00259166724E+00	-2.59330362862E-01
3.19695022927E+05	-1.49928351011E+01	1.17491675597E+01	9.92108868787E+00	-1.77732456752E+02	-3.98098550839E+01	1.44988980790E+02	-6.04286066958E+00	-2.88874802426E-01
3.19926104268E+05	-1.60355473728E+01	-2.35464324713E+01	1.00161539312E+01	-1.77759574948E+02	-5.38133986809E+01	7.05270309685E+01	-6.04438956931E+00	-4.42758257244E-03
3.20157352640E+05	-1.44042614048E+01	-2.38239156276E+01	9.90742014595E+00	-1.77337274523E+02	-6.03011762161E+01	8.07174665488E+01	-6.09515633425E+00	2.68154847676E-02
3.20388768162E+05	-2.52219734173E+01	1.77453935354E+00	9.96187875931E+00	-1.77902135436E+02	-4.08433230594E+01	1.56740918324E+02	-6.05805656657E+00	-2.25318560225E-01
3.20620350955E+05	-1.78869640117E+01	3.54301389554E+01	9.95756077881E+00	-1.78087186551E+02	-3.07907586899E+01	1.76560711828E+02	-6.19374335305E+00	-8.26970936664E-02
3.20852101140E+05	-2.47056022768E+01	1.77218885856E+02	1.01527673707E+01	-1.78230497872E+02	-3.79084751841E+01	7.84301110454E+00	-6.01976339505E+00	-3.81359727388E-01
3.21084018839E+05	-6.79909708998E+00	-2.85646877453E+01	9.75835982517E+00	-1.76703054200E+02	-4.14304171840E+01	-3.31330345489E+01	-5.96837156760E+00	-3.68220239107E-01
3.21316104172E+05	-1.76728801385E+01	1.70332674970E+02	1.00867536336E+01	-1.78072573685E+02	-3.54824034398E+01	-1.90887894091E+01	-6.01612286229E+00	-2.96699504219E-01
3.21548357261E+05	-1.76428586719E+01	5.80381763585E+01	9.98690428763E+00	-1.78293385627E+02	-3.37302142178E+01	1.65500428455E+02	-6.09462801555E+00	-3.25448293023E-03
3.21780778226E+05	-1.33143698538E+01	8.48515063959E+01	9.95670498435E+00	-1.78788149591E+02	-3.94218250230E+01	-1.07858907660E+02	-6.02683231589E+00	-6.08435559604E-01
3.22013367189E+05	-1.88529320136E+01	4.75615454744E+01	9.95969163714E+00	-1.78460401205E+02	-4.09797603789E+01	5.65448690525E+01	-6.03128629582E+00	-1.24921525575E-01
3.22246124272E+05	-2.07494199778E+01	2.43828631062E+01	9.97257143382E+00	-1.78326507757E+02	-2.99392575221E+01	2.84314197992E+01	-5.91001652860E+00	-8.45673893329E-03
3.22479049596E+05	-1.79848848379E+01	6.12389201824E+01	1.00134079878E+01	-1.78618007187E+02	-4.51158931057E+01	1.14453821257E+02	-6.04624548562E+00	-6.51326060614E-02
3.22712143282E+05	-1.06917062226E+01	8.14025797695E+01	1.00128045261E+01	-1.79151979813E+02	-3.64635532228E+01	1.43168926611E+02	-6.11709957558E+00	1.03807737971E-01
3.22945405453E+05	-2.54292509409E+01	-1.17005938874E+01	1.00258124411E+01	-1.77660724575E+02	-4.54980354712E+01	-1.58468639311E+02	-6.06920345934E+00	-3.88028291760E-01
3.23178836230E+05	-1.80330692422E+01	7.59901417809E+01	1.00678871285E+01	-1.78528856345E+02	-3.50808767349E+01	-1.63410383899E+02	-6.13878979022E+00	-2.50801099463E-01
3.23412435735E+05	-2.07929418575E+01	1.03086083264E+02	1.00798744099E+01	-1.78281063043E+02	-4.10711300945E+01	-1.24591456482E+01	-6.02760742867E+00	-3.46072373011E-01
3.23646204090E+05	-2.32339472611E+01	-6.07458121305E+01	9.98157193806E+00	-1.77656625941E+02	-3.44257501638E+01	-1.23170931737E+02	-6.07360950337E+00	-5.83159371378E-01
3.23880141417E+05	-2.23979354130E+01	3.92015242321E+01	9.99613824118E+00	-1.78473290888E+02	-2.94401982120E+01	-1.74560320253E+02	-6.23511056560E+00	-4.79963359109E-01
3.24114247838E+05	-1.52461601040E+01	1.53682054089E+02	1.01869787182E+01	-1.78675297757E+02	-4.05193578859E+01	-6.17008022471E-01	-5.96225321799E+00	-2.19569641132E-01
3.24348523475E+05	-1.29273654866E+01	4.86398294235E+01	9.91958621622E+00	-1.78950153693E+02	-3.68801910787E+01	1.20285800492E+02	-6.10536097095E+00	1.53156496499E-01
3.24582968451E+05	-1.78552344450E+01	1.87984435994E+01	9.95607975946E+00	-1.78250810887E+02	-4.44855842742E+01	1.58313542620E+02	-6.05978593835E+00	1.14125744799E-01
3.24817582888E+05	-2.06525890073E+01	4.77592908338E+01	9.99153067734E+00	-1.77922994676E+02	-3.86379738992E+01	-9.78927518000E+01	-6.07258670821E+00	-6.32326786343E-01
3.25052366909E+05	-1.62079943411E+01	4.65071698534E+01	9.98196021630E+00	-1.78376039427E+02	-3.96568447594E+01	-4.53008096932E+01	-6.00172514558E+00	-5.41739487314E-01
3.25287320635E+05	-1.49274275502E+01	3.66552048118E+01	9.96570575249E+00	-1.78590663401E+02	-5.76349300833E+01	-1.35402364859E+02	-6.05051921260E+00	-1.57406213339E-01
3.25522444191E+05	-2.06585156468E+01	-1.31215554325E+02	1.00655362095E+01	-1.77865015329E+02	-3.36381818606E+01	-8.22322193201E+01	-6.06909047144E+00	-9.60461867186E-01
3.25757737698E+05	-1.82584156286E+01	-7.21907633800E+01	1.00192914595E+01	-1.77936985009E+02	-3.76691453508E+01	-4.77428132402E+00	-5.96459174990E+00	-4.30069016494E-01
3.25993201280E+05	-1.21201942706E+01	-4.07079725840E+01	9.97679979229E+00	-1.77281787647E+02	-4.38400320562E+01	-9.36801394370E+01	-6.01301248519E+00	-6.16837913237E-03
3.26228835058E+05	-1.97905599794E+01	3.45871510322E+01	9.94240598122E+00	-1.78653589876E+02	-3.95858015676E+01	-4.98604663111E+00	-5.97531372430E+00	-4.37709863384E-01
