# Hz S DB R 50
! CMT, M5065, 19127446, 24.2.4/2
! Date: 11/1/2024 3:34:14 PM
! Data: Format (Calibration Info)
! Freq	S11:dB/Ang(F2)	S21:dB/Ang(F2)	S12:dB/Ang(F2)	S22:dB/Ang(F2)
3.00000000000E+05	-2.57211744112E+01	-1.08748025038E+02	1.18075683594E+01	-1.77354901495E+02	-5.00708388613E+01	1.11373326339E+02	-6.03650379347E+00	1.32268208622E-01
3.00216845423E+05	-2.63459400531E+01	2.60250863278E+00	1.17929203367E+01	-1.77316410544E+02	-4.74671893125E+01	1.51952103107E+02	-6.04382942494E+00	-1.01857315728E-01
3.00433847586E+05	-1.88124513407E+01	4.17662779097E+01	1.17266574138E+01	-1.77822076463E+02	-3.60701697341E+01	-5.07459963283E+01	-6.03118792865E+00	-7.79612834864E-01
3.00651006602E+05	-1.88382636278E+01	6.94370625930E+01	1.17756615849E+01	-1.77728190890E+02	-3.31886903962E+01	1.15088008814E+02	-6.08830812668E+00	6.93879949380E-01
3.00868322584E+05	-1.24214984802E+01	8.25121843308E+01	1.17904281616E+01	-1.78494791931E+02	-4.67297015277E+01	-4.52193294277E+01	-6.06074280506E+00	-2.77976768405E-01
3.01085795647E+05	-1.97119907731E+01	-1.24610941427E+02	1.17980556269E+01	-1.76972017339E+02	-3.48245711115E+01	-1.39316769609E+02	-6.09680002025E+00	-5.66988458192E-01
3.01303425902E+05	-1.29226717236E+01	2.38430556463E+01	1.16337648664E+01	-1.77637515880E+02	-4.70269417890E+01	-1.21207238529E+02	-6.04193214520E+00	-2.06870307722E-01
3.01521213465E+05	-1.55775805802E+01	-1.35146175496E+01	1.17579280023E+01	-1.77533212622E+02	-5.07461619706E+01	-1.56651998488E+02	-6.08962684941E+00	-2.98369929677E-01
3.01739158449E+05	-1.72424966595E+01	-1.43380911609E+02	1.18464413768E+01	-1.77479157309E+02	-4.42383336965E+01	-1.31932851336E+02	-6.05790702997E+00	-3.48061715791E-01
3.01957260967E+05	-1.63813179713E+01	7.79565178630E+01	1.17729933169E+01	-1.77827178345E+02	-4.78559841614E+01	-3.82572677248E+01	-6.05147095124E+00	-6.40342505246E-02
3.02175521134E+05	-2.08271048385E+01	-6.71439064475E+01	1.17657336158E+01	-1.77177293315E+02	-2.92638824055E+01	2.42560559964E+01	-5.86863609770E+00	2.11162165061E-01
3.02393939063E+05	-2.31106292868E+01	-1.21419015384E+02	1.18317353033E+01	-1.77141800714E+02	-3.96805307962E+01	1.40503431008E+02	-6.08798766949E+00	-1.46634705591E-02
3.02612514869E+05	-2.88319361010E+01	-7.60978633809E+01	1.18395695781E+01	-1.77321911253E+02	-3.84858822286E+01	-4.50108896714E+01	-6.04201792730E+00	-5.07436644463E-01
3.02831248665E+05	-8.76670769320E+00	-1.74916146852E+02	1.20298421508E+01	-1.77315058660E+02	-3.55690625311E+01	-1.98986320452E+01	-5.99296638350E+00	-4.33220483722E-01
3.03050140565E+05	-1.91897806102E+01	6.85638039971E+01	1.17618695006E+01	-1.77843077516E+02	-4.21481988020E+01	5.28672384013E+01	-6.04054694714E+00	-3.30402708997E-03
3.03269190685E+05	-2.24344128836E+01	-1.28775042394E+02	1.18294873693E+01	-1.77248435224E+02	-3.67856635450E+01	-1.48448211607E+02	-6.09084816313E+00	-3.23808909778E-01
3.03488399138E+05	-2.04656970865E+01	1.16501144631E+02	1.17930428220E+01	-1.78051785094E+02	-3.06633792020E+01	-1.38623423849E+02	-6.16551660935E+00	-7.92461343372E-01
3.03707766039E+05	-1.66649287451E+01	1.39566884897E+02	1.18421278530E+01	-1.78084472462E+02	-2.27193622000E+01	-1.03318877928E+02	-6.11065890958E+00	-2.63695561677E+00
3.03927291503E+05	-1.80793911593E+01	-2.91226255763E+01	1.17162398318E+01	-1.77495662243E+02	-3.48948831359E+01	-9.45732897416E+01	-6.01445235401E+00	-5.92355603679E-01
3.04146975643E+05	-3.11312821640E+01	-5.78360100934E+00	1.17945322058E+01	-1.77569639935E+02	-4.53840655903E+01	9.37857647377E+01	-6.05890897221E+00	1.23279915225E-02
3.04366818575E+05	-1.02703991952E+01	1.20039620881E+01	1.15669097254E+01	-1.77928021991E+02	-3.64553508175E+01	2.81091095580E+01	-6.02096979121E+00	-2.96924171137E-01
3.04586820414E+05	-2.00419898825E+01	5.17016352968E+01	1.17648009068E+01	-1.78045870729E+02	-4.43714854977E+01	8.97993337047E+01	-6.07902596583E+00	4.59548454132E-02
3.04806981274E+05	-1.18639432273E+01	4.28409301470E+01	1.16926151867E+01	-1.78387302831E+02	-4.98418346500E+01	7.26439363388E+01	-6.01569700650E+00	-1.71079695460E-01
3.05027301270E+05	-1.44014043511E+01	4.00183635193E+01	1.17104201172E+01	-1.77835335990E+02	-3.64231635196E+01	5.11044627602E+01	-5.99689126353E+00	3.37619325430E-01
3.05247780517E+05	-2.56069683685E+01	-1.54410983440E+02	1.18608617435E+01	-1.77400400137E+02	-3.62770227209E+01	4.57494709556E+01	-5.92309575640E+00	2.11191840648E-01
3.05468419131E+05	-2.05746004588E+01	4.31073952013E+01	1.17925604082E+01	-1.77647987264E+02	-3.73719902434E+01	-5.27665401678E+01	-6.01621779231E+00	-5.88155429385E-01
3.05689217226E+05	-1.73897788299E+01	-1.54787637166E+02	1.18650061481E+01	-1.76853532663E+02	-4.22154854671E+01	1.77267764575E+02	-6.04265023524E+00	-3.51518859876E-01
3.05910174918E+05	-1.01921627795E+01	-6.84438005269E+01	1.17030216533E+01	-1.75976119461E+02	-3.75155117839E+01	4.03229259417E+01	-6.01560998158E+00	4.75750101128E-02
3.06131292322E+05	-1.84333095030E+01	-4.10035826277E+00	1.17583800795E+01	-1.77403550313E+02	-3.89194420853E+01	-2.58938233324E+01	-6.01137307755E+00	-5.00228465126E-01
3.06352569554E+05	-2.75907615658E+01	-3.99182965430E+01	1.17903486467E+01	-1.77270844742E+02	-4.00022749251E+01	9.01096489199E+01	-6.12427116522E+00	-1.14501152186E-03
3.06574006730E+05	-2.02909051779E+01	4.61260564314E+01	1.17317819222E+01	-1.77966592606E+02	-4.66323193775E+01	-4.04657577187E+01	-6.01693015373E+00	-3.58653443873E-01
3.06795603964E+05	-2.53944444238E+01	-7.83674194441E+01	1.17804031310E+01	-1.77749661285E+02	-3.86065665060E+01	-8.33691561283E+01	-6.06200246694E+00	-8.99251256898E-01
3.07017361372E+05	-1.97094203699E+01	-3.93561438570E+01	1.17736084800E+01	-1.77112589336E+02	-2.82643530854E+01	-1.70980098411E+01	-5.83551098293E+00	-4.71790122775E-01
3.07239279071E+05	-1.87745145551E+01	-9.50351780343E+01	1.18807910953E+01	-1.77167627386E+02	-3.83436695217E+01	8.42841972100E+01	-6.00230615692E+00	6.53155032336E-02
3.07461357176E+05	-1.46581459945E+01	1.29307394914E+02	1.18893867714E+01	-1.78196401847E+02	-4.35054510357E+01	1.70225529149E+01	-6.04490247138E+00	-2.71739783470E-01
3.07683595803E+05	-2.07795536343E+01	-4.30639961038E+01	1.17386816028E+01	-1.77406284957E+02	-4.15461782378E+01	3.71143620320E+01	-6.01540307645E+00	-3.57987571039E-02
3.07905995068E+05	-2.22221658604E+01	1.08481249848E+01	1.17416951071E+01	-1.77489936938E+02	-4.03843781090E+01	-1.03266402462E+02	-6.02727794031E+00	-4.00036265891E-01
3.08128555087E+05	-2.08177895375E+01	-5.96762101824E+01	1.17535161637E+01	-1.77645532734E+02	-3.95502029754E+01	-1.18910761630E+02	-6.04683762518E+00	-6.25215221259E-01
3.08351275976E+05	-1.59890180539E+01	2.17277539569E+01	1.17275304994E+01	-1.77739980769E+02	-2.87825841458E+01	7.35733576645E+01	-5.95762587493E+00	8.25792540869E-01
3.08574157853E+05	-1.62637503407E+01	5.43728303959E+01	1.17274130164E+01	-1.78114189435E+02	-3.85308442240E+01	5.89346204517E+01	-5.98616551383E+00	1.71735903083E-01
3.08797200832E+05	-2.78716698749E+01	-3.17435591798E+01	1.18064876707E+01	-1.77138273476E+02	-5.03143145836E+01	6.51399185848E+01	-6.07223049892E+00	-5.58285238393E-02
3.09020405031E+05	-1.54711189300E+01	1.85234658014E+01	1.17124380990E+01	-1.77664609757E+02	-4.37081527795E+01	-1.16315510860E+02	-6.04102268140E+00	-2.83414467465E-01
3.09243770566E+05	-2.82772276931E+01	7.68520890565E+01	1.17930020493E+01	-1.77495625593E+02	-4.38767961555E+01	1.36662175948E+02	-6.06784967407E+00	-4.24604037474E-01
3.09467297553E+05	-2.70479469912E+01	-2.52291617292E+01	1.17416477178E+01	-1.77654075206E+02	-3.70110201239E+01	-1.54867663678E+02	-6.11882828630E+00	-4.58736152099E-01
3.09690986110E+05	-2.26166549520E+01	-6.98566862840E+00	1.17634274088E+01	-1.77714790502E+02	-4.15750634285E+01	1.20633293280E+02	-6.10078002747E+00	-3.34371549930E-02
3.09914836353E+05	-1.89235811534E+01	2.90177043157E+01	1.17592975704E+01	-1.77809910963E+02	-2.83375276259E+01	-9.51920212214E+01	-6.05441455866E+00	-1.40455131254E+00
3.10138848399E+05	-1.21695611048E+01	6.08072527863E+01	1.16814714763E+01	-1.78269226511E+02	-3.25481838842E+01	-8.10737773197E+01	-6.03150390931E+00	-1.38443360553E+00
3.10363022365E+05	-1.55849256579E+01	-1.94444849139E-01	1.16591564761E+01	-1.77654461289E+02	-5.56185834799E+01	-2.11274773607E+01	-6.05568482462E+00	-2.49882430147E-01
3.10587358368E+05	-1.15264845316E+01	1.11695106958E+01	1.15961724550E+01	-1.77794765321E+02	-4.07949799449E+01	1.15331329052E+02	-6.07140739346E+00	-6.23555306334E-02
3.10811856525E+05	-1.89876776727E+01	-8.82984041038E+00	1.17230002168E+01	-1.77533068873E+02	-3.90253225639E+01	1.56876076837E+02	-6.09778086651E+00	-1.20124216776E-01
3.11036516954E+05	-1.56101076783E+01	1.06311048928E+02	1.18224270514E+01	-1.78330423609E+02	-4.54709232977E+01	3.73159711707E+01	-6.00155332514E+00	4.05945785365E-02
3.11261339771E+05	-1.47135646613E+01	6.67898340053E+01	1.17025100470E+01	-1.77965945902E+02	-3.61593591878E+01	2.48051156586E+01	-5.97633477707E+00	-2.25786200751E-01
3.11486325094E+05	-2.07807389179E+01	-1.97206719073E+01	1.17249587403E+01	-1.77932818910E+02	-3.03312251326E+01	-5.20406341895E+01	-5.92498531825E+00	-1.03143504387E+00
3.11711473040E+05	-1.44744357737E+01	8.89753234271E+00	1.16857477187E+01	-1.78180563915E+02	-4.22139496406E+01	6.18842006803E+01	-6.01746958415E+00	1.58213187297E-01
3.11936783728E+05	-1.79440407922E+01	5.32587780604E+01	1.17786464367E+01	-1.78326243482E+02	-4.58756251050E+01	-1.79011967235E+02	-6.06637076368E+00	-2.75846777781E-01
3.12162257274E+05	-8.08177388940E+00	1.07681565485E+02	1.18619598355E+01	-1.79506124305E+02	-4.45637844024E+01	1.37020357547E+02	-6.06841622883E+00	-2.13397272138E-01
3.12387893797E+05	-2.24802854310E+01	7.28367738178E+01	1.17342358040E+01	-1.78209657885E+02	-4.24376664988E+01	-3.96263725243E+01	-5.99663078935E+00	-4.94063121991E-01
3.12613693413E+05	-1.72888511770E+01	2.78936734311E+01	1.17235867295E+01	-1.77953063415E+02	-3.58606054997E+01	7.54668547981E+01	-6.02629586301E+00	2.74039020642E-01
3.12839656242E+05	-1.66164855793E+01	7.96854670629E+01	1.17991564701E+01	-1.78231012123E+02	-3.41610606633E+01	-1.41611544584E+02	-6.13861229833E+00	-5.93828940140E-01
3.13065782401E+05	-2.79698232872E+01	5.21882095088E+01	1.17638596467E+01	-1.77878583683E+02	-4.42557636701E+01	1.08976325125E+02	-6.02726359202E+00	-8.49785931946E-03
3.13292072007E+05	-2.66583251850E+01	4.63603341057E+01	1.18230368072E+01	-1.77939529833E+02	-3.93560705234E+01	2.26115518289E+01	-6.01253221964E+00	-9.79358555982E-02
3.13518525180E+05	-1.83083137941E+01	5.71951619667E+01	1.16688735044E+01	-1.78125934031E+02	-3.47950202487E+01	8.28472795754E+01	-6.02889075521E+00	1.51214984215E-01
3.13745142038E+05	-1.21534871939E+01	7.85051113649E+01	1.17953118760E+01	-1.78551278726E+02	-4.71568635093E+01	-1.76103985019E+02	-6.05960238146E+00	-3.31560816757E-01
3.13971922698E+05	-1.16113862585E+01	3.58713010057E+01	1.16621786847E+01	-1.78477809513E+02	-4.07634509079E+01	1.73051773930E+02	-6.11369339008E+00	-1.46764063291E-01
3.14198867279E+05	-1.87358564264E+01	-8.56715069572E+01	1.17948094404E+01	-1.77548268395E+02	-5.09314554846E+01	5.33706962620E+01	-6.05277282557E+00	-1.49722476099E-01
3.14425975900E+05	-2.09793882778E+01	-8.15350936736E-01	1.17518386387E+01	-1.77624220357E+02	-4.22590063905E+01	1.11307265013E+02	-6.07368559015E+00	3.82552120261E-02
3.14653248680E+05	-2.44854766197E+01	4.28462870318E+01	1.17213466770E+01	-1.77953412749E+02	-2.94206654891E+01	-1.21080753535E+02	-6.12101352054E+00	-1.27696148015E+00
3.14880685736E+05	-1.71690985650E+01	-3.82904407755E+01	1.17743030199E+01	-1.77722673200E+02	-2.98396159760E+01	-1.18745606653E+02	-6.08229924874E+00	-1.53390283533E+00
3.15108287188E+05	-1.23612237301E+01	3.42816576871E+01	1.16738405482E+01	-1.78250441100E+02	-3.98287923740E+01	-1.73932057542E+02	-6.07486861589E+00	-2.02098034131E-01
3.15336053154E+05	-1.61757778294E+01	-9.65319864527E+01	1.17900797070E+01	-1.77283588873E+02	-4.04205611500E+01	3.48842264426E+01	-6.03387001249E+00	-1.38416257820E-01
3.15563983753E+05	-7.81408445566E+00	3.45254091602E+01	1.15865091273E+01	-1.78452723856E+02	-5.38109596993E+01	-3.75012061828E+01	-6.05388956638E+00	-2.73275475147E-02
3.15792079105E+05	-1.62070728837E+01	7.41513492686E+01	1.17854043566E+01	-1.78157206278E+02	-4.81195969063E+01	-1.73041324065E+02	-6.10889245067E+00	-2.42539659204E-01
3.16020339328E+05	-2.16674385954E+01	1.11719196028E+02	1.17994566980E+01	-1.78574423635E+02	-4.35940845447E+01	-5.02739694742E+01	-6.02480235789E+00	-4.36263555664E-01
3.16248764542E+05	-1.27317867989E+01	-6.77392731828E+00	1.16759449382E+01	-1.77479353246E+02	-4.24270396365E+01	-7.15150474227E+01	-6.02349549637E+00	-5.48349999768E-01
3.16477354866E+05	-2.29697712500E+01	1.09955179623E+02	1.17685792534E+01	-1.78039959823E+02	-3.45776603980E+01	-9.38846739451E+01	-6.00420861669E+00	-8.25205545325E-01
3.16706110419E+05	-1.72382975314E+01	9.14892909910E-01	1.17478824251E+01	-1.77793572573E+02	-4.29341888108E+01	-1.57187765394E+02	-6.06715279998E+00	-2.98948245452E-01
3.16935031321E+05	-5.89722298004E+00	7.91160244925E+01	1.17592089751E+01	-1.79973670999E+02	-4.64168788078E+01	-9.39147763414E+01	-6.02331122739E+00	-3.27818923157E-01
3.17164117691E+05	-2.28819605985E+01	3.89871337039E+01	1.17717842000E+01	-1.78159441635E+02	-4.12574914221E+01	-1.26778868634E+02	-6.04505560692E+00	-3.53250890681E-01
3.17393369648E+05	-2.17712467089E+01	-1.69028659788E+01	1.17703439731E+01	-1.77884385648E+02	-4.31198919160E+01	1.42381418893E+02	-6.06086845183E+00	-1.94319100927E-01
3.17622787313E+05	-1.86569222052E+01	3.79092821576E+00	1.17544512040E+01	-1.77827624001E+02	-4.20401914316E+01	-1.36539659238E+01	-5.98172577091E+00	-5.93149560447E-01
3.17852370806E+05	-2.32025456595E+01	8.61221365278E+00	1.17673691062E+01	-1.77533204085E+02	-5.20098685777E+01	1.41920632077E+02	-6.04981229475E+00	-1.57802370175E-01
3.18082120245E+05	-1.46098758092E+01	-5.87428604594E+01	1.17451983329E+01	-1.77418645230E+02	-2.80053198124E+01	-8.39881019226E+01	-6.00578725654E+00	-1.83915410120E+00
3.18312035752E+05	-1.58406322994E+01	8.34625186756E+00	1.17424552606E+01	-1.78038477753E+02	-4.46716846014E+01	-1.02637101737E+02	-6.02470884491E+00	-3.33652549369E-01
3.18542117445E+05	-1.26967021245E+01	1.19898916611E+02	1.19005445605E+01	-1.78803552173E+02	-4.79094426127E+01	-1.41455296500E+02	-6.04194582385E+00	-4.56150417673E-01
3.18772365446E+05	-1.76669284116E+01	2.03145584915E+01	1.16858491886E+01	-1.78324154097E+02	-4.16283482622E+01	1.04895841546E+02	-6.00608397315E+00	2.03567535601E-01
3.19002779874E+05	-1.40646657813E+01	1.24162742564E+02	1.18297336723E+01	-1.78331602576E+02	-4.75083715803E+01	-6.23126533059E+01	-5.98902681652E+00	-2.99205026198E-01
3.19233360850E+05	-2.73276377204E+01	-1.71781759018E+02	1.18094944304E+01	-1.78081478741E+02	-3.57603333496E+01	4.05498288349E+01	-6.00424132909E+00	-9.47369658547E-02
3.19464108494E+05	-2.09812527982E+01	1.24566578949E+01	1.17406924154E+01	-1.77818402517E+02	-2.83890442360E+01	-1.31370350827E+02	-6.16750565469E+00	-1.01532356693E+00
3.19695022927E+05	-2.30332010780E+01	-1.45801735231E+02	1.18264190960E+01	-1.77780858642E+02	-2.87001698349E+01	-1.14284105850E+01	-5.84741653205E+00	-7.79002738969E-01
3.19926104268E+05	-3.24530486915E+01	-6.32600563632E+01	1.18063622475E+01	-1.77763685899E+02	-4.95239825811E+01	-1.69388558327E+02	-6.07714360152E+00	-2.51285001456E-01
3.20157352640E+05	-1.50255744790E+01	4.11894826602E+01	1.16969458499E+01	-1.78035062334E+02	-5.14971092696E+01	-6.75250035689E+01	-6.02084978019E+00	-1.80342589855E-01
3.20388768162E+05	-1.27895137631E+01	-3.36946470853E+01	1.16923028782E+01	-1.77200597049E+02	-4.77801649765E+01	-6.03591385438E+01	-6.03368287376E+00	-3.74861272773E-01
3.20620350955E+05	-1.88450806112E+01	-6.17181201404E+01	1.17335889884E+01	-1.77430051733E+02	-4.93760980498E+01	6.94901905582E+01	-6.02198964277E+00	5.06901100581E-02
3.20852101140E+05	-1.63184918355E+01	9.37135357267E-02	1.17171735695E+01	-1.77945155865E+02	-4.01879391201E+01	3.85956358120E+01	-6.01444082778E+00	2.71647492898E-01
3.21084018839E+05	-2.34010239869E+01	-3.65915076161E+01	1.17459621281E+01	-1.77718311679E+02	-3.89628778510E+01	-8.30341046592E+01	-6.02648360650E+00	-7.18661535709E-01
3.21316104172E+05	-1.44689172806E+01	3.10506257266E+01	1.17144474479E+01	-1.78182274356E+02	-3.68565771205E+01	1.45059225283E+02	-6.12406487337E+00	9.40278971865E-02
3.21548357261E+05	-1.60513236648E+01	1.09220358659E+02	1.18261984163E+01	-1.78540017117E+02	-4.98283333529E+01	-3.14926926197E+01	-5.99348293787E+00	-6.16478056349E-03
3.21780778226E+05	-2.00811964212E+01	-4.82012981500E+01	1.17940758684E+01	-1.77465337804E+02	-4.06472774670E+01	1.45900589273E+02	-6.06012276141E+00	-3.52219048297E-02
3.22013367189E+05	-1.80865945469E+01	1.60319358906E+02	1.18719021136E+01	-1.77973791222E+02	-3.58794314686E+01	-1.29440026532E+02	-6.05922076734E+00	-7.44899475725E-01
3.22246124272E+05	-3.08274085756E+01	-3.27347883708E+01	1.17502292676E+01	-1.77966631365E+02	-4.54167670295E+01	9.11876472729E+01	-6.03634943492E+00	1.03103656588E-01
3.22479049596E+05	-2.36476933204E+01	-1.76221983730E+02	1.18296938724E+01	-1.78098679354E+02	-5.05262276620E+01	1.70200941885E+02	-6.09621075206E+00	-3.47984732923E-03
3.22712143282E+05	-2.58790649124E+01	1.51356074540E+02	1.17919821857E+01	-1.78000528195E+02	-4.64217724586E+01	-2.38405673523E+01	-6.00527410339E+00	-2.13333735035E-01
3.22945405453E+05	-2.05540247109E+01	1.38620852257E+02	1.18440371756E+01	-1.78291012360E+02	-3.78593152197E+01	-1.57836082208E+01	-5.98665452026E+00	-5.29693601260E-01
3.23178836230E+05	-2.46295263127E+01	1.27776358449E+02	1.17831046375E+01	-1.77971842283E+02	-4.41632924775E+01	8.77703101005E+01	-6.03381197499E+00	3.22139790606E-02
3.23412435735E+05	-1.11497713773E+01	7.61715955897E-01	1.16090949393E+01	-1.77803302391E+02	-3.84786948147E+01	-1.34556480258E+02	-6.05401711853E+00	-4.55730252759E-01
3.23646204090E+05	-2.49301927730E+01	7.22640906011E+01	1.18024304477E+01	-1.78230916481E+02	-3.86450373538E+01	9.06850172825E+01	-6.01426270504E+00	1.73232169558E-01
3.23880141417E+05	-2.09484148226E+01	-1.07569649984E+02	1.18231031006E+01	-1.77475124940E+02	-4.94694226459E+01	9.74801039418E+01	-6.03234056453E+00	1.45775737377E-02
3.24114247838E+05	-1.94178811692E+01	1.28981010416E+01	1.17258625944E+01	-1.77934435965E+02	-6.03287335047E+01	1.62513415282E+02	-6.08060721332E+00	-1.51477019912E-02
3.24348523475E+05	-2.22036594310E+01	-2.63369846362E+01	1.18258345416E+01	-1.78012414265E+02	-3.49414199587E+01	-3.51316317324E+01	-5.98795816603E+00	-4.40683628824E-01
3.24582968451E+05	-2.31464350594E+01	8.25541641895E+01	1.17998727658E+01	-1.78665954575E+02	-5.16024655096E+01	1.08185777033E+02	-6.06251364550E+00	-1.26617253386E-01
3.24817582888E+05	-1.81241529688E+01	1.54278700719E+02	1.18279466966E+01	-1.78216043692E+02	-6.10332902241E+01	3.21748567720E+01	-6.07943221259E+00	-2.68265320066E-01
3.25052366909E+05	-2.32925837933E+01	-4.98695986257E+01	1.17336713644E+01	-1.77559229898E+02	-4.84463366671E+01	-1.08169551778E+02	-6.01952958585E+00	-1.62827883497E-01
3.25287320635E+05	-1.46166280110E+01	-2.47680099752E+00	1.16637368900E+01	-1.77707316065E+02	-3.84472347338E+01	-9.89966514414E+01	-6.04019738635E+00	-2.98298157671E-01
3.25522444191E+05	-1.64160369989E+01	-1.18111655350E+01	1.16318132407E+01	-1.77615593511E+02	-3.84066048069E+01	-8.84446775840E+01	-6.05314491241E+00	-7.21415183636E-01
3.25757737698E+05	-1.84597004494E+01	3.37951909468E+01	1.17064590802E+01	-1.78160513145E+02	-3.51911175781E+01	7.85019801681E+01	-6.03907855756E+00	1.07064023337E-01
3.25993201280E+05	-2.75344601409E+01	-1.42992083060E+02	1.17931286356E+01	-1.78115825037E+02	-3.77222466418E+01	-2.27755506920E+01	-6.01847659451E+00	-4.50744723813E-01
3.26228835058E+05	-2.77008417768E+01	-8.02013494909E+01	1.17594069712E+01	-1.77774366958E+02	-3.42754557040E+01	1.70827494164E+02	-6.15400129405E+00	-2.96789953559E-01
