# Hz S DB R 50
! CMT, M5065, 19127446, 24.2.4/2
! Date: 11/1/2024 3:13:49 PM
! Data: Format (Calibration Info)
! Freq	S11:dB/Ang(F2)	S21:dB/Ang(F2)	S12:dB/Ang(F2)	S22:dB/Ang(F2)
3.00000000000E+05	-2.00578413420E+01	7.08180344060E+01	6.33065817276E+00	-1.77587697338E+02	-4.01900672970E+01	8.88354064056E+01	-6.02436672337E+00	-1.22248399178E-01
3.00216845423E+05	-1.76164754961E+01	4.73919027368E+01	6.32614660700E+00	-1.78029596608E+02	-3.30097429011E+01	5.74840305761E+00	-5.94163951712E+00	-2.52175113468E-01
3.00433847586E+05	-1.98199095008E+01	-7.48122320224E+00	6.29027099400E+00	-1.77531283437E+02	-4.03199110697E+01	-1.57658840811E+02	-6.06231686005E+00	-1.04025832471E-01
3.00651006602E+05	-1.70168095522E+01	6.07307137931E+01	6.33147859970E+00	-1.78202081880E+02	-4.70844487079E+01	1.77479192389E+02	-6.07746796743E+00	9.68831886216E-02
3.00868322584E+05	-2.83929549970E+01	-1.40675778874E+01	6.33228441472E+00	-1.77429246296E+02	-3.48192508920E+01	-4.68833708781E+01	-6.02580790735E+00	-4.25649109794E-01
3.01085795647E+05	-1.86299306065E+01	9.55582370473E+01	6.37431800215E+00	-1.77944556070E+02	-3.81053376552E+01	-4.80038374033E+00	-6.01237760712E+00	-1.76299395641E-01
3.01303425902E+05	-2.77607099100E+01	9.12831628822E+00	6.33189692137E+00	-1.77657303167E+02	-3.87652987323E+01	-7.45339652646E+01	-6.02681925769E+00	-3.16839218471E-01
3.01521213465E+05	-1.61550678240E+01	-7.18132079375E+01	6.34622969644E+00	-1.77082972435E+02	-4.47857616036E+01	-5.89138398581E+01	-6.03185780907E+00	-1.73414892813E-01
3.01739158449E+05	-3.48413902079E+01	-4.76212314972E+01	6.29922277325E+00	-1.77818601593E+02	-4.27551066652E+01	4.89655587113E+01	-6.02151599683E+00	-3.03970937595E-01
3.01957260967E+05	-3.11524137650E+01	-1.14568277553E+00	6.35291537821E+00	-1.77781280479E+02	-2.88652816232E+01	-2.18789730522E+01	-5.94326943292E+00	-4.50194871154E-01
3.02175521134E+05	-2.28028401926E+01	-5.36134149444E+01	6.35861999409E+00	-1.77085613938E+02	-4.79071434886E+01	-1.31360619273E+02	-6.03226475597E+00	-4.05569700508E-01
3.02393939063E+05	-1.51106331138E+01	2.25019023227E+00	6.19966278983E+00	-1.77920352798E+02	-5.06208048665E+01	-9.78770465054E+01	-6.07483043631E+00	-1.58640780942E-01
3.02612514869E+05	-1.76313323565E+01	1.04311399920E+01	6.23149159421E+00	-1.77830074857E+02	-5.45051183058E+01	-1.59269672623E+02	-6.05511400871E+00	-1.14252923387E-01
3.02831248665E+05	-2.08108589593E+01	2.79852260612E+01	6.29088114330E+00	-1.77747520524E+02	-3.41768749023E+01	1.38732094060E+01	-5.99409964033E+00	3.78911864025E-02
3.03050140565E+05	-1.74232264687E+01	2.07814201269E-01	6.31694795248E+00	-1.77694380779E+02	-4.78058710521E+01	2.59316599562E+01	-6.01946717197E+00	-1.14457234946E-01
3.03269190685E+05	-2.24873895840E+01	1.41848371895E+02	6.40126911609E+00	-1.77893022889E+02	-4.72350008043E+01	-7.44876550322E+01	-6.01577104958E+00	-3.25488727977E-01
3.03488399138E+05	-1.95513029515E+01	-2.25800926817E+01	6.29859751126E+00	-1.77640204369E+02	-4.14180242498E+01	1.66569188954E+02	-6.04238519085E+00	-2.59035002205E-01
3.03707766039E+05	-2.03898875014E+01	-5.21812693575E+01	6.28046107593E+00	-1.77101508624E+02	-4.25178485877E+01	1.20754468414E+02	-6.05426531655E+00	-3.36801962244E-02
3.03927291503E+05	-2.67220824886E+01	3.22206220747E+01	6.34218334467E+00	-1.77633560535E+02	-3.73578359941E+01	-1.64690193278E+02	-6.06858819344E+00	-2.94578900174E-01
3.04146975643E+05	-1.47987811073E+01	-5.63542254375E+00	6.24448522940E+00	-1.77679896927E+02	-4.05046931712E+01	1.03875440938E+02	-6.04061611220E+00	7.77591445032E-02
3.04366818575E+05	-2.82342029605E+01	4.51440601695E+01	6.31942563311E+00	-1.77738807258E+02	-4.47699413852E+01	-3.56609448493E+01	-6.03694791588E+00	-2.09835665920E-01
3.04586820414E+05	-2.45814113112E+01	1.30045249976E+02	6.38574283561E+00	-1.77882052453E+02	-3.92596007401E+01	1.06355063366E+02	-6.05108639369E+00	8.53220721742E-02
3.04806981274E+05	-2.39309032155E+01	1.19983476616E+02	6.41500237639E+00	-1.77992918077E+02	-3.94135617724E+01	2.78534217440E+01	-6.02665916974E+00	-3.54811034419E-02
3.05027301270E+05	-2.22826000776E+01	3.13197230144E+01	6.35442165583E+00	-1.77697564835E+02	-4.68221765955E+01	-1.70826598559E+02	-6.01565287317E+00	-2.55455690714E-01
3.05247780517E+05	-2.75573226151E+01	-1.76152472914E+02	6.39664218768E+00	-1.77914685889E+02	-3.95193639118E+01	4.04014772211E+01	-5.99906744724E+00	-1.44168478711E-01
3.05468419131E+05	-1.66228528834E+01	1.57044877763E+01	6.26236754918E+00	-1.78081416227E+02	-3.32756577608E+01	-8.55550152067E+01	-6.04000134112E+00	-6.32188340128E-01
3.05689217226E+05	-1.85930600057E+01	4.17515087045E+01	6.29106411660E+00	-1.77629591223E+02	-3.84724730070E+01	1.26986585031E+02	-6.04899973598E+00	9.33658165103E-04
3.05910174918E+05	-2.28205354153E+01	3.35280142398E+01	6.33759948163E+00	-1.78064195198E+02	-4.51177721468E+01	5.91910001447E+01	-6.07222012774E+00	-4.72499116658E-02
3.06131292322E+05	-1.98923570891E+01	6.75711525037E+01	6.38128548987E+00	-1.78128067984E+02	-3.63374592876E+01	-7.69678136869E+01	-6.06889009637E+00	-6.13937688195E-01
3.06352569554E+05	-2.29806656939E+01	2.45128891943E+01	6.29894592795E+00	-1.77746634435E+02	-4.78467031237E+01	-1.17999971268E+02	-6.03537577925E+00	-3.53611747403E-01
3.06574006730E+05	-1.93885058119E+01	-2.06376940052E+01	6.26870024192E+00	-1.77681019315E+02	-3.82886821703E+01	-3.25652081175E+01	-6.01430788446E+00	-2.83282332852E-01
3.06795603964E+05	-2.38906109864E+01	6.12256103246E+01	6.33061469661E+00	-1.77931085827E+02	-4.13213436828E+01	5.01475124794E+01	-6.04566335509E+00	-4.45719113754E-02
3.07017361372E+05	-1.78166707116E+01	6.73690749648E+01	6.35435951186E+00	-1.78146355727E+02	-3.49832565748E+01	1.06792723177E+02	-6.05526322264E+00	6.40394246822E-02
3.07239279071E+05	-2.12263977783E+01	9.84040597660E+01	6.33846852179E+00	-1.77937070052E+02	-3.91760395266E+01	-1.01308432324E+02	-6.02550148478E+00	-6.17862024141E-01
3.07461357176E+05	-1.30668456702E+01	-1.47934584368E+02	6.52513634303E+00	-1.76934382617E+02	-3.98041238104E+01	-4.66798801626E+01	-6.04540836496E+00	-1.72266484167E-01
3.07683595803E+05	-1.67834950090E+01	3.97778551366E-01	6.27282311286E+00	-1.77626180153E+02	-4.27551847024E+01	6.60278624240E+01	-6.02555450764E+00	-1.84695447175E-01
3.07905995068E+05	-1.78216401684E+01	2.45284410828E+01	6.25559813095E+00	-1.77782592205E+02	-3.11881560337E+01	-1.05701814765E+02	-6.06389405588E+00	-8.44848602423E-01
3.08128555087E+05	-1.94462845611E+01	-2.77926511334E+01	6.28016544558E+00	-1.77261204869E+02	-4.26263498429E+01	-3.94527348369E+01	-6.00886840211E+00	-1.33326134389E-01
3.08351275976E+05	-1.21449912144E+01	5.69268057034E+01	6.24382064700E+00	-1.78547441891E+02	-4.78138776835E+01	1.33211179426E+02	-6.05256493163E+00	-2.00153755390E-01
3.08574157853E+05	-2.08135506190E+01	-4.22590598939E+01	6.33914204913E+00	-1.77266264931E+02	-4.17566901256E+01	-4.00036613903E+01	-6.04770282010E+00	-3.18426646617E-01
3.08797200832E+05	-2.24930583175E+01	-4.78191192692E+00	6.33714679561E+00	-1.77602751576E+02	-3.61150781813E+01	-4.24776594031E+01	-6.01604929422E+00	-3.44126445443E-01
3.09020405031E+05	-2.41501652918E+01	8.31435764753E+01	6.38137048416E+00	-1.77914798970E+02	-3.84963072821E+01	-7.04701598706E+01	-6.04481317012E+00	-4.38818801742E-01
3.09243770566E+05	-1.71787810172E+01	-2.98117978384E+01	6.29993419311E+00	-1.77528257804E+02	-4.36296926300E+01	1.75962073001E+02	-6.07557101299E+00	-1.85116136121E-01
3.09467297553E+05	-2.14772508090E+01	1.97173312726E+01	6.33284141751E+00	-1.78142655442E+02	-4.62162972920E+01	-4.14999873789E+01	-6.03456442029E+00	-4.41128211487E-01
3.09690986110E+05	-2.81285333134E+01	7.12306589776E+01	6.37202033492E+00	-1.77888181175E+02	-3.04892777939E+01	-4.55218695384E+01	-5.98093816773E+00	-5.57878162416E-01
3.09914836353E+05	-1.47703648139E+01	-8.51466623608E+01	6.37669896490E+00	-1.77027793004E+02	-4.37366440028E+01	3.23437427006E+01	-6.03943375854E+00	-7.54641065174E-02
3.10138848399E+05	-2.04142505533E+01	2.29726228799E+01	6.26892473346E+00	-1.77636935463E+02	-3.92026417137E+01	-8.14486647033E+01	-6.02849703212E+00	-5.43550362050E-01
3.10363022365E+05	-2.08210610757E+01	3.09504515550E+01	6.29595311711E+00	-1.78001505859E+02	-3.35819510646E+01	-1.72982290244E+02	-6.09854924147E+00	-3.63348961143E-01
3.10587358368E+05	-2.03598733074E+01	3.40847144762E+01	6.32578309885E+00	-1.77959093173E+02	-4.87710645153E+01	7.11985448101E+01	-6.01050781363E+00	-1.24010664425E-01
3.10811856525E+05	-8.59933754550E+00	4.75071910947E+01	6.19889224202E+00	-1.78661333605E+02	-4.13624273352E+01	5.17761857443E+01	-6.04125399837E+00	-1.71709705966E-01
3.11036516954E+05	-3.85702417512E+01	6.00777654277E+00	6.37589785181E+00	-1.77832149299E+02	-4.10593761494E+01	2.41989695541E+01	-6.01151341257E+00	-1.33896742164E-02
3.11261339771E+05	-1.75594904884E+01	8.66066049762E+01	6.40325530438E+00	-1.78370932674E+02	-3.90956780269E+01	-4.79000162658E+01	-6.01554451448E+00	-4.77247431899E-01
3.11486325094E+05	-1.76730116642E+01	3.84274006308E+01	6.28373048989E+00	-1.78316802695E+02	-4.67734267929E+01	1.20070560943E+02	-6.04020913710E+00	-4.11993547366E-02
3.11711473040E+05	-1.54032376247E+01	1.03152480582E+02	6.39616648995E+00	-1.78325724047E+02	-3.79738556460E+01	-1.01164396631E+02	-6.07156761031E+00	-3.11487107674E-01
3.11936783728E+05	-3.08714474617E+01	4.50007299962E+01	6.32509188736E+00	-1.77912090252E+02	-3.87120211681E+01	-7.93969081968E+01	-6.04078095555E+00	-3.08908166248E-01
3.12162257274E+05	-1.85952744987E+01	1.44095803810E+00	6.30714044196E+00	-1.77775259114E+02	-3.84331485754E+01	-5.82215646972E+01	-5.99262260581E+00	-4.22569110386E-01
3.12387893797E+05	-2.16110080250E+01	1.34482707869E+01	6.33524308199E+00	-1.77882345033E+02	-4.13037181415E+01	-2.78283591075E+01	-6.01664722331E+00	-2.02213782841E-01
3.12613693413E+05	-2.35898809164E+01	-3.42410139615E+01	6.40494142801E+00	-1.77576484848E+02	-4.55602480861E+01	-5.67878437328E+01	-6.03180994316E+00	-3.59837916457E-01
3.12839656242E+05	-1.85267115138E+01	5.07684220030E+01	6.29927843493E+00	-1.77964937474E+02	-4.41314836076E+01	1.75094257951E+02	-6.03762671108E+00	-5.67854512816E-02
3.13065782401E+05	-2.46429647777E+01	-5.94978429147E+01	6.32740719686E+00	-1.77836060320E+02	-3.57781277402E+01	-3.62447380192E+01	-5.98416767262E+00	-1.63081544681E-01
3.13292072007E+05	-1.73660042313E+01	1.70218486996E+02	6.46351079284E+00	-1.78025862497E+02	-4.84931991964E+01	7.03890504882E-01	-6.01965949976E+00	-2.90971783315E-01
3.13518525180E+05	-1.04120429882E+01	-1.82807982023E+01	6.21676420851E+00	-1.76861554981E+02	-4.02223732598E+01	-1.41414607370E+02	-6.07821517249E+00	-2.42716531592E-01
3.13745142038E+05	-2.16443847589E+01	4.82352197297E+01	6.30696480983E+00	-1.77962078055E+02	-4.26119340307E+01	-7.96705394432E+01	-6.03350371776E+00	-4.09105392427E-01
3.13971922698E+05	-1.88344767145E+01	-1.83130657956E+01	6.33280390390E+00	-1.77547986915E+02	-2.90334819856E+01	-1.19765466960E+02	-6.08462900775E+00	-8.16989900036E-01
3.14198867279E+05	-2.89456752349E+01	1.59334795966E+02	6.36549062133E+00	-1.78116349689E+02	-5.22694006622E+01	6.65680695293E+01	-6.03850675773E+00	-2.46589187747E-01
3.14425975900E+05	-1.79904752820E+01	-4.75141858591E+01	6.28467035380E+00	-1.77508652016E+02	-4.37267868427E+01	1.61739696766E+02	-6.05273346278E+00	-9.49247667070E-02
3.14653248680E+05	-2.34677842256E+01	4.81478416050E+01	6.33126623442E+00	-1.78162917814E+02	-4.21645116499E+01	-1.33271459534E+02	-6.05843283781E+00	-4.46572624917E-01
3.14880685736E+05	-2.25019452256E+01	-4.26068007810E+01	6.34126177650E+00	-1.77736963883E+02	-3.57088261058E+01	-2.12669308909E+01	-5.98423222804E+00	-4.11140053927E-01
3.15108287188E+05	-8.26267757895E+00	5.62191492297E+01	6.16211635780E+00	-1.79367069890E+02	-4.24120205329E+01	1.26951099495E+02	-6.08035967006E+00	-2.52502046469E-01
3.15336053154E+05	-1.73277984269E+01	7.79907455011E+01	6.38139051493E+00	-1.78488835322E+02	-4.43944975413E+01	-6.35752738881E+01	-6.05280240935E+00	-1.49171131446E-01
3.15563983753E+05	-2.02185897524E+01	7.96925580691E+01	6.35160636355E+00	-1.78569374157E+02	-4.54860286600E+01	5.31415893962E+01	-6.01964444263E+00	-3.05297849431E-01
3.15792079105E+05	-2.25036819211E+01	9.45687536828E+01	6.39561403233E+00	-1.77990427907E+02	-5.21204508548E+01	1.33299057374E+02	-6.01859271664E+00	-2.38839369533E-01
3.16020339328E+05	-1.51887313180E+01	-3.51205274206E+01	6.26341992868E+00	-1.77071986523E+02	-5.52543398558E+01	8.12127177165E+01	-6.05153448054E+00	-2.43745896509E-01
3.16248764542E+05	-3.10997245230E+01	1.30735129917E+01	6.30882956637E+00	-1.77738815500E+02	-3.78516592072E+01	1.32222894104E+02	-6.01761294089E+00	-3.66530464445E-02
3.16477354866E+05	-3.52281548833E+01	-3.17156162217E+01	6.38639661522E+00	-1.77701897071E+02	-4.40019342567E+01	6.86765840895E+01	-6.02942021897E+00	-9.14865767916E-02
3.16706110419E+05	-1.48398176386E+01	1.29281332196E+00	6.25722314741E+00	-1.77626523975E+02	-4.24539617829E+01	6.67137922260E+01	-6.03376011487E+00	2.07235039174E-01
3.16935031321E+05	-1.93352713511E+01	-4.20274803633E+01	6.30394964523E+00	-1.77621455497E+02	-5.27387791217E+01	-6.70537646579E+01	-6.04316657137E+00	-3.55228101965E-01
3.17164117691E+05	-2.04587460705E+01	2.89476786986E+01	6.30914607087E+00	-1.77962550629E+02	-5.33896610345E+01	-9.24277680145E+01	-6.03824614899E+00	-1.83040329082E-01
3.17393369648E+05	-1.92004553277E+01	-5.79734134383E+00	6.29320661308E+00	-1.77919316529E+02	-3.61500125036E+01	-6.45791059585E+01	-6.01275128768E+00	-7.03507413983E-01
3.17622787313E+05	-2.87394034989E+01	1.67575846047E+02	6.40414200671E+00	-1.77899796010E+02	-4.57280187784E+01	-5.21641785609E+01	-6.03265138503E+00	-3.52400488593E-01
3.17852370806E+05	-7.98049759558E+00	-2.15596969460E+00	6.08189602038E+00	-1.77642814822E+02	-4.78459447193E+01	-1.43615917809E+02	-6.06486128776E+00	-1.14673270471E-01
3.18082120245E+05	-1.49130323365E+01	1.97564271167E+01	6.30978721961E+00	-1.78087462948E+02	-4.01552810102E+01	-6.94193770816E+01	-6.03147446593E+00	-5.44249542296E-01
3.18312035752E+05	-1.86670384290E+01	3.88490789584E+01	6.32849360095E+00	-1.78085411750E+02	-4.20337147522E+01	1.97518241558E+00	-6.02498954184E+00	-1.06716595705E-01
3.18542117445E+05	-1.61049678856E+01	1.10205438114E+01	6.25968403209E+00	-1.77854597538E+02	-4.68633799815E+01	4.41212395626E+01	-6.04678551495E+00	-6.28064556274E-02
3.18772365446E+05	-1.28231179271E+01	4.29130452058E+01	6.24234192887E+00	-1.78298641328E+02	-4.26596527091E+01	-4.18936638471E+01	-6.03806059561E+00	-3.66045749504E-01
3.19002779874E+05	-1.65433752275E+01	2.90384554646E+01	6.33934797910E+00	-1.78092558107E+02	-4.22937414335E+01	-1.11722276127E+02	-6.04918352522E+00	-3.55616094528E-01
3.19233360850E+05	-1.83876510262E+01	2.79985572553E+01	6.31067127830E+00	-1.78229702777E+02	-3.90700398400E+01	-5.58051751530E+01	-6.03330585015E+00	-5.81857410918E-01
3.19464108494E+05	-2.33411624179E+01	5.27885397451E+01	6.32383813534E+00	-1.77777899245E+02	-4.06612377272E+01	2.82626582098E+01	-6.00416940060E+00	-1.70200535149E-01
3.19695022927E+05	-2.16999142714E+01	1.14578789994E+01	6.34934216344E+00	-1.78005795735E+02	-3.58448444284E+01	-2.09648668906E+01	-5.98866003403E+00	-3.60715949290E-01
3.19926104268E+05	-1.79806533519E+01	2.81825109262E+01	6.24557579089E+00	-1.78052845172E+02	-4.03470468386E+01	-4.81495091314E+01	-6.00885460353E+00	-3.28054246630E-01
3.20157352640E+05	-1.58847614401E+01	5.25949124375E+00	6.23905777696E+00	-1.78086856056E+02	-3.71990390633E+01	-1.55574510235E+02	-6.05038309681E+00	-3.87158356184E-01
3.20388768162E+05	-1.06310124220E+01	-1.64082863449E+02	6.58205376890E+00	-1.77684863779E+02	-3.59681882710E+01	3.61904048039E+01	-6.00076163798E+00	-4.75153027891E-03
3.20620350955E+05	-1.68718491717E+01	2.56109243923E+01	6.29339081476E+00	-1.78252253831E+02	-4.32776415111E+01	1.03342450440E+02	-6.07857495885E+00	-1.66772615296E-01
3.20852101140E+05	-2.11283732940E+01	7.51026940336E+01	6.36978305293E+00	-1.78140382085E+02	-3.87405541788E+01	-1.09726414755E+02	-6.06221925617E+00	-3.82326816762E-01
3.21084018839E+05	-1.67831886266E+01	8.37452012837E+01	6.31664718342E+00	-1.78517996914E+02	-4.14999935786E+01	6.05675171774E+01	-6.03861284975E+00	-3.15313574243E-01
3.21316104172E+05	-2.58148370101E+01	8.45298432793E+01	6.34501796353E+00	-1.78544677971E+02	-3.90060636195E+01	7.77501917038E+01	-6.04172929074E+00	2.47668017394E-02
3.21548357261E+05	-1.35975703790E+01	3.62012151758E+01	6.28291607122E+00	-1.78459943549E+02	-4.48792152142E+01	-2.53768223779E+01	-6.04114713990E+00	-2.30781350267E-01
3.21780778226E+05	-3.93743151222E+01	-8.54640768802E+01	6.36865304415E+00	-1.77792308688E+02	-3.82437303853E+01	1.47231231818E+02	-6.05197242068E+00	-3.25770161714E-02
3.22013367189E+05	-2.89199431150E+01	1.83004506905E+01	6.32938143663E+00	-1.78115629707E+02	-3.98390559537E+01	-5.95181243776E+00	-6.00892780254E+00	-1.32973709403E-01
3.22246124272E+05	-1.33902073319E+01	-4.85040250295E+01	6.24499889657E+00	-1.77364427394E+02	-3.72436615683E+01	1.13858498685E+02	-6.04414263406E+00	-5.02090835234E-01
3.22479049596E+05	-1.61975808024E+01	2.48241602497E+00	6.29561262249E+00	-1.77909705375E+02	-4.93633522634E+01	6.66486172879E+01	-6.00327384656E+00	-3.17760439184E-02
3.22712143282E+05	-2.15998830554E+01	2.28334322264E+01	6.30849817072E+00	-1.77861125011E+02	-3.07124473119E+01	-1.01057229943E+01	-5.93725216075E+00	-4.76520884582E-01
3.22945405453E+05	-1.97638480496E+01	6.22448123475E+01	6.33246815541E+00	-1.78105505622E+02	-3.80505641718E+01	6.30203444916E+01	-6.04601741900E+00	-1.82771451334E-01
3.23178836230E+05	-2.02739188337E+01	9.01142575454E+01	6.35629736766E+00	-1.78295245568E+02	-5.61508153417E+01	1.79862688119E+01	-6.05289113141E+00	-2.21392667021E-01
3.23412435735E+05	-2.56284293833E+01	1.11009579147E+02	6.37848054837E+00	-1.78212300710E+02	-4.83487582308E+01	-1.92433699867E+01	-5.99231873184E+00	6.67873337186E-03
3.23646204090E+05	-2.70462742941E+01	9.84841628845E+01	6.33995186726E+00	-1.78265076172E+02	-2.93934141277E+01	-1.06061933949E+02	-6.07088400085E+00	-9.99315058621E-01
3.23880141417E+05	-1.96885097887E+01	-7.91422067000E+01	6.34730640242E+00	-1.77473621598E+02	-4.53114954666E+01	1.65868495741E+02	-6.05604120390E+00	-3.28324149567E-01
3.24114247838E+05	-3.54067394712E+01	1.68331037510E+02	6.38120528476E+00	-1.78459100413E+02	-4.85253891340E+01	-1.76984120225E+02	-6.02204401506E+00	-2.13623446053E-01
3.24348523475E+05	-1.68332991433E+01	2.63306087006E+01	6.30912819409E+00	-1.78312600339E+02	-4.53641396294E+01	1.12180930610E+01	-6.01766227989E+00	-2.77066266519E-01
3.24582968451E+05	-2.99542805612E+01	-3.60909327168E+00	6.35113532667E+00	-1.78070666571E+02	-4.05461684579E+01	-6.79627702959E+01	-6.05342167712E+00	-2.39618200416E-01
3.24817582888E+05	-1.51808147467E+01	3.77409557483E+01	6.28543180506E+00	-1.78403636836E+02	-3.92825428143E+01	-3.99620578790E+01	-6.01024322260E+00	-3.82608868961E-01
3.25052366909E+05	-1.69549719451E+01	2.69589115842E+01	6.21623362249E+00	-1.78515527348E+02	-5.40503983746E+01	1.31897004187E+02	-6.05591257767E+00	-1.97720774428E-01
3.25287320635E+05	-2.85209234197E+01	1.08118536694E+02	6.32143083836E+00	-1.78093796981E+02	-4.00454270952E+01	8.14832674967E+01	-6.03116463294E+00	-7.51676861196E-02
3.25522444191E+05	-1.41438670846E+01	7.31377834564E+01	6.31468615382E+00	-1.78731081040E+02	-4.65637796531E+01	-5.28767298289E+01	-6.01046985215E+00	-3.50035419368E-01
3.25757737698E+05	-2.23201152483E+01	-4.74663932347E+01	6.33731184437E+00	-1.77533898069E+02	-4.74028486230E+01	-1.73471053958E+02	-6.04180595996E+00	-3.81465334442E-01
3.25993201280E+05	-2.75288183614E+01	-6.84367738167E+00	6.32548071667E+00	-1.77789261733E+02	-4.54450150975E+01	5.92037280604E+01	-6.04347738704E+00	-3.25120098868E-01
3.26228835058E+05	-1.93628239464E+01	3.56764663877E+00	6.24125620708E+00	-1.77921779058E+02	-3.84659818631E+01	-8.35922057936E+01	-6.02025564506E+00	-3.95992566466E-01
