# Hz S DB R 50
! CMT, M5065, 19127446, 24.2.4/2
! Date: 11/1/2024 3:14:45 PM
! Data: Format (Calibration Info)
! Freq	S11:dB/Ang(F2)	S21:dB/Ang(F2)	S12:dB/Ang(F2)	S22:dB/Ang(F2)
3.00000000000E+05	-1.86993044709E+01	4.45162090693E+01	6.44795356000E+00	-1.77937959486E+02	-4.17911915387E+01	7.92216373043E+01	-6.02063539270E+00	-1.29193416316E-01
3.00216845423E+05	-2.00270282473E+01	1.89183295166E+01	6.46694076763E+00	-1.77905075221E+02	-4.39904515871E+01	-4.12047610156E+01	-6.03957640514E+00	-8.92487983820E-02
3.00433847586E+05	-2.40991844391E+01	-1.16358982506E+02	6.54312840620E+00	-1.77304897973E+02	-4.18258717766E+01	1.34917218217E+02	-6.03215402969E+00	-2.68829862987E-02
3.00651006602E+05	-3.05418982347E+01	4.62569946418E+01	6.49051692411E+00	-1.77350318378E+02	-4.35478548615E+01	1.13558410095E+02	-6.04321178686E+00	1.00100839999E-01
3.00868322584E+05	-1.78694290294E+01	-2.05533332947E+01	6.46484484702E+00	-1.77557425265E+02	-4.88659994210E+01	7.86615815219E+01	-6.03340395919E+00	-1.61529150811E-01
3.01085795647E+05	-2.39021608260E+01	5.61013277522E+00	6.46868801369E+00	-1.77503049351E+02	-4.48909728941E+01	-1.60975711224E+02	-6.02778106115E+00	-3.07618333687E-01
3.01303425902E+05	-1.60336455400E+01	-1.46920652026E+02	6.59919162696E+00	-1.77480131623E+02	-4.56727047655E+01	-1.44241774992E+02	-6.03157043625E+00	-2.57683995437E-01
3.01521213465E+05	-2.11416119809E+01	9.30856563313E+01	6.49297477933E+00	-1.77971666110E+02	-3.90583060523E+01	3.51732259950E+01	-6.00143326221E+00	-1.50283478789E-01
3.01739158449E+05	-1.75009431078E+01	3.16286358934E+01	6.41392918268E+00	-1.78301810379E+02	-3.96098968866E+01	-7.05914453307E+00	-6.03017759518E+00	-7.35535505552E-02
3.01957260967E+05	-2.71767688250E+01	1.40947388900E+02	6.51791059968E+00	-1.77768841778E+02	-4.27896552471E+01	-8.14919007975E+00	-6.03664547692E+00	-1.93369349114E-01
3.02175521134E+05	-1.38517793834E+01	1.11820117649E+02	6.58353581014E+00	-1.78273023044E+02	-4.97231031818E+01	-1.44407406430E+02	-6.06219893946E+00	-2.58070335232E-01
3.02393939063E+05	-2.47976049131E+01	3.94332105713E+01	6.46547745864E+00	-1.78003035547E+02	-3.24354076578E+01	1.27976106018E+02	-6.08795165302E+00	2.86469136070E-01
3.02612514869E+05	-1.93808202356E+01	-1.67684561563E+01	6.40848718762E+00	-1.77667570177E+02	-4.41610440393E+01	-6.13929460523E+01	-6.02154596451E+00	-1.31871429290E-01
3.02831248665E+05	-1.85148444663E+01	-6.15138026607E+00	6.41924828342E+00	-1.78050964750E+02	-3.70647807982E+01	-1.49993878732E+02	-6.06620352663E+00	-2.54212314083E-01
3.03050140565E+05	-1.43627155563E+01	6.55336733815E+01	6.46666211604E+00	-1.78583151317E+02	-3.64331826318E+01	-1.52400694867E+02	-6.07747393538E+00	-3.77862390822E-01
3.03269190685E+05	-2.21863821761E+01	3.87195450248E+00	6.45456567475E+00	-1.77552633206E+02	-4.23990013055E+01	1.76709257067E+02	-6.03930791580E+00	-2.94299381522E-01
3.03488399138E+05	-2.44300011082E+01	4.91178676408E+01	6.44120891778E+00	-1.77527221052E+02	-4.36317461696E+01	-5.75123105665E+01	-6.01143049321E+00	-2.78565392762E-01
3.03707766039E+05	-1.72139721908E+01	5.65855523511E+01	6.45057786072E+00	-1.77774304535E+02	-3.95239588757E+01	-1.50095255011E+02	-6.05152427899E+00	-3.76903556302E-01
3.03927291503E+05	-2.53527768754E+01	-9.08145941073E+01	6.49523708869E+00	-1.77444867191E+02	-4.41919298278E+01	4.81549566067E+01	-6.03593308994E+00	-2.65133709420E-01
3.04146975643E+05	-2.48716605472E+01	5.23767761787E+01	6.53267630813E+00	-1.77681899103E+02	-2.68613179583E+01	1.37234896629E+02	-6.16286774728E+00	3.15301707397E-01
3.04366818575E+05	-2.10354442549E+01	-1.31770071909E+02	6.51419116753E+00	-1.77528001316E+02	-3.80024575349E+01	-2.50845483623E-01	-6.00081551116E+00	-2.14098144203E-01
3.04586820414E+05	-3.92825935159E+01	1.35888352224E+02	6.55166659174E+00	-1.77691331938E+02	-3.77414072232E+01	1.79157845129E+02	-6.05484549908E+00	-2.35045533498E-01
3.04806981274E+05	-1.18486487479E+01	4.75382147587E+01	6.33795637365E+00	-1.78611045170E+02	-4.61299750752E+01	-1.64409977894E+02	-6.06294418921E+00	-2.95117759925E-01
3.05027301270E+05	-1.52138438609E+01	2.68099382976E+01	6.44727002260E+00	-1.77804193423E+02	-4.53208952541E+01	-6.16031761319E+01	-6.06038746483E+00	-1.86633030464E-01
3.05247780517E+05	-2.42325798856E+01	-5.03072732278E+01	6.50133217910E+00	-1.77363663676E+02	-4.96503058282E+01	1.21327943934E+01	-6.04480498338E+00	-3.09616732326E-01
3.05468419131E+05	-1.26179825665E+01	-1.06772856628E+01	6.33073049110E+00	-1.77258366348E+02	-5.11811368571E+01	-2.53976703598E+01	-6.04402188726E+00	-7.09504201929E-02
3.05689217226E+05	-2.13579113197E+01	-4.46066377089E+01	6.47385295318E+00	-1.77421202699E+02	-3.51670146903E+01	1.76235080656E+02	-6.11847108813E+00	-1.30691288594E-01
3.05910174918E+05	-2.15117002123E+01	-2.67281752346E+01	6.47333160164E+00	-1.77952246357E+02	-4.70266734038E+01	1.02465494388E+02	-6.04627735783E+00	-1.79849304494E-01
3.06131292322E+05	-2.58756915710E+01	3.76913164731E+01	6.44885524651E+00	-1.77970045767E+02	-3.39842918658E+01	-1.41191868582E+02	-6.08686482180E+00	-5.54262669045E-01
3.06352569554E+05	-1.57028340829E+01	-2.91111708122E+01	6.44760006200E+00	-1.77294878823E+02	-4.37039153195E+01	1.76347080914E+02	-6.07270825434E+00	-3.26843819479E-01
3.06574006730E+05	-2.54224203003E+01	-6.20061729489E+01	6.49555913688E+00	-1.77456232734E+02	-3.19299799033E+01	1.62020053410E+02	-6.13465347358E+00	-1.61870456677E-01
3.06795603964E+05	-2.12625751434E+01	1.57880358135E+01	6.39346582965E+00	-1.77882838220E+02	-4.16026794686E+01	-1.40240069536E+02	-6.05494835500E+00	-2.54760753526E-01
3.07017361372E+05	-2.37111284459E+01	2.84020196676E+01	6.45957747351E+00	-1.78097512510E+02	-4.05856478699E+01	-8.84326049082E+01	-5.99973083348E+00	-4.12550642026E-01
3.07239279071E+05	-1.22264493537E+01	9.00178072219E+00	6.34810926392E+00	-1.77789631362E+02	-4.50042940846E+01	2.91912072633E+00	-6.02683568754E+00	-1.50527235648E-01
3.07461357176E+05	-2.02543195377E+01	3.23194805605E+01	6.46661630532E+00	-1.77968978656E+02	-2.70831384960E+01	-1.07605307394E+02	-6.08368196660E+00	-1.12738351075E+00
3.07683595803E+05	-1.74927181374E+01	-2.82196193076E-01	6.44520434760E+00	-1.77793445244E+02	-4.40228036599E+01	-3.81784408483E+01	-6.01912890117E+00	-2.90865320319E-01
3.07905995068E+05	-1.94881655533E+01	1.01132724198E+01	6.42535336351E+00	-1.78120763171E+02	-4.94585352256E+01	1.19653526344E+02	-6.05249452316E+00	-1.51038033066E-01
3.08128555087E+05	-1.35532745928E+01	-5.38037534722E+01	6.45756993415E+00	-1.76856373223E+02	-3.91958859918E+01	6.16535000339E+01	-6.03258883247E+00	-3.28992187187E-02
3.08351275976E+05	-2.74010318969E+01	-2.64136358951E+01	6.46557388441E+00	-1.77438584680E+02	-3.44781266812E+01	1.70055411194E+02	-6.08647374976E+00	-2.19637376101E-01
3.08574157853E+05	-2.17219085656E+01	1.03402462705E+02	6.47163037503E+00	-1.77926162734E+02	-5.79237266333E+01	1.32816396828E+02	-6.00847148669E+00	-4.23694071663E-02
3.08797200832E+05	-1.89335601601E+01	-1.95994199257E+00	6.44389089761E+00	-1.77978665553E+02	-5.24122441210E+01	1.12060236379E+02	-6.03680144364E+00	-4.27444266005E-01
3.09020405031E+05	-1.12018880039E+01	3.61363647492E+01	6.35136471384E+00	-1.78414956528E+02	-3.58127796459E+01	1.17352221629E+02	-6.04709621953E+00	-1.29611599267E-01
3.09243770566E+05	-1.58865203382E+01	8.76726924652E+01	6.44659361700E+00	-1.78418744611E+02	-3.00828496552E+01	-3.36471201386E+01	-5.95744265552E+00	-5.52023972943E-01
3.09467297553E+05	-1.75809933456E+01	-3.25064153433E+00	6.44453861422E+00	-1.77463794664E+02	-5.15346723407E+01	-1.62519982792E+02	-6.02478505790E+00	-5.64075363064E-02
3.09690986110E+05	-1.59462279392E+01	-1.46808654214E+01	6.41399845113E+00	-1.77868287471E+02	-3.87517086419E+01	-6.09326819546E+01	-6.04502630857E+00	-2.42238057777E-01
3.09914836353E+05	-1.39496488250E+01	3.55479842705E+01	6.39522320209E+00	-1.78563643562E+02	-4.89450183584E+01	-1.51090180253E+02	-6.02790900012E+00	-3.40681276313E-01
3.10138848399E+05	-1.64440656511E+01	1.90371914367E+01	6.44636910893E+00	-1.77911272179E+02	-3.58781658212E+01	-2.99428952062E+01	-5.97958149172E+00	-6.78853384188E-01
3.10363022365E+05	-1.68363892248E+01	2.92371560260E+01	6.46373585815E+00	-1.77736700684E+02	-3.92804832257E+01	1.28556994893E+02	-6.02425902628E+00	-2.21094101292E-01
3.10587358368E+05	-2.91112074500E+01	-1.59308117878E+02	6.53882885114E+00	-1.77880974317E+02	-4.03289584584E+01	-9.71074029011E+01	-6.02393009261E+00	-3.72753058368E-01
3.10811856525E+05	-1.65284149211E+01	-7.02517097100E+01	6.48209888694E+00	-1.76919420417E+02	-3.30269222706E+01	1.67110772892E+01	-5.99307700524E+00	-1.73831079716E-01
3.11036516954E+05	-2.30318680862E+01	-1.90050935286E+01	6.47368447762E+00	-1.77634640776E+02	-4.03086207418E+01	1.29371867101E+02	-6.05399686862E+00	7.56918463872E-02
3.11261339771E+05	-1.86670737989E+01	6.56481485506E+01	6.44285253385E+00	-1.78294654415E+02	-4.18873121477E+01	-4.65509003653E+01	-6.02213633173E+00	-3.69288582777E-01
3.11486325094E+05	-2.19949247213E+01	1.69865137235E+02	6.58676579874E+00	-1.77550867428E+02	-4.05139053886E+01	1.31989760602E+01	-6.03684930445E+00	-1.80423242813E-01
3.11711473040E+05	-1.85150136437E+01	9.32931888725E+01	6.53950910022E+00	-1.78388195175E+02	-3.33943998523E+01	-7.87224377253E+00	-5.96951702715E+00	-1.15091210766E-01
3.11936783728E+05	-1.77281755380E+01	2.93680187940E+01	6.43665682697E+00	-1.77716956460E+02	-3.84025506283E+01	-1.78094713264E+00	-5.99704268581E+00	-1.57892674397E-01
3.12162257274E+05	-2.46901452097E+01	-2.29188372414E+01	6.48963518243E+00	-1.77574027214E+02	-4.49367487129E+01	-1.64662701558E+02	-6.05506610563E+00	-3.53770483369E-01
3.12387893797E+05	-9.67734878648E+00	2.10765465307E+00	6.29148563177E+00	-1.77698115480E+02	-4.58690677799E+01	-5.45995349999E+01	-6.04474633921E+00	-3.29438645980E-01
3.12613693413E+05	-1.95776037102E+01	1.70303470438E+02	6.55079914139E+00	-1.77694284380E+02	-3.18616827450E+01	-1.55022235590E+02	-6.10836056029E+00	-4.66051453526E-01
3.12839656242E+05	-1.91464553955E+01	4.84158624744E+01	6.49686170048E+00	-1.77964890753E+02	-4.42622344393E+01	-1.25216016841E+02	-6.05186661665E+00	-1.38208495863E-01
3.13065782401E+05	-2.84301557318E+01	8.42123082100E-01	6.50812955877E+00	-1.77894809901E+02	-4.51346525558E+01	1.03423516896E+02	-6.05570427592E+00	-1.36132306249E-01
3.13292072007E+05	-1.32229871079E+01	-6.83312354863E+01	6.43015878151E+00	-1.76768830972E+02	-3.95186652560E+01	-3.58676566482E+01	-6.02516706043E+00	-2.48692213526E-01
3.13518525180E+05	-1.95043206224E+01	4.29819381623E+01	6.45405356746E+00	-1.77699585589E+02	-2.60016755305E+01	1.75540511654E+02	-6.20079852438E+00	-3.21368937875E-01
3.13745142038E+05	-2.38090351777E+01	-2.51420703708E+01	6.45949483202E+00	-1.77735103218E+02	-4.66948728763E+01	-6.47849076824E+01	-6.00727853342E+00	-1.72850202761E-01
3.13971922698E+05	-1.50729549522E+01	-8.90783956240E+00	6.36340050869E+00	-1.77603377021E+02	-5.09718957113E+01	-8.21636889554E+01	-6.01652877436E+00	-3.50275059238E-01
3.14198867279E+05	-1.82120724339E+01	-1.78793638382E+02	6.59187739424E+00	-1.77759619695E+02	-4.80738684057E+01	4.60431277739E+01	-6.04066572444E+00	-6.63849732773E-02
3.14425975900E+05	-2.64345250017E+01	-5.22932406261E+01	6.50398738607E+00	-1.77629885968E+02	-3.42063392545E+01	-8.96673796577E+01	-6.01986232605E+00	-5.40422830021E-01
3.14653248680E+05	-1.93969041550E+01	4.65561724624E+01	6.46814481642E+00	-1.78268269146E+02	-3.96064844305E+01	-8.76783214925E+01	-6.02603742993E+00	-1.68072510384E-01
3.14880685736E+05	-1.31515952307E+01	-1.35987395699E+01	6.38993710370E+00	-1.77667464855E+02	-5.01347442002E+01	-4.78993864767E+01	-6.01190185008E+00	-3.76943488238E-01
3.15108287188E+05	-2.39212024609E+01	-1.00536988745E+02	6.51697324612E+00	-1.77321551419E+02	-3.61149616272E+01	-1.59768847586E+01	-5.97743849026E+00	-3.90035098906E-01
3.15336053154E+05	-2.15835801200E+01	3.51111908418E+01	6.48451123211E+00	-1.77903416164E+02	-3.03027195763E+01	-5.12285042958E+01	-5.97920485131E+00	-7.03332509703E-01
3.15563983753E+05	-1.75642419183E+01	5.57905491940E+01	6.42312434565E+00	-1.78288510055E+02	-4.26613835064E+01	-3.32203760764E+01	-6.03920029473E+00	-2.53851692847E-01
3.15792079105E+05	-1.35363513156E+01	5.26242368037E+01	6.42730808596E+00	-1.78789779939E+02	-3.98462549667E+01	1.36258476112E+02	-6.08646887363E+00	-1.39177171370E-01
3.16020339328E+05	-1.78809497640E+01	5.34051185101E+01	6.50309062318E+00	-1.77940009078E+02	-3.87823292743E+01	-1.41575398148E+02	-6.06061368049E+00	-2.72616928162E-01
3.16248764542E+05	-2.24413059798E+01	-8.41085059286E+01	6.47435589704E+00	-1.77556107540E+02	-3.85821459834E+01	2.95497376726E+01	-6.02572580074E+00	5.28001399805E-03
3.16477354866E+05	-1.56421272465E+01	2.50313416204E+01	6.41215432214E+00	-1.78002087957E+02	-3.70770634707E+01	6.46530706510E+01	-6.01658553038E+00	-1.47053931198E-01
3.16706110419E+05	-1.53998755220E+01	-1.63786610499E+02	6.60237983817E+00	-1.77543944117E+02	-4.73680174127E+01	-4.04161155694E+01	-6.03496025868E+00	-2.54006519004E-01
3.16935031321E+05	-2.13126188500E+01	5.68236582230E+00	6.45279191826E+00	-1.77954009091E+02	-3.19467339690E+01	5.90180027124E+01	-6.03322468595E+00	1.12045479460E-02
3.17164117691E+05	-2.31798770670E+01	2.52581740720E+01	6.50166176951E+00	-1.77770834589E+02	-3.41932606729E+01	-1.89144657124E+01	-6.01521160593E+00	-4.02676914805E-01
3.17393369648E+05	-1.59391573425E+01	-1.12203658051E+01	6.47001763667E+00	-1.78062180526E+02	-4.51216638443E+01	-1.71712638508E+02	-6.05459169553E+00	-2.42682428632E-01
3.17622787313E+05	-1.42288107376E+01	-2.92057684397E+01	6.40529536651E+00	-1.77326546756E+02	-3.96446763925E+01	-1.21395339926E+02	-6.06948886597E+00	-4.89241291202E-01
3.17852370806E+05	-2.14739784666E+01	1.57486793155E+00	6.45937378218E+00	-1.77960711641E+02	-3.82889314381E+01	-7.12554337950E+00	-5.99626335056E+00	-2.42732603310E-01
3.18082120245E+05	-2.73218523940E+01	8.41575546276E+01	6.47893113598E+00	-1.77956425770E+02	-4.08361105872E+01	-1.85818129817E+01	-6.01378977391E+00	-3.09606567283E-01
3.18312035752E+05	-1.79539801028E+01	2.40113715645E+01	6.42853480040E+00	-1.77856395148E+02	-3.88965346651E+01	2.83939246233E+01	-6.01559620086E+00	4.76039107875E-02
3.18542117445E+05	-1.27435520287E+01	-1.47241648306E+01	6.33268898852E+00	-1.77664229484E+02	-3.79927429397E+01	1.36707169384E+02	-6.05004794590E+00	-2.75819978210E-01
3.18772365446E+05	-2.05544405849E+01	1.47640912463E+01	6.45570335212E+00	-1.77904469177E+02	-4.30595110294E+01	-1.09373088497E+02	-6.03952702788E+00	-3.08607598385E-01
3.19002779874E+05	-1.86123918830E+01	2.96421325498E+00	6.46163286820E+00	-1.77902532058E+02	-4.04109037371E+01	6.08936982905E+01	-6.00178174738E+00	-1.33058395310E-01
3.19233360850E+05	-2.01395945977E+01	6.34295832448E+01	6.52390033185E+00	-1.78276146852E+02	-5.83976231767E+01	1.04926575238E+02	-6.02791759526E+00	-2.18336195966E-01
3.19464108494E+05	-2.15510365101E+01	-9.81936829310E+00	6.44397903784E+00	-1.77840762334E+02	-4.34491592264E+01	-1.00427755069E+02	-6.01447478833E+00	-1.00258132572E-01
3.19695022927E+05	-2.94620830843E+01	-7.43805757935E+01	6.48655936398E+00	-1.77958937304E+02	-3.92708592195E+01	-1.78936856705E+02	-6.07397633310E+00	-2.86829024957E-01
3.19926104268E+05	-2.31675274981E+01	6.74874461593E+00	6.48154878321E+00	-1.77797310489E+02	-3.81983971628E+01	9.83573631961E+01	-6.05367579091E+00	-1.42741198275E-01
3.20157352640E+05	-1.71730030996E+01	3.00177063903E+01	6.40263915820E+00	-1.78348201573E+02	-3.92020082169E+01	-5.77643836408E+01	-5.99781342238E+00	-3.88257841819E-01
3.20388768162E+05	-2.55205202923E+01	1.19386075274E+02	6.48004763812E+00	-1.78267175543E+02	-4.03754342070E+01	-4.29987695745E+01	-6.04284592245E+00	-3.56032874402E-01
3.20620350955E+05	-1.85299196283E+01	5.72100940464E+01	6.46748230537E+00	-1.78289229951E+02	-3.63603302255E+01	-9.19141879795E+01	-6.05040025742E+00	-4.79807889589E-01
3.20852101140E+05	-1.53118342488E+01	4.05575518523E+01	6.41885929100E+00	-1.78177923038E+02	-3.91231746585E+01	-1.67048918946E+02	-6.07556165323E+00	-3.04319993422E-01
3.21084018839E+05	-1.49467763021E+01	2.29514009180E+01	6.35052400069E+00	-1.78271333345E+02	-4.38848361803E+01	1.18424781228E+02	-6.04606732262E+00	-1.11028203984E-01
3.21316104172E+05	-2.54798431707E+01	1.40041247487E+02	6.57712163818E+00	-1.78182635880E+02	-4.38947177671E+01	-3.72995235972E+01	-6.04364828586E+00	-2.26799823784E-01
3.21548357261E+05	-2.86892115295E+01	-9.75036648115E+00	6.47831400505E+00	-1.77735877153E+02	-3.86013806819E+01	4.92323178004E+01	-6.01493348142E+00	1.57928586125E-01
3.21780778226E+05	-1.74675076390E+01	1.90189351689E+01	6.45621278512E+00	-1.78153938440E+02	-3.82586060904E+01	-1.50238831745E+02	-6.06789771176E+00	-2.59679229580E-01
3.22013367189E+05	-1.31064432541E+01	-7.79200473463E+00	6.38083958788E+00	-1.77717281571E+02	-5.22943391618E+01	5.21821296006E+01	-6.06512224280E+00	-2.51922331078E-01
3.22246124272E+05	-1.65643584293E+01	3.90889436669E+01	6.44940864325E+00	-1.78391316539E+02	-3.96541183073E+01	1.02577812705E+02	-6.05172471683E+00	1.11497583261E-01
3.22479049596E+05	-1.97653209339E+01	1.02010014558E+02	6.51829061203E+00	-1.78526406436E+02	-4.35595003001E+01	-1.79770238511E+02	-6.05446885240E+00	-2.15193822551E-01
3.22712143282E+05	-2.06144076232E+01	-7.65296633718E+00	6.46737183687E+00	-1.77469228353E+02	-3.95739275714E+01	3.82721764243E+01	-6.04983653521E+00	-1.24545566911E-01
3.22945405453E+05	-1.81035284160E+01	-3.34082248562E+01	6.47165027499E+00	-1.77743217333E+02	-3.64732476895E+01	-1.48054032665E+02	-6.04755637314E+00	-3.83480920877E-01
3.23178836230E+05	-1.49241561763E+01	2.11771204443E+01	6.43774768643E+00	-1.78422325515E+02	-4.81039872664E+01	-7.29848371838E+01	-6.04097438928E+00	-3.85754729308E-01
3.23412435735E+05	-1.81140834241E+01	1.10004580654E+02	6.51306181747E+00	-1.78274411247E+02	-4.12714304162E+01	1.17498770472E+02	-6.06756680495E+00	-5.35259786385E-02
3.23646204090E+05	-2.08840626543E+01	-1.85659797447E+01	6.40511527231E+00	-1.77871853991E+02	-5.54073852394E+01	5.97389332822E+01	-5.99550688020E+00	-1.09607193298E-01
3.23880141417E+05	-1.70978101261E+01	5.26181812885E+01	6.48348335709E+00	-1.78355714508E+02	-3.99249242491E+01	1.53724109658E+02	-6.06132336510E+00	-2.89645829816E-01
3.24114247838E+05	-2.78443878874E+01	1.58309744271E+00	6.43788806848E+00	-1.78175409760E+02	-3.66542419745E+01	-4.69735638221E+01	-5.99854782558E+00	-2.73671524461E-01
3.24348523475E+05	-1.63581762816E+01	4.61943075518E+01	6.42480750361E+00	-1.78103944633E+02	-4.77343393097E+01	-1.64486776803E+02	-6.03720970368E+00	-9.98721032798E-02
3.24582968451E+05	-1.40962565965E+01	7.97999765055E+01	6.46254702088E+00	-1.79035226266E+02	-4.00256475447E+01	1.63696501418E+02	-6.06227908781E+00	-4.63396995049E-02
3.24817582888E+05	-1.22545954281E+01	4.73518184233E+01	6.39519093406E+00	-1.78799850738E+02	-3.67350393917E+01	9.23469084121E+01	-6.03321122732E+00	4.31299900822E-02
3.25052366909E+05	-1.83158990630E+01	2.06259779158E+01	6.44288941330E+00	-1.77883816958E+02	-3.24363306158E+01	1.76551134812E+02	-6.14029846220E+00	-1.74116448989E-01
3.25287320635E+05	-1.83370555037E+01	1.93700759440E+01	6.42199647439E+00	-1.78179296528E+02	-5.52564564684E+01	7.65315105926E+01	-6.04043128222E+00	-4.64714918371E-02
3.25522444191E+05	-1.81199042579E+01	3.71658574588E+01	6.44052973841E+00	-1.78683005979E+02	-4.02554503834E+01	-4.71438599154E+01	-6.01060679825E+00	-4.65224224516E-01
3.25757737698E+05	-2.16615258640E+01	-2.10807860838E+01	6.50980023082E+00	-1.77907655874E+02	-3.80726222583E+01	-6.54488470850E+01	-6.03776979831E+00	-2.35924179667E-01
3.25993201280E+05	-3.12403779543E+01	-1.04365280187E+01	6.50831693630E+00	-1.77847906366E+02	-3.91600066110E+01	-1.10564779193E+02	-6.06660927162E+00	-5.25998556103E-01
3.26228835058E+05	-1.71200086189E+01	8.21966672235E-01	6.44004789252E+00	-1.77731881512E+02	-4.11296310980E+01	-1.07011554590E+02	-6.03902665850E+00	-2.41307017229E-01
