# Hz S DB R 50
! CMT, M5065, 19127446, 24.2.4/2
! Date: 11/1/2024 3:39:16 PM
! Data: Format (Calibration Info)
! Freq	S11:dB/Ang(F2)	S21:dB/Ang(F2)	S12:dB/Ang(F2)	S22:dB/Ang(F2)
3.00000000000E+05	-1.86369719609E+01	-9.46271614505E+01	1.47318685953E+01	-1.76867206938E+02	-4.42238395857E+01	4.23041024286E+01	-6.02729032085E+00	-1.43396494787E-01
3.00216845423E+05	-2.61975564143E+01	1.39042438621E+02	1.47735275487E+01	-1.77288535530E+02	-3.61288536406E+01	-8.09484528370E+01	-6.03267714443E+00	-7.75962502881E-01
3.00433847586E+05	-2.83081124601E+01	3.80771163128E+01	1.47658860931E+01	-1.77438003707E+02	-4.07272605845E+01	9.08578691033E+01	-6.02445169946E+00	7.56030790520E-02
3.00651006602E+05	-1.09711836117E+01	3.39354322033E+01	1.45905329862E+01	-1.77818070162E+02	-4.03581165127E+01	8.63513720356E+01	-6.05939904915E+00	1.35832439276E-01
3.00868322584E+05	-6.47066974817E+00	-2.42824788645E+01	1.44571151549E+01	-1.76099887195E+02	-2.80527491044E+01	-8.15896903709E+00	-5.77237675674E+00	-2.65225346001E-01
3.01085795647E+05	-2.72147478297E+01	2.55826398597E+01	1.46988927894E+01	-1.77507965803E+02	-3.77806859157E+01	3.90449997512E+01	-5.99889451597E+00	7.00680255273E-02
3.01303425902E+05	-2.06480294886E+01	8.26586318597E+01	1.47019372314E+01	-1.77595328933E+02	-3.85652645322E+01	-5.82319885059E+01	-5.97588867453E+00	-4.80306943064E-01
3.01521213465E+05	-2.38764462148E+01	1.32925671877E+01	1.46801852552E+01	-1.77454855487E+02	-5.77458920731E+01	1.57219326432E+02	-6.10848045681E+00	-3.24362717317E-01
3.01739158449E+05	-1.92629243606E+01	3.20130030174E+01	1.46410485834E+01	-1.77410395184E+02	-3.60138601135E+01	-1.27427313812E+02	-6.08079683092E+00	-9.32312101116E-01
3.01957260967E+05	-1.36123256437E+01	1.98015913707E+01	1.46013241514E+01	-1.77850602565E+02	-4.08014310171E+01	1.45645898656E+02	-6.09328138648E+00	-1.14522639243E-01
3.02175521134E+05	-1.21269347558E+01	6.58464688920E-01	1.45693914412E+01	-1.77351920204E+02	-5.76739661316E+01	-4.99253888672E+01	-6.08728844112E+00	-2.58744580414E-01
3.02393939063E+05	-1.60199785264E+01	-1.31638582997E+02	1.48548278704E+01	-1.76820061260E+02	-3.44614636744E+01	-1.49898598740E+02	-6.15743060768E+00	-9.76412132656E-01
3.02612514869E+05	-1.83384870497E+01	3.37714807406E+01	1.46408737275E+01	-1.77546213128E+02	-3.59035799046E+01	-1.51735435177E+02	-6.10230605575E+00	-8.28651921996E-01
3.02831248665E+05	-1.68745781087E+01	4.72466596508E+01	1.47175084921E+01	-1.77754385347E+02	-3.57924454701E+01	2.00787106416E+01	-5.94715407421E+00	1.96458095599E-01
3.03050140565E+05	-1.86911735191E+01	-1.75855607659E+02	1.47958153790E+01	-1.77376161400E+02	-5.56941945750E+01	2.69559134200E+01	-6.07631726131E+00	-3.69674880096E-01
3.03269190685E+05	-1.91021618185E+01	5.85132185604E+01	1.46972999335E+01	-1.77633518486E+02	-4.29273161267E+01	1.66252816882E+02	-6.07142373188E+00	-2.06877132173E-01
3.03488399138E+05	-2.28751079440E+01	-3.40782924081E-01	1.47176803619E+01	-1.77432872811E+02	-4.58253497110E+01	-1.12438727591E+02	-6.05140532517E+00	-5.83848500308E-01
3.03707766039E+05	-1.78543013855E+01	5.77021314306E+01	1.46851976628E+01	-1.77882082122E+02	-3.67703139081E+01	1.32589787239E+02	-6.08943705543E+00	-5.21099672673E-03
3.03927291503E+05	-5.75519723625E+00	-1.03245510248E+01	1.43628544062E+01	-1.77165975898E+02	-3.45885584601E+01	1.53550723934E+02	-6.18232561270E+00	3.72824477682E-01
3.04146975643E+05	-2.38353634660E+01	7.01199641147E+01	1.47359547455E+01	-1.77949542133E+02	-3.71272028795E+01	-4.43367237958E+01	-5.97802881893E+00	-4.23803556935E-01
3.04366818575E+05	-2.02026734465E+01	7.53325410221E+01	1.47114811179E+01	-1.77991741555E+02	-5.14618087496E+01	4.12635378336E+01	-6.04622924320E+00	-2.61697885291E-01
3.04586820414E+05	-2.54966219115E+01	-6.10278349381E+01	1.47295486437E+01	-1.77411502315E+02	-3.84251630858E+01	-3.39061541136E+01	-5.97312573211E+00	-5.38469405273E-01
3.04806981274E+05	-2.13691228803E+01	1.23922683516E+01	1.46701291152E+01	-1.77323041635E+02	-4.02558115085E+01	1.77116344894E+02	-6.07661702445E+00	-3.80229797098E-01
3.05027301270E+05	-3.18186098125E+01	1.76352756936E+02	1.47691288572E+01	-1.77699102506E+02	-4.00731819476E+01	-1.21528003021E+02	-6.04424713053E+00	-5.35591412798E-01
3.05247780517E+05	-2.25639535795E+01	-2.80365142998E+01	1.47622563140E+01	-1.77040529201E+02	-3.45329431939E+01	-7.07072512192E+01	-5.98648575624E+00	-1.12892361014E+00
3.05468419131E+05	-7.82015161612E+00	-1.07342072995E+02	1.48294454863E+01	-1.75457055540E+02	-3.96460889868E+01	3.35237258855E+01	-6.00859406945E+00	1.94718543084E-02
3.05689217226E+05	-2.16737525818E+01	-8.07891364992E+01	1.47493663599E+01	-1.77312008326E+02	-3.90923224115E+01	1.50541274855E+01	-5.97780918243E+00	1.47069752128E-01
3.05910174918E+05	-2.30766607955E+01	4.48501228379E+01	1.47246711322E+01	-1.77710081488E+02	-5.20614347276E+01	8.79168016884E+01	-6.05048997984E+00	5.14346168028E-02
3.06131292322E+05	-2.33405836545E+01	1.96405858159E+01	1.47232679073E+01	-1.77412554274E+02	-4.09798668924E+01	-5.20090488387E+01	-5.97047308779E+00	-4.38454627765E-01
3.06352569554E+05	-1.42998192593E+01	3.27732676380E+00	1.45903120551E+01	-1.77316840015E+02	-4.14564565661E+01	-1.31934225118E+02	-6.09776245905E+00	-5.39950901623E-01
3.06574006730E+05	-1.59160749781E+01	9.13947381841E+00	1.46770565822E+01	-1.77186193180E+02	-3.96665965766E+01	1.32602654392E+02	-6.05259253858E+00	-1.10750119185E-02
3.06795603964E+05	-1.41614881919E+01	-2.89153150147E+00	1.46433849782E+01	-1.77343522122E+02	-4.98265151609E+01	7.05968653984E+01	-6.02426112157E+00	7.70167454590E-03
3.07017361372E+05	-1.45343107632E+01	-1.24554027695E+02	1.47751058101E+01	-1.76745306947E+02	-3.32173009552E+01	1.24025250136E+02	-6.12597843096E+00	7.38663163193E-01
3.07239279071E+05	-1.45159937321E+01	1.55473973400E+02	1.48478572899E+01	-1.78048408701E+02	-3.63644503569E+01	1.12264884273E+02	-6.08262649258E+00	2.39420359711E-01
3.07461357176E+05	-1.62916152457E+01	5.19596005627E+01	1.47113984385E+01	-1.77896452285E+02	-3.77403901773E+01	9.04238014043E+00	-5.96867028545E+00	-3.59557126380E-01
3.07683595803E+05	-1.53639221339E+01	2.15038779098E+01	1.46413847378E+01	-1.77811079282E+02	-3.53125917811E+01	-1.54763330830E+02	-6.11569559785E+00	-6.54672192447E-01
3.07905995068E+05	-2.00294093764E+01	3.78156782131E+01	1.47157158054E+01	-1.77870798364E+02	-4.16359437423E+01	1.58692742335E+02	-6.08761920573E+00	-2.38157855195E-02
3.08128555087E+05	-1.59131328512E+01	-2.57088161578E+01	1.46753619610E+01	-1.77187323169E+02	-4.36139870499E+01	-1.09644526156E+02	-6.05723454510E+00	-8.84694002771E-01
3.08351275976E+05	-1.85336258678E+01	-7.61144906480E+01	1.47561387406E+01	-1.77051130384E+02	-3.97311180875E+01	9.34743691271E+01	-6.04276783306E+00	2.45252412299E-02
3.08574157853E+05	-3.20670631669E+01	1.67972127619E+02	1.47853940051E+01	-1.77652086177E+02	-3.46752243071E+01	-6.03808647636E+01	-5.96425174245E+00	-1.32983164967E+00
3.08797200832E+05	-1.87886509933E+01	-3.32996268593E+01	1.47086477776E+01	-1.77129073213E+02	-3.30739603929E+01	5.14445130879E+00	-5.88565428226E+00	-7.25749090429E-02
3.09020405031E+05	-1.63628673309E+01	-5.53860272154E+00	1.46197458568E+01	-1.77406336451E+02	-5.09814960320E+01	1.30843603791E+02	-6.05311964614E+00	-9.68814260788E-02
3.09243770566E+05	-2.85467530022E+01	-9.01226320755E+01	1.47333446597E+01	-1.77432072365E+02	-3.83338770726E+01	7.94384284834E+01	-6.06450380514E+00	2.09715271661E-01
3.09467297553E+05	-1.53192460698E+01	-4.67468152653E+01	1.46900940429E+01	-1.77121743284E+02	-4.24661917534E+01	1.20321171032E+02	-6.03402659406E+00	-1.49049352226E-01
3.09690986110E+05	-1.66270231561E+01	1.33870695001E+02	1.47967425272E+01	-1.77753432649E+02	-3.74376105292E+01	-1.54103382964E+02	-6.11407834858E+00	-6.16318263639E-01
3.09914836353E+05	-1.84626122730E+01	-1.36540276344E+00	1.46371133342E+01	-1.77764554139E+02	-4.15593290218E+01	-6.13002459449E+01	-6.02807251053E+00	-3.69490104469E-01
3.10138848399E+05	-1.43981054993E+01	-5.64654835094E+01	1.47232665603E+01	-1.76598676766E+02	-3.18345098122E+01	4.68804328357E+01	-5.88536199766E+00	8.58809547816E-01
3.10363022365E+05	-4.51714852683E+00	3.20051897969E+01	1.43636466890E+01	-1.79092712372E+02	-3.54608496036E+01	7.57628009706E+01	-6.00684203287E+00	5.15437659359E-01
3.10587358368E+05	-2.95542077226E+01	4.48351591993E+01	1.47474624542E+01	-1.77787529006E+02	-4.21246718010E+01	-1.26088111264E+02	-6.06881682172E+00	-5.29084922265E-01
3.10811856525E+05	-1.65464444445E+01	-9.01791596455E+01	1.47420845004E+01	-1.77108591360E+02	-5.09229257927E+01	9.04722146428E+01	-6.05529581100E+00	-4.41668057425E-01
3.11036516954E+05	-1.63762256675E+01	4.92602799056E+01	1.46634480143E+01	-1.78082442027E+02	-3.89044139942E+01	7.00013359474E+01	-6.01677897206E+00	1.49664986347E-01
3.11261339771E+05	-2.19887745376E+01	1.42261316653E+02	1.47473121660E+01	-1.77703609373E+02	-4.70096686481E+01	-5.42139293792E+01	-6.02941115414E+00	-4.80150891901E-01
3.11486325094E+05	-1.46888521503E+01	8.02961993495E+01	1.47168455926E+01	-1.78266728992E+02	-5.45584025081E+01	-1.47722949011E+02	-6.05003521197E+00	-4.26476724855E-01
3.11711473040E+05	-1.05812470905E+01	-1.13248253084E+02	1.48422416041E+01	-1.76287737549E+02	-3.18680425446E+01	-1.69993752585E+02	-6.23108870481E+00	-5.34239937876E-01
3.11936783728E+05	-1.09902479183E+01	-2.62223097645E+00	1.45833073330E+01	-1.77612982801E+02	-3.40959414220E+01	-9.04930355411E+01	-6.05087154826E+00	-1.40889719037E+00
3.12162257274E+05	-1.62982238517E+01	6.01333876668E+00	1.46349529793E+01	-1.77662280338E+02	-4.23002590918E+01	-5.66610645352E+01	-6.03917514388E+00	-3.09137398160E-01
3.12387893797E+05	-2.02779977772E+01	-5.13125990346E-01	1.46801606701E+01	-1.77590580351E+02	-3.64272756073E+01	-4.06569430723E+01	-6.00225917234E+00	-7.69740161180E-01
3.12613693413E+05	-1.76218863368E+01	2.88472620536E+01	1.46920741324E+01	-1.77749369765E+02	-4.02197698894E+01	-6.11672360416E+01	-5.99528465478E+00	-7.69009686669E-01
3.12839656242E+05	-2.61612567862E+01	-1.23886049333E+02	1.47067932150E+01	-1.77346313714E+02	-3.96824937879E+01	1.29681090873E+02	-6.05412558581E+00	-8.16565137542E-02
3.13065782401E+05	-3.13649198857E+01	-6.55543387695E+01	1.47282723888E+01	-1.77589377158E+02	-5.68712590958E+01	-1.05183758506E+01	-5.96503344174E+00	-1.62788391132E-01
3.13292072007E+05	-8.30220805561E+00	-7.90410969089E+01	1.47204276489E+01	-1.75617852775E+02	-2.57520139188E+01	4.34063743443E+01	-5.73886466207E+00	1.55117923833E+00
3.13518525180E+05	-1.36378929509E+01	-9.74055692333E+01	1.47878041490E+01	-1.76508966107E+02	-4.25892159293E+01	1.62211150687E+02	-6.06764924758E+00	-3.96159523920E-01
3.13745142038E+05	-2.15336058468E+01	8.57146113483E+01	1.47641601748E+01	-1.77707799187E+02	-4.44778293312E+01	-8.25281410889E+01	-6.03824798446E+00	-4.46441604757E-01
3.13971922698E+05	-2.21408167894E+01	1.13496531854E+01	1.46833703833E+01	-1.77734021055E+02	-4.46541604396E+01	1.55031635064E+02	-6.05767661791E+00	-1.61186745196E-01
3.14198867279E+05	-2.18647685210E+01	9.95331024110E+01	1.46908491922E+01	-1.77864666558E+02	-3.49762596295E+01	-2.58885268684E+01	-5.91551896121E+00	-4.02976316457E-01
3.14425975900E+05	-2.23319665411E+01	-2.82625712701E+01	1.46994974218E+01	-1.77275323328E+02	-4.23429455508E+01	1.75828742501E+02	-6.10844672807E+00	-4.45478475934E-01
3.14653248680E+05	-1.59386694483E+01	2.45248701733E+01	1.46712223948E+01	-1.77622119518E+02	-5.20614660471E+01	1.75904671031E+02	-6.04376962928E+00	-2.93140299606E-01
3.14880685736E+05	-1.46740353270E+01	1.15749593947E+02	1.47908793321E+01	-1.78473891829E+02	-3.12800454683E+01	-1.46079463871E+01	-5.90314256855E+00	-7.63405007064E-01
3.15108287188E+05	-1.47916144357E+01	1.47058584092E+02	1.48763894219E+01	-1.77962001849E+02	-2.69893544970E+01	-1.75342080428E+02	-6.36426158141E+00	-7.96157108428E-01
3.15336053154E+05	-1.45174922947E+01	2.34862760301E+01	1.46125365575E+01	-1.78022839957E+02	-4.52156121515E+01	-6.89569167719E+01	-5.95970610797E+00	-5.07008075919E-01
3.15563983753E+05	-2.12243413971E+01	-8.82223338603E+01	1.47231911911E+01	-1.77442698944E+02	-4.81495975805E+01	5.75245027701E+01	-6.01950714106E+00	2.50647775126E-01
3.15792079105E+05	-2.83493246455E+01	1.37224642106E+02	1.47450898522E+01	-1.77870428853E+02	-3.37635666007E+01	4.77940842440E+01	-5.95506636015E+00	4.05250093258E-01
3.16020339328E+05	-1.37203830943E+01	5.24810208218E+01	1.46757374130E+01	-1.77925503189E+02	-3.99421909792E+01	1.41352246026E+01	-5.98744448171E+00	5.83482809263E-02
3.16248764542E+05	-1.53280601822E+01	2.72198918497E+01	1.46832169677E+01	-1.77738431185E+02	-4.57664922357E+01	-1.64850467734E+01	-6.01478589069E+00	-5.44583164292E-01
3.16477354866E+05	-1.59219849674E+01	1.64434465178E+02	1.48666885873E+01	-1.78256670682E+02	-3.06720500381E+01	-1.80925392690E+01	-5.82654331787E+00	-8.59987026412E-01
3.16706110419E+05	-1.23188530212E+01	1.97205604429E+01	1.46059688693E+01	-1.78052815834E+02	-2.92796154517E+01	1.53418416670E+02	-6.31403244838E+00	2.06354877647E-01
3.16935031321E+05	-2.06293093409E+01	1.74794059823E+01	1.46908759176E+01	-1.78033580554E+02	-5.24865187795E+01	-5.54265627510E+01	-6.05352302128E+00	-1.88281787596E-01
3.17164117691E+05	-3.32113699227E+01	4.26747800916E+01	1.47131472489E+01	-1.77808766143E+02	-5.98998817875E+01	4.43179837533E+01	-5.97575325314E+00	-3.77466136694E-02
3.17393369648E+05	-1.80816635760E+01	-4.81127429615E+01	1.47160281405E+01	-1.77347688941E+02	-3.63555055371E+01	-1.29927011588E+02	-6.07171293447E+00	-6.90143812004E-01
3.17622787313E+05	-1.66925815028E+01	3.67122239729E+01	1.47037361431E+01	-1.77941235506E+02	-3.39720646987E+01	-3.00273512764E+01	-5.95311747221E+00	-6.66300369410E-01
3.17852370806E+05	-1.46749852095E+01	4.02454634953E+01	1.46476211188E+01	-1.78434887941E+02	-3.97677863559E+01	1.68767823479E+02	-6.11999012374E+00	-2.49593377612E-01
3.18082120245E+05	-1.24851309417E+01	1.30599109307E+02	1.48292063952E+01	-1.78579028145E+02	-4.00308326689E+01	-1.17859453145E+02	-6.04550687128E+00	-7.78083081631E-01
3.18312035752E+05	-2.75541344147E+01	1.11440684842E+02	1.47550430598E+01	-1.77898328770E+02	-3.82324127035E+01	-1.61035675133E+02	-6.10530338399E+00	-5.85656099932E-01
3.18542117445E+05	-2.03568635742E+01	2.65843481645E+01	1.46766256902E+01	-1.77827429691E+02	-3.77812251133E+01	7.30405538736E+01	-6.01680272699E+00	5.40493585027E-01
3.18772365446E+05	-1.89427804669E+01	5.37010456593E+01	1.47094658765E+01	-1.78001300963E+02	-3.84922002392E+01	-1.55553184070E+02	-6.16332302578E+00	-5.77500889122E-01
3.19002779874E+05	-1.75763553492E+01	2.49047795339E+01	1.46993278001E+01	-1.77851076918E+02	-4.19701617477E+01	-1.39763750039E+02	-6.10741868247E+00	-5.46469617490E-01
3.19233360850E+05	-2.98053373908E+01	1.96039173333E+01	1.47062439156E+01	-1.77754086719E+02	-4.53021506370E+01	-6.44464909769E+01	-6.01936123322E+00	-6.36509273831E-01
3.19464108494E+05	-1.31554672292E+01	5.60688412925E-01	1.46189420493E+01	-1.77781395142E+02	-4.49354240706E+01	-1.40821679000E+02	-6.06662090012E+00	-5.07233254346E-01
3.19695022927E+05	-1.20165905820E+01	-1.31529839533E+02	1.49086508955E+01	-1.76486826204E+02	-3.55636100446E+01	1.03473758790E+02	-6.09039300595E+00	4.13703982466E-01
3.19926104268E+05	-1.08591938382E+01	-1.12253118161E+02	1.48530617456E+01	-1.76823938531E+02	-2.57153151986E+01	-4.31874957901E+01	-5.78920300614E+00	-1.83815628055E+00
3.20157352640E+05	-2.74145812626E+01	-7.74753901879E+00	1.47019403789E+01	-1.77784707820E+02	-4.70481701864E+01	6.85741412436E+01	-6.01785640180E+00	-3.29014031382E-01
3.20388768162E+05	-2.01839366122E+01	-2.18884782811E+01	1.47058703674E+01	-1.77656626119E+02	-3.77841373800E+01	3.78296321414E+01	-5.92676509851E+00	9.83145255213E-02
3.20620350955E+05	-1.56974526015E+01	-2.53197944938E+01	1.46944092997E+01	-1.77812379253E+02	-5.10008164242E+01	1.25610525910E+02	-6.05633804478E+00	-2.26205188352E-01
3.20852101140E+05	-1.76185494114E+01	4.32153626353E+01	1.46755873191E+01	-1.77917912721E+02	-3.73297570692E+01	7.58662277015E+01	-5.99764871083E+00	3.78067658765E-01
3.21084018839E+05	-1.68612572042E+01	7.79069706512E+01	1.47094638092E+01	-1.78220233269E+02	-4.90962634623E+01	6.74958144704E+01	-5.97985006547E+00	-3.32497616241E-01
3.21316104172E+05	-1.34118760945E+01	-1.08365254107E+02	1.47801048254E+01	-1.76495472021E+02	-3.75196805916E+01	-1.48216968852E+02	-6.13552365516E+00	-5.77115877407E-01
3.21548357261E+05	-1.42232218732E+01	1.19509712009E+01	1.45358250445E+01	-1.77895317824E+02	-3.17205853771E+01	-7.02473935638E+01	-5.93912262753E+00	-1.38180407159E+00
3.21780778226E+05	-2.73354325161E+01	6.32208811895E+00	1.47012642812E+01	-1.77776141971E+02	-4.05667387729E+01	-1.62780471368E+02	-6.06998787973E+00	-5.96307995193E-01
3.22013367189E+05	-2.52042852778E+01	6.70223314716E+01	1.46917082598E+01	-1.77920011329E+02	-5.42136264116E+01	2.94412255116E-01	-6.02769910910E+00	3.52773066790E-02
3.22246124272E+05	-1.97906065973E+01	1.48411611841E+02	1.47390023492E+01	-1.77974963897E+02	-4.37800848553E+01	-1.12130844299E+02	-6.02996615436E+00	-4.98871883593E-01
3.22479049596E+05	-2.33752049197E+01	6.50925983282E+01	1.46700577022E+01	-1.77731928088E+02	-3.32780404278E+01	3.04033836999E+01	-5.91235425666E+00	1.41819546318E-01
3.22712143282E+05	-1.99884531849E+01	7.92387995661E+01	1.46926590281E+01	-1.78027590158E+02	-4.62403357017E+01	1.23268556614E+02	-6.06173208406E+00	-1.90479133863E-01
3.22945405453E+05	-9.45302790880E+00	3.59646194840E+01	1.45602357570E+01	-1.78621786165E+02	-3.52578800172E+01	-6.29938536241E+01	-5.99260173744E+00	-7.56460338510E-01
3.23178836230E+05	-5.82913203106E+00	8.93264040167E+00	1.43646337153E+01	-1.78216061622E+02	-2.68881786125E+01	-4.15273921735E+01	-5.73467029819E+00	-1.85626282163E+00
3.23412435735E+05	-2.20511805726E+01	1.05743536500E+02	1.46928844199E+01	-1.78179614099E+02	-3.98943377843E+01	-7.82810523827E+01	-5.99982226414E+00	-6.41785683215E-01
3.23646204090E+05	-1.82532919512E+01	1.04605568840E+02	1.47872180818E+01	-1.78285712233E+02	-3.55121494208E+01	-8.56414931015E+01	-6.06696391935E+00	-7.61674058732E-01
3.23880141417E+05	-1.48617390035E+01	1.14688412767E+01	1.46378628936E+01	-1.78124931441E+02	-4.10727622121E+01	-1.50862720954E+02	-6.09845133380E+00	-2.82724655873E-01
3.24114247838E+05	-1.97523133064E+01	9.22767214125E+01	1.47611797043E+01	-1.78167079902E+02	-4.90106973496E+01	7.71352045032E+01	-6.00755826591E+00	1.34246820317E-01
3.24348523475E+05	-2.02146201421E+01	2.06088270239E+01	1.47184826961E+01	-1.77903779622E+02	-3.91607000601E+01	-1.52665129633E+02	-6.08728894260E+00	-1.01063442310E+00
3.24582968451E+05	-1.99656643641E+01	-1.22274943585E+02	1.47909503990E+01	-1.77541890174E+02	-3.92688730593E+01	-9.74055931044E+01	-6.01361974941E+00	-7.79620629822E-01
3.24817582888E+05	-3.23147099432E+01	1.00985334458E+02	1.47448006314E+01	-1.78159580771E+02	-3.71364518683E+01	-9.78552795338E+01	-6.09472142108E+00	-9.30171049203E-01
3.25052366909E+05	-2.06298665448E+01	1.85011568984E+01	1.46998839928E+01	-1.77997266414E+02	-4.58651519241E+01	5.33824083933E+01	-6.03900321756E+00	1.57817942144E-01
3.25287320635E+05	-1.46753446941E+01	8.23511154923E+00	1.46603299805E+01	-1.77891097447E+02	-4.29457109106E+01	2.16560516837E+01	-5.99424450466E+00	-2.51418495737E-01
3.25522444191E+05	-1.93564418092E+01	1.32309213028E+02	1.47534945850E+01	-1.77900976109E+02	-3.75719089414E+01	6.41722147398E+01	-6.01395612269E+00	3.66963871713E-01
3.25757737698E+05	-2.70860737505E+01	-8.58337730146E+01	1.47617305120E+01	-1.77541112977E+02	-3.91408612606E+01	4.13172033579E+01	-5.97607386543E+00	1.28560917560E-01
3.25993201280E+05	-1.97288480839E+01	-3.41485830574E+00	1.47359072670E+01	-1.77762583234E+02	-3.82840779389E+01	-4.76671455638E+01	-5.98943872448E+00	-6.34978411248E-01
3.26228835058E+05	-2.83214860604E+01	1.05798125896E+02	1.47457607907E+01	-1.77945254338E+02	-3.87695614599E+01	1.74046410882E+02	-6.06818851634E+00	-2.98798125849E-01
