# Hz S DB R 50
! CMT, M5065, 19127446, 24.2.4/2
! Date: 11/1/2024 3:45:04 PM
! Data: Format (Calibration Info)
! Freq	S11:dB/Ang(F2)	S21:dB/Ang(F2)	S12:dB/Ang(F2)	S22:dB/Ang(F2)
3.00000000000E+05	-1.43701984920E+01	3.49036462144E+01	1.92656315266E+01	-1.77006864304E+02	-3.39348333894E+01	1.58659103914E+02	-6.20002355408E+00	4.08680044801E-01
3.00216845423E+05	-1.77392645288E+01	1.99394063511E+01	1.92392140973E+01	-1.77136423076E+02	-3.37599391330E+01	-1.65827044544E+02	-6.20729338970E+00	-4.78179239740E-01
3.00433847586E+05	-2.47715210895E+01	9.46282022112E+00	1.93123231530E+01	-1.76793257795E+02	-5.07257419316E+01	-6.18394128085E+01	-5.99643543583E+00	-2.45139933272E-01
3.00651006602E+05	-1.72934727247E+01	-1.13328284894E+00	1.92772032230E+01	-1.76626473008E+02	-3.43481092108E+01	8.09320160010E+01	-5.99228810709E+00	6.08231174550E-01
3.00868322584E+05	-1.46758648045E+01	1.45379068064E+02	1.94266441219E+01	-1.77276951566E+02	-3.57736859672E+01	-4.99709007370E+01	-5.91055887275E+00	-1.34043414563E+00
3.01085795647E+05	-1.90636735075E+01	1.29319385712E+02	1.93856048808E+01	-1.77139256573E+02	-4.19467223683E+01	6.54259717886E+01	-5.99152997273E+00	1.32339581598E-01
3.01303425902E+05	-9.36442662984E+00	-1.19324425732E+01	1.91131700539E+01	-1.76411758805E+02	-4.37634054106E+01	-9.35182740254E+01	-6.02015931726E+00	-1.10092792730E+00
3.01521213465E+05	-1.35353837444E+01	-2.41886380618E+01	1.92312940772E+01	-1.76377622362E+02	-4.00521254652E+01	-9.90330796859E+01	-6.09275292883E+00	-1.01821353381E+00
3.01739158449E+05	-2.09671449744E+01	1.26394202495E+01	1.92760468954E+01	-1.77131691137E+02	-4.22493823800E+01	1.22458935534E+01	-5.95679255832E+00	-9.44306571134E-02
3.01957260967E+05	-2.80705867907E+01	-5.65354639674E+01	1.93053719657E+01	-1.76736388320E+02	-2.70184259003E+01	4.65278613460E+01	-5.61855692117E+00	2.49925574709E+00
3.02175521134E+05	-1.92314911827E+01	5.95530513968E+01	1.93107184898E+01	-1.77416357575E+02	-3.35399165077E+01	-1.31749720547E+02	-6.19031004529E+00	-1.39020052587E+00
3.02393939063E+05	-2.53320117999E+01	-9.39867575071E+00	1.92781064439E+01	-1.77022444875E+02	-4.43576959559E+01	-4.90008362830E+01	-5.97499240899E+00	-4.69532977487E-01
3.02612514869E+05	-1.77698191150E+01	6.48179546158E+01	1.93251434397E+01	-1.77555829853E+02	-4.11310607550E+01	8.14225183189E+01	-6.04443911449E+00	4.63924262760E-01
3.02831248665E+05	-1.42780451856E+01	6.00625956384E+01	1.92504532772E+01	-1.77728511183E+02	-3.55727515280E+01	3.64495552700E+01	-5.91541993759E+00	3.22465766802E-01
3.03050140565E+05	-2.57474066013E+01	-2.31047915469E+01	1.92962115636E+01	-1.76584061415E+02	-5.54043641570E+01	-8.49928198751E+01	-5.98466240595E+00	-2.04480557172E-01
3.03269190685E+05	-2.20390504332E+01	-2.70240448212E+01	1.93182426892E+01	-1.76700989498E+02	-3.58072167873E+01	3.62397972948E+01	-5.89492195507E+00	4.35633860189E-01
3.03488399138E+05	-2.36279095813E+01	6.31544574613E+01	1.93275000833E+01	-1.77201748747E+02	-3.33354434735E+01	-1.65937024987E+02	-6.31971542518E+00	-4.24735494331E-01
3.03707766039E+05	-2.39604826041E+01	4.11613366281E+01	1.93016832641E+01	-1.77218043623E+02	-3.27737473614E+01	-8.15638305835E+01	-5.94237185837E+00	-2.13674711379E+00
3.03927291503E+05	-1.81643610296E+01	1.37655616437E+02	1.93545124449E+01	-1.77152123072E+02	-3.75371754575E+01	-6.71958039905E+01	-5.95214336808E+00	-1.12484317138E+00
3.04146975643E+05	-9.81312368929E+00	3.78987543934E+01	1.91686832615E+01	-1.77683143003E+02	-4.50680439002E+01	4.01257907228E+01	-5.93995017409E+00	-1.68206625601E-01
3.04366818575E+05	-1.41332747761E+01	-4.98647752752E+01	1.92668275655E+01	-1.76023661190E+02	-3.57898989110E+01	-7.57362191704E+01	-5.99395910564E+00	-7.75122849412E-01
3.04586820414E+05	-2.58802120109E+01	5.43927511288E+00	1.92949363582E+01	-1.76874155362E+02	-3.51537279330E+01	-1.45830291420E+02	-6.16084425131E+00	-1.24165586437E+00
3.04806981274E+05	-1.36328191019E+01	2.43599024120E+01	1.92040410313E+01	-1.77130171644E+02	-3.78751827949E+01	6.93619595196E+01	-6.01096355507E+00	4.71813426125E-01
3.05027301270E+05	-2.79533240097E+01	4.03521848968E+01	1.93289744852E+01	-1.77041256692E+02	-5.04694584841E+01	-2.25538652097E+00	-5.92844333457E+00	-4.27804076175E-01
3.05247780517E+05	-3.00082272430E+01	1.53595887249E+02	1.93516130868E+01	-1.76909729864E+02	-2.93913342620E+01	2.20452960314E+01	-5.64418067097E+00	1.01486570416E+00
3.05468419131E+05	-1.68658257163E+01	-1.35064310907E+01	1.92656843290E+01	-1.76612343307E+02	-3.86162165350E+01	1.42255273280E+01	-5.87803321565E+00	4.29613332060E-02
3.05689217226E+05	-1.16955748543E+01	7.66763438835E+01	1.92772439596E+01	-1.77914761569E+02	-4.72735052430E+01	-8.85063942941E+00	-5.98092280990E+00	-4.12616779473E-01
3.05910174918E+05	-1.75337699085E+01	6.93214295736E+01	1.92745663823E+01	-1.77617534953E+02	-4.75989176885E+01	-4.00852268675E+01	-5.98281121415E+00	-5.67346979784E-01
3.06131292322E+05	-1.99868751582E+01	-6.79420601885E+01	1.92961283725E+01	-1.76684394574E+02	-3.55545818649E+01	-1.70652390176E+02	-6.20369215680E+00	-6.78512504249E-01
3.06352569554E+05	-1.76829875578E+01	7.71263489435E+01	1.92916228968E+01	-1.77168487057E+02	-3.71572647181E+01	1.45791948010E+02	-6.17033636661E+00	1.85695986128E-02
3.06574006730E+05	-1.38922894637E+01	4.67899502951E+01	1.92677015553E+01	-1.77278878922E+02	-3.61031981300E+01	7.82963312931E+01	-5.99567601755E+00	1.20114895167E+00
3.06795603964E+05	-1.92791150992E+01	1.73543943593E+02	1.94065714058E+01	-1.76922034281E+02	-3.04661146450E+01	9.24822393481E+01	-6.09202972577E+00	2.20755617902E+00
3.07017361372E+05	-2.33142714220E+01	7.20425071525E+00	1.93176519419E+01	-1.77042330476E+02	-5.01051003938E+01	1.27163362821E+02	-6.05378451724E+00	-2.50181941280E-02
3.07239279071E+05	-1.50317540215E+01	-1.32138977554E+02	1.93931127034E+01	-1.76441093930E+02	-3.23135949898E+01	-1.14468957453E+02	-6.17166715668E+00	-1.81543220218E+00
3.07461357176E+05	-1.24893705090E+01	3.11312575348E+01	1.92253104564E+01	-1.77427860431E+02	-3.76866994727E+01	-6.80803647481E+01	-5.94584282404E+00	-9.77327412037E-01
3.07683595803E+05	-2.03514155712E+01	3.42027406387E+01	1.92895525452E+01	-1.77275199912E+02	-4.78021949318E+01	-1.17819724441E+02	-6.01423260994E+00	-5.62733271494E-01
3.07905995068E+05	-2.83901085353E+01	7.51380367525E+01	1.93286578334E+01	-1.77392630316E+02	-3.46172367598E+01	-5.40635561691E+01	-5.89042792755E+00	-1.01729543851E+00
3.08128555087E+05	-2.17015391372E+01	-5.82724538682E+01	1.93056995611E+01	-1.76677809981E+02	-2.92040591191E+01	-1.13675908692E+02	-6.19599958078E+00	-3.24161460939E+00
3.08351275976E+05	-1.59743002249E+01	-1.80966419108E+00	1.92280797274E+01	-1.77015014476E+02	-2.77622795765E+01	1.66390645247E+02	-6.58355877530E+00	-6.57724279747E-02
3.08574157853E+05	-2.43980636489E+01	-8.18036854654E+01	1.93160253276E+01	-1.76726268050E+02	-3.93359513256E+01	-1.60145894115E+02	-6.12251142003E+00	-3.86148975817E-01
3.08797200832E+05	-2.68439988636E+01	-1.20596252951E+02	1.93718007094E+01	-1.76890378906E+02	-3.83403981321E+01	9.55139534728E+01	-6.03750271314E+00	5.42142971607E-01
3.09020405031E+05	-2.30660552187E+01	-2.80837766463E+01	1.92588581837E+01	-1.76628600653E+02	-4.26359043533E+01	1.50590716252E+02	-6.09219520502E+00	1.55920092360E-01
3.09243770566E+05	-1.45445017484E+01	1.06144691791E+01	1.92362161355E+01	-1.77263234506E+02	-4.01545974548E+01	-7.58431697284E+01	-5.97571545906E+00	-7.47179808967E-01
3.09467297553E+05	-2.80724622290E+01	6.57624585036E+01	1.93361075569E+01	-1.76922042120E+02	-4.54976535455E+01	-1.71428078026E+02	-6.05065916405E+00	-5.05031188984E-01
3.09690986110E+05	-1.99966406523E+01	-1.04822065967E+02	1.93828230024E+01	-1.76655234543E+02	-3.19898889900E+01	-7.65770444219E+01	-5.87011590769E+00	-2.19935748700E+00
3.09914836353E+05	-1.93533889670E+01	5.98774422965E+01	1.92456548989E+01	-1.77219488427E+02	-3.66083028231E+01	-3.28755844634E+01	-5.93113693028E+00	-1.46304013850E+00
3.10138848399E+05	-2.23035080627E+01	-4.41224754113E+00	1.92977312436E+01	-1.76911384659E+02	-4.19850556175E+01	-8.97178082697E+01	-6.01036351671E+00	-7.35659059900E-01
3.10363022365E+05	-1.75234373164E+01	1.88808236020E+01	1.92761174508E+01	-1.77359115753E+02	-3.74630211899E+01	2.59431494046E+01	-5.93556081652E+00	1.08230987153E-01
3.10587358368E+05	-1.80570471753E+01	1.19186075959E+02	1.93635163996E+01	-1.77590124063E+02	-5.25177794659E+01	-1.77216679466E+02	-6.07528040098E+00	-3.46294746514E-01
3.10811856525E+05	-1.91981276162E+01	1.01305245578E+02	1.93238706215E+01	-1.77385724465E+02	-4.55349238890E+01	-3.35597131685E+01	-5.98985945357E+00	-3.47866991804E-01
3.11036516954E+05	-2.34185397914E+01	4.68083149701E+00	1.93258909096E+01	-1.77210315969E+02	-3.84513876771E+01	2.98401061671E+01	-5.88076794989E+00	7.01622280371E-02
3.11261339771E+05	-2.01921719009E+01	-3.77041948680E+01	1.92789017524E+01	-1.76862439294E+02	-3.98410967841E+01	1.55536307908E+02	-6.15832724015E+00	3.30339017002E-01
3.11486325094E+05	-1.72401728974E+01	-1.06757237761E+01	1.92795842317E+01	-1.77123066243E+02	-3.45799857988E+01	1.64573607094E+02	-6.27727271911E+00	1.37202395204E-01
3.11711473040E+05	-1.85460020500E+01	3.86305350469E+00	1.92750699506E+01	-1.77085236763E+02	-3.97604643707E+01	7.94382977612E+01	-5.97492967315E+00	1.78931939543E-01
3.11936783728E+05	-2.47037988967E+01	-2.27570943304E+00	1.92962903830E+01	-1.77297125224E+02	-4.81483511804E+01	-3.55531680596E+01	-6.01345280691E+00	-1.24219027963E-01
3.12162257274E+05	-1.30755082772E+01	5.67538873957E+01	1.92871227892E+01	-1.77804899656E+02	-3.95789165617E+01	-1.78468150925E+02	-6.12550010912E+00	-3.26136585271E-01
3.12387893797E+05	-1.26177732686E+01	-4.74666930440E+00	1.91784016511E+01	-1.77024769458E+02	-4.35939291253E+01	-1.20184360198E+02	-6.03187017135E+00	-5.56292618404E-01
3.12613693413E+05	-1.83803422078E+01	4.33354181952E+01	1.92837385776E+01	-1.77397247615E+02	-3.87253944388E+01	-1.22568316310E+02	-6.08755156735E+00	-8.11401100577E-01
3.12839656242E+05	-1.89646116296E+01	6.99008240298E+01	1.93050998109E+01	-1.77587002273E+02	-2.93354023133E+01	9.45532475034E+01	-6.05043565388E+00	2.52350241451E+00
3.13065782401E+05	-1.83852659245E+01	-8.43013516725E+00	1.92701894751E+01	-1.77084848563E+02	-3.45556567160E+01	9.55498554638E+00	-5.73598632319E+00	-2.22000250802E-01
3.13292072007E+05	-2.74233011718E+01	1.90891894411E+01	1.93021930888E+01	-1.77271197679E+02	-4.00110991737E+01	2.73525407910E+01	-5.90012212483E+00	1.91826836944E-01
3.13518525180E+05	-2.09850479592E+01	-2.56687102339E+01	1.92597104975E+01	-1.77105482714E+02	-4.45513429176E+01	1.63215331054E+02	-6.04861797560E+00	-5.01544586015E-01
3.13745142038E+05	-1.79123489598E+01	1.50293800689E+02	1.94166737598E+01	-1.77475478909E+02	-3.66793180515E+01	-1.61214650945E+02	-6.20813402006E+00	-8.50099645753E-01
3.13971922698E+05	-1.85218830728E+01	1.59581668612E+02	1.93964512079E+01	-1.77145610044E+02	-4.51054522416E+01	-8.17141359640E-01	-6.01098187903E+00	-1.21964627672E-01
3.14198867279E+05	-2.13668772299E+01	1.41119491954E+02	1.93231327863E+01	-1.77304592476E+02	-3.94017647440E+01	-1.72895029468E+02	-6.13405838167E+00	-2.13130808137E-01
3.14425975900E+05	-1.94962491092E+01	6.28667661049E+01	1.93077752972E+01	-1.77311979092E+02	-4.04304047393E+01	1.26024826306E+02	-6.08105505419E+00	-1.11602444348E-02
3.14653248680E+05	-2.01970094592E+01	-6.27766588361E+01	1.92896293791E+01	-1.76833946751E+02	-3.14309389660E+01	3.84239430865E+01	-5.75443451257E+00	1.03526807202E+00
3.14880685736E+05	-1.83315492414E+01	-4.88858274567E+01	1.93126321666E+01	-1.76925949553E+02	-4.33907845685E+01	-4.50152209196E+01	-5.96613936946E+00	-7.59774687427E-01
3.15108287188E+05	-3.35738070997E+01	-1.02934110147E+02	1.93031712213E+01	-1.77433413242E+02	-4.96624396813E+01	7.10467611896E+01	-5.96570127748E+00	-2.08945018231E-01
3.15336053154E+05	-2.05797052964E+01	4.73760792554E+01	1.92669578702E+01	-1.77362474811E+02	-3.93285018856E+01	-9.11593811044E+01	-6.00344679689E+00	-8.61665139241E-01
3.15563983753E+05	-2.46071697636E+01	2.87410094279E+01	1.92781382195E+01	-1.77050842765E+02	-4.08406620083E+01	2.40773639298E+01	-5.95118147455E+00	1.63487685144E-01
3.15792079105E+05	-2.19764691218E+01	-7.57420122312E+01	1.93209162257E+01	-1.77009812718E+02	-3.73478511273E+01	6.28932236480E+01	-5.92718942132E+00	5.99727681193E-01
3.16020339328E+05	-1.72759383852E+01	7.98300579522E+01	1.93356995887E+01	-1.77861867780E+02	-4.63245240305E+01	-8.28833919215E+01	-6.00378812890E+00	-8.28427678010E-01
3.16248764542E+05	-2.63695418548E+01	1.13736005151E+02	1.93654527404E+01	-1.77573893378E+02	-2.84028833280E+01	-3.23673198373E+01	-5.58185001384E+00	-1.76693829517E+00
3.16477354866E+05	-3.18874606613E+01	8.32497872443E+01	1.93113962428E+01	-1.77396257872E+02	-4.53576061161E+01	-1.33240984435E+02	-6.10194600432E+00	-9.15705287659E-01
3.16706110419E+05	-2.84723132334E+01	-1.60760819651E+01	1.92960864540E+01	-1.77282039086E+02	-3.62442534439E+01	1.00238699188E+02	-6.03389872068E+00	5.85522760601E-01
3.16935031321E+05	-1.39606365941E+01	-1.26212751606E+01	1.92097050870E+01	-1.76836848179E+02	-3.86401974485E+01	2.66652102205E+01	-5.93249998287E+00	7.05629749079E-02
3.17164117691E+05	-1.95447522087E+01	-1.11014945854E+02	1.93660671233E+01	-1.76809043934E+02	-5.40180255748E+01	-1.08818388968E+02	-6.01526699711E+00	3.14897392789E-02
3.17393369648E+05	-1.85271813786E+01	1.12373139366E+02	1.93363999636E+01	-1.77698338062E+02	-4.08391052246E+01	-1.27715501453E+02	-6.12629323478E+00	-6.81098036413E-01
3.17622787313E+05	-3.21604563835E+01	8.69426238231E-01	1.92926008942E+01	-1.77222926710E+02	-3.32115216081E+01	-9.93184478386E+01	-6.02007758375E+00	-2.06399780112E+00
3.17852370806E+05	-1.91459448822E+01	-1.36362722365E+00	1.92641304377E+01	-1.77238153288E+02	-2.44872843344E+01	-8.70086700513E+00	-5.30694339151E+00	-8.66038570614E-01
3.18082120245E+05	-1.66901929186E+01	-6.89934033738E+01	1.93495166517E+01	-1.76730359435E+02	-4.22179574365E+01	1.56663398562E+02	-6.10701894452E+00	-5.20565656440E-02
3.18312035752E+05	-1.48113386258E+01	-1.06986374058E+01	1.92211807619E+01	-1.77211596976E+02	-3.37300294518E+01	-1.10969629347E+02	-6.10579493837E+00	-1.69562231770E+00
3.18542117445E+05	-8.45343281623E+00	-4.41574285224E+01	1.91729529821E+01	-1.75774016648E+02	-4.10975309284E+01	5.45867978542E+01	-5.99570638818E+00	1.12574658652E-02
3.18772365446E+05	-1.40008854141E+01	8.94106845562E+01	1.92864272763E+01	-1.78178640663E+02	-4.14279378197E+01	-1.52760110035E+02	-6.10512837044E+00	-5.08960719173E-01
3.19002779874E+05	-2.49984313693E+01	1.31843780571E+02	1.93315302100E+01	-1.77602005353E+02	-3.66946438563E+01	-2.60475734210E+01	-5.90979084633E+00	-7.93800021313E-01
3.19233360850E+05	-2.22985666691E+01	5.96959605892E+01	1.92919588203E+01	-1.77726803308E+02	-3.04536068717E+01	8.30439865393E+01	-6.02576940605E+00	1.84332060902E+00
3.19464108494E+05	-1.53247298583E+01	1.44839908930E+01	1.92340745207E+01	-1.77448426084E+02	-3.54273033195E+01	7.71506468642E+01	-6.01372434756E+00	1.45063408636E+00
3.19695022927E+05	-2.63156748208E+01	9.39758069000E+01	1.93365291620E+01	-1.77258112763E+02	-4.28567061730E+01	-8.45774998429E+01	-6.00673190089E+00	-6.46153779386E-01
3.19926104268E+05	-2.04428638338E+01	5.48905795502E+01	1.92773651578E+01	-1.77511196050E+02	-4.19506906471E+01	-1.79751899909E+02	-6.10409338497E+00	-6.26144474346E-01
3.20157352640E+05	-1.01915681940E+01	3.28694302990E+01	1.91405004594E+01	-1.78241299173E+02	-3.73412880666E+01	-8.57141588733E+01	-5.95432435392E+00	-1.24747178145E+00
3.20388768162E+05	-2.05296271050E+01	-1.16586161504E+02	1.93920382187E+01	-1.76739119360E+02	-4.41317119054E+01	-1.09510883489E+02	-6.04534005330E+00	-6.31857320041E-01
3.20620350955E+05	-1.87543676594E+01	-2.97796990844E+01	1.92884252963E+01	-1.77021213997E+02	-4.27051999210E+01	1.10215496772E+02	-6.04436440823E+00	5.36200930314E-01
3.20852101140E+05	-1.43370546428E+01	-3.06874328358E+01	1.92414896466E+01	-1.76870057207E+02	-3.52769737208E+01	-1.42883757605E+01	-5.81970341956E+00	-5.12016420946E-01
3.21084018839E+05	-3.10792873007E+01	7.82629606867E+01	1.93330291444E+01	-1.77472899712E+02	-3.69928614226E+01	-1.16410320823E+02	-6.10052895298E+00	-1.13148127526E+00
3.21316104172E+05	-1.66820054868E+01	2.22621227309E+01	1.92354693765E+01	-1.77756646142E+02	-3.77446152366E+01	-1.34357988500E+02	-6.13106791876E+00	-8.87152529679E-01
3.21548357261E+05	-1.92189029293E+01	7.48217544485E+01	1.93208394243E+01	-1.77704676807E+02	-3.41217347631E+01	-1.10871089236E+01	-5.85855855281E+00	-6.70979818769E-01
3.21780778226E+05	-1.16348745697E+01	1.29746416529E+02	1.94563509643E+01	-1.78210527457E+02	-4.09124686857E+01	3.98078253426E+01	-5.95608880328E+00	2.74864942053E-01
3.22013367189E+05	-1.52212443849E+01	5.29209397867E+01	1.92744391707E+01	-1.78072405016E+02	-4.59606913086E+01	1.74393053812E+02	-6.07717533803E+00	-2.53409718668E-01
3.22246124272E+05	-1.93163353350E+01	-1.44214390725E+01	1.92432766178E+01	-1.77532145822E+02	-4.07832329092E+01	1.37551502610E+02	-6.10075032094E+00	-7.04787484061E-02
3.22479049596E+05	-1.53757393082E+01	7.30728193986E+01	1.93183056065E+01	-1.77773941252E+02	-4.27033626325E+01	-1.21057527799E+02	-6.10082792934E+00	-5.38294719766E-01
3.22712143282E+05	-3.07797694362E+01	-1.50780118082E+02	1.93597702921E+01	-1.77435893245E+02	-2.80843165877E+01	-6.86043316006E+01	-5.85812930006E+00	-2.99210941743E+00
3.22945405453E+05	-2.58046962103E+01	1.99403265781E+00	1.93128998637E+01	-1.77719842824E+02	-4.13677464799E+01	-1.48265122041E+02	-6.07072517404E+00	-8.36884795984E-01
3.23178836230E+05	-2.48375751151E+01	4.75318732396E+01	1.93210184057E+01	-1.77674196663E+02	-4.23136454548E+01	-1.59428776003E+02	-6.10794077898E+00	-5.07984868007E-01
3.23412435735E+05	-1.46851360185E+01	1.34021597816E+02	1.94229907006E+01	-1.77771003729E+02	-4.40459493577E+01	-5.97516206218E+01	-6.01952023071E+00	-4.96237918869E-01
3.23646204090E+05	-1.46879348567E+01	-2.98077679932E+01	1.92211526927E+01	-1.76815967335E+02	-4.04665099707E+01	-6.51309892771E+01	-5.94257115240E+00	-8.80854728108E-01
3.23880141417E+05	-1.71782946987E+01	1.39357713979E+01	1.92518849449E+01	-1.77595719902E+02	-4.55795666397E+01	-1.41143638032E+02	-6.00379437601E+00	-5.91167836781E-01
3.24114247838E+05	-2.09240036787E+01	-7.33338961900E+01	1.93042363242E+01	-1.77437577545E+02	-3.91778422220E+01	9.02760222958E+01	-6.02439421299E+00	5.37467906445E-01
3.24348523475E+05	-1.66014605984E+01	-2.44520282336E+01	1.92175316703E+01	-1.77146071598E+02	-2.87360948929E+01	6.83844272636E+01	-5.82262252134E+00	2.55815966700E+00
3.24582968451E+05	-2.08640064857E+01	6.87922090536E+01	1.93406162668E+01	-1.77678484507E+02	-3.86988676168E+01	-3.98041407216E+01	-5.94784602010E+00	-6.42487513737E-01
3.24817582888E+05	-1.48925308906E+01	8.76220788807E+01	1.93397847420E+01	-1.78161621653E+02	-3.35837208122E+01	-1.73429313562E+01	-5.82730101702E+00	-8.22261494389E-01
3.25052366909E+05	-2.00734760980E+01	-1.72269321418E+02	1.94025450087E+01	-1.77736712046E+02	-4.04083685653E+01	1.48938430741E+01	-5.90843870113E+00	-4.14436552577E-01
3.25287320635E+05	-2.10766699636E+01	-8.57589995037E+01	1.93525178540E+01	-1.77025070969E+02	-4.08870524401E+01	9.20873757797E+01	-6.01125596364E+00	2.81795505853E-01
3.25522444191E+05	-3.43862873997E+01	1.90506751405E+01	1.93186299959E+01	-1.77582439060E+02	-3.64355935760E+01	1.30223987514E+02	-6.12004467895E+00	2.50493702027E-01
3.25757737698E+05	-1.87435752835E+01	-4.08856148430E+01	1.92470727647E+01	-1.77388928468E+02	-3.68223080685E+01	7.84650283210E+01	-5.98759373292E+00	5.06393762634E-01
3.25993201280E+05	-2.54577706928E+01	-2.68422037425E+00	1.93022206403E+01	-1.77685343484E+02	-3.56016066022E+01	-3.55548162728E+01	-5.89239582708E+00	-9.30979439923E-01
3.26228835058E+05	-2.16307960053E+01	-1.47045118193E+02	1.93777887283E+01	-1.77538658274E+02	-3.42718676011E+01	-5.03774943521E+01	-5.86808925424E+00	-1.58368262261E+00
