# Hz S DB R 50
! CMT, M5065, 19127446, 24.2.4/2
! Date: 11/1/2024 3:38:17 PM
! Data: Format (Calibration Info)
! Freq	S11:dB/Ang(F2)	S21:dB/Ang(F2)	S12:dB/Ang(F2)	S22:dB/Ang(F2)
3.00000000000E+05	-2.72035344437E+01	-2.24033173420E+01	1.41175382524E+01	-1.77528141370E+02	-4.33369930608E+01	2.31599095632E+01	-5.97786063418E+00	-1.86908793438E-01
3.00216845423E+05	-1.33770423477E+01	1.63187338103E+00	1.40661470624E+01	-1.77602690403E+02	-4.15644184111E+01	-1.15776926614E+02	-6.11382526126E+00	-4.66906976300E-01
3.00433847586E+05	-2.92877548231E+01	1.07625897809E+02	1.41968647701E+01	-1.77310167132E+02	-5.14902912514E+01	1.41078067416E+02	-6.08787799513E+00	-4.24540628646E-01
3.00651006602E+05	-1.72420845806E+01	5.54837221206E+01	1.41261870649E+01	-1.77880101984E+02	-3.94788798179E+01	8.24199774966E+01	-6.06795653075E+00	3.76011627202E-01
3.00868322584E+05	-2.17938344792E+01	1.12868841894E+02	1.42182920788E+01	-1.77903381945E+02	-3.83700260391E+01	1.11021933607E+02	-6.06531332704E+00	1.76924956696E-01
3.01085795647E+05	-1.84520954711E+01	-2.00110838437E+01	1.41289588898E+01	-1.76926915896E+02	-3.84632696833E+01	-8.79114623671E+01	-6.06199651482E+00	-7.50406193632E-01
3.01303425902E+05	-1.37729133962E+01	7.88130196047E+01	1.41404698662E+01	-1.78368276282E+02	-3.03973213815E+01	6.88160680942E+01	-5.99050165006E+00	6.15638509297E-01
3.01521213465E+05	-2.18375944218E+01	1.83534401795E+01	1.41681663554E+01	-1.77587043778E+02	-4.27437733411E+01	1.00710401324E+02	-6.05565441188E+00	-4.62752110805E-02
3.01739158449E+05	-1.83970036571E+01	1.26890123040E+02	1.42316210723E+01	-1.77745514535E+02	-4.63060733983E+01	-5.23776150231E+01	-6.04700416295E+00	-1.99277979047E-01
3.01957260967E+05	-1.85370056993E+01	8.58498379729E+00	1.40991483326E+01	-1.77341692545E+02	-3.81173658497E+01	-1.49810104282E+02	-6.09239609461E+00	-4.80723848034E-01
3.02175521134E+05	-1.27849489614E+01	6.04742906987E+01	1.41275038869E+01	-1.78175088461E+02	-4.13324297564E+01	7.10264530956E+01	-5.99972315214E+00	7.83674163227E-02
3.02393939063E+05	-1.49463168396E+01	-1.52881155639E+01	1.40712724951E+01	-1.77497358850E+02	-4.00723849092E+01	-6.84591718639E+01	-5.96905914320E+00	-4.56039517278E-01
3.02612514869E+05	-2.26220830067E+01	-9.32240114201E+01	1.42294222724E+01	-1.77084119785E+02	-3.31277527478E+01	-2.12813033288E+01	-5.87855883529E+00	-5.24615292026E-01
3.02831248665E+05	-1.02340433350E+01	1.49926296405E+02	1.43613776748E+01	-1.78101660066E+02	-2.91674431377E+01	-8.33714538038E+01	-5.98141498356E+00	-2.05052857541E+00
3.03050140565E+05	-1.81995055446E+01	-1.14225361223E+01	1.41445144504E+01	-1.77062013360E+02	-3.95050749954E+01	1.77720819192E+02	-6.10014362890E+00	-3.35546728270E-01
3.03269190685E+05	-2.00434073783E+01	-1.25045258308E+02	1.42053751348E+01	-1.77386412387E+02	-4.07869117457E+01	2.28581464791E+01	-5.97351452285E+00	2.06495401256E-01
3.03488399138E+05	-1.88948611238E+01	1.14939952912E+02	1.42359453163E+01	-1.77771066609E+02	-3.68105028745E+01	-9.35081795409E+00	-6.01745137677E+00	9.49511478807E-02
3.03707766039E+05	-1.25139273689E+01	2.93864017311E+01	1.40472941794E+01	-1.78141392731E+02	-4.00751973942E+01	-1.33529617088E+02	-6.05293925594E+00	-4.29902284260E-01
3.03927291503E+05	-2.83165546776E+01	1.26074213004E+02	1.41989355565E+01	-1.77629126953E+02	-3.67314355707E+01	1.51606103518E+02	-6.11846165023E+00	5.09747049404E-02
3.04146975643E+05	-1.57059439543E+01	-1.44973406959E+02	1.42716996602E+01	-1.76956811302E+02	-3.42547649433E+01	1.24363794167E+02	-6.09998931789E+00	3.65074509050E-01
3.04366818575E+05	-1.54520568884E+01	7.57268030135E+01	1.41647206218E+01	-1.78180932271E+02	-3.44610362206E+01	-5.61178327771E+01	-5.95703377002E+00	-1.01396975108E+00
3.04586820414E+05	-2.71929710436E+01	7.38662630257E+01	1.41408213753E+01	-1.77364960642E+02	-4.58832186577E+01	1.10662345054E+02	-6.07087853488E+00	-1.91992854023E-01
3.04806981274E+05	-2.18178062743E+01	5.83118907637E+01	1.41859123890E+01	-1.77814300107E+02	-3.58055104855E+01	2.50341791814E+00	-5.97630233153E+00	-1.16818138965E-01
3.05027301270E+05	-1.87333728548E+01	4.70501416645E+01	1.41516608022E+01	-1.77868154772E+02	-3.86192832258E+01	1.21538083025E+00	-5.99490521835E+00	-1.83060151218E-01
3.05247780517E+05	-1.48714837466E+01	1.00648025685E+01	1.40965896459E+01	-1.77332052241E+02	-4.73559949583E+01	6.90538299447E+01	-6.03140669064E+00	5.34929137013E-02
3.05468419131E+05	-2.07738297301E+01	-4.38280613968E+01	1.40982819121E+01	-1.77415255074E+02	-4.50933833456E+01	-1.53169294750E+02	-6.08139113611E+00	-3.41161026810E-01
3.05689217226E+05	-1.08511802300E+01	1.19213116563E+02	1.42908581397E+01	-1.78701918324E+02	-4.38240512008E+01	-5.71935311696E+01	-6.03536524490E+00	-2.85255561421E-01
3.05910174918E+05	-7.50939982470E+00	-4.60793573737E+01	1.40131563726E+01	-1.75965407736E+02	-3.21244383622E+01	-1.39336993645E+02	-6.13399140374E+00	-9.61351744115E-01
3.06131292322E+05	-1.33104058710E+01	6.91582420812E+01	1.41242696841E+01	-1.78168340326E+02	-4.40168855912E+01	-7.26276714511E+01	-6.00960032249E+00	-4.96711253349E-01
3.06352569554E+05	-2.15840586044E+01	1.87999163085E+01	1.41351030563E+01	-1.77623947596E+02	-4.43639499611E+01	-1.46405512806E+02	-6.09588093897E+00	-3.44571884053E-01
3.06574006730E+05	-2.50281542153E+01	-7.10347184351E+01	1.41453678278E+01	-1.77298731674E+02	-4.37389920009E+01	-7.94781242881E+01	-6.01577020942E+00	-2.65913183938E-01
3.06795603964E+05	-1.66659146613E+01	-1.36663383570E+02	1.42834027858E+01	-1.77394670590E+02	-3.62608181913E+01	-5.47381880606E+01	-6.02849226682E+00	-6.20962013428E-01
3.07017361372E+05	-1.49940503008E+01	2.49002722290E+01	1.40623117154E+01	-1.78017306611E+02	-3.65223847766E+01	-1.08521259740E+01	-5.94936505453E+00	-5.36323635729E-01
3.07239279071E+05	-3.74929480981E+01	-1.26199839371E+02	1.41936860406E+01	-1.77627311083E+02	-4.73823695759E+01	-5.76661957995E+01	-6.00533767824E+00	-3.50384195224E-01
3.07461357176E+05	-1.27707439229E+01	3.10499690707E+01	1.40416254531E+01	-1.77949455019E+02	-3.95965433055E+01	1.54145366456E+02	-6.11712861331E+00	-1.74845267655E-01
3.07683595803E+05	-2.26776394809E+01	-8.03185230445E+01	1.41746389152E+01	-1.77402623304E+02	-3.49979115053E+01	5.19982814516E+00	-5.95285950020E+00	-2.09537468892E-02
3.07905995068E+05	-2.13650460917E+01	1.18661362544E+01	1.41474871207E+01	-1.77786610260E+02	-4.79294277271E+01	-1.10711043247E+02	-6.04428001337E+00	-3.72927479139E-01
3.08128555087E+05	-1.75455843095E+01	9.72835134265E+01	1.41412222544E+01	-1.78052190764E+02	-3.87927560123E+01	9.90849025691E+01	-6.06936267702E+00	3.04941619840E-01
3.08351275976E+05	-1.95155104914E+01	5.18727948420E+01	1.41105581730E+01	-1.77806843265E+02	-4.47718830563E+01	1.60943161525E+02	-6.09167292953E+00	9.17729558528E-02
3.08574157853E+05	-2.85675298824E+01	-1.52434534127E+01	1.41880290889E+01	-1.77745589066E+02	-4.62175656267E+01	9.59147809182E+00	-6.03200298599E+00	-4.98843544268E-02
3.08797200832E+05	-1.13128502494E+01	-1.32319451348E+02	1.43315785168E+01	-1.77116361874E+02	-3.69349428361E+01	3.05156229894E+01	-5.97902627620E+00	6.22938969401E-02
3.09020405031E+05	-8.26604897604E+00	4.68470115364E+01	1.40147847491E+01	-1.79064830486E+02	-4.74367755814E+01	-1.24932179095E+02	-6.00427605971E+00	-5.40531070754E-01
3.09243770566E+05	-2.19737496212E+01	5.48869936296E+01	1.41852129976E+01	-1.77526847523E+02	-3.56423527964E+01	1.61989929734E+02	-6.13420810538E+00	-1.45675237021E-01
3.09467297553E+05	-2.17308702039E+01	6.90920011232E+01	1.41772817760E+01	-1.77967279155E+02	-3.99159246975E+01	6.47856813366E+01	-5.98084335050E+00	1.91322548242E-01
3.09690986110E+05	-1.35524967549E+01	1.08752547668E+01	1.40392580489E+01	-1.77851413732E+02	-3.99696420670E+01	-1.41270589587E+01	-5.96864795174E+00	2.61588260825E-02
3.09914836353E+05	-1.31322917443E+01	6.76983970933E+01	1.41469848256E+01	-1.78605243673E+02	-3.63252479328E+01	1.54714716737E+02	-6.11086213027E+00	1.67680239572E-01
3.10138848399E+05	-2.50474937537E+01	3.32955646334E+01	1.41565766801E+01	-1.77583323280E+02	-4.04858649146E+01	7.98663777294E+01	-6.04250442431E+00	1.19910363722E-01
3.10363022365E+05	-2.37798225645E+01	-8.39585934666E+01	1.41656707012E+01	-1.77370883491E+02	-3.50462671563E+01	-8.40267537615E+01	-5.97371745611E+00	-9.79038634897E-01
3.10587358368E+05	-9.33935696538E+00	1.27029313937E+02	1.43300831795E+01	-1.78865226895E+02	-2.79814178525E+01	-1.16938659405E+02	-6.18369629182E+00	-1.97020438721E+00
3.10811856525E+05	-1.65624844236E+01	-1.17404066652E+01	1.41232423924E+01	-1.77571797776E+02	-3.04163456224E+01	8.52026451281E+01	-6.02398377672E+00	9.31850407228E-01
3.11036516954E+05	-2.34615845008E+01	4.77494186492E+01	1.41693930585E+01	-1.78125264212E+02	-4.78074959746E+01	-7.83641841942E+01	-6.02468347578E+00	-4.76705537108E-01
3.11261339771E+05	-2.60988131509E+01	1.30835367673E+02	1.41740780956E+01	-1.77630588910E+02	-3.95393847353E+01	-2.47854615156E+01	-6.00619551192E+00	-3.48163265562E-01
3.11486325094E+05	-1.66570647136E+01	2.64050320237E+01	1.41132663238E+01	-1.77800628548E+02	-4.15856649146E+01	1.05101476726E+02	-6.05963621766E+00	-2.78966095711E-01
3.11711473040E+05	-1.67338190350E+01	3.71552161299E+01	1.41209333217E+01	-1.78225993737E+02	-3.77911090241E+01	-1.46778388052E+02	-6.10645464679E+00	-7.50712888105E-01
3.11936783728E+05	-1.80553499320E+01	7.23160115122E+00	1.40982417898E+01	-1.77639116719E+02	-4.07088368775E+01	3.08179053096E+01	-6.01082804679E+00	-2.13937494112E-01
3.12162257274E+05	-1.19951347283E+01	-5.47305513507E+00	1.40290129988E+01	-1.77206894597E+02	-2.75071629225E+01	-3.53938613423E+01	-5.80376499042E+00	-1.35455166105E+00
3.12387893797E+05	-1.96296547727E+01	5.90154977727E+01	1.41360000852E+01	-1.77951113352E+02	-3.37394389400E+01	1.25203684328E+02	-6.09852149938E+00	5.30740727937E-01
3.12613693413E+05	-1.98321507566E+01	7.30267181901E+01	1.41835046861E+01	-1.77969409516E+02	-4.47488611443E+01	1.25216416904E+02	-6.06976417207E+00	-1.19665189406E-01
3.12839656242E+05	-1.72343023672E+01	1.14478184825E+02	1.42498163879E+01	-1.78024395141E+02	-4.37117710756E+01	-3.03739547585E+01	-6.03907873433E+00	-3.69224723392E-01
3.13065782401E+05	-1.97896184453E+01	1.29822236858E+02	1.42178659475E+01	-1.78076637302E+02	-4.11016477708E+01	1.55390024553E+01	-6.01134392163E+00	-4.55829061052E-01
3.13292072007E+05	-2.01104543000E+01	1.07059198072E+01	1.41627821757E+01	-1.77296838485E+02	-3.73747670423E+01	-7.67173688376E+01	-6.03531130614E+00	-1.02920165756E+00
3.13518525180E+05	-1.62947055428E+01	6.30398037171E+01	1.41165727750E+01	-1.77999101669E+02	-3.94399881698E+01	-1.13390555872E+02	-6.06399395644E+00	-6.73684894837E-01
3.13745142038E+05	-1.11594585493E+01	9.99660240545E+01	1.42055639993E+01	-1.78771552649E+02	-2.46873226624E+01	2.68253609471E+01	-5.66252545188E+00	1.05960189241E+00
3.13971922698E+05	-2.12132407314E+01	1.06112015430E+01	1.40880266998E+01	-1.77533495353E+02	-3.83980434774E+01	9.77227541939E+01	-6.04483590105E+00	2.90299177465E-01
3.14198867279E+05	-2.35656558948E+01	6.62074074226E+01	1.41471945228E+01	-1.77682287132E+02	-4.38539223813E+01	1.53472022785E+02	-6.09485902300E+00	-1.92905513361E-01
3.14425975900E+05	-1.26625595102E+01	-1.22919700224E+01	1.40516463841E+01	-1.77363691444E+02	-4.82569091547E+01	-1.19010573660E+02	-6.04676158720E+00	-4.72511900033E-01
3.14653248680E+05	-2.05478518897E+01	1.15154614454E+02	1.42089400794E+01	-1.78108628121E+02	-4.33485936908E+01	5.51924778154E+01	-6.03164378643E+00	5.47805220328E-02
3.14880685736E+05	-1.64079005053E+01	1.11353668927E+02	1.42240639417E+01	-1.78310112007E+02	-3.91448393690E+01	1.42519974746E+01	-5.96243200368E+00	-1.99688629846E-01
3.15108287188E+05	-2.15689866041E+01	-3.66843114925E+00	1.41219673725E+01	-1.77811171844E+02	-3.86951232155E+01	-7.46215842898E+01	-6.00284168606E+00	-6.56199637910E-01
3.15336053154E+05	-1.42965824074E+01	-1.69803423458E+02	1.43056400159E+01	-1.77528056206E+02	-3.49856455714E+01	-5.27116670869E+01	-5.97032187019E+00	-1.08755387111E+00
3.15563983753E+05	-1.99465955652E+01	-7.23437492289E+01	1.41644491742E+01	-1.77209300748E+02	-3.80352423744E+01	-1.42880370963E+02	-6.10049900588E+00	-8.38352951782E-01
3.15792079105E+05	-1.99674812463E+01	5.51837548319E+01	1.41678347562E+01	-1.77960873451E+02	-3.62763668744E+01	-8.12264705819E+01	-6.03490105780E+00	-5.19442477011E-01
3.16020339328E+05	-1.73523060471E+01	1.08843908247E+02	1.42131881718E+01	-1.77958501131E+02	-3.57258772068E+01	-1.56740303404E+02	-6.15051137674E+00	-4.75574365646E-01
3.16248764542E+05	-2.82452788164E+01	5.35523421396E+01	1.41841487439E+01	-1.77869789559E+02	-3.81964954277E+01	4.34471383804E+01	-6.01535069279E+00	-2.08204425768E-01
3.16477354866E+05	-3.20184105081E+01	6.93226417443E+01	1.41401290470E+01	-1.77656429537E+02	-4.55113501554E+01	1.50639262259E+02	-6.08841199376E+00	-2.33145598523E-01
3.16706110419E+05	-3.15818460677E+01	-7.37980758486E+00	1.41712381464E+01	-1.77849554588E+02	-4.00077527427E+01	4.62601307548E+01	-5.99478399588E+00	-3.15850275465E-02
3.16935031321E+05	-1.02544643050E+01	-1.61134913360E+02	1.43868767898E+01	-1.77472934299E+02	-2.47873212751E+01	7.61236547230E+01	-5.94698496595E+00	2.61767139744E+00
3.17164117691E+05	-8.88606624251E+00	8.19977379176E+01	1.41285981717E+01	-1.79327360067E+02	-3.53559257971E+01	4.55653544008E+01	-5.93704677370E+00	1.13337449791E-01
3.17393369648E+05	-1.79800109624E+01	2.25884363784E+01	1.41056845504E+01	-1.77952148304E+02	-3.54925606833E+01	-1.33643384693E+02	-6.11389445307E+00	-6.65480817818E-01
3.17622787313E+05	-1.48974525816E+01	7.96441611083E+01	1.41555934733E+01	-1.78341304403E+02	-5.22465348525E+01	7.15176392141E+01	-6.03239222788E+00	-4.23324101943E-01
3.17852370806E+05	-2.15563267870E+01	-4.42143978061E+01	1.41240116846E+01	-1.77607957651E+02	-4.12910712257E+01	-7.18419201571E+01	-6.04441109722E+00	-6.91779051703E-01
3.18082120245E+05	-1.94681775866E+01	8.90375686598E+01	1.42278961634E+01	-1.78249378486E+02	-3.47812745589E+01	3.90033214165E+01	-5.94964956169E+00	9.09903545124E-02
3.18312035752E+05	-1.76620767436E+01	2.95431847285E+01	1.41377335280E+01	-1.78192041350E+02	-4.69661338524E+01	-8.21618955489E+01	-6.07834805325E+00	-6.40828055900E-01
3.18542117445E+05	-2.09424352213E+01	1.08349944438E+01	1.41509323853E+01	-1.77922587191E+02	-3.44917312542E+01	-2.99931590559E+01	-5.90092212785E+00	-8.77586615600E-01
3.18772365446E+05	-1.59691841338E+01	-1.48445494120E+01	1.40272918525E+01	-1.77619335521E+02	-3.57322733202E+01	-1.09041726751E+02	-6.10236358858E+00	-1.15362557624E+00
3.19002779874E+05	-1.99972748267E+01	1.15630834831E+02	1.42093861964E+01	-1.78156885164E+02	-3.68139919562E+01	6.48203063158E+01	-6.01867911857E+00	2.20594875361E-01
3.19233360850E+05	-1.96904141823E+01	3.51284295526E+01	1.41505672278E+01	-1.78209166434E+02	-4.77624344176E+01	4.68793471680E+01	-5.97848184534E+00	-2.07893236993E-01
3.19464108494E+05	-1.73851824508E+01	-2.06479700605E+01	1.40489151984E+01	-1.77526193339E+02	-4.51324328857E+01	-1.15143344109E+02	-6.04008505487E+00	-7.08207205512E-01
3.19695022927E+05	-1.94276637995E+01	1.18870831823E+02	1.42118265931E+01	-1.77867424113E+02	-4.03695577179E+01	-2.39315456758E+00	-5.96907546281E+00	-4.55322692579E-01
3.19926104268E+05	-2.06155260252E+01	-4.42587134125E+00	1.41278104646E+01	-1.77879242198E+02	-5.03960173788E+01	-1.28487962505E+02	-6.03563867838E+00	-3.00322849535E-01
3.20157352640E+05	-1.07545462196E+01	-7.65863082438E+01	1.41281979867E+01	-1.76551737996E+02	-4.55001103030E+01	1.00803493171E+01	-5.98291965706E+00	-3.06074251105E-01
3.20388768162E+05	-1.00906307391E+01	1.33422553896E+02	1.43390439734E+01	-1.79231587921E+02	-3.70673163357E+01	-1.55073394488E+02	-6.15251112649E+00	-9.09718344302E-01
3.20620350955E+05	-2.00130956175E+01	3.08845657646E+01	1.40554829726E+01	-1.77894278237E+02	-4.04997756214E+01	-1.31307412630E+02	-6.09299460964E+00	-6.10368508902E-01
3.20852101140E+05	-1.57924469326E+01	6.55698420744E+01	1.41446167595E+01	-1.78338335437E+02	-4.57669614230E+01	-1.45285504064E+02	-6.04358652647E+00	-5.52287007457E-01
3.21084018839E+05	-1.93505746633E+01	6.50844291452E+01	1.41573877999E+01	-1.78036774098E+02	-3.77216241988E+01	-1.79150598701E+02	-6.05606374301E+00	5.52605919638E-02
3.21316104172E+05	-2.21049671453E+01	-5.13365641812E+00	1.41545086563E+01	-1.77718323668E+02	-3.61188473871E+01	9.88196551462E+01	-6.01412491974E+00	2.01077526104E-01
3.21548357261E+05	-2.43618294292E+01	5.04978744801E+01	1.41546950636E+01	-1.78281598163E+02	-4.09881275121E+01	-1.41355148613E+02	-6.10416487848E+00	-7.60790924068E-01
3.21780778226E+05	-1.04261666374E+01	-2.88673634052E+01	1.40088817952E+01	-1.76998990206E+02	-3.48662697087E+01	2.39736241870E+00	-5.88670706984E+00	-4.63639963655E-01
3.22013367189E+05	-2.09764505969E+01	-9.23280657848E+01	1.42055188696E+01	-1.77120831007E+02	-4.18053639054E+01	-4.91840220722E+01	-6.00543333413E+00	-3.14642681058E-01
3.22246124272E+05	-2.50755373518E+01	8.58931473791E+01	1.41673302216E+01	-1.77899559248E+02	-4.08225900810E+01	-2.96583509560E+01	-6.01426962898E+00	-2.84832352249E-01
3.22479049596E+05	-1.80707179461E+01	5.56873249630E+01	1.41362383466E+01	-1.78230105145E+02	-4.18090968186E+01	-8.93635353312E+01	-6.04636034758E+00	-7.25952215189E-01
3.22712143282E+05	-2.24050627972E+01	-3.37859842466E+00	1.41147005430E+01	-1.77951681777E+02	-5.23683576951E+01	1.21709621353E+02	-6.01494370191E+00	-1.96000786553E-01
3.22945405453E+05	-1.85881351686E+01	-1.71877539930E+01	1.40974707867E+01	-1.77985849229E+02	-3.59122967306E+01	4.93219810770E+01	-5.97706419370E+00	2.40417462279E-01
3.23178836230E+05	-1.92323166962E+01	-2.91549112940E+00	1.41270790310E+01	-1.77776473332E+02	-3.84175855113E+01	-8.20044267798E+01	-6.06125562655E+00	-6.92350432272E-01
3.23412435735E+05	-1.95056981494E+01	-1.64258642175E+00	1.41018722720E+01	-1.77743814202E+02	-3.78772821075E+01	-1.74430567023E+01	-5.95156810006E+00	-4.00826378182E-01
3.23646204090E+05	-1.56283842860E+01	-5.94077823924E+00	1.41069812269E+01	-1.77670793738E+02	-3.92007456200E+01	1.03495422579E+02	-6.07072990474E+00	3.59946754054E-01
3.23880141417E+05	-1.85806481342E+01	3.12178511373E+00	1.41310405722E+01	-1.77889350585E+02	-3.96424658440E+01	1.49525552131E+02	-6.16441151272E+00	-2.70438391697E-01
3.24114247838E+05	-2.06888480168E+01	7.73548887191E+01	1.41633270972E+01	-1.78144327631E+02	-3.96388802124E+01	1.46037389495E+02	-6.12630352320E+00	1.36947425862E-01
3.24348523475E+05	-3.09392628856E+01	5.98333562771E+01	1.41893284317E+01	-1.77860822614E+02	-4.72060476003E+01	1.77353725278E+02	-6.08938725417E+00	-9.43354481708E-02
3.24582968451E+05	-2.20669136209E+01	7.97904319899E+01	1.41678955273E+01	-1.78069136612E+02	-3.74535791855E+01	-2.07259627379E+01	-5.97229889566E+00	-3.54471582135E-01
3.24817582888E+05	-1.67415367160E+01	1.06734379886E+02	1.41937725629E+01	-1.78451118316E+02	-4.01926681401E+01	-6.54703121834E+01	-6.01140268561E+00	-9.71903486021E-01
3.25052366909E+05	-1.18089323145E+01	-5.62884305746E+01	1.41216494007E+01	-1.76716729464E+02	-3.29523877761E+01	9.04073488299E+01	-5.99042626864E+00	7.53063636010E-01
3.25287320635E+05	-1.21703368606E+01	5.09124098484E+01	1.40896247094E+01	-1.78668436535E+02	-3.02804829850E+01	-1.21704103591E+02	-6.07568502423E+00	-1.73467426429E+00
3.25522444191E+05	-2.30835951227E+01	-1.34722613844E+02	1.42375627458E+01	-1.77866468626E+02	-6.16349348885E+01	-8.16728176060E+01	-6.02316377936E+00	-3.59687657868E-01
3.25757737698E+05	-1.39108410615E+01	6.75099081580E+01	1.41357222531E+01	-1.78625296446E+02	-3.47511104067E+01	-1.13231174615E+02	-6.07185305973E+00	-4.64135951866E-01
3.25993201280E+05	-2.29744831172E+01	1.03823234777E+02	1.41714632043E+01	-1.78196744090E+02	-4.43938175729E+01	-1.29666076789E+02	-6.06426129649E+00	-7.05077456894E-01
3.26228835058E+05	-1.54053262937E+01	-6.08895650523E+01	1.41405807057E+01	-1.77624043718E+02	-4.40513798560E+01	8.20559259766E+01	-6.05108130601E+00	1.71648384161E-01
