# Hz S DB R 50
! CMT, M5065, 19127446, 24.2.4/2
! Date: 11/1/2024 3:28:47 PM
! Data: Format (Calibration Info)
! Freq	S11:dB/Ang(F2)	S21:dB/Ang(F2)	S12:dB/Ang(F2)	S22:dB/Ang(F2)
3.00000000000E+05	-1.69996504797E+01	4.02795778733E+01	9.55235112621E+00	-1.77684549012E+02	-4.32473413701E+01	1.21459734897E+02	-6.04470035697E+00	-1.12524773372E-01
3.00216845423E+05	-1.67193053948E+01	2.02297740119E+01	9.50621757267E+00	-1.77817332070E+02	-3.70891566511E+01	-1.39827268418E+00	-6.01183044503E+00	-2.62280957875E-01
3.00433847586E+05	-1.81810508634E+01	-6.54725158795E+00	9.47115824719E+00	-1.77513464411E+02	-3.91928058396E+01	6.46274029640E+01	-5.97775013970E+00	5.48406186715E-02
3.00651006602E+05	-1.43891631238E+01	-1.32067352807E+01	9.48351110311E+00	-1.77617572064E+02	-4.08414761147E+01	1.30999854186E+02	-6.11664907092E+00	-3.81160723053E-01
3.00868322584E+05	-1.91244119276E+01	-2.23105672973E+00	9.55710466247E+00	-1.77437140772E+02	-3.97730610920E+01	1.35876555450E+02	-6.04230400185E+00	-2.81856008473E-01
3.01085795647E+05	-1.93728410251E+01	1.16735506261E+01	9.48028664006E+00	-1.77458168031E+02	-3.03563889383E+01	-3.82056244513E+01	-5.95388083239E+00	-7.79422895443E-01
3.01303425902E+05	-1.78741159287E+01	7.68279437152E+01	9.58616264886E+00	-1.78099542325E+02	-3.66835505483E+01	5.34541131077E+01	-5.97503864324E+00	1.89073412886E-01
3.01521213465E+05	-1.61513893412E+01	7.09629449688E+01	9.51350740489E+00	-1.78201200026E+02	-3.53777028741E+01	1.11782760111E+02	-6.02065871922E+00	1.28518237308E-01
3.01739158449E+05	-6.30594005485E+00	-1.13263023139E+02	9.80799737553E+00	-1.76406166376E+02	-5.37842768838E+01	-1.54665139995E+02	-6.02403462999E+00	-1.61840691657E-01
3.01957260967E+05	-1.83767783453E+01	9.88363376476E+01	9.64432927742E+00	-1.78259803044E+02	-4.47343899222E+01	-1.03544741850E+02	-6.00059908727E+00	-2.35060997724E-01
3.02175521134E+05	-2.66139219096E+01	1.39472909049E+02	9.55246380491E+00	-1.77922198444E+02	-4.38520618245E+01	-1.28945006236E+02	-6.05451488452E+00	-2.87342745477E-01
3.02393939063E+05	-1.84175993831E+01	8.78680154947E+01	9.55337585849E+00	-1.77912601953E+02	-5.82331534198E+01	5.64336946832E+01	-6.03215755666E+00	-5.68273541538E-02
3.02612514869E+05	-1.81292068476E+01	-8.10845673465E+01	9.56653883503E+00	-1.77225103108E+02	-3.32457352810E+01	-1.16371015158E+02	-6.04142770550E+00	-3.57706638746E-01
3.02831248665E+05	-3.52075675053E+01	1.65068212793E+02	9.57215106062E+00	-1.77631227205E+02	-3.26370464464E+01	-6.16271933416E+01	-5.97365958087E+00	-8.88515240460E-01
3.03050140565E+05	-2.04009385208E+01	1.13673476430E+01	9.47137694574E+00	-1.77444374597E+02	-3.99849448627E+01	-3.13708972582E+00	-5.97578878061E+00	-2.38779463054E-01
3.03269190685E+05	-1.75990307622E+01	-1.53118097884E+02	9.70071804457E+00	-1.77551146086E+02	-3.62916509264E+01	7.17140407930E+01	-6.03237352197E+00	1.35530913205E-01
3.03488399138E+05	-1.15766906653E+01	2.16234529718E+01	9.43722262561E+00	-1.77879686284E+02	-4.52106664333E+01	2.10408397513E+01	-6.03751051397E+00	-2.48731161395E-01
3.03707766039E+05	-2.14549792735E+01	1.91135792894E+01	9.58809762182E+00	-1.77975896083E+02	-7.51938085875E+01	-3.59632190644E+01	-6.05900081100E+00	-3.57004912486E-01
3.03927291503E+05	-2.60924465609E+01	7.82249392194E+01	9.51850455595E+00	-1.77979242962E+02	-3.59254548719E+01	-1.42871060176E+02	-6.11955472669E+00	-6.63085929336E-01
3.04146975643E+05	-2.13395784043E+01	-1.11719019398E+02	9.64673473300E+00	-1.77144488898E+02	-3.00991827642E+01	-1.26433943922E+02	-6.11784958544E+00	-1.20470561123E+00
3.04366818575E+05	-1.70419338332E+01	6.69453510262E+01	9.58337538161E+00	-1.78187036149E+02	-3.47871047884E+01	-8.89341048598E+01	-6.01524963351E+00	-9.77477876021E-01
3.04586820414E+05	-2.73449249952E+01	3.22679105291E+01	9.53110561538E+00	-1.77469800465E+02	-4.18422764430E+01	-4.68558026874E+01	-6.01237443640E+00	-2.91758037184E-01
3.04806981274E+05	-1.56886724899E+01	-1.24728641299E+02	9.68938478802E+00	-1.76573752143E+02	-4.38897889804E+01	6.16913095393E+01	-6.03660557697E+00	-1.21224559183E-01
3.05027301270E+05	-1.99596932348E+01	1.02344683536E+02	9.59211712062E+00	-1.77842684395E+02	-3.81719887365E+01	9.85060394531E+01	-6.00258416324E+00	1.79095386541E-01
3.05247780517E+05	-1.15345081560E+01	3.40727212153E+01	9.41722209805E+00	-1.78147352274E+02	-4.86207279372E+01	9.40285223419E+01	-6.08079334517E+00	-1.66426957889E-01
3.05468419131E+05	-2.56473765289E+01	1.17446740401E+02	9.62720136819E+00	-1.78070272786E+02	-4.25047183152E+01	-1.63762820764E+01	-6.01757433741E+00	2.06352712451E-02
3.05689217226E+05	-1.15579195027E+01	-1.82733962254E+01	9.42293724158E+00	-1.77299152998E+02	-3.42937505086E+01	9.28353642380E+01	-6.05182895832E+00	3.46402428726E-01
3.05910174918E+05	-2.13817013578E+01	-5.53447179711E+01	9.54346907059E+00	-1.76827789045E+02	-2.90817207014E+01	-1.08001217583E+02	-6.08760214680E+00	-1.20499682223E+00
3.06131292322E+05	-1.45050246345E+01	9.80862657827E+01	9.61417630927E+00	-1.78601207000E+02	-3.64721949634E+01	-8.83427049676E+01	-6.06031234176E+00	-4.94778984340E-01
3.06352569554E+05	-1.56964297259E+01	-1.69728629400E+02	9.74451772839E+00	-1.77188894199E+02	-4.98402354451E+01	-1.16420719811E+02	-5.99662125149E+00	-7.33371927285E-02
3.06574006730E+05	-1.35110004357E+01	-3.69178689350E+01	9.50086994933E+00	-1.76953504438E+02	-3.94804920011E+01	9.97900193924E+01	-6.04161571809E+00	-2.36686523777E-01
3.06795603964E+05	-1.63549689316E+01	1.49776345074E+00	9.48737156949E+00	-1.78031817744E+02	-3.25739034505E+01	1.41336514409E+02	-6.13502098310E+00	1.41508712516E-01
3.07017361372E+05	-2.29855643101E+01	-3.71572157064E+01	9.62262799430E+00	-1.77643808594E+02	-3.73397746561E+01	1.16972018310E+02	-6.10270184869E+00	3.55895416697E-02
3.07239279071E+05	-1.84658385906E+01	-1.08287095383E+02	9.57356270701E+00	-1.77157922505E+02	-2.79880070716E+01	8.19226163929E+01	-5.97946924319E+00	8.78360327816E-01
3.07461357176E+05	-2.82203090072E+01	9.38743172143E+01	9.55830490925E+00	-1.77741893567E+02	-3.57375870402E+01	3.84940510868E+00	-5.92588817761E+00	-2.73443904155E-01
3.07683595803E+05	-1.06860744453E+01	1.50299537552E+02	9.67902749721E+00	-1.78541212172E+02	-3.95807798065E+01	-5.97822851132E+01	-6.01094002395E+00	-4.30861798097E-01
3.07905995068E+05	-8.26093101890E+00	7.99952150815E+01	9.52735473151E+00	-1.79544310878E+02	-3.71195538928E+01	-1.28000014317E+01	-5.99679515790E+00	-4.39620850898E-01
3.08128555087E+05	-1.79486537061E+01	-5.66307157404E+01	9.57065564639E+00	-1.76908961183E+02	-4.46019765461E+01	-1.42368045974E+02	-6.00928611438E+00	-2.04014866227E-01
3.08351275976E+05	-2.79376089009E+01	1.78584694513E+02	9.57773428585E+00	-1.77887617221E+02	-4.51256065599E+01	-4.10009076704E+01	-6.04430948288E+00	-1.62883377204E-01
3.08574157853E+05	-2.82870599885E+01	1.44087636007E+02	9.60583387168E+00	-1.77945171867E+02	-4.66997743126E+01	-1.36974432433E+02	-6.04394956890E+00	-8.82873354344E-02
3.08797200832E+05	-2.01294852065E+01	4.22645946597E+01	9.53594469761E+00	-1.77592181867E+02	-3.23141417462E+01	-1.09722283433E+02	-6.10997621300E+00	-4.89953861276E-01
3.09020405031E+05	-1.57920899512E+01	1.41862908863E+01	9.47253266415E+00	-1.77375137172E+02	-3.22277253842E+01	7.10402575264E+01	-6.03648616073E+00	3.82981404163E-01
3.09243770566E+05	-2.36051101324E+01	-1.56055503845E+02	9.58498187866E+00	-1.77688878013E+02	-3.88975085401E+01	-6.06275331984E+01	-6.00879142152E+00	-4.32567250747E-01
3.09467297553E+05	-1.15800393695E+01	-3.06277191281E+01	9.45679781002E+00	-1.77150731811E+02	-4.15317016238E+01	-4.72680984707E+01	-5.96899742618E+00	-2.27975891491E-01
3.09690986110E+05	-3.10592619921E+01	-6.54504352448E+01	9.63210121704E+00	-1.77968270719E+02	-4.43694262984E+01	5.01237565925E+01	-6.05497892419E+00	-2.25862917187E-01
3.09914836353E+05	-1.60878663451E+01	-2.31835268716E+01	9.48400408581E+00	-1.77434561140E+02	-3.74898944641E+01	-6.07016465833E+01	-6.03923385575E+00	-5.22839375621E-01
3.10138848399E+05	-2.25128194889E+01	-5.12610928954E+01	9.55154746153E+00	-1.77632587739E+02	-3.98262522519E+01	-6.48345858892E+01	-5.96268359461E+00	-2.79240717883E-01
3.10363022365E+05	-1.74934288373E+01	-2.74286426608E+01	9.50745830324E+00	-1.77436325263E+02	-3.20115387306E+01	-1.55754359990E+02	-6.13530150604E+00	-5.96889228589E-01
3.10587358368E+05	-1.75282365435E+01	5.58411290611E+00	9.50943785163E+00	-1.78305249990E+02	-4.91296752553E+01	2.56917855670E+01	-6.01328449578E+00	-3.65825942902E-02
3.10811856525E+05	-2.53915465251E+01	-1.67222141800E+01	9.52704654682E+00	-1.77512179742E+02	-4.25605599248E+01	9.15050923285E+01	-6.02503585333E+00	-3.19756298904E-01
3.11036516954E+05	-1.73365818042E+01	2.12058992564E+01	9.44190954910E+00	-1.78100339585E+02	-4.00494621518E+01	1.58071658732E+02	-6.07913319523E+00	-1.11137760963E-01
3.11261339771E+05	-1.43148578157E+01	-4.19151384396E+01	9.47816290453E+00	-1.77071684625E+02	-3.82672867082E+01	1.30104117887E+02	-6.11904362587E+00	1.36878336448E-01
3.11486325094E+05	-1.62202046321E+01	9.85835496760E+00	9.50382600844E+00	-1.78327678618E+02	-4.10221528914E+01	-5.16972030452E+01	-6.05901945680E+00	-1.99422507883E-01
3.11711473040E+05	-2.44613391115E+01	1.57651102775E+01	9.55518751008E+00	-1.77795673989E+02	-4.32409481509E+01	-5.86760003350E+00	-6.03567918473E+00	-3.60351970311E-01
3.11936783728E+05	-2.36163793659E+01	7.18496075394E+01	9.59186128749E+00	-1.78196298601E+02	-3.10819461479E+01	-2.14155095224E+01	-5.93529915445E+00	-3.96346820901E-01
3.12162257274E+05	-2.55688120069E+01	1.97351376735E+01	9.60824403006E+00	-1.77796408876E+02	-3.22862465007E+01	-7.55799442015E+01	-6.01061059865E+00	-1.22868685956E+00
3.12387893797E+05	-1.65964930031E+01	-3.60219853958E+01	9.48787256931E+00	-1.77347189050E+02	-3.46248265684E+01	1.27155081730E+02	-6.08169190750E+00	-8.48624362657E-02
3.12613693413E+05	-1.23889017378E+01	7.25697243771E+01	9.48165756203E+00	-1.78435782356E+02	-4.93836189920E+01	-6.41689779620E+01	-6.03738524856E+00	-4.55339293557E-01
3.12839656242E+05	-1.58256521107E+01	1.14826340307E+02	9.67039633971E+00	-1.78377967659E+02	-4.40744770727E+01	7.53077019103E+01	-6.06233060359E+00	-1.81319024134E-01
3.13065782401E+05	-2.02486006960E+01	4.15434414864E+01	9.50121564461E+00	-1.78219531804E+02	-3.77315715603E+01	-6.49631197625E+01	-5.97312962471E+00	-7.00455459165E-01
3.13292072007E+05	-2.76364858932E+01	-1.54882978842E+02	9.61900871621E+00	-1.78100761592E+02	-3.92180160457E+01	1.07855703121E+02	-6.03220170995E+00	1.96165446294E-01
3.13518525180E+05	-1.32990981358E+01	2.94143014865E+01	9.56147160506E+00	-1.77812483732E+02	-3.65496446946E+01	-1.62451202935E+02	-6.08163324244E+00	-3.95113999885E-02
3.13745142038E+05	-2.41438334695E+01	7.10284999955E+01	9.57816425382E+00	-1.78075773997E+02	-4.06431439367E+01	1.95219788581E+01	-6.01245980396E+00	-6.64402728714E-02
3.13971922698E+05	-1.57192844194E+01	1.42456478916E+02	9.64729410786E+00	-1.78051701819E+02	-3.63092203219E+01	-3.96706942996E+01	-5.96795830995E+00	-5.91554717161E-01
3.14198867279E+05	-1.57081940305E+01	-2.11398563473E+01	9.48867815409E+00	-1.76902921170E+02	-3.77335917391E+01	-1.88318991571E+01	-5.99678867069E+00	-4.45186779831E-01
3.14425975900E+05	-8.69556230099E+00	1.75967651673E+02	9.83270860543E+00	-1.77845868808E+02	-4.54078079779E+01	1.22828203527E+02	-6.01646980833E+00	-2.92450419112E-01
3.14653248680E+05	-1.86427742379E+01	4.65066332478E+01	9.47985027837E+00	-1.77698660912E+02	-4.66173953770E+01	-8.36231349839E+01	-6.05129235344E+00	-3.36627835185E-01
3.14880685736E+05	-2.19277646436E+01	6.98687698432E+01	9.59474570636E+00	-1.78259232988E+02	-3.67657836702E+01	1.51082907409E+02	-6.07190008322E+00	-1.74470053582E-01
3.15108287188E+05	-1.59171417541E+01	-1.91718720976E+00	9.48498769661E+00	-1.77755570458E+02	-4.34233083846E+01	-1.16547314805E+02	-6.02960535036E+00	-2.61869576414E-01
3.15336053154E+05	-1.63120029760E+01	-2.56867138566E+01	9.50840955112E+00	-1.77786530851E+02	-2.89324691814E+01	-4.83728981873E+01	-5.99248770761E+00	-9.89170803857E-01
3.15563983753E+05	-2.09498559323E+01	1.97998780935E+01	9.51222664906E+00	-1.77891189878E+02	-3.83491256841E+01	-1.57923714367E+02	-6.08735376911E+00	-1.15261128601E-01
3.15792079105E+05	-9.69678498404E+00	4.81541510234E+01	9.43550281925E+00	-1.78837039075E+02	-4.78699969093E+01	1.65269345321E+02	-6.04823887552E+00	-1.91056208304E-01
3.16020339328E+05	-7.85496045158E+00	2.45631683677E+01	9.28067454881E+00	-1.78716857888E+02	-4.55429296506E+01	-1.45502338833E+01	-6.04889364424E+00	-2.07834149419E-01
3.16248764542E+05	-2.64672852495E+01	3.12832695854E+00	9.54885711070E+00	-1.77687177025E+02	-3.28124686001E+01	-2.24843662402E+01	-5.97668225438E+00	-4.25437185601E-01
3.16477354866E+05	-1.78873536717E+01	-5.84789751170E+01	9.49221659791E+00	-1.77682685407E+02	-3.79443520954E+01	-1.55059446087E+02	-6.02575390031E+00	-5.32959013450E-01
3.16706110419E+05	-2.31425050615E+01	1.30409096424E+02	9.56894503086E+00	-1.78191000153E+02	-3.57627626277E+01	1.09055500494E+02	-6.04741140682E+00	3.02699526327E-01
3.16935031321E+05	-1.23069417206E+01	8.81333071770E+01	9.53917622964E+00	-1.78593107999E+02	-3.96285909457E+01	-1.06522421190E+02	-6.05566324592E+00	-7.58779606728E-01
3.17164117691E+05	-3.19394747756E+01	-8.70716987343E+01	9.59178291506E+00	-1.77792518248E+02	-3.98336297851E+01	-1.34302152933E+02	-6.01932195208E+00	-2.42459850850E-01
3.17393369648E+05	-1.01239484207E+01	4.42477645120E+01	9.48268370291E+00	-1.79141556458E+02	-4.32379893024E+01	1.26254828256E+01	-6.05148957783E+00	-2.16145812344E-01
3.17622787313E+05	-1.64037740492E+01	4.45784328320E+01	9.46656813855E+00	-1.78394743499E+02	-4.58352734200E+01	-1.14195080537E+02	-6.07297943426E+00	-1.43858651751E-01
3.17852370806E+05	-1.80745962977E+01	6.93922102287E+01	9.56422442108E+00	-1.78379840391E+02	-3.57108229109E+01	-8.41627888218E+01	-6.01267272443E+00	-3.89418846419E-01
3.18082120245E+05	-1.51659982755E+01	-3.79165054741E+01	9.52277943554E+00	-1.77811935771E+02	-4.13085337857E+01	8.00075020660E+01	-6.05227918912E+00	3.21365972862E-01
3.18312035752E+05	-1.68081004617E+01	3.41073484371E+01	9.48380720004E+00	-1.78345317443E+02	-4.12104264092E+01	7.03469513127E+01	-6.00518228286E+00	-3.05274583725E-01
3.18542117445E+05	-2.09372871619E+01	5.39846617415E+01	9.55616597503E+00	-1.78002386412E+02	-4.26937651054E+01	5.83483704040E+01	-6.08463119542E+00	1.37230421596E-01
3.18772365446E+05	-2.28159828286E+01	7.74966961899E+01	9.56968976942E+00	-1.77973734293E+02	-3.67506396652E+01	3.70044945383E+01	-6.00785262901E+00	-2.07660161625E-01
3.19002779874E+05	-9.47846224935E+00	-9.71345936816E+01	9.64167097189E+00	-1.76151378664E+02	-4.47379496402E+01	2.15367136403E+01	-6.03942004992E+00	-4.08615227501E-01
3.19233360850E+05	-1.48337725909E+01	4.62133690976E+01	9.50919012413E+00	-1.78500615083E+02	-5.07821567479E+01	5.92331221118E+01	-6.02755661942E+00	1.15427615648E-01
3.19464108494E+05	-2.01314002430E+01	5.44296962713E+01	9.51908861248E+00	-1.77767035233E+02	-3.86228129926E+01	-1.42929123613E+02	-6.09991605163E+00	-3.77169683824E-01
3.19695022927E+05	-2.74331992530E+01	-4.20213291891E+01	9.57301296306E+00	-1.77603455755E+02	-4.22509308459E+01	9.84810684892E+01	-6.07060440140E+00	-1.86960967955E-02
3.19926104268E+05	-2.62827666731E+01	1.00748412655E+02	9.54422336649E+00	-1.78164980754E+02	-3.47451655494E+01	4.58191087992E+01	-5.99219258242E+00	3.04053937643E-01
3.20157352640E+05	-1.92044122739E+01	4.62598171699E+01	9.52490419600E+00	-1.78003714580E+02	-2.56648074666E+01	-1.76907857044E+02	-6.28379006522E+00	-1.48261025073E-01
3.20388768162E+05	-1.69400981587E+01	7.56894943963E+01	9.56246263841E+00	-1.78550149051E+02	-3.71137564072E+01	-2.54119815669E+01	-6.01020963047E+00	-5.13622442066E-01
3.20620350955E+05	-1.67871554235E+01	1.04023752445E+02	9.62199852165E+00	-1.78507043299E+02	-3.91376805306E+01	-4.94361314908E+01	-6.07493674620E+00	-4.92895822229E-01
3.20852101140E+05	-2.86725099899E+01	6.73801941850E+01	9.53841769384E+00	-1.78159540807E+02	-4.58057594651E+01	-1.25998264011E+02	-6.02026763960E+00	-3.87902584739E-01
3.21084018839E+05	-1.99880730777E+01	-2.12858699736E+01	9.56044998668E+00	-1.77693849141E+02	-4.49813563886E+01	-7.07564829484E+01	-6.00485465444E+00	-2.90025372883E-01
3.21316104172E+05	-1.52193080554E+01	-6.87316931400E+01	9.56135519108E+00	-1.77651068119E+02	-3.61916922367E+01	1.04332832335E+02	-6.06874021617E+00	-8.01551299785E-02
3.21548357261E+05	-1.74444665097E+01	7.73793402281E+01	9.57039979302E+00	-1.78493634046E+02	-3.83443624100E+01	-2.87707388457E+01	-6.00573115252E+00	-4.86969613442E-01
3.21780778226E+05	-2.09958990831E+01	-2.00200497905E+01	9.57935305191E+00	-1.78102949571E+02	-3.67606188097E+01	-1.20722611149E+00	-5.96543600569E+00	-4.08302056181E-01
3.22013367189E+05	-2.01343826997E+01	6.38601832328E+01	9.57014208995E+00	-1.77846703849E+02	-3.24734938162E+01	-6.87042030311E+01	-5.95050090890E+00	-7.46705012058E-01
3.22246124272E+05	-3.22901060098E+01	1.69910988579E+02	9.57398187098E+00	-1.78051576023E+02	-4.56045840843E+01	8.18762083627E+01	-6.02757191317E+00	-1.59356664666E-01
3.22479049596E+05	-1.91587638289E+01	4.58046859130E+01	9.58378661113E+00	-1.78173087029E+02	-4.03089750099E+01	-1.77919239736E+02	-6.11741023507E+00	-4.23421136730E-01
3.22712143282E+05	-3.03310036061E+01	-6.62565814458E+01	9.59181184798E+00	-1.77672572266E+02	-4.24166878325E+01	-1.13297653894E+02	-6.02795397462E+00	-2.79616134282E-01
3.22945405453E+05	-1.76171556890E+01	8.13290945080E+01	9.58552471562E+00	-1.78184398068E+02	-3.90878623586E+01	1.27111823200E+02	-6.01625605576E+00	-2.46339262969E-01
3.23178836230E+05	-1.73759952591E+01	4.82775392040E+01	9.54828454988E+00	-1.78281055600E+02	-3.91736277130E+01	-1.61066304069E+02	-6.10420694787E+00	-2.33424629830E-01
3.23412435735E+05	-2.09331546423E+01	5.02098204965E+01	9.51720227901E+00	-1.78456563369E+02	-3.63449161711E+01	-2.46703136363E+01	-5.95549060639E+00	-4.27790626791E-01
3.23646204090E+05	-1.83842967467E+01	1.41595203169E+02	9.67624653286E+00	-1.78407922324E+02	-3.19352494253E+01	1.34226334611E+02	-6.10623212688E+00	2.51860851511E-01
3.23880141417E+05	-1.73544803905E+01	-2.12101714383E+01	9.46345650194E+00	-1.77852150218E+02	-5.02467208833E+01	-6.32128873247E+01	-6.04928681635E+00	-2.20602014926E-01
3.24114247838E+05	-9.30176582657E+00	3.26296718818E+01	9.33715467386E+00	-1.78788308659E+02	-3.94743543654E+01	1.70079099946E+02	-6.09730285821E+00	-1.33154614474E-01
3.24348523475E+05	-3.32378674841E+01	5.36794824422E+00	9.57259345672E+00	-1.77994974220E+02	-4.79400681258E+01	-1.64905153948E+02	-6.05965233588E+00	-3.45466796739E-01
3.24582968451E+05	-1.98910731359E+01	2.61035454010E+01	9.53834485158E+00	-1.78130184515E+02	-4.21870992576E+01	5.83824538432E+01	-6.02813427078E+00	-1.32917516923E-02
3.24817582888E+05	-1.41691771808E+01	9.24203991125E+01	9.57564918740E+00	-1.78545484706E+02	-3.65398092235E+01	-1.48196933788E+01	-6.03299486508E+00	-4.69349911662E-01
3.25052366909E+05	-2.19093647283E+01	-1.92110736551E+01	9.50217644834E+00	-1.77863158994E+02	-2.77947496047E+01	-2.17459548370E+01	-5.88531332023E+00	-8.58697473985E-01
3.25287320635E+05	-1.78144770117E+01	-2.43831554384E+01	9.49139097967E+00	-1.77762550731E+02	-3.92071864575E+01	-3.91595945199E+01	-6.01035085543E+00	-3.32332455669E-01
3.25522444191E+05	-1.67193625330E+01	4.94514720231E+01	9.55506604390E+00	-1.78697119831E+02	-4.63631432933E+01	-3.79442402130E+01	-6.02351809136E+00	-2.28106736599E-01
3.25757737698E+05	-1.61895824511E+01	-5.57376146056E+01	9.53007118320E+00	-1.77373271641E+02	-4.54245697105E+01	1.19278346759E+02	-6.05552501040E+00	-1.20372405937E-01
3.25993201280E+05	-1.75499617000E+01	4.67539094129E+00	9.47975149178E+00	-1.78208730580E+02	-4.23639333479E+01	4.74058614194E+01	-6.01343116897E+00	-2.80681577181E-01
3.26228835058E+05	-2.27479983998E+01	4.60819043546E+01	9.59335356528E+00	-1.78145666468E+02	-3.88689392302E+01	-1.05392986040E+01	-6.03551654066E+00	-2.45424658533E-01
