# Hz S DB R 50
! CMT, M5065, 19127446, 24.2.4/2
! Date: 11/1/2024 3:10:02 PM
! Data: Format (Calibration Info)
! Freq	S11:dB/Ang(F2)	S21:dB/Ang(F2)	S12:dB/Ang(F2)	S22:dB/Ang(F2)
3.00000000000E+05	-2.37049029141E+01	6.50361931875E+01	5.70707124822E+00	-1.77868333452E+02	-3.78718167105E+01	1.12609344236E+02	-6.06211936157E+00	8.91842294461E-02
3.00216845423E+05	-1.85114058822E+01	-3.90113870554E+01	5.58604782584E+00	-1.77505347484E+02	-3.17467617716E+01	-7.84358706560E+01	-5.99382728735E+00	-8.43700952675E-01
3.00433847586E+05	-1.26326414985E+01	3.22177363755E+01	5.55877523683E+00	-1.78233669733E+02	-4.35333316871E+01	7.46887526716E+00	-6.02295297970E+00	-1.21872348282E-01
3.00651006602E+05	-3.27446526970E+01	2.30203679369E+01	5.71009809174E+00	-1.77386690392E+02	-4.28481548516E+01	1.29476360347E+02	-6.04263953074E+00	-1.18927086482E-01
3.00868322584E+05	-1.96518231537E+01	3.64476961773E+01	5.66358265737E+00	-1.77927858467E+02	-3.78848862859E+01	-7.41810385406E+01	-6.01166254422E+00	-4.23754594751E-01
3.01085795647E+05	-2.42166288724E+01	7.60410292563E+00	5.74986809149E+00	-1.77465042493E+02	-3.66907388055E+01	1.24487967826E+02	-6.02964478607E+00	-1.49186521610E-02
3.01303425902E+05	-2.44491838695E+01	9.01564146299E+01	5.67640299348E+00	-1.77606743062E+02	-4.80083754282E+01	-1.04381942192E+02	-6.05795136009E+00	-4.94874034108E-01
3.01521213465E+05	-3.08834999003E+01	4.57387857150E+01	5.64945081311E+00	-1.77641422983E+02	-4.42541080599E+01	2.43497577032E+01	-6.01284604836E+00	-2.20320647806E-01
3.01739158449E+05	-1.84961502234E+01	5.42308323543E+01	5.69448013853E+00	-1.78084835889E+02	-4.41077352996E+01	1.16469239637E+02	-6.02084669512E+00	-7.07909381359E-02
3.01957260967E+05	-1.31204630026E+01	-2.65803772639E+01	5.57101286815E+00	-1.76833016650E+02	-3.72192604188E+01	4.98319333824E+01	-5.99170389612E+00	1.19745182964E-01
3.02175521134E+05	-1.60994222098E+01	3.14701044383E+00	5.63354619323E+00	-1.77601994501E+02	-4.21824914351E+01	-1.16445756851E+02	-6.03669040730E+00	-4.28263365090E-01
3.02393939063E+05	-1.82776136815E+01	5.12233492285E+01	5.64492511383E+00	-1.78380667072E+02	-4.30960041123E+01	9.15723214653E+01	-6.03952565292E+00	1.10021394051E-01
3.02612514869E+05	-2.99082744246E+01	1.78113637688E+02	5.73773925648E+00	-1.77689797140E+02	-4.35211058757E+01	2.05483698170E+01	-6.03155615960E+00	-4.72762324498E-02
3.02831248665E+05	-2.42720732732E+01	-2.11914819862E+01	5.68897405293E+00	-1.77718505237E+02	-3.67673458502E+01	2.60862160444E+01	-6.01513500534E+00	-1.92163378908E-01
3.03050140565E+05	-2.58054832608E+01	-3.34060671877E+01	5.70987716500E+00	-1.77166390443E+02	-4.85222845771E+01	1.70753284251E+02	-6.05125181543E+00	-1.95603284899E-01
3.03269190685E+05	-1.88258960469E+01	-2.52828633589E+01	5.63104898743E+00	-1.77609330165E+02	-3.77536454645E+01	-1.24090641522E+02	-6.04893877055E+00	-4.99404342771E-01
3.03488399138E+05	-1.70943017549E+01	1.21689720744E+01	5.64132588457E+00	-1.77530199447E+02	-3.77680344316E+01	2.19429745271E+00	-5.99474028719E+00	-1.43343370812E-01
3.03707766039E+05	-1.01623786167E+01	2.44236422315E+00	5.51453043731E+00	-1.77697197553E+02	-3.19884288737E+01	-4.67699190704E+00	-5.93857348549E+00	-1.83748715530E-01
3.03927291503E+05	-1.94981886993E+01	-4.20138927167E+01	5.61215176338E+00	-1.77337013896E+02	-6.33568130969E+01	-1.17444018129E+02	-6.05096331846E+00	-2.79718091043E-01
3.04146975643E+05	-1.78050632506E+01	-1.99026098951E+01	5.65915878136E+00	-1.77590918637E+02	-4.78018341584E+01	-1.39869012025E+02	-6.06007086953E+00	-1.70177659852E-01
3.04366818575E+05	-1.28266281990E+01	6.25105286003E+01	5.63991369401E+00	-1.78703990272E+02	-3.93000065837E+01	1.20372071633E+02	-6.06327607961E+00	-6.02788768998E-03
3.04586820414E+05	-1.42025555576E+01	-5.22389399050E+01	5.60212523855E+00	-1.77083965255E+02	-3.44865935567E+01	-1.52930483179E+02	-6.07274664616E+00	-3.40624312334E-01
3.04806981274E+05	-2.03317992907E+01	1.76636698082E+01	5.69848899730E+00	-1.77885268627E+02	-4.13753717856E+01	1.06827607154E+02	-6.04116692798E+00	3.33788874372E-02
3.05027301270E+05	-1.42008967445E+01	4.22405885111E+01	5.62210609162E+00	-1.78360110232E+02	-3.90246471612E+01	-1.74121724741E+02	-6.05459773346E+00	-2.58798158467E-01
3.05247780517E+05	-3.31133033356E+01	1.41008746205E+02	5.66958761594E+00	-1.77669308050E+02	-4.55368017399E+01	-1.45560401064E+02	-6.04397733226E+00	-3.25974181800E-01
3.05468419131E+05	-1.46084910531E+01	-2.38882782260E+01	5.59825302865E+00	-1.77545225961E+02	-3.73318053298E+01	-1.22244101727E+02	-6.08396287566E+00	-2.85057277618E-01
3.05689217226E+05	-2.15512551984E+01	7.36594432716E-01	5.67391300411E+00	-1.77788034235E+02	-3.43649752696E+01	-5.73716403563E+01	-6.02026640302E+00	-4.41674522653E-01
3.05910174918E+05	-2.47340229822E+01	3.58725232263E+01	5.72637406600E+00	-1.77814885750E+02	-5.07676859643E+01	4.05546832446E+01	-6.02026474220E+00	-2.39436259444E-01
3.06131292322E+05	-1.48497664153E+01	-5.16541491262E+01	5.65986645393E+00	-1.76607695208E+02	-3.15186610311E+01	8.94630252381E+01	-6.00939413507E+00	3.64656325054E-01
3.06352569554E+05	-2.50653457148E+01	-8.36436298478E+01	5.69317711079E+00	-1.77503292113E+02	-4.98745810180E+01	-1.74941266008E+02	-6.05251187594E+00	-1.94685343060E-01
3.06574006730E+05	-2.00119176711E+01	-6.13810063086E-01	5.61280874268E+00	-1.77716750937E+02	-5.74111012537E+01	1.08091855040E+02	-6.02925126633E+00	8.99390331049E-02
3.06795603964E+05	-2.02259700295E+01	-3.74419080900E+00	5.63563348602E+00	-1.77623455445E+02	-3.80369231680E+01	-1.65017083836E+02	-6.07363434543E+00	-5.40132770325E-01
3.07017361372E+05	-1.83065236294E+01	-5.20258686912E+01	5.67891719991E+00	-1.77357543829E+02	-3.85381586663E+01	1.32819621884E+02	-6.02890880770E+00	6.04260813159E-02
3.07239279071E+05	-1.81937587963E+01	1.25057301821E+01	5.67027717806E+00	-1.77726596493E+02	-3.74604886871E+01	-4.10091540650E+01	-6.01782105807E+00	-2.87727800106E-01
3.07461357176E+05	-2.34354288305E+01	-9.28703072145E+00	5.69569562275E+00	-1.77756570937E+02	-4.10268573295E+01	-1.16850639664E+02	-6.04502560688E+00	-2.33756573796E-01
3.07683595803E+05	-2.52568327859E+01	3.50727056393E+01	5.64674119836E+00	-1.77970774716E+02	-5.20205363206E+01	1.46063361075E+02	-6.05720873087E+00	-4.16636322945E-01
3.07905995068E+05	-2.96295671258E+01	9.31907000080E+01	5.72489992202E+00	-1.77616467339E+02	-3.55093285448E+01	-9.95449646866E+01	-6.00667611155E+00	-5.84602749659E-01
3.08128555087E+05	-2.94559145917E+01	-2.00163624972E+01	5.76444505302E+00	-1.77671290416E+02	-3.92086447706E+01	-1.55071802938E+01	-6.02042219084E+00	-2.83131851350E-01
3.08351275976E+05	-1.82334211487E+01	5.76688505444E+01	5.64217344036E+00	-1.78261954510E+02	-4.98093959500E+01	3.33832005777E+01	-6.00699639725E+00	-1.83397503029E-01
3.08574157853E+05	-3.01365552609E+01	7.35087158940E+00	5.66226207051E+00	-1.77789172710E+02	-3.60164762639E+01	-1.51786404771E+01	-6.00255735892E+00	-2.12154332259E-01
3.08797200832E+05	-1.74196282343E+01	4.86235049782E+01	5.62707425981E+00	-1.78255186770E+02	-3.85134908472E+01	-2.58027312526E+01	-6.03656721193E+00	-3.33635538771E-01
3.09020405031E+05	-2.59895794595E+01	3.84900246909E+01	5.75388607306E+00	-1.77960101410E+02	-4.06727148451E+01	9.14407789657E+01	-6.04878265270E+00	-1.05078345097E-01
3.09243770566E+05	-2.65223473268E+01	1.40955007718E+01	5.69522577208E+00	-1.77916090587E+02	-3.90095524495E+01	-8.16341494396E+01	-6.05314270666E+00	-4.25281959138E-01
3.09467297553E+05	-3.95707079027E+01	9.82177054084E-01	5.69733270089E+00	-1.77534963529E+02	-4.22331578315E+01	1.69202072736E+02	-6.05855339072E+00	-4.34331988547E-01
3.09690986110E+05	-2.70525640359E+01	1.36737687658E+01	5.62758023471E+00	-1.78187719222E+02	-3.83708664942E+01	-1.46977546954E+02	-6.07954339809E+00	-3.40201882698E-01
3.09914836353E+05	-2.32157117054E+01	-9.73783318908E+00	5.70139096283E+00	-1.77631987617E+02	-5.72810683693E+01	-1.18596538484E+02	-6.00782297373E+00	-3.34957722076E-01
3.10138848399E+05	-1.81213291166E+01	2.37657486109E+01	5.64397577558E+00	-1.77966710098E+02	-3.97543980772E+01	-1.18139338398E+01	-6.00840605968E+00	-2.02282461022E-01
3.10363022365E+05	-1.74442528956E+01	-1.34522559475E+02	5.81373250435E+00	-1.77838565395E+02	-3.61074424858E+01	-1.50359031038E+02	-6.07438871294E+00	-2.84024899459E-01
3.10587358368E+05	-2.75137841393E+01	1.47083210883E+02	5.76105390590E+00	-1.77884889951E+02	-4.23795125221E+01	-1.67860724620E+02	-6.04252976466E+00	-1.48734326440E-01
3.10811856525E+05	-2.11673780665E+01	-7.25432611524E+00	5.65953747649E+00	-1.77925094844E+02	-5.33114045019E+01	-1.12199188933E+02	-6.03796001743E+00	-1.91396912429E-01
3.11036516954E+05	-1.65100674878E+01	1.36217391400E+01	5.59468727151E+00	-1.78072136787E+02	-4.55132138557E+01	2.34060983215E+01	-6.03324856234E+00	-2.23545961756E-01
3.11261339771E+05	-9.02165914812E+00	5.06382184244E+01	5.56101054401E+00	-1.79070235824E+02	-4.66374761552E+01	-5.72098840533E+01	-6.03914811387E+00	-1.90424032055E-01
3.11486325094E+05	-1.77860168038E+01	7.23074181577E+01	5.66962165351E+00	-1.78319708314E+02	-4.66983580934E+01	1.86310042653E+01	-6.04521785623E+00	-1.87504578316E-01
3.11711473040E+05	-2.12370385938E+01	8.49149070418E+00	5.70149295331E+00	-1.77633108349E+02	-4.00108250153E+01	-1.75399090621E+02	-6.07023164480E+00	-1.54049180690E-01
3.11936783728E+05	-1.86943475761E+01	5.79816495157E+01	5.69857758220E+00	-1.78595991519E+02	-4.14056932835E+01	-1.75223680507E+02	-6.04733552576E+00	-2.05507646800E-01
3.12162257274E+05	-2.47899477826E+01	-1.13738063726E+02	5.77827701740E+00	-1.77576540993E+02	-2.93936474304E+01	-1.64121315647E+02	-6.13805632349E+00	-5.81579073477E-01
3.12387893797E+05	-1.66347723582E+01	-1.15755068965E+00	5.62195145750E+00	-1.77829724187E+02	-4.99416875728E+01	-1.46225772246E+02	-6.02689358067E+00	-4.36028276805E-01
3.12613693413E+05	-2.00917011635E+01	-1.20495397272E+01	5.73232550365E+00	-1.77507968834E+02	-4.33938816566E+01	1.66630236084E+02	-6.06190979225E+00	-8.82871555094E-02
3.12839656242E+05	-2.67793807975E+01	1.10011232815E+02	5.74458530173E+00	-1.77728503697E+02	-4.47088077300E+01	-9.19451544003E+01	-6.01784842995E+00	-2.56700261614E-01
3.13065782401E+05	-1.38025898563E+01	6.29536291785E+01	5.65059267324E+00	-1.78678008961E+02	-3.26086716030E+01	1.68263706280E+02	-6.10697809205E+00	-1.45392818596E-01
3.13292072007E+05	-2.03626980046E+01	-5.67955138537E+01	5.64977111421E+00	-1.77300864293E+02	-4.43621148400E+01	-1.76192708571E+02	-6.04957711318E+00	-2.06540811517E-01
3.13518525180E+05	-2.18438936867E+01	-9.95206459946E+01	5.74274582302E+00	-1.77655349612E+02	-4.81175982577E+01	-1.36892410851E+02	-6.04175158546E+00	-3.00871242555E-01
3.13745142038E+05	-2.21736168009E+01	1.66935351604E+01	5.62574613997E+00	-1.77588897566E+02	-3.88594438723E+01	1.58739308202E+02	-6.06641526497E+00	7.10759470856E-02
3.13971922698E+05	-7.72979159954E+00	-1.55771697078E+02	6.03258739416E+00	-1.77099488431E+02	-4.14999326053E+01	-1.39506523566E+02	-6.05182830616E+00	-4.57920199995E-01
3.14198867279E+05	-3.24967548565E+01	-1.10217155380E+02	5.75722747099E+00	-1.78112779355E+02	-4.55845124443E+01	-1.20250192841E+02	-6.07422972592E+00	-1.61713303990E-01
3.14425975900E+05	-2.22935546620E+01	8.32488732005E+01	5.73861375509E+00	-1.77935023503E+02	-5.80266771319E+01	1.65419592794E+02	-6.03913756155E+00	-9.21795410299E-02
3.14653248680E+05	-3.12611747278E+01	-1.49137575951E+00	5.65985929723E+00	-1.77763076592E+02	-3.81399331437E+01	4.51187515268E+01	-6.03779443775E+00	8.22197946921E-02
3.14880685736E+05	-9.19572328427E+00	1.18712081849E+02	5.79226844726E+00	-1.79613747328E+02	-3.51073566885E+01	1.34903087349E+02	-6.05822493495E+00	-6.28188285694E-02
3.15108287188E+05	-1.67097817013E+01	2.18760336562E+01	5.66577144449E+00	-1.78102029204E+02	-5.49107327969E+01	2.82427560405E+01	-6.04447265566E+00	-1.74767966393E-01
3.15336053154E+05	-1.84149309621E+01	-3.33270059332E+01	5.67835153959E+00	-1.77610672694E+02	-3.87042732776E+01	1.75475534890E+02	-6.03695775222E+00	-3.12951515834E-01
3.15563983753E+05	-1.70746905572E+01	4.19903920381E+01	5.63085942972E+00	-1.78246930224E+02	-3.31779065411E+01	3.72285483439E+01	-6.00156163823E+00	2.93894794470E-01
3.15792079105E+05	-2.03618158240E+01	7.41105372549E+01	5.75066679258E+00	-1.78093320021E+02	-4.01793789484E+01	3.91413828311E+01	-6.01542740507E+00	-2.65230228052E-01
3.16020339328E+05	-1.55136526164E+01	9.51703355482E+00	5.65794351292E+00	-1.77942728616E+02	-3.88618500516E+01	-6.79348827072E+01	-6.03120228177E+00	-3.64870613416E-01
3.16248764542E+05	-2.29368284169E+01	-6.35434758639E+00	5.63130645018E+00	-1.77943295202E+02	-4.08440480059E+01	-1.00084257087E+02	-6.07207606878E+00	-4.42287458456E-01
3.16477354866E+05	-2.00009173689E+01	8.50684144384E+01	5.67712642362E+00	-1.77911809727E+02	-3.33877715447E+01	-6.56995195911E+01	-5.98457130906E+00	-4.90368152378E-01
3.16706110419E+05	-1.98138563676E+01	5.78028756138E+01	5.73289468654E+00	-1.77867434210E+02	-4.26631284269E+01	-1.44136783553E+02	-6.04350716096E+00	-3.81927440265E-01
3.16935031321E+05	-1.66210530272E+01	7.87729526960E+00	5.58052058232E+00	-1.78021821001E+02	-5.03456274597E+01	1.24711079238E+02	-6.03538230933E+00	6.52810212893E-03
3.17164117691E+05	-2.06949859264E+01	2.07221374644E+01	5.63840494499E+00	-1.77701851002E+02	-3.86154477444E+01	1.75031944215E+02	-6.07738644651E+00	-9.62606404542E-02
3.17393369648E+05	-1.45399153577E+01	1.51886683093E+02	5.83656880126E+00	-1.78487457526E+02	-3.14491983840E+01	1.57315280805E+02	-6.11153484246E+00	-1.49316912588E-01
3.17622787313E+05	-2.03801378776E+01	6.83122169840E+01	5.71044091629E+00	-1.78201854030E+02	-5.01709031337E+01	7.76278150180E+01	-6.03666308999E+00	-2.29567293630E-01
3.17852370806E+05	-1.75310909837E+01	3.61679975248E+00	5.65679709891E+00	-1.78099592020E+02	-4.51884141201E+01	1.58600929039E+02	-6.06613577878E+00	-1.31750325820E-01
3.18082120245E+05	-3.50141606899E+01	4.10956635356E+00	5.69851527617E+00	-1.77889877210E+02	-4.20386528276E+01	9.94190134726E+01	-5.99917538628E+00	-2.13159277203E-01
3.18312035752E+05	-1.49240802738E+01	-7.61066605006E+01	5.71719506706E+00	-1.76836954016E+02	-3.90910525943E+01	5.61402099269E+00	-6.03057014363E+00	-1.67652676385E-01
3.18542117445E+05	-1.91199740635E+01	2.58846421250E+01	5.66430730957E+00	-1.77895699283E+02	-4.06518526154E+01	-5.11611234026E+01	-6.03581264249E+00	-4.04560238426E-01
3.18772365446E+05	-1.73909961199E+01	-1.81063709056E+01	5.63306289227E+00	-1.78038331244E+02	-3.90604431799E+01	-6.92051863610E+00	-6.02166655954E+00	-2.81724751398E-01
3.19002779874E+05	-2.11744147249E+01	5.04928186251E+01	5.65100925163E+00	-1.78383777454E+02	-3.72876991212E+01	-1.79418639579E+02	-6.09578655649E+00	-3.57960500861E-01
3.19233360850E+05	-1.29378870918E+01	4.54890256312E+01	5.55702209173E+00	-1.78596407429E+02	-5.18320404215E+01	1.47044915400E+02	-6.04714553692E+00	-2.52571564844E-01
3.19464108494E+05	-2.48614428714E+01	-5.56240831335E+00	5.67723733096E+00	-1.77627957742E+02	-5.36112459357E+01	-1.32057625928E+02	-6.03233511010E+00	-4.15246256830E-01
3.19695022927E+05	-2.22945316875E+01	4.09703215540E+01	5.64821817996E+00	-1.77743440322E+02	-4.64426535427E+01	6.00377919166E+01	-6.02508639757E+00	-8.84522618362E-02
3.19926104268E+05	-2.06201587744E+01	3.60842640475E+01	5.68984384485E+00	-1.78130375629E+02	-4.36070501715E+01	9.30115237235E+00	-6.04844439415E+00	-2.65609982967E-01
3.20157352640E+05	-2.31919919123E+01	-2.50236752060E+01	5.61282568442E+00	-1.77482055494E+02	-3.54960175713E+01	1.06803231649E+02	-6.06428936386E+00	1.69688050220E-01
3.20388768162E+05	-1.60088338025E+01	2.81790434047E+01	5.63023729532E+00	-1.78713490506E+02	-3.90287943329E+01	8.51373873348E+01	-6.04640707791E+00	-2.64604819110E-01
3.20620350955E+05	-2.96931769789E+01	-3.36272006869E+01	5.77291842096E+00	-1.77684635098E+02	-4.67704084081E+01	9.45088324948E+01	-6.04620005188E+00	-2.73342779662E-01
3.20852101140E+05	-2.61698468960E+01	1.17261619313E+02	5.72385696430E+00	-1.78183011763E+02	-3.57516108861E+01	1.76159649677E+01	-5.98669998344E+00	-1.19585913819E-01
3.21084018839E+05	-1.74467433094E+01	5.41911674015E+01	5.67065800337E+00	-1.78289027768E+02	-4.91073582415E+01	1.29537733686E+01	-6.03523395459E+00	-2.79876386124E-01
3.21316104172E+05	-2.17387802434E+01	2.68363134189E+01	5.64925668014E+00	-1.77884605099E+02	-6.11954036929E+01	3.50803195582E+01	-6.06249045187E+00	-1.74568918522E-01
3.21548357261E+05	-1.71365190432E+01	2.94477488381E+01	5.61054607387E+00	-1.78141445901E+02	-4.06517824932E+01	-1.09234379860E+02	-6.03696830818E+00	-5.15299966052E-02
3.21780778226E+05	-2.40776395434E+01	-3.65931558012E+01	5.65997022350E+00	-1.77507590987E+02	-4.81866906260E+01	1.41573298558E+02	-6.04982661540E+00	-1.85326055060E-01
3.22013367189E+05	-2.67446717285E+01	7.14496038937E+01	5.68211518237E+00	-1.78366838517E+02	-5.10664085693E+01	-1.63887943021E+02	-6.04490232965E+00	-3.61633420282E-01
3.22246124272E+05	-2.42440868802E+01	4.11018232711E+01	5.66689216051E+00	-1.77995478030E+02	-5.06698582301E+01	-1.10724311618E+02	-6.04527829299E+00	-1.42999448529E-01
3.22479049596E+05	-2.85427894540E+01	1.93091492421E+01	5.64665195998E+00	-1.77650990992E+02	-4.53690966952E+01	7.77041812366E+01	-6.04397548519E+00	-2.30105347121E-01
3.22712143282E+05	-6.75653295110E+00	2.87151855547E+01	5.38111255017E+00	-1.78591182591E+02	-4.78676279399E+01	7.46037012403E+01	-6.03241687725E+00	-2.10472778794E-01
3.22945405453E+05	-2.29182807327E+01	7.24728595303E+00	5.62249340580E+00	-1.77819437394E+02	-4.53461966999E+01	-6.38043712475E+01	-6.01410683536E+00	-2.01738615407E-01
3.23178836230E+05	-2.05881563619E+01	5.25625365027E+01	5.68411353596E+00	-1.78361356955E+02	-3.90549874150E+01	-9.29266340838E+01	-6.03955320003E+00	-2.40196583732E-01
3.23412435735E+05	-1.69008039805E+01	-1.09226785627E+01	5.63866876724E+00	-1.78040785143E+02	-5.45863596613E+01	-6.44203932060E+01	-6.02306426848E+00	-3.53794054978E-02
3.23646204090E+05	-1.92684438006E+01	-5.90376768904E+01	5.69241633701E+00	-1.77246427508E+02	-3.25221137030E+01	-9.89203910419E+01	-6.02816570770E+00	-7.63913604249E-01
3.23880141417E+05	-2.45923652413E+01	3.68176030863E+01	5.65313534389E+00	-1.78137529719E+02	-5.03598481326E+01	1.30120465951E+02	-6.06280867724E+00	-8.66724429404E-02
3.24114247838E+05	-3.12316219168E+01	-1.05348504219E+01	5.67806009474E+00	-1.78028354729E+02	-4.25304067948E+01	-1.19529061955E+02	-6.07293023257E+00	-3.03385421546E-01
3.24348523475E+05	-2.41581922968E+01	1.37754750346E+02	5.73243836521E+00	-1.78390589591E+02	-4.18764329704E+01	-1.46240790372E+02	-6.03463183887E+00	-3.06380161278E-01
3.24582968451E+05	-1.47366887673E+01	-4.16088288366E+01	5.66687675319E+00	-1.77271229860E+02	-3.48493153912E+01	-1.30582441834E+02	-6.05615311092E+00	-6.19004038241E-01
3.24817582888E+05	-1.76569789326E+01	-1.58437303541E+01	5.64525569240E+00	-1.77907594065E+02	-4.45142180752E+01	-1.61769073816E+02	-6.05828606075E+00	-9.49322528409E-02
3.25052366909E+05	-1.80159930221E+01	9.26698685551E+01	5.74334266025E+00	-1.78393087514E+02	-4.82247263593E+01	-1.75907294160E+02	-6.06522197270E+00	-2.89618435625E-01
3.25287320635E+05	-3.13961378636E+01	-2.30844660796E+01	5.71203820114E+00	-1.77737856628E+02	-4.63250343450E+01	6.81205292741E+01	-6.03336570458E+00	-2.14129904627E-01
3.25522444191E+05	-1.99660402296E+01	9.76217162594E+00	5.65000181316E+00	-1.78052501752E+02	-3.94843405173E+01	-2.85938046585E+01	-6.03942971132E+00	-2.94629991871E-01
3.25757737698E+05	-2.45758924659E+01	1.16213308959E+02	5.74899600742E+00	-1.78469618200E+02	-4.71461736299E+01	-1.47868255329E+02	-6.05214593424E+00	-2.92976022773E-01
3.25993201280E+05	-2.00767596350E+01	4.20033435927E+00	5.57369543176E+00	-1.78058029379E+02	-4.53871831569E+01	-1.02359017559E+02	-6.04771992930E+00	-1.86296726421E-01
3.26228835058E+05	-3.14759702137E+01	7.41971294562E+01	5.68682363024E+00	-1.78020115058E+02	-4.06006315665E+01	-9.47804920924E+01	-6.04687392181E+00	-3.03944603372E-01
