# Hz S DB R 50
! CMT, M5065, 19127446, 24.2.4/2
! Date: 11/1/2024 3:36:00 PM
! Data: Format (Calibration Info)
! Freq	S11:dB/Ang(F2)	S21:dB/Ang(F2)	S12:dB/Ang(F2)	S22:dB/Ang(F2)
3.00000000000E+05	-2.39456744768E+01	7.33941780852E+01	1.27207616455E+01	-1.77390134268E+02	-4.92806482193E+01	-1.44503002468E+02	-6.06060183001E+00	-1.59482029888E-01
3.00216845423E+05	-3.18441221247E+01	-5.93489468911E+01	1.27007596771E+01	-1.77544473988E+02	-3.90057848092E+01	1.26953357153E+02	-6.06400658983E+00	-5.36006722080E-02
3.00433847586E+05	-1.75413278217E+01	5.83796287551E+01	1.25982035642E+01	-1.77874448206E+02	-3.55506106508E+01	5.48146309048E+01	-5.97201631273E+00	5.91226524415E-03
3.00651006602E+05	-1.35194178702E+01	-1.08883141090E+02	1.27689285977E+01	-1.76444623790E+02	-3.36066557296E+01	2.59997074175E+01	-5.93225490969E+00	4.06130159685E-01
3.00868322584E+05	-2.06668786754E+01	7.10780947774E+01	1.27043622173E+01	-1.77493944491E+02	-3.31689066137E+01	-1.40649008207E+02	-6.16268762714E+00	-1.01982878082E+00
3.01085795647E+05	-1.75089096800E+01	7.11984648135E+01	1.26932174464E+01	-1.77917056319E+02	-3.66752130396E+01	1.75324416099E+02	-6.12962646122E+00	-4.98616857788E-01
3.01303425902E+05	-2.71986912195E+01	-1.25419342641E+02	1.26877013566E+01	-1.77280751940E+02	-3.30468924467E+01	-1.35173129912E+02	-6.10918237486E+00	-9.16928775081E-01
3.01521213465E+05	-1.16857073408E+01	-5.61268812233E+00	1.25473669093E+01	-1.77499876044E+02	-4.60320237610E+01	-1.68228994235E+02	-6.03057700391E+00	-2.17211412362E-01
3.01739158449E+05	-1.32309545286E+01	-4.21480211053E+01	1.25957075154E+01	-1.76843989085E+02	-3.54052800107E+01	8.87896474840E+01	-6.06936767082E+00	3.21089740942E-01
3.01957260967E+05	-1.67614355957E+01	-3.75177521879E+01	1.26424682528E+01	-1.77400843281E+02	-3.64541957370E+01	1.74015626963E+02	-6.10210695406E+00	6.93499657784E-03
3.02175521134E+05	-7.59541529797E+00	1.25733413976E+00	1.23906300491E+01	-1.77274428592E+02	-4.14250975113E+01	1.73658704030E+02	-6.10525390769E+00	-2.53685397466E-01
3.02393939063E+05	-2.39643662409E+01	-1.03664171393E+02	1.26997636959E+01	-1.77027914252E+02	-3.11043008083E+01	1.37198019793E+02	-6.20663408234E+00	5.84966545593E-01
3.02612514869E+05	-1.69514190487E+01	7.45523345151E+01	1.26181911544E+01	-1.78170782361E+02	-4.88312531989E+01	2.37324357771E+01	-6.04321043686E+00	-3.43412138536E-01
3.02831248665E+05	-2.15803439731E+01	1.23748939260E+01	1.26323668562E+01	-1.77569281649E+02	-4.03605888057E+01	-9.21401074046E+01	-6.08822871913E+00	-5.82233726635E-01
3.03050140565E+05	-1.39615280925E+01	3.30574300144E+01	1.25989451198E+01	-1.78058739852E+02	-3.57862842672E+01	-1.20139606293E+02	-6.12495138280E+00	-7.49786308540E-01
3.03269190685E+05	-1.95178011099E+01	1.13496033141E+02	1.26758053284E+01	-1.78386690231E+02	-3.76606940818E+01	-4.86709343971E+01	-6.03835227728E+00	-5.98150953677E-01
3.03488399138E+05	-1.38057383893E+01	-1.57577334965E+01	1.25645337963E+01	-1.77280354937E+02	-3.91361483956E+01	-1.09952078969E+02	-6.07064069087E+00	-6.77762423447E-01
3.03707766039E+05	-9.99663811255E+00	8.58519047818E+01	1.26058119809E+01	-1.78998073623E+02	-2.99122800194E+01	5.35212435294E+01	-5.91235052087E+00	3.29735143572E-01
3.03927291503E+05	-1.19229417198E+01	-2.77598322975E+01	1.25494762556E+01	-1.76875594864E+02	-3.29149996620E+01	-1.05299000853E+02	-6.05275293089E+00	-1.16703478007E+00
3.04146975643E+05	-1.71449317144E+01	2.57972481388E+01	1.25773040190E+01	-1.77705643892E+02	-4.40620502775E+01	-4.14419185049E+01	-6.00705271676E+00	-1.60691465333E-01
3.04366818575E+05	-2.19719790484E+01	-1.34573689601E+02	1.27298096856E+01	-1.77200881383E+02	-3.85540237593E+01	1.48420934730E+02	-6.08370466685E+00	-3.16608920639E-01
3.04586820414E+05	-2.36207343388E+01	-6.29938058066E+01	1.26827981813E+01	-1.77467963401E+02	-4.12664986989E+01	-1.23369269986E+02	-6.06414378630E+00	-4.31639207005E-01
3.04806981274E+05	-1.66191904188E+01	4.73291862313E+01	1.26640062059E+01	-1.77945616886E+02	-3.80186895698E+01	-2.23443139190E+01	-5.98385705255E+00	-6.27364548332E-01
3.05027301270E+05	-2.86375549427E+01	-3.51548100824E+01	1.26711755619E+01	-1.77299003902E+02	-3.29332896680E+01	5.05187820636E+01	-5.94547436546E+00	1.47078132386E-01
3.05247780517E+05	-1.44256066322E+01	5.76451647079E+01	1.26375523411E+01	-1.78334688366E+02	-4.16194621947E+01	-1.73799725552E+02	-6.07927772154E+00	-8.89721560709E-02
3.05468419131E+05	-1.97296235870E+01	-1.39719496429E+02	1.27472848167E+01	-1.77424937210E+02	-3.01053992785E+01	-1.66503469435E+02	-6.18482654990E+00	-6.34418046212E-01
3.05689217226E+05	-1.88711905295E+01	1.26257524264E+01	1.26321009041E+01	-1.77534850105E+02	-3.74812225552E+01	-1.76061153124E+02	-6.14537798943E+00	-1.63876941384E-01
3.05910174918E+05	-1.49740132347E+01	-1.26754933415E+00	1.26235491146E+01	-1.77800004493E+02	-3.88520188892E+01	-1.47064373746E+02	-6.08698480116E+00	-5.32833726520E-01
3.06131292322E+05	-1.89059520683E+01	-1.61852076050E+02	1.27994582046E+01	-1.77640997025E+02	-4.47451662075E+01	6.51955274452E+01	-6.05893568057E+00	-1.34878660389E-01
3.06352569554E+05	-1.25007624721E+01	-3.23762329966E+01	1.25447225715E+01	-1.77408715781E+02	-4.07443505112E+01	-1.27333640653E+02	-6.04208816130E+00	-2.61948595238E-01
3.06574006730E+05	-2.16848081725E+01	1.60397036527E+02	1.27326395945E+01	-1.77682663170E+02	-3.50260576744E+01	-1.59097162106E+01	-5.98416930053E+00	-3.86174026588E-01
3.06795603964E+05	-2.99648104991E+01	1.41989414731E+02	1.27387027646E+01	-1.77976381764E+02	-3.13050335229E+01	7.22780659130E+01	-6.01031620060E+00	8.16579091217E-01
3.07017361372E+05	-1.51628404906E+01	9.51571092112E+01	1.26781236697E+01	-1.78184227225E+02	-3.70720442377E+01	1.22829549274E+02	-6.05152400239E+00	2.62456916424E-01
3.07239279071E+05	-1.96303373364E+01	8.23895567828E+01	1.26937720806E+01	-1.77670628109E+02	-4.22762292390E+01	-8.91396121754E-02	-6.03631550270E+00	-7.65358067003E-02
3.07461357176E+05	-2.23496974078E+01	2.09909181235E+01	1.26286823675E+01	-1.77674464644E+02	-3.70372381143E+01	1.60855050522E+02	-6.06339872423E+00	4.96640846554E-02
3.07683595803E+05	-1.94229691981E+01	1.16154707092E+02	1.26567383359E+01	-1.78068924134E+02	-4.37226740658E+01	-7.62923946921E+01	-6.04245754340E+00	-1.69980268611E-01
3.07905995068E+05	-2.47108576896E+01	2.76819306061E+01	1.26545721814E+01	-1.77782301946E+02	-4.02822940869E+01	1.35250569586E+02	-6.08929241713E+00	-5.61540303024E-02
3.08128555087E+05	-1.29711040602E+01	2.73889724016E+01	1.25673916196E+01	-1.78119401694E+02	-3.98354853989E+01	6.45619564470E+01	-6.01196864954E+00	1.66590065142E-01
3.08351275976E+05	-1.35299084305E+01	7.84449159370E+01	1.26304732133E+01	-1.78707999140E+02	-3.66019626904E+01	1.27652916994E+02	-6.09512199490E+00	5.95248662426E-01
3.08574157853E+05	-1.58486088837E+01	-1.07736576608E+02	1.26926930966E+01	-1.76675023476E+02	-2.77723158868E+01	-8.19476957802E+01	-5.96622168436E+00	-1.84856456388E+00
3.08797200832E+05	-2.24778090691E+01	4.42048819988E+01	1.26546305498E+01	-1.77782602493E+02	-3.68767659867E+01	1.06281716937E+02	-6.05453136276E+00	-5.21595172373E-02
3.09020405031E+05	-2.97970522873E+01	1.20533297136E+02	1.26739975782E+01	-1.77691121407E+02	-4.41118887326E+01	-4.27633137629E+01	-6.02540195434E+00	-5.85097303801E-01
3.09243770566E+05	-2.06499170883E+01	1.64721829462E+01	1.26375127345E+01	-1.77565946815E+02	-3.85304478003E+01	1.28834443464E+01	-5.96892200040E+00	-7.47559675476E-02
3.09467297553E+05	-1.71989019902E+01	-5.93151067780E+01	1.26178122906E+01	-1.76956796960E+02	-3.63613958104E+01	1.21561176464E+02	-6.06152809354E+00	2.77980818432E-01
3.09690986110E+05	-2.07258143522E+01	2.15823245257E+01	1.26870386028E+01	-1.77685835195E+02	-4.63049410735E+01	5.48591673795E+01	-6.07397033261E+00	1.36119118932E-01
3.09914836353E+05	-1.18029584578E+01	8.94990493094E+01	1.26413092797E+01	-1.79020198782E+02	-3.66716704954E+01	4.95971517133E+01	-5.95808164106E+00	2.86570061873E-01
3.10138848399E+05	-1.46539359038E+01	4.82936395091E+01	1.26298468504E+01	-1.78409458993E+02	-3.12841017854E+01	-2.45452377229E+01	-5.89298448509E+00	-9.22798910251E-01
3.10363022365E+05	-2.05356677624E+01	5.89195991242E+01	1.26423471134E+01	-1.78303703263E+02	-3.62550467858E+01	-1.52592668777E+01	-5.95693906830E+00	-2.14691108658E-01
3.10587358368E+05	-2.14744860206E+01	-8.67272176216E+01	1.26725268029E+01	-1.77384384614E+02	-4.87981611217E+01	-1.21198841510E+02	-6.01494151494E+00	-1.87193135975E-01
3.10811856525E+05	-2.07183087247E+01	-2.70088808854E+00	1.26393852346E+01	-1.77579211058E+02	-4.33831236313E+01	-9.79940909462E+01	-6.04697539102E+00	-6.66825686586E-01
3.11036516954E+05	-1.72213174565E+01	1.72296911870E+01	1.25951461264E+01	-1.78135523282E+02	-3.85862658008E+01	-1.39941238214E+02	-6.09189722036E+00	-6.91367669976E-01
3.11261339771E+05	-1.22113985262E+01	5.89728732451E+01	1.26030205052E+01	-1.78333449470E+02	-4.11771262559E+01	-1.11601467894E+02	-6.06747717070E+00	-1.37355701468E-01
3.11486325094E+05	-1.29106246037E+01	-7.88571289783E+01	1.26677144532E+01	-1.76976329912E+02	-5.31665301647E+01	-3.22120502281E+01	-6.06135273370E+00	-1.65403374796E-01
3.11711473040E+05	-2.49664397421E+01	-1.12711789700E+02	1.27247797841E+01	-1.77478923562E+02	-2.83697505221E+01	1.01613638162E+02	-6.08773868635E+00	1.33210686098E+00
3.11936783728E+05	-1.43913944461E+01	1.95659176347E+01	1.25934521356E+01	-1.77991778831E+02	-3.39189133741E+01	9.02377617674E+01	-6.07358373199E+00	2.49455442716E-01
3.12162257274E+05	-1.26530868319E+01	8.46956682643E+00	1.25344128335E+01	-1.77772826988E+02	-3.96058590117E+01	-7.68909363170E+01	-6.00805970323E+00	-5.33179898371E-01
3.12387893797E+05	-1.91536244282E+01	6.35518399916E+01	1.26574989972E+01	-1.78018824248E+02	-4.34317340028E+01	7.16771950088E+01	-6.04940600245E+00	2.93349809881E-02
3.12613693413E+05	-1.90206253138E+01	7.96328580684E+01	1.26426882723E+01	-1.77969586077E+02	-4.40789440543E+01	-3.04495084150E+01	-6.00131951683E+00	-3.75119326090E-01
3.12839656242E+05	-2.35751847712E+01	-3.14169418234E+01	1.26597347272E+01	-1.77795242310E+02	-3.60052387605E+01	-1.67281267342E+02	-6.15431069709E+00	-1.33975655393E-01
3.13065782401E+05	-1.38825182190E+01	9.08201334201E+01	1.27290769822E+01	-1.78842985844E+02	-3.95558441597E+01	-1.80903048790E+01	-5.97073615510E+00	-4.03957091919E-01
3.13292072007E+05	-8.18749279914E+00	-5.34199020880E+01	1.25559165066E+01	-1.76359764538E+02	-3.34078695292E+01	1.27404954540E+02	-6.11678324977E+00	8.36962267968E-01
3.13518525180E+05	-1.83948459119E+01	8.80454101477E+01	1.26652803012E+01	-1.78061354647E+02	-3.89823122146E+01	-1.07696247445E+02	-6.01766392948E+00	-9.18828726365E-01
3.13745142038E+05	-1.53016638245E+01	4.15412451328E+01	1.26460501498E+01	-1.78081447773E+02	-3.68686057048E+01	-3.75574388978E+01	-5.98713488578E+00	-4.37869464278E-01
3.13971922698E+05	-2.53593385410E+01	4.91568891459E+01	1.26488575012E+01	-1.77687849822E+02	-3.66239327304E+01	-9.06236558723E+01	-6.03653362808E+00	-6.19401742796E-01
3.14198867279E+05	-2.63075306960E+01	8.37964245050E+01	1.26712021688E+01	-1.77765057016E+02	-5.15104863489E+01	1.67259057458E+02	-6.04041331174E+00	-1.20384223831E-01
3.14425975900E+05	-2.11049824430E+01	4.03386597720E+01	1.26429434261E+01	-1.78220373308E+02	-4.89948475650E+01	1.28975520956E+01	-6.02421994412E+00	-4.02562471628E-01
3.14653248680E+05	-2.28791554737E+01	-4.61459414563E+01	1.26497146292E+01	-1.77751522494E+02	-3.94527387051E+01	1.19261409682E+02	-6.04714347236E+00	2.49446722091E-02
3.14880685736E+05	-1.53153803383E+01	3.00594181745E+01	1.26186476865E+01	-1.78397131353E+02	-3.11341498184E+01	1.31832421046E+02	-6.10073917052E+00	8.13674411292E-01
3.15108287188E+05	-2.46959367273E+01	3.10695707155E+01	1.26390737739E+01	-1.77774724955E+02	-3.82545012101E+01	-8.74086849152E+01	-6.01356591173E+00	-8.75950028281E-01
3.15336053154E+05	-1.68056450382E+01	-4.36528103074E+01	1.25925729729E+01	-1.77478276685E+02	-3.73259198744E+01	-3.61833681557E+01	-5.98046031755E+00	-6.59775650897E-01
3.15563983753E+05	-2.28263560484E+01	3.95952405934E+01	1.27175783820E+01	-1.78069398551E+02	-3.73660102116E+01	-6.59506407610E+01	-6.02458564527E+00	-5.21586663522E-01
3.15792079105E+05	-2.29350879095E+01	7.79685206296E+01	1.26728297114E+01	-1.78000622440E+02	-3.92917818305E+01	1.94224672829E+01	-5.96569584966E+00	-1.38181552879E-01
3.16020339328E+05	-3.34205793078E+01	-2.24794790080E-01	1.26809882451E+01	-1.77698246917E+02	-4.42347073833E+01	-4.71912628075E+00	-5.98521150566E+00	-1.98150607905E-01
3.16248764542E+05	-1.77275040013E+01	6.30717246794E+01	1.26908983509E+01	-1.78196508676E+02	-3.61748876192E+01	-8.59179384071E+01	-6.08157203922E+00	-6.06645425586E-01
3.16477354866E+05	-1.25649815981E+01	8.02513130813E+01	1.26019992801E+01	-1.78820733837E+02	-4.00912946056E+01	-3.58867552829E+01	-5.93885757416E+00	-5.31153703840E-01
3.16706110419E+05	-2.31936994558E+01	-1.69290994619E+01	1.26095609666E+01	-1.77643086043E+02	-3.23349124644E+01	1.29020487791E+01	-5.95937275797E+00	-1.34592151271E-02
3.16935031321E+05	-2.06726268928E+01	-7.25032906045E+00	1.26751022425E+01	-1.77791657112E+02	-5.63861562886E+01	-9.67316951842E+01	-6.02378226912E+00	-1.42972049685E-01
3.17164117691E+05	-1.62434680161E+01	-1.73457123906E+01	1.25906839761E+01	-1.77608690133E+02	-4.10765729290E+01	1.40812320689E+02	-6.10928425995E+00	-4.37013794288E-01
3.17393369648E+05	-2.56296926384E+01	2.90620778250E+01	1.26472288386E+01	-1.77980845868E+02	-4.62356664090E+01	-4.35713584791E+01	-6.00037091264E+00	-2.49568342761E-01
3.17622787313E+05	-2.17155936856E+01	2.10796400545E+00	1.26468208021E+01	-1.77475741235E+02	-4.83930778241E+01	8.64261917501E+01	-6.06141508550E+00	-6.32584938659E-02
3.17852370806E+05	-2.50278301414E+01	8.40725595284E+01	1.26615566410E+01	-1.78023109488E+02	-3.95569714056E+01	-6.21401768873E+01	-6.03733771099E+00	-6.84656319753E-01
3.18082120245E+05	-1.39931993057E+01	-4.28042396711E+01	1.26257276193E+01	-1.77468606148E+02	-3.37562096876E+01	-3.24683169947E+01	-5.90035045240E+00	-3.81426531813E-01
3.18312035752E+05	-1.24943007896E+01	-8.18766765400E+00	1.25913106446E+01	-1.77710162599E+02	-3.49323684779E+01	-8.85004498578E+01	-6.03705330305E+00	-8.83261108396E-01
3.18542117445E+05	-2.32052252582E+01	-8.39006796524E+00	1.26254991485E+01	-1.77711116837E+02	-4.49460854024E+01	1.69873618725E+02	-6.05333636620E+00	-2.72255755975E-01
3.18772365446E+05	-1.61801617047E+01	1.30721827252E+01	1.26329857167E+01	-1.77768133825E+02	-3.26631964965E+01	1.16743507638E+02	-6.11020967047E+00	4.19205348113E-01
3.19002779874E+05	-1.91586967703E+01	7.31689114331E+01	1.26640838397E+01	-1.78340816970E+02	-3.60895827415E+01	-1.16398651710E+02	-6.07679148496E+00	-7.17611174059E-01
3.19233360850E+05	-1.41896030368E+01	1.28685779730E+01	1.25543527467E+01	-1.77954050284E+02	-3.82692559773E+01	-7.16220563931E+01	-6.00460842035E+00	-4.63904350018E-01
3.19464108494E+05	-1.71794709445E+01	-1.53844129757E+01	1.26235449567E+01	-1.77792550244E+02	-3.98188681488E+01	1.00990950517E+02	-6.02411915511E+00	-9.99643920660E-02
3.19695022927E+05	-1.41917546504E+01	9.33451802760E+01	1.27315042938E+01	-1.78569878808E+02	-2.69151706358E+01	8.68646164262E+01	-6.02720171301E+00	1.75352212246E+00
3.19926104268E+05	-1.53168562474E+01	-1.25983256788E+02	1.27312364004E+01	-1.77285142668E+02	-2.98327229140E+01	3.23227066673E+01	-5.89762256819E+00	2.68135821409E-01
3.20157352640E+05	-1.45620998725E+01	-3.42356393577E+01	1.26047861187E+01	-1.77683995135E+02	-4.38131005705E+01	-5.97882919210E+01	-6.01149599873E+00	-2.39830440091E-01
3.20388768162E+05	-1.13609566875E+01	4.79012648978E+01	1.25609423564E+01	-1.78787209646E+02	-4.23673989960E+01	1.09220121629E+02	-6.09287906863E+00	-1.84025583863E-01
3.20620350955E+05	-2.92863439500E+01	-5.48449128029E+01	1.26599429569E+01	-1.77646758332E+02	-4.00042577201E+01	-5.09357518501E+01	-6.00056157184E+00	-6.92046611266E-01
3.20852101140E+05	-1.63458150464E+01	3.34662049341E+01	1.25919383349E+01	-1.78009667270E+02	-3.99040252690E+01	-8.52754198731E+00	-6.01104851915E+00	-2.30729601810E-01
3.21084018839E+05	-2.64394299474E+01	1.37267185091E+02	1.26978235508E+01	-1.77987249165E+02	-4.02411611340E+01	-2.78068292248E+01	-6.00631968722E+00	-2.09642145138E-01
3.21316104172E+05	-2.04238311112E+01	-5.90525899618E+01	1.26613951453E+01	-1.77509037085E+02	-3.82133451300E+01	-6.62569746100E+01	-5.99390779650E+00	-9.31374975961E-01
3.21548357261E+05	-1.58414328760E+01	6.32828174943E+01	1.25872799083E+01	-1.78643532081E+02	-3.44405693324E+01	-1.14883945232E+02	-6.09641715398E+00	-9.77158249949E-01
3.21780778226E+05	-2.00087058130E+01	-5.84414758628E+01	1.26747689375E+01	-1.77543639062E+02	-3.86884237223E+01	2.08522031758E+01	-5.98089764475E+00	-1.70657947054E-01
3.22013367189E+05	-2.44048901877E+01	-2.42548419886E+01	1.26548361657E+01	-1.77450108549E+02	-4.39995649718E+01	7.96166102335E+01	-6.05278623630E+00	-6.41624575780E-02
3.22246124272E+05	-1.65525292074E+01	5.99465169332E+01	1.26619877095E+01	-1.78596266283E+02	-3.89588325029E+01	-4.59019232649E+01	-6.04133676041E+00	-6.02131241544E-01
3.22479049596E+05	-1.59258155087E+01	-3.09174380653E+00	1.26029846543E+01	-1.77806889224E+02	-5.26272800519E+01	-1.41655736542E+02	-6.06722044028E+00	-2.72435488839E-01
3.22712143282E+05	-2.42883629635E+01	4.30024058423E+00	1.26793661835E+01	-1.77865853924E+02	-3.43121536544E+01	-1.29518109859E+02	-6.09157581318E+00	-5.22744721389E-01
3.22945405453E+05	-1.00942188198E+01	1.70322923800E+02	1.29180361790E+01	-1.77971305896E+02	-3.76053418323E+01	1.79650320366E+02	-6.10539265211E+00	-5.15286859245E-01
3.23178836230E+05	-1.77971256381E+01	5.13505225101E+01	1.26458769232E+01	-1.78221535085E+02	-5.19313872026E+01	1.72350308888E+02	-6.02568880623E+00	-1.06532083364E-01
3.23412435735E+05	-1.78577720339E+01	-1.52970105396E+01	1.26408149652E+01	-1.77560784253E+02	-3.72359884931E+01	-1.91035999814E+01	-5.98783558166E+00	-2.50756736055E-01
3.23646204090E+05	-2.82917511425E+01	-4.32271699085E+01	1.26546711273E+01	-1.77854881425E+02	-3.54170724795E+01	4.14829152021E+01	-5.99880279133E+00	3.80367453960E-01
3.23880141417E+05	-2.35478890935E+01	-3.81797895269E+01	1.26395919223E+01	-1.77914340106E+02	-4.04009041613E+01	-9.37274112107E+01	-6.07051634137E+00	-4.41611246226E-01
3.24114247838E+05	-1.93942633263E+01	6.60133191403E+01	1.26689691529E+01	-1.78347833737E+02	-3.54657797760E+01	8.36869580121E+01	-6.06404582383E+00	-3.28674650327E-02
3.24348523475E+05	-2.17487053155E+01	6.64816335230E+00	1.26045050660E+01	-1.77915357798E+02	-4.18335828186E+01	-8.25055122644E+01	-6.02591986766E+00	-5.04633228673E-01
3.24582968451E+05	-1.50056365798E+01	7.23476564091E+01	1.26447971597E+01	-1.78654878287E+02	-3.18868089579E+01	1.28290232179E+02	-6.16601308014E+00	4.42839261330E-01
3.24817582888E+05	-2.26514804003E+01	8.87058619834E+00	1.26678201247E+01	-1.77883696659E+02	-3.55944156938E+01	-8.32275146503E+01	-6.03381848161E+00	-7.85493147924E-01
3.25052366909E+05	-2.64177178573E+01	-6.64244945860E+00	1.26519821683E+01	-1.77828882339E+02	-3.50808550731E+01	-5.70849983338E+01	-5.99619897621E+00	-8.34310698385E-01
3.25287320635E+05	-2.00148967196E+01	-9.48672237151E+00	1.26256529445E+01	-1.77823716586E+02	-4.58097418343E+01	4.49935149015E+01	-6.01760164910E+00	-4.23830464756E-02
3.25522444191E+05	-3.09827689660E+01	1.31921795653E+02	1.26724140084E+01	-1.78105507320E+02	-4.02414685967E+01	-1.60197852943E+02	-6.03653958057E+00	-2.52552199736E-01
3.25757737698E+05	-1.96595772418E+01	8.77746726730E+00	1.26598152928E+01	-1.77891512647E+02	-4.04691672693E+01	1.08919347386E+02	-6.07296322065E+00	2.27229288020E-03
3.25993201280E+05	-3.33092947503E+01	8.66855814849E+01	1.26734488657E+01	-1.78140937627E+02	-4.02091188396E+01	-1.49836084980E+02	-6.07810874136E+00	-4.06471566441E-01
3.26228835058E+05	-1.62435799447E+01	1.06236268722E+01	1.25693480112E+01	-1.78141839521E+02	-3.69998772163E+01	-1.31704016596E+02	-6.10450035413E+00	-7.24977543429E-01
