# Hz S DB R 50
! CMT, M5065, 19127446, 24.2.4/2
! Date: 11/1/2024 3:26:24 PM
! Data: Format (Calibration Info)
! Freq	S11:dB/Ang(F2)	S21:dB/Ang(F2)	S12:dB/Ang(F2)	S22:dB/Ang(F2)
3.00000000000E+05	-1.41488065448E+01	9.30037731105E+01	8.67028084456E+00	-1.78640083944E+02	-4.65447193943E+01	1.25962353770E+02	-6.02601835479E+00	-3.37441693647E-02
3.00216845423E+05	-2.63960003757E+01	8.68768096982E+00	8.62758168038E+00	-1.77907217754E+02	-3.79961037602E+01	1.31966844132E+02	-6.07847148151E+00	-5.04372621764E-02
3.00433847586E+05	-1.57085679580E+01	1.01843653162E+02	8.69856982834E+00	-1.78321598107E+02	-4.34849545331E+01	-4.27416534276E+01	-6.00740322131E+00	-4.39004116253E-01
3.00651006602E+05	-1.36018123266E+01	5.60705608009E+01	8.60651850554E+00	-1.78437440872E+02	-4.03453580790E+01	1.30628834828E+02	-6.06215598653E+00	-1.84423454664E-01
3.00868322584E+05	-1.35535821753E+01	1.19893991022E+00	8.48941875826E+00	-1.77463425020E+02	-3.53084506308E+01	6.22343749365E+01	-6.03017828322E+00	4.43594269349E-02
3.01085795647E+05	-5.48324411377E+00	3.78379420276E+01	8.38961159073E+00	-1.78828588894E+02	-3.50480810655E+01	-6.39363995725E+01	-6.00330904368E+00	-6.87672644552E-01
3.01303425902E+05	-1.41755701808E+01	-6.75983254640E+00	8.56617184922E+00	-1.77167187893E+02	-4.29137895129E+01	6.93635877511E+01	-6.05864679364E+00	-6.07621238141E-02
3.01521213465E+05	-3.70381066941E+01	-1.67796198228E+02	8.67765110985E+00	-1.77728460487E+02	-3.68240038774E+01	7.97295106148E+01	-6.04060628377E+00	2.96013167215E-01
3.01739158449E+05	-2.08100477606E+01	-1.06350458764E+02	8.71950872324E+00	-1.77552625873E+02	-5.17484684862E+01	-6.48941673918E+01	-6.04125173435E+00	-4.93310918900E-01
3.01957260967E+05	-1.25674367151E+01	2.03155340267E+01	8.53848341005E+00	-1.77956797478E+02	-4.05273599015E+01	-1.33808598786E+02	-6.10059561335E+00	-2.26570630892E-01
3.02175521134E+05	-1.31120959446E+01	4.24720814532E+01	8.58166638855E+00	-1.78339239876E+02	-4.16007728877E+01	1.99429214077E+01	-6.02309277885E+00	-1.46129016063E-01
3.02393939063E+05	-1.52357449753E+01	-1.79847281343E+02	8.75092240710E+00	-1.77656338542E+02	-3.58952272375E+01	-6.63761065384E+01	-6.01435574840E+00	-5.51852637310E-01
3.02612514869E+05	-1.51119292528E+01	2.06489917424E+01	8.56047242116E+00	-1.77853182841E+02	-2.97718626609E+01	8.47285075182E+01	-6.03425332080E+00	6.80380483057E-01
3.02831248665E+05	-1.89455585884E+01	9.92211805121E+01	8.63650387076E+00	-1.77878675366E+02	-3.03104528227E+01	1.66125370176E+01	-5.91035497337E+00	-5.74445079562E-03
3.03050140565E+05	-9.58513872971E+00	6.25743028231E+01	8.56259364425E+00	-1.77940581496E+02	-5.07141003008E+01	-8.57369129542E+00	-6.01911951046E+00	-3.44323669595E-01
3.03269190685E+05	-2.20122163137E+01	1.39522480687E+02	8.67482917280E+00	-1.77629106843E+02	-4.02194789280E+01	4.38526702931E+01	-6.00893141861E+00	-1.67476274986E-01
3.03488399138E+05	-1.41093328635E+01	2.89614599940E+01	8.48897259396E+00	-1.78139711485E+02	-4.78287685236E+01	-1.24073528911E+02	-6.03953045137E+00	-1.53188141789E-01
3.03707766039E+05	-1.99807134894E+01	3.64798621301E+01	8.60691098432E+00	-1.77332271703E+02	-4.01613187533E+01	3.83275137863E+01	-5.99430762504E+00	-1.71819258363E-01
3.03927291503E+05	-2.23822403654E+01	-1.98570801740E+01	8.66200499894E+00	-1.77250797879E+02	-4.54191086962E+01	-3.20302183731E+01	-6.02035730889E+00	-2.54204654346E-01
3.04146975643E+05	-2.10996671653E+01	4.44315013122E+01	8.61341869685E+00	-1.77474858532E+02	-2.88490009458E+01	-5.49167039100E+01	-5.93298526428E+00	-9.21963930986E-01
3.04366818575E+05	-1.92504248425E+01	5.89775838040E+00	8.58127777558E+00	-1.77296220899E+02	-3.04504440149E+01	-1.04331516643E+01	-5.92106026043E+00	-6.80978639345E-01
3.04586820414E+05	-2.29198093385E+01	4.67073003398E+01	8.60200358056E+00	-1.77795313594E+02	-3.61207967123E+01	-1.67861434666E+02	-6.07659644976E+00	-4.00816694561E-01
3.04806981274E+05	-1.41770472384E+01	4.54845894220E+01	8.52411310358E+00	-1.77687030593E+02	-4.44750946866E+01	7.10362085999E+00	-6.03208838478E+00	2.57020675823E-02
3.05027301270E+05	-3.20892469953E+01	-3.99341650173E+01	8.61961316889E+00	-1.77481953444E+02	-4.54375966360E+01	-3.08417173630E+01	-6.01488837570E+00	-3.36833529983E-01
3.05247780517E+05	-1.42303065340E+01	1.42529819452E+01	8.51786243239E+00	-1.77878730351E+02	-4.04406822636E+01	1.67830759971E+02	-6.04588564778E+00	-4.18385560598E-01
3.05468419131E+05	-2.42380064767E+01	-2.78741737845E+01	8.65683985602E+00	-1.77502670618E+02	-4.86394291581E+01	1.84131588673E+01	-6.03834381296E+00	-1.94751788919E-01
3.05689217226E+05	-1.70412547962E+01	8.83501927392E+01	8.66434241801E+00	-1.78561651813E+02	-2.67003579324E+01	8.25906457205E+00	-5.87932209427E+00	8.14058061654E-02
3.05910174918E+05	-2.01827728281E+01	1.10991477066E+02	8.66962055175E+00	-1.78202516229E+02	-2.72302844312E+01	-1.28556375586E+02	-6.10593453631E+00	-1.02074358660E+00
3.06131292322E+05	-3.05113898845E+01	3.90628234030E+01	8.60086754660E+00	-1.78078568136E+02	-3.86880640162E+01	-1.16472224563E+02	-6.08559270285E+00	-4.89581265749E-01
3.06352569554E+05	-1.55897045622E+01	-1.83865696008E+01	8.57072385834E+00	-1.77223129541E+02	-3.51610003480E+01	-1.62520715770E+02	-6.11299193419E+00	-1.45986057332E-03
3.06574006730E+05	-2.26147325851E+01	1.03831418282E+02	8.65185103920E+00	-1.77810440547E+02	-4.10277208903E+01	1.64443371847E+02	-6.06349904299E+00	-4.80191673664E-01
3.06795603964E+05	-2.29616578348E+01	4.70106574115E+01	8.64474773723E+00	-1.77621826538E+02	-4.37847147429E+01	-8.00446695043E+01	-6.02448504068E+00	-5.01653022668E-01
3.07017361372E+05	-1.63324570545E+01	1.54203056960E+02	8.73226238693E+00	-1.78101217270E+02	-4.04933005530E+01	-1.15943915021E+01	-6.01772673497E+00	-8.65251789938E-02
3.07239279071E+05	-9.31009207661E+00	9.33957107152E+01	8.70579373733E+00	-1.79613649457E+02	-3.30981105455E+01	8.63566586598E+01	-6.01905427048E+00	4.32264066037E-01
3.07461357176E+05	-2.03330976817E+01	4.96667554399E+01	8.65197811745E+00	-1.78231236024E+02	-3.96558095107E+01	-1.14698978597E+02	-6.07011503110E+00	-6.11408204598E-01
3.07683595803E+05	-2.27910207729E+01	1.94426920268E+01	8.64548946036E+00	-1.77779176272E+02	-3.93614812364E+01	2.06037121427E+01	-5.99426376189E+00	-6.68951565807E-02
3.07905995068E+05	-2.05112330259E+01	-2.62295442884E+01	8.62250709569E+00	-1.77279935376E+02	-3.41018724937E+01	8.93267396316E+01	-6.03657688377E+00	2.31307768792E-01
3.08128555087E+05	-2.19566980368E+01	-2.16151112768E+00	8.58513483737E+00	-1.77624716539E+02	-3.93802909773E+01	-3.67413803325E+01	-6.04509315437E+00	5.14813075739E-02
3.08351275976E+05	-1.81601239430E+01	-9.33863665664E+01	8.67174845606E+00	-1.77137846456E+02	-3.90371721103E+01	-4.89870613946E+01	-6.02075470776E+00	-4.13910413141E-01
3.08574157853E+05	-2.13518094687E+01	-9.71602818460E+01	8.69983831016E+00	-1.77230478010E+02	-3.93457024031E+01	-1.74165240569E+02	-6.05225039855E+00	-5.56732988908E-01
3.08797200832E+05	-1.52780105724E+01	9.08289350529E+01	8.70948370053E+00	-1.78421245625E+02	-3.51493303620E+01	1.71313913357E+02	-6.09158707909E+00	-1.18623122705E-02
3.09020405031E+05	-1.36873521667E+01	8.39566488310E+01	8.68505453514E+00	-1.78297090637E+02	-2.80510607095E+01	1.63060812316E+02	-6.20205916778E+00	-2.21792758586E-01
3.09243770566E+05	-2.51816303070E+01	-5.08417163807E+01	8.60972137672E+00	-1.77752139557E+02	-4.69581778750E+01	1.27508501823E+01	-6.01830272895E+00	-1.29234525685E-01
3.09467297553E+05	-1.67835598599E+01	3.07165656419E+01	8.58692381522E+00	-1.78122293106E+02	-3.90391450028E+01	-3.53104679192E+01	-6.04472667021E+00	-2.06163765920E-01
3.09690986110E+05	-1.67735072248E+01	-1.24366617119E+02	8.71304930265E+00	-1.77298425536E+02	-4.86656454175E+01	1.61480547112E+02	-5.99761502152E+00	-1.55177765907E-01
3.09914836353E+05	-1.89590328838E+01	6.27393458552E+00	8.57698376382E+00	-1.78214090232E+02	-3.70364930225E+01	-5.74620761528E+01	-6.05245342191E+00	-7.20034741240E-01
3.10138848399E+05	-1.59957857886E+01	2.62885251121E+01	8.53817920900E+00	-1.77831124532E+02	-3.53817089407E+01	-1.79301842847E+02	-6.06324941639E+00	-1.49515686600E-01
3.10363022365E+05	-1.37573805731E+01	1.78991461888E+02	8.85528604753E+00	-1.77967580234E+02	-5.30851182394E+01	7.99351148161E+01	-6.03548576650E+00	-1.44445402565E-01
3.10587358368E+05	-2.27124311688E+01	-1.31082232364E+02	8.70601025549E+00	-1.77814766309E+02	-3.98370309472E+01	-1.05273868699E+02	-6.06131199348E+00	-3.77087387761E-01
3.10811856525E+05	-2.14343347299E+01	3.17836817853E+01	8.68313886731E+00	-1.78122952196E+02	-3.78140469952E+01	-4.88034131500E+01	-6.01215642737E+00	-5.65094928127E-01
3.11036516954E+05	-2.21428742646E+01	-2.04329225176E+01	8.58268121548E+00	-1.77482369130E+02	-3.52019349032E+01	-8.46296584410E+01	-6.04521753084E+00	-8.15911847175E-01
3.11261339771E+05	-2.81177856885E+01	1.21646363924E+02	8.70119043486E+00	-1.77484658668E+02	-4.06951426579E+01	-4.85411671990E+01	-6.00050884803E+00	-5.93568024330E-01
3.11486325094E+05	-2.76431669006E+01	-1.03504640484E+01	8.63012597329E+00	-1.77939009381E+02	-3.48019047123E+01	-2.61755285793E+01	-5.98412356136E+00	-1.96333836903E-01
3.11711473040E+05	-1.65006255478E+01	-1.03050474857E+01	8.57698285755E+00	-1.77599842609E+02	-4.49336572770E+01	-1.28716867148E+00	-5.96647760567E+00	-1.99074400651E-01
3.11936783728E+05	-6.90289920571E+00	5.55338691894E+01	8.51056096191E+00	-1.79539751242E+02	-3.67907395664E+01	-1.19539019391E+02	-6.04868510598E+00	-3.41967586176E-01
3.12162257274E+05	-1.55857253556E+01	1.23084233340E+01	8.51709318639E+00	-1.77644755522E+02	-4.00673709641E+01	8.64816515992E+01	-6.04207883094E+00	-1.06882650731E-01
3.12387893797E+05	-2.56184195349E+01	2.42532282122E+01	8.68673810051E+00	-1.77790567132E+02	-3.88793854852E+01	6.31890822454E+01	-6.03906621879E+00	-1.55615933901E-02
3.12613693413E+05	-1.73056616214E+01	-2.63300205871E+01	8.65384469838E+00	-1.77425220185E+02	-3.77808590237E+01	8.67424679665E+01	-6.05826300228E+00	1.66521927721E-01
3.12839656242E+05	-1.52012474411E+01	2.92505199323E+01	8.55858675751E+00	-1.78500968899E+02	-3.76419187035E+01	-1.32055155528E+02	-6.05290300087E+00	-8.59638532442E-01
3.13065782401E+05	-1.99869072191E+01	3.05661624910E+01	8.62776341479E+00	-1.77795831848E+02	-4.50911433988E+01	8.16450084076E+01	-6.06411265582E+00	1.91120047378E-01
3.13292072007E+05	-2.48288687059E+01	-6.14756398894E+01	8.64161135231E+00	-1.77499985657E+02	-3.98360057602E+01	-1.32433363355E+02	-6.06600943346E+00	-3.91420819200E-01
3.13518525180E+05	-1.45931686068E+01	-5.74725429770E+01	8.62684932121E+00	-1.77036338733E+02	-4.12482933929E+01	-1.61642254670E+02	-6.10679378121E+00	-2.75852034728E-02
3.13745142038E+05	-9.84722607510E+00	3.54170772965E+01	8.50367571287E+00	-1.78985223304E+02	-2.80257523272E+01	7.78401491565E+01	-6.00574772211E+00	7.01254506015E-01
3.13971922698E+05	-2.02457818912E+01	-4.12429948566E-01	8.63050900301E+00	-1.77900013722E+02	-4.63923072635E+01	-1.33396213699E+02	-6.08883224929E+00	-5.08044575240E-01
3.14198867279E+05	-3.57948715207E+01	4.33723624969E+01	8.70589496388E+00	-1.77955865227E+02	-4.62519378698E+01	1.52150785791E+02	-6.05470834689E+00	-1.72718512557E-01
3.14425975900E+05	-2.03868807080E+01	-2.14737714037E+01	8.64186271412E+00	-1.77528301008E+02	-4.97331336728E+01	7.09727175237E+01	-6.07286825827E+00	-3.59606193253E-01
3.14653248680E+05	-2.10498001875E+01	1.02609425452E+02	8.68027797271E+00	-1.78339404632E+02	-4.58108901443E+01	4.21072498368E+01	-6.01226158175E+00	-1.20323147000E-01
3.14880685736E+05	-1.39643096751E+01	5.70058711305E+01	8.56620928380E+00	-1.78605126127E+02	-3.86762095573E+01	7.94010382075E+01	-6.04769238982E+00	-9.83164364871E-02
3.15108287188E+05	-7.70552400044E+00	-1.68876205670E+01	8.38303842424E+00	-1.76515704882E+02	-4.03818998797E+01	-7.18280118225E+01	-6.05607498937E+00	-1.26372552663E-01
3.15336053154E+05	-4.74148415561E+00	5.71649332830E+00	8.21915396869E+00	-1.77618007770E+02	-4.42183908403E+01	-6.62054422264E+01	-6.01288794512E+00	-1.73170790743E-02
3.15563983753E+05	-1.85619133745E+01	3.60777574873E+01	8.59576667201E+00	-1.78339689225E+02	-4.42927381737E+01	-1.21620647859E+02	-6.00926602383E+00	-3.66898535659E-01
3.15792079105E+05	-2.39695797144E+01	1.47138183374E+02	8.65132625492E+00	-1.78113396472E+02	-3.84181482508E+01	2.07853905606E+01	-5.98135270521E+00	-1.53376557078E-01
3.16020339328E+05	-2.40264764550E+01	-8.10961487257E+00	8.62504560874E+00	-1.77751737323E+02	-4.40172301375E+01	7.89839427147E+01	-6.02157048739E+00	-1.70350576134E-01
3.16248764542E+05	-1.61880912759E+01	-4.09690206308E+01	8.56159441320E+00	-1.77479531157E+02	-3.89849360348E+01	8.57465614878E+01	-6.06555103233E+00	-9.09618557518E-02
3.16477354866E+05	-2.27331822009E+01	9.33639970643E+01	8.65930385149E+00	-1.78205735980E+02	-3.97585282810E+01	1.36026588658E+02	-6.07123122180E+00	-3.62271842554E-02
3.16706110419E+05	-1.52988366237E+01	-5.17600351867E+01	8.58787630988E+00	-1.77047608218E+02	-5.18856380227E+01	-6.07064054019E+01	-6.04357549697E+00	-8.24848202186E-02
3.16935031321E+05	-1.60151758660E+01	-1.65241932573E+01	8.54878137164E+00	-1.77497472024E+02	-3.21383721772E+01	2.60497658117E+01	-5.91960700296E+00	-8.03101706403E-02
3.17164117691E+05	-1.52873711853E+01	1.44704663126E+01	8.58510741239E+00	-1.78305093085E+02	-4.53623585575E+01	-1.21171694697E+02	-6.04336646120E+00	-2.53561023667E-01
3.17393369648E+05	-1.49956863503E+01	7.11043990197E+01	8.63942949960E+00	-1.78365433596E+02	-3.93921744592E+01	3.63405243643E+01	-6.01292335071E+00	-1.24124667460E-01
3.17622787313E+05	-1.73196965989E+01	7.62443156738E+01	8.70561951516E+00	-1.78164165730E+02	-3.83834194129E+01	1.36485754208E+02	-6.06422314558E+00	-5.44042160794E-02
3.17852370806E+05	-1.79280831747E+01	-1.98951773259E+01	8.61995047526E+00	-1.77767732732E+02	-3.61760294178E+01	1.23069762726E+01	-5.97459676781E+00	-3.86993222897E-01
3.18082120245E+05	-8.58554072004E+00	7.16110318605E+01	8.58813671557E+00	-1.79141610345E+02	-4.12624997545E+01	9.07299128369E+01	-6.04205916983E+00	9.33329552195E-02
3.18312035752E+05	-1.46984255237E+01	8.63400608765E+01	8.63732546120E+00	-1.78807441361E+02	-3.86260495270E+01	2.17561468283E+01	-5.96465842647E+00	-8.84785059897E-02
3.18542117445E+05	-1.91332779695E+01	1.93987243679E+01	8.59820934438E+00	-1.78150940371E+02	-3.44614462239E+01	1.23647441923E+02	-6.13289637507E+00	6.94488065102E-02
3.18772365446E+05	-1.69503341271E+01	-4.51867674800E+01	8.61256386649E+00	-1.77459898951E+02	-3.43272984327E+01	-3.85349589440E+01	-6.01068389674E+00	-2.42909707311E-01
3.19002779874E+05	-1.99223839071E+01	5.30140515284E+01	8.62086603189E+00	-1.77986504968E+02	-3.88413343336E+01	7.45188393894E+01	-6.01208352287E+00	-1.23959497673E-01
3.19233360850E+05	-2.34346316029E+01	-1.56571558560E+01	8.61589352999E+00	-1.78166805765E+02	-4.09384325575E+01	6.92707699305E+01	-6.03538649093E+00	3.33677221297E-02
3.19464108494E+05	-2.05397141284E+01	3.54249867430E+01	8.64398705952E+00	-1.77874419175E+02	-4.55249044369E+01	1.34662238980E+02	-6.11092900947E+00	3.06657719250E-02
3.19695022927E+05	-1.77494572486E+01	8.00150025069E+01	8.60748416296E+00	-1.78294359292E+02	-4.58579943870E+01	-5.14262714958E+01	-6.07137995188E+00	-2.56819096043E-01
3.19926104268E+05	-1.76118604366E+01	5.23144095587E+01	8.56072182563E+00	-1.78539912416E+02	-3.79163074696E+01	3.78585135372E+00	-6.01726035997E+00	-2.70436604050E-01
3.20157352640E+05	-9.33084305584E+00	2.11682890963E+01	8.49329053170E+00	-1.78159685613E+02	-4.70500960062E+01	1.20910557210E+02	-6.03396710460E+00	-1.67322292796E-01
3.20388768162E+05	-2.13826047676E+01	1.03006950656E+02	8.67459242736E+00	-1.77929177564E+02	-4.06894702300E+01	9.76275779323E+01	-6.07836500414E+00	-7.35961129775E-02
3.20620350955E+05	-1.74467389157E+01	-1.02189271243E+02	8.71039913228E+00	-1.77674622764E+02	-4.62357195742E+01	1.66138328290E+02	-6.04637560497E+00	-3.79628145232E-01
3.20852101140E+05	-2.09760121623E+01	1.67148979934E+02	8.65712768655E+00	-1.77834570572E+02	-4.20311834672E+01	9.97230894535E+01	-6.04721293215E+00	7.59884508345E-02
3.21084018839E+05	-1.83410633369E+01	1.48257175110E+01	8.60453705588E+00	-1.77851848488E+02	-3.69470140564E+01	-5.82472052604E+01	-6.02044625714E+00	-4.58543730085E-01
3.21316104172E+05	-1.62747762725E+01	3.00614954484E+01	8.58969405911E+00	-1.78422503097E+02	-3.86656582594E+01	1.50644009054E+02	-6.10465184336E+00	-2.96328519065E-01
3.21548357261E+05	-1.87599796615E+01	8.17567749590E+01	8.66055732993E+00	-1.78351970360E+02	-4.62729867389E+01	-6.01001856270E+01	-6.02907505024E+00	-2.33848252682E-01
3.21780778226E+05	-1.52305578304E+01	-2.53934286406E+01	8.56396937054E+00	-1.77853679906E+02	-3.89519226663E+01	-5.33197674010E+00	-5.97008362000E+00	-1.04173028563E-01
3.22013367189E+05	-3.35149797025E+01	1.32845697352E+02	8.68136968769E+00	-1.78317847026E+02	-3.75313786478E+01	-9.01950714587E+00	-6.01574410300E+00	-5.37096361876E-01
3.22246124272E+05	-1.69970038520E+01	4.26628425040E+01	8.55724133872E+00	-1.78506391266E+02	-3.96173365714E+01	-7.90862104109E+01	-6.08487500114E+00	-6.13632025680E-01
3.22479049596E+05	-1.61499961797E+01	-3.54352685322E+01	8.57706063494E+00	-1.77683355750E+02	-3.98134213973E+01	-9.80457616582E+01	-6.02536217399E+00	-4.41540577725E-01
3.22712143282E+05	-2.12268338471E+01	-1.14232430958E+01	8.61605222125E+00	-1.77956766027E+02	-3.91758302706E+01	1.57651237161E+02	-6.04686988196E+00	5.91613712256E-02
3.22945405453E+05	-1.83166401562E+01	-4.53351459744E+01	8.61634009162E+00	-1.77532866753E+02	-3.90040921590E+01	8.10943433353E+01	-6.04885737836E+00	9.07381088924E-02
3.23178836230E+05	-2.77817602207E+01	-1.73655022025E+02	8.72317444799E+00	-1.77725568272E+02	-4.12802426482E+01	2.77944128446E+01	-5.99758215785E+00	-9.29291569751E-02
3.23412435735E+05	-1.94645007821E+01	8.27067380063E+01	8.67146211384E+00	-1.79145397968E+02	-2.69286113521E+01	-1.75030070963E+02	-6.21378308218E+00	-2.22722531858E-01
3.23646204090E+05	-1.37437185178E+01	1.99948429440E+01	8.55625437776E+00	-1.78020965333E+02	-4.07817941862E+01	-3.27975282995E+01	-6.01687266874E+00	-4.58966502390E-01
3.23880141417E+05	-2.35978328660E+01	3.26181355333E+01	8.65269661694E+00	-1.77869911311E+02	-5.20740879585E+01	-5.74442483219E+01	-6.05363104843E+00	-3.17418730331E-01
3.24114247838E+05	-2.07207511886E+01	-8.83470924821E+00	8.59975795472E+00	-1.78034445977E+02	-4.02089297426E+01	-1.92488307893E+01	-6.05054741459E+00	-4.02311875619E-01
3.24348523475E+05	-1.61744078493E+01	7.66610038356E+01	8.62395539941E+00	-1.78586322732E+02	-4.67984948645E+01	9.50912218247E+01	-6.05252586286E+00	-1.99623618005E-01
3.24582968451E+05	-1.94968745964E+01	7.45354312460E+01	8.68429842951E+00	-1.78337048471E+02	-4.28724104403E+01	-3.62814263554E+01	-6.04300551203E+00	-4.65830984109E-01
3.24817582888E+05	-1.38156749140E+01	1.44042351173E+02	8.73712509423E+00	-1.78606724798E+02	-3.57548799045E+01	6.68353896613E+01	-5.99224462035E+00	7.62497989491E-02
3.25052366909E+05	-1.64064471028E+01	1.26873619108E+02	8.72910046864E+00	-1.78965774609E+02	-3.82919376341E+01	1.37906820250E+02	-6.11153226010E+00	1.30354533360E-01
3.25287320635E+05	-1.75626949663E+01	-2.66585138932E+01	8.60548981559E+00	-1.77477234070E+02	-3.39447414761E+01	-1.46991772082E+02	-6.14140267136E+00	-4.76405053847E-01
3.25522444191E+05	-1.46995033190E+01	5.54494063289E+01	8.62119112620E+00	-1.78480017929E+02	-4.42242685006E+01	-3.29872507562E+01	-6.02277779360E+00	-1.87801644096E-01
3.25757737698E+05	-3.01911346593E+01	1.50740271118E+02	8.68249178775E+00	-1.78064593051E+02	-3.45926630687E+01	-1.33941242184E+02	-6.03727163607E+00	-5.03475156726E-01
3.25993201280E+05	-1.49159081144E+01	3.72734624631E+01	8.62260388278E+00	-1.78433612599E+02	-4.15616924842E+01	-5.54743266929E+01	-6.04191677699E+00	-5.93101706623E-01
3.26228835058E+05	-2.79159355752E+01	-1.19498863900E+02	8.68755402172E+00	-1.77801178219E+02	-3.67564654882E+01	-1.30519693225E+02	-6.08213964116E+00	-3.07326457958E-01
