# Hz S DB R 50
! CMT, M5065, 19127446, 24.2.4/2
! Date: 11/1/2024 3:15:42 PM
! Data: Format (Calibration Info)
! Freq	S11:dB/Ang(F2)	S21:dB/Ang(F2)	S12:dB/Ang(F2)	S22:dB/Ang(F2)
3.00000000000E+05	-2.65580452154E+01	-2.41734228777E+01	6.64661990373E+00	-1.77630353352E+02	-3.78600678162E+01	6.40401947581E+01	-5.99749614125E+00	2.31578816138E-02
3.00216845423E+05	-1.88796970511E+01	7.40335432552E+01	6.64502618162E+00	-1.78039639019E+02	-3.81399162792E+01	1.49645740308E+02	-6.05571723483E+00	-7.84716896767E-02
3.00433847586E+05	-1.76085517980E+01	-2.06172442654E+00	6.56861876909E+00	-1.77460262819E+02	-4.86476187242E+01	1.62728757912E+02	-6.04347080406E+00	-1.23720307362E-01
3.00651006602E+05	-1.59907617414E+01	-4.58562682867E+01	6.58501627144E+00	-1.77031282966E+02	-3.94719992161E+01	-1.41230675580E+02	-6.06070518641E+00	-4.78185345164E-01
3.00868322584E+05	-1.63523031795E+01	1.30871544745E+01	6.62457914502E+00	-1.77825845865E+02	-4.65662872280E+01	-1.72238426390E+02	-6.05164537422E+00	-2.11777278426E-01
3.01085795647E+05	-1.91699586133E+01	3.34143091676E+01	6.58277142473E+00	-1.77707788503E+02	-4.23222084375E+01	5.40527743797E+01	-6.01194708238E+00	-2.01720557448E-01
3.01303425902E+05	-2.42492627203E+01	-1.09897939743E+01	6.62196527485E+00	-1.77726526827E+02	-4.25004567026E+01	-8.38185385692E+01	-6.03080599876E+00	-3.85089481526E-01
3.01521213465E+05	-2.67237559796E+01	9.38301641613E+01	6.72128126347E+00	-1.77985526173E+02	-4.32628179211E+01	-1.05616779080E+02	-6.03835536141E+00	-2.68309167465E-01
3.01739158449E+05	-1.63913667809E+01	9.13952506904E+01	6.67174607606E+00	-1.78445092974E+02	-4.34902811136E+01	6.12841989481E+01	-6.02513951751E+00	-2.86816549651E-01
3.01957260967E+05	-2.17582600870E+01	-1.70218173663E+01	6.61695466640E+00	-1.77313701157E+02	-5.25879752714E+01	2.65433123426E+00	-6.03260496686E+00	-2.06616710620E-01
3.02175521134E+05	-2.63908507789E+01	6.42762696669E+01	6.69178928881E+00	-1.77709915614E+02	-3.92550408731E+01	2.89433865234E+00	-6.02761337391E+00	-2.13203296671E-01
3.02393939063E+05	-1.86478088079E+01	5.89174054500E+01	6.62970214892E+00	-1.77953525559E+02	-3.70041261803E+01	1.16523399567E+01	-5.97478925695E+00	6.05289092110E-02
3.02612514869E+05	-1.76322263686E+01	8.79812170026E+01	6.70979932266E+00	-1.78452830166E+02	-3.67878797082E+01	1.57447565591E+02	-6.08738036575E+00	-1.61056457050E-01
3.02831248665E+05	-2.31466367628E+01	-2.06358262590E+01	6.63980661262E+00	-1.77782526989E+02	-4.54074931955E+01	1.35477409365E+01	-6.01176087762E+00	-1.69292143638E-01
3.03050140565E+05	-3.62285481832E+01	-1.57557212021E+02	6.71442575953E+00	-1.77588775481E+02	-3.93257126368E+01	-9.16457184986E+01	-6.06854465449E+00	-5.36228557074E-01
3.03269190685E+05	-2.72099996571E+01	8.43150254415E+01	6.69931984704E+00	-1.78170339632E+02	-4.09617180936E+01	-3.38444638341E+01	-6.03535332784E+00	-4.84534850345E-01
3.03488399138E+05	-1.44457520387E+01	6.62613562674E+00	6.58076065305E+00	-1.77494657799E+02	-4.15426012829E+01	8.56315858763E+01	-6.03133603654E+00	5.08239144456E-03
3.03707766039E+05	-1.88726308378E+01	7.41243975130E+01	6.72068375459E+00	-1.78109278374E+02	-5.57410254386E+01	8.20466710574E+01	-6.02355773046E+00	-1.08004847299E-01
3.03927291503E+05	-1.71929645834E+01	4.38313833695E+01	6.59989377978E+00	-1.78173888887E+02	-4.23845148179E+01	4.21631223620E+01	-6.01309045287E+00	-3.49161868367E-02
3.04146975643E+05	-1.96669902229E+01	-3.69016928919E+01	6.64861537227E+00	-1.77512454257E+02	-3.69109229807E+01	8.49727336180E+01	-6.04028152458E+00	-3.80819748981E-02
3.04366818575E+05	-2.69137730429E+01	4.49123445969E+01	6.66422712223E+00	-1.78244869741E+02	-4.46433317930E+01	6.80013141352E+01	-6.03706697493E+00	-1.67145524555E-01
3.04586820414E+05	-2.56786711231E+01	-5.06216646778E+01	6.64661794031E+00	-1.77586942959E+02	-3.68019300949E+01	-1.18677035782E+02	-6.06359947593E+00	-3.99298369456E-01
3.04806981274E+05	-1.82019928765E+01	1.00684208063E+01	6.59501439049E+00	-1.77804370603E+02	-4.38845332386E+01	1.12656031460E+02	-6.03880478051E+00	-1.90191636964E-01
3.05027301270E+05	-1.96019825263E+01	-7.78781229818E+01	6.72209766720E+00	-1.77195992958E+02	-4.97555270083E+01	-7.21710167068E+01	-6.02147471947E+00	-2.86212059550E-01
3.05247780517E+05	-2.77863994706E+01	-4.61540275625E+01	6.68187816579E+00	-1.77759133747E+02	-4.74801670207E+01	1.56484953781E+02	-6.01163526855E+00	-2.63944375859E-01
3.05468419131E+05	-1.72327417599E+01	4.95020595544E+01	6.66700481995E+00	-1.77822192780E+02	-4.58716443458E+01	-5.93519441806E+01	-6.03469460377E+00	-2.21367726336E-01
3.05689217226E+05	-1.42753392037E+01	5.88115466896E+01	6.61574791926E+00	-1.78256795523E+02	-5.39134321864E+01	-6.01937725207E+01	-6.06369694992E+00	-2.21289095819E-01
3.05910174918E+05	-1.73097032335E+01	6.97137666812E+01	6.69335062941E+00	-1.78507665870E+02	-4.40255954178E+01	1.22701810290E+02	-6.03023681936E+00	-7.53888936281E-02
3.06131292322E+05	-1.84865295927E+01	3.16440291047E+01	6.59166779828E+00	-1.77971266280E+02	-4.14833724191E+01	6.98140897019E+01	-6.03324892770E+00	1.03472135045E-03
3.06352569554E+05	-1.69684528645E+01	-4.14157975170E+01	6.59306063802E+00	-1.77426033940E+02	-3.74434682657E+01	-1.60620180271E+02	-6.06823192497E+00	-3.04872026302E-01
3.06574006730E+05	-1.49621982502E+01	-1.45696737461E+02	6.77195797473E+00	-1.77018288785E+02	-4.73214609055E+01	-1.01602730564E+02	-6.03241400561E+00	-1.90289400787E-01
3.06795603964E+05	-1.98824680238E+01	5.09866873615E+01	6.66718778636E+00	-1.77932553244E+02	-4.14348172456E+01	-1.43646858032E+02	-6.05190558550E+00	-2.63650151605E-01
3.07017361372E+05	-1.54747762725E+01	2.39037003489E+01	6.60177154151E+00	-1.78100807407E+02	-4.10559936298E+01	9.33638938842E+01	-6.06547169988E+00	-5.50987076397E-02
3.07239279071E+05	-2.23159223358E+01	2.69407810285E+01	6.60319251976E+00	-1.77586209465E+02	-4.80031015757E+01	3.26596257888E+01	-6.04380590136E+00	-1.62859891287E-01
3.07461357176E+05	-2.26287253888E+01	-8.15276687618E+01	6.64143178592E+00	-1.77438622477E+02	-3.46898311638E+01	9.38034773414E+00	-5.99706991675E+00	-1.87088592114E-01
3.07683595803E+05	-1.85744957342E+01	6.98397121549E+00	6.60763534387E+00	-1.77758742299E+02	-4.96753774331E+01	4.42505779936E+01	-6.02039292525E+00	-6.26321760582E-02
3.07905995068E+05	-4.55579663863E+01	1.62739449124E+02	6.65190805967E+00	-1.77784175290E+02	-3.95491328699E+01	1.00371811521E+02	-6.05460127447E+00	-1.06326696671E-02
3.08128555087E+05	-2.00066462695E+01	3.32463276500E+01	6.58684787989E+00	-1.78516786047E+02	-4.76499171386E+01	-1.40022211518E+02	-6.05317354954E+00	-2.35695405673E-01
3.08351275976E+05	-1.50225404265E+01	3.28470832744E+01	6.56014705231E+00	-1.77988310823E+02	-3.70494202243E+01	6.84396750341E+01	-6.02859080683E+00	1.31205257063E-01
3.08574157853E+05	-1.46479315897E+01	-3.03959308516E+01	6.58218455961E+00	-1.77652189357E+02	-5.21302209735E+01	1.39656523686E+02	-6.05556800400E+00	-1.90124784314E-01
3.08797200832E+05	-2.40271176625E+01	-1.18217179446E+01	6.62386600086E+00	-1.77524848050E+02	-4.30136509706E+01	1.61791456869E+02	-6.03513577515E+00	4.46580632390E-02
3.09020405031E+05	-2.07060569603E+01	4.97470528455E+01	6.61100152476E+00	-1.77850186527E+02	-4.04870029191E+01	1.68099728177E+02	-6.07550149677E+00	-3.18960254527E-01
3.09243770566E+05	-2.84479245699E+01	9.91433467387E+01	6.70095633559E+00	-1.77952883639E+02	-3.62605782398E+01	-1.22037437004E+01	-5.99246953231E+00	-1.67793092382E-01
3.09467297553E+05	-1.91247633413E+01	6.78270435921E+01	6.65471081639E+00	-1.78343841800E+02	-4.52756818385E+01	1.72415523211E+02	-6.04708063666E+00	-1.93931114284E-01
3.09690986110E+05	-2.75008017995E+01	-5.73945583351E+01	6.69549111636E+00	-1.77873171646E+02	-5.45712502010E+01	-8.55456499812E+01	-6.03832801816E+00	-1.07223602758E-01
3.09914836353E+05	-2.13678317744E+01	1.93111130827E+01	6.62467286160E+00	-1.77749525439E+02	-5.89214690567E+01	5.19887815382E+01	-6.03071187496E+00	-3.11272280459E-01
3.10138848399E+05	-1.70100213087E+01	1.00270068805E+02	6.62766027827E+00	-1.78616511978E+02	-3.33341161028E+01	-1.58208738116E+01	-5.97782233342E+00	-2.03979723572E-01
3.10363022365E+05	-2.67252156626E+01	-8.70922849976E+01	6.67403763423E+00	-1.77624759533E+02	-3.77339048660E+01	-6.51715698511E+01	-6.01874892360E+00	-4.78931081918E-01
3.10587358368E+05	-2.10559827319E+01	9.83274572595E+01	6.67464624739E+00	-1.78017746154E+02	-3.92295436928E+01	-6.59585541353E+01	-6.03087950935E+00	-1.61543690345E-01
3.10811856525E+05	-1.47140580973E+01	1.75186663194E+01	6.60531970733E+00	-1.78131780110E+02	-3.38744778400E+01	1.54652582733E+02	-6.04835393509E+00	-2.32782330728E-01
3.11036516954E+05	-1.57214751068E+01	6.33802006332E+01	6.62882301770E+00	-1.78154559407E+02	-3.97333869735E+01	-3.86082718436E+01	-6.03007045793E+00	-4.01317124974E-01
3.11261339771E+05	-2.18837775327E+01	3.92040882349E+01	6.61607310925E+00	-1.77589883517E+02	-4.37075778544E+01	5.23096230764E+01	-6.03579562475E+00	-1.95319213240E-02
3.11486325094E+05	-2.57067570636E+01	2.25833444688E+01	6.67494401500E+00	-1.78001333974E+02	-3.92781159682E+01	-1.09251196506E+02	-6.04354841311E+00	-2.16920519852E-01
3.11711473040E+05	-1.74274229497E+01	5.04859401311E+00	6.59424209475E+00	-1.77915258047E+02	-3.53619541017E+01	-6.45021587365E+01	-6.02802257590E+00	-7.17958540935E-01
3.11936783728E+05	-1.73455540625E+01	8.90887109178E+01	6.71237606416E+00	-1.78547564808E+02	-3.07343255248E+01	6.12483419014E+01	-6.01678336417E+00	4.43146096525E-01
3.12162257274E+05	-2.12769390890E+01	-2.51177739560E+01	6.68592291898E+00	-1.77807554898E+02	-4.56264868619E+01	-1.72735480332E+02	-6.04769666654E+00	-1.25969766270E-01
3.12387893797E+05	-2.04076376161E+01	-5.70687268707E+00	6.60092813608E+00	-1.77602053546E+02	-3.93869272040E+01	2.09419516678E+01	-6.00030420956E+00	-1.56405653417E-01
3.12613693413E+05	-2.09986816297E+01	2.06548761017E+00	6.61462999836E+00	-1.77935903917E+02	-3.85645519291E+01	1.00318295028E+01	-6.01294830660E+00	-1.52021289565E-01
3.12839656242E+05	-1.87945095515E+01	6.29922575874E+01	6.61988139031E+00	-1.78141217474E+02	-3.88016410362E+01	6.74037587494E+01	-6.03861788989E+00	3.04675661107E-02
3.13065782401E+05	-2.43327435282E+01	-5.50827605175E+00	6.69584103716E+00	-1.77733236131E+02	-4.35211288549E+01	-7.63600218907E+01	-6.04340918938E+00	-5.10006031326E-01
3.13292072007E+05	-2.22990126342E+01	1.28582600146E+02	6.65384556571E+00	-1.78109387051E+02	-4.82763701248E+01	-1.49022305160E+01	-6.04797451289E+00	-2.91746980003E-01
3.13518525180E+05	-2.09761827326E+01	-1.21330925230E+01	6.59197649715E+00	-1.77773995764E+02	-3.18364837298E+01	-9.70959521314E+00	-5.95676955355E+00	-2.41086470758E-01
3.13745142038E+05	-4.22276117205E+01	1.20755688375E+02	6.62817508120E+00	-1.78016575635E+02	-4.60287073623E+01	1.62738795908E+02	-6.03722380931E+00	-2.09133351332E-01
3.13971922698E+05	-2.18476891468E+01	4.77158780819E+01	6.63349726455E+00	-1.78058049261E+02	-3.72031542738E+01	-9.25601004288E+00	-6.02236976995E+00	-3.18699733272E-01
3.14198867279E+05	-2.21021859226E+01	1.88278946962E+01	6.62682722446E+00	-1.77689435923E+02	-4.82183694243E+01	-5.33306382200E+01	-6.03671884050E+00	-2.11608385410E-01
3.14425975900E+05	-1.72036052647E+01	-1.99148939758E+00	6.56680260974E+00	-1.77926724217E+02	-3.60920715510E+01	8.97402944938E+01	-6.05625096882E+00	2.67110904952E-01
3.14653248680E+05	-2.17677398413E+01	5.55763013182E+01	6.60960289864E+00	-1.78375040985E+02	-4.73451225846E+01	-1.34526699894E+02	-6.02898752530E+00	-1.50735490157E-01
3.14880685736E+05	-2.12293553291E+01	7.09813932851E+01	6.67211311399E+00	-1.78159623101E+02	-4.15527574265E+01	-2.99410656323E+00	-6.03119945859E+00	-1.98089036638E-02
3.15108287188E+05	-1.96025712402E+01	7.76942762843E+01	6.59703811478E+00	-1.78337197422E+02	-6.33719632317E+01	1.05436052868E+02	-6.05741656034E+00	-2.72016319939E-01
3.15336053154E+05	-1.51023311073E+01	1.21937603403E+02	6.71334612110E+00	-1.78262793372E+02	-3.63327788977E+01	-1.29321194153E+02	-6.08779710254E+00	-5.64836415754E-01
3.15563983753E+05	-2.72542297267E+01	8.23643633894E+00	6.67750874528E+00	-1.77779271949E+02	-4.13658470380E+01	-7.65505052188E+01	-6.01353175508E+00	-3.74081284437E-01
3.15792079105E+05	-1.50840398534E+01	1.06071191850E+01	6.51541136232E+00	-1.77973348977E+02	-4.58574878934E+01	1.64842080094E+02	-6.03983612272E+00	-2.08798787099E-01
3.16020339328E+05	-1.62177523789E+01	4.69662578199E+01	6.64019421676E+00	-1.78425660588E+02	-5.34760831871E+01	1.86209301915E+01	-6.02338757106E+00	-9.21385001483E-02
3.16248764542E+05	-1.31096174621E+01	-3.50539818073E+01	6.56535900359E+00	-1.77308733488E+02	-4.57272969944E+01	4.03375818710E+01	-6.03101255131E+00	-2.46595615504E-01
3.16477354866E+05	-2.02412671686E+01	2.96256095132E+01	6.66584582789E+00	-1.78154403536E+02	-4.62807782048E+01	-5.93635579647E+01	-6.01359168100E+00	-3.14981789138E-01
3.16706110419E+05	-2.58177317343E+01	-6.33287228370E+00	6.62405108519E+00	-1.77883880114E+02	-4.57663159470E+01	-9.20505821533E+01	-6.05063212350E+00	-2.97546791588E-01
3.16935031321E+05	-1.95996865919E+01	2.21960628173E+01	6.64677048033E+00	-1.78006686982E+02	-4.60696652564E+01	7.09973640378E+01	-6.05412799989E+00	-2.13609964423E-01
3.17164117691E+05	-1.81413515340E+01	-1.51675790062E+02	6.76445234565E+00	-1.77443916168E+02	-2.94501781812E+01	4.02877505550E+01	-5.95393145642E+00	1.28040315810E-02
3.17393369648E+05	-2.49576666264E+01	-5.94939090787E+00	6.59278332466E+00	-1.78078573673E+02	-3.79623923055E+01	-1.55564325104E+02	-6.08445483193E+00	-2.51051064250E-01
3.17622787313E+05	-2.77334284172E+01	2.70328565688E+01	6.65155333761E+00	-1.77990470097E+02	-4.25922225256E+01	-1.33796863260E+02	-6.03032854058E+00	-2.38379885314E-01
3.17852370806E+05	-2.10072245468E+01	8.51814444683E+01	6.68120455421E+00	-1.78704321200E+02	-3.81298584823E+01	2.36367843598E+01	-6.00182486897E+00	-3.45809127978E-01
3.18082120245E+05	-2.28470448145E+01	1.10101758069E+02	6.69028228812E+00	-1.78204428004E+02	-4.13715904911E+01	-1.75861035043E+02	-6.05554349697E+00	-1.67946401650E-01
3.18312035752E+05	-2.12695138528E+01	2.60710248320E+01	6.67535778859E+00	-1.78041867413E+02	-4.32875977267E+01	8.78517422827E+01	-6.06368616164E+00	-3.27384587368E-01
3.18542117445E+05	-2.82368514250E+01	1.32527442789E+02	6.69882861230E+00	-1.78351347297E+02	-4.35275533547E+01	-1.66947596450E+02	-6.07175755018E+00	-2.22643935746E-01
3.18772365446E+05	-1.29789767076E+01	6.11601794915E+01	6.67707651735E+00	-1.78956885292E+02	-3.87107210421E+01	3.06865948068E+01	-6.02666657613E+00	-1.36761145048E-01
3.19002779874E+05	-1.83459114507E+01	-3.80450519396E+00	6.63312664183E+00	-1.77645563104E+02	-3.78738837948E+01	1.31141023600E+01	-5.98871798206E+00	-2.40943567987E-01
3.19233360850E+05	-1.75046462003E+01	2.76991138878E+01	6.59959753586E+00	-1.78178660807E+02	-3.98287013020E+01	1.59487258784E+02	-6.07292907026E+00	-3.54575381467E-01
3.19464108494E+05	-3.41067994550E+01	2.13933331517E+01	6.67605794338E+00	-1.77905726806E+02	-6.95885789080E+01	-3.03298037764E+00	-6.05256627908E+00	-2.62398592799E-01
3.19695022927E+05	-1.37848376849E+01	-4.95447591576E+00	6.58041028690E+00	-1.78116155994E+02	-3.31005289841E+01	-2.02577396474E+01	-5.99379419279E+00	-4.39941845625E-01
3.19926104268E+05	-1.72123921400E+01	1.40603316583E+01	6.57033108669E+00	-1.78063611546E+02	-4.21917552232E+01	-8.92249339320E+01	-6.03671665230E+00	-3.55150402753E-01
3.20157352640E+05	-2.33049448804E+01	2.78577021663E+01	6.57587961851E+00	-1.78122438617E+02	-4.04551547118E+01	1.19682002400E+02	-6.04359288314E+00	-1.25615968328E-01
3.20388768162E+05	-1.67592779416E+01	8.59975931652E+01	6.64722459286E+00	-1.77992347638E+02	-3.96714548087E+01	9.89465384564E+01	-6.05561810645E+00	-1.55214067648E-01
3.20620350955E+05	-1.37634159706E+01	6.42960836220E+01	6.53223080430E+00	-1.78758908123E+02	-3.22156589677E+01	1.31720485077E+02	-6.10118516695E+00	1.33368168398E-01
3.20852101140E+05	-3.01490004896E+01	-1.28632810777E+02	6.71339074683E+00	-1.77578067679E+02	-4.29997948314E+01	-1.45771425389E+02	-6.03876652524E+00	-3.34536942419E-01
3.21084018839E+05	-1.64595170394E+01	-1.08074967794E+02	6.69119226364E+00	-1.77706457176E+02	-4.43668472500E+01	1.74393278538E+02	-6.05614299583E+00	-7.11089104854E-02
3.21316104172E+05	-1.69599858226E+01	6.30465409545E+01	6.62624458574E+00	-1.78650019583E+02	-3.79267139071E+01	-4.63088379026E+01	-6.02984478532E+00	-4.74149941083E-01
3.21548357261E+05	-8.49933445997E+00	-2.39228353911E+01	6.34772078835E+00	-1.77198140505E+02	-3.42772053555E+01	-3.88848423777E+01	-5.98978416747E+00	-4.40130764278E-01
3.21780778226E+05	-1.95238079823E+01	4.83343579383E+01	6.63038849179E+00	-1.78320999119E+02	-5.24189505415E+01	4.75871698376E+01	-6.04202904730E+00	-2.61959457373E-01
3.22013367189E+05	-2.33738071028E+01	6.02852215263E+01	6.65695904201E+00	-1.78440963403E+02	-3.49565496793E+01	-9.72501297241E+01	-6.05299285196E+00	-4.91333379531E-01
3.22246124272E+05	-2.88100244750E+01	5.16096361502E+01	6.66393797794E+00	-1.78177203347E+02	-5.09897161224E+01	-1.31921488805E+02	-6.06478302966E+00	-2.74443581051E-01
3.22479049596E+05	-1.40008252429E+01	3.38977240908E+01	6.51888812516E+00	-1.78559226440E+02	-3.59650162421E+01	-1.43565499551E+02	-6.09298187835E+00	-4.03975879014E-01
3.22712143282E+05	-1.97053515356E+01	6.44507928649E+01	6.69480029922E+00	-1.78391730091E+02	-4.73014033085E+01	-1.55999250219E+02	-6.04193636771E+00	-2.16233945492E-01
3.22945405453E+05	-1.67683209006E+01	-1.75786398730E+01	6.55520568295E+00	-1.77513858531E+02	-3.61142367168E+01	2.51254586328E+01	-6.01139966484E+00	-3.48456484091E-01
3.23178836230E+05	-1.22618354138E+01	6.75260848097E+00	6.54122309720E+00	-1.77519275424E+02	-3.95997668605E+01	-9.24081975574E+01	-6.03361656415E+00	-4.47164709591E-01
3.23412435735E+05	-1.92308460931E+01	3.86260017710E+01	6.60826292354E+00	-1.78066710614E+02	-4.18477343832E+01	-2.09941818799E+01	-6.02412767037E+00	-3.00318852683E-01
3.23646204090E+05	-2.22714174753E+01	1.78642902813E+01	6.66193803820E+00	-1.78130261538E+02	-4.40890062835E+01	1.03950696528E+02	-6.04427361469E+00	-7.40048070319E-04
3.23880141417E+05	-1.39923475640E+01	6.24878386173E+01	6.66983828188E+00	-1.78535831106E+02	-4.09371453116E+01	6.45015091875E+01	-6.00957883650E+00	-1.85853408054E-01
3.24114247838E+05	-2.22948249948E+01	1.78842514284E+02	6.75427721135E+00	-1.77980451868E+02	-3.67171945250E+01	1.97707706671E+01	-6.00173167861E+00	-9.07365105503E-02
3.24348523475E+05	-2.45898857913E+01	-2.35798633589E+00	6.59700468041E+00	-1.77940971149E+02	-3.78653439053E+01	-6.74022097217E+01	-6.05276713963E+00	-4.40523241319E-01
3.24582968451E+05	-1.86211818026E+01	6.83352064858E+01	6.63944378855E+00	-1.78366895319E+02	-4.55421192200E+01	-7.68166114834E+01	-6.05261701419E+00	-2.50215943128E-01
3.24817582888E+05	-3.86029621329E+01	-1.04654980820E+02	6.72329696247E+00	-1.78149419445E+02	-4.17139976116E+01	-1.28840611942E+02	-6.04678915690E+00	-2.81314362914E-01
3.25052366909E+05	-3.83367616315E+01	-1.63857459973E+02	6.67992678739E+00	-1.77925703359E+02	-3.02790488477E+01	1.68441697955E+02	-6.15093840109E+00	1.52897880173E-01
3.25287320635E+05	-1.77571968469E+01	-2.26575644712E+01	6.57342801653E+00	-1.78089064976E+02	-4.22754021392E+01	-1.30767549144E+02	-6.05684180583E+00	-3.85893203908E-01
3.25522444191E+05	-1.95481455385E+01	-5.35128666016E-01	6.60885827308E+00	-1.77932515654E+02	-3.70149481039E+01	7.42492352458E+01	-6.01620122977E+00	4.28686375456E-02
3.25757737698E+05	-2.31689170548E+01	-5.35977012909E+01	6.63661705485E+00	-1.77878726732E+02	-4.98680578621E+01	-9.36373542682E+01	-6.04630001630E+00	-1.16390958603E-01
3.25993201280E+05	-1.57343695291E+01	1.52394679276E+02	6.72017214868E+00	-1.78484901603E+02	-3.70501261097E+01	-8.18242599971E+01	-6.03927664395E+00	-5.58275913554E-01
3.26228835058E+05	-1.78279333728E+01	1.35233814256E+01	6.58918760211E+00	-1.78165852985E+02	-4.36612674205E+01	5.83602712206E+01	-6.05239244920E+00	-7.33681154769E-02
