# Hz S DB R 50
! CMT, M5065, 19127446, 24.2.4/2
! Date: 11/1/2024 3:07:04 PM
! Data: Format (Calibration Info)
! Freq	S11:dB/Ang(F2)	S21:dB/Ang(F2)	S12:dB/Ang(F2)	S22:dB/Ang(F2)
3.00000000000E+05	-1.38580572587E+01	3.20604876963E+00	5.12438379349E+00	-1.77677978510E+02	-4.57339973089E+01	3.87440094130E+01	-6.02446330411E+00	-2.03056820089E-01
3.00216845423E+05	-2.01893321956E+01	6.39702640060E+01	5.19591025279E+00	-1.77723251680E+02	-3.87365558061E+01	-1.78034214905E+01	-6.02428881168E+00	-1.85264191157E-02
3.00433847586E+05	-2.47783133725E+01	-7.52310803750E+01	5.21059061256E+00	-1.77778561870E+02	-4.28427023356E+01	-3.31978866527E+01	-6.04009307236E+00	-3.09313645451E-01
3.00651006602E+05	-2.07594318276E+01	-3.44110053329E+01	5.19156005947E+00	-1.77385880868E+02	-4.85025011962E+01	8.66384292867E+01	-6.04973899023E+00	-2.70021994503E-01
3.00868322584E+05	-1.70575787723E+01	6.83984352347E+01	5.17137571256E+00	-1.78174109510E+02	-2.95444908913E+01	5.47611326075E+01	-5.97584317712E+00	4.85151332301E-01
3.01085795647E+05	-1.59257634812E+01	2.27107986236E+01	5.19300074406E+00	-1.77909750286E+02	-4.10415865896E+01	1.29493073405E+02	-6.05614841085E+00	-1.21541034145E-01
3.01303425902E+05	-1.71639872734E+01	7.21068928593E+00	5.15858579693E+00	-1.77764555389E+02	-4.16174474717E+01	-1.42208263278E+02	-6.05879860094E+00	-2.25195898809E-01
3.01521213465E+05	-1.58611663045E+01	-1.39742322734E+01	5.12452280005E+00	-1.77488418520E+02	-5.09115747805E+01	-8.44751677098E+01	-6.04693233313E+00	-9.41916855844E-02
3.01739158449E+05	-2.44383079271E+01	1.23305147163E+02	5.30994027005E+00	-1.77869708706E+02	-3.01846058846E+01	1.53862980275E+02	-6.14177071690E+00	-1.16228560187E-01
3.01957260967E+05	-2.16117960217E+01	9.51111979045E+01	5.23647298710E+00	-1.78032855511E+02	-4.02343976268E+01	-2.28628567700E+01	-6.01045075229E+00	-1.20624017012E-01
3.02175521134E+05	-1.52271311738E+01	1.54497687890E+01	5.15212767216E+00	-1.77735614285E+02	-5.46810348004E+01	4.52177551507E+01	-6.02400232806E+00	-3.68396160684E-01
3.02393939063E+05	-2.07483984837E+01	-3.10486802099E+01	5.21282270661E+00	-1.77363632193E+02	-4.25373695113E+01	7.08770321546E+01	-6.03464657682E+00	-2.50051834682E-01
3.02612514869E+05	-2.30886463534E+01	1.22850568978E+02	5.27659239336E+00	-1.78196085861E+02	-4.34594105941E+01	1.47214677389E+02	-6.04711019100E+00	-2.52990702630E-01
3.02831248665E+05	-2.11531260465E+01	4.56683175167E+01	5.25025843758E+00	-1.77804248143E+02	-4.47320342197E+01	8.12947513938E+01	-6.05338865347E+00	-3.83626359256E-01
3.03050140565E+05	-1.63854574946E+01	5.51751630744E+01	5.23421245355E+00	-1.78336635466E+02	-4.64127715397E+01	-9.26381945299E+01	-6.03379730784E+00	-3.10044939110E-01
3.03269190685E+05	-2.11378154429E+01	3.97471394900E+01	5.22222668934E+00	-1.78027858711E+02	-4.24276310513E+01	-1.30930827163E+02	-6.05560996822E+00	-4.60105395439E-01
3.03488399138E+05	-2.34096262456E+01	-3.86105110834E+01	5.22109297137E+00	-1.77493059940E+02	-5.25928311816E+01	-1.13050386342E+01	-6.03532158770E+00	-2.98904445501E-01
3.03707766039E+05	-2.07320478721E+01	-1.78384493176E+01	5.21284975215E+00	-1.77293417215E+02	-4.15442887631E+01	-3.31973708207E+01	-5.99438550679E+00	-1.78088063592E-01
3.03927291503E+05	-1.90613560755E+01	8.24126729156E+01	5.31666664549E+00	-1.78014024252E+02	-4.51139599597E+01	1.18728224759E+02	-6.07103594230E+00	-8.29808932959E-02
3.04146975643E+05	-2.13151641998E+01	8.30771885683E+01	5.21512705275E+00	-1.78277053669E+02	-3.80884417415E+01	1.62260780048E+02	-6.07375572010E+00	-1.92217424714E-01
3.04366818575E+05	-1.86100581033E+01	2.57876023658E+01	5.17042428213E+00	-1.77644147951E+02	-3.60204402136E+01	-1.67748229977E+02	-6.07975820855E+00	-8.94167676365E-02
3.04586820414E+05	-2.75103515028E+01	2.64980966079E+01	5.18666711283E+00	-1.77853185790E+02	-4.40100206155E+01	1.75524268757E+02	-6.04244562734E+00	-7.02932003889E-02
3.04806981274E+05	-1.97529433326E+01	2.38971674208E+00	5.24383205256E+00	-1.77873061783E+02	-4.03492163666E+01	-1.03998900681E+02	-6.02756446462E+00	-2.62693544575E-01
3.05027301270E+05	-1.70541174749E+01	-7.86888740854E+01	5.27355617266E+00	-1.77004854638E+02	-3.29918494396E+01	7.86393188089E+01	-6.03995725273E+00	2.19634503696E-01
3.05247780517E+05	-1.95114702476E+01	3.58333644673E+01	5.18043487372E+00	-1.78099784419E+02	-4.64713984682E+01	1.29553663785E+02	-6.05017341169E+00	-1.26422280615E-01
3.05468419131E+05	-2.02014661478E+01	4.98449839047E+01	5.24762041168E+00	-1.78381617435E+02	-4.05987963290E+01	-8.78811804002E+01	-6.04418988091E+00	-4.80820426411E-01
3.05689217226E+05	-3.79441549083E+01	5.71146183118E+01	5.25513475329E+00	-1.77603790339E+02	-4.67224055223E+01	7.77599589400E+01	-6.05116925572E+00	-1.61555246566E-01
3.05910174918E+05	-1.50539538895E+01	4.11147936284E+01	5.20450997104E+00	-1.78219451973E+02	-3.16857505146E+01	-6.79698906221E+01	-6.00545994905E+00	-4.40001994591E-01
3.06131292322E+05	-2.98134946937E+01	-5.40514784213E+01	5.19671938013E+00	-1.77696596511E+02	-4.09276355612E+01	5.35961075336E+01	-6.02402493603E+00	2.14670940057E-01
3.06352569554E+05	-1.50553784782E+01	4.76968274838E+01	5.14838220121E+00	-1.78268578247E+02	-3.71111241054E+01	1.13842136305E+02	-6.03739594967E+00	-9.04522368670E-02
3.06574006730E+05	-3.05499432793E+01	-3.72214004355E+01	5.23886134524E+00	-1.77811198625E+02	-5.38319601375E+01	1.24834855168E+02	-6.04937055457E+00	-1.48422280335E-01
3.06795603964E+05	-9.45915781928E+00	-4.04006611737E+01	5.06881222952E+00	-1.76689799277E+02	-2.98721644997E+01	-1.50695899236E+01	-5.99374240013E+00	-1.52540349084E-01
3.07017361372E+05	-2.51595692243E+01	1.72967796642E+01	5.24093263813E+00	-1.77822611778E+02	-4.60850667566E+01	-5.64529148402E+00	-6.01788684707E+00	-3.48021917498E-01
3.07239279071E+05	-1.85137200854E+01	-7.95984082278E+01	5.27907930903E+00	-1.77323405956E+02	-4.33318783445E+01	-1.63530415542E+02	-6.05612682231E+00	-2.64642586891E-01
3.07461357176E+05	-2.16468653876E+01	1.07693422270E+02	5.27727390434E+00	-1.78096879195E+02	-3.79023215456E+01	-8.36598286483E+01	-6.03336143350E+00	-4.78067072863E-01
3.07683595803E+05	-1.46966968109E+01	6.00065060002E+01	5.22954683210E+00	-1.78692094732E+02	-3.03078574451E+01	5.84359881285E+00	-5.96039208720E+00	-2.33360642994E-01
3.07905995068E+05	-2.42953429254E+01	2.62775475872E+01	5.21866531053E+00	-1.77697625497E+02	-4.19932278077E+01	-1.79954377610E+02	-6.03707460214E+00	-2.17876107081E-01
3.08128555087E+05	-2.11714019471E+01	-1.92692086111E+00	5.16063446117E+00	-1.78197832301E+02	-3.85266345371E+01	-1.15216650233E+01	-6.01794034708E+00	-1.83067863684E-01
3.08351275976E+05	-2.54617013669E+01	2.32801643063E+00	5.23936518046E+00	-1.77624247606E+02	-4.47768497943E+01	-2.67598959024E+00	-6.01871854276E+00	-2.38809774763E-01
3.08574157853E+05	-1.90006368048E+01	7.31808599144E+01	5.23285931592E+00	-1.78000747765E+02	-3.17051784333E+01	1.13959637679E+02	-6.05321124287E+00	2.31420433828E-01
3.08797200832E+05	-2.79813774445E+01	9.77302088516E+01	5.27235852037E+00	-1.77885926906E+02	-4.57667198301E+01	-1.68910352102E+02	-6.04180698763E+00	-2.36049381423E-01
3.09020405031E+05	-1.82074206641E+01	4.60257967025E+01	5.20537405774E+00	-1.77849846969E+02	-4.20630656245E+01	-1.65664133699E+02	-6.03778398768E+00	-3.50182375790E-01
3.09243770566E+05	-2.26134260450E+01	-5.13575012375E+01	5.16656767187E+00	-1.77630434119E+02	-4.23938110308E+01	3.59578907367E+01	-6.05429703604E+00	-2.01494440953E-01
3.09467297553E+05	-2.04784092084E+01	4.99924595955E+01	5.25983098328E+00	-1.78322427214E+02	-3.89878358498E+01	-8.18507872478E+00	-6.01447342870E+00	-1.89890599880E-01
3.09690986110E+05	-2.01216885856E+01	7.73325705655E+00	5.19468093294E+00	-1.77953204665E+02	-4.46210815041E+01	5.65008293095E+01	-6.01286635516E+00	-2.50415802102E-01
3.09914836353E+05	-1.62205207876E+01	4.58556503735E+01	5.20858991343E+00	-1.78351830521E+02	-4.29651531958E+01	-8.74816225489E+00	-6.01643118544E+00	-2.53610258199E-01
3.10138848399E+05	-9.51065976395E+00	4.40563588119E+01	5.08165652312E+00	-1.79016335930E+02	-3.30587100293E+01	1.21598757184E+02	-6.09058003031E+00	9.99762078583E-02
3.10363022365E+05	-1.71964915715E+01	1.71692563224E+01	5.11194870519E+00	-1.78074084375E+02	-4.09277045330E+01	-1.62273821314E+02	-6.06597685947E+00	-3.11369164449E-01
3.10587358368E+05	-1.99858197719E+01	-7.81030289354E+00	5.19751973044E+00	-1.77408213575E+02	-4.10020643900E+01	1.13635011049E+01	-6.02269230883E+00	-1.72475984987E-01
3.10811856525E+05	-1.86534380164E+01	1.27607261127E+01	5.19812299446E+00	-1.77975667464E+02	-4.13311632751E+01	9.82999010720E+01	-6.04862925902E+00	-2.52252765333E-01
3.11036516954E+05	-1.46154398468E+01	7.62221431591E+01	5.24392366321E+00	-1.78619888341E+02	-3.70708953882E+01	-7.84651831316E+01	-6.04600822722E+00	-4.86228791885E-01
3.11261339771E+05	-1.57292904291E+01	6.50631071115E+01	5.20646716122E+00	-1.78279608661E+02	-4.38322095140E+01	4.31165713681E+01	-6.03909846275E+00	-3.92887351336E-01
3.11486325094E+05	-1.70375227263E+01	7.23324413068E+00	5.15054632989E+00	-1.77709964896E+02	-4.60905367667E+01	-1.65334100648E+02	-6.05942896494E+00	-2.81085531355E-01
3.11711473040E+05	-1.53481481189E+01	4.74714364301E+01	5.14797294642E+00	-1.77985483438E+02	-4.44904572605E+01	3.84710398536E+01	-6.02520695310E+00	-5.85090468853E-02
3.11936783728E+05	-2.90998133448E+01	9.98974395810E+01	5.27125596936E+00	-1.77723127627E+02	-3.23113658752E+01	-5.06475638886E+00	-5.99184096124E+00	-2.27479136145E-01
3.12162257274E+05	-1.57792126702E+01	7.94949178204E+00	5.16905426298E+00	-1.78208622341E+02	-5.18274410024E+01	-2.11039910187E+01	-6.01644614488E+00	-1.98765316563E-01
3.12387893797E+05	-2.04911230445E+01	4.47003798469E+01	5.22477620351E+00	-1.78259343564E+02	-4.86417614161E+01	1.03755892567E+02	-6.03100587637E+00	-3.27844519136E-01
3.12613693413E+05	-1.38607239587E+01	1.88546291321E-02	5.09157458397E+00	-1.77859988445E+02	-4.19373645591E+01	-7.97805853297E+01	-6.02771283736E+00	-2.84268011451E-01
3.12839656242E+05	-2.30208036471E+01	8.70575945563E+01	5.21984377382E+00	-1.77869905481E+02	-3.62801896125E+01	4.24506854873E+01	-5.98246401768E+00	-3.63324664340E-03
3.13065782401E+05	-2.60865383085E+01	4.73254383163E+01	5.22617914080E+00	-1.78138676970E+02	-5.09020929428E+01	-1.00984804105E+02	-6.02908529771E+00	-1.67691784089E-01
3.13292072007E+05	-2.19956116292E+01	6.38855100031E+01	5.23911139144E+00	-1.78115575894E+02	-4.83138636498E+01	6.20035661067E+01	-6.03905911078E+00	-8.93213017082E-02
3.13518525180E+05	-2.61124259692E+01	-5.47186529460E+01	5.24042406025E+00	-1.77745827500E+02	-4.94024472142E+01	1.61523641322E+02	-6.03660126387E+00	-3.55035610975E-01
3.13745142038E+05	-2.23362448781E+01	6.82400766040E+01	5.26834066925E+00	-1.77995648271E+02	-3.17111758806E+01	-1.13901615278E+02	-6.07708138056E+00	-5.97780947944E-01
3.13971922698E+05	-1.87737645623E+01	5.24158445762E+01	5.25125968791E+00	-1.78277231242E+02	-4.12401198003E+01	-8.17112717328E+01	-6.01764428989E+00	-2.23182056232E-01
3.14198867279E+05	-2.27218568504E+01	1.17153495834E+02	5.25968856922E+00	-1.78146368746E+02	-4.57300577249E+01	2.70587321338E+01	-6.01997194979E+00	-7.88462333480E-02
3.14425975900E+05	-2.52386078663E+01	3.81729669880E+01	5.25692880163E+00	-1.78040580283E+02	-3.94909000125E+01	7.64021321741E+01	-6.04218143445E+00	3.26740676265E-02
3.14653248680E+05	-2.28324821921E+01	6.87561008305E+00	5.21508293797E+00	-1.77772436373E+02	-4.02768180372E+01	-9.43516532544E+01	-6.02850674822E+00	-5.12131694758E-01
3.14880685736E+05	-3.11849516398E+01	7.17082635420E+00	5.21663436212E+00	-1.77605063137E+02	-4.17942503239E+01	-1.33346062706E+02	-6.07016455419E+00	-3.43659113925E-01
3.15108287188E+05	-3.15388536842E+01	8.73673889489E+01	5.20303036008E+00	-1.78278772673E+02	-4.25944361564E+01	4.00144565395E+01	-6.04916728345E+00	-3.53952877255E-01
3.15336053154E+05	-2.35462274417E+01	9.53266365625E+01	5.24731225005E+00	-1.78026794777E+02	-3.26734858396E+01	-9.43162876042E+01	-6.04336425713E+00	-9.03843757931E-01
3.15563983753E+05	-2.65038937818E+01	-3.45402363574E+01	5.20919316418E+00	-1.77427091466E+02	-4.41243180905E+01	1.43543261689E+02	-6.05020850379E+00	-2.56006470648E-01
3.15792079105E+05	-2.11072183529E+01	6.52631004079E+01	5.26002888686E+00	-1.77857410021E+02	-4.35904177030E+01	1.02241982070E+02	-6.06897679954E+00	-1.49656466239E-02
3.16020339328E+05	-2.05745489936E+01	-7.79545173904E+00	5.19012588568E+00	-1.77325232001E+02	-4.88364490340E+01	-1.53029923072E+02	-6.03684648470E+00	-8.33442212348E-02
3.16248764542E+05	-1.51604528216E+01	-8.40896297170E+01	5.21950942898E+00	-1.77016728464E+02	-3.38386105448E+01	1.73457538079E+02	-6.10073574219E+00	-2.70069272578E-01
3.16477354866E+05	-1.92783168233E+01	-1.24379113253E+00	5.21499419549E+00	-1.77975227732E+02	-4.53676529867E+01	1.40193062036E+02	-6.08017444413E+00	-3.40967954727E-02
3.16706110419E+05	-3.00418150425E+01	5.52172809865E+01	5.25194702695E+00	-1.77675657021E+02	-3.77426532823E+01	-7.86374227160E+01	-6.03469899851E+00	-5.86183088568E-01
3.16935031321E+05	-2.05454908984E+01	5.99888916343E+01	5.22025402736E+00	-1.78179395384E+02	-4.74395729492E+01	-3.90070557177E+01	-6.06150509169E+00	-1.79607257764E-01
3.17164117691E+05	-1.34321240984E+01	-1.01860351176E+01	5.07691620823E+00	-1.77337741231E+02	-3.97168414280E+01	-2.12560960433E+01	-6.01315937481E+00	-2.56076569188E-01
3.17393369648E+05	-1.93606501423E+01	1.61183951986E+00	5.22631978258E+00	-1.77660453664E+02	-4.31069255967E+01	-1.31802430701E+02	-6.07518347612E+00	-3.00695161305E-01
3.17622787313E+05	-2.71256191743E+01	-5.82987163829E+00	5.19803274435E+00	-1.77547297314E+02	-4.44864825541E+01	9.06454164319E+01	-6.05218110657E+00	-2.13886746690E-01
3.17852370806E+05	-2.03970937478E+01	-1.76275632558E+02	5.30096935143E+00	-1.77846256905E+02	-4.12698970116E+01	-4.48485925528E+01	-6.00437458202E+00	-4.12483522046E-01
3.18082120245E+05	-2.18749177097E+01	4.93191827764E+01	5.18697886653E+00	-1.78471340775E+02	-3.74683877692E+01	-3.36302747185E+01	-5.98347594235E+00	-4.47396336924E-01
3.18312035752E+05	-1.97058445541E+01	3.46080829819E+01	5.20414075231E+00	-1.78069956391E+02	-4.55646077745E+01	-3.39121303904E+01	-6.00479966241E+00	-2.10458719680E-01
3.18542117445E+05	-2.22503642945E+01	5.98994591141E+01	5.24124192933E+00	-1.78210422050E+02	-4.40442096680E+01	1.20007766697E+02	-6.03299927937E+00	-2.27358110014E-02
3.18772365446E+05	-2.27196903768E+01	-9.48070468656E+00	5.19135056161E+00	-1.77844666149E+02	-4.12739323223E+01	6.55640436502E+00	-6.03407325071E+00	-3.12460641335E-01
3.19002779874E+05	-1.81135905296E+01	8.67947151047E+00	5.20123073884E+00	-1.77750433050E+02	-3.70738772460E+01	-2.39815729172E+01	-5.99704213699E+00	-4.05633078962E-01
3.19233360850E+05	-3.27554199888E+01	-5.91652925731E+01	5.23230109662E+00	-1.77694411800E+02	-4.80038373454E+01	-6.22781008472E+00	-6.01845020729E+00	-2.08272895930E-01
3.19464108494E+05	-3.54933096432E+01	1.12496250391E+02	5.29147283476E+00	-1.78098543354E+02	-4.10457516055E+01	-1.67901539913E+02	-6.08032328692E+00	-1.08726042740E-01
3.19695022927E+05	-1.33377693611E+01	-9.52224031014E+01	5.32936592282E+00	-1.76689860632E+02	-5.62547088572E+01	1.78305157771E+02	-6.06170905329E+00	-8.69919413054E-02
3.19926104268E+05	-1.75833691458E+01	-4.52422914593E+01	5.13447542324E+00	-1.77821939201E+02	-5.00649365809E+01	5.84830572720E+01	-6.01965396362E+00	-1.05911827069E-01
3.20157352640E+05	-2.05992802700E+01	3.18332411967E+01	5.14407669154E+00	-1.78419145313E+02	-5.58470120250E+01	1.40527645414E+01	-6.01950579549E+00	-2.88181537800E-01
3.20388768162E+05	-2.00004826634E+01	-3.99005721008E+00	5.17181490528E+00	-1.77689133663E+02	-3.51488359453E+01	-9.43298370175E+01	-6.05068159650E+00	-4.56116908308E-01
3.20620350955E+05	-1.14535094245E+01	-1.41128017598E+01	5.03957326169E+00	-1.77432962612E+02	-5.02945075793E+01	-6.34383890743E+00	-6.06958905253E+00	-1.22075847129E-01
3.20852101140E+05	-2.01623923222E+01	2.72152762714E+01	5.18992211586E+00	-1.77812042063E+02	-3.73137278835E+01	-1.02581884393E+02	-6.06432583243E+00	-2.86269924887E-01
3.21084018839E+05	-1.81126381790E+01	2.58387275890E+01	5.23620751064E+00	-1.78395188672E+02	-4.20434333079E+01	-1.59732394410E+02	-6.03011469378E+00	1.54354299644E-03
3.21316104172E+05	-1.48764436032E+01	4.07678348576E-01	5.15027505724E+00	-1.78218549736E+02	-4.53928694774E+01	1.80563439565E+01	-6.00572011721E+00	-1.63732863284E-01
3.21548357261E+05	-1.70707941163E+01	1.70412206765E+02	5.36130031312E+00	-1.78143122017E+02	-3.91624321591E+01	6.47315421302E+01	-6.01943253956E+00	2.67811213183E-02
3.21780778226E+05	-1.93292029645E+01	3.74435951992E+01	5.24034830965E+00	-1.77446287126E+02	-3.64338346784E+01	3.89058291410E+01	-6.01086922894E+00	1.83856692306E-02
3.22013367189E+05	-2.06157883208E+01	9.05113770998E+01	5.21881142432E+00	-1.78384966439E+02	-3.98473344390E+01	1.40873986195E+02	-6.06235764736E+00	-6.41889058331E-02
3.22246124272E+05	-2.26145559477E+01	-7.58064649115E+00	5.21843801040E+00	-1.78240827342E+02	-4.41990282606E+01	-4.02889006909E+01	-6.00613310676E+00	-2.91039821070E-01
3.22479049596E+05	-1.56021315398E+01	-8.92253181406E+00	5.15810435859E+00	-1.77826302575E+02	-4.03120863674E+01	-1.64413713496E+02	-6.05674594975E+00	-4.40362275966E-02
3.22712143282E+05	-2.60132005746E+01	6.28617834189E+00	5.23851658562E+00	-1.77858921164E+02	-5.35172836812E+01	-9.66061805005E+01	-6.02821510957E+00	-2.77654113873E-01
3.22945405453E+05	-1.73322347043E+01	1.50008910565E+01	5.18900459129E+00	-1.78267058578E+02	-3.91337343929E+01	9.96814182106E+01	-6.05962903223E+00	-2.56082398504E-01
3.23178836230E+05	-3.15156129114E+01	9.88408120923E+01	5.27021547473E+00	-1.77812320667E+02	-3.84256691207E+01	6.08325366687E+01	-6.02708056097E+00	-1.41458080017E-01
3.23412435735E+05	-2.45467360636E+01	-7.75885782374E+01	5.27767282396E+00	-1.77976127515E+02	-4.75669898276E+01	-7.47643972211E+01	-6.04176304062E+00	-2.36022463669E-01
3.23646204090E+05	-1.85316900382E+01	3.54853455263E+01	5.14776659253E+00	-1.78157673557E+02	-4.01389832644E+01	-1.42934573227E+02	-6.04892706553E+00	-2.39290300198E-01
3.23880141417E+05	-2.46414348231E+01	7.00292959735E+01	5.27710797940E+00	-1.78176485646E+02	-4.01475647214E+01	-6.71711590455E+01	-6.04422457613E+00	-3.59592568447E-01
3.24114247838E+05	-1.70033968235E+01	-2.33566923860E+00	5.10764932577E+00	-1.77985076370E+02	-4.85780291628E+01	1.16791311437E+02	-6.05081008521E+00	-3.51590846104E-01
3.24348523475E+05	-2.01076262374E+01	1.13668010421E+02	5.27268237176E+00	-1.78395146768E+02	-3.48563269016E+01	1.62979990244E+02	-6.07598496331E+00	-7.18592888917E-02
3.24582968451E+05	-2.13566265730E+01	1.02845216135E+01	5.14068505060E+00	-1.78076846077E+02	-4.97057000829E+01	1.53406723448E+02	-6.03269816738E+00	-3.06575502394E-01
3.24817582888E+05	-1.63903631188E+01	9.26498090134E+00	5.13540360357E+00	-1.78181193631E+02	-4.90349694575E+01	9.43886200114E+01	-6.04445641374E+00	-3.12112970797E-01
3.25052366909E+05	-1.23994468338E+01	1.59989967307E+01	5.09990145821E+00	-1.78310799971E+02	-4.68012820723E+01	-1.75646699012E+02	-6.05152067124E+00	-2.02437923406E-01
3.25287320635E+05	-2.28360663149E+01	1.86981477896E+01	5.16468868250E+00	-1.78282083677E+02	-4.56552051628E+01	1.06337653597E+02	-6.05522990818E+00	-1.32444677990E-01
3.25522444191E+05	-1.84597204689E+01	-4.31521441776E+01	5.16059275712E+00	-1.77882099039E+02	-3.81124924597E+01	-5.74319017599E+00	-6.00551567080E+00	-1.38467436639E-01
3.25757737698E+05	-1.87254343388E+01	3.10293475153E+01	5.18416537433E+00	-1.78406785057E+02	-4.34124533144E+01	-1.03538931857E+02	-6.04617645347E+00	-4.05071829665E-01
3.25993201280E+05	-3.68414372434E+01	-1.17879430499E+02	5.20622084100E+00	-1.77836659424E+02	-3.87315523894E+01	-1.48682933558E+02	-6.06522387641E+00	-2.62721648526E-01
3.26228835058E+05	-1.63934360891E+01	-7.60884427361E+00	5.20589318214E+00	-1.77935020623E+02	-3.84812623572E+01	-1.62629226992E+02	-6.07460896263E+00	-3.82784823611E-01
