# Hz S DB R 50
! CMT, M5065, 19127446, 24.2.4/2
! Date: 11/1/2024 3:34:50 PM
! Data: Format (Calibration Info)
! Freq	S11:dB/Ang(F2)	S21:dB/Ang(F2)	S12:dB/Ang(F2)	S22:dB/Ang(F2)
3.00000000000E+05	-1.09970985269E+01	-1.51035102006E+01	1.19105147740E+01	-1.77147804111E+02	-3.20330176198E+01	6.44802170919E+01	-5.97412498267E+00	7.03385908775E-01
3.00216845423E+05	-1.69606089124E+01	-8.07805283149E+01	1.20894052727E+01	-1.76785814261E+02	-4.36679423776E+01	-5.34948097368E+01	-6.00829670993E+00	-3.66198316172E-01
3.00433847586E+05	-1.74298869152E+01	1.37223671935E+01	1.19821847286E+01	-1.77562137746E+02	-3.83284349497E+01	4.63866249308E+01	-5.96378980360E+00	1.52087491808E-01
3.00651006602E+05	-2.66111754032E+01	-7.73353832443E+01	1.20512346299E+01	-1.77322305279E+02	-3.94688335726E+01	-1.48131228769E+01	-6.00686672488E+00	-2.38921466188E-01
3.00868322584E+05	-2.04630578162E+01	-1.34845558418E+02	1.20945699292E+01	-1.77309929227E+02	-3.60662521940E+01	1.37775949822E+02	-6.08423301938E+00	7.76434081409E-02
3.01085795647E+05	-2.40864773825E+01	5.97927647366E+01	1.20982458994E+01	-1.77520877697E+02	-3.57417129407E+01	4.44332616051E+01	-5.97705119809E+00	2.64438809588E-01
3.01303425902E+05	-2.93374650873E+01	4.51097365304E+00	1.20663304581E+01	-1.77710293791E+02	-3.49353529052E+01	-1.55482245667E+02	-6.13552482206E+00	-3.99914157833E-01
3.01521213465E+05	-1.80903949316E+01	8.31422814509E+01	1.21044827115E+01	-1.78422502292E+02	-3.00769726121E+01	-1.51413174491E+02	-6.20684526964E+00	-3.41835938662E-01
3.01739158449E+05	-1.14597888968E+01	1.14213071758E+01	1.19299648139E+01	-1.77729184826E+02	-4.18854268240E+01	1.41942414722E+02	-6.05741202063E+00	-2.70445470787E-01
3.01957260967E+05	-2.04241906051E+01	-5.75040017217E+00	1.20210834420E+01	-1.77598407022E+02	-5.09282980349E+01	-4.30772761697E+01	-6.05757477095E+00	-3.70883738379E-01
3.02175521134E+05	-1.79979434119E+01	6.23079642115E+00	1.19751966436E+01	-1.77825678572E+02	-3.96429662781E+01	1.36231581531E+02	-6.07231363478E+00	-5.57778704165E-02
3.02393939063E+05	-2.52703091523E+01	-2.35642049768E+01	1.20401241125E+01	-1.77312536837E+02	-4.46525925364E+01	-1.68216122037E+02	-6.04581538751E+00	-2.61635069137E-01
3.02612514869E+05	-1.75283028666E+01	9.70912024485E+01	1.21084261542E+01	-1.78120859075E+02	-3.96772547295E+01	-1.55384552225E+02	-6.08444258659E+00	-2.23986697539E-01
3.02831248665E+05	-2.11276042099E+01	5.53005940812E+01	1.20649399114E+01	-1.77583286073E+02	-3.65765507073E+01	1.78234574886E+02	-6.08823084012E+00	-3.39390696174E-01
3.03050140565E+05	-1.04017494638E+01	-1.62970801678E+02	1.22704472461E+01	-1.77252639901E+02	-2.93579224028E+01	7.17475132114E+01	-5.96674365528E+00	8.11032852628E-01
3.03269190685E+05	-1.48869005825E+01	-6.37526911641E+01	1.20528964196E+01	-1.77143278553E+02	-4.07683073399E+01	-1.27464373919E+02	-6.11833758169E+00	-4.49319900163E-01
3.03488399138E+05	-2.63829020917E+01	1.64930246908E+02	1.20750666234E+01	-1.77503732349E+02	-3.76814408309E+01	1.28495735462E+02	-6.12463895972E+00	1.19808903558E-01
3.03707766039E+05	-1.85097828055E+01	-6.06395419158E+00	1.20479095821E+01	-1.77328111538E+02	-3.31398103489E+01	-1.77265142143E+02	-6.17801854159E+00	-3.05137801665E-01
3.03927291503E+05	-4.29283109053E+01	1.49511717096E+02	1.20273063906E+01	-1.77509680118E+02	-3.23409546737E+01	1.67000774671E+02	-6.16341222719E+00	1.51316581727E-01
3.04146975643E+05	-2.75333028294E+01	-3.94894359135E+01	1.20755957680E+01	-1.77287734241E+02	-3.65445181113E+01	-7.29160791088E+01	-6.02762344689E+00	-4.63868147064E-01
3.04366818575E+05	-1.87679864559E+01	-4.93840831996E+01	1.20719429098E+01	-1.76940017937E+02	-3.26044402414E+01	-5.39141023738E+00	-5.95889053987E+00	-5.10503329933E-02
3.04586820414E+05	-1.55536058450E+01	1.33554576821E+02	1.21634040556E+01	-1.78342493346E+02	-3.73781465196E+01	1.26375346666E+02	-6.04811019251E+00	-6.47345780236E-02
3.04806981274E+05	-1.31420323263E+01	1.31972793288E+01	1.19556051247E+01	-1.77370544399E+02	-3.88231275001E+01	-1.78527617840E+01	-5.98435962820E+00	-1.37104913515E-01
3.05027301270E+05	-2.32814820155E+01	7.08315200112E+01	1.20361402430E+01	-1.77486188962E+02	-3.69329456493E+01	6.68573439900E+01	-6.03234644123E+00	-2.64617836831E-02
3.05247780517E+05	-1.90283376515E+01	5.25249774494E+01	1.20338347883E+01	-1.77825404898E+02	-4.20533268448E+01	2.44347281124E+01	-5.97331726259E+00	-6.51701874881E-02
3.05468419131E+05	-1.70953381101E+01	-3.40795968503E+01	1.19909793969E+01	-1.77228062959E+02	-3.22379255754E+01	6.92416267391E+00	-5.87483739854E+00	-8.64359430440E-02
3.05689217226E+05	-2.34250663841E+01	4.70122530654E+01	1.20431921337E+01	-1.78060896612E+02	-3.92721359417E+01	-1.34687766385E+02	-6.04551740723E+00	-5.85522881043E-01
3.05910174918E+05	-1.88045007573E+01	-8.99258017450E+00	1.20200682456E+01	-1.77317664122E+02	-3.64053071092E+01	8.89814196736E+01	-6.02287869852E+00	-7.40169342234E-02
3.06131292322E+05	-5.53665160246E+00	6.37957315672E+00	1.17162189519E+01	-1.77834796433E+02	-2.55713505341E+01	-8.51397117366E+01	-5.94757399796E+00	-2.15081394853E+00
3.06352569554E+05	-1.22665641300E+01	-1.19186208586E+02	1.21751820702E+01	-1.76533860649E+02	-4.47297147954E+01	-9.90817222754E+01	-5.99310051610E+00	-5.80750049332E-01
3.06574006730E+05	-3.23922577789E+01	1.41387515147E+02	1.20750953909E+01	-1.77768068296E+02	-3.94789297913E+01	-1.44772206679E+01	-5.99231798316E+00	-4.78886403763E-01
3.06795603964E+05	-1.59115467765E+01	-3.04469062790E+00	1.19933634638E+01	-1.77409876913E+02	-4.51605769697E+01	-1.61798565661E+01	-6.03951025693E+00	-1.06043368422E-01
3.07017361372E+05	-1.94513785429E+01	6.86504674784E+01	1.20221033688E+01	-1.78039957150E+02	-3.65830247412E+01	1.26041186065E+01	-6.01392632939E+00	1.46388640964E-01
3.07239279071E+05	-1.78455393929E+01	9.91787963916E+00	1.20115136549E+01	-1.77416247335E+02	-4.43455881007E+01	-8.15855899524E+01	-6.08319912596E+00	-5.52601918178E-01
3.07461357176E+05	-1.71092207245E+01	-1.21897950022E+01	1.20144440466E+01	-1.77312263932E+02	-3.53760497847E+01	-2.80034956745E+01	-5.96847545853E+00	-6.14122039888E-01
3.07683595803E+05	-7.67121726462E+00	-1.52852016037E+02	1.23428402076E+01	-1.77087267746E+02	-2.75651525640E+01	-1.42541588777E+02	-6.21755170932E+00	-1.37465693527E+00
3.07905995068E+05	-9.71378469212E+00	-5.41666515549E-01	1.17949187337E+01	-1.77538840593E+02	-3.93694640789E+01	2.37891036090E+01	-5.98737598119E+00	-2.73112494330E-01
3.08128555087E+05	-1.29908776834E+01	7.37574464928E+01	1.20367330761E+01	-1.78615588426E+02	-4.29683584821E+01	9.64474772671E+01	-6.03297419478E+00	-5.97140030704E-04
3.08351275976E+05	-3.39081982479E+01	-9.94923983205E+01	1.20849351065E+01	-1.77392827734E+02	-4.04332310309E+01	3.69328106468E+01	-5.98891471081E+00	-6.59831581313E-02
3.08574157853E+05	-2.35357978370E+01	-1.11266329024E+01	1.19886176194E+01	-1.77742549561E+02	-5.59973482585E+01	1.25514236001E+02	-6.02430571900E+00	-1.16976433568E-01
3.08797200832E+05	-2.27133480645E+01	-1.43599723365E+02	1.20775691216E+01	-1.77569742963E+02	-4.59646854306E+01	-1.47706133090E+02	-6.05039442749E+00	-6.23157939115E-01
3.09020405031E+05	-2.21093178852E+01	-2.38085117062E+01	1.20316342252E+01	-1.77855216889E+02	-4.42647303334E+01	1.43816121130E+02	-6.07231312053E+00	-1.49091028990E-01
3.09243770566E+05	-2.61170740267E+01	6.92747419914E+00	1.20131487451E+01	-1.77790471838E+02	-2.35628994331E+01	5.05857220110E+01	-5.79983399324E+00	1.61144379538E+00
3.09467297553E+05	-9.60536593322E+00	-1.17701910780E+01	1.19038111607E+01	-1.77184295571E+02	-3.70939337204E+01	7.66769460981E+01	-5.98056249786E+00	1.05472884095E-02
3.09690986110E+05	-2.59930259042E+01	-1.53005417640E+02	1.20665883507E+01	-1.77628445202E+02	-3.98894888518E+01	-1.58324345078E+02	-6.07546648902E+00	-4.18963381700E-01
3.09914836353E+05	-2.85912255400E+01	3.38802248030E+01	1.20107279092E+01	-1.77856445191E+02	-3.23052449046E+01	1.13584993552E+02	-6.12418769309E+00	3.81250938172E-01
3.10138848399E+05	-1.12462286780E+01	4.53524513122E+01	1.19541291057E+01	-1.78121273688E+02	-4.07623056435E+01	-3.27461280204E+01	-6.01267292002E+00	-4.25183411127E-01
3.10363022365E+05	-2.14865640002E+01	1.25469150911E+01	1.20498951987E+01	-1.77375151777E+02	-4.80361367079E+01	1.63824404027E+02	-6.08163700373E+00	-9.46669652116E-02
3.10587358368E+05	-2.34635705268E+01	-1.90606381634E+01	1.20058243432E+01	-1.77586026125E+02	-4.34950548081E+01	1.64463953155E+02	-6.12389789245E+00	-1.63188450705E-02
3.10811856525E+05	-1.11773432266E+01	1.22876317857E+02	1.21649592569E+01	-1.78768633438E+02	-3.02102355763E+01	-1.21575724404E+02	-6.12512916018E+00	-1.06931290150E+00
3.11036516954E+05	-5.43858500582E+00	-1.59752905851E+01	1.16687154105E+01	-1.77015836905E+02	-3.56023266217E+01	1.61892801494E+02	-6.12365132713E+00	-3.45800191261E-01
3.11261339771E+05	-2.20496600576E+01	3.63843732961E+01	1.20423952286E+01	-1.77810805851E+02	-3.71973168631E+01	-1.29509333104E+02	-6.05441690876E+00	-4.63576806363E-01
3.11486325094E+05	-1.81212577316E+01	-6.49560131403E+00	1.19789709688E+01	-1.77761115234E+02	-3.97387018308E+01	-7.72651702157E+01	-6.02622193198E+00	-4.58782898408E-01
3.11711473040E+05	-1.84547814317E+01	9.06720231671E+01	1.20791272805E+01	-1.78251720226E+02	-4.98622436434E+01	-5.64277863362E+00	-6.03626244024E+00	-3.57898789137E-01
3.11936783728E+05	-1.65582438647E+01	1.15759822807E+01	1.19854477825E+01	-1.77926747163E+02	-3.92544666212E+01	1.32460710788E+02	-6.10771049601E+00	-1.65371071858E-02
3.12162257274E+05	-1.76317484778E+01	2.85110481822E+01	1.20009187954E+01	-1.78002588385E+02	-5.62781825840E+01	-3.17958187290E+01	-6.03741753305E+00	-1.66259856239E-01
3.12387893797E+05	-1.33698367810E+01	-6.34961273950E+01	1.20723993207E+01	-1.76812843521E+02	-3.59312851181E+01	1.35220530965E+02	-6.14226466323E+00	4.39549674837E-01
3.12613693413E+05	-1.55198453535E+01	1.04151061728E+02	1.20490472787E+01	-1.78532532670E+02	-3.70154773040E+01	-1.03115280840E+02	-6.07229342891E+00	-6.50585565471E-01
3.12839656242E+05	-2.20668279711E+01	-2.07629182528E+01	1.20411879355E+01	-1.77452732979E+02	-4.20345816326E+01	-1.48897385293E+02	-6.03020162230E+00	-8.95706506273E-02
3.13065782401E+05	-2.10094176629E+01	1.39051858320E+02	1.20891756202E+01	-1.77873780276E+02	-4.23274160111E+01	-5.15713666333E+00	-5.99310299988E+00	-2.11597600090E-01
3.13292072007E+05	-2.83389107649E+01	-1.75340291713E+01	1.20518402952E+01	-1.77865571315E+02	-3.94209300230E+01	-1.20981464375E+02	-6.07712148020E+00	-1.21512776376E-01
3.13518525180E+05	-1.44503697749E+01	-4.66416524634E+01	1.20679614871E+01	-1.77321360684E+02	-3.78438396997E+01	-1.14926928547E+02	-6.09645669081E+00	-4.93576940251E-01
3.13745142038E+05	-2.05559763455E+01	1.01382718968E+01	1.20492650742E+01	-1.77789850554E+02	-4.55262254608E+01	-1.13830862847E+02	-6.03518386661E+00	-2.13002565972E-01
3.13971922698E+05	-9.41023627853E+00	-1.11048191916E+01	1.18264413279E+01	-1.77411953910E+02	-3.09846345120E+01	-1.60096961389E+02	-6.16722716955E+00	-5.28142716617E-01
3.14198867279E+05	-5.82895030486E+00	-8.83821792561E+01	1.21233373813E+01	-1.75464567357E+02	-3.11531975289E+01	-1.70277185354E+02	-6.18065706274E+00	-6.92023045109E-01
3.14425975900E+05	-1.98027079551E+01	1.00141844883E+01	1.20381898154E+01	-1.77723305555E+02	-4.60245841573E+01	1.86034093617E+01	-5.98052186655E+00	-9.20573974995E-02
3.14653248680E+05	-1.44233665834E+01	3.87238261482E+01	1.19806377488E+01	-1.78198700751E+02	-4.38599728873E+01	9.41140626937E+01	-6.06301763026E+00	7.36669101504E-02
3.14880685736E+05	-1.81237766376E+01	-2.34410854983E+01	1.20004273638E+01	-1.77436507120E+02	-4.58761692567E+01	5.93725520026E+01	-5.99391471981E+00	-1.04593328635E-01
3.15108287188E+05	-2.17962551129E+01	6.63309354366E+01	1.21279007251E+01	-1.77882777313E+02	-4.34453902982E+01	-1.72171214586E+02	-6.09063416841E+00	5.55105887507E-02
3.15336053154E+05	-1.70147627269E+01	2.16415250560E+01	1.20222346176E+01	-1.78119492170E+02	-3.37862475069E+01	8.42000963503E+00	-5.96998008319E+00	-1.20607949092E-01
3.15563983753E+05	-1.22526748979E+01	5.29485855174E+00	1.18947534614E+01	-1.77772553058E+02	-3.98121133306E+01	5.65820104847E+01	-6.03632005092E+00	1.44765352098E-01
3.15792079105E+05	-1.05168590089E+01	-1.34246513743E+02	1.22496073680E+01	-1.76607408161E+02	-3.36517281709E+01	-3.61499282596E+01	-5.93386242372E+00	-7.90948761058E-01
3.16020339328E+05	-2.30386906209E+01	4.36422681910E+01	1.20599929911E+01	-1.78056066300E+02	-4.07204768617E+01	7.79601022201E+01	-6.04392072346E+00	-3.15078185028E-01
3.16248764542E+05	-1.76264439417E+01	-6.87583437339E+01	1.20479200891E+01	-1.77177143382E+02	-4.15181489073E+01	7.83719425546E+01	-6.07327124549E+00	-1.28411698148E-01
3.16477354866E+05	-2.15945552444E+01	2.27303011048E+01	1.20127537660E+01	-1.78244839139E+02	-3.78485489001E+01	1.13645409385E+02	-6.09565387409E+00	1.33041777329E-01
3.16706110419E+05	-1.97441102344E+01	-4.63521055673E+01	1.20024215569E+01	-1.77580570672E+02	-4.54306165636E+01	7.99213039412E+00	-5.96874778612E+00	-3.42016981646E-01
3.16935031321E+05	-2.20480358401E+01	8.37947869289E+00	1.20427277905E+01	-1.78071260746E+02	-4.50054575736E+01	-1.46220808726E+02	-6.08203443035E+00	-4.97382292042E-01
3.17164117691E+05	-1.21431395353E+01	1.43888489202E+02	1.22479275392E+01	-1.78499805320E+02	-2.96483518108E+01	1.49305783500E+02	-6.19769398827E+00	4.28945039898E-01
3.17393369648E+05	-1.41494298806E+01	-1.25153973623E+02	1.21312789235E+01	-1.77023684650E+02	-3.54945588771E+01	-4.49640015991E+01	-5.94431439276E+00	-6.76957738506E-01
3.17622787313E+05	-2.35993160114E+01	8.12194579747E+01	1.20591677175E+01	-1.78131924892E+02	-3.84570851671E+01	1.29928647582E+02	-6.06056991000E+00	3.42350361440E-02
3.17852370806E+05	-1.60252651455E+01	-2.85538893035E+01	1.19986664916E+01	-1.77966791064E+02	-4.62627225649E+01	-1.55738895243E+02	-6.05754264722E+00	-2.12188551792E-01
3.18082120245E+05	-2.61908253375E+01	1.20638298648E+01	1.20400104294E+01	-1.78288101056E+02	-4.64225984137E+01	-1.69597364275E+02	-6.04563462874E+00	-3.54239264554E-01
3.18312035752E+05	-3.56148772893E+01	1.51457387359E+02	1.21015549167E+01	-1.77631164100E+02	-3.89742965281E+01	1.25687019120E+02	-6.07285923400E+00	2.87348472459E-01
3.18542117445E+05	-1.74203309291E+01	8.40368518254E+01	1.21218590633E+01	-1.78456654179E+02	-3.75191140810E+01	-3.21254363317E+01	-5.96705865798E+00	-3.49397821695E-01
3.18772365446E+05	-2.10855052957E+01	8.92038128675E+01	1.20246611937E+01	-1.78379736944E+02	-2.90935723746E+01	-5.83015466799E+00	-5.85797751989E+00	-3.52433778714E-01
3.19002779874E+05	-6.64333515675E+00	-2.99076967722E+01	1.18534754820E+01	-1.76584203184E+02	-3.57515823941E+01	-4.12906096793E+01	-5.97334678625E+00	-6.41145129108E-01
3.19233360850E+05	-1.15471256723E+01	1.80827605054E+01	1.19453276577E+01	-1.78088672068E+02	-4.07244759677E+01	5.62110586204E+01	-6.01812714462E+00	1.20365044114E-01
3.19464108494E+05	-2.36823978576E+01	8.48406284515E+01	1.20384143562E+01	-1.78487084848E+02	-3.94807263184E+01	7.94455591449E+01	-6.02092814772E+00	-2.38416953529E-02
3.19695022927E+05	-1.57566867430E+01	-8.68240660265E-01	1.20016026927E+01	-1.77719612325E+02	-4.06539419847E+01	6.33502650740E+01	-6.03231849554E+00	-9.91363995531E-02
3.19926104268E+05	-3.25873350450E+01	-1.21803299686E+02	1.20843536644E+01	-1.77819470208E+02	-4.21058311574E+01	-6.10212921862E+01	-6.08019409085E+00	-3.65860592964E-01
3.20157352640E+05	-2.05671486398E+01	-4.13267614149E+01	1.20227658827E+01	-1.77608509167E+02	-3.66554390374E+01	-1.49152300944E+02	-6.10926605093E+00	-3.50818198989E-01
3.20388768162E+05	-2.19750567036E+01	4.33990496145E+01	1.20449408352E+01	-1.78034976325E+02	-4.99957383466E+01	-8.19662743006E+00	-6.00587319542E+00	-2.93087772289E-01
3.20620350955E+05	-1.28419323207E+01	2.11594892405E+01	1.18781837889E+01	-1.78263937355E+02	-4.92700211991E+01	1.09420685410E+02	-6.03119239116E+00	-3.89654224571E-01
3.20852101140E+05	-2.04814375398E+01	1.55434876547E+02	1.21805419256E+01	-1.77858635299E+02	-3.88255854150E+01	-2.25770487831E+01	-6.01108449747E+00	-5.17814130936E-01
3.21084018839E+05	-1.80499345397E+01	9.52369379380E+01	1.20660738951E+01	-1.78811292777E+02	-3.80106389552E+01	-1.29613616646E+02	-6.09236899337E+00	-5.57037210064E-01
3.21316104172E+05	-2.18790117522E+01	-1.66154661957E+02	1.20840674351E+01	-1.77803617040E+02	-6.52759405308E+01	-9.30173154846E+01	-6.00392445907E+00	-2.63912751881E-01
3.21548357261E+05	-1.74304074953E+01	-2.81457818962E+00	1.19934710945E+01	-1.77879889693E+02	-4.26599215067E+01	-1.38677277015E+02	-6.05277130972E+00	-4.44487634110E-01
3.21780778226E+05	-1.56744922336E+01	-3.45408552899E+01	1.20251176847E+01	-1.77469852793E+02	-5.20391935407E+01	3.15181917534E+01	-6.04946140610E+00	-2.01765915723E-01
3.22013367189E+05	-2.00609257122E+01	1.13198786152E+02	1.20844455514E+01	-1.78344121679E+02	-4.12875707578E+01	-1.15030794852E+02	-6.01861870075E+00	-4.68665900355E-01
3.22246124272E+05	-2.30201539972E+01	1.09714088927E+02	1.20446703394E+01	-1.78457690515E+02	-4.11011760995E+01	-1.42914989535E+02	-6.10377771848E+00	-4.36789112273E-01
3.22479049596E+05	-1.33697455438E+01	-3.85665997078E+00	1.19104406340E+01	-1.77680967381E+02	-3.82878331486E+01	4.93529127272E+01	-6.01319649744E+00	-1.58892515077E-01
3.22712143282E+05	-2.71918497364E+01	5.88310348753E+01	1.20285003074E+01	-1.77824686953E+02	-4.12047436272E+01	1.35695231037E+02	-6.05706025880E+00	2.63613635339E-01
3.22945405453E+05	-1.89072199593E+01	-9.25983915972E+01	1.20443922025E+01	-1.77561527018E+02	-4.38907659357E+01	1.64899832100E+02	-6.02619211971E+00	-2.79544513966E-01
3.23178836230E+05	-1.65322273903E+01	-8.24401768254E+01	1.20366364020E+01	-1.77299440862E+02	-4.16742742613E+01	4.11028738170E+01	-6.00680920764E+00	-1.32374143782E-01
3.23412435735E+05	-1.92122751666E+01	2.04092335148E+01	1.20627718847E+01	-1.78224389669E+02	-5.40500374369E+01	1.09306378650E+02	-6.04126933697E+00	-1.07813108505E-01
3.23646204090E+05	-4.45989211650E+01	-3.96396980044E+01	1.20418132919E+01	-1.77932064465E+02	-3.07747402699E+01	-1.38770464419E+02	-6.16401291600E+00	-1.21878392396E+00
3.23880141417E+05	-1.43064060792E+01	-2.33119780885E+01	1.19768894726E+01	-1.77888311828E+02	-4.36966394728E+01	1.72279474901E+02	-6.05810871934E+00	-6.86947856203E-02
3.24114247838E+05	-1.83356796700E+01	2.83996007728E+01	1.19952753592E+01	-1.78309424460E+02	-4.01062993735E+01	-6.81985438713E+00	-6.02638248438E+00	-3.19726993389E-01
3.24348523475E+05	-2.44767540726E+01	-9.98844776108E+01	1.19711976044E+01	-1.78070546506E+02	-4.46023208475E+01	-2.63553622770E+01	-5.96984731923E+00	-4.00749385473E-01
3.24582968451E+05	-1.63763035337E+01	3.30793954359E+01	1.20496289876E+01	-1.78388652715E+02	-3.75145610805E+01	-1.25097507175E+02	-6.06859400463E+00	-6.73552163053E-01
3.24817582888E+05	-2.23613202136E+01	1.53468289217E+02	1.21059200547E+01	-1.78088700901E+02	-4.38817101224E+01	1.35374445307E+02	-6.02070140610E+00	-4.13155212919E-01
3.25052366909E+05	-1.37317805390E+01	7.97491584171E+01	1.20794473039E+01	-1.78479908328E+02	-3.38138440597E+01	-1.67464566601E+02	-6.15001698537E+00	-6.30802946875E-01
3.25287320635E+05	-2.26896105183E+01	1.29102412420E+02	1.21347802405E+01	-1.78444905926E+02	-3.36124308908E+01	1.63419883244E+02	-6.11077078139E+00	-1.45425466344E-01
3.25522444191E+05	-1.15449386217E+01	-1.18942713149E+02	1.22255087530E+01	-1.76800698323E+02	-2.77221974933E+01	-9.88933617312E+01	-6.02801310102E+00	-2.11691842267E+00
3.25757737698E+05	-1.15186544203E+01	-3.51818785183E+00	1.18793402366E+01	-1.77816405683E+02	-3.58455272503E+01	7.68860014445E+01	-5.98906444956E+00	2.16713168772E-01
3.25993201280E+05	-1.84000491996E+01	-1.28899444603E+01	1.19902599716E+01	-1.77909990269E+02	-3.91419745143E+01	-6.04030872798E+01	-6.04151489760E+00	-4.75507737919E-01
3.26228835058E+05	-1.61855313086E+01	2.87443575572E+01	1.20568181239E+01	-1.78082617963E+02	-3.93754447449E+01	-2.52240634397E+00	-5.97602559169E+00	-4.90801661771E-01
