# Hz S DB R 50
! CMT, M5065, 19127446, 24.2.4/2
! Date: 11/1/2024 3:18:35 PM
! Data: Format (Calibration Info)
! Freq	S11:dB/Ang(F2)	S21:dB/Ang(F2)	S12:dB/Ang(F2)	S22:dB/Ang(F2)
3.00000000000E+05	-2.85604388940E+01	-1.55679822894E+02	7.24099230833E+00	-1.77470606430E+02	-3.01059435729E+01	-1.57970211871E+02	-6.11470864163E+00	-4.88112740293E-01
3.00216845423E+05	-2.11358726792E+01	1.27824785818E+02	7.27620072825E+00	-1.77881134994E+02	-4.50430714799E+01	-7.21557029312E+01	-6.05872446681E+00	-2.09008318726E-01
3.00433847586E+05	-1.95540086770E+01	-5.32090951021E+01	7.20563690967E+00	-1.77269222375E+02	-4.76288746294E+01	-1.07688477669E+01	-6.03147292092E+00	-2.50513676756E-01
3.00651006602E+05	-2.78382710458E+01	-3.81041495129E+01	7.24505641051E+00	-1.77470225305E+02	-3.97569783728E+01	-7.82963023659E+01	-6.02100032770E+00	-3.11482768719E-01
3.00868322584E+05	-2.09016143475E+01	5.46884137017E+01	7.19127739686E+00	-1.77655097200E+02	-3.33784282202E+01	-1.15408005273E+01	-5.96425828854E+00	-1.58772440562E-01
3.01085795647E+05	-1.83409464852E+01	6.28249881883E+01	7.20267321884E+00	-1.78338326147E+02	-4.77443907846E+01	-1.42765184244E+02	-6.05574451188E+00	-3.57288620273E-01
3.01303425902E+05	-2.30660583775E+01	7.22817735909E+01	7.21917118538E+00	-1.78056187304E+02	-5.66083527317E+01	-9.62618146830E+01	-6.02844956976E+00	-3.03703790715E-01
3.01521213465E+05	-2.46705404294E+01	7.48387810970E+01	7.24286159193E+00	-1.78111146309E+02	-4.92686989432E+01	8.86520054737E+01	-6.04497824672E+00	-9.78637306118E-02
3.01739158449E+05	-1.94919522589E+01	1.08720051477E+02	7.27347558141E+00	-1.78142685496E+02	-3.52217687574E+01	-3.41009483850E+01	-6.01228700020E+00	-2.94153041435E-01
3.01957260967E+05	-1.99578963709E+01	-5.26368427866E+01	7.19728212697E+00	-1.77059730993E+02	-5.88547532934E+01	-6.94115536996E+01	-6.02567318238E+00	-1.76212349223E-01
3.02175521134E+05	-2.06475807852E+01	4.23897446118E+01	7.21308784647E+00	-1.78307372274E+02	-4.34364497100E+01	-1.22734511603E+02	-6.06702426663E+00	-3.58238120421E-01
3.02393939063E+05	-2.17364314003E+01	2.04489690998E+01	7.18057715156E+00	-1.78060751356E+02	-3.78489043188E+01	-7.01776358658E+01	-6.03855432182E+00	-5.98393259619E-01
3.02612514869E+05	-3.02511098622E+01	3.28363995806E+01	7.18293050584E+00	-1.77596300052E+02	-3.69647820575E+01	-1.63800100871E+02	-6.05988205571E+00	-3.04173476253E-01
3.02831248665E+05	-2.10325670558E+01	6.44240129119E+01	7.20687055008E+00	-1.77748759919E+02	-4.50119443422E+01	8.10797703443E+01	-6.03337070982E+00	-5.89913905298E-03
3.03050140565E+05	-2.39831280953E+01	-9.63993573628E+00	7.21950583259E+00	-1.77530961105E+02	-4.07189545727E+01	-1.26019302456E+02	-6.06025618307E+00	-4.44343793004E-01
3.03269190685E+05	-2.68837571737E+01	8.12588093825E+01	7.17564672680E+00	-1.77915148062E+02	-3.38812465807E+01	-9.50305478952E+01	-6.04453553985E+00	-6.17103361863E-01
3.03488399138E+05	-2.03597493715E+01	-6.21014582847E+01	7.20671905288E+00	-1.77315994285E+02	-4.63787174410E+01	9.96922435363E+01	-6.02924260342E+00	1.27627062429E-02
3.03707766039E+05	-1.71383884650E+01	8.47570607279E+01	7.27205022266E+00	-1.78200597252E+02	-4.45380598115E+01	4.31655329046E+01	-6.04483538650E+00	-2.60655297008E-01
3.03927291503E+05	-2.51185085860E+01	-6.33581134179E+01	7.18774658520E+00	-1.77493784368E+02	-3.66157429658E+01	-5.61806093292E+01	-6.02329623404E+00	-5.26008622304E-01
3.04146975643E+05	-1.84639779125E+01	6.62571886800E+01	7.23121899902E+00	-1.77991490101E+02	-4.95777603623E+01	1.99170831877E+01	-6.05981387287E+00	2.48162930705E-02
3.04366818575E+05	-2.15935887781E+01	3.61691351866E+00	7.13323530111E+00	-1.77679685414E+02	-4.69805252448E+01	6.17009469954E+01	-6.02335079921E+00	-1.18129620316E-01
3.04586820414E+05	-1.18667952408E+01	2.81911005169E+01	7.04272051097E+00	-1.78361107817E+02	-3.77188335952E+01	1.29118031103E+02	-6.05373340689E+00	2.52059152295E-02
3.04806981274E+05	-2.05795868143E+01	-3.69162370329E+01	7.16940196246E+00	-1.77616313058E+02	-4.90054036097E+01	-1.48313833199E+02	-6.05301817289E+00	-1.99547759036E-01
3.05027301270E+05	-2.29017603313E+01	5.07766956652E+01	7.21821392988E+00	-1.77865105744E+02	-5.00451768510E+01	-4.63271517605E+01	-6.05404208541E+00	-2.63120266501E-01
3.05247780517E+05	-1.92930762464E+01	5.12606559376E+01	7.17522239648E+00	-1.77822601426E+02	-4.14113472043E+01	-3.23617889779E+01	-6.00068393290E+00	-1.59638696286E-01
3.05468419131E+05	-1.53893809522E+01	3.57477910964E+01	7.14948049237E+00	-1.78179488531E+02	-4.95835044381E+01	-6.73724781582E+01	-6.03681197282E+00	-2.17917062186E-01
3.05689217226E+05	-2.96790726388E+01	-1.94319202088E+00	7.26548583599E+00	-1.77602778839E+02	-3.86644440232E+01	4.27824042321E+01	-6.00124842007E+00	-1.03658820098E-01
3.05910174918E+05	-3.96145271383E+01	-6.71881768367E+01	7.21326293345E+00	-1.77367788769E+02	-3.63922088290E+01	1.58086315717E+02	-6.10583301680E+00	-2.09628742456E-01
3.06131292322E+05	-2.81113784388E+01	-1.75635434992E+01	7.20154573340E+00	-1.77411484059E+02	-4.41134793433E+01	-1.60422455717E+02	-6.05389162444E+00	-2.73884862993E-01
3.06352569554E+05	-1.23124525672E+01	1.10326098709E+01	7.07849969916E+00	-1.77809526942E+02	-4.13182978381E+01	-1.71848844012E+02	-6.05633708691E+00	-1.37081660097E-01
3.06574006730E+05	-1.98785652651E+01	6.47455569093E+01	7.20969912149E+00	-1.78216853826E+02	-4.91713208210E+01	5.20628824791E+01	-6.08516967189E+00	-5.85791597268E-02
3.06795603964E+05	-2.55446730473E+01	1.61808587379E+02	7.25484254857E+00	-1.77553724536E+02	-3.29169723506E+01	-1.50436374796E+02	-6.14024800427E+00	-5.77126804344E-01
3.07017361372E+05	-2.60229014393E+01	-1.31923533981E+01	7.22913874596E+00	-1.77866588158E+02	-3.96883093081E+01	1.74656887406E+02	-6.07371061392E+00	-2.56000110666E-01
3.07239279071E+05	-2.60782956439E+01	3.36982493688E+01	7.20735788221E+00	-1.78254104443E+02	-5.75358604868E+01	-6.87087807764E+01	-6.05730901171E+00	-1.49366837239E-01
3.07461357176E+05	-1.97145254255E+01	-5.48259407844E+01	7.17631000170E+00	-1.77239310071E+02	-4.09657174079E+01	-2.50376473755E+00	-6.01635779660E+00	-2.53605164187E-01
3.07683595803E+05	-1.94465081338E+01	1.63058520281E+01	7.17100474492E+00	-1.77904594072E+02	-3.63151232285E+01	-1.50707150532E+02	-6.08021120703E+00	-4.05557803937E-01
3.07905995068E+05	-1.12959563063E+01	6.66206508399E+01	7.17891460828E+00	-1.78531285796E+02	-4.10890350998E+01	-9.18862118216E+01	-6.06543571963E+00	-2.22980767069E-01
3.08128555087E+05	-1.87508692572E+01	7.30768811071E+01	7.15886120758E+00	-1.77768570556E+02	-4.19469002487E+01	-6.27421661300E+01	-6.02746667143E+00	-3.86681527857E-01
3.08351275976E+05	-1.79394447022E+01	-2.68173750906E+01	7.17956846529E+00	-1.77463883010E+02	-4.38598936401E+01	-1.18302436571E+02	-6.06178801367E+00	-2.46006439766E-01
3.08574157853E+05	-2.80596017162E+01	-1.01949459664E+02	7.24213085705E+00	-1.77587525789E+02	-3.31353496024E+01	-5.83946768314E+01	-5.97821227115E+00	-6.45052226643E-01
3.08797200832E+05	-1.28102942597E+01	2.90433836097E+00	7.02353521466E+00	-1.77667412138E+02	-3.88722348083E+01	-1.37596111682E+02	-6.06830215234E+00	-3.54823115114E-01
3.09020405031E+05	-1.94813637915E+01	4.87600822349E+01	7.23955031056E+00	-1.77989666508E+02	-4.29884221669E+01	-4.88614704859E+01	-6.01785825352E+00	-1.43091664732E-01
3.09243770566E+05	-1.37187496779E+01	3.16911026588E+01	7.14321691466E+00	-1.78241194061E+02	-3.30130443879E+01	2.12127534717E+01	-5.96505121483E+00	-8.13238594858E-02
3.09467297553E+05	-1.96211982042E+01	7.98970724214E+00	7.16248816300E+00	-1.77545359453E+02	-3.93585113251E+01	3.70585393873E+01	-6.02227745512E+00	-1.91701983525E-01
3.09690986110E+05	-1.09891032111E+01	4.62603332840E+01	7.09823618414E+00	-1.78556438330E+02	-3.97113016198E+01	-1.36501461861E+02	-6.05723274645E+00	-4.12229796220E-01
3.09914836353E+05	-2.42468266651E+01	-2.16208932733E+01	7.20253928851E+00	-1.77814364027E+02	-4.77288189087E+01	5.60429192097E+01	-6.05217303496E+00	-3.66260270771E-01
3.10138848399E+05	-2.37197345905E+01	4.38419656309E+01	7.19732679796E+00	-1.78297361264E+02	-3.46771770778E+01	1.34930105706E+02	-6.07048764734E+00	1.76113850884E-01
3.10363022365E+05	-1.65887250072E+01	6.10853574745E+01	7.13952706360E+00	-1.78563949939E+02	-4.50456483094E+01	2.75949574915E+01	-6.01533819810E+00	-2.44061305749E-01
3.10587358368E+05	-1.78683640071E+01	4.04982091831E+01	7.16557532847E+00	-1.78157860837E+02	-5.80361668122E+01	1.29678609479E+02	-6.00778768161E+00	-1.07708920364E-01
3.10811856525E+05	-1.62117043487E+01	5.38473257094E+00	7.13235586817E+00	-1.77825101484E+02	-6.14052001168E+01	1.74880903186E+02	-6.06203434230E+00	-2.32435748783E-01
3.11036516954E+05	-3.15216560782E+01	-5.03920560235E+00	7.21731846668E+00	-1.77746001890E+02	-2.60067268233E+01	1.05570377082E+02	-6.10983428615E+00	9.57169875274E-01
3.11261339771E+05	-1.26900523333E+01	3.40554245300E+01	7.08188961583E+00	-1.78386227083E+02	-3.81569101949E+01	4.81250501322E+01	-6.03875216645E+00	-1.54262158325E-01
3.11486325094E+05	-2.22297620466E+01	1.01907668375E+01	7.18201841472E+00	-1.77934543464E+02	-4.84833535776E+01	1.13977135955E+02	-6.03466502457E+00	-6.98340135506E-03
3.11711473040E+05	-2.48277470454E+01	6.70213416262E+01	7.21300651220E+00	-1.78299160106E+02	-6.05840915029E+01	7.52016158365E+01	-6.03387990862E+00	-1.58406648761E-01
3.11936783728E+05	-2.89580676936E+01	1.68136642509E+02	7.25040458736E+00	-1.77676158452E+02	-3.59955278983E+01	-1.33891448635E+02	-6.06487950791E+00	-3.52097769010E-01
3.12162257274E+05	-3.79588673357E+01	1.75753222484E+02	7.22102460112E+00	-1.77926235044E+02	-4.24318182087E+01	-3.77873601211E+01	-6.03193259761E+00	-2.83007223311E-01
3.12387893797E+05	-1.30601944835E+01	3.17638430998E+01	7.15530365514E+00	-1.78311875726E+02	-4.59868766000E+01	8.05749746721E+01	-6.03332092549E+00	-1.21447712598E-01
3.12613693413E+05	-2.07944733078E+01	1.07288911555E+00	7.20180719305E+00	-1.78029644829E+02	-3.94338216358E+01	-1.70079403075E+02	-6.06168267764E+00	-2.94398004646E-01
3.12839656242E+05	-2.82134610181E+01	-4.19417207176E+01	7.23455207166E+00	-1.77572769698E+02	-4.27975500791E+01	-7.53235115505E+01	-6.05022940784E+00	-3.66558157375E-01
3.13065782401E+05	-1.93632723347E+01	-1.82545453952E+01	7.20439569135E+00	-1.77552835107E+02	-4.56993863441E+01	1.68840708494E+02	-6.05489076129E+00	-1.99999926918E-01
3.13292072007E+05	-1.53067290837E+01	-3.90162881885E+01	7.17134990526E+00	-1.77707575856E+02	-4.39150065474E+01	-4.05364679718E+01	-6.00476434637E+00	-2.59331089738E-01
3.13518525180E+05	-2.17873863362E+01	1.27411411412E+02	7.23253015385E+00	-1.78221198167E+02	-4.30552901738E+01	-8.64305748884E+01	-6.03337207393E+00	-2.01223968211E-01
3.13745142038E+05	-2.12276065782E+01	-4.55240615648E+01	7.24165931219E+00	-1.77620566805E+02	-4.85981324907E+01	-4.03031243868E+00	-5.99692678051E+00	-2.95535376544E-01
3.13971922698E+05	-1.67443792256E+01	-1.64500125063E+01	7.14501145347E+00	-1.77353255082E+02	-5.53928693966E+01	-1.62935952656E+02	-6.05273348394E+00	-1.81166260852E-01
3.14198867279E+05	-2.04548371449E+01	5.08164657384E+01	7.18046801463E+00	-1.78294185561E+02	-3.67568603078E+01	-8.12347448307E+01	-6.02120808725E+00	-4.51583585689E-01
3.14425975900E+05	-2.67435163571E+01	-5.38395404865E+01	7.20303031885E+00	-1.77790884988E+02	-3.46715769264E+01	-7.29598471533E+01	-6.03222330090E+00	-5.88914098273E-01
3.14653248680E+05	-1.33992960206E+01	6.25355861832E+00	7.13570395007E+00	-1.77794591587E+02	-3.87918902422E+01	-3.88952990088E+01	-6.01035437833E+00	-4.32035106088E-01
3.14880685736E+05	-1.10688843798E+01	-8.57379106677E+01	7.25565955835E+00	-1.76200444906E+02	-4.52156687326E+01	-7.12659615998E+01	-6.05207895310E+00	-2.04633268775E-01
3.15108287188E+05	-2.49226219692E+01	-6.71393068392E+01	7.24259960547E+00	-1.77674262169E+02	-4.18831657796E+01	-1.59701853678E+01	-6.02604071570E+00	-3.42335909236E-01
3.15336053154E+05	-3.25474576725E+01	-3.79404334726E+01	7.16517368390E+00	-1.77704861084E+02	-4.33324517901E+01	-1.26601871287E+02	-6.06060984813E+00	-4.38990550974E-01
3.15563983753E+05	-2.03223097373E+01	1.86669499244E+01	7.20702954270E+00	-1.77618634544E+02	-3.97691491440E+01	-5.82565399006E+00	-6.03629451461E+00	-2.59692120419E-01
3.15792079105E+05	-1.74061559478E+01	5.24190497990E+01	7.24451980487E+00	-1.78442180825E+02	-4.27905068876E+01	1.86055920020E+01	-5.98765238529E+00	-2.64086658259E-01
3.16020339328E+05	-1.97862691677E+01	5.50412310074E+01	7.17968635662E+00	-1.77995155814E+02	-5.25618569086E+01	7.53498555721E+01	-6.03420132269E+00	-2.32332906678E-05
3.16248764542E+05	-2.19117345642E+01	5.99333677861E+01	7.18050247226E+00	-1.78189951378E+02	-3.98051303572E+01	1.78520822081E+02	-6.10551349480E+00	-1.26626625696E-01
3.16477354866E+05	-1.65365798718E+01	9.75243927673E+01	7.24654652296E+00	-1.78468515957E+02	-4.80691448954E+01	-1.31964378964E+02	-6.06325450505E+00	-1.73364243997E-01
3.16706110419E+05	-2.63788473605E+01	-7.94714284203E+01	7.28764613262E+00	-1.77497012092E+02	-4.82670951062E+01	-9.78217312882E+01	-6.03327403661E+00	-3.17679120928E-01
3.16935031321E+05	-2.76044624759E+01	4.26141839198E+01	7.20330599831E+00	-1.78045628509E+02	-4.81816745505E+01	1.36651661406E+02	-6.07362896765E+00	-5.24711112254E-02
3.17164117691E+05	-1.79813317343E+01	2.45044923455E+01	7.17597087177E+00	-1.78009851339E+02	-4.14665552794E+01	-1.71249622685E+02	-6.07936590499E+00	-3.22430707692E-01
3.17393369648E+05	-1.95991103989E+01	5.44688012257E+01	7.15941152873E+00	-1.78425414942E+02	-5.78669777369E+01	-9.27235541412E+01	-6.03525461759E+00	-2.91345074338E-01
3.17622787313E+05	-1.27588796564E+01	4.74045386202E+00	7.13626489727E+00	-1.77841001684E+02	-3.91364910176E+01	-1.35324795224E+02	-6.05277723363E+00	-2.68212554533E-01
3.17852370806E+05	-2.47348905139E+01	-5.25740119490E+01	7.22590276415E+00	-1.77709694221E+02	-5.25647901585E+01	1.63181822120E+02	-6.06284965801E+00	-1.23674938206E-01
3.18082120245E+05	-1.94164296610E+01	1.04396444837E+02	7.28149568607E+00	-1.78456646877E+02	-3.20921388408E+01	9.10672669931E+01	-6.05369653445E+00	4.17248638186E-01
3.18312035752E+05	-1.77790399941E+01	-9.60858131020E+01	7.28044308936E+00	-1.77175968787E+02	-5.12352547652E+01	-9.68126730365E+01	-6.05343840504E+00	-3.05588100571E-01
3.18542117445E+05	-2.83280921001E+01	6.68763071546E+01	7.22393717249E+00	-1.78210822662E+02	-4.00388359887E+01	-1.44172638183E+00	-6.00485833561E+00	-2.55699613780E-02
3.18772365446E+05	-2.08469090291E+01	8.27424481797E+00	7.24494242864E+00	-1.77814496783E+02	-3.87563193756E+01	7.13304409236E+01	-6.02805106690E+00	8.59109967476E-02
3.19002779874E+05	-1.91555587205E+01	4.19865590884E+01	7.23328739700E+00	-1.78167016709E+02	-3.58020634955E+01	1.03849940284E+02	-6.05194391421E+00	1.85414545448E-01
3.19233360850E+05	-1.70518498624E+01	8.52690673930E+01	7.21145710740E+00	-1.78491499600E+02	-4.49074216813E+01	7.26913195702E+01	-6.04089386939E+00	1.13646418588E-02
3.19464108494E+05	-2.12927262525E+01	5.22984133882E+01	7.21926704269E+00	-1.78313457491E+02	-4.86002217789E+01	1.17504440262E+02	-6.04114791644E+00	-1.42779920058E-01
3.19695022927E+05	-2.59353257424E+01	9.23497162982E+01	7.23732009904E+00	-1.78072231099E+02	-4.39525938764E+01	-3.42829887681E+00	-6.03046317005E+00	-1.90254438009E-01
3.19926104268E+05	-2.66991274657E+01	-1.08073065958E+01	7.16925254688E+00	-1.77877692425E+02	-4.48595449498E+01	-7.13828804077E+01	-6.03150298461E+00	-3.44991946203E-01
3.20157352640E+05	-1.44462003703E+01	1.48651009586E+02	7.32464637696E+00	-1.78356281866E+02	-4.24129065190E+01	-8.38456339259E+00	-6.01415461957E+00	-2.90183233066E-01
3.20388768162E+05	-1.69534390532E+01	1.00394577616E+01	7.17689289529E+00	-1.77986579445E+02	-4.00376062050E+01	2.84431405721E+01	-6.03435946842E+00	3.87394224744E-02
3.20620350955E+05	-2.16451621571E+01	6.12992704491E+01	7.17641424635E+00	-1.78374429031E+02	-4.37570221540E+01	-1.50655438354E+02	-6.07582213729E+00	-3.60487834521E-01
3.20852101140E+05	-2.13396229357E+01	4.61149888067E+01	7.17300403232E+00	-1.78155689344E+02	-4.16182255899E+01	1.44440556652E+02	-6.04558315013E+00	-1.30976760879E-01
3.21084018839E+05	-1.03427705279E+01	-1.92808194172E+01	7.05393219823E+00	-1.77285811295E+02	-4.11980920411E+01	-1.59637167243E+02	-6.08718785494E+00	-2.36032249931E-01
3.21316104172E+05	-2.16645801719E+01	8.67698189066E+00	7.19843546158E+00	-1.77808739577E+02	-4.14850190506E+01	-1.31173796125E+02	-6.04989781876E+00	-3.33883047516E-01
3.21548357261E+05	-2.06855924629E+01	5.77066703927E+01	7.26331244881E+00	-1.78472485334E+02	-4.10490255265E+01	1.38776533900E+02	-6.02216946261E+00	-2.84870510747E-01
3.21780778226E+05	-2.06296274867E+01	1.39972902844E+01	7.18638997743E+00	-1.77954471698E+02	-4.46412554906E+01	-4.33454874002E+01	-6.03809924164E+00	-3.70866436078E-01
3.22013367189E+05	-2.11328608032E+01	-9.29198473546E+00	7.16603392323E+00	-1.77853463163E+02	-4.50324960912E+01	-2.81435589420E+00	-5.98593213968E+00	-3.33232621801E-01
3.22246124272E+05	-3.01777361874E+01	-1.44286860030E+02	7.26482594121E+00	-1.77992829923E+02	-5.59238634375E+01	1.22159889469E+02	-6.07462980129E+00	-2.50966069907E-01
3.22479049596E+05	-2.62946045867E+01	-1.20789063353E+02	7.25516567189E+00	-1.77661237527E+02	-4.68940738785E+01	1.61868769942E+02	-6.04245444420E+00	-1.52486654833E-01
3.22712143282E+05	-1.48047937142E+01	6.01420496913E+01	7.22828447627E+00	-1.78211979670E+02	-5.74529906705E+01	1.63503364779E+02	-6.05659535606E+00	1.13447454020E-02
3.22945405453E+05	-2.34081799807E+01	-7.97536398463E+01	7.22341643777E+00	-1.77487776368E+02	-4.37817748049E+01	-1.74165521855E+02	-6.04733833360E+00	-7.75653223216E-02
3.23178836230E+05	-1.96255366668E+01	9.88151342245E+01	7.26969269604E+00	-1.78197005932E+02	-3.70315358977E+01	-2.89901919470E+01	-5.98066722427E+00	-3.22591267965E-01
3.23412435735E+05	-2.63396631748E+01	6.47549110477E+01	7.21269409066E+00	-1.78362218485E+02	-3.95923826814E+01	-1.71756174404E+02	-6.07719452630E+00	-1.98541034072E-01
3.23646204090E+05	-1.53874674887E+01	3.19081244054E+01	7.16788987170E+00	-1.78584917444E+02	-5.98028161609E+01	8.86294729179E+01	-6.07243644556E+00	-4.37762745671E-01
3.23880141417E+05	-2.72045587488E+01	9.27754889301E+01	7.29593204055E+00	-1.78027033623E+02	-4.46099565490E+01	-6.85262911209E+01	-6.01506179666E+00	-3.57144200124E-01
3.24114247838E+05	-2.30054973511E+01	-1.10283575366E+01	7.24724101813E+00	-1.78094337713E+02	-4.72280741357E+01	1.77887842466E+02	-6.06849389568E+00	-2.67227258904E-01
3.24348523475E+05	-1.53411663101E+01	3.72088186447E+01	7.19210299549E+00	-1.78597960350E+02	-4.14445895990E+01	-4.10634490981E+01	-6.00234277428E+00	-3.78065131309E-01
3.24582968451E+05	-1.47254218787E+01	7.70712926224E+01	7.21698580328E+00	-1.78796072190E+02	-4.65013233825E+01	2.57395819006E+01	-6.03629969114E+00	-2.77600595082E-01
3.24817582888E+05	-1.42656668420E+01	1.85353797743E+01	7.09585566592E+00	-1.78023553990E+02	-3.47473378558E+01	1.45972515302E+02	-6.08467041629E+00	-1.93057535493E-02
3.25052366909E+05	-2.43895425753E+01	9.42234875322E+01	7.22875410561E+00	-1.78067129288E+02	-3.54131219412E+01	-3.37444697086E+01	-6.01535403712E+00	-4.98660058282E-01
3.25287320635E+05	-2.13932830774E+01	-4.90815345969E+00	7.21846422390E+00	-1.78270649281E+02	-5.77297056355E+01	1.54753537121E+02	-6.05064373149E+00	-9.95501843454E-02
3.25522444191E+05	-2.44277811709E+01	-7.12878702118E+01	7.21370758005E+00	-1.77591796842E+02	-4.81055075918E+01	9.11297533679E+01	-6.04462288568E+00	-9.96179956681E-02
3.25757737698E+05	-1.35254613765E+01	1.23454897125E+01	7.09819239780E+00	-1.78154678721E+02	-5.64008366719E+01	-9.11481845437E+01	-6.00344425003E+00	-2.58016342817E-01
3.25993201280E+05	-2.53604164118E+01	-5.90861109426E+01	7.19470840356E+00	-1.77908124342E+02	-3.46690833011E+01	-1.76000851048E+02	-6.08672015985E+00	-1.81995479801E-01
3.26228835058E+05	-2.04665447811E+01	-2.41296410533E+01	7.19061845864E+00	-1.77889777805E+02	-3.95238310084E+01	1.48464859778E+02	-6.06511590021E+00	-1.14018327650E-01
