# Hz S DB R 50
! CMT, M5065, 19127446, 24.2.4/2
! Date: 11/1/2024 3:26:57 PM
! Data: Format (Calibration Info)
! Freq	S11:dB/Ang(F2)	S21:dB/Ang(F2)	S12:dB/Ang(F2)	S22:dB/Ang(F2)
3.00000000000E+05	-2.11912668049E+01	-2.32465870321E+01	8.82104630467E+00	-1.77494077918E+02	-4.05316673330E+01	1.05018276771E+02	-6.03898441637E+00	-1.20420517589E-01
3.00216845423E+05	-3.22976451943E+01	1.53144400211E+02	8.87221119448E+00	-1.77479845922E+02	-4.06324613071E+01	9.05230118873E+01	-6.04824295360E+00	-4.58238316633E-01
3.00433847586E+05	-2.45080614631E+01	2.76373769695E+01	8.80276875415E+00	-1.78335522467E+02	-4.93649966517E+01	1.69808750616E+02	-6.07942155809E+00	-5.45076987552E-02
3.00651006602E+05	-2.57988905131E+01	-1.23388977643E+02	8.83141276832E+00	-1.77513025860E+02	-3.96725929381E+01	7.16115348660E+01	-6.02617952401E+00	-6.50583293603E-02
3.00868322584E+05	-6.28144249624E+00	-3.58438742352E+01	8.62689694535E+00	-1.76068728146E+02	-3.54859629634E+01	1.91860224064E+01	-5.95191612482E+00	-6.55277952523E-02
3.01085795647E+05	-1.73445149662E+01	6.95998119713E+01	8.82144036921E+00	-1.78403166387E+02	-3.62147589377E+01	1.51147848860E+02	-6.11164197927E+00	-7.80556691785E-02
3.01303425902E+05	-1.91328710946E+01	6.14835611808E+01	8.82285145508E+00	-1.77674788333E+02	-2.74949815711E+01	7.21124078021E+01	-6.05987521009E+00	7.73630971721E-01
3.01521213465E+05	-1.62381309605E+01	1.38948351611E+01	8.74152225405E+00	-1.77840544053E+02	-3.62370285651E+01	1.18816917281E+02	-6.05632884068E+00	-1.57490455265E-01
3.01739158449E+05	-2.08006791146E+01	5.76000227323E+01	8.86278628508E+00	-1.77890134978E+02	-3.74018853660E+01	-2.22009245809E+01	-6.02760345360E+00	-2.02307402921E-01
3.01957260967E+05	-1.66233519029E+01	4.76477951051E+01	8.78105294428E+00	-1.78455230072E+02	-4.59369851824E+01	-1.66721376499E+02	-6.09674509094E+00	-2.65458423040E-01
3.02175521134E+05	-2.51475925885E+01	1.76498788252E+02	8.91613626590E+00	-1.77760836126E+02	-3.94234157386E+01	-1.03791825386E+02	-6.02819254632E+00	-4.01180406521E-01
3.02393939063E+05	-1.97486898992E+01	3.77620790156E+01	8.81720929901E+00	-1.77960325553E+02	-4.55817151694E+01	-3.12841364884E+01	-6.01901711215E+00	-2.82425880820E-01
3.02612514869E+05	-2.52000346511E+01	-3.46514553048E+01	8.83812878306E+00	-1.77359038609E+02	-3.25612992524E+01	-1.62569939389E+02	-6.14483951117E+00	-4.79162987329E-01
3.02831248665E+05	-1.73271189974E+01	1.08722219551E+02	8.91252881221E+00	-1.77936094805E+02	-3.99586475458E+01	-7.71326207316E+01	-6.07314634236E+00	-6.52180394276E-01
3.03050140565E+05	-1.67558542789E+01	1.66968343503E+01	8.80846226442E+00	-1.77948964603E+02	-4.20353125791E+01	-1.47563241312E+01	-6.02360163316E+00	-4.80675972171E-01
3.03269190685E+05	-1.50963880287E+01	-6.67927066511E+00	8.74820292512E+00	-1.77537068150E+02	-3.68297921413E+01	1.42288123059E+02	-6.06545702463E+00	1.39350657536E-01
3.03488399138E+05	-1.79070057113E+01	1.50220510581E+02	8.89368138326E+00	-1.78196182259E+02	-3.89547813560E+01	3.54642417147E+01	-6.02195416565E+00	-1.31120976910E-01
3.03707766039E+05	-1.69943415813E+01	-5.97213962414E+00	8.79717360998E+00	-1.77055908873E+02	-4.39380745731E+01	-3.12499301804E+00	-5.98312424912E+00	-3.64812066037E-01
3.03927291503E+05	-1.90592492423E+01	6.44494650591E+01	8.81702049433E+00	-1.78299703284E+02	-4.02740744833E+01	-7.75818800375E+01	-6.07134770709E+00	-1.08988804925E-01
3.04146975643E+05	-1.76463537959E+01	-6.07295713181E+01	8.83789958022E+00	-1.77006579564E+02	-2.71846896886E+01	-1.51641519266E+02	-6.17554255354E+00	-9.42036134955E-01
3.04366818575E+05	-2.65332637289E+01	-4.25756516345E+01	8.83986486687E+00	-1.77484888505E+02	-3.80265816941E+01	1.65029139999E+02	-6.08824577151E+00	-2.15118109239E-01
3.04586820414E+05	-2.06007568772E+01	-3.61319579676E+01	8.84656924746E+00	-1.77957862508E+02	-3.36839659821E+01	-1.65543013687E+02	-6.11189084777E+00	-3.02986485844E-01
3.04806981274E+05	-1.98537233740E+01	4.84600873469E+01	8.83841440507E+00	-1.77723047600E+02	-4.30579367619E+01	-1.71565693421E+02	-6.08469244696E+00	-2.58953306986E-01
3.05027301270E+05	-1.64027103986E+01	-4.84710836627E-01	8.76402079176E+00	-1.77101913730E+02	-3.50225766974E+01	-5.43774837619E+01	-5.97483209004E+00	-3.66165590078E-01
3.05247780517E+05	-1.76897090850E+01	3.24328680035E+01	8.76853565310E+00	-1.78113161508E+02	-5.91341134313E+01	-1.33396725178E+02	-6.05410314214E+00	-2.91240380877E-01
3.05468419131E+05	-1.38446480035E+01	7.75335923210E+01	8.82539767975E+00	-1.78353960577E+02	-3.90021270698E+01	1.30359014717E+02	-6.04928900241E+00	1.71667815369E-01
3.05689217226E+05	-1.29345661519E+01	-3.12324631347E+01	8.77615154892E+00	-1.76863943212E+02	-3.91687000401E+01	-7.85086105180E+01	-6.02041268124E+00	-3.62970948477E-01
3.05910174918E+05	-2.14538044974E+01	5.31165210715E+01	8.89113493431E+00	-1.77658195323E+02	-4.18779809451E+01	3.19850136838E+01	-6.01640609777E+00	-1.86096105729E-01
3.06131292322E+05	-2.14895936311E+01	8.96944876391E+01	8.82137549992E+00	-1.77915923703E+02	-3.71953157919E+01	-1.30853862032E+02	-6.05825836317E+00	-5.58836142553E-01
3.06352569554E+05	-1.71674859597E+01	2.11811531957E+01	8.81033752031E+00	-1.77690257495E+02	-4.06330039685E+01	-6.32615870254E+01	-6.01125154185E+00	-3.69934526100E-01
3.06574006730E+05	-2.07600446578E+01	4.60150295804E+01	8.80942630963E+00	-1.77804157675E+02	-3.79404876806E+01	1.64073906815E+02	-6.09925958229E+00	-1.15330807238E-01
3.06795603964E+05	-2.23631963392E+01	-5.42575781943E+01	8.87134441640E+00	-1.77767705807E+02	-4.43937516433E+01	2.64325729580E+01	-6.02740072393E+00	-4.12602421643E-01
3.07017361372E+05	-1.87344383927E+01	5.92099835303E+00	8.78723446205E+00	-1.77347171772E+02	-4.46245199998E+01	-1.21675589823E+02	-6.05521265267E+00	-3.20965707764E-01
3.07239279071E+05	-1.23284055039E+01	-2.95463020416E+01	8.70361298590E+00	-1.77401695463E+02	-3.29259545055E+01	2.89643393755E+00	-5.95296155751E+00	-5.08669873699E-01
3.07461357176E+05	-2.32784738024E+01	1.37923778034E+02	8.82560431038E+00	-1.78204296496E+02	-2.74147522963E+01	2.91293928909E+01	-5.89094047622E+00	7.43053893970E-02
3.07683595803E+05	-1.46264836214E+01	5.39568351828E+00	8.73927951729E+00	-1.78078118632E+02	-4.53127632903E+01	-4.11868642320E+01	-6.04144752733E+00	-4.47906729262E-01
3.07905995068E+05	-2.22538292425E+01	7.08227130729E+01	8.80576810501E+00	-1.77875409508E+02	-4.87039667942E+01	-2.42240054398E+01	-6.01748834122E+00	-1.26233990800E-01
3.08128555087E+05	-2.62986889065E+01	1.43746324152E+02	8.95109933110E+00	-1.78079093615E+02	-4.10931008096E+01	-9.58439909191E+01	-6.03561125494E+00	-6.00140624553E-01
3.08351275976E+05	-1.86891954929E+01	-3.76134596438E+01	8.82336945345E+00	-1.77394755743E+02	-3.82617707127E+01	4.51003090318E+00	-5.99712622212E+00	1.35299979374E-01
3.08574157853E+05	-1.00352278462E+01	-1.48581017646E+01	8.62665794297E+00	-1.77189210831E+02	-3.40881657608E+01	-5.81711545142E+01	-6.02960781524E+00	-5.10026571751E-01
3.08797200832E+05	-2.30277452988E+01	-2.65428430184E+01	8.84646781784E+00	-1.77546831164E+02	-3.81131091292E+01	9.92207002880E+01	-6.06422625612E+00	-4.39130921199E-03
3.09020405031E+05	-1.90500115340E+01	4.60065862769E+01	8.83070546505E+00	-1.78085894892E+02	-3.22573061246E+01	-6.02284003003E+01	-5.99804610746E+00	-8.75899957017E-01
3.09243770566E+05	-1.53586406455E+01	1.22773213513E+02	8.94321263209E+00	-1.78381839397E+02	-3.55531677201E+01	1.40525841056E+02	-6.11651288091E+00	3.56823577347E-01
3.09467297553E+05	-2.15331097374E+01	-2.37328163344E+01	8.81645583110E+00	-1.77687024183E+02	-4.36585024852E+01	-3.84971280567E+01	-6.05261660638E+00	-2.95782390126E-01
3.09690986110E+05	-1.54394922509E+01	-2.45037677374E+01	8.74176708326E+00	-1.77706429906E+02	-4.12029870541E+01	1.63272068027E+02	-6.03169719007E+00	-2.11649405295E-01
3.09914836353E+05	-1.71003686513E+01	-1.22290465160E+02	8.94385186314E+00	-1.77139653533E+02	-4.19432509946E+01	-1.66560694956E+02	-6.10376732923E+00	-1.22899096441E-01
3.10138848399E+05	-2.44145807646E+01	-1.47110953936E+02	8.92033525387E+00	-1.77577638725E+02	-3.09254553368E+01	-4.02707081460E+01	-5.99299674449E+00	-6.62099457189E-01
3.10363022365E+05	-1.85938979515E+01	9.78599092702E+01	8.85544568778E+00	-1.78087332312E+02	-3.73137107249E+01	6.47915850311E+01	-6.01905074681E+00	3.11440010384E-02
3.10587358368E+05	-2.40921978673E+01	7.94721891402E+01	8.81103236906E+00	-1.78006569572E+02	-3.36783621320E+01	-9.00215846201E+01	-6.03873482117E+00	-7.39697398940E-01
3.10811856525E+05	-1.45321445948E+01	3.95422789107E+01	8.74389924953E+00	-1.78029845398E+02	-4.19479588954E+01	8.93648897873E+01	-6.02902376944E+00	1.95007351564E-01
3.11036516954E+05	-1.76767616075E+01	6.99144138476E+01	8.78444547780E+00	-1.77642058496E+02	-3.70083626792E+01	-1.43012797905E+02	-6.04252177956E+00	-2.95007764245E-01
3.11261339771E+05	-3.01768815971E+01	-4.04549175207E+01	8.89407372160E+00	-1.77954986247E+02	-5.20697077002E+01	6.89197685147E+01	-6.05881022112E+00	-5.25515381722E-01
3.11486325094E+05	-1.47474462605E+01	1.36867674953E+02	8.95243080192E+00	-1.78493650771E+02	-4.11771698352E+01	-4.51858793477E+01	-5.98430297684E+00	-6.51846944612E-01
3.11711473040E+05	-1.48143382891E+01	1.23655932512E+02	8.92560711725E+00	-1.78643448131E+02	-4.50006391906E+01	-1.68495158494E+01	-6.02014259095E+00	-4.41628266156E-01
3.11936783728E+05	-1.59982503797E+01	-2.13830545612E+01	8.74126647270E+00	-1.77767385163E+02	-2.47422207746E+01	-1.75487356083E+02	-6.30851519079E+00	-1.98620806787E-01
3.12162257274E+05	-2.27550893245E+01	-4.83588727306E+01	8.79289641800E+00	-1.77668774521E+02	-2.85819964471E+01	-9.23454426646E+01	-6.03718967587E+00	-1.42049181180E+00
3.12387893797E+05	-1.49361381396E+01	-2.90566844218E+00	8.82344647954E+00	-1.77564107012E+02	-3.82138023033E+01	-1.48912091495E+02	-6.09346913286E+00	-2.78899665751E-01
3.12613693413E+05	-1.86549766786E+01	1.00272029953E+02	8.87060410383E+00	-1.78049307571E+02	-4.31354769169E+01	-7.48731652844E+01	-6.04227232792E+00	-4.39283388716E-03
3.12839656242E+05	-1.98922682323E+01	6.57656913512E+01	8.82172582587E+00	-1.77946968995E+02	-4.40719916657E+01	6.07199050310E+00	-6.03012827151E+00	-7.79577815634E-02
3.13065782401E+05	-1.60520707617E+01	1.37197070318E+01	8.73895534346E+00	-1.77327643923E+02	-3.42614987911E+01	-1.70334697051E+02	-6.10131103808E+00	-3.84579952321E-01
3.13292072007E+05	-7.59689432177E+00	8.20528928100E+01	8.81220834059E+00	-1.79639754529E+02	-4.49682445162E+01	-1.18617498606E+02	-6.03967322087E+00	-2.01795177599E-01
3.13518525180E+05	-1.48305213161E+01	-8.86651368352E+01	8.87450004753E+00	-1.77152959300E+02	-3.30814230944E+01	-6.50319835833E+01	-5.99100149677E+00	-8.60296095833E-01
3.13745142038E+05	-2.04301619684E+01	8.72174577435E+01	8.87702919452E+00	-1.77869723359E+02	-2.71146617140E+01	8.69772670920E+00	-5.82123800453E+00	-4.83856959171E-02
3.13971922698E+05	-1.95094739518E+01	-1.52116692856E+02	8.84159506571E+00	-1.77470295179E+02	-4.19081224146E+01	1.46894692612E+02	-6.09545722905E+00	-1.84513424609E-01
3.14198867279E+05	-2.73562224988E+01	-1.08374859433E+02	8.85518896484E+00	-1.77831093773E+02	-4.16752181700E+01	8.14763728516E+01	-6.05223041788E+00	3.34657929667E-02
3.14425975900E+05	-2.32761586104E+01	-3.03944354791E+01	8.87741266970E+00	-1.77677941962E+02	-4.25295010467E+01	9.13553518848E+01	-6.04668052868E+00	-1.95590281402E-01
3.14653248680E+05	-1.90676131224E+01	4.17934896717E+01	8.85258219610E+00	-1.77741077843E+02	-3.84119130351E+01	-1.49849427288E+02	-6.08853465371E+00	-4.17019438178E-01
3.14880685736E+05	-1.69900927710E+01	1.57367281099E+02	8.96539117735E+00	-1.78210652669E+02	-4.66831525867E+01	-5.48471057125E+01	-6.04693861283E+00	-4.42690410882E-01
3.15108287188E+05	-1.56205757212E+01	1.49526207199E+02	9.01722968446E+00	-1.78129034103E+02	-2.89618624233E+01	-5.67595943416E+01	-5.93566757648E+00	-9.71227180883E-01
3.15336053154E+05	-2.10675973318E+01	2.03511503511E+01	8.78463717631E+00	-1.77843779424E+02	-2.87652138158E+01	7.68480430796E+01	-6.02627134381E+00	9.70951594382E-01
3.15563983753E+05	-2.35529559555E+01	8.74405821466E+01	8.83983490126E+00	-1.78184582337E+02	-3.56498995915E+01	-8.20805708492E+01	-6.02811441004E+00	-6.42908596295E-01
3.15792079105E+05	-1.65476868860E+01	1.19049609237E+01	8.81882898124E+00	-1.77873338573E+02	-4.16274479783E+01	-7.25750172364E+01	-6.00026846489E+00	-3.50253107061E-01
3.16020339328E+05	-2.64938351550E+01	-3.47056694249E+01	8.82487834478E+00	-1.78038822296E+02	-4.60704657060E+01	1.22400017606E+02	-6.06093827316E+00	-2.86829892713E-01
3.16248764542E+05	-1.98528883572E+01	2.66162910714E+01	8.79416452335E+00	-1.77868754938E+02	-4.13770140354E+01	-1.75215206110E+02	-6.05941831706E+00	-3.13292872905E-01
3.16477354866E+05	-1.54614326671E+01	-1.11281034167E+02	8.88995116090E+00	-1.77100637823E+02	-3.87961368084E+01	-1.34203235751E+02	-6.05651771956E+00	-5.67568677569E-01
3.16706110419E+05	-1.32238338611E+01	8.07183461594E+01	8.82057759695E+00	-1.78583911506E+02	-4.54347806113E+01	-5.24756353664E+01	-6.08196653926E+00	-3.60026300867E-01
3.16935031321E+05	-2.13632435012E+01	4.85133810721E+01	8.76989673866E+00	-1.77930893732E+02	-3.46792858940E+01	-1.14112452973E+02	-6.08292506469E+00	-8.21231144076E-01
3.17164117691E+05	-1.56755345246E+01	5.77907022656E+01	8.82815802813E+00	-1.78152582383E+02	-5.43771960588E+01	-5.23790252707E+01	-6.06946054559E+00	-1.72419430843E-01
3.17393369648E+05	-2.43306476986E+01	5.75047584905E+01	8.78970765271E+00	-1.78199896181E+02	-4.89578971401E+01	1.29784261275E+02	-6.02841257148E+00	-6.24061540074E-02
3.17622787313E+05	-2.47881916219E+01	-1.59886847564E+02	8.83369699620E+00	-1.77406352503E+02	-4.59857458412E+01	1.38286346578E+02	-6.08717957532E+00	1.70749030702E-01
3.17852370806E+05	-2.23883994429E+01	1.37611850345E+02	8.83802605711E+00	-1.77900759516E+02	-4.25236157192E+01	1.63454943279E+02	-6.03095812817E+00	-2.50005674436E-02
3.18082120245E+05	-1.28952364629E+01	-4.23044745572E+01	8.70386702175E+00	-1.77170029054E+02	-3.50402542537E+01	-4.11627972549E+01	-5.98788074483E+00	-4.74229623901E-01
3.18312035752E+05	-1.27242298668E+01	5.41175691638E+01	8.80085091587E+00	-1.78745622295E+02	-3.92184541437E+01	-1.40288951213E+02	-6.07681962740E+00	-4.94367617438E-01
3.18542117445E+05	-2.16083894876E+01	-1.04074336872E+02	8.81336134633E+00	-1.77335951946E+02	-2.92859382178E+01	-2.94280665959E+01	-5.93665175044E+00	-8.08838202592E-01
3.18772365446E+05	-2.19802120500E+01	1.06128700799E+02	8.90157497960E+00	-1.77963364069E+02	-3.80162689274E+01	4.67395026381E+01	-6.00129169930E+00	5.49429366560E-02
3.19002779874E+05	-1.44355394794E+01	2.38728765077E+01	8.70486325514E+00	-1.77997802642E+02	-4.02348900396E+01	-1.07161854880E+02	-5.99454262936E+00	-2.16270230399E-01
3.19233360850E+05	-1.70896824315E+01	3.66350624050E+01	8.74472599420E+00	-1.78397381116E+02	-4.84370243490E+01	-1.64521194658E+02	-6.07000264470E+00	-1.86248147816E-01
3.19464108494E+05	-2.28518766260E+01	2.40227815995E+01	8.85915854867E+00	-1.77953277253E+02	-4.07335744384E+01	1.35340453022E+02	-6.07022587740E+00	-6.40045499986E-02
3.19695022927E+05	-1.43824006521E+01	-2.32977769791E+01	8.74722015558E+00	-1.77523037151E+02	-4.31719840453E+01	8.55366422574E+01	-6.04866903726E+00	-5.17944141318E-02
3.19926104268E+05	-1.32208824544E+01	-4.44821682693E+01	8.80321299251E+00	-1.76642484061E+02	-3.94796338279E+01	-6.85354472821E+01	-6.02173227439E+00	-7.09508743571E-01
3.20157352640E+05	-3.24019434711E+01	7.39243955616E+01	8.85966566368E+00	-1.78159647611E+02	-2.94515865087E+01	1.53150239661E+02	-6.17388790710E+00	4.11293776835E-01
3.20388768162E+05	-2.00214125486E+01	1.68072992322E+01	8.79865127697E+00	-1.78000160535E+02	-3.60228316985E+01	-1.40115015219E+02	-6.09454000578E+00	-3.60922695217E-01
3.20620350955E+05	-1.77714121079E+01	-2.06742025176E+01	8.81540031758E+00	-1.77958614084E+02	-4.63615501799E+01	-1.30887085229E+02	-6.02627053095E+00	-1.87329052914E-01
3.20852101140E+05	-1.57769683019E+01	2.99045780358E+01	8.73735745652E+00	-1.77876505369E+02	-4.39591635486E+01	-1.67692230021E+02	-6.07551367702E+00	-1.94871669655E-01
3.21084018839E+05	-3.03159756007E+01	-5.97627374812E+01	8.87285986523E+00	-1.77448988407E+02	-4.11452390460E+01	-5.24296534494E+01	-6.05480895828E+00	-2.89711919134E-01
3.21316104172E+05	-1.93419152673E+01	1.06919839516E+01	8.78284406775E+00	-1.78270279938E+02	-4.13763046210E+01	5.00759732083E+00	-6.05647070497E+00	-4.87789420803E-01
3.21548357261E+05	-1.55847126060E+01	-1.06787326904E+00	8.71081082307E+00	-1.77961766798E+02	-3.40482441874E+01	-1.02830170207E+02	-6.05022246738E+00	-7.02807672852E-01
3.21780778226E+05	-1.39842179960E+01	4.30613801633E+01	8.74712065593E+00	-1.78063530505E+02	-2.92101712351E+01	-1.52447781625E+01	-5.91270370395E+00	-6.10027414250E-01
3.22013367189E+05	-2.42028600796E+01	-6.50073386012E+01	8.81045169336E+00	-1.77631228037E+02	-3.84224809768E+01	6.44279829474E+01	-6.02092443131E+00	-6.00501509453E-02
3.22246124272E+05	-2.24110811753E+01	2.55002196846E+01	8.84010392800E+00	-1.78119301674E+02	-3.31881776716E+01	-3.65846283613E+01	-5.97975337463E+00	-5.65459247966E-01
3.22479049596E+05	-1.85968064298E+01	1.21051566257E+01	8.76748069337E+00	-1.78078538917E+02	-4.61734425571E+01	4.49619664951E+01	-6.05773559325E+00	3.33467296153E-01
3.22712143282E+05	-2.62314055523E+01	-3.23966820939E+01	8.78816191584E+00	-1.77960477448E+02	-4.32277281650E+01	3.58645249110E+01	-6.03290168941E+00	-1.94399311634E-01
3.22945405453E+05	-2.86376864397E+01	9.11336348321E+01	8.86861926373E+00	-1.77922862842E+02	-3.88038101214E+01	1.70751809823E+02	-6.08043487231E+00	-1.89043160840E-01
3.23178836230E+05	-1.61140382445E+01	3.76152203724E+01	8.82669115825E+00	-1.78302609378E+02	-4.23411017629E+01	5.03282432961E+01	-6.01157733071E+00	7.54303467825E-03
3.23412435735E+05	-1.89614094232E+01	3.45999242961E+01	8.75122258791E+00	-1.77852054903E+02	-3.26298073684E+01	-8.03915237332E+01	-6.04850388126E+00	-8.54029088371E-01
3.23646204090E+05	-1.85296274352E+01	8.73838772712E+00	8.82089064620E+00	-1.78045099795E+02	-3.06303502137E+01	-1.37785326375E+02	-6.15423321018E+00	-1.01357387362E+00
3.23880141417E+05	-1.86988354872E+01	8.21120282725E+01	8.86706662267E+00	-1.78365468319E+02	-4.42089711692E+01	-1.18294023398E+01	-6.03709633813E+00	-7.10165486237E-03
3.24114247838E+05	-1.84533115873E+01	7.97405608379E+01	8.83959188206E+00	-1.78527420468E+02	-3.94950408716E+01	1.16696390425E+02	-6.03851000648E+00	2.90344229870E-03
3.24348523475E+05	-3.45732274060E+01	1.15763913135E+02	8.87917589617E+00	-1.77960240887E+02	-4.61578004945E+01	1.76535359921E+02	-6.05061593617E+00	-4.34634044345E-01
3.24582968451E+05	-1.43855897155E+01	5.69457348696E+01	8.73942675483E+00	-1.78710901378E+02	-4.38156356669E+01	4.53910737069E+01	-5.99855281128E+00	-1.79830510780E-01
3.24817582888E+05	-1.57447623930E+01	-8.68474236582E+01	8.89934684292E+00	-1.76903339028E+02	-4.66588032070E+01	5.49173285147E-02	-5.99693328874E+00	-1.94709860108E-01
3.25052366909E+05	-1.61713435984E+01	4.94906132478E+01	8.78022930729E+00	-1.78366304108E+02	-3.65624270016E+01	-1.32629771966E+02	-6.08938405861E+00	-2.88508241152E-01
3.25287320635E+05	-1.80192925978E+01	5.02799205199E+01	8.81660885095E+00	-1.78205098160E+02	-2.96069596089E+01	-1.28067012322E+02	-6.09811981879E+00	-1.26313017218E+00
3.25522444191E+05	-2.17224765482E+01	3.52447999360E+01	8.80185635376E+00	-1.78014082929E+02	-3.62382046313E+01	6.57949489453E+00	-6.01825025733E+00	-4.85297850674E-01
3.25757737698E+05	-2.41798284872E+01	-2.81834712151E+00	8.85280449163E+00	-1.78115574032E+02	-3.92659926009E+01	-6.33972449264E+01	-6.01936248760E+00	-6.24625580697E-01
3.25993201280E+05	-3.93539048243E+01	-3.42011443956E+01	8.86176991353E+00	-1.77910916540E+02	-4.77242225644E+01	-1.36370314244E+01	-6.03388387618E+00	-4.53011608977E-01
3.26228835058E+05	-2.20592030013E+01	2.92403736685E+01	8.83657236655E+00	-1.77929749555E+02	-3.64078256056E+01	-1.32757838445E+02	-6.09202512314E+00	-3.19939893586E-01
