# Hz S DB R 50
! CMT, M5065, 19127446, 24.2.4/2
! Date: 11/1/2024 3:44:24 PM
! Data: Format (Calibration Info)
! Freq	S11:dB/Ang(F2)	S21:dB/Ang(F2)	S12:dB/Ang(F2)	S22:dB/Ang(F2)
3.00000000000E+05	-2.48743972911E+01	1.66220291996E+02	1.84353095328E+01	-1.76922978812E+02	-3.40763662355E+01	-3.66661456801E+01	-5.82314692110E+00	-7.24627387843E-01
3.00216845423E+05	-5.87226617665E+00	6.94030182740E+01	1.83150488898E+01	-1.79204646729E+02	-3.54157050532E+01	-1.71359519925E+02	-6.15777494845E+00	-4.49052222836E-01
3.00433847586E+05	-1.86651055523E+01	8.93300865755E+01	1.84482968800E+01	-1.77541041391E+02	-4.76013873813E+01	1.40686365423E+02	-6.04477874356E+00	-5.45875043839E-02
3.00651006602E+05	-2.22741522548E+01	-4.21363416217E+01	1.84153065945E+01	-1.76861405240E+02	-4.51377437966E+01	-7.42486956942E+01	-6.02433053234E+00	-3.01909026429E-01
3.00868322584E+05	-2.25868124881E+01	4.22127176394E+01	1.83717580969E+01	-1.76990598637E+02	-3.92149459416E+01	-1.14860896939E+02	-6.12098870375E+00	-1.04740560778E+00
3.01085795647E+05	-3.54704240826E+01	-1.70898021804E+02	1.84190516128E+01	-1.76956177655E+02	-3.79399981867E+01	-1.66612403783E+02	-6.11195330637E+00	-6.28554875269E-01
3.01303425902E+05	-2.50534957353E+01	7.08585133319E+01	1.83694526145E+01	-1.77242224043E+02	-3.89703393997E+01	-3.57697450233E+01	-5.94589806403E+00	-3.81101352645E-01
3.01521213465E+05	-2.20631293939E+01	-8.39080118266E+00	1.83753869128E+01	-1.77061632343E+02	-2.76875432471E+01	1.59584079447E+02	-6.42804525328E+00	6.13182329845E-01
3.01739158449E+05	-1.90164730161E+01	-6.58255190014E+01	1.84289917408E+01	-1.76643061984E+02	-4.23105901222E+01	6.88705389638E+01	-5.99498434395E+00	-9.47892365404E-02
3.01957260967E+05	-1.82006946992E+01	3.18393618123E+01	1.83099956798E+01	-1.77394478826E+02	-4.13416757165E+01	-1.60159500536E+02	-6.08969182287E+00	-6.24920802165E-01
3.02175521134E+05	-2.28079196598E+01	-9.53593692445E+01	1.83633945115E+01	-1.76591370267E+02	-4.54409015878E+01	1.14790809259E+02	-6.08643363477E+00	-7.10144304232E-02
3.02393939063E+05	-1.81101066539E+01	-3.26508479610E+01	1.83826886393E+01	-1.76885024219E+02	-3.82018141708E+01	6.63632088294E+00	-5.89388412118E+00	9.42728379643E-03
3.02612514869E+05	-1.39886132737E+01	1.37176783936E+01	1.83229629036E+01	-1.77390732871E+02	-4.25209360980E+01	1.63023922135E+02	-6.12056630860E+00	-5.11170867006E-02
3.02831248665E+05	-1.98634326594E+01	1.98274673461E+01	1.83313284995E+01	-1.77303592675E+02	-5.45503688084E+01	2.43955529263E+00	-6.01391192693E+00	-4.23513660731E-02
3.03050140565E+05	-1.99441828219E+01	8.03279369224E+01	1.84139205875E+01	-1.77314112631E+02	-3.07133110997E+01	-5.90765105166E-01	-5.68187178392E+00	-2.74942237144E-01
3.03269190685E+05	-1.06880514075E+01	1.06249037488E+02	1.84251606125E+01	-1.78554211220E+02	-4.05262489961E+01	1.22010332425E+02	-6.07195998293E+00	4.40996926368E-01
3.03488399138E+05	-2.74498440059E+01	1.43786920677E+02	1.84219954849E+01	-1.77202663938E+02	-4.87024683520E+01	-1.26962320472E+02	-6.04637841845E+00	-6.57505681066E-01
3.03707766039E+05	-2.91426463164E+01	1.15702978949E+02	1.84209383587E+01	-1.77242037805E+02	-3.92470474796E+01	-1.18161405046E+02	-6.08993210625E+00	-9.62528764317E-01
3.03927291503E+05	-1.85527464597E+01	-1.65475515027E+01	1.83162071557E+01	-1.76884198893E+02	-3.64195058878E+01	1.53569715441E+02	-6.15520124994E+00	2.25054666579E-01
3.04146975643E+05	-3.35949889531E+01	1.07882080066E+02	1.83840110648E+01	-1.77419478503E+02	-3.80499787233E+01	1.38919647600E+02	-6.12218858605E+00	1.12977016476E-01
3.04366818575E+05	-2.61420309881E+01	9.12248216341E-01	1.83958642637E+01	-1.77278244453E+02	-3.92991645098E+01	-4.12201749746E+00	-5.93073358460E+00	-2.25588114930E-01
3.04586820414E+05	-2.80955610916E+01	1.14163587367E+02	1.84040088390E+01	-1.77072366046E+02	-3.51977530462E+01	-1.41469847928E+02	-6.18436971682E+00	-9.74413251961E-01
3.04806981274E+05	-9.02671610995E+00	8.83247612469E+00	1.81681408012E+01	-1.77249003355E+02	-4.68418950092E+01	1.75920137441E+01	-5.98927213616E+00	7.01443487890E-02
3.05027301270E+05	-2.78405812641E+01	4.66989644026E+01	1.83757149494E+01	-1.77364444827E+02	-4.38563296869E+01	1.13818467380E+02	-6.06769975518E+00	-7.14367957599E-02
3.05247780517E+05	-1.18228582851E+01	4.67069167490E+01	1.82981128679E+01	-1.77880707653E+02	-3.92386145662E+01	1.36878042945E+02	-6.02485489148E+00	-1.17088202529E-01
3.05468419131E+05	-2.82211681212E+01	1.75755854835E+02	1.84027741283E+01	-1.77127813052E+02	-3.50975338041E+01	8.42419314922E+01	-5.97836837938E+00	6.18530732215E-01
3.05689217226E+05	-2.19694462447E+01	7.80091287311E+01	1.84085961273E+01	-1.77063589654E+02	-3.46629419600E+01	1.63749527307E+02	-6.19625905899E+00	-1.10706219811E-01
3.05910174918E+05	-2.14370510437E+01	1.31386378015E+02	1.84394753237E+01	-1.77370429379E+02	-3.63797599437E+01	8.45472266747E+01	-6.04952457433E+00	8.78516111915E-01
3.06131292322E+05	-1.89243699055E+01	6.11821340011E+01	1.83517517283E+01	-1.77251021106E+02	-3.69596297339E+01	-7.33686809953E+01	-5.98582157621E+00	-1.29310317459E+00
3.06352569554E+05	-1.85753120089E+01	3.88379430403E+01	1.83862713119E+01	-1.77567449614E+02	-2.95834746328E+01	-2.23968665257E+01	-5.69841787737E+00	-8.03916114410E-01
3.06574006730E+05	-1.68310926386E+01	1.02256877234E+02	1.84309122668E+01	-1.77677813916E+02	-5.23425213353E+01	-5.08622886730E+01	-6.02035837440E+00	-5.34970344474E-01
3.06795603964E+05	-2.58772362541E+01	-5.96376902485E+00	1.83640418084E+01	-1.77219874342E+02	-3.96597750258E+01	-7.33437548959E+01	-5.98746526101E+00	-9.90304138498E-01
3.07017361372E+05	-1.86175463728E+01	6.96744605164E+01	1.84020552069E+01	-1.77131274613E+02	-4.30129980446E+01	8.89051716961E+01	-6.00554869849E+00	1.14826465753E-01
3.07239279071E+05	-1.90031234687E+01	7.42928019076E+01	1.83806296010E+01	-1.77414132957E+02	-3.43966048486E+01	-3.64346767674E+01	-5.87231843883E+00	-1.02326865369E+00
3.07461357176E+05	-1.50349136434E+01	1.97914456813E+01	1.83369653492E+01	-1.77466035458E+02	-4.09171487069E+01	1.65694385356E+02	-6.10140589354E+00	-3.59323890913E-01
3.07683595803E+05	-1.83622224968E+01	1.25913329767E+02	1.84816688147E+01	-1.77263284666E+02	-2.92966675557E+01	9.87621410385E+01	-6.15196822986E+00	2.12006432377E+00
3.07905995068E+05	-1.57837893729E+01	4.21231232314E+01	1.83435547283E+01	-1.77726600198E+02	-3.12840622088E+01	2.73718018838E+01	-5.76584761989E+00	9.85630337843E-01
3.08128555087E+05	-1.91228187398E+01	3.78345845806E+00	1.83327963786E+01	-1.77262034674E+02	-3.89936555210E+01	-2.78488816879E+01	-5.93030268425E+00	-4.31286234460E-01
3.08351275976E+05	-1.67933444340E+01	-1.61039583703E+01	1.83563431693E+01	-1.76923938303E+02	-3.19670633719E+01	-4.60080739662E+01	-5.83842327738E+00	-1.01072194254E+00
3.08574157853E+05	-3.02094345003E+01	3.45636635430E+01	1.83866333086E+01	-1.76995751722E+02	-4.33077989399E+01	-7.16279040371E+01	-5.98847087239E+00	-6.65727295182E-01
3.08797200832E+05	-1.99171304663E+01	3.89787423280E+01	1.83499348781E+01	-1.77299340968E+02	-3.59304193511E+01	-1.69846429428E+02	-6.15295951820E+00	-3.29014502759E-01
3.09020405031E+05	-1.67738109740E+01	6.84898015050E+01	1.83831015079E+01	-1.77603981946E+02	-4.03199559781E+01	-1.65714371292E+02	-6.12159815238E+00	-1.90388526161E-01
3.09243770566E+05	-2.84679545878E+01	-1.56948722147E+02	1.84067446758E+01	-1.77206197655E+02	-3.05045520804E+01	1.32074521071E+02	-6.25139406041E+00	1.20187296905E+00
3.09467297553E+05	-2.41468413423E+01	7.61443247785E+01	1.83775982724E+01	-1.77220251938E+02	-2.88768781107E+01	1.22373834323E+02	-6.24607056673E+00	2.02652352756E+00
3.09690986110E+05	-1.14953720627E+01	-1.08472205301E+02	1.85213195357E+01	-1.75869880060E+02	-4.55962140957E+01	3.59846326166E+01	-5.93449765876E+00	-2.49685459329E-01
3.09914836353E+05	-2.36530362414E+01	1.77351995554E+01	1.83764233237E+01	-1.77206721196E+02	-5.28039458380E+01	2.20205647470E+01	-6.00936574324E+00	-1.83384141097E-01
3.10138848399E+05	-1.23232439586E+01	1.63609860440E+01	1.82840832455E+01	-1.77462908168E+02	-5.30731708170E+01	-5.49501113532E+01	-5.98921004941E+00	-3.20939822878E-01
3.10363022365E+05	-2.52463778822E+01	9.58450218663E+01	1.83686732515E+01	-1.77295017617E+02	-3.97076467745E+01	1.07206747462E+02	-6.04529889763E+00	2.39228428479E-01
3.10587358368E+05	-2.49640880699E+01	-1.54763120864E+02	1.84491228379E+01	-1.76976841751E+02	-5.00160761004E+01	-2.45519488545E+01	-5.95252345740E+00	-2.68037313016E-01
3.10811856525E+05	-3.68893515187E+01	1.41709421111E+02	1.84234619988E+01	-1.77362806535E+02	-3.07848553637E+01	-4.48569659443E+01	-5.82537545387E+00	-1.61314389034E+00
3.11036516954E+05	-1.34482639596E+01	3.89010390752E+01	1.83454918654E+01	-1.77672948372E+02	-4.30156235106E+01	-1.47095747190E+02	-6.16971542694E+00	-4.74413650180E-01
3.11261339771E+05	-2.11675584240E+01	-7.91358139873E+01	1.84274779072E+01	-1.76711400123E+02	-4.45704824785E+01	6.19682547758E+01	-5.99671630112E+00	-5.18217378571E-03
3.11486325094E+05	-2.30319658513E+01	-2.47355990923E+00	1.83776874127E+01	-1.77139110949E+02	-4.78973832440E+01	-2.75982333417E+01	-5.98707536170E+00	-8.19782478669E-01
3.11711473040E+05	-3.77619483837E+01	1.17315546946E+02	1.84083455028E+01	-1.77142876652E+02	-5.01228165160E+01	1.46893698658E+02	-6.05844795927E+00	-2.36131027154E-01
3.11936783728E+05	-2.18662595800E+01	-7.00105596975E+00	1.84067491668E+01	-1.77216069091E+02	-3.72094542108E+01	-1.91549621867E+00	-5.97886761981E+00	-2.34436114036E-01
3.12162257274E+05	-2.75260763871E+01	8.35222225809E+00	1.83984004891E+01	-1.77031859891E+02	-3.91015960788E+01	-3.62693399148E+01	-5.94190593588E+00	-7.34946177125E-01
3.12387893797E+05	-2.19771799358E+01	-5.96983300945E+01	1.83916346735E+01	-1.76981444116E+02	-2.83604789799E+01	1.01409628824E+02	-6.05517083864E+00	2.27461172841E+00
3.12613693413E+05	-1.23325063517E+01	1.79431512588E+02	1.85904130914E+01	-1.77266139826E+02	-3.62076902316E+01	-5.89337584884E+01	-5.91707191051E+00	-1.17022680636E+00
3.12839656242E+05	-5.54239897119E+00	3.29389324910E+01	1.81099384979E+01	-1.78447560746E+02	-4.33661054832E+01	1.32467530759E+02	-6.05234333258E+00	3.65343936618E-01
3.13065782401E+05	-2.35697568538E+01	-1.24204609575E+02	1.84329528421E+01	-1.77163712771E+02	-3.63336681750E+01	-1.63420612572E+02	-6.14265234709E+00	-6.19704466411E-01
3.13292072007E+05	-2.00526308035E+01	-9.56182580518E+01	1.84439257805E+01	-1.76913841223E+02	-4.12279735446E+01	1.25960436064E+02	-6.05062937583E+00	1.42058557841E-01
3.13518525180E+05	-1.30392726695E+01	3.63243908399E+00	1.82909488644E+01	-1.77369078447E+02	-4.39699830656E+01	-5.30520568549E+01	-6.00338439022E+00	-5.30383730896E-01
3.13745142038E+05	-1.95804328973E+01	4.14322954979E+01	1.83597996402E+01	-1.77586531201E+02	-3.71070106625E+01	-1.52263529310E+02	-6.09643977485E+00	-6.47937825361E-01
3.13971922698E+05	-1.43251946791E+01	-6.76419936809E+01	1.83898553188E+01	-1.76231132053E+02	-4.06557932172E+01	-1.09196217886E+02	-6.04954492495E+00	-1.27545354247E+00
3.14198867279E+05	-1.41416499730E+01	-1.09100029276E+02	1.84570537475E+01	-1.76459044459E+02	-3.02217598366E+01	1.57945696694E+02	-6.34185859615E+00	5.69699528886E-01
3.14425975900E+05	-1.02128829950E+01	-6.44618128747E+01	1.83359288384E+01	-1.76211419884E+02	-4.42370114147E+01	1.56052057018E+02	-6.06844873649E+00	-4.76192780552E-01
3.14653248680E+05	-1.62418281706E+01	-2.34943901996E+01	1.83030378844E+01	-1.77152225190E+02	-3.65607411264E+01	-1.73223547836E+02	-6.11455806268E+00	-5.81056774566E-01
3.14880685736E+05	-2.27082223385E+01	-9.74921423920E+01	1.83945084165E+01	-1.77009755733E+02	-3.52652846547E+01	-5.19943244293E+01	-5.96699996002E+00	-4.98885052682E-01
3.15108287188E+05	-2.17883888491E+01	-4.06419987665E+01	1.83817711851E+01	-1.77197827068E+02	-3.97676529366E+01	8.42959006122E+01	-6.08086780016E+00	6.32450835715E-01
3.15336053154E+05	-1.99380813047E+01	-9.14018175250E+00	1.83793036824E+01	-1.77497876912E+02	-3.43259496414E+01	-2.24092670646E+01	-5.86039441298E+00	-9.26942422259E-01
3.15563983753E+05	-1.23495075100E+01	7.35209276033E+01	1.83961458858E+01	-1.78231525217E+02	-3.58940633255E+01	-8.67196233537E+01	-6.01164506860E+00	-1.10304675681E+00
3.15792079105E+05	-1.01764155869E+01	-6.69931201861E+01	1.83751618971E+01	-1.75953163638E+02	-4.50430653797E+01	-2.11508388770E+01	-5.98110519669E+00	-1.94108274740E-01
3.16020339328E+05	-1.19337254191E+01	4.47994735254E+01	1.83036104787E+01	-1.78253949521E+02	-5.59953346924E+01	-1.32479125340E+02	-6.02786866296E+00	-4.25574587574E-01
3.16248764542E+05	-2.18621458523E+01	9.00756879067E+00	1.83719455044E+01	-1.77648814324E+02	-3.63393667358E+01	5.73493540143E+01	-5.97292589154E+00	4.99279517316E-01
3.16477354866E+05	-1.64053896947E+01	1.55028204579E+01	1.83286572038E+01	-1.77275348869E+02	-4.07489098371E+01	7.27354519774E+01	-5.98708123092E+00	1.59745505235E-01
3.16706110419E+05	-2.44769682418E+01	-1.02532087907E+01	1.83750427155E+01	-1.77180869981E+02	-4.47124589602E+01	-1.76614495353E+02	-6.04432690271E+00	-6.73306472536E-01
3.16935031321E+05	-3.51199401783E+01	-5.87948257132E+00	1.83932331893E+01	-1.77310587557E+02	-3.93623426313E+01	1.35135225450E+02	-6.14151599303E+00	9.52823149885E-02
3.17164117691E+05	-2.59839100480E+01	1.25067805472E+02	1.84049139051E+01	-1.77441905605E+02	-3.73842728973E+01	1.87522999976E+00	-5.89897353364E+00	-3.49823595111E-02
3.17393369648E+05	-9.02853927016E+00	7.95532521499E+01	1.83529735400E+01	-1.78898422776E+02	-3.68313919235E+01	-6.73868145383E+01	-5.93035163233E+00	-1.09024396933E+00
3.17622787313E+05	-4.74778420230E+00	5.60665095549E+01	1.81759972678E+01	-1.79918095167E+02	-4.01627468303E+01	-1.37624655255E+02	-6.08977130247E+00	-8.04389911258E-01
3.17852370806E+05	-2.01712664462E+01	1.02777295584E+02	1.84106463542E+01	-1.77706020769E+02	-4.01198602365E+01	1.44008816718E+02	-6.15648067299E+00	1.75663679469E-01
3.18082120245E+05	-2.83024647661E+01	1.29370339064E+02	1.84197932897E+01	-1.77678414230E+02	-3.73345750635E+01	-5.01271480626E+01	-5.96263493346E+00	-1.08218329213E+00
3.18312035752E+05	-2.64891724433E+01	-3.48264268216E+01	1.83616590825E+01	-1.77159966144E+02	-4.11543959477E+01	1.27392161399E+02	-6.04136045509E+00	2.27243618660E-01
3.18542117445E+05	-1.85609394204E+01	6.98356743520E+01	1.84014497104E+01	-1.77898123264E+02	-4.04584511623E+01	-4.32524948149E+01	-5.97574430379E+00	-4.88847202599E-01
3.18772365446E+05	-2.07325534689E+01	3.63769061866E+01	1.84081090022E+01	-1.77545508095E+02	-4.71660652927E+01	-1.15981814272E+02	-6.01685526674E+00	-4.01885542826E-01
3.19002779874E+05	-1.31848402617E+01	-1.22115504932E+01	1.82677009482E+01	-1.77030239485E+02	-4.11956114778E+01	1.29536416459E+02	-6.11494890159E+00	3.43703896976E-01
3.19233360850E+05	-9.53542595138E+00	-6.89798051642E+01	1.83231302321E+01	-1.76188566482E+02	-3.96504068604E+01	-1.56365928384E+01	-5.91666199370E+00	-1.76556853423E-01
3.19464108494E+05	-2.54428548825E+01	-5.70692002161E+01	1.84467891405E+01	-1.77214468167E+02	-4.67561651638E+01	-2.15435366646E+01	-5.93705506135E+00	-2.58214601124E-01
3.19695022927E+05	-1.75637317315E+01	6.07280862273E+01	1.83684145859E+01	-1.77828000271E+02	-3.86403530426E+01	4.10607777492E+00	-5.91151393159E+00	-1.05042872109E-01
3.19926104268E+05	-2.27235217009E+01	-1.10804396499E+02	1.84189003573E+01	-1.77381874251E+02	-5.60257603520E+01	-8.37981375702E+01	-6.06586718275E+00	-4.36678995224E-01
3.20157352640E+05	-1.69353232416E+01	8.32998515057E+01	1.83654865161E+01	-1.78004354170E+02	-4.53956735783E+01	1.55049742358E+01	-5.96630516098E+00	-1.91008943626E-01
3.20388768162E+05	-2.71231947190E+01	-5.87435139813E+01	1.83927832492E+01	-1.77295232282E+02	-3.90268398731E+01	-6.99604302376E+01	-5.97533594879E+00	-7.77999020954E-01
3.20620350955E+05	-2.26467518413E+01	2.70250762905E+01	1.83622269155E+01	-1.77506428576E+02	-3.94055252471E+01	-2.78149689817E+01	-5.94758465888E+00	-6.85030486418E-01
3.20852101140E+05	-2.01710725010E+01	-1.32151564559E+02	1.84788511587E+01	-1.77098146088E+02	-3.35238341586E+01	7.99774138356E+01	-6.05460511879E+00	1.24057928236E+00
3.21084018839E+05	-2.03050308456E+01	-8.15566128919E+01	1.84314340192E+01	-1.77075880742E+02	-4.12919068414E+01	-8.77735935605E+01	-5.99295653570E+00	-8.81844168290E-01
3.21316104172E+05	-2.26440478935E+01	1.02793469292E+02	1.83766780568E+01	-1.77764729839E+02	-4.07774387835E+01	-1.42206675094E+02	-6.08420567913E+00	-2.27893257646E-01
3.21548357261E+05	-1.73212661366E+01	2.76319673024E+01	1.83296844484E+01	-1.77692729254E+02	-4.27731222146E+01	1.76906158329E+02	-6.10552815385E+00	-2.56659200448E-01
3.21780778226E+05	-2.11248898299E+01	6.87702231383E+01	1.83647221777E+01	-1.77552645004E+02	-4.17317898076E+01	2.24684119660E+01	-5.91235834039E+00	6.34804256779E-02
3.22013367189E+05	-1.56240470247E+01	-1.46410685721E+01	1.82974013979E+01	-1.77591399984E+02	-4.12420796894E+01	-5.17415177726E+01	-5.92247067025E+00	-6.56712992089E-01
3.22246124272E+05	-1.53450710174E+01	-3.21049574673E+00	1.82995857317E+01	-1.77215065319E+02	-3.20162353374E+01	-6.05636299858E+01	-5.90389608120E+00	-1.89735038826E+00
3.22479049596E+05	-8.21651384602E+00	5.06695169811E+01	1.82303308538E+01	-1.78523381413E+02	-3.75957223519E+01	-1.22226854715E+02	-6.05124104582E+00	-1.01514249787E+00
3.22712143282E+05	-1.50107392275E+01	-3.14668188587E+01	1.83359180919E+01	-1.77233692138E+02	-4.08994703330E+01	-2.10212665729E+01	-5.99531551483E+00	-4.93273367215E-01
3.22945405453E+05	-1.91272637866E+01	2.51110796312E+01	1.83428349314E+01	-1.77649184089E+02	-4.99650800235E+01	-3.12913697038E+01	-5.97332630546E+00	-2.25558767057E-01
3.23178836230E+05	-1.50028100407E+01	5.88417095612E+01	1.83604679692E+01	-1.78213146007E+02	-3.77561730437E+01	-3.88097164456E+01	-5.96685743444E+00	-8.35114808351E-01
3.23412435735E+05	-1.40656803377E+01	8.66550871523E+01	1.83976132214E+01	-1.78211266769E+02	-3.43461229243E+01	2.16602659386E+01	-5.89274862145E+00	1.05770909515E-01
3.23646204090E+05	-2.09010409511E+01	9.42990911405E+00	1.83419478591E+01	-1.77751423367E+02	-4.28638820952E+01	-1.23313719424E+02	-6.02403563197E+00	-5.23851203318E-01
3.23880141417E+05	-1.32324792350E+01	1.56832874733E+01	1.83183430054E+01	-1.77861514666E+02	-4.85867009976E+01	4.46607269677E+01	-6.01151254874E+00	-1.95939515430E-01
3.24114247838E+05	-8.68481678075E+00	1.66181648123E+02	1.86873298952E+01	-1.77989363392E+02	-3.52702069964E+01	-1.64027239107E+02	-6.18814540861E+00	-4.90905438627E-01
3.24348523475E+05	-1.59249006372E+01	2.49583202604E+00	1.83224274707E+01	-1.77484884763E+02	-4.63294455511E+01	1.10421003256E+02	-6.06683349075E+00	-2.59588855032E-01
3.24582968451E+05	-2.58667671184E+01	-8.99671135510E+01	1.84002691531E+01	-1.77762815163E+02	-3.48376719935E+01	-4.22481711990E+01	-5.92916217585E+00	-1.17316372910E+00
3.24817582888E+05	-2.67430648360E+01	-8.96653131348E+01	1.84338087346E+01	-1.77367841303E+02	-4.28861669423E+01	-5.21618902983E+01	-5.98492234234E+00	-6.19564569544E-01
3.25052366909E+05	-1.51888292200E+01	6.52375315112E+01	1.83976153751E+01	-1.78286101741E+02	-3.94549906176E+01	1.48930649126E+02	-6.10589809023E+00	-2.38783516238E-01
3.25287320635E+05	-1.93215525647E+01	-3.25981740123E+01	1.83928381293E+01	-1.77349867486E+02	-4.33951309695E+01	1.51298634035E+02	-6.05855697961E+00	-1.18545773706E-01
3.25522444191E+05	-1.49799200116E+01	1.75151231701E+01	1.83080869513E+01	-1.77916495052E+02	-3.35126441757E+01	-1.86178877781E+01	-5.82106559245E+00	-9.35795207427E-01
3.25757737698E+05	-2.09009271313E+01	9.28959534309E+01	1.84010652827E+01	-1.78105929127E+02	-3.38918345962E+01	8.97471212833E+01	-6.00760608873E+00	1.76826135426E+00
3.25993201280E+05	-1.07912170082E+01	9.65625693696E+00	1.82500232973E+01	-1.78088673238E+02	-4.05769803958E+01	-6.52525336559E+01	-6.05348138574E+00	-8.93815989003E-01
3.26228835058E+05	-3.96994299624E+01	4.06943848600E+01	1.84269592333E+01	-1.77995284589E+02	-4.06314401012E+01	-5.90689393591E+01	-6.02205490267E+00	-7.95266568114E-01
