# Hz S DB R 50
! CMT, M5065, 19127446, 24.2.4/2
! Date: 11/1/2024 3:33:38 PM
! Data: Format (Calibration Info)
! Freq	S11:dB/Ang(F2)	S21:dB/Ang(F2)	S12:dB/Ang(F2)	S22:dB/Ang(F2)
3.00000000000E+05	-2.89594134222E+01	8.93581730473E+01	1.13924926287E+01	-1.77772657966E+02	-3.55682746593E+01	-5.71426103916E+01	-6.01205484320E+00	-6.69121506300E-01
3.00216845423E+05	-1.30852239038E+01	-4.23304338891E+01	1.13128723134E+01	-1.76806548269E+02	-3.35522614160E+01	-1.33311588309E+02	-6.11374111928E+00	-9.10865620581E-01
3.00433847586E+05	-1.79785893256E+01	1.74892759047E+01	1.13017866710E+01	-1.77635784460E+02	-3.99788407560E+01	-1.69251051553E+02	-6.06210681476E+00	-3.54915365935E-01
3.00651006602E+05	-1.88904000633E+01	-6.99493006644E+01	1.13975083827E+01	-1.77060474225E+02	-4.36673403930E+01	-1.31022628434E+02	-6.07780110378E+00	-3.26115335003E-01
3.00868322584E+05	-1.66804351496E+01	2.33542480431E+01	1.13173737780E+01	-1.77659477250E+02	-4.13450051407E+01	1.62716420768E+02	-6.08766520954E+00	-3.12073440323E-01
3.01085795647E+05	-2.34845220997E+01	-5.12024731090E+01	1.13614052791E+01	-1.77468298421E+02	-4.09472624342E+01	4.26678167981E+01	-5.97279629645E+00	-2.03135279092E-01
3.01303425902E+05	-2.21835167292E+01	-1.49825192266E+02	1.14156769427E+01	-1.77429294834E+02	-4.42195730859E+01	-8.80458786547E+01	-6.07502405278E+00	-4.18720523851E-01
3.01521213465E+05	-1.54950580682E+01	1.64612130202E+02	1.14356335683E+01	-1.77760712510E+02	-4.79262725653E+01	-7.95397473599E+01	-6.06123010036E+00	-2.87401989847E-01
3.01739158449E+05	-1.47883723760E+01	3.69171765324E+01	1.13318550240E+01	-1.77873743816E+02	-3.56321024863E+01	-1.48174704235E+02	-6.10707009311E+00	-4.22835612406E-01
3.01957260967E+05	-1.67078243201E+01	-1.77962835989E+01	1.13077787863E+01	-1.77342670550E+02	-3.69288803657E+01	-1.57201781505E+02	-6.06874306779E+00	-9.65052272518E-02
3.02175521134E+05	-2.13005586530E+01	2.43749669573E+01	1.13845366498E+01	-1.77697967844E+02	-3.46107073944E+01	-1.38744334012E+02	-6.07664455852E+00	-6.64537486816E-01
3.02393939063E+05	-1.33861460600E+01	8.05720580721E+01	1.13948572942E+01	-1.78466691476E+02	-3.79008902444E+01	1.24625692203E+02	-6.05392614150E+00	-1.20587266918E-01
3.02612514869E+05	-1.58755911604E+01	1.51456826889E+02	1.14856443862E+01	-1.77957018504E+02	-3.35384471105E+01	9.76562810754E+01	-6.05397979482E+00	2.65652789146E-01
3.02831248665E+05	-1.82907007471E+01	1.02585205236E+01	1.12986978900E+01	-1.77660852767E+02	-4.82575838925E+01	-6.95115238665E+01	-6.02935089002E+00	-2.89547010505E-01
3.03050140565E+05	-3.35366615555E+01	-1.45192375312E+02	1.14316569672E+01	-1.77561241331E+02	-4.33881186848E+01	-1.28665603848E+02	-6.02984398051E+00	-3.01117586440E-01
3.03269190685E+05	-8.93626879352E+00	1.25067679830E+02	1.15806212727E+01	-1.79195507968E+02	-3.71283063147E+01	2.28156501869E+01	-5.98661142823E+00	-7.00280797311E-02
3.03488399138E+05	-1.71238042847E+01	1.33696926256E+02	1.14170388083E+01	-1.78247166771E+02	-3.26093152937E+01	5.43160550892E+01	-5.94475341365E+00	3.66956438216E-01
3.03707766039E+05	-2.22374583834E+01	-5.96136129255E+01	1.13711747467E+01	-1.77247127931E+02	-4.18962591102E+01	5.82323241432E+01	-6.05724423885E+00	-1.16471745610E-01
3.03927291503E+05	-2.17424467550E+01	8.40228940851E+01	1.13766753645E+01	-1.77963761136E+02	-3.64461911544E+01	-6.87349276264E+01	-6.03890727278E+00	-5.66170454073E-01
3.04146975643E+05	-1.73478945085E+01	2.75438926280E+01	1.12528357276E+01	-1.78032423316E+02	-4.29851109270E+01	6.21162584684E+01	-6.01082746843E+00	3.58423434405E-02
3.04366818575E+05	-2.08752741237E+01	2.72748738620E+01	1.13620492840E+01	-1.77714843300E+02	-5.13369667370E+01	1.34607217577E+02	-6.05266738277E+00	-2.22147379374E-01
3.04586820414E+05	-3.11468604947E+01	-8.84735170141E+01	1.13619907755E+01	-1.77589446724E+02	-3.63936696010E+01	-4.34623265586E+01	-5.98168534657E+00	-5.58860729888E-01
3.04806981274E+05	-1.44273034482E+01	7.93046282286E+01	1.13995195796E+01	-1.78269807022E+02	-3.17332595078E+01	1.09092299908E+02	-6.10114569647E+00	5.48596576399E-01
3.05027301270E+05	-1.53048544073E+01	4.58747534394E+01	1.13754307060E+01	-1.77947676141E+02	-4.44058031762E+01	-6.95041608765E+00	-6.00151359771E+00	6.34378023848E-02
3.05247780517E+05	-2.35368906716E+01	2.52645690915E+01	1.13455027091E+01	-1.77608001937E+02	-4.15887541697E+01	-7.24215874830E+01	-6.02059543912E+00	-6.39627097983E-02
3.05468419131E+05	-1.95489346442E+01	6.22543772930E+01	1.13906251035E+01	-1.78072931904E+02	-3.82956423587E+01	-5.53312041813E+01	-6.00148774168E+00	-6.47679355785E-01
3.05689217226E+05	-1.92787999240E+01	4.88866229717E+00	1.12974038147E+01	-1.77597210792E+02	-3.29842555166E+01	-1.03194447494E+02	-6.02383172503E+00	-8.14833711786E-01
3.05910174918E+05	-2.40450161200E+01	6.80662407119E+01	1.13640544334E+01	-1.78027087303E+02	-3.58637615797E+01	-9.01470380944E+01	-6.03948968333E+00	-8.87775122004E-01
3.06131292322E+05	-2.21018587643E+01	2.99899285480E+01	1.12901330292E+01	-1.77885156007E+02	-4.23276296813E+01	-5.42235543336E-01	-6.01581849957E+00	-2.25452744184E-01
3.06352569554E+05	-1.19923696993E+01	-3.27823103291E+00	1.11758338899E+01	-1.77602519979E+02	-3.32077432054E+01	-5.00956509126E+00	-5.89698977544E+00	-2.75930866107E-01
3.06574006730E+05	-1.80009387422E+01	5.23370415622E+01	1.13033765263E+01	-1.77889925903E+02	-3.67337673777E+01	1.10814758858E+02	-6.05354990852E+00	3.39002079016E-01
3.06795603964E+05	-2.47786084044E+01	-4.65366260325E+01	1.13647916999E+01	-1.77498742791E+02	-4.30435618164E+01	-4.09834152346E+01	-5.97998244429E+00	-4.09329501534E-01
3.07017361372E+05	-1.90771451484E+01	6.03425801236E+01	1.12759420520E+01	-1.78165514921E+02	-4.16344556568E+01	1.59117122538E+02	-6.05064402591E+00	-2.42006418750E-01
3.07239279071E+05	-2.27970627623E+01	-1.16989752996E+02	1.13939358734E+01	-1.77259939137E+02	-3.70875785613E+01	-4.03803709505E+01	-5.99276633264E+00	-6.33462397193E-01
3.07461357176E+05	-1.69535923598E+01	1.29110355679E+02	1.14116978296E+01	-1.78267798598E+02	-3.32028973268E+01	5.67537559940E+01	-5.98487855786E+00	1.49460974628E-01
3.07683595803E+05	-2.63822998024E+01	-1.10768134566E+02	1.14137056226E+01	-1.77527104769E+02	-3.90504288481E+01	1.57554250614E+02	-6.08070539262E+00	-1.24124653716E-01
3.07905995068E+05	-8.79889792123E+00	2.85456820929E+01	1.11890384073E+01	-1.78367552049E+02	-3.31066612832E+01	-1.46454410424E+02	-6.13612421494E+00	-8.08541518504E-01
3.08128555087E+05	-1.68724708538E+01	1.17522460004E+01	1.13010858723E+01	-1.77524849737E+02	-3.34156422135E+01	5.79369650772E+01	-5.96457930539E+00	7.02492344530E-01
3.08351275976E+05	-1.79199976543E+01	-3.88116569964E+01	1.13102130844E+01	-1.77228366266E+02	-4.57994702443E+01	1.12169507073E+02	-6.02368995558E+00	-3.47289773809E-01
3.08574157853E+05	-1.93298150674E+01	1.78244920390E+01	1.12823818601E+01	-1.77906730877E+02	-4.37067898615E+01	2.35404142891E+01	-6.02349476855E+00	-4.63266723516E-01
3.08797200832E+05	-2.43890961766E+01	3.49642083809E+01	1.13783215157E+01	-1.77584710414E+02	-4.28810672568E+01	-5.47569820099E+01	-6.06929548835E+00	-3.03679675520E-01
3.09020405031E+05	-2.43053518625E+01	-1.78791798222E+02	1.14227860032E+01	-1.77654690180E+02	-3.79809130996E+01	6.50361107276E+01	-6.01826526941E+00	9.06513814674E-02
3.09243770566E+05	-1.95746385825E+01	4.24915823745E+01	1.13281177275E+01	-1.77909995266E+02	-3.71191699902E+01	1.30677117664E+00	-5.97746635748E+00	1.21998548280E-01
3.09467297553E+05	-1.17021550288E+01	2.46655793266E+01	1.11897784201E+01	-1.78265349955E+02	-4.27282467025E+01	-1.70551794042E+02	-6.07830575105E+00	-1.95957691801E-01
3.09690986110E+05	-1.90053099356E+01	1.04144566680E+02	1.14586350403E+01	-1.78338441821E+02	-2.61479339988E+01	6.18297299112E+01	-5.88883867487E+00	1.38138688722E+00
3.09914836353E+05	-2.25046151108E+01	-1.09781751677E+01	1.13657115234E+01	-1.77782817398E+02	-3.98917459574E+01	-7.37811832691E+01	-6.02783746224E+00	-3.39893466848E-01
3.10138848399E+05	-2.63532118637E+01	2.01500707820E+01	1.13394490675E+01	-1.77942916852E+02	-3.71049903127E+01	-7.87201144757E+01	-6.02764702761E+00	-4.84513199781E-01
3.10363022365E+05	-2.05328717021E+01	-1.95027156032E+01	1.12901320942E+01	-1.77692304205E+02	-4.53851009431E+01	-6.87302673844E+01	-6.02255848218E+00	-1.12155029733E-01
3.10587358368E+05	-1.60791327612E+01	7.71636694313E+01	1.13235341509E+01	-1.78319233059E+02	-3.50697273094E+01	6.85676936953E+01	-5.97932445996E+00	-2.00787427169E-01
3.10811856525E+05	-2.40647154981E+01	-7.29183406132E+00	1.13642797170E+01	-1.77553924540E+02	-5.48897754541E+01	4.03819226088E+01	-6.10285375141E+00	-8.64181920259E-02
3.11036516954E+05	-1.00767978020E+01	-1.57051558856E+02	1.16133733607E+01	-1.77067052214E+02	-3.03121013403E+01	-2.95961758035E+00	-5.85951998743E+00	-2.89665814796E-01
3.11261339771E+05	-1.79418360353E+01	1.28487561977E+01	1.12577937113E+01	-1.77879877922E+02	-2.85955724737E+01	1.14761450429E+02	-6.16921685787E+00	8.39908773243E-01
3.11486325094E+05	-2.22558099003E+01	8.37239822169E+01	1.14483708188E+01	-1.78019461835E+02	-5.05253169272E+01	-1.45573346382E+02	-6.04276556708E+00	-1.99628620832E-01
3.11711473040E+05	-1.86236618069E+01	1.34087446786E+02	1.13372867286E+01	-1.78029147518E+02	-3.99186246353E+01	-9.22091046335E+01	-6.04250629267E+00	-1.52520200702E-01
3.11936783728E+05	-1.59657897365E+01	2.55539455032E+01	1.13290087024E+01	-1.78213424009E+02	-4.42090481980E+01	-1.76218122377E+02	-6.07338531247E+00	1.11845709251E-01
3.12162257274E+05	-2.01062119540E+01	2.52375535077E+01	1.13579065702E+01	-1.77760224909E+02	-4.41450731950E+01	-1.61571803912E+02	-6.07334319135E+00	-2.81799120363E-01
3.12387893797E+05	-2.32894027736E+01	-2.32621382988E+01	1.13488197195E+01	-1.77414127782E+02	-4.11548600802E+01	-1.26463553787E+00	-6.02618847435E+00	2.28898865646E-02
3.12613693413E+05	-1.03994074342E+01	5.51070651700E+01	1.12396744511E+01	-1.78950172914E+02	-2.91514834763E+01	-1.24911283322E+02	-6.10642500128E+00	-9.84849353097E-01
3.12839656242E+05	-2.04680725622E+01	4.82332771194E+01	1.13666055620E+01	-1.77916883171E+02	-3.72867324923E+01	-6.43903201184E+01	-6.04422503129E+00	-5.25516175126E-01
3.13065782401E+05	-3.44976510880E+01	1.21670398225E+02	1.14112276784E+01	-1.77855775368E+02	-4.59424525343E+01	-1.13411625060E+02	-6.06907157738E+00	-2.42507890754E-01
3.13292072007E+05	-2.00890440130E+01	-3.08228109253E+01	1.13428305176E+01	-1.77626927301E+02	-3.90059503198E+01	-6.52223107015E+01	-5.99727025846E+00	-5.36177407459E-01
3.13518525180E+05	-2.15786861611E+01	9.22236959972E+01	1.14140445450E+01	-1.78273417254E+02	-3.83482812848E+01	-1.14634155059E+01	-6.05785639214E+00	-5.28305090353E-01
3.13745142038E+05	-2.37422272831E+01	-4.15220360914E+01	1.13580641348E+01	-1.77790351923E+02	-4.78927970303E+01	-1.49400645362E+02	-6.07290895384E+00	-4.77278773915E-01
3.13971922698E+05	-2.45938881051E+01	-2.73951483675E+01	1.13727754091E+01	-1.77787777406E+02	-3.93112844825E+01	-1.26187199973E+02	-6.09921773138E+00	-7.53056594242E-01
3.14198867279E+05	-1.30844117701E+01	-5.38418479049E+01	1.12894796766E+01	-1.76693237147E+02	-3.42234226421E+01	7.81789547803E+00	-5.92796779882E+00	-2.85155219196E-01
3.14425975900E+05	-1.94487827708E+01	1.26835614253E+02	1.14106713024E+01	-1.77932480737E+02	-4.02414030223E+01	3.14212917092E+01	-6.05609991435E+00	-4.22663554237E-02
3.14653248680E+05	-2.49416891243E+01	-3.36175999000E+01	1.13637574103E+01	-1.77635797787E+02	-4.42486674241E+01	-8.12947366043E+01	-6.00009368050E+00	-6.48496805331E-01
3.14880685736E+05	-2.05143737769E+01	5.51772344845E+00	1.13408420596E+01	-1.77938088298E+02	-4.53241031917E+01	1.61920888492E+02	-6.01040714594E+00	-4.06495440022E-01
3.15108287188E+05	-2.40077124418E+01	1.43751494611E+02	1.14031919815E+01	-1.77967257615E+02	-4.57589263765E+01	-7.96542402810E+01	-5.99890855610E+00	-2.67437950671E-01
3.15336053154E+05	-1.91958186060E+01	2.87089219980E+01	1.13359789696E+01	-1.78006290388E+02	-3.34059307358E+01	-1.09603321931E+02	-6.04655703535E+00	-6.35509665352E-01
3.15563983753E+05	-3.71657788418E+01	6.57895730021E+01	1.13537588256E+01	-1.77802747379E+02	-4.30846003522E+01	8.11024657066E+00	-6.04793280238E+00	-1.59422196562E-01
3.15792079105E+05	-1.28945392643E+01	-3.09494709933E+01	1.13854142487E+01	-1.77156347772E+02	-2.86882520709E+01	1.33430329725E+01	-5.88751389559E+00	-1.44121099353E-01
3.16020339328E+05	-3.30213368661E+01	1.29746410561E+02	1.14395940370E+01	-1.78086424905E+02	-2.70205203056E+01	-9.87767872474E+01	-6.07380380183E+00	-1.88027642155E+00
3.16248764542E+05	-1.50680260177E+01	-8.61472580924E+01	1.13922342014E+01	-1.77154368235E+02	-4.75700862776E+01	1.27618290451E+02	-6.03531490220E+00	-3.18711123792E-01
3.16477354866E+05	-3.00678944568E+01	7.20666902036E+01	1.14160072700E+01	-1.77764397092E+02	-3.99210579077E+01	1.19515136958E+02	-6.07462138417E+00	-2.10879771882E-02
3.16706110419E+05	-2.04689849427E+01	-5.30781532321E+01	1.13247658274E+01	-1.77363322922E+02	-4.32943901268E+01	-2.75546539036E+01	-5.99834711541E+00	-4.17559045300E-01
3.16935031321E+05	-2.60314424663E+01	-1.70782992063E+02	1.14506373743E+01	-1.77544597331E+02	-5.75133358204E+01	3.51047561723E+01	-6.00571201246E+00	-3.00604145928E-01
3.17164117691E+05	-2.19487783648E+01	8.81283455131E+01	1.13418478314E+01	-1.78244434443E+02	-3.77453674022E+01	-8.96923705101E+01	-6.03595113303E+00	-5.44757508329E-01
3.17393369648E+05	-2.12353591123E+01	-8.70010875212E+00	1.13333387168E+01	-1.77726116102E+02	-3.12456194786E+01	-1.53050873300E+01	-5.88140951921E+00	-3.26955436582E-01
3.17622787313E+05	-2.56115860900E+01	1.44474052150E+02	1.14548202961E+01	-1.77504366350E+02	-2.89033487212E+01	6.98852175022E+01	-5.98347782608E+00	9.07604902777E-01
3.17852370806E+05	-1.51106007044E+01	-2.45998558968E+01	1.13491989030E+01	-1.77452747351E+02	-4.18073279476E+01	4.44904420549E+01	-5.95764423202E+00	-6.47796631586E-02
3.18082120245E+05	-1.47806754195E+01	3.55311735228E+01	1.13355501902E+01	-1.78311361086E+02	-3.95148800201E+01	7.97018110947E+01	-5.98144029241E+00	-2.15505157221E-01
3.18312035752E+05	-1.72072638822E+01	-1.21361145600E+01	1.13731675362E+01	-1.77596020910E+02	-3.85234265012E+01	-7.28521102446E+01	-5.99817965919E+00	-4.11084515016E-01
3.18542117445E+05	-1.54621544198E+01	5.52955596588E+01	1.13364706591E+01	-1.78708553905E+02	-3.72313848806E+01	9.15860169559E+01	-6.01839778057E+00	2.22425893908E-01
3.18772365446E+05	-2.20104921703E+01	2.40809950181E+01	1.13652680062E+01	-1.77650777049E+02	-4.52820415850E+01	-1.09211905580E+02	-6.06215922689E+00	-1.40494231006E-01
3.19002779874E+05	-1.21355717545E+01	1.07488982205E+02	1.14637110966E+01	-1.78668224644E+02	-3.63470890715E+01	-8.05937072018E+01	-6.07403982645E+00	-6.90551616070E-01
3.19233360850E+05	-1.43255823607E+01	-1.77983328758E+02	1.15934635676E+01	-1.77535561010E+02	-5.05032348668E+01	-4.35169196091E+01	-6.04553474832E+00	-1.11235623459E-01
3.19464108494E+05	-1.38225047704E+01	-3.16524836532E+01	1.12621046161E+01	-1.77388856611E+02	-3.66355871755E+01	2.48606741444E+01	-6.01051015075E+00	-1.44113627908E-01
3.19695022927E+05	-1.56090897680E+01	-4.61504276458E+01	1.13402499162E+01	-1.77415571206E+02	-3.57438669422E+01	1.62648292385E+02	-6.07322760247E+00	-8.48607847392E-02
3.19926104268E+05	-2.34173495151E+01	-1.51190795005E+02	1.14326688283E+01	-1.77832274409E+02	-3.86954029923E+01	7.40510500067E+00	-5.98208579429E+00	-1.07760077039E-01
3.20157352640E+05	-2.97889992251E+01	-1.70663489875E+02	1.14339770979E+01	-1.77922274917E+02	-3.84105285128E+01	-8.94709042353E+01	-6.03112970903E+00	-6.60064213566E-01
3.20388768162E+05	-2.21435665921E+01	6.26754976015E+01	1.13747882351E+01	-1.78464521320E+02	-3.50099026785E+01	7.59805832175E+01	-6.03110057233E+00	5.69391314483E-03
3.20620350955E+05	-1.67109803995E+01	1.50699240296E+02	1.14538881283E+01	-1.78626451154E+02	-3.89496997912E+01	6.80402163610E+01	-6.02223833052E+00	-1.11801815149E-01
3.20852101140E+05	-2.91532695531E+01	-7.70286505702E+01	1.14018740605E+01	-1.77711746599E+02	-3.59848860008E+01	7.21551509901E+01	-6.01355250458E+00	1.75341490683E-01
3.21084018839E+05	-1.38397425678E+01	-1.13499718760E+01	1.12529460857E+01	-1.77630425026E+02	-3.88906690993E+01	9.98657189704E+01	-6.03772753961E+00	4.34787452188E-01
3.21316104172E+05	-2.18723953385E+01	8.71313884779E+01	1.13948036439E+01	-1.77889550940E+02	-4.36095935834E+01	-1.02389707727E+02	-6.07168399705E+00	-5.16292216495E-01
3.21548357261E+05	-1.90590456697E+01	-1.64704811701E+01	1.12694192297E+01	-1.77826284252E+02	-3.97401468940E+01	-7.69991322705E+01	-6.02995894038E+00	-4.34082176082E-01
3.21780778226E+05	-1.85154992645E+01	1.01117544829E+02	1.13771950395E+01	-1.78229519006E+02	-3.53338343854E+01	1.46491920822E+02	-6.11514758182E+00	-5.79446835734E-02
3.22013367189E+05	-2.74569901080E+01	6.53036298563E+01	1.13733818724E+01	-1.78149305356E+02	-3.71338045960E+01	-2.68865027620E+01	-5.93922163306E+00	-2.74771612671E-01
3.22246124272E+05	-1.28292048073E+01	6.10290350376E+01	1.13416789749E+01	-1.78771224408E+02	-3.96406172305E+01	-7.35937565168E+01	-6.02253064843E+00	-6.19709050369E-01
3.22479049596E+05	-1.43913581331E+01	1.16547022778E+02	1.14392290629E+01	-1.78826957629E+02	-3.64548357425E+01	-1.48665038863E+02	-6.07714437212E+00	-6.70418460922E-01
3.22712143282E+05	-2.02401841819E+01	1.09698013135E+02	1.13858363201E+01	-1.78189698227E+02	-3.68660994955E+01	-4.61679342629E+01	-6.02126237363E+00	-7.30287932007E-01
3.22945405453E+05	-1.71645590591E+01	-3.19947890361E+01	1.13250016682E+01	-1.77399022512E+02	-4.75618868305E+01	-7.42551367640E+01	-6.03744195241E+00	-2.21614091829E-01
3.23178836230E+05	-2.22012694655E+01	4.04673424117E+01	1.13506787174E+01	-1.77836781995E+02	-3.95525574282E+01	-9.56823779805E+01	-6.09799393094E+00	-4.97943892069E-01
3.23412435735E+05	-1.73047615721E+01	6.30148085894E+01	1.13273160074E+01	-1.78559048573E+02	-4.07928741518E+01	-4.55556838989E+01	-6.00729318835E+00	-3.97310894126E-01
3.23646204090E+05	-2.98409993583E+01	7.76662570434E+00	1.13842683127E+01	-1.77760166332E+02	-3.94283819145E+01	2.23073098534E+01	-5.99237871854E+00	-2.11633763944E-01
3.23880141417E+05	-1.41405216886E+01	6.03084192169E+01	1.13238455708E+01	-1.78492473016E+02	-4.07844478716E+01	-1.07958162161E+02	-6.08290551655E+00	-3.18849820858E-01
3.24114247838E+05	-9.62814507395E+00	1.11290242212E+02	1.14699706212E+01	-1.79623511405E+02	-3.27228577254E+01	5.47383654511E+01	-6.01448184881E+00	5.41557821341E-01
3.24348523475E+05	-3.53390748471E+01	-1.23627411227E+02	1.13351675213E+01	-1.78102892489E+02	-4.04429489710E+01	-3.49003721628E+01	-6.01554642038E+00	-7.10585355172E-01
3.24582968451E+05	-1.44953654327E+01	4.60065684384E+01	1.12773402412E+01	-1.78516634043E+02	-3.36384322457E+01	-1.28980872841E+02	-6.10641316548E+00	-7.15899206844E-01
3.24817582888E+05	-1.63267935628E+01	-9.54098578427E+00	1.13045883690E+01	-1.77709985043E+02	-4.19434133762E+01	1.15955236355E+02	-6.10449790090E+00	-3.29542192195E-01
3.25052366909E+05	-1.81291775692E+01	1.12968590885E+01	1.12678808774E+01	-1.78357367227E+02	-3.53721533571E+01	-1.34691792627E+02	-6.05586734841E+00	-5.25909281884E-01
3.25287320635E+05	-1.15163760304E+01	4.24047290303E+01	1.12851059389E+01	-1.78870026494E+02	-3.77527282440E+01	1.13138678798E+02	-6.03139711561E+00	5.96897589898E-02
3.25522444191E+05	-1.38162658137E+01	6.75278128488E+01	1.13201418300E+01	-1.79159933806E+02	-4.85676270315E+01	3.27345225141E+01	-6.02054462525E+00	-7.85282020109E-02
3.25757737698E+05	-1.04514991426E+01	-2.43770641927E+01	1.12132621062E+01	-1.77457108326E+02	-3.12040312722E+01	-1.06127076912E+02	-6.09659839304E+00	-1.14518321844E+00
3.25993201280E+05	-2.45510513528E+01	1.14357690589E+02	1.14657070898E+01	-1.77965021958E+02	-3.85354852428E+01	-8.00263950417E+01	-6.03393501607E+00	-5.94769771630E-01
3.26228835058E+05	-1.61471738872E+01	1.71790872717E+01	1.13035343856E+01	-1.78073542250E+02	-3.56865321964E+01	-6.68598897946E+01	-5.96864290862E+00	-4.54938932317E-01
