# Hz S DB R 50
! CMT, M5065, 19127446, 24.2.4/2
! Date: 11/1/2024 4:56:18 PM
! Data: Format (Calibration Info)
! Freq	S11:dB/Ang(F2)	S21:dB/Ang(F2)	S12:dB/Ang(F2)	S22:dB/Ang(F2)
3.00000000000E+05	-2.41396451646E+01	-5.15018212678E+01	4.37192515582E+00	-1.77597558598E+02	-3.10146333794E+01	-1.18154942117E+02	-5.92189153658E+00	-5.27995746859E-01
3.00216845423E+05	-1.69325796993E+01	9.40424119016E+01	4.30215441343E+00	-1.78332829458E+02	-3.89622691530E+01	3.97052610711E+01	-5.82807356798E+00	5.88352153808E-02
3.00433847586E+05	-1.66216213092E+01	-6.82218595722E+01	4.39025045226E+00	-1.77210878264E+02	-4.02767306165E+01	-1.49760603303E+02	-5.91076683640E+00	-3.12635217856E-01
3.00651006602E+05	-2.21759434440E+01	6.29865230509E+01	4.34407554090E+00	-1.77934644529E+02	-5.60952404049E+01	1.29220970078E+02	-5.88883956757E+00	1.48046581919E-01
3.00868322584E+05	-1.14853718397E+01	-1.77039552998E+02	4.61825501997E+00	-1.78021531336E+02	-4.33370057247E+01	-9.05584263942E+01	-5.88043347886E+00	-2.58576711993E-01
3.01085795647E+05	-1.74632330413E+01	7.29608557274E+01	4.37970815484E+00	-1.78234606570E+02	-5.22675305667E+01	-7.29991304194E+00	-5.87021705325E+00	-1.21330718708E-01
3.01303425902E+05	-2.23859152663E+01	-2.52599859398E+01	4.31245809535E+00	-1.78162337852E+02	-3.40115298449E+01	-9.84280657959E+00	-5.82114105176E+00	-3.18141350698E-01
3.01521213465E+05	-2.14863546943E+01	1.67561380508E+02	4.44373910348E+00	-1.77235132626E+02	-3.28405994339E+01	-1.21584893552E+02	-5.90321836364E+00	-4.58371028546E-01
3.01739158449E+05	-3.87727141647E+01	-9.06345956306E+01	4.47129524503E+00	-1.77765977169E+02	-3.77028458962E+01	-1.58974235884E+02	-5.91257714726E+00	-2.53082545222E-01
3.01957260967E+05	-1.93356383312E+01	-1.11278313127E+02	4.39992702030E+00	-1.77181526345E+02	-5.51549017158E+01	-4.86815070160E+01	-5.85466499790E+00	-7.46189724845E-01
3.02175521134E+05	-2.29240820061E+01	-1.39870458092E+02	4.51144666303E+00	-1.77381875827E+02	-4.47750614663E+01	-1.18110114240E+02	-5.90247558002E+00	-2.70442194698E-01
3.02393939063E+05	-1.28358471864E+01	-4.70690891012E+01	4.29643772799E+00	-1.77093398296E+02	-3.55078533330E+01	1.06345991688E+02	-5.87273223469E+00	-7.78311009126E-02
3.02612514869E+05	-1.26070404328E+01	-2.61653594634E+01	4.27903570263E+00	-1.76731424266E+02	-3.50493824432E+01	2.70471641635E+01	-5.84254070272E+00	9.70939143779E-02
3.02831248665E+05	-1.93717891733E+01	1.10186619895E+02	4.38562901874E+00	-1.77919658470E+02	-4.44291842072E+01	-9.96955826242E+01	-5.88029712328E+00	-1.67005028288E-01
3.03050140565E+05	-1.71293711162E+01	9.52362228795E+01	4.40149193077E+00	-1.78542426671E+02	-3.02325028447E+01	-8.07176733621E+01	-5.90959982668E+00	-6.22339855814E-01
3.03269190685E+05	-1.75927729063E+01	6.33380453269E+01	4.36191299647E+00	-1.78455658677E+02	-3.05150277261E+01	-5.96650608785E+00	-5.81597727995E+00	1.52088199780E-01
3.03488399138E+05	-2.04206272829E+01	5.50409433286E+01	4.26246930934E+00	-1.78126052894E+02	-3.41791770002E+01	1.79667815376E+02	-5.91859510941E+00	-3.23090932617E-01
3.03707766039E+05	-2.02392044977E+01	3.92909089890E+01	4.31522166754E+00	-1.77378098604E+02	-3.79934657519E+01	9.37055912518E+01	-5.87500408230E+00	-3.46311772857E-02
3.03927291503E+05	-1.92861767222E+01	4.69198937861E+01	4.31403262811E+00	-1.77785158297E+02	-4.38957821287E+01	5.31842955276E+01	-5.86276529172E+00	-1.42629402562E-01
3.04146975643E+05	-1.35764833525E+01	1.77673635164E+02	4.57417273922E+00	-1.77694421849E+02	-3.79086530425E+01	-7.86611561536E+01	-5.90474342853E+00	-3.37978244102E-01
3.04366818575E+05	-2.58013597391E+01	1.16782887864E+02	4.35683619049E+00	-1.77628193978E+02	-3.85493007883E+01	5.96216597469E-01	-5.91540747887E+00	-2.37179327907E-01
3.04586820414E+05	-2.35003326214E+01	1.63728390865E+02	4.46833647937E+00	-1.77865307960E+02	-3.33205029060E+01	-2.41214468070E+01	-5.82877769356E+00	-2.32738973540E-01
3.04806981274E+05	-1.68806516862E+01	2.25260603741E+01	4.35664940009E+00	-1.77831114817E+02	-4.39184032130E+01	1.17378898996E+02	-5.88140761777E+00	-3.54374555499E-01
3.05027301270E+05	-9.25736245284E+00	-2.80039887974E+01	4.23872208830E+00	-1.76845402284E+02	-3.89297163449E+01	2.70392067592E+01	-5.85375295725E+00	-2.70516508911E-01
3.05247780517E+05	-1.99776699470E+01	-8.47577854446E+01	4.39193902251E+00	-1.77197534513E+02	-4.27390015082E+01	-1.60431588907E+02	-5.92122201698E+00	-2.17449681233E-01
3.05468419131E+05	-1.34434216466E+01	-3.58870248239E+01	4.33140055965E+00	-1.77085186421E+02	-4.42927676201E+01	-1.54447205451E+02	-5.89702230139E+00	-5.64241946327E-01
3.05689217226E+05	-1.38173236486E+01	5.69029112630E+01	4.24740424998E+00	-1.78236735711E+02	-3.83284448630E+01	5.44626734002E+01	-5.85792908847E+00	-2.66915445301E-01
3.05910174918E+05	-3.13308884787E+01	6.64663982916E+01	4.32387096865E+00	-1.77498113997E+02	-4.38834596959E+01	-1.61103874421E+02	-5.90489850545E+00	-2.16716415192E-01
3.06131292322E+05	-2.25613315464E+01	-4.80778372164E+01	4.37700308193E+00	-1.77688295919E+02	-3.45647056763E+01	-6.18021164651E+01	-5.86083971776E+00	-4.73517943235E-01
3.06352569554E+05	-1.97937766136E+01	1.15778092487E+02	4.46293282134E+00	-1.78282345294E+02	-2.96725408674E+01	-1.87614991713E+01	-5.86606485684E+00	-2.31209872529E-01
3.06574006730E+05	-2.68872989644E+01	5.34024114252E+01	4.44486493294E+00	-1.77540876011E+02	-4.47342205638E+01	-1.79881991937E+02	-5.92028220341E+00	-2.28665770709E-01
3.06795603964E+05	-2.20196878644E+01	-1.97606097217E+01	4.25498500719E+00	-1.77679825749E+02	-3.61682764204E+01	1.48398528996E+02	-5.93377890488E+00	-3.35994721159E-01
3.07017361372E+05	-9.28770448645E+00	3.90750365137E+00	4.07335522972E+00	-1.77807872795E+02	-3.72425572171E+01	7.99479069428E+01	-5.88920794955E+00	-1.92276753941E-01
3.07239279071E+05	-1.69441012333E+01	1.30206721222E+02	4.40110298101E+00	-1.78558797996E+02	-3.87340507524E+01	1.44496700978E+02	-5.88127790266E+00	-2.31945277445E-01
3.07461357176E+05	-1.76855014875E+01	-1.51369280669E+02	4.39963891990E+00	-1.77737938879E+02	-3.53923968642E+01	2.49706488167E+01	-5.86675580055E+00	-9.91451678604E-02
3.07683595803E+05	-2.30312152912E+01	8.50828308465E+01	4.32997937578E+00	-1.77919628887E+02	-3.64841001792E+01	8.41145809556E+00	-5.85739492760E+00	-6.45898125419E-02
3.07905995068E+05	-2.62548918611E+01	1.07435299808E+02	4.42819286163E+00	-1.78062462936E+02	-3.54572172133E+01	-3.01742840100E+01	-5.83276108598E+00	-5.55307591884E-01
3.08128555087E+05	-1.61078082377E+01	-1.31586429362E+02	4.42917742788E+00	-1.77224526643E+02	-3.78560988153E+01	-1.69131886765E+01	-5.86684834666E+00	-4.40911138554E-01
3.08351275976E+05	-1.53193566160E+01	5.90809697534E+01	4.38890819630E+00	-1.78102220328E+02	-3.94512487354E+01	-1.08035036740E+02	-5.86400435873E+00	-3.27341445422E-01
3.08574157853E+05	-1.63517493541E+01	2.09194801684E+01	4.33723305084E+00	-1.77486643706E+02	-3.85898546306E+01	1.38529344856E+02	-5.91119073415E+00	-3.20535383237E-01
3.08797200832E+05	-1.67111993096E+01	1.35941967447E+02	4.43721708453E+00	-1.78050906305E+02	-4.86022209170E+01	-6.34660166161E+01	-5.86504986331E+00	-4.05976851771E-01
3.09020405031E+05	-1.43178060465E+01	1.44787042592E+02	4.53845209580E+00	-1.78406257040E+02	-3.68385610123E+01	1.32325291414E+02	-5.90787603337E+00	-9.59208011462E-02
3.09243770566E+05	-3.50452907832E+01	-4.50397022392E+01	4.40115778169E+00	-1.78189868349E+02	-3.54468299113E+01	-6.33027243294E+01	-5.88670037443E+00	-6.29166474080E-01
3.09467297553E+05	-2.07342963643E+01	-3.93584564453E+01	4.30722037405E+00	-1.77434693577E+02	-3.07642229830E+01	-1.43398140322E+02	-5.95768032382E+00	-4.41886189622E-01
3.09690986110E+05	-1.67251273528E+01	8.12823980761E+01	4.39209465964E+00	-1.78377665072E+02	-4.93026602157E+01	6.05935156251E+01	-5.85749899441E+00	-1.10065841665E-01
3.09914836353E+05	-2.84595680681E+01	7.78519395929E+01	4.37926016616E+00	-1.77925461669E+02	-3.56249426102E+01	1.19407298981E+02	-5.87986107956E+00	-2.29981164336E-01
3.10138848399E+05	-1.44861327487E+01	4.49067999729E+01	4.27638003584E+00	-1.77811137837E+02	-4.04301916997E+01	-5.64634572524E+01	-5.86192851157E+00	-6.33891528300E-01
3.10363022365E+05	-1.27085224240E+01	-4.61817783569E+01	4.30974096179E+00	-1.76465502643E+02	-4.15714510548E+01	-1.02660460191E+02	-5.86096279502E+00	-3.12077998091E-01
3.10587358368E+05	-1.84807330561E+01	3.83775700030E+01	4.36535073497E+00	-1.77689276595E+02	-5.11036180892E+01	-9.56802948414E+01	-5.89697067390E+00	-4.35263620653E-01
3.10811856525E+05	-3.78487377866E+01	-3.86858065023E+01	4.37716275715E+00	-1.77385028680E+02	-3.85992552245E+01	3.98094602707E+01	-5.84410198202E+00	-5.22286863235E-01
3.11036516954E+05	-1.82230150767E+01	2.32196195203E+01	4.27385010322E+00	-1.78099702299E+02	-2.80395986578E+01	-8.62801864679E+01	-5.86094079910E+00	-9.66692667559E-01
3.11261339771E+05	-1.74492763802E+01	5.11849728502E+00	4.31360445446E+00	-1.77727328718E+02	-3.86220025942E+01	1.70090622555E+02	-5.90939362271E+00	-1.15131866534E-01
3.11486325094E+05	-1.83802492383E+01	1.65796568457E+02	4.45458145718E+00	-1.78237620426E+02	-4.08530750078E+01	8.39648662476E+01	-5.85417415536E+00	-2.92448944386E-02
3.11711473040E+05	-2.17455378498E+01	-7.06700147435E+01	4.34596551809E+00	-1.77730267271E+02	-4.27691559101E+01	1.38932881156E+02	-5.88401338378E+00	-5.95578542529E-02
3.11936783728E+05	-1.42464386123E+01	-1.11288928282E+02	4.42646547200E+00	-1.76883814732E+02	-3.45219895415E+01	-6.96456051786E+01	-5.86324023963E+00	-6.25795951239E-01
3.12162257274E+05	-1.79891903757E+01	-1.02516873643E+01	4.33285571996E+00	-1.77393677673E+02	-3.86174381163E+01	-1.43025680570E+01	-5.88027162134E+00	-3.28076537040E-01
3.12387893797E+05	-3.24474471776E+01	-8.99533028663E+01	4.39296053284E+00	-1.78020576555E+02	-4.21375356633E+01	-9.12932407133E+01	-5.89582191775E+00	-4.46192844686E-01
3.12613693413E+05	-2.00521861802E+01	2.78947436770E+01	4.30909690145E+00	-1.78127587897E+02	-3.53553249733E+01	1.54482224034E+02	-5.92502800277E+00	-2.31398414235E-01
3.12839656242E+05	-2.03988447911E+01	-1.45937477745E+00	4.41514546251E+00	-1.77977142590E+02	-4.15017381564E+01	3.67204084895E-02	-5.87115536116E+00	-3.96456790103E-01
3.13065782401E+05	-1.39077248486E+01	5.75456538769E+01	4.26704318170E+00	-1.78502571517E+02	-3.92495059135E+01	-2.57598854028E+01	-5.86815600328E+00	-1.66465995517E-01
3.13292072007E+05	-2.21175035288E+01	6.12694314733E+01	4.33177231454E+00	-1.78419333524E+02	-3.93381501679E+01	-1.54921777515E+02	-5.90859670325E+00	-3.24239684480E-01
3.13518525180E+05	-2.34865293388E+01	6.79396463848E+01	4.35905661883E+00	-1.77517925758E+02	-4.67925666616E+01	8.32250421397E+01	-5.93104873861E+00	-1.70277025148E-01
3.13745142038E+05	-2.22839268111E+01	3.05141038919E+01	4.36050835318E+00	-1.77412118901E+02	-3.58679737613E+01	1.41171706470E+02	-5.94502021483E+00	-3.19199409305E-01
3.13971922698E+05	-2.48907050106E+01	1.03431551847E+02	4.34358446169E+00	-1.78350271768E+02	-3.32475186049E+01	2.56173257825E+01	-5.83481810622E+00	-2.47275720085E-01
3.14198867279E+05	-2.22329401329E+01	-1.40913696300E+02	4.42003071517E+00	-1.77931646438E+02	-3.27744714395E+01	5.00555815039E+01	-5.80585534878E+00	3.00369811682E-01
3.14425975900E+05	-2.34013520746E+01	4.94337228353E+01	4.30078217959E+00	-1.78428082544E+02	-5.02279495027E+01	6.26894027005E+00	-5.87466846433E+00	-3.48282160809E-01
3.14653248680E+05	-1.53602093934E+01	3.44852850627E+00	4.28639296237E+00	-1.78044122750E+02	-4.46928656089E+01	1.51463830876E+02	-5.95182135442E+00	-1.43908317715E-01
3.14880685736E+05	-1.95427721297E+01	-8.68332804594E+01	4.46770369354E+00	-1.77147515466E+02	-5.78012461539E+01	1.78340384359E+02	-5.90290847974E+00	-4.33972369424E-01
3.15108287188E+05	-1.60506207948E+01	1.20725029514E+01	4.30138153927E+00	-1.78059819529E+02	-3.64373856484E+01	-1.54850993755E+02	-5.93617873844E+00	-2.29821168567E-01
3.15336053154E+05	-2.33430533432E+01	-7.22972810243E+01	4.38442166852E+00	-1.77343213369E+02	-3.72357828524E+01	-1.29806492084E+02	-5.91771498209E+00	-4.32035765290E-01
3.15563983753E+05	-3.32045285519E+01	-9.55316831125E+01	4.43114368365E+00	-1.77188496782E+02	-4.74165956865E+01	-1.72055329518E+02	-5.90143894244E+00	2.69128267514E-02
3.15792079105E+05	-2.36118387815E+01	-1.44315349905E+02	4.43169244200E+00	-1.77726208094E+02	-4.15199209506E+01	1.42895969913E+02	-5.90735125179E+00	-3.28847183410E-01
3.16020339328E+05	-1.98884131406E+01	1.63554059524E+02	4.47063656984E+00	-1.77306358993E+02	-4.23056353385E+01	-1.04600225568E+02	-5.90416855865E+00	-1.83295194841E-01
3.16248764542E+05	-2.83106310978E+01	6.28776255010E+01	4.39083701414E+00	-1.78162307032E+02	-4.24877580066E+01	1.73939964139E+02	-5.86628830601E+00	-2.46266100643E-01
3.16477354866E+05	-2.40759345525E+01	6.07172266878E+01	4.31652689777E+00	-1.77877572368E+02	-3.68145583028E+01	-1.30207492131E+02	-5.91759721911E+00	-4.70433783104E-01
3.16706110419E+05	-2.15228506400E+01	-1.26492447140E+01	4.39927207201E+00	-1.77959238125E+02	-4.59564117153E+01	7.94331301274E+01	-5.92257990704E+00	-1.28438010690E-01
3.16935031321E+05	-1.03414164218E+01	-1.61068285853E+02	4.52822957281E+00	-1.77366364662E+02	-3.62348107201E+01	1.36916587152E+02	-5.93271625315E+00	-3.87861356288E-02
3.17164117691E+05	-1.67083322202E+01	3.59589138195E+01	4.31871042334E+00	-1.77874590934E+02	-3.69522153746E+01	1.31432833001E+02	-5.90432045720E+00	-5.87752118148E-02
3.17393369648E+05	-2.50978785751E+01	-6.82379395963E+01	4.40531659608E+00	-1.77790358549E+02	-3.95038645444E+01	1.67975925359E+02	-5.90905003574E+00	-3.95137811184E-02
3.17622787313E+05	-1.61147834221E+01	-4.20123693464E+01	4.25817298040E+00	-1.77291581540E+02	-4.61643861731E+01	3.00616793263E+01	-5.91227677860E+00	-2.95054530330E-01
3.17852370806E+05	-2.08600546440E+01	1.55876025401E+02	4.44064781962E+00	-1.78024858881E+02	-4.03997602311E+01	6.89115598572E+01	-5.88549372499E+00	-4.90902915087E-02
3.18082120245E+05	-2.08855236535E+01	-2.32404487501E+01	4.36714103129E+00	-1.78007888120E+02	-4.45003690032E+01	1.24790772810E+02	-5.90181347850E+00	-2.66133635050E-01
3.18312035752E+05	-7.49851625286E+00	-2.79606589978E+01	4.15276237397E+00	-1.77012634474E+02	-5.15463824568E+01	-4.24826323072E+01	-5.91680915731E+00	-4.48139323809E-01
3.18542117445E+05	-1.76611898308E+01	1.23247543912E+02	4.50308723392E+00	-1.77734485805E+02	-3.90436475445E+01	-8.45561943588E+01	-5.88474057367E+00	-2.86398622214E-01
3.18772365446E+05	-3.23762118370E+01	2.01630562622E+01	4.33740836684E+00	-1.77963705714E+02	-4.31748551518E+01	-1.67007927032E+02	-5.93133023433E+00	9.80980068866E-02
3.19002779874E+05	-2.45826035498E+01	-2.47744590898E+01	4.37086384331E+00	-1.77879051898E+02	-3.88015661434E+01	-9.51142396240E+01	-5.91046067204E+00	-5.92945628115E-01
3.19233360850E+05	-3.19559043725E+01	-8.78200511512E+01	4.31246382921E+00	-1.78213388718E+02	-3.62669603553E+01	-7.36148058144E+01	-5.84769688389E+00	-3.50557200853E-01
3.19464108494E+05	-3.08256769412E+01	6.84741713479E+01	4.33457274334E+00	-1.78107984954E+02	-3.78804395136E+01	4.01051079032E+01	-5.87226588692E+00	-1.28711228026E-01
3.19695022927E+05	-1.55671109606E+01	-1.55495770810E+02	4.45847725543E+00	-1.77474787026E+02	-3.82122418023E+01	-9.33504612701E+01	-5.91059733906E+00	-9.19060146518E-02
3.19926104268E+05	-1.97673103396E+01	-7.85545199690E+00	4.35461008299E+00	-1.77852910998E+02	-4.09113122516E+01	-1.21094202283E+02	-5.92620455807E+00	-2.59136238151E-01
3.20157352640E+05	-6.52260485742E+00	-9.60625988437E+01	4.39211260070E+00	-1.75651237859E+02	-4.93640623892E+01	4.60965845636E+01	-5.87955154013E+00	-3.91560813824E-01
3.20388768162E+05	-2.12480477529E+01	-2.27625741397E+01	4.32308411884E+00	-1.77991582564E+02	-3.49237198368E+01	9.78650417558E+01	-5.92753704369E+00	-2.49268161239E-01
3.20620350955E+05	-1.34703004740E+01	8.78276722457E+01	4.42795364667E+00	-1.78622369931E+02	-3.05133260146E+01	-6.90174755706E+01	-5.87063712693E+00	-6.87613339467E-01
3.20852101140E+05	-2.35363512185E+01	5.93179472046E+01	4.37606510684E+00	-1.77505780833E+02	-4.31659066004E+01	4.18116210156E+01	-5.85661562248E+00	-1.46471805454E-01
3.21084018839E+05	-1.97950043898E+01	7.55753511610E+01	4.36172974693E+00	-1.78300439471E+02	-4.77706928012E+01	-1.32343635923E+02	-5.91414697442E+00	-3.73314633011E-01
3.21316104172E+05	-1.86023639829E+01	-3.62705838209E+01	4.31917413485E+00	-1.77417385867E+02	-3.67295554811E+01	9.87976547855E+01	-5.89813092432E+00	-9.54941429540E-02
3.21548357261E+05	-2.52290502745E+01	-2.13751953219E+01	4.41225626440E+00	-1.77307201253E+02	-4.08310666010E+01	-1.62661905952E+02	-5.88829139386E+00	-1.64215329196E-01
3.21780778226E+05	-1.65257828282E+01	1.14994036360E+02	4.50054985923E+00	-1.78059760480E+02	-4.05399178046E+01	1.71459988167E+01	-5.87137203015E+00	-1.95152656581E-01
3.22013367189E+05	-1.49055073576E+01	4.23832414699E+01	4.32348198760E+00	-1.78149571868E+02	-4.16986632422E+01	-2.17651441554E+01	-5.88953372119E+00	-3.29963243687E-01
3.22246124272E+05	-1.49779518666E+01	1.02776152276E+02	4.44809246426E+00	-1.78975534086E+02	-2.47760049232E+01	-1.74989520693E+02	-6.05316407505E+00	-2.94838383024E-01
3.22479049596E+05	-2.14865761276E+01	5.69312077787E+01	4.33301330234E+00	-1.77800139721E+02	-4.36168905553E+01	-2.48929051977E+01	-5.87063070370E+00	-1.98376119129E-01
3.22712143282E+05	-1.74248556232E+01	3.64653295847E+01	4.40501838405E+00	-1.78410401165E+02	-4.94850851473E+01	1.21720754036E+02	-5.90335468254E+00	-2.08645940915E-01
3.22945405453E+05	-2.31929109231E+01	4.80470451887E+00	4.35585428278E+00	-1.77823323339E+02	-3.70094909332E+01	1.32237681967E+02	-5.91303111027E+00	-3.29836284999E-01
3.23178836230E+05	-2.05023239088E+01	9.60523324197E+00	4.27024275518E+00	-1.78389410670E+02	-3.96515959371E+01	1.53247369890E+02	-5.90291439886E+00	-2.79079275917E-01
3.23412435735E+05	-1.88147260603E+01	-4.33264562906E+01	4.32339382348E+00	-1.77622420824E+02	-5.35113285341E+01	-7.42259791004E+00	-5.93374252348E+00	-1.70047224159E-01
3.23646204090E+05	-2.20869568228E+01	-3.94443375889E+01	4.38349626123E+00	-1.77943363842E+02	-3.73132874971E+01	1.32424790068E+02	-5.90498881287E+00	-2.97644549851E-01
3.23880141417E+05	-1.52311906158E+01	-1.70001016538E+02	4.51652738536E+00	-1.78280551859E+02	-3.57851694150E+01	-1.42392974619E+02	-5.91805226925E+00	-4.37880139577E-01
3.24114247838E+05	-2.17758422597E+01	1.70462223967E+02	4.39189461001E+00	-1.78100418315E+02	-3.54948242319E+01	4.09875424553E+01	-5.86576831113E+00	-1.09273019130E-01
3.24348523475E+05	-1.51590889458E+01	1.34828337310E+02	4.49759256136E+00	-1.78955208667E+02	-3.68050769384E+01	-1.06487609613E+02	-5.92292996432E+00	-4.60049749267E-02
3.24582968451E+05	-1.86213326898E+01	4.06546027903E+01	4.36377122274E+00	-1.78308242336E+02	-3.79807682251E+01	-1.74759830081E+02	-5.92000439355E+00	-2.53696071160E-01
3.24817582888E+05	-1.59896019570E+01	-5.07998603400E+01	4.34428952389E+00	-1.77161813257E+02	-4.15704035350E+01	-2.56046764133E+01	-5.87725100802E+00	-2.21585948657E-01
3.25052366909E+05	-2.82916033053E+01	4.36782173524E+01	4.37364745607E+00	-1.78020216272E+02	-5.23880954996E+01	-6.28352654170E+01	-5.86436404472E+00	-1.30466499071E-01
3.25287320635E+05	-1.79481818515E+01	-6.55514294387E+01	4.38039749668E+00	-1.77196508857E+02	-3.86997994989E+01	1.02347163640E+02	-5.86849787686E+00	-1.15884255687E-01
3.25522444191E+05	-2.48756387470E+01	-1.75036207413E+01	4.43862920278E+00	-1.78188577213E+02	-4.76208071709E+01	1.56428591172E+02	-5.88034778917E+00	-1.86322576824E-01
3.25757737698E+05	-2.55381279025E+01	1.23796745158E+02	4.36398040039E+00	-1.78238299570E+02	-3.66766901355E+01	1.59219064694E+02	-5.92909466778E+00	-1.91597880933E-01
3.25993201280E+05	-1.64131084583E+01	7.48973526975E+01	4.40385219117E+00	-1.78437707943E+02	-4.37779736982E+01	1.34158598359E+02	-5.91063549307E+00	-4.28661787650E-01
3.26228835058E+05	-1.59124270663E+01	-1.07476123570E+01	4.32645779720E+00	-1.78023241655E+02	-3.33877269031E+01	-1.12725675330E+02	-5.87199128593E+00	-5.68294031640E-01
