# Hz S DB R 50
! CMT, M5065, 19127446, 24.2.4/2
! Date: 11/1/2024 4:26:41 PM
! Data: Format (Calibration Info)
! Freq	S11:dB/Ang(F2)	S21:dB/Ang(F2)	S12:dB/Ang(F2)	S22:dB/Ang(F2)
3.00000000000E+05	-1.24869626889E+01	-1.48489428974E+02	7.82652633275E+00	-1.76789226954E+02	-3.92282956793E+01	1.69399621232E+02	-5.85739384440E+00	-2.21537043914E-01
3.00216845423E+05	-1.57952206756E+01	5.52996210401E+01	7.63832833077E+00	-1.78347296869E+02	-4.22671230442E+01	8.83724393402E+01	-5.87035826810E+00	9.72209121576E-02
3.00433847586E+05	-2.18302764959E+01	3.50895193917E+01	7.64598490642E+00	-1.77541564733E+02	-3.66227522060E+01	5.56850435074E+01	-5.87795866364E+00	-2.58398528162E-01
3.00651006602E+05	-1.84296541291E+01	-1.54969053285E+02	7.76309758555E+00	-1.77408975718E+02	-3.84736629004E+01	-1.63157215054E+02	-5.90488600790E+00	-1.48131473913E-01
3.00868322584E+05	-2.56818967815E+01	4.97390718753E+00	7.62825708005E+00	-1.77378313365E+02	-3.59603579147E+01	2.30000784447E+01	-5.82962672372E+00	-1.56048095679E-01
3.01085795647E+05	-2.50731868705E+01	-7.20557320796E+01	7.65473547560E+00	-1.77174515376E+02	-3.33521919586E+01	-8.22852153250E+01	-5.87011240864E+00	-9.84204555383E-01
3.01303425902E+05	-3.09447208293E+01	9.95740212410E+01	7.65554718077E+00	-1.77600031727E+02	-3.06227123484E+01	-2.44026107057E+01	-5.78523444907E+00	-7.85729713451E-01
3.01521213465E+05	-1.35744940265E+01	-5.64440733461E+01	7.54371758311E+00	-1.76635824088E+02	-4.13923825819E+01	5.85860057771E+01	-5.89106600918E+00	4.59092337478E-02
3.01739158449E+05	-1.99519588971E+01	9.24605182237E+01	7.70372636148E+00	-1.78581659111E+02	-4.71446626780E+01	5.62999876658E+01	-5.91687243058E+00	-1.83055648904E-01
3.01957260967E+05	-1.94062033141E+01	-3.25699144885E+01	7.58984381492E+00	-1.77578311505E+02	-3.94066225872E+01	1.05726163040E+02	-5.88441953382E+00	-6.59939021753E-02
3.02175521134E+05	-1.67141857297E+01	2.00476766330E+01	7.62120674566E+00	-1.77642178729E+02	-4.34056583186E+01	1.74741693428E+02	-5.91729980401E+00	-3.53261490005E-01
3.02393939063E+05	-2.16009267730E+01	-1.73674689707E+02	7.75557424503E+00	-1.76961322454E+02	-3.89205979754E+01	-1.11254057565E+02	-5.85488752572E+00	-5.09014707428E-01
3.02612514869E+05	-1.92147328025E+01	-1.04418851840E+02	7.67124468346E+00	-1.77446834613E+02	-3.27170080089E+01	-5.62393856087E+01	-5.84156028046E+00	-5.48060796549E-01
3.02831248665E+05	-1.13092840344E+01	-1.58274941253E+02	7.92241429928E+00	-1.76886004684E+02	-3.81184938699E+01	9.42709321754E+01	-5.92271558149E+00	-5.78391962130E-02
3.03050140565E+05	-1.07000402982E+01	5.28591054480E+01	7.58435666616E+00	-1.78570859018E+02	-3.63427271715E+01	-9.20625311635E+01	-5.90670409578E+00	-4.62294554030E-01
3.03269190685E+05	-1.57413759471E+01	2.26798539630E+01	7.55419118801E+00	-1.77390398808E+02	-4.17618622155E+01	-1.10299776635E+02	-5.89635818991E+00	-2.52598974643E-01
3.03488399138E+05	-1.62993617352E+01	1.12337489474E+02	7.64524865844E+00	-1.77659103718E+02	-3.94815613060E+01	-5.51987521534E+01	-5.87422422166E+00	-4.78513691006E-01
3.03707766039E+05	-3.15388096679E+01	1.56212623883E+02	7.63559234885E+00	-1.78002240521E+02	-3.88103750971E+01	-1.59147403586E+02	-5.87852981214E+00	-5.42902651529E-01
3.03927291503E+05	-1.88497688954E+01	-3.07191472169E+01	7.61459409624E+00	-1.77149579481E+02	-3.64998810835E+01	1.09752467868E+02	-5.88602422226E+00	-1.40460104525E-01
3.04146975643E+05	-1.64330393752E+01	9.40523374744E+01	7.66814094960E+00	-1.78162780615E+02	-4.05300901768E+01	-7.07699148397E+00	-5.81639374633E+00	-3.80835355613E-01
3.04366818575E+05	-2.35827366623E+01	-1.38544956029E+01	7.58222041987E+00	-1.77667658024E+02	-3.26956489835E+01	2.91282931156E+00	-5.77032702149E+00	-5.25667012447E-02
3.04586820414E+05	-1.16891346976E+01	9.77551104119E+01	7.67348726924E+00	-1.78682657625E+02	-4.03574156169E+01	9.39087544952E+00	-5.83125283093E+00	-1.64481218664E-01
3.04806981274E+05	-2.18348648453E+01	-1.71435749032E+01	7.65631891096E+00	-1.77486146244E+02	-3.17729860791E+01	3.49174053317E+01	-5.87968059973E+00	-2.16418796812E-01
3.05027301270E+05	-1.98754256117E+01	-7.14603577236E+00	7.59934120742E+00	-1.77497932651E+02	-4.22650538183E+01	-1.42316416393E+02	-5.89241976637E+00	-5.07204369585E-01
3.05247780517E+05	-1.56180821693E+01	4.85921448735E+01	7.64136476509E+00	-1.78036843382E+02	-4.83743178937E+01	-1.28496027357E+02	-5.89397541193E+00	-3.34824802773E-01
3.05468419131E+05	-1.78756580623E+01	8.03917660353E+01	7.72347412513E+00	-1.78006999281E+02	-3.87949957580E+01	1.75632082155E+02	-5.90580311122E+00	1.14290954856E-01
3.05689217226E+05	-3.40084743397E+01	-1.48501908217E+02	7.70791609271E+00	-1.77942796636E+02	-2.80991599604E+01	-1.68627264032E+02	-6.05328878590E+00	-3.63215214268E-01
3.05910174918E+05	-1.42293482134E+01	1.74224581315E+02	7.84013053394E+00	-1.77967329271E+02	-3.30647835470E+01	-4.30425684187E+01	-5.86858873439E+00	-4.40209174890E-01
3.06131292322E+05	-1.54112577074E+01	1.73794096937E+02	7.72337402335E+00	-1.78008981067E+02	-3.57071425054E+01	8.01773872508E+01	-5.90849561584E+00	-1.57696129971E-01
3.06352569554E+05	-1.55140658201E+01	-8.18054716077E+01	7.60720307308E+00	-1.76712930026E+02	-3.90946826564E+01	1.69938615055E+02	-5.93738221363E+00	-2.32722902469E-01
3.06574006730E+05	-1.99777231002E+01	-1.69621122562E+02	7.74074514946E+00	-1.77825093235E+02	-4.46155169152E+01	-1.98347951882E+01	-5.88783802901E+00	-8.91005566540E-02
3.06795603964E+05	-2.78860986404E+01	9.65783010741E+01	7.64530851147E+00	-1.78132866754E+02	-4.24855938145E+01	1.31352550561E+02	-5.88068170496E+00	-3.47582088168E-01
3.07017361372E+05	-1.55631469077E+01	1.40230976230E+02	7.69748077087E+00	-1.77880429758E+02	-4.01134713690E+01	-1.17499218126E+02	-5.89080959985E+00	-4.82773935286E-01
3.07239279071E+05	-1.53708133579E+01	1.46834115672E+02	7.70692197571E+00	-1.78228226129E+02	-3.53483353701E+01	-7.81425368378E+00	-5.81664397967E+00	-3.57078602914E-01
3.07461357176E+05	-1.81969168794E+01	1.49457495031E+02	7.66453763042E+00	-1.77900420188E+02	-3.50570213814E+01	-3.51849098501E+01	-5.87778992712E+00	-6.34831991925E-01
3.07683595803E+05	-3.34310171661E+01	4.38790446018E+01	7.70244141878E+00	-1.77885248219E+02	-3.99465565718E+01	1.01113150814E+02	-5.86940001210E+00	1.38195717558E-01
3.07905995068E+05	-2.39962422181E+01	4.71328515810E+01	7.63795973666E+00	-1.78149890971E+02	-4.12862325259E+01	-1.47706713110E+02	-5.92829812754E+00	-1.96944456386E-01
3.08128555087E+05	-2.22954003240E+01	8.51513990024E+01	7.65656472232E+00	-1.77541776421E+02	-3.97707558749E+01	1.07034699882E+02	-5.90621715494E+00	-1.80415587790E-01
3.08351275976E+05	-2.22096192291E+01	1.70203222826E+02	7.75878474261E+00	-1.77849091692E+02	-3.88741346452E+01	-1.37165975477E+02	-5.92969595885E+00	-6.90512768211E-02
3.08574157853E+05	-2.61365603501E+01	3.90604470608E+01	7.61654161620E+00	-1.77960975583E+02	-4.02970070444E+01	-1.36721645550E+02	-5.94575452277E+00	-3.62844154602E-01
3.08797200832E+05	-2.26898767791E+01	-1.46198194766E+02	7.68904681508E+00	-1.77228051754E+02	-3.56477286940E+01	-9.67261971345E+01	-5.90426678108E+00	-3.71503856423E-01
3.09020405031E+05	-2.31995214037E+01	-1.71667541739E+02	7.73359171774E+00	-1.77713291680E+02	-4.85118154257E+01	-1.53003359465E+02	-5.94484873349E+00	-2.71460777824E-01
3.09243770566E+05	-2.19644153466E+01	1.04149822033E+02	7.66470470055E+00	-1.78441475562E+02	-5.61211847748E+01	2.76474203233E+01	-5.84395027040E+00	2.96972027030E-02
3.09467297553E+05	-1.58205085631E+01	7.18115313553E+01	7.63182800829E+00	-1.78587870572E+02	-5.40811379084E+01	-1.28519502539E+02	-5.91840785732E+00	-4.16232467812E-01
3.09690986110E+05	-2.04189159618E+01	1.30987102296E+02	7.74504790776E+00	-1.78241824523E+02	-3.88877023057E+01	1.51923692335E+02	-5.91731613910E+00	-4.43462473994E-02
3.09914836353E+05	-2.77126492917E+01	-1.01434291308E+02	7.63599893203E+00	-1.77673514093E+02	-4.14931278270E+01	-1.52349028585E+02	-5.88664081702E+00	-5.26512286494E-01
3.10138848399E+05	-2.39469986458E+01	-9.48131542287E+00	7.57470173339E+00	-1.77922704813E+02	-5.24867684073E+01	1.02371073135E+02	-5.88785675677E+00	-2.49414085410E-02
3.10363022365E+05	-2.21338530774E+01	1.08956596843E+02	7.69523936242E+00	-1.78135553175E+02	-3.41995616575E+01	-1.65887111455E+02	-5.91906150814E+00	-4.13125382738E-01
3.10587358368E+05	-1.68997237605E+01	1.79965058205E+02	7.70682725230E+00	-1.77861340411E+02	-5.12135063055E+01	-4.55502083195E+01	-5.88742105446E+00	-3.89581899650E-01
3.10811856525E+05	-2.74767253324E+01	-1.00117396539E+02	7.69408609247E+00	-1.77381316087E+02	-3.80836610618E+01	3.29721021698E+00	-5.84499514493E+00	-5.38920004692E-01
3.11036516954E+05	-1.17565152369E+01	1.59559835673E+02	7.78683749056E+00	-1.77944536936E+02	-5.39262319564E+01	1.30505673871E+02	-5.92591318307E+00	1.32177060807E-02
3.11261339771E+05	-1.92086251229E+01	-1.65730051755E+02	7.73812636043E+00	-1.77243983893E+02	-4.20468234110E+01	-1.02131312565E+02	-5.91487456216E+00	-4.40493453190E-01
3.11486325094E+05	-1.45322444181E+01	-5.51230182838E+01	7.65508617954E+00	-1.76865850349E+02	-4.01828340023E+01	1.34573665293E+02	-5.90847896552E+00	-2.71211116784E-01
3.11711473040E+05	-1.70904932283E+01	-1.76419184581E+02	7.73388406646E+00	-1.77663262978E+02	-4.25723067623E+01	2.94364311268E+01	-5.84500532949E+00	-1.65972699936E-01
3.11936783728E+05	-1.67867760626E+01	1.10540849255E+02	7.67617233657E+00	-1.78441708577E+02	-3.36205130105E+01	1.47650947301E+02	-5.92372232714E+00	-2.33858513790E-01
3.12162257274E+05	-1.82800672290E+01	2.93158517523E+01	7.54636549660E+00	-1.78045629232E+02	-3.02041669626E+01	1.14532781752E+01	-5.79352372642E+00	1.38217958072E-02
3.12387893797E+05	-1.69210317174E+01	1.61823889406E+02	7.70907733241E+00	-1.77758725845E+02	-4.74793023941E+01	-7.01799366046E+01	-5.90636994424E+00	-2.75850570129E-01
3.12613693413E+05	-1.50022523713E+01	-1.65998502785E+02	7.88700986683E+00	-1.77747365149E+02	-3.50101355985E+01	1.64174231258E+02	-5.92867269456E+00	6.27924878235E-02
3.12839656242E+05	-2.02369245189E+01	4.95207871943E+01	7.67355021130E+00	-1.78210398397E+02	-3.40419520489E+01	-5.83096918342E+01	-5.87652036896E+00	-4.99054448538E-01
3.13065782401E+05	-1.72968672058E+01	3.41379022799E+01	7.49288471666E+00	-1.77753508250E+02	-3.96954940684E+01	4.31259483419E+01	-5.85678790949E+00	-2.89075377838E-01
3.13292072007E+05	-3.40152625454E+01	1.17692065577E+01	7.61892750042E+00	-1.77588293177E+02	-4.24882279665E+01	8.00367285146E+01	-5.82674291702E+00	-9.38494405465E-02
3.13518525180E+05	-2.06673893504E+01	-6.65054593879E+01	7.65935479928E+00	-1.77481809869E+02	-4.70609689083E+01	6.25449898972E+01	-5.90677174173E+00	-2.33223515185E-01
3.13745142038E+05	-1.50673548717E+01	1.71755453373E+02	7.76350518199E+00	-1.78323841078E+02	-3.05232392063E+01	-3.56591390133E+01	-5.83091276700E+00	-7.43227517325E-01
3.13971922698E+05	-2.51335107606E+01	1.61661874207E+02	7.67145667091E+00	-1.78040617786E+02	-4.61634730039E+01	-1.21129588825E+02	-5.91561412742E+00	-2.67968318998E-01
3.14198867279E+05	-2.87850907871E+01	7.59729411909E+01	7.68017185238E+00	-1.78071657478E+02	-4.65177043562E+01	-1.36119384216E+02	-5.86688702921E+00	-3.74522014770E-01
3.14425975900E+05	-1.69755870615E+01	7.12211210377E+01	7.68170448265E+00	-1.77996283488E+02	-5.62711824152E+01	2.05816858248E+01	-5.85452812276E+00	-1.62249973175E-01
3.14653248680E+05	-2.73646761729E+01	-9.17358729703E+00	7.65295884035E+00	-1.77424441128E+02	-3.92329351552E+01	-1.05960104806E+02	-5.86497129396E+00	-4.96450941974E-01
3.14880685736E+05	-2.71472875581E+01	-8.68892501917E+01	7.73667791016E+00	-1.77790609707E+02	-3.95397844656E+01	1.71311920255E+02	-5.92922288377E+00	-1.44503571757E-01
3.15108287188E+05	-3.46205421219E+01	-4.08209350984E+01	7.63323249860E+00	-1.78160742157E+02	-3.89867384208E+01	7.98138020288E+01	-5.92821318850E+00	2.68317534222E-03
3.15336053154E+05	-2.53072637769E+01	1.07007512011E+01	7.61291009586E+00	-1.77860639044E+02	-3.17951256601E+01	7.53074919163E+01	-5.88924508332E+00	1.09093336871E-01
3.15563983753E+05	-2.77686243624E+01	1.78904550630E+02	7.72176889379E+00	-1.77444977091E+02	-3.80834724263E+01	-6.70468228627E+01	-5.89654416896E+00	-5.28782254006E-01
3.15792079105E+05	-1.11111952409E+01	9.25939586664E+01	7.67238495991E+00	-1.79090607621E+02	-3.40634197338E+01	-1.51387252465E+02	-5.90268154876E+00	-3.81716035405E-01
3.16020339328E+05	-1.46059804951E+01	9.39047873229E+01	7.64363511658E+00	-1.78429429435E+02	-3.93153881202E+01	4.97965896191E+01	-5.87167620852E+00	1.86103685009E-01
3.16248764542E+05	-2.00368345610E+01	-1.03315225504E+02	7.70004066561E+00	-1.77645223130E+02	-4.36581603008E+01	4.18342317046E+01	-5.90128066011E+00	-3.20555887555E-01
3.16477354866E+05	-2.47444114477E+01	6.91103190243E+01	7.65529263622E+00	-1.77815410553E+02	-4.15023735719E+01	4.30296726294E+01	-5.86793339969E+00	1.19853821979E-01
3.16706110419E+05	-2.34384924295E+01	1.16301450070E+02	7.69805215387E+00	-1.78302529203E+02	-3.74613621423E+01	9.46002875816E+01	-5.90464158722E+00	-1.50059874267E-01
3.16935031321E+05	-1.76238847350E+01	1.54127618192E+02	7.73680767898E+00	-1.78195970139E+02	-3.50439403006E+01	-2.16869339635E+01	-5.81749956942E+00	-4.73213427448E-01
3.17164117691E+05	-1.47065568074E+01	-1.46345389230E+02	7.69231535747E+00	-1.77381033885E+02	-5.14683839112E+01	-8.43531668205E+01	-5.86282763571E+00	-2.61192285626E-01
3.17393369648E+05	-2.11257436198E+01	1.31014942730E+02	7.76553905180E+00	-1.78155869601E+02	-4.71093503434E+01	-4.52366635549E+01	-5.84265809659E+00	-4.02138511917E-01
3.17622787313E+05	-1.83471516863E+01	1.64003654369E+02	7.73152767129E+00	-1.77982083969E+02	-4.37019497651E+01	-6.43069631146E+01	-5.86673676466E+00	-5.65652553747E-01
3.17852370806E+05	-1.83990378658E+01	9.40409233078E+01	7.69988744948E+00	-1.78039916829E+02	-3.51526695483E+01	-5.89659350348E+01	-5.87843416566E+00	-3.58722827022E-01
3.18082120245E+05	-2.13462058041E+01	-1.20252732401E+02	7.65602693776E+00	-1.77457928199E+02	-4.26376508886E+01	6.13726720793E+00	-5.84444157342E+00	-2.27426478583E-01
3.18312035752E+05	-2.25790036651E+01	-1.61122505728E+02	7.78120965383E+00	-1.77816205300E+02	-4.28126126289E+01	-8.50494261204E+01	-5.90184091365E+00	-6.17525170828E-01
3.18542117445E+05	-1.76906883234E+01	7.14862845487E+01	7.61138346348E+00	-1.78284653380E+02	-3.46068529864E+01	-1.13685093129E+02	-5.93811440775E+00	-7.54117771380E-01
3.18772365446E+05	-2.62000465335E+01	-5.83257391625E+01	7.62321793253E+00	-1.78015401209E+02	-4.41142306067E+01	1.12880821087E+02	-5.89294357795E+00	-4.00674699228E-01
3.19002779874E+05	-1.68999694017E+01	4.34808888103E+01	7.67953184996E+00	-1.78078136995E+02	-4.34732457948E+01	-7.50202481236E+00	-5.88770661289E+00	-2.94349045233E-01
3.19233360850E+05	-8.83960449609E+00	1.02163107468E+02	7.74649408177E+00	-1.79874314659E+02	-4.42424929978E+01	1.52094407733E+02	-5.88315441626E+00	-2.50541081668E-01
3.19464108494E+05	-1.71843718808E+01	1.42698088502E+02	7.74404188205E+00	-1.77965335765E+02	-3.92923088631E+01	1.84738082886E+01	-5.88798415785E+00	-3.01539160038E-01
3.19695022927E+05	-1.57334233858E+01	-5.83025464797E+01	7.61696000098E+00	-1.77423951482E+02	-3.89206608141E+01	-1.64646240817E+02	-5.92476710000E+00	-2.42777050859E-01
3.19926104268E+05	-1.80559452903E+01	-1.59163831378E+02	7.69234788100E+00	-1.77561304940E+02	-4.35062689023E+01	-1.98020438815E+01	-5.90833914781E+00	-5.50367715053E-01
3.20157352640E+05	-1.98353672165E+01	9.35153089635E-01	7.59876169566E+00	-1.77888377867E+02	-4.05308505487E+01	-1.67574507426E+02	-5.92752020254E+00	-4.37409115024E-01
3.20388768162E+05	-1.65719518792E+01	1.68884148343E+02	7.72608255520E+00	-1.77932013035E+02	-3.85505860147E+01	1.37252577216E+02	-5.93687130275E+00	-1.78689788366E-01
3.20620350955E+05	-1.30118879363E+01	6.94133140146E+01	7.63549745013E+00	-1.78572593546E+02	-3.79405767856E+01	-1.01195361501E+02	-5.92556287723E+00	-2.18257246838E-01
3.20852101140E+05	-1.53783843243E+01	-7.73869220809E+01	7.66234613390E+00	-1.77179199502E+02	-3.59492320521E+01	4.90042488687E+01	-5.87690479433E+00	1.60915573073E-02
3.21084018839E+05	-1.81672149603E+01	-1.11491862748E+02	7.66220941621E+00	-1.77554513656E+02	-4.26029426719E+01	1.73563454336E+02	-5.87143038584E+00	-2.93343510347E-01
3.21316104172E+05	-2.18604753562E+01	4.28977107553E+01	7.62601610357E+00	-1.78297829287E+02	-4.84685754821E+01	-1.63074351325E+02	-5.88763382865E+00	-4.18268819679E-01
3.21548357261E+05	-1.93800993066E+01	3.65863211668E+01	7.63307132413E+00	-1.78222426115E+02	-3.79393779402E+01	-5.33517744524E+01	-5.83733331219E+00	-3.41911594640E-01
3.21780778226E+05	-2.58199344829E+01	-1.76424997555E+02	7.68230163303E+00	-1.77515300818E+02	-4.24525676613E+01	-2.85975998029E+01	-5.91405249798E+00	-4.10697885387E-01
3.22013367189E+05	-1.62545934519E+01	-1.43250554341E+02	7.73718486987E+00	-1.77802820662E+02	-3.86553331843E+01	1.12711480516E+02	-5.91866302512E+00	-2.19597069568E-01
3.22246124272E+05	-1.93536300759E+01	-5.49578013088E+01	7.67406953278E+00	-1.77765405697E+02	-4.47262660857E+01	-1.53901084311E+01	-5.85923453010E+00	-5.04432819968E-02
3.22479049596E+05	-2.33528793130E+01	3.94043291179E+01	7.67100742459E+00	-1.78430887806E+02	-4.07655093633E+01	-1.56414624695E+02	-5.91018137926E+00	-2.10274929525E-01
3.22712143282E+05	-2.68027217144E+01	-5.02453355779E+01	7.68488749967E+00	-1.77834527923E+02	-4.12436969934E+01	-1.40402194337E+02	-5.92134377193E+00	-3.26251535116E-01
3.22945405453E+05	-1.62107605708E+01	5.89625501299E+01	7.55307070328E+00	-1.78328818520E+02	-4.09033449395E+01	-2.87823919845E+01	-5.87980941592E+00	-1.72525102196E-01
3.23178836230E+05	-2.34812987865E+01	-1.74959474452E+02	7.63184885240E+00	-1.77841985236E+02	-4.44515440115E+01	-4.79823961638E+01	-5.90861472633E+00	-4.67600593104E-01
3.23412435735E+05	-1.86659455544E+01	-1.67944042405E+02	7.73194753615E+00	-1.77903598804E+02	-3.79209151303E+01	4.81635912708E+01	-5.86730972124E+00	-2.24263856010E-01
3.23646204090E+05	-1.55004786594E+01	4.15377258321E+01	7.64021607541E+00	-1.78208731613E+02	-3.81461916284E+01	-4.32763221477E+01	-5.84792595506E+00	-1.90325033984E-01
3.23880141417E+05	-1.93663560028E+01	1.95434466139E+01	7.59703304010E+00	-1.77687150715E+02	-3.81451263643E+01	-1.99618276487E+01	-5.86460956003E+00	-3.35242439005E-01
3.24114247838E+05	-3.01038097135E+01	1.58181530582E+02	7.68614702501E+00	-1.78037141588E+02	-4.16941504633E+01	-1.50060137518E+02	-5.90219745548E+00	-5.59995545163E-01
3.24348523475E+05	-1.72752696584E+01	-1.57175613900E+02	7.78668379465E+00	-1.77629109277E+02	-5.16814452247E+01	7.81553260986E+01	-5.90395891295E+00	-2.55766637170E-01
3.24582968451E+05	-1.72478371864E+01	-1.31290849061E+02	7.64705299595E+00	-1.77375677317E+02	-3.98514966136E+01	1.44954237571E+02	-5.88164178060E+00	-4.81529692056E-02
3.24817582888E+05	-2.39953021355E+01	4.57699817919E+01	7.66898158559E+00	-1.78021542620E+02	-4.41924080061E+01	-1.60346958616E+02	-5.89889577173E+00	-3.21797593454E-01
3.25052366909E+05	-1.76696750662E+01	-1.56906013835E+02	7.72060414860E+00	-1.78227980161E+02	-4.05508874862E+01	-8.84157739025E+01	-5.94338766929E+00	-3.87762362358E-01
3.25287320635E+05	-1.37154508103E+01	-3.60484178616E+01	7.54596939473E+00	-1.77788168113E+02	-4.16276289469E+01	8.86694047557E+01	-5.87442503199E+00	-3.90712457566E-02
3.25522444191E+05	-2.11195498162E+01	1.22005903845E+02	7.69096829279E+00	-1.78565546436E+02	-3.53546765783E+01	1.73721669443E+02	-5.92680561037E+00	-1.72861809729E-01
3.25757737698E+05	-2.51962053691E+01	8.30337391278E+01	7.63533337637E+00	-1.78171256156E+02	-3.72768783923E+01	1.29176248326E+02	-5.94100319811E+00	8.46063849682E-02
3.25993201280E+05	-1.90107574370E+01	-1.47188101216E+02	7.69635304926E+00	-1.77933264234E+02	-4.37684455324E+01	-1.07401934314E+02	-5.88323603779E+00	-4.89280530393E-01
3.26228835058E+05	-1.65285946928E+01	9.69812423971E+01	7.73610844791E+00	-1.78841243975E+02	-3.49144129303E+01	-3.37222593810E+01	-5.81812884524E+00	-5.72256584279E-01
