# Hz S DB R 50
! CMT, M5065, 19127446, 24.2.4/2
! Date: 11/1/2024 4:51:15 PM
! Data: Format (Calibration Info)
! Freq	S11:dB/Ang(F2)	S21:dB/Ang(F2)	S12:dB/Ang(F2)	S22:dB/Ang(F2)
3.00000000000E+05	-2.54437050623E+01	-5.20664856620E+01	2.90665525653E+01	-1.71688406184E+02	-3.89619790715E+01	-1.03453615797E+02	-5.85520080544E+00	-2.52361448841E+00
3.00216845423E+05	-2.29057437208E+01	1.28983742762E+02	2.91440077157E+01	-1.72083481238E+02	-3.12952161942E+01	-1.08053602904E+02	-5.91180439842E+00	-6.00652314934E+00
3.00433847586E+05	-1.53031136557E+01	1.41959029893E+02	2.91487101812E+01	-1.72600544310E+02	-3.87110143239E+01	7.84837837363E+01	-5.93966106283E+00	2.71143298013E+00
3.00651006602E+05	-2.06655061189E+01	4.24220078722E+01	2.90111123661E+01	-1.72063723765E+02	-4.61589274108E+01	8.75184180250E+01	-5.79842007888E+00	5.29672922694E-01
3.00868322584E+05	-1.30942042156E+01	-5.92764431776E+01	2.90622725498E+01	-1.71257946108E+02	-3.91990302704E+01	-4.75286083834E+01	-5.69200023151E+00	-1.62349628098E+00
3.01085795647E+05	-1.98436249654E+01	1.19637399239E+02	2.91025071138E+01	-1.72250697899E+02	-4.13187497156E+01	-1.22299757412E+02	-5.99394014922E+00	-1.99329284172E+00
3.01303425902E+05	-3.08885175148E+01	1.35059506402E+02	2.90970182259E+01	-1.71922576813E+02	-4.33829473049E+01	1.43751486991E+02	-6.03375385022E+00	7.41435031632E-02
3.01521213465E+05	-3.33365037729E+01	-5.21588151256E+01	2.90653266783E+01	-1.71890089214E+02	-4.00751578701E+01	-9.44156514582E+01	-5.85638226380E+00	-2.46241494387E+00
3.01739158449E+05	-1.56301990078E+01	-4.99581338184E+01	2.90161931640E+01	-1.71436909373E+02	-4.49509850687E+01	-1.61613854918E+02	-6.08639018627E+00	-9.65892217107E-01
3.01957260967E+05	-7.44775787449E+00	-1.16596463499E+01	2.88197021214E+01	-1.71665731423E+02	-3.59686424987E+01	-7.48734117425E+01	-5.72994021071E+00	-3.58637229078E+00
3.02175521134E+05	-2.17510563604E+01	-5.17970379025E+01	2.90871947229E+01	-1.71959124953E+02	-4.75569808980E+01	-9.79836536980E+01	-5.81162077156E+00	-1.16939894707E+00
3.02393939063E+05	-2.14758338770E+01	1.36384629459E+02	2.91098178614E+01	-1.72177856154E+02	-3.90306902541E+01	-5.97208111052E+01	-5.62279384859E+00	-1.78862328540E+00
3.02612514869E+05	-2.03976072637E+01	-5.42849736184E+01	2.90679801897E+01	-1.71864185917E+02	-4.28835857313E+01	6.95926797086E+01	-5.79260382557E+00	4.87596650329E-01
3.02831248665E+05	-2.31032984163E+01	-1.27692993935E+02	2.90963112361E+01	-1.71784763974E+02	-3.95062430229E+01	-2.68693321761E+01	-5.58785584037E+00	-1.44928008366E+00
3.03050140565E+05	-2.36152262355E+01	-5.64527280429E+01	2.90637004377E+01	-1.71988476497E+02	-4.34777544137E+01	-1.41588122173E+02	-5.99802846012E+00	-6.97118066480E-01
3.03269190685E+05	-4.08284989961E+01	1.09817485720E+02	2.90643317020E+01	-1.71929513321E+02	-3.13935652650E+01	1.34211015378E+02	-6.52770013203E+00	2.99259978511E+00
3.03488399138E+05	-2.34928382787E+01	-1.53675012880E+02	2.91241782258E+01	-1.72105967618E+02	-3.29764336269E+01	-1.98226129091E+01	-5.05028507982E+00	-1.55483888617E+00
3.03707766039E+05	-1.53571112656E+01	1.42427713484E+02	2.91562245101E+01	-1.72515978195E+02	-3.96167872699E+01	-1.07446501464E+02	-5.87683021851E+00	-2.01143693400E+00
3.03927291503E+05	-3.03015354976E+01	8.59431140408E+00	2.90716606866E+01	-1.72274517510E+02	-4.21644288267E+01	-4.24368067246E+01	-5.65465768034E+00	-1.78161818727E+00
3.04146975643E+05	-2.38559461419E+01	-1.16945789631E+02	2.91158726864E+01	-1.71935850660E+02	-4.42290973741E+01	2.86041743037E+01	-5.64951064486E+00	5.92983680783E-01
3.04366818575E+05	-3.26024581929E+01	-4.57774025358E+01	2.90861857576E+01	-1.71940489873E+02	-3.76847616313E+01	6.79800688216E+01	-5.67442537540E+00	1.92556419428E+00
3.04586820414E+05	-1.77089802667E+01	-1.51965480786E+01	2.90156618275E+01	-1.72071632669E+02	-4.38027077399E+01	8.41908056187E+00	-5.71731363573E+00	-2.01204540678E-01
3.04806981274E+05	-2.88467838925E+01	9.88758034945E+01	2.90951203724E+01	-1.72369365909E+02	-4.28595730805E+01	1.05968213117E+02	-5.95417908010E+00	5.54482118543E-01
3.05027301270E+05	-1.10164731218E+01	5.87265693836E+01	2.89845380071E+01	-1.73240773958E+02	-3.32820116349E+01	-4.77775285729E+01	-5.24785931589E+00	-3.45166777637E+00
3.05247780517E+05	-2.26659907159E+01	-1.59692047626E+02	2.91180831150E+01	-1.72177955414E+02	-4.09841178239E+01	-4.41226758615E+01	-5.66295044039E+00	-1.62570443221E+00
3.05468419131E+05	-2.49676662266E+01	8.97152596494E+01	2.90816787434E+01	-1.72485259685E+02	-4.00605906453E+01	-1.34824321026E+02	-6.01956589702E+00	-2.11889400688E+00
3.05689217226E+05	-2.93726690765E+01	-7.40549564165E+01	2.90933882560E+01	-1.72080127386E+02	-4.75185616722E+01	8.29104214242E+01	-5.90998125800E+00	6.61404243798E-03
3.05910174918E+05	-1.90603552276E+01	1.40749553553E+02	2.91124125200E+01	-1.72830769449E+02	-4.26836417500E+01	-1.47844151441E+00	-5.61975659043E+00	-9.14433815254E-02
3.06131292322E+05	-1.98622762110E+01	4.20013638673E+01	2.90410370420E+01	-1.72741339110E+02	-4.90566969458E+01	8.82457482902E+01	-5.87764653527E+00	3.75547203261E-01
3.06352569554E+05	-1.76003900196E+01	-1.07623745510E+02	2.90994247969E+01	-1.72108091548E+02	-3.83602352606E+01	8.91700862831E+01	-5.75982047130E+00	1.91944518649E+00
3.06574006730E+05	-2.54709109563E+01	-4.51533810079E-01	2.90358535979E+01	-1.72287619668E+02	-3.63781054468E+01	-1.07810507990E+02	-5.97172907186E+00	-4.37256380286E+00
3.06795603964E+05	-1.81753755801E+01	1.73336371576E+01	2.90247565316E+01	-1.72315783465E+02	-5.12821920331E+01	7.36744250355E+01	-5.87718944469E+00	1.41574727299E-01
3.07017361372E+05	-1.95452563841E+01	-4.23159550248E+01	2.90646411747E+01	-1.72219800806E+02	-3.77916477231E+01	6.03546767981E+01	-5.65659353967E+00	1.88274710378E+00
3.07239279071E+05	-1.46934666366E+01	-3.25806127049E+01	2.90355206785E+01	-1.72135487253E+02	-3.40522364116E+01	1.33731840171E+02	-6.30304141300E+00	2.16750422893E+00
3.07461357176E+05	-2.24349940576E+01	1.01256666538E+02	2.91185815824E+01	-1.72740693352E+02	-4.08548717264E+01	-7.77388639477E+01	-5.80608081490E+00	-1.90305242407E+00
3.07683595803E+05	-2.25964805889E+01	9.53204647196E+01	2.90655414851E+01	-1.72686480148E+02	-3.51995317262E+01	9.28545271785E+01	-5.95009265072E+00	2.75132407938E+00
3.07905995068E+05	-2.20568191695E+01	1.05785116482E+02	2.91294511527E+01	-1.72769199647E+02	-4.51460022220E+01	5.43306479407E+00	-5.65430219464E+00	2.26889686316E-02
3.08128555087E+05	-1.59074452644E+01	1.03702972529E+02	2.91315058795E+01	-1.73010316724E+02	-3.14349253739E+01	-1.42309563037E+02	-6.36427858571E+00	-4.95275264346E+00
3.08351275976E+05	-1.82375510233E+01	-5.85120647870E+01	2.90355081691E+01	-1.72148389195E+02	-4.53594174187E+01	-9.80416071978E+01	-5.80346901867E+00	-1.16150544981E+00
3.08574157853E+05	-2.25726422301E+01	-6.88881441324E+00	2.90589456115E+01	-1.72581196317E+02	-3.89723148045E+01	-8.24598829782E+01	-5.77387461069E+00	-2.40758634879E+00
3.08797200832E+05	-1.54127691253E+01	3.82878102221E+01	2.90187727395E+01	-1.72853092456E+02	-4.02143725737E+01	-1.32128058484E+02	-6.00753356788E+00	-1.86481136058E+00
3.09020405031E+05	-2.24515848972E+01	-8.13029512823E+01	2.90989788881E+01	-1.72405198849E+02	-3.94400766927E+01	-4.61736126314E+01	-5.57217332677E+00	-1.74966707410E+00
3.09243770566E+05	-1.92628189091E+01	3.72673245788E+01	2.90211090046E+01	-1.72824575259E+02	-5.13858985489E+01	2.23125009651E+01	-5.81575157649E+00	4.94495724419E-01
3.09467297553E+05	-1.36927384335E+01	-3.28692045201E+01	2.90004989459E+01	-1.72041704479E+02	-3.84130911344E+01	-8.16776388397E+01	-5.73863757545E+00	-2.30218244452E+00
3.09690986110E+05	-2.35953196071E+01	-3.51897015482E+00	2.90190696972E+01	-1.72626558527E+02	-3.66224585812E+01	6.55723081365E+01	-5.86816591014E+00	2.61682066026E+00
3.09914836353E+05	-8.33581155557E+00	5.92293531005E+01	2.89519596947E+01	-1.74473834163E+02	-4.24996389750E+01	-9.90328059865E+01	-5.83459546556E+00	-2.43626025733E+00
3.10138848399E+05	-2.05242067473E+01	1.76205798581E+02	2.91425887731E+01	-1.72547535978E+02	-4.58327506771E+01	-1.69763810051E+02	-5.92678992333E+00	-2.50668767402E-01
3.10363022365E+05	-1.74759279021E+01	1.48218167030E+02	2.91409357558E+01	-1.72835026351E+02	-4.25887304509E+01	-6.17082428713E+01	-5.70643151724E+00	-1.79722606000E+00
3.10587358368E+05	-1.87440795412E+01	7.63825933217E+00	2.90177677528E+01	-1.72716554453E+02	-3.74823348153E+01	9.53359035326E+01	-5.85940026318E+00	2.26853265712E+00
3.10811856525E+05	-2.05883522686E+01	9.66190947230E+00	2.90640603529E+01	-1.72864543924E+02	-3.79391629816E+01	-7.12018498142E+01	-5.67662624418E+00	-2.76676479195E+00
3.11036516954E+05	-3.07101098176E+01	1.07389795550E+02	2.91032127413E+01	-1.73028942212E+02	-3.60333816934E+01	-1.69523903774E+02	-6.39716026773E+00	-1.48169899005E+00
3.11261339771E+05	-1.51497260091E+01	3.33324367639E+01	2.90066025553E+01	-1.73190458255E+02	-2.98234391602E+01	-1.43349225310E+02	-6.72358442022E+00	-6.35371986554E+00
3.11486325094E+05	-1.70634402355E+01	-9.60950523136E+01	2.90949711851E+01	-1.72291486886E+02	-3.57873702988E+01	1.39457946992E+02	-6.31666298249E+00	1.49741667887E+00
3.11711473040E+05	-2.20387449728E+01	1.02645764342E+02	2.91025804431E+01	-1.73103361917E+02	-3.59277245637E+01	-2.30530408810E+01	-5.45925294271E+00	-1.27977231814E+00
3.11936783728E+05	-1.68848465890E+01	9.76480678865E+01	2.91340736308E+01	-1.73332749559E+02	-5.03348336673E+01	-3.32578071649E+01	-5.92499831007E+00	-4.99613524101E-01
3.12162257274E+05	-2.05776838125E+01	-8.05845733715E+01	2.91055697187E+01	-1.72617818545E+02	-3.87901850546E+01	-1.23600534412E+02	-6.02784310449E+00	-2.29344960107E+00
3.12387893797E+05	-1.50282840674E+01	-3.23667409762E+01	2.90476256067E+01	-1.72613147547E+02	-3.62760153933E+01	1.44529462609E+02	-6.19548207451E+00	5.73822500834E-01
3.12613693413E+05	-1.68431137583E+01	-5.34045878916E+01	2.90403100301E+01	-1.72588107814E+02	-4.03819410810E+01	9.11680664350E+01	-5.87858346040E+00	1.45121045223E+00
3.12839656242E+05	-1.33942441992E+01	1.61273710224E+02	2.92163002817E+01	-1.73214680934E+02	-3.47713636677E+01	-2.54775245864E+01	-5.19442978715E+00	-1.44920452348E+00
3.13065782401E+05	-1.05872072492E+01	-8.25468538911E+01	2.91116966278E+01	-1.71666894420E+02	-3.41690743450E+01	5.50510338748E+01	-5.53609443849E+00	2.80982640155E+00
3.13292072007E+05	-2.62613726968E+01	-1.38872540369E+02	2.91175290189E+01	-1.72789763655E+02	-4.16346507873E+01	1.25028134198E+02	-6.00841839501E+00	4.94969852022E-01
3.13518525180E+05	-2.78015829991E+01	2.76551762307E+01	2.90807244179E+01	-1.73150873198E+02	-4.57793544772E+01	-4.45026158516E+01	-5.62167354139E+00	-1.58913128054E+00
3.13745142038E+05	-1.67807995778E+01	1.20550906603E+02	2.91391144093E+01	-1.73310366358E+02	-4.34283157687E+01	-1.58670194309E+01	-5.78644438704E+00	-6.41099343441E-01
3.13971922698E+05	-2.10387166527E+01	-5.07187815304E+01	2.90677254431E+01	-1.72994208503E+02	-3.77890814624E+01	-1.18065004179E+01	-5.42321130945E+00	-7.48944930885E-01
3.14198867279E+05	-1.78331169040E+01	1.95601232270E+01	2.90578872165E+01	-1.73094020324E+02	-4.48424237242E+01	1.67140430183E+02	-6.13549821024E+00	-1.15478650497E+00
3.14425975900E+05	-1.88400427426E+01	-6.98845884855E+01	2.90690738209E+01	-1.72611663664E+02	-4.16940467027E+01	-1.34764717237E+02	-6.01777592832E+00	-2.19628190070E+00
3.14653248680E+05	-1.02818016506E+01	-1.11691555371E+02	2.91741521470E+01	-1.71865257715E+02	-3.58087222644E+01	1.01991723126E+02	-6.11781355070E+00	2.31043672113E+00
3.14880685736E+05	-2.71745384916E+01	9.26900157969E+01	2.90822044530E+01	-1.73271596643E+02	-4.27478631498E+01	9.60224554555E+01	-5.87831760412E+00	1.11800353203E+00
3.15108287188E+05	-1.58488280912E+01	-3.85339811266E+01	2.90298538623E+01	-1.72828174485E+02	-4.06517314837E+01	-1.13769602113E+02	-5.97238950017E+00	-1.94325815384E+00
3.15336053154E+05	-2.08911169809E+01	3.73514386284E+01	2.90431273683E+01	-1.73225817052E+02	-4.03787805617E+01	1.58034266295E+02	-6.20211341194E+00	-1.82876784708E-01
3.15563983753E+05	-2.11760742085E+01	-7.67945436064E+00	2.90722390049E+01	-1.73192648302E+02	-3.97882071418E+01	7.11515529478E+01	-5.78481176229E+00	1.66858029181E+00
3.15792079105E+05	-1.99258758566E+01	2.77851030735E+01	2.90470901643E+01	-1.73322171558E+02	-4.16341548029E+01	-5.26697904324E+01	-5.66172203386E+00	-1.74493462015E+00
3.16020339328E+05	-1.96322991294E+01	-9.82999970349E+00	2.90136014801E+01	-1.73111010474E+02	-5.24769683130E+01	1.36613889971E+02	-5.97130445861E+00	-1.38839932334E+00
3.16248764542E+05	-1.31317752823E+01	-6.65002640534E+01	2.90199983330E+01	-1.72545288122E+02	-3.27453292387E+01	8.93856970781E+01	-5.99458318676E+00	5.63909295422E+00
3.16477354866E+05	-2.13396108641E+01	-1.46141361051E+02	2.91030395648E+01	-1.73180517026E+02	-5.11040632809E+01	-9.71338347133E+01	-5.77693281034E+00	-1.31469857851E+00
3.16706110419E+05	-2.40747937963E+01	-4.62422466282E+00	2.90870634485E+01	-1.73194596827E+02	-6.50157625759E+01	-1.04361248342E+02	-5.91254859308E+00	-7.38136143177E-01
3.16935031321E+05	-2.04780498810E+01	-6.09137744192E+01	2.90931210893E+01	-1.73241134775E+02	-3.71420058417E+01	2.68940664752E+01	-5.54326725504E+00	1.28894500105E+00
3.17164117691E+05	-1.58246656159E+01	-9.12696900537E+01	2.91200026054E+01	-1.72480690685E+02	-3.91904911237E+01	1.57425645536E+02	-6.23292796564E+00	2.84688055607E-01
3.17393369648E+05	-2.44457438336E+01	-6.98350956019E+01	2.90810052176E+01	-1.73088488519E+02	-4.18127114345E+01	-1.35030406648E+02	-6.05896468819E+00	-1.48035701075E+00
3.17622787313E+05	-2.13158322419E+01	1.03828189021E+02	2.91076786336E+01	-1.73626474419E+02	-3.86738543779E+01	-1.15460398553E+02	-5.96714823222E+00	-3.55845334575E+00
3.17852370806E+05	-1.01510611359E+01	7.50474955688E+01	2.91032053167E+01	-1.74618836871E+02	-5.99531179831E+01	1.54849389176E+02	-5.81468745565E+00	-1.22690244888E+00
3.18082120245E+05	-1.83847348266E+01	3.37330101041E+01	2.90359980457E+01	-1.73485161166E+02	-3.96152930967E+01	-9.69269590272E+01	-5.87544131306E+00	-2.41226039215E+00
3.18312035752E+05	-3.45410002085E+01	-5.35612147472E+01	2.91207490419E+01	-1.73245297942E+02	-3.55748432235E+01	1.52941418407E+02	-6.30038252186E+00	3.91856890615E-01
3.18542117445E+05	-1.74247112353E+01	-5.44340440492E+01	2.90411268857E+01	-1.72890553164E+02	-4.07543870638E+01	1.06578824310E+02	-5.93231593220E+00	1.04226946604E+00
3.18772365446E+05	-1.12479194820E+01	-4.49174226449E+01	2.90053242587E+01	-1.72533676351E+02	-3.95056556073E+01	8.47709259565E+01	-5.81262760790E+00	2.39603123563E+00
3.19002779874E+05	-2.31565618268E+01	-4.70621933243E+01	2.90468804664E+01	-1.73377955167E+02	-3.42163866971E+01	-1.41495124903E+02	-6.23537411011E+00	-3.34833536306E+00
3.19233360850E+05	-1.86438737022E+01	2.46080365764E+01	2.90542219052E+01	-1.73536258683E+02	-4.50802392100E+01	-1.15033170378E+02	-5.91079899249E+00	-1.45138729653E+00
3.19464108494E+05	-1.30363619774E+01	-5.55564328189E+01	2.90068735279E+01	-1.72731596995E+02	-3.25927403490E+01	-1.38637031759E+02	-6.30051687345E+00	-4.71028128420E+00
3.19695022927E+05	-2.49204377900E+01	-5.66678645936E+01	2.91218601043E+01	-1.73046177397E+02	-3.72765882367E+01	-5.84425208232E+01	-5.53191030727E+00	-2.57398403318E+00
3.19926104268E+05	-2.01222274110E+01	-8.47077110734E+01	2.91174870552E+01	-1.73245967766E+02	-3.29959490355E+01	-1.47878984760E+02	-6.32843496987E+00	-3.61441196389E+00
3.20157352640E+05	-2.72935279171E+01	-8.05254211820E+01	2.90845567135E+01	-1.73115364266E+02	-4.66281547278E+01	5.10649136910E+01	-5.78784638517E+00	5.14712442668E-01
3.20388768162E+05	-1.92053955289E+01	-6.36687885467E+01	2.91170775078E+01	-1.73127561011E+02	-3.52827624103E+01	9.93915635675E+01	-5.92887956732E+00	3.14944437433E+00
3.20620350955E+05	-2.36605150229E+01	2.61660624952E+01	2.90576562028E+01	-1.73605229828E+02	-4.36157139926E+01	-2.87508674802E+01	-5.82560373694E+00	-1.39622516213E+00
3.20852101140E+05	-1.42499775863E+01	-7.56291480339E+01	2.90552961971E+01	-1.72883047764E+02	-3.28333165791E+01	-1.69674964659E+02	-6.51731572423E+00	-2.64002886535E+00
3.21084018839E+05	-1.81389767153E+01	5.54099961947E+01	2.90307969398E+01	-1.73847429259E+02	-3.93366064305E+01	1.22366745047E+02	-6.33927000261E+00	2.40986670261E+00
3.21316104172E+05	-1.36593198533E+01	-1.00009811200E+02	2.91207342294E+01	-1.72574354678E+02	-3.85841078310E+01	-2.72633115400E+01	-5.50501632760E+00	-1.93458679064E+00
3.21548357261E+05	-1.91975781431E+01	8.44361485187E+00	2.90107836998E+01	-1.73355809714E+02	-3.78626984673E+01	-1.78653855178E+02	-6.27839936856E+00	-6.99357461205E-01
3.21780778226E+05	-2.18703394853E+01	-1.14768433257E+02	2.91369147740E+01	-1.73356767033E+02	-3.65324935703E+01	-8.58438329452E+01	-5.70506334861E+00	-3.45141053263E+00
3.22013367189E+05	-1.99579309192E+01	-1.58966744195E+02	2.91595503389E+01	-1.73537549026E+02	-3.89235364018E+01	-1.13115730228E+02	-5.91312033227E+00	-2.65829975906E+00
3.22246124272E+05	-3.30043042596E+01	1.50336927983E+02	2.91144553466E+01	-1.73631122860E+02	-4.47052299855E+01	-1.07441566744E+02	-5.85838950823E+00	-1.60348831262E+00
3.22479049596E+05	-2.63416775515E+01	1.94143987218E+01	2.90647990878E+01	-1.73644560256E+02	-3.46198482072E+01	-9.17401364855E+01	-5.80079423427E+00	-4.57670424546E+00
3.22712143282E+05	-3.02905111119E+01	-1.07239019446E+02	2.91140023416E+01	-1.73567774455E+02	-3.41100847331E+01	7.98291827003E+01	-5.65794360978E+00	4.81153283063E+00
3.22945405453E+05	-2.81922055445E+01	-1.06735162426E+02	2.91113781009E+01	-1.73560130476E+02	-4.53333701829E+01	-4.57750750042E+01	-5.82147191676E+00	-1.12605652670E+00
3.23178836230E+05	-2.36398266094E+01	-1.57938471947E+02	2.91623491103E+01	-1.73418023285E+02	-4.19478465426E+01	-6.50292996868E+01	-5.71890472426E+00	-1.85475268383E+00
3.23412435735E+05	-2.44253265590E+01	7.35565134915E-01	2.90749385630E+01	-1.73525097899E+02	-4.50701683871E+01	-8.53670830796E+01	-5.83745976194E+00	-1.73834006536E+00
3.23646204090E+05	-2.68346288228E+01	2.71078807925E+01	2.90841032245E+01	-1.73783689032E+02	-3.41285574870E+01	3.80130805775E+01	-5.47040049065E+00	2.27767074974E+00
3.23880141417E+05	-2.42260545882E+01	-5.90321942538E+01	2.90896146217E+01	-1.73386739422E+02	-4.77845465974E+01	1.61421933792E+02	-5.98663731335E+00	-4.11172427376E-01
3.24114247838E+05	-2.10691751710E+01	-3.34050388549E+01	2.90972258884E+01	-1.73723740016E+02	-5.32778659634E+01	1.69659582997E+02	-5.95386321335E+00	-6.37723793725E-01
3.24348523475E+05	-1.12920287802E+01	-1.24809068441E+02	2.91974418589E+01	-1.72918511255E+02	-3.59764082067E+01	-4.20611756937E+00	-5.16684887785E+00	8.51661107636E-02
3.24582968451E+05	-1.62877312158E+01	-1.01574602661E+02	2.91313129414E+01	-1.73078845017E+02	-5.35768580064E+01	-8.40581590081E+01	-5.86061753783E+00	-1.13652409162E+00
3.24817582888E+05	-2.22159435761E+01	-1.69322417194E+02	2.91618008228E+01	-1.73547124304E+02	-4.87601981017E+01	5.46121957687E+01	-5.76838895796E+00	2.97507583759E-01
3.25052366909E+05	-1.98245955401E+01	-1.36447125589E+02	2.91640197560E+01	-1.73465960029E+02	-3.69769179527E+01	5.68580522443E+01	-5.74072178941E+00	2.44941199297E+00
3.25287320635E+05	-1.64361463989E+01	-4.79341903695E+01	2.90364931184E+01	-1.73382267003E+02	-3.66129686650E+01	9.81308935318E+01	-5.97830339473E+00	2.82926074969E+00
3.25522444191E+05	-1.81545289990E+01	-1.11394295657E+02	2.91603409319E+01	-1.73545508673E+02	-4.44177127765E+01	-1.49129416088E+02	-5.89366851609E+00	-2.01561714678E+00
3.25757737698E+05	-2.32893483889E+01	1.05175256688E+01	2.90780833689E+01	-1.73798393720E+02	-3.81387945626E+01	-2.11852780695E+01	-5.37511608999E+00	-1.36934416558E+00
3.25993201280E+05	-1.66404873722E+01	-1.57532989711E+01	2.90562325024E+01	-1.73903780679E+02	-3.39063697292E+01	1.18370500461E+02	-6.22967385781E+00	2.74341280016E+00
3.26228835058E+05	-1.75012014814E+01	-1.32103184493E+02	2.91505747986E+01	-1.73587557218E+02	-4.19005510362E+01	1.10354953811E+02	-5.92766510719E+00	8.53691918899E-01
