# Hz S DB R 50
! CMT, M5065, 19127446, 24.2.4/2
! Date: 11/1/2024 4:34:19 PM
! Data: Format (Calibration Info)
! Freq	S11:dB/Ang(F2)	S21:dB/Ang(F2)	S12:dB/Ang(F2)	S22:dB/Ang(F2)
3.00000000000E+05	-9.94392112695E+00	8.69958045066E+01	1.07172370260E+01	-1.78924856627E+02	-4.04872125244E+01	-1.25490473643E+02	-5.90174465093E+00	-4.72642539056E-01
3.00216845423E+05	-3.41599621173E+01	-1.57527580651E+02	1.07236353055E+01	-1.76991533307E+02	-4.70017780204E+01	1.74819640136E+02	-5.89532342544E+00	-3.31493433772E-01
3.00433847586E+05	-2.65583289867E+01	5.63908526882E+01	1.07138846919E+01	-1.77612356733E+02	-4.69366882165E+01	1.03606953607E+01	-5.86657963027E+00	-1.43431160933E-01
3.00651006602E+05	-3.46121597063E+01	-9.65070810056E+01	1.06763277142E+01	-1.77271787362E+02	-4.13743836108E+01	7.93598703171E+01	-5.86366370631E+00	2.59151870977E-01
3.00868322584E+05	-2.16523498087E+01	9.50211768100E+01	1.07121360089E+01	-1.77853267772E+02	-4.76676438908E+01	3.71436149861E+01	-5.85058388080E+00	-6.79205309121E-02
3.01085795647E+05	-1.94472377252E+01	1.13664947174E+02	1.06296453044E+01	-1.77755604456E+02	-4.38939312338E+01	5.28050385986E+01	-5.87761445902E+00	-9.98372240664E-02
3.01303425902E+05	-1.53625550914E+01	-1.34059112129E+02	1.07676155166E+01	-1.77381702864E+02	-4.00078382380E+01	-8.42543992937E+01	-5.87697651326E+00	-6.22417636752E-01
3.01521213465E+05	-2.18374316164E+01	1.02007630994E+02	1.06718062928E+01	-1.77854985129E+02	-5.03222411666E+01	1.47274042093E+02	-5.94620887569E+00	-5.62551516436E-01
3.01739158449E+05	-1.79292640400E+01	-1.10504172723E+02	1.07517089352E+01	-1.77239254851E+02	-3.65187634225E+01	-8.71907032827E+01	-5.90010162088E+00	-5.41201475856E-01
3.01957260967E+05	-2.07389790596E+01	5.83322479819E+01	1.06827594403E+01	-1.77413038138E+02	-5.08879161500E+01	1.11557420125E+01	-5.90485652762E+00	-2.46072763606E-01
3.02175521134E+05	-1.48066941259E+01	1.25950784884E+02	1.07229895150E+01	-1.78085164474E+02	-2.69970470586E+01	-1.69552994523E+02	-6.08304915238E+00	-5.85606638523E-01
3.02393939063E+05	-1.75845895226E+01	-1.72426899958E+02	1.07626867237E+01	-1.77636388484E+02	-3.68817078585E+01	-6.20465024822E+00	-5.85321421395E+00	-4.83600065593E-01
3.02612514869E+05	-2.14752099312E+01	1.72912380885E+02	1.07235710161E+01	-1.77257995975E+02	-3.94462064957E+01	-1.59850433006E+02	-5.91210700752E+00	-4.24953846135E-01
3.02831248665E+05	-2.63636000317E+01	-4.87750355401E+01	1.06776025551E+01	-1.77385369356E+02	-4.48860575712E+01	4.29635782716E-01	-5.87938025231E+00	7.68629919942E-02
3.03050140565E+05	-1.78690996207E+01	-1.28602380086E+02	1.07279731418E+01	-1.77112120147E+02	-4.44632090845E+01	1.30030849861E+02	-5.88976844276E+00	-7.48165087179E-02
3.03269190685E+05	-1.74732669581E+01	-1.53701183330E+02	1.07950168910E+01	-1.77126363345E+02	-3.63638696296E+01	-2.76530810550E+01	-5.86736003984E+00	-3.33128042770E-01
3.03488399138E+05	-1.40180089195E+01	7.54082704205E+00	1.06056156992E+01	-1.77432045511E+02	-4.08449808592E+01	1.11349392803E+02	-5.85840906514E+00	-4.96615932752E-02
3.03707766039E+05	-2.42942840049E+01	-2.12900768727E+00	1.06266250050E+01	-1.77698554939E+02	-3.43937952719E+01	-1.64138809652E+01	-5.76866374211E+00	-4.83609202789E-01
3.03927291503E+05	-1.27839798068E+01	1.60081119099E+02	1.07931250293E+01	-1.77599737318E+02	-4.27366123498E+01	1.55203967828E+02	-5.93330995714E+00	-2.40290143194E-02
3.04146975643E+05	-2.51508469315E+01	-6.80432741789E+01	1.06337126176E+01	-1.77399643347E+02	-3.92196600101E+01	-2.36961264356E+01	-5.82292507159E+00	-4.17217189154E-01
3.04366818575E+05	-1.95220484083E+01	-5.46296816542E+01	1.06200083424E+01	-1.76753000267E+02	-3.80247629420E+01	1.43567044056E+02	-5.96105344604E+00	-1.76291926983E-01
3.04586820414E+05	-1.99772140152E+01	-1.14472166617E+02	1.07023409194E+01	-1.76654361872E+02	-4.33875688029E+01	-1.81761644652E+01	-5.82829742096E+00	-2.08989625231E-01
3.04806981274E+05	-1.82978802888E+01	-1.18301262974E+02	1.07341322712E+01	-1.76796703085E+02	-4.00561972931E+01	6.75962327802E+01	-5.85060890179E+00	-1.66487152387E-01
3.05027301270E+05	-1.73501814703E+01	-1.25441819048E+02	1.06938374070E+01	-1.77276250055E+02	-3.79784433326E+01	-7.97628501033E+01	-5.90669665579E+00	-3.60731834922E-01
3.05247780517E+05	-2.12769751491E+01	1.29212173973E+02	1.07493601451E+01	-1.77888837398E+02	-2.90455313525E+01	1.01263557341E+01	-5.72923338510E+00	1.07885887902E-01
3.05468419131E+05	-2.28995086563E+01	1.43444774133E+02	1.07697186149E+01	-1.77798902921E+02	-3.65034714836E+01	-5.79477179655E+01	-5.85704588133E+00	-6.13247741627E-01
3.05689217226E+05	-2.33740330093E+01	-1.51285320202E+02	1.07716443967E+01	-1.77320481483E+02	-5.39546206442E+01	-1.00654728715E+02	-5.86479213756E+00	-3.29588295769E-01
3.05910174918E+05	-2.03446335394E+01	1.28193633800E+01	1.06192476330E+01	-1.77412642709E+02	-4.15538290479E+01	-1.22216313997E+02	-5.91593194024E+00	-4.09545367171E-01
3.06131292322E+05	-9.65375358597E+00	-1.47465924891E+02	1.08830465727E+01	-1.76431129438E+02	-3.80639208170E+01	-9.22594244164E+01	-5.87728765811E+00	-5.94840292779E-01
3.06352569554E+05	-1.49126468203E+01	-3.59160723510E+01	1.05664362085E+01	-1.77215994744E+02	-4.53704890485E+01	-9.28985578855E+01	-5.93117216750E+00	-3.01483176175E-01
3.06574006730E+05	-2.64386953231E+01	-3.11544141859E+01	1.06335504283E+01	-1.77311769265E+02	-4.74660138853E+01	-1.33453614875E+02	-5.86602012771E+00	-1.62739096983E-01
3.06795603964E+05	-2.37260037422E+01	-6.01447785447E-01	1.06894518773E+01	-1.77269817191E+02	-3.05061247106E+01	6.99429008262E+01	-5.80787465959E+00	4.39730547233E-01
3.07017361372E+05	-2.78493465671E+01	-1.05170575285E+02	1.07011766358E+01	-1.76902459933E+02	-5.23380659022E+01	-1.11105980913E+02	-5.90115942608E+00	-1.31813093776E-01
3.07239279071E+05	-1.99787247026E+01	-1.25837074251E+02	1.06948353239E+01	-1.77385693048E+02	-3.59462696488E+01	-1.27888892689E+01	-5.83428595817E+00	-3.98735189402E-01
3.07461357176E+05	-2.28905423059E+01	9.68372540678E+01	1.07244052646E+01	-1.77776521651E+02	-3.93662134568E+01	-9.82681484362E+01	-5.90249782899E+00	-6.04683747418E-01
3.07683595803E+05	-2.78682969336E+01	1.41877668468E+02	1.08044761885E+01	-1.77520639161E+02	-4.68518232279E+01	-1.08570608570E+02	-5.84397394351E+00	-2.99887489762E-01
3.07905995068E+05	-1.71451296705E+01	-6.02628959234E+01	1.06334260770E+01	-1.77164073713E+02	-3.77367585111E+01	7.18094468636E+01	-5.83797210982E+00	-8.02942098777E-02
3.08128555087E+05	-1.98736640423E+01	-1.64287681852E+02	1.07495537437E+01	-1.77258457225E+02	-4.58232303075E+01	9.05991843877E+01	-5.89595122386E+00	1.02976261133E-01
3.08351275976E+05	-1.75980894270E+01	1.68582387612E+02	1.07586001266E+01	-1.77573326280E+02	-3.11786559286E+01	-1.46453925575E+01	-5.72727790229E+00	-3.93902615022E-01
3.08574157853E+05	-3.09201367528E+01	4.08670622194E+01	1.07188022510E+01	-1.77562909038E+02	-3.51681600972E+01	-9.91701944581E+01	-5.89276113372E+00	-9.04006259441E-01
3.08797200832E+05	-2.29287949123E+01	-6.83739879670E+01	1.06876471584E+01	-1.77344739614E+02	-5.06732457753E+01	1.63379259431E+02	-5.94144037714E+00	-1.60970165061E-02
3.09020405031E+05	-1.72941561240E+01	7.51145186446E+01	1.06656443780E+01	-1.78201314059E+02	-3.76945653192E+01	6.44305492255E+01	-5.86508590603E+00	-7.50011493746E-02
3.09243770566E+05	-2.69902678140E+01	1.04369386665E+02	1.07257558369E+01	-1.77561453906E+02	-4.03879604112E+01	-9.91632687871E+01	-5.91248275773E+00	-6.49516655420E-01
3.09467297553E+05	-2.15431074940E+01	1.00653422875E+01	1.06698679347E+01	-1.77813338958E+02	-3.72242399489E+01	1.48942127472E+02	-5.89282234788E+00	-3.38941311109E-01
3.09690986110E+05	-1.53628310269E+01	-4.50430667599E+01	1.06345410832E+01	-1.77328172929E+02	-3.69713725980E+01	7.02544461760E+01	-5.88538862499E+00	6.19224925125E-02
3.09914836353E+05	-2.79668175912E+01	1.33754185080E+02	1.07162669041E+01	-1.77756429364E+02	-3.18322687181E+01	-1.23722479102E+02	-5.97781651555E+00	-8.84378594561E-01
3.10138848399E+05	-2.19511192489E+01	-1.25650571117E+02	1.06968048418E+01	-1.77410822821E+02	-3.49437710290E+01	1.77440922951E+02	-5.92461532653E+00	-2.91752678081E-01
3.10363022365E+05	-2.44707630900E+01	1.20813244109E+01	1.06450378485E+01	-1.77501304224E+02	-3.65631418307E+01	-1.72072278079E+02	-5.96876906917E+00	-2.27129215279E-01
3.10587358368E+05	-2.15601081123E+01	2.45829800663E+01	1.06188841724E+01	-1.77665784546E+02	-3.56324262442E+01	8.57870875485E+01	-5.93200834374E+00	-9.39781947229E-02
3.10811856525E+05	-2.38190193792E+01	1.90799134007E+01	1.06396589550E+01	-1.77527154442E+02	-3.87599119300E+01	-2.79282958297E+01	-5.85800948465E+00	-4.75183847152E-01
3.11036516954E+05	-2.41972021494E+01	2.30241381706E+01	1.06298521541E+01	-1.77265923238E+02	-3.95576806498E+01	8.65288767116E+00	-5.85312594238E+00	-3.24524990316E-01
3.11261339771E+05	-3.59481870319E+01	-1.71474986960E+02	1.06255358812E+01	-1.77449551806E+02	-3.69683812559E+01	-1.18725011382E+02	-5.92902084386E+00	-5.47417796460E-01
3.11486325094E+05	-2.00030716047E+01	4.66567501628E+01	1.06943379087E+01	-1.77689413407E+02	-3.24098926362E+01	1.08699660134E+02	-5.95139488583E+00	5.35057632997E-01
3.11711473040E+05	-2.90234229798E+01	3.62447040213E+01	1.06491029595E+01	-1.77427984385E+02	-3.87420440307E+01	3.04832184673E+01	-5.82532871956E+00	-2.49961289444E-02
3.11936783728E+05	-2.38841507701E+01	1.38912673176E+02	1.07135262882E+01	-1.78303061220E+02	-4.73567417113E+01	-1.53718118615E+02	-5.90081662143E+00	-5.15075000837E-01
3.12162257274E+05	-1.72526189869E+01	1.69911143750E+02	1.07969248390E+01	-1.77551224084E+02	-4.34774076414E+01	-3.01868436335E+01	-5.84162929952E+00	-3.54127716892E-01
3.12387893797E+05	-2.50716726293E+01	-7.95184750628E+01	1.06416407591E+01	-1.77812795726E+02	-4.08069800472E+01	1.02884763515E+02	-5.90992085415E+00	8.19007472642E-02
3.12613693413E+05	-1.39887695913E+01	-1.38033750482E+02	1.08013113325E+01	-1.77100270563E+02	-4.64134496384E+01	1.04054888215E+02	-5.89871395947E+00	-1.02072829850E-02
3.12839656242E+05	-2.70369684893E+01	-1.78492221792E+02	1.06840254226E+01	-1.77868433403E+02	-4.03226947899E+01	6.67860359265E+01	-5.85182949231E+00	1.78128130537E-02
3.13065782401E+05	-1.98466892200E+01	1.63254975654E+02	1.07627709167E+01	-1.77572226917E+02	-3.66594708754E+01	2.03982078381E+01	-5.79838916206E+00	1.04851487923E-01
3.13292072007E+05	-2.21100888757E+01	1.66399884776E+01	1.06185054028E+01	-1.77175979608E+02	-2.85068449603E+01	5.91616169702E+01	-5.78135965904E+00	8.18882693514E-01
3.13518525180E+05	-2.63763546655E+01	1.75562110223E+02	1.06661376834E+01	-1.77549089927E+02	-3.78535044201E+01	1.41818728483E+02	-5.93966025989E+00	-8.11127305825E-02
3.13745142038E+05	-2.67876114016E+01	1.39076652139E+02	1.07260919629E+01	-1.77553112014E+02	-4.49134555706E+01	-5.39854927552E+01	-5.85312974746E+00	-8.54629684401E-02
3.13971922698E+05	-2.47504116720E+01	2.74130813932E+01	1.06646663685E+01	-1.77830014932E+02	-3.51069363140E+01	-1.49961205098E+02	-5.95945853731E+00	-4.41930834411E-01
3.14198867279E+05	-1.83320032410E+01	1.21677320825E+02	1.07407568475E+01	-1.78372790677E+02	-3.38501869238E+01	-1.02376719569E+02	-5.94739905217E+00	-7.26588158394E-01
3.14425975900E+05	-2.07769424822E+01	1.59977049771E+01	1.06628597200E+01	-1.77675758138E+02	-3.91146020012E+01	1.78426648091E+02	-5.91903971762E+00	-4.52476657048E-01
3.14653248680E+05	-2.44259203535E+01	-9.56292317969E+01	1.06848267674E+01	-1.77135752277E+02	-3.68517539371E+01	7.27059424322E+01	-5.83197438692E+00	1.24394823476E-01
3.14880685736E+05	-1.30255413027E+01	1.01032780994E+01	1.06012808035E+01	-1.77926832972E+02	-3.21000598942E+01	-8.21668152064E+00	-5.75409742022E+00	-3.06327545247E-01
3.15108287188E+05	-2.17097629654E+01	-1.55185681042E+02	1.07684711935E+01	-1.77135007536E+02	-4.64805689992E+01	1.16522217869E+02	-5.88860415662E+00	-3.07262027994E-01
3.15336053154E+05	-1.55506574234E+01	-1.77077975496E+02	1.08146483040E+01	-1.77729988871E+02	-3.93424860016E+01	7.91043052300E+01	-5.85918663005E+00	1.13198767399E-01
3.15563983753E+05	-2.25751361461E+01	-4.91567100281E+01	1.06937558711E+01	-1.77578044776E+02	-3.65223756161E+01	-2.73402876989E+01	-5.83337858875E+00	-3.98208427512E-01
3.15792079105E+05	-1.19197994985E+01	7.71258634530E+01	1.06503234032E+01	-1.79094097629E+02	-4.96084046784E+01	1.65123553035E+02	-5.87015978037E+00	-2.45012202495E-01
3.16020339328E+05	-1.87657264285E+01	5.21827292106E+01	1.06727237242E+01	-1.77930716608E+02	-3.73976079489E+01	-1.71957953400E+02	-5.95857464013E+00	-2.62603554257E-01
3.16248764542E+05	-2.65007748637E+01	4.46209240800E+01	1.07054704990E+01	-1.78084970944E+02	-3.17826263400E+01	5.21175978247E+01	-5.78934328590E+00	1.16147978253E-01
3.16477354866E+05	-1.99955167680E+01	3.08314125522E+01	1.06494109150E+01	-1.77835438843E+02	-2.97261290755E+01	1.31643721368E+02	-6.00346281779E+00	5.16903218875E-01
3.16706110419E+05	-2.31666927440E+01	-6.87415675146E+01	1.07162133901E+01	-1.77601994634E+02	-3.75644441263E+01	-1.61771833596E+02	-5.92995553470E+00	-3.18968904118E-01
3.16935031321E+05	-1.90810928606E+01	-1.28929423645E+02	1.07435752398E+01	-1.77434026574E+02	-4.05536047752E+01	-1.77741780795E+02	-5.93921595101E+00	-2.68917794394E-01
3.17164117691E+05	-1.85000587687E+01	-6.93560201823E+01	1.06789920681E+01	-1.77540136777E+02	-4.03254623427E+01	-1.74691329748E+02	-5.91998936430E+00	-1.61029642004E-01
3.17393369648E+05	-1.48326051001E+01	-1.73123806327E+02	1.08112160663E+01	-1.77631720441E+02	-3.97523480161E+01	1.65518626931E+02	-5.95797792282E+00	-3.34753803846E-01
3.17622787313E+05	-1.86999253952E+01	-1.26183371203E+02	1.07614211781E+01	-1.77316785721E+02	-4.15376165949E+01	5.55258741604E+01	-5.87846778211E+00	2.74501423515E-01
3.17852370806E+05	-2.60784675757E+01	4.68240603710E+01	1.06878642575E+01	-1.77876467115E+02	-3.40307973854E+01	-5.39674953788E+01	-5.81379410550E+00	-7.54121096060E-01
3.18082120245E+05	-1.98478150350E+01	5.55131847310E+01	1.06833879294E+01	-1.78055606240E+02	-3.88659401923E+01	-3.02569344374E+01	-5.85726703550E+00	-5.72569367374E-01
3.18312035752E+05	-2.83351409144E+01	1.35395695370E+02	1.06902166660E+01	-1.77846085713E+02	-3.06980611497E+01	-1.51172308680E+02	-5.98230447480E+00	-7.83612794609E-01
3.18542117445E+05	-3.05990415407E+01	-1.50063365377E+02	1.07224877357E+01	-1.77758511684E+02	-4.06283558397E+01	-1.28341062847E+02	-5.93924013081E+00	-1.74148696145E-01
3.18772365446E+05	-3.25128671246E+01	1.55578644954E+02	1.07015335793E+01	-1.77493063968E+02	-4.00203434839E+01	-7.03555418741E+01	-5.85087074727E+00	-4.88346356150E-01
3.19002779874E+05	-2.26488706980E+01	4.23887410094E+01	1.06133042244E+01	-1.77930447474E+02	-4.00827347772E+01	-1.60388102223E+02	-5.94420656411E+00	-3.46581932901E-01
3.19233360850E+05	-2.09230097952E+01	-1.75727698361E+02	1.07189107094E+01	-1.77471261398E+02	-6.29245215709E+01	-7.96442863039E+01	-5.93088582757E+00	-3.64900622370E-01
3.19464108494E+05	-2.17242041861E+01	1.35032140273E+02	1.06928706866E+01	-1.78270550291E+02	-3.58284234842E+01	-8.01969100571E+01	-5.86269454407E+00	-7.95390665852E-01
3.19695022927E+05	-2.22594912348E+01	6.25976414370E+01	1.07419827920E+01	-1.77797322559E+02	-4.14226254151E+01	1.53886006794E+02	-5.95214879903E+00	-4.97893070888E-01
3.19926104268E+05	-1.80631336740E+01	-1.37822415050E+01	1.06292319595E+01	-1.77436045950E+02	-3.94173746376E+01	-1.71740219444E+02	-5.93411351891E+00	-9.03564874743E-02
3.20157352640E+05	-1.88466319716E+01	-8.60917198337E+01	1.07037612079E+01	-1.77417036420E+02	-3.79747706451E+01	-4.32217927220E+01	-5.85439161690E+00	-5.58221276056E-01
3.20388768162E+05	-1.59319261245E+01	-6.53041531491E+01	1.06266072961E+01	-1.77307270314E+02	-3.35380507854E+01	-1.78286999840E+02	-5.95082169038E+00	-2.68019459383E-01
3.20620350955E+05	-1.00232653350E+01	-1.46089059631E+02	1.09080434408E+01	-1.77384712169E+02	-4.05683217744E+01	-1.71633334495E+01	-5.86552712269E+00	-4.85864306697E-01
3.20852101140E+05	-1.84502842879E+01	7.36591746636E+01	1.06971044294E+01	-1.78492415280E+02	-4.35747731682E+01	1.11988499184E+02	-5.94313051787E+00	-1.58011329781E-01
3.21084018839E+05	-2.09957009419E+01	-9.42398322451E+01	1.06963777375E+01	-1.77431281828E+02	-4.40960116917E+01	1.69770722825E+02	-5.88930051382E+00	-6.97585599824E-02
3.21316104172E+05	-2.19488006480E+01	1.73411332343E+02	1.07360941104E+01	-1.77579374657E+02	-3.02122768703E+01	1.01404111993E+02	-5.89584102005E+00	6.96249070544E-01
3.21548357261E+05	-2.03026942637E+01	9.19797224056E+01	1.07009350791E+01	-1.78527737953E+02	-3.71815163194E+01	9.55280351734E+01	-5.87650282234E+00	3.99864463579E-01
3.21780778226E+05	-2.97878547717E+01	1.14917652305E+02	1.06883054362E+01	-1.78069102299E+02	-4.16073478644E+01	1.52421087452E+02	-5.92165939555E+00	-2.25807772755E-01
3.22013367189E+05	-2.27749858582E+01	-8.94967413345E+01	1.07469685744E+01	-1.77440389456E+02	-4.05996650207E+01	-1.22640132911E+02	-5.89563914773E+00	-3.53224938585E-01
3.22246124272E+05	-1.06942289361E+01	-1.04792099210E+02	1.07748489575E+01	-1.76418632676E+02	-3.98266632790E+01	-1.54593665092E+02	-5.88766460167E+00	-3.61982482266E-01
3.22479049596E+05	-1.87925340485E+01	4.10038466188E+01	1.05998785365E+01	-1.78201161322E+02	-4.01303423850E+01	5.89450609366E+01	-5.85643664577E+00	-1.29651874527E-01
3.22712143282E+05	-1.82080259892E+01	1.92511011944E+01	1.06383817966E+01	-1.77848818583E+02	-3.71063181879E+01	2.82240449606E-01	-5.78176942862E+00	2.76906805424E-02
3.22945405453E+05	-1.68999407196E+01	1.77377012478E+02	1.07707886231E+01	-1.77445386156E+02	-3.78706014272E+01	-4.63036484773E+01	-5.82196527373E+00	-4.60932818041E-01
3.23178836230E+05	-2.88248473860E+01	-1.54294289979E+02	1.07030695419E+01	-1.77817716933E+02	-4.99720996311E+01	1.41413464351E+02	-5.85624370073E+00	8.17634112044E-02
3.23412435735E+05	-1.86326137474E+01	-2.99967113055E+00	1.06359189531E+01	-1.77991683614E+02	-3.70259946552E+01	1.04175936750E+01	-5.88134448238E+00	-1.55917438745E-01
3.23646204090E+05	-2.00576243965E+01	8.66647877864E+01	1.07201493041E+01	-1.78283486596E+02	-3.78140124498E+01	-9.43673234202E+01	-5.89339778883E+00	-5.60860310133E-01
3.23880141417E+05	-2.44947743809E+01	8.81482982875E+01	1.06836967558E+01	-1.78260730415E+02	-4.72067682707E+01	1.24444009079E+02	-5.90038770583E+00	-1.63178973245E-01
3.24114247838E+05	-1.45210439572E+01	1.69830314101E+02	1.08583693188E+01	-1.78176439671E+02	-4.07147104113E+01	-1.33031046410E+02	-5.89310260883E+00	-5.23549404690E-01
3.24348523475E+05	-1.36682028937E+01	-1.72666483245E+02	1.08216143559E+01	-1.77661557898E+02	-3.30914271228E+01	1.63930501322E+02	-5.97403483040E+00	-7.49238037490E-02
3.24582968451E+05	-1.36392631034E+01	7.51812208169E+01	1.06415243026E+01	-1.78588642600E+02	-3.42030782744E+01	-1.24987977111E+02	-5.87796687766E+00	-7.90229608477E-01
3.24817582888E+05	-2.01673287226E+01	-2.74896927871E+01	1.05960666752E+01	-1.77591047909E+02	-3.67402659377E+01	-4.78853181055E+01	-5.83598400871E+00	-3.42731956438E-01
3.25052366909E+05	-2.13683328200E+01	1.33203048831E+02	1.07230523486E+01	-1.78309634516E+02	-4.28630102608E+01	-1.56814324227E+02	-5.91688101807E+00	-5.89761201740E-01
3.25287320635E+05	-2.38228697537E+01	-3.25859405097E+01	1.07261303089E+01	-1.77764349613E+02	-4.31122707219E+01	-1.48567982016E+02	-5.85639461856E+00	-3.93620580649E-01
3.25522444191E+05	-1.66891748697E+01	1.11046608485E+02	1.07402073177E+01	-1.78529659295E+02	-3.49567134439E+01	-1.07940968965E+02	-5.91530943344E+00	-4.94433798694E-01
3.25757737698E+05	-2.42423335996E+01	-9.18075846473E+01	1.07308039378E+01	-1.77439444433E+02	-4.04980823762E+01	-8.94989976817E+01	-5.89374804210E+00	-8.55681838602E-01
3.25993201280E+05	-3.32593304251E+01	-1.71902580569E+01	1.06571019160E+01	-1.77830214150E+02	-3.41708981705E+01	4.77855763769E+01	-5.83003006743E+00	1.84320341318E-01
3.26228835058E+05	-2.32783565588E+01	1.70053395909E+02	1.06799161778E+01	-1.78428719025E+02	-3.17601712166E+01	-4.20977125064E+01	-5.76892925482E+00	-4.94780877291E-01
