# Hz S DB R 50
! CMT, M5065, 19127446, 24.2.4/2
! Date: 11/1/2024 4:36:11 PM
! Data: Format (Calibration Info)
! Freq	S11:dB/Ang(F2)	S21:dB/Ang(F2)	S12:dB/Ang(F2)	S22:dB/Ang(F2)
3.00000000000E+05	-1.64654758100E+01	-4.94859115541E+01	1.15877907058E+01	-1.76511544287E+02	-3.16259275826E+01	-4.98389894405E+00	-5.68324254186E+00	-4.06297454525E-01
3.00216845423E+05	-2.40560902530E+01	8.48590825128E+01	1.16195609480E+01	-1.77462908832E+02	-5.08139987392E+01	-2.89890924943E+01	-5.88744773975E+00	-2.00072610187E-01
3.00433847586E+05	-1.72861339681E+01	-1.05274235330E+02	1.16313073731E+01	-1.76231212267E+02	-4.21336000389E+01	-4.92722205690E+01	-5.86925931169E+00	-4.16406720749E-01
3.00651006602E+05	-1.75512919749E+01	9.18980805305E+01	1.15990514003E+01	-1.78088796920E+02	-3.31538237965E+01	1.02168057373E+02	-5.88664944368E+00	2.00577399345E-01
3.00868322584E+05	-2.55601189571E+01	4.76852548439E+01	1.16279967623E+01	-1.77329924019E+02	-3.60529371817E+01	-7.06224278906E+01	-5.82702256157E+00	-7.48693833502E-01
3.01085795647E+05	-1.25418666425E+01	-4.50615081160E+01	1.15483551400E+01	-1.76772772279E+02	-4.28943332674E+01	-8.62600274982E+01	-5.86039221534E+00	-2.53997253148E-01
3.01303425902E+05	-2.16395002500E+01	-5.16372804621E+01	1.16177103946E+01	-1.77254099394E+02	-3.93744665560E+01	-6.82834619383E+01	-5.88218880514E+00	-6.42952943019E-01
3.01521213465E+05	-2.34980573697E+01	1.26987426039E+01	1.16046568631E+01	-1.77496039007E+02	-3.09558047008E+01	-6.93699755006E+01	-5.77977748462E+00	-1.35118313350E+00
3.01739158449E+05	-2.70272789837E+01	1.66757523316E+02	1.15741079708E+01	-1.77482378107E+02	-3.59570449856E+01	8.67540605722E+01	-5.85994585906E+00	5.62646674196E-01
3.01957260967E+05	-2.13559736114E+01	-1.51960773938E+02	1.16478003104E+01	-1.77133411548E+02	-4.12451940093E+01	5.34842287749E+01	-5.92988915559E+00	4.29902089621E-02
3.02175521134E+05	-3.19401280444E+01	5.84884741108E+00	1.15362430517E+01	-1.77478092378E+02	-4.39000973610E+01	-1.13753154841E+02	-5.86749857354E+00	-4.25326467711E-01
3.02393939063E+05	-2.19864248092E+01	-1.76295714856E+02	1.16529483415E+01	-1.77092888389E+02	-3.85194527071E+01	-5.56543414022E+01	-5.86649876887E+00	-5.09561090818E-01
3.02612514869E+05	-2.35868390385E+01	8.08501434378E+01	1.15980317562E+01	-1.77760839962E+02	-3.75369789822E+01	-1.76245515560E+02	-5.97544772548E+00	-4.18442448794E-02
3.02831248665E+05	-1.55349896703E+01	9.73223150852E+01	1.16390438923E+01	-1.78143079973E+02	-3.91812077948E+01	1.05006658781E+02	-5.90824250343E+00	1.40579654350E-01
3.03050140565E+05	-2.17452040027E+01	8.27100515635E+01	1.16003875187E+01	-1.77584178224E+02	-3.14895709536E+01	-1.22093508769E+02	-5.88639849978E+00	-1.24687241879E+00
3.03269190685E+05	-1.93753896813E+01	-1.32583355811E+02	1.16596355466E+01	-1.76908038369E+02	-3.56557360034E+01	-1.19710204267E+02	-5.91651086601E+00	-1.06938628085E+00
3.03488399138E+05	-1.36499557509E+01	7.28972708585E+01	1.15366629318E+01	-1.78477133246E+02	-4.54118792701E+01	-2.90958739469E+01	-5.85838515391E+00	-3.10359184160E-01
3.03707766039E+05	-1.25939277998E+01	-9.48197276022E+01	1.16803517898E+01	-1.76315318728E+02	-3.77829221042E+01	-1.42870940729E+02	-5.91773632667E+00	-3.43456226106E-01
3.03927291503E+05	-2.28474815378E+01	4.17804026212E+01	1.16071767463E+01	-1.77535734107E+02	-3.95335963616E+01	-5.62489934207E+01	-5.84878547599E+00	-5.25705814843E-01
3.04146975643E+05	-1.67974766529E+01	-2.92416783938E+01	1.15030879025E+01	-1.77332279078E+02	-3.93820437457E+01	1.40670261266E+02	-5.93582892056E+00	-1.11606363906E-01
3.04366818575E+05	-2.72691162202E+01	7.01905903152E+01	1.15902243599E+01	-1.77817455211E+02	-3.84525442259E+01	-1.54428865431E+02	-5.90732701583E+00	-4.39535919665E-01
3.04586820414E+05	-4.91087651540E+01	-1.37539683503E+02	1.15832830753E+01	-1.77654235417E+02	-3.35813308211E+01	6.17695584675E+01	-5.82668467265E+00	4.33047149000E-01
3.04806981274E+05	-1.86784951535E+01	-1.31638335283E+02	1.16630195857E+01	-1.77081277847E+02	-2.77457586226E+01	1.23867875436E+02	-6.08155876401E+00	1.30790565447E+00
3.05027301270E+05	-3.13920358036E+01	1.35624473784E+02	1.16096224128E+01	-1.77549762819E+02	-4.12410636133E+01	-8.21304131779E+01	-5.92847466950E+00	-4.84280425787E-01
3.05247780517E+05	-1.09985383362E+01	3.78655485337E+00	1.14602364678E+01	-1.77320967539E+02	-3.40064840088E+01	-1.81180871708E+01	-5.80808475509E+00	-6.32541712469E-01
3.05468419131E+05	-1.67835204321E+01	-1.52084339510E+02	1.16702838599E+01	-1.77020102655E+02	-4.14233418980E+01	-9.50047619560E+01	-5.85013777704E+00	-4.18211268895E-01
3.05689217226E+05	-2.64371585204E+01	1.72906692189E+01	1.16137809159E+01	-1.77439251862E+02	-3.28896060011E+01	1.79948785716E+02	-5.99752695407E+00	-2.29099448764E-01
3.05910174918E+05	-2.83654101875E+01	-9.11813790624E+01	1.16349838526E+01	-1.77213584700E+02	-3.40934150022E+01	1.48588062207E+02	-5.94991137653E+00	5.37647545962E-02
3.06131292322E+05	-2.25425529773E+01	1.69626480562E+02	1.16771580584E+01	-1.77410397918E+02	-3.73179839284E+01	-8.46891158134E+01	-5.85804648619E+00	-6.26599914553E-01
3.06352569554E+05	-2.96982750169E+01	1.15262998687E+02	1.16175330306E+01	-1.77517599589E+02	-3.80801935849E+01	6.74307892424E+01	-5.83405487675E+00	-9.32121252634E-02
3.06574006730E+05	-2.03481557854E+01	7.54084940544E+01	1.16081176705E+01	-1.77893601217E+02	-4.88441301078E+01	-5.03262716690E+01	-5.87498263681E+00	-2.90302782582E-01
3.06795603964E+05	-8.43751019560E+00	-1.19182855018E+02	1.18033618638E+01	-1.75716080808E+02	-3.77093745539E+01	5.35082983845E+01	-5.88693862586E+00	1.49521459075E-01
3.07017361372E+05	-1.77593291266E+01	1.65942565681E+02	1.16813481765E+01	-1.77253531715E+02	-4.09424388400E+01	-6.84375933380E+01	-5.83570506901E+00	-6.17435156436E-01
3.07239279071E+05	-2.55394734267E+01	3.93345713601E+01	1.15994754337E+01	-1.77894382789E+02	-3.33642144140E+01	-1.05562127621E+02	-5.92574989425E+00	-9.54919812972E-01
3.07461357176E+05	-1.98989800359E+01	6.38123221563E+01	1.16320819951E+01	-1.77498016454E+02	-5.03327940538E+01	1.19394795676E+02	-5.92995701416E+00	-1.98734934597E-01
3.07683595803E+05	-2.07163949282E+01	-1.60256046131E+02	1.16628732995E+01	-1.77250848696E+02	-3.68245242805E+01	-8.22398322412E+01	-5.87097010738E+00	-8.50041742691E-01
3.07905995068E+05	-1.43929532151E+01	5.41910448074E+01	1.15277996300E+01	-1.77674809651E+02	-2.93375019884E+01	-9.11907638208E+01	-5.87537811640E+00	-1.45650772363E+00
3.08128555087E+05	-4.40240864417E+01	-1.33409529350E+02	1.16077594650E+01	-1.77083655896E+02	-3.66970155709E+01	1.37495882300E+02	-5.92926519901E+00	-6.60097901037E-02
3.08351275976E+05	-1.84181599650E+01	-1.21128007819E+02	1.16225562094E+01	-1.76998060237E+02	-4.19264243777E+01	-5.36530875207E+01	-5.88971624631E+00	-2.05279118567E-01
3.08574157853E+05	-1.47940561438E+01	3.38332981839E+01	1.14371797824E+01	-1.78060354933E+02	-3.88737078382E+01	-6.99575819973E+01	-5.85916804404E+00	-7.36386341942E-01
3.08797200832E+05	-2.00296860524E+01	-1.14839735474E+02	1.16363078519E+01	-1.77373847355E+02	-4.02263103676E+01	1.35591626200E+02	-5.92813706696E+00	6.37512566145E-02
3.09020405031E+05	-2.49256702266E+01	1.03075343562E+02	1.16154578783E+01	-1.77825286184E+02	-3.90544324435E+01	-8.54089245707E+01	-5.90050123295E+00	-7.02897496632E-01
3.09243770566E+05	-2.45173542926E+01	-8.45989068867E+01	1.16439604443E+01	-1.77113522472E+02	-4.30744044313E+01	-2.62284917710E+01	-5.86050997490E+00	-1.22806529153E-01
3.09467297553E+05	-3.46236123228E+01	-1.03862654927E+02	1.16070720327E+01	-1.77372987037E+02	-3.70716610309E+01	-1.72610601168E+02	-5.95488810033E+00	-3.11523049121E-01
3.09690986110E+05	-2.83958147567E+01	1.67257137552E+02	1.16598431707E+01	-1.77621237039E+02	-3.99306134240E+01	8.86308249771E+01	-5.89905147673E+00	-1.82606793223E-01
3.09914836353E+05	-1.30698915724E+01	1.44448190082E+02	1.17394908065E+01	-1.78227930750E+02	-3.87621128024E+01	1.71514637201E+02	-5.94178101317E+00	-2.94324202907E-01
3.10138848399E+05	-1.24042108572E+01	1.10008378179E+02	1.16250369089E+01	-1.78720953317E+02	-3.77167941252E+01	-1.35047672193E+02	-5.90900956207E+00	-4.88204007847E-01
3.10363022365E+05	-1.92598092915E+01	1.66787618911E+02	1.16985998921E+01	-1.77447415358E+02	-3.72717635535E+01	-1.61186500832E+02	-5.93598603025E+00	-3.94608335063E-01
3.10587358368E+05	-1.79506312158E+01	-9.69882589127E+01	1.16024407778E+01	-1.76936937686E+02	-3.66265145093E+01	1.73802886933E+02	-5.93992057483E+00	3.10811288992E-02
3.10811856525E+05	-1.95555986318E+01	1.71982976438E+02	1.16719519096E+01	-1.77551858712E+02	-4.39416536275E+01	5.55425724674E+01	-5.88553505345E+00	-6.08513596494E-02
3.11036516954E+05	-2.52477225315E+01	-9.00352102067E+01	1.16221751438E+01	-1.77096830105E+02	-3.42799305783E+01	8.51503483127E+01	-5.86656303084E+00	4.10000037431E-01
3.11261339771E+05	-2.65422052307E+01	-6.47031483178E+01	1.15769363760E+01	-1.77902155847E+02	-3.85455275057E+01	7.46866568139E+01	-5.84674814861E+00	2.73065775730E-01
3.11486325094E+05	-2.10990221839E+01	8.74459464150E+01	1.16347650468E+01	-1.78107342585E+02	-3.51751638956E+01	1.74929261456E+02	-5.92545384802E+00	-2.70791619136E-01
3.11711473040E+05	-1.02687900142E+01	-1.67936424941E+02	1.18068861863E+01	-1.76999132238E+02	-4.11610074087E+01	-1.12343465908E+02	-5.90108726094E+00	-4.47401169545E-01
3.11936783728E+05	-2.10113435280E+01	-8.65429708207E+01	1.16439025093E+01	-1.77440809444E+02	-4.42840221757E+01	-2.57620318441E+01	-5.86770206779E+00	-1.82616191808E-01
3.12162257274E+05	-2.21515916182E+01	3.24197815208E+01	1.15867829530E+01	-1.77464898836E+02	-3.41823348856E+01	1.57206329655E+02	-5.93071817153E+00	6.12395106839E-02
3.12387893797E+05	-2.18743131711E+01	3.29781208167E+01	1.15766109995E+01	-1.77881268374E+02	-4.14859760405E+01	-7.06126512602E+01	-5.88822691220E+00	-3.56492459074E-01
3.12613693413E+05	-1.31083739181E+01	1.76196522621E+01	1.15423004461E+01	-1.77842687050E+02	-4.00354801052E+01	-7.11219153397E+01	-5.84933712081E+00	-7.31489635652E-01
3.12839656242E+05	-2.30957322679E+01	-5.65009813104E+01	1.16237242118E+01	-1.77366096039E+02	-4.07026148169E+01	-7.78817692375E+01	-5.81806190309E+00	-4.27855263008E-01
3.13065782401E+05	-2.06943432349E+01	2.13333712686E+01	1.15679933633E+01	-1.77744342555E+02	-4.60258639642E+01	1.71075236399E+02	-5.88092123942E+00	-1.66647190529E-02
3.13292072007E+05	-6.97504087686E+00	-5.71611493160E+01	1.14334298767E+01	-1.75663515544E+02	-3.87431137025E+01	-1.15970187659E+01	-5.80023139912E+00	-4.86428510849E-01
3.13518525180E+05	-1.47727482640E+01	-1.13790015843E+02	1.16644398880E+01	-1.76891402109E+02	-3.58001492498E+01	-6.36963015825E+01	-5.83594032577E+00	-8.73000927936E-01
3.13745142038E+05	-1.82431035201E+01	-1.31093314680E+02	1.16634377017E+01	-1.77021610691E+02	-3.85973481282E+01	1.29487769592E+02	-5.90177286890E+00	8.73398080375E-02
3.13971922698E+05	-1.80807724514E+01	1.12084912731E+02	1.16450768396E+01	-1.78083539740E+02	-4.34447426159E+01	-3.82338416718E+01	-5.84185283117E+00	-1.64009540998E-01
3.14198867279E+05	-2.85363453955E+01	-1.77936043826E+02	1.16121181551E+01	-1.77512864507E+02	-3.18331064580E+01	9.67424933043E+01	-5.90314950103E+00	2.48320146752E-01
3.14425975900E+05	-2.59879503413E+01	-1.59828998706E+02	1.16650719015E+01	-1.77626007676E+02	-3.35259557019E+01	-4.54205278942E+01	-5.84514419843E+00	-7.03847318081E-01
3.14653248680E+05	-1.23911597648E+01	-1.17077805194E+02	1.17047031981E+01	-1.76767145477E+02	-5.81364792795E+01	7.23948669025E+01	-5.87125899904E+00	-1.26054167620E-01
3.14880685736E+05	-1.04797028336E+01	-2.97123545609E+01	1.14288023970E+01	-1.77042083040E+02	-4.20184114305E+01	7.51095390124E+01	-5.87730291128E+00	-5.75611854385E-02
3.15108287188E+05	-1.38782633050E+01	-1.34734017344E+02	1.16709566436E+01	-1.76991365929E+02	-3.82519165600E+01	-7.19742463981E+01	-5.84333928484E+00	-5.06826876353E-01
3.15336053154E+05	-2.74895799080E+01	1.45858252286E+02	1.16246775622E+01	-1.77701171914E+02	-3.99661435694E+01	1.43052334670E+02	-5.93560618847E+00	-2.92765172841E-01
3.15563983753E+05	-1.78505964972E+01	4.98450472886E+01	1.15737888546E+01	-1.78164897006E+02	-4.95609535326E+01	-1.24436091015E+02	-5.88804569452E+00	-1.72523884104E-01
3.15792079105E+05	-2.71513193417E+01	-1.47198401155E+02	1.16352465474E+01	-1.77464247988E+02	-4.22102260902E+01	-1.48884507128E+02	-5.91162186697E+00	-2.38626308737E-01
3.16020339328E+05	-1.90875195198E+01	-1.64986771282E+02	1.16721477173E+01	-1.77332121155E+02	-4.57191422860E+01	-4.42785711566E+01	-5.88275218124E+00	-5.31639306769E-01
3.16248764542E+05	-1.52245819760E+01	1.57297329686E+02	1.17188277861E+01	-1.78204438215E+02	-4.40037881603E+01	8.59141987140E+01	-5.86689317070E+00	-1.91250041286E-01
3.16477354866E+05	-1.43144649973E+01	3.29093259974E+01	1.15061409278E+01	-1.78019577990E+02	-3.47090847694E+01	-1.53662396771E+02	-5.97036431140E+00	-3.04758163741E-01
3.16706110419E+05	-2.02915311722E+01	-1.01503945553E+02	1.16008902264E+01	-1.77899560503E+02	-3.62519773272E+01	5.20977957987E+01	-5.84906475203E+00	-7.07261039504E-02
3.16935031321E+05	-2.17217651338E+01	-1.60289258326E+02	1.16571675413E+01	-1.77501388630E+02	-4.06440296163E+01	-6.08548414881E+01	-5.86572116396E+00	-4.96707008709E-01
3.17164117691E+05	-2.43099465339E+01	-1.17867943134E+02	1.16349137949E+01	-1.77501183951E+02	-4.24947705443E+01	1.05965178016E+02	-5.89999713426E+00	-2.01661279053E-01
3.17393369648E+05	-2.37277213330E+01	-3.35352511872E+01	1.16100163660E+01	-1.77570959856E+02	-3.32932997023E+01	1.43375544221E+02	-5.98099200101E+00	4.39673791661E-02
3.17622787313E+05	-1.48422982682E+01	-4.92637897934E+00	1.14947868915E+01	-1.77369344275E+02	-3.64442823880E+01	-2.37462169245E+01	-5.83724592241E+00	-2.63719336052E-01
3.17852370806E+05	-2.20610095401E+01	4.09795198046E+01	1.15635144316E+01	-1.78069960371E+02	-4.70366462599E+01	5.97921300736E+01	-5.90970008706E+00	-4.56117444400E-01
3.18082120245E+05	-1.27491808834E+01	3.29975150782E+01	1.14562614002E+01	-1.78309539002E+02	-3.69287088769E+01	-2.00481068323E+01	-5.80677748827E+00	-3.75797129509E-01
3.18312035752E+05	-2.99822321612E+01	1.28093037988E+02	1.17008645923E+01	-1.77784220108E+02	-4.08271167552E+01	-1.62971275864E+02	-5.92183203252E+00	-5.17144285682E-01
3.18542117445E+05	-2.08874056616E+01	-6.71143874660E+01	1.15881924186E+01	-1.77214498077E+02	-4.46303404319E+01	-1.44908265992E+02	-5.87515483447E+00	-3.52897769147E-01
3.18772365446E+05	-1.99752546474E+01	4.40659052815E+01	1.15209639021E+01	-1.77715241380E+02	-4.54476066996E+01	-4.69333117297E+01	-5.89864859129E+00	-6.64632913967E-01
3.19002779874E+05	-2.98498450067E+01	-8.93314630489E+01	1.16314566287E+01	-1.77383267447E+02	-2.84081560703E+01	8.44407522069E+01	-5.85069098583E+00	1.19751700455E+00
3.19233360850E+05	-1.92268113912E+01	1.31585511616E+02	1.16720582013E+01	-1.78423525430E+02	-3.81270572354E+01	1.19130926607E+02	-5.89807684316E+00	-2.73958801281E-02
3.19464108494E+05	-1.71812312492E+01	1.60245857067E+02	1.17455824115E+01	-1.78170537012E+02	-3.77739717993E+01	-6.54232772062E+01	-5.84962184198E+00	-5.28469982395E-01
3.19695022927E+05	-2.46397674033E+01	9.00013989672E+00	1.16186912132E+01	-1.77881359625E+02	-3.70605054734E+01	-1.42933059796E+02	-5.92040368054E+00	-4.64372302173E-01
3.19926104268E+05	-2.92293182955E+01	1.65849480082E+02	1.16793614221E+01	-1.77375769202E+02	-4.18526585416E+01	-1.08065795067E+02	-5.88505084000E+00	-7.39219363862E-01
3.20157352640E+05	-1.48421216887E+01	-1.66781080127E+02	1.16636880297E+01	-1.77813722194E+02	-3.94198425132E+01	-1.03731830968E+02	-5.86646318956E+00	-7.37423140992E-01
3.20388768162E+05	-2.31645767817E+01	-4.63641705062E+01	1.15890820562E+01	-1.77461974888E+02	-3.71272893800E+01	1.62714091532E+02	-5.95502699099E+00	-1.78332222079E-01
3.20620350955E+05	-1.44244765242E+01	1.75269633999E+02	1.16736969492E+01	-1.77872603289E+02	-3.53197952327E+01	6.66591041005E+01	-5.86818619654E+00	3.67390647453E-01
3.20852101140E+05	-2.34320599707E+01	-1.02541291273E+02	1.16176627154E+01	-1.77534236125E+02	-5.66081508513E+01	1.10412988413E+02	-5.87798216729E+00	-3.44753917761E-01
3.21084018839E+05	-2.64570787631E+01	1.12868334431E+02	1.16413009306E+01	-1.77866873668E+02	-4.86381753115E+01	4.09651949843E+01	-5.87118798862E+00	-2.09456076896E-01
3.21316104172E+05	-1.54207733758E+01	1.45854727183E+02	1.17039006801E+01	-1.78077422730E+02	-3.78584573455E+01	4.86849111591E+01	-5.84935565544E+00	8.69547138575E-02
3.21548357261E+05	-2.19017306712E+01	-9.30539907702E+01	1.16104477436E+01	-1.77272772593E+02	-4.21416808050E+01	-7.68043596518E+01	-5.87417285797E+00	-3.84008813765E-01
3.21780778226E+05	-2.81361364015E+01	-1.06397873060E+02	1.16497113662E+01	-1.77457956280E+02	-3.73259249021E+01	-9.08901123315E+01	-5.89707485946E+00	-4.59839342161E-01
3.22013367189E+05	-1.72495578466E+01	-1.33145476868E+02	1.16710819651E+01	-1.77546703372E+02	-4.10105145193E+01	-7.43856311940E+01	-5.89400741352E+00	-4.09474139191E-01
3.22246124272E+05	-2.65065150373E+01	-8.08538143275E+01	1.16085333169E+01	-1.77716472938E+02	-3.66036946653E+01	-1.14538811414E+02	-5.92475704720E+00	-6.92993980469E-01
3.22479049596E+05	-2.48207415467E+01	1.02721774542E+02	1.15964047486E+01	-1.77727070852E+02	-3.08384822101E+01	6.27032900967E+00	-5.70337604673E+00	-9.90920295860E-02
3.22712143282E+05	-2.13163020303E+01	-6.44043877964E+01	1.15915696210E+01	-1.77129505835E+02	-4.81107481312E+01	8.68508997686E+01	-5.88440263158E+00	-1.60033214450E-01
3.22945405453E+05	-1.63984666703E+01	4.27362944456E+01	1.14791542037E+01	-1.78038147166E+02	-4.08633201707E+01	-1.58333040582E+02	-5.89529877661E+00	-1.04186138736E-01
3.23178836230E+05	-2.20156447306E+01	1.40425443714E+02	1.16729587927E+01	-1.77961810909E+02	-4.40215382075E+01	-8.50599332686E+01	-5.84224148247E+00	-3.75937341995E-01
3.23412435735E+05	-1.73709155756E+01	1.47064640782E+02	1.16603832583E+01	-1.78139534526E+02	-4.68649299894E+01	-9.00723408712E+01	-5.87107502938E+00	-6.28043552544E-01
3.23646204090E+05	-2.02135698523E+01	1.63491335727E+02	1.16953617916E+01	-1.78010087668E+02	-3.39624031579E+01	9.95184436588E+01	-5.87870980882E+00	1.86692329980E-01
3.23880141417E+05	-1.96147096000E+01	1.20834236547E+02	1.16537957027E+01	-1.78018766811E+02	-5.32546255662E+01	-7.20751473232E+01	-5.88670830710E+00	-2.76022000566E-01
3.24114247838E+05	-2.00702653968E+01	-1.40151310030E+01	1.16062305903E+01	-1.78038945213E+02	-4.90319209970E+01	-1.42230845145E+02	-5.94732342425E+00	-2.61961895270E-01
3.24348523475E+05	-2.99996373179E+01	1.73180898056E+02	1.16836495338E+01	-1.77939688723E+02	-3.78350321908E+01	8.58648878355E+01	-5.86919120692E+00	-2.47597840584E-01
3.24582968451E+05	-3.53092544407E+01	1.42618566422E+02	1.16265735349E+01	-1.78102731373E+02	-3.97607053339E+01	1.49731281879E+02	-5.91324455818E+00	-1.84894009244E-01
3.24817582888E+05	-1.97347384842E+01	-1.28960695940E+02	1.16401607390E+01	-1.77533146316E+02	-4.20013750198E+01	1.70640302300E+02	-5.88387803816E+00	-2.57601164763E-01
3.25052366909E+05	-1.51746242986E+01	4.73549162084E+01	1.15117376997E+01	-1.78513496125E+02	-3.92577046919E+01	7.77539960695E+01	-5.93800122357E+00	3.91564900369E-02
3.25287320635E+05	-1.86469427615E+01	-1.66158216636E+02	1.16904698184E+01	-1.77820928476E+02	-3.84876290659E+01	1.03956150360E+01	-5.79460112681E+00	-3.89622715300E-01
3.25522444191E+05	-3.30725745894E+01	-1.71610452752E+02	1.16294747773E+01	-1.77681314008E+02	-3.92273653402E+01	7.01192490060E+01	-5.90304540172E+00	-1.67508754712E-01
3.25757737698E+05	-2.30003649159E+01	1.72800852743E+01	1.15730133820E+01	-1.77743161192E+02	-4.04615759438E+01	5.44088636755E+01	-5.89982210357E+00	2.03302985715E-01
3.25993201280E+05	-2.39700334072E+01	9.85671645334E+01	1.16287835597E+01	-1.77917072434E+02	-4.68858103149E+01	2.22338022189E+01	-5.87998762340E+00	-4.19060499591E-01
3.26228835058E+05	-1.70219661225E+01	5.49073019740E+01	1.15736705639E+01	-1.78369030306E+02	-4.24318854788E+01	2.40348749424E+01	-5.86001724794E+00	-2.08307625722E-02
