# Hz S DB R 50
! CMT, M5065, 19127446, 24.2.4/2
! Date: 11/1/2024 4:32:00 PM
! Data: Format (Calibration Info)
! Freq	S11:dB/Ang(F2)	S21:dB/Ang(F2)	S12:dB/Ang(F2)	S22:dB/Ang(F2)
3.00000000000E+05	-1.56270532231E+01	1.28360640015E+02	9.69072028364E+00	-1.77855077233E+02	-3.06054634509E+01	3.06253560135E+01	-5.77583128971E+00	4.19659893550E-01
3.00216845423E+05	-2.17146339593E+01	-1.86721489591E+01	9.62739393633E+00	-1.77545686430E+02	-2.86200873837E+01	-3.11959262391E+01	-5.77621502955E+00	-9.14782599336E-01
3.00433847586E+05	-1.54653881441E+01	-1.68390081804E+02	9.74678280427E+00	-1.77348201270E+02	-3.93533190180E+01	-4.89517551322E+00	-5.85813140744E+00	-1.92202675871E-01
3.00651006602E+05	-2.69229694333E+01	-5.96178354198E+01	9.62509256991E+00	-1.77342186279E+02	-3.54632750713E+01	-8.47000188255E+01	-5.85743178073E+00	-6.23429832798E-01
3.00868322584E+05	-3.66405999393E+01	5.30407251321E+01	9.62490833437E+00	-1.77589007345E+02	-4.01893738177E+01	5.11148113915E+01	-5.88253515150E+00	-2.45512714342E-01
3.01085795647E+05	-2.74452232798E+01	-1.16832870744E+01	9.57064338951E+00	-1.77344539511E+02	-4.29290703588E+01	-2.78856643683E+01	-5.84113745804E+00	-1.56853216113E-01
3.01303425902E+05	-1.76178238280E+01	-1.54694506520E+02	9.69586941740E+00	-1.77270548588E+02	-3.69869917320E+01	-1.74945522763E+01	-5.82357653430E+00	-3.29666890406E-01
3.01521213465E+05	-1.87091299266E+01	1.18410023256E+02	9.68367607168E+00	-1.77941856271E+02	-3.28697436274E+01	-1.06905081606E+02	-5.91834391765E+00	-8.62883045133E-01
3.01739158449E+05	-1.62923472738E+01	-1.66481939389E+01	9.54256601997E+00	-1.77335545795E+02	-4.78639526419E+01	-7.18595345022E+01	-5.86261036199E+00	-4.32147745565E-01
3.01957260967E+05	-1.91992266755E+01	1.79290890480E+02	9.75092779228E+00	-1.77845713784E+02	-4.51174350956E+01	-1.10168063541E+02	-5.87632991228E+00	-3.75776167082E-01
3.02175521134E+05	-1.69160341356E+01	-6.60809319240E+01	9.59423716753E+00	-1.76950125352E+02	-5.08533271264E+01	1.76339791147E+02	-5.89914641621E+00	-5.15736025445E-02
3.02393939063E+05	-2.74514282808E+01	6.40798491501E+01	9.57996157129E+00	-1.77845767337E+02	-4.49845952505E+01	-8.14970962441E+01	-5.91944253340E+00	-3.04948726470E-01
3.02612514869E+05	-2.29063372169E+01	8.86328262948E+01	9.65627354375E+00	-1.77751352728E+02	-4.25264904492E+01	1.30283225379E+02	-5.90176571159E+00	-5.15393225168E-02
3.02831248665E+05	-6.17927542027E+00	-2.86594508575E+01	9.28633688796E+00	-1.76313877891E+02	-3.76697119148E+01	-1.60172000773E+02	-5.92784991825E+00	-4.79145431218E-01
3.03050140565E+05	-1.89314451814E+01	8.01017250089E+01	9.57285648925E+00	-1.77981426227E+02	-4.19109033269E+01	1.71098254422E+02	-5.90702525531E+00	-1.86840088190E-01
3.03269190685E+05	-1.56462761654E+01	1.72233955144E+02	9.66784029980E+00	-1.77828839380E+02	-2.62556428959E+01	-1.61443099272E+02	-6.10923801991E+00	-7.01147446939E-01
3.03488399138E+05	-1.99282865546E+01	1.46799489788E+02	9.71517522953E+00	-1.77865409199E+02	-3.53794045515E+01	1.41626143904E+02	-5.92870864700E+00	-7.27674186585E-02
3.03707766039E+05	-4.16513944201E+01	5.15741220401E+01	9.59948932634E+00	-1.77563295448E+02	-3.97268865057E+01	6.97827495209E+01	-5.89414591516E+00	-1.57519498883E-01
3.03927291503E+05	-1.73576650860E+01	-5.17152361131E+01	9.54723940223E+00	-1.77282248540E+02	-3.92748984489E+01	-7.69280660834E+01	-5.89377255042E+00	-4.76007033889E-01
3.04146975643E+05	-3.00688297383E+01	8.51193502615E+01	9.60789225983E+00	-1.77658880811E+02	-3.71790861760E+01	4.32179007455E+01	-5.87121488979E+00	-8.17579185956E-02
3.04366818575E+05	-1.05752052450E+01	4.88053127767E+01	9.52896763244E+00	-1.78663117476E+02	-4.16146680517E+01	-3.70389086794E+01	-5.85770362246E+00	-2.29647018948E-01
3.04586820414E+05	-1.16351636597E+01	-8.54913411336E-01	9.36661406098E+00	-1.77773408751E+02	-3.69146368202E+01	-1.60872938167E+02	-5.94247706923E+00	-4.07570146882E-01
3.04806981274E+05	-3.32284509604E+01	-6.09026766153E+01	9.66937353536E+00	-1.77707799536E+02	-3.22858029791E+01	3.81077649111E+01	-5.81815710671E+00	1.71470048864E-01
3.05027301270E+05	-1.97188945722E+01	-1.45487473179E+01	9.56816948225E+00	-1.77515266008E+02	-4.35424881169E+01	7.93197559461E+01	-5.89875972439E+00	6.18499033125E-02
3.05247780517E+05	-1.62255240242E+01	7.14195948893E+01	9.61753931259E+00	-1.77945317198E+02	-4.16843190438E+01	5.37696744633E+01	-5.86715606757E+00	5.32921281472E-02
3.05468419131E+05	-1.72659465074E+01	-6.71772582352E+01	9.61007155709E+00	-1.77320478209E+02	-4.34082577115E+01	1.54360931656E+02	-5.89217186486E+00	-3.12206998941E-01
3.05689217226E+05	-2.10308283630E+01	-1.61899327653E+02	9.66005269646E+00	-1.77386998919E+02	-3.73516272646E+01	-1.40028561277E+02	-5.89636884502E+00	-3.21600220420E-01
3.05910174918E+05	-1.89734570804E+01	1.04330329222E+02	9.64250239891E+00	-1.77434059517E+02	-4.59085917332E+01	-7.90360623583E+01	-5.88032398379E+00	-5.24731265578E-01
3.06131292322E+05	-2.27995272762E+01	-3.05605472097E+01	9.58580333574E+00	-1.77701523514E+02	-2.77577790388E+01	-1.49519356560E+02	-6.05875300804E+00	-6.52226980811E-01
3.06352569554E+05	-2.14985197920E+01	-6.43851420523E+01	9.62503812435E+00	-1.77165421941E+02	-3.67411453116E+01	1.30526567388E+02	-5.92868389068E+00	4.06487262493E-01
3.06574006730E+05	-2.19516606091E+01	1.55747764840E+02	9.69060773670E+00	-1.77636092507E+02	-4.27095818932E+01	-1.64919839211E+02	-5.89235790028E+00	-1.16801839134E-01
3.06795603964E+05	-2.29510328880E+01	1.76329303729E+02	9.72580205704E+00	-1.77855341974E+02	-4.54103310072E+01	-7.17542909912E+01	-5.88482081976E+00	-6.83270041426E-01
3.07017361372E+05	-1.90808647224E+01	-9.13702352986E+00	9.58211335027E+00	-1.77458029644E+02	-4.16119707340E+01	1.34754494330E+02	-5.94461653751E+00	-2.93811347142E-01
3.07239279071E+05	-2.26267384489E+01	1.08297908209E+02	9.61213511371E+00	-1.77807785057E+02	-4.24488572756E+01	1.42208419271E+02	-5.87052188637E+00	-1.86111686840E-01
3.07461357176E+05	-2.64923559987E+01	1.58275587372E+02	9.69624196518E+00	-1.77531858193E+02	-3.90816526586E+01	1.22618242933E+02	-5.91512241860E+00	-3.51776021266E-01
3.07683595803E+05	-1.36138915982E+01	-1.72083276290E+02	9.80608166086E+00	-1.77550558418E+02	-4.43527123601E+01	6.86771823154E+01	-5.83072538144E+00	-2.41713458491E-01
3.07905995068E+05	-2.58539634893E+01	3.19158491788E+01	9.61817885761E+00	-1.77893464255E+02	-4.10250072274E+01	1.21401762115E+01	-5.88260589419E+00	-3.40259951764E-01
3.08128555087E+05	-2.40205665999E+01	-1.73935257396E+02	9.70982739794E+00	-1.77714594147E+02	-4.04662382284E+01	-4.51162521157E+01	-5.83656995156E+00	-3.09612414773E-01
3.08351275976E+05	-1.95440944044E+01	-7.97492415702E+01	9.62290562215E+00	-1.77321564844E+02	-4.46362059985E+01	7.28306068506E+00	-5.86794734288E+00	-3.05300348694E-01
3.08574157853E+05	-2.80502776498E+01	9.48923804140E+01	9.63080449605E+00	-1.77870087176E+02	-3.74149399881E+01	-1.06103364752E+02	-5.87434508645E+00	-6.31255647529E-01
3.08797200832E+05	-1.65557157429E+01	1.36432593038E+01	9.53692188167E+00	-1.77631793777E+02	-3.96974843247E+01	1.48891858519E+02	-5.91011952935E+00	-1.49498908550E-01
3.09020405031E+05	-1.55001840372E+01	1.39112033716E+02	9.66520652586E+00	-1.78205643122E+02	-5.18290064119E+01	-1.03801354124E+02	-5.86980710831E+00	-3.51879510414E-01
3.09243770566E+05	-3.44819552181E+01	-6.53796844533E+01	9.62118763060E+00	-1.77402225710E+02	-3.52698904347E+01	1.11220523957E+02	-5.90667407991E+00	3.25808229638E-01
3.09467297553E+05	-1.64689131301E+01	1.64213099111E+02	9.70107461330E+00	-1.77884078009E+02	-3.43972422172E+01	8.67870176270E+01	-5.87818193183E+00	1.15020800360E-01
3.09690986110E+05	-2.81381958606E+01	-1.01326684258E+02	9.67557455229E+00	-1.77335826764E+02	-3.76872731778E+01	1.15311354589E+02	-5.91617355636E+00	2.22093786526E-01
3.09914836353E+05	-2.09931352814E+01	9.59666193539E+01	9.62509777462E+00	-1.78084622658E+02	-4.40583903428E+01	1.37997562502E+02	-5.88916867074E+00	-2.18688557160E-01
3.10138848399E+05	-1.87934469405E+01	-1.14649180168E+02	9.66104394603E+00	-1.77437204535E+02	-4.25377771552E+01	-7.65873719267E+01	-5.86895446679E+00	-4.16455920913E-01
3.10363022365E+05	-1.61255595065E+01	2.52294299501E+01	9.62428571527E+00	-1.77581762419E+02	-3.90747445497E+01	6.31766348223E+01	-5.88617622509E+00	-1.43333748154E-02
3.10587358368E+05	-1.71283164010E+01	-6.32910968831E+01	9.55394733738E+00	-1.77126074437E+02	-3.88331291116E+01	5.39016453768E+01	-5.86416769527E+00	-1.02179683725E-01
3.10811856525E+05	-1.65490414254E+01	5.37245185472E+01	9.51988261972E+00	-1.78263025162E+02	-3.28494174271E+01	2.84829778722E+01	-5.78891628801E+00	-2.21468905407E-01
3.11036516954E+05	-1.68520400589E+01	1.33685257587E+02	9.70404199196E+00	-1.77928271485E+02	-3.12191572812E+01	-3.33959806861E+01	-5.78677617517E+00	-6.11632828562E-01
3.11261339771E+05	-2.15714599601E+01	-1.40350067069E+02	9.65914301897E+00	-1.77220478944E+02	-4.08082043137E+01	6.61534911976E+01	-5.92461499649E+00	4.67226251283E-02
3.11486325094E+05	-3.31334320828E+01	1.34153402227E+02	9.64541729087E+00	-1.77929691121E+02	-3.95030628523E+01	-1.05522164660E+02	-5.89466270756E+00	-3.91591628401E-01
3.11711473040E+05	-2.36551503774E+01	-7.60711297510E+01	9.59193501346E+00	-1.77796851953E+02	-3.49967857777E+01	-2.38930007672E+01	-5.84177942235E+00	-3.72206793455E-01
3.11936783728E+05	-2.29722872697E+01	-4.13664552163E+00	9.61880255152E+00	-1.77501312907E+02	-4.52190371397E+01	-1.18022099112E+02	-5.86288963921E+00	-3.21618893617E-01
3.12162257274E+05	-1.54620098170E+01	-3.19820000398E+01	9.48033742937E+00	-1.77413878919E+02	-4.25022417757E+01	-7.34557951823E+01	-5.88268367873E+00	-4.73671984002E-01
3.12387893797E+05	-1.53472722750E+01	1.61446269629E+02	9.78547039607E+00	-1.78272068733E+02	-4.72427502766E+01	-1.13143152315E+02	-5.87455955463E+00	-1.11293862769E-01
3.12613693413E+05	-1.42913126833E+01	-1.57343173354E+02	9.70234525423E+00	-1.77331503674E+02	-3.30192034759E+01	-2.49627771407E+01	-5.77719069378E+00	-4.61502172285E-01
3.12839656242E+05	-2.76168181569E+01	-1.03027655750E+02	9.59130903656E+00	-1.77659503040E+02	-4.63380714541E+01	-6.40391574017E+01	-5.87769086095E+00	-4.25145412448E-01
3.13065782401E+05	-1.97712390545E+01	1.78284110611E+02	9.62556335006E+00	-1.78074898417E+02	-4.02031432129E+01	-8.60597455675E+01	-5.90984997655E+00	-6.82549747463E-01
3.13292072007E+05	-2.88612784662E+01	1.75914330225E+02	9.66164713749E+00	-1.77801480435E+02	-4.41567727303E+01	-1.04394353951E+02	-5.89068275747E+00	-6.61852478759E-01
3.13518525180E+05	-2.14460525046E+01	2.19494084051E+01	9.55376235346E+00	-1.77613462690E+02	-4.77173410472E+01	6.36157018833E+01	-5.85505779696E+00	-3.24194117348E-01
3.13745142038E+05	-1.14560169296E+01	1.09752140305E+02	9.66689694533E+00	-1.78914751624E+02	-3.85876094861E+01	1.53440523170E+02	-5.95794572153E+00	-1.07847445461E-01
3.13971922698E+05	-1.75609802549E+01	9.82937691349E+01	9.64024491681E+00	-1.78533779117E+02	-2.98329868042E+01	-1.09273947792E+02	-5.92038333784E+00	-1.16214536609E+00
3.14198867279E+05	-1.81801397743E+01	1.41342020511E+02	9.70067550950E+00	-1.77829576135E+02	-2.68712146403E+01	-1.72920503073E+02	-6.11288964482E+00	-4.76615922783E-01
3.14425975900E+05	-3.01512302889E+01	1.66687660835E+01	9.56727519963E+00	-1.77365729099E+02	-4.28180610000E+01	-8.41048195009E+01	-5.92902284769E+00	-3.43812060212E-01
3.14653248680E+05	-3.26660684022E+01	1.28363774278E+02	9.65650193033E+00	-1.78040242612E+02	-4.09288848887E+01	-1.18718485262E+02	-5.89605488538E+00	-3.20223577262E-01
3.14880685736E+05	-1.64340788563E+01	1.44548130800E+02	9.70604543749E+00	-1.78399531709E+02	-4.20624427658E+01	-9.90680514257E+01	-5.90224940658E+00	-5.29016791139E-01
3.15108287188E+05	-2.34238517242E+01	1.34699551992E+02	9.64945320720E+00	-1.77999602760E+02	-4.54286331173E+01	6.79676177109E+01	-5.87012461219E+00	-2.74671569368E-01
3.15336053154E+05	-2.17685973875E+01	-1.05341611649E+02	9.65189823579E+00	-1.77512233228E+02	-5.19857330892E+01	9.97993146277E+01	-5.89285343071E+00	1.53041262719E-01
3.15563983753E+05	-1.19386797070E+01	7.52975162913E+01	9.57771421004E+00	-1.79050331965E+02	-3.51401556127E+01	1.46178101116E+02	-5.95116616305E+00	1.25795793621E-01
3.15792079105E+05	-1.94432043741E+01	6.64150309048E+01	9.60847612214E+00	-1.78019143442E+02	-3.49979809128E+01	9.80036421449E+01	-5.91811943946E+00	3.49068862406E-01
3.16020339328E+05	-1.69059104490E+01	-3.23852114010E+01	9.53982775963E+00	-1.77681618411E+02	-3.89023380331E+01	3.76176536291E+01	-5.83512534996E+00	5.38813019597E-02
3.16248764542E+05	-1.43137002944E+01	1.28914080685E+02	9.71407182315E+00	-1.78192335101E+02	-3.79509014508E+01	-5.77037999169E+01	-5.89160817482E+00	-5.34810977169E-01
3.16477354866E+05	-1.39247770532E+01	9.95513102239E+01	9.61614624424E+00	-1.78372833794E+02	-4.33346612797E+01	-1.71290702711E+02	-5.90600086653E+00	-2.72954986451E-01
3.16706110419E+05	-1.74019910910E+01	1.03985610684E+02	9.73195339278E+00	-1.78419336838E+02	-3.85365321305E+01	4.04821212875E+01	-5.85192459383E+00	-4.18498886193E-01
3.16935031321E+05	-1.94955379433E+01	-8.17554625983E+01	9.65386947059E+00	-1.77485617600E+02	-4.27742431080E+01	-7.62565933981E+01	-5.86417089857E+00	-5.09092834907E-01
3.17164117691E+05	-1.17209096427E+01	1.59858950600E+02	9.83283876727E+00	-1.78287297348E+02	-3.97094590501E+01	-3.98898987680E+01	-5.86433135053E+00	-6.53084646541E-01
3.17393369648E+05	-1.42500219586E+01	-1.67304303931E+02	9.75214212286E+00	-1.77245920183E+02	-3.06902783292E+01	-1.13127735743E+02	-5.89563568802E+00	-1.15309882190E+00
3.17622787313E+05	-1.81854187112E+01	6.58754652418E+01	9.61240532817E+00	-1.77907257822E+02	-4.07035410054E+01	1.38463657901E+02	-5.85840348624E+00	-1.10493069481E-01
3.17852370806E+05	-2.47317643230E+01	-1.09900285567E+02	9.62099676332E+00	-1.77852894595E+02	-4.25008986105E+01	4.43234832864E+01	-5.89165860277E+00	-1.20993729667E-01
3.18082120245E+05	-2.32242977885E+01	-3.82470293953E+01	9.61709374655E+00	-1.77714242165E+02	-4.38813659326E+01	1.34534282692E+02	-5.87581844744E+00	-2.24148880473E-01
3.18312035752E+05	-2.05891829687E+01	1.48385122181E+01	9.57761594763E+00	-1.77789329435E+02	-4.30083917757E+01	-2.45738519388E+01	-5.86715262574E+00	-3.61765141342E-01
3.18542117445E+05	-1.59341508696E+01	1.67411911571E+02	9.73855536506E+00	-1.77774060181E+02	-3.57100463341E+01	-7.64674197340E+01	-5.87526776903E+00	-9.77672696563E-01
3.18772365446E+05	-1.37834192478E+01	2.86296168684E+01	9.51732396938E+00	-1.78203678682E+02	-3.89534354213E+01	9.52987464150E+01	-5.94532745940E+00	5.27654265648E-02
3.19002779874E+05	-2.10452597242E+01	2.02570227347E+00	9.57403138900E+00	-1.77805397458E+02	-3.86779170766E+01	2.24564516787E+01	-5.84848097172E+00	1.35333209157E-02
3.19233360850E+05	-2.86535713954E+01	-1.54430486683E+02	9.62079530603E+00	-1.77989313445E+02	-3.33632840301E+01	1.62192610728E+02	-5.97511839766E+00	-2.90808712031E-02
3.19464108494E+05	-2.21582755194E+01	-1.19980495183E+02	9.64125839226E+00	-1.77554250471E+02	-3.57015693486E+01	-3.62537230279E+01	-5.88236349058E+00	-9.69274078156E-02
3.19695022927E+05	-2.33061960688E+01	5.67324213123E+01	9.54993007068E+00	-1.78130462792E+02	-3.39160882580E+01	-6.32507386994E+01	-5.85193556689E+00	-7.03882260362E-01
3.19926104268E+05	-1.64316940091E+01	-6.39346169350E+01	9.63258593764E+00	-1.77543239475E+02	-3.77922649952E+01	-9.81190272888E+00	-5.88045810613E+00	-3.99902473810E-01
3.20157352640E+05	-2.08958436808E+01	-4.00700081927E+00	9.57067336923E+00	-1.77561059138E+02	-3.34309318312E+01	3.03315744196E+01	-5.77143238550E+00	4.67847888086E-02
3.20388768162E+05	-2.55862386582E+01	-1.32302749085E+02	9.65931865144E+00	-1.77871821684E+02	-5.04354193043E+01	2.78572524490E+01	-5.87925416978E+00	-2.01233344807E-01
3.20620350955E+05	-1.32025261093E+01	-1.12324897157E+02	9.65796746722E+00	-1.77433719987E+02	-4.86346643123E+01	6.36071492992E+01	-5.91234716198E+00	-2.92693865146E-01
3.20852101140E+05	-3.01368229888E+01	-1.64980176947E+02	9.61124789284E+00	-1.77875163590E+02	-2.75565559876E+01	-6.20993854471E+01	-5.84519267395E+00	-1.67487391010E+00
3.21084018839E+05	-2.48132289155E+01	1.32556539298E+02	9.68631123392E+00	-1.78049138443E+02	-6.21955299664E+01	-6.01351001766E+01	-5.86457607671E+00	-1.11560346553E-01
3.21316104172E+05	-2.70761779660E+01	1.46486680860E+02	9.64731623679E+00	-1.77563574089E+02	-4.02523326549E+01	-4.43382688501E+00	-5.86485954998E+00	-2.07356529660E-01
3.21548357261E+05	-1.87332203434E+01	1.16500508135E+02	9.69030500752E+00	-1.78047832937E+02	-3.63621288129E+01	-5.08996881495E+01	-5.84613457560E+00	-3.11366109741E-01
3.21780778226E+05	-1.71079223826E+01	-1.03327708237E+02	9.61015415592E+00	-1.77162394733E+02	-3.60218813442E+01	7.24941979668E+01	-5.88510032639E+00	1.36441787056E-01
3.22013367189E+05	-1.06297989668E+01	1.67527403104E+02	9.76696677409E+00	-1.78385699478E+02	-4.80488173687E+01	3.16466612417E+01	-5.89207830201E+00	-1.07012691077E-01
3.22246124272E+05	-2.05898223305E+01	-1.52059775344E+02	9.69942030833E+00	-1.78006182565E+02	-3.34379044685E+01	-6.38983240221E+01	-5.83349432656E+00	-7.65879464572E-01
3.22479049596E+05	-1.87477738515E+01	-8.89103726289E+01	9.59805318678E+00	-1.77691945690E+02	-3.85153839613E+01	-1.11561469496E+02	-5.89993233832E+00	-2.25502446995E-01
3.22712143282E+05	-1.22492226122E+01	8.49546974973E+01	9.65517049081E+00	-1.78422034920E+02	-3.64286955362E+01	1.56695137375E+02	-5.93017466364E+00	-2.24734597012E-01
3.22945405453E+05	-1.82747279269E+01	1.23129617025E+02	9.69240984714E+00	-1.78102802151E+02	-3.98079521945E+01	1.35549001565E+02	-5.90070869746E+00	-2.70941796821E-01
3.23178836230E+05	-1.47527174594E+01	1.20283396482E+01	9.55559439663E+00	-1.78399621765E+02	-3.69910438066E+01	-1.35113094222E+02	-5.96973465902E+00	-7.04651304159E-01
3.23412435735E+05	-2.72526503645E+01	-1.02327662295E+02	9.65074416468E+00	-1.77644775473E+02	-4.31666518030E+01	1.29223814099E+02	-5.93412475273E+00	-1.83286392414E-01
3.23646204090E+05	-2.91824164454E+01	1.09900019737E+02	9.66644395501E+00	-1.77870157605E+02	-5.34526469699E+01	1.59674378856E+02	-5.89522709071E+00	-1.10173135135E-01
3.23880141417E+05	-2.15818861519E+01	-1.52315927396E+01	9.53816465315E+00	-1.77390246460E+02	-3.70627697341E+01	4.31211095400E+01	-5.86138385457E+00	2.29394335260E-02
3.24114247838E+05	-1.92447268302E+01	-1.58623561746E+02	9.72767909574E+00	-1.77831535150E+02	-3.35074941756E+01	-5.32218648804E+01	-5.86243244969E+00	-8.77931350688E-01
3.24348523475E+05	-2.48422160907E+01	-1.59733804496E+02	9.64246471428E+00	-1.78275154162E+02	-3.56157984604E+01	8.73861438983E+01	-5.89685492830E+00	5.82134299595E-02
3.24582968451E+05	-3.13747213671E+01	-3.67898992437E+01	9.62743138416E+00	-1.77694663464E+02	-3.60151901699E+01	1.47812826382E+02	-5.94940163844E+00	-1.00890732496E-01
3.24817582888E+05	-2.79813054959E+01	-2.77924721590E+01	9.63715285126E+00	-1.77825166927E+02	-3.82309454644E+01	4.25905413929E+01	-5.88656716038E+00	-2.61848748578E-01
3.25052366909E+05	-1.74984268988E+01	6.92726414090E+01	9.63435926886E+00	-1.78325581499E+02	-4.83678653635E+01	1.64257765558E+02	-5.93955452410E+00	1.79982664427E-02
3.25287320635E+05	-1.87019197380E+01	7.95877111999E+01	9.64377308013E+00	-1.78430768404E+02	-3.66239654092E+01	1.20826634621E+02	-5.95552945264E+00	7.62295736377E-02
3.25522444191E+05	-1.52478609295E+01	1.68632652044E+02	9.75804904498E+00	-1.78020402909E+02	-3.25530247448E+01	-8.14997706888E+01	-5.87794364008E+00	-1.13046562315E+00
3.25757737698E+05	-1.50684319010E+01	-8.01653456633E+01	9.62913416057E+00	-1.77424047714E+02	-2.71577402344E+01	-1.25324794447E+02	-6.04617432785E+00	-1.17351922819E+00
3.25993201280E+05	-1.88663480749E+01	-1.44376929656E+02	9.68493316377E+00	-1.77519209146E+02	-3.26005079174E+01	-1.33553810422E+02	-5.94711117484E+00	-7.97778297251E-01
3.26228835058E+05	-2.12382604431E+01	-6.48148346664E+01	9.58007532115E+00	-1.77456948422E+02	-4.64184229306E+01	1.39024153538E+02	-5.83350752161E+00	7.02643508515E-02
