# Hz S DB R 50
! CMT, M5065, 19127446, 24.2.4/2
! Date: 11/1/2024 4:28:25 PM
! Data: Format (Calibration Info)
! Freq	S11:dB/Ang(F2)	S21:dB/Ang(F2)	S12:dB/Ang(F2)	S22:dB/Ang(F2)
3.00000000000E+05	-1.98673274329E+01	1.59129070205E+02	8.25495083574E+00	-1.77937631232E+02	-5.58155787447E+01	4.14338042568E+01	-5.89910075864E+00	-3.42760185944E-01
3.00216845423E+05	-2.00680574219E+01	-8.25495802302E+00	8.13379823437E+00	-1.77430142947E+02	-4.75655155158E+01	-7.95714606470E-01	-5.84894512380E+00	-3.45326608581E-01
3.00433847586E+05	-1.65544187068E+01	-6.13474533273E+01	8.10471410222E+00	-1.77051456471E+02	-4.21630100258E+01	1.13838551784E+02	-5.89961565678E+00	3.82935552874E-03
3.00651006602E+05	-2.29028506142E+01	1.75340594457E+01	8.20959580024E+00	-1.77534151668E+02	-3.64116916913E+01	-1.65519549361E+02	-5.97334442640E+00	-3.34519943398E-01
3.00868322584E+05	-2.44411557669E+01	-1.61300281613E+02	8.24054390983E+00	-1.77532441692E+02	-4.11424275367E+01	-1.52321503147E+02	-5.92770612711E+00	-3.56778135489E-01
3.01085795647E+05	-2.13640018605E+01	-1.56553549262E+01	8.16947532316E+00	-1.77195348684E+02	-3.87938623631E+01	1.38894015867E+02	-5.86463149106E+00	3.85357162506E-01
3.01303425902E+05	-2.75692236282E+01	4.75284363426E+01	8.17269616013E+00	-1.77825223420E+02	-4.04475246077E+01	1.36061203084E+02	-5.97530724026E+00	-1.16209536769E-01
3.01521213465E+05	-2.05558967858E+01	1.38205046759E+02	8.20785938925E+00	-1.78173354189E+02	-3.61008861079E+01	-6.78503369902E+01	-5.87865179658E+00	-6.56097180939E-01
3.01739158449E+05	-2.28875395394E+01	-1.32696848869E+01	8.20709579448E+00	-1.77892343349E+02	-4.68384686674E+01	5.28309975046E+01	-5.85853002472E+00	1.13924447848E-01
3.01957260967E+05	-1.85788303633E+01	1.14574715607E+02	8.29237134755E+00	-1.77704836172E+02	-4.16734053366E+01	-1.78772216318E+01	-5.87570934867E+00	-1.19326951999E-01
3.02175521134E+05	-1.77513356732E+01	1.42088446000E+02	8.29859976048E+00	-1.77972608260E+02	-4.60029573844E+01	1.76835714624E+02	-5.94893965478E+00	-6.08015965886E-02
3.02393939063E+05	-2.74428746968E+01	-1.07247327822E+02	8.29482849403E+00	-1.77492346802E+02	-4.17040812820E+01	1.63956785443E+02	-5.95711147958E+00	-3.06900431167E-01
3.02612514869E+05	-2.33005847471E+01	5.51041956569E+01	8.25480910189E+00	-1.77744200656E+02	-4.05598217929E+01	7.74252281303E+01	-5.89134302360E+00	-2.85894685766E-01
3.02831248665E+05	-1.66932765210E+01	-1.13189821560E+02	8.20497865789E+00	-1.76953540811E+02	-3.58089342834E+01	-5.99064542771E+01	-5.85300757273E+00	-6.77752049033E-01
3.03050140565E+05	-2.17379125114E+01	8.65738301470E-01	8.16366668849E+00	-1.77817207457E+02	-3.56501548146E+01	-1.52572670387E+02	-5.94599647003E+00	-5.41068853942E-01
3.03269190685E+05	-1.98554572358E+01	1.18828208639E+01	8.13801035999E+00	-1.77626315170E+02	-4.46349456327E+01	-3.07382113396E+01	-5.90772611720E+00	-4.28039458830E-01
3.03488399138E+05	-1.51932269034E+01	1.20042186040E+02	8.26652702903E+00	-1.78218286636E+02	-4.16383813858E+01	1.27606779049E+02	-5.90699788169E+00	-1.24799224000E-01
3.03707766039E+05	-1.15003263050E+01	5.62782479885E+01	8.06179853224E+00	-1.78452201193E+02	-3.93902732690E+01	9.23940409787E+00	-5.89355227075E+00	-3.30864397067E-01
3.03927291503E+05	-1.90818727225E+01	1.55647373332E+02	8.27721142009E+00	-1.77763451519E+02	-3.78741049674E+01	-8.85771791130E+01	-5.88605022019E+00	-4.77451420222E-01
3.04146975643E+05	-3.10049243817E+01	8.15132090447E+01	8.20455789286E+00	-1.77793789137E+02	-4.55263808879E+01	-6.55114483315E+01	-5.85417401191E+00	-1.27908096014E-01
3.04366818575E+05	-2.04386776587E+01	-7.95718222083E+01	8.20317697851E+00	-1.77191204574E+02	-4.14682995502E+01	9.92007169481E+01	-5.87494364100E+00	1.88127049293E-01
3.04586820414E+05	-1.54506881474E+01	1.30736072185E+02	8.26883041422E+00	-1.77898768938E+02	-3.49754396295E+01	-8.40170809526E+01	-5.87880728990E+00	-6.21018185769E-01
3.04806981274E+05	-1.45209458861E+01	1.37553595258E+01	8.11715138593E+00	-1.77647304752E+02	-3.85819001696E+01	7.54302084252E+01	-5.94510922320E+00	5.20215305680E-02
3.05027301270E+05	-2.74098240201E+01	-8.05577596041E+00	8.17669243070E+00	-1.77903584049E+02	-3.70115635579E+01	1.48492364839E+02	-5.91844214049E+00	-3.34472488693E-01
3.05247780517E+05	-1.98869772837E+01	-8.63218005114E+01	8.21667475966E+00	-1.76617754749E+02	-3.62480574220E+01	-1.33417058143E+02	-5.93403354509E+00	-4.43869486973E-01
3.05468419131E+05	-2.88277019061E+01	-5.74794472658E+01	8.25846856669E+00	-1.77324544415E+02	-4.56325589273E+01	-4.34692663938E+01	-5.90645171011E+00	-1.74922261000E-01
3.05689217226E+05	-1.85791675631E+01	1.77421119284E+02	8.32460535422E+00	-1.77839221165E+02	-4.59355070018E+01	3.34727609962E+01	-5.88443452939E+00	-2.51176945738E-01
3.05910174918E+05	-2.68332390089E+01	5.44002565645E+01	8.23680154750E+00	-1.77808967201E+02	-4.28001499657E+01	6.79952285477E+01	-5.85287506666E+00	1.51631166684E-01
3.06131292322E+05	-2.07753710984E+01	1.13523376442E+02	8.17807540483E+00	-1.77964919996E+02	-4.53992338730E+01	-1.73753558622E+02	-5.89909844912E+00	-2.92603312910E-01
3.06352569554E+05	-2.22404433583E+01	-6.89442490775E+00	8.16530550575E+00	-1.77685232536E+02	-3.51198070943E+01	-8.16588546670E+01	-5.89189990190E+00	-7.06656142655E-01
3.06574006730E+05	-1.90961564653E+01	1.45797907560E+02	8.36111285387E+00	-1.78212666269E+02	-3.56324291376E+01	-5.71596109231E+01	-5.86367516324E+00	-7.54221079507E-01
3.06795603964E+05	-1.36906876453E+01	5.14751666987E+01	8.12323387051E+00	-1.78468577386E+02	-3.91577702779E+01	1.62295566961E+02	-5.90513116233E+00	-2.07406418303E-01
3.07017361372E+05	-1.50419781972E+01	1.22289015403E+02	8.29267268708E+00	-1.78566514987E+02	-3.26670808848E+01	-6.38520018425E+01	-5.90734984909E+00	-8.38742848965E-01
3.07239279071E+05	-1.94737700262E+01	1.26703492282E+02	8.29836811344E+00	-1.78282523478E+02	-4.47359553333E+01	-4.91612198773E+01	-5.88091479183E+00	-1.29020687808E-01
3.07461357176E+05	-1.45674597075E+01	-2.14033775954E+01	8.16911116264E+00	-1.77125245022E+02	-3.54616076062E+01	1.41804003857E+02	-5.93262173958E+00	-3.23617486156E-01
3.07683595803E+05	-1.71605984224E+01	-6.49058438074E+01	8.22894432766E+00	-1.77125190447E+02	-4.03882440561E+01	7.80087456174E+01	-5.87201359666E+00	-9.64360613276E-02
3.07905995068E+05	-2.17749390905E+01	-5.49640105804E+01	8.18007085346E+00	-1.77481232564E+02	-5.14091410173E+01	-1.34406500956E+02	-5.87141993703E+00	-1.28923625039E-01
3.08128555087E+05	-2.25294347040E+01	7.79908566538E+01	8.25375074856E+00	-1.77558412926E+02	-4.53023497115E+01	-1.32106820070E+01	-5.89123022458E+00	-2.34496953993E-01
3.08351275976E+05	-3.72784232651E+01	-1.76272750244E+02	8.23886597334E+00	-1.77802141003E+02	-3.92462723648E+01	1.43913364217E+02	-5.95884238887E+00	-1.20813533593E-01
3.08574157853E+05	-2.48623205334E+01	6.84012037924E+01	8.23312335878E+00	-1.77469104509E+02	-4.28427285697E+01	-8.31736048818E+01	-5.88436600363E+00	-3.51609970959E-01
3.08797200832E+05	-2.21520517347E+01	-1.60987830542E+02	8.25176211183E+00	-1.77676876991E+02	-3.87102046974E+01	-1.10518120061E+02	-5.88255210229E+00	-2.87068689296E-01
3.09020405031E+05	-2.39302428510E+01	1.61266195229E+02	8.28234927582E+00	-1.77686479979E+02	-3.50636231839E+01	1.67043484392E+01	-5.84992435242E+00	-3.52870015132E-02
3.09243770566E+05	-1.78496341575E+01	1.39677905377E+02	8.33439227122E+00	-1.77892671391E+02	-5.03762566622E+01	1.01744242102E+02	-5.89616447998E+00	-2.92757174130E-01
3.09467297553E+05	-2.54293213456E+01	7.38487412340E+01	8.20919466207E+00	-1.77823421614E+02	-4.20849305925E+01	-5.49089264488E+01	-5.88167329282E+00	-6.14724766476E-01
3.09690986110E+05	-1.22004513439E+01	1.19268704722E+01	8.06326953587E+00	-1.78205379389E+02	-4.67761736674E+01	-1.10894018071E+02	-5.86389341001E+00	4.44375109354E-02
3.09914836353E+05	-7.30243835833E+00	-8.90707971934E+01	8.22968343163E+00	-1.75524655098E+02	-3.88706262462E+01	-8.82729253621E+01	-5.87336802616E+00	-4.38972682049E-01
3.10138848399E+05	-2.13000403688E+01	-1.09463134581E+02	8.28041282019E+00	-1.77303891025E+02	-5.12355657981E+01	1.73609832267E+02	-5.85687761087E+00	-4.25636209974E-01
3.10363022365E+05	-1.73272931816E+01	1.04355841958E+02	8.20170686539E+00	-1.77973719501E+02	-3.68490446269E+01	-1.70887278124E+02	-5.94103685215E+00	-3.67390476604E-01
3.10587358368E+05	-2.07850098209E+01	4.43189379483E+01	8.17623187306E+00	-1.77459553184E+02	-3.68215896026E+01	-1.35162580794E+02	-5.93687274656E+00	-3.78493385984E-01
3.10811856525E+05	-2.23533285130E+01	1.31853627728E+02	8.21022653168E+00	-1.77969089555E+02	-4.59853641678E+01	-1.00809128319E+02	-5.88115891550E+00	-5.59084303273E-01
3.11036516954E+05	-2.55783405030E+01	-1.13881551856E+02	8.20017745369E+00	-1.77285234617E+02	-3.74594675892E+01	-5.77223213332E+01	-5.85500367779E+00	-3.81098900872E-01
3.11261339771E+05	-1.69640394436E+01	4.32411476964E+01	8.14091418710E+00	-1.78019403284E+02	-5.48303061781E+01	-7.31900312913E+01	-5.86004311150E+00	-3.82049051116E-01
3.11486325094E+05	-3.35936781807E+01	6.97145069016E+01	8.24274473545E+00	-1.77712823044E+02	-3.96235418170E+01	1.50526631740E+02	-5.94031329276E+00	8.46826586200E-02
3.11711473040E+05	-1.83162751276E+01	8.57662033420E+01	8.19464394507E+00	-1.78360666036E+02	-4.40748378210E+01	-5.86014230269E+00	-5.85050425826E+00	-3.12489661226E-01
3.11936783728E+05	-2.37142053825E+01	1.29419719695E+02	8.25232182767E+00	-1.77914194887E+02	-4.79738857684E+01	1.35263893812E+02	-5.93520914670E+00	-1.82173697295E-01
3.12162257274E+05	-2.30037708473E+01	1.48431511382E+02	8.27649486397E+00	-1.77788203296E+02	-3.90078894696E+01	-8.58918958279E+01	-5.90647706910E+00	-5.18562688795E-01
3.12387893797E+05	-2.97117695728E+01	-1.58844802396E+02	8.23565132695E+00	-1.78103572409E+02	-3.66074243161E+01	4.90421678170E+01	-5.84149760211E+00	2.44298263567E-03
3.12613693413E+05	-1.95820112779E+01	7.23344129142E+01	8.23845589544E+00	-1.77979924632E+02	-4.80842303905E+01	-1.35985802606E+02	-5.87979660765E+00	-3.70183154943E-01
3.12839656242E+05	-2.64922199643E+01	1.55215793827E+02	8.24497010806E+00	-1.77904928820E+02	-4.27911523112E+01	-7.12626247823E+01	-5.89476576270E+00	-3.27958814292E-01
3.13065782401E+05	-1.57413435664E+01	1.36455927101E+02	8.33185820526E+00	-1.78278667437E+02	-3.85402318909E+01	-4.31247009964E+01	-5.80882039636E+00	-6.43881440081E-01
3.13292072007E+05	-1.93136154522E+01	-1.74390359726E+02	8.25349805850E+00	-1.78140314385E+02	-3.84103861990E+01	-1.19662653001E+02	-5.90391580397E+00	-4.69686435305E-01
3.13518525180E+05	-2.68450577741E+01	-1.66841917525E+02	8.24530416354E+00	-1.77513699703E+02	-3.51675884230E+01	-2.41743275425E+01	-5.86931259478E+00	-4.90430142999E-01
3.13745142038E+05	-2.92523505288E+01	-6.95334286881E+01	8.28121283958E+00	-1.77818486116E+02	-3.52543163945E+01	-1.40061070130E+02	-5.95089887614E+00	-6.18803938194E-01
3.13971922698E+05	-2.50484640957E+01	-1.44410163955E+02	8.24539708504E+00	-1.77690286992E+02	-2.90145745806E+01	-6.18491509979E+01	-5.82862954098E+00	-8.93851978829E-01
3.14198867279E+05	-2.59872084631E+01	-1.16315380686E+02	8.25811133562E+00	-1.77567795943E+02	-4.08785626648E+01	1.72480976993E+02	-5.94055293386E+00	-3.16016868193E-02
3.14425975900E+05	-2.17312000394E+01	1.13281831768E+02	8.22145662781E+00	-1.78272107320E+02	-5.06247850178E+01	-6.55761841787E+01	-5.88445369666E+00	-2.32221205071E-01
3.14653248680E+05	-2.46797251352E+01	9.65368481778E+01	8.27616954580E+00	-1.78089731479E+02	-4.41192972460E+01	5.63607843965E+01	-5.89846189708E+00	-2.29081226018E-01
3.14880685736E+05	-2.20702515967E+01	9.38479459164E+01	8.20294926785E+00	-1.78186677113E+02	-3.88093541855E+01	1.55852629126E+02	-5.93361562932E+00	-2.71069962764E-01
3.15108287188E+05	-2.43612643508E+01	-1.40656816151E+02	8.26363505230E+00	-1.77859791033E+02	-4.70893982786E+01	1.28653588792E+02	-5.85544964372E+00	-3.03259126431E-02
3.15336053154E+05	-1.66683198771E+01	-1.46836954633E+02	8.35954079068E+00	-1.77360797220E+02	-3.41961242604E+01	7.17320393882E+01	-5.87392271753E+00	3.34114964456E-01
3.15563983753E+05	-2.17807232911E+01	-1.48973368792E+02	8.20703924458E+00	-1.78060045110E+02	-3.83682254346E+01	-1.24090953600E+02	-5.91778175898E+00	-7.36032303741E-02
3.15792079105E+05	-2.26244367302E+01	-9.08386741860E+01	8.17151261494E+00	-1.77266030700E+02	-3.41895454356E+01	1.13039354349E+02	-5.88249297755E+00	1.02084297606E-01
3.16020339328E+05	-1.74212318346E+01	1.08441865131E+02	8.20360577245E+00	-1.78418638969E+02	-3.53805899514E+01	-1.29486909269E+02	-5.91837280873E+00	-3.14367594605E-01
3.16248764542E+05	-1.64005777482E+01	1.52746443648E+01	8.11396288394E+00	-1.78064581296E+02	-4.17922665969E+01	9.59376817377E+01	-5.91171961080E+00	-2.56170877210E-01
3.16477354866E+05	-1.96464507417E+01	9.01368405909E+01	8.19721956041E+00	-1.78250924237E+02	-3.71821058704E+01	-1.74958786468E+02	-5.91898982791E+00	-3.49750818291E-01
3.16706110419E+05	-2.23724232282E+01	1.27837428809E+02	8.26379844419E+00	-1.77822797809E+02	-4.41312169753E+01	-2.37011649681E+01	-5.96074301108E+00	-1.93270542237E-01
3.16935031321E+05	-1.81258221992E+01	-1.75238149359E+02	8.31518397436E+00	-1.77904737784E+02	-4.97821936476E+01	1.49420744987E+02	-5.88759359226E+00	8.35055563635E-02
3.17164117691E+05	-1.77059235398E+01	7.45459858367E+01	8.21145840620E+00	-1.78252735571E+02	-3.67973126555E+01	1.00645560465E+01	-5.85280587709E+00	3.83848794652E-02
3.17393369648E+05	-1.89202863157E+01	8.97297997309E+01	8.19315221661E+00	-1.78062080630E+02	-5.38670581712E+01	1.66272995436E+01	-5.88863160974E+00	-8.01174373816E-02
3.17622787313E+05	-1.37634268104E+01	-1.12625068417E+02	8.29826302959E+00	-1.77107197205E+02	-4.11313858139E+01	2.44358847346E+01	-5.86171180928E+00	-6.34080807600E-02
3.17852370806E+05	-7.24775247094E+00	-9.66303545853E+01	8.34899326148E+00	-1.75311275237E+02	-4.09834790389E+01	1.18277590139E+02	-5.90709812937E+00	-1.34244561117E-01
3.18082120245E+05	-2.56357364451E+01	-1.18332812670E+02	8.28965492615E+00	-1.77850999542E+02	-3.98770255681E+01	7.10495092028E+01	-5.87435918386E+00	-1.78141927426E-01
3.18312035752E+05	-1.99210209686E+01	1.74746223913E+02	8.28865095586E+00	-1.78171095792E+02	-4.13670716102E+01	2.09619912462E+01	-5.90730763061E+00	-2.41294003171E-01
3.18542117445E+05	-2.01324153967E+01	3.88066465224E+01	8.14874387774E+00	-1.78055828376E+02	-3.76593073649E+01	-3.15091694266E+01	-5.85197405800E+00	-2.69162155454E-01
3.18772365446E+05	-2.22872866026E+01	-5.65803486165E+01	8.22083754224E+00	-1.77576278173E+02	-4.29749309611E+01	4.28241905242E+01	-5.90207651441E+00	-2.01873425735E-01
3.19002779874E+05	-1.62535989524E+01	-3.79284736466E+00	8.10619659664E+00	-1.77743136883E+02	-3.71043123448E+01	-1.24657729739E+02	-5.92383132203E+00	-4.07433110396E-01
3.19233360850E+05	-1.65279641127E+01	2.52979934342E+01	8.13263097390E+00	-1.78110485787E+02	-4.15395018423E+01	1.98032132981E+01	-5.87824956019E+00	6.18756016481E-02
3.19464108494E+05	-1.15277582238E+01	-1.02885558384E+02	8.34920561906E+00	-1.76611690266E+02	-4.28661866504E+01	-1.52020433842E+02	-5.92981332958E+00	-2.61275950752E-01
3.19695022927E+05	-3.72544371884E+01	2.54509291107E+01	8.23719053900E+00	-1.78109333019E+02	-4.23455715187E+01	-4.09382525713E+01	-5.88384313975E+00	-2.02043221207E-01
3.19926104268E+05	-1.67033188564E+01	-8.37987757557E+00	8.22951614389E+00	-1.77931381373E+02	-3.97712685896E+01	-4.18978126689E+01	-5.85594030497E+00	-3.05887609914E-01
3.20157352640E+05	-2.54649522810E+01	5.91630873952E+01	8.23094540481E+00	-1.78298592933E+02	-2.83065979186E+01	-4.20487135867E+01	-5.78142154394E+00	-7.72475104001E-01
3.20388768162E+05	-2.20087657066E+01	-1.20939104152E+02	8.27713542363E+00	-1.77754386153E+02	-3.53223492008E+01	1.69240653943E+02	-5.93555959062E+00	-3.16735661531E-01
3.20620350955E+05	-2.38511248867E+01	-1.34522997281E+02	8.24535951266E+00	-1.77403184738E+02	-3.68161346784E+01	1.62017915933E+02	-5.96988647628E+00	-2.38392955848E-01
3.20852101140E+05	-2.94402151069E+01	-7.90129823994E+01	8.20540893616E+00	-1.78021785184E+02	-3.75630135707E+01	-1.69434957488E+02	-5.95525434175E+00	-3.53933176204E-01
3.21084018839E+05	-2.10045024582E+01	8.00652751149E+01	8.20984776735E+00	-1.78285807837E+02	-4.36677575020E+01	-1.88402271297E+01	-5.88667879595E+00	-2.49297240465E-01
3.21316104172E+05	-1.78243335886E+01	-4.03600636876E+01	8.11847332217E+00	-1.77457955675E+02	-3.87331560179E+01	1.00985672465E+02	-5.94122817184E+00	8.64469897621E-02
3.21548357261E+05	-2.29049081110E+01	-4.74638026972E+01	8.18731257054E+00	-1.77729184842E+02	-3.85085813948E+01	-1.31109672786E+02	-5.93638042347E+00	-4.32989979632E-01
3.21780778226E+05	-1.56529158386E+01	-1.68247543161E+02	8.27189042097E+00	-1.77616719207E+02	-3.58405102674E+01	-1.22225716149E+00	-5.84517923724E+00	-5.07643681971E-01
3.22013367189E+05	-1.78404172927E+01	1.62086307053E+02	8.28910727197E+00	-1.77742964458E+02	-3.49645340288E+01	1.33906948330E+01	-5.81527550233E+00	-3.08935444848E-01
3.22246124272E+05	-2.18065851488E+01	1.28753914623E+02	8.27004394460E+00	-1.77841069807E+02	-3.85156138870E+01	1.69041880524E+02	-5.89849811647E+00	-1.81387453204E-01
3.22479049596E+05	-3.70591023261E+01	1.23052550427E+02	8.23697940289E+00	-1.78047047671E+02	-3.53156985707E+01	-4.63353113354E+01	-5.87001982609E+00	-1.77144963957E-01
3.22712143282E+05	-2.01773244393E+01	-2.96902257401E+00	8.15013402963E+00	-1.78070732428E+02	-4.19143762308E+01	5.82483871024E+01	-5.86202210687E+00	-1.12200145131E-01
3.22945405453E+05	-2.69274368556E+01	1.61317055904E+02	8.26578546495E+00	-1.78238129452E+02	-4.17106447393E+01	1.72467900196E+02	-5.92161081561E+00	-2.78230536746E-01
3.23178836230E+05	-2.01330623944E+01	1.14389924395E+02	8.27806442877E+00	-1.78460329910E+02	-4.56862475344E+01	-1.02612622313E+02	-5.90452089062E+00	-1.74529990515E-01
3.23412435735E+05	-1.80193536479E+01	8.38629538050E+01	8.19986960483E+00	-1.78474959407E+02	-3.49052560044E+01	-1.69309294735E+02	-5.94908421323E+00	-3.55263258349E-01
3.23646204090E+05	-3.07776650087E+01	-1.07032273870E+02	8.18856356963E+00	-1.77667427350E+02	-3.45070284678E+01	-9.58647186231E+01	-5.88734576415E+00	-5.62710899449E-01
3.23880141417E+05	-3.49450499230E+01	1.52168083755E+02	8.19016302901E+00	-1.78130911889E+02	-3.73685201208E+01	-1.14768889882E+02	-5.95699833126E+00	-5.68287745993E-01
3.24114247838E+05	-2.06451844081E+01	1.18745439275E+02	8.23849993054E+00	-1.77952696890E+02	-3.93439731696E+01	-9.46651254047E+01	-5.91753810381E+00	-3.52678636629E-01
3.24348523475E+05	-2.01149913039E+01	7.49329299951E+01	8.18323684515E+00	-1.78703412785E+02	-3.72089000504E+01	7.10267805081E+00	-5.84944920805E+00	-2.62225454675E-01
3.24582968451E+05	-2.03021064504E+01	8.39783835404E+01	8.17628899633E+00	-1.78366250631E+02	-4.17479478794E+01	2.01021077376E+01	-5.87166480824E+00	-4.21185296135E-01
3.24817582888E+05	-2.47903789360E+01	-6.77295739094E+01	8.22357990463E+00	-1.77746031145E+02	-4.77466272775E+01	-8.28740554428E+01	-5.89312271597E+00	-5.25383407105E-01
3.25052366909E+05	-2.57296975442E+01	-1.31643206630E+02	8.25803776162E+00	-1.78044317109E+02	-3.66709987744E+01	4.54546649594E+01	-5.86780742637E+00	1.41857144068E-01
3.25287320635E+05	-2.63817258587E+01	-1.43855746188E+02	8.18781274828E+00	-1.77848719882E+02	-3.67257084497E+01	2.47061376255E+01	-5.82786056917E+00	1.38470627392E-01
3.25522444191E+05	-1.87005429015E+01	6.88071692524E+01	8.18085423007E+00	-1.78739115631E+02	-4.20537320310E+01	3.32430221889E+01	-5.83425890941E+00	-3.98620258058E-01
3.25757737698E+05	-2.33801454702E+01	1.07196455808E+02	8.23909091784E+00	-1.78405486345E+02	-4.49413812155E+01	-1.61177238941E+02	-5.90566862255E+00	-2.43188659530E-01
3.25993201280E+05	-1.16134180347E+01	1.72652634353E+02	8.40247891839E+00	-1.78089413361E+02	-4.12573130497E+01	-1.12049911893E+02	-5.92324694053E+00	-5.81786627298E-01
3.26228835058E+05	-2.19497322598E+01	7.08701979007E+01	8.19892174829E+00	-1.77727466114E+02	-3.98951538444E+01	5.22795626419E+01	-5.89011523625E+00	3.62634936014E-02
