# Hz S DB R 50
! CMT, M5065, 19127446, 24.2.4/2
! Date: 11/1/2024 4:43:13 PM
! Data: Format (Calibration Info)
! Freq	S11:dB/Ang(F2)	S21:dB/Ang(F2)	S12:dB/Ang(F2)	S22:dB/Ang(F2)
3.00000000000E+05	-1.43764769614E+01	-5.22159599613E+01	1.58015684597E+01	-1.76287346189E+02	-3.89802644372E+01	-1.32567953836E+02	-5.94853398498E+00	-4.07128327288E-01
3.00216845423E+05	-1.60243542522E+01	7.54040591813E+01	1.58201509882E+01	-1.77331756455E+02	-4.58497769970E+01	1.23312591938E+02	-5.91678080477E+00	-3.82495415491E-01
3.00433847586E+05	-2.15360972047E+01	-6.04246022880E+01	1.58332730050E+01	-1.76780487987E+02	-4.39469571612E+01	-1.56571412891E+02	-5.86287850585E+00	-3.76333842986E-01
3.00651006602E+05	-3.55617032799E+01	1.77651615711E+02	1.58552785343E+01	-1.76858284272E+02	-4.55461412706E+01	-6.49193777077E+01	-5.85893938410E+00	-5.66708724144E-01
3.00868322584E+05	-2.73029450949E+01	-3.43830877625E+00	1.58099646473E+01	-1.76750880873E+02	-3.69943743716E+01	-3.80563675526E+01	-5.81752762422E+00	-7.75657438355E-01
3.01085795647E+05	-1.62677651733E+01	-6.21987115581E+01	1.57711789397E+01	-1.76025330852E+02	-3.91538299651E+01	9.70998465951E+01	-5.93477282851E+00	1.96791583696E-01
3.01303425902E+05	-3.13577142299E+01	-2.97183230369E+01	1.58433893981E+01	-1.77079904824E+02	-4.97398802050E+01	-1.02058442547E+02	-5.92233490315E+00	-7.21254947461E-01
3.01521213465E+05	-2.04094322662E+01	-2.95831482396E+01	1.57713772213E+01	-1.76590109932E+02	-3.69477105363E+01	-1.59214616804E+02	-5.94301545109E+00	-6.07093286085E-01
3.01739158449E+05	-3.55164322168E+01	-8.68700130435E+01	1.58621117742E+01	-1.76990650945E+02	-4.02855681366E+01	1.63075204153E+02	-5.96595933304E+00	-1.60653142675E-01
3.01957260967E+05	-1.91876837465E+01	6.66961298001E+01	1.58318875676E+01	-1.77174871000E+02	-3.76088916657E+01	2.32142610721E+01	-5.77692906993E+00	3.53647891833E-01
3.02175521134E+05	-2.02596848073E+01	-5.99746242910E+01	1.58048163577E+01	-1.76394512208E+02	-3.48983734994E+01	8.05964342060E+01	-5.90199731519E+00	5.02133627789E-01
3.02393939063E+05	-2.20878574152E+01	-1.27940950010E+02	1.58774013227E+01	-1.76652933788E+02	-4.22936590622E+01	1.72450342985E+02	-5.91381123983E+00	-5.51198934255E-01
3.02612514869E+05	-1.20820380846E+01	-2.65806222111E+01	1.56965061359E+01	-1.76047710135E+02	-3.66683548610E+01	1.37906892041E+02	-5.99774595132E+00	3.67474028396E-01
3.02831248665E+05	-2.24179157875E+01	8.91692340915E+01	1.58510710456E+01	-1.77016893183E+02	-4.30201880673E+01	-1.22597328389E+02	-5.89540150247E+00	-5.30256879864E-01
3.03050140565E+05	-1.67569160651E+01	-1.64612121298E+02	1.59495609250E+01	-1.76867665238E+02	-4.40590232210E+01	2.50876442603E+01	-5.82777859156E+00	-2.38561657907E-01
3.03269190685E+05	-1.75457921919E+01	1.67058999216E+02	1.58582144005E+01	-1.76904838741E+02	-4.07439356022E+01	-5.70228224438E+01	-5.83693617255E+00	-5.84841452901E-01
3.03488399138E+05	-1.33546899437E+01	8.98797231229E+01	1.58409057200E+01	-1.77398259426E+02	-5.11400335895E+01	-1.20329068584E+02	-5.88936960764E+00	-2.52005086429E-01
3.03707766039E+05	-2.24913446036E+01	1.49380783918E+02	1.58798945974E+01	-1.77095272442E+02	-3.76983304428E+01	-1.76654766662E+02	-5.98977218588E+00	-2.55047841235E-01
3.03927291503E+05	-1.38792122411E+01	1.61330535481E+02	1.59692448051E+01	-1.76844562347E+02	-4.82343068751E+01	1.16978293010E+02	-5.89221299547E+00	4.60925751820E-02
3.04146975643E+05	-1.25885882846E+01	1.56782350504E+02	1.59657374305E+01	-1.77347933059E+02	-2.73320978398E+01	5.89253494981E+01	-5.68190659551E+00	1.48145749703E+00
3.04366818575E+05	-2.05161504016E+01	1.62705227462E+02	1.58679282561E+01	-1.77159795187E+02	-3.39764765792E+01	1.55327737706E+02	-6.04853347641E+00	2.73390401436E-01
3.04586820414E+05	-2.28398918526E+01	3.25496021716E+01	1.58025189165E+01	-1.76934144151E+02	-3.52262867714E+01	1.91053688710E+01	-5.77835456114E+00	1.26047453980E-01
3.04806981274E+05	-2.76277588870E+01	-3.38562593949E+01	1.58651755902E+01	-1.76936501915E+02	-3.79566504683E+01	-1.78407856698E+01	-5.79532792486E+00	-5.74949681578E-01
3.05027301270E+05	-1.71559448451E+01	1.18965777660E+02	1.58943611132E+01	-1.77170077118E+02	-4.08166396884E+01	-5.98128473513E+01	-5.87211758163E+00	-8.18956665830E-01
3.05247780517E+05	-1.97906049161E+01	-1.23876523801E+02	1.58767247047E+01	-1.76711152056E+02	-4.26561056876E+01	-1.30736721536E+02	-5.95948969447E+00	-4.00256968493E-01
3.05468419131E+05	-1.93400234854E+01	1.62998680968E+02	1.59114629609E+01	-1.76932683525E+02	-4.15559123299E+01	-1.31768831649E+02	-5.90643385820E+00	-7.10376217492E-01
3.05689217226E+05	-1.67165065156E+01	1.49403203734E+02	1.59013598849E+01	-1.77273931490E+02	-3.67960665567E+01	-2.90288639581E+01	-5.75429994602E+00	-3.64570374539E-01
3.05910174918E+05	-1.41719669559E+01	9.50976971673E+01	1.58388404362E+01	-1.77704381187E+02	-3.47156229132E+01	-1.55934858149E+02	-6.02410239596E+00	-4.92827466221E-01
3.06131292322E+05	-2.44939503456E+01	1.77020558186E+01	1.58238199505E+01	-1.76955654566E+02	-4.08949373695E+01	5.89974562847E+01	-5.85657516984E+00	-2.86914026348E-01
3.06352569554E+05	-2.31356093625E+01	9.85331191210E+01	1.58414646475E+01	-1.77289826736E+02	-4.62387358858E+01	8.28685390513E+01	-5.84317511408E+00	-1.44776210742E-01
3.06574006730E+05	-2.51784275859E+01	-1.25362626407E+02	1.58971696923E+01	-1.76732918152E+02	-4.38411151462E+01	9.74097553737E+00	-5.85794306796E+00	-3.16678414395E-01
3.06795603964E+05	-1.95732048427E+01	-1.13136031158E+02	1.58675827109E+01	-1.76642780447E+02	-5.90586379319E+01	1.39801740395E+02	-5.88825153516E+00	-3.85521081316E-01
3.07017361372E+05	-2.67848468300E+01	-1.35763918421E+02	1.58606055411E+01	-1.76960930902E+02	-4.08241311538E+01	1.08431101003E+01	-5.80687575168E+00	-3.90128884669E-01
3.07239279071E+05	-1.05488765785E+01	4.04385793747E+01	1.56577931289E+01	-1.78064426162E+02	-3.26382081319E+01	-1.25372589234E+02	-5.98393050500E+00	-1.71682398687E+00
3.07461357176E+05	-2.12020914069E+01	7.87827467826E+01	1.58772114429E+01	-1.77196005278E+02	-3.16747922971E+01	-1.22429886077E+02	-5.97980589721E+00	-1.84426148195E+00
3.07683595803E+05	-1.88860299422E+01	6.72210470411E+01	1.57868121003E+01	-1.77749822033E+02	-4.28378965962E+01	5.17357074177E+01	-5.87559734740E+00	-1.70295614059E-01
3.07905995068E+05	-2.40506990724E+01	-1.23899158061E+02	1.58752357240E+01	-1.76645846221E+02	-3.95792957617E+01	7.96365255174E+01	-5.88046999185E+00	4.60763929517E-02
3.08128555087E+05	-1.70149431306E+01	8.02278332538E+01	1.58431562489E+01	-1.77465228336E+02	-5.43179294102E+01	-6.44900370878E+01	-5.84804887443E+00	-4.34260502013E-01
3.08351275976E+05	-2.14774467488E+01	-2.77088533736E+01	1.57550649335E+01	-1.76740969685E+02	-4.27009398060E+01	-1.13228120606E+02	-5.89031189889E+00	-4.58014932513E-01
3.08574157853E+05	-1.84411313179E+01	4.39206992129E+01	1.57967411172E+01	-1.77457566282E+02	-3.43094889536E+01	-2.92852214149E+01	-5.74205384102E+00	-8.74872161960E-01
3.08797200832E+05	-1.40296185798E+01	-1.54274954665E+02	1.59421261435E+01	-1.76518936284E+02	-3.90417854687E+01	4.33358835282E+01	-5.82685590043E+00	1.40457058635E-01
3.09020405031E+05	-1.60743313111E+01	1.71606376284E+02	1.59542544597E+01	-1.77238847481E+02	-3.17485798885E+01	-7.68895125084E+01	-5.75163528383E+00	-1.47792937646E+00
3.09243770566E+05	-1.88098659357E+01	1.61673582099E+02	1.59035592462E+01	-1.77300276831E+02	-4.00243453761E+01	7.14246777018E+01	-5.82936810257E+00	2.10765898398E-01
3.09467297553E+05	-4.98862085323E+01	-5.14134227426E+01	1.58219402297E+01	-1.77256479975E+02	-3.59158691746E+01	1.79775041463E+02	-6.02793967196E+00	-6.02080570480E-01
3.09690986110E+05	-1.71403305916E+01	9.95957253219E+00	1.57676579075E+01	-1.77114976502E+02	-4.12135281826E+01	5.19096180655E+01	-5.86323429001E+00	4.11099878990E-02
3.09914836353E+05	-2.01120943915E+01	2.13216745595E+01	1.57965261316E+01	-1.77275036770E+02	-4.82278930183E+01	-1.48488999822E+02	-5.92597838966E+00	-1.52352190002E-01
3.10138848399E+05	-1.42961579809E+01	1.58102818023E+01	1.56853870235E+01	-1.77160866055E+02	-4.10219010999E+01	-1.12570210237E+01	-5.82358986125E+00	-3.44877229076E-01
3.10363022365E+05	-1.05701880446E+01	1.35041072005E+02	1.60250330119E+01	-1.77717931588E+02	-4.20637732414E+01	6.13341518302E+01	-5.84105539531E+00	3.45560115289E-01
3.10587358368E+05	-2.75132123363E+01	7.45202666689E+01	1.58339354638E+01	-1.77150634066E+02	-3.77785449420E+01	2.96795427364E+01	-5.74077072055E+00	3.47195437484E-01
3.10811856525E+05	-2.65585976653E+01	-6.14939590169E+00	1.58014785600E+01	-1.77123562275E+02	-3.54792354493E+01	-3.33834063120E+01	-5.81351803717E+00	-4.74239269173E-01
3.11036516954E+05	-1.86107163379E+01	-1.49220614101E+02	1.58862816333E+01	-1.77008870227E+02	-4.50077944965E+01	1.14838967106E+02	-5.93525253449E+00	-7.88871234926E-03
3.11261339771E+05	-2.04973179645E+01	-3.90586473005E+01	1.58035980602E+01	-1.76825793717E+02	-4.67107710180E+01	-1.04466415016E+02	-5.90567158572E+00	-3.42201016983E-01
3.11486325094E+05	-1.96622055909E+01	6.76714148132E+01	1.58474001589E+01	-1.77453792383E+02	-5.26065301317E+01	-1.05802103499E+02	-5.87898361687E+00	-5.64411055231E-01
3.11711473040E+05	-2.58990398239E+01	1.65199660212E+02	1.58666707188E+01	-1.76988685043E+02	-3.94389961325E+01	-4.93972552139E+01	-5.80685234025E+00	-3.91853007189E-01
3.11936783728E+05	-1.22655499576E+01	7.40366955352E+01	1.58028114670E+01	-1.78247196148E+02	-3.87200807510E+01	-2.99310736477E+00	-5.78155437958E+00	-3.54372252017E-01
3.12162257274E+05	-2.03070798803E+01	-1.60860292710E+02	1.58868782618E+01	-1.77030727485E+02	-4.01438619863E+01	-9.12894115925E+01	-5.89078945830E+00	-8.01949195358E-01
3.12387893797E+05	-2.05483958786E+01	8.68555367397E+01	1.58490374425E+01	-1.77550921286E+02	-4.33876661142E+01	2.09547750938E+01	-5.83329565982E+00	-2.14221782676E-01
3.12613693413E+05	-2.65578794248E+01	7.38664416709E+01	1.58750603696E+01	-1.77179495378E+02	-3.36711525696E+01	-1.72206235050E+02	-6.01476098393E+00	-4.99953435246E-01
3.12839656242E+05	-1.68617647925E+01	4.52417014310E+01	1.58005167559E+01	-1.77555084514E+02	-4.95753408284E+01	-1.12966649374E+01	-5.88646507512E+00	-2.01223997940E-01
3.13065782401E+05	-2.45122449258E+01	1.44093016495E+01	1.58301064159E+01	-1.77218826045E+02	-3.41458857675E+01	2.43955632762E+01	-5.77401970342E+00	4.12872578983E-01
3.13292072007E+05	-2.32480223331E+01	-9.92980296340E+01	1.58703251212E+01	-1.76597657615E+02	-4.91023844136E+01	-3.60661629849E+01	-5.82475114679E+00	-4.65511138786E-01
3.13518525180E+05	-1.54757842635E+01	1.30433902477E+02	1.59498407064E+01	-1.77947253768E+02	-3.82290569147E+01	7.71350816078E+01	-5.88182079606E+00	5.24370873989E-01
3.13745142038E+05	-1.88776339858E+01	1.65271968497E+02	1.58663815462E+01	-1.77419830028E+02	-3.98693178872E+01	-8.79426784898E+01	-5.86347295752E+00	-8.45493437963E-01
3.13971922698E+05	-2.43990072545E+01	-7.37541750831E+01	1.58931223187E+01	-1.76939287661E+02	-4.87277985461E+01	1.71814841686E+02	-5.85936540993E+00	-2.53298453953E-01
3.14198867279E+05	-2.53560356550E+01	-1.41893834294E+02	1.58731670703E+01	-1.77082407379E+02	-3.61743200114E+01	-6.09189580115E+01	-5.82561370674E+00	-1.30848776518E+00
3.14425975900E+05	-2.03760124263E+01	6.82974206291E+01	1.58418009118E+01	-1.77566841790E+02	-3.59333879116E+01	-1.59686737968E+02	-5.91807466482E+00	-5.84654124505E-01
3.14653248680E+05	-1.99519827911E+01	1.12019708855E+02	1.58753544758E+01	-1.77424417649E+02	-3.67870897159E+01	-1.51502035322E+02	-5.99385966854E+00	-4.31930336882E-01
3.14880685736E+05	-2.20582167810E+01	-1.45808507610E+02	1.58951670821E+01	-1.77240201962E+02	-4.39097683911E+01	-1.06588318626E+02	-5.88729693735E+00	-9.56187217696E-01
3.15108287188E+05	-7.48188506724E+00	-4.77152510422E+00	1.54710964207E+01	-1.76870609067E+02	-3.87408430404E+01	-7.76866716675E+01	-5.88154569005E+00	-6.03094863050E-01
3.15336053154E+05	-1.93864692331E+01	5.01357569275E+01	1.58298888070E+01	-1.77467839695E+02	-2.66967476966E+01	-7.38643794626E+01	-5.78965199241E+00	-3.03126799114E+00
3.15563983753E+05	-2.96725608596E+01	-1.44594246561E+02	1.58746066638E+01	-1.76947761542E+02	-3.33003188980E+01	-3.78153348697E+00	-5.70640497652E+00	-2.05591435294E-01
3.15792079105E+05	-1.18509852715E+01	-2.67739928915E+01	1.57015754604E+01	-1.76795773685E+02	-3.91800659594E+01	1.08410569602E+02	-5.88092035388E+00	2.50712302426E-01
3.16020339328E+05	-2.64778892075E+01	-1.78937530237E+02	1.59002644324E+01	-1.77100050681E+02	-3.67036421990E+01	1.51922778485E+02	-5.94658531546E+00	1.40766222123E-02
3.16248764542E+05	-2.51309430960E+01	1.48193200690E+02	1.59109341741E+01	-1.77150426462E+02	-4.68228260679E+01	1.44819265667E+02	-5.91828992027E+00	2.49827824303E-02
3.16477354866E+05	-1.26508859804E+01	1.01248759201E+01	1.56827298260E+01	-1.77364713618E+02	-3.73649331444E+01	2.39692929118E+01	-5.80659637215E+00	-1.94245456435E-01
3.16706110419E+05	-2.19449572874E+01	-1.46053177844E+01	1.58307431718E+01	-1.77020077415E+02	-4.14556751430E+01	1.00039726572E+02	-5.90844152611E+00	-4.93861934717E-02
3.16935031321E+05	-2.42700936492E+01	-1.67755389622E+02	1.58514162824E+01	-1.77213542344E+02	-3.57782482341E+01	-1.24850147411E+02	-5.98200690775E+00	-7.15313928345E-01
3.17164117691E+05	-1.89804573396E+01	1.18411623427E+02	1.58698486799E+01	-1.77747463015E+02	-3.78183563241E+01	-6.52396823080E+01	-5.87333556575E+00	-9.84083273968E-01
3.17393369648E+05	-1.78032698964E+01	6.87083150098E+01	1.58446306444E+01	-1.77563183360E+02	-3.98891328655E+01	-9.22668981611E+01	-5.88157476428E+00	-9.60878216184E-01
3.17622787313E+05	-2.05534481051E+01	-3.93645368068E+00	1.58317573106E+01	-1.77332470672E+02	-4.05928371075E+01	-1.92682748766E+01	-5.80618649837E+00	-1.64367829733E-01
3.17852370806E+05	-2.40995008178E+01	7.25399475455E+01	1.58102721045E+01	-1.77724972123E+02	-4.64836233882E+01	-1.10720674105E+02	-5.89577697488E+00	-6.19520088631E-01
3.18082120245E+05	-2.10333789175E+01	-1.49444369367E+02	1.58928754629E+01	-1.76954980102E+02	-4.57233092402E+01	2.70632772204E+01	-5.82187686790E+00	-5.58778317804E-02
3.18312035752E+05	-1.88251501465E+01	8.34122842381E+01	1.58485267836E+01	-1.77551775042E+02	-4.35465403851E+01	-1.00883575737E+02	-5.90652989518E+00	-4.21430471637E-01
3.18542117445E+05	-2.17587791733E+01	-1.65726833366E+02	1.59216909543E+01	-1.77110635739E+02	-4.12876894485E+01	-5.11056656035E+01	-5.82677965081E+00	-8.45792723254E-01
3.18772365446E+05	-2.07007059656E+01	1.02182372554E+02	1.58692294552E+01	-1.77682436852E+02	-3.27999445538E+01	1.74449245271E+02	-6.08783861981E+00	-5.13724397372E-01
3.19002779874E+05	-1.95725126372E+01	7.75319604879E+01	1.58229824953E+01	-1.77567287047E+02	-3.87733140376E+01	-1.09772451127E+02	-5.92462015879E+00	-7.76373361309E-01
3.19233360850E+05	-1.63913347635E+01	-2.84467617821E+01	1.58200316367E+01	-1.77219041638E+02	-3.59807923500E+01	2.06619113205E+00	-5.78466633805E+00	-2.76070741577E-01
3.19464108494E+05	-3.12605607199E+01	1.73309214141E+02	1.58778743814E+01	-1.77453357869E+02	-4.98130829274E+01	-2.74966465449E+01	-5.84731651674E+00	-2.81222210381E-01
3.19695022927E+05	-2.09905537166E+01	4.42287586449E+00	1.57403321299E+01	-1.77275481718E+02	-5.05093214453E+01	-1.01523575699E+02	-5.93393308032E+00	-3.63527213688E-02
3.19926104268E+05	-2.29239753080E+01	2.82511049027E+01	1.57746206352E+01	-1.77468840850E+02	-3.52245119533E+01	2.26858675952E+01	-5.78445184853E+00	1.47522805032E-01
3.20157352640E+05	-2.71140578989E+01	-9.93121901949E+01	1.59085862136E+01	-1.77166979719E+02	-3.06942834630E+01	1.23756213089E+02	-6.02044151363E+00	1.50459125215E+00
3.20388768162E+05	-2.50860120125E+01	-8.16056301800E+01	1.57934456786E+01	-1.77077784184E+02	-3.81008927152E+01	-1.07102523116E+02	-6.00724655738E+00	-1.01705509577E+00
3.20620350955E+05	-2.01543177293E+01	1.33484029586E+02	1.58591823751E+01	-1.77532896224E+02	-3.75987920727E+01	1.72023272336E+01	-5.80110648777E+00	-7.24664527143E-02
3.20852101140E+05	-2.05675997363E+01	-1.48099138998E+02	1.59044330316E+01	-1.76990867722E+02	-4.27486552652E+01	-1.27994183195E+02	-5.89943440265E+00	-3.92932627758E-01
3.21084018839E+05	-1.95731470746E+01	1.38440637177E+01	1.57760543266E+01	-1.77356850968E+02	-4.90939010040E+01	1.54923264652E+02	-5.92318266624E+00	-4.20695266495E-01
3.21316104172E+05	-2.10019060250E+01	-1.04089702076E+01	1.58170019544E+01	-1.77005364884E+02	-4.05626516930E+01	-1.53456998098E+02	-5.89518370801E+00	-3.16964147794E-01
3.21548357261E+05	-1.50171491919E+01	5.60199047199E+01	1.57495146855E+01	-1.78341557331E+02	-4.46312914848E+01	1.23087150365E+02	-5.87180501895E+00	-1.57832285531E-01
3.21780778226E+05	-2.17256148808E+01	5.41077775248E+01	1.58143747163E+01	-1.77592844741E+02	-3.87023342591E+01	-8.07261421959E+01	-5.89577039033E+00	-8.61536630447E-01
3.22013367189E+05	-1.75108595295E+01	1.10010642846E+02	1.58729732547E+01	-1.77759745843E+02	-3.44278024067E+01	-2.96192636906E+01	-5.72920019109E+00	-5.47083806211E-01
3.22246124272E+05	-2.38806312138E+01	7.30768093111E+01	1.58425577899E+01	-1.77936884039E+02	-4.11088756581E+01	1.73208563084E+02	-5.96633542154E+00	-4.53532691031E-01
3.22479049596E+05	-2.59089837631E+01	1.43684444332E+02	1.58505886630E+01	-1.77668144481E+02	-5.24481441958E+01	9.68654115794E+00	-5.91787648526E+00	-3.29559435309E-01
3.22712143282E+05	-1.57142726219E+01	-1.41980207999E+02	1.59090204171E+01	-1.76870381067E+02	-4.57366370464E+01	-1.31974403165E+02	-5.91128419467E+00	-5.60941065545E-01
3.22945405453E+05	-1.53639698355E+01	-3.51436857345E+00	1.57561666164E+01	-1.77444649182E+02	-4.29374219321E+01	-6.38741621449E+01	-5.90799102643E+00	-4.48849664338E-01
3.23178836230E+05	-2.72642305400E+01	-8.50543984182E+01	1.58335160413E+01	-1.77108965928E+02	-4.79383938954E+01	1.29134742869E+02	-5.92218692259E+00	-3.37653260561E-01
3.23412435735E+05	-3.37403347296E+01	1.26521068046E+02	1.58374021491E+01	-1.77706016222E+02	-3.48841832020E+01	1.50208214308E+02	-6.00598204509E+00	3.16876688251E-01
3.23646204090E+05	-2.08903708934E+01	-4.31425714674E+01	1.58191735457E+01	-1.77213040524E+02	-4.23847254797E+01	-6.78183238435E+01	-5.95652356855E+00	-9.96880928613E-01
3.23880141417E+05	-1.94247843809E+01	-8.71476624672E+01	1.58619277133E+01	-1.77143237038E+02	-5.98550626912E+01	-5.09376462767E+01	-5.89210326356E+00	-2.31201510418E-01
3.24114247838E+05	-1.58728292119E+01	7.57354563228E+01	1.58472885101E+01	-1.77828919817E+02	-3.73595856192E+01	-1.08448761414E+02	-5.85648732778E+00	-1.02350491279E+00
3.24348523475E+05	-2.17067471729E+01	1.37974065748E+02	1.58704015108E+01	-1.77397889805E+02	-3.62476458739E+01	-3.90986333481E-01	-5.78940663906E+00	-5.18810319862E-01
3.24582968451E+05	-1.35213720413E+01	-1.11238415450E+02	1.58825423883E+01	-1.76463735888E+02	-4.23847277731E+01	-7.76253849342E+01	-5.87564820091E+00	-6.27658345089E-01
3.24817582888E+05	-1.80342547184E+01	-1.02478775164E+02	1.58701103992E+01	-1.77055377647E+02	-3.61654592827E+01	-8.87211563123E+01	-5.90472474695E+00	-7.62340087563E-01
3.25052366909E+05	-1.91935262227E+01	8.46573936592E+01	1.58316720599E+01	-1.77726714599E+02	-3.88048968433E+01	-8.02147533604E+01	-5.85295302139E+00	-1.20417622904E+00
3.25287320635E+05	-2.39567213019E+01	6.63780014439E+01	1.57899652426E+01	-1.77596144351E+02	-3.19827415636E+01	9.63830586091E+01	-5.96939905621E+00	1.06192154558E+00
3.25522444191E+05	-1.94025657651E+01	-1.44301525678E+02	1.58979039299E+01	-1.76995295431E+02	-4.55900733908E+01	-3.40219276570E+01	-5.88382735523E+00	-6.32163755418E-01
3.25757737698E+05	-2.75746618722E+01	9.40103927827E+01	1.58324718464E+01	-1.77646007551E+02	-3.85152614034E+01	4.31483608978E+01	-5.81623622717E+00	-4.91777379498E-02
3.25993201280E+05	-1.72706099199E+01	1.35976323548E+02	1.58594013497E+01	-1.77809303711E+02	-4.23068515436E+01	-1.48795771326E+02	-5.90303724146E+00	-3.13442033563E-01
3.26228835058E+05	-2.23354080558E+01	2.81490470430E+01	1.58262070677E+01	-1.77631404188E+02	-3.67960605356E+01	-1.32495790231E+02	-5.95819796728E+00	-5.70704695192E-01
