# Hz S DB R 50
! CMT, M5065, 19127446, 24.2.4/2
! Date: 11/1/2024 4:50:33 PM
! Data: Format (Calibration Info)
! Freq	S11:dB/Ang(F2)	S21:dB/Ang(F2)	S12:dB/Ang(F2)	S22:dB/Ang(F2)
3.00000000000E+05	-1.43429040665E+01	1.77414711059E+02	2.66299714619E+01	-1.73518524065E+02	-3.55240427909E+01	1.05026413667E+02	-5.86595620396E+00	1.51800462504E+00
3.00216845423E+05	-2.22037337838E+01	-6.80625587816E+01	2.64826568115E+01	-1.73153142048E+02	-4.28426985823E+01	-1.76362496244E+02	-6.04939502871E+00	-1.22495288992E+00
3.00433847586E+05	-3.94662267416E+01	-8.88662954347E+00	2.64740166919E+01	-1.73302769094E+02	-4.72580752785E+01	-1.09352233573E+02	-5.89225988212E+00	-1.18174831460E+00
3.00651006602E+05	-1.66746623951E+01	2.02755220750E+01	2.64079532522E+01	-1.73589235603E+02	-3.74233192362E+01	4.52079869874E+00	-5.64627515948E+00	1.48164195036E-01
3.00868322584E+05	-1.81866030144E+01	1.62883915830E+02	2.65456165911E+01	-1.73654033447E+02	-6.16903283221E+01	-1.15692471217E+02	-5.86425807945E+00	-8.39604506347E-01
3.01085795647E+05	-2.13862688574E+01	-4.59071737315E+00	2.64045203293E+01	-1.73567164596E+02	-3.55584179207E+01	-1.12597584013E+01	-5.53689621849E+00	-7.45275799064E-01
3.01303425902E+05	-1.64558384168E+01	-1.53757200215E+02	2.65627605069E+01	-1.73157776033E+02	-3.33981419948E+01	-1.39022877740E+01	-5.43116761851E+00	-8.84553960721E-01
3.01521213465E+05	-2.08810651435E+01	-2.60757454537E+01	2.64387296037E+01	-1.73387166409E+02	-3.18084782970E+01	-1.75318357459E+02	-6.59465741637E+00	-1.21970073826E+00
3.01739158449E+05	-2.34290759758E+01	5.28635129880E+01	2.64981711554E+01	-1.73620898283E+02	-3.21503977090E+01	4.58094332468E+01	-5.54840723840E+00	2.14056620059E+00
3.01957260967E+05	-3.14714629195E+01	6.16207249942E+01	2.64793219665E+01	-1.73638471816E+02	-4.11312678497E+01	5.58692991759E+01	-5.72604377412E+00	6.83296459254E-01
3.02175521134E+05	-2.26186327752E+01	8.37780509376E+01	2.64634675049E+01	-1.73846109872E+02	-3.58360255570E+01	3.09167700973E+01	-5.67090121375E+00	9.65889309959E-01
3.02393939063E+05	-2.00909151677E+01	1.76782307687E+02	2.65161287141E+01	-1.73513167404E+02	-3.54120284710E+01	1.50131034992E+02	-6.14751384545E+00	7.36864419796E-01
3.02612514869E+05	-2.55337447448E+01	1.36019940679E+02	2.65233869394E+01	-1.73705347757E+02	-4.24550895670E+01	-1.18574390842E+02	-5.87598159581E+00	-1.19289306120E+00
3.02831248665E+05	-2.50891227452E+01	-6.90580166283E+01	2.64945389780E+01	-1.73456608952E+02	-3.55227955447E+01	-8.17179108359E+01	-5.70173797162E+00	-3.55352712201E+00
3.03050140565E+05	-3.41063123740E+01	-5.63064022634E+01	2.64927727467E+01	-1.73380027931E+02	-3.32149766652E+01	3.22521470635E+01	-5.38361792882E+00	2.77479144367E+00
3.03269190685E+05	-1.72095429318E+01	-3.80799249354E+01	2.64446837361E+01	-1.73361979689E+02	-3.68110607589E+01	1.08076932292E+02	-5.89384186141E+00	1.61216749882E+00
3.03488399138E+05	-1.81775308643E+01	6.78978756106E+01	2.64726770064E+01	-1.73885937545E+02	-4.30012431816E+01	4.39772785284E+01	-5.72824968306E+00	5.70248909533E-01
3.03707766039E+05	-2.38804186782E+01	1.16126591962E+02	2.65135103159E+01	-1.73816296962E+02	-3.89123906775E+01	2.89271659004E+01	-5.69252912285E+00	3.37563902827E-01
3.03927291503E+05	-1.48438579043E+01	-5.79557512266E+01	2.64470371001E+01	-1.73200040246E+02	-3.80147171682E+01	8.51792971534E+00	-5.58034648691E+00	-1.04209727022E-01
3.04146975643E+05	-1.50111900599E+01	5.00033941903E+01	2.64380791690E+01	-1.73921296624E+02	-3.83094333692E+01	-1.19871902290E+02	-6.00490097901E+00	-1.32058962309E+00
3.04366818575E+05	-1.67767685351E+01	-5.90877687797E+01	2.64266617819E+01	-1.73160045651E+02	-3.32879689551E+01	5.76899622710E+01	-5.69482093000E+00	2.24114002282E+00
3.04586820414E+05	-1.77347966219E+01	-1.24138730568E+02	2.65482123217E+01	-1.73121278599E+02	-3.00226061070E+01	-7.37717803613E+01	-5.46281061682E+00	-6.57610262208E+00
3.04806981274E+05	-2.21274416258E+01	1.41295652914E+01	2.63909060909E+01	-1.73753369336E+02	-3.93147630809E+01	3.71783852878E+01	-5.71377539429E+00	3.92999727027E-01
3.05027301270E+05	-1.89470003154E+01	1.34874411155E+01	2.64084451104E+01	-1.73637064924E+02	-4.20728231721E+01	-1.43289812574E+02	-5.96329395902E+00	-1.57212101001E+00
3.05247780517E+05	-2.69069087942E+01	5.45235598003E+01	2.64847457913E+01	-1.73834112940E+02	-3.99405062745E+01	-9.81009824434E+01	-5.85893743618E+00	-1.62892472262E+00
3.05468419131E+05	-1.71161932747E+01	-3.03563410936E+01	2.64501961784E+01	-1.73648040499E+02	-4.31961209549E+01	-5.85306861322E+01	-5.73519955126E+00	-1.22282883409E+00
3.05689217226E+05	-1.66133462812E+01	-1.44397629291E+02	2.65692967701E+01	-1.73342542508E+02	-5.29473775570E+01	3.78948610397E+01	-5.82733703626E+00	1.13086203051E-02
3.05910174918E+05	-1.69985649859E+01	-3.30031978680E+01	2.64523328154E+01	-1.73748077407E+02	-2.88215606706E+01	-1.21905880083E+02	-6.22298503577E+00	-6.41221113636E+00
3.06131292322E+05	-2.15341794848E+01	-1.79026087629E+01	2.64474098696E+01	-1.73676006326E+02	-2.55016690929E+01	-1.65100266209E+02	-7.46733176155E+00	-5.12774645095E+00
3.06352569554E+05	-2.76679184690E+01	-1.38666674229E+02	2.65103621172E+01	-1.73727123953E+02	-4.82913651158E+01	-4.56814633362E+01	-5.78201575215E+00	-4.31219360428E-01
3.06574006730E+05	-2.58962097524E+01	-6.33507151282E+01	2.64843389596E+01	-1.73605072595E+02	-3.80571019455E+01	1.37793281801E+02	-6.04136815868E+00	4.81532392053E-01
3.06795603964E+05	-2.87987157799E+01	-1.04802986300E+02	2.64817399212E+01	-1.73687197923E+02	-3.69327816834E+01	4.06324557507E+01	-5.67362188104E+00	7.68072366161E-01
3.07017361372E+05	-2.02582783892E+01	4.09434419267E-01	2.64707028752E+01	-1.73959271510E+02	-4.06022130564E+01	8.31270886958E+01	-5.87023146826E+00	1.37484347647E+00
3.07239279071E+05	-2.07957714458E+01	-9.48116333741E+00	2.64415153855E+01	-1.73866795195E+02	-4.11056528463E+01	-4.64611365407E+01	-5.79942670353E+00	-1.41513105288E+00
3.07461357176E+05	-2.07772704361E+01	2.81506473044E+01	2.64539985146E+01	-1.74004332561E+02	-4.05584071068E+01	5.39971723889E+01	-5.72289536977E+00	9.31463724852E-01
3.07683595803E+05	-2.21085636572E+01	4.87573254102E+01	2.64532240706E+01	-1.74131933406E+02	-3.02551526962E+01	-1.48874124451E+02	-6.70045564137E+00	-4.59439035805E+00
3.07905995068E+05	-8.28286391740E+00	2.04486607456E+01	2.62639287568E+01	-1.74441167544E+02	-3.92047229979E+01	3.63424356047E+01	-5.67397115721E+00	1.02574725240E-01
3.08128555087E+05	-2.83087360227E+01	1.14627139070E+02	2.64933923635E+01	-1.74037743925E+02	-3.78960132282E+01	-7.90117217467E+01	-5.78431041212E+00	-2.04248793554E+00
3.08351275976E+05	-3.58744536417E+01	-2.45449634456E+01	2.64745948808E+01	-1.73982686778E+02	-3.51383110758E+01	-1.31275875682E+02	-6.10580165578E+00	-2.25932751207E+00
3.08574157853E+05	-2.51775556306E+01	4.38658098478E+01	2.64679303406E+01	-1.74115676582E+02	-4.73094479417E+01	4.92153469341E+01	-5.76960753852E+00	1.72963689883E-01
3.08797200832E+05	-1.88069378758E+01	3.85220333989E+01	2.64250495139E+01	-1.74167613049E+02	-4.46164703461E+01	2.74502435381E+01	-5.80066869023E+00	1.07597858808E-01
3.09020405031E+05	-1.81724110700E+01	-5.75118776071E+01	2.64583999995E+01	-1.73505218573E+02	-4.57389006915E+01	9.20963770953E+01	-5.85005808448E+00	1.00440593686E+00
3.09243770566E+05	-1.92677393423E+01	2.08724708508E+01	2.64679049971E+01	-1.74154025138E+02	-4.25199124163E+01	-6.58065182676E+01	-5.77518190562E+00	-2.69154663934E-01
3.09467297553E+05	-1.31011230598E+01	8.99649271338E+01	2.65084054941E+01	-1.74677388985E+02	-3.24853194624E+01	-6.69538334959E+01	-5.61262477186E+00	-2.97444495955E+00
3.09690986110E+05	-2.18785417633E+01	2.21750977617E+01	2.64309233234E+01	-1.73944667688E+02	-3.62108566297E+01	1.31384152494E+02	-6.10761727404E+00	1.38275509831E+00
3.09914836353E+05	-2.01333623332E+01	1.24139140994E+02	2.65230630327E+01	-1.74075955832E+02	-4.68503104218E+01	-5.78247383224E+01	-5.76226956932E+00	-9.44786865173E-01
3.10138848399E+05	-2.21997003496E+01	-3.16329992496E+01	2.64560137971E+01	-1.73791123289E+02	-3.68393379935E+01	1.67210483891E+02	-6.08250057318E+00	-1.32734821923E-02
3.10363022365E+05	-2.79560266653E+01	-1.57986920983E+01	2.64703921601E+01	-1.73902836351E+02	-4.85472886648E+01	-2.32572918311E+01	-5.79372254054E+00	-6.91746753033E-01
3.10587358368E+05	-1.47383077871E+01	-8.66769751612E+01	2.64748814105E+01	-1.73317123499E+02	-3.77543898161E+01	-7.85789636178E+01	-5.77064627097E+00	-2.51490423940E+00
3.10811856525E+05	-2.51947092278E+01	1.13943039518E+02	2.64570881961E+01	-1.74260226439E+02	-2.71696136915E+01	-1.99634712424E+01	-4.82524430988E+00	-1.73551899601E+00
3.11036516954E+05	-2.56595808274E+01	-5.26892449001E+01	2.64884174487E+01	-1.74102575623E+02	-3.55336975640E+01	-4.88316822035E+01	-5.64498627934E+00	-1.82945021254E+00
3.11261339771E+05	-2.13616062691E+01	7.45044321390E+01	2.64594657831E+01	-1.74218593076E+02	-4.56986963410E+01	-1.32410991859E+02	-5.91876181727E+00	-7.70295722216E-01
3.11486325094E+05	-1.94178523978E+01	-3.98749326651E+01	2.64749206377E+01	-1.73915662029E+02	-3.60228522264E+01	-1.31646110294E+02	-6.02765070564E+00	-2.81486289829E+00
3.11711473040E+05	-1.83346306583E+01	-7.38170250175E+01	2.64895785673E+01	-1.73770370398E+02	-3.97955101372E+01	-9.26440751299E+01	-5.87100798456E+00	-2.18606403143E+00
3.11936783728E+05	-1.34721900815E+01	-2.74620911941E+01	2.64084176146E+01	-1.73656613203E+02	-3.57257825208E+01	-1.35320719425E+02	-6.10678502575E+00	-2.35176421417E+00
3.12162257274E+05	-1.61976206624E+01	1.29472708658E+02	2.65313429996E+01	-1.74526465015E+02	-3.43176151759E+01	1.33577702894E+01	-5.43609819323E+00	6.19658724219E-01
3.12387893797E+05	-3.26699392906E+01	-5.67252982492E+01	2.65020790088E+01	-1.74271007397E+02	-4.03706547073E+01	-7.86001225150E+01	-5.64021740144E+00	-2.58230496390E+00
3.12613693413E+05	-1.89634307377E+01	-5.16104986905E+01	2.64545983558E+01	-1.73957707298E+02	-4.29643621071E+01	-3.28319024023E+01	-5.73420497078E+00	-9.77868735748E-01
3.12839656242E+05	-1.76368558578E+01	-1.08654674741E+02	2.65209363528E+01	-1.73733321556E+02	-4.88631487300E+01	1.34324931146E+02	-5.97381380441E+00	5.69617118036E-02
3.13065782401E+05	-2.73286975904E+01	1.45898762573E+02	2.65209348280E+01	-1.74154721484E+02	-3.63818156869E+01	-1.57319304322E+02	-6.10207633750E+00	-1.95478269205E+00
3.13292072007E+05	-3.87786757201E+01	-1.09050749999E+02	2.65079808140E+01	-1.74045637588E+02	-4.75709029274E+01	-8.95600883174E+01	-5.81903829582E+00	-1.16004777143E+00
3.13518525180E+05	-3.03658676820E+01	2.14088368204E+01	2.64960439403E+01	-1.74188762515E+02	-4.69601020066E+01	-1.78178094090E+01	-5.84040660312E+00	-9.33031753711E-01
3.13745142038E+05	-1.94455174440E+01	-5.49594152241E+01	2.64829824392E+01	-1.73779631079E+02	-4.57745759381E+01	7.85905849670E+01	-5.86751470658E+00	9.40001269624E-02
3.13971922698E+05	-1.81429965579E+01	-9.17655221221E+01	2.65121532077E+01	-1.73787913586E+02	-3.88277549213E+01	1.10509160987E+02	-5.95339131209E+00	1.06113333256E+00
3.14198867279E+05	-1.90234473264E+01	1.45455371219E+01	2.64040440549E+01	-1.74426100194E+02	-4.11349290480E+01	1.59890435037E+02	-6.14200139616E+00	6.65232377337E-01
3.14425975900E+05	-1.26789425448E+01	9.11922719766E+01	2.65066875292E+01	-1.75235879997E+02	-3.92694432753E+01	7.54342393764E+01	-5.81316919332E+00	6.78384665598E-01
3.14653248680E+05	-2.15026461114E+01	-1.12332205788E+01	2.64662163162E+01	-1.74377584972E+02	-3.26992726612E+01	2.55640063846E+01	-5.48299671899E+00	1.06292032648E+00
3.14880685736E+05	-2.56936292400E+01	-1.37731992742E+02	2.65215681797E+01	-1.74148681564E+02	-4.37438614849E+01	9.71601396577E+01	-5.96454309278E+00	3.17156375818E-01
3.15108287188E+05	-1.59543732671E+01	-5.45559690127E+01	2.64279317323E+01	-1.73894923240E+02	-3.83294269727E+01	7.63271035627E+01	-5.86929304618E+00	1.36552882079E+00
3.15336053154E+05	-1.16714667842E+01	4.24676570474E+01	2.64056556800E+01	-1.74881595591E+02	-4.33608205171E+01	-1.02011756119E+02	-5.88722396760E+00	-1.10006506315E+00
3.15563983753E+05	-1.53577554535E+01	4.00862567038E+01	2.63926849019E+01	-1.74752220363E+02	-3.15663069552E+01	-5.83068002752E+01	-5.48322839741E+00	-3.48537118864E+00
3.15792079105E+05	-1.63819691886E+01	6.82747847476E+01	2.64558516328E+01	-1.74964580620E+02	-3.88813498621E+01	1.17419899868E+02	-5.97685589381E+00	1.10553634446E+00
3.16020339328E+05	-6.36362475436E+00	5.50931174103E+01	2.63359826443E+01	-1.75866780603E+02	-4.66361393583E+01	-7.98176269495E+01	-5.87449786790E+00	-9.22846722112E-01
3.16248764542E+05	-1.77346354983E+01	4.31717210250E+01	2.64143875742E+01	-1.74628165132E+02	-4.00615740749E+01	-3.58808457468E+01	-5.67942353683E+00	-4.94557414437E-01
3.16477354866E+05	-1.92036589461E+01	-3.80079736645E+01	2.64559794425E+01	-1.74139873231E+02	-4.03055483891E+01	-3.88109554496E+01	-5.66761975641E+00	-8.14317916885E-01
3.16706110419E+05	-1.40972172077E+01	-1.54556780842E+02	2.66122877026E+01	-1.74208080980E+02	-5.05377916739E+01	1.41166451008E+02	-5.89105138294E+00	-6.39434249882E-02
3.16935031321E+05	-2.06992068709E+01	2.54861244146E+01	2.64634132091E+01	-1.74450808382E+02	-3.58503419260E+01	-1.75862067348E+01	-5.59909515735E+00	-9.92049061555E-01
3.17164117691E+05	-1.91688170593E+01	-4.84424646845E+01	2.64305997211E+01	-1.74048977942E+02	-2.89350202615E+01	-1.30774684468E+02	-6.27217631021E+00	-5.60000971266E+00
3.17393369648E+05	-1.84467736084E+01	4.02710814649E+00	2.64446552701E+01	-1.74374476353E+02	-3.83157292061E+01	3.83684370241E+01	-5.61949844076E+00	1.13636062845E+00
3.17622787313E+05	-1.37626754450E+01	-7.11946382482E+01	2.64937166723E+01	-1.73635728264E+02	-4.11652370966E+01	-7.83764870316E+01	-5.81144299852E+00	-1.66044710035E+00
3.17852370806E+05	-2.81734016543E+01	1.48613206289E+02	2.65159675488E+01	-1.74731159803E+02	-3.49862926713E+01	-4.69017322910E+01	-5.63380790871E+00	-2.44963997024E+00
3.18082120245E+05	-1.90028687271E+01	3.80557894663E+01	2.64514655414E+01	-1.74778316841E+02	-5.13046437431E+01	-5.96039061884E+01	-5.80038413807E+00	-4.96445411524E-01
3.18312035752E+05	-2.34387808355E+01	4.30377706323E+01	2.65011465453E+01	-1.74676054390E+02	-4.84129447119E+01	-6.60893288232E+01	-5.80863990366E+00	-8.70691650489E-01
3.18542117445E+05	-1.72482978783E+01	-4.59071640946E+01	2.64258355316E+01	-1.74090773987E+02	-4.18890242910E+01	-1.55259479663E+02	-6.01753320422E+00	-1.46571118998E+00
3.18772365446E+05	-4.04284829033E+01	4.32288219075E+01	2.65015890844E+01	-1.74711939023E+02	-4.05382161828E+01	-1.60621004551E+02	-6.13271546389E+00	-7.08914459078E-01
3.19002779874E+05	-7.20864095298E+00	-7.95678660901E+01	2.64665421499E+01	-1.72676285676E+02	-3.08542636292E+01	7.52263609212E+01	-5.65775241367E+00	4.05682444526E+00
3.19233360850E+05	-1.31870137705E+01	1.47477292094E+01	2.64001874514E+01	-1.74910372911E+02	-3.85216759064E+01	1.17675138500E+02	-5.99055424392E+00	5.06408484627E-01
3.19464108494E+05	-2.11027134406E+01	9.56009832154E+01	2.64717861143E+01	-1.74875599812E+02	-4.34250564830E+01	5.01708364423E+01	-5.75904994736E+00	1.19170777004E-01
3.19695022927E+05	-1.70489937081E+01	9.60107053613E+01	2.65014325057E+01	-1.75127827757E+02	-4.15964444732E+01	-7.26851602195E+01	-5.78935392141E+00	-1.83436475094E+00
3.19926104268E+05	-1.66006614798E+01	-9.64899490234E+01	2.64981377001E+01	-1.74015056941E+02	-4.28638883444E+01	-1.63540510331E+02	-6.04268864315E+00	-1.47863618613E+00
3.20157352640E+05	-2.00565321642E+01	4.58820047560E+01	2.64470328228E+01	-1.74666909895E+02	-3.95489354182E+01	-1.70838165860E+02	-6.09585646883E+00	-1.13839632170E+00
3.20388768162E+05	-2.95559302972E+01	1.47658572256E+02	2.64759537626E+01	-1.74635541585E+02	-3.10306690935E+01	7.63336947181E+01	-5.79011103931E+00	4.63231156879E+00
3.20620350955E+05	-1.72116527242E+01	-1.65296694327E+02	2.66138296592E+01	-1.74429336755E+02	-3.27308752251E+01	9.37006558874E+01	-5.83184013109E+00	3.41935009862E+00
3.20852101140E+05	-1.01120846489E+01	1.34511301071E+02	2.66198130844E+01	-1.75334218467E+02	-4.45356317183E+01	1.14723391459E+02	-5.97719443749E+00	4.71104594519E-01
3.21084018839E+05	-1.96674178019E+01	-9.95097093209E+01	2.64945457842E+01	-1.74399219673E+02	-4.17959943475E+01	-1.23512306543E+02	-5.88206946533E+00	-1.60157839951E+00
3.21316104172E+05	-2.17097393125E+01	-2.44551174620E+01	2.64537548344E+01	-1.74611721969E+02	-4.59067095296E+01	-1.63731152790E+02	-5.97533427759E+00	-3.56721214384E-01
3.21548357261E+05	-2.82157314547E+01	5.25133508167E+01	2.64909189359E+01	-1.74974185831E+02	-3.91298267142E+01	-2.12160954969E+01	-5.65616385986E+00	-3.47034893458E-01
3.21780778226E+05	-2.15446748361E+01	7.15225957624E+01	2.64999526688E+01	-1.74755742638E+02	-3.76347884523E+01	9.24139261300E+01	-5.93643328134E+00	1.46270269012E+00
3.22013367189E+05	-2.36992803269E+01	-1.32361160504E+02	2.65184935195E+01	-1.74553875981E+02	-3.97066093148E+01	1.48491455461E+02	-6.09666677087E+00	7.34082110742E-02
3.22246124272E+05	-7.37313771907E+00	1.62770396671E+02	2.67839686016E+01	-1.75400562880E+02	-3.90873177066E+01	-1.56534017254E+02	-6.21075098673E+00	-1.35184236119E+00
3.22479049596E+05	-1.74403651656E+01	2.74610202180E+00	2.63650395293E+01	-1.74762633660E+02	-4.27509664317E+01	1.79719275001E+02	-6.02880140727E+00	-7.06404125532E-01
3.22712143282E+05	-1.88274982293E+01	4.84022482087E+01	2.64525561222E+01	-1.75240606756E+02	-4.04208918774E+01	8.73995912769E+01	-5.82244830712E+00	7.09414795528E-01
3.22945405453E+05	-1.13383916493E+01	-9.28843964768E+01	2.65249879079E+01	-1.73565162146E+02	-3.60584168605E+01	-1.28223684655E+01	-5.56643161831E+00	-8.57241013847E-01
3.23178836230E+05	-2.80830589999E+01	1.64400220765E+01	2.64728089244E+01	-1.74988733432E+02	-4.30375338427E+01	-4.57748250612E+01	-5.75021066410E+00	-1.15434593228E+00
3.23412435735E+05	-1.26498492504E+01	8.75665670421E+01	2.64813936642E+01	-1.75489669857E+02	-4.25580390064E+01	-1.69750011967E+02	-6.10696991740E+00	-4.61071416079E-01
3.23646204090E+05	-1.96379668145E+01	-1.43384271752E+01	2.64402067937E+01	-1.74712764327E+02	-3.94406343560E+01	-1.61624501996E+02	-5.95752305385E+00	-2.26739663330E+00
3.23880141417E+05	-1.71084880966E+01	-2.69952374230E+01	2.64413089272E+01	-1.74440540391E+02	-4.29372060757E+01	-1.58628955501E+02	-5.99016918387E+00	-1.68174168868E+00
3.24114247838E+05	-1.44090998368E+01	-3.23089472226E+01	2.63891783727E+01	-1.74258102054E+02	-3.93379593618E+01	-1.34266929584E+02	-5.95940682356E+00	-1.54114838328E+00
3.24348523475E+05	-2.31874368825E+01	8.51563643462E+01	2.64787778007E+01	-1.74999506438E+02	-3.88111855676E+01	-5.34480024260E+01	-5.73804782088E+00	-1.55211689401E+00
3.24582968451E+05	-2.24951992224E+01	1.65057934442E+00	2.64751579817E+01	-1.74598509058E+02	-4.82229675058E+01	-6.00693877930E+01	-5.89478352426E+00	-1.30744366662E+00
3.24817582888E+05	-2.90361154016E+01	1.78964988093E+02	2.65335566373E+01	-1.74790336617E+02	-3.92563656045E+01	1.29336599301E+02	-6.00004594047E+00	6.35335064102E-01
3.25052366909E+05	-1.93510363921E+01	-5.54728619571E+01	2.65029404911E+01	-1.74464579034E+02	-4.42155096691E+01	5.47613896614E+01	-5.74070413497E+00	5.89125786955E-01
3.25287320635E+05	-3.11737680348E+01	1.44642679055E+02	2.65056038595E+01	-1.74922553872E+02	-4.12152042978E+01	3.31499290669E+01	-5.72024683478E+00	9.78923790994E-02
3.25522444191E+05	-1.76330251286E+01	-1.22615542326E+02	2.65416392905E+01	-1.74354616807E+02	-2.95981500359E+01	-2.65777820303E+01	-5.12650795849E+00	-1.50316716705E+00
3.25757737698E+05	-1.35923655533E+01	-1.29228370737E+02	2.65868208485E+01	-1.74348234112E+02	-3.78187215143E+01	1.75747509235E+02	-6.05478428091E+00	-7.80538958659E-01
3.25993201280E+05	-1.69090122263E+01	-8.54547908228E+01	2.64796378265E+01	-1.74465759544E+02	-4.01356979260E+01	-1.11417509446E+02	-5.97800098458E+00	-1.48889020957E+00
3.26228835058E+05	-1.74575250050E+01	4.86076413482E+01	2.64344608980E+01	-1.75183675684E+02	-4.53443094804E+01	2.08343452956E+01	-5.80523347649E+00	-1.01118222738E-01
