# Hz S DB R 50
! CMT, M5065, 19127446, 24.2.4/2
! Date: 11/1/2024 4:36:46 PM
! Data: Format (Calibration Info)
! Freq	S11:dB/Ang(F2)	S21:dB/Ang(F2)	S12:dB/Ang(F2)	S22:dB/Ang(F2)
3.00000000000E+05	-2.54525150575E+01	-3.55853457488E+00	1.19414538240E+01	-1.77219423319E+02	-4.29189916007E+01	1.97305399660E+01	-5.86535322916E+00	-4.02006416372E-01
3.00216845423E+05	-1.36863418149E+01	-1.24115099845E+02	1.19433011378E+01	-1.76889253845E+02	-4.08840685337E+01	-5.86098728446E+01	-5.86646614913E+00	-5.02717224266E-01
3.00433847586E+05	-2.20712782446E+01	2.34383857870E+01	1.18723692621E+01	-1.77537523444E+02	-3.72894958794E+01	-4.77019354537E+00	-5.82522292877E+00	-2.09143526794E-01
3.00651006602E+05	-3.24938634664E+01	2.22664332531E+01	1.18985943635E+01	-1.77367453904E+02	-3.78131117087E+01	5.47763118760E+01	-5.85712840549E+00	2.92835188315E-02
3.00868322584E+05	-1.95006950695E+01	7.26265550522E+00	1.18616373622E+01	-1.77228428626E+02	-4.03535805942E+01	6.93064813815E+01	-5.85096940445E+00	7.25014963101E-02
3.01085795647E+05	-1.67584163145E+01	4.82311721952E+01	1.18335198368E+01	-1.77709400862E+02	-3.90853983578E+01	-2.95355659149E+00	-5.84183816155E+00	-3.51103953457E-01
3.01303425902E+05	-2.08595763960E+01	-1.75809313723E+01	1.18820216198E+01	-1.77191137809E+02	-4.11416765133E+01	-5.51096700330E+01	-5.85042951101E+00	-6.45998906254E-01
3.01521213465E+05	-2.06973141893E+01	-1.76621907905E+02	1.19425765234E+01	-1.77405914244E+02	-4.20021471436E+01	8.66806357078E+01	-5.92208517411E+00	6.09462631407E-02
3.01739158449E+05	-1.50765208886E+01	-6.29223929174E+01	1.18521024854E+01	-1.76626010400E+02	-4.51111340180E+01	-1.66041776691E+02	-5.88760229365E+00	-2.55892655118E-01
3.01957260967E+05	-1.26741724208E+01	-9.44907010625E+01	1.19542871132E+01	-1.76342344688E+02	-4.29123556490E+01	5.07289076740E+00	-5.80929442838E+00	-4.88181369825E-01
3.02175521134E+05	-2.86298623666E+01	1.05133091204E+02	1.18934340473E+01	-1.77357629929E+02	-5.19455554395E+01	-1.74925265366E+02	-5.92450843528E+00	-7.93279889418E-02
3.02393939063E+05	-1.95276848545E+01	-1.72825540921E+02	1.19593646616E+01	-1.77214334030E+02	-3.32604323840E+01	-5.85914443863E+01	-5.82448384996E+00	-9.15170810129E-01
3.02612514869E+05	-1.79519947672E+01	-9.14859998114E+01	1.18850133293E+01	-1.76838658715E+02	-4.11778515821E+01	-1.50101003214E+02	-5.92089141948E+00	-4.87201822821E-01
3.02831248665E+05	-1.68138163173E+01	-1.36229139873E+02	1.19801548590E+01	-1.77063831271E+02	-3.68045175794E+01	1.77895353763E+02	-5.98103910963E+00	-1.53943003292E-01
3.03050140565E+05	-1.97524247405E+01	-1.71294438094E+02	1.19472757788E+01	-1.77295935912E+02	-3.80495229774E+01	1.75832382715E+02	-5.91082013422E+00	-2.03528138552E-01
3.03269190685E+05	-2.39103818256E+01	-1.71242811963E+02	1.18823684606E+01	-1.77320091555E+02	-3.75954697285E+01	9.62135271182E+01	-5.90466842288E+00	1.68597560790E-01
3.03488399138E+05	-1.25291750664E+01	9.95058724232E+01	1.19156487418E+01	-1.78722931051E+02	-3.35479815691E+01	-5.76277763011E+01	-5.82260334846E+00	-6.36042312367E-01
3.03707766039E+05	-1.71494153704E+01	1.52923626801E+02	1.19956065473E+01	-1.77649233087E+02	-4.57925462924E+01	5.85687315350E+01	-5.84787020241E+00	-4.42779930899E-01
3.03927291503E+05	-1.93724171818E+01	5.47506382815E+01	1.18240157100E+01	-1.77787657299E+02	-4.06080639542E+01	-1.53866123675E+02	-6.01608286084E+00	-6.14509185952E-01
3.04146975643E+05	-2.70118952820E+01	-7.14356468134E-01	1.18949684519E+01	-1.77392461984E+02	-3.61766679217E+01	-1.02623233509E+02	-5.88727667214E+00	-6.31848332509E-01
3.04366818575E+05	-2.97581286637E+01	-1.63092512797E+02	1.18627679052E+01	-1.77617800413E+02	-3.79561298844E+01	8.65303105890E+01	-5.85833307589E+00	1.95345907345E-01
3.04586820414E+05	-2.00026317057E+01	-1.65000627530E+02	1.19407647126E+01	-1.77123663787E+02	-3.75449861454E+01	-5.95087070771E+01	-5.88117334975E+00	-6.11206245468E-01
3.04806981274E+05	-2.28686543573E+01	-1.57412043723E+02	1.19303999328E+01	-1.77036312927E+02	-4.12658216031E+01	-6.70747223015E+01	-5.85805810259E+00	-5.93283214051E-01
3.05027301270E+05	-9.32795688743E+00	7.98936980183E+01	1.17627775276E+01	-1.78658866520E+02	-4.13388322392E+01	5.80109522984E+01	-5.92474231989E+00	-2.83339287302E-03
3.05247780517E+05	-2.37376890505E+01	-7.48729832962E+01	1.18719881581E+01	-1.77040100489E+02	-3.68939878689E+01	-9.20141216766E+01	-5.91342521558E+00	-6.19889519112E-01
3.05468419131E+05	-2.11697482275E+01	-1.14206183587E+02	1.19467459448E+01	-1.77073853437E+02	-2.83356736066E+01	-8.17509726692E+01	-5.79023565901E+00	-1.81750079231E+00
3.05689217226E+05	-2.49230112521E+01	1.67063110724E+01	1.18534910085E+01	-1.77425136282E+02	-4.05054877086E+01	-1.38873377135E+02	-5.93766883750E+00	-4.09400847743E-01
3.05910174918E+05	-2.32717064578E+01	1.28827130776E+02	1.18960187082E+01	-1.77747697158E+02	-4.50778051949E+01	1.59541334262E+02	-5.92090223969E+00	-3.21012567114E-01
3.06131292322E+05	-1.65119072484E+01	3.96630555559E+01	1.18156283186E+01	-1.78014686301E+02	-4.05810445271E+01	6.89843127252E+01	-5.89577769374E+00	-1.79866900841E-01
3.06352569554E+05	-1.53920468936E+01	1.58716624979E+02	1.20082610949E+01	-1.77444067451E+02	-4.95212381760E+01	-6.57571136103E+01	-5.88439189540E+00	-4.72329295700E-01
3.06574006730E+05	-2.02355160149E+01	-7.97545618114E+01	1.18546967953E+01	-1.77369322517E+02	-4.22332351939E+01	4.80046295793E+01	-5.88219333920E+00	-1.26613091916E-01
3.06795603964E+05	-2.16931340288E+01	6.27119279696E+01	1.18457631361E+01	-1.77927526705E+02	-4.53052887928E+01	1.19943821077E+02	-5.93034812823E+00	-2.88082442574E-01
3.07017361372E+05	-1.59793211714E+01	-6.78051264585E+01	1.18687697194E+01	-1.77250182749E+02	-2.93442968035E+01	1.03930533335E+02	-5.92359922931E+00	1.17486383157E+00
3.07239279071E+05	-2.42073633729E+01	3.74219390737E+01	1.18521216044E+01	-1.77561639638E+02	-3.30657438312E+01	-3.35147325017E+01	-5.75414934508E+00	-4.31892963239E-01
3.07461357176E+05	-2.46089091564E+01	1.65738810473E+02	1.19445060616E+01	-1.77541377764E+02	-3.37568880297E+01	-6.88135192606E+01	-5.83490713673E+00	-8.46278104816E-01
3.07683595803E+05	-2.31137937529E+01	-1.19328186867E+02	1.19424057742E+01	-1.77353869516E+02	-4.62292574566E+01	1.35253111670E+02	-5.91601735340E+00	1.02866861802E-02
3.07905995068E+05	-1.31195592252E+01	-5.72884428632E+01	1.18331841349E+01	-1.76684886667E+02	-4.21516726857E+01	-9.41133083007E+01	-5.90237058125E+00	-4.17757896446E-01
3.08128555087E+05	-1.09309456964E+01	-1.59919426796E+02	1.20819739939E+01	-1.77199209615E+02	-4.08962006355E+01	1.31217490834E+02	-5.91668195081E+00	-1.65243584121E-02
3.08351275976E+05	-1.84531069151E+01	8.38399862182E+01	1.19010415858E+01	-1.77907969872E+02	-3.81566785849E+01	-7.08698974882E+01	-5.86536570877E+00	-6.48975353335E-01
3.08574157853E+05	-2.73580816934E+01	-1.63565264272E+02	1.19275700544E+01	-1.77469278004E+02	-3.42381911675E+01	1.54414775236E+02	-5.96660365646E+00	-1.47749684116E-01
3.08797200832E+05	-1.48873010185E+01	1.01473965537E+02	1.19242149775E+01	-1.78182755355E+02	-3.34978997100E+01	-1.53011848574E+02	-5.96089405688E+00	-4.83362770616E-01
3.09020405031E+05	-2.27988761273E+01	-3.10288332229E+01	1.19081542709E+01	-1.77293235399E+02	-5.45662659793E+01	3.19784141560E+01	-5.85372206622E+00	-6.26931891976E-02
3.09243770566E+05	-2.44339302530E+01	9.44647392264E+01	1.19393282982E+01	-1.77898744014E+02	-4.07047069642E+01	1.61211693772E+02	-5.93450860020E+00	-2.33553316897E-01
3.09467297553E+05	-2.05885452696E+01	-9.45843574965E+01	1.19026386028E+01	-1.77068666245E+02	-4.33609756359E+01	-7.54070919641E+01	-5.88437171204E+00	-1.71383063908E-01
3.09690986110E+05	-1.56390906831E+01	-6.84056697693E+01	1.18989822634E+01	-1.77307361604E+02	-3.47599121202E+01	1.07691352022E+02	-5.88439127425E+00	2.23041970175E-01
3.09914836353E+05	-1.16007302460E+01	-9.96605359214E+01	1.19521947012E+01	-1.76137676550E+02	-4.12123447792E+01	8.82157750433E+01	-5.88851729227E+00	-6.87238759566E-02
3.10138848399E+05	-1.89945920874E+01	1.29854022675E+02	1.19657215576E+01	-1.77773801838E+02	-3.08732470615E+01	-1.09720560494E+02	-6.00253744525E+00	-1.34491742937E+00
3.10363022365E+05	-1.72885081850E+01	-1.43803825246E+02	1.19974717453E+01	-1.77145072095E+02	-4.30455124235E+01	8.31845886248E+01	-5.84537167511E+00	-1.31656298498E-01
3.10587358368E+05	-1.78964227518E+01	7.25591116430E+01	1.18468240219E+01	-1.77794066609E+02	-4.72900845038E+01	1.43532940152E+02	-5.91030366696E+00	2.49941669916E-02
3.10811856525E+05	-1.99868732835E+01	3.90675772628E+01	1.19215555735E+01	-1.77678683055E+02	-3.30239540783E+01	-3.88939802986E+01	-5.84012113199E+00	-4.32948447062E-01
3.11036516954E+05	-2.23504641309E+01	9.34056171230E+01	1.19486959415E+01	-1.77592000109E+02	-3.47107438999E+01	3.33992710521E+01	-5.82868151819E+00	1.66371239926E-01
3.11261339771E+05	-1.91436464673E+01	-1.26674582826E+02	1.19887016253E+01	-1.77412672766E+02	-3.82951081220E+01	8.48666825819E+01	-5.85442856968E+00	3.88862920033E-01
3.11486325094E+05	-1.27002561212E+01	-6.36198402288E+00	1.18107452830E+01	-1.77563799566E+02	-4.31648740597E+01	1.26024589790E+02	-5.92867110610E+00	-2.60115017107E-01
3.11711473040E+05	-2.43072643651E+01	9.86108669901E+00	1.18470794390E+01	-1.77582017145E+02	-3.41379853312E+01	-1.16400993322E+02	-5.92617698117E+00	-1.19623057317E+00
3.11936783728E+05	-3.16010023829E+01	1.25898676904E+01	1.18376923264E+01	-1.77548764051E+02	-2.75127228467E+01	1.19479850263E+02	-6.05341541345E+00	1.49334837423E+00
3.12162257274E+05	-2.54155586596E+01	-1.79402536036E+02	1.19151402652E+01	-1.77602964956E+02	-4.69695965975E+01	-1.68095546897E+02	-5.88003431632E+00	-1.68584313959E-01
3.12387893797E+05	-1.78681781916E+01	3.24439759518E+01	1.18094753403E+01	-1.77728546954E+02	-4.07544174900E+01	-1.38567496188E+02	-5.91781219943E+00	-3.87309412947E-01
3.12613693413E+05	-2.55113156752E+01	-1.37491014347E+02	1.19262855275E+01	-1.77242986675E+02	-4.87540948859E+01	-9.16342856602E+01	-5.88211711146E+00	-5.19324241286E-01
3.12839656242E+05	-2.11256534175E+01	2.15881440292E+01	1.18270383361E+01	-1.77572923412E+02	-4.09970985031E+01	7.41644240865E+01	-5.84967239583E+00	-2.98044573675E-01
3.13065782401E+05	-2.22169415020E+01	9.01586927424E+01	1.18958077334E+01	-1.78139463223E+02	-3.44592424494E+01	-3.37854753648E+01	-5.82376281248E+00	-4.31942503118E-01
3.13292072007E+05	-1.65174725095E+01	1.08881841907E+02	1.19629311946E+01	-1.78233722029E+02	-3.09093355090E+01	8.56405742787E+00	-5.80211053522E+00	-2.87157051699E-01
3.13518525180E+05	-2.23405121674E+01	-9.09131082539E+01	1.19211466209E+01	-1.77267226038E+02	-2.91767086070E+01	-3.55076941006E+01	-5.76732368051E+00	-1.12724711270E+00
3.13745142038E+05	-2.19231506551E+01	1.78348022289E+02	1.19237014676E+01	-1.77689943599E+02	-4.55868674964E+01	-6.66816346100E+01	-5.89297705763E+00	-4.67655763182E-01
3.13971922698E+05	-2.72434097948E+01	-1.63067613589E+02	1.18695509924E+01	-1.77606823648E+02	-3.75052432105E+01	3.86973936173E+01	-5.83699459272E+00	-2.79998235955E-01
3.14198867279E+05	-1.85633598673E+01	-8.24015980094E+01	1.18858655697E+01	-1.76858599997E+02	-4.00557872367E+01	-1.09952900546E+02	-5.93361428706E+00	-3.07551575073E-01
3.14425975900E+05	-1.75880526284E+01	7.25013040723E+01	1.18173409732E+01	-1.78242249699E+02	-4.15318914971E+01	-3.15689911726E+01	-5.85648743840E+00	-4.87404092910E-01
3.14653248680E+05	-1.88161746556E+01	-1.29795282408E+02	1.19669438101E+01	-1.77388512787E+02	-3.88751158944E+01	-1.06483480591E+02	-5.86365728412E+00	-6.30780059377E-01
3.14880685736E+05	-1.56988545984E+01	-1.36352171080E+01	1.17819592744E+01	-1.77244762041E+02	-4.34307533542E+01	1.47539459383E+02	-5.92665524725E+00	1.53625889780E-02
3.15108287188E+05	-2.34808633489E+01	-1.27551676890E+02	1.18930742231E+01	-1.77339683820E+02	-4.47146069788E+01	1.67900912237E+02	-5.88549069638E+00	-7.41598233230E-02
3.15336053154E+05	-2.16756046583E+01	1.08614570470E+02	1.19380114221E+01	-1.77958483818E+02	-3.70944657352E+01	-1.42112395387E+01	-5.82423378333E+00	-4.45348361993E-01
3.15563983753E+05	-2.24974017894E+01	3.11109341170E+01	1.18740611838E+01	-1.77973014245E+02	-5.19419872920E+01	-1.11393724379E+02	-5.90192055618E+00	-4.87356698727E-01
3.15792079105E+05	-2.18717422679E+01	-6.27779299465E+01	1.18289974311E+01	-1.77478800233E+02	-3.62080353295E+01	1.11937258461E+02	-5.89139577062E+00	-1.27089663074E-01
3.16020339328E+05	-2.46447181650E+01	9.28627969418E+01	1.18943848589E+01	-1.77729330209E+02	-3.48777245018E+01	-7.64797526549E+00	-5.80556770862E+00	-2.77835241493E-01
3.16248764542E+05	-1.09818347433E+01	1.62533629114E+02	1.20826348349E+01	-1.78278538202E+02	-4.39995741010E+01	1.37981621822E+02	-5.90542993152E+00	2.00234132638E-01
3.16477354866E+05	-1.90314482761E+01	-1.47802137894E+02	1.19451471575E+01	-1.77386386384E+02	-5.61856366611E+01	-1.41970821135E+02	-5.90530688596E+00	-2.82574356938E-01
3.16706110419E+05	-2.52960547394E+01	-4.37389847031E+01	1.19175499036E+01	-1.77768042038E+02	-2.92838432436E+01	-1.36973998235E+02	-6.00634942552E+00	-9.65070410204E-01
3.16935031321E+05	-2.31951351837E+01	-1.34151092184E+02	1.19346850963E+01	-1.77240921276E+02	-4.43509273435E+01	-1.75259162949E+02	-5.91234634076E+00	-7.69807675029E-02
3.17164117691E+05	-1.90463331190E+01	6.88403772912E+01	1.18830871161E+01	-1.78046902711E+02	-4.11141311412E+01	-1.01931654872E+02	-5.93147676945E+00	-7.81776165755E-01
3.17393369648E+05	-2.84628094771E+01	8.53740032795E+01	1.19478750032E+01	-1.77757916685E+02	-4.67081127762E+01	-9.68200766750E+01	-5.90108645172E+00	-4.32223249313E-01
3.17622787313E+05	-1.55670918954E+01	7.90200791767E+01	1.18539058166E+01	-1.78136469272E+02	-3.86398520381E+01	1.01478782640E+02	-5.92389463981E+00	-1.12825146915E-01
3.17852370806E+05	-1.05392219041E+01	2.22301790157E+01	1.16731379020E+01	-1.78078685023E+02	-5.19919566722E+01	-8.09001224591E+01	-5.90728100448E+00	-2.74235144338E-01
3.18082120245E+05	-1.57954140669E+01	4.73817517335E+01	1.18850365267E+01	-1.78238622508E+02	-3.80231450639E+01	-5.34048755042E+01	-5.86847631370E+00	-5.58186197522E-01
3.18312035752E+05	-2.28033037983E+01	2.87471238160E+01	1.18660542356E+01	-1.77992093351E+02	-2.73728640847E+01	-5.39802278433E+01	-5.73554607921E+00	-1.69099265563E+00
3.18542117445E+05	-2.21942301256E+01	8.87568911419E+01	1.19130992684E+01	-1.77905798771E+02	-4.58441345520E+01	-6.39730029978E+01	-5.89512661316E+00	-3.33641385287E-01
3.18772365446E+05	-1.87225821433E+01	9.05563119422E+01	1.19018457058E+01	-1.78064005990E+02	-4.06044705355E+01	9.35921283946E+01	-5.85047525516E+00	-1.26106804185E-01
3.19002779874E+05	-2.84331954890E+01	-9.32841230439E+01	1.18938198708E+01	-1.77700370872E+02	-4.56607338394E+01	-7.34008291394E+01	-5.85996812886E+00	-5.09771475956E-01
3.19233360850E+05	-2.16600472471E+01	-1.48777950013E+02	1.20012785344E+01	-1.77169130348E+02	-4.84386920159E+01	-1.36863673247E+02	-5.90099768443E+00	-2.09726375826E-01
3.19464108494E+05	-5.96889565950E+00	-9.11538936449E+01	1.19046564155E+01	-1.75113693144E+02	-4.42609690374E+01	-2.99036424669E+01	-5.89538204073E+00	-3.93072585205E-01
3.19695022927E+05	-3.00361955884E+01	6.50624527972E+01	1.18748798377E+01	-1.77679424491E+02	-3.23920047758E+01	-9.15831634530E+01	-5.89347744894E+00	-8.65538322849E-01
3.19926104268E+05	-3.27804409212E+01	1.06092592466E+02	1.19003324914E+01	-1.77413776974E+02	-3.60088341044E+01	1.40284915983E+02	-5.94374561428E+00	-5.91652112925E-02
3.20157352640E+05	-3.36494666090E+01	8.88366773267E+01	1.18664177030E+01	-1.77844216183E+02	-3.85628569989E+01	1.15922593392E+02	-5.91410113203E+00	1.23771233926E-01
3.20388768162E+05	-1.84937130135E+01	-6.32245640877E+01	1.18480848343E+01	-1.77339290937E+02	-4.31000212354E+01	-1.21832042706E+02	-5.90358880190E+00	-6.10377938969E-01
3.20620350955E+05	-2.48980380451E+01	1.34045413499E+01	1.18716082049E+01	-1.77810158697E+02	-3.90517901381E+01	1.38622808908E+02	-5.94048986903E+00	-3.90159430768E-02
3.20852101140E+05	-2.56512715370E+01	9.71843559575E+01	1.19148133520E+01	-1.77653455784E+02	-3.55715178415E+01	1.24480487778E+02	-5.91224020036E+00	6.89200651225E-02
3.21084018839E+05	-2.23871285488E+01	9.22263178292E+01	1.18839341208E+01	-1.78092055717E+02	-3.99820150290E+01	-8.20306832143E+01	-5.88800750748E+00	-4.51983046293E-01
3.21316104172E+05	-1.58849490762E+01	-1.11806132710E+02	1.19233618409E+01	-1.76973015459E+02	-3.92994669985E+01	-7.56556791211E+01	-5.84262185034E+00	-7.65366976577E-01
3.21548357261E+05	-1.86988618054E+01	-4.48121484075E+01	1.18307600678E+01	-1.77581490528E+02	-2.68748897297E+01	4.97768662450E+01	-5.69656056617E+00	9.64017243263E-01
3.21780778226E+05	-2.34390520802E+01	-2.08042152997E+01	1.18734481291E+01	-1.77556189283E+02	-4.20715643404E+01	-1.40319340312E+02	-5.90994302959E+00	-4.47447132041E-01
3.22013367189E+05	-2.61853079892E+01	-1.26963851896E+02	1.19282874187E+01	-1.77747246465E+02	-3.86670190821E+01	-3.45816461176E+01	-5.86478366990E+00	-3.00890047459E-01
3.22246124272E+05	-3.63894524376E+01	-3.54203951476E+01	1.19013024678E+01	-1.77753611251E+02	-3.56769451880E+01	-1.76589172076E+01	-5.86147065839E+00	-2.27384224013E-01
3.22479049596E+05	-3.21622213235E+01	-5.32768882441E+01	1.19009684079E+01	-1.77732324173E+02	-3.89756195279E+01	-1.47844558432E+02	-5.93730465541E+00	-4.66158837317E-01
3.22712143282E+05	-8.48357639866E+00	1.61004365838E+02	1.21450687122E+01	-1.78132026164E+02	-3.82282914825E+01	3.86940100427E+01	-5.86857350914E+00	2.12168227582E-02
3.22945405453E+05	-1.31495618607E+01	1.09868306658E+02	1.19655316428E+01	-1.78700350904E+02	-3.63901563725E+01	-1.56364003190E+01	-5.81701777558E+00	-3.40304566361E-01
3.23178836230E+05	-2.22931443069E+01	-1.62570055608E+01	1.18759102300E+01	-1.77651398676E+02	-3.93876154059E+01	9.64110202456E+01	-5.89283932487E+00	1.82211339050E-01
3.23412435735E+05	-2.80192416501E+01	5.06215084867E+01	1.19121518625E+01	-1.77905266027E+02	-3.84274104981E+01	1.02023311154E+02	-5.90413208231E+00	2.44105027186E-01
3.23646204090E+05	-3.37767645223E+01	-1.77395443468E+02	1.19044454540E+01	-1.77600423259E+02	-5.39482245831E+01	1.59003642750E+02	-5.89778401307E+00	-2.29421397921E-01
3.23880141417E+05	-1.97561028779E+01	-8.62031113217E+01	1.19146159884E+01	-1.77227096776E+02	-3.68886321519E+01	-7.58228100881E+01	-5.85008038807E+00	-6.80087459060E-01
3.24114247838E+05	-2.57916677064E+01	6.16288122709E+01	1.18768428663E+01	-1.77948579905E+02	-3.52711482174E+01	-7.04907932817E+00	-5.81052177969E+00	-4.95500672447E-01
3.24348523475E+05	-1.61537282188E+01	-9.40652212192E+01	1.19102398010E+01	-1.77141209038E+02	-5.81561105416E+01	1.00678860722E+00	-5.87105315527E+00	-2.17308571352E-01
3.24582968451E+05	-1.97708753572E+01	5.43725610115E+01	1.18574563119E+01	-1.77931733868E+02	-4.45453212760E+01	-8.88111276138E+01	-5.85249925094E+00	-3.15507904912E-01
3.24817582888E+05	-1.63938463036E+01	1.45146445492E+02	1.19486988299E+01	-1.78303405496E+02	-3.36635880927E+01	-7.37939388160E+01	-5.81155963032E+00	-1.07743712866E+00
3.25052366909E+05	-2.26750791834E+01	-8.37988210845E+01	1.18881366190E+01	-1.77708642960E+02	-4.05582107017E+01	6.03946249557E+01	-5.87557753728E+00	-2.59736224619E-02
3.25287320635E+05	-2.50792890579E+01	-9.71865702120E+01	1.19361137733E+01	-1.77384520608E+02	-4.39125590279E+01	3.91069442397E+01	-5.84136733945E+00	-1.32628476117E-01
3.25522444191E+05	-2.38461268944E+01	7.31126303190E+01	1.18833301003E+01	-1.77922228488E+02	-3.83837957078E+01	-1.04442602199E+02	-5.89126371105E+00	-7.28816650473E-01
3.25757737698E+05	-2.70666759248E+01	8.14371879725E+01	1.18826346776E+01	-1.78421101546E+02	-4.00818948049E+01	-9.33766299806E+01	-5.87605093791E+00	-5.35696019565E-01
3.25993201280E+05	-2.77844231212E+01	1.04373178197E+02	1.19206790468E+01	-1.77879947233E+02	-4.17458795770E+01	5.15476645767E+01	-5.85467815478E+00	-4.05108807288E-01
3.26228835058E+05	-2.54829175798E+01	-6.43734847468E+01	1.19023549274E+01	-1.78014452839E+02	-3.60608162261E+01	-1.09910916083E+02	-5.87753720837E+00	-3.59004032175E-01
