# Hz S DB R 50
! CMT, M5065, 19127446, 24.2.4/2
! Date: 11/1/2024 4:47:28 PM
! Data: Format (Calibration Info)
! Freq	S11:dB/Ang(F2)	S21:dB/Ang(F2)	S12:dB/Ang(F2)	S22:dB/Ang(F2)
3.00000000000E+05	-1.92557533398E+01	7.67450555129E+01	2.05897870686E+01	-1.76219684637E+02	-4.33629164736E+01	5.90705133108E+01	-5.86005857908E+00	3.43062219690E-01
3.00216845423E+05	-2.84642114699E+01	8.59549806744E+01	2.05797756631E+01	-1.76018881451E+02	-3.70109857200E+01	-6.64901038583E+01	-5.81352131661E+00	-1.06318211244E+00
3.00433847586E+05	-1.85892238121E+01	6.72997199744E+01	2.06116837402E+01	-1.76047843352E+02	-3.00058820623E+01	1.14582987841E+02	-6.08691871866E+00	2.26404725074E+00
3.00651006602E+05	-1.59862069512E+01	5.27455992414E+01	2.05665954998E+01	-1.76167258723E+02	-4.03754064704E+01	-4.74831390022E+01	-5.75672177125E+00	-1.09714169744E+00
3.00868322584E+05	-2.78848439189E+01	3.67496718808E+01	2.06038339395E+01	-1.75841324931E+02	-4.69974472299E+01	2.14608452910E+01	-5.87818814171E+00	-8.40642928541E-03
3.01085795647E+05	-1.67038259390E+01	7.79788349545E+01	2.06007727763E+01	-1.76218384818E+02	-4.42104482069E+01	5.65377433207E+01	-5.86192473471E+00	2.84824656436E-01
3.01303425902E+05	-2.09641648682E+01	1.71167303033E+02	2.06982941360E+01	-1.75991596827E+02	-3.50478775713E+01	-1.10642077490E+02	-5.92669677327E+00	-1.29227724343E+00
3.01521213465E+05	-2.60823103519E+01	1.27143144940E+02	2.06310506898E+01	-1.75809306478E+02	-3.94139327100E+01	-1.40563103154E+02	-5.91295251371E+00	-7.33567905784E-01
3.01739158449E+05	-1.17305678609E+01	1.29342943803E+02	2.07311447574E+01	-1.76532791643E+02	-5.12359558763E+01	8.15853876499E-01	-5.85367395408E+00	-1.30234431083E-01
3.01957260967E+05	-7.12995512517E+00	1.05914654890E+02	2.06976106776E+01	-1.77807453009E+02	-4.17243817380E+01	1.56724320739E+02	-5.95128709430E+00	-1.49466605997E-02
3.02175521134E+05	-1.49898509159E+01	-1.72824620407E+01	2.05453844201E+01	-1.75340901830E+02	-5.55102909164E+01	-5.26649607892E+01	-5.85734173705E+00	-4.15431673760E-01
3.02393939063E+05	-1.76622960050E+01	1.83589394459E+01	2.05506540371E+01	-1.75701220242E+02	-3.90725623937E+01	9.25605005850E+01	-5.91178878748E+00	6.73435521630E-01
3.02612514869E+05	-1.84492412618E+01	3.95810197063E+01	2.05841813970E+01	-1.75909480725E+02	-5.04343928287E+01	-1.58341366760E+02	-5.88835471010E+00	-1.44103405678E-01
3.02831248665E+05	-2.15503199490E+01	4.33170129763E+01	2.05934087264E+01	-1.75909314930E+02	-5.29143678182E+01	-2.00955842670E+01	-5.88158447415E+00	-5.47980681074E-01
3.03050140565E+05	-1.53767608567E+01	-2.40778266980E+01	2.05257502564E+01	-1.75425978157E+02	-4.25284061201E+01	1.10422412595E+02	-5.92326636044E+00	4.51572315987E-01
3.03269190685E+05	-1.58144578943E+01	5.21113613399E+01	2.05683766679E+01	-1.76361510014E+02	-3.63948693190E+01	-9.30339832866E+01	-5.91482841170E+00	-1.68348391800E+00
3.03488399138E+05	-1.22954881752E+01	1.07457875012E+02	2.06929310849E+01	-1.76694785250E+02	-3.20122152665E+01	-1.68432376647E+01	-5.54608943757E+00	-9.02283692242E-01
3.03707766039E+05	-2.24849558636E+01	1.63363171366E+02	2.06314850170E+01	-1.75991274340E+02	-3.70703885369E+01	1.00439816566E+02	-5.89033986620E+00	8.12085836749E-01
3.03927291503E+05	-1.84475575146E+01	-8.25623599156E+01	2.06103800813E+01	-1.75471772220E+02	-3.76242056670E+01	5.28322817341E+01	-5.82723744509E+00	4.00580972794E-01
3.04146975643E+05	-2.14554143478E+01	3.13648367916E+01	2.05940940449E+01	-1.76008727271E+02	-4.09868439728E+01	2.84468398746E+01	-5.75501279295E+00	-1.00612957556E-01
3.04366818575E+05	-1.93149593738E+01	1.10103530553E+02	2.06160317854E+01	-1.76160035489E+02	-3.86490358792E+01	-1.25585954851E+02	-5.91800559964E+00	-9.13070291671E-01
3.04586820414E+05	-1.92279745276E+01	-7.17016194118E+01	2.05778592194E+01	-1.75433222309E+02	-4.04103830910E+01	1.79771243300E+02	-6.02739022764E+00	-4.19349272757E-01
3.04806981274E+05	-1.37572303075E+01	6.95726803636E+01	2.05905318670E+01	-1.76473892834E+02	-5.35213865302E+01	7.78311589349E+01	-5.86386250899E+00	-6.28498578380E-02
3.05027301270E+05	-1.41777545295E+01	1.46368357133E+02	2.07480265346E+01	-1.76190434118E+02	-2.86428682667E+01	-6.69684014293E+01	-5.58624714203E+00	-3.47246970897E+00
3.05247780517E+05	-2.22775145415E+01	-6.21259774041E+00	2.05998229485E+01	-1.75986022485E+02	-2.98540507180E+01	1.45023552192E+02	-6.32396444396E+00	1.97648969297E+00
3.05468419131E+05	-1.50720750254E+01	-8.05248819780E+01	2.06239421448E+01	-1.75474973999E+02	-3.82571248911E+01	5.73183843194E+01	-5.80650916594E+00	4.03195399166E-01
3.05689217226E+05	-2.97544863545E+01	-1.25676198611E+02	2.06298204075E+01	-1.75733299146E+02	-5.09348548364E+01	-3.26421177590E+01	-5.88849351621E+00	-3.37036709403E-01
3.05910174918E+05	-2.06627072495E+01	5.53910494787E+01	2.05669674855E+01	-1.76309316411E+02	-4.04119201659E+01	-2.38734935321E+01	-5.79215188269E+00	-6.96816210257E-01
3.06131292322E+05	-1.63160418406E+01	4.09547370450E+01	2.05456421794E+01	-1.76353201007E+02	-3.69526797658E+01	1.05616664675E+02	-5.90122838219E+00	8.25265453080E-01
3.06352569554E+05	-1.73051462278E+01	6.66497528181E+01	2.05353036768E+01	-1.76357474229E+02	-3.90964152636E+01	1.27728387650E+01	-5.72009702121E+00	-2.07877443116E-01
3.06574006730E+05	-1.98705825720E+01	-7.61190932423E+01	2.05940816733E+01	-1.75649622496E+02	-4.50475535865E+01	-1.29115292241E+02	-5.92899602584E+00	-9.83022720328E-01
3.06795603964E+05	-1.75257621684E+01	-7.86571000845E+01	2.05846789768E+01	-1.75568431994E+02	-3.57865160572E+01	1.22893826287E+02	-6.00653561582E+00	1.03412947109E+00
3.07017361372E+05	-2.04432953184E+01	8.78053714760E+01	2.06189160271E+01	-1.76387330316E+02	-4.65006411484E+01	8.94954320495E+01	-5.86363620444E+00	-1.35094872103E-01
3.07239279071E+05	-2.12805095090E+01	-9.33314256649E+01	2.06239821304E+01	-1.75610817165E+02	-4.09732453344E+01	2.41327817539E+01	-5.81689780537E+00	1.10486371556E-02
3.07461357176E+05	-2.00329667798E+01	-1.06374192420E+02	2.06595205779E+01	-1.75783769262E+02	-3.55755361148E+01	-1.32697758644E+02	-6.02176403304E+00	-1.53777952068E+00
3.07683595803E+05	-1.92601557602E+01	1.63198034211E+01	2.05527826847E+01	-1.76010533510E+02	-4.18754992277E+01	8.53371816655E+01	-5.90070337114E+00	5.95259104770E-01
3.07905995068E+05	-1.80613162039E+01	7.63198419081E+01	2.06415521656E+01	-1.76457130022E+02	-4.51945119952E+01	5.07717460877E+01	-5.84755431178E+00	7.79040414291E-02
3.08128555087E+05	-1.68691691233E+01	-7.39268257137E+01	2.06010384136E+01	-1.75144376680E+02	-3.33153739721E+01	-1.78962384475E+02	-6.22983454286E+00	-6.35153096311E-01
3.08351275976E+05	-1.74128454654E+01	-3.39387464206E+01	2.05970062368E+01	-1.75717858554E+02	-2.97797388935E+01	-1.22217149342E+02	-6.02097273579E+00	-2.96802217921E+00
3.08574157853E+05	-2.51152453376E+01	4.59785301408E+01	2.06182540468E+01	-1.76085785231E+02	-3.97489029839E+01	2.19045464256E+01	-5.70799999549E+00	-5.43440318098E-02
3.08797200832E+05	-2.50691333034E+01	2.87448894699E+01	2.05792830043E+01	-1.76147160487E+02	-4.88943585375E+01	-4.12106256376E+01	-5.80501477514E+00	-7.37289460868E-01
3.09020405031E+05	-1.72513130122E+01	3.48357981906E+01	2.05565047590E+01	-1.76405741605E+02	-4.76575507424E+01	-1.10780379365E+02	-5.92426606995E+00	-4.92450592413E-01
3.09243770566E+05	-2.52610796077E+01	3.35879653958E+01	2.06250612533E+01	-1.76162802881E+02	-4.52630887057E+01	2.87120773922E+01	-5.83767799169E+00	-2.06015109034E-01
3.09467297553E+05	-2.12146480400E+01	1.17004549578E+02	2.06797988151E+01	-1.76526816932E+02	-3.50113290094E+01	-8.46158813683E+01	-5.79638391965E+00	-1.80652187327E+00
3.09690986110E+05	-1.55271718797E+01	-1.82142381273E+01	2.05345036507E+01	-1.75769042580E+02	-3.38827393274E+01	-3.14747681887E+00	-5.49777851683E+00	-1.35934398870E-01
3.09914836353E+05	-1.97999125573E+01	1.33841984918E+02	2.06439343283E+01	-1.76635032192E+02	-3.32882883354E+01	-1.59191991274E+01	-5.60390699674E+00	-4.92593543113E-01
3.10138848399E+05	-2.45762299300E+01	1.96724735670E+01	2.05980115021E+01	-1.75972275849E+02	-4.69706684087E+01	-1.00045861184E+02	-5.96682982932E+00	-3.94217085824E-01
3.10363022365E+05	-2.09302805054E+01	-5.25098318683E+01	2.06008675398E+01	-1.75835298117E+02	-3.58284163709E+01	1.54205952940E+02	-6.04072886229E+00	-5.71850434941E-02
3.10587358368E+05	-1.77352824044E+01	1.27748335344E+02	2.06654756040E+01	-1.76433336848E+02	-3.24375933363E+01	1.71293483723E+02	-6.13501111521E+00	-9.92988585507E-02
3.10811856525E+05	-1.81307604063E+01	-1.00630646955E+01	2.05612276430E+01	-1.75795750966E+02	-4.37440992577E+01	-1.75302745220E+02	-5.97332916383E+00	-4.46304834834E-01
3.11036516954E+05	-2.30757597093E+01	-1.43497559352E+02	2.06279542469E+01	-1.75975367448E+02	-4.06615865517E+01	1.40682911084E+02	-5.92623717347E+00	2.72126310091E-02
3.11261339771E+05	-1.67365005390E+01	-5.83526840352E+01	2.05736426519E+01	-1.75782708828E+02	-3.76145696286E+01	-1.58540961538E+02	-6.09243009934E+00	-8.91597931212E-01
3.11486325094E+05	-2.53590289535E+01	-1.68855988258E+02	2.06491331990E+01	-1.75950743208E+02	-2.53838600117E+01	1.62067296788E+02	-6.71229594158E+00	1.21552487015E+00
3.11711473040E+05	-1.73701326603E+01	-5.01879376054E+01	2.05618973813E+01	-1.75741655853E+02	-3.49628910175E+01	9.90367313080E+01	-5.91097618998E+00	1.18469571794E+00
3.11936783728E+05	-2.32295768985E+01	-1.01974091593E+02	2.06192993722E+01	-1.76205843323E+02	-5.37049530973E+01	-8.11186252941E+01	-5.87106025567E+00	-2.27782996695E-01
3.12162257274E+05	-2.82094439311E+01	2.70048076314E+01	2.06265649174E+01	-1.76048387151E+02	-3.86907095063E+01	-8.94826209433E+01	-5.80746675636E+00	-1.17656049089E+00
3.12387893797E+05	-1.79338046711E+01	-1.90856842620E+01	2.05762003129E+01	-1.76115456337E+02	-4.82024034850E+01	1.45623922509E+02	-5.91375080410E+00	-4.71068462639E-02
3.12613693413E+05	-2.40641708775E+01	-1.13333298692E+02	2.06435307071E+01	-1.75972660540E+02	-4.08275931364E+01	1.53277498831E+02	-5.98079560558E+00	-2.58359443497E-02
3.12839656242E+05	-1.91804579250E+01	1.04925251748E+02	2.06469617324E+01	-1.76445097483E+02	-4.85133599422E+01	-7.61554729739E+01	-5.90106846320E+00	-5.97454609222E-01
3.13065782401E+05	-2.86685654300E+01	-4.86835247353E+01	2.06110255583E+01	-1.75902306249E+02	-3.15266393377E+01	1.11818796388E+01	-5.52004955428E+00	4.63057913322E-01
3.13292072007E+05	-1.92147606892E+01	7.35069884336E+01	2.06241113297E+01	-1.76566640833E+02	-5.14475426787E+01	1.75692538036E+02	-5.93565957732E+00	-4.24446639655E-01
3.13518525180E+05	-1.59817533444E+01	1.77256334490E+02	2.06977128607E+01	-1.76156706126E+02	-4.70306992322E+01	1.01528152187E+02	-5.93656309535E+00	-2.17899451427E-02
3.13745142038E+05	-1.34154995391E+01	1.64239091273E+02	2.07282402382E+01	-1.76299936494E+02	-4.07931913004E+01	-1.23819120490E+02	-5.88854263569E+00	-1.01440831263E+00
3.13971922698E+05	-2.07797001044E+01	4.94673824957E+01	2.05597013225E+01	-1.76421830391E+02	-4.42130160567E+01	1.74632509106E+02	-5.95514110239E+00	-3.74414759452E-02
3.14198867279E+05	-1.84542238359E+01	-1.18483721637E+02	2.06710498113E+01	-1.75859737419E+02	-4.66087152539E+01	2.83555085912E+01	-5.83161941316E+00	-1.47642802619E-01
3.14425975900E+05	-1.22207005413E+01	-3.55811766121E+01	2.04977945676E+01	-1.75474514747E+02	-4.02421900109E+01	-4.64094431339E+01	-5.78470360614E+00	-6.00382937837E-01
3.14653248680E+05	-1.97462544326E+01	-1.14156447293E+02	2.06491734319E+01	-1.75608508845E+02	-3.42409009455E+01	1.13824318986E+02	-5.97722168901E+00	1.34113818158E+00
3.14880685736E+05	-1.93908706972E+01	-1.59706858514E+02	2.06941457764E+01	-1.76081950031E+02	-3.60907225003E+01	1.28951203640E+02	-5.97399341956E+00	3.39705626608E-01
3.15108287188E+05	-3.23544721911E+01	-2.78487944218E+01	2.05856076794E+01	-1.76140775992E+02	-3.86218573222E+01	-8.21800833802E+01	-5.84314008502E+00	-1.11705966829E+00
3.15336053154E+05	-2.38668058069E+01	-4.06008653703E+01	2.06010225198E+01	-1.76041754609E+02	-4.64294863278E+01	5.15899326610E+01	-5.89638417143E+00	1.85090041818E-02
3.15563983753E+05	-2.33595875134E+01	9.69368564274E+01	2.06555789239E+01	-1.76551700690E+02	-3.81761762583E+01	1.73321955242E+02	-6.02758475815E+00	-5.04606188614E-01
3.15792079105E+05	-2.84942109776E+01	1.33726681845E+02	2.06391024364E+01	-1.76380128284E+02	-4.01080323319E+01	2.80664273879E+00	-5.72389002227E+00	-2.26563746066E-01
3.16020339328E+05	-2.22917135959E+01	-4.60405584475E+01	2.05994035340E+01	-1.75959308940E+02	-5.48198970801E+01	1.32363344092E+02	-5.91040259799E+00	-5.56020975264E-02
3.16248764542E+05	-1.92936333747E+01	-1.48141808627E+02	2.06472351180E+01	-1.76553300058E+02	-3.22755094412E+01	1.29225857086E+02	-6.06715244363E+00	1.66044480349E+00
3.16477354866E+05	-1.75032024521E+01	-7.26181390973E+01	2.06341916091E+01	-1.75811134394E+02	-5.99817536772E+01	1.19990288228E+02	-5.91855614023E+00	-3.13883067978E-01
3.16706110419E+05	-3.23632529676E+01	7.99590689165E+01	2.06221514422E+01	-1.76318265727E+02	-3.51565454863E+01	-2.80707698032E+01	-5.67293418312E+00	-7.98094606067E-01
3.16935031321E+05	-1.95144142664E+01	5.83741617726E+01	2.05963113711E+01	-1.76522136003E+02	-4.02534742106E+01	-1.45648456621E+02	-5.97710649057E+00	-9.13984500794E-01
3.17164117691E+05	-1.95407009999E+01	1.48417010497E+01	2.05935857940E+01	-1.76381423374E+02	-4.63375657363E+01	1.77465582988E+02	-5.95678484378E+00	-3.62861231917E-01
3.17393369648E+05	-2.23850908412E+01	1.02600438727E+02	2.06593006134E+01	-1.76456301978E+02	-4.40655371233E+01	5.45327169891E+01	-5.81632377071E+00	1.91148121060E-01
3.17622787313E+05	-2.55425469463E+01	-1.68926959259E+02	2.06584065448E+01	-1.76136742696E+02	-4.21456602607E+01	6.31859440240E+01	-5.79823327973E+00	-1.34681040609E-01
3.17852370806E+05	-2.37062051393E+01	-1.33652429932E+02	2.06510656036E+01	-1.76237972047E+02	-3.25987808649E+01	7.05659524035E+00	-5.48371304537E+00	1.38001360102E-01
3.18082120245E+05	-2.60146024111E+01	1.07602954938E+02	2.06492452854E+01	-1.76393048887E+02	-4.31874473531E+01	6.60583365359E+01	-5.81703043725E+00	5.21643102240E-02
3.18312035752E+05	-2.22825560786E+01	4.25890754533E+01	2.05929699298E+01	-1.76535987821E+02	-3.75093498886E+01	-1.69177722592E+02	-6.00676896142E+00	-8.83969036922E-01
3.18542117445E+05	-2.35092269666E+01	9.16498806235E+01	2.06432249327E+01	-1.76361702273E+02	-3.75003590517E+01	1.99230409996E+01	-5.75342249726E+00	1.80649927089E-01
3.18772365446E+05	-1.59968047145E+01	6.50766450945E+01	2.05756853026E+01	-1.76922102926E+02	-4.36713062159E+01	3.16425843430E+01	-5.85156245185E+00	9.89678089998E-02
3.19002779874E+05	-2.93695809069E+01	3.36871100288E+01	2.06604156753E+01	-1.76474843383E+02	-4.63864908609E+01	-6.82861663573E+01	-5.83874708191E+00	-7.01685694975E-01
3.19233360850E+05	-1.14000952501E+01	1.14483273875E+02	2.07142348942E+01	-1.77179680434E+02	-3.82433545185E+01	1.37031305717E+01	-5.70428495475E+00	-1.66754932030E-01
3.19464108494E+05	-2.45268048040E+01	-2.84628296277E+01	2.06034211282E+01	-1.75970022055E+02	-2.53084891160E+01	1.82889956252E+01	-5.19744732804E+00	1.41920321416E+00
3.19695022927E+05	-2.55870736865E+01	-1.56315538787E+02	2.06492672863E+01	-1.76316385916E+02	-3.55579106018E+01	1.59862918619E+02	-6.08280438963E+00	-1.36549263538E-01
3.19926104268E+05	-2.38520710092E+01	-8.94394681228E+01	2.05986692469E+01	-1.76229150640E+02	-3.93004211863E+01	-5.26887313968E+01	-5.85802407877E+00	-9.78620252100E-01
3.20157352640E+05	-2.01007230018E+01	-1.00307768043E+02	2.05728751639E+01	-1.76496254479E+02	-3.84480376026E+01	-5.37284913690E+01	-5.82530540575E+00	-8.97667711477E-01
3.20388768162E+05	-1.51645947342E+01	9.56140164473E+00	2.05439992278E+01	-1.76641296652E+02	-4.44770094295E+01	6.24787636620E+01	-5.88172472405E+00	1.02060186391E-02
3.20620350955E+05	-2.41788132179E+01	-1.33980461478E+02	2.06555310012E+01	-1.76355221215E+02	-3.80034711493E+01	2.55673211826E+01	-5.74832754224E+00	1.62168318479E-01
3.20852101140E+05	-2.33151267055E+01	-1.75545179677E+01	2.05893891371E+01	-1.76308066246E+02	-5.36969267724E+01	1.58365599260E+02	-5.88150890542E+00	-4.79818464578E-01
3.21084018839E+05	-1.72807982917E+01	-1.74458053595E+02	2.07298207708E+01	-1.76147790180E+02	-3.22891699151E+01	3.21682309319E+00	-5.54744038216E+00	2.38117914048E-01
3.21316104172E+05	-1.26079185823E+01	-9.45632109129E+01	2.06268128425E+01	-1.75677740499E+02	-4.15768853000E+01	5.97436305984E+01	-5.80596464122E+00	7.79390718245E-02
3.21548357261E+05	-1.99589362670E+01	1.13100969173E+02	2.06537587626E+01	-1.76628448278E+02	-3.79845471546E+01	-1.27294976077E+02	-5.98580735866E+00	-1.22354476054E+00
3.21780778226E+05	-2.40726731990E+01	-1.31446197067E+02	2.06544816371E+01	-1.76439078081E+02	-4.53943993249E+01	-1.41978631967E+02	-5.94685329958E+00	-4.52867730843E-01
3.22013367189E+05	-1.79831423428E+01	5.66310872957E+00	2.05734292652E+01	-1.76534961297E+02	-4.16506299333E+01	3.58585043957E+01	-5.85205709034E+00	-2.92554709117E-01
3.22246124272E+05	-1.64361349348E+01	-4.25657526279E+01	2.05474725601E+01	-1.76175287029E+02	-4.18927261708E+01	1.39828552727E+02	-5.95214679150E+00	-2.07792359159E-01
3.22479049596E+05	-2.17511222696E+01	-1.10721128305E+02	2.06926282548E+01	-1.76309024646E+02	-3.97315092253E+01	5.54258056931E-01	-5.77679274030E+00	-4.50754587046E-01
3.22712143282E+05	-3.88050816909E+01	-2.80592574772E+01	2.06086272260E+01	-1.76338864909E+02	-2.99508474743E+01	1.71479629759E+02	-6.39933893424E+00	3.34524855698E-01
3.22945405453E+05	-2.18049500115E+01	7.38146180022E+01	2.05887913695E+01	-1.76751542414E+02	-3.26751555799E+01	1.08572213444E+02	-6.02456484020E+00	1.44435099042E+00
3.23178836230E+05	-1.52817386436E+01	8.55748065053E+01	2.06102663574E+01	-1.77101520439E+02	-3.69767340151E+01	-1.07765011913E+02	-5.90287515337E+00	-1.14083772902E+00
3.23412435735E+05	-2.38175727279E+01	3.82703504801E+01	2.06189790272E+01	-1.76637040326E+02	-4.83667373681E+01	8.97630292292E+01	-5.92034711374E+00	-1.62724661403E-01
3.23646204090E+05	-1.89558662609E+01	7.10854612743E+01	2.06071840115E+01	-1.76705850675E+02	-4.34268815160E+01	1.76849494196E+02	-5.96530307119E+00	-2.41859055507E-01
3.23880141417E+05	-2.28526139775E+01	-2.19305077255E+01	2.05709417890E+01	-1.76402768420E+02	-3.33144273636E+01	1.47757378728E+02	-6.13016699752E+00	2.35056492911E-01
3.24114247838E+05	-1.65161904156E+01	8.47048663715E+01	2.06040586152E+01	-1.77363419707E+02	-4.87311226423E+01	-9.56215453449E+01	-5.85524676540E+00	-5.72169061409E-01
3.24348523475E+05	-9.73560412344E+00	-1.54263000164E+02	2.08123573880E+01	-1.76156376992E+02	-3.87726854784E+01	7.84391726706E+01	-5.86117323285E+00	5.76635939125E-01
3.24582968451E+05	-2.29514043655E+01	-1.45127810499E+02	2.06620243649E+01	-1.76325125220E+02	-3.21134689390E+01	-8.34134164669E+01	-5.78860978634E+00	-2.67012436910E+00
3.24817582888E+05	-2.15658086884E+01	2.54374531709E+00	2.05753521798E+01	-1.76519603737E+02	-4.05543936616E+01	-1.51923087728E+02	-5.91291148311E+00	-8.54544133850E-01
3.25052366909E+05	-2.18046322875E+01	3.78037259793E+01	2.05979757567E+01	-1.76842432983E+02	-4.83801858095E+01	-8.80639456250E+01	-5.85298131854E+00	-1.02888657038E+00
3.25287320635E+05	-1.96724344528E+01	-1.75438261797E+02	2.06976499705E+01	-1.76679238749E+02	-3.88634501621E+01	3.61669347580E+01	-5.78105968588E+00	3.55910969327E-01
3.25522444191E+05	-1.41310926748E+01	6.54355577659E+01	2.05862614475E+01	-1.77288716660E+02	-4.50620046295E+01	-4.70370390061E+01	-5.84076836802E+00	-2.99303400635E-01
3.25757737698E+05	-1.48042503752E+01	7.07880166652E+01	2.05820418555E+01	-1.77183119851E+02	-4.44351440498E+01	1.54397070204E+02	-5.92295271607E+00	2.97262945043E-01
3.25993201280E+05	-1.13602613216E+01	-3.54366621153E+00	2.04678099528E+01	-1.76675924631E+02	-3.16227573250E+01	-1.39112372592E+02	-6.17841321157E+00	-2.02704942586E+00
3.26228835058E+05	-1.76671005016E+01	-1.16345259651E+02	2.06580764063E+01	-1.76274227396E+02	-3.61546605128E+01	1.34560145143E+02	-5.95704673688E+00	1.17958656668E+00
