# Hz S DB R 50
! CMT, M5065, 19127446, 24.2.4/2
! Date: 11/1/2024 4:48:05 PM
! Data: Format (Calibration Info)
! Freq	S11:dB/Ang(F2)	S21:dB/Ang(F2)	S12:dB/Ang(F2)	S22:dB/Ang(F2)
3.00000000000E+05	-1.36523800744E+01	2.01323420005E+01	2.13447987077E+01	-1.75258067631E+02	-4.49801417001E+01	-7.10169540674E+01	-5.80803850721E+00	-7.74778431818E-01
3.00216845423E+05	-2.45642686753E+01	6.36770958128E+01	2.13964694950E+01	-1.75538502986E+02	-4.35487478993E+01	1.24067739214E+02	-6.02357578514E+00	-1.20486727339E-01
3.00433847586E+05	-1.60202366122E+01	-1.06781716341E+02	2.14236244536E+01	-1.74762251224E+02	-4.05220496284E+01	7.87325719548E+01	-5.88552007655E+00	3.92090352389E-01
3.00651006602E+05	-2.28179411838E+01	4.85241714285E+01	2.14127910537E+01	-1.75228388566E+02	-5.01011625746E+01	-2.78353989591E+00	-5.85997985851E+00	-6.50204296686E-01
3.00868322584E+05	-1.98498861038E+01	-1.06597379233E+02	2.14498325148E+01	-1.74938185754E+02	-3.72521240597E+01	-8.61846253551E+01	-5.90520419094E+00	-1.72011812469E+00
3.01085795647E+05	-2.67159192338E+01	3.77192328000E+01	2.14407832857E+01	-1.75624291341E+02	-2.67333961974E+01	1.28038540521E+02	-6.38640663099E+00	3.55353668653E+00
3.01303425902E+05	-1.76031956963E+01	-7.21851913940E+01	2.14454287172E+01	-1.75007072920E+02	-4.34927495856E+01	-1.08290035245E+02	-5.84948615466E+00	-7.86068815209E-01
3.01521213465E+05	-1.71444725246E+01	-6.22342335599E+01	2.14396794626E+01	-1.75007232842E+02	-4.42219673044E+01	-1.08074473921E+02	-5.90225946074E+00	-6.69719876000E-01
3.01739158449E+05	-1.30993548000E+01	9.84664667083E+01	2.14739476284E+01	-1.76561019622E+02	-4.98566709859E+01	8.06838497798E+01	-5.88791981743E+00	-1.54949705619E-01
3.01957260967E+05	-1.74929677011E+01	-3.98415536097E+01	2.13928439200E+01	-1.75066037349E+02	-4.19640793120E+01	1.41344745973E+02	-5.91559293414E+00	4.54676067288E-01
3.02175521134E+05	-1.80820665931E+01	-5.56567954775E+01	2.14033666145E+01	-1.75163259523E+02	-3.81522145364E+01	-1.50315235807E+02	-6.02783005048E+00	-6.65627793255E-01
3.02393939063E+05	-2.26563399597E+01	1.41865356151E+02	2.14770488282E+01	-1.75561925552E+02	-3.64497932255E+01	-1.68795693304E+02	-6.02581934244E+00	-4.50225921939E-01
3.02612514869E+05	-2.34642176942E+01	1.36359428308E+02	2.14435505767E+01	-1.75820769089E+02	-3.94106031613E+01	-8.90380887240E+01	-5.86795709161E+00	-8.30085695883E-01
3.02831248665E+05	-1.89909018386E+01	2.85878553308E+01	2.14001022711E+01	-1.75696366379E+02	-3.64799059392E+01	-4.68543740096E+01	-5.72924071013E+00	-1.08737555335E+00
3.03050140565E+05	-2.08596881438E+01	-1.37956828893E+02	2.14487565342E+01	-1.75383850717E+02	-3.73319801627E+01	5.84630125934E+01	-5.81881731875E+00	4.55631525517E-01
3.03269190685E+05	-2.04744089409E+01	-1.21531052517E+02	2.14876674363E+01	-1.75484304649E+02	-3.81145298554E+01	-3.27931134281E+01	-5.72037457415E+00	-9.80484903340E-01
3.03488399138E+05	-9.70452608856E+00	8.11788192615E+01	2.13839567761E+01	-1.77132646021E+02	-3.73275910058E+01	-1.07844581186E+02	-5.87812522669E+00	-1.48487895219E+00
3.03707766039E+05	-1.80015336140E+01	-1.43854305936E+02	2.14616383086E+01	-1.75327563605E+02	-4.13022958180E+01	-1.21328706312E+01	-5.76941660634E+00	-4.90919650543E-01
3.03927291503E+05	-2.20338923306E+01	-9.66414693336E+01	2.14219722133E+01	-1.75416659395E+02	-4.68527035991E+01	-1.41175710300E+02	-5.85154304589E+00	-7.13678424761E-01
3.04146975643E+05	-1.64835922729E+01	1.01353681724E+02	2.14592286583E+01	-1.76075240378E+02	-2.61093215779E+01	-4.33195550175E+01	-5.22446005613E+00	-3.81875074552E+00
3.04366818575E+05	-1.69396538913E+01	-3.83229553072E+01	2.13854680978E+01	-1.75241379135E+02	-4.50606685191E+01	6.52724924183E+01	-5.85179031256E+00	9.07113011075E-02
3.04586820414E+05	-1.84594558262E+01	6.29601370082E+00	2.13401967195E+01	-1.75659055669E+02	-3.43175293904E+01	1.24064383026E+02	-5.99331846977E+00	7.91671925148E-01
3.04806981274E+05	-1.74754000012E+01	-1.01548801221E+02	2.14402484554E+01	-1.75094110215E+02	-3.78604775825E+01	-1.39484385702E+02	-5.99746975762E+00	-1.10258242847E+00
3.05027301270E+05	-1.65180349671E+01	1.42326460425E+02	2.15065416856E+01	-1.76179020553E+02	-4.10876688127E+01	7.92431220721E+01	-5.84287373782E+00	1.79345462869E-01
3.05247780517E+05	-2.33107333416E+01	1.12736729881E+02	2.14765624836E+01	-1.75873356530E+02	-4.58346382676E+01	5.60003283831E+01	-5.82670007443E+00	8.02678904461E-02
3.05468419131E+05	-1.76458889609E+01	4.46082534089E+01	2.14065655021E+01	-1.76234596980E+02	-4.06876724728E+01	1.45472709804E+02	-5.97204529152E+00	-1.39774978130E-01
3.05689217226E+05	-2.16432068855E+01	1.63540957987E+02	2.14821708283E+01	-1.75842928642E+02	-3.69215267291E+01	-1.75693955815E+02	-6.06749981542E+00	-4.80738608670E-01
3.05910174918E+05	-2.10164968800E+01	-2.82877486680E+01	2.13821817598E+01	-1.75483586495E+02	-3.70836601247E+01	-5.02992129894E+01	-5.75414705318E+00	-1.38578398970E+00
3.06131292322E+05	-2.65177598897E+01	-4.31285724338E+01	2.14084221406E+01	-1.75737428454E+02	-3.88174076861E+01	-1.13189634036E+02	-5.85445259569E+00	-9.70131711269E-01
3.06352569554E+05	-3.03568332310E+01	1.50993775508E+02	2.14261480720E+01	-1.75907812215E+02	-3.67497698022E+01	1.16113846302E+02	-5.97546747410E+00	8.53744535741E-01
3.06574006730E+05	-1.48916442801E+01	-1.95992447752E+01	2.13157646763E+01	-1.75334128102E+02	-3.38636947391E+01	3.63203427435E+01	-5.66510612650E+00	5.50866021384E-01
3.06795603964E+05	-2.26639474036E+01	2.51074729184E+01	2.14131585226E+01	-1.75807469541E+02	-4.13075573871E+01	-9.99487091481E+01	-5.84676580251E+00	-1.03492093392E+00
3.07017361372E+05	-2.02832799126E+01	1.30539784932E+01	2.13795553938E+01	-1.75764498643E+02	-4.78420887145E+01	-6.24919754516E+01	-5.89991779037E+00	-6.79697797875E-01
3.07239279071E+05	-1.33757487801E+01	4.34325290581E+00	2.13037549317E+01	-1.75726941658E+02	-3.39639972343E+01	7.18496076598E+00	-5.55324291655E+00	1.55467482173E-01
3.07461357176E+05	-3.10145754444E+01	1.54733903385E+01	2.14079717524E+01	-1.75835748732E+02	-3.78252741079E+01	-1.16840516478E+02	-5.97490117641E+00	-1.41501919189E+00
3.07683595803E+05	-1.95258108023E+01	1.42653215457E+01	2.13729383400E+01	-1.75906417931E+02	-5.21381680282E+01	-6.75556422321E+01	-5.88301966462E+00	-6.50224444237E-01
3.07905995068E+05	-2.35659526117E+01	-1.25375806434E+01	2.14188842503E+01	-1.75732661582E+02	-4.04074497743E+01	1.27090842417E+02	-5.94465235386E+00	7.06686021784E-01
3.08128555087E+05	-1.94538878362E+01	-5.38859027224E+01	2.14030936799E+01	-1.75352342856E+02	-3.70154661262E+01	-8.14008687103E+01	-5.83624367981E+00	-1.29641587932E+00
3.08351275976E+05	-2.68416429525E+01	3.76214144834E+00	2.14283881722E+01	-1.75596198595E+02	-3.80392515418E+01	8.12880855968E+01	-5.87410679320E+00	7.38598207512E-01
3.08574157853E+05	-1.66630519639E+01	1.10920596912E+02	2.14335597938E+01	-1.76053190705E+02	-4.76583002756E+01	1.32136664290E+01	-5.84597867739E+00	-3.16328797106E-01
3.08797200832E+05	-2.50818345211E+01	-6.61978877290E+01	2.14166147074E+01	-1.75798553266E+02	-4.14896385723E+01	-6.50113189503E+01	-5.83220575028E+00	-1.20106836097E+00
3.09020405031E+05	-1.61517578650E+01	1.42573383448E+02	2.14871298514E+01	-1.76111583464E+02	-3.09916247065E+01	-1.65768744228E+02	-6.28949959191E+00	-1.20141306851E+00
3.09243770566E+05	-1.38878517123E+01	4.75934774960E+01	2.13449817582E+01	-1.76420087270E+02	-3.85005664809E+01	-7.76232039589E+01	-5.85852751710E+00	-1.57745252499E+00
3.09467297553E+05	-1.74998816985E+01	1.10750915622E+02	2.14745998406E+01	-1.76119067793E+02	-4.61396856935E+01	-4.21117171907E+01	-5.80349315631E+00	-6.90926012977E-01
3.09690986110E+05	-8.27056408283E+00	-1.03168052198E+02	2.15233246267E+01	-1.74291119645E+02	-3.87637937940E+01	-1.19963631532E+01	-5.77597585546E+00	-3.29617191634E-01
3.09914836353E+05	-1.14560414833E+01	-1.09469005556E+02	2.15138696530E+01	-1.74662032777E+02	-4.41710021714E+01	-7.30974702063E+01	-5.86696171143E+00	-6.57560741636E-01
3.10138848399E+05	-2.49894107011E+01	-5.30959832905E+01	2.13941739726E+01	-1.75703093698E+02	-3.34319293718E+01	1.31175338075E+02	-6.07154711218E+00	9.99475114844E-01
3.10363022365E+05	-2.32803498247E+01	1.70015058906E+01	2.13627514740E+01	-1.75865735163E+02	-3.90594495145E+01	1.60971568972E+02	-6.02314120243E+00	-2.17520062488E-01
3.10587358368E+05	-2.70673661260E+01	9.18289338032E+01	2.14627323907E+01	-1.75907747305E+02	-4.48364720407E+01	-1.23950691572E+02	-5.93756075376E+00	-6.26145039647E-01
3.10811856525E+05	-2.50841634170E+01	-8.57847292681E+01	2.14474802552E+01	-1.75610837916E+02	-4.49660460096E+01	1.04129810318E+02	-5.90141530917E+00	-1.08351903291E-01
3.11036516954E+05	-1.99157462750E+01	1.14553305559E+02	2.14485439623E+01	-1.76194336088E+02	-3.40861731700E+01	-1.18355670680E+02	-5.98430687823E+00	-1.80013389855E+00
3.11261339771E+05	-1.71910664369E+01	7.09873452281E+01	2.13972889949E+01	-1.76463533227E+02	-4.14105919126E+01	-9.47542480160E+01	-5.88531327909E+00	-7.48619274059E-01
3.11486325094E+05	-1.48312357583E+01	-1.42818810156E+01	2.13440163442E+01	-1.75922223644E+02	-4.41261479352E+01	-1.77587419123E+02	-5.97673680032E+00	-4.45410757142E-01
3.11711473040E+05	-1.88631954757E+01	-2.47936255124E+01	2.13890814335E+01	-1.75707412700E+02	-3.92866099857E+01	7.11840122987E+01	-5.85677299219E+00	3.73760900050E-01
3.11936783728E+05	-2.32224714901E+01	1.41162031211E+02	2.14482358291E+01	-1.76401326958E+02	-5.17487643603E+01	1.60614144347E+02	-5.91367520929E+00	-2.84957908205E-01
3.12162257274E+05	-2.62618828805E+01	-8.33427148470E+01	2.14500246902E+01	-1.75686869097E+02	-2.79306648687E+01	-3.18226310513E+01	-5.39967989328E+00	-1.99293975028E+00
3.12387893797E+05	-1.55393708118E+01	5.46449518503E+01	2.13996580988E+01	-1.76387957844E+02	-3.99775993694E+01	1.12948614312E+02	-5.90322382706E+00	2.56187187435E-01
3.12613693413E+05	-1.87564794385E+01	-1.70228560114E+02	2.15113263150E+01	-1.75921259659E+02	-4.15520062309E+01	-2.63867203715E+00	-5.80740976596E+00	-3.98230905929E-01
3.12839656242E+05	-5.40833236054E+00	-2.62879993334E+01	2.11106818732E+01	-1.74762424293E+02	-4.38839054373E+01	4.79118973296E+01	-5.78097516305E+00	9.02091795355E-02
3.13065782401E+05	-2.07906438067E+01	-8.30936012872E+01	2.14213437340E+01	-1.75610154527E+02	-3.86005698983E+01	1.73479433148E+00	-5.76013687485E+00	-2.08377985948E-01
3.13292072007E+05	-1.70106192017E+01	-1.63837088199E+02	2.14917676453E+01	-1.75781528445E+02	-3.54325241991E+01	-1.26381551557E+02	-6.00862521926E+00	-1.55267612251E+00
3.13518525180E+05	-2.57519613720E+01	-8.97338372519E+01	2.14400534165E+01	-1.75936847148E+02	-3.30445387149E+01	8.90635175580E+00	-5.63186663269E+00	1.50434845676E-01
3.13745142038E+05	-2.71472249530E+01	1.25068360398E+02	2.14683208388E+01	-1.75946346847E+02	-3.87983855921E+01	2.87017165111E+00	-5.71314938213E+00	-3.30196190622E-01
3.13971922698E+05	-2.28633421937E+01	-1.06039207161E+01	2.14151510959E+01	-1.75889783018E+02	-4.48117205912E+01	-9.33073059198E+01	-5.88591436196E+00	-5.65873738669E-01
3.14198867279E+05	-3.62811785124E+01	-1.95965086003E+01	2.14318883240E+01	-1.75927061671E+02	-5.89568908983E+01	1.32316015100E+02	-5.88276306432E+00	-1.01861761099E-02
3.14425975900E+05	-1.70996162374E+01	1.25637225719E+02	2.15053198842E+01	-1.76580443146E+02	-5.25449566334E+01	-1.58093119011E+02	-5.93616359925E+00	-6.00334470289E-01
3.14653248680E+05	-1.77034945988E+01	1.02754780391E+02	2.14789489105E+01	-1.76568737509E+02	-3.67011748106E+01	-3.75647217445E+01	-5.71642892236E+00	-1.31924977555E+00
3.14880685736E+05	-1.91871759549E+01	1.01399848920E+02	2.14805924892E+01	-1.76532516556E+02	-4.57019822412E+01	-1.16950884386E+02	-5.87576082747E+00	-7.53867340878E-01
3.15108287188E+05	-1.65254996529E+01	4.04685609951E+01	2.13934900932E+01	-1.76393560668E+02	-3.23649012497E+01	1.41629064552E+02	-6.19543144856E+00	1.42566605391E+00
3.15336053154E+05	-2.33504762799E+01	-6.02187537638E+01	2.14339963759E+01	-1.75822741569E+02	-3.07933251181E+01	-2.31390669167E+01	-5.47532780974E+00	-1.37009355121E+00
3.15563983753E+05	-2.30725261981E+01	5.04664378931E+01	2.14151526242E+01	-1.76006659836E+02	-3.84363684577E+01	1.27793422885E+02	-5.94741768496E+00	6.93616704192E-02
3.15792079105E+05	-2.43032752712E+01	4.67468129548E+01	2.14174937028E+01	-1.76083311898E+02	-4.16917423224E+01	1.45532870448E+02	-5.98954770479E+00	-4.19363231481E-01
3.16020339328E+05	-1.88130956256E+01	5.79874005234E+00	2.13583914981E+01	-1.75853565541E+02	-4.16618082235E+01	1.59296294213E+02	-5.94968089949E+00	5.59594478662E-02
3.16248764542E+05	-1.27823647190E+01	-1.46966826992E+02	2.15702208148E+01	-1.75504922242E+02	-4.05084351871E+01	-5.28885918410E+00	-5.81069855854E+00	2.86164869014E-02
3.16477354866E+05	-1.87011350508E+01	-1.47804662345E+01	2.13956169446E+01	-1.75855352091E+02	-4.56761576055E+01	-2.79806668703E+01	-5.81517524618E+00	-1.29083926888E-01
3.16706110419E+05	-1.89099814265E+01	9.25165437237E+01	2.14614191191E+01	-1.76443958433E+02	-3.75174943208E+01	-9.52791075575E+01	-5.78992779578E+00	-1.16728379229E+00
3.16935031321E+05	-2.53290089442E+01	1.49614973024E+02	2.14095939561E+01	-1.76207262753E+02	-3.22071728500E+01	-1.22617111815E+02	-6.04782969961E+00	-2.67829013588E+00
3.17164117691E+05	-2.68147421150E+01	9.88978580875E+01	2.14520227168E+01	-1.76149975448E+02	-4.87942399338E+01	1.38958388556E+02	-5.90307120491E+00	-8.93474995927E-02
3.17393369648E+05	-2.30456081166E+01	-1.26251610558E+02	2.14825740524E+01	-1.75769190720E+02	-5.32783980864E+01	1.24732070217E+02	-5.90302602747E+00	-3.78492477784E-01
3.17622787313E+05	-1.43193108814E+01	-9.90640458971E+00	2.13250302444E+01	-1.76073844581E+02	-3.65330378269E+01	2.53736444651E-01	-5.67676019543E+00	-3.74213933730E-01
3.17852370806E+05	-1.72984860409E+01	1.01007058564E+00	2.13587978972E+01	-1.75996644453E+02	-3.47616779660E+01	-1.76908598312E+02	-6.12557767980E+00	-3.74477762978E-01
3.18082120245E+05	-2.56983354670E+01	-1.65408308356E+00	2.14618114171E+01	-1.76122204605E+02	-4.83130100964E+01	-2.16982938008E+01	-5.81061916007E+00	-6.80964017962E-01
3.18312035752E+05	-1.79932391553E+01	5.31400875083E+01	2.13870309001E+01	-1.76447455487E+02	-3.71580746801E+01	5.90277487058E+01	-5.81751732790E+00	9.75181247468E-01
3.18542117445E+05	-1.48116779141E+01	8.51301135718E+00	2.13721706597E+01	-1.76154914246E+02	-2.94260681664E+01	-1.76118457249E+02	-6.49926028779E+00	-4.66255549520E-01
3.18772365446E+05	-1.66935585746E+01	-1.54876345771E+02	2.15168106327E+01	-1.75944869292E+02	-3.31460667112E+01	-7.84907799948E+00	-5.64280659090E+00	-2.96885232686E-01
3.19002779874E+05	-1.73356816080E+01	8.91048638920E+00	2.14155256262E+01	-1.76187230263E+02	-3.87201574381E+01	-1.02799037942E+01	-5.73515167478E+00	-2.37461587851E-01
3.19233360850E+05	-1.27286665690E+01	3.25211803905E+01	2.13130702368E+01	-1.76669341795E+02	-4.05509824633E+01	-9.39021649780E+01	-5.89973586359E+00	-8.24515689322E-01
3.19464108494E+05	-2.77013637627E+01	1.75086402302E+02	2.14272416232E+01	-1.76183816564E+02	-4.16011970778E+01	-4.80206245635E+01	-5.80284796257E+00	-9.39811172296E-01
3.19695022927E+05	-2.82141343112E+01	-1.70030108884E+02	2.14592163392E+01	-1.76186651346E+02	-3.90069959317E+01	1.01887635333E+02	-5.91326865655E+00	6.68790805099E-01
3.19926104268E+05	-1.92367528047E+01	-9.14020949743E+00	2.13611484043E+01	-1.75923690493E+02	-3.64673316106E+01	-1.72816949273E+02	-6.13845799763E+00	-1.27500605522E+00
3.20157352640E+05	-2.42629274180E+01	-1.21228704031E+02	2.14803628513E+01	-1.75978305281E+02	-4.10121531361E+01	-8.79788455515E+01	-5.93246809739E+00	-1.35606599916E+00
3.20388768162E+05	-1.53440055882E+01	8.56872036566E+01	2.14121945954E+01	-1.76776314790E+02	-4.57657980358E+01	2.23733435518E+01	-5.80182587164E+00	7.23757155238E-02
3.20620350955E+05	-1.78894992269E+01	3.03495653478E+00	2.13378064408E+01	-1.76463214109E+02	-5.08237593494E+01	-9.23898725648E+01	-5.88331249170E+00	-3.99349016768E-01
3.20852101140E+05	-2.31550430582E+01	-1.24827541688E+02	2.14457816798E+01	-1.75864457062E+02	-3.89967652251E+01	1.45040871130E+02	-5.96085819369E+00	-2.65655877696E-04
3.21084018839E+05	-2.46082988639E+01	2.29301847946E+01	2.14076117958E+01	-1.76586891376E+02	-5.03481943258E+01	-1.15120984150E+02	-5.90829664448E+00	-6.71140785910E-01
3.21316104172E+05	-1.83610036338E+01	2.17675191068E+01	2.13812314599E+01	-1.76675789182E+02	-3.54836311863E+01	-9.15574777091E+01	-5.89912382614E+00	-1.71898789457E+00
3.21548357261E+05	-1.66712821821E+01	8.62669886271E+01	2.14102472354E+01	-1.76782679537E+02	-3.91244066140E+01	-8.19038081483E+01	-5.82117056191E+00	-1.73336451689E+00
3.21780778226E+05	-2.18363926633E+01	-4.21206778783E+01	2.13801151627E+01	-1.76155870092E+02	-4.17482328623E+01	9.45586702281E+01	-5.89857786319E+00	5.35717963495E-02
3.22013367189E+05	-2.56445997189E+01	7.11595174836E+01	2.14230567095E+01	-1.76421660352E+02	-4.49111612948E+01	-3.08846277761E+01	-5.79539998140E+00	-6.32438061715E-01
3.22246124272E+05	-1.96406381489E+01	9.35490058891E+01	2.14737626071E+01	-1.76744560343E+02	-4.56066662795E+01	1.05516302754E+02	-5.93835151319E+00	1.08514778209E-01
3.22479049596E+05	-2.57448695239E+01	-2.69585616675E+01	2.14516820269E+01	-1.76253879719E+02	-3.96606725947E+01	-1.10028584662E+02	-5.87147764983E+00	-1.15004142369E+00
3.22712143282E+05	-1.58917213226E+01	1.47955438367E+02	2.15695596976E+01	-1.76707327771E+02	-4.27142225468E+01	-9.17997794811E+00	-5.76491504630E+00	-7.70938316086E-01
3.22945405453E+05	-2.16066157167E+01	6.00140702972E+01	2.13920584707E+01	-1.76502198611E+02	-3.21982055823E+01	6.05541747136E+01	-5.73397369102E+00	1.52880477411E+00
3.23178836230E+05	-2.75853184883E+01	-1.21761701370E+02	2.14626446314E+01	-1.76394898809E+02	-3.92505303403E+01	-1.13097384501E+02	-5.94101730963E+00	-1.12668134075E+00
3.23412435735E+05	-2.33879475830E+01	-1.61965026158E+02	2.14943394297E+01	-1.76247937968E+02	-3.20549909008E+01	4.64758421127E+01	-5.58751313930E+00	1.53687855740E+00
3.23646204090E+05	-2.55994027778E+01	-1.38180827822E+02	2.14810491712E+01	-1.76292772931E+02	-4.16412427393E+01	2.55950170982E+01	-5.77208825933E+00	3.07449731542E-01
3.23880141417E+05	-1.65690986104E+01	-8.65675135051E+01	2.14098838383E+01	-1.75991563488E+02	-3.74675273830E+01	-1.53801180620E+02	-6.01551288973E+00	-7.00749734328E-01
3.24114247838E+05	-2.85846684050E+01	1.66148441314E+01	2.14355467816E+01	-1.76307473023E+02	-4.47323478163E+01	1.75728268866E+02	-5.95024679811E+00	-1.22529502318E-01
3.24348523475E+05	-1.66007829400E+01	-1.39448984880E+02	2.15020306154E+01	-1.75893591684E+02	-4.71093398289E+01	4.29972314964E+01	-5.74400573972E+00	4.17806150375E-02
3.24582968451E+05	-1.96280099528E+01	-6.87736951579E+01	2.14171443931E+01	-1.75955915917E+02	-4.38944486786E+01	-8.69341388708E+01	-5.90713781550E+00	-4.99512392162E-01
3.24817582888E+05	-3.30328216450E+01	-9.11404240843E+01	2.14313211746E+01	-1.76423234236E+02	-3.54187263953E+01	7.35996902472E+01	-5.83771030072E+00	1.44183643708E+00
3.25052366909E+05	-1.62247277110E+01	5.21452267120E+01	2.13389518767E+01	-1.76710263537E+02	-3.10129468018E+01	7.09709087479E+01	-5.71015871399E+00	2.36774048807E+00
3.25287320635E+05	-2.50455048484E+01	-1.46110267910E+02	2.15143020383E+01	-1.76277471451E+02	-4.07105876134E+01	-1.23737022993E+02	-5.93977439549E+00	-1.07475657549E+00
3.25522444191E+05	-1.78173514328E+01	3.54003599611E+01	2.13278084229E+01	-1.76743004770E+02	-4.24221302449E+01	-2.80620995648E+00	-5.83942818633E+00	-1.34748303180E-01
3.25757737698E+05	-2.00587974732E+01	-9.82834787290E+01	2.14220250124E+01	-1.75900616556E+02	-4.35815341590E+01	-2.45864111879E+01	-5.81472460232E+00	-5.37762635524E-01
3.25993201280E+05	-2.12700350847E+01	-5.90446637882E+00	2.13646948461E+01	-1.76514530625E+02	-4.47959207436E+01	-9.22040263567E+01	-5.94557041251E+00	-7.29493795804E-01
3.26228835058E+05	-2.74363878929E+01	-1.56536707585E+02	2.14665029706E+01	-1.76340160349E+02	-3.80330392974E+01	8.12203985342E+01	-5.86454161421E+00	7.04684731674E-01
