# Hz S DB R 50
! CMT, M5065, 19127446, 24.2.4/2
! Date: 11/1/2024 4:32:35 PM
! Data: Format (Calibration Info)
! Freq	S11:dB/Ang(F2)	S21:dB/Ang(F2)	S12:dB/Ang(F2)	S22:dB/Ang(F2)
3.00000000000E+05	-2.76356979851E+01	-2.42810178780E+01	9.83834598346E+00	-1.77401683457E+02	-4.15381621845E+01	-1.46203291378E+02	-5.92896710923E+00	-4.63301120205E-01
3.00216845423E+05	-2.77360956395E+01	7.61495032467E+01	9.85457626418E+00	-1.77460576889E+02	-4.38346067082E+01	-3.28671263001E+01	-5.85692014837E+00	-3.81437854903E-01
3.00433847586E+05	-1.95297723229E+01	1.65347455874E+01	9.79391239775E+00	-1.77580920951E+02	-4.86858279154E+01	1.81523867941E+01	-5.85292990199E+00	-2.09070323459E-01
3.00651006602E+05	-1.79664856996E+01	5.31725566307E+01	9.81223108274E+00	-1.77764886778E+02	-4.23258928333E+01	-2.06179160889E+01	-5.88894256694E+00	-2.99980500258E-01
3.00868322584E+05	-2.11490502045E+01	1.74987922972E+02	9.93627848452E+00	-1.77836875706E+02	-4.02753685577E+01	-1.56716531800E+02	-5.90000268112E+00	-5.34304673115E-02
3.01085795647E+05	-1.99680085498E+01	-1.55106930690E+01	9.77291111213E+00	-1.77464322451E+02	-3.72830199639E+01	-4.51169605686E+01	-5.86291120409E+00	-3.98883591311E-01
3.01303425902E+05	-3.10380825634E+01	-1.05117894356E+02	9.86169764504E+00	-1.77029852449E+02	-4.28725346813E+01	-1.62314288970E+02	-5.92906449849E+00	-4.82675580917E-01
3.01521213465E+05	-2.38384869878E+01	-1.30631176733E+02	9.89606048968E+00	-1.76940681434E+02	-4.47546817214E+01	1.83625940910E+01	-5.84685100422E+00	2.44026925771E-02
3.01739158449E+05	-2.04173816687E+01	5.19531416670E+01	9.77724349034E+00	-1.77807194470E+02	-5.29021260557E+01	-1.00060859530E+02	-5.90452178619E+00	-2.68331621054E-01
3.01957260967E+05	-1.36506631647E+01	-4.78876160614E+01	9.79846951142E+00	-1.76829763082E+02	-3.56125945210E+01	3.32376443405E+01	-5.88265144357E+00	1.87720590566E-01
3.02175521134E+05	-1.82528240984E+01	-7.31971393218E+01	9.87958465726E+00	-1.76954921108E+02	-3.55899335695E+01	5.57074867175E+00	-5.81515168439E+00	-1.75073691989E-01
3.02393939063E+05	-1.93429887905E+01	-1.53763147168E+02	9.85859941062E+00	-1.77314565335E+02	-3.58813139937E+01	-7.69043232512E+01	-5.87188973115E+00	-7.39923345504E-01
3.02612514869E+05	-2.82278407283E+01	3.39520107546E+01	9.85302837305E+00	-1.77425623961E+02	-2.70896531771E+01	1.73995492313E+02	-6.03631606416E+00	-1.67070653745E-01
3.02831248665E+05	-2.22868280793E+01	1.93389218926E+01	9.81089349434E+00	-1.77357099240E+02	-4.97547977512E+01	3.88445257505E+00	-5.85278570591E+00	-3.72861766215E-01
3.03050140565E+05	-2.17248147611E+01	-8.87594871468E+01	9.88049944759E+00	-1.77007789463E+02	-3.63955527347E+01	1.31032395519E+02	-5.89669146291E+00	-1.53901833251E-01
3.03269190685E+05	-2.19383599371E+01	-1.20499769342E+02	9.84404748949E+00	-1.77223701401E+02	-3.54886600415E+01	1.43574964172E+02	-5.93003211756E+00	-1.69842761069E-01
3.03488399138E+05	-1.60602248814E+01	-3.26451336963E+00	9.70311531496E+00	-1.77657776210E+02	-4.30214091744E+01	2.31868101362E+01	-5.84174053076E+00	-2.91264672698E-01
3.03707766039E+05	-7.80401548810E+00	9.81940817647E+01	9.96387839584E+00	-1.79649653495E+02	-3.76460985591E+01	-3.02691558479E+01	-5.83976662961E+00	-3.00888753774E-01
3.03927291503E+05	-1.63027557129E+01	-1.28096741225E+02	9.92588262922E+00	-1.77308674909E+02	-4.36951422261E+01	3.87232251130E+00	-5.85490834323E+00	-3.09621025988E-01
3.04146975643E+05	-1.73724826117E+01	-7.95996739974E+01	9.82512470333E+00	-1.76611263242E+02	-4.14725522190E+01	-4.35050006034E+01	-5.84356629447E+00	-6.71821493611E-01
3.04366818575E+05	-2.00673798583E+01	-5.37848651156E+01	9.80780705149E+00	-1.77163863440E+02	-4.21452321475E+01	-1.71507273643E+02	-5.91490317883E+00	-3.49754898802E-01
3.04586820414E+05	-3.16114363981E+01	-8.50010897975E+01	9.84436437423E+00	-1.77517718726E+02	-4.92636098347E+01	1.07776687226E+02	-5.87039677259E+00	-7.19997554429E-02
3.04806981274E+05	-1.96187983471E+01	1.63878519958E+02	9.92844197930E+00	-1.77621492780E+02	-3.72057185113E+01	-1.73791453209E+02	-5.89929867561E+00	-8.06112965257E-02
3.05027301270E+05	-1.64014504217E+01	-1.75349425014E+02	1.00102839868E+01	-1.77685973334E+02	-4.01611033694E+01	-1.50554207107E+02	-5.92225973502E+00	-4.91591555226E-01
3.05247780517E+05	-1.70329930959E+01	1.45677146376E+02	9.88958356332E+00	-1.77766930635E+02	-4.49888337217E+01	4.70487337569E+01	-5.85265544725E+00	-1.91140817207E-02
3.05468419131E+05	-1.71068191821E+01	-1.28148460856E+02	9.95857709504E+00	-1.77189873784E+02	-3.10782388427E+01	8.27916139668E+01	-5.86997875276E+00	7.04470271254E-01
3.05689217226E+05	-1.73617546779E+01	8.10490063600E+01	9.81778285714E+00	-1.77967318507E+02	-2.91998618781E+01	-6.08419088410E+01	-5.90382668749E+00	-1.26831114088E+00
3.05910174918E+05	-1.60645306468E+01	5.02271459723E+01	9.84836249893E+00	-1.78104727546E+02	-3.85916206015E+01	-8.48392866819E+01	-5.86880390403E+00	-5.34683153808E-01
3.06131292322E+05	-2.18688455322E+01	-1.51744910486E+02	9.90968700583E+00	-1.77941062961E+02	-4.57693249890E+01	1.79175467911E+02	-5.90623410363E+00	-4.82624218616E-01
3.06352569554E+05	-2.19359543674E+01	1.47204484847E+02	9.83139056702E+00	-1.77647195476E+02	-3.63059103624E+01	-1.54055742387E+02	-5.93307895153E+00	-2.78675157887E-01
3.06574006730E+05	-2.24739611219E+01	-6.02943972053E+00	9.79580067832E+00	-1.77597370744E+02	-4.21046971595E+01	-2.09231186444E+01	-5.87694585634E+00	-2.77979651224E-01
3.06795603964E+05	-2.86084686442E+01	-1.42634527970E+02	9.84942572661E+00	-1.77409954762E+02	-3.98410390165E+01	1.11876870620E+02	-5.90122309194E+00	-2.37243589656E-02
3.07017361372E+05	-1.19873669156E+01	-1.23583494905E+01	9.73665122447E+00	-1.77351376165E+02	-3.36893845021E+01	5.71328177829E+01	-5.82714472503E+00	2.37368515339E-01
3.07239279071E+05	-2.52286477384E+01	-9.03829470384E+01	9.87400784203E+00	-1.77784986227E+02	-3.69522209025E+01	2.50408420271E+01	-5.82436356140E+00	3.55090976892E-02
3.07461357176E+05	-2.28492861722E+01	-1.58908792709E+01	9.78957508435E+00	-1.77288163645E+02	-3.64043067788E+01	-1.69127886093E+02	-5.93878025182E+00	-1.32827646309E-01
3.07683595803E+05	-2.17098777069E+01	-1.76759605641E+02	9.91668632299E+00	-1.77742040105E+02	-4.27359776032E+01	-6.11411818064E+01	-5.85944488821E+00	-4.30586901118E-01
3.07905995068E+05	-1.81599453236E+01	9.16326199605E+01	9.85201026884E+00	-1.78061940800E+02	-3.83287817629E+01	-2.79326506936E+01	-5.84636225349E+00	-2.67569690240E-01
3.08128555087E+05	-1.74680998380E+01	-3.48565645890E+01	9.75019605136E+00	-1.77078031572E+02	-3.69926815567E+01	1.76143946992E+02	-5.91033022755E+00	-2.40715657402E-01
3.08351275976E+05	-1.08705812469E+01	-2.98594124196E+01	9.67881633185E+00	-1.77077566619E+02	-4.30441253162E+01	-1.52250587067E+02	-5.89361283341E+00	-3.84002890913E-01
3.08574157853E+05	-2.51988671570E+01	1.10293002192E+02	9.88399211972E+00	-1.77894175009E+02	-3.91731034564E+01	3.46386881996E+01	-5.83461724224E+00	5.04726101182E-02
3.08797200832E+05	-1.84373024628E+01	1.64101048085E+02	9.93519246841E+00	-1.77836605091E+02	-5.03169141129E+01	-3.28686540883E+01	-5.90000505062E+00	-2.59668411098E-01
3.09020405031E+05	-2.13835756098E+01	4.90798130496E+01	9.84858736045E+00	-1.77605637682E+02	-3.57218708031E+01	1.41238553736E+02	-5.90530690915E+00	-1.51589102715E-03
3.09243770566E+05	-2.45955210099E+01	1.46944519865E+01	9.87032013836E+00	-1.77853672693E+02	-3.92769130495E+01	1.63755505993E+02	-5.92083861725E+00	-3.39621159952E-02
3.09467297553E+05	-1.85316628010E+01	-5.45071657865E+01	9.82372984458E+00	-1.77405727674E+02	-3.95873698272E+01	1.28232873458E+02	-5.92262472817E+00	-1.04610638590E-01
3.09690986110E+05	-2.66117508124E+01	1.45182935490E+02	9.87419824018E+00	-1.77247473985E+02	-4.06944913880E+01	1.71695817464E+02	-5.91906306141E+00	-2.68137202374E-01
3.09914836353E+05	-1.46948141673E+01	-1.85224434598E+01	9.70349136882E+00	-1.77493346546E+02	-3.94860416890E+01	-1.60131495034E+02	-5.94836937526E+00	-4.72179762408E-02
3.10138848399E+05	-3.10601859987E+01	1.66531752101E+02	9.87224733775E+00	-1.77643381224E+02	-3.47352864294E+01	3.73130246396E+00	-5.75650182634E+00	-2.73480732807E-01
3.10363022365E+05	-2.48160645969E+01	1.38484958393E+02	9.86754670932E+00	-1.77924347911E+02	-3.93749162229E+01	9.02747401541E+01	-5.86762309884E+00	-1.66139690246E-01
3.10587358368E+05	-1.68652741746E+01	1.03211597279E+02	9.90557851560E+00	-1.78146461543E+02	-4.44277142902E+01	7.28645465664E+01	-5.90357757492E+00	3.22805864698E-02
3.10811856525E+05	-1.66919127910E+01	-3.00819948518E+01	9.80243408944E+00	-1.77211488469E+02	-3.68643544909E+01	-8.52366784196E+01	-5.94153056262E+00	-6.47134341875E-01
3.11036516954E+05	-2.75309054821E+01	9.17436883689E+01	9.83564185828E+00	-1.77553190526E+02	-4.21833487210E+01	-8.95663882793E+01	-5.87607663640E+00	-3.70711501266E-01
3.11261339771E+05	-2.24198457439E+01	8.51970764039E+01	9.84253412623E+00	-1.78056427385E+02	-3.90733284679E+01	1.19166181223E+01	-5.84758523869E+00	-2.49464754356E-01
3.11486325094E+05	-1.95286809323E+01	1.64582091293E+02	9.99702403701E+00	-1.77562145273E+02	-4.19323931773E+01	2.46673796816E+01	-5.84418434801E+00	-2.41261596659E-01
3.11711473040E+05	-2.05971398052E+01	-1.87916960008E+01	9.87776931307E+00	-1.77724496356E+02	-3.55058271319E+01	-1.26380750011E+02	-5.89705208656E+00	-7.41780144395E-01
3.11936783728E+05	-2.28474190690E+01	1.65580354922E+02	9.84062240889E+00	-1.77857532835E+02	-3.19458114447E+01	1.36392106859E+01	-5.78687391975E+00	7.99529084107E-03
3.12162257274E+05	-1.83209552508E+01	6.67210186178E+01	9.82931277935E+00	-1.78341683289E+02	-4.04513546715E+01	-1.76091727744E+02	-5.88298654130E+00	-2.06960667099E-01
3.12387893797E+05	-1.52476645975E+01	-1.14871568426E+02	9.91224749463E+00	-1.77285241230E+02	-3.72824410793E+01	9.58813787097E+01	-5.86770890743E+00	2.97648820046E-01
3.12613693413E+05	-2.75384034559E+01	6.51996411614E+01	9.80789101151E+00	-1.77626981100E+02	-3.67618050980E+01	-1.58056306988E+02	-5.92696970247E+00	-1.68497370011E-01
3.12839656242E+05	-1.44164740029E+01	-3.22058838667E+01	9.77921570959E+00	-1.77356606814E+02	-4.90496977283E+01	1.47790616914E+02	-5.85671196125E+00	7.34632703904E-02
3.13065782401E+05	-1.49171848354E+01	1.09106114512E+02	9.87802047743E+00	-1.78427757369E+02	-4.02972883755E+01	-4.72593488136E+01	-5.83974641379E+00	-4.43822796415E-01
3.13292072007E+05	-2.02542397331E+01	1.82292528910E+00	9.87945348152E+00	-1.77933426845E+02	-4.07042010651E+01	-1.13135646330E+02	-5.87033854665E+00	-4.73779727571E-01
3.13518525180E+05	-3.13807704613E+01	1.01611273416E+02	9.86525774739E+00	-1.77611320319E+02	-3.69248167546E+01	-1.41596127344E+02	-5.88310281813E+00	-4.17282947972E-01
3.13745142038E+05	-2.64788215445E+01	3.30492357667E+01	9.83861815245E+00	-1.77657372919E+02	-4.41930226619E+01	2.53531222974E+01	-5.89146675030E+00	-1.07256802201E-01
3.13971922698E+05	-3.17771081744E+01	-1.11642571981E+02	9.86920068092E+00	-1.77613479690E+02	-4.03844027645E+01	-3.07243181534E+01	-5.87334320738E+00	-3.38306511136E-01
3.14198867279E+05	-2.22960137573E+01	3.66658322774E+01	9.81604191508E+00	-1.77618024344E+02	-3.77138971879E+01	-8.17852356508E+01	-5.83803931630E+00	-6.51669837646E-01
3.14425975900E+05	-1.68274180945E+01	7.75406191207E+01	9.86086695448E+00	-1.78094831560E+02	-4.48278068697E+01	-1.46469096132E+01	-5.88518867935E+00	-8.48547724153E-02
3.14653248680E+05	-1.70077597002E+01	1.24189797049E+02	9.98927605838E+00	-1.78297640398E+02	-3.53534718955E+01	-1.45930118292E+02	-5.97718051475E+00	-5.46212664320E-01
3.14880685736E+05	-1.59273748953E+01	1.04306579181E+02	9.87538953500E+00	-1.78400737112E+02	-3.56974281837E+01	7.60834507725E+01	-5.86102257999E+00	-5.32014561406E-03
3.15108287188E+05	-1.79376961635E+01	7.49067741084E+01	9.82014531381E+00	-1.78230753760E+02	-4.69682864430E+01	1.57764735821E+02	-5.93416455132E+00	-3.96249953728E-03
3.15336053154E+05	-1.84427652904E+01	2.87139668859E+01	9.83409566237E+00	-1.78013163248E+02	-3.87229298497E+01	-3.23717219846E+01	-5.83068533494E+00	-6.00140065643E-01
3.15563983753E+05	-2.03752620090E+01	1.50609100470E+02	9.93066829989E+00	-1.78118294923E+02	-3.65563120954E+01	9.70074033689E+01	-5.90162980281E+00	-6.45982794487E-02
3.15792079105E+05	-2.37943242940E+01	8.34391194196E+01	9.90998813702E+00	-1.77667667925E+02	-3.82483601995E+01	5.82090009236E-01	-5.85338924541E+00	-2.39603351335E-01
3.16020339328E+05	-2.02806478881E+01	1.47946052142E+02	9.92823190547E+00	-1.77983843902E+02	-4.84041398790E+01	-1.24971261086E+02	-5.88359262295E+00	-2.88082852551E-01
3.16248764542E+05	-2.11212490794E+01	-6.92893003867E+00	9.88862948737E+00	-1.77478207539E+02	-4.68703858761E+01	-9.48844103392E+01	-5.89262312596E+00	-3.38378474678E-01
3.16477354866E+05	-2.21050130182E+01	6.66843943979E+01	9.87860241596E+00	-1.78088029096E+02	-3.50552494966E+01	1.67315013326E+02	-5.90357268366E+00	-8.19480900332E-03
3.16706110419E+05	-2.03211451651E+01	1.65821438350E+01	9.81007524270E+00	-1.77701935084E+02	-3.09675499414E+01	4.42340850286E+01	-5.81455908441E+00	5.72167410969E-01
3.16935031321E+05	-3.09610567106E+01	-2.76107344934E+01	9.87093625700E+00	-1.78009658451E+02	-4.53622252590E+01	-1.90184189365E+01	-5.86894936914E+00	-5.09390850433E-01
3.17164117691E+05	-2.92719181044E+01	5.68177809169E+01	9.85323445486E+00	-1.77463847597E+02	-3.28352144618E+01	-5.74345227087E+00	-5.83157192195E+00	-3.11004616089E-01
3.17393369648E+05	-1.95076235880E+01	5.45338926852E+01	9.81357132267E+00	-1.78039231183E+02	-3.51233124377E+01	8.82182044643E+01	-5.85542432057E+00	-2.88854302576E-01
3.17622787313E+05	-3.24304464666E+01	1.01513526726E+02	9.84764460047E+00	-1.77847012425E+02	-3.79450320994E+01	-8.26941745880E+01	-5.85297488949E+00	-5.74099805347E-01
3.17852370806E+05	-1.86283748520E+01	5.04112835154E+01	9.84670106069E+00	-1.78323845086E+02	-4.02094307117E+01	-1.06044514905E+02	-5.94220414232E+00	-5.99242380502E-01
3.18082120245E+05	-2.35196353552E+01	1.90827494466E+00	9.77774733897E+00	-1.77809305138E+02	-3.25659990379E+01	1.05908390749E+02	-5.87703939184E+00	2.35987615271E-01
3.18312035752E+05	-1.88135716634E+01	1.18455443558E+02	9.93100355083E+00	-1.78292646615E+02	-2.76525608308E+01	8.38280446894E+01	-5.88572721989E+00	1.09147686892E+00
3.18542117445E+05	-3.05184563613E+01	4.97242672773E+01	9.81148206367E+00	-1.77841147828E+02	-3.16537688770E+01	1.14227993385E+02	-5.92322704226E+00	5.61864469392E-01
3.18772365446E+05	-3.50080557230E+01	1.31067670593E+02	9.86334000655E+00	-1.77896843156E+02	-4.54103389955E+01	-2.71534106286E+01	-5.90092468083E+00	-4.41146270739E-01
3.19002779874E+05	-1.63383808377E+01	-1.35586674634E+02	9.94257019732E+00	-1.77189295649E+02	-4.07028135970E+01	-6.99211079691E+01	-5.89217879994E+00	-4.48095097902E-01
3.19233360850E+05	-2.60168085003E+01	-1.26564958158E+02	9.89108631455E+00	-1.77610864893E+02	-4.82176537496E+01	-1.71080556072E+02	-5.87160251930E+00	-2.99916564292E-01
3.19464108494E+05	-1.94808039929E+01	3.95011597644E+01	9.76287075218E+00	-1.77900915810E+02	-3.83929175441E+01	-7.00128373196E+01	-5.87113784122E+00	-4.41120822211E-01
3.19695022927E+05	-1.27700363601E+01	1.70099309112E+01	9.68395627397E+00	-1.77796038872E+02	-3.91531507529E+01	7.70825063673E+01	-5.87669616390E+00	-2.87239840833E-01
3.19926104268E+05	-2.70358067257E+01	8.48095466649E+01	9.89776435823E+00	-1.78026122792E+02	-3.13169314606E+01	1.39867336502E+01	-5.75525430895E+00	-1.14667253980E-01
3.20157352640E+05	-1.49294651756E+01	6.78793549508E+00	9.77163319984E+00	-1.77854588268E+02	-4.11135387342E+01	1.24196931255E+02	-5.90610625311E+00	-1.60152104725E-01
3.20388768162E+05	-1.78190834172E+01	1.13355955295E+02	9.89827316092E+00	-1.78099770013E+02	-4.06810160009E+01	-6.32153580618E+01	-5.89725329801E+00	-3.57730711835E-01
3.20620350955E+05	-2.88589364863E+01	-1.68780539471E+02	9.89037973921E+00	-1.77928880814E+02	-4.34259976789E+01	-1.62926959374E+02	-5.90192196844E+00	-4.86535567267E-01
3.20852101140E+05	-2.59764017822E+01	-1.00872686001E+02	9.89666113335E+00	-1.77162725046E+02	-4.18993996923E+01	-2.92029754445E+01	-5.85820156318E+00	-4.63578318020E-01
3.21084018839E+05	-1.42829911270E+01	8.35845305871E+01	9.82136301067E+00	-1.78617727424E+02	-5.09958568199E+01	-5.60285931842E+01	-5.88913898208E+00	-5.21191397976E-01
3.21316104172E+05	-1.95756262136E+01	-1.76026622731E+02	9.99868807265E+00	-1.77783102491E+02	-3.78055152248E+01	-7.55485919149E+01	-5.86962190266E+00	-6.26833561100E-01
3.21548357261E+05	-2.67425658450E+01	-8.39431070293E+01	9.88918958866E+00	-1.77655291460E+02	-3.47103868877E+01	-9.21702502733E+01	-5.90152370145E+00	-9.46003014287E-01
3.21780778226E+05	-2.14990506609E+01	6.76897656675E+01	9.84364446955E+00	-1.78024359493E+02	-4.18735956991E+01	1.28717709276E+02	-5.88113782184E+00	1.82811492411E-01
3.22013367189E+05	-1.65318437557E+01	-1.74055110220E+02	9.96276762439E+00	-1.77980181371E+02	-3.72583781485E+01	-5.42905903370E+01	-5.85572107417E+00	-2.20135059942E-01
3.22246124272E+05	-2.00056810759E+01	5.18892792946E+01	9.83789946619E+00	-1.78111220744E+02	-5.06999722023E+01	1.36062197294E+02	-5.88439056117E+00	-2.78629426331E-01
3.22479049596E+05	-3.26966268717E+01	1.04251819165E+02	9.85428133047E+00	-1.78323862282E+02	-3.64066752237E+01	-1.21423400917E+02	-5.90647848012E+00	-7.95528269201E-01
3.22712143282E+05	-1.56739069622E+01	1.12683046374E+02	9.87416840731E+00	-1.78683733180E+02	-4.30282068970E+01	4.57399831148E+01	-5.83393019984E+00	-5.93246503961E-02
3.22945405453E+05	-1.32615917025E+01	-2.47694478206E+00	9.79297680194E+00	-1.77892924917E+02	-4.56542254394E+01	-7.16729021451E+01	-5.86641756963E+00	-3.51586978089E-01
3.23178836230E+05	-2.81846003318E+01	-1.46244281953E+02	9.93143417058E+00	-1.77761727784E+02	-3.48947353578E+01	1.14929090711E+02	-5.91664056167E+00	2.85881370278E-01
3.23412435735E+05	-2.44971215280E+01	-1.13685329746E+02	9.93524362835E+00	-1.77873919519E+02	-3.60931535114E+01	1.68739543051E+02	-5.97554719016E+00	-4.27985425269E-02
3.23646204090E+05	-1.91922138091E+01	1.58143031783E+02	9.87804842808E+00	-1.77828041433E+02	-3.95389018193E+01	1.49795047047E+02	-5.91657217164E+00	-1.39164545123E-01
3.23880141417E+05	-1.65888521978E+01	-9.20020041975E+00	9.76170958882E+00	-1.77962014604E+02	-3.94383305362E+01	-7.89493443057E+01	-5.92126006260E+00	-4.90060597269E-01
3.24114247838E+05	-1.68075990176E+01	1.81346967003E+01	9.87576013852E+00	-1.78067934946E+02	-3.74905732328E+01	-4.98304017267E+01	-5.87314264233E+00	-4.05632983931E-01
3.24348523475E+05	-1.72930159250E+01	9.29490213357E+01	9.85762959243E+00	-1.78460313309E+02	-4.73899841229E+01	9.11920080861E+01	-5.87488109520E+00	2.04937613668E-02
3.24582968451E+05	-2.28203188669E+01	-1.22588734404E+02	9.87976230925E+00	-1.77640231299E+02	-4.40597107556E+01	8.15483378750E+01	-5.84902155690E+00	-8.05017455794E-02
3.24817582888E+05	-2.14389925557E+01	-1.41442175582E+02	9.91588994317E+00	-1.77490426995E+02	-3.92691766462E+01	5.45872317436E+00	-5.82412642474E+00	-2.64207555435E-01
3.25052366909E+05	-1.63035098237E+01	3.09588453307E+01	9.72830239450E+00	-1.77944402090E+02	-3.57880603646E+01	-8.21347532309E+01	-5.87922244344E+00	-8.55020877643E-01
3.25287320635E+05	-1.94714727686E+01	2.83569171505E+01	9.76521456687E+00	-1.78119280514E+02	-3.94067860854E+01	3.82557675477E-01	-5.91759680069E+00	4.32305337754E-03
3.25522444191E+05	-1.53080794736E+01	1.70055847774E+02	9.99640344115E+00	-1.78125795105E+02	-4.41769591640E+01	-9.90678665103E+01	-5.89048533030E+00	-6.43962953717E-01
3.25757737698E+05	-1.90627078578E+01	-1.65993208722E+02	9.92141645580E+00	-1.77873146665E+02	-5.13992058847E+01	2.50285741002E+01	-5.85495842596E+00	-3.95319219541E-01
3.25993201280E+05	-1.83573308021E+01	2.66782133199E+01	9.68576116563E+00	-1.77923771392E+02	-4.32875225838E+01	-4.92658478889E+01	-5.88773685317E+00	-1.59224428014E-01
3.26228835058E+05	-2.47821893982E+01	1.23045817211E+02	9.89225297266E+00	-1.78280128953E+02	-3.75279298291E+01	1.02835378957E+02	-5.88330713930E+00	-6.27261144472E-03
