# Hz S DB R 50
! CMT, M5065, 19127446, 24.2.4/2
! Date: 11/1/2024 4:18:40 PM
! Data: Format (Calibration Info)
! Freq	S11:dB/Ang(F2)	S21:dB/Ang(F2)	S12:dB/Ang(F2)	S22:dB/Ang(F2)
3.00000000000E+05	-1.75715441789E+01	-1.47122179501E+02	5.57682480438E+00	-1.77383388568E+02	-3.35317193837E+01	1.77974465523E+02	-5.92810779585E+00	-2.45787142398E-01
3.00216845423E+05	-1.52690339576E+01	-1.31638477149E+02	5.63011880003E+00	-1.76798592359E+02	-3.04552454486E+01	-1.84582634784E+01	-5.82143429958E+00	-7.82339558152E-01
3.00433847586E+05	-2.81619128020E+01	-1.03361839546E+02	5.57790903023E+00	-1.77246582145E+02	-3.85779364322E+01	-8.68653441592E+01	-5.89522397053E+00	-4.02966168139E-01
3.00651006602E+05	-1.23332740778E+01	-1.14560897304E+02	5.59901031676E+00	-1.76452763359E+02	-4.52438175355E+01	-2.08795221957E+01	-5.88043027871E+00	-2.53888254003E-01
3.00868322584E+05	-1.38069273844E+01	6.65554854618E+01	5.45752012999E+00	-1.78703869454E+02	-4.24136609011E+01	1.18513613767E+02	-5.91830071672E+00	-2.55672860900E-01
3.01085795647E+05	-2.20669580223E+01	-1.59394796870E+02	5.60787932634E+00	-1.77882282686E+02	-3.75899532493E+01	-1.42548188004E+02	-5.91056268306E+00	-4.62713077725E-01
3.01303425902E+05	-2.84841847472E+01	1.49587503011E+02	5.56142125662E+00	-1.77701719260E+02	-3.75105968584E+01	-4.32889608632E+00	-5.83234643118E+00	-9.12434870863E-02
3.01521213465E+05	-1.72180831333E+01	-1.61407701408E+02	5.60430649355E+00	-1.77900177068E+02	-4.72751485700E+01	1.01810720694E+02	-5.89540623268E+00	-6.03383390977E-02
3.01739158449E+05	-1.44259568794E+01	2.39469839441E+01	5.48295595324E+00	-1.77639384269E+02	-3.67982784640E+01	6.59479730763E+01	-5.84353319239E+00	2.08329259600E-01
3.01957260967E+05	-2.95170595437E+01	-1.17975708991E+02	5.58381609534E+00	-1.77098698592E+02	-3.98246265265E+01	1.56603628695E+02	-5.92675861283E+00	-1.30085041816E-01
3.02175521134E+05	-2.83426340739E+01	1.40025488067E+02	5.62401737236E+00	-1.77612877665E+02	-4.14000858970E+01	-1.56442347462E+02	-5.91506661906E+00	-5.19187830912E-01
3.02393939063E+05	-2.13580482190E+01	1.76840510047E+02	5.57215050305E+00	-1.77548671092E+02	-6.13602010529E+01	-1.44518300096E+02	-5.88883944334E+00	-2.59947643557E-01
3.02612514869E+05	-2.45955601819E+01	4.22217510706E+01	5.54791498202E+00	-1.77577389531E+02	-3.28731289672E+01	-1.27510350940E+02	-5.94289092929E+00	1.96589100950E-01
3.02831248665E+05	-1.60578265963E+01	1.01225246818E+02	5.57927118335E+00	-1.78318874406E+02	-4.20751965224E+01	9.60640865699E+01	-5.89686865062E+00	-2.07602874263E-01
3.03050140565E+05	-3.18803216960E+01	-7.16444524582E+01	5.55780123193E+00	-1.77703826594E+02	-4.12334713710E+01	-1.08565485412E+02	-5.89112156869E+00	-2.54515881244E-01
3.03269190685E+05	-1.72977983526E+01	3.05487744998E+01	5.48971867787E+00	-1.78797689372E+02	-2.82070738700E+01	1.34966417564E+01	-5.78575303559E+00	-2.68531504512E-01
3.03488399138E+05	-2.90897115741E+01	-5.09936394045E+01	5.54357300872E+00	-1.77818560733E+02	-4.08793038930E+01	9.45776790083E+01	-5.86590664798E+00	-1.29989851391E-01
3.03707766039E+05	-1.31294525522E+01	-4.71652397323E+01	5.46650383597E+00	-1.77104787052E+02	-3.77382388325E+01	4.95841032194E+01	-5.88946514165E+00	2.82210801780E-02
3.03927291503E+05	-2.61622095245E+01	1.59403491580E+02	5.55160576048E+00	-1.77556506095E+02	-3.90872129230E+01	-1.79337420245E+02	-5.98347271680E+00	-5.28835982644E-01
3.04146975643E+05	-2.64140706504E+01	1.57527749031E+02	5.66240897341E+00	-1.77681412422E+02	-4.13378645220E+01	-1.47465283445E+02	-5.90550812142E+00	-1.21605800248E-01
3.04366818575E+05	-2.21671299222E+01	-4.27907253932E+01	5.49236204478E+00	-1.77521751357E+02	-3.91343566367E+01	6.17188155672E+01	-5.88081302037E+00	-1.14234082880E-01
3.04586820414E+05	-2.67095884125E+01	-6.98491541181E+01	5.50564604710E+00	-1.77674043755E+02	-3.76516339513E+01	-6.04789135407E+01	-5.89550278382E+00	-3.27863442406E-01
3.04806981274E+05	-2.28731509488E+01	-3.97183774467E+01	5.54508242344E+00	-1.77790255992E+02	-4.27683759934E+01	-5.73134728849E+01	-5.88310243923E+00	-3.88096105255E-01
3.05027301270E+05	-1.96768300660E+01	1.50396703067E+02	5.60472780060E+00	-1.77685774469E+02	-3.55541696584E+01	1.41328024890E+02	-5.90547911189E+00	-1.62124367874E-01
3.05247780517E+05	-1.96212552177E+01	1.47391710480E+02	5.62044817181E+00	-1.77692404020E+02	-4.82600358600E+01	-1.54604812991E+01	-5.89627581107E+00	-8.55982901592E-02
3.05468419131E+05	-1.75051852324E+01	-5.16695528167E+01	5.46529429159E+00	-1.77512614353E+02	-3.73467675932E+01	1.11559783435E+02	-5.89547943914E+00	-8.46460389183E-02
3.05689217226E+05	-2.90645776880E+01	-1.40153466141E+02	5.53332005212E+00	-1.77189594772E+02	-4.73440557282E+01	-5.55974547219E+01	-5.87142155210E+00	-5.64935143162E-01
3.05910174918E+05	-2.52955480038E+01	1.06955146549E+02	5.59177589923E+00	-1.77708015513E+02	-3.62763356674E+01	6.97615757781E+01	-5.89337431872E+00	-8.71318201720E-02
3.06131292322E+05	-2.23147955733E+01	-1.17809123294E+01	5.46912651475E+00	-1.77653638651E+02	-4.91468920145E+01	7.08771554048E+01	-5.90016724878E+00	-1.14570184236E-01
3.06352569554E+05	-1.72364017751E+01	7.15454724882E+01	5.56426643627E+00	-1.78184946539E+02	-3.07356093819E+01	-1.37829916174E+02	-5.97970958557E+00	-5.11248787937E-01
3.06574006730E+05	-2.13789499347E+01	8.70034191394E+01	5.52228200198E+00	-1.77670997510E+02	-3.44419862018E+01	1.52478454329E+02	-5.96379808101E+00	-9.08093543329E-02
3.06795603964E+05	-1.42736682124E+01	9.96207777056E+01	5.53268538978E+00	-1.78567929276E+02	-3.74555790425E+01	-7.96896145048E+01	-5.89236306288E+00	-3.95189618483E-01
3.07017361372E+05	-7.70432979178E+00	1.29027090087E+02	5.70027577369E+00	-1.79766594634E+02	-4.52049546267E+01	3.32734643503E+00	-5.88292803858E+00	-3.05318092234E-01
3.07239279071E+05	-1.90272068364E+01	1.06579983869E+02	5.58171265098E+00	-1.77995678159E+02	-4.57947934508E+01	6.58999861867E+01	-5.90365014252E+00	-3.28212855712E-01
3.07461357176E+05	-1.50647853901E+01	9.03946484663E+01	5.60648119097E+00	-1.78473448010E+02	-3.43761545613E+01	1.43627082377E+02	-5.96331770385E+00	-3.25974526795E-01
3.07683595803E+05	-2.38660805727E+01	1.18718972839E+02	5.54951811365E+00	-1.77586669452E+02	-3.72714271589E+01	-1.74433918673E+02	-5.92968460363E+00	-1.25606425719E-01
3.07905995068E+05	-2.05303657896E+01	2.40039846822E+01	5.49649983152E+00	-1.77650282810E+02	-3.11006313051E+01	-3.94084376027E+01	-5.80526825455E+00	-7.81519853763E-01
3.08128555087E+05	-1.84738265455E+01	-1.77213778784E+02	5.62602530500E+00	-1.77473533927E+02	-3.45503167978E+01	1.67509146928E+02	-5.94573479256E+00	-2.97151108801E-01
3.08351275976E+05	-1.80974243038E+01	3.68745410558E+01	5.45642992231E+00	-1.77745043928E+02	-4.71518651887E+01	1.43555562052E+02	-5.91196774807E+00	-4.47187821410E-01
3.08574157853E+05	-1.33552884592E+01	1.78415418920E+02	5.70207684614E+00	-1.77837420598E+02	-4.61412958696E+01	7.48082715590E+01	-5.86145506520E+00	-1.20961695366E-01
3.08797200832E+05	-2.63767496321E+01	1.57732605964E+02	5.55589677685E+00	-1.77721633770E+02	-3.61317036008E+01	-1.41961832474E+02	-5.92762591244E+00	-5.67327348203E-01
3.09020405031E+05	-1.91186602063E+01	-8.23226407357E+01	5.57000656481E+00	-1.77691121568E+02	-3.34389703934E+01	6.61316933926E+01	-5.85927190186E+00	2.61101802265E-02
3.09243770566E+05	-2.05121244380E+01	-4.22612759647E-01	5.54593024955E+00	-1.77729239824E+02	-3.30218529349E+01	9.29576807771E+01	-5.88140726852E+00	4.04760940821E-02
3.09467297553E+05	-2.02474465291E+01	9.12441140759E+01	5.46904035828E+00	-1.78095584062E+02	-4.11105545879E+01	8.43844177944E+01	-5.91113278853E+00	-1.95172610917E-01
3.09690986110E+05	-2.79316934684E+01	5.80534419411E+01	5.52716872358E+00	-1.78642880843E+02	-3.48972281707E+01	4.54806627572E+01	-5.83786804213E+00	-1.52220089674E-01
3.09914836353E+05	-1.74715707067E+01	-5.41963972361E+00	5.38613980609E+00	-1.77917568643E+02	-6.15533507686E+01	1.29862162159E+02	-5.87313757452E+00	-3.41668639664E-03
3.10138848399E+05	-1.43996875410E+01	-9.06615083204E+01	5.57100795721E+00	-1.77067061791E+02	-4.06340759930E+01	-4.38311185431E+01	-5.86761891238E+00	-6.95304561063E-02
3.10363022365E+05	-2.17505034013E+01	1.26236575007E+02	5.65806406827E+00	-1.77500847493E+02	-4.29727142751E+01	-1.78091449881E+02	-5.90176691117E+00	-1.28025843798E-01
3.10587358368E+05	-3.01543259297E+01	1.36613741566E+02	5.59926952859E+00	-1.77952898769E+02	-5.03182702286E+01	-1.43648717031E+02	-5.87695778161E+00	-4.37564181373E-01
3.10811856525E+05	-1.63141204017E+01	-1.33877202304E+02	5.62932577878E+00	-1.77271753713E+02	-4.60890519269E+01	1.20562720329E+02	-5.89725779469E+00	-2.96812672195E-01
3.11036516954E+05	-1.43593359714E+01	1.51200272742E+02	5.64612614766E+00	-1.78237482304E+02	-3.48994876310E+01	-1.67349190830E+02	-5.94048691464E+00	-2.96476120331E-01
3.11261339771E+05	-2.53494543162E+01	-7.81197882064E+01	5.54754641536E+00	-1.77703201726E+02	-3.11988870256E+01	-1.63803683035E+02	-5.95984324936E+00	-4.59654121373E-01
3.11486325094E+05	-2.04250527800E+01	-4.75606398432E+01	5.47807093557E+00	-1.77374192125E+02	-4.29633741282E+01	9.92325215290E+01	-5.93582211662E+00	-4.82412052458E-01
3.11711473040E+05	-8.93115240324E+00	-8.11377949610E+01	5.62832569497E+00	-1.75957914530E+02	-4.95158702829E+01	1.16218121178E+02	-5.90286547993E+00	-1.52127090780E-01
3.11936783728E+05	-1.80655494394E+01	-5.00785757992E+01	5.47842944067E+00	-1.77107936309E+02	-4.71170105393E+01	-5.18684504783E+01	-5.89410917293E+00	3.47689897794E-02
3.12162257274E+05	-2.49125139738E+01	-1.61621231622E+02	5.61857647104E+00	-1.78102649116E+02	-4.71834297348E+01	-1.48612404372E+02	-5.90247011552E+00	-7.56667795125E-02
3.12387893797E+05	-1.69921036825E+01	1.41405816018E+02	5.55502187200E+00	-1.78839556014E+02	-3.44843927473E+01	-1.73446781843E+02	-5.94368449068E+00	-3.35238685645E-01
3.12613693413E+05	-3.36667399780E+01	2.23504786509E+00	5.59469627337E+00	-1.78321014531E+02	-5.46572677666E+01	8.33919309843E+01	-5.87435323669E+00	-1.84595925132E-01
3.12839656242E+05	-2.02806733877E+01	-5.75599402906E+01	5.56998925885E+00	-1.77680348259E+02	-3.61325322692E+01	-2.07256382837E+01	-5.83832291898E+00	-3.59558493662E-01
3.13065782401E+05	-2.27579998205E+01	1.22801426629E+02	5.59990985874E+00	-1.78044026154E+02	-4.09611753078E+01	-9.10562335855E+00	-5.85379072835E+00	-2.23188733130E-01
3.13292072007E+05	-1.59347191231E+01	1.41638868342E+02	5.67962065866E+00	-1.78210853193E+02	-4.47701122087E+01	-1.75708158675E+02	-5.91373004162E+00	-4.13358372091E-01
3.13518525180E+05	-2.04648131841E+01	6.60635912147E+01	5.50307752617E+00	-1.78121796869E+02	-4.09132443678E+01	-1.08978407384E+02	-5.91274082110E+00	-3.28904119881E-01
3.13745142038E+05	-1.84524628998E+01	-5.37872250459E+01	5.58165278923E+00	-1.77522795538E+02	-3.68276011136E+01	-1.12630348289E+02	-5.89143275127E+00	-6.88437022381E-01
3.13971922698E+05	-1.63639712915E+01	5.22064346039E+01	5.54833702380E+00	-1.78132583307E+02	-3.55241935413E+01	-1.76498506715E+02	-5.93585305566E+00	-1.12706571534E-01
3.14198867279E+05	-1.56801024919E+01	1.63834179813E+02	5.69543989737E+00	-1.77862284381E+02	-3.51673998324E+01	1.59520276200E+02	-5.92519757718E+00	-4.15195841084E-02
3.14425975900E+05	-2.38690684960E+01	-1.63433353710E+02	5.58355796556E+00	-1.77506161355E+02	-3.66304331686E+01	1.18525595814E+02	-5.86674174295E+00	1.75272826846E-01
3.14653248680E+05	-1.89084445907E+01	-8.41654589240E+01	5.50981440899E+00	-1.77534687612E+02	-4.27187752436E+01	-1.21820678414E+02	-5.90445397766E+00	-3.58056466442E-01
3.14880685736E+05	-7.97791212834E+00	-3.87005797313E+01	5.32126251330E+00	-1.76952354774E+02	-3.65535557655E+01	-5.19318643965E+01	-5.89441386611E+00	-7.44111872751E-02
3.15108287188E+05	-2.06586139320E+01	9.69313063926E+01	5.53668763303E+00	-1.78187509615E+02	-3.55257845444E+01	4.58732343938E+01	-5.88330398782E+00	-5.19003474350E-02
3.15336053154E+05	-2.49383649117E+01	2.40549953149E+01	5.54227788032E+00	-1.78173961586E+02	-3.83064095085E+01	-1.11171286130E+02	-5.89797979084E+00	-3.36302882085E-01
3.15563983753E+05	-1.95170155396E+01	-2.88926816842E+01	5.52406266738E+00	-1.77719502883E+02	-5.30985400202E+01	-3.00419357474E+01	-5.90643355410E+00	-4.59003163534E-01
3.15792079105E+05	-2.23865383800E+01	1.25170938672E+02	5.67736248201E+00	-1.78229987754E+02	-4.14739800767E+01	1.66162063348E+02	-5.86048606576E+00	-4.68176027391E-01
3.16020339328E+05	-3.18545562943E+01	-1.37844825128E+02	5.63353278179E+00	-1.77651744134E+02	-2.80987979671E+01	-1.18018426947E+02	-5.93900188691E+00	-6.91172253454E-01
3.16248764542E+05	-1.19302973889E+01	9.12732610357E+01	5.59980694569E+00	-1.79187735807E+02	-4.57269338041E+01	1.05334665376E+02	-5.90088163340E+00	-4.73219731142E-02
3.16477354866E+05	-1.27014337617E+01	-8.19820593427E+01	5.49254969692E+00	-1.76628269048E+02	-4.12111024837E+01	-3.28746759646E+01	-5.88313127308E+00	-3.10833286254E-01
3.16706110419E+05	-1.73881567489E+01	2.82246587279E+01	5.43669545376E+00	-1.77993917987E+02	-3.28533190122E+01	1.63094820617E+02	-5.95571502301E+00	-2.44597271492E-01
3.16935031321E+05	-1.68003224401E+01	1.59330421030E+02	5.65540649761E+00	-1.77945039690E+02	-3.77837907361E+01	-1.08556784287E+02	-5.89561403428E+00	-3.00950795874E-01
3.17164117691E+05	-1.57051022808E+01	-1.24622526576E+02	5.66080202016E+00	-1.77297081114E+02	-4.44471130663E+01	1.72784970741E+02	-5.93681791131E+00	-4.18710786400E-01
3.17393369648E+05	-1.96893030049E+01	-1.06461149828E+01	5.47549239635E+00	-1.77400713402E+02	-4.36558908324E+01	6.31663574277E+01	-5.93282772650E+00	-2.93382891149E-01
3.17622787313E+05	-2.01124239400E+01	1.26064622732E+02	5.60746855381E+00	-1.78344416749E+02	-3.01771919648E+01	5.61084647877E+01	-5.82645584454E+00	3.54905587087E-01
3.17852370806E+05	-1.90851044851E+01	1.35401509629E+01	5.49944110665E+00	-1.78152779770E+02	-4.24964154278E+01	-4.89719114247E+01	-5.87747895189E+00	-4.65074874351E-01
3.18082120245E+05	-1.25735159342E+01	6.63217511926E+01	5.50485078623E+00	-1.79549020256E+02	-4.16939065187E+01	6.39979806380E+01	-5.85960333118E+00	-5.36580873761E-02
3.18312035752E+05	-3.33095469359E+01	-8.34004389204E+01	5.64538624091E+00	-1.78062805442E+02	-4.31723619231E+01	-6.92447745082E+01	-5.85168309321E+00	-3.88077234820E-01
3.18542117445E+05	-1.67550886739E+01	-9.21991062448E+01	5.51999509845E+00	-1.77215101884E+02	-3.68420239554E+01	1.39927702759E+02	-5.92691532556E+00	-1.13599221313E-01
3.18772365446E+05	-2.29313117330E+01	-5.17793567894E+01	5.54664490750E+00	-1.77501074457E+02	-5.88568868458E+01	-6.85726738427E+01	-5.88744995892E+00	-1.23421980232E-01
3.19002779874E+05	-1.96978983258E+01	1.21707085269E+02	5.63049400210E+00	-1.77676150869E+02	-3.97077994427E+01	-1.34267864627E+02	-5.91325726539E+00	-3.71639501975E-01
3.19233360850E+05	-2.47618055244E+01	-9.08079349591E+01	5.55541486678E+00	-1.77794453710E+02	-3.93569709897E+01	-1.68707325318E+02	-5.92784250111E+00	-2.39522788379E-01
3.19464108494E+05	-2.82073056106E+01	1.14980566753E+02	5.59665714654E+00	-1.78458109901E+02	-4.66108252321E+01	-1.24336471328E+02	-5.89309659646E+00	-2.50331125559E-01
3.19695022927E+05	-1.32077712898E+01	-1.68454506988E+02	5.77254445124E+00	-1.78066372952E+02	-3.59377847846E+01	1.14839377660E+02	-5.94685024587E+00	-1.88633035173E-01
3.19926104268E+05	-9.17271985793E+00	8.37163693720E+01	5.57758444769E+00	-1.79574756210E+02	-4.81362554331E+01	-4.79549506641E+01	-5.90537305015E+00	-5.05160967730E-01
3.20157352640E+05	-1.45323749253E+01	1.15919212196E+02	5.56433453939E+00	-1.78318305138E+02	-5.50298971372E+01	-7.78001132174E+01	-5.85642216080E+00	-1.79427700645E-01
3.20388768162E+05	-1.91483098306E+01	1.61606613986E+02	5.60078769836E+00	-1.78191959063E+02	-3.93642276689E+01	-1.00268044285E+02	-5.90433850568E+00	-4.52289486216E-01
3.20620350955E+05	-1.44839395534E+01	7.74642092073E+00	5.51617018226E+00	-1.78079746162E+02	-4.90603500030E+01	-4.01675748156E+01	-5.86657362717E+00	-2.28084047030E-01
3.20852101140E+05	-2.34528169936E+01	-8.64867947685E+01	5.48985693224E+00	-1.77461209483E+02	-2.62680155546E+01	1.47362115002E+02	-6.01803152162E+00	1.62102783870E-01
3.21084018839E+05	-1.74474176253E+01	1.06220135722E+02	5.60484326890E+00	-1.78427047435E+02	-3.79181781402E+01	1.44277120507E+02	-5.87792797527E+00	8.97830942142E-02
3.21316104172E+05	-3.32877637796E+01	-1.68276006694E+02	5.57264560782E+00	-1.78073235137E+02	-3.51574376125E+01	-1.31398305420E+02	-5.89605080893E+00	-5.33894065898E-01
3.21548357261E+05	-2.04144661397E+01	9.13131622235E+01	5.61749695392E+00	-1.78574100995E+02	-4.08608067612E+01	1.59856905247E+02	-5.87881046969E+00	-4.54128042428E-01
3.21780778226E+05	-3.41430230824E+01	-6.85820583902E+01	5.68507530806E+00	-1.77806908749E+02	-3.98147076451E+01	-5.76548087544E+01	-5.87542908748E+00	-6.07718395393E-01
3.22013367189E+05	-1.87560403218E+01	-1.38172209829E+02	5.66161697949E+00	-1.77752108721E+02	-4.29748572980E+01	-8.31100752782E+00	-5.85962309306E+00	-2.56523841724E-01
3.22246124272E+05	-1.74063107480E+01	7.10323249074E+01	5.45122615934E+00	-1.78427403556E+02	-3.84549494608E+01	-7.47710774708E+01	-5.89967644834E+00	-1.93944476944E-01
3.22479049596E+05	-1.88475187837E+01	5.96309368281E+01	5.50434643230E+00	-1.78603378309E+02	-4.07694872057E+01	-9.31569159428E+01	-5.90230655928E+00	-3.93587326020E-01
3.22712143282E+05	-1.85723975874E+01	1.08808699578E+02	5.53740978501E+00	-1.78237403311E+02	-3.51222192505E+01	-5.56284070616E+01	-5.86670412837E+00	-5.35527248871E-01
3.22945405453E+05	-1.64073649745E+01	1.33572178546E+02	5.61168144092E+00	-1.78442728611E+02	-4.55528723105E+01	1.01211856235E+02	-5.92320204548E+00	-1.00931197035E-01
3.23178836230E+05	-1.87505367792E+01	-1.18068934496E+02	5.57672118920E+00	-1.77892124836E+02	-4.34013865294E+01	7.88081624641E+01	-5.88446002045E+00	-1.45699919903E-01
3.23412435735E+05	-3.72292472568E+01	-8.17632213970E+01	5.59626146599E+00	-1.77876215129E+02	-3.70365821673E+01	2.03409154713E+01	-5.85325311271E+00	-4.21891133822E-01
3.23646204090E+05	-2.61879633483E+01	-1.07346665364E+02	5.57710329914E+00	-1.77863755215E+02	-3.04994388825E+01	1.40087939612E+02	-5.94337459654E+00	1.73365057031E-01
3.23880141417E+05	-2.12616687425E+01	5.35826366263E+01	5.52741852428E+00	-1.78139297593E+02	-3.92713011907E+01	-1.26228643559E+02	-5.92166670222E+00	-2.93891094204E-01
3.24114247838E+05	-1.55137221666E+01	6.76804134587E+01	5.57381558561E+00	-1.78534002807E+02	-3.32091117226E+01	1.11470637104E+02	-5.86122564096E+00	2.19633137815E-01
3.24348523475E+05	-1.93982567203E+01	8.62452912082E+01	5.55166016319E+00	-1.78453121791E+02	-3.90372594071E+01	-7.56623102251E+00	-5.87585525724E+00	1.12565051850E-01
3.24582968451E+05	-1.34609704334E+01	1.29958686016E+02	5.58776199899E+00	-1.78418798200E+02	-3.74607796482E+01	-1.78934350186E+02	-5.92446307339E+00	-2.66147275725E-01
3.24817582888E+05	-2.54298021316E+01	-1.29888897456E+02	5.56458581098E+00	-1.77519444475E+02	-3.95026182083E+01	1.19428871095E+02	-5.88668124646E+00	-1.16835363379E-01
3.25052366909E+05	-2.56390489683E+01	1.21858522693E+02	5.56457358233E+00	-1.78178697098E+02	-3.82765062934E+01	-2.59978564986E+01	-5.84650398203E+00	-4.03315351720E-01
3.25287320635E+05	-2.52652111188E+01	4.47612488878E+01	5.53430637138E+00	-1.78226874142E+02	-4.04981907818E+01	1.33868789988E+02	-5.92286593397E+00	-2.47323228636E-01
3.25522444191E+05	-1.97276439337E+01	-1.66389573808E+02	5.58237069026E+00	-1.77806551181E+02	-3.55078376940E+01	1.46010166755E+02	-5.96789096870E+00	-1.92427762688E-01
3.25757737698E+05	-1.89587794787E+01	-5.00862649971E+01	5.59455177816E+00	-1.77705643781E+02	-3.23081269047E+01	-7.08088279401E+01	-5.82903748644E+00	-8.01103053132E-01
3.25993201280E+05	-3.92640519766E+01	6.78643417831E+01	5.58573173629E+00	-1.78131423633E+02	-4.24409444409E+01	-1.43343925411E+02	-5.89397984918E+00	-4.09533144953E-01
3.26228835058E+05	-1.92089103620E+01	-1.35916652832E+02	5.66379063523E+00	-1.78022740601E+02	-4.48238029670E+01	-6.63787054775E+01	-5.89426516077E+00	-3.60766928452E-01
