# Hz S DB R 50
! CMT, M5065, 19127446, 24.2.4/2
! Date: 11/1/2024 4:48:41 PM
! Data: Format (Calibration Info)
! Freq	S11:dB/Ang(F2)	S21:dB/Ang(F2)	S12:dB/Ang(F2)	S22:dB/Ang(F2)
3.00000000000E+05	-1.47302439640E+01	2.35569304378E+01	2.26894035414E+01	-1.75276544260E+02	-4.66627332494E+01	-7.81891126024E+01	-5.81352340956E+00	-8.32241747711E-01
3.00216845423E+05	-3.56069799655E+01	-6.70080424231E+01	2.27686121818E+01	-1.74987073068E+02	-4.56156312638E+01	1.79099698711E+02	-5.92408776457E+00	-4.59715058720E-01
3.00433847586E+05	-1.75671275066E+01	-8.18699469552E+01	2.26784610160E+01	-1.74665970936E+02	-3.75267154666E+01	1.67176958949E+02	-5.99125554628E+00	-3.54812482767E-01
3.00651006602E+05	-1.33638028269E+01	-9.64832775915E+01	2.27865400828E+01	-1.74334772891E+02	-3.61754087924E+01	-8.95735136850E+01	-5.83462810790E+00	-1.92170820028E+00
3.00868322584E+05	-1.83644391028E+01	1.09280790376E+02	2.27590824799E+01	-1.75594100741E+02	-4.75131810018E+01	-1.38416075726E+02	-5.87282482882E+00	-4.59024667644E-01
3.01085795647E+05	-9.36460918542E+00	1.37146469275E+02	2.29045883330E+01	-1.76044122728E+02	-4.67390903124E+01	-6.40391787724E+01	-5.80070227903E+00	-3.65505124274E-01
3.01303425902E+05	-1.66159497340E+01	6.76689521372E+01	2.27260803438E+01	-1.75490332883E+02	-4.34462684426E+01	1.04992437915E+02	-5.86317014537E+00	4.34570867467E-01
3.01521213465E+05	-2.39202305220E+01	-1.10460438273E+02	2.27282999729E+01	-1.74935436313E+02	-4.27049883225E+01	5.31946628918E+01	-5.86846156553E+00	2.40553040208E-01
3.01739158449E+05	-2.09491987935E+01	1.06298071411E+02	2.27822622257E+01	-1.75424734357E+02	-4.22797239737E+01	1.38620773587E+02	-5.98314910516E+00	2.24761810809E-01
3.01957260967E+05	-2.68264129916E+01	-1.46345422899E+02	2.27581276537E+01	-1.75051221780E+02	-4.27755716738E+01	8.16806520246E+01	-5.85932954325E+00	9.24115146741E-02
3.02175521134E+05	-1.78886488121E+01	-1.42808553563E+02	2.28279456507E+01	-1.74606736371E+02	-4.16950005839E+01	1.02571170021E+02	-5.96206994409E+00	3.92252567602E-01
3.02393939063E+05	-2.17391130850E+01	-1.51629395653E+02	2.27878050813E+01	-1.75018935828E+02	-3.49082436671E+01	2.56585012972E-01	-5.63566890288E+00	4.25919476977E-01
3.02612514869E+05	-1.84778935546E+01	9.84396053155E+00	2.26795003974E+01	-1.75205011120E+02	-3.37141124181E+01	-8.25873769184E+01	-5.76164968712E+00	-2.95763920918E+00
3.02831248665E+05	-1.92177425823E+01	1.62734402083E+02	2.27899218183E+01	-1.75418601106E+02	-4.67313978348E+01	6.68646976949E+01	-5.84016916220E+00	5.21237535080E-01
3.03050140565E+05	-1.85457576279E+01	4.58056953861E+01	2.27056732873E+01	-1.75346586813E+02	-4.05972263746E+01	1.18932496955E+02	-6.00421190199E+00	1.19421348192E-01
3.03269190685E+05	-1.76196308076E+01	-3.25028936952E+01	2.26824128991E+01	-1.75042404315E+02	-3.75527366173E+01	3.15828781113E+01	-5.72532686219E+00	2.46580017896E-01
3.03488399138E+05	-2.21340582201E+01	-1.05047310661E+02	2.27575211783E+01	-1.75024690219E+02	-3.86600215900E+01	-1.71066492159E+01	-5.71392937612E+00	-4.46019823808E-01
3.03707766039E+05	-1.70543426154E+01	-3.93291528122E+01	2.26562168597E+01	-1.75032731437E+02	-4.94513495043E+01	-1.21242949124E+02	-5.86730824058E+00	-3.81770814621E-01
3.03927291503E+05	-3.55855671307E+01	-6.78693834348E+01	2.27342874206E+01	-1.74937584799E+02	-3.38489728252E+01	-1.22223545586E+02	-6.07839396787E+00	-2.45827086181E+00
3.04146975643E+05	-9.25693852512E+00	-1.63953367186E+02	2.29043767540E+01	-1.74774156186E+02	-3.54580725620E+01	9.58970574306E+01	-5.93794958712E+00	1.57312284352E+00
3.04366818575E+05	-2.03692089415E+01	-1.73248831981E+02	2.27735887099E+01	-1.75044795800E+02	-3.60828614161E+01	-9.86407179539E+01	-5.95219309279E+00	-2.15527678585E+00
3.04586820414E+05	-2.73503512676E+01	4.83587850907E+01	2.27142580576E+01	-1.75310779322E+02	-3.96116908765E+01	-1.61166910119E+02	-5.97778519907E+00	-6.32467349694E-01
3.04806981274E+05	-2.75438230396E+01	-5.87598586581E+01	2.27046345851E+01	-1.75076212784E+02	-5.18485276345E+01	1.01155226493E+02	-5.84825203190E+00	3.14951167250E-02
3.05027301270E+05	-1.89496354116E+01	3.48347975079E+01	2.26813997506E+01	-1.75329455674E+02	-3.76638247734E+01	-1.10131934962E+02	-5.90463517598E+00	-1.52097067790E+00
3.05247780517E+05	-3.19317410643E+01	1.73945041524E+02	2.27521571908E+01	-1.75127034557E+02	-3.58927795117E+01	1.01223177202E+02	-5.92974332488E+00	8.55546781616E-01
3.05468419131E+05	-2.83114537915E+01	1.67172672350E+02	2.27407435805E+01	-1.75121994033E+02	-4.95428314161E+01	1.66027681651E+02	-5.89988957980E+00	-1.15180240149E-01
3.05689217226E+05	-1.97943698722E+01	1.59351029168E+02	2.27797799849E+01	-1.75469447251E+02	-3.01027785274E+01	-9.85302411509E+01	-5.90707065966E+00	-4.10485532006E+00
3.05910174918E+05	-1.88856922034E+01	-3.21480943929E+01	2.27002261884E+01	-1.74895728164E+02	-4.99110713866E+01	-1.36887656943E+02	-5.95508516403E+00	-6.68995777138E-01
3.06131292322E+05	-2.52217114438E+01	-5.74840722339E+01	2.27358297803E+01	-1.75053911935E+02	-3.92326669441E+01	2.04429195650E+01	-5.70121303653E+00	1.95774373574E-02
3.06352569554E+05	-3.46575704683E+01	-9.62066952564E+01	2.27108310785E+01	-1.75086719755E+02	-3.74866989824E+01	-1.64777836711E+02	-6.05634209302E+00	-1.05369127159E+00
3.06574006730E+05	-2.58385498817E+01	-2.22931751644E+00	2.27191407275E+01	-1.75336736334E+02	-4.45677673486E+01	1.40228449302E+02	-5.91358186534E+00	1.70988710057E-01
3.06795603964E+05	-1.51341552436E+01	-1.57282377450E+02	2.28373363766E+01	-1.75083869517E+02	-5.05814725465E+01	-1.41105485150E+02	-5.88148316027E+00	-4.75231320309E-01
3.07017361372E+05	-1.20719312555E+01	1.62188704240E+02	2.28966430458E+01	-1.75777823290E+02	-4.91456164875E+01	-1.78894708731E+02	-5.96859395535E+00	8.16904987643E-02
3.07239279071E+05	-2.22376639101E+01	-1.42261897849E+02	2.27722592966E+01	-1.75114953574E+02	-3.68332274763E+01	-9.43426275028E+00	-5.57993163440E+00	-3.58753515655E-01
3.07461357176E+05	-2.08542134919E+01	1.51071644387E+02	2.27717308497E+01	-1.75483356511E+02	-4.20932933060E+01	1.13073706097E+02	-5.87512777263E+00	4.67769931544E-01
3.07683595803E+05	-4.03232971206E+01	8.20280761059E+01	2.27434925178E+01	-1.75341003619E+02	-4.31441782850E+01	-5.00031050910E+01	-5.81778714269E+00	-8.16189459942E-01
3.07905995068E+05	-2.27935065896E+01	-7.84554904858E+01	2.27257689868E+01	-1.74952449102E+02	-5.25094812765E+01	9.31578041344E+01	-5.87078671666E+00	-2.08773397150E-01
3.08128555087E+05	-1.73134862133E+01	-1.73602407751E+02	2.28052072480E+01	-1.75432893240E+02	-3.69407384490E+01	-1.03218947895E+02	-5.92436474347E+00	-1.73805702679E+00
3.08351275976E+05	-1.90910609341E+01	-3.53517035427E+01	2.27013067154E+01	-1.75202314753E+02	-4.82967777012E+01	6.76137078462E+01	-5.88117677878E+00	1.15317027485E-01
3.08574157853E+05	-2.42501895793E+01	-1.61414823428E+02	2.27724889762E+01	-1.75331729227E+02	-6.43485532028E+01	-1.45627678340E+01	-5.93081051674E+00	-5.02025712591E-01
3.08797200832E+05	-2.17979243824E+01	3.62252494688E+01	2.27115648753E+01	-1.75492092854E+02	-3.00274861904E+01	9.07555449911E+01	-5.98438146069E+00	4.11262188392E+00
3.09020405031E+05	-2.33722297652E+01	-8.07829693067E+01	2.27246055236E+01	-1.75224546064E+02	-3.91444386070E+01	5.98945650076E+01	-5.77634238273E+00	9.85916859631E-01
3.09243770566E+05	-2.09351973269E+01	-5.13985026481E+01	2.27300319674E+01	-1.75011362862E+02	-4.26342496064E+01	1.74801463383E+02	-5.99646917565E+00	-5.48329442413E-02
3.09467297553E+05	-2.07854423324E+01	-6.14885852851E+01	2.27132736395E+01	-1.75028946673E+02	-4.28583527917E+01	1.19209065131E+02	-5.93922943725E+00	8.24545921817E-02
3.09690986110E+05	-1.96409719005E+01	3.25095160273E+01	2.27396457408E+01	-1.75812982234E+02	-4.59461176067E+01	1.15011074744E+02	-5.90473874777E+00	2.88294151710E-01
3.09914836353E+05	-1.69111813651E+01	2.88781698177E+01	2.26682917789E+01	-1.75541128232E+02	-4.01070765048E+01	-1.71851851043E+02	-6.02037239991E+00	-4.42869911276E-01
3.10138848399E+05	-2.40167528192E+01	1.25362702441E+02	2.27703644696E+01	-1.75477423271E+02	-3.32373102653E+01	9.48378209981E+01	-5.94501967029E+00	1.56404573066E+00
3.10363022365E+05	-1.32268531352E+01	-9.35989119572E+01	2.27398182383E+01	-1.74239412843E+02	-3.26744220550E+01	-5.22858023734E+01	-5.67468513398E+00	-2.84690858485E+00
3.10587358368E+05	-2.45686322320E+01	3.17340934949E+01	2.27079036504E+01	-1.75612993092E+02	-3.69882291915E+01	-1.67859071771E+02	-6.05890960000E+00	-7.12382236110E-01
3.10811856525E+05	-2.12147749626E+01	-3.18291749425E+01	2.26598283252E+01	-1.74976248776E+02	-4.16316448033E+01	-7.69905300096E+01	-5.82046147662E+00	-8.36253646328E-01
3.11036516954E+05	-1.38657934929E+01	2.32056402074E+01	2.26231300532E+01	-1.75787624994E+02	-3.72005647610E+01	-5.32369309376E+01	-5.74149268540E+00	-1.64103305296E+00
3.11261339771E+05	-1.91443522771E+01	-3.40589657623E+01	2.26907580055E+01	-1.75199126390E+02	-4.64104311776E+01	1.11445517272E+02	-5.94361772878E+00	4.63787539223E-01
3.11486325094E+05	-2.70154657149E+01	-9.62997169305E+01	2.27723980967E+01	-1.75481692384E+02	-3.74789516050E+01	1.25220362974E+02	-6.01016992115E+00	7.57284096566E-01
3.11711473040E+05	-2.10618340231E+01	-6.69606878044E+01	2.27069821366E+01	-1.75329994876E+02	-4.85474437969E+01	-8.86136847483E+01	-5.91804258902E+00	-8.99460338201E-01
3.11936783728E+05	-2.12376773136E+01	-1.00363047911E+02	2.27748039546E+01	-1.75103928211E+02	-3.82129994452E+01	-8.19917661494E+01	-5.91501534137E+00	-2.46703498421E+00
3.12162257274E+05	-2.22064536991E+01	-8.59994146001E+01	2.27267192349E+01	-1.75120691977E+02	-3.43946131454E+01	1.60407759203E+02	-6.15705800696E+00	2.10262320472E-01
3.12387893797E+05	-1.09815278695E+01	-4.16772498961E+01	2.26355396455E+01	-1.74796845912E+02	-3.93352994082E+01	7.13951584740E+01	-5.82802762599E+00	5.67317720724E-01
3.12613693413E+05	-2.49839870721E+01	-1.88293096118E+00	2.27343776056E+01	-1.75655852657E+02	-3.42946682413E+01	7.57618192130E+01	-5.82803658855E+00	1.25386206748E+00
3.12839656242E+05	-1.80958705065E+01	-4.29853587639E+01	2.27020977944E+01	-1.75104240735E+02	-4.89462343122E+01	1.56100499124E+02	-5.88715775493E+00	-1.19043254924E-01
3.13065782401E+05	-2.81129975808E+01	-2.67791193438E+01	2.27401922383E+01	-1.75555231969E+02	-4.15341279056E+01	2.24835068528E+01	-5.80539215757E+00	3.00256949361E-01
3.13292072007E+05	-2.98111375381E+01	-1.25456021472E+02	2.27674557641E+01	-1.75231851610E+02	-3.37675658257E+01	5.25900525549E+01	-5.78151714248E+00	1.25540859710E+00
3.13518525180E+05	-1.32420227348E+01	-1.25473288008E+02	2.28773217644E+01	-1.74848419839E+02	-3.40541601126E+01	1.00682058405E+02	-5.90290702916E+00	2.05704752738E+00
3.13745142038E+05	-2.06644785406E+01	-1.62960825254E+02	2.28240469412E+01	-1.75585876841E+02	-3.94134461068E+01	1.70794241134E+02	-6.03743828922E+00	-1.63276871641E-01
3.13971922698E+05	-1.91975712166E+01	-5.27302444221E+01	2.26956082193E+01	-1.75148277079E+02	-3.68155241745E+01	-1.78706168809E+02	-6.08080091866E+00	-5.97287886733E-01
3.14198867279E+05	-1.50630512128E+01	2.09035115117E+01	2.26861260103E+01	-1.75743343674E+02	-4.01748774708E+01	-8.60689513388E+01	-5.88075906730E+00	-1.31458025662E+00
3.14425975900E+05	-1.63034872115E+01	2.85822924461E+01	2.26693889448E+01	-1.75825854782E+02	-4.00544040951E+01	1.22052746463E+02	-5.98609452166E+00	5.05974327477E-01
3.14653248680E+05	-1.60662931172E+01	1.58583356856E+02	2.28306169911E+01	-1.75893424810E+02	-5.33301457948E+01	6.58774554023E+01	-5.88077036901E+00	2.39063783455E-01
3.14880685736E+05	-2.28970259477E+01	5.44205307272E+01	2.27411404974E+01	-1.76026731932E+02	-4.32135487051E+01	-4.49086206245E+01	-5.79230525377E+00	-8.05774898914E-01
3.15108287188E+05	-1.77089098933E+01	3.53579677000E+01	2.26689689490E+01	-1.76019624130E+02	-4.18627566506E+01	2.89333953347E+01	-5.78612268328E+00	5.47641010011E-01
3.15336053154E+05	-8.19173037264E+00	-3.27379101896E+01	2.25157400851E+01	-1.74784117857E+02	-4.01059130040E+01	1.20598117744E+02	-6.00351157625E+00	5.47565332126E-01
3.15563983753E+05	-1.94113543678E+01	-3.00821965584E+01	2.26902432322E+01	-1.75627176134E+02	-4.49451040716E+01	2.91372920101E+01	-5.88667990919E+00	-2.29540487783E-01
3.15792079105E+05	-2.60775268783E+01	-1.69894019272E+02	2.27563761254E+01	-1.75704569890E+02	-3.65225133684E+01	-1.56658846639E+02	-6.03936145911E+00	-1.12267868138E+00
3.16020339328E+05	-2.25829114286E+01	1.54279804798E+02	2.27875129144E+01	-1.75898242274E+02	-4.10339365899E+01	-1.56705931258E+02	-5.93121336695E+00	-2.79012272458E-01
3.16248764542E+05	-2.45150196949E+01	8.71390922967E+01	2.27628008671E+01	-1.76126748942E+02	-4.09398353592E+01	1.27579215924E+02	-5.95710062390E+00	2.70156424466E-01
3.16477354866E+05	-2.62689712270E+01	-1.88043392922E+01	2.27513972698E+01	-1.75615887431E+02	-4.08982377473E+01	1.78325624323E+02	-6.02640951111E+00	-3.95447094456E-01
3.16706110419E+05	-1.55332845473E+01	-6.51977143407E+01	2.27034780197E+01	-1.75068406175E+02	-4.03283701497E+01	4.32961070677E+01	-5.74982800616E+00	9.97224866998E-01
3.16935031321E+05	-1.00034628139E+01	-1.30645414966E+02	2.28991823915E+01	-1.74833317133E+02	-3.52905419701E+01	-1.27417700043E+02	-6.01163554288E+00	-1.18744813197E+00
3.17164117691E+05	-1.97724601487E+01	2.34695676080E+01	2.26670141862E+01	-1.75829946227E+02	-4.19535645951E+01	9.90219187985E+01	-5.87383983426E+00	4.25218812651E-01
3.17393369648E+05	-1.77453407878E+01	3.05142526155E+01	2.26724319795E+01	-1.75877906312E+02	-4.12541289105E+01	-1.23582410311E+02	-5.91484130820E+00	-1.08810366657E+00
3.17622787313E+05	-1.99340053257E+01	3.09744547989E+01	2.27223243645E+01	-1.75818099871E+02	-3.53644944947E+01	-7.99484703385E+01	-5.82050400971E+00	-1.84858702641E+00
3.17852370806E+05	-5.15293999145E+01	-2.30136072273E+01	2.27635277886E+01	-1.75923988264E+02	-4.23462317538E+01	6.40408285857E+01	-5.79644192600E+00	3.83917140139E-01
3.18082120245E+05	-2.17287972389E+01	-4.47820053642E+01	2.27215680282E+01	-1.75698671174E+02	-4.81022541819E+01	-1.41507194492E+02	-5.88296396814E+00	-8.57393816954E-01
3.18312035752E+05	-1.83449154845E+01	9.38306298674E+01	2.27521718041E+01	-1.76358515790E+02	-3.70761211209E+01	8.83191885947E+01	-6.00923457736E+00	1.49805610335E+00
3.18542117445E+05	-2.42478778808E+01	-1.71430504611E+02	2.27554478890E+01	-1.75980898578E+02	-3.03880001706E+01	9.97100215688E+01	-5.99916771410E+00	2.57451915537E+00
3.18772365446E+05	-3.88349950114E+01	1.41065545421E+02	2.27433872775E+01	-1.76042097048E+02	-4.17246031476E+01	-1.69716408143E+02	-5.97114145107E+00	-7.47196213172E-01
3.19002779874E+05	-2.19680385187E+01	-1.25364024109E+02	2.27960466724E+01	-1.75523944942E+02	-3.83856581995E+01	-1.54970230672E+02	-6.01504184518E+00	-6.72828148402E-01
3.19233360850E+05	-2.26995365494E+01	-9.91019149884E-01	2.26924552796E+01	-1.75807845139E+02	-3.53172023948E+01	5.26084597625E+01	-5.76699147802E+00	8.56802941261E-01
3.19464108494E+05	-2.15404509594E+01	4.18593031843E+01	2.26970954178E+01	-1.76047573469E+02	-3.18651194476E+01	4.58142356472E+01	-5.66519822784E+00	1.71288197120E+00
3.19695022927E+05	-2.49437532777E+01	-1.67543496931E+02	2.27711467862E+01	-1.75710180246E+02	-5.02368361267E+01	1.56795229134E+02	-5.90349935309E+00	-4.23875643980E-01
3.19926104268E+05	-2.42560602557E+01	4.98408633359E+01	2.27112187017E+01	-1.76106286301E+02	-4.05715898228E+01	-4.45769390474E+01	-5.69562628838E+00	-6.00930617234E-01
3.20157352640E+05	-1.53393234653E+01	2.48701263958E+00	2.26488064155E+01	-1.75901800751E+02	-3.75210926874E+01	-6.76974527690E+01	-5.74145336469E+00	-1.78825559470E+00
3.20388768162E+05	-2.09369144001E+01	2.49398654440E+01	2.27193365824E+01	-1.75919353896E+02	-3.52401736652E+01	8.02366577693E+01	-5.86346302062E+00	1.41834995616E+00
3.20620350955E+05	-2.97371913075E+01	1.59128075124E+02	2.27554822875E+01	-1.76060609250E+02	-4.21223612545E+01	-4.36754876430E+01	-5.90612347113E+00	-8.06617474818E-01
3.20852101140E+05	-1.88659106345E+01	1.70861908452E+02	2.28035281162E+01	-1.75940786933E+02	-4.23884669220E+01	-2.16307027513E+00	-5.77588000681E+00	-9.22740027717E-01
3.21084018839E+05	-1.55426080274E+01	7.47960159945E+00	2.26541064001E+01	-1.76304349754E+02	-4.12802087578E+01	-1.08124309957E+01	-5.76604346022E+00	-8.35791073304E-01
3.21316104172E+05	-2.75871729627E+01	-6.92471559103E+01	2.27292667706E+01	-1.75876327757E+02	-5.80460661829E+01	-4.06803416068E+01	-5.82004306433E+00	-6.95550415859E-01
3.21548357261E+05	-7.85552162140E+00	-5.93298346147E+01	2.26155647626E+01	-1.74298618076E+02	-3.77134251876E+01	1.42702221028E+02	-6.05295936328E+00	7.47411384448E-01
3.21780778226E+05	-9.49041063767E+00	6.41585070441E+01	2.26751943030E+01	-1.77045554154E+02	-2.99397210498E+01	4.78741783478E+01	-5.44566998750E+00	3.49072339361E+00
3.22013367189E+05	-2.51193878103E+01	-4.05712932986E+01	2.27124247710E+01	-1.75828091169E+02	-4.30344648646E+01	-1.70909393934E+02	-5.98052523563E+00	-7.29226592813E-01
3.22246124272E+05	-1.66051834213E+01	8.65130547534E+01	2.27518691292E+01	-1.76326541544E+02	-3.81618351027E+01	-9.73744029359E+01	-5.88083500956E+00	-1.80624346581E+00
3.22479049596E+05	-2.14423106818E+01	-1.59534818796E+02	2.28113295745E+01	-1.75944430456E+02	-3.67736726808E+01	-1.07263154817E+02	-5.95189880833E+00	-1.53658259538E+00
3.22712143282E+05	-2.03780537073E+01	1.44814792608E+00	2.27136300182E+01	-1.76119701808E+02	-4.31292845466E+01	-1.23840679317E+02	-5.90851219680E+00	-5.18671925453E-01
3.22945405453E+05	-2.16913064451E+01	2.23378775153E+01	2.26904380315E+01	-1.75925644588E+02	-4.23826543614E+01	1.49574223949E+02	-6.05437435517E+00	1.67507561740E-01
3.23178836230E+05	-2.46150000224E+01	4.61885336882E+01	2.27082823166E+01	-1.75919874614E+02	-3.04780701485E+01	1.25680705207E+02	-6.28014221739E+00	2.35943660407E+00
3.23412435735E+05	-1.00565384069E+01	7.60372861616E+01	2.27342820877E+01	-1.77200822199E+02	-3.20616088976E+01	-1.11752391964E+02	-6.04524078113E+00	-3.43086911204E+00
3.23646204090E+05	-2.77160569032E+01	2.32055678310E+01	2.27501150694E+01	-1.75942011985E+02	-3.76092178140E+01	-7.78828135910E+01	-5.79233916504E+00	-1.45503673082E+00
3.23880141417E+05	-1.36141154731E+01	3.51120491849E+01	2.26472354960E+01	-1.76489792758E+02	-3.57272348333E+01	4.70333506693E+00	-5.64786900749E+00	-2.51074540927E-02
3.24114247838E+05	-2.52010002930E+01	7.22373338673E+00	2.27049037511E+01	-1.75874914528E+02	-4.03729778686E+01	-3.29536282086E+01	-5.76324275663E+00	-8.60267388313E-01
3.24348523475E+05	-2.11043323757E+01	-6.00241195281E+01	2.26938167232E+01	-1.75645337032E+02	-4.01653533325E+01	6.30835573474E+00	-5.78407724694E+00	-3.82464848020E-01
3.24582968451E+05	-2.98724172763E+01	-1.16060701631E+02	2.27631578355E+01	-1.76025469386E+02	-5.31753078845E+01	-1.91499373208E+00	-5.87585103911E+00	-4.35579801214E-01
3.24817582888E+05	-1.73061365994E+01	4.19890566423E+01	2.27142258670E+01	-1.76392848067E+02	-3.55918188553E+01	-9.59109809059E+01	-5.91769628921E+00	-2.21111778691E+00
3.25052366909E+05	-1.53711973261E+01	-2.04908276963E+01	2.26987107311E+01	-1.75709641482E+02	-3.02921506470E+01	7.49401155832E+01	-5.73416629263E+00	2.77571799156E+00
3.25287320635E+05	-1.81620597558E+01	2.72982290104E+01	2.27035966147E+01	-1.76192112923E+02	-3.95748135376E+01	1.46133624678E+02	-6.05778623880E+00	1.51058162748E-01
3.25522444191E+05	-2.27462766778E+01	1.00065000321E+02	2.27467127378E+01	-1.76078492543E+02	-4.03855190863E+01	-1.73803084982E+02	-6.02740433273E+00	-7.09285222429E-01
3.25757737698E+05	-1.76795721026E+01	4.02114584734E+01	2.27013408061E+01	-1.76125552217E+02	-3.77762092608E+01	1.05678264843E+02	-5.89795337493E+00	3.67010745910E-01
3.25993201280E+05	-1.77831193516E+01	-4.83336728353E+01	2.26890905257E+01	-1.75714149575E+02	-4.91747077917E+01	-1.00923437101E+02	-5.86949853551E+00	-3.11881352081E-01
3.26228835058E+05	-2.42920259694E+01	-7.73626488718E+01	2.27157594793E+01	-1.75875795198E+02	-3.78737581001E+01	-5.08104657263E+01	-5.73734769361E+00	-1.37498143179E+00
