# Hz S DB R 50
! CMT, M5065, 19127446, 24.2.4/2
! Date: 11/1/2024 4:27:50 PM
! Data: Format (Calibration Info)
! Freq	S11:dB/Ang(F2)	S21:dB/Ang(F2)	S12:dB/Ang(F2)	S22:dB/Ang(F2)
3.00000000000E+05	-2.05671913082E+01	1.60459890018E+02	8.06535291762E+00	-1.77389226636E+02	-3.91340727653E+01	-8.36530151328E+01	-5.92784931719E+00	-5.36719709376E-01
3.00216845423E+05	-3.16966223333E+01	-2.69102692096E+01	8.09112627374E+00	-1.77628130673E+02	-4.05662858324E+01	1.79099387205E+02	-5.93064799187E+00	-2.27438846891E-01
3.00433847586E+05	-1.31344510347E+01	-3.58576135036E+01	7.96594368733E+00	-1.77187257339E+02	-3.82945765064E+01	7.23563655029E+01	-5.86204945583E+00	-7.09036147739E-02
3.00651006602E+05	-2.27316253428E+01	-6.66841224070E+01	8.05287442483E+00	-1.77205351299E+02	-4.44761106873E+01	6.30889599104E+00	-5.87619589151E+00	-1.75852684756E-01
3.00868322584E+05	-2.29216444515E+01	1.26820377459E+02	8.06238208382E+00	-1.77808686393E+02	-4.00190508223E+01	-1.69671764655E+02	-5.95293467007E+00	-2.61333951380E-01
3.01085795647E+05	-1.26605680313E+01	1.25521270294E+02	8.18539209462E+00	-1.78830330629E+02	-4.15063548677E+01	6.97197287603E+01	-5.85590537335E+00	2.87026981412E-01
3.01303425902E+05	-2.40873477625E+01	-1.20357413354E+02	8.04185863382E+00	-1.77182427640E+02	-3.37930678970E+01	-1.54605888245E+02	-5.92099300325E+00	-4.10977240677E-01
3.01521213465E+05	-1.88896671432E+01	1.14585803195E+02	7.98075984760E+00	-1.77935925428E+02	-3.75496898000E+01	6.67892643316E+01	-5.84269594674E+00	-1.73728456811E-01
3.01739158449E+05	-1.86601209779E+01	1.58114878115E+02	8.06717739852E+00	-1.77826179221E+02	-4.77901769633E+01	-1.55947788266E+02	-5.87134989575E+00	-7.07495144576E-02
3.01957260967E+05	-1.82287507725E+01	1.01166035905E+02	8.01645796068E+00	-1.78024968157E+02	-4.35416469346E+01	4.36386083153E+00	-5.83578586832E+00	-4.24959347705E-01
3.02175521134E+05	-3.39633176675E+01	-1.49626268051E+02	8.00743517618E+00	-1.77272892369E+02	-3.93620701959E+01	4.98107740377E+01	-5.90782626744E+00	-2.64091556182E-01
3.02393939063E+05	-2.25747517489E+01	-9.60461024511E+01	8.02291139509E+00	-1.77185374916E+02	-3.41743742681E+01	1.26764713694E+02	-5.91362776765E+00	4.67862446260E-01
3.02612514869E+05	-2.00998435121E+01	1.22739330663E+02	8.04511986704E+00	-1.78228210638E+02	-5.03201699797E+01	1.29638882024E+02	-5.90182532297E+00	-2.94966832309E-01
3.02831248665E+05	-1.89499271011E+01	6.24479920303E+01	8.00648780946E+00	-1.78246657934E+02	-3.73766387909E+01	-2.12451512506E+01	-5.88474617485E+00	-1.08310817997E-01
3.03050140565E+05	-3.44854507197E+01	-1.58188649970E+02	8.00153585810E+00	-1.77470625176E+02	-3.39559793891E+01	3.40152002259E+01	-5.83443458159E+00	-1.53186540609E-01
3.03269190685E+05	-2.45637033607E+01	-5.57578554194E+01	8.00664587908E+00	-1.77600405546E+02	-3.93632901036E+01	-9.11668248927E+01	-5.87915907746E+00	-2.58540890151E-01
3.03488399138E+05	-2.42894315124E+01	1.11674090365E+02	8.08524180518E+00	-1.78204870452E+02	-3.65190503336E+01	2.68553113773E+01	-5.84688501431E+00	-6.91941609787E-02
3.03707766039E+05	-1.81115959193E+01	-4.88702884094E+01	8.00340039963E+00	-1.77761698250E+02	-4.72543466353E+01	-1.60856618490E+02	-5.89521555198E+00	-4.59313470638E-02
3.03927291503E+05	-1.88687946264E+01	7.13740957454E+01	8.04448035539E+00	-1.77966668206E+02	-4.25680930686E+01	-8.32127399497E+01	-5.87871812644E+00	-1.38085434845E-01
3.04146975643E+05	-1.40582537999E+01	-4.20834292367E+01	7.93653877095E+00	-1.76782724357E+02	-3.85863388216E+01	6.53276955872E+01	-5.84362025439E+00	-2.10131164053E-01
3.04366818575E+05	-2.42504682682E+01	1.18281897516E+02	7.96907241549E+00	-1.77590739220E+02	-4.57704702748E+01	5.31529745630E+01	-5.85027725833E+00	-3.61972602192E-01
3.04586820414E+05	-1.64576811209E+01	-1.68680824701E+02	8.18244523554E+00	-1.77590037790E+02	-3.13680171106E+01	8.60314295602E+01	-5.88657625852E+00	3.67198690969E-01
3.04806981274E+05	-1.47712571760E+01	1.41867096728E+02	8.13160328387E+00	-1.77734354100E+02	-3.97741711795E+01	-1.00819797832E+02	-5.85881797840E+00	-7.26901545217E-01
3.05027301270E+05	-2.15596372257E+01	-1.69605022786E+02	8.07810469993E+00	-1.77370801242E+02	-4.32578409434E+01	-1.52345966143E+02	-5.90383035535E+00	-3.94530264764E-01
3.05247780517E+05	-3.20776731867E+01	-2.04319091140E+01	8.04955065976E+00	-1.77778160186E+02	-3.36958829476E+01	-1.24889833215E+01	-5.79653627079E+00	-2.97113665845E-01
3.05468419131E+05	-2.43360726034E+01	-5.58285115696E+01	8.04213959269E+00	-1.77855973275E+02	-4.42839352310E+01	9.07628122786E+01	-5.91657144665E+00	-3.19289792403E-01
3.05689217226E+05	-1.85506444127E+01	8.91961128029E+01	8.08911276213E+00	-1.78580828605E+02	-3.83833082022E+01	-8.70718755098E+01	-5.89670261625E+00	-3.98172161807E-01
3.05910174918E+05	-1.44031837234E+01	-1.11717119528E+02	8.09890134224E+00	-1.76923887892E+02	-3.72957363690E+01	-5.04157830342E+01	-5.86294867667E+00	-4.41249469866E-01
3.06131292322E+05	-1.88394805956E+01	1.56028473853E+02	8.09366540808E+00	-1.77555788345E+02	-3.60720577103E+01	-9.45624748708E+01	-5.93286291767E+00	-8.26952826970E-01
3.06352569554E+05	-1.90055683146E+01	-1.41431335346E+02	8.09599624546E+00	-1.77711875040E+02	-3.56562942923E+01	1.18432473913E+02	-5.90897046000E+00	2.05309923057E-01
3.06574006730E+05	-1.37169320399E+01	-1.19982318524E+02	8.11726771799E+00	-1.77093694237E+02	-3.98052037807E+01	1.68217019892E+02	-5.94325591409E+00	-1.75228676699E-01
3.06795603964E+05	-1.27371793569E+01	7.89839800721E+01	8.03477698377E+00	-1.78448410439E+02	-3.39254520603E+01	-9.77315211488E-01	-5.83910146105E+00	-1.90444880097E-01
3.07017361372E+05	-2.46608142674E+01	1.32922550202E+02	8.11250046443E+00	-1.78007560213E+02	-4.08197720668E+01	-1.13887115893E+02	-5.91498335046E+00	-2.32164534064E-01
3.07239279071E+05	-3.19252880179E+01	-1.64064203873E+02	8.05660328947E+00	-1.77241564316E+02	-3.79705570261E+01	-1.22586660715E+02	-5.87045339109E+00	-5.54904361869E-01
3.07461357176E+05	-1.44971952485E+01	-1.43283872262E+02	8.08195627088E+00	-1.77254968981E+02	-3.52609715856E+01	3.66033359913E+01	-5.86049930762E+00	-2.23754875850E-01
3.07683595803E+05	-2.11207695097E+01	-9.77597432286E+01	8.07812943206E+00	-1.76985982886E+02	-3.48308952998E+01	1.32698178060E+02	-5.98092473277E+00	3.91484179732E-01
3.07905995068E+05	-2.18551462305E+01	1.35370539501E+02	8.02863124446E+00	-1.77641342699E+02	-3.66129999356E+01	-2.71460891106E+01	-5.84067177787E+00	-5.23482447545E-01
3.08128555087E+05	-2.02865264698E+01	-1.67928219678E+02	8.08791877615E+00	-1.77403678131E+02	-4.28178949416E+01	-9.74813796360E+01	-5.85363440307E+00	-2.77543381030E-01
3.08351275976E+05	-2.22791227171E+01	-1.69996745662E+02	8.07569778920E+00	-1.77348073500E+02	-3.96651306247E+01	-1.37638233971E+02	-5.94246327259E+00	-4.00538102797E-01
3.08574157853E+05	-2.92682054946E+01	-6.86718738264E+01	8.04006884320E+00	-1.77455882431E+02	-3.65150338225E+01	1.11851095592E+02	-5.91364662378E+00	6.25880304349E-02
3.08797200832E+05	-9.38552919386E+00	3.64051127379E+01	7.82223077104E+00	-1.78890045527E+02	-4.76809328821E+01	-1.38940981747E+02	-5.88792331018E+00	-3.26702181313E-01
3.09020405031E+05	-1.89129864764E+01	1.27576339277E+02	8.09362100840E+00	-1.78106702252E+02	-3.66601970311E+01	1.61548384681E+02	-5.86595725901E+00	-1.59187578928E-01
3.09243770566E+05	-2.46655903652E+01	-1.40973170708E+02	8.07627791601E+00	-1.77779856948E+02	-3.57764472887E+01	9.09405918684E+01	-5.87274014100E+00	5.32392226622E-01
3.09467297553E+05	-2.65814542656E+01	1.13233874009E+01	8.02526749094E+00	-1.77997894114E+02	-4.23052217383E+01	1.64917963049E+02	-5.92545007937E+00	-3.35933312350E-01
3.09690986110E+05	-1.82968386839E+01	-1.79156961326E+02	8.12213870237E+00	-1.77477137872E+02	-4.13672397057E+01	-1.45723748081E+01	-5.81245331881E+00	-1.93234606497E-01
3.09914836353E+05	-1.34745632910E+01	4.92961273260E+01	7.97530443684E+00	-1.78601255119E+02	-4.72614390131E+01	-6.19478418240E+01	-5.85072207283E+00	-3.14732576774E-01
3.10138848399E+05	-2.36033079198E+01	2.27275145271E+01	8.02194882939E+00	-1.77741620857E+02	-4.89776350893E+01	-3.76497721096E+01	-5.86605255731E+00	-2.85359897001E-01
3.10363022365E+05	-9.06482168038E+00	2.31126744616E+01	7.74523002907E+00	-1.77881255623E+02	-4.02376761469E+01	-1.43047185790E+02	-5.91784495603E+00	-4.36905276962E-01
3.10587358368E+05	-2.12656852926E+01	3.81550372581E+01	8.02969475323E+00	-1.78139868579E+02	-4.22192325004E+01	-8.38399607963E+01	-5.87851996270E+00	-4.16048593937E-01
3.10811856525E+05	-2.19489873741E+01	-5.48161874651E+01	8.03272221575E+00	-1.77523493352E+02	-4.05752823587E+01	-1.00725550592E+02	-5.89921100682E+00	-5.17898458488E-01
3.11036516954E+05	-2.83553012007E+01	2.80165074470E+01	8.01191310853E+00	-1.78125986909E+02	-3.26427087208E+01	-4.74913510491E+01	-5.80309345235E+00	-7.15892445656E-01
3.11261339771E+05	-2.45243930464E+01	1.22389169563E+02	8.04744021384E+00	-1.78060458703E+02	-4.07055487803E+01	9.39997061798E+01	-5.90026204133E+00	-1.52982043861E-01
3.11486325094E+05	-1.71142021684E+01	-8.44428252159E+01	8.07339949650E+00	-1.77288138052E+02	-4.34504662103E+01	-5.02547184197E+01	-5.90141022871E+00	-2.21899555142E-01
3.11711473040E+05	-2.80185585198E+01	1.10298955800E+02	7.97280915919E+00	-1.78196979699E+02	-5.03556912377E+01	1.35619352084E+02	-5.91702276047E+00	-1.96322476429E-01
3.11936783728E+05	-1.32456353706E+01	-1.57671034909E+02	8.16260155774E+00	-1.77178522384E+02	-4.12866113014E+01	1.92794795449E+01	-5.80612495419E+00	-2.96336587456E-01
3.12162257274E+05	-1.40090707715E+01	-1.47830456047E+02	8.14365501847E+00	-1.77408024747E+02	-4.44190284685E+01	-3.16809372390E+01	-5.89273897759E+00	-3.56242450252E-01
3.12387893797E+05	-3.10845444090E+01	-2.52307556627E+01	8.04590919384E+00	-1.77712744928E+02	-3.31546522233E+01	1.48566765196E+02	-5.96558887829E+00	-1.99625862608E-01
3.12613693413E+05	-1.70689277475E+01	5.00113757194E+01	8.04065119700E+00	-1.77997238689E+02	-3.16525219133E+01	-1.62203602456E+02	-5.96448287499E+00	-2.79409657726E-01
3.12839656242E+05	-2.02305983157E+01	4.55967723510E+01	7.93808516837E+00	-1.77855748556E+02	-4.15051274780E+01	1.54592233783E+02	-5.91217841879E+00	-2.87626364407E-01
3.13065782401E+05	-1.47990444498E+01	1.06957833985E+02	8.10405741136E+00	-1.78615542244E+02	-3.98884548481E+01	-1.43807657902E+02	-5.89500926162E+00	-3.20566724259E-01
3.13292072007E+05	-2.25607642948E+01	9.75369508611E+01	8.04319578597E+00	-1.77939626680E+02	-3.76499042726E+01	-7.23275990745E+01	-5.86859855441E+00	-6.29071064788E-01
3.13518525180E+05	-1.28019182142E+01	-5.01036094425E+01	7.95406314713E+00	-1.76697829652E+02	-4.48809813473E+01	-4.30426319578E+01	-5.87864467292E+00	-2.58294901146E-01
3.13745142038E+05	-2.07843889250E+01	-1.51598422932E+02	8.12599169085E+00	-1.77720731436E+02	-4.04404908959E+01	6.73429104746E+01	-5.86953184341E+00	-2.28174052705E-01
3.13971922698E+05	-3.61036921364E+01	1.42670734029E+02	8.05474734563E+00	-1.77659872269E+02	-4.27313559597E+01	-1.33106874621E+02	-5.91635690480E+00	-8.73180636506E-02
3.14198867279E+05	-2.14139345591E+01	-7.01750351128E+01	8.03159535720E+00	-1.77432856717E+02	-3.60388925208E+01	-1.73174361930E+02	-5.94718190836E+00	-4.67387749678E-01
3.14425975900E+05	-2.69196192043E+01	2.32919673043E+01	8.04411852618E+00	-1.77591199718E+02	-3.87963866539E+01	-1.09632544292E+02	-5.87760757467E+00	-4.57322319668E-01
3.14653248680E+05	-2.05616877349E+01	-2.12499740967E+01	7.99894691867E+00	-1.77403009729E+02	-4.55388155828E+01	8.52034984045E+01	-5.88104416037E+00	2.38725851786E-01
3.14880685736E+05	-2.03554092232E+01	5.10996437020E+01	7.94392986221E+00	-1.77426824784E+02	-4.34553787318E+01	1.35943355480E+02	-5.88260644995E+00	-1.08695292764E-01
3.15108287188E+05	-7.14821185737E+00	-1.53820522649E+01	7.66186413879E+00	-1.76929151614E+02	-4.07388972934E+01	8.35959471331E+01	-5.86984258953E+00	-8.01530697623E-02
3.15336053154E+05	-1.74083499878E+01	2.53688956992E+01	7.91025438846E+00	-1.78221929707E+02	-3.61842311718E+01	1.50573244262E+02	-5.94130032594E+00	-2.81862916082E-01
3.15563983753E+05	-2.24746920484E+01	7.23234236891E+01	8.03009531552E+00	-1.77968631968E+02	-3.85058499670E+01	6.41344650943E+01	-5.85214620341E+00	1.47717958576E-01
3.15792079105E+05	-2.32092490786E+01	-1.66427904804E+02	8.06160026886E+00	-1.77778833870E+02	-3.33049231316E+01	1.18312973433E+02	-5.94366416933E+00	-2.23415336734E-02
3.16020339328E+05	-2.33253899718E+01	-1.52113692657E+02	8.09646850118E+00	-1.77908967102E+02	-4.19241212711E+01	1.69148478193E+02	-5.89410344086E+00	-1.41517044145E-01
3.16248764542E+05	-2.15212829559E+01	2.21680610066E-01	7.97345284385E+00	-1.77440703777E+02	-4.13038341907E+01	-8.06659013450E+01	-5.94073668940E+00	-5.56256136396E-01
3.16477354866E+05	-1.89098892482E+01	-1.31397864855E+02	8.07714684248E+00	-1.77617159884E+02	-3.98453884084E+01	3.89625572679E+01	-5.86290036339E+00	-6.90832261737E-02
3.16706110419E+05	-1.46774612895E+01	1.40698898643E+02	8.18001550244E+00	-1.78539720012E+02	-3.92201707273E+01	1.49848461348E+01	-5.86593442577E+00	-2.41912047785E-01
3.16935031321E+05	-1.13979226637E+01	-6.16841493181E+01	7.98036693685E+00	-1.76712262795E+02	-4.14454386073E+01	-1.59295937877E+02	-5.93194272231E+00	-1.46218299362E-01
3.17164117691E+05	-3.08027418109E+01	1.54836331672E+02	8.06384196331E+00	-1.77367457329E+02	-4.91995956012E+01	1.09637032023E+02	-5.88795690764E+00	-1.51073180779E-01
3.17393369648E+05	-2.44569232684E+01	3.63982666075E+01	8.03611166968E+00	-1.78011727953E+02	-3.76174156756E+01	1.34716464646E+02	-5.94766453341E+00	-1.43104541727E-01
3.17622787313E+05	-3.46547988739E+01	1.57437082392E+02	8.08026945019E+00	-1.77661356666E+02	-3.69494662277E+01	-2.20620743842E+00	-5.85964565020E+00	-4.13559496441E-01
3.17852370806E+05	-2.55665675085E+01	-1.42442932437E+02	8.09397551311E+00	-1.77727051730E+02	-3.67126087260E+01	-9.35548293836E+01	-5.89025128024E+00	-7.08404919771E-01
3.18082120245E+05	-2.14893011673E+01	-4.46256139941E+01	7.98040318792E+00	-1.77635819066E+02	-3.62250357196E+01	-4.69388505813E+01	-5.82353724571E+00	-7.21767815086E-01
3.18312035752E+05	-1.03969050134E+01	3.90930243786E+01	7.88517973194E+00	-1.78434494745E+02	-3.50915763592E+01	1.19651402986E+02	-5.91286072073E+00	2.72824455958E-01
3.18542117445E+05	-1.53303685584E+01	-1.45090996182E+02	8.13395188106E+00	-1.77713664361E+02	-3.46296405429E+01	-1.46945541792E+02	-5.93485688767E+00	-6.79095986161E-01
3.18772365446E+05	-1.73821767772E+01	1.71462750218E+02	8.11594986317E+00	-1.77705534591E+02	-3.76104540382E+01	9.15206708371E+01	-5.88033513896E+00	1.91677452816E-01
3.19002779874E+05	-2.81978318086E+01	1.93585340800E+01	8.03090296308E+00	-1.77997592846E+02	-3.29669682933E+01	9.90453859635E+00	-5.77977413711E+00	-1.43019433557E-01
3.19233360850E+05	-1.60970531085E+01	1.02278533109E+02	8.06477557789E+00	-1.78618301209E+02	-5.26801082172E+01	-3.48467518361E+01	-5.89566079212E+00	-6.10818170563E-02
3.19464108494E+05	-1.40297857104E+01	-1.24366289640E+02	8.15114874817E+00	-1.77320863821E+02	-3.80952711492E+01	-4.28623672059E+01	-5.86306160378E+00	-4.88697404801E-01
3.19695022927E+05	-4.16488634631E+01	-3.91168872159E+01	8.06166443384E+00	-1.77499433562E+02	-3.75831013889E+01	1.24874378505E+02	-5.89276263077E+00	8.96419990752E-02
3.19926104268E+05	-1.79735746335E+01	-1.23260060500E+02	8.11435867322E+00	-1.77433141321E+02	-4.13270002237E+01	7.69843356850E+01	-5.90024446237E+00	-1.42173328017E-01
3.20157352640E+05	-1.00168910618E+01	2.14795711910E+01	7.86138785479E+00	-1.78652249060E+02	-4.40686861462E+01	-4.32980066212E+01	-5.88864686190E+00	-4.74266018721E-01
3.20388768162E+05	-2.62842490323E+01	1.04565955534E+02	8.05111283659E+00	-1.77964868338E+02	-3.86398935270E+01	-9.92510610849E+00	-5.83608246296E+00	-4.36104428756E-01
3.20620350955E+05	-1.38622339898E+01	-1.62691088629E+02	8.10654482439E+00	-1.77856753901E+02	-3.35390637783E+01	4.66219829896E+01	-5.83852864592E+00	-5.67076079281E-02
3.20852101140E+05	-2.03957386168E+01	-6.29907404340E+01	8.05090112596E+00	-1.77999971163E+02	-4.11181173845E+01	1.04742593379E+01	-5.87957375586E+00	-4.26695888246E-01
3.21084018839E+05	-1.38128342752E+01	1.69128943744E+02	8.13912238276E+00	-1.78076473700E+02	-4.35781745067E+01	1.16120889624E+02	-5.91013869496E+00	-2.64528649820E-01
3.21316104172E+05	-1.65075681240E+01	7.77039722616E+01	8.03422561743E+00	-1.78355793362E+02	-4.16808461887E+01	1.51789251339E+02	-5.92893213811E+00	-3.69170237606E-01
3.21548357261E+05	-1.86888020773E+01	-1.13665901480E+02	8.07890257813E+00	-1.77405182574E+02	-4.78769951819E+01	-1.39441224459E+02	-5.91122677196E+00	-1.32535168497E-01
3.21780778226E+05	-2.64260465881E+01	1.67170695161E+02	8.03902060873E+00	-1.78299784919E+02	-4.62782145937E+01	-3.26503985951E+01	-5.92855614430E+00	-3.28133563187E-01
3.22013367189E+05	-2.10065816790E+01	2.80973197038E+01	7.99425887982E+00	-1.78139020231E+02	-5.55518111385E+01	8.06800171013E+01	-5.87051768731E+00	-4.38489830844E-01
3.22246124272E+05	-2.53164966050E+01	1.12600636179E+02	8.00330317913E+00	-1.78303854320E+02	-3.19597748755E+01	3.60389471668E+01	-5.81785948782E+00	5.48913172193E-02
3.22479049596E+05	-1.75387197179E+01	1.51619159296E+02	8.08560409833E+00	-1.78336670690E+02	-3.67615584657E+01	1.23882957227E+02	-5.88026683382E+00	-6.94603813818E-02
3.22712143282E+05	-2.40516049924E+01	5.70706044159E+01	8.04960908748E+00	-1.78143392545E+02	-4.09056351013E+01	1.16552617716E+02	-5.89862508998E+00	-1.05251923882E-01
3.22945405453E+05	-1.90526707202E+01	3.22227938697E+01	7.94139671780E+00	-1.78351977207E+02	-3.96707824204E+01	1.59471886617E+02	-5.91797979588E+00	-2.35933864743E-01
3.23178836230E+05	-1.00293941074E+01	1.78309102966E+02	8.21332293517E+00	-1.77683577343E+02	-4.32997670026E+01	1.79172516507E+02	-5.93711044163E+00	-2.79941093956E-01
3.23412435735E+05	-1.45057183256E+01	-5.32473901463E+01	7.95973678553E+00	-1.76755472718E+02	-4.03459784339E+01	1.72133596758E+02	-5.88890189704E+00	-3.00638280709E-01
3.23646204090E+05	-1.72303786015E+01	-1.77604792891E+01	7.94951571125E+00	-1.77611369437E+02	-3.88603386121E+01	-1.45597346247E+01	-5.81658514082E+00	-3.00181086956E-01
3.23880141417E+05	-2.10447139645E+01	1.25389147837E+02	8.07592186285E+00	-1.78279407194E+02	-3.64358493001E+01	7.68638575218E+01	-5.88756822950E+00	2.38617272069E-01
3.24114247838E+05	-1.66363568451E+01	1.01967290769E+02	8.05129611800E+00	-1.78219890200E+02	-5.06073432570E+01	-9.51224167555E+01	-5.88880765933E+00	-2.56003154490E-01
3.24348523475E+05	-3.01484078587E+01	1.51345475660E+02	8.02906070358E+00	-1.77895165084E+02	-4.22586411080E+01	4.86253592285E+01	-5.87826015437E+00	-2.58114313228E-01
3.24582968451E+05	-2.21378546508E+01	-7.17081013265E+01	8.02444314744E+00	-1.77992437399E+02	-3.91357259289E+01	-5.52043249393E+01	-5.86297952179E+00	-3.22043811186E-01
3.24817582888E+05	-3.76914720827E+01	8.48378895800E+01	8.03648701631E+00	-1.77859990326E+02	-4.64824418858E+01	-9.05366043426E+01	-5.90545780278E+00	-3.48276968618E-01
3.25052366909E+05	-3.42525979727E+01	7.44616248535E+01	8.05246036048E+00	-1.77960975812E+02	-4.43007999379E+01	-6.37269364459E+01	-5.86123831104E+00	-6.17532264058E-01
3.25287320635E+05	-2.22077793937E+01	-1.41931829299E+02	8.01768020078E+00	-1.77812640384E+02	-4.23930675755E+01	-1.12174351576E+02	-5.90893322423E+00	-2.29486413804E-01
3.25522444191E+05	-2.20641347721E+01	4.34566658315E+01	8.06701683663E+00	-1.77934564926E+02	-3.39595444043E+01	-1.23851729465E+02	-5.93949810910E+00	-3.75876267546E-01
3.25757737698E+05	-2.03307090799E+01	-9.79521589037E+00	7.99200917585E+00	-1.78420448246E+02	-3.75257131479E+01	2.33559377909E+01	-5.87160076721E+00	1.60352512363E-01
3.25993201280E+05	-1.86264426827E+01	-1.60386107658E+02	8.02452957372E+00	-1.77890375086E+02	-4.08524442911E+01	-1.58664602575E+02	-5.92923112136E+00	-1.76715584794E-01
3.26228835058E+05	-2.25741500074E+01	-1.77677920873E+02	8.02820268984E+00	-1.78184373247E+02	-4.33126385013E+01	5.70141537172E+01	-5.86006658679E+00	-2.09431044454E-02
