# Hz S DB R 50
! CMT, M5065, 19127446, 24.2.4/2
! Date: 11/1/2024 4:42:01 PM
! Data: Format (Calibration Info)
! Freq	S11:dB/Ang(F2)	S21:dB/Ang(F2)	S12:dB/Ang(F2)	S22:dB/Ang(F2)
3.00000000000E+05	-1.56334548669E+01	8.32307598695E+01	1.49535866889E+01	-1.77551011787E+02	-4.61655619067E+01	-1.19791713993E+02	-5.86528629434E+00	-2.25504989623E-01
3.00216845423E+05	-2.02557452801E+01	-2.59280911683E+01	1.49131562956E+01	-1.76573553904E+02	-3.73639531779E+01	-9.03866296274E+01	-5.86835167835E+00	-7.39326886275E-01
3.00433847586E+05	-1.85027788791E+01	-3.82447968776E+01	1.48888527207E+01	-1.76781712086E+02	-6.17671665025E+01	-1.41670123075E+02	-5.89069783505E+00	-2.64387789734E-01
3.00651006602E+05	-2.01015949274E+01	-4.94840266085E+01	1.49284833126E+01	-1.76867213721E+02	-4.58972539397E+01	-4.60324968967E+01	-5.88457406873E+00	-5.89284252605E-01
3.00868322584E+05	-3.11867902868E+01	3.43831474722E+01	1.49230243074E+01	-1.77023375435E+02	-3.61400032829E+01	1.24399280324E+02	-5.94342790518E+00	4.22865810627E-01
3.01085795647E+05	-3.18438736985E+01	9.49878427461E+01	1.49406985067E+01	-1.77317363202E+02	-3.90988984149E+01	1.35773213072E+02	-5.93845741292E+00	3.41480534254E-01
3.01303425902E+05	-2.68614555006E+01	5.92467502154E+01	1.49745264427E+01	-1.76972346050E+02	-4.57495578728E+01	4.91126602092E+01	-5.84925896581E+00	-1.93290262864E-01
3.01521213465E+05	-1.90665031997E+01	-3.27189332815E+01	1.49397201442E+01	-1.76688201819E+02	-5.08005541041E+01	4.71631306544E+00	-5.86061809673E+00	-2.56377071004E-01
3.01739158449E+05	-1.51504629581E+01	-1.21211592345E+02	1.49967183529E+01	-1.76629209506E+02	-5.05634300366E+01	-7.52439475850E+01	-5.82936757378E+00	-2.29274372970E-01
3.01957260967E+05	-2.15058430995E+01	6.62190572900E+01	1.49664421902E+01	-1.76983335001E+02	-4.97822143867E+01	-1.53319658146E+02	-5.90661596604E+00	-3.34917576210E-01
3.02175521134E+05	-3.50474815196E+01	-1.56831876205E+02	1.49678395052E+01	-1.77005361508E+02	-4.56261027951E+01	4.25040394319E+01	-5.83668525605E+00	-3.45893124904E-01
3.02393939063E+05	-1.79633611619E+01	-1.27941045174E+02	1.49728423831E+01	-1.76541038246E+02	-3.54235174188E+01	3.97502022657E+01	-5.80361532837E+00	2.57473318246E-01
3.02612514869E+05	-2.37898688155E+01	1.56115616141E+02	1.49893279852E+01	-1.76982673982E+02	-2.56550914294E+01	-1.61427550487E+02	-6.30970246992E+00	-1.73159071750E+00
3.02831248665E+05	-2.51537830149E+01	1.13327876474E+02	1.50063132978E+01	-1.77035391905E+02	-3.63870571405E+01	-4.64628538381E+01	-5.88349751471E+00	-4.62098835026E-01
3.03050140565E+05	-2.21827846396E+01	1.56252156414E+02	1.50027251446E+01	-1.77000696498E+02	-4.49120792544E+01	1.58429807612E+02	-5.93186681359E+00	-2.67776508501E-01
3.03269190685E+05	-1.79943492817E+01	2.58916614445E-02	1.48564644622E+01	-1.77221921218E+02	-5.10517341258E+01	1.25773138657E+02	-5.88961920343E+00	-2.58907914425E-01
3.03488399138E+05	-1.98687826117E+01	-1.10822154706E+02	1.49921365958E+01	-1.76998316483E+02	-4.84926902727E+01	6.09477729489E+01	-5.89915354902E+00	-2.35560414520E-01
3.03707766039E+05	-1.56326564619E+01	6.05630170553E+01	1.49406349610E+01	-1.77329069057E+02	-4.15797541984E+01	-5.78347276130E+01	-5.86068669110E+00	-3.96064202837E-01
3.03927291503E+05	-2.39531143012E+01	6.26648373118E+01	1.49451129110E+01	-1.77227282683E+02	-5.17349085294E+01	-3.42869418463E+01	-5.90341824857E+00	-4.79549201683E-01
3.04146975643E+05	-1.87469846668E+01	-1.06208568608E+02	1.49735632789E+01	-1.76645630486E+02	-3.61363146257E+01	-1.41388577235E+02	-5.97886217959E+00	-5.04717056622E-01
3.04366818575E+05	-2.18953846268E+01	1.97610876332E+01	1.49220144272E+01	-1.77183215540E+02	-3.54492023881E+01	5.54903960475E+01	-5.78028272078E+00	6.26035950083E-01
3.04586820414E+05	-6.66824879994E+00	-1.28429576307E+02	1.52369511149E+01	-1.75245449587E+02	-4.56539916485E+01	1.80653735111E-01	-5.86844806336E+00	-2.94189212076E-01
3.04806981274E+05	-1.90012350869E+01	1.35617713365E+02	1.50200656067E+01	-1.77692702113E+02	-4.87837616178E+01	1.55251129344E+02	-5.87309110112E+00	-1.54717711664E-01
3.05027301270E+05	-1.77962348227E+01	5.10009814193E+01	1.48897256420E+01	-1.77402479916E+02	-5.28478230822E+01	-1.24952094139E+02	-5.87175346073E+00	-3.45218637298E-01
3.05247780517E+05	-3.19341681632E+01	-1.77542413747E+02	1.49892696726E+01	-1.76707995598E+02	-4.32013692365E+01	7.79820816905E+01	-5.86583352479E+00	-8.84436650409E-02
3.05468419131E+05	-2.60220928103E+01	-3.45996341541E+01	1.48735000336E+01	-1.77013206475E+02	-3.97766180712E+01	5.35107180742E+01	-5.83976743867E+00	3.66185478544E-01
3.05689217226E+05	-2.82602912844E+01	5.02516056515E+01	1.49462023463E+01	-1.76870678229E+02	-3.15917334077E+01	1.69459266439E+02	-6.05055758488E+00	-1.69130609750E-01
3.05910174918E+05	-2.34125407539E+01	-1.40108950482E+02	1.50083277579E+01	-1.76978172650E+02	-4.91163649740E+01	-9.13219939446E+00	-5.86353592725E+00	-6.94183093666E-02
3.06131292322E+05	-1.14616680512E+01	6.56344101095E+01	1.48524222221E+01	-1.78185920057E+02	-5.10508195339E+01	1.36503363146E+02	-5.89952461059E+00	-4.40233085787E-01
3.06352569554E+05	-1.90175495006E+01	-1.39005899883E+02	1.50128498810E+01	-1.76752901495E+02	-4.15406471156E+01	-1.70215545053E+02	-5.93829747016E+00	-3.44035384429E-01
3.06574006730E+05	-2.19644181847E+01	-5.16877670554E+01	1.49319271082E+01	-1.76891901216E+02	-4.83071086863E+01	-6.21461388754E+01	-5.87437834969E+00	-4.77724669923E-01
3.06795603964E+05	-2.54727651120E+01	-1.62396586550E+02	1.49704196575E+01	-1.77064337108E+02	-3.86648106880E+01	7.53554822512E+01	-5.88631205645E+00	8.29619803771E-02
3.07017361372E+05	-2.59674480258E+01	1.23914411025E+02	1.49702772638E+01	-1.77192516989E+02	-3.72455887372E+01	-1.11794505442E+02	-5.94681180450E+00	-1.11446867496E+00
3.07239279071E+05	-2.65316154410E+01	1.42851795872E+02	1.49393003636E+01	-1.77492123084E+02	-4.70456532212E+01	-2.52604418438E+01	-5.83999999094E+00	-1.24498700983E-01
3.07461357176E+05	-2.20328751407E+01	-1.68784006634E+02	1.49815566171E+01	-1.77079856761E+02	-4.11555256755E+01	-7.74679163432E+01	-5.88358420313E+00	-5.49342212787E-01
3.07683595803E+05	-1.44260416725E+01	8.83506736049E+01	1.49164776149E+01	-1.77748302232E+02	-4.16637690756E+01	-1.19494922721E+02	-5.92747123799E+00	-6.40748445056E-01
3.07905995068E+05	-2.34183134938E+01	1.13791447128E+02	1.49799997941E+01	-1.77337732420E+02	-3.87018101941E+01	-3.65096986998E+01	-5.85959207305E+00	-5.35934791363E-01
3.08128555087E+05	-3.08689416222E+01	1.18487106535E+02	1.49322385807E+01	-1.76920825757E+02	-3.40873525021E+01	8.70756151715E+01	-5.87029208633E+00	3.97031618476E-01
3.08351275976E+05	-1.95034012485E+01	-1.49418763292E+01	1.49198222531E+01	-1.77081249805E+02	-3.70899829269E+01	-3.16470726830E+01	-5.82200839069E+00	-3.47547797676E-01
3.08574157853E+05	-3.04164463639E+01	8.05295953725E+01	1.49869102068E+01	-1.77197525323E+02	-3.84584481724E+01	5.86301247663E+01	-5.85286588666E+00	1.63393783424E-01
3.08797200832E+05	-1.55713785627E+01	1.64697302850E+02	1.50239764319E+01	-1.77248808182E+02	-2.86251272020E+01	-8.90072225104E+01	-5.84093824266E+00	-2.10354987111E+00
3.09020405031E+05	-2.16805829607E+01	6.43150288141E+01	1.49152720828E+01	-1.77269323754E+02	-3.25775452581E+01	6.83038313137E+01	-5.79537952374E+00	7.49959328974E-01
3.09243770566E+05	-1.38984018672E+01	-3.08037016082E+01	1.47993145670E+01	-1.76951791643E+02	-4.15891193818E+01	-1.08958033919E+02	-5.87536564038E+00	-6.00708796316E-01
3.09467297553E+05	-1.91569561634E+01	-4.02517432552E+01	1.49063480940E+01	-1.76922200644E+02	-4.23897471099E+01	1.74791458003E+02	-5.89852538737E+00	-3.39074735489E-02
3.09690986110E+05	-2.01371783120E+01	-2.09500039891E+01	1.49376070149E+01	-1.76812012243E+02	-4.53913471616E+01	1.36238844374E+02	-5.94522372448E+00	-3.63571939237E-01
3.09914836353E+05	-2.47696751788E+01	-1.56311062378E+02	1.49983477757E+01	-1.77084752440E+02	-3.60276823408E+01	-1.66152232107E+02	-5.97868633510E+00	-2.14507769595E-01
3.10138848399E+05	-2.43542518901E+01	6.48748632345E+00	1.49122801647E+01	-1.77126522628E+02	-4.30275417082E+01	-2.77506144584E+01	-5.81636017981E+00	-4.26426411338E-01
3.10363022365E+05	-3.39246527771E+01	-1.65507717931E+02	1.49602110726E+01	-1.77156175878E+02	-3.48704896167E+01	-1.63949146063E+01	-5.76618585443E+00	-6.71501364415E-01
3.10587358368E+05	-2.52229586418E+01	-6.54745508975E+00	1.49742168367E+01	-1.77068154826E+02	-3.35746213306E+01	1.78533787561E+02	-5.99552509737E+00	-1.14892705006E-01
3.10811856525E+05	-1.98832495951E+01	8.66336211846E+01	1.49306299404E+01	-1.77759835071E+02	-3.75626349159E+01	-8.27390926583E+01	-5.88275237678E+00	-8.88902270908E-01
3.11036516954E+05	-1.90925266725E+01	-1.13320789718E+02	1.50003479888E+01	-1.76738120318E+02	-3.74206367358E+01	-8.15225245037E+01	-5.88980803477E+00	-4.80871251559E-01
3.11261339771E+05	-2.43468887859E+01	8.31784257077E+01	1.49561957563E+01	-1.77556829466E+02	-3.83762026155E+01	-5.30708530243E+01	-5.84334463195E+00	-6.57279984843E-01
3.11486325094E+05	-1.67003881563E+01	-6.63222673305E+00	1.48363489550E+01	-1.76993881556E+02	-4.30942642782E+01	-1.20468846123E+02	-5.92287300320E+00	-5.28199426175E-01
3.11711473040E+05	-1.92909541460E+01	-1.24285453727E+02	1.49926270448E+01	-1.76874369330E+02	-4.46600346137E+01	1.35402881141E+02	-5.85494128858E+00	-2.27720368205E-01
3.11936783728E+05	-2.02475598590E+01	4.70549848200E+01	1.48949170960E+01	-1.77373430707E+02	-3.59365091292E+01	1.70505328509E+02	-5.97352948804E+00	-4.08039529203E-02
3.12162257274E+05	-2.40694638502E+01	-4.14824519331E+01	1.49729310539E+01	-1.77209713533E+02	-4.53602874127E+01	-6.82989686236E+01	-5.85723732089E+00	-7.08177135658E-01
3.12387893797E+05	-1.43205609090E+01	8.39663453593E+01	1.49788878710E+01	-1.78417289150E+02	-4.22617461903E+01	-1.13945542706E+02	-5.86231045889E+00	-6.04214671037E-01
3.12613693413E+05	-2.30622472366E+01	-2.07362623976E+01	1.49020950908E+01	-1.77334521544E+02	-3.88114088842E+01	-4.17326306348E+01	-5.82661594170E+00	-3.47840906900E-01
3.12839656242E+05	-3.75259788510E+01	-3.21669592572E+01	1.50134625499E+01	-1.77128206469E+02	-3.99026873025E+01	9.58675928521E+01	-5.93044047837E+00	-9.77299106727E-02
3.13065782401E+05	-2.85839829319E+01	-6.78544061161E+01	1.49265848853E+01	-1.77080065605E+02	-3.60440828615E+01	-5.70911611505E+01	-5.83238139405E+00	-8.68914471585E-01
3.13292072007E+05	-3.54613408082E+01	6.50707978659E+01	1.49884082558E+01	-1.77247240768E+02	-3.52700597490E+01	1.36053937727E+02	-5.95535366578E+00	3.11335734293E-01
3.13518525180E+05	-1.68595819496E+01	-1.23120684976E+02	1.50545739953E+01	-1.76976166610E+02	-3.87547157367E+01	1.32945820813E+02	-5.98484079801E+00	3.48099663755E-01
3.13745142038E+05	-3.06230385111E+01	-1.58022521083E+02	1.49750507863E+01	-1.77402442342E+02	-3.72942295157E+01	-1.04781218659E+02	-5.88007210309E+00	-6.28600225581E-01
3.13971922698E+05	-1.41907942348E+01	1.27084703033E+02	1.50561345726E+01	-1.77984179745E+02	-3.39513416196E+01	1.50812111010E+02	-5.98899174431E+00	1.71115423047E-01
3.14198867279E+05	-2.23793235751E+01	-1.47510760737E+02	1.50416877860E+01	-1.77555250761E+02	-3.88201531267E+01	8.14515234466E+01	-5.87822672764E+00	1.17450656015E-01
3.14425975900E+05	-2.07091219463E+01	6.06802665291E+00	1.49237982397E+01	-1.77556337010E+02	-3.71727752153E+01	9.69282694977E+00	-5.82584601247E+00	-4.56658445000E-01
3.14653248680E+05	-2.31651595607E+01	-6.04886026007E+01	1.49643372564E+01	-1.76811438586E+02	-4.22596004351E+01	-8.55667254616E+01	-5.83247494123E+00	-8.92319417214E-01
3.14880685736E+05	-2.12019689172E+01	-1.19437145784E+02	1.49588880872E+01	-1.76964094324E+02	-4.25281162454E+01	4.88472539565E+01	-5.86092736008E+00	8.34184986226E-02
3.15108287188E+05	-1.60784618642E+01	1.80204062288E+01	1.48744918417E+01	-1.77652084085E+02	-3.37760634244E+01	1.08517033160E+02	-5.93472465520E+00	3.76383107302E-01
3.15336053154E+05	-2.38904734261E+01	3.74926728865E+01	1.49421172601E+01	-1.77460548203E+02	-3.71254072463E+01	3.35334044808E+01	-5.79601185881E+00	1.95359708845E-01
3.15563983753E+05	-1.73151998704E+01	-6.32708179801E+00	1.48980387148E+01	-1.77249936227E+02	-4.23483152563E+01	1.49148078390E+02	-5.96085395893E+00	-1.65843772878E-01
3.15792079105E+05	-1.62543668787E+01	7.16555125789E+01	1.49289868088E+01	-1.78162487365E+02	-4.28091319163E+01	1.18803416473E+02	-5.89783778850E+00	-1.22119642202E-02
3.16020339328E+05	-1.87441798174E+01	-1.65788780707E+02	1.50199551329E+01	-1.77380546198E+02	-3.86826060848E+01	2.99359594074E+00	-5.83394929163E+00	-2.14699978215E-01
3.16248764542E+05	-1.85639849449E+01	-1.31178121017E+02	1.49643644162E+01	-1.77467714789E+02	-3.87059537104E+01	-1.02319140405E+02	-5.88058257686E+00	-7.57843273759E-01
3.16477354866E+05	-1.75356413406E+01	-8.65494326891E+01	1.49613376980E+01	-1.76673602082E+02	-4.63722194262E+01	1.64230575508E+02	-5.94011354744E+00	-2.55346985544E-01
3.16706110419E+05	-1.43733856855E+01	3.34921811250E+01	1.48637899490E+01	-1.77711025046E+02	-3.99515310107E+01	-1.44064691020E+02	-5.97270284139E+00	-6.90671273716E-01
3.16935031321E+05	-2.59179647215E+01	-1.20440313599E+02	1.49631864967E+01	-1.77016759763E+02	-3.63160121755E+01	-9.78971645734E+01	-5.84701732806E+00	-1.01766316769E+00
3.17164117691E+05	-1.90548181085E+01	-1.53836461265E+01	1.48939414760E+01	-1.76987620165E+02	-4.21512559284E+01	-5.89946292047E+01	-5.85477393775E+00	-4.79457634349E-01
3.17393369648E+05	-1.96632862002E+01	-7.60676118658E+01	1.49715586362E+01	-1.76925479003E+02	-3.57767420265E+01	1.10938776880E+02	-5.91370515543E+00	-6.02787965385E-02
3.17622787313E+05	-2.04733371981E+01	1.17695947099E+02	1.50124645508E+01	-1.77484476039E+02	-4.92632833731E+01	-1.35533389473E+02	-5.92970597556E+00	-4.46337448090E-01
3.17852370806E+05	-1.82498598909E+01	4.97244840980E+01	1.49763041352E+01	-1.77934650462E+02	-3.76115353876E+01	-1.08164369128E+02	-5.90743821973E+00	-5.94835774356E-01
3.18082120245E+05	-2.06445468376E+01	3.34839518236E+01	1.49227214086E+01	-1.77429549351E+02	-3.65994681359E+01	1.20492575295E+02	-5.97928583512E+00	2.47132243194E-01
3.18312035752E+05	-1.79619602785E+01	1.47255211854E+02	1.50274801503E+01	-1.77566443983E+02	-3.46393445723E+01	3.88097766944E+01	-5.75914511585E+00	1.40384245741E-01
3.18542117445E+05	-1.68924332445E+01	2.44944344641E+01	1.48472688407E+01	-1.77655240223E+02	-3.59500461648E+01	-3.47712124132E+01	-5.77433276218E+00	-7.31457564665E-01
3.18772365446E+05	-9.57270672952E+00	-1.92500260600E+01	1.47416692258E+01	-1.76448605021E+02	-3.72862234119E+01	-6.23300037656E+01	-5.85095562627E+00	-5.09270890810E-01
3.19002779874E+05	-1.62605829458E+01	1.52628676997E+02	1.50270982603E+01	-1.77893593202E+02	-4.20745636120E+01	9.47089220797E+01	-5.90240075393E+00	-2.49174072387E-01
3.19233360850E+05	-2.71821536826E+01	9.44322425169E+01	1.49604323170E+01	-1.77516810247E+02	-4.04013516766E+01	1.04404795114E+02	-5.89728779029E+00	1.07432710585E-01
3.19464108494E+05	-2.53020617208E+01	4.53583891913E+01	1.49596062168E+01	-1.77454016798E+02	-4.34149807208E+01	8.85643018058E+01	-5.92900765097E+00	2.37955885427E-01
3.19695022927E+05	-1.34612385932E+01	-1.31009340645E+02	1.49959469280E+01	-1.76743985639E+02	-5.21362247062E+01	-6.00449167196E+01	-5.85688264153E+00	-2.82792317688E-01
3.19926104268E+05	-2.68996367302E+01	-9.14009727145E+01	1.49347911958E+01	-1.77142146616E+02	-4.07796206594E+01	-1.02410414803E+02	-5.87654592000E+00	-4.57076259562E-01
3.20157352640E+05	-1.84010128556E+01	-1.43788925152E+02	1.50128501517E+01	-1.77178985183E+02	-3.48355613638E+01	-8.05777551381E+01	-5.88148461080E+00	-7.20262540658E-01
3.20388768162E+05	-3.03549447138E+01	2.33660237570E+01	1.49111680825E+01	-1.77269258861E+02	-4.16517262309E+01	8.38411976084E+01	-5.88176392274E+00	-6.09512941362E-02
3.20620350955E+05	-2.10885719757E+01	-2.61425414364E+01	1.49204922055E+01	-1.77396571019E+02	-4.36005006312E+01	-3.40039413909E+01	-5.85334244844E+00	-3.00173042340E-01
3.20852101140E+05	-2.79986921152E+01	3.12914140777E+01	1.49096201771E+01	-1.77421509781E+02	-3.74155491596E+01	6.81081932254E+00	-5.86839062178E+00	-2.92062907445E-01
3.21084018839E+05	-1.71765969415E+01	1.72229769861E+02	1.50154252850E+01	-1.77290512878E+02	-3.73719941343E+01	1.27440140168E+02	-6.00173799709E+00	1.57978093682E-01
3.21316104172E+05	-1.94982801193E+01	1.13710246103E+02	1.50052714853E+01	-1.77932237685E+02	-4.16689049531E+01	-1.09630225329E+02	-5.92914363297E+00	-4.83858735216E-01
3.21548357261E+05	-5.74569836335E+01	-8.33481258593E+01	1.50040776448E+01	-1.77162959179E+02	-3.56812731785E+01	3.65932466098E+01	-5.85529135909E+00	4.22367411781E-01
3.21780778226E+05	-2.01431286301E+01	1.40589006947E+02	1.49701803659E+01	-1.77631872283E+02	-4.10554738691E+01	3.11907924322E+01	-5.81603775002E+00	-1.83145914193E-01
3.22013367189E+05	-1.99455615066E+01	1.21672033105E+02	1.49982100610E+01	-1.77900487905E+02	-5.01490241996E+01	1.57661958699E+02	-5.89973348155E+00	-5.37118635849E-01
3.22246124272E+05	-1.48031890890E+01	3.59125458262E+00	1.48275533080E+01	-1.77601426880E+02	-5.00797753912E+01	1.61638562546E+02	-5.87290252511E+00	-2.88759399767E-01
3.22479049596E+05	-2.18705317355E+01	8.73698722317E+01	1.49231090998E+01	-1.77643992751E+02	-4.35619869456E+01	1.11732535352E+02	-5.88657696083E+00	-4.29640349107E-01
3.22712143282E+05	-2.09636897922E+01	2.63983026558E+01	1.49139958736E+01	-1.77761944489E+02	-4.85860393330E+01	-1.78917471216E+01	-5.90634689390E+00	-3.39777307607E-01
3.22945405453E+05	-1.43035211718E+01	1.26905188546E+02	1.50368915665E+01	-1.78070548626E+02	-4.55356460214E+01	1.40116111897E+02	-5.95305150057E+00	1.65986482082E-01
3.23178836230E+05	-3.08809578357E+01	-1.41336908471E+02	1.49789301790E+01	-1.77306606198E+02	-4.07054803545E+01	1.27460025941E+02	-5.94134218435E+00	-7.27078429594E-02
3.23412435735E+05	-1.77060408607E+01	-1.36795683417E+02	1.50227316164E+01	-1.77051685236E+02	-3.55486551279E+01	-9.60404729797E+01	-5.91098122266E+00	-1.04682984629E+00
3.23646204090E+05	-1.39344519243E+01	6.88143799161E+01	1.48500294309E+01	-1.78231014077E+02	-4.45961102225E+01	-2.04373693702E+01	-5.86698714935E+00	-2.81630573906E-01
3.23880141417E+05	-1.50596255907E+01	1.72471327988E+02	1.50836554803E+01	-1.77722912667E+02	-4.67201295635E+01	1.61626058530E+02	-5.91012668112E+00	-1.53147171842E-01
3.24114247838E+05	-2.49975452268E+01	-2.15479011053E+01	1.49592766400E+01	-1.77549269823E+02	-4.16104879853E+01	-7.21101667771E+01	-5.90491680295E+00	-6.16191024578E-01
3.24348523475E+05	-3.06495109990E+01	5.07449951187E+01	1.49647358481E+01	-1.77349155533E+02	-3.73745140697E+01	4.78650146667E+01	-5.85268717028E+00	4.31788544377E-01
3.24582968451E+05	-2.83092563964E+01	7.83207444812E+01	1.49515555337E+01	-1.77428370129E+02	-4.00100674164E+01	-1.03159735089E+02	-5.91121045491E+00	-4.32473864493E-01
3.24817582888E+05	-2.34520172490E+01	-1.73435222426E+02	1.49531058598E+01	-1.77705591390E+02	-4.18854881974E+01	-2.96587570111E+01	-5.83897610742E+00	-2.14810994619E-01
3.25052366909E+05	-2.22104332651E+01	1.57736165104E+02	1.49958779884E+01	-1.77547416723E+02	-3.25933289752E+01	9.78142114150E+00	-5.70824673854E+00	-3.17964914915E-01
3.25287320635E+05	-3.25792288914E+01	-1.35349873454E+02	1.49413606344E+01	-1.77039979837E+02	-4.05788044921E+01	-1.55050796415E+02	-5.95798560822E+00	-7.34407240949E-01
3.25522444191E+05	-2.34667761974E+01	-1.70123904068E+00	1.49691947821E+01	-1.77807667336E+02	-3.77354332636E+01	-1.09459255815E+02	-5.89573176324E+00	-8.30760279954E-01
3.25757737698E+05	-2.40699891234E+01	-3.01722734401E+01	1.49021744919E+01	-1.77672123061E+02	-3.87257264722E+01	-6.53860213758E+01	-5.84260612551E+00	-6.14435697928E-01
3.25993201280E+05	-3.36224218815E+01	-1.65066266572E+02	1.49782390036E+01	-1.77638044698E+02	-5.13686996773E+01	-1.40588318354E+02	-5.85930806997E+00	-5.47681192233E-01
3.26228835058E+05	-2.24203050294E+01	1.29105976899E+01	1.48962773650E+01	-1.77743185997E+02	-3.45419267726E+01	1.45836193763E+02	-5.98365353618E+00	3.17042529247E-01
