# Hz S DB R 50
! CMT, M5065, 19127446, 24.2.4/2
! Date: 11/1/2024 4:17:32 PM
! Data: Format (Calibration Info)
! Freq	S11:dB/Ang(F2)	S21:dB/Ang(F2)	S12:dB/Ang(F2)	S22:dB/Ang(F2)
3.00000000000E+05	-2.99723946711E+01	-1.27506316370E+02	5.27896805371E+00	-1.77635278239E+02	-3.28869163401E+01	1.41497860587E+02	-5.95702416244E+00	8.40667692189E-02
3.00216845423E+05	-1.78393782139E+01	-1.56645383456E+02	5.21934530447E+00	-1.77693124823E+02	-3.58511678975E+01	-3.37953277139E+01	-5.87294156044E+00	-4.13638464547E-01
3.00433847586E+05	-1.70032448109E+01	-7.54932745131E+01	5.19275434110E+00	-1.77240528349E+02	-3.78186048277E+01	-1.29883019491E+02	-5.93601694081E+00	-3.46633284079E-01
3.00651006602E+05	-2.19838696419E+01	-4.92372651869E+01	5.21162933085E+00	-1.77666268839E+02	-3.36651307186E+01	1.22221106994E+02	-5.89952870826E+00	2.80356916957E-02
3.00868322584E+05	-1.83792808855E+01	1.37295188614E+01	5.19480529361E+00	-1.77594426042E+02	-3.30821245107E+01	-6.24905078598E+01	-5.90205962091E+00	-3.67357522216E-01
3.01085795647E+05	-2.27219233030E+01	7.45924822128E+01	5.22543540808E+00	-1.77738655500E+02	-3.60413706927E+01	6.52229117866E+01	-5.86479077580E+00	3.60457480954E-02
3.01303425902E+05	-1.65252937301E+01	1.09982452878E+02	5.23076911822E+00	-1.77806383151E+02	-4.87973357801E+01	-9.50072614983E+01	-5.87623757806E+00	-3.04295695275E-01
3.01521213465E+05	-3.63451621408E+01	5.80733039016E+00	5.17694506806E+00	-1.77696067522E+02	-3.79749842121E+01	-1.69840313650E+02	-5.94608917769E+00	-4.30216614300E-01
3.01739158449E+05	-2.24410725349E+01	-1.27762302852E+02	5.16342678651E+00	-1.77465119944E+02	-3.12937095029E+01	5.64948457888E+00	-5.81442413259E+00	-1.32874279361E-01
3.01957260967E+05	-1.54207625359E+01	-5.30895821764E+01	5.13414677031E+00	-1.77333628413E+02	-4.40667733418E+01	-1.32302112618E+02	-5.89221294199E+00	-1.09472708295E-01
3.02175521134E+05	-2.23750379707E+01	-1.41873788954E+02	5.23250837055E+00	-1.77283916906E+02	-3.74132479038E+01	-5.16896979125E+01	-5.88202998592E+00	-4.43055822276E-01
3.02393939063E+05	-2.08055996612E+01	9.67526403112E+01	5.22064241499E+00	-1.77835926877E+02	-4.04707462519E+01	8.77049216373E+01	-5.86704531003E+00	-2.34385953623E-01
3.02612514869E+05	-1.96457183022E+01	6.50576716299E+01	5.23134320330E+00	-1.77357954369E+02	-3.55233016900E+01	-8.07220873452E+01	-5.89054512177E+00	-6.54791490777E-01
3.02831248665E+05	-3.17158988062E+01	-9.75529679250E+01	5.27503735110E+00	-1.77274586697E+02	-4.08117906009E+01	-1.59883015946E+02	-5.88811225342E+00	-3.26664330113E-01
3.03050140565E+05	-1.45380705760E+01	-6.89548808622E+01	5.23032808321E+00	-1.76675418943E+02	-3.66182639313E+01	1.79081785948E+02	-5.86495543006E+00	-3.51333517934E-01
3.03269190685E+05	-1.79424906598E+01	-1.57337919990E+02	5.30628064040E+00	-1.77771590596E+02	-3.71157800925E+01	-3.57350197474E+01	-5.85659143682E+00	-5.18299545843E-01
3.03488399138E+05	-1.07442996454E+01	1.63460922707E+02	5.39263002407E+00	-1.78031280918E+02	-6.56298884016E+01	-1.61440728796E+02	-5.88400834520E+00	-2.24773746858E-01
3.03707766039E+05	-2.04047496584E+01	4.39931774728E+00	5.20331377769E+00	-1.77321493377E+02	-3.52050061040E+01	1.29595642013E+02	-5.94314667920E+00	-1.52781475882E-01
3.03927291503E+05	-1.88577605190E+01	-6.63119428310E+01	5.15925554365E+00	-1.77221100675E+02	-3.81916527779E+01	7.50477459638E+01	-5.88508647138E+00	-5.04304513251E-02
3.04146975643E+05	-1.70289996425E+01	1.10437759568E+01	5.17749994180E+00	-1.77688364200E+02	-4.37426426680E+01	-5.29094367209E+01	-5.88203232516E+00	-2.71073308316E-01
3.04366818575E+05	-1.96041279876E+01	-8.92038147092E+01	5.20392325753E+00	-1.77299036987E+02	-4.05888827983E+01	-1.31247807076E+02	-5.94646128061E+00	-3.68659417037E-01
3.04586820414E+05	-1.90901538550E+01	-7.04281481541E+01	5.21427858303E+00	-1.77395446613E+02	-4.96573848679E+01	8.35007206454E+00	-5.88817418258E+00	-1.69434305223E-01
3.04806981274E+05	-2.84535399747E+01	-8.96078826671E+00	5.20393959176E+00	-1.77655448657E+02	-3.57350928374E+01	-1.33003471825E+02	-5.93561240369E+00	-3.79295650327E-01
3.05027301270E+05	-1.17937670603E+01	1.99633472351E+01	5.07522398148E+00	-1.77998281725E+02	-3.47774453091E+01	-1.41123389763E+02	-5.90880735510E+00	-5.93802782489E-01
3.05247780517E+05	-3.43076166664E+01	2.57566765683E+01	5.24585823878E+00	-1.77883451772E+02	-4.40594961489E+01	-1.09789508847E+02	-5.88595817148E+00	-3.28153977388E-01
3.05468419131E+05	-1.74592541324E+01	-1.13821240254E+02	5.24707554439E+00	-1.77568539870E+02	-4.74693770733E+01	-1.50594741654E+02	-5.91684197733E+00	-3.49270867461E-01
3.05689217226E+05	-2.06229122895E+01	9.33956742119E+01	5.26627464991E+00	-1.78494352393E+02	-4.51629918114E+01	-6.66173271444E+01	-5.89517543724E+00	-3.21302923971E-01
3.05910174918E+05	-1.50499511967E+01	6.94613845149E+01	5.20380611917E+00	-1.78057811324E+02	-3.45706001061E+01	1.04990582268E+02	-5.92357474780E+00	9.38111821790E-02
3.06131292322E+05	-1.91003679756E+01	-3.04619230374E+01	5.14050105190E+00	-1.77396480070E+02	-3.52892536456E+01	-3.33089168435E+01	-5.83123792214E+00	-3.54468436412E-01
3.06352569554E+05	-2.73868591272E+01	1.76768210138E+02	5.34153261793E+00	-1.78334357020E+02	-3.02181988962E+01	3.24867285306E+01	-5.81485058495E+00	3.13634252404E-01
3.06574006730E+05	-8.18444158971E+00	5.37188875428E+01	5.04578153567E+00	-1.79124507547E+02	-3.70694840045E+01	-1.30839722978E+02	-5.93715409147E+00	-1.23287308271E-01
3.06795603964E+05	-1.37592119069E+01	9.62616350240E+01	5.29213993702E+00	-1.79095099527E+02	-3.42781595439E+01	1.40051486180E+02	-5.89983054408E+00	1.22378426268E-01
3.07017361372E+05	-2.63702903677E+01	1.05683107300E+02	5.25210083885E+00	-1.78202376962E+02	-3.49432340268E+01	-5.38612581238E+01	-5.85639458580E+00	-2.29097761813E-01
3.07239279071E+05	-2.37133670675E+01	7.28968128164E+01	5.19370256068E+00	-1.78171422842E+02	-5.06415823901E+01	-1.10210312026E+02	-5.88476265551E+00	-2.84489075835E-01
3.07461357176E+05	-1.88801951193E+01	4.29576248340E+01	5.21653297703E+00	-1.77827752187E+02	-4.09084404862E+01	-4.84682218905E+01	-5.89489804387E+00	-5.43137890208E-01
3.07683595803E+05	-2.67533160209E+01	9.10552962606E+01	5.23030616127E+00	-1.78038364788E+02	-3.82799113915E+01	-1.79811177541E+02	-5.90386709384E+00	-2.79253177324E-01
3.07905995068E+05	-2.21810661413E+01	-3.43494988840E+01	5.17179470128E+00	-1.77499038000E+02	-2.71434251769E+01	-5.14462233103E+01	-5.82925428072E+00	-1.10662182876E+00
3.08128555087E+05	-4.46753753283E+00	-1.47407052225E+02	5.66275059678E+00	-1.76177480105E+02	-3.67869275056E+01	2.17069772461E+01	-5.86183682837E+00	-2.16575657385E-01
3.08351275976E+05	-1.45728726426E+01	-1.70269126982E+02	5.41821161473E+00	-1.77913703603E+02	-3.77786885543E+01	-1.49363288718E+02	-5.91656205190E+00	-6.67090193252E-01
3.08574157853E+05	-1.85122843873E+01	1.73563694434E+01	5.12991690138E+00	-1.77936394072E+02	-4.56232980756E+01	-8.18351154214E+00	-5.91721265242E+00	-4.55227649654E-02
3.08797200832E+05	-1.89675438345E+01	-1.12061459939E+02	5.29148927720E+00	-1.77451940625E+02	-4.58874371551E+01	-5.29218470332E+01	-5.86962544370E+00	-1.35744434709E-01
3.09020405031E+05	-1.84131390403E+01	1.04569253999E+02	5.19592101570E+00	-1.78078290343E+02	-4.43135062376E+01	-1.07644223417E+02	-5.87362298496E+00	-2.17155033618E-01
3.09243770566E+05	-3.16345478883E+01	4.84631679886E+01	5.18437921854E+00	-1.78024152693E+02	-3.64111938251E+01	-1.67367697283E+02	-5.95680994592E+00	-3.58209175589E-01
3.09467297553E+05	-1.47799547392E+01	-3.35956168940E+01	5.11993082670E+00	-1.77492494918E+02	-2.39040826680E+01	3.89324859386E+01	-5.71495045892E+00	7.38043550156E-01
3.09690986110E+05	-1.03386868869E+01	1.42281339485E+02	5.30692807099E+00	-1.79275934030E+02	-3.90117186370E+01	6.85780519435E+01	-5.88761387909E+00	-2.97948600746E-02
3.09914836353E+05	-1.34287964160E+01	5.92883481203E+01	5.10296932301E+00	-1.79171304354E+02	-3.40320459413E+01	1.66610409122E+02	-5.97557640264E+00	-1.69083499357E-01
3.10138848399E+05	-2.20860859562E+01	7.90420387772E+01	5.25669000237E+00	-1.77664376520E+02	-3.94817835914E+01	1.57337303296E+02	-5.89537243543E+00	7.99868837760E-02
3.10363022365E+05	-2.19068567813E+01	2.28174118724E+01	5.23026942226E+00	-1.77874324994E+02	-4.43927395238E+01	1.11661920807E+02	-5.93932878851E+00	-1.63188582920E-01
3.10587358368E+05	-2.30420179030E+01	-1.40782267594E+02	5.36588878867E+00	-1.77830090583E+02	-3.48520364674E+01	1.23437747544E+02	-5.92261864765E+00	-1.28800420438E-01
3.10811856525E+05	-2.17333534917E+01	-1.36993955291E+01	5.12485565560E+00	-1.77380585194E+02	-3.90604178771E+01	1.54201733122E+02	-5.88849578036E+00	1.58216472239E-01
3.11036516954E+05	-1.88329899175E+01	1.07913922679E+02	5.28493553021E+00	-1.78233632485E+02	-3.73691886123E+01	-1.29582462323E+02	-5.93830597111E+00	-5.91871971195E-01
3.11261339771E+05	-9.49451646995E+00	1.48376830937E+02	5.40765815539E+00	-1.78780948828E+02	-4.06067948417E+01	7.09714048725E+01	-5.92159282447E+00	-2.37957303063E-01
3.11486325094E+05	-2.00294336934E+01	-5.02474419269E+01	5.22610531169E+00	-1.77294914510E+02	-4.81416480109E+01	-8.06881717301E+01	-5.86703528023E+00	-2.51616064844E-01
3.11711473040E+05	-1.28351766929E+01	-8.44424834748E+01	5.28815009645E+00	-1.77055458044E+02	-4.33694913249E+01	2.53741246601E+01	-5.89696736898E+00	-1.80152292686E-03
3.11936783728E+05	-2.45266844227E+01	-1.87896766247E+01	5.19527833811E+00	-1.77965065456E+02	-4.52059837069E+01	-1.10678740296E+02	-5.90450907569E+00	-5.06668071759E-01
3.12162257274E+05	-1.59914070357E+01	1.84433483658E+01	5.16356295273E+00	-1.77932784220E+02	-3.96714357333E+01	1.63731053812E+02	-5.91038291730E+00	-2.83950800064E-01
3.12387893797E+05	-1.51357031681E+01	-4.53294171219E+01	5.21641290165E+00	-1.77362352345E+02	-3.56173693667E+01	1.58031947668E+02	-5.93792940513E+00	5.06418464730E-02
3.12613693413E+05	-2.73474189719E+01	-1.74704600229E+02	5.25728713204E+00	-1.77713969612E+02	-2.68497858964E+01	1.49791565852E+02	-5.99801192807E+00	-2.00790975354E-01
3.12839656242E+05	-1.34783735112E+01	9.25656169801E+01	5.19969856088E+00	-1.78496779429E+02	-3.55719750807E+01	-7.28803943158E+01	-5.86736174742E+00	-3.88732358463E-01
3.13065782401E+05	-2.11311719958E+01	-5.64457763526E+01	5.21034421109E+00	-1.77211538805E+02	-4.08564105037E+01	-1.26396379648E+02	-5.88870822819E+00	-2.14111316812E-01
3.13292072007E+05	-1.79820107359E+01	1.43344408870E+02	5.19601913578E+00	-1.78644569319E+02	-3.29740342501E+01	6.19768568234E+01	-5.85571630992E+00	-1.56104873139E-01
3.13518525180E+05	-1.85676991578E+01	-1.60040452347E+02	5.28234880946E+00	-1.77549729100E+02	-4.74221986280E+01	3.83314166898E+01	-5.88513560020E+00	-3.10660608783E-01
3.13745142038E+05	-1.43049065556E+01	-1.72950984514E+02	5.31752538683E+00	-1.77538595205E+02	-4.15749648900E+01	-1.73777446629E+02	-5.90739602050E+00	-7.91161489006E-02
3.13971922698E+05	-2.76288142637E+01	2.65508200325E+01	5.19173929070E+00	-1.77926264693E+02	-5.21214746304E+01	7.84392143623E+01	-5.88169410302E+00	-1.85724472658E-01
3.14198867279E+05	-2.99728157640E+01	7.58178982708E+01	5.19751660039E+00	-1.78134284684E+02	-3.90731757059E+01	-1.14689777155E+02	-5.88057825175E+00	-2.02884670480E-01
3.14425975900E+05	-1.32158820093E+01	-4.63790582731E+01	5.08394560220E+00	-1.76843392094E+02	-3.83711965036E+01	-1.17899742807E+02	-5.90670602292E+00	-4.87794379449E-01
3.14653248680E+05	-1.99860546228E+01	-2.47452365726E+01	5.17280091589E+00	-1.77906490712E+02	-3.54815754761E+01	-4.61276485988E+01	-5.84400459620E+00	-4.80816116727E-01
3.14880685736E+05	-2.59390959875E+01	-1.06325800462E+00	5.18345758147E+00	-1.78065035013E+02	-4.14300313852E+01	7.51697102728E+01	-5.88327653819E+00	-1.38084579122E-01
3.15108287188E+05	-2.21439418338E+01	-1.41126110215E+02	5.26341778380E+00	-1.78110929397E+02	-3.95913981757E+01	6.12809408077E+01	-5.85336545322E+00	-3.58694905409E-01
3.15336053154E+05	-2.64442739571E+01	7.02717596454E+01	5.22598021178E+00	-1.77651705953E+02	-4.49695112302E+01	-6.28758273963E+01	-5.88192434541E+00	-3.49867199582E-01
3.15563983753E+05	-3.36569488064E+01	-1.31054288545E+02	5.22400709544E+00	-1.77952496231E+02	-3.94805556111E+01	1.65522716180E+02	-5.90123893910E+00	-2.35956140411E-01
3.15792079105E+05	-2.00006082607E+01	1.42573734261E+02	5.19740511861E+00	-1.78040731650E+02	-3.57649322947E+01	1.54337121731E+02	-5.93125806776E+00	-6.05990392786E-02
3.16020339328E+05	-1.29853968232E+01	1.29063540815E+02	5.29778888156E+00	-1.79153062735E+02	-4.23413546361E+01	-8.37758260959E+01	-5.86620252003E+00	-4.61197152372E-01
3.16248764542E+05	-2.06638780571E+01	-7.36340446456E+01	5.23561632047E+00	-1.77800129448E+02	-4.20355112421E+01	-1.68484505733E+01	-5.87523123839E+00	-3.44275333827E-01
3.16477354866E+05	-3.29592997146E+01	7.45105688638E+01	5.21347103952E+00	-1.77355912541E+02	-5.18296123089E+01	1.75014782163E+02	-5.87790677808E+00	-3.83697821358E-01
3.16706110419E+05	-2.14323825906E+01	-1.79874165557E+02	5.28687718757E+00	-1.78125179766E+02	-4.03675059414E+01	-6.27334253455E+01	-5.90169928800E+00	-4.06416032858E-01
3.16935031321E+05	-1.92191975081E+01	9.33538804622E+01	5.24191262921E+00	-1.78059229063E+02	-4.18867895362E+01	9.95778663594E+01	-5.91859193621E+00	9.92614226542E-02
3.17164117691E+05	-1.63801331552E+01	1.36476999377E+02	5.19436179212E+00	-1.77799571916E+02	-4.45386405222E+01	-1.30785297025E+02	-5.92232333564E+00	-3.45395585500E-01
3.17393369648E+05	-2.12477125140E+01	-2.34899860492E+01	5.21317327042E+00	-1.77754683208E+02	-5.85746408224E+01	1.30938217379E+02	-5.86502787591E+00	-3.26360528852E-01
3.17622787313E+05	-1.77427834076E+01	-1.10670870047E+02	5.33371874155E+00	-1.77843254917E+02	-4.48200099405E+01	-1.08217464634E+01	-5.89266569241E+00	-2.32832212897E-01
3.17852370806E+05	-1.21892401053E+01	-1.02712873897E+02	5.22075062560E+00	-1.77198169847E+02	-4.33097263748E+01	3.68597963681E+01	-5.86736765846E+00	-4.89043275494E-01
3.18082120245E+05	-2.05233117166E+01	5.33364008113E+01	5.22576254103E+00	-1.78419021289E+02	-3.86609595985E+01	-7.44919213758E+01	-5.87888825736E+00	-5.00170550633E-01
3.18312035752E+05	-2.56001209249E+01	-9.89404168485E+01	5.24561979997E+00	-1.77578466127E+02	-3.90861335436E+01	-1.14033965515E+02	-5.91488792766E+00	-1.50001521733E-01
3.18542117445E+05	-2.03462321776E+01	1.53946279997E+02	5.23376627673E+00	-1.78176732715E+02	-3.92040871738E+01	-1.24243882695E+02	-5.91490168207E+00	-3.56641095268E-01
3.18772365446E+05	-1.75467684266E+01	8.37552870325E+00	5.17202970596E+00	-1.77710011159E+02	-4.77275317213E+01	-1.55023703048E+02	-5.89835022656E+00	-3.39782794058E-01
3.19002779874E+05	-2.09874517277E+01	4.00984515516E+01	5.28234004143E+00	-1.77952612662E+02	-4.28813817192E+01	-1.60532387330E+02	-5.92436650539E+00	-4.32493180663E-01
3.19233360850E+05	-1.12315542762E+01	4.41373644430E+01	5.04664771270E+00	-1.78763692783E+02	-3.73254989672E+01	1.45141459097E+02	-5.93279435073E+00	-1.63431988507E-01
3.19464108494E+05	-1.10414089916E+01	1.52095619884E+02	5.47413381902E+00	-1.78268043543E+02	-4.64737640120E+01	1.53805493387E+02	-5.91205551013E+00	-1.98033778914E-01
3.19695022927E+05	-1.29284240464E+01	-6.54866584543E+01	5.21860780703E+00	-1.77463633952E+02	-3.89664156954E+01	8.49131329832E+01	-5.87491893977E+00	-1.08119662537E-01
3.19926104268E+05	-2.24234494338E+01	1.61229839106E+02	5.21449587345E+00	-1.78139875877E+02	-4.38488648704E+01	-1.54334810089E+02	-5.90139469502E+00	-2.50871383760E-01
3.20157352640E+05	-1.29028505195E+01	1.56182681403E+02	5.32295331589E+00	-1.78334738265E+02	-5.37614445772E+01	-1.02463438611E+02	-5.87472991002E+00	1.75480556178E-01
3.20388768162E+05	-2.17234881182E+01	2.91918483145E+01	5.21800912018E+00	-1.77523010196E+02	-4.47346688052E+01	1.52662573680E+02	-5.90287760978E+00	-2.10469998240E-01
3.20620350955E+05	-1.83510606514E+01	-6.21337919358E+00	5.13108194354E+00	-1.77702062232E+02	-4.83689712637E+01	-1.77346690206E+02	-5.90239484115E+00	-1.78107082057E-01
3.20852101140E+05	-3.70688430590E+01	-1.33650340727E+02	5.29637119617E+00	-1.77717833703E+02	-3.40846422927E+01	-1.58421129357E+02	-5.93992538111E+00	-1.05141795825E-01
3.21084018839E+05	-1.39369662148E+01	9.17773933431E+01	5.15068273607E+00	-1.79262511853E+02	-4.39261293005E+01	1.67659983165E+02	-5.90374524273E+00	-5.10260694181E-01
3.21316104172E+05	-2.25835049012E+01	-1.75325559268E+02	5.31159582993E+00	-1.77500228866E+02	-3.76190901265E+01	7.82011405680E+01	-5.88476841798E+00	7.89477018172E-02
3.21548357261E+05	-1.87124190427E+01	1.02171748795E+02	5.24472301307E+00	-1.78368731175E+02	-3.21815558600E+01	1.17944197965E+02	-5.91682378040E+00	3.25697382897E-02
3.21780778226E+05	-1.60145999708E+01	-5.53395706793E+01	5.24491539241E+00	-1.77432301317E+02	-3.95923698977E+01	4.58297737996E+01	-5.90269589080E+00	-1.40097007791E-01
3.22013367189E+05	-1.91047621132E+01	1.44250737398E+02	5.20920861234E+00	-1.78313133741E+02	-4.12814913237E+01	8.26623002941E+01	-5.87672810200E+00	3.09445117411E-01
3.22246124272E+05	-2.10582787347E+01	1.78505463522E+02	5.37410417894E+00	-1.78060040451E+02	-2.93151282361E+01	6.33962903753E+01	-5.85922839464E+00	2.16970522825E-01
3.22479049596E+05	-2.05184086822E+01	-6.79062051776E+01	5.18148771742E+00	-1.78083954497E+02	-4.08067997456E+01	9.63293652356E+01	-5.85216040980E+00	2.25814922539E-02
3.22712143282E+05	-1.47701559091E+01	1.54948509473E+02	5.43156281036E+00	-1.78964094414E+02	-3.95627302810E+01	-9.23226168958E+01	-5.87826730112E+00	-4.35367997914E-01
3.22945405453E+05	-1.39905084372E+01	1.65857765204E+02	5.27522539208E+00	-1.78248319658E+02	-4.77518978556E+01	-2.31932255201E+00	-5.85358634591E+00	-4.67575863864E-01
3.23178836230E+05	-1.82429190312E+01	-3.03265036685E+01	5.21007269488E+00	-1.77886535510E+02	-4.05944195097E+01	1.47640729055E+02	-5.92790905335E+00	-1.47165153445E-01
3.23412435735E+05	-1.98250172180E+01	7.08998457815E+01	5.19461264949E+00	-1.78812667948E+02	-3.40550948379E+01	-7.69869742097E+01	-5.83264160077E+00	-6.14422685817E-01
3.23646204090E+05	-1.67246582062E+01	6.60584661392E+01	5.19726138990E+00	-1.78378262683E+02	-3.50994609667E+01	-1.74131900314E+02	-5.93810200332E+00	-5.30879825137E-01
3.23880141417E+05	-1.56655050572E+01	1.11754231573E+02	5.32591951165E+00	-1.79056497924E+02	-4.03151660386E+01	3.32203052746E+01	-5.83485007281E+00	-1.93970118902E-01
3.24114247838E+05	-2.31054669327E+01	-4.92673744150E+01	5.25944670419E+00	-1.77961907547E+02	-3.41882651049E+01	-4.10093474540E+01	-5.90404913922E+00	-3.11619503093E-01
3.24348523475E+05	-1.05316075688E+01	-7.61961710767E+00	5.05440407357E+00	-1.77604977414E+02	-4.00716826075E+01	-1.28335815062E+02	-5.89768863967E+00	-2.69770009360E-01
3.24582968451E+05	-1.85593594001E+01	-3.10052199764E+01	5.20930839937E+00	-1.77453997412E+02	-4.35587071277E+01	-1.61234158253E+02	-5.86595370541E+00	-4.08600199182E-01
3.24817582888E+05	-1.91378012887E+01	6.41122171960E+01	5.18089376892E+00	-1.78301222892E+02	-4.30848322704E+01	4.26267610367E+01	-5.87291161115E+00	-1.83033526029E-01
3.25052366909E+05	-1.71924282185E+01	1.14870499394E+01	5.12082886156E+00	-1.78110031580E+02	-4.68551947622E+01	-1.08811969179E+02	-5.87982092185E+00	-1.69083197098E-01
3.25287320635E+05	-2.58780205400E+01	-1.35466142268E+02	5.17133086352E+00	-1.77566642130E+02	-4.23412448675E+01	-1.33629449477E+02	-5.88966926987E+00	-4.46137069166E-01
3.25522444191E+05	-2.81400286376E+01	1.49971254300E+02	5.26364583008E+00	-1.77839696477E+02	-4.33018267362E+01	-1.35958913666E+01	-5.88694787773E+00	-2.08418356638E-01
3.25757737698E+05	-2.42214889392E+01	7.91336012502E+01	5.16435813898E+00	-1.78232827550E+02	-3.57562546309E+01	-4.08290285468E+01	-5.87773908233E+00	-3.54266659906E-01
3.25993201280E+05	-9.35875130375E+00	1.01524490845E+02	5.23945511318E+00	-1.79584786081E+02	-4.37548481764E+01	2.48280582405E+01	-5.88838524107E+00	3.67426510210E-02
3.26228835058E+05	-2.08860433855E+01	6.66632222842E+01	5.22186645268E+00	-1.77968122286E+02	-3.46317031516E+01	4.32091317793E+01	-5.87380626002E+00	-2.76875995105E-01
