# Hz S DB R 50
! CMT, M5065, 19127446, 24.2.4/2
! Date: 11/1/2024 4:37:21 PM
! Data: Format (Calibration Info)
! Freq	S11:dB/Ang(F2)	S21:dB/Ang(F2)	S12:dB/Ang(F2)	S22:dB/Ang(F2)
3.00000000000E+05	-1.89254813410E+01	-1.29812160844E+02	1.22253618019E+01	-1.76685673639E+02	-4.65051445268E+01	1.39873219653E+02	-5.94295811272E+00	-3.17870960429E-01
3.00216845423E+05	-2.88422339312E+01	-1.24235220370E+02	1.22363861608E+01	-1.77342022842E+02	-4.66641583366E+01	-5.15354022719E+01	-5.87556092801E+00	-3.00993924386E-01
3.00433847586E+05	-2.57550722536E+01	4.21187703494E+01	1.21600439746E+01	-1.77386553259E+02	-3.78248936834E+01	6.45565093981E+01	-5.87192659853E+00	-9.76795413408E-02
3.00651006602E+05	-2.67243729854E+01	-1.72098843296E+02	1.22465090348E+01	-1.77295831503E+02	-4.02191996627E+01	-9.97529005748E+01	-5.84394425567E+00	-7.84360319651E-01
3.00868322584E+05	-8.72191044338E+00	1.19152985512E+02	1.23251913272E+01	-1.78672678094E+02	-3.81340800932E+01	-8.41934839277E+01	-5.85813982645E+00	-7.53795793896E-01
3.01085795647E+05	-2.74432218247E+01	-9.92446638019E+01	1.22212857772E+01	-1.76956174133E+02	-4.85963191162E+01	-8.62420693598E+01	-5.84398304385E+00	-4.82840778822E-01
3.01303425902E+05	-1.85982880891E+01	-6.83914368810E+01	1.21758617029E+01	-1.77082087878E+02	-4.81407058424E+01	-3.47217910252E+01	-5.87544397816E+00	-3.09536296000E-01
3.01521213465E+05	-2.26641456669E+01	1.76781400746E+02	1.22304654773E+01	-1.77623125910E+02	-4.13257834431E+01	-6.81816645618E+01	-5.83157733515E+00	-3.22262831308E-01
3.01739158449E+05	-2.01413937883E+01	4.20856067337E+01	1.21601870064E+01	-1.77839575004E+02	-3.82637838047E+01	1.13320592784E+02	-5.91532064394E+00	-2.35242689833E-01
3.01957260967E+05	-2.10371569944E+01	-1.75279524390E+02	1.22348329683E+01	-1.77259044087E+02	-4.00898803153E+01	-1.74512432440E+02	-5.93789209396E+00	-4.58698452575E-01
3.02175521134E+05	-2.74534292355E+01	1.15776373430E+01	1.21863959570E+01	-1.77444756545E+02	-4.15379423235E+01	7.16295831035E+01	-5.87950549715E+00	-1.87334776057E-01
3.02393939063E+05	-1.01294891293E+01	1.14769947933E+02	1.23150667808E+01	-1.78476337243E+02	-2.98855599161E+01	-1.04037832384E+02	-5.91304897390E+00	-1.43738425904E+00
3.02612514869E+05	-2.53858384291E+01	7.38908124988E+01	1.21875678088E+01	-1.77868182507E+02	-2.95500484045E+01	-9.38317998001E+01	-5.86672171327E+00	-1.68795988625E+00
3.02831248665E+05	-2.17133657332E+01	-1.12661266469E+02	1.22066651464E+01	-1.76707240818E+02	-4.73643371190E+01	-2.77369126160E+01	-5.85300202037E+00	-2.61349137645E-01
3.03050140565E+05	-1.29760541331E+01	-6.99602191186E+01	1.21537947006E+01	-1.76269439753E+02	-5.32950324180E+01	-9.97641496370E+01	-5.88950821534E+00	-3.52539748573E-01
3.03269190685E+05	-1.87368301541E+01	-1.10191023600E+02	1.22294288598E+01	-1.77073799833E+02	-4.14588181197E+01	1.45236031179E+02	-5.90329948949E+00	-3.46946655234E-01
3.03488399138E+05	-1.88924058316E+01	-2.27508170977E+01	1.21488826049E+01	-1.77202420946E+02	-5.72242904984E+01	-1.02648886014E+02	-5.84220750667E+00	-5.73442812578E-02
3.03707766039E+05	-1.77939007766E+01	1.14855580032E+02	1.22788277081E+01	-1.77973761408E+02	-4.37543384572E+01	1.26837399714E+02	-5.90329498998E+00	-1.58640063019E-01
3.03927291503E+05	-1.94497003106E+01	3.21309634275E+01	1.20741163832E+01	-1.77444363327E+02	-3.02414473669E+01	1.29585665896E+02	-5.98049284865E+00	3.52233879050E-01
3.04146975643E+05	-2.66599985713E+01	1.77605758247E+02	1.22756812670E+01	-1.77316493320E+02	-3.85187116133E+01	-1.06591695601E+02	-5.96879971478E+00	-8.15919786245E-01
3.04366818575E+05	-2.64544031563E+01	1.61181376425E+02	1.22660376372E+01	-1.77699657024E+02	-4.04957599247E+01	2.84922786268E+01	-5.85389725153E+00	1.87384037052E-01
3.04586820414E+05	-2.38582860159E+01	-1.61733984941E+02	1.22476870712E+01	-1.77248421255E+02	-3.81611694607E+01	-5.66523935777E+01	-5.86323270697E+00	-4.79283187926E-01
3.04806981274E+05	-2.09837794876E+01	-2.40784003325E+00	1.21848032930E+01	-1.77327322064E+02	-3.96224607996E+01	-6.24153297039E+00	-5.80303434456E+00	-1.12339967807E-01
3.05027301270E+05	-2.01051322308E+01	-1.29072028597E+02	1.22798026095E+01	-1.77170288112E+02	-3.87399789310E+01	-3.50351871827E+01	-5.81945435121E+00	-5.30560085233E-01
3.05247780517E+05	-2.81523869389E+01	4.39486202430E+01	1.21635107172E+01	-1.77142715246E+02	-4.77121333428E+01	-1.55922595232E+02	-5.88469585808E+00	-2.97056614059E-01
3.05468419131E+05	-1.46885459556E+01	1.26780061452E+02	1.22646482454E+01	-1.78034853329E+02	-3.55987390773E+01	1.48696118400E+02	-5.95927570152E+00	-2.79828030494E-01
3.05689217226E+05	-1.08799435511E+01	6.41438619489E+01	1.21091845031E+01	-1.78849601109E+02	-4.24562762570E+01	-2.50302138396E+01	-5.90148406534E+00	-1.28013322142E-01
3.05910174918E+05	-1.68864385027E+01	-7.44005141412E+01	1.21527578423E+01	-1.76564688221E+02	-4.51443082758E+01	1.42384534641E+01	-5.84966618781E+00	-3.28619151792E-01
3.06131292322E+05	-1.87804984548E+01	-1.25496508839E+02	1.21963750888E+01	-1.77161135418E+02	-5.52018848102E+01	1.40485491031E+02	-5.88400516436E+00	-3.99519097242E-01
3.06352569554E+05	-2.23858726881E+01	1.68975452346E+02	1.22634733715E+01	-1.77710549893E+02	-3.99018773929E+01	-6.97667683961E+01	-5.89265559131E+00	-7.73440843103E-01
3.06574006730E+05	-1.92796699879E+01	1.79966991162E+02	1.22648293405E+01	-1.77579792537E+02	-4.32814571339E+01	1.54556480074E+02	-5.94072422851E+00	-2.34234879654E-01
3.06795603964E+05	-2.15104184154E+01	1.28541279475E+02	1.22321898883E+01	-1.77618689645E+02	-4.76192301453E+01	-1.07407476640E+02	-5.90410589783E+00	-6.06261280159E-01
3.07017361372E+05	-2.07143739780E+01	6.82708602089E+01	1.21641252756E+01	-1.77790808324E+02	-3.89253868492E+01	1.23496674280E+02	-5.90718872402E+00	-1.09847187772E-01
3.07239279071E+05	-2.11914111918E+01	7.37132391897E+01	1.21932158565E+01	-1.77735640450E+02	-2.85213651843E+01	-1.40624773459E+02	-6.04750154885E+00	-1.14905621331E+00
3.07461357176E+05	-1.63714992490E+01	2.76912760775E+01	1.21292928577E+01	-1.77750086566E+02	-4.34804764189E+01	-4.12722952095E+01	-5.85875854628E+00	-2.46357839327E-01
3.07683595803E+05	-1.95861586180E+01	6.81260208124E+01	1.22318516562E+01	-1.78003658761E+02	-3.83672802035E+01	5.11432578824E+01	-5.85219944607E+00	-1.59740840222E-01
3.07905995068E+05	-2.95083199210E+01	-1.18486739361E+02	1.22432518321E+01	-1.77331623170E+02	-4.43134370028E+01	9.43396480764E+01	-5.83388274181E+00	-2.47802430774E-01
3.08128555087E+05	-2.14122549473E+01	1.50625266247E+02	1.21768910000E+01	-1.77512984230E+02	-4.31821512485E+01	1.17475552750E+02	-5.91076274723E+00	-1.26205063658E-01
3.08351275976E+05	-2.02788378521E+01	-1.26041741604E+02	1.22613366661E+01	-1.77201420275E+02	-5.10274431891E+01	1.05213280596E+02	-5.84424057439E+00	-3.82416605970E-01
3.08574157853E+05	-2.32926674019E+01	4.19434296882E+01	1.22350623046E+01	-1.77866409194E+02	-3.91581020024E+01	-8.05205919291E+01	-5.93207744992E+00	-5.76727795494E-01
3.08797200832E+05	-2.16734965251E+01	-1.28976579933E+02	1.22742040564E+01	-1.76791844704E+02	-3.17803864850E+01	-1.69541579435E+02	-6.03843764347E+00	-4.22339564183E-01
3.09020405031E+05	-2.23785985313E+01	1.73442167314E+02	1.22156312218E+01	-1.77244738912E+02	-3.94270370649E+01	-3.41863593553E+01	-5.79942018478E+00	-2.50031143662E-01
3.09243770566E+05	-3.52723360524E+01	-4.25591349921E+01	1.21836489142E+01	-1.77703681932E+02	-3.48539351667E+01	4.53533191949E+01	-5.86287810546E+00	7.76770765556E-02
3.09467297553E+05	-2.70646730600E+01	-1.65308928218E+02	1.22390375439E+01	-1.77443181889E+02	-3.26897239743E+01	-1.21752923201E+01	-5.81154045747E+00	-2.00519242174E-01
3.09690986110E+05	-2.14202092511E+01	-9.75953174895E+01	1.21857045050E+01	-1.77261396091E+02	-3.75686272725E+01	-1.36081160139E+02	-5.95062781829E+00	-4.40618824536E-01
3.09914836353E+05	-1.82529283892E+01	-6.49581794871E+01	1.21485013660E+01	-1.77011379027E+02	-3.78117667818E+01	3.43538641117E+01	-5.84011091776E+00	2.17768322301E-02
3.10138848399E+05	-1.85278984752E+01	-1.45870505283E+02	1.22535685133E+01	-1.77096809814E+02	-3.60600534088E+01	-1.33881524633E+02	-5.94701790442E+00	-6.59907397438E-01
3.10363022365E+05	-1.20582872287E+01	-1.60340501684E+02	1.23499967134E+01	-1.77241771880E+02	-3.21548244108E+01	-4.26285708753E+01	-5.74057125096E+00	-6.59254496306E-01
3.10587358368E+05	-1.72852290179E+01	1.53481970920E+02	1.23014547112E+01	-1.77790346460E+02	-3.64990575383E+01	-6.04794200657E+01	-5.82956292868E+00	-5.95516672330E-01
3.10811856525E+05	-1.47577015930E+01	7.65132957064E+00	1.20900864961E+01	-1.77702067284E+02	-3.51552361758E+01	1.39390170547E+02	-5.94683994271E+00	8.86573056866E-02
3.11036516954E+05	-2.89746713480E+01	-5.31995460154E+01	1.22117526894E+01	-1.77219495907E+02	-3.65450426841E+01	-1.05498386688E+02	-5.82335549921E+00	-6.44237262090E-01
3.11261339771E+05	-2.43063095747E+01	1.00671304851E+02	1.22374247590E+01	-1.77683843894E+02	-3.85076316588E+01	4.67323030208E+01	-5.84995895141E+00	-4.26725280400E-02
3.11486325094E+05	-2.03247322066E+01	5.94734010419E+01	1.21434875770E+01	-1.77518787532E+02	-4.26057541528E+01	6.85456039697E+01	-5.84557381653E+00	-2.69726036010E-01
3.11711473040E+05	-1.90532997105E+01	-4.38435054623E+01	1.21590076441E+01	-1.76946140402E+02	-3.75964681302E+01	1.27672187410E+02	-5.94978364081E+00	1.90428789964E-01
3.11936783728E+05	-2.28816656487E+01	-1.66049887470E+02	1.22460808974E+01	-1.77370538249E+02	-4.72104087501E+01	-7.99660118245E+01	-5.93534264423E+00	-5.18101026083E-01
3.12162257274E+05	-2.09840128630E+01	-1.34750873840E+02	1.22272835680E+01	-1.77092518603E+02	-3.64819731978E+01	1.36027913163E+02	-5.92788167479E+00	1.48352774304E-01
3.12387893797E+05	-2.55169527480E+01	1.39600194436E+02	1.22650134667E+01	-1.77843576109E+02	-4.71609402232E+01	-1.43836586175E+02	-5.89207386959E+00	-4.53053422145E-01
3.12613693413E+05	-2.02693575938E+01	1.51669451309E+02	1.22862023370E+01	-1.77690006880E+02	-4.47651158415E+01	1.45192482726E+02	-5.88307149651E+00	-2.93940326698E-01
3.12839656242E+05	-2.36769762699E+01	-1.15474872007E+02	1.22324138107E+01	-1.77205762109E+02	-4.26880181040E+01	5.14414758144E+01	-5.84111527694E+00	-1.32883191863E-01
3.13065782401E+05	-1.50887374066E+01	-1.60952932675E+02	1.23316439665E+01	-1.77329501277E+02	-3.99700607600E+01	9.06127051110E+01	-5.90550887767E+00	1.11374712427E-01
3.13292072007E+05	-1.48572254584E+01	4.13818885757E+01	1.20962178585E+01	-1.78119530957E+02	-4.58339323149E+01	1.69019661515E+02	-5.96199684279E+00	-3.90484708534E-01
3.13518525180E+05	-1.20259083080E+01	-1.66187849194E+02	1.23859548535E+01	-1.77407731318E+02	-4.69244460908E+01	-1.32564823019E+02	-5.87176236893E+00	-1.33219524118E-01
3.13745142038E+05	-2.18072367675E+01	-1.33454955333E+02	1.22588942921E+01	-1.77313638522E+02	-3.42524312574E+01	-1.41441405301E+02	-5.95482820046E+00	-6.02186119588E-01
3.13971922698E+05	-1.99735862131E+01	6.28694972469E+01	1.21544015441E+01	-1.77714215669E+02	-3.95710674095E+01	-1.44036918119E+02	-5.88111625953E+00	-6.77946386663E-01
3.14198867279E+05	-3.00850368050E+01	1.57013563556E+02	1.22686313303E+01	-1.77648157584E+02	-3.65449685952E+01	1.54095352036E+02	-5.94063038903E+00	-2.25792683361E-01
3.14425975900E+05	-2.13593081976E+01	1.57532930118E+02	1.22711356015E+01	-1.77610059258E+02	-3.56996877655E+01	-4.87380152061E+01	-5.81840965408E+00	-5.89267029705E-01
3.14653248680E+05	-2.24179749658E+01	-1.37030737155E+02	1.22560789407E+01	-1.77311621298E+02	-3.56759669139E+01	6.62559256568E+01	-5.85580516666E+00	1.91468240258E-02
3.14880685736E+05	-4.04460511423E+01	-1.59626265858E+02	1.22323998792E+01	-1.77591725292E+02	-5.10829324290E+01	9.60925111060E+01	-5.86663998734E+00	9.86019681068E-02
3.15108287188E+05	-2.19477968629E+01	3.10825865539E+01	1.21657724165E+01	-1.77822331517E+02	-3.85624760861E+01	1.09386216882E+02	-5.92378204029E+00	2.96934500960E-01
3.15336053154E+05	-2.29965252173E+01	-9.63534829854E+01	1.21687859873E+01	-1.77134024339E+02	-3.73299025016E+01	4.80405436262E+01	-5.85164441306E+00	-2.19555996582E-01
3.15563983753E+05	-2.91934918906E+01	1.38981077183E+02	1.22783744813E+01	-1.77622215080E+02	-4.36696494758E+01	-7.59296525364E+01	-5.87729711529E+00	-5.57953021307E-01
3.15792079105E+05	-2.33556039882E+01	3.01307114965E+01	1.21746914747E+01	-1.77543637469E+02	-3.41279104318E+01	-1.67799218388E+02	-5.96729429240E+00	-1.84838139142E-01
3.16020339328E+05	-2.71970543656E+01	1.28657024861E+02	1.22353045850E+01	-1.77628841996E+02	-4.59439957168E+01	-3.98137150876E+01	-5.86361039267E+00	-4.27893238506E-01
3.16248764542E+05	-1.82521863837E+01	5.13567526437E+01	1.21648918916E+01	-1.77920139394E+02	-3.98017899011E+01	7.60765222530E+01	-5.91385302259E+00	-7.88673334878E-02
3.16477354866E+05	-2.46287862992E+01	1.20442306579E+02	1.21892799393E+01	-1.77384351526E+02	-4.21988765071E+01	5.20707368273E+01	-5.84782338753E+00	-4.11988906499E-02
3.16706110419E+05	-4.83661452103E+00	-2.52177990617E+00	1.17955914823E+01	-1.77335458353E+02	-3.44328615681E+01	-1.44197534271E+02	-5.96114012275E+00	-3.48036136003E-01
3.16935031321E+05	-2.28052779162E+01	1.75682663623E+02	1.22641289324E+01	-1.77734823305E+02	-4.45233471249E+01	-3.86448104950E+01	-5.86779093934E+00	-4.55694457143E-01
3.17164117691E+05	-2.38247426016E+01	1.35925726801E+02	1.22644340497E+01	-1.77501419884E+02	-3.78041972821E+01	-1.17442427856E+02	-5.91668172479E+00	-5.76954458669E-01
3.17393369648E+05	-1.48972453167E+01	1.71922092097E+00	1.21301022513E+01	-1.77695428261E+02	-4.68951177061E+01	-2.99398683383E+01	-5.85231391754E+00	-5.17438473858E-01
3.17622787313E+05	-2.16327913819E+01	-1.08934668196E+02	1.22566514849E+01	-1.77490212872E+02	-4.63637538779E+01	1.60970670853E+02	-5.89302033056E+00	-1.58839911648E-01
3.17852370806E+05	-1.97608958829E+01	8.42243695640E+01	1.21905717080E+01	-1.78259917825E+02	-4.00818673440E+01	-1.06395032977E+02	-5.86930131975E+00	-5.79626149267E-01
3.18082120245E+05	-2.02448779186E+01	-9.92632316129E+01	1.22121453040E+01	-1.77553129704E+02	-5.56446531834E+01	-1.32938364531E+02	-5.86541907362E+00	-4.69561598929E-01
3.18312035752E+05	-1.53086026299E+01	8.93689941711E+01	1.22144089309E+01	-1.78365611092E+02	-3.24251217804E+01	6.73245978336E+01	-5.84403543166E+00	5.24652318704E-01
3.18542117445E+05	-1.38478320987E+01	8.19669008528E+01	1.22106242487E+01	-1.78522894428E+02	-3.16146779209E+01	1.57467985881E+01	-5.71859443024E+00	-7.33567733743E-02
3.18772365446E+05	-2.40846337708E+01	7.89750745062E+01	1.22379821450E+01	-1.78184262260E+02	-4.49517686556E+01	1.59636023383E+02	-5.93274324243E+00	-9.23231631289E-02
3.19002779874E+05	-1.54573168028E+01	-5.94815951689E+01	1.21442597829E+01	-1.77030937295E+02	-3.73560155457E+01	1.39808543634E+02	-5.91974628247E+00	1.45812222788E-01
3.19233360850E+05	-3.43172473803E+01	1.01506691992E+02	1.21468213289E+01	-1.77707333800E+02	-4.26338937305E+01	1.07242393997E+02	-5.89206338948E+00	-8.86504150259E-02
3.19464108494E+05	-3.37973997770E+01	-1.88487942920E+01	1.22057583027E+01	-1.77700574462E+02	-4.02799790872E+01	-7.26714482657E+00	-5.83771156775E+00	-1.41654498359E-01
3.19695022927E+05	-2.56195537233E+01	-5.82119242675E+01	1.21766713318E+01	-1.77447412740E+02	-4.15300655262E+01	-6.71000587671E+01	-5.85429094458E+00	-4.66009010097E-01
3.19926104268E+05	-1.23599552608E+01	1.62782796400E+02	1.23987967147E+01	-1.77734129536E+02	-2.95037485300E+01	7.94804878459E+01	-5.87746304475E+00	1.04683267765E+00
3.20157352640E+05	-1.40687210094E+01	1.02073574917E+02	1.21668267761E+01	-1.78545800968E+02	-4.74310536791E+01	-2.19007462416E+01	-5.82714325097E+00	-4.64415424045E-01
3.20388768162E+05	-1.86316149909E+01	1.28635133147E+02	1.22894370546E+01	-1.77875968765E+02	-3.81827553443E+01	7.62575990253E+01	-5.81651994471E+00	6.78874454640E-02
3.20620350955E+05	-1.32855079381E+01	-4.87154392947E+00	1.20821468814E+01	-1.77740508163E+02	-3.51654585296E+01	7.60923701409E+01	-5.88874410347E+00	1.88987449946E-01
3.20852101140E+05	-2.20782376326E+01	1.03893661100E+02	1.21619862931E+01	-1.77998953289E+02	-4.31155575023E+01	-6.28373366753E+01	-5.85702349356E+00	-2.67052782444E-01
3.21084018839E+05	-2.08129037932E+01	1.57811236899E+02	1.22746164139E+01	-1.77890108327E+02	-4.51994320024E+01	1.28901241698E+02	-5.86923656784E+00	-4.62019598299E-02
3.21316104172E+05	-1.88291036473E+01	1.39366971627E+02	1.22545859837E+01	-1.77960201772E+02	-4.50559123977E+01	-9.53123299551E+01	-5.89273857081E+00	-2.63984957318E-01
3.21548357261E+05	-1.37864582080E+01	-1.24667117655E+02	1.23426393973E+01	-1.77141168776E+02	-3.35085827564E+01	-1.77433647464E+02	-6.03978343665E+00	-3.00066485657E-01
3.21780778226E+05	-1.96184267473E+01	-6.94280265610E+01	1.21528943673E+01	-1.77247227555E+02	-4.26322105867E+01	1.07742117083E+02	-5.87268950238E+00	-2.76027541493E-01
3.22013367189E+05	-3.40406438268E+01	1.01137685460E+02	1.22344103697E+01	-1.78016703478E+02	-4.14281005518E+01	-1.62226320346E+02	-5.87956768516E+00	-5.92794983444E-01
3.22246124272E+05	-3.32158448547E+01	1.36082477860E+02	1.22330180221E+01	-1.77753939665E+02	-5.35242376527E+01	1.43102180081E+02	-5.92091506348E+00	-3.99141748377E-01
3.22479049596E+05	-2.00080171711E+01	-1.79523001857E+02	1.22632492158E+01	-1.77694605089E+02	-3.97119892362E+01	-1.66236661553E+02	-5.95272073403E+00	-7.15993398027E-02
3.22712143282E+05	-2.26253849421E+01	1.45485552208E+02	1.22407196103E+01	-1.77698093276E+02	-3.93136565277E+01	3.53431255543E+01	-5.84242346481E+00	-2.49808783581E-01
3.22945405453E+05	-1.20582713224E+01	-1.59685071600E+02	1.23634918005E+01	-1.77123093350E+02	-3.74751181738E+01	-1.23828020965E+02	-5.85133660735E+00	-6.62748470795E-01
3.23178836230E+05	-1.53757840996E+01	-1.82494655314E+01	1.20497195003E+01	-1.77382045617E+02	-3.35316181476E+01	9.08973178713E+01	-5.94150075786E+00	3.75387034301E-01
3.23412435735E+05	-2.56797728667E+01	9.83923094266E+01	1.21755066133E+01	-1.77875156468E+02	-3.35743350518E+01	-5.28386978819E+01	-5.80720517293E+00	-8.80016825030E-01
3.23646204090E+05	-1.90874410075E+01	1.52065205888E+02	1.22452150553E+01	-1.77919354986E+02	-4.33763017655E+01	-1.60241810551E+02	-5.90367175688E+00	-3.33755270542E-01
3.23880141417E+05	-1.69592153695E+01	-9.31545537875E+01	1.22106965672E+01	-1.77124811999E+02	-6.04460397467E+01	-1.17388706276E+02	-5.84003664998E+00	-2.96359661257E-01
3.24114247838E+05	-2.63529246565E+01	6.86651710688E+01	1.22385382573E+01	-1.77886451411E+02	-3.32772405038E+01	7.78888854425E+00	-5.80843615433E+00	-1.27198864523E-01
3.24348523475E+05	-2.04944553608E+01	-1.60160704763E+02	1.22848212065E+01	-1.77513694547E+02	-4.58205107317E+01	1.67006319297E+02	-5.90235681381E+00	-5.05506601244E-02
3.24582968451E+05	-2.85037908792E+01	-7.95568861863E+01	1.22109067850E+01	-1.77783315250E+02	-4.56767756073E+01	1.02037272120E+02	-5.89563703891E+00	-2.61655434137E-01
3.24817582888E+05	-1.78720678184E+01	3.79973019835E+01	1.21026618905E+01	-1.78112991054E+02	-3.31106567233E+01	-1.42690040425E+02	-5.95164899497E+00	-6.20592413462E-01
3.25052366909E+05	-1.82503888943E+01	-1.62407953519E+02	1.22320911028E+01	-1.78038191221E+02	-3.84337362314E+01	-8.88989069385E+01	-5.90003696167E+00	-7.25462299161E-01
3.25287320635E+05	-2.56629592937E+01	-1.29558593182E+02	1.22247932626E+01	-1.77628856944E+02	-4.93213278767E+01	-9.68874455356E+01	-5.93005733575E+00	-2.11241264142E-01
3.25522444191E+05	-2.48094478009E+01	-1.00405362766E+02	1.22284764903E+01	-1.77474270265E+02	-6.08920437779E+01	3.70621771775E+01	-5.87732746798E+00	-1.71876810526E-01
3.25757737698E+05	-2.22936218472E+01	2.87497221171E+01	1.21978154726E+01	-1.77880050223E+02	-4.04819492436E+01	8.66610060300E+00	-5.85249088598E+00	-3.96417122086E-01
3.25993201280E+05	-3.62922254463E+01	-6.22668130352E+01	1.21669274298E+01	-1.77708057757E+02	-6.15681905063E+01	-1.54013598554E+02	-5.82414812443E+00	-3.46819958920E-01
3.26228835058E+05	-1.96933631074E+01	-1.73726223809E+02	1.23082593478E+01	-1.77804584359E+02	-3.75817506742E+01	1.24656149797E+02	-5.87202445693E+00	2.49862237180E-01
