# Hz S DB R 50
! CMT, M5065, 19127446, 24.2.4/2
! Date: 11/1/2024 4:31:24 PM
! Data: Format (Calibration Info)
! Freq	S11:dB/Ang(F2)	S21:dB/Ang(F2)	S12:dB/Ang(F2)	S22:dB/Ang(F2)
3.00000000000E+05	-2.19229196893E+01	-6.54083747225E+01	9.40081633649E+00	-1.76913203320E+02	-4.34744290909E+01	-1.55192970239E+02	-5.92951189053E+00	-4.71357688120E-01
3.00216845423E+05	-4.33599286393E+01	1.31279706402E+02	9.38986110284E+00	-1.77719514793E+02	-4.73425857173E+01	1.04006363294E+02	-5.88158951359E+00	-2.11495165085E-01
3.00433847586E+05	-2.21131095633E+01	-1.66048892967E+02	9.41695859573E+00	-1.77446067511E+02	-5.39641489723E+01	1.85183064844E+01	-5.86999588408E+00	-4.11580774529E-01
3.00651006602E+05	-1.80875929633E+01	-7.44053701420E+01	9.45220595329E+00	-1.76730928224E+02	-4.17120671950E+01	3.00786538567E+01	-5.90097721694E+00	-1.96278060632E-02
3.00868322584E+05	-2.34720771673E+01	-1.29935571929E+02	9.47502889341E+00	-1.77419443673E+02	-3.94761990867E+01	-1.46383166903E+02	-5.94574162456E+00	-2.75909354822E-01
3.01085795647E+05	-1.42430794321E+01	-8.22039263327E+01	9.42653199883E+00	-1.76688298641E+02	-4.65697752238E+01	-1.32971699468E+01	-5.84443991621E+00	-2.36088429278E-01
3.01303425902E+05	-1.40463940874E+01	-6.71407261416E+01	9.41000909808E+00	-1.76304084717E+02	-4.34212882907E+01	1.13265547770E+02	-5.92137279347E+00	5.84721385610E-02
3.01521213465E+05	-1.47968121811E+01	1.36254215645E+02	9.47810820238E+00	-1.78050042000E+02	-4.14741922927E+01	5.18123837567E+01	-5.88870052321E+00	-1.38925024565E-01
3.01739158449E+05	-3.51760892798E+01	-1.51673411566E+02	9.40077223220E+00	-1.77469290322E+02	-3.94315485918E+01	6.43829632903E+01	-5.86756018560E+00	-1.93508758248E-01
3.01957260967E+05	-2.37213447622E+01	4.52141427949E+01	9.37226575197E+00	-1.77728023752E+02	-4.38151458766E+01	-1.14432225172E+02	-5.93792410554E+00	-3.72788577382E-01
3.02175521134E+05	-1.63597968612E+01	1.55558390572E+02	9.45977450779E+00	-1.77887769514E+02	-3.73840238808E+01	4.99232512356E+01	-5.88164803695E+00	-1.76012582213E-01
3.02393939063E+05	-2.22497224781E+01	1.01943779644E+02	9.38694158458E+00	-1.78043830467E+02	-3.59442886959E+01	-1.39235716693E+02	-5.97610037430E+00	-3.06521546405E-01
3.02612514869E+05	-1.42879340139E+01	-6.90967428581E+01	9.35213864479E+00	-1.76446107842E+02	-4.20686927034E+01	1.16396799566E+02	-5.90969601010E+00	-8.70302129071E-02
3.02831248665E+05	-2.47543698523E+01	3.91261439159E+01	9.45603857258E+00	-1.78010044973E+02	-3.30547282328E+01	1.10915544463E+02	-5.88566608435E+00	2.14650257390E-01
3.03050140565E+05	-1.76996383022E+01	7.94483219883E+01	9.37448381289E+00	-1.78017011833E+02	-3.20516805920E+01	-1.53253406311E+02	-5.96070535752E+00	-6.76813404080E-01
3.03269190685E+05	-2.68874471796E+01	-1.57418198123E+02	9.46480633533E+00	-1.77277420197E+02	-4.02608275283E+01	-1.33790092603E+02	-5.91792471682E+00	-3.31107152633E-01
3.03488399138E+05	-2.74443435070E+01	-5.62165893401E+01	9.45489123219E+00	-1.77787685031E+02	-4.37846428661E+01	-3.81929020615E+01	-5.85178032359E+00	-2.85547772731E-01
3.03707766039E+05	-1.77601907577E+01	8.49735330420E+01	9.36802401821E+00	-1.77934317402E+02	-3.78725804135E+01	-1.17042212403E+02	-5.90516400140E+00	-2.94714210581E-01
3.03927291503E+05	-1.81851866777E+01	-1.51157603611E+01	9.37417516205E+00	-1.77619771352E+02	-3.90798757083E+01	-6.82858440179E-01	-5.84847012246E+00	-1.96055330899E-01
3.04146975643E+05	-1.37294785952E+01	-1.04149614748E+02	9.46658834108E+00	-1.76488876896E+02	-3.64175588914E+01	1.57718539647E+02	-5.89789238263E+00	4.55012123840E-02
3.04366818575E+05	-1.10268708117E+01	1.73010836792E+01	9.20248962970E+00	-1.77412108235E+02	-4.96848802021E+01	-6.81033044327E+01	-5.88920257918E+00	-2.40539756607E-01
3.04586820414E+05	-3.05147858034E+01	1.67359646291E+02	9.41524252117E+00	-1.77398426777E+02	-4.71876340887E+01	-9.68700939504E+01	-5.89383213489E+00	-1.63505945276E-01
3.04806981274E+05	-1.35415534918E+01	2.07457756750E+01	9.29586163462E+00	-1.77554353879E+02	-4.39034213766E+01	-1.41868749272E+02	-5.91352843707E+00	-3.02924547715E-01
3.05027301270E+05	-1.81060400948E+01	9.58561167615E+00	9.33242972561E+00	-1.77972368013E+02	-3.92002565089E+01	9.73489317089E+01	-5.86251108982E+00	-1.53920701189E-01
3.05247780517E+05	-2.52246043053E+01	1.43955854485E+02	9.43427546770E+00	-1.77732605270E+02	-3.86186230129E+01	2.99064682945E+01	-5.89286886293E+00	-1.93700218373E-01
3.05468419131E+05	-2.24978515907E+01	1.68776709059E+02	9.46471079366E+00	-1.77742450387E+02	-4.23502739014E+01	8.98243164451E+01	-5.86499935221E+00	2.24047866223E-01
3.05689217226E+05	-1.67968547681E+01	-6.07577676379E+01	9.41572530457E+00	-1.77429839386E+02	-4.51675340961E+01	-9.97038299809E+01	-5.85931545675E+00	-5.59281137924E-01
3.05910174918E+05	-1.59002903929E+01	-2.81017015470E+01	9.35352585934E+00	-1.77507010273E+02	-4.69220836922E+01	1.19314389697E+02	-5.84790436305E+00	-1.27084903235E-01
3.06131292322E+05	-2.14674043333E+01	4.65723172796E+01	9.33845607630E+00	-1.77615008500E+02	-5.38313072751E+01	-1.77486864178E+02	-5.91898152498E+00	-3.05983977452E-01
3.06352569554E+05	-1.71300139119E+01	1.95689643235E+01	9.25964338641E+00	-1.77730619754E+02	-3.72829860708E+01	-7.17565074576E+01	-5.81433831293E+00	-2.61041229978E-01
3.06574006730E+05	-1.87387956602E+01	2.28885912142E+00	9.34295572427E+00	-1.77731954472E+02	-5.28472161050E+01	-3.43480682980E+01	-5.85788750941E+00	-2.91820423574E-01
3.06795603964E+05	-1.42436096268E+01	1.21245284941E+01	9.27340472643E+00	-1.77930761271E+02	-4.12423712618E+01	-7.57055811293E+01	-5.85356319060E+00	-4.18492343294E-01
3.07017361372E+05	-2.10773693915E+01	1.36454434148E+02	9.45943169395E+00	-1.77541133197E+02	-3.57689774833E+01	1.44286752489E+02	-5.89841284875E+00	-1.86645576200E-01
3.07239279071E+05	-2.37955029645E+01	-6.64118895841E+01	9.35160598090E+00	-1.77368700710E+02	-3.56329287946E+01	1.49684474788E+02	-5.94004597306E+00	-2.20599473366E-01
3.07461357176E+05	-1.09281515313E+01	-3.34569068608E+01	9.28135104285E+00	-1.76887099710E+02	-3.81252902587E+01	-6.84841838910E+01	-5.89120936932E+00	-7.01017273958E-01
3.07683595803E+05	-3.27478589465E+01	-1.77350401008E+02	9.46401429861E+00	-1.77852711450E+02	-3.49410135636E+01	1.09862928336E+02	-5.85335373868E+00	7.68551824528E-03
3.07905995068E+05	-1.43660290187E+01	9.64985377755E+01	9.38343272900E+00	-1.78024888810E+02	-4.27457899996E+01	-1.61856915652E+02	-5.90723167737E+00	-3.31295932611E-01
3.08128555087E+05	-1.37082008805E+01	1.47999293551E+02	9.48018550867E+00	-1.77818887717E+02	-3.57927409626E+01	5.16662882500E+01	-5.83475897012E+00	-4.27290814110E-02
3.08351275976E+05	-1.60496709457E+01	-7.49408008161E+01	9.42293473852E+00	-1.77348522293E+02	-3.53128527626E+01	-1.49292513836E+02	-5.90864690700E+00	-4.68864927669E-01
3.08574157853E+05	-2.32074763194E+01	6.65571134241E+01	9.41525943978E+00	-1.77974316541E+02	-3.65148640272E+01	-9.90658624768E+01	-5.91591150396E+00	-5.78489098499E-01
3.08797200832E+05	-1.40373277555E+01	-4.83066534623E+01	9.28723214501E+00	-1.77326066799E+02	-4.63682670703E+01	-1.11203485393E+02	-5.92025683143E+00	-4.77805955892E-01
3.09020405031E+05	-2.42647092161E+01	1.53091373565E+02	9.53181445094E+00	-1.77716890864E+02	-3.71759998082E+01	-1.48035657387E+02	-5.95554288162E+00	-3.43926065171E-01
3.09243770566E+05	-2.92674128727E+01	4.16658055889E+01	9.44222007464E+00	-1.77824344591E+02	-5.05477946570E+01	3.14974052046E+01	-5.86344815268E+00	-1.36544570318E-01
3.09467297553E+05	-1.66157815402E+01	-6.94989509276E+01	9.37297055602E+00	-1.77193440835E+02	-4.82999652210E+01	8.49213721948E+01	-5.90543417640E+00	1.24806788167E-01
3.09690986110E+05	-1.92245288592E+01	1.76429289936E+02	9.47412951696E+00	-1.77616403610E+02	-3.56700910176E+01	-2.32167656514E+01	-5.84355349746E+00	-2.68790959187E-01
3.09914836353E+05	-2.94333901477E+01	8.69197697319E+01	9.47236627373E+00	-1.78188895538E+02	-4.60464125008E+01	-3.88005219218E+01	-5.85066910303E+00	-5.19802195228E-01
3.10138848399E+05	-1.74717573751E+01	-1.57646480570E+02	9.43724566864E+00	-1.77463366294E+02	-4.01105071361E+01	-1.34732622377E+02	-5.93258796765E+00	-3.49026159415E-01
3.10363022365E+05	-1.50721266314E+01	5.71406844669E+00	9.26404978441E+00	-1.77509039274E+02	-3.10986208305E+01	1.63588662420E+02	-5.98953405543E+00	-4.01152447975E-02
3.10587358368E+05	-8.67460677117E+00	1.61340296017E+02	9.64176038752E+00	-1.78287809818E+02	-4.00018144054E+01	-1.52250564445E+02	-5.92022284293E+00	-5.67370134199E-01
3.10811856525E+05	-1.82845260165E+01	-1.66677229809E+02	9.42998955395E+00	-1.77441450214E+02	-3.66972813381E+01	1.28075121538E+02	-5.96924179964E+00	-3.59562861272E-02
3.11036516954E+05	-2.00859986157E+01	-3.91129710298E+01	9.39171799237E+00	-1.77277194545E+02	-4.10199063381E+01	3.18289634159E+01	-5.86508708654E+00	-3.99298963244E-01
3.11261339771E+05	-1.83000697802E+01	-1.61953388167E+02	9.48954768907E+00	-1.77343010199E+02	-4.70600858013E+01	-1.30140104815E+01	-5.88209499639E+00	-3.28108752645E-01
3.11486325094E+05	-1.89667823107E+01	-8.69525773221E+01	9.42852921594E+00	-1.77467144909E+02	-3.88922389180E+01	-1.86540402660E+00	-5.81584584237E+00	-2.01286028440E-01
3.11711473040E+05	-1.95205865052E+01	-1.37237166293E+01	9.42990088362E+00	-1.77725491814E+02	-3.46691406933E+01	4.79550766676E+01	-5.86298977621E+00	-2.76602584234E-01
3.11936783728E+05	-1.60330994756E+01	1.49264481038E+02	9.44210679402E+00	-1.78405147858E+02	-3.78751182560E+01	-4.21477707889E+01	-5.85184653009E+00	-6.53227660499E-01
3.12162257274E+05	-1.13024304881E+01	-1.65407177685E+02	9.62808996023E+00	-1.77599969465E+02	-3.67021817140E+01	1.03081542290E+02	-5.82891634227E+00	2.74370392408E-01
3.12387893797E+05	-2.57837026523E+01	5.39939854674E+01	9.38693400736E+00	-1.78159788641E+02	-3.83114830715E+01	2.03307302548E+00	-5.83502421907E+00	-4.61144750700E-01
3.12613693413E+05	-2.11757169685E+01	-1.22455927328E+02	9.43899459948E+00	-1.77272978232E+02	-4.12744264520E+01	1.01062779234E+02	-5.92654342276E+00	-1.89700163771E-01
3.12839656242E+05	-3.18018713300E+01	-1.46191061438E+02	9.46605786437E+00	-1.77454262926E+02	-3.72213940070E+01	1.64319475448E+02	-5.91857715989E+00	-3.43647582904E-01
3.13065782401E+05	-3.54539792175E+01	-8.51875920246E+00	9.41871037955E+00	-1.77693625951E+02	-3.87350289165E+01	3.32824829989E+01	-5.87266015268E+00	-1.11336109736E-01
3.13292072007E+05	-2.83622545734E+01	8.63249927415E+01	9.40239899668E+00	-1.77923051930E+02	-3.59338873567E+01	-1.77125905833E+02	-5.92316305245E+00	-2.11978038430E-01
3.13518525180E+05	-1.69032985187E+01	1.20842687235E+02	9.47767551174E+00	-1.78087570128E+02	-4.10235102336E+01	9.29805326238E+01	-5.89095332729E+00	1.85550578847E-01
3.13745142038E+05	-8.86447053676E+00	-1.32364159583E+02	9.66080105856E+00	-1.76070287461E+02	-3.09591339840E+01	-5.43863883296E+01	-5.77777675256E+00	-1.20159970562E+00
3.13971922698E+05	-3.00066868990E+01	6.16250605938E+00	9.38919349327E+00	-1.77911209138E+02	-4.03076366340E+01	1.18306518153E+02	-5.92258989346E+00	1.38743081061E-01
3.14198867279E+05	-2.80378464847E+01	5.79786841406E+01	9.42328756408E+00	-1.77809672110E+02	-4.05271432759E+01	-1.70927252243E+02	-5.91671242717E+00	-4.16794986692E-01
3.14425975900E+05	-1.90749789068E+01	1.19673254241E+02	9.46655780413E+00	-1.77970404992E+02	-4.40419343276E+01	-1.54303667643E+02	-5.89981800087E+00	-4.60396823078E-01
3.14653248680E+05	-1.46925824575E+01	1.43927375713E+02	9.52186573185E+00	-1.78028776587E+02	-4.21178897571E+01	8.86688554827E+01	-5.87030496365E+00	-1.44807635383E-01
3.14880685736E+05	-3.77182084481E+01	4.37116201565E+01	9.40792809541E+00	-1.77805271451E+02	-4.33196318824E+01	1.41962556663E+02	-5.89846671460E+00	-2.89689258432E-01
3.15108287188E+05	-1.98043422245E+01	1.30142673281E+02	9.41936758941E+00	-1.77996463811E+02	-3.88820749518E+01	9.14902253962E+01	-5.85812837529E+00	7.78623666969E-02
3.15336053154E+05	-1.19304296894E+01	-5.60751285861E+01	9.28386206569E+00	-1.76414818249E+02	-4.45047213142E+01	-6.44783725088E+01	-5.86587734997E+00	-8.55274720560E-01
3.15563983753E+05	-2.12245846659E+01	-1.35465871681E+02	9.41917787288E+00	-1.77594898555E+02	-4.93886574463E+01	-1.54090765295E+02	-5.88298639405E+00	-3.70495371944E-01
3.15792079105E+05	-2.80808695813E+01	-8.30995189456E+01	9.41758853818E+00	-1.77308200616E+02	-4.32921061418E+01	1.70838522108E+02	-5.88547822784E+00	-2.45027385065E-01
3.16020339328E+05	-1.63811855614E+01	-6.24480805596E+01	9.37692519186E+00	-1.77498665103E+02	-4.40235785860E+01	-1.85568506121E+01	-5.83602690511E+00	-3.95102789969E-01
3.16248764542E+05	-1.67626554024E+01	-7.15217499405E+01	9.40543747530E+00	-1.77215833377E+02	-4.04558536503E+01	1.48997837743E+02	-5.90835328069E+00	-6.98501369789E-02
3.16477354866E+05	-1.78983948020E+01	-1.75143970411E+02	9.57924271579E+00	-1.77740904500E+02	-4.09254810823E+01	4.10003821492E+01	-5.90462988743E+00	-2.73563805103E-01
3.16706110419E+05	-1.97442874571E+01	-1.56880529241E+02	9.42842736855E+00	-1.77864041999E+02	-3.09314926315E+01	-8.97173750523E+01	-5.91365585780E+00	-8.32557496791E-01
3.16935031321E+05	-1.12100583759E+01	5.43315608687E+01	9.29846304514E+00	-1.79163519692E+02	-2.67850423480E+01	-9.31475804887E+01	-5.90797244562E+00	-1.49100647375E+00
3.17164117691E+05	-2.03223485850E+01	1.68826121791E+02	9.47506532713E+00	-1.77928390024E+02	-3.41374168504E+01	-1.39090096110E+02	-5.91417102140E+00	-5.28094429693E-01
3.17393369648E+05	-1.98053945902E+01	-5.05152464726E+01	9.41343199797E+00	-1.77148920877E+02	-3.47502685375E+01	-5.98931662789E+01	-5.86699715210E+00	-6.81987020130E-01
3.17622787313E+05	-3.23256814476E+01	7.32743275496E+00	9.40490521802E+00	-1.77789951492E+02	-3.81571850055E+01	8.72088494931E+01	-5.85514069384E+00	-9.07260717324E-02
3.17852370806E+05	-1.92702104832E+01	-1.69587230122E+02	9.43331795905E+00	-1.77894813939E+02	-3.44446620847E+01	9.91633092205E+01	-5.89619807968E+00	2.61946705781E-01
3.18082120245E+05	-1.88494507116E+01	-2.86689321575E+01	9.39266107651E+00	-1.77800155602E+02	-3.56934486770E+01	3.64446015865E+01	-5.81380283123E+00	2.95509615488E-02
3.18312035752E+05	-2.29388996490E+01	-1.70912510074E+02	9.44009247548E+00	-1.78130686961E+02	-4.47343929184E+01	-1.08569428223E+02	-5.90435948957E+00	-3.50637060420E-01
3.18542117445E+05	-2.01611296396E+01	-3.56472781890E+01	9.33189027464E+00	-1.77404890009E+02	-4.42733157505E+01	1.34989093931E+02	-5.86714769185E+00	7.27941492509E-02
3.18772365446E+05	-2.90605760436E+01	-4.28912656721E+01	9.35027021641E+00	-1.77727776195E+02	-6.30331698484E+01	1.21351584803E+02	-5.87032144679E+00	-2.46359207484E-01
3.19002779874E+05	-2.31769098212E+01	7.93509235580E+01	9.44146919621E+00	-1.78295763040E+02	-5.62825187122E+01	5.47433526913E+01	-5.91401516366E+00	-3.89682468331E-01
3.19233360850E+05	-1.47857746972E+01	1.08660566593E+02	9.44380961437E+00	-1.78463378803E+02	-4.07648858990E+01	1.04584045648E+02	-5.89018045891E+00	-1.01336523637E-03
3.19464108494E+05	-1.94775761758E+01	-1.16582593673E+02	9.43537531831E+00	-1.77281481756E+02	-3.70111436564E+01	1.33203368796E+02	-5.89242668344E+00	7.46960982428E-02
3.19695022927E+05	-2.35593901805E+01	7.32599298882E+01	9.39197040682E+00	-1.77809016522E+02	-3.68960439905E+01	1.74288823800E+02	-5.93242596543E+00	-3.67651294857E-01
3.19926104268E+05	-2.94295427564E+01	-1.55142202315E+02	9.47682822620E+00	-1.77828207474E+02	-3.63101739238E+01	-2.88292812431E+01	-5.84324323456E+00	-8.38101511233E-01
3.20157352640E+05	-1.77295758779E+01	1.61125220958E+02	9.49848544500E+00	-1.78231697753E+02	-3.14366384620E+01	-1.26344200220E+01	-5.80408560237E+00	-4.59222822744E-01
3.20388768162E+05	-1.40291321874E+01	1.12686127194E+02	9.51184383693E+00	-1.78453597790E+02	-3.76930772551E+01	-1.51264193590E+02	-5.95487573939E+00	-3.22630393795E-01
3.20620350955E+05	-1.86957103416E+01	1.33732174534E+02	9.50163167690E+00	-1.78039798313E+02	-3.95143597695E+01	-1.57461091181E+02	-5.92076963043E+00	-5.54634323019E-01
3.20852101140E+05	-3.62921950860E+01	1.62119272772E+02	9.44123557449E+00	-1.77705804000E+02	-4.68729186861E+01	-1.08543512607E+02	-5.87363865545E+00	-3.60502660433E-01
3.21084018839E+05	-1.62421510360E+01	-8.70084520899E+01	9.40934832906E+00	-1.77069150243E+02	-4.09479271325E+01	1.18822163969E+02	-5.91029051831E+00	-1.05156187452E-02
3.21316104172E+05	-1.88591468184E+01	1.75526546324E+02	9.42278241586E+00	-1.78323529837E+02	-3.72316481239E+01	-1.69350013106E+02	-5.94424820348E+00	-2.66915833486E-01
3.21548357261E+05	-3.25246003692E+01	-9.56340465586E+01	9.41155796365E+00	-1.77982981486E+02	-3.89333296229E+01	-4.36216187692E+01	-5.86938260774E+00	-3.40097423662E-01
3.21780778226E+05	-2.64597880647E+01	-5.33980041809E+01	9.42187764533E+00	-1.77854531728E+02	-3.86948846802E+01	1.31583567997E+02	-5.94530827631E+00	-4.94359188898E-02
3.22013367189E+05	-1.90819851088E+01	5.33468491445E-01	9.38078534218E+00	-1.77673541737E+02	-3.63860707845E+01	-1.23657949027E+02	-5.88762612551E+00	-5.18750386505E-01
3.22246124272E+05	-2.58278194553E+01	7.68583252758E+01	9.35185638241E+00	-1.78302634219E+02	-3.70919704074E+01	1.25829400744E+01	-5.85976628868E+00	-3.85910715935E-01
3.22479049596E+05	-2.10057191072E+01	-9.91096385795E+01	9.40283093699E+00	-1.77616161636E+02	-3.49086453438E+01	8.68396292295E-01	-5.81511679355E+00	-2.59955159567E-01
3.22712143282E+05	-2.12045930319E+01	-9.47556524114E+01	9.41105587894E+00	-1.77688999787E+02	-3.97595166903E+01	-1.97425611766E+01	-5.88786767555E+00	-2.31518830019E-01
3.22945405453E+05	-2.39818223023E+01	1.49006696299E+02	9.44466428073E+00	-1.78011598548E+02	-5.18009844896E+01	4.55572436933E+01	-5.91228777742E+00	-2.18308083954E-01
3.23178836230E+05	-2.93971383364E+01	-1.28319323759E+02	9.38179800762E+00	-1.77620825946E+02	-4.10665450655E+01	-1.18719376688E+02	-5.90952754289E+00	-3.94639049071E-01
3.23412435735E+05	-2.56005833495E+01	-1.89415104348E+01	9.29140927831E+00	-1.77865753634E+02	-4.03616090892E+01	4.73839179359E+01	-5.85441663698E+00	5.26572991570E-02
3.23646204090E+05	-2.21334373427E+01	-6.57731784509E+01	9.38218313145E+00	-1.77718796585E+02	-3.70115618793E+01	-6.20902918866E+01	-5.85662258405E+00	-7.10924484779E-01
3.23880141417E+05	-1.95633148730E+01	1.05384856139E+02	9.44131834006E+00	-1.77672519271E+02	-5.70222825268E+01	6.86134930433E+01	-5.92299079689E+00	-1.43272442430E-01
3.24114247838E+05	-1.79685403477E+01	-9.55948102810E+01	9.42109652945E+00	-1.77430740061E+02	-3.92533391268E+01	-6.16557376852E+01	-5.84020534150E+00	-5.06726044955E-01
3.24348523475E+05	-1.86530170546E+01	-1.95393089552E+01	9.30913218727E+00	-1.77988835122E+02	-4.67310350710E+01	-3.13437793041E+01	-5.86498279722E+00	-3.73105240254E-01
3.24582968451E+05	-2.83595766742E+01	1.06975431683E+02	9.41983785991E+00	-1.78239275696E+02	-4.70020890801E+01	-1.04331718978E+02	-5.86939227381E+00	-9.79917311198E-02
3.24817582888E+05	-3.37586383887E+01	3.10894490537E+01	9.38928594389E+00	-1.78108743539E+02	-3.98017891559E+01	1.24277362613E+02	-5.93679796789E+00	-6.56454734403E-03
3.25052366909E+05	-1.97118807837E+01	1.56724207441E+02	9.49042527111E+00	-1.77962637002E+02	-3.79878621279E+01	1.55849971633E+02	-5.90180164506E+00	-9.61654664139E-02
3.25287320635E+05	-2.64138374499E+01	-5.50639101735E+00	9.40760072403E+00	-1.77716641124E+02	-3.96226407081E+01	-2.46683743103E+01	-5.82939738403E+00	-1.37438862697E-01
3.25522444191E+05	-2.11925048612E+01	1.71805562692E+02	9.39835352322E+00	-1.77859609132E+02	-4.70094830653E+01	-1.77078411076E+02	-5.89664544773E+00	-2.43695689708E-01
3.25757737698E+05	-1.89706661545E+01	1.71612393750E+02	9.47937011093E+00	-1.78174323552E+02	-4.65833745364E+01	4.11929543518E+01	-5.88967511029E+00	-7.33319759046E-02
3.25993201280E+05	-1.91341281928E+01	-1.75355130136E+02	9.46564203910E+00	-1.77801531907E+02	-4.39368119885E+01	1.16271606195E+01	-5.82967077748E+00	-6.01195839330E-01
3.26228835058E+05	-2.89605641236E+01	-6.28218959863E+01	9.41915749289E+00	-1.77693102609E+02	-4.21016184691E+01	-5.38381618065E+00	-5.85373788101E+00	-1.93706019058E-01
