# Hz S DB R 50
! CMT, M5065, 19127446, 24.2.4/2
! Date: 11/1/2024 4:15:34 PM
! Data: Format (Calibration Info)
! Freq	S11:dB/Ang(F2)	S21:dB/Ang(F2)	S12:dB/Ang(F2)	S22:dB/Ang(F2)
3.00000000000E+05	-9.27688251044E+00	1.33848522926E+02	5.01177943659E+00	-1.79493510723E+02	-3.76724416673E+01	-8.25011867603E+01	-5.91016500848E+00	-2.36567476196E-01
3.00216845423E+05	-2.64078029495E+01	8.30846675067E+01	4.70730763421E+00	-1.77851628917E+02	-4.89682818334E+01	9.87087023463E+01	-5.89570879757E+00	-4.08335349129E-01
3.00433847586E+05	-1.85181055923E+01	1.60791582778E+02	4.87050777666E+00	-1.77553838953E+02	-2.78424169941E+01	-1.70903215196E+02	-6.01423671431E+00	-6.44171737582E-01
3.00651006602E+05	-2.42019089812E+01	-3.49890582244E+00	4.71134930416E+00	-1.77826599223E+02	-4.43204747786E+01	9.42381761135E+01	-5.87376510185E+00	-1.49343536221E-01
3.00868322584E+05	-1.96708809636E+01	-4.19919539137E+01	4.73853350379E+00	-1.77645708426E+02	-4.11120059222E+01	-7.39032770393E+01	-5.88288022838E+00	-3.24422462279E-01
3.01085795647E+05	-3.50696295639E+01	1.70118531122E+02	4.73257424992E+00	-1.77513782828E+02	-3.73037350957E+01	1.45431658539E+02	-5.92374367543E+00	-1.83745057895E-01
3.01303425902E+05	-1.42654841591E+01	3.46360154330E+01	4.69801423982E+00	-1.77419171626E+02	-5.29023068705E+01	1.58777945647E+02	-5.87961312261E+00	-3.39411537710E-01
3.01521213465E+05	-2.25460753931E+01	1.35078218967E+02	4.86660497480E+00	-1.78054573188E+02	-3.22616414746E+01	-4.68990496993E+01	-5.81628565529E+00	-2.51152440976E-01
3.01739158449E+05	-1.83625515107E+01	1.63205371522E+02	4.98435950984E+00	-1.77532729709E+02	-3.49834412632E+01	-1.21920544364E+02	-5.89296321531E+00	-4.93877885322E-01
3.01957260967E+05	-2.03220872008E+01	-1.57589298861E+02	4.78535422419E+00	-1.77920663304E+02	-3.91546494153E+01	-1.24899354231E+02	-5.91545951038E+00	-2.03680229863E-01
3.02175521134E+05	-1.90757592897E+01	-2.61013417221E+01	4.72726544835E+00	-1.77496712392E+02	-3.67961515957E+01	9.52002395178E+01	-5.91389684699E+00	-5.21565770577E-02
3.02393939063E+05	-2.71289070669E+01	4.30631118896E+01	4.78265913369E+00	-1.78114427251E+02	-4.49689806916E+01	-7.06386607268E+01	-5.89120892757E+00	-1.16839585071E-01
3.02612514869E+05	-1.62457846647E+01	1.74890215347E+02	4.93652838837E+00	-1.77708940821E+02	-3.65519875250E+01	2.01117613618E+01	-5.91250128682E+00	-2.79011460522E-01
3.02831248665E+05	-2.04404710222E+01	-1.07822881565E+02	4.83912353191E+00	-1.77546144810E+02	-3.63368751266E+01	-9.71249731084E+01	-5.88239148524E+00	-3.00927170815E-01
3.03050140565E+05	-1.35233576660E+01	1.10183336154E+02	4.78095859236E+00	-1.79161169766E+02	-4.73864866178E+01	-7.23065465213E+01	-5.87299202507E+00	-3.82676415226E-01
3.03269190685E+05	-1.79831927939E+01	4.69625490204E+01	4.72224044862E+00	-1.78252260057E+02	-3.39994390067E+01	-3.09107832069E+01	-5.86548436227E+00	-4.22011814321E-01
3.03488399138E+05	-1.90610587863E+01	1.12945012674E+01	4.72762420055E+00	-1.78012090903E+02	-4.64848860009E+01	1.31219849772E+02	-5.92444804981E+00	2.56066322700E-01
3.03707766039E+05	-1.92853614779E+01	1.00050376115E+02	4.73450969443E+00	-1.78431846114E+02	-3.55966155477E+01	-4.63692027974E+01	-5.85173248996E+00	-5.01754877355E-01
3.03927291503E+05	-2.05968409459E+01	2.67953198541E+01	4.73412047652E+00	-1.78227452170E+02	-4.71325610066E+01	-8.46958471022E+01	-5.88872505464E+00	-2.12358446655E-01
3.04146975643E+05	-2.82754172818E+01	-1.32230653072E+02	4.78564697023E+00	-1.77914487805E+02	-4.17886878687E+01	1.78167449759E+01	-5.88472539566E+00	-1.15027874522E-01
3.04366818575E+05	-2.18265139363E+01	1.31452727817E+02	4.86905201232E+00	-1.78217067944E+02	-4.05106736423E+01	1.63598878084E+02	-5.89911894630E+00	-3.30797629022E-01
3.04586820414E+05	-2.91862175300E+01	3.39096335165E+01	4.79482285794E+00	-1.77869107450E+02	-5.53434279576E+01	-1.37404081665E+01	-5.92288699639E+00	-3.64142508527E-01
3.04806981274E+05	-9.34342127747E+00	2.11569525947E+01	4.52843164612E+00	-1.78906877007E+02	-3.87216884679E+01	4.78009426260E+01	-5.92144026379E+00	-4.77977816359E-02
3.05027301270E+05	-2.21798139492E+01	1.30862305274E+02	4.78008867591E+00	-1.78537857254E+02	-3.80553360938E+01	-1.48583631231E+02	-5.91595958784E+00	-1.96528959641E-01
3.05247780517E+05	-1.70699455578E+01	5.76201542790E+01	4.79664881240E+00	-1.78314089693E+02	-3.08114401939E+01	7.94102228598E+01	-5.87316144946E+00	3.73385280242E-01
3.05468419131E+05	-2.47412882924E+01	5.22185958665E+01	4.67009326277E+00	-1.78177051479E+02	-3.62182636432E+01	3.25268615708E+01	-5.87274003024E+00	6.21471208665E-02
3.05689217226E+05	-1.95499923842E+01	1.07950522234E+02	4.74831448536E+00	-1.78444730196E+02	-4.47130448827E+01	-4.20833690180E+01	-5.89410262348E+00	-1.53311179705E-01
3.05910174918E+05	-1.46928096219E+01	-1.19943167745E+02	4.77857353555E+00	-1.77312956557E+02	-4.45829062211E+01	1.63628896467E+02	-5.91834341070E+00	-3.05765724600E-01
3.06131292322E+05	-1.68805115105E+01	3.98140729791E+01	4.70301256040E+00	-1.77908778854E+02	-4.22752553469E+01	8.01677052295E+01	-5.85890916387E+00	1.52534965516E-02
3.06352569554E+05	-8.90373053800E+00	1.13467246914E+02	4.83372311073E+00	1.79698331029E+02	-4.17888942857E+01	-9.03981368675E+01	-5.86072882188E+00	-1.43121513420E-01
3.06574006730E+05	-2.66292696119E+01	1.42564077969E+02	4.81756764726E+00	-1.77870455333E+02	-2.65043571747E+01	1.70364915958E+02	-6.02968839224E+00	-4.37004537586E-01
3.06795603964E+05	-2.66427780160E+01	-7.97570789152E+01	4.74154323297E+00	-1.77316676936E+02	-3.84350942744E+01	8.42221807303E+01	-5.87558488258E+00	-2.83755453151E-01
3.07017361372E+05	-2.79682384580E+01	1.14163253960E+02	4.73836617298E+00	-1.77580785997E+02	-5.25522195630E+01	6.24845972882E+01	-5.85933995348E+00	-3.92171870744E-01
3.07239279071E+05	-2.18778626740E+01	1.69090216895E+02	4.82405388408E+00	-1.78038414291E+02	-3.85219810617E+01	3.22738648515E+01	-5.87536849948E+00	-2.23388579650E-01
3.07461357176E+05	-3.34172760854E+01	-8.03537878780E+00	4.79614450700E+00	-1.77637127351E+02	-5.44546074687E+01	7.32908452349E+01	-5.84666087100E+00	-2.22525059559E-01
3.07683595803E+05	-2.51639783275E+01	-1.78841582837E+02	4.74014027846E+00	-1.77397148170E+02	-3.29743262889E+01	-6.48803302997E+00	-5.87359265031E+00	-5.17452563514E-01
3.07905995068E+05	-1.75806991485E+01	-1.59373639287E+00	4.62917858300E+00	-1.77901652834E+02	-3.98982344579E+01	1.07449059919E+02	-5.87907482145E+00	-8.26889161471E-02
3.08128555087E+05	-2.07162313159E+01	3.33193710014E+01	4.72012305076E+00	-1.77837707697E+02	-4.26682054512E+01	-1.01648929960E+02	-5.89566026576E+00	-4.79693747639E-01
3.08351275976E+05	-2.15597203225E+01	1.50156824948E+02	4.80709404966E+00	-1.77770663232E+02	-3.81306804390E+01	-1.37990403264E+02	-5.90823652628E+00	-5.03969404019E-01
3.08574157853E+05	-2.73965670374E+01	1.50558708792E+02	4.84601701828E+00	-1.77867003858E+02	-3.50613441678E+01	-1.22989179705E+02	-5.91620237125E+00	-1.93215752238E-01
3.08797200832E+05	-2.22861486092E+01	9.90971779851E+01	4.76373353010E+00	-1.77883927401E+02	-5.28398643693E+01	1.43052042568E+02	-5.91902989109E+00	-1.69057167419E-01
3.09020405031E+05	-2.09765037025E+01	-3.81127615318E+01	4.72289527186E+00	-1.77992316862E+02	-4.86836661859E+01	6.04487892961E+01	-5.87698477891E+00	-1.62154058523E-02
3.09243770566E+05	-1.30860530491E+01	8.37874793591E+01	4.74232677033E+00	-1.79360371041E+02	-3.33599245635E+01	1.70699884232E+00	-5.80650763225E+00	-3.12411693964E-01
3.09467297553E+05	-7.29762693712E+00	4.51589660180E+01	4.53860871380E+00	-1.79144686989E+02	-4.28164899867E+01	-1.59976084458E+02	-5.96534941622E+00	-1.73690413959E-01
3.09690986110E+05	-2.28208661275E+01	-2.77052661495E+01	4.72831416764E+00	-1.77657551538E+02	-3.66841203485E+01	1.03055769172E+02	-5.87909441501E+00	-1.30289220728E-01
3.09914836353E+05	-2.45274527950E+01	2.43073428072E+01	4.80367731072E+00	-1.77411021139E+02	-2.93176786861E+01	1.54322515590E+02	-5.93827548819E+00	-2.15046478649E-01
3.10138848399E+05	-1.96518320111E+01	9.91636726559E+01	4.74900991867E+00	-1.78249011486E+02	-3.96862450685E+01	-4.23262078540E+00	-5.85934427814E+00	-3.79505286274E-01
3.10363022365E+05	-2.29615521037E+01	3.08005093286E+01	4.70503772110E+00	-1.77291619856E+02	-4.41811367682E+01	1.21818839645E+02	-5.87922947470E+00	-2.67536383216E-01
3.10587358368E+05	-1.47208974138E+01	1.12209681697E+02	4.72517946224E+00	-1.78749122381E+02	-3.28844539612E+01	-3.16470167664E+01	-5.82032577059E+00	-4.12674768763E-01
3.10811856525E+05	-2.60637721271E+01	-1.76582209140E+02	4.81227414403E+00	-1.78287109659E+02	-3.74841571384E+01	1.78341363332E+02	-5.88669788600E+00	-2.95338219876E-01
3.11036516954E+05	-1.30432086513E+01	-1.59232451863E+02	4.96032769024E+00	-1.77426352585E+02	-3.45182368972E+01	2.50920589313E+01	-5.83757070911E+00	1.27980858931E-01
3.11261339771E+05	-1.32227606883E+01	1.57539890582E+02	4.91485396660E+00	-1.77912819908E+02	-3.81234885572E+01	-8.28884888694E+01	-5.88073688807E+00	-4.60048278095E-01
3.11486325094E+05	-2.18984563303E+01	-7.05049994860E+01	4.75516937803E+00	-1.77183041756E+02	-4.17888408688E+01	1.76664219772E+02	-5.91020752886E+00	1.33425335606E-01
3.11711473040E+05	-1.48628656092E+01	9.11475517875E+01	4.83052753915E+00	-1.78675799356E+02	-4.15143106732E+01	1.69026069501E+02	-5.87708584197E+00	-3.63757677839E-01
3.11936783728E+05	-1.42805699686E+01	7.25521837427E+01	4.66673348200E+00	-1.78422887019E+02	-4.49463331833E+01	1.22189759571E+02	-5.86142167977E+00	-8.71064520911E-02
3.12162257274E+05	-2.71551076715E+01	-9.23274057533E+01	4.81546056758E+00	-1.77625765567E+02	-3.84256296492E+01	-1.77168160362E+02	-5.91145406136E+00	-1.60362365431E-01
3.12387893797E+05	-2.10007446388E+01	1.46870371015E+02	4.78118036172E+00	-1.77765710792E+02	-4.26198819792E+01	-5.14915993150E+01	-5.95324040673E+00	-3.32037927009E-01
3.12613693413E+05	-2.06138283147E+01	-9.67934039871E+01	4.83048011892E+00	-1.77418118887E+02	-3.25901445378E+01	1.30138710133E+02	-5.91266778886E+00	4.82093728128E-02
3.12839656242E+05	-1.49084280004E+01	-6.91591625262E+01	4.79088398050E+00	-1.77001569092E+02	-3.34345934179E+01	1.45821458126E+02	-5.93036284911E+00	-8.04868836965E-02
3.13065782401E+05	-1.77040550801E+01	1.02871876122E+02	4.77374615910E+00	-1.78409861541E+02	-3.67898735248E+01	-1.14310499671E+02	-5.93506889713E+00	-6.49655050968E-01
3.13292072007E+05	-1.90494560246E+01	-8.38400742737E+01	4.74621714386E+00	-1.77732338983E+02	-3.74946884381E+01	-1.72252860343E+01	-5.85594321758E+00	-2.25125596914E-01
3.13518525180E+05	-2.53403016848E+01	1.01896907121E+02	4.75819633438E+00	-1.78068043534E+02	-4.66683563980E+01	4.33729518549E+00	-5.85276453710E+00	-4.32165226358E-01
3.13745142038E+05	-1.88137944039E+01	3.54542364060E+01	4.78400823808E+00	-1.78392017523E+02	-3.96536345432E+01	1.42032941997E+02	-5.90128807257E+00	2.14588467363E-02
3.13971922698E+05	-2.34912420593E+01	1.19481284302E+01	4.65550774607E+00	-1.77842904979E+02	-4.66387040172E+01	1.07462941449E+02	-5.89279856160E+00	-4.15442165581E-01
3.14198867279E+05	-9.96669625020E+00	1.66821532829E+02	4.97480900130E+00	-1.78160420462E+02	-4.33117260117E+01	-1.00583728065E+02	-5.89752199034E+00	-3.67601961348E-01
3.14425975900E+05	-1.86383787209E+01	1.23662193020E+02	4.73940771899E+00	-1.78288011968E+02	-3.83172146860E+01	1.61882712664E+02	-5.90788867305E+00	-2.14377615955E-01
3.14653248680E+05	-2.32145598186E+01	1.42097894515E+02	4.83871622955E+00	-1.78181344224E+02	-2.97080581477E+01	-1.56918678621E+02	-5.95031015305E+00	-2.94355941511E-01
3.14880685736E+05	-1.97481041943E+01	8.94929392554E+01	4.78186793214E+00	-1.77821253195E+02	-3.86258546860E+01	1.34692451384E+02	-5.96206969838E+00	-9.66649841490E-02
3.15108287188E+05	-2.77086762751E+01	1.24381319012E+02	4.75659698667E+00	-1.77576604507E+02	-3.66081391575E+01	2.06968591007E+01	-5.87806369387E+00	-1.40835080634E-02
3.15336053154E+05	-2.17500815745E+01	1.17009540421E+02	4.83806626667E+00	-1.78206986534E+02	-4.51373653610E+01	-1.66743956885E+02	-5.90741437286E+00	-3.61841679965E-01
3.15563983753E+05	-2.04197763783E+01	-1.08747660469E+01	4.68290474764E+00	-1.77337864453E+02	-4.72206709458E+01	1.75684953674E+02	-5.93263404489E+00	-2.22023269726E-01
3.15792079105E+05	-1.97952144166E+01	6.37021518818E+01	4.85432179507E+00	-1.78398097243E+02	-4.14073119510E+01	-7.68946883281E+00	-5.90913970004E+00	-5.01872986539E-01
3.16020339328E+05	-3.00894114565E+01	-7.94855067499E+01	4.84815393127E+00	-1.77242949072E+02	-3.40748728354E+01	1.22730685293E+01	-5.89714291193E+00	-1.32765053821E-01
3.16248764542E+05	-2.26290768611E+01	-2.06242950529E+01	4.72270990425E+00	-1.77615480143E+02	-4.13718676828E+01	2.47916779367E+01	-5.87682790622E+00	-9.88934136816E-02
3.16477354866E+05	-1.69313129623E+01	-1.54452760367E+02	4.79583872113E+00	-1.77703589261E+02	-4.23437962170E+01	-1.12239574045E+02	-5.92887583189E+00	-2.55532357504E-01
3.16706110419E+05	-1.63097070015E+01	1.25523491066E+02	4.84783863103E+00	-1.78176568854E+02	-3.89483643945E+01	2.09989347346E+01	-5.85216097452E+00	-3.55796210535E-02
3.16935031321E+05	-2.19567352465E+01	8.66518040832E+01	4.76834881481E+00	-1.78059209005E+02	-4.22356720106E+01	1.52223375177E+02	-5.88889348929E+00	-4.42242769460E-01
3.17164117691E+05	-1.76467289675E+01	7.21185212450E+01	4.67937371380E+00	-1.78557115102E+02	-3.48747766602E+01	-4.46272360518E+01	-5.83633815205E+00	-5.16527047175E-01
3.17393369648E+05	-3.22558188804E+01	1.02284316641E+01	4.71985892346E+00	-1.78467548366E+02	-3.41908169139E+01	-8.21767570983E+00	-5.84695348890E+00	-2.05220786229E-01
3.17622787313E+05	-1.25220628850E+01	5.99186052778E+01	4.71982432482E+00	-1.79259802842E+02	-5.00271328379E+01	-3.01595516523E+01	-5.87145105721E+00	-2.23088216130E-01
3.17852370806E+05	-1.66876948249E+01	-7.46809364858E+01	4.77606637527E+00	-1.77235065526E+02	-3.39508949605E+01	-1.23569531962E+02	-5.95153830699E+00	-3.69881139513E-01
3.18082120245E+05	-1.61790025035E+01	-8.66738378036E+00	4.64504830019E+00	-1.78030088910E+02	-4.24657223098E+01	3.89700263595E+01	-5.84337370205E+00	4.90953010537E-02
3.18312035752E+05	-2.65866389492E+01	1.59600741392E+02	4.77760302159E+00	-1.78407371036E+02	-4.31478100686E+01	2.70266426046E-01	-5.89351112027E+00	-3.65048644610E-01
3.18542117445E+05	-2.43739851068E+01	1.17889770066E+02	4.75609783758E+00	-1.77678063819E+02	-4.04136862962E+01	2.10227060428E+01	-5.87703551906E+00	-2.26573476229E-01
3.18772365446E+05	-2.49879272917E+01	-9.16343584348E+01	4.71832446529E+00	-1.77590394822E+02	-4.51175239017E+01	-3.46785241892E+01	-5.91070142715E+00	-1.83384487695E-01
3.19002779874E+05	-2.50022710648E+01	-8.20493316363E+01	4.79899791701E+00	-1.77738185778E+02	-4.97921168786E+01	2.75822509608E+01	-5.84696318475E+00	-3.23800825994E-01
3.19233360850E+05	-1.83908839871E+01	-2.76425169581E+01	4.70293426671E+00	-1.77456733665E+02	-4.35732867671E+01	-8.44407503229E+00	-5.88841363063E+00	-6.05139619537E-01
3.19464108494E+05	-1.31655218582E+01	1.76057832412E+02	4.91285789885E+00	-1.78168488726E+02	-3.75685979899E+01	-1.10895950050E+01	-5.85901924653E+00	-1.67678511624E-01
3.19695022927E+05	-2.22897338187E+01	-1.83028960043E+01	4.77079772980E+00	-1.77716771912E+02	-3.19613160317E+01	-1.71029378052E+02	-5.96680800525E+00	-3.78648344705E-01
3.19926104268E+05	-2.34859927509E+01	1.36842278007E+02	4.71474324634E+00	-1.77792892479E+02	-4.24909512258E+01	-1.76990729226E+02	-5.94018128376E+00	-3.78910063093E-01
3.20157352640E+05	-2.45886350380E+01	-1.49601469006E+02	4.84091837239E+00	-1.77879758880E+02	-5.26555330187E+01	-1.68087756056E+02	-5.90090966480E+00	-4.62832954955E-01
3.20388768162E+05	-2.02070102945E+01	1.65903091870E+02	4.72505908836E+00	-1.78064002960E+02	-3.63324959967E+01	1.35009777614E+01	-5.82417328746E+00	-4.30884920825E-01
3.20620350955E+05	-1.49789108067E+01	-1.70893070999E+01	4.68953499034E+00	-1.77697607655E+02	-3.95888803120E+01	-4.53001138992E+01	-5.83775741141E+00	-3.72871570122E-01
3.20852101140E+05	-1.08105126202E+01	-6.85983181788E+01	4.73569805944E+00	-1.76176239253E+02	-3.51630745066E+01	3.55399030701E+01	-5.86577174523E+00	-1.27150465029E-02
3.21084018839E+05	-1.68625097482E+01	9.92057871708E+01	4.79671240386E+00	-1.78340491040E+02	-3.18498373148E+01	-3.10281124900E+00	-5.83705998583E+00	-1.48167277666E-01
3.21316104172E+05	-2.84116316277E+01	7.95618053584E-01	4.72038050770E+00	-1.77933108424E+02	-3.64595958545E+01	-1.34356869559E+02	-5.91948306231E+00	-4.34760175829E-01
3.21548357261E+05	-1.65028945546E+01	1.40202830545E+02	4.84261932536E+00	-1.78382690454E+02	-3.92484211040E+01	7.38546446547E+01	-5.88387810342E+00	-4.00078786252E-01
3.21780778226E+05	-1.98218175422E+01	3.24994845114E+01	4.69224580214E+00	-1.77961717880E+02	-3.97643780436E+01	9.31995838633E+01	-5.89589304577E+00	-3.22154075338E-01
3.22013367189E+05	-1.77669647966E+01	-1.13510748752E+02	4.79822347053E+00	-1.77450901534E+02	-3.59317661333E+01	-1.30255112059E+02	-5.90367160378E+00	-5.20732373158E-01
3.22246124272E+05	-1.56979525710E+01	7.81852556755E+01	4.79397664655E+00	-1.78704053709E+02	-3.93765002912E+01	-1.75679115502E+02	-5.88967803686E+00	-2.96108400573E-01
3.22479049596E+05	-1.50957579264E+01	-1.16698729859E+01	4.69763787463E+00	-1.77714097316E+02	-4.19724186633E+01	1.72571315660E+01	-5.84819993167E+00	-1.75069628519E-01
3.22712143282E+05	-1.97374059438E+01	-9.75468218162E+00	4.66846368865E+00	-1.77643631230E+02	-3.64944079618E+01	-1.21528723751E+02	-5.97481633700E+00	-6.67575355005E-01
3.22945405453E+05	-1.99645911232E+01	-3.65794173094E+01	4.66768768580E+00	-1.78567530731E+02	-3.67570085942E+01	1.09854533226E+02	-5.91356169684E+00	4.47489384352E-04
3.23178836230E+05	-1.54597527745E+01	-1.75667835847E+02	4.81227459480E+00	-1.77996149533E+02	-5.48019308109E+01	6.41636848962E+01	-5.87043661683E+00	-1.36329663740E-01
3.23412435735E+05	-2.48899814911E+01	-7.99360773000E+00	4.79176017105E+00	-1.77332885362E+02	-4.48982018442E+01	-5.75306887491E+01	-5.90862145014E+00	-3.05694155532E-01
3.23646204090E+05	-1.72021432492E+01	6.94883926954E+00	4.63779795006E+00	-1.77552939558E+02	-4.69342138794E+01	5.29206203243E+01	-5.91613628583E+00	-1.47439590268E-01
3.23880141417E+05	-1.07002430603E+01	9.09229599035E+01	4.74215475081E+00	-1.79324736942E+02	-4.61730783162E+01	5.30073538456E+01	-5.88853239113E+00	-2.52346245926E-01
3.24114247838E+05	-1.95631915565E+01	-8.64944310084E+01	4.78703042099E+00	-1.77490112107E+02	-4.72700881143E+01	-4.13925633894E+01	-5.89636655693E+00	-1.79928749025E-01
3.24348523475E+05	-3.26538582248E+01	5.11142271727E+01	4.73646853132E+00	-1.77789549764E+02	-3.69930701516E+01	1.58691938712E+02	-5.92617649083E+00	-3.53902362731E-01
3.24582968451E+05	-2.24850279050E+01	-1.16894344749E+02	4.80316963668E+00	-1.78081327561E+02	-3.57317465385E+01	1.36226481413E+02	-5.86398887761E+00	-3.65968622517E-01
3.24817582888E+05	-2.13544313217E+01	-1.05618247457E+02	4.83745083042E+00	-1.77926925005E+02	-3.87267983570E+01	-5.44562369827E+01	-5.92670929346E+00	-6.53376546915E-01
3.25052366909E+05	-2.22590853303E+01	-1.16916482917E+02	4.77456730271E+00	-1.77625057865E+02	-4.94724163847E+01	3.77039543664E+01	-5.87206958285E+00	-5.14483056201E-01
3.25287320635E+05	-2.76472384310E+01	-3.66941586362E+01	4.70643471157E+00	-1.78056093734E+02	-4.21884389682E+01	4.12034917192E+01	-5.86647044158E+00	-2.57087790644E-01
3.25522444191E+05	-1.92214160769E+01	-5.56971084207E+01	4.65902547848E+00	-1.77146863881E+02	-3.94982541409E+01	-1.59552574035E+02	-5.93008829542E+00	-2.43092369574E-01
3.25757737698E+05	-2.94085748349E+01	1.36562309649E+02	4.86806504433E+00	-1.78165393363E+02	-3.72998834767E+01	-6.55706809808E+01	-5.88703145811E+00	-2.62546274042E-01
3.25993201280E+05	-2.32727714622E+01	-8.14213658309E+01	4.76007508454E+00	-1.77760011928E+02	-3.30756573480E+01	7.45691247811E+01	-5.88328832984E+00	1.68321205112E-01
3.26228835058E+05	-2.37123840002E+01	1.71176619884E+02	4.88043562134E+00	-1.78054339631E+02	-5.19291117754E+01	1.46505087389E+02	-5.89015830752E+00	-2.23217802261E-01
