# Hz S DB R 50
! CMT, M5065, 19127446, 24.2.4/2
! Date: 11/1/2024 4:42:39 PM
! Data: Format (Calibration Info)
! Freq	S11:dB/Ang(F2)	S21:dB/Ang(F2)	S12:dB/Ang(F2)	S22:dB/Ang(F2)
3.00000000000E+05	-2.38728434010E+01	1.13181460613E+02	1.54021178669E+01	-1.76812903430E+02	-3.70060159065E+01	3.27355607741E+01	-5.79472411901E+00	2.81512181481E-01
3.00216845423E+05	-2.35939074087E+01	7.03239360631E+00	1.53587810574E+01	-1.76977256179E+02	-5.34198696544E+01	-2.15894353716E+01	-5.85341055836E+00	-3.83470275441E-01
3.00433847586E+05	-2.27984011536E+01	1.78297947019E+02	1.54394586905E+01	-1.76986401100E+02	-5.08128693239E+01	-8.29737040327E+01	-5.86466177723E+00	-2.20290169033E-01
3.00651006602E+05	-2.11374968328E+01	4.25555867619E+01	1.53578174409E+01	-1.77297160267E+02	-3.80076125519E+01	4.33503797470E+01	-5.86673260787E+00	-8.48804991748E-03
3.00868322584E+05	-2.63613353069E+01	6.99497409987E+01	1.53882905301E+01	-1.77028108046E+02	-3.90780706078E+01	8.61237549917E+01	-5.90089290913E+00	-2.07862139553E-01
3.01085795647E+05	-1.40765863064E+01	1.31655849731E+02	1.55269586725E+01	-1.77362908771E+02	-3.60289866515E+01	-4.97641617038E+01	-5.80597819544E+00	-7.62879494594E-01
3.01303425902E+05	-2.08204393424E+01	4.27840349589E+01	1.53531307145E+01	-1.77259269485E+02	-4.21664531697E+01	1.41701841104E+02	-5.94867330543E+00	-3.01773598042E-01
3.01521213465E+05	-2.10609548559E+01	-2.96540234299E+01	1.53406994339E+01	-1.76883254372E+02	-3.63393657147E+01	4.06514278033E+01	-5.79341183283E+00	4.34262190093E-02
3.01739158449E+05	-1.61562815333E+01	5.30465072389E+01	1.53407409928E+01	-1.77311384309E+02	-3.37919554460E+01	-4.63774265878E+01	-5.78685643579E+00	-6.65696247421E-01
3.01957260967E+05	-1.52077362894E+01	-1.77383907002E+02	1.54924391631E+01	-1.76940743504E+02	-3.79377343250E+01	2.56090458463E+01	-5.81469782804E+00	1.39087676606E-01
3.02175521134E+05	-1.47780403511E+01	1.05929078144E+01	1.52689973348E+01	-1.77121639902E+02	-5.72720605579E+01	1.12817483330E+02	-5.86274634570E+00	-2.87109914125E-01
3.02393939063E+05	-1.45781393860E+01	1.06556754856E+01	1.52706014574E+01	-1.77152429476E+02	-4.37424305879E+01	-1.55102799894E+02	-5.92624385376E+00	-4.35003450063E-01
3.02612514869E+05	-8.92857375057E+00	1.33229365317E+02	1.55828182634E+01	-1.77890820065E+02	-4.21362213102E+01	-1.38885711983E+02	-5.87302159521E+00	-4.96761790760E-01
3.02831248665E+05	-1.96275207049E+01	-2.25942237254E+01	1.52965187710E+01	-1.76653663398E+02	-3.22794818421E+01	-4.51517796497E+01	-5.76293686286E+00	-7.69872120504E-01
3.03050140565E+05	-2.16746785846E+01	1.42277272528E+01	1.53331350076E+01	-1.76847663949E+02	-3.57127962519E+01	6.44047507573E+01	-5.80715873778E+00	6.75706103813E-01
3.03269190685E+05	-4.91471439806E+01	-1.19222001851E+02	1.53635688428E+01	-1.76938837528E+02	-3.52927145608E+01	-1.49720440368E+02	-5.93261001274E+00	-6.70992837174E-01
3.03488399138E+05	-1.87846717658E+01	-4.73497218207E+01	1.53265902970E+01	-1.76768365353E+02	-3.76783320072E+01	-8.94003789882E+01	-5.87383948099E+00	-7.32976930182E-01
3.03707766039E+05	-1.77948368425E+01	3.72872702507E+01	1.53347893183E+01	-1.77473647256E+02	-4.10491794932E+01	-1.05592481415E+02	-5.87631314949E+00	-5.63038938818E-01
3.03927291503E+05	-2.71040175966E+01	1.67528402652E+02	1.53854247199E+01	-1.76762459788E+02	-4.01446018568E+01	1.61429029702E+02	-5.89979746451E+00	-3.66607572376E-02
3.04146975643E+05	-1.35210718131E+01	1.42374130813E+02	1.55311995986E+01	-1.77614718222E+02	-3.79962961596E+01	-1.12775840261E+00	-5.78823136223E+00	-9.36712670079E-02
3.04366818575E+05	-3.13342496613E+01	2.20986678718E+01	1.53924316362E+01	-1.77152998866E+02	-3.26346933929E+01	1.30074177636E+02	-5.99890610987E+00	2.28236994279E-01
3.04586820414E+05	-1.96219732674E+01	-2.68528117933E+00	1.53588091671E+01	-1.76594851678E+02	-4.10017793014E+01	-4.40732009821E+01	-5.85538216610E+00	-4.06815450118E-01
3.04806981274E+05	-1.91436044795E+01	7.31965854727E+00	1.53153052305E+01	-1.77262792597E+02	-3.99758144244E+01	5.76662757738E+01	-5.82822299936E+00	8.95675491245E-03
3.05027301270E+05	-2.15164920408E+01	9.79479197179E+00	1.53498176467E+01	-1.76907796123E+02	-3.95461368739E+01	-1.31893668695E+01	-5.81832592267E+00	-2.67523603286E-01
3.05247780517E+05	-2.73851325323E+01	1.14313925389E+02	1.54127491130E+01	-1.77400783873E+02	-3.99480265018E+01	-1.18500681215E+02	-5.87675055222E+00	-8.23383135701E-01
3.05468419131E+05	-3.13096338526E+01	2.28992275510E+01	1.53802868004E+01	-1.77156224012E+02	-4.38046868141E+01	-2.72810851984E+01	-5.85566165285E+00	-1.97631384572E-01
3.05689217226E+05	-1.18902964052E+01	1.72018315686E+02	1.55740365459E+01	-1.77084231314E+02	-3.75763429341E+01	1.60466616126E+02	-5.93487834521E+00	-2.42650736903E-01
3.05910174918E+05	-1.56946343642E+01	7.89078318573E+01	1.53970261292E+01	-1.77725485314E+02	-4.62123513624E+01	-1.33689981273E+02	-5.90927526844E+00	-3.87267525444E-01
3.06131292322E+05	-1.73349905098E+01	-7.63559722250E+01	1.54219416791E+01	-1.76464509873E+02	-3.61590206274E+01	1.66604021603E+02	-6.02616392891E+00	1.48956788714E-01
3.06352569554E+05	-1.77986540925E+01	1.37288813899E+02	1.54579472266E+01	-1.77120759783E+02	-5.09940575332E+01	-4.92888375338E+01	-5.88011572182E+00	-3.68742501610E-01
3.06574006730E+05	-3.27745216312E+01	8.14873673458E+01	1.54134038370E+01	-1.77111582661E+02	-3.97616633521E+01	-1.02723916583E+02	-5.91725000452E+00	-5.47171630215E-01
3.06795603964E+05	-1.67560018839E+01	1.53260328473E+02	1.54831002655E+01	-1.77257768532E+02	-4.88547719417E+01	-3.04417308898E+01	-5.87376919516E+00	-1.43521239803E-01
3.07017361372E+05	-1.99763565006E+01	-1.50214262438E+02	1.54158019451E+01	-1.76847108074E+02	-3.76440543569E+01	-1.35551138662E+02	-5.96386747331E+00	-3.76694274801E-01
3.07239279071E+05	-9.79350444805E+00	-1.29353169853E+02	1.55790047082E+01	-1.76122750633E+02	-4.04134202758E+01	-2.48578994327E-01	-5.84046932769E+00	-3.87956261593E-01
3.07461357176E+05	-2.00593917802E+01	-1.47387951062E+02	1.54371874194E+01	-1.76866928639E+02	-4.12343051263E+01	-1.79963563294E+02	-5.92878811935E+00	-1.67622305378E-01
3.07683595803E+05	-3.40987699065E+01	-2.31648901563E+01	1.54287196515E+01	-1.76915578399E+02	-2.73770523098E+01	-6.67167932839E+01	-5.68766262510E+00	-2.43977097761E+00
3.07905995068E+05	-3.58818767128E+01	8.70200128573E+01	1.53579836680E+01	-1.77144493631E+02	-3.41302213780E+01	-5.54986807520E+01	-5.78522316371E+00	-9.61251343557E-01
3.08128555087E+05	-1.47506381594E+01	1.49612180239E+02	1.54697185886E+01	-1.77645126359E+02	-3.75795793902E+01	2.54436015863E+01	-5.81612885768E+00	-1.25308042920E-01
3.08351275976E+05	-2.55976803561E+01	1.29804175898E+02	1.54296409423E+01	-1.77419769194E+02	-4.49578146735E+01	1.26431948356E+02	-5.91229526345E+00	-2.45138461713E-01
3.08574157853E+05	-3.13505802108E+01	7.52744670028E+01	1.54314839586E+01	-1.77306075905E+02	-4.01205274488E+01	-1.71015665598E+02	-5.96848874113E+00	-6.56651551813E-01
3.08797200832E+05	-1.47898937615E+01	-1.14922747070E+02	1.54498092530E+01	-1.75939288123E+02	-5.52134585371E+01	-4.41724797156E+01	-5.89575503793E+00	-4.89784260447E-01
3.09020405031E+05	-1.61568274825E+01	-7.06290108429E+01	1.53877528874E+01	-1.76492741661E+02	-3.57460054526E+01	1.53586627165E+01	-5.77983147932E+00	-1.57426149979E-01
3.09243770566E+05	-2.61965824686E+01	1.41940180203E+02	1.54335556347E+01	-1.77199325836E+02	-3.63834257851E+01	8.22676417975E+01	-5.90635548334E+00	3.09725322091E-01
3.09467297553E+05	-2.36550746852E+01	1.52142751979E+02	1.54316108657E+01	-1.77543429386E+02	-4.08135247944E+01	9.79022062015E+01	-5.89455687210E+00	4.12491184764E-01
3.09690986110E+05	-1.69249824796E+01	1.22099180766E+02	1.54486471692E+01	-1.77588368981E+02	-4.19370089064E+01	3.30253863690E+01	-5.83160925479E+00	-6.25528221825E-02
3.09914836353E+05	-1.63698396160E+01	-9.23677301281E+01	1.53640736778E+01	-1.76401560536E+02	-4.05940580144E+01	-1.35360328829E+02	-5.91612459370E+00	-4.54158086634E-01
3.10138848399E+05	-2.08256127518E+01	-1.04081351480E+01	1.53410738705E+01	-1.77008043330E+02	-3.60198329640E+01	4.71149277497E+01	-5.82623118534E+00	2.75517662303E-01
3.10363022365E+05	-1.81531968704E+01	-1.00782242414E+02	1.54222864313E+01	-1.76519983431E+02	-3.63274758782E+01	5.47447560084E+00	-5.77514719932E+00	-1.13657732187E-01
3.10587358368E+05	-2.14544374356E+01	-1.58927618984E+02	1.53972448950E+01	-1.77087738256E+02	-3.73367069328E+01	-3.68629171668E+01	-5.80145194752E+00	-6.79349882271E-01
3.10811856525E+05	-1.99614744959E+01	6.49730857289E+01	1.54008400305E+01	-1.77493965375E+02	-2.87771255504E+01	4.02092886151E+00	-5.54524234076E+00	-7.06021965661E-02
3.11036516954E+05	-2.08080292357E+01	-1.32736950644E+02	1.54554428680E+01	-1.76808992715E+02	-5.21357201325E+01	7.76281606660E+01	-5.83263776323E+00	-5.02108553245E-01
3.11261339771E+05	-1.75008192131E+01	-2.59846169593E+01	1.53710635890E+01	-1.77106228504E+02	-4.02931423948E+01	-9.90129849052E+01	-5.84421201663E+00	-7.42627704783E-01
3.11486325094E+05	-1.52134203820E+01	1.26752452081E+02	1.54885946789E+01	-1.77609791016E+02	-4.07565856386E+01	8.76657952955E+00	-5.83319893973E+00	-1.09552975921E-01
3.11711473040E+05	-2.12554042123E+01	-1.13547120122E+02	1.54812993494E+01	-1.76806199881E+02	-5.16491172678E+01	-1.73225011840E+02	-5.87279482142E+00	-1.49786139231E-01
3.11936783728E+05	-1.82675330868E+01	-1.42208298537E+02	1.54725382718E+01	-1.76961656949E+02	-4.83308968850E+01	-6.23784838231E+01	-5.88413947015E+00	-8.07204318877E-01
3.12162257274E+05	-1.18232651371E+01	-5.91007699268E+01	1.53138198143E+01	-1.76319025978E+02	-3.50675681920E+01	-8.06797615366E+01	-5.87847848313E+00	-7.52283791694E-01
3.12387893797E+05	-2.42261567759E+01	-1.02337405114E+02	1.54334542815E+01	-1.76956575765E+02	-3.70437385521E+01	1.76084602194E+02	-5.99643623764E+00	-4.24435529995E-01
3.12613693413E+05	-2.71624942769E+01	-5.53228453714E+01	1.53806881957E+01	-1.77162392499E+02	-3.55954903338E+01	-9.57826867662E+01	-5.92029972167E+00	-1.32638056061E+00
3.12839656242E+05	-3.29774196316E+01	-1.04669367803E+01	1.54119340168E+01	-1.77053024036E+02	-3.89718233015E+01	-8.39140760320E+01	-5.90383839628E+00	-7.57721808029E-01
3.13065782401E+05	-1.92451316384E+01	-1.07236937782E+02	1.54227960171E+01	-1.76840190175E+02	-4.13907289842E+01	7.20201897789E+00	-5.82325653221E+00	-1.92543969639E-01
3.13292072007E+05	-2.96329159061E+01	-1.22226794742E+02	1.54074681566E+01	-1.77366818605E+02	-4.14363285017E+01	1.58954402612E+02	-5.94974895091E+00	-6.88391416238E-02
3.13518525180E+05	-2.01887688020E+01	8.97963967302E+01	1.54659789325E+01	-1.77872838781E+02	-3.82679089571E+01	-4.96909695342E+01	-5.85859085210E+00	-7.19001524199E-01
3.13745142038E+05	-9.08796227243E+00	-1.61919677736E+02	1.55795471002E+01	-1.76817346268E+02	-3.75536372553E+01	-5.86951953422E+01	-5.85054897663E+00	-6.37674347765E-01
3.13971922698E+05	-1.40025915779E+01	1.19308689324E+02	1.54658737285E+01	-1.77816899406E+02	-3.51179195280E+01	-6.64637996676E+01	-5.86667477278E+00	-9.38034578065E-01
3.14198867279E+05	-2.15287861975E+01	-7.46040421526E+01	1.54058660897E+01	-1.76960365175E+02	-2.97452996119E+01	7.49264449147E+01	-5.83791429459E+00	1.26832267836E+00
3.14425975900E+05	-1.66119532292E+01	3.37733761252E+01	1.53632332575E+01	-1.77423149630E+02	-3.56171326909E+01	-1.43873853851E+02	-5.99357594889E+00	-8.04163759092E-01
3.14653248680E+05	-1.96499771305E+01	-8.41794134287E+01	1.53975549488E+01	-1.76610107237E+02	-4.23823262771E+01	1.36376505333E+02	-5.88414574061E+00	-1.36967151675E-01
3.14880685736E+05	-2.91185389631E+01	-6.80046008393E+01	1.54183172717E+01	-1.77081724187E+02	-4.14682003496E+01	8.07461970335E+01	-5.88295291909E+00	-1.23718168298E-02
3.15108287188E+05	-1.34106189929E+01	9.05805181355E+01	1.53924827429E+01	-1.78240956119E+02	-4.26023807063E+01	-1.77645453107E+02	-5.92782395797E+00	-1.88130606062E-01
3.15336053154E+05	-1.69658140367E+01	-1.23226626624E+02	1.55299604445E+01	-1.76602223863E+02	-3.87696027944E+01	1.71234550589E+02	-5.97098403717E+00	-2.30177043913E-01
3.15563983753E+05	-3.27533289634E+01	8.24943692176E+01	1.54293409171E+01	-1.77230732533E+02	-5.67657950147E+01	-1.72221032977E+02	-5.91098401235E+00	-5.64106571555E-01
3.15792079105E+05	-2.39449572140E+01	2.92878099216E+01	1.53511596113E+01	-1.77339429333E+02	-3.60424250799E+01	-1.65438581727E+01	-5.76886086267E+00	-2.20878235269E-01
3.16020339328E+05	-2.36262239778E+01	1.56285012989E+02	1.54240484652E+01	-1.77484768193E+02	-3.83379244667E+01	7.13176732684E+01	-5.86939765335E+00	4.05270462420E-01
3.16248764542E+05	-2.31522370631E+01	-1.10257746201E+02	1.53946444893E+01	-1.77243206226E+02	-4.05780540619E+01	1.38160982488E+01	-5.82947111348E+00	1.57927787508E-02
3.16477354866E+05	-2.25217257576E+01	-1.36055510197E+02	1.54493252936E+01	-1.77143744486E+02	-3.99395249477E+01	-1.13592630561E+02	-5.93514456596E+00	-5.09241318460E-01
3.16706110419E+05	-1.31968982563E+01	-3.14856569191E+01	1.52887565091E+01	-1.76554751224E+02	-4.16572704994E+01	1.15715434703E+02	-5.91590674628E+00	4.63820959883E-02
3.16935031321E+05	-1.32134139974E+01	5.11302388583E+01	1.53107264987E+01	-1.78141572587E+02	-3.73868425347E+01	-1.31199606100E+02	-5.96523049432E+00	-6.00834735926E-01
3.17164117691E+05	-2.31946736542E+01	-2.68997646822E+01	1.53751760545E+01	-1.77267044337E+02	-4.05460045202E+01	-1.70600112928E+02	-5.93749850524E+00	-5.51999201153E-01
3.17393369648E+05	-1.95960994695E+01	1.54221746172E+02	1.54399284376E+01	-1.77429365495E+02	-3.26013483550E+01	5.39265463131E+00	-5.76136932790E+00	-1.54423056331E-01
3.17622787313E+05	-3.07291036549E+01	5.62874394497E+01	1.54029680884E+01	-1.77351469844E+02	-4.20292939860E+01	1.51028068858E+02	-5.93657965777E+00	-2.22350464594E-02
3.17852370806E+05	-1.85686272154E+01	1.12871458715E+01	1.53054566273E+01	-1.77251300167E+02	-3.89409082337E+01	1.44095741533E+02	-5.95103118608E+00	-3.03273060424E-01
3.18082120245E+05	-1.95412655841E+01	9.55173089227E+01	1.54103023047E+01	-1.77720173805E+02	-4.44893789881E+01	1.35799240155E+02	-5.83987160651E+00	-6.33084907940E-02
3.18312035752E+05	-1.89206708611E+01	9.91086193525E+01	1.54518885732E+01	-1.77743759967E+02	-4.02042391488E+01	-1.19061897408E+02	-5.91821311200E+00	-5.62837443296E-01
3.18542117445E+05	-1.53044491838E+01	-1.27729498090E+02	1.55528713004E+01	-1.76618779796E+02	-3.37647469612E+01	-1.60548304116E+02	-6.03631264536E+00	-7.61619389286E-01
3.18772365446E+05	-1.54131933501E+01	7.43429323794E+01	1.54139227125E+01	-1.77967539351E+02	-4.46362869442E+01	1.99550626801E+01	-5.89765335800E+00	-3.53867424562E-01
3.19002779874E+05	-3.45979011782E+01	1.17558343038E+02	1.54163781564E+01	-1.77484826775E+02	-2.95209669637E+01	-1.09217794849E+02	-5.95984890724E+00	-2.01441297704E+00
3.19233360850E+05	-2.40644660132E+01	1.21237296533E+02	1.53637334443E+01	-1.77549291535E+02	-3.66590884835E+01	-3.35212384027E+01	-5.81122819675E+00	-5.48491688536E-01
3.19464108494E+05	-1.70843454033E+01	2.30834977859E+00	1.53669786537E+01	-1.77307863032E+02	-3.92181087619E+01	1.76388406510E+02	-5.97111152814E+00	-3.64046212895E-01
3.19695022927E+05	-2.80517288983E+01	2.47340460123E+01	1.54021133637E+01	-1.77478813552E+02	-4.15361118194E+01	-2.77677068827E+01	-5.81405082451E+00	-5.81476074814E-01
3.19926104268E+05	-1.67093409914E+01	-9.86526915391E+01	1.54326672376E+01	-1.76620525284E+02	-5.77494539294E+01	6.20989434117E+01	-5.90548299822E+00	1.42728256372E-01
3.20157352640E+05	-7.46861278161E+00	7.02921304323E+01	1.52888084345E+01	-1.79154826488E+02	-3.59340033106E+01	-8.31814964920E+01	-5.84309356949E+00	-9.54757198867E-01
3.20388768162E+05	-1.94682492937E+01	9.55045650288E+01	1.53894140571E+01	-1.77964213486E+02	-4.04909192720E+01	-1.14785452556E+02	-5.97760580259E+00	-9.88876349837E-01
3.20620350955E+05	-1.73705938775E+01	-3.74989749708E+01	1.53180925711E+01	-1.77085493070E+02	-3.74287356116E+01	5.73526843023E+01	-5.79378023078E+00	5.11497970252E-01
3.20852101140E+05	-1.90555702800E+01	8.58068668259E+01	1.54052714515E+01	-1.77712755756E+02	-4.75340858618E+01	3.32999200806E+01	-5.88353184528E+00	-5.59400647916E-01
3.21084018839E+05	-2.40646406308E+01	9.33766355261E+01	1.54234885292E+01	-1.77578030668E+02	-4.24574678999E+01	-1.07121608387E+02	-5.89525148058E+00	-7.59854728530E-01
3.21316104172E+05	-1.85544944685E+01	-1.30369330278E+01	1.52906930206E+01	-1.77349712249E+02	-4.34792660613E+01	-1.51636335505E+01	-5.84141909460E+00	-1.81850940054E-01
3.21548357261E+05	-2.65467936818E+01	-4.15233856450E+01	1.53625775134E+01	-1.77266289450E+02	-3.40919284933E+01	1.75602249742E+02	-5.96174693582E+00	-8.62498891515E-02
3.21780778226E+05	-1.74390040892E+01	1.09496710082E+02	1.54437982820E+01	-1.77915328930E+02	-3.68897794626E+01	4.04666693839E+00	-5.82576282915E+00	-2.59547097333E-01
3.22013367189E+05	-2.82235267583E+01	7.32619874362E+01	1.54030003855E+01	-1.77415049312E+02	-3.65760259670E+01	9.63576901324E+01	-5.89478622738E+00	3.70095113806E-01
3.22246124272E+05	-1.96949486575E+01	-2.19355552965E+01	1.53627118781E+01	-1.77329167500E+02	-2.94807849025E+01	1.13140053732E+02	-5.97112118184E+00	1.84754913449E+00
3.22479049596E+05	-3.10115694729E+01	6.63898590050E+01	1.53908961648E+01	-1.77484405718E+02	-3.56939318900E+01	1.43275926475E+02	-5.95744246380E+00	1.95549425305E-01
3.22712143282E+05	-4.39460072572E+01	-2.50846372110E+01	1.53856940683E+01	-1.77471807931E+02	-4.25211909244E+01	2.04529305860E+01	-5.86250951223E+00	-1.35502099640E-02
3.22945405453E+05	-1.58596605399E+01	-5.31500606979E+00	1.53463835277E+01	-1.77215476220E+02	-3.37560138057E+01	-5.65439763946E+01	-5.82102876642E+00	-8.79373863839E-01
3.23178836230E+05	-1.11332983735E+01	-2.93884233777E+01	1.52754424019E+01	-1.76785151501E+02	-5.00565850606E+01	1.22425186688E+02	-5.90897338051E+00	-2.09356400292E-01
3.23412435735E+05	-1.15655643909E+01	-8.36774571382E+01	1.53729998643E+01	-1.76638894028E+02	-3.53002353213E+01	-7.26615217198E+01	-5.82174412830E+00	-1.39886037366E+00
3.23646204090E+05	-1.84469873562E+01	3.49261913096E+01	1.53536879817E+01	-1.77436607372E+02	-5.60852928920E+01	-1.26461971835E+01	-5.92567423502E+00	-4.30563511445E-02
3.23880141417E+05	-1.34709122254E+01	-6.54031266762E+01	1.53736959118E+01	-1.76979677799E+02	-3.35068739635E+01	1.65883757877E+02	-6.05023144432E+00	-8.36953521380E-02
3.24114247838E+05	-1.73516815515E+01	-9.46369165085E+01	1.54206575639E+01	-1.76994685710E+02	-4.13820319212E+01	-1.77731542602E+02	-5.98409407819E+00	-4.12585515099E-01
3.24348523475E+05	-2.00977359557E+01	7.73022092103E+01	1.54079553249E+01	-1.77952745122E+02	-4.57913190356E+01	7.54674205068E+01	-5.87140815603E+00	2.60826915157E-01
3.24582968451E+05	-2.64667453636E+01	-7.59317154688E+01	1.54141541256E+01	-1.77542246746E+02	-4.48835770316E+01	-2.36027609544E+01	-5.84276153778E+00	-4.49942238424E-01
3.24817582888E+05	-2.66788335196E+01	4.98057114250E+01	1.53843503293E+01	-1.77814873746E+02	-3.63444418932E+01	1.49732900263E+02	-5.95592944395E+00	1.34438166072E-01
3.25052366909E+05	-2.03151166288E+01	-5.36232057350E+01	1.53713168204E+01	-1.77205101593E+02	-4.20153977130E+01	-5.33142637123E+01	-5.83744296802E+00	-3.89456234052E-01
3.25287320635E+05	-2.49335488918E+01	-3.39329890158E+01	1.53966479470E+01	-1.77193206095E+02	-4.03145922631E+01	4.59619548770E+01	-5.88442816837E+00	-3.65576799388E-01
3.25522444191E+05	-1.91368152657E+01	-9.42347409471E+01	1.54168984762E+01	-1.77073205851E+02	-3.14559528833E+01	-2.11746008628E+01	-5.72553356874E+00	-1.00513869221E+00
3.25757737698E+05	-1.85176924508E+01	8.68674963640E+01	1.54074212730E+01	-1.77730533123E+02	-3.95585045611E+01	9.32019518338E+00	-5.77868274523E+00	-3.61461989219E-01
3.25993201280E+05	-1.61792583560E+01	4.33059981867E+01	1.53914302395E+01	-1.77937332517E+02	-3.79765766067E+01	-1.54717217265E+02	-5.97696913899E+00	-4.02469679300E-01
3.26228835058E+05	-2.94096415673E+01	-1.32039600359E+02	1.54184989395E+01	-1.77392567364E+02	-4.22491048272E+01	-1.38283396356E+02	-5.88749177853E+00	-5.16089051808E-01
