# Hz S DB R 50
! CMT, M5065, 19127446, 24.2.4/2
! Date: 11/1/2024 4:19:53 PM
! Data: Format (Calibration Info)
! Freq	S11:dB/Ang(F2)	S21:dB/Ang(F2)	S12:dB/Ang(F2)	S22:dB/Ang(F2)
3.00000000000E+05	-3.37823781155E+01	9.96748046458E+01	5.89214083467E+00	-1.77840104472E+02	-3.49889805644E+01	-8.53195018873E+01	-5.86325872873E+00	-7.24152856448E-01
3.00216845423E+05	-1.04058537466E+01	-1.40717057098E+02	6.03312290416E+00	-1.77382932918E+02	-3.30031035658E+01	-4.96572017969E+01	-5.88027252878E+00	-4.02182143519E-01
3.00433847586E+05	-1.52826179687E+01	-3.84405210996E+01	5.83086601109E+00	-1.76972608600E+02	-4.30929747271E+01	5.43052991810E+01	-5.87337208534E+00	-1.40306801858E-01
3.00651006602E+05	-1.87436223934E+01	1.65316133737E+02	5.90512188085E+00	-1.77423899992E+02	-4.77766575701E+01	-1.24811034381E+02	-5.92699615632E+00	3.60530588842E-02
3.00868322584E+05	-1.49870955298E+01	1.71522925653E+02	5.99848270998E+00	-1.77670403189E+02	-3.77057656177E+01	6.45377104923E+01	-5.86282488630E+00	-3.16603358090E-01
3.01085795647E+05	-2.02757270000E+01	-1.02230201848E+02	5.87959084915E+00	-1.77207436841E+02	-4.95417161317E+01	-1.99059975300E+01	-5.90087973997E+00	-1.82007668620E-01
3.01303425902E+05	-1.83698100174E+01	1.55671635255E+02	5.86932567687E+00	-1.78093402003E+02	-3.73403941688E+01	1.67362030733E+02	-5.91193944937E+00	-6.93637469788E-02
3.01521213465E+05	-1.72458683782E+01	-2.14315706420E+01	5.80182390380E+00	-1.77593406677E+02	-3.06455139598E+01	5.20785636027E+01	-5.80508369248E+00	3.67615638180E-01
3.01739158449E+05	-1.50852330525E+01	-2.03159514823E+01	5.77992877789E+00	-1.77226598536E+02	-3.17084824255E+01	-1.75689368406E+02	-6.01091182523E+00	-2.39545634958E-01
3.01957260967E+05	-1.14413819693E+01	1.00772500705E+02	5.82891520771E+00	-1.79358520337E+02	-3.38402795293E+01	-1.37214033157E+01	-5.87422258136E+00	-5.30289418661E-01
3.02175521134E+05	-4.18661161698E+01	1.54511121172E-01	5.85596612555E+00	-1.77278398063E+02	-3.64977534596E+01	-3.33172770542E+01	-5.87503908979E+00	-4.49562314637E-01
3.02393939063E+05	-1.70657338756E+01	8.95265495710E+01	5.84652648381E+00	-1.78214162197E+02	-3.56454460206E+01	-6.51944655990E+01	-5.88201879989E+00	-5.25226918310E-01
3.02612514869E+05	-2.65739756143E+01	4.37650068185E+01	5.81430797418E+00	-1.77828919810E+02	-3.89755788309E+01	1.75463844328E+02	-5.94387875798E+00	-2.74182970734E-01
3.02831248665E+05	-2.48748854530E+01	2.21787278994E+01	5.86755397047E+00	-1.77743918941E+02	-4.33945974628E+01	6.22288960677E+01	-5.90458473332E+00	-1.85148301075E-01
3.03050140565E+05	-1.93962025420E+01	-2.26836067615E+01	5.74992242409E+00	-1.77078704866E+02	-3.99873285747E+01	4.72363103920E+01	-5.88750927620E+00	-1.80203743759E-01
3.03269190685E+05	-2.22537396036E+01	-1.14826431380E+02	5.88955859103E+00	-1.77103441527E+02	-2.71663793268E+01	-4.15064163093E+01	-5.80857871235E+00	-8.90841574923E-01
3.03488399138E+05	-1.04016008399E+01	-1.75814237877E+02	6.05875029418E+00	-1.78015484474E+02	-4.37542383062E+01	7.76376757087E+01	-5.86451867767E+00	-3.00422305556E-01
3.03707766039E+05	-1.91937870798E+01	1.00362410332E+02	5.88865226715E+00	-1.78460102040E+02	-4.81911421992E+01	5.39185207866E+00	-5.87698969477E+00	-1.93155041116E-01
3.03927291503E+05	-2.81126797858E+01	-8.42664329049E+01	5.86229354375E+00	-1.77538454145E+02	-4.31790884381E+01	1.13144757103E+02	-5.92050320993E+00	-1.42890556592E-01
3.04146975643E+05	-3.16093211949E+01	6.57210747361E+01	5.84887140102E+00	-1.77940320354E+02	-4.23719096612E+01	-9.15700241650E+01	-5.87400607731E+00	-4.67782553119E-01
3.04366818575E+05	-1.39536290563E+01	1.66867930447E+02	5.99262992808E+00	-1.78446566174E+02	-3.59929395744E+01	1.23925242540E+01	-5.85364312009E+00	5.61482754501E-02
3.04586820414E+05	-1.88502817603E+01	-1.54761167678E+02	5.97193069273E+00	-1.77818088410E+02	-3.83676388179E+01	2.87123467813E+01	-5.84254650114E+00	-2.60002161962E-01
3.04806981274E+05	-2.22529250543E+01	-5.06278278518E+01	5.90245591763E+00	-1.77736775617E+02	-3.99329578778E+01	1.21200724163E+02	-5.92022880739E+00	-1.14838661153E-01
3.05027301270E+05	-1.55980244885E+01	8.48116071672E+01	5.82151332927E+00	-1.78214643634E+02	-4.12819303480E+01	9.08270348843E+01	-5.89700742641E+00	2.28800730621E-01
3.05247780517E+05	-2.17929903656E+01	5.04790981201E+00	5.88282894818E+00	-1.77454181868E+02	-4.35863444090E+01	1.34367104788E+02	-5.89674018003E+00	-5.03172094781E-02
3.05468419131E+05	-1.38061656630E+01	1.37762723606E+02	5.91462742098E+00	-1.77917375965E+02	-5.27884065876E+01	-2.45880917012E+01	-5.85780613521E+00	-1.38136589659E-01
3.05689217226E+05	-2.59274408558E+01	3.03091093380E+01	5.78779642472E+00	-1.77815814783E+02	-4.30822311134E+01	7.11613436499E+01	-5.95182956545E+00	-2.03350237051E-01
3.05910174918E+05	-2.35210321051E+01	1.73738266322E+02	5.89439998837E+00	-1.78310512123E+02	-4.13520028350E+01	5.53637596813E+01	-5.86536007184E+00	-5.65738987931E-02
3.06131292322E+05	-2.23179465601E+01	5.08399745808E+01	5.80210041663E+00	-1.78028912113E+02	-3.57957191373E+01	-1.41113290063E+00	-5.82345900484E+00	-6.92371230970E-02
3.06352569554E+05	-1.04185911221E+01	-1.66872398966E+02	6.03854853785E+00	-1.77559696121E+02	-3.21909290164E+01	5.48147546942E+01	-5.85964859274E+00	-7.60889066844E-03
3.06574006730E+05	-1.54706284529E+01	9.11595273507E+01	5.91698638387E+00	-1.78477340216E+02	-3.93100700390E+01	1.74737195284E+01	-5.87735431321E+00	-2.82021738296E-01
3.06795603964E+05	-2.47840432256E+01	-1.31035563885E+02	5.90701269044E+00	-1.77427192357E+02	-4.60036110613E+01	-9.63705131003E+01	-5.88776276788E+00	-9.94409675121E-02
3.07017361372E+05	-2.48088527890E+01	1.77393478994E+02	5.89749019965E+00	-1.78406491840E+02	-3.52583325053E+01	-2.25758570100E+01	-5.85360044683E+00	-4.65553487405E-01
3.07239279071E+05	-2.32275919636E+01	1.21561850029E+02	5.80937395566E+00	-1.78336056476E+02	-3.92601450806E+01	1.66950063783E+02	-5.89587281471E+00	3.97364712157E-02
3.07461357176E+05	-2.29215575238E+01	4.91056980696E+01	5.90923688491E+00	-1.78252728009E+02	-3.28636689090E+01	-7.06521045186E+01	-5.83841114940E+00	-3.39306007076E-01
3.07683595803E+05	-2.15687627638E+01	1.63272500325E+02	5.85344705451E+00	-1.77828009666E+02	-5.26986749319E+01	7.42283335706E+00	-5.86433444127E+00	-2.57369091609E-01
3.07905995068E+05	-3.52810808507E+01	-2.73095157276E+01	5.80720625842E+00	-1.77783039482E+02	-3.31027981586E+01	1.74134664352E+02	-5.99859200092E+00	6.37820800570E-02
3.08128555087E+05	-9.30793714145E+00	-4.61549107037E+01	5.62276357765E+00	-1.75538835782E+02	-4.56922466214E+01	2.86746869638E+01	-5.89287124811E+00	-1.87643552662E-01
3.08351275976E+05	-2.68345923958E+01	-1.08323724839E+02	5.85589426631E+00	-1.78148309302E+02	-4.15115674620E+01	1.50033267359E+01	-5.82650971223E+00	-1.54806033855E-01
3.08574157853E+05	-2.23109694247E+01	7.22681622956E+01	5.86343272477E+00	-1.78039786321E+02	-3.54623559307E+01	-6.98124473853E+01	-5.89693383154E+00	-3.94962192119E-01
3.08797200832E+05	-1.46102218085E+01	1.47272967204E+02	5.95673232094E+00	-1.77657903605E+02	-4.05778585065E+01	8.55000657015E+01	-5.89082891416E+00	-1.36259816864E-02
3.09020405031E+05	-2.81156254089E+01	-3.04892333607E+01	5.76600846266E+00	-1.77594772519E+02	-4.38871933833E+01	4.78601279113E+00	-5.82346506721E+00	-2.94268337425E-01
3.09243770566E+05	-2.15879067755E+01	8.15978983183E+01	5.80378447605E+00	-1.78154503813E+02	-4.03208480408E+01	-4.00099299661E+01	-5.87562819038E+00	-5.98464883715E-01
3.09467297553E+05	-2.09974264343E+01	9.56766352618E+01	5.85508175935E+00	-1.78205853625E+02	-4.10454587961E+01	-1.78733600564E+02	-5.93541493125E+00	-2.39773923608E-01
3.09690986110E+05	-1.48639429371E+01	-1.53530653230E+02	5.95336860671E+00	-1.77473029626E+02	-5.88356917826E+01	-1.43234088061E+02	-5.88576730449E+00	-4.35061078301E-01
3.09914836353E+05	-2.31010871847E+01	-3.31492141923E+01	5.82822903341E+00	-1.78235593822E+02	-3.81837834112E+01	5.46999511467E-01	-5.83014644532E+00	-2.94684432031E-01
3.10138848399E+05	-2.03377687482E+01	5.96336337915E+01	5.81124208308E+00	-1.77934859707E+02	-3.75827590495E+01	1.06338967208E+02	-5.91213672897E+00	-6.24076587082E-02
3.10363022365E+05	-2.15387832745E+01	7.87951620603E+01	5.86757789559E+00	-1.78023745841E+02	-5.11310701921E+01	1.45933548962E+02	-5.92044587800E+00	-4.24223749982E-01
3.10587358368E+05	-2.81707314425E+01	-9.04210761889E+01	5.82248025842E+00	-1.77478074091E+02	-4.95566677561E+01	8.09983381125E+01	-5.90968195163E+00	-2.46398778537E-01
3.10811856525E+05	-3.67520134874E+01	-1.57011713632E+02	5.86112383068E+00	-1.78032692388E+02	-3.73773625874E+01	1.21182436237E+01	-5.85008079147E+00	-2.46947373333E-01
3.11036516954E+05	-1.74628776784E+01	2.17775702792E+00	5.73863039337E+00	-1.77731896253E+02	-3.76963083129E+01	6.49305092513E+01	-5.88782409165E+00	7.34083843345E-02
3.11261339771E+05	-1.56698323176E+01	-1.78962385067E+02	5.97626165277E+00	-1.78001326075E+02	-3.34131737483E+01	-6.36293412021E+01	-5.87832913182E+00	-7.20006009236E-01
3.11486325094E+05	-2.73064475410E+01	-4.41121629572E+01	5.79413730813E+00	-1.77272133645E+02	-3.96375014264E+01	3.17013982126E+01	-5.88880543838E+00	2.69550976362E-02
3.11711473040E+05	-1.81006168336E+01	-1.25891895824E+02	5.84027505402E+00	-1.77615726210E+02	-3.52188390637E+01	-6.37984441377E+00	-5.86919191186E+00	-1.86329975081E-01
3.11936783728E+05	-2.02553917867E+01	-5.98716393934E+01	5.74330439998E+00	-1.77449133403E+02	-5.04312095805E+01	-9.11128942258E+01	-5.87937378071E+00	-1.15549479150E-01
3.12162257274E+05	-2.15508182332E+01	-1.57714520653E+02	5.93352273261E+00	-1.77657201340E+02	-4.19943635408E+01	9.59441817178E+01	-5.87484020603E+00	2.43532648652E-02
3.12387893797E+05	-2.31987595249E+01	1.65472241786E+02	5.86273098130E+00	-1.78079988819E+02	-3.98950376261E+01	1.50878324216E+02	-5.90971821504E+00	-4.00826109698E-02
3.12613693413E+05	-1.71107385448E+01	-1.40505615682E+02	5.92402104937E+00	-1.76967333744E+02	-2.71537782728E+01	1.05118125931E+02	-5.92717231948E+00	6.89534881663E-01
3.12839656242E+05	-3.04229442461E+01	1.44400319641E+02	5.82765103949E+00	-1.78108824226E+02	-3.26042452661E+01	1.34133168323E+02	-5.92820406824E+00	-3.40067543181E-02
3.13065782401E+05	-2.23737313468E+01	1.83040929714E+01	5.80232155202E+00	-1.78108746571E+02	-4.12328276334E+01	9.53776067455E+01	-5.91355035931E+00	-5.92408491350E-02
3.13292072007E+05	-1.93798429859E+01	-7.15498383115E+01	5.80834250927E+00	-1.76995755264E+02	-4.53166953640E+01	5.66828658564E+01	-5.85385087305E+00	-4.00788817158E-02
3.13518525180E+05	-2.93513856272E+01	-1.19300272528E+02	5.85780845592E+00	-1.77819645529E+02	-4.02512465588E+01	-5.28301366094E+01	-5.84760325808E+00	-1.94197632033E-01
3.13745142038E+05	-2.41005792348E+01	-1.44236291767E+02	5.83004427400E+00	-1.77919525817E+02	-3.81370589573E+01	1.64621307579E+02	-5.87270157747E+00	-5.37176959597E-01
3.13971922698E+05	-2.47174715958E+01	4.49218577202E+01	5.77251215862E+00	-1.78600091133E+02	-5.27784966017E+01	1.45351810358E+02	-5.88842339074E+00	-3.54032781374E-01
3.14198867279E+05	-2.23829473763E+01	-1.31364640692E+02	5.89312790840E+00	-1.77710344127E+02	-3.22012646984E+01	3.06242798045E+01	-5.79908017689E+00	-1.15885346858E-01
3.14425975900E+05	-1.95622162847E+01	3.17681403608E+00	5.78648757949E+00	-1.77512140828E+02	-3.41870787437E+01	-2.24203228647E+00	-5.82301469493E+00	-1.36786420200E-01
3.14653248680E+05	-2.13008083081E+01	-1.65334635711E+02	5.96143450680E+00	-1.77709195738E+02	-4.35152468473E+01	9.61654946978E+01	-5.86834970751E+00	-4.28429756615E-01
3.14880685736E+05	-2.73432233028E+01	-4.43128109010E+01	5.84178000768E+00	-1.77456390821E+02	-3.73103183409E+01	7.17665431014E+01	-5.90811619862E+00	-6.99233165281E-02
3.15108287188E+05	-2.28240279760E+01	-1.67829215959E+00	5.76466381494E+00	-1.77939416419E+02	-4.69615535051E+01	1.51233928114E+02	-5.91654033116E+00	-3.73705759082E-01
3.15336053154E+05	-2.77297219001E+01	1.06443799971E+00	5.82440856317E+00	-1.77958176965E+02	-3.98497765765E+01	1.09596322348E+02	-5.89271804091E+00	-2.90717121794E-01
3.15563983753E+05	-1.84955491109E+01	7.77212638043E+00	5.74397363166E+00	-1.77652223252E+02	-3.71242096567E+01	-3.78421268188E+01	-5.86970834320E+00	-2.68516866005E-01
3.15792079105E+05	-1.90513789918E+01	7.78523354228E+01	5.77867771285E+00	-1.78697267180E+02	-3.12024147082E+01	-8.97772516126E+01	-5.92096257332E+00	-6.70353165900E-01
3.16020339328E+05	-1.04213553037E+01	4.32262202135E+01	5.69477251010E+00	-1.78664109269E+02	-3.79359484760E+01	-9.57037504586E+01	-5.86608791048E+00	-5.25058126670E-01
3.16248764542E+05	-2.16417108234E+01	7.50018223887E+01	5.80974363955E+00	-1.78513595751E+02	-3.99056354719E+01	1.32140484339E+02	-5.90619056313E+00	-2.75086386389E-01
3.16477354866E+05	-2.26605482078E+01	1.20039126669E+02	5.77564332064E+00	-1.77501136179E+02	-4.22328405185E+01	1.14356446644E+02	-5.89554251370E+00	-1.56644754668E-01
3.16706110419E+05	-1.88045724583E+01	9.02424026797E+01	5.90176503440E+00	-1.78666465734E+02	-4.63984125823E+01	-1.26155832427E+02	-5.88520953587E+00	-2.95386719832E-01
3.16935031321E+05	-2.97825144528E+01	2.30595907198E+01	5.86658476979E+00	-1.77433013022E+02	-3.61598521972E+01	-1.77623319305E+02	-5.98203887119E+00	-1.31218817421E-01
3.17164117691E+05	-3.40335482524E+01	-6.33853288190E+01	5.89839833019E+00	-1.77665735248E+02	-4.09109212981E+01	4.28111085060E+01	-5.87559095614E+00	-1.92307138146E-01
3.17393369648E+05	-1.77932473196E+01	4.51118978293E+01	5.77675690484E+00	-1.78103654473E+02	-3.25530102256E+01	-2.85812130099E+01	-5.85420905032E+00	-7.70153815069E-01
3.17622787313E+05	-9.91573077535E+00	-7.25642844376E+01	5.78631991654E+00	-1.75993063339E+02	-3.35088999416E+01	6.45622552175E+00	-5.81708828068E+00	-2.13333871366E-01
3.17852370806E+05	-1.61704948944E+01	7.39953137318E+01	5.85521249038E+00	-1.78535777453E+02	-4.39807113345E+01	1.55184873314E+02	-5.92041398081E+00	-2.33092273600E-01
3.18082120245E+05	-1.91505821272E+01	9.11029581689E+01	5.83777088244E+00	-1.78236454641E+02	-3.51445715233E+01	-5.64527206745E+01	-5.86473810250E+00	-2.71568695981E-01
3.18312035752E+05	-1.82942547318E+01	6.86209570089E+01	5.83027965672E+00	-1.77884955620E+02	-3.76102587170E+01	4.93580246138E+01	-5.91260323514E+00	-6.55359236376E-02
3.18542117445E+05	-1.84542983154E+01	9.92342280244E+01	5.82499292847E+00	-1.78610223191E+02	-3.90063540277E+01	-1.30492998555E+02	-5.86531211044E+00	3.77282758069E-02
3.18772365446E+05	-2.96472997180E+01	1.11402755328E+02	5.89058255539E+00	-1.78450588842E+02	-4.19918776299E+01	-1.56485603967E+02	-5.90600080968E+00	-7.37430023130E-02
3.19002779874E+05	-1.59305023170E+01	-1.48289547963E+02	5.84685235723E+00	-1.77507323333E+02	-4.52134792818E+01	-6.05984272264E+01	-5.90197429267E+00	-3.54612396306E-01
3.19233360850E+05	-1.44605329548E+01	-1.52695049706E+02	6.01690107780E+00	-1.77514788639E+02	-3.51496158046E+01	-1.05557382814E+02	-5.95786388317E+00	-4.89740507947E-01
3.19464108494E+05	-1.27281271769E+01	1.64839726648E+02	5.99695633713E+00	-1.78187202463E+02	-4.86032803911E+01	-2.12317773215E+01	-5.88148738166E+00	-3.03747408124E-01
3.19695022927E+05	-2.60089892798E+01	1.36461262740E+02	5.89688653877E+00	-1.77972744348E+02	-4.11250899266E+01	-1.39550470453E+01	-5.85334033079E+00	-4.81769872965E-01
3.19926104268E+05	-1.65051432172E+01	8.58062575790E+01	5.86120453381E+00	-1.78098999997E+02	-3.73477821351E+01	1.07755278353E+02	-5.85520525666E+00	-4.47657869823E-02
3.20157352640E+05	-1.82536370893E+01	-7.44650450693E+00	5.79659245494E+00	-1.77894323830E+02	-3.58138335707E+01	5.97064044884E+01	-5.83376639924E+00	-3.10496836341E-01
3.20388768162E+05	-1.75254423567E+01	-5.50467758323E+01	5.81782464343E+00	-1.77561289980E+02	-3.77656862595E+01	-8.96328830480E+01	-5.91402008953E+00	-3.01013997061E-01
3.20620350955E+05	-2.08243725495E+01	-5.48791152501E+01	5.82417660508E+00	-1.78209369124E+02	-3.58275085485E+01	-3.17088157880E+01	-5.85531703438E+00	-4.73647894343E-01
3.20852101140E+05	-1.85135915521E+01	-6.97525832648E+00	5.75865374771E+00	-1.78002514276E+02	-3.53477682230E+01	9.90294805215E+01	-5.90621607209E+00	-8.61933876385E-02
3.21084018839E+05	-1.82469207984E+01	1.03837569175E+01	5.79684700375E+00	-1.78324335776E+02	-3.97316470600E+01	-5.78552833962E+01	-5.91833563833E+00	-5.60733275943E-01
3.21316104172E+05	-3.07892684211E+01	1.34979394343E+02	5.83663509728E+00	-1.77914453497E+02	-4.20201766837E+01	1.85015590763E+01	-5.91061684127E+00	-2.47887294833E-01
3.21548357261E+05	-2.62064968983E+01	2.93708978010E+01	5.77211231786E+00	-1.78114661509E+02	-3.70825357045E+01	-6.01091537324E+01	-5.89060005254E+00	-5.47081374343E-01
3.21780778226E+05	-2.87856002467E+01	1.49168535868E+02	5.83745185815E+00	-1.78481444792E+02	-3.61036362963E+01	-1.65629741237E+02	-5.91227084545E+00	-2.50582218611E-01
3.22013367189E+05	-1.81098846891E+01	-6.26115853693E+01	5.78897050190E+00	-1.77538278787E+02	-4.20309451038E+01	4.43147378687E+01	-5.92143252691E+00	-1.66211500447E-01
3.22246124272E+05	-2.12482030534E+01	1.22168720039E+02	5.87923856768E+00	-1.78426725885E+02	-4.38036415400E+01	-2.21716537124E+01	-5.86552726594E+00	-1.40649078683E-01
3.22479049596E+05	-9.10769182834E+00	1.27181657798E+02	6.02214054383E+00	-1.79831344326E+02	-3.98357792316E+01	-1.54422396769E+02	-5.89628237279E+00	-1.31363548616E-01
3.22712143282E+05	-7.75488465022E+00	-1.07744100915E+02	5.94922014820E+00	-1.75442791322E+02	-3.79032250877E+01	-1.44438274287E+02	-5.93710262825E+00	-2.86192584429E-01
3.22945405453E+05	-2.81604002246E+01	1.25337905114E+02	5.83511998387E+00	-1.78647617701E+02	-3.89419226068E+01	-1.41803801299E+02	-5.87239182648E+00	-5.98068271420E-01
3.23178836230E+05	-3.12996988979E+01	4.42805313557E+01	5.84740887187E+00	-1.78314045325E+02	-4.36575909101E+01	1.46935174202E+02	-5.88365672050E+00	-2.82926880208E-01
3.23412435735E+05	-2.77409725184E+01	-8.18817827191E+01	5.79918695984E+00	-1.78013683114E+02	-4.12260482674E+01	-1.06172578718E+02	-5.89415702471E+00	-9.62856927225E-01
3.23646204090E+05	-2.03247778165E+01	1.07058135269E+02	5.86461596058E+00	-1.78766325722E+02	-4.90860188703E+01	1.08803416387E+02	-5.90686104116E+00	-5.82903309391E-01
3.23880141417E+05	-1.68075450883E+01	1.99905935808E+01	5.75165794303E+00	-1.77813689986E+02	-3.87948561114E+01	-1.64570628344E+02	-5.93978917751E+00	-1.42235861656E-01
3.24114247838E+05	-1.86495946114E+01	1.70707916285E+02	5.90018578909E+00	-1.78294795711E+02	-3.30279546548E+01	1.08582918127E+02	-5.96469762652E+00	5.37331630308E-03
3.24348523475E+05	-4.10717139739E+01	1.74152215133E+02	5.85713602653E+00	-1.78158078779E+02	-3.66041023232E+01	-5.06305571029E+01	-5.86813190024E+00	-5.98728898317E-01
3.24582968451E+05	-2.36211396844E+01	-1.17599662546E+02	5.90321242408E+00	-1.77486843395E+02	-4.29151663301E+01	-1.48856584157E+02	-5.91708161981E+00	-2.54246202382E-01
3.24817582888E+05	-1.61036619978E+01	1.91006735617E+01	5.78189629693E+00	-1.78502204623E+02	-5.56605457255E+01	-1.03381534517E+02	-5.90368542359E+00	-4.68457163540E-02
3.25052366909E+05	-2.58947376860E+01	-9.25385697413E+01	5.81422894537E+00	-1.77791449995E+02	-4.05962862523E+01	6.56744574814E+01	-5.86009157191E+00	-5.50171100676E-02
3.25287320635E+05	-1.65959395785E+01	-1.10433781442E+02	5.80335511427E+00	-1.77412523806E+02	-4.35949700863E+01	-1.43782419847E+02	-5.92395587977E+00	-1.23578622682E-01
3.25522444191E+05	-2.66100307302E+01	4.78017823978E+01	5.84007628143E+00	-1.78235946151E+02	-3.50831665572E+01	-5.93374458892E+01	-5.84624150298E+00	-2.90377334203E-01
3.25757737698E+05	-9.90679280808E+00	1.52799384984E+02	6.17375022962E+00	-1.79231997390E+02	-3.01748154939E+01	-1.45971635946E+02	-5.97855022510E+00	-3.76299032397E-01
3.25993201280E+05	-2.12089530130E+01	1.53760428321E+02	5.88200999998E+00	-1.78370531936E+02	-3.99525178182E+01	-1.21672608137E+02	-5.86418889295E+00	-5.38804673412E-01
3.26228835058E+05	-2.48769833621E+01	7.47998344601E+01	5.86761967500E+00	-1.78465767395E+02	-5.02475589339E+01	-1.79293346968E+02	-5.85893554633E+00	-3.60843629112E-01
