# Hz S DB R 50
! CMT, M5065, 19127446, 24.2.4/2
! Date: 11/1/2024 4:20:38 PM
! Data: Format (Calibration Info)
! Freq	S11:dB/Ang(F2)	S21:dB/Ang(F2)	S12:dB/Ang(F2)	S22:dB/Ang(F2)
3.00000000000E+05	-3.57518505310E+01	1.28366146323E+02	6.02276704830E+00	-1.77454335705E+02	-4.22176355225E+01	-1.03780291432E+02	-5.89138281204E+00	-6.42578337808E-03
3.00216845423E+05	-1.56239029446E+01	-1.73355854454E+02	6.05522868264E+00	-1.77639590583E+02	-4.33888323012E+01	-7.28189010825E+01	-5.86710084656E+00	-9.26264902282E-03
3.00433847586E+05	-1.40907147970E+01	-1.76696630790E+02	6.17468836105E+00	-1.77606409962E+02	-3.24562758879E+01	-1.22510143429E+02	-5.92563353491E+00	-4.89221725358E-01
3.00651006602E+05	-2.48563932977E+01	-7.21763326993E+01	5.94844162416E+00	-1.77194180780E+02	-4.44183892948E+01	-1.39311732684E+02	-5.91139567960E+00	-2.65659546710E-01
3.00868322584E+05	-1.41711982454E+01	1.12449330567E+02	6.01831234487E+00	-1.78295503162E+02	-4.10121500271E+01	-4.15191519570E+01	-5.87183138460E+00	-5.41207446046E-01
3.01085795647E+05	-2.39460522977E+01	1.41821249630E+02	6.03017211352E+00	-1.77621131667E+02	-3.47372835755E+01	1.60973404124E+02	-5.97776973747E+00	1.61426524263E-01
3.01303425902E+05	-2.36657563953E+01	-1.53409331140E+02	6.00419783320E+00	-1.77531839462E+02	-4.22962061994E+01	1.02555526315E+02	-5.88107708651E+00	3.05957007982E-03
3.01521213465E+05	-1.73859542326E+01	-1.59543449136E+02	6.18306954252E+00	-1.77714642852E+02	-3.56781100231E+01	1.58914234998E+02	-5.91034304528E+00	-4.85908564391E-02
3.01739158449E+05	-1.97569393778E+01	-1.00861041014E+02	5.96876917582E+00	-1.77217028775E+02	-4.48353489096E+01	4.13187310505E+01	-5.86428082919E+00	1.52494571144E-01
3.01957260967E+05	-1.52279317834E+01	-1.33941028957E+02	6.07741156011E+00	-1.77137147595E+02	-3.73629609512E+01	-1.49112162748E+01	-5.86504304536E+00	-2.36193628999E-01
3.02175521134E+05	-1.94787990367E+01	1.54347427330E+02	6.08534879820E+00	-1.78258124801E+02	-4.04922395506E+01	8.70264911890E+01	-5.88505907251E+00	-2.00607886891E-01
3.02393939063E+05	-2.69862514499E+01	1.36262141267E+02	6.06579548752E+00	-1.77469796522E+02	-3.94227063984E+01	-1.26922016483E+02	-5.92534154033E+00	-3.73469786488E-01
3.02612514869E+05	-1.55911844659E+01	7.65163770077E+01	5.93717812738E+00	-1.78039813279E+02	-4.11493194384E+01	-4.00443753444E+01	-5.86050759734E+00	-1.04848612971E-01
3.02831248665E+05	-2.54731405445E+01	-1.32714413968E+02	5.98477876276E+00	-1.77291180476E+02	-5.09327405032E+01	5.86559827240E+00	-5.86719471641E+00	-2.13318602623E-01
3.03050140565E+05	-1.98215942626E+01	-1.66172944984E+02	6.13248525402E+00	-1.77837033749E+02	-4.58729547889E+01	1.37059585575E+02	-5.89263782647E+00	-1.40018536246E-01
3.03269190685E+05	-1.83980721834E+01	-9.95193507025E+01	5.98927726526E+00	-1.77807297996E+02	-3.76631277585E+01	-1.24984547043E+02	-5.93493838286E+00	-5.28757522521E-01
3.03488399138E+05	-1.45519267744E+01	2.72729140983E+01	5.90319266814E+00	-1.78491762601E+02	-4.12652363630E+01	-1.36105947986E+02	-5.90193148939E+00	-1.27659764962E-01
3.03707766039E+05	-2.77863335286E+01	6.72517813112E+01	5.90751649668E+00	-1.77604946077E+02	-3.26042202738E+01	4.38583311302E+01	-5.90191192178E+00	7.39492236934E-02
3.03927291503E+05	-2.59455408302E+01	9.94365546035E+01	5.97239782828E+00	-1.78338458372E+02	-4.02329594723E+01	1.44414694294E+02	-5.93375854413E+00	-1.85246799911E-01
3.04146975643E+05	-2.25964518663E+01	3.99909766336E+01	5.94476555894E+00	-1.77588704241E+02	-3.90734576985E+01	-1.17448169554E+01	-5.88170249689E+00	-2.96606036941E-01
3.04366818575E+05	-2.28085813979E+01	-4.19655224194E+01	5.95625462333E+00	-1.77333059671E+02	-3.20582924889E+01	1.01302188293E+02	-5.93367542588E+00	3.73641086065E-01
3.04586820414E+05	-2.77062077950E+01	-1.33918351393E+02	6.10192214160E+00	-1.77762642290E+02	-4.59277455781E+01	-4.20198113541E+01	-5.87294500961E+00	-1.02195638293E-01
3.04806981274E+05	-2.00437588826E+01	7.95552185127E+01	5.97682066049E+00	-1.77396463683E+02	-4.58094474139E+01	1.79694579671E+02	-5.88723381795E+00	-1.32644033779E-01
3.05027301270E+05	-1.21673266740E+01	-4.40322719423E+01	5.91051729798E+00	-1.76700054011E+02	-4.35425823107E+01	7.18658520513E+01	-5.90991346557E+00	-2.68978233374E-01
3.05247780517E+05	-2.03622558563E+01	2.15784836981E+01	5.92672013851E+00	-1.78005206548E+02	-4.03538179758E+01	-1.60136609106E+02	-5.92489444937E+00	-3.74562915841E-01
3.05468419131E+05	-2.31591685561E+01	-3.61255956812E+00	5.91293226337E+00	-1.77829300664E+02	-4.67987240571E+01	-1.76287940399E+02	-5.91800708490E+00	-4.14323329040E-01
3.05689217226E+05	-2.44733441137E+01	5.65299455687E+01	5.90062982599E+00	-1.77738402585E+02	-3.14032206377E+01	-1.74805380557E+02	-5.97852673922E+00	-1.65059625715E-01
3.05910174918E+05	-2.22300729949E+01	1.62817175275E+02	5.99910127855E+00	-1.78248931389E+02	-3.42749012286E+01	3.06867554424E+01	-5.84308849818E+00	-1.44801402534E-01
3.06131292322E+05	-2.15314778839E+01	2.25643009277E+01	6.02282683285E+00	-1.78069287554E+02	-4.34396715536E+01	-1.34510844263E+02	-5.87664578248E+00	-6.03998819796E-01
3.06352569554E+05	-1.63416903438E+01	-1.21624822601E+01	5.88974102168E+00	-1.77685211782E+02	-4.20067444055E+01	7.28320928098E+01	-5.88656302645E+00	-5.23368754922E-02
3.06574006730E+05	-2.21881586922E+01	8.10052165090E+01	5.98456464089E+00	-1.78138404088E+02	-4.70632415364E+01	1.28441729511E+02	-5.91066507060E+00	-3.31931479995E-01
3.06795603964E+05	-2.25115037955E+01	1.12446030592E+02	5.96547906131E+00	-1.77649359375E+02	-4.19722516838E+01	1.54437125955E+02	-5.89603117925E+00	-4.63449335601E-01
3.07017361372E+05	-2.80250206073E+01	-2.03947536947E+01	5.92879607581E+00	-1.77639941233E+02	-3.96711405915E+01	1.77293073639E+02	-5.90594650212E+00	-4.00981089472E-01
3.07239279071E+05	-1.90222702719E+01	4.14568967504E+01	5.90535915464E+00	-1.78138116645E+02	-3.20697840706E+01	5.57395130316E+01	-5.83243993911E+00	1.56760305318E-02
3.07461357176E+05	-2.32073467723E+01	9.84101753387E+01	5.93650939661E+00	-1.77873698249E+02	-4.00431512746E+01	-1.07404754174E+02	-5.91327100805E+00	-5.25152438995E-01
3.07683595803E+05	-1.78092168145E+01	1.58482762264E+02	5.99896259691E+00	-1.78229525289E+02	-5.38865043784E+01	-1.37092890019E+01	-5.86042520465E+00	-2.85645622246E-01
3.07905995068E+05	-2.09558962702E+01	9.11528582948E+01	5.97378492001E+00	-1.78316354208E+02	-3.85585107088E+01	-1.35361047621E+02	-5.93793137548E+00	-2.74586759094E-01
3.08128555087E+05	-2.33192474475E+01	-9.49907629351E+01	6.00047493401E+00	-1.77356301549E+02	-3.74082924204E+01	-6.28220577565E+01	-5.88290128531E+00	-6.12888741787E-01
3.08351275976E+05	-2.18842092678E+01	-1.03124434687E+02	5.93821303646E+00	-1.77653717013E+02	-3.79025736295E+01	2.62246368802E+01	-5.84015165714E+00	2.18283430265E-02
3.08574157853E+05	-2.80385626428E+01	-1.53614074139E+02	5.97943176903E+00	-1.77698643729E+02	-4.16777933771E+01	-1.55100208468E+02	-5.91756358252E+00	-4.59192457474E-01
3.08797200832E+05	-2.60805444824E+01	-5.34321565805E+01	6.01407364875E+00	-1.77305796908E+02	-3.33914062296E+01	1.27486460519E+02	-5.94317326247E+00	5.88419429483E-02
3.09020405031E+05	-2.72279327947E+01	7.12270806924E+01	5.97600548260E+00	-1.78058511086E+02	-3.67634254211E+01	-1.29616327047E+02	-5.88400229557E+00	-6.20900522401E-01
3.09243770566E+05	-1.72202625215E+01	-9.41635638999E+01	6.01876847416E+00	-1.77272782187E+02	-4.50570094005E+01	7.42808766424E+01	-5.88386157365E+00	-1.60554891942E-01
3.09467297553E+05	-2.28451803836E+01	4.56316228460E+01	5.90619093918E+00	-1.77463119846E+02	-4.29038070239E+01	4.59099211857E+01	-5.84931971601E+00	-4.42449464855E-01
3.09690986110E+05	-2.58232108742E+01	-8.12542508181E+01	6.05455465782E+00	-1.77308388550E+02	-4.38768102911E+01	1.43793281532E+02	-5.92284613031E+00	-2.11168101820E-01
3.09914836353E+05	-2.22625280811E+01	1.62890054114E+02	6.02823755085E+00	-1.77820506846E+02	-3.97217052094E+01	-2.39142528537E+01	-5.83651549021E+00	-2.61500659237E-01
3.10138848399E+05	-2.30545485867E+01	-1.69821460578E+02	6.06842968819E+00	-1.77836606437E+02	-5.05931737398E+01	2.63599387831E+01	-5.87696437037E+00	-2.99455163426E-02
3.10363022365E+05	-2.14035020445E+01	-1.07197638129E+02	5.99097012897E+00	-1.77422062377E+02	-4.34264636816E+01	-8.71911042750E+01	-5.90773761953E+00	-3.76144106191E-01
3.10587358368E+05	-1.90988548336E+01	8.46490607486E+01	5.95859225951E+00	-1.77833604302E+02	-3.50243885480E+01	-9.75644889577E+01	-5.89217458106E+00	-4.72778785408E-01
3.10811856525E+05	-1.47104060643E+01	-1.42614004897E+02	6.04208075578E+00	-1.77111170708E+02	-3.52554971056E+01	1.37781944869E+02	-5.92319623005E+00	-2.45657576426E-01
3.11036516954E+05	-2.33021908663E+01	-1.12122815984E+02	6.05630721167E+00	-1.78266159979E+02	-4.55344476483E+01	-8.44348252723E+01	-5.88532907113E+00	-2.47673724533E-01
3.11261339771E+05	-1.60556364385E+01	6.52885187008E+01	5.92711895846E+00	-1.78713484341E+02	-3.75548513268E+01	-1.28248869182E+02	-5.91783105636E+00	-2.40462292792E-01
3.11486325094E+05	-1.26974314271E+01	-9.34947168476E+00	5.86679803494E+00	-1.78062777199E+02	-4.95987870883E+01	4.88824090826E+01	-5.87772427227E+00	-4.88027619853E-02
3.11711473040E+05	-2.02921303308E+01	-4.69539361656E+01	5.96891323576E+00	-1.77572207894E+02	-4.06327812321E+01	1.71895647306E+01	-5.83418424045E+00	-4.48282741869E-01
3.11936783728E+05	-2.08215686582E+01	9.84703871179E+01	6.02168703663E+00	-1.78023396460E+02	-3.50278921962E+01	-9.36016522994E+01	-5.91947692345E+00	-6.15016443596E-01
3.12162257274E+05	-2.43295531945E+01	-6.01829203671E+01	5.94572835535E+00	-1.77281073985E+02	-4.23550333806E+01	-7.37824696069E+00	-5.88045606029E+00	-2.00363732922E-01
3.12387893797E+05	-4.65158706857E+01	1.23721712371E+02	6.02970328782E+00	-1.77341866265E+02	-4.08864437287E+01	1.49925415058E+02	-5.89586754649E+00	-4.33911738486E-01
3.12613693413E+05	-1.49770867608E+01	-9.39626174816E+01	5.96676863906E+00	-1.76940700839E+02	-4.44412475336E+01	6.41087229423E+01	-5.88860872422E+00	-2.37560794255E-01
3.12839656242E+05	-1.77866969359E+01	1.47038165178E+02	6.10085399881E+00	-1.78361157280E+02	-4.86796051944E+01	5.10476983052E+01	-5.84183410246E+00	2.62813499092E-02
3.13065782401E+05	-7.68684550976E+00	1.33399138161E+02	6.15787858959E+00	-1.79080966878E+02	-3.73936492340E+01	7.46354397285E+00	-5.87096012052E+00	-2.21475970384E-01
3.13292072007E+05	-2.68501685314E+01	1.59401327158E+02	5.97596268830E+00	-1.77662761982E+02	-4.54138923026E+01	-6.55343072828E+01	-5.85637959383E+00	-3.40363967961E-01
3.13518525180E+05	-1.85008935926E+01	7.37277136234E+01	5.93526555428E+00	-1.78107714967E+02	-2.95976184922E+01	5.07449520241E+01	-5.78092981372E+00	2.95061838452E-01
3.13745142038E+05	-1.75824726591E+01	3.06673734950E+01	5.95639928146E+00	-1.78198622267E+02	-3.08704949147E+01	1.76046041367E+02	-5.97545318943E+00	-2.33666950074E-01
3.13971922698E+05	-1.99566586826E+01	9.64715900193E+01	6.01315021683E+00	-1.77918266389E+02	-4.54031782778E+01	-1.39258997995E+02	-5.91814600516E+00	-4.20462426512E-01
3.14198867279E+05	-3.38920392981E+01	1.10270168344E+01	5.97646602313E+00	-1.77894643627E+02	-3.47153207253E+01	1.79205116113E+02	-5.91994401529E+00	-4.75405907168E-02
3.14425975900E+05	-3.07333209044E+01	-8.41881526935E+01	5.95301836634E+00	-1.77288877368E+02	-4.09730995785E+01	1.18007141272E+02	-5.87130874914E+00	-3.72598352098E-01
3.14653248680E+05	-2.02055629868E+01	8.40338516397E+01	5.93229714213E+00	-1.78135341198E+02	-3.54981410134E+01	-9.91088602909E+01	-5.88878974823E+00	-8.34325905673E-01
3.14880685736E+05	-1.90580609136E+01	-6.91790199653E+01	5.93980557355E+00	-1.77522330339E+02	-3.73398748025E+01	4.59153664210E+01	-5.86790391515E+00	-3.94717950169E-01
3.15108287188E+05	-2.99482474445E+01	-1.76502102699E+02	5.97849520573E+00	-1.77947547020E+02	-3.97767198354E+01	-1.75406735579E+02	-5.90397713708E+00	-3.79566393391E-01
3.15336053154E+05	-1.76584085212E+01	8.62447181303E+01	5.96286180458E+00	-1.78420961342E+02	-4.15828039993E+01	4.27511784679E+01	-5.87333336314E+00	1.07259548702E-01
3.15563983753E+05	-1.69902757652E+01	-6.37683618856E+01	6.02764506142E+00	-1.77563773023E+02	-3.62125635443E+01	-4.33855675226E+01	-5.87807610311E+00	-5.48529821600E-01
3.15792079105E+05	-2.16858469870E+01	-1.03639299867E+02	6.01860793436E+00	-1.77819103159E+02	-5.11875966387E+01	6.62419003499E+01	-5.87662120676E+00	-1.92632748717E-01
3.16020339328E+05	-2.59565869639E+01	-4.49018168019E+01	5.99071862725E+00	-1.77488989446E+02	-4.22852936196E+01	9.61771949043E+01	-5.89234038585E+00	-3.13043825658E-01
3.16248764542E+05	-1.74012281612E+01	1.66596907858E+02	6.11385969571E+00	-1.78394167792E+02	-4.02332441058E+01	3.45504697155E+01	-5.89600303348E+00	-1.76456529981E-01
3.16477354866E+05	-1.57028724735E+01	-1.06324571671E+02	5.98018446475E+00	-1.77449054132E+02	-3.59426506552E+01	3.29941981345E+01	-5.85377220698E+00	1.67458864703E-01
3.16706110419E+05	-2.52420078892E+01	-1.68451564075E+02	6.08825313895E+00	-1.78185710140E+02	-4.40271588127E+01	-2.98629999164E+01	-5.86698768578E+00	-1.58144373428E-01
3.16935031321E+05	-1.72764997768E+01	2.67437689228E+00	5.95185857115E+00	-1.78095285130E+02	-3.59033238598E+01	-3.51190584843E+01	-5.85891160548E+00	-2.44217546545E-01
3.17164117691E+05	-1.96198456387E+01	6.23786016451E+01	5.96309931315E+00	-1.78264705997E+02	-4.06508117630E+01	-1.17218505686E+02	-5.86984632226E+00	-2.44079921161E-01
3.17393369648E+05	-1.86417360532E+01	-2.28266447170E+01	5.88207390675E+00	-1.77461182352E+02	-4.24729253321E+01	-9.50239527989E+00	-5.90717289291E+00	-5.88834875627E-01
3.17622787313E+05	-2.42892110025E+01	1.17261602017E+02	5.98506775771E+00	-1.78416073511E+02	-5.13290722396E+01	-1.21302262281E+02	-5.87270217725E+00	-3.98291408440E-01
3.17852370806E+05	-1.78363518205E+01	5.78145560537E+01	5.95983626184E+00	-1.78827343182E+02	-4.47069371240E+01	-1.34559142061E+02	-5.88776665096E+00	1.16299740838E-01
3.18082120245E+05	-1.55359556639E+01	4.48455058179E+01	5.89935438160E+00	-1.78034055043E+02	-4.52449137522E+01	2.74490819163E+01	-5.88895833163E+00	-4.91767706615E-02
3.18312035752E+05	-2.47993922882E+01	-1.73960224785E+02	5.99420989316E+00	-1.77967756237E+02	-4.17444990922E+01	5.83932459871E+01	-5.90168038809E+00	-1.13558351723E-01
3.18542117445E+05	-1.80346541884E+01	8.55911527693E+01	5.98802430416E+00	-1.77896143980E+02	-2.91036036410E+01	-1.46918958567E+02	-6.02982716383E+00	-5.99796041515E-01
3.18772365446E+05	-1.73788673717E+01	-9.17901498262E+01	5.99821685020E+00	-1.77469664447E+02	-4.61151489465E+01	1.27799529664E+02	-5.88111479342E+00	-6.38497780408E-02
3.19002779874E+05	-1.99611257418E+01	-5.37849908872E+01	5.96138385866E+00	-1.77398303428E+02	-3.72742729950E+01	-7.09654491186E+01	-5.85788136298E+00	-5.40397484142E-01
3.19233360850E+05	-3.47108391837E+01	1.19297542564E+01	6.05045348421E+00	-1.77805498152E+02	-4.46754795861E+01	2.14177108677E+01	-5.90335586308E+00	-2.41269913810E-01
3.19464108494E+05	-2.19539332553E+01	-2.17984199958E+01	5.92833467455E+00	-1.77950598355E+02	-3.70173767998E+01	-1.55114168129E+02	-5.96016711971E+00	-3.45650340055E-01
3.19695022927E+05	-1.31395948118E+01	-1.35221643169E+02	6.17185350731E+00	-1.77113159474E+02	-3.98212080444E+01	1.18107241665E+02	-5.90957326082E+00	-1.62075989586E-01
3.19926104268E+05	-1.76261774301E+01	-3.18823183833E+01	5.89224452617E+00	-1.77877791187E+02	-4.09260147595E+01	-6.07486738978E+00	-5.86454362749E+00	-3.14286177813E-01
3.20157352640E+05	-3.02877352317E+01	-1.57516449924E+02	6.09355972119E+00	-1.77955306405E+02	-3.04258407678E+01	3.74195752783E+01	-5.85365092449E+00	8.10993156525E-02
3.20388768162E+05	-1.98874683800E+01	-9.87763700316E+01	6.02204377732E+00	-1.77417548712E+02	-6.15359037976E+01	-1.55057477531E+02	-5.89654097185E+00	-1.70948524367E-02
3.20620350955E+05	-2.17447467821E+01	-1.76938665937E+02	6.06891484149E+00	-1.77627466424E+02	-4.12320044045E+01	-4.29769329782E+01	-5.88622497881E+00	-4.51477869402E-01
3.20852101140E+05	-2.35223602915E+01	-1.24796415066E+02	6.03375221948E+00	-1.77235622036E+02	-3.46911212620E+01	-1.50776124132E+02	-5.92553401119E+00	-7.90419367310E-01
3.21084018839E+05	-1.80324426717E+01	-5.02074622484E+01	5.96667433577E+00	-1.77519525421E+02	-4.13435163841E+01	-1.58159418755E+02	-5.91814349639E+00	-3.11885390593E-01
3.21316104172E+05	-1.16119352783E+01	-1.48194485625E+02	6.11802511786E+00	-1.77523946615E+02	-4.07134595678E+01	-1.31336311634E+02	-5.92889634287E+00	-3.47766440255E-01
3.21548357261E+05	-2.07168282979E+01	-1.69459947398E+02	6.03296871980E+00	-1.78064545977E+02	-3.51302875303E+01	-1.17600041541E+02	-5.88575739162E+00	-7.44699885062E-01
3.21780778226E+05	-2.23230589322E+01	2.11914137037E+01	5.98316464927E+00	-1.78099895896E+02	-2.83877915412E+01	-1.79678795815E+02	-5.97372604274E+00	-2.80357003519E-01
3.22013367189E+05	-2.79110823183E+01	-4.74606957838E+00	5.96405020969E+00	-1.77924785596E+02	-4.86531237869E+01	2.37420000817E+01	-5.86935363639E+00	-3.59944150151E-01
3.22246124272E+05	-2.17149325292E+01	9.85678852165E+01	6.00378759539E+00	-1.78471723114E+02	-3.87723825541E+01	3.86277308982E+01	-5.84432749550E+00	-2.59971959785E-01
3.22479049596E+05	-1.85357952376E+01	5.02574369494E+01	6.04503501212E+00	-1.78184584242E+02	-4.58015774381E+01	-1.62900081490E+02	-5.88743228476E+00	-2.40445337673E-01
3.22712143282E+05	-1.64385772265E+01	-8.63346943358E+01	6.01508149937E+00	-1.76995355019E+02	-4.18051221611E+01	1.58098729638E+02	-5.89743069709E+00	-9.66381226138E-02
3.22945405453E+05	-2.43673847445E+01	1.08126605652E+02	6.00575633225E+00	-1.78065960435E+02	-3.95481912716E+01	4.24191525196E+01	-5.89168206338E+00	-2.64942262988E-01
3.23178836230E+05	-1.38315771603E+01	1.47601406642E+02	6.11445324941E+00	-1.78673099025E+02	-3.01865404005E+01	-1.31348243150E+02	-5.93382933546E+00	-3.41653102354E-01
3.23412435735E+05	-2.40358813403E+01	1.41932642969E+02	5.97201958250E+00	-1.78318127399E+02	-3.60837994044E+01	6.27309181552E+01	-5.83295389750E+00	-1.22603679277E-01
3.23646204090E+05	-2.28193068405E+01	1.49994453533E+02	6.02454119767E+00	-1.78045349031E+02	-4.97759844414E+01	-1.29488850555E+02	-5.88290739780E+00	-4.94104449926E-01
3.23880141417E+05	-2.07953211035E+01	-1.26980520427E+02	6.07753079273E+00	-1.77961503315E+02	-3.82649871524E+01	-4.26150234105E+01	-5.87826110785E+00	-3.55182780939E-01
3.24114247838E+05	-2.57513396659E+01	-6.84409347118E+01	6.00069756075E+00	-1.77898080242E+02	-3.99583959013E+01	-1.33280688459E+02	-5.82435789845E+00	-2.76798977872E-01
3.24348523475E+05	-1.81895703313E+01	-7.06784299051E+01	6.02122726272E+00	-1.77234495824E+02	-3.75836901932E+01	1.07237205892E+02	-5.88116140890E+00	-1.29158038795E-01
3.24582968451E+05	-9.80064864085E+00	-1.73450322571E+02	6.23332607520E+00	-1.77637401199E+02	-4.54997752755E+01	1.12319483343E+02	-5.90091264667E+00	-3.39365031609E-01
3.24817582888E+05	-3.09377424558E+01	2.06742475729E+00	6.03686154740E+00	-1.78485600217E+02	-4.35595933500E+01	6.30371365693E+01	-5.86058255047E+00	1.54636391142E-01
3.25052366909E+05	-1.94076851333E+01	-1.72631864281E+02	6.02353914924E+00	-1.78108239319E+02	-3.54744134737E+01	-8.66528865624E+01	-5.90033719281E+00	-3.98480955066E-01
3.25287320635E+05	-1.41809241953E+01	1.22295072472E+02	6.06924573992E+00	-1.79054653383E+02	-4.35373218119E+01	-3.77758880776E+01	-5.90824382227E+00	-2.78597687232E-01
3.25522444191E+05	-2.97371532742E+01	-4.51536286102E+01	6.05393188913E+00	-1.77303939820E+02	-4.70185796472E+01	-1.64451190919E+02	-5.86173212927E+00	-1.91989077133E-01
3.25757737698E+05	-2.46466750819E+01	-9.41333944574E+01	5.90805108075E+00	-1.77867825422E+02	-3.75163594304E+01	-8.63496148877E+01	-5.84924414578E+00	-3.43295000204E-01
3.25993201280E+05	-1.38736153188E+01	-1.77652441451E+02	6.15755735502E+00	-1.77912963344E+02	-3.39497372703E+01	-1.27500059503E+02	-5.93155314671E+00	-2.53361859599E-01
3.26228835058E+05	-1.19209559084E+01	3.52516231988E+01	5.82984167198E+00	-1.78474218360E+02	-3.62905231512E+01	6.33684968045E+01	-5.87185790112E+00	1.02122015290E-01
