# Hz S DB R 50
! CMT, M5065, 19127446, 24.2.4/2
! Date: 11/1/2024 4:39:21 PM
! Data: Format (Calibration Info)
! Freq	S11:dB/Ang(F2)	S21:dB/Ang(F2)	S12:dB/Ang(F2)	S22:dB/Ang(F2)
3.00000000000E+05	-2.04353075779E+01	1.75920259746E+02	1.33038424838E+01	-1.77161184426E+02	-4.50888052301E+01	4.77371826294E+01	-5.87265202430E+00	1.47388418232E-01
3.00216845423E+05	-2.12506658597E+01	-9.65169069336E+01	1.33029738468E+01	-1.77012649303E+02	-3.56046594706E+01	-4.65726195401E+01	-5.80306962376E+00	-8.98339114961E-01
3.00433847586E+05	-1.80072631752E+01	1.90686758410E+01	1.32000047418E+01	-1.77731510197E+02	-4.76879311388E+01	1.31376116608E+02	-5.88116642600E+00	-1.39071692385E-01
3.00651006602E+05	-2.31366638107E+01	1.33480785577E+02	1.33010719008E+01	-1.77370699704E+02	-3.63666150149E+01	-1.96357811600E+01	-5.76131158613E+00	-5.15145191848E-01
3.00868322584E+05	-1.83117120288E+01	-1.21396188356E+02	1.33149964274E+01	-1.76633988116E+02	-3.54269129159E+01	1.60100761472E+02	-6.03250208125E+00	-3.92176572726E-01
3.01085795647E+05	-1.76609731898E+01	1.22229719644E+02	1.33667006540E+01	-1.77546979273E+02	-5.32903200479E+01	-1.52981021961E+02	-5.87808692735E+00	-2.20927793446E-01
3.01303425902E+05	-1.48468332406E+01	-1.74535712134E+02	1.33872655762E+01	-1.77116666144E+02	-4.18967641469E+01	-1.75382733381E+02	-5.90478819127E+00	-4.01427974279E-01
3.01521213465E+05	-2.04768579838E+01	1.02065369149E+02	1.32734236308E+01	-1.77680494120E+02	-4.02111208819E+01	-6.21235188705E+01	-5.89868326479E+00	-6.35049050512E-01
3.01739158449E+05	-2.22378145678E+01	1.35750681529E+02	1.33033153704E+01	-1.77678093785E+02	-4.47158969052E+01	-1.34870663931E+02	-5.90474471326E+00	-7.42269718257E-01
3.01957260967E+05	-3.25630471931E+01	-9.26513899455E+01	1.32524024419E+01	-1.77246138515E+02	-3.88992773622E+01	-1.44110012493E+02	-5.92329603441E+00	-3.11094619562E-01
3.02175521134E+05	-1.95588647129E+01	1.08274201942E+02	1.33257243974E+01	-1.77689361455E+02	-3.55423495969E+01	1.44792015568E+02	-5.99167838962E+00	-6.00850725080E-03
3.02393939063E+05	-1.38823986718E+01	5.03098753659E+00	1.31642788043E+01	-1.77387253618E+02	-3.28063513254E+01	9.65620088270E+01	-5.83179611955E+00	5.37549947765E-01
3.02612514869E+05	-1.65708178037E+01	-2.36901097157E+01	1.31762771354E+01	-1.76651903914E+02	-5.85625065754E+01	7.96018882687E+01	-5.83668631775E+00	-1.21851915582E-01
3.02831248665E+05	-1.93066130551E+01	-9.57205038579E+01	1.32714109382E+01	-1.76811176056E+02	-3.90157202089E+01	-3.60984086576E+01	-5.84640722454E+00	-7.22837716771E-01
3.03050140565E+05	-2.69680828399E+01	-5.99140583346E+01	1.32767453535E+01	-1.76969802285E+02	-3.63779694309E+01	-1.44283758480E+02	-5.96178631310E+00	-1.90272716812E-01
3.03269190685E+05	-2.21398920386E+01	-1.21065992841E+02	1.33426768277E+01	-1.76909711392E+02	-3.57233138790E+01	-2.24717216843E+01	-5.76983349424E+00	-6.17151533816E-01
3.03488399138E+05	-2.87493769938E+01	-3.99143331907E+01	1.32074878559E+01	-1.77078005668E+02	-4.11965487256E+01	1.04360441275E+02	-5.88537297211E+00	-1.47265531348E-01
3.03707766039E+05	-1.66824966241E+01	-9.07522302425E+00	1.31740839262E+01	-1.77445025756E+02	-4.98734763602E+01	-1.51829458616E+02	-5.91110410090E+00	-2.72652578121E-01
3.03927291503E+05	-1.68846191419E+01	1.75123140194E+02	1.33487903483E+01	-1.77354447627E+02	-3.45062343426E+01	-1.38043475952E+02	-5.95088414684E+00	-5.36893759944E-01
3.04146975643E+05	-7.60592995887E+00	-3.64344028547E+01	1.29826984808E+01	-1.75825773873E+02	-4.09693937203E+01	6.22552616419E+01	-5.89608124110E+00	-2.90401193946E-02
3.04366818575E+05	-1.46662983116E+01	1.59060236956E+02	1.33835383726E+01	-1.77503631282E+02	-4.00860818204E+01	1.57677798096E+02	-5.95938004286E+00	-1.98253101263E-01
3.04586820414E+05	-2.26424098014E+01	1.21714352476E+02	1.33183065747E+01	-1.77682307736E+02	-5.07798326604E+01	-6.02497335645E+01	-5.85424840184E+00	-3.62370112920E-01
3.04806981274E+05	-1.92790009637E+01	-1.56110111786E+02	1.33244174062E+01	-1.77042281154E+02	-4.00913478143E+01	7.07763345468E+01	-5.88809118093E+00	4.04849899165E-02
3.05027301270E+05	-1.30008627494E+01	1.22671870615E+02	1.33784501500E+01	-1.77783053902E+02	-4.90753704696E+01	3.86374443601E+01	-5.87925522072E+00	1.54169245632E-01
3.05247780517E+05	-2.30687196855E+01	1.49163157712E+02	1.32704354162E+01	-1.77521784269E+02	-3.42338505930E+01	9.67840082915E+01	-5.94104635395E+00	7.28264365829E-01
3.05468419131E+05	-1.08984859914E+01	-1.54800772058E+02	1.34366923539E+01	-1.76727368734E+02	-4.79985418864E+01	-1.49342923829E+02	-5.90884824313E+00	-6.38563162907E-01
3.05689217226E+05	-7.27564061280E+00	6.95261031574E+01	1.31561769069E+01	-1.79287385955E+02	-4.87399671516E+01	8.98349742485E+00	-5.87316316785E+00	-1.54529322466E-01
3.05910174918E+05	-2.85029267955E+01	-7.96919194177E+01	1.32769088221E+01	-1.77186077196E+02	-3.97172024032E+01	1.68878216789E+02	-5.92086310119E+00	-5.80506209016E-02
3.06131292322E+05	-2.07907364311E+01	-1.44055956645E+02	1.33384403334E+01	-1.77254472886E+02	-5.07218757773E+01	1.47746237239E+02	-5.88277048784E+00	-4.78268706702E-01
3.06352569554E+05	-1.64318467525E+01	1.50978556846E+02	1.33731791510E+01	-1.77533152617E+02	-3.68157391912E+01	8.06670807519E+00	-5.80347573863E+00	-3.25126552221E-01
3.06574006730E+05	-2.43877019633E+01	2.72773769776E+01	1.32967978180E+01	-1.77519850674E+02	-3.59702410848E+01	-1.18760007338E+02	-5.95721945877E+00	-7.18378611647E-01
3.06795603964E+05	-3.07036251337E+01	6.78904774234E+01	1.32973280801E+01	-1.77159361228E+02	-3.38519789901E+01	1.64132524504E+01	-5.73079127131E+00	4.18674778771E-01
3.07017361372E+05	-1.44576921917E+01	-6.11742539032E+01	1.32627706991E+01	-1.76533376508E+02	-2.92383301184E+01	1.51486391760E+01	-5.65651936548E+00	2.64897099023E-01
3.07239279071E+05	-8.12313171348E+00	1.53291810139E+02	1.35398173236E+01	-1.78095018015E+02	-3.91581184044E+01	-1.71458141642E+02	-5.92488094699E+00	-1.14600098396E-01
3.07461357176E+05	-2.46504610641E+01	-1.69902633318E+02	1.33346676975E+01	-1.77351210151E+02	-4.79332658940E+01	-4.61335709688E+01	-5.86893214411E+00	-2.56682063148E-01
3.07683595803E+05	-1.89183055530E+01	-4.95978381387E+01	1.32051093793E+01	-1.77049787097E+02	-4.12077853535E+01	4.57818500470E+01	-5.86222525514E+00	-2.42786895294E-01
3.07905995068E+05	-2.22228184120E+01	8.84926624895E+01	1.32941973427E+01	-1.77785338054E+02	-3.96791317391E+01	-1.75728306609E+02	-5.94842291461E+00	-2.47975313553E-01
3.08128555087E+05	-1.92851529409E+01	9.35641962611E+01	1.33104950069E+01	-1.77745940400E+02	-3.95470339653E+01	-1.39584967148E+02	-5.89766143830E+00	-5.46010604357E-03
3.08351275976E+05	-1.91170932886E+01	-1.70806815012E+02	1.33265339439E+01	-1.77214485150E+02	-3.79351183923E+01	1.09600910570E+02	-5.90950714214E+00	1.63672483932E-01
3.08574157853E+05	-3.05085214157E+01	1.56510309771E+02	1.33088933236E+01	-1.77378962095E+02	-3.39390531578E+01	-1.45677701445E+02	-5.96334919358E+00	-8.81116356843E-01
3.08797200832E+05	-1.04256967689E+01	5.45479759120E+01	1.31445794512E+01	-1.78478018387E+02	-3.98241639066E+01	1.49995392212E+02	-5.96216577884E+00	-1.22508458857E-01
3.09020405031E+05	-1.79669521809E+01	-1.75343765893E+02	1.33340069539E+01	-1.77085200266E+02	-4.41449755885E+01	-4.01551836205E+00	-5.86936179368E+00	1.05844357562E-02
3.09243770566E+05	-1.94456905329E+01	-2.35077278924E+01	1.31983226300E+01	-1.77056701098E+02	-4.05317929110E+01	3.34953756173E+01	-5.82852727058E+00	-1.17120435125E-01
3.09467297553E+05	-2.30851278168E+01	1.26079116263E+02	1.33237453851E+01	-1.77582215278E+02	-4.14741694934E+01	-1.55825264110E+02	-5.87668290026E+00	-4.20046969476E-01
3.09690986110E+05	-2.05348013853E+01	1.36881104260E+02	1.33243746876E+01	-1.77606816209E+02	-4.02070025645E+01	1.03398476382E+02	-5.88397488131E+00	-1.53503984243E-01
3.09914836353E+05	-2.57082293338E+01	1.72846707218E+02	1.32980162229E+01	-1.77602086291E+02	-3.97313955484E+01	-1.68414870680E+02	-5.96371005806E+00	-4.37257110332E-01
3.10138848399E+05	-1.85634484131E+01	-1.60876637374E+02	1.33799000498E+01	-1.77587352672E+02	-3.31620489958E+01	-6.54252772548E+01	-5.78836473628E+00	-1.24603663933E+00
3.10363022365E+05	-1.13128808486E+01	-5.40322519122E+01	1.32157932055E+01	-1.76112319345E+02	-4.27172709316E+01	-5.64454407987E+01	-5.85760073183E+00	-4.09695641901E-01
3.10587358368E+05	-1.73430482306E+01	1.01594932509E+02	1.33102334303E+01	-1.78080837379E+02	-4.00995906958E+01	1.50823154924E+02	-5.93039796889E+00	6.60028434714E-03
3.10811856525E+05	-2.61652230165E+01	1.10338226072E+02	1.32668929687E+01	-1.77554583989E+02	-4.00026511874E+01	-4.00928504642E+01	-5.80028362270E+00	-4.62551748753E-01
3.11036516954E+05	-2.86732680584E+01	2.15117497063E+01	1.32619399280E+01	-1.77404918289E+02	-4.33555122222E+01	6.24724965427E+01	-5.86434271298E+00	-6.97577790283E-02
3.11261339771E+05	-2.05953696940E+01	-1.24979873572E+02	1.33167045781E+01	-1.76858011017E+02	-4.64049735695E+01	-1.14525760073E+02	-5.89196407481E+00	-3.83280768413E-01
3.11486325094E+05	-2.52743840932E+01	3.06448008170E+01	1.32441288091E+01	-1.77558914033E+02	-4.08217003294E+01	-4.24391157611E+00	-5.76173387243E+00	-4.35834236589E-01
3.11711473040E+05	-1.94580787517E+01	-1.61794998881E+02	1.33451873820E+01	-1.77295874435E+02	-3.49149780378E+01	2.19513042450E+01	-5.78826814323E+00	1.66243095523E-01
3.11936783728E+05	-1.97088783828E+01	1.53750384362E+02	1.33264424100E+01	-1.77685676528E+02	-3.47177568215E+01	-1.16743657531E+02	-5.89893710330E+00	-9.15157206846E-01
3.12162257274E+05	-2.10668144289E+01	1.90817083856E+01	1.32770868860E+01	-1.77489561134E+02	-4.74070817873E+01	-1.18385937887E+02	-5.90788836788E+00	-2.33572413864E-01
3.12387893797E+05	-1.97217444835E+01	1.78917535732E+02	1.33508060348E+01	-1.77469177300E+02	-4.85049238686E+01	1.73894324812E+02	-5.87692845631E+00	-2.37895791445E-01
3.12613693413E+05	-2.04252117857E+01	-1.10671714613E+02	1.32783498515E+01	-1.77443749895E+02	-3.56763856811E+01	1.56182861078E+02	-5.99577960314E+00	-3.15327468707E-01
3.12839656242E+05	-1.68832970283E+01	1.13721245792E+02	1.33540027489E+01	-1.77878326223E+02	-4.10877463906E+01	8.08473714552E+01	-5.87595586587E+00	-2.07477987513E-01
3.13065782401E+05	-2.97144205556E+01	6.91111570286E+01	1.32517547112E+01	-1.77582591942E+02	-4.19727541384E+01	-1.72108094206E+02	-5.90141367762E+00	-3.78123824041E-01
3.13292072007E+05	-2.81981293618E+01	4.37720441775E+01	1.32726480883E+01	-1.77567038843E+02	-3.90674769410E+01	4.26504143507E+01	-5.78384833732E+00	-7.99206505331E-02
3.13518525180E+05	-1.97260849925E+01	-1.78537748217E+02	1.33689792238E+01	-1.77205013781E+02	-3.69467015980E+01	1.08924767119E+02	-5.95352219238E+00	3.66808809953E-01
3.13745142038E+05	-2.27277888229E+01	8.69771925843E+01	1.32368223586E+01	-1.77777622456E+02	-4.16349158391E+01	-1.13923441236E+02	-5.88471998561E+00	-4.28623606560E-01
3.13971922698E+05	-2.10191580771E+01	1.51418683499E+02	1.33358985523E+01	-1.77751932742E+02	-4.22240821229E+01	-7.19788030754E+01	-5.89636321162E+00	-6.45768502618E-01
3.14198867279E+05	-2.28422772097E+01	-1.70582828619E+02	1.33450314828E+01	-1.77246127935E+02	-3.99769044745E+01	1.48370935364E+02	-5.93191426477E+00	-1.04881676954E-02
3.14425975900E+05	-2.41823499046E+01	1.14097056136E+02	1.33389093186E+01	-1.77858524476E+02	-3.90677299441E+01	-1.74293480179E+02	-5.95657121351E+00	-3.97932004209E-01
3.14653248680E+05	-2.27776935162E+01	4.86020181597E+01	1.32772358423E+01	-1.77807170173E+02	-3.89821694516E+01	-5.27042621973E+01	-5.85431067380E+00	-4.40962717164E-01
3.14880685736E+05	-2.73644856186E+01	-9.55633082362E+00	1.32817937240E+01	-1.77376831934E+02	-3.36311073043E+01	1.67920238215E+02	-5.98965959909E+00	-2.13868899284E-01
3.15108287188E+05	-1.78598282349E+01	8.98431369938E+01	1.32516638374E+01	-1.77799173979E+02	-3.51586127933E+01	-1.49812321718E+02	-5.99859923517E+00	-4.37101491760E-01
3.15336053154E+05	-1.71748660985E+01	1.36127118953E+02	1.33828561282E+01	-1.77863306147E+02	-5.08321314694E+01	-1.22201566034E+02	-5.85664065811E+00	-2.44981034721E-01
3.15563983753E+05	-1.63591614666E+01	-1.49115324288E+02	1.33095371934E+01	-1.77215825914E+02	-3.93584614796E+01	-5.45307738923E+01	-5.81584316375E+00	-5.56860015385E-01
3.15792079105E+05	-2.43374553450E+01	1.82965589417E+01	1.32933778478E+01	-1.77561781317E+02	-4.73795797316E+01	1.22195661912E+02	-5.90435394474E+00	3.50656087237E-03
3.16020339328E+05	-1.83617518117E+01	1.12698762163E+02	1.32978164519E+01	-1.77998963683E+02	-3.64413803399E+01	-9.25730156350E+01	-5.89431489080E+00	-8.89691841857E-01
3.16248764542E+05	-3.09999199955E+01	-1.38568790994E+02	1.33506219883E+01	-1.77343642064E+02	-3.62825447349E+01	-8.57362601402E+01	-5.86628799614E+00	-7.98043212134E-01
3.16477354866E+05	-2.41554940479E+01	1.52346729370E+02	1.33461474362E+01	-1.77731483209E+02	-2.90140456898E+01	-4.67874578403E+01	-5.69899469684E+00	-1.29690918786E+00
3.16706110419E+05	-2.73321833116E+01	-1.21257075904E+01	1.32795031677E+01	-1.77221931808E+02	-3.60329375696E+01	7.02065566066E+01	-5.86622187888E+00	1.85632838541E-01
3.16935031321E+05	-1.58210336514E+01	1.08292764886E+02	1.32739920210E+01	-1.78283131817E+02	-4.30339826528E+01	-1.07777259142E+02	-5.91837835530E+00	-6.92796949441E-01
3.17164117691E+05	-2.96498474220E+01	1.22568970132E+02	1.33044851172E+01	-1.77657940132E+02	-4.60451849439E+01	1.69767384380E+02	-5.87674816741E+00	-5.95774247877E-01
3.17393369648E+05	-3.01835195455E+01	3.81225219978E+00	1.32674076128E+01	-1.77457433303E+02	-5.30337207446E+01	-1.54939066178E+02	-5.82612822767E+00	-3.59992601518E-01
3.17622787313E+05	-1.58781764087E+01	7.17590734880E+01	1.33175734424E+01	-1.78204077359E+02	-3.89174638399E+01	5.62763114542E+00	-5.80823224870E+00	-1.57526414654E-01
3.17852370806E+05	-1.84390167723E+01	-9.50801529789E+01	1.33150330119E+01	-1.77109764050E+02	-3.38647572416E+01	1.74124976434E+02	-5.99224209250E+00	-1.88553316090E-01
3.18082120245E+05	-1.44818492682E+01	7.37436710953E+01	1.32890644312E+01	-1.77968128959E+02	-3.60334611222E+01	-8.20080272722E+01	-5.86914402280E+00	-1.09261688306E+00
3.18312035752E+05	-1.57324686632E+01	-4.32832074706E+01	1.31937172925E+01	-1.77183534606E+02	-3.57053871213E+01	1.17907673778E+02	-5.97682377956E+00	1.50653424058E-01
3.18542117445E+05	-1.20030456872E+01	7.62927097984E+01	1.32021811257E+01	-1.78574875627E+02	-3.89647260048E+01	-1.12822048237E+02	-5.86853675046E+00	-5.27671360118E-01
3.18772365446E+05	-2.22293439391E+01	1.37916774641E+02	1.33003100596E+01	-1.77453654380E+02	-3.82871094374E+01	-8.05838838144E+00	-5.83414022256E+00	-4.40837720443E-01
3.19002779874E+05	-1.64649114214E+01	9.00561651537E+01	1.32463259487E+01	-1.78196045978E+02	-3.76956458079E+01	6.11065455488E+01	-5.86135582396E+00	3.50155744814E-01
3.19233360850E+05	-1.86887068747E+01	-1.44610990284E-01	1.32198057574E+01	-1.77319917881E+02	-3.89909080287E+01	2.03518754979E+01	-5.82623160599E+00	-1.38701349303E-01
3.19464108494E+05	-2.55369843611E+01	-1.22469393004E+02	1.33192776644E+01	-1.77348676923E+02	-4.24607210805E+01	-8.42181527263E+01	-5.86015073973E+00	-4.88298617231E-01
3.19695022927E+05	-1.76159476874E+01	1.99499870549E+00	1.31839487322E+01	-1.77533439157E+02	-3.51589507540E+01	-1.32762081494E+02	-5.96356594665E+00	-8.82292964359E-01
3.19926104268E+05	-1.82450327141E+01	-9.99724580237E+01	1.32883334197E+01	-1.76977972089E+02	-3.53842692900E+01	1.49306538183E+01	-5.76978317752E+00	-1.63506315805E-01
3.20157352640E+05	-2.10118806802E+01	1.63915040470E+02	1.32462041065E+01	-1.77722358941E+02	-3.95493114616E+01	1.28724105357E+01	-5.81880525139E+00	-1.97165554687E-01
3.20388768162E+05	-3.49077892809E+01	-1.32526966959E+02	1.32543634344E+01	-1.77640274047E+02	-4.46863721611E+01	-8.13196266558E+01	-5.90806186476E+00	-8.77875773765E-01
3.20620350955E+05	-1.64341848772E+01	-1.79436439802E+02	1.33922155620E+01	-1.77577607570E+02	-4.69366636910E+01	8.62432799183E+01	-5.90034470729E+00	-2.43712762428E-01
3.20852101140E+05	-2.18352102773E+01	-1.02504534080E+02	1.32649444912E+01	-1.77139413242E+02	-3.53313603098E+01	1.54937459857E+02	-5.98634759208E+00	-8.32014982584E-02
3.21084018839E+05	-2.23381536588E+01	-1.07331459899E+02	1.32946836016E+01	-1.77232590019E+02	-5.39056368258E+01	-1.33709249871E+02	-5.87601992459E+00	-5.10616452001E-01
3.21316104172E+05	-2.42009854528E+01	-1.58979558760E+02	1.33670336271E+01	-1.77780739927E+02	-3.25539661368E+01	7.52173594409E+01	-5.86398082651E+00	7.47143731443E-01
3.21548357261E+05	-2.28273180399E+01	1.01563158949E+02	1.32294269650E+01	-1.78100464249E+02	-3.82653118594E+01	1.65825149746E+02	-5.97057523143E+00	-5.04579776859E-01
3.21780778226E+05	-2.95190396601E+01	4.12535738510E+01	1.32697787742E+01	-1.77988185759E+02	-3.47283772924E+01	-8.22298744504E+01	-5.86865785249E+00	-7.53407592939E-01
3.22013367189E+05	-2.27510362205E+01	-7.86428830827E+01	1.33015533197E+01	-1.77354840478E+02	-4.90591064460E+01	3.74481799776E+01	-5.87589174402E+00	-1.21468299825E-01
3.22246124272E+05	-2.35621795415E+01	5.41039679843E+01	1.32419561767E+01	-1.77910830316E+02	-3.68516023102E+01	4.62378610314E+00	-5.82250894074E+00	-1.14140788259E-01
3.22479049596E+05	-1.68244580884E+01	8.75523916335E+01	1.32999639273E+01	-1.78040155720E+02	-4.04676367201E+01	1.43974907054E+02	-5.93706026005E+00	-1.69911521168E-01
3.22712143282E+05	-2.96190982948E+01	1.18551477197E+01	1.32393133902E+01	-1.77493709316E+02	-4.42066556623E+01	3.01442749350E+01	-5.87794663561E+00	-1.41674500659E-01
3.22945405453E+05	-1.67221443653E+01	-6.97821684805E+01	1.32839326385E+01	-1.77284101071E+02	-4.59647047137E+01	5.29419649674E+01	-5.88776718447E+00	3.21300244072E-01
3.23178836230E+05	-1.66221289359E+01	1.25201161476E+02	1.33439860788E+01	-1.77967250590E+02	-3.32796579772E+01	1.31792271558E+02	-5.96164196298E+00	9.01542677470E-01
3.23412435735E+05	-1.56822762343E+01	-1.78830442044E+02	1.34019016307E+01	-1.77922357293E+02	-4.25942769878E+01	3.66655997600E+01	-5.84237044592E+00	-9.82651514098E-02
3.23646204090E+05	-1.83573376292E+01	-1.27411394831E+01	1.32357460372E+01	-1.77339752305E+02	-3.86070531560E+01	5.82067641749E+01	-5.83925102538E+00	1.17283542879E-01
3.23880141417E+05	-2.06124042644E+01	1.66236198065E+02	1.33767094320E+01	-1.77602791592E+02	-3.92611848520E+01	-4.26954186104E+01	-5.85665481869E+00	-3.16124426168E-01
3.24114247838E+05	-1.99563033483E+01	-1.55924859015E+02	1.32877077522E+01	-1.77420602487E+02	-4.63869499791E+01	-1.48292124758E+02	-5.94646768078E+00	-2.37540882132E-01
3.24348523475E+05	-3.15826972933E+01	-5.44358289371E+01	1.32882818101E+01	-1.77583166312E+02	-4.88082662666E+01	4.71262749983E+01	-5.91617580845E+00	-3.08327195594E-01
3.24582968451E+05	-1.75036416622E+01	1.32075989649E+02	1.33030820721E+01	-1.77999550134E+02	-3.71866051509E+01	-1.59261452074E+02	-5.97630797532E+00	-3.30978863349E-01
3.24817582888E+05	-1.34139074876E+01	-3.94046446513E+00	1.31328549779E+01	-1.77548847246E+02	-3.46180266088E+01	9.50867855063E+01	-5.89942987960E+00	5.44928731065E-01
3.25052366909E+05	-3.39565042714E+01	-1.42927163093E+02	1.33232044488E+01	-1.77630777806E+02	-4.28649347702E+01	-8.88926458298E+01	-5.87166286703E+00	-7.95157214593E-01
3.25287320635E+05	-2.43213196084E+01	-1.33008996206E+02	1.32578158165E+01	-1.77406904637E+02	-4.79814531920E+01	2.29007672580E+01	-5.89690737397E+00	-4.04147617051E-01
3.25522444191E+05	-1.71231207619E+01	-4.62474794849E+01	1.32461457952E+01	-1.77144144671E+02	-3.58328712603E+01	2.63307900072E+00	-5.80590391672E+00	-1.57084097341E-01
3.25757737698E+05	-2.28413297907E+01	-1.73087582150E+02	1.33293438030E+01	-1.77755104673E+02	-4.02457925272E+01	-7.38790700826E+01	-5.86917757295E+00	-6.33919655579E-01
3.25993201280E+05	-1.83559782684E+01	-1.43165631739E+02	1.33568121170E+01	-1.77633605600E+02	-5.32778291173E+01	3.58504908619E+01	-5.87806419870E+00	-5.51857814130E-01
3.26228835058E+05	-1.97780592821E+01	5.03140578727E+01	1.32573659823E+01	-1.78038949549E+02	-4.29335064664E+01	3.00849826955E+00	-5.83488288989E+00	-1.51322504946E-01
