# Hz S DB R 50
! CMT, M5065, 19127446, 24.2.4/2
! Date: 11/1/2024 4:52:24 PM
! Data: Format (Calibration Info)
! Freq	S11:dB/Ang(F2)	S21:dB/Ang(F2)	S12:dB/Ang(F2)	S22:dB/Ang(F2)
3.00000000000E+05	-1.71991415177E+01	1.68529058376E+02	3.49256703796E+01	-1.68973934722E+02	-4.10795612700E+01	1.68703624205E+02	-6.33703951159E+00	-1.50500525874E+00
3.00216845423E+05	-1.38288125187E+01	-1.42237126829E+02	3.49480135305E+01	-1.68488623496E+02	-3.98891039400E+01	1.56975921692E+02	-6.54713471299E+00	-4.30440658102E-01
3.00433847586E+05	-1.86259374881E+01	-7.76473728264E-01	3.47735719874E+01	-1.68833558252E+02	-3.60759542957E+01	9.23579949537E+01	-6.01328401658E+00	5.34366386948E+00
3.00651006602E+05	-3.05196336481E+01	1.16478501707E+02	3.48873841219E+01	-1.69060151262E+02	-3.90573058459E+01	-1.36055432717E+01	-5.25044417179E+00	-2.26443600862E+00
3.00868322584E+05	-2.36624650312E+01	-1.41461165793E+02	3.48732362939E+01	-1.68998785284E+02	-3.73229066768E+01	-7.25401342170E+01	-5.57913071151E+00	-4.86365965030E+00
3.01085795647E+05	-2.02938936589E+01	-3.87083035030E+01	3.48203211128E+01	-1.68676375677E+02	-3.63174663033E+01	1.32396961781E+02	-6.56431922553E+00	1.96044325035E+00
3.01303425902E+05	-2.29237901105E+01	-1.07963288546E+01	3.48019017601E+01	-1.68937160451E+02	-4.00244832430E+01	1.16684044579E+02	-5.96622844345E+00	1.89529369532E+00
3.01521213465E+05	-2.30367972955E+01	-1.33636812535E+02	3.48858191725E+01	-1.68740106833E+02	-4.47965050605E+01	6.87373171054E+00	-5.37608410657E+00	-2.67815563113E-01
3.01739158449E+05	-8.86681567730E+00	-6.08599753229E+01	3.46986531458E+01	-1.68056321482E+02	-3.86097369795E+01	1.06428879355E+01	-5.26933493282E+00	4.69172614363E-01
3.01957260967E+05	-1.80062076942E+01	5.79778058964E+01	3.48401630441E+01	-1.69525726366E+02	-3.87664493090E+01	-7.67294743092E+01	-5.52883524180E+00	-4.51571274754E+00
3.02175521134E+05	-2.16736473574E+01	-4.33740836189E+01	3.48836567587E+01	-1.68989145094E+02	-4.97972646913E+01	-5.70115664597E+01	-5.60014774985E+00	-1.01299225985E+00
3.02393939063E+05	-2.76728975850E+01	1.20242150465E+02	3.48758173259E+01	-1.69571038646E+02	-3.37380246465E+01	-1.14773858189E+02	-6.06124747546E+00	-1.10602157303E+01
3.02612514869E+05	-1.86546916226E+01	-1.27664734830E+02	3.49184012520E+01	-1.69200315280E+02	-3.87405919160E+01	-1.46236125106E+02	-6.12596459328E+00	-4.88496984369E+00
3.02831248665E+05	-1.66656855337E+01	-3.65543201108E+00	3.47807856516E+01	-1.68952254741E+02	-3.81214071134E+01	-1.34513151884E+02	-6.11760278928E+00	-3.03859866134E+00
3.03050140565E+05	-1.70693593300E+01	-6.80956110626E+01	3.48451300263E+01	-1.68762566283E+02	-3.66311599780E+01	1.50558939651E+02	-6.45641468596E+00	3.98716160107E-01
3.03269190685E+05	-1.99152078573E+01	-7.33878127599E+01	3.48593697871E+01	-1.69038531117E+02	-3.56751339118E+01	-1.15207915883E+02	-6.12313585699E+00	-6.86234351332E+00
3.03488399138E+05	-1.84570780107E+01	-1.41932366149E+02	3.48843521427E+01	-1.69023607636E+02	-4.46494131080E+01	-1.70886763408E+01	-5.64297381285E+00	-6.96809908449E-01
3.03707766039E+05	-2.02957585035E+01	-6.35652536042E+01	3.48374813913E+01	-1.68932042782E+02	-3.73098857683E+01	-3.49790927806E+01	-5.19915804385E+00	-3.44164317687E+00
3.03927291503E+05	-1.59772339740E+01	-5.28780819216E+01	3.48187729838E+01	-1.68812642348E+02	-3.51945267567E+01	-6.34329993778E+01	-5.21381259765E+00	-5.55454444353E+00
3.04146975643E+05	-1.06316120028E+01	-9.24549113705E+01	3.48735148257E+01	-1.68551425462E+02	-3.30208853364E+01	5.27547230014E+01	-5.16572983739E+00	6.86166789380E+00
3.04366818575E+05	-1.90408499592E+01	-1.53023772006E+01	3.48012973957E+01	-1.69471611716E+02	-5.08212507417E+01	1.90860431676E+01	-5.75015557932E+00	-4.39700072676E-01
3.04586820414E+05	-1.21533244967E+01	2.90467758724E+01	3.47671062973E+01	-1.69581437691E+02	-4.15408034053E+01	-1.20903234873E+01	-5.31762863364E+00	-2.80265232280E-01
3.04806981274E+05	-1.11161902205E+01	3.24091549341E+01	3.47402802346E+01	-1.70095490774E+02	-4.24295761476E+01	-5.51015615343E+01	-5.49320239793E+00	-3.49774223556E+00
3.05027301270E+05	-1.84826373105E+01	-1.29754520144E+02	3.49233333490E+01	-1.69213350676E+02	-3.80784869670E+01	-1.21822503310E+02	-6.11781661616E+00	-4.99911127568E+00
3.05247780517E+05	-1.64036847785E+01	-2.29160805859E+01	3.48150773786E+01	-1.69277890947E+02	-4.49511430639E+01	1.59767026878E+02	-6.16878132939E+00	-5.98973950825E-01
3.05468419131E+05	-2.16091577697E+01	-1.22184881117E+02	3.49253025675E+01	-1.69429617882E+02	-4.06531145685E+01	2.88074736844E+01	-5.27938144971E+00	6.00216489961E-01
3.05689217226E+05	-1.87565684699E+01	-6.09805853252E+01	3.48494429919E+01	-1.69075034221E+02	-3.45459113113E+01	-1.24571572078E+02	-5.97813229039E+00	-8.08937385895E+00
3.05910174918E+05	-1.97658801053E+01	-1.26380758210E+02	3.49106524137E+01	-1.69262043765E+02	-4.53887093219E+01	-1.67243917398E+02	-6.14391956996E+00	-2.25709238684E+00
3.06131292322E+05	-1.51310023689E+01	-1.60747021007E+01	3.47705164551E+01	-1.69819698781E+02	-3.86054960677E+01	-2.73383823139E+01	-5.18029799471E+00	-2.35390956435E+00
3.06352569554E+05	-1.15058912190E+01	1.20075216793E+01	3.47230450638E+01	-1.69923259320E+02	-4.17320051993E+01	-1.58963300909E+02	-6.17069888534E+00	-1.59006777183E+00
3.06574006730E+05	-1.60944203809E+01	-1.25474385260E+02	3.49543101357E+01	-1.69341671250E+02	-5.15441966418E+01	8.95546645149E-01	-5.78126128547E+00	-4.67334623209E-01
3.06795603964E+05	-2.11167816955E+01	-2.68041269033E+01	3.48239282618E+01	-1.69696210419E+02	-4.03636824398E+01	-7.53227213869E+01	-5.67818335789E+00	-5.23280301946E+00
3.07017361372E+05	-2.53876326902E+01	-4.38130276510E+01	3.48591361746E+01	-1.69879774597E+02	-4.66624322696E+01	-1.58747419336E+02	-5.98424975426E+00	-2.13041393750E+00
3.07239279071E+05	-3.12600459451E+01	2.08230390800E+00	3.48587757246E+01	-1.69891355680E+02	-2.90412085832E+01	-1.77621908848E+02	-8.41089129210E+00	-8.28218207968E+00
3.07461357176E+05	-2.01875648962E+01	-6.80744210949E+01	3.48426719902E+01	-1.69304052506E+02	-4.45517658330E+01	-1.13243951589E+01	-5.42411104055E+00	-1.50694912318E+00
3.07683595803E+05	-8.11697810594E+00	-6.51620814997E+01	3.47600537192E+01	-1.68420849238E+02	-3.74189660012E+01	-1.39333531152E+02	-6.29618450408E+00	-4.00568817387E+00
3.07905995068E+05	-1.33427261472E+01	-1.37623480034E+02	3.49813405165E+01	-1.69560866813E+02	-3.92294599869E+01	-1.14771616279E+02	-6.06559487842E+00	-4.93944963210E+00
3.08128555087E+05	-1.88934202235E+01	-9.30549213390E+01	3.48726944733E+01	-1.69947505105E+02	-3.74443804139E+01	-1.44298131677E+02	-6.34027503082E+00	-4.82903170832E+00
3.08351275976E+05	-1.30077965727E+01	-8.21230666335E+01	3.48949139247E+01	-1.69216276612E+02	-4.84564222498E+01	-9.15860817954E+01	-5.72501684806E+00	-3.07359931085E+00
3.08574157853E+05	-2.31065673486E+01	-1.55586703091E+02	3.49414687817E+01	-1.69605262987E+02	-4.27553955550E+01	1.30565320847E+02	-6.03644027703E+00	1.48612240006E+00
3.08797200832E+05	-2.50213878723E+01	-7.61298433418E+01	3.49309037137E+01	-1.69790672729E+02	-2.99579383596E+01	-7.80885737860E+01	-4.80784683393E+00	-1.21199187291E+01
3.09020405031E+05	-1.88008698715E+01	-1.76909914119E+01	3.48164801897E+01	-1.69994899599E+02	-4.06430997419E+01	-1.43836437309E+02	-6.19358130852E+00	-3.61549266814E+00
3.09243770566E+05	-2.32447535349E+01	-1.27155289103E+02	3.49049866533E+01	-1.69763695068E+02	-3.97193410585E+01	-1.49208127397E+02	-6.18398077417E+00	-4.06282528773E+00
3.09467297553E+05	-1.66575995620E+01	-7.46552863557E+00	3.48020291772E+01	-1.70221038622E+02	-5.45722671066E+01	4.95922492709E+00	-5.70358747269E+00	-7.02194886369E-01
3.09690986110E+05	-1.90010276517E+01	-9.42504312828E+01	3.48824439719E+01	-1.69525677137E+02	-4.16248155244E+01	8.17593925011E-01	-5.42917045116E+00	1.17437742908E-01
3.09914836353E+05	-1.40540542616E+01	-1.81223834476E+01	3.47996136145E+01	-1.70089863117E+02	-4.80905311123E+01	1.13844692510E+02	-6.05274617077E+00	1.12834449038E+00
3.10138848399E+05	-1.86245316714E+01	-1.47961816632E+02	3.49436713614E+01	-1.70009881058E+02	-3.58192711542E+01	1.38211753511E+01	-4.98272325693E+00	2.37724670133E+00
3.10363022365E+05	-2.06602067754E+01	8.71200698605E+00	3.48700358980E+01	-1.70342190011E+02	-3.72182129545E+01	-1.16381201039E+02	-6.07247386701E+00	-7.21895798212E+00
3.10587358368E+05	-2.57734425297E+01	-1.26365105090E+02	3.49109458697E+01	-1.70169377981E+02	-4.59039477828E+01	-1.08144511817E+01	-5.36266263757E+00	-5.23891161988E-01
3.10811856525E+05	-7.96921301456E+00	1.59039436115E+01	3.46747398987E+01	-1.70718706745E+02	-4.31222676187E+01	9.72609866301E+00	-5.42591186505E+00	-5.38363271146E-01
3.11036516954E+05	-9.01680915820E+00	1.91414245047E+01	3.47219610318E+01	-1.71212771285E+02	-5.40739338246E+01	1.78249194457E+02	-5.81712341363E+00	-4.95979074839E-01
3.11261339771E+05	-2.10218258306E+01	-7.77296972593E+01	3.48914556115E+01	-1.70185420974E+02	-3.98951564130E+01	-1.41451060638E+01	-5.20966373994E+00	-1.06056068110E+00
3.11486325094E+05	-1.73248861004E+01	-7.76326132124E+01	3.48670001831E+01	-1.69878985431E+02	-4.05257415385E+01	-1.35493726015E+02	-6.12541578105E+00	-3.76176676372E+00
3.11711473040E+05	-3.53621695289E+01	-1.58976205587E+02	3.49045461246E+01	-1.70406687783E+02	-4.20236276881E+01	-2.40076964903E+01	-5.41049953102E+00	5.17670876651E-01
3.11936783728E+05	-2.10579712440E+01	4.03113985027E+01	3.48498751515E+01	-1.70746274326E+02	-3.03784598500E+01	-1.25175918622E+02	-6.27462718508E+00	-1.39117772645E+01
3.12162257274E+05	-1.71542160112E+01	-6.68632358702E+01	3.47887806852E+01	-1.69996715945E+02	-3.35924124520E+01	1.39231155480E+02	-6.82139262513E+00	2.69817722675E+00
3.12387893797E+05	-1.92175346136E+01	-6.42486403754E+01	3.48911002467E+01	-1.70318693525E+02	-4.28555276718E+01	-9.27456192278E+01	-5.62838121254E+00	-3.33766227770E+00
3.12613693413E+05	-1.97897356951E+01	-7.87867983834E+01	3.48392403354E+01	-1.70162680895E+02	-5.28926762369E+01	-2.48291395368E+01	-5.85866119347E+00	-1.10960931774E+00
3.12839656242E+05	-1.81501920691E+01	-1.28617361282E+02	3.49002524581E+01	-1.70421436321E+02	-4.11298255979E+01	2.67802741324E+01	-5.44813731476E+00	1.37294679273E+00
3.13065782401E+05	-4.64595582341E+01	-1.37349223456E+02	3.49270806692E+01	-1.70737531926E+02	-3.62220993975E+01	-1.10732394808E+02	-6.03564161905E+00	-6.13305496767E+00
3.13292072007E+05	-3.56939705117E+01	-6.26215118964E+01	3.48655907563E+01	-1.70750951667E+02	-4.25960652001E+01	-2.95130957225E+01	-5.58879832322E+00	-2.09961618986E+00
3.13518525180E+05	-1.90747656572E+01	-4.76188277038E+01	3.48606502639E+01	-1.70437252923E+02	-4.87311612730E+01	-2.69044436046E+01	-5.30140175273E+00	-3.24517463782E+00
3.13745142038E+05	-3.13835422977E+01	-1.03910702066E+02	3.48904649457E+01	-1.70521525474E+02	-2.85639878735E+01	-6.95181899268E+01	-4.52264952824E+00	-1.28813941319E+01
3.13971922698E+05	-2.83091148141E+01	-7.82473849734E+01	3.48966606440E+01	-1.70508608090E+02	-3.56782816933E+01	9.98361193302E+01	-6.16203157614E+00	5.05005645486E+00
3.14198867279E+05	-1.48660577774E+01	-1.02145777926E+02	3.49126889744E+01	-1.70155529981E+02	-3.43137028312E+01	-8.20596218383E+01	-5.55619494266E+00	-6.91063479233E+00
3.14425975900E+05	-2.81627436703E+01	2.26111660304E+01	3.48972736051E+01	-1.70823639908E+02	-6.53470416199E+01	-5.28909810392E+01	-5.87728883347E+00	-7.82228954441E-01
3.14653248680E+05	-1.55076384476E+01	5.11602608659E+01	3.48004199977E+01	-1.71259272704E+02	-5.16337543903E+01	-4.99506863751E+01	-5.70483853448E+00	-9.79140828447E-01
3.14880685736E+05	-2.05914722459E+01	-1.49128471751E+02	3.49380294213E+01	-1.70677764583E+02	-3.92256823066E+01	2.50304035358E+01	-5.37891750371E+00	1.61853744057E+00
3.15108287188E+05	-1.35623702019E+01	-1.23980571485E+01	3.48082482516E+01	-1.70675646683E+02	-3.40591711085E+01	-1.70158876929E+02	-7.12557655321E+00	-3.56964346277E+00
3.15336053154E+05	-2.27847717365E+01	1.25235905964E+02	3.49197236215E+01	-1.71050639027E+02	-3.67226885163E+01	-4.45696048163E+01	-5.03000149004E+00	-2.35914779602E+00
3.15563983753E+05	-1.50094689470E+01	-9.85934712986E+01	3.49256294890E+01	-1.70355745133E+02	-3.46463864406E+01	1.54474055280E+02	-7.09644710176E+00	2.26380028123E+00
3.15792079105E+05	-1.61587424874E+01	-1.14440744296E+01	3.48097549605E+01	-1.70879867446E+02	-3.48619867270E+01	6.09770760359E+01	-5.52442132440E+00	4.85981528329E+00
3.16020339328E+05	-2.49811654403E+01	-1.23675351955E+01	3.48545495372E+01	-1.70904880191E+02	-4.28973163929E+01	1.33321972247E+02	-6.05275976710E+00	1.06584546108E+00
3.16248764542E+05	-1.80763987297E+01	-9.01043522167E+01	3.49309248524E+01	-1.70640316084E+02	-5.37410293534E+01	-6.81572487015E+01	-5.76864227613E+00	-2.12116867098E+00
3.16477354866E+05	-2.13582288138E+01	9.95331882397E+01	3.49398218950E+01	-1.71451977532E+02	-3.57694819629E+01	-4.37676980746E+01	-5.00785272059E+00	-3.86253294145E+00
3.16706110419E+05	-1.95542887517E+01	1.09636325911E+02	3.49278193704E+01	-1.71395450429E+02	-3.31323745192E+01	-1.16862104388E+02	-5.93316004944E+00	-1.13878679521E+01
3.16935031321E+05	-1.60365017183E+01	5.86513865639E-02	3.48614892806E+01	-1.71171901147E+02	-3.37422421269E+01	1.41735766398E+02	-6.88983477061E+00	5.02574876467E+00
3.17164117691E+05	-1.40366977910E+01	-4.27564657777E+01	3.48019595959E+01	-1.70643861381E+02	-4.06629482917E+01	-1.67781161197E+02	-6.27141421003E+00	-2.27878182492E+00
3.17393369648E+05	-1.27155624200E+01	1.50987497165E+02	3.50135386182E+01	-1.71750098156E+02	-3.88596538260E+01	-5.43733122100E+01	-5.43866855540E+00	-3.50226506422E+00
3.17622787313E+05	-2.15589776995E+01	1.66675123291E+02	3.49616065167E+01	-1.71316324191E+02	-3.70900847943E+01	-6.82935508832E+01	-5.39812383025E+00	-5.53657855765E+00
3.17852370806E+05	-2.27358480114E+01	5.59089551160E+01	3.48675749873E+01	-1.71543808022E+02	-4.16383442194E+01	6.97514840323E+01	-5.67142404433E+00	1.93668346824E+00
3.18082120245E+05	-1.94048617330E+01	-9.58583679433E+01	3.49258311471E+01	-1.70829143323E+02	-3.42643634136E+01	1.64325975257E+02	-6.90420760724E+00	-2.49295656486E-01
3.18312035752E+05	-1.87222300155E+01	-3.95682979055E+01	3.48340597487E+01	-1.70960793127E+02	-3.31022780703E+01	8.09883311744E+01	-5.79733459248E+00	8.15805777737E+00
3.18542117445E+05	-2.10875989734E+01	-9.98767077993E+00	3.48804150631E+01	-1.71200635815E+02	-3.32114066455E+01	-7.18797865053E+01	-4.95919501080E+00	-8.12636841248E+00
3.18772365446E+05	-1.43358276838E+01	-4.28362318425E+01	3.48168964213E+01	-1.70788357805E+02	-5.32478020017E+01	-1.34187224318E+02	-5.81525429526E+00	-1.75686599994E+00
3.19002779874E+05	-1.34562891898E+01	1.74638621152E+02	3.50913310522E+01	-1.71540657497E+02	-4.26040726001E+01	-1.47121054875E+02	-5.99361694610E+00	-3.06579878790E+00
3.19233360850E+05	-1.19590310207E+01	-7.28638515104E+01	3.49105779576E+01	-1.70317318962E+02	-4.10829657390E+01	-8.91414698856E+01	-5.78717627956E+00	-4.59011901489E+00
3.19464108494E+05	-1.34263647111E+01	-8.38769017938E+01	3.49235093797E+01	-1.70801693006E+02	-4.29110128252E+01	-8.72466280797E+01	-5.82904249439E+00	-3.33324017549E+00
3.19695022927E+05	-1.87740301392E+01	2.39075490752E+01	3.48702908573E+01	-1.71641827999E+02	-4.83217566844E+01	-1.11915177577E+02	-5.74208058065E+00	-2.62154559973E+00
3.19926104268E+05	-3.07345010118E+01	-1.35781542794E+01	3.48976259274E+01	-1.71744673503E+02	-3.12444259394E+01	-1.63790805616E+02	-7.12017232906E+00	-5.41436208537E+00
3.20157352640E+05	-2.24550819622E+01	1.84642452893E+01	3.48976511826E+01	-1.71750884476E+02	-3.26439132717E+01	-1.56871038301E+02	-7.01404459637E+00	-7.18623395309E+00
3.20388768162E+05	-1.37913073637E+01	-6.86551210647E+01	3.49036881285E+01	-1.70981084810E+02	-4.74501031945E+01	1.26670034608E+02	-5.97700372232E+00	6.30500979519E-01
3.20620350955E+05	-1.69797661575E+01	2.22943766953E+01	3.48459632008E+01	-1.71971307070E+02	-4.32794695814E+01	-1.27387783502E+01	-5.48270163614E+00	-3.81184764768E-01
3.20852101140E+05	-1.33712291091E+01	-1.04965745507E+02	3.49108363079E+01	-1.71004041029E+02	-4.60474899677E+01	4.49073836727E+01	-5.71808693227E+00	1.25049239717E+00
3.21084018839E+05	-1.34268264165E+01	-1.80530001320E+01	3.47894470311E+01	-1.71190720796E+02	-3.64498260913E+01	-9.51449276389E+01	-5.60401204255E+00	-6.61101567448E+00
3.21316104172E+05	-1.71989462380E+01	-3.86554202706E+01	3.48514377353E+01	-1.71446413522E+02	-4.85702450542E+01	-1.29068238101E+02	-5.99321139914E+00	-2.24455740888E+00
3.21548357261E+05	-1.97008773296E+01	-1.47803511016E+02	3.50119686418E+01	-1.71705610556E+02	-3.68156594253E+01	6.49389202200E+01	-5.56742113114E+00	4.38989276487E+00
3.21780778226E+05	-1.99082854941E+01	1.91676576451E+01	3.48514991208E+01	-1.72038245076E+02	-3.82633845149E+01	4.42763043042E+01	-5.64935019033E+00	1.98992589969E+00
3.22013367189E+05	-2.04011017954E+01	6.89857995208E+01	3.49175762612E+01	-1.72113531964E+02	-3.85748207633E+01	4.89091033982E+01	-5.58842802135E+00	2.77545381251E+00
3.22246124272E+05	-1.18108976664E+01	1.52784006857E+00	3.47548550826E+01	-1.71995629238E+02	-5.24487347690E+01	1.23485588264E+02	-5.99997961021E+00	7.94465097739E-01
3.22479049596E+05	-1.70042632486E+01	-1.36154528311E+02	3.50292276029E+01	-1.71564116194E+02	-4.52308689489E+01	-3.47127096681E+01	-5.48959423410E+00	-1.57872922319E+00
3.22712143282E+05	-1.44914892306E+01	-5.81616533085E+01	3.48628771687E+01	-1.71148106788E+02	-3.54753059639E+01	-5.25914938816E+01	-5.12636338210E+00	-4.34775534873E+00
3.22945405453E+05	-2.95779447852E+01	5.80206768731E+01	3.48977977202E+01	-1.71970493006E+02	-3.80460400796E+01	-5.41358521383E+01	-5.34546539321E+00	-3.52829466485E+00
3.23178836230E+05	-1.67425754102E+01	-8.59041204502E+01	3.48938787526E+01	-1.71561105616E+02	-2.97893990476E+01	-1.09649324076E+01	-4.08786014491E+00	-1.18312397439E+00
3.23412435735E+05	-2.22279456346E+01	6.27132008678E+01	3.49177942887E+01	-1.72332685600E+02	-3.97763932338E+01	1.34519475613E+02	-6.11258115506E+00	2.10140483746E+00
3.23646204090E+05	-1.63840878965E+01	-1.04912086793E+02	3.49333931329E+01	-1.71667555010E+02	-3.65285918722E+01	7.45909845136E+01	-5.64295598963E+00	5.30991130285E+00
3.23880141417E+05	-2.19081988518E+01	-1.32938768758E+02	3.49653858230E+01	-1.71650755281E+02	-4.19664818952E+01	1.68406886296E+02	-6.17281661163E+00	4.23787792955E-01
3.24114247838E+05	-2.30987409594E+01	3.04478619368E+01	3.49070586334E+01	-1.72038998302E+02	-4.33990332505E+01	-2.26795213328E+01	-5.51547269885E+00	-8.15058167575E-01
3.24348523475E+05	-3.89788377719E+01	4.31132391459E+01	3.49140730479E+01	-1.72023275765E+02	-3.49880525593E+01	3.78728293843E+01	-5.15879154801E+00	3.55474029655E+00
3.24582968451E+05	-3.30002137174E+01	1.95681520270E+01	3.49181868050E+01	-1.72273334675E+02	-3.49799912935E+01	-1.27479957152E+02	-6.35224203562E+00	-6.97852623803E+00
3.24817582888E+05	-2.32705328597E+01	-2.90102658801E+01	3.49087585841E+01	-1.71838218236E+02	-3.31043889208E+01	-1.06331699403E+02	-5.84041075690E+00	-9.08811756735E+00
3.25052366909E+05	-2.00235580635E+01	-1.35209768213E+01	3.48821468611E+01	-1.72084104411E+02	-3.54461746779E+01	-4.55380909359E+01	-4.83533306910E+00	-4.51987934189E+00
3.25287320635E+05	-2.38031068795E+01	3.29598872613E+01	3.48819755455E+01	-1.72063034141E+02	-3.76444141680E+01	-1.07641187479E+02	-5.84533988953E+00	-6.15339378842E+00
3.25522444191E+05	-1.84445497550E+01	-3.90341266131E+01	3.48531058620E+01	-1.71966019111E+02	-4.89304164479E+01	-1.56360583570E+02	-5.96774507096E+00	-1.03527799328E+00
3.25757737698E+05	-1.90816104754E+01	-6.96615632150E+01	3.48736639552E+01	-1.71741190186E+02	-3.94787633758E+01	-1.14906688361E+02	-5.94664568398E+00	-3.80430131589E+00
3.25993201280E+05	-1.69431547040E+01	3.63465753076E+01	3.48569421048E+01	-1.72558770055E+02	-4.19794657203E+01	-9.89540901984E+01	-5.88208376453E+00	-3.80916653153E+00
3.26228835058E+05	-1.62566918100E+01	-4.40834926274E+01	3.48744818683E+01	-1.71853002015E+02	-4.17408833987E+01	8.82944445604E+01	-5.87710954021E+00	1.00807782457E+00
