# Hz S DB R 50
! CMT, M5065, 19127446, 24.2.4/2
! Date: 11/1/2024 4:22:24 PM
! Data: Format (Calibration Info)
! Freq	S11:dB/Ang(F2)	S21:dB/Ang(F2)	S12:dB/Ang(F2)	S22:dB/Ang(F2)
3.00000000000E+05	-1.34297862336E+01	1.42045059526E+02	6.44275621208E+00	-1.78330902526E+02	-3.21423299448E+01	-1.08328906265E+02	-5.90947071786E+00	-6.69435771189E-01
3.00216845423E+05	-1.64089473685E+01	2.06597238933E+01	6.34484340375E+00	-1.77509334299E+02	-4.53347045814E+01	7.16141291582E+01	-5.85273506744E+00	7.48844479989E-02
3.00433847586E+05	-1.43845990511E+01	1.00155354485E+02	6.43225350407E+00	-1.78111480126E+02	-3.74627419430E+01	1.80732852058E+01	-5.88139136117E+00	-2.09685159037E-01
3.00651006602E+05	-2.80482454975E+01	-9.20630560567E+01	6.29249252705E+00	-1.77679031249E+02	-3.88526313501E+01	-1.35301967494E+02	-5.87663697156E+00	-3.84467390091E-01
3.00868322584E+05	-1.89950429518E+01	-7.15016066428E+01	6.31890951223E+00	-1.77141784803E+02	-4.36020944196E+01	-1.08820426207E+02	-5.89503300878E+00	-2.30923945485E-01
3.01085795647E+05	-1.83226787923E+01	-5.48774214980E+01	6.28806952627E+00	-1.77629243748E+02	-3.79324659175E+01	-6.23747386450E+00	-5.85750813046E+00	-2.92439031493E-01
3.01303425902E+05	-1.09168924059E+01	-4.36358980611E+01	6.15942169605E+00	-1.76845926752E+02	-3.87539003069E+01	-8.78738300045E+01	-5.91583327848E+00	-3.74252480749E-01
3.01521213465E+05	-2.73965502028E+01	7.00023631680E+01	6.30130047798E+00	-1.78039860751E+02	-4.50100545191E+01	-1.67011501152E+02	-5.91310671418E+00	-3.82564150682E-01
3.01739158449E+05	-1.82671757217E+01	8.91463334499E+01	6.35200837063E+00	-1.78405277179E+02	-3.83230826700E+01	1.37222628034E+02	-5.93952535568E+00	1.48357131037E-01
3.01957260967E+05	-2.63301091960E+01	-7.05464424555E+01	6.37008852806E+00	-1.77332627495E+02	-3.59271990228E+01	1.40450608223E+02	-5.91331874327E+00	8.62832529195E-02
3.02175521134E+05	-2.13680927711E+01	1.66145598113E+02	6.39374401572E+00	-1.77025975599E+02	-3.78186626000E+01	-6.25638161101E+01	-5.88699776403E+00	-2.01141607018E-01
3.02393939063E+05	-2.99650748145E+01	1.75817410840E+02	6.40229291249E+00	-1.77853591436E+02	-4.28932980844E+01	1.46573093734E+02	-5.90315009450E+00	-1.86191562997E-01
3.02612514869E+05	-1.62268925033E+01	-9.51227165025E+01	6.34731468273E+00	-1.77646048067E+02	-4.75031696668E+01	-1.25380750546E+02	-5.88430989905E+00	-6.20179256635E-01
3.02831248665E+05	-2.38181692623E+01	4.49836156496E+00	6.27948367212E+00	-1.78192284122E+02	-3.73388842776E+01	-3.41569857796E+01	-5.87806176079E+00	-2.06366129817E-01
3.03050140565E+05	-2.74552588865E+01	8.02253007842E+01	6.38422388679E+00	-1.77682992302E+02	-3.49298185574E+01	-9.64601268384E+01	-5.87835095185E+00	-3.99616648270E-01
3.03269190685E+05	-2.19256697616E+01	-7.84630559202E+01	6.33593301788E+00	-1.76943032617E+02	-3.10091333044E+01	8.88140012573E+01	-5.90807574557E+00	4.45940888789E-01
3.03488399138E+05	-1.81733365549E+01	-4.94743078125E+01	6.33618480132E+00	-1.77352207637E+02	-4.60792100813E+01	9.56870866530E+01	-5.85432479903E+00	7.91062733063E-02
3.03707766039E+05	-1.95536991965E+01	3.27115376064E+01	6.36806084172E+00	-1.77594979271E+02	-4.26117637365E+01	-1.97267361529E+01	-5.88700664922E+00	-3.60410071099E-01
3.03927291503E+05	-1.78018475319E+01	9.53441327176E+01	6.34334254640E+00	-1.78059192209E+02	-4.30498458442E+01	1.03936604345E+02	-5.88339988508E+00	3.04472175345E-01
3.04146975643E+05	-2.50422934503E+01	6.55649083867E+01	6.29875958516E+00	-1.78118893556E+02	-4.33395817863E+01	4.41603490092E+01	-5.88340323006E+00	-1.17493009748E-01
3.04366818575E+05	-1.60126029432E+01	-6.71502883596E+01	6.33019019533E+00	-1.77005899654E+02	-3.67149615747E+01	-5.50314871192E+01	-5.87025261696E+00	-4.49899887756E-01
3.04586820414E+05	-2.08478480450E+01	-4.34552839262E+01	6.31455515478E+00	-1.77894204404E+02	-4.21611009464E+01	-1.46864103548E+02	-5.87400536518E+00	-1.68633481990E-01
3.04806981274E+05	-2.37967961548E+01	8.88053655286E+01	6.39505793231E+00	-1.77829025259E+02	-4.00883085800E+01	-2.42082552001E+01	-5.89862951096E+00	-3.69565483765E-01
3.05027301270E+05	-3.10806954799E+01	1.68382925514E+01	6.35469428452E+00	-1.77453196444E+02	-4.81278045912E+01	-1.07865902746E+02	-5.90143029490E+00	-3.61182647751E-01
3.05247780517E+05	-2.94793540573E+01	-1.54299651780E+02	6.32957321626E+00	-1.77993732800E+02	-4.29824364226E+01	1.33087498127E+02	-5.85330116481E+00	-2.94627320631E-01
3.05468419131E+05	-1.32058918403E+01	2.63894708568E+01	6.25982911248E+00	-1.78522810447E+02	-3.27677916015E+01	1.61994031403E+02	-5.92365814079E+00	-7.87532385828E-02
3.05689217226E+05	-2.01232758491E+01	-1.49118774854E+02	6.47066150105E+00	-1.77367956625E+02	-5.27743523280E+01	-1.75650493613E+02	-5.88263588442E+00	-4.58489755458E-01
3.05910174918E+05	-1.72335441341E+01	1.13111608586E+01	6.20145670055E+00	-1.78011212450E+02	-4.50308893300E+01	4.80809893138E+01	-5.90606273165E+00	-2.11574529618E-01
3.06131292322E+05	-1.26960901431E+01	-1.24125339257E+02	6.46208579377E+00	-1.76471015056E+02	-4.09470291234E+01	-9.85568321739E+01	-5.87859633401E+00	-1.15987599458E-01
3.06352569554E+05	-2.35814969896E+01	-1.58505301573E+02	6.40695032668E+00	-1.77458239977E+02	-3.29029382228E+01	-1.28398924645E+02	-5.96858440821E+00	-7.43312425836E-01
3.06574006730E+05	-1.75338954549E+01	1.62097066881E+02	6.33986892294E+00	-1.77584961855E+02	-3.31032532452E+01	-1.39029276610E+02	-5.92564053310E+00	-4.68800659177E-01
3.06795603964E+05	-1.63875106647E+01	-9.98069469234E+01	6.34296430555E+00	-1.77011570014E+02	-3.60436330503E+01	2.66594012675E+01	-5.83170982857E+00	-3.11063653648E-01
3.07017361372E+05	-2.79461073284E+01	6.60809000133E+01	6.33569163756E+00	-1.77977193505E+02	-3.87854693546E+01	-1.43439991244E+02	-5.89260561534E+00	-3.01454241878E-01
3.07239279071E+05	-1.44060907797E+01	1.49284050586E+01	6.24035862332E+00	-1.78087251231E+02	-4.01337105812E+01	-9.88942198415E+01	-5.88285316038E+00	-4.65459121344E-01
3.07461357176E+05	-1.04222726149E+01	3.46403830942E+01	6.15266799986E+00	-1.78652789235E+02	-3.91375714667E+01	-1.37997345013E+02	-5.93027853471E+00	-1.03455702722E-01
3.07683595803E+05	-2.21305530394E+01	1.15589162815E+02	6.34696425896E+00	-1.78218483760E+02	-3.79105805271E+01	1.23376636925E+02	-5.86215291047E+00	-4.65822050856E-02
3.07905995068E+05	-2.15207084520E+01	-8.77373685140E+01	6.37968402592E+00	-1.76898949485E+02	-4.63303797863E+01	-8.51678722013E+01	-5.92253865755E+00	-2.32964237679E-01
3.08128555087E+05	-1.80652820283E+01	-8.49088084826E+01	6.30661436765E+00	-1.76969688684E+02	-5.75579434947E+01	-3.78416492863E+01	-5.88464638748E+00	-1.36485685740E-01
3.08351275976E+05	-1.55900524864E+01	-9.69923490425E+01	6.37119188040E+00	-1.77070180521E+02	-3.61121789169E+01	-1.02432756670E+02	-5.90908940101E+00	-2.29189286705E-01
3.08574157853E+05	-2.67569054411E+01	1.63337378836E+01	6.36415731611E+00	-1.78144929986E+02	-3.74746498783E+01	-2.91545856189E+01	-5.86731036278E+00	-5.19801963411E-01
3.08797200832E+05	-1.98616073744E+01	-7.08833625016E+01	6.34282081821E+00	-1.77510413097E+02	-4.42634356728E+01	-2.24075701373E+01	-5.87320489230E+00	-1.24065416125E-01
3.09020405031E+05	-1.88827983725E+01	9.75279663099E+01	6.36284607772E+00	-1.78612503081E+02	-4.09311208096E+01	1.47080009355E+02	-5.89908472379E+00	-3.97121740088E-02
3.09243770566E+05	-1.32942683790E+01	-1.16027627848E+02	6.44021149985E+00	-1.76671697490E+02	-4.04162478375E+01	-7.06105479993E+00	-5.85217641504E+00	-5.70491946261E-02
3.09467297553E+05	-2.92931974460E+01	-3.10891960782E+01	6.28114104544E+00	-1.77558365747E+02	-3.46529939158E+01	5.31593615937E+01	-5.85805958743E+00	-1.42959347637E-01
3.09690986110E+05	-2.69635830390E+01	-8.92730595073E+01	6.37266800637E+00	-1.77486203691E+02	-3.51063267878E+01	3.04942105183E+01	-5.86903981626E+00	-8.69778031338E-02
3.09914836353E+05	-1.49970662841E+01	7.24157910726E+01	6.32845559219E+00	-1.78325094059E+02	-4.77098665896E+01	1.34171761031E+02	-5.88033716677E+00	-3.17614659956E-01
3.10138848399E+05	-2.65577786407E+01	-1.11387781219E+01	6.36311892077E+00	-1.77685426922E+02	-3.95068052861E+01	7.17133943445E+01	-5.85926967329E+00	-2.66726271706E-01
3.10363022365E+05	-2.54837331505E+01	8.00474488664E+01	6.34289450771E+00	-1.77727827187E+02	-6.26482818881E+01	7.45200955417E+01	-5.88234261188E+00	-4.40124852088E-01
3.10587358368E+05	-1.36846059201E+01	7.79275312085E+00	6.18594115016E+00	-1.77066425631E+02	-3.50295898693E+01	-8.27430747656E+01	-5.89436293606E+00	-5.40214159276E-01
3.10811856525E+05	-1.56824566175E+01	1.70332727024E+02	6.44462766690E+00	-1.77629559730E+02	-4.15415218498E+01	-1.03568631357E+02	-5.88825149082E+00	-2.34219770203E-01
3.11036516954E+05	-2.26974346745E+01	3.02290598221E+01	6.31509306478E+00	-1.77858844121E+02	-2.93587571196E+01	-8.56108521426E+01	-5.83972723510E+00	-8.91045635849E-01
3.11261339771E+05	-1.32431114121E+01	-1.27292161877E+02	6.44442571193E+00	-1.77231524218E+02	-3.03034040255E+01	-7.06217556518E+01	-5.87388560207E+00	-8.85796146426E-01
3.11486325094E+05	-1.88067153219E+01	5.31507030144E+01	6.33343446916E+00	-1.78693297246E+02	-4.49304224899E+01	1.54088516286E+02	-5.89074209684E+00	-2.97969676588E-01
3.11711473040E+05	-1.96044851271E+01	4.49767249347E+00	6.31046941457E+00	-1.77845140931E+02	-4.86850681461E+01	1.31406929961E+01	-5.88546322671E+00	-2.32296903777E-01
3.11936783728E+05	-1.81099243439E+01	1.56464230006E+02	6.45101653609E+00	-1.77787479296E+02	-4.18242845423E+01	-9.67407570211E+01	-5.88482699583E+00	-4.30902936710E-01
3.12162257274E+05	-1.56075122083E+01	8.49314343034E+01	6.32568114576E+00	-1.78498761297E+02	-4.69164482806E+01	-1.20445809827E+02	-5.85147316394E+00	-3.22359015482E-01
3.12387893797E+05	-1.44418616457E+01	1.76796202483E+01	6.23975371209E+00	-1.77562030318E+02	-3.94837717785E+01	-6.57590172882E+01	-5.88285952576E+00	-7.87988424229E-01
3.12613693413E+05	-2.28410289822E+01	-8.71101066364E+01	6.41951051377E+00	-1.77290725930E+02	-3.40491039445E+01	1.19463587196E+02	-5.94004699196E+00	-1.42813483865E-01
3.12839656242E+05	-1.88036547915E+01	1.78105880264E+02	6.45846193110E+00	-1.77844616180E+02	-3.49004449099E+01	-1.14679341282E+02	-5.85873828953E+00	-4.62881377156E-01
3.13065782401E+05	-1.20815332914E+01	-9.53465901809E+01	6.43168623328E+00	-1.76995037579E+02	-4.69741158282E+01	1.07349055368E+02	-5.89306259349E+00	-4.18516507424E-01
3.13292072007E+05	-2.02071059542E+01	-3.18401112929E+01	6.31200876422E+00	-1.77830990968E+02	-3.54190295307E+01	2.93704724477E+01	-5.84349003322E+00	-1.79011222182E-01
3.13518525180E+05	-1.88045454041E+01	-9.79122185387E+01	6.37630593080E+00	-1.77549650148E+02	-3.99480631039E+01	1.79948740323E+02	-5.90147648443E+00	-2.78358340025E-01
3.13745142038E+05	-1.30538269999E+01	8.28093336369E+01	6.38180049456E+00	-1.78917757005E+02	-4.43744274426E+01	7.63714885108E+01	-5.93118005761E+00	-4.08865624104E-01
3.13971922698E+05	-1.65793340511E+01	-1.02229653127E+02	6.42140033421E+00	-1.76850547030E+02	-3.97861239357E+01	1.12280999515E+02	-5.87801585377E+00	7.43765239855E-03
3.14198867279E+05	-1.86954060500E+01	5.98210534636E+01	6.31088792232E+00	-1.78296683295E+02	-2.72845226526E+01	1.21071924937E+02	-5.92602614595E+00	5.73469922337E-01
3.14425975900E+05	-1.91067004332E+01	-1.53190610618E+02	6.42928311527E+00	-1.77465009987E+02	-2.98056989671E+01	1.39123477187E+02	-5.94496010293E+00	3.87893743483E-01
3.14653248680E+05	-2.19342547184E+01	1.24029460599E+02	6.37753769029E+00	-1.78209655245E+02	-3.96435174607E+01	7.53657922257E+01	-5.87293168640E+00	-1.14088557275E-01
3.14880685736E+05	-2.13561548560E+01	1.05798665522E+02	6.34240134089E+00	-1.78603342860E+02	-4.57354231060E+01	1.11378131748E+02	-5.89296614152E+00	-2.93217060359E-01
3.15108287188E+05	-2.12996660162E+01	8.79020003500E+01	6.36797995008E+00	-1.78157339106E+02	-3.79990257468E+01	7.59764956021E+01	-5.88370018576E+00	5.69415826501E-02
3.15336053154E+05	-2.94057177180E+01	-1.38685523815E+02	6.32948031259E+00	-1.77260527197E+02	-4.65129196572E+01	-1.52824288211E+02	-5.88204777857E+00	-6.67354640774E-01
3.15563983753E+05	-2.40653933187E+01	-1.29893101230E+02	6.35105074068E+00	-1.77338651405E+02	-3.69061434759E+01	-1.47457962594E+02	-5.91995498647E+00	-3.84453736402E-01
3.15792079105E+05	-1.68940903119E+01	-1.44477890038E+02	6.48139903469E+00	-1.77181918063E+02	-3.20061949645E+01	-1.62595683177E+02	-6.01131920457E+00	-6.57222351703E-01
3.16020339328E+05	-2.01693828877E+01	-1.64588622635E+02	6.45583789177E+00	-1.78103820797E+02	-2.94958032878E+01	1.47471663140E+02	-5.95690942029E+00	3.76308509298E-01
3.16248764542E+05	-3.40766741651E+01	-5.19973682129E+01	6.33091902144E+00	-1.77193759884E+02	-5.09459973295E+01	-5.52072914947E+01	-5.88394199967E+00	-3.32861523396E-01
3.16477354866E+05	-2.69770950054E+01	1.44023096274E+02	6.40221851106E+00	-1.78149894221E+02	-3.23664190786E+01	-6.88868037694E+01	-5.88691594671E+00	-5.09664164200E-01
3.16706110419E+05	-1.89886146788E+01	1.72305661384E+02	6.45819301811E+00	-1.77851198545E+02	-4.10643093641E+01	-3.36845936641E+01	-5.88138592274E+00	-3.25482249687E-01
3.16935031321E+05	-2.29691394462E+01	-4.19013948177E+01	6.38385104340E+00	-1.77786589312E+02	-5.06410377815E+01	-1.22216007315E+02	-5.92760260458E+00	-1.98291026823E-02
3.17164117691E+05	-1.64684213094E+01	-1.36510884452E+02	6.40574288485E+00	-1.77746480259E+02	-4.14624113744E+01	7.85208569356E+00	-5.88294900260E+00	-8.75525089372E-02
3.17393369648E+05	-1.80704398679E+01	-8.32973146249E+01	6.33937581595E+00	-1.77391113757E+02	-4.53106770401E+01	-1.41945913001E+02	-5.90459687383E+00	-6.93415387270E-02
3.17622787313E+05	-2.02926853055E+01	-1.18728649507E+02	6.30061879827E+00	-1.77201558736E+02	-3.08694582417E+01	9.70546471874E+01	-5.87894966273E+00	2.24553557271E-01
3.17852370806E+05	-1.51428389132E+01	-4.90131895162E+01	6.29729056000E+00	-1.77372564239E+02	-4.31245101184E+01	2.23067364195E+01	-5.86564129148E+00	-3.05297815696E-01
3.18082120245E+05	-1.80704855279E+01	-1.58513373486E+01	6.32342906318E+00	-1.77754345422E+02	-4.50134336408E+01	4.78797568184E+01	-5.87106366347E+00	-3.06380400125E-01
3.18312035752E+05	-2.04210470513E+01	-3.69693763688E+01	6.34052249236E+00	-1.77716095850E+02	-4.65485529570E+01	1.27429853082E+02	-5.90831079323E+00	-6.68442987735E-02
3.18542117445E+05	-1.69979452273E+01	-1.47964817370E+02	6.42341078386E+00	-1.77470250628E+02	-4.05345859816E+01	3.43001291539E+01	-5.90121398844E+00	-2.40120668694E-01
3.18772365446E+05	-1.48353709996E+01	-1.15022798806E+02	6.46262405564E+00	-1.76701668722E+02	-4.14044816580E+01	4.02848959611E+01	-5.86408511415E+00	-2.82871714161E-01
3.19002779874E+05	-2.68527326541E+01	-6.48109354422E+01	6.36048491415E+00	-1.77734952685E+02	-3.80548648603E+01	1.67511741281E+02	-5.90472561673E+00	1.33996531505E-02
3.19233360850E+05	-2.99791355448E+01	4.20985674660E+01	6.32269656370E+00	-1.77854767601E+02	-3.39400231848E+01	1.62746886994E+02	-5.96930639116E+00	-4.19650102725E-01
3.19464108494E+05	-1.39846087265E+01	4.35868395234E+01	6.24153444453E+00	-1.78338072735E+02	-3.84643031261E+01	-1.47488568178E+02	-5.93015707291E+00	-2.60164788700E-01
3.19695022927E+05	-1.96934525744E+01	-1.59376176454E+02	6.43196327482E+00	-1.77559047801E+02	-4.49059843955E+01	2.13340802167E+01	-5.86369408706E+00	-4.78043724964E-01
3.19926104268E+05	-2.05720091506E+01	1.61354729786E+02	6.43859973783E+00	-1.77782024002E+02	-3.63508188700E+01	1.04546345094E+02	-5.87517634170E+00	-6.59179577839E-02
3.20157352640E+05	-1.74659834773E+01	-1.71737250249E+02	6.41007701760E+00	-1.77909401113E+02	-3.68463926059E+01	-6.85185146068E+01	-5.88597544178E+00	-7.55777709051E-01
3.20388768162E+05	-6.86951802137E+00	1.67607634663E+02	6.64455320313E+00	-1.79007263994E+02	-4.37186756377E+01	-1.27621231101E+02	-5.88925479431E+00	-4.18364134231E-01
3.20620350955E+05	-2.55847075874E+01	-7.57275016676E+01	6.37566407238E+00	-1.77665493229E+02	-4.68115123785E+01	3.04817491527E+01	-5.90404906795E+00	2.50494011105E-01
3.20852101140E+05	-3.12855029047E+01	-7.07728962968E+01	6.28014314197E+00	-1.77594597046E+02	-3.93438724313E+01	-6.81144100462E+01	-5.84669448741E+00	-5.45913484888E-01
3.21084018839E+05	-2.13795339402E+01	1.16636478464E+02	6.32015895028E+00	-1.77859746581E+02	-4.59696921400E+01	9.22551368684E+01	-5.90853825187E+00	-2.44846313697E-01
3.21316104172E+05	-2.55600410396E+01	-2.30755390844E+01	6.26320385682E+00	-1.77726637183E+02	-3.84032368232E+01	-8.57991426836E+01	-5.86190146782E+00	-4.41451858626E-01
3.21548357261E+05	-1.77160337956E+01	-7.80568132962E+01	6.32736319479E+00	-1.77328080098E+02	-4.34828019916E+01	1.42737699148E+02	-5.89303265115E+00	1.78699162548E-01
3.21780778226E+05	-1.56644246889E+01	-6.99227503780E+01	6.32564747900E+00	-1.77530179180E+02	-5.64796964241E+01	1.44188394482E+02	-5.90014126748E+00	-3.81680021810E-01
3.22013367189E+05	-1.96721976741E+01	-9.42917753532E+01	6.32888928530E+00	-1.77681871851E+02	-3.99732698394E+01	-1.38774932378E+01	-5.85215785188E+00	-2.84402557719E-01
3.22246124272E+05	-2.15691904706E+01	-1.63668349783E+01	6.19006102342E+00	-1.77706219955E+02	-4.28384828715E+01	-5.45747925586E+01	-5.87317164261E+00	-3.73316571502E-01
3.22479049596E+05	-2.32099278400E+01	7.85848424955E+01	6.35222186823E+00	-1.77902743031E+02	-3.07283715149E+01	1.40478895645E+02	-5.96487781391E+00	2.30685714783E-01
3.22712143282E+05	-2.20551209211E+01	-1.35078146987E+01	6.31586797843E+00	-1.78183423470E+02	-4.02392088450E+01	8.49061311617E+01	-5.93644283755E+00	-3.56831424034E-01
3.22945405453E+05	-2.25336633170E+01	-1.63243311132E+02	6.44132669823E+00	-1.77647882568E+02	-4.85674165623E+01	-7.98674338979E+01	-5.87222409211E+00	-3.21107375560E-01
3.23178836230E+05	-2.02179167639E+01	-3.80051437854E+01	6.34350864511E+00	-1.77730525283E+02	-5.36871252181E+01	4.88574996494E+01	-5.84616489837E+00	-2.04752034003E-01
3.23412435735E+05	-2.22661027462E+01	4.23155651119E+01	6.32828165699E+00	-1.78392415321E+02	-3.90118561100E+01	-6.91891587040E+01	-5.88200587951E+00	-3.30537052920E-01
3.23646204090E+05	-7.18404552636E+00	-7.19157062039E+01	6.31190379438E+00	-1.75754933356E+02	-3.79499840393E+01	-1.71182812541E+02	-5.88102550296E+00	-1.65888162030E-01
3.23880141417E+05	-1.24295811627E+01	1.73727079675E+02	6.50591912484E+00	-1.77843916797E+02	-4.29447194893E+01	1.37949446442E+02	-5.88829851629E+00	-1.61914410410E-01
3.24114247838E+05	-2.13742485602E+01	-1.38857059536E+02	6.37296801513E+00	-1.77779172423E+02	-3.53171826372E+01	-1.24986010048E+02	-5.93498685365E+00	-4.27100111099E-01
3.24348523475E+05	-1.63152165485E+01	5.42537818332E+01	6.27396015952E+00	-1.78343047873E+02	-3.44561331650E+01	-7.52237769816E+01	-5.88710695805E+00	-4.43817885602E-01
3.24582968451E+05	-1.91578264745E+01	1.24346033883E+02	6.31886188736E+00	-1.78114751329E+02	-4.71480628064E+01	1.23172876570E+02	-5.87785847161E+00	-1.32155919242E-01
3.24817582888E+05	-1.47129182262E+01	-8.18927722949E+00	6.24961532621E+00	-1.78095950211E+02	-4.86133542979E+01	1.66752193968E+02	-5.92414419691E+00	6.29906521821E-02
3.25052366909E+05	-2.67605387547E+01	8.63503977527E+01	6.34855509427E+00	-1.78197384806E+02	-3.37805190297E+01	1.12368787124E+02	-5.89218665076E+00	-4.56825763651E-02
3.25287320635E+05	-1.69024181703E+01	-7.89363307968E+01	6.36398169039E+00	-1.77279448747E+02	-4.23408829748E+01	-6.56153243159E+01	-5.86904886442E+00	-2.48571079962E-01
3.25522444191E+05	-2.78322619162E+01	-3.16146447182E+01	6.34820024388E+00	-1.77472020042E+02	-3.87453861623E+01	1.43011981094E+02	-5.90536683329E+00	1.25001490183E-01
3.25757737698E+05	-2.86332410139E+01	1.22502019736E+02	6.33364253138E+00	-1.77734292752E+02	-3.11410955059E+01	1.42049001823E+02	-5.90386239726E+00	-8.16388707553E-02
3.25993201280E+05	-1.68030679222E+01	-1.54341898303E+02	6.41684932749E+00	-1.77566375747E+02	-5.12037302442E+01	8.41946557658E+01	-5.87831394231E+00	-1.69109509132E-01
3.26228835058E+05	-1.78959603494E+01	1.69546231310E+02	6.37990659416E+00	-1.78048996065E+02	-4.17541592153E+01	2.61702337762E+01	-5.87796372190E+00	-2.35111892968E-01
