# Hz S DB R 50
! CMT, M5065, 19127446, 24.2.4/2
! Date: 11/1/2024 4:33:12 PM
! Data: Format (Calibration Info)
! Freq	S11:dB/Ang(F2)	S21:dB/Ang(F2)	S12:dB/Ang(F2)	S22:dB/Ang(F2)
3.00000000000E+05	-1.84674874191E+01	-1.74540462234E+02	1.01324114306E+01	-1.77588375292E+02	-3.38624957953E+01	1.07883214022E+02	-5.92130928661E+00	5.69837239221E-01
3.00216845423E+05	-3.01910383249E+01	-1.31939665631E+02	1.00904424931E+01	-1.77485557339E+02	-4.43940450074E+01	-1.72470524678E+02	-5.91515451785E+00	-2.16037024099E-01
3.00433847586E+05	-1.88967757535E+01	1.45876934174E+02	1.01342327399E+01	-1.77869011069E+02	-4.03236548229E+01	6.92351856239E+01	-5.87100725626E+00	-6.99294790588E-02
3.00651006602E+05	-1.65058426421E+01	-1.42893180789E+02	1.01245855582E+01	-1.76795345917E+02	-3.57618096617E+01	6.58586968177E+01	-5.85640729506E+00	2.64986630035E-02
3.00868322584E+05	-1.57050907036E+01	1.01512421249E+02	1.01330719464E+01	-1.78180603590E+02	-4.08704774744E+01	-2.94953727324E+00	-5.84413942548E+00	-3.69422503770E-01
3.01085795647E+05	-1.74819922329E+01	1.51227281252E+02	1.01590319938E+01	-1.77592697503E+02	-3.94163772629E+01	-1.27344173783E+02	-5.94356965565E+00	-4.51408516800E-01
3.01303425902E+05	-1.87653116833E+01	6.53624048420E+01	1.00762811409E+01	-1.77611191277E+02	-5.10883017770E+01	-1.66069592966E+02	-5.92327287646E+00	-1.36491248648E-01
3.01521213465E+05	-3.64471136402E+01	1.47210762802E+02	1.01232327539E+01	-1.77102791550E+02	-2.72936882927E+01	-4.83012880380E+01	-5.75065870098E+00	-8.92347027585E-01
3.01739158449E+05	-3.66355816395E+01	-1.22672252749E+02	1.01030304985E+01	-1.77437819769E+02	-3.08813101767E+01	-9.38036488974E+01	-5.87138455415E+00	-1.21482762260E+00
3.01957260967E+05	-2.81410531027E+01	5.33493719352E+00	1.01036298539E+01	-1.77135544859E+02	-4.32336501036E+01	-2.87034648326E+01	-5.85928597956E+00	-1.93864040910E-01
3.02175521134E+05	-1.73172265032E+01	-4.69410667275E+01	1.00502097104E+01	-1.77219495118E+02	-3.59251117100E+01	1.00346529858E+02	-5.90890695954E+00	4.53691916671E-02
3.02393939063E+05	-1.03750460060E+01	-1.36494066998E+01	9.88827602308E+00	-1.76913591242E+02	-4.25652216520E+01	-4.72005343021E+00	-5.85892110244E+00	-3.29431176032E-01
3.02612514869E+05	-1.09347380334E+01	4.54062958844E+00	9.84880148625E+00	-1.76987187451E+02	-4.04236135459E+01	-5.87442291376E+01	-5.80288401662E+00	-5.71333158541E-01
3.02831248665E+05	-2.64949154613E+01	-1.49537574252E+02	1.01638623006E+01	-1.77415196129E+02	-5.04103545869E+01	-1.70477265598E+00	-5.87964076197E+00	-2.86489963565E-01
3.03050140565E+05	-2.45602378017E+01	1.74033112171E+02	1.00962487974E+01	-1.77806253542E+02	-4.17592964382E+01	-4.45750473814E+01	-5.83255389077E+00	-7.52507033275E-01
3.03269190685E+05	-2.06345132643E+01	1.36264263089E+01	1.00221676893E+01	-1.77735066504E+02	-3.15198650855E+01	-8.30700871847E+01	-5.85562813743E+00	-9.76158679934E-01
3.03488399138E+05	-1.46673039106E+01	6.94748196043E+01	1.00827926113E+01	-1.78214610102E+02	-3.86917875916E+01	-3.62339298250E+01	-5.82913492631E+00	-3.28126570067E-01
3.03707766039E+05	-1.92964684994E+01	-1.34501934045E+02	1.01839036912E+01	-1.77238512516E+02	-4.41954907154E+01	1.72045429933E+02	-5.92430491858E+00	-3.69372620155E-01
3.03927291503E+05	-2.30297928248E+01	1.05291021373E+01	1.00353950202E+01	-1.77665461052E+02	-4.02327096696E+01	6.85001214952E+01	-5.85261770106E+00	9.33814341130E-02
3.04146975643E+05	-2.72776646363E+01	3.09955457522E+01	1.00546717962E+01	-1.77293890326E+02	-3.51057765172E+01	-6.80971971497E+01	-5.86181007129E+00	-9.96954291264E-01
3.04366818575E+05	-4.48605142487E+01	-7.85712482100E+01	1.00791609859E+01	-1.77840831541E+02	-3.36320601720E+01	1.65615550959E+01	-5.84848394862E+00	1.63245294734E-01
3.04586820414E+05	-2.42099288536E+01	9.36919492839E+01	1.00634445226E+01	-1.77944008235E+02	-3.56661983556E+01	-1.11042891779E+02	-5.85217680517E+00	-9.58941585770E-01
3.04806981274E+05	-2.50564898319E+01	4.03152552351E+01	1.00918460299E+01	-1.77421197682E+02	-4.75434060885E+01	4.74461963485E+01	-5.87146065671E+00	-3.91050913162E-01
3.05027301270E+05	-1.79960607942E+01	6.62436288751E+01	1.00675298740E+01	-1.77854355194E+02	-3.87216911345E+01	-1.37532025705E+02	-5.89617534670E+00	-4.60130242767E-01
3.05247780517E+05	-1.48598544518E+01	9.03103807405E+01	1.00918770353E+01	-1.78230591296E+02	-3.91297226108E+01	-9.96528747983E+01	-5.82108954337E+00	-6.15271173723E-01
3.05468419131E+05	-2.72165025121E+01	4.20608567932E+01	1.00330122352E+01	-1.77556374932E+02	-3.72947946241E+01	-8.97454123676E+01	-5.86900688636E+00	-4.78458407971E-01
3.05689217226E+05	-1.62832846442E+01	4.91727536232E+01	1.00273917762E+01	-1.77864737571E+02	-5.30036730783E+01	5.38613495097E+01	-5.90067772473E+00	-3.16769843711E-01
3.05910174918E+05	-1.91484344603E+01	5.02761161579E+01	1.00194732576E+01	-1.78098922961E+02	-4.60273007433E+01	1.32024296652E+02	-5.88318525913E+00	-4.24714009037E-01
3.06131292322E+05	-2.00729032361E+01	1.11541183431E+02	1.00985592185E+01	-1.77853746127E+02	-3.54681018482E+01	1.43855804163E+02	-5.90901982251E+00	1.46466572907E-02
3.06352569554E+05	-2.55286067374E+01	8.99786575935E+01	1.01025441954E+01	-1.77749188211E+02	-3.38114631831E+01	4.78611539642E+01	-5.82826055746E+00	9.69112027792E-02
3.06574006730E+05	-1.89336765022E+01	-1.73826596552E+01	1.00494272569E+01	-1.77286871781E+02	-3.86645271419E+01	-1.25743429091E+02	-5.92328326309E+00	-3.16953557650E-01
3.06795603964E+05	-2.91157700676E+01	-2.97875641422E+01	1.01061937374E+01	-1.77407409237E+02	-3.64724821500E+01	-1.47226464376E+02	-5.92962330702E+00	-6.52385318185E-01
3.07017361372E+05	-1.86031716217E+01	4.49711498356E+01	1.00664008304E+01	-1.77299743962E+02	-4.28617804361E+01	-1.48066977033E+02	-5.91080056303E+00	-6.53501329138E-01
3.07239279071E+05	-1.93829994878E+01	1.25970018779E+02	1.01332319272E+01	-1.77637727503E+02	-3.57635798023E+01	1.26441553551E+02	-5.92588497374E+00	-3.19157954069E-02
3.07461357176E+05	-2.57130721045E+01	1.79142497518E+02	1.01225612044E+01	-1.77213060058E+02	-4.40253395702E+01	-1.11121330600E+02	-5.85922052733E+00	-3.08554036974E-01
3.07683595803E+05	-1.57607968946E+01	-2.75672662394E+01	1.00274394913E+01	-1.77160855915E+02	-4.88926587677E+01	1.07348217866E+02	-5.88391214735E+00	-4.85521327518E-01
3.07905995068E+05	-2.73850659616E+01	5.60248826826E+00	1.00676150962E+01	-1.77751740744E+02	-3.62052239706E+01	1.15004457888E+02	-5.94082166630E+00	2.28172077180E-01
3.08128555087E+05	-2.00860736891E+01	5.67804166193E+01	1.00710858037E+01	-1.77516591387E+02	-5.41522183558E+01	9.95606814121E+01	-5.90001735142E+00	-9.99759519996E-02
3.08351275976E+05	-1.66181169353E+01	6.55732627324E+01	1.00920075503E+01	-1.78133262697E+02	-5.12245318714E+01	-3.89233965069E+01	-5.87828008961E+00	-2.04237432025E-01
3.08574157853E+05	-2.29202812301E+01	9.29224186932E+01	1.01402378411E+01	-1.78089695015E+02	-4.08083159586E+01	-1.56004848109E+02	-5.92678821088E+00	-3.18137674983E-01
3.08797200832E+05	-1.73281010542E+01	1.66127251215E+02	1.02025950539E+01	-1.77382460149E+02	-3.84503949571E+01	8.30047669181E+01	-5.84487799092E+00	1.87092444654E-01
3.09020405031E+05	-1.05137150741E+01	1.44723831636E+02	1.02852482900E+01	-1.78557639195E+02	-4.16577709651E+01	8.78420638282E+01	-5.89303679243E+00	-1.44660531561E-01
3.09243770566E+05	-1.38796981018E+01	1.10270736712E+02	1.01357796064E+01	-1.78249349509E+02	-4.36333833103E+01	1.35463799672E+02	-5.88287628662E+00	-4.08367418335E-01
3.09467297553E+05	-1.56376119964E+01	7.83817218241E+01	1.00687536480E+01	-1.78372038804E+02	-3.45017260479E+01	8.79855965821E+00	-5.78099765316E+00	-1.72244625607E-01
3.09690986110E+05	-3.08493570904E+01	-4.60071994253E+01	1.00308457130E+01	-1.77340302367E+02	-4.02758358223E+01	2.09304816161E+01	-5.87607090117E+00	-3.67801499760E-01
3.09914836353E+05	-1.82620850671E+01	1.56404615347E+02	1.01604775694E+01	-1.78011903162E+02	-4.01084243761E+01	-8.66828721238E+01	-5.84919558751E+00	-6.80522369183E-01
3.10138848399E+05	-1.98457740514E+01	1.14832844521E+02	1.01305530042E+01	-1.78279771023E+02	-4.33000889341E+01	5.36437910783E+01	-5.85493306505E+00	-1.98731718044E-01
3.10363022365E+05	-2.33620395578E+01	1.22355448137E+02	1.01185497900E+01	-1.77809916234E+02	-4.72838541633E+01	3.99309974855E+01	-5.90112684485E+00	-1.76447129140E-01
3.10587358368E+05	-2.88377620409E+01	-1.19516297928E+02	1.01151559814E+01	-1.77205421937E+02	-4.14588618549E+01	2.99785744092E+01	-5.83671755535E+00	-2.96273198451E-01
3.10811856525E+05	-2.41702611891E+01	1.35001386208E+02	1.01433011013E+01	-1.77839922969E+02	-4.14082439132E+01	9.18707922420E+01	-5.87555920702E+00	-2.39682501273E-01
3.11036516954E+05	-2.89571386738E+01	-1.20070326083E+02	1.00935718327E+01	-1.77149082181E+02	-3.53122650357E+01	-1.48513021314E+02	-5.96370239307E+00	-7.58353521639E-01
3.11261339771E+05	-1.83813858027E+01	8.09710078282E+01	1.01021832156E+01	-1.78027335912E+02	-3.96795631520E+01	-9.74035637767E+01	-5.89266543837E+00	-2.42773613127E-01
3.11486325094E+05	-2.09855542825E+01	7.33186127967E+01	1.00684735834E+01	-1.78016903169E+02	-4.07367386924E+01	-8.21765907789E+01	-5.90091131473E+00	-5.28331183595E-01
3.11711473040E+05	-2.34442929228E+01	-1.60011389536E+02	1.01353555681E+01	-1.77714553634E+02	-4.18448681751E+01	-1.78751665967E+02	-5.90097668567E+00	-5.02549986507E-01
3.11936783728E+05	-8.95064177639E+00	1.12087608336E+01	9.84751752136E+00	-1.77769598390E+02	-3.56366654489E+01	5.83103669157E+01	-5.87305714577E+00	-8.35809782836E-02
3.12162257274E+05	-2.15501252036E+01	-1.55730275003E+02	1.01536070926E+01	-1.77833286890E+02	-3.81592853589E+01	7.81671094578E+01	-5.89094529730E+00	3.76126154618E-05
3.12387893797E+05	-6.65283330332E+01	3.33541802043E+00	1.00909821459E+01	-1.77630466255E+02	-4.07040325408E+01	-8.46365631420E+01	-5.89091337763E+00	-5.04620612419E-01
3.12613693413E+05	-2.62045966419E+01	-4.31019647286E+01	1.00862102050E+01	-1.76883690267E+02	-3.38691843962E+01	-1.42581724534E+02	-5.96816943478E+00	-7.23435914510E-01
3.12839656242E+05	-1.52986033905E+01	-1.54459443100E+02	1.01204424982E+01	-1.77389162235E+02	-3.35584459486E+01	6.45424917486E+01	-5.82293443970E+00	4.28998244478E-01
3.13065782401E+05	-1.84116533915E+01	5.94505342492E+01	1.00431239570E+01	-1.78403312403E+02	-4.13615010900E+01	8.42470571864E+01	-5.89330509023E+00	2.50821060891E-01
3.13292072007E+05	-2.15370756164E+01	5.41316404891E+01	1.00638142170E+01	-1.78143769315E+02	-4.19070554234E+01	1.34915595975E+02	-5.89614788553E+00	-4.65583582882E-01
3.13518525180E+05	-1.91226983826E+01	-7.44108370424E+01	1.01355730589E+01	-1.77075159656E+02	-3.34837644043E+01	7.56086037650E+01	-5.85379359135E+00	2.02919820849E-01
3.13745142038E+05	-1.52004144094E+01	-1.19115229651E+02	1.01686367117E+01	-1.76801631162E+02	-3.45769231931E+01	9.03601439012E+00	-5.80335958436E+00	-5.17190158875E-01
3.13971922698E+05	-2.00976473873E+01	1.45414211531E+02	1.01682061702E+01	-1.77860182281E+02	-3.88930624415E+01	-1.08115865483E+02	-5.94715717979E+00	-4.67953698713E-01
3.14198867279E+05	-2.39959976870E+01	-6.09351264402E+01	1.00747059490E+01	-1.77697968717E+02	-3.65478329956E+01	6.48843659056E+01	-5.90042984251E+00	3.05130308925E-01
3.14425975900E+05	-3.39299529369E+01	-1.29134680183E+01	1.00807434221E+01	-1.77973502619E+02	-3.57499744188E+01	6.85416800608E+01	-5.84118885253E+00	9.47130525267E-02
3.14653248680E+05	-3.43316565893E+01	6.22401701723E+01	1.01206114446E+01	-1.77512166652E+02	-3.57997160222E+01	-1.40637266836E+01	-5.80135366841E+00	-8.91733792004E-02
3.14880685736E+05	-1.67490658895E+01	-8.66020710988E+01	1.01226095847E+01	-1.77059756350E+02	-5.08060036543E+01	-1.46440547112E+01	-5.86231150244E+00	-9.75513567554E-02
3.15108287188E+05	-1.50765806921E+01	-1.52107942848E+02	1.02234916010E+01	-1.77326016603E+02	-4.97602361868E+01	1.65777935741E+02	-5.89618672780E+00	-2.93659902569E-01
3.15336053154E+05	-1.20371181186E+01	6.56641932719E+01	1.00232506060E+01	-1.78915955116E+02	-3.63041880684E+01	1.36389870709E+02	-5.94813123099E+00	-1.94448370773E-02
3.15563983753E+05	-2.07014153219E+01	-1.78059029466E+02	1.01411244501E+01	-1.77466311313E+02	-5.57360129211E+01	2.71812734353E+01	-5.87478788824E+00	-4.02998323246E-01
3.15792079105E+05	-2.15106736951E+01	1.17211203455E+02	1.00937943814E+01	-1.77741443705E+02	-3.53236637690E+01	2.74707109449E+01	-5.83267881903E+00	3.82568329379E-02
3.16020339328E+05	-3.55523839614E+01	1.66885614294E+02	1.00406375976E+01	-1.77778297715E+02	-3.58238891028E+01	-1.14183759744E+02	-5.98643263884E+00	-7.24696757001E-01
3.16248764542E+05	-2.64118609261E+01	-1.63218150219E+02	1.01455190881E+01	-1.77989244805E+02	-5.19440002123E+01	1.56297874653E+02	-5.90667628804E+00	-2.73338030420E-01
3.16477354866E+05	-2.40499060231E+01	-1.47019996770E+02	1.01136589172E+01	-1.77533991737E+02	-4.34475786046E+01	-2.43185388229E+01	-5.85495486173E+00	-2.78596114190E-01
3.16706110419E+05	-7.42712412065E+00	-2.81844167662E+00	9.72541684142E+00	-1.77076398580E+02	-4.20632848944E+01	-6.83425762017E+01	-5.88352991376E+00	-3.73621220749E-01
3.16935031321E+05	-2.01663223515E+01	-1.66258466281E+02	1.01968407492E+01	-1.77671030243E+02	-4.70117590340E+01	-1.25415907323E+02	-5.89579045125E+00	-4.41975598007E-01
3.17164117691E+05	-2.56171678418E+01	4.55545672199E+01	1.01118869386E+01	-1.77983469462E+02	-4.41655300317E+01	-1.68102530451E+02	-5.88702811806E+00	-2.36689599800E-01
3.17393369648E+05	-1.62043511655E+01	-1.28442151849E+02	1.02130318294E+01	-1.77420109352E+02	-3.32907446071E+01	1.26992171850E+02	-5.89623943907E+00	3.96409979840E-01
3.17622787313E+05	-2.21586829240E+01	6.55005004752E+01	1.01181110066E+01	-1.78206074212E+02	-2.72957944601E+01	1.60491019474E+02	-6.11711641664E+00	1.20481544266E-02
3.17852370806E+05	-1.77567032615E+01	8.95828151830E+01	1.00702625578E+01	-1.78024819446E+02	-4.01345925346E+01	-1.71331638220E+02	-5.95310260477E+00	-3.05843269719E-01
3.18082120245E+05	-2.45056043149E+01	-8.04930169959E+01	1.00885672019E+01	-1.77518957950E+02	-3.85039828420E+01	-7.99389367717E+00	-5.81555968363E+00	-2.66270283158E-01
3.18312035752E+05	-2.63290532419E+01	1.08346726893E+02	1.01318703136E+01	-1.78024923503E+02	-3.58475286422E+01	1.23015180727E+02	-5.92132003410E+00	-9.56807734563E-02
3.18542117445E+05	-1.68201836145E+01	-4.01762668252E+01	1.00000921450E+01	-1.77473774683E+02	-4.33512524149E+01	8.56893117983E+01	-5.90245582153E+00	-6.69901499953E-02
3.18772365446E+05	-2.93395303879E+01	-1.11388289413E+02	1.00960662526E+01	-1.77783063682E+02	-3.89860662357E+01	1.07293396914E+02	-5.91164586283E+00	-2.98348654898E-01
3.19002779874E+05	-2.41293309880E+01	9.86861066289E+01	1.00913952067E+01	-1.78061750988E+02	-3.00632828138E+01	-1.14822026152E+02	-5.95438349321E+00	-1.19199305758E+00
3.19233360850E+05	-1.88188389501E+01	1.03866713154E+02	1.01647971268E+01	-1.78049383285E+02	-4.14360787243E+01	-7.14270976465E+01	-5.89761628335E+00	-5.73132456597E-01
3.19464108494E+05	-2.00231603964E+01	-7.84832146907E+01	1.00904901423E+01	-1.77478036637E+02	-4.30259803882E+01	-1.87913675123E+01	-5.87231984170E+00	-3.12881472461E-01
3.19695022927E+05	-1.94775008160E+01	-6.57331388592E+01	1.00845939752E+01	-1.77317330420E+02	-3.05081391986E+01	-5.41054187915E+01	-5.82282002579E+00	-7.47992283135E-01
3.19926104268E+05	-2.20291402360E+01	9.27254920592E+01	1.00862264588E+01	-1.77948427203E+02	-4.17949098218E+01	-2.00886881456E+01	-5.90983168477E+00	-2.81883535970E-01
3.20157352640E+05	-7.28803685568E+00	7.19785242469E+01	9.95863957588E+00	-1.79758929551E+02	-4.33713369298E+01	-1.02948025203E+02	-5.87153592394E+00	-3.77926182487E-01
3.20388768162E+05	-2.05235443961E+01	-1.73633374206E+02	1.01439793383E+01	-1.77663199183E+02	-3.95858485922E+01	4.23010397864E+01	-5.87623369855E+00	-2.46359415926E-01
3.20620350955E+05	-2.25657927475E+01	1.00690584432E+02	1.00868161590E+01	-1.78111313972E+02	-3.31430779471E+01	-1.34149761855E+02	-5.99049632773E+00	-8.37847203194E-01
3.20852101140E+05	-2.50409025157E+01	-3.95375903959E+01	1.00578671919E+01	-1.77688299412E+02	-4.41288720357E+01	1.62770057750E+02	-5.96663240944E+00	-6.83930372439E-01
3.21084018839E+05	-2.15231143597E+01	1.58317551461E+02	1.01850522714E+01	-1.77976229251E+02	-3.92988873308E+01	1.40403154333E+02	-5.93704209973E+00	1.57394678132E-01
3.21316104172E+05	-2.91239373892E+01	1.68860276613E+02	1.01424052257E+01	-1.77857877646E+02	-3.60800323301E+01	-1.02679919045E+02	-5.92408560078E+00	-6.50044495004E-01
3.21548357261E+05	-2.00727971464E+01	-1.32133590021E+02	1.01727135467E+01	-1.76976106617E+02	-4.03266153084E+01	-1.16662480396E+02	-5.90288455322E+00	-4.23814952302E-01
3.21780778226E+05	-1.61912428509E+01	-5.51293323166E+01	1.00137041915E+01	-1.77137768317E+02	-3.94179141792E+01	-4.79437093128E+01	-5.88072067676E+00	-4.35237531703E-01
3.22013367189E+05	-2.75079970673E+01	1.32883392590E+02	1.01332346930E+01	-1.78256190414E+02	-3.56581658412E+01	-5.31799263529E+01	-5.84441557614E+00	-7.85463478371E-01
3.22246124272E+05	-1.41279152187E+01	4.79308460800E+01	1.00288937855E+01	-1.78171818342E+02	-4.81329433310E+01	-2.28683039249E+01	-5.89195571212E+00	-1.68205196636E-01
3.22479049596E+05	-1.69967225838E+01	7.42770410567E+01	1.00843354713E+01	-1.78500147403E+02	-4.03188225930E+01	-1.26744604886E+02	-5.91240616513E+00	-7.00152363918E-01
3.22712143282E+05	-2.16449322962E+01	7.71680896733E+01	1.01375237989E+01	-1.78314726155E+02	-3.96438964242E+01	-3.68611974122E+01	-5.85893980307E+00	-4.10307897685E-01
3.22945405453E+05	-1.76088617823E+01	-1.05504205594E+02	1.01469886712E+01	-1.76995202696E+02	-4.87282356313E+01	-4.97167827672E+00	-5.89618190357E+00	-1.54037497899E-01
3.23178836230E+05	-2.42666773885E+01	1.11789320814E+02	1.01228231904E+01	-1.78185520902E+02	-3.83031863591E+01	-4.67772713551E+01	-5.82299124885E+00	-4.98917066985E-01
3.23412435735E+05	-2.44013409496E+01	1.74079415702E+02	1.01115852495E+01	-1.78284094461E+02	-3.75856373914E+01	9.97257362271E+01	-5.91828164175E+00	1.34019169365E-01
3.23646204090E+05	-2.70249509060E+01	9.76401044040E+00	1.00512524583E+01	-1.77474186787E+02	-3.76595630022E+01	-6.18734997862E+01	-5.87135406887E+00	-3.73425258059E-01
3.23880141417E+05	-1.94357704930E+01	-9.42852984723E+01	1.00560077297E+01	-1.77348649613E+02	-4.16024825028E+01	-2.25580674290E+01	-5.84985003122E+00	-1.60795102353E-01
3.24114247838E+05	-2.51648506558E+01	1.55648053459E+02	1.01442162692E+01	-1.77970947326E+02	-2.96690530924E+01	2.06917420529E+01	-5.71662223505E+00	1.49801102819E-01
3.24348523475E+05	-1.87621895386E+01	1.43605596815E+02	1.01257374272E+01	-1.78187765277E+02	-3.74179599260E+01	1.80490828565E+01	-5.83957583804E+00	8.57404904641E-02
3.24582968451E+05	-3.07337483430E+01	3.83172317691E+01	1.00942877172E+01	-1.77913910889E+02	-3.87969413309E+01	-1.33502166183E+02	-5.87579297115E+00	-5.17372474825E-01
3.24817582888E+05	-1.79672128208E+01	1.27831045876E+02	1.01572414066E+01	-1.78049422120E+02	-5.60106728357E+01	6.74217328543E+01	-5.92704718938E+00	-3.12599658644E-01
3.25052366909E+05	-1.89857060638E+01	6.19370875672E+01	1.00609762858E+01	-1.78644270715E+02	-4.29066546476E+01	1.52885747814E+02	-5.88843824878E+00	-9.83932993641E-02
3.25287320635E+05	-3.78949666221E+01	-9.92038611861E+01	1.00608013510E+01	-1.77902878426E+02	-3.67394128941E+01	1.41899397785E+01	-5.79333320995E+00	-5.48218412820E-01
3.25522444191E+05	-2.16708587366E+01	-1.74211418357E+02	1.01389226319E+01	-1.77642086238E+02	-4.28506701205E+01	1.82943671417E+01	-5.86997450581E+00	-1.83300446971E-01
3.25757737698E+05	-2.62184219590E+01	-7.08453543405E+01	1.01808378375E+01	-1.77497728845E+02	-5.15080671362E+01	4.49810221253E+01	-5.84915744901E+00	-1.96070386420E-01
3.25993201280E+05	-1.68628451780E+01	1.45547850813E+02	1.02003828785E+01	-1.78073457539E+02	-4.57222435234E+01	8.10973628328E+01	-5.87194602654E+00	1.40909488877E-01
3.26228835058E+05	-2.26472726039E+01	8.34998961183E+01	1.00558124062E+01	-1.78179673837E+02	-4.61352099374E+01	8.11937136285E+01	-5.88766580910E+00	-2.87295553276E-01
