# Hz S DB R 50
! CMT, M5065, 19127446, 24.2.4/2
! Date: 11/1/2024 4:14:59 PM
! Data: Format (Calibration Info)
! Freq	S11:dB/Ang(F2)	S21:dB/Ang(F2)	S12:dB/Ang(F2)	S22:dB/Ang(F2)
3.00000000000E+05	-2.29874212063E+01	1.15025084120E+02	4.63701219848E+00	-1.77427884901E+02	-3.82900365353E+01	3.77430845902E+01	-5.88555292472E+00	-1.68449370519E-01
3.00216845423E+05	-2.45574812297E+01	1.69540639648E+02	4.64268513558E+00	-1.77420220608E+02	-5.27148628134E+01	1.69056214808E+02	-5.90355861737E+00	-2.87799790239E-01
3.00433847586E+05	-3.02633553106E+01	1.51251585209E+02	4.69116600636E+00	-1.77645060966E+02	-4.25753306232E+01	-1.03039177968E+02	-5.87954730782E+00	-1.92868665654E-01
3.00651006602E+05	-2.13327235130E+01	8.88912892643E+01	4.78369747749E+00	-1.78175082385E+02	-4.33288344584E+01	9.24030288549E+01	-5.89950122630E+00	-3.16978922253E-01
3.00868322584E+05	-2.09424154988E+01	-1.06759878407E+02	4.66061658799E+00	-1.77684725542E+02	-3.67450051278E+01	-4.32545878282E+01	-5.87237006852E+00	-5.50650567202E-01
3.01085795647E+05	-1.34649594129E+01	-9.23938920760E+00	4.56726657475E+00	-1.77259689623E+02	-4.40254721811E+01	2.72008011152E+00	-5.87653580297E+00	-4.31909870418E-01
3.01303425902E+05	-1.12033379546E+01	9.76794608622E+01	4.57486022938E+00	-1.79579960493E+02	-3.15281407645E+01	1.19903792555E+02	-5.94257301510E+00	2.66190343334E-01
3.01521213465E+05	-2.12830894016E+01	1.19037193571E+02	4.66922546414E+00	-1.77790956021E+02	-3.11593558828E+01	1.39411449317E+02	-5.95771795080E+00	1.29755835369E-02
3.01739158449E+05	-2.11880076881E+01	1.62897467815E+01	4.60335989921E+00	-1.77748806614E+02	-4.06241209385E+01	4.93676697913E+01	-5.89011570654E+00	-3.11560606033E-01
3.01957260967E+05	-1.50780799628E+01	-3.55531711155E+01	4.54218462214E+00	-1.76866369373E+02	-4.76336350953E+01	-1.79821906430E+02	-5.92307137837E+00	-2.82627064350E-01
3.02175521134E+05	-2.47987650067E+01	-4.60887936428E+01	4.62446908910E+00	-1.77714681986E+02	-5.12003445990E+01	-6.78776305512E+01	-5.94322549331E+00	-5.61928503687E-01
3.02393939063E+05	-2.64938412435E+01	1.76705658483E+02	4.63038272666E+00	-1.77181020496E+02	-4.10233774967E+01	9.85930041507E+01	-5.87041863936E+00	-3.30683006596E-01
3.02612514869E+05	-1.93599199584E+01	-8.56358873548E+00	4.62066680116E+00	-1.77828237522E+02	-3.87659022454E+01	-7.42662658631E+01	-5.86168983923E+00	-2.16542465079E-01
3.02831248665E+05	-1.19393142157E+01	-8.01956577127E+01	4.61027225332E+00	-1.76588694153E+02	-3.47270266578E+01	1.15054488707E+02	-5.91321370724E+00	7.12359163975E-02
3.03050140565E+05	-1.69838511141E+01	-6.14796087125E+01	4.65657787888E+00	-1.77536944992E+02	-4.70327677677E+01	1.43450493326E+02	-5.89397960310E+00	-2.97298225213E-01
3.03269190685E+05	-2.53945632767E+01	1.45548206088E+02	4.67607253432E+00	-1.77484702435E+02	-3.99822923126E+01	-7.91903597880E+01	-5.90005380048E+00	-2.44358175402E-01
3.03488399138E+05	-2.06352054863E+01	1.46084898311E+01	4.56917141306E+00	-1.77450899443E+02	-3.81706373694E+01	1.58439172323E+01	-5.86047606569E+00	-1.21586933496E-01
3.03707766039E+05	-1.70133132514E+01	-1.11555973436E+02	4.67115371080E+00	-1.77340670606E+02	-5.12006537323E+01	-5.45165039755E+01	-5.88718869402E+00	-2.25927246232E-01
3.03927291503E+05	-1.62436333552E+01	1.70078224142E+02	4.69430724436E+00	-1.77772864766E+02	-3.63156541552E+01	-1.20975877933E+02	-5.91141976823E+00	-5.21452234363E-01
3.04146975643E+05	-1.86261582048E+01	-1.48909154527E+02	4.75714616383E+00	-1.77687858143E+02	-4.50458612226E+01	5.65770378645E+01	-5.87223170033E+00	-2.50516595463E-01
3.04366818575E+05	-1.91618592280E+01	-9.01406636850E+01	4.69660415407E+00	-1.77408922808E+02	-3.48563729702E+01	1.06152762322E+02	-5.86871251654E+00	1.13960891873E-01
3.04586820414E+05	-1.90230807706E+01	-5.82872351249E+01	4.57847941605E+00	-1.77736943772E+02	-3.49150280888E+01	-1.01754145860E+01	-5.85597736040E+00	-3.86630380778E-01
3.04806981274E+05	-2.51328211357E+01	3.14503021587E+01	4.62328332348E+00	-1.78106563674E+02	-3.89082305247E+01	-1.90083946076E+01	-5.86550504839E+00	-4.43184967325E-01
3.05027301270E+05	-2.12285455584E+01	-4.46227190075E+01	4.57182112660E+00	-1.77654836652E+02	-4.46877250260E+01	-8.69451394466E+01	-5.93134787301E+00	-3.11303509324E-01
3.05247780517E+05	-3.01630245021E+01	4.55917385558E+01	4.64402278082E+00	-1.77975244375E+02	-3.82210369927E+01	1.66476151195E+02	-5.91553077197E+00	-2.63103207740E-01
3.05468419131E+05	-2.13560103203E+01	-9.97076609791E+01	4.69667397451E+00	-1.77434024278E+02	-3.89228518329E+01	1.15129123111E+02	-5.90866920069E+00	-8.42878984541E-02
3.05689217226E+05	-1.98790825022E+01	1.26768688018E+02	4.65402528101E+00	-1.77771182977E+02	-4.61062521865E+01	6.73677717428E+01	-5.91133195134E+00	-1.17664308780E-01
3.05910174918E+05	-1.03732476129E+01	3.13178792178E+01	4.49984519220E+00	-1.78678006243E+02	-3.77816424972E+01	-1.30108348054E+02	-5.94063909520E+00	-5.32416166930E-01
3.06131292322E+05	-1.80683383333E+01	-1.00619245967E+01	4.60877521905E+00	-1.77768205851E+02	-3.97602277810E+01	-1.72914866796E+02	-5.91284458528E+00	-4.90953169393E-02
3.06352569554E+05	-1.61622684033E+01	-7.82089475905E+01	4.63805020833E+00	-1.76681970204E+02	-4.38668230897E+01	1.46161434831E+02	-5.92029812470E+00	-1.51781755640E-01
3.06574006730E+05	-1.67128921090E+01	1.25095009607E+02	4.74648972526E+00	-1.78707659463E+02	-3.90666045097E+01	7.89842143760E+01	-5.89316957469E+00	-1.69999926349E-01
3.06795603964E+05	-3.16892191636E+01	7.73459889287E+01	4.66665677125E+00	-1.78070038986E+02	-4.65312034437E+01	5.25025614554E+01	-5.88571033598E+00	-3.59463260249E-01
3.07017361372E+05	-2.76562735705E+01	4.14425401036E+01	4.62420200320E+00	-1.77937413561E+02	-5.87421273284E+01	-1.08137626965E+02	-5.87694363516E+00	-2.81005891288E-01
3.07239279071E+05	-1.82803978006E+01	-2.53347172149E+01	4.62786820023E+00	-1.77153326407E+02	-4.83199213889E+01	8.71716490608E+01	-5.89739194057E+00	-2.05375825014E-01
3.07461357176E+05	-1.98301639090E+01	7.15994692312E+01	4.58622927662E+00	-1.78295221628E+02	-2.99368527987E+01	-4.57440071935E+01	-5.84407663861E+00	-4.36935317436E-01
3.07683595803E+05	-1.40600752180E+01	-3.12211792818E+01	4.51027810267E+00	-1.77997362793E+02	-3.27237471148E+01	1.19600102359E+02	-5.88946443548E+00	-2.09882286801E-01
3.07905995068E+05	-2.60905602892E+01	-4.88939480539E+00	4.54292081969E+00	-1.77770362432E+02	-3.69752729500E+01	-8.31661243338E+01	-5.85676657544E+00	-4.52678608454E-01
3.08128555087E+05	-2.20943376158E+01	2.46617265637E+01	4.56335080734E+00	-1.77681548615E+02	-4.13456431696E+01	-8.31256320452E+01	-5.92940027292E+00	-2.94159249312E-01
3.08351275976E+05	-2.09569127772E+01	-8.68163197523E+01	4.74221834942E+00	-1.77863601636E+02	-3.75791757979E+01	1.21303995350E+01	-5.89247611052E+00	-8.22423427651E-02
3.08574157853E+05	-2.02769387169E+01	2.09268768600E+01	4.59600560769E+00	-1.78292386576E+02	-3.49664636258E+01	1.30971986428E+02	-5.94516413905E+00	-3.43018463949E-02
3.08797200832E+05	-1.92253817663E+01	9.07212308574E+01	4.73571711900E+00	-1.78478821544E+02	-4.75415366660E+01	-5.83755783472E+01	-5.86134531193E+00	-6.10041670267E-01
3.09020405031E+05	-1.28910856703E+01	3.53997300224E+01	4.37562237636E+00	-1.78021036884E+02	-3.60815024927E+01	8.87044522609E+01	-5.83508107140E+00	6.31110231010E-02
3.09243770566E+05	-1.67179860451E+01	-2.95907828158E+01	4.63115440596E+00	-1.78004002694E+02	-2.46562821334E+01	-7.29281588898E+01	-5.85205735085E+00	-1.19694170509E+00
3.09467297553E+05	-2.51294032930E+01	1.42651212264E+02	4.68344840049E+00	-1.77725705012E+02	-3.55224216454E+01	-1.10774965957E+02	-5.86510393823E+00	-2.74273742399E-01
3.09690986110E+05	-2.83008235864E+01	1.62594762664E+02	4.68312772996E+00	-1.77778689398E+02	-3.67607727104E+01	6.78388472600E+01	-5.89052365855E+00	-1.62308630467E-01
3.09914836353E+05	-1.55752854540E+01	-9.83478144778E+01	4.67107524036E+00	-1.77648337066E+02	-3.73268343645E+01	-1.72905001789E+02	-5.91652125335E+00	-5.57164879461E-01
3.10138848399E+05	-2.88173805809E+01	3.22083404454E+01	4.70802567273E+00	-1.77553836974E+02	-3.69650943589E+01	-1.39498095632E+02	-5.87809143028E+00	-3.29881911204E-01
3.10363022365E+05	-1.92956761334E+01	6.57544766534E+01	4.61655668491E+00	-1.77601562380E+02	-3.98576297807E+01	-1.42937018725E+02	-5.94379368683E+00	-3.40301053322E-01
3.10587358368E+05	-1.16939142387E+01	1.68980338902E+02	4.89658818203E+00	-1.78515771235E+02	-3.61455224184E+01	-1.01969809841E+02	-5.88826723242E+00	-5.24173381054E-01
3.10811856525E+05	-2.00699229622E+01	9.20567500123E+01	4.67824212070E+00	-1.78338657112E+02	-3.32467964424E+01	-5.84475630656E+01	-5.87170525233E+00	-7.43593331252E-01
3.11036516954E+05	-2.79661334034E+01	-4.65235644287E+01	4.67018598007E+00	-1.77874779533E+02	-3.52142922873E+01	-1.38865317886E+02	-5.93119817891E+00	-3.12148774656E-01
3.11261339771E+05	-2.55305032447E+01	-1.17879088588E+02	4.65559020063E+00	-1.77749312087E+02	-3.80633575240E+01	1.62095925995E+02	-5.90599539610E+00	-1.25423388252E-01
3.11486325094E+05	-1.75106147788E+01	1.27779159914E+02	4.73561834248E+00	-1.78091057400E+02	-4.80296994938E+01	-1.46536941357E+02	-5.86653171638E+00	-3.28690381641E-02
3.11711473040E+05	-2.54625280051E+01	-1.66723102797E+01	4.59417227239E+00	-1.77786052027E+02	-4.02378391909E+01	-9.90615476392E+01	-5.92150062408E+00	-5.21850927320E-01
3.11936783728E+05	-3.39357740110E+01	-2.53246266301E+01	4.63692643074E+00	-1.78429561726E+02	-3.59215802832E+01	-9.12341072916E+01	-5.87372868490E+00	-5.85668001506E-01
3.12162257274E+05	-1.32356285926E+01	-1.49883639142E+02	4.81213343361E+00	-1.77684862598E+02	-3.33803927445E+01	1.05603641538E+02	-5.93193306180E+00	-5.61413814626E-02
3.12387893797E+05	-1.13489787823E+01	3.84574469791E+01	4.50327351238E+00	-1.78656755066E+02	-3.24631436126E+01	7.27068445475E+00	-5.84943499030E+00	4.10169233422E-03
3.12613693413E+05	-2.05922301433E+01	1.29512906808E+01	4.67515162760E+00	-1.77503480603E+02	-4.26298435952E+01	-1.63895551067E+02	-5.89193929902E+00	-2.42493091944E-01
3.12839656242E+05	-1.99380635245E+01	1.30098590749E+00	4.60432575692E+00	-1.77654978800E+02	-5.26539000606E+01	9.06118818734E+01	-5.87811366233E+00	8.66276659640E-02
3.13065782401E+05	-3.20982082787E+01	-4.81118313811E+01	4.67195030150E+00	-1.77704611441E+02	-3.53936872758E+01	5.77751642502E+00	-5.85392267928E+00	-1.63790598705E-01
3.13292072007E+05	-2.26346834263E+01	1.19138469494E+02	4.72005634167E+00	-1.78489925448E+02	-5.92166586114E+01	-1.46158865071E+02	-5.91204089867E+00	-2.35970636119E-01
3.13518525180E+05	-2.07963426793E+01	-5.96487461576E+01	4.61142016812E+00	-1.77297737592E+02	-3.93465062146E+01	-1.16057027983E+02	-5.92517734058E+00	-6.01877553808E-01
3.13745142038E+05	-2.33802481448E+01	-6.27974730443E+01	4.65517120413E+00	-1.77362771789E+02	-3.98528652277E+01	9.74946336228E+01	-5.93949352996E+00	-1.01911690566E-01
3.13971922698E+05	-1.06262823573E+01	-5.82108765420E+01	4.53749551837E+00	-1.76875163071E+02	-3.26744336099E+01	1.02158241828E+02	-5.87362628858E+00	5.76347677535E-02
3.14198867279E+05	-2.43886615007E+01	3.88036053495E+01	4.66055937463E+00	-1.77795757283E+02	-4.77703146677E+01	-5.28073075406E+01	-5.89114060965E+00	-4.01100525009E-01
3.14425975900E+05	-1.60987081041E+01	-1.05742964479E+02	4.80045191273E+00	-1.77000056813E+02	-3.46357499536E+01	5.53641225872E+01	-5.85652713080E+00	-9.02098603464E-02
3.14653248680E+05	-1.48477845653E+01	8.57869457299E+01	4.64788711603E+00	-1.78222053000E+02	-3.70523763272E+01	5.43855333954E+01	-5.89071908705E+00	-3.39495969303E-01
3.14880685736E+05	-1.81448848830E+01	-7.50986262139E+00	4.61047532424E+00	-1.78125235427E+02	-6.01192435042E+01	6.55427437492E+01	-5.89012769729E+00	-1.74243331504E-01
3.15108287188E+05	-2.35593919019E+01	-9.91350292377E+01	4.64458554190E+00	-1.77892425136E+02	-3.88300045432E+01	1.40558341597E+02	-5.90120324889E+00	-2.13246342926E-01
3.15336053154E+05	-7.46608434068E+00	2.20078271731E+01	4.30745905847E+00	-1.78002567674E+02	-3.44256401293E+01	-1.51176297331E+02	-5.95728642927E+00	-4.79044086699E-01
3.15563983753E+05	-2.11612472656E+01	7.14636897046E+01	4.64506049488E+00	-1.78176782249E+02	-3.93659915162E+01	1.59688178362E+02	-5.91230441564E+00	-3.70104595265E-01
3.15792079105E+05	-2.22417097037E+01	-9.57142528346E+01	4.68948211005E+00	-1.78070011104E+02	-4.70436676023E+01	-3.43110820143E+01	-5.87344095560E+00	-3.31104128979E-01
3.16020339328E+05	-2.22719184235E+01	8.32878499613E+01	4.61215961784E+00	-1.78100803903E+02	-4.25100395298E+01	-1.46412262308E+02	-5.91195318205E+00	-2.50059275336E-01
3.16248764542E+05	-1.70931134497E+01	-5.76908019953E+01	4.64602813963E+00	-1.77391848021E+02	-4.08374611870E+01	8.64613976247E-02	-5.92359698562E+00	-1.43906113471E-01
3.16477354866E+05	-1.98745258008E+01	4.84851697615E+01	4.64155649472E+00	-1.78298930571E+02	-4.84994330125E+01	-1.31923731496E+02	-5.94173779562E+00	-2.35187391128E-01
3.16706110419E+05	-1.74313082250E+01	-2.65271755440E+00	4.50479992552E+00	-1.77965460191E+02	-4.79035200028E+01	-1.86695654629E+01	-5.89262583798E+00	-4.13405132443E-01
3.16935031321E+05	-1.74557548477E+01	1.09801891182E+02	4.73974389478E+00	-1.78972714648E+02	-3.23602813568E+01	-2.71912467651E+00	-5.82325026648E+00	-5.03717651090E-01
3.17164117691E+05	-1.51683720463E+01	-6.34720003512E+01	4.61450261108E+00	-1.77734171970E+02	-3.04174689808E+01	3.56923613535E+01	-5.85682738326E+00	-1.03443537267E-01
3.17393369648E+05	-1.77630920733E+01	1.48184074513E+02	4.71843996324E+00	-1.78174080332E+02	-4.25449626908E+01	1.13869442820E+02	-5.90278918877E+00	1.00468174625E-02
3.17622787313E+05	-1.90974843152E+01	1.07204329058E+02	4.75274951032E+00	-1.78696806011E+02	-4.74643185755E+01	1.59706306276E+02	-5.91009883774E+00	-1.89843025063E-01
3.17852370806E+05	-1.96008255473E+01	1.47361614588E+02	4.73205215019E+00	-1.78268271338E+02	-5.17421297948E+01	-1.69175659676E+02	-5.87104104891E+00	-9.72716691503E-02
3.18082120245E+05	-2.16603200134E+01	-8.97873998406E+01	4.64954288570E+00	-1.77060007036E+02	-4.41565245676E+01	-3.75511845402E+01	-5.88349291907E+00	-1.19176343924E-01
3.18312035752E+05	-1.89237688877E+01	-3.72154252219E+01	4.70067106211E+00	-1.77697023772E+02	-5.10975593556E+01	1.13629393529E+02	-5.92256162071E+00	-1.62321963883E-01
3.18542117445E+05	-2.72592695753E+01	1.39191213857E+02	4.65120482251E+00	-1.78017419510E+02	-3.20410067558E+01	-1.39398884453E+02	-5.93573326368E+00	-4.63625718809E-01
3.18772365446E+05	-1.82735129718E+01	-6.62568389675E+01	4.72465490020E+00	-1.77607688758E+02	-3.81779733726E+01	-1.67308459074E+02	-5.97700386219E+00	-2.88393575057E-01
3.19002779874E+05	-1.73998551495E+01	1.73781702333E+02	4.74484304479E+00	-1.77573092283E+02	-4.60432267308E+01	2.06651768623E+01	-5.86451821395E+00	-2.13049589679E-01
3.19233360850E+05	-2.21697928460E+01	-7.31199335777E+01	4.62431471834E+00	-1.77688196383E+02	-4.71433643104E+01	1.32415570643E+02	-5.89601988780E+00	-7.35512890549E-02
3.19464108494E+05	-2.75211411873E+01	-1.02621381787E+02	4.69521293311E+00	-1.77571281006E+02	-5.29624922988E+01	1.84897821245E+01	-5.87709118310E+00	-3.49042878572E-01
3.19695022927E+05	-2.87508278327E+01	-1.74883690899E+01	4.56760903688E+00	-1.78022403409E+02	-3.97548450802E+01	5.95901408418E+01	-5.88321189420E+00	-1.61000086908E-01
3.19926104268E+05	-2.58350746522E+01	-1.50205165462E+02	4.64938562987E+00	-1.77661485511E+02	-4.22810449833E+01	-1.43570950748E+02	-5.89965511547E+00	-3.27088009046E-01
3.20157352640E+05	-2.45169316092E+01	-1.24802261285E+02	4.73608148638E+00	-1.77714730711E+02	-3.69074471741E+01	1.08465594226E+02	-5.94056830930E+00	3.41884986973E-03
3.20388768162E+05	-1.40304543465E+01	-7.75596365611E+01	4.66193519313E+00	-1.76139660425E+02	-3.43453607690E+01	-4.62813036493E+01	-5.86237733707E+00	-6.37843278917E-01
3.20620350955E+05	-2.00005440352E+01	-1.28666589984E+02	4.67816083184E+00	-1.78063937629E+02	-4.63980179206E+01	9.91540484012E+01	-5.91354968871E+00	-4.60969658750E-01
3.20852101140E+05	-2.56956706187E+01	-3.53846117272E+01	4.60363670007E+00	-1.77704729248E+02	-5.49491885362E+01	1.42456291657E+02	-5.92767263089E+00	-1.24079327295E-01
3.21084018839E+05	-3.84335725702E+01	-2.27017856070E+01	4.70801812449E+00	-1.78032805853E+02	-4.56947325687E+01	-3.76633083364E+01	-5.91575214864E+00	-3.25188216235E-01
3.21316104172E+05	-1.96508651010E+01	1.08036016922E+02	4.65258004924E+00	-1.78956557988E+02	-4.13344552249E+01	-1.90700016049E+00	-5.88089566060E+00	-1.90275127231E-01
3.21548357261E+05	-2.06484309176E+01	-4.59473696125E+01	4.58615432624E+00	-1.77688004084E+02	-3.98111995765E+01	-1.45421470031E+02	-5.87947680862E+00	-2.42857772507E-01
3.21780778226E+05	-1.81246489571E+01	2.82793583647E+01	4.48653322010E+00	-1.77928809865E+02	-4.05513858678E+01	-8.68634275849E+01	-5.84756566483E+00	-2.79258537282E-01
3.22013367189E+05	-1.41434613957E+01	7.90866205396E+01	4.59915717418E+00	-1.79070392410E+02	-3.31726996339E+01	-4.03471594851E+01	-5.89500945898E+00	-6.08740660018E-01
3.22246124272E+05	-2.20271235053E+01	9.92488529743E+01	4.65351388325E+00	-1.78867052851E+02	-3.83454003451E+01	-1.42904677946E+02	-5.93767584051E+00	-1.97755583787E-01
3.22479049596E+05	-2.61428499924E+01	-1.73015152817E+02	4.74799144738E+00	-1.78162430820E+02	-4.60997701780E+01	6.96388941523E+01	-5.88787407831E+00	-1.21601911900E-02
3.22712143282E+05	-1.81451132573E+01	5.91462896115E+01	4.51409488428E+00	-1.78411406508E+02	-4.14694861792E+01	-1.21855388512E+02	-5.87415093749E+00	-3.28575868192E-01
3.22945405453E+05	-3.03183263876E+01	-1.06011537913E+02	4.70329296028E+00	-1.78102348015E+02	-5.92947210037E+01	-1.67369382295E+02	-5.89320225921E+00	-5.12845652151E-01
3.23178836230E+05	-2.03350819551E+01	-8.66884097142E+01	4.60685487487E+00	-1.77391197540E+02	-3.21775947399E+01	-1.07631772441E+02	-5.92274588841E+00	-6.32282534869E-01
3.23412435735E+05	-9.81278992633E+00	1.42537549696E+02	4.76059642232E+00	-1.77961617774E+02	-4.05199192719E+01	3.49613406093E+00	-5.88530696279E+00	-3.37326900842E-01
3.23646204090E+05	-1.95842353884E+01	-6.66722477200E+01	4.65507662978E+00	-1.77010190408E+02	-3.09079939975E+01	-9.05334333977E+01	-5.88280576564E+00	-8.83836463381E-01
3.23880141417E+05	-2.35338128265E+01	1.54040349741E+02	4.69014063600E+00	-1.78279156096E+02	-4.26515427384E+01	-2.70848354477E+01	-5.91534058901E+00	-3.03744828013E-01
3.24114247838E+05	-3.04697203279E+01	-1.01661432599E+02	4.66099370090E+00	-1.77934213156E+02	-4.52926640454E+01	1.29811911345E+02	-5.93361633542E+00	-2.73345437475E-01
3.24348523475E+05	-3.00534873814E+01	-9.84993460298E+01	4.62956269745E+00	-1.78194067856E+02	-4.34892386872E+01	1.66768849791E+02	-5.92151524730E+00	-1.02866478709E-01
3.24582968451E+05	-2.37580405530E+01	6.24229011690E+01	4.64544203199E+00	-1.78185130026E+02	-5.19409994945E+01	-1.41346194277E+02	-5.90553232130E+00	-2.30052364299E-01
3.24817582888E+05	-4.59390413299E+01	-1.54419464685E+02	4.71844916713E+00	-1.77931224803E+02	-4.36451407200E+01	6.40179749633E+01	-5.90808441556E+00	-2.42024748393E-01
3.25052366909E+05	-1.80031305926E+01	1.33476549393E+02	4.67787242755E+00	-1.78399965919E+02	-3.77308190573E+01	6.04684497298E+01	-5.89177912837E+00	-4.54296620295E-01
3.25287320635E+05	-2.22391376401E+01	-9.51489181145E+01	4.63272115835E+00	-1.77929994882E+02	-4.38469849037E+01	-5.27533343283E+01	-5.87547144882E+00	-4.05658446576E-01
3.25522444191E+05	-2.03838971368E+01	2.30485358821E+01	4.56222113549E+00	-1.78690018967E+02	-3.47952749294E+01	-3.52563309338E+00	-5.82323224133E+00	-1.55166469077E-01
3.25757737698E+05	-1.62075215190E+01	6.16529734358E+01	4.59649794511E+00	-1.78618201296E+02	-4.52093175596E+01	-2.82788108029E+01	-5.93809110382E+00	-1.46028102121E-01
3.25993201280E+05	-1.93806093147E+01	-1.61989823124E+02	4.71285283464E+00	-1.77720299969E+02	-4.01315378715E+01	-1.02848120147E+02	-5.89640400992E+00	-5.30860381692E-01
3.26228835058E+05	-3.20283768472E+01	-7.52540921249E+01	4.59639276045E+00	-1.78272768502E+02	-4.50939269127E+01	4.69129129730E+01	-5.89422940162E+00	-1.09036071842E-01
