# Hz S DB R 50
! CMT, M5065, 19127446, 24.2.4/2
! Date: 11/1/2024 4:46:19 PM
! Data: Format (Calibration Info)
! Freq	S11:dB/Ang(F2)	S21:dB/Ang(F2)	S12:dB/Ang(F2)	S22:dB/Ang(F2)
3.00000000000E+05	-1.69703494012E+01	-1.66775638311E+02	1.92572204430E+01	-1.76287533392E+02	-4.51174541828E+01	1.45476982603E+02	-5.95596045251E+00	-5.53687113368E-01
3.00216845423E+05	-1.93840597841E+01	-9.39664379237E+01	1.91477476685E+01	-1.75547850262E+02	-4.56565789852E+01	-1.22572907591E+02	-5.91028976575E+00	-9.01930708193E-01
3.00433847586E+05	-1.62896936122E+01	1.52343615556E+02	1.92214189569E+01	-1.76272663995E+02	-4.10336307545E+01	-7.94372830054E+01	-5.83256691085E+00	-1.01533580622E+00
3.00651006602E+05	-1.77697907894E+01	1.00611543726E+02	1.91511265526E+01	-1.76544371160E+02	-4.67186955485E+01	-3.80183380183E+01	-5.80209572599E+00	-4.68631315096E-01
3.00868322584E+05	-2.96333682160E+01	-3.88046277968E+01	1.91191193701E+01	-1.76183561943E+02	-3.76922212891E+01	1.34830991049E+02	-5.95879398657E+00	4.19737928791E-01
3.01085795647E+05	-2.29050255014E+01	1.41117673643E+02	1.91749678947E+01	-1.76530698888E+02	-3.81044671540E+01	-1.52381774684E+02	-6.04148306564E+00	-4.73979407867E-01
3.01303425902E+05	-1.75176895360E+01	1.69555507208E+02	1.92051704249E+01	-1.76168462218E+02	-4.03147877459E+01	-7.79936373202E+01	-5.85128986526E+00	-9.96124866389E-01
3.01521213465E+05	-3.37668138458E+01	-5.21755341467E+01	1.91341712374E+01	-1.76288378876E+02	-4.02216005953E+01	1.43716679255E+02	-5.96396306816E+00	9.41280155995E-02
3.01739158449E+05	-2.58441559021E+01	1.10207719479E+02	1.91411640823E+01	-1.76375767697E+02	-4.02882937464E+01	3.93992802967E+01	-5.83962487003E+00	9.09381826051E-03
3.01957260967E+05	-2.37209719358E+01	-1.52292867890E+02	1.91857573018E+01	-1.76080247922E+02	-4.23172703664E+01	-1.25115710541E+02	-5.92999205904E+00	-6.62037106197E-01
3.02175521134E+05	-2.04419217116E+01	-1.50352728072E+02	1.91808468779E+01	-1.75959416180E+02	-5.09780245862E+01	1.36634652193E+02	-5.91224325669E+00	-1.09328083101E-01
3.02393939063E+05	-2.43686840826E+01	1.58869430436E+02	1.91535676397E+01	-1.76143231687E+02	-4.25640290041E+01	7.33030588792E+01	-5.79348427170E+00	3.17627349086E-02
3.02612514869E+05	-2.51077299329E+01	-7.94460288610E+01	1.91657456655E+01	-1.75819186749E+02	-3.52031477558E+01	1.45201040192E+02	-5.99554078969E+00	9.34233050980E-01
3.02831248665E+05	-2.04270670481E+01	-4.55417728419E+01	1.91340380241E+01	-1.75625442127E+02	-3.42313664125E+01	8.51402021180E+01	-5.90548101326E+00	1.00303644198E+00
3.03050140565E+05	-1.81032079887E+01	1.36416726641E+02	1.92303746539E+01	-1.76548037429E+02	-4.69294038994E+01	-3.61863929090E+01	-5.79757761612E+00	-7.30211002520E-01
3.03269190685E+05	-2.11437699139E+01	-2.85028158582E+01	1.90875288093E+01	-1.76000064896E+02	-3.97619088822E+01	-8.97848963196E+01	-5.84352616950E+00	-8.87126451315E-01
3.03488399138E+05	-2.10274469122E+01	1.05816289619E+02	1.91832167366E+01	-1.76552735128E+02	-4.11047544647E+01	1.54533077026E+02	-5.94915202020E+00	-9.68658774304E-02
3.03707766039E+05	-1.83610566871E+01	1.22555556806E+02	1.92200790397E+01	-1.76490514906E+02	-4.03568961505E+01	3.07048272225E+01	-5.79004147546E+00	2.18378368741E-01
3.03927291503E+05	-1.61993394702E+01	1.49709672268E+02	1.92226781207E+01	-1.76517791258E+02	-4.02854378307E+01	-5.51986289726E+01	-5.81331516747E+00	-9.33234779310E-01
3.04146975643E+05	-2.68194994188E+01	-1.08795245726E+02	1.91899433294E+01	-1.75720839383E+02	-3.53722834644E+01	9.05279049944E+01	-5.88371357619E+00	1.37466203032E+00
3.04366818575E+05	-1.78057407986E+01	1.16277664408E+02	1.91745449725E+01	-1.76540763342E+02	-3.47926725451E+01	3.47924589008E+01	-5.70211501184E+00	7.28553326857E-01
3.04586820414E+05	-9.63081797692E+00	5.53311533829E+01	1.90327112930E+01	-1.78019622398E+02	-3.98414879771E+01	5.91027940811E+01	-5.81532924989E+00	-8.56479749865E-02
3.04806981274E+05	-3.10193548848E+01	7.96512490924E+01	1.91226568934E+01	-1.76203046027E+02	-4.11214233847E+01	-2.57706769550E+01	-5.80695245621E+00	-4.21329047581E-01
3.05027301270E+05	-3.14764227614E+01	6.81069222759E+01	1.91441822466E+01	-1.76430016077E+02	-4.36159290316E+01	7.38345329346E+01	-5.87649337343E+00	-2.09696177176E-02
3.05247780517E+05	-1.89804493269E+01	-5.70967561725E+01	1.91377421899E+01	-1.75790973175E+02	-4.22926782185E+01	1.01370204991E+02	-5.91918063879E+00	-7.20819377113E-02
3.05468419131E+05	-3.60369980498E+01	1.76555209745E+02	1.91644195210E+01	-1.76325291262E+02	-3.74565457270E+01	1.24706531024E+02	-5.94929814611E+00	1.50568166236E-01
3.05689217226E+05	-1.81358804441E+01	1.46553497894E+02	1.92063433677E+01	-1.76577700335E+02	-3.39173377037E+01	4.05254155275E+01	-5.66853221682E+00	4.57111744408E-01
3.05910174918E+05	-2.58564265943E+01	1.24100883070E+02	1.91605957532E+01	-1.76333129308E+02	-3.64185699835E+01	1.56974415225E+01	-5.65070336934E+00	2.69472904518E-02
3.06131292322E+05	-1.40610740007E+01	2.20818118217E+01	1.90084161857E+01	-1.76697746459E+02	-3.84180375002E+01	-1.77160425066E+02	-6.00988747981E+00	-5.08653881749E-01
3.06352569554E+05	-1.52189946528E+01	-3.15511959293E+01	1.90759074673E+01	-1.75789627238E+02	-4.31044241454E+01	3.58318423839E+01	-5.82023173516E+00	5.89785265742E-02
3.06574006730E+05	-1.44434794635E+01	-7.67009511506E+01	1.91221942365E+01	-1.75738998704E+02	-4.20857014155E+01	-8.77189328246E+00	-5.77327576524E+00	-2.92011063224E-01
3.06795603964E+05	-2.41594119176E+01	7.87077253455E+01	1.91465766133E+01	-1.76403956597E+02	-3.75166519952E+01	4.20660472479E+01	-5.79518071598E+00	2.23695494284E-01
3.07017361372E+05	-1.91003915897E+01	-1.32342899215E+02	1.91770622270E+01	-1.75864800380E+02	-3.99996127114E+01	9.36544007875E+01	-5.90593173062E+00	1.77581477756E-01
3.07239279071E+05	-2.42264892399E+01	-1.00314959721E+02	1.91358859706E+01	-1.76235513690E+02	-3.48191493941E+01	-1.00725053813E+02	-5.89865508916E+00	-2.08996429813E+00
3.07461357176E+05	-2.55794029147E+01	9.87437856872E+01	1.91351803312E+01	-1.76498936885E+02	-3.49834430761E+01	1.60237316213E+02	-6.10164396583E+00	-2.21360057446E-02
3.07683595803E+05	-2.13787986690E+01	3.92701580109E+01	1.90752993132E+01	-1.76417619282E+02	-3.92332272938E+01	8.65794018721E+01	-5.86954640284E+00	4.10463284546E-01
3.07905995068E+05	-1.33682808168E+01	8.91974735382E+01	1.91601237125E+01	-1.77146152106E+02	-4.30077120000E+01	9.78330241963E+01	-5.87596267441E+00	2.36902373896E-01
3.08128555087E+05	-1.63478324365E+01	-8.36998464091E+01	1.91357293434E+01	-1.75822044546E+02	-3.94401042740E+01	2.49624231057E+01	-5.77709733060E+00	-2.98150665308E-01
3.08351275976E+05	-2.80629983618E+01	1.46030170021E+02	1.91834581063E+01	-1.76281860461E+02	-4.82689473581E+01	-2.94886307050E+01	-5.83432559830E+00	-2.88494854052E-01
3.08574157853E+05	-2.18312647935E+01	-8.10325256614E-01	1.91145477949E+01	-1.76286111832E+02	-4.46414808237E+01	-2.01061525339E+01	-5.83154517041E+00	-4.01495792077E-01
3.08797200832E+05	-2.16643050570E+01	-1.44804791944E+02	1.91688305513E+01	-1.76216133443E+02	-3.30149371926E+01	-1.16838254542E+02	-6.01916824479E+00	-1.94404380533E+00
3.09020405031E+05	-1.59337807523E+01	4.46524527239E+01	1.90996517775E+01	-1.76632996048E+02	-5.18975444497E+01	-3.46322312902E+01	-5.86134878164E+00	-7.45350759353E-01
3.09243770566E+05	-1.48016546335E+01	-9.49016830832E+01	1.91755101916E+01	-1.75546163239E+02	-4.45976823176E+01	-9.89943028332E+01	-5.81851542296E+00	-7.32568935064E-01
3.09467297553E+05	-1.78010151147E+01	-1.10848726578E+02	1.91852166887E+01	-1.76020794008E+02	-4.62187074240E+01	-1.51190073531E+02	-5.92625998801E+00	-5.07733091471E-01
3.09690986110E+05	-2.46777816715E+01	3.19721414273E+01	1.91233157560E+01	-1.76510207324E+02	-3.51441605690E+01	1.55573200381E+02	-6.02725264963E+00	4.41986700096E-03
3.09914836353E+05	-2.23847145711E+01	1.44097864203E+02	1.91897929424E+01	-1.76386231264E+02	-4.59678272228E+01	-8.61078295417E+01	-5.90726594902E+00	-8.71378279204E-01
3.10138848399E+05	-2.51228003910E+01	-1.56369951745E+02	1.91486920039E+01	-1.76271552110E+02	-4.88645544444E+01	-7.68545320535E+01	-5.87828632005E+00	-6.49130283826E-01
3.10363022365E+05	-2.68803536198E+01	8.99987661722E+01	1.91536264857E+01	-1.76618881653E+02	-4.11831557673E+01	1.66118865799E+01	-5.73017527769E+00	-2.38088064609E-01
3.10587358368E+05	-2.57302872263E+01	-1.10755683153E+02	1.91421541030E+01	-1.76323057684E+02	-3.58094735744E+01	1.22008752631E+01	-5.64311707229E+00	1.08847101318E-01
3.10811856525E+05	-1.45183661811E+01	-7.14458196118E+01	1.91045489543E+01	-1.75610441316E+02	-4.59273392300E+01	-3.50378118129E+01	-5.82693413119E+00	-3.97942347093E-01
3.11036516954E+05	-1.90455044993E+01	1.92274856657E+01	1.90726477202E+01	-1.76381293586E+02	-5.41930254799E+01	1.76594693371E+02	-5.91039594641E+00	-3.94419419955E-01
3.11261339771E+05	-2.49404617424E+01	1.27335714731E+02	1.91712164456E+01	-1.76565376505E+02	-3.49293399120E+01	-1.34875581628E+02	-6.00864844604E+00	-7.74751817879E-01
3.11486325094E+05	-1.69069426742E+01	1.07601295797E+02	1.91459408659E+01	-1.76957146249E+02	-3.36084054499E+01	1.06882445581E+02	-5.90669426542E+00	7.74392500403E-01
3.11711473040E+05	-1.86739988154E+01	-2.18559339629E+01	1.90824516857E+01	-1.76178091993E+02	-4.07102508576E+01	2.03168544815E+01	-5.81254335578E+00	-1.15415242789E-01
3.11936783728E+05	-1.86353801753E+01	9.31213906654E-01	1.91115293798E+01	-1.76483866554E+02	-4.58067997521E+01	-1.37854702408E+02	-5.95144845819E+00	-1.08897713088E+00
3.12162257274E+05	-3.26416264645E+01	-4.59335301024E+01	1.91558174351E+01	-1.76388472152E+02	-3.38753177344E+01	5.98201998181E+01	-5.78090000063E+00	1.11259572613E+00
3.12387893797E+05	-2.28793786690E+01	1.68480732724E+02	1.92464327409E+01	-1.76746035868E+02	-3.97719170356E+01	4.67808335690E+01	-5.83241796935E+00	-4.40345570108E-02
3.12613693413E+05	-1.11737941380E+01	1.31474118439E+02	1.92487194392E+01	-1.77296655088E+02	-4.35160717057E+01	-1.33336236161E+01	-5.81959884812E+00	-2.94806426606E-01
3.12839656242E+05	-2.61300070983E+01	-9.19301956287E+01	1.91419201719E+01	-1.76425336313E+02	-5.22936112022E+01	6.74286096531E+01	-5.90294870040E+00	-2.42611539840E-01
3.13065782401E+05	-1.88411605627E+01	-1.85297828194E+01	1.91104010850E+01	-1.76373466163E+02	-4.21424025357E+01	-7.93456930584E+01	-5.82474459790E+00	-4.87899574051E-01
3.13292072007E+05	-1.65833729964E+01	-3.94807129085E+01	1.91219294202E+01	-1.75935676897E+02	-4.73981890211E+01	1.21982834724E+02	-5.91278914929E+00	-1.94589168200E-01
3.13518525180E+05	-2.25390963615E+01	-7.46170216496E+01	1.91336810959E+01	-1.76469799358E+02	-3.26919661699E+01	2.08343882965E+01	-5.65118967858E+00	6.68272581337E-01
3.13745142038E+05	-1.32234729903E+01	-1.46865714070E+01	1.90404430951E+01	-1.76297162916E+02	-3.26440423733E+01	1.34175933681E+02	-6.15015252993E+00	1.57373130075E+00
3.13971922698E+05	-2.13360893761E+01	4.04845272239E+01	1.91318084038E+01	-1.76896280017E+02	-4.15711006049E+01	-1.06407047157E+02	-5.89063218828E+00	-1.00479607819E+00
3.14198867279E+05	-6.85718204949E+00	4.27674304784E+01	1.89170605943E+01	-1.77943189502E+02	-3.45985524316E+01	-1.70905726930E+01	-5.71220797049E+00	-6.26746362901E-01
3.14425975900E+05	-2.31390223101E+01	-4.96940062331E+01	1.91425644728E+01	-1.76369125204E+02	-3.84432843768E+01	9.19773953673E+01	-5.90650765057E+00	5.01628103277E-01
3.14653248680E+05	-2.14477329507E+01	1.06440388429E+01	1.91048915416E+01	-1.76932217086E+02	-4.13955300299E+01	-1.25782642089E+02	-5.93172866522E+00	-7.94062054580E-01
3.14880685736E+05	-2.17552590939E+01	-3.06358704436E+01	1.91130078926E+01	-1.76193949020E+02	-4.64293006755E+01	-9.98693147875E+00	-5.87490173848E+00	-7.52746461938E-01
3.15108287188E+05	-2.64459076040E+01	1.21468021417E+02	1.91651903608E+01	-1.76873929086E+02	-3.51412737400E+01	-1.48135274118E+02	-6.08745734613E+00	-1.10136276606E+00
3.15336053154E+05	-2.13469728802E+01	1.09276513908E+01	1.91085706434E+01	-1.76750001262E+02	-3.11641378934E+01	-7.03570858088E+01	-5.73069421109E+00	-2.32620521846E+00
3.15563983753E+05	-2.62670363824E+01	-9.98386054236E+00	1.91293297567E+01	-1.76405969207E+02	-4.73146819783E+01	-5.86290919530E+00	-5.82546154507E+00	-4.67413610633E-01
3.15792079105E+05	-1.04490205023E+01	-8.97418357624E+01	1.91477779739E+01	-1.75223210189E+02	-4.44539992828E+01	-9.90873378867E+01	-5.92646508887E+00	-7.63686477409E-01
3.16020339328E+05	-2.98376881219E+01	-1.52501586522E+01	1.91346046633E+01	-1.76562996153E+02	-4.34693005544E+01	-3.76037275856E+01	-5.85297511287E+00	-8.50328204513E-01
3.16248764542E+05	-1.90947304637E+01	2.83130920434E+01	1.90947054278E+01	-1.77088978086E+02	-4.83495454355E+01	8.53291743609E+01	-5.80990989517E+00	9.95256419467E-02
3.16477354866E+05	-3.01328021782E+01	1.10332650448E+02	1.91440415564E+01	-1.76704961250E+02	-3.85036547048E+01	4.14196138903E+01	-5.78874956365E+00	1.66119932791E-01
3.16706110419E+05	-2.27790130589E+01	-1.52138446525E+02	1.92033683367E+01	-1.76333699083E+02	-4.20555693437E+01	-6.93745925940E+01	-5.85600948316E+00	-7.02951593227E-01
3.16935031321E+05	-1.86144853901E+01	1.05154236494E+02	1.92216253578E+01	-1.76994823576E+02	-4.39251754358E+01	9.18953251421E+01	-5.95090156301E+00	4.79557619542E-01
3.17164117691E+05	-1.59613593018E+01	6.34907034434E+01	1.90736351278E+01	-1.77439144593E+02	-3.59184279369E+01	5.89280277101E+00	-5.74144567501E+00	-1.56793910868E-01
3.17393369648E+05	-1.83766739846E+01	-1.26395817097E+02	1.92317008592E+01	-1.76231860422E+02	-4.00797824637E+01	6.25468864912E+01	-5.84701248673E+00	2.25849643510E-01
3.17622787313E+05	-2.10969479123E+01	-8.77957071025E+01	1.91296443868E+01	-1.76356586876E+02	-3.88805199079E+01	-1.22122761143E+02	-5.92230139603E+00	-1.07683097715E+00
3.17852370806E+05	-1.82643449373E+01	6.50703960290E+01	1.91073558196E+01	-1.77056299325E+02	-5.88026553638E+01	1.02351432988E+02	-5.86659087570E+00	-4.87841909479E-01
3.18082120245E+05	-2.53276528976E+01	-8.23449582337E+01	1.91647586573E+01	-1.76488767337E+02	-3.34276436489E+01	6.70057470986E+01	-5.81168969815E+00	1.04216735499E+00
3.18312035752E+05	-1.91274185442E+01	1.49881112826E+02	1.91693700258E+01	-1.76916951372E+02	-3.40498296284E+01	-1.77676201904E+02	-6.09777725335E+00	-2.55714837587E-01
3.18542117445E+05	-1.89314491019E+01	-1.30282844908E+02	1.91761056121E+01	-1.76455021735E+02	-3.39949648976E+01	-2.97631478369E+01	-5.63166126403E+00	-1.11653897264E+00
3.18772365446E+05	-1.51010100913E+01	1.22448379723E+02	1.92129810069E+01	-1.77267174156E+02	-4.04746130773E+01	9.23030194886E+01	-5.90036720167E+00	4.51157069616E-01
3.19002779874E+05	-9.35995603685E+00	1.07533508669E+01	1.88839375601E+01	-1.77089806404E+02	-4.27212290080E+01	-1.37661451561E+02	-5.92043334238E+00	-6.79396142568E-01
3.19233360850E+05	-2.60684107145E+01	-1.78255918158E+02	1.91667218083E+01	-1.76664188096E+02	-3.90073508802E+01	-1.58002419468E+02	-5.99345466319E+00	-7.52600088432E-01
3.19464108494E+05	-1.97163552293E+01	1.40337072046E+02	1.91895811812E+01	-1.76942117235E+02	-3.65071539471E+01	-2.66062014062E+01	-5.75273732228E+00	-6.02259139785E-01
3.19695022927E+05	-2.20123502583E+01	3.06065950454E+01	1.91085153346E+01	-1.76979738378E+02	-4.86067069118E+01	-2.99418881449E+01	-5.80710042100E+00	-1.98185006667E-01
3.19926104268E+05	-1.87864090687E+01	1.80398041345E+01	1.90611539564E+01	-1.76826892511E+02	-5.10419614343E+01	-4.97021768520E+01	-5.88754726181E+00	-7.12993310767E-01
3.20157352640E+05	-2.46904317531E+01	-6.97091373829E+01	1.91165501014E+01	-1.76714579401E+02	-3.20426692145E+01	-5.75415612698E+01	-5.67432092059E+00	-1.99268445114E+00
3.20388768162E+05	-1.44121945566E+01	-9.87746537864E+01	1.91748538773E+01	-1.75936643046E+02	-3.53905659614E+01	3.61576386566E+01	-5.77112027108E+00	2.81779209659E-01
3.20620350955E+05	-1.63502916706E+01	1.21800753144E+02	1.91739847916E+01	-1.77276506001E+02	-3.50379731652E+01	-1.18410797565E+02	-5.96192591876E+00	-1.31374534899E+00
3.20852101140E+05	-1.81587282081E+01	8.97248492255E+01	1.90917507949E+01	-1.77314860282E+02	-4.31749766759E+01	-1.45947491263E+02	-5.92339133792E+00	-4.58188138931E-01
3.21084018839E+05	-1.78467167220E+01	-5.28263543742E+01	1.90849814575E+01	-1.76281883122E+02	-4.38568482237E+01	9.07916479335E+01	-5.89147371568E+00	4.17552776020E-01
3.21316104172E+05	-2.35077804261E+01	6.54396379500E+01	1.91370960498E+01	-1.76832071620E+02	-3.76844367783E+01	-3.87879834278E+01	-5.76485489962E+00	-9.72387715524E-01
3.21548357261E+05	-1.42610968542E+01	2.96765942685E+01	1.90065949302E+01	-1.76894676491E+02	-3.78720855383E+01	5.64191619023E+01	-5.83779172890E+00	1.03667584977E+00
3.21780778226E+05	-1.99430665560E+01	9.89636994741E+01	1.91521479711E+01	-1.76951432801E+02	-3.35423252722E+01	-1.79222171048E+02	-6.14263597264E+00	-1.31123117664E-01
3.22013367189E+05	-2.65916123175E+01	-4.50876531517E+01	1.91336708230E+01	-1.76468213463E+02	-3.51697869877E+01	1.44151678967E+02	-6.00566001611E+00	5.96009531424E-01
3.22246124272E+05	-1.07183866842E+01	-4.74123579573E+01	1.89826417702E+01	-1.75979843521E+02	-3.81411856766E+01	5.43859146782E+01	-5.84269588046E+00	4.84562924685E-01
3.22479049596E+05	-3.87991389086E+01	1.66610090598E+02	1.91661564153E+01	-1.76777707894E+02	-4.79820099663E+01	3.78156488537E+01	-5.86749856815E+00	-5.10473769727E-02
3.22712143282E+05	-1.75004207457E+01	-7.13119630610E+01	1.91067687927E+01	-1.76355721112E+02	-3.22147121976E+01	1.27139681997E+02	-6.04777103845E+00	7.76731607548E-01
3.22945405453E+05	-2.91963270696E+01	1.33707235142E+02	1.91740509815E+01	-1.76976164879E+02	-3.89309956788E+01	7.65521724565E+00	-5.77572420087E+00	-2.37577010443E-01
3.23178836230E+05	-2.57241846829E+01	1.10534600345E+02	1.91671044135E+01	-1.77126770156E+02	-4.86942221704E+01	-9.33429746678E+01	-5.94266113516E+00	-2.93289898090E-01
3.23412435735E+05	-1.84395408783E+01	9.79623193720E+00	1.90805669322E+01	-1.76947725360E+02	-4.38237940127E+01	-5.48293239386E+01	-5.85609633020E+00	-5.20768194678E-01
3.23646204090E+05	-2.33308915334E+01	1.02015513065E+02	1.91459896072E+01	-1.76990630592E+02	-3.89672749686E+01	-4.19692542933E+01	-5.76807674059E+00	-5.75039599862E-01
3.23880141417E+05	-2.11259350464E+01	-1.22620443005E+02	1.92039759122E+01	-1.76413056613E+02	-3.56598298650E+01	1.28777872702E+01	-5.77156899466E+00	-2.25914005539E-01
3.24114247838E+05	-2.96907724940E+01	5.76254552465E+01	1.91219713072E+01	-1.76881987449E+02	-3.80788007659E+01	-9.66128219548E+01	-5.87258774689E+00	-1.06648635580E+00
3.24348523475E+05	-1.89342258898E+01	1.52770897121E+02	1.91733431883E+01	-1.77026877722E+02	-4.05707231919E+01	1.78281753888E+02	-5.93761424526E+00	-3.86134838767E-01
3.24582968451E+05	-2.61817563878E+01	9.31013988936E+01	1.91743768786E+01	-1.77216047399E+02	-4.71438602280E+01	-2.88283256227E+01	-5.87786146249E+00	-3.29276569514E-01
3.24817582888E+05	-1.47807065770E+01	-4.52299665498E+01	1.90855666497E+01	-1.76544854633E+02	-3.58888791962E+01	5.19912574943E+01	-5.83193808061E+00	7.87278148527E-01
3.25052366909E+05	-2.27690418027E+01	-1.57252806961E+02	1.91807999760E+01	-1.77115991233E+02	-4.29873348755E+01	-5.53608754255E+01	-5.82392316776E+00	-8.16698424248E-01
3.25287320635E+05	-1.38949253694E+01	1.12627231827E+02	1.91937561052E+01	-1.77409483981E+02	-3.57645453993E+01	-7.68419422399E+01	-5.83317088101E+00	-1.50676768674E+00
3.25522444191E+05	-1.36014748746E+01	-1.18507274195E+02	1.92113025816E+01	-1.76143669298E+02	-4.19922287214E+01	1.47310539436E+02	-5.97418754709E+00	-2.90332573272E-01
3.25757737698E+05	-1.54849899307E+01	6.17777355191E+01	1.91154352458E+01	-1.77540014679E+02	-3.53234144677E+01	-1.21948494630E+02	-5.94764375271E+00	-1.43025038204E+00
3.25993201280E+05	-2.59479216044E+01	-3.73092735210E+01	1.91288121407E+01	-1.76766825488E+02	-3.34546579750E+01	1.22392796994E+02	-6.01429622965E+00	4.80667115894E-01
3.26228835058E+05	-1.42937849967E+01	1.37240950092E+02	1.92076683266E+01	-1.77271006279E+02	-4.14044738218E+01	1.02505177787E+02	-5.86438642059E+00	1.09008294391E-01
