# Hz S DB R 50
! CMT, M5065, 19127446, 24.2.4/2
! Date: 11/1/2024 4:19:18 PM
! Data: Format (Calibration Info)
! Freq	S11:dB/Ang(F2)	S21:dB/Ang(F2)	S12:dB/Ang(F2)	S22:dB/Ang(F2)
3.00000000000E+05	-3.39208526907E+01	1.22930639697E+01	5.64368135944E+00	-1.77588608354E+02	-5.14365847407E+01	-9.56587876757E+01	-5.89069603902E+00	-1.03367914171E-02
3.00216845423E+05	-1.64987873481E+01	1.67680048681E+00	5.60323998010E+00	-1.77355951051E+02	-3.80445799363E+01	8.25991386923E+00	-5.85050990556E+00	-8.99333146817E-02
3.00433847586E+05	-2.54334001572E+01	-9.11651633575E+01	5.74962977208E+00	-1.77707182387E+02	-3.60241221704E+01	2.70905827181E+01	-5.85866189310E+00	-1.98701055120E-01
3.00651006602E+05	-1.72838525738E+01	-3.12421300304E+01	5.66045785628E+00	-1.77392156145E+02	-3.17615665673E+01	-9.05260089247E+01	-5.85794154288E+00	-7.33097440799E-01
3.00868322584E+05	-1.37884820732E+01	1.41367967892E+02	5.68360206028E+00	-1.77986611241E+02	-3.88940451238E+01	6.60789519856E+01	-5.86123301239E+00	1.99659506086E-01
3.01085795647E+05	-1.95432668628E+01	-1.39471065036E+02	5.73863080515E+00	-1.77982212004E+02	-4.20344018553E+01	6.03076609083E+00	-5.85988790457E+00	-6.34616765954E-01
3.01303425902E+05	-1.65790832181E+01	1.32527445472E+02	5.76897134497E+00	-1.77635350434E+02	-5.18640083346E+01	6.66819389749E+01	-5.88557695002E+00	-2.85681029961E-01
3.01521213465E+05	-2.00767100868E+01	-1.24723066123E+01	5.63575511803E+00	-1.77573802949E+02	-3.50914315366E+01	1.32042814863E+02	-5.89212246913E+00	-1.21214529427E-02
3.01739158449E+05	-2.20626951089E+01	-5.91770468782E+01	5.68537408838E+00	-1.77585045920E+02	-4.04068366662E+01	-9.80692589359E+01	-5.89784397170E+00	-1.72323168320E-01
3.01957260967E+05	-2.02935803545E+01	-1.65114913012E+02	5.80926931083E+00	-1.77193615474E+02	-4.44435846947E+01	-1.05795691297E+02	-5.91363695429E+00	-3.31629223936E-01
3.02175521134E+05	-2.51906989877E+01	1.22231437719E+02	5.77333131355E+00	-1.77926366221E+02	-5.02604664259E+01	-2.52033251263E+01	-5.88275099607E+00	-2.65367271307E-01
3.02393939063E+05	-1.51486954849E+01	2.21908097337E+01	5.59059695173E+00	-1.77426639642E+02	-3.75163598455E+01	1.43613208832E+02	-5.94548521496E+00	2.07014318759E-02
3.02612514869E+05	-1.98905670669E+01	-1.64326176557E+02	5.81875832203E+00	-1.77568388632E+02	-3.20788126669E+01	-1.63250551911E+02	-5.94302498993E+00	-3.66729526506E-01
3.02831248665E+05	-2.38437396021E+01	-1.37585292881E+02	5.64472213622E+00	-1.77657675698E+02	-5.09628487363E+01	1.42015843397E+02	-5.91644017517E+00	3.45028776077E-02
3.03050140565E+05	-1.87750220083E+01	-1.58475818022E+02	5.80164525610E+00	-1.77390558527E+02	-4.22544519990E+01	-1.41941413982E+01	-5.92471388770E+00	-2.09123743171E-01
3.03269190685E+05	-2.13251520403E+01	-9.57317025385E+01	5.75635605952E+00	-1.77455916163E+02	-3.80354467179E+01	-3.16144716787E+01	-5.86513515156E+00	-5.18299932625E-01
3.03488399138E+05	-1.62808519257E+01	-6.91398970273E+01	5.55822001232E+00	-1.77183211270E+02	-4.53970153659E+01	7.54414953006E+01	-5.89857333631E+00	-3.29472030908E-01
3.03707766039E+05	-3.09076224726E+01	8.71858296146E+00	5.72399087341E+00	-1.78277166651E+02	-3.87829381504E+01	-2.18138432323E+01	-5.86833456579E+00	-8.25903064181E-02
3.03927291503E+05	-1.19658828913E+01	1.30244875549E+02	5.72049022947E+00	-1.78469918631E+02	-3.48686487010E+01	-5.84741594118E+01	-5.81776305352E+00	-2.80610266309E-01
3.04146975643E+05	-2.03367916807E+01	4.95482081575E+01	5.63697930773E+00	-1.77897994845E+02	-3.15565855778E+01	-2.46978305334E+01	-5.80829537892E+00	-4.22648699223E-01
3.04366818575E+05	-1.70534196018E+01	-9.67445174758E+01	5.77320905975E+00	-1.77177241549E+02	-4.00703024070E+01	2.72463942050E+01	-5.85084086665E+00	-2.24403318252E-01
3.04586820414E+05	-1.86936816369E+01	1.07066209532E+02	5.70321802581E+00	-1.77768712362E+02	-3.64246639025E+01	-6.30817557451E+01	-5.88319189017E+00	-1.77821447910E-01
3.04806981274E+05	-2.60944775172E+01	-1.60821511784E+02	5.71555698785E+00	-1.77430774283E+02	-3.57385277333E+01	2.33317695381E+01	-5.80535539873E+00	-3.79343908587E-01
3.05027301270E+05	-2.18476875594E+01	-1.12625864984E+01	5.66562050180E+00	-1.77657602945E+02	-3.65718149216E+01	1.28164231479E+02	-5.91436533870E+00	-3.11114782001E-01
3.05247780517E+05	-1.90809501835E+01	-1.51181235492E+02	5.71957292781E+00	-1.77947202787E+02	-3.93178533824E+01	-1.76856203588E+02	-5.91130792898E+00	-2.33088592982E-01
3.05468419131E+05	-1.71302933611E+01	-4.24135119518E+01	5.64652078104E+00	-1.77159945824E+02	-3.57694644128E+01	-3.20915533405E+00	-5.84875436520E+00	-1.85495307968E-01
3.05689217226E+05	-1.74659651006E+01	-2.43145362791E+01	5.54920646638E+00	-1.76774918313E+02	-3.02635176815E+01	1.77928028641E+02	-5.95601157759E+00	-4.41895436164E-01
3.05910174918E+05	-2.21648633458E+01	-8.36057884740E+01	5.65735692175E+00	-1.77813626862E+02	-4.35963236783E+01	-1.58923851237E+02	-5.89692770443E+00	-2.92761003681E-01
3.06131292322E+05	-1.95174791845E+01	1.39291397708E+02	5.73687522979E+00	-1.78224529086E+02	-3.65388251131E+01	-1.53590457493E+02	-5.87953493477E+00	-4.00647219480E-01
3.06352569554E+05	-1.92885908384E+01	4.40212418764E+01	5.60847275906E+00	-1.77460744787E+02	-4.52920105249E+01	-1.51886846983E+02	-5.87662204822E+00	-1.11965066527E-01
3.06574006730E+05	-1.66123526049E+01	1.53622571925E+02	5.86480676185E+00	-1.78076732065E+02	-5.17817210323E+01	-5.03423496958E+01	-5.88044086220E+00	-4.68710007343E-01
3.06795603964E+05	-2.71979812741E+01	3.22871871520E+01	5.68341861845E+00	-1.77873480161E+02	-5.13063040378E+01	-6.95587141072E+01	-5.85040927883E+00	-2.69228118765E-01
3.07017361372E+05	-1.41140152105E+01	1.31836887051E+02	5.87732375865E+00	-1.78202500613E+02	-3.84307060016E+01	1.63140089017E+02	-5.93005383884E+00	-1.58388619646E-02
3.07239279071E+05	-1.34008358376E+01	-9.75800008799E+01	5.73436193187E+00	-1.76530434785E+02	-2.75893916243E+01	6.15773647438E+01	-5.84794167936E+00	5.96646519659E-01
3.07461357176E+05	-1.98261070135E+01	1.60316871791E+02	5.69997057599E+00	-1.77973002345E+02	-3.13937775106E+01	-1.11144657061E+02	-5.92161720656E+00	-3.04348733722E-01
3.07683595803E+05	-2.17629031386E+01	-3.34510578996E+01	5.67901103853E+00	-1.77596281509E+02	-5.21330447326E+01	-1.71350631562E+02	-5.89674694518E+00	-2.98421309436E-01
3.07905995068E+05	-2.42180820087E+01	4.77311120728E+01	5.68726569386E+00	-1.77954312011E+02	-4.03610354146E+01	-1.57389141921E+02	-5.88017880972E+00	-3.14123447412E-01
3.08128555087E+05	-1.57833367341E+01	1.75749764063E+02	5.80314389591E+00	-1.77922546989E+02	-3.54846249165E+01	-1.25613742750E+02	-5.94786233748E+00	-4.21281837975E-01
3.08351275976E+05	-1.89031829054E+01	-1.40387797619E+02	5.70835966967E+00	-1.77441974171E+02	-4.94042167861E+01	-1.40255203965E+02	-5.89164417785E+00	-5.29507461181E-01
3.08574157853E+05	-1.40667527702E+01	-2.46760939670E+01	5.68171735421E+00	-1.77798861119E+02	-4.95524752041E+01	-1.39754057478E+02	-5.90525401976E+00	-4.08427044188E-01
3.08797200832E+05	-1.93470024236E+01	-6.44797105712E+01	5.69461510914E+00	-1.77473749731E+02	-3.18548621361E+01	1.64706213534E+02	-5.94048498736E+00	-1.62843134903E-01
3.09020405031E+05	-3.25950167158E+01	-5.21703362972E+01	5.69213538744E+00	-1.77360990880E+02	-4.31897826075E+01	-1.41065849048E+02	-5.92443970234E+00	-4.16046155283E-01
3.09243770566E+05	-1.99056765448E+01	1.06999434866E+02	5.79496818097E+00	-1.78269635687E+02	-4.33686985163E+01	1.33156913642E+02	-5.92278013442E+00	-3.33436851930E-01
3.09467297553E+05	-1.58810854024E+01	-1.34756579358E+02	5.89042255330E+00	-1.77375006443E+02	-3.70430158757E+01	6.04483934535E+01	-5.92173765567E+00	-6.88795434428E-02
3.09690986110E+05	-2.53931202949E+01	4.69472657840E+01	5.69280322945E+00	-1.78074285704E+02	-3.84734588188E+01	-1.89724753187E+00	-5.87086751109E+00	-2.83352688511E-01
3.09914836353E+05	-2.16397210680E+01	-1.65348119151E+02	5.71120835507E+00	-1.77938830645E+02	-5.61872294952E+01	-6.07429446464E+01	-5.84649060168E+00	-3.22852779652E-01
3.10138848399E+05	-2.46626202600E+01	5.51105868040E+01	5.71170895938E+00	-1.77937420761E+02	-4.20487255183E+01	-4.08848592781E+01	-5.85577830434E+00	-5.15759683023E-01
3.10363022365E+05	-1.21855221939E+01	1.30401699925E+02	5.77361834948E+00	-1.78868428511E+02	-2.68823616126E+01	-5.73655632485E+01	-5.83747580550E+00	-9.42607570882E-01
3.10587358368E+05	-2.05548443314E+01	-4.62526713466E+01	5.64310517681E+00	-1.77556858482E+02	-3.54811822439E+01	1.72524509418E+02	-5.91129551770E+00	-1.58297872926E-01
3.10811856525E+05	-2.08996961519E+01	1.16141364900E+02	5.72340355421E+00	-1.78257620781E+02	-4.48551241886E+01	1.64015001135E+02	-5.91068816390E+00	-3.75527248479E-01
3.11036516954E+05	-2.66803387520E+01	-4.11817477115E+01	5.69844964822E+00	-1.77560440546E+02	-3.82149664899E+01	-5.33483130775E+01	-5.84741249082E+00	-8.58991435714E-03
3.11261339771E+05	-2.45106199615E+01	1.63753069232E+02	5.63350201562E+00	-1.78085067340E+02	-4.04176158042E+01	2.35981337404E+00	-5.85718885062E+00	-4.33610889798E-01
3.11486325094E+05	-2.08238375875E+01	-9.18579227333E+01	5.78670075155E+00	-1.78026991927E+02	-4.60880285117E+01	4.71322703365E+01	-5.88892025023E+00	-1.57325352505E-01
3.11711473040E+05	-1.92793878632E+01	1.59233478891E+02	5.73892333405E+00	-1.77565001380E+02	-4.08019563630E+01	1.06959161885E+02	-5.91558055775E+00	-1.07700700844E-01
3.11936783728E+05	-1.04344914761E+01	1.46683781639E+02	5.92960957524E+00	-1.78572383363E+02	-4.62353751847E+01	-1.63518281749E+02	-5.91892362641E+00	2.86390536625E-02
3.12162257274E+05	-3.47985806173E+01	1.41803547544E+02	5.65839301095E+00	-1.77826664027E+02	-4.15453838370E+01	8.46063697202E+01	-5.89087409629E+00	-2.16059443221E-02
3.12387893797E+05	-1.67309456145E+01	-1.66872972391E+02	5.78048520539E+00	-1.77922798119E+02	-3.75434247974E+01	-2.54074412315E+01	-5.84274662400E+00	-1.45659245845E-01
3.12613693413E+05	-2.02161645847E+01	1.24471229922E+02	5.72954258725E+00	-1.77672435667E+02	-3.77835339342E+01	8.94386354406E+01	-5.81295745166E+00	-1.37142259980E-01
3.12839656242E+05	-3.70483636996E+01	-7.55756622791E+01	5.76040686220E+00	-1.77609116514E+02	-3.60173743667E+01	1.18033587611E+02	-5.90077848292E+00	-3.88636733524E-02
3.13065782401E+05	-2.12872125475E+01	-2.72251779290E+01	5.62786935050E+00	-1.77692590863E+02	-4.92613676187E+01	-5.15858504539E+01	-5.86275957117E+00	-1.49032658453E-01
3.13292072007E+05	-2.00994788894E+01	8.85202143289E+01	5.67499172778E+00	-1.77891874137E+02	-4.43592862528E+01	-1.53163438696E+02	-5.87033113570E+00	-2.85620935952E-01
3.13518525180E+05	-8.06288907503E+00	-6.93363921625E-01	5.39755276398E+00	-1.77588915301E+02	-3.11101000282E+01	-1.09870186484E+02	-5.93479207635E+00	-1.10795035219E+00
3.13745142038E+05	-3.49555834573E+01	-1.74002661362E+02	5.75836786713E+00	-1.77758276153E+02	-3.76867190480E+01	1.50551758144E+02	-5.90942418501E+00	-3.25168848471E-01
3.13971922698E+05	-3.06405298583E+01	-5.48199910392E+01	5.79560790533E+00	-1.77923304463E+02	-4.12322275537E+01	3.71949123742E+01	-5.87361045809E+00	-3.58077981394E-01
3.14198867279E+05	-2.34954571079E+01	-9.44727151288E+01	5.69210073782E+00	-1.77304237784E+02	-3.75962874990E+01	-1.18930128775E+02	-5.90845556010E+00	-4.11558284117E-01
3.14425975900E+05	-2.48995890390E+01	1.23089677564E+02	5.71813136465E+00	-1.78406581871E+02	-3.36637716393E+01	1.01043148532E+02	-5.89500502888E+00	8.50784285980E-02
3.14653248680E+05	-1.85343190005E+01	1.26035260523E+02	5.74218101300E+00	-1.78064239079E+02	-3.69531428568E+01	1.63849393722E+02	-5.95371089468E+00	-3.64974594734E-01
3.14880685736E+05	-2.71305956935E+01	1.39672538627E+02	5.73519284364E+00	-1.77819401485E+02	-4.06421724543E+01	9.27928052564E+01	-5.91117061435E+00	-2.23466254575E-01
3.15108287188E+05	-1.86633539883E+01	-4.24169873640E+01	5.60752110242E+00	-1.77793293207E+02	-3.56793333275E+01	-1.15865412213E+02	-5.90594377678E+00	-6.24238708490E-01
3.15336053154E+05	-2.13553035258E+01	-4.53297456685E+01	5.65781619092E+00	-1.77724000007E+02	-3.67294698162E+01	8.23330576577E+01	-5.89159674370E+00	9.00581673523E-02
3.15563983753E+05	-2.02330614120E+01	1.09553234485E+02	5.68661281913E+00	-1.77668794005E+02	-4.79281722946E+01	-6.78191486972E+00	-5.87657534832E+00	-1.10508190834E-01
3.15792079105E+05	-1.65588811345E+01	-8.69506382555E+01	5.67886861734E+00	-1.77235724460E+02	-3.61611154257E+01	-1.16492754349E+02	-5.88998827458E+00	-3.45917792733E-01
3.16020339328E+05	-2.34218199469E+01	-3.96897944322E+01	5.64160841022E+00	-1.77713133153E+02	-3.39577297709E+01	1.71070121517E+02	-5.92069989624E+00	-3.13948909156E-01
3.16248764542E+05	-1.90578663207E+01	-6.41295116552E+01	5.72576263500E+00	-1.77159359756E+02	-3.56143814723E+01	1.16103300928E+02	-5.89389854422E+00	-2.53946393395E-01
3.16477354866E+05	-1.90093677095E+01	-5.81007697879E+01	5.62730563495E+00	-1.77536251393E+02	-3.89923682886E+01	9.88202073026E+01	-5.91248339769E+00	-8.27756926114E-02
3.16706110419E+05	-1.69722485837E+01	9.38406701344E+01	5.68655895020E+00	-1.78386063309E+02	-3.67569513364E+01	6.63498213772E+01	-5.86789939708E+00	1.07446144236E-01
3.16935031321E+05	-1.94558654380E+01	-9.78727337065E+01	5.72100948729E+00	-1.77493079111E+02	-3.24573242878E+01	9.38489181092E+01	-5.89246969772E+00	2.74215345953E-01
3.17164117691E+05	-2.28094107137E+01	1.09961511471E+02	5.78065611253E+00	-1.77771429952E+02	-3.69582067339E+01	-2.44697632616E+01	-5.87367090180E+00	-3.73356114744E-01
3.17393369648E+05	-3.33001491921E+01	4.21574300933E+01	5.77149251523E+00	-1.77960754989E+02	-3.99402869809E+01	-6.37072488464E+01	-5.88816704545E+00	-1.46313056222E-01
3.17622787313E+05	-1.72150088158E+01	-4.44952531976E+00	5.62869384915E+00	-1.77525396541E+02	-3.86746022792E+01	1.76704783807E+02	-5.91375621509E+00	-1.81309276205E-01
3.17852370806E+05	-3.28726979724E+01	1.00647730077E+02	5.71509091499E+00	-1.78231981294E+02	-3.74799548025E+01	6.89855004759E+01	-5.84257066390E+00	-1.89048478891E-01
3.18082120245E+05	-3.98731099328E+01	1.07389006472E+02	5.69001056398E+00	-1.77729702644E+02	-4.46077728427E+01	1.73760352311E+02	-5.93034964210E+00	-2.68627481945E-01
3.18312035752E+05	-2.33331011738E+01	-1.24687445201E+02	5.67045456574E+00	-1.77783631291E+02	-3.31905164310E+01	-2.92943929686E+01	-5.85884144141E+00	-2.79183795164E-01
3.18542117445E+05	-2.37374143565E+01	1.56299304432E+02	5.78283161363E+00	-1.78198885271E+02	-3.20791259341E+01	-1.35063368012E+02	-5.94140684233E+00	-5.96106148107E-01
3.18772365446E+05	-2.99711139677E+01	-7.75685922716E+01	5.66464209224E+00	-1.77811514070E+02	-3.81651829310E+01	1.51843941279E+02	-5.91338465422E+00	-1.36319240886E-01
3.19002779874E+05	-2.25903268821E+01	1.48334314383E+02	5.76681982215E+00	-1.78258367122E+02	-4.24401448811E+01	-2.77032798293E+01	-5.90010229868E+00	-5.19242882683E-01
3.19233360850E+05	-3.35315494501E+01	1.38840019666E+02	5.62591282219E+00	-1.77968468924E+02	-6.43944073343E+01	-1.74008844981E+02	-5.91188070785E+00	-3.89094037898E-01
3.19464108494E+05	-1.59299347148E+01	8.81352775145E+01	5.65394573666E+00	-1.78332157993E+02	-3.37492695487E+01	1.51038192214E+02	-5.91778281683E+00	-1.44711279670E-01
3.19695022927E+05	-2.78100865669E+01	1.43234693308E+02	5.75172853877E+00	-1.77815355890E+02	-4.13876295239E+01	-6.93344598799E+01	-5.88555439281E+00	-2.51111099580E-01
3.19926104268E+05	-1.67370505068E+01	-6.68451958337E+01	5.63762408994E+00	-1.77427357229E+02	-3.69768043276E+01	1.26065839950E+02	-5.89054380102E+00	-2.03150116588E-01
3.20157352640E+05	-1.77016305390E+01	1.01546615172E+02	5.75244708474E+00	-1.78337027185E+02	-3.78402456864E+01	-1.20179842508E+02	-5.90437404642E+00	-3.41012096042E-01
3.20388768162E+05	-1.92343517781E+01	7.85711570577E+01	5.62860392272E+00	-1.78574728309E+02	-3.42096257681E+01	-1.73755768105E+02	-5.91332907666E+00	-5.00263792306E-01
3.20620350955E+05	-3.11061359612E+01	7.42001802728E+01	5.74463428941E+00	-1.77817182501E+02	-4.06537818779E+01	5.08302581246E+01	-5.88714388052E+00	-8.98229573221E-02
3.20852101140E+05	-2.43777896032E+01	5.56983543284E+01	5.55802638009E+00	-1.78471417908E+02	-3.60738161375E+01	1.49322882096E+02	-5.93463734978E+00	-1.49257286556E-01
3.21084018839E+05	-1.69693398695E+01	-4.75699335824E+01	5.66455417408E+00	-1.77975165007E+02	-3.79449395714E+01	-4.40237291962E+01	-5.88853407452E+00	-2.98749492076E-01
3.21316104172E+05	-2.87013684341E+01	3.02282176368E+01	5.60498444162E+00	-1.77556200587E+02	-4.10207308193E+01	-1.53007948021E+02	-5.90310485193E+00	-2.97329534665E-01
3.21548357261E+05	-1.28212605056E+01	1.40936526659E+02	5.86387267729E+00	-1.78483804076E+02	-3.61972369946E+01	7.22667593624E+01	-5.89519821587E+00	-2.50225143637E-01
3.21780778226E+05	-2.86515431405E+01	3.43969741910E+01	5.69715578639E+00	-1.78201345677E+02	-3.13352082023E+01	7.37900705004E+01	-5.87906310021E+00	1.81220976015E-01
3.22013367189E+05	-1.85214054467E+01	1.16323316781E+02	5.78637717368E+00	-1.79014963305E+02	-5.29454847136E+01	9.01564198659E+01	-5.89268881977E+00	3.17577316984E-02
3.22246124272E+05	-2.92051043542E+01	1.40924477287E+01	5.68740210771E+00	-1.77352691284E+02	-3.56950197173E+01	1.05649401576E+02	-5.93142592143E+00	5.80205034223E-02
3.22479049596E+05	-2.99677729325E+01	-2.92262132722E+01	5.79239270886E+00	-1.78105754154E+02	-4.16057127435E+01	-1.15679699319E+02	-5.92732009629E+00	-7.23108252537E-01
3.22712143282E+05	-2.03380336997E+01	1.73076557614E+02	5.77405271012E+00	-1.78326578725E+02	-4.13002865544E+01	1.48500169172E+01	-5.90395997743E+00	-3.10141434810E-01
3.22945405453E+05	-1.22117864162E+01	-4.00113109350E+01	5.55077679979E+00	-1.77478948042E+02	-4.11127236577E+01	5.15234531802E+01	-5.86793978454E+00	2.58483626574E-03
3.23178836230E+05	-1.92546934706E+01	-1.30536019044E+02	5.70651554214E+00	-1.77729187236E+02	-3.53152568881E+01	-1.90225120302E+01	-5.84879339543E+00	-3.31481111328E-01
3.23412435735E+05	-2.89050231804E+01	-1.22205418754E+02	5.75215241547E+00	-1.77843354915E+02	-2.92645524115E+01	1.40450358554E+02	-5.93873805116E+00	3.08754135482E-01
3.23646204090E+05	-1.83694024469E+01	1.35953152851E+02	5.65676691976E+00	-1.78110409735E+02	-4.87784547261E+01	-1.23935875048E+02	-5.86981563620E+00	-2.53927551214E-01
3.23880141417E+05	-1.71725159169E+01	6.59875144949E+01	5.62297282528E+00	-1.78579100274E+02	-4.28826696350E+01	3.68415297085E+01	-5.90466150718E+00	-5.45322837963E-03
3.24114247838E+05	-2.41459336443E+01	-2.87206378015E+01	5.71488860184E+00	-1.77940566633E+02	-4.17939492979E+01	-1.10886001502E+00	-5.86883076420E+00	-2.59966274559E-01
3.24348523475E+05	-1.82886003136E+01	-1.45476139429E+01	5.61688275733E+00	-1.78029145199E+02	-4.27429452167E+01	1.40434076584E+02	-5.94332880562E+00	-1.70160750916E-01
3.24582968451E+05	-2.96619589062E+01	-8.89271288970E+01	5.67815585253E+00	-1.77425199607E+02	-5.28446848202E+01	1.17508740153E+02	-5.91207587207E+00	-1.84383829083E-01
3.24817582888E+05	-2.62360061415E+01	-1.51941869124E+02	5.77548416800E+00	-1.78142052469E+02	-3.31155213246E+01	6.05282949299E+01	-5.83082217845E+00	1.62115891617E-01
3.25052366909E+05	-2.09256410506E+01	4.92382062530E+01	5.61479189732E+00	-1.78504524385E+02	-4.50534308171E+01	-1.24243119754E+02	-5.88798250658E+00	-1.20380344492E-01
3.25287320635E+05	-1.76006801695E+01	-6.58802408207E+01	5.68485499839E+00	-1.77932222738E+02	-4.98777459445E+01	-1.66277151833E+02	-5.87101961708E+00	-2.18611745510E-01
3.25522444191E+05	-3.66608621989E+01	-8.02778270039E+01	5.59572309154E+00	-1.78319004214E+02	-3.64327872776E+01	-1.36287747215E+02	-5.91081964720E+00	-3.00177161156E-01
3.25757737698E+05	-1.94860457958E+01	1.48735209128E+02	5.68062051678E+00	-1.77969067210E+02	-3.42739103953E+01	-1.04166627008E+02	-5.90273840548E+00	-6.64287987562E-01
3.25993201280E+05	-1.87322987466E+01	-2.20940148578E-01	5.63156156610E+00	-1.78222444102E+02	-4.75208942807E+01	-1.23965529719E+02	-5.90586672232E+00	-3.21712572898E-01
3.26228835058E+05	-3.08988808958E+01	2.25478346168E+01	5.63939204690E+00	-1.78417339745E+02	-3.86924014118E+01	4.27705634888E+01	-5.87672879554E+00	-2.08852783486E-01
