# Hz S DB R 50
! CMT, M5065, 19127446, 24.2.4/2
! Date: 11/1/2024 4:30:47 PM
! Data: Format (Calibration Info)
! Freq	S11:dB/Ang(F2)	S21:dB/Ang(F2)	S12:dB/Ang(F2)	S22:dB/Ang(F2)
3.00000000000E+05	-1.40214825801E+01	1.25938737081E+02	9.22523227847E+00	-1.78133655414E+02	-4.14199807905E+01	-1.57926318271E+02	-5.91101704936E+00	-3.30767925695E-01
3.00216845423E+05	-2.04842520606E+01	2.74370086935E+01	9.12869514068E+00	-1.77702262124E+02	-5.05493013258E+01	-5.99956465341E+01	-5.82284691772E+00	-1.42961572493E-01
3.00433847586E+05	-2.00198486087E+01	-1.15063480634E+01	9.04830151394E+00	-1.77467095350E+02	-3.48975481574E+01	9.85545871198E+00	-5.84162586655E+00	2.01988747929E-01
3.00651006602E+05	-2.25122811672E+01	1.42364185554E+02	9.14794098576E+00	-1.77505656735E+02	-4.18124709135E+01	1.18795864430E+01	-5.85784314456E+00	-4.45305849055E-01
3.00868322584E+05	-1.75784646735E+01	2.25290623338E+01	9.01937606152E+00	-1.77327599799E+02	-4.25129338486E+01	-1.83311729074E+01	-5.84380865252E+00	-4.59850306133E-01
3.01085795647E+05	-1.66307520155E+01	-1.66472581691E+02	9.16872499979E+00	-1.77632794354E+02	-3.34089188596E+01	4.10279895999E+01	-5.80674578140E+00	2.91882222026E-01
3.01303425902E+05	-1.43043760876E+01	-6.38134921253E+01	9.10639630048E+00	-1.76239504607E+02	-4.09737699188E+01	1.29169463672E+02	-5.89173009679E+00	-1.29247714457E-01
3.01521213465E+05	-2.70529536217E+01	5.19269596994E+01	9.11541700179E+00	-1.77643921389E+02	-5.13705548200E+01	-9.36842244732E+01	-5.86701445923E+00	-1.44685676354E-01
3.01739158449E+05	-3.22391610137E+01	-1.82176044078E+00	9.08005192563E+00	-1.77450722755E+02	-3.95974562986E+01	6.17503601461E+01	-5.86736536628E+00	1.31735678707E-02
3.01957260967E+05	-1.77045437447E+01	-1.17560003986E+02	9.13292261709E+00	-1.76830606277E+02	-3.35185812875E+01	-1.56417987055E+02	-5.92486986674E+00	-4.88273187451E-01
3.02175521134E+05	-2.23912525869E+01	1.47136114478E+02	9.11279584241E+00	-1.77507581750E+02	-4.32269991585E+01	1.73393593507E+02	-5.91690572276E+00	-1.62321278852E-01
3.02393939063E+05	-2.04633982033E+01	-1.40086017978E+02	9.13220324618E+00	-1.77487344409E+02	-4.04343781714E+01	-8.87463349487E+01	-5.88109971594E+00	-5.90130885570E-01
3.02612514869E+05	-1.37673032636E+01	-1.13108046825E+02	9.18880615991E+00	-1.76851477239E+02	-3.50470176316E+01	-1.39784264665E+02	-5.97074551524E+00	-8.25552346487E-01
3.02831248665E+05	-2.74773035976E+01	-9.40564338929E+01	9.11245139556E+00	-1.77878740461E+02	-3.93384135110E+01	1.69745656376E+02	-5.95930171346E+00	-1.55035006105E-01
3.03050140565E+05	-2.15660623846E+01	3.64064089975E+01	9.00557320064E+00	-1.77740372902E+02	-4.05647210363E+01	8.40245631002E+01	-5.91185451460E+00	1.39365946864E-01
3.03269190685E+05	-2.07255563009E+01	7.78510758085E+01	9.09700304279E+00	-1.77577587088E+02	-3.41265713018E+01	5.01574164602E+01	-5.83140685937E+00	-2.09500772648E-01
3.03488399138E+05	-2.46822010224E+01	-7.69581076105E+01	9.07415790589E+00	-1.77276251782E+02	-4.23064075980E+01	-1.73139731120E+02	-5.86861473645E+00	-2.65061648145E-01
3.03707766039E+05	-1.35101824976E+01	1.15286799135E+02	9.12426249477E+00	-1.78576139051E+02	-4.01018305241E+01	6.05006874444E+01	-5.84812835787E+00	2.71807441468E-02
3.03927291503E+05	-1.56181906707E+01	-3.09281370102E+01	9.03822556789E+00	-1.77764995679E+02	-5.25208363203E+01	-1.78891374463E+02	-5.88619362875E+00	-3.48401208640E-01
3.04146975643E+05	-1.72220749860E+01	6.07793108737E-01	8.97253262743E+00	-1.77341733635E+02	-3.71993606736E+01	4.45325270268E+01	-5.86611013506E+00	1.68053866332E-01
3.04366818575E+05	-2.29203543676E+01	-1.56053836848E+02	9.14656392337E+00	-1.77325089456E+02	-4.00603227048E+01	-1.69877815984E+01	-5.84995826806E+00	-3.42217717774E-01
3.04586820414E+05	-1.92077061813E+01	3.88661830367E+01	9.05304218385E+00	-1.77492045499E+02	-5.39783242550E+01	9.00125627130E+01	-5.85645553463E+00	7.16683094825E-02
3.04806981274E+05	-2.40073870947E+01	6.48167748343E+01	9.10096241088E+00	-1.77819606109E+02	-4.03789551047E+01	1.54077656856E+02	-5.93486789118E+00	-5.17673665922E-02
3.05027301270E+05	-2.93433674049E+01	-1.06429298949E+02	9.11340507559E+00	-1.77326984864E+02	-4.26604765005E+01	6.16270330639E+01	-5.85485960249E+00	-2.28153476067E-02
3.05247780517E+05	-1.83612729566E+01	-1.23554226696E+02	9.15981769763E+00	-1.76924474934E+02	-3.86137581293E+01	-8.98762516015E+01	-5.89014626376E+00	-4.76679630768E-01
3.05468419131E+05	-1.55330447174E+01	6.41285943413E+01	9.14043693261E+00	-1.78216795222E+02	-3.71191020851E+01	6.41434684710E+00	-5.85478020076E+00	-3.37785290209E-01
3.05689217226E+05	-2.23781285852E+01	7.48104478719E+01	9.10626341480E+00	-1.77972817274E+02	-3.30105391358E+01	-1.79008485098E+02	-6.01625230165E+00	-2.40944713956E-01
3.05910174918E+05	-1.04376334195E+01	-2.99504175607E+01	8.83440712995E+00	-1.76746683505E+02	-4.99161964609E+01	7.54348643299E+01	-5.88589575660E+00	-3.56449313298E-01
3.06131292322E+05	-2.05584124905E+01	3.76109228101E+01	9.06745779955E+00	-1.77979079954E+02	-3.71094461139E+01	-1.20733110488E+02	-5.90761601381E+00	-4.95592925379E-01
3.06352569554E+05	-1.89610851110E+01	-5.40712354741E+01	9.06995637452E+00	-1.77330903973E+02	-4.65107232709E+01	3.92990064246E+00	-5.91883337646E+00	-3.16598398919E-01
3.06574006730E+05	-3.16333200224E+01	-1.45153346951E+01	9.12967724333E+00	-1.77660245026E+02	-3.99157384293E+01	1.15682986713E+02	-5.91538399097E+00	-2.66306172594E-02
3.06795603964E+05	-3.15782374290E+01	1.23674908291E+02	9.11078607687E+00	-1.78159846344E+02	-4.01095417262E+01	-2.60272580497E+01	-5.87225822299E+00	-3.04337514333E-01
3.07017361372E+05	-1.49226341715E+01	-1.20415013602E+02	9.17525854797E+00	-1.77104966527E+02	-3.62714162415E+01	9.11400140839E+00	-5.84605828121E+00	-3.85889149208E-01
3.07239279071E+05	-1.93271066756E+01	6.13118002522E+01	9.12238388634E+00	-1.78338031243E+02	-3.41011400197E+01	1.33019091998E+02	-5.90751747777E+00	1.22857815779E-01
3.07461357176E+05	-1.61577305947E+01	4.06170073186E+01	8.95732621321E+00	-1.78409836899E+02	-3.49453350093E+01	-3.37125719652E+01	-5.84713687236E+00	-8.45232970137E-01
3.07683595803E+05	-3.13892940218E+01	-1.33600582279E+02	9.13254452700E+00	-1.77610804637E+02	-3.67178594933E+01	-3.82044171186E+01	-5.87509299686E+00	-3.32835031766E-01
3.07905995068E+05	-2.20075859377E+01	-1.52315434268E+02	9.12823246953E+00	-1.77302236201E+02	-4.25796339705E+01	1.79303951656E+02	-5.94880679207E+00	-1.27225635347E-01
3.08128555087E+05	-1.86982984093E+01	-7.89487925884E+01	9.09551996116E+00	-1.76818134987E+02	-3.64843636174E+01	-5.33315642935E+01	-5.84884847790E+00	-8.84786146040E-01
3.08351275976E+05	-1.69358698191E+01	-3.59493825633E+01	9.06001027077E+00	-1.76937876991E+02	-3.83484601870E+01	4.03755063779E+01	-5.83388401601E+00	-3.95023204424E-02
3.08574157853E+05	-1.98330892924E+01	5.33682953219E+01	9.03769031352E+00	-1.78355209207E+02	-3.88541292150E+01	-9.77651830104E+01	-5.90750828753E+00	-3.05789053288E-01
3.08797200832E+05	-2.16861649621E+01	-1.85320841133E+01	9.02817853619E+00	-1.77637472265E+02	-3.73222686426E+01	-5.10385940637E+01	-5.80091995938E+00	-7.84270618554E-01
3.09020405031E+05	-2.93482943328E+01	-1.49925640273E+02	9.15692908855E+00	-1.77642615812E+02	-2.49709500058E+01	1.71688021211E+02	-6.12715345465E+00	-7.61590970409E-02
3.09243770566E+05	-2.41472613781E+01	-1.52380370668E+02	9.14756828859E+00	-1.77810253114E+02	-3.55381005717E+01	-5.71755985100E+01	-5.84733924697E+00	-5.67285516817E-01
3.09467297553E+05	-1.76644266294E+01	3.98286633196E+01	9.06722498257E+00	-1.77826408268E+02	-4.42256854172E+01	6.15045409614E+01	-5.88337176752E+00	-3.41110209748E-01
3.09690986110E+05	-1.66645018732E+01	-4.62787734700E+01	9.04316547484E+00	-1.77576614028E+02	-3.55934775487E+01	-1.25498246359E+02	-5.89977845834E+00	-3.93622190362E-01
3.09914836353E+05	-1.93540761616E+01	1.25127412457E+01	8.98927548588E+00	-1.77600061838E+02	-4.07539069558E+01	1.21045531050E+02	-5.85691314042E+00	-6.32501266151E-02
3.10138848399E+05	-1.99797865613E+01	1.31775386834E+02	9.14636276303E+00	-1.78354367875E+02	-3.92028583965E+01	1.59734875961E+02	-5.85407203574E+00	-2.97905090438E-01
3.10363022365E+05	-2.29998141784E+01	5.03883322088E+01	9.10004886839E+00	-1.78142520251E+02	-2.67643654610E+01	-6.31535517902E+01	-5.78721396611E+00	-1.30865024524E+00
3.10587358368E+05	-1.66930573921E+01	-8.20714471808E+01	9.05174795195E+00	-1.77014118656E+02	-3.24237976391E+01	6.51741564212E+01	-5.81492650690E+00	5.83967330096E-01
3.10811856525E+05	-2.06601416892E+01	-1.24470763375E+02	9.16612945614E+00	-1.78068745105E+02	-4.13247850474E+01	1.26630102116E+02	-5.89005848752E+00	-4.02648056366E-01
3.11036516954E+05	-1.81654283809E+01	1.40068621986E+02	9.17718083537E+00	-1.78020534523E+02	-3.97972273062E+01	2.50860528628E+01	-5.86781520420E+00	-1.48603620063E-01
3.11261339771E+05	-3.07194127632E+01	-8.94409049583E+01	9.12849278000E+00	-1.77716518239E+02	-4.17967929359E+01	-1.21253429915E+02	-5.89192034408E+00	-2.74174693184E-01
3.11486325094E+05	-2.74662828860E+01	1.75341723932E+02	9.15862690292E+00	-1.77448239684E+02	-3.62024570839E+01	9.13094895781E+01	-5.86705015417E+00	2.60982012871E-01
3.11711473040E+05	-2.07546990413E+01	-1.67539979129E+02	9.08781447656E+00	-1.77341225777E+02	-4.31742403215E+01	-8.16051371301E+01	-5.89386377115E+00	-6.12699425028E-01
3.11936783728E+05	-2.21999555959E+01	5.85602667634E+01	9.12030813072E+00	-1.78030068376E+02	-3.48036170514E+01	-1.35853555781E+02	-5.94158843436E+00	-4.95642986660E-01
3.12162257274E+05	-1.41938200384E+01	4.27019764435E+00	8.90814178993E+00	-1.77882603781E+02	-3.10385503813E+01	1.07007616506E+02	-5.92958014764E+00	9.55004288396E-01
3.12387893797E+05	-1.78217303497E+01	-1.78949081909E+02	9.15557139274E+00	-1.77980205128E+02	-4.44042831527E+01	-1.07567459094E+02	-5.90943101410E+00	-1.06405331533E-01
3.12613693413E+05	-1.38639413964E+01	-8.17741160343E+01	9.11573398641E+00	-1.76985195834E+02	-4.63958105050E+01	2.44378187268E+01	-5.85967416646E+00	-2.11053449523E-01
3.12839656242E+05	-2.67298937238E+01	3.69560893584E+01	9.09826848689E+00	-1.78272315563E+02	-3.84433112257E+01	-6.20895406892E+01	-5.88813533704E+00	-4.79355051327E-01
3.13065782401E+05	-1.68279102530E+01	1.77278204331E+02	9.21101647794E+00	-1.77457593355E+02	-4.64411688798E+01	5.14609113382E+01	-5.85464899471E+00	2.32757352339E-02
3.13292072007E+05	-2.34343593909E+01	1.66132444370E+01	9.07322032732E+00	-1.77923149168E+02	-4.27058986358E+01	-5.43573861854E+01	-5.87687500304E+00	-5.65482619625E-01
3.13518525180E+05	-3.23278790696E+01	8.78255616973E+01	9.12233761926E+00	-1.77834912213E+02	-3.37488918747E+01	1.63039478704E+01	-5.80472354063E+00	-3.71714693970E-01
3.13745142038E+05	-1.12768769423E+01	6.44335488651E+01	9.06909035560E+00	-1.79213474856E+02	-3.31865554579E+01	4.36910692386E+01	-5.81832552965E+00	1.72946027396E-01
3.13971922698E+05	-2.48082348127E+01	-3.51778963633E+00	9.05016466707E+00	-1.77617014560E+02	-4.32926232631E+01	1.06421647269E+02	-5.90441027214E+00	4.97977092618E-02
3.14198867279E+05	-1.95510111886E+01	-3.48130527897E+01	9.02728681308E+00	-1.77602872252E+02	-3.72139790216E+01	-6.65873686624E+01	-5.91696941745E+00	-5.80081771427E-01
3.14425975900E+05	-2.49563833572E+01	8.89160358070E+01	9.11288347574E+00	-1.77694658053E+02	-3.88837134401E+01	-1.21450089663E+02	-5.94488010857E+00	-5.92072488402E-01
3.14653248680E+05	-2.51824694839E+01	-1.58854629821E+02	9.19782453443E+00	-1.77628521617E+02	-3.60734966242E+01	-1.06454863709E+02	-5.89782233747E+00	-5.47938785481E-01
3.14880685736E+05	-3.13003101204E+01	-1.31138563955E+02	9.11869073858E+00	-1.77728357464E+02	-3.27682794504E+01	4.60210813683E+00	-5.81763337144E+00	-2.66602052887E-01
3.15108287188E+05	-2.85144132196E+01	-4.09416796118E+01	9.08966716607E+00	-1.77945825847E+02	-3.24023904497E+01	-6.41945627408E+01	-5.85813086812E+00	-9.00397453605E-01
3.15336053154E+05	-1.64266788362E+01	-1.24731598761E+02	9.20330208092E+00	-1.77227381774E+02	-3.10333490345E+01	1.02835309282E+02	-5.94244823813E+00	7.56225166970E-01
3.15563983753E+05	-1.32228890360E+01	-9.75033119664E+01	9.13535416934E+00	-1.77152359123E+02	-3.69269794112E+01	1.69390406177E+02	-5.89731264222E+00	-1.85088644749E-01
3.15792079105E+05	-3.26960902062E+01	3.43283465703E+01	9.08667730591E+00	-1.77848559704E+02	-4.32961907617E+01	-1.79339986981E+02	-5.89896200731E+00	-2.35018203204E-01
3.16020339328E+05	-2.16575123109E+01	1.58832241684E+02	9.15233620625E+00	-1.77537691676E+02	-4.42559951476E+01	-1.49511739621E+02	-5.91050337678E+00	-2.32140865457E-01
3.16248764542E+05	-1.93890962530E+01	-1.65331440208E+02	9.19143439677E+00	-1.78248766989E+02	-4.48048802005E+01	3.46915047830E+01	-5.87770154710E+00	-2.82567373709E-01
3.16477354866E+05	-1.65275524318E+01	-1.20847754555E+02	9.17652514331E+00	-1.77397551803E+02	-5.91068688894E+01	1.19682056403E+02	-5.89709756917E+00	-8.41500312212E-02
3.16706110419E+05	-1.75022957082E+01	1.41561206391E+02	9.11544128743E+00	-1.78228088283E+02	-3.53640668929E+01	-5.10770671541E+01	-5.83672063645E+00	-6.87130562879E-01
3.16935031321E+05	-1.05497886240E+01	3.48694470840E+01	8.86902235895E+00	-1.77997855550E+02	-3.14595351974E+01	-1.73157059516E+02	-6.03041864658E+00	-2.81057686258E-01
3.17164117691E+05	-2.12205451270E+01	1.60447361081E+02	9.18243472561E+00	-1.77988507894E+02	-3.83563110497E+01	-1.70180831196E+02	-5.89552842460E+00	-3.09569371944E-01
3.17393369648E+05	-2.09940597073E+01	9.05780186786E+01	9.09297748757E+00	-1.77986534894E+02	-4.05495063863E+01	-1.71022581514E+02	-5.89516821574E+00	-3.76376474557E-01
3.17622787313E+05	-1.80015455727E+01	9.87126614071E+01	9.11874761719E+00	-1.78402905071E+02	-3.69833101020E+01	-1.55458079602E+01	-5.85031057051E+00	-1.23925436502E-01
3.17852370806E+05	-2.11101835010E+01	-1.59575273727E+02	9.10121665225E+00	-1.77377808401E+02	-5.60142885766E+01	2.79263653815E+01	-5.91616176933E+00	-5.19534304384E-01
3.18082120245E+05	-1.84821389755E+01	-8.16824367580E+01	9.04581857694E+00	-1.77542203842E+02	-4.53281200497E+01	-2.64207404131E+01	-5.92019664590E+00	-3.42370762506E-01
3.18312035752E+05	-2.04392161802E+01	7.53665301627E+01	9.14064968450E+00	-1.77894766640E+02	-3.58143464033E+01	7.94800436228E+01	-5.86199366808E+00	1.71023801814E-01
3.18542117445E+05	-7.11310068795E+00	1.27837574039E+02	9.27794580832E+00	-1.79959193381E+02	-2.53780914433E+01	-9.05899165175E+01	-5.88925581650E+00	-1.97792016073E+00
3.18772365446E+05	-2.24169794504E+01	-4.22664337033E+01	8.99494931231E+00	-1.77390766191E+02	-4.25074682257E+01	-1.31648720325E+02	-5.88848648763E+00	-3.16941802742E-01
3.19002779874E+05	-2.04020182807E+01	-8.88062935807E+01	9.12093815610E+00	-1.77234810031E+02	-3.47122712424E+01	-1.31717040712E+02	-5.95982710018E+00	-5.09367334391E-01
3.19233360850E+05	-2.07074899483E+01	-5.63235776975E+01	9.11695131852E+00	-1.77633679900E+02	-4.23038126207E+01	-8.88087774735E+01	-5.85919411900E+00	-4.46649312196E-01
3.19464108494E+05	-3.32372661704E+01	-1.55995516179E+02	9.14054645871E+00	-1.77491061299E+02	-4.09239784692E+01	-1.20573571359E+02	-5.91137806561E+00	-5.59753087596E-01
3.19695022927E+05	-1.65272109117E+01	1.08850652408E+02	9.17071888907E+00	-1.78570688685E+02	-3.98082163422E+01	8.60601727706E+01	-5.92040241073E+00	-7.99138035843E-02
3.19926104268E+05	-2.62505174548E+01	1.13842711662E+02	9.10781343586E+00	-1.77985008100E+02	-4.14852948876E+01	-5.15824122320E+01	-5.86607024703E+00	-1.87464542158E-01
3.20157352640E+05	-1.17659302078E+01	-1.40392579648E+02	9.27560140116E+00	-1.76916225467E+02	-3.47615015935E+01	8.00317792447E+01	-5.88028570457E+00	5.06665956376E-01
3.20388768162E+05	-1.81117032846E+01	-1.56897249061E+02	9.15694556874E+00	-1.77636727640E+02	-5.58490420688E+01	1.75693214041E+02	-5.89738535641E+00	-1.97825859833E-01
3.20620350955E+05	-2.99297047057E+01	1.34389074188E+02	9.13234409611E+00	-1.78225726132E+02	-3.47976939387E+01	1.57761254225E+02	-6.00312615074E+00	-2.81582887129E-01
3.20852101140E+05	-2.45455994154E+01	8.58297755594E+01	9.14272442036E+00	-1.78035531166E+02	-4.38569174794E+01	6.64291750412E+01	-5.89703851181E+00	-2.48107198457E-01
3.21084018839E+05	-1.28014545019E+01	-1.30953185959E+02	9.18034378247E+00	-1.77173033386E+02	-4.56398100967E+01	6.30308779972E+01	-5.88645064439E+00	-1.42411673154E-02
3.21316104172E+05	-2.19191056652E+01	7.44418337911E+01	9.10926748615E+00	-1.78412470303E+02	-4.00231517556E+01	1.73329744898E+02	-5.90985818914E+00	-2.44304395943E-03
3.21548357261E+05	-4.41577477126E+01	-1.68731495182E+02	9.05497954286E+00	-1.78101181258E+02	-4.07941593680E+01	-1.40346105650E+02	-5.92885758109E+00	-5.27140917300E-01
3.21780778226E+05	-1.74588833422E+01	-3.29147755797E+01	9.05602151804E+00	-1.77087898292E+02	-3.27297316728E+01	9.58362904026E+01	-5.90815564115E+00	5.96399050555E-01
3.22013367189E+05	-1.50404054901E+01	-2.14388641739E+01	9.02013529876E+00	-1.77547846119E+02	-4.91759911656E+01	1.31381090088E+02	-5.88775694761E+00	4.26744872196E-02
3.22246124272E+05	-1.71171379157E+01	1.38244220318E+02	9.14033236972E+00	-1.78298356460E+02	-3.88538898061E+01	4.55369375517E+01	-5.83329581683E+00	-9.35016698451E-02
3.22479049596E+05	-1.64368749302E+01	-7.38565238560E+01	9.09103307638E+00	-1.77012811363E+02	-3.81174894047E+01	-1.72765648839E+01	-5.86529718443E+00	-4.48652324425E-01
3.22712143282E+05	-2.26647230083E+01	-3.10714463517E-01	9.08069538475E+00	-1.77880759598E+02	-3.98103373041E+01	-1.49201587458E+02	-5.93701250084E+00	-3.30822888196E-01
3.22945405453E+05	-1.53814520363E+01	-1.55683148843E+02	9.18522557510E+00	-1.77608670526E+02	-3.68902098030E+01	8.16821411751E+01	-5.85520007049E+00	2.60117972541E-01
3.23178836230E+05	-3.14068323165E+01	1.64917173878E+02	9.12246954999E+00	-1.77784017129E+02	-3.45849408394E+01	-6.90292575084E+01	-5.87744769006E+00	-6.97786517105E-01
3.23412435735E+05	-1.12653358133E+01	9.16517487075E+01	9.11555222491E+00	-1.79300249747E+02	-3.30649595759E+01	-1.41101136378E+02	-5.98796830017E+00	-3.54993168830E-01
3.23646204090E+05	-1.28775405902E+01	1.64330213791E+02	9.27475322217E+00	-1.78614291295E+02	-3.70558716900E+01	-3.96750148745E+01	-5.85164819158E+00	-3.82048394872E-01
3.23880141417E+05	-3.32095578530E+01	-7.27903990426E+01	9.09743608311E+00	-1.77361617028E+02	-3.77452748939E+01	-5.65089302424E+01	-5.89794368539E+00	-4.18507869109E-01
3.24114247838E+05	-1.90820781170E+01	5.27916122483E+00	9.02318545744E+00	-1.77628844145E+02	-3.62039339164E+01	-8.44369653881E+00	-5.84330283924E+00	-3.03012272351E-01
3.24348523475E+05	-2.64206754417E+01	1.11591087902E+02	9.13197292640E+00	-1.78332040962E+02	-4.00953988697E+01	-1.16314259671E+02	-5.87608696104E+00	-3.85084179514E-01
3.24582968451E+05	-2.42896739373E+01	-1.60618665066E+02	9.19503230023E+00	-1.77914465758E+02	-3.21645238543E+01	-9.40987086820E+01	-5.95479900016E+00	-5.92864989296E-01
3.24817582888E+05	-1.75316706117E+01	2.42088191878E+01	8.99425623674E+00	-1.78182837690E+02	-4.19571246254E+01	-1.64999711655E+02	-5.90524929216E+00	-2.88140571858E-01
3.25052366909E+05	-1.27536632173E+01	3.05043432281E+01	8.99265604304E+00	-1.78322946837E+02	-3.09201344407E+01	6.24352634231E+01	-5.85904307708E+00	3.34817289382E-01
3.25287320635E+05	-2.26312464253E+01	3.95847508261E+00	8.98217676208E+00	-1.77926443903E+02	-4.09152695408E+01	-1.19881737858E+02	-5.87751557946E+00	-4.68505562104E-01
3.25522444191E+05	-2.98285687110E+01	-7.28472961151E+00	9.09815524977E+00	-1.78159022759E+02	-3.85163871814E+01	5.18191689642E+01	-5.82659950930E+00	-2.47940990002E-02
3.25757737698E+05	-2.76432609590E+01	9.20628795955E+01	9.09501975425E+00	-1.78027915617E+02	-4.24045756430E+01	-1.64639909701E+01	-5.83896742267E+00	-3.77844754653E-01
3.25993201280E+05	-2.02528647216E+01	-1.62437583431E+02	9.16021671857E+00	-1.77959133127E+02	-4.25179734526E+01	1.42318053238E+02	-5.93254064972E+00	-2.29424466410E-01
3.26228835058E+05	-3.30233847454E+01	4.72441795273E+01	9.18130169895E+00	-1.78253464514E+02	-5.09955254592E+01	1.47485304533E+02	-5.93435061713E+00	-4.13871661273E-01
