# Hz S DB R 50
! CMT, M5065, 19127446, 24.2.4/2
! Date: 11/1/2024 4:29:36 PM
! Data: Format (Calibration Info)
! Freq	S11:dB/Ang(F2)	S21:dB/Ang(F2)	S12:dB/Ang(F2)	S22:dB/Ang(F2)
3.00000000000E+05	-2.39054429016E+01	5.48015713181E+01	8.72613880542E+00	-1.77756512191E+02	-4.09970241792E+01	-1.36049331117E+02	-5.93593569489E+00	-4.96030657404E-01
3.00216845423E+05	-8.15021402327E+00	1.15785653936E+02	8.79328736552E+00	-1.79325552961E+02	-3.61241237581E+01	1.09451107990E+02	-5.87168095136E+00	1.80999943007E-01
3.00433847586E+05	-1.68292156329E+01	-1.70165059383E+02	8.75993075197E+00	-1.77521462146E+02	-4.18841503615E+01	-4.81668837273E+01	-5.82806460279E+00	-2.78016673628E-01
3.00651006602E+05	-1.69363553646E+01	-3.54467020055E+01	8.63677446999E+00	-1.77238476057E+02	-3.78469259747E+01	-4.57947771070E+00	-5.85213698565E+00	-3.74883531519E-01
3.00868322584E+05	-2.39241593393E+01	1.59850576643E+02	8.75858102184E+00	-1.77883054910E+02	-3.32995087870E+01	-6.65232247201E+01	-5.88242611328E+00	-4.78292610298E-01
3.01085795647E+05	-1.54387371009E+01	1.79283376391E+02	8.73407004747E+00	-1.77301763167E+02	-4.35141008581E+01	1.29699689608E+00	-5.87270055909E+00	-2.71744382265E-01
3.01303425902E+05	-1.76772081241E+01	-8.95285149957E+01	8.72149962037E+00	-1.76939297603E+02	-3.96961985706E+01	5.16780331896E+01	-5.84457584343E+00	-4.11964110646E-01
3.01521213465E+05	-1.78029265827E+01	1.00972672784E+02	8.76797501209E+00	-1.77897784852E+02	-5.47811385090E+01	1.48763061222E+02	-5.89047766031E+00	-7.37546617139E-02
3.01739158449E+05	-1.88422751691E+01	1.55308909015E+02	8.69486695651E+00	-1.77841889441E+02	-4.91672180077E+01	-1.71085962246E+02	-5.89505680281E+00	-5.46321003665E-01
3.01957260967E+05	-2.75045870834E+01	-1.44194849463E+02	8.70926755564E+00	-1.77682427984E+02	-4.60093331068E+01	-1.52569641105E+02	-5.89447016909E+00	-1.20379293556E-01
3.02175521134E+05	-2.21048337770E+01	-1.38029579633E+01	8.63953861515E+00	-1.77474065654E+02	-3.50175670083E+01	-1.05317601116E+02	-5.92787514783E+00	-6.74627577838E-01
3.02393939063E+05	-2.61703070410E+01	5.84658242480E+01	8.71231178190E+00	-1.77461112350E+02	-3.88887928773E+01	1.05420198853E+01	-5.85511409055E+00	-6.57253790239E-02
3.02612514869E+05	-2.41411485148E+01	-1.50678016682E+02	8.68493383808E+00	-1.77203769519E+02	-5.41624035034E+01	-2.71126604103E+01	-5.88647003259E+00	-3.22417676717E-01
3.02831248665E+05	-2.31494370604E+01	1.12418876618E+02	8.76651846197E+00	-1.77433398902E+02	-4.60666605521E+01	1.56278707529E+02	-5.91221666387E+00	-3.28894336322E-01
3.03050140565E+05	-2.24347822340E+01	-1.25396662024E+02	8.74139056636E+00	-1.77081599266E+02	-3.39218789285E+01	-1.42374307755E+02	-5.94645358560E+00	-3.22956272201E-01
3.03269190685E+05	-1.80970724026E+01	1.32555556829E+02	8.75471977724E+00	-1.77762346366E+02	-4.08205418355E+01	-7.61616573225E+01	-5.89945137900E+00	-3.09507752134E-01
3.03488399138E+05	-3.10125834173E+01	-4.85597092645E+01	8.73896028135E+00	-1.77937855909E+02	-4.41681761878E+01	9.42707176981E+01	-5.90827829866E+00	-2.56608186298E-01
3.03707766039E+05	-2.76261379395E+01	5.66801191517E+01	8.70872723866E+00	-1.77327537254E+02	-3.30060237358E+01	1.12901838905E+02	-5.92370612795E+00	1.79169146299E-01
3.03927291503E+05	-2.24253300420E+01	-1.66437253695E+02	8.75079567250E+00	-1.77467356932E+02	-4.41983212450E+01	3.89541072376E+01	-5.88620396008E+00	-5.39918684820E-02
3.04146975643E+05	-1.77581575224E+01	1.09099256328E+02	8.74755112056E+00	-1.77893994822E+02	-4.58720893461E+01	4.01504524853E+01	-5.83955445199E+00	-5.19429391912E-01
3.04366818575E+05	-3.48192103216E+01	-1.09458548540E+02	8.73058115961E+00	-1.77038967112E+02	-3.55561941944E+01	-1.38097018469E+02	-5.88630982749E+00	-4.33177888976E-01
3.04586820414E+05	-1.69124160468E+01	-7.97490457605E+01	8.70076306550E+00	-1.77404607887E+02	-3.56251415335E+01	-1.50546618674E+02	-5.92250260354E+00	-5.29356437417E-01
3.04806981274E+05	-3.84087583236E+01	-1.50978356598E+02	8.67410645933E+00	-1.77097243819E+02	-4.61802641826E+01	-9.34348966600E+01	-5.87407384748E+00	-6.18968065411E-01
3.05027301270E+05	-3.45179124794E+01	-4.21624899068E+01	8.70749298527E+00	-1.77594015820E+02	-3.74954439238E+01	-3.96170409295E+01	-5.81601691912E+00	-3.69259304189E-01
3.05247780517E+05	-2.28937089487E+01	-1.70270961518E+02	8.75122127492E+00	-1.77660026839E+02	-4.17729672333E+01	-5.82487557777E+01	-5.86881760366E+00	-3.24138450816E-01
3.05468419131E+05	-1.82033061714E+01	1.25017337148E+02	8.75120531647E+00	-1.78241664986E+02	-3.72712707766E+01	1.53533296047E+02	-5.91902512939E+00	-1.62843456593E-01
3.05689217226E+05	-2.40131579646E+01	1.47088805633E+02	8.75632044153E+00	-1.77395056033E+02	-3.99937068328E+01	2.36312375338E+00	-5.89630706977E+00	-1.23700828059E-01
3.05910174918E+05	-2.24775711702E+01	5.30275937371E+01	8.69601775489E+00	-1.77459914184E+02	-3.46945417689E+01	-6.67678076056E+01	-5.87962937244E+00	-5.27052265544E-01
3.06131292322E+05	-2.39450558399E+01	8.90566040128E+01	8.71783943392E+00	-1.77743319125E+02	-3.32040394988E+01	1.15033389670E+01	-5.80708546551E+00	-6.50553570158E-02
3.06352569554E+05	-2.56852851855E+01	-9.61136181136E+01	8.65911902845E+00	-1.77490362328E+02	-4.92801310663E+01	-1.41044794981E+02	-5.93990128250E+00	-1.86088191256E-01
3.06574006730E+05	-3.11109092527E+01	-8.68134988778E+01	8.68498706645E+00	-1.77277293188E+02	-4.95059602810E+01	-1.59221542287E+02	-5.91980688386E+00	-1.59610976269E-01
3.06795603964E+05	-2.25009311136E+01	-4.85703373459E+01	8.63570692517E+00	-1.77654913793E+02	-3.75760355778E+01	-4.59509451642E+01	-5.86087786251E+00	-6.45463280536E-01
3.07017361372E+05	-2.73576582717E+01	-1.71339692705E+02	8.69658049171E+00	-1.77401165830E+02	-3.58492236776E+01	-9.63941837573E+01	-5.85525356692E+00	-9.23787364403E-01
3.07239279071E+05	-2.46210395185E+01	6.61569865570E+01	8.65041086939E+00	-1.77696750647E+02	-3.98548328866E+01	-2.45373878356E+01	-5.85948831660E+00	-6.06520134013E-01
3.07461357176E+05	-1.37535732910E+01	8.72674327626E+01	8.74927616320E+00	-1.78360089501E+02	-5.21962137548E+01	5.84011338617E+01	-5.87394239340E+00	-1.08106264730E-01
3.07683595803E+05	-1.55072405953E+01	6.01400075409E+01	8.66158597045E+00	-1.78110973039E+02	-4.66867686174E+01	2.43148888592E+01	-5.86681997332E+00	-2.08571200154E-01
3.07905995068E+05	-1.45246164364E+01	1.17486696181E+02	8.72856566284E+00	-1.78257810247E+02	-4.04722527577E+01	1.57169782430E+02	-5.92412800885E+00	-7.17053112166E-02
3.08128555087E+05	-2.04348563476E+01	1.02090447874E+02	8.73374938275E+00	-1.77921944727E+02	-3.60370986554E+01	6.95768780592E+01	-5.89975907650E+00	-2.00060949173E-03
3.08351275976E+05	-2.59623118883E+01	1.08676482742E+02	8.66508778718E+00	-1.77747374778E+02	-4.39403527666E+01	1.42239201926E+02	-5.93520360980E+00	-2.58961116650E-01
3.08574157853E+05	-2.21147290137E+01	1.69940066316E+02	8.75436619405E+00	-1.77553259003E+02	-3.97290018111E+01	-1.68139050360E+02	-5.95233805497E+00	-4.44885565325E-01
3.08797200832E+05	-2.41310892928E+01	-1.42892038322E+02	8.70002007443E+00	-1.77719800220E+02	-3.61999113328E+01	-1.75334360457E+01	-5.83106871803E+00	-3.35334402492E-01
3.09020405031E+05	-2.87310898779E+01	-4.45450997213E+01	8.70362617793E+00	-1.77371334914E+02	-3.58543971565E+01	-1.22334660737E+02	-5.89042585294E+00	-4.38505318671E-01
3.09243770566E+05	-1.89842979487E+01	1.41750034063E+02	8.74385524917E+00	-1.77720886892E+02	-5.24618016199E+01	6.19249235807E+01	-5.89821854167E+00	-2.88181019733E-01
3.09467297553E+05	-2.09008779429E+01	-1.55335064236E+02	8.71164999869E+00	-1.77202769067E+02	-3.56159134640E+01	6.86824503785E+01	-5.92291612153E+00	1.23157351031E-01
3.09690986110E+05	-2.11062952532E+01	-1.67891689426E+02	8.76058144168E+00	-1.77951361744E+02	-4.15554458159E+01	1.26320126012E+02	-5.88301283128E+00	-4.21323378363E-01
3.09914836353E+05	-2.81359223669E+01	1.13815902698E+02	8.70094484048E+00	-1.77602169188E+02	-3.19976040843E+01	7.13668049254E+01	-5.88081676946E+00	4.45324625630E-01
3.10138848399E+05	-2.75792277934E+01	-1.55942861382E+02	8.62231557197E+00	-1.77651608158E+02	-4.27093303108E+01	-1.63571030802E+00	-5.86324998670E+00	-3.81417425375E-01
3.10363022365E+05	-2.09890371718E+01	-1.47664238669E+02	8.74806813701E+00	-1.77575147297E+02	-3.40194763775E+01	-1.20393515467E+02	-5.93845541928E+00	-4.14594799635E-01
3.10587358368E+05	-1.62617804493E+01	-1.60049915301E+01	8.61099082151E+00	-1.77287350706E+02	-4.71029270845E+01	1.10681243464E+01	-5.89086719978E+00	-3.19710770934E-01
3.10811856525E+05	-2.74018896481E+01	-1.31206467617E+02	8.65291587055E+00	-1.77767855062E+02	-3.93567977638E+01	-7.67394551268E+01	-5.91740469949E+00	-3.78016185418E-01
3.11036516954E+05	-8.29259124762E+00	-1.74728458562E+02	8.97419443851E+00	-1.77652862720E+02	-3.48935444328E+01	1.57344123677E+02	-5.86588169249E+00	-3.87269679799E-03
3.11261339771E+05	-2.36455891701E+01	-7.72881728174E+01	8.73810287657E+00	-1.77286798657E+02	-6.43674609886E+01	1.13013949306E+02	-5.91400610648E+00	-3.46773104110E-01
3.11486325094E+05	-3.64579594757E+01	1.97410739037E+01	8.67043000839E+00	-1.77499153484E+02	-3.69733071693E+01	-9.42394806456E+01	-5.93591141447E+00	-7.58604613760E-01
3.11711473040E+05	-1.93084741370E+01	-1.11952855224E+02	8.74909331046E+00	-1.77499047595E+02	-3.37580427541E+01	-5.05485894719E+01	-5.82720290778E+00	-9.42002641743E-01
3.11936783728E+05	-1.89795801733E+01	-1.22301760408E+02	8.69289712124E+00	-1.77302367775E+02	-3.81185008417E+01	-5.44730864951E+01	-5.84857621516E+00	-4.47013265721E-01
3.12162257274E+05	-1.24349943843E+01	9.56076510363E+01	8.68987257460E+00	-1.78300877898E+02	-3.51196235358E+01	-1.60368773005E+02	-5.94527852785E+00	-1.59845743569E-01
3.12387893797E+05	-2.65099319742E+01	-5.88925175592E+01	8.67989893481E+00	-1.77271118807E+02	-3.63285321742E+01	6.53693306998E+01	-5.87575678551E+00	-1.42615406526E-01
3.12613693413E+05	-7.05410541274E+00	8.62524188957E+01	8.69064009829E+00	-1.79714749043E+02	-5.68447734247E+01	1.38332387643E+02	-5.89234449590E+00	-1.78827074055E-01
3.12839656242E+05	-2.25365462410E+01	1.15562227776E+02	8.71236628703E+00	-1.77902891626E+02	-4.55837342303E+01	1.72492027335E+02	-5.92789251650E+00	-9.26298118161E-02
3.13065782401E+05	-1.99063897510E+01	-3.99663031233E+01	8.70114331224E+00	-1.77390171787E+02	-3.49241918802E+01	-1.78065332274E+02	-5.97692131690E+00	-7.91058446903E-02
3.13292072007E+05	-2.54209634157E+01	9.13770079757E+01	8.63602510533E+00	-1.77687865794E+02	-3.56073819218E+01	1.21433091964E+02	-5.94955574805E+00	2.12263038821E-01
3.13518525180E+05	-1.89635246315E+01	-1.11428985358E+02	8.73674614489E+00	-1.76925817708E+02	-5.91554015222E+01	-1.69055383566E+02	-5.84811205082E+00	-2.54796040812E-01
3.13745142038E+05	-1.55514966896E+01	-1.51237066543E+02	8.82378488211E+00	-1.77356584710E+02	-3.81419204516E+01	1.73975560374E+02	-5.91273203066E+00	-1.18178279936E-01
3.13971922698E+05	-2.03713452015E+01	6.90905258678E+01	8.64142137512E+00	-1.77939131718E+02	-3.77295709106E+01	1.19718789597E+01	-5.82766330381E+00	-4.36316610368E-01
3.14198867279E+05	-2.24322264024E+01	-1.07189645409E+02	8.63223534196E+00	-1.77102586919E+02	-5.06320567843E+01	1.27243372985E+02	-5.90103696125E+00	-3.02715541908E-01
3.14425975900E+05	-9.62215036809E+00	8.29801728829E+01	8.60671299754E+00	-1.79373253435E+02	-5.06408033180E+01	-9.54381162051E+01	-5.90168046084E+00	-3.90397213487E-01
3.14653248680E+05	-2.38221637122E+01	-1.38645325846E+02	8.65462696048E+00	-1.77383252073E+02	-3.59108329675E+01	-6.67989510331E+01	-5.89281048866E+00	-4.29750161856E-01
3.14880685736E+05	-1.82973474627E+01	-7.76719569733E+01	8.71700733586E+00	-1.77328797611E+02	-3.40312612197E+01	-8.59200973793E+01	-5.88008324933E+00	-7.02287674147E-01
3.15108287188E+05	-1.65921427510E+01	1.16450468981E+02	8.72975844107E+00	-1.77804205937E+02	-3.55983995546E+01	-1.47220318107E+02	-5.96950885997E+00	-4.98605224428E-01
3.15336053154E+05	-3.27425716805E+01	-1.79389464888E+02	8.69975661778E+00	-1.77873573413E+02	-3.92639161205E+01	-7.51486928983E+01	-5.89790855688E+00	-5.24093177453E-01
3.15563983753E+05	-2.31862955178E+01	7.73730700081E+01	8.69125080673E+00	-1.77789049973E+02	-3.82208783175E+01	1.70694453223E+02	-5.94753692185E+00	-2.90515026047E-01
3.15792079105E+05	-1.29412007359E+01	-1.07853464047E+02	8.78214670466E+00	-1.76737612190E+02	-4.45312295041E+01	5.52754564857E+01	-5.88946331092E+00	-3.65403602536E-01
3.16020339328E+05	-1.81169034260E+01	1.11948016455E+01	8.56523329378E+00	-1.77826815066E+02	-3.72679717523E+01	-1.69499773070E+02	-5.96378153510E+00	-5.66060888101E-02
3.16248764542E+05	-2.50211271047E+01	-1.60986308700E+02	8.61143332320E+00	-1.77570188578E+02	-3.29971247941E+01	-1.35691588130E+02	-5.93584928941E+00	-2.60484298467E-01
3.16477354866E+05	-2.80247098849E+01	-1.57289396921E+02	8.66590184167E+00	-1.77519312105E+02	-3.21501229226E+01	1.62056537977E+02	-6.00552373271E+00	6.40503914212E-02
3.16706110419E+05	-2.08815572303E+01	-1.37542187308E+02	8.72679860291E+00	-1.77441257661E+02	-5.01117305135E+01	5.67036847849E+01	-5.90483522509E+00	-2.23046920759E-01
3.16935031321E+05	-2.62183274454E+01	1.28643389353E+02	8.69933134838E+00	-1.77775000997E+02	-3.92265843171E+01	1.56329172518E+02	-5.92608248083E+00	-3.10233817540E-01
3.17164117691E+05	-1.92469987930E+01	-4.36106157551E+01	8.70859057003E+00	-1.77413748119E+02	-4.77303512289E+01	3.53303935883E+00	-5.87933179602E+00	-1.98589621237E-01
3.17393369648E+05	-8.04642516727E+00	1.21580424611E+02	8.81469720935E+00	-1.79769053385E+02	-4.12464337463E+01	1.13839382032E+02	-5.90576860310E+00	1.87001329618E-01
3.17622787313E+05	-7.47556680117E+00	9.09880270972E+01	8.79034013895E+00	-1.79844161408E+02	-4.27057052689E+01	-1.25663409167E+02	-5.90760106339E+00	-2.47797382137E-01
3.17852370806E+05	-1.96367523350E+01	1.11927211985E+01	8.64494071853E+00	-1.77759249867E+02	-4.47775145166E+01	1.02678862298E+02	-5.90990976243E+00	-4.22333950132E-01
3.18082120245E+05	-1.76454997275E+01	-6.71372143663E+01	8.64116881169E+00	-1.77198570091E+02	-3.59131832036E+01	-1.79294311087E+02	-5.87563984131E+00	-4.42185293692E-02
3.18312035752E+05	-2.40679944003E+01	1.46036518125E+02	8.72912122174E+00	-1.78086194336E+02	-3.47980923286E+01	-9.51194487796E+01	-5.88230088457E+00	-6.19173362158E-01
3.18542117445E+05	-2.26434249698E+01	5.59772668330E+01	8.65040464641E+00	-1.78165257635E+02	-4.37074451168E+01	-1.16477059118E+02	-5.87200065263E+00	-4.73526838742E-01
3.18772365446E+05	-2.02737772575E+01	-1.63179461957E+01	8.65495590821E+00	-1.77916716404E+02	-4.04161821491E+01	5.05999399776E+01	-5.88232529041E+00	-1.54614641842E-01
3.19002779874E+05	-1.58708406247E+01	-1.85645958255E+01	8.52804225391E+00	-1.76859581655E+02	-3.68620965255E+01	-1.36415223830E+02	-5.91156768722E+00	-5.78929767949E-01
3.19233360850E+05	-1.31302813177E+01	6.27625919598E+01	8.60931585096E+00	-1.78354376849E+02	-3.78313281735E+01	9.02281597732E+01	-5.86216018587E+00	7.72848108540E-02
3.19464108494E+05	-1.74049988114E+01	-1.79828031696E+02	8.76024282747E+00	-1.78061529827E+02	-3.97233485823E+01	1.68625516222E+02	-5.89175824213E+00	-4.83042353897E-01
3.19695022927E+05	-2.30686509138E+01	-7.62364642875E+01	8.68958743818E+00	-1.77427505508E+02	-3.25499182070E+01	1.18181525295E+02	-5.94567903185E+00	-3.41132643741E-02
3.19926104268E+05	-1.71982761201E+01	5.13830613505E+01	8.67987127665E+00	-1.78171636004E+02	-4.60218279859E+01	1.75744373690E+02	-5.90500459138E+00	-3.77476535084E-01
3.20157352640E+05	-1.70780828017E+01	8.65682319278E+01	8.70026119691E+00	-1.78279999836E+02	-3.75738908409E+01	4.52582579678E+01	-5.86693234583E+00	-3.95806333116E-01
3.20388768162E+05	-2.10364267812E+01	2.86248231431E+01	8.62408681883E+00	-1.78096766024E+02	-3.60195302439E+01	8.03345427879E+01	-5.89798866569E+00	1.07977055574E-01
3.20620350955E+05	-1.36803212604E+01	6.43088844371E+01	8.63196138193E+00	-1.78901839748E+02	-4.41480203564E+01	-7.41290817524E+01	-5.85913784798E+00	-2.06519353105E-01
3.20852101140E+05	-1.68548323684E+01	-1.51350892833E+02	8.76616937185E+00	-1.77575394290E+02	-3.79072268273E+01	1.50296519152E+02	-5.92531609515E+00	-2.86150614329E-01
3.21084018839E+05	-1.54088703675E+01	-6.43032420849E+01	8.67961967170E+00	-1.77529634902E+02	-3.32091011229E+01	4.34993522429E+01	-5.83009806340E+00	3.08706332862E-01
3.21316104172E+05	-1.60703909944E+01	9.19860787148E+01	8.69497440861E+00	-1.78074819822E+02	-2.93732000639E+01	3.30894536872E+01	-5.76889542037E+00	3.91605999584E-01
3.21548357261E+05	-2.62192884937E+01	-1.20027217809E+02	8.66511797007E+00	-1.77762837224E+02	-3.32928873374E+01	-1.76679115625E+01	-5.81751945977E+00	-2.69846774781E-01
3.21780778226E+05	-1.88501429690E+01	-8.50287221320E+01	8.68691779947E+00	-1.77484542646E+02	-3.65511600540E+01	7.62860111958E+01	-5.91722260815E+00	1.64470202122E-01
3.22013367189E+05	-1.82089312107E+01	3.00002377990E+01	8.61620265785E+00	-1.77638620575E+02	-3.77659133094E+01	8.98177999138E+00	-5.81866797239E+00	-3.89336784321E-01
3.22246124272E+05	-2.71732153078E+01	2.40548988131E+01	8.65427982252E+00	-1.77863979576E+02	-3.67987875321E+01	1.33155755519E+02	-5.95248650966E+00	-3.32233670600E-01
3.22479049596E+05	-2.52031993021E+01	3.99472885395E+01	8.62588141269E+00	-1.77783489203E+02	-3.87138513292E+01	-6.88062630487E+01	-5.87324274087E+00	-2.57250624377E-01
3.22712143282E+05	-1.65008013941E+01	-2.96800477871E+01	8.67272907535E+00	-1.77391455882E+02	-3.46425289290E+01	-8.22660380875E+01	-5.87251868678E+00	-3.80214316612E-01
3.22945405453E+05	-2.78996419947E+01	1.06639085770E+02	8.69451683747E+00	-1.78295385717E+02	-3.40645618545E+01	-1.03332414647E+02	-5.91819972824E+00	-7.27972634868E-01
3.23178836230E+05	-2.58919236478E+01	-1.46374481944E+02	8.68485557819E+00	-1.78134300149E+02	-3.77636093180E+01	5.25666688223E+01	-5.84558990778E+00	1.22736976841E-01
3.23412435735E+05	-2.08958462983E+01	-1.15147333270E+02	8.72573577477E+00	-1.77938726616E+02	-4.48790603295E+01	1.22543787490E+02	-5.88107485724E+00	-1.93804454840E-01
3.23646204090E+05	-2.32457257759E+01	-6.49876429670E+01	8.68251513976E+00	-1.77390832325E+02	-3.69269707708E+01	1.41252210009E+02	-5.95230359971E+00	-1.38591897896E-01
3.23880141417E+05	-2.82407195549E+01	5.55084415142E+01	8.65234307557E+00	-1.78054297235E+02	-4.53576030084E+01	9.24228890348E+01	-5.90775282124E+00	-1.08178407352E-01
3.24114247838E+05	-1.43839073775E+01	1.69305140873E+02	8.75428962080E+00	-1.78019149692E+02	-4.81976906937E+01	1.00893774372E+02	-5.86345262123E+00	-2.33534393597E-01
3.24348523475E+05	-3.00266578285E+01	-4.97093348803E+01	8.72241144078E+00	-1.77918684594E+02	-3.83722556215E+01	5.74619319713E+01	-5.87660722987E+00	2.72758807536E-01
3.24582968451E+05	-1.97677169108E+01	1.64313446397E+02	8.75962633452E+00	-1.78392629528E+02	-3.34774017848E+01	3.28940296538E+01	-5.80725049051E+00	-3.20033560486E-01
3.24817582888E+05	-2.33096734002E+01	-1.78974446356E+02	8.68413414947E+00	-1.78045976888E+02	-3.63243622107E+01	-3.75086079845E+01	-5.84631290309E+00	-3.74545935313E-01
3.25052366909E+05	-2.08462278548E+01	1.97344554731E+01	8.64592232411E+00	-1.77620128824E+02	-3.87694045087E+01	-2.10962567489E+01	-5.86068644730E+00	-4.95101702957E-01
3.25287320635E+05	-2.24738059441E+01	1.09098704873E+01	8.66011102388E+00	-1.77878364748E+02	-4.31985807090E+01	1.26297203421E+02	-5.88673166569E+00	-2.17229168227E-01
3.25522444191E+05	-1.50157067388E+01	-1.49945563965E+02	8.79796349917E+00	-1.77482903255E+02	-4.38684706464E+01	-1.46629964631E+02	-5.89985716438E+00	-2.06913326599E-01
3.25757737698E+05	-1.90035673386E+01	-1.61307017875E+02	8.78933526969E+00	-1.77706259980E+02	-4.72333063029E+01	9.93017340132E+01	-5.89346915225E+00	-8.08737009147E-02
3.25993201280E+05	-2.10488131297E+01	-1.15375399639E+02	8.68756578185E+00	-1.77386624280E+02	-5.65095546568E+01	-9.53796540443E+01	-5.91594307322E+00	-8.50350190530E-02
3.26228835058E+05	-2.24926534180E+01	1.75176823594E+02	8.66431427007E+00	-1.77552126820E+02	-3.83123157368E+01	-9.35984030937E+01	-5.88182465258E+00	-7.71997327203E-01
