# Hz S DB R 50
! CMT, M5065, 19127446, 24.2.4/2
! Date: 11/1/2024 4:51:48 PM
! Data: Format (Calibration Info)
! Freq	S11:dB/Ang(F2)	S21:dB/Ang(F2)	S12:dB/Ang(F2)	S22:dB/Ang(F2)
3.00000000000E+05	-1.51183625821E+01	-4.44584198234E+01	3.13601175206E+01	-1.69953893548E+02	-3.76245596484E+01	9.78780042083E+00	-5.28209828318E+00	8.62251346049E-01
3.00216845423E+05	-2.16032556872E+01	-8.55700760344E+00	3.13838827719E+01	-1.70342773704E+02	-4.50912750698E+01	-5.81062619738E+01	-5.80187213915E+00	-2.01028016669E+00
3.00433847586E+05	-3.37171519796E+01	3.90908919192E-01	3.14514084600E+01	-1.70533771615E+02	-3.85932229414E+01	-5.97364023292E+00	-5.45480564874E+00	-6.91580578935E-01
3.00651006602E+05	-1.41163561566E+01	-1.71925113727E+02	3.15399373928E+01	-1.70324193179E+02	-4.36826570460E+01	7.52066939766E+01	-5.85132890440E+00	1.86800382625E+00
3.00868322584E+05	-1.37589839968E+01	-5.90251194446E+01	3.13819346618E+01	-1.69643068805E+02	-4.30332473573E+01	-2.14197412270E+01	-5.55693195484E+00	-4.04375529808E-01
3.01085795647E+05	-1.61634728036E+01	-9.63849096201E+01	3.14874695178E+01	-1.69964891199E+02	-3.39869876231E+01	1.60003513329E+02	-6.50318795307E+00	4.44250792746E-01
3.01303425902E+05	-2.17305441402E+01	1.23760451023E+02	3.14412768060E+01	-1.70762577808E+02	-3.13196272760E+01	-1.36090196587E+02	-6.33225739680E+00	-7.76656004588E+00
3.01521213465E+05	-1.80085931041E+01	-7.49242527761E+01	3.13956615659E+01	-1.70099019420E+02	-2.93273643294E+01	3.32322024278E+01	-4.70204684569E+00	6.39141258935E+00
3.01739158449E+05	-2.22540157511E+01	1.46176706969E+01	3.13987008946E+01	-1.70986165016E+02	-4.34746668258E+01	-8.27885715804E+01	-5.77959710619E+00	-2.34490885825E+00
3.01957260967E+05	-1.56825525935E+01	1.42778085288E+01	3.13770865360E+01	-1.70857483880E+02	-4.10036752380E+01	-5.24378729421E+01	-5.61830523687E+00	-2.13249920972E+00
3.02175521134E+05	-2.23435765608E+01	-3.17024368523E+01	3.13783566421E+01	-1.70541956224E+02	-4.07925716588E+01	-1.23926214749E+02	-6.02303978821E+00	-2.72558693711E+00
3.02393939063E+05	-2.77178667262E+01	-1.59609733394E+02	3.14615731412E+01	-1.70557563245E+02	-3.45568173527E+01	-5.63980717195E+01	-5.46395409069E+00	-3.60301395864E+00
3.02612514869E+05	-1.04163975409E+01	-9.36639445111E+01	3.14263459868E+01	-1.69713136427E+02	-3.74246532902E+01	1.45815138782E+02	-6.37733282138E+00	7.60540181352E-01
3.02831248665E+05	-2.21506743232E+01	-6.38976146561E+01	3.14383319481E+01	-1.70432115592E+02	-3.80794058598E+01	9.20342773878E+01	-5.90813268711E+00	1.74185427278E+00
3.03050140565E+05	-1.84582665612E+01	-4.72741689760E+01	3.13609675388E+01	-1.70359242425E+02	-3.42651264628E+01	-1.49431695905E+02	-6.34774732124E+00	-3.68081703017E+00
3.03269190685E+05	-3.07877979324E+01	3.79697379545E+01	3.14287804544E+01	-1.71046373514E+02	-5.38892613499E+01	1.75455062994E+02	-6.01528491724E+00	-5.03252450530E-01
3.03488399138E+05	-2.37349847628E+01	-1.45853545722E+01	3.13697911965E+01	-1.70799275164E+02	-4.60163645715E+01	5.84520331028E+00	-5.66704262858E+00	-9.87162444447E-02
3.03707766039E+05	-2.11025410324E+01	6.00675095558E+01	3.13966023047E+01	-1.71216535731E+02	-5.78631007783E+01	1.54581957800E+02	-5.94386716144E+00	-5.36538801180E-01
3.03927291503E+05	-1.91880040148E+01	-1.20953849911E+02	3.14825705597E+01	-1.70421717021E+02	-4.32949865213E+01	6.61835581174E+01	-5.76219801887E+00	1.29733345115E+00
3.04146975643E+05	-1.09786568599E+01	1.70275055353E+02	3.15932666926E+01	-1.71231689778E+02	-3.61175108425E+01	3.24394713280E+01	-5.42116241324E+00	1.92480677976E+00
3.04366818575E+05	-1.56497172704E+01	-1.18173937729E+01	3.13014037896E+01	-1.70660553297E+02	-3.92909664627E+01	-8.12222374502E+01	-5.65407025001E+00	-3.25321794741E+00
3.04586820414E+05	-1.47183609920E+01	-9.11541382564E+01	3.14500274296E+01	-1.70356611961E+02	-3.57038389254E+01	-1.02240280059E+02	-5.78616948279E+00	-4.81583577582E+00
3.04806981274E+05	-1.82668406207E+01	-1.89911203454E+01	3.13610556586E+01	-1.70837148651E+02	-5.56392782723E+01	1.04306127304E+02	-5.92427985815E+00	4.42963434584E-01
3.05027301270E+05	-2.31504327833E+01	9.12513147722E+01	3.14286605695E+01	-1.71369336718E+02	-4.00306523362E+01	-2.16893036874E+01	-5.51386225446E+00	-1.64406123075E+00
3.05247780517E+05	-1.56550437918E+01	-3.43868213238E+01	3.13624960812E+01	-1.70556300677E+02	-4.98903285398E+01	-1.22714626174E+02	-5.88519064615E+00	-1.38068201833E+00
3.05468419131E+05	-1.85745630555E+01	7.94330748081E+00	3.13568920678E+01	-1.71279761142E+02	-4.83991152501E+01	-3.97146521593E+01	-5.74233163129E+00	-8.37503779422E-01
3.05689217226E+05	-1.46882089391E+01	-1.71634376212E+02	3.15530778518E+01	-1.71041426412E+02	-5.06217766756E+01	9.17689121313E+01	-5.78870715135E+00	-7.85785915531E-01
3.05910174918E+05	-3.37246447836E+01	-3.96426946935E+01	3.14203837070E+01	-1.71205615635E+02	-3.74106254163E+01	-4.89858167797E+01	-5.55313692229E+00	-3.52503587117E+00
3.06131292322E+05	-2.26985970614E+01	5.34797330037E+01	3.14235817638E+01	-1.71041043322E+02	-3.00865247335E+01	-1.38993134943E+02	-6.68166731796E+00	-6.18334581348E+00
3.06352569554E+05	-2.17610137624E+01	-3.78914573008E+01	3.14103499223E+01	-1.70980071059E+02	-4.89342664369E+01	-1.24967305710E+02	-5.86599760032E+00	-1.29227850639E+00
3.06574006730E+05	-2.50449453241E+01	9.31590402467E+00	3.13904258542E+01	-1.71219994219E+02	-3.86678897157E+01	-7.18876681762E+01	-5.69258948867E+00	-2.70864383861E+00
3.06795603964E+05	-3.40898593128E+01	-8.98918576358E+01	3.14634269705E+01	-1.71159970426E+02	-3.80175115123E+01	-5.55945539235E+01	-5.42272090257E+00	-2.71700106849E+00
3.07017361372E+05	-1.33796685331E+01	8.71116180248E+01	3.14673588885E+01	-1.71940253388E+02	-4.09483977114E+01	1.02256268929E+02	-5.90749173642E+00	1.05050855406E+00
3.07239279071E+05	-1.68521756123E+01	-2.40437047748E+01	3.13775588631E+01	-1.71459079970E+02	-3.27234491515E+01	1.05506993291E+02	-6.14879817834E+00	4.52319577569E+00
3.07461357176E+05	-2.58319625836E+01	-5.51890571716E+01	3.13801031893E+01	-1.70957284168E+02	-4.23662368785E+01	1.44766169799E+02	-6.26824241787E+00	3.49083450352E-01
3.07683595803E+05	-1.65303851821E+01	-2.38279872734E+01	3.13697414555E+01	-1.70877758916E+02	-3.75033053677E+01	-1.76023146117E+02	-6.59087091606E+00	-4.35103236926E-01
3.07905995068E+05	-1.41469314971E+01	-1.08053599685E+02	3.14705426099E+01	-1.70738097917E+02	-3.35152288511E+01	-1.15521192600E+01	-5.14899107163E+00	-2.12441530292E-02
3.08128555087E+05	-1.82703879425E+01	-5.35488444036E+01	3.13933632708E+01	-1.71055716766E+02	-4.02992815834E+01	-4.43471568384E+01	-5.40281234857E+00	-1.67110982888E+00
3.08351275976E+05	-2.13387883986E+01	1.22196249906E+02	3.14417494622E+01	-1.71784099368E+02	-4.15240958061E+01	-3.71373695913E+01	-5.51299538048E+00	-1.31989641079E+00
3.08574157853E+05	-1.98158550682E+01	6.79476917664E+00	3.13912056628E+01	-1.71492130652E+02	-4.23928446575E+01	2.16354479105E+01	-5.58652073528E+00	6.27059432425E-01
3.08797200832E+05	-8.87816053787E+00	1.21236987628E+02	3.15367744086E+01	-1.72937371458E+02	-3.67646296307E+01	-1.35898770681E+01	-5.41350849160E+00	-2.30051200167E-01
3.09020405031E+05	-2.01318284022E+01	2.81344316061E+01	3.13519389158E+01	-1.71389815513E+02	-3.65345910404E+01	-7.57132062733E+00	-5.24645083803E+00	-1.01549124043E+00
3.09243770566E+05	-1.57062403033E+01	-1.66903775276E+02	3.15484560086E+01	-1.71522901758E+02	-3.82934372399E+01	3.87369763582E+01	-5.65012252112E+00	3.91546863864E-01
3.09467297553E+05	-2.46395560052E+01	-5.62301074114E+00	3.14120907832E+01	-1.71185695296E+02	-3.41844541130E+01	5.84886040931E+01	-5.47564316953E+00	3.86805103104E+00
3.09690986110E+05	-2.20731537237E+01	-3.41896995019E+01	3.14038996959E+01	-1.71311608514E+02	-3.55155743328E+01	-8.33076554367E+00	-5.26430864930E+00	-7.13927726478E-01
3.09914836353E+05	-2.55283957980E+01	-3.23761653257E+01	3.14103185199E+01	-1.71432663160E+02	-3.42733688938E+01	-2.13567476911E+01	-5.17640544040E+00	-1.71587106620E+00
3.10138848399E+05	-1.99034596082E+01	-4.28613921768E+01	3.14126290471E+01	-1.71197671270E+02	-5.01498094662E+01	-1.29207761901E+02	-5.76245829490E+00	-1.58178157815E+00
3.10363022365E+05	-2.13484338754E+01	-8.89376737753E+01	3.14285814229E+01	-1.71179962975E+02	-4.23738925455E+01	1.20154689691E+02	-6.05234752566E+00	1.79130735042E+00
3.10587358368E+05	-2.00844239972E+01	-4.01123161041E+01	3.13965745009E+01	-1.71439322818E+02	-4.09423928248E+01	3.56792935843E+01	-5.59550083031E+00	1.25968428431E+00
3.10811856525E+05	-3.73713162686E+01	-8.07527238534E+01	3.14669367849E+01	-1.71387716656E+02	-3.73218662432E+01	-1.14084040319E+02	-5.85238158823E+00	-4.63113135845E+00
3.11036516954E+05	-2.47387895557E+01	4.62329067161E+01	3.14348001553E+01	-1.71852652383E+02	-4.75408800934E+01	1.37377253662E+02	-5.94511426916E+00	3.99892161049E-01
3.11261339771E+05	-2.42440886556E+01	-3.79130990363E+00	3.14227239058E+01	-1.71543617828E+02	-3.74297782345E+01	1.61664047109E+02	-6.32992622187E+00	7.66944492958E-02
3.11486325094E+05	-2.53053955076E+01	1.05675116596E+02	3.14810198495E+01	-1.71735443097E+02	-4.08853483379E+01	6.10088087429E+01	-5.78113659166E+00	1.82870668546E+00
3.11711473040E+05	-1.61213044838E+01	4.23932161454E+01	3.13904282016E+01	-1.72202664079E+02	-4.41745222817E+01	-1.60706555828E+02	-5.92329755024E+00	-1.24021520087E+00
3.11936783728E+05	-1.31442130522E+01	-3.23441369631E+01	3.13284662110E+01	-1.71067653832E+02	-4.53708783603E+01	1.55209502830E+02	-5.99212135418E+00	-1.14974423976E+00
3.12162257274E+05	-1.90676017594E+01	1.42337470522E+02	3.14891272393E+01	-1.71803826367E+02	-3.88054148394E+01	1.33107029995E+02	-6.20633105178E+00	1.10208424131E+00
3.12387893797E+05	-1.53058008316E+01	-5.70789338646E-01	3.13775281652E+01	-1.71625678340E+02	-3.49394556660E+01	4.79358256456E+01	-5.19728707315E+00	4.01965098483E+00
3.12613693413E+05	-3.02903212064E+01	-9.25242020878E+01	3.14654770472E+01	-1.71564132377E+02	-3.24716747503E+01	2.51852602524E+01	-4.90381068384E+00	4.24882997902E+00
3.12839656242E+05	-2.33092556274E+01	-2.78439838994E+01	3.14026685938E+01	-1.71677313890E+02	-3.83908139784E+01	1.56622266557E+02	-6.37195510418E+00	4.98640313780E-01
3.13065782401E+05	-1.50100527277E+01	8.78767887311E+01	3.14497493683E+01	-1.72337566141E+02	-4.47302604381E+01	7.14523737050E+01	-5.83314090050E+00	1.20487400014E+00
3.13292072007E+05	-1.51154587450E+01	-1.16224603630E+01	3.13901603744E+01	-1.71846390843E+02	-4.64442160739E+01	1.15872371404E+02	-6.01080172244E+00	-1.99670848622E-01
3.13518525180E+05	-9.03691708615E+00	-1.12710359718E+01	3.12415223290E+01	-1.71822850019E+02	-3.80229857492E+01	9.95724290967E+01	-5.91924150714E+00	1.78113538540E+00
3.13745142038E+05	-2.50358550309E+01	-7.96472834124E+01	3.14173037888E+01	-1.71724210035E+02	-4.64465420680E+01	-7.59031513421E+01	-5.81820106950E+00	-2.03918820619E+00
3.13971922698E+05	-2.96077331707E+01	4.78494583026E+01	3.14542945878E+01	-1.71871067287E+02	-4.34790032280E+01	-4.11922287125E+01	-5.51819345407E+00	-9.18098648243E-01
3.14198867279E+05	-2.12930993059E+01	-1.31185267143E+02	3.14538531166E+01	-1.71485674046E+02	-3.32106500096E+01	3.38085165576E+01	-5.15219731637E+00	3.64238812215E+00
3.14425975900E+05	-2.08129041648E+01	-8.35084743626E+01	3.14387115582E+01	-1.71598106348E+02	-3.69832875544E+01	-8.22037011618E+01	-5.59888757450E+00	-4.28289162856E+00
3.14653248680E+05	-1.41558048738E+01	1.00897088992E+02	3.14768795830E+01	-1.72523945185E+02	-3.73754576878E+01	1.15687717894E+02	-6.07782966152E+00	2.51390257604E+00
3.14880685736E+05	-1.27821507960E+01	-6.15518178754E+01	3.13822725513E+01	-1.71262397438E+02	-3.52735739236E+01	1.73427699223E+02	-6.53759639812E+00	-6.05205655076E-01
3.15108287188E+05	-1.48531484401E+01	-2.05519457937E+01	3.13531348125E+01	-1.71690996730E+02	-4.26989790423E+01	-5.59324833942E+01	-5.63577529177E+00	-1.73574169623E+00
3.15336053154E+05	-1.83344272362E+01	9.42965127514E+01	3.14716080390E+01	-1.72295514917E+02	-3.32245184242E+01	-1.63714577150E+02	-6.74629659829E+00	-2.98710704879E+00
3.15563983753E+05	-1.57909042170E+01	-2.36034026797E+01	3.13625230298E+01	-1.71826454759E+02	-3.57873312330E+01	-1.26735929677E+02	-6.10759991409E+00	-3.31340130022E+00
3.15792079105E+05	-2.15215112638E+01	8.09569386423E+01	3.14835246351E+01	-1.72280144740E+02	-4.07595174018E+01	8.04755739261E+01	-6.04254872468E+00	2.35445289157E+00
3.16020339328E+05	-2.16775672301E+01	1.39462751736E+02	3.14964348712E+01	-1.72152064599E+02	-4.02514040827E+01	1.65212653600E+02	-6.10617367699E+00	3.90651177990E-01
3.16248764542E+05	-1.98161531946E+01	-1.19034295515E+01	3.14187977233E+01	-1.71887370613E+02	-3.71806885519E+01	5.93354381594E+00	-5.29175835698E+00	9.63363861286E-01
3.16477354866E+05	-3.52935710943E+01	-5.05812608339E+01	3.14412554521E+01	-1.71917167960E+02	-3.42473859564E+01	-8.08812885896E+01	-5.62775227640E+00	-5.08665179349E+00
3.16706110419E+05	-1.69560498170E+01	-1.18892897219E+02	3.14901337558E+01	-1.71417376516E+02	-4.30576795077E+01	8.74153712148E-01	-5.52811897857E+00	-5.09147474142E-01
3.16935031321E+05	-1.93962613501E+01	-2.82469040094E+01	3.13835539540E+01	-1.71977271018E+02	-3.89116177920E+01	1.62853805732E+02	-6.39469404147E+00	-5.44957177945E-01
3.17164117691E+05	-1.88260855930E+01	-2.82823310548E+01	3.13780884575E+01	-1.71799697442E+02	-4.32433996090E+01	6.33961022114E+01	-5.76780660041E+00	1.36254785417E+00
3.17393369648E+05	-1.62582747396E+01	-9.38050615078E+01	3.14706530304E+01	-1.71471252357E+02	-2.90665009876E+01	1.48544079505E+02	-7.30511691976E+00	3.23816145330E+00
3.17622787313E+05	-1.82019741856E+01	-4.20771433683E+01	3.14079623574E+01	-1.71770372589E+02	-3.85516415207E+01	1.71047981517E+02	-6.27966289416E+00	-1.26509685190E+00
3.17852370806E+05	-1.59916732308E+01	-1.25605932532E+02	3.15105080271E+01	-1.71717112563E+02	-4.09291701934E+01	-1.38919753916E+02	-6.20412599488E+00	-2.02952312879E+00
3.18082120245E+05	-2.23123155775E+01	1.40774381377E+02	3.14689394981E+01	-1.72384856000E+02	-3.65261774670E+01	-1.10527672586E+02	-5.98411923046E+00	-3.94515101346E+00
3.18312035752E+05	-1.19704263922E+01	-1.37189591377E+01	3.13351509056E+01	-1.72080405335E+02	-5.31980667702E+01	-5.81969719175E+01	-5.75024863302E+00	-1.81590472489E-01
3.18542117445E+05	-1.54441987162E+01	3.45166738256E+01	3.13647197050E+01	-1.72543484424E+02	-3.79369507820E+01	1.67334905117E+02	-6.30489396673E+00	1.09320342839E-01
3.18772365446E+05	-1.41345528119E+01	-9.08036344228E+00	3.13449479193E+01	-1.71899190332E+02	-4.69042990553E+01	3.45154633074E+01	-5.78421160544E+00	3.78600367970E-01
3.19002779874E+05	-1.67904041740E+01	1.65524316552E+02	3.15415975147E+01	-1.72309801237E+02	-3.70719081727E+01	1.91543235067E+01	-5.18887515931E+00	1.81525547488E+00
3.19233360850E+05	-1.79511770671E+01	-3.33065070751E+01	3.13979340873E+01	-1.71995233245E+02	-4.17390500836E+01	1.41846082243E+02	-6.05984088588E+00	8.33185426495E-01
3.19464108494E+05	-2.06417850599E+01	-9.02803010639E+01	3.14344204470E+01	-1.71701754952E+02	-4.15618455983E+01	1.27948004064E+02	-6.07528421684E+00	5.98935885600E-01
3.19695022927E+05	-2.02632820540E+01	-1.16734121770E+02	3.14707795116E+01	-1.71888924099E+02	-4.92903033677E+01	1.38361927788E+02	-5.98403284601E+00	1.08305883944E-01
3.19926104268E+05	-1.89108150448E+01	-3.54528862222E+01	3.14295054144E+01	-1.72041365569E+02	-5.51978978829E+01	-1.48955384392E+02	-5.84752992710E+00	-4.42954912867E-01
3.20157352640E+05	-1.78153332961E+01	-8.35414074375E+01	3.14686490285E+01	-1.71995554125E+02	-3.86983057912E+01	-1.07456291509E+01	-5.49419085989E+00	-1.07915112737E+00
3.20388768162E+05	-2.31091625251E+01	6.25618629909E+00	3.14266295427E+01	-1.72384264760E+02	-3.47151028310E+01	-5.49163891170E+01	-5.33670892800E+00	-3.61627904166E+00
3.20620350955E+05	-1.55418198693E+01	-7.08387476866E+01	3.14400168594E+01	-1.71984733265E+02	-3.09878955182E+01	7.82884150508E+01	-5.65364402481E+00	8.26050118985E+00
3.20852101140E+05	-1.43333703920E+01	-1.33228821146E+01	3.13376013264E+01	-1.72304001930E+02	-3.94044416594E+01	-1.56169565878E+02	-6.16868982001E+00	-1.67832444031E+00
3.21084018839E+05	-2.11130952129E+01	-1.43607474728E+02	3.15156422959E+01	-1.72224020291E+02	-4.09071415767E+01	-1.20529459048E+01	-5.55776235968E+00	-4.44758579764E-01
3.21316104172E+05	-2.85392749971E+01	-7.92819088520E+01	3.14293986472E+01	-1.72390716737E+02	-4.06691086899E+01	-1.03467652171E+02	-5.97238752908E+00	-2.53789354776E+00
3.21548357261E+05	-2.10844882519E+01	1.21703127088E+02	3.14894456286E+01	-1.72839635109E+02	-4.32322725483E+01	7.88084546619E+01	-5.77761632832E+00	7.21162054277E-01
3.21780778226E+05	-1.86072278390E+01	-4.16638340294E+01	3.14575018561E+01	-1.72034238891E+02	-3.95619965742E+01	-1.42981001763E+02	-6.15505237738E+00	-3.21613919738E+00
3.22013367189E+05	-1.98626431058E+01	3.41762771079E+01	3.14014475563E+01	-1.72741577147E+02	-3.79396977508E+01	-2.95199150426E+00	-5.17385220077E+00	4.41519567445E-01
3.22246124272E+05	-3.15152072423E+01	7.59269584289E+01	3.14873761184E+01	-1.72813477148E+02	-4.29439180894E+01	-6.38172107909E+01	-5.71485686690E+00	-2.14729096732E+00
3.22479049596E+05	-2.06222294411E+01	-3.34838482371E+01	3.14208222530E+01	-1.72431279455E+02	-4.46865521029E+01	6.49752227625E+01	-5.87305122969E+00	1.13103405278E+00
3.22712143282E+05	-2.68247352502E+01	-5.01406678073E+01	3.14403451217E+01	-1.72711586333E+02	-5.15194165752E+01	5.61508414140E+01	-5.85017301414E+00	-2.68080826483E-01
3.22945405453E+05	-2.01639299978E+01	-3.77314031184E+01	3.14049951527E+01	-1.72532940861E+02	-3.30194126989E+01	-7.24134299721E+01	-5.40364182444E+00	-5.65114188725E+00
3.23178836230E+05	-2.93951882315E+01	7.74946078702E+01	3.14851855534E+01	-1.72848283612E+02	-3.35017493266E+01	-1.23227493955E+02	-6.18037933922E+00	-5.98318833964E+00
3.23412435735E+05	-1.61667908760E+01	-9.70931125460E+01	3.14594818476E+01	-1.72318404983E+02	-4.69382081943E+01	1.78774631856E+02	-6.06102475828E+00	-9.02300646970E-01
3.23646204090E+05	-5.19077213553E+01	1.25377653393E+02	3.15017346773E+01	-1.72660493216E+02	-3.64425750516E+01	-1.16427517385E+02	-5.99459143926E+00	-4.47833823721E+00
3.23880141417E+05	-2.49086787888E+01	-6.74880897702E+01	3.14308804584E+01	-1.72676507556E+02	-3.83148756019E+01	-2.20846820747E+01	-5.26779927013E+00	-1.36202458436E+00
3.24114247838E+05	-2.07825423466E+01	-5.46893267309E+01	3.14515485804E+01	-1.72549199610E+02	-4.00812382056E+01	-1.79271844297E+01	-5.57144995635E+00	-1.01885876092E+00
3.24348523475E+05	-1.99264705540E+01	9.59988611063E+01	3.14889584471E+01	-1.73304810162E+02	-3.63685247886E+01	-1.25993053933E+02	-6.15386237196E+00	-3.88090990474E+00
3.24582968451E+05	-1.36352198125E+01	-8.14517476341E+01	3.14699100825E+01	-1.71972543313E+02	-5.18068170275E+01	4.42292704755E+01	-5.72238754741E+00	-1.33163775338E-01
3.24817582888E+05	-1.39080257204E+01	1.02995787632E+01	3.13386147785E+01	-1.73077080245E+02	-2.96946031114E+01	-8.16062239477E+00	-4.69123908563E+00	-9.94132085353E-01
3.25052366909E+05	-2.48499724407E+01	1.86500213157E+01	3.14528143174E+01	-1.73087213261E+02	-3.82618366916E+01	5.66768578452E+01	-5.47702863603E+00	2.60063105844E+00
3.25287320635E+05	-2.40373514864E+01	8.54218278291E+01	3.14716368990E+01	-1.73167442541E+02	-4.87127659350E+01	1.19291710243E+02	-5.99417343482E+00	3.54154474149E-01
3.25522444191E+05	-2.05084503883E+01	-8.80356820407E+01	3.14802753643E+01	-1.72592622496E+02	-3.88640405838E+01	1.10773234873E+02	-6.00976413931E+00	3.03478132648E+00
3.25757737698E+05	-2.96424262530E+01	-9.10848148569E+01	3.14981339829E+01	-1.72887469401E+02	-3.61181955442E+01	9.36676178424E+01	-5.86793042442E+00	2.43309831748E+00
3.25993201280E+05	-2.05095514152E+01	1.61836999570E+02	3.15238321811E+01	-1.72928562628E+02	-4.63491125122E+01	5.43163541155E+01	-5.84541591422E+00	5.72701585944E-01
3.26228835058E+05	-2.28410623451E+01	-1.08092356475E+02	3.14824248602E+01	-1.72721312302E+02	-4.21531189129E+01	-8.44770629367E+01	-5.84279231430E+00	-2.66551038141E+00
