# Hz S DB R 50
! CMT, M5065, 19127446, 24.2.4/2
! Date: 11/1/2024 4:34:55 PM
! Data: Format (Calibration Info)
! Freq	S11:dB/Ang(F2)	S21:dB/Ang(F2)	S12:dB/Ang(F2)	S22:dB/Ang(F2)
3.00000000000E+05	-3.34186338131E+01	-1.75640465552E+02	1.10117788340E+01	-1.77293367740E+02	-3.95156300897E+01	5.01998678280E+01	-5.85352462556E+00	8.93486581567E-02
3.00216845423E+05	-1.28310267075E+01	9.60550262130E+00	1.08173205643E+01	-1.77514334104E+02	-3.79278327913E+01	1.71832161365E+02	-5.97888800347E+00	-2.64000162612E-01
3.00433847586E+05	-2.34849328974E+01	1.29471047959E+02	1.10094300669E+01	-1.77416760752E+02	-3.99967126576E+01	9.41204375629E+01	-5.88791486822E+00	4.99657937868E-02
3.00651006602E+05	-2.05485648136E+01	8.19293957234E+01	1.09886037526E+01	-1.77608328430E+02	-3.56284112726E+01	-2.96976246465E+01	-5.84216948483E+00	-2.77629563481E-01
3.00868322584E+05	-1.89623850535E+01	-4.03024241469E+01	1.09450715069E+01	-1.77371588342E+02	-3.65046979660E+01	-9.73794333926E+01	-5.87243399250E+00	-8.05661705995E-01
3.01085795647E+05	-7.71796573934E+00	-2.66104563194E+01	1.07039717418E+01	-1.76181590528E+02	-3.73709511524E+01	-3.63737550999E+01	-5.82600453968E+00	-3.14172549735E-01
3.01303425902E+05	-1.84355824782E+01	1.27431639977E+02	1.09895760359E+01	-1.77823042972E+02	-4.16844393994E+01	-4.14491036932E+01	-5.89726117170E+00	-4.52853190851E-01
3.01521213465E+05	-2.37001943494E+01	-7.89871169142E+01	1.09310043972E+01	-1.77099921610E+02	-5.18596408567E+01	-1.53937622618E+02	-5.86357585568E+00	-2.23915468773E-01
3.01739158449E+05	-2.15885378280E+01	-1.53487840475E+02	1.09951017179E+01	-1.77164628608E+02	-3.18182158677E+01	5.06070429048E+01	-5.82499271132E+00	4.25639898334E-01
3.01957260967E+05	-2.44353886538E+01	1.51137765506E+02	1.10119036842E+01	-1.77561669784E+02	-3.51897374984E+01	-1.51938882634E+02	-5.96756724553E+00	-4.75707135901E-01
3.02175521134E+05	-2.62926098528E+01	1.53091879663E+01	1.09080352036E+01	-1.77562101317E+02	-4.21245593457E+01	5.61592758638E+01	-5.88586762237E+00	-2.48148350799E-01
3.02393939063E+05	-3.59317363749E+01	-1.15712498493E+02	1.09152479176E+01	-1.77408445783E+02	-4.13878763616E+01	-1.64389873414E+02	-5.90245937250E+00	-1.15377751491E-01
3.02612514869E+05	-1.92292346647E+01	-1.31579505081E+02	1.10377966346E+01	-1.77410391053E+02	-3.64684716809E+01	-3.50290437375E+01	-5.84515349406E+00	-3.41229081202E-01
3.02831248665E+05	-2.14828978429E+01	1.21804502471E+02	1.10157379234E+01	-1.77662751491E+02	-3.51512881271E+01	-7.98076429639E+01	-5.90014525008E+00	-3.55552281577E-01
3.03050140565E+05	-2.42334683557E+01	1.27195393184E+02	1.10015620356E+01	-1.77449563480E+02	-3.19642351796E+01	3.58824200183E+01	-5.75447588058E+00	4.06883754276E-01
3.03269190685E+05	-2.11589099630E+01	1.63756661577E+02	1.10091475928E+01	-1.77454321967E+02	-3.01796058054E+01	-1.16360127685E+02	-5.94824637880E+00	-1.45021482303E+00
3.03488399138E+05	-1.94577227771E+01	-8.68527792453E+00	1.08935682589E+01	-1.77460632303E+02	-4.12742591229E+01	-1.63318875352E+01	-5.87537808499E+00	1.55481442689E-01
3.03707766039E+05	-1.75116101208E+01	-9.02343623121E+00	1.08675714249E+01	-1.77249543161E+02	-4.13899064867E+01	1.43113816050E+02	-5.89407769113E+00	-6.33120649417E-02
3.03927291503E+05	-1.64467994240E+01	-1.70079915503E+02	1.11152984640E+01	-1.77668347571E+02	-4.37785449858E+01	4.25002752055E+01	-5.87293443806E+00	-4.31073078186E-01
3.04146975643E+05	-1.98766134540E+01	-8.19505369768E+01	1.08999597627E+01	-1.77094251075E+02	-3.45042125714E+01	-1.21108029265E+02	-5.92924975564E+00	-6.15210608889E-01
3.04366818575E+05	-1.91135119849E+01	7.19015108136E+01	1.09785200918E+01	-1.78040857966E+02	-4.32638534363E+01	-1.51797001828E+02	-5.87582948451E+00	-1.97829854045E-01
3.04586820414E+05	-2.52526628244E+01	-1.01557986267E+02	1.09673112244E+01	-1.77015112960E+02	-3.20236290533E+01	1.54235613340E+02	-6.00637276808E+00	1.13085943052E-01
3.04806981274E+05	-1.53187833516E+01	1.03838217384E+02	1.09666796975E+01	-1.77659033635E+02	-3.35531053823E+01	-3.62814735887E+01	-5.77431536454E+00	-5.85179134455E-01
3.05027301270E+05	-2.08145517751E+01	-1.59955053889E+01	1.09095224422E+01	-1.77172120564E+02	-7.51059127312E+01	-1.45207310072E+02	-5.88117641338E+00	-4.07147407621E-02
3.05247780517E+05	-2.47058194620E+01	3.23478713773E+01	1.09303921272E+01	-1.78062763637E+02	-4.63695511133E+01	1.16939905714E+02	-5.92704918938E+00	-5.86544152429E-03
3.05468419131E+05	-1.65788621577E+01	-1.54778352519E+02	1.10067055714E+01	-1.77290191431E+02	-3.94460690327E+01	-1.14454177491E+02	-5.88610406705E+00	-4.13190330765E-01
3.05689217226E+05	-2.88226391954E+01	-2.15887698536E+01	1.08787346170E+01	-1.77228576117E+02	-3.68072918337E+01	1.33952522082E+02	-5.90076544314E+00	-9.99083240560E-02
3.05910174918E+05	-1.31998754665E+01	-2.80999030006E+01	1.08438405543E+01	-1.76755178416E+02	-4.22787491912E+01	8.24754382746E+01	-5.89467558735E+00	-1.45603725846E-01
3.06131292322E+05	-1.62949127325E+01	-5.50944780885E+01	1.09153927110E+01	-1.76785671350E+02	-3.77948220958E+01	-1.33196116682E+02	-5.92597693563E+00	-7.52969252471E-01
3.06352569554E+05	-2.17735328861E+01	-8.10477734348E+01	1.09355306527E+01	-1.76967076025E+02	-3.62764695429E+01	1.06699193176E+02	-5.92023896026E+00	1.97554674687E-01
3.06574006730E+05	-2.62551047450E+01	5.24949978103E+01	1.09853955209E+01	-1.77472296173E+02	-4.91041538459E+01	8.58455717176E+01	-5.89696156865E+00	-1.11478566850E-01
3.06795603964E+05	-1.93995293923E+01	-1.62898553964E+02	1.10263157251E+01	-1.77570026700E+02	-4.19148032371E+01	-1.39660914593E+02	-5.91008848963E+00	-8.69633470237E-02
3.07017361372E+05	-1.85460011916E+01	-8.02030261315E+01	1.09509956038E+01	-1.76962102663E+02	-3.99613491784E+01	-5.54021334573E+00	-5.83304408076E+00	-3.31421586195E-01
3.07239279071E+05	-1.94116650371E+01	1.23896224250E+02	1.09973116102E+01	-1.77830351538E+02	-3.70517369073E+01	-1.78238619144E+02	-5.93776013448E+00	-3.35829898186E-01
3.07461357176E+05	-1.64192894080E+01	-9.80189754864E+01	1.09885003542E+01	-1.76915119825E+02	-4.58607084780E+01	-1.08328429499E+02	-5.88318537731E+00	-1.97717519945E-01
3.07683595803E+05	-1.78060564197E+01	-1.77108015904E+02	1.10341040638E+01	-1.77654211471E+02	-4.63421629952E+01	1.71076444812E+02	-5.90687977491E+00	1.02888236098E-01
3.07905995068E+05	-2.25614345454E+01	-1.70142524573E+02	1.09778365223E+01	-1.77349665281E+02	-2.92746996393E+01	-7.89669469902E+01	-5.82238217015E+00	-1.27638587394E+00
3.08128555087E+05	-2.27200083054E+01	-1.19054479856E+02	1.09448718479E+01	-1.76950023112E+02	-5.41432885218E+01	5.78408406871E+01	-5.88345015559E+00	-1.92243343625E-01
3.08351275976E+05	-2.10996681263E+01	1.71715434589E+02	1.10939521345E+01	-1.77465560135E+02	-3.85565201477E+01	7.74130064590E+01	-5.87475792064E+00	9.89177052402E-02
3.08574157853E+05	-2.03334280077E+01	1.07822406176E+02	1.09987631322E+01	-1.78069217026E+02	-3.87446094339E+01	2.38531006838E+01	-5.83528753313E+00	2.73367488784E-03
3.08797200832E+05	-8.70560236800E+00	-1.30228802018E+02	1.11614390598E+01	-1.76422895798E+02	-4.10534655477E+01	1.57222085826E+02	-5.90302508069E+00	-2.00995103707E-01
3.09020405031E+05	-3.34402317859E+01	-6.26891452883E+00	1.08900240825E+01	-1.77720597811E+02	-4.15824985502E+01	-1.60901669531E+02	-5.92936808425E+00	-3.81329775860E-01
3.09243770566E+05	-2.19089546476E+01	-6.00351660144E+01	1.09251729660E+01	-1.77101415572E+02	-3.82459673365E+01	4.70963877633E+01	-5.86000756264E+00	-1.53624438853E-01
3.09467297553E+05	-1.62722378145E+01	1.53618514222E+02	1.10305126696E+01	-1.77428649824E+02	-4.43580222484E+01	-1.84307998333E+01	-5.81956258912E+00	-3.55971328709E-01
3.09690986110E+05	-1.56121914018E+01	7.81937465568E+01	1.09446878527E+01	-1.78265676815E+02	-5.13252336036E+01	-2.94481815219E+01	-5.88757709717E+00	-8.79895536301E-02
3.09914836353E+05	-2.26755893340E+01	8.90385340107E+01	1.09327091053E+01	-1.77885496747E+02	-3.83112253738E+01	-5.70124965149E+01	-5.87939904474E+00	-3.23267344223E-01
3.10138848399E+05	-1.55770582708E+01	-1.48921629545E+02	1.10996520399E+01	-1.77195008240E+02	-3.64586351869E+01	-1.50953570227E+02	-5.90896762966E+00	-5.31324696262E-01
3.10363022365E+05	-2.03036108058E+01	-1.99077665733E+01	1.08875111077E+01	-1.77413156318E+02	-4.20285242581E+01	-7.47062404654E+01	-5.88726413531E+00	-3.71485019732E-01
3.10587358368E+05	-1.74667744308E+01	-4.55421062779E+01	1.09159432638E+01	-1.77155327247E+02	-4.67127197343E+01	-8.57229318197E+00	-5.88788490567E+00	-3.07153860458E-01
3.10811856525E+05	-2.52524827721E+01	1.00548151736E+02	1.09218231072E+01	-1.77815385186E+02	-3.55986421037E+01	2.03267306006E+01	-5.81242005365E+00	4.08214996769E-03
3.11036516954E+05	-2.19218217028E+01	1.31486165078E+02	1.10047159416E+01	-1.77816397818E+02	-3.12418511354E+01	1.67852049586E+02	-6.03573853824E+00	-2.31365805009E-01
3.11261339771E+05	-1.99401007578E+01	9.59939598112E+01	1.09884726557E+01	-1.77958802071E+02	-3.42240458858E+01	5.07944647561E+01	-5.85585202028E+00	2.69883874548E-01
3.11486325094E+05	-2.67834330940E+01	4.28353692248E+01	1.09749807358E+01	-1.77715017124E+02	-3.75681979306E+01	1.28403712644E+02	-5.92796886381E+00	1.00748205741E-01
3.11711473040E+05	-2.61700501560E+01	-1.64997050400E+02	1.10165776307E+01	-1.77698420984E+02	-5.26704323897E+01	-1.55508930353E+02	-5.87215700479E+00	-4.01726397998E-01
3.11936783728E+05	-2.42756655806E+01	-1.18346936547E+02	1.09010464233E+01	-1.77338846830E+02	-3.93596016154E+01	-8.08956963704E+01	-5.86805759063E+00	-4.70696922232E-01
3.12162257274E+05	-1.83397192409E+01	1.32188306840E+02	1.10825422072E+01	-1.77771663179E+02	-3.58074321999E+01	1.76185440182E+02	-5.92566494640E+00	-3.57292795690E-01
3.12387893797E+05	-2.19178278709E+01	1.75181877244E+02	1.09911144312E+01	-1.77391705547E+02	-4.58349406225E+01	1.66017136413E+02	-5.89066724414E+00	-3.77057806197E-01
3.12613693413E+05	-1.80042181644E+01	1.69893317474E+01	1.08980458938E+01	-1.78065255766E+02	-4.15099106589E+01	-1.11553348582E+02	-5.88298193517E+00	-1.00616729927E+00
3.12839656242E+05	-3.42646406213E+01	-6.78701823185E+01	1.09442914717E+01	-1.77234492630E+02	-3.54028486297E+01	-9.26073940123E+01	-5.89077209260E+00	-8.32851329031E-01
3.13065782401E+05	-2.38453429501E+01	-8.92288875199E+01	1.09761563563E+01	-1.77125991651E+02	-4.51407078276E+01	3.54686350935E+00	-5.88991244539E+00	-2.25215653940E-01
3.13292072007E+05	-1.73753987307E+01	-9.20068334878E+01	1.09284217527E+01	-1.77146854818E+02	-3.81780299697E+01	1.75030383522E+01	-5.83045175977E+00	-1.86058209855E-01
3.13518525180E+05	-1.15130481750E+01	-1.43844264750E+02	1.11061705088E+01	-1.76299988206E+02	-3.62565861707E+01	-1.22992670027E+02	-5.89886636854E+00	-6.01984222357E-01
3.13745142038E+05	-1.55871320393E+01	1.17060546758E+02	1.09995856022E+01	-1.78591841368E+02	-3.58195381038E+01	-4.55557983710E+01	-5.83926024246E+00	-3.96432227220E-01
3.13971922698E+05	-2.13730764468E+01	1.05893091734E+01	1.09216704891E+01	-1.77590827107E+02	-3.51597714687E+01	1.61412312074E+02	-5.93044963795E+00	-1.35962546655E-01
3.14198867279E+05	-2.68943291738E+01	-8.61220680981E+01	1.09362877262E+01	-1.77730499596E+02	-3.41087306070E+01	-1.55207448484E+02	-5.97544766494E+00	-5.32015198069E-01
3.14425975900E+05	-1.46719493183E+01	8.37491106174E+01	1.09759795012E+01	-1.78224123619E+02	-4.43462324602E+01	1.87352331027E+01	-5.84817498727E+00	-1.98600971604E-01
3.14653248680E+05	-2.24441245211E+01	-1.06539011155E+02	1.09750116273E+01	-1.77303061044E+02	-4.55150134125E+01	3.67635970740E+01	-5.84244154329E+00	-2.08836504505E-01
3.14880685736E+05	-2.08720632692E+01	-1.69979649384E+02	1.09869259281E+01	-1.77266455611E+02	-3.93977924664E+01	9.53831545406E+01	-5.88858313855E+00	-1.40443325822E-01
3.15108287188E+05	-1.32592940990E+01	8.36274189197E+01	1.08996842397E+01	-1.79116948351E+02	-4.62961880068E+01	4.79170775480E+01	-5.85909434879E+00	-1.80631642623E-01
3.15336053154E+05	-1.70060029618E+01	1.65919897121E+02	1.10753655875E+01	-1.77883779833E+02	-3.86724657492E+01	-1.45132120191E+02	-5.95171982391E+00	-3.94529849095E-01
3.15563983753E+05	-2.90480310941E+01	1.15136877200E+02	1.09786152067E+01	-1.77924766613E+02	-3.85285495271E+01	2.74582965888E+01	-5.87779799134E+00	-1.15642488933E-01
3.15792079105E+05	-2.84524126022E+01	-1.17785386623E+02	1.09568237381E+01	-1.77708069879E+02	-3.33561527562E+01	1.57340312918E+02	-5.98554281473E+00	-9.97128211037E-02
3.16020339328E+05	-1.76854731963E+01	2.17096516299E+01	1.08722760135E+01	-1.77697079737E+02	-3.54629907826E+01	-1.49903519300E+02	-5.95306907414E+00	-8.03117356573E-01
3.16248764542E+05	-1.98148248315E+01	1.49548443272E+02	1.09807158226E+01	-1.77980093065E+02	-3.66636401757E+01	-7.02958671143E+01	-5.88761400211E+00	-7.67623422067E-01
3.16477354866E+05	-3.42666315328E+01	-7.67396992078E+01	1.09468684957E+01	-1.77749072070E+02	-4.15742735383E+01	4.83341717186E+01	-5.88345306942E+00	-9.29101753371E-02
3.16706110419E+05	-1.57872658892E+01	7.93251185021E+00	1.08706703840E+01	-1.77543013589E+02	-5.03309067305E+01	-7.83653029555E+01	-5.87720670537E+00	-4.55626505900E-01
3.16935031321E+05	-2.42181761394E+01	1.76843434014E+02	1.10019997847E+01	-1.77381346625E+02	-3.78578377771E+01	5.61573336936E+00	-5.81997523590E+00	-2.30983114083E-01
3.17164117691E+05	-2.27274696031E+01	-1.14222788059E+02	1.10014612957E+01	-1.77490458083E+02	-4.16543132011E+01	-5.33287605410E+01	-5.83343819883E+00	-2.27667499927E-01
3.17393369648E+05	-2.88019155059E+01	4.02471226490E+01	1.09225769497E+01	-1.77910361255E+02	-3.79615758150E+01	1.22051743980E+02	-5.89656046188E+00	-1.51090895108E-01
3.17622787313E+05	-2.37978899083E+01	1.31907672775E+02	1.09820066881E+01	-1.77853029840E+02	-3.53593659938E+01	-1.49523971653E+02	-5.96650246034E+00	-2.46798579398E-01
3.17852370806E+05	-2.34152812279E+01	9.12177075726E+01	1.09549510848E+01	-1.77801624951E+02	-4.37067117888E+01	7.52021448184E+01	-5.87689858285E+00	-1.18001803343E-01
3.18082120245E+05	-2.30900717259E+01	-1.28561134331E+02	1.09867685640E+01	-1.77715919978E+02	-4.56720307767E+01	1.67645926518E+02	-5.92436434776E+00	-4.31389146543E-01
3.18312035752E+05	-2.65045485325E+01	-2.72418566278E+01	1.09080509209E+01	-1.77554670492E+02	-3.76434218036E+01	2.06868542811E+01	-5.84709569919E+00	-4.48836139926E-02
3.18542117445E+05	-1.18064281120E+01	-1.25952374328E+02	1.10814519216E+01	-1.76777401124E+02	-3.67101600771E+01	6.35032581719E+01	-5.87888194043E+00	4.36533611632E-01
3.18772365446E+05	-2.61582550928E+01	1.60505014562E+02	1.10279130617E+01	-1.77564244016E+02	-4.61542486759E+01	1.75012322998E+02	-5.94648848172E+00	-3.41674910352E-01
3.19002779874E+05	-1.49664234495E+01	-1.97600820602E+01	1.08718859529E+01	-1.77509399265E+02	-4.12955331928E+01	1.14287808674E+02	-5.90973816415E+00	1.70513631737E-01
3.19233360850E+05	-2.85668938733E+01	-1.10825149864E+02	1.09977816150E+01	-1.77666499442E+02	-3.41727684495E+01	-1.12046471693E+02	-5.88091517368E+00	-7.15738804458E-01
3.19464108494E+05	-1.65986929858E+01	1.30465274587E+02	1.10390763847E+01	-1.77911274752E+02	-3.31374491636E+01	1.60781101324E+00	-5.83412335722E+00	-6.85580174313E-02
3.19695022927E+05	-1.90085691567E+01	-1.69726362012E+02	1.09777810308E+01	-1.77862791735E+02	-3.79314037932E+01	-1.77225516598E+02	-5.94129335905E+00	-1.82150494886E-01
3.19926104268E+05	-1.69517762179E+01	-5.78455567674E+01	1.08899400916E+01	-1.77142625716E+02	-4.48896075378E+01	-8.90992597986E+01	-5.87993438132E+00	-1.61656335534E-01
3.20157352640E+05	-2.86462618399E+01	-1.23123594808E+02	1.09946209692E+01	-1.77430646379E+02	-4.38867774813E+01	-1.06081568408E+02	-5.84224253211E+00	-4.47774673630E-01
3.20388768162E+05	-1.69100407835E+01	-9.28546159667E+01	1.09789688896E+01	-1.77383493756E+02	-4.19629798554E+01	-1.17074527335E+02	-5.90065593758E+00	-3.32999679816E-01
3.20620350955E+05	-1.78929965375E+01	-1.31931369262E+02	1.10077839443E+01	-1.77441814641E+02	-3.81985962025E+01	-8.08780415868E+01	-5.86884723842E+00	-7.74659552081E-01
3.20852101140E+05	-2.39346706185E+01	-1.19168073471E+02	1.09739094049E+01	-1.77684029532E+02	-3.02201673794E+01	5.47335112491E+01	-5.78018586526E+00	6.83262980686E-01
3.21084018839E+05	-1.82396241280E+01	1.14504829427E+02	1.10001625690E+01	-1.78277896838E+02	-3.85753412335E+01	-1.35007448372E+02	-5.91125274745E+00	-6.54699402230E-01
3.21316104172E+05	-1.88142189729E+01	-1.29116404434E+02	1.09472252370E+01	-1.77368525284E+02	-3.71290732555E+01	-1.02272995544E+02	-5.91352253442E+00	-7.08944007654E-01
3.21548357261E+05	-2.27475566759E+01	1.74642773230E+02	1.10192067027E+01	-1.77810180781E+02	-4.42637058703E+01	-1.27607877902E+02	-5.89756392260E+00	-1.77555861435E-01
3.21780778226E+05	-1.73930456849E+01	9.87065955123E+01	1.09021527895E+01	-1.78047822062E+02	-3.89776280020E+01	-1.51132017960E+02	-5.93243726002E+00	-3.87960236414E-01
3.22013367189E+05	-2.07309271779E+01	-1.40200877899E+02	1.09796222571E+01	-1.77655899715E+02	-3.86800854199E+01	1.18168989174E+02	-5.86463838071E+00	-1.10421677837E-01
3.22246124272E+05	-1.96328436921E+01	1.59588080680E+02	1.10585740616E+01	-1.78067620317E+02	-3.38631428063E+01	-1.14670515633E+02	-5.91842194970E+00	-1.11571178192E+00
3.22479049596E+05	-1.71210853612E+01	-9.77138391747E+01	1.10003834375E+01	-1.77342317499E+02	-3.64520483411E+01	5.50674192919E-01	-5.82578352891E+00	-2.08483616441E-02
3.22712143282E+05	-2.06646371567E+01	-1.75714189221E+02	1.09809826827E+01	-1.77946133624E+02	-4.58480581602E+01	2.33463704339E+01	-5.81978020357E+00	-2.12529966457E-01
3.22945405453E+05	-2.83215432044E+01	1.16290265794E+02	1.09442509635E+01	-1.78090130689E+02	-4.36257817708E+01	-6.45019347940E+01	-5.87533892491E+00	-4.71617376073E-01
3.23178836230E+05	-1.98930903777E+01	3.02755359232E+01	1.09349630808E+01	-1.77843975293E+02	-5.12574310722E+01	8.49993925615E+01	-5.89104036457E+00	-3.03657359502E-01
3.23412435735E+05	-6.97931763573E+00	1.17643737369E+02	1.11616120512E+01	-1.79875445593E+02	-4.80797682655E+01	9.44548128421E+00	-5.90556058703E+00	-6.68256969936E-02
3.23646204090E+05	-1.74062430219E+01	9.88079922643E+01	1.10170268297E+01	-1.78112728974E+02	-3.88405255875E+01	1.64103293214E+02	-5.91953445746E+00	-2.77568434413E-01
3.23880141417E+05	-1.77343183987E+01	-1.16614859712E+02	1.09937513088E+01	-1.77520649176E+02	-3.63656721105E+01	1.69474601078E+02	-5.96667627843E+00	-2.47006615984E-01
3.24114247838E+05	-2.16600072899E+01	-7.45525478910E+00	1.09104135682E+01	-1.77850535940E+02	-3.18341964786E+01	-1.16905884040E+02	-5.93387612375E+00	-1.06755327354E+00
3.24348523475E+05	-2.08484507898E+01	2.66457243475E+01	1.09329642372E+01	-1.78032338746E+02	-4.48490821052E+01	5.46052384806E+01	-5.90272274669E+00	-4.94078203929E-02
3.24582968451E+05	-1.82259971868E+01	3.87442962039E+01	1.09339017406E+01	-1.77938030674E+02	-4.18493260002E+01	-1.19418046416E+02	-5.87491857228E+00	-6.33255261012E-01
3.24817582888E+05	-1.79358863528E+01	7.81140647769E+01	1.08926917261E+01	-1.77961113392E+02	-3.69950982888E+01	1.32104520713E+02	-5.92123638891E+00	-3.50544645755E-01
3.25052366909E+05	-1.35561378785E+01	1.58009996758E+02	1.11049285549E+01	-1.78216867522E+02	-3.80215437651E+01	-1.66432315847E+01	-5.82388576821E+00	-1.63503901876E-01
3.25287320635E+05	-1.42729542812E+01	-1.05021121769E+02	1.09955773325E+01	-1.76945115785E+02	-5.43299293707E+01	-7.43361129596E+01	-5.87759154215E+00	-5.82407273656E-02
3.25522444191E+05	-4.40885952263E+01	6.47217815328E+01	1.10167556624E+01	-1.77736762239E+02	-4.44600531042E+01	-6.57279414912E+01	-5.88866414964E+00	-3.42194582194E-01
3.25757737698E+05	-3.49730804384E+01	-1.15494086845E+02	1.09702728264E+01	-1.77621958237E+02	-3.10862502367E+01	-6.18094656594E+01	-5.81142031255E+00	-1.02912561925E+00
3.25993201280E+05	-2.39443368213E+01	-1.17157461096E+02	1.09709392573E+01	-1.77616141246E+02	-3.83864709368E+01	1.93056560662E+01	-5.85763749994E+00	-1.96135870368E-02
3.26228835058E+05	-2.63558855739E+01	-3.92377642169E+01	1.09698638576E+01	-1.77949713413E+02	-3.85859347571E+01	-1.08453098075E+02	-5.90615806122E+00	-4.35102101134E-01
