# Hz S DB R 50
! CMT, M5065, 19127446, 24.2.4/2
! Date: 11/1/2024 4:53:02 PM
! Data: Format (Calibration Info)
! Freq	S11:dB/Ang(F2)	S21:dB/Ang(F2)	S12:dB/Ang(F2)	S22:dB/Ang(F2)
3.00000000000E+05	-1.26153555054E+01	-5.83555307833E+01	3.98637415237E+01	-1.70104556377E+02	-2.98413353734E+01	1.73569520531E+02	-9.81233018585E+00	-3.64287140145E+00
3.00216845423E+05	-1.88304677985E+01	4.96737306146E+01	3.98782955040E+01	-1.70859494045E+02	-3.28399080958E+01	1.56372755508E+02	-8.81000936986E+00	8.95983739134E+00
3.00433847586E+05	-1.56463375776E+01	-5.25570461969E+01	3.98640996056E+01	-1.70089374702E+02	-3.76002121431E+01	1.51652928897E+02	-7.01475492946E+00	3.63489271783E+00
3.00651006602E+05	-1.30741954514E+01	-9.31250802156E+01	3.99178112220E+01	-1.70020169406E+02	-4.44690054735E+01	1.58209436557E+02	-6.52125079659E+00	-3.56892257537E-01
3.00868322584E+05	-1.59571417665E+01	-7.37329815106E+01	3.99146506287E+01	-1.70301185863E+02	-3.71239213363E+01	-8.01595339314E+01	-5.11877119858E+00	-9.33571236694E+00
3.01085795647E+05	-2.53896778187E+01	-5.56879942504E+01	3.98888765109E+01	-1.70727198510E+02	-3.87270993173E+01	-1.59045114391E+02	-6.50365527638E+00	-4.19558215101E+00
3.01303425902E+05	-3.17743302052E+01	6.77489456160E+01	3.98997755977E+01	-1.70877103430E+02	-3.72252255363E+01	-8.12891596715E+01	-5.29074164752E+00	-9.35616457072E+00
3.01521213465E+05	-2.23037851689E+01	-7.63732044243E+01	3.99061005535E+01	-1.70720594282E+02	-3.89394656571E+01	6.91088689579E+01	-5.47483779964E+00	5.48792462432E+00
3.01739158449E+05	-2.02950222122E+01	-4.22994640179E+01	3.98673496115E+01	-1.70634331383E+02	-4.39891486628E+01	6.47762504549E+01	-5.49471308103E+00	2.33805109766E+00
3.01957260967E+05	-9.98194912809E+00	-9.29280557629E+01	3.99028370580E+01	-1.69951939197E+02	-3.86843180130E+01	3.47203156601E+01	-5.13131084252E+00	4.17374002633E+00
3.02175521134E+05	-9.56406573451E+00	-8.35556425267E+01	3.99274290372E+01	-1.70016339453E+02	-4.41741404743E+01	1.44201294599E+02	-6.26309521226E+00	1.12650592555E+00
3.02393939063E+05	-1.54857152173E+01	-7.80125946437E+01	3.98936342330E+01	-1.70823405975E+02	-3.81297544846E+01	1.35768446589E+00	-4.81585956636E+00	-5.27823019953E-01
3.02612514869E+05	-3.12479689092E+01	1.65119510367E+02	3.99211534175E+01	-1.71185833422E+02	-3.69498628914E+01	1.50856302328E+02	-7.21368528997E+00	2.04638278390E+00
3.02831248665E+05	-1.62514588416E+01	-1.04903751349E+02	3.99573742704E+01	-1.70748927086E+02	-5.24633124168E+01	1.80891612441E+01	-5.40431761756E+00	-1.17950868994E+00
3.03050140565E+05	-1.27376851483E+01	-3.19693597925E+01	3.98144453062E+01	-1.71032708773E+02	-3.66885810535E+01	4.34372510898E+01	-4.72844973491E+00	7.50192851789E+00
3.03269190685E+05	-1.51150336489E+01	-5.44784003828E+01	3.98951928164E+01	-1.70717402886E+02	-3.12199412778E+01	7.61320813943E+01	-5.05642312894E+00	2.18583692317E+01
3.03488399138E+05	-1.71661900030E+01	-1.24871326170E+02	3.99593468470E+01	-1.71195828421E+02	-4.40486591301E+01	-1.54847275638E+02	-6.34988456120E+00	-3.62022887411E+00
3.03707766039E+05	-1.07497046144E+01	-1.07130152523E+02	3.99768643389E+01	-1.70583616449E+02	-4.72540304870E+01	-7.71876373960E+01	-5.75020955995E+00	-3.24225216204E+00
3.03927291503E+05	-1.68548121555E+01	-5.98194420108E+01	3.99231493951E+01	-1.71028315526E+02	-4.89717265053E+01	-4.04333988627E+00	-5.33147602581E+00	-2.03615109945E+00
3.04146975643E+05	-1.60400916495E+01	-5.66410975096E+01	3.98733694742E+01	-1.71377569796E+02	-3.95823373899E+01	-1.17327629039E+02	-5.96156512867E+00	-7.82327788026E+00
3.04366818575E+05	-2.00417545528E+01	-9.03157345927E+01	3.99249066037E+01	-1.71338352558E+02	-5.22310750785E+01	-2.64320214603E+01	-5.56536410310E+00	-1.12900918792E+00
3.04586820414E+05	-1.51679209648E+01	-3.30227509347E+01	3.98732530177E+01	-1.71437176928E+02	-3.63424698584E+01	-7.99365720250E+01	-5.14519909025E+00	-8.50234631394E+00
3.04806981274E+05	-1.97259804223E+01	-2.14988291770E+00	3.98863812355E+01	-1.71641358397E+02	-3.47317800700E+01	1.29543176384E+02	-7.41641871321E+00	1.34902147668E+01
3.05027301270E+05	-1.49941905768E+01	2.28766357593E+01	3.98372137212E+01	-1.71810853392E+02	-3.62839084041E+01	-1.27847326060E+02	-6.29118160206E+00	-1.05867423718E+01
3.05247780517E+05	-1.79710414178E+01	-6.38711121430E+00	3.98665863758E+01	-1.71799375995E+02	-4.60197761242E+01	3.23733439919E+01	-5.52171826134E+00	1.68432976761E+00
3.05468419131E+05	-1.47607867201E+01	-7.54924621539E+01	3.99241963696E+01	-1.71629315359E+02	-3.78516465028E+01	-4.02552816430E+01	-4.81698040409E+00	-5.74123394750E+00
3.05689217226E+05	-1.62324342125E+01	-5.61861828142E+01	3.98940108468E+01	-1.71614108253E+02	-4.56553099290E+01	-6.94194486221E+00	-5.34797811228E+00	-8.36428073376E-01
3.05910174918E+05	-1.59726886088E+01	-1.39954906456E+01	3.98469664002E+01	-1.71772906505E+02	-3.36373612311E+01	-1.18415730759E+02	-5.97916085907E+00	-1.40264124182E+01
3.06131292322E+05	-1.49167369878E+01	-6.03505190313E+01	3.99234408508E+01	-1.71478749291E+02	-4.98181573730E+01	-2.18808296364E+01	-5.83902784451E+00	-1.90576142357E+00
3.06352569554E+05	-1.58593208945E+01	-7.36904762479E+01	3.99490741275E+01	-1.71680629664E+02	-3.11779163730E+01	-1.54024138666E+02	-7.86281077731E+00	-1.55439574303E+01
3.06574006730E+05	-1.84334552040E+01	-6.38993283075E+01	3.99331196009E+01	-1.71673714033E+02	-3.90973676032E+01	1.30678422587E+02	-6.55296616976E+00	3.91762762233E+00
3.06795603964E+05	-1.36542251483E+01	-7.53588291409E+01	3.99114016751E+01	-1.71584410120E+02	-3.13539477508E+01	1.50329920443E+02	-8.46388658054E+00	8.38909847661E+00
3.07017361372E+05	-2.17619134612E+01	-2.42302070511E+01	3.99344552324E+01	-1.72058689935E+02	-4.61290536747E+01	8.40681043047E+01	-5.85911470647E+00	2.06430872730E+00
3.07239279071E+05	-1.99876666196E+01	9.00089191585E+00	3.98849986798E+01	-1.72227544173E+02	-3.53936178288E+01	-2.63221720974E+01	-4.15586689703E+00	-2.67956189924E+00
3.07461357176E+05	-3.15765230641E+01	-1.50320718386E+02	3.99709254430E+01	-1.71993505163E+02	-4.12856274883E+01	-4.39660239697E+01	-5.13405923330E+00	-3.17445442099E+00
3.07683595803E+05	-2.46831136933E+01	6.16925425458E+01	3.99267171563E+01	-1.72648352767E+02	-4.00495480601E+01	-1.64601043706E+02	-6.88692805099E+00	-2.22133464887E+00
3.07905995068E+05	-1.67819618438E+01	-4.57694774940E+01	3.99291364990E+01	-1.72269954183E+02	-3.11347038803E+01	-5.85093623221E+01	-3.48367811129E+00	-1.22035555996E+01
3.08128555087E+05	-1.71509374319E+01	-6.60952609861E+00	3.98827246657E+01	-1.72418514240E+02	-3.40027878812E+01	-1.29469551581E+02	-6.22130745411E+00	-1.39772252317E+01
3.08351275976E+05	-1.56043505439E+01	-1.58464844547E+01	3.98494228026E+01	-1.72469388808E+02	-3.63709111916E+01	2.84460874281E+01	-4.53890171784E+00	1.92318689000E+00
3.08574157853E+05	-2.35677688223E+01	-3.88697214288E+01	3.99340411473E+01	-1.72481030246E+02	-4.78354015501E+01	-1.06454401217E+02	-5.81190220225E+00	-4.12718637738E+00
3.08797200832E+05	-1.53047296850E+01	-7.55500460344E+01	3.99309426378E+01	-1.71964124918E+02	-4.08980126746E+01	4.49314427778E+01	-5.19030581230E+00	3.04412553547E+00
3.09020405031E+05	-1.43249013299E+01	-2.62913649660E+01	3.99049007805E+01	-1.72571383140E+02	-3.80675373121E+01	4.13725654758E+01	-4.67381846114E+00	7.12744742882E+00
3.09243770566E+05	-1.98939775577E+01	-5.47959927610E+01	3.99499692316E+01	-1.72201607085E+02	-3.44443663721E+01	-2.44775615478E+00	-3.91889791193E+00	8.31231884364E-02
3.09467297553E+05	-2.43685307671E+01	-1.71602128560E+01	3.99471458059E+01	-1.72865306921E+02	-3.66561097687E+01	1.46648009573E+02	-6.95190819197E+00	4.68631557849E+00
3.09690986110E+05	-1.24348109337E+01	-1.65324009053E+02	4.00636344974E+01	-1.72733277707E+02	-3.18560115153E+01	-4.10749098284E+01	-3.79852426004E+00	-8.83521066877E+00
3.09914836353E+05	-6.11867893187E+00	-6.46336784976E+01	3.98501034166E+01	-1.71183095474E+02	-3.88049414115E+01	1.32457949612E+01	-4.77509396634E+00	-1.48081820414E-01
3.10138848399E+05	-2.20706779572E+01	-6.49021533758E+01	3.99433843603E+01	-1.72549037003E+02	-4.43927355027E+01	-3.27181402104E+01	-5.32309084108E+00	-3.34591981637E+00
3.10363022365E+05	-1.13551077107E+01	-4.73288554001E+01	3.98840454857E+01	-1.72114616699E+02	-4.00097408753E+01	1.19637540171E+02	-6.33313100864E+00	6.71254439053E+00
3.10587358368E+05	-1.57588220734E+01	-7.43515764235E+01	3.99238937137E+01	-1.72489878232E+02	-3.71489356167E+01	-1.17694616212E+02	-5.95555142674E+00	-8.91316880781E+00
3.10811856525E+05	-2.13719178524E+01	-7.18420680714E+01	3.99360957193E+01	-1.72624329321E+02	-4.12165842180E+01	-3.19724205041E+01	-4.95677005380E+00	-3.41828927781E+00
3.11036516954E+05	-1.55790904216E+01	-8.79054811450E+01	3.99416112860E+01	-1.72514831656E+02	-3.77494836449E+01	2.28224416517E+01	-5.08001560554E+00	1.90462842150E+00
3.11261339771E+05	-2.00815456859E+01	-5.83823361230E+01	3.99543120610E+01	-1.72446493861E+02	-3.82397023859E+01	-4.60349783387E+01	-4.64076372638E+00	-7.51118003607E+00
3.11486325094E+05	-1.47275851114E+01	9.48346304969E+00	3.98553870205E+01	-1.73458896848E+02	-4.03806875524E+01	-1.32029275105E+02	-6.39329436773E+00	-7.08995076917E+00
3.11711473040E+05	-1.79038562799E+01	-7.29320041952E+01	3.99219266436E+01	-1.72625019230E+02	-4.63096014843E+01	-5.49981030259E+01	-5.47513583865E+00	-2.26884244243E+00
3.11936783728E+05	-3.73348051567E+01	-3.83214885590E+01	3.99743614869E+01	-1.73221087143E+02	-4.11057855997E+01	1.31207342889E+02	-6.47141147508E+00	3.50634117182E+00
3.12162257274E+05	-1.23007928714E+01	-1.33027455287E+01	3.98695467910E+01	-1.73165201779E+02	-3.50813273469E+01	8.32132633929E+01	-5.48498253176E+00	1.17333297412E+01
3.12387893797E+05	-1.67052963267E+01	-5.09121736724E+01	3.99417351192E+01	-1.72989332248E+02	-4.56327952781E+01	2.18364749649E+01	-5.32283415785E+00	8.20243607297E-01
3.12613693413E+05	-1.65673827138E+01	-5.00275733506E+01	3.99436515998E+01	-1.72923531224E+02	-4.20804779746E+01	-1.38680309968E+02	-6.54129192754E+00	-5.15837337851E+00
3.12839656242E+05	-1.79814068345E+01	-1.09833971295E+02	4.00269889974E+01	-1.72896335519E+02	-3.77330292448E+01	-1.72768187902E+02	-7.16385529769E+00	-1.91955334870E+00
3.13065782401E+05	-1.15997652942E+01	3.00666367334E+01	3.98547061546E+01	-1.73924701817E+02	-4.25727079725E+01	7.81778901871E+01	-5.64482208287E+00	4.26832457571E+00
3.13292072007E+05	-2.53606268454E+01	-6.19255130245E+01	3.99891909410E+01	-1.73423980889E+02	-3.74956338001E+01	4.42385922597E+01	-4.76014338437E+00	5.71852342515E+00
3.13518525180E+05	-1.90069712442E+01	-4.34577036052E+01	3.99381256636E+01	-1.73423710857E+02	-4.64207716059E+01	-1.33984714499E+01	-5.14177741429E+00	-1.32819220829E+00
3.13745142038E+05	-1.87995967428E+01	-1.35128002724E+02	4.00279598173E+01	-1.73470635356E+02	-4.64167798610E+01	-9.78196633212E+01	-5.93329039769E+00	-3.72393465435E+00
3.13971922698E+05	-2.16649728383E+01	-7.24196572695E+01	3.99727896973E+01	-1.73394470587E+02	-4.29275071845E+01	-8.66980346861E+00	-4.95081348059E+00	-2.11479689118E+00
3.14198867279E+05	-1.81560309734E+01	-4.69368814959E+01	3.99434624351E+01	-1.73453537439E+02	-2.93231106661E+01	-1.77906411622E+02	-1.05919628094E+01	-2.11490334310E+00
3.14425975900E+05	-1.28218879064E+01	-6.67208180545E+01	3.99925886364E+01	-1.72841660832E+02	-3.69024380607E+01	-8.74219185894E+01	-5.16309346722E+00	-1.35053528064E+01
3.14653248680E+05	-1.79063772714E+01	6.20245504035E+00	3.98805745881E+01	-1.73562884258E+02	-4.13162490342E+01	-6.87066438736E+01	-5.33385298570E+00	-6.29937754057E+00
3.14880685736E+05	-1.71547972321E+01	-1.17481617009E+02	4.00187637245E+01	-1.73274602675E+02	-4.59562195288E+01	1.74860911371E+02	-6.16737883855E+00	-7.74031078335E-01
3.15108287188E+05	-1.38005467975E+01	-6.05376243101E+01	3.99231074681E+01	-1.73205878492E+02	-3.43824875513E+01	1.01128244867E+02	-5.93671475836E+00	1.02409153789E+01
3.15336053154E+05	-1.94460625707E+01	-9.52513267313E+01	4.00266827699E+01	-1.73646502561E+02	-5.06004290850E+01	1.32933951025E+02	-5.73815352988E+00	9.76414992435E-01
3.15563983753E+05	-1.56244236784E+01	-1.04626545008E+02	3.99626526419E+01	-1.73225509096E+02	-3.71520251122E+01	-1.60596407505E+02	-7.32516398400E+00	-3.53904535994E+00
3.15792079105E+05	-1.47998087604E+01	-8.27692928283E+01	3.99539535307E+01	-1.73335225641E+02	-3.30087183101E+01	-1.04977423553E+02	-5.34521058833E+00	-1.54213632211E+01
3.16020339328E+05	-1.38769916433E+01	-9.52287075687E+00	3.98729889789E+01	-1.74071564691E+02	-3.43215917323E+01	-1.41736813034E+02	-6.93331284410E+00	-1.17385091772E+01
3.16248764542E+05	-9.13255853539E+00	-9.58411188260E+01	4.00118433277E+01	-1.72938813751E+02	-4.46879743039E+01	-9.22578412165E+00	-4.97317249773E+00	-1.20200506426E+00
3.16477354866E+05	-2.14855609304E+01	-6.28829311106E+01	3.99231776077E+01	-1.73887641129E+02	-3.93597948252E+01	1.73950896763E+02	-7.01294435174E+00	-3.34495699217E+00
3.16706110419E+05	-2.16158096606E+01	3.76092677263E+01	3.99912325149E+01	-1.74305780709E+02	-3.74846785460E+01	-4.04678090178E+01	-4.69471886675E+00	-5.54702218476E+00
3.16935031321E+05	-1.77974048465E+01	-8.08468519117E+01	3.99814943303E+01	-1.73668406167E+02	-4.92083736031E+01	-1.47069554245E+02	-6.14526634238E+00	-2.36323584738E+00
3.17164117691E+05	-1.78812919731E+01	-5.12523800947E+00	3.99311768754E+01	-1.74274760615E+02	-4.63816175587E+01	1.57243764528E+02	-6.02651489039E+00	-1.42766245979E+00
3.17393369648E+05	-1.86881244068E+01	6.45419931634E+01	3.99804882172E+01	-1.74518058340E+02	-3.48226776215E+01	-8.31329779601E+01	-5.10510120518E+00	-1.09923091537E+01
3.17622787313E+05	-2.16843625640E+01	-1.30559032344E+02	4.00523553999E+01	-1.73798871999E+02	-3.64777084150E+01	-1.19861000366E+01	-4.05175621536E+00	-2.66132184579E+00
3.17852370806E+05	-1.19796549075E+01	1.26426448975E+02	4.00995875993E+01	-1.75127032906E+02	-3.52692685609E+01	-2.87906003805E+01	-4.13540937019E+00	-4.94532550410E+00
3.18082120245E+05	-1.44656891107E+01	-3.54909292016E+01	3.99020836979E+01	-1.74174692677E+02	-4.76989968318E+01	-1.49352858611E+02	-6.17256801573E+00	-2.71565416997E+00
3.18312035752E+05	-1.74976413697E+01	-4.01300972176E+01	3.99519673638E+01	-1.74295694527E+02	-3.99271778414E+01	1.51440949992E+02	-6.59355267741E+00	2.63976745391E+00
3.18542117445E+05	-1.44866552712E+01	-8.66049027974E+01	4.00011007060E+01	-1.73823421116E+02	-3.97875090718E+01	-5.28238707531E+01	-5.40150671805E+00	-4.81378956950E+00
3.18772365446E+05	-1.68281609792E+01	-7.08442465208E+01	3.99949232976E+01	-1.74088506074E+02	-4.23863041473E+01	-1.78855842997E+02	-6.50302121738E+00	-2.76296747794E+00
3.19002779874E+05	-1.75771417775E+01	-1.38709651867E+01	3.99416261890E+01	-1.74339155134E+02	-3.43440200718E+01	-1.04244543570E+02	-5.82294082039E+00	-1.48447103721E+01
3.19233360850E+05	-1.40944690470E+01	-1.08642878033E+02	4.00397992716E+01	-1.74081741524E+02	-4.15307299293E+01	-3.05986142008E+01	-4.87931060427E+00	-2.58539301061E+00
3.19464108494E+05	-1.13260175270E+01	-9.47440901462E+01	4.00483375290E+01	-1.73779916244E+02	-4.22255524226E+01	9.01091282362E+01	-5.77481197714E+00	5.52158934551E+00
3.19695022927E+05	-1.65353990630E+01	-8.20550402169E+01	4.00072337994E+01	-1.74663873487E+02	-5.82323963185E+01	1.47845085238E+02	-5.83449470152E+00	-8.42199467757E-01
3.19926104268E+05	-1.98352911135E+01	-6.76163563243E+01	3.99792191369E+01	-1.74616053671E+02	-3.82953643936E+01	2.61508335565E+01	-4.64583319744E+00	2.66394454028E+00
3.20157352640E+05	-2.48319247162E+01	-6.37830546453E+01	3.99711910808E+01	-1.74707715034E+02	-4.53136271332E+01	1.21190628206E+02	-5.97036247325E+00	2.06065195582E+00
3.20388768162E+05	-1.51743863801E+01	-9.03215804612E+01	4.00107387668E+01	-1.74219340134E+02	-4.12511478196E+01	1.49117786646E+02	-6.23635994988E+00	2.77763237545E+00
3.20620350955E+05	-2.20533765647E+01	-1.03601624799E+02	4.00075657864E+01	-1.74743683134E+02	-4.13131611530E+01	-8.17327113002E+01	-5.30940276798E+00	-6.77658169404E+00
3.20852101140E+05	-2.24537239785E+01	-9.89905644316E+01	4.00075319078E+01	-1.74567040967E+02	-4.16636029690E+01	5.16322718414E+01	-5.43277744403E+00	1.19877952537E+00
3.21084018839E+05	-1.18422964599E+01	-1.40031780882E+02	4.01072981144E+01	-1.74630849793E+02	-3.87072935736E+01	-9.13834980320E+00	-4.70302236136E+00	-2.64317389271E+00
3.21316104172E+05	-1.54336379287E+01	-6.58227712211E+01	3.99659204846E+01	-1.74313114310E+02	-3.34752431713E+01	7.42456647394E+01	-5.08174784408E+00	1.21498145979E+01
3.21548357261E+05	-1.49772038854E+01	-1.10683250302E+02	4.00390940151E+01	-1.74551028702E+02	-3.22861305928E+01	-2.03392896538E+00	-3.71958403031E+00	-1.87056715399E+00
3.21780778226E+05	-1.45408774858E+01	1.50677541121E+00	3.99317555109E+01	-1.75245040542E+02	-4.33178949232E+01	1.49078928496E+02	-6.26217200754E+00	1.93491718313E+00
3.22013367189E+05	-2.81994005184E+01	-2.93360259358E+01	3.99762220024E+01	-1.75233841371E+02	-4.75090892644E+01	-4.11173786133E+01	-5.46712092552E+00	-1.62573896233E+00
3.22246124272E+05	-1.84335876035E+01	-1.15693899445E+02	4.00250843453E+01	-1.74978720307E+02	-3.14266671958E+01	7.39037981893E+01	-5.27978651748E+00	1.49280114716E+01
3.22479049596E+05	-1.97605018845E+01	-1.04574220662E+02	4.00448688246E+01	-1.75006719265E+02	-3.74782697368E+01	1.22676037447E+01	-4.33226288421E+00	5.56692470464E-01
3.22712143282E+05	-1.22879134139E+01	-4.67889810953E+00	3.98888917051E+01	-1.75121370268E+02	-4.37565795079E+01	-1.61471547025E+02	-6.47118370688E+00	-3.89171086209E+00
3.22945405453E+05	-1.59251256736E+01	-1.58497348150E+02	4.00561852615E+01	-1.75266391659E+02	-4.23885874886E+01	-1.48069325674E+02	-6.45071816219E+00	-4.35293516340E+00
3.23178836230E+05	-1.42524448239E+01	-5.71306510719E+01	3.99452698328E+01	-1.74984021001E+02	-3.86736376161E+01	3.30699209710E+01	-4.78132879761E+00	3.40879403764E+00
3.23412435735E+05	-3.23804024132E+01	1.18725428266E+02	4.00436188536E+01	-1.75647707378E+02	-4.05966537048E+01	-1.70956069014E+02	-6.29569941739E+00	-2.21035816277E+00
3.23646204090E+05	-1.63353722408E+01	-4.43584280142E+01	3.99800080112E+01	-1.75225317915E+02	-3.79243227744E+01	-1.64928465390E+02	-6.99134395286E+00	-1.76751388651E+00
3.23880141417E+05	-1.54013456306E+01	-8.26943227554E+01	4.00130591887E+01	-1.75092078674E+02	-3.58319993592E+01	7.66655547294E+00	-4.31610739438E+00	2.38192919236E+00
3.24114247838E+05	-1.34277730190E+01	-9.06620528529E+01	3.99920857093E+01	-1.74955312671E+02	-3.11324256280E+01	9.30377608673E+01	-5.78106108141E+00	1.78104178277E+01
3.24348523475E+05	-1.50173649758E+01	1.02136408378E+01	3.99194903192E+01	-1.76021887817E+02	-4.17529125242E+01	1.37302381180E+02	-6.36020963816E+00	4.14246702355E+00
3.24582968451E+05	-1.27394844643E+01	-6.21492985696E+01	3.99784550969E+01	-1.75044668135E+02	-4.24214657324E+01	1.40629312252E+02	-6.32694131820E+00	3.37864673395E+00
3.24817582888E+05	-4.04138379206E+01	-1.54447349485E+02	4.00217085228E+01	-1.75939086399E+02	-4.63433286544E+01	-9.55482993393E+01	-5.51011175713E+00	-4.10336373700E+00
3.25052366909E+05	-1.22544699253E+01	-4.60207358357E+01	3.99111491828E+01	-1.75318791675E+02	-4.07745303335E+01	-1.12896952151E+02	-6.15514460416E+00	-7.28123806691E+00
3.25287320635E+05	-1.44461634384E+01	-6.73761471621E+01	3.99871961947E+01	-1.75375771573E+02	-3.92993678110E+01	9.87783902368E+01	-5.77122086258E+00	6.18163885807E+00
3.25522444191E+05	-1.93269493684E+01	-5.09843027710E+01	3.99885675691E+01	-1.75622578713E+02	-4.60452778879E+01	-1.57189411922E+02	-6.31340474652E+00	-2.16442409585E+00
3.25757737698E+05	-9.90622991577E+00	-1.04853802055E+02	4.00589024513E+01	-1.74664631784E+02	-3.64744614290E+01	5.36385368995E+01	-4.97359553491E+00	9.84933323500E+00
3.25993201280E+05	-1.23362332406E+01	9.26756071612E+00	3.99055633669E+01	-1.76113704522E+02	-3.90451409659E+01	-1.44549924083E+02	-6.55721433334E+00	-5.89957246091E+00
3.26228835058E+05	-1.19551799842E+01	-4.15584500214E+01	3.98971230995E+01	-1.75338161209E+02	-5.27338272479E+01	-1.02147602647E+02	-5.91420059030E+00	-9.55543651608E-01
