# Hz S DB R 50
! CMT, M5065, 19127446, 24.2.4/2
! Date: 11/1/2024 4:46:53 PM
! Data: Format (Calibration Info)
! Freq	S11:dB/Ang(F2)	S21:dB/Ang(F2)	S12:dB/Ang(F2)	S22:dB/Ang(F2)
3.00000000000E+05	-1.33226777583E+01	-1.64053420236E+02	2.00013273878E+01	-1.75732332764E+02	-3.56418584917E+01	1.06073196680E+02	-5.92895342413E+00	8.10469099669E-01
3.00216845423E+05	-2.47895596177E+01	-1.67122933553E+02	1.99086715003E+01	-1.75557049252E+02	-3.91833069461E+01	2.94424921499E+01	-5.82382615705E+00	1.45724866327E-01
3.00433847586E+05	-2.40268383634E+01	8.00200009315E+01	1.98385149026E+01	-1.76331791915E+02	-5.93380222134E+01	-1.49860170530E+02	-5.83911203147E+00	-2.90532828423E-01
3.00651006602E+05	-2.75059244751E+01	1.66003850674E+02	1.98303601958E+01	-1.76099661377E+02	-4.07209881705E+01	5.33143832758E+01	-5.81134085257E+00	2.37699693893E-02
3.00868322584E+05	-2.02051800967E+01	-7.17772093098E+01	1.98291300970E+01	-1.75567102189E+02	-4.25042726930E+01	1.47214763681E+01	-5.91237837541E+00	-3.33881034497E-01
3.01085795647E+05	-2.23739237949E+01	1.16547769350E+02	1.98109891267E+01	-1.76203646635E+02	-4.90063011515E+01	-1.15334022973E+02	-5.91273888861E+00	-4.71222930836E-01
3.01303425902E+05	-3.17720818864E+01	-1.47102689765E+02	1.98392842281E+01	-1.75858834464E+02	-3.86017897297E+01	1.20335440044E+01	-5.76852923480E+00	-2.16774945476E-01
3.01521213465E+05	-1.46058861611E+01	-2.61954117148E+01	1.97024974775E+01	-1.75490819595E+02	-4.04478527249E+01	8.61157055727E+01	-5.84544783914E+00	-6.41333042185E-02
3.01739158449E+05	-1.90354243959E+01	1.23694351136E+02	1.98901621326E+01	-1.76513323347E+02	-4.25535835627E+01	-1.25087688715E+02	-5.95911289459E+00	-3.91590087809E-01
3.01957260967E+05	-2.25790634856E+01	3.35829849977E+01	1.97833848323E+01	-1.75931059130E+02	-4.27636597084E+01	-7.76415823541E+01	-5.84704099360E+00	-7.67141738635E-01
3.02175521134E+05	-1.66055858402E+01	-1.51969448281E+02	1.98714192675E+01	-1.75848423674E+02	-4.05055424314E+01	-1.01025099097E+02	-5.91556413489E+00	-9.74790775977E-01
3.02393939063E+05	-1.98184473432E+01	-1.02015119199E+01	1.98337351505E+01	-1.75802807574E+02	-2.49824547454E+01	-7.39282536564E+01	-5.55036308206E+00	-4.95197818570E+00
3.02612514869E+05	-2.38239316299E+01	-1.11075102963E+02	1.98317929736E+01	-1.75549134615E+02	-3.55028296578E+01	-4.50503975193E+01	-5.70588812707E+00	-9.01262105222E-01
3.02831248665E+05	-1.92949994352E+01	-2.51324573679E+00	1.97962862523E+01	-1.75789318034E+02	-5.54846491864E+01	9.49843559244E+01	-5.87551421908E+00	-3.75297389471E-01
3.03050140565E+05	-2.36288522738E+01	-1.21200338147E+02	1.98288060071E+01	-1.75776295279E+02	-4.54342507388E+01	1.56925432618E+02	-5.98434052679E+00	1.58848256435E-01
3.03269190685E+05	-1.34708526023E+01	-6.02084448336E+01	1.97695404672E+01	-1.74935324905E+02	-4.03330725895E+01	-1.58232133033E+01	-5.82580148041E+00	-6.69045332771E-01
3.03488399138E+05	-2.42189752922E+01	5.64069789881E+01	1.97978505565E+01	-1.76445636674E+02	-4.80759823730E+01	9.31596793515E+01	-5.88625696866E+00	1.38658405346E-01
3.03707766039E+05	-2.30672455208E+01	1.14472193168E+02	1.98309144779E+01	-1.76061972660E+02	-4.14486951969E+01	8.40958307687E+01	-5.87795970244E+00	5.31711704969E-02
3.03927291503E+05	-2.58943257043E+01	-8.50564550315E+01	1.98493522520E+01	-1.75759822961E+02	-3.63767765669E+01	-1.55551569121E+02	-6.08577625970E+00	-7.51593342300E-01
3.04146975643E+05	-1.63129637193E+01	-7.39915436676E+00	1.97577543261E+01	-1.76195716830E+02	-3.29816438030E+01	-6.11556108539E+01	-5.72930170059E+00	-1.94409241204E+00
3.04366818575E+05	-1.94211942828E+01	-5.83357371286E+01	1.97766732369E+01	-1.75819993395E+02	-4.21840248823E+01	1.36456332119E+02	-5.92397614589E+00	7.20051246309E-03
3.04586820414E+05	-1.45401698888E+01	-7.15678840040E+01	1.98160509773E+01	-1.75183937180E+02	-3.69055402357E+01	5.90459143306E+01	-5.81238579190E+00	8.24122137404E-01
3.04806981274E+05	-1.52021676780E+01	-1.34631730689E+02	1.99104336729E+01	-1.75450454658E+02	-4.61880079795E+01	-2.44269043330E+01	-5.81671026801E+00	-3.44768882191E-01
3.05027301270E+05	-1.96404128029E+01	9.97417010343E+01	1.98606641786E+01	-1.76380819787E+02	-4.46012571404E+01	5.98020101575E+01	-5.86434731451E+00	1.59860848245E-02
3.05247780517E+05	-2.07659016024E+01	-2.20636802426E+01	1.97368489765E+01	-1.75714384011E+02	-3.73237562984E+01	5.24628057553E+01	-5.80502620071E+00	4.58318257697E-01
3.05468419131E+05	-2.62858108323E+01	1.00951337379E+02	1.98439800948E+01	-1.76100191888E+02	-3.03543637890E+01	1.71306740650E+01	-5.47900343269E+00	7.48565832260E-01
3.05689217226E+05	-2.21907016950E+01	-1.65536579356E+02	1.98851858990E+01	-1.76177721687E+02	-3.25979267155E+01	1.37053730170E+01	-5.52427632335E+00	2.02347813453E-01
3.05910174918E+05	-3.50753741295E+01	5.73129979715E+01	1.98361143181E+01	-1.76347085278E+02	-4.14768546243E+01	-4.97632334451E+01	-5.81748326117E+00	-8.85180696108E-01
3.06131292322E+05	-2.05116524681E+01	1.11927286994E+02	1.98783459711E+01	-1.76654035430E+02	-4.00134914330E+01	1.18584302747E+02	-5.94530939589E+00	4.28141839229E-01
3.06352569554E+05	-1.78116301992E+01	1.65449091925E+02	1.99361588558E+01	-1.76240233985E+02	-4.56864660623E+01	1.07787714812E+02	-5.92726471751E+00	1.89172406542E-01
3.06574006730E+05	-1.83306165244E+01	-1.69432059927E+02	1.99024378778E+01	-1.76159399479E+02	-4.31642443361E+01	8.74627685644E-01	-5.80334451562E+00	-5.56501132249E-01
3.06795603964E+05	-2.11128818384E+01	-2.47209819173E+01	1.98032963592E+01	-1.75985730474E+02	-4.12074443546E+01	-1.15604661566E+02	-5.93461283423E+00	-1.00509435423E+00
3.07017361372E+05	-1.27274838051E+01	-5.78878230588E+00	1.97106157870E+01	-1.76225972545E+02	-4.09561380626E+01	1.10126030589E+02	-6.00767594857E+00	5.43023339083E-01
3.07239279071E+05	-2.09009415700E+01	1.14359631399E+02	1.98355233126E+01	-1.76428041156E+02	-3.61942475252E+01	-1.03742252632E+02	-5.88151178019E+00	-1.96848309703E+00
3.07461357176E+05	-2.53554270984E+01	-1.32024482103E+02	1.98284825193E+01	-1.76125331037E+02	-4.52905659130E+01	-8.29052840293E+01	-5.88480260958E+00	-6.86031812579E-01
3.07683595803E+05	-2.14591326562E+01	-1.13247754652E+02	1.98556834805E+01	-1.76058124891E+02	-3.83841610583E+01	8.69818540413E+01	-5.90758672504E+00	4.78815639247E-01
3.07905995068E+05	-1.43200631547E+01	-6.29109979410E+01	1.97768493785E+01	-1.75303966908E+02	-4.75002648326E+01	-1.39137888981E+02	-5.89288938364E+00	-5.70674131895E-01
3.08128555087E+05	-2.18146780286E+01	-1.92634543952E+01	1.97672429437E+01	-1.76109231335E+02	-5.48879353682E+01	1.26255487130E+02	-5.89055106425E+00	3.41348252095E-02
3.08351275976E+05	-1.79623848654E+01	7.75857821706E+01	1.98101860183E+01	-1.76519835315E+02	-3.78898929167E+01	-8.00935385420E+01	-5.89038123515E+00	-1.36895794503E+00
3.08574157853E+05	-2.32586215009E+01	7.00888151646E+01	1.98111570402E+01	-1.76508746769E+02	-2.99901733776E+01	-1.00928443277E+02	-5.88962460990E+00	-3.77334963373E+00
3.08797200832E+05	-2.08128564200E+01	1.32959740010E+02	1.99092746249E+01	-1.76213888957E+02	-3.50723782934E+01	6.67795860221E+01	-5.74368160340E+00	1.05991524444E+00
3.09020405031E+05	-1.69932172048E+01	2.87842605691E+00	1.97793813618E+01	-1.76434518787E+02	-3.95094115042E+01	3.54809283774E+01	-5.77679665237E+00	4.46693418212E-01
3.09243770566E+05	-2.51360967891E+01	3.55856178619E+01	1.98367984955E+01	-1.76122076015E+02	-3.93118227748E+01	1.79296553626E+02	-5.99186595588E+00	-6.39576520895E-01
3.09467297553E+05	-2.07984598741E+01	7.05693869640E+01	1.98107765369E+01	-1.76702544931E+02	-3.62733565205E+01	-1.20087670169E+02	-6.02073018419E+00	-1.32512228613E+00
3.09690986110E+05	-1.67206578785E+01	4.27590986109E+01	1.98034374214E+01	-1.76527686006E+02	-4.53700894562E+01	-1.04812440349E+02	-5.87700719918E+00	-7.29891513973E-01
3.09914836353E+05	-2.17702489440E+01	9.39240238209E+01	1.98364410087E+01	-1.76614714005E+02	-3.20438811612E+01	-8.09982509433E+00	-5.59253394220E+00	-5.34277868297E-01
3.10138848399E+05	-1.89691850660E+01	-1.84251435355E+01	1.97681680150E+01	-1.76083233974E+02	-4.20921326548E+01	7.95401475488E+01	-5.84919561889E+00	4.87420937737E-01
3.10363022365E+05	-2.95278990385E+01	-1.59783724626E+02	1.98449429279E+01	-1.75959238988E+02	-2.76028712962E+01	-1.10394856500E+02	-5.99773172038E+00	-4.07351860298E+00
3.10587358368E+05	-2.47908396390E+01	1.19450288877E+02	1.98453635039E+01	-1.76384599526E+02	-4.43108986359E+01	-1.20804477748E+02	-5.89725019994E+00	-8.07289002985E-01
3.10811856525E+05	-1.75599311038E+01	1.24415224134E+02	1.98510273418E+01	-1.76691065280E+02	-4.91368108713E+01	7.83155751484E+00	-5.87356288106E+00	-5.60229188488E-02
3.11036516954E+05	-8.52191113861E+00	-8.45730022678E+01	1.97995877763E+01	-1.74501573063E+02	-4.33482898197E+01	-5.14466384444E+01	-5.83653046971E+00	-7.93366765696E-01
3.11261339771E+05	-2.24469145739E+01	-9.43908644762E+01	1.98592767540E+01	-1.75822066082E+02	-5.35978511485E+01	-6.30403717116E+01	-5.84056702555E+00	-4.56380401325E-01
3.11486325094E+05	-2.89346965016E+01	1.44728896206E+02	1.98451059917E+01	-1.76368685546E+02	-4.54696874144E+01	-2.08764074709E+01	-5.86358167904E+00	4.27228991693E-04
3.11711473040E+05	-2.00617706356E+01	1.53315175846E+02	1.98863746785E+01	-1.76650731154E+02	-4.29193322137E+01	-8.55158780048E+01	-5.90460814719E+00	-6.33579847142E-01
3.11936783728E+05	-1.65502202641E+01	-5.44554603456E+01	1.98008667251E+01	-1.75888014139E+02	-3.85428246495E+01	1.31475827431E+02	-6.03444987655E+00	3.54374753926E-01
3.12162257274E+05	-3.06875132811E+01	1.02003526766E+02	1.98497761253E+01	-1.76440111648E+02	-3.81313250370E+01	8.56319412863E+01	-5.94270751952E+00	7.22209804044E-01
3.12387893797E+05	-1.89180531876E+01	1.52068506162E+02	1.99150273882E+01	-1.76748666909E+02	-4.73533774525E+01	1.24545371081E+02	-5.94445048431E+00	-4.11681093869E-02
3.12613693413E+05	-1.27592615721E+01	-6.03354641155E+01	1.97738891196E+01	-1.75354791651E+02	-3.84938945811E+01	-1.75863406297E+02	-5.97931427866E+00	-3.81392544267E-01
3.12839656242E+05	-1.85675664796E+01	4.90605130888E+01	1.98459785700E+01	-1.76802848295E+02	-4.09507796557E+01	-4.37225915791E+01	-5.84352568739E+00	-8.59615235366E-01
3.13065782401E+05	-2.66486793057E+01	1.78531668123E+01	1.98251490396E+01	-1.76290144407E+02	-4.01168987603E+01	4.52514967778E-01	-5.76947386084E+00	-2.84861127342E-01
3.13292072007E+05	-1.69256851668E+01	-3.65171424425E+00	1.97338807458E+01	-1.76148975155E+02	-3.22587946072E+01	-1.03935096996E+02	-5.90494118710E+00	-2.02768173067E+00
3.13518525180E+05	-2.13508671982E+01	4.04021066463E+01	1.98102404138E+01	-1.76517197150E+02	-2.82207031651E+01	-6.41258745913E+01	-5.61413230491E+00	-2.96077273849E+00
3.13745142038E+05	-1.69001911919E+01	-1.08117676082E+01	1.97798928797E+01	-1.76476159780E+02	-4.22537250206E+01	-9.59751587171E+01	-5.92771071003E+00	-1.28178799506E+00
3.13971922698E+05	-1.93409919444E+01	3.01371933884E+01	1.97782592952E+01	-1.76387066413E+02	-4.04560795664E+01	5.17927133086E+01	-5.83571460905E+00	2.66828811469E-01
3.14198867279E+05	-1.73798758016E+01	5.38269891081E+01	1.97891519462E+01	-1.77062302954E+02	-3.92219836651E+01	-1.61716671779E+02	-5.96794006983E+00	-6.09846517935E-01
3.14425975900E+05	-1.48977758521E+01	-1.13893311831E+02	1.98755823658E+01	-1.75823520213E+02	-3.76976812554E+01	-1.31512692205E+01	-5.72725351933E+00	-5.28033713334E-01
3.14653248680E+05	-2.24905257321E+01	9.21313700456E+01	1.98360532643E+01	-1.76490796913E+02	-3.65838978924E+01	6.88770448751E+01	-5.81561526705E+00	9.36340321018E-01
3.14880685736E+05	-2.12239435770E+01	1.36334282783E+02	1.98600163625E+01	-1.76649697878E+02	-5.13116593884E+01	-1.78251133413E+02	-5.94043555080E+00	-2.93363569867E-01
3.15108287188E+05	-3.17439657414E+01	1.74871079758E+02	1.97996016840E+01	-1.76389353311E+02	-2.74570345091E+01	4.49268192026E+01	-5.49378320675E+00	1.86233716879E+00
3.15336053154E+05	-1.92161625729E+01	3.07064146559E+01	1.97463060312E+01	-1.76585120799E+02	-4.45159743781E+01	-1.38762170227E+02	-5.87489645751E+00	-6.48545928952E-01
3.15563983753E+05	-2.57735943758E+01	-3.76111911376E+01	1.97894146326E+01	-1.76144777885E+02	-3.51477396220E+01	-1.20465212781E+02	-5.99236746091E+00	-1.49128587285E+00
3.15792079105E+05	-1.83466717261E+01	7.64792017101E+00	1.97739250683E+01	-1.76358291708E+02	-3.94964398907E+01	-1.21680345603E+02	-5.90730471574E+00	-8.44565757028E-01
3.16020339328E+05	-2.39914645076E+01	-9.04125742373E+01	1.98378334483E+01	-1.76329377792E+02	-4.07269158163E+01	-1.67017455012E+02	-5.98908976116E+00	-1.57540672451E-01
3.16248764542E+05	-3.14714240690E+01	7.11149536960E+01	1.98418354027E+01	-1.76664159855E+02	-4.26053843303E+01	1.37327197566E+02	-5.93370468244E+00	1.40223332294E-01
3.16477354866E+05	-1.78515474349E+01	1.17653250224E+02	1.98987373504E+01	-1.76660187101E+02	-4.94711814940E+01	1.60098441260E+01	-5.75310672991E+00	-3.08360469781E-01
3.16706110419E+05	-2.35959097530E+01	-1.47811714911E+02	1.98275501160E+01	-1.76081765844E+02	-2.72392413458E+01	-8.64392708839E+01	-5.79150648408E+00	-3.93336343576E+00
3.16935031321E+05	-2.40517059261E+01	1.62859048201E+02	1.99083990457E+01	-1.76354539264E+02	-4.19318852489E+01	-1.76998175812E+02	-5.98911713530E+00	-3.46677989241E-01
3.17164117691E+05	-2.10846683784E+01	-7.33828718463E+01	1.98229850892E+01	-1.76153884497E+02	-4.54124463749E+01	1.32443943223E+02	-5.93126315305E+00	7.53907411175E-03
3.17393369648E+05	-2.37770051799E+01	1.60809595468E+02	1.99239448749E+01	-1.76680279947E+02	-4.31817690821E+01	-6.27049962510E+01	-5.84343066020E+00	-8.94387949724E-01
3.17622787313E+05	-2.12643976337E+01	-1.72987979463E+02	1.99135056253E+01	-1.76378062516E+02	-4.22051558711E+01	4.76898651221E+01	-5.84011960428E+00	4.71924449938E-01
3.17852370806E+05	-1.74889774357E+01	3.60578288414E+01	1.97774928673E+01	-1.76861048316E+02	-4.72823033954E+01	1.25969388367E+02	-5.90777524400E+00	1.01994074334E-01
3.18082120245E+05	-2.88252093750E+01	-1.39327802586E+01	1.98426237177E+01	-1.76633627836E+02	-5.29350431792E+01	1.01977327650E+02	-5.88172447675E+00	-3.24697601342E-01
3.18312035752E+05	-2.07301032531E+01	-1.18314555837E+02	1.98643408272E+01	-1.76036795173E+02	-3.64258192765E+01	7.26581387476E+01	-5.85539952968E+00	7.92552105257E-01
3.18542117445E+05	-2.20947159403E+01	1.69473458203E+01	1.97734594987E+01	-1.76571516043E+02	-4.88933194252E+01	2.20124115688E+01	-5.88160340934E+00	-5.80152906976E-01
3.18772365446E+05	-2.03411812156E+01	1.47974680909E+01	1.97097283281E+01	-1.76886031360E+02	-3.71477379261E+01	-9.21457840437E+01	-5.89188802033E+00	-1.05921057268E+00
3.19002779874E+05	-1.52907748901E+01	1.64552596198E+02	1.99185400948E+01	-1.76796282420E+02	-4.50765992408E+01	-1.13954985697E+02	-5.92217223741E+00	-3.62742866785E-01
3.19233360850E+05	-2.39077061239E+01	-5.01805781707E+01	1.98413287513E+01	-1.76133783553E+02	-5.26263344630E+01	2.28169166526E+01	-5.86143893060E+00	-2.98621581917E-01
3.19464108494E+05	-2.51906118950E+01	1.09968045074E+02	1.98824214237E+01	-1.76652295713E+02	-4.23329975700E+01	4.56337972650E+01	-5.82114306293E+00	-8.58218455297E-02
3.19695022927E+05	-2.53083721165E+01	1.27530125686E+02	1.98653262727E+01	-1.76698578798E+02	-3.48302276411E+01	-1.17746864181E+02	-5.96974252065E+00	-1.13147784420E+00
3.19926104268E+05	-2.27976918369E+01	-1.42783770164E+02	1.98464081201E+01	-1.76397036700E+02	-3.12720979828E+01	-1.68529748715E+02	-6.27024226479E+00	-6.83738586141E-01
3.20157352640E+05	-2.66607915525E+01	-1.09614226157E+02	1.98385506550E+01	-1.76436693565E+02	-3.72731800842E+01	7.15130152237E+01	-5.84839535418E+00	9.38100258418E-01
3.20388768162E+05	-3.75526879189E+01	4.56088947808E+01	1.98372049173E+01	-1.76590157995E+02	-3.36320431446E+01	1.55953038753E+02	-6.08670783706E+00	-1.95759774483E-01
3.20620350955E+05	-2.19897480458E+01	1.44667173136E+02	1.98795782547E+01	-1.77294999118E+02	-4.13051520525E+01	8.59700952111E+01	-5.85913603859E+00	4.92903470802E-01
3.20852101140E+05	-1.62464608154E+01	1.27072830168E+02	1.98905226590E+01	-1.77402140302E+02	-3.86323341952E+01	-3.10866267195E+01	-5.78033003271E+00	-7.25537488054E-01
3.21084018839E+05	-2.34407910804E+01	1.61724403150E+02	1.99076437039E+01	-1.76765254258E+02	-4.23165210057E+01	7.68317905123E+01	-5.82127118170E+00	3.30661103333E-02
3.21316104172E+05	-1.88568406673E+01	-1.04036593086E+02	1.98169211960E+01	-1.76154046664E+02	-4.52007986531E+01	-1.38140964579E+02	-5.94884280662E+00	-4.72784400105E-01
3.21548357261E+05	-1.76138832211E+01	5.73285968892E+01	1.97789682652E+01	-1.77149807578E+02	-4.15391424024E+01	-4.20700933116E+01	-5.71889420760E+00	-1.12096305891E+00
3.21780778226E+05	-2.09566279602E+01	-2.21749563032E+01	1.97827228618E+01	-1.76486840135E+02	-3.49469756366E+01	7.85299684857E+01	-5.84766885398E+00	1.26607303781E+00
3.22013367189E+05	-1.92367993939E+01	6.40321759023E+01	1.97951616699E+01	-1.76956733537E+02	-3.39514507741E+01	1.14649122328E+02	-6.00162681026E+00	1.06404122536E+00
3.22246124272E+05	-2.22900080915E+01	6.60890066083E+01	1.98579291667E+01	-1.76972197640E+02	-3.51500434757E+01	-6.09324162519E+00	-5.65784541675E+00	-1.85073081628E-01
3.22479049596E+05	-1.65877952760E+01	-7.41143867702E+01	1.97636449857E+01	-1.76173509260E+02	-4.76482612871E+01	2.44460372748E+01	-5.81838531881E+00	-3.78997516057E-01
3.22712143282E+05	-2.30632860808E+01	2.35324662394E+01	1.98043999158E+01	-1.76723173842E+02	-5.43324693545E+01	-5.20777829154E+01	-5.88025344780E+00	-7.90119001826E-01
3.22945405453E+05	-1.78176049551E+01	-1.60308153692E+00	1.97517975765E+01	-1.76528312182E+02	-4.15572930969E+01	-3.74314962601E+01	-5.82520143102E+00	-4.50860912730E-01
3.23178836230E+05	-2.06222092854E+01	1.63949064544E+02	1.98718413234E+01	-1.77138751983E+02	-4.08409391140E+01	-1.43222772347E+02	-6.00432678355E+00	-1.51233863369E+00
3.23412435735E+05	-1.99801997347E+01	3.86823951104E+01	1.97999782750E+01	-1.76934474156E+02	-4.43791514803E+01	-1.27555531887E+02	-5.98505864392E+00	-1.13330518436E+00
3.23646204090E+05	-3.29028316453E+01	1.43264558796E+02	1.98605621742E+01	-1.76595768589E+02	-3.72785530697E+01	-2.15771062568E+01	-5.77806911157E+00	-7.80616886558E-01
3.23880141417E+05	-1.49106733023E+01	9.36209846109E+01	1.98636376804E+01	-1.77444411017E+02	-4.50865469856E+01	-5.69218051771E+01	-5.85813083666E+00	-3.85515372037E-01
3.24114247838E+05	-1.77409446095E+01	7.41222768045E+01	1.97797013061E+01	-1.76913538318E+02	-4.20756285199E+01	-6.68625202536E+01	-5.84402976562E+00	-7.14706273819E-01
3.24348523475E+05	-2.10263331998E+01	1.11963120439E+01	1.97864669758E+01	-1.76746915713E+02	-4.09086849601E+01	7.46154589099E+01	-5.84327916133E+00	3.48327844016E-01
3.24582968451E+05	-1.72277629110E+01	-8.76814840630E+01	1.98143996620E+01	-1.76308840051E+02	-4.79570979834E+01	1.30600146176E+02	-5.90748089640E+00	-2.81366633847E-01
3.24817582888E+05	-2.28597033317E+01	8.13699334614E+00	1.97902683565E+01	-1.76686252025E+02	-3.97898007147E+01	1.03658457945E+01	-5.80274026056E+00	-4.08104934096E-01
3.25052366909E+05	-1.49068775081E+01	-4.46626050536E+01	1.97914192308E+01	-1.76268467794E+02	-4.13812040593E+01	-1.16737311576E+02	-5.92099322327E+00	-8.12218731424E-01
3.25287320635E+05	-2.44772240573E+01	-3.70458178201E+01	1.98117405136E+01	-1.76609642908E+02	-3.49242907080E+01	-9.99433974901E+01	-5.91495244989E+00	-1.83997945713E+00
3.25522444191E+05	-1.83681317918E+01	5.32707013503E+01	1.98345006075E+01	-1.77228032503E+02	-5.05360017921E+01	-1.72952561415E+02	-5.96924146015E+00	-4.21610397903E-01
3.25757737698E+05	-1.95403557227E+01	-1.69741817866E+02	1.99193453739E+01	-1.76709788458E+02	-3.42475471420E+01	-7.87949808829E+01	-5.84202862496E+00	-1.41252440870E+00
3.25993201280E+05	-1.99919245194E+01	6.94343404577E+01	1.97917677924E+01	-1.77220036039E+02	-4.06836056474E+01	-1.26248385124E+02	-5.91790870490E+00	-7.61719608578E-01
3.26228835058E+05	-1.94038403828E+01	-4.83281384907E+01	1.98310181076E+01	-1.76630963744E+02	-3.61011467883E+01	-6.22048343021E+01	-5.78411799463E+00	-1.22002344618E+00
