# Hz S DB R 50
! CMT, M5065, 19127446, 24.2.4/2
! Date: 11/1/2024 4:45:45 PM
! Data: Format (Calibration Info)
! Freq	S11:dB/Ang(F2)	S21:dB/Ang(F2)	S12:dB/Ang(F2)	S22:dB/Ang(F2)
3.00000000000E+05	-2.24166725407E+01	2.82325706979E+00	1.81664754792E+01	-1.76281390901E+02	-3.54695191227E+01	-1.52621294502E+02	-6.04071567353E+00	-9.29960788830E-01
3.00216845423E+05	-1.89034121119E+01	9.61361430980E+01	1.82468830314E+01	-1.76755352161E+02	-3.18264319975E+01	1.67357944918E+02	-6.27008596027E+00	3.50846260269E-01
3.00433847586E+05	-1.26419462575E+01	-1.75873113272E+02	1.83695863640E+01	-1.76268993415E+02	-4.33139070484E+01	1.04954437439E+01	-5.83184305842E+00	-2.75702947328E-01
3.00651006602E+05	-1.37838800333E+01	-8.57062941359E+01	1.82099650580E+01	-1.75736155356E+02	-4.10850473888E+01	3.46474850939E+01	-5.83708368091E+00	4.39292444800E-02
3.00868322584E+05	-1.90867775037E+01	-5.64990904148E+00	1.81798327731E+01	-1.76196262605E+02	-4.69284234045E+01	1.10544320433E+02	-5.89210057439E+00	5.19275783769E-02
3.01085795647E+05	-1.90886003848E+01	1.46065868360E+02	1.82841185540E+01	-1.76756228877E+02	-3.68979699626E+01	-1.56051692806E+02	-5.95339827679E+00	-4.78985657459E-01
3.01303425902E+05	-2.94748807966E+01	4.15995017155E+01	1.82241906085E+01	-1.76612040461E+02	-4.04758175198E+01	1.58696447938E+02	-5.91380767333E+00	-1.19087910774E-01
3.01521213465E+05	-2.19441568711E+01	1.52189286370E+02	1.82476032673E+01	-1.76640198882E+02	-3.83891766046E+01	1.55516986648E+02	-6.01471168585E+00	-1.42637614333E-01
3.01739158449E+05	-1.43628939487E+01	8.50621987760E+01	1.82522461877E+01	-1.77187893276E+02	-3.77069534227E+01	9.05743955335E+01	-5.87017820637E+00	3.32794076034E-01
3.01957260967E+05	-1.42934636106E+01	4.71099034001E+01	1.81257176875E+01	-1.76978572326E+02	-4.05629395452E+01	-5.32838717100E+01	-5.81627522328E+00	-8.71142774969E-01
3.02175521134E+05	-3.27940305743E+01	9.21088930443E+01	1.81926735249E+01	-1.76360630487E+02	-4.16303247038E+01	6.31870531161E+01	-5.92977927218E+00	-2.23346735953E-03
3.02393939063E+05	-2.46846152765E+01	-1.66620675189E+01	1.82185626729E+01	-1.76583358987E+02	-4.33706662223E+01	-1.14656366696E+02	-5.92979858612E+00	-2.98652404496E-01
3.02612514869E+05	-2.42272016609E+01	-1.73466431600E+02	1.82662757057E+01	-1.76192572840E+02	-3.98669039520E+01	4.04236348330E+01	-5.82555358373E+00	2.02983152290E-01
3.02831248665E+05	-1.75269589370E+01	3.27490006018E+01	1.81567809995E+01	-1.76765202905E+02	-4.03506063503E+01	-8.03608852468E+01	-5.82030885840E+00	-9.38989817625E-01
3.03050140565E+05	-2.25437924275E+01	1.64319155877E+02	1.82622448760E+01	-1.76652426618E+02	-3.53925794431E+01	8.31199885331E+01	-5.87924035011E+00	4.18909491610E-01
3.03269190685E+05	-1.43575250747E+01	1.42799131054E+02	1.83312516257E+01	-1.77050415953E+02	-4.68008869166E+01	1.08497774033E+02	-5.88909583603E+00	4.49639539226E-02
3.03488399138E+05	-3.66099193261E+01	-1.05534053833E+02	1.82000446676E+01	-1.76562814480E+02	-3.95091111920E+01	-4.20423667344E+01	-5.79230168444E+00	-9.34028871134E-01
3.03707766039E+05	-2.43623565575E+01	4.25310137339E+01	1.82426472680E+01	-1.76376466367E+02	-3.67645285304E+01	4.56945392437E+01	-5.82258301194E+00	3.85139460389E-01
3.03927291503E+05	-2.28853297176E+01	-4.42091573066E+01	1.81964751059E+01	-1.76333278672E+02	-4.63330017518E+01	-7.64622358546E+01	-5.83102222637E+00	-7.61911673120E-01
3.04146975643E+05	-1.70423923779E+01	5.80058833332E+00	1.81240981532E+01	-1.76627301556E+02	-4.05894173621E+01	4.13882913162E+01	-5.82431000499E+00	1.57300067763E-01
3.04366818575E+05	-1.86276285702E+01	1.26983321622E+02	1.82582056787E+01	-1.76987267552E+02	-3.91616313787E+01	-5.77085361616E+01	-5.84145841214E+00	-9.73403718855E-01
3.04586820414E+05	-2.02283260473E+01	3.15839269694E+01	1.81997140380E+01	-1.76410874495E+02	-3.85468654267E+01	-1.76631457084E+02	-5.98284351599E+00	-2.86837915330E-01
3.04806981274E+05	-1.53273699610E+01	8.88037470720E+01	1.82023257620E+01	-1.76903901228E+02	-3.08634697027E+01	1.47044561159E+01	-5.65986681862E+00	1.98957043672E-01
3.05027301270E+05	-1.62034534796E+01	-1.41137586192E+02	1.83460592395E+01	-1.76085700430E+02	-3.47100965122E+01	8.26314309934E+01	-5.86297116892E+00	9.17166478948E-01
3.05247780517E+05	-2.83345954190E+01	1.64984892754E+02	1.82508883351E+01	-1.76693085792E+02	-4.10586318270E+01	-6.48775472683E+01	-5.82717233681E+00	-4.47856002998E-01
3.05468419131E+05	-2.92484634155E+01	-1.68741297301E+02	1.82464890960E+01	-1.76399446975E+02	-4.72439739198E+01	-1.58045880694E+01	-5.86619945834E+00	-3.68080323722E-01
3.05689217226E+05	-2.52538217405E+01	-3.41828870486E+01	1.81827234065E+01	-1.76231983133E+02	-3.68444195875E+01	-7.05025153562E+01	-5.86407790729E+00	-9.52688993053E-01
3.05910174918E+05	-2.35606865104E+01	6.26705279264E+01	1.82040938820E+01	-1.76640524816E+02	-3.12280183733E+01	1.03491929506E+02	-5.94089683428E+00	1.39725712894E+00
3.06131292322E+05	-1.99664607937E+01	-7.28759145444E+00	1.81765933085E+01	-1.76690955745E+02	-4.74264642105E+01	-5.30705808131E+01	-5.88735544929E+00	-7.38076374561E-01
3.06352569554E+05	-2.07065674923E+01	2.89518321490E+01	1.81603429672E+01	-1.76755701947E+02	-3.78872534296E+01	-1.29050885263E+02	-5.95535095127E+00	-6.82399607548E-01
3.06574006730E+05	-1.40717276809E+01	1.20465590778E+02	1.83189304654E+01	-1.77072144607E+02	-4.27993000470E+01	1.37433149036E+02	-5.84899994882E+00	8.55899321374E-02
3.06795603964E+05	-2.59835670296E+01	8.95013710517E+01	1.82109454727E+01	-1.76896046733E+02	-4.18660314686E+01	1.76258424632E+02	-5.97285653848E+00	-3.46429745347E-01
3.07017361372E+05	-1.74691404122E+01	6.85518513304E+01	1.82413432998E+01	-1.76753635323E+02	-4.20722657992E+01	-4.80151046998E+01	-5.81926833829E+00	-5.34077888615E-01
3.07239279071E+05	-2.57988734021E+01	-1.36269027480E+02	1.82595347220E+01	-1.76635069088E+02	-4.54468840493E+01	1.55289013913E+01	-5.82620739543E+00	1.24644872322E-01
3.07461357176E+05	-1.62799001976E+01	-1.45151631166E+02	1.82949872864E+01	-1.76350033746E+02	-3.59796295366E+01	-1.27264218164E+02	-5.96422740396E+00	-7.56065681261E-01
3.07683595803E+05	-3.15110998669E+01	1.24345923358E+02	1.82174641448E+01	-1.76838015170E+02	-3.78972390737E+01	-6.12599432775E+01	-5.76060658610E+00	-9.99553078688E-01
3.07905995068E+05	-1.22971504334E+01	7.27706534024E+01	1.81821681605E+01	-1.77458481778E+02	-2.79194909762E+01	7.23973355003E+01	-5.74694461059E+00	2.44605615773E+00
3.08128555087E+05	-1.39466285692E+01	-5.18323468501E+01	1.81189554394E+01	-1.76053384373E+02	-2.99030249926E+01	-1.06322309588E+02	-5.98273042694E+00	-2.48890478250E+00
3.08351275976E+05	-3.69945206312E+01	-6.01201031082E+00	1.82114183867E+01	-1.76589765228E+02	-4.42086160848E+01	-3.66445973883E+01	-5.85485160212E+00	-1.91721705137E-01
3.08574157853E+05	-1.68039026590E+01	4.07590585883E+01	1.81357368124E+01	-1.76893856726E+02	-3.69316517325E+01	-1.59832423179E+02	-5.93924505272E+00	-1.67232865301E-01
3.08797200832E+05	-1.75120173165E+01	1.20166662286E+02	1.82768044543E+01	-1.76942893272E+02	-3.80315721992E+01	2.25969999303E+01	-5.79359976063E+00	1.95408646302E-01
3.09020405031E+05	-2.44724644139E+01	6.60196150255E+01	1.81711921387E+01	-1.76752087281E+02	-4.00425841691E+01	-3.31044637219E+01	-5.80577192523E+00	-3.44239229805E-01
3.09243770566E+05	-3.25862017002E+01	2.93854991704E+01	1.82145190312E+01	-1.76769525482E+02	-4.49100137778E+01	-1.25262802947E+02	-5.90943451719E+00	-9.12675449001E-01
3.09467297553E+05	-2.90795087368E+01	2.26414335263E+00	1.81921039298E+01	-1.76182548384E+02	-3.43757113579E+01	-8.72219019586E+01	-5.82270992319E+00	-1.47172802948E+00
3.09690986110E+05	-2.12476835876E+01	1.21686273297E+01	1.81619858421E+01	-1.76593805863E+02	-3.65946039832E+01	9.27043150455E+01	-5.80901208245E+00	8.26168628940E-01
3.09914836353E+05	-1.44809774503E+01	3.76104694384E+01	1.81327295573E+01	-1.77076856235E+02	-4.16906966122E+01	-1.10675463762E+01	-5.81072631544E+00	-4.98211296466E-01
3.10138848399E+05	-1.75347005944E+01	1.39980932802E+02	1.83194135882E+01	-1.77241507237E+02	-4.37599171515E+01	-1.76391691887E+02	-5.91183958451E+00	-4.20858292147E-01
3.10363022365E+05	-2.80245174857E+01	-4.61014255396E+01	1.82525362295E+01	-1.76294484610E+02	-4.08261938716E+01	1.06431942705E+02	-5.89103396251E+00	-1.23885523720E-02
3.10587358368E+05	-1.51104638852E+01	-1.54496846975E+02	1.83058221394E+01	-1.76254646943E+02	-4.71370758317E+01	-7.14778210864E+01	-5.89482408844E+00	-3.24628107190E-01
3.10811856525E+05	-1.95586970315E+01	5.01322432359E+01	1.82406291606E+01	-1.76966373901E+02	-3.45279551930E+01	-1.55989263071E+01	-5.71948338477E+00	-3.58262254784E-01
3.11036516954E+05	-1.78358974358E+01	6.20314764421E+01	1.82344816160E+01	-1.77192711901E+02	-3.42690016329E+01	8.67441626186E+01	-5.94638179533E+00	1.20714125609E+00
3.11261339771E+05	-2.25894875723E+01	7.64328297586E+01	1.81857958263E+01	-1.77166226636E+02	-3.88912453331E+01	-1.16320603243E+02	-5.85345166801E+00	-1.25635402482E+00
3.11486325094E+05	-3.64721690801E+01	-1.53165748237E+02	1.82536634304E+01	-1.76577839379E+02	-3.51055434317E+01	1.31045105941E+02	-6.00275073264E+00	-1.63913422561E-02
3.11711473040E+05	-2.57476244642E+01	-1.10474654360E+02	1.82498525476E+01	-1.76248369683E+02	-3.71283262617E+01	-9.12615714177E+01	-5.88774043859E+00	-9.38901578860E-01
3.11936783728E+05	-2.66679133426E+01	-7.36259784973E+01	1.82725047063E+01	-1.76442578118E+02	-3.79484637864E+01	4.79957410239E+01	-5.81838325017E+00	3.11882462800E-01
3.12162257274E+05	-1.42307955408E+01	-6.25641212306E+00	1.81695082741E+01	-1.76442017217E+02	-5.20536053605E+01	1.36031880206E+02	-5.87965707657E+00	-4.02188621579E-01
3.12387893797E+05	-2.25635268219E+01	9.94608172313E+01	1.82644834612E+01	-1.76867003364E+02	-4.29544968780E+01	1.69273144457E+02	-5.95022812226E+00	-3.97362026805E-01
3.12613693413E+05	-2.18936816630E+01	-2.13779881978E+01	1.81951930860E+01	-1.76539154565E+02	-3.27825393311E+01	-6.19756863391E+01	-5.75766388906E+00	-2.53686264632E+00
3.12839656242E+05	-1.77617485997E+01	4.50230997434E+01	1.81732800233E+01	-1.77201324034E+02	-3.23937450910E+01	6.30870880913E+01	-5.80201306192E+00	1.46864160235E+00
3.13065782401E+05	-1.85823627818E+01	-6.10633578258E+01	1.82071218756E+01	-1.76382033591E+02	-4.38737871066E+01	-1.04052969898E+02	-5.93470437859E+00	-7.72050356032E-01
3.13292072007E+05	-2.50193063072E+01	-9.65491626941E+01	1.82670481780E+01	-1.76601287657E+02	-5.40187774242E+01	1.42965150308E+02	-5.94829737151E+00	-2.34396795417E-01
3.13518525180E+05	-2.36530731902E+01	7.89761200851E+01	1.82108295942E+01	-1.76610154448E+02	-3.75021656169E+01	-1.53771166106E+00	-5.76515732431E+00	-4.53167857467E-01
3.13745142038E+05	-3.54962131436E+01	4.15883065642E+01	1.81936376396E+01	-1.76610877265E+02	-4.45557723240E+01	-1.53568779749E+02	-5.91438569624E+00	-3.93998934173E-01
3.13971922698E+05	-2.31924128569E+01	2.17716417023E+00	1.81884491789E+01	-1.76716437872E+02	-3.97481697812E+01	-1.58365429047E+02	-5.99580609902E+00	-4.72571751422E-01
3.14198867279E+05	-2.25458561706E+01	-2.95974674220E+01	1.82090614728E+01	-1.76638103750E+02	-3.18858728108E+01	-1.64933041117E+02	-6.17573275158E+00	-9.28342313676E-01
3.14425975900E+05	-1.38447979884E+01	3.15354130402E+01	1.81111962569E+01	-1.77090317856E+02	-2.55292915733E+01	5.71148696086E+01	-5.52794967783E+00	2.61898681757E+00
3.14653248680E+05	-1.38778180429E+01	-2.44576792145E+01	1.80881071597E+01	-1.76552079515E+02	-4.06904701899E+01	-1.41408292887E+02	-5.99052406496E+00	-6.59819964555E-01
3.14880685736E+05	-1.91519994474E+01	-1.39185606131E+02	1.83128714906E+01	-1.76491739665E+02	-3.33764032736E+01	-2.54345323235E+01	-5.66232970010E+00	-7.28944223118E-01
3.15108287188E+05	-2.75214898591E+01	-1.76107015840E+01	1.81915535061E+01	-1.76553925762E+02	-3.97952137234E+01	-3.03909758106E+01	-5.81061723656E+00	-4.53727892216E-01
3.15336053154E+05	-1.82586797612E+01	-1.12016980195E+02	1.82810354667E+01	-1.76295058288E+02	-4.69688064234E+01	-5.06411280036E+00	-5.84505275047E+00	-3.50034927536E-01
3.15563983753E+05	-3.10397375416E+01	1.06031001583E+02	1.82571501911E+01	-1.76941939997E+02	-3.26576710852E+01	-1.10542941699E+02	-5.96793946009E+00	-1.61933841573E+00
3.15792079105E+05	-1.83602420497E+01	1.52974878905E+02	1.82944906940E+01	-1.77140029975E+02	-3.46731816771E+01	7.71966095509E+01	-5.84461675665E+00	5.82078292074E-01
3.16020339328E+05	-1.43163577320E+01	-1.80588741071E+01	1.81258267964E+01	-1.76598078797E+02	-2.88702665997E+01	3.20105742502E+01	-5.50161947733E+00	1.43366691080E+00
3.16248764542E+05	-1.14160276542E+01	-1.65716858453E+02	1.84089471719E+01	-1.76467971587E+02	-3.67936151745E+01	-7.94614564894E+01	-5.86633688106E+00	-1.18602018084E+00
3.16477354866E+05	-1.88051837450E+01	-2.81882698348E+01	1.81656752064E+01	-1.76748877497E+02	-3.64754941398E+01	-7.95113610123E+01	-5.86505037487E+00	-1.05084530367E+00
3.16706110419E+05	-1.86225642859E+01	1.43738443759E+01	1.81945398277E+01	-1.76986775278E+02	-4.03106479920E+01	1.31445538926E+02	-5.93247770934E+00	1.59219195527E-01
3.16935031321E+05	-2.52080432014E+01	-9.08550215774E+01	1.82525643271E+01	-1.76592650121E+02	-3.30031969195E+01	1.47241676317E+02	-6.03832585305E+00	3.60545739371E-01
3.17164117691E+05	-2.08847538871E+01	-9.23386807991E+01	1.82573558355E+01	-1.76726844874E+02	-4.52810573412E+01	1.66504462792E+01	-5.81826799213E+00	1.25678918898E-01
3.17393369648E+05	-1.78355054714E+01	1.16608213130E+02	1.82676414248E+01	-1.77463516561E+02	-3.41973539546E+01	-6.59509121951E+01	-5.77085073038E+00	-1.56434247380E+00
3.17622787313E+05	-1.61927945429E+01	-4.30852221209E+01	1.82186765477E+01	-1.76222289846E+02	-3.14438528934E+01	6.66496595965E+01	-5.79947079828E+00	1.81068225617E+00
3.17852370806E+05	-1.33914683381E+01	-8.94266290065E+01	1.82878731155E+01	-1.75922177245E+02	-3.43768445746E+01	-1.52538325370E+02	-6.00236551042E+00	-5.77881286622E-01
3.18082120245E+05	-1.27684300299E+01	1.13209179301E+01	1.80970275706E+01	-1.76927324653E+02	-4.51310870176E+01	-1.08582682907E+02	-5.90077594440E+00	-5.93316606057E-01
3.18312035752E+05	-2.39770603701E+01	1.36720706941E+02	1.82561141750E+01	-1.76952205938E+02	-4.02617430921E+01	8.84384302444E+01	-5.88579276127E+00	3.34379119673E-01
3.18542117445E+05	-3.09069140410E+01	1.41358197598E+02	1.82342949401E+01	-1.76925905800E+02	-4.10765031146E+01	-1.43622881219E+02	-5.96004338255E+00	-2.60915061520E-01
3.18772365446E+05	-2.18715205929E+01	-8.84180457489E+01	1.82425041015E+01	-1.76424382606E+02	-3.88431129991E+01	1.07730254700E+01	-5.79199127253E+00	-3.08429389697E-01
3.19002779874E+05	-1.61463910736E+01	8.92759030509E+01	1.82649938525E+01	-1.77467950088E+02	-3.60981028824E+01	-1.66712136640E+02	-6.07979061094E+00	-1.81949120079E-02
3.19233360850E+05	-1.97732370723E+01	6.32402892903E+01	1.81535298519E+01	-1.77210218373E+02	-4.77245493533E+01	2.03693387603E+01	-5.88297718022E+00	-3.88438922431E-01
3.19464108494E+05	-8.32833052664E+00	1.69894195979E+01	1.79650346400E+01	-1.77402329527E+02	-4.30539681501E+01	1.07221671461E+02	-5.92239089216E+00	2.77200764674E-01
3.19695022927E+05	-3.08883490195E+01	-8.76074634991E+01	1.82093353602E+01	-1.76780874854E+02	-3.70316586198E+01	-1.81918470676E+01	-5.80931366767E+00	-7.86722803122E-01
3.19926104268E+05	-2.03458738853E+01	-2.39597423829E+01	1.81861433320E+01	-1.76860364028E+02	-4.84002025901E+01	-8.17046946299E-01	-5.87702254255E+00	-4.01648466059E-01
3.20157352640E+05	-2.44694478677E+01	3.77906562515E+01	1.82145194457E+01	-1.77061439057E+02	-4.32814966176E+01	-4.58595108721E+01	-5.79616248542E+00	-5.81626823479E-01
3.20388768162E+05	-1.71242055261E+01	-5.77289253605E+01	1.81964301516E+01	-1.76382255046E+02	-3.78496049063E+01	7.88980906650E+01	-5.88144157821E+00	4.80533548377E-01
3.20620350955E+05	-1.56144946525E+01	1.14880245900E+02	1.82615601842E+01	-1.77564655606E+02	-4.94674505236E+01	6.70358909678E-01	-5.85813406225E+00	-7.99558907324E-02
3.20852101140E+05	-1.66411136139E+01	5.43179009836E+01	1.81834657531E+01	-1.77410461148E+02	-3.57878373614E+01	5.57300194612E+01	-5.73934301648E+00	7.85291054694E-01
3.21084018839E+05	-1.14962303652E+01	-1.68894808873E+01	1.80078261931E+01	-1.76427060495E+02	-3.73611110233E+01	-1.29138284215E+02	-5.89560059138E+00	-1.01838512049E+00
3.21316104172E+05	-2.66539305958E+01	-1.22832327175E+02	1.82472710309E+01	-1.76726397754E+02	-3.50718445464E+01	4.24396566208E+00	-5.75760699291E+00	-1.75440451450E-01
3.21548357261E+05	-1.96937743889E+01	9.69832315757E+01	1.82652311051E+01	-1.77278457977E+02	-4.35009530097E+01	4.52280286468E+01	-5.85261058833E+00	-1.84185360656E-01
3.21780778226E+05	-3.09781185863E+01	8.71876270426E+01	1.82181382187E+01	-1.76866258354E+02	-3.80906752218E+01	8.73164957601E+01	-5.91700774769E+00	5.40951335245E-01
3.22013367189E+05	-2.34785639600E+01	1.03605120704E+02	1.82436777724E+01	-1.77072177907E+02	-4.13574827392E+01	2.94784141184E+01	-5.78861620172E+00	2.54892357418E-01
3.22246124272E+05	-2.08401415210E+01	-1.37911632726E+02	1.82389084743E+01	-1.76936197882E+02	-4.37234942820E+01	-5.48022231305E+01	-5.82401546394E+00	-6.20694929266E-01
3.22479049596E+05	-1.08111490159E+01	1.26189375715E+01	1.80077344988E+01	-1.77162847831E+02	-3.00370758972E+01	1.16069546192E+01	-5.51251192879E+00	4.04592155188E-01
3.22712143282E+05	-1.88193421973E+01	1.45158186279E+02	1.82841329315E+01	-1.77359618842E+02	-3.69486901158E+01	9.89510088880E+01	-5.97208669504E+00	3.19870632016E-01
3.22945405453E+05	-2.71347445898E+01	5.20841281867E+01	1.82353438141E+01	-1.76939455912E+02	-4.02235899837E+01	-7.02917365002E+01	-5.86839937856E+00	-4.67430201879E-01
3.23178836230E+05	-2.95031780222E+01	-1.32816079588E+02	1.82509109117E+01	-1.76912848428E+02	-3.97767720158E+01	1.32345353209E+02	-5.93814250941E+00	-2.61257023390E-01
3.23412435735E+05	-1.79266412735E+01	4.27770189231E+01	1.81891962976E+01	-1.77238710641E+02	-3.89519007031E+01	1.31392734641E+02	-5.94926313522E+00	2.76190699972E-01
3.23646204090E+05	-2.91990184374E+01	-6.53967015872E+01	1.82330786807E+01	-1.77112285434E+02	-4.05040204822E+01	-8.65017155084E+01	-5.85860153123E+00	-7.67742688286E-01
3.23880141417E+05	-1.76681716822E+01	-1.05810171596E+02	1.82608907716E+01	-1.76598923784E+02	-5.26578410776E+01	6.03469319496E+01	-5.88514429449E+00	-4.15400908691E-01
3.24114247838E+05	-1.11710027115E+01	-6.33167582421E+01	1.81353824817E+01	-1.75663089651E+02	-2.89926652543E+01	3.43109235273E+01	-5.59780575222E+00	1.33816401744E+00
3.24348523475E+05	-7.53355753411E+00	9.72927294922E+01	1.83141290292E+01	-1.78818863336E+02	-3.59553871040E+01	1.49616568229E+02	-5.99849920421E+00	2.45429349107E-01
3.24582968451E+05	-2.18449662445E+01	9.64675590535E+01	1.82356342046E+01	-1.77185782151E+02	-4.52038336417E+01	1.07110221992E+02	-5.88117719789E+00	-1.91684038474E-02
3.24817582888E+05	-2.35820895813E+01	-1.67946389860E+02	1.82896868634E+01	-1.77137497327E+02	-4.21772881265E+01	-7.49443599044E+01	-5.84611086202E+00	-6.35619304209E-01
3.25052366909E+05	-2.03985615105E+01	7.63140557811E+01	1.82075713365E+01	-1.77463255285E+02	-3.64699069613E+01	-4.81096932832E+01	-5.80755293971E+00	-9.20249756364E-01
3.25287320635E+05	-1.85457811069E+01	-1.13576106229E+02	1.82581928936E+01	-1.76761688325E+02	-4.15133695570E+01	1.04216868858E+01	-5.81985281521E+00	-3.64415686167E-01
3.25522444191E+05	-2.29308688087E+01	1.19269532034E+02	1.82526387365E+01	-1.77288965363E+02	-3.91110552353E+01	-1.76307887378E+01	-5.79937420126E+00	-4.74437008220E-01
3.25757737698E+05	-1.93058249528E+01	1.26762794729E+02	1.83119441485E+01	-1.77576718943E+02	-3.94769302314E+01	8.67063138697E+01	-5.86114166748E+00	4.24769855853E-01
3.25993201280E+05	-1.73282259683E+01	-1.79346314588E+02	1.83793255597E+01	-1.76983797704E+02	-3.64214856930E+01	-2.56265713718E+01	-5.75645038618E+00	-6.62736160108E-01
3.26228835058E+05	-2.04300278767E+01	8.75387262954E+01	1.82432179579E+01	-1.77257806321E+02	-3.57750596349E+01	8.93270018797E+01	-5.87425111551E+00	5.18504014535E-01
