# Hz S DB R 50
! CMT, M5065, 19127446, 24.2.4/2
! Date: 11/1/2024 4:29:00 PM
! Data: Format (Calibration Info)
! Freq	S11:dB/Ang(F2)	S21:dB/Ang(F2)	S12:dB/Ang(F2)	S22:dB/Ang(F2)
3.00000000000E+05	-1.20488920648E+01	-5.41804921735E+01	8.32684464850E+00	-1.76063838040E+02	-4.56173725079E+01	9.35149851716E+01	-5.88772867715E+00	6.51454921030E-02
3.00216845423E+05	-2.82711313300E+01	-5.55677740639E+01	8.48869145784E+00	-1.77290291648E+02	-4.22509106486E+01	3.57672527497E+01	-5.84775544148E+00	-1.15586732143E-01
3.00433847586E+05	-2.58228294838E+01	8.94933756455E+01	8.51139701772E+00	-1.77933019006E+02	-4.23472974268E+01	-1.78117222581E+02	-5.93322085571E+00	-2.06968179501E-01
3.00651006602E+05	-1.99195341639E+01	1.40474343905E+02	8.53012548295E+00	-1.77962471565E+02	-3.13427638122E+01	-3.66467233119E+01	-5.78788962537E+00	-5.58908168582E-01
3.00868322584E+05	-2.05088840527E+01	2.17489649062E+01	8.44490905817E+00	-1.77738355048E+02	-3.41432747253E+01	1.40127990098E+01	-5.85882172647E+00	-3.46753791147E-01
3.01085795647E+05	-2.15182850676E+01	1.49710081244E+02	8.54385581627E+00	-1.77733135806E+02	-3.77979967140E+01	-1.41165284799E+02	-5.90419242466E+00	-2.38983081708E-01
3.01303425902E+05	-1.50193454467E+01	-1.40995258767E+02	8.58836270282E+00	-1.76931419409E+02	-4.17353593145E+01	-5.39017026671E+01	-5.89824742970E+00	-4.11397429193E-01
3.01521213465E+05	-1.00339127147E+01	9.83157585814E+01	8.53666858191E+00	-1.79291461762E+02	-4.40500764534E+01	1.20586720723E+02	-5.89352143158E+00	-1.26957610639E-02
3.01739158449E+05	-1.70880163861E+01	-1.57631873257E+02	8.56820605557E+00	-1.77476074073E+02	-4.50770420954E+01	-1.22110624857E+02	-5.90338217050E+00	-3.40413955424E-01
3.01957260967E+05	-2.01860779313E+01	2.28601915881E+01	8.43994172520E+00	-1.77773067754E+02	-4.24006221469E+01	-1.30344094991E+02	-5.93440931962E+00	-4.15121791285E-01
3.02175521134E+05	-2.72723091691E+01	1.28326246260E+02	8.44946747262E+00	-1.77835656011E+02	-2.90662949952E+01	2.14757039447E+00	-5.79482856319E+00	-3.23024408946E-01
3.02393939063E+05	-1.88167520230E+01	9.00345514983E+01	8.42318528177E+00	-1.78248840856E+02	-3.31639901676E+01	8.87287926268E+01	-5.88254898173E+00	3.93796138116E-01
3.02612514869E+05	-2.15896650393E+01	6.96484941848E+00	8.46758248144E+00	-1.77469053849E+02	-4.61991762089E+01	-9.30614591182E+01	-5.89846281013E+00	-4.71378107336E-01
3.02831248665E+05	-2.37963239608E+01	7.23811814002E+01	8.44914838025E+00	-1.78034226638E+02	-4.11686170072E+01	-9.21059413135E+00	-5.87379426640E+00	-1.82006061548E-01
3.03050140565E+05	-9.55556084598E+00	1.33558952071E+02	8.62132649015E+00	-1.78966123891E+02	-4.05811483423E+01	-6.14445325889E+01	-5.83774636890E+00	-4.33945777492E-01
3.03269190685E+05	-2.48009217302E+01	-4.89455692193E+01	8.46075374918E+00	-1.77527011707E+02	-5.09711344411E+01	-1.71072569400E+02	-5.87474869462E+00	-3.24374743990E-01
3.03488399138E+05	-3.31008570936E+01	1.56089791298E+02	8.49203040844E+00	-1.77709444823E+02	-3.79407024712E+01	-1.85128154123E+00	-5.88076758088E+00	-1.44891104020E-01
3.03707766039E+05	-1.97272025757E+01	-1.62988472392E+02	8.55198822298E+00	-1.77443035962E+02	-2.90234566106E+01	-7.24900559348E+01	-5.84594383011E+00	-1.22623641188E+00
3.03927291503E+05	-2.90197174787E+01	-1.70963670273E+02	8.55275566120E+00	-1.77192878358E+02	-4.10477065211E+01	1.66878688901E+02	-5.85110269669E+00	-1.58229978979E-01
3.04146975643E+05	-1.89794936565E+01	2.24735274969E+01	8.40886140492E+00	-1.77709217838E+02	-3.75600210080E+01	1.53808103546E+02	-5.91743312408E+00	2.13678018539E-02
3.04366818575E+05	-2.23383266856E+01	7.64363340466E+01	8.41713118855E+00	-1.78096197615E+02	-4.90297648260E+01	1.55875862236E+02	-5.90787311727E+00	6.74622375487E-02
3.04586820414E+05	-2.56999685005E+01	-6.76704362751E+01	8.43624763866E+00	-1.77227916812E+02	-4.03597961672E+01	-3.74969107068E+01	-5.87204539414E+00	-4.85579170853E-01
3.04806981274E+05	-1.77508988123E+01	-1.21621393528E+02	8.55483589637E+00	-1.77556844146E+02	-4.10867291370E+01	-7.53766350373E+01	-5.87873338283E+00	-4.42475798901E-01
3.05027301270E+05	-2.33101611696E+01	-1.68980521984E+02	8.52863748388E+00	-1.77754052599E+02	-3.52593999993E+01	1.65815410109E+02	-5.90652524573E+00	1.06292199637E-01
3.05247780517E+05	-2.72822579159E+01	5.33015854461E+01	8.48831118530E+00	-1.77602599264E+02	-2.61814694613E+01	1.38154446211E+02	-6.06242873064E+00	6.94015763845E-01
3.05468419131E+05	-1.94592217731E+01	6.80220813368E+01	8.43223149183E+00	-1.78051287486E+02	-2.29810375700E+01	6.11364609475E+01	-5.80046682759E+00	1.39358684372E+00
3.05689217226E+05	-3.20955340429E+01	-3.99966352249E+01	8.46681648018E+00	-1.77499894209E+02	-4.75544338570E+01	-8.78231849217E+00	-5.86510296307E+00	-2.62684189188E-01
3.05910174918E+05	-2.35707293042E+01	6.15731451885E+01	8.50503620355E+00	-1.77980623511E+02	-5.05502260624E+01	-3.65585676901E+01	-5.87328964736E+00	-2.70803526097E-01
3.06131292322E+05	-1.83918276821E+01	-9.94242652991E+00	8.47602990180E+00	-1.77432765620E+02	-3.71600328374E+01	-9.51860791290E+01	-5.91034971821E+00	-2.92666533808E-01
3.06352569554E+05	-2.56907123012E+01	7.71199746414E+01	8.52160386175E+00	-1.77937852511E+02	-3.82110130187E+01	-1.08957589828E+02	-5.92642042681E+00	-2.62783616769E-01
3.06574006730E+05	-1.61473109282E+01	-6.55314684044E+01	8.50954284246E+00	-1.77063072609E+02	-3.87929668519E+01	1.02446521087E+02	-5.87203318070E+00	-1.12981044917E-01
3.06795603964E+05	-2.32036685117E+01	-1.66659781942E+02	8.53431180473E+00	-1.77380247590E+02	-3.15959444027E+01	9.98837427999E+01	-5.87072561873E+00	3.05079441995E-01
3.07017361372E+05	-3.43873037420E+01	7.86717243380E+01	8.47803496602E+00	-1.77937380777E+02	-3.48944222122E+01	-8.15032152997E+01	-5.89134519014E+00	-8.01884395740E-01
3.07239279071E+05	-1.93093421187E+01	1.71481137150E+02	8.57639273961E+00	-1.77665908154E+02	-4.48052303873E+01	3.72281969050E+01	-5.93376216929E+00	-2.24417436740E-01
3.07461357176E+05	-1.87113236078E+01	6.75944567770E+01	8.49015795186E+00	-1.77977041155E+02	-3.37802249186E+01	-1.13508836163E+01	-5.88879503902E+00	-4.02668882134E-01
3.07683595803E+05	-1.40122162141E+01	-8.87621241810E+01	8.44783483783E+00	-1.77139328252E+02	-4.53545384513E+01	7.14202605347E+01	-5.89803318849E+00	-2.13156984694E-01
3.07905995068E+05	-5.04019691454E+01	-3.46883109364E+00	8.45263450906E+00	-1.77788682687E+02	-3.96602381756E+01	-1.52739552870E+02	-5.88493989609E+00	-4.63552408437E-01
3.08128555087E+05	-1.31648719323E+01	5.25743717027E+01	8.37824881584E+00	-1.78477412200E+02	-3.90365198992E+01	-1.05815029130E+02	-5.88300450862E+00	-4.89798760112E-01
3.08351275976E+05	-2.13603641852E+01	2.80682329156E+01	8.43513874636E+00	-1.77600304237E+02	-3.62697167378E+01	1.73608253098E+01	-5.85279177540E+00	-3.06784073399E-01
3.08574157853E+05	-1.83783105025E+01	-1.06610404701E+01	8.46556936541E+00	-1.77506440245E+02	-2.87155463451E+01	-7.49957320371E+01	-5.83514170031E+00	-9.31880748546E-01
3.08797200832E+05	-3.21664766589E+01	1.66664665644E+02	8.48445802656E+00	-1.78092614986E+02	-5.40442441031E+01	1.29487186394E+02	-5.93388777748E+00	2.21641221110E-02
3.09020405031E+05	-1.51562724834E+01	-1.20371311039E+02	8.55303081783E+00	-1.77084453568E+02	-4.39043769397E+01	1.35164916291E+02	-5.90278984052E+00	-1.18448195398E-01
3.09243770566E+05	-1.36531921357E+01	-6.06558616274E+01	8.43294157019E+00	-1.76943767851E+02	-3.71684082609E+01	-1.44563774035E+02	-5.93647691546E+00	-3.54873521795E-01
3.09467297553E+05	-2.50458173232E+01	-7.97084789902E+01	8.44302627000E+00	-1.77356049331E+02	-4.93051119733E+01	2.94806213528E+01	-5.84273785235E+00	-2.08368924306E-01
3.09690986110E+05	-1.78857842289E+01	1.58966112649E+02	8.58704640429E+00	-1.77811509737E+02	-3.87077872650E+01	-7.79552291917E+01	-5.85558215009E+00	-5.50413865850E-01
3.09914836353E+05	-2.26353324102E+01	3.80997508487E+01	8.46455304623E+00	-1.77588653721E+02	-4.14646615851E+01	-8.53628588070E+01	-5.86840621317E+00	-4.29998036968E-01
3.10138848399E+05	-1.92343125646E+01	-8.98949871881E+01	8.52922996521E+00	-1.77513316338E+02	-3.01651016596E+01	-3.46393929262E+01	-5.80991856211E+00	-1.07869448544E+00
3.10363022365E+05	-1.71040945394E+01	1.55124989944E+02	8.58591532906E+00	-1.77675958856E+02	-3.49581543003E+01	6.22400686325E+01	-5.85876229560E+00	2.84195578899E-01
3.10587358368E+05	-1.99916315643E+01	1.57221089082E+02	8.54946704622E+00	-1.78042282272E+02	-3.83044805229E+01	-5.01145363950E+00	-5.84749356720E+00	-3.07515486402E-01
3.10811856525E+05	-9.42700496432E+00	9.86517408775E+01	8.49680272188E+00	-1.79338709954E+02	-4.80256728322E+01	1.66993872575E+02	-5.87686382770E+00	-5.63537731482E-01
3.11036516954E+05	-1.64524841579E+01	9.91081344837E+01	8.47532476781E+00	-1.77800252747E+02	-5.53517047644E+01	-4.50627836744E+01	-5.89670756855E+00	-1.92124160908E-01
3.11261339771E+05	-2.49723859293E+01	7.76948701119E+01	8.53445858947E+00	-1.77694922587E+02	-3.82457173965E+01	5.92357880878E+01	-5.88135742379E+00	-4.97545143138E-02
3.11486325094E+05	-1.78827411961E+01	1.34874485576E+02	8.53070629242E+00	-1.78147260852E+02	-2.94822352516E+01	4.67675371854E+01	-5.79449136692E+00	4.31955032141E-01
3.11711473040E+05	-2.00602722679E+01	2.19000585897E+01	8.41472661225E+00	-1.77743227149E+02	-4.06361107545E+01	-1.37277910621E+02	-5.92079616158E+00	-7.12079287917E-01
3.11936783728E+05	-1.56128282909E+01	1.56970390366E+02	8.61846657520E+00	-1.77579008096E+02	-4.07667902251E+01	1.77543575806E+02	-5.91230205017E+00	-4.69346283484E-02
3.12162257274E+05	-1.26874282326E+01	-1.34218264968E+02	8.61402666498E+00	-1.76862909951E+02	-4.33452106449E+01	1.58606644203E+02	-5.88311537601E+00	-1.14443006350E-01
3.12387893797E+05	-1.59819025480E+01	-2.36305110231E+01	8.38147054641E+00	-1.77824012647E+02	-4.69260270648E+01	-5.76641089121E+01	-5.85837675599E+00	-4.88836989915E-01
3.12613693413E+05	-1.72600472808E+01	1.43573001490E+02	8.58180179282E+00	-1.78301724087E+02	-5.14772555594E+01	1.23457413700E+02	-5.88371454699E+00	-4.79692850038E-01
3.12839656242E+05	-1.95832615501E+01	7.81418024360E+01	8.44611647581E+00	-1.78218849092E+02	-4.09945906046E+01	-1.70296640051E+02	-5.89003028195E+00	-4.21364691986E-01
3.13065782401E+05	-3.06702326819E+01	9.31649743563E+01	8.50019929237E+00	-1.77999748019E+02	-2.81876873028E+01	6.00962071465E+01	-5.81274972307E+00	5.58019266481E-01
3.13292072007E+05	-2.03544847019E+01	-5.18205500740E+01	8.43919919851E+00	-1.77407920115E+02	-3.46004267264E+01	-6.98829131421E+01	-5.84821362665E+00	-1.05267777402E+00
3.13518525180E+05	-2.97408487423E+01	9.63477957687E+01	8.54302565626E+00	-1.77768527490E+02	-4.11817119325E+01	1.52549213679E+02	-5.95848446043E+00	-3.29965799822E-01
3.13745142038E+05	-1.77325557479E+01	-4.28150917306E+01	8.47630446673E+00	-1.77120961038E+02	-4.15564333364E+01	9.58372454906E+01	-5.90335318081E+00	-1.47956499355E-01
3.13971922698E+05	-2.28107973845E+01	3.41142989371E+01	8.43904362950E+00	-1.77984640221E+02	-4.16406088039E+01	7.83561762874E+01	-5.87397563264E+00	-2.19026123302E-01
3.14198867279E+05	-1.14747280055E+01	-1.03307701396E+02	8.62491175596E+00	-1.76509322919E+02	-3.81573073273E+01	4.18254870469E+01	-5.86110709585E+00	1.14611315962E-01
3.14425975900E+05	-2.20079692331E+01	-1.16411865453E+02	8.51398835438E+00	-1.77789528726E+02	-3.91294418338E+01	1.71333068105E+02	-5.94396590682E+00	-1.58722826686E-01
3.14653248680E+05	-1.89230525807E+01	-1.72932656270E+02	8.57258269725E+00	-1.77699355787E+02	-3.43728389715E+01	1.47393377181E+02	-5.93756017986E+00	-7.33356342995E-02
3.14880685736E+05	-3.39260141462E+01	1.16431717875E+02	8.49262134622E+00	-1.77671250504E+02	-3.11073368196E+01	-7.12478381690E+01	-5.89052491516E+00	-1.29203877423E+00
3.15108287188E+05	-2.12624666791E+01	1.29934367759E+02	8.57434194186E+00	-1.77721510650E+02	-4.50712330187E+01	1.57063784517E+01	-5.86867393122E+00	-4.79825958700E-01
3.15336053154E+05	-2.44401109037E+01	1.22609955377E+02	8.50550529927E+00	-1.77575349556E+02	-3.81729914720E+01	-6.39754449697E+01	-5.86497526904E+00	-5.25301089952E-01
3.15563983753E+05	-1.94772745641E+01	5.27923563879E+00	8.43731028845E+00	-1.78065433179E+02	-3.78801800014E+01	8.22710981263E+01	-5.87436595875E+00	-1.72391551911E-01
3.15792079105E+05	-1.25335871399E+01	1.02626738172E+02	8.51600385319E+00	-1.79518836859E+02	-3.31430239493E+01	-9.26428776729E+01	-5.88674186896E+00	-6.51451967969E-01
3.16020339328E+05	-1.78040311832E+01	-1.10797552261E+02	8.58405837026E+00	-1.77684243153E+02	-3.77587447383E+01	-5.07404874851E+01	-5.86208786308E+00	-6.73822986669E-01
3.16248764542E+05	-2.18838131192E+01	-5.64575724926E+01	8.45251263522E+00	-1.77142809478E+02	-3.94173323431E+01	-8.95821159064E+01	-5.89037522378E+00	-6.84847080462E-01
3.16477354866E+05	-1.86504687559E+01	-2.78937499284E+01	8.45371188218E+00	-1.77858146359E+02	-3.73905729132E+01	1.52561809493E+02	-5.92502374034E+00	1.81985103148E-01
3.16706110419E+05	-1.62687402642E+01	7.93763426165E+01	8.52051938065E+00	-1.78814889175E+02	-4.03877768154E+01	1.77041055450E+02	-5.91945861874E+00	-5.25092472941E-01
3.16935031321E+05	-1.73591905683E+01	7.95809713851E+01	8.48440694568E+00	-1.78552876002E+02	-4.32912537662E+01	1.27709599629E+02	-5.91031183750E+00	-1.78137372188E-01
3.17164117691E+05	-1.05085529281E+01	-1.74189425166E+02	8.68511167897E+00	-1.77362537075E+02	-4.65437199256E+01	1.26315964354E+02	-5.92694591387E+00	-1.83490792108E-01
3.17393369648E+05	-6.60620532090E+00	-1.64426003533E+02	8.79778588821E+00	-1.77375778980E+02	-5.38891012230E+01	1.26013231082E+02	-5.89926808431E+00	-2.45185246827E-01
3.17622787313E+05	-1.81820290340E+01	6.50080717742E+01	8.48437116915E+00	-1.78429423340E+02	-5.04799196898E+01	8.81477775159E+01	-5.88518164372E+00	-3.01831900128E-01
3.17852370806E+05	-2.65442891453E+01	-2.70265716255E+01	8.50605525640E+00	-1.77900395222E+02	-3.43963945171E+01	-3.06147653599E+01	-5.84925093453E+00	-6.75008543311E-01
3.18082120245E+05	-2.21855089148E+01	1.56085534906E+02	8.53199984441E+00	-1.77900695515E+02	-4.26284774133E+01	-6.46853194847E+00	-5.86532199459E+00	-4.27129909091E-01
3.18312035752E+05	-3.59588381911E+01	6.21025035686E+00	8.50359250097E+00	-1.78194355827E+02	-4.21384382538E+01	-3.00880379792E+01	-5.84279145269E+00	-3.91040525621E-01
3.18542117445E+05	-1.97702748280E+01	-1.37219069418E+02	8.57429092383E+00	-1.77468169904E+02	-3.90816270299E+01	-8.66514059746E+01	-5.91839069902E+00	-2.92697252524E-01
3.18772365446E+05	-2.49706069618E+01	5.35712367510E+01	8.43392628693E+00	-1.77501793056E+02	-4.69115301387E+01	-2.63199550483E+01	-5.85217187051E+00	-2.27413545628E-01
3.19002779874E+05	-1.28062868148E+01	1.58521900756E+02	8.57256580833E+00	-1.78547895353E+02	-5.89363643768E+01	9.14089780935E+01	-5.86506978958E+00	-3.40886184519E-01
3.19233360850E+05	-1.70373089945E+01	1.61653851367E+02	8.51213286790E+00	-1.77953292065E+02	-3.41711471433E+01	-5.31502984105E+01	-5.85379677377E+00	-5.64935858437E-01
3.19464108494E+05	-1.91201364857E+01	7.51564479766E+01	8.50260997047E+00	-1.78173841444E+02	-4.15833274560E+01	1.52380654878E+02	-5.93019921963E+00	-1.62407490176E-01
3.19695022927E+05	-1.88843676771E+01	1.17175740691E+02	8.54355283709E+00	-1.77689217561E+02	-3.42041560139E+01	1.50362749042E+02	-5.93423762707E+00	2.96674231987E-01
3.19926104268E+05	-2.04897173106E+01	6.47949166861E+01	8.45450099181E+00	-1.78302560551E+02	-4.84597178451E+01	-3.40021797817E+01	-5.87125911806E+00	-3.52271616207E-01
3.20157352640E+05	-1.98960425615E+01	-1.70965211706E+02	8.61536367687E+00	-1.77646568868E+02	-3.59512413329E+01	-1.55130187024E+02	-5.96982709129E+00	-4.36786835205E-01
3.20388768162E+05	-1.38273016888E+01	-1.45289203438E+02	8.53725153900E+00	-1.77490593915E+02	-5.00489154953E+01	-9.07783391855E+01	-5.91175369511E+00	-4.47171714315E-01
3.20620350955E+05	-1.95219622859E+01	-1.66108623657E+02	8.57998232566E+00	-1.77591048461E+02	-4.70882477848E+01	-5.17785808620E+01	-5.87124234238E+00	-1.46869672870E-01
3.20852101140E+05	-2.16081057112E+01	-6.09466201206E+01	8.50947412568E+00	-1.77258049605E+02	-4.64204126661E+01	-1.00647307970E+02	-5.88085082511E+00	-4.31674573261E-01
3.21084018839E+05	-1.43903541357E+01	6.38202655681E+01	8.47468882958E+00	-1.78293766185E+02	-4.03281255066E+01	-6.18363214618E+00	-5.88875642265E+00	-3.64323106604E-01
3.21316104172E+05	-2.18308752979E+01	-1.81909516141E+01	8.46945534605E+00	-1.77554224769E+02	-3.03633398010E+01	-6.72267357014E+01	-5.85373167603E+00	-9.35902491429E-01
3.21548357261E+05	-3.11943400252E+01	1.68301213350E+02	8.52397221721E+00	-1.77936720032E+02	-3.45430835463E+01	-8.69094582428E+01	-5.85124234698E+00	-7.80354790523E-01
3.21780778226E+05	-2.13791226652E+01	5.61308484424E+00	8.43915539496E+00	-1.77954737523E+02	-3.87448084773E+01	1.01106842506E+02	-5.90867209343E+00	-2.05161783301E-02
3.22013367189E+05	-2.48120011195E+01	6.04669825854E+01	8.48086107693E+00	-1.77970717759E+02	-3.66103204716E+01	-3.12728113329E+01	-5.82847169583E+00	-4.69863968489E-01
3.22246124272E+05	-1.27346594537E+01	-3.22047638950E+01	8.31497422197E+00	-1.77448175287E+02	-3.90550317561E+01	1.25033378544E+02	-5.96386725087E+00	-1.70434098178E-01
3.22479049596E+05	-2.16380405447E+01	1.67823111511E+01	8.42369745496E+00	-1.78137478704E+02	-3.40996743738E+01	-8.73264262230E+01	-5.92213477219E+00	-5.96463776458E-01
3.22712143282E+05	-1.81875613142E+01	-1.70242437075E+02	8.56883364114E+00	-1.77476612678E+02	-4.18890847263E+01	8.45452514142E+01	-5.88754280650E+00	-3.05230595308E-01
3.22945405453E+05	-1.73765790294E+01	8.77919071909E+01	8.43448630963E+00	-1.78265207666E+02	-3.69565704283E+01	1.14909962197E+02	-5.88784339592E+00	5.51737206790E-02
3.23178836230E+05	-2.45829698808E+01	1.66296440517E+02	8.53330508878E+00	-1.77931282045E+02	-3.12474950082E+01	1.26209024068E+02	-5.93168076374E+00	-1.60593822683E-01
3.23412435735E+05	-1.30495933256E+01	-6.10415803181E+01	8.45216706843E+00	-1.77162691824E+02	-3.38955203215E+01	6.13006791643E+01	-5.87165325015E+00	3.00654547553E-01
3.23646204090E+05	-1.67504634296E+01	1.35372874786E+02	8.55264386857E+00	-1.78469825514E+02	-3.91138039762E+01	-1.09703043399E+02	-5.86106598216E+00	-8.16769320957E-01
3.23880141417E+05	-1.74492574436E+01	-9.28079436427E-01	8.42574253528E+00	-1.77911590040E+02	-4.91833464299E+01	-1.54895379983E+02	-5.89748927637E+00	-6.78639815117E-01
3.24114247838E+05	-2.37284461147E+01	-3.22871489100E+01	8.45140029248E+00	-1.77794155430E+02	-4.32478223679E+01	4.18958907718E+01	-5.91396415100E+00	-1.03817929365E-01
3.24348523475E+05	-1.92738198993E+01	-1.25587736518E+02	8.49521182589E+00	-1.77888413751E+02	-5.32765956587E+01	8.48501217746E+01	-5.89066124944E+00	-7.92323597414E-02
3.24582968451E+05	-2.42292056433E+01	-1.16821464043E+02	8.51113012524E+00	-1.77981346054E+02	-3.47579763673E+01	-5.14567013854E+01	-5.84132953782E+00	-6.85837155949E-01
3.24817582888E+05	-1.87762567490E+01	1.35346185924E+02	8.61769009665E+00	-1.78116696432E+02	-4.43615369472E+01	1.65599580780E+02	-5.90333231192E+00	-2.09350275565E-01
3.25052366909E+05	-2.36218027315E+01	1.34358977773E+01	8.42537345339E+00	-1.78238202981E+02	-4.74370494171E+01	-2.68000372168E+01	-5.90218837605E+00	-4.35493265097E-01
3.25287320635E+05	-1.97299099524E+01	1.29868567730E+02	8.54590355531E+00	-1.78267275634E+02	-3.93332847246E+01	1.71252059380E+01	-5.87307127800E+00	-1.72516698251E-01
3.25522444191E+05	-2.32261742546E+01	1.69643568302E+02	8.63742909175E+00	-1.78119076175E+02	-4.18560765045E+01	8.91066964424E+01	-5.86372624402E+00	-4.99749070665E-02
3.25757737698E+05	-2.23202358230E+01	-6.16184591515E+01	8.51649365361E+00	-1.78301636029E+02	-3.49504043505E+01	-1.07503231038E+02	-5.90090490877E+00	-5.95175811126E-01
3.25993201280E+05	-1.05455167935E+01	-1.06091319654E+02	8.58697598339E+00	-1.76886888814E+02	-3.84184771926E+01	9.31827976090E+01	-5.89348395944E+00	2.20684719049E-01
3.26228835058E+05	-3.73879983741E+01	-1.50843932987E+02	8.52411191431E+00	-1.77968756263E+02	-5.86257423177E+01	1.77014199451E+02	-5.93416638294E+00	-3.08977624464E-01
