# Hz S DB R 50
! CMT, M5065, 19127446, 24.2.4/2
! Date: 11/1/2024 4:33:45 PM
! Data: Format (Calibration Info)
! Freq	S11:dB/Ang(F2)	S21:dB/Ang(F2)	S12:dB/Ang(F2)	S22:dB/Ang(F2)
3.00000000000E+05	-2.42167152158E+01	1.33842724845E+02	1.05242056603E+01	-1.77676091412E+02	-3.48821415023E+01	1.53181650077E+02	-5.94128704514E+00	9.98499132203E-02
3.00216845423E+05	-2.05223331478E+01	1.72060022989E+02	1.04778271152E+01	-1.77438507616E+02	-4.03848075906E+01	3.29171174866E+00	-5.85802056829E+00	-1.24098682024E-01
3.00433847586E+05	-1.41092700689E+01	7.70373475645E+01	1.03945319758E+01	-1.78208219624E+02	-3.69989775549E+01	-4.31970578339E+01	-5.82783661452E+00	-6.81349580697E-01
3.00651006602E+05	-1.87299304579E+01	1.19963092967E+02	1.04763730146E+01	-1.77657580036E+02	-3.49636150060E+01	-1.41233481515E+02	-5.92742559239E+00	-5.85428647453E-01
3.00868322584E+05	-2.13436014551E+01	3.85997609650E+01	1.03920852930E+01	-1.77765077563E+02	-4.26390633579E+01	-4.20026206921E+01	-5.89994769829E+00	-1.71255110462E-01
3.01085795647E+05	-1.94078350647E+01	-1.76994928389E+02	1.05040988426E+01	-1.77587107601E+02	-3.92278980386E+01	1.31127642731E+02	-5.96225798237E+00	-3.26625878423E-01
3.01303425902E+05	-1.08116314793E+01	-1.74069020863E+02	1.06531165268E+01	-1.77285676361E+02	-3.70610874563E+01	-7.87314382641E+01	-5.86447697028E+00	-5.37568114691E-01
3.01521213465E+05	-2.52501087855E+01	-9.19088988142E+01	1.04866459538E+01	-1.77173886301E+02	-4.29059407179E+01	1.02135800857E+01	-5.81322932339E+00	-2.05173426897E-01
3.01739158449E+05	-2.56766147770E+01	1.10828321355E+02	1.04530006634E+01	-1.77557410666E+02	-4.75551809441E+01	6.98553572069E+01	-5.90520162919E+00	-3.54034862756E-02
3.01957260967E+05	-1.64571259211E+01	-4.76093992990E+01	1.03471757500E+01	-1.76934595880E+02	-2.98962378403E+01	-1.23393514811E+01	-5.74608014681E+00	-7.16355780494E-01
3.02175521134E+05	-1.64201232565E+01	-1.62877742179E+02	1.05471453201E+01	-1.77374943772E+02	-3.58076171720E+01	-1.40409800563E+02	-5.95528549497E+00	-5.26248737137E-01
3.02393939063E+05	-1.72652706377E+01	-1.61330389540E+02	1.05585255567E+01	-1.77469648093E+02	-4.01568903883E+01	-1.00393639928E+02	-5.87308218205E+00	-3.52045637565E-01
3.02612514869E+05	-2.96971709735E+01	-1.77581114348E+02	1.04929616467E+01	-1.77342375405E+02	-4.41131879032E+01	-1.57384496644E+02	-5.87718818260E+00	-6.04695963016E-01
3.02831248665E+05	-2.15590218603E+01	1.14384243876E+01	1.04284850125E+01	-1.77588271225E+02	-4.70925090301E+01	1.57155524889E+02	-5.90178628158E+00	-1.86241836895E-01
3.03050140565E+05	-1.44764914408E+01	-1.79750076780E+02	1.05618988034E+01	-1.77455127208E+02	-3.35599660468E+01	-1.68066365844E+02	-6.00304344661E+00	-3.94023268244E-01
3.03269190685E+05	-1.39055033519E+01	-9.95402382732E+01	1.04762853513E+01	-1.76640692157E+02	-3.83680399820E+01	-1.19784095165E+02	-5.92270591940E+00	-6.28277188813E-01
3.03488399138E+05	-2.57282332667E+01	-1.67740950537E+01	1.03762350058E+01	-1.77440262558E+02	-2.97659855680E+01	1.30714472348E+02	-6.02388930683E+00	7.84967212423E-01
3.03707766039E+05	-1.87383225101E+01	-3.44434004442E+00	1.03404588338E+01	-1.77438443379E+02	-4.61925263805E+01	5.06040462471E+01	-5.89687097259E+00	-2.09180740022E-01
3.03927291503E+05	-1.85248786030E+01	1.59895103728E+02	1.05052847953E+01	-1.77667847193E+02	-4.58267564761E+01	-1.63059076112E+02	-5.91024157310E+00	-2.06425377284E-01
3.04146975643E+05	-1.76035613633E+01	-4.90314169727E+01	1.03926687736E+01	-1.77217519887E+02	-4.33308205377E+01	-1.35654939718E+02	-5.92663735310E+00	-4.38026119808E-01
3.04366818575E+05	-1.30082108419E+01	1.70642907190E+02	1.06127427807E+01	-1.77447377455E+02	-4.49183822140E+01	-1.33587816081E+02	-5.86079432539E+00	-2.05061680424E-01
3.04586820414E+05	-1.67011053764E+01	1.19110296284E+02	1.04767171422E+01	-1.77934982967E+02	-3.89628596230E+01	-1.08928639611E+02	-5.92569409613E+00	-5.74380723566E-01
3.04806981274E+05	-2.08554139742E+01	4.20008739750E+01	1.04606332670E+01	-1.77570140752E+02	-4.12047322211E+01	-3.17759913448E+01	-5.84236815080E+00	-2.94222824667E-01
3.05027301270E+05	-3.08714278179E+01	-1.71591435217E+02	1.04151600231E+01	-1.77476460860E+02	-3.44867810385E+01	1.78389464626E+02	-5.99172484878E+00	2.86725783023E-02
3.05247780517E+05	-1.54315940913E+01	1.48778421066E+02	1.05494749427E+01	-1.77478743995E+02	-3.97050876884E+01	1.28015306644E+02	-5.94302560514E+00	1.80589101910E-01
3.05468419131E+05	-1.93283779211E+01	-8.58132641458E+01	1.04233264383E+01	-1.77054614286E+02	-3.25900968946E+01	-6.63874278072E+01	-5.84180048271E+00	-9.91796382678E-01
3.05689217226E+05	-1.65963305032E+01	-1.22875359124E+02	1.04775002360E+01	-1.76973769018E+02	-4.58173551414E+01	-5.08151821466E+01	-5.87395998269E+00	-5.30127102163E-01
3.05910174918E+05	-1.39065999412E+01	-1.35243012626E+02	1.05651056707E+01	-1.76415031283E+02	-4.10255748614E+01	1.12001515599E+02	-5.87068235784E+00	-1.65848636436E-02
3.06131292322E+05	-2.05563381616E+01	1.13408924523E+02	1.04797510757E+01	-1.77918546838E+02	-3.25955412818E+01	1.40610016810E+02	-5.91651624300E+00	8.09250948377E-02
3.06352569554E+05	-2.59940645197E+01	1.02721687842E+02	1.04516312134E+01	-1.77759038887E+02	-3.54437397489E+01	1.70432087672E+02	-5.94700543547E+00	-1.20874480300E-01
3.06574006730E+05	-2.60051378713E+01	-7.78318033084E+01	1.03996034204E+01	-1.77336176492E+02	-3.69433982202E+01	-1.26429744733E+02	-5.93071271185E+00	-3.16364984775E-01
3.06795603964E+05	-2.53937455406E+01	1.68611426189E+01	1.03969816655E+01	-1.77410118395E+02	-4.21990745016E+01	7.03881893349E+01	-5.83853766615E+00	-3.20411037443E-01
3.07017361372E+05	-1.87565260464E+01	-1.13251035300E+02	1.04492168331E+01	-1.77283719339E+02	-4.04311889170E+01	1.19960420139E+02	-5.93020515766E+00	-5.28603169251E-02
3.07239279071E+05	-1.43916941493E+01	-2.94344184946E+01	1.03117893238E+01	-1.77095300528E+02	-3.95176969226E+01	1.01156355511E+02	-5.87717366040E+00	-7.59467320338E-02
3.07461357176E+05	-1.17994162076E+01	-1.73999256819E+02	1.06639104651E+01	-1.77631376293E+02	-3.93911360599E+01	-9.74842983546E+01	-5.86113626181E+00	-5.14137907176E-01
3.07683595803E+05	-1.79153684455E+01	-1.20691206994E+02	1.04693301446E+01	-1.77102731446E+02	-3.87647581959E+01	5.02690295385E+01	-5.83207291099E+00	9.02491603494E-02
3.07905995068E+05	-3.00408381981E+01	3.84764028349E+01	1.04398644176E+01	-1.77649327638E+02	-3.81425945477E+01	-1.04852269346E+02	-5.91236284011E+00	-3.02020332716E-01
3.08128555087E+05	-1.75227640062E+01	1.40486550095E+02	1.05332178166E+01	-1.78091053872E+02	-4.01426858918E+01	1.40860377923E+02	-5.93340072951E+00	-7.89286039642E-02
3.08351275976E+05	-2.36258201799E+01	9.16937940892E+01	1.04891416708E+01	-1.77874294882E+02	-3.19531095488E+01	-1.65761008603E+01	-5.79922679182E+00	-4.78479305470E-01
3.08574157853E+05	-3.19360813155E+01	1.08519664564E+02	1.04491841395E+01	-1.77521388121E+02	-3.86928806346E+01	-2.25208255017E+01	-5.80497317952E+00	-3.94754366328E-01
3.08797200832E+05	-1.47946370323E+01	2.48994146552E+01	1.03847532229E+01	-1.77759266472E+02	-3.89248725141E+01	6.82832281139E+01	-5.88163477814E+00	-2.86277188379E-01
3.09020405031E+05	-1.79353699036E+01	-9.42993031354E+01	1.04016567764E+01	-1.76879046767E+02	-3.49721220701E+01	1.40060736888E+02	-5.89286038805E+00	-2.16326617908E-01
3.09243770566E+05	-2.74722999511E+01	9.36717138302E+01	1.03976179952E+01	-1.77950427839E+02	-3.98127220737E+01	1.19756737155E+02	-5.88405179843E+00	-3.84489472169E-02
3.09467297553E+05	-1.61720674320E+01	-1.45773820171E+02	1.05043239018E+01	-1.77152255658E+02	-4.07936955356E+01	-1.52881103202E+02	-5.90097331005E+00	-1.59403217536E-01
3.09690986110E+05	-1.76951717827E+01	1.77901008481E+02	1.05412175989E+01	-1.77682151853E+02	-3.99541269160E+01	-6.30038851917E+01	-5.88775202168E+00	-6.23798489946E-01
3.09914836353E+05	-1.51325802235E+01	1.72445328474E+00	1.04459431404E+01	-1.77803754924E+02	-3.94276147301E+01	-1.10904155871E+02	-5.86169910999E+00	-4.22368739562E-01
3.10138848399E+05	-1.69475659783E+01	1.48564012841E+02	1.05112783309E+01	-1.77678230437E+02	-3.80724514333E+01	-8.59827908241E+01	-5.88261930522E+00	-6.59883545836E-01
3.10363022365E+05	-1.58731215012E+01	-1.23886539372E+02	1.05029575681E+01	-1.77049204949E+02	-3.42498213015E+01	-7.91919314158E+01	-5.86920184025E+00	-1.08984607540E+00
3.10587358368E+05	-1.84389883765E+01	1.28678477350E+02	1.04614963680E+01	-1.77742180636E+02	-3.78455445939E+01	-1.08311614190E+02	-5.89477364510E+00	-4.97832334851E-01
3.10811856525E+05	-1.95373622829E+01	8.41929093739E+01	1.04220183775E+01	-1.78151835881E+02	-3.59602172890E+01	-1.43824189041E+02	-5.91957600033E+00	-5.12653416323E-01
3.11036516954E+05	-1.73328498465E+01	1.14147602548E+02	1.04370691930E+01	-1.78126116961E+02	-3.69231578811E+01	1.14093673334E+02	-5.90580830130E+00	6.66471956683E-02
3.11261339771E+05	-2.53418122143E+01	1.89384378300E+01	1.03946054592E+01	-1.77701817888E+02	-3.67670735588E+01	9.60355803880E+01	-5.89936873356E+00	3.12143140447E-01
3.11486325094E+05	-1.66538841223E+01	1.73695268893E+02	1.05879286791E+01	-1.77701245290E+02	-3.55256192175E+01	-7.46820008129E+01	-5.82396140040E+00	-8.00541467528E-01
3.11711473040E+05	-3.05526230747E+01	-9.41953379162E+00	1.04323120375E+01	-1.77561753096E+02	-4.57428956340E+01	-1.16554420855E+02	-5.86285889213E+00	-2.16612950781E-01
3.11936783728E+05	-2.05060177412E+01	1.47125316765E+01	1.03754635925E+01	-1.77822790544E+02	-4.85703016482E+01	4.11951474093E+01	-5.86163878482E+00	-1.96858710970E-01
3.12162257274E+05	-2.63874675809E+01	-6.08601360355E+01	1.04571913777E+01	-1.77674664605E+02	-3.56959168796E+01	-1.41642345352E+02	-5.90445213340E+00	-6.16157316507E-01
3.12387893797E+05	-2.49932330272E+01	-1.75286740284E+02	1.05251295640E+01	-1.77746551797E+02	-4.44282876311E+01	-1.32777206971E+01	-5.84981607490E+00	-1.91997500653E-01
3.12613693413E+05	-1.96011587323E+01	-2.49958306495E+01	1.04061270510E+01	-1.77524808818E+02	-4.54269808432E+01	-9.62112231800E+01	-5.89628579099E+00	-1.42126504573E-01
3.12839656242E+05	-3.06303202263E+01	9.87839859550E+01	1.04520871296E+01	-1.77645767325E+02	-3.52448056421E+01	-2.26932951168E+01	-5.84818563507E+00	-7.80688066509E-01
3.13065782401E+05	-2.80845965447E+01	-9.24984250592E+01	1.04417524395E+01	-1.77416425649E+02	-3.77577831556E+01	1.71323903113E-01	-5.84502733690E+00	-1.11232527763E-01
3.13292072007E+05	-2.15071704151E+01	-1.47636251369E+02	1.05030142442E+01	-1.77594278538E+02	-4.42443922791E+01	-1.54867582160E+02	-5.90827346032E+00	-5.52643866079E-01
3.13518525180E+05	-1.55164486083E+01	1.45730937614E+02	1.04977424187E+01	-1.78232218605E+02	-3.62739964423E+01	4.11979109610E+01	-5.85398027636E+00	8.25693648771E-02
3.13745142038E+05	-2.17371763064E+01	-1.39179914814E+02	1.04457373435E+01	-1.77853783469E+02	-3.33960939036E+01	3.17976980056E+01	-5.81864499391E+00	-1.38741707271E-01
3.13971922698E+05	-2.40679520929E+01	-1.36619439358E+02	1.04772054509E+01	-1.77785629095E+02	-4.48467892157E+01	5.84473086083E+01	-5.92571628513E+00	-2.39460211046E-01
3.14198867279E+05	-1.99823811486E+01	-6.81034314293E+00	1.03755205200E+01	-1.77192291382E+02	-4.00475514305E+01	4.43696185128E+01	-5.87571448353E+00	-1.87649505552E-02
3.14425975900E+05	-3.05926639556E+01	7.15596427188E-01	1.04050053851E+01	-1.77999531318E+02	-3.42491428634E+01	5.46870156640E+01	-5.87021280875E+00	2.65446065475E-01
3.14653248680E+05	-2.82951999239E+01	-1.72944048468E+02	1.04610305263E+01	-1.77430353511E+02	-3.64223184582E+01	6.71724404183E+01	-5.89344550542E+00	2.34840028294E-01
3.14880685736E+05	-1.91863746366E+01	9.86419117737E+01	1.04512720518E+01	-1.78432450099E+02	-4.09994113262E+01	1.20548303934E+02	-5.92406888611E+00	-2.25588347242E-01
3.15108287188E+05	-1.95886297462E+01	-4.23167326848E+01	1.04139921546E+01	-1.77667438911E+02	-4.24728488346E+01	7.69949856142E+01	-5.86967311638E+00	-2.40311153066E-01
3.15336053154E+05	-1.46763756353E+01	-1.58770341332E+02	1.06012954275E+01	-1.77388846697E+02	-4.00395585810E+01	-8.62972223087E+01	-5.87922182371E+00	-5.76604260385E-01
3.15563983753E+05	-2.76115587239E+01	-6.08409858839E+01	1.04612932709E+01	-1.77598198645E+02	-4.18576530358E+01	1.01303201327E+02	-5.90567581149E+00	1.60546173056E-01
3.15792079105E+05	-1.84350299846E+01	-7.75680222708E+01	1.04355092937E+01	-1.77270995628E+02	-4.07951400909E+01	1.69816023186E+02	-5.90567558980E+00	-3.09146240236E-01
3.16020339328E+05	-2.26589345122E+01	-5.08757656460E+01	1.04463917296E+01	-1.77600932185E+02	-3.70636304058E+01	-4.56328667625E+01	-5.83956313468E+00	-7.81735759981E-01
3.16248764542E+05	-2.41019562734E+01	-6.98824081240E+01	1.03999647444E+01	-1.77446475120E+02	-2.81597774140E+01	2.98542347034E+01	-5.70863802394E+00	5.86613397233E-01
3.16477354866E+05	-2.05636027547E+01	1.77635336302E+02	1.05177322440E+01	-1.77341997745E+02	-4.16764256269E+01	5.58932337515E+01	-5.87630534925E+00	-2.23245085813E-01
3.16706110419E+05	-3.07148290552E+01	1.89242858141E+01	1.03882812054E+01	-1.77362761668E+02	-4.04829386058E+01	-6.03568043709E+01	-5.87159512263E+00	-4.84550517745E-01
3.16935031321E+05	-2.01830227357E+01	-7.53538070771E+01	1.04197852844E+01	-1.77265102517E+02	-4.32892350551E+01	-9.82603713722E+01	-5.91664617597E+00	-4.37549802262E-01
3.17164117691E+05	-1.92691700278E+01	-8.10489904367E+01	1.04668577276E+01	-1.77261129086E+02	-3.67897895675E+01	-9.33941107835E+01	-5.85166415041E+00	-7.52364572509E-01
3.17393369648E+05	-1.49527242338E+01	7.48511374177E+01	1.04508307329E+01	-1.78962522280E+02	-4.48473555373E+01	1.63690091637E+02	-5.90902569165E+00	-2.21254327929E-01
3.17622787313E+05	-1.81733012784E+01	1.38889488060E+02	1.05072888779E+01	-1.77908458599E+02	-3.34051508930E+01	-9.83156311907E+01	-5.91799147087E+00	-9.81955658102E-01
3.17852370806E+05	-2.08733123359E+01	1.07945219990E+02	1.04798133954E+01	-1.77846317153E+02	-3.82265884121E+01	3.81591429838E+01	-5.84563227078E+00	8.04117340013E-02
3.18082120245E+05	-1.84425272716E+01	-1.78001816677E+01	1.03554369014E+01	-1.77599735650E+02	-3.46403169741E+01	1.51434486253E+02	-5.97107519000E+00	-3.21959112732E-01
3.18312035752E+05	-2.94700263848E+01	1.29833986509E+01	1.04442420430E+01	-1.77609276936E+02	-4.58512716029E+01	-1.03926816699E+02	-5.88183621540E+00	-5.03459521938E-01
3.18542117445E+05	-3.14048465226E+01	-4.02040340792E+01	1.04563014721E+01	-1.77712216056E+02	-4.04404133992E+01	5.28752333432E+01	-5.92801448525E+00	-1.32435749859E-01
3.18772365446E+05	-1.81465350968E+01	4.23522606020E+01	1.03918040650E+01	-1.78203530465E+02	-4.65827211648E+01	8.57669150421E+01	-5.87876610846E+00	-1.31649652452E-01
3.19002779874E+05	-1.76972620875E+01	3.05867609367E+01	1.03826330169E+01	-1.77867653837E+02	-4.70102518039E+01	9.55708816442E+01	-5.88436264183E+00	-4.83750426254E-02
3.19233360850E+05	-2.98439518793E+01	-8.90419600143E+01	1.04223435411E+01	-1.77507907631E+02	-4.23398056499E+01	4.80358514643E+01	-5.85578114549E+00	-6.06860860383E-02
3.19464108494E+05	-2.30514666264E+01	-1.30492774299E+02	1.04626683789E+01	-1.77547187505E+02	-3.36262589469E+01	-8.65628369348E+01	-5.88926696566E+00	-8.43697721499E-01
3.19695022927E+05	-1.69164543682E+01	2.78677125279E+01	1.04698759644E+01	-1.77870294693E+02	-4.16574025299E+01	2.85258579528E+01	-5.86226259421E+00	-7.70502831348E-02
3.19926104268E+05	-1.44423676933E+01	-8.62754751977E+01	1.04693170948E+01	-1.77413190157E+02	-5.50668110223E+01	-1.77484611488E+02	-5.91614048627E+00	6.61265303643E-02
3.20157352640E+05	-1.32746255760E+01	-7.85778107003E+01	1.03935821443E+01	-1.76515098293E+02	-4.52271144876E+01	-9.66928104901E+01	-5.85482721986E+00	-3.21723500462E-01
3.20388768162E+05	-2.82777224386E+01	1.47631023452E+02	1.04345719911E+01	-1.77818580603E+02	-4.06568064725E+01	-2.73140346105E+01	-5.85025559654E+00	-4.69561225262E-01
3.20620350955E+05	-1.73803301061E+01	1.87056943193E+01	1.03789271656E+01	-1.78020624332E+02	-4.31075489834E+01	-5.41369855360E+01	-5.87846430210E+00	-6.10721757851E-01
3.20852101140E+05	-1.92820990791E+01	-1.44749711804E+02	1.05002910638E+01	-1.77836385679E+02	-3.84707659961E+01	-1.43985450533E+02	-5.90732781014E+00	-2.28858887205E-01
3.21084018839E+05	-2.26022771106E+01	1.45009591622E+00	1.04203980461E+01	-1.78319380208E+02	-3.21115485375E+01	1.29698805384E+02	-5.97787684620E+00	4.36761620072E-01
3.21316104172E+05	-1.46299549017E+01	-7.85221145729E+01	1.04121588708E+01	-1.76828626023E+02	-5.02466661842E+01	7.16833644934E+01	-5.89113748302E+00	-4.62569100350E-01
3.21548357261E+05	-2.17135278190E+01	1.66042034026E+02	1.04877667128E+01	-1.78102523026E+02	-6.03390869411E+01	4.01780995772E+01	-5.86226446888E+00	-3.16906451128E-01
3.21780778226E+05	-9.69700656224E+00	1.70878208551E+02	1.07391963002E+01	-1.77627140513E+02	-3.84766810103E+01	-1.08882655171E+02	-5.87958632734E+00	-4.44594766238E-01
3.22013367189E+05	-2.36649729538E+01	-1.34859985400E+02	1.04647935071E+01	-1.77648733764E+02	-4.37787133659E+01	-9.49754190217E+01	-5.90070414284E+00	-5.55155986812E-01
3.22246124272E+05	-1.82052184734E+01	2.69280825902E+01	1.03300658388E+01	-1.78003741670E+02	-4.17888538078E+01	-1.77669417384E+02	-5.97827527526E+00	3.48583040665E-04
3.22479049596E+05	-2.31677657548E+01	3.81362222751E+01	1.03722051021E+01	-1.77897502612E+02	-3.84281961218E+01	1.07200546389E+01	-5.84650865907E+00	4.73709577006E-02
3.22712143282E+05	-2.82025997730E+01	1.11860177939E+02	1.04912003701E+01	-1.77964910746E+02	-3.39585569798E+01	8.78758759403E+01	-5.83143064647E+00	5.44622321754E-01
3.22945405453E+05	-1.75479055276E+01	1.28113104698E+02	1.05303871475E+01	-1.78142512882E+02	-4.23668466796E+01	1.44162843694E+02	-5.89156596180E+00	-3.52527454918E-01
3.23178836230E+05	-1.70951854647E+01	2.82505933340E+01	1.04065888397E+01	-1.78156712984E+02	-4.48208853815E+01	-1.26985179333E+02	-5.91393445709E+00	-1.74950528367E-01
3.23412435735E+05	-1.40668673001E+01	1.67675532743E+02	1.05534438008E+01	-1.77957761045E+02	-3.93248986450E+01	-2.80211251887E+01	-5.83743154844E+00	-5.33686434294E-01
3.23646204090E+05	-1.46034197536E+01	5.59307423883E+01	1.03163073726E+01	-1.78254496465E+02	-3.70724864204E+01	1.37858831544E+02	-5.91981308391E+00	-1.29801923477E-01
3.23880141417E+05	-2.82409874986E+01	9.26247013768E+01	1.04272221274E+01	-1.78052561546E+02	-3.85956679677E+01	9.56064742889E+01	-5.93663481933E+00	-1.32802441216E-01
3.24114247838E+05	-2.69122805300E+01	1.27172682093E+02	1.04865584104E+01	-1.78227636393E+02	-3.55338881797E+01	-5.94515937400E+01	-5.87551300239E+00	-7.85832181049E-01
3.24348523475E+05	-1.68223631059E+01	9.56222564861E+01	1.04425084512E+01	-1.78257227103E+02	-3.12837882945E+01	1.31695572913E+02	-5.99210680893E+00	2.38463628476E-01
3.24582968451E+05	-1.56702148805E+01	4.71015555434E+01	1.03877993967E+01	-1.78397290213E+02	-3.58241887452E+01	-6.79899146002E+01	-5.85124380182E+00	-5.87722564322E-01
3.24817582888E+05	-2.24023953460E+01	-1.19041845266E+02	1.04495578420E+01	-1.77589682910E+02	-4.00511473135E+01	-7.54033733221E+01	-5.87077783390E+00	-5.88597407026E-01
3.25052366909E+05	-3.37537661485E+01	-5.81856298227E+01	1.04352546331E+01	-1.77961749170E+02	-4.03673284352E+01	1.55579477486E+02	-5.94013860249E+00	-1.07120220004E-01
3.25287320635E+05	-1.03645788441E+01	5.62478361304E+01	1.03022081114E+01	-1.79045381725E+02	-3.40743317144E+01	1.63248288115E+02	-5.98310260397E+00	-3.79614971021E-01
3.25522444191E+05	-2.14627512255E+01	9.61207919525E+01	1.04179710883E+01	-1.78049094009E+02	-4.74820701635E+01	-1.32046534675E+02	-5.88479007591E+00	-3.69457653478E-01
3.25757737698E+05	-1.39203070178E+01	-3.51561500837E+01	1.03411348222E+01	-1.77271936770E+02	-4.81022949926E+01	-1.61141968989E+02	-5.91894856168E+00	-3.05586587189E-01
3.25993201280E+05	-1.97041076663E+01	-1.61539682055E+02	1.04996899407E+01	-1.77697260297E+02	-3.18623676473E+01	-5.78922555931E+01	-5.82547047664E+00	-9.04153950389E-01
3.26228835058E+05	-2.63952070501E+01	-1.05787626727E+02	1.04633729402E+01	-1.77846417819E+02	-3.68807167540E+01	1.04274368216E+02	-5.86406986060E+00	2.70165131151E-01
