# Hz S DB R 50
! CMT, M5065, 19127446, 24.2.4/2
! Date: 11/1/2024 4:21:45 PM
! Data: Format (Calibration Info)
! Freq	S11:dB/Ang(F2)	S21:dB/Ang(F2)	S12:dB/Ang(F2)	S22:dB/Ang(F2)
3.00000000000E+05	-1.92608086586E+01	1.38142793240E+01	6.15589337347E+00	-1.77717770635E+02	-3.32040953395E+01	1.00489908376E+02	-5.93423461668E+00	1.91273826713E-01
3.00216845423E+05	-1.35560265350E+01	-1.24603237930E+02	6.30547303710E+00	-1.77446392923E+02	-3.05919813772E+01	6.51673967920E+01	-5.81632392304E+00	3.21101155785E-01
3.00433847586E+05	-1.88734979309E+01	-1.78852983768E+02	6.25366516190E+00	-1.77181569817E+02	-4.20248170080E+01	3.61218012895E+01	-5.86791304503E+00	1.49616881737E-01
3.00651006602E+05	-1.92733074725E+01	1.40164657411E+02	6.27156859013E+00	-1.77766374608E+02	-4.07633063170E+01	-4.35361790281E+01	-5.82316071203E+00	-2.63283664293E-01
3.00868322584E+05	-2.94707066215E+01	1.67318056618E+02	6.23312114895E+00	-1.77543051941E+02	-3.15025160710E+01	-1.88077051122E+01	-5.83741959693E+00	-3.77408758837E-01
3.01085795647E+05	-2.29176248074E+01	5.43309151433E+01	6.22834067383E+00	-1.77644022551E+02	-3.68591296563E+01	-1.34558633985E+02	-5.91777980653E+00	-6.55787457032E-01
3.01303425902E+05	-2.09136068618E+01	-1.50783767277E+02	6.18399038306E+00	-1.78026799644E+02	-3.63944996181E+01	1.75095255632E+02	-5.91640990791E+00	-1.31865631623E-01
3.01521213465E+05	-1.90708051990E+01	-4.56563724469E+01	6.09187542427E+00	-1.77383203737E+02	-4.39225791779E+01	-4.85886770186E+01	-5.86300853481E+00	-1.58126526690E-01
3.01739158449E+05	-2.29553312606E+01	4.53456089292E+01	6.22294163228E+00	-1.78071046145E+02	-5.23009165574E+01	2.55518070561E+01	-5.90240809140E+00	-2.72467632818E-01
3.01957260967E+05	-9.54310810346E+00	-1.17619221638E+02	6.27648539465E+00	-1.76083114071E+02	-4.48412155524E+01	1.41654180500E+02	-5.95067316326E+00	-2.72764914900E-01
3.02175521134E+05	-1.82633495076E+01	-1.56637055997E+02	6.24364151025E+00	-1.77625001601E+02	-4.16792617591E+01	8.57246627886E+01	-5.91269090922E+00	-1.80268759244E-01
3.02393939063E+05	-2.10635036149E+01	-8.98552927878E+01	6.20502887283E+00	-1.77388735352E+02	-4.58907170564E+01	-9.00125765825E+01	-5.89014217121E+00	-3.36808131892E-01
3.02612514869E+05	-2.05752850655E+01	1.85396875562E+01	6.12964688449E+00	-1.78020555801E+02	-4.12209903999E+01	-9.39539350981E+01	-5.88114679469E+00	-5.44598483636E-01
3.02831248665E+05	-2.85563598551E+01	-1.71132654506E+02	6.13835282863E+00	-1.78044243772E+02	-4.37053060701E+01	-4.14737417406E+01	-5.88891371999E+00	-5.82413911986E-01
3.03050140565E+05	-1.95609268002E+01	-4.39407335305E+01	6.17603221819E+00	-1.77758054919E+02	-4.23637941755E+01	1.34342031098E+02	-5.87465860751E+00	3.47173679088E-02
3.03269190685E+05	-1.99521075224E+01	-4.32908650947E+01	6.17600937410E+00	-1.77315318825E+02	-4.31451454233E+01	-3.11103638487E+01	-5.86999107315E+00	-1.75209042779E-01
3.03488399138E+05	-1.68506184080E+01	-3.16961979299E+01	6.22648980311E+00	-1.77288851763E+02	-4.31561709942E+01	-8.31975879744E+01	-5.88210624311E+00	-3.32954044034E-01
3.03707766039E+05	-1.56727133642E+01	1.66888356556E+02	6.32001833655E+00	-1.77909447506E+02	-4.32457311312E+01	-1.32723505681E+02	-5.85806063587E+00	-3.42367380309E-01
3.03927291503E+05	-1.65739919981E+01	-2.72411913768E+01	6.08524926800E+00	-1.76651231104E+02	-4.25190678531E+01	9.64617010006E+01	-5.91418016626E+00	-4.77330104663E-01
3.04146975643E+05	-2.48474788751E+01	-1.60745599735E+02	6.30251359702E+00	-1.77401010152E+02	-4.07925335550E+01	7.28491931231E+01	-5.90651175732E+00	4.26058988459E-02
3.04366818575E+05	-1.71513679461E+01	6.49171384013E+01	6.13641725201E+00	-1.78044604722E+02	-3.76558232638E+01	1.51859692152E+02	-5.93284958509E+00	-1.22373054388E-01
3.04586820414E+05	-2.13055188440E+01	8.35357109320E+01	6.20139987057E+00	-1.78227899959E+02	-3.76592411117E+01	6.88868264685E+01	-5.88466072888E+00	1.19173982717E-02
3.04806981274E+05	-1.80951735699E+01	7.92757470469E+00	6.10792644396E+00	-1.77792772906E+02	-4.13133310724E+01	-1.21457688100E+02	-5.91948168965E+00	-2.31546739147E-01
3.05027301270E+05	-1.50589829108E+01	-1.24963157030E+02	6.33698766500E+00	-1.76891849805E+02	-3.94765925020E+01	7.61720948682E+01	-5.86275499749E+00	-1.66134089197E-01
3.05247780517E+05	-2.44190931851E+01	-1.65768628814E+02	6.22573204577E+00	-1.77538341568E+02	-3.86119628331E+01	6.95111911234E+01	-5.86657511943E+00	-3.17519870137E-01
3.05468419131E+05	-1.91585587511E+01	-3.60398701077E+01	6.16230461246E+00	-1.77469717203E+02	-3.79472374103E+01	-2.97429873914E+01	-5.86904740806E+00	-2.22345351701E-01
3.05689217226E+05	-1.67108200196E+01	8.44269648369E+01	6.23364696615E+00	-1.77874788775E+02	-4.06577058231E+01	-3.67368311851E+01	-5.88012937149E+00	-4.24827893196E-01
3.05910174918E+05	-2.61036123756E+01	1.12794251256E+02	6.20481323099E+00	-1.78207503618E+02	-5.04405619448E+01	-1.29406432902E+02	-5.88303209763E+00	-2.80955022905E-01
3.06131292322E+05	-3.30479268524E+01	1.29951861168E+02	6.23774038502E+00	-1.77698091918E+02	-3.54458035749E+01	6.77757927573E+01	-5.83554914799E+00	-8.52839585388E-02
3.06352569554E+05	-1.54072475694E+01	4.90364397009E+01	6.11737604092E+00	-1.77976387722E+02	-3.35591260376E+01	3.28549648856E+01	-5.81155708036E+00	6.18990101977E-02
3.06574006730E+05	-1.80467957037E+01	-1.43257718338E+02	6.24884275014E+00	-1.77231634230E+02	-4.93060524265E+01	1.43459036743E+02	-5.88730560363E+00	-4.04722685496E-01
3.06795603964E+05	-2.31933226056E+01	5.12585744667E+00	6.24039311691E+00	-1.77769423891E+02	-3.82645216396E+01	7.57874096591E+01	-5.91586028363E+00	-9.29602479099E-02
3.07017361372E+05	-1.72061956460E+01	-7.07111262030E+01	6.23194072675E+00	-1.77360495241E+02	-3.78696529611E+01	-1.31109474720E+02	-5.89957410452E+00	-1.75089386186E-01
3.07239279071E+05	-2.03953158929E+01	1.73418396965E+02	6.26249037099E+00	-1.77499923311E+02	-4.09732568690E+01	-2.53845009386E+01	-5.84383945449E+00	-1.77628486413E-01
3.07461357176E+05	-2.26527795008E+01	1.40109077277E+02	6.28238913298E+00	-1.78030320289E+02	-3.65370248546E+01	1.06807284971E+01	-5.86959320844E+00	-3.78818818051E-01
3.07683595803E+05	-2.36392438797E+01	-9.03409100036E+01	6.14710245857E+00	-1.76953842500E+02	-3.91410002366E+01	-1.30494222413E+02	-5.91579603867E+00	6.55284499166E-02
3.07905995068E+05	-1.34687600035E+01	1.47124446376E+02	6.32224557147E+00	-1.78452814177E+02	-3.46340342601E+01	1.43328490429E+02	-5.93322053104E+00	5.94907996608E-02
3.08128555087E+05	-7.13658402340E+00	1.78470664782E+02	6.59518885208E+00	-1.77709538985E+02	-4.31908786815E+01	4.64142634158E+01	-5.89972166338E+00	-1.03794640670E-01
3.08351275976E+05	-2.23525869912E+01	3.07080324143E+00	6.11280171255E+00	-1.77595825874E+02	-4.06182846441E+01	-1.14925671236E+02	-5.88234414664E+00	-2.68184365652E-01
3.08574157853E+05	-2.88848915950E+01	1.78928545934E+02	6.15517206637E+00	-1.77352035187E+02	-3.96361802661E+01	-1.68924421220E+02	-5.88017962221E+00	-1.87432920706E-01
3.08797200832E+05	-2.76222765946E+01	1.28507601161E+02	6.20281399096E+00	-1.77672262083E+02	-4.94843462117E+01	9.87965475540E+01	-5.87284219126E+00	-2.72019186586E-01
3.09020405031E+05	-1.83376798206E+01	-1.63103945847E+02	6.22992754700E+00	-1.77916595272E+02	-4.17282087757E+01	1.37107552378E+02	-5.90587700913E+00	-4.20804107182E-01
3.09243770566E+05	-2.24048499379E+01	5.25184757047E+01	6.21367833543E+00	-1.78329152711E+02	-3.58259735191E+01	2.01687051870E+01	-5.87473738623E+00	-9.43612504253E-02
3.09467297553E+05	-2.06642266030E+01	1.66546687476E+02	6.30499805784E+00	-1.78244225395E+02	-3.89494261347E+01	-1.13449325934E+02	-5.92018138782E+00	-4.14894106952E-01
3.09690986110E+05	-7.86829784561E+00	-1.53917314076E+02	6.50434237445E+00	-1.77282432894E+02	-5.00484817469E+01	-4.19844145993E+01	-5.86539133597E+00	-3.71161299977E-01
3.09914836353E+05	-1.85132627931E+01	8.03789056194E+01	6.22368491817E+00	-1.78239050477E+02	-4.85932354114E+01	1.27043866450E+02	-5.91589576266E+00	-3.23728212287E-01
3.10138848399E+05	-2.59548024844E+01	1.50317664972E+02	6.21174181992E+00	-1.78055596081E+02	-4.55477613593E+01	-1.39034775581E+02	-5.90949005248E+00	-3.46942580089E-01
3.10363022365E+05	-2.16694365950E+01	-1.55017758980E+02	6.27261165191E+00	-1.77653652876E+02	-4.07094861884E+01	1.42838767188E+02	-5.87602202602E+00	-2.84182334384E-01
3.10587358368E+05	-2.65912862180E+01	-4.52081480198E+01	6.20981756115E+00	-1.77742355794E+02	-3.43312093982E+01	-1.50006924857E+02	-5.91671932387E+00	-2.42870211355E-01
3.10811856525E+05	-1.64255190367E+01	-1.41196360008E+02	6.24095042660E+00	-1.77635667753E+02	-3.84168787819E+01	1.45781980802E+02	-5.94496258136E+00	-2.97223590582E-01
3.11036516954E+05	-2.46517908003E+01	9.52956918161E+01	6.23063929018E+00	-1.77402264082E+02	-4.30282192975E+01	-1.38986362092E+02	-5.88608501418E+00	-4.62741921134E-01
3.11261339771E+05	-1.15186446968E+01	-1.58008193725E+02	6.35956399405E+00	-1.77263237578E+02	-3.35811113138E+01	-1.09659092396E+02	-5.89961376355E+00	-6.03790630871E-01
3.11486325094E+05	-2.23104575832E+01	-4.93640633048E+01	6.17357069289E+00	-1.77250577973E+02	-7.56268909812E+01	1.70943457903E+01	-5.87401160539E+00	-3.13200963537E-01
3.11711473040E+05	-2.43275934303E+01	-3.13516620448E+01	6.21908074047E+00	-1.77590790245E+02	-3.35772944957E+01	1.54882326552E+01	-5.85292123457E+00	-2.08921651511E-01
3.11936783728E+05	-1.83303479690E+01	-7.49903017146E+01	6.12351823500E+00	-1.76872346214E+02	-4.15303489028E+01	-3.06725276354E+01	-5.86574532520E+00	-6.71586074161E-01
3.12162257274E+05	-2.59885249075E+01	-9.72960152866E+01	6.23285310109E+00	-1.77118035875E+02	-4.55050057222E+01	-1.68401706983E+02	-5.88120932275E+00	-2.95077341190E-01
3.12387893797E+05	-1.44702365183E+01	4.97286221728E+01	6.15453472975E+00	-1.78914030560E+02	-3.62399949245E+01	-1.71908064381E+02	-5.91631450180E+00	1.08890459168E-01
3.12613693413E+05	-1.76515565280E+01	1.41085251022E+02	6.27368522628E+00	-1.78054441253E+02	-4.45164030223E+01	-1.71701912105E+02	-5.90386297288E+00	-2.55224889689E-01
3.12839656242E+05	-1.47451740432E+01	-2.37452841733E+01	6.02218047131E+00	-1.77294704996E+02	-3.52879617892E+01	-5.77912528439E-01	-5.85543219098E+00	-3.84508773703E-01
3.13065782401E+05	-2.26036561976E+01	-5.09171228954E+01	6.18692596457E+00	-1.77983337725E+02	-4.08530200503E+01	1.78683771086E+02	-5.93014925747E+00	-2.30909366545E-01
3.13292072007E+05	-3.24637944456E+01	9.09969477571E+01	6.13078229114E+00	-1.77760340086E+02	-3.86052492322E+01	8.05663287356E+01	-5.84889992198E+00	-6.83014967547E-02
3.13518525180E+05	-1.23539219842E+01	-1.61044968576E+01	6.02389576882E+00	-1.77115745492E+02	-4.47696533503E+01	-2.27357887811E+01	-5.85170124398E+00	-2.59234560338E-01
3.13745142038E+05	-2.14507054505E+01	-1.78881565284E+02	6.24653375180E+00	-1.77667353369E+02	-3.77917160654E+01	-1.51696782281E+02	-5.95114304752E+00	-2.56891775066E-01
3.13971922698E+05	-2.49149188237E+01	-1.59251236489E+01	6.25505722442E+00	-1.77394299480E+02	-3.54823204368E+01	-1.31335893647E+02	-5.92155444397E+00	-6.25282311317E-01
3.14198867279E+05	-1.82427136393E+01	-7.83770762624E+01	6.17391906457E+00	-1.76950524330E+02	-4.64731740589E+01	4.30875475074E+01	-5.85482228629E+00	3.91561613419E-02
3.14425975900E+05	-1.14034130160E+01	1.10161944193E+02	6.33126568405E+00	-1.78921395220E+02	-3.17637689301E+01	-9.41479489455E+01	-5.90861685997E+00	-6.34384560094E-01
3.14653248680E+05	-2.67952702987E+01	-1.15955029177E+02	6.16532084107E+00	-1.77610317583E+02	-5.40138681198E+01	-1.24995837492E+02	-5.91373609965E+00	-2.06960901854E-01
3.14880685736E+05	-1.98017311365E+01	1.04727386482E+02	6.20687373634E+00	-1.78484077010E+02	-5.75216354119E+01	-1.17443068010E+02	-5.86696908220E+00	-1.89324625637E-01
3.15108287188E+05	-1.64860036938E+01	-1.71765894981E+01	6.13337140640E+00	-1.77959006371E+02	-3.76357725542E+01	1.64153932996E+02	-5.90297760204E+00	-2.55367116347E-01
3.15336053154E+05	-2.00794323501E+01	1.46157298904E+02	6.21776772534E+00	-1.78220412775E+02	-4.26642542942E+01	4.76474491212E+01	-5.87852298574E+00	-4.51621127486E-01
3.15563983753E+05	-2.73737438302E+01	-1.55986736173E+02	6.19069626425E+00	-1.77344841222E+02	-3.81810061217E+01	-1.77664185319E+01	-5.86570427753E+00	-9.90535351912E-02
3.15792079105E+05	-2.86153731621E+01	-8.26268297007E+01	6.16147212011E+00	-1.78097946236E+02	-4.03965012192E+01	1.73610232216E+02	-5.94001797453E+00	-3.89489268354E-01
3.16020339328E+05	-1.59494975561E+01	-5.07576741676E+01	6.11994458160E+00	-1.77762702032E+02	-2.99057536299E+01	-1.72979325167E+02	-5.96035745950E+00	-1.94927831664E-01
3.16248764542E+05	-2.34591987528E+01	-1.18036919704E+02	6.19103064333E+00	-1.77925540192E+02	-3.95969315352E+01	4.27321316741E+01	-5.88201862079E+00	-2.80583248500E-01
3.16477354866E+05	-2.03562446110E+01	1.23219695118E+02	6.18850155722E+00	-1.78524644327E+02	-4.60540452385E+01	-1.61778761799E+02	-5.85658631458E+00	-1.48689001401E-02
3.16706110419E+05	-2.98011048716E+01	3.08774005385E+01	6.24847268269E+00	-1.78002136489E+02	-3.73136280600E+01	5.44090970751E+01	-5.88084758533E+00	-2.66204937758E-01
3.16935031321E+05	-1.74964753451E+01	1.54476498207E+02	6.27223471514E+00	-1.78678365580E+02	-4.94081955498E+01	-1.55917861550E+02	-5.87990816384E+00	-6.75200511744E-02
3.17164117691E+05	-1.32695328452E+01	-1.40252043539E+02	6.27915532120E+00	-1.77463989675E+02	-3.23398797777E+01	-1.79350927275E+02	-5.92872856430E+00	-5.58219389027E-01
3.17393369648E+05	-1.97167204365E+01	8.57417543224E+01	6.17783454949E+00	-1.78283450820E+02	-2.92675081827E+01	1.65709246026E+02	-5.99755990088E+00	-2.32973980959E-01
3.17622787313E+05	-1.68408739177E+01	4.78827289054E+01	6.14572339849E+00	-1.77852674609E+02	-3.20005809920E+01	-1.01698236601E+02	-5.90769125903E+00	-8.26796070692E-01
3.17852370806E+05	-2.14430919513E+01	-4.57561188017E+01	6.16541701561E+00	-1.77567382669E+02	-3.23701253331E+01	9.01649683533E+01	-5.88963649710E+00	2.41019007576E-01
3.18082120245E+05	-1.79401951442E+01	-9.83981598026E+01	6.21771520765E+00	-1.77305101286E+02	-4.00082305801E+01	-3.69107670458E+01	-5.88665632124E+00	-2.22858476027E-01
3.18312035752E+05	-1.87106597010E+01	-9.13725706577E+01	6.24929818177E+00	-1.77572082684E+02	-3.63977719734E+01	-6.86169183489E+01	-5.86237010260E+00	-4.37363683527E-01
3.18542117445E+05	-2.36400888018E+01	6.63665453887E+01	6.25722142218E+00	-1.77927681353E+02	-3.59850597120E+01	6.78347432485E+01	-5.87555295862E+00	9.59940982820E-02
3.18772365446E+05	-2.60764523841E+01	8.05192866311E+01	6.23847567769E+00	-1.78252866368E+02	-3.79319953048E+01	-9.07199106386E+00	-5.85618969999E+00	-3.16923216356E-01
3.19002779874E+05	-1.96295948726E+01	3.86394886339E+01	6.16172306133E+00	-1.78202406264E+02	-4.58394794206E+01	-1.54235392511E+02	-5.88225397155E+00	-2.94149749138E-01
3.19233360850E+05	-1.95561898406E+01	-1.39180203161E+02	6.23192712845E+00	-1.77367265550E+02	-3.29347054871E+01	-1.42571270670E+02	-5.97310828083E+00	-4.15298396181E-01
3.19464108494E+05	-2.48004240045E+01	-1.68308101321E+02	6.27272904355E+00	-1.78205670083E+02	-4.09873562198E+01	-3.07992327658E+01	-5.85432412912E+00	-2.73050741761E-01
3.19695022927E+05	-2.44737555737E+01	-1.10764905725E+02	6.20227616981E+00	-1.77865422551E+02	-3.86263916587E+01	-1.40337805075E+02	-5.88410743476E+00	-2.24369388300E-01
3.19926104268E+05	-1.91257833989E+01	1.03397467995E+02	6.21872571064E+00	-1.78596778147E+02	-3.88555004982E+01	-7.58977768115E+01	-5.84492439479E+00	-5.25996185984E-01
3.20157352640E+05	-1.97126984252E+01	1.34532924897E+02	6.26640715176E+00	-1.78140957720E+02	-5.49461499170E+01	-6.21374075065E+01	-5.91943245364E+00	-4.85957518668E-01
3.20388768162E+05	-1.66258993957E+01	1.02229918077E+02	6.21161197581E+00	-1.78547007981E+02	-4.20840734452E+01	1.43812270710E+02	-5.90721772888E+00	-2.38797190370E-01
3.20620350955E+05	-1.80233287506E+01	4.29771050503E+01	6.15959033932E+00	-1.78590391236E+02	-3.43654227897E+01	-1.58748030303E+02	-5.94390931638E+00	-4.25184333824E-01
3.20852101140E+05	-1.98801285628E+01	-2.60812458575E+01	6.19053101995E+00	-1.77345371257E+02	-4.18759499907E+01	-1.92376538244E+01	-5.88819169427E+00	-1.18394411898E-01
3.21084018839E+05	-1.46678128250E+01	-9.50886819486E+01	6.29704837872E+00	-1.76815572458E+02	-4.24450349574E+01	1.43160380513E+02	-5.93654434173E+00	-1.07503903577E-01
3.21316104172E+05	-2.04086618753E+01	-8.74571084221E+01	6.26057579836E+00	-1.77468909453E+02	-3.45404304762E+01	-3.06878573656E+01	-5.85761668933E+00	-5.48222069144E-01
3.21548357261E+05	-2.02384401916E+01	-5.00095224063E+01	6.11336121943E+00	-1.77742712458E+02	-3.89821894022E+01	4.57049975693E+01	-5.89823996887E+00	-1.03914272168E-01
3.21780778226E+05	-1.73390429071E+01	1.60043776947E+02	6.29155314986E+00	-1.77780563396E+02	-4.08346250589E+01	-5.05124665384E+01	-5.86536349781E+00	2.79744181016E-02
3.22013367189E+05	-2.15888647408E+01	-9.54516078455E+01	6.22979452256E+00	-1.77661335481E+02	-3.93771274748E+01	-1.31556485849E+02	-5.90074850956E+00	-1.90046778856E-01
3.22246124272E+05	-3.32607238332E+01	1.14355973992E+02	6.19767334003E+00	-1.77842590039E+02	-3.83134256677E+01	-4.27142351344E+01	-5.82761659847E+00	-3.92959044254E-01
3.22479049596E+05	-1.46968231070E+01	1.55480811394E+02	6.38888245960E+00	-1.78248257105E+02	-4.27185654424E+01	-1.72442057142E+02	-5.87287739712E+00	-2.36468010253E-02
3.22712143282E+05	-1.41687227362E+01	1.02844771524E+02	6.18869374154E+00	-1.78906975453E+02	-4.51227812927E+01	-4.39798607476E+01	-5.89520481046E+00	-3.48010244233E-01
3.22945405453E+05	-1.61021290311E+01	2.05789766444E+01	6.13824065321E+00	-1.78065490440E+02	-3.69077967159E+01	-1.01094547449E+02	-5.91913898015E+00	-4.12105380149E-01
3.23178836230E+05	-1.49962171791E+01	9.26573500415E+01	6.23723929794E+00	-1.78239268607E+02	-3.81289451305E+01	-1.56602303140E+02	-5.90217791187E+00	-4.39486427246E-01
3.23412435735E+05	-2.26245064078E+01	-1.27502548167E+02	6.13187374296E+00	-1.77659556017E+02	-5.01583358233E+01	3.46437625351E+01	-5.84373361189E+00	-3.94788753653E-01
3.23646204090E+05	-2.00430570713E+01	-2.07884233008E+01	6.21008984514E+00	-1.77803559109E+02	-3.53996859606E+01	1.38102963549E+02	-5.96039342425E+00	-1.87199448441E-01
3.23880141417E+05	-2.02354186148E+01	-1.36817023429E+02	6.27468666643E+00	-1.77784913873E+02	-4.01760376608E+01	1.10519248439E+01	-5.85786802454E+00	-1.45974243635E-01
3.24114247838E+05	-2.90300035219E+01	-1.49782180260E+02	6.28913747320E+00	-1.77697588087E+02	-3.20062197527E+01	-6.90097000218E+01	-5.85575433616E+00	-6.16125379998E-01
3.24348523475E+05	-2.05004949920E+01	1.40485700082E+02	6.32534252505E+00	-1.78202489203E+02	-5.52358639141E+01	1.70177456954E+02	-5.87930509607E+00	-1.46636461128E-01
3.24582968451E+05	-1.56934925042E+01	1.16430039912E+02	6.20966747290E+00	-1.78593133168E+02	-4.07201989729E+01	1.26410005367E+02	-5.90469541773E+00	-1.32645341451E-01
3.24817582888E+05	-1.54076805841E+01	1.48403707350E+02	6.22016356888E+00	-1.78498203993E+02	-4.61606388109E+01	5.91556015825E+01	-5.87819354565E+00	-1.39951536736E-01
3.25052366909E+05	-3.57167858398E+01	3.12627989587E+01	6.23568826560E+00	-1.77785960575E+02	-3.90192968262E+01	-5.03131930693E+01	-5.89955530768E+00	-5.29691323443E-01
3.25287320635E+05	-1.92935568155E+01	-6.61822013744E+01	6.21141660741E+00	-1.77836768695E+02	-4.29540542651E+01	-3.80587899107E+01	-5.87109064323E+00	-3.10573325642E-01
3.25522444191E+05	-1.52148403562E+01	1.25225252782E+02	6.26084509194E+00	-1.78597014504E+02	-3.96244839252E+01	1.38112713319E+02	-5.89094754864E+00	-2.52166014455E-01
3.25757737698E+05	-2.58557191101E+01	-1.42345831664E+02	6.20780488586E+00	-1.77529913875E+02	-3.45799359779E+01	1.60725629618E+02	-5.99083612752E+00	-2.87292342276E-01
3.25993201280E+05	-3.13744199828E+01	1.73575840246E+02	6.24182134489E+00	-1.78634524911E+02	-3.58275382985E+01	1.12680434062E+02	-5.89156475865E+00	-1.99597069784E-01
3.26228835058E+05	-2.55344199174E+01	-1.08066313186E+02	6.26402282342E+00	-1.77812253299E+02	-3.88469533322E+01	1.46287355268E+02	-5.92914167893E+00	-7.61686826307E-02
