# Hz S DB R 50
! CMT, M5065, 19127446, 24.2.4/2
! Date: 11/1/2024 4:25:27 PM
! Data: Format (Calibration Info)
! Freq	S11:dB/Ang(F2)	S21:dB/Ang(F2)	S12:dB/Ang(F2)	S22:dB/Ang(F2)
3.00000000000E+05	-2.31073464579E+01	-1.28790170346E+02	7.30219020499E+00	-1.77680767177E+02	-3.33902408474E+01	1.54294450789E+02	-5.95345617845E+00	-1.67261334899E-01
3.00216845423E+05	-2.20172120110E+01	6.42775405820E+01	7.15786196056E+00	-1.77647909496E+02	-4.56202570964E+01	1.53794501234E+02	-5.89908058225E+00	-1.37660293374E-01
3.00433847586E+05	-1.68560900535E+01	5.18912900166E+01	7.13632917760E+00	-1.78292026061E+02	-3.15837525719E+01	-4.67835800772E+01	-5.85702783642E+00	-7.34582176289E-01
3.00651006602E+05	-1.27434348741E+01	1.01511159270E+02	7.17190066136E+00	-1.78429257164E+02	-3.39226030590E+01	1.26826240338E+02	-5.92886259323E+00	3.01148183624E-01
3.00868322584E+05	-1.13570858819E+01	-1.82522590179E+01	7.14278541334E+00	-1.77166992959E+02	-4.65520542573E+01	3.87436418116E+01	-5.86910198621E+00	-1.36800085359E-01
3.01085795647E+05	-1.93736821162E+01	4.20095970350E+01	7.25901569684E+00	-1.77454011224E+02	-3.73387843756E+01	-1.33042809778E+02	-5.91615936568E+00	-3.86453681086E-01
3.01303425902E+05	-1.58937627245E+01	6.22051263264E+01	7.18956468049E+00	-1.77258865405E+02	-3.73984218212E+01	1.19570224010E+02	-5.92206054422E+00	-1.89999820714E-01
3.01521213465E+05	-4.67490237107E+01	-2.93771040672E+01	7.22378746234E+00	-1.78047482805E+02	-4.38437949759E+01	-1.29825240852E+02	-5.89144883304E+00	-3.18771224655E-01
3.01739158449E+05	-1.85694443726E+01	8.72386580537E+01	7.34585550472E+00	-1.78342346882E+02	-3.53218900659E+01	-1.00586092824E+01	-5.84360779762E+00	-3.56078165121E-01
3.01957260967E+05	-1.42772394368E+01	3.74822615270E+01	7.17151568537E+00	-1.77975320307E+02	-4.78728138058E+01	1.52202679645E+02	-5.95730059332E+00	-1.44753004972E-01
3.02175521134E+05	-1.90399386669E+01	3.40825426504E+01	7.23934637869E+00	-1.78059909811E+02	-4.10967481876E+01	-3.84975911190E+01	-5.90428337014E+00	-4.05738147188E-01
3.02393939063E+05	-2.27267900224E+01	1.90568739825E+01	7.21121524534E+00	-1.77539222900E+02	-4.99349153371E+01	-1.31500083028E+02	-5.86726651889E+00	1.03393089939E-02
3.02612514869E+05	-2.69249092661E+01	7.63684094815E+01	7.27624254769E+00	-1.77396388696E+02	-4.13822964223E+01	-1.46566563385E+02	-5.91929775856E+00	-2.97724439298E-01
3.02831248665E+05	-1.40521446928E+01	6.11331755895E+01	7.22758820731E+00	-1.78259104443E+02	-4.45197684694E+01	-1.71797275479E+02	-5.91018316274E+00	-2.74831123692E-01
3.03050140565E+05	-2.23903721579E+01	3.76372789197E+01	7.24150492158E+00	-1.77440879100E+02	-4.04589082868E+01	2.24781741787E+01	-5.88044187594E+00	5.50122235226E-02
3.03269190685E+05	-2.29049524720E+01	-1.39473178266E+02	7.28538818729E+00	-1.76947219256E+02	-3.63847476432E+01	1.42662827901E+01	-5.83834622555E+00	-4.89891580896E-01
3.03488399138E+05	-2.76678883425E+01	-1.11517243307E+02	7.28872483102E+00	-1.77719121643E+02	-2.97303940515E+01	-2.77688606248E+01	-5.82760567311E+00	-4.93390391506E-01
3.03707766039E+05	-1.34557725446E+01	1.39787946742E+01	7.09875717436E+00	-1.78056356795E+02	-4.62487074324E+01	7.93548150535E+01	-5.86632797207E+00	-2.74874910854E-01
3.03927291503E+05	-7.22280895318E+00	1.12286092778E+02	7.35462063117E+00	1.79914491008E+02	-3.69861068132E+01	-7.91311460657E+01	-5.89165732037E+00	-5.75542638828E-01
3.04146975643E+05	-2.55351983561E+01	-9.09894612970E+00	7.21943659003E+00	-1.77305294336E+02	-3.57484408629E+01	1.30753142542E+02	-5.90917740489E+00	-3.29533377526E-01
3.04366818575E+05	-2.42194147161E+01	8.27129563543E+01	7.26547866517E+00	-1.77726337419E+02	-3.74505141838E+01	4.96969744380E+01	-5.88521210360E+00	-2.09561481541E-01
3.04586820414E+05	-1.67387656941E+01	1.26120965451E+02	7.29238033808E+00	-1.78315865335E+02	-3.23547256286E+01	-1.71902856086E+02	-5.96409106188E+00	-1.93619070583E-01
3.04806981274E+05	-2.60186767951E+01	1.34466371141E+01	7.24933512125E+00	-1.77662641515E+02	-4.30182858286E+01	1.79588780566E+02	-5.91414245253E+00	-1.12478422656E-01
3.05027301270E+05	-2.25291706247E+01	1.58291684578E+02	7.22220875138E+00	-1.77824580453E+02	-3.32961203333E+01	5.02371336061E+01	-5.81891102308E+00	-2.29467070998E-01
3.05247780517E+05	-1.73598142042E+01	1.13655257936E+02	7.32845921328E+00	-1.78283094892E+02	-3.07452960343E+01	-4.99656743783E+01	-5.83346038373E+00	-6.19433960589E-01
3.05468419131E+05	-2.12606622541E+01	8.09387226294E+01	7.30590519980E+00	-1.77804512706E+02	-3.37330586780E+01	9.46663495610E+01	-5.87705540260E+00	4.42503662298E-01
3.05689217226E+05	-1.87802288864E+01	6.01947568570E+01	7.23290870701E+00	-1.77856208872E+02	-4.15816299727E+01	6.76259011668E+01	-5.89331764979E+00	1.63448249231E-01
3.05910174918E+05	-2.12858605161E+01	-1.48200358582E+02	7.32054500958E+00	-1.77585736973E+02	-4.24794987658E+01	1.62520127242E+02	-5.93855927907E+00	-1.80906282537E-02
3.06131292322E+05	-2.11469012981E+01	9.53129366174E+01	7.25516040788E+00	-1.77907516628E+02	-4.33357309681E+01	-1.74585774322E+02	-5.90287745869E+00	-6.53450407468E-02
3.06352569554E+05	-1.98441880502E+01	1.26330332400E+02	7.34139139021E+00	-1.77742462436E+02	-3.80006417806E+01	-9.08581993021E+00	-5.88198830771E+00	-2.35153126544E-01
3.06574006730E+05	-1.65475655582E+01	-1.67789619117E+02	7.33719913994E+00	-1.77436489713E+02	-3.13500430214E+01	3.81091185956E+01	-5.83725140419E+00	3.42734790972E-01
3.06795603964E+05	-1.26648547955E+01	-6.29533497047E+01	7.14973077356E+00	-1.76708656538E+02	-3.87492123508E+01	8.60108309054E+01	-5.87584386475E+00	-1.72312137662E-01
3.07017361372E+05	-1.22405616983E+01	1.16546137188E+02	7.39814783182E+00	-1.78560127348E+02	-4.38387630124E+01	1.42753962577E+02	-5.90257278688E+00	-2.34289533741E-02
3.07239279071E+05	-1.92325286078E+01	-1.29790193458E+02	7.22177945071E+00	-1.77351871628E+02	-4.08406952270E+01	4.20287699755E+01	-5.86621319983E+00	-2.89555228038E-02
3.07461357176E+05	-2.65224776716E+01	-4.57742464000E+01	7.21622342579E+00	-1.77725226608E+02	-3.63976042243E+01	8.41978563010E+01	-5.85453157582E+00	2.89370696712E-02
3.07683595803E+05	-1.82241747166E+01	9.58232405943E+01	7.18864965658E+00	-1.77923922808E+02	-4.13781451070E+01	-1.39989654006E+02	-5.90341347897E+00	-5.08105140820E-01
3.07905995068E+05	-2.10265855224E+01	-1.39407914167E+02	7.23745891802E+00	-1.78032011597E+02	-4.41993332569E+01	7.37711784853E+01	-5.87991574893E+00	-1.79821048477E-01
3.08128555087E+05	-2.15851266292E+01	1.20442230851E+02	7.23712559710E+00	-1.78299447355E+02	-2.84480984533E+01	-1.12494059878E+02	-5.90791688405E+00	-1.03942360306E+00
3.08351275976E+05	-2.54631922383E+01	4.60903112358E+01	7.19084970182E+00	-1.77598130403E+02	-3.67695004335E+01	-2.18182397127E+01	-5.80595225555E+00	-2.38446167871E-01
3.08574157853E+05	-9.10088384916E+00	-4.88059728394E+01	6.97546147716E+00	-1.76410387295E+02	-3.80276003597E+01	1.33190861671E+02	-5.92570189006E+00	-2.94085023190E-01
3.08797200832E+05	-2.29195575375E+01	1.27688475488E+02	7.25245632906E+00	-1.77810749668E+02	-3.81849680509E+01	-8.48477309728E+01	-5.92566419210E+00	-5.21536657781E-01
3.09020405031E+05	-2.51396951393E+01	1.36690463729E+02	7.27778376027E+00	-1.77368996061E+02	-3.58347912055E+01	-1.73737312866E+02	-5.89897693589E+00	-1.00130572552E-01
3.09243770566E+05	-1.79413943843E+01	-1.41063291931E+02	7.27539997903E+00	-1.77753039748E+02	-3.95704688895E+01	1.42705906834E+02	-5.90228066785E+00	-3.74195973531E-01
3.09467297553E+05	-2.10036744396E+01	1.56564718760E+02	7.26486583145E+00	-1.77691088498E+02	-4.54205628991E+01	-1.77648063414E+02	-5.90818662487E+00	-3.64961083424E-01
3.09690986110E+05	-1.80793441724E+01	7.64248114606E+00	7.09614739816E+00	-1.77838304035E+02	-6.65406943420E+01	1.46358857724E+02	-5.85779889648E+00	-4.24525013173E-01
3.09914836353E+05	-2.05821235246E+01	1.20778139419E+02	7.26048950636E+00	-1.78426553469E+02	-4.00352895564E+01	1.95549336727E+00	-5.83531782515E+00	-2.21380056152E-01
3.10138848399E+05	-2.10192292250E+01	1.53021320699E+02	7.33166540140E+00	-1.78328896347E+02	-4.06801103679E+01	-1.67985093610E+02	-5.94893190897E+00	2.75345255871E-03
3.10363022365E+05	-1.45795490164E+01	7.41216177715E+01	7.17977332119E+00	-1.78964138685E+02	-3.84724931110E+01	-1.50663001033E+02	-5.90483167527E+00	-4.03218647296E-01
3.10587358368E+05	-1.51433773585E+01	9.61436082622E+01	7.21677533048E+00	-1.78454783334E+02	-4.60571565169E+01	1.49643956437E+02	-5.84813424202E+00	-1.88765884707E-01
3.10811856525E+05	-1.73213815510E+01	-6.47306752051E+01	7.24070644576E+00	-1.77373308315E+02	-4.30954315307E+01	-1.06725640397E+02	-5.93697602542E+00	-3.95683644064E-01
3.11036516954E+05	-1.96477948297E+01	-1.22381896649E+02	7.24632095072E+00	-1.77340215011E+02	-4.65935368738E+01	1.73351872356E+02	-5.89043592718E+00	-2.92814491793E-01
3.11261339771E+05	-2.58306636579E+01	1.39943149156E+02	7.29461531977E+00	-1.77605150205E+02	-2.73174668390E+01	1.27479221595E+02	-5.96548520880E+00	6.05950244585E-01
3.11486325094E+05	-1.83128011287E+01	8.87163502700E+01	7.23116394996E+00	-1.78251772827E+02	-3.14616501655E+01	1.14835049742E+02	-5.93832936430E+00	5.40927184390E-01
3.11711473040E+05	-1.13566266829E+01	-1.13127631837E+02	7.37889724359E+00	-1.76707666160E+02	-4.61992979877E+01	-1.24468747600E+02	-5.88687416486E+00	-4.95782277143E-01
3.11936783728E+05	-1.31593332385E+01	-9.17893686157E+01	7.20807624603E+00	-1.76729368808E+02	-4.16357359630E+01	-9.80496602720E+01	-5.89653982908E+00	-5.85084206544E-01
3.12162257274E+05	-5.13590465720E+01	-1.23373581143E+01	7.20620657446E+00	-1.77779261801E+02	-4.25226890544E+01	-3.99994839953E+01	-5.84349312119E+00	-4.69011259400E-01
3.12387893797E+05	-2.08115310379E+01	8.03827236933E+01	7.25160309156E+00	-1.78128913388E+02	-3.82971321878E+01	-5.82607089747E+01	-5.88144872692E+00	-3.56847713141E-01
3.12613693413E+05	-2.17585666532E+01	-1.37031982376E+02	7.22900475017E+00	-1.77371246765E+02	-4.63374008670E+01	-1.46015514271E+02	-5.87131191230E+00	-1.75517702427E-01
3.12839656242E+05	-2.81287522372E+01	-1.53858294586E+02	7.33281402485E+00	-1.77905047255E+02	-3.83927725234E+01	-1.47493839151E+02	-5.91424982826E+00	-1.43009683730E-01
3.13065782401E+05	-2.55604313585E+01	-7.33443250478E+01	7.22032325860E+00	-1.77523210426E+02	-3.21757100233E+01	1.09706492889E+02	-5.91131357178E+00	2.61485064083E-01
3.13292072007E+05	-1.76766398334E+01	1.01661459241E+02	7.30634252531E+00	-1.78243750323E+02	-3.72140984413E+01	8.63975061838E+01	-5.90164093463E+00	-1.51871451548E-01
3.13518525180E+05	-2.62330843163E+01	5.97750561410E+01	7.29508190546E+00	-1.77940416539E+02	-5.26637144826E+01	-1.40047869396E+02	-5.88238000481E+00	-3.41742917944E-01
3.13745142038E+05	-2.22765065913E+01	3.71922200216E+01	7.29842904978E+00	-1.78063968551E+02	-4.48736655828E+01	-1.39312392562E+02	-5.90504472278E+00	-3.73172838565E-01
3.13971922698E+05	-1.56638966480E+01	-3.17723238097E+01	7.15295806914E+00	-1.77436538089E+02	-3.72209807709E+01	3.56641791120E+01	-5.89178902778E+00	2.64295193397E-03
3.14198867279E+05	-1.90030417449E+01	-1.71707682615E+02	7.35387303646E+00	-1.77955495050E+02	-4.63998516275E+01	1.76202590919E+02	-5.91870610350E+00	-1.12207961059E-01
3.14425975900E+05	-1.46162032295E+01	-7.53568998700E+01	7.23679305971E+00	-1.77032457851E+02	-3.27831577555E+01	1.24946299707E+02	-5.90734473995E+00	-8.04181447267E-02
3.14653248680E+05	-2.38339172034E+01	-1.79982786846E+02	7.26671038107E+00	-1.78103307137E+02	-3.45368384116E+01	1.31796106207E+02	-5.96309765483E+00	-1.90906595954E-02
3.14880685736E+05	-2.95362536454E+01	-9.37855823775E+01	7.29077590361E+00	-1.77551078846E+02	-4.11654324264E+01	-9.51389685298E+01	-5.85970588519E+00	-4.96418324455E-01
3.15108287188E+05	-1.11693731736E+01	6.18476365879E+01	7.07606189095E+00	-1.79229565490E+02	-3.75442028455E+01	1.31334240197E+02	-5.89416884000E+00	-1.63415217622E-01
3.15336053154E+05	-1.41751298920E+01	-6.05717806421E+00	7.10820492067E+00	-1.77655820364E+02	-3.84704047523E+01	1.14835005148E+02	-5.91880337189E+00	-1.65665659017E-01
3.15563983753E+05	-2.20517707231E+01	1.05479468993E+02	7.31062526947E+00	-1.77838559921E+02	-4.14718563962E+01	-1.14329630747E+02	-5.91165667072E+00	-4.17008111337E-01
3.15792079105E+05	-2.27067330629E+01	1.40747675213E+02	7.26561969552E+00	-1.78106195065E+02	-3.66161191182E+01	-6.82524234583E+01	-5.85010190122E+00	-3.23708166268E-01
3.16020339328E+05	-2.00491921201E+01	-1.08974772023E+01	7.23185907965E+00	-1.77220751861E+02	-3.84949145891E+01	-1.51945242356E+02	-5.89314521883E+00	-4.64987519231E-01
3.16248764542E+05	-2.26434831730E+01	1.70436882561E+02	7.26801459420E+00	-1.77786796636E+02	-3.67528429077E+01	4.66810887135E+01	-5.86653463244E+00	-3.95070863565E-02
3.16477354866E+05	-1.56504213247E+01	-4.82016720685E+00	7.05999016951E+00	-1.77740839212E+02	-4.59774411112E+01	-8.72777447312E+01	-5.90093525196E+00	-3.00007049574E-01
3.16706110419E+05	-2.23344838438E+01	-4.78421428455E+01	7.16891598852E+00	-1.77790324987E+02	-4.97499052985E+01	-1.50629755279E+02	-5.95329612052E+00	-1.12534033188E-02
3.16935031321E+05	-2.43471337271E+01	7.69626281173E+01	7.33023580230E+00	-1.78121992407E+02	-3.48520941907E+01	9.46884106467E+01	-5.90189498770E+00	-1.32064692888E-01
3.17164117691E+05	-1.53797730362E+01	-1.05795238364E+02	7.24455986132E+00	-1.77090186419E+02	-3.72212909068E+01	-2.43306798233E+01	-5.84829650141E+00	-2.90826976913E-01
3.17393369648E+05	-1.74298786467E+01	4.41593364596E+01	7.18852186037E+00	-1.77904028055E+02	-4.69597379826E+01	3.17903513183E+01	-5.91513550647E+00	-3.05036602571E-02
3.17622787313E+05	-1.72891369895E+01	8.20272098704E+01	7.27917795634E+00	-1.78087576604E+02	-4.50435065850E+01	3.33126834461E+01	-5.86032058117E+00	6.77960274252E-03
3.17852370806E+05	-3.03677207560E+01	9.01404969290E+01	7.22804714951E+00	-1.78366631463E+02	-4.16235865689E+01	1.77596879381E+02	-5.91353314609E+00	-2.00875910617E-01
3.18082120245E+05	-2.23326542538E+01	2.02024452422E+01	7.18765163369E+00	-1.77967404060E+02	-4.23719141260E+01	1.73882443291E+02	-5.88928663083E+00	-2.53828662545E-01
3.18312035752E+05	-1.27377405826E+01	7.95580076712E+01	7.19576197483E+00	-1.79310186114E+02	-4.42945215261E+01	-1.78679293921E+02	-5.86213377106E+00	-5.55186449894E-02
3.18542117445E+05	-3.09835658901E+01	9.73807933027E+01	7.20898127079E+00	-1.77909079253E+02	-3.68376928862E+01	1.20852699499E+01	-5.85782719807E+00	-6.83341601786E-02
3.18772365446E+05	-1.85580666085E+01	-1.04177880840E+02	7.26255829609E+00	-1.77479725048E+02	-3.82069005833E+01	-6.59541864779E+01	-5.84596022663E+00	-4.52464101086E-01
3.19002779874E+05	-2.43449950727E+01	1.34735334401E+02	7.24768958225E+00	-1.78141887754E+02	-4.00349336798E+01	3.96648216129E+01	-5.89350898407E+00	-3.44144046629E-01
3.19233360850E+05	-3.55097732398E+01	6.95098843500E+01	7.21875035053E+00	-1.77622006001E+02	-3.38383508634E+01	-3.59542912853E+01	-5.81618396148E+00	-6.01598822758E-01
3.19464108494E+05	-2.35274441669E+01	-1.22905873333E+02	7.24199326691E+00	-1.77874179002E+02	-2.54305795546E+01	-1.60996439414E+02	-6.07010785954E+00	-6.58677292587E-01
3.19695022927E+05	-1.65792903233E+01	-1.50937819644E+02	7.27144725866E+00	-1.77715476250E+02	-3.71231474364E+01	-7.73406498177E+01	-5.92084913714E+00	-6.91087135034E-01
3.19926104268E+05	-2.34347668113E+01	4.97711738683E+01	7.13447758266E+00	-1.77910020806E+02	-4.25796472572E+01	1.03783218563E+02	-5.90344252869E+00	6.90547226514E-02
3.20157352640E+05	-2.24545275331E+01	-1.43828780709E+01	7.20961065097E+00	-1.77750694849E+02	-4.11847801601E+01	-1.41280880648E+02	-5.88334090110E+00	-4.24050717066E-01
3.20388768162E+05	-2.16673706337E+01	-7.70521067997E+01	7.25672421838E+00	-1.77826434990E+02	-4.06268693193E+01	1.56494508441E+02	-5.92595751689E+00	-2.50700683803E-02
3.20620350955E+05	-2.59043440851E+01	6.31126775307E+01	7.17339888901E+00	-1.78341453292E+02	-4.71640052674E+01	-7.64468444142E+01	-5.87997036861E+00	-4.51452327937E-01
3.20852101140E+05	-1.51052593947E+01	-8.99723726978E+01	7.22988536908E+00	-1.76787172104E+02	-3.49307017175E+01	-6.16380895179E+01	-5.84809581352E+00	-5.39737900207E-01
3.21084018839E+05	-2.46958878952E+01	7.82139954567E+01	7.22955846164E+00	-1.78089423609E+02	-4.68138208536E+01	2.44721559427E+01	-5.90113179327E+00	-1.66289329605E-01
3.21316104172E+05	-1.79289885617E+01	3.49781767066E+01	7.20354529364E+00	-1.78398235579E+02	-3.74533385693E+01	3.22841964284E+01	-5.85352508026E+00	-3.62667650390E-01
3.21548357261E+05	-1.56150531281E+01	-1.00212993250E+02	7.28658188167E+00	-1.77107839761E+02	-4.20767869346E+01	1.78000831954E+01	-5.89441254253E+00	-3.18941534986E-02
3.21780778226E+05	-1.85331041591E+01	9.47774880187E+01	7.26097931006E+00	-1.78049903505E+02	-4.20635550254E+01	1.39810591749E+02	-5.91010093585E+00	-3.41724561255E-01
3.22013367189E+05	-2.07535554691E+01	1.55852895559E+02	7.31504720408E+00	-1.78327617050E+02	-3.70433400037E+01	-9.93674595449E+01	-5.85201843171E+00	-4.43029478001E-01
3.22246124272E+05	-2.86836896196E+01	1.03452264553E+02	7.27183337358E+00	-1.78043790598E+02	-4.64829737870E+01	1.34419711666E+00	-5.89967944130E+00	-2.99126510107E-01
3.22479049596E+05	-2.00760446827E+01	-1.27052496408E+02	7.31590592399E+00	-1.77753086201E+02	-4.01071071465E+01	-1.62780218557E+02	-5.94744358076E+00	-3.00253240983E-01
3.22712143282E+05	-2.02287871453E+01	-1.72145946584E+02	7.33119997289E+00	-1.78018028363E+02	-4.64761271967E+01	-1.54040541085E+02	-5.92282043288E+00	-4.49974159122E-01
3.22945405453E+05	-2.24350695998E+01	-1.41570381467E+02	7.34212325815E+00	-1.77529037217E+02	-3.40212430405E+01	-4.63006007533E+01	-5.86145151344E+00	-3.89078110176E-01
3.23178836230E+05	-2.80837689890E+01	1.22168526244E+02	7.28997827062E+00	-1.78311724574E+02	-4.95856836153E+01	1.68579677321E+02	-5.89676906148E+00	-4.24470638903E-01
3.23412435735E+05	-1.96577466415E+01	-1.74445193707E+02	7.29804643278E+00	-1.78035475340E+02	-3.85236982140E+01	9.12578973830E+01	-5.91248026672E+00	2.68177218773E-01
3.23646204090E+05	-1.64129884307E+01	1.26328140868E+02	7.29609224630E+00	-1.78695529902E+02	-3.72048564096E+01	-1.25518853982E+02	-5.92039748157E+00	-7.62100695643E-01
3.23880141417E+05	-1.93909172307E+01	2.91813642343E+01	7.18468079610E+00	-1.78008733601E+02	-4.59551872702E+01	1.06972710780E+02	-5.86624042908E+00	-2.23271440015E-01
3.24114247838E+05	-2.20813064109E+01	4.66644766087E+00	7.24910827195E+00	-1.78055582605E+02	-3.74778995251E+01	-7.55628004211E+00	-5.86071139401E+00	-1.69777393143E-01
3.24348523475E+05	-2.23496789161E+01	-8.12016023910E+01	7.28483392542E+00	-1.77468009465E+02	-4.12552372278E+01	1.12306708076E+02	-5.94368858049E+00	-2.35579850364E-01
3.24582968451E+05	-1.69834796996E+01	-8.04270131293E+01	7.28384922119E+00	-1.76915116275E+02	-4.03353867098E+01	2.46525891400E+01	-5.85067726666E+00	-4.14565977042E-01
3.24817582888E+05	-1.95741534150E+01	1.51822631217E+02	7.27717023226E+00	-1.78165478851E+02	-4.18954336017E+01	6.84376263100E+01	-5.88664606411E+00	7.97975766630E-02
3.25052366909E+05	-2.01641662130E+01	8.32536554441E+01	7.22937122270E+00	-1.78521851376E+02	-4.40577934974E+01	-3.85579128063E+01	-5.91749631432E+00	-3.42102230558E-01
3.25287320635E+05	-1.89485962382E+01	5.02850119280E+01	7.23503915715E+00	-1.78453566508E+02	-4.67397246322E+01	-7.17675818412E+00	-5.91619656791E+00	-8.38919661010E-02
3.25522444191E+05	-2.17750844672E+01	-1.85364656064E+01	7.18393161775E+00	-1.78373482583E+02	-4.04265727306E+01	-1.64486628814E+02	-5.88326755835E+00	-5.65934567204E-01
3.25757737698E+05	-1.97373224224E+01	3.40193596537E+01	7.17576550655E+00	-1.78032759963E+02	-4.40131556887E+01	1.40676180086E+02	-5.87940055617E+00	-5.59667696315E-02
3.25993201280E+05	-1.96985013121E+01	-1.50867943324E+02	7.35057465896E+00	-1.77850560356E+02	-3.75867878720E+01	-1.29854966644E+02	-5.91648786017E+00	-6.54347663520E-01
3.26228835058E+05	-1.82125550366E+01	1.30076620769E+02	7.22714393600E+00	-1.78222531292E+02	-3.81572900641E+01	-9.01109068111E+01	-5.83702206432E+00	-9.19339272565E-01
