# Hz S DB R 50
! CMT, M5065, 19127446, 24.2.4/2
! Date: 11/1/2024 4:23:41 PM
! Data: Format (Calibration Info)
! Freq	S11:dB/Ang(F2)	S21:dB/Ang(F2)	S12:dB/Ang(F2)	S22:dB/Ang(F2)
3.00000000000E+05	-2.63049167238E+01	9.08429626114E+01	6.65402737052E+00	-1.77723829990E+02	-3.98603214035E+01	-1.51935818962E+02	-5.91923970455E+00	-3.39662882218E-01
3.00216845423E+05	-1.56103273967E+01	-1.27515193962E+02	6.73117820376E+00	-1.76848111172E+02	-3.33426606513E+01	1.55276611042E+02	-5.95286909667E+00	3.08876122505E-03
3.00433847586E+05	-2.57291093265E+01	1.53990918697E+02	6.64768995267E+00	-1.77805945476E+02	-4.83747302588E+01	4.72966027351E+01	-5.88881274652E+00	-4.04036234009E-02
3.00651006602E+05	-2.68807224757E+01	-8.70024882367E+01	6.68433642389E+00	-1.77128654125E+02	-4.63222768999E+01	-9.64876835656E+01	-5.90097616766E+00	-4.08445605618E-01
3.00868322584E+05	-2.56390247230E+01	-9.98275052882E+01	6.70616082029E+00	-1.77075327696E+02	-3.67302739846E+01	-4.23417265674E+01	-5.86613180195E+00	-2.61138946015E-01
3.01085795647E+05	-2.39394985089E+01	-1.46478716438E+01	6.71428682853E+00	-1.77705117017E+02	-3.96056066747E+01	-8.80181782614E+01	-5.89731740199E+00	-4.45499773447E-01
3.01303425902E+05	-2.33107231237E+01	-1.39252719071E+02	6.72884080142E+00	-1.76772886953E+02	-3.70085916492E+01	-1.46265452278E+02	-5.94720358253E+00	-3.58253099308E-01
3.01521213465E+05	-2.98823232119E+01	3.30381231058E+01	6.64467495853E+00	-1.77853761759E+02	-3.82867302148E+01	-3.11998463406E+01	-5.85694764611E+00	-4.15298223778E-01
3.01739158449E+05	-1.97150449298E+01	6.32659141127E+01	6.62217351763E+00	-1.78110294804E+02	-3.38394364019E+01	4.32018307776E+01	-5.83955734960E+00	1.35960763270E-01
3.01957260967E+05	-4.24969358937E+01	-1.62903386026E+02	6.60919844831E+00	-1.77521222675E+02	-4.61370909370E+01	-1.22817527869E+02	-5.90144145176E+00	-2.12916434671E-01
3.02175521134E+05	-2.07933768304E+01	-1.66989701948E+01	6.68702106008E+00	-1.77934214395E+02	-5.46184612987E+01	8.21137850158E+01	-5.89044321822E+00	-2.06049434610E-01
3.02393939063E+05	-1.35379326624E+01	1.38020701511E+02	6.76908285737E+00	-1.78302395589E+02	-4.21835028189E+01	-4.69582132080E+01	-5.92389123124E+00	-5.83965107515E-02
3.02612514869E+05	-2.11719080723E+01	-8.11063747147E+01	6.65008724068E+00	-1.77470140355E+02	-4.22699794303E+01	1.60370810564E+02	-5.89424380839E+00	-1.58262394373E-01
3.02831248665E+05	-2.21856630490E+01	2.12151659386E+01	6.59228057909E+00	-1.77742106540E+02	-3.82321455560E+01	1.54489547566E+02	-5.85763512060E+00	-1.38232030824E-02
3.03050140565E+05	-2.09693181564E+01	-2.86150361082E+00	6.59263247966E+00	-1.77458135783E+02	-4.54995719105E+01	1.79836728801E+02	-5.93436776604E+00	-5.35404036473E-01
3.03269190685E+05	-1.35143851614E+01	6.77387950984E+01	6.60881169060E+00	-1.78213527495E+02	-4.61521190563E+01	-1.45270138124E+02	-5.91526609633E+00	-1.39796517145E-01
3.03488399138E+05	-2.10270837507E+01	8.97425332731E+01	6.64549636839E+00	-1.77924204937E+02	-3.95343583501E+01	-5.26473190321E+01	-5.88991328597E+00	-1.25310546270E-01
3.03707766039E+05	-1.55856670032E+01	1.44371176751E+02	6.70473724621E+00	-1.77752697133E+02	-4.20441714027E+01	1.03556279050E+02	-5.89278696369E+00	-2.78749050928E-01
3.03927291503E+05	-2.12357761760E+01	1.36589623232E+02	6.71259480528E+00	-1.78309001017E+02	-3.90124667712E+01	5.29707471546E+01	-5.85210857200E+00	1.48659396711E-01
3.04146975643E+05	-3.21846129406E+01	3.54224760146E+01	6.65554660816E+00	-1.77322836575E+02	-4.76615327539E+01	6.55293239799E+01	-5.89079858977E+00	6.97040608822E-02
3.04366818575E+05	-2.50291101242E+01	3.72803973786E+01	6.63015720876E+00	-1.77597491302E+02	-4.30153629379E+01	6.00678620501E+00	-5.84354521673E+00	-1.69817876064E-01
3.04586820414E+05	-1.53784807789E+01	2.31131339614E+01	6.56659337457E+00	-1.77509041446E+02	-4.40919568444E+01	-1.71839438773E+02	-5.94598230890E+00	-3.10144470419E-01
3.04806981274E+05	-1.60336126755E+01	1.64214961155E+02	6.59971880353E+00	-1.77618195172E+02	-4.10642040844E+01	-1.59612448440E+02	-5.93380096839E+00	-2.49176816053E-01
3.05027301270E+05	-1.10898865016E+01	1.65342881968E+02	6.89386519872E+00	-1.77591572964E+02	-4.87492177645E+01	1.64996552144E+02	-5.87149747505E+00	-3.34881178796E-01
3.05247780517E+05	-3.59234584455E+01	-1.52878339573E+02	6.70311171498E+00	-1.78015895282E+02	-5.73057077710E+01	-9.76996760221E+01	-5.87678382897E+00	-2.11901491989E-01
3.05468419131E+05	-2.71630964801E+01	8.76309515066E+01	6.70057446979E+00	-1.77743125811E+02	-4.91586252981E+01	-1.11521796205E+02	-5.87468407743E+00	-2.77212414192E-01
3.05689217226E+05	-2.93068396667E+01	1.28337633118E+02	6.70711811361E+00	-1.77999009698E+02	-4.01106059306E+01	-7.89169666717E+00	-5.87206171981E+00	-4.40418580275E-01
3.05910174918E+05	-1.78906515403E+01	9.42345235364E+01	6.68641026297E+00	-1.77502067036E+02	-4.02346644713E+01	-5.84826177417E+01	-5.89405323830E+00	-3.61435652885E-01
3.06131292322E+05	-2.31518444329E+01	1.16702958151E+02	6.67987319775E+00	-1.77483968563E+02	-4.51198111483E+01	-2.17415803656E+01	-5.86208010853E+00	-5.14098762942E-01
3.06352569554E+05	-4.03498053466E+01	-6.76855426468E+01	6.64611568773E+00	-1.77400844872E+02	-3.27859512463E+01	-1.70156815652E+02	-5.95277692414E+00	-3.44861004873E-01
3.06574006730E+05	-1.22050552286E+01	-5.92542497967E+01	6.59999358075E+00	-1.76674610522E+02	-4.05589077902E+01	8.80500884886E+01	-5.90392757121E+00	-3.33279209569E-01
3.06795603964E+05	-2.16636611050E+01	-3.53243067548E+01	6.61133475687E+00	-1.77407320620E+02	-4.00193202265E+01	-1.00264615773E+01	-5.85213348970E+00	-2.06735508148E-01
3.07017361372E+05	-2.34686204332E+01	-1.43614745406E+02	6.71393087881E+00	-1.77576777768E+02	-3.75533198710E+01	-1.17369479872E+02	-5.87454844051E+00	-4.41549067647E-01
3.07239279071E+05	-2.32407548542E+01	-2.90992036589E+01	6.67821933134E+00	-1.77728901232E+02	-3.63779167411E+01	1.75241716592E+02	-5.92496523282E+00	-1.34601582620E-01
3.07461357176E+05	-2.66836074969E+01	1.23897823015E+02	6.68749866624E+00	-1.77932773884E+02	-4.00626375102E+01	-1.17486553132E+02	-5.91627912732E+00	-2.62710985169E-01
3.07683595803E+05	-2.11161994229E+01	-1.48921744530E+02	6.69924354046E+00	-1.77668475851E+02	-3.05882729793E+01	1.94880069107E+01	-5.78027689566E+00	-1.00182146603E-01
3.07905995068E+05	-1.85729451514E+01	-1.58461554633E+02	6.77615924200E+00	-1.77535688324E+02	-3.70809705132E+01	4.51073696606E+01	-5.88939183063E+00	-2.85901732491E-01
3.08128555087E+05	-1.12678180343E+01	-1.53344393834E+02	6.83597749095E+00	-1.77485299257E+02	-4.20951220178E+01	-1.74180004888E+02	-5.92440258485E+00	-3.40978113015E-01
3.08351275976E+05	-2.63517578899E+01	2.36524880830E+00	6.65526843565E+00	-1.77671705416E+02	-3.97497993890E+01	-1.64194500904E+02	-5.90721192509E+00	-3.41340225013E-01
3.08574157853E+05	-2.41954078171E+01	2.30915115184E+01	6.65429842111E+00	-1.77629738625E+02	-4.59107458222E+01	1.27782997558E+01	-5.89004303842E+00	-2.77547663359E-01
3.08797200832E+05	-1.73425292456E+01	-3.17390959971E+01	6.69880371642E+00	-1.77488539672E+02	-3.62266199066E+01	-1.62855422223E+02	-5.92012558782E+00	-2.76759278255E-01
3.09020405031E+05	-2.42085701377E+01	-1.51123114260E+02	6.69674648812E+00	-1.77646985090E+02	-3.85420862329E+01	1.54463830880E+02	-5.90562757880E+00	-2.12326039220E-01
3.09243770566E+05	-2.88738608525E+01	9.43836209299E+01	6.63457651044E+00	-1.77690070197E+02	-3.49809661047E+01	-1.10755958620E+02	-5.92946960815E+00	-7.69522758768E-01
3.09467297553E+05	-1.64532552779E+01	1.10679357447E+02	6.68260384551E+00	-1.78128817030E+02	-3.11840416111E+01	3.14632403518E+01	-5.82911231758E+00	-7.80541513899E-02
3.09690986110E+05	-2.25379517289E+01	-7.74141249027E+01	6.73000578896E+00	-1.78066085498E+02	-3.82556563355E+01	1.42138885759E+02	-5.93856885748E+00	-2.16714761804E-01
3.09914836353E+05	-2.29845192728E+01	-1.17567055809E+02	6.66508164401E+00	-1.77310139275E+02	-3.85820207600E+01	-4.37549807867E+01	-5.90095715695E+00	-2.93209590885E-01
3.10138848399E+05	-1.81751276534E+01	1.31532424437E+02	6.72456279640E+00	-1.77959601278E+02	-5.21931637943E+01	-1.58681800629E+02	-5.89575710001E+00	-2.26893114544E-01
3.10363022365E+05	-2.35135804913E+01	1.07928747204E+02	6.71163062889E+00	-1.78124908008E+02	-3.41875944490E+01	-1.27914249058E+01	-5.85948671075E+00	-1.24923491215E-01
3.10587358368E+05	-2.95099790249E+01	-1.29598823633E+02	6.66345217928E+00	-1.77398857270E+02	-3.78630868151E+01	1.78673057988E+02	-5.91066268432E+00	-3.39543766372E-01
3.10811856525E+05	-2.65741303913E+01	7.15605201066E+01	6.66056890927E+00	-1.78100158275E+02	-4.16988608479E+01	-1.53861748253E+02	-5.88345235364E+00	-7.24906964720E-01
3.11036516954E+05	-1.41826830543E+01	1.03377798289E+02	6.60636552752E+00	-1.78634467291E+02	-3.54679372146E+01	-5.66175482800E+01	-5.84273801693E+00	-3.88333624028E-01
3.11261339771E+05	-1.47688184541E+01	-2.95021252439E+01	6.57468309284E+00	-1.77754264163E+02	-4.03587870709E+01	7.68295181520E+01	-5.87594745846E+00	-2.76591712917E-01
3.11486325094E+05	-1.93785211523E+01	5.21931900360E+01	6.64954103448E+00	-1.78255805120E+02	-5.12820116184E+01	1.77960123196E+01	-5.88554329579E+00	-1.96475184722E-01
3.11711473040E+05	-2.68801155222E+01	-1.68064864412E+02	6.72828167757E+00	-1.77777538146E+02	-5.44814901015E+01	-1.27956207015E+02	-5.89367029612E+00	-2.49203659882E-01
3.11936783728E+05	-2.74103330882E+01	-8.27096804927E+01	6.68394953868E+00	-1.77412973501E+02	-3.84265146018E+01	-1.29759807530E+02	-5.91088809462E+00	-1.34321951475E-01
3.12162257274E+05	-1.64010379287E+01	4.71022140376E+01	6.65045244585E+00	-1.78228764419E+02	-4.61911905272E+01	-5.77775326916E+01	-5.86997598278E+00	-2.61644777346E-01
3.12387893797E+05	-2.22309931604E+01	8.86888381450E+01	6.65781209074E+00	-1.78337298005E+02	-4.19478237858E+01	1.77833048827E+02	-5.90675652511E+00	-6.70542336966E-02
3.12613693413E+05	-1.83051589757E+01	1.18277053777E+02	6.64457244764E+00	-1.78448847482E+02	-2.50613751946E+01	2.19069117141E+01	-5.70492253057E+00	1.73473435721E-01
3.12839656242E+05	-1.45102309629E+01	-1.27219767896E+02	6.77707835646E+00	-1.77384521824E+02	-3.96303389791E+01	1.23745242508E+02	-5.89098068584E+00	-6.38618301910E-02
3.13065782401E+05	-1.77972638607E+01	1.28016389825E+02	6.75100649819E+00	-1.78027224598E+02	-3.93969639613E+01	1.30477287236E+02	-5.91383780867E+00	-2.82773666522E-01
3.13292072007E+05	-2.16194435906E+01	-3.53429373366E+01	6.67859020506E+00	-1.77528576343E+02	-4.92455315969E+01	7.92605122170E+01	-5.89759828444E+00	-2.55522438029E-01
3.13518525180E+05	-1.63681596928E+01	2.54032467337E+01	6.62343172165E+00	-1.77845956926E+02	-3.87181146340E+01	1.64404844363E+02	-5.92753567168E+00	-1.47832033781E-01
3.13745142038E+05	-1.69577009830E+01	8.93077626858E+01	6.69132582672E+00	-1.78128990241E+02	-4.01171539550E+01	2.33253965673E+01	-5.85501340847E+00	-1.72412335024E-01
3.13971922698E+05	-2.15553366514E+01	-3.76533654603E+01	6.65013690696E+00	-1.77435237031E+02	-4.29133263417E+01	3.07340854156E+01	-5.85975451551E+00	-3.01179101881E-01
3.14198867279E+05	-2.06775470608E+01	8.28826621770E+01	6.74194582828E+00	-1.77872115554E+02	-3.04798453788E+01	-6.56876834032E+00	-5.75834771995E+00	-3.91480155599E-01
3.14425975900E+05	-2.25030284062E+01	-1.05749730040E+02	6.67444278432E+00	-1.77888126984E+02	-3.55448444802E+01	6.57830005250E+01	-5.92353511269E+00	-4.67229854622E-02
3.14653248680E+05	-2.33650904332E+01	-1.60080507511E+02	6.67710696350E+00	-1.77130689897E+02	-3.63853641814E+01	-1.22382921510E+02	-5.91054211877E+00	-3.10010228202E-01
3.14880685736E+05	-2.87896441840E+01	-1.61428458783E+02	6.67695529651E+00	-1.77828578755E+02	-3.74183769839E+01	-1.15385772619E+02	-5.92294942819E+00	-4.36748104930E-01
3.15108287188E+05	-2.68256821066E+01	1.31008195630E+02	6.64823774764E+00	-1.77835178300E+02	-4.43698893169E+01	1.24069580686E+01	-5.87144014510E+00	1.35127122750E-01
3.15336053154E+05	-2.20177353294E+01	-9.67867518924E+01	6.66913866291E+00	-1.77314478231E+02	-3.58618386176E+01	-1.05816527406E+02	-5.93745046114E+00	-5.67314666914E-01
3.15563983753E+05	-1.98403704125E+01	3.15762410183E+01	6.57272316377E+00	-1.77997013131E+02	-5.82036958157E+01	-1.54685704117E+02	-5.89371706431E+00	-3.51790068294E-01
3.15792079105E+05	-3.14910199326E+01	-1.59423542410E+02	6.74487924163E+00	-1.78001336091E+02	-3.55164084599E+01	-9.27003359449E+01	-5.87843903052E+00	-5.99169530359E-01
3.16020339328E+05	-3.00661057695E+01	7.24518854972E+01	6.62776989641E+00	-1.77825403736E+02	-4.09736537793E+01	1.24469669249E+02	-5.89629692415E+00	-1.63091960554E-01
3.16248764542E+05	-2.43049543902E+01	1.51874369642E+01	6.58180158328E+00	-1.77684518048E+02	-3.81455968308E+01	-5.28193907448E+01	-5.86262835861E+00	-4.94887118282E-01
3.16477354866E+05	-1.61003720428E+01	1.58336435385E+02	6.70615284221E+00	-1.78300430979E+02	-4.31482008601E+01	1.38187868578E+01	-5.89882180279E+00	-4.17962833725E-01
3.16706110419E+05	-1.87750034068E+01	-6.18059919188E+01	6.67436403764E+00	-1.77656422989E+02	-3.70327568954E+01	-6.59286056848E+01	-5.91170590052E+00	-5.14773533440E-01
3.16935031321E+05	-3.20851253622E+01	-9.52033812918E+01	6.67270195730E+00	-1.78038412600E+02	-4.28098156107E+01	-1.67633114816E+02	-5.89198823189E+00	-2.80896709380E-01
3.17164117691E+05	-1.91405866881E+01	2.74264726389E+01	6.64557557603E+00	-1.77783670026E+02	-4.09486932360E+01	1.13455372698E+02	-5.94014782411E+00	-3.29092922723E-01
3.17393369648E+05	-2.51764708574E+01	-2.45599509339E+00	6.65959817783E+00	-1.77890609882E+02	-3.34923738129E+01	4.66572266244E+01	-5.82178010148E+00	-8.01538165030E-02
3.17622787313E+05	-1.39234422224E+01	1.20627453112E+02	6.81668365219E+00	-1.78812482247E+02	-4.16391451197E+01	1.11013237274E+02	-5.93897803344E+00	-3.25039194534E-01
3.17852370806E+05	-3.75698862588E+01	1.78103463926E+02	6.67368068206E+00	-1.78362455419E+02	-4.16274523277E+01	1.60861732763E+02	-5.89584124538E+00	-2.63168272547E-01
3.18082120245E+05	-1.63841015725E+01	1.43007271636E+02	6.72783342779E+00	-1.78111489649E+02	-4.39033817132E+01	-9.88635563165E+01	-5.91860656066E+00	-1.38823731347E-01
3.18312035752E+05	-2.40855845096E+01	4.49785931698E+01	6.62814908561E+00	-1.77995581965E+02	-3.55787343735E+01	1.79990301755E+02	-5.93782842702E+00	-9.82038473934E-02
3.18542117445E+05	-1.69875672200E+01	-8.02198468831E+01	6.62886671207E+00	-1.77244324367E+02	-4.20957736892E+01	-1.67689222493E+02	-5.92604378906E+00	-1.31717641784E-02
3.18772365446E+05	-1.51070441349E+01	-1.51153160101E+02	6.78346496897E+00	-1.77596640943E+02	-3.62882358822E+01	-1.54647022307E+01	-5.85661408218E+00	-1.22472904234E-01
3.19002779874E+05	-2.64043132838E+01	7.47714648066E+01	6.70109207527E+00	-1.78000522850E+02	-3.22429405617E+01	-5.05820346757E+01	-5.84297751347E+00	-3.96475641327E-01
3.19233360850E+05	-1.25630144407E+01	3.04583412981E+01	6.54375390655E+00	-1.78334329615E+02	-4.80702714563E+01	-9.85862323685E+01	-5.87596771578E+00	-3.81772546382E-01
3.19464108494E+05	-2.47956806273E+01	6.44442862134E+01	6.67187313413E+00	-1.77989018026E+02	-3.74907815092E+01	5.56316460841E+01	-5.92555758709E+00	-1.60406639143E-01
3.19695022927E+05	-1.95655673068E+01	2.66472815130E+01	6.67034391271E+00	-1.77956967101E+02	-3.63792115936E+01	-8.87874353928E+01	-5.91775916393E+00	-5.11011304011E-01
3.19926104268E+05	-2.03326898350E+01	4.57814260748E+01	6.66406602469E+00	-1.77995062311E+02	-4.39427773285E+01	-3.78849892392E+01	-5.87308734744E+00	-5.86616740890E-01
3.20157352640E+05	-2.53516085594E+01	-8.18382755184E+01	6.68589228605E+00	-1.77876900124E+02	-3.65470938011E+01	2.20221274244E+01	-5.88228878179E+00	-2.40680098425E-01
3.20388768162E+05	-2.33996943157E+01	4.42346329266E+01	6.65557410979E+00	-1.78112394020E+02	-4.49344570797E+01	-7.70353691135E+01	-5.87960673773E+00	-3.64688700137E-01
3.20620350955E+05	-4.21842378168E+01	-2.73795379190E+01	6.62744372175E+00	-1.78403513797E+02	-2.71581749099E+01	7.68641778123E+01	-5.80880851017E+00	6.08430608299E-01
3.20852101140E+05	-1.00372875099E+01	-1.56302014756E+02	6.85878731492E+00	-1.77058406509E+02	-3.85744651083E+01	-6.38084419474E+01	-5.87092038069E+00	-5.81384341237E-01
3.21084018839E+05	-2.83513133655E+01	-3.65953120676E+01	6.64843728367E+00	-1.78160470126E+02	-3.59125916574E+01	1.61229363771E+02	-5.91360669210E+00	-1.65269541589E-01
3.21316104172E+05	-3.39681173852E+01	-1.79140348662E+02	6.68825611070E+00	-1.77707011810E+02	-4.69891060797E+01	8.81519552348E+01	-5.93046126931E+00	-2.89360272875E-01
3.21548357261E+05	-1.72839110401E+01	9.88568256628E+01	6.64857051527E+00	-1.78342006416E+02	-4.50083040226E+01	1.73389166615E+02	-5.89850000285E+00	-4.29965833317E-01
3.21780778226E+05	-2.08558730616E+01	9.01795057352E+01	6.71674513726E+00	-1.78047489961E+02	-3.36925263317E+01	-1.79198568435E+02	-5.94482283826E+00	-3.97783377134E-01
3.22013367189E+05	-1.92952908375E+01	2.98975985714E+01	6.60344842833E+00	-1.77797767772E+02	-4.68760050520E+01	-1.19892950851E+02	-5.90416027297E+00	-1.50887503712E-01
3.22246124272E+05	-3.25439863946E+01	-7.51391789257E+01	6.62211422511E+00	-1.77738493807E+02	-3.49370355262E+01	1.34070625239E+02	-5.92537955026E+00	-1.42635369385E-01
3.22479049596E+05	-1.63235759866E+01	-6.62182744127E+01	6.69124840990E+00	-1.77492432638E+02	-3.44091761382E+01	8.20384673349E+01	-5.92098317215E+00	-3.54726121852E-02
3.22712143282E+05	-2.33132944891E+01	1.74238041827E+01	6.61842296128E+00	-1.78492207760E+02	-4.48792916842E+01	-1.59854389608E+02	-5.92712856814E+00	-6.54480715123E-02
3.22945405453E+05	-2.25942634646E+01	-6.85697476709E+01	6.62883711203E+00	-1.77631995394E+02	-3.95236965817E+01	1.42221362273E+01	-5.87681055410E+00	-3.47214290998E-01
3.23178836230E+05	-3.09502552041E+01	-1.71208658862E+02	6.74670789959E+00	-1.77820662223E+02	-4.87484250686E+01	7.26245879626E+00	-5.90492677071E+00	-3.96509262570E-01
3.23412435735E+05	-2.53267770775E+01	9.51703375466E+01	6.66802218850E+00	-1.78035971173E+02	-3.73322230670E+01	-6.96926038686E+01	-5.86552820539E+00	-5.49587091468E-01
3.23646204090E+05	-2.76637914100E+01	4.71146986753E+01	6.66976126939E+00	-1.78287834612E+02	-3.94039287318E+01	-1.72817647547E+02	-5.92383802069E+00	-5.03956148864E-01
3.23880141417E+05	-2.85877210309E+01	-1.60258616047E+01	6.74297816226E+00	-1.77673342265E+02	-3.72818593170E+01	1.26706780983E+02	-5.87177249587E+00	-6.56912234279E-02
3.24114247838E+05	-1.14994582945E+01	3.96990490829E+01	6.41227962644E+00	-1.78519655146E+02	-3.85071472978E+01	2.11081184689E+01	-5.84364533998E+00	-3.29860876972E-01
3.24348523475E+05	-2.01600237753E+01	4.62265742356E+01	6.62466486802E+00	-1.78160887322E+02	-5.51344750651E+01	1.13778330174E+02	-5.84314281496E+00	-1.38139021837E-01
3.24582968451E+05	-2.60724854983E+01	9.78795566837E+01	6.65734544179E+00	-1.78145518629E+02	-3.69387618541E+01	3.19617988900E+01	-5.84665834204E+00	-3.08130280982E-01
3.24817582888E+05	-3.21982995281E+01	1.53661651486E+02	6.67094424095E+00	-1.78079946284E+02	-3.86106946871E+01	1.76327611870E+01	-5.85352194539E+00	-1.30851455290E-01
3.25052366909E+05	-2.18374959971E+01	1.62209509845E+02	6.65141183391E+00	-1.78153705287E+02	-4.84967306007E+01	-2.74127103449E+01	-5.90435989946E+00	-7.81295894162E-02
3.25287320635E+05	-2.03014128356E+01	-1.35707937728E+02	6.70750616028E+00	-1.77847192909E+02	-4.57101265368E+01	3.69592355066E+00	-5.85140700945E+00	-5.97810911161E-01
3.25522444191E+05	-2.59069333615E+01	-1.11972189469E+02	6.65419190402E+00	-1.78181053279E+02	-3.12689769071E+01	-2.59287789957E+01	-5.77922009586E+00	-5.92075234896E-01
3.25757737698E+05	-1.75552884124E+01	1.41404399776E+02	6.74017513358E+00	-1.78360130557E+02	-4.65838580560E+01	-1.04750456456E+02	-5.89167942171E+00	-3.69452845436E-01
3.25993201280E+05	-2.17656976924E+01	1.74946113342E+01	6.61454522150E+00	-1.77735330756E+02	-4.42882675822E+01	-1.57074134951E+02	-5.92798486996E+00	-7.38433779622E-02
3.26228835058E+05	-2.27241290595E+01	9.48124456452E+01	6.66605812350E+00	-1.78088621349E+02	-4.09814700472E+01	-7.56685213357E+01	-5.91002162650E+00	-3.65747764230E-01
