# Hz S DB R 50
! CMT, M5065, 19127446, 24.2.4/2
! Date: 11/1/2024 4:45:10 PM
! Data: Format (Calibration Info)
! Freq	S11:dB/Ang(F2)	S21:dB/Ang(F2)	S12:dB/Ang(F2)	S22:dB/Ang(F2)
3.00000000000E+05	-2.39885039357E+01	1.13112890218E+02	1.76950135118E+01	-1.76696889653E+02	-5.05570513943E+01	1.00115181485E+02	-5.89862254135E+00	-4.39261464687E-02
3.00216845423E+05	-1.29092046312E+01	9.14252890160E+01	1.76712387291E+01	-1.77372445497E+02	-3.94719482392E+01	-1.52996132120E+02	-5.92571854865E+00	-4.71344214374E-01
3.00433847586E+05	-4.73016566222E+00	-1.75441865694E+01	1.72817374946E+01	-1.75309402946E+02	-4.61986761076E+01	6.80129182629E+01	-5.85922842807E+00	1.15531290345E-01
3.00651006602E+05	-2.03311945068E+01	-1.66852905998E+02	1.76864847471E+01	-1.76467997891E+02	-5.90938624052E+01	1.09493386698E+02	-5.89896255943E+00	-2.89612082197E-01
3.00868322584E+05	-2.06804331070E+01	-1.36820904170E+02	1.76951188635E+01	-1.76369839836E+02	-3.89087652161E+01	-3.43856104322E+01	-5.83114781373E+00	-5.98063176928E-01
3.01085795647E+05	-1.64678489113E+01	-1.46055378890E+02	1.77183025860E+01	-1.76283420216E+02	-3.72497643276E+01	-1.42501648988E+02	-6.01651704784E+00	-7.82658170575E-01
3.01303425902E+05	-3.00170862503E+01	1.05272386872E+02	1.76676140061E+01	-1.76528808980E+02	-3.80079233252E+01	-3.25862077372E+01	-5.83073008042E+00	-5.63706329925E-01
3.01521213465E+05	-3.12879360693E+01	1.07109885858E+02	1.76653901273E+01	-1.76633081742E+02	-3.62459630858E+01	1.77456127230E+02	-6.04134897197E+00	-3.84427781944E-01
3.01739158449E+05	-1.39141802831E+01	2.81845698114E+01	1.75503683570E+01	-1.76983201768E+02	-4.24197183769E+01	-1.06119756419E+02	-5.90999043008E+00	-6.88432243873E-01
3.01957260967E+05	-1.77366388721E+01	-1.72353980497E+02	1.76961851468E+01	-1.76390011592E+02	-4.51213633221E+01	7.41655617990E+01	-5.86085218511E+00	-8.16919432662E-02
3.02175521134E+05	-1.82733969190E+01	4.84373152637E+01	1.76292823097E+01	-1.76614329570E+02	-4.66159888054E+01	9.03648209927E+01	-5.85089998916E+00	-1.40044577471E-01
3.02393939063E+05	-1.63728970232E+01	1.25848503023E+00	1.76059891114E+01	-1.76366196784E+02	-4.06374117103E+01	1.37562708827E+02	-5.95980323467E+00	2.65969913249E-01
3.02612514869E+05	-2.63963591974E+01	1.15096528212E+01	1.76040641271E+01	-1.76599989235E+02	-3.43053131178E+01	-1.44115711037E+02	-6.07298397472E+00	-1.17049289306E+00
3.02831248665E+05	-1.80588035519E+01	-1.78096030440E+02	1.77156151646E+01	-1.76504053252E+02	-4.15722495616E+01	-1.62689325521E+02	-5.95293965225E+00	-2.38052590575E-01
3.03050140565E+05	-1.94952031869E+01	1.19055342818E+02	1.77252703843E+01	-1.76942429176E+02	-4.17725435645E+01	5.45257827811E+01	-5.87711855935E+00	-1.32990578855E-01
3.03269190685E+05	-3.12315491894E+01	-1.73770057777E+02	1.77280013211E+01	-1.76619281603E+02	-4.89736192025E+01	-1.26027655989E+01	-5.88340044112E+00	-2.67977195898E-02
3.03488399138E+05	-7.97700915993E+00	-8.20804488697E+01	1.75737618523E+01	-1.74855281259E+02	-5.04223919398E+01	3.64730156638E+00	-5.82825733035E+00	-1.68024537216E-01
3.03707766039E+05	-2.39022157052E+01	1.18166152365E+02	1.76564779502E+01	-1.76979874893E+02	-4.37651670588E+01	-7.24191936199E+01	-5.82330448254E+00	-8.08516519016E-01
3.03927291503E+05	-2.05128546253E+01	3.67827804722E+01	1.76406038604E+01	-1.76632178598E+02	-3.43435502019E+01	-4.34885713112E+01	-5.72066350491E+00	-1.36674374113E+00
3.04146975643E+05	-1.82043309547E+01	-1.46856947519E+02	1.77032601803E+01	-1.76223036693E+02	-3.45034805626E+01	-1.51997335377E+02	-6.01401886753E+00	-1.30951555488E+00
3.04366818575E+05	-1.88860531132E+01	1.00952967867E+02	1.76733105796E+01	-1.76990377418E+02	-3.91638692345E+01	1.53078380292E+02	-5.97098645218E+00	-2.96018764367E-02
3.04586820414E+05	-2.34026100664E+01	-4.68173043050E+01	1.75927864564E+01	-1.76448313308E+02	-3.41934008681E+01	8.22101787681E+01	-5.89385024783E+00	4.84066913402E-01
3.04806981274E+05	-1.74719370960E+01	1.00353258061E+02	1.76809121604E+01	-1.77170868111E+02	-3.90228850839E+01	-3.30815188635E+01	-5.80814030255E+00	-6.26051659253E-01
3.05027301270E+05	-2.12134681924E+01	-1.75156470183E+01	1.76111645050E+01	-1.76489157812E+02	-4.62360153799E+01	-1.74121526830E+02	-5.89338811269E+00	-4.46659010012E-01
3.05247780517E+05	-2.20363733908E+01	5.24918790186E+01	1.75892304434E+01	-1.76807614203E+02	-3.54977780759E+01	-8.43158024169E+01	-5.83760047284E+00	-1.35792243259E+00
3.05468419131E+05	-2.11376499267E+01	-9.02327274660E+01	1.77141460059E+01	-1.76061084726E+02	-3.57899407934E+01	-1.90415562119E+01	-5.77206221998E+00	-4.81722609239E-01
3.05689217226E+05	-3.11078155290E+01	1.53630224915E+02	1.76912307598E+01	-1.76405028146E+02	-2.98840698035E+01	-7.13324438853E+01	-5.72583340486E+00	-2.50142686182E+00
3.05910174918E+05	-2.45893544441E+01	-1.53117628211E+02	1.76752432512E+01	-1.76569478519E+02	-3.54682527861E+01	-1.43839228263E+02	-5.95657991201E+00	-5.39685463294E-01
3.06131292322E+05	-2.28383934132E+01	-6.97406413253E+01	1.76602895391E+01	-1.76308154579E+02	-3.68880334641E+01	3.12283614294E+01	-5.77186937227E+00	-5.81097906782E-02
3.06352569554E+05	-1.48695307061E+01	-9.14579669689E+01	1.76668988142E+01	-1.75829304651E+02	-5.36927565005E+01	1.50833423527E+02	-5.90573795262E+00	-4.50011844277E-01
3.06574006730E+05	-3.16743277055E+01	5.27839424459E+01	1.76740982539E+01	-1.76934144867E+02	-4.15053813902E+01	2.68441767009E+01	-5.77965568753E+00	-6.69266424654E-02
3.06795603964E+05	-2.03916352051E+01	-1.47302907663E+02	1.77013067507E+01	-1.76325679277E+02	-3.72909470463E+01	1.04245334397E+02	-5.87976284758E+00	3.88599383254E-01
3.07017361372E+05	-3.44485263724E+01	4.13482090471E+01	1.76814488239E+01	-1.76699999895E+02	-3.04680478571E+01	7.01401334943E+01	-5.81555698853E+00	1.24602743401E+00
3.07239279071E+05	-2.85270429568E+01	-8.97526783383E+01	1.76623315490E+01	-1.76664306678E+02	-2.91726043286E+01	-5.21327364232E+01	-5.58012131535E+00	-1.97805614150E+00
3.07461357176E+05	-1.78713197366E+01	1.11302267420E+02	1.76936791283E+01	-1.77140338759E+02	-4.43213136315E+01	7.23802425391E+01	-5.80837019506E+00	1.48575730496E-01
3.07683595803E+05	-1.65274449703E+01	1.71521922119E+02	1.77292089889E+01	-1.76481966526E+02	-3.78528351629E+01	-1.64152500994E+02	-5.95579690740E+00	-4.41740626089E-01
3.07905995068E+05	-2.23115639252E+01	1.15608150168E+01	1.75909092552E+01	-1.76807685091E+02	-4.47285545671E+01	-6.78809877449E+01	-5.88631803788E+00	-4.29449432645E-01
3.08128555087E+05	-9.75698015799E+00	-1.84341921829E+01	1.74607275058E+01	-1.76233009185E+02	-3.68038290868E+01	1.08196896685E+02	-5.90052365815E+00	2.75046741662E-01
3.08351275976E+05	-1.80163591474E+01	1.74995954447E+02	1.77641196801E+01	-1.76705649294E+02	-4.41573254859E+01	1.45093528749E+02	-5.93782198225E+00	-3.14519101253E-01
3.08574157853E+05	-2.02711963481E+01	-1.35883594250E+02	1.76783438659E+01	-1.76274075038E+02	-4.25040999722E+01	1.70719866749E+02	-5.92322582472E+00	-4.40175475683E-01
3.08797200832E+05	-1.40773002560E+01	6.54308537956E+01	1.76085493685E+01	-1.77552802245E+02	-3.71129758878E+01	-1.66130404839E+02	-6.12164096972E+00	-8.54432248705E-02
3.09020405031E+05	-1.94281827621E+01	-9.07810604152E+01	1.76676695353E+01	-1.76209059278E+02	-3.97671791716E+01	-1.47881793021E+02	-5.95256571402E+00	-8.19579572725E-01
3.09243770566E+05	-2.03199631794E+01	1.18077894148E+02	1.76915408427E+01	-1.76910316492E+02	-4.37234826782E+01	1.77379311752E+02	-5.89478821547E+00	-3.04075838326E-01
3.09467297553E+05	-2.96414306201E+01	-1.68974485704E+02	1.76850817645E+01	-1.76656851109E+02	-4.38227284572E+01	-9.11164150431E+01	-5.86701893643E+00	-5.80662444685E-01
3.09690986110E+05	-1.74856941208E+01	1.42995213828E+02	1.76975510388E+01	-1.77109713745E+02	-4.37079275427E+01	1.70860038908E+02	-5.92683672460E+00	-3.02546554317E-01
3.09914836353E+05	-2.24065287049E+01	7.87665997112E+01	1.76526180076E+01	-1.77138227656E+02	-3.94221766568E+01	-1.25579295567E+01	-5.83600153067E+00	-3.11124997656E-01
3.10138848399E+05	-2.07179689723E+01	1.02920795453E+01	1.76281915968E+01	-1.76779906342E+02	-4.17689280024E+01	1.03466519029E+02	-5.88762093739E+00	1.24280153752E-01
3.10363022365E+05	-2.13438034734E+01	1.41503837442E+02	1.76941854031E+01	-1.76997378213E+02	-4.18080335931E+01	1.13634229174E+02	-5.93765692004E+00	2.22288453800E-01
3.10587358368E+05	-2.34890435864E+01	2.18591721484E+01	1.75921538386E+01	-1.76943631420E+02	-3.42934157195E+01	-1.78192442997E+02	-6.06612123940E+00	-3.01752236290E-01
3.10811856525E+05	-2.81831070366E+01	1.68290958247E+02	1.76727161990E+01	-1.76745802934E+02	-3.73157242666E+01	-9.23603795826E+01	-5.89852874231E+00	-1.04592500991E+00
3.11036516954E+05	-2.85132855692E+01	5.95467677561E+01	1.76967710825E+01	-1.77001658726E+02	-3.77281712197E+01	4.09351425871E+01	-5.78679073548E+00	1.79453169065E-01
3.11261339771E+05	-4.70800091665E+00	-1.63370929419E+02	1.80787787737E+01	-1.76196180305E+02	-4.29187822645E+01	-1.66444090466E+01	-5.82562002476E+00	-3.83505802880E-01
3.11486325094E+05	-1.91254647043E+01	-1.20980601257E+02	1.77247323038E+01	-1.76205997253E+02	-4.58090837177E+01	1.73210601384E+02	-5.89569320958E+00	-3.59333492750E-01
3.11711473040E+05	-1.92926651066E+01	8.93598999790E+01	1.76702961263E+01	-1.77319442823E+02	-3.80919541065E+01	-6.99169780547E+01	-5.80893902427E+00	-9.54632489172E-01
3.11936783728E+05	-3.78752361346E+01	7.39632946253E+01	1.76536131141E+01	-1.76734870387E+02	-4.49451861861E+01	1.67176751747E+02	-5.94638543403E+00	-1.20215292532E-01
3.12162257274E+05	-2.82379412805E+01	-8.43088657772E+00	1.76424211267E+01	-1.76956529732E+02	-3.74559980599E+01	-1.35441489053E+02	-5.98367363296E+00	-1.08033810047E+00
3.12387893797E+05	-2.42095420860E+01	2.73211654853E+01	1.76135990738E+01	-1.76789745457E+02	-4.06575690894E+01	-8.87673192424E+01	-5.84603359922E+00	-7.82841504212E-01
3.12613693413E+05	-3.06581020991E+01	8.85855008305E+01	1.76866690459E+01	-1.76654331137E+02	-3.40030062460E+01	8.65620303267E+01	-5.78292675669E+00	7.64509205870E-01
3.12839656242E+05	-1.25859693603E+01	-1.03617685227E+01	1.75125431980E+01	-1.76784873007E+02	-4.36306091398E+01	-1.76317286464E+02	-5.95741007082E+00	-3.89191164574E-01
3.13065782401E+05	-1.49927304867E+01	1.16040584522E+02	1.76649624816E+01	-1.77845373955E+02	-4.49294850191E+01	8.36885415649E+01	-5.87520272242E+00	-1.33283847417E-01
3.13292072007E+05	-2.63454645940E+01	-3.64933948602E+01	1.76523277807E+01	-1.76535708064E+02	-3.37101008123E+01	1.25533806850E+02	-6.02641886398E+00	5.95199441926E-01
3.13518525180E+05	-1.72785433656E+01	-1.06059117874E+02	1.76744596541E+01	-1.76376620015E+02	-3.53377586501E+01	1.16476366771E+02	-5.96630579452E+00	6.00076490597E-01
3.13745142038E+05	-2.21603205390E+01	7.87072474798E+01	1.76294502063E+01	-1.77296672630E+02	-4.94024188520E+01	1.26263662629E+02	-5.91705681348E+00	-2.01223135350E-01
3.13971922698E+05	-2.14512055293E+01	6.87495816661E+00	1.76251731012E+01	-1.77040110248E+02	-4.24018902256E+01	6.14476519005E+01	-5.89205836466E+00	-2.88910967747E-02
3.14198867279E+05	-1.82996512022E+01	-1.44596103983E+02	1.77195660189E+01	-1.76460013860E+02	-3.91932765980E+01	-1.65746985110E+02	-5.92211547782E+00	-3.35767975906E-01
3.14425975900E+05	-1.17589044859E+01	-2.13164518666E+01	1.74862433589E+01	-1.76460850591E+02	-3.93798985276E+01	9.89954895156E+00	-5.82683462137E+00	-4.75969712447E-01
3.14653248680E+05	-1.59572244989E+01	3.39547855478E+01	1.75553501594E+01	-1.77419427793E+02	-3.80439360336E+01	6.74457184597E+01	-5.81932608995E+00	2.22838922041E-01
3.14880685736E+05	-1.68035028577E+01	-1.00866155602E+02	1.76655762146E+01	-1.76703562215E+02	-4.05939345107E+01	3.48389306141E+01	-5.84691507867E+00	9.77811119317E-02
3.15108287188E+05	-2.29903181410E+01	1.15219011788E+02	1.76751855108E+01	-1.77135826028E+02	-3.46867002152E+01	1.81898225820E+01	-5.63848566953E+00	-1.91281304441E-01
3.15336053154E+05	-2.27981213036E+01	2.58346117202E+01	1.76054334359E+01	-1.77096996383E+02	-3.38130116916E+01	-3.78674108559E+01	-5.73318400955E+00	-8.34140567530E-01
3.15563983753E+05	-1.71336561252E+01	-6.97585576139E+01	1.76393474655E+01	-1.76236964383E+02	-4.21537469802E+01	-1.34986525045E+02	-5.92459723605E+00	-7.82912222515E-01
3.15792079105E+05	-2.51030247861E+01	1.61612997355E+02	1.76934293916E+01	-1.77008449154E+02	-5.05059953563E+01	1.36873755200E+02	-5.92899381866E+00	-2.49026426790E-01
3.16020339328E+05	-6.92373674016E+00	-1.53362862062E+02	1.79796694915E+01	-1.75901583865E+02	-4.76477383019E+01	1.63495283132E+02	-5.95051226468E+00	-2.57050625084E-01
3.16248764542E+05	-1.40042306130E+01	8.57156290623E+00	1.75125206614E+01	-1.77303279551E+02	-3.36940609610E+01	8.76736750542E+01	-5.88035987224E+00	9.42464605443E-01
3.16477354866E+05	-2.60763724730E+01	1.33873939845E+02	1.76512883293E+01	-1.77057426233E+02	-4.66895063707E+01	5.77258190841E+01	-5.81680794579E+00	-7.60827982106E-02
3.16706110419E+05	-1.40963216273E+01	1.25745203222E+02	1.77076495449E+01	-1.77393795966E+02	-3.14887489021E+01	-1.18123478254E+02	-6.00847822285E+00	-1.64045103429E+00
3.16935031321E+05	-2.20992816853E+01	-1.50312942611E+02	1.77377538705E+01	-1.76649626072E+02	-3.66857284923E+01	1.54209365418E+02	-5.99858143492E+00	-6.22107170349E-04
3.17164117691E+05	-1.80476564866E+01	1.56839374217E+02	1.77199311100E+01	-1.76992432984E+02	-4.55213848384E+01	1.71462839729E+02	-5.87319498044E+00	-4.49342412933E-01
3.17393369648E+05	-3.85761922478E+01	4.55976760647E+01	1.76358969718E+01	-1.76854510391E+02	-4.41988499630E+01	-2.92575804902E+01	-5.82405691047E+00	-2.52868649352E-01
3.17622787313E+05	-2.55762070628E+01	-2.41759484936E+01	1.76691459405E+01	-1.76833640957E+02	-4.74718721394E+01	-9.08273699837E+01	-5.88481072898E+00	-8.47390490231E-01
3.17852370806E+05	-1.21233696849E+01	2.42720404837E+01	1.74723506669E+01	-1.77662731036E+02	-4.81116623807E+01	1.65418596802E+02	-5.91164074846E+00	-3.85663457287E-01
3.18082120245E+05	-1.45835748375E+01	-3.37465335351E+01	1.76268050500E+01	-1.76682023485E+02	-4.98590001099E+01	-1.03012219162E+02	-5.87459823254E+00	-3.37264030870E-01
3.18312035752E+05	-1.61051235206E+01	8.36100985089E+01	1.76335793926E+01	-1.77761976035E+02	-3.48438237918E+01	1.46449015478E+02	-6.09476243456E+00	6.01863705999E-01
3.18542117445E+05	-2.71831886260E+01	-3.92243328688E+01	1.76636463658E+01	-1.77106687721E+02	-4.51449202786E+01	-4.16967474072E+01	-5.79787775694E+00	-9.86522988084E-01
3.18772365446E+05	-1.59792945957E+01	1.66251284447E+02	1.77241538839E+01	-1.77089242447E+02	-3.51604582154E+01	-5.05295429329E+01	-5.85686781236E+00	-1.03686530753E+00
3.19002779874E+05	-1.94212782384E+01	-1.05252166633E+00	1.75863234229E+01	-1.76728623327E+02	-3.49061873871E+01	-2.57746369221E+00	-5.77814646142E+00	-2.31745859922E-01
3.19233360850E+05	-1.85590253261E+01	-1.34094791064E+02	1.76871272582E+01	-1.76731492583E+02	-3.40162356783E+01	-7.50447884546E+01	-5.85368571766E+00	-1.29024629606E+00
3.19464108494E+05	-2.35709731292E+01	7.20981462824E+01	1.76396107523E+01	-1.77255722912E+02	-4.40981653499E+01	5.87219033679E+01	-5.84031851351E+00	-1.88352107628E-01
3.19695022927E+05	-2.07496045468E+01	3.79063680726E+01	1.76475992060E+01	-1.77223686309E+02	-4.12350639301E+01	-8.32081551435E+01	-5.85250196556E+00	-5.92609383799E-01
3.19926104268E+05	-1.54087470962E+01	-1.01088594964E+02	1.76932610971E+01	-1.76295115211E+02	-3.48483404682E+01	3.47177299263E+01	-5.75588129960E+00	3.25156950271E-01
3.20157352640E+05	-2.15358285720E+01	7.29542746062E+01	1.76648562386E+01	-1.77329436161E+02	-4.11615911288E+01	1.51403336394E+02	-6.03093250602E+00	-2.90649166777E-01
3.20388768162E+05	-3.95147926481E+01	2.63612315823E+01	1.76350558999E+01	-1.77045369620E+02	-4.69412751854E+01	-1.21142407229E+02	-5.89682288387E+00	-2.99643543921E-01
3.20620350955E+05	-1.72038630421E+01	1.78145680690E+02	1.76972667204E+01	-1.77207443336E+02	-4.19387320956E+01	1.63154365331E+02	-5.94575801220E+00	1.38341293968E-01
3.20852101140E+05	-2.17451535337E+01	1.44166053183E+02	1.77067294722E+01	-1.77459697592E+02	-5.39440779378E+01	7.66982126116E+01	-5.89654376414E+00	-1.14388943351E-01
3.21084018839E+05	-1.22933303334E+01	-1.11325963398E+02	1.77116078658E+01	-1.75822792255E+02	-3.93438542515E+01	-1.55915160413E+02	-5.94738323606E+00	-4.27234082159E-01
3.21316104172E+05	-2.03981133332E+01	4.08878826402E+01	1.76471849061E+01	-1.77432748762E+02	-4.93820581205E+01	2.07708778403E+01	-5.83704812330E+00	-3.49804511226E-01
3.21548357261E+05	-2.13068522614E+01	-5.05173643896E+01	1.76394181399E+01	-1.76552934132E+02	-4.30780072158E+01	1.71152323453E+02	-5.96512454783E+00	-3.86949171652E-01
3.21780778226E+05	-2.08743093497E+01	1.55144486162E+02	1.77140192481E+01	-1.77151674513E+02	-2.96133907697E+01	1.40057631762E+01	-5.55004995930E+00	2.32790817717E-01
3.22013367189E+05	-2.27216173539E+01	-6.60961855678E+01	1.76352309628E+01	-1.76786906824E+02	-5.21692327949E+01	1.40072213179E+02	-5.87819679288E+00	-8.09394711291E-02
3.22246124272E+05	-1.72818165699E+01	-1.24874996023E+02	1.77294773363E+01	-1.76604526287E+02	-3.31483020646E+01	-1.38643233155E+02	-6.00557707520E+00	-1.04168466096E+00
3.22479049596E+05	-1.14352000242E+01	-2.50572895191E+01	1.74980181114E+01	-1.76630803990E+02	-4.63271703257E+01	-6.41439995404E+01	-5.88046561275E+00	-7.06131835233E-01
3.22712143282E+05	-9.70155812646E+00	1.79544976712E+02	1.78957486819E+01	-1.77241963135E+02	-4.14839315906E+01	-1.53074312354E+02	-5.98905724442E+00	-2.45948774100E-01
3.22945405453E+05	-3.19451360819E+01	-1.60249901129E+02	1.76727233278E+01	-1.77224167044E+02	-3.22255785233E+01	-1.28040342858E+02	-6.00063061242E+00	-1.39786278607E+00
3.23178836230E+05	-2.49576959930E+01	-4.55800898425E+01	1.76575310960E+01	-1.77133173473E+02	-2.90976482842E+01	9.47276312339E+01	-5.91586091898E+00	2.12152539773E+00
3.23412435735E+05	-1.67730155245E+01	1.25863897179E+02	1.76994161376E+01	-1.77526576800E+02	-3.22962070266E+01	6.12449438892E+01	-5.78388709233E+00	1.46005149073E+00
3.23646204090E+05	-1.82370796899E+01	1.16161580722E+02	1.77029860706E+01	-1.77324646348E+02	-3.83818270745E+01	-1.01480208373E+02	-5.88342690920E+00	-7.67620744518E-01
3.23880141417E+05	-1.62470668514E+01	8.50637829479E+01	1.76272939895E+01	-1.77634108929E+02	-4.65768614976E+01	-5.26381483589E+01	-5.87597548998E+00	-8.16696401676E-01
3.24114247838E+05	-1.73919117288E+01	4.53029303246E+01	1.76011672101E+01	-1.77318868486E+02	-4.57011962116E+01	3.38912440506E+01	-5.84793755982E+00	3.03120396019E-01
3.24348523475E+05	-1.31165761439E+01	1.51436808179E+02	1.78294900121E+01	-1.77556017253E+02	-4.13015179860E+01	2.44388526105E+00	-5.80985739740E+00	-8.41385132617E-02
3.24582968451E+05	-1.32139820014E+01	9.05368021402E+01	1.76806709513E+01	-1.77823977378E+02	-4.26987229321E+01	2.95378260343E+01	-5.82029501644E+00	-4.39582139894E-01
3.24817582888E+05	-2.11867104815E+01	-1.73505863678E+02	1.77071102672E+01	-1.77018562370E+02	-2.63555022332E+01	2.93502362749E+01	-5.40482192315E+00	1.06951662655E+00
3.25052366909E+05	-1.73178238087E+01	-5.93651726505E+01	1.76124522027E+01	-1.76588896707E+02	-4.82451775794E+01	-1.05632207153E+02	-5.87813649158E+00	-5.85698415622E-01
3.25287320635E+05	-2.05719062426E+01	1.68228355090E+02	1.76996841640E+01	-1.77291217885E+02	-5.18535048679E+01	1.47514052522E+02	-5.89826317362E+00	-5.65507113281E-01
3.25522444191E+05	-2.20626046251E+01	-7.73717516323E+01	1.76890717608E+01	-1.76994920737E+02	-4.91737394326E+01	-6.77511546348E+01	-5.92936484296E+00	-6.81282147215E-01
3.25757737698E+05	-2.28221898929E+01	1.64751435927E+02	1.76893581887E+01	-1.77255961356E+02	-4.05482990366E+01	-2.84521382877E+01	-5.87162404567E+00	-3.76765423001E-01
3.25993201280E+05	-1.27412544665E+01	1.25024019119E+02	1.77746090597E+01	-1.78301892852E+02	-3.64006449001E+01	-9.18514041558E+01	-5.88627128961E+00	-7.93237487347E-01
3.26228835058E+05	-2.08993853221E+01	-1.37110507702E+02	1.76698978469E+01	-1.77371570515E+02	-3.60975380698E+01	-1.01181128760E+02	-5.87082313192E+00	-1.01950902427E+00
