# Hz S DB R 50
! CMT, M5065, 19127446, 24.2.4/2
! Date: 11/1/2024 4:22:57 PM
! Data: Format (Calibration Info)
! Freq	S11:dB/Ang(F2)	S21:dB/Ang(F2)	S12:dB/Ang(F2)	S22:dB/Ang(F2)
3.00000000000E+05	-2.47695997322E+01	1.54301298761E+02	6.52362866028E+00	-1.77439054436E+02	-3.47711467648E+01	5.15537777309E+01	-5.88412206250E+00	1.77248797097E-02
3.00216845423E+05	-2.27906079252E+01	1.21683371549E+02	6.53484999650E+00	-1.77877278723E+02	-6.41452331810E+01	4.33465345221E+01	-5.87859589889E+00	-2.96904089837E-01
3.00433847586E+05	-2.46336499587E+01	5.06484644329E+01	6.49915060409E+00	-1.78125046044E+02	-5.83752571937E+01	-5.33278179190E+01	-5.93283136716E+00	-3.42055856786E-01
3.00651006602E+05	-2.61080869325E+01	-1.52158835835E+02	6.51281266933E+00	-1.77307522246E+02	-4.45856007290E+01	1.14499645055E+02	-5.89132328006E+00	-6.27875852904E-02
3.00868322584E+05	-1.44540081472E+01	-1.15059988287E+02	6.59463195695E+00	-1.76829008117E+02	-3.49777963074E+01	-4.16974064326E+01	-5.83601791085E+00	-7.20497015784E-01
3.01085795647E+05	-1.95699743018E+01	6.39443351699E+01	6.42565911276E+00	-1.77539988803E+02	-2.77954558972E+01	9.44723542158E+01	-5.89935178996E+00	5.50057488371E-01
3.01303425902E+05	-1.98680290478E+01	3.76676380413E+01	6.46941939146E+00	-1.78062313553E+02	-4.33779265852E+01	-1.05765565880E+02	-5.89611894180E+00	-1.65264563259E-02
3.01521213465E+05	-2.35075308068E+01	-3.71314380496E+01	6.58451944361E+00	-1.77690197207E+02	-4.38561062784E+01	-6.74881318346E+01	-5.90769408190E+00	-1.92657738665E-01
3.01739158449E+05	-2.36785775977E+01	-1.23975095200E+02	6.52868344755E+00	-1.77482285701E+02	-5.83184506454E+01	7.64124730078E+00	-5.88146553361E+00	-2.05144787146E-01
3.01957260967E+05	-1.83998575776E+01	1.20619849515E+02	6.59479230330E+00	-1.78270830425E+02	-4.06366862908E+01	-1.25098723044E+02	-5.87152638203E+00	-2.51417176579E-01
3.02175521134E+05	-1.72764596569E+01	1.04947849562E+02	6.53299082967E+00	-1.78070006967E+02	-3.95679718315E+01	1.18171639817E+02	-5.88807969640E+00	-4.04931446971E-01
3.02393939063E+05	-2.32053023142E+01	7.99062449658E+01	6.52265034901E+00	-1.77590530101E+02	-3.63573362340E+01	-1.35483787400E+02	-5.91680193042E+00	-3.02727107808E-01
3.02612514869E+05	-1.24313597047E+01	1.46710106661E+02	6.70222302967E+00	-1.77827426444E+02	-4.21991798836E+01	-9.60282892494E+01	-5.83789900855E+00	-4.72317789868E-01
3.02831248665E+05	-2.09508041262E+01	1.62863236838E+02	6.58935918734E+00	-1.77556693651E+02	-4.50662168356E+01	6.26235537331E+01	-5.90345657066E+00	-3.11966819878E-01
3.03050140565E+05	-1.89460507800E+01	1.30474990407E+02	6.57544374809E+00	-1.78385028671E+02	-4.73440490584E+01	-5.95292617696E+01	-5.86625972411E+00	-4.73186411749E-01
3.03269190685E+05	-2.17931618898E+01	-1.57924847983E+02	6.54553945065E+00	-1.77149150501E+02	-3.98251061085E+01	-1.38667191613E+02	-5.90387588611E+00	-4.03228911223E-01
3.03488399138E+05	-1.88464580567E+01	-6.04719432896E+01	6.51795107532E+00	-1.77559317579E+02	-3.67564859821E+01	6.77263612962E+00	-5.88790694896E+00	4.81752557713E-02
3.03707766039E+05	-1.61204702287E+01	8.73023754266E+01	6.53168326104E+00	-1.78277516297E+02	-3.70930597041E+01	7.20802999090E+01	-5.88057822932E+00	2.36182540593E-02
3.03927291503E+05	-1.53418753710E+01	1.12023615319E+02	6.64916059601E+00	-1.78510956676E+02	-3.78779202534E+01	7.45098792612E+01	-5.90574149659E+00	-8.64746473450E-02
3.04146975643E+05	-9.82213001043E+00	7.07773123234E+01	6.45841793981E+00	-1.79157615847E+02	-4.26089193402E+01	-9.21806245013E+01	-5.91141571934E+00	-4.26330220586E-01
3.04366818575E+05	-2.37003053608E+01	-1.34966072460E+02	6.51287064790E+00	-1.77614188550E+02	-4.15104627010E+01	1.13818306242E+02	-5.89252677263E+00	-2.36469901357E-01
3.04586820414E+05	-2.21709933646E+01	-2.44750865770E+01	6.49465956479E+00	-1.77651219058E+02	-4.20272859539E+01	9.48296547803E+00	-5.85394639935E+00	-3.36704342402E-01
3.04806981274E+05	-2.29620707974E+01	-1.51822962709E+02	6.50768003934E+00	-1.77820172153E+02	-3.59540194214E+01	-7.59759851548E+01	-5.85580755245E+00	-3.61508803815E-01
3.05027301270E+05	-1.23169839996E+01	-1.39818049741E+02	6.56534251427E+00	-1.77077009214E+02	-4.31613751013E+01	-4.60479162762E+01	-5.86095228704E+00	-3.20095321256E-01
3.05247780517E+05	-1.36526590950E+01	1.32941576882E+02	6.61420076328E+00	-1.77559491544E+02	-4.74534893304E+01	-8.78032538501E+01	-5.90036118862E+00	-1.28391023126E-01
3.05468419131E+05	-2.06777479242E+01	1.60483431304E+02	6.61072592149E+00	-1.77888886570E+02	-3.92493300778E+01	-1.40993112471E+02	-5.90966641058E+00	-4.94198252849E-01
3.05689217226E+05	-1.67389358399E+01	-6.93859483885E+01	6.48876604611E+00	-1.76634582603E+02	-3.67582251613E+01	-1.27873788666E+02	-5.90159391008E+00	-6.99109949145E-01
3.05910174918E+05	-2.29841064278E+01	-1.30523987096E+02	6.61659131410E+00	-1.77734648652E+02	-3.50505683219E+01	-1.48420230159E+02	-5.99062395287E+00	-4.82233568481E-01
3.06131292322E+05	-1.68448678269E+01	-2.92039988721E+01	6.48585675553E+00	-1.77111049974E+02	-3.93482637785E+01	-1.24192261086E+02	-5.88389941579E+00	-4.41156477458E-01
3.06352569554E+05	-1.70664351815E+01	7.68231519506E+01	6.42616317509E+00	-1.78007705387E+02	-3.96485803492E+01	8.42535312946E+00	-5.83307351649E+00	1.13050192212E-03
3.06574006730E+05	-2.03309637190E+01	9.36116902089E+01	6.54979180434E+00	-1.78000259322E+02	-4.90003732941E+01	1.44337144372E+02	-5.90123075820E+00	-5.55807468579E-01
3.06795603964E+05	-1.71643577039E+01	-4.54416014485E+00	6.45006844605E+00	-1.77823510748E+02	-3.82002287336E+01	-4.10635098615E+00	-5.82406282631E+00	-2.21749097355E-01
3.07017361372E+05	-1.60907574069E+01	1.55364882645E+02	6.58436625558E+00	-1.77937887937E+02	-4.00652758077E+01	5.58058136844E+01	-5.87549752719E+00	-4.32269859681E-02
3.07239279071E+05	-1.25885131537E+01	-7.77690048091E+01	6.44585138545E+00	-1.76562904394E+02	-3.04036439042E+01	1.10683807101E+01	-5.76559054778E+00	-2.83036176051E-01
3.07461357176E+05	-1.52868964540E+01	1.34187547634E+00	6.46471567470E+00	-1.77648753847E+02	-3.92579560582E+01	-9.94571271107E+01	-5.90533386332E+00	-3.92482883569E-01
3.07683595803E+05	-2.35022560124E+01	1.42817979232E+02	6.57325929610E+00	-1.78101256767E+02	-4.18240028709E+01	1.40425431958E+02	-5.88283117223E+00	-1.64224306096E-01
3.07905995068E+05	-2.50376005096E+01	-2.04645547050E+01	6.44848687305E+00	-1.77839452725E+02	-5.45364932330E+01	-1.66773527247E+02	-5.89597230383E+00	-9.89346005547E-02
3.08128555087E+05	-2.04682798007E+01	1.48036439495E+02	6.56388652216E+00	-1.77812433487E+02	-4.22732043592E+01	2.81889908003E+01	-5.84055653589E+00	-9.06818662176E-02
3.08351275976E+05	-2.72481946567E+01	-3.74313868606E+01	6.45295091447E+00	-1.77777325379E+02	-3.70558684247E+01	-2.29517755119E+01	-5.84324943591E+00	-4.44432707786E-01
3.08574157853E+05	-2.19667516960E+01	1.79967308964E+02	6.56041884349E+00	-1.77473758400E+02	-4.47738237052E+01	7.08966206841E+01	-5.85750234555E+00	-3.03301277951E-01
3.08797200832E+05	-1.09601370420E+01	-1.75093579381E+02	6.72045187225E+00	-1.77275303216E+02	-2.73959802741E+01	-1.54463403654E+02	-6.02212924729E+00	-5.74027067881E-01
3.09020405031E+05	-1.67290203053E+01	1.57618729896E+02	6.57933625326E+00	-1.78229515135E+02	-4.69440557552E+01	1.62558666409E+02	-5.92632702867E+00	-3.38333418411E-02
3.09243770566E+05	-3.23853599598E+01	1.77081349491E+02	6.53495691905E+00	-1.77347527429E+02	-3.59807054592E+01	-2.94083378710E+01	-5.86993082176E+00	-3.14836945172E-01
3.09467297553E+05	-2.69499093685E+01	8.01931216117E+01	6.46753783384E+00	-1.77903273786E+02	-3.80499461562E+01	-7.26713756391E+01	-5.89813377212E+00	-5.83063708071E-01
3.09690986110E+05	-2.75552501789E+01	1.16017550455E+02	6.49565338051E+00	-1.78210271798E+02	-3.76007643208E+01	5.49277343664E+01	-5.88345456374E+00	-1.59571792520E-02
3.09914836353E+05	-1.58567684062E+01	7.03852334657E+01	6.52042809997E+00	-1.78050563700E+02	-4.74163614091E+01	-5.01461940171E+01	-5.87136756213E+00	-1.03226232568E-01
3.10138848399E+05	-1.86637391943E+01	9.07957026868E+01	6.57133900845E+00	-1.78140398414E+02	-3.34262908013E+01	-4.21523710024E-01	-5.85828042817E+00	-2.79439502130E-01
3.10363022365E+05	-1.68401509997E+01	4.97044843964E+01	6.42732174813E+00	-1.78345674910E+02	-3.83029189363E+01	-1.66875946467E+02	-5.97145976999E+00	-6.70739792588E-01
3.10587358368E+05	-1.85727046142E+01	1.14138380884E+02	6.58238621523E+00	-1.77999842023E+02	-5.43004971315E+01	-1.18987202568E+02	-5.86360169256E+00	-1.52186083873E-01
3.10811856525E+05	-3.23616617883E+01	9.18126769479E+01	6.53709802271E+00	-1.77808597944E+02	-4.30665336121E+01	-9.90057421819E+01	-5.89264408296E+00	-3.36125813214E-01
3.11036516954E+05	-1.81670508840E+01	1.64234692709E+02	6.58600777510E+00	-1.77950116626E+02	-5.10918200851E+01	1.77562225201E+02	-5.91887473212E+00	-2.61438145326E-01
3.11261339771E+05	-2.01033003728E+01	-1.26189207630E+02	6.56849889988E+00	-1.77212735361E+02	-5.05831466804E+01	1.54986634209E+02	-5.87946593794E+00	-2.46817006552E-01
3.11486325094E+05	-2.35701309816E+01	1.41844426515E+02	6.50733605567E+00	-1.77984298880E+02	-3.75670036871E+01	-5.13869561135E+01	-5.90555405237E+00	-7.13548830997E-01
3.11711473040E+05	-2.86500752459E+01	-1.76265361177E+02	6.60607935758E+00	-1.77765450318E+02	-4.61902526381E+01	-5.83855829184E+01	-5.89607100386E+00	-1.24624397219E-01
3.11936783728E+05	-6.09022896707E+00	-6.64891464561E+01	6.41616805937E+00	-1.75368872896E+02	-2.60181609675E+01	-1.77165404986E+02	-6.07129094664E+00	-2.87950247034E-01
3.12162257274E+05	-1.78661724153E+01	-1.03858756256E+02	6.51344818184E+00	-1.77362570540E+02	-2.86812194063E+01	-6.08926144190E+00	-5.79699692801E+00	-3.83789897194E-01
3.12387893797E+05	-2.01491339494E+01	1.58768971458E+01	6.47771332731E+00	-1.78134648359E+02	-3.86290628317E+01	1.69015289107E+02	-5.88058042765E+00	-2.78955723329E-01
3.12613693413E+05	-1.53330325884E+01	-1.66311416679E+02	6.59424336576E+00	-1.78154683071E+02	-4.95113062251E+01	9.40664268894E+01	-5.86811092668E+00	-3.54052786643E-02
3.12839656242E+05	-1.51245612708E+01	1.54136280394E+02	6.64495801479E+00	-1.78096858095E+02	-3.75163078522E+01	1.73970204423E+02	-5.92220158689E+00	-4.43407294821E-01
3.13065782401E+05	-2.54137142963E+01	1.72425892019E+02	6.61549612145E+00	-1.77954929227E+02	-3.68437412865E+01	-1.33435684695E+01	-5.87892181704E+00	-1.51859290379E-01
3.13292072007E+05	-1.72543529464E+01	1.74555207464E+02	6.62959106138E+00	-1.77590228674E+02	-3.83622917162E+01	1.70972448282E+02	-5.88906977783E+00	-4.06663966812E-01
3.13518525180E+05	-1.14072080803E+01	1.57901030623E+02	6.69289085477E+00	-1.78338317317E+02	-3.57777767631E+01	9.66995684573E+01	-5.83390162809E+00	-7.19084833217E-02
3.13745142038E+05	-2.69725616245E+01	1.53670963702E+02	6.55276152858E+00	-1.77866582421E+02	-5.17226502795E+01	1.43359962107E+02	-5.91081063968E+00	-1.15534545894E-01
3.13971922698E+05	-1.85711457603E+01	-7.08605928338E+00	6.46655564944E+00	-1.77982518290E+02	-3.56248709018E+01	-1.17210299888E+02	-5.91867066200E+00	-6.56584401045E-01
3.14198867279E+05	-2.72192717203E+01	-8.58999157347E+00	6.47832387066E+00	-1.77737575145E+02	-3.44682725628E+01	4.19658039524E+01	-5.86272358543E+00	-1.90051724530E-01
3.14425975900E+05	-1.61822837614E+01	8.30656466867E+01	6.49597244022E+00	-1.78138464827E+02	-3.57701572559E+01	3.51972484546E+01	-5.88779238851E+00	1.17702761643E-01
3.14653248680E+05	-2.03239630782E+01	-1.76231052506E+01	6.39457543713E+00	-1.77643977294E+02	-4.28116590202E+01	-4.46175354983E+01	-5.85747418382E+00	-2.42375089049E-01
3.14880685736E+05	-2.87434191935E+01	1.32838028900E+02	6.61525179896E+00	-1.78172106853E+02	-3.46057853552E+01	1.04088269650E+01	-5.81109619411E+00	-3.31861331555E-01
3.15108287188E+05	-1.82927419267E+01	1.90411337226E+01	6.43339374839E+00	-1.77392594067E+02	-3.26172972167E+01	-5.77054274000E+00	-5.81660059841E+00	-4.29477617950E-01
3.15336053154E+05	-2.28235023251E+01	8.23411999849E+01	6.53853142297E+00	-1.77660899700E+02	-3.90204441075E+01	2.98651357455E+01	-5.89338127716E+00	-1.29446544017E-01
3.15563983753E+05	-1.58870667226E+01	2.55576161253E+01	6.42719097876E+00	-1.78046549115E+02	-4.72808068796E+01	7.45318566302E+01	-5.87296293788E+00	-9.43012215817E-02
3.15792079105E+05	-1.87649078039E+01	1.54504779754E+02	6.61067145340E+00	-1.78106308007E+02	-3.58530964212E+01	-1.52095005916E+02	-5.93824105736E+00	-5.03048739664E-01
3.16020339328E+05	-1.83386424596E+01	-1.62209464515E+02	6.56114449461E+00	-1.77724845966E+02	-3.84747926233E+01	-1.60196714070E+02	-5.91317942902E+00	-2.75487297213E-01
3.16248764542E+05	-2.60733388387E+01	1.77480755015E+02	6.60628208801E+00	-1.77881335176E+02	-3.67787041605E+01	-1.56924683180E+02	-5.92777848026E+00	-1.99910303891E-01
3.16477354866E+05	-2.21591677770E+01	6.24541625534E+01	6.47301052044E+00	-1.78064929846E+02	-4.34786394471E+01	-1.49821449936E+02	-5.91162859330E+00	-3.93975773132E-01
3.16706110419E+05	-1.47393538164E+01	1.43291970171E+02	6.63864215032E+00	-1.78713149473E+02	-3.48725086423E+01	1.64673011340E+02	-5.91318782671E+00	-2.13072774943E-01
3.16935031321E+05	-1.16104519025E+01	6.21074479734E+01	6.44112878921E+00	-1.78764370054E+02	-3.92307434084E+01	5.81902392371E+01	-5.86321447849E+00	-1.28655051150E-01
3.17164117691E+05	-2.10292370493E+01	1.03113257885E+02	6.54362429548E+00	-1.78256087445E+02	-4.44159126509E+01	-2.26624050060E+01	-5.89659661824E+00	-6.40538747482E-01
3.17393369648E+05	-2.60916698960E+01	-3.27268893224E+01	6.51616355379E+00	-1.78061150662E+02	-4.00701597624E+01	1.61460975598E+02	-5.90461212062E+00	-1.05990780318E-01
3.17622787313E+05	-1.51170411009E+01	1.26357790678E+02	6.59920500796E+00	-1.78843296654E+02	-3.80251497575E+01	-1.26369140431E+02	-5.87580897432E+00	-3.33415577261E-01
3.17852370806E+05	-2.10935834736E+01	-2.38935575994E+01	6.49430591744E+00	-1.77782261229E+02	-3.87447919404E+01	4.26285456435E+01	-5.86025175178E+00	-1.04408680699E-01
3.18082120245E+05	-1.47055854354E+01	6.44953626225E+01	6.48487387378E+00	-1.78153130385E+02	-3.67413142205E+01	8.95154106860E+01	-5.86722197800E+00	4.22965809648E-01
3.18312035752E+05	-1.09832102132E+01	9.24710321652E+01	6.50434765311E+00	-1.79502812569E+02	-3.47165280922E+01	-1.61196646928E+02	-5.94714721229E+00	-4.37128010869E-01
3.18542117445E+05	-1.19894717543E+01	1.21613503628E+02	6.58985733521E+00	-1.78805622510E+02	-3.29274074297E+01	-1.24980526895E+02	-5.93269269727E+00	-7.80879822132E-01
3.18772365446E+05	-1.78458488118E+01	1.11912580469E+02	6.46891619558E+00	-1.78302620198E+02	-4.20397449033E+01	1.12962717758E+01	-5.87933329830E+00	-8.64921017517E-02
3.19002779874E+05	-1.52674767413E+01	-7.24248797151E+01	6.53039750107E+00	-1.77330198079E+02	-4.80881520752E+01	3.51458407958E+01	-5.88607122767E+00	-2.54606538041E-01
3.19233360850E+05	-2.60625388406E+01	1.00487501465E+02	6.53458312464E+00	-1.77938991971E+02	-3.35152320370E+01	8.05698744800E+01	-5.87428401585E+00	-8.56825180479E-02
3.19464108494E+05	-2.12585096469E+01	-1.76763343759E+02	6.56121569528E+00	-1.77557673458E+02	-3.71774377232E+01	-5.29832090736E+01	-5.84552266127E+00	-5.08964765514E-01
3.19695022927E+05	-3.37568067981E+01	-9.27801576634E+01	6.50138315119E+00	-1.78110879607E+02	-4.62587320483E+01	5.22870578892E+01	-5.87189773107E+00	-1.09591468074E-01
3.19926104268E+05	-2.43828097444E+01	-1.19591058164E+02	6.52215463414E+00	-1.78027636794E+02	-3.09745988891E+01	-1.20168171187E+02	-5.93368822814E+00	-1.06284664503E+00
3.20157352640E+05	-1.97584230164E+01	-3.11387103492E+00	6.38846204096E+00	-1.77685427795E+02	-3.90990315916E+01	-1.01118919747E+01	-5.85580249611E+00	-5.50315050230E-02
3.20388768162E+05	-2.17834572406E+01	6.27056216530E+00	6.33670546249E+00	-1.78111305349E+02	-3.93746614274E+01	1.17986217147E+01	-5.84080582631E+00	-2.20069918331E-01
3.20620350955E+05	-2.21362140635E+01	-9.36340848550E+01	6.56668779504E+00	-1.77850474893E+02	-3.45506820773E+01	-2.93889785716E+01	-5.85873617940E+00	-3.20498099304E-01
3.20852101140E+05	-1.71041286903E+01	3.01869623526E+01	6.43765370548E+00	-1.77693535392E+02	-4.25084381501E+01	-1.22469362122E+02	-5.88177468962E+00	-3.59468679367E-01
3.21084018839E+05	-1.54949764051E+01	9.37642838671E+01	6.57069378312E+00	-1.78765943164E+02	-4.23700405551E+01	1.12074752686E+02	-5.90576223558E+00	-1.29525734727E-01
3.21316104172E+05	-1.41652193602E+01	1.44002264033E+02	6.63147861288E+00	-1.78336467718E+02	-3.72120231168E+01	1.11970107095E+01	-5.84998938988E+00	8.37764950222E-02
3.21548357261E+05	-9.81901444310E+00	3.10709304350E+01	6.29034368146E+00	-1.78254676091E+02	-3.21948987983E+01	-4.54722186413E+01	-5.82244092153E+00	-7.55996998048E-01
3.21780778226E+05	-2.29092636653E+01	2.98630461930E+01	6.36496808378E+00	-1.78172033147E+02	-4.21274642992E+01	3.15040011977E+01	-5.88082251496E+00	-6.19261882652E-02
3.22013367189E+05	-1.59824976428E+01	1.53270396883E+02	6.66917688169E+00	-1.78452739751E+02	-4.60953963722E+01	1.59852767407E+02	-5.90713484881E+00	-2.02093548292E-01
3.22246124272E+05	-1.14733244332E+01	-1.58124969194E+02	6.62560471772E+00	-1.77549125880E+02	-4.65445203726E+01	6.41492097049E+01	-5.88145550189E+00	-1.72175845728E-01
3.22479049596E+05	-2.10876236128E+01	-1.00807591383E+02	6.52355279617E+00	-1.77500509811E+02	-4.31177776137E+01	-1.73213348600E+02	-5.88248906187E+00	-2.16738378860E-01
3.22712143282E+05	-2.41728476077E+01	8.51096378746E+01	6.47600953716E+00	-1.77579236546E+02	-4.84478005454E+01	-3.52682569169E+01	-5.90156393478E+00	-3.03598896119E-01
3.22945405453E+05	-1.43019491666E+01	1.85586223443E+01	6.36576266928E+00	-1.78094273483E+02	-3.48881809206E+01	1.40289642540E+02	-5.93970592927E+00	-4.07354545448E-03
3.23178836230E+05	-2.73689834245E+01	8.35295543479E+01	6.49665111569E+00	-1.77556694187E+02	-4.15562789331E+01	1.01775583686E+02	-5.90576910987E+00	-5.30116735936E-01
3.23412435735E+05	-2.96873031106E+01	1.12164890155E+02	6.49700900152E+00	-1.78694426101E+02	-3.40284243470E+01	-8.99960478200E+01	-5.83692647793E+00	-8.79118157306E-01
3.23646204090E+05	-2.17765848308E+01	2.78358461328E+01	6.46625551087E+00	-1.78020541017E+02	-3.91327144212E+01	-4.83289265941E+01	-5.89760597578E+00	-2.58918742123E-01
3.23880141417E+05	-1.85574814981E+01	1.10129361398E+02	6.51916800071E+00	-1.78358122528E+02	-4.62848389013E+01	-1.60080145271E+02	-5.88873546204E+00	-9.50567089820E-02
3.24114247838E+05	-1.89688859681E+01	-1.02951755795E+02	6.61043760110E+00	-1.77416737062E+02	-4.20999458486E+01	1.74054492321E+02	-5.92416250486E+00	-2.78798435243E-01
3.24348523475E+05	-2.04113688617E+01	-4.13203922038E+01	6.42923414080E+00	-1.77564519183E+02	-4.63211386717E+01	-6.62961625549E+01	-5.88881535790E+00	-5.35943312794E-01
3.24582968451E+05	-2.38328299469E+01	-6.40653431201E+00	6.48297407691E+00	-1.78011241251E+02	-3.98374398625E+01	-1.11708588978E+01	-5.85427962163E+00	-2.21521994852E-01
3.24817582888E+05	-1.79293703288E+01	1.35219994333E+02	6.64511759776E+00	-1.78919836443E+02	-3.77954411351E+01	-9.61177352591E+01	-5.89311833716E+00	-3.67716258118E-01
3.25052366909E+05	-1.93293973432E+01	2.59151056381E+01	6.42790668775E+00	-1.78078812086E+02	-3.66144906058E+01	7.37272151989E+01	-5.87635316509E+00	1.02793149097E-01
3.25287320635E+05	-2.46196320552E+01	1.27705081119E+02	6.53913565246E+00	-1.77953132576E+02	-4.52928805114E+01	9.02024746593E+01	-5.90850775472E+00	-2.54700051740E-01
3.25522444191E+05	-1.95424842513E+01	-1.10628614739E+02	6.55279010214E+00	-1.77543642245E+02	-4.61741511548E+01	-2.88943360595E+00	-5.88230227341E+00	-1.44698959991E-01
3.25757737698E+05	-2.07601836869E+01	1.02717798908E+02	6.55745116232E+00	-1.78378194965E+02	-3.72286621162E+01	-1.35419983122E+02	-5.89547915462E+00	-4.94380366670E-01
3.25993201280E+05	-1.34461885626E+01	-4.68091056638E+01	6.50457479880E+00	-1.77503158484E+02	-4.35886144487E+01	-2.01991151530E+01	-5.88003468748E+00	-4.71246197628E-01
3.26228835058E+05	-2.44106719857E+01	-1.48542730286E+02	6.57550044479E+00	-1.78056626004E+02	-3.92693219141E+01	1.39319676804E+02	-5.89590441867E+00	-2.72276421910E-01
