# Hz S DB R 50
! CMT, M5065, 19127446, 24.2.4/2
! Date: 11/1/2024 4:44:30 PM
! Data: Format (Calibration Info)
! Freq	S11:dB/Ang(F2)	S21:dB/Ang(F2)	S12:dB/Ang(F2)	S22:dB/Ang(F2)
3.00000000000E+05	-2.92794824862E+01	1.77378189789E+02	1.71032864302E+01	-1.76502716937E+02	-4.90566745976E+01	-1.51969753671E+02	-5.87054871044E+00	-7.40469748589E-01
3.00216845423E+05	-2.06310157624E+01	1.74973436419E+01	1.70282720497E+01	-1.76679347329E+02	-3.92520003975E+01	6.72645419622E+01	-5.84406560248E+00	8.56844979942E-01
3.00433847586E+05	-1.92773539823E+01	-4.97790159088E+01	1.70604382433E+01	-1.76267809968E+02	-3.52244296581E+01	-2.46870425419E+01	-5.74165481233E+00	-4.35749839702E-01
3.00651006602E+05	-1.61153855740E+01	-1.24631946172E+01	1.70129606473E+01	-1.76227040199E+02	-4.77507059007E+01	-1.42160378092E+02	-5.95578259830E+00	-3.64360432671E-01
3.00868322584E+05	-2.08370283650E+01	-1.72994788816E+02	1.71548417591E+01	-1.76592757722E+02	-3.52900130591E+01	1.57942150201E+01	-5.77137393815E+00	-1.78793563771E-01
3.01085795647E+05	-1.70233575540E+01	-5.26415898843E+01	1.70505623487E+01	-1.76084558111E+02	-4.47751086708E+01	1.65188520148E+02	-5.90567422435E+00	-2.71914186172E-01
3.01303425902E+05	-1.95102992688E+01	-1.48225622827E+02	1.71422220601E+01	-1.76198938896E+02	-4.17240902133E+01	2.11879431131E+01	-5.82434508259E+00	-3.31946488931E-01
3.01521213465E+05	-1.85882268219E+01	-3.46632024579E+01	1.70303460816E+01	-1.76438553110E+02	-3.98839521667E+01	3.68046207832E+01	-5.81328166780E+00	6.05751038110E-02
3.01739158449E+05	-2.03334723921E+01	2.80141450143E+01	1.70164825088E+01	-1.76789017569E+02	-3.58522394448E+01	-1.19336707336E+02	-6.01898586337E+00	-1.03920512680E+00
3.01957260967E+05	-2.36615882440E+01	-1.72182389538E+01	1.70532681211E+01	-1.76414278378E+02	-3.15614217701E+01	1.89002378465E+01	-5.60936694512E+00	5.04441617547E-01
3.02175521134E+05	-2.76947495502E+01	1.16916246055E+02	1.71351236833E+01	-1.76631589327E+02	-3.95666064450E+01	-1.36351984340E+02	-5.88881172509E+00	-5.07169635573E-01
3.02393939063E+05	-1.34696161687E+01	1.45129298638E+02	1.71841837151E+01	-1.77031918938E+02	-4.02039292567E+01	-1.08536698447E+02	-5.92487896003E+00	-7.73437551929E-01
3.02612514869E+05	-2.32693105036E+01	-1.45845038326E+02	1.71135488472E+01	-1.76388387377E+02	-4.28971568429E+01	-6.53367510485E+01	-5.80913359764E+00	-1.03508026030E+00
3.02831248665E+05	-1.08997800164E+01	-9.85869893183E+01	1.71533457266E+01	-1.75091068079E+02	-4.12299707481E+01	-1.07139810020E+02	-5.90346694210E+00	-5.22860771043E-01
3.03050140565E+05	-1.95967033551E+01	-2.38892467140E+01	1.70756541136E+01	-1.76109392153E+02	-4.68593169519E+01	1.51747678688E+02	-5.90437517017E+00	-2.52183736179E-01
3.03269190685E+05	-2.13453992574E+01	1.79788643906E+02	1.71405187696E+01	-1.76818194918E+02	-3.38490083835E+01	-6.49779618732E+01	-5.82740956288E+00	-1.28972169292E+00
3.03488399138E+05	-2.33521214942E+01	-8.23360984301E+01	1.70850034758E+01	-1.76367116251E+02	-4.02612739298E+01	9.59621927574E+01	-5.83904900111E+00	3.93670602010E-01
3.03707766039E+05	-3.79831209691E+01	-1.13423692310E+02	1.70602919098E+01	-1.76625145929E+02	-3.87292114268E+01	1.18131871197E+02	-5.93036028695E+00	4.54128368779E-01
3.03927291503E+05	-2.05958654044E+01	7.02008406677E+01	1.71040330925E+01	-1.77061472795E+02	-4.16504377614E+01	1.14438441141E+02	-5.88552015487E+00	1.55993888497E-01
3.04146975643E+05	-2.28721799130E+01	5.25848940351E+01	1.70424384490E+01	-1.76876016758E+02	-3.50731982349E+01	1.49196343118E+02	-5.99879604860E+00	3.64042518583E-01
3.04366818575E+05	-1.73756164638E+01	-1.68924300614E+02	1.72237745579E+01	-1.76308540803E+02	-4.21525590255E+01	3.77058642256E+01	-5.87089545482E+00	3.05494621183E-02
3.04586820414E+05	-1.56584900916E+01	-1.71970193587E+02	1.72048178378E+01	-1.76694063181E+02	-4.66848436627E+01	1.62008744496E+02	-5.89203923623E+00	-3.15331544146E-01
3.04806981274E+05	-1.84438509726E+01	1.42948256402E+02	1.71627524390E+01	-1.77092114762E+02	-4.23793029314E+01	-1.78483747239E+02	-5.94933414870E+00	-2.23776002050E-01
3.05027301270E+05	-3.04869508511E+01	-1.10280654689E+02	1.71095994502E+01	-1.76401262675E+02	-3.65752411991E+01	-3.20575008147E+01	-5.73523952415E+00	-9.11629720855E-01
3.05247780517E+05	-2.19711564791E+01	9.51690984042E+01	1.71124029366E+01	-1.77034558430E+02	-4.78105641537E+01	-1.70408649333E+02	-5.90183019626E+00	-5.96041275295E-01
3.05468419131E+05	-2.71485876403E+01	7.21292677810E+01	1.70675696665E+01	-1.77206184781E+02	-3.86820112687E+01	-4.17390781015E+01	-5.76359341724E+00	-5.28921783674E-01
3.05689217226E+05	-2.67459528658E+01	-1.44696241856E+02	1.71215675898E+01	-1.76717898587E+02	-3.76867127695E+01	-9.08575830249E+01	-5.93138325566E+00	-8.49144355693E-01
3.05910174918E+05	-1.56934332026E+01	-1.46503644824E+02	1.71939044908E+01	-1.76308412028E+02	-3.87910593631E+01	7.44860360955E+01	-5.86158731521E+00	4.80081083289E-01
3.06131292322E+05	-7.75444913295E+00	1.18755226229E+02	1.72501940105E+01	-1.78269363023E+02	-3.88930728397E+01	-1.38346445334E+02	-5.96424548292E+00	-5.35358357378E-01
3.06352569554E+05	-2.56050787515E+01	-5.16832681707E+01	1.70784141073E+01	-1.76622635035E+02	-4.26513182128E+01	-3.84078849189E+01	-5.80190827338E+00	-6.35127921958E-01
3.06574006730E+05	-2.37336683773E+01	9.92897871175E+01	1.70711205411E+01	-1.77132644854E+02	-3.43325901237E+01	7.43204170957E+01	-5.93617678085E+00	7.88788989171E-01
3.06795603964E+05	-2.09704275254E+01	-3.95612382481E+01	1.70328150236E+01	-1.76628189241E+02	-3.95495680844E+01	1.41333582341E+02	-5.96511983653E+00	1.95763054384E-01
3.07017361372E+05	-2.37407622473E+01	4.70597634287E+00	1.70532048937E+01	-1.76625098440E+02	-3.99433924199E+01	9.51783708339E+01	-5.87513184979E+00	3.23158135494E-01
3.07239279071E+05	-1.51609768057E+01	-3.41806492880E+01	1.70025828436E+01	-1.76278679636E+02	-3.97814745450E+01	-6.38108639362E+01	-5.84738301057E+00	-1.09458472289E+00
3.07461357176E+05	-7.61294001397E+00	1.08181216984E+01	1.67594071627E+01	-1.76945840388E+02	-3.80237545081E+01	-6.64464550601E+01	-5.88365842274E+00	-6.00081180271E-01
3.07683595803E+05	-4.05505198236E+01	1.70395306270E+02	1.71402533769E+01	-1.76817919309E+02	-5.08018746398E+01	-1.36045321221E+02	-5.93876241104E+00	-3.19347718028E-01
3.07905995068E+05	-2.87113310687E+01	7.57405896627E+01	1.70608425545E+01	-1.76755162847E+02	-3.81924772211E+01	-1.70824332288E+00	-5.77269360161E+00	-2.89003648605E-01
3.08128555087E+05	-1.78258963824E+01	3.62127814158E+01	1.70105136110E+01	-1.76951962696E+02	-3.42457342248E+01	1.17744535665E+02	-6.00715674322E+00	6.75135818507E-01
3.08351275976E+05	-2.48789591634E+01	-1.72736088813E+02	1.71532485656E+01	-1.76565702858E+02	-4.28008940926E+01	1.42551244182E+02	-5.91806036453E+00	-2.42220368707E-01
3.08574157853E+05	-1.89085764630E+01	-1.54529019108E+02	1.71148712642E+01	-1.76427629231E+02	-4.59492585007E+01	-1.56929190313E+02	-5.91806224113E+00	-3.82652548679E-01
3.08797200832E+05	-2.04667893501E+01	-1.47386683009E+02	1.71437733910E+01	-1.76504036259E+02	-4.85600922574E+01	6.81322233142E+01	-5.84774001547E+00	-1.16838380901E-01
3.09020405031E+05	-2.36350001461E+01	1.05485687326E+02	1.70814926355E+01	-1.76886216068E+02	-3.99724108018E+01	-4.35327681530E+01	-5.84512759185E+00	-7.23214916757E-01
3.09243770566E+05	-1.44913269086E+01	-1.73990289890E+02	1.72281911237E+01	-1.76984747010E+02	-4.14294858136E+01	-2.01965796723E+01	-5.79294996404E+00	-6.24233644499E-01
3.09467297553E+05	-2.23459721754E+01	1.66856897014E+02	1.71356228188E+01	-1.76885089134E+02	-4.40293489360E+01	-3.84992918739E+01	-5.83494135736E+00	-4.13625025976E-01
3.09690986110E+05	-3.72570217019E+01	-6.12867517942E+01	1.70882774358E+01	-1.76748512643E+02	-3.27764099556E+01	-5.56830277094E+01	-5.74295261226E+00	-1.82888684531E+00
3.09914836353E+05	-1.91056147500E+01	-5.81046799998E+01	1.70120431236E+01	-1.76481955120E+02	-3.16690933978E+01	1.70446971675E+02	-6.13590615446E+00	-2.34010525388E-01
3.10138848399E+05	-1.72978598784E+01	7.87585579184E+01	1.70814506548E+01	-1.77428412998E+02	-3.86411328725E+01	-2.43880614021E+01	-5.84444590970E+00	-5.81022177560E-01
3.10363022365E+05	-2.09075309461E+01	-2.76767860790E+00	1.70223305282E+01	-1.76776563907E+02	-4.17915931083E+01	-2.24570341137E+01	-5.87123876352E+00	-5.99170983067E-01
3.10587358368E+05	-2.28932364571E+01	-1.62441733096E+02	1.71727505314E+01	-1.77233950559E+02	-4.62718840190E+01	1.44309245698E+01	-5.86211275991E+00	-3.82540860418E-01
3.10811856525E+05	-1.62174263310E+01	-4.52032011741E+01	1.69947774233E+01	-1.76148086115E+02	-4.09524248570E+01	8.64056915804E+01	-5.91650800297E+00	1.88266913404E-01
3.11036516954E+05	-1.96210898140E+01	-2.18624595957E+00	1.70618923557E+01	-1.76732109189E+02	-4.13428421717E+01	-1.31181851038E+02	-5.95648848353E+00	-4.62268981759E-01
3.11261339771E+05	-1.28119995137E+01	1.44689071423E+02	1.71653011999E+01	-1.77215234960E+02	-3.32227309436E+01	1.33887497251E+02	-5.98407973726E+00	4.94623063070E-01
3.11486325094E+05	-2.25733205561E+01	-1.06529899966E+02	1.71200147993E+01	-1.76773045230E+02	-3.68487065116E+01	-1.16320776425E+01	-5.74154138531E+00	-4.34040282914E-01
3.11711473040E+05	-2.91048744837E+01	-3.41898586764E+01	1.70709442576E+01	-1.77142456462E+02	-4.02792827236E+01	-7.69489644703E+01	-5.87184163818E+00	-9.93495526220E-01
3.11936783728E+05	-1.75883033465E+01	1.02964827911E+02	1.71085493663E+01	-1.77171551321E+02	-4.18816364616E+01	3.05193121440E+01	-5.80831887220E+00	-1.96928096753E-01
3.12162257274E+05	-8.48573049228E+00	-3.21884502856E+01	1.68262917338E+01	-1.76055610438E+02	-4.07206909751E+01	-1.25745520427E+02	-5.89283117843E+00	-3.25036838658E-01
3.12387893797E+05	-1.33217093840E+01	7.68993623834E+00	1.69718427332E+01	-1.76975941271E+02	-4.04920079346E+01	-7.95763955302E+01	-5.81367156006E+00	-6.77136559143E-01
3.12613693413E+05	-2.92911129705E+01	-4.89819155389E+01	1.70895250995E+01	-1.76705764822E+02	-6.11901720390E+01	-1.42272664112E+02	-5.90226887021E+00	-4.17456706364E-01
3.12839656242E+05	-2.13840296044E+01	-3.92808828105E+01	1.70323177115E+01	-1.76681891430E+02	-3.96235508576E+01	-1.54228499759E+01	-5.77466138811E+00	-6.24341649271E-01
3.13065782401E+05	-2.64476702347E+01	3.95574547463E+01	1.70357013426E+01	-1.77185747411E+02	-3.10904075088E+01	1.60934029074E+02	-6.18324750335E+00	1.74048646726E-01
3.13292072007E+05	-2.80768478530E+01	7.50778901869E+01	1.70635445902E+01	-1.76886449583E+02	-5.83089194600E+01	4.35638695911E+01	-5.87089760706E+00	-2.21826336217E-01
3.13518525180E+05	-1.59627042312E+01	-4.66195263935E+01	1.70473567931E+01	-1.76233844063E+02	-3.82338430480E+01	1.59372696403E+02	-5.98414031571E+00	-5.03880090678E-02
3.13745142038E+05	-1.17413121747E+01	1.00049720521E+02	1.70984921151E+01	-1.78247422242E+02	-3.54263497485E+01	-3.27342312654E+01	-5.80596537145E+00	-5.05885423504E-01
3.13971922698E+05	-1.50904325765E+01	1.25511493135E+02	1.71390606988E+01	-1.77874969128E+02	-3.58805782208E+01	-4.91513081862E+01	-5.76233517294E+00	-1.03516888661E+00
3.14198867279E+05	-2.44400953931E+01	1.31877612312E+02	1.71068316358E+01	-1.77257522876E+02	-4.63535389856E+01	-1.57569817817E+02	-5.86599179608E+00	-3.72658687712E-01
3.14425975900E+05	-2.16451681049E+01	-7.74082873501E+01	1.70790871599E+01	-1.76442102798E+02	-4.67619830271E+01	-9.46218271809E+01	-5.88929808709E+00	-3.26113259280E-01
3.14653248680E+05	-1.79697379117E+01	-8.37124316032E+01	1.71112848624E+01	-1.76444952993E+02	-3.80999285510E+01	1.56583353635E+02	-5.96416488981E+00	-2.24909110254E-01
3.14880685736E+05	-2.45173809688E+01	-1.78410838942E+02	1.71043595727E+01	-1.76845535034E+02	-4.07918689702E+01	-6.11334685762E+01	-5.80879517462E+00	-8.56115481978E-01
3.15108287188E+05	-2.26223152792E+01	2.60646455983E+01	1.70842807143E+01	-1.76948655232E+02	-3.50486734242E+01	2.89981954688E+01	-5.77477162065E+00	1.77330258637E-01
3.15336053154E+05	-1.24022247967E+01	1.62952305162E+02	1.72358546386E+01	-1.77207655959E+02	-3.53326757227E+01	-1.74645793423E+02	-5.98965481769E+00	-3.25064774940E-01
3.15563983753E+05	-9.47027424186E+00	-6.31977065144E+01	1.69826586586E+01	-1.75423316685E+02	-4.24362463399E+01	-1.08598136960E+02	-5.90911894841E+00	-5.34843993723E-01
3.15792079105E+05	-2.01968680720E+01	-7.70537787991E+00	1.70597504131E+01	-1.76979980931E+02	-4.57606505763E+01	-1.28764306650E+01	-5.79761940584E+00	-5.13303599018E-01
3.16020339328E+05	-1.92779444298E+01	1.12746714360E+02	1.71256144328E+01	-1.77187874059E+02	-2.88717122032E+01	2.47164753892E+01	-5.53528180349E+00	8.19343831524E-01
3.16248764542E+05	-1.76285327648E+01	1.30587346417E+02	1.71251174467E+01	-1.77521254653E+02	-3.83839072446E+01	1.45466328812E+02	-5.99809119530E+00	3.65475535616E-01
3.16477354866E+05	-1.56616804091E+01	2.27662944606E+01	1.70351979955E+01	-1.77141561500E+02	-3.42455681569E+01	-9.41362576080E+00	-5.77982943220E+00	-6.24543093728E-01
3.16706110419E+05	-2.24437002858E+01	6.38442452332E+01	1.71173577633E+01	-1.77234219103E+02	-4.86589465741E+01	1.25614425648E+02	-5.89969925337E+00	-6.98658246738E-02
3.16935031321E+05	-2.02417407120E+01	5.79703226857E+01	1.70990484447E+01	-1.77420373236E+02	-4.99618966080E+01	-9.69946256351E+01	-5.87079944207E+00	-2.54229769219E-01
3.17164117691E+05	-9.37399375730E+00	-1.47518026343E+02	1.73066897597E+01	-1.76183763918E+02	-4.72815066686E+01	-2.08999237281E+01	-5.87291244223E+00	-3.35926789285E-01
3.17393369648E+05	-1.61767153126E+01	-1.00083843986E+02	1.71377268668E+01	-1.76472044841E+02	-4.52259458203E+01	3.73508243509E+01	-5.88317152777E+00	-2.29508685392E-01
3.17622787313E+05	-1.92303568828E+01	1.69721773611E+02	1.71524732597E+01	-1.77312402913E+02	-3.20187141580E+01	-2.83538410028E+01	-5.69729570467E+00	-9.69967628156E-01
3.17852370806E+05	-2.02670200323E+01	2.85135182653E+01	1.70264935795E+01	-1.77250013810E+02	-3.45772894905E+01	1.37371530299E+02	-5.98358484565E+00	5.06792581884E-01
3.18082120245E+05	-2.71496642839E+01	-1.71411295968E+02	1.71233407503E+01	-1.77119950163E+02	-4.07370927737E+01	7.26481294446E+01	-5.90789700346E+00	-2.27014041367E-01
3.18312035752E+05	-1.78354316705E+01	1.08504448332E+02	1.70895836269E+01	-1.77452387984E+02	-4.23602315185E+01	7.72824950664E+01	-5.90152250341E+00	-3.38632991247E-02
3.18542117445E+05	-2.06699722294E+01	-1.43579704181E+02	1.71392749309E+01	-1.76738050462E+02	-3.63415977298E+01	-5.61059042729E+01	-5.84392337015E+00	-8.16960063218E-01
3.18772365446E+05	-1.52834319636E+01	3.79820548602E+01	1.69794542455E+01	-1.77236476155E+02	-4.32679790458E+01	-1.72958052745E+02	-5.95589737012E+00	-3.85919233197E-01
3.19002779874E+05	-2.19876066657E+01	8.59363839416E+01	1.70744785847E+01	-1.77260722135E+02	-3.40143601837E+01	1.50067258447E+02	-5.99418731346E+00	3.73833694888E-01
3.19233360850E+05	-2.25775997677E+01	1.55129057996E+02	1.71493529527E+01	-1.77292669757E+02	-3.66190243666E+01	-2.29988747873E+01	-5.74071991759E+00	-5.44859255739E-01
3.19464108494E+05	-2.56501953168E+01	-7.47606088620E+01	1.70950206768E+01	-1.76916348402E+02	-3.70128972262E+01	1.78607357087E+02	-6.01299854784E+00	-6.29907944134E-01
3.19695022927E+05	-1.68159901916E+01	1.69464432365E+02	1.71490493264E+01	-1.77275381960E+02	-3.94218491665E+01	4.18494643540E+01	-5.81573819715E+00	1.65380938228E-01
3.19926104268E+05	-1.82500676561E+01	9.77362322098E+01	1.71067016954E+01	-1.77592976227E+02	-3.60074659205E+01	-4.12921659708E+01	-5.78881246476E+00	-1.05540015836E+00
3.20157352640E+05	-2.58096602199E+01	2.07720061185E+01	1.70851451077E+01	-1.76951651404E+02	-4.90661383600E+01	1.51158208838E+02	-5.91497875512E+00	-4.06268945277E-01
3.20388768162E+05	-9.10552404196E+00	-6.09919660762E+01	1.70149024249E+01	-1.75383923634E+02	-4.22800123226E+01	-7.12324911934E+01	-5.86760292592E+00	-4.81879970163E-01
3.20620350955E+05	-2.18810376951E+01	-1.46475732597E+02	1.71496651050E+01	-1.77019951173E+02	-4.18596208939E+01	1.52290797928E+02	-5.93994868250E+00	3.58191127076E-01
3.20852101140E+05	-2.62423592904E+01	9.43220986959E+01	1.71377773750E+01	-1.77458909017E+02	-4.29316647435E+01	8.83970000094E+01	-5.85229619083E+00	2.80333805256E-01
3.21084018839E+05	-2.35849783977E+01	-1.57704418005E+02	1.71440826320E+01	-1.77039519746E+02	-3.52096340129E+01	1.52681215959E+02	-6.07061273871E+00	4.78467556347E-01
3.21316104172E+05	-3.27600916047E+01	1.52438359920E+01	1.70808736533E+01	-1.77017486523E+02	-4.29491359425E+01	-5.97118321061E+00	-5.87268355454E+00	-4.14906572670E-01
3.21548357261E+05	-1.57680494570E+01	-1.22112685853E+02	1.71843314137E+01	-1.76707611115E+02	-3.48458042797E+01	4.53976301227E+01	-5.83759337088E+00	2.70688982470E-01
3.21780778226E+05	-1.93551254725E+01	1.78381335976E+02	1.71494271075E+01	-1.77317019250E+02	-3.75214957999E+01	1.43297684643E+02	-5.95371744579E+00	9.55708610032E-02
3.22013367189E+05	-1.84207845211E+01	-1.24705638565E+00	1.69982325726E+01	-1.77207315413E+02	-4.37340525460E+01	1.75871492329E+02	-5.91363863128E+00	-1.85074346803E-01
3.22246124272E+05	-2.35493071302E+01	5.05908817299E+01	1.70586872080E+01	-1.77484551581E+02	-4.17363306753E+01	2.15299689632E+01	-5.82136820975E+00	-1.73267137399E-01
3.22479049596E+05	-1.35453651779E+01	1.10724844040E+02	1.71182489116E+01	-1.77647555401E+02	-3.77464955829E+01	2.84878090063E+01	-5.77472524068E+00	1.68268864670E-01
3.22712143282E+05	-1.95367461695E+01	-1.42817300674E+02	1.71280043591E+01	-1.76953951735E+02	-3.01119041628E+01	-1.00594778907E+02	-5.93593536441E+00	-2.44404738805E+00
3.22945405453E+05	-2.74701324000E+01	1.63506674413E+02	1.71146088805E+01	-1.77428079611E+02	-3.65347393645E+01	4.01127567488E+01	-5.76573388179E+00	1.80147514276E-01
3.23178836230E+05	-2.48093342044E+01	1.08698079627E+02	1.70966164804E+01	-1.77583298225E+02	-4.09013148779E+01	1.25891246648E+02	-5.92321871209E+00	-4.86617754819E-02
3.23412435735E+05	-1.73733039105E+01	-1.79630404875E+02	1.72047065942E+01	-1.77117521296E+02	-4.91197097791E+01	-3.75228554903E+01	-5.83238542715E+00	-4.01310389459E-01
3.23646204090E+05	-3.05358952604E+01	9.80748745347E+01	1.70506434609E+01	-1.77146494945E+02	-4.49487477721E+01	1.35269655839E+02	-5.88561068399E+00	-2.24208331142E-01
3.23880141417E+05	-1.31126080417E+01	-3.19763061484E+01	1.70232796667E+01	-1.76583431490E+02	-4.18181197350E+01	3.57681228479E-01	-5.82096930656E+00	-3.11574961545E-01
3.24114247838E+05	-2.60310939813E+01	1.73489354017E+02	1.71235134696E+01	-1.77313354613E+02	-4.34773950761E+01	1.20251012551E+02	-5.91088134505E+00	1.93237012456E-01
3.24348523475E+05	-3.10676699969E+01	1.19518784356E+02	1.70707983723E+01	-1.77311132139E+02	-3.49740681485E+01	2.93560600605E+01	-5.71488413210E+00	3.85914849978E-01
3.24582968451E+05	-2.43026075558E+01	-7.93207982700E+01	1.71203262343E+01	-1.76948308033E+02	-4.07317116914E+01	-4.64638024474E+01	-5.83635065565E+00	-7.39752487887E-01
3.24817582888E+05	-2.69167713227E+01	1.44117656898E+00	1.70633902925E+01	-1.77062397029E+02	-3.90565205450E+01	-1.28453655929E+02	-5.91864193584E+00	-7.19457549577E-01
3.25052366909E+05	-3.00745567700E+01	1.04689510776E+02	1.70805299115E+01	-1.77175501011E+02	-5.58003788542E+01	-1.74330228750E+02	-5.91281798748E+00	-2.96746198734E-01
3.25287320635E+05	-1.87077985029E+01	-1.38542262928E+02	1.71939937836E+01	-1.76809970003E+02	-5.77724663494E+01	5.80665307521E+01	-5.88378141010E+00	-2.35874044689E-01
3.25522444191E+05	-2.77484561860E+01	5.15510703155E+01	1.70798420341E+01	-1.77188793220E+02	-4.02468269205E+01	-1.17660126988E+02	-5.91249232927E+00	-8.07626651183E-01
3.25757737698E+05	-2.36552837065E+01	-4.19766131655E+01	1.70811304242E+01	-1.76714737167E+02	-3.88012888718E+01	7.85077401550E+00	-5.80511655189E+00	-9.53483213478E-02
3.25993201280E+05	-1.72351314343E+01	9.28668031392E+00	1.70122260359E+01	-1.77479047135E+02	-3.77413075479E+01	5.24899043500E+01	-5.74009672352E+00	4.16609499342E-01
3.26228835058E+05	-1.82764738587E+01	1.08096467019E+02	1.71272512153E+01	-1.77685124251E+02	-3.49306678722E+01	9.10733154842E+01	-5.88671359464E+00	5.37156584362E-01
