# Hz S DB R 50
! CMT, M5065, 19127446, 24.2.4/2
! Date: 11/1/2024 4:26:02 PM
! Data: Format (Calibration Info)
! Freq	S11:dB/Ang(F2)	S21:dB/Ang(F2)	S12:dB/Ang(F2)	S22:dB/Ang(F2)
3.00000000000E+05	-1.38184431352E+01	-1.36128498358E+02	7.50447870550E+00	-1.77126844383E+02	-3.54035516238E+01	1.05820927074E+02	-5.90894119917E+00	1.21330329651E-01
3.00216845423E+05	-2.36272715803E+01	2.39754260560E+01	7.41117504367E+00	-1.77574737468E+02	-3.88919938864E+01	1.19127172525E+02	-5.91302692933E+00	-1.67414044938E-01
3.00433847586E+05	-2.95091635724E+01	4.87865912019E+01	7.46124140688E+00	-1.77656357458E+02	-4.40261482377E+01	1.16566448813E+02	-5.88024382416E+00	-1.96813610095E-02
3.00651006602E+05	-2.67794349385E+01	-2.78677738943E+01	7.43309934743E+00	-1.77405734331E+02	-4.24549444339E+01	-1.72627726460E+02	-5.90131382463E+00	-4.09464205788E-01
3.00868322584E+05	-2.69262646190E+01	-1.58160375761E+02	7.50707427021E+00	-1.77738578040E+02	-4.87344577286E+01	1.64857562908E+02	-5.90383404834E+00	-7.16113944358E-02
3.01085795647E+05	-1.63934167950E+01	-1.76839757333E+02	7.47247108412E+00	-1.77516881433E+02	-4.34418175598E+01	1.72645563953E+02	-5.90310631643E+00	-1.16082000458E-01
3.01303425902E+05	-3.46315256549E+01	-7.62995099639E+01	7.41590795348E+00	-1.77459180988E+02	-3.76850495877E+01	-1.21801633019E+02	-5.92582982192E+00	-5.82399684034E-01
3.01521213465E+05	-1.46940582594E+01	1.06102756345E+02	7.42203172729E+00	-1.77933873069E+02	-3.86641511888E+01	8.36717724567E+01	-5.87913690973E+00	-1.66400131691E-02
3.01739158449E+05	-2.24160709834E+01	1.13294289545E+02	7.44181068250E+00	-1.77335431085E+02	-3.99281667869E+01	-4.53587489575E+01	-5.86191337941E+00	-2.10670845307E-01
3.01957260967E+05	-2.58337584188E+01	-8.64912219730E+01	7.48157425867E+00	-1.77787664784E+02	-4.11015421377E+01	-5.68690867038E+01	-5.83764751163E+00	-3.70948667210E-01
3.02175521134E+05	-2.01248616671E+01	1.37127891751E+02	7.39150420775E+00	-1.78040070029E+02	-4.11639445486E+01	4.51885000278E+01	-5.88534391908E+00	8.77943813744E-03
3.02393939063E+05	-1.82273109801E+01	7.44066231554E+01	7.40002751130E+00	-1.77928581914E+02	-4.03828025908E+01	-6.61017442020E+01	-5.86375279064E+00	-4.71454217525E-01
3.02612514869E+05	-2.47849076342E+01	1.74205611634E+02	7.42670653312E+00	-1.78054980351E+02	-3.76032526732E+01	6.52098720410E+01	-5.88791802986E+00	-4.09081862448E-02
3.02831248665E+05	-1.69951211462E+01	-2.43811123089E+01	7.35493952335E+00	-1.77577721597E+02	-3.03838982480E+01	2.01619670186E+01	-5.77359551027E+00	1.03345096136E-01
3.03050140565E+05	-1.48130253520E+01	-5.78239689355E+01	7.41072228423E+00	-1.77083766567E+02	-3.65952613366E+01	-2.31639494284E+01	-5.86057953589E+00	-3.25519139560E-01
3.03269190685E+05	-2.56778104855E+01	1.64599584082E+02	7.44090132258E+00	-1.77585669412E+02	-3.96188341082E+01	1.27341163935E+02	-5.87842567106E+00	-3.12119056640E-01
3.03488399138E+05	-1.95635800117E+01	-4.92307199158E+01	7.43972618282E+00	-1.77340917307E+02	-4.19048730895E+01	1.54122212415E+02	-5.91092074380E+00	-2.65379948382E-01
3.03707766039E+05	-1.97866417411E+01	-1.11369407695E+02	7.45865321012E+00	-1.77011436971E+02	-4.15388789431E+01	-6.11660353867E+01	-5.85602312249E+00	-3.21496781738E-01
3.03927291503E+05	-2.80645523984E+01	-3.00982550388E+01	7.35632675950E+00	-1.77621069982E+02	-5.28447489409E+01	1.73768988078E+02	-5.89965079877E+00	-3.45925948249E-01
3.04146975643E+05	-1.90460340125E+01	-7.83789253137E+01	7.40979472093E+00	-1.77268601189E+02	-3.70578131027E+01	7.88188603331E+01	-5.88179341323E+00	6.52261245442E-02
3.04366818575E+05	-1.51221925920E+01	5.68837828608E+01	7.34971763718E+00	-1.78283212357E+02	-4.52852733450E+01	1.55557810358E+02	-5.88545571747E+00	-1.31370307927E-01
3.04586820414E+05	-3.13076225799E+01	-1.17529104854E+02	7.46548366944E+00	-1.77698340822E+02	-4.34249221472E+01	6.83480430237E+01	-5.89363520175E+00	1.31791206708E-02
3.04806981274E+05	-2.12757674041E+01	-3.01217489994E+01	7.43984585897E+00	-1.77499666846E+02	-4.99675333400E+01	1.21277345099E+02	-5.91438376842E+00	-2.63090124156E-01
3.05027301270E+05	-3.50994136814E+01	-1.34742520231E+02	7.39180242171E+00	-1.77785142579E+02	-5.76499490346E+01	9.75923090437E+01	-5.88853257659E+00	-3.66492325561E-01
3.05247780517E+05	-2.20407341966E+01	-1.19046477794E+02	7.46727423645E+00	-1.77524326904E+02	-4.13048763644E+01	3.76010143994E+01	-5.88429665546E+00	-3.99890978846E-03
3.05468419131E+05	-2.58610680264E+01	-1.20283757629E+02	7.45187308098E+00	-1.77787533102E+02	-4.72986995523E+01	4.08682677051E+01	-5.88987725439E+00	-3.90861337524E-01
3.05689217226E+05	-2.23718151289E+01	-1.40598821948E+02	7.46608275878E+00	-1.77591483871E+02	-3.77256827093E+01	4.93283760011E+01	-5.86452495540E+00	2.13232319061E-01
3.05910174918E+05	-8.60522573215E+00	-2.72062524673E+01	7.18583287154E+00	-1.76840736582E+02	-2.90401199117E+01	1.70049107149E+02	-6.01134975121E+00	-3.19553277337E-01
3.06131292322E+05	-1.34266664574E+01	-1.74992146378E+02	7.53837988104E+00	-1.77768785539E+02	-3.69463423726E+01	-1.05409838565E+02	-5.88805137524E+00	-1.12742210957E-01
3.06352569554E+05	-1.82461222143E+01	-1.24563953471E+02	7.45544322149E+00	-1.77590772139E+02	-4.85833367409E+01	1.10282037238E+02	-5.92381393736E+00	-3.99310358959E-01
3.06574006730E+05	-2.26757600568E+01	1.02769167821E+02	7.39642380691E+00	-1.77968928346E+02	-4.38177318152E+01	-2.90542647614E+01	-5.84018147999E+00	-3.62254721588E-01
3.06795603964E+05	-3.72631692931E+01	1.58009254408E+02	7.42738344693E+00	-1.77862889857E+02	-3.85026471171E+01	3.30068118383E+01	-5.88101873916E+00	-2.89451567301E-01
3.07017361372E+05	-1.83074281457E+01	-2.31758035033E+01	7.37694018627E+00	-1.77755862113E+02	-4.06612651797E+01	6.71502205999E+00	-5.82224741319E+00	-1.77912258871E-02
3.07239279071E+05	-2.21699311111E+01	-1.01378206850E+02	7.42464068770E+00	-1.77245776803E+02	-4.58899144898E+01	1.75759446784E+02	-5.92340820253E+00	-3.18625064140E-01
3.07461357176E+05	-9.62042812466E+00	1.09065585630E+02	7.57240640115E+00	-1.79466742847E+02	-3.36784605254E+01	-1.51526234730E+02	-6.01696539245E+00	-5.25337728414E-01
3.07683595803E+05	-1.73697104594E+01	-4.27501846041E+00	7.30119347719E+00	-1.77875249147E+02	-3.98337884891E+01	6.49107937150E+01	-5.85855555004E+00	-1.79943932279E-01
3.07905995068E+05	-2.10327844177E+01	1.08666330543E+02	7.47384352139E+00	-1.78366023736E+02	-3.82537279171E+01	-5.87317736344E+01	-5.86565584612E+00	-6.77200886179E-01
3.08128555087E+05	-1.99728354529E+01	-5.59252306368E+01	7.39360326922E+00	-1.77355499747E+02	-4.32813532229E+01	3.37311756316E+01	-5.82659909227E+00	1.80013155835E-01
3.08351275976E+05	-2.03062159620E+01	4.98771999463E+01	7.33951633488E+00	-1.77657937209E+02	-4.81788874653E+01	1.66279914374E+02	-5.89153561419E+00	-3.57791002610E-02
3.08574157853E+05	-2.10255535745E+01	6.73481109343E+01	7.42750522067E+00	-1.77816636486E+02	-3.98998181490E+01	1.20867818789E+02	-5.87438413057E+00	-1.94912823633E-01
3.08797200832E+05	-1.48450016210E+01	5.80132944292E+01	7.33147607043E+00	-1.78552485752E+02	-4.28409106963E+01	1.31325940237E+02	-5.93885599287E+00	-2.03856766160E-01
3.09020405031E+05	-2.04006423637E+01	-6.46191576277E+00	7.37390062650E+00	-1.77827819062E+02	-3.42561633120E+01	1.50959707402E+02	-5.92786457037E+00	2.64632154736E-01
3.09243770566E+05	-1.20028037483E+01	-1.26887030344E+02	7.52021186235E+00	-1.76989517794E+02	-3.66659013170E+01	-1.68305591332E+02	-5.95092403930E+00	-2.86976275861E-01
3.09467297553E+05	-2.02383822927E+01	3.92584979554E+01	7.37862427068E+00	-1.77826959171E+02	-4.02739533821E+01	9.55953252743E+01	-5.89727093070E+00	-2.06084484173E-01
3.09690986110E+05	-1.44966026164E+01	-5.88132050637E+01	7.36965306334E+00	-1.77066038061E+02	-4.51623641198E+01	3.00838458688E+01	-5.89082661970E+00	-2.75507152638E-01
3.09914836353E+05	-2.06176638286E+01	-9.26419728119E+01	7.41816571640E+00	-1.77562758286E+02	-4.13303355990E+01	5.11311928541E+01	-5.89594800682E+00	-1.35596762745E-01
3.10138848399E+05	-1.97645740393E+01	1.37346415435E+02	7.52185939706E+00	-1.78076248129E+02	-4.00117905269E+01	-6.90418461075E+01	-5.89596229865E+00	-4.33249881053E-01
3.10363022365E+05	-2.66150159258E+01	-1.32883481465E+02	7.47875394070E+00	-1.77442191007E+02	-5.15872133712E+01	-1.76053953783E+02	-5.89369991890E+00	-1.51590633224E-01
3.10587358368E+05	-3.26779867807E+01	-1.45401594978E+02	7.48016248175E+00	-1.77554042550E+02	-3.86618731970E+01	-8.41876755626E+01	-5.90086472826E+00	-7.07269301421E-01
3.10811856525E+05	-4.50687170308E+00	1.59907998253E+02	7.81785711436E+00	-1.78995645553E+02	-3.18480263371E+01	4.49223386529E+00	-5.80012371332E+00	8.91572303448E-02
3.11036516954E+05	-2.53840573372E+01	-4.33598591676E+01	7.36602378408E+00	-1.77366884258E+02	-4.39811129808E+01	1.43496840106E+02	-5.95562346083E+00	-1.51450106539E-01
3.11261339771E+05	-1.87217908214E+01	6.55920902034E+01	7.33667450781E+00	-1.78251385346E+02	-3.87869034437E+01	1.19901933329E+02	-5.92019072634E+00	-2.68537128735E-01
3.11486325094E+05	-2.25544818687E+01	-1.49585019693E+02	7.50134521901E+00	-1.77413400541E+02	-4.38289138935E+01	3.64703683740E+01	-5.85417749075E+00	-4.13016871008E-01
3.11711473040E+05	-2.43071234392E+01	-1.46037991148E+01	7.41117167731E+00	-1.77870966839E+02	-4.03188851494E+01	-1.19496435653E+02	-5.90203002052E+00	-4.26953107781E-01
3.11936783728E+05	-2.66515955612E+01	-1.02914636219E+01	7.37016825735E+00	-1.77942646334E+02	-4.86668607739E+01	1.80348040270E+01	-5.89373087813E+00	-3.26460648557E-01
3.12162257274E+05	-2.01567960568E+01	-1.77490085717E+02	7.51232859177E+00	-1.77917616941E+02	-3.00222195346E+01	1.53282494046E+02	-5.99044339745E+00	-3.56141613790E-02
3.12387893797E+05	-1.28065163666E+01	-1.17629277405E+02	7.55048388336E+00	-1.77115855437E+02	-3.08702319167E+01	9.90876126711E+01	-5.86049460679E+00	5.16674942615E-01
3.12613693413E+05	-3.76823546500E+01	-1.27145296893E+02	7.43327879277E+00	-1.77681591902E+02	-4.14154587604E+01	-2.88414673089E+01	-5.87462388455E+00	-1.62449885112E-01
3.12839656242E+05	-1.33542011243E+01	-6.75972821603E+01	7.33686424331E+00	-1.77015049881E+02	-5.19884127045E+01	1.24961405285E+01	-5.87392514693E+00	-2.62490165860E-01
3.13065782401E+05	-1.92370542017E+01	2.02756317126E+01	7.46833508224E+00	-1.78137694966E+02	-3.69816256232E+01	-1.56416330112E+02	-5.90347407365E+00	-4.26248448426E-01
3.13292072007E+05	-1.99742310775E+01	-1.68382157232E+02	7.54137450848E+00	-1.77602085879E+02	-4.29278265408E+01	1.51593141311E+02	-5.89525443123E+00	-2.38675782329E-01
3.13518525180E+05	-3.07298333211E+01	-1.58753920111E+02	7.44829513255E+00	-1.77453924954E+02	-4.64190425926E+01	-1.78412585412E+02	-5.88148333365E+00	-1.59144694277E-01
3.13745142038E+05	-1.87593381635E+01	9.02957984567E+01	7.40386359732E+00	-1.78553016715E+02	-3.73544934855E+01	-8.50657905910E+01	-5.88691465073E+00	-6.95408578686E-01
3.13971922698E+05	-1.56076975701E+01	1.32267203837E+02	7.51523044170E+00	-1.77932104472E+02	-4.40195362807E+01	-5.76628756085E+01	-5.89157331984E+00	-4.16802707556E-01
3.14198867279E+05	-2.61225602357E+01	-1.47749720018E+02	7.42586805965E+00	-1.77693508021E+02	-4.73193696335E+01	1.58138037359E+02	-5.88331319859E+00	-3.65097592303E-01
3.14425975900E+05	-1.93483524559E+01	1.27163203120E+02	7.41079097978E+00	-1.78422205135E+02	-3.70633554909E+01	1.43091331164E+02	-5.90650671185E+00	-4.08639134255E-02
3.14653248680E+05	-2.23076295768E+01	-1.78810605319E+02	7.48686831422E+00	-1.78084526908E+02	-3.76499778846E+01	8.21773502313E+01	-5.87075964333E+00	-1.45953263289E-01
3.14880685736E+05	-2.58851614113E+01	-1.35278071945E+02	7.45392092742E+00	-1.77781161495E+02	-3.75134087918E+01	-9.49038162319E+01	-5.94239168946E+00	-2.58210236456E-01
3.15108287188E+05	-3.20928518666E+01	-1.77281589912E+02	7.40846790261E+00	-1.77733252893E+02	-4.04365910570E+01	-1.34144863777E+02	-5.90885931364E+00	-3.37466841631E-01
3.15336053154E+05	-2.26386929404E+01	1.34980032406E+02	7.49886922120E+00	-1.78232495266E+02	-4.16237476290E+01	-5.55217244020E+01	-5.86983904672E+00	-5.14966910610E-01
3.15563983753E+05	-2.60212213028E+01	1.16310879912E+02	7.45810743593E+00	-1.77877236526E+02	-3.76511788779E+01	-4.01785373131E+01	-5.85205386392E+00	-5.16386979971E-01
3.15792079105E+05	-3.05138586120E+01	6.34698255778E+01	7.33807656091E+00	-1.78263608722E+02	-4.13723387370E+01	1.44189987080E+02	-5.90528721522E+00	-1.98895509330E-01
3.16020339328E+05	-1.88357293340E+01	5.49967230604E+01	7.39418479818E+00	-1.78231325155E+02	-4.06597166414E+01	-9.87002301174E+01	-5.91996319257E+00	-1.62808792079E-01
3.16248764542E+05	-1.78396661918E+01	3.25834491859E+01	7.34147255647E+00	-1.78308831851E+02	-5.18940503010E+01	-1.18371616227E+02	-5.84704077789E+00	-1.49990294295E-01
3.16477354866E+05	-1.64164524447E+01	3.47823470190E+01	7.25846294508E+00	-1.78374040860E+02	-4.28789903280E+01	-1.76098909939E+02	-5.86785805479E+00	-3.81425896649E-01
3.16706110419E+05	-1.02120282418E+01	-1.30905052053E+02	7.55706450625E+00	-1.76902518648E+02	-3.41924534930E+01	8.40137980217E+01	-5.86490352030E+00	1.35979250408E-01
3.16935031321E+05	-1.99049332438E+01	-1.40194115560E+02	7.50819775511E+00	-1.78149776207E+02	-3.32341823209E+01	-6.95883104559E+01	-5.90758811103E+00	-8.20842591185E-01
3.17164117691E+05	-3.39107155424E+01	8.80595154404E+01	7.47627655492E+00	-1.78204270362E+02	-3.62814549571E+01	-1.98699053298E+01	-5.80349947109E+00	-4.80636959718E-01
3.17393369648E+05	-1.70163077796E+01	-2.85138928457E+00	7.30279694004E+00	-1.77827114335E+02	-4.07301984695E+01	1.67763752567E+02	-5.88624314464E+00	-3.21437201283E-01
3.17622787313E+05	-2.04801064923E+01	-1.00753843530E+02	7.46485919612E+00	-1.77428182006E+02	-3.97597814045E+01	-6.27093121403E+01	-5.84631825468E+00	-3.27490020527E-01
3.17852370806E+05	-2.75383910202E+01	1.95738449595E+01	7.40063287436E+00	-1.77835625636E+02	-6.23335164669E+01	-1.76075893485E+02	-5.91080229596E+00	-4.26490465309E-01
3.18082120245E+05	-2.20491980530E+01	1.76004527454E+02	7.46303698949E+00	-1.77424305928E+02	-4.23927492368E+01	-2.72183122900E+01	-5.88541789932E+00	-2.55067203859E-01
3.18312035752E+05	-3.09167092881E+01	6.33223343739E+00	7.38744903651E+00	-1.77628451754E+02	-4.49630293341E+01	-3.04072025618E+01	-5.88091843853E+00	-3.48973148065E-01
3.18542117445E+05	-1.79098011645E+01	1.78401114226E+02	7.42874559868E+00	-1.78136288939E+02	-3.22866284301E+01	-8.30961867226E+01	-5.88334681809E+00	-7.91604478817E-01
3.18772365446E+05	-2.21581669425E+01	5.99013234769E+01	7.44646673235E+00	-1.78126555058E+02	-4.04377521729E+01	1.31231117832E+02	-5.91699279646E+00	-1.47037453958E-01
3.19002779874E+05	-1.76800557567E+01	-4.90237592055E+01	7.33433856808E+00	-1.77319688831E+02	-4.83350464362E+01	-1.75540232785E+02	-5.88344787280E+00	-1.51409193629E-01
3.19233360850E+05	-2.47437127705E+01	-1.06407892934E+02	7.39834332266E+00	-1.77569472142E+02	-3.78217031412E+01	6.64916632467E+01	-5.90744955100E+00	-1.05279062796E-01
3.19464108494E+05	-2.41300999143E+01	-8.41637667397E+01	7.36386083529E+00	-1.77544803846E+02	-4.31284100366E+01	-1.55352966324E+00	-5.87427340224E+00	-1.74062679475E-01
3.19695022927E+05	-1.90112329575E+01	9.79588990988E+01	7.39459173133E+00	-1.78269613530E+02	-4.59700434721E+01	-8.51363222261E+01	-5.85982509787E+00	-3.12719567818E-01
3.19926104268E+05	-1.95966260755E+01	3.03727335313E+01	7.32519783126E+00	-1.78340310178E+02	-4.60560998418E+01	1.71655390994E+02	-5.89339667809E+00	-3.33881046237E-01
3.20157352640E+05	-1.82255329934E+01	1.29538250368E+02	7.52621904657E+00	-1.77980493372E+02	-4.89517172112E+01	2.27972624274E+00	-5.88174485349E+00	-1.59398917894E-01
3.20388768162E+05	-9.08176538612E+00	1.78352892658E+02	7.67979528122E+00	-1.77922325792E+02	-3.78405820453E+01	-7.28531874136E+01	-5.82863570220E+00	-5.60297318355E-01
3.20620350955E+05	-1.33469834752E+01	6.56079338634E+01	7.28251862854E+00	-1.78532573257E+02	-4.17990540897E+01	5.33249788507E+01	-5.89337400699E+00	1.52570892658E-02
3.20852101140E+05	-3.41103202616E+01	-1.57762238665E+02	7.38379347774E+00	-1.77467444287E+02	-3.93505584730E+01	5.59588310655E+01	-5.86488995433E+00	-1.35894390182E-01
3.21084018839E+05	-2.45756074357E+01	9.93829493648E+01	7.44531762978E+00	-1.78032032429E+02	-4.42676465857E+01	4.58392460746E+01	-5.87019612373E+00	-8.94485637535E-02
3.21316104172E+05	-1.39163403079E+01	-6.59526678519E+00	7.37005794044E+00	-1.78024189111E+02	-3.86645976058E+01	3.13398315187E+01	-5.89107497526E+00	-1.53489278851E-01
3.21548357261E+05	-2.05025025412E+01	-1.15886246535E+02	7.43121859803E+00	-1.77517586530E+02	-3.99764344975E+01	1.78116063406E+02	-5.90731098425E+00	-1.65366021298E-01
3.21780778226E+05	-1.87997463074E+01	7.46547183503E+01	7.43552501733E+00	-1.78113491839E+02	-4.16568430107E+01	1.58773694511E+02	-5.91590967798E+00	-7.95727821318E-02
3.22013367189E+05	-2.29061801293E+01	1.25731128713E+02	7.48187340439E+00	-1.78134050353E+02	-3.50056119456E+01	-6.56061622351E+01	-5.87817795649E+00	-6.25812010743E-01
3.22246124272E+05	-1.68555828340E+01	1.58387796908E+02	7.50565032339E+00	-1.77933813744E+02	-3.62502557220E+01	-1.41342851844E+02	-5.91115912609E+00	-3.54958332621E-01
3.22479049596E+05	-3.11905980584E+01	1.38869903776E+02	7.43012490673E+00	-1.78219716388E+02	-4.27961023818E+01	-9.70074642081E+01	-5.95861146518E+00	-3.30585179532E-01
3.22712143282E+05	-2.81327546566E+01	1.34700477624E+02	7.47720645496E+00	-1.77992398148E+02	-3.74817658984E+01	1.64935579056E+02	-5.87162383841E+00	-3.13327789037E-01
3.22945405453E+05	-1.81747009936E+01	1.51720990887E+02	7.48351934317E+00	-1.78570755316E+02	-4.01788285659E+01	-1.53739367386E+02	-5.93119191440E+00	-3.82322724335E-01
3.23178836230E+05	-1.75319882933E+01	1.50755447645E+02	7.48935658772E+00	-1.77822782867E+02	-3.50461517673E+01	1.74741855241E+02	-5.92968580284E+00	-1.69379225326E-01
3.23412435735E+05	-2.56169002447E+01	1.23318344536E+02	7.41201894429E+00	-1.78046983256E+02	-4.61615766783E+01	-2.04225125999E+00	-5.89212127956E+00	-2.17793583603E-01
3.23646204090E+05	-1.48837390410E+01	1.00035497423E+02	7.49605897089E+00	-1.79019225974E+02	-4.47304162021E+01	-1.63597688354E+02	-5.95045328708E+00	-1.85080055766E-01
3.23880141417E+05	-2.11972713228E+01	5.40521753844E+01	7.41738790582E+00	-1.78003389466E+02	-5.16337684410E+01	-1.50426894432E+02	-5.86341212011E+00	-2.73215797789E-01
3.24114247838E+05	-1.64544075699E+01	1.09563230688E+02	7.51598206021E+00	-1.78326018759E+02	-3.72004070643E+01	-4.99641625835E+01	-5.86701697326E+00	-2.18529785933E-01
3.24348523475E+05	-1.96534114253E+01	8.75589043637E+01	7.37492076736E+00	-1.78430834671E+02	-3.56248397264E+01	4.58106853346E+00	-5.83408054695E+00	-5.86085933866E-01
3.24582968451E+05	-1.72154545506E+01	3.08225646464E+01	7.29025176890E+00	-1.78445222570E+02	-3.60080276878E+01	7.20712170446E+01	-5.89356451129E+00	1.88666081635E-01
3.24817582888E+05	-1.89933032780E+01	1.52549259391E+02	7.46157224368E+00	-1.78212972348E+02	-4.17943016935E+01	-4.60114181886E+01	-5.87291717366E+00	-3.42550553375E-01
3.25052366909E+05	-2.11181218873E+01	-1.43939650301E+02	7.49753543846E+00	-1.77625202971E+02	-5.30867758035E+01	9.10782682815E+01	-5.86170158667E+00	1.37182753665E-01
3.25287320635E+05	-1.97105041718E+01	7.92196825028E+01	7.32378227852E+00	-1.78455919832E+02	-2.88374972840E+01	7.10795311943E+01	-5.80986817018E+00	5.21254528066E-01
3.25522444191E+05	-2.00863732044E+01	1.51752222930E+02	7.37254013964E+00	-1.78540248225E+02	-3.76748315944E+01	1.21756943027E+01	-5.83900633677E+00	-5.64515974938E-02
3.25757737698E+05	-2.17296704542E+01	8.28403935868E+01	7.44883284016E+00	-1.78196762807E+02	-4.02960271518E+01	1.00229300566E+02	-5.88903854435E+00	1.45508890671E-01
3.25993201280E+05	-2.42682897238E+01	-1.06586565678E+02	7.38559476931E+00	-1.77550055404E+02	-4.94282742113E+01	1.14106738031E+02	-5.83873705941E+00	-3.36283428214E-01
3.26228835058E+05	-1.95463425112E+01	1.46495315163E+02	7.44691371871E+00	-1.78655224497E+02	-3.29228256382E+01	1.22029647626E+02	-5.91140954336E+00	4.34259421924E-02
