# Hz S DB R 50
! CMT, M5065, 19127446, 24.2.4/2
! Date: 11/1/2024 4:40:48 PM
! Data: Format (Calibration Info)
! Freq	S11:dB/Ang(F2)	S21:dB/Ang(F2)	S12:dB/Ang(F2)	S22:dB/Ang(F2)
3.00000000000E+05	-1.71751814819E+01	-7.74000897973E+00	1.39628468017E+01	-1.76672461209E+02	-4.33334637587E+01	1.56903068325E+02	-5.92302184899E+00	-1.98248265444E-01
3.00216845423E+05	-2.23625570559E+01	4.75476817057E+01	1.39623026305E+01	-1.77113734560E+02	-4.54735583979E+01	1.08116945135E+02	-5.87021212511E+00	-3.97918766072E-01
3.00433847586E+05	-1.82006807682E+01	5.08412447537E+01	1.40204470186E+01	-1.77339810156E+02	-3.85812323178E+01	1.75783022378E+02	-5.91934106055E+00	-4.78006353851E-01
3.00651006602E+05	-2.65227948732E+01	1.25557437380E+02	1.40361635276E+01	-1.77340027771E+02	-4.34357769643E+01	6.22213802560E+01	-5.84277720492E+00	-2.32002027680E-01
3.00868322584E+05	-2.67481130909E+01	5.75399392570E+01	1.39811369679E+01	-1.77209879437E+02	-3.73315576819E+01	3.94758025018E+01	-5.81668725160E+00	-2.35093147170E-01
3.01085795647E+05	-1.32987420144E+01	9.07098173296E+01	1.39627528640E+01	-1.77966672484E+02	-3.66814393188E+01	-1.12575216936E+02	-5.93075565578E+00	-8.69245928329E-01
3.01303425902E+05	-1.69804516763E+01	-2.63359504462E+01	1.39259789214E+01	-1.76768535942E+02	-4.77150908275E+01	1.57230453619E+02	-5.87344777428E+00	-2.07212334806E-01
3.01521213465E+05	-1.83922784079E+01	2.93147688198E+01	1.39020370762E+01	-1.77365787672E+02	-3.84502733241E+01	-6.87441994351E+01	-5.82136358562E+00	-8.07434154847E-01
3.01739158449E+05	-1.82717528967E+01	5.26494017537E+01	1.39667802212E+01	-1.77441353733E+02	-3.63818833229E+01	-4.64521168602E+01	-5.79617706768E+00	-7.92548205563E-01
3.01957260967E+05	-3.65666151588E+01	1.61993991409E+02	1.40262411724E+01	-1.77158199924E+02	-3.92767112105E+01	1.29012546496E+02	-5.97668232677E+00	1.19796658607E-01
3.02175521134E+05	-1.78303639964E+01	-9.58861458704E+01	1.40487692041E+01	-1.76733704010E+02	-4.27089569061E+01	-8.48033098995E+01	-5.86438141345E+00	-3.85126744073E-01
3.02393939063E+05	-2.65168858176E+01	9.78826773754E+01	1.40296609924E+01	-1.77312159286E+02	-4.26327573936E+01	1.70603302951E+02	-5.92561050879E+00	-3.29135370681E-01
3.02612514869E+05	-1.00814641618E+01	1.62164817641E+02	1.42201777659E+01	-1.77686586894E+02	-3.84473013255E+01	5.51952395918E+01	-5.85820998705E+00	5.90380738669E-02
3.02831248665E+05	-1.16048154020E+01	1.23517767944E+01	1.38630636016E+01	-1.77338861518E+02	-5.09436480957E+01	-2.26579156852E+01	-5.84741701915E+00	-4.34751689165E-01
3.03050140565E+05	-1.52451323356E+01	9.83119217779E+01	1.39902177003E+01	-1.77876669182E+02	-3.67812940357E+01	-1.74212789885E+02	-6.01024351664E+00	-3.03203439602E-01
3.03269190685E+05	-1.99993056005E+01	9.21580044707E+01	1.39881555763E+01	-1.77847567653E+02	-3.99743232674E+01	-5.58786777157E+01	-5.87196810325E+00	-6.14477198299E-01
3.03488399138E+05	-1.94473654728E+01	4.22956707117E+01	1.39613600526E+01	-1.77586274338E+02	-4.63614184298E+01	-1.33774906056E+02	-5.92058117151E+00	-1.72978983692E-01
3.03707766039E+05	-1.87158410761E+01	8.93195911278E+01	1.40181281127E+01	-1.77855955243E+02	-4.38803247634E+01	-1.62050237640E+02	-5.94691271643E+00	-5.29456727806E-01
3.03927291503E+05	-2.66107991044E+01	1.37838086969E+02	1.40184088146E+01	-1.77413727122E+02	-4.56549974015E+01	1.10811954611E+02	-5.87669272301E+00	2.12836798431E-02
3.04146975643E+05	-2.17927625114E+01	-3.41803865192E+01	1.39982407506E+01	-1.77011810288E+02	-3.83929064740E+01	4.17398930641E+01	-5.80747533444E+00	-6.24717286425E-02
3.04366818575E+05	-9.00546406217E+00	1.11813060786E+02	1.40905719777E+01	-1.78920712196E+02	-4.61349608399E+01	1.22344029029E+02	-5.90058795664E+00	-2.45315229559E-01
3.04586820414E+05	-1.74052499043E+01	-1.45455672053E+02	1.40559835273E+01	-1.77104532244E+02	-3.93447343545E+01	1.63865383283E+02	-5.91716805494E+00	5.55636344863E-02
3.04806981274E+05	-2.18175350085E+01	-1.16965636092E+02	1.40236494645E+01	-1.76993035935E+02	-3.89968111038E+01	-1.57059685443E+02	-5.97795873658E+00	-1.78976003323E-01
3.05027301270E+05	-3.87553440593E+01	-2.64682282590E+01	1.40383177577E+01	-1.77244029204E+02	-4.01308201853E+01	3.68342818361E+01	-5.87221050219E+00	-1.78383799257E-01
3.05247780517E+05	-2.86494256617E+01	-2.70333801497E+01	1.40238755589E+01	-1.77113462456E+02	-4.16571730565E+01	1.31903952026E+02	-5.91676396555E+00	1.28697975441E-02
3.05468419131E+05	-2.84136964333E+01	9.75543810598E+01	1.40340627840E+01	-1.77395386363E+02	-3.90210636378E+01	-1.08845626025E+02	-5.91062794735E+00	-3.08919335563E-01
3.05689217226E+05	-1.04733186037E+01	7.90815926782E+01	1.39927673442E+01	-1.78412408008E+02	-3.54135606615E+01	-1.56530838912E+02	-5.98553513120E+00	-4.41462582251E-01
3.05910174918E+05	-7.80363857968E+00	1.77367982665E+02	1.43073240642E+01	-1.77784230966E+02	-4.77311680265E+01	-1.27907724010E+01	-5.83785769264E+00	-3.81572467457E-01
3.06131292322E+05	-4.05749491183E+01	3.97066557598E+01	1.39719984052E+01	-1.77388492375E+02	-3.66477933521E+01	1.79449606239E+02	-5.96525204214E+00	-2.01957721140E-01
3.06352569554E+05	-2.77581545854E+01	-3.02057528617E+01	1.39469170188E+01	-1.77001775195E+02	-3.21294650227E+01	-6.76165940573E+01	-5.81222581652E+00	-1.03054087854E+00
3.06574006730E+05	-1.69584151892E+01	-3.89713637005E+01	1.39924917922E+01	-1.76860546524E+02	-3.35998092159E+01	4.54387690349E+01	-5.77262486894E+00	3.22595131197E-01
3.06795603964E+05	-1.73085455832E+01	3.81820107844E+01	1.39245551510E+01	-1.77657164298E+02	-3.69061375299E+01	1.53027089602E+02	-5.96676342815E+00	-1.56108038395E-02
3.07017361372E+05	-2.26845931244E+01	-1.59157287314E+01	1.39682880366E+01	-1.77348404157E+02	-4.10761376034E+01	1.37955239865E+02	-5.89869971891E+00	-1.66293060397E-01
3.07239279071E+05	-2.60627840656E+01	1.78927302652E+02	1.39864494535E+01	-1.77444568787E+02	-4.22322102970E+01	1.13176643011E+02	-5.92320196956E+00	1.57167266551E-01
3.07461357176E+05	-1.59102830487E+01	-1.04164669056E+02	1.40040366224E+01	-1.76294859133E+02	-5.35041906524E+01	-5.76152322454E+01	-5.87520613272E+00	-5.81256609863E-01
3.07683595803E+05	-2.07325810923E+01	7.93268208967E+01	1.40064392635E+01	-1.77523174217E+02	-3.87981940525E+01	5.27448864573E+01	-5.88528781040E+00	2.84366427154E-02
3.07905995068E+05	-1.76152106434E+01	1.29031776709E+02	1.40268582368E+01	-1.77435558948E+02	-5.17268724547E+01	-1.43243553745E+02	-5.91051308921E+00	-3.44431033084E-01
3.08128555087E+05	-2.59101239010E+01	1.13772566209E+02	1.40255025795E+01	-1.77533109723E+02	-3.97532574135E+01	1.71078892896E+02	-5.97097150771E+00	-5.55045636299E-01
3.08351275976E+05	-1.86228347700E+01	-8.42177297790E+01	1.40413957597E+01	-1.76678032873E+02	-4.57241560491E+01	-4.92995956817E+01	-5.89342735085E+00	-7.18904564751E-01
3.08574157853E+05	-1.83869490103E+01	-7.54001111700E+01	1.39678302887E+01	-1.76950757939E+02	-5.05658981830E+01	8.56320056551E+01	-5.88002518393E+00	-2.51168763733E-01
3.08797200832E+05	-2.71841253561E+01	1.36946256134E+02	1.40250330106E+01	-1.77587847970E+02	-3.70246281412E+01	-6.30281923657E+01	-5.82603572709E+00	-8.16193817206E-01
3.09020405031E+05	-4.78362061586E+00	-1.41485509841E+01	1.35896338630E+01	-1.76383934907E+02	-3.71515144008E+01	-3.96383727298E+01	-5.77758166354E+00	-4.70925241185E-01
3.09243770566E+05	-2.24134718535E+01	-9.94238568575E+01	1.40056901820E+01	-1.77216813533E+02	-5.86717255431E+01	-1.78585380120E+02	-5.91255133781E+00	3.57449882504E-02
3.09467297553E+05	-1.85474078911E+01	5.69533381771E+01	1.39188472861E+01	-1.77522126398E+02	-3.55801795678E+01	-1.49710296103E+02	-6.02140231312E+00	-7.02995765513E-01
3.09690986110E+05	-2.75105860590E+01	1.77314358688E+02	1.40376994848E+01	-1.77370073694E+02	-3.21059692830E+01	-2.66828952621E+01	-5.70215475324E+00	-3.18068402824E-01
3.09914836353E+05	-3.00504153803E+01	1.29802378526E+02	1.40096155909E+01	-1.77478124600E+02	-4.42251740384E+01	1.00546436618E+02	-5.89780869110E+00	1.02578304542E-01
3.10138848399E+05	-2.55729698159E+01	1.21054944083E+01	1.40261806503E+01	-1.77375410856E+02	-4.03942145322E+01	-1.67771771351E+02	-5.92231545131E+00	-5.55375941596E-01
3.10363022365E+05	-1.63092677234E+01	5.89019467046E+01	1.39669611732E+01	-1.77634271985E+02	-4.57981685351E+01	1.35699345413E+02	-5.91132625893E+00	-4.39126918821E-01
3.10587358368E+05	-1.96960465169E+01	1.31439386469E+02	1.39883023184E+01	-1.77608019278E+02	-3.86875049150E+01	-1.19032961509E+02	-5.90624864673E+00	-9.47904924082E-01
3.10811856525E+05	-1.42314410540E+01	-5.00613093656E+01	1.39500988920E+01	-1.76786427164E+02	-4.72824318637E+01	-8.50027020505E+01	-5.88475310540E+00	-2.97014355843E-01
3.11036516954E+05	-1.71054183751E+01	-1.04243789642E+02	1.40364332445E+01	-1.76911759663E+02	-3.53716710926E+01	6.64857761465E+01	-5.87729327424E+00	1.38087833810E-01
3.11261339771E+05	-2.47691430187E+01	-8.22385625713E+01	1.40161146816E+01	-1.77179834364E+02	-3.59508378750E+01	-3.02298017300E+01	-5.77202603065E+00	-5.65146104342E-01
3.11486325094E+05	-3.08106026023E+01	8.31240934648E+01	1.40293041165E+01	-1.77343431444E+02	-3.95399915290E+01	1.17134536615E+02	-5.89204887725E+00	1.40536416780E-01
3.11711473040E+05	-2.84491350502E+01	-4.38880959845E+01	1.40157969856E+01	-1.77160842985E+02	-4.00989973324E+01	-3.14419684138E+01	-5.86297404201E+00	-5.82991323196E-01
3.11936783728E+05	-1.62454656488E+01	1.13189678868E+01	1.39101824409E+01	-1.77325528699E+02	-4.33355054134E+01	-3.40295317435E+01	-5.86167468455E+00	-6.37353282610E-01
3.12162257274E+05	-2.43930349849E+01	-1.42304143403E+01	1.39764457344E+01	-1.77652796052E+02	-4.11714920553E+01	-4.28879992586E+01	-5.88099892538E+00	-6.08657166787E-01
3.12387893797E+05	-1.83564124215E+01	3.55108965436E+01	1.39425943586E+01	-1.77738457697E+02	-5.09948328895E+01	6.11573923376E+01	-5.86719586639E+00	-3.59947397584E-01
3.12613693413E+05	-2.22726310914E+01	1.35173048442E+02	1.40162739501E+01	-1.77386715157E+02	-4.08177048906E+01	-8.63771296727E+01	-5.90386462976E+00	-6.60128058969E-01
3.12839656242E+05	-2.04187432533E+01	-1.33776800689E+02	1.40052731321E+01	-1.77176778223E+02	-3.95590962107E+01	-1.03751198185E+02	-5.87731112491E+00	-9.59522314911E-01
3.13065782401E+05	-1.92113831058E+01	4.68337543975E+01	1.39624400744E+01	-1.77555947053E+02	-4.22630931619E+01	5.34317897887E+01	-5.88612279086E+00	-2.63286631668E-01
3.13292072007E+05	-1.79616245259E+01	-5.14628511726E+01	1.39300772319E+01	-1.77090831155E+02	-3.74371913742E+01	7.73870183665E+01	-5.87629077832E+00	3.85340576927E-01
3.13518525180E+05	-3.58245899677E+01	-1.69211353910E+02	1.39892993490E+01	-1.77227970817E+02	-4.11721940898E+01	7.34209535346E+01	-5.89261488525E+00	1.17852093717E-01
3.13745142038E+05	-1.23448431926E+01	-8.83527732796E+01	1.40161127692E+01	-1.76218071507E+02	-4.45992072384E+01	-1.69574921624E+02	-5.88558626475E+00	-3.69231972749E-01
3.13971922698E+05	-3.20132308625E+01	1.15392260916E+02	1.39960905479E+01	-1.77213519031E+02	-4.61705941779E+01	-1.21434023244E+02	-5.92613028312E+00	-3.40311954272E-01
3.14198867279E+05	-1.38816867015E+01	1.48948663320E+02	1.40832844986E+01	-1.77694200998E+02	-4.94363722971E+01	-5.37260496075E+00	-5.83982978873E+00	-5.01302994605E-01
3.14425975900E+05	-2.36873428699E+01	-1.02096999987E+02	1.40359115017E+01	-1.76941091336E+02	-3.14127266632E+01	-3.38666598938E+01	-5.73299491973E+00	-1.20775785807E+00
3.14653248680E+05	-2.03985976680E+01	-1.22234212182E+02	1.40341926647E+01	-1.76891059359E+02	-4.09048512662E+01	-1.27673968317E+02	-5.90650704594E+00	-7.51863638449E-01
3.14880685736E+05	-1.42512781627E+01	6.25090207193E+01	1.39870439321E+01	-1.78071340466E+02	-4.25121743387E+01	1.14017658492E+02	-5.89716102818E+00	2.83895436590E-02
3.15108287188E+05	-2.97471234757E+01	-1.68414083098E+02	1.40356905678E+01	-1.77293214638E+02	-4.76332974499E+01	1.40747657369E+02	-5.88266130073E+00	-2.06442584127E-01
3.15336053154E+05	-1.31854323224E+01	-1.74355059023E+02	1.41942089135E+01	-1.77224188975E+02	-4.68068955122E+01	-1.64434505887E+02	-5.93255831620E+00	-8.80160428872E-02
3.15563983753E+05	-3.53007327406E+01	5.44260435812E+01	1.40006183123E+01	-1.77635671857E+02	-4.16418397893E+01	2.83503002019E+01	-5.85675095674E+00	-1.05248217222E-01
3.15792079105E+05	-1.85204208574E+01	1.31839036223E+02	1.40417162365E+01	-1.77898863493E+02	-3.41769930655E+01	9.50849110041E+01	-5.90557024368E+00	3.74570107826E-01
3.16020339328E+05	-2.46372953265E+01	6.63388974274E+01	1.39440349924E+01	-1.77396145233E+02	-2.42281648037E+01	-5.37899059527E+01	-5.57952409543E+00	-2.78841999398E+00
3.16248764542E+05	-3.46865482843E+01	-1.22225239470E+02	1.40303457742E+01	-1.77163476893E+02	-3.60101719336E+01	1.29334477153E+02	-5.97401558908E+00	-2.10200381837E-01
3.16477354866E+05	-1.86734647360E+01	1.49206887559E+02	1.40800189659E+01	-1.77548318321E+02	-5.09944074564E+01	6.80683312729E+01	-5.86193342966E+00	-5.06087298737E-02
3.16706110419E+05	-1.77081181189E+01	-1.09188951545E+02	1.40116057312E+01	-1.77087008618E+02	-3.80322176035E+01	1.22034273016E+02	-5.93682062667E+00	2.54809595514E-01
3.16935031321E+05	-1.72506314250E+01	4.75729027183E+01	1.39110055509E+01	-1.77448033304E+02	-3.76825757188E+01	-1.53022437451E+02	-5.94807328689E+00	-4.97789345956E-01
3.17164117691E+05	-1.71162082511E+01	-1.74344235632E+02	1.41155542131E+01	-1.77203387048E+02	-3.64598440958E+01	4.60885373865E+01	-5.84257249624E+00	4.35894345097E-02
3.17393369648E+05	-2.20317470917E+01	-4.69085056752E+01	1.39919904305E+01	-1.77324100839E+02	-3.81516416127E+01	-1.92766179730E+01	-5.83145792561E+00	-4.96945679825E-01
3.17622787313E+05	-1.53368548705E+01	-1.03648134749E+02	1.40322918704E+01	-1.76864039103E+02	-2.73165075004E+01	4.70884914202E+01	-5.72151065720E+00	1.34988892064E+00
3.17852370806E+05	-1.92460684430E+01	4.60602149118E+00	1.39512694388E+01	-1.77475879223E+02	-4.37555090833E+01	-6.21196037834E+01	-5.91814543856E+00	-1.92500439042E-01
3.18082120245E+05	-1.89446590929E+01	1.37851428510E+02	1.40769137371E+01	-1.77584241962E+02	-3.83742809605E+01	5.30848122404E+01	-5.86578999065E+00	2.83158088729E-02
3.18312035752E+05	-2.67487902473E+01	1.76320436216E+02	1.40699133966E+01	-1.77469869556E+02	-3.42902887081E+01	6.05768588515E+01	-5.80086691035E+00	9.72131880695E-02
3.18542117445E+05	-1.72154915369E+01	-2.82720783095E+01	1.39181961873E+01	-1.77299393323E+02	-3.18227352597E+01	7.63140562959E+00	-5.72747418233E+00	-3.64351784242E-01
3.18772365446E+05	-1.38879792313E+01	5.81770479175E+01	1.38797973371E+01	-1.78216068552E+02	-3.59194185190E+01	1.12897984054E+02	-5.96177256519E+00	4.64703855264E-01
3.19002779874E+05	-1.78328448713E+01	-7.15209880944E+01	1.39996511756E+01	-1.76793313997E+02	-4.20212936208E+01	5.00735794926E+00	-5.91441559797E+00	-2.85085144652E-01
3.19233360850E+05	-2.40321738525E+01	1.79030821639E+02	1.39804813034E+01	-1.77461581206E+02	-3.35809869540E+01	-5.65574473757E+00	-5.75852028729E+00	8.07238989866E-02
3.19464108494E+05	-1.82617479564E+01	-1.39339000694E+02	1.40524190569E+01	-1.77194234859E+02	-4.73698834185E+01	1.12511603159E+02	-5.84410915338E+00	-3.61289251584E-01
3.19695022927E+05	-2.35843963302E+01	-3.33823992418E+01	1.39471894615E+01	-1.77174391175E+02	-4.56236732141E+01	1.07781460654E+02	-5.89170547790E+00	-4.99235896377E-01
3.19926104268E+05	-1.96310253776E+01	-2.31205132735E+00	1.39603372010E+01	-1.77512081909E+02	-4.23639105515E+01	1.63540875833E+02	-5.93371173663E+00	-2.05442005242E-01
3.20157352640E+05	-2.63825637235E+01	-2.04306186995E+01	1.39633266379E+01	-1.77578439109E+02	-3.73178782458E+01	1.65524371865E+01	-5.78321667408E+00	-1.17242364471E-01
3.20388768162E+05	-2.65865243060E+01	-1.66646980217E-01	1.39729052857E+01	-1.77549594162E+02	-5.63902287486E+01	1.06472673003E+02	-5.88869499322E+00	-4.01871380942E-01
3.20620350955E+05	-1.80747475925E+01	1.43032956358E+02	1.40403581188E+01	-1.77712585110E+02	-3.48083109670E+01	1.37266204620E+02	-5.98754545242E+00	7.44810805817E-02
3.20852101140E+05	-1.56684286686E+01	-7.29491647485E+01	1.39769780129E+01	-1.77103310452E+02	-3.79933475335E+01	-8.54669075985E+01	-5.89637141740E+00	-1.00166029530E+00
3.21084018839E+05	-1.94046391349E+01	1.00688087394E+02	1.40197534559E+01	-1.78208310929E+02	-4.15970606338E+01	1.39240969108E+02	-5.91358320945E+00	-1.96086248453E-01
3.21316104172E+05	-3.06595109118E+01	-3.69158324382E+01	1.40609040653E+01	-1.77488510797E+02	-4.11356479320E+01	1.77028260776E+02	-5.93820033667E+00	-1.79526983237E-03
3.21548357261E+05	-1.75254811323E+01	2.36902394808E+01	1.39141674851E+01	-1.77315302777E+02	-3.85051828399E+01	2.79947774889E+01	-5.85157788856E+00	2.98169189264E-02
3.21780778226E+05	-1.15022570603E+01	1.03370070896E+02	1.40401611316E+01	-1.78700094434E+02	-4.59818571426E+01	1.51907316856E+02	-5.93591996738E+00	-5.26839951409E-01
3.22013367189E+05	-2.76524847206E+01	-1.34055141704E+02	1.40700873098E+01	-1.77474602439E+02	-4.04375159507E+01	5.16413680301E+01	-5.85796646673E+00	1.18971390072E-02
3.22246124272E+05	-2.36407191542E+01	-5.05768422641E+01	1.39486792345E+01	-1.77274737188E+02	-3.43590438375E+01	4.44460839963E+01	-5.85281141731E+00	4.65610135112E-01
3.22479049596E+05	-2.17473549153E+01	1.58767017579E+02	1.40446974713E+01	-1.77613631906E+02	-2.56960549555E+01	-7.21038233949E+01	-5.79712538120E+00	-2.61846699098E+00
3.22712143282E+05	-3.07269905065E+01	6.65893529525E+00	1.39723252293E+01	-1.77471207489E+02	-3.42565185238E+01	1.31475678072E+02	-5.99543283533E+00	2.40245878261E-01
3.22945405453E+05	-2.28111225145E+01	1.40051942053E+02	1.40250783364E+01	-1.77905530870E+02	-4.64293582543E+01	1.07584868078E+02	-5.85428241289E+00	-1.35659463882E-01
3.23178836230E+05	-2.18703073598E+01	-5.04636919188E+01	1.39403117942E+01	-1.77319234155E+02	-4.26224502521E+01	5.75514898994E+01	-5.86142071784E+00	-5.27571579368E-02
3.23412435735E+05	-1.88433210216E+01	-1.34756276063E+02	1.41134058292E+01	-1.77654034887E+02	-4.18282687459E+01	1.36509544749E+02	-5.94231904688E+00	-2.54010091857E-01
3.23646204090E+05	-1.92780591120E+01	-5.85969534007E+01	1.39854706602E+01	-1.77059085811E+02	-4.04933508485E+01	-5.20429141140E+01	-5.83449394305E+00	-8.37662287093E-01
3.23880141417E+05	-2.68787486899E+01	1.66174253560E+02	1.40340578848E+01	-1.77749155469E+02	-3.97719981285E+01	-5.70340310328E+01	-5.87518283947E+00	-6.64033605140E-01
3.24114247838E+05	-1.77692786907E+01	1.26813640145E+02	1.39960902286E+01	-1.78137181285E+02	-3.50627283827E+01	1.06211579744E+02	-5.90867067962E+00	5.12789177430E-01
3.24348523475E+05	-1.98771776057E+01	1.16186838816E+00	1.39199351280E+01	-1.77342745289E+02	-3.78397322198E+01	1.38679812886E+02	-5.89937528375E+00	-9.40263788499E-03
3.24582968451E+05	-2.45972790022E+01	1.77328097456E+02	1.39940211458E+01	-1.77516728421E+02	-3.63342849634E+01	1.19764102459E+01	-5.82590831962E+00	-1.54331526244E-01
3.24817582888E+05	-2.49647342814E+01	-2.51252255576E+01	1.39772403180E+01	-1.77820755089E+02	-3.84817114422E+01	-5.43270511199E+01	-5.83916323763E+00	-3.20971940829E-01
3.25052366909E+05	-2.06767551479E+01	-6.71634019289E+01	1.40017226153E+01	-1.77257801115E+02	-3.73265669390E+01	-7.55649462487E+01	-5.85635228690E+00	-6.02131475974E-01
3.25287320635E+05	-1.48262184274E+01	1.49034854653E+02	1.41560937778E+01	-1.77922718824E+02	-5.13718615020E+01	-6.20979621467E+01	-5.86856520281E+00	-3.90944437579E-01
3.25522444191E+05	-2.35809352045E+01	-2.36582372039E+01	1.39949438898E+01	-1.77598628024E+02	-3.90461467057E+01	3.87212254137E+01	-5.81957377021E+00	-1.55651930032E-01
3.25757737698E+05	-2.13726831119E+01	-5.09479644289E+01	1.39801461816E+01	-1.77592000175E+02	-4.06016283950E+01	5.30361127088E+01	-5.80922511925E+00	3.61877690866E-02
3.25993201280E+05	-2.62643324413E+01	-5.85798457639E+01	1.39819132416E+01	-1.77644201742E+02	-4.10982726497E+01	-1.32036564947E+02	-5.90859616704E+00	-5.24168596128E-01
3.26228835058E+05	-1.95071654358E+01	2.03321475181E+01	1.39368422492E+01	-1.77765175408E+02	-3.86143647275E+01	1.58455330667E+02	-5.90737675598E+00	-2.54380350618E-01
