# Hz S DB R 50
! CMT, M5065, 19127446, 24.2.4/2
! Date: 11/1/2024 4:38:47 PM
! Data: Format (Calibration Info)
! Freq	S11:dB/Ang(F2)	S21:dB/Ang(F2)	S12:dB/Ang(F2)	S22:dB/Ang(F2)
3.00000000000E+05	-1.45744836247E+01	-4.93866189547E+01	1.28746489413E+01	-1.76647627691E+02	-3.80437605166E+01	-9.58855470962E+01	-5.90105781551E+00	-5.36174799252E-01
3.00216845423E+05	-1.57688634900E+01	1.67610905380E+02	1.30488548840E+01	-1.77230143489E+02	-3.51765036859E+01	-1.11785239195E+02	-5.93673272170E+00	-6.82278654586E-01
3.00433847586E+05	-1.66909090407E+01	1.04463926008E+02	1.29374210108E+01	-1.77411367608E+02	-3.56329221112E+01	-1.71536661530E+02	-5.92818697059E+00	-7.06842824622E-01
3.00651006602E+05	-1.57629832301E+01	1.34370917150E+02	1.30227230662E+01	-1.77825296424E+02	-5.03473136455E+01	-1.89926051785E+01	-5.90280125179E+00	-2.87890262252E-01
3.00868322584E+05	-2.66526967550E+01	-1.30411977685E+02	1.29989429287E+01	-1.77310145524E+02	-4.20005415883E+01	-8.30097597660E+01	-5.85444523522E+00	-6.85530695607E-01
3.01085795647E+05	-1.87702744420E+01	2.35909370276E+01	1.29193013007E+01	-1.77338608823E+02	-2.63617198028E+01	-1.39404475771E+02	-6.13169187964E+00	-1.90214477066E+00
3.01303425902E+05	-2.56765666886E+01	-1.18559099948E+02	1.29381988876E+01	-1.76934745041E+02	-6.49101565239E+01	4.79669291915E+01	-5.87922991224E+00	-3.04979902026E-01
3.01521213465E+05	-1.16244510288E+01	-7.84944291865E+01	1.29473943097E+01	-1.75744350823E+02	-5.12199906473E+01	4.65227301836E+01	-5.89590834565E+00	-3.07916919531E-01
3.01739158449E+05	-2.47880952691E+01	1.05506040349E+02	1.29520012250E+01	-1.77287754980E+02	-4.20263919330E+01	-1.00627769041E+02	-5.90120065191E+00	-3.09861149920E-01
3.01957260967E+05	-1.54683977671E+01	1.27438019472E+02	1.30524472293E+01	-1.77859161314E+02	-4.03344971202E+01	-7.51722188288E+01	-5.85319831476E+00	-9.08902058915E-01
3.02175521134E+05	-2.18671084954E+01	-1.67029583650E+02	1.29786300424E+01	-1.76917131929E+02	-3.86176239465E+01	1.60518567360E+02	-5.92779036462E+00	-2.21799831013E-01
3.02393939063E+05	-2.56623177437E+01	-6.06473900368E+01	1.29421596585E+01	-1.76949576030E+02	-3.76439402514E+01	-6.47549116394E+01	-5.85984377629E+00	-6.92004195650E-01
3.02612514869E+05	-1.73560632117E+01	-1.71081212036E+02	1.30038253485E+01	-1.77249942232E+02	-4.23697501976E+01	-9.00917645766E+01	-5.92689362351E+00	-4.39804325531E-01
3.02831248665E+05	-1.57328569124E+01	-1.76918146425E+02	1.30060559426E+01	-1.77004456393E+02	-3.73109082596E+01	-1.56649186248E+02	-5.92862882427E+00	-2.75402623951E-01
3.03050140565E+05	-1.77350003687E+01	1.61193410248E+02	1.29657715008E+01	-1.77488605577E+02	-4.51856587385E+01	-7.08597575611E+01	-5.92647503227E+00	-2.70725373700E-01
3.03269190685E+05	-3.04290653350E+01	-8.53655207982E+01	1.29107176469E+01	-1.77074047675E+02	-3.28467458513E+01	1.17541667507E+02	-5.92484704528E+00	1.98063084602E-01
3.03488399138E+05	-2.08856775012E+01	6.97886206946E+01	1.29241015670E+01	-1.77683141484E+02	-4.60168376546E+01	1.68420473131E+02	-5.88371955185E+00	-4.82702510887E-01
3.03707766039E+05	-2.25852638317E+01	1.17710417559E+01	1.29440551439E+01	-1.77414901146E+02	-3.68042021662E+01	-1.44409978361E+02	-5.93168621857E+00	-7.55949456233E-01
3.03927291503E+05	-2.65833187431E+01	-5.94074186436E+01	1.29219729305E+01	-1.77053930246E+02	-3.88158732409E+01	1.61472342637E+02	-5.91593499719E+00	-9.08237888497E-02
3.04146975643E+05	-1.91170241416E+01	1.72563078262E+02	1.30023651409E+01	-1.77175626002E+02	-2.93261473990E+01	1.42169878045E+01	-5.66265831823E+00	8.40260892996E-02
3.04366818575E+05	-3.86065891668E+01	1.79539139944E+02	1.29438927231E+01	-1.76899157886E+02	-2.72999517708E+01	-8.09826483065E+01	-5.83609744459E+00	-1.90332686371E+00
3.04586820414E+05	-1.86307501463E+01	-9.19279567874E+01	1.29716603096E+01	-1.76820789121E+02	-4.04363344591E+01	-5.97976438645E+01	-5.83936168999E+00	-3.56304263450E-01
3.04806981274E+05	-2.16097928547E+01	-1.12855993785E+02	1.29533535666E+01	-1.76963052073E+02	-4.21114560317E+01	-1.57746379227E+02	-5.92982936386E+00	-4.56220299887E-01
3.05027301270E+05	-1.08702685387E+01	1.56380306541E+02	1.30926838356E+01	-1.77675044943E+02	-4.40226384127E+01	-1.02480225197E+02	-5.83262895537E+00	-5.67083699470E-01
3.05247780517E+05	-1.33784425314E+01	-1.76917819358E+02	1.30409542938E+01	-1.77107988618E+02	-5.39573397945E+01	4.51552751251E+01	-5.87247554152E+00	-1.35899199055E-01
3.05468419131E+05	-1.14355896722E+01	-1.71570102585E+02	1.31356671495E+01	-1.77436058591E+02	-3.74653839770E+01	3.24808011080E+01	-5.83134005391E+00	2.60323487333E-01
3.05689217226E+05	-1.48809329890E+01	-1.59818796565E+02	1.30536503756E+01	-1.77095329048E+02	-3.38125128528E+01	1.23377394980E+02	-5.91461511001E+00	9.80296932514E-02
3.05910174918E+05	-2.23196406897E+01	-3.71044455006E+01	1.29630007972E+01	-1.77169931391E+02	-3.33076722349E+01	-1.16998914350E+02	-5.95115140036E+00	-1.05481593017E+00
3.06131292322E+05	-1.59357441247E+01	5.34214988510E+01	1.28238061432E+01	-1.77913036090E+02	-4.66612650420E+01	1.77504770251E+02	-5.89604357035E+00	-2.95277153415E-01
3.06352569554E+05	-1.46343899083E+01	1.32698984000E+02	1.30316915330E+01	-1.77843736066E+02	-4.27693346770E+01	-4.67401542240E+01	-5.88343362796E+00	-3.15666031253E-01
3.06574006730E+05	-1.99695890602E+01	-1.49489239639E+01	1.28914144423E+01	-1.77368727758E+02	-4.33319246261E+01	-1.22861268820E+02	-5.88073600179E+00	-2.86697969657E-01
3.06795603964E+05	-1.85431558719E+01	-1.12594278829E+02	1.29964416518E+01	-1.76898950763E+02	-3.65554573961E+01	8.67532838464E+01	-5.89459866259E+00	3.11884206271E-02
3.07017361372E+05	-2.38392764195E+01	1.30530837798E+02	1.29915816598E+01	-1.77383819820E+02	-3.62630650543E+01	-1.75885295719E+02	-5.98268824378E+00	-3.37873248391E-01
3.07239279071E+05	-2.12075248776E+01	9.81194228158E+01	1.29750636462E+01	-1.77641507382E+02	-3.37552714539E+01	-2.05482249842E+01	-5.76668972979E+00	-4.91222611317E-01
3.07461357176E+05	-2.14874401695E+01	-9.89742539989E+00	1.29475116992E+01	-1.77757820495E+02	-3.68371989041E+01	-7.52370447473E+01	-5.88417335423E+00	-7.19765148413E-01
3.07683595803E+05	-2.02285487047E+01	-6.93168744434E+01	1.29319684563E+01	-1.77199971564E+02	-4.80370674021E+01	-1.05959238439E+02	-5.93844038128E+00	-2.78849394133E-01
3.07905995068E+05	-1.39854231638E+01	6.77599365998E+01	1.29080838942E+01	-1.78107895568E+02	-4.45427423153E+01	-6.09539644090E+01	-5.87199608972E+00	-1.24112794237E-01
3.08128555087E+05	-2.61459798971E+01	-1.13437098139E+02	1.29854010263E+01	-1.77289682321E+02	-3.76553601423E+01	1.38780893859E+02	-5.94629707857E+00	2.85664872100E-02
3.08351275976E+05	-2.36326729976E+01	6.25676347769E+01	1.29468295341E+01	-1.77811736869E+02	-3.61292602373E+01	1.46404563524E+02	-5.97387188541E+00	-2.10306096912E-01
3.08574157853E+05	-1.65630047094E+01	-1.53590413448E+02	1.29496853229E+01	-1.77231579279E+02	-3.81886532055E+01	-1.44875543915E+02	-5.94971170645E+00	-3.29750371270E-01
3.08797200832E+05	-1.77356980583E+01	4.31976654199E+01	1.28954714250E+01	-1.77732780362E+02	-5.86980841780E+01	-7.11980998167E+01	-5.94640104772E+00	-6.46470661196E-01
3.09020405031E+05	-1.66680557661E+01	5.00427537147E+01	1.28949469879E+01	-1.77852752867E+02	-2.69063300431E+01	-6.68658649551E+01	-5.75791415435E+00	-1.94063031508E+00
3.09243770566E+05	-1.54723113533E+01	-1.77282057754E+02	1.30309011572E+01	-1.77580175901E+02	-3.75221402651E+01	1.33363958609E+02	-5.91475586340E+00	6.75700879497E-02
3.09467297553E+05	-1.23887703348E+01	1.05144556025E+02	1.30405677838E+01	-1.78511763419E+02	-3.38525306278E+01	-6.62434713894E-01	-5.78590699507E+00	-1.27433656153E-01
3.09690986110E+05	-1.97686899807E+01	1.79158130116E+02	1.29984929103E+01	-1.77461137479E+02	-4.53762256386E+01	-1.37124411074E+02	-5.90159791905E+00	-5.52964656364E-01
3.09914836353E+05	-2.07861176058E+01	-1.91765305098E+00	1.28996161521E+01	-1.77148934359E+02	-4.78696296999E+01	8.35848328758E+01	-5.87697725009E+00	-2.18335785732E-01
3.10138848399E+05	-2.37377981225E+01	9.27017148124E+01	1.29554444209E+01	-1.77541198894E+02	-3.69272641336E+01	2.20185821997E+01	-5.85192026364E+00	6.62339525806E-02
3.10363022365E+05	-1.64157081309E+01	1.71041000513E+02	1.30576702638E+01	-1.77562877923E+02	-3.41906831414E+01	-1.10553972225E+02	-5.92536769393E+00	-1.14238767305E+00
3.10587358368E+05	-1.97101027919E+01	-1.24859990166E+02	1.29627655393E+01	-1.77524272567E+02	-5.08289108826E+01	-1.08668259277E+02	-5.95113105279E+00	-1.57472601325E-01
3.10811856525E+05	-2.08598145093E+01	1.10878608407E+02	1.29697921097E+01	-1.77753219320E+02	-3.92293911263E+01	4.27606414514E+01	-5.83980270885E+00	3.24327518735E-01
3.11036516954E+05	-1.35453300994E+01	1.79968198150E+02	1.31109302644E+01	-1.77505083280E+02	-3.99280053291E+01	-6.05246944927E+01	-5.89340174088E+00	-5.79334978735E-01
3.11261339771E+05	-2.54622676845E+01	1.70434912184E+02	1.29619789535E+01	-1.77279059601E+02	-4.16974063147E+01	1.52711957419E+02	-5.92103660055E+00	-5.35293937264E-01
3.11486325094E+05	-2.05372824394E+01	-8.64439544742E+01	1.29687941679E+01	-1.76840344268E+02	-4.30664930715E+01	-4.00357283049E+01	-5.85155132402E+00	-6.13263861413E-01
3.11711473040E+05	-1.72187113870E+01	-1.25692047040E+01	1.29145938860E+01	-1.77461776462E+02	-4.96103448906E+01	-9.92892032267E+01	-5.90253407556E+00	-5.93733377156E-01
3.11936783728E+05	-2.21305103444E+01	-1.04645575068E+02	1.29877093932E+01	-1.77017485073E+02	-3.57685786271E+01	7.08892718037E+01	-5.88612572325E+00	3.53378580401E-01
3.12162257274E+05	-1.58978259290E+01	1.68028409395E+02	1.31146255880E+01	-1.77736208551E+02	-2.66061433611E+01	-1.23975019278E+02	-6.03600679844E+00	-1.99898553960E+00
3.12387893797E+05	-1.98725402501E+01	-1.63926420279E+02	1.30035145709E+01	-1.77308914472E+02	-3.72407132834E+01	-1.09577493683E+02	-5.88018037710E+00	-6.47750881491E-01
3.12613693413E+05	-2.02973659877E+01	-4.03989810786E+01	1.28812155024E+01	-1.77113439859E+02	-4.75177388736E+01	-9.70208011121E+01	-5.90631757830E+00	-3.50193615872E-01
3.12839656242E+05	-1.73238875803E+01	-1.50905893593E+02	1.30168249107E+01	-1.77168101993E+02	-3.94673584315E+01	5.17133060801E+00	-5.79869535468E+00	-2.22858589766E-01
3.13065782401E+05	-1.49338346598E+01	-7.91174354780E+01	1.29428630151E+01	-1.76801923599E+02	-3.82391269524E+01	-1.73567954671E+02	-5.97742905055E+00	-2.74221719578E-01
3.13292072007E+05	-2.66418260209E+01	-1.23712619711E+02	1.29485672191E+01	-1.77272250430E+02	-3.52681556188E+01	3.50936697571E+01	-5.77991242588E+00	1.24329001400E-02
3.13518525180E+05	-1.76972750423E+01	-3.59619375356E+00	1.28779939022E+01	-1.77569865379E+02	-5.83802851242E+01	-1.29366258367E+01	-5.85927324387E+00	-2.73265185495E-01
3.13745142038E+05	-2.86111618455E+01	1.11483102918E+02	1.29461904372E+01	-1.77569720579E+02	-3.41697929708E+01	-2.88925901386E+00	-5.72607394017E+00	-3.45768483710E-01
3.13971922698E+05	-2.32145739221E+01	8.59697218901E+01	1.29369171703E+01	-1.77650507969E+02	-3.50762509311E+01	-9.23864601723E+01	-5.89050763607E+00	-7.77292237526E-01
3.14198867279E+05	-1.02208982125E+01	1.37837870575E+02	1.30836733000E+01	-1.78609219471E+02	-5.19819776407E+01	1.62864350092E+02	-5.89452135470E+00	-9.99626758771E-02
3.14425975900E+05	-1.42032121317E+01	-8.72279114714E+01	1.29632446039E+01	-1.76741581522E+02	-3.26519616775E+01	-9.33387815909E+01	-5.87995579095E+00	-1.19335089993E+00
3.14653248680E+05	-1.89410095643E+01	-1.66225331457E+02	1.29545513976E+01	-1.77342294765E+02	-3.74812959966E+01	1.21885209496E+00	-5.84575253294E+00	-2.22020273176E-01
3.14880685736E+05	-1.62024216946E+01	2.47387954156E+01	1.28912321783E+01	-1.77522405978E+02	-4.63122511157E+01	-4.77791987502E+01	-5.85460473452E+00	-5.56201715829E-01
3.15108287188E+05	-2.58765053509E+01	-1.20219821453E+02	1.29828483337E+01	-1.77487875974E+02	-3.84142962897E+01	-7.12193056327E+01	-5.87891305709E+00	-1.25881644603E+00
3.15336053154E+05	-1.96348557456E+01	-1.72289744190E+02	1.30021760188E+01	-1.77439582929E+02	-3.50142374495E+01	-7.89020199571E+01	-5.84053411445E+00	-1.04756566895E+00
3.15563983753E+05	-1.77785891142E+01	1.73704353027E+02	1.30231607611E+01	-1.77790300153E+02	-4.34987050546E+01	-2.93719195615E+01	-5.84367249503E+00	-5.28105950842E-01
3.15792079105E+05	-1.13165888805E+01	-1.44567948421E+02	1.31143092957E+01	-1.76560247940E+02	-4.75291353348E+01	1.50221107127E+02	-5.92234371879E+00	-2.08189241262E-01
3.16020339328E+05	-1.88178974865E+01	-1.27620364226E+02	1.29812619765E+01	-1.77130059802E+02	-3.99810131471E+01	-5.28256489223E+01	-5.87459561820E+00	-4.75894867299E-01
3.16248764542E+05	-2.60157806451E+01	1.17833032904E+02	1.29454354749E+01	-1.77437269544E+02	-3.69098656137E+01	1.61536720950E+02	-5.94244514331E+00	-8.32019187660E-02
3.16477354866E+05	-1.75372634379E+01	4.69227512471E+01	1.29438121920E+01	-1.78087773304E+02	-3.95459543284E+01	-4.18682072021E+01	-5.83284688362E+00	-2.95151640252E-01
3.16706110419E+05	-1.79255156300E+01	-4.83138799434E+01	1.29351896430E+01	-1.77430258726E+02	-5.83838955706E+01	1.55627383975E+02	-5.90360246122E+00	-2.47911727323E-01
3.16935031321E+05	-4.45839694811E+01	5.15303347534E+01	1.29578008248E+01	-1.77474342809E+02	-3.30929804177E+01	-1.07870986512E+02	-5.88781447234E+00	-1.63334299006E+00
3.17164117691E+05	-1.94181751512E+01	1.26960309487E+02	1.30296850008E+01	-1.77473069061E+02	-3.84703612863E+01	-1.48645789608E+02	-5.94275186183E+00	-2.49621504069E-01
3.17393369648E+05	-1.48517571083E+01	-2.90363211603E+01	1.28764788144E+01	-1.76817105370E+02	-5.06022983175E+01	2.68211697641E+01	-5.85818290441E+00	-7.55518732359E-02
3.17622787313E+05	-1.79155997563E+01	1.31190870019E+02	1.30127798888E+01	-1.78366446765E+02	-3.50839971090E+01	1.10761240506E+02	-5.89980963335E+00	1.48314148796E-01
3.17852370806E+05	-1.47905651932E+01	1.63669256902E+02	1.30215122838E+01	-1.77828772726E+02	-3.39926422719E+01	1.60789461879E+02	-5.98442865440E+00	-3.71987378705E-02
3.18082120245E+05	-2.26542348868E+01	1.03620716951E+02	1.29961902335E+01	-1.77945673382E+02	-4.45936671168E+01	7.82286001426E+01	-5.88182243393E+00	-6.59045006921E-02
3.18312035752E+05	-1.74931476182E+01	-6.07372087766E+01	1.29081389707E+01	-1.77013027210E+02	-3.25522906505E+01	7.63051994061E+00	-5.73645884708E+00	-5.81479196519E-01
3.18542117445E+05	-2.39063377839E+01	1.29903267314E+02	1.30633727834E+01	-1.77881403776E+02	-3.40646992175E+01	1.29812608948E+02	-5.96479200186E+00	7.33882477324E-01
3.18772365446E+05	-1.78027464112E+01	-8.15861041486E+01	1.29723961265E+01	-1.76944944823E+02	-4.01983606253E+01	6.88302272045E+01	-5.86797825762E+00	-1.64325973664E-01
3.19002779874E+05	-1.98108227778E+01	-1.26815065585E+01	1.28783801519E+01	-1.77666924151E+02	-3.81093073927E+01	-1.65336024407E+02	-5.93172515824E+00	-3.68313289590E-01
3.19233360850E+05	-4.93387212305E+01	3.85873358725E+01	1.29450624125E+01	-1.77699524047E+02	-3.65262494360E+01	-9.31142420865E+00	-5.81625782004E+00	-4.17856270254E-01
3.19464108494E+05	-3.17268988237E+01	1.12731672029E+02	1.30203744811E+01	-1.77730755802E+02	-4.26158964960E+01	6.93503073308E+01	-5.85876530283E+00	-1.28312789878E-01
3.19695022927E+05	-2.24507122081E+01	1.13714724476E+02	1.30051468899E+01	-1.77941165439E+02	-5.40861515601E+01	2.32758263329E+01	-5.91082243260E+00	-3.56500770082E-01
3.19926104268E+05	-1.44729686458E+01	1.52573086878E+02	1.30416534192E+01	-1.77854609744E+02	-4.15313140402E+01	-1.62924639797E+02	-5.91584569287E+00	-3.75846322360E-01
3.20157352640E+05	-1.32598454592E+01	6.65659626271E+01	1.28927736482E+01	-1.78540812517E+02	-3.33461790024E+01	-1.77028933483E+02	-6.04053356666E+00	-3.79066006531E-01
3.20388768162E+05	-2.18282850083E+01	-8.45129582963E+01	1.29692949788E+01	-1.77358350765E+02	-3.78156208014E+01	-4.69840731378E+01	-5.85472851654E+00	-7.47506308005E-01
3.20620350955E+05	-1.34947078543E+01	6.50372437028E-01	1.27215721477E+01	-1.77396721716E+02	-3.99912468392E+01	1.38386214649E+02	-5.91587096033E+00	9.67516652452E-02
3.20852101140E+05	-1.90362318920E+01	-5.50412156778E+01	1.29153563951E+01	-1.77273409230E+02	-4.29837754403E+01	1.33763700256E+02	-5.92860727059E+00	-4.30164279350E-01
3.21084018839E+05	-2.12815205314E+01	-1.07632109244E+02	1.29854694400E+01	-1.77312745147E+02	-4.66799617927E+01	-1.17301521253E+02	-5.87414316068E+00	-6.00392163401E-01
3.21316104172E+05	-3.24479503288E+01	-2.07963927740E+01	1.29306867358E+01	-1.77510005814E+02	-3.81152047333E+01	-8.17147726123E+01	-5.89358512267E+00	-6.42515088674E-01
3.21548357261E+05	-2.70633016223E+01	1.24820823197E+02	1.30293073881E+01	-1.77709661552E+02	-4.46731948941E+01	1.56899615111E+02	-5.92462956292E+00	7.90934544220E-02
3.21780778226E+05	-2.22556491142E+01	-7.38661565173E+01	1.29522127723E+01	-1.77749045733E+02	-4.12745514153E+01	1.56452438376E+02	-5.86228658848E+00	-4.13721965414E-02
3.22013367189E+05	-2.37095837631E+01	-4.61960669230E+01	1.29199260641E+01	-1.77514544097E+02	-3.82492134126E+01	5.57248673480E+01	-5.87008140446E+00	1.09318020494E-01
3.22246124272E+05	-1.86724151497E+01	1.62026084927E+02	1.30152028449E+01	-1.77778385371E+02	-4.50438593155E+01	-1.39718915611E+02	-5.90998845460E+00	-4.55152987847E-01
3.22479049596E+05	-2.45057225279E+01	1.20394112718E+02	1.29950629928E+01	-1.78000269536E+02	-4.20980612047E+01	3.55966706613E+01	-5.83986441423E+00	1.66906718204E-01
3.22712143282E+05	-1.93677023021E+01	-1.01136173164E+02	1.29866449354E+01	-1.77020825177E+02	-3.46710802942E+01	-3.97497998660E+01	-5.86942392592E+00	-5.84001133845E-01
3.22945405453E+05	-2.40757675316E+01	-1.03295023623E+02	1.29835530395E+01	-1.77546594507E+02	-4.09682767488E+01	2.63289409602E+01	-5.86919992765E+00	-2.56832746675E-01
3.23178836230E+05	-2.03806995108E+01	1.26368960339E+02	1.30016683221E+01	-1.78012012452E+02	-5.06253923976E+01	-1.48733108838E+02	-5.88092500238E+00	-3.96620884928E-01
3.23412435735E+05	-2.35643230265E+01	-3.60733351918E+01	1.29264363736E+01	-1.77733708743E+02	-3.03895031067E+01	7.35777111709E+01	-5.77649273482E+00	1.06954956863E+00
3.23646204090E+05	-1.63456722216E+01	7.47262716157E+01	1.29749652486E+01	-1.78110755410E+02	-3.76918606841E+01	-8.91359113356E+01	-5.89493398910E+00	-7.71362027734E-01
3.23880141417E+05	-2.77141491989E+01	-5.99392723406E+00	1.29125789761E+01	-1.77721688437E+02	-4.27899027544E+01	1.21032648052E+02	-5.87192059442E+00	-2.31669982230E-01
3.24114247838E+05	-2.04481878018E+01	-6.07799687739E+01	1.28507153145E+01	-1.77282160474E+02	-4.85284410831E+01	1.67799004888E+02	-5.87683103690E+00	-3.05126777794E-01
3.24348523475E+05	-2.54274531221E+01	-1.63786574763E+02	1.29547664792E+01	-1.77668581274E+02	-3.45342416867E+01	1.44344282979E+02	-5.94610036208E+00	-4.89218622523E-02
3.24582968451E+05	-1.76929397965E+01	-1.27875702438E+02	1.30294554520E+01	-1.77352304811E+02	-4.33800277569E+01	1.36726368118E+02	-5.92953140088E+00	-5.41206420834E-01
3.24817582888E+05	-2.00494043720E+01	-7.74630187412E+01	1.29144446710E+01	-1.77224957156E+02	-4.24711718429E+01	-1.38695497141E+02	-5.94146139234E+00	-2.49665440127E-01
3.25052366909E+05	-2.18016989084E+01	1.77019166354E+02	1.30238655594E+01	-1.77869775747E+02	-3.27158534218E+01	1.44109729895E+01	-5.72709361996E+00	-1.50476063749E-01
3.25287320635E+05	-3.07146447951E+01	1.99979531681E+01	1.29437598632E+01	-1.77567948085E+02	-3.43271777151E+01	1.51653941786E+02	-5.94425896680E+00	1.95843130154E-01
3.25522444191E+05	-2.38767456769E+01	3.87684671465E+01	1.29448536099E+01	-1.77926101457E+02	-3.91839158554E+01	-1.41488620470E+02	-5.94772472314E+00	-5.41652138886E-01
3.25757737698E+05	-1.86878656209E+01	1.28027493999E+02	1.30222579160E+01	-1.77800166886E+02	-3.75239519956E+01	1.02288423566E+02	-5.88320588891E+00	-2.02261066641E-01
3.25993201280E+05	-2.21396708195E+01	3.19573754776E+01	1.28743293233E+01	-1.77839943686E+02	-3.86631695468E+01	1.16642277602E+02	-5.86626423446E+00	-1.68186473164E-01
3.26228835058E+05	-2.06194812237E+01	-1.04554131981E+02	1.29655987734E+01	-1.77786878377E+02	-3.58208407335E+01	6.38751753848E+01	-5.85363034654E+00	1.12993352893E-01
