# Hz S DB R 50
! CMT, M5065, 19127446, 24.2.4/2
! Date: 11/1/2024 4:18:07 PM
! Data: Format (Calibration Info)
! Freq	S11:dB/Ang(F2)	S21:dB/Ang(F2)	S12:dB/Ang(F2)	S22:dB/Ang(F2)
3.00000000000E+05	-2.11763595011E+01	-5.85156780700E+01	5.31972729250E+00	-1.76864018680E+02	-3.62415556064E+01	6.88228560624E+01	-5.88269039386E+00	-2.99287038895E-02
3.00216845423E+05	-1.77889916751E+01	-1.63167504389E+02	5.46273573303E+00	-1.77468409775E+02	-3.29011188225E+01	-6.70356662609E+00	-5.81112059099E+00	-4.92914067052E-01
3.00433847586E+05	-2.24506290369E+01	6.96977245504E+01	5.27040141532E+00	-1.78226648438E+02	-3.68069238173E+01	-1.10977015475E+02	-5.87233913766E+00	-5.18424521575E-01
3.00651006602E+05	-2.07000900109E+01	1.46515760774E+02	5.36760566452E+00	-1.78101426034E+02	-4.92258738563E+01	6.32543261628E+01	-5.87893282724E+00	-3.75560239955E-01
3.00868322584E+05	-2.38703717461E+01	3.05323877606E+01	5.33443381573E+00	-1.77915239424E+02	-2.94538758997E+01	1.87010472236E+00	-5.77844393286E+00	-3.04554270451E-01
3.01085795647E+05	-1.36025400380E+01	-1.07019433103E+02	5.44954107471E+00	-1.76773506442E+02	-3.43599841845E+01	-3.22202742422E+01	-5.86919305352E+00	-5.40735237846E-01
3.01303425902E+05	-1.40283858605E+01	1.75498689362E+02	5.53912434393E+00	-1.77526764494E+02	-4.34612906147E+01	-3.60787408702E+01	-5.86092952533E+00	-3.79362462740E-01
3.01521213465E+05	-2.28118649188E+01	1.75511989098E+02	5.42017651594E+00	-1.77340142938E+02	-4.75142264002E+01	-1.36961460095E+02	-5.88168521218E+00	-3.76927568067E-01
3.01739158449E+05	-1.62397865376E+01	-8.72838545344E+01	5.43742280648E+00	-1.77038608118E+02	-4.39697568506E+01	1.42738475114E+02	-5.92036693004E+00	-5.10637777555E-02
3.01957260967E+05	-2.06940867178E+01	3.25125046633E+01	5.37601791930E+00	-1.77508482090E+02	-5.52375584708E+01	1.37563528040E+02	-5.88686580439E+00	-2.90681739016E-01
3.02175521134E+05	-2.15501480272E+01	-9.85707323791E+01	5.35539358587E+00	-1.77448460867E+02	-3.65079021904E+01	-1.18390932385E+02	-5.89327706454E+00	-5.11950466443E-01
3.02393939063E+05	-4.49079365691E+01	-5.25653431988E+01	5.33553164791E+00	-1.77927454900E+02	-3.06925864974E+01	-7.41806546645E+01	-5.85060426900E+00	-6.68815552013E-01
3.02612514869E+05	-2.20844601302E+01	-1.10843160131E+02	5.43071066849E+00	-1.77271428196E+02	-3.45996124943E+01	2.68841353516E+01	-5.82966567571E+00	5.83269429964E-02
3.02831248665E+05	-1.19111960022E+01	-1.62441074598E+02	5.59591552500E+00	-1.77463614848E+02	-4.01454580803E+01	4.74313270247E+01	-5.84026462711E+00	-2.72281166063E-01
3.03050140565E+05	-1.88089239640E+01	-3.22660184446E+01	5.38328547683E+00	-1.77642458457E+02	-4.48549501891E+01	7.07132154722E+01	-5.87166268074E+00	-2.62480121555E-01
3.03269190685E+05	-2.27430736574E+01	3.72584152629E+01	5.30515766832E+00	-1.77746063570E+02	-4.34346760341E+01	-2.55463435595E+00	-5.86265681009E+00	-2.78099101161E-01
3.03488399138E+05	-1.56154564751E+01	5.36132284819E+01	5.25538158543E+00	-1.77879473925E+02	-4.78378730985E+01	-2.80871970306E+01	-5.87117162016E+00	-3.47238343435E-01
3.03707766039E+05	-3.18466018467E+01	-7.50705319072E+01	5.35447366007E+00	-1.77394585152E+02	-3.45424676440E+01	-6.30232283767E+01	-5.85955505608E+00	-4.54923358982E-01
3.03927291503E+05	-1.58433582555E+01	9.12863606949E+01	5.29419974287E+00	-1.78823806232E+02	-3.31457369916E+01	3.23732620463E+01	-5.84821716303E+00	7.56701617993E-02
3.04146975643E+05	-3.15950331654E+01	-1.16849617968E+02	5.26865396367E+00	-1.77087696534E+02	-3.86601775474E+01	-1.44261442750E+02	-5.92331484057E+00	-4.25435137913E-01
3.04366818575E+05	-1.92498278817E+01	8.45314066890E+01	5.29378441463E+00	-1.78363180121E+02	-4.05245788824E+01	1.48261558780E+02	-5.86816443085E+00	-1.57765263533E-01
3.04586820414E+05	-4.16146376913E+01	2.24443699170E+01	5.39604786546E+00	-1.77617339826E+02	-4.13157180544E+01	1.27302060645E+02	-5.89611068726E+00	3.26923769442E-03
3.04806981274E+05	-2.79946094426E+01	-1.77227536211E+02	5.36160058272E+00	-1.77955796630E+02	-4.09899406019E+01	4.95834071683E+01	-5.88180838274E+00	-2.84940429959E-01
3.05027301270E+05	-2.95331058367E+01	-1.54222035806E+02	5.42834931418E+00	-1.77987779930E+02	-3.95374488162E+01	-1.40492438354E+02	-5.91508178406E+00	-5.48603793976E-01
3.05247780517E+05	-4.66676864551E+01	-5.03557853412E+01	5.38315522696E+00	-1.77977810330E+02	-4.04807116829E+01	-6.91611542104E+01	-5.89925397691E+00	-3.85796797590E-01
3.05468419131E+05	-1.90381666991E+01	1.17624339565E+02	5.37464624827E+00	-1.77695963576E+02	-3.98534338463E+01	7.12678146437E+01	-5.92723571883E+00	-1.43522988739E-01
3.05689217226E+05	-1.69274589108E+01	1.54971703450E+02	5.38754546791E+00	-1.77842647314E+02	-2.79210660307E+01	6.85914177865E+01	-5.81661776036E+00	3.88209402017E-01
3.05910174918E+05	-1.78602741226E+01	-1.12497674395E+02	5.43189662607E+00	-1.76783829381E+02	-3.29727120690E+01	-1.60723035136E+02	-5.91210635942E+00	-2.53887861440E-01
3.06131292322E+05	-2.27686731561E+01	6.71991285945E+00	5.30297906089E+00	-1.77636418610E+02	-3.89073521605E+01	-8.91830188928E+01	-5.90912684199E+00	-4.77993690224E-01
3.06352569554E+05	-2.19963742273E+01	-1.32661073740E+02	5.44651140904E+00	-1.77032377818E+02	-3.46148046638E+01	-3.97362891590E+01	-5.85594581157E+00	-2.79032933054E-01
3.06574006730E+05	-1.78905571601E+01	1.93665314678E+01	5.26412966312E+00	-1.77564035056E+02	-3.51161943496E+01	-3.49144282221E+01	-5.86482232605E+00	-3.66373109778E-01
3.06795603964E+05	-1.89766754677E+01	9.98226534226E+01	5.37567319339E+00	-1.78098517146E+02	-4.34121775934E+01	9.92062964185E+01	-5.88730525726E+00	-9.40133573409E-02
3.07017361372E+05	-2.48486569782E+01	-2.88048308622E+01	5.32927172906E+00	-1.77611114026E+02	-3.11094766349E+01	2.75128979395E+01	-5.80751453754E+00	1.37298484476E-01
3.07239279071E+05	-3.14922600312E+01	2.01823179921E+01	5.35834873444E+00	-1.78027322379E+02	-3.82583544993E+01	-4.30498007365E+01	-5.84609550226E+00	-3.31381706921E-01
3.07461357176E+05	-1.16365160224E+01	-1.69235959700E+02	5.57594908460E+00	-1.77952771764E+02	-4.40714355519E+01	1.39709466615E+01	-5.90345912193E+00	-1.26168509970E-01
3.07683595803E+05	-1.60636283042E+01	-1.79128527952E+01	5.22863318784E+00	-1.76887190661E+02	-4.08794286161E+01	-1.68005056225E+02	-5.91667035727E+00	-4.50025831856E-01
3.07905995068E+05	-3.13683242561E+01	1.54166198638E+00	5.34271513667E+00	-1.77916549689E+02	-3.68798689877E+01	1.14372697901E+01	-5.87473028513E+00	5.95649754262E-02
3.08128555087E+05	-2.38754005142E+01	-1.46962061284E+02	5.40627614284E+00	-1.77661233564E+02	-4.16851089211E+01	-1.28400214973E+02	-5.87376408587E+00	-3.35546642358E-01
3.08351275976E+05	-1.84568845726E+01	1.52470247861E+02	5.47557729835E+00	-1.77478025595E+02	-3.68156209071E+01	-9.48490020775E+01	-5.90886270045E+00	-6.27701969738E-01
3.08574157853E+05	-2.60141685326E+01	7.45803271006E+01	5.40413017967E+00	-1.77878195162E+02	-2.54418635298E+01	1.32013839808E+02	-5.99483043204E+00	6.01360522944E-01
3.08797200832E+05	-2.00027558662E+01	1.53789304720E+02	5.40274263689E+00	-1.78360838511E+02	-3.92950045335E+01	-3.34172331416E+01	-5.88245381236E+00	-5.25396779865E-01
3.09020405031E+05	-2.46017305319E+01	-1.68292171644E+01	5.31033919805E+00	-1.77523909790E+02	-4.77271783544E+01	6.81204341690E+01	-5.88938006851E+00	-1.73668045016E-02
3.09243770566E+05	-1.77759803548E+01	-1.62978547067E+02	5.39937303407E+00	-1.77801260663E+02	-3.80474402455E+01	-5.14863652954E+01	-5.89848644956E+00	-2.81603645809E-01
3.09467297553E+05	-2.39402360667E+01	-1.29315565565E+02	5.33290951001E+00	-1.77716622701E+02	-3.61520573370E+01	1.50433454579E+02	-5.96149644393E+00	-2.63018751037E-01
3.09690986110E+05	-1.62617509605E+01	1.46060675755E+02	5.44073288902E+00	-1.77934197608E+02	-3.77936817686E+01	-1.57089499196E+02	-5.91210840066E+00	-1.87641224115E-01
3.09914836353E+05	-1.88142611931E+01	2.07189772711E+01	5.35388040075E+00	-1.77864667787E+02	-3.78291377850E+01	1.06456811200E+02	-5.90155890063E+00	-1.52710417787E-01
3.10138848399E+05	-1.51042545122E+01	2.74107187112E+01	5.24183694173E+00	-1.77412982119E+02	-3.80794880631E+01	8.57838318857E+01	-5.90096928607E+00	-1.94034311394E-01
3.10363022365E+05	-2.01546137823E+01	-4.89336636423E+01	5.30967690835E+00	-1.77084098894E+02	-2.71664059473E+01	1.54424118069E+02	-5.97108047124E+00	2.48882172093E-01
3.10587358368E+05	-1.54042851555E+01	-1.20480623483E+02	5.39071077172E+00	-1.76991775448E+02	-3.50410134647E+01	-1.41551824128E+02	-5.95340807000E+00	-5.04307862344E-01
3.10811856525E+05	-1.85330230151E+01	-1.67456905029E+02	5.38866846214E+00	-1.77738871773E+02	-4.36642048231E+01	-1.72469407620E+02	-5.90051454463E+00	-3.87851882906E-01
3.11036516954E+05	-1.89498572994E+01	-1.21124262517E+02	5.37222803491E+00	-1.77897795898E+02	-3.64239169065E+01	-1.21497878551E+02	-5.90480164014E+00	-5.52484968723E-01
3.11261339771E+05	-2.17214976184E+01	1.05253234298E+02	5.45678901367E+00	-1.77690924675E+02	-3.67987273741E+01	7.17934868173E+01	-5.90794830772E+00	-1.49793057525E-02
3.11486325094E+05	-1.94943909212E+01	1.48430647849E+02	5.39385137892E+00	-1.78323475740E+02	-3.79118097088E+01	-2.71049020241E+01	-5.86239703107E+00	-3.38487727144E-01
3.11711473040E+05	-3.28625605030E+01	-1.54357491816E+02	5.37129813828E+00	-1.78102458415E+02	-3.55018643502E+01	-1.74668014031E+02	-5.91334902921E+00	-2.89853607299E-01
3.11936783728E+05	-2.56870756815E+01	1.46407551382E+02	5.43386362554E+00	-1.78444433239E+02	-3.22454445164E+01	1.69391726553E+02	-5.96725734287E+00	9.23804290784E-02
3.12162257274E+05	-1.34132652938E+01	-1.17935094017E+02	5.53619181643E+00	-1.77264191030E+02	-3.88839776252E+01	-1.08216890064E+02	-5.89889327990E+00	-3.54719506651E-01
3.12387893797E+05	-1.76470987545E+01	-1.49647991758E+02	5.38410064639E+00	-1.77306209494E+02	-3.57723761862E+01	-8.85092766500E+01	-5.90619446249E+00	-5.58091558492E-01
3.12613693413E+05	-2.64062162059E+01	-1.07105919904E+02	5.34866005721E+00	-1.77505190549E+02	-4.34515241179E+01	-8.27504964063E+01	-5.90545963548E+00	-4.91906367418E-01
3.12839656242E+05	-1.99946689705E+01	1.57965963070E+01	5.23819105875E+00	-1.77709600322E+02	-4.23058421831E+01	-2.15695615180E+01	-5.82297003328E+00	-5.13352960164E-01
3.13065782401E+05	-1.59072535014E+01	-8.29519641685E+01	5.37901397887E+00	-1.76916394838E+02	-5.00047180781E+01	-9.22583756172E+01	-5.90749163905E+00	-1.85366246538E-01
3.13292072007E+05	-2.06133427011E+01	9.05062290958E+01	5.41906631021E+00	-1.78248600107E+02	-4.89843502845E+01	-1.21537596636E+02	-5.91470931584E+00	-2.22553682101E-01
3.13518525180E+05	-2.62857927996E+01	1.14701521686E+01	5.35387452528E+00	-1.77928460776E+02	-3.05374683552E+01	-6.13034061082E+01	-5.86604760089E+00	-7.54172117521E-01
3.13745142038E+05	-1.37786606385E+01	-4.90444609103E+01	5.30868433264E+00	-1.77361137754E+02	-5.08149746640E+01	2.50578886992E+01	-5.89101096549E+00	-3.22941576000E-01
3.13971922698E+05	-1.13885215372E+01	-9.71477355089E+01	5.33740147232E+00	-1.76747183816E+02	-4.33299016807E+01	1.31612918928E+02	-5.90808599756E+00	-4.15077085976E-02
3.14198867279E+05	-2.17717326525E+01	-1.51867411138E+02	5.40946450199E+00	-1.77592797098E+02	-3.58272716214E+01	1.35138954495E+02	-5.88441560030E+00	-5.73456611000E-02
3.14425975900E+05	-2.14980973164E+01	1.20818717017E+01	5.35694091638E+00	-1.78377738090E+02	-4.04333592739E+01	-1.63201923811E+02	-5.88755932192E+00	-5.19535468401E-01
3.14653248680E+05	-1.69486566639E+01	-1.52175797531E+02	5.34680115094E+00	-1.77331768892E+02	-5.14609546252E+01	1.36621040267E+02	-5.90061917579E+00	-2.19698202957E-01
3.14880685736E+05	-2.12816611736E+01	1.12885393656E+02	5.36204851645E+00	-1.78249032589E+02	-3.47775360128E+01	-1.31969225078E+02	-5.92158593646E+00	-5.55973611030E-01
3.15108287188E+05	-1.97656070388E+01	-2.67290385734E+01	5.30450859484E+00	-1.77482110741E+02	-3.34694335487E+01	1.66275490596E+02	-5.95800523252E+00	-1.28836447987E-01
3.15336053154E+05	-1.65826438735E+01	-1.13817501683E+02	5.34067457479E+00	-1.77514624308E+02	-4.69314935825E+01	1.46420359886E+01	-5.88690614328E+00	-1.27229055850E-01
3.15563983753E+05	-2.31166885844E+01	5.56794866744E+01	5.26216271422E+00	-1.78207581370E+02	-4.53357459402E+01	2.58100187488E+01	-5.84073315361E+00	-5.49473016359E-01
3.15792079105E+05	-2.35997116158E+01	-1.12025615761E-02	5.29741829787E+00	-1.78186914603E+02	-3.74111533272E+01	-1.08186561433E+01	-5.87878719173E+00	-4.78345369371E-01
3.16020339328E+05	-2.01959676546E+01	9.38571463580E+01	5.39127757934E+00	-1.78269629610E+02	-4.23896141439E+01	-8.90719985442E+01	-5.89187797888E+00	-4.13917068290E-01
3.16248764542E+05	-1.64311487422E+01	1.08691536425E+02	5.41212026560E+00	-1.78198891404E+02	-4.82743402541E+01	-8.08288081888E+01	-5.87885132229E+00	-4.73465381071E-01
3.16477354866E+05	-1.96603820797E+01	-1.45018392291E+02	5.43041154628E+00	-1.77405940523E+02	-5.32020746799E+01	1.66646539368E+02	-5.88532332357E+00	-1.75563589129E-01
3.16706110419E+05	-2.58550295175E+01	9.57108064835E+01	5.38984289317E+00	-1.77957628547E+02	-3.15251750009E+01	-3.70832797757E+01	-5.81051045782E+00	-6.09771439228E-01
3.16935031321E+05	-1.19638222568E+01	-7.01235998313E+01	5.30887125742E+00	-1.76698269641E+02	-3.90796641986E+01	3.51521728280E+01	-5.83067185692E+00	-1.61547284656E-01
3.17164117691E+05	-7.46728627746E+00	-1.16139251731E+02	5.56650124395E+00	-1.75820927864E+02	-4.82930317306E+01	1.62739517322E+02	-5.91691794979E+00	-2.44660528263E-01
3.17393369648E+05	-1.74005910868E+01	-5.01754534241E+01	5.34781393576E+00	-1.76734099095E+02	-4.26398842048E+01	-9.19489913345E+01	-5.92437414515E+00	-3.44772609220E-01
3.17622787313E+05	-1.42546193053E+01	-1.55528021169E+02	5.48047373770E+00	-1.78064749520E+02	-3.86843444807E+01	6.28545031285E+00	-5.85826768481E+00	-2.06227515837E-01
3.17852370806E+05	-2.13952979006E+01	-1.64623286328E+02	5.45502219409E+00	-1.77648259178E+02	-3.90115349235E+01	-9.89759697732E+01	-5.86349780604E+00	-2.31875943268E-01
3.18082120245E+05	-2.57779432994E+01	-5.42646227035E+01	5.34327832392E+00	-1.78122633192E+02	-5.08879437612E+01	1.51766408946E+02	-5.90703995364E+00	-2.09091677541E-01
3.18312035752E+05	-2.15479634649E+01	3.49578753345E+01	5.28284500874E+00	-1.78328297285E+02	-3.86817414194E+01	-1.66056619726E+02	-5.91473687772E+00	-4.58688250251E-01
3.18542117445E+05	-1.75502694159E+01	5.52953286334E+01	5.31280234783E+00	-1.78265460527E+02	-4.72767581910E+01	4.26029723059E+01	-5.88662315987E+00	-2.07707848180E-01
3.18772365446E+05	-1.18204844903E+01	2.71344045734E+01	5.17777346385E+00	-1.78160155766E+02	-4.33093106382E+01	-8.71453903041E+00	-5.90488476109E+00	-2.85600268361E-01
3.19002779874E+05	-2.96873631459E+01	-1.80031591564E+01	5.32166032700E+00	-1.78480346097E+02	-4.00943350689E+01	1.29769268507E+02	-5.92721957589E+00	-2.48902821949E-01
3.19233360850E+05	-2.70472436386E+01	5.20948712485E+01	5.29043428421E+00	-1.77844219976E+02	-3.74774069213E+01	6.61533037820E+00	-5.84878359511E+00	-1.44598629905E-01
3.19464108494E+05	-2.73943049618E+01	-1.40114568413E+01	5.33621571172E+00	-1.78212839094E+02	-3.92518907091E+01	-1.45332656393E+02	-5.91494362793E+00	-1.77445693840E-01
3.19695022927E+05	-2.15291969064E+01	2.40425277284E+01	5.34805245257E+00	-1.78145457156E+02	-3.71537828980E+01	-1.68849830196E+02	-5.90860102735E+00	-4.74548523387E-01
3.19926104268E+05	-2.37855382617E+01	3.56637689481E+01	5.38262352492E+00	-1.78092491469E+02	-2.68259038629E+01	1.41185761445E+02	-6.01465939240E+00	1.16114478295E-01
3.20157352640E+05	-9.32498033794E+00	-7.49680538483E+01	5.34815863623E+00	-1.75949111186E+02	-3.83134584387E+01	8.86531131489E+00	-5.83847938850E+00	-1.50179483683E-01
3.20388768162E+05	-2.13956598936E+01	8.21671537307E+01	5.34979008639E+00	-1.78073174481E+02	-3.84507525423E+01	7.71355803666E+01	-5.88497436282E+00	2.51243150012E-01
3.20620350955E+05	-1.84626659091E+01	-1.74366256848E+02	5.44169067620E+00	-1.77901140378E+02	-3.45016352871E+01	7.48426384045E+01	-5.88802634416E+00	3.94878499538E-01
3.20852101140E+05	-2.03320317264E+01	5.12308205761E+01	5.32030465703E+00	-1.78079972876E+02	-4.80900199201E+01	1.42591459943E+01	-5.87501104819E+00	-1.28786696515E-03
3.21084018839E+05	-2.18267020278E+01	-1.49499989509E+02	5.38727449612E+00	-1.77644189346E+02	-4.28138723547E+01	-1.61714413778E+01	-5.86248288751E+00	-4.15251973514E-01
3.21316104172E+05	-1.96307697136E+01	-1.59677579366E+02	5.40986600980E+00	-1.77911082602E+02	-4.25993517704E+01	-1.37505479142E+02	-5.89188999299E+00	-5.36215835858E-01
3.21548357261E+05	-3.77721818192E+01	-3.33713885062E+01	5.38204362064E+00	-1.77567635038E+02	-4.04311708863E+01	-1.51843213794E+02	-5.87053659132E+00	-6.05026844548E-01
3.21780778226E+05	-1.27674102116E+01	1.67966026667E+02	5.45374234089E+00	-1.78029112386E+02	-4.36523757630E+01	-1.10618823103E+01	-5.89750445914E+00	-1.78057868203E-01
3.22013367189E+05	-7.52629531819E+00	5.04095800607E+01	5.13978191695E+00	1.79755330674E+02	-3.70158463057E+01	-9.42619139948E+00	-5.85022421686E+00	-2.97593892443E-01
3.22246124272E+05	-1.80488531756E+01	-9.72122205592E+01	5.37017318757E+00	-1.77174270777E+02	-4.65908934193E+01	-1.25523492718E+02	-5.90668167561E+00	-1.20474093650E-01
3.22479049596E+05	-2.10674003951E+01	-1.12772767357E+02	5.31218011594E+00	-1.77827431519E+02	-3.61502213100E+01	1.49909527376E+01	-5.88861375959E+00	-1.50451742794E-01
3.22712143282E+05	-1.64734042418E+01	-1.46137343361E+01	5.20156403698E+00	-1.77230913260E+02	-4.49639779224E+01	-1.06891132398E+02	-5.89901282319E+00	-2.74120270850E-01
3.22945405453E+05	-2.11068428258E+01	-1.17189060483E+02	5.43539423503E+00	-1.77339991103E+02	-3.54107312122E+01	5.09907485722E+01	-5.89007837450E+00	-1.09524257260E-01
3.23178836230E+05	-1.76353673282E+01	-7.73529602498E+01	5.31831005207E+00	-1.77228441061E+02	-3.31904438312E+01	-1.60244891575E+02	-5.98380428172E+00	-4.18892197252E-01
3.23412435735E+05	-1.34749573128E+01	8.19677482646E+01	5.39307428954E+00	-1.79066359649E+02	-3.66702205662E+01	-4.07343841483E+01	-5.88296010616E+00	-2.90595586724E-01
3.23646204090E+05	-1.66024800777E+01	-7.06421173271E+01	5.32614070295E+00	-1.77190644800E+02	-5.13111542895E+01	-1.46325008994E+02	-5.93838948880E+00	-1.89881202041E-01
3.23880141417E+05	-1.70576974663E+01	-1.32919507420E+02	5.36623092177E+00	-1.77896749359E+02	-5.22541030162E+01	-1.61701686385E+02	-5.90380037444E+00	-1.91531688188E-02
3.24114247838E+05	-2.82964759062E+01	-4.26381440438E+01	5.29619023390E+00	-1.77562508378E+02	-4.18976932924E+01	-1.84510976973E+01	-5.89020946453E+00	-2.81080671824E-01
3.24348523475E+05	-2.07743669106E+01	8.90226773484E+01	5.41376559252E+00	-1.78314052317E+02	-5.69126879211E+01	-1.35348797911E+02	-5.88888572362E+00	-3.18481854762E-01
3.24582968451E+05	-1.47805877929E+01	9.74560960589E+01	5.39423127405E+00	-1.78307516428E+02	-3.25720866759E+01	8.98760746498E+01	-5.89998769387E+00	-1.00559972128E-02
3.24817582888E+05	-2.11325917522E+01	-1.37405894123E+02	5.38004041417E+00	-1.77767414589E+02	-2.51432833592E+01	2.29834142450E+00	-5.74554966801E+00	-4.36475954564E-01
3.25052366909E+05	-1.85987118965E+01	-1.32303784167E+02	5.35081591139E+00	-1.77320282139E+02	-4.76043653441E+01	-1.55671928771E+02	-5.90074021460E+00	-1.81288309435E-01
3.25287320635E+05	-1.15691556247E+01	8.54760017167E+00	5.15110395306E+00	-1.77769973661E+02	-4.18656650949E+01	-3.84535061424E+01	-5.89128311005E+00	-4.92200629673E-01
3.25522444191E+05	-1.19845208786E+01	4.48330174837E+01	5.34024663919E+00	-1.78317265620E+02	-4.70936206945E+01	-6.37686287548E+01	-5.91144511646E+00	-3.22656493722E-01
3.25757737698E+05	-3.06134335743E+01	-1.70839596672E+02	5.35403651477E+00	-1.77839457049E+02	-3.78874183387E+01	-1.77073457904E+01	-5.88183824790E+00	-4.28538057905E-01
3.25993201280E+05	-2.07810138337E+01	-1.34333006297E+02	5.42800460063E+00	-1.77333502170E+02	-3.83065513358E+01	4.94957284198E+01	-5.86147404009E+00	1.86776402680E-02
3.26228835058E+05	-2.19054225674E+01	1.06840532443E+02	5.38914447902E+00	-1.78223311550E+02	-4.23455261354E+01	-5.39805143775E+01	-5.89299698208E+00	-3.99024620328E-01
