# Hz S DB R 50
! CMT, M5065, 19127446, 24.2.4/2
! Date: 11/1/2024 4:30:12 PM
! Data: Format (Calibration Info)
! Freq	S11:dB/Ang(F2)	S21:dB/Ang(F2)	S12:dB/Ang(F2)	S22:dB/Ang(F2)
3.00000000000E+05	-2.08022878948E+01	8.81691594091E+01	8.95459628274E+00	-1.77816107636E+02	-7.25268745655E+01	-8.13657347710E+01	-5.87864873763E+00	-2.72866040540E-01
3.00216845423E+05	-2.70320583225E+01	1.25675764887E+02	8.89088348308E+00	-1.77623457247E+02	-4.54269717922E+01	-1.19279296921E+02	-5.89148541413E+00	-5.39730749911E-01
3.00433847586E+05	-1.60943575790E+01	-6.30756597396E+01	8.91643254872E+00	-1.76779353969E+02	-3.60132297116E+01	-2.66374397305E+01	-5.84637846639E+00	-4.25869595851E-01
3.00651006602E+05	-2.53925934468E+01	-4.08670685240E+01	8.88553166977E+00	-1.77677868432E+02	-3.76983092360E+01	-1.17571182719E+02	-5.88851712502E+00	-5.94953961249E-01
3.00868322584E+05	-2.14594953181E+01	-1.75198377791E+02	9.00809587575E+00	-1.77919839111E+02	-3.64891286909E+01	2.47776915792E+01	-5.86029997676E+00	2.53484981427E-02
3.01085795647E+05	-1.86770880413E+01	1.83630820466E+01	8.85003376998E+00	-1.77608506742E+02	-4.76301830629E+01	-1.27526064322E+02	-5.90323226786E+00	-3.38200192346E-01
3.01303425902E+05	-1.54289092196E+01	-1.41332632257E+02	8.97919890618E+00	-1.77302412912E+02	-4.24394551421E+01	2.75084611418E+01	-5.87178955018E+00	-4.04951754899E-01
3.01521213465E+05	-2.37850508972E+01	-3.65228661381E+01	8.88719851930E+00	-1.77812861196E+02	-4.45541066795E+01	1.60141327541E+00	-5.83598867579E+00	-2.47906547480E-01
3.01739158449E+05	-2.09633824405E+01	1.73519625098E+02	8.97957838798E+00	-1.77865520257E+02	-4.00391069992E+01	-1.23490108890E+01	-5.84285697317E+00	1.14279338942E-02
3.01957260967E+05	-1.49876923980E+01	2.53776559463E+01	8.79755549366E+00	-1.77531345146E+02	-5.45914251157E+01	1.63053736958E+02	-5.95682594969E+00	-4.44902784500E-01
3.02175521134E+05	-1.66753150046E+01	-8.07273819438E+01	8.94354688085E+00	-1.76941303353E+02	-3.25791295989E+01	-1.22207514926E+02	-5.94886861038E+00	-7.47815533613E-01
3.02393939063E+05	-2.00763584650E+01	2.25371851753E+01	8.84357869717E+00	-1.77297977418E+02	-6.56184353678E+01	1.91117859988E+01	-5.91712182401E+00	3.58980097146E-02
3.02612514869E+05	-2.17707884351E+01	7.02249682723E+01	8.88453328466E+00	-1.77950591903E+02	-4.98988437591E+01	5.11750982109E+01	-5.92568592517E+00	-2.39183676397E-02
3.02831248665E+05	-3.49302326272E+01	7.92684639052E+01	8.90511609330E+00	-1.77609906769E+02	-5.60844559990E+01	-2.80028096264E+01	-5.85457496010E+00	-2.50230126410E-01
3.03050140565E+05	-3.68512818988E+01	-1.75680269743E+02	8.93019949466E+00	-1.77405566428E+02	-3.81268568120E+01	3.50907074012E+01	-5.87163344077E+00	1.29039809986E-02
3.03269190685E+05	-2.54678948246E+01	1.01017039461E+02	8.92241655255E+00	-1.78111655377E+02	-4.27457098215E+01	8.32913580355E+00	-5.87164437164E+00	-9.71485966509E-02
3.03488399138E+05	-1.89880829997E+01	-2.57725026607E+00	8.86425604076E+00	-1.77277740994E+02	-3.71111870688E+01	-8.10691885152E+00	-5.81721819083E+00	-1.53140105074E-01
3.03707766039E+05	-1.62866603468E+01	1.70876625089E+02	8.96770902451E+00	-1.77389568375E+02	-4.19046155574E+01	-2.96286157718E+01	-5.88032699749E+00	-3.89265108869E-01
3.03927291503E+05	-1.35690202575E+01	-1.03535330567E+02	8.94833296335E+00	-1.76846684482E+02	-3.89499002692E+01	-1.13478883403E+02	-5.92832439745E+00	-2.96846043022E-01
3.04146975643E+05	-1.83225347257E+01	5.87163141331E+01	8.83677066324E+00	-1.78099999618E+02	-4.37347591298E+01	7.35376493661E+01	-5.88502086565E+00	-3.55124875108E-01
3.04366818575E+05	-3.16912667509E+01	9.21432013333E+01	8.88285877657E+00	-1.77801734448E+02	-3.76657314529E+01	-2.82006358572E+01	-5.87153057343E+00	-5.31182360609E-01
3.04586820414E+05	-2.12753493852E+01	-6.91003161460E+01	8.94681252003E+00	-1.77220439575E+02	-4.61834022369E+01	-1.37023186857E+02	-5.90147485610E+00	-4.07573192809E-01
3.04806981274E+05	-2.61435860163E+01	1.48129314495E+02	8.95736107864E+00	-1.77619388615E+02	-3.84541392677E+01	1.29279467792E+02	-5.90341559088E+00	-7.19650988603E-02
3.05027301270E+05	-1.30228640961E+01	1.26010489393E+02	8.94044513759E+00	-1.78616507015E+02	-3.50056009540E+01	-2.82950155362E+01	-5.77969012659E+00	-5.93162242800E-01
3.05247780517E+05	-2.38223648927E+01	-1.37993410933E+02	8.91166687332E+00	-1.77744840146E+02	-5.40905828322E+01	1.47999194007E+02	-5.88405016110E+00	-2.95804267256E-01
3.05468419131E+05	-1.78351842992E+01	-1.75545605400E+02	8.94085821650E+00	-1.77905631826E+02	-5.06019317504E+01	-1.26116946143E+02	-5.88346613412E+00	-3.76059184937E-01
3.05689217226E+05	-2.17462224162E+01	6.69833189802E+01	8.86465515034E+00	-1.77774508568E+02	-3.95417407735E+01	-2.41023018137E+01	-5.86837724103E+00	-3.11811501762E-01
3.05910174918E+05	-2.48328629214E+01	9.89066127205E+01	8.94229007522E+00	-1.77672469036E+02	-5.42180290350E+01	1.18082014798E+02	-5.89069341822E+00	-1.00064471464E-01
3.06131292322E+05	-1.87565512231E+01	3.92946559193E+01	8.88785303749E+00	-1.77489189654E+02	-3.90994285875E+01	1.04462866090E+02	-5.91989940486E+00	-1.12375411850E-01
3.06352569554E+05	-2.68897013861E+01	1.71184112718E+02	8.96533656976E+00	-1.77768127060E+02	-4.51808146188E+01	-1.12377903779E+02	-5.89677280327E+00	-3.15719128179E-01
3.06574006730E+05	-1.55255947070E+01	1.32758111442E+02	8.97938979418E+00	-1.78706038174E+02	-3.99573973296E+01	1.13016081339E+01	-5.82544042214E+00	-4.16801658193E-01
3.06795603964E+05	-1.86084771823E+01	4.01823839661E+01	8.88730806210E+00	-1.77919652183E+02	-3.26958457255E+01	7.51107725863E+00	-5.84082277366E+00	-1.52700817733E-01
3.07017361372E+05	-1.93383768421E+01	1.66642415854E+02	9.00654423035E+00	-1.77756580774E+02	-3.37795383455E+01	-4.66908251322E+01	-5.85891911872E+00	-4.12925412030E-01
3.07239279071E+05	-1.28912661493E+01	8.11305019865E+01	8.87362615690E+00	-1.78276281269E+02	-3.93788153203E+01	-7.96274897603E+00	-5.88142934535E+00	-4.58892769727E-01
3.07461357176E+05	-1.77241331074E+01	1.15156903075E+02	8.95252091563E+00	-1.77987937654E+02	-4.35808511393E+01	-1.56887898363E+02	-5.91925351892E+00	-2.50397959245E-01
3.07683595803E+05	-2.31445476879E+01	1.71372770408E+02	8.95852148962E+00	-1.77424875482E+02	-3.36228669909E+01	-7.94745876114E+00	-5.84204462128E+00	-2.28647066605E-01
3.07905995068E+05	-2.25763828619E+01	1.57876614017E+02	8.91695683525E+00	-1.77695288988E+02	-4.71061779288E+01	1.37756677031E+02	-5.89061663094E+00	-4.67818618206E-01
3.08128555087E+05	-2.37402523652E+01	-1.59249460593E+01	8.89308889265E+00	-1.77432315681E+02	-3.24843298749E+01	-1.65206525065E+02	-5.96577940400E+00	-3.13179123267E-01
3.08351275976E+05	-1.05180751638E+01	-9.64419777679E+01	8.97799292759E+00	-1.76293640140E+02	-2.94470373726E+01	1.62737611105E+02	-6.00676437306E+00	-3.13430075236E-02
3.08574157853E+05	-2.30171579914E+01	-1.24037910800E+02	8.98042037586E+00	-1.77116211620E+02	-4.31712984484E+01	8.25659970096E+01	-5.90431655327E+00	-1.64180699344E-01
3.08797200832E+05	-2.42213545940E+01	1.03105719030E+00	8.87113886031E+00	-1.77365936182E+02	-3.68636948237E+01	7.35574342438E+01	-5.91787082361E+00	-7.02478186929E-02
3.09020405031E+05	-2.37196044011E+01	4.18656729413E+01	8.89861787938E+00	-1.77518095338E+02	-3.82636018001E+01	-1.59110320377E+02	-5.89560327130E+00	-3.12793387090E-01
3.09243770566E+05	-2.32636415652E+01	8.21209268901E+01	8.85390729254E+00	-1.77731511739E+02	-3.45316461523E+01	1.22263025929E+02	-5.88558099882E+00	-1.27141851796E-01
3.09467297553E+05	-2.03624979307E+01	-8.02999393822E+01	8.91901630738E+00	-1.77110551996E+02	-3.60432442459E+01	-9.40876139174E+00	-5.80846121973E+00	2.11132842644E-02
3.09690986110E+05	-1.88481680463E+01	2.97147528547E+01	8.83004056792E+00	-1.77305670304E+02	-3.51860396396E+01	8.25434502183E+01	-5.86403135015E+00	1.38321083883E-01
3.09914836353E+05	-1.88885008930E+01	-8.96863631166E+01	8.88468360345E+00	-1.76734190200E+02	-2.82647830776E+01	1.30511680886E+02	-5.98138846154E+00	4.01719850224E-01
3.10138848399E+05	-2.28933612765E+01	-1.72756353394E+02	8.91845707952E+00	-1.77617653058E+02	-3.83870512023E+01	-1.24861292570E+02	-5.89890586293E+00	-4.11055087050E-01
3.10363022365E+05	-2.55865340009E+01	1.11591038744E+02	8.96493845198E+00	-1.78068137677E+02	-4.04249976886E+01	-1.61840605450E+02	-5.89383085896E+00	-3.32511830285E-01
3.10587358368E+05	-3.61896977603E+01	1.03773191227E+02	8.91812978967E+00	-1.78151374022E+02	-4.23405913480E+01	8.49578849268E+01	-5.91972898321E+00	-1.02096503116E-01
3.10811856525E+05	-2.33651182209E+01	1.44043280722E+02	8.93926494840E+00	-1.77696648924E+02	-3.51095717243E+01	-1.69522246346E+02	-5.97679827054E+00	-5.48959542250E-02
3.11036516954E+05	-1.94694431592E+01	6.83553762570E+01	8.87243194532E+00	-1.77886284889E+02	-3.86920129684E+01	-1.13232913869E+02	-5.88452408526E+00	-6.31537168634E-01
3.11261339771E+05	-2.14258163008E+01	6.44064049750E+01	8.86103755633E+00	-1.78165921331E+02	-3.46165886169E+01	-1.66523015578E+01	-5.81040112558E+00	-8.31235348348E-01
3.11486325094E+05	-9.49832083857E+00	-4.68816993079E+01	8.77210798994E+00	-1.76374555107E+02	-3.29649290688E+01	-1.67109038973E+02	-6.00632573921E+00	-2.93573325368E-01
3.11711473040E+05	-1.77136844370E+01	-1.24720703644E+02	8.94170584637E+00	-1.77448179110E+02	-3.72580368374E+01	-6.28901583879E+01	-5.85955827000E+00	-4.16239401663E-01
3.11936783728E+05	-1.95316700889E+01	1.66107315865E+02	8.93839696951E+00	-1.77520833156E+02	-4.54831621805E+01	-1.17050705597E+02	-5.84894933530E+00	-2.79146285648E-01
3.12162257274E+05	-1.95257624711E+01	-8.98624114688E+01	8.86809577570E+00	-1.77691073791E+02	-4.25502844467E+01	1.41198837446E+02	-5.90619461606E+00	-1.27667542269E-02
3.12387893797E+05	-1.76747120194E+01	-7.05308197014E+01	8.89027433709E+00	-1.77203755465E+02	-3.88995888216E+01	-4.17747054567E+01	-5.86220400473E+00	-1.18949719124E-01
3.12613693413E+05	-2.17006110143E+01	8.51844043100E+01	8.92374068773E+00	-1.78336675226E+02	-4.04453619759E+01	1.70417234797E+02	-5.90030762465E+00	-5.82283946649E-02
3.12839656242E+05	-2.27806517234E+01	1.50723395190E+02	8.96203161268E+00	-1.77728141962E+02	-3.85770181497E+01	-5.41141370428E+01	-5.88922875910E+00	-3.16431702857E-01
3.13065782401E+05	-2.30844488455E+01	-2.77423916414E+00	8.80442313590E+00	-1.77729526187E+02	-5.03525923720E+01	-6.95242718919E+01	-5.90753112291E+00	-2.35244663538E-01
3.13292072007E+05	-2.00877386439E+01	-6.07644168071E+01	8.94165829729E+00	-1.77403332048E+02	-4.05287054984E+01	-4.72507059941E+01	-5.86599864134E+00	-3.73419988085E-01
3.13518525180E+05	-2.60197498366E+01	-5.96927945570E+01	8.89335819399E+00	-1.77505098310E+02	-3.99227316773E+01	-4.61353783211E+01	-5.85216213804E+00	-5.79059437089E-01
3.13745142038E+05	-2.14380389314E+01	-1.60645603001E+02	8.97942301771E+00	-1.77969114214E+02	-3.70782446092E+01	-4.17948094497E+01	-5.86134529298E+00	-1.95612904856E-01
3.13971922698E+05	-1.75005174944E+01	-7.36060124512E+01	8.80471874466E+00	-1.77203258166E+02	-3.74051534006E+01	-7.24297878847E+01	-5.89717533808E+00	-4.79368243926E-01
3.14198867279E+05	-2.40953352365E+01	-1.31291292382E+02	8.89697470667E+00	-1.77202524538E+02	-3.85009577456E+01	5.31064819033E+01	-5.90203329489E+00	9.46112837161E-03
3.14425975900E+05	-1.77011143180E+01	9.21203249110E+01	8.86918721947E+00	-1.77908148227E+02	-3.97293978920E+01	-1.42259410844E+02	-5.92216418439E+00	-4.31829334148E-01
3.14653248680E+05	-1.50818001424E+01	-1.75007787371E+02	9.01516136013E+00	-1.77578321823E+02	-3.66274781665E+01	5.73125828001E+01	-5.88558511709E+00	-2.21674982027E-01
3.14880685736E+05	-2.91394293281E+01	-1.65595005515E+02	8.98242968022E+00	-1.77670954563E+02	-3.45181448336E+01	-8.12325733864E+01	-5.87250487078E+00	-4.17503013459E-01
3.15108287188E+05	-2.35713297030E+01	-1.62193715661E+02	8.96549728908E+00	-1.77850460910E+02	-4.31566987966E+01	1.45091360512E+02	-5.87176750577E+00	-1.31158658352E-01
3.15336053154E+05	-2.57474569770E+01	1.92899731138E+01	8.88970242653E+00	-1.77988763908E+02	-3.96853409458E+01	-7.74815158728E+01	-5.85684233838E+00	-6.85120402402E-01
3.15563983753E+05	-1.66849832611E+01	1.31191059539E+02	8.98596087128E+00	-1.77988508851E+02	-3.73511680619E+01	-7.93883223529E+01	-5.87569437283E+00	-1.53214892680E-01
3.15792079105E+05	-3.00961564554E+01	2.34398198742E+01	8.89024816571E+00	-1.77623009172E+02	-5.30330160750E+01	-5.94170296111E+01	-5.88843900044E+00	-2.23058636772E-01
3.16020339328E+05	-1.82922388686E+01	1.59638509566E+02	8.99785363633E+00	-1.78088721390E+02	-2.90827030125E+01	-9.98371455147E+01	-5.89006821739E+00	-1.18645069659E+00
3.16248764542E+05	-7.27133799132E+00	1.11118311871E+02	8.91244253029E+00	-1.79538429523E+02	-4.55868160414E+01	-3.88748918922E+01	-5.86881118781E+00	-1.44029418910E-01
3.16477354866E+05	-1.26499543702E+01	3.48148790738E+00	8.73544897850E+00	-1.78066496071E+02	-4.93353956460E+01	-3.29227760355E+01	-5.84026882488E+00	-4.40575215022E-01
3.16706110419E+05	-2.94706902983E+01	-1.51998218658E+02	8.93870969883E+00	-1.77382867777E+02	-4.94634688072E+01	-1.28119927420E+02	-5.85008155440E+00	-3.40044044725E-01
3.16935031321E+05	-1.54252005553E+01	1.31841617511E+02	8.98118516804E+00	-1.77926020690E+02	-3.52967850647E+01	9.03783280717E+01	-5.91748039151E+00	-9.16183973664E-02
3.17164117691E+05	-2.93264730978E+01	-1.66570548042E+02	8.93922073404E+00	-1.77611512196E+02	-3.61924239665E+01	1.76012224604E+02	-5.89914908636E+00	-2.87117623660E-01
3.17393369648E+05	-2.01838434906E+01	-1.22775558736E+02	8.99497437578E+00	-1.77670986205E+02	-3.64381947342E+01	-1.11540146656E+02	-5.91696503622E+00	-6.02755119594E-01
3.17622787313E+05	-2.25137640097E+01	1.08882061581E+01	8.86993429978E+00	-1.77605926326E+02	-3.29177151513E+01	-5.23093733237E+01	-5.82596487287E+00	-8.74125042514E-01
3.17852370806E+05	-2.04521794295E+01	8.74337835325E+01	8.92048748723E+00	-1.79020583509E+02	-3.01663335619E+01	-1.41365675623E+02	-5.98464242009E+00	-1.05446505829E+00
3.18082120245E+05	-1.41193344352E+01	1.39486177940E+02	8.98397608691E+00	-1.78711486543E+02	-3.95424654561E+01	1.61590090468E+02	-5.89250453026E+00	-1.88198516503E-01
3.18312035752E+05	-1.93710262510E+01	1.72362408287E+02	8.94697284074E+00	-1.78081605343E+02	-3.82978347806E+01	1.01988150940E+02	-5.90701972901E+00	1.30769047605E-01
3.18542117445E+05	-2.95368708383E+01	5.03637935248E+01	8.87129123511E+00	-1.77747929676E+02	-4.17849700002E+01	-1.75055712516E+02	-5.90655450634E+00	-1.76097194944E-01
3.18772365446E+05	-2.08462875505E+01	-1.61262835433E+02	8.93584011113E+00	-1.77884716256E+02	-3.80487996468E+01	1.69839295001E+02	-5.95715462246E+00	-2.63525337594E-01
3.19002779874E+05	-2.53669968302E+01	3.13968333710E+01	8.90838970947E+00	-1.78010557995E+02	-3.53034145382E+01	1.73679341609E+02	-5.95300026891E+00	-8.82774110491E-02
3.19233360850E+05	-2.26980792081E+01	-1.05103397054E+02	8.90088639763E+00	-1.77520778972E+02	-3.75078792312E+01	2.32969927139E+01	-5.82666608088E+00	6.80190438425E-02
3.19464108494E+05	-1.57323100951E+01	7.42054042970E+01	8.85327849483E+00	-1.78720814933E+02	-3.63899433492E+01	1.04181027943E+02	-5.90122435091E+00	6.10811633117E-02
3.19695022927E+05	-2.47662982545E+01	1.76225788029E+02	8.95351056704E+00	-1.78376227613E+02	-3.84349742665E+01	9.64805707153E+00	-5.85530102368E+00	-1.80642567478E-01
3.19926104268E+05	-2.85599400272E+01	1.41811134507E+02	8.84594623655E+00	-1.77890458500E+02	-3.42359320563E+01	1.47560493971E+01	-5.84754021726E+00	-1.75479076505E-01
3.20157352640E+05	-2.19703053721E+01	-4.55422160069E+01	8.89412790549E+00	-1.77676884763E+02	-4.16754172273E+01	-1.65300633390E+02	-5.90346773258E+00	-5.42251087488E-02
3.20388768162E+05	-1.98230729627E+01	1.27152786154E+02	8.94174028334E+00	-1.77900032057E+02	-4.33657946282E+01	-6.52446996788E+01	-5.85677262256E+00	-2.73885594471E-01
3.20620350955E+05	-1.94684420933E+01	9.31950724877E+01	8.89779880986E+00	-1.77852561489E+02	-3.77782492381E+01	-1.79182899392E+02	-5.91516087782E+00	-2.80169796676E-01
3.20852101140E+05	-2.41608930438E+01	-1.54476073833E+02	8.89602193898E+00	-1.77776913192E+02	-4.36278534959E+01	2.09553337383E+01	-5.88202778048E+00	-5.67347573830E-01
3.21084018839E+05	-2.16537223611E+01	9.71292215160E+01	8.84391179222E+00	-1.78304955837E+02	-4.52434048723E+01	1.31884844157E+02	-5.94818951173E+00	-4.85384679017E-01
3.21316104172E+05	-2.02190744924E+01	1.24732167873E+02	8.84812275938E+00	-1.78371466389E+02	-3.84905355057E+01	1.20783881707E+02	-5.93720862618E+00	5.57142984794E-02
3.21548357261E+05	-1.87981930451E+01	-1.73260528700E+02	8.96865714084E+00	-1.77735514553E+02	-3.61643355480E+01	-1.60358068826E+02	-5.99554277088E+00	-2.10456821795E-01
3.21780778226E+05	-1.61141648919E+01	1.46812223547E+02	9.00424794380E+00	-1.78188500829E+02	-3.81918786198E+01	1.64643733555E+02	-5.92060597188E+00	-3.98425855063E-01
3.22013367189E+05	-2.08109928412E+01	-2.71111388595E+01	8.81293659152E+00	-1.78125229082E+02	-3.96051691897E+01	-1.57644042872E+02	-5.94421551335E+00	-3.10241722723E-01
3.22246124272E+05	-1.80056334652E+01	-8.11979123258E+01	8.83598232708E+00	-1.77619478773E+02	-4.20363536435E+01	4.30165384153E+01	-5.86764128953E+00	-1.07646037656E-01
3.22479049596E+05	-2.06689566182E+01	6.50685370626E+01	8.86862685673E+00	-1.77871227034E+02	-3.73708842553E+01	-4.10843504496E+01	-5.85593384552E+00	-3.82797774709E-01
3.22712143282E+05	-1.14469011506E+01	-5.32095894303E+01	8.80240970241E+00	-1.76576491117E+02	-3.88021902720E+01	-8.29955185908E+01	-5.90587578887E+00	-6.04766860347E-01
3.22945405453E+05	-2.14380983086E+01	-7.47817247099E+01	8.94372522881E+00	-1.77500276632E+02	-5.51774561079E+01	-9.44108802643E+01	-5.86901867823E+00	-2.01596703719E-01
3.23178836230E+05	-2.13040923823E+01	1.25917646326E+02	8.83221261849E+00	-1.77986976482E+02	-4.29321641576E+01	7.31289912474E+01	-5.91289969197E+00	-8.13665308444E-02
3.23412435735E+05	-2.13413265068E+01	5.43092721434E+01	8.94206377576E+00	-1.77835724138E+02	-4.95525477876E+01	1.35252076053E+02	-5.88415285715E+00	-3.69975537812E-01
3.23646204090E+05	-1.47724550852E+01	-6.66006713877E+01	8.87510496138E+00	-1.76968404985E+02	-3.58352166394E+01	1.40367965983E+02	-5.93257124417E+00	-2.21829896094E-02
3.23880141417E+05	-2.82200304492E+01	-4.67466206404E+00	8.88732315375E+00	-1.77862578620E+02	-3.77818491286E+01	6.78775191729E+01	-5.86717381539E+00	-1.17868986110E-01
3.24114247838E+05	-2.05852407246E+01	1.24931679093E+02	8.96886679407E+00	-1.78228048526E+02	-4.19459833921E+01	1.61278898237E+02	-5.94708046494E+00	-9.98846312371E-02
3.24348523475E+05	-1.86022517759E+01	2.16320234488E+00	8.84201651804E+00	-1.77763616267E+02	-4.29115178272E+01	3.07480252391E+01	-5.82634072815E+00	-1.54426999911E-01
3.24582968451E+05	-1.78519637148E+01	-7.98780186353E+00	8.83246300789E+00	-1.78043416303E+02	-4.74915963875E+01	1.42703408245E+02	-5.89450469686E+00	-1.14160311663E-01
3.24817582888E+05	-2.09262442935E+01	-5.94782596446E+01	8.90772553187E+00	-1.77376978654E+02	-4.64931153587E+01	-7.45450972588E+01	-5.91294513729E+00	-1.98987756490E-01
3.25052366909E+05	-2.20346750696E+01	-1.16440129319E+02	8.89250469257E+00	-1.77762545824E+02	-4.46356779499E+01	-1.01333414169E+02	-5.88459567891E+00	-4.41887493688E-01
3.25287320635E+05	-1.95360489828E+01	8.42375510922E+01	8.90953109943E+00	-1.78600866947E+02	-3.93486741099E+01	6.28888021763E+01	-5.85322481505E+00	5.98666882095E-02
3.25522444191E+05	-2.68827653164E+01	-1.47392243136E+02	8.89172738612E+00	-1.77899525318E+02	-3.61788345979E+01	-1.60962408996E+02	-5.92613725541E+00	-1.81376773779E-01
3.25757737698E+05	-1.84242009606E+01	-1.32018406795E+02	8.93402033687E+00	-1.77490579699E+02	-4.59192018726E+01	8.01382236557E+01	-5.89472387661E+00	-9.71513641723E-02
3.25993201280E+05	-1.92346073484E+01	1.50823128292E+02	8.95466256057E+00	-1.78030212142E+02	-3.80875824839E+01	9.47965649099E+01	-5.83928725488E+00	-3.31032901666E-02
3.26228835058E+05	-2.00121131806E+01	1.54266703846E+01	8.85695315040E+00	-1.78394022595E+02	-3.80231225170E+01	1.49446553558E+02	-5.94112916795E+00	-3.99085797881E-01
