# Hz S DB R 50
! CMT, M5065, 19127446, 24.2.4/2
! Date: 11/1/2024 4:35:36 PM
! Data: Format (Calibration Info)
! Freq	S11:dB/Ang(F2)	S21:dB/Ang(F2)	S12:dB/Ang(F2)	S22:dB/Ang(F2)
3.00000000000E+05	-3.24441785790E+01	1.47516982467E+02	1.12173522142E+01	-1.77192891089E+02	-5.03804879344E+01	1.62822436442E+02	-5.83589295590E+00	-1.61611121683E-01
3.00216845423E+05	-2.24435434327E+01	-1.58729149507E+02	1.12286714678E+01	-1.77643998549E+02	-3.28235052552E+01	-9.61421370470E+01	-5.88971633037E+00	-8.11625302236E-01
3.00433847586E+05	-1.47596708151E+01	1.27198091452E+02	1.12674230703E+01	-1.77802967458E+02	-3.83224155239E+01	8.07374446307E+01	-5.83723468214E+00	1.04812713934E-02
3.00651006602E+05	-1.99239736746E+01	1.36757814460E+02	1.12653944637E+01	-1.77362875663E+02	-3.76410964986E+01	1.13944341990E+02	-5.91723791837E+00	2.13072938528E-01
3.00868322584E+05	-1.56142691624E+01	-1.39260294603E+01	1.11039281728E+01	-1.77063430899E+02	-4.76071546452E+01	-8.37189797845E+01	-5.85186498978E+00	-2.42304480957E-01
3.01085795647E+05	-1.75161804956E+01	1.15950495319E+02	1.12837256362E+01	-1.77977868500E+02	-6.66683710155E+01	-3.13579623080E+01	-5.87535014970E+00	-4.78220382094E-01
3.01303425902E+05	-2.82630680672E+01	7.54255046816E+01	1.12047425651E+01	-1.78092984712E+02	-2.87215918068E+01	-1.24250261242E+02	-5.97198996364E+00	-1.44090706703E+00
3.01521213465E+05	-2.34432233476E+01	-1.68935834046E+02	1.13027636562E+01	-1.77481298626E+02	-4.02874312930E+01	3.65614180177E+01	-5.87591784079E+00	-4.31295178919E-02
3.01739158449E+05	-1.61901578710E+01	4.58114893602E+01	1.11715967305E+01	-1.77931993380E+02	-4.31779968250E+01	1.60008574852E+02	-5.89154228967E+00	-4.73979611653E-01
3.01957260967E+05	-2.44119257272E+01	1.69857295243E+02	1.12563121176E+01	-1.77516900725E+02	-4.24280680592E+01	-5.67769905952E+01	-5.83797771294E+00	-5.93562686819E-01
3.02175521134E+05	-1.83101715511E+01	-5.65797690178E+01	1.11942936852E+01	-1.76960778579E+02	-3.96750831046E+01	-1.47686743575E+02	-5.89772799466E+00	-5.57110528478E-01
3.02393939063E+05	-1.21290953087E+01	-3.08381518062E+01	1.10870382048E+01	-1.76579925434E+02	-4.06833392709E+01	-2.70289808873E+01	-5.86966666109E+00	-5.86025982495E-01
3.02612514869E+05	-1.86106361846E+01	1.60425141819E+02	1.13292308277E+01	-1.77686187113E+02	-4.80514442227E+01	-5.60961428305E+00	-5.88648354411E+00	-5.91452635114E-01
3.02831248665E+05	-2.45958897643E+01	-1.18110750377E+02	1.12575545291E+01	-1.77350951036E+02	-3.23655732629E+01	-1.66022586323E+02	-6.00519063306E+00	-4.66125692734E-01
3.03050140565E+05	-1.59428569679E+01	8.85934943198E+01	1.12096588420E+01	-1.78030445264E+02	-3.66577117343E+01	-1.32550374552E+02	-5.91032207704E+00	-5.93300661946E-01
3.03269190685E+05	-2.03215286037E+01	1.11774816729E+02	1.12642090503E+01	-1.77699401388E+02	-4.95402545403E+01	1.62431292649E+02	-5.89791541886E+00	-5.04415664789E-01
3.03488399138E+05	-1.82208428149E+01	-9.09413286183E+01	1.11936527070E+01	-1.76893801994E+02	-4.22157243366E+01	1.45662000844E+02	-5.89070902211E+00	-2.60797080742E-02
3.03707766039E+05	-1.81617121022E+01	-2.16114321143E+01	1.11644350296E+01	-1.77359879737E+02	-5.45090589910E+01	-4.62408130716E+01	-5.87581511936E+00	-3.36262211474E-01
3.03927291503E+05	-2.08950658309E+01	-1.16027957528E+01	1.11157381096E+01	-1.77104166275E+02	-3.94910701165E+01	1.27352116743E+02	-5.91004652670E+00	-1.38496076591E-01
3.04146975643E+05	-2.03732119433E+01	-1.58886396855E+02	1.12238396814E+01	-1.77370182454E+02	-4.12457062278E+01	1.03478398161E+01	-5.86463008302E+00	-4.91818492264E-01
3.04366818575E+05	-1.73849068603E+01	1.28128282598E+02	1.13054065583E+01	-1.77834983814E+02	-3.26916775435E+01	4.82360276140E+00	-5.75700763862E+00	-4.81110643114E-01
3.04586820414E+05	-2.62371376733E+01	-1.01958515484E+02	1.12299093320E+01	-1.77461585668E+02	-4.59509158582E+01	1.34677287124E+02	-5.89519845341E+00	6.59964997861E-02
3.04806981274E+05	-3.13960448307E+01	-9.97300636362E+01	1.12549042708E+01	-1.77102403543E+02	-3.96953571028E+01	1.36388598846E+02	-5.92129319040E+00	-2.76275003926E-01
3.05027301270E+05	-2.39822350063E+01	-3.15334796326E+01	1.11568668679E+01	-1.77437929767E+02	-3.83689948454E+01	-1.93172973540E+01	-5.84928446707E+00	-5.44104156684E-01
3.05247780517E+05	-2.25652425742E+01	1.68129791756E+01	1.11962469184E+01	-1.77572217993E+02	-3.77058828174E+01	-1.32297836977E+02	-5.88744211939E+00	-6.51533613016E-01
3.05468419131E+05	-2.02294080809E+01	-1.55476465930E+02	1.12252072825E+01	-1.77346417376E+02	-3.65158137393E+01	1.37725821795E+02	-5.94894640569E+00	-1.89189319613E-01
3.05689217226E+05	-1.16180887317E+01	1.14997705081E+02	1.13549131840E+01	-1.78291997036E+02	-3.66295164045E+01	1.06285279669E+02	-5.91448781220E+00	-1.73835493955E-02
3.05910174918E+05	-2.64186542739E+01	1.51588845598E+02	1.12402180882E+01	-1.77868906373E+02	-4.25932313128E+01	-3.46385506522E+01	-5.87456966499E+00	-7.13398508955E-01
3.06131292322E+05	-1.49118043862E+01	-1.10106395034E+02	1.12986895007E+01	-1.76987831947E+02	-3.64141271125E+01	-3.91345336643E+01	-5.84215541086E+00	-5.02166904556E-01
3.06352569554E+05	-1.37180769477E+01	-7.87933522560E+01	1.12011234619E+01	-1.76317964733E+02	-3.61843142511E+01	-1.48219362587E+02	-5.94934846583E+00	-4.31842332838E-01
3.06574006730E+05	-2.08675319636E+01	-1.55135046016E+02	1.12465771120E+01	-1.77291204512E+02	-3.53341079353E+01	-1.59540389103E+01	-5.80777987328E+00	-2.49386442681E-01
3.06795603964E+05	-1.83369631677E+01	1.06489520004E+02	1.12299322702E+01	-1.77574421748E+02	-4.55562478897E+01	-1.79741952527E+02	-5.86738965958E+00	-2.40086515980E-01
3.07017361372E+05	-9.69334667885E+00	1.52274043216E+02	1.14579515550E+01	-1.78201409042E+02	-4.74783124232E+01	-1.76085564007E+02	-5.91436814899E+00	-1.80743687571E-01
3.07239279071E+05	-1.37024175712E+01	4.81126324350E+01	1.11176719191E+01	-1.78340589243E+02	-4.08932982422E+01	1.38043888793E+02	-5.92972820363E+00	1.21229613361E-01
3.07461357176E+05	-2.61435470518E+01	-7.03397975282E+01	1.12093763619E+01	-1.77427439266E+02	-5.00614008998E+01	9.89307575243E+00	-5.85463266324E+00	-1.91242428430E-01
3.07683595803E+05	-2.23642386749E+01	-4.05796140113E-01	1.11882127759E+01	-1.77555571973E+02	-5.30892546546E+01	-9.05504214819E+01	-5.90233676636E+00	-3.93925138499E-01
3.07905995068E+05	-2.13688347613E+01	-3.02889882290E+01	1.11640277615E+01	-1.77392934851E+02	-4.85669407359E+01	-1.53596446089E+02	-5.89300295415E+00	-2.84257574000E-01
3.08128555087E+05	-2.20365487058E+01	-1.46238400355E+02	1.12642720480E+01	-1.77572926868E+02	-3.88275643607E+01	-1.62500123303E+02	-5.90219423512E+00	-3.98304423852E-01
3.08351275976E+05	-2.57831193718E+01	-9.62034521165E+01	1.12317382009E+01	-1.77429006002E+02	-4.93885825429E+01	1.03001965717E+02	-5.88002167869E+00	-1.34103639075E-01
3.08574157853E+05	-1.61093747432E+01	1.70989986916E+02	1.13881337906E+01	-1.77447123810E+02	-3.93381983762E+01	-1.22902672614E+02	-5.88583563679E+00	-4.34586175660E-01
3.08797200832E+05	-1.11519712202E+01	-6.22548983744E+01	1.11516245289E+01	-1.76335872910E+02	-3.78540745902E+01	-1.16097923026E+02	-5.86024129519E+00	-5.33526877844E-01
3.09020405031E+05	-2.08153805352E+01	8.90264253087E+01	1.12297951025E+01	-1.77553194232E+02	-4.28734308010E+01	-8.34880403725E+01	-5.86823799767E+00	-2.81872623963E-01
3.09243770566E+05	-1.74470223526E+01	1.55613208099E+02	1.12652089657E+01	-1.78493616048E+02	-3.75366536800E+01	-7.72073246591E+01	-5.80202325387E+00	-1.07311234303E+00
3.09467297553E+05	-1.97793930702E+01	-1.59715100019E+02	1.12568762436E+01	-1.77465564046E+02	-3.92496210905E+01	-1.62897535615E+02	-5.94610987116E+00	-3.76925436938E-01
3.09690986110E+05	-1.79136455640E+01	3.89505860863E+00	1.11418859170E+01	-1.77675230484E+02	-5.27539122069E+01	1.55697050887E+02	-5.92052246000E+00	-4.29937990936E-01
3.09914836353E+05	-1.73126616741E+01	-1.28305362493E+02	1.12485957874E+01	-1.76973932343E+02	-4.00350986213E+01	-1.18254873066E+02	-5.86856744079E+00	-5.40416331056E-01
3.10138848399E+05	-2.65974441477E+01	1.53773550350E+02	1.12049881292E+01	-1.77919212576E+02	-3.94581198970E+01	-6.20451674181E+01	-5.89829456278E+00	-5.21382541760E-01
3.10363022365E+05	-3.09839270793E+01	-1.78497194001E+02	1.12008220861E+01	-1.77738960598E+02	-3.88311216311E+01	1.22866951804E+02	-5.93647756009E+00	-3.68230016573E-01
3.10587358368E+05	-2.63834073057E+01	1.18607159319E+02	1.12404649237E+01	-1.77591161168E+02	-3.35283053552E+01	-6.76068084808E+00	-5.82712418155E+00	-3.83456602414E-01
3.10811856525E+05	-1.74115174324E+01	-1.52798906650E+02	1.12659354348E+01	-1.77635736329E+02	-3.57550908759E+01	1.33454573147E+01	-5.78593884900E+00	-2.13495661053E-01
3.11036516954E+05	-1.91856257809E+01	1.19110187308E+02	1.12312864799E+01	-1.77839105268E+02	-3.88141452210E+01	-1.43549694405E+02	-5.92306594095E+00	-3.87352664067E-01
3.11261339771E+05	-2.52262103892E+01	-7.75808937007E+01	1.11757590750E+01	-1.77613593142E+02	-3.88656685485E+01	-3.72651046400E+01	-5.83733899025E+00	-4.16953025140E-01
3.11486325094E+05	-2.21566336583E+01	-2.37758336222E+00	1.11839612717E+01	-1.77858414762E+02	-3.36816609807E+01	-1.30909304052E+02	-5.95119367964E+00	-6.20467871861E-01
3.11711473040E+05	-2.55699453213E+01	-1.16371796321E+01	1.11743909539E+01	-1.77432477520E+02	-4.88003391530E+01	1.68464523311E+02	-5.93100871684E+00	-5.57831716196E-01
3.11936783728E+05	-2.13356937801E+01	1.35195426237E+02	1.12483970216E+01	-1.77868210773E+02	-3.18991677908E+01	-1.64482425590E+02	-5.97082609772E+00	-4.92229530934E-01
3.12162257274E+05	-1.61896865202E+01	-1.57142436989E+02	1.13424946899E+01	-1.77318409560E+02	-2.90005569438E+01	9.32526118742E+01	-5.93938359800E+00	1.10579080377E+00
3.12387893797E+05	-3.71855748864E+01	6.61748318121E+01	1.12387505620E+01	-1.77348210462E+02	-3.73237229243E+01	4.57186473599E+00	-5.77471060424E+00	-2.59313977816E-01
3.12613693413E+05	-2.01185805470E+01	1.18735527590E+02	1.12656960022E+01	-1.77927018969E+02	-4.42964266912E+01	1.25823612857E+02	-5.87661921645E+00	-2.15256272725E-01
3.12839656242E+05	-2.23310877210E+01	-2.32561120081E+01	1.11882177534E+01	-1.77710276835E+02	-5.07575482921E+01	-1.53517454731E+02	-5.90183371970E+00	-4.72701006842E-01
3.13065782401E+05	-2.43810417399E+01	-6.26379987851E+01	1.12378781241E+01	-1.77316729111E+02	-4.96863043234E+01	-2.05109065548E+01	-5.83170092102E+00	7.14746839114E-02
3.13292072007E+05	-1.37958600952E+01	-4.98172269421E+01	1.11563336164E+01	-1.76804379036E+02	-3.36895213599E+01	-3.94738786641E+01	-5.82805868699E+00	-5.69962750344E-01
3.13518525180E+05	-1.80269985528E+01	7.81572377180E+00	1.11320539025E+01	-1.78014892403E+02	-4.43073032075E+01	1.70717537966E+02	-5.88415405536E+00	-1.32763303295E-01
3.13745142038E+05	-1.68313600264E+01	-4.75294043220E+01	1.11072076169E+01	-1.77285452290E+02	-3.45056380340E+01	-1.10023820536E+01	-5.81016733909E+00	-4.33965378573E-01
3.13971922698E+05	-3.56110025519E+01	3.60205174126E+01	1.11999572764E+01	-1.77604818025E+02	-3.55118472665E+01	1.85516316513E+01	-5.79091587302E+00	-8.03506691852E-02
3.14198867279E+05	-1.78529662194E+01	-1.19090842760E+01	1.11788410387E+01	-1.77503789716E+02	-4.98317496230E+01	1.47304248911E+01	-5.90260229479E+00	-3.50280097981E-02
3.14425975900E+05	-1.81591188324E+01	1.56601603594E+02	1.12887578534E+01	-1.77658310282E+02	-4.70036874712E+01	2.70435814495E+01	-5.84555182026E+00	-2.05949855769E-01
3.14653248680E+05	-1.72911173320E+01	4.68130403984E+01	1.11716325831E+01	-1.77824842600E+02	-3.57119045274E+01	-7.95011393601E+01	-5.87449481471E+00	-7.69205290061E-01
3.14880685736E+05	-1.56571175074E+01	-1.31288978695E+02	1.12791396573E+01	-1.76958695866E+02	-4.83434966014E+01	1.65823863409E+02	-5.90199171486E+00	-2.36878349719E-01
3.15108287188E+05	-1.63877252539E+01	-7.37788540336E+00	1.11054620335E+01	-1.77398637474E+02	-5.78065355383E+01	1.27819289879E+02	-5.88106786741E+00	-2.79755298337E-02
3.15336053154E+05	-2.67535825567E+01	-8.15011982633E+01	1.12663285007E+01	-1.77209226297E+02	-3.53409057813E+01	3.73710182969E+01	-5.78033102913E+00	3.48643234239E-01
3.15563983753E+05	-3.09144124303E+01	-1.37105845689E+02	1.12364642226E+01	-1.77597356947E+02	-3.85898480973E+01	-1.24954565221E+02	-5.89381062911E+00	-6.91629237320E-01
3.15792079105E+05	-2.67665778344E+01	-9.70479794500E+00	1.11848993908E+01	-1.77608565387E+02	-3.75843700017E+01	7.52964310351E+01	-5.85688493111E+00	1.73149653551E-01
3.16020339328E+05	-2.79041070739E+01	1.73810195754E+02	1.12572590653E+01	-1.77911478511E+02	-4.05456149996E+01	1.20357052897E+02	-5.93653444544E+00	-9.59330682403E-02
3.16248764542E+05	-1.67027620367E+01	1.06049918176E+00	1.11186125231E+01	-1.77957971794E+02	-3.55540656141E+01	1.85975438264E+01	-5.82137110000E+00	-1.56327917731E-01
3.16477354866E+05	-1.86553693826E+01	1.04427469335E+02	1.12171372009E+01	-1.78184558635E+02	-4.29769845029E+01	-1.40919895166E+02	-5.94527332059E+00	-4.75332461147E-01
3.16706110419E+05	-6.35169345136E+00	1.70025307058E+02	1.15657941724E+01	-1.78326582845E+02	-4.00380079962E+01	-4.81257701372E+01	-5.84146125055E+00	-7.50281490285E-01
3.16935031321E+05	-1.37384543388E+01	-1.63683371397E+02	1.13897701127E+01	-1.77437268327E+02	-3.85901605726E+01	1.50708635209E+02	-5.92820940127E+00	7.53932338684E-02
3.17164117691E+05	-2.64553769695E+01	-1.48060172789E+02	1.12684561800E+01	-1.77457301500E+02	-3.44373668610E+01	6.11786399781E+01	-5.83018173458E+00	2.74894061104E-01
3.17393369648E+05	-2.54049968338E+01	1.71767819153E+02	1.12639683487E+01	-1.77661378591E+02	-5.08639976187E+01	2.88583371757E+01	-5.86364409109E+00	-1.82892854011E-01
3.17622787313E+05	-2.71145407787E+01	1.59256952270E+00	1.12107409445E+01	-1.77672371670E+02	-4.04144386244E+01	-1.45595421742E+02	-5.87076736876E+00	-3.30492537387E-01
3.17852370806E+05	-2.56735534208E+01	-1.56225606474E+02	1.12814765738E+01	-1.77487354537E+02	-3.94548432893E+01	-8.30892713478E+01	-5.80863363567E+00	-4.62295942165E-01
3.18082120245E+05	-2.57881390077E+01	1.15822604805E+02	1.12270993124E+01	-1.77850785247E+02	-4.04344627438E+01	1.69388520407E+02	-5.90662453903E+00	-1.07068210601E-01
3.18312035752E+05	-1.68996588582E+01	8.31082577980E+01	1.12230041738E+01	-1.78381103218E+02	-4.56713458961E+01	-4.56696921721E+01	-5.85144762785E+00	-1.71932236752E-01
3.18542117445E+05	-9.76571200564E+00	-1.49821601123E+01	1.09736320098E+01	-1.76962465263E+02	-3.74285084443E+01	-1.13906419210E+02	-5.93709781291E+00	-8.70418660673E-01
3.18772365446E+05	-1.79378825955E+01	-7.67343299260E+01	1.11990374611E+01	-1.77377149812E+02	-3.96416724132E+01	4.34355226310E+01	-5.84396764651E+00	-2.57570865223E-02
3.19002779874E+05	-1.60199496456E+01	1.11609657797E+02	1.12110117092E+01	-1.77965988551E+02	-4.88598882174E+01	-1.27236699843E+02	-5.83922810941E+00	-7.30626438870E-01
3.19233360850E+05	-2.99212290078E+01	-1.66617291071E+02	1.12661737112E+01	-1.77461122960E+02	-3.84758037582E+01	-1.71733900318E+02	-5.91869762228E+00	-2.09786949837E-01
3.19464108494E+05	-1.50402573366E+01	-1.21119184704E+02	1.12707015430E+01	-1.77203758947E+02	-3.71490584688E+01	3.06985962819E+01	-5.81182250446E+00	-1.10364283036E-01
3.19695022927E+05	-3.34138558886E+01	-8.36802923306E+01	1.12179644059E+01	-1.77818762896E+02	-4.84276327851E+01	1.58132762264E+02	-5.89865958494E+00	-1.43684804667E-01
3.19926104268E+05	-1.33234325057E+01	1.10853247124E+02	1.12674940875E+01	-1.78730487133E+02	-4.59772296034E+01	3.89091699367E+01	-5.80718353101E+00	-8.52966416420E-02
3.20157352640E+05	-1.67005480965E+01	-5.27408085490E+01	1.11722759649E+01	-1.77204352636E+02	-3.69560561296E+01	-3.22171948957E+01	-5.85397985815E+00	-5.01606403587E-01
3.20388768162E+05	-1.81462604790E+01	5.76649978235E+01	1.11594447425E+01	-1.78359817739E+02	-3.50055593188E+01	-8.61176302932E+01	-5.87158764897E+00	-7.97140134653E-01
3.20620350955E+05	-2.50376139942E+01	1.24500276602E+02	1.12440457734E+01	-1.77962857007E+02	-3.80984920499E+01	-1.27329969026E+02	-5.91589849556E+00	-4.19151474683E-01
3.20852101140E+05	-1.92083388627E+01	-1.00984069812E+02	1.12461970549E+01	-1.77506548891E+02	-4.31677444043E+01	-1.25442418076E+02	-5.91460479111E+00	-2.44897547481E-01
3.21084018839E+05	-1.84596174365E+01	1.74329221343E+02	1.12991725548E+01	-1.78136086638E+02	-4.11057250230E+01	5.89904710969E+00	-5.82231246719E+00	-2.59499831383E-01
3.21316104172E+05	-2.97906055971E+01	-1.04349141738E+02	1.12410196224E+01	-1.77824877906E+02	-4.21245382532E+01	-1.21724020616E+02	-5.88956712939E+00	-6.38865990851E-01
3.21548357261E+05	-1.68903684369E+01	-1.10571194740E+02	1.12248333490E+01	-1.76959331984E+02	-4.52732939991E+01	1.22913418919E+02	-5.88070092027E+00	-1.59495014316E-01
3.21780778226E+05	-2.27240422998E+01	-1.78379387628E+02	1.12805102055E+01	-1.77760071132E+02	-3.90276179538E+01	-2.49607997142E+01	-5.82615144487E+00	-5.60006514305E-01
3.22013367189E+05	-1.61458357723E+01	-1.00819904546E+02	1.11940174199E+01	-1.77482755554E+02	-3.04332106328E+01	-1.13620444231E+02	-5.97091418997E+00	-1.34931760186E+00
3.22246124272E+05	-2.65435754818E+01	-1.59705722798E+02	1.12667395514E+01	-1.77728959589E+02	-3.20572335313E+01	-2.28484674394E+01	-5.78665216130E+00	-7.73665254005E-01
3.22479049596E+05	-2.42668315703E+01	1.09809772671E+01	1.12499939299E+01	-1.77912152633E+02	-4.21163391859E+01	4.78252889416E+01	-5.83254904534E+00	1.83264497030E-01
3.22712143282E+05	-2.16288712779E+01	-1.27456338115E+02	1.12655628860E+01	-1.77603460653E+02	-3.63579458965E+01	-5.59256012133E+01	-5.87702686115E+00	-3.22191647322E-01
3.22945405453E+05	-3.46766591641E+01	4.46479990293E+01	1.12178087492E+01	-1.78004339334E+02	-6.27980120677E+01	-6.78771842095E+01	-5.87646907158E+00	7.99508563260E-02
3.23178836230E+05	-3.35103937322E+01	1.33664402022E+01	1.11392416001E+01	-1.77466322256E+02	-4.07025998936E+01	-1.32614099260E+02	-5.90924493629E+00	-4.81789292628E-01
3.23412435735E+05	-1.17300177872E+01	1.34083709083E+02	1.12989023811E+01	-1.78775340554E+02	-4.03291100823E+01	9.90740656633E+01	-5.84538199142E+00	-2.83480679798E-02
3.23646204090E+05	-3.10077795491E+01	-1.78864038100E+02	1.12676611745E+01	-1.77987206397E+02	-3.45725442700E+01	9.64681993552E+01	-5.92134846080E+00	7.65980107321E-01
3.23880141417E+05	-2.35935238594E+01	-1.36735411072E+02	1.12426625002E+01	-1.77787065492E+02	-3.40837229062E+01	-8.71984890003E+01	-5.87418824786E+00	-5.21488725084E-01
3.24114247838E+05	-2.24673857853E+01	-1.38605962287E+02	1.13112866773E+01	-1.77634066418E+02	-5.17907286479E+01	1.32182465593E+02	-5.85281967530E+00	7.64213381138E-02
3.24348523475E+05	-2.07658212013E+01	1.30683611820E+02	1.12636472117E+01	-1.78213274777E+02	-3.74932671576E+01	5.24212996831E+01	-5.82864930360E+00	1.03756773984E-01
3.24582968451E+05	-2.64971277228E+01	-3.23302114676E+01	1.12108477127E+01	-1.77497734052E+02	-4.78593508460E+01	-5.97229058596E+01	-5.91330066334E+00	-1.86708281706E-01
3.24817582888E+05	-2.19634593224E+01	1.36961217184E+02	1.12862156415E+01	-1.78550009491E+02	-4.44628087153E+01	8.06557589386E+01	-5.88107864295E+00	-1.32571317059E-01
3.25052366909E+05	-1.35380112600E+01	-1.19893354705E+02	1.12889145994E+01	-1.77045912246E+02	-4.03197280675E+01	-1.03696974957E+01	-5.86651604707E+00	-1.35760061813E-01
3.25287320635E+05	-1.83475311486E+01	7.13385943931E+01	1.11726966559E+01	-1.78038763057E+02	-3.62193041291E+01	-1.22452471891E+01	-5.76846560826E+00	-1.86087364832E-01
3.25522444191E+05	-1.90731123466E+01	-6.76819093198E+00	1.11927582297E+01	-1.77679909154E+02	-3.49303062974E+01	1.56196702686E+02	-5.95536048567E+00	5.05544876702E-02
3.25757737698E+05	-1.77134265990E+01	1.78233593226E+02	1.13035744811E+01	-1.77809016272E+02	-4.86436171284E+01	-1.65859256115E+02	-5.90557014022E+00	-3.01244334443E-01
3.25993201280E+05	-2.47734128439E+01	-6.52231449508E+01	1.11983475112E+01	-1.77265837732E+02	-4.77955817248E+01	-1.15034864949E+02	-5.83608427098E+00	-3.89474348003E-01
3.26228835058E+05	-1.69648705099E+01	-1.42193649904E+02	1.13367784307E+01	-1.77642330022E+02	-3.40844508928E+01	7.60548213941E-01	-5.83862563453E+00	-2.22574951903E-01
