# Hz S DB R 50
! CMT, M5065, 19127446, 24.2.4/2
! Date: 11/1/2024 4:13:56 PM
! Data: Format (Calibration Info)
! Freq	S11:dB/Ang(F2)	S21:dB/Ang(F2)	S12:dB/Ang(F2)	S22:dB/Ang(F2)
3.00000000000E+05	-2.23585712206E+01	6.50137492364E+01	4.47737196659E+00	-1.77307006555E+02	-4.36551501889E+01	9.17321834419E+01	-5.86889961551E+00	-1.23482333898E-01
3.00216845423E+05	-2.35431952772E+01	9.41675158734E+01	4.55269347892E+00	-1.77881239229E+02	-3.36268802580E+01	-7.57775764705E+01	-5.89621337232E+00	-3.34827195134E-01
3.00433847586E+05	-8.38992166695E+00	-4.73212648716E+01	4.26908579071E+00	-1.76176193270E+02	-3.83941863082E+01	6.69228987449E+01	-5.89060028937E+00	-9.43878764307E-03
3.00651006602E+05	-2.77227758588E+01	-4.49611033856E+01	4.56269967553E+00	-1.77994701694E+02	-3.91395593956E+01	2.21506984005E+01	-5.86680009423E+00	-1.13217538634E-01
3.00868322584E+05	-2.43308120189E+01	-8.15062057391E+00	4.60571101187E+00	-1.77861733226E+02	-4.11452648440E+01	7.22423599323E+00	-5.87988083074E+00	-3.00431643514E-01
3.01085795647E+05	-2.10041789320E+01	-1.33241281574E+02	4.54546956086E+00	-1.77773960251E+02	-3.66290015817E+01	1.63258028459E+02	-5.90032226788E+00	-3.45127125950E-01
3.01303425902E+05	-1.62743366953E+01	-1.66927163165E+02	4.61326731757E+00	-1.77941558901E+02	-3.91659839708E+01	-5.78047352864E+01	-5.87323726466E+00	-4.75945454936E-01
3.01521213465E+05	-3.61893939786E+01	-1.32801600171E+02	4.55971721476E+00	-1.77228256881E+02	-3.77014391074E+01	-7.73180176838E+01	-5.88978724214E+00	-4.77355103401E-01
3.01739158449E+05	-1.37639508911E+01	4.40941385328E+01	4.42658911332E+00	-1.78073915757E+02	-3.36667480012E+01	1.49371684592E+02	-5.97593598915E+00	1.33672260002E-01
3.01957260967E+05	-2.27363532553E+01	8.99159862352E+01	4.54792862667E+00	-1.78048888107E+02	-3.59084449851E+01	4.97142975812E+01	-5.87193630550E+00	-3.64902123765E-02
3.02175521134E+05	-2.57136634919E+01	-7.05112066006E+01	4.49972393784E+00	-1.77601882420E+02	-3.70854236665E+01	-6.26071195632E+01	-5.89730059780E+00	-3.00376617364E-01
3.02393939063E+05	-2.53732374813E+01	-6.63951903342E+00	4.48087743186E+00	-1.77735714590E+02	-3.44994356647E+01	6.20818983820E+01	-5.84835685817E+00	4.23926216960E-02
3.02612514869E+05	-2.48150211686E+01	8.37581959834E+01	4.44692146582E+00	-1.77528682407E+02	-4.71243003603E+01	1.42661366413E+02	-5.90915210639E+00	1.89917114146E-02
3.02831248665E+05	-1.56065556374E+01	1.69055936357E+00	4.46639088015E+00	-1.78199115663E+02	-3.72863059489E+01	-2.60282103586E+01	-5.84565368127E+00	-2.94970342920E-01
3.03050140565E+05	-2.46094321183E+01	-6.23749234741E+01	4.49015423085E+00	-1.77673466382E+02	-3.81969327848E+01	-4.28338935606E+01	-5.87324639831E+00	-3.20560960254E-01
3.03269190685E+05	-2.14311054596E+01	-2.04236075968E+01	4.47429989681E+00	-1.77285723444E+02	-4.18636916250E+01	5.96710837363E+01	-5.86631060045E+00	-5.03304404927E-02
3.03488399138E+05	-1.70335311752E+01	1.77717409270E+02	4.58708297172E+00	-1.77319954495E+02	-4.26298739527E+01	1.53072920762E+02	-5.94025884771E+00	-3.24554118786E-01
3.03707766039E+05	-1.70747170223E+01	1.52860280011E+02	4.45158963654E+00	-1.77789926471E+02	-4.13695624514E+01	7.57889811315E+00	-5.89414764615E+00	-1.88574808779E-01
3.03927291503E+05	-1.54334781265E+01	1.76589739964E+02	4.69899972518E+00	-1.77076967732E+02	-4.84927496150E+01	-1.77838740049E+02	-5.87633397210E+00	-3.69966069524E-01
3.04146975643E+05	-1.59726910137E+01	8.53950362877E+01	4.57373654413E+00	-1.78596106390E+02	-3.72199605636E+01	1.49381160419E+02	-5.92169915259E+00	-8.85219382189E-02
3.04366818575E+05	-2.99467519423E+01	-1.96534816455E+00	4.55430333274E+00	-1.78104363861E+02	-3.76949015845E+01	3.56609379850E+01	-5.88186166604E+00	6.05303914821E-02
3.04586820414E+05	-2.50541286723E+01	4.62849796153E+01	4.46091254960E+00	-1.77702959356E+02	-4.50059764964E+01	5.87215405011E+01	-5.85090659578E+00	-1.99974704341E-01
3.04806981274E+05	-1.82190766026E+01	8.78911322600E+01	4.55990287819E+00	-1.78128578139E+02	-4.41859498629E+01	1.05244458318E+02	-5.89046076887E+00	-2.63858760066E-01
3.05027301270E+05	-1.69150730562E+01	-9.54703660638E+00	4.43665585855E+00	-1.78000049856E+02	-4.12790026434E+01	-1.12316711772E+02	-5.88746339445E+00	-3.23896473801E-01
3.05247780517E+05	-2.02885132622E+01	-5.57161390979E+01	4.47052969178E+00	-1.76926999396E+02	-3.82779702012E+01	-1.38198181525E+02	-5.87427263312E+00	-3.44753869012E-01
3.05468419131E+05	-2.36987773257E+01	-1.31329202978E+01	4.41744837108E+00	-1.77757699157E+02	-4.35741853552E+01	-1.16695256462E+02	-5.90058392976E+00	-1.84009869017E-01
3.05689217226E+05	-1.66517823978E+01	1.42929242667E+02	4.56001874678E+00	-1.77833255741E+02	-4.06191955648E+01	1.59260234116E+02	-5.92661956860E+00	1.07838418109E-02
3.05910174918E+05	-2.81563600747E+01	9.92886684956E+01	4.48094077300E+00	-1.77854724435E+02	-4.56202015064E+01	-6.88040617361E+01	-5.86752607594E+00	-2.06285201935E-01
3.06131292322E+05	-2.66041960395E+01	-1.63127284283E+02	4.61180097951E+00	-1.77743472403E+02	-4.31749842317E+01	8.04080987103E+01	-5.91772289775E+00	-1.87372218774E-01
3.06352569554E+05	-2.56513040431E+01	-5.57328849358E+01	4.45351338554E+00	-1.78130283392E+02	-3.91032880941E+01	1.14408408247E+02	-5.94433366323E+00	-2.30857227996E-01
3.06574006730E+05	-1.42449404444E+01	-7.75941991476E+01	4.52917840978E+00	-1.76751356950E+02	-5.06895850312E+01	1.48636413637E+02	-5.87774838417E+00	-2.02298331770E-01
3.06795603964E+05	-2.66214581375E+01	1.42958408516E+02	4.58216155871E+00	-1.77654012934E+02	-3.88865497827E+01	1.22003596347E+02	-5.88554124044E+00	-1.16621353077E-01
3.07017361372E+05	-2.02199214878E+01	-1.49505111783E+02	4.54480649810E+00	-1.77327737983E+02	-4.05022723291E+01	-7.55855196795E+01	-5.90046320322E+00	-3.95152757508E-01
3.07239279071E+05	-2.01812986353E+01	-6.13656672938E+00	4.58163082619E+00	-1.77693713722E+02	-4.22072406461E+01	-2.40662636688E+01	-5.88178202649E+00	-2.92566179163E-01
3.07461357176E+05	-3.39313463339E+01	-8.04174334880E+01	4.54507412468E+00	-1.77073001096E+02	-4.00828626181E+01	-1.67963544808E+02	-5.89488398788E+00	-1.92865245671E-01
3.07683595803E+05	-2.12911588172E+01	1.22787667908E+02	4.50647088461E+00	-1.77971134318E+02	-3.79950204110E+01	-6.76356736870E+01	-5.90217903378E+00	-5.36582161743E-01
3.07905995068E+05	-2.39784839610E+01	6.11475458100E+01	4.55507358864E+00	-1.78114220310E+02	-3.39455239244E+01	-7.19517119277E+01	-5.83833152583E+00	-3.90498208434E-01
3.08128555087E+05	-2.01031403970E+01	7.62948331887E+01	4.48867289974E+00	-1.78219214189E+02	-4.04863455342E+01	4.73318194281E+01	-5.89847004158E+00	-9.62582481144E-02
3.08351275976E+05	-1.78032608676E+01	-6.27957649092E+01	4.39776372972E+00	-1.76880221731E+02	-3.56001102373E+01	1.98456900609E+01	-5.86121288804E+00	-3.16223157325E-01
3.08574157853E+05	-1.70446708777E+01	-2.49559664936E+01	4.38849190823E+00	-1.77647840725E+02	-3.66660892516E+01	-6.25462617798E+01	-5.91132028441E+00	-6.68570387271E-01
3.08797200832E+05	-1.34392782484E+01	-1.52306804155E+02	4.61539662844E+00	-1.77212299631E+02	-3.62015732657E+01	-1.00510628024E+02	-5.92303755299E+00	-3.42632294219E-01
3.09020405031E+05	-1.82526924544E+01	-1.68204082925E+02	4.54682792264E+00	-1.77727094425E+02	-4.01770698100E+01	1.13185386359E+02	-5.94169961653E+00	-1.61174542298E-01
3.09243770566E+05	-2.73048993575E+01	1.22209945642E+02	4.46177032781E+00	-1.78121390446E+02	-3.53783820710E+01	2.09863938937E+01	-5.89434262114E+00	-9.45115004638E-02
3.09467297553E+05	-2.05151340702E+01	-6.72179009013E+01	4.49976611920E+00	-1.76977309767E+02	-3.32552295134E+01	1.25729863264E+02	-5.89409855474E+00	-1.00241546324E-01
3.09690986110E+05	-1.12857891485E+01	1.15847313382E+02	4.65569970339E+00	-1.79513590344E+02	-3.39376082709E+01	-2.56775485273E+01	-5.85413359133E+00	-5.64078059946E-01
3.09914836353E+05	-2.23838733881E+01	-4.11453806629E+01	4.57730271957E+00	-1.77732544915E+02	-3.63139073468E+01	1.49987480346E+02	-5.88329229980E+00	-1.39739294132E-04
3.10138848399E+05	-1.71013921806E+01	-2.11827958284E+01	4.35770945161E+00	-1.77622064304E+02	-4.92289193638E+01	1.69691177871E+02	-5.89842152172E+00	-2.26982207326E-01
3.10363022365E+05	-2.68874113775E+01	-1.27677789362E+02	4.49438086553E+00	-1.77425404526E+02	-3.47205806971E+01	1.10910656358E+02	-5.92859657898E+00	-4.64060643234E-02
3.10587358368E+05	-2.01908667213E+01	1.27223389272E+02	4.49254709212E+00	-1.78096540558E+02	-4.21415682612E+01	1.65725668846E+02	-5.91299365754E+00	-7.74989068754E-02
3.10811856525E+05	-1.29325905682E+01	1.52896635284E+02	4.70429255660E+00	-1.78386070187E+02	-4.07676499076E+01	5.57623170526E+01	-5.90094341844E+00	-6.49150123152E-02
3.11036516954E+05	-1.52143944205E+01	-1.74279716361E+02	4.60661854095E+00	-1.77354113469E+02	-3.12241808074E+01	-1.76818470826E+02	-5.97050201939E+00	-3.78830607195E-01
3.11261339771E+05	-2.43465295459E+01	9.82379606340E+01	4.52070444140E+00	-1.77485806920E+02	-3.55017806133E+01	8.71596407185E+01	-5.87846122021E+00	1.08681822913E-01
3.11486325094E+05	-1.25135142387E+01	9.48347694131E+01	4.55255468416E+00	-1.78895730048E+02	-4.35134213180E+01	1.60639307787E+01	-5.88209018283E+00	-2.65442394040E-01
3.11711473040E+05	-1.61020156261E+01	9.29049474401E+00	4.44547731407E+00	-1.77424907913E+02	-4.48183840728E+01	-1.77293118970E+02	-5.87031449631E+00	-3.00906787383E-02
3.11936783728E+05	-4.69591295673E+01	-7.06937175919E+01	4.43870193166E+00	-1.78194683519E+02	-4.89789162295E+01	-5.26664344770E+00	-5.86677163643E+00	-5.30182068747E-02
3.12162257274E+05	-2.50236243958E+01	1.69132797514E+02	4.60198281382E+00	-1.78141391040E+02	-3.19244099635E+01	-1.71064574040E+02	-5.91944509602E+00	-4.91424618657E-01
3.12387893797E+05	-1.31912418315E+01	1.32598043406E+01	4.32595694921E+00	-1.78407457467E+02	-3.80358340146E+01	-1.58188596352E+02	-5.91679160588E+00	-2.68427638205E-01
3.12613693413E+05	-5.30183243468E+01	1.60904687426E+02	4.53492028088E+00	-1.77507815713E+02	-3.61564292177E+01	4.33034821694E+01	-5.87683369709E+00	-2.66160308225E-01
3.12839656242E+05	-2.46022071331E+01	-7.62792873755E+01	4.53528525060E+00	-1.77627033183E+02	-2.66832533746E+01	-1.39833137099E+02	-5.98406663211E+00	-7.43821808671E-01
3.13065782401E+05	-1.39161913369E+01	7.91406764590E+01	4.54771278920E+00	-1.78589604101E+02	-4.22977655453E+01	-1.35589414131E+02	-5.91943860216E+00	-2.68038397102E-01
3.13292072007E+05	-1.85434994795E+01	6.13706542494E+01	4.44554382619E+00	-1.78330626802E+02	-3.78383357070E+01	-1.16062414619E+02	-5.90885722460E+00	-5.41034243227E-01
3.13518525180E+05	-1.94126066710E+01	6.48344254250E+01	4.55580824262E+00	-1.78631303549E+02	-3.55523992583E+01	-1.43408103437E+02	-5.90119484549E+00	-4.30827731739E-01
3.13745142038E+05	-1.81358500129E+01	1.55869437382E+02	4.48086358739E+00	-1.78395663803E+02	-4.41525273270E+01	1.51182907451E+01	-5.89576901945E+00	-3.86813852352E-01
3.13971922698E+05	-1.72689976412E+01	-1.65411047276E+02	4.69232363914E+00	-1.77900341075E+02	-4.09654395756E+01	1.02682993850E+02	-5.86439231030E+00	-5.67535786521E-02
3.14198867279E+05	-1.74272982143E+01	-3.30519759190E+01	4.38403991202E+00	-1.77474856070E+02	-3.60827194822E+01	-6.68294296756E+01	-5.86692319974E+00	-4.64383035049E-01
3.14425975900E+05	-2.75944314821E+01	1.58819615532E+02	4.47222397714E+00	-1.77698218752E+02	-3.48575170067E+01	5.83681024986E+00	-5.86162783483E+00	-2.90383856131E-02
3.14653248680E+05	-1.30103420753E+01	1.65725917759E+01	4.33937712791E+00	-1.78241282043E+02	-4.19608009183E+01	-1.45498432732E+02	-5.88708053728E+00	-4.90198788383E-01
3.14880685736E+05	-2.24402620587E+01	-4.94456790080E+01	4.55105087275E+00	-1.78133610429E+02	-4.28064987820E+01	7.48520304655E+01	-5.92122982962E+00	-1.53183701632E-01
3.15108287188E+05	-1.97901249551E+01	1.60146915451E+01	4.51110266725E+00	-1.78331673878E+02	-4.05410020599E+01	-3.17252451058E+00	-5.89519423095E+00	-1.11904456511E-01
3.15336053154E+05	-3.77478891501E+01	-1.64549171518E+01	4.53065211965E+00	-1.77448848234E+02	-4.50081350765E+01	1.19586230657E+02	-5.88892151837E+00	-4.59888715402E-01
3.15563983753E+05	-1.66835143418E+01	1.67651230345E+02	4.61794158101E+00	-1.77954143228E+02	-3.61859939404E+01	-4.58712051769E+01	-5.87791517511E+00	-2.00141180757E-01
3.15792079105E+05	-2.74301885040E+01	-5.57925242682E+01	4.54083886566E+00	-1.77395675060E+02	-3.34091023875E+01	-1.12789223778E+02	-5.95023617418E+00	-6.09986915361E-01
3.16020339328E+05	-1.46184078049E+01	1.20065980471E+02	4.60883613799E+00	-1.78846472232E+02	-3.32246551414E+01	1.53389443838E+02	-5.90276193515E+00	-8.02942611360E-02
3.16248764542E+05	-1.26559580760E+01	4.76082647117E+01	4.34444603494E+00	-1.79025436952E+02	-4.06698440394E+01	2.03807744616E+00	-5.90879086634E+00	-2.32852179500E-01
3.16477354866E+05	-3.81758729139E+01	1.03229108618E+02	4.56911855550E+00	-1.77892304035E+02	-3.52116551765E+01	-1.03668592345E+01	-5.89023827642E+00	-9.67005116102E-02
3.16706110419E+05	-1.69087718401E+01	1.53805946973E+02	4.51984827174E+00	-1.78509293666E+02	-4.64403047223E+01	-1.02058497852E+02	-5.91042579255E+00	-3.60268293195E-01
3.16935031321E+05	-2.04163276770E+01	-1.60508762238E+02	4.55655265036E+00	-1.78268043161E+02	-4.18856694373E+01	1.78658868269E+02	-5.88365804118E+00	-3.32798216244E-01
3.17164117691E+05	-2.05425292605E+01	1.46772969030E+02	4.59880637315E+00	-1.77826912552E+02	-3.42314931033E+01	1.84175516043E+01	-5.83685276256E+00	-2.26063041705E-01
3.17393369648E+05	-1.99977203710E+01	1.48205997416E+02	4.61318859814E+00	-1.78297594901E+02	-3.34710479292E+01	1.36616160165E+02	-5.96046078348E+00	-8.89986193471E-02
3.17622787313E+05	-3.07118461432E+01	-9.73248452383E+01	4.54853471038E+00	-1.77928026651E+02	-2.67213520563E+01	5.43627235009E+01	-5.80382738706E+00	5.32943377714E-01
3.17852370806E+05	-1.18355385828E+01	1.40049391383E+02	4.73587738403E+00	-1.78989186888E+02	-4.12790246070E+01	1.04653482160E+02	-5.90344983476E+00	-1.95062395590E-01
3.18082120245E+05	-2.11468758542E+01	3.80827337138E+01	4.51830078138E+00	-1.78065089827E+02	-4.42821717618E+01	-4.38913145105E+01	-5.89520630239E+00	-3.19283663930E-01
3.18312035752E+05	-2.29679379208E+01	-1.79624795738E+01	4.45727712247E+00	-1.78104576839E+02	-3.62434238985E+01	-1.44539748886E+01	-5.88017405530E+00	-3.23639056292E-01
3.18542117445E+05	-1.90835881728E+01	1.46275584056E+02	4.54149335913E+00	-1.78210819973E+02	-4.01697743183E+01	-3.73904482019E+01	-5.87400493836E+00	-2.66400984822E-01
3.18772365446E+05	-1.76024260175E+01	8.64972437318E+01	4.43946759083E+00	-1.78477550235E+02	-3.72508928673E+01	1.45877589177E+02	-5.91188899482E+00	-2.26186358970E-01
3.19002779874E+05	-2.45469717989E+01	-1.79170156040E+02	4.65120544334E+00	-1.78161719314E+02	-5.14789528894E+01	5.07705925160E+01	-5.88443379880E+00	-2.66037203350E-01
3.19233360850E+05	-1.45231750425E+01	1.50741948822E+02	4.62077541757E+00	-1.78049098599E+02	-2.77222119828E+01	2.44556135574E+01	-5.77242261515E+00	-8.86552067752E-02
3.19464108494E+05	-1.34270024840E+01	-5.74858490755E+01	4.37738427838E+00	-1.76846847165E+02	-5.15591535708E+01	9.13312579333E+01	-5.89211157444E+00	-3.26807177171E-01
3.19695022927E+05	-2.17824355410E+01	1.46804874247E+02	4.49712448631E+00	-1.77526371593E+02	-5.89425459915E+01	4.94173086254E+01	-5.88292463811E+00	-1.19191198857E-01
3.19926104268E+05	-1.47471640912E+01	-1.99471604954E+01	4.47432630225E+00	-1.77758670847E+02	-3.46150685364E+01	-3.11018590208E+01	-5.88287994740E+00	-4.64040636475E-01
3.20157352640E+05	-2.03021710122E+01	-4.02184929496E+01	4.43971536295E+00	-1.77602191502E+02	-4.27512788052E+01	-1.32985722542E+02	-5.85225965791E+00	-2.58140161634E-01
3.20388768162E+05	-1.81852430548E+01	1.31612037477E+02	4.58989845504E+00	-1.77879562940E+02	-6.08750514406E+01	4.76501421386E+01	-5.88872899303E+00	-1.81773807956E-01
3.20620350955E+05	-2.07807877027E+01	-1.27442166263E+02	4.62737278699E+00	-1.77783916420E+02	-3.58619652882E+01	-4.44057216351E+01	-5.86834795094E+00	-5.64148484090E-01
3.20852101140E+05	-2.20661118894E+01	1.61611416536E+02	4.62227641158E+00	-1.78387951739E+02	-4.85245397263E+01	-1.99782415244E+01	-5.92074417232E+00	-3.66357002565E-01
3.21084018839E+05	-1.22316141326E+01	-1.05274548512E+02	4.54003102974E+00	-1.76538660631E+02	-4.59464552565E+01	2.89630516086E+01	-5.84693016367E+00	-3.19965824348E-01
3.21316104172E+05	-2.99146845038E+01	5.02058862719E+01	4.54058809969E+00	-1.77381448062E+02	-5.50514744239E+01	1.66164424342E+02	-5.96031488037E+00	-2.34172446497E-01
3.21548357261E+05	-2.80333606754E+01	1.40427392515E+02	4.55110912751E+00	-1.78108303270E+02	-4.19332709583E+01	-4.60098584154E+01	-5.88339789736E+00	-4.69619612936E-01
3.21780778226E+05	-1.85082970221E+01	1.34908321987E+02	4.47481903100E+00	-1.78678126225E+02	-4.68720057768E+01	-6.23545731980E+01	-5.89899769896E+00	-4.11956112740E-01
3.22013367189E+05	-1.83053228629E+01	-4.61790326133E+01	4.48370051588E+00	-1.77317964482E+02	-4.57388312350E+01	-1.31167492597E+02	-5.88898356168E+00	-1.74018607792E-01
3.22246124272E+05	-1.89705516610E+01	-8.09729381382E+01	4.53599043734E+00	-1.77776197558E+02	-4.15023717378E+01	1.72909497918E+02	-5.89925354409E+00	-4.21575528879E-01
3.22479049596E+05	-2.05659669569E+01	-1.57504282955E+01	4.40793499893E+00	-1.78061859479E+02	-4.25468078712E+01	9.34400644931E+01	-5.92050590729E+00	-1.55227886924E-01
3.22712143282E+05	-1.24931844184E+01	1.42019886793E+02	4.69066024885E+00	-1.79144650402E+02	-4.87868757410E+01	1.09950636115E+02	-5.93235166990E+00	-7.92262292407E-02
3.22945405453E+05	-1.66838432245E+01	7.22881352992E+01	4.48776790869E+00	-1.78416216063E+02	-3.78471776753E+01	-2.21236200106E+01	-5.86520075956E+00	-2.90836956516E-01
3.23178836230E+05	-1.86813586035E+01	1.27902902431E+02	4.54348749264E+00	-1.78720430744E+02	-4.11395855637E+01	-5.95044192414E+01	-5.86853440502E+00	-3.48741821123E-01
3.23412435735E+05	-2.53434526078E+01	-1.71059856993E+02	4.58611063405E+00	-1.77998029736E+02	-3.42078849711E+01	-7.93719294691E+01	-5.87222988745E+00	-3.04228742137E-01
3.23646204090E+05	-1.76843883120E+01	4.00739595436E+01	4.53159616033E+00	-1.78483075539E+02	-3.52889295994E+01	5.41415164595E+00	-5.86751733896E+00	-5.59022835358E-02
3.23880141417E+05	-1.50864136285E+01	-8.99853160778E+01	4.55675368417E+00	-1.77410209685E+02	-3.18570020167E+01	1.33723947481E+02	-5.93360067381E+00	8.99770429163E-02
3.24114247838E+05	-2.96955707156E+01	-9.21676858001E-01	4.44919995598E+00	-1.77533110924E+02	-3.40905556735E+01	4.82971522257E+01	-5.88957055573E+00	-7.74832026514E-02
3.24348523475E+05	-1.24108769866E+01	7.54040622615E+01	4.37552303121E+00	-1.78844227235E+02	-3.93397002143E+01	-5.73734623724E+01	-5.90601074549E+00	-4.15863469168E-01
3.24582968451E+05	-1.55064330352E+01	1.24212292010E+02	4.59571570065E+00	-1.78958845907E+02	-3.86688032254E+01	7.73809032540E+00	-5.84805411818E+00	-2.46721051752E-01
3.24817582888E+05	-2.13354306854E+01	1.26469948799E+02	4.48941792907E+00	-1.78258676769E+02	-3.36939073028E+01	1.73118913099E+02	-5.92266619888E+00	-4.77027314394E-01
3.25052366909E+05	-2.22505619712E+01	-1.62692517507E+02	4.60722348743E+00	-1.77828893919E+02	-3.76242482197E+01	-7.28926798470E+01	-5.91921202628E+00	-5.64234686420E-01
3.25287320635E+05	-1.98486712296E+01	1.44261189991E+02	4.52891400182E+00	-1.77833693824E+02	-3.77082812397E+01	7.66012703964E+01	-5.92675980226E+00	-2.40020396257E-01
3.25522444191E+05	-1.46052238048E+01	8.19818850842E+01	4.58951122616E+00	-1.78733543851E+02	-3.48870868290E+01	-1.44542637578E+02	-5.97584117032E+00	-3.35203340360E-01
3.25757737698E+05	-2.64792274123E+01	-4.84313471905E+01	4.50843651280E+00	-1.77727778373E+02	-3.75426327382E+01	3.07072079202E+01	-5.83186139300E+00	7.33053943032E-02
3.25993201280E+05	-2.41515306318E+01	-1.47807222958E+02	4.54908135524E+00	-1.78652307837E+02	-4.30182257171E+01	-1.71583085624E+02	-5.89921917545E+00	-3.11074978087E-01
3.26228835058E+05	-1.32894075003E+01	3.75472165611E+01	4.44249703180E+00	-1.78708467190E+02	-3.59465201405E+01	1.21394846623E+02	-5.87457604399E+00	-1.87373348533E-01
