# Hz S DB R 50
! CMT, M5065, 19127446, 24.2.4/2
! Date: 11/1/2024 4:27:16 PM
! Data: Format (Calibration Info)
! Freq	S11:dB/Ang(F2)	S21:dB/Ang(F2)	S12:dB/Ang(F2)	S22:dB/Ang(F2)
3.00000000000E+05	-1.77936063650E+01	1.04357402135E+02	7.84974335443E+00	-1.78057811915E+02	-3.80819657810E+01	7.73606740756E+01	-5.87813969463E+00	-1.37071104683E-01
3.00216845423E+05	-1.79968981672E+01	-2.48760953926E+01	7.78393617011E+00	-1.77365005521E+02	-4.91977614606E+01	-2.10269528196E+01	-5.87194990112E+00	-7.00826512000E-02
3.00433847586E+05	-1.89871777805E+01	-1.03946691556E+02	7.91332924261E+00	-1.77065635656E+02	-3.83949285422E+01	-1.14164048900E+01	-5.84276579239E+00	-4.72828642048E-01
3.00651006602E+05	-2.75899982649E+01	1.78648389930E+02	7.86117589471E+00	-1.77481186552E+02	-3.66273467285E+01	5.50817407678E+01	-5.90941494148E+00	3.25801052618E-02
3.00868322584E+05	-1.43980935049E+01	-3.47353277720E+01	7.73886176588E+00	-1.76960039278E+02	-4.11096100720E+01	5.96587322509E+01	-5.89353942267E+00	-1.51726190094E-01
3.01085795647E+05	-3.29040767789E+01	1.04083836860E+02	7.95021342934E+00	-1.77501305445E+02	-4.00020264641E+01	1.54295622426E+02	-5.93972849235E+00	-2.17430329306E-01
3.01303425902E+05	-2.27622585849E+01	3.26728743978E+00	7.88800976154E+00	-1.77685564693E+02	-4.41091646513E+01	-2.22283502175E+01	-5.89688170507E+00	-4.06048671521E-01
3.01521213465E+05	-1.65136055287E+01	7.19448285423E+01	7.90979906005E+00	-1.78055264451E+02	-3.88586339253E+01	-1.13444047107E+02	-5.90651525628E+00	-6.00591034322E-01
3.01739158449E+05	-1.88375259186E+01	1.68639582216E+02	7.89369501302E+00	-1.77631397659E+02	-3.47447425564E+01	1.20412271240E+02	-5.89557775065E+00	1.91946600336E-01
3.01957260967E+05	-2.40053978574E+01	1.78983929269E+02	7.84584142863E+00	-1.77679890817E+02	-2.83226496611E+01	1.69629123557E-01	-5.75089519107E+00	-3.49456007023E-01
3.02175521134E+05	-2.65748390551E+01	-1.67376366605E+02	7.88879822956E+00	-1.77807305909E+02	-3.75163095087E+01	3.55397892781E+01	-5.82601182193E+00	1.17453534660E-01
3.02393939063E+05	-8.66659063180E+00	-7.31716714628E+01	7.72736265445E+00	-1.75611190490E+02	-3.81607629001E+01	-8.88606159817E+01	-5.85990014752E+00	-3.46834150163E-01
3.02612514869E+05	-1.98804074202E+01	-7.76999528104E+00	7.79786420858E+00	-1.78036192866E+02	-4.03494330049E+01	-1.76378378309E+01	-5.86739143597E+00	-3.06625991209E-01
3.02831248665E+05	-2.84445514310E+01	5.21856221540E+01	7.88105509231E+00	-1.78087161720E+02	-5.38696114622E+01	7.24516000365E+01	-5.88619586474E+00	-3.52038821708E-01
3.03050140565E+05	-2.96398255480E+01	8.29831872111E+01	7.90400327036E+00	-1.77732793530E+02	-3.72304919926E+01	-1.08497195557E+02	-5.89084595396E+00	-1.94145284876E-01
3.03269190685E+05	-1.10312671880E+01	3.52707511937E+01	7.68525874313E+00	-1.77994749455E+02	-4.84670664527E+01	-1.17444980900E+02	-5.88719123941E+00	-4.33505063069E-01
3.03488399138E+05	-2.07315893196E+01	-7.25723151448E+01	7.81336436554E+00	-1.77226294297E+02	-4.37023752683E+01	6.10301558987E+00	-5.87172945401E+00	-2.43060380750E-01
3.03707766039E+05	-3.52563185157E+01	-4.63459445544E+01	7.89778850197E+00	-1.77838194651E+02	-4.72574177585E+01	-1.62072032108E+02	-5.91984143188E+00	-6.31354122051E-01
3.03927291503E+05	-1.67250690791E+01	-7.70976465588E+01	7.78561335739E+00	-1.77341836360E+02	-4.57199187424E+01	-9.87581217290E+01	-5.86732014226E+00	-2.36376215154E-01
3.04146975643E+05	-1.20046759178E+01	-1.26526349254E+02	7.99252459419E+00	-1.76490297974E+02	-3.40092106801E+01	-2.93501560535E+00	-5.86808117924E+00	-1.33403246634E-01
3.04366818575E+05	-3.13753307408E+01	1.17000896326E+02	7.86913529609E+00	-1.77896426583E+02	-4.13582775945E+01	3.97062703977E+01	-5.86348794087E+00	-1.77764203242E-01
3.04586820414E+05	-1.90319109674E+01	4.14042555977E+01	7.77328867447E+00	-1.78122571900E+02	-4.08873998553E+01	-1.63244595007E+02	-5.91805311963E+00	-8.45785534090E-02
3.04806981274E+05	-2.33265472192E+01	-2.38582101139E+01	7.82377396917E+00	-1.77279193816E+02	-4.23586436391E+01	7.79343238237E+01	-5.87639519110E+00	-3.24600587344E-01
3.05027301270E+05	-1.87454771396E+01	-6.76617085031E+01	7.78819296556E+00	-1.77726014592E+02	-4.33521771742E+01	1.63588858462E+02	-5.92080947278E+00	3.57151545323E-02
3.05247780517E+05	-2.36820519562E+01	-9.38558431627E+00	7.85459819945E+00	-1.77787797568E+02	-3.73913733900E+01	3.29484299147E+01	-5.82992975539E+00	4.76083868505E-02
3.05468419131E+05	-8.15371660737E+00	-1.34505952048E+02	8.02061841153E+00	-1.76693663977E+02	-4.04066378519E+01	3.25455603893E+01	-5.86883693324E+00	-2.36167292213E-01
3.05689217226E+05	-1.58936536480E+01	1.21123720922E+02	7.86187461680E+00	-1.78077515506E+02	-3.41064328896E+01	4.14218014435E+01	-5.87170042459E+00	3.50411943609E-02
3.05910174918E+05	-1.99150075374E+01	-2.62214087562E+00	7.77905768682E+00	-1.77773875242E+02	-3.74926466963E+01	1.15092569446E+02	-5.92263861122E+00	-3.68170439729E-02
3.06131292322E+05	-2.74467149047E+01	-5.81077019624E+01	7.84226733433E+00	-1.77825403486E+02	-3.71206608666E+01	-1.14245558006E+02	-5.90211969875E+00	-3.56559844696E-01
3.06352569554E+05	-3.47088482520E+01	-9.76133687369E+01	7.83865518190E+00	-1.77298502930E+02	-3.52222282451E+01	-1.05289741042E+02	-5.88535360753E+00	-5.43285025925E-01
3.06574006730E+05	-2.03087876875E+01	4.58945009942E+00	7.79932927352E+00	-1.77303682731E+02	-5.02451563757E+01	3.42879318957E+00	-5.90248353596E+00	-7.38285936553E-02
3.06795603964E+05	-1.81814494281E+01	-1.29582700900E+02	7.84433000150E+00	-1.77543554445E+02	-3.85494342286E+01	-1.88155749217E+01	-5.87174526058E+00	-2.65991359892E-01
3.07017361372E+05	-2.62918788315E+01	1.39923776940E+02	7.84146895322E+00	-1.78166448445E+02	-4.13086234809E+01	2.62570296161E+01	-5.91450210766E+00	-5.55976496514E-02
3.07239279071E+05	-1.43410892597E+01	1.48409218817E+02	7.90173385907E+00	-1.78068551565E+02	-4.19064417061E+01	-1.45604284655E+02	-5.87726029477E+00	-2.64798973490E-01
3.07461357176E+05	-2.67852385995E+01	-3.40378375111E+01	7.82095916154E+00	-1.77624348784E+02	-3.68392778441E+01	1.23880220143E+02	-5.95485501416E+00	-7.57672757901E-02
3.07683595803E+05	-3.32383392241E+01	-8.40893342980E+01	7.85350860758E+00	-1.77267090861E+02	-4.31171426182E+01	-1.21641067937E+02	-5.88044423670E+00	-3.58832932716E-01
3.07905995068E+05	-2.58636167583E+01	-1.07876453020E+02	7.89152088654E+00	-1.77427116881E+02	-4.37648937516E+01	4.91647368268E+01	-5.81303020573E+00	-1.71292796867E-01
3.08128555087E+05	-1.93914825370E+01	6.52414689122E+01	7.80417748263E+00	-1.78212285394E+02	-3.16159834497E+01	-6.44618072509E+01	-5.84286134775E+00	-6.26415127826E-01
3.08351275976E+05	-1.90108976354E+01	-1.11134077277E+02	7.85110203932E+00	-1.77531849744E+02	-3.56513163791E+01	-4.32788931437E+00	-5.79074925700E+00	-2.97039000664E-01
3.08574157853E+05	-2.55819201200E+01	-1.33340926609E+02	7.86723499089E+00	-1.77389025671E+02	-4.06583904201E+01	1.06856146787E+02	-5.86780968600E+00	-1.81126664552E-01
3.08797200832E+05	-1.28443965938E+01	6.71449253907E+01	7.75411773562E+00	-1.78806708674E+02	-4.22874490649E+01	-6.24009659191E+01	-5.89164894558E+00	-5.61231608527E-01
3.09020405031E+05	-2.69258970133E+01	1.42493426213E+02	7.88319701812E+00	-1.77929097999E+02	-3.64746863566E+01	-1.50546433576E+02	-5.91124623108E+00	-2.15497845828E-01
3.09243770566E+05	-2.51467795628E+01	1.57656699454E+02	7.88648697634E+00	-1.77989394275E+02	-4.21068265766E+01	-9.89909990067E+01	-5.92778403403E+00	-4.33554664230E-01
3.09467297553E+05	-1.59940875055E+01	-7.98214080887E+01	7.80292980917E+00	-1.77009960359E+02	-4.67218498547E+01	-1.76997060130E+02	-5.89472222416E+00	-2.67168612975E-01
3.09690986110E+05	-1.59039165793E+01	1.67132768643E+02	7.99014768043E+00	-1.77763370740E+02	-3.95979307411E+01	-3.35675140357E+01	-5.82149914956E+00	-6.43605963610E-01
3.09914836353E+05	-2.11703408187E+01	-1.74812571400E+02	7.91064207454E+00	-1.77622438153E+02	-3.62574770650E+01	-1.27672358047E+02	-5.91754938877E+00	-5.86143980422E-01
3.10138848399E+05	-2.43763455787E+01	-8.12297564792E+01	7.81334373018E+00	-1.77492487231E+02	-3.68778830691E+01	-1.11502750171E+02	-5.89475075887E+00	-8.53786764027E-01
3.10363022365E+05	-1.36543944720E+01	-1.56151394165E+02	7.98566029095E+00	-1.77101927218E+02	-4.50362146876E+01	4.21007341514E+01	-5.83292138448E+00	8.71136989164E-02
3.10587358368E+05	-3.19525781103E+01	5.46697343373E+01	7.83483720962E+00	-1.78005140077E+02	-4.09560841555E+01	1.26277685900E+02	-5.89402699579E+00	1.11466501844E-01
3.10811856525E+05	-1.89391391405E+01	7.95931194363E+01	7.84097876458E+00	-1.78104581294E+02	-3.45240661052E+01	-3.34353407915E+01	-5.87125854059E+00	-5.87411537103E-01
3.11036516954E+05	-2.77262704689E+01	1.21397369429E+02	7.91622594799E+00	-1.77778069780E+02	-4.48496351942E+01	1.46951451452E+02	-5.88015261417E+00	-3.16226439642E-01
3.11261339771E+05	-2.57706813152E+01	1.67894416384E+02	7.87434908060E+00	-1.77803263023E+02	-4.56216670367E+01	-1.52759321233E+02	-5.92376129229E+00	-3.40073788317E-01
3.11486325094E+05	-2.10047321621E+01	9.32588501376E+01	7.84937697919E+00	-1.78415520198E+02	-3.72277924185E+01	4.04378671564E+01	-5.84518173714E+00	2.62151689977E-02
3.11711473040E+05	-1.94142661908E+01	7.40448241692E+01	7.84513199336E+00	-1.78468811158E+02	-3.91593165039E+01	-3.63030666666E+01	-5.88707179191E+00	-3.66108066303E-01
3.11936783728E+05	-1.30741466370E+01	-4.35026684376E+01	7.75696284943E+00	-1.76908950421E+02	-3.74051659168E+01	-3.59595345305E+01	-5.87873180623E+00	-3.56129141885E-01
3.12162257274E+05	-1.72399172217E+01	1.46784156513E+02	7.88294570916E+00	-1.77854553079E+02	-4.06357763785E+01	1.30281956019E+01	-5.88020981735E+00	-1.75728484552E-01
3.12387893797E+05	-1.79547621609E+01	-8.98764754183E+01	7.90829102319E+00	-1.77673032822E+02	-4.18178045606E+01	7.72625625827E+01	-5.89901320990E+00	-3.74379100051E-01
3.12613693413E+05	-3.00577291599E+01	1.09685817684E+02	7.83613588145E+00	-1.77894654626E+02	-4.36292653221E+01	-9.62493602464E+00	-5.84950039652E+00	-1.11550073391E-01
3.12839656242E+05	-2.29409437494E+01	-1.44964134113E+02	7.91660839468E+00	-1.77539406885E+02	-4.91805554639E+01	-4.91068204353E+01	-5.89436078356E+00	-2.92037063585E-01
3.13065782401E+05	-1.76416916858E+01	6.63678243180E+01	7.76668246698E+00	-1.77915422131E+02	-4.22089661236E+01	-1.21319772852E+02	-5.88676658257E+00	-6.72932563872E-01
3.13292072007E+05	-3.56910154862E+01	-1.75236759411E+02	7.85662544757E+00	-1.77523161716E+02	-3.87806792047E+01	-4.89900464761E+01	-5.87029092891E+00	-5.02118842997E-01
3.13518525180E+05	-1.44546695254E+01	1.29993042230E+02	7.93276080537E+00	-1.78622452273E+02	-4.52100940786E+01	-1.66416587496E+02	-5.90500136210E+00	-4.99605788514E-01
3.13745142038E+05	-1.91709386986E+01	-8.55319596972E+01	7.80301751466E+00	-1.77507501761E+02	-4.29644149658E+01	-1.90410758201E+01	-5.83807332593E+00	-7.62261944670E-02
3.13971922698E+05	-2.13498930711E+01	3.24019135416E+01	7.76591247619E+00	-1.78081647956E+02	-3.48674954862E+01	-1.20426953742E+02	-5.92273261364E+00	-6.49786943416E-01
3.14198867279E+05	-2.33617371586E+01	-4.41290612889E+01	7.83227938686E+00	-1.77820309494E+02	-5.57563657856E+01	-9.75932999118E+01	-5.90154931819E+00	-3.56636180266E-01
3.14425975900E+05	-1.97880423806E+01	5.21692318178E+01	7.82732748469E+00	-1.77986705569E+02	-4.12793398176E+01	-8.50960582262E+01	-5.93835169674E+00	-3.28896164766E-01
3.14653248680E+05	-2.00614649752E+01	-1.64364013858E+01	7.82459727443E+00	-1.77335718068E+02	-3.43940989012E+01	1.14367078885E+02	-5.88994671170E+00	2.54457288019E-02
3.14880685736E+05	-2.61651309239E+01	-4.10831567039E+01	7.78150602355E+00	-1.77396487897E+02	-3.85357163466E+01	-9.13678224112E+01	-5.85903208681E+00	-2.91607782961E-01
3.15108287188E+05	-1.52644606651E+01	1.53698432861E+02	8.01523783547E+00	-1.77890600291E+02	-4.51350669726E+01	-1.13448233538E+02	-5.88197362414E+00	-2.88781935230E-01
3.15336053154E+05	-1.60464525706E+01	1.12040221534E+02	7.89007831700E+00	-1.78044134306E+02	-3.69886920275E+01	1.32734731374E+02	-5.91111953048E+00	-9.30213509880E-02
3.15563983753E+05	-1.62308912525E+01	-7.25748712679E+01	7.79959206746E+00	-1.77397634154E+02	-3.78961045345E+01	-1.20805756287E+02	-5.89536246476E+00	-2.44200936840E-01
3.15792079105E+05	-1.86110302630E+01	-1.43395412827E+02	7.92625310501E+00	-1.77451259012E+02	-4.86331447574E+01	1.34088653757E+02	-5.88133771932E+00	-3.18927156658E-01
3.16020339328E+05	-2.74078269444E+01	-1.79316496268E+02	7.84953347378E+00	-1.78138333331E+02	-3.74886037607E+01	1.06930047670E+02	-5.91834014413E+00	-1.11301617301E-01
3.16248764542E+05	-1.81079494782E+01	1.76481986406E+02	7.96162893109E+00	-1.77851201913E+02	-3.40026896387E+01	-8.28096759137E+01	-5.86751675966E+00	-6.95398301630E-01
3.16477354866E+05	-1.95169121611E+01	1.61811833408E+02	7.89685635152E+00	-1.77835866680E+02	-4.65344102690E+01	-1.09848179159E+02	-5.92587489024E+00	-3.73879212498E-01
3.16706110419E+05	-1.33690475757E+01	-1.39178235811E+02	7.99222873724E+00	-1.76922362191E+02	-4.06152175753E+01	-5.15967103301E+00	-5.84959971305E+00	-2.23006644909E-01
3.16935031321E+05	-2.57758799779E+01	-1.34728728266E+02	7.90018983360E+00	-1.77332574397E+02	-4.20649825985E+01	4.74098361358E+01	-5.88055468528E+00	-2.91480575332E-04
3.17164117691E+05	-3.25379292471E+01	1.67881055468E+02	7.84746010535E+00	-1.77830474111E+02	-3.44276360777E+01	1.76137045407E+02	-5.93893207389E+00	-9.11878886356E-02
3.17393369648E+05	-3.40660734312E+01	-2.97445263625E+01	7.84631096386E+00	-1.77686673937E+02	-4.51044993274E+01	-3.32821016763E+01	-5.91492033258E+00	-3.70967543074E-01
3.17622787313E+05	-1.78053834731E+01	9.91038397315E+01	7.87354606914E+00	-1.78035223230E+02	-4.37084736678E+01	-8.96885242323E+01	-5.93845669598E+00	-2.32157584297E-01
3.17852370806E+05	-2.96680068029E+01	2.41943869176E+00	7.90279894067E+00	-1.77989667894E+02	-3.89348237592E+01	-2.26501896327E+01	-5.85379085857E+00	-2.18703546636E-01
3.18082120245E+05	-2.32726133370E+01	-1.38244168404E+01	7.78787416989E+00	-1.77850291452E+02	-3.54068499579E+01	-1.00935141928E+02	-5.87898410012E+00	-4.51606130271E-01
3.18312035752E+05	-1.87286455782E+01	-1.11537569069E+02	7.96177305692E+00	-1.76993438154E+02	-4.31661999169E+01	-8.73823182068E+00	-5.88337383006E+00	-3.41679757165E-01
3.18542117445E+05	-2.58523982074E+01	1.04429889520E+02	7.89912375682E+00	-1.78296795468E+02	-5.24074939990E+01	1.78387992464E+02	-5.88685110191E+00	-3.80616056265E-01
3.18772365446E+05	-2.82207884075E+01	6.57443186543E+01	7.81958742277E+00	-1.77890849864E+02	-4.87763401524E+01	-1.49529589672E+02	-5.91276050692E+00	-4.01398181260E-01
3.19002779874E+05	-3.75656569414E+01	-2.84591667619E+01	7.83488700254E+00	-1.77798429953E+02	-4.94384424733E+01	-1.66148533982E+02	-5.93910154724E+00	-1.05923937823E-01
3.19233360850E+05	-1.67390247817E+01	1.14492887612E+02	7.85646578929E+00	-1.78424830178E+02	-5.29157926407E+01	-4.17303799170E+01	-5.85510197869E+00	-3.21181321142E-01
3.19464108494E+05	-4.01511584858E+01	-1.15997084378E+01	7.77576083213E+00	-1.77502078527E+02	-3.29192748028E+01	1.27095521530E+02	-5.90529084375E+00	1.37993311088E-02
3.19695022927E+05	-1.62067242009E+01	-1.53697173401E+02	7.87676900187E+00	-1.77603155639E+02	-3.05965858994E+01	-5.09997127855E+01	-5.85757866151E+00	-6.05770964265E-01
3.19926104268E+05	-2.39699749963E+01	-3.82439193251E+01	7.76615702503E+00	-1.77885500401E+02	-3.62319632121E+01	1.27338386078E+02	-5.91721589159E+00	-3.17128020701E-01
3.20157352640E+05	-1.19547313807E+01	-7.95275358140E+01	7.83466675254E+00	-1.76568899844E+02	-3.52934914081E+01	6.42796181937E+00	-5.88230759430E+00	-1.66732446341E-01
3.20388768162E+05	-2.71999920388E+01	-9.26403592805E+01	7.82880010432E+00	-1.77673735041E+02	-3.88251048176E+01	-4.67060532423E+01	-5.83983424964E+00	-3.06983633606E-01
3.20620350955E+05	-2.84264622867E+01	-1.00523698823E+02	7.84887655959E+00	-1.78083851483E+02	-4.08284822713E+01	1.16596661883E+02	-5.90756073334E+00	2.44327122375E-02
3.20852101140E+05	-2.16596567549E+01	1.04647732661E+02	7.83165943539E+00	-1.78584932904E+02	-5.26429289528E+01	1.68665962986E+02	-5.90234982659E+00	-2.39836230650E-01
3.21084018839E+05	-2.19049281261E+01	-1.60682908868E+02	7.87916123903E+00	-1.78298834676E+02	-3.31665263421E+01	-1.64708055589E+02	-5.98959651900E+00	-3.56032491506E-01
3.21316104172E+05	-1.98815568267E+01	7.67039113186E+01	7.80289415903E+00	-1.78348318610E+02	-6.07746373009E+01	-1.76820967585E+02	-5.87487150925E+00	-1.85624182444E-01
3.21548357261E+05	-1.70089465817E+01	5.22753145981E+01	7.78878867844E+00	-1.78400392685E+02	-4.98725244322E+01	-1.72331023120E+02	-5.89625608543E+00	-3.39193083149E-01
3.21780778226E+05	-1.44744322501E+01	-1.29164955552E+01	7.71884289031E+00	-1.77584708367E+02	-4.93911175884E+01	9.22280352686E+01	-5.89818044561E+00	8.19770926250E-02
3.22013367189E+05	-2.06050560192E+01	1.67971027336E+02	7.90906819172E+00	-1.78278280450E+02	-3.86548320425E+01	1.20799442190E+02	-5.90749221549E+00	7.66413696056E-02
3.22246124272E+05	-2.86862045687E+01	-9.63029485702E+01	7.85023593415E+00	-1.77923725652E+02	-4.09229961059E+01	5.51914811963E+00	-5.85651207264E+00	-8.14898228078E-02
3.22479049596E+05	-1.75575420570E+01	4.55017939691E+01	7.81435813602E+00	-1.78049573009E+02	-4.13593656892E+01	-1.01821387190E+01	-5.88872052952E+00	-2.63872786221E-01
3.22712143282E+05	-2.34404496775E+01	-1.03174356588E+02	7.85208004515E+00	-1.77772291831E+02	-2.86453676621E+01	3.40937424719E+01	-5.74561871310E+00	1.89531382995E-01
3.22945405453E+05	-2.16466083520E+01	-2.81207556242E+01	7.82429643589E+00	-1.77781958419E+02	-3.39415162781E+01	1.03128977035E+02	-5.88761954038E+00	1.15541949708E-01
3.23178836230E+05	-1.86228274702E+01	-1.29305152736E+02	7.92970063155E+00	-1.77300064551E+02	-3.36264640278E+01	1.70210498771E+02	-5.94258553978E+00	-3.03581989441E-02
3.23412435735E+05	-1.82495959525E+01	-9.34417906296E+01	7.86627937977E+00	-1.77411031948E+02	-3.67426596284E+01	-4.15338554819E+01	-5.84126066174E+00	-7.76168320267E-01
3.23646204090E+05	-1.47078744616E+01	-1.15613676309E+02	7.85526417915E+00	-1.77476115249E+02	-4.77101656533E+01	-6.22271750150E+01	-5.90343904528E+00	-3.86639858892E-01
3.23880141417E+05	-2.54866468756E+01	-7.75893390325E+01	7.82169379667E+00	-1.77808999398E+02	-3.72450449699E+01	-1.28839950873E+02	-5.91487503994E+00	-1.77636808480E-01
3.24114247838E+05	-2.68202670193E+01	1.78471296582E+02	7.88230473689E+00	-1.77878309207E+02	-4.86544355648E+01	1.78170607103E+02	-5.91016852094E+00	-1.25942995710E-01
3.24348523475E+05	-2.94198147783E+01	6.15993827236E+01	7.85030653144E+00	-1.78192435397E+02	-4.03084030565E+01	-1.71958649422E+02	-5.90501381187E+00	-3.49044218829E-01
3.24582968451E+05	-2.02583091379E+01	-1.41042246210E+02	7.90510593855E+00	-1.78015545187E+02	-3.57105071586E+01	-1.29246832214E+02	-5.90355627114E+00	-5.32468794686E-01
3.24817582888E+05	-9.92476415735E+00	-1.38317338774E+02	8.05928828499E+00	-1.76876749476E+02	-4.81030811046E+01	-1.03548816011E+02	-5.86860084649E+00	-4.98431788214E-01
3.25052366909E+05	-2.82984472080E+01	7.16443499344E+01	7.80375248554E+00	-1.78098924878E+02	-4.51919150082E+01	1.59343510365E+02	-5.91694199489E+00	-3.20815660221E-01
3.25287320635E+05	-2.11792306946E+01	2.46831095932E+01	7.83461633035E+00	-1.78330390155E+02	-4.54333608970E+01	1.18051342997E+02	-5.87122989388E+00	-3.14040396246E-01
3.25522444191E+05	-1.32093006706E+01	1.69243558393E+02	7.96019047031E+00	-1.78030259844E+02	-4.74869643594E+01	1.20808206890E+02	-5.90054511546E+00	-1.48276684396E-01
3.25757737698E+05	-2.99720478206E+01	1.44994220266E+02	7.90389154621E+00	-1.77966046954E+02	-3.88901892077E+01	-7.61379144265E+00	-5.84073215390E+00	-4.64706148355E-01
3.25993201280E+05	-1.89749449957E+01	-1.43144673518E+02	7.84295725430E+00	-1.77772581836E+02	-3.31977936512E+01	-7.97304018755E+01	-5.89420708709E+00	-8.67664474438E-01
3.26228835058E+05	-2.06610032482E+01	1.47209804729E+02	7.89327727197E+00	-1.78318544861E+02	-3.74511410778E+01	1.19058177120E+02	-5.93834051964E+00	-3.15999477700E-03
