# Hz S DB R 50
! CMT, M5065, 19127446, 24.2.4/2
! Date: 11/1/2024 4:24:53 PM
! Data: Format (Calibration Info)
! Freq	S11:dB/Ang(F2)	S21:dB/Ang(F2)	S12:dB/Ang(F2)	S22:dB/Ang(F2)
3.00000000000E+05	-2.51054380920E+01	-6.04691102889E+01	7.02480655575E+00	-1.77424582426E+02	-4.14156315638E+01	1.45112745778E+02	-5.89324195953E+00	-1.08227215941E-01
3.00216845423E+05	-2.82871501644E+01	1.62249813706E+02	7.09847695331E+00	-1.77603490790E+02	-4.22204837559E+01	4.56037469176E+01	-5.86972026724E+00	1.38014534460E-01
3.00433847586E+05	-2.99285445416E+01	7.93909642333E+01	7.07071811908E+00	-1.77645529945E+02	-3.95150383495E+01	6.95964315650E+01	-5.87140220699E+00	7.74563797521E-02
3.00651006602E+05	-1.90653206818E+01	8.16049678891E+01	7.09878338492E+00	-1.77854833128E+02	-3.66403528241E+01	4.71980906964E+01	-5.86235523927E+00	1.57897108473E-01
3.00868322584E+05	-1.51337376112E+01	2.09429285946E+01	7.02707081932E+00	-1.77916086593E+02	-4.37348095709E+01	-1.60800757712E+02	-5.92804560730E+00	-4.25560634429E-01
3.01085795647E+05	-1.47691934901E+01	1.33514013764E+02	7.11501066729E+00	-1.78040014861E+02	-3.93261945324E+01	-1.40252409589E+02	-5.87319403217E+00	-4.47483114967E-01
3.01303425902E+05	-2.98482834199E+01	7.66967725024E+01	7.09553204137E+00	-1.77879136802E+02	-3.03551113845E+01	-1.10899750596E+02	-5.90920185723E+00	-8.27436871222E-01
3.01521213465E+05	-2.47990224491E+01	1.33832407881E+02	7.16354999128E+00	-1.78121440742E+02	-3.85134772674E+01	-7.83982783064E+01	-5.91589440467E+00	-4.37601450929E-01
3.01739158449E+05	-1.90419332226E+01	-1.44419948536E+02	7.09821129468E+00	-1.77349123087E+02	-3.78028101763E+01	-9.44537701166E+01	-5.87825659363E+00	-2.86618142208E-01
3.01957260967E+05	-2.51304184377E+01	1.25501222766E+02	7.06885796379E+00	-1.77742764161E+02	-3.41274571567E+01	-1.25111701885E+02	-5.89394232000E+00	-4.30138529741E-01
3.02175521134E+05	-1.31052460433E+01	1.41327805817E+02	7.22203741624E+00	-1.78134494855E+02	-4.14167739071E+01	6.72103136967E+01	-5.86145224545E+00	-2.93897883996E-01
3.02393939063E+05	-1.43405880015E+01	7.39499102166E+01	7.00569627602E+00	-1.78448348590E+02	-3.96818953932E+01	-6.93565780241E+00	-5.87752243729E+00	-3.23265465897E-01
3.02612514869E+05	-2.73089991233E+01	-1.04368841449E+02	7.14784964281E+00	-1.76958450519E+02	-4.74731219507E+01	-6.40592106566E+01	-5.88833499969E+00	-4.15735702544E-01
3.02831248665E+05	-3.42084793223E+01	1.08742045879E+02	7.06674855180E+00	-1.77880094345E+02	-3.22627012076E+01	-1.55026250948E+02	-5.92379196493E+00	-2.48894866237E-01
3.03050140565E+05	-3.78771202232E+01	-2.12622002845E+01	7.03876405148E+00	-1.78124627354E+02	-3.79153089384E+01	1.75563659147E+02	-5.89568384377E+00	-2.15643444997E-01
3.03269190685E+05	-1.82976269811E+01	1.25406144147E+02	7.05307274355E+00	-1.78134508136E+02	-4.28178417197E+01	-1.57934470394E+02	-5.91264296601E+00	-3.35648320518E-01
3.03488399138E+05	-2.53028754181E+01	1.60716969629E+02	7.09146152743E+00	-1.77857848051E+02	-3.50529032092E+01	-1.45064787709E+02	-5.89774229002E+00	-4.29247912480E-01
3.03707766039E+05	-1.62696205246E+01	1.40074056158E+02	7.15436194520E+00	-1.78196494387E+02	-4.49877571499E+01	-5.71327398953E+01	-5.84919788084E+00	-4.69285699062E-01
3.03927291503E+05	-1.53855572358E+01	7.93618201465E+01	7.09963977264E+00	-1.78929232177E+02	-3.76323650588E+01	5.15140830002E+01	-5.81690565965E+00	6.79813583542E-02
3.04146975643E+05	-1.41183283485E+01	1.31612727389E+02	7.12608590652E+00	-1.78571182014E+02	-4.01076694614E+01	9.21534147792E+01	-5.86872680063E+00	1.63964847266E-01
3.04366818575E+05	-1.77627570154E+01	1.18867664314E+02	7.17577316286E+00	-1.78112593714E+02	-3.30178981085E+01	-1.18670292976E+02	-5.92276768493E+00	-5.70172616690E-01
3.04586820414E+05	-1.79465677302E+01	-1.28562640645E+02	7.13468477429E+00	-1.77596154802E+02	-3.80651291059E+01	-8.72548128843E+01	-5.87422562253E+00	-4.45256710609E-01
3.04806981274E+05	-2.85190192418E+01	-4.25604250765E+01	7.06459950742E+00	-1.77383050107E+02	-4.10620829134E+01	1.19281494495E+02	-5.90855481522E+00	1.14176654332E-01
3.05027301270E+05	-3.34135751748E+01	1.29380319061E+02	7.06641082036E+00	-1.77889952810E+02	-4.14719124511E+01	7.32878792529E+01	-5.90013484791E+00	1.30699022106E-01
3.05247780517E+05	-1.00306419496E+01	-1.41892917130E+02	7.29588728788E+00	-1.76600952943E+02	-4.23621178207E+01	-1.70425032640E+02	-5.89985996458E+00	-2.98004701524E-01
3.05468419131E+05	-1.05495369243E+01	-1.18103179735E+02	7.21062933004E+00	-1.76497815349E+02	-5.36757998105E+01	5.83023012157E+01	-5.88441357998E+00	-3.82785565649E-01
3.05689217226E+05	-2.40752463309E+01	-3.46802331373E+01	7.05250566219E+00	-1.77439486362E+02	-4.16190306582E+01	-2.62392373550E+01	-5.86514595418E+00	-1.44637213633E-01
3.05910174918E+05	-2.52448600549E+01	2.10668425786E+01	7.03433255808E+00	-1.77802703056E+02	-3.54756216923E+01	-3.33480066717E+01	-5.84453262094E+00	-5.54081451184E-01
3.06131292322E+05	-1.94927704339E+01	3.68853161343E+01	7.02134890763E+00	-1.78400059153E+02	-3.78620971795E+01	-5.35034362344E+01	-5.88803517797E+00	-5.18043626250E-01
3.06352569554E+05	-1.91389023125E+01	1.12610150781E+02	7.07146705481E+00	-1.77788236713E+02	-3.50318022850E+01	1.87040464640E+01	-5.82483451704E+00	-1.57890589796E-01
3.06574006730E+05	-1.81629408003E+01	-1.39618246216E+02	7.19625327714E+00	-1.77440515341E+02	-3.58368985845E+01	7.55048606891E+01	-5.88426860980E+00	1.49559359943E-02
3.06795603964E+05	-8.75148764128E+00	-4.18418331315E+01	6.87179610249E+00	-1.76542715196E+02	-3.90950486467E+01	1.79765504654E+02	-5.93235328069E+00	-4.32413874916E-01
3.07017361372E+05	-7.49133501365E+00	1.26804339367E+02	7.33733218572E+00	-1.79608721546E+02	-4.80094732983E+01	-5.58133436630E+01	-5.84455951190E+00	-2.56949879094E-01
3.07239279071E+05	-2.18528472337E+01	-7.58840531699E+01	6.95993467067E+00	-1.77559305624E+02	-4.16771241776E+01	1.40421292425E+01	-5.86471976495E+00	-2.76081584627E-01
3.07461357176E+05	-3.49336355676E+01	9.57339418755E+01	7.11949477402E+00	-1.78015171981E+02	-3.36855587631E+01	1.36478783905E+02	-5.92000813947E+00	-1.67007833099E-02
3.07683595803E+05	-1.48137236143E+01	7.11772505078E+01	7.05183157480E+00	-1.78458574210E+02	-3.70461290483E+01	-1.15207273708E+02	-5.90323052652E+00	-5.39081917386E-01
3.07905995068E+05	-2.41613471320E+01	-3.46160540664E+01	7.00898486908E+00	-1.77736120557E+02	-4.14074164790E+01	4.04599621635E+01	-5.87290338009E+00	-2.29988885232E-01
3.08128555087E+05	-2.53991718264E+01	3.55951672750E+01	7.09423456070E+00	-1.77927790754E+02	-4.30743535730E+01	2.31992877773E+01	-5.88902047902E+00	4.15030607420E-02
3.08351275976E+05	-1.28885345864E+01	1.49411911092E+02	7.29426032461E+00	-1.78223480559E+02	-4.08936996655E+01	6.70433832523E+01	-5.87416184656E+00	-4.48893980715E-03
3.08574157853E+05	-2.21932713771E+01	5.10314534389E+01	7.05662167952E+00	-1.78153773984E+02	-3.54207548340E+01	-6.14949891472E+01	-5.91536658372E+00	-4.77977688379E-01
3.08797200832E+05	-2.07638609884E+01	2.19209762598E+01	7.06226574949E+00	-1.77667909209E+02	-4.09126248403E+01	1.09113002325E+02	-5.88387598428E+00	6.39834297124E-03
3.09020405031E+05	-1.94166811262E+01	2.58846894136E+01	7.00571156971E+00	-1.77917256895E+02	-4.01414156221E+01	1.42626378184E+02	-5.92293609099E+00	-1.92063827291E-01
3.09243770566E+05	-2.52120847958E+01	-1.74315012563E+02	7.11416766511E+00	-1.77838620512E+02	-4.73063954998E+01	6.86371582483E+01	-5.88382738939E+00	-5.79297604480E-01
3.09467297553E+05	-2.91255376162E+01	6.10835335456E+01	7.05389795198E+00	-1.77512527634E+02	-3.85971922556E+01	-6.07715817389E+01	-5.84678259516E+00	-3.18518278535E-01
3.09690986110E+05	-2.03705466729E+01	3.66810970335E+01	6.99936676518E+00	-1.77996803499E+02	-4.50541754004E+01	6.53053884252E+01	-5.89222041710E+00	7.83656908518E-03
3.09914836353E+05	-2.93325497870E+01	-1.60005069863E+02	7.10882718609E+00	-1.77562913942E+02	-4.66297917065E+01	4.10650507981E+01	-5.87164148609E+00	-8.68728186690E-02
3.10138848399E+05	-1.65454999680E+01	5.57784069325E+00	6.98754877411E+00	-1.78247600537E+02	-5.90948330695E+01	1.24234903882E+02	-5.91011796812E+00	-2.40476608407E-01
3.10363022365E+05	-2.42256912748E+01	-1.26620476008E+02	7.06226231185E+00	-1.77249002962E+02	-3.76599912213E+01	-8.25630341669E+01	-5.87380798799E+00	-4.03045018433E-01
3.10587358368E+05	-1.96624083103E+01	-1.41941269676E+02	7.13729763567E+00	-1.77809660036E+02	-3.83941678037E+01	9.44578729995E+01	-5.93728196021E+00	-4.32011076237E-02
3.10811856525E+05	-2.57049232755E+01	4.53246126580E+01	7.05958834524E+00	-1.77947644872E+02	-3.48499260889E+01	-6.10000545413E+00	-5.85372948167E+00	-1.79487508992E-01
3.11036516954E+05	-1.87194371470E+01	-2.20092505499E+01	7.05729897090E+00	-1.77514771602E+02	-4.41290727098E+01	6.83787024063E+01	-5.90039427137E+00	-2.16527138639E-01
3.11261339771E+05	-2.00044844851E+01	2.04638576084E+01	6.98785396581E+00	-1.77880499336E+02	-4.03815543173E+01	1.35821329381E+02	-5.90573143980E+00	5.86810244484E-02
3.11486325094E+05	-1.99112674703E+01	-1.40047866019E+01	7.07250377986E+00	-1.77532826532E+02	-3.98302681919E+01	9.44988963378E+01	-5.89777632914E+00	-4.56871929383E-02
3.11711473040E+05	-2.97602238456E+01	1.33188980806E+02	7.13395113360E+00	-1.77518843645E+02	-3.68505105722E+01	-8.81561427927E+01	-5.86609363873E+00	-5.36698759125E-01
3.11936783728E+05	-2.81436883779E+01	1.72832198114E+02	7.13364341245E+00	-1.77500280401E+02	-3.57404811433E+01	-1.50253033989E+02	-5.93866692918E+00	-3.70658006372E-01
3.12162257274E+05	-3.00586107379E+01	-1.42044505609E+02	7.06197838918E+00	-1.78149037278E+02	-4.19764293792E+01	-1.65182073864E+02	-5.93679787250E+00	-3.90692957328E-01
3.12387893797E+05	-1.56839288813E+01	-8.94104705364E+01	7.04939503015E+00	-1.77450316010E+02	-3.47398357248E+01	-1.73071629440E+02	-5.94608971479E+00	-2.15069759053E-01
3.12613693413E+05	-1.85934478919E+01	1.57272620517E+02	7.05048733513E+00	-1.77791763032E+02	-3.29888242838E+01	-1.39622429960E+02	-5.93917506868E+00	-4.74930407636E-01
3.12839656242E+05	-2.00118662949E+01	-1.20415936428E+02	7.14192716523E+00	-1.77997128505E+02	-4.25647697653E+01	-1.61369180584E+02	-5.94552052846E+00	-3.85919563173E-01
3.13065782401E+05	-1.49376278458E+01	5.90912239160E+01	7.06808648434E+00	-1.78764189955E+02	-4.89834003389E+01	3.05396931756E+01	-5.90449965781E+00	-1.63114671730E-01
3.13292072007E+05	-1.24267061697E+01	3.07928885414E+01	6.87287040877E+00	-1.78512822625E+02	-4.93967133443E+01	-8.53918003778E+01	-5.86334716504E+00	-3.21901402597E-01
3.13518525180E+05	-2.27537299805E+01	-8.60122325811E+01	7.09221450916E+00	-1.77558373515E+02	-4.14821009844E+01	-7.36071495168E+01	-5.86840566673E+00	-2.82710246592E-01
3.13745142038E+05	-1.66064751507E+01	5.81893826892E+01	7.03506360985E+00	-1.77813097625E+02	-3.25302998959E+01	7.07654696378E+01	-5.87934579461E+00	-4.84199860155E-03
3.13971922698E+05	-3.64101245449E+01	1.65408907917E+02	7.13602041076E+00	-1.77866683628E+02	-2.98025233662E+01	3.98455061578E+01	-5.80449027222E+00	3.26891494086E-01
3.14198867279E+05	-1.82661215591E+01	1.65345987233E+02	7.13502527775E+00	-1.78065884366E+02	-5.41105643158E+01	-1.33795172437E+02	-5.88424629059E+00	-1.97799774543E-01
3.14425975900E+05	-1.60020200008E+01	1.08861438889E+02	7.12291873454E+00	-1.78210287987E+02	-3.67743630190E+01	-2.45437701950E+01	-5.86260478709E+00	-3.20573685919E-01
3.14653248680E+05	-3.17827512383E+01	-1.63942302180E+02	7.07940562830E+00	-1.77716344118E+02	-3.57479360595E+01	-6.15136159057E+01	-5.88997373116E+00	-4.90837340830E-01
3.14880685736E+05	-1.07776996387E+01	1.29685212994E+02	7.16576018819E+00	-1.78817729271E+02	-3.82087158949E+01	1.28033059463E+02	-5.91528183234E+00	-1.05063229832E-01
3.15108287188E+05	-1.65114515186E+01	-1.18137609376E+02	7.12690738530E+00	-1.77689252332E+02	-5.26693542024E+01	-9.36627573133E+01	-5.90355111835E+00	-3.78279817307E-01
3.15336053154E+05	-2.26233608154E+01	4.20953438482E+01	7.03283487111E+00	-1.77864892796E+02	-3.58514043897E+01	6.41407316866E+01	-5.88578589602E+00	1.78733396188E-01
3.15563983753E+05	-3.12888353386E+01	5.82884452660E+01	7.04231925566E+00	-1.78059853255E+02	-3.93856544600E+01	9.58241984774E-01	-5.87800116947E+00	-2.97057300556E-01
3.15792079105E+05	-2.39636028757E+01	-9.66612760348E+01	7.04647385417E+00	-1.77083675253E+02	-4.44264614973E+01	1.07741692372E+02	-5.86221206197E+00	-3.65634849777E-01
3.16020339328E+05	-2.65079511671E+01	-1.25759882299E+02	7.06070731031E+00	-1.77938772339E+02	-3.82159752431E+01	6.12480204200E+01	-5.87830165337E+00	-2.31141005558E-01
3.16248764542E+05	-1.75816141762E+01	-1.59813898864E+02	7.12627746934E+00	-1.77367041242E+02	-3.91837221684E+01	6.25285974275E+01	-5.91099120592E+00	-8.21461102836E-02
3.16477354866E+05	-1.91433582654E+01	-1.39224099909E+02	7.17442902161E+00	-1.77612082727E+02	-4.61365234197E+01	1.16965301908E+02	-5.89036490568E+00	-3.01233795205E-01
3.16706110419E+05	-2.41221893142E+01	1.69605170794E+02	7.09943824000E+00	-1.78124989698E+02	-3.73335521539E+01	1.33202078030E+02	-5.92943311188E+00	-1.23222309970E-01
3.16935031321E+05	-1.54832756832E+01	1.10240892296E+02	7.13944137333E+00	-1.77902241571E+02	-3.77519549786E+01	1.62455058807E+02	-5.89605227783E+00	-7.89175060615E-03
3.17164117691E+05	-1.93522632862E+01	7.48771789604E+01	7.03080259707E+00	-1.78390212816E+02	-2.88981711924E+01	-1.00621601943E+02	-5.91904868261E+00	-7.31920489567E-01
3.17393369648E+05	-2.61879857160E+01	9.81755952860E+01	7.11801813677E+00	-1.77808563396E+02	-4.30273770543E+01	-1.71210380915E+02	-5.91018283849E+00	-3.55609967805E-01
3.17622787313E+05	-2.25334700052E+01	-5.61361488551E+01	7.01544027540E+00	-1.77547142858E+02	-4.29612826450E+01	8.65439178507E+01	-5.87126517676E+00	-2.38494374782E-01
3.17852370806E+05	-3.06083801801E+01	-1.68121667184E+02	7.14984146580E+00	-1.77443602392E+02	-4.07180149273E+01	1.55800272877E+02	-5.91587037439E+00	-2.01855502465E-01
3.18082120245E+05	-1.04680962317E+01	9.46602811671E+01	7.06757041497E+00	-1.79020427344E+02	-3.71294215834E+01	-1.77648313421E+02	-5.92278637742E+00	-2.69139806049E-01
3.18312035752E+05	-2.68328632025E+01	4.43641194356E+01	7.11597320178E+00	-1.77447155820E+02	-3.67866228862E+01	1.13316055044E+01	-5.83194755519E+00	-1.21041060810E-01
3.18542117445E+05	-1.67866066827E+01	1.65772042550E+01	6.98260416754E+00	-1.78379437255E+02	-4.54476851455E+01	4.03814694874E+01	-5.86639440524E+00	-1.39830722217E-01
3.18772365446E+05	-1.92295509969E+01	1.77369987136E+02	7.12134209361E+00	-1.78080120998E+02	-3.20663955932E+01	1.22100708413E+02	-5.93078392809E+00	5.71933421274E-01
3.19002779874E+05	-2.25844447808E+01	1.66473988713E+02	7.05687353065E+00	-1.78338326510E+02	-3.98245540056E+01	-1.58095974332E+02	-5.89415165808E+00	-1.49482918337E-01
3.19233360850E+05	-2.64093643321E+01	1.64404573868E+02	7.13603574529E+00	-1.78238185768E+02	-3.51654992386E+01	-1.60537266973E+02	-5.91380914652E+00	-3.92324652054E-01
3.19464108494E+05	-1.82726620547E+01	-1.26392433742E+02	7.08560970241E+00	-1.77501898997E+02	-3.97518026799E+01	1.79819722907E+02	-5.92113220514E+00	-4.24750558622E-01
3.19695022927E+05	-2.06040045238E+01	4.36916251165E+01	6.99967348464E+00	-1.77748530709E+02	-3.96567773309E+01	-9.18584301213E+01	-5.91077831098E+00	-6.38489907817E-01
3.19926104268E+05	-1.49811193922E+01	1.06537615133E+02	7.16003035499E+00	-1.78635781142E+02	-4.27966949766E+01	-8.28364552740E+01	-5.85593703281E+00	-2.71527240285E-01
3.20157352640E+05	-1.85449060993E+01	1.65708791289E+02	7.11008734810E+00	-1.78068192700E+02	-4.22444024492E+01	7.42937998312E+00	-5.87483268671E+00	-1.56966183763E-01
3.20388768162E+05	-3.16693860512E+01	-2.74130703532E+01	7.00518176587E+00	-1.77982761871E+02	-3.16782155323E+01	-5.81897433729E-01	-5.80021681192E+00	1.12651699700E-02
3.20620350955E+05	-2.02274030278E+01	-9.71653687363E+01	7.02962033016E+00	-1.77858367498E+02	-5.07756389843E+01	1.14197831702E+02	-5.88909289843E+00	-3.09084844901E-01
3.20852101140E+05	-1.83502026562E+01	-1.51280688392E+02	7.13068995711E+00	-1.78131656389E+02	-3.05857187401E+01	-6.19031501510E+01	-5.90267499403E+00	-5.94498174246E-01
3.21084018839E+05	-2.11101791890E+01	-1.79374311512E+02	7.10132466030E+00	-1.77683848725E+02	-4.28128736463E+01	6.85837376655E+01	-5.85907375696E+00	-1.10510703321E-01
3.21316104172E+05	-1.75101413336E+01	3.00381037404E+01	6.99489057177E+00	-1.78041084133E+02	-3.64325448803E+01	9.60927064945E+01	-5.91075660121E+00	6.19615224299E-03
3.21548357261E+05	-1.52324830314E+01	9.12946519331E+01	7.07407680302E+00	-1.78678815032E+02	-4.21843259026E+01	-3.10193805387E+01	-5.87195371468E+00	-3.81408012309E-01
3.21780778226E+05	-1.32304037660E+01	-4.45935186807E+01	6.96297760657E+00	-1.77298916792E+02	-3.41412957362E+01	-1.14761123740E+02	-5.88183662278E+00	-6.05125341037E-01
3.22013367189E+05	-1.50148008513E+01	4.67866814136E+01	7.01098691993E+00	-1.78231077734E+02	-3.26956960605E+01	1.22587555407E+02	-5.93217498930E+00	2.00007664829E-01
3.22246124272E+05	-2.01387038545E+01	-5.29265331323E+01	7.03502384524E+00	-1.77844234950E+02	-4.36236863316E+01	1.30392482603E+02	-5.89037692019E+00	-2.30485251949E-01
3.22479049596E+05	-2.62452972350E+01	-1.32358299624E+02	7.09600546212E+00	-1.77727347594E+02	-4.04447467625E+01	1.52394729490E+02	-5.92267988708E+00	-8.34901837570E-02
3.22712143282E+05	-2.53838592749E+01	-7.11573319998E+01	7.09586273088E+00	-1.78108378523E+02	-4.13458394121E+01	5.27279690602E+01	-5.88822683226E+00	-1.00637695463E-01
3.22945405453E+05	-2.34174601619E+01	1.49166663169E+02	7.15894546968E+00	-1.78338317448E+02	-4.16205268407E+01	-1.41485111879E+02	-5.93990311914E+00	-4.87467789422E-01
3.23178836230E+05	-2.71519959314E+01	5.18735829261E-01	7.03149095829E+00	-1.77732459588E+02	-3.98801880451E+01	-1.59269930882E+02	-5.90671668444E+00	-4.00756338403E-01
3.23412435735E+05	-1.84917313989E+01	1.75915792679E+02	7.12111647058E+00	-1.78583661827E+02	-3.31263946275E+01	-1.44933823766E+02	-5.96376987169E+00	-4.41988301495E-01
3.23646204090E+05	-1.55552582796E+01	6.02111420351E+01	6.98757221764E+00	-1.78396855809E+02	-3.00302664566E+01	-2.02401874036E+01	-5.77860041348E+00	-3.51822508481E-01
3.23880141417E+05	-2.29576549031E+01	6.68577685787E+01	7.12949092765E+00	-1.77843351688E+02	-3.76382170324E+01	-1.32567076820E+02	-5.90390908344E+00	-5.40699654919E-01
3.24114247838E+05	-2.91497536885E+01	1.47219085461E+02	7.07619599206E+00	-1.77901629530E+02	-3.85363832122E+01	3.20438770934E+01	-5.85458650994E+00	-2.81274716498E-01
3.24348523475E+05	-1.75358988344E+01	4.57029709915E+01	6.99148407788E+00	-1.78341831956E+02	-5.40310837105E+01	-8.82298647565E+01	-5.91801607430E+00	-4.40730489178E-01
3.24582968451E+05	-1.40927412668E+01	1.20903784312E+02	7.14757344103E+00	-1.78784380933E+02	-4.47870633597E+01	1.43681815487E+02	-5.89601643486E+00	-2.98753064621E-01
3.24817582888E+05	-3.84392610899E+01	1.32841531616E+02	7.06456682488E+00	-1.78313809427E+02	-3.25696449696E+01	-9.06142598477E+01	-5.88843741968E+00	-6.54940313901E-01
3.25052366909E+05	-1.98024730287E+01	1.34284928630E+02	7.10235329857E+00	-1.78550582962E+02	-3.52648734846E+01	-1.59426245974E+00	-5.83173319831E+00	-1.17721768868E-01
3.25287320635E+05	-1.87903464356E+01	6.02059660887E+01	7.06449085816E+00	-1.78350164346E+02	-3.44695683561E+01	6.16421940271E+01	-5.89366448721E+00	1.99676159627E-01
3.25522444191E+05	-1.87313758466E+01	3.74682367300E+01	7.01826505148E+00	-1.78143614184E+02	-3.90754521984E+01	-2.66066724616E+01	-5.83343434058E+00	-2.09499902691E-01
3.25757737698E+05	-1.84904087340E+01	1.36833674846E+02	7.15847135556E+00	-1.78000146742E+02	-3.74514546198E+01	-7.97347570968E+01	-5.86540593734E+00	-7.17943218092E-01
3.25993201280E+05	-2.46381169353E+01	4.72785783808E+01	7.01579489142E+00	-1.78330283499E+02	-4.22277410555E+01	6.39795821214E-02	-5.83201014622E+00	-4.81443820051E-01
3.26228835058E+05	-2.22293152871E+01	7.38664047490E+00	7.02896751645E+00	-1.78105621824E+02	-3.47803495200E+01	-5.65204457591E+01	-5.88153159272E+00	-6.09567136952E-01
