# Hz S DB R 50
! CMT, M5065, 19127446, 24.2.4/2
! Date: 11/1/2024 4:38:01 PM
! Data: Format (Calibration Info)
! Freq	S11:dB/Ang(F2)	S21:dB/Ang(F2)	S12:dB/Ang(F2)	S22:dB/Ang(F2)
3.00000000000E+05	-1.68591245540E+01	-7.99959584525E+01	1.24853783714E+01	-1.76540075373E+02	-3.21478265177E+01	1.35956640109E+01	-5.78159752735E+00	7.28363774464E-02
3.00216845423E+05	-3.01864106362E+01	-5.63350872559E+01	1.25014726486E+01	-1.77144605167E+02	-4.48279061977E+01	-3.28260012672E+01	-5.87985925750E+00	-5.16543401205E-01
3.00433847586E+05	-2.14792023906E+01	1.79607687126E+01	1.24917816527E+01	-1.77261928082E+02	-3.86072012858E+01	1.22740312772E+01	-5.79189102533E+00	-4.95552548097E-02
3.00651006602E+05	-2.79498074595E+01	-1.51314905303E+02	1.25537982155E+01	-1.77165317236E+02	-4.59629347603E+01	1.91598179391E+01	-5.88018383101E+00	-3.34448978741E-01
3.00868322584E+05	-1.53140387290E+01	-1.24094134510E+02	1.25659807946E+01	-1.76686708723E+02	-3.23672811667E+01	1.76077361959E+01	-5.74082083799E+00	-9.85513705734E-02
3.01085795647E+05	-1.53443118179E+01	1.17905093858E+02	1.25476612190E+01	-1.77901300494E+02	-4.54120945032E+01	-6.69179340884E+01	-5.93493827403E+00	-1.81884956696E-01
3.01303425902E+05	-1.38670155009E+01	-3.09515808692E+01	1.23715861114E+01	-1.76669165401E+02	-4.70714694588E+01	-1.61930610335E+02	-5.90020145496E+00	-3.51706043951E-01
3.01521213465E+05	-2.18560698615E+01	5.82765147354E+00	1.24494042442E+01	-1.77051118449E+02	-3.94807290931E+01	-9.92409161597E+01	-5.88214202943E+00	-4.70828547389E-01
3.01739158449E+05	-1.30715118208E+01	-1.73350860607E+02	1.26361948353E+01	-1.77164043961E+02	-4.71840492375E+01	1.40056206338E+02	-5.92661089417E+00	-2.83366507618E-01
3.01957260967E+05	-1.69447612706E+01	4.89151443512E+01	1.24445808337E+01	-1.78060656995E+02	-4.68022311505E+01	-1.43211189787E+02	-5.90297065773E+00	-5.50388433167E-01
3.02175521134E+05	-1.55856302238E+01	-1.05797060611E+02	1.25402962894E+01	-1.76986223625E+02	-4.45679133677E+01	3.32985639242E+01	-5.85626855433E+00	-5.07762862459E-02
3.02393939063E+05	-1.27820416178E+01	1.43446332083E+02	1.26043488794E+01	-1.77589931985E+02	-3.21963150856E+01	1.62015578496E+02	-5.99735304074E+00	3.49146316274E-01
3.02612514869E+05	-1.85726463221E+01	-6.71253154725E+01	1.24611839209E+01	-1.76790216340E+02	-3.06148636209E+01	-7.10163115399E+01	-5.82438373311E+00	-1.09832945709E+00
3.02831248665E+05	-7.40000768170E+00	5.50929015096E+01	1.22888777110E+01	-1.78797467841E+02	-3.80836815073E+01	-1.03134456358E+02	-5.90779905781E+00	-7.72584642825E-01
3.03050140565E+05	-2.16176662457E+01	1.56963988158E+02	1.25085069737E+01	-1.77261667140E+02	-4.08578836468E+01	-9.89959834174E+01	-5.90558501196E+00	-4.76336561128E-01
3.03269190685E+05	-1.58495227578E+01	1.26649305863E+02	1.25295835125E+01	-1.77938031173E+02	-4.33873584859E+01	-1.57164937092E+02	-5.91701667071E+00	-1.28773178431E-01
3.03488399138E+05	-2.39407004990E+01	-1.54906492939E+02	1.25483525842E+01	-1.77535524984E+02	-3.68360264934E+01	1.27894822711E+02	-5.92805678022E+00	-9.49420259699E-02
3.03707766039E+05	-2.34733295695E+01	1.72706278286E+02	1.25121592210E+01	-1.77595754503E+02	-4.22505057436E+01	4.21550817248E+01	-5.83384317116E+00	-1.65081515957E-01
3.03927291503E+05	-1.72933689951E+01	-1.43695046490E+02	1.25645440025E+01	-1.77044598205E+02	-3.93762359410E+01	-1.76314499728E+01	-5.80319730207E+00	-2.32134369983E-01
3.04146975643E+05	-1.92757727436E+01	-1.10492034183E+02	1.25497933293E+01	-1.77084227989E+02	-4.18735271982E+01	6.07314838604E+01	-5.90331554053E+00	-1.96419237231E-01
3.04366818575E+05	-2.02565139563E+01	5.58211620149E+01	1.24194009307E+01	-1.77706024845E+02	-4.53162559601E+01	-4.84346610974E+01	-5.89014436892E+00	-2.04642756167E-01
3.04586820414E+05	-1.56773279125E+01	-7.27868163566E+00	1.23980244184E+01	-1.77537986745E+02	-5.28413662628E+01	2.08840101829E+01	-5.91257467109E+00	-3.58107478452E-01
3.04806981274E+05	-2.81164479314E+01	9.17635964360E+01	1.24921089065E+01	-1.77513621426E+02	-3.69036393314E+01	1.27584561077E+02	-5.94006430120E+00	-4.23170388351E-02
3.05027301270E+05	-2.23865793496E+01	8.20064980383E+00	1.24111934077E+01	-1.77311303445E+02	-4.26531351980E+01	-5.35733102663E+01	-5.81397009928E+00	-3.55193924805E-01
3.05247780517E+05	-1.94799507196E+01	-3.09808605913E+01	1.24241743082E+01	-1.77467449574E+02	-5.60329057489E+01	-5.68247984884E+01	-5.92397894594E+00	-2.09103604939E-01
3.05468419131E+05	-2.10162249540E+01	-9.23855930223E+01	1.25558419344E+01	-1.77120541696E+02	-2.90056785998E+01	-1.56461127638E+02	-6.12673607617E+00	-1.05567262597E+00
3.05689217226E+05	-2.47090190263E+01	-1.27489626778E+02	1.25329193400E+01	-1.77102148669E+02	-3.60638110700E+01	1.75202420766E+02	-5.95256010113E+00	-1.52624417878E-01
3.05910174918E+05	-1.43064050037E+01	1.47997708575E+02	1.25644454214E+01	-1.78203782591E+02	-4.95379359490E+01	6.66376730488E+01	-5.87436193165E+00	-4.15435946343E-01
3.06131292322E+05	-1.82645018763E+01	-1.62443048503E+02	1.26262135342E+01	-1.77198965577E+02	-4.84444390907E+01	1.00138675337E+01	-5.84987308269E+00	-4.53489752478E-01
3.06352569554E+05	-1.65256245161E+01	1.19994416097E+02	1.24918664997E+01	-1.78031743570E+02	-3.77687716140E+01	-3.25399780587E+01	-5.86121621359E+00	-4.59619690679E-01
3.06574006730E+05	-2.59788280545E+01	-1.03654777034E+02	1.24945942302E+01	-1.77101448763E+02	-4.30234331427E+01	-1.09286438275E+02	-5.89197252130E+00	-3.38528152392E-01
3.06795603964E+05	-2.34758723575E+01	1.58596113417E+02	1.25193493590E+01	-1.77301084114E+02	-4.24189872416E+01	1.16483520216E+02	-5.88306939966E+00	1.74225127500E-02
3.07017361372E+05	-1.98948384873E+01	-1.02081100693E+02	1.25075977719E+01	-1.77003289964E+02	-2.92164456059E+01	-6.52399915969E+01	-5.79983735020E+00	-1.67712104774E+00
3.07239279071E+05	-2.30733292692E+01	-9.39911054166E+01	1.25633655586E+01	-1.77091327370E+02	-4.29609501980E+01	1.72512849740E+02	-5.96628353168E+00	-1.82249024280E-01
3.07461357176E+05	-1.44780481021E+01	-3.09765218029E+01	1.23800662860E+01	-1.77050058812E+02	-4.34164825368E+01	6.14530811162E+01	-5.88265182978E+00	-2.43309084604E-01
3.07683595803E+05	-1.41521058086E+01	-5.48521434182E+01	1.24315807365E+01	-1.76362224241E+02	-3.77941903621E+01	-9.91309220822E+01	-5.89702906262E+00	-5.47304114830E-01
3.07905995068E+05	-2.44992011892E+01	1.38185103927E+02	1.25102654586E+01	-1.77671769034E+02	-3.72362076522E+01	-1.73049502219E+02	-5.92588941335E+00	-1.48194311811E-01
3.08128555087E+05	-2.47499916689E+01	1.19029385259E+02	1.25235315004E+01	-1.77726523223E+02	-5.03256010492E+01	1.69814434680E+02	-5.90838099207E+00	-2.77087893645E-01
3.08351275976E+05	-2.16994719917E+01	-7.40632016770E+01	1.25360500884E+01	-1.77179964878E+02	-3.87821654550E+01	-1.92691462619E+01	-5.80698980839E+00	-3.65439623879E-01
3.08574157853E+05	-1.72395350278E+01	1.21465645173E+02	1.25563911007E+01	-1.77737186546E+02	-3.43399410489E+01	9.28673079582E+01	-5.88344700481E+00	5.74584989577E-01
3.08797200832E+05	-2.71796199979E+01	1.11776298745E+02	1.25258538701E+01	-1.77438753988E+02	-3.49145633770E+01	1.10549610014E+02	-5.89803950355E+00	6.67993983151E-01
3.09020405031E+05	-3.33114779425E+01	-7.92772578545E+01	1.25137516031E+01	-1.77311907645E+02	-4.09877713753E+01	-9.86979880046E+01	-5.87254218242E+00	-4.97537159484E-01
3.09243770566E+05	-2.57865230086E+01	1.07446046680E+02	1.25129885573E+01	-1.77820355489E+02	-4.48628694447E+01	1.07512971332E+02	-5.89141816164E+00	4.41749512185E-02
3.09467297553E+05	-2.08053429496E+01	-9.20558259303E+01	1.24966618312E+01	-1.77480787689E+02	-4.56868250969E+01	-1.69939980503E+02	-5.89734270797E+00	1.57345108531E-01
3.09690986110E+05	-1.88546938465E+01	1.53779463895E+02	1.25625939359E+01	-1.77698623948E+02	-4.82614974757E+01	-7.91702998871E+01	-5.88477050696E+00	-2.67464303984E-01
3.09914836353E+05	-3.61057058826E+01	-1.73758610109E+02	1.24984642817E+01	-1.77485819643E+02	-4.32301785902E+01	1.31194289829E+02	-5.89385641138E+00	-2.74876684418E-01
3.10138848399E+05	-2.56682981069E+01	-1.14224123770E+02	1.24836243027E+01	-1.77369752406E+02	-3.95869192131E+01	-8.51140961705E+01	-5.90599379772E+00	-6.00074241676E-01
3.10363022365E+05	-2.20418924465E+01	1.19563623222E+02	1.25208873569E+01	-1.77961526764E+02	-2.83293663419E+01	-1.66620162660E+02	-6.14079869716E+00	-8.82857182107E-01
3.10587358368E+05	-2.44515889554E+01	-1.12106384743E+02	1.25202112024E+01	-1.77213915016E+02	-3.49874496678E+01	-6.53124530910E+01	-5.83829687076E+00	-8.04958343573E-01
3.10811856525E+05	-2.23985723083E+01	1.57575040803E+02	1.25590801215E+01	-1.78015764274E+02	-4.90948536766E+01	-1.30880128273E+02	-5.88969043779E+00	-3.16322135555E-01
3.11036516954E+05	-2.27627711820E+01	-1.60967306062E+02	1.25249947143E+01	-1.77680415612E+02	-3.44236612422E+01	1.34496927007E+02	-5.95486958679E+00	-5.18143930954E-02
3.11261339771E+05	-2.02576949181E+01	5.14244555797E+01	1.24823936570E+01	-1.77601896612E+02	-3.55337958363E+01	2.68349867690E+01	-5.80450204605E+00	2.23406278227E-01
3.11486325094E+05	-1.87371424668E+01	-1.12942630036E+02	1.25188055655E+01	-1.77130877388E+02	-4.11227212774E+01	-1.34735896505E+02	-5.89360832306E+00	-7.14975907324E-01
3.11711473040E+05	-2.28254898852E+01	1.33226824300E+02	1.25547784704E+01	-1.77800714327E+02	-3.17014079518E+01	-2.47186197294E+00	-5.75001361945E+00	-3.52089862695E-01
3.11936783728E+05	-2.06841455345E+01	1.67403209153E+02	1.26169156522E+01	-1.77584799574E+02	-3.66407897317E+01	-9.08561489474E+00	-5.80127969998E+00	-2.32320247165E-01
3.12162257274E+05	-2.10858430833E+01	-7.71615509185E+01	1.24714527475E+01	-1.77130862686E+02	-4.40541641953E+01	3.61344631485E+01	-5.88826159208E+00	-4.82742726980E-01
3.12387893797E+05	-1.06260998815E+01	-1.35573449800E+02	1.26540307598E+01	-1.76561049261E+02	-4.14318248461E+01	-1.46490559203E+02	-5.88949363653E+00	-4.76001612774E-01
3.12613693413E+05	-2.23390429989E+01	-1.56992958831E+02	1.25912583326E+01	-1.77234036868E+02	-3.66494830375E+01	-1.21246078074E+02	-5.92486853250E+00	-7.19411320926E-01
3.12839656242E+05	-2.15592561067E+01	-1.63842842986E+02	1.25227461786E+01	-1.77503849383E+02	-3.60977654828E+01	3.25565036911E-01	-5.85983002319E+00	-2.43522057533E-01
3.13065782401E+05	-1.65591332981E+01	-9.01876681797E+01	1.25105631017E+01	-1.77047929393E+02	-3.67842677843E+01	-8.13994419366E+01	-5.89009055788E+00	-7.78807800277E-01
3.13292072007E+05	-1.90439831188E+01	1.29234734916E+02	1.25428370848E+01	-1.77712525545E+02	-3.68945232685E+01	-7.13031058436E+01	-5.85136772836E+00	-9.25348804141E-01
3.13518525180E+05	-2.85463770887E+01	5.64563162629E+01	1.25071287409E+01	-1.77326729369E+02	-4.01372090878E+01	4.62136833932E+01	-5.86600072486E+00	3.35457880142E-01
3.13745142038E+05	-1.58207293434E+01	3.65572885352E+01	1.24217521808E+01	-1.77920918858E+02	-4.23388356662E+01	1.22677431764E+02	-5.87745185216E+00	-4.68589757178E-02
3.13971922698E+05	-1.01336852833E+01	-1.40536998991E+02	1.26925997240E+01	-1.76646628994E+02	-4.53584678076E+01	-7.68188365086E+01	-5.86536600912E+00	-6.98708780841E-01
3.14198867279E+05	-3.18338943464E+01	-1.43638228479E+02	1.25091218564E+01	-1.77591724382E+02	-4.49343938120E+01	-1.46207722625E+02	-5.91671711517E+00	-4.19660801682E-01
3.14425975900E+05	-1.44495748081E+01	-7.31038915368E+01	1.24666376096E+01	-1.76801291741E+02	-3.94411116019E+01	9.39466871340E+01	-5.92610494193E+00	-2.08907252629E-02
3.14653248680E+05	-3.48490170602E+01	-3.09497722764E-01	1.25109807837E+01	-1.77767232860E+02	-3.58622381369E+01	7.07987955943E+01	-5.84438299833E+00	3.84486648661E-01
3.14880685736E+05	-2.52066814853E+01	4.36836423693E+01	1.25231294451E+01	-1.77685692549E+02	-4.29237279830E+01	1.50764931751E+02	-5.89562828926E+00	1.48660709112E-01
3.15108287188E+05	-1.66951693861E+01	-1.29949391638E+02	1.25724748783E+01	-1.77110687391E+02	-4.21112210762E+01	1.41134093229E+02	-5.88969714346E+00	-1.97184882071E-01
3.15336053154E+05	-1.27497974736E+01	-1.17584160635E+02	1.25233375519E+01	-1.76512566943E+02	-4.80330875194E+01	-1.42843648821E+02	-5.85933984099E+00	-5.78118994638E-01
3.15563983753E+05	-2.56255528849E+01	4.39129486692E+01	1.24868477369E+01	-1.77441502392E+02	-3.56680523768E+01	-3.74510142078E+01	-5.81470479873E+00	-1.06275675724E+00
3.15792079105E+05	-2.40164675882E+01	1.60813592617E+02	1.25740494290E+01	-1.77511608009E+02	-4.67130281786E+01	4.02520952699E+00	-5.87868508542E+00	-1.22267664084E-01
3.16020339328E+05	-1.97613157149E+01	-1.61194353334E+02	1.25467800466E+01	-1.77398256745E+02	-4.35321713331E+01	8.71750081590E+01	-5.90394175460E+00	-1.16459009040E-01
3.16248764542E+05	-2.10703518204E+01	8.59604780637E+01	1.24800508990E+01	-1.78242022925E+02	-4.50810050002E+01	4.35059882930E+01	-5.85167644762E+00	-2.75010564179E-01
3.16477354866E+05	-2.24463063617E+01	-1.34761302433E+02	1.25950111135E+01	-1.77760593971E+02	-3.79251630187E+01	-1.61264112273E+02	-5.93116996987E+00	-2.94463202445E-01
3.16706110419E+05	-1.96171602425E+01	1.48213515017E+02	1.25190534166E+01	-1.77866226491E+02	-3.69639807499E+01	1.17172365486E+01	-5.82461999317E+00	-5.52195893480E-02
3.16935031321E+05	-1.31470330183E+01	1.31192956017E+02	1.26220965243E+01	-1.78506702131E+02	-4.04337388283E+01	-1.13577388363E+02	-5.91653496483E+00	-7.90873912977E-01
3.17164117691E+05	-5.54603524363E+00	-1.27068851130E+02	1.27579445571E+01	-1.75161676120E+02	-5.72900833857E+01	-6.52699290429E+01	-5.87135180171E+00	-9.31821880449E-02
3.17393369648E+05	-2.71705493659E+01	-1.01506971711E+02	1.24944847857E+01	-1.77583866245E+02	-5.40610390638E+01	-1.04747492968E+02	-5.86745564841E+00	-3.26531009511E-01
3.17622787313E+05	-2.32217024228E+01	-1.77929280148E+02	1.25396915637E+01	-1.77736461131E+02	-3.63063416141E+01	8.41089095321E+01	-5.90630192423E+00	8.89828142405E-02
3.17852370806E+05	-1.77485728381E+01	-1.67098976326E+01	1.24369848758E+01	-1.77503135481E+02	-3.98933613684E+01	-1.65254496344E+01	-5.83727548435E+00	-3.17261262739E-01
3.18082120245E+05	-2.55562563901E+01	3.71421485067E+01	1.25377897160E+01	-1.77684085340E+02	-3.62366185266E+01	-5.64266016854E+01	-5.81321045979E+00	-7.19248629431E-01
3.18312035752E+05	-2.93600530985E+01	-1.42019490136E+02	1.25158019025E+01	-1.77582188756E+02	-3.79760065443E+01	-1.12295661568E+02	-5.89649273007E+00	-6.54707484277E-01
3.18542117445E+05	-3.25933416013E+01	8.19387331646E+01	1.25157771892E+01	-1.77691852549E+02	-4.18753208279E+01	-6.90148275212E+01	-5.85381886655E+00	-7.08327115080E-01
3.18772365446E+05	-1.21501744261E+01	-8.45840454554E+01	1.24880732895E+01	-1.76240092120E+02	-4.18981643750E+01	1.50113935529E+02	-5.94890348072E+00	6.67756722111E-02
3.19002779874E+05	-1.54198749184E+01	9.17851983715E+01	1.25698249997E+01	-1.78589879111E+02	-4.26040512386E+01	-1.71397581385E+01	-5.79672587894E+00	-2.27398468885E-01
3.19233360850E+05	-2.53479256794E+01	6.02916512825E+01	1.24650012774E+01	-1.77845277423E+02	-4.05805922177E+01	1.52129043563E+02	-5.92123392675E+00	-4.80230803159E-01
3.19464108494E+05	-2.61695663259E+01	-1.30163927685E+02	1.25238901384E+01	-1.77389160852E+02	-4.39272546859E+01	1.77250242894E+02	-5.93995249881E+00	-3.98474792934E-01
3.19695022927E+05	-2.07484093657E+01	5.71248551551E+01	1.24799017699E+01	-1.77741254214E+02	-4.71632215291E+01	8.50662717852E+01	-5.84520530831E+00	-3.60275569420E-02
3.19926104268E+05	-2.27224394744E+01	8.58461352568E+01	1.24787556231E+01	-1.78180065668E+02	-3.97077650566E+01	1.61436711260E+01	-5.83802843281E+00	-9.23134503376E-02
3.20157352640E+05	-3.07009944034E+01	6.32037817002E+00	1.24228025249E+01	-1.77810948712E+02	-4.51689118519E+01	-1.68934918284E+02	-5.90327087382E+00	-1.42143313961E-01
3.20388768162E+05	-1.10762371958E+01	8.21745039593E+01	1.24601167357E+01	-1.78857513721E+02	-4.67904348814E+01	-6.82002950295E+01	-5.84877204345E+00	-2.81496726488E-01
3.20620350955E+05	-2.67391323178E+01	1.69953187585E+02	1.25297937875E+01	-1.77920143461E+02	-3.93317308377E+01	9.08608776026E+01	-5.89315140027E+00	-1.40999431947E-01
3.20852101140E+05	-1.86756403606E+01	1.27525876879E+02	1.25523337649E+01	-1.78099248197E+02	-4.06265078427E+01	1.64647178193E+02	-5.91131691288E+00	-3.20308257390E-01
3.21084018839E+05	-2.00054122364E+01	1.69525794890E+02	1.25602278130E+01	-1.77994028109E+02	-3.22486026514E+01	-1.09905862498E+02	-5.89805201628E+00	-1.24311916504E+00
3.21316104172E+05	-2.25061630431E+01	-2.79829958979E+01	1.25010609416E+01	-1.77473601465E+02	-3.76730023631E+01	1.41752658117E+02	-5.94161781921E+00	-2.32654494667E-01
3.21548357261E+05	-3.32271431240E+01	-1.69571315675E+02	1.24766891013E+01	-1.77497875285E+02	-4.06754428779E+01	-9.27468430731E+01	-5.86784328599E+00	-4.15457965419E-01
3.21780778226E+05	-1.97634536218E+01	6.73611977460E+00	1.24422597085E+01	-1.77950605575E+02	-4.25846118500E+01	3.37473382729E+01	-5.86355984563E+00	-1.11056541162E-01
3.22013367189E+05	-1.11764595319E+01	5.56412172206E+01	1.23786045433E+01	-1.78747034222E+02	-4.20773125356E+01	1.10165801657E+02	-5.88302276497E+00	-1.27705696026E-01
3.22246124272E+05	-1.72941357470E+01	1.51383902062E+02	1.25412722381E+01	-1.78071685305E+02	-4.76788430398E+01	-1.51813095698E+01	-5.87672101662E+00	-3.73237859208E-01
3.22479049596E+05	-1.73157445558E+01	1.71475426262E+02	1.25226059714E+01	-1.78068084747E+02	-4.17685344207E+01	7.64117966395E+01	-5.84957105126E+00	1.17432370829E-01
3.22712143282E+05	-1.77429285205E+01	7.55684536918E+01	1.24839184646E+01	-1.78141935291E+02	-4.48332178170E+01	2.41888734328E+01	-5.86093810991E+00	2.22876426079E-02
3.22945405453E+05	-2.37775588701E+01	1.44174691504E+02	1.25579577076E+01	-1.77909763238E+02	-4.28312480528E+01	3.53353317072E+01	-5.83099499624E+00	-2.19450560256E-01
3.23178836230E+05	-1.65961923053E+01	1.66022373642E+02	1.26454303187E+01	-1.78058987547E+02	-2.85563133580E+01	4.24862478361E+01	-5.73489653759E+00	3.87250436078E-01
3.23412435735E+05	-1.10974082498E+01	-1.07299832472E+02	1.25491949222E+01	-1.76519251889E+02	-3.72493947516E+01	1.36270691945E+02	-5.96195322231E+00	1.32002637952E-01
3.23646204090E+05	-1.84913675176E+01	-4.35279028838E+01	1.24441320892E+01	-1.77165130600E+02	-5.56132570066E+01	5.79841870662E+01	-5.88688499258E+00	-1.36284969075E-01
3.23880141417E+05	-2.50007597259E+01	5.93959429354E+01	1.25139313815E+01	-1.78071401024E+02	-6.38974665089E+01	-6.94415311984E+00	-5.90234328440E+00	-2.31112274932E-01
3.24114247838E+05	-1.66627587081E+01	6.55163730644E+01	1.24643208971E+01	-1.78323873981E+02	-3.49286777996E+01	-1.05427796280E+02	-5.85434892072E+00	-8.35045776450E-01
3.24348523475E+05	-2.48327387545E+01	-1.13995277260E+02	1.25496138853E+01	-1.77653555990E+02	-3.81531150279E+01	-1.07533954250E+01	-5.80277094033E+00	-8.40573214215E-02
3.24582968451E+05	-2.21575006736E+01	1.78732010769E+02	1.25609712075E+01	-1.77725282927E+02	-4.55231235085E+01	-1.48042952350E+02	-5.84784096349E+00	-6.54292338144E-02
3.24817582888E+05	-2.25241197955E+01	6.28642747241E+01	1.24988160475E+01	-1.77938130690E+02	-3.74571115091E+01	-1.40707107938E+02	-5.97837444942E+00	-5.62717422167E-01
3.25052366909E+05	-2.29421412820E+01	-1.29979100635E+02	1.25969490699E+01	-1.77510130684E+02	-3.42517882002E+01	2.95873924061E+01	-5.81329652889E+00	3.37521679617E-01
3.25287320635E+05	-1.51697130005E+01	-1.26817062271E+02	1.25311150640E+01	-1.77120026945E+02	-3.94891917060E+01	1.10124349867E+02	-5.92023145038E+00	-2.25735731234E-02
3.25522444191E+05	-1.90613658028E+01	9.87317558775E+01	1.25314508891E+01	-1.78244982849E+02	-3.94610534884E+01	8.51242812096E+01	-5.84651533565E+00	7.73028803747E-02
3.25757737698E+05	-3.03105096908E+01	-1.75574609027E+02	1.25353286357E+01	-1.77516396151E+02	-3.64830121137E+01	-7.39143397680E+01	-5.82008067709E+00	-6.98710603769E-01
3.25993201280E+05	-2.90065493452E+01	-1.29998301510E+02	1.25349574791E+01	-1.77843913956E+02	-4.33606418451E+01	-3.11176359969E+01	-5.85094263691E+00	-2.41514677404E-01
3.26228835058E+05	-1.38973752158E+01	-1.16855714927E+02	1.25482054252E+01	-1.77246477585E+02	-5.63650520048E+01	-1.74064652496E+02	-5.93981916189E+00	-2.55089166577E-01
