# Hz S DB R 50
! CMT, M5065, 19127446, 24.2.4/2
! Date: 11/1/2024 4:40:14 PM
! Data: Format (Calibration Info)
! Freq	S11:dB/Ang(F2)	S21:dB/Ang(F2)	S12:dB/Ang(F2)	S22:dB/Ang(F2)
3.00000000000E+05	-2.18791324171E+01	1.20996216745E+02	1.36786270978E+01	-1.77535413788E+02	-3.91983303146E+01	7.12005526021E+01	-5.86042567708E+00	-1.32693884481E-01
3.00216845423E+05	-1.68837412339E+01	-1.34808844296E+02	1.37163869716E+01	-1.76764928489E+02	-4.03533952020E+01	-1.30881020589E+02	-5.89381707810E+00	-8.04387688763E-01
3.00433847586E+05	-1.63468278962E+01	-5.26695044032E+01	1.36302195491E+01	-1.76889322529E+02	-3.68449230166E+01	1.25273079154E+02	-5.96469220066E+00	-2.30980430419E-01
3.00651006602E+05	-3.76347047283E+01	-1.25339186269E+02	1.36475539883E+01	-1.76998613376E+02	-3.70972243761E+01	1.41744859906E+02	-5.93799434974E+00	-3.00879557677E-02
3.00868322584E+05	-1.45249540029E+01	1.74439185420E+02	1.37569372515E+01	-1.77249001059E+02	-3.59145364119E+01	-1.55371822115E+02	-5.97953467233E+00	-5.98671940456E-01
3.01085795647E+05	-2.20002192192E+01	1.50532861755E+02	1.36933083278E+01	-1.77371601584E+02	-4.39495670816E+01	-6.65013102444E+01	-5.88265546057E+00	-1.74529199673E-01
3.01303425902E+05	-7.03630090773E+00	7.14937064846E+01	1.35593070469E+01	-1.79533698927E+02	-3.94909601853E+01	1.28638428574E+02	-5.90852868594E+00	1.19072367337E-01
3.01521213465E+05	-1.76260503019E+01	-2.27295862101E+01	1.35710171558E+01	-1.77118945913E+02	-3.71597259698E+01	1.61305505315E+02	-5.95372909477E+00	-3.02932449847E-01
3.01739158449E+05	-1.53909213271E+01	-6.05759736906E+01	1.35861289676E+01	-1.76649766831E+02	-3.55755182975E+01	9.85228096741E+01	-5.89677987245E+00	3.15602415234E-01
3.01957260967E+05	-2.06006874032E+01	9.27233727690E+01	1.36281993645E+01	-1.77564115436E+02	-3.65402263087E+01	1.19983430640E+02	-5.90506314196E+00	1.18848924700E-01
3.02175521134E+05	-1.98318999972E+01	1.28590138288E+00	1.36196488551E+01	-1.77200873494E+02	-2.82780626746E+01	1.68630865179E+02	-6.13108624742E+00	-3.35080403874E-01
3.02393939063E+05	-2.63717476455E+01	-1.53628250363E+02	1.36835655539E+01	-1.77077918245E+02	-3.71831892946E+01	-4.04564248276E+01	-5.75901505116E+00	-4.75091196610E-01
3.02612514869E+05	-1.83691882989E+01	-6.23045326897E+01	1.36279905014E+01	-1.76797703641E+02	-3.68758611054E+01	1.07252854275E+02	-5.93299550119E+00	3.57499229631E-01
3.02831248665E+05	-2.40966628306E+01	1.38444515856E+02	1.36308865836E+01	-1.77271954686E+02	-6.48145127892E+01	4.48164048220E+01	-5.88771524042E+00	-7.82764635170E-03
3.03050140565E+05	-2.19646738364E+01	9.40407348194E+01	1.36613320352E+01	-1.77571918266E+02	-3.75300751397E+01	-4.36208719249E+01	-5.84545307904E+00	-6.27169521541E-01
3.03269190685E+05	-2.36998846915E+01	-1.28300591950E+02	1.36826125018E+01	-1.77061198877E+02	-4.29437031001E+01	9.87480101370E+01	-5.90771439333E+00	6.72044411159E-03
3.03488399138E+05	-2.25336998875E+01	-1.39250868806E+02	1.36982432426E+01	-1.76837616197E+02	-4.56921243164E+01	7.22130894706E+01	-5.90044505789E+00	8.11231829671E-02
3.03707766039E+05	-1.55036040882E+01	-1.46031481497E+01	1.35303097032E+01	-1.77122557401E+02	-3.71006682473E+01	1.78122546394E+02	-6.01785959155E+00	-2.43466564728E-01
3.03927291503E+05	-3.20719761649E+01	7.93210985360E+01	1.36624094723E+01	-1.77231182571E+02	-4.05714479365E+01	-1.56384099376E+02	-5.94850728925E+00	-4.17665919241E-01
3.04146975643E+05	-2.65118594970E+01	7.50433564896E+01	1.36446312032E+01	-1.77280895085E+02	-5.77075832326E+01	1.67108553617E+02	-5.88516321885E+00	-2.09429324548E-01
3.04366818575E+05	-2.81879706319E+01	8.04838133009E+01	1.36455496466E+01	-1.77470971212E+02	-5.29255648241E+01	-4.93725719351E+01	-5.88187848992E+00	-3.60694902829E-01
3.04586820414E+05	-1.90566705818E+01	-3.89199373035E+01	1.35825196232E+01	-1.76965888688E+02	-4.27914269204E+01	-1.79974554427E+02	-5.97898257952E+00	-3.20656682526E-01
3.04806981274E+05	-2.14160969567E+01	-1.67663658894E+01	1.36165361239E+01	-1.77441158542E+02	-4.39447544006E+01	-2.40819115847E+01	-5.86015533109E+00	-6.03009117019E-01
3.05027301270E+05	-1.96676523971E+01	1.16776509355E+02	1.36828507883E+01	-1.77492584864E+02	-3.70860081776E+01	-5.36195695871E+01	-5.86288539257E+00	-7.54079896963E-01
3.05247780517E+05	-2.24568776662E+01	8.83905057245E+00	1.35587110341E+01	-1.77354361088E+02	-2.60697814591E+01	-1.23384678899E+02	-6.02837097771E+00	-2.02609656568E+00
3.05468419131E+05	-2.76561506039E+01	-5.40580417326E+01	1.36258009325E+01	-1.77084384515E+02	-2.92971499563E+01	-4.91096680213E+01	-5.74234345601E+00	-1.44309220329E+00
3.05689217226E+05	-2.16472431873E+01	5.68910217832E+01	1.35846567993E+01	-1.77457172625E+02	-3.69593120507E+01	1.41117461344E+02	-5.97793370144E+00	-1.21777938125E-01
3.05910174918E+05	-2.10208853736E+01	1.76434813805E+02	1.37397027760E+01	-1.77324770407E+02	-4.52093864639E+01	-8.27006914371E+01	-5.89277977399E+00	-5.91746992594E-01
3.06131292322E+05	-1.50755321599E+01	4.22737636754E+01	1.36192731746E+01	-1.77560864951E+02	-4.20777768575E+01	1.76877191890E+02	-5.90075619243E+00	-4.16892373400E-01
3.06352569554E+05	-2.13839895505E+01	-1.11796092235E+02	1.36783726790E+01	-1.77028045177E+02	-3.89406934325E+01	-5.64184942694E+01	-5.88374731099E+00	-4.67422494984E-01
3.06574006730E+05	-1.85695878756E+01	-6.59728150487E+01	1.35969809278E+01	-1.77001923373E+02	-3.79211131166E+01	1.59056704377E+02	-5.96351282231E+00	-1.81210759886E-01
3.06795603964E+05	-2.06267605732E+01	-1.65609262966E+02	1.36835988737E+01	-1.77114825389E+02	-3.91890397824E+01	1.53502126755E+01	-5.82183210472E+00	-1.95331266886E-01
3.07017361372E+05	-2.05406330085E+01	3.20898315518E+01	1.36035505588E+01	-1.77420175858E+02	-4.96108343450E+01	1.34597660405E+02	-5.89263478019E+00	9.55993286762E-02
3.07239279071E+05	-1.39355023086E+01	1.58091314562E+02	1.37421445505E+01	-1.77544960505E+02	-3.62144202933E+01	-4.41137081634E+01	-5.80525925516E+00	-5.58013467749E-01
3.07461357176E+05	-9.10728812619E+00	1.22147616374E+02	1.38042544962E+01	-1.78539629120E+02	-3.49505946691E+01	1.69314500263E+02	-5.96792760730E+00	-2.15300057230E-01
3.07683595803E+05	-2.00190316227E+01	-5.84442073122E+01	1.36444792168E+01	-1.76997394465E+02	-4.13520334870E+01	-4.73680370549E+00	-5.86761149167E+00	-1.89893736344E-01
3.07905995068E+05	-2.43839138770E+01	4.60065323635E+01	1.36295200833E+01	-1.77312086926E+02	-4.97713345458E+01	8.62932549076E+01	-5.88121746659E+00	-4.60359925259E-01
3.08128555087E+05	-3.93085258155E+01	-2.90277357573E+01	1.36148814972E+01	-1.77304930170E+02	-4.05041771807E+01	1.33411599876E+02	-5.90720231332E+00	2.03024509905E-01
3.08351275976E+05	-2.56163656523E+01	4.16411492445E+01	1.35800736301E+01	-1.77353149513E+02	-3.74515035590E+01	5.83905811945E+01	-5.84741878732E+00	3.45008666642E-01
3.08574157853E+05	-1.48210877180E+01	3.69129948451E+01	1.35608376208E+01	-1.77790627453E+02	-3.37359390229E+01	-8.90064748727E+01	-5.90363021698E+00	-1.31890474179E+00
3.08797200832E+05	-1.60013427563E+01	-1.44558653770E+01	1.35585184507E+01	-1.77123841215E+02	-4.02057150032E+01	1.19256982299E+02	-5.90468509521E+00	7.76841837856E-02
3.09020405031E+05	-1.68730482326E+01	2.42828754029E+01	1.35628390032E+01	-1.77418793001E+02	-4.84016574395E+01	-8.01304937138E+00	-5.85607878186E+00	-3.88955914662E-01
3.09243770566E+05	-1.15114902265E+01	1.34860692613E+02	1.37789017615E+01	-1.78589316065E+02	-3.45330157996E+01	1.67650998649E+02	-6.00629294041E+00	8.99903660137E-02
3.09467297553E+05	-1.77111391221E+01	-5.44542233488E+01	1.35800200981E+01	-1.77182174277E+02	-4.33751424007E+01	-1.61424364404E+01	-5.84746502278E+00	-1.10653736784E-02
3.09690986110E+05	-1.77239230072E+01	5.60823298226E+00	1.35783160029E+01	-1.76949192125E+02	-3.80470043867E+01	-1.69634687015E+02	-5.96565533907E+00	-2.88217716999E-01
3.09914836353E+05	-1.75707043875E+01	6.75339685469E+01	1.36116882390E+01	-1.77919654356E+02	-4.43675232207E+01	-9.77309923030E+01	-5.90481842074E+00	-5.41010205371E-01
3.10138848399E+05	-1.48290221469E+01	-5.12670181518E+00	1.35722870840E+01	-1.77313163172E+02	-3.56954293346E+01	2.43597699138E+01	-5.77135145538E+00	-9.29365179428E-02
3.10363022365E+05	-2.45704167410E+01	2.36697252019E+01	1.35789451294E+01	-1.77191297187E+02	-4.79587889617E+01	6.70764130595E+01	-5.91143521448E+00	3.03532627314E-02
3.10587358368E+05	-1.92385068954E+01	-1.71057937515E+02	1.37015848866E+01	-1.77575963191E+02	-3.72712779075E+01	4.50910080458E+01	-5.86620556920E+00	9.52228404094E-02
3.10811856525E+05	-1.40857278829E+01	-4.54215529220E+01	1.35465156161E+01	-1.76505578729E+02	-4.68036561210E+01	-1.30214096607E+02	-5.87913683293E+00	-4.84581828652E-01
3.11036516954E+05	-2.21498932956E+01	1.05571172894E+02	1.36591795122E+01	-1.77727252484E+02	-3.44759832388E+01	1.49076850628E+02	-6.00632711703E+00	2.75640398358E-01
3.11261339771E+05	-2.53416127513E+01	4.78541474483E+01	1.36277322333E+01	-1.77561638010E+02	-4.18050015234E+01	-8.09907835676E+01	-5.87664004068E+00	-3.04307245502E-01
3.11486325094E+05	-2.05522318800E+01	-1.24438816816E+02	1.37035556621E+01	-1.77007297456E+02	-4.57148773994E+01	-1.00041918236E+02	-5.91729639339E+00	-3.81783265961E-01
3.11711473040E+05	-2.50397823303E+01	1.49672798537E+02	1.37065128947E+01	-1.77689406473E+02	-3.45614709376E+01	-1.01165153946E+02	-5.91286267887E+00	-1.41737094230E+00
3.11936783728E+05	-2.39507258579E+01	1.25308353702E+02	1.36274401729E+01	-1.77660038257E+02	-4.54108974780E+01	6.19880828374E+01	-5.90901041950E+00	1.90871842649E-01
3.12162257274E+05	-9.33942721221E+00	-1.67355372195E+02	1.39066451002E+01	-1.77030700646E+02	-6.31134641040E+01	4.26307371221E+01	-5.89093154959E+00	-4.78245034879E-02
3.12387893797E+05	-9.64897172760E+00	1.29570589378E+02	1.37948179849E+01	-1.78455465062E+02	-4.18966422901E+01	9.52440712220E+01	-5.87370209304E+00	2.14308914164E-01
3.12613693413E+05	-2.02461254249E+01	-2.42250934634E+01	1.36369873579E+01	-1.77314481686E+02	-3.74801544868E+01	1.11932126569E+01	-5.80247853713E+00	-2.22351653580E-01
3.12839656242E+05	-2.27863902233E+01	-5.52510684754E+01	1.36302613795E+01	-1.77286231587E+02	-4.24351053185E+01	1.08583928127E+02	-5.87736171928E+00	8.37655004690E-02
3.13065782401E+05	-2.72620474558E+01	-4.60025688638E+01	1.36271878635E+01	-1.77484972614E+02	-3.83470415410E+01	6.25510912956E+01	-5.88299252554E+00	4.21300442025E-01
3.13292072007E+05	-3.06671315143E+01	-4.19729734385E+01	1.36314474468E+01	-1.77238805293E+02	-2.86169996658E+01	1.31836856352E+02	-6.05919166107E+00	1.22162308967E+00
3.13518525180E+05	-2.08933345795E+01	-4.86467410257E+01	1.36351274689E+01	-1.77252121558E+02	-4.99260380207E+01	2.02455394452E+01	-5.86429401542E+00	-2.29923459332E-01
3.13745142038E+05	-1.12780128925E+01	1.28171491742E+02	1.38237710808E+01	-1.78362502859E+02	-3.60945362054E+01	1.32227670856E+02	-5.92772717630E+00	1.00904108719E-01
3.13971922698E+05	-1.27560316854E+01	-6.59769764109E+01	1.35785028358E+01	-1.76427271615E+02	-4.15580995100E+01	-1.65416370762E+02	-5.96836540804E+00	-5.47052877445E-01
3.14198867279E+05	-2.52434263419E+01	-4.78183686996E+01	1.36379921170E+01	-1.77602624597E+02	-3.76512589336E+01	-5.79316002426E+01	-5.83192995088E+00	-8.74897399363E-01
3.14425975900E+05	-1.87899123100E+01	6.39091537464E+01	1.36091164870E+01	-1.77757518910E+02	-3.58330239265E+01	1.64851002551E+02	-5.98398954929E+00	-1.62740851823E-01
3.14653248680E+05	-2.27858638795E+01	1.20259627848E+02	1.36691026610E+01	-1.77608195515E+02	-3.99359518974E+01	-5.84088425411E+01	-5.85231029135E+00	-7.68186567622E-01
3.14880685736E+05	-2.29792057773E+01	-6.51688296742E+01	1.36532411224E+01	-1.77120895847E+02	-3.35774755066E+01	-8.87401391024E+01	-5.88789732322E+00	-1.33452225824E+00
3.15108287188E+05	-2.14926383725E+01	3.21307761984E+01	1.36009740854E+01	-1.77511691585E+02	-3.58202291413E+01	2.18147134377E+01	-5.80560640071E+00	-3.52605662078E-02
3.15336053154E+05	-1.51590784374E+01	-9.22433620129E+01	1.36863499348E+01	-1.76932481804E+02	-7.02682233936E+01	3.84173690280E+01	-5.86337764272E+00	-2.93194309109E-01
3.15563983753E+05	-2.74474858023E+01	-1.08156047414E+02	1.36289814952E+01	-1.77290302647E+02	-3.78152583439E+01	1.42682203274E+02	-5.95231107597E+00	-2.60889204216E-01
3.15792079105E+05	-2.49947510686E+01	5.89022713711E+01	1.36551152788E+01	-1.78034880484E+02	-4.94398987796E+01	1.74663112420E+02	-5.92078908262E+00	-2.66796834216E-01
3.16020339328E+05	-1.93688054059E+01	1.34914488353E+00	1.35950067226E+01	-1.77608200236E+02	-3.50314344061E+01	-4.38580745821E+01	-5.84076575330E+00	-6.93750453773E-01
3.16248764542E+05	-2.67618288912E+01	-5.78009344731E+01	1.36165481567E+01	-1.77606667807E+02	-3.73582795211E+01	-1.42467567958E+00	-5.78772065586E+00	-2.20928026982E-01
3.16477354866E+05	-1.78107788902E+01	8.85612390554E+01	1.36756376265E+01	-1.77977142211E+02	-2.91582451045E+01	-5.17992746402E+01	-5.74769669849E+00	-1.42185549640E+00
3.16706110419E+05	-2.79177652645E+01	1.10229852319E+02	1.36619876612E+01	-1.77708816395E+02	-3.99505822270E+01	9.67248692431E+01	-5.84354525109E+00	3.41138421730E-01
3.16935031321E+05	-1.85508856550E+01	-1.27783311482E+02	1.37110704942E+01	-1.77246721361E+02	-3.31496978839E+01	-8.96165622543E+01	-5.90397978805E+00	-1.19576083946E+00
3.17164117691E+05	-1.73036761916E+01	4.11976054246E+01	1.35494251076E+01	-1.78044365088E+02	-4.11612787513E+01	9.56928756574E+01	-5.88296893026E+00	7.58688024681E-02
3.17393369648E+05	-1.65314480195E+01	-2.14848199403E+01	1.35242689134E+01	-1.77451918569E+02	-5.69663884824E+01	-6.55221825392E+01	-5.92353529727E+00	-3.71707540214E-01
3.17622787313E+05	-1.74291386047E+01	-1.04793979302E+02	1.36565515962E+01	-1.77049210877E+02	-3.68643033226E+01	-3.37872539005E+01	-5.77652431715E+00	-2.53945349982E-01
3.17852370806E+05	-2.71093099025E+01	-6.38817641165E+01	1.36660229822E+01	-1.77103882930E+02	-4.63882329543E+01	-2.05233578360E+01	-5.83414362397E+00	-5.61915222520E-01
3.18082120245E+05	-3.37795664189E+01	-1.56988244469E+02	1.36469568234E+01	-1.77588713778E+02	-2.99644514037E+01	-1.40652850872E+02	-6.09859407076E+00	-1.02099212900E+00
3.18312035752E+05	-1.92190536905E+01	-1.22020664375E+02	1.36732904256E+01	-1.77006269410E+02	-3.65019736170E+01	1.00306500660E+02	-5.93279016329E+00	2.14741008509E-01
3.18542117445E+05	-2.09681022072E+01	-8.68860171695E+01	1.36535852037E+01	-1.77185671595E+02	-4.02064425366E+01	1.57374359912E+02	-5.97072787796E+00	-2.31822617423E-01
3.18772365446E+05	-2.27158437773E+01	-3.04576887752E+01	1.35459259168E+01	-1.77282192550E+02	-4.28700785789E+01	-3.81189879393E+01	-5.89876938251E+00	-1.11861486692E-01
3.19002779874E+05	-2.38642813556E+01	6.98248209422E+01	1.36188170195E+01	-1.77914425634E+02	-3.51439890064E+01	7.87904784511E+01	-5.88851322736E+00	-8.32965066621E-02
3.19233360850E+05	-1.38540132660E+01	8.67052663963E+01	1.36103988074E+01	-1.78232941390E+02	-3.48432358454E+01	2.41015987454E+01	-5.81762388405E+00	-9.30627244349E-02
3.19464108494E+05	-1.67984309844E+01	4.18496779383E+00	1.35716848679E+01	-1.77560627318E+02	-4.02048364819E+01	1.22650128221E+02	-5.90046779124E+00	-1.23624274260E-01
3.19695022927E+05	-1.38359046628E+01	5.09925920491E+01	1.35870516080E+01	-1.78126526310E+02	-3.70136606577E+01	3.56812662635E+01	-5.82391449343E+00	1.24740890519E-01
3.19926104268E+05	-2.01785157222E+01	-3.83052881525E+00	1.35901757145E+01	-1.77381087923E+02	-3.67149831478E+01	1.67640701911E+02	-5.99941738424E+00	-3.58457029082E-01
3.20157352640E+05	-1.87435734438E+01	1.73509427028E+02	1.36984539743E+01	-1.77678191000E+02	-4.52669747885E+01	1.73881427795E+02	-5.93485808697E+00	-1.74724844676E-01
3.20388768162E+05	-1.32278125473E+01	5.49762879721E+01	1.35779543666E+01	-1.78843902868E+02	-4.08067439148E+01	1.66154948063E+02	-5.94474070580E+00	-1.47314730207E-01
3.20620350955E+05	-2.01985884284E+01	2.94279998975E-05	1.35646440545E+01	-1.77418852795E+02	-3.53377446653E+01	2.64515678607E+01	-5.84274920577E+00	-3.43312017466E-01
3.20852101140E+05	-2.89863236959E+01	9.47674584732E+01	1.36832367836E+01	-1.77819383214E+02	-3.96263165845E+01	5.71279326046E+01	-5.85120884915E+00	1.32625091917E-01
3.21084018839E+05	-2.53146577715E+01	1.36587527176E+02	1.36531342157E+01	-1.77849897512E+02	-4.92366730339E+01	7.08329827783E+01	-5.87521434412E+00	-2.57701517781E-01
3.21316104172E+05	-1.62689130084E+01	-6.22532107284E+01	1.36296706674E+01	-1.77094413685E+02	-5.25419636234E+01	3.83550694056E+01	-5.88341719118E+00	-4.01607868958E-01
3.21548357261E+05	-2.89842404560E+01	-3.62917768352E+01	1.36644192214E+01	-1.77509788347E+02	-3.56201012497E+01	7.01183769406E+00	-5.77695989632E+00	-1.43369189252E-01
3.21780778226E+05	-1.86945052087E+01	1.25229005560E+02	1.37518832486E+01	-1.78009487676E+02	-4.22578970002E+01	3.24890030149E+01	-5.84176448774E+00	-3.08401965823E-01
3.22013367189E+05	-2.23866540177E+01	1.68402635676E+02	1.36767755390E+01	-1.77392566630E+02	-3.74122794417E+01	8.55070691820E+01	-5.93236667279E+00	9.11053165773E-02
3.22246124272E+05	-1.62389732017E+01	1.41349193101E+01	1.35388376675E+01	-1.77880163723E+02	-3.53122436090E+01	1.22856892818E+02	-5.89845074152E+00	1.82985668058E-01
3.22479049596E+05	-1.80682488813E+01	-1.36040931049E+01	1.35809819588E+01	-1.77637299546E+02	-3.88391560900E+01	-8.81634062981E+01	-5.86427335248E+00	-6.64848186145E-01
3.22712143282E+05	-2.22216803097E+01	1.55628095152E+02	1.36600822215E+01	-1.77762040817E+02	-4.20579065461E+01	-8.87096960754E+01	-5.90724990779E+00	-5.52551899795E-01
3.22945405453E+05	-2.60016082656E+01	1.33207916272E+02	1.36484472891E+01	-1.77764526438E+02	-3.93015961968E+01	-6.40739731388E+01	-5.90620439091E+00	-9.34037466721E-01
3.23178836230E+05	-1.56915178931E+01	1.18627711334E+02	1.37049738849E+01	-1.77992017954E+02	-3.83772181243E+01	1.36339547919E+02	-5.96277660907E+00	1.65570633202E-02
3.23412435735E+05	-3.12195404392E+01	-1.50021059426E+02	1.36977281558E+01	-1.77436765931E+02	-4.02775444204E+01	1.12405697002E+02	-5.89628998193E+00	3.00249620810E-02
3.23646204090E+05	-1.45644835053E+01	-4.97931494818E+01	1.35580855976E+01	-1.76966108069E+02	-6.01889175523E+01	3.21781363896E+01	-5.85214840356E+00	1.02514050580E-02
3.23880141417E+05	-1.46281718595E+01	1.79120532593E+02	1.37395678391E+01	-1.77604731726E+02	-3.87945630861E+01	5.99584943013E+01	-5.84586757198E+00	1.29016925659E-01
3.24114247838E+05	-2.34463022057E+01	-1.52936051648E+02	1.36538207778E+01	-1.77741057827E+02	-3.96042082591E+01	1.29172090305E+02	-5.92928671641E+00	2.97254791449E-03
3.24348523475E+05	-1.41412175076E+01	-5.09905355291E+01	1.35914035833E+01	-1.76954575214E+02	-4.72077201027E+01	1.28750033544E+02	-5.91621743026E+00	-2.19342367779E-01
3.24582968451E+05	-2.83037642440E+01	1.06627025944E+02	1.36132830214E+01	-1.77973246775E+02	-3.71161951525E+01	-9.24892012387E+01	-5.85657010145E+00	-6.79385990355E-01
3.24817582888E+05	-2.04614056773E+01	6.55506294730E+01	1.36592045400E+01	-1.78014082150E+02	-2.65429368185E+01	-1.29180173324E+02	-6.10636384112E+00	-1.95462344437E+00
3.25052366909E+05	-2.16206198677E+01	-1.26171269707E+02	1.36353566957E+01	-1.77604914249E+02	-5.16756741991E+01	-8.01221332798E+00	-5.91267852014E+00	-4.74227890270E-01
3.25287320635E+05	-2.08982440127E+01	-9.29660053512E+01	1.37058993648E+01	-1.77366786379E+02	-4.21781963253E+01	1.61879757611E+02	-5.92258145962E+00	-2.51349155553E-01
3.25522444191E+05	-2.56545398731E+01	4.61545822267E+01	1.36603901999E+01	-1.77833161293E+02	-6.63490906340E+01	1.73342695819E+02	-5.93783174362E+00	-1.81096925701E-01
3.25757737698E+05	-2.26051741359E+01	4.35916505716E+01	1.36367138340E+01	-1.77898285308E+02	-3.83377661851E+01	6.91445375047E+01	-5.83643215744E+00	4.09461657954E-01
3.25993201280E+05	-2.52142705951E+01	9.44343673350E+01	1.36509317053E+01	-1.78129445980E+02	-4.28870975600E+01	-2.82606301937E+01	-5.85013227003E+00	-4.62398421026E-01
3.26228835058E+05	-2.75146785067E+01	-5.12899693059E+01	1.36356283807E+01	-1.77607330259E+02	-3.93135216468E+01	-1.60632097923E+02	-5.94294312181E+00	-4.72725499918E-01
