# Hz S DB R 50
! CMT, M5065, 19127446, 24.2.4/2
! Date: 11/1/2024 4:24:19 PM
! Data: Format (Calibration Info)
! Freq	S11:dB/Ang(F2)	S21:dB/Ang(F2)	S12:dB/Ang(F2)	S22:dB/Ang(F2)
3.00000000000E+05	-2.00979144718E+01	-1.56447529710E+02	6.90639362714E+00	-1.77547206753E+02	-4.10137826853E+01	5.05838870245E+01	-5.85865938519E+00	-1.76777922146E-01
3.00216845423E+05	-2.74408395758E+01	1.58345288293E+02	7.00634319023E+00	-1.77760771169E+02	-3.12982596231E+01	1.61473866434E+02	-5.97017409205E+00	5.56691683797E-02
3.00433847586E+05	-2.20726572754E+01	-1.04456884479E+01	6.86326705037E+00	-1.77479231278E+02	-2.63203213928E+01	1.35351343040E+02	-5.99009693303E+00	4.40591709186E-01
3.00651006602E+05	-1.86579569936E+01	7.60976483185E+01	6.94441167918E+00	-1.78075124083E+02	-3.97860807145E+01	7.86168870792E+01	-5.92399272275E+00	-1.30455385029E-01
3.00868322584E+05	-2.44689194638E+01	-9.75169550928E+01	6.91607909958E+00	-1.77193912738E+02	-4.32418148680E+01	2.40943369945E+01	-5.84834356382E+00	-1.44693870069E-01
3.01085795647E+05	-2.21917384024E+01	6.12413605243E+01	6.87459435880E+00	-1.77603090855E+02	-3.68493612550E+01	7.72402848747E+01	-5.88427896812E+00	-3.72279558394E-01
3.01303425902E+05	-1.78975482193E+01	-6.16836814866E+01	6.91062267834E+00	-1.76723444221E+02	-3.79525701816E+01	1.66156078700E+01	-5.87084084456E+00	5.95409528991E-02
3.01521213465E+05	-1.19001269037E+01	1.02806516204E+01	6.68034018323E+00	-1.77579110840E+02	-4.44782548761E+01	-4.37555112259E+01	-5.87779591920E+00	-9.78302264892E-02
3.01739158449E+05	-4.15734631667E+01	-2.03763549514E+01	6.88608831190E+00	-1.77962213837E+02	-4.44769721719E+01	-9.19642416213E+01	-5.94570883005E+00	-2.89019150578E-01
3.01957260967E+05	-1.41132959580E+01	3.25653032132E+01	6.85858357586E+00	-1.78091852450E+02	-3.38416350203E+01	-4.32322761044E+01	-5.87039843248E+00	-5.93293271940E-01
3.02175521134E+05	-2.10029178668E+01	1.56539020474E+02	6.97168482917E+00	-1.77986339016E+02	-3.56594954977E+01	-7.55114550648E+01	-5.90505146801E+00	-3.35867079904E-01
3.02393939063E+05	-1.47807954823E+01	-1.22377022437E+02	6.96852809639E+00	-1.76996916998E+02	-4.09741119509E+01	-1.34006508049E+02	-5.88578515131E+00	-2.98138071396E-01
3.02612514869E+05	-2.20805267828E+01	-9.45186195975E+01	6.97110669779E+00	-1.77726679075E+02	-3.65095060908E+01	1.49977964910E+02	-5.94020269055E+00	-2.09570439813E-01
3.02831248665E+05	-1.06330538254E+01	-1.23454829326E+01	6.66597000341E+00	-1.77175131811E+02	-4.49056392796E+01	-1.39166872657E+02	-5.95184127009E+00	-2.40472585166E-01
3.03050140565E+05	-2.28456417471E+01	-8.69428507539E+00	6.86378052927E+00	-1.77645310642E+02	-4.44300339491E+01	4.67766600583E+01	-5.89635892130E+00	-1.06754751433E-01
3.03269190685E+05	-2.58752259467E+01	-3.29990493039E+01	6.83413144496E+00	-1.77664375466E+02	-3.17942853336E+01	-9.53150771936E+01	-5.93634807880E+00	-8.27352959287E-01
3.03488399138E+05	-1.43698175921E+01	1.76953627220E+02	7.06237406104E+00	-1.77805011492E+02	-3.62435235339E+01	-8.22378663590E+01	-5.92281376879E+00	-5.69568704443E-01
3.03707766039E+05	-1.99022898146E+01	-5.75740777245E+01	6.88011062366E+00	-1.77125678126E+02	-3.43352754596E+01	1.20129600989E+02	-5.89110756791E+00	-1.15851256989E-01
3.03927291503E+05	-2.99399254054E+01	1.79932720176E+02	7.05191031691E+00	-1.77362622136E+02	-5.64842923356E+01	1.50110342839E+02	-5.89350977465E+00	-3.71681236790E-01
3.04146975643E+05	-3.04840532368E+01	1.03402659136E+01	6.87870540447E+00	-1.77676353934E+02	-3.79158813616E+01	1.19262155828E+01	-5.85889135240E+00	-1.98293235563E-01
3.04366818575E+05	-1.76678918327E+01	-9.20200303794E+01	6.92194301113E+00	-1.77018635990E+02	-4.76741383093E+01	1.00796573838E+02	-5.87951297550E+00	-2.35670956616E-01
3.04586820414E+05	-2.70424628618E+01	-1.43933951585E+02	6.91904319573E+00	-1.77206624505E+02	-4.60532800763E+01	1.14885014189E+02	-5.92354025764E+00	-6.96343216733E-02
3.04806981274E+05	-2.19683760535E+01	-1.51075869699E+02	6.94680304987E+00	-1.77461801503E+02	-3.54574699501E+01	-4.15009474571E+01	-5.89829932097E+00	-4.40360105818E-01
3.05027301270E+05	-3.02599113567E+01	5.92000477074E+01	6.91526823890E+00	-1.77507882776E+02	-3.68829661025E+01	-1.52846018795E+02	-5.92150573277E+00	-4.69164584289E-01
3.05247780517E+05	-1.81085144993E+01	9.81587187628E+01	6.92010811781E+00	-1.78089538716E+02	-4.43627495655E+01	1.20777482280E+02	-5.87595341451E+00	-3.10802310231E-01
3.05468419131E+05	-2.70483607514E+01	-1.57320511788E+02	6.90771427095E+00	-1.77849498699E+02	-3.90959547478E+01	-1.23198687195E+02	-5.87562885174E+00	-3.91827624809E-01
3.05689217226E+05	-2.94248533601E+01	-1.38407717706E+02	6.89695246650E+00	-1.77290828073E+02	-3.97051067376E+01	-5.26405852253E+01	-5.85377818442E+00	-5.25339324690E-01
3.05910174918E+05	-1.29351793748E+01	1.23422192726E+02	7.01345466677E+00	-1.78659160107E+02	-4.14851730855E+01	1.68676905902E+02	-5.87475754997E+00	-4.10326664801E-01
3.06131292322E+05	-2.13169858763E+01	-1.49287311442E+02	6.98798133839E+00	-1.77829919043E+02	-4.98945319237E+01	-1.62203749368E+02	-5.86002671536E+00	-3.15161839968E-01
3.06352569554E+05	-2.20023813741E+01	1.21760070929E+02	6.99118347220E+00	-1.78257193748E+02	-4.10330131050E+01	-1.62610942190E+01	-5.90995543879E+00	-1.36957796616E-01
3.06574006730E+05	-2.86674729454E+01	-1.71886260012E+02	6.92673670355E+00	-1.77932274087E+02	-3.36204665706E+01	1.27487111679E+02	-5.92266826421E+00	1.89755078662E-01
3.06795603964E+05	-1.74336987404E+01	-1.74042138862E+02	6.95666337137E+00	-1.77446964086E+02	-3.55665394226E+01	2.31046125351E+00	-5.88157714216E+00	-9.19596578077E-02
3.07017361372E+05	-1.86956939466E+01	1.57307424774E+02	7.05531475732E+00	-1.78284235940E+02	-5.84240242693E+01	4.42663568092E+01	-5.89057282833E+00	-5.51626940733E-02
3.07239279071E+05	-1.79398669983E+01	-7.09672127519E+01	6.88720891724E+00	-1.77492805670E+02	-4.34549660303E+01	-1.23967106474E+02	-5.91091369388E+00	-2.67365475222E-01
3.07461357176E+05	-6.81019922395E+00	-6.65645228679E+01	6.78687248092E+00	-1.75501058579E+02	-5.32192891511E+01	-1.06367635494E+02	-5.92097321368E+00	-2.08024767247E-01
3.07683595803E+05	-1.64397386143E+01	3.31650670623E+01	6.80839983413E+00	-1.78367211339E+02	-4.56496714308E+01	-2.87295550209E+01	-5.88048755036E+00	-1.56450002149E-01
3.07905995068E+05	-2.05987249290E+01	3.01680337903E+01	6.85509229058E+00	-1.77719617275E+02	-4.26630502334E+01	-1.64025341131E+02	-5.89263319711E+00	-4.87280725721E-01
3.08128555087E+05	-2.32994591667E+01	4.35320540140E+01	6.86030491917E+00	-1.77960675457E+02	-4.51449214919E+01	-1.65958625150E+00	-5.89112838977E+00	-1.94744958011E-01
3.08351275976E+05	-1.95062673584E+01	-1.03511805665E+02	6.94781594266E+00	-1.77454574616E+02	-4.93321075661E+01	1.84389889365E+01	-5.89756494492E+00	-4.15801725523E-01
3.08574157853E+05	-2.39226932384E+01	1.37418665801E+02	6.93092021351E+00	-1.77614022112E+02	-3.97330076214E+01	1.64698495571E+02	-5.88750208127E+00	-2.83273152036E-01
3.08797200832E+05	-1.97279017928E+01	1.60970079592E+02	7.03394690724E+00	-1.77631380842E+02	-4.67691617993E+01	-2.04001079278E+01	-5.86922788476E+00	-3.93156734777E-01
3.09020405031E+05	-1.71163815859E+01	1.34581983212E+02	6.99228938634E+00	-1.78185876352E+02	-3.63310093929E+01	5.88556718741E+01	-5.83002850820E+00	-1.79634799643E-01
3.09243770566E+05	-1.61721498180E+01	1.04102205565E+01	6.76610455284E+00	-1.77579217542E+02	-3.97306586305E+01	2.72042767050E+01	-5.84350748830E+00	-2.84005606023E-01
3.09467297553E+05	-1.62090116975E+01	6.15462343160E+01	6.83252661347E+00	-1.78021576854E+02	-3.97372641803E+01	-1.39309151864E+02	-5.91423841158E+00	-3.64621717848E-01
3.09690986110E+05	-2.46459662556E+01	-1.73723243366E+02	6.91558004665E+00	-1.77635500202E+02	-3.36452469272E+01	-1.58473033036E+02	-5.96163615309E+00	-3.74835681682E-01
3.09914836353E+05	-3.11112438557E+01	-1.27767062223E+02	6.97483342670E+00	-1.77480893229E+02	-3.76834299806E+01	-4.26884720072E+01	-5.88599459139E+00	-4.38957217351E-01
3.10138848399E+05	-3.63667458350E+01	-1.04330945944E+02	6.93391018130E+00	-1.77775599841E+02	-3.60773738033E+01	1.58403823212E+02	-5.92304311801E+00	-1.35523154317E-01
3.10363022365E+05	-2.42051191421E+01	-9.49799746913E+00	6.94859762996E+00	-1.77378867739E+02	-3.72896762910E+01	-1.59162603661E+02	-5.88520499693E+00	-3.03031329548E-01
3.10587358368E+05	-1.15751674171E+01	1.15295293858E+02	6.97385311274E+00	-1.79562044600E+02	-5.63483985323E+01	5.68503243296E+01	-5.89404373394E+00	-1.73502252920E-01
3.10811856525E+05	-1.09664493957E+01	6.23044821531E+01	6.77283061201E+00	-1.78496419864E+02	-3.70847278301E+01	7.17555927496E-01	-5.83339430993E+00	-3.18969137409E-01
3.11036516954E+05	-1.43391719343E+01	1.05980201665E+02	6.88324718575E+00	-1.79019744667E+02	-4.78173842720E+01	6.22763353982E+01	-5.89243167675E+00	-3.01377600083E-01
3.11261339771E+05	-2.11535663887E+01	-9.20432256938E+00	6.81506685459E+00	-1.77834501676E+02	-3.65536945649E+01	-1.73994104856E+02	-5.89737786010E+00	-3.42683024325E-01
3.11486325094E+05	-2.50738590197E+01	3.56264804888E+01	6.86257675922E+00	-1.77820554900E+02	-3.14731028989E+01	-1.41733664774E+02	-5.93261131107E+00	-7.35116853186E-01
3.11711473040E+05	-1.85087056132E+01	-7.40714564570E+01	6.81493415329E+00	-1.77211111711E+02	-4.47063172954E+01	9.69535971288E+01	-5.89213486540E+00	-1.71923211128E-01
3.11936783728E+05	-3.23824422395E+01	1.66013590272E+02	7.00749109143E+00	-1.77615601766E+02	-4.08191686847E+01	-1.28229689265E+02	-5.92294524244E+00	-3.50962229449E-01
3.12162257274E+05	-1.74818743657E+01	1.67959784673E+00	6.87114319729E+00	-1.78359679168E+02	-3.97360312962E+01	1.90104185294E+01	-5.86215855658E+00	-2.20895825359E-01
3.12387893797E+05	-6.42998428501E+00	7.95725816951E+01	6.81173645715E+00	1.79927283612E+02	-3.74119086449E+01	4.13815320270E+01	-5.84652419150E+00	-9.70677235954E-02
3.12613693413E+05	-2.05670287084E+01	-1.34425910867E+02	7.00696130744E+00	-1.77683648189E+02	-4.79350468014E+01	-5.46139326447E+01	-5.87567725679E+00	-1.98697322216E-01
3.12839656242E+05	-1.89593761179E+01	-7.45477569107E+01	6.89692029142E+00	-1.77841084903E+02	-4.90993799656E+01	1.78583056066E+02	-5.92840962960E+00	-3.74319030135E-01
3.13065782401E+05	-2.11854476886E+01	2.36519372379E+01	6.87869987429E+00	-1.77921415228E+02	-3.79558806268E+01	-5.38794254010E+01	-5.85854447388E+00	-2.99045183864E-01
3.13292072007E+05	-2.81466681273E+01	8.47086737844E+01	6.91560268654E+00	-1.77614611385E+02	-3.73408719739E+01	-1.37673950100E+01	-5.87511306195E+00	-2.86415524707E-01
3.13518525180E+05	-1.85226951683E+01	-1.55816533680E+02	6.97352986109E+00	-1.77888602004E+02	-4.63970683766E+01	6.38043419902E+01	-5.88574043238E+00	-4.15939129011E-01
3.13745142038E+05	-1.61729509621E+01	-2.71625065243E+00	6.84516095614E+00	-1.78170024324E+02	-3.67261918313E+01	1.11006614986E+02	-5.89996639723E+00	-1.04259724081E-01
3.13971922698E+05	-2.00674754559E+01	6.63163915254E+01	6.85874861453E+00	-1.78624765792E+02	-3.31545349183E+01	1.54291954477E+02	-5.95513454566E+00	-1.51802590497E-01
3.14198867279E+05	-1.90697219510E+01	1.26816867614E+02	6.95399591707E+00	-1.78232499446E+02	-4.11295434486E+01	3.77462909200E+01	-5.86160414107E+00	-3.10705417264E-01
3.14425975900E+05	-2.12402885427E+01	-3.25469207149E+01	6.91361196966E+00	-1.77566693022E+02	-3.66381334721E+01	-9.33472311750E+01	-5.91729749079E+00	-5.19739293614E-01
3.14653248680E+05	-1.91316381908E+01	1.57565054624E+02	6.88697422887E+00	-1.77962904912E+02	-3.30224442470E+01	3.94439345092E+01	-5.86711445846E+00	-1.32788928508E-01
3.14880685736E+05	-1.50649371522E+01	5.88227762726E+01	6.86133158160E+00	-1.78569481488E+02	-3.96300906089E+01	9.66405795552E+01	-5.92766935858E+00	7.29983009201E-02
3.15108287188E+05	-2.11400133530E+01	1.13804820221E+02	6.99674957418E+00	-1.78047710809E+02	-4.07327227440E+01	-1.01334196988E+02	-5.89267228565E+00	-5.30094878230E-01
3.15336053154E+05	-2.20424935443E+01	-3.58001628278E+01	6.93971025640E+00	-1.77321422016E+02	-4.36209907482E+01	1.10403471762E+02	-5.90424229924E+00	-2.51822690686E-01
3.15563983753E+05	-1.37753863113E+01	-2.84199254203E+01	6.74073093472E+00	-1.77235340513E+02	-4.09111155887E+01	-1.72731930238E+02	-5.94307663178E+00	-3.15131234294E-01
3.15792079105E+05	-2.00738654928E+01	-1.62331858570E+02	7.01903548558E+00	-1.77444891537E+02	-4.19735370646E+01	8.68708534659E+00	-5.85514268405E+00	-1.69398717334E-01
3.16020339328E+05	-2.72028694857E+01	1.49054151932E+02	6.87675241595E+00	-1.77969193178E+02	-3.24169284194E+01	-1.30468403413E+02	-5.89518163329E+00	-5.75193702036E-01
3.16248764542E+05	-2.03589091521E+01	1.19020175938E+02	6.94940862567E+00	-1.77984836722E+02	-4.05112553540E+01	-1.32091595692E+02	-5.90202265607E+00	-3.12334788706E-01
3.16477354866E+05	-2.08498955676E+01	8.72743989025E+01	6.94168146083E+00	-1.77859502880E+02	-4.73383557000E+01	6.75177568006E+01	-5.89300012388E+00	4.53678232752E-02
3.16706110419E+05	-3.74111012752E+01	-3.02939801934E+00	6.96006825058E+00	-1.77974770133E+02	-3.94421536704E+01	1.13278911460E+02	-5.86002985312E+00	-9.42143477159E-02
3.16935031321E+05	-1.02942337303E+01	1.22064962201E+02	7.02736987283E+00	-1.79435740964E+02	-4.44872818933E+01	8.20286444481E+01	-5.87296643263E+00	-1.48896717914E-01
3.17164117691E+05	-8.64907644110E+00	-6.34837757314E+01	6.82758104326E+00	-1.76077175141E+02	-4.18953737094E+01	1.06795706939E+02	-5.91436166254E+00	-2.25311061212E-01
3.17393369648E+05	-1.47626710103E+01	1.06871659652E+02	6.99076850533E+00	-1.78525348796E+02	-3.88639286370E+01	-9.85298375533E+01	-5.88652330170E+00	-4.06457292849E-01
3.17622787313E+05	-2.46323967434E+01	1.39222407701E+02	6.91740616152E+00	-1.78092330930E+02	-3.74102199481E+01	6.50236506278E+00	-5.82092315956E+00	-2.60901917866E-01
3.17852370806E+05	-2.11579599807E+01	-1.22315085025E+00	6.86573231562E+00	-1.77795299394E+02	-3.02752791114E+01	-3.40982294701E+01	-5.81376060518E+00	-4.00672605164E-01
3.18082120245E+05	-1.66794144276E+01	-7.13544289332E+01	6.90795189862E+00	-1.77420539100E+02	-4.41308256801E+01	-1.56769573342E+02	-5.89908385833E+00	-3.31003333173E-01
3.18312035752E+05	-2.90118705275E+01	-1.10011256122E+02	6.91579407883E+00	-1.77834265904E+02	-4.20929416077E+01	-5.15939200936E+01	-5.84649518456E+00	-2.00806096328E-01
3.18542117445E+05	-1.31587629252E+01	-1.20499765203E+02	7.05213811169E+00	-1.76726703630E+02	-4.23056206197E+01	-1.56273609430E+02	-5.90321667321E+00	-4.83779558975E-01
3.18772365446E+05	-1.47781313059E+01	1.32185377122E+02	6.94607351956E+00	-1.78916089821E+02	-4.19074024827E+01	-2.23659628259E+01	-5.87372445764E+00	-1.84166211230E-01
3.19002779874E+05	-2.38689423905E+01	-1.71045067426E+02	6.95433535721E+00	-1.77833082571E+02	-4.24583280346E+01	-1.76417818030E+02	-5.93177852471E+00	-3.69845675246E-01
3.19233360850E+05	-2.47135653808E+01	1.00402672327E+02	6.93446528868E+00	-1.78160058402E+02	-3.45628006628E+01	-1.26240424621E+02	-5.91530769997E+00	-6.71072516897E-01
3.19464108494E+05	-3.20338449798E+01	-5.22436352555E+01	6.93369869645E+00	-1.77782185779E+02	-3.41775568448E+01	-1.78548095712E+02	-5.93214532481E+00	-8.01843018805E-02
3.19695022927E+05	-2.22493671937E+01	-1.44906555908E+02	6.90378676243E+00	-1.77460796043E+02	-4.08573491736E+01	-2.04571003113E+01	-5.86103609314E+00	-2.95495705108E-01
3.19926104268E+05	-1.42332938186E+01	1.67845016584E+02	7.10565471895E+00	-1.77578537760E+02	-3.22588124783E+01	4.49150175222E+01	-5.83500141943E+00	3.11918715942E-01
3.20157352640E+05	-3.44713935172E+01	-2.11576743790E+01	6.81786587776E+00	-1.77727678313E+02	-4.51633038364E+01	4.87381159442E+01	-5.85554404674E+00	-1.23303856008E-01
3.20388768162E+05	-1.52024879637E+01	1.46491935429E+00	6.75426461094E+00	-1.78128542685E+02	-3.99185872758E+01	-1.98124699731E+01	-5.84613756681E+00	-5.15500233854E-01
3.20620350955E+05	-3.20035660633E+01	9.20309681712E+01	6.99856013805E+00	-1.77716855563E+02	-4.96540998518E+01	2.71741827669E+01	-5.90372156349E+00	-3.75715655556E-01
3.20852101140E+05	-1.68984237015E+01	-1.27115149829E+02	6.93350882333E+00	-1.77006147829E+02	-3.28124912821E+01	-4.05354641810E+01	-5.82933576841E+00	-7.04029773130E-01
3.21084018839E+05	-2.81293931733E+01	-1.64651128419E+02	7.01757590734E+00	-1.77820159482E+02	-3.14018130848E+01	6.99634284348E+01	-5.87700322445E+00	4.05915242772E-01
3.21316104172E+05	-3.01350602898E+01	1.57083439323E+02	6.94305165085E+00	-1.77502916366E+02	-4.30366651268E+01	-7.76752005956E+01	-5.90277191986E+00	-4.34037098178E-01
3.21548357261E+05	-4.44035237465E+01	2.23026168326E+01	7.01201142513E+00	-1.77869612351E+02	-3.66354176748E+01	1.23451322992E+02	-5.90051200447E+00	-5.41698369844E-02
3.21780778226E+05	-2.02061888708E+01	-1.61999212975E+02	7.00465411674E+00	-1.77815133952E+02	-3.59068208261E+01	-6.24901996507E+01	-5.86506537793E+00	-4.45469009402E-01
3.22013367189E+05	-1.41786479933E+01	4.01314215687E+01	6.80636795154E+00	-1.78718766447E+02	-4.07782212516E+01	-2.69592581105E+00	-5.88076419793E+00	-2.75071481100E-01
3.22246124272E+05	-1.82645997713E+01	4.75304119353E+01	6.81910993919E+00	-1.78391810732E+02	-3.86684448619E+01	-1.63573716976E+02	-5.91804476451E+00	-3.17156454686E-01
3.22479049596E+05	-2.47581632548E+01	1.58618235480E+01	6.89141998799E+00	-1.78190579187E+02	-4.42951512492E+01	-7.02363915691E+01	-5.85650543545E+00	-1.72831990111E-01
3.22712143282E+05	-3.46699603135E+01	7.20565645126E+01	6.96427518049E+00	-1.78477775733E+02	-4.16617385819E+01	-1.51192550080E+02	-5.92565417901E+00	-2.50367767408E-01
3.22945405453E+05	-3.35367995878E+01	-1.30329274475E+02	6.93732989226E+00	-1.77634181556E+02	-5.12490583954E+01	1.39649840383E+02	-5.88244186156E+00	-1.38588407306E-01
3.23178836230E+05	-1.64308376254E+01	-1.54417456466E+02	7.01774066768E+00	-1.77557714101E+02	-3.78096041290E+01	-2.65636244537E+01	-5.84790020211E+00	-1.86264249699E-01
3.23412435735E+05	-1.27402856240E+01	1.00542226141E+02	6.87612259558E+00	-1.78909096229E+02	-4.93028738083E+01	1.11902750561E+02	-5.86362354421E+00	-4.17853980790E-01
3.23646204090E+05	-1.77197419162E+01	1.63498643107E+02	7.02733929383E+00	-1.78612170045E+02	-5.15804482369E+01	-7.79997249713E+01	-5.88902227108E+00	-2.66838336444E-01
3.23880141417E+05	-2.85764930197E+01	-6.61002552324E+00	6.92185482405E+00	-1.78236384565E+02	-3.82246940946E+01	-7.03200762148E+01	-5.85416414233E+00	-4.23117885899E-01
3.24114247838E+05	-2.50187588275E+01	4.29274481586E+00	6.91240202110E+00	-1.77839688597E+02	-3.22364006712E+01	-1.04459401129E+02	-5.89524899965E+00	-8.51966745034E-01
3.24348523475E+05	-1.76354830843E+01	8.80728840469E+01	6.92075971643E+00	-1.78251557336E+02	-3.50758303164E+01	-6.94039004800E+01	-5.84289693425E+00	-5.54266867212E-01
3.24582968451E+05	-1.82548151118E+01	7.92899036832E+01	6.90673948807E+00	-1.78186142762E+02	-3.41549922746E+01	3.84149658633E+01	-5.85309974374E+00	-7.20811993509E-02
3.24817582888E+05	-2.17937831499E+01	5.04901930167E+01	6.87225401445E+00	-1.77927519592E+02	-3.96218582573E+01	-1.26987997480E+02	-5.91069738303E+00	-1.17803065329E-01
3.25052366909E+05	-1.19841843224E+01	8.69366457865E+01	6.88831099392E+00	-1.78620126014E+02	-3.93942160360E+01	1.52839035101E+02	-5.90247057596E+00	-5.63154911409E-01
3.25287320635E+05	-3.64598107591E+01	5.64034912487E+01	6.88591177656E+00	-1.77779787936E+02	-4.14678153598E+01	-3.45514360330E+01	-5.89264391203E+00	-1.47967125281E-01
3.25522444191E+05	-2.64077543887E+01	-1.56502001772E+01	6.90012996525E+00	-1.78074793358E+02	-4.15052140137E+01	3.54063983088E+01	-5.92724729613E+00	-1.98627496088E-01
3.25757737698E+05	-1.50902874522E+01	-1.58460434157E+02	6.94392740040E+00	-1.77436735432E+02	-3.28350466464E+01	-5.46392686192E+00	-5.82021396860E+00	-3.44958091479E-01
3.25993201280E+05	-1.91345922155E+01	-2.04308603653E+01	6.91385220653E+00	-1.77949647297E+02	-3.89145301285E+01	1.08090922832E+02	-5.91411507474E+00	-4.06436588310E-01
3.26228835058E+05	-1.58952727138E+01	-1.01989309274E+02	6.95291941981E+00	-1.77204856889E+02	-3.52269712260E+01	-5.80350202393E+01	-5.89075930632E+00	-4.21498471712E-01
