# Hz S DB R 50
! CMT, M5065, 19127446, 24.2.4/2
! Date: 11/1/2024 4:49:15 PM
! Data: Format (Calibration Info)
! Freq	S11:dB/Ang(F2)	S21:dB/Ang(F2)	S12:dB/Ang(F2)	S22:dB/Ang(F2)
3.00000000000E+05	-2.13640045893E+01	-1.17897273416E+01	2.37784673048E+01	-1.74440812326E+02	-4.89486840019E+01	3.66957271197E+01	-5.82533183657E+00	-6.63079418655E-02
3.00216845423E+05	-1.54057057656E+01	1.83774590729E+01	2.37028922755E+01	-1.74830545689E+02	-3.82774696054E+01	3.98115322777E+01	-5.73912100023E+00	2.68835799473E-01
3.00433847586E+05	-2.12215900826E+01	6.18100162831E+01	2.38108667191E+01	-1.74817008185E+02	-4.18505300206E+01	-1.65555364614E+02	-5.97333724244E+00	-8.63771160931E-01
3.00651006602E+05	-2.05700443079E+01	1.41234822982E+02	2.38358581275E+01	-1.75089372926E+02	-4.55327508038E+01	1.70992969431E+02	-5.92319510985E+00	-4.00414783820E-01
3.00868322584E+05	-7.63925851896E+00	1.04026912206E+02	2.38243362856E+01	-1.76352916686E+02	-3.85127379072E+01	-5.26273198293E+01	-5.75384138316E+00	-1.28151393695E+00
3.01085795647E+05	-2.86250398159E+01	-5.45475373132E+01	2.38108579981E+01	-1.74481187442E+02	-4.18727011696E+01	-1.23086664850E+02	-5.94238577312E+00	-1.38149939602E+00
3.01303425902E+05	-2.11230374671E+01	-1.58974911191E+02	2.38768668843E+01	-1.74523172386E+02	-4.01406421905E+01	-1.30672941591E+02	-5.97881722716E+00	-9.50700363099E-01
3.01521213465E+05	-2.79096802496E+01	-2.40693993498E+01	2.38012960702E+01	-1.74752705457E+02	-3.99489790076E+01	1.06298531791E+02	-5.89502132778E+00	7.60862827671E-01
3.01739158449E+05	-3.07004516534E+01	1.30417613045E+02	2.38154151451E+01	-1.74679704010E+02	-4.06233049411E+01	1.64453412050E+02	-6.00804236850E+00	-1.11990109097E-02
3.01957260967E+05	-2.16338225833E+01	2.99716796916E+01	2.37534788801E+01	-1.74826320695E+02	-4.56470233067E+01	-1.74713307437E+02	-6.00172320114E+00	-2.45383549640E-01
3.02175521134E+05	-1.87159816088E+01	1.65807656827E+01	2.36932168438E+01	-1.74962812516E+02	-4.06887325993E+01	-1.56429374754E+02	-6.04002288268E+00	-7.06910517156E-01
3.02393939063E+05	-2.51711157170E+01	-8.92653909764E+01	2.38330073843E+01	-1.74120357754E+02	-3.27940864772E+01	1.70541599872E+02	-6.28157749334E+00	-5.82661869051E-01
3.02612514869E+05	-2.89566265129E+01	3.23474292865E+01	2.37585645186E+01	-1.74686997463E+02	-4.27689528574E+01	-1.42555536293E+02	-5.99329387077E+00	-9.00977745447E-01
3.02831248665E+05	-1.95539571068E+01	1.23418576228E+01	2.37631049888E+01	-1.74813106248E+02	-4.03701842069E+01	-8.11744913835E+01	-5.86108372817E+00	-1.59802495526E+00
3.03050140565E+05	-1.74305368304E+01	-2.65801663308E+01	2.37442568006E+01	-1.74316376810E+02	-4.53684207889E+01	7.71835511345E+01	-5.91505527184E+00	1.70383912767E-01
3.03269190685E+05	-2.21433000913E+01	-4.74667099068E+00	2.37268711427E+01	-1.74724721286E+02	-4.31768992292E+01	-1.32257068981E+02	-5.96047020207E+00	-1.19052044389E+00
3.03488399138E+05	-2.55354397502E+01	-8.89738910819E+01	2.37549466150E+01	-1.74448249972E+02	-3.91992893849E+01	6.41736704053E+01	-5.77010357149E+00	4.09090303299E-01
3.03707766039E+05	-1.32812629145E+01	2.22111933626E+01	2.36739289598E+01	-1.75139715195E+02	-3.64599714393E+01	5.60045837746E+01	-5.83756716015E+00	1.29927755863E+00
3.03927291503E+05	-1.07892293668E+01	-1.53971505802E+01	2.36126873663E+01	-1.74475836179E+02	-3.74075378700E+01	-8.63643090459E+01	-5.88671011365E+00	-1.76751262158E+00
3.04146975643E+05	-2.47896681092E+01	-1.13374833683E+02	2.37921877699E+01	-1.74686321056E+02	-3.45636616235E+01	-7.81257782634E+01	-5.81555678141E+00	-2.48270311921E+00
3.04366818575E+05	-1.93150891483E+01	8.54618350228E+01	2.37722054885E+01	-1.75338462924E+02	-4.32885029563E+01	-7.57002879046E+01	-5.80598104207E+00	-1.31365565960E+00
3.04586820414E+05	-1.67227867151E+01	9.34170536993E+01	2.37943716862E+01	-1.75190784565E+02	-3.51889651292E+01	-1.08857373080E+02	-5.91437880815E+00	-2.11733777768E+00
3.04806981274E+05	-1.35420321917E+01	-8.38180219301E+01	2.37841452857E+01	-1.74316707231E+02	-4.63432141369E+01	-8.56223981775E+01	-5.85153428877E+00	-5.21809845459E-01
3.05027301270E+05	-2.34187414394E+01	1.35671685525E+01	2.37357842765E+01	-1.74705216322E+02	-3.41381122808E+01	-1.14076324020E+02	-5.97792137425E+00	-2.24433278245E+00
3.05247780517E+05	-1.98986834089E+01	-6.36558159179E+00	2.36961865785E+01	-1.74939449695E+02	-4.18050659613E+01	1.65407093516E+02	-5.98692934535E+00	-2.34642402191E-01
3.05468419131E+05	-1.87969838774E+01	-7.03254302398E-01	2.37740071932E+01	-1.74656943983E+02	-4.14824725305E+01	1.01135839568E+02	-6.00439606030E+00	1.08052313227E+00
3.05689217226E+05	-1.95020651846E+01	5.59703323535E+01	2.37746518689E+01	-1.75241996177E+02	-4.14603784520E+01	9.85072845020E+01	-5.88847065943E+00	8.99033405393E-01
3.05910174918E+05	-2.47633966382E+01	-7.86156710943E+01	2.38018657925E+01	-1.74670318040E+02	-5.39965406906E+01	2.65998009063E+01	-5.85968042379E+00	-2.71206134617E-01
3.06131292322E+05	-2.21613140871E+01	-2.62654107974E+00	2.37614387726E+01	-1.74890638554E+02	-4.54765448018E+01	9.52743168695E+01	-5.92300653928E+00	3.16676006500E-01
3.06352569554E+05	-2.18188528640E+01	2.35005389328E+01	2.37247785851E+01	-1.75118512528E+02	-4.01535144690E+01	-8.74648536406E+00	-5.70363041534E+00	-1.30254483359E-01
3.06574006730E+05	-2.12851560739E+01	6.44418055102E+01	2.37869528152E+01	-1.74927912754E+02	-5.05913072164E+01	9.05974190535E+01	-5.85630419263E+00	3.47188753605E-02
3.06795603964E+05	-8.83173406242E+00	-8.41175679652E+01	2.38127223707E+01	-1.73292993761E+02	-3.57616170195E+01	-7.99650485541E+01	-5.79803374532E+00	-2.14200574261E+00
3.07017361372E+05	-1.74147818955E+01	3.01540446776E+01	2.37316834361E+01	-1.75217792640E+02	-3.90531299631E+01	-3.22935856766E+01	-5.62261696308E+00	-1.40642906967E+00
3.07239279071E+05	-3.47324510900E+01	-8.12409510672E+01	2.37791633800E+01	-1.74940682001E+02	-3.82913560658E+01	3.21847434911E+01	-5.74880303403E+00	3.83276143755E-01
3.07461357176E+05	-1.90535877565E+01	-5.78450675413E+01	2.37610115867E+01	-1.74405620733E+02	-3.43646221382E+01	-1.12100761694E+02	-5.97329236269E+00	-2.46165507738E+00
3.07683595803E+05	-2.20431067918E+01	-8.83917152848E+01	2.37919763311E+01	-1.74644833828E+02	-4.81736434420E+01	-1.35076335271E+01	-5.84072247127E+00	-5.75594749112E-01
3.07905995068E+05	-1.69928869154E+01	-4.24727854474E+01	2.37369129847E+01	-1.74685108243E+02	-4.18244158040E+01	-4.03453501846E+01	-5.81815225145E+00	-7.43357920797E-01
3.08128555087E+05	-2.90374348867E+01	4.11607228303E+01	2.37991436777E+01	-1.75069294116E+02	-3.88726715153E+01	-7.94662819385E+01	-5.80760376902E+00	-1.51646596473E+00
3.08351275976E+05	-1.95263525285E+01	1.18177246147E+02	2.37971508323E+01	-1.75247291027E+02	-4.96661140929E+01	-1.15010506752E+02	-5.91696223111E+00	-9.36201624513E-01
3.08574157853E+05	-1.99555164660E+01	-4.16827664147E+01	2.37687707547E+01	-1.74741616826E+02	-4.54506791096E+01	4.06034964143E+01	-5.77701905846E+00	-2.06175564896E-01
3.08797200832E+05	-1.76124585030E+01	8.56694299149E+01	2.38057540750E+01	-1.75290749711E+02	-3.34222931340E+01	-6.80958473018E+01	-5.63669110965E+00	-2.72346615703E+00
3.09020405031E+05	-1.78444160202E+01	3.43804704872E+01	2.37085936193E+01	-1.75259299827E+02	-4.22248084399E+01	-1.30535043306E+02	-5.99935174264E+00	-4.87547928015E-01
3.09243770566E+05	-2.23675581084E+01	-4.62837956294E+01	2.37578205786E+01	-1.75093140023E+02	-3.91580464657E+01	-2.17649213346E+01	-5.64259324154E+00	-6.95934584040E-01
3.09467297553E+05	-2.23735646360E+01	7.38606435797E-01	2.37691963673E+01	-1.74839609953E+02	-3.92743337683E+01	1.71975232291E+01	-5.69806635427E+00	-2.20324009878E-02
3.09690986110E+05	-2.48850518920E+01	8.67190014064E+00	2.37402887388E+01	-1.75201534038E+02	-3.59228904724E+01	1.45026963998E+01	-5.65978721320E+00	4.90974300974E-02
3.09914836353E+05	-2.11230183017E+01	1.44296674200E+02	2.38391732735E+01	-1.75133117915E+02	-3.83075262866E+01	9.06508444307E+01	-5.81903210889E+00	8.33097218031E-01
3.10138848399E+05	-2.16631172307E+01	1.13482743222E+01	2.37250302331E+01	-1.75130576961E+02	-4.68844031740E+01	-4.88139821167E+01	-5.87316023713E+00	-1.28154825627E+00
3.10363022365E+05	-1.87282948770E+01	1.16259011204E+01	2.37684994484E+01	-1.74926646380E+02	-4.03402765613E+01	6.17592727300E+01	-5.74774367505E+00	3.41747048658E-01
3.10587358368E+05	-2.69457973718E+01	-1.27011053063E+02	2.38349239469E+01	-1.75311020020E+02	-3.65416146185E+01	8.42095532352E+00	-5.62727416836E+00	6.61540526421E-03
3.10811856525E+05	-4.00670197694E+01	6.96061631388E+01	2.37911976255E+01	-1.75114749368E+02	-3.48772870494E+01	1.57831168535E+02	-6.08651138683E+00	2.78835906397E-02
3.11036516954E+05	-2.43045199360E+01	-1.70390438986E+02	2.38590839603E+01	-1.75191398759E+02	-4.17323339140E+01	-1.48174986904E+02	-5.94427708077E+00	-8.28937857576E-01
3.11261339771E+05	-2.56853674714E+01	1.32584748683E+02	2.38082100212E+01	-1.75457889968E+02	-4.09180062557E+01	6.30509575742E+01	-5.79764630818E+00	3.55978285562E-01
3.11486325094E+05	-1.53842830535E+01	-8.10390859272E+00	2.36967928887E+01	-1.75295653892E+02	-4.02328810370E+01	6.63788427851E+01	-5.76007739268E+00	5.26746886277E-02
3.11711473040E+05	-2.36261832404E+01	-1.01364807595E+02	2.38267979796E+01	-1.74899572822E+02	-3.32196674734E+01	1.20369737287E+02	-6.04608618147E+00	1.32887319829E+00
3.11936783728E+05	-1.80850024988E+01	1.00011388231E+02	2.37842936103E+01	-1.75709900868E+02	-3.49716803816E+01	1.61811057484E+02	-6.17266635613E+00	-1.59849672410E-01
3.12162257274E+05	-2.98775508678E+01	6.14649790886E+01	2.38095006193E+01	-1.75325571603E+02	-3.75463469624E+01	-1.13023616400E+02	-5.94659209303E+00	-1.91034662125E+00
3.12387893797E+05	-1.32585311180E+01	-4.26635437597E+01	2.37241522082E+01	-1.74582270741E+02	-3.60988580992E+01	-1.10778476960E+02	-5.92845787557E+00	-1.66128421761E+00
3.12613693413E+05	-1.93488491561E+01	1.77106024680E+02	2.38490465781E+01	-1.75377043523E+02	-4.41052287169E+01	-1.88002650230E+01	-5.78143496177E+00	-5.15405938533E-01
3.12839656242E+05	-2.03196794457E+01	-2.05985909881E+01	2.37739500088E+01	-1.74985517232E+02	-3.54448893719E+01	1.59104411494E+02	-6.15417609321E+00	3.32065475190E-01
3.13065782401E+05	-1.74262127895E+01	2.77939578860E+01	2.37242671811E+01	-1.75371060895E+02	-4.74289088583E+01	1.66091072969E+02	-5.93227898497E+00	-7.13909587259E-01
3.13292072007E+05	-8.10997707387E+00	-8.19151744662E+01	2.37834095567E+01	-1.73649540303E+02	-3.98983462081E+01	1.64093545897E+02	-6.02713367161E+00	-1.23303849637E-01
3.13518525180E+05	-1.84176966382E+01	1.73772548865E+01	2.37192192439E+01	-1.75328573064E+02	-2.53714464218E+01	-2.57665369616E+01	-4.82775989783E+00	-3.10982703714E+00
3.13745142038E+05	-2.68480987210E+01	1.70366718352E+02	2.38208682122E+01	-1.75423332350E+02	-4.36437677832E+01	7.63759565768E+01	-5.79598190557E+00	3.16026194166E-01
3.13971922698E+05	-3.07376089651E+01	-4.50328427503E+01	2.37830975676E+01	-1.74992951673E+02	-4.32917209550E+01	5.78702353253E+01	-5.76387072597E+00	-4.65910699644E-02
3.14198867279E+05	-2.86261473540E+01	-6.59129902649E+01	2.37854194204E+01	-1.75148222767E+02	-5.33129888617E+01	1.77384246436E+02	-5.89968797464E+00	-2.86337097451E-01
3.14425975900E+05	-1.81759017876E+01	-4.15884792737E+01	2.37204463330E+01	-1.75093363703E+02	-4.20248191063E+01	-1.42011965018E+02	-5.91226659133E+00	-8.10867936482E-01
3.14653248680E+05	-2.43118709957E+01	1.56635000539E+02	2.38268988386E+01	-1.75582778207E+02	-3.74691947582E+01	9.59194875648E+01	-5.84560230325E+00	8.51279028617E-01
3.14880685736E+05	-7.67160956021E+00	-5.02098987704E+01	2.35952995800E+01	-1.73675064441E+02	-4.20083872154E+01	7.78885673697E+01	-5.82362972318E+00	7.40739924590E-01
3.15108287188E+05	-1.89501015390E+01	1.41362947483E+02	2.38321736654E+01	-1.75787878826E+02	-3.74718161633E+01	-1.60564617290E+01	-5.53404947433E+00	-5.01329021292E-01
3.15336053154E+05	-1.62911830899E+01	-1.05992810614E+01	2.37018801544E+01	-1.74905465837E+02	-3.65013272841E+01	-1.77847440085E+02	-6.13529564264E+00	-5.26447678285E-01
3.15563983753E+05	-1.44148115217E+01	8.75630660775E+01	2.37884085773E+01	-1.75840544225E+02	-3.74455760731E+01	-1.02381787670E+02	-5.89552485533E+00	-1.67178197151E+00
3.15792079105E+05	-2.99111825726E+01	1.55654645439E+01	2.37807780964E+01	-1.75463579307E+02	-3.88694166136E+01	7.09234051705E+01	-5.81610647227E+00	7.99193502817E-01
3.16020339328E+05	-1.65491152540E+01	-3.85840798734E+01	2.37320066093E+01	-1.75000121585E+02	-4.25426494850E+01	-4.69836247322E+01	-5.76268570900E+00	-3.49458252119E-01
3.16248764542E+05	-2.35472244659E+01	7.25111917148E+01	2.37943170622E+01	-1.75797816072E+02	-4.80398321228E+01	1.22161998990E-02	-5.89637873679E+00	-5.79619331311E-01
3.16477354866E+05	-1.75992000218E+01	9.37565711475E+01	2.38457838892E+01	-1.75835735507E+02	-3.19698234412E+01	-1.10763761463E+01	-5.44171497546E+00	-8.72047315433E-01
3.16706110419E+05	-1.56821293549E+01	2.06074877832E+01	2.37222323673E+01	-1.75417157826E+02	-3.68056216892E+01	1.14702299246E+02	-6.06778271512E+00	1.36444668075E+00
3.16935031321E+05	-2.38789916774E+01	-1.04486689802E+02	2.38019333306E+01	-1.75313566943E+02	-4.08845055987E+01	-3.92251714388E+01	-5.72693444280E+00	-8.22356525276E-01
3.17164117691E+05	-2.98899233004E+01	1.37966884268E+02	2.38019301186E+01	-1.75282344776E+02	-4.32184868119E+01	-1.97138089867E+01	-5.75025263317E+00	-4.47312475219E-01
3.17393369648E+05	-2.18093677434E+01	8.09719884955E+01	2.37986161390E+01	-1.75565848967E+02	-5.17428939733E+01	-9.57947330744E+01	-5.83474516953E+00	-5.42472764035E-01
3.17622787313E+05	-2.14368977068E+01	4.11321272999E+01	2.37495150460E+01	-1.75420755601E+02	-4.01825799770E+01	1.55126521402E+00	-5.71866603477E+00	-5.10767342847E-01
3.17852370806E+05	-1.81748363685E+01	4.47380288274E+01	2.37494842501E+01	-1.75884847508E+02	-4.74013365279E+01	-1.02112955990E+02	-5.89543151333E+00	-9.16742789806E-01
3.18082120245E+05	-1.67050598775E+01	-4.05092406165E+01	2.36810050811E+01	-1.75129161266E+02	-4.38923784144E+01	-8.41612526420E+01	-5.85352312275E+00	-1.27153285387E+00
3.18312035752E+05	-1.20120312344E+01	2.56354868306E+01	2.36215565794E+01	-1.76093324155E+02	-3.06709803574E+01	-1.61204140665E+02	-6.41926319778E+00	-1.89746849593E+00
3.18542117445E+05	-1.66091520540E+01	-7.99594873433E+01	2.37677962421E+01	-1.74914209089E+02	-4.06485809303E+01	1.56209108125E+02	-5.99724832731E+00	1.23369990406E-01
3.18772365446E+05	-1.64285192412E+01	6.94776019170E+00	2.37197017189E+01	-1.75628922634E+02	-4.43944578947E+01	-7.13470759737E+01	-5.86094343481E+00	-1.00704117488E+00
3.19002779874E+05	-1.92381883014E+01	-3.63635030977E+01	2.37519610450E+01	-1.75088825004E+02	-3.87136991195E+01	5.29805961452E+00	-5.65832878606E+00	-6.54162903780E-01
3.19233360850E+05	-1.98627506209E+01	-8.16320358948E+01	2.37891209851E+01	-1.75207042760E+02	-4.67699910237E+01	1.58996263758E+02	-5.95783974101E+00	-3.57156452041E-01
3.19464108494E+05	-2.16914010263E+01	1.36326090838E+01	2.37482278263E+01	-1.75525115506E+02	-5.20049809346E+01	1.31230495024E+02	-5.86849857710E+00	-6.48075170763E-01
3.19695022927E+05	-2.26170584061E+01	-1.66608313769E+02	2.38522721118E+01	-1.75795057658E+02	-3.68899205354E+01	-1.30382654170E+02	-5.96107319665E+00	-1.72441861651E+00
3.19926104268E+05	-1.15046032429E+01	-1.00811713528E+02	2.38015635017E+01	-1.74137451560E+02	-3.58093272649E+01	-8.50958653583E+01	-5.80004466136E+00	-2.69188144348E+00
3.20157352640E+05	-2.09757407839E+01	-1.32225130896E+02	2.38271580943E+01	-1.75230162551E+02	-4.48150203332E+01	-1.15034698369E+02	-5.94252255426E+00	-1.05646862416E+00
3.20388768162E+05	-1.94398821884E+01	-8.84690793757E+01	2.37926067200E+01	-1.75421564333E+02	-5.44445063457E+01	1.59199103682E+02	-5.89955799970E+00	-6.89885239739E-01
3.20620350955E+05	-1.67654114528E+01	-6.05464311911E+01	2.37388241840E+01	-1.74974636121E+02	-4.29044277127E+01	1.00167296955E+02	-5.91598207238E+00	4.18454183709E-01
3.20852101140E+05	-1.92984900995E+01	8.37827250857E+01	2.38044651939E+01	-1.76089257004E+02	-3.72334376311E+01	1.67837610558E+02	-6.15744081293E+00	-1.00163135711E-01
3.21084018839E+05	-1.91227855840E+01	-5.78026731322E+01	2.37784120327E+01	-1.75399468560E+02	-4.62094215873E+01	9.21060935910E+01	-5.84705936549E+00	2.50971753260E-01
3.21316104172E+05	-1.72886173821E+01	4.60990468388E+01	2.37354973023E+01	-1.76130398711E+02	-4.95113768607E+01	-2.94760844923E+01	-5.80476859934E+00	-4.48616601700E-01
3.21548357261E+05	-2.47289294107E+01	-1.10938051859E+02	2.37969772658E+01	-1.75470663035E+02	-3.17056741668E+01	5.15618622887E+01	-5.56727527978E+00	2.44887020833E+00
3.21780778226E+05	-3.28523524659E+01	-7.32188867714E+01	2.37829125559E+01	-1.75553232008E+02	-3.41774456488E+01	-4.76220230552E+01	-5.55347452146E+00	-1.71825538365E+00
3.22013367189E+05	-2.43505649308E+01	1.43773295045E+02	2.38544560435E+01	-1.75939183033E+02	-4.98813877066E+01	8.59339394888E+01	-5.89114140551E+00	-5.39977085578E-02
3.22246124272E+05	-1.74059270924E+01	-8.59416893435E+01	2.38093387524E+01	-1.75409235070E+02	-4.65793924658E+01	1.59107891730E+01	-5.79753407526E+00	6.65340915569E-02
3.22479049596E+05	-2.24309988761E+01	-7.22276838905E+01	2.37469099024E+01	-1.75330797668E+02	-3.66394707173E+01	-6.20515155718E-01	-5.63354446244E+00	-3.67683978929E-01
3.22712143282E+05	-2.21222811635E+01	4.07352836746E+01	2.37830914859E+01	-1.75853842833E+02	-4.83353264807E+01	1.49155287639E+02	-5.87796718492E+00	-1.64360778272E-01
3.22945405453E+05	-2.69318233580E+01	-9.22923492283E+01	2.37798008643E+01	-1.75613917018E+02	-3.48407367741E+01	-5.47825869045E+01	-5.74294093133E+00	-1.79144524778E+00
3.23178836230E+05	-1.44213611986E+01	5.06093482901E+01	2.37469931827E+01	-1.76289414564E+02	-3.85376015820E+01	-1.53944650456E+02	-6.08608185348E+00	-1.24192003561E+00
3.23412435735E+05	-2.94036516264E+01	1.28400793819E+02	2.38344836955E+01	-1.75831805949E+02	-3.45671127595E+01	-7.90711550219E+00	-5.53928519802E+00	-6.23599273736E-01
3.23646204090E+05	-1.76316996165E+01	2.93724395292E+01	2.37249415773E+01	-1.75840168953E+02	-4.48806689195E+01	1.10507497015E+02	-5.92091760410E+00	1.57233474012E-01
3.23880141417E+05	-1.83832592480E+01	5.46263233571E+01	2.37578023120E+01	-1.76243358390E+02	-3.66453556807E+01	1.12083475292E+02	-6.06173351731E+00	1.09069976991E+00
3.24114247838E+05	-4.02611973156E+01	-1.78323002551E+02	2.38134331330E+01	-1.75440507954E+02	-3.33996595126E+01	-4.02719287487E+01	-5.58389701230E+00	-1.66091977926E+00
3.24348523475E+05	-2.17881629810E+01	6.12501608560E+01	2.37692928784E+01	-1.76051954965E+02	-3.84776052873E+01	-7.88192258045E+01	-5.75988405028E+00	-1.65846075939E+00
3.24582968451E+05	-1.74727268791E+01	-8.77660672899E+01	2.38301800659E+01	-1.75068069503E+02	-4.74966074783E+01	-8.93864367727E+01	-5.82265302163E+00	-4.13185915606E-01
3.24817582888E+05	-1.91973400702E+01	1.14106570044E+02	2.38217714871E+01	-1.76507911911E+02	-4.09510007955E+01	1.30789336785E+02	-6.07382681446E+00	5.99848236783E-01
3.25052366909E+05	-2.26498030122E+01	-9.53450604664E+01	2.38248758481E+01	-1.75590685199E+02	-3.37041504001E+01	1.07256203751E+02	-5.98050813396E+00	2.71546878072E+00
3.25287320635E+05	-1.76192625349E+01	1.45966673844E+02	2.38857470657E+01	-1.76118022769E+02	-4.32761742384E+01	-1.65949512560E+02	-6.06035300015E+00	-5.27132420673E-01
3.25522444191E+05	-2.05970488863E+01	-1.90947572042E+01	2.37450000433E+01	-1.75790303472E+02	-4.91497747530E+01	1.65325500751E+02	-5.92547735609E+00	-3.49496511383E-02
3.25757737698E+05	-2.61270238672E+01	-7.49336923808E+01	2.37824777436E+01	-1.75516140733E+02	-3.89373986295E+01	5.19706485910E+01	-5.75554894378E+00	5.72132673650E-01
3.25993201280E+05	-2.12431801045E+01	8.13936266430E+01	2.37958686690E+01	-1.76285734290E+02	-4.10600378894E+01	9.55676487996E+01	-5.93941472116E+00	9.98509384039E-01
3.26228835058E+05	-1.40757446780E+01	-1.26749917629E+02	2.38566738435E+01	-1.75135140386E+02	-3.46564686374E+01	-1.09020612008E+02	-5.98358068848E+00	-2.20476272699E+00
