# Hz S DB R 50
! CMT, M5065, 19127446, 24.2.4/2
! Date: 11/1/2024 4:16:48 PM
! Data: Format (Calibration Info)
! Freq	S11:dB/Ang(F2)	S21:dB/Ang(F2)	S12:dB/Ang(F2)	S22:dB/Ang(F2)
3.00000000000E+05	-1.77342129747E+01	1.28591446145E+02	5.14665614464E+00	-1.77775690422E+02	-3.87883835699E+01	-1.45944333038E+02	-5.90301734275E+00	-1.27976816766E-02
3.00216845423E+05	-2.05973970741E+01	-1.16519896726E+02	5.15280439607E+00	-1.77351800556E+02	-3.95936438194E+01	-9.58938083102E+01	-5.89381873135E+00	-4.42830093694E-01
3.00433847586E+05	-3.43072963882E+01	1.28211218746E+02	5.10065256950E+00	-1.78013870740E+02	-3.94064074227E+01	1.67961071726E+02	-5.86310325740E+00	-3.48298510567E-01
3.00651006602E+05	-1.80419667941E+01	1.20687897875E+02	5.04910071740E+00	-1.78071201839E+02	-4.21734382144E+01	1.79191282232E+02	-5.88746089668E+00	9.55430805851E-02
3.00868322584E+05	-2.72355707540E+01	2.54648469347E+01	5.09730340760E+00	-1.77540137819E+02	-3.97769803296E+01	9.11135683398E+01	-5.87326662843E+00	-3.40474259851E-01
3.01085795647E+05	-1.47825704830E+01	-7.63418570734E+01	5.09184546929E+00	-1.76901210700E+02	-3.33298461108E+01	-1.75227869847E+02	-5.95313600960E+00	-1.31062267255E-01
3.01303425902E+05	-1.95446979464E+01	1.17845159672E+02	5.17581473544E+00	-1.78010453246E+02	-2.92421083765E+01	-1.24561199783E+02	-5.95044384145E+00	-5.32496357796E-01
3.01521213465E+05	-2.67896273206E+01	3.78665427278E+01	5.03717263496E+00	-1.78156562229E+02	-3.90606635448E+01	-1.74080832749E+02	-5.92571728393E+00	-2.84710925249E-01
3.01739158449E+05	-2.28754724032E+01	-2.25559396937E+01	5.12231645289E+00	-1.77272921416E+02	-4.78790236184E+01	-1.48989422995E+02	-5.91431699913E+00	-3.94183658096E-01
3.01957260967E+05	-2.03551343521E+01	-1.12268702142E+02	5.17097106893E+00	-1.77336025786E+02	-3.58341815397E+01	1.77115239895E+02	-5.90946587273E+00	-1.80069497650E-01
3.02175521134E+05	-2.86889878152E+01	1.26776061300E+02	5.14092989275E+00	-1.78312457175E+02	-4.36480499177E+01	1.01795106643E+02	-5.87966688541E+00	6.80734112914E-02
3.02393939063E+05	-2.82962653614E+01	-1.80820652213E+01	5.08814813165E+00	-1.77219147163E+02	-4.12381531796E+01	-3.38259842958E+01	-5.88022608579E+00	-3.56653092441E-01
3.02612514869E+05	-1.38592024481E+01	-5.94580867971E+01	4.98117966593E+00	-1.76508027652E+02	-3.48937546779E+01	-1.90264010873E+01	-5.86385667897E+00	-3.52164299077E-01
3.02831248665E+05	-2.02512002464E+01	-1.40435255343E+02	5.22765258887E+00	-1.77974122624E+02	-3.34607109134E+01	-2.99621664478E+01	-5.84676351524E+00	-4.52965367885E-01
3.03050140565E+05	-1.85240193009E+01	7.16413551053E+01	5.17985430230E+00	-1.78009942742E+02	-5.14241574046E+01	1.07290936189E+02	-5.87901638074E+00	-2.00513220211E-01
3.03269190685E+05	-2.62053277543E+01	-1.45280884725E+02	5.09084605745E+00	-1.78105005994E+02	-4.14229387981E+01	4.13195564476E+01	-5.84769995499E+00	-1.12313937602E-01
3.03488399138E+05	-2.24555399991E+01	8.47979593422E+00	5.06746415379E+00	-1.77440291541E+02	-5.25247844705E+01	8.97797543725E+01	-5.88105699150E+00	-3.45816317350E-01
3.03707766039E+05	-1.86297752285E+01	-1.48454187676E+02	5.17833611115E+00	-1.77440071773E+02	-3.77952442508E+01	3.21564351868E+01	-5.89854954409E+00	-9.84639804578E-02
3.03927291503E+05	-2.01784979507E+01	4.41334981730E+01	5.20054374882E+00	-1.78061749460E+02	-3.93219926744E+01	-5.26307915003E+01	-5.90271606968E+00	-8.23535045097E-02
3.04146975643E+05	-1.03100278126E+01	5.72539055502E+01	4.90005030746E+00	-1.78781392480E+02	-4.48483478805E+01	1.33534900608E+02	-5.91404388447E+00	5.46163445545E-02
3.04366818575E+05	-1.81994310775E+01	-1.24285680678E+02	5.12232092366E+00	-1.77130634782E+02	-3.15227168209E+01	-1.56173888040E+02	-5.95665992179E+00	-7.18963404049E-01
3.04586820414E+05	-2.03505631784E+01	-1.36679168559E+02	5.16672268131E+00	-1.77509366210E+02	-3.84023029592E+01	1.36143202752E+01	-5.89569487289E+00	-1.08056520416E-01
3.04806981274E+05	-2.21094530265E+01	1.24939096130E+02	5.13617423225E+00	-1.78440984072E+02	-4.32558498428E+01	-1.72029338804E+01	-5.88155934339E+00	-3.41737591702E-01
3.05027301270E+05	-2.87896589740E+01	1.20233379848E+02	5.07060510428E+00	-1.77776830553E+02	-3.64229009137E+01	4.98168535790E+01	-5.87930885785E+00	-2.06618497878E-01
3.05247780517E+05	-2.18597118566E+01	-1.74598940991E+02	5.15668479315E+00	-1.78066106809E+02	-3.95545268311E+01	-7.42581653321E+01	-5.84188269705E+00	-3.79461149178E-01
3.05468419131E+05	-1.34623097434E+01	-6.46591472244E+01	5.04250132190E+00	-1.77088293747E+02	-4.26729566400E+01	1.39638111104E+02	-5.90425028540E+00	-9.17380770700E-02
3.05689217226E+05	-1.91850308677E+01	1.39682450280E+02	5.15403164656E+00	-1.77731933701E+02	-5.35791382166E+01	-8.36854462321E+00	-5.92666056909E+00	-4.26045116317E-01
3.05910174918E+05	-1.32409835722E+01	-1.76465651085E+02	5.23801106853E+00	-1.77789095566E+02	-3.43697748744E+01	3.66580501112E+01	-5.84655635694E+00	7.53101377671E-02
3.06131292322E+05	-2.26639560574E+01	-9.48568692068E+01	5.08645224790E+00	-1.77251529356E+02	-5.64426760322E+01	-7.14689537786E+00	-5.85942184523E+00	-3.37492537222E-01
3.06352569554E+05	-2.18428977670E+01	-1.64258451459E+02	5.14371580889E+00	-1.78084171586E+02	-4.64057831847E+01	-8.80331057344E+01	-5.92141068729E+00	-7.00109175533E-01
3.06574006730E+05	-1.53514765411E+01	7.04921759366E+01	5.00296951790E+00	-1.78575870199E+02	-3.94657064120E+01	1.46040333823E+02	-5.84196938665E+00	-1.66147978818E-01
3.06795603964E+05	-1.71789663862E+01	-1.30517084777E+02	5.21856052628E+00	-1.77529858447E+02	-4.54321446454E+01	-2.54764164362E+01	-5.88755110691E+00	-1.99343192879E-01
3.07017361372E+05	-2.66885439074E+01	1.75794995054E+02	5.08073613538E+00	-1.77842009818E+02	-3.97519782535E+01	9.04416613413E+01	-5.83965535042E+00	3.20587211840E-02
3.07239279071E+05	-1.66580296880E+01	4.42385014504E+01	4.97719725060E+00	-1.78274021645E+02	-3.57477507304E+01	5.78991414877E+01	-5.86065967070E+00	5.95032933988E-02
3.07461357176E+05	-1.58606254179E+01	8.16702016098E+01	5.09186568201E+00	-1.78004735263E+02	-2.79740894383E+01	7.35286686084E+01	-5.83957464543E+00	5.52411252807E-01
3.07683595803E+05	-2.37251619017E+01	5.38975803786E+01	5.09626709500E+00	-1.78177573287E+02	-3.85333793609E+01	-1.24726955897E+02	-5.92792002503E+00	-7.92382100012E-02
3.07905995068E+05	-2.63288982287E+01	-2.68536523408E+00	5.05664738259E+00	-1.77585209201E+02	-4.17267265955E+01	-1.26449333530E+02	-5.91576685467E+00	-3.40834118250E-01
3.08128555087E+05	-2.04340160200E+01	4.25418497639E+01	5.06256787805E+00	-1.77935135867E+02	-3.71326532974E+01	1.63094966705E+02	-5.92430749443E+00	-2.37280240224E-01
3.08351275976E+05	-2.15043700120E+01	-1.06603483441E+02	5.05841864212E+00	-1.77516877326E+02	-3.83778480289E+01	1.88051794101E+01	-5.85459651405E+00	-3.63670686374E-01
3.08574157853E+05	-2.41775271643E+01	1.60495707498E+02	5.16910064606E+00	-1.77806843946E+02	-4.22739470657E+01	1.10568846197E+02	-5.93817665320E+00	5.64671943688E-02
3.08797200832E+05	-1.98247969149E+01	-4.03202044953E+01	5.09232736244E+00	-1.77469752610E+02	-3.60137573907E+01	1.14348897870E+02	-5.92255339226E+00	3.05144296115E-02
3.09020405031E+05	-1.08847974968E+01	7.26138014851E+01	5.01723942650E+00	-1.78568017217E+02	-2.81692964373E+01	8.98748516959E+01	-5.94808412470E+00	5.91547250779E-01
3.09243770566E+05	-2.16397140620E+01	1.44721522829E+02	5.12215182856E+00	-1.77698508695E+02	-4.08192969241E+01	-1.45681006336E+02	-5.92584069899E+00	-3.47407300689E-01
3.09467297553E+05	-2.66415767438E+01	-6.44965361796E+01	5.10892025032E+00	-1.77237722443E+02	-3.36764971960E+01	3.42593484036E+01	-5.86121864013E+00	-8.54108038118E-02
3.09690986110E+05	-1.78234323433E+01	1.29772143679E+02	5.06128247002E+00	-1.78376549097E+02	-4.14738668764E+01	-1.56200041825E+02	-5.92201997507E+00	-1.18100382387E-01
3.09914836353E+05	-2.11128331923E+01	-9.63537682369E+01	5.16110497108E+00	-1.76909011061E+02	-4.25323412700E+01	-1.36563877499E+02	-5.90321122838E+00	-3.11899534113E-01
3.10138848399E+05	-2.12588541015E+01	-3.79982463593E+01	5.00064065152E+00	-1.77612447461E+02	-3.82767910231E+01	1.30266716971E+02	-5.91084675555E+00	-1.85850045345E-01
3.10363022365E+05	-1.14801231718E+01	-5.88399922025E+01	4.93799014759E+00	-1.75910397682E+02	-3.62162074910E+01	6.67191827685E+01	-5.85924926282E+00	-1.79817872457E-02
3.10587358368E+05	-1.75254526330E+01	-1.58127083617E+01	4.98698317091E+00	-1.77511525161E+02	-3.50926253798E+01	9.44267424190E+01	-5.89412921411E+00	3.85394669292E-01
3.10811856525E+05	-3.85365711518E+01	8.05583672990E+01	5.12006520989E+00	-1.77614526096E+02	-4.40132071195E+01	-1.29422702771E+01	-5.92442948797E+00	-1.35872053125E-01
3.11036516954E+05	-2.11006964034E+01	8.95185836557E+01	5.12424766485E+00	-1.78316548875E+02	-4.34794848438E+01	1.42116779450E+02	-5.86750903381E+00	-1.91868294924E-01
3.11261339771E+05	-1.87808284173E+01	1.30073106125E+02	5.15999937533E+00	-1.78019800840E+02	-4.11122803757E+01	-9.27690577751E+01	-5.85818650600E+00	-3.20256569727E-01
3.11486325094E+05	-1.50091907090E+01	1.14158922699E+02	5.05570381945E+00	-1.78313669886E+02	-4.02235681718E+01	1.34052154540E+02	-5.86785275436E+00	1.65633878005E-01
3.11711473040E+05	-2.35972812073E+01	3.81453145200E+00	5.10699020009E+00	-1.77325401183E+02	-5.37994527924E+01	5.20447523851E+01	-5.92174154327E+00	-6.54746514158E-01
3.11936783728E+05	-3.60938331572E+01	-1.66523350184E+02	5.12191587287E+00	-1.77766926225E+02	-3.03681579481E+01	9.43002573989E+01	-5.91524806389E+00	9.90490968003E-02
3.12162257274E+05	-9.77907271562E+00	1.21582994529E+02	5.22800560269E+00	-1.79226577874E+02	-4.91768736436E+01	-7.13308821755E+01	-5.88053125806E+00	-3.26628340319E-01
3.12387893797E+05	-1.28969161436E+01	-1.10366615591E+02	5.20576253416E+00	-1.77245636338E+02	-3.40716863121E+01	-8.42719284869E+00	-5.79506947323E+00	-3.12962176815E-01
3.12613693413E+05	-1.62148828843E+01	1.21054790045E+02	5.17588548649E+00	-1.78290315208E+02	-4.34766695901E+01	-1.64028133813E+02	-5.89306745782E+00	-3.36184050197E-01
3.12839656242E+05	-1.76806756361E+01	1.10177564545E+02	5.11860709862E+00	-1.78003154096E+02	-4.02073031229E+01	8.01659926606E+01	-5.94153644887E+00	-4.56544653902E-01
3.13065782401E+05	-2.07166289518E+01	-1.50151337782E+02	5.20123925128E+00	-1.77285703494E+02	-4.10685302906E+01	1.78752693133E+02	-5.88586293423E+00	-3.51378887494E-01
3.13292072007E+05	-1.96195520679E+01	1.13108460323E+02	5.17700920469E+00	-1.77937598404E+02	-3.41535966898E+01	-1.77697612856E+02	-5.91359265921E+00	-1.42059867894E-01
3.13518525180E+05	-2.34384995611E+01	1.88798703519E+01	5.04615985846E+00	-1.78291943948E+02	-4.05079360587E+01	-8.50442930190E+01	-5.88778872443E+00	-2.06940826115E-01
3.13745142038E+05	-1.09261011505E+01	-6.49131363685E+01	4.97912577826E+00	-1.76891501956E+02	-2.89699677280E+01	4.99482605069E+01	-5.84234230341E+00	7.25432389990E-02
3.13971922698E+05	-2.68832994641E+01	-5.39401634322E+01	5.07373750479E+00	-1.77591095985E+02	-3.74144800537E+01	-5.03179592833E+01	-5.87511228645E+00	-4.32750261038E-01
3.14198867279E+05	-2.14159842322E+01	4.80560590422E+01	5.10205270377E+00	-1.78376984015E+02	-3.67078835632E+01	1.09191131567E+02	-5.87409878905E+00	-1.48048587432E-01
3.14425975900E+05	-1.32023846601E+01	-2.49101036006E+00	4.90685987033E+00	-1.77782662775E+02	-3.91501655380E+01	1.38612799976E+02	-5.88492856210E+00	-1.49149838862E-01
3.14653248680E+05	-2.72697694012E+01	-1.07564292378E+02	5.09958995476E+00	-1.77771608561E+02	-5.02265178570E+01	-9.61068939842E+01	-5.94517075656E+00	-2.29573379524E-01
3.14880685736E+05	-2.02622783403E+01	-1.08337423197E+02	5.14167528436E+00	-1.77741927445E+02	-4.15165610271E+01	2.87061141423E+01	-5.86706735244E+00	-7.09923971708E-03
3.15108287188E+05	-2.83659386756E+01	7.88262505771E+01	5.12892956416E+00	-1.78170669656E+02	-4.05800245830E+01	-7.65991755912E+01	-5.93648428143E+00	-1.23570190111E-01
3.15336053154E+05	-1.26847745185E+01	-1.77000807336E+02	5.26263948267E+00	-1.77804167540E+02	-3.47614409911E+01	3.09406203788E+01	-5.85912136163E+00	-1.65438423427E-01
3.15563983753E+05	-1.63538409320E+01	-8.98210024302E+01	5.17605905737E+00	-1.77422353548E+02	-3.93695034206E+01	-1.77945381270E+02	-5.91060784461E+00	-3.14022145103E-01
3.15792079105E+05	-1.94661630202E+01	1.69219876878E+02	5.07068091830E+00	-1.78030954843E+02	-4.33423129173E+01	8.43270764004E+00	-5.85370589749E+00	-3.90269225869E-02
3.16020339328E+05	-1.93984068679E+01	4.60367322622E+01	5.08165958985E+00	-1.78252770592E+02	-5.02754392592E+01	-3.18652684539E+01	-5.88333610946E+00	-2.26623821626E-01
3.16248764542E+05	-1.39223939430E+01	8.79511949233E+01	5.11236866273E+00	-1.78596762773E+02	-3.72085172679E+01	1.12850035626E+01	-5.86427633817E+00	-1.63700398920E-01
3.16477354866E+05	-1.59191364581E+01	-1.50534467478E+02	5.20438901397E+00	-1.77532006775E+02	-4.53668818638E+01	-2.67625577079E+01	-5.87874299570E+00	-2.12792770656E-01
3.16706110419E+05	-2.24347446306E+01	-1.95710883411E+01	5.04699720088E+00	-1.78029133944E+02	-3.64265417285E+01	-1.79754359137E+02	-5.90108291305E+00	-1.77577901113E-01
3.16935031321E+05	-5.93377134648E+00	1.21578151840E+02	5.27598370033E+00	1.79799455140E+02	-3.49831685030E+01	1.28259075188E+02	-5.95351984571E+00	6.93038401748E-02
3.17164117691E+05	-1.16177324093E+01	3.34708210468E+01	4.95148449414E+00	-1.78678468111E+02	-4.93244943066E+01	-1.16138283788E+02	-5.87702548944E+00	9.39419086912E-02
3.17393369648E+05	-1.82682693264E+01	1.78098060779E+02	5.17916590838E+00	-1.78000057326E+02	-4.79681811327E+01	-1.43149332782E+02	-5.89813582765E+00	-1.31058540706E-01
3.17622787313E+05	-1.71696262097E+01	5.63588726207E+01	5.06287325108E+00	-1.78565891818E+02	-4.37246652662E+01	2.12842691515E+01	-5.87183349404E+00	-2.69027116363E-01
3.17852370806E+05	-2.79572215422E+01	2.29940540898E+01	5.02830381085E+00	-1.78710936258E+02	-3.99195566983E+01	-1.35574484127E+02	-5.89813298696E+00	-1.44375929030E-01
3.18082120245E+05	-2.96255057476E+01	1.14668564314E+02	5.12539132264E+00	-1.78424041274E+02	-3.14509798259E+01	1.73973640123E+02	-5.93007825903E+00	-3.82336322218E-01
3.18312035752E+05	-2.33730958019E+01	1.20730675585E+02	5.08760742837E+00	-1.78164776997E+02	-4.35581777712E+01	-4.90910586299E+01	-5.86157700261E+00	-2.99295745780E-01
3.18542117445E+05	-1.23871138513E+01	1.57544939465E+02	5.28407335498E+00	-1.78463672018E+02	-4.27665869175E+01	-4.21828204191E+01	-5.87247606223E+00	-5.13220357487E-01
3.18772365446E+05	-2.99231302224E+01	-8.70307551827E+01	5.03593007529E+00	-1.77527696455E+02	-3.94743160520E+01	1.51566035074E+02	-5.92155822917E+00	-2.23559235579E-01
3.19002779874E+05	-2.91860476845E+01	-3.40393986441E+01	5.04912565954E+00	-1.77747535938E+02	-4.59438531772E+01	7.98071510876E+00	-5.89904881627E+00	-2.97647742017E-01
3.19233360850E+05	-1.81593983920E+01	-1.21584619848E+02	5.13087949343E+00	-1.77189162714E+02	-4.66641985548E+01	7.71253873485E+01	-5.88619430188E+00	-2.45867434313E-01
3.19464108494E+05	-2.30352667869E+01	-5.66506746515E+01	5.11976754250E+00	-1.77780803712E+02	-3.72407213345E+01	1.15861606649E+02	-5.93654746268E+00	-1.29950757552E-01
3.19695022927E+05	-2.59803536229E+01	-7.69741476974E+01	5.03551772447E+00	-1.77696419545E+02	-3.95441406369E+01	-4.28950413162E+00	-5.89184498642E+00	-1.73067569943E-01
3.19926104268E+05	-1.70892346716E+01	-5.68806480951E+01	5.11315406037E+00	-1.77333417648E+02	-3.84195449803E+01	1.36322371994E+02	-5.91970773800E+00	-1.47092237037E-01
3.20157352640E+05	-1.62805096899E+01	-3.06938411509E+01	5.05125063688E+00	-1.77668451649E+02	-4.22102152508E+01	-1.15164103109E+02	-5.83808889037E+00	-5.08819553918E-01
3.20388768162E+05	-1.76484214939E+01	-1.71301893311E+01	5.05935246771E+00	-1.77419407295E+02	-3.40338396599E+01	-1.18689574643E+02	-5.89639213449E+00	-3.94450128816E-01
3.20620350955E+05	-1.93305926703E+01	-1.70907009260E+02	5.11921220285E+00	-1.78509470919E+02	-4.60679116972E+01	-9.80727589995E+01	-5.90387972462E+00	-2.38282204977E-01
3.20852101140E+05	-2.23861929792E+01	5.00774225720E+01	4.94173493593E+00	-1.78569454673E+02	-3.72754181111E+01	9.75786879492E+01	-5.93894752729E+00	6.77809662126E-02
3.21084018839E+05	-2.77491485268E+01	2.15679668245E+01	5.02998691157E+00	-1.77787057316E+02	-4.07121539649E+01	-7.38846706981E+00	-5.87379337145E+00	-1.58565452594E-01
3.21316104172E+05	-1.90531462722E+01	1.45255773409E+01	5.02341877040E+00	-1.78114247970E+02	-4.77479274689E+01	-5.43932970752E+01	-5.89895839659E+00	-3.54691394038E-01
3.21548357261E+05	-1.62834620367E+01	-1.61353764098E+02	5.18008160212E+00	-1.77820353659E+02	-3.83745168138E+01	-1.00936235315E+02	-5.89503561095E+00	-4.52588629072E-01
3.21780778226E+05	-1.84274205697E+01	1.33875357078E+02	5.12934953400E+00	-1.78293969080E+02	-3.26357411192E+01	3.30552233258E+01	-5.80829853271E+00	-3.26925128907E-02
3.22013367189E+05	-1.64935569176E+01	-1.20740012594E+02	5.11948454139E+00	-1.77351870548E+02	-4.31519933140E+01	1.39042036267E+02	-5.90246692635E+00	-2.75389725352E-01
3.22246124272E+05	-1.83614966898E+01	1.21790725993E+02	5.16385522155E+00	-1.78560117515E+02	-4.63189552879E+01	-1.56411946584E+02	-5.91267449229E+00	-2.35994673830E-01
3.22479049596E+05	-1.61173571316E+01	-8.87877451293E+01	5.16468933093E+00	-1.77531398629E+02	-4.02536530175E+01	-1.19385558081E+02	-5.90982113988E+00	-1.87328468274E-01
3.22712143282E+05	-1.82000608141E+01	1.74180713948E+02	5.16484452414E+00	-1.78249731487E+02	-4.52402859069E+01	-1.30359841386E+02	-5.93177074276E+00	-4.24263401775E-01
3.22945405453E+05	-1.83240445976E+01	-6.18026624029E+01	5.06465575875E+00	-1.77532646591E+02	-3.48487407579E+01	-6.03308683609E+01	-5.87573675837E+00	-5.52841545307E-01
3.23178836230E+05	-2.86176748925E+01	-5.76534958607E+01	5.02477807203E+00	-1.77727728445E+02	-4.30299502661E+01	-1.65055006200E+02	-5.89344070077E+00	-2.35990783487E-01
3.23412435735E+05	-2.13303536159E+01	-1.49436050627E+01	5.02189558793E+00	-1.77280384799E+02	-3.40269637957E+01	-5.89333049143E+01	-5.81395514379E+00	-7.03196414777E-01
3.23646204090E+05	-1.65742662610E+01	8.89147016002E+01	5.11201717154E+00	-1.78774834824E+02	-3.05751671559E+01	-1.45635989334E+02	-5.96116076962E+00	-3.40131829651E-01
3.23880141417E+05	-1.48512008335E+01	-9.59564064563E+01	5.08967830813E+00	-1.76916123590E+02	-4.03896413236E+01	-9.51997416896E+01	-5.88153410453E+00	-2.82989021173E-01
3.24114247838E+05	-2.04122254397E+01	-1.59139115404E+02	5.24096897285E+00	-1.77818686621E+02	-4.18369316459E+01	1.40969540691E+02	-5.92909496202E+00	-4.26181236840E-01
3.24348523475E+05	-1.67140654925E+01	2.73360981954E+01	5.14316031837E+00	-1.78404695754E+02	-5.52975350079E+01	-1.75405397223E+02	-5.90325379364E+00	-1.14336191065E-01
3.24582968451E+05	-1.52212921725E+01	1.66627877710E+01	4.96493100097E+00	-1.78250328969E+02	-3.73142610738E+01	-4.53395767459E+01	-5.84521642252E+00	-1.34252364545E-01
3.24817582888E+05	-2.85722460888E+01	-1.18748217358E+02	5.09550087699E+00	-1.78298478159E+02	-5.79709109140E+01	6.73132463698E+01	-5.90059971858E+00	-2.47034939157E-01
3.25052366909E+05	-2.43107728881E+01	-1.35594810170E+02	5.14230501463E+00	-1.78099648599E+02	-3.82339911475E+01	-1.60174196457E+02	-5.90670136500E+00	-3.81886171925E-01
3.25287320635E+05	-1.88345748426E+01	2.26520873508E+01	5.01065193744E+00	-1.78432576596E+02	-3.45294710168E+01	1.64889106399E+02	-5.94179928478E+00	1.19623412228E-01
3.25522444191E+05	-3.03793880603E+01	1.04232621614E+02	5.09919921848E+00	-1.77933145532E+02	-4.34535133816E+01	8.53344884708E+01	-5.86833286287E+00	-2.93641251503E-01
3.25757737698E+05	-2.24415586887E+01	1.06588993947E+01	5.09743265030E+00	-1.77913521574E+02	-4.13461675518E+01	4.69735333229E+01	-5.86940652319E+00	-2.20557837743E-01
3.25993201280E+05	-1.95038964691E+01	9.59519358159E+01	5.10842379862E+00	-1.78742963111E+02	-3.97550417544E+01	-1.56159090548E+02	-5.88291077012E+00	-3.11727184576E-01
3.26228835058E+05	-2.05153757141E+01	5.56142873690E+01	4.99798075605E+00	-1.78630056045E+02	-4.06487301261E+01	-1.05282040369E+01	-5.87642565508E+00	-8.40847489227E-02
