# Hz S DB R 50
! CMT, M5065, 19127446, 24.2.4/2
! Date: 11/1/2024 4:41:24 PM
! Data: Format (Calibration Info)
! Freq	S11:dB/Ang(F2)	S21:dB/Ang(F2)	S12:dB/Ang(F2)	S22:dB/Ang(F2)
3.00000000000E+05	-2.22646640597E+01	-3.22193708321E+01	1.44974568913E+01	-1.77046353336E+02	-4.35414682784E+01	-6.18744242828E+01	-5.89946990236E+00	-2.18327031401E-01
3.00216845423E+05	-1.79620611762E+01	-1.09004737327E+02	1.45651359056E+01	-1.76655665685E+02	-3.98488482051E+01	-1.25453739554E+01	-5.86093429168E+00	-2.93716341861E-01
3.00433847586E+05	-2.20899877312E+01	-1.24260058393E+02	1.45899910529E+01	-1.76606981218E+02	-3.48693536725E+01	-4.63733093451E+01	-5.83508786206E+00	-8.21240478453E-01
3.00651006602E+05	-2.58119776146E+01	-1.64604756376E+02	1.46159740383E+01	-1.76817934029E+02	-3.90567894238E+01	4.08599510326E+00	-5.84541835633E+00	-5.13282541673E-01
3.00868322584E+05	-2.73556555274E+01	-9.47975303285E+01	1.45642084824E+01	-1.76795460138E+02	-3.58215742733E+01	-7.78230764956E+01	-5.86961113352E+00	-1.09565954708E+00
3.01085795647E+05	-2.11631554946E+01	9.53768995037E+01	1.45667681278E+01	-1.77359861964E+02	-4.51371528686E+01	-1.37694792877E+02	-5.93719463165E+00	-7.73615880553E-01
3.01303425902E+05	-2.47565776996E+01	6.76317629985E+00	1.45247546375E+01	-1.76909845034E+02	-4.91858641399E+01	-1.28063492347E+02	-5.90941760397E+00	-1.78523753928E-01
3.01521213465E+05	-7.71685371746E+00	-1.40264882341E+02	1.48706230797E+01	-1.76081652462E+02	-3.65992621707E+01	1.37977137422E+02	-5.94922789948E+00	1.04911549009E-01
3.01739158449E+05	-2.39860276246E+01	-4.76284779392E+01	1.45668505156E+01	-1.77055898770E+02	-3.81144417724E+01	-8.40220413881E+01	-5.92771268420E+00	-5.51436584416E-01
3.01957260967E+05	-2.58766797867E+01	-4.22109189832E+00	1.45402525614E+01	-1.77176180010E+02	-5.19266247064E+01	1.62681866913E+02	-5.88764464461E+00	-4.05199921327E-01
3.02175521134E+05	-1.40558138101E+01	-8.25132610598E+01	1.45500066382E+01	-1.76193997185E+02	-4.10695513612E+01	1.01270398824E+02	-5.92329150080E+00	1.23680126576E-01
3.02393939063E+05	-2.08782431346E+01	-9.95362223882E+01	1.45637377132E+01	-1.76960479900E+02	-3.82420566865E+01	-8.21888632747E+01	-5.85852227312E+00	-7.65898217544E-01
3.02612514869E+05	-2.08162045542E+01	9.36152792540E+01	1.45291822598E+01	-1.77487095094E+02	-3.69619301136E+01	-5.07778094058E+01	-5.85607822159E+00	-1.20658779747E+00
3.02831248665E+05	-2.12061283024E+01	1.73546812550E+02	1.46006691202E+01	-1.76933660786E+02	-3.30791603328E+01	-6.14259024685E+01	-5.81360754445E+00	-9.64706434196E-01
3.03050140565E+05	-1.70785979241E+01	1.01638076725E+02	1.45783406134E+01	-1.77761177363E+02	-3.59362652912E+01	9.63039827151E+01	-5.92426895851E+00	1.31769149476E-01
3.03269190685E+05	-2.07986867005E+01	2.63247084053E+00	1.45017685097E+01	-1.77026464198E+02	-4.44510820853E+01	-5.55904421740E+01	-5.86837735168E+00	-5.23956890035E-01
3.03488399138E+05	-1.31010146483E+01	-1.30270651549E+02	1.46359995096E+01	-1.76662083527E+02	-3.90139485304E+01	-1.13732927191E+02	-5.92336702668E+00	-6.16859852181E-01
3.03707766039E+05	-1.77421592920E+01	-7.75588818245E+01	1.45486825124E+01	-1.76986247500E+02	-4.05104606388E+01	1.45519572844E+02	-5.91297591423E+00	-9.45339950263E-03
3.03927291503E+05	-2.13978987377E+01	-5.73822417113E+01	1.45742294287E+01	-1.76643913896E+02	-3.72812868507E+01	-8.26795970164E+01	-5.87726396737E+00	-1.05880655886E+00
3.04146975643E+05	-1.90729389908E+01	6.78683795994E+01	1.45293213197E+01	-1.77189153478E+02	-2.91419549763E+01	2.36945827199E+01	-5.67074695715E+00	6.34079399340E-01
3.04366818575E+05	-1.60068777798E+01	-9.88996017657E+01	1.46116445627E+01	-1.76507799438E+02	-3.51706054463E+01	-9.38849626477E+01	-5.90719407879E+00	-1.04208214223E+00
3.04586820414E+05	-1.39969950772E+01	9.21110369871E+01	1.45366836891E+01	-1.78034661590E+02	-4.58294410192E+01	9.08248768080E+01	-5.89826812649E+00	-2.74701050647E-01
3.04806981274E+05	-2.27687710808E+01	-1.00981423066E+02	1.45815931015E+01	-1.76740619872E+02	-4.45251945176E+01	1.54221362553E+02	-5.89851202108E+00	-2.78396782225E-01
3.05027301270E+05	-2.34377191843E+01	6.43909918961E+01	1.45296981041E+01	-1.77222479820E+02	-3.70174447561E+01	1.41138026785E+01	-5.81496217492E+00	-1.25619177286E-01
3.05247780517E+05	-1.30187128939E+01	-4.90411937582E+01	1.44977096889E+01	-1.76596308934E+02	-3.41341958424E+01	-1.35776263713E+01	-5.76619394206E+00	-3.64870112691E-01
3.05468419131E+05	-1.98050682613E+01	-9.99837169955E+01	1.45779151731E+01	-1.76796982871E+02	-3.90457104674E+01	1.32973096987E+02	-5.95561946118E+00	3.26092722637E-01
3.05689217226E+05	-2.41132909770E+01	6.26621321897E+01	1.45645778399E+01	-1.77180753749E+02	-4.09280573333E+01	-9.22610236851E+01	-5.88093577844E+00	-7.37045221547E-01
3.05910174918E+05	-2.40741451139E+01	-9.16017926285E+00	1.44674568963E+01	-1.77183477595E+02	-4.18144827186E+01	-2.06071065056E+01	-5.82651153778E+00	-3.27013102452E-01
3.06131292322E+05	-1.57770706541E+01	1.11013760058E+02	1.45967087221E+01	-1.77624460387E+02	-3.79907739415E+01	-1.19227880775E+02	-5.91789773083E+00	-7.32381015876E-01
3.06352569554E+05	-1.58840950754E+01	3.95944298913E+01	1.44888576765E+01	-1.77708539800E+02	-4.52998161145E+01	1.29788713312E+01	-5.83134547339E+00	-1.43657477286E-01
3.06574006730E+05	-1.97156563846E+01	-5.96899076093E+01	1.45225634900E+01	-1.76643101240E+02	-4.07340266228E+01	1.52157883069E+01	-5.84304774624E+00	-3.01803319365E-01
3.06795603964E+05	-2.27094283409E+01	-7.91853025921E+01	1.45744478731E+01	-1.76604873418E+02	-4.39170257201E+01	-1.13644914236E+02	-5.87651025382E+00	-4.43858993569E-01
3.07017361372E+05	-2.41071911525E+01	-9.33775194972E+01	1.45868598915E+01	-1.76948355725E+02	-3.13011899767E+01	5.52412468193E+01	-5.75167995472E+00	1.23482346648E+00
3.07239279071E+05	-2.32820841891E+01	1.60637921494E+02	1.45833643594E+01	-1.77427153264E+02	-2.98446791242E+01	-3.24891954218E+01	-5.67445380008E+00	-1.07875340976E+00
3.07461357176E+05	-1.88786275413E+01	-1.53935425324E+02	1.46277721580E+01	-1.76895369165E+02	-5.39517276078E+01	-4.51591324404E+01	-5.88731043321E+00	-2.06007569924E-01
3.07683595803E+05	-1.05009027995E+01	8.05952385294E+01	1.45063870991E+01	-1.78814723566E+02	-4.56809957871E+01	-5.92657891585E+01	-5.88572158030E+00	-4.67529939615E-01
3.07905995068E+05	-1.96237999295E+01	1.27526467475E+02	1.46088333333E+01	-1.77751962052E+02	-4.02850699914E+01	1.58018239372E+02	-5.91199784354E+00	-4.10890740421E-01
3.08128555087E+05	-2.55249058198E+01	-1.43352123241E+02	1.45551019381E+01	-1.76874710727E+02	-4.19465584071E+01	-1.27406308649E+02	-5.94351626431E+00	-1.61536413436E-01
3.08351275976E+05	-1.95696085204E+01	-2.22066025683E+01	1.44751303198E+01	-1.76916771549E+02	-3.87126255374E+01	-1.51831683839E+01	-5.82534353731E+00	-2.81115828099E-01
3.08574157853E+05	-1.91661986464E+01	-1.61350437023E+02	1.45935831204E+01	-1.77047748652E+02	-3.78627135979E+01	2.25210750829E+01	-5.79951203547E+00	1.90441246265E-02
3.08797200832E+05	-2.09168253824E+01	4.30932512697E+01	1.45363943183E+01	-1.77481509580E+02	-3.61748632090E+01	9.57338666218E+01	-5.87720526116E+00	5.46152727852E-01
3.09020405031E+05	-1.95002567076E+01	-4.78310425687E+00	1.44924809719E+01	-1.77133994680E+02	-4.09733896577E+01	-7.47184170397E+01	-5.88529957239E+00	-6.72444157242E-01
3.09243770566E+05	-1.21951601127E+01	-1.63584501715E+02	1.47086864773E+01	-1.76820708061E+02	-4.10299496519E+01	1.14311416513E+02	-5.90700092032E+00	-2.64255270792E-01
3.09467297553E+05	-1.35079319371E+01	-3.54987652791E+01	1.44755094864E+01	-1.76831535418E+02	-3.66278913753E+01	-1.45486722709E+02	-5.93811238516E+00	-3.56459214496E-01
3.09690986110E+05	-1.75080168670E+01	1.25023958591E+02	1.46032521281E+01	-1.77401285550E+02	-3.61778398973E+01	-3.72593200091E+01	-5.79126123377E+00	-9.23754592137E-01
3.09914836353E+05	-2.83921618787E+01	-4.61708870183E+01	1.45372859593E+01	-1.76972610472E+02	-3.69248565185E+01	-2.93795173838E+00	-5.82226572857E+00	-4.15453220940E-01
3.10138848399E+05	-1.52479193113E+01	-5.00792540427E+01	1.44688719907E+01	-1.76696720463E+02	-5.39776890669E+01	1.70872696994E+02	-5.91154390539E+00	-5.38721980892E-01
3.10363022365E+05	-1.93338791744E+01	-6.83639394538E+01	1.45222983248E+01	-1.76886526601E+02	-3.10367355298E+01	1.28114896333E+02	-5.95564458411E+00	1.18058357959E+00
3.10587358368E+05	-1.48378564489E+01	1.49059780482E+02	1.46331849916E+01	-1.77375408661E+02	-3.66573732664E+01	-7.55192055837E+01	-5.89671093208E+00	-6.61705377867E-01
3.10811856525E+05	-1.18319134256E+01	5.63150707551E+01	1.44594554601E+01	-1.77912068896E+02	-4.65767869522E+01	-1.38748480072E+02	-5.90437454705E+00	-4.70904401692E-01
3.11036516954E+05	-2.01546749657E+01	1.16494998200E+02	1.45913674707E+01	-1.77943524820E+02	-3.62071849244E+01	-4.51684622550E+01	-5.86748369913E+00	-5.99844805191E-01
3.11261339771E+05	-2.30801897616E+01	-1.14375943081E+02	1.45996976024E+01	-1.77017745876E+02	-3.60030233727E+01	-9.09783636375E+01	-5.88379525074E+00	-9.96107631627E-01
3.11486325094E+05	-2.26681621903E+01	6.44374143795E+01	1.45336116585E+01	-1.77683871317E+02	-4.72713759512E+01	-3.34044153150E+01	-5.86234694558E+00	-2.58146951418E-01
3.11711473040E+05	-1.72584100723E+01	9.30281847043E+01	1.45728838936E+01	-1.77656554116E+02	-3.30326809543E+01	4.40431859640E+01	-5.69307713581E+00	4.58069188618E-01
3.11936783728E+05	-1.48320715654E+01	1.39891249180E+02	1.46697612420E+01	-1.77518678424E+02	-2.50418218013E+01	-2.01447318634E+01	-5.51611093347E+00	-8.26912698351E-01
3.12162257274E+05	-1.82402954806E+01	9.68968832053E+01	1.45578237584E+01	-1.77900001775E+02	-3.33663455424E+01	-9.09403476689E+00	-5.77615523079E+00	-4.12151770098E-01
3.12387893797E+05	-2.48090021489E+01	1.12084503292E+02	1.45531523878E+01	-1.77515199624E+02	-3.36717423509E+01	-1.60854438562E+01	-5.77909582682E+00	-4.29956696666E-01
3.12613693413E+05	-1.41734486950E+01	-1.79134339038E+02	1.47346560888E+01	-1.77243722828E+02	-3.66448056927E+01	1.52811859287E+02	-5.95965733310E+00	4.56655124024E-02
3.12839656242E+05	-1.75343670218E+01	-2.86360664467E+01	1.44997186198E+01	-1.76837493686E+02	-4.78078541009E+01	-8.68581692224E+01	-5.91789114834E+00	-3.94734165391E-01
3.13065782401E+05	-1.43152466773E+01	4.56034179590E+01	1.45143186380E+01	-1.77638400943E+02	-3.74769621601E+01	-1.01959846986E+02	-5.89679190780E+00	-7.48916414568E-01
3.13292072007E+05	-2.25831616482E+01	2.51542961291E+01	1.45354149104E+01	-1.77274261996E+02	-4.40141628572E+01	2.14110296439E+01	-5.84908221474E+00	-8.83045569469E-02
3.13518525180E+05	-1.88839349595E+01	9.95461257813E+01	1.46180478037E+01	-1.77465357927E+02	-2.80931532615E+01	-5.78583904410E+01	-5.77884523825E+00	-1.58570866731E+00
3.13745142038E+05	-3.05168800444E+01	5.93514560954E+01	1.45924022641E+01	-1.77295310447E+02	-3.68235784888E+01	1.74824849950E+02	-5.97041348410E+00	-5.33962987626E-01
3.13971922698E+05	-1.50784141588E+01	-1.97258999220E+01	1.44369193772E+01	-1.77015128341E+02	-4.52029125093E+01	1.10929481418E+02	-5.89349533240E+00	-1.35860598984E-01
3.14198867279E+05	-1.12870180414E+01	1.22599270966E+02	1.46360973073E+01	-1.78495776276E+02	-4.10302527102E+01	-6.71652255333E+01	-5.87382255952E+00	-6.05753626052E-01
3.14425975900E+05	-3.10534593822E+01	-2.92779858299E+01	1.45310834504E+01	-1.77444180298E+02	-4.05528734146E+01	1.96147294014E+01	-5.83167410418E+00	-1.49253288609E-01
3.14653248680E+05	-3.99888230272E+01	-1.08913647787E+02	1.45803342581E+01	-1.77329007927E+02	-4.04608386658E+01	-5.04940363617E+01	-5.84216931480E+00	-4.50852933806E-01
3.14880685736E+05	-2.33030900087E+01	-4.16450942682E+00	1.45197884293E+01	-1.77483088990E+02	-5.07273350514E+01	-9.30447100998E+01	-5.89279241358E+00	-2.56781928436E-01
3.15108287188E+05	-2.59663402525E+01	4.00954191939E+01	1.45493987819E+01	-1.77332725275E+02	-2.98929416367E+01	7.46089396943E+01	-5.81293754312E+00	1.27296877873E+00
3.15336053154E+05	-2.07970886255E+01	7.49240480586E+01	1.45515267674E+01	-1.77559464141E+02	-4.10550703895E+01	1.63454274664E+02	-5.93230385004E+00	-1.04581488892E-01
3.15563983753E+05	-1.98463712825E+01	-1.42634344477E+02	1.46380395461E+01	-1.77184856938E+02	-3.75356174049E+01	-1.79643216364E+02	-5.94803691586E+00	-2.64759700148E-01
3.15792079105E+05	-7.78025233702E+00	1.00039759250E+02	1.46251004603E+01	-1.79258607722E+02	-4.17066464747E+01	1.41898722583E+02	-5.91269013333E+00	-2.45759816886E-01
3.16020339328E+05	-1.78116507185E+01	4.48640787343E+01	1.45253569450E+01	-1.77730616111E+02	-4.84168768472E+01	-4.04142288696E+01	-5.86420084345E+00	-5.62334173403E-01
3.16248764542E+05	-2.05905495399E+01	-2.37404635498E+01	1.45053251910E+01	-1.77233085304E+02	-3.95152126583E+01	-6.99615715431E+01	-5.84202535586E+00	-8.99544775277E-01
3.16477354866E+05	-2.44485027780E+01	-2.52102207000E+01	1.45169312320E+01	-1.77555126732E+02	-3.48041105461E+01	-7.81669517119E+01	-5.85624120275E+00	-9.64339457609E-01
3.16706110419E+05	-2.16924207082E+01	-8.23063763769E+01	1.45675425549E+01	-1.77208048349E+02	-3.26795952657E+01	-1.49022862004E+02	-6.01749966586E+00	-1.46451397970E+00
3.16935031321E+05	-2.04043489543E+01	1.06504456976E+02	1.45862462788E+01	-1.77814008239E+02	-4.06434637800E+01	1.66467093866E+01	-5.80086395890E+00	-5.22429356091E-02
3.17164117691E+05	-1.87289501542E+01	8.36568435692E+00	1.45369829749E+01	-1.77627026062E+02	-4.21809375449E+01	-1.40574494401E+02	-5.94039418094E+00	-6.79235099588E-01
3.17393369648E+05	-2.02998685339E+01	2.46740402696E+01	1.45170825035E+01	-1.77504122721E+02	-4.21927535479E+01	-1.47715264721E+02	-5.91625842462E+00	-4.68697851439E-01
3.17622787313E+05	-2.49467010100E+01	-7.29991636974E+01	1.45839137422E+01	-1.77142038447E+02	-4.02634683169E+01	-1.23819722235E+02	-5.88378088675E+00	-8.46188224350E-01
3.17852370806E+05	-2.18568410225E+01	2.99858041537E+01	1.45217503436E+01	-1.77548429864E+02	-4.21373786667E+01	-2.76090049756E+01	-5.88943389199E+00	-3.02804838145E-01
3.18082120245E+05	-2.14120221374E+01	4.73019747885E+01	1.45481379281E+01	-1.77600210969E+02	-4.04771117952E+01	-4.14502151400E+01	-5.83120566232E+00	-2.80642704556E-01
3.18312035752E+05	-2.07479700069E+01	1.40237006279E+02	1.45646216929E+01	-1.77435177160E+02	-4.48292232167E+01	-8.24751360779E+01	-5.91675669182E+00	-3.97490267725E-01
3.18542117445E+05	-1.96730166918E+01	-1.14766620163E+02	1.45793071312E+01	-1.76937477592E+02	-3.56878580161E+01	9.35146220880E+01	-5.90644187753E+00	4.45754391130E-01
3.18772365446E+05	-2.31097749693E+01	7.39044604325E+01	1.45608713837E+01	-1.78055015782E+02	-4.07267523335E+01	1.30283641609E+02	-5.94884623294E+00	-1.05265752978E-01
3.19002779874E+05	-1.21748486284E+01	1.46383420733E+02	1.47596053165E+01	-1.78123789756E+02	-4.00430862690E+01	-1.75035678161E+02	-5.97146711419E+00	-4.69641894342E-01
3.19233360850E+05	-1.70203595656E+01	9.19827164604E+01	1.45603315832E+01	-1.78054010088E+02	-3.47162460396E+01	1.22945812637E+02	-5.91917334979E+00	8.65322131866E-02
3.19464108494E+05	-2.33818865161E+01	1.38041439604E+02	1.46179157125E+01	-1.77413900387E+02	-3.48187644879E+01	-4.87122149687E+01	-5.78884268539E+00	-7.07657845424E-01
3.19695022927E+05	-1.90442695269E+01	-6.07054616480E+01	1.45021527545E+01	-1.77203430355E+02	-3.32324210339E+01	1.09018397966E+02	-5.97106558149E+00	7.25122960327E-01
3.19926104268E+05	-2.36880551802E+01	-2.71884853845E+01	1.45076537698E+01	-1.77298420133E+02	-3.86127127887E+01	-8.50779818235E+01	-5.89537295613E+00	-8.10796288364E-01
3.20157352640E+05	-2.06507495167E+01	-7.04060038928E+01	1.45784780822E+01	-1.77282010497E+02	-4.24131326283E+01	7.72771274801E+01	-5.84872842324E+00	-1.38009979823E-01
3.20388768162E+05	-1.72076836058E+01	1.37684015160E+02	1.46338249322E+01	-1.77753871677E+02	-4.78656051144E+01	1.92373536608E+01	-5.85626739523E+00	-2.54295836539E-01
3.20620350955E+05	-2.30416050477E+01	-2.70309963371E+00	1.44450091160E+01	-1.77576594316E+02	-3.51280646166E+01	3.83775061684E+01	-5.81483917975E+00	3.30987817425E-01
3.20852101140E+05	-2.12044784914E+01	7.53477030066E+01	1.45916429777E+01	-1.78175157950E+02	-4.44613848135E+01	6.99555224609E+01	-5.87410092393E+00	-6.14749536367E-02
3.21084018839E+05	-2.40506285038E+01	1.29982176100E+02	1.45495772892E+01	-1.77634208697E+02	-3.85197730538E+01	8.31008036086E+01	-5.85313925532E+00	1.34185472208E-01
3.21316104172E+05	-1.68888863223E+01	-9.18730694897E+01	1.45343939365E+01	-1.76951455030E+02	-3.43713870344E+01	-1.58689850742E+02	-5.97520963338E+00	-4.12675859057E-01
3.21548357261E+05	-1.21934289643E+01	8.95251883724E+01	1.45793636696E+01	-1.78550143670E+02	-4.27000294326E+01	5.73708895306E+01	-5.88110871656E+00	-5.41782271712E-01
3.21780778226E+05	-2.50845515213E+01	7.96997157754E+01	1.45523283282E+01	-1.77874378563E+02	-5.43365909405E+01	4.12116678395E+01	-5.81882989558E+00	-2.37958714611E-01
3.22013367189E+05	-2.17824030294E+01	-8.41759584563E+01	1.45214125259E+01	-1.76922191285E+02	-4.14493503703E+01	1.75715666164E+02	-5.93189589635E+00	-4.30587405291E-01
3.22246124272E+05	-2.79669410110E+01	-1.48051816035E+02	1.46322189224E+01	-1.77589164585E+02	-3.89162234722E+01	1.48083505188E+02	-5.94082946534E+00	7.47938055157E-02
3.22479049596E+05	-2.59288197330E+01	-6.54290742996E+00	1.45335417427E+01	-1.76858859606E+02	-3.91079535690E+01	1.51857211138E+02	-5.97317489335E+00	-3.73389804701E-02
3.22712143282E+05	-2.10003684281E+01	1.35745172207E+02	1.45663184834E+01	-1.77998124388E+02	-4.02042130381E+01	4.53743639181E+01	-5.85481279557E+00	1.16700232085E-01
3.22945405453E+05	-2.14094773162E+01	1.20523243115E+02	1.45647763184E+01	-1.78122536630E+02	-4.26312803233E+01	5.28181065821E+01	-5.89099231329E+00	1.12335006984E-01
3.23178836230E+05	-1.89968199715E+01	-6.36295377105E+01	1.45142201567E+01	-1.77480340896E+02	-3.33239521786E+01	-3.93183114373E+01	-5.76628029048E+00	-9.44511955785E-01
3.23412435735E+05	-2.52882571373E+01	-1.03943310513E+02	1.45684354404E+01	-1.77618516538E+02	-5.40484288557E+01	-1.63049709418E+02	-5.89393605411E+00	-3.59269103745E-01
3.23646204090E+05	-1.97774236320E+01	4.19617827197E+01	1.46050969359E+01	-1.77715581328E+02	-4.27389935816E+01	3.05224586319E+01	-5.82252926259E+00	-1.66579855576E-01
3.23880141417E+05	-1.84397533323E+01	1.65460899710E+02	1.46813681675E+01	-1.77802339115E+02	-3.96000334409E+01	1.68670492496E+02	-5.93790209836E+00	-1.97764639778E-01
3.24114247838E+05	-1.64042467493E+01	7.64531983091E+01	1.45460949835E+01	-1.78050859344E+02	-4.18681796051E+01	-1.63212778528E+02	-5.95540601415E+00	-1.65737271751E-01
3.24348523475E+05	-2.89638551747E+01	-5.47209453364E+01	1.45102374921E+01	-1.77548287124E+02	-4.85786505003E+01	9.77787579242E+00	-5.85825137287E+00	-1.74754143609E-01
3.24582968451E+05	-2.66873821270E+01	1.39846964455E+02	1.45768430281E+01	-1.77553406095E+02	-4.37017124886E+01	-1.65453915748E+02	-5.92309927364E+00	-6.29882281154E-01
3.24817582888E+05	-2.53106975463E+01	4.91447407212E+01	1.45233057895E+01	-1.77499573954E+02	-4.16794170891E+01	-8.64346411882E+01	-5.91912091545E+00	-1.06449283422E+00
3.25052366909E+05	-1.74252687878E+01	8.89543397045E+00	1.44913405192E+01	-1.77657764189E+02	-3.67256625257E+01	-1.70461361936E+02	-5.98906264510E+00	-4.17703814572E-01
3.25287320635E+05	-1.98780023697E+01	-1.22677031452E-01	1.45401798131E+01	-1.77402590323E+02	-4.40818617170E+01	4.35080962426E+01	-5.89131235889E+00	7.26317176283E-02
3.25522444191E+05	-1.38666137209E+01	-3.80671345967E+01	1.44472112367E+01	-1.76872096002E+02	-4.35316346543E+01	7.50901547767E+01	-5.85182043481E+00	2.63216395516E-02
3.25757737698E+05	-1.56566922967E+01	-1.71846124482E+02	1.46469280844E+01	-1.77735962612E+02	-3.12787001634E+01	-1.23119010541E+02	-5.97221735257E+00	-8.77259510018E-01
3.25993201280E+05	-2.01309109851E+01	-1.57357496834E+02	1.46174265365E+01	-1.77264901061E+02	-3.52444196071E+01	1.18403366257E+01	-5.82152117874E+00	4.19690982786E-02
3.26228835058E+05	-1.99252070209E+01	6.79351515709E+01	1.45305540820E+01	-1.77830465750E+02	-3.70702055523E+01	1.72543155129E+02	-5.96612259661E+00	-2.08941223593E-01
