# Hz S DB R 50
! CMT, M5065, 19127446, 24.2.4/2
! Date: 11/1/2024 4:43:48 PM
! Data: Format (Calibration Info)
! Freq	S11:dB/Ang(F2)	S21:dB/Ang(F2)	S12:dB/Ang(F2)	S22:dB/Ang(F2)
3.00000000000E+05	-1.38459809209E+01	7.68920767684E+01	1.65478354339E+01	-1.77429418906E+02	-4.73528228956E+01	1.79119734366E+02	-5.88359780581E+00	-6.09229457506E-01
3.00216845423E+05	-1.90287799266E+01	-4.78084271707E+01	1.65583907361E+01	-1.76470299455E+02	-4.05782423366E+01	-7.68222113593E+01	-5.85553051925E+00	-6.04583601195E-01
3.00433847586E+05	-1.43700728621E+01	-3.56164052462E+01	1.65249980445E+01	-1.76247264561E+02	-3.63244673936E+01	9.18348423320E+01	-5.91704002194E+00	3.82085232249E-01
3.00651006602E+05	-2.01848373646E+01	-1.69001105307E+02	1.66617994122E+01	-1.76458306691E+02	-3.56990700024E+01	-1.94809954241E+01	-5.80774276515E+00	-5.22211206785E-01
3.00868322584E+05	-1.57886841080E+01	-1.02118520321E+02	1.65899358774E+01	-1.76140837103E+02	-3.36075759847E+01	2.66164159444E+01	-5.73786139231E+00	5.79804619869E-01
3.01085795647E+05	-2.91255016903E+01	-8.74978138505E+01	1.65600320614E+01	-1.76427401775E+02	-3.20882331883E+01	1.01443997011E+02	-5.91112272547E+00	1.22079415270E+00
3.01303425902E+05	-3.25148698285E+01	1.32814827716E+02	1.65803455523E+01	-1.76668964877E+02	-4.23780287992E+01	-6.70610494039E+01	-5.87184069770E+00	-6.17558306632E-01
3.01521213465E+05	-1.85761479172E+01	-3.67454977362E+01	1.65441510882E+01	-1.76583750378E+02	-4.11922070756E+01	-1.28047447540E+02	-5.88925284575E+00	-7.49850128740E-01
3.01739158449E+05	-2.51706891654E+01	2.51781762396E+01	1.65849052625E+01	-1.76741863972E+02	-4.45389647890E+01	4.25713600196E+01	-5.82461197491E+00	5.04817247572E-04
3.01957260967E+05	-2.40414953568E+01	-4.35835325891E+01	1.65465235653E+01	-1.76432352450E+02	-3.53529974177E+01	-1.25303631309E+02	-5.91987262945E+00	-7.25163319408E-01
3.02175521134E+05	-1.38521569577E+01	2.75793791133E+01	1.65090861999E+01	-1.76730637490E+02	-4.43058684882E+01	2.51463643210E+01	-5.86072943550E+00	-3.99533496070E-02
3.02393939063E+05	-2.37203026242E+01	-9.46044544308E+01	1.65654323716E+01	-1.76490086547E+02	-5.41108484244E+01	8.15840085862E+01	-5.84078554510E+00	-2.52696743010E-01
3.02612514869E+05	-1.49625435570E+01	1.24797036350E+02	1.66132644016E+01	-1.77313244777E+02	-3.92646545807E+01	-3.44944313436E+01	-5.79192238191E+00	-4.14313609574E-01
3.02831248665E+05	-1.66309219483E+01	-1.35433884334E+02	1.66328849314E+01	-1.76357457804E+02	-3.86853848316E+01	1.03194288838E+02	-5.92318553860E+00	1.28325948366E-01
3.03050140565E+05	-2.02807371789E+01	1.83408491272E+01	1.65922159750E+01	-1.76860976052E+02	-5.05992560532E+01	7.63210272758E+00	-5.87707293833E+00	-4.26585854241E-01
3.03269190685E+05	-2.04848314650E+01	9.73557653586E+01	1.65699367361E+01	-1.77235934110E+02	-3.91500729033E+01	1.31379790957E+02	-5.92448521476E+00	-2.89177126533E-01
3.03488399138E+05	-2.08888677970E+01	-1.48051647628E+02	1.66499145871E+01	-1.76715854416E+02	-3.80047657232E+01	1.07875102184E+02	-5.87806090195E+00	2.02001901335E-01
3.03707766039E+05	-2.32545141930E+01	-1.57385047433E+02	1.66093874353E+01	-1.76671717415E+02	-3.62359841270E+01	1.08326131888E+02	-5.93628666464E+00	4.06365135036E-01
3.03927291503E+05	-1.94829933079E+01	1.39390383438E+02	1.65691462255E+01	-1.76842086263E+02	-4.57409263334E+01	1.35226136277E+02	-5.89514966363E+00	-1.55128547486E-01
3.04146975643E+05	-2.14243534866E+01	-1.00401295272E+02	1.65976742960E+01	-1.76206807327E+02	-3.58870995681E+01	5.87641387030E+01	-5.78226242914E+00	3.24191285560E-01
3.04366818575E+05	-2.36102560756E+01	1.60791385233E+02	1.65770215985E+01	-1.76763946208E+02	-4.43225134381E+01	-1.05205498623E+02	-5.92330980483E+00	-8.98631853481E-01
3.04586820414E+05	-1.70332195557E+01	4.95128324467E+01	1.65323705164E+01	-1.77214419161E+02	-4.77703114233E+01	-8.66232222773E+01	-5.89403407132E+00	-5.89463631472E-01
3.04806981274E+05	-3.17817189045E+01	4.11421588856E+01	1.65685102461E+01	-1.76944167180E+02	-4.19694411276E+01	7.35874721401E+01	-5.82483136305E+00	2.42626732640E-01
3.05027301270E+05	-2.75619117516E+01	-1.47113904985E+02	1.65708371276E+01	-1.76701963716E+02	-3.54197536101E+01	9.67422692480E+01	-5.89786265930E+00	3.72315114803E-01
3.05247780517E+05	-1.83915833709E+01	1.44410699523E+02	1.66032052193E+01	-1.76992933809E+02	-3.89510545802E+01	-1.21310667961E+02	-5.94645704235E+00	-1.10272393609E+00
3.05468419131E+05	-2.31761321164E+01	7.50350314951E+01	1.65707444167E+01	-1.77138338240E+02	-3.53940653081E+01	4.75433427284E+01	-5.77459020995E+00	4.98846853868E-01
3.05689217226E+05	-2.46020125736E+01	8.38155048246E+01	1.65734483110E+01	-1.76908407249E+02	-3.79903861546E+01	7.26689402012E+01	-5.88483398738E+00	7.99379745353E-01
3.05910174918E+05	-2.61946128217E+01	2.21437001133E+01	1.65718045443E+01	-1.77007614316E+02	-3.65912272854E+01	3.25913452667E+00	-5.75075345976E+00	5.93711971146E-02
3.06131292322E+05	-3.51225509762E+01	2.85316560393E+01	1.65531679398E+01	-1.76953416058E+02	-3.90499539749E+01	4.02747614238E+01	-5.81346713622E+00	-3.93650331709E-01
3.06352569554E+05	-2.18739342810E+01	8.92060599885E+01	1.65595346574E+01	-1.77293509877E+02	-3.86498685853E+01	8.37442934412E+00	-5.83115220648E+00	-1.06677855300E-01
3.06574006730E+05	-1.52817557105E+01	9.35411032228E+01	1.65731950227E+01	-1.77515312288E+02	-3.67820009545E+01	1.71255129109E+02	-5.95385450861E+00	-1.60943779559E-01
3.06795603964E+05	-2.19311770563E+01	1.29346301834E+02	1.66132688179E+01	-1.77092693226E+02	-4.06172888475E+01	-1.06487311554E+02	-5.87581188012E+00	-3.83631577149E-01
3.07017361372E+05	-1.82152908872E+01	-2.42353983363E+01	1.65239295006E+01	-1.76622018394E+02	-3.53582436008E+01	6.27413162397E+01	-5.88003812572E+00	6.19944914405E-01
3.07239279071E+05	-2.00209853440E+01	9.73400531003E+00	1.65311361320E+01	-1.77060164550E+02	-2.77523751024E+01	-1.48177002927E+02	-6.26841756710E+00	-2.02444719607E+00
3.07461357176E+05	-2.33503663895E+01	1.36995307866E+01	1.65620658363E+01	-1.76606798729E+02	-3.91264794997E+01	-1.57418972194E+02	-5.97732898400E+00	-5.92440669109E-01
3.07683595803E+05	-2.77474240506E+01	-5.63356026511E+01	1.65879564778E+01	-1.76931526767E+02	-4.22432139950E+01	-9.43585951733E+01	-5.90209806738E+00	-5.59067236800E-01
3.07905995068E+05	-1.64444367305E+01	-7.64577436245E+01	1.65266522107E+01	-1.76122033727E+02	-4.29988440238E+01	5.11400997470E+01	-5.85370008466E+00	-1.82358167185E-01
3.08128555087E+05	-1.52695202954E+01	-6.38109400965E+00	1.64474092297E+01	-1.76787923485E+02	-4.23696712859E+01	-9.73974219141E+01	-5.90827937163E+00	-7.52480935092E-01
3.08351275976E+05	-1.58333632446E+01	7.07663960143E+01	1.65688879936E+01	-1.77677629830E+02	-3.89731294657E+01	3.37390236970E+01	-5.79476197984E+00	-7.60992883546E-02
3.08574157853E+05	-2.79234035636E+01	-1.38272259797E+02	1.66019350353E+01	-1.76719783290E+02	-3.73889006266E+01	-1.05697221688E+02	-5.95300896653E+00	-9.49920487440E-01
3.08797200832E+05	-1.61144934032E+01	7.29431448816E+01	1.65729589742E+01	-1.77299982635E+02	-3.37637073945E+01	6.05820944712E+01	-5.80985025050E+00	7.28500934943E-01
3.09020405031E+05	-1.73040349982E+01	-8.48336324414E+01	1.66325875140E+01	-1.76366192289E+02	-4.18195873639E+01	-1.46935232304E+02	-5.90555323469E+00	-8.06695843859E-01
3.09243770566E+05	-1.61864343878E+01	4.18504805219E+01	1.65686476133E+01	-1.77424592250E+02	-4.28126564243E+01	1.12671553778E+02	-5.88613672939E+00	-1.89643283294E-02
3.09467297553E+05	-1.83967397320E+01	1.65267109709E+02	1.66327979710E+01	-1.77459023247E+02	-3.82394840478E+01	-1.58597683564E+02	-6.02341434768E+00	-1.80280279903E-01
3.09690986110E+05	-1.53083244729E+01	-1.73078606964E+02	1.67208320964E+01	-1.76760881980E+02	-4.79693547418E+01	1.22161193859E+02	-5.91679083182E+00	-2.37034076613E-01
3.09914836353E+05	-1.51656696560E+01	-1.59004396821E+02	1.66881115823E+01	-1.76744248459E+02	-4.46379585923E+01	-8.76753208874E+01	-5.91659105579E+00	-5.32611584775E-01
3.10138848399E+05	-2.46388657686E+01	1.43202056403E+02	1.65871409682E+01	-1.76969901763E+02	-3.70163605790E+01	-1.44425886280E+02	-5.97910940880E+00	-6.48548223643E-01
3.10363022365E+05	-2.77982837971E+01	-3.73250533176E+01	1.65547728633E+01	-1.76830313759E+02	-3.73770119660E+01	3.14547993967E+01	-5.76968874730E+00	2.42206635361E-02
3.10587358368E+05	-2.09968660876E+01	1.25330314661E+02	1.66333398714E+01	-1.77138969540E+02	-3.98480825377E+01	-9.61074853272E+01	-5.89169779338E+00	-6.66810192174E-01
3.10811856525E+05	-1.62409507003E+01	-5.63383861778E+01	1.65121226508E+01	-1.76456940613E+02	-4.69830260487E+01	-3.56458591571E+01	-5.83706736236E+00	-1.24676943060E-01
3.11036516954E+05	-2.12607739675E+01	-1.47919562192E+02	1.66559535591E+01	-1.76811156614E+02	-4.68872053161E+01	-1.40064586013E+01	-5.82676745981E+00	-1.93020253602E-01
3.11261339771E+05	-1.99445389861E+01	-1.61840765108E+02	1.66429806580E+01	-1.76587963322E+02	-3.76716992070E+01	-5.67270560455E+01	-5.77910349700E+00	-7.12018375934E-01
3.11486325094E+05	-9.41653982896E+00	-1.68920113957E+02	1.67936901592E+01	-1.76468564916E+02	-3.80373561178E+01	1.45256519107E+02	-5.94448500345E+00	1.29055947904E-01
3.11711473040E+05	-2.69829029568E+01	6.64530381250E+01	1.65833339389E+01	-1.77390831154E+02	-3.44383249893E+01	-9.22449276840E+01	-5.90400995839E+00	-1.37476312316E+00
3.11936783728E+05	-1.98167296585E+01	-1.24597019803E+02	1.65534259403E+01	-1.76668794977E+02	-5.65894834313E+01	1.11283564780E+02	-5.88208192601E+00	-3.51100686099E-01
3.12162257274E+05	-2.62111787591E+01	1.51538993813E+02	1.66054057380E+01	-1.77216951553E+02	-4.29926625693E+01	-4.65152475644E+01	-5.82660727073E+00	-5.59372228014E-01
3.12387893797E+05	-4.54638096942E+01	-1.69312953809E+02	1.66193869810E+01	-1.76902593246E+02	-4.37489568579E+01	1.34737019611E+02	-5.89101784453E+00	-1.72726636470E-02
3.12613693413E+05	-2.93680112073E+01	-1.29080047400E+01	1.65863869336E+01	-1.77088279219E+02	-4.24795628228E+01	-6.24363454924E+01	-5.88841454446E+00	-6.39866254397E-01
3.12839656242E+05	-1.89735166741E+01	-1.00377203761E+02	1.65856662637E+01	-1.76258261434E+02	-3.63890703081E+01	6.99724610589E+01	-5.85479671354E+00	2.57817150759E-01
3.13065782401E+05	-9.10647754194E+00	-5.58973933251E+01	1.64940996982E+01	-1.75430267427E+02	-4.78840593674E+01	1.65963590014E+02	-5.87720031140E+00	-1.74259107457E-01
3.13292072007E+05	-1.88371016604E+01	4.26042912987E+01	1.65222480009E+01	-1.77316607984E+02	-4.80648720010E+01	3.71362656143E+01	-5.86728753575E+00	-2.73958838665E-01
3.13518525180E+05	-1.86845432804E+01	-1.52861544514E+02	1.66147995795E+01	-1.76931306699E+02	-3.34050692943E+01	-3.39891783143E+00	-5.69187438468E+00	-1.00593430834E-01
3.13745142038E+05	-2.08445781729E+01	6.23737546700E+01	1.65732373033E+01	-1.77139915293E+02	-5.06459868210E+01	-7.41526916998E+01	-5.86147171957E+00	-2.95766285760E-01
3.13971922698E+05	-2.49112798993E+01	-4.62210449507E+01	1.65641568804E+01	-1.76867362264E+02	-5.48218690117E+01	-1.55147074191E+02	-5.83513755800E+00	-4.74773759634E-01
3.14198867279E+05	-1.74764657063E+01	2.50059336139E+01	1.65476752101E+01	-1.76995038647E+02	-3.91446774202E+01	-5.85271664551E+01	-5.81006592038E+00	-8.11142825675E-01
3.14425975900E+05	-1.67492709171E+01	9.17891246741E+01	1.66208174914E+01	-1.77563757160E+02	-4.52895812613E+01	-7.84846080392E+01	-5.90462710316E+00	-5.76940674534E-01
3.14653248680E+05	-1.80567044568E+01	1.71929466397E+02	1.66831918699E+01	-1.77135203568E+02	-6.83129676832E+01	1.73337768095E+01	-5.90271458404E+00	-3.94217378492E-01
3.14880685736E+05	-2.09445423507E+01	3.76882008699E+01	1.65208626226E+01	-1.77228464373E+02	-4.68816484885E+01	1.54933875486E+02	-5.92258460361E+00	-1.66450954558E-01
3.15108287188E+05	-2.66854329351E+01	-1.03475296528E+02	1.66169433753E+01	-1.76742385671E+02	-3.49421720255E+01	-1.49813575298E+02	-6.01363208118E+00	-9.15229508772E-01
3.15336053154E+05	-2.81983522794E+01	-9.56196242840E+01	1.65795977169E+01	-1.77140592445E+02	-4.56689594246E+01	-3.78687758178E+01	-5.90504516022E+00	-5.17857315622E-01
3.15563983753E+05	-2.17513354547E+01	9.65748898286E+01	1.65539194678E+01	-1.77337113784E+02	-4.41513730895E+01	1.16063843499E+02	-5.90241162924E+00	-5.62749476259E-01
3.15792079105E+05	-1.75698930311E+01	-1.28848966426E+02	1.66176520601E+01	-1.76858707745E+02	-5.06172319260E+01	8.01750329899E+01	-5.88782968975E+00	-3.92968084282E-01
3.16020339328E+05	-1.61567105855E+01	-1.55083041125E+01	1.64588781408E+01	-1.76865221755E+02	-3.94298876475E+01	1.46742754363E+02	-5.94361192653E+00	3.29162062307E-01
3.16248764542E+05	-1.37962081497E+01	5.62455233679E+01	1.64685304106E+01	-1.77787455898E+02	-4.23511632699E+01	-7.61693141112E+01	-5.87510610333E+00	-4.86990759220E-01
3.16477354866E+05	-1.87233626583E+01	2.42615703701E+01	1.65177514292E+01	-1.77251673380E+02	-3.63223558731E+01	-1.59485994029E+02	-5.98234695102E+00	-3.63161129283E-01
3.16706110419E+05	-1.82924381199E+01	-1.59589001083E+02	1.66054693117E+01	-1.76914531055E+02	-3.36608534352E+01	-1.68676945433E+02	-6.07525917239E+00	-2.09172918802E-01
3.16935031321E+05	-2.09620065554E+01	-7.86954613661E+01	1.65870025493E+01	-1.76557998028E+02	-5.36068236721E+01	-5.86459057221E+01	-5.88929510208E+00	-3.07382114711E-01
3.17164117691E+05	-1.68892950726E+01	-7.41844260842E+01	1.65589068429E+01	-1.76807122892E+02	-3.78293210225E+01	-7.67245396011E+00	-5.79562220984E+00	-1.98251146500E-01
3.17393369648E+05	-2.27540655919E+01	-1.40614832092E+02	1.66301528592E+01	-1.76798939820E+02	-4.04639699544E+01	1.73882442113E+02	-5.99203971369E+00	-2.68463488839E-01
3.17622787313E+05	-2.39695111231E+01	-2.18555437867E+01	1.65373105796E+01	-1.77050012003E+02	-4.06759138252E+01	-1.09271743407E+02	-5.91600208400E+00	-7.52780363507E-01
3.17852370806E+05	-1.58520854695E+01	6.77836071042E+01	1.65135361106E+01	-1.77866022428E+02	-4.49543646990E+01	-4.78940131608E+00	-5.88684776627E+00	-2.48799530424E-01
3.18082120245E+05	-1.92629408076E+01	5.88318470293E+01	1.65810109525E+01	-1.77563704019E+02	-3.85653099355E+01	-1.11664579267E+02	-5.94942381781E+00	-9.28787199255E-01
3.18312035752E+05	-3.57714393777E+01	-1.17109883628E+01	1.65566504551E+01	-1.77184650438E+02	-3.84829560119E+01	1.51600781786E+02	-6.02559404121E+00	4.31410867792E-01
3.18542117445E+05	-2.40408348334E+01	-2.82837051708E+01	1.65775296805E+01	-1.77072084806E+02	-3.86230415601E+01	-1.43030364098E+02	-5.98176304687E+00	-2.52796223166E-01
3.18772365446E+05	-1.82822587461E+01	-4.06872576283E+01	1.65335266669E+01	-1.76825324616E+02	-4.44421917887E+01	1.28936057470E+02	-5.89056769753E+00	-1.41467593838E-02
3.19002779874E+05	-1.95371420866E+01	1.72177728541E+02	1.66695128032E+01	-1.77197631611E+02	-3.80495550808E+01	-1.01214336140E+01	-5.75618660209E+00	-3.47382967211E-01
3.19233360850E+05	-1.89172717869E+01	-1.39618278973E+02	1.65790898928E+01	-1.76736212638E+02	-5.48559354909E+01	8.27521078166E+01	-5.85559596126E+00	-2.84722706585E-01
3.19464108494E+05	-1.89509747945E+01	-1.28634817020E+02	1.66693605908E+01	-1.76801462014E+02	-5.79920013224E+01	1.76252321051E+02	-5.90018839909E+00	-5.41655497686E-01
3.19695022927E+05	-1.93289310086E+01	-6.91933499883E+01	1.65466995208E+01	-1.76919866545E+02	-3.63336329987E+01	1.34480665627E+02	-5.95891565887E+00	-7.36195151609E-02
3.19926104268E+05	-2.64224850347E+01	-8.06935696027E+01	1.65582890379E+01	-1.77104444943E+02	-3.12383848476E+01	-8.10946839260E+01	-5.89633628851E+00	-1.89083737851E+00
3.20157352640E+05	-2.03320327204E+01	-1.69263079840E+02	1.66325490549E+01	-1.76911499345E+02	-3.77756937732E+01	-1.45013403433E+02	-5.94315832535E+00	-8.15856225282E-01
3.20388768162E+05	-1.80832587847E+01	2.19423733482E+01	1.65193982196E+01	-1.77214512343E+02	-3.52953472175E+01	-5.55241653241E+01	-5.83683242291E+00	-9.86522673116E-01
3.20620350955E+05	-2.11622511348E+01	2.63013157612E+01	1.64963621362E+01	-1.77306039991E+02	-4.75613109798E+01	1.66247476536E+02	-5.93547037388E+00	-4.81389477850E-01
3.20852101140E+05	-1.46356321437E+01	1.37242416168E+02	1.66434710699E+01	-1.77581879526E+02	-4.08349562438E+01	-9.90590015911E+01	-5.85928500968E+00	-7.66647908827E-01
3.21084018839E+05	-1.81492466033E+01	1.10413966082E+02	1.66325579233E+01	-1.78164332320E+02	-4.19710569416E+01	7.06001972189E+01	-5.87647922726E+00	-9.99061170133E-02
3.21316104172E+05	-1.58389915324E+01	-1.03135338995E+02	1.66200238263E+01	-1.76635652043E+02	-4.14284841657E+01	-4.88536034813E+01	-5.82594115191E+00	-7.37127661213E-01
3.21548357261E+05	-2.22708894536E+01	1.45337821638E+02	1.66346622642E+01	-1.77336138000E+02	-3.27300254507E+01	6.78522547882E+01	-5.81112874479E+00	1.36293243713E+00
3.21780778226E+05	-2.49642162863E+01	1.20194591561E+02	1.66348741541E+01	-1.77451162029E+02	-3.50727184099E+01	-8.17692041435E+00	-5.74927152394E+00	-4.90944505992E-01
3.22013367189E+05	-1.87755442636E+01	-1.36479828208E+02	1.66001526215E+01	-1.77142527310E+02	-4.63364075890E+01	1.61033004133E+02	-5.88217471430E+00	-3.02829518232E-01
3.22246124272E+05	-1.99942256866E+01	-9.85070601010E+01	1.66044206075E+01	-1.76821941701E+02	-3.88178664678E+01	2.24116891036E+01	-5.83813520592E+00	-5.20919790496E-03
3.22479049596E+05	-1.83006815613E+01	1.52723991881E+02	1.66589483682E+01	-1.77475422147E+02	-3.94476459330E+01	-9.47155789184E+01	-5.90278620082E+00	-7.18177495202E-01
3.22712143282E+05	-1.59430313901E+01	-1.44083237678E+02	1.67260476956E+01	-1.77040276170E+02	-3.70901613478E+01	1.62613473096E+02	-5.99371845847E+00	-1.59001617860E-01
3.22945405453E+05	-2.21926090945E+01	-8.83497466837E+01	1.65811223361E+01	-1.76888195491E+02	-3.84367325955E+01	7.98749659172E+01	-5.83983030772E+00	3.01690457021E-01
3.23178836230E+05	-2.67120015496E+01	-1.67886280772E+02	1.65978974215E+01	-1.77351690690E+02	-5.87254134743E+01	4.52503524639E+00	-5.90986067662E+00	-3.85153209044E-01
3.23412435735E+05	-2.39700787642E+01	-7.34267866255E+01	1.65671374456E+01	-1.76926247978E+02	-4.86931170304E+01	1.65050986268E+02	-5.92448417807E+00	-5.44025051518E-01
3.23646204090E+05	-2.21278583379E+01	-8.96634515361E+01	1.65781828708E+01	-1.77051581758E+02	-4.28203451092E+01	-1.32919374520E+02	-5.93642649265E+00	-4.27938025494E-01
3.23880141417E+05	-2.02334906998E+01	2.99876647667E+01	1.65571557269E+01	-1.77300709802E+02	-3.65810660435E+01	-1.44353455497E+02	-5.94419748402E+00	-6.71742594877E-01
3.24114247838E+05	-1.54410180806E+01	5.42976324368E+01	1.65611055000E+01	-1.77824373047E+02	-4.65926792648E+01	-1.43540228450E+02	-5.91639060473E+00	-6.59171545537E-01
3.24348523475E+05	-5.32949934622E+00	1.33110568874E+02	1.68034041772E+01	-1.79160228254E+02	-3.90101799991E+01	-1.05096215907E+02	-5.88312262091E+00	-8.36394701241E-01
3.24582968451E+05	-2.08006988039E+01	-1.21584421915E+02	1.66382195021E+01	-1.77278941354E+02	-3.26654575956E+01	-9.12637273388E+01	-5.91881046277E+00	-1.40428756272E+00
3.24817582888E+05	-2.03134787878E+01	1.62415376075E+02	1.66270344802E+01	-1.77023842166E+02	-3.31329407316E+01	1.02639440928E+02	-5.98705878278E+00	1.16856088914E+00
3.25052366909E+05	-1.49414137134E+01	1.77933346799E+02	1.66549208485E+01	-1.77226758785E+02	-3.90224891095E+01	-1.48262473925E+01	-5.79624806452E+00	-4.60784413317E-01
3.25287320635E+05	-1.92635804050E+01	4.63328896226E+01	1.65348387354E+01	-1.77664388045E+02	-3.93670365530E+01	-1.17960926533E+02	-5.95219951826E+00	-7.43333470453E-01
3.25522444191E+05	-2.50806479875E+01	-4.62891421087E+00	1.65496974128E+01	-1.77465855301E+02	-4.75926347930E+01	1.20163228736E+02	-5.87363658905E+00	-3.84003393488E-01
3.25757737698E+05	-1.81995742057E+01	-6.51997194036E+01	1.65424456042E+01	-1.76817496001E+02	-3.79103480166E+01	-3.60679137889E+01	-5.80702613843E+00	-8.57434020255E-01
3.25993201280E+05	-1.38022017075E+01	-1.62944624170E+02	1.67261427051E+01	-1.77072434276E+02	-3.64296939674E+01	5.20745690050E+01	-5.85124754999E+00	6.50328342319E-01
3.26228835058E+05	-2.42326941033E+01	6.74141838610E+01	1.66047627169E+01	-1.77529586311E+02	-4.14921182473E+01	2.82911697543E+01	-5.84087621827E+00	-8.30366921932E-02
