# Hz S DB R 50
! CMT, M5065, 19127446, 24.2.4/2
! Date: 11/1/2024 4:13:21 PM
! Data: Format (Calibration Info)
! Freq	S11:dB/Ang(F2)	S21:dB/Ang(F2)	S12:dB/Ang(F2)	S22:dB/Ang(F2)
3.00000000000E+05	-3.00761365196E+01	-2.76798277955E+01	4.41628525477E+00	-1.78167874282E+02	-3.68676774618E+01	-3.06663208828E+01	-5.85265187983E+00	-4.36384355006E-01
3.00216845423E+05	-2.24907521739E+01	8.81517534322E+00	4.37502790972E+00	-1.77899732441E+02	-4.27268838148E+01	-1.86542416753E+01	-5.88090556314E+00	-4.00753653585E-01
3.00433847586E+05	-1.50395715270E+01	-1.75220801058E+01	4.38286028161E+00	-1.77110498130E+02	-4.26497965247E+01	2.40636830858E+01	-5.87561561678E+00	-2.34727706464E-01
3.00651006602E+05	-1.45017143990E+01	-9.27356194932E+01	4.38542154304E+00	-1.77233189270E+02	-4.13226483050E+01	-3.70232296167E+01	-5.83773889200E+00	-2.04654279715E-01
3.00868322584E+05	-1.83117595466E+01	-3.57204531882E+01	4.27651236565E+00	-1.77221548595E+02	-4.58646878545E+01	4.44365024620E+01	-5.89036283970E+00	-3.60074247808E-01
3.01085795647E+05	-2.45522647316E+01	-1.19651096061E+02	4.49422933128E+00	-1.77293397890E+02	-3.30857066552E+01	-8.91905236649E+01	-5.88724740034E+00	-5.79266262247E-01
3.01303425902E+05	-2.13387992942E+01	-1.21395508161E+02	4.45387129610E+00	-1.77152369404E+02	-3.92248169161E+01	-9.91020487498E+01	-5.91230968439E+00	-4.22473191644E-01
3.01521213465E+05	-1.70156346761E+01	-5.06276969210E+01	4.34258373248E+00	-1.77457544173E+02	-3.70067102403E+01	-8.04183819698E+01	-5.88230041225E+00	-4.79196575406E-01
3.01739158449E+05	-2.98089272310E+01	-1.31372719784E+02	4.45545701441E+00	-1.77397351898E+02	-4.86931323926E+01	1.28534513562E+01	-5.85672124551E+00	-1.90584088315E-01
3.01957260967E+05	-2.14439684847E+01	1.65662253489E+02	4.53507982159E+00	-1.77909120269E+02	-3.42621718733E+01	-1.47069401416E+02	-5.89063515858E+00	-1.36252350646E-02
3.02175521134E+05	-8.48474181446E+00	8.40671885441E+01	4.33611583305E+00	-1.79833729247E+02	-4.38833004139E+01	9.53100835798E+01	-5.82525973322E+00	-1.16553172836E-02
3.02393939063E+05	-1.10518049533E+01	9.64195813059E+01	4.39433379291E+00	-1.79422040546E+02	-4.52619458611E+01	-6.14954954822E+00	-5.86417785892E+00	4.72585005360E-04
3.02612514869E+05	-2.16613608047E+01	8.49921182261E+00	4.38320055087E+00	-1.77130005663E+02	-3.36722004909E+01	1.31092231831E+02	-5.94005693880E+00	-6.01671490720E-02
3.02831248665E+05	-2.12938475630E+01	3.89049257459E+01	4.34459113820E+00	-1.77789685253E+02	-3.09312294618E+01	1.04710639403E+02	-5.87755749506E+00	7.33396127775E-02
3.03050140565E+05	-2.30904905910E+01	-1.10042155180E+02	4.41570891859E+00	-1.76948223468E+02	-3.67829319386E+01	-6.61505151576E+01	-5.87698516772E+00	-3.21743477377E-01
3.03269190685E+05	-1.74411520375E+01	1.74812707075E+02	4.50182054750E+00	-1.78001405052E+02	-4.12479640094E+01	1.20534029851E+01	-5.87385692799E+00	-1.24783996057E-01
3.03488399138E+05	-1.92333024376E+01	-6.73403530278E+01	4.38925568548E+00	-1.77158050415E+02	-4.19200190964E+01	-3.13668633095E+01	-5.84968768356E+00	-3.20792339509E-01
3.03707766039E+05	-1.72817925969E+01	-3.05438711761E+01	4.33344413505E+00	-1.77252046517E+02	-4.67921778907E+01	1.90376707477E+01	-5.87147225095E+00	-3.37928998261E-01
3.03927291503E+05	-1.99251005491E+01	1.72982989332E+01	4.36712581640E+00	-1.78340083575E+02	-4.21117867052E+01	-1.56283689952E+02	-5.91964664619E+00	-1.20125995112E-01
3.04146975643E+05	-1.98555584370E+01	5.89060669343E+01	4.42989659425E+00	-1.77861901913E+02	-4.67554904114E+01	5.13475142203E+00	-5.90920410163E+00	-1.20785069077E-01
3.04366818575E+05	-1.47017046980E+01	8.01363590992E+01	4.37938750997E+00	-1.77919971151E+02	-4.79876564753E+01	-4.19791888778E+01	-5.89400079079E+00	1.15096132458E-01
3.04586820414E+05	-3.99406614267E+01	6.66348409462E+01	4.27278203787E+00	-1.77681146549E+02	-3.61045327913E+01	-1.50809259201E+02	-5.89391698528E+00	-2.49419779688E-01
3.04806981274E+05	-2.21894019561E+01	3.63809677944E+01	4.34774087932E+00	-1.77950649225E+02	-4.24924407422E+01	6.40222358522E+01	-5.88805028919E+00	-1.84932280842E-01
3.05027301270E+05	-2.41894714415E+01	8.65858069932E+01	4.33319361017E+00	-1.78162298514E+02	-4.25339551411E+01	-1.25328804949E+02	-5.89912590810E+00	-3.27162918522E-01
3.05247780517E+05	-1.15214916844E+01	1.42362254640E+02	4.60970860068E+00	-1.78918939943E+02	-4.16249505400E+01	-8.96549739182E+01	-5.89841370386E+00	-4.74327237228E-01
3.05468419131E+05	-9.16314426643E+00	-3.26825525206E+00	4.06618800994E+00	-1.78044839941E+02	-3.39740345888E+01	1.28692619251E+02	-5.92951437332E+00	-6.83917272676E-02
3.05689217226E+05	-2.54872919431E+01	1.37434545890E+00	4.32364085611E+00	-1.77345537370E+02	-4.61761400796E+01	3.41547704138E+01	-5.92868004041E+00	3.10809706687E-01
3.05910174918E+05	-2.07988422070E+01	4.52565673266E+01	4.35535516112E+00	-1.78434326892E+02	-3.11834701734E+01	2.03903274717E+01	-5.80060498493E+00	2.19577658312E-01
3.06131292322E+05	-1.68433757577E+01	3.14845199832E+01	4.35822114893E+00	-1.77715571536E+02	-4.78161840984E+01	2.78366613458E+01	-5.90537678823E+00	-2.94137712549E-01
3.06352569554E+05	-1.92226720552E+01	7.31732361267E+01	4.37903650094E+00	-1.77878304207E+02	-4.26616274788E+01	-9.38077065945E+01	-5.89920295765E+00	-2.50381988540E-01
3.06574006730E+05	-1.85881823956E+01	-1.37882561222E+02	4.55438476383E+00	-1.77615823236E+02	-3.90585884739E+01	6.68573201529E+00	-5.88543642714E+00	-4.04510407770E-01
3.06795603964E+05	-1.97322014504E+01	-1.78040084360E+02	4.48542399786E+00	-1.78406592791E+02	-4.09707729932E+01	2.45747745392E+01	-5.89152260314E+00	2.05978191598E-01
3.07017361372E+05	-1.94811318974E+01	-1.61798632687E+02	4.43912038295E+00	-1.77636494046E+02	-4.35708782378E+01	-1.73517705873E+02	-5.90097248639E+00	-2.57196429380E-01
3.07239279071E+05	-2.80985421027E+01	-2.64181237985E+01	4.30786026775E+00	-1.77783057386E+02	-4.23332788257E+01	-1.65886992253E+02	-5.93198922870E+00	-3.47550848986E-01
3.07461357176E+05	-1.46311665529E+01	-1.54312761744E+02	4.49076745502E+00	-1.77573460907E+02	-3.56101741318E+01	6.63083669056E+01	-5.85285368930E+00	1.78740683827E-02
3.07683595803E+05	-2.23706541365E+01	5.44575216378E+00	4.38448246135E+00	-1.77792503298E+02	-4.52512263598E+01	2.87714682647E+01	-5.87399959686E+00	-1.66810606123E-01
3.07905995068E+05	-2.01147100927E+01	-1.06365771650E+02	4.42852394825E+00	-1.77463450594E+02	-3.73904052165E+01	-1.14139944041E+01	-5.83003034375E+00	3.51282371776E-02
3.08128555087E+05	-2.19663305144E+01	1.11712552924E+02	4.35178691840E+00	-1.77959712977E+02	-3.82130913943E+01	7.15446610250E+01	-5.85697454528E+00	8.42148299821E-02
3.08351275976E+05	-1.41499492174E+01	6.49871058418E+01	4.25541547562E+00	-1.78757420362E+02	-3.83499601908E+01	-1.43958084534E+02	-5.92577534729E+00	-1.54730702124E-01
3.08574157853E+05	-1.20724575631E+01	1.55552563937E+02	4.53431429500E+00	-1.77613174111E+02	-4.54030194638E+01	-3.37434261265E+00	-5.84995819586E+00	-6.54998675976E-02
3.08797200832E+05	-1.97485052268E+01	2.78214063103E+01	4.39195553729E+00	-1.78026176858E+02	-3.55002267876E+01	-8.80364658404E+01	-5.86760828052E+00	-5.82634700383E-01
3.09020405031E+05	-3.75232381786E+01	-3.36833961032E+01	4.40830299763E+00	-1.77784150446E+02	-4.70446385293E+01	-4.30953699789E+01	-5.89047042245E+00	-5.87176505624E-02
3.09243770566E+05	-1.82553767501E+01	-1.42758795783E+02	4.48097515617E+00	-1.78372868826E+02	-4.19060695991E+01	8.96879711014E+01	-5.90220883920E+00	-2.28948153539E-01
3.09467297553E+05	-2.02233430548E+01	1.58364899989E+02	4.46697514306E+00	-1.78041289252E+02	-4.33042656167E+01	3.68178138611E+01	-5.91356058160E+00	-4.83049720735E-01
3.09690986110E+05	-1.95037709006E+01	7.44304338709E+01	4.38752470633E+00	-1.78029670498E+02	-3.41270302736E+01	7.37305804760E+01	-5.88775158187E+00	6.74823441160E-02
3.09914836353E+05	-2.06830669332E+01	1.20819515464E+02	4.52127904415E+00	-1.78184365069E+02	-4.75572955538E+01	-1.29203270256E+02	-5.88572750756E+00	-1.15246067599E-01
3.10138848399E+05	-1.65879367373E+01	7.47089826921E+01	4.30057111403E+00	-1.78506157787E+02	-4.69918931558E+01	-1.39818307995E+02	-5.89089276976E+00	-2.18218849555E-01
3.10363022365E+05	-2.44603477462E+01	-9.11327048284E+01	4.45128634496E+00	-1.77735337979E+02	-5.89217825449E+01	-4.46975118339E+01	-5.86447417664E+00	-1.31998644975E-01
3.10587358368E+05	-2.37169404745E+01	-1.08671400897E+02	4.41277627203E+00	-1.77617907359E+02	-3.32221950393E+01	-1.46878786550E+02	-5.93281263167E+00	-4.48446689316E-01
3.10811856525E+05	-2.95806586943E+01	1.37606242945E+02	4.32281717966E+00	-1.78231540999E+02	-4.23068147622E+01	-1.21731038728E+02	-5.89038537591E+00	-4.13112531964E-01
3.11036516954E+05	-2.37956401788E+01	1.32340341029E+02	4.48200863139E+00	-1.77709246854E+02	-4.23850251247E+01	6.59423296505E+01	-5.87808998005E+00	-2.00703780446E-01
3.11261339771E+05	-1.84327668896E+01	-1.04850355169E+02	4.45065764093E+00	-1.77401660822E+02	-4.74190236590E+01	1.57198644770E+02	-5.89696139611E+00	-7.13166579917E-02
3.11486325094E+05	-2.09096111429E+01	-6.38209952824E+01	4.37483144873E+00	-1.76902733084E+02	-3.70845152335E+01	-6.00485587515E+00	-5.85715533639E+00	-3.43069012218E-01
3.11711473040E+05	-1.50445933624E+01	1.09027311855E+02	4.49310571792E+00	-1.78573452113E+02	-4.18183057044E+01	1.49628867505E+02	-5.90393019155E+00	-2.32940282402E-01
3.11936783728E+05	-1.68247910533E+01	1.36388880404E+02	4.49636700927E+00	-1.78490775640E+02	-6.80277270623E+01	-1.41826350121E+02	-5.88012509253E+00	-3.10152632787E-02
3.12162257274E+05	-1.85527146840E+01	1.16302373312E+02	4.41422680362E+00	-1.77726997875E+02	-3.49752743382E+01	-2.93915599287E+00	-5.84303834326E+00	5.97577619111E-02
3.12387893797E+05	-1.47354772617E+01	4.23981600709E+01	4.33135374743E+00	-1.78217244674E+02	-4.77740989529E+01	-4.85718905594E+01	-5.87447968779E+00	-5.01048278019E-01
3.12613693413E+05	-1.55335680202E+01	-4.31788490390E+01	4.35974386328E+00	-1.77653475462E+02	-5.04938178284E+01	-2.58440264576E+01	-5.88881382625E+00	-4.06799062326E-01
3.12839656242E+05	-2.38815071285E+01	7.53605277726E+01	4.41413881903E+00	-1.77870992238E+02	-3.39108167210E+01	-7.95188595982E+01	-5.89071021918E+00	-3.46641830671E-01
3.13065782401E+05	-3.62180546412E+01	4.66488990165E+01	4.37279546003E+00	-1.78116831671E+02	-4.34053583916E+01	-6.74936557957E+01	-5.90137250258E+00	-5.71370334693E-01
3.13292072007E+05	-1.39651540170E+01	-8.27578481818E+01	4.43443405161E+00	-1.77112550372E+02	-4.29915926359E+01	4.49599334167E+01	-5.89723548137E+00	-3.47054298946E-01
3.13518525180E+05	-2.65037067328E+01	4.52418885404E+01	4.41714994984E+00	-1.78325124639E+02	-3.07821460199E+01	5.41209503510E+01	-5.88710640938E+00	1.22813003207E-01
3.13745142038E+05	-3.95604115000E+01	-3.76350362484E+01	4.38348347614E+00	-1.77588321303E+02	-2.89266442919E+01	-5.15757312943E+01	-5.84961570564E+00	-8.06561855919E-01
3.13971922698E+05	-2.98799472684E+01	-1.45838308991E+02	4.40950338418E+00	-1.77933813750E+02	-3.78380979174E+01	1.74617489570E+02	-5.92060115009E+00	-3.72295017535E-01
3.14198867279E+05	-1.91397493464E+01	-1.27082074757E+02	4.45376977244E+00	-1.77022588729E+02	-3.59015060520E+01	1.72421368259E+02	-5.91707894782E+00	-1.62334713263E-01
3.14425975900E+05	-1.94238495356E+01	7.43835610723E+01	4.33670522363E+00	-1.78114308485E+02	-3.86102109081E+01	-9.40574200476E+01	-5.88393234333E+00	-2.61320068756E-01
3.14653248680E+05	-2.36887107203E+01	1.31033970248E+02	4.45321798604E+00	-1.77793862864E+02	-3.45708875526E+01	1.40997075621E+02	-5.92882270038E+00	-3.25858484467E-01
3.14880685736E+05	-2.06006043871E+01	-8.04257785828E+01	4.39152875424E+00	-1.77745718317E+02	-3.87009207749E+01	-1.14307726466E+02	-5.93192949483E+00	-1.75533873356E-01
3.15108287188E+05	-1.34453935369E+01	1.67493001493E+02	4.57743208377E+00	-1.78200421189E+02	-3.77196757166E+01	-1.54129588926E+01	-5.86243430253E+00	-1.36163183985E-01
3.15336053154E+05	-3.08051652660E+01	1.26492468856E+02	4.38890943400E+00	-1.78452254692E+02	-3.55388900101E+01	-1.56198642172E+02	-5.93807955705E+00	-2.62465929436E-01
3.15563983753E+05	-3.08360196157E+01	1.19864927368E+02	4.35909600585E+00	-1.78197112683E+02	-3.55712007215E+01	5.45064753352E+01	-5.88580498581E+00	1.37753543643E-01
3.15792079105E+05	-1.64492361823E+01	1.18075274312E+02	4.50889738384E+00	-1.77761763026E+02	-4.40574911900E+01	-4.48899103216E+01	-5.89272580212E+00	-1.42647165455E-01
3.16020339328E+05	-2.70392248816E+01	-1.74309756102E+02	4.41783710148E+00	-1.77271362194E+02	-4.01638526972E+01	-4.97749907331E+01	-5.89660700247E+00	-5.27800652645E-01
3.16248764542E+05	-1.71457334007E+01	-1.63410252042E+02	4.50352555772E+00	-1.77681015569E+02	-3.75313165266E+01	-1.31375932631E+02	-5.91012185760E+00	-5.24993248403E-01
3.16477354866E+05	-2.40760337335E+01	-8.90845283961E+01	4.37688354420E+00	-1.78176802254E+02	-4.28325105879E+01	-1.22517883098E+02	-5.91070070079E+00	-3.12781234359E-01
3.16706110419E+05	-2.83487334676E+01	1.88096819030E+00	4.38216044045E+00	-1.77922532866E+02	-3.79875569083E+01	1.47174187840E+02	-5.91026575700E+00	-2.37635906896E-01
3.16935031321E+05	-1.61705242410E+01	-1.71731832658E+02	4.42310685772E+00	-1.77799158629E+02	-4.01854580728E+01	-1.01411394187E+02	-5.90143159828E+00	-4.72239628745E-01
3.17164117691E+05	-2.00902133735E+01	9.49537837627E+01	4.42711164345E+00	-1.78281979989E+02	-3.72207484127E+01	-6.15823564080E+01	-5.91997794414E+00	-1.24461579503E-01
3.17393369648E+05	-2.03082816181E+01	-6.29400602880E+01	4.39227921086E+00	-1.77752864135E+02	-4.37008064525E+01	1.74200189536E+02	-5.88311662898E+00	-1.74741084122E-01
3.17622787313E+05	-1.96193529133E+01	1.47833201650E+02	4.40195075476E+00	-1.77875056973E+02	-4.63967309784E+01	-9.15336252703E+01	-5.90960380248E+00	-4.57793426196E-01
3.17852370806E+05	-1.74819239360E+01	-1.70000016870E+02	4.47937033484E+00	-1.77683543874E+02	-3.53832574825E+01	-1.71235716650E+02	-5.90592943975E+00	-2.82003306040E-01
3.18082120245E+05	-1.18368992688E+01	-1.48659265477E+01	4.25973354489E+00	-1.77549084394E+02	-4.06003104944E+01	1.43141236597E+02	-5.93877770325E+00	-1.53461318336E-01
3.18312035752E+05	-1.78815517327E+01	-1.46315270311E+01	4.37837318917E+00	-1.78179548927E+02	-4.11413667427E+01	1.17390078726E+02	-5.93102134184E+00	-1.04622015539E-01
3.18542117445E+05	-2.01606027512E+01	-1.45979152586E+02	4.38807132340E+00	-1.77861389691E+02	-3.94219695244E+01	-1.10387293816E+01	-5.82578294784E+00	-2.70581915738E-01
3.18772365446E+05	-2.04380580011E+01	1.61280441779E+02	4.41975532046E+00	-1.78129497498E+02	-3.61189743503E+01	8.27341834833E+01	-5.91854200057E+00	-3.27278615357E-01
3.19002779874E+05	-2.34581400509E+01	-4.93357324249E+01	4.40397219225E+00	-1.77740765922E+02	-3.82403565136E+01	6.82406542399E+01	-5.91907260495E+00	-3.56449959624E-01
3.19233360850E+05	-1.56144411566E+01	-1.41681860328E+02	4.47908942082E+00	-1.77536917219E+02	-3.80694424506E+01	1.77444795797E+02	-5.93745144160E+00	-4.56062183706E-01
3.19464108494E+05	-1.92929058874E+01	1.43555500746E+01	4.27327610081E+00	-1.77929407184E+02	-4.65069778431E+01	7.66371927797E+01	-5.89513198370E+00	-1.60521971691E-01
3.19695022927E+05	-1.11018820839E+01	1.23053751200E+02	4.50478577558E+00	-1.79750804021E+02	-4.26790505480E+01	-3.75140699359E+01	-5.88299835722E+00	-4.57591864892E-01
3.19926104268E+05	-2.04880402224E+01	8.57064273235E+01	4.41078211540E+00	-1.78037446305E+02	-4.49756325542E+01	-6.17963490910E+01	-5.88590512196E+00	-2.20191743824E-01
3.20157352640E+05	-1.79974380199E+01	-5.13378278072E+01	4.24266285869E+00	-1.78226666772E+02	-3.05694819132E+01	-1.07576119880E+02	-5.90462152714E+00	-7.80816080088E-01
3.20388768162E+05	-2.45867498269E+01	-1.31122198271E+02	4.52885988537E+00	-1.78077001080E+02	-3.70554568436E+01	8.46433393132E+01	-5.88473935270E+00	-3.10633937803E-02
3.20620350955E+05	-2.79874079399E+01	-1.63038202771E+02	4.38477794170E+00	-1.77810224591E+02	-4.07288827150E+01	-3.65831214094E+01	-5.87676765655E+00	-1.71188226659E-01
3.20852101140E+05	-2.68627917122E+01	-1.31947287404E+02	4.35020556051E+00	-1.77729101360E+02	-4.83505570598E+01	1.35622366504E+02	-5.92195993976E+00	-3.37022960023E-02
3.21084018839E+05	-1.87624577915E+01	-3.28136481219E+01	4.37473041577E+00	-1.77965699998E+02	-4.32376452279E+01	9.61147510257E+00	-5.87921140780E+00	-1.41907429072E-01
3.21316104172E+05	-1.73507356031E+01	-1.06975856627E+02	4.40318519615E+00	-1.77950350439E+02	-4.02225353585E+01	-5.84639193725E+00	-5.85929874255E+00	-3.11910746335E-01
3.21548357261E+05	-1.93331547103E+01	-1.05486630855E+02	4.42739335989E+00	-1.77286585179E+02	-3.71757982671E+01	7.52790365831E+01	-5.90146802652E+00	-2.05816476899E-02
3.21780778226E+05	-1.55082693612E+01	-1.02631053263E+02	4.51977018297E+00	-1.77253670507E+02	-3.55858318554E+01	4.66016942610E+01	-5.85997753780E+00	-1.53361307685E-01
3.22013367189E+05	-1.77038859550E+01	7.13591042622E+01	4.35727141037E+00	-1.78470451261E+02	-4.83585998597E+01	-1.69168461861E+02	-5.88086940916E+00	-3.08524224942E-01
3.22246124272E+05	-2.43425427950E+01	1.11209718858E+02	4.31923732065E+00	-1.78320667944E+02	-4.03089219587E+01	-1.12349486869E+02	-5.88058704603E+00	-5.31147910326E-01
3.22479049596E+05	-1.73393573363E+01	-5.07263586846E+01	4.32862843857E+00	-1.77640812138E+02	-3.44396609112E+01	6.53489778378E+01	-5.89475122701E+00	1.60433818719E-01
3.22712143282E+05	-1.60065686499E+01	7.54382038156E+01	4.35786184032E+00	-1.78515719992E+02	-3.71222079060E+01	3.15867513906E+01	-5.90761839817E+00	-2.22951954751E-01
3.22945405453E+05	-1.93174676122E+01	-7.23541558405E+01	4.46283595596E+00	-1.77045860073E+02	-3.50003123753E+01	-1.30645313648E+02	-5.92063997993E+00	-4.03813678553E-01
3.23178836230E+05	-2.19807673334E+01	-7.06381645226E+01	4.36039189932E+00	-1.78199504260E+02	-3.97138660254E+01	-1.77600543667E+02	-5.93748557846E+00	-2.57022187147E-01
3.23412435735E+05	-2.63312810354E+01	1.12147183330E+02	4.40081700996E+00	-1.78820829161E+02	-3.85734181869E+01	-4.42775081874E+01	-5.87532673599E+00	-4.54708439924E-01
3.23646204090E+05	-2.48068333069E+01	1.24223933927E+02	4.53249756278E+00	-1.78005909719E+02	-3.66611384951E+01	8.84956273561E+01	-5.89430125070E+00	-1.16845621438E-01
3.23880141417E+05	-2.02495344732E+01	-1.14867561891E+02	4.47879923598E+00	-1.77753424343E+02	-5.43239581000E+01	9.01777226395E+01	-5.90437853799E+00	-2.17885995784E-01
3.24114247838E+05	-3.66507577252E+01	6.53347439512E-01	4.36088507486E+00	-1.78300917524E+02	-3.65775806442E+01	2.61396804264E+01	-5.85562237493E+00	-4.59080945862E-01
3.24348523475E+05	-2.38089307442E+01	-1.39962704892E+02	4.39962722353E+00	-1.77869586755E+02	-4.50868569067E+01	-1.54481777702E+02	-5.91365945552E+00	-3.57157685118E-01
3.24582968451E+05	-1.62592275076E+01	-1.81650019009E+00	4.33772844015E+00	-1.77535241333E+02	-4.01052852472E+01	-3.18091672814E+01	-5.86051536689E+00	-1.77897515561E-01
3.24817582888E+05	-1.98524647651E+01	1.18372663569E+02	4.54538376542E+00	-1.78338963679E+02	-4.33068007666E+01	4.09455168887E+01	-5.87226719801E+00	-2.56124581146E-01
3.25052366909E+05	-2.05187712321E+01	9.87270333955E+01	4.37463216998E+00	-1.78797593117E+02	-3.49442652462E+01	5.82555549233E+01	-5.86422179035E+00	-9.46462479419E-02
3.25287320635E+05	-2.82782102020E+01	8.72573932892E+01	4.36985551202E+00	-1.77667901994E+02	-5.20156020673E+01	-5.13705699543E+01	-5.90132234737E+00	-2.94108693684E-01
3.25522444191E+05	-1.40219705438E+01	4.70082504815E+00	4.27024605567E+00	-1.77806274300E+02	-4.84101427653E+01	-2.18968035569E+01	-5.87894886997E+00	-2.83607482491E-01
3.25757737698E+05	-2.21542924661E+01	2.37415882910E+01	4.35836947141E+00	-1.77840892135E+02	-3.74111063533E+01	1.46503699949E+02	-5.89403271836E+00	-2.49832618724E-02
3.25993201280E+05	-1.80437263451E+01	-1.24504697806E+02	4.39538730475E+00	-1.77928029327E+02	-4.46094215284E+01	1.02469292758E+02	-5.90398871857E+00	-1.12763163138E-01
3.26228835058E+05	-1.39434222487E+01	-1.53094353792E+02	4.56899708239E+00	-1.77687696243E+02	-3.42610827956E+01	1.59355472152E+02	-5.92100402615E+00	-4.01924257587E-01
