# Hz S DB R 50
! CMT, M5065, 19127446, 24.2.4/2
! Date: 11/1/2024 4:49:51 PM
! Data: Format (Calibration Info)
! Freq	S11:dB/Ang(F2)	S21:dB/Ang(F2)	S12:dB/Ang(F2)	S22:dB/Ang(F2)
3.00000000000E+05	-1.40134854964E+01	-6.34491197454E+01	2.49969889555E+01	-1.73069246832E+02	-4.11823019113E+01	7.16683850380E+01	-5.86861367947E+00	7.26509886149E-01
3.00216845423E+05	-4.27842455475E+00	2.99286458287E+01	2.47030806457E+01	-1.75385740690E+02	-3.59488653513E+01	-1.67559575166E+02	-6.09663048643E+00	-1.12714517417E+00
3.00433847586E+05	-1.97381305091E+01	-1.53939184818E+01	2.49987396744E+01	-1.73873519810E+02	-3.43201003038E+01	8.88457236658E+01	-5.88030798267E+00	2.76638042511E+00
3.00651006602E+05	-2.16442329551E+01	-3.28722130197E+01	2.50445504844E+01	-1.73889606823E+02	-3.60576284120E+01	-9.78523650986E+01	-5.89334884316E+00	-2.25248982873E+00
3.00868322584E+05	-2.02773666700E+01	-6.04178851998E+00	2.50277082685E+01	-1.74020988077E+02	-4.69152265870E+01	6.73195632396E+00	-5.79258516058E+00	-1.53436046600E-01
3.01085795647E+05	-1.87276040417E+01	2.31873686114E+00	2.50293204366E+01	-1.74106727914E+02	-3.71689070976E+01	6.63923328073E+00	-5.64804826263E+00	3.23625758885E-01
3.01303425902E+05	-2.63260001683E+01	9.55280627359E+01	2.50779831827E+01	-1.74384454896E+02	-4.02200641790E+01	-6.29018825447E+01	-5.76396667835E+00	-1.08306252704E+00
3.01521213465E+05	-1.41308581818E+01	-1.18351584760E+01	2.49770019881E+01	-1.73933676521E+02	-4.00636376440E+01	1.57243864011E+02	-6.07027391572E+00	1.44540821278E-01
3.01739158449E+05	-9.47549001323E+00	-2.20729332770E+01	2.48409709936E+01	-1.73858437916E+02	-4.46606122506E+01	-4.00903466759E+00	-5.76793797199E+00	-5.10354886059E-01
3.01957260967E+05	-2.28994380652E+01	-6.50966113526E+01	2.50455064950E+01	-1.73790467279E+02	-6.77795782325E+01	1.21548424371E+02	-6.01227772084E+00	1.44540515975E-01
3.02175521134E+05	-2.13762790316E+01	-1.17553804718E+02	2.50554423722E+01	-1.74057451076E+02	-4.62824953601E+01	1.44356690015E+02	-5.98988627972E+00	2.35219437451E-02
3.02393939063E+05	-2.26279827891E+01	1.32745924754E+02	2.50674568302E+01	-1.74279706309E+02	-3.89642662625E+01	1.68578187824E+02	-6.06025399984E+00	-4.11088498282E-02
3.02612514869E+05	-1.92673189875E+01	-1.04436589503E+02	2.50649445521E+01	-1.73941435953E+02	-4.00112630575E+01	1.74719908903E+02	-6.04730013249E+00	-4.13142710245E-01
3.02831248665E+05	-2.46036692305E+01	-8.58969141460E+01	2.50951185716E+01	-1.74105772080E+02	-4.87727459046E+01	-5.69565490929E-01	-5.80956769648E+00	-6.82816293484E-01
3.03050140565E+05	-1.98188718474E+01	-1.57077408866E+02	2.50992166906E+01	-1.74153317032E+02	-3.95407714540E+01	-1.17174583606E+02	-5.90091481384E+00	-1.70004033213E+00
3.03269190685E+05	-1.23511464296E+01	6.63169218884E+01	2.50103661316E+01	-1.75069243485E+02	-3.90262926550E+01	4.60780991386E+01	-5.76791387034E+00	1.03693966490E+00
3.03488399138E+05	-1.37208263134E+01	1.24374473298E+02	2.51390952108E+01	-1.74844479179E+02	-3.40439223858E+01	-1.31540418223E+02	-6.08234199532E+00	-3.41433479447E+00
3.03707766039E+05	-1.73514510456E+01	-5.22487973968E+01	2.50435522199E+01	-1.73575519268E+02	-5.56742077064E+01	-5.88821334376E+01	-5.74166516272E+00	-2.56899442044E-01
3.03927291503E+05	-2.23801259473E+01	-3.39190617811E+01	2.50553373916E+01	-1.74109754904E+02	-4.71202886952E+01	-9.90434795942E+01	-5.86404458494E+00	-1.08064320862E+00
3.04146975643E+05	-1.83838527931E+01	3.86332046104E+01	2.49984557839E+01	-1.74526431376E+02	-4.34504373333E+01	-5.13669022294E+01	-5.77515737024E+00	-5.66308935459E-01
3.04366818575E+05	-2.19008203304E+01	-2.77057833985E+01	2.50161082539E+01	-1.74153847514E+02	-4.15500734586E+01	8.23293059968E+01	-5.90521407174E+00	3.29172143515E-01
3.04586820414E+05	-2.57889045607E+01	-3.24286797772E+01	2.50530047748E+01	-1.74154526160E+02	-3.49467584510E+01	-1.59238481277E+02	-6.13726713961E+00	-1.24900082873E+00
3.04806981274E+05	-1.52493881552E+01	1.79193227839E+02	2.52208690489E+01	-1.74540746544E+02	-4.14271982658E+01	-1.74957389506E+02	-6.07113178442E+00	-1.08952743068E+00
3.05027301270E+05	-2.73745856239E+01	-7.93043268231E+01	2.51181307973E+01	-1.74020740135E+02	-3.13782959492E+01	-1.17562769454E+02	-6.11557418696E+00	-4.21550443660E+00
3.05247780517E+05	-1.54019439102E+01	7.58069409613E+01	2.50311139509E+01	-1.74938229636E+02	-5.30745917184E+01	5.99224147081E+01	-5.91501093198E+00	2.49890102041E-01
3.05468419131E+05	-1.39011106989E+01	-1.60070357111E+02	2.51676844298E+01	-1.74100615828E+02	-4.19818616588E+01	-3.25905122763E+01	-5.71375675438E+00	-1.13449126127E+00
3.05689217226E+05	-1.79336502963E+01	1.40964698481E+02	2.51137859591E+01	-1.74788389290E+02	-3.88554764140E+01	1.76899179115E+02	-6.05654218923E+00	-6.90931142532E-01
3.05910174918E+05	-2.11925919668E+01	3.25255041767E+01	2.50543226970E+01	-1.74426384154E+02	-4.90922503237E+01	-1.54104699161E+02	-5.90365228079E+00	-3.31404340556E-02
3.06131292322E+05	-2.65211849295E+01	-1.47034709339E+02	2.51015808821E+01	-1.74222537291E+02	-3.98585329446E+01	-4.21168930727E+01	-5.69078623994E+00	-1.41367675790E+00
3.06352569554E+05	-1.47322427715E+01	-1.31122197231E+02	2.51748766980E+01	-1.73798483409E+02	-3.28395810951E+01	-2.94599746331E+01	-5.38984708790E+00	-1.45663566623E+00
3.06574006730E+05	-2.33733084876E+01	4.62908974749E+01	2.50426344255E+01	-1.74552703784E+02	-3.14316060765E+01	-1.41036851774E+02	-6.39578268212E+00	-4.13023131130E+00
3.06795603964E+05	-2.16113345001E+01	-2.99185113112E+01	2.50505530043E+01	-1.74106651750E+02	-6.90947172935E+01	1.13122266972E+02	-5.86025571664E+00	-3.79031357571E-01
3.07017361372E+05	-1.55518564998E+01	-2.16022528175E+01	2.50191047455E+01	-1.74252229889E+02	-4.52691434334E+01	-4.02575644200E+01	-5.73065689757E+00	-5.45480350730E-01
3.07239279071E+05	-1.43210820795E+01	-1.06070236435E+02	2.50952257287E+01	-1.73718618244E+02	-3.46743296878E+01	9.60065979094E+01	-5.98356263821E+00	1.75029392349E+00
3.07461357176E+05	-3.27983660685E+01	1.67254313461E+02	2.50844109125E+01	-1.74461153888E+02	-3.46957113735E+01	6.42396958835E+01	-5.78638352630E+00	1.34428309461E+00
3.07683595803E+05	-1.98901932535E+01	-5.32884637409E+01	2.50460595622E+01	-1.74076856569E+02	-3.92951980408E+01	-2.18180747608E+01	-5.73901965306E+00	-2.76884554233E-01
3.07905995068E+05	-3.43372257957E+01	-1.09637466981E+02	2.50776052892E+01	-1.74202422461E+02	-4.12250180359E+01	-3.45293019068E+01	-5.69604201153E+00	-9.97464170062E-01
3.08128555087E+05	-3.93405506566E+01	1.03119862192E+02	2.51030377729E+01	-1.74380296454E+02	-3.60783868597E+01	5.01291400803E+00	-5.52023769659E+00	-2.78097479398E-01
3.08351275976E+05	-2.89055048716E+01	5.08726642188E+01	2.50647825225E+01	-1.74593318615E+02	-3.66730778408E+01	-6.77819872298E+01	-5.68904708830E+00	-2.35456622952E+00
3.08574157853E+05	-2.70750689036E+01	-1.40050559128E+02	2.50603059333E+01	-1.74418778619E+02	-4.30388502192E+01	1.62793179508E+02	-5.98557684375E+00	-5.14711122213E-01
3.08797200832E+05	-1.61421589138E+01	-4.70440108490E+01	2.50057223537E+01	-1.73992315487E+02	-4.58943006246E+01	-1.01519188708E+02	-5.86316306229E+00	-1.01246905192E+00
3.09020405031E+05	-2.26859086526E+01	-8.69811840842E+01	2.50850025063E+01	-1.74323615375E+02	-4.24032703018E+01	1.31430596631E+02	-5.88270136378E+00	4.13622580958E-01
3.09243770566E+05	-2.33754713636E+01	-3.44789348282E+01	2.50399874352E+01	-1.74288894453E+02	-3.56598571552E+01	-7.00280786861E+01	-5.77067524085E+00	-2.28572225912E+00
3.09467297553E+05	-1.50011278580E+01	-2.06476724081E+01	2.49389395721E+01	-1.74428454413E+02	-3.15705101983E+01	5.02542065034E+01	-5.60162066573E+00	2.30723457654E+00
3.09690986110E+05	-1.81050821590E+01	1.19146789384E+02	2.51134234507E+01	-1.74963013003E+02	-3.12114332784E+01	6.78246707401E+01	-5.73619997002E+00	3.05119911706E+00
3.09914836353E+05	-3.69201355138E+01	-1.59788698876E+02	2.50431488059E+01	-1.74518596626E+02	-4.13015595799E+01	6.53626749766E+01	-5.85999370686E+00	6.30754606134E-01
3.10138848399E+05	-2.43184146288E+01	6.11882844740E+01	2.50792707557E+01	-1.74889120238E+02	-3.93171940219E+01	6.89087228481E+01	-5.82790266855E+00	8.79409787812E-01
3.10363022365E+05	-2.09946950646E+01	-7.17280807525E+01	2.50781479560E+01	-1.74007769956E+02	-4.25641933038E+01	-1.27217085339E+01	-5.73664481461E+00	-4.09541076070E-01
3.10587358368E+05	-2.37045203636E+01	1.58091810020E+02	2.51105433422E+01	-1.74489718489E+02	-4.91073587686E+01	1.73695888710E+02	-5.93836358603E+00	-4.17566166753E-01
3.10811856525E+05	-1.96814815433E+01	-4.39608675630E+01	2.50096290273E+01	-1.74440444475E+02	-3.59404203012E+01	-4.72821856193E+01	-5.68723686035E+00	-2.03015453829E+00
3.11036516954E+05	-1.07306261318E+01	-8.76582765894E+01	2.51018768936E+01	-1.73652148949E+02	-5.16103819892E+01	7.41322576777E+00	-5.79918024344E+00	-4.40216841318E-01
3.11261339771E+05	-1.63276105685E+01	-1.26228220772E+02	2.51361166317E+01	-1.74121093951E+02	-3.36750552061E+01	-6.00627321308E+01	-5.61342649071E+00	-2.56948318906E+00
3.11486325094E+05	-2.35335870556E+01	-1.73340337429E+02	2.51372428815E+01	-1.74646032299E+02	-5.84369795010E+01	-1.04910031712E+02	-5.83981398983E+00	-5.52365663729E-01
3.11711473040E+05	-3.57269410956E+01	-2.73290723567E+01	2.50823307596E+01	-1.74671734080E+02	-5.43568582072E+01	-5.07790951558E+00	-5.80429951758E+00	-5.30311979261E-01
3.11936783728E+05	-2.22528399820E+01	-5.90234410116E+01	2.50779347204E+01	-1.74382080113E+02	-3.53288071493E+01	9.46749824604E+01	-5.82530523686E+00	1.88914916258E+00
3.12162257274E+05	-1.74040486190E+01	-9.95563131283E+00	2.50403099496E+01	-1.74560257310E+02	-4.68847479568E+01	4.51142340783E+00	-5.75164019995E+00	-2.38237645668E-01
3.12387893797E+05	-1.85310321402E+01	4.18048406741E+00	2.50242331467E+01	-1.74557370866E+02	-4.19138868714E+01	1.72309904422E+02	-5.95790133917E+00	-8.06129456421E-02
3.12613693413E+05	-1.83483914801E+01	-3.35901489850E+01	2.50140161263E+01	-1.74514073050E+02	-4.14556245122E+01	1.02580105023E+02	-5.94409887633E+00	9.16075545535E-01
3.12839656242E+05	-1.71448858088E+01	-9.56630918085E+01	2.50585819798E+01	-1.74094178138E+02	-3.67039416164E+01	-6.52257558751E+01	-5.73102873388E+00	-1.51676684567E+00
3.13065782401E+05	-2.07398219281E+01	1.04193040575E+00	2.50387242169E+01	-1.74677765850E+02	-4.04906958219E+01	-1.16930005166E+02	-5.88150884008E+00	-1.18238537194E+00
3.13292072007E+05	-1.70572470986E+01	2.01805661349E+01	2.49938123751E+01	-1.74859798390E+02	-3.54075186626E+01	1.27459655101E+02	-6.06875819289E+00	1.52301699225E+00
3.13518525180E+05	-2.53560054785E+01	-1.72749638650E+02	2.50962067241E+01	-1.74838578584E+02	-3.97813324246E+01	9.43213008561E+01	-5.91204614009E+00	1.05887850863E+00
3.13745142038E+05	-1.56014684382E+01	-1.36620345298E+02	2.51458203638E+01	-1.74316335683E+02	-4.78195257937E+01	-1.10151209846E+02	-5.84327475297E+00	-8.82474758519E-01
3.13971922698E+05	-2.09320072587E+01	1.16540579407E+02	2.51534820410E+01	-1.75330930632E+02	-4.42118181113E+01	-1.61738816621E+02	-6.01396747072E+00	-7.65491939562E-01
3.14198867279E+05	-1.85389736299E+01	-7.69719709953E+01	2.50480712868E+01	-1.74108550955E+02	-4.55855548664E+01	-2.54159791933E+01	-5.77192377250E+00	-4.78124352382E-01
3.14425975900E+05	-1.32033160291E+01	-1.30467147628E+02	2.52315283184E+01	-1.74190501013E+02	-2.89989226872E+01	5.05472972097E+01	-5.40473047689E+00	4.09107778182E+00
3.14653248680E+05	-2.51062949737E+01	9.30888676168E+01	2.50848090474E+01	-1.74883827042E+02	-3.58311088619E+01	-8.17200368018E+01	-5.76774395837E+00	-2.41993148297E+00
3.14880685736E+05	-2.51445044456E+01	1.45668141349E+02	2.51128592753E+01	-1.75060260311E+02	-5.04808627406E+01	1.58633940058E+02	-5.86297779254E+00	-3.08863279330E-01
3.15108287188E+05	-2.98453059913E+01	1.21928796291E+02	2.50912606707E+01	-1.75049591406E+02	-4.23919015372E+01	-5.52785065528E+01	-5.73300209717E+00	-2.39480260603E-01
3.15336053154E+05	-1.96373887876E+01	-1.01749656273E+02	2.50822387440E+01	-1.74480682099E+02	-4.81025031362E+01	3.88854834878E+01	-5.84228895612E+00	2.02125754375E-01
3.15563983753E+05	-1.68186052316E+01	-3.16440660749E+01	2.49941863843E+01	-1.74525471316E+02	-4.36722265772E+01	8.63904891952E+01	-5.91213058115E+00	-3.42608834678E-04
3.15792079105E+05	-1.98809622187E+01	3.60980222259E+01	2.50047337429E+01	-1.75190892431E+02	-4.02599349683E+01	-1.01890727924E+02	-5.79916349808E+00	-1.64779164347E+00
3.16020339328E+05	-1.63682994091E+01	7.97111001686E+01	2.50673971363E+01	-1.75556704282E+02	-3.26253555741E+01	8.03092992371E+00	-5.29794967615E+00	4.65543457811E-01
3.16248764542E+05	-1.96100816654E+01	-3.27337581033E+00	2.50236831433E+01	-1.74792835323E+02	-3.37631714522E+01	-1.12399881010E+02	-5.92274889300E+00	-2.72455327006E+00
3.16477354866E+05	-1.90613250896E+01	-7.03023685652E+00	2.50240295711E+01	-1.74831161451E+02	-3.54226904273E+01	-5.29766857637E+01	-5.62943620468E+00	-1.82336695183E+00
3.16706110419E+05	-2.49117437762E+01	-9.77785929329E+01	2.51040893107E+01	-1.74530611618E+02	-3.84165303600E+01	-9.32028899914E+00	-5.67924517431E+00	-1.95724884530E-01
3.16935031321E+05	-1.65842993057E+01	-6.62936239309E+01	2.50514833006E+01	-1.74548101192E+02	-4.96702568718E+01	2.46587414650E+01	-5.90793902545E+00	-3.50077583384E-01
3.17164117691E+05	-2.46999629300E+01	9.63065699195E+01	2.50954641651E+01	-1.75416120520E+02	-3.77488251005E+01	-5.20410782614E+01	-5.72993563343E+00	-1.33569180332E+00
3.17393369648E+05	-1.07504480059E+01	-2.12093806866E+01	2.49001303766E+01	-1.74338030525E+02	-4.22148778927E+01	1.30450674558E+02	-6.05640523988E+00	4.99808018780E-01
3.17622787313E+05	-1.44954264491E+01	-7.89128906818E+01	2.50353736754E+01	-1.74464511918E+02	-3.71161574876E+01	-9.37979912372E+01	-5.83501028498E+00	-2.11423532746E+00
3.17852370806E+05	-1.85402652617E+01	4.02176390069E+01	2.50118837653E+01	-1.75319299746E+02	-3.62896009670E+01	-4.73462038909E+01	-5.61890722926E+00	-1.75578307680E+00
3.18082120245E+05	-2.29776227271E+01	-2.96388105431E+01	2.50586753868E+01	-1.74834313669E+02	-4.06288986485E+01	5.25121553565E+00	-5.70856265834E+00	-2.16477269406E-01
3.18312035752E+05	-1.79165211158E+01	7.46836869861E+01	2.50525984251E+01	-1.75644975218E+02	-4.95418565176E+01	-1.30106293712E+02	-5.92389699252E+00	-9.45882727920E-01
3.18542117445E+05	-1.98932789251E+01	1.77004707789E+02	2.51593795154E+01	-1.75117590396E+02	-6.19015277390E+01	1.65371300828E+02	-5.86576105748E+00	1.03639006798E-01
3.18772365446E+05	-4.02405041344E+01	1.45232390120E+02	2.50699896157E+01	-1.75149779596E+02	-4.02722604270E+01	2.14899077757E+01	-5.71448846842E+00	1.24504785176E-01
3.19002779874E+05	-2.34136664713E+01	5.53415577029E+01	2.50657645158E+01	-1.75223043065E+02	-4.10286149955E+01	-9.31632466106E+01	-5.90972162838E+00	-1.57317149878E+00
3.19233360850E+05	-1.59307870584E+01	-8.19629819622E+01	2.50466764738E+01	-1.74327174862E+02	-4.83071143392E+01	-6.76742380742E+01	-5.78722524874E+00	-1.51719881074E+00
3.19464108494E+05	-1.65555416265E+01	-8.21081638304E+01	2.50753912436E+01	-1.74421196030E+02	-3.45418066676E+01	-2.88355678965E+01	-5.46007277899E+00	-1.26521422468E+00
3.19695022927E+05	-2.05431341795E+01	-1.38859681311E+02	2.51195856228E+01	-1.74758082448E+02	-3.79972935165E+01	3.92726343606E+01	-5.68871329845E+00	6.58397685528E-01
3.19926104268E+05	-1.45070012185E+01	-6.32722091508E+01	2.50504263209E+01	-1.74278335797E+02	-3.44830846556E+01	-9.50598675317E+01	-5.88301878532E+00	-2.48823098682E+00
3.20157352640E+05	-2.66611335962E+01	1.50817179526E+01	2.50133979586E+01	-1.75215175203E+02	-3.81680424090E+01	7.97596446681E+00	-5.65338970024E+00	-4.57475819920E-02
3.20388768162E+05	-2.24613405289E+01	1.20654723398E+02	2.50616058845E+01	-1.75520937970E+02	-5.06746310639E+01	-1.69597332276E+02	-5.89998487540E+00	-5.52165576522E-01
3.20620350955E+05	-1.01104077848E+01	-1.38091848573E+02	2.52204748186E+01	-1.74263498247E+02	-4.11336176437E+01	1.35153974976E+02	-5.99506899545E+00	1.65143405083E-01
3.20852101140E+05	-2.49561515056E+01	-6.72517997976E-01	2.50565919295E+01	-1.75453482796E+02	-3.42536358148E+01	-1.71583065164E+02	-6.31407490711E+00	-1.37991681672E+00
3.21084018839E+05	-1.59623593427E+01	-1.04885279279E+02	2.51002208860E+01	-1.74700573469E+02	-3.56540638368E+01	1.45008013281E+02	-6.26431467098E+00	5.23404571156E-01
3.21316104172E+05	-1.43618256887E+01	1.71348964127E+01	2.49663304035E+01	-1.75450976874E+02	-3.47464549853E+01	-7.44470309851E+01	-5.77931036756E+00	-2.19319082676E+00
3.21548357261E+05	-1.57189244818E+01	-1.65237498863E+01	2.50039933743E+01	-1.74827658542E+02	-5.42198535812E+01	9.12618083948E+01	-5.91710579378E+00	-2.05243659368E-01
3.21780778226E+05	-2.17871352549E+01	-1.55577069226E+02	2.51324958680E+01	-1.75031181607E+02	-3.89531212748E+01	-9.92160902970E+01	-5.87962371161E+00	-1.86892304677E+00
3.22013367189E+05	-2.46305605705E+01	-6.14742355727E+01	2.50464249554E+01	-1.74813846288E+02	-3.51498214629E+01	-7.50110059210E+01	-5.72612756240E+00	-2.24092879102E+00
3.22246124272E+05	-1.68775519848E+01	4.67132774682E+00	2.50027932875E+01	-1.75357980038E+02	-4.03873759514E+01	7.79243867292E+01	-5.83593768733E+00	7.49466366291E-01
3.22479049596E+05	-1.10235578399E+01	3.26159882982E+01	2.49112489013E+01	-1.75877334752E+02	-3.32835185551E+01	-5.03114869398E+01	-5.51030568284E+00	-2.58496090363E+00
3.22712143282E+05	-2.05669068941E+01	-1.38219609893E+02	2.51634762808E+01	-1.75076323088E+02	-3.09408054893E+01	-4.21837121541E+01	-5.49281785791E+00	-2.90551498717E+00
3.22945405453E+05	-2.41042985162E+01	1.24273469329E+02	2.51001132421E+01	-1.75355852095E+02	-4.47597007570E+01	-7.60969645882E+01	-5.79886226305E+00	-9.05055282659E-01
3.23178836230E+05	-1.65859609985E+01	-5.05874483985E+01	2.50173923872E+01	-1.74781406849E+02	-4.28170596593E+01	-1.52709086934E+02	-6.00062082351E+00	-1.17886976829E+00
3.23412435735E+05	-3.37395946832E+01	-6.97721450221E+01	2.50709470578E+01	-1.75060807925E+02	-4.06863535995E+01	-1.37409394159E+02	-6.01020841723E+00	-8.81800922642E-01
3.23646204090E+05	-1.95281360831E+01	5.42873893223E+01	2.50722889280E+01	-1.75577764830E+02	-4.24800926288E+01	1.01394032176E+02	-5.83905732239E+00	6.80963162305E-01
3.23880141417E+05	-2.15040353394E+01	-5.22945804245E+01	2.50411694418E+01	-1.74991122224E+02	-4.41588732087E+01	1.44000427007E+02	-6.01049916582E+00	5.43857699123E-01
3.24114247838E+05	-1.71232716670E+01	-7.68895571899E+01	2.51013518972E+01	-1.75043160439E+02	-3.47122568081E+01	-6.48171377909E+01	-5.62407728571E+00	-2.67374935126E+00
3.24348523475E+05	-1.91073026187E+01	4.77969523458E+01	2.50469507964E+01	-1.75584391305E+02	-3.36150582730E+01	-1.19470486318E+02	-6.11484222489E+00	-3.71081738908E+00
3.24582968451E+05	-2.68426567004E+01	-8.19229999018E+01	2.50459050536E+01	-1.75329052059E+02	-4.11968009510E+01	9.76461987721E+01	-5.86715528956E+00	2.85634367702E-01
3.24817582888E+05	-2.62196721147E+01	1.55173027383E+01	2.50479926760E+01	-1.75561823258E+02	-3.75647952581E+01	-2.84556455762E+01	-5.66428000813E+00	-7.25755600500E-01
3.25052366909E+05	-2.52134535179E+01	9.36727315431E+01	2.50945440228E+01	-1.75399633879E+02	-3.61126187398E+01	9.96773424659E+01	-5.90008285614E+00	1.52609149946E+00
3.25287320635E+05	-1.62757981522E+01	-2.23116167455E+01	2.50434532907E+01	-1.75156182732E+02	-4.33051830419E+01	1.75451862087E+02	-6.00367159431E+00	-5.35881381561E-01
3.25522444191E+05	-2.72422053802E+01	1.79108338813E+02	2.51009180068E+01	-1.75568484764E+02	-3.90502957754E+01	-1.05308188557E+02	-5.93780426178E+00	-1.53669165203E+00
3.25757737698E+05	-1.27666759727E+01	-1.01085054310E+02	2.51399065381E+01	-1.74409450099E+02	-4.98314589715E+01	-1.56206221524E+02	-5.93784346338E+00	-9.80351275952E-01
3.25993201280E+05	-1.68304573605E+01	-6.42160638400E+01	2.50721727706E+01	-1.74921331797E+02	-3.35333122988E+01	8.24567652832E+01	-5.84266442847E+00	3.40202105827E+00
3.26228835058E+05	-2.38076959604E+01	-3.99502649422E+01	2.50756710871E+01	-1.75189486912E+02	-3.96624285003E+01	-1.70303456210E+00	-5.71098883470E+00	-2.44546382042E-01
