# Hz S DB R 50
! CMT, M5065, 19127446, 24.2.4/2
! Date: 11/1/2024 4:16:07 PM
! Data: Format (Calibration Info)
! Freq	S11:dB/Ang(F2)	S21:dB/Ang(F2)	S12:dB/Ang(F2)	S22:dB/Ang(F2)
3.00000000000E+05	-1.59017565187E+01	-1.24307861384E+02	5.02761650522E+00	-1.77491050548E+02	-4.16359493243E+01	-1.33007823975E+02	-5.92316770353E+00	-1.24719560890E-01
3.00216845423E+05	-2.54640679713E+01	-6.85363273596E+01	4.86247778126E+00	-1.77167660416E+02	-4.87638658417E+01	-4.04941198337E+01	-5.86001996051E+00	-7.06905203650E-02
3.00433847586E+05	-1.61751448095E+01	-1.70172642027E+02	5.09969235500E+00	-1.77129562900E+02	-4.16366310415E+01	1.78908669739E+02	-5.93691126528E+00	-1.83418529169E-01
3.00651006602E+05	-2.20724324600E+01	5.62560931390E+01	4.95583844009E+00	-1.77583686778E+02	-3.63523517813E+01	-2.17146646429E+01	-5.86718217041E+00	-1.48542565987E-01
3.00868322584E+05	-2.50959896994E+01	-5.17476749823E+01	4.90204734183E+00	-1.77766169904E+02	-3.51359004039E+01	-2.54541901808E+01	-5.88419065425E+00	-5.03352498336E-01
3.01085795647E+05	-2.17415745387E+01	-5.44307209016E+01	4.95011773993E+00	-1.77480303503E+02	-3.46796914282E+01	3.08570234992E+01	-5.84252732576E+00	-2.53659139945E-01
3.01303425902E+05	-3.07497601353E+01	-1.65349512640E+02	4.98586217559E+00	-1.77682728063E+02	-3.84642987022E+01	-1.24441684264E+02	-5.92758452456E+00	-4.48995330631E-01
3.01521213465E+05	-6.35306774552E+00	1.31619056298E+02	5.11911038998E+00	-1.79563779807E+02	-3.61068070910E+01	4.42685177763E+00	-5.87831282563E+00	-2.93808732773E-01
3.01739158449E+05	-1.30074884096E+01	8.15356131839E+01	4.92203575302E+00	-1.79013799793E+02	-3.83573296333E+01	-5.83271315512E+01	-5.91444323304E+00	-6.12098365537E-01
3.01957260967E+05	-2.63852369978E+01	6.17850224556E+00	4.91582567883E+00	-1.77683942421E+02	-4.38210323709E+01	-1.46683581566E+02	-5.86835422913E+00	-4.67059635358E-01
3.02175521134E+05	-1.91033548290E+01	-4.86321607376E+01	4.90860337406E+00	-1.77099840254E+02	-4.69204721653E+01	3.49877791419E+01	-5.89122353208E+00	-6.01943980189E-02
3.02393939063E+05	-1.96055021100E+01	-1.42592530306E+02	5.04320750296E+00	-1.77555380692E+02	-3.74205239083E+01	-1.24921458254E+02	-5.91104845668E+00	-2.84326488913E-01
3.02612514869E+05	-2.44762909944E+01	1.17959529781E+01	4.94460695484E+00	-1.77686714596E+02	-3.23920509255E+01	1.47705491960E+02	-5.92379166623E+00	5.92520640000E-02
3.02831248665E+05	-1.57716119431E+01	-1.23723210209E+02	5.08832144883E+00	-1.77060888631E+02	-4.28990443931E+01	-5.47532984035E-02	-5.88150099333E+00	-5.24729708056E-02
3.03050140565E+05	-1.86241655540E+01	-1.38661922699E+02	4.94647606790E+00	-1.77202199703E+02	-3.36136700035E+01	-7.31961118137E+01	-5.88454049737E+00	-6.04827649761E-01
3.03269190685E+05	-1.90036563078E+01	-6.51514046355E+00	4.92485171937E+00	-1.78038948072E+02	-4.52396202458E+01	3.83242288859E+01	-5.82426884387E+00	-3.90346494591E-01
3.03488399138E+05	-3.16173294293E+01	1.14288738402E+02	4.98977558514E+00	-1.78039408910E+02	-4.25280458862E+01	-1.74638798586E+02	-5.89606685845E+00	-2.55045766438E-01
3.03707766039E+05	-3.57249053731E+01	1.49676680718E+02	4.95330142838E+00	-1.77473047210E+02	-3.86025529788E+01	4.49772313026E+01	-5.90385668200E+00	5.71837250826E-02
3.03927291503E+05	-3.30911509485E+01	9.76726707969E+00	4.94303279209E+00	-1.77886203992E+02	-3.61561567210E+01	8.04266724312E+01	-5.89955743195E+00	-9.78871202209E-02
3.04146975643E+05	-3.95467816810E+01	-5.11927930787E+01	4.94706799409E+00	-1.77339540257E+02	-3.30020944375E+01	1.36350662838E+02	-5.95620304742E+00	1.30153942311E-01
3.04366818575E+05	-1.28592831951E+01	1.47241446526E+02	5.02618206260E+00	-1.78544837678E+02	-3.01614283281E+01	-1.59107237113E+02	-5.98376925360E+00	-2.70337859090E-01
3.04586820414E+05	-1.99089026245E+01	-2.43583848209E+01	4.81894537261E+00	-1.77640348163E+02	-3.74229443812E+01	7.64037431978E+01	-5.89033202586E+00	-6.62093044702E-02
3.04806981274E+05	-2.19347974408E+01	8.76124918802E+01	4.93993794838E+00	-1.78373054264E+02	-4.23000349820E+01	3.90005336285E+01	-5.90181240265E+00	-4.52246292234E-02
3.05027301270E+05	-1.89036714535E+01	-1.04699278305E+01	4.92484904102E+00	-1.77897932224E+02	-4.72857586643E+01	1.00483679086E+02	-5.86782187306E+00	-2.78388063241E-01
3.05247780517E+05	-1.51761498475E+01	-1.53037729923E+01	4.90364962381E+00	-1.77028645487E+02	-4.62645405387E+01	1.68656965379E+02	-5.90929647141E+00	-9.05953801914E-02
3.05468419131E+05	-2.17679689614E+01	5.97567870506E+01	4.94356197616E+00	-1.77850713620E+02	-3.75778563012E+01	2.68188969373E+01	-5.89445893306E+00	-2.33093780972E-01
3.05689217226E+05	-1.84074086344E+01	2.12435397691E+01	4.93006902168E+00	-1.77696447734E+02	-3.93309899707E+01	-6.91860533542E+01	-5.87097576499E+00	-6.51194680823E-02
3.05910174918E+05	-1.28412602395E+01	-9.10638107091E+01	4.99396830354E+00	-1.76947321739E+02	-5.13005317380E+01	1.48070899660E+02	-5.89673575337E+00	1.72023080812E-02
3.06131292322E+05	-1.46568776762E+01	1.06271400802E+02	5.04106224119E+00	-1.78284400673E+02	-3.75305759810E+01	9.59720057972E+01	-5.87389943624E+00	-5.27667276586E-02
3.06352569554E+05	-1.37527203780E+01	1.01331306123E+02	5.05216604072E+00	-1.78505192287E+02	-4.57538130342E+01	1.10854345147E+02	-5.91415815001E+00	8.69585661219E-03
3.06574006730E+05	-1.99466721441E+01	1.02156913695E+02	4.98822416443E+00	-1.78207143934E+02	-4.87707067397E+01	5.32117993908E+01	-5.90439093664E+00	-4.74004676301E-01
3.06795603964E+05	-1.84380423639E+01	-1.31355899821E+02	4.97987545522E+00	-1.77247830079E+02	-3.55343864434E+01	9.90946444268E+01	-5.86184005482E+00	-1.62936602863E-01
3.07017361372E+05	-1.50320080161E+01	5.51531857594E+01	4.94913175244E+00	-1.78370484610E+02	-3.56150230925E+01	7.03489895492E+01	-5.87759795756E+00	2.86133061865E-02
3.07239279071E+05	-2.62606272900E+01	1.78273243452E+02	5.00139444633E+00	-1.77771105195E+02	-4.19213766896E+01	1.23731441234E+01	-5.92209469293E+00	-1.62443120192E-01
3.07461357176E+05	-2.11126974610E+01	-1.65183676772E+02	4.94345625587E+00	-1.77819244650E+02	-3.63528513086E+01	1.10875302914E+02	-5.93234494422E+00	3.07552363145E-01
3.07683595803E+05	-1.98596717450E+01	-5.92566665922E+01	4.90924568684E+00	-1.77095990094E+02	-5.84453517416E+01	1.23434055747E+02	-5.92507516970E+00	-1.60354355422E-01
3.07905995068E+05	-2.11918536122E+01	-1.23132475478E+02	5.01222696811E+00	-1.77583906808E+02	-3.37146677724E+01	-5.66554619923E+01	-5.86699886778E+00	-6.20138474752E-01
3.08128555087E+05	-2.19735062718E+01	1.05512055149E+02	4.93999176951E+00	-1.77870449184E+02	-4.65452463402E+01	-4.68887165739E+01	-5.88229408129E+00	-3.07666066722E-01
3.08351275976E+05	-1.83005550190E+01	-1.39189849442E+02	4.98309083120E+00	-1.77272293669E+02	-3.34980650821E+01	1.12817540873E+02	-5.89737718899E+00	-1.34632267442E-01
3.08574157853E+05	-1.95720251908E+01	5.42129224014E+01	4.89907132946E+00	-1.77916251318E+02	-3.83777694718E+01	9.11375518474E+01	-5.90378792841E+00	-6.47307764185E-02
3.08797200832E+05	-3.70747530467E+01	-8.63231739687E+01	4.97279197992E+00	-1.77429994421E+02	-4.14594688031E+01	1.37152853428E+01	-5.87286226033E+00	-3.30755509791E-01
3.09020405031E+05	-2.76893611599E+01	-1.77663752330E+02	5.02185071537E+00	-1.77802509555E+02	-3.82465595907E+01	2.87368409837E+01	-5.85996776892E+00	2.20618314208E-02
3.09243770566E+05	-1.02227274304E+01	-3.24574976321E+01	4.81672296361E+00	-1.76833049983E+02	-5.72016090571E+01	4.78518871319E+01	-5.88587622105E+00	-2.06288649467E-01
3.09467297553E+05	-2.26853747407E+01	-7.66913962737E+01	4.98493963161E+00	-1.77709965257E+02	-3.78502898016E+01	-1.51502920465E+01	-5.87312887461E+00	-3.03850333411E-01
3.09690986110E+05	-2.61406302988E+01	8.52466883528E+01	4.86874422930E+00	-1.78110997603E+02	-4.88153951647E+01	-8.95535632384E+01	-5.90595913167E+00	-4.45835379599E-01
3.09914836353E+05	-1.62045237997E+01	-4.25982831521E+01	4.85124689993E+00	-1.77308100545E+02	-4.48931258833E+01	-1.35321677654E+01	-5.84361864182E+00	-2.55266799543E-01
3.10138848399E+05	-2.01735621575E+01	1.20368750082E+02	5.03115388028E+00	-1.77802685729E+02	-4.49069701963E+01	-1.37396233356E+02	-5.91575885601E+00	-3.03419451478E-01
3.10363022365E+05	-2.41321091573E+01	9.00325961081E+01	5.01942069487E+00	-1.78441973807E+02	-3.08789582563E+01	1.35842816680E+02	-5.90007161593E+00	7.53317788129E-02
3.10587358368E+05	-1.70459750682E+01	1.75320202595E+02	4.97059243872E+00	-1.77360858891E+02	-4.61938377290E+01	1.71611322468E+02	-5.86173596057E+00	-4.30783290554E-01
3.10811856525E+05	-9.49985719300E+00	-5.23192306143E+01	4.85400852247E+00	-1.76435157746E+02	-3.70676914036E+01	-9.79474954512E+01	-5.88370272657E+00	-5.21311677161E-01
3.11036516954E+05	-1.63935128516E+01	-3.04131305549E+01	4.88245754766E+00	-1.77276398272E+02	-5.16170555359E+01	7.92985975437E+01	-5.89950522330E+00	-2.51922652233E-01
3.11261339771E+05	-2.30299241578E+01	-1.73847242283E+02	5.01269126594E+00	-1.77743576408E+02	-3.51017844825E+01	-2.91405832316E+01	-5.84049058486E+00	-2.80345408602E-01
3.11486325094E+05	-1.71531814308E+01	-9.31762493482E+01	4.99057230074E+00	-1.77293968127E+02	-3.59936044412E+01	-9.35199728403E+01	-5.89116601367E+00	-4.49736890263E-01
3.11711473040E+05	-1.84730531828E+01	1.30635115667E+02	4.84691934494E+00	-1.78124175223E+02	-5.53458024545E+01	2.94417111438E+01	-5.90373647234E+00	-5.45302218844E-02
3.11936783728E+05	-1.88599161326E+01	-1.72919703739E+01	4.83479120439E+00	-1.77399664543E+02	-4.35181171938E+01	-8.71799187613E+01	-5.91772429863E+00	-4.53605214807E-01
3.12162257274E+05	-2.00316415872E+01	-4.43394192102E+01	4.85814467823E+00	-1.77289397863E+02	-3.84287511305E+01	9.07196304616E+01	-5.88862015320E+00	1.44000179779E-01
3.12387893797E+05	-5.90118621868E+00	-6.79836362199E+01	4.87960414878E+00	-1.75233059119E+02	-3.82697805841E+01	1.39770653798E+01	-5.85545127776E+00	-2.93842437534E-01
3.12613693413E+05	-1.45143987908E+01	5.44581523385E+00	4.91930802641E+00	-1.77850515045E+02	-4.03869814233E+01	-1.23654521379E+02	-5.87847781520E+00	-6.85490218800E-01
3.12839656242E+05	-1.95760704407E+01	3.19894158535E+01	4.92545897664E+00	-1.78548378274E+02	-3.53530585047E+01	-6.69199136716E+01	-5.84768102490E+00	-4.34448834927E-01
3.13065782401E+05	-2.49046270361E+01	1.40485311029E+02	5.00786506464E+00	-1.78153711514E+02	-3.63204990857E+01	-1.43980704301E+02	-5.92636866873E+00	-2.14369950889E-01
3.13292072007E+05	-1.36087732247E+01	-1.34517130748E+02	4.90683085948E+00	-1.77569982998E+02	-4.39444248979E+01	-1.36682572133E+02	-5.91251433363E+00	-5.74847469112E-01
3.13518525180E+05	-2.22142726364E+01	1.76713340850E+02	4.94321778598E+00	-1.77898342136E+02	-4.06847157087E+01	-1.59405938683E+02	-5.90655877206E+00	-4.01141941907E-01
3.13745142038E+05	-2.62191192288E+01	1.02749156357E+02	4.92268505700E+00	-1.78112258518E+02	-2.82355941543E+01	1.44948569465E+02	-5.94063447478E+00	3.26534425589E-01
3.13971922698E+05	-1.37094444473E+01	-1.10634404151E+02	5.05498526264E+00	-1.76960314607E+02	-3.99394723619E+01	1.70434027049E+02	-5.90309223204E+00	-2.50496382263E-01
3.14198867279E+05	-2.29116504989E+01	3.71481657844E+01	4.96936332769E+00	-1.77393879200E+02	-5.40446166696E+01	2.63275467437E+01	-5.86943026716E+00	-4.68224740824E-01
3.14425975900E+05	-1.68139011239E+01	-1.23839654468E+02	4.96832381516E+00	-1.77598391772E+02	-3.84031593328E+01	-1.02325469285E+02	-5.88327225192E+00	-5.82266997436E-01
3.14653248680E+05	-2.46873444043E+01	4.88103007587E+01	4.93578014844E+00	-1.78126697269E+02	-5.46321819462E+01	-1.79653487811E+02	-5.89018215878E+00	-2.19436655749E-02
3.14880685736E+05	-2.09347362548E+01	1.44300115220E+02	5.05896394703E+00	-1.77915639392E+02	-4.06922830224E+01	-1.77198778034E+02	-5.91336081184E+00	-2.79356482446E-02
3.15108287188E+05	-2.40889562911E+01	4.73434770177E+01	4.92710382766E+00	-1.78040404510E+02	-3.64569137477E+01	7.91790644768E+01	-5.89713401621E+00	-1.21664050080E-01
3.15336053154E+05	-1.65628002725E+01	2.45498571669E+01	4.95019070378E+00	-1.78304829520E+02	-4.13923903299E+01	-2.58850422967E+01	-5.86469659891E+00	6.48760624660E-02
3.15563983753E+05	-1.20826137894E+01	-8.84647421709E+01	4.96015881630E+00	-1.76650622340E+02	-3.78373126906E+01	-5.72848959797E+00	-5.86824465034E+00	-4.54255132214E-01
3.15792079105E+05	-4.29513119192E+01	1.86547807373E+00	4.95382597478E+00	-1.78413483122E+02	-5.53275168544E+01	-5.57978658509E+01	-5.87475302554E+00	-3.46387071449E-01
3.16020339328E+05	-1.91875300383E+01	3.46980401185E+01	5.00776826275E+00	-1.77684011268E+02	-4.35967335979E+01	-1.35670910672E+02	-5.91670725369E+00	-4.01896951663E-01
3.16248764542E+05	-1.31846486252E+01	-4.86544501700E+01	4.87125312388E+00	-1.77495717099E+02	-4.04852588916E+01	-1.76095473003E+02	-5.86183890578E+00	-1.97601301302E-01
3.16477354866E+05	-1.71236119996E+01	-1.70206515466E+02	5.00167921673E+00	-1.77247183209E+02	-3.58658242996E+01	-2.44185666874E+01	-5.88569871834E+00	-3.60105187820E-01
3.16706110419E+05	-1.99678036145E+01	-1.67596726894E+02	5.03513637305E+00	-1.78200598848E+02	-5.04032644947E+01	1.54127357246E+01	-5.88599577270E+00	-2.21924451589E-01
3.16935031321E+05	-3.02161951038E+01	-1.75552002722E+02	5.03055910900E+00	-1.77606800591E+02	-4.21504670149E+01	1.74449151001E+02	-5.89687947290E+00	-2.74655865553E-01
3.17164117691E+05	-1.50667101206E+01	1.14246080683E+02	4.97111614311E+00	-1.78957396621E+02	-4.01379544713E+01	9.72229719200E+01	-5.93251466296E+00	-2.43307420237E-01
3.17393369648E+05	-1.21949104495E+01	-1.21076216828E+02	5.14210697444E+00	-1.77074459910E+02	-4.92376005201E+01	4.53993905904E+01	-5.86965914735E+00	-1.20471548497E-01
3.17622787313E+05	-2.40356886807E+01	1.05144155081E+02	4.95819548716E+00	-1.78096855862E+02	-4.59361682286E+01	9.05725971630E+01	-5.90418527709E+00	1.16486266657E-03
3.17852370806E+05	-1.43563350077E+01	4.93857827318E+01	4.96278428525E+00	-1.78118529870E+02	-3.96046937056E+01	1.48835255569E+02	-5.91530893612E+00	-9.29373650881E-02
3.18082120245E+05	-3.46311413884E+01	-3.59619269169E+01	4.95437426327E+00	-1.77583884892E+02	-4.13836816987E+01	4.61983362700E+01	-5.84715374668E+00	-3.54780777249E-01
3.18312035752E+05	-2.32036322417E+01	4.44264556713E+01	4.96770124157E+00	-1.78316955990E+02	-3.87951192990E+01	-5.48159225163E+01	-5.88018793690E+00	-5.57891446464E-01
3.18542117445E+05	-2.09543011449E+01	3.07937803279E+01	4.89861820112E+00	-1.78236244804E+02	-3.56442729195E+01	3.20172860483E+01	-5.85205939560E+00	5.50418721725E-02
3.18772365446E+05	-1.33915515501E+01	2.78956033145E+01	4.82455509026E+00	-1.78357839950E+02	-3.50871850300E+01	4.37336125708E+01	-5.87901234424E+00	-1.72328070114E-01
3.19002779874E+05	-1.50306915186E+01	1.22038482790E+02	5.03137602082E+00	-1.78773427137E+02	-4.12408988987E+01	-1.31970246009E+02	-5.87890052001E+00	-3.27768827550E-01
3.19233360850E+05	-1.83077828683E+01	-1.65545987724E+02	5.04505344448E+00	-1.77800880927E+02	-4.30955934767E+01	-1.13557191252E+02	-5.87929726916E+00	-3.68480286742E-01
3.19464108494E+05	-1.87496882631E+01	4.53057464399E+01	4.98559650094E+00	-1.78220340446E+02	-4.27572793856E+01	-1.69011148614E+02	-5.88738681670E+00	-2.38004665708E-01
3.19695022927E+05	-2.15946693718E+01	-2.07512233049E+01	4.88212815339E+00	-1.77966133492E+02	-3.55892893996E+01	1.56823436796E+02	-5.95662317374E+00	-7.93413229600E-02
3.19926104268E+05	-2.50596020746E+01	9.89562527029E+01	4.94588059891E+00	-1.78497629303E+02	-5.11054242473E+01	-1.54264875868E+02	-5.91868460325E+00	-2.42569524834E-01
3.20157352640E+05	-3.96445426900E+01	9.58638380530E+01	4.93044531806E+00	-1.78238416340E+02	-3.92598354652E+01	-3.59012345604E+01	-5.89318619963E+00	-1.86689903404E-01
3.20388768162E+05	-1.00875479868E+01	-1.76019945016E+02	5.11122740813E+00	-1.77845527271E+02	-3.69561634107E+01	-6.22196608922E+01	-5.86210293578E+00	-4.25035451971E-01
3.20620350955E+05	-7.54518241331E+00	4.49312906542E+01	4.79990653542E+00	-1.79384466318E+02	-4.36206253659E+01	-1.56836042891E+02	-5.87393925011E+00	-1.33767219740E-01
3.20852101140E+05	-1.43174660015E+01	1.54489266795E+02	5.10957078792E+00	-1.78351621897E+02	-3.65627083291E+01	-1.43602997566E+02	-5.89551790250E+00	-4.37844341178E-01
3.21084018839E+05	-2.15354823115E+01	7.77078225232E+01	5.04649391185E+00	-1.77864849674E+02	-5.05736334953E+01	-7.95810351707E+01	-5.91040459407E+00	-3.13236432409E-01
3.21316104172E+05	-1.95873603022E+01	8.65791009333E+01	4.99784161154E+00	-1.78133059257E+02	-3.36012296570E+01	9.80196667239E+01	-5.91714973091E+00	-1.06212604758E-01
3.21548357261E+05	-2.14696355716E+01	9.94391447862E+01	4.96927080720E+00	-1.78473052051E+02	-3.74065472148E+01	1.51131116415E+02	-5.93567862765E+00	-8.41573872418E-02
3.21780778226E+05	-1.61886347586E+01	-1.51606290379E+02	5.08790542360E+00	-1.78265775589E+02	-4.14282878325E+01	3.63592550025E+01	-5.92209243711E+00	-7.15765454557E-02
3.22013367189E+05	-1.97116261604E+01	-2.50005935555E+00	4.96084689959E+00	-1.77991579650E+02	-4.63392967250E+01	2.15485962644E+01	-5.83860102997E+00	-4.59251340530E-01
3.22246124272E+05	-1.59855674856E+01	5.68059727825E+01	4.85105316341E+00	-1.78932437013E+02	-5.35497213370E+01	5.80900321713E+00	-5.90407921581E+00	-3.22217310254E-01
3.22479049596E+05	-2.67451915888E+01	3.06422754344E+01	4.91131709701E+00	-1.78248322829E+02	-4.18312341626E+01	9.49771472903E+01	-5.86925472109E+00	8.69190234603E-02
3.22712143282E+05	-1.66921386276E+01	-1.33533242213E+02	5.03452705968E+00	-1.77686221969E+02	-3.40062861308E+01	-2.06885382704E+01	-5.89948468868E+00	-6.22051248884E-01
3.22945405453E+05	-1.65059201778E+01	-1.70719086621E+02	5.05053931478E+00	-1.77676325090E+02	-5.06931757093E+01	5.79507934716E+01	-5.91800735946E+00	-4.30623356469E-01
3.23178836230E+05	-1.86507863257E+01	5.14147390719E+01	4.89739998724E+00	-1.78263846842E+02	-4.57143243172E+01	-4.36950026224E+00	-5.90297249513E+00	-2.62109762785E-01
3.23412435735E+05	-2.07168787634E+01	1.63944259104E+02	5.08082433994E+00	-1.77955813187E+02	-3.58676404914E+01	-6.66101126096E+01	-5.87688856377E+00	-5.29304040456E-01
3.23646204090E+05	-2.27777242490E+01	-9.42004300240E+01	5.04683638480E+00	-1.77672533630E+02	-4.00276149468E+01	2.00556874722E+01	-5.85905628091E+00	-8.59911321929E-02
3.23880141417E+05	-1.33607966856E+01	1.35835879003E+02	5.06386128699E+00	-1.78389003186E+02	-3.92627699586E+01	-6.39081793830E+01	-5.91949259242E+00	-4.17047761369E-01
3.24114247838E+05	-2.00992946350E+01	7.33295729390E+01	4.91110084993E+00	-1.77807976844E+02	-3.91595376075E+01	-3.43312598244E+01	-5.89293403805E+00	-5.44506751835E-01
3.24348523475E+05	-2.22879985626E+01	-1.22695023849E+01	4.97673637313E+00	-1.77887865311E+02	-4.24617447440E+01	-1.33586862666E+02	-5.85933202520E+00	-6.47121701926E-01
3.24582968451E+05	-3.54009489003E+01	-1.59246458122E+02	4.90615443307E+00	-1.77800852803E+02	-3.68315107721E+01	1.28195521460E+02	-5.92231870180E+00	-2.69700247013E-01
3.24817582888E+05	-1.82953318110E+01	-1.00501833006E+02	5.06101160770E+00	-1.77262781702E+02	-4.06162108115E+01	5.62869500844E+00	-5.86358017159E+00	-1.05014769565E-01
3.25052366909E+05	-2.12708370889E+01	-1.14758695148E+01	4.83787895413E+00	-1.77567625396E+02	-3.40665072759E+01	1.74258588826E+01	-5.91104857280E+00	-2.17845245794E-01
3.25287320635E+05	-2.46979348860E+01	1.18727728687E+02	4.93838091219E+00	-1.78496882601E+02	-4.44166518852E+01	-6.48945028668E+01	-5.91728614909E+00	-3.26221947208E-01
3.25522444191E+05	-1.82776208293E+01	-1.06375593327E+02	5.01090103241E+00	-1.77030642932E+02	-5.47817891852E+01	-3.40859331829E+01	-5.92625633040E+00	-3.19531455285E-01
3.25757737698E+05	-1.74252439263E+01	-1.26337324121E+02	4.96378487037E+00	-1.77180144534E+02	-4.02334694855E+01	1.22667932362E+02	-5.91118305626E+00	4.68610294929E-03
3.25993201280E+05	-1.63393755643E+01	-1.72412166249E+02	5.03339684497E+00	-1.78133370292E+02	-4.42153018307E+01	1.79046494216E+02	-5.88417538788E+00	-1.89950373046E-03
3.26228835058E+05	-2.07385818700E+01	1.50692794104E+02	4.96629630368E+00	-1.78030898634E+02	-4.00159077827E+01	-1.16623097288E+02	-5.91164658734E+00	-3.42994600960E-01
