# Hz S DB R 50
! CMT, M5065, 19127446, 24.2.4/2
! Date: 12/3/2024 4:32:22 PM
! Data: Format (Calibration Info)
! Freq	S11:dB/Ang(F2)	S21:dB/Ang(F2)	S12:dB/Ang(F2)	S22:dB/Ang(F2)
3.00000000000E+05	-7.90000829733E+00	-1.74306767359E+02	4.03616961862E+00	-1.78458357217E+02	-4.18665906215E+01	1.49821514233E+02	-5.91151508683E+00	-3.31854821249E-01
3.49972219135E+05	-8.78767580279E+00	-1.72402710162E+02	4.16820358209E+00	-1.79158652872E+02	-5.86886630002E+01	-1.14468260107E+02	-5.94508489260E+00	-2.93751134202E-01
3.99944438271E+05	-6.46542341701E+00	-1.74833108933E+02	3.90752352062E+00	1.79980429366E+02	-4.20173144407E+01	-1.58448927209E+02	-5.91696717504E+00	-1.78901793934E-02
4.49916657406E+05	-8.70277616043E+00	-1.61428291974E+02	4.19090056054E+00	1.78982974724E+02	-4.26846434560E+01	3.76694586617E+00	-6.01393229781E+00	-3.34640841112E-01
4.99888876542E+05	-6.53734094343E+00	1.74458812731E+02	3.95377295196E+00	-1.79257265316E+02	-3.82633272927E+01	3.40689875803E+01	-6.03121557332E+00	-6.05058500277E-01
5.49861095677E+05	-6.39761256496E+00	-1.74851290974E+02	3.92636147729E+00	1.79024802977E+02	-4.74798940810E+01	-1.07053154195E+02	-5.93471851230E+00	-3.95021060398E-02
5.99833314813E+05	-7.54503282037E+00	-1.79176858649E+02	4.04290603903E+00	1.78993168506E+02	-5.73519126618E+01	1.49969663867E+02	-5.94104791189E+00	-2.11731112959E-01
6.49805533948E+05	-5.92947056013E+00	-1.78296673862E+02	3.90667997355E+00	1.78787621571E+02	-5.61323589141E+01	-2.95608937494E+01	-5.96705414692E+00	-3.29176959038E-01
6.99777753084E+05	-7.74430431964E+00	1.78714701054E+02	4.04409441292E+00	1.78962671337E+02	-4.93985781143E+01	8.72883027971E+01	-5.96329244150E+00	-3.45247998627E-01
7.49749972219E+05	-5.97068049074E+00	-1.77679239917E+02	3.90147524247E+00	1.78129460266E+02	-3.94437237666E+01	-1.40333631833E+02	-5.92084082996E+00	-5.43863264761E-02
7.99722191355E+05	-5.76989435764E+00	-1.76454605236E+02	3.83117758991E+00	1.77703707797E+02	-4.93561923525E+01	1.61149114798E+02	-5.92758615486E+00	-4.27834527523E-01
8.49694410490E+05	-6.79882800509E+00	1.78779839489E+02	3.93892868642E+00	1.77897828408E+02	-4.22418497994E+01	-1.75609448949E+02	-5.90795755454E+00	-3.09057254649E-01
8.99666629626E+05	-7.19335316274E+00	1.76615876011E+02	4.01640422841E+00	1.77745996262E+02	-4.24527714751E+01	8.48956568135E+01	-5.98276792689E+00	-6.03418399578E-01
9.49638848761E+05	-6.35200848545E+00	-1.73423207144E+02	3.91224586981E+00	1.76929286408E+02	-4.11417670775E+01	-3.34292572353E+01	-5.99565358038E+00	-6.74413067704E-02
9.99611067896E+05	-6.68924440642E+00	-1.74887597613E+02	4.00103598676E+00	1.76941045476E+02	-4.99856798508E+01	5.99358524506E+01	-5.95913542758E+00	-5.60590919694E-01
1.04958328703E+06	-7.07783041655E+00	1.71495783333E+02	4.01315075237E+00	1.77496655531E+02	-4.90210201634E+01	4.88612986583E+01	-5.95276837011E+00	-4.69792902894E-01
1.09955550617E+06	-6.45143513700E+00	-1.79343434212E+02	3.91635849314E+00	1.76275415657E+02	-3.89237154400E+01	-1.42172900847E+02	-5.87969995809E+00	-1.79196403182E-01
1.14952772530E+06	-6.64736471827E+00	-1.73759635836E+02	3.96982767516E+00	1.75665249720E+02	-4.32545971710E+01	-1.07089673833E+02	-5.93338064035E+00	-2.53445514194E-01
1.19949994444E+06	-6.68450283789E+00	-1.75661109972E+02	3.94905853407E+00	1.75647231892E+02	-3.94813871489E+01	-6.21105096199E+01	-5.98475646458E+00	-6.83314445638E-02
1.24947216357E+06	-6.90515923125E+00	1.77467674634E+02	3.98451547535E+00	1.76406244477E+02	-5.78985090735E+01	-6.95446372853E+01	-5.95314905772E+00	-3.66924262157E-01
1.29944438271E+06	-6.70695497722E+00	1.78801360521E+02	3.98118355797E+00	1.75899362201E+02	-5.67291595539E+01	1.15276594347E+02	-5.95338225043E+00	-4.86714044923E-01
1.34941660184E+06	-5.84096278602E+00	1.78358735116E+02	3.84188624622E+00	1.75823108441E+02	-4.59791888917E+01	-1.45694735703E+01	-6.00099148410E+00	-4.02787063285E-01
1.39938882098E+06	-7.44296067776E+00	-1.73732168904E+02	4.05313897097E+00	1.74435181753E+02	-3.95775628405E+01	-1.03041791132E+02	-5.90996948154E+00	2.00684772003E-02
1.44936104012E+06	-5.67857156729E+00	1.74552866653E+02	3.88550467883E+00	1.76097267471E+02	-4.57904022815E+01	5.89567230966E+01	-5.97346390403E+00	-7.06259773049E-01
1.49933325925E+06	-6.31396147823E+00	-1.75880478303E+02	3.90989921463E+00	1.74828122398E+02	-5.31208400532E+01	-4.34200171364E+01	-5.95478073139E+00	-3.71624862170E-01
1.54930547839E+06	-6.92495692085E+00	-1.77147134636E+02	3.93397813358E+00	1.74310051802E+02	-5.06374410266E+01	-9.20095806039E+01	-5.93099674576E+00	-5.49796654869E-01
1.59927769752E+06	-7.53446622165E+00	1.76993403312E+02	4.05353377046E+00	1.74588358399E+02	-4.72795406452E+01	-5.02115830567E+01	-5.98518497677E+00	-4.39660979547E-01
1.64924991666E+06	-6.78366306802E+00	-1.71511876293E+02	3.99130043459E+00	1.73509955871E+02	-6.27867086637E+01	1.69789944306E+02	-5.96631868894E+00	-6.65951416641E-01
1.69922213579E+06	-7.36664715575E+00	1.77272190236E+02	4.04812013111E+00	1.74259708609E+02	-4.16777299290E+01	1.11659234729E+02	-5.93764029863E+00	-1.04126387137E+00
1.74919435493E+06	-6.88128447608E+00	-1.77112460453E+02	4.00555034973E+00	1.73742400522E+02	-4.80050717664E+01	-1.31004769219E+02	-5.89540543689E+00	-6.15297953304E-01
1.79916657406E+06	-6.23002460098E+00	1.75186590519E+02	3.88335737383E+00	1.74376473600E+02	-5.10706804252E+01	1.67487199313E+02	-5.93904550315E+00	-6.92990635930E-01
1.84913879320E+06	-6.27235050346E+00	-1.75111033291E+02	3.92898683971E+00	1.73005017971E+02	-5.14943904576E+01	1.53956771098E+02	-5.94346538989E+00	-5.28363697993E-01
1.89911101233E+06	-7.18579661526E+00	1.78459457243E+02	4.05604483077E+00	1.73257165823E+02	-5.05838780530E+01	-8.84271381575E+01	-5.93587353953E+00	-6.38040017301E-01
1.94908323147E+06	-6.81568042429E+00	-1.73422959320E+02	3.94927663909E+00	1.72506450580E+02	-4.90254968814E+01	-1.12675730221E+02	-5.94193336590E+00	-6.06508881338E-01
1.99905545061E+06	-6.29804775817E+00	-1.79418527690E+02	3.93091803360E+00	1.72713370256E+02	-4.82344391749E+01	1.25447605584E+02	-5.94231700760E+00	-9.45004568312E-01
2.04902766974E+06	-6.21199794120E+00	-1.74132433589E+02	3.88142310075E+00	1.71816821061E+02	-4.54005243769E+01	1.77176258086E+01	-5.98177648853E+00	-7.95886651039E-01
2.09899988888E+06	-8.08896693966E+00	-1.79018254902E+02	4.15126153337E+00	1.72314434358E+02	-4.39240033602E+01	6.15776395837E+01	-5.97853816493E+00	-8.97723539207E-01
2.14897210801E+06	-5.69159390611E+00	-1.74380272413E+02	3.82891713327E+00	1.71593329784E+02	-4.66259191744E+01	-1.62033341733E+02	-5.90019002177E+00	-6.70697109048E-01
2.19894432715E+06	-6.26320585311E+00	-1.72041680353E+02	3.91440132516E+00	1.71088669937E+02	-4.16369481316E+01	1.65022769834E+02	-5.88894327608E+00	-7.19595188945E-01
2.24891654628E+06	-5.99103509736E+00	-1.74558962643E+02	3.83707293046E+00	1.71539682437E+02	-4.30251785395E+01	1.13052029098E+02	-5.91311044126E+00	-1.19010628483E+00
2.29888876542E+06	-6.42857078664E+00	-1.79301876573E+02	3.97242462387E+00	1.71438898536E+02	-4.68720635410E+01	-7.18507413601E+01	-5.96504151746E+00	-5.29331748027E-01
2.34886098455E+06	-7.28035643626E+00	1.77870649306E+02	4.08536550838E+00	1.71596556042E+02	-4.22082827311E+01	1.32288584467E+02	-5.92013679203E+00	-1.26153209431E+00
2.39883320369E+06	-5.88012280294E+00	-1.79931860635E+02	3.92848164708E+00	1.71556206062E+02	-5.55531048966E+01	1.27139248415E+01	-5.96413685885E+00	-9.86432716942E-01
2.44880542282E+06	-7.35512645875E+00	-1.78820610427E+02	4.08301873009E+00	1.71016129695E+02	-4.45797257373E+01	-7.90939882649E+01	-5.96310436586E+00	-6.45372277793E-01
2.49877764196E+06	-7.76782398081E+00	-1.72398043786E+02	4.08192886880E+00	1.70143918887E+02	-4.65367894504E+01	-8.90311298804E+01	-5.94048155647E+00	-7.47371199736E-01
2.54874986110E+06	-7.57097664599E+00	1.74422063798E+02	4.09401611579E+00	1.71211003206E+02	-3.63779473788E+01	-1.79154127107E+02	-5.87539883731E+00	-1.06451929896E+00
2.59872208023E+06	-7.33823359561E+00	-1.76532807984E+02	4.10699531378E+00	1.69874824477E+02	-4.96221759532E+01	5.32556616352E+00	-5.97030571586E+00	-9.59459690854E-01
2.64869429937E+06	-7.30537498376E+00	-1.76860985679E+02	4.02511959418E+00	1.69921621961E+02	-6.34643857415E+01	-1.30199590274E+02	-5.93429192453E+00	-1.12441320966E+00
2.69866651850E+06	-5.89460515837E+00	-1.75703280263E+02	3.89078426900E+00	1.69826160639E+02	-4.65871048965E+01	-3.76491490714E+01	-5.95296227616E+00	-9.78775952058E-01
2.74863873764E+06	-6.59817451211E+00	-1.74909882337E+02	3.95665350973E+00	1.69084561565E+02	-5.43968793047E+01	1.44619997073E+02	-5.93860833699E+00	-1.06254764549E+00
2.79861095677E+06	-5.75661821614E+00	1.78024155198E+02	3.88986095594E+00	1.70206863487E+02	-5.02040589455E+01	-1.30579862151E+02	-5.92327222842E+00	-1.10388576714E+00
2.84858317591E+06	-5.42381254704E+00	1.72913057880E+02	3.87649718872E+00	1.70638574701E+02	-4.32072542176E+01	2.04087519226E+01	-5.96144828025E+00	-1.27116460518E+00
2.89855539504E+06	-6.14829851082E+00	-1.79696830621E+02	3.93390909948E+00	1.69583394281E+02	-5.11208000001E+01	7.83582636720E+00	-5.94026206165E+00	-1.08380558958E+00
2.94852761418E+06	-7.03288753802E+00	-1.77560373455E+02	4.02669901153E+00	1.68810256960E+02	-4.27609505556E+01	8.99987037686E+01	-5.95361733574E+00	-1.37848632880E+00
2.99849983331E+06	-7.51713833963E+00	-1.76912171118E+02	4.06950357996E+00	1.68841083628E+02	-4.60628566919E+01	1.37528544255E+02	-5.91589468774E+00	-1.41570804185E+00
3.04847205245E+06	-7.00217394814E+00	-1.79707209367E+02	4.04730607270E+00	1.68741322437E+02	-4.63806519321E+01	9.69263744545E+01	-5.94315000946E+00	-1.33764536471E+00
3.09844427159E+06	-5.69544013331E+00	1.78459739523E+02	3.91312995285E+00	1.69154692860E+02	-5.19581327949E+01	6.80103050464E+01	-5.95073825648E+00	-1.32825515011E+00
3.14841649072E+06	-5.52063668870E+00	-1.77689965546E+02	3.84222398543E+00	1.68333296903E+02	-4.30971218672E+01	-1.28142688180E+02	-5.90408097754E+00	-1.24543014903E+00
3.19838870986E+06	-6.25927354305E+00	-1.73840599133E+02	3.97116781844E+00	1.67625519563E+02	-4.41717372750E+01	1.17968011574E+02	-5.95130551997E+00	-1.49715813613E+00
3.24836092899E+06	-7.60691647206E+00	-1.76432603368E+02	4.14403405436E+00	1.67580718355E+02	-3.91246520512E+01	7.24191646646E+01	-5.96474535432E+00	-1.64498996096E+00
3.29833314813E+06	-6.49997510310E+00	1.79430461542E+02	3.96266765084E+00	1.67754652418E+02	-5.28115834102E+01	-8.37765111328E+00	-5.95716842916E+00	-1.18190752564E+00
3.34830536726E+06	-6.25427454093E+00	-1.75312789391E+02	3.96474021295E+00	1.67275008742E+02	-4.69001177199E+01	-3.46809386193E+01	-5.95562768115E+00	-1.14641484978E+00
3.39827758640E+06	-5.92298242894E+00	-1.71817332006E+02	3.89232928596E+00	1.66447370033E+02	-4.93959567816E+01	-7.36990935609E+01	-5.93206071025E+00	-1.19382506113E+00
3.44824980553E+06	-5.94134367573E+00	-1.71415131534E+02	3.96364048836E+00	1.66005722357E+02	-6.50670274652E+01	7.92846626225E+00	-5.93224081400E+00	-1.44032540943E+00
3.49822202467E+06	-6.46085859707E+00	-1.79124260305E+02	3.97840150894E+00	1.66777332672E+02	-4.68839898765E+01	6.59954075373E+01	-5.96685456178E+00	-1.45240668194E+00
3.54819424380E+06	-6.85614893559E+00	1.79544134158E+02	4.08881592886E+00	1.67101474657E+02	-4.77595138766E+01	-1.31060475671E+02	-5.90192965218E+00	-1.37688323139E+00
3.59816646294E+06	-6.17015113039E+00	-1.73437194159E+02	3.97872651037E+00	1.65872045890E+02	-3.97307063427E+01	1.24941730672E+02	-5.92063796533E+00	-1.80474448906E+00
3.64813868208E+06	-7.21290243117E+00	-1.72919628007E+02	4.09001404432E+00	1.65974257358E+02	-5.06290330670E+01	-9.45421770828E+01	-5.93055910632E+00	-1.43663301186E+00
3.69811090121E+06	-6.32664759860E+00	1.76794657222E+02	4.00522455489E+00	1.66441519670E+02	-5.35297129884E+01	-1.62737628620E+02	-5.91462880510E+00	-1.53801579885E+00
3.74808312035E+06	-7.45458206100E+00	-1.72106509576E+02	4.13237856915E+00	1.65212802821E+02	-4.46582711837E+01	-3.01333815476E+01	-5.93401833400E+00	-1.24894495058E+00
3.79805533948E+06	-6.51764381757E+00	-1.75303816142E+02	4.03037060282E+00	1.65500402045E+02	-4.29989619951E+01	1.97624431761E-01	-5.98429431771E+00	-1.44439963502E+00
3.84802755862E+06	-6.86028951652E+00	-1.75271608581E+02	4.03508070413E+00	1.65044993987E+02	-5.41481055946E+01	1.59481884930E+02	-5.91159307013E+00	-1.48452436332E+00
3.89799977775E+06	-7.50186907395E+00	1.76661942157E+02	4.17802304111E+00	1.65577802097E+02	-5.08895098055E+01	-1.40593439255E+02	-5.93292062397E+00	-1.49964785962E+00
3.94797199689E+06	-6.56051206849E+00	-1.75542884173E+02	4.00185455233E+00	1.64928814041E+02	-4.80365158887E+01	-1.74825329954E+01	-5.95656976886E+00	-1.46804113870E+00
3.99794421602E+06	-6.54420210939E+00	-1.76298150661E+02	4.06001384744E+00	1.64806488178E+02	-3.75703718513E+01	-1.56559774387E+02	-5.85507188945E+00	-1.53540998617E+00
4.04791643516E+06	-6.99243009137E+00	1.77918792369E+02	4.08974125830E+00	1.64893187318E+02	-4.67533370018E+01	1.69831212402E+02	-5.89307684563E+00	-1.58541643712E+00
4.09788865429E+06	-6.63960211965E+00	1.78036700741E+02	4.07250326534E+00	1.64910650025E+02	-4.70608624248E+01	1.61304505930E+02	-5.91382759986E+00	-1.84277808663E+00
4.14786087343E+06	-5.88684504331E+00	1.79277227094E+02	3.95542453304E+00	1.64920667300E+02	-4.81338633554E+01	1.21863118519E+02	-5.92671727334E+00	-1.79258081907E+00
4.19783309257E+06	-6.95294396022E+00	1.77785459648E+02	4.11011839471E+00	1.64448968234E+02	-5.31607450800E+01	1.96489021412E+01	-5.93233743487E+00	-1.67282352711E+00
4.24780531170E+06	-7.23305954061E+00	-1.75414763674E+02	4.11865045016E+00	1.63730172802E+02	-4.90470901354E+01	-1.94270583036E+01	-5.95009606611E+00	-1.45773888968E+00
4.29777753084E+06	-7.27350195829E+00	-1.70775978100E+02	4.08164985898E+00	1.62828862659E+02	-4.43370323507E+01	-6.52444370997E+01	-5.93865261501E+00	-1.41394093369E+00
4.34774974997E+06	-6.10924123454E+00	-1.78909057449E+02	4.00344246808E+00	1.63496499948E+02	-5.31332549144E+01	-9.48521387412E+01	-5.90726281405E+00	-1.54143808456E+00
4.39772196911E+06	-6.03789135368E+00	1.78211902256E+02	3.99846003786E+00	1.63805609617E+02	-4.77005894713E+01	-6.29406798197E+01	-5.93703981182E+00	-1.43497685399E+00
4.44769418824E+06	-6.24930026598E+00	-1.78210651499E+02	4.01583534206E+00	1.63267741717E+02	-4.40524749846E+01	-6.88110649779E+01	-5.93278008378E+00	-1.47351140631E+00
4.49766640738E+06	-6.13744530350E+00	-1.79075730422E+02	4.01376278876E+00	1.63059259212E+02	-5.75171843924E+01	6.38671335067E+00	-5.93820390790E+00	-1.69233980019E+00
4.54763862651E+06	-6.27875527016E+00	-1.70122562507E+02	4.01937456995E+00	1.61839791175E+02	-4.25345214190E+01	1.66741479115E+02	-5.90294935594E+00	-1.99878326373E+00
4.59761084565E+06	-6.96676857953E+00	-1.75245226513E+02	4.07470660593E+00	1.61899207996E+02	-5.06426341607E+01	1.61540995312E+02	-5.91685329787E+00	-1.98182012446E+00
4.64758306478E+06	-7.14797540277E+00	-1.73073326884E+02	4.15749940354E+00	1.61646374196E+02	-4.03884866013E+01	-7.18521947040E+01	-5.88671084011E+00	-1.33954133406E+00
4.69755528392E+06	-5.95090269430E+00	1.73989465426E+02	4.06851189479E+00	1.63030893642E+02	-3.63110857413E+01	-1.07577748185E+02	-5.82032935788E+00	-1.35590621826E+00
4.74752750306E+06	-7.74427409321E+00	-1.78334158321E+02	4.23811996096E+00	1.61624118658E+02	-4.79036574828E+01	1.67532540018E+02	-5.89720515094E+00	-1.83396136971E+00
4.79749972219E+06	-6.26191275182E+00	-1.73407813764E+02	4.05018285767E+00	1.61307742983E+02	-5.38073291443E+01	-1.08391434666E+01	-5.93964997320E+00	-1.86877004710E+00
4.84747194133E+06	-6.82029527372E+00	1.77539095160E+02	4.18261337470E+00	1.61888110054E+02	-4.84257682839E+01	-1.68027647469E+02	-5.88535594378E+00	-1.91353222552E+00
4.89744416046E+06	-6.57357521719E+00	1.75925973442E+02	4.10645514404E+00	1.61982673159E+02	-5.64820181936E+01	2.06513817420E+01	-5.93742373091E+00	-1.80842974313E+00
4.94741637960E+06	-5.93957343050E+00	-1.75768139196E+02	4.04604570564E+00	1.61034291041E+02	-5.05496107626E+01	-8.63275752999E+01	-5.93469977915E+00	-1.76334465770E+00
4.99738859873E+06	-7.31799079171E+00	-1.73660764262E+02	4.15742768541E+00	1.60618615223E+02	-4.31067533156E+01	-6.44297901297E+01	-5.91578683790E+00	-1.66301719999E+00
5.04736081787E+06	-5.96710388102E+00	-1.75126191504E+02	3.98523400359E+00	1.60440506194E+02	-4.03803759533E+01	3.95214438798E+01	-6.01280924494E+00	-1.92220459489E+00
5.09733303700E+06	-6.11637231662E+00	-1.73529027233E+02	3.99608370351E+00	1.60059140205E+02	-4.64826379388E+01	-8.96995015710E+01	-5.90050286561E+00	-1.88030530924E+00
5.14730525614E+06	-6.16258736996E+00	-1.76788691865E+02	4.04146682768E+00	1.60407231978E+02	-4.64814760899E+01	3.43193260176E+01	-5.96235529875E+00	-2.02291744271E+00
5.19727747528E+06	-6.37837646839E+00	-1.74073003195E+02	4.08419488302E+00	1.59835441757E+02	-3.90081403618E+01	1.26058048585E+02	-5.91738296325E+00	-2.36163136973E+00
5.24724969441E+06	-6.42087976527E+00	-1.75713490141E+02	4.09958878254E+00	1.59522804600E+02	-5.36931653155E+01	-2.08298902217E+01	-5.93085226579E+00	-1.82476814926E+00
5.29722191355E+06	-6.81948865957E+00	-1.76083306328E+02	4.13930258645E+00	1.59227094007E+02	-4.77253991764E+01	-1.99669694144E+01	-5.94087690653E+00	-1.84768770934E+00
5.34719413268E+06	-7.53318467743E+00	1.78974060639E+02	4.20753139875E+00	1.59673461783E+02	-4.29883805460E+01	1.51483925855E+02	-5.91715635666E+00	-2.32960906414E+00
5.39716635182E+06	-7.44750830118E+00	-1.72514718242E+02	4.16881290190E+00	1.58826627858E+02	-5.75210760766E+01	-8.27747339238E+01	-5.91225330163E+00	-2.23756905771E+00
5.44713857095E+06	-5.89713843489E+00	-1.72456981910E+02	4.02968494168E+00	1.58658710425E+02	-4.56427321944E+01	-4.29463871496E+01	-5.93035302001E+00	-1.97300705041E+00
5.49711079009E+06	-6.57662618843E+00	-1.75576768798E+02	4.14228138929E+00	1.58670186440E+02	-6.61222900920E+01	-1.31488409835E+02	-5.91896344791E+00	-2.15557651663E+00
5.54708300922E+06	-5.69681294314E+00	-1.72644496913E+02	3.98382159774E+00	1.57995502801E+02	-4.44362336063E+01	-9.65543995550E+01	-5.89936102986E+00	-1.94813217630E+00
5.59705522836E+06	-6.38682554149E+00	1.78325656627E+02	4.15027705203E+00	1.58849218011E+02	-4.84837240555E+01	-9.45344575943E+00	-5.94611856504E+00	-2.17370464523E+00
5.64702744749E+06	-6.33521206760E+00	-1.76384106247E+02	4.12377207927E+00	1.58226985994E+02	-4.86974545704E+01	3.80439977921E+01	-5.93895368292E+00	-2.18227871743E+00
5.69699966663E+06	-6.81365832256E+00	-1.75060017597E+02	4.15621923510E+00	1.57698237347E+02	-4.64409802601E+01	-5.46292439618E+00	-5.95676865024E+00	-2.06547075795E+00
5.74697188577E+06	-6.11386041766E+00	-1.75484780240E+02	4.02660183266E+00	1.57038703330E+02	-5.99881710875E+01	-4.83992286843E+01	-5.95177727113E+00	-2.27342924870E+00
5.79694410490E+06	-6.24948498766E+00	-1.70137374923E+02	4.05124349581E+00	1.56799147383E+02	-5.20073925315E+01	-5.63233692289E+00	-5.93514970917E+00	-2.24858285093E+00
5.84691632404E+06	-6.70409814782E+00	-1.75469493089E+02	4.17954235690E+00	1.57396823078E+02	-4.54314788706E+01	-1.05620556380E+02	-5.90225998476E+00	-2.30546468237E+00
5.89688854317E+06	-6.36064027863E+00	-1.79456081567E+02	4.14442631098E+00	1.57377801492E+02	-4.99690447100E+01	2.10134661772E+01	-5.94489030337E+00	-2.36571665847E+00
5.94686076231E+06	-6.89325521502E+00	-1.77473782867E+02	4.20134238370E+00	1.57131169982E+02	-5.04356969231E+01	9.97140113793E+01	-5.95959587003E+00	-2.38506751945E+00
5.99683298144E+06	-6.17306682415E+00	-1.74999050046E+02	4.11666477840E+00	1.56744949118E+02	-5.24178693491E+01	-5.86004681812E+01	-5.91081292085E+00	-2.23317615210E+00
6.04680520058E+06	-7.06348329138E+00	-1.76356226154E+02	4.19732703638E+00	1.56528136648E+02	-5.34928853984E+01	-1.72102366591E+02	-5.91528403374E+00	-2.51620297915E+00
6.09677741971E+06	-6.86195426663E+00	-1.76219620787E+02	4.14607814286E+00	1.56209398488E+02	-4.92515826636E+01	5.91335141356E+01	-5.94817419906E+00	-2.33583681867E+00
