# Hz S DB R 50
! CMT, M5065, 19127446, 24.2.4/2
! Date: 12/3/2024 4:33:17 PM
! Data: Format (Calibration Info)
! Freq	S11:dB/Ang(F2)	S21:dB/Ang(F2)	S12:dB/Ang(F2)	S22:dB/Ang(F2)
3.00000000000E+05	-7.41440076550E+00	-1.77919079108E+02	3.72691578556E+01	1.72863906637E+02	-4.53228083744E+01	5.67980098482E+01	-6.95307899276E+00	-1.07065840214E+01
3.49972219135E+05	-6.17665189583E+00	-1.72579084285E+02	3.71033993757E+01	1.65611383893E+02	-4.03803764252E+01	9.53243249741E+01	-5.95733989501E+00	-2.05827184750E+01
3.99944438271E+05	-5.89941726640E+00	-1.76496362332E+02	3.69600551778E+01	1.60091679655E+02	-4.98485262833E+01	-1.33012141757E+02	-5.19276700651E+00	1.78051940098E+00
4.49916657406E+05	-6.41576121340E+00	-1.77740957196E+02	3.69394529833E+01	1.55707338311E+02	-4.55016685064E+01	-6.56316884444E+01	-5.79134012073E+00	8.71513429583E+00
4.99888876542E+05	-5.58365174121E+00	-1.74287985948E+02	3.67685046384E+01	1.51057290178E+02	-4.40916214213E+01	7.18746165828E+01	-7.41803787517E+00	-1.15275742357E+01
5.49861095677E+05	-7.27341766118E+00	1.75577549176E+02	3.68873218614E+01	1.48423183370E+02	-4.40185031494E+01	4.04709960031E+01	-8.17193103242E+00	-3.21120302200E+00
5.99833314813E+05	-6.07179362807E+00	-1.78369688719E+02	3.65797818895E+01	1.44405942945E+02	-4.39480965964E+01	-2.16635342245E+01	-6.83395953751E+00	1.03830750147E+01
6.49805533948E+05	-6.11111076338E+00	-1.79363618218E+02	3.64856863652E+01	1.41328610354E+02	-4.18646681811E+01	-1.39117656283E+00	-7.64151160668E+00	1.15011806848E+01
6.99777753084E+05	-6.45318659730E+00	-1.72689747831E+02	3.63744713752E+01	1.37807578694E+02	-5.60201903428E+01	1.48236773948E+02	-5.76951704082E+00	-3.49426699433E+00
7.49749972219E+05	-7.03528735252E+00	-1.73218658943E+02	3.62603326621E+01	1.35219420655E+02	-4.79605370907E+01	-1.17980029544E+02	-4.96652363543E+00	1.23533590725E+00
7.99722191355E+05	-5.40081299149E+00	-1.77996038175E+02	3.59062534926E+01	1.33283193019E+02	-4.82053892260E+01	2.57230545674E+01	-6.94928979777E+00	2.32169407471E+00
8.49694410490E+05	-7.86090184807E+00	1.79258130487E+02	3.59891007079E+01	1.31238165588E+02	-4.49292867399E+01	1.36942412345E+02	-5.96311292237E+00	-1.05007052800E+01
8.99666629626E+05	-6.67110394051E+00	1.78120897509E+02	3.56542761319E+01	1.29173232226E+02	-4.42125029261E+01	-4.26902185507E+01	-5.66380382073E+00	9.54859168882E+00
9.49638848761E+05	-6.44820835298E+00	-1.74919770792E+02	3.54311340257E+01	1.26509735777E+02	-5.04851957341E+01	9.00113922502E+01	-6.60043905241E+00	-3.33596149016E+00
9.99611067896E+05	-6.59332694861E+00	-1.74512261782E+02	3.52156169748E+01	1.24674511377E+02	-4.43676750499E+01	-7.17851864397E+01	-4.96364668188E+00	6.02193077292E+00
1.04958328703E+06	-6.11468623879E+00	1.77609596943E+02	3.49302451792E+01	1.23662255234E+02	-6.23573654431E+01	6.40967109518E+01	-6.21160302327E+00	-6.18176445422E-01
1.09955550617E+06	-6.41136512644E+00	-1.72374972057E+02	3.47376578175E+01	1.20869639516E+02	-5.43471835271E+01	-1.54038279319E+02	-5.59216486665E+00	-2.64432220903E+00
1.14952772530E+06	-6.47964838988E+00	1.76451455651E+02	3.45180266791E+01	1.20603391067E+02	-4.15734218964E+01	-2.24892227055E+01	-5.86213443179E+00	1.16520652615E+01
1.19949994444E+06	-5.40507883601E+00	1.73627419432E+02	3.41359004100E+01	1.19528256221E+02	-4.31257566433E+01	-3.56784652086E+00	-6.39093793058E+00	9.58960071039E+00
1.24947216357E+06	-6.20985000878E+00	1.79300768266E+02	3.39646996467E+01	1.17507976910E+02	-4.48064564258E+01	-6.13161519801E+01	-5.18495371285E+00	5.32055383992E+00
1.29944438271E+06	-6.75588105467E+00	1.77968123093E+02	3.38067420615E+01	1.16139911981E+02	-4.44639276844E+01	-7.69180283708E+01	-4.96981276998E+00	3.81925330159E+00
1.34941660184E+06	-7.01033255451E+00	-1.76112109772E+02	3.35762027440E+01	1.14095890357E+02	-4.62752458074E+01	-8.60984487880E+01	-5.03544592739E+00	1.77624041796E+00
1.39938882098E+06	-6.41589515511E+00	-1.78698695939E+02	3.32668344076E+01	1.13215703827E+02	-5.24421047671E+01	-1.39148904609E+02	-5.58268195197E+00	-2.29446901131E+00
1.44936104012E+06	-6.92003754092E+00	-1.77893318885E+02	3.30980438609E+01	1.12014851569E+02	-5.83216662975E+01	1.75681367728E+02	-5.92284378726E+00	-2.28173972580E+00
1.49933325925E+06	-6.57917920159E+00	-1.74843551720E+02	3.27966487279E+01	1.10532138025E+02	-4.01370385128E+01	4.88389130652E+01	-7.71643663463E+00	6.77675289987E+00
1.54930547839E+06	-6.28416074262E+00	1.77744659484E+02	3.25763263396E+01	1.10469797222E+02	-4.55706850784E+01	-4.77280462799E+01	-5.38230294168E+00	4.30394756178E+00
1.59927769752E+06	-6.24471058135E+00	1.74101242819E+02	3.23309695018E+01	1.09871935255E+02	-5.13314101687E+01	-6.38147494250E+01	-5.62311419466E+00	1.39946988397E+00
1.64924991666E+06	-7.12646211365E+00	-1.72045701835E+02	3.21879532018E+01	1.07154250718E+02	-5.65848195901E+01	6.99810616325E+01	-6.21013710077E+00	-7.34791749497E-01
1.69922213579E+06	-5.97984755822E+00	-1.78321077540E+02	3.18194419558E+01	1.06879942822E+02	-5.40658857279E+01	1.75783642023E+02	-5.85650015712E+00	-2.84019108414E+00
1.74919435493E+06	-6.25389155896E+00	-1.67792625329E+02	3.16484331727E+01	1.04494418008E+02	-4.24199295852E+01	5.51668140193E+01	-7.14233351116E+00	2.76160666600E+00
1.79916657406E+06	-7.23748172783E+00	-1.79083210596E+02	3.15398645905E+01	1.05173104736E+02	-5.34633072363E+01	-1.57218848588E+02	-5.77673655480E+00	-2.85645867751E+00
1.84913879320E+06	-6.96389599674E+00	-1.74900002839E+02	3.12844737656E+01	1.03783615050E+02	-3.25396443333E+01	-1.40509841468E+02	-3.39796851452E+00	-1.49580057624E+01
1.89911101233E+06	-6.14649997252E+00	1.79709629898E+02	3.10165755446E+01	1.03677408660E+02	-4.21228639566E+01	4.28410810907E+00	-6.10387548513E+00	7.18401317615E+00
1.94908323147E+06	-6.27682012453E+00	-1.78000674157E+02	3.08067734617E+01	1.02593796795E+02	-4.10641520916E+01	8.19382593340E+01	-7.44012404116E+00	-3.13607304848E-01
1.99905545061E+06	-6.38363226999E+00	1.79205328943E+02	3.06372424768E+01	1.02087960641E+02	-4.90548762141E+01	-1.60492844730E+02	-5.72092565168E+00	-3.81973507084E+00
2.04902766974E+06	-6.79586632250E+00	-1.75042083586E+02	3.04653710004E+01	1.00576009397E+02	-4.96271679664E+01	1.67716492602E+02	-5.98232509904E+00	-4.06548540179E+00
2.09899988888E+06	-8.78594571779E+00	1.71779225383E+02	3.05269261920E+01	1.01041710597E+02	-4.21112849465E+01	-9.20272044084E+01	-4.92667965640E+00	-8.24956808927E-01
2.14897210801E+06	-8.49057842510E+00	-1.74524859145E+02	3.02615507658E+01	9.90645067088E+01	-4.41497668603E+01	-1.42796213423E+02	-5.30254093552E+00	-5.19934572293E+00
2.19894432715E+06	-6.25128389185E+00	1.76845981240E+02	2.98575586703E+01	9.97315775225E+01	-4.23832372827E+01	-1.68728121110E+02	-5.65023903377E+00	-7.77965416447E+00
2.24891654628E+06	-5.99758926169E+00	-1.75088715977E+02	2.96236924245E+01	9.79177371077E+01	-4.31862172121E+01	1.28806513820E+02	-6.67078368403E+00	-5.20431028994E+00
2.29888876542E+06	-6.42260317957E+00	-1.77986617055E+02	2.95126041860E+01	9.75994101816E+01	-5.11775331977E+01	7.80180979798E+01	-6.29148324785E+00	-5.45584328845E-01
2.34886098455E+06	-6.08268175666E+00	-1.79657454828E+02	2.92989003121E+01	9.72880625966E+01	-5.01630319991E+01	1.73898701068E+02	-5.97662122684E+00	-3.56030059856E+00
2.39883320369E+06	-8.67818591428E+00	-1.78139053900E+02	2.93876656133E+01	9.64066736416E+01	-4.59412468956E+01	-5.49205003772E+01	-5.41372553749E+00	1.21881289720E+00
2.44880542282E+06	-7.50224966590E+00	1.72030139325E+02	2.91665121166E+01	9.67520972111E+01	-4.38582441303E+01	-8.36705533441E+01	-5.19251699431E+00	-5.72933347455E-01
2.49877764196E+06	-7.57999190266E+00	-1.72988494613E+02	2.89560188634E+01	9.44722869719E+01	-3.90448655614E+01	6.68334137250E+01	-7.24892407470E+00	3.51698890133E+00
2.54874986110E+06	-6.17595152930E+00	-1.75470731420E+02	2.86151914993E+01	9.43060431605E+01	-4.54532272904E+01	-1.67514722558E+02	-5.70704701438E+00	-5.02833292270E+00
2.59872208023E+06	-6.73311744778E+00	-1.74471955396E+02	2.85161809589E+01	9.35929000715E+01	-5.90103686313E+01	-1.44572949799E+01	-5.89723732654E+00	-2.67432417874E-01
2.64869429937E+06	-6.25016593422E+00	-1.79073155182E+02	2.83193887256E+01	9.35794984598E+01	-5.02288773262E+01	-4.47170275314E+01	-5.69414831548E+00	3.71794924033E-01
2.69866651850E+06	-6.79193452878E+00	-1.75564472450E+02	2.82072499668E+01	9.26085140213E+01	-4.14300331872E+01	7.37910440100E+01	-6.86649508513E+00	1.54464566554E+00
2.74863873764E+06	-6.17474205162E+00	-1.73763175931E+02	2.79883524109E+01	9.18336814468E+01	-5.28986739137E+01	6.50242563352E+01	-6.15934944637E+00	-2.85373893602E-02
2.79861095677E+06	-5.41407495607E+00	-1.75202654599E+02	2.77426483680E+01	9.16406496134E+01	-4.76567889525E+01	-4.77925751830E+01	-5.56967017863E+00	6.54705439979E-01
2.84858317591E+06	-6.91458296462E+00	1.75395410867E+02	2.78226506433E+01	9.19670133988E+01	-4.42570818115E+01	1.05407511698E+02	-6.61871908206E+00	-1.65905243582E+00
2.89855539504E+06	-6.24865566518E+00	-1.72409462845E+02	2.75468762037E+01	9.01598739040E+01	-4.22975778103E+01	1.39760745508E+02	-6.64526848050E+00	-3.66459150835E+00
2.94852761418E+06	-8.06856886934E+00	-1.78918184202E+02	2.76059087905E+01	9.01926525259E+01	-5.23710790874E+01	-3.44699153356E+01	-5.77774629408E+00	1.61705478105E-02
2.99849983331E+06	-6.61460796578E+00	-1.75987343285E+02	2.72919681358E+01	8.95206282741E+01	-5.05459235287E+01	-2.66914566676E+01	-5.76206398104E+00	1.99663620868E-01
3.04847205245E+06	-6.27645891327E+00	-1.75041354511E+02	2.71482711800E+01	8.89496288868E+01	-4.83165654471E+01	1.10736814168E+01	-5.92928807803E+00	1.23100949006E+00
3.09844427159E+06	-6.23894556312E+00	-1.69111850885E+02	2.69969473354E+01	8.77095490576E+01	-6.43620125470E+01	1.55815060125E+02	-5.99927518221E+00	-1.60921692523E+00
3.14841649072E+06	-6.95140936024E+00	-1.64840850476E+02	2.69271616084E+01	8.69071505241E+01	-4.51848246371E+01	-1.16796448048E+02	-5.52060521228E+00	-3.16965032484E+00
3.19838870986E+06	-6.35604992621E+00	1.79327656246E+02	2.67514125178E+01	8.82282060929E+01	-5.14366801585E+01	-7.59194250002E+00	-5.86803096625E+00	1.24205153428E-01
3.24836092899E+06	-6.99462598180E+00	1.77985729118E+02	2.66812622353E+01	8.77844940211E+01	-5.53679304907E+01	1.29755452392E+02	-6.00440934160E+00	-2.24545928522E+00
3.29833314813E+06	-6.41652403450E+00	-1.76843099964E+02	2.64579591328E+01	8.67870125372E+01	-4.94811937427E+01	3.62859693962E+01	-6.05461235977E+00	4.54543853112E-01
3.34830536726E+06	-7.73706491835E+00	1.74558748841E+02	2.65030830104E+01	8.70282146562E+01	-4.60764963771E+01	-1.09000356498E+00	-5.81608584370E+00	1.37969466330E+00
3.39827758640E+06	-6.46729717269E+00	1.71788097205E+02	2.62755469471E+01	8.71898008636E+01	-4.38001187797E+01	1.23721858183E+02	-6.48607419181E+00	-2.70907120058E+00
3.44824980553E+06	-7.08449961929E+00	1.76895801770E+02	2.61813641419E+01	8.60641339543E+01	-4.48022913099E+01	1.44300060186E+02	-6.31937472008E+00	-3.43476925494E+00
3.49822202467E+06	-6.79430087490E+00	1.78942451578E+02	2.60231572419E+01	8.55245312435E+01	-4.21473285511E+01	-8.92333248373E+00	-5.63064428515E+00	2.47308722600E+00
3.54819424380E+06	-4.89545089844E+00	-1.78335742303E+02	2.56375696882E+01	8.50871549331E+01	-5.99759078648E+01	-1.66204439509E+02	-5.90335963215E+00	-2.06752570460E+00
3.59816646294E+06	-6.98384766221E+00	-1.74894213761E+02	2.57628733607E+01	8.38804385816E+01	-4.64687189287E+01	1.85921831940E+01	-5.90694221715E+00	1.06006553125E+00
3.64813868208E+06	-5.83451004846E+00	-1.79578953259E+02	2.55107576223E+01	8.42919850296E+01	-5.28041662186E+01	-1.50056147480E+02	-5.89818970853E+00	-2.59349596530E+00
3.69811090121E+06	-6.70442823684E+00	1.77943805026E+02	2.55238482471E+01	8.39744764351E+01	-4.06977439851E+01	-9.26791329933E+01	-5.29761179601E+00	-2.80763480554E+00
3.74808312035E+06	-6.64016620122E+00	1.76728719631E+02	2.54165084419E+01	8.36943449289E+01	-5.37977060977E+01	-2.16000984182E+01	-5.84761582574E+00	-6.66088861089E-01
3.79805533948E+06	-6.61469656377E+00	-1.77424401291E+02	2.52427284070E+01	8.25155900283E+01	-6.12845219472E+01	-7.58938749656E+01	-5.86053672609E+00	-1.47994884844E+00
3.84802755862E+06	-6.54046769181E+00	1.73633037196E+02	2.51482526018E+01	8.32928028894E+01	-5.88993469771E+01	8.49067047569E+00	-5.89529986062E+00	-1.02386010207E+00
3.89799977775E+06	-7.22442106191E+00	1.77197605657E+02	2.51141339268E+01	8.19104507148E+01	-5.42869261144E+01	-7.44587329786E+01	-5.79772285538E+00	-1.51553499615E+00
3.94797199689E+06	-5.96632650071E+00	-1.78943431097E+02	2.48380796792E+01	8.17324709204E+01	-4.02659143420E+01	-2.87496644264E+01	-5.43352351242E+00	3.90200687032E-01
3.99794421602E+06	-6.51837796644E+00	-1.74935154294E+02	2.47638327718E+01	8.07510942994E+01	-4.33832243616E+01	7.05999392978E+01	-6.31767342376E+00	5.37593485928E-01
4.04791643516E+06	-6.78786110842E+00	1.77783059962E+02	2.47133049635E+01	8.11593189821E+01	-4.91276830866E+01	1.74546629159E+02	-6.04173017580E+00	-2.99252451437E+00
4.09788865429E+06	-6.01787977097E+00	1.75520008974E+02	2.45123131729E+01	8.10835590417E+01	-4.68526199466E+01	-1.66144149167E+02	-5.97889153544E+00	-3.72565021246E+00
4.14786087343E+06	-6.11900599581E+00	-1.73351525320E+02	2.43931218603E+01	7.95765203970E+01	-4.75043489892E+01	-1.72638308065E+02	-6.01247177300E+00	-3.40649826136E+00
4.19783309257E+06	-7.23345519803E+00	-1.71909767933E+02	2.44169774642E+01	7.90179525199E+01	-4.57059812827E+01	-1.00659621143E+02	-5.62967747605E+00	-2.72500557177E+00
4.24780531170E+06	-6.01579794688E+00	1.62928532839E+02	2.43418189953E+01	8.12443298700E+01	-5.98858116976E+01	1.08421847887E+01	-5.89196114817E+00	-9.66240978498E-01
4.29777753084E+06	-7.88377647959E+00	-1.77978673954E+02	2.42734890592E+01	7.87387834407E+01	-4.79540020378E+01	-3.92019950700E+00	-5.76245938309E+00	2.47416856849E-01
4.34774974997E+06	-6.85676057731E+00	-1.76431284823E+02	2.40472486403E+01	7.82673563601E+01	-4.22406845550E+01	1.51173594969E+02	-6.33570991734E+00	-3.85708223224E+00
4.39772196911E+06	-6.73429294543E+00	-1.78219226601E+02	2.39240429724E+01	7.81950594973E+01	-5.42276994143E+01	1.05863786146E+02	-6.04591218019E+00	-1.52488221760E+00
4.44769418824E+06	-6.05600077484E+00	-1.68914973352E+02	2.37278253986E+01	7.67182901102E+01	-4.94376884829E+01	1.14368109333E+02	-6.15309401739E+00	-1.75283305082E+00
4.49766640738E+06	-6.58326004352E+00	1.75275463076E+02	2.37565789434E+01	7.82809715346E+01	-5.52697182651E+01	-1.68769706306E+02	-5.93838182321E+00	-2.46159481026E+00
4.54763862651E+06	-6.26445917123E+00	-1.76341522640E+02	2.35695585937E+01	7.71468913103E+01	-5.13878265652E+01	-1.56300792983E+02	-5.92298812725E+00	-2.61884765958E+00
4.59761084565E+06	-4.49287111934E+00	1.78782983433E+02	2.32621615645E+01	7.81397959954E+01	-4.55558325983E+01	-1.55789971472E+02	-5.92628173913E+00	-3.74904986868E+00
4.64758306478E+06	-7.25149992645E+00	-1.72184129940E+02	2.34589335323E+01	7.57111141185E+01	-3.83460810009E+01	5.78099743891E+01	-6.16092385707E+00	2.73351528553E+00
4.69755528392E+06	-6.71187975459E+00	-1.76224492207E+02	2.33241282074E+01	7.58274239274E+01	-4.41702367250E+01	4.27158894167E+01	-6.00053421898E+00	6.01376900504E-01
4.74752750306E+06	-5.54262142608E+00	-1.77159817898E+02	2.31081579687E+01	7.57995270211E+01	-4.77201964695E+01	1.33561479308E+02	-6.16029043059E+00	-2.23042759263E+00
4.79749972219E+06	-7.20390789897E+00	1.77574869696E+02	2.31940843722E+01	7.57627651602E+01	-4.41836967207E+01	1.63440647732E+02	-6.18160576152E+00	-3.51054910750E+00
4.84747194133E+06	-7.29999719882E+00	1.76059169363E+02	2.31204160374E+01	7.55665369306E+01	-4.29543782355E+01	1.64609163393E+02	-6.22597127563E+00	-3.82653919416E+00
4.89744416046E+06	-7.58061308519E+00	-1.75082114285E+02	2.30219540151E+01	7.40392276129E+01	-4.48183071865E+01	1.74929607904E+01	-5.84459673981E+00	1.52970210016E-01
4.94741637960E+06	-7.86113487796E+00	1.65576850056E+02	2.30756416312E+01	7.50669026497E+01	-5.12954313151E+01	-1.62210227149E+02	-5.95225717037E+00	-2.87200964985E+00
4.99738859873E+06	-7.05466924713E+00	-1.76417315566E+02	2.27758406797E+01	7.38504418833E+01	-4.80779126295E+01	3.44723485018E+01	-5.83545287371E+00	-1.15049618599E-01
5.04736081787E+06	-6.40453895192E+00	-1.77069444233E+02	2.26065972425E+01	7.36657566668E+01	-4.65015956819E+01	-3.73792655306E+01	-5.69480614416E+00	-1.25259917628E+00
5.09733303700E+06	-7.20645901450E+00	1.78503619489E+02	2.26384873391E+01	7.36032033775E+01	-5.10120792468E+01	7.83976573684E+01	-6.04299399547E+00	-1.34324936529E+00
5.14730525614E+06	-6.21511976871E+00	-1.77961977385E+02	2.24151209494E+01	7.32114263267E+01	-5.39747203463E+01	-1.89184676831E+01	-5.86524518017E+00	-1.31435343460E+00
5.19727747528E+06	-6.52317555121E+00	-1.74433321821E+02	2.23525900041E+01	7.23252875512E+01	-4.68525234920E+01	2.17003393291E+01	-5.87718480840E+00	-3.08869356176E-01
5.24724969441E+06	-6.15655488082E+00	-1.75518614176E+02	2.22279766748E+01	7.22072733242E+01	-5.45626472740E+01	1.03494535780E+02	-6.02052798913E+00	-1.72089104956E+00
5.29722191355E+06	-6.38922958208E+00	-1.78351031793E+02	2.21927752288E+01	7.20586226135E+01	-4.43536994402E+01	-1.27048703854E+02	-5.82114234690E+00	-3.95979180201E+00
5.34719413268E+06	-6.86715339166E+00	-1.74890706536E+02	2.21282377774E+01	7.13103174041E+01	-5.32253090168E+01	4.11047688717E+01	-6.00758627042E+00	-1.40583679175E+00
5.39716635182E+06	-6.65535506636E+00	1.71254685834E+02	2.20808968356E+01	7.25638300015E+01	-5.38189891628E+01	-1.56601323446E+02	-5.95464789871E+00	-2.84318477202E+00
5.44713857095E+06	-6.91905945315E+00	-1.75552728220E+02	2.19425522933E+01	7.07194040342E+01	-5.02365537131E+01	1.17468875649E+02	-6.06182896872E+00	-2.06503451872E+00
5.49711079009E+06	-7.02843623145E+00	-1.72622442200E+02	2.18485949228E+01	7.01416858868E+01	-4.79033708418E+01	-8.48600356011E+01	-5.75029388927E+00	-2.77617323501E+00
5.54708300922E+06	-6.32939798304E+00	-1.78315498229E+02	2.17129959528E+01	7.06513188590E+01	-4.37685216256E+01	9.27030213712E+01	-6.20356596554E+00	-1.00588634417E+00
5.59705522836E+06	-5.97964678339E+00	1.79439791566E+02	2.15997140509E+01	7.06423566915E+01	-5.46736646782E+01	-1.71981992806E+02	-5.96694376460E+00	-2.87396800787E+00
5.64702744749E+06	-5.90432177856E+00	-1.74326893309E+02	2.15092353501E+01	6.98917437811E+01	-4.89743938368E+01	-7.01880999917E+01	-5.77129180560E+00	-2.60177752060E+00
5.69699966663E+06	-6.70112373194E+00	1.77297543193E+02	2.15227959227E+01	7.00951209491E+01	-4.31316403885E+01	1.12242806638E+01	-5.78368223573E+00	-1.66981816846E-01
5.74697188577E+06	-6.22448731457E+00	1.75766677966E+02	2.13793390131E+01	7.00813301232E+01	-4.58025058520E+01	-5.87192761550E+01	-5.61580841859E+00	-3.11153427301E+00
5.79694410490E+06	-7.17452614062E+00	1.75555764469E+02	2.14236244713E+01	6.95695145663E+01	-5.41862662174E+01	-8.49265531642E+01	-5.85245162087E+00	-2.61201830012E+00
5.84691632404E+06	-6.90785984260E+00	-1.73310905347E+02	2.12669322338E+01	6.81816270931E+01	-4.88526527907E+01	1.57297213104E+02	-6.05291826067E+00	-2.85244731491E+00
5.89688854317E+06	-7.02145125016E+00	-1.77143349042E+02	2.11851067629E+01	6.82137990577E+01	-4.52160442753E+01	9.56624813313E+01	-6.12491976115E+00	-1.37404323405E+00
5.94686076231E+06	-7.28043922299E+00	-1.75145828725E+02	2.11522605527E+01	6.76550126333E+01	-4.74666432429E+01	9.98281780032E+01	-6.08539447725E+00	-1.68942626953E+00
5.99683298144E+06	-6.16242626658E+00	-1.72605961166E+02	2.09113741285E+01	6.73993370866E+01	-4.94870772484E+01	-9.48326489660E+01	-5.82415735402E+00	-3.14991077378E+00
6.04680520058E+06	-6.46200832132E+00	-1.70284282436E+02	2.08773482554E+01	6.67085269828E+01	-6.60169575612E+01	-4.81783199183E+01	-5.90104221502E+00	-2.50930749373E+00
6.09677741971E+06	-5.78095477350E+00	-1.68978390589E+02	2.06964334239E+01	6.62850826070E+01	-5.12879783491E+01	3.17788921887E+01	-5.92318941656E+00	-1.64835964921E+00
6.14674963885E+06	-7.65806655729E+00	-1.74546188360E+02	2.08540305476E+01	6.64162943797E+01	-4.85675051056E+01	6.16587433705E+00	-5.83295138708E+00	-1.59092113901E+00
