# Hz S DB R 50
! CMT, M5065, 19127446, 24.2.4/2
! Date: 10/29/2024 12:08:50 PM
! Data: Format (Calibration Info)
! Freq	S11:dB/Ang(F2)	S21:dB/Ang(F2)	S12:dB/Ang(F2)	S22:dB/Ang(F2)
3.00000000000E+05	-9.58002091386E+00	-1.78821037519E+02	6.97633445566E+00	-1.77714117485E+02	-5.65962338712E+01	-1.60803084383E+01	-5.97030275652E+00	-6.26857687518E-02
3.22191354595E+05	-8.93281425860E+00	-1.66330709588E+02	6.98843499632E+00	-1.78347027088E+02	-7.33360264682E+01	-8.23835946037E+01	-5.97196414480E+00	-2.23138542793E-01
3.44382709190E+05	-9.52131118773E+00	-1.66360285045E+02	6.98317283717E+00	-1.78637169300E+02	-3.97724253897E+01	9.43677706303E+01	-5.97806143201E+00	-2.31250285693E-01
3.66574063785E+05	-9.15837070806E+00	1.75671625091E+02	6.99768227454E+00	-1.79121317583E+02	-4.43019212557E+01	-1.12506062662E+02	-5.96470807294E+00	-2.64005485790E-01
3.88765418380E+05	-1.05393489641E+01	1.79150430262E+02	6.94681275729E+00	-1.79587022504E+02	-3.87610709776E+01	-1.05032335848E+02	-6.00192324991E+00	-2.75463189294E-01
4.10956772975E+05	-1.15262373187E+01	-1.74446416887E+02	7.00789194040E+00	-1.79361219226E+02	-4.27827417191E+01	1.72533918081E+02	-5.98538572416E+00	-1.85191389017E-01
4.33148127570E+05	-9.43867412810E+00	1.78758098653E+02	6.98948190615E+00	-1.79805722515E+02	-4.51039440571E+01	-1.46261510336E+02	-5.98863800711E+00	-3.77175203516E-01
4.55339482165E+05	-1.02427433740E+01	-1.78636005005E+02	6.98657479478E+00	-1.79979023977E+02	-3.91190743614E+01	4.97462789130E+01	-5.96351390100E+00	-3.43469857267E-01
4.77530836760E+05	-9.56690059124E+00	-1.77095892279E+02	6.96625517481E+00	1.79882099805E+02	-4.38300420986E+01	1.20939811859E+01	-5.97023297535E+00	-3.80119542342E-01
4.99722191355E+05	-8.75383912060E+00	-1.78408625405E+02	6.98063352989E+00	1.79554042473E+02	-4.84720743820E+01	1.16483088895E+02	-5.99342169611E+00	-4.13806907397E-01
5.21913545950E+05	-9.51114185106E+00	-1.70211045607E+02	7.00891965130E+00	1.79848432638E+02	-4.18362572483E+01	9.53260834271E+01	-6.00455276049E+00	-2.39576665075E-01
5.44104900545E+05	-1.22068862982E+01	-1.74976411989E+02	6.98047306130E+00	1.79408098327E+02	-4.98333916854E+01	-1.38763612214E+02	-5.98443329179E+00	-4.53218990188E-01
5.66296255139E+05	-9.35437167442E+00	1.75302751995E+02	6.97396466710E+00	1.79037008386E+02	-4.42729706284E+01	-5.54134720885E+01	-5.96714858637E+00	-4.24110432508E-01
5.88487609734E+05	-1.15862430360E+01	-1.75801753847E+02	7.00129390942E+00	1.79069532832E+02	-5.38764280708E+01	-7.45069583507E+01	-5.97683526710E+00	-5.21771929551E-01
6.10678964329E+05	-9.88277337831E+00	1.74271665842E+02	6.98296086897E+00	1.78692040567E+02	-4.14171511824E+01	6.73113140410E+01	-5.97789423914E+00	-1.59555744670E-02
6.32870318924E+05	-9.63305867765E+00	-1.77897009650E+02	6.99438014177E+00	1.78655742961E+02	-4.42112924979E+01	1.39645995774E+02	-5.97654743066E+00	-2.90768583367E-01
6.55061673519E+05	-1.06414254546E+01	-1.79740070926E+02	6.97459883202E+00	1.78404974401E+02	-5.08085674249E+01	-1.80293987890E+01	-6.00072004801E+00	-2.75193962037E-01
6.77253028114E+05	-8.39337357752E+00	1.77068559711E+02	6.97607865242E+00	1.78271454275E+02	-4.77371638871E+01	-1.21823497765E+01	-5.96089266654E+00	-4.87461886183E-01
6.99444382709E+05	-1.01468692544E+01	-1.71728196178E+02	6.96831575530E+00	1.78261272188E+02	-4.73491310069E+01	3.01324649281E+01	-5.97881676117E+00	-5.61966921534E-01
7.21635737304E+05	-1.01382231293E+01	-1.70690472087E+02	7.00189975364E+00	1.77927664162E+02	-3.94035920513E+01	-1.54526140501E+02	-5.97942732243E+00	-5.70440968431E-01
7.43827091899E+05	-9.73174681257E+00	-1.78438831154E+02	6.98737586190E+00	1.77694501544E+02	-4.39115646483E+01	6.37799223630E+01	-5.95369226738E+00	-4.96893678793E-01
7.66018446494E+05	-1.01947516161E+01	1.62260772297E+02	6.98790544466E+00	1.77671824395E+02	-3.86150946578E+01	1.77267231569E+02	-5.95482201567E+00	-5.83907141012E-01
7.88209801089E+05	-1.47261470206E+01	-1.73506804541E+02	6.95306069804E+00	1.77507250270E+02	-5.02353723778E+01	1.73149825401E+02	-5.98802097698E+00	-4.80494570422E-01
8.10401155684E+05	-1.02342824449E+01	-1.75556969925E+02	6.96748663419E+00	1.77557438741E+02	-4.20896735583E+01	-1.02205992829E+02	-5.98098093997E+00	-5.32765574208E-01
8.32592510279E+05	-1.08116277366E+01	1.79374778832E+02	7.00728058002E+00	1.77397185466E+02	-4.72014594477E+01	4.40885464265E+01	-5.96011414811E+00	-4.50280162311E-01
8.54783864874E+05	-9.99249306300E+00	1.79807323259E+02	6.99193284313E+00	1.77163543647E+02	-3.85942909142E+01	1.49933288069E+02	-5.96072554270E+00	-6.10104493994E-01
8.76975219469E+05	-1.02558141013E+01	-1.74792034771E+02	7.03193983521E+00	1.76936156788E+02	-4.09156303717E+01	4.63435661948E+01	-5.96857979684E+00	-5.33331504379E-01
8.99166574064E+05	-1.49030468905E+01	-1.79683556075E+02	6.97615175996E+00	1.77001850151E+02	-6.58390131824E+01	2.13455774409E+01	-5.94702309260E+00	-4.21366213930E-01
9.21357928659E+05	-1.08851109691E+01	1.79796916334E+02	6.99075316628E+00	1.76533226573E+02	-4.29472154715E+01	1.70903071186E+01	-5.99268709088E+00	-6.28960878410E-01
9.43549283254E+05	-9.93445510338E+00	-1.76477732988E+02	7.01944079761E+00	1.76521669436E+02	-5.54629197187E+01	-1.18372087000E+02	-5.99084815552E+00	-6.61779459905E-01
9.65740637849E+05	-1.03640321087E+01	1.76627145089E+02	7.00180294068E+00	1.76465779183E+02	-4.25522284804E+01	6.55397425497E+01	-5.99534201431E+00	-5.99594355992E-01
9.87931992444E+05	-9.39263583462E+00	1.74060043146E+02	6.99427232802E+00	1.76321831821E+02	-5.13909968323E+01	-9.87626153968E+01	-5.95401736182E+00	-6.27401727503E-01
1.01012334704E+06	-1.24393666985E+01	1.71607498748E+02	6.96579343154E+00	1.76101335711E+02	-4.65733931492E+01	-1.64580348408E+02	-5.98128595787E+00	-6.85434650153E-01
1.03231470163E+06	-9.53278229520E+00	1.77624397951E+02	7.00208730604E+00	1.76356931513E+02	-4.51227353769E+01	-4.13224120139E+01	-5.97416174912E+00	-6.26119297556E-01
1.05450605623E+06	-1.24282723948E+01	1.78015438046E+02	6.99598844414E+00	1.76114674572E+02	-4.17012300822E+01	-9.07396638414E+01	-5.98812793209E+00	-5.77973883104E-01
1.07669741082E+06	-9.70708128995E+00	-1.70058077907E+02	6.98329539971E+00	1.75729519377E+02	-3.84319241958E+01	-1.05305525236E+02	-5.97044792402E+00	-6.68190741502E-01
1.09888876542E+06	-1.00032422680E+01	-1.75397225068E+02	7.01462888959E+00	1.75680287459E+02	-6.13858772566E+01	-1.75543699942E+02	-5.97225073223E+00	-5.26060678594E-01
1.12108012001E+06	-9.99684994892E+00	-1.74975815689E+02	6.98122987977E+00	1.75729117419E+02	-5.22562489541E+01	4.42385940580E+01	-5.97548624580E+00	-6.69751222250E-01
1.14327147461E+06	-1.03254251509E+01	-1.75826819115E+02	6.99167177320E+00	1.75185902686E+02	-4.85762196965E+01	7.01112361579E+01	-5.97265932417E+00	-8.44214425134E-01
1.16546282920E+06	-1.05310244754E+01	1.73659720614E+02	6.97952103957E+00	1.75476703243E+02	-4.62107125242E+01	-9.42372742932E+01	-5.97867361146E+00	-7.14974624288E-01
1.18765418380E+06	-9.51034593131E+00	1.77977755846E+02	7.00849599777E+00	1.75220889424E+02	-4.12948128758E+01	9.10918108545E+01	-5.97912416219E+00	-6.40522435038E-01
1.20984553839E+06	-1.00689787539E+01	-1.70156651301E+02	6.97034857550E+00	1.74965524443E+02	-5.53828076518E+01	-2.73551061425E+01	-5.99694887623E+00	-1.04402191312E+00
1.23203689299E+06	-1.22621476913E+01	-1.76729613256E+02	7.00229741336E+00	1.75068484238E+02	-4.33901531967E+01	1.22820892570E+02	-5.96110627696E+00	-5.21120624645E-01
1.25422824758E+06	-9.81681534924E+00	1.74972786865E+02	6.98966426270E+00	1.74741771228E+02	-3.83891820394E+01	-1.76182758970E+02	-5.97369724103E+00	-6.42145997762E-01
1.27641960218E+06	-9.36876003946E+00	1.75376266047E+02	7.00858849540E+00	1.74745732413E+02	-5.01271618088E+01	-1.97028062243E+01	-5.98613324632E+00	-6.83074343358E-01
1.29861095677E+06	-9.35405376617E+00	-1.79928871882E+02	6.99443362041E+00	1.74599379156E+02	-6.13830307452E+01	-1.63159120506E+02	-5.98960207637E+00	-6.68882837712E-01
1.32080231137E+06	-1.07985931660E+01	-1.70018743592E+02	6.99972385021E+00	1.74532892570E+02	-4.00607588556E+01	1.32905068525E+01	-5.96902423430E+00	-1.17781486384E+00
1.34299366596E+06	-1.07363594851E+01	-1.69167285539E+02	6.97543727943E+00	1.74199276541E+02	-4.98910513326E+01	-1.50302842784E+02	-5.97693457617E+00	-9.06183167518E-01
1.36518502056E+06	-1.01960359738E+01	1.78776583024E+02	6.99820528216E+00	1.74317278781E+02	-4.63481568546E+01	-1.28188270482E+02	-5.96858642622E+00	-8.07163738226E-01
1.38737637515E+06	-1.07848049538E+01	1.79627884081E+02	6.97416393077E+00	1.73861315115E+02	-4.10931529483E+01	-7.94083874411E+01	-6.00318238948E+00	-7.48429056168E-01
1.40956772975E+06	-8.23064695338E+00	-1.66560725800E+02	7.00571412876E+00	1.73770050425E+02	-5.13092596672E+01	9.19699054118E+01	-5.96067278173E+00	-7.98340182921E-01
1.43175908434E+06	-1.10929535507E+01	1.78607114570E+02	6.96286918037E+00	1.73668983512E+02	-3.98900395875E+01	1.23451218439E+02	-5.94527035493E+00	-6.74633680063E-01
1.45395043894E+06	-1.00895497530E+01	-1.72212457829E+02	7.00524021955E+00	1.73867433871E+02	-4.71743087381E+01	-1.05437926758E+02	-5.96952206717E+00	-6.95648505319E-01
1.47614179353E+06	-1.02228063179E+01	1.79535480844E+02	6.95665497656E+00	1.73705321683E+02	-4.51421821697E+01	-3.76235872638E+01	-5.93494037495E+00	-8.18372337316E-01
1.49833314813E+06	-8.66467030186E+00	-1.76175490047E+02	6.95697909175E+00	1.73640291091E+02	-4.74834777852E+01	4.05028660538E+01	-5.97152862643E+00	-7.58584464277E-01
1.52052450272E+06	-1.12801788789E+01	1.76943076081E+02	7.00349214688E+00	1.72973587040E+02	-4.44973306157E+01	1.40377730881E+02	-5.98244260518E+00	-7.58337479346E-01
1.54271585732E+06	-1.10467413260E+01	-1.66325229437E+02	6.99323425783E+00	1.72970938690E+02	-4.21219340757E+01	8.36263849145E+01	-5.96721551530E+00	-8.22292105579E-01
1.56490721191E+06	-1.00411451453E+01	-1.75348387227E+02	7.01451788774E+00	1.73159139673E+02	-4.43402042490E+01	-1.60314301174E+02	-6.00505079725E+00	-8.59785931340E-01
1.58709856651E+06	-8.73524985647E+00	-1.68649507730E+02	6.99001258290E+00	1.73258322879E+02	-4.53300808590E+01	1.09617918727E+02	-5.93821158442E+00	-9.08136663664E-01
1.60928992110E+06	-8.99738485208E+00	-1.79033949634E+02	6.98566948970E+00	1.72783704385E+02	-4.31379806983E+01	-1.06617920656E+02	-5.97989156117E+00	-7.57669549616E-01
1.63148127570E+06	-1.29561112209E+01	1.78626759748E+02	7.03793175340E+00	1.72741394519E+02	-4.48839825530E+01	1.09856042492E+01	-5.96911584968E+00	-9.09034713479E-01
1.65367263029E+06	-1.04399385691E+01	1.72962614447E+02	6.99085169297E+00	1.72637156544E+02	-5.55398614494E+01	-1.45509562165E+01	-5.95793899635E+00	-9.02826973148E-01
1.67586398489E+06	-9.44346387905E+00	1.68517831110E+02	6.95875081769E+00	1.72455323527E+02	-4.89229594021E+01	1.67730195702E+02	-5.96047572572E+00	-9.43690761828E-01
1.69805533948E+06	-9.03313272160E+00	-1.74448746575E+02	6.97458675427E+00	1.72242715588E+02	-4.69931201291E+01	1.48344289547E+02	-5.98563352576E+00	-7.28161991355E-01
1.72024669408E+06	-9.96697923460E+00	-1.74578845158E+02	6.97994558752E+00	1.72316823845E+02	-4.62167799179E+01	-7.44987140751E+01	-5.96678537619E+00	-7.68323488419E-01
1.74243804867E+06	-9.43252895956E+00	1.79648453920E+02	7.02216365800E+00	1.72254335431E+02	-4.30477394046E+01	8.47797594906E+01	-5.97145963924E+00	-7.12002221589E-01
1.76462940327E+06	-1.16174086893E+01	1.66195303295E+02	6.91289443272E+00	1.72119529037E+02	-4.16174082102E+01	-1.77023987537E+02	-5.96132585483E+00	-1.01655634094E+00
1.78682075786E+06	-9.56448317476E+00	-1.72672998949E+02	6.97060762431E+00	1.72215965682E+02	-5.52347679336E+01	1.32343499048E+00	-5.98695554238E+00	-7.93676437209E-01
1.80901211246E+06	-9.87415902656E+00	1.73404429261E+02	6.96609475466E+00	1.72027378080E+02	-5.21195796067E+01	1.59434733851E+02	-5.95521204545E+00	-9.28918669550E-01
1.83120346705E+06	-1.14845209966E+01	1.59209603280E+02	6.99321581984E+00	1.71474536009E+02	-3.92215923308E+01	-1.64482488686E+01	-5.97195247613E+00	-7.24715121499E-01
1.85339482165E+06	-1.00297304871E+01	1.69194073361E+02	7.00082605984E+00	1.71755395374E+02	-5.70870986032E+01	-6.77228140311E+01	-5.98470237371E+00	-9.49933392055E-01
1.87558617624E+06	-1.01430783761E+01	-1.79725509831E+02	7.00413109587E+00	1.71487823810E+02	-4.27115361146E+01	-1.03394277506E+02	-5.97881663358E+00	-9.73244460758E-01
1.89777753084E+06	-1.00931909293E+01	1.79145718301E+02	6.96893634339E+00	1.71533896456E+02	-4.70406912578E+01	-9.44499894670E+01	-5.97662737580E+00	-9.13054326685E-01
1.91996888543E+06	-9.24866283318E+00	-1.74434403676E+02	6.97324220231E+00	1.71450943744E+02	-6.05505114940E+01	-9.72493450251E+01	-5.96152085500E+00	-9.77949510825E-01
1.94216024003E+06	-9.74769420267E+00	-1.75130038402E+02	6.98127710765E+00	1.71435092849E+02	-4.84595411101E+01	1.31119199600E+02	-5.96278041983E+00	-1.05667043106E+00
1.96435159462E+06	-9.43262616829E+00	-1.72241428278E+02	6.95441046343E+00	1.71098533500E+02	-4.81874796497E+01	-5.16325935921E+01	-5.95341352553E+00	-9.12728203341E-01
1.98654294922E+06	-1.01819848128E+01	1.78457873245E+02	7.00071738579E+00	1.70969780866E+02	-3.77006844436E+01	-3.14164104410E+01	-5.97629856544E+00	-1.09676847423E+00
2.00873430381E+06	-1.06388824314E+01	-1.78979666072E+02	6.96336585201E+00	1.70709291337E+02	-4.44369929902E+01	1.00447419379E+02	-5.95820141087E+00	-8.57200314193E-01
2.03092565841E+06	-1.21243278701E+01	1.78008022444E+02	6.94657097226E+00	1.70588706156E+02	-4.09667289380E+01	-4.77500308918E+01	-5.95531149203E+00	-1.05232348281E+00
2.05311701300E+06	-1.02446401611E+01	1.74155945833E+02	6.97794148197E+00	1.70804138416E+02	-4.40283548663E+01	-4.45413835545E+01	-5.98839995123E+00	-1.05393118034E+00
2.07530836760E+06	-1.22244479874E+01	-1.70136136423E+02	6.97629740156E+00	1.70653648292E+02	-5.24201546015E+01	-7.84448003317E+01	-5.96426231170E+00	-9.25056142675E-01
2.09749972219E+06	-9.64269285600E+00	-1.69097092818E+02	7.02268250112E+00	1.70389746810E+02	-4.90149814203E+01	3.32168686602E+01	-5.97502507004E+00	-1.06561539541E+00
2.11969107679E+06	-1.01633980297E+01	1.73333990140E+02	6.94449952651E+00	1.70193607078E+02	-3.87680040623E+01	1.78532904218E+02	-5.96338658587E+00	-9.81937267675E-01
2.14188243138E+06	-9.46421728256E+00	-1.78918381688E+02	6.97610148740E+00	1.69862180166E+02	-5.39178566011E+01	1.68458982709E+02	-5.95942733250E+00	-9.89133907731E-01
2.16407378598E+06	-1.16563674198E+01	-1.73975330645E+02	6.96630174254E+00	1.69979651522E+02	-4.67461519525E+01	4.14201625667E+01	-5.97197118280E+00	-1.18159882744E+00
2.18626514057E+06	-1.09099187850E+01	-1.73602533683E+02	7.02080921196E+00	1.69899823262E+02	-4.71985766727E+01	8.29270127913E+00	-5.97806533389E+00	-1.06178435973E+00
2.20845649517E+06	-9.11808009604E+00	1.73946874236E+02	7.01071281224E+00	1.69714891718E+02	-4.70370620037E+01	-3.12548325200E+01	-5.97277375115E+00	-1.08999250530E+00
2.23064784976E+06	-9.18925362828E+00	1.69416213038E+02	7.00552866868E+00	1.69730877871E+02	-4.68678877560E+01	1.61275198380E+02	-5.99781770068E+00	-9.90972388955E-01
2.25283920436E+06	-8.98852731753E+00	1.77005267825E+02	7.02199907635E+00	1.69529802161E+02	-4.29516393777E+01	9.62036497084E+01	-5.96905106159E+00	-1.00637545775E+00
2.27503055895E+06	-9.25941890632E+00	-1.78365259130E+02	6.95397955539E+00	1.69571786068E+02	-4.09992972087E+01	1.29629005758E+02	-5.94554057400E+00	-1.07724283256E+00
2.29722191355E+06	-1.10727643688E+01	-1.79394370794E+02	6.98912417413E+00	1.69642520000E+02	-5.18654732916E+01	-7.98291976178E+01	-5.96239172744E+00	-1.08798315302E+00
2.31941326814E+06	-1.11261851702E+01	1.72929693444E+02	6.96633041210E+00	1.69451197144E+02	-5.87600825607E+01	-1.28011249772E+02	-5.97139908556E+00	-1.04195258117E+00
2.34160462274E+06	-1.13016730956E+01	1.69222099359E+02	7.02284087035E+00	1.69377369210E+02	-4.39546410315E+01	1.60203824273E+02	-5.96674600765E+00	-1.01023545455E+00
2.36379597733E+06	-1.06993862276E+01	1.79889841530E+02	6.98068374752E+00	1.69203479314E+02	-5.12191242304E+01	1.04594130596E+02	-5.97898131092E+00	-1.00405442026E+00
2.38598733193E+06	-9.89834673847E+00	-1.68963499888E+02	7.01284589292E+00	1.69021235569E+02	-6.10455246095E+01	1.01108919339E+02	-5.96326672341E+00	-9.68511214279E-01
2.40817868652E+06	-1.16144909326E+01	1.78633611049E+02	7.00916205737E+00	1.68954758722E+02	-4.96471313186E+01	6.62078674181E+01	-5.94302879626E+00	-1.05980507869E+00
2.43037004112E+06	-9.87098795160E+00	1.73848602982E+02	6.96344298195E+00	1.68798661096E+02	-4.39931195969E+01	1.26298980008E+01	-5.92131658233E+00	-1.40941948677E+00
2.45256139571E+06	-9.04120015194E+00	1.77525705484E+02	6.98695486550E+00	1.68898843432E+02	-4.95662740265E+01	1.70394121965E+02	-5.97852749465E+00	-9.20569993066E-01
2.47475275031E+06	-1.11864765191E+01	1.67572741417E+02	6.99149403704E+00	1.68582031800E+02	-4.75458797496E+01	3.60782319602E+01	-5.97416598243E+00	-1.18771623964E+00
2.49694410490E+06	-1.10325444067E+01	1.77838266639E+02	7.00118835211E+00	1.68655761489E+02	-4.42429349826E+01	3.86106699568E+01	-5.97382434479E+00	-1.19505837088E+00
2.51913545950E+06	-1.01530191058E+01	1.75365135384E+02	6.98734944689E+00	1.68562863696E+02	-4.55073423870E+01	-9.56131334916E+01	-5.98552839974E+00	-1.10223116060E+00
2.54132681409E+06	-1.13344179963E+01	1.75122019805E+02	7.02212664419E+00	1.68134130395E+02	-4.62005683307E+01	-3.72494369820E+01	-5.95632728471E+00	-1.39230016043E+00
2.56351816869E+06	-1.12370866888E+01	-1.78392285970E+02	7.00616202917E+00	1.68073552739E+02	-4.36657364402E+01	6.31521377538E+01	-5.94901932566E+00	-1.20791145520E+00
2.58570952328E+06	-1.03098120456E+01	1.73676095264E+02	7.00658701289E+00	1.68108008270E+02	-4.91201064906E+01	-1.58336484510E+02	-5.97175797747E+00	-1.07972890442E+00
2.60790087788E+06	-1.00170912111E+01	-1.79522339501E+02	6.96301011852E+00	1.67938243940E+02	-5.76221648258E+01	-1.39916882734E+02	-5.97662742688E+00	-1.15924661639E+00
2.63009223247E+06	-9.64246812138E+00	-1.67962679213E+02	6.98242625900E+00	1.67857373761E+02	-4.70565671399E+01	-1.45280087771E+01	-5.97357290870E+00	-1.06725873098E+00
2.65228358707E+06	-1.09300672967E+01	1.77194186228E+02	6.98817986417E+00	1.67705060876E+02	-4.35533394075E+01	-7.78793391679E+00	-5.96962855471E+00	-1.62653795325E+00
2.67447494166E+06	-1.09562822496E+01	-1.77894354768E+02	6.98208258289E+00	1.67617945934E+02	-4.93455646679E+01	6.30413440899E+01	-5.96871598595E+00	-1.25799990600E+00
2.69666629626E+06	-9.49117546284E+00	-1.77436033904E+02	7.00837427430E+00	1.67684536486E+02	-4.13071548269E+01	1.07040859509E+02	-5.96579724889E+00	-1.34844926837E+00
2.71885765085E+06	-8.93294011640E+00	1.71055837817E+02	6.98426612253E+00	1.67214096206E+02	-4.26798024414E+01	1.27512886318E+02	-5.97942631364E+00	-1.21331089805E+00
2.74104900545E+06	-9.55669375455E+00	-1.79669098698E+02	6.97796658183E+00	1.67619691976E+02	-4.17801168850E+01	-1.46869996132E+01	-5.97075079957E+00	-1.25231248579E+00
2.76324036004E+06	-9.44573238016E+00	-1.70676517400E+02	6.98612031494E+00	1.67197802987E+02	-5.49325955146E+01	-1.29870654718E+02	-5.96250356823E+00	-1.41516126638E+00
2.78543171463E+06	-1.12656646560E+01	-1.76949611156E+02	6.98015114416E+00	1.67141460334E+02	-4.55489158609E+01	6.96844274736E+01	-5.95371440803E+00	-1.27329485749E+00
2.80762306923E+06	-1.01938909622E+01	1.69305445224E+02	6.99770886807E+00	1.66964357233E+02	-5.95733545396E+01	9.78610208933E+01	-5.97810248374E+00	-1.14482812218E+00
2.82981442382E+06	-9.16156181841E+00	1.66010516370E+02	7.02231451038E+00	1.66549018873E+02	-4.03987999337E+01	1.63957075175E+02	-5.94767228267E+00	-1.27002994924E+00
2.85200577842E+06	-9.06744814681E+00	1.78141991356E+02	6.98678419542E+00	1.66666721987E+02	-4.12066715703E+01	-9.84013675462E+01	-5.98926800402E+00	-1.37167742032E+00
2.87419713301E+06	-9.59847009726E+00	-1.72484915869E+02	6.99273407045E+00	1.66726730842E+02	-5.28842674891E+01	-6.05610793313E+01	-5.97078714929E+00	-1.31199760722E+00
