# Hz S DB R 50
! CMT, M5065, 19127446, 24.2.4/2
! Date: 10/29/2024 12:41:18 PM
! Data: Format (Calibration Info)
! Freq	S11:dB/Ang(F2)	S21:dB/Ang(F2)	S12:dB/Ang(F2)	S22:dB/Ang(F2)
3.00000000000E+05	-6.99266638129E+00	1.74157234484E+02	1.48439520676E+01	-1.77581491039E+02	-4.78984033930E+01	-1.34778913220E+02	-5.99465067838E+00	-5.38160629409E-01
3.22191354595E+05	-1.15892701872E+01	1.59223068652E+02	1.48112934860E+01	-1.78210387604E+02	-4.84227946219E+01	-3.63017525875E+01	-5.99868848668E+00	-4.75804843625E-01
3.44382709190E+05	-9.51517645275E+00	-1.77827814103E+02	1.48595271489E+01	-1.78902020549E+02	-4.25368045159E+01	1.60834347563E+02	-6.00416151586E+00	-3.38606872104E-02
3.66574063785E+05	-7.29550365366E+00	1.71148801057E+02	1.48813561707E+01	-1.79177707066E+02	-4.67258518236E+01	-7.25010472805E+01	-5.98659537930E+00	-8.15905496976E-02
3.88765418380E+05	-1.25290313570E+01	-1.69017862611E+02	1.48500511133E+01	-1.79480186110E+02	-3.90899436140E+01	-1.19158978751E+02	-5.99916258246E+00	-1.62513578263E-01
4.10956772975E+05	-9.52368464935E+00	-1.77359010671E+02	1.48627799402E+01	-1.79875694188E+02	-4.14288710180E+01	1.46751973011E+01	-5.96176758894E+00	-4.19239212213E-01
4.33148127570E+05	-1.08452709847E+01	-1.66713600994E+02	1.48763871980E+01	1.79895414730E+02	-6.63811355208E+01	4.07426408296E+01	-6.00636284818E+00	-4.59397773402E-01
4.55339482165E+05	-1.14478022366E+01	-1.72863140952E+02	1.48620300495E+01	1.79391777665E+02	-3.64641470818E+01	-8.37172694214E+01	-6.00043320980E+00	-4.97354609729E-01
4.77530836760E+05	-1.44451171133E+01	-1.55567733305E+02	1.48678450451E+01	1.79226953211E+02	-3.77382809626E+01	-4.90546179347E+01	-5.97494621428E+00	-3.47620159376E-01
4.99722191355E+05	-1.29977200509E+01	1.69699026069E+02	1.48798995468E+01	1.78913866914E+02	-4.58486157033E+01	1.52102616790E+02	-6.02010190863E+00	-5.97218202702E-01
5.21913545950E+05	-8.07410680019E+00	-1.71639924154E+02	1.49090234045E+01	1.78785398717E+02	-4.53046424807E+01	1.74685606356E+02	-6.01783965051E+00	-5.73017329305E-01
5.44104900545E+05	-9.28547326150E+00	-1.59484250240E+02	1.48982787750E+01	1.78194295749E+02	-3.68378917751E+01	-8.73348125842E+01	-5.95751389363E+00	-5.41151384329E-01
5.66296255139E+05	-9.79483436172E+00	-1.67446041746E+02	1.48448053259E+01	1.77948523602E+02	-4.83231219560E+01	1.33015680259E+01	-5.97699865818E+00	-2.33836037446E-01
5.88487609734E+05	-9.03255286198E+00	1.74679998078E+02	1.49110585636E+01	1.77759903536E+02	-5.20641376571E+01	-1.55799284801E+02	-5.95459925959E+00	-7.93546455539E-01
6.10678964329E+05	-9.50565886282E+00	-1.73392654953E+02	1.48867134169E+01	1.77357524599E+02	-3.25511583273E+01	1.36249159565E+02	-6.06200193708E+00	-2.78146539666E-01
6.32870318924E+05	-8.28357195380E+00	-1.73420482315E+02	1.48901433846E+01	1.77314648726E+02	-4.56694388184E+01	-1.49888472897E+01	-6.00553687374E+00	-2.08625504666E-01
6.55061673519E+05	-9.16987499231E+00	-1.77486745993E+02	1.48889497116E+01	1.76881204416E+02	-3.66836490042E+01	3.38634957912E+01	-6.01107472417E+00	-3.28871870194E-01
6.77253028114E+05	-1.36691256724E+01	-1.69525856072E+02	1.48747463144E+01	1.77082453255E+02	-3.58764779611E+01	7.24753493412E+01	-5.95068789230E+00	-6.82557963991E-01
6.99444382709E+05	-7.11807473940E+00	1.72145282222E+02	1.49024695618E+01	1.76922289490E+02	-3.87554280261E+01	3.30154411447E+01	-5.97071113536E+00	-4.78356373463E-01
7.21635737304E+05	-1.10531414356E+01	1.76679957045E+02	1.49009668334E+01	1.76363916755E+02	-4.14035661228E+01	1.75624909879E+01	-6.00160317443E+00	-6.53037757935E-01
7.43827091899E+05	-1.31102705122E+01	-1.57972811789E+02	1.48338687589E+01	1.76249999429E+02	-4.04452246459E+01	5.66270392344E+01	-5.95481014270E+00	-7.50175425825E-01
7.66018446494E+05	-7.11935833277E+00	1.73065228719E+02	1.48712251082E+01	1.75842851605E+02	-3.37421217414E+01	1.33737555245E+01	-5.94887329410E+00	-3.38665238691E-01
7.88209801089E+05	-6.52503337263E+00	-1.78467789717E+02	1.48823845094E+01	1.75919506078E+02	-3.52388275067E+01	-1.27696872393E+02	-5.95618654676E+00	-3.46939000930E-01
8.10401155684E+05	-1.23720659449E+01	-1.61316992795E+02	1.48985126234E+01	1.75668137240E+02	-4.00710473224E+01	-1.52083060662E+02	-5.97058075773E+00	-7.77568538365E-01
8.32592510279E+05	-1.08430024868E+01	-1.63825268629E+02	1.48909384975E+01	1.75380105326E+02	-3.95748762135E+01	1.33638363516E+02	-6.00964424421E+00	-8.13346712877E-01
8.54783864874E+05	-1.08858868775E+01	1.74423164450E+02	1.48762698337E+01	1.75264786046E+02	-3.42081398164E+01	-1.25634515565E+02	-5.94005205117E+00	-5.79222358674E-01
8.76975219469E+05	-9.72006485642E+00	-1.75611672661E+02	1.48939588579E+01	1.75053441239E+02	-5.27273621722E+01	-1.32870073405E+01	-5.94464524405E+00	-4.43780199107E-01
8.99166574064E+05	-8.90364554246E+00	-1.76856934979E+02	1.48635801653E+01	1.74673764082E+02	-4.29368678306E+01	-1.74331323533E+02	-6.00805423027E+00	-4.96642645057E-01
9.21357928659E+05	-9.94218062899E+00	-1.38622584338E+02	1.48923522083E+01	1.74810578932E+02	-3.52561497359E+01	-6.85810718292E+01	-5.92596907384E+00	-1.01626105483E+00
9.43549283254E+05	-9.15407929760E+00	-1.59857350867E+02	1.48756768542E+01	1.74269331213E+02	-4.79610402520E+01	-1.32726035785E+02	-5.92534052939E+00	-5.32523429360E-01
9.65740637849E+05	-9.54216984295E+00	-1.69821504467E+02	1.48884693763E+01	1.74336796632E+02	-4.61599516720E+01	1.25102541319E+02	-5.99290189450E+00	-5.87213778109E-01
9.87931992444E+05	-1.15605320124E+01	1.78103863993E+02	1.48953032180E+01	1.73769794925E+02	-4.09409344060E+01	1.00079187297E+02	-6.02012183389E+00	-5.88031121971E-01
1.01012334704E+06	-7.15211477891E+00	-1.64329482757E+02	1.48737419544E+01	1.73837116321E+02	-3.62654587803E+01	1.50402693289E+02	-5.96370140493E+00	-6.08082285981E-01
1.03231470163E+06	-7.84878056903E+00	1.74698430795E+02	1.48729702598E+01	1.73383899486E+02	-3.67687038011E+01	1.15160286008E+02	-6.02539751808E+00	-2.82447776322E-01
1.05450605623E+06	-1.00453228907E+01	1.76702846883E+02	1.48414271761E+01	1.73206013532E+02	-3.47723708224E+01	-1.51844416500E+02	-5.98994107492E+00	-6.07621258090E-01
1.07669741082E+06	-1.05687259496E+01	-1.79240274990E+02	1.48825101756E+01	1.73009792766E+02	-4.15431974442E+01	-4.73608742186E+01	-5.96630270223E+00	-5.92013360651E-01
1.09888876542E+06	-1.14646023475E+01	-1.67842869665E+02	1.48343008726E+01	1.73252580418E+02	-4.15524700209E+01	-1.00016025457E+02	-5.98928630111E+00	-7.60162933743E-01
1.12108012001E+06	-1.16797063105E+01	1.65457389515E+02	1.48656692617E+01	1.72880978314E+02	-4.06387569741E+01	1.38988189735E+02	-5.97972114336E+00	-6.45492097875E-01
1.14327147461E+06	-1.13994738259E+01	-1.76724468531E+02	1.49115679055E+01	1.72658115358E+02	-3.56054888981E+01	3.28794011369E+01	-5.96416049490E+00	-7.61809977156E-01
1.16546282920E+06	-1.01615626067E+01	-1.71454869215E+02	1.49180725818E+01	1.72363739202E+02	-4.15146342962E+01	-4.09049565282E+01	-6.01167009698E+00	-7.77432300179E-01
1.18765418380E+06	-8.96979388112E+00	-1.59151427729E+02	1.48742883202E+01	1.72207085248E+02	-4.11089739836E+01	-1.25536307154E+02	-5.96742100861E+00	-6.09418114469E-01
1.20984553839E+06	-1.16388587276E+01	-1.78724139761E+02	1.48496231108E+01	1.71931200874E+02	-4.18529566102E+01	9.48264342592E+01	-5.95614497754E+00	-1.05647695970E+00
1.23203689299E+06	-1.60601479887E+01	1.65578315309E+02	1.48688793408E+01	1.71664619125E+02	-4.34650054389E+01	1.08811999570E+02	-5.88749587136E+00	-1.00517302889E-01
1.25422824758E+06	-1.01798980656E+01	-1.60796950161E+02	1.48834644507E+01	1.71741890111E+02	-4.77426285970E+01	1.10684649973E+02	-5.96988373794E+00	-8.12386360611E-01
1.27641960218E+06	-8.75379094665E+00	-1.76573711507E+02	1.48570708932E+01	1.71486070106E+02	-5.20022647783E+01	-1.59568945906E+02	-5.95386616130E+00	-6.97945815325E-01
1.29861095677E+06	-1.83947348602E+01	-1.31941082545E+02	1.48667460599E+01	1.71446902733E+02	-3.87637814417E+01	-7.98622918238E+01	-5.97493468975E+00	-7.63279412408E-01
1.32080231137E+06	-7.74393224106E+00	1.71314435445E+02	1.49168211906E+01	1.70907809565E+02	-4.58554861920E+01	-4.14158281035E+01	-5.95919848432E+00	-1.16423432947E+00
1.34299366596E+06	-9.34057938930E+00	1.69795094736E+02	1.48766878206E+01	1.70758120921E+02	-3.92484036055E+01	-1.75886804578E+01	-6.02217711294E+00	-1.17008398966E+00
1.36518502056E+06	-8.22713055172E+00	1.70734308373E+02	1.48400135671E+01	1.70776758677E+02	-3.68886556545E+01	1.59604424877E+02	-5.94944596304E+00	-5.89573791758E-01
1.38737637515E+06	-7.56994790272E+00	-1.78461411801E+02	1.48535363480E+01	1.70222350653E+02	-4.30308246715E+01	2.99394080081E+01	-6.05110591621E+00	-3.58693991156E-01
1.40956772975E+06	-1.01323071953E+01	1.54884058124E+02	1.49075181436E+01	1.70285741789E+02	-3.53904309662E+01	6.61890544553E+01	-5.96801792307E+00	-7.31511717640E-01
1.43175908434E+06	-8.17119144723E+00	-1.79913131202E+02	1.48504989194E+01	1.70266049869E+02	-4.28373933957E+01	-4.78477030126E+01	-5.99164903633E+00	-1.02952901714E+00
1.45395043894E+06	-1.02443840477E+01	-1.70423769948E+02	1.48235821473E+01	1.69982356643E+02	-4.50012743905E+01	-1.53362741914E+02	-6.06813997251E+00	-1.21899840725E+00
1.47614179353E+06	-7.87404375629E+00	1.70376795640E+02	1.48620617988E+01	1.69863121140E+02	-3.73947114323E+01	1.20170684045E+02	-5.99778141605E+00	-8.90793124152E-01
1.49833314813E+06	-1.06974221264E+01	-1.73730537844E+02	1.48956525946E+01	1.69786011811E+02	-4.23391185953E+01	-1.49035695872E+02	-5.94734102549E+00	-7.37526023775E-01
1.52052450272E+06	-1.41702985599E+01	1.71303662552E+02	1.48843417732E+01	1.69579337605E+02	-4.39826824529E+01	1.65347418441E+00	-6.00167941543E+00	-7.09541187571E-01
1.54271585732E+06	-7.76751347923E+00	-1.64782666134E+02	1.49859204804E+01	1.69444356668E+02	-4.20331505156E+01	-9.95621881909E+01	-5.97068501048E+00	-8.15763233851E-01
1.56490721191E+06	-1.05059506367E+01	-1.77038590372E+02	1.48855503846E+01	1.69005794001E+02	-5.13215842075E+01	-1.45814057121E+02	-5.95894043153E+00	-6.80577322955E-01
1.58709856651E+06	-7.82121866665E+00	-1.63476446786E+02	1.48529406694E+01	1.69298320299E+02	-3.92979597862E+01	-6.14214419915E+01	-5.97166055963E+00	-1.00235874578E+00
1.60928992110E+06	-9.16958770472E+00	1.73810843081E+02	1.48602805359E+01	1.68980567355E+02	-5.23435065549E+01	1.76974886050E+02	-5.99000256213E+00	-1.01581270251E+00
1.63148127570E+06	-1.26588408638E+01	1.71805081500E+02	1.48701790011E+01	1.68432007466E+02	-4.19116008838E+01	-1.72059870630E+02	-6.00119859294E+00	-1.08114312262E+00
1.65367263029E+06	-1.77684974347E+01	-1.68861718291E+02	1.48637851666E+01	1.68400748066E+02	-3.91220412587E+01	1.28133377640E+02	-5.99372289349E+00	-8.22847551664E-01
1.67586398489E+06	-1.27903342017E+01	-1.60464993604E+02	1.48781863336E+01	1.68524223189E+02	-4.55026943873E+01	9.21677532543E+01	-5.96224113177E+00	-1.11744536995E+00
1.69805533948E+06	-1.00587150433E+01	1.77433926283E+02	1.48771273229E+01	1.68125398093E+02	-4.07462552075E+01	-2.28457926753E+01	-5.99851890408E+00	-1.45312027594E+00
1.72024669408E+06	-9.47662201767E+00	1.78984131993E+02	1.48682726597E+01	1.68464050569E+02	-3.75798637994E+01	-7.13229982026E+01	-5.98207288402E+00	-8.98149158015E-01
1.74243804867E+06	-1.18376723655E+01	1.77875373255E+02	1.48550453920E+01	1.67830894770E+02	-4.04956714050E+01	-1.67410410112E+02	-5.98357948232E+00	-6.60468528200E-01
1.76462940327E+06	-1.01346959039E+01	1.75496023807E+02	1.48574787116E+01	1.67635050750E+02	-4.52921364103E+01	1.27762725382E+02	-5.98544488542E+00	-9.81541383424E-01
1.78682075786E+06	-7.56174589879E+00	1.68884283934E+02	1.49083036157E+01	1.67809713122E+02	-4.79277531303E+01	-6.60760508748E+01	-5.98164338332E+00	-8.43276254160E-01
1.80901211246E+06	-9.66362233326E+00	-1.69563899428E+02	1.48981450100E+01	1.67064461793E+02	-4.15608526306E+01	8.46835803003E+01	-5.97397401469E+00	-1.29431588988E+00
1.83120346705E+06	-1.06798873704E+01	-1.75226910207E+02	1.48925885332E+01	1.67203189399E+02	-4.11408542415E+01	-1.17509307079E+02	-5.99613628029E+00	-8.60793550170E-01
1.85339482165E+06	-1.12168846588E+01	-1.65184893269E+02	1.48847973634E+01	1.66945445433E+02	-3.76452743501E+01	-8.92086476244E+01	-6.00430883266E+00	-1.64982596432E+00
1.87558617624E+06	-1.20025433206E+01	1.74286118759E+02	1.47974260464E+01	1.66481213482E+02	-4.23246428687E+01	-1.68266544930E+02	-5.86920345663E+00	-7.50721631237E-01
1.89777753084E+06	-6.88337714530E+00	1.70228870409E+02	1.48145442197E+01	1.66459736650E+02	-4.00932033896E+01	1.09642307054E+02	-5.98051828769E+00	-6.07419478644E-01
1.91996888543E+06	-1.08240712421E+01	-1.78499887962E+02	1.48757949901E+01	1.66854818719E+02	-4.10386801441E+01	2.74753051473E+01	-5.97337754223E+00	-9.62865237328E-01
1.94216024003E+06	-9.41537678387E+00	-1.76558086514E+02	1.48793449554E+01	1.66244582257E+02	-4.03119528895E+01	1.09210385517E+00	-5.95095463400E+00	-9.97406835072E-01
1.96435159462E+06	-6.51026926080E+00	1.72269931202E+02	1.48538253003E+01	1.66342804981E+02	-3.54703762157E+01	1.24599480266E+02	-5.96452991559E+00	-8.72587919260E-01
1.98654294922E+06	-9.13462251434E+00	-1.77791684729E+02	1.48759212608E+01	1.66207803926E+02	-4.51271662048E+01	-4.36658781219E+01	-5.96050777050E+00	-9.15407767515E-01
2.00873430381E+06	-9.77014272906E+00	1.70497713185E+02	1.48113634188E+01	1.65632993296E+02	-5.16643735345E+01	8.18029229521E+01	-5.97788485405E+00	-1.07622224810E+00
2.03092565841E+06	-1.06103136018E+01	1.65745247735E+02	1.48187786919E+01	1.65615685498E+02	-3.62311493167E+01	1.39581408090E+01	-5.95412593635E+00	-1.04279235891E+00
2.05311701300E+06	-1.15313224512E+01	-1.64326316932E+02	1.48174264906E+01	1.65532775937E+02	-4.04431071140E+01	1.48086398591E+01	-5.98510984904E+00	-9.21793480273E-01
2.07530836760E+06	-1.04119305233E+01	-1.69284136714E+02	1.48226312008E+01	1.65536921495E+02	-5.64569729630E+01	-1.11731089372E+02	-5.96472027530E+00	-1.07830944500E+00
2.09749972219E+06	-1.10404807178E+01	1.64145865099E+02	1.48679454451E+01	1.65054040114E+02	-3.45801741966E+01	1.76106778309E+02	-5.95891630068E+00	-1.15473245791E+00
2.11969107679E+06	-8.45044437149E+00	-1.79698071561E+02	1.48556266001E+01	1.64681950515E+02	-3.71457187904E+01	8.83500742025E+01	-5.96893829012E+00	-8.62324643999E-01
2.14188243138E+06	-9.23546459514E+00	-1.68374017357E+02	1.48678175063E+01	1.64824059919E+02	-4.53654975100E+01	1.41252320579E+02	-5.95788044626E+00	-8.20812182705E-01
2.16407378598E+06	-8.88278102486E+00	-1.63720361042E+02	1.48667157995E+01	1.64537737205E+02	-4.88269107771E+01	-9.02773777964E+00	-5.90810627272E+00	-1.19268447210E+00
2.18626514057E+06	-1.07115273069E+01	1.67314347573E+02	1.47177888430E+01	1.64160694535E+02	-4.24678242250E+01	-3.88950837094E+01	-5.91635870029E+00	-1.31922243139E+00
2.20845649517E+06	-1.00504411457E+01	-1.69974218849E+02	1.48567952114E+01	1.64198965997E+02	-4.29937158474E+01	1.26284918136E+02	-5.96709165153E+00	-9.79804686936E-01
2.23064784976E+06	-8.97210096271E+00	-1.78072361257E+02	1.48198572492E+01	1.64042190251E+02	-4.11014197554E+01	1.34786553350E+00	-5.97012342886E+00	-1.22439465462E+00
2.25283920436E+06	-1.12313895123E+01	-1.63422315363E+02	1.48296300427E+01	1.64023297047E+02	-4.99343357849E+01	-6.56759575272E+01	-5.94565318542E+00	-1.14993096206E+00
2.27503055895E+06	-1.17115447609E+01	1.72518928356E+02	1.48373595198E+01	1.63872719653E+02	-3.94039429716E+01	1.66297611308E+02	-5.94977042219E+00	-1.26744445412E+00
2.29722191355E+06	-1.38733030022E+01	-1.53246629990E+02	1.48351625223E+01	1.63830559370E+02	-5.76172021252E+01	-2.24229600463E+01	-6.00644685473E+00	-9.06352959957E-01
2.31941326814E+06	-9.57388453620E+00	-1.62998250921E+02	1.48560086006E+01	1.63458565682E+02	-4.03539445689E+01	-9.85182294532E+01	-6.00137631839E+00	-1.61171313656E+00
2.34160462274E+06	-7.25342676686E+00	-1.75534156246E+02	1.49464345531E+01	1.62994487665E+02	-3.70182486381E+01	-1.23629898946E+02	-5.96905579223E+00	-1.34553242512E+00
2.36379597733E+06	-9.13974644367E+00	-1.65477863817E+02	1.48729377209E+01	1.62785211389E+02	-4.01720670671E+01	7.51903374145E+01	-5.93512304901E+00	-1.04262902645E+00
2.38598733193E+06	-8.70225921758E+00	1.78676922057E+02	1.48148573709E+01	1.62932245898E+02	-4.13373479028E+01	-1.75819305625E+02	-5.94659084309E+00	-1.13698879250E+00
2.40817868652E+06	-1.04592264412E+01	1.70198270988E+02	1.48657164460E+01	1.62788220804E+02	-5.93692681978E+01	4.93152267335E+00	-5.97863510531E+00	-1.28441735629E+00
2.43037004112E+06	-7.29392959878E+00	-1.69610680570E+02	1.48396709815E+01	1.62436634005E+02	-3.55538264909E+01	1.79660329832E+02	-5.98094752387E+00	-1.43411034396E+00
2.45256139571E+06	-9.47969447064E+00	-1.57650931415E+02	1.48551531235E+01	1.62476674583E+02	-3.99699092291E+01	-1.72506996658E+02	-5.94133522442E+00	-8.93086181878E-01
2.47475275031E+06	-1.07985743459E+01	-1.75665719638E+02	1.48665006132E+01	1.62029089108E+02	-4.03021032127E+01	9.91846194683E+01	-6.02003561574E+00	-3.20919681326E-01
2.49694410490E+06	-8.40553995282E+00	-1.64031874643E+02	1.48421760314E+01	1.62180896149E+02	-4.16730109521E+01	3.77005779186E+01	-5.87438254335E+00	-1.09893095809E+00
2.51913545950E+06	-1.64268911846E+01	1.79309997834E+02	1.48296801125E+01	1.61986415964E+02	-4.76857716345E+01	-1.20472588496E+02	-6.00028309336E+00	-1.22206487009E+00
2.54132681409E+06	-1.22944209519E+01	-1.72944036296E+02	1.48414274126E+01	1.61695536647E+02	-4.80819621117E+01	7.74073237015E+01	-5.98383537515E+00	-1.19927844239E+00
2.56351816869E+06	-8.73080604019E+00	1.57571885255E+02	1.48087854082E+01	1.61645993753E+02	-4.86965599644E+01	1.08555520990E+02	-5.96898640362E+00	-1.34438125574E+00
2.58570952328E+06	-9.70052271593E+00	-1.67523854691E+02	1.48271417856E+01	1.61453227884E+02	-4.29139717427E+01	-5.80865131848E+01	-5.98028838403E+00	-1.06024398917E+00
2.60790087788E+06	-8.64543709504E+00	1.66075851856E+02	1.48578966402E+01	1.61148069204E+02	-3.46527752151E+01	-2.54504388612E+01	-5.97445109023E+00	-1.28322697485E+00
2.63009223247E+06	-8.97823297545E+00	-1.62814985257E+02	1.48436872581E+01	1.61276190334E+02	-4.20515104230E+01	-4.82902014940E+01	-5.96986606923E+00	-1.10998138257E+00
2.65228358707E+06	-1.06131979650E+01	1.66326033938E+02	1.47968540559E+01	1.61068253652E+02	-3.60974339883E+01	-1.35309712778E+02	-6.02515422725E+00	-1.66501184879E+00
2.67447494166E+06	-8.90250106355E+00	-1.73963241408E+02	1.48348389196E+01	1.60971374817E+02	-5.45116886249E+01	-1.63638110856E+02	-5.95654200070E+00	-1.42344465618E+00
2.69666629626E+06	-6.60409973953E+00	1.73749590748E+02	1.48196379307E+01	1.60760136825E+02	-4.08988953864E+01	-6.30990686734E+01	-5.96752260168E+00	-1.20881243574E+00
2.71885765085E+06	-1.04869938237E+01	1.70939532699E+02	1.48297130608E+01	1.60758347240E+02	-4.43425308296E+01	1.64273482713E+02	-5.96737044713E+00	-1.22943255688E+00
2.74104900545E+06	-1.08797797158E+01	1.73945483830E+02	1.48369828227E+01	1.60156250021E+02	-5.15106764048E+01	-7.18594733897E+01	-5.95799432789E+00	-9.04346016002E-01
2.76324036004E+06	-9.63688524425E+00	1.79154924459E+02	1.48249119782E+01	1.60242917759E+02	-5.00155084627E+01	3.51794423054E+01	-5.98715900995E+00	-1.18822319904E+00
2.78543171463E+06	-9.33325332189E+00	1.70713030164E+02	1.48290994936E+01	1.60155365406E+02	-4.63069833262E+01	3.77591459733E+00	-5.96464025414E+00	-1.47520154108E+00
2.80762306923E+06	-1.44085833390E+01	-1.60798125161E+02	1.47960884056E+01	1.59840787527E+02	-4.09505893588E+01	7.57266361574E+01	-5.94449525675E+00	-1.15195116748E+00
2.82981442382E+06	-8.59232826751E+00	-1.75103501687E+02	1.48665387010E+01	1.59792038454E+02	-4.32310208536E+01	-4.75694967795E+01	-5.93415292061E+00	-1.51840238662E+00
2.85200577842E+06	-8.88877508988E+00	-1.71617872496E+02	1.48492268575E+01	1.59668783214E+02	-4.48156280523E+01	6.20100886542E+01	-5.95250722791E+00	-1.40385568561E+00
2.87419713301E+06	-8.65509449419E+00	1.75756277060E+02	1.48289279766E+01	1.59431206184E+02	-4.34900254597E+01	-4.21795992778E+01	-5.96315440568E+00	-1.30983963714E+00
