# Hz S DB R 50
! CMT, M5065, 19127446, 24.2.4/2
! Date: 10/29/2024 12:20:59 PM
! Data: Format (Calibration Info)
! Freq	S11:dB/Ang(F2)	S21:dB/Ang(F2)	S12:dB/Ang(F2)	S22:dB/Ang(F2)
3.00000000000E+05	-1.17541733519E+01	-1.61210839919E+02	8.51518665620E+00	-1.78047427729E+02	-3.87122237928E+01	1.43315181925E+02	-5.96669317256E+00	-2.62038263878E-01
3.22191354595E+05	-8.69346817481E+00	-1.64032220416E+02	8.50915482650E+00	-1.78429393158E+02	-4.21555689850E+01	9.84491565856E+01	-5.94953964776E+00	-2.64433402229E-01
3.44382709190E+05	-1.04622447142E+01	-1.58174861508E+02	8.54000862144E+00	-1.78761469608E+02	-5.26170338225E+01	4.61021608397E+01	-5.99477041980E+00	-1.74734009345E-01
3.66574063785E+05	-1.08642327378E+01	1.75876731415E+02	8.53815673323E+00	-1.78920998998E+02	-4.43623114705E+01	6.18343372519E+01	-6.00857272403E+00	-2.34108077212E-01
3.88765418380E+05	-9.44819655704E+00	-1.57056824821E+02	8.58971650972E+00	-1.79309796571E+02	-4.74634512880E+01	-7.65771613163E+01	-6.01430889475E+00	-2.64598745612E-01
4.10956772975E+05	-9.57541757326E+00	-1.79015129597E+02	8.52676571561E+00	-1.79669127759E+02	-5.66339319993E+01	1.55967828057E+02	-5.98155663222E+00	-2.30250054425E-01
4.33148127570E+05	-1.24757058628E+01	-1.69294919344E+02	8.50966735829E+00	-1.79794660598E+02	-5.16075666008E+01	1.35725138344E+02	-5.96281279244E+00	-2.77644809949E-01
4.55339482165E+05	-1.25006994906E+01	-1.74817953158E+02	8.55742405556E+00	-1.79974127699E+02	-6.27621936783E+01	-3.91569392548E+01	-5.98523827116E+00	-3.05671136588E-01
4.77530836760E+05	-9.40193383342E+00	-1.74600829311E+02	8.53379235971E+00	1.79705368507E+02	-4.15181785643E+01	-7.01677834580E+01	-5.97117627451E+00	-3.12552252051E-01
4.99722191355E+05	-1.00508093901E+01	-1.75710716622E+02	8.56240484103E+00	1.79491316978E+02	-4.14928507549E+01	1.27332986903E+02	-5.95767927136E+00	-3.87868250170E-01
5.21913545950E+05	-1.08174569752E+01	1.72337819727E+02	8.54805443625E+00	1.79389727273E+02	-4.89209272032E+01	1.23394226009E+02	-5.97417632726E+00	-3.65762446637E-01
5.44104900545E+05	-1.07738088465E+01	-1.68119959894E+02	8.49072407563E+00	1.79139706017E+02	-6.44289982482E+01	-9.08261270955E+01	-5.96675259435E+00	-4.84019008991E-01
5.66296255139E+05	-1.14068868114E+01	1.77294326263E+02	8.56367015097E+00	1.78886593144E+02	-4.74038444385E+01	2.34725645247E+01	-5.98204895115E+00	-3.43224782184E-01
5.88487609734E+05	-1.38270336378E+01	-1.78637233218E+02	8.54553990092E+00	1.79075666240E+02	-4.54268944604E+01	-1.05821137520E+02	-5.96416689149E+00	-5.17457386613E-01
6.10678964329E+05	-8.73431226685E+00	1.74915152399E+02	8.52733675016E+00	1.78567201300E+02	-5.27695624069E+01	1.47379709557E+02	-5.98679817490E+00	-1.03637831303E-01
6.32870318924E+05	-1.03308562002E+01	-1.79846623120E+02	8.52845711425E+00	1.78504119508E+02	-4.49585109427E+01	1.28556076914E+02	-5.97805219492E+00	-4.80178764632E-01
6.55061673519E+05	-1.15377525544E+01	1.77567738924E+02	8.54546998232E+00	1.78437898991E+02	-4.96715859675E+01	-1.77135952098E+02	-5.97370435400E+00	-5.94677557434E-02
6.77253028114E+05	-1.01872397898E+01	1.74135480324E+02	8.56940521344E+00	1.77928284568E+02	-4.92879728290E+01	-1.06741979804E+02	-5.96329494494E+00	-5.94656010428E-01
6.99444382709E+05	-1.23663146384E+01	-1.79398285873E+02	8.57707936476E+00	1.78058385662E+02	-4.71981665446E+01	-1.62287698548E+02	-5.98555821404E+00	-4.94720526382E-01
7.21635737304E+05	-9.58553916551E+00	1.71042417534E+02	8.58265370423E+00	1.77677890523E+02	-4.19190828517E+01	-2.49292599090E+01	-5.95471722878E+00	-3.52054895222E-01
7.43827091899E+05	-8.08164078827E+00	-1.75689719592E+02	8.57351681409E+00	1.77714817928E+02	-4.32487883225E+01	6.64164920538E+01	-5.98367411033E+00	-4.35446847635E-01
7.66018446494E+05	-1.37352911169E+01	-1.62941952001E+02	8.57623364556E+00	1.77590869281E+02	-4.26673390231E+01	-1.56818653307E+02	-5.98127964375E+00	-4.31337664933E-01
7.88209801089E+05	-9.79318154419E+00	1.74025636441E+02	8.54717800253E+00	1.77324068972E+02	-4.64077288952E+01	-6.90698656651E+01	-5.97893406562E+00	-4.73172169779E-01
8.10401155684E+05	-9.75360980358E+00	-1.69615485815E+02	8.53819297466E+00	1.77113254819E+02	-5.03197333810E+01	-7.87974844474E+01	-5.96923688907E+00	-5.99192905645E-01
8.32592510279E+05	-1.15021481962E+01	1.63640517345E+02	8.58318008305E+00	1.77303652238E+02	-4.63401864288E+01	1.14613155057E+02	-5.96456091120E+00	-4.43877558776E-01
8.54783864874E+05	-9.65036490965E+00	1.75941288600E+02	8.57704994286E+00	1.76900020154E+02	-4.43546800910E+01	6.66910571502E+01	-5.93702683673E+00	-4.88366225132E-01
8.76975219469E+05	-1.09541579481E+01	-1.74028702529E+02	8.57088022926E+00	1.76726194275E+02	-4.99133517526E+01	1.48839262883E+02	-5.96372687876E+00	-6.05211779048E-01
8.99166574064E+05	-1.18433257511E+01	-1.78474856213E+02	8.61260206485E+00	1.76443298985E+02	-5.32684938443E+01	-6.10600786135E+01	-5.98916626672E+00	-5.60838586020E-01
9.21357928659E+05	-1.05504561383E+01	1.66863651950E+02	8.53149753910E+00	1.76472387473E+02	-4.10294029542E+01	1.55847281379E+02	-5.97519463437E+00	-5.42092967834E-01
9.43549283254E+05	-1.06516164787E+01	1.75990065794E+02	8.55635856021E+00	1.76215003057E+02	-4.24013991408E+01	7.45385510374E+01	-5.98299052144E+00	-6.35322398021E-01
9.65740637849E+05	-1.05605575373E+01	-1.79197060500E+02	8.56145010114E+00	1.76076755831E+02	-4.74495730644E+01	2.52003153029E+01	-5.96122225191E+00	-5.28746438919E-01
9.87931992444E+05	-1.02276455645E+01	-1.67432417469E+02	8.54188906208E+00	1.75904691310E+02	-4.77059284284E+01	-1.11968749160E+02	-5.99635359532E+00	-7.70457977199E-01
1.01012334704E+06	-9.36182805228E+00	1.77027899446E+02	8.57412133604E+00	1.75770565118E+02	-4.90213625721E+01	1.53933523269E+02	-5.99534245106E+00	-4.64996896717E-01
1.03231470163E+06	-1.05352772966E+01	1.72043544939E+02	8.55487216536E+00	1.75749687599E+02	-4.32761551566E+01	1.64853925861E+02	-5.96186006092E+00	-5.43279687046E-01
1.05450605623E+06	-1.02669207052E+01	-1.69881952510E+02	8.52979927030E+00	1.75819789587E+02	-5.05127077422E+01	1.34421835528E+02	-5.97515111850E+00	-5.56177356319E-01
1.07669741082E+06	-9.20735726111E+00	-1.70380698416E+02	8.54687061947E+00	1.75494309703E+02	-7.22423558895E+01	-1.50215157340E+02	-5.99353860690E+00	-6.04464913555E-01
1.09888876542E+06	-1.34345811661E+01	1.75117134905E+02	8.54976000058E+00	1.75143973675E+02	-5.27572950203E+01	1.08197235967E+02	-5.98628921762E+00	-6.27860330991E-01
1.12108012001E+06	-8.39027751239E+00	1.79940569163E+02	8.54688660979E+00	1.75094862394E+02	-6.13260760805E+01	-7.18726279310E+01	-5.95656069983E+00	-6.61427659942E-01
1.14327147461E+06	-1.08689201398E+01	1.79999365092E+02	8.54542163388E+00	1.74935504988E+02	-5.27835691497E+01	-1.62788873917E+02	-5.97457553026E+00	-8.27970553654E-01
1.16546282920E+06	-1.29418074719E+01	1.76019064221E+02	8.53117129803E+00	1.74729362106E+02	-4.98755045625E+01	-8.71962130895E+01	-5.96839105669E+00	-6.05579263362E-01
1.18765418380E+06	-1.00084473102E+01	-1.72092181741E+02	8.54981357275E+00	1.74923453995E+02	-4.88107723324E+01	5.33250601525E+01	-5.95636400797E+00	-6.64913215983E-01
1.20984553839E+06	-1.09033350710E+01	-1.79412367074E+02	8.55926037347E+00	1.74529458789E+02	-4.53266515239E+01	5.87201804407E+01	-5.95604589813E+00	-9.28853847223E-01
1.23203689299E+06	-8.45659220594E+00	-1.71360063074E+02	8.55640004008E+00	1.74638941064E+02	-4.35458877306E+01	-1.68619979623E+02	-6.00406981715E+00	-4.07882176980E-01
1.25422824758E+06	-1.15140517770E+01	-1.55465226091E+02	8.54980162591E+00	1.74516952446E+02	-6.11417301047E+01	1.80861727694E+01	-5.97102147243E+00	-5.10415873805E-01
1.27641960218E+06	-1.10534511592E+01	1.74813058384E+02	8.56480251810E+00	1.74284555802E+02	-4.89823802273E+01	8.25158144527E-01	-5.97777366095E+00	-5.73778035457E-01
1.29861095677E+06	-9.36180230155E+00	1.76620297506E+02	8.57804052928E+00	1.74130436671E+02	-4.77215391908E+01	8.80830748386E+01	-5.95276643351E+00	-6.08933765899E-01
1.32080231137E+06	-9.35399047494E+00	1.75333512407E+02	8.56578539782E+00	1.74021603110E+02	-5.49244082021E+01	9.50139001214E+01	-5.97021647742E+00	-1.14545116747E+00
1.34299366596E+06	-1.08518551774E+01	1.78405635644E+02	8.53372442086E+00	1.73810909428E+02	-4.26343587976E+01	-1.35236379565E+02	-5.97644629021E+00	-7.99037097729E-01
1.36518502056E+06	-1.18981520918E+01	-1.75779719812E+02	8.56625616830E+00	1.73686840350E+02	-4.97732834666E+01	1.53042815244E+01	-5.95569042744E+00	-6.83584773697E-01
1.38737637515E+06	-1.05852921730E+01	-1.75706334067E+02	8.54938731560E+00	1.73546429110E+02	-4.31970459151E+01	-1.06061527439E+02	-5.97707741898E+00	-7.89675164707E-01
1.40956772975E+06	-1.04124291903E+01	1.74094008943E+02	8.50476468239E+00	1.73350750253E+02	-4.93899825733E+01	1.33513928420E+02	-5.95073345054E+00	-6.23005928772E-01
1.43175908434E+06	-8.65101234796E+00	-1.72782098914E+02	8.59592646886E+00	1.73318094644E+02	-4.53664855394E+01	-8.88961246504E+01	-5.98300000984E+00	-6.97664037433E-01
1.45395043894E+06	-1.12814579787E+01	1.79267919771E+02	8.55983862722E+00	1.73246120723E+02	-4.64497691524E+01	-1.55291166417E+01	-5.97190191753E+00	-8.57537442059E-01
1.47614179353E+06	-9.06590012400E+00	1.65156173243E+02	8.57585551079E+00	1.73117592734E+02	-4.72183487617E+01	2.66403327477E+01	-5.97158321749E+00	-6.93376860099E-01
1.49833314813E+06	-9.10092928421E+00	-1.77617192065E+02	8.54652377658E+00	1.72977083395E+02	-6.72310090359E+01	-9.50538550989E+01	-5.97439056944E+00	-7.89234678533E-01
1.52052450272E+06	-1.09792123514E+01	1.75566220191E+02	8.52847828391E+00	1.72717497298E+02	-5.45038878327E+01	-1.29925537259E+02	-5.97622629752E+00	-7.87378200687E-01
1.54271585732E+06	-9.95519877671E+00	-1.77964955177E+02	8.56359209226E+00	1.72785081533E+02	-4.23489127127E+01	1.38931697930E+02	-5.95629295760E+00	-8.47670882511E-01
1.56490721191E+06	-1.01447381936E+01	1.72346439768E+02	8.59184507686E+00	1.72665605641E+02	-4.63069892677E+01	-9.27378357235E+01	-5.97358262024E+00	-8.01176632920E-01
1.58709856651E+06	-9.08157905337E+00	1.70937218720E+02	8.56666836779E+00	1.72527341797E+02	-5.67988649573E+01	1.13574620401E+02	-5.99939136605E+00	-7.11343748815E-01
1.60928992110E+06	-1.02721258220E+01	1.78083525621E+02	8.54973624911E+00	1.72160623941E+02	-4.60924001243E+01	-1.09286906453E+02	-5.98336881349E+00	-8.61884923179E-01
1.63148127570E+06	-9.09941493592E+00	1.73144495596E+02	8.58015531524E+00	1.72127475653E+02	-4.42903588806E+01	-6.55775773983E+00	-5.99102778469E+00	-8.28141879051E-01
1.65367263029E+06	-1.04680537599E+01	-1.79244550045E+02	8.59247639261E+00	1.72023229291E+02	-4.13938738599E+01	-6.08021970242E+01	-5.98707868576E+00	-8.72074069453E-01
1.67586398489E+06	-1.01683250858E+01	-1.73643652376E+02	8.55112242810E+00	1.72153492681E+02	-4.99965576049E+01	-5.55943118784E+01	-5.97674182417E+00	-7.70638569040E-01
1.69805533948E+06	-9.40661767606E+00	-1.79633213007E+02	8.53327533219E+00	1.71883522992E+02	-4.12697806214E+01	9.24858818856E+00	-5.96627375051E+00	-9.06504923880E-01
1.72024669408E+06	-8.52253958681E+00	1.77862639092E+02	8.56020198996E+00	1.71623416979E+02	-4.93724058899E+01	-2.48856749546E+01	-5.99049546045E+00	-9.30536313847E-01
1.74243804867E+06	-8.49782775089E+00	1.75249438985E+02	8.54981952925E+00	1.71494970416E+02	-5.31741152902E+01	1.40693064333E+02	-5.94499962105E+00	-8.71359783238E-01
1.76462940327E+06	-1.05257775623E+01	-1.78938586180E+02	8.51018809565E+00	1.71745756613E+02	-4.42606568568E+01	-5.41939718885E+01	-5.96314891942E+00	-7.89005493151E-01
1.78682075786E+06	-1.00115191502E+01	1.76166508202E+02	8.58051606957E+00	1.71423521565E+02	-4.40863603107E+01	-8.19569075582E+01	-5.97762537227E+00	-8.08888449562E-01
1.80901211246E+06	-9.31950280078E+00	-1.68380018581E+02	8.58694017687E+00	1.71526240846E+02	-5.77678128855E+01	-6.35902190387E+01	-5.99026488182E+00	-9.46457712995E-01
1.83120346705E+06	-1.31692437506E+01	-1.66679385626E+02	8.56962030626E+00	1.70953358948E+02	-4.21094047992E+01	2.12958554139E+01	-5.96464859634E+00	-1.03561098763E+00
1.85339482165E+06	-1.20900001117E+01	1.73563762988E+02	8.56056821752E+00	1.71007945050E+02	-5.34091699077E+01	-1.37656188244E+02	-5.95724294461E+00	-7.29982221736E-01
1.87558617624E+06	-1.09651378484E+01	1.75442758703E+02	8.50917625705E+00	1.70870911801E+02	-5.99259298655E+01	-1.02566355622E+02	-5.95965341194E+00	-9.24030198306E-01
1.89777753084E+06	-9.50596779286E+00	-1.70749317994E+02	8.55817682250E+00	1.70821484348E+02	-4.97370416553E+01	1.12910163032E+02	-5.96682562990E+00	-8.77769947859E-01
1.91996888543E+06	-1.21811190665E+01	1.72260689594E+02	8.50797762720E+00	1.70602255210E+02	-4.28634360022E+01	-8.62700296644E+01	-5.98072327149E+00	-1.05573917843E+00
1.94216024003E+06	-1.10617964644E+01	1.72241798295E+02	8.54604648964E+00	1.70560673516E+02	-5.29508017682E+01	1.63375068648E+02	-5.97867261547E+00	-7.47126420517E-01
1.96435159462E+06	-1.02471825519E+01	-1.75865716195E+02	8.54413142645E+00	1.70213799565E+02	-4.13013544848E+01	-1.71048023281E+02	-5.97498944458E+00	-8.56430397490E-01
1.98654294922E+06	-1.08548595395E+01	-1.78102380003E+02	8.58914626900E+00	1.70362487694E+02	-4.18927550901E+01	-2.15544735349E+01	-5.96185088890E+00	-9.93809336918E-01
2.00873430381E+06	-9.25514644186E+00	-1.74856640294E+02	8.55106325630E+00	1.70190629874E+02	-6.18535166375E+01	-1.35706303846E+02	-5.97449023894E+00	-8.75462946978E-01
2.03092565841E+06	-1.30784768452E+01	1.65541777812E+02	8.54821168540E+00	1.70379954283E+02	-4.45107115488E+01	-1.03780593909E+02	-5.96617380045E+00	-9.30783196351E-01
2.05311701300E+06	-1.12244291058E+01	-1.75505161164E+02	8.52169388524E+00	1.69933277580E+02	-4.16852188209E+01	-2.05654955821E+01	-5.96497275753E+00	-1.03004805284E+00
2.07530836760E+06	-1.15942181769E+01	1.68058682698E+02	8.52562055436E+00	1.69670760942E+02	-3.98153820492E+01	3.73269590413E+01	-5.93692734695E+00	-9.49936525907E-01
2.09749972219E+06	-1.07966096307E+01	1.77787008553E+02	8.54251220347E+00	1.69686444079E+02	-4.54212403718E+01	-8.32743743845E+01	-5.95811738005E+00	-1.12597377307E+00
2.11969107679E+06	-1.12100049762E+01	-1.79715011923E+02	8.54162090710E+00	1.69730334579E+02	-4.74786706682E+01	-8.80813482197E+01	-5.98723982196E+00	-1.21397139036E+00
2.14188243138E+06	-9.63519522368E+00	1.79967446239E+02	8.56496373890E+00	1.69520060998E+02	-4.51756584586E+01	-2.46297395716E+01	-5.97479293261E+00	-1.01996035118E+00
2.16407378598E+06	-8.60549292492E+00	1.65328138202E+02	8.54875129878E+00	1.69256852320E+02	-5.11080455083E+01	1.96613834361E+01	-5.95397957815E+00	-1.12518380785E+00
2.18626514057E+06	-8.23151962860E+00	1.73397807871E+02	8.57940723438E+00	1.69119380973E+02	-4.76657208884E+01	1.22709469072E+02	-5.97949458290E+00	-1.35008935957E+00
2.20845649517E+06	-9.14573976395E+00	-1.77917226027E+02	8.58338044883E+00	1.69147965140E+02	-4.63170481599E+01	7.91990434851E+01	-5.96075893429E+00	-9.29228743978E-01
2.23064784976E+06	-9.19373579602E+00	1.78313293031E+02	8.53988901934E+00	1.69250269648E+02	-4.71061484577E+01	1.26244644774E+02	-5.96555686936E+00	-1.06810530641E+00
2.25283920436E+06	-1.05842484282E+01	1.78371175998E+02	8.52141640647E+00	1.69033518132E+02	-4.60427313622E+01	-1.63304133185E+02	-5.96686242316E+00	-1.03819654069E+00
2.27503055895E+06	-1.03489327583E+01	1.69131069425E+02	8.53802651170E+00	1.68765924490E+02	-5.11298368286E+01	-5.36045750043E+01	-5.94896690829E+00	-1.11294654667E+00
2.29722191355E+06	-1.08114409957E+01	-1.74872616751E+02	8.52821592100E+00	1.68366025009E+02	-4.86526153300E+01	1.02857464033E+02	-5.96608252603E+00	-9.34437474649E-01
2.31941326814E+06	-8.79623497713E+00	1.71035768778E+02	8.54566139319E+00	1.68500429867E+02	-4.73231734891E+01	1.16585903421E+02	-5.96863153712E+00	-1.30036130807E+00
2.34160462274E+06	-1.03732844467E+01	1.78105527752E+02	8.55009591232E+00	1.68372793356E+02	-4.22710048662E+01	-8.23743013573E+01	-5.96546876536E+00	-1.00645353513E+00
2.36379597733E+06	-9.44621276748E+00	1.77870045437E+02	8.53520479351E+00	1.68282339935E+02	-4.48684435060E+01	1.42656059310E+02	-5.93616409517E+00	-1.11054150556E+00
2.38598733193E+06	-1.08884435803E+01	1.73707812718E+02	8.51449304371E+00	1.68297850921E+02	-4.39812339369E+01	7.84771219885E+00	-5.97101222284E+00	-1.07193068649E+00
2.40817868652E+06	-1.08214322003E+01	1.77283194429E+02	8.53981623481E+00	1.68079898243E+02	-4.73324462272E+01	-7.86258468184E+01	-5.98435662559E+00	-9.06812775312E-01
2.43037004112E+06	-1.07560981638E+01	-1.79958063495E+02	8.52473037603E+00	1.67971360583E+02	-4.20296379108E+01	-5.31969157357E+00	-5.96260198513E+00	-1.38206910818E+00
2.45256139571E+06	-1.03791009299E+01	-1.68903149801E+02	8.53511476337E+00	1.68302860936E+02	-5.07627829754E+01	1.20623536600E+02	-5.96148971160E+00	-8.44844918654E-01
2.47475275031E+06	-1.08390490578E+01	-1.76912942515E+02	8.54137508787E+00	1.67685920484E+02	-4.70865734005E+01	5.34828089946E+01	-5.99554443799E+00	-1.14954209999E+00
2.49694410490E+06	-1.17699080744E+01	-1.77152140479E+02	8.55137468296E+00	1.67809474431E+02	-4.17501940549E+01	1.32477022942E+02	-5.99626283725E+00	-8.93695282583E-01
2.51913545950E+06	-8.84393572080E+00	-1.78158490368E+02	8.55978905547E+00	1.67622622068E+02	-4.55979497628E+01	-1.16422030001E+02	-5.97736802737E+00	-1.19183922401E+00
2.54132681409E+06	-1.02551404258E+01	1.76876267566E+02	8.56711816295E+00	1.67445855105E+02	-4.60161683616E+01	8.87898555667E+01	-5.97775076828E+00	-1.08765981691E+00
2.56351816869E+06	-1.00109253523E+01	-1.72904924430E+02	8.57120793474E+00	1.67026803422E+02	-5.35185571687E+01	-1.43456380589E+02	-5.98611976741E+00	-1.18084622469E+00
2.58570952328E+06	-9.39929878881E+00	-1.68225687418E+02	8.54284281675E+00	1.67212774634E+02	-5.19838961006E+01	8.25293292842E+01	-5.97105393465E+00	-1.14719320234E+00
2.60790087788E+06	-8.85371215277E+00	1.74737668778E+02	8.58484830683E+00	1.66783110196E+02	-4.99939564050E+01	8.12977828608E+01	-5.96830162267E+00	-1.19244706359E+00
2.63009223247E+06	-1.28074556252E+01	1.75097461291E+02	8.54630406911E+00	1.67042714507E+02	-4.76063319684E+01	6.23992740253E+01	-5.99417481030E+00	-1.14358905882E+00
2.65228358707E+06	-1.14288101292E+01	1.79863803692E+02	8.55189409460E+00	1.66645976532E+02	-4.78853075076E+01	-1.68754935143E+02	-5.94338449484E+00	-1.63597400839E+00
2.67447494166E+06	-1.05312705034E+01	1.72114730602E+02	8.56686174575E+00	1.66651108141E+02	-6.21543711322E+01	1.05172393399E+02	-5.95464981284E+00	-1.45694529040E+00
2.69666629626E+06	-1.04014444434E+01	1.71626867175E+02	8.54897958503E+00	1.66695482391E+02	-5.65168284708E+01	-1.21053920433E+02	-5.99736953630E+00	-1.38932969507E+00
2.71885765085E+06	-9.93305320341E+00	1.67854659155E+02	8.51686871750E+00	1.66150303825E+02	-5.41087583854E+01	9.02804873704E+00	-5.98094560168E+00	-1.38857450222E+00
2.74104900545E+06	-9.90666539288E+00	1.77456979206E+02	8.54186082293E+00	1.66226244706E+02	-5.37149611916E+01	3.96065095327E+01	-5.96639168575E+00	-1.28754738654E+00
2.76324036004E+06	-1.14342411080E+01	-1.77448636271E+02	8.55368433218E+00	1.66406765900E+02	-4.44043045272E+01	6.46405306083E+01	-5.94502392325E+00	-1.42119660804E+00
2.78543171463E+06	-8.87032362594E+00	1.76084140172E+02	8.53546875821E+00	1.66053449767E+02	-4.45999447091E+01	5.85702959404E+01	-5.97029697024E+00	-1.43539081817E+00
2.80762306923E+06	-8.93182971009E+00	-1.78487257169E+02	8.55658139313E+00	1.66003100997E+02	-4.83448903939E+01	3.15760523354E+00	-5.96637727813E+00	-1.48660378496E+00
2.82981442382E+06	-9.79985849493E+00	-1.79687076566E+02	8.53331443111E+00	1.65755507419E+02	-4.31908159634E+01	1.49559170623E+02	-5.95435879990E+00	-1.37289755617E+00
2.85200577842E+06	-1.22459898462E+01	1.75910750330E+02	8.51887056674E+00	1.65917280803E+02	-4.78233906398E+01	1.66248140096E+01	-5.97729585471E+00	-1.35613020508E+00
2.87419713301E+06	-9.92165198229E+00	1.78053095143E+02	8.59048974159E+00	1.65766898093E+02	-5.10064704553E+01	-6.29858171862E+01	-5.94402915673E+00	-1.21051407008E+00
