# Hz S DB R 50
! CMT, M5065, 19127446, 24.2.4/2
! Date: 10/29/2024 12:31:59 PM
! Data: Format (Calibration Info)
! Freq	S11:dB/Ang(F2)	S21:dB/Ang(F2)	S12:dB/Ang(F2)	S22:dB/Ang(F2)
3.00000000000E+05	-9.85376224315E+00	-1.48603253193E+02	1.03977885527E+01	-1.77998672775E+02	-4.16904120103E+01	3.00704109215E+01	-5.99818938674E+00	-2.38947548675E-01
3.22191354595E+05	-8.55083791825E+00	1.57327776653E+02	1.03466434255E+01	-1.78578144285E+02	-4.19506488055E+01	-6.62868157077E+01	-5.98097455710E+00	-4.47691512388E-01
3.44382709190E+05	-1.39465853836E+01	-1.70955896187E+02	1.03730516749E+01	-1.78663583707E+02	-4.20768051978E+01	-2.14840680880E+01	-5.98764610836E+00	-3.86163244148E-01
3.66574063785E+05	-7.93711117569E+00	1.60079752993E+02	1.04370790458E+01	-1.79015915672E+02	-4.42981095550E+01	2.22710844384E+01	-5.98092801954E+00	-2.26980414632E-01
3.88765418380E+05	-1.23815083902E+01	-1.72655055111E+02	1.04172273140E+01	-1.79450941202E+02	-3.51932796839E+01	1.61020158932E+02	-5.97167925027E+00	-4.11784836304E-01
4.10956772975E+05	-1.12339207499E+01	1.56724214199E+02	1.03741285670E+01	-1.79693232015E+02	-3.58032127242E+01	5.10840507050E+01	-5.95978960253E+00	-2.20152685055E-01
4.33148127570E+05	-9.26864387265E+00	-1.67827137400E+02	1.04273493113E+01	-1.79959703571E+02	-3.88755414028E+01	-1.29716493799E+02	-6.00754129607E+00	-3.19013329976E-01
4.55339482165E+05	-7.63140013468E+00	1.62205133095E+02	1.04377926144E+01	1.79923003751E+02	-3.25875794836E+01	-1.54008489937E+02	-6.02728254191E+00	-1.52316097963E-01
4.77530836760E+05	-8.50669130707E+00	-1.71900823535E+02	1.04248570738E+01	1.79312184341E+02	-3.72108858841E+01	3.87683011344E+01	-6.04981556202E+00	-3.75366759541E-01
4.99722191355E+05	-1.36199842347E+01	-1.68474433560E+02	1.04466375465E+01	1.79131182666E+02	-3.86855528051E+01	1.68962130708E+02	-5.94083926207E+00	-1.26293802595E-01
5.21913545950E+05	-6.87963747364E+00	1.68953282330E+02	1.04423536883E+01	1.79102158839E+02	-3.81581663525E+01	1.16291614826E+02	-5.97818985556E+00	-2.83981045494E-01
5.44104900545E+05	-8.41609707918E+00	-1.76945322435E+02	1.04489582437E+01	1.79068338947E+02	-3.59672955729E+01	-1.94559650315E+01	-5.97859458946E+00	-4.57877305355E-01
5.66296255139E+05	-9.33740457076E+00	1.69331138672E+02	1.04201363976E+01	1.78179876481E+02	-4.74972860971E+01	2.99266718392E+01	-5.99045578101E+00	-3.47831098638E-01
5.88487609734E+05	-9.93540432307E+00	-1.78766766561E+02	1.04029293565E+01	1.78577648113E+02	-5.51616269780E+01	-1.29412373880E+02	-5.95500072867E+00	-5.00126996923E-01
6.10678964329E+05	-1.73483354926E+01	1.68001681807E+02	1.03795897791E+01	1.78500582742E+02	-4.31352237887E+01	-1.30434762064E+02	-5.98219286702E+00	-1.21824306429E-01
6.32870318924E+05	-8.98901244808E+00	-1.63766563285E+02	1.04360969139E+01	1.77886400850E+02	-3.87426426979E+01	-1.31382123523E+02	-5.99528298027E+00	-5.41046645886E-01
6.55061673519E+05	-9.08278041116E+00	1.75109288037E+02	1.04221304691E+01	1.77951062885E+02	-4.64622784387E+01	-9.71813614416E+01	-5.95040905805E+00	-2.46736365278E-01
6.77253028114E+05	-1.13053497037E+01	-1.66872923127E+02	1.03858627488E+01	1.77527431975E+02	-5.20103784115E+01	5.64090780349E+01	-5.94619142539E+00	-5.15300050182E-01
6.99444382709E+05	-9.40154103501E+00	1.79511203014E+02	1.04151635861E+01	1.77690409893E+02	-3.81921594404E+01	-1.52272722413E+02	-5.94990448370E+00	-6.19579862808E-01
7.21635737304E+05	-1.41472075471E+01	-1.52392728326E+02	1.04606780325E+01	1.77272119027E+02	-4.42614035807E+01	1.15689700049E+02	-5.96329386977E+00	-5.18377678709E-01
7.43827091899E+05	-7.38535973687E+00	1.74459030200E+02	1.04388948762E+01	1.77290134407E+02	-3.98304308660E+01	1.16726228957E+02	-5.95956396417E+00	-6.23921620665E-01
7.66018446494E+05	-9.53508155706E+00	1.73726483740E+02	1.04461887970E+01	1.76934906953E+02	-3.70148597497E+01	9.49826924821E+01	-5.96796598010E+00	-3.77432163445E-01
7.88209801089E+05	-1.35652212613E+01	-1.74525478038E+02	1.04224937363E+01	1.77013233043E+02	-3.67753970611E+01	-1.57448197006E+02	-5.99587254463E+00	-3.94449420550E-01
8.10401155684E+05	-9.05006148946E+00	1.73394208319E+02	1.04578274539E+01	1.76636639031E+02	-3.89132326607E+01	-8.18147244376E+01	-5.99412030940E+00	-5.48741996782E-01
8.32592510279E+05	-9.75536850719E+00	1.75433073988E+02	1.04311485116E+01	1.76648901858E+02	-3.69646614283E+01	7.31778687284E+01	-5.96976208772E+00	-6.85628004949E-01
8.54783864874E+05	-1.23820963400E+01	1.64217397326E+02	1.04420502058E+01	1.76603884143E+02	-4.24818910174E+01	1.75794144383E+02	-5.96538124436E+00	-4.08209395014E-01
8.76975219469E+05	-1.33986313196E+01	-1.59756359007E+02	1.03962203543E+01	1.76591851194E+02	-3.84630091059E+01	-1.42173479670E+02	-5.99464208207E+00	-5.84295499917E-01
8.99166574064E+05	-1.28936830819E+01	-1.63276227406E+02	1.04286139603E+01	1.76630853403E+02	-4.16756704093E+01	1.36280564177E+01	-5.98006796915E+00	-3.98920033750E-01
9.21357928659E+05	-1.13447692478E+01	1.60337098555E+02	1.04827642454E+01	1.75951284362E+02	-4.89172856989E+01	-9.70252715327E+01	-5.95260899757E+00	-6.73688446690E-01
9.43549283254E+05	-9.01951585275E+00	-1.73827437921E+02	1.04333758843E+01	1.75990909198E+02	-3.56837489847E+01	8.31120782273E+01	-5.94043681543E+00	-2.97201471890E-01
9.65740637849E+05	-5.80349439642E+00	-1.71416561076E+02	1.03778993305E+01	1.75733514680E+02	-3.77929373540E+01	1.53915192194E+02	-5.99400214209E+00	-5.94509278327E-01
9.87931992444E+05	-1.12746495611E+01	-1.67945658101E+02	1.04217932913E+01	1.75852339043E+02	-3.63459860865E+01	-3.35662162494E+01	-5.96578377099E+00	-6.32248318953E-01
1.01012334704E+06	-1.05173462617E+01	-1.70498886617E+02	1.03840339111E+01	1.75032119667E+02	-4.35469316051E+01	-9.15122903905E+01	-5.97667719102E+00	-7.35397889052E-01
1.03231470163E+06	-9.14247168826E+00	1.73908343506E+02	1.03897252562E+01	1.75047646242E+02	-3.74661523454E+01	-2.69893367638E+01	-6.00084185800E+00	-7.71635067859E-01
1.05450605623E+06	-8.76741561757E+00	-1.75887524807E+02	1.05028534521E+01	1.75593101054E+02	-3.79123326734E+01	6.82539087951E+01	-5.99281121256E+00	-5.94763855059E-01
1.07669741082E+06	-1.37776793705E+01	-1.79020635371E+02	1.03931473472E+01	1.74897688544E+02	-4.25430553735E+01	1.60670276639E+02	-5.99373465488E+00	-4.05914527877E-01
1.09888876542E+06	-1.11779124506E+01	-1.65085437411E+02	1.04186720347E+01	1.74863456100E+02	-3.90222177162E+01	1.61454485161E+02	-5.96707605475E+00	-7.44391752760E-01
1.12108012001E+06	-9.08040435262E+00	-1.77228624012E+02	1.04053315843E+01	1.74690744924E+02	-4.48965450437E+01	1.38713098153E+02	-5.95095894936E+00	-6.65282379582E-01
1.14327147461E+06	-1.06096484308E+01	-1.77071424112E+02	1.03771894590E+01	1.74021881989E+02	-4.65331828507E+01	-9.22423040407E+01	-5.96425726287E+00	-5.87390403166E-01
1.16546282920E+06	-1.93522297596E+01	-1.62054317096E+02	1.04499907387E+01	1.74838747091E+02	-4.96685752757E+01	-1.18428457922E+02	-5.96754163944E+00	-6.38802020033E-01
1.18765418380E+06	-9.27036695149E+00	-1.78032944276E+02	1.04373196027E+01	1.74198396457E+02	-4.15617613640E+01	-6.54796531788E+01	-5.95446958800E+00	-6.36726744338E-01
1.20984553839E+06	-9.30208616904E+00	1.64601628086E+02	1.04556749711E+01	1.74173133783E+02	-3.89460399117E+01	-1.16843959100E+02	-5.91722551481E+00	-1.09579748447E+00
1.23203689299E+06	-1.22371960842E+01	-1.63454515456E+02	1.03855018333E+01	1.73403313780E+02	-4.59623856523E+01	-9.26747301823E+01	-6.01178946864E+00	-5.51011897104E-01
1.25422824758E+06	-1.31211645403E+01	-1.63461491215E+02	1.04542752011E+01	1.73860920310E+02	-4.35755912563E+01	7.47696790696E-01	-6.00412364334E+00	-6.47224898628E-01
1.27641960218E+06	-1.20526336559E+01	-1.68365808836E+02	1.04308875986E+01	1.73366272458E+02	-3.39716500798E+01	-1.12276600790E+02	-5.96962036507E+00	-8.31027561371E-01
1.29861095677E+06	-8.40481424173E+00	-1.55962254283E+02	1.04487887472E+01	1.73379169759E+02	-4.54325904772E+01	-1.13464657859E+01	-5.97415707715E+00	-8.15903656057E-01
1.32080231137E+06	-1.15568710175E+01	1.71298628178E+02	1.04628712103E+01	1.73333145761E+02	-3.53579345771E+01	5.76786410812E+01	-5.94907187295E+00	-1.13420506925E+00
1.34299366596E+06	-1.07725887945E+01	-1.61933665326E+02	1.04540666294E+01	1.73194885907E+02	-4.17297683814E+01	-1.25635815248E+02	-5.93460292599E+00	-6.65288572633E-01
1.36518502056E+06	-6.69697383556E+00	1.71402012340E+02	1.03420550781E+01	1.72773958233E+02	-3.80306749568E+01	-3.97834667710E+01	-5.99992885237E+00	-9.25422582434E-01
1.38737637515E+06	-9.32948395441E+00	1.79371403602E+02	1.04244403052E+01	1.72775340722E+02	-4.16183941236E+01	-1.31322435077E+02	-5.98861498996E+00	-5.71588922132E-01
1.40956772975E+06	-1.38341566657E+01	-1.78714909066E+02	1.04125894972E+01	1.72726319221E+02	-4.85838740160E+01	-4.91218562134E+01	-5.97966869150E+00	-7.02191249477E-01
1.43175908434E+06	-8.67864115647E+00	1.64675647450E+02	1.04189471208E+01	1.72351558209E+02	-4.44164587945E+01	-3.72154694663E+01	-6.00694368161E+00	-7.21736289511E-01
1.45395043894E+06	-6.81647489673E+00	-1.78202586402E+02	1.05009573839E+01	1.72525056721E+02	-3.73685335354E+01	7.85003120687E+01	-5.91780334349E+00	-1.00370707727E+00
1.47614179353E+06	-1.05768866863E+01	-1.79103290192E+02	1.03753383343E+01	1.72161877774E+02	-4.00659061343E+01	7.19261797224E+01	-5.94867044317E+00	-7.48708493420E-01
1.49833314813E+06	-1.18431570854E+01	-1.63645372395E+02	1.04308092967E+01	1.72063085549E+02	-5.24037297659E+01	-1.13564081278E+00	-5.97924086774E+00	-8.29049442066E-01
1.52052450272E+06	-8.60850687135E+00	-1.74369846299E+02	1.04333182376E+01	1.72240009943E+02	-4.78961237349E+01	-2.94425312511E+01	-5.99215717337E+00	-8.66238300751E-01
1.54271585732E+06	-1.04564259841E+01	-1.66361976333E+02	1.04274621648E+01	1.71705133385E+02	-3.83325652730E+01	-1.76643536965E+02	-5.97172276466E+00	-7.65658027492E-01
1.56490721191E+06	-1.12167926358E+01	-1.66208210185E+02	1.04084911117E+01	1.71748750156E+02	-4.08327418927E+01	-1.88697225907E+01	-5.98460433865E+00	-5.84649948674E-01
1.58709856651E+06	-9.22856002563E+00	1.69950151103E+02	1.03936552916E+01	1.71421865035E+02	-5.29681818960E+01	7.48507047233E+01	-5.96044736258E+00	-7.58593398080E-01
1.60928992110E+06	-7.84714174346E+00	1.73595266132E+02	1.04566669184E+01	1.71182731625E+02	-4.38561109293E+01	-1.57593626323E+02	-5.96645481765E+00	-8.95148652636E-01
1.63148127570E+06	-1.36215508759E+01	-1.76783945462E+02	1.04599094914E+01	1.71470499071E+02	-4.18234977284E+01	-2.38486722496E+01	-5.95501718102E+00	-4.98307007978E-01
1.65367263029E+06	-1.18581487719E+01	-1.69252370267E+02	1.03873476454E+01	1.70850558678E+02	-3.76849223656E+01	1.11284007027E+02	-5.95270837362E+00	-8.14287788845E-01
1.67586398489E+06	-1.14333000503E+01	-1.70264812608E+02	1.04768229116E+01	1.71089661053E+02	-3.96378997498E+01	-1.40980449599E+02	-5.94917038950E+00	-8.30807490969E-01
1.69805533948E+06	-8.50102828014E+00	-1.68766017635E+02	1.04199567074E+01	1.70913873187E+02	-3.74423620563E+01	7.72225863730E+01	-5.97515048510E+00	-9.97998994043E-01
1.72024669408E+06	-1.01499339245E+01	1.71971914560E+02	1.04152511971E+01	1.70922364612E+02	-3.56368491540E+01	6.64114738162E+01	-5.99872840064E+00	-9.22874223198E-01
1.74243804867E+06	-9.70607427237E+00	-1.77852880617E+02	1.03909818519E+01	1.71151388445E+02	-4.01423555258E+01	-1.54137391202E+02	-5.96817635494E+00	-8.62752790010E-01
1.76462940327E+06	-1.14410093431E+01	1.69280410394E+02	1.04480739978E+01	1.70498661018E+02	-3.69988816426E+01	-9.15042849991E+01	-5.97552248147E+00	-9.15923997119E-01
1.78682075786E+06	-1.13953363725E+01	-1.58691104415E+02	1.04542409188E+01	1.70895577111E+02	-3.87021967115E+01	-7.17720324894E+01	-5.95120960187E+00	-1.04772365089E+00
1.80901211246E+06	-1.28771151106E+01	-1.78885433297E+02	1.03939230867E+01	1.70633259028E+02	-3.25545984284E+01	1.59321735435E+02	-5.97427871806E+00	-9.30617777135E-01
1.83120346705E+06	-1.37376847903E+01	-1.47975784713E+02	1.04241071251E+01	1.70464353223E+02	-4.02188465556E+01	-2.34282311782E+01	-5.91645350671E+00	-8.01196328438E-01
1.85339482165E+06	-1.01717109658E+01	-1.76571333666E+02	1.04387124408E+01	1.70066372031E+02	-3.66259069245E+01	-7.34947095847E+01	-5.97504570495E+00	-8.58788843893E-01
1.87558617624E+06	-1.03619984699E+01	-1.66620725618E+02	1.04658397884E+01	1.70224114705E+02	-4.12476873266E+01	1.75399774444E+02	-5.97111796653E+00	-1.07204887979E+00
1.89777753084E+06	-1.00325436331E+01	-1.72669174882E+02	1.03977741615E+01	1.70238284690E+02	-3.41208674208E+01	5.26467473916E+00	-5.94321946539E+00	-1.43504035943E+00
1.91996888543E+06	-9.01628191763E+00	-1.79856398192E+02	1.04234610997E+01	1.69589722090E+02	-4.24253027603E+01	1.35518656968E+02	-5.98998875506E+00	-1.07778109780E+00
1.94216024003E+06	-8.92411491935E+00	-1.72838343188E+02	1.04136102223E+01	1.69742158351E+02	-3.34885170429E+01	7.12889556291E+01	-5.96553540013E+00	-9.50316843792E-01
1.96435159462E+06	-7.67984921939E+00	-1.66629551363E+02	1.03875931125E+01	1.69628256799E+02	-3.91746232136E+01	-9.10012689847E+01	-5.95970010510E+00	-1.09674841167E+00
1.98654294922E+06	-6.13700513831E+00	1.61273084663E+02	1.04319609746E+01	1.69192607717E+02	-3.75394506271E+01	-4.24206131734E+01	-5.97017404917E+00	-9.16555781407E-01
2.00873430381E+06	-1.04125533476E+01	-1.68733951457E+02	1.04598927489E+01	1.69304685130E+02	-4.10291776178E+01	-3.38513188365E+01	-5.97870547159E+00	-8.33596134409E-01
2.03092565841E+06	-7.91522276392E+00	1.69260933417E+02	1.03660393279E+01	1.69113415768E+02	-3.57737783201E+01	1.40863482549E+02	-5.95370117505E+00	-7.52203283457E-01
2.05311701300E+06	-1.05530715437E+01	-1.72044097806E+02	1.04337598603E+01	1.68970116190E+02	-3.56247882638E+01	5.30933598387E+01	-5.96144731995E+00	-9.69126594529E-01
2.07530836760E+06	-1.25260327936E+01	-1.60995478740E+02	1.04275169836E+01	1.68550162790E+02	-3.56952538019E+01	-6.64843751286E+01	-5.94105505883E+00	-1.15214571440E+00
2.09749972219E+06	-7.98001959924E+00	1.62908293076E+02	1.04138817012E+01	1.68388813303E+02	-4.42254625736E+01	-3.83096245788E-01	-5.97352551546E+00	-9.66525173241E-01
2.11969107679E+06	-1.08781495682E+01	1.74881354064E+02	1.04585026157E+01	1.68719202948E+02	-4.83474847806E+01	1.72759065053E+02	-5.95533188763E+00	-1.02596161319E+00
2.14188243138E+06	-1.04779658297E+01	-1.74288474681E+02	1.04988046991E+01	1.68389074852E+02	-4.88850613195E+01	-1.27047860674E+02	-5.94334545174E+00	-1.07908754205E+00
2.16407378598E+06	-1.08535360668E+01	1.73678892018E+02	1.04090644455E+01	1.68248022856E+02	-4.23036243569E+01	-2.06908020775E+01	-5.99952367839E+00	-8.71753488460E-01
2.18626514057E+06	-8.59891246708E+00	-1.63717318987E+02	1.04020576844E+01	1.67676062561E+02	-3.72613945846E+01	-6.52485793576E+01	-5.98642220164E+00	-1.01511147232E+00
2.20845649517E+06	-8.11536772698E+00	-1.71576372190E+02	1.04237984437E+01	1.68080622985E+02	-4.00046264594E+01	-2.05157599383E+00	-5.94851381639E+00	-6.09839860511E-01
2.23064784976E+06	-9.74700503215E+00	-1.57650864400E+02	1.04074870149E+01	1.67620065909E+02	-4.43485664672E+01	-1.74249040158E+02	-5.95510445739E+00	-1.22154452421E+00
2.25283920436E+06	-1.09836505806E+01	1.72568538626E+02	1.04450675094E+01	1.67927997730E+02	-4.53184550221E+01	-4.34990507720E+01	-5.95721500151E+00	-1.05796263844E+00
2.27503055895E+06	-9.13686045522E+00	1.74765921663E+02	1.04328165603E+01	1.67933098500E+02	-3.86386062413E+01	-8.34104264523E+01	-5.98143255513E+00	-1.08715011820E+00
2.29722191355E+06	-1.40639024688E+01	-1.71600470986E+02	1.03952669800E+01	1.67432357859E+02	-5.31774078551E+01	2.73860201938E+01	-5.97211312231E+00	-1.32421325358E+00
2.31941326814E+06	-1.36569365413E+01	-1.49956167689E+02	1.03908631759E+01	1.67359109517E+02	-4.29529331526E+01	1.24779485090E+02	-5.96970252266E+00	-1.02142642652E+00
2.34160462274E+06	-8.60461190917E+00	1.59456675220E+02	1.04380209163E+01	1.67187613312E+02	-4.07420835456E+01	-1.44284192703E+02	-5.98154647178E+00	-1.27496530933E+00
2.36379597733E+06	-1.06862083450E+01	-1.70559402092E+02	1.04467722454E+01	1.67074799823E+02	-4.03194444062E+01	-1.67131914210E+02	-5.95524959142E+00	-1.02987422992E+00
2.38598733193E+06	-8.70145912246E+00	1.79512702366E+02	1.04745396373E+01	1.67269979690E+02	-4.95701242828E+01	-1.60541193598E+02	-5.95004437115E+00	-1.16631033961E+00
2.40817868652E+06	-1.20705983779E+01	-1.54092841793E+02	1.04332681624E+01	1.66695366930E+02	-4.05982121436E+01	-1.72924628372E+02	-5.93362899026E+00	-1.30811300723E+00
2.43037004112E+06	-1.32563943488E+01	1.70655187719E+02	1.04057724338E+01	1.66537421795E+02	-3.94535737462E+01	-7.00478290144E+01	-5.95946349558E+00	-1.17400665774E+00
2.45256139571E+06	-8.10561179700E+00	1.70865193607E+02	1.04479094637E+01	1.66714994943E+02	-4.44108348060E+01	-1.76775580050E+02	-5.98995512155E+00	-9.55074394054E-01
2.47475275031E+06	-7.56765263148E+00	1.77346892915E+02	1.04889882983E+01	1.66175029913E+02	-4.74288333990E+01	-1.47046059513E+01	-5.99236250605E+00	-1.23070571131E+00
2.49694410490E+06	-9.24595076520E+00	1.72874677806E+02	1.04307877313E+01	1.66323333331E+02	-4.05028987314E+01	-1.00499043745E+02	-5.99445523996E+00	-1.16333441923E+00
2.51913545950E+06	-9.36342789706E+00	1.79223724293E+02	1.04210936021E+01	1.66139256294E+02	-3.42023258595E+01	1.18026334881E+02	-5.97570456485E+00	-6.91045772701E-01
2.54132681409E+06	-8.71090832039E+00	-1.63522371054E+02	1.04625362655E+01	1.65803605862E+02	-4.14340614123E+01	1.54463538241E+02	-5.99684437622E+00	-9.72724651010E-01
2.56351816869E+06	-1.07953433945E+01	-1.59366725378E+02	1.04745438083E+01	1.66079879137E+02	-3.77079736466E+01	2.75063013979E+01	-5.98102414837E+00	-1.18108505184E+00
2.58570952328E+06	-7.46150318213E+00	1.67274801886E+02	1.04552820113E+01	1.65585509085E+02	-4.60611061649E+01	-6.75202982393E+01	-5.99785056426E+00	-1.32019352082E+00
2.60790087788E+06	-1.62037149822E+01	1.74590146729E+02	1.04619037463E+01	1.65121278726E+02	-4.09075941798E+01	-1.57602735293E+02	-5.99863903944E+00	-1.20783149296E+00
2.63009223247E+06	-8.63271359304E+00	1.72296926087E+02	1.04120291158E+01	1.65575286295E+02	-4.24960783671E+01	2.29138547995E+01	-5.98622093941E+00	-1.06967165305E+00
2.65228358707E+06	-1.21936104305E+01	1.67949331520E+02	1.03866109087E+01	1.65416020681E+02	-4.75487592303E+01	-1.45858055358E+02	-5.93715697016E+00	-1.68228150775E+00
2.67447494166E+06	-6.82660358700E+00	1.73592224092E+02	1.04569110110E+01	1.65196313121E+02	-4.44957935316E+01	7.89351348895E+01	-5.93206866295E+00	-1.72826357654E+00
2.69666629626E+06	-1.02008001531E+01	-1.74530219055E+02	1.04067997371E+01	1.65050463508E+02	-4.37484256899E+01	-1.19444841669E+02	-5.98722446025E+00	-1.15477885027E+00
2.71885765085E+06	-1.00644502348E+01	-1.74577354066E+02	1.04040246636E+01	1.64778132545E+02	-4.15085627674E+01	1.13556922307E+01	-5.97474773023E+00	-1.29312472091E+00
2.74104900545E+06	-1.10650246071E+01	-1.62898876632E+02	1.04856720808E+01	1.64959638058E+02	-4.93267783527E+01	-1.18719443126E+02	-5.97681523034E+00	-1.34099735856E+00
2.76324036004E+06	-9.70706672876E+00	-1.66925325058E+02	1.04277304515E+01	1.65049051274E+02	-4.09903667629E+01	-1.78407200161E+02	-5.94821779205E+00	-1.47298484117E+00
2.78543171463E+06	-8.12870474755E+00	-1.79499216997E+02	1.04383523133E+01	1.64881397411E+02	-4.19421927114E+01	6.52608324792E+01	-5.99880679849E+00	-1.24692098002E+00
2.80762306923E+06	-9.75160858999E+00	1.78805865959E+02	1.04171445322E+01	1.64210817210E+02	-4.22552491955E+01	-6.80373346254E+01	-5.96426154717E+00	-1.28225681196E+00
2.82981442382E+06	-1.11165880688E+01	-1.62688247143E+02	1.04528804129E+01	1.64563972169E+02	-4.17363424821E+01	1.12298223815E+02	-5.96060130406E+00	-1.07421826704E+00
2.85200577842E+06	-1.44124948402E+01	-1.42859831641E+02	1.04455229033E+01	1.64269044959E+02	-3.72012306214E+01	-3.66578290445E+01	-5.98446006326E+00	-1.38901062414E+00
2.87419713301E+06	-1.13329169845E+01	-1.73790555163E+02	1.04123295265E+01	1.64287573188E+02	-4.89500870240E+01	-9.33620106578E+01	-5.96679979723E+00	-1.57481158961E+00
