# Hz S DB R 50
! CMT, M5065, 19127446, 24.2.4/2
! Date: 10/29/2024 12:55:00 PM
! Data: Format (Calibration Info)
! Freq	S11:dB/Ang(F2)	S21:dB/Ang(F2)	S12:dB/Ang(F2)	S22:dB/Ang(F2)
3.00000000000E+05	-7.92890781258E+00	1.78043062548E+02	4.04437567408E+01	1.78740548222E+02	-3.71801137489E+01	1.02750933373E+02	-5.83288055999E+00	-1.61612635335E+00
3.22191354595E+05	-8.41671825904E+00	-1.69885728834E+02	4.04646016468E+01	1.75075060488E+02	-3.48061447125E+01	-3.03011714921E+01	-5.70598855237E+00	-3.23664950659E-01
3.44382709190E+05	-1.18922531383E+01	-1.67751328633E+02	4.04062371513E+01	1.71631201295E+02	-3.45336444989E+01	-1.52242035365E+02	-5.78875798361E+00	6.20675143840E-01
3.66574063785E+05	-7.99383587733E+00	-1.49825775167E+02	4.02856098080E+01	1.68586447236E+02	-3.69203702758E+01	1.78813750300E+02	-5.93525707032E+00	-7.41327048869E-01
3.88765418380E+05	-1.19300090476E+01	1.69632789120E+02	4.02520134068E+01	1.65545274334E+02	-4.18261921062E+01	-1.00729204662E+02	-6.28322892415E+00	-6.08368660898E+00
4.10956772975E+05	-9.42169026969E+00	-1.50970838324E+02	4.01699871376E+01	1.62817810277E+02	-3.47199125491E+01	7.05480669061E+01	-5.92402750640E+00	-2.62945083837E-01
4.33148127570E+05	-1.20585050187E+01	1.76074947440E+02	4.00701245389E+01	1.60512809959E+02	-4.64952871070E+01	9.85509841981E+01	-5.83331978236E+00	-1.94361554879E+00
4.55339482165E+05	-1.22335526058E+01	1.61947477129E+02	3.99139115823E+01	1.58130668607E+02	-3.60793247339E+01	-1.17260229329E+02	-5.98657638317E+00	-1.42726025304E-01
4.77530836760E+05	-1.23171685484E+01	-1.61692719192E+02	3.98267954052E+01	1.55951396850E+02	-5.29143932066E+01	-8.23638642452E+01	-6.14039507922E+00	-1.67231645510E+00
4.99722191355E+05	-8.15728179183E+00	1.56457495838E+02	3.96823243495E+01	1.53860792138E+02	-3.42732742105E+01	4.03161921779E+01	-5.85517244678E+00	-1.09967721529E+00
5.21913545950E+05	-6.68963682525E+00	-1.71499332914E+02	3.95718784699E+01	1.52013019142E+02	-4.58849768213E+01	1.07243768124E+02	-5.96757252253E+00	-1.66486107520E+00
5.44104900545E+05	-1.35006761846E+01	-1.75322676419E+02	3.94066338850E+01	1.49969168467E+02	-3.72481457879E+01	1.56912891289E+02	-6.03092206916E+00	-1.32388782968E+00
5.66296255139E+05	-1.04872610225E+01	-1.75553281817E+02	3.92853588400E+01	1.48123028465E+02	-3.72990934781E+01	-1.04107647899E+02	-5.95988099978E+00	-1.40358307161E+00
5.88487609734E+05	-8.46484679517E+00	1.71179785918E+02	3.91516392897E+01	1.46734387190E+02	-3.77229133184E+01	1.25280204932E+02	-6.10199411752E+00	1.34314419497E-01
6.10678964329E+05	-1.02265878004E+01	-1.65639363630E+02	3.89638807399E+01	1.44990226225E+02	-4.34026722963E+01	1.59619450707E+02	-6.05041836276E+00	-3.36420623114E+00
6.32870318924E+05	-1.36644219388E+01	-1.64630597962E+02	3.88491413518E+01	1.43264859964E+02	-4.42525112020E+01	-1.62607993810E+02	-6.16995759431E+00	-5.50806561917E-01
6.55061673519E+05	-1.37643652285E+01	-1.67215631209E+02	3.87032249939E+01	1.41793422809E+02	-4.42185303556E+01	-1.35555034750E+02	-5.99367550446E+00	-9.15106848505E-01
6.77253028114E+05	-9.45407431131E+00	-1.77249318860E+02	3.85826380497E+01	1.40082573073E+02	-3.87887899133E+01	-5.97283766123E+01	-6.02442546292E+00	-2.22621040669E+00
6.99444382709E+05	-9.40385020262E+00	1.79102751693E+02	3.84199735153E+01	1.38793114847E+02	-3.72035346076E+01	3.75032395482E+01	-5.87968622155E+00	-9.57743682362E-01
7.21635737304E+05	-1.06216917826E+01	1.69247782512E+02	3.82848564009E+01	1.37658353367E+02	-3.61965934410E+01	-1.64280646211E+02	-5.87467925477E+00	-1.85333981204E+00
7.43827091899E+05	-7.72827526973E+00	-1.67769401280E+02	3.81161755703E+01	1.36430757499E+02	-3.90652164086E+01	6.81994833700E+01	-6.04031918991E+00	-1.38055538218E+00
7.66018446494E+05	-1.22493259438E+01	-1.59113521439E+02	3.79583761781E+01	1.35138127995E+02	-4.29605484853E+01	1.73869139705E+02	-6.06331927859E+00	-1.34358504083E+00
7.88209801089E+05	-1.11654587301E+01	1.67787018467E+02	3.78067084869E+01	1.33900621720E+02	-4.53469712537E+01	9.16657575262E+01	-6.02724964234E+00	-2.79633445393E-01
8.10401155684E+05	-9.61649213280E+00	1.64500854611E+02	3.76446118089E+01	1.32904031865E+02	-4.04793055717E+01	-4.82396643043E+01	-5.98760019826E+00	-8.36426450334E-01
8.32592510279E+05	-9.97436336919E+00	1.73699093133E+02	3.75185208195E+01	1.31848013571E+02	-3.77693982134E+01	1.09767216816E+02	-6.08888326414E+00	-4.40178720056E-01
8.54783864874E+05	-1.24790483328E+01	-1.77624951364E+02	3.74026997000E+01	1.30682018113E+02	-4.08092896103E+01	1.60271045635E+02	-5.98329096582E+00	-1.18381101932E+00
8.76975219469E+05	-1.05297431698E+01	-1.72047939999E+02	3.72338050295E+01	1.29752237692E+02	-4.55816329988E+01	5.31389991060E+01	-5.97563652058E+00	-1.48407255151E+00
8.99166574064E+05	-9.71203743361E+00	1.79246565326E+02	3.70911682880E+01	1.28641424220E+02	-4.68249735580E+01	6.67870495810E+01	-5.99850624925E+00	-7.04671729529E-01
9.21357928659E+05	-1.33751654762E+01	1.71358491778E+02	3.69631962946E+01	1.27478691069E+02	-3.66959509151E+01	1.01704074968E+02	-6.02185952725E+00	4.39329019770E-02
9.43549283254E+05	-8.36367476693E+00	-1.60175326485E+02	3.68232723392E+01	1.26784902332E+02	-4.15427475208E+01	6.91494986444E+01	-5.97755948272E+00	-6.84918940872E-01
9.65740637849E+05	-1.06937776241E+01	-1.62856170141E+02	3.66931586322E+01	1.25705718869E+02	-3.87198437079E+01	1.24069594949E+01	-6.05884904440E+00	-1.24843728863E+00
9.87931992444E+05	-9.11606274550E+00	1.72578550619E+02	3.65289689127E+01	1.24791999529E+02	-5.50612982127E+01	-4.09295725020E+00	-5.99030878755E+00	-4.42001861394E-01
1.01012334704E+06	-1.13318784125E+01	-1.73912272122E+02	3.63994326870E+01	1.24084517982E+02	-3.60710725231E+01	1.39238624935E+01	-5.94505978653E+00	-1.26208586238E+00
1.03231470163E+06	-9.50598241634E+00	-1.63588896105E+02	3.62416921029E+01	1.23215483235E+02	-3.70858925576E+01	1.09293733566E+01	-5.99037515513E+00	-1.48547946188E+00
1.05450605623E+06	-9.70287602313E+00	1.67631612488E+02	3.61364708887E+01	1.22478992265E+02	-4.21607665278E+01	-1.65699361131E+02	-5.92129241873E+00	-1.49740599303E-01
1.07669741082E+06	-1.01680583028E+01	-1.68282038781E+02	3.59845065726E+01	1.21910816882E+02	-5.07211405529E+01	1.63317700075E+02	-6.11739604383E+00	-9.40996748780E-02
1.09888876542E+06	-1.10596199418E+01	-1.43988004253E+02	3.58515705126E+01	1.20806661619E+02	-3.11719288762E+01	1.50097885459E+02	-5.97796842819E+00	-1.31095151733E+00
1.12108012001E+06	-6.31068196769E+00	-1.79144273930E+02	3.57495310903E+01	1.20336946623E+02	-3.77973121973E+01	1.14366370384E+02	-5.96064160783E+00	-7.31369950888E-01
1.14327147461E+06	-8.34457889433E+00	1.63672496957E+02	3.55882021426E+01	1.19396760839E+02	-3.79066854441E+01	1.57123565601E+02	-5.93767723562E+00	-3.05032043945E-01
1.16546282920E+06	-9.13145939560E+00	1.49979810336E+02	3.54716788548E+01	1.18648780125E+02	-3.74340075217E+01	3.01553693830E+00	-5.88542965575E+00	-1.63995140357E+00
1.18765418380E+06	-7.70224478877E+00	-1.53916576199E+02	3.53755028208E+01	1.18095658784E+02	-4.07131239267E+01	2.04105864259E+01	-6.02685786941E+00	-4.70332236887E-01
1.20984553839E+06	-1.00442617512E+01	-1.60476922504E+02	3.52247519664E+01	1.17736007199E+02	-3.62072980881E+01	1.17365020095E+02	-6.07596099082E+00	-1.63164577184E+00
1.23203689299E+06	-1.13800550040E+01	-1.79929693340E+02	3.50949717047E+01	1.16739418915E+02	-4.04351287083E+01	3.03939854584E+01	-5.86837746396E+00	-2.44022046301E+00
1.25422824758E+06	-9.26313772356E+00	1.68609635898E+02	3.49424003067E+01	1.16125981133E+02	-4.33956573811E+01	4.90017526779E+01	-5.94603880260E+00	-9.55280963836E-01
1.27641960218E+06	-7.48574293343E+00	-1.79797654386E+02	3.48395654044E+01	1.15464447791E+02	-4.00622760105E+01	-4.26500233346E+01	-6.06563889713E+00	-5.55047048362E-01
1.29861095677E+06	-1.98858316073E+01	-1.63325835074E+02	3.47424011571E+01	1.14957803540E+02	-3.86059663945E+01	-1.17900068878E+02	-6.02321489052E+00	-3.42760907525E-01
1.32080231137E+06	-1.01194022309E+01	1.47899065588E+02	3.45952654480E+01	1.14227209119E+02	-4.17806394403E+01	-9.06869791490E+01	-6.07531291798E+00	-1.06395061142E+00
1.34299366596E+06	-9.65600504455E+00	-1.58326660936E+02	3.45256642073E+01	1.13684739416E+02	-4.03119159860E+01	-5.04993295289E+01	-5.98994274526E+00	-1.05487201936E+00
1.36518502056E+06	-1.07101937928E+01	1.75634869932E+02	3.43282459786E+01	1.13269718322E+02	-4.68174338796E+01	-5.42814890731E+01	-6.01856590064E+00	-1.23311746559E+00
1.38737637515E+06	-1.11474602727E+01	-1.72203302553E+02	3.42396045658E+01	1.12641490189E+02	-4.47012226800E+01	-1.86723464459E+01	-5.81290597594E+00	-1.33186544954E+00
1.40956772975E+06	-8.67825751284E+00	1.79122865699E+02	3.41379156158E+01	1.12023267497E+02	-4.61696855715E+01	-1.35933090996E+02	-6.00688735316E+00	-1.34808354664E+00
1.43175908434E+06	-1.02100899365E+01	-1.61542489191E+02	3.40104285521E+01	1.11713307217E+02	-4.39004767772E+01	4.68907356845E+01	-5.98292675568E+00	-7.74901062029E-01
1.45395043894E+06	-1.10552976907E+01	1.78988798344E+02	3.38743463219E+01	1.10908504283E+02	-4.01054170939E+01	-5.21983967240E+01	-6.16578728668E+00	-6.42048327062E-05
1.47614179353E+06	-9.17125048526E+00	1.69023726339E+02	3.38347213690E+01	1.10373148026E+02	-3.81729516288E+01	9.78200920615E+01	-5.98038519359E+00	-1.64657376425E+00
1.49833314813E+06	-9.70435341833E+00	-1.48928123184E+02	3.37136804068E+01	1.09994795825E+02	-4.44103397481E+01	1.16836007778E+01	-6.01453874488E+00	-1.19928390554E+00
1.52052450272E+06	-1.07983259405E+01	1.75857673066E+02	3.35937244801E+01	1.09577827082E+02	-4.61213687269E+01	9.13954184267E+01	-5.99645657507E+00	-1.38326813252E+00
1.54271585732E+06	-9.62473110463E+00	1.69717478844E+02	3.34678110007E+01	1.09216996852E+02	-3.38850362196E+01	1.24665678558E+02	-6.08644769937E+00	-1.22975942873E+00
1.56490721191E+06	-5.95199992902E+00	-1.67005955554E+02	3.33415749098E+01	1.08692647305E+02	-4.44055024757E+01	-1.03562656830E+02	-6.02362742047E+00	-1.47988038264E+00
1.58709856651E+06	-8.03552846111E+00	-1.72530423503E+02	3.32814552144E+01	1.08121682445E+02	-3.71905262652E+01	1.07824323735E+02	-6.00233786963E+00	-1.25599115613E+00
1.60928992110E+06	-1.00070762033E+01	1.65063725690E+02	3.30719281279E+01	1.07729629455E+02	-4.45726591751E+01	1.06657242310E+02	-5.97091458377E+00	-1.34943369632E+00
1.63148127570E+06	-9.60235806382E+00	1.79669528133E+02	3.30605483674E+01	1.07133812680E+02	-3.94311400730E+01	-5.26449981489E+01	-6.01007638742E+00	-9.11561164130E-01
1.65367263029E+06	-1.60590544590E+01	1.69375099659E+02	3.29544169928E+01	1.06783831869E+02	-4.78478234026E+01	1.48003688819E+02	-5.98025833091E+00	-1.22069412661E+00
1.67586398489E+06	-9.20172905635E+00	1.60111847697E+02	3.28234578577E+01	1.06231342654E+02	-3.80338218760E+01	-1.15166178388E+02	-6.05017009770E+00	-1.07453691252E+00
1.69805533948E+06	-1.13042343361E+01	-1.66080794036E+02	3.27445268189E+01	1.06001137312E+02	-3.81060302891E+01	6.78533995464E+01	-5.89476796811E+00	9.70923282912E-01
1.72024669408E+06	-9.30605751708E+00	1.76902596333E+02	3.26377742712E+01	1.05280175501E+02	-4.69528636857E+01	1.19068882057E+02	-5.95906386986E+00	-9.12655229855E-01
1.74243804867E+06	-1.08162741930E+01	1.69200299594E+02	3.25734866218E+01	1.05625425599E+02	-4.47879874032E+01	-1.15662582891E+02	-5.91364567182E+00	-3.45874892694E+00
1.76462940327E+06	-1.04404113402E+01	-1.77187260931E+02	3.24340801298E+01	1.04618464012E+02	-3.62772577714E+01	-1.77523897542E+01	-6.01281248626E+00	-1.21524541236E+00
1.78682075786E+06	-9.59652584586E+00	1.68667765217E+02	3.23148326920E+01	1.04093893225E+02	-4.34021245732E+01	6.21214764551E+01	-6.04580739918E+00	-9.47985240370E-01
1.80901211246E+06	-1.12329219824E+01	-1.51181446453E+02	3.22696578721E+01	1.03842012161E+02	-4.20315706835E+01	1.48960913840E+01	-5.96984754687E+00	-8.39111364214E-01
1.83120346705E+06	-1.33327868646E+01	-1.70796456210E+02	3.21558188928E+01	1.03410979120E+02	-4.92635576400E+01	-1.67699291562E+02	-5.97472821659E+00	-9.18206472845E-01
1.85339482165E+06	-1.11762238704E+01	-1.78127322531E+02	3.20320503851E+01	1.03034029804E+02	-3.83586242180E+01	7.17855118782E+01	-6.00041151811E+00	-3.15893491332E-01
1.87558617624E+06	-7.45939637459E+00	-1.77267048307E+02	3.19454166953E+01	1.02557548065E+02	-5.10244974724E+01	9.46503253850E+01	-5.96219139685E+00	-8.05242105811E-01
1.89777753084E+06	-7.33936709956E+00	-1.65421665595E+02	3.18828517812E+01	1.02373890992E+02	-3.37198630362E+01	1.10727263124E+02	-5.98015075870E+00	-8.80436638362E-01
1.91996888543E+06	-1.19816322788E+01	1.70716324885E+02	3.16553667740E+01	1.01907142661E+02	-3.66727016763E+01	1.65439942813E+02	-5.96931039959E+00	-1.08737586374E+00
1.94216024003E+06	-8.66559507765E+00	-1.59004713890E+02	3.16554241021E+01	1.01702843616E+02	-4.12832756744E+01	1.66332060789E+02	-5.98932370774E+00	-1.20266107741E+00
1.96435159462E+06	-1.10003273447E+01	-1.77295811774E+02	3.15433348462E+01	1.01238265069E+02	-4.08366504827E+01	-1.00632943348E+02	-5.96203988541E+00	-7.33172949368E-01
1.98654294922E+06	-7.57128194039E+00	-1.54808782019E+02	3.14957457670E+01	1.00786015326E+02	-4.60555740545E+01	-1.60353645810E+02	-6.03980495632E+00	-1.15892498594E+00
2.00873430381E+06	-8.11820560250E+00	1.76775310588E+02	3.14415724453E+01	1.00312349278E+02	-5.23855604290E+01	-3.92062002802E+01	-6.12244764759E+00	-1.32603421643E+00
2.03092565841E+06	-9.28203076809E+00	-1.71829014155E+02	3.13277710498E+01	9.99182022596E+01	-4.93668927780E+01	7.85665920961E+01	-5.98954047765E+00	-1.74105416416E+00
2.05311701300E+06	-1.24196284635E+01	-1.77785338687E+02	3.12565333574E+01	9.98328205758E+01	-3.78455532688E+01	-1.31482085257E+02	-5.96176412833E+00	-7.90214324806E-01
2.07530836760E+06	-8.03999726844E+00	-1.76799456090E+02	3.11483097669E+01	9.95267306383E+01	-4.03895533626E+01	-9.32924196331E+01	-6.03232864340E+00	-6.50849797008E-01
2.09749972219E+06	-1.03825056372E+01	-1.79112735927E+02	3.10848400440E+01	9.91111396520E+01	-3.32409772799E+01	3.99312019740E+01	-6.00768313807E+00	-1.26717865432E+00
2.11969107679E+06	-1.15102144740E+01	1.75651482217E+02	3.09902866764E+01	9.89547607312E+01	-3.87944006307E+01	-1.38109179946E+02	-5.96592280664E+00	-1.18249013363E+00
2.14188243138E+06	-1.00801123775E+01	-1.73825121340E+02	3.09220227270E+01	9.86430977506E+01	-4.05972844473E+01	-7.67846289692E+01	-6.00810145946E+00	-1.07492717232E+00
2.16407378598E+06	-1.15867101752E+01	1.63427922613E+02	3.07915828545E+01	9.81883405541E+01	-3.93862247142E+01	-1.71210802923E+01	-5.66287340165E+00	-1.35658955472E+00
2.18626514057E+06	-9.56189700900E+00	1.69177790637E+02	3.07273253918E+01	9.81653610398E+01	-4.96295154419E+01	-1.51123729676E+02	-6.19273994245E+00	-6.52937317887E-01
2.20845649517E+06	-1.26272776601E+01	1.65231011062E+02	3.06375618986E+01	9.77771198881E+01	-4.59332179457E+01	-1.60427167010E+02	-5.96175508043E+00	-1.37002898365E+00
2.23064784976E+06	-6.39722532262E+00	1.77851748530E+02	3.05654716751E+01	9.72151761076E+01	-3.67961765491E+01	-1.57957400531E+02	-5.93285547977E+00	-9.26291340853E-01
2.25283920436E+06	-9.64873141795E+00	-1.68843607996E+02	3.04873853305E+01	9.68491709634E+01	-4.40015004917E+01	-1.10873611094E+02	-5.99896736831E+00	-1.12820902461E+00
2.27503055895E+06	-1.22926433610E+01	-1.79241679861E+02	3.04103661403E+01	9.67367641520E+01	-4.21679502497E+01	6.87670557803E+01	-5.91361633681E+00	-1.21797577088E+00
2.29722191355E+06	-1.12498706919E+01	-1.64241313279E+02	3.03369499883E+01	9.63595405461E+01	-4.27597707263E+01	-1.11100204279E+02	-5.97303845502E+00	-7.90976166500E-01
2.31941326814E+06	-9.25410348242E+00	1.72311966074E+02	3.02416239518E+01	9.61441945317E+01	-5.93019637843E+01	1.73475342230E+02	-6.06654998284E+00	-1.27231871083E+00
2.34160462274E+06	-8.62386442633E+00	1.75516424239E+02	3.01306286112E+01	9.56643020592E+01	-3.49945397750E+01	4.63577859176E+01	-5.98218282928E+00	-2.61946024493E+00
2.36379597733E+06	-7.97234311737E+00	1.71046831030E+02	3.01243962308E+01	9.55295343791E+01	-3.31781528665E+01	-4.67831279512E+01	-6.01715006726E+00	-1.04798815989E+00
2.38598733193E+06	-1.56675969142E+01	1.30692120703E+02	2.99859368616E+01	9.52044257469E+01	-3.90238383549E+01	1.76496896310E+02	-5.94282407147E+00	-1.28024526241E+00
2.40817868652E+06	-1.03153960179E+01	1.71286731416E+02	2.99363578279E+01	9.49575198067E+01	-4.76260554559E+01	6.51348417801E-01	-6.04215265982E+00	-1.31489089888E+00
2.43037004112E+06	-1.14501965417E+01	1.69527479390E+02	2.98540505169E+01	9.44945807712E+01	-4.74315129401E+01	6.08831794538E+01	-6.07441538477E+00	-1.43013646326E+00
2.45256139571E+06	-9.49183307875E+00	1.69309733675E+02	2.97913594692E+01	9.43281084237E+01	-4.91015695945E+01	9.04771256240E+01	-6.00337447578E+00	-1.13402737996E+00
2.47475275031E+06	-1.11694753500E+01	1.78002402744E+02	2.97501768915E+01	9.39806433242E+01	-3.99908857028E+01	-1.51184349994E+02	-5.98177915249E+00	-3.65318640852E+00
2.49694410490E+06	-1.13876899650E+01	-1.75152861516E+02	2.96757495896E+01	9.38289391271E+01	-4.16954140474E+01	-1.54192046584E+02	-6.17181062172E+00	3.12388134421E-01
2.51913545950E+06	-1.09348830721E+01	1.55139735077E+02	2.95793142202E+01	9.37684604317E+01	-5.51686497521E+01	-9.82357121718E+01	-5.99366641066E+00	-1.47974920616E+00
2.54132681409E+06	-9.39331326679E+00	1.65724317161E+02	2.95066018226E+01	9.32842714793E+01	-3.81047905913E+01	-8.32137000938E+00	-5.98565350551E+00	-1.26527221460E+00
2.56351816869E+06	-8.80691279862E+00	1.65877511860E+02	2.94522782964E+01	9.29453700705E+01	-4.72579690176E+01	1.28916773029E+02	-5.96030650108E+00	-1.11613452656E+00
2.58570952328E+06	-8.07102603266E+00	-1.78580228376E+02	2.93160408517E+01	9.27107963415E+01	-4.78649898201E+01	-1.05010411151E+01	-5.97254430849E+00	-1.11402353226E+00
2.60790087788E+06	-8.63524737556E+00	-1.79980580096E+02	2.93076914139E+01	9.23848543163E+01	-4.49948982060E+01	1.14986795765E+02	-5.97274234490E+00	-1.46430491918E+00
2.63009223247E+06	-1.13798433736E+01	1.58286419677E+02	2.92123407671E+01	9.24461325915E+01	-4.19704735718E+01	5.29312284879E+01	-6.05089344980E+00	-6.35938306305E-01
2.65228358707E+06	-9.14107885743E+00	1.68694279795E+02	2.91254903335E+01	9.19160350313E+01	-3.75282070064E+01	-1.59840357849E+02	-5.95683935584E+00	-2.70061039965E+00
2.67447494166E+06	-9.68949483867E+00	1.66007604738E+02	2.90946382860E+01	9.18129388274E+01	-4.34332275737E+01	-1.47759904683E+02	-5.94946444414E+00	-1.18480090400E+00
2.69666629626E+06	-1.03420512390E+01	1.76725241627E+02	2.89879573727E+01	9.14557982503E+01	-3.87629440440E+01	-6.69226027245E+00	-6.00402756537E+00	-1.16234397078E+00
2.71885765085E+06	-1.40420624082E+01	1.51726573835E+02	2.89392124800E+01	9.11502701114E+01	-3.95172932710E+01	9.16753899103E+01	-6.04913058496E+00	-1.61446296549E+00
2.74104900545E+06	-1.07643631544E+01	1.79069816064E+02	2.88436047815E+01	9.08868361859E+01	-3.89754553221E+01	1.63893993690E+02	-5.97684176856E+00	-1.82227535169E+00
2.76324036004E+06	-8.54744776321E+00	-1.75432340393E+02	2.87818208843E+01	9.08054126846E+01	-3.56585985406E+01	4.57098536104E+01	-6.02869540255E+00	-1.74205291650E+00
2.78543171463E+06	-1.07376226938E+01	-1.61074014209E+02	2.86447406111E+01	9.04426067778E+01	-4.07251116402E+01	-1.53333990640E+02	-5.96455821711E+00	-1.25259456081E+00
2.80762306923E+06	-7.98777332115E+00	1.68190031396E+02	2.86503599529E+01	8.99588396872E+01	-4.54048656253E+01	1.44732243125E+02	-5.99077302398E+00	-2.40749031366E+00
2.82981442382E+06	-9.14849031224E+00	-1.78265370138E+02	2.86049416376E+01	8.98826104638E+01	-4.60283644062E+01	1.45033163545E+02	-6.02249708363E+00	-1.10848847569E+00
2.85200577842E+06	-9.09022926347E+00	-1.68577819563E+02	2.85281833935E+01	8.95745405119E+01	-4.37617576170E+01	4.82925105221E+01	-5.98423201540E+00	-1.33980117204E+00
2.87419713301E+06	-1.08741330077E+01	-1.45837376268E+02	2.84899461042E+01	8.96946963271E+01	-3.88254197848E+01	6.05666822390E+01	-6.03607852468E+00	-1.00806161733E+00
2.89638848761E+06	-1.32769117614E+01	-1.75225627678E+02	2.84139982333E+01	8.91382613921E+01	-4.21890599377E+01	-7.49327731029E+01	-5.96065823870E+00	-1.12232593525E+00
