# Hz S DB R 50
! CMT, M5065, 19127446, 24.2.4/2
! Date: 10/29/2024 12:47:26 PM
! Data: Format (Calibration Info)
! Freq	S11:dB/Ang(F2)	S21:dB/Ang(F2)	S12:dB/Ang(F2)	S22:dB/Ang(F2)
3.00000000000E+05	-9.39161690937E+00	-1.59836793071E+02	1.94405882545E+01	-1.77541457392E+02	-4.07044814273E+01	1.38120941068E+02	-5.97298915793E+00	-1.93987020388E-01
3.22191354595E+05	-1.04508792558E+01	-1.73713237073E+02	1.94154872743E+01	-1.78139907367E+02	-3.96649126648E+01	1.51206075992E+02	-5.97026299748E+00	-4.95133326443E-01
3.44382709190E+05	-1.14713280187E+01	-1.63589833177E+02	1.94763395875E+01	-1.78729192674E+02	-4.74395861729E+01	1.74233191258E+02	-5.98565734794E+00	-3.89674811028E-01
3.66574063785E+05	-1.12811763495E+01	1.59243191803E+02	1.94204642346E+01	-1.79356268804E+02	-4.15178919666E+01	1.20091050319E+02	-6.00762137022E+00	-1.20030397947E-02
3.88765418380E+05	-1.09806261226E+01	-1.72225113970E+02	1.94685585798E+01	-1.79611701525E+02	-5.39320512578E+01	9.53999163870E+01	-6.00462382935E+00	-5.01743787197E-01
4.10956772975E+05	-6.34068894234E+00	-1.52358522433E+02	1.94483074703E+01	1.79635196462E+02	-3.93386864245E+01	1.30412787735E+02	-6.00021692700E+00	-2.27933839626E-01
4.33148127570E+05	-9.30130416883E+00	1.74594144945E+02	1.95113842872E+01	1.79197304539E+02	-4.01496816317E+01	-6.90117152125E+01	-5.98839579291E+00	-5.94579902592E-01
4.55339482165E+05	-8.71924733875E+00	-1.71747311108E+02	1.94906354268E+01	1.78978702559E+02	-5.90432121666E+01	5.62263167961E+01	-5.97537795730E+00	-5.22777374845E-01
4.77530836760E+05	-8.18565648121E+00	-1.65473556309E+02	1.94785568092E+01	1.78548921969E+02	-3.59412514412E+01	-1.50670355032E+02	-5.96955906072E+00	-6.66239535689E-01
4.99722191355E+05	-1.05999608894E+01	-1.67365078012E+02	1.94836593948E+01	1.78240993869E+02	-4.69391772741E+01	-1.41740698093E+02	-6.00734577740E+00	-4.06437819181E-01
5.21913545950E+05	-1.30557078838E+01	-1.71228324386E+02	1.94632583593E+01	1.77616864448E+02	-4.13511690119E+01	-5.47854806991E+01	-5.97122128778E+00	-5.46326330118E-01
5.44104900545E+05	-1.47023660553E+01	-1.72734283642E+02	1.94763026071E+01	1.77666398717E+02	-3.25002082767E+01	2.57529717487E+01	-5.95882007986E+00	-1.36297345251E-01
5.66296255139E+05	-1.02440795646E+01	-1.72519490426E+02	1.94528241157E+01	1.77001558083E+02	-4.35126692489E+01	-1.70411951455E+02	-6.04841954947E+00	-5.25222267167E-01
5.88487609734E+05	-7.74447431094E+00	1.72806918535E+02	1.95032431586E+01	1.76589794671E+02	-3.86424109408E+01	6.92582972882E+01	-6.02575760949E+00	-2.70726730308E-01
6.10678964329E+05	-1.21115074452E+01	-1.42485186744E+02	1.94792374884E+01	1.76402991367E+02	-4.87517941432E+01	1.23666969868E+02	-6.04006104258E+00	-1.81822413709E-01
6.32870318924E+05	-7.78467248541E+00	-1.73565118240E+02	1.94548876002E+01	1.75987702000E+02	-3.90176612452E+01	9.65784071714E+01	-5.96005170568E+00	-4.71787039589E-01
6.55061673519E+05	-9.98993191113E+00	-1.74813623074E+02	1.95046623199E+01	1.75922014570E+02	-3.97545402275E+01	1.42624945226E+02	-6.01072096934E+00	-3.31141044501E-01
6.77253028114E+05	-1.20366881630E+01	1.77021487425E+02	1.94394438359E+01	1.75381725798E+02	-4.60101335983E+01	-7.15608083222E+01	-5.99182380912E+00	-3.66472442674E-01
6.99444382709E+05	-8.99719173157E+00	1.77649633781E+02	1.94583090766E+01	1.75044542236E+02	-3.89880070535E+01	5.66035291738E+00	-5.95668401642E+00	-8.99319456382E-02
7.21635737304E+05	-1.17639443256E+01	-1.56421679918E+02	1.94662250132E+01	1.74825045166E+02	-4.78302238634E+01	6.88734614553E+01	-5.96979446337E+00	-6.52363137124E-01
7.43827091899E+05	-6.38433732939E+00	-1.70738502583E+02	1.94570221868E+01	1.74395731693E+02	-4.16451678466E+01	5.00625937511E+01	-5.99268986348E+00	-7.44606837342E-01
7.66018446494E+05	-8.63815273778E+00	1.61434223235E+02	1.94617951294E+01	1.74174167546E+02	-4.55068546542E+01	1.15983026708E+02	-5.99797475030E+00	-2.25609054385E-01
7.88209801089E+05	-1.05907440599E+01	-1.65589062262E+02	1.94491930907E+01	1.74078957860E+02	-4.25107040892E+01	4.45109785155E+01	-5.96237037097E+00	-5.50722193958E-01
8.10401155684E+05	-9.70204966628E+00	-1.61200611874E+02	1.94331521687E+01	1.73646100480E+02	-3.93823513800E+01	-1.46421110234E+02	-5.94150655858E+00	-3.84231713240E-01
8.32592510279E+05	-1.17049606668E+01	-1.62730261701E+02	1.94497570066E+01	1.73383422190E+02	-3.98219078151E+01	7.35842033290E+01	-5.96500801303E+00	-5.19985484881E-01
8.54783864874E+05	-9.52250691160E+00	-1.55575774057E+02	1.94716929086E+01	1.73100639191E+02	-4.15329456359E+01	-2.71670321310E+01	-5.98269199554E+00	-2.73660284511E-01
8.76975219469E+05	-1.13353633219E+01	-1.73807419855E+02	1.94232721120E+01	1.72791590842E+02	-3.69526277906E+01	1.57152981424E+02	-5.97394312013E+00	-3.15975721504E-01
8.99166574064E+05	-9.00850293552E+00	1.70774118605E+02	1.94559198618E+01	1.72426195641E+02	-3.94030435672E+01	1.76989201906E+02	-5.90876280959E+00	-2.67189055386E-01
9.21357928659E+05	-9.12715219979E+00	1.66308615706E+02	1.94230525677E+01	1.72258819465E+02	-3.99233868013E+01	-3.66898567503E+01	-6.00786849159E+00	-1.40684280972E+00
9.43549283254E+05	-7.88748931322E+00	-1.76128915518E+02	1.94319361740E+01	1.72134267105E+02	-3.74409792404E+01	6.66697951394E+01	-5.93386831219E+00	-5.50038079488E-01
9.65740637849E+05	-9.20353621452E+00	1.74550621965E+02	1.94330649244E+01	1.71556140694E+02	-4.17193649056E+01	-1.73755281430E+02	-5.95966180711E+00	-4.41035031258E-01
9.87931992444E+05	-1.08266745252E+01	-1.70016094744E+02	1.94354124291E+01	1.71518911703E+02	-4.90926785561E+01	2.65033529749E+01	-5.97234149388E+00	-8.11175613911E-01
1.01012334704E+06	-7.21207186152E+00	1.69722474861E+02	1.93920974335E+01	1.71252787294E+02	-4.66101251071E+01	-1.58243969058E+02	-5.94349002353E+00	-6.48968245219E-01
1.03231470163E+06	-5.70039630848E+00	-1.70879303693E+02	1.94151798011E+01	1.70589582738E+02	-3.48948519440E+01	1.18015154974E+02	-5.91027778285E+00	-8.20741714797E-01
1.05450605623E+06	-7.77976152606E+00	-1.74617469779E+02	1.94280191579E+01	1.70727615791E+02	-3.79118745658E+01	2.75112184056E+01	-5.95531010243E+00	-8.16367264264E-01
1.07669741082E+06	-1.06774070582E+01	-1.55431992448E+02	1.94193159379E+01	1.70293266655E+02	-5.50421314843E+01	1.05040002903E+02	-6.05061198199E+00	-5.86904265400E-01
1.09888876542E+06	-1.31829735001E+01	-1.77303939238E+02	1.94122708015E+01	1.70200042157E+02	-4.91095532685E+01	9.53039415448E+01	-5.96048000587E+00	-4.40756355580E-01
1.12108012001E+06	-1.01263198128E+01	1.52417399404E+02	1.94034299452E+01	1.69926313477E+02	-4.79725731221E+01	-3.25928201435E+01	-5.93731806709E+00	-4.45690472277E-01
1.14327147461E+06	-7.43256304505E+00	1.76541851723E+02	1.94064353830E+01	1.69673761206E+02	-3.76689714980E+01	1.16011035563E+02	-5.97847448499E+00	-6.78389312119E-01
1.16546282920E+06	-9.78219335732E+00	-1.78306387760E+02	1.94090806387E+01	1.69560085370E+02	-3.56201743675E+01	6.62592160299E+01	-6.01310130712E+00	-5.82547622186E-01
1.18765418380E+06	-1.32884391362E+01	-1.74960167419E+02	1.93945832617E+01	1.69196136452E+02	-4.41478682764E+01	1.25891213983E+02	-5.96808106623E+00	-6.03896960708E-01
1.20984553839E+06	-8.47545832377E+00	-1.76279537551E+02	1.94487724734E+01	1.68898297265E+02	-4.26153232782E+01	1.72182706826E+02	-5.90814237576E+00	-5.33995808343E-01
1.23203689299E+06	-6.97987176094E+00	1.67053882964E+02	1.94097044145E+01	1.68592131711E+02	-4.13889524139E+01	8.93921948425E+01	-6.07397397644E+00	-8.79368901186E-02
1.25422824758E+06	-1.06274861670E+01	1.71534656410E+02	1.94221216269E+01	1.68410438895E+02	-4.25026145361E+01	1.52935005883E+02	-5.99265617315E+00	-3.93055871091E-01
1.27641960218E+06	-8.59519738928E+00	1.64746342627E+02	1.93988040209E+01	1.67926959291E+02	-5.34506562303E+01	1.27228237558E+01	-5.98792864388E+00	-6.26883689902E-01
1.29861095677E+06	-1.18987214716E+01	1.74158020374E+02	1.94115609917E+01	1.68077627507E+02	-4.39523940580E+01	-1.12256845417E+02	-5.98792261581E+00	-7.54698346505E-01
1.32080231137E+06	-8.57378267063E+00	-1.76531402329E+02	1.94335584649E+01	1.67632104836E+02	-3.61225577936E+01	-1.54966620460E+02	-5.96595042686E+00	-8.87878238033E-01
1.34299366596E+06	-1.13985512161E+01	-1.57051713773E+02	1.94305861727E+01	1.67442906424E+02	-4.09886426373E+01	-1.70808728099E+02	-5.93806340073E+00	-8.72687276461E-01
1.36518502056E+06	-6.88551247545E+00	1.78838650857E+02	1.94354892612E+01	1.67115196221E+02	-3.86500253144E+01	6.82599232772E+01	-5.99406010633E+00	-7.21844069644E-01
1.38737637515E+06	-9.96908206215E+00	-1.67637419768E+02	1.94063195715E+01	1.66939529081E+02	-4.90974262870E+01	-8.66480304608E+01	-5.97255757795E+00	-6.65130097314E-01
1.40956772975E+06	-1.65236294290E+01	-1.57611653217E+02	1.93958546800E+01	1.66611608368E+02	-4.11846254528E+01	1.19458361399E+02	-6.00812520568E+00	-7.06311697980E-01
1.43175908434E+06	-1.14185553138E+01	-1.52064275052E+02	1.94169677932E+01	1.66610219712E+02	-4.42312418652E+01	-8.32449856623E+01	-6.00967236629E+00	-6.05718606444E-01
1.45395043894E+06	-1.15023813732E+01	-1.64827476461E+02	1.93760349818E+01	1.65819416717E+02	-3.93158555394E+01	1.46351443046E+02	-5.97279942516E+00	-9.41988104186E-01
1.47614179353E+06	-1.33181984391E+01	1.68313851849E+02	1.94169447067E+01	1.65885286719E+02	-4.53178288415E+01	5.42919819790E+01	-5.97113900794E+00	-9.27307315456E-01
1.49833314813E+06	-1.55819381178E+01	1.73548284016E+02	1.93730504182E+01	1.65472027474E+02	-4.68755426327E+01	9.80754228771E+01	-5.96397516455E+00	-9.25120168334E-01
1.52052450272E+06	-1.26549921021E+01	-1.61448688805E+02	1.93636480734E+01	1.65440990532E+02	-4.20932122748E+01	-7.09868215604E+01	-5.99600846376E+00	-9.24144505627E-01
1.54271585732E+06	-8.52647479733E+00	-1.75394829662E+02	1.93711948800E+01	1.65260527808E+02	-4.23018420020E+01	6.18247890112E+01	-5.92473155476E+00	-1.39619471166E+00
1.56490721191E+06	-9.14836835153E+00	1.75495599832E+02	1.93832596256E+01	1.64973246104E+02	-3.61422455347E+01	-6.85492891028E+01	-5.98847279218E+00	-8.19433786422E-01
1.58709856651E+06	-9.28379497624E+00	1.56989470224E+02	1.93986320653E+01	1.64635329011E+02	-6.86217978944E+01	5.98055355714E+01	-5.97937538194E+00	-1.03607929589E+00
1.60928992110E+06	-7.25624334521E+00	-1.79078291227E+02	1.94152855069E+01	1.64398638595E+02	-4.16752144746E+01	1.77111476524E+02	-5.97308006749E+00	-8.75905391105E-01
1.63148127570E+06	-1.21169501432E+01	-1.48941311207E+02	1.93726915154E+01	1.64320360245E+02	-3.68483356772E+01	4.29362115030E+01	-5.97823312235E+00	-9.15961704854E-01
1.65367263029E+06	-1.08224189528E+01	-1.69158805942E+02	1.93753038715E+01	1.63939640442E+02	-4.36361253024E+01	1.42464370884E+02	-5.95875180410E+00	-6.89242288358E-01
1.67586398489E+06	-9.95280214663E+00	1.73508953628E+02	1.93579818546E+01	1.63852770342E+02	-5.05252931519E+01	1.48711396724E+02	-5.98705739077E+00	-7.69056285383E-01
1.69805533948E+06	-7.84056856985E+00	-1.74664015612E+02	1.93237545921E+01	1.63579311584E+02	-3.98039460478E+01	1.28719029292E+02	-6.13972824597E+00	-1.08522724262E+00
1.72024669408E+06	-1.10443327328E+01	-1.55745954503E+02	1.93881487200E+01	1.63221488859E+02	-4.47422541199E+01	-2.45159294034E+01	-5.94433886055E+00	-7.47101021626E-01
1.74243804867E+06	-8.84902788798E+00	1.77751055559E+02	1.93657062700E+01	1.62938602374E+02	-4.47007581960E+01	3.65306274122E+01	-5.90701408403E+00	-4.19774273911E-01
1.76462940327E+06	-1.12162487410E+01	-1.68837696652E+02	1.93718612394E+01	1.63493204797E+02	-4.00083068646E+01	1.36168032899E+02	-5.96360227453E+00	-8.26231558148E-01
1.78682075786E+06	-7.03594917334E+00	-1.67154281912E+02	1.93272405974E+01	1.62524039438E+02	-3.66191772093E+01	2.47177390330E+01	-6.00426897685E+00	-1.08509919915E+00
1.80901211246E+06	-8.01272239582E+00	-1.69386251680E+02	1.93544140724E+01	1.62314421666E+02	-4.38357470799E+01	5.06643065918E+01	-5.96620639732E+00	-7.37946118443E-01
1.83120346705E+06	-1.24567312099E+01	1.72213619379E+02	1.93425604073E+01	1.62053848563E+02	-3.84582722834E+01	1.00691994938E+02	-5.96689142860E+00	-7.46181865944E-01
1.85339482165E+06	-1.13465319894E+01	1.76408356522E+02	1.93684227521E+01	1.61833147753E+02	-4.21517651928E+01	2.05895135381E+01	-5.86033657534E+00	-1.56679079599E+00
1.87558617624E+06	-1.12950000731E+01	1.70121345117E+02	1.93391047740E+01	1.61849971301E+02	-4.58728114833E+01	-1.45011671348E+02	-5.97372227608E+00	-1.38385003856E+00
1.89777753084E+06	-1.02501986705E+01	-1.75669381927E+02	1.93805930477E+01	1.61349728795E+02	-4.46976237378E+01	-8.85576610676E+01	-5.93934699128E+00	-9.61646981186E-01
1.91996888543E+06	-1.10121917096E+01	-1.77174618877E+02	1.92990638300E+01	1.61629398654E+02	-3.79768443556E+01	-5.40080608096E+01	-6.00316739409E+00	-9.36776937095E-01
1.94216024003E+06	-1.08161314138E+01	-1.73564835827E+02	1.93295642970E+01	1.60926272348E+02	-4.04551348163E+01	7.02252414651E+01	-6.00417854190E+00	-7.05266126827E-01
1.96435159462E+06	-9.35458324323E+00	-1.74401073286E+02	1.93195710430E+01	1.60761638935E+02	-5.51434066667E+01	-8.05670381375E+01	-6.01686020106E+00	-1.05631534344E+00
1.98654294922E+06	-1.05673032185E+01	-1.67023492374E+02	1.93249937290E+01	1.60437785751E+02	-4.15058042613E+01	-5.56387878111E+00	-5.98821266244E+00	-9.46126389485E-01
2.00873430381E+06	-1.09035807349E+01	-1.42086977905E+02	1.92904205863E+01	1.60173955975E+02	-5.37402611005E+01	-1.29068586986E+01	-6.00598292364E+00	-1.26159810080E+00
2.03092565841E+06	-1.19465056828E+01	-1.73396506692E+02	1.93208053335E+01	1.60083708633E+02	-4.29989310531E+01	-1.55953402693E+02	-5.97365285163E+00	-7.97484751923E-01
2.05311701300E+06	-7.13789831026E+00	-1.76125077600E+02	1.93470646629E+01	1.59663050227E+02	-3.96042654164E+01	-1.65214262568E+02	-5.97951082826E+00	-8.32618095867E-01
2.07530836760E+06	-8.87349345333E+00	-1.66504367941E+02	1.92629092559E+01	1.59948228797E+02	-3.89504684238E+01	4.94924813458E+01	-5.97934246657E+00	-1.15280151233E+00
2.09749972219E+06	-1.04461486528E+01	-1.71164200339E+02	1.93327292512E+01	1.59490277836E+02	-3.95410726523E+01	-1.35810488882E+02	-5.93970444693E+00	-8.84516447385E-01
2.11969107679E+06	-8.51951674083E+00	-1.76603458700E+02	1.93318156036E+01	1.59343397311E+02	-4.41773122363E+01	-9.06981291268E+01	-5.97593650008E+00	-7.49628910915E-01
2.14188243138E+06	-1.28492026355E+01	-1.66311052653E+02	1.93112633443E+01	1.59280201655E+02	-4.45579179365E+01	-1.78054164499E+02	-5.99635894074E+00	-1.31402358403E+00
2.16407378598E+06	-8.84831704461E+00	-1.76107412808E+02	1.92839406808E+01	1.58480565678E+02	-3.96693843844E+01	-1.33845103695E+02	-6.02633399484E+00	-8.51332931406E-01
2.18626514057E+06	-9.29606810924E+00	1.57405057600E+02	1.92570052273E+01	1.58463905184E+02	-4.92873184523E+01	-1.00333538988E+02	-5.93665630353E+00	-1.45139951170E+00
2.20845649517E+06	-8.62048278756E+00	1.77061467192E+02	1.93601652964E+01	1.58259479509E+02	-4.27338291473E+01	6.05699612878E+00	-5.93062891090E+00	-1.06161101775E+00
2.23064784976E+06	-9.51170467132E+00	1.75320708735E+02	1.93349978074E+01	1.58110114132E+02	-4.32921901439E+01	1.40551808028E+02	-5.95847997765E+00	-1.02726954371E+00
2.25283920436E+06	-1.06072815127E+01	-1.50382336494E+02	1.93067759325E+01	1.57728680499E+02	-4.49903341861E+01	-1.10882316315E+02	-5.97065033369E+00	-1.11134449060E+00
2.27503055895E+06	-1.12452756621E+01	-1.54127605286E+02	1.92591324024E+01	1.57614785473E+02	-4.71464352681E+01	1.71475991359E+01	-5.98005270204E+00	-1.03261944106E+00
2.29722191355E+06	-1.00813142506E+01	1.58731023712E+02	1.92740365448E+01	1.57339787319E+02	-5.14923382949E+01	1.43333108956E+02	-5.97198845012E+00	-1.20380156683E+00
2.31941326814E+06	-8.46202752076E+00	1.73498383135E+02	1.92750354159E+01	1.57142080000E+02	-5.23378379578E+01	-9.48007031308E+00	-5.87890206698E+00	-1.67951530191E+00
2.34160462274E+06	-5.73768640888E+00	-1.75959590423E+02	1.93058915772E+01	1.56836509310E+02	-4.37126025214E+01	4.15294567043E+01	-6.00114263150E+00	-1.47159284596E+00
2.36379597733E+06	-9.60462712976E+00	-1.71878023831E+02	1.92238483772E+01	1.56668921881E+02	-5.03086997529E+01	-3.52915630900E+01	-5.95123189524E+00	-1.10755976784E+00
2.38598733193E+06	-1.00481177859E+01	1.64979726622E+02	1.93067355501E+01	1.56178288181E+02	-4.01357993405E+01	-1.52192249835E+02	-5.95534997102E+00	-1.05502337627E+00
2.40817868652E+06	-8.88814731413E+00	1.60699117855E+02	1.92758141298E+01	1.56115899154E+02	-4.19507211649E+01	-7.13318727053E+01	-6.00114815000E+00	-1.14064900710E+00
2.43037004112E+06	-9.00499740721E+00	-1.68747150523E+02	1.92334723572E+01	1.55799270652E+02	-3.52104576755E+01	4.80970879924E+01	-5.95031174252E+00	-1.48602963337E+00
2.45256139571E+06	-8.86812317098E+00	1.62200416522E+02	1.92399679112E+01	1.55591569227E+02	-3.84639407724E+01	1.52499983300E+02	-5.96159896089E+00	-1.08401341874E+00
2.47475275031E+06	-1.14563615572E+01	1.57532878337E+02	1.92424155235E+01	1.55464441486E+02	-3.96876042199E+01	1.40897766118E+02	-5.93284965167E+00	-1.17562594759E+00
2.49694410490E+06	-8.17129843157E+00	1.66311915182E+02	1.92410355809E+01	1.55191373151E+02	-3.43714495847E+01	-1.42793534465E+02	-6.07796751265E+00	-1.81654926869E+00
2.51913545950E+06	-1.21348800621E+01	-1.70468085202E+02	1.92200855264E+01	1.55359259373E+02	-3.86212358565E+01	1.07152214754E+02	-5.96590229229E+00	-1.06311437419E+00
2.54132681409E+06	-8.96897067055E+00	-1.77155558242E+02	1.93159877044E+01	1.55050237523E+02	-3.98149174576E+01	-1.50857602813E+02	-5.95766085529E+00	-1.05801526106E+00
2.56351816869E+06	-1.33947703470E+01	1.55962412089E+02	1.92359267836E+01	1.54675032812E+02	-4.79362318920E+01	-1.72608206227E+02	-5.96922135014E+00	-1.22654876493E+00
2.58570952328E+06	-9.91179415399E+00	-1.68348984403E+02	1.92723652593E+01	1.54514154766E+02	-3.75562480497E+01	-1.23666713186E+02	-5.94813692172E+00	-9.52649235764E-01
2.60790087788E+06	-1.05912096076E+01	-1.78128578623E+02	1.92222880809E+01	1.54253730346E+02	-4.12684387690E+01	4.23387810590E+01	-5.92376170680E+00	-1.29998859131E+00
2.63009223247E+06	-9.08302122123E+00	-1.74069385299E+02	1.92729398756E+01	1.53898769476E+02	-4.25436958664E+01	1.11057643686E+02	-5.92579325140E+00	-1.16309061982E+00
2.65228358707E+06	-9.26678900842E+00	1.79275739967E+02	1.92110731948E+01	1.53858439997E+02	-5.27485063057E+01	5.27924819450E+01	-6.04151201921E+00	-1.52644783361E+00
2.67447494166E+06	-1.13317555726E+01	-1.54718025178E+02	1.92338065022E+01	1.53560744083E+02	-3.97316550872E+01	-1.61486996163E+02	-5.91106294873E+00	-1.14769038496E+00
2.69666629626E+06	-9.75296385045E+00	-1.77483680777E+02	1.93640537045E+01	1.52810492812E+02	-4.88029946324E+01	1.07929662150E+02	-5.98453438192E+00	-1.03759403628E+00
2.71885765085E+06	-1.26810054049E+01	1.78862253769E+02	1.92618606005E+01	1.53120309052E+02	-3.48613560948E+01	6.95546597660E+01	-6.00826563749E+00	-1.32185102474E+00
2.74104900545E+06	-7.94557725855E+00	-1.69222825956E+02	1.92474624463E+01	1.52948908882E+02	-3.37038141828E+01	1.72918921716E+02	-5.97233077127E+00	-1.06936940318E+00
2.76324036004E+06	-1.01935864536E+01	-1.60441740284E+02	1.91986128797E+01	1.52759663828E+02	-3.62856168092E+01	7.26131850414E+01	-5.98289305224E+00	-1.33289189752E+00
2.78543171463E+06	-1.39119980682E+01	-1.64270064140E+02	1.91795967951E+01	1.52248379889E+02	-4.05493981021E+01	1.47996658296E+02	-5.96169841339E+00	-1.15389964567E+00
2.80762306923E+06	-7.26658634646E+00	-1.69053356777E+02	1.92226549823E+01	1.52007784764E+02	-3.42055081574E+01	-1.13547910731E+02	-5.98767570719E+00	-1.57306169688E+00
2.82981442382E+06	-1.16636553615E+01	-1.64604720226E+02	1.92139231346E+01	1.51761018713E+02	-3.70583075335E+01	-1.44938858051E+02	-5.97984935795E+00	-1.22734715709E+00
2.85200577842E+06	-1.02356297132E+01	1.73790982788E+02	1.92278178861E+01	1.51692503951E+02	-3.89532797268E+01	9.23974569919E+01	-5.90454990113E+00	-1.58065191862E+00
2.87419713301E+06	-8.77442800738E+00	-1.66319876724E+02	1.92044159694E+01	1.51415473066E+02	-3.94781291402E+01	3.07451146863E+01	-5.93834007399E+00	-1.22565757883E+00
