# Hz S DB R 50
! CMT, M5065, 19127446, 24.2.4/2
! Date: 10/29/2024 12:19:27 PM
! Data: Format (Calibration Info)
! Freq	S11:dB/Ang(F2)	S21:dB/Ang(F2)	S12:dB/Ang(F2)	S22:dB/Ang(F2)
3.00000000000E+05	-1.10807460686E+01	-1.70044836426E+02	8.33081900743E+00	-1.78027699305E+02	-4.18242651753E+01	-1.71610704707E+02	-5.97098384729E+00	-2.57531855940E-01
3.22191354595E+05	-1.07327418601E+01	-1.70525244826E+02	8.34085459612E+00	-1.78368309133E+02	-5.20797651108E+01	-6.69275983731E+01	-5.98536764741E+00	-1.20881850015E-01
3.44382709190E+05	-9.80626286299E+00	-1.79422784336E+02	8.33670939242E+00	-1.78734762772E+02	-4.10287215754E+01	1.30996659710E+02	-5.99176709709E+00	-2.87123565979E-01
3.66574063785E+05	-1.29829524031E+01	-1.67869126520E+02	8.33481699885E+00	-1.79094628011E+02	-4.81853407272E+01	-6.63957562735E+01	-5.98074148488E+00	-2.23632207321E-01
3.88765418380E+05	-1.00708456468E+01	-1.77285180923E+02	8.36280410048E+00	-1.79427626417E+02	-4.72891727082E+01	1.63452923516E+00	-5.97885474419E+00	-2.38504084875E-01
4.10956772975E+05	-9.06441856797E+00	-1.79045855303E+02	8.33518654404E+00	-1.79559852976E+02	-5.26909143867E+01	-9.12984650184E+01	-5.99894770086E+00	-3.24651149221E-01
4.33148127570E+05	-1.04703843989E+01	-1.77646195846E+02	8.37221295515E+00	1.79821558770E+02	-4.07404020167E+01	5.80236994551E+01	-5.97491763833E+00	-1.68246728972E-01
4.55339482165E+05	-1.17213951422E+01	1.75255850333E+02	8.36053768997E+00	1.79838180867E+02	-7.07855465959E+01	-5.01874730122E+01	-5.95942027139E+00	-3.30713221772E-01
4.77530836760E+05	-1.11637010400E+01	1.78977114119E+02	8.33931275300E+00	1.79631478349E+02	-4.01432017179E+01	7.30028395674E+01	-5.98297578330E+00	-2.46776618532E-01
4.99722191355E+05	-9.45575869611E+00	-1.68308904375E+02	8.35573148531E+00	1.79701399521E+02	-3.74767526405E+01	-9.88279324009E+01	-5.98278620997E+00	-4.20357051942E-01
5.21913545950E+05	-9.40461938697E+00	-1.72539989912E+02	8.36587011130E+00	1.79347760919E+02	-4.53254797840E+01	1.20810490363E+02	-5.99300263611E+00	-4.22572232056E-01
5.44104900545E+05	-1.03641657761E+01	1.64784631700E+02	8.36880713869E+00	1.79036593918E+02	-4.89032804932E+01	7.90952027257E+00	-5.98325318711E+00	-5.18517080800E-01
5.66296255139E+05	-1.21573197712E+01	1.76160920850E+02	8.33861554778E+00	1.79043443495E+02	-4.45340746322E+01	-1.12259042417E+02	-5.99426794943E+00	-5.69840541432E-01
5.88487609734E+05	-9.77674056372E+00	-1.73840124864E+02	8.35691169636E+00	1.78930831023E+02	-4.39494984300E+01	-3.30717652098E+01	-5.95723812245E+00	-6.23178061481E-01
6.10678964329E+05	-9.56021844111E+00	-1.72734365888E+02	8.38796164575E+00	1.78609716220E+02	-4.49393997950E+01	1.31026405544E+02	-5.97697428263E+00	-1.95777067401E-01
6.32870318924E+05	-1.06118130122E+01	1.79747500341E+02	8.35584381191E+00	1.78629441533E+02	-4.95462475646E+01	1.29843924582E+02	-5.98930916083E+00	-4.33541191462E-01
6.55061673519E+05	-9.38376676174E+00	-1.71464928703E+02	8.37780946835E+00	1.78314504545E+02	-4.75661413597E+01	-1.11980185236E+02	-5.97524673044E+00	-1.51053435786E-01
6.77253028114E+05	-8.88794447168E+00	1.67960486968E+02	8.34023199258E+00	1.77960923747E+02	-5.24595335743E+01	-1.20773825606E+02	-5.98077961644E+00	-4.87420028464E-01
6.99444382709E+05	-9.84623835966E+00	-1.67286554167E+02	8.36905033645E+00	1.77950084590E+02	-5.07149374170E+01	9.37678328027E+01	-5.97940906081E+00	-4.27878489102E-01
7.21635737304E+05	-7.74655774906E+00	-1.67931696108E+02	8.35246294322E+00	1.77869406546E+02	-4.46949699346E+01	-3.94083033440E+01	-5.97374831509E+00	-4.23968435283E-01
7.43827091899E+05	-9.64963629754E+00	-1.68492717522E+02	8.37308483867E+00	1.77840779902E+02	-4.49000942359E+01	6.54788657582E+01	-5.96065854944E+00	-4.09927169774E-01
7.66018446494E+05	-1.09062036306E+01	-1.75895671068E+02	8.34869468191E+00	1.77587060628E+02	-4.00408019052E+01	-1.01182785361E+02	-5.96805127336E+00	-4.23438713331E-01
7.88209801089E+05	-1.01297196767E+01	1.76290823034E+02	8.34411001747E+00	1.77151232366E+02	-4.45837802538E+01	-4.41223902242E+01	-5.97049277937E+00	-4.93746474324E-01
8.10401155684E+05	-9.22457359896E+00	-1.70674273533E+02	8.35542990873E+00	1.77163798823E+02	-5.78878313234E+01	1.12493077576E+02	-5.97278272980E+00	-4.94917081930E-01
8.32592510279E+05	-1.04811683124E+01	1.76552905084E+02	8.39639491184E+00	1.77023031598E+02	-4.74013191318E+01	-4.29792691123E+01	-5.98740950484E+00	-4.24489251535E-01
8.54783864874E+05	-1.12287113794E+01	1.73481462599E+02	8.34974990334E+00	1.77241143896E+02	-4.65012812827E+01	1.95509520438E+01	-5.98817194156E+00	-5.89161404273E-01
8.76975219469E+05	-1.06881087812E+01	-1.65712148833E+02	8.36084917595E+00	1.77002685956E+02	-4.25308501100E+01	-1.10053802785E+02	-6.00251469487E+00	-5.42904563608E-01
8.99166574064E+05	-8.81863295455E+00	-1.79952937651E+02	8.36233460014E+00	1.76496801838E+02	-5.46750451040E+01	-1.77447962355E+02	-5.95388536609E+00	-5.65176339426E-01
9.21357928659E+05	-8.58801365512E+00	-1.64052051251E+02	8.42459487453E+00	1.76448085889E+02	-4.46213598544E+01	-2.93903268196E+01	-5.96600070883E+00	-4.86828313941E-01
9.43549283254E+05	-8.55315368307E+00	1.77813143817E+02	8.38684751106E+00	1.76330883874E+02	-5.10644528186E+01	6.85833405052E+01	-5.98787420384E+00	-5.65036892520E-01
9.65740637849E+05	-9.84954994519E+00	1.78215986494E+02	8.36583968302E+00	1.76000982674E+02	-4.77838485139E+01	4.51368648455E+01	-5.98577769858E+00	-5.72177970879E-01
9.87931992444E+05	-1.11252533388E+01	-1.79022654155E+02	8.38946313949E+00	1.75975008347E+02	-4.32191912230E+01	-1.57469248398E+02	-5.99370577597E+00	-6.62873452112E-01
1.01012334704E+06	-8.93438221758E+00	-1.71007804910E+02	8.42426796521E+00	1.75815748258E+02	-4.34774674313E+01	-9.29068987644E+01	-5.98629819577E+00	-6.16690356992E-01
1.03231470163E+06	-9.09620555555E+00	1.77834730173E+02	8.35046844149E+00	1.75847490361E+02	-5.17068887113E+01	-4.41870545822E+01	-5.97074065615E+00	-4.80060326816E-01
1.05450605623E+06	-9.62252752154E+00	1.75736718770E+02	8.41404916034E+00	1.75759415935E+02	-4.98434188357E+01	9.68148006637E+01	-6.00410127692E+00	-6.29937738453E-01
1.07669741082E+06	-1.01880032752E+01	-1.77260717091E+02	8.35684072063E+00	1.75482069776E+02	-5.19790608274E+01	-5.82754991474E+01	-5.95883358214E+00	-6.36244122962E-01
1.09888876542E+06	-9.75313598740E+00	1.79649598098E+02	8.36284796314E+00	1.75334839375E+02	-4.08196035010E+01	-1.20686366808E+02	-5.98045590918E+00	-6.20294731995E-01
1.12108012001E+06	-1.10195778778E+01	-1.66650820935E+02	8.38133826983E+00	1.75396868352E+02	-5.37460470163E+01	1.01599684835E+02	-5.99117262526E+00	-5.63665578494E-01
1.14327147461E+06	-1.08279844377E+01	1.75985903477E+02	8.35748923711E+00	1.75023956058E+02	-5.06743500957E+01	-1.10395713416E+02	-5.99095407088E+00	-5.58290498863E-01
1.16546282920E+06	-1.01587199748E+01	1.79797118923E+02	8.36045374030E+00	1.74927448830E+02	-5.47062197814E+01	-1.83321279465E+01	-5.97977987047E+00	-6.87062010831E-01
1.18765418380E+06	-8.87927741972E+00	-1.79700598089E+02	8.39780234265E+00	1.74985603712E+02	-4.31125491360E+01	7.83124883182E+01	-5.95476118990E+00	-8.04253164505E-01
1.20984553839E+06	-1.00744493385E+01	1.78623167234E+02	8.39350207415E+00	1.74783834675E+02	-4.49168202714E+01	1.36305192042E+02	-5.98076082550E+00	-8.83294723203E-01
1.23203689299E+06	-8.96190555666E+00	1.79308380640E+02	8.37229006097E+00	1.74702905060E+02	-5.27624540544E+01	-2.47304301901E+01	-5.98941284643E+00	-4.95610946331E-01
1.25422824758E+06	-9.74178232700E+00	-1.59843065526E+02	8.39573655535E+00	1.74341721605E+02	-4.31545198993E+01	8.58808246813E+01	-5.97608604987E+00	-6.89971883712E-01
1.27641960218E+06	-9.59811694321E+00	1.72962976378E+02	8.38190182995E+00	1.74336792718E+02	-3.94336880942E+01	-1.03634134112E+02	-5.99392910448E+00	-6.61906212980E-01
1.29861095677E+06	-1.33316115246E+01	-1.69866857079E+02	8.37124948442E+00	1.74111772568E+02	-6.12371023697E+01	-1.30378910099E+02	-5.98041456865E+00	-6.12305731672E-01
1.32080231137E+06	-1.09821375625E+01	1.79009302553E+02	8.36749345454E+00	1.73970398896E+02	-4.64227448881E+01	-1.07182391405E+01	-5.96199656889E+00	-9.37571973284E-01
1.34299366596E+06	-1.17892432537E+01	-1.66418309800E+02	8.35156404889E+00	1.73898433524E+02	-4.87786064480E+01	-9.49631479795E+01	-5.98055106948E+00	-8.64178779912E-01
1.36518502056E+06	-9.08570361105E+00	-1.76273405124E+02	8.35866666870E+00	1.73723000918E+02	-4.64473927956E+01	1.73730867398E+02	-5.96883078701E+00	-7.12818500266E-01
1.38737637515E+06	-1.03210882873E+01	-1.74374284741E+02	8.38802346804E+00	1.73712183891E+02	-4.49010970327E+01	1.79990643792E+01	-5.97628997098E+00	-8.26683454929E-01
1.40956772975E+06	-8.22240210496E+00	1.73344314309E+02	8.38171379407E+00	1.73394193385E+02	-5.15869043911E+01	-3.88206421098E+01	-5.98005253962E+00	-7.49576006244E-01
1.43175908434E+06	-1.23870259007E+01	-1.65653095520E+02	8.34226009379E+00	1.73428059987E+02	-4.78413789716E+01	2.84175554268E+01	-5.97190131993E+00	-7.78643651418E-01
1.45395043894E+06	-9.14941810161E+00	-1.64865456229E+02	8.36979372451E+00	1.73223244589E+02	-4.48952915122E+01	-7.75278558557E+00	-5.95260860383E+00	-7.51177268000E-01
1.47614179353E+06	-1.03489050027E+01	-1.75380015401E+02	8.38114317998E+00	1.73006910151E+02	-5.04953062640E+01	1.79661271913E+02	-5.97449744646E+00	-7.60507583262E-01
1.49833314813E+06	-1.03311169088E+01	-1.76959999058E+02	8.35668471342E+00	1.73012145446E+02	-4.57468981381E+01	1.96134101336E+01	-5.96233186327E+00	-7.08126363509E-01
1.52052450272E+06	-1.01317643980E+01	-1.55820922171E+02	8.38207137781E+00	1.72958577076E+02	-5.18215266713E+01	1.56241797244E+02	-5.96777222945E+00	-7.90124421101E-01
1.54271585732E+06	-1.07577508637E+01	-1.78538714233E+02	8.38542449973E+00	1.72889882226E+02	-4.24172947915E+01	-8.23977046800E+01	-5.97190883877E+00	-9.72521773795E-01
1.56490721191E+06	-1.06251171749E+01	-1.73955337035E+02	8.39586120128E+00	1.72649916136E+02	-4.52639270077E+01	-2.66702302250E+01	-5.98797516367E+00	-1.02671514702E+00
1.58709856651E+06	-1.05854936657E+01	1.79886008413E+02	8.36582312996E+00	1.72472657631E+02	-4.30850089188E+01	4.82774432230E+01	-5.99664144280E+00	-7.65298520457E-01
1.60928992110E+06	-9.81086716868E+00	-1.70678082837E+02	8.36022576983E+00	1.72229589865E+02	-5.15110065699E+01	4.84976670518E+01	-5.98121736392E+00	-7.10375243281E-01
1.63148127570E+06	-1.06643849417E+01	-1.74566542418E+02	8.37948500505E+00	1.72274220026E+02	-4.59305994347E+01	-1.70856642475E+02	-5.95713951490E+00	-7.17109470298E-01
1.65367263029E+06	-9.78619307211E+00	1.73037737134E+02	8.34978396704E+00	1.72112507814E+02	-4.72905123630E+01	-9.24539502797E+01	-5.98769455221E+00	-1.05134810538E+00
1.67586398489E+06	-8.16437925083E+00	1.72693890751E+02	8.35334711932E+00	1.72106859593E+02	-4.56612620456E+01	2.66709980870E+01	-5.97497222558E+00	-7.80874989050E-01
1.69805533948E+06	-9.63370052563E+00	-1.68309333217E+02	8.36912230692E+00	1.72084475802E+02	-4.50718798986E+01	-1.74552939721E+02	-5.96680725753E+00	-7.96883226871E-01
1.72024669408E+06	-9.66329145576E+00	1.72847194933E+02	8.35306435446E+00	1.71575917617E+02	-4.05371702750E+01	-1.72370708679E+02	-5.98252878102E+00	-6.56644087753E-01
1.74243804867E+06	-1.03334058431E+01	-1.69118997048E+02	8.39885859623E+00	1.71938162428E+02	-4.53939949337E+01	9.35413024407E+01	-5.98634605321E+00	-8.76936268078E-01
1.76462940327E+06	-1.05958631000E+01	-1.71387927608E+02	8.37285420690E+00	1.71598835103E+02	-5.32709545611E+01	1.30092521981E+02	-5.96995784285E+00	-7.97367946244E-01
1.78682075786E+06	-1.03551733804E+01	-1.68154187778E+02	8.36996917434E+00	1.71746242708E+02	-5.26179882357E+01	-5.19951387214E+01	-5.98716008926E+00	-7.38264884878E-01
1.80901211246E+06	-9.41683239316E+00	-1.71568110817E+02	8.33847266535E+00	1.71389597080E+02	-4.85553234198E+01	-1.56764048834E+02	-5.94685764591E+00	-7.80123028916E-01
1.83120346705E+06	-9.29396819955E+00	-1.78639534858E+02	8.37275212490E+00	1.71362822131E+02	-4.35512122873E+01	-7.57851282243E+01	-5.97292496310E+00	-1.03953173821E+00
1.85339482165E+06	-8.94441453992E+00	-1.78365888561E+02	8.37455706555E+00	1.70919424361E+02	-4.10899336935E+01	4.09467594316E+01	-5.95455308552E+00	-9.23718012415E-01
1.87558617624E+06	-9.58099434040E+00	-1.74804536964E+02	8.37581677695E+00	1.70992730230E+02	-3.90615679986E+01	8.74476440196E+01	-5.93735522495E+00	-9.01519370540E-01
1.89777753084E+06	-1.04942044335E+01	1.70200600764E+02	8.32982402807E+00	1.71047621214E+02	-4.31865799971E+01	3.72826337983E+01	-5.96237883362E+00	-9.37143764212E-01
1.91996888543E+06	-1.17565930048E+01	1.71233102883E+02	8.35766348963E+00	1.70862922036E+02	-4.51330114958E+01	-1.51899463728E+02	-5.99254931784E+00	-8.71172813915E-01
1.94216024003E+06	-8.33425141481E+00	-1.77072719978E+02	8.39071813364E+00	1.70530288353E+02	-3.94062848896E+01	9.47176553750E+01	-5.96747317452E+00	-1.02305746361E+00
1.96435159462E+06	-1.10431982950E+01	-1.77974718750E+02	8.37994738372E+00	1.70628026664E+02	-4.28712562302E+01	1.51822859319E+02	-5.94494013654E+00	-8.65453295981E-01
1.98654294922E+06	-9.58026799336E+00	-1.75769056716E+02	8.35796802022E+00	1.70247081503E+02	-5.73802523671E+01	9.50339084742E+01	-5.99222344510E+00	-1.14500712284E+00
2.00873430381E+06	-1.07467682624E+01	-1.75646382780E+02	8.36019206737E+00	1.70351325625E+02	-4.34739976592E+01	-2.21204941735E+01	-5.98886335624E+00	-9.78820420950E-01
2.03092565841E+06	-1.28434683194E+01	-1.77709091478E+02	8.38873382641E+00	1.70110299663E+02	-4.64597586121E+01	-9.10601141029E+00	-5.95657039580E+00	-9.74482316026E-01
2.05311701300E+06	-1.06105836083E+01	1.77164717869E+02	8.37761090375E+00	1.70031080472E+02	-4.25163219048E+01	1.51987301069E+02	-5.97109434406E+00	-9.41917482104E-01
2.07530836760E+06	-1.13072195683E+01	-1.75479386903E+02	8.35996979802E+00	1.69631146472E+02	-4.71558702171E+01	6.76973747891E+01	-5.98444645786E+00	-1.02562661871E+00
2.09749972219E+06	-1.11244315342E+01	-1.71384063627E+02	8.36636458644E+00	1.69688523280E+02	-3.95993050720E+01	1.12271654426E+02	-5.96354324682E+00	-9.10124820440E-01
2.11969107679E+06	-1.08937952340E+01	-1.78730919147E+02	8.37943699718E+00	1.69867737878E+02	-5.15054890058E+01	-5.40870276029E+01	-5.94886314737E+00	-1.07772184959E+00
2.14188243138E+06	-1.13838292688E+01	-1.77153488578E+02	8.32409781660E+00	1.69766964679E+02	-4.29948310476E+01	-1.10225012680E+02	-5.95773919337E+00	-1.19612299215E+00
2.16407378598E+06	-1.01434003825E+01	1.76065123361E+02	8.38743837999E+00	1.69334277983E+02	-5.43740706169E+01	4.20326880927E+01	-5.97250305835E+00	-9.13229033131E-01
2.18626514057E+06	-9.91497417471E+00	1.79219706878E+02	8.34423824058E+00	1.69361559667E+02	-4.34934374311E+01	1.13517738535E+02	-5.95764928904E+00	-9.91279242044E-01
2.20845649517E+06	-1.10131270161E+01	-1.76896537723E+02	8.37951573027E+00	1.69339417076E+02	-4.00042961350E+01	2.92669677305E+01	-5.97486309751E+00	-9.83824605370E-01
2.23064784976E+06	-9.62562943984E+00	1.78136316535E+02	8.35779278098E+00	1.69140532287E+02	-4.72075772126E+01	-8.80835723529E+01	-5.96048338903E+00	-1.12826337960E+00
2.25283920436E+06	-1.14274222676E+01	-1.73370870717E+02	8.34182173158E+00	1.68918332355E+02	-5.75743571667E+01	-1.73505077263E+02	-5.96437456124E+00	-1.04686475259E+00
2.27503055895E+06	-8.23490018355E+00	-1.76089664431E+02	8.39438934830E+00	1.68866644086E+02	-4.50466796284E+01	-1.91657021141E+01	-5.97669139614E+00	-1.08219722240E+00
2.29722191355E+06	-9.97631182107E+00	1.78687835820E+02	8.36240259548E+00	1.68801758683E+02	-4.51395286292E+01	-1.13607174493E+02	-5.97802632786E+00	-1.14481834694E+00
2.31941326814E+06	-1.00936331742E+01	1.75931581740E+02	8.36344002706E+00	1.68396350719E+02	-6.02205050775E+01	5.07983072059E+01	-5.98226441224E+00	-9.63830882850E-01
2.34160462274E+06	-1.06503423035E+01	1.79931076152E+02	8.37497071598E+00	1.68453840628E+02	-4.08572229693E+01	1.68550302364E+02	-5.97610680034E+00	-1.15441618280E+00
2.36379597733E+06	-8.97736195040E+00	1.69119116066E+02	8.34441037262E+00	1.68186744213E+02	-5.09967683188E+01	-1.66020639962E+02	-5.97923854931E+00	-1.03657346823E+00
2.38598733193E+06	-9.40102982527E+00	1.72967015704E+02	8.39122804050E+00	1.68225857346E+02	-4.07675827532E+01	-4.17608416752E+01	-5.97137932357E+00	-1.16183857195E+00
2.40817868652E+06	-9.12841414687E+00	1.76092856520E+02	8.38868701617E+00	1.68264471423E+02	-4.03084346082E+01	-1.75495510493E+02	-5.96619850552E+00	-1.08826644371E+00
2.43037004112E+06	-1.02119066063E+01	1.77634933891E+02	8.36807708205E+00	1.68149213690E+02	-4.79409401101E+01	9.85336770877E+01	-5.98461166518E+00	-1.40865178286E+00
2.45256139571E+06	-1.21731932987E+01	-1.78348263204E+02	8.35027060484E+00	1.67932730533E+02	-5.21815731157E+01	7.56229008397E+01	-5.95805806578E+00	-1.02088369814E+00
2.47475275031E+06	-1.02742106890E+01	-1.77731359597E+02	8.36187733801E+00	1.67856185971E+02	-4.63470490466E+01	1.79951788131E+02	-5.94579591370E+00	-1.08257190538E+00
2.49694410490E+06	-1.03700242218E+01	-1.69630048445E+02	8.35199069656E+00	1.67680810278E+02	-5.79054263093E+01	3.07725670675E+01	-5.96862361568E+00	-1.21029098797E+00
2.51913545950E+06	-9.11013814462E+00	-1.72956279802E+02	8.39247955689E+00	1.67840416157E+02	-4.21610240297E+01	7.41035197570E+01	-5.96423487502E+00	-1.16346756909E+00
2.54132681409E+06	-1.02461762184E+01	1.79449248820E+02	8.41447843930E+00	1.67554421495E+02	-4.32266883169E+01	2.20344582364E+01	-5.98131256076E+00	-1.20047264603E+00
2.56351816869E+06	-9.96385700121E+00	-1.76979524409E+02	8.35510194145E+00	1.67548962529E+02	-4.45928684514E+01	1.00333313218E+02	-5.99654761605E+00	-1.07431912174E+00
2.58570952328E+06	-1.00821131510E+01	-1.77908620883E+02	8.35362750105E+00	1.67551646258E+02	-5.08460734236E+01	1.76726265902E+02	-5.95893261187E+00	-1.12594304086E+00
2.60790087788E+06	-1.17619736087E+01	-1.65112430145E+02	8.36784847019E+00	1.67249975865E+02	-4.29327657489E+01	-7.40407790362E+01	-5.97150209394E+00	-1.32844921713E+00
2.63009223247E+06	-1.05302742496E+01	-1.63646499737E+02	8.37706730254E+00	1.67092567227E+02	-5.01640160720E+01	-1.32828971605E+02	-5.97279983303E+00	-1.18683979206E+00
2.65228358707E+06	-1.09215272539E+01	1.73447871562E+02	8.32542262879E+00	1.66989526403E+02	-4.42354159020E+01	6.03624497112E+01	-5.97092588295E+00	-1.72032863894E+00
2.67447494166E+06	-9.26728831481E+00	1.78327093959E+02	8.36418065158E+00	1.67088928735E+02	-6.03864773354E+01	-6.03710419745E+01	-5.96707415467E+00	-1.38838943283E+00
2.69666629626E+06	-1.27962202532E+01	1.73510700115E+02	8.29766610739E+00	1.66646688094E+02	-4.91893978817E+01	-3.65022277236E+01	-5.96423021942E+00	-1.09780905560E+00
2.71885765085E+06	-9.19642209028E+00	-1.79526585023E+02	8.37875288738E+00	1.66736246757E+02	-5.86038066858E+01	1.73268916697E+02	-5.96943441347E+00	-1.28559123799E+00
2.74104900545E+06	-9.95627568603E+00	-1.68331602755E+02	8.33999258266E+00	1.66629857116E+02	-5.32233490847E+01	-6.13134411565E+01	-5.96322875393E+00	-1.22573409973E+00
2.76324036004E+06	-1.07423260998E+01	1.75148738562E+02	8.39071389171E+00	1.66529565960E+02	-4.65071059706E+01	-7.36813685559E+01	-5.98243611080E+00	-1.34674686039E+00
2.78543171463E+06	-1.15162576767E+01	-1.76885843436E+02	8.37757297280E+00	1.66063150526E+02	-4.85986339398E+01	1.40684636982E+02	-5.95778753258E+00	-1.12752569959E+00
2.80762306923E+06	-1.04296213929E+01	1.76450507007E+02	8.34530345689E+00	1.66138148873E+02	-5.11592719354E+01	-1.02088307031E+02	-5.98777497077E+00	-1.36912323835E+00
2.82981442382E+06	-1.04449905777E+01	1.71229679488E+02	8.37154887002E+00	1.65736424269E+02	-4.88608714563E+01	4.51310642293E+01	-5.98229053195E+00	-1.25564243065E+00
2.85200577842E+06	-1.19749302865E+01	-1.71504822998E+02	8.40170143866E+00	1.65779634745E+02	-4.83577438945E+01	-4.38875777663E+00	-5.95211567211E+00	-1.25952893428E+00
2.87419713301E+06	-1.17400517960E+01	-1.68680412026E+02	8.38617804573E+00	1.65766211590E+02	-4.05732627421E+01	1.44030129501E+02	-5.94233446247E+00	-1.30648310714E+00
