# Hz S DB R 50
! CMT, M5065, 19127446, 24.2.4/2
! Date: 10/29/2024 12:42:55 PM
! Data: Format (Calibration Info)
! Freq	S11:dB/Ang(F2)	S21:dB/Ang(F2)	S12:dB/Ang(F2)	S22:dB/Ang(F2)
3.00000000000E+05	-1.01375174280E+01	1.79344321466E+02	1.57095099524E+01	-1.77995618423E+02	-3.71364994554E+01	-1.76344474280E+02	-6.02050213229E+00	3.03203250262E-02
3.22191354595E+05	-1.19648250219E+01	-1.60139161204E+02	1.57146858551E+01	-1.78342337612E+02	-5.12158074131E+01	4.61038488542E+00	-6.00790236429E+00	-5.65480204756E-01
3.44382709190E+05	-1.13476953869E+01	-1.62399171515E+02	1.56965988985E+01	-1.78988047178E+02	-5.05130534407E+01	-1.32773405400E+02	-6.00045758312E+00	-2.14248205909E-01
3.66574063785E+05	-7.22242779628E+00	-1.75330163016E+02	1.57028871451E+01	-1.79134226764E+02	-4.30536796935E+01	-1.78682188883E+02	-5.98923928619E+00	-1.26816176328E-01
3.88765418380E+05	-1.23927008088E+01	-1.67000603625E+02	1.57097174249E+01	-1.79810046885E+02	-5.09738905894E+01	1.45621108282E+02	-5.98561985802E+00	-8.89066248491E-01
4.10956772975E+05	-8.75915133139E+00	-1.73157727352E+02	1.56869501285E+01	1.79799212857E+02	-4.61357347146E+01	2.28100918856E+00	-5.99622435195E+00	-2.65658632940E-02
4.33148127570E+05	-1.05365763620E+01	-1.69299023341E+02	1.57203326776E+01	1.79907663193E+02	-4.05606822089E+01	1.72817769528E+01	-5.93902538514E+00	-6.89728490267E-01
4.55339482165E+05	-1.00301366587E+01	-1.62282291263E+02	1.57365312646E+01	1.79453097463E+02	-3.83616649286E+01	-1.62003839512E+01	-5.95632149458E+00	-8.67794773286E-01
4.77530836760E+05	-8.40295843099E+00	-1.75966051066E+02	1.57212869021E+01	1.78890568752E+02	-4.26834065345E+01	-7.75016624637E+01	-5.98231537623E+00	-5.87503855201E-02
4.99722191355E+05	-1.06685525483E+01	1.62433628655E+02	1.57240356193E+01	1.78654664977E+02	-4.00645682198E+01	-1.15173517072E+02	-5.94502151314E+00	-6.14950893961E-01
5.21913545950E+05	-7.17294784159E+00	-1.73848477755E+02	1.57408728612E+01	1.78814366448E+02	-3.98734280024E+01	1.07328065660E+02	-5.98676729670E+00	-1.56121957599E-01
5.44104900545E+05	-1.01337377920E+01	-1.73048790258E+02	1.57100551136E+01	1.78304861702E+02	-4.42900000063E+01	-4.54731409598E+01	-5.94065732565E+00	-5.20804798510E-01
5.66296255139E+05	-1.08671828178E+01	-1.70667605100E+02	1.57044276576E+01	1.77732666413E+02	-3.89115711480E+01	-1.25417269833E+02	-5.95517239915E+00	-3.40187842080E-01
5.88487609734E+05	-1.32921256120E+01	-1.54709189764E+02	1.57232400733E+01	1.77847757177E+02	-3.83159555847E+01	8.10864217718E+01	-5.88778045414E+00	-4.53761802622E-01
6.10678964329E+05	-9.58436509909E+00	-1.66156938368E+02	1.57397154803E+01	1.77282780549E+02	-3.54307876505E+01	8.45867008727E+01	-6.00802384229E+00	-2.56246929160E-01
6.32870318924E+05	-9.55241548902E+00	-1.66466484318E+02	1.57624271858E+01	1.76939420125E+02	-4.59773466072E+01	-2.24926728815E+01	-5.98907678673E+00	-3.73648236706E-01
6.55061673519E+05	-1.07071174752E+01	1.67470605212E+02	1.57236273228E+01	1.76874858082E+02	-4.13782011050E+01	-2.86467735057E+01	-5.98387064637E+00	-4.01306650840E-01
6.77253028114E+05	-8.46643492076E+00	1.79416982392E+02	1.57404406006E+01	1.76693298140E+02	-5.33929201156E+01	-5.06963672917E+01	-5.98959077948E+00	-5.62035704173E-01
6.99444382709E+05	-1.18494526712E+01	-1.72778441362E+02	1.57301882917E+01	1.76328311959E+02	-3.46482327624E+01	5.63950835691E+01	-5.99938398543E+00	-4.89778730032E-01
7.21635737304E+05	-9.95074355419E+00	-1.69659577480E+02	1.56964436999E+01	1.76173701979E+02	-4.10839175081E+01	9.96974417332E+01	-5.99713476326E+00	-8.78130321664E-01
7.43827091899E+05	-6.45968728030E+00	-1.77719419728E+02	1.57515820591E+01	1.75937245196E+02	-4.15032668992E+01	1.58580077800E+02	-5.96428925460E+00	-2.26054356328E-01
7.66018446494E+05	-8.16304271313E+00	-1.64001094539E+02	1.57362271880E+01	1.75689760997E+02	-3.36748717339E+01	-4.48636441470E+01	-5.99012809204E+00	-3.44608167080E-01
7.88209801089E+05	-9.00044727269E+00	1.63560484628E+02	1.57100363200E+01	1.75242709628E+02	-5.03718009000E+01	-1.70333694313E+02	-5.93247656402E+00	-8.15176753857E-01
8.10401155684E+05	-1.05943175780E+01	-1.70655906035E+02	1.57473301114E+01	1.75167041457E+02	-4.14533018473E+01	1.11294665823E+02	-5.92570484313E+00	-1.43817028104E-01
8.32592510279E+05	-1.12475328963E+01	-1.70870110104E+02	1.56834795664E+01	1.75241094261E+02	-4.04958660818E+01	1.86024548981E+01	-5.94896772223E+00	-4.99417066781E-01
8.54783864874E+05	-1.10313410681E+01	-1.53599653045E+02	1.57641093093E+01	1.75150788052E+02	-3.84910920299E+01	1.36281115434E+02	-5.97256885072E+00	-4.24796105319E-01
8.76975219469E+05	-9.55687324796E+00	1.70263491610E+02	1.57046360307E+01	1.74787219155E+02	-4.44594282881E+01	-3.74501931314E+01	-5.97433071017E+00	-5.70896973931E-01
8.99166574064E+05	-8.79275763228E+00	1.70458067426E+02	1.57651473188E+01	1.74287591251E+02	-3.82472740929E+01	-2.27368464947E+01	-5.96209338381E+00	-7.64981100636E-01
9.21357928659E+05	-1.02990914282E+01	-1.77182932852E+02	1.57513632441E+01	1.74090104206E+02	-3.92726451263E+01	-8.38307222634E+01	-5.99201051708E+00	-4.52760295406E-01
9.43549283254E+05	-1.22880808578E+01	-1.69563015703E+02	1.57128240899E+01	1.74194592343E+02	-4.80601250665E+01	1.59749449579E+02	-6.02760265637E+00	-5.81327210202E-01
9.65740637849E+05	-1.05980191400E+01	1.73113190477E+02	1.57650511276E+01	1.73760393097E+02	-4.59678622732E+01	-6.30780400480E+01	-5.92832298411E+00	-7.90689254711E-01
9.87931992444E+05	-1.09456030676E+01	-1.75025111549E+02	1.57278803043E+01	1.73610557101E+02	-4.36936343660E+01	3.12179037831E+01	-5.97992221864E+00	-5.19556351634E-01
1.01012334704E+06	-8.99210605566E+00	-1.75478290574E+02	1.57663282377E+01	1.73426229425E+02	-3.92554112980E+01	-1.06333865018E+02	-5.93015489850E+00	-9.45849737823E-01
1.03231470163E+06	-1.23976317446E+01	-1.62295330529E+02	1.57479389476E+01	1.73155651533E+02	-3.75868451945E+01	-1.68211724233E+02	-5.96985360390E+00	-6.05446217104E-01
1.05450605623E+06	-7.52709038990E+00	1.73993182345E+02	1.56950222031E+01	1.72835409302E+02	-4.02642626006E+01	-3.55532457251E+01	-5.97023707068E+00	-4.35676563916E-01
1.07669741082E+06	-7.71803903393E+00	1.77276269531E+02	1.57106257606E+01	1.72629437411E+02	-4.57092282627E+01	1.07190409634E+02	-5.95251107256E+00	-7.26360909928E-01
1.09888876542E+06	-1.15397522033E+01	-1.67686901924E+02	1.56944850856E+01	1.72484278503E+02	-3.78338967903E+01	-3.25663676002E+00	-5.96478802481E+00	-9.07188927917E-01
1.12108012001E+06	-1.12690153967E+01	-1.52395030367E+02	1.56922777534E+01	1.72238105609E+02	-4.23475033801E+01	-9.76596782261E+01	-5.95543725132E+00	-7.35724202936E-01
1.14327147461E+06	-1.16460213513E+01	-1.47153400529E+02	1.57303155325E+01	1.72106504804E+02	-4.15215134160E+01	-2.14618751345E+00	-5.94800804018E+00	-5.70746893115E-01
1.16546282920E+06	-9.52630422277E+00	-1.78596430159E+02	1.57190774415E+01	1.71917201823E+02	-4.23955271609E+01	-1.08122795263E+01	-5.97517345750E+00	-5.71168549576E-01
1.18765418380E+06	-1.19494654729E+01	-1.57384870885E+02	1.57213287182E+01	1.71721630979E+02	-3.72379185063E+01	-7.82239553111E+01	-5.98762064204E+00	-5.58203727799E-01
1.20984553839E+06	-1.21124943692E+01	1.63343466727E+02	1.57455785357E+01	1.71591242232E+02	-4.73406204632E+01	6.81550371002E+01	-5.91322324370E+00	-8.93865549670E-01
1.23203689299E+06	-9.81597171935E+00	-1.72534884681E+02	1.57091338155E+01	1.71201238475E+02	-4.08003497617E+01	-1.06980834995E+02	-5.97845893071E+00	-5.66231737900E-01
1.25422824758E+06	-8.38788785137E+00	1.75580221579E+02	1.57467328358E+01	1.71011689346E+02	-4.94328758156E+01	1.52942907130E+02	-5.96905212239E+00	-4.81812955036E-01
1.27641960218E+06	-9.57176404234E+00	1.49510900487E+02	1.56997410302E+01	1.71016139509E+02	-3.57941383570E+01	3.55396571528E+00	-5.93823014093E+00	-3.85883195306E-01
1.29861095677E+06	-8.48230836017E+00	-1.70152068177E+02	1.57084634618E+01	1.70609386847E+02	-4.50638961315E+01	1.12915644074E+02	-5.97860413918E+00	-5.13618224558E-01
1.32080231137E+06	-9.69826383751E+00	-1.53487474842E+02	1.56661473260E+01	1.70338615898E+02	-4.57343949831E+01	-9.18343179269E+01	-5.95720861933E+00	-9.43180453090E-01
1.34299366596E+06	-8.04705150634E+00	1.67558045139E+02	1.56820449292E+01	1.70516318487E+02	-3.97314502433E+01	-7.67838768522E+01	-5.97447999444E+00	-9.27385911498E-01
1.36518502056E+06	-6.78693079495E+00	-1.76353624686E+02	1.57100568201E+01	1.70135226806E+02	-3.70015309403E+01	1.46658239111E+02	-5.93771157481E+00	-3.54521303795E-01
1.38737637515E+06	-1.17940420283E+01	-1.57922669262E+02	1.57122558362E+01	1.69940499601E+02	-4.27170060570E+01	-4.78999725916E+01	-5.93924716944E+00	-7.28062597944E-01
1.40956772975E+06	-8.38539335720E+00	1.69741887346E+02	1.57068900729E+01	1.69884914233E+02	-4.18086565541E+01	3.82940837754E+01	-5.95750860482E+00	-8.79844470738E-01
1.43175908434E+06	-9.38341471237E+00	-1.76525060776E+02	1.56676049472E+01	1.69491218319E+02	-4.13353699226E+01	-7.82382815123E+01	-5.93641233547E+00	-9.86749923839E-01
1.45395043894E+06	-9.79677525421E+00	-1.74802392832E+02	1.57384908991E+01	1.69956272926E+02	-3.25941782243E+01	1.79594601362E+01	-6.02386447818E+00	-4.85861467205E-01
1.47614179353E+06	-6.98033895492E+00	-1.67552338334E+02	1.57217860336E+01	1.68975789261E+02	-3.78578433198E+01	-9.77220554974E+01	-5.92808681770E+00	-7.49401314775E-01
1.49833314813E+06	-8.93658938041E+00	1.72788680986E+02	1.56591177171E+01	1.69210889789E+02	-3.64086811769E+01	-7.09614922528E+00	-5.93574478013E+00	-8.09368044255E-01
1.52052450272E+06	-1.19408704460E+01	1.79721031900E+02	1.56740298235E+01	1.68881513558E+02	-3.88427470425E+01	-1.36226364920E+02	-5.94809870701E+00	-7.43492190041E-01
1.54271585732E+06	-1.24309372108E+01	1.72804355224E+02	1.57003229279E+01	1.68881321437E+02	-4.17309851208E+01	1.52653620720E+02	-5.99500485110E+00	-7.74895745410E-01
1.56490721191E+06	-1.37567596270E+01	-1.67689467763E+02	1.56884067101E+01	1.68524971650E+02	-3.61012636342E+01	-1.12593683615E+02	-6.01388541144E+00	-7.54496891917E-01
1.58709856651E+06	-1.09663704932E+01	1.59094919945E+02	1.57037995493E+01	1.68491345113E+02	-4.74806977727E+01	1.13252258641E+01	-5.97228853779E+00	-6.54738366044E-01
1.60928992110E+06	-1.14059591642E+01	1.73721325340E+02	1.57259891145E+01	1.68401283614E+02	-4.51503464066E+01	-1.43392472223E+02	-5.94836781884E+00	-8.08724348658E-01
1.63148127570E+06	-7.70839082672E+00	1.70983880176E+02	1.56784557670E+01	1.67883136351E+02	-3.62130981652E+01	2.12742119706E+01	-5.99896247836E+00	-5.95688345272E-01
1.65367263029E+06	-8.61604097405E+00	1.75043223334E+02	1.56764404578E+01	1.67697334356E+02	-4.78497732306E+01	-6.74399188772E+00	-5.99105444664E+00	-9.61461847883E-01
1.67586398489E+06	-1.01177340141E+01	1.61782337005E+02	1.57025175373E+01	1.67646026000E+02	-3.75987566881E+01	1.16450355939E+02	-5.90511035765E+00	-3.80614679083E-01
1.69805533948E+06	-1.07408004618E+01	-1.58001253463E+02	1.57281518663E+01	1.67526168412E+02	-3.90487108085E+01	-5.13300495373E+01	-5.95324847269E+00	-8.67088681019E-01
1.72024669408E+06	-7.66669774106E+00	-1.66451653406E+02	1.56863627182E+01	1.67192675729E+02	-4.91055672286E+01	-6.72525781336E+01	-6.01515779442E+00	-1.23204490386E+00
1.74243804867E+06	-1.14659053104E+01	-1.70763427816E+02	1.56464822037E+01	1.67280972601E+02	-4.50511561434E+01	5.83283715088E+01	-6.04726757699E+00	-6.16310744642E-01
1.76462940327E+06	-9.88074763267E+00	1.65884234875E+02	1.56548892992E+01	1.66879228754E+02	-3.72044886904E+01	-5.02946109786E+01	-6.00703375594E+00	-8.01935697582E-01
1.78682075786E+06	-1.26061958345E+01	1.76029584412E+02	1.56678482106E+01	1.67244690847E+02	-4.51115446176E+01	1.66992589551E+02	-5.96217082799E+00	-1.07748315207E+00
1.80901211246E+06	-7.73571053150E+00	-1.78598768604E+02	1.56779980096E+01	1.66316514114E+02	-4.98192621164E+01	-1.70369611072E+01	-5.95826295301E+00	-1.00886163049E+00
1.83120346705E+06	-1.03757596651E+01	-1.75854692845E+02	1.56807658710E+01	1.66265474195E+02	-5.11549512607E+01	-7.53319453468E+01	-5.99427766866E+00	-1.05229926003E+00
1.85339482165E+06	-1.27098057590E+01	1.77638581420E+02	1.57067223768E+01	1.66500158734E+02	-3.87643912621E+01	3.40821013411E+01	-5.99112789144E+00	-7.93471580159E-01
1.87558617624E+06	-1.05970999708E+01	-1.70634379702E+02	1.57161006266E+01	1.66013439011E+02	-4.82133028889E+01	7.46585137746E+01	-5.94821827122E+00	-7.92833465323E-01
1.89777753084E+06	-1.04895306023E+01	-1.72019965276E+02	1.57041915627E+01	1.65714303100E+02	-4.51341775819E+01	4.19160435623E+01	-5.93688243878E+00	-1.09318499613E+00
1.91996888543E+06	-1.09073410071E+01	-1.76465808425E+02	1.56645312837E+01	1.65860494819E+02	-4.72372374839E+01	1.04209521488E+02	-5.93028551237E+00	-9.06132026629E-01
1.94216024003E+06	-1.09579496447E+01	-1.60412552037E+02	1.57521751201E+01	1.66045834300E+02	-4.09841248937E+01	1.56637495656E+02	-5.95326733907E+00	-1.06131281071E+00
1.96435159462E+06	-8.94116794233E+00	1.75788318610E+02	1.56516477120E+01	1.65376858121E+02	-5.68988274324E+01	8.48178617464E+00	-6.00171717184E+00	-9.93454938081E-01
1.98654294922E+06	-7.48544792395E+00	1.78948085775E+02	1.56676090588E+01	1.64980474216E+02	-4.20713630382E+01	-1.26298030890E+02	-6.04558922273E+00	-9.39425858356E-01
2.00873430381E+06	-1.69517234492E+01	1.46723717070E+02	1.56715131191E+01	1.64974074985E+02	-3.97487709506E+01	-1.41347191806E+02	-5.89458383479E+00	-1.10385765567E+00
2.03092565841E+06	-1.23429534282E+01	1.37263461177E+02	1.56774108047E+01	1.64873092875E+02	-3.81577966247E+01	4.17091066195E+01	-5.95948678059E+00	-5.77118220971E-01
2.05311701300E+06	-1.28049234683E+01	-1.75740306453E+02	1.56445188035E+01	1.64795879425E+02	-4.34916051772E+01	8.39780924149E+01	-5.95799789857E+00	-1.21410279250E+00
2.07530836760E+06	-1.04689813870E+01	-1.77529659978E+02	1.56778310408E+01	1.63972466289E+02	-3.84621345970E+01	-9.02244756132E+01	-5.96405441382E+00	-9.52342318656E-01
2.09749972219E+06	-9.78189763605E+00	-1.68677397589E+02	1.57487183063E+01	1.64297177619E+02	-3.85439700857E+01	2.41382941912E+01	-5.99628634813E+00	-9.26876293994E-01
2.11969107679E+06	-9.69439706479E+00	-1.69832329843E+02	1.56789168236E+01	1.63992968495E+02	-3.48845201108E+01	6.20287599050E+01	-5.99298472812E+00	-9.84927211529E-01
2.14188243138E+06	-1.03805384847E+01	1.61435134787E+02	1.56948224709E+01	1.63911784012E+02	-4.66845938387E+01	-1.13348481834E+02	-5.97080225247E+00	-1.53389219739E+00
2.16407378598E+06	-1.05136391416E+01	1.78812429026E+02	1.56482226935E+01	1.63712091869E+02	-4.23898666010E+01	4.92318467614E+01	-5.90684274271E+00	-4.42604789556E-01
2.18626514057E+06	-1.02854808398E+01	-1.74049758997E+02	1.56705455974E+01	1.63368253880E+02	-4.11876427744E+01	1.75628990538E+02	-5.92739659560E+00	-1.29209755982E+00
2.20845649517E+06	-8.81818099466E+00	-1.72283910002E+02	1.56705001436E+01	1.63437852010E+02	-3.58355213177E+01	-5.14911597618E+01	-5.96318880417E+00	-1.12825705993E+00
2.23064784976E+06	-8.03069217785E+00	-1.71589150225E+02	1.56942490673E+01	1.63323149102E+02	-3.43813997326E+01	4.21744548447E+01	-5.93120613897E+00	-1.33625020556E+00
2.25283920436E+06	-6.41450641633E+00	1.76352292638E+02	1.56675465454E+01	1.63249350919E+02	-4.19490013173E+01	-1.22239564611E+02	-5.97684213534E+00	-8.68816281300E-01
2.27503055895E+06	-1.44509916659E+01	1.59221898403E+02	1.56729727074E+01	1.62740647501E+02	-4.06961146195E+01	8.77100833137E+01	-5.96010534761E+00	-1.03668496037E+00
2.29722191355E+06	-9.72564410275E+00	1.74110952453E+02	1.56383850770E+01	1.62711421257E+02	-3.78162811958E+01	4.87482791973E+01	-5.92709855631E+00	-1.12167332562E+00
2.31941326814E+06	-9.59201628905E+00	1.73603953328E+02	1.56700171319E+01	1.62445537307E+02	-4.11549312769E+01	4.25701544053E+01	-5.91010896625E+00	-1.63455168222E+00
2.34160462274E+06	-9.80414555557E+00	-1.70391910138E+02	1.56884106905E+01	1.62316334080E+02	-3.64232856570E+01	-3.05563397689E+01	-5.98092788655E+00	-9.82923512061E-01
2.36379597733E+06	-9.08940531831E+00	-1.57341776343E+02	1.56898357589E+01	1.62309487365E+02	-4.46080567982E+01	1.69166971564E+02	-5.97240594685E+00	-1.18184161722E+00
2.38598733193E+06	-1.01496189789E+01	-1.61394122093E+02	1.56577413235E+01	1.61961991506E+02	-3.51140137607E+01	1.74456674107E+02	-5.93312343146E+00	-1.12731064825E+00
2.40817868652E+06	-1.08768986428E+01	1.70518616973E+02	1.57415761833E+01	1.61139246408E+02	-4.21668074750E+01	6.90292394456E+01	-5.96142442960E+00	-1.41855833424E+00
2.43037004112E+06	-7.83230883132E+00	-1.78029159745E+02	1.56733212340E+01	1.61610796850E+02	-4.50545996236E+01	5.69658809517E+01	-5.94152213417E+00	-1.11625370242E+00
2.45256139571E+06	-8.80269370558E+00	-1.73938823096E+02	1.56861517080E+01	1.61543897727E+02	-4.56884305567E+01	-1.25183431275E+02	-5.94780275841E+00	-1.13459066371E+00
2.47475275031E+06	-1.13461702663E+01	-1.71176045019E+02	1.56817752932E+01	1.61431181531E+02	-3.79514219085E+01	8.07918411582E+00	-5.94503238453E+00	-5.66528334270E-01
2.49694410490E+06	-8.88718759281E+00	-1.71301185309E+02	1.56460648020E+01	1.61343003405E+02	-4.16191632327E+01	1.29026643737E+02	-5.93771952140E+00	-1.37611241589E+00
2.51913545950E+06	-1.18411667390E+01	-1.69251323528E+02	1.56403716925E+01	1.60821851689E+02	-3.80740885574E+01	-1.13926043165E+02	-5.97503231374E+00	-1.13224868483E+00
2.54132681409E+06	-7.97085911032E+00	-1.75948972713E+02	1.57119550569E+01	1.60678071110E+02	-5.69882022047E+01	7.36411827170E+01	-5.95652592675E+00	-1.05948939278E+00
2.56351816869E+06	-1.32195049432E+01	-1.67992518234E+02	1.57412935557E+01	1.60667888285E+02	-4.61099603138E+01	1.90274243854E+01	-5.97636151755E+00	-1.22708081583E+00
2.58570952328E+06	-1.24916234715E+01	-1.75512112920E+02	1.57039911315E+01	1.60440532270E+02	-3.59335200057E+01	-1.32515370877E+02	-6.01765512478E+00	-1.07043343027E+00
2.60790087788E+06	-1.08137259938E+01	-1.72578458431E+02	1.56479072759E+01	1.60120426496E+02	-4.44512428711E+01	1.46977368987E+02	-5.96456594633E+00	-7.20232002469E-01
2.63009223247E+06	-1.12507139400E+01	-1.73011465522E+02	1.56725170503E+01	1.59973099216E+02	-3.42776340752E+01	-8.91823593442E+01	-5.98708630228E+00	-1.55507754587E+00
2.65228358707E+06	-9.19205858389E+00	1.59629798192E+02	1.56825635248E+01	1.59811082540E+02	-4.33761336488E+01	-3.00554346965E+01	-5.98951666639E+00	-1.75923987996E+00
2.67447494166E+06	-9.31603812663E+00	-1.78327231021E+02	1.55963750330E+01	1.59600341625E+02	-3.75023582529E+01	1.40422245255E+02	-5.94827221567E+00	-1.19657639849E+00
2.69666629626E+06	-1.11293703376E+01	1.75464379818E+02	1.56867404044E+01	1.59240511875E+02	-3.57178695138E+01	-3.51992306645E+01	-5.97597156964E+00	-8.79955616164E-01
2.71885765085E+06	-1.18977729275E+01	-1.55061355905E+02	1.56444735779E+01	1.59712152863E+02	-4.09072530492E+01	9.97674836799E+01	-5.93494470995E+00	-1.02938499500E+00
2.74104900545E+06	-9.55893909280E+00	1.69542654854E+02	1.56315369129E+01	1.59278257134E+02	-3.72070261446E+01	1.45431917543E+02	-5.94664881802E+00	-1.31045902226E+00
2.76324036004E+06	-1.03648027289E+01	-1.71828757598E+02	1.56731537662E+01	1.58826607981E+02	-4.47673019572E+01	-1.21981843927E+02	-5.95539098278E+00	-1.46763850086E+00
2.78543171463E+06	-1.16785607014E+01	1.61782599603E+02	1.56296991332E+01	1.58849214669E+02	-4.13213873957E+01	8.67967574461E+01	-6.00528370587E+00	-1.01444807716E+00
2.80762306923E+06	-1.22020618204E+01	-1.68949412918E+02	1.56687224720E+01	1.58755907117E+02	-4.85142868786E+01	-1.69321016128E+02	-5.97112776905E+00	-1.30789199939E+00
2.82981442382E+06	-1.38485305163E+01	-1.68083950009E+02	1.56733547339E+01	1.58554404290E+02	-4.83643801404E+01	-4.87103882932E+00	-5.99066474547E+00	-1.42811292464E+00
2.85200577842E+06	-1.11428807216E+01	-1.76846133837E+02	1.56743167279E+01	1.58272864712E+02	-4.43973576947E+01	-1.52497120307E+02	-5.98227897463E+00	-1.07342015536E+00
2.87419713301E+06	-8.53748402827E+00	-1.50651062858E+02	1.56213388432E+01	1.58136112066E+02	-4.11072676965E+01	1.74991247126E+02	-5.96249904000E+00	-1.32584790760E+00
