# Hz S DB R 50
! CMT, M5065, 19127446, 24.2.4/2
! Date: 10/29/2024 11:59:50 AM
! Data: Format (Calibration Info)
! Freq	S11:dB/Ang(F2)	S21:dB/Ang(F2)	S12:dB/Ang(F2)	S22:dB/Ang(F2)
3.00000000000E+05	-1.06781210366E+01	-1.75117527611E+02	6.16409188813E+00	-1.78015964414E+02	-4.70259266965E+01	-3.33257833132E+01	-5.97840943647E+00	-1.20076475584E-01
3.22191354595E+05	-9.57906346222E+00	1.79735995170E+02	6.14356291590E+00	-1.78496242979E+02	-4.01130263189E+01	-1.24998666861E+02	-6.00080611437E+00	-1.99747806932E-01
3.44382709190E+05	-1.37782955712E+01	-1.74411047222E+02	6.15411740760E+00	-1.78722161921E+02	-5.77540864905E+01	5.05225074282E+01	-5.96731153564E+00	-2.48246007565E-01
3.66574063785E+05	-9.94697493828E+00	1.74517561741E+02	6.16201136497E+00	-1.78938579630E+02	-5.08951569308E+01	-9.08404459540E+01	-5.97328539638E+00	-3.21286641347E-01
3.88765418380E+05	-1.07783647231E+01	1.73183534114E+02	6.14778840534E+00	-1.79364843479E+02	-4.55781013102E+01	-1.16881447211E+02	-5.99180542725E+00	-1.49016682169E-01
4.10956772975E+05	-9.89035102963E+00	-1.74097844961E+02	6.13922722586E+00	-1.79578073905E+02	-4.73310382548E+01	9.11731041257E+01	-5.96859435228E+00	-2.10980531785E-01
4.33148127570E+05	-1.02296906059E+01	-1.75051755178E+02	6.19711199771E+00	-1.79689411889E+02	-4.38341553215E+01	-9.70379973534E+01	-5.98273843298E+00	-2.42871484752E-01
4.55339482165E+05	-9.56784875071E+00	-1.78126726464E+02	6.20453859491E+00	-1.79871974502E+02	-4.74054289107E+01	1.81210338883E+01	-5.97229932928E+00	-4.27570806622E-01
4.77530836760E+05	-1.04055521875E+01	-1.68118460209E+02	6.18047988206E+00	1.79691760461E+02	-5.37320958564E+01	-7.94562550372E+01	-5.96689926218E+00	-3.85988233989E-01
4.99722191355E+05	-1.22404075990E+01	-1.68183054902E+02	6.19471054564E+00	1.79470710985E+02	-5.71868248399E+01	-5.23035725758E+01	-5.96020685575E+00	-3.90199941158E-01
5.21913545950E+05	-8.65805861699E+00	-1.76743755628E+02	6.15857071775E+00	1.79492737468E+02	-4.42803932276E+01	1.74312624612E+02	-5.97994894481E+00	-3.69039320701E-01
5.44104900545E+05	-1.23466230299E+01	-1.72835038496E+02	6.15553617313E+00	1.79110586367E+02	-4.21499247716E+01	8.91970668666E+01	-5.97357941884E+00	-5.92760935615E-01
5.66296255139E+05	-8.61245218007E+00	-1.74644508225E+02	6.18109786954E+00	1.79337608436E+02	-4.88498476402E+01	1.26747130373E+02	-5.97374378845E+00	-5.98173325472E-01
5.88487609734E+05	-1.01178608616E+01	-1.66337255717E+02	6.17323487451E+00	1.78937093711E+02	-4.10748339856E+01	-1.06663659995E+02	-5.96445170602E+00	-5.41140361590E-01
6.10678964329E+05	-9.36187009164E+00	-1.72858653085E+02	6.09260145529E+00	1.78756776769E+02	-4.16790300049E+01	-1.47984491487E+02	-5.96473742963E+00	-5.77111994231E-02
6.32870318924E+05	-9.75905539750E+00	-1.75916480592E+02	6.14969670864E+00	1.78673199791E+02	-6.21973645304E+01	-1.40494559074E+02	-5.98829244491E+00	-3.18409456645E-01
6.55061673519E+05	-9.94810186772E+00	1.76153812117E+02	6.17855077523E+00	1.78685903583E+02	-5.19591714209E+01	7.57487651220E+01	-5.99012741615E+00	-1.65410320978E-01
6.77253028114E+05	-9.46531602705E+00	-1.73613023498E+02	6.16756913723E+00	1.78369452259E+02	-3.89215161919E+01	-1.11330728844E+02	-5.97273769916E+00	-4.97063744479E-01
6.99444382709E+05	-9.36057797696E+00	-1.76874772033E+02	6.16961322476E+00	1.78383341669E+02	-4.24618348718E+01	3.37470475802E+01	-5.97215198148E+00	-4.74064070026E-01
7.21635737304E+05	-9.90148959687E+00	-1.76588735327E+02	6.17140242876E+00	1.77865125104E+02	-5.21184832337E+01	1.31544132982E+02	-5.97829897911E+00	-4.09140829100E-01
7.43827091899E+05	-9.45915423484E+00	1.79970997435E+02	6.15608765800E+00	1.78063498943E+02	-4.19914858132E+01	1.67687221474E+02	-5.95635190831E+00	-5.49234941066E-01
7.66018446494E+05	-1.02971609321E+01	-1.69001323363E+02	6.18920643321E+00	1.77867385190E+02	-4.28993054724E+01	-1.13944258469E+02	-5.98243888674E+00	-3.72199794365E-01
7.88209801089E+05	-9.04833409315E+00	1.72431432591E+02	6.18914941606E+00	1.77731198646E+02	-4.88381001461E+01	1.49656421106E+02	-5.97252206627E+00	-5.14415440840E-01
8.10401155684E+05	-1.00566315712E+01	1.77438158003E+02	6.18909971986E+00	1.77292293289E+02	-4.91218535665E+01	1.67264465748E+02	-5.96795961643E+00	-4.26670596034E-01
8.32592510279E+05	-1.15157021108E+01	1.79139609938E+02	6.15933160525E+00	1.77297822127E+02	-4.94063777836E+01	-2.30775336411E+01	-5.95364613304E+00	-4.67672184990E-01
8.54783864874E+05	-1.01613409612E+01	-1.73749871919E+02	6.17565620074E+00	1.77175833791E+02	-4.64048690085E+01	-6.75442074760E+01	-5.95885225591E+00	-7.33992392026E-01
8.76975219469E+05	-8.52211252883E+00	1.78702041679E+02	6.21178389565E+00	1.77148219182E+02	-5.04748423235E+01	-1.56764413054E+02	-5.96929486530E+00	-6.39899219485E-01
8.99166574064E+05	-9.10198493060E+00	-1.66800262005E+02	6.18810049093E+00	1.77033461965E+02	-3.95641489751E+01	1.21837961229E+02	-5.97269127347E+00	-4.25027232368E-01
9.21357928659E+05	-1.04240217401E+01	-1.64819500220E+02	6.15898890787E+00	1.77037883923E+02	-4.10390435473E+01	1.51298366027E+02	-5.98988000373E+00	-6.68966203506E-01
9.43549283254E+05	-8.95436261274E+00	-1.79911116601E+02	6.12200479716E+00	1.76858760505E+02	-4.11641227966E+01	8.69032657569E+01	-5.98301842983E+00	-5.71808558296E-01
9.65740637849E+05	-1.24451950656E+01	1.70436118244E+02	6.17118657759E+00	1.76665373315E+02	-4.60706514771E+01	-3.40210898124E-01	-5.97429917237E+00	-5.13468334212E-01
9.87931992444E+05	-9.66142795640E+00	-1.78176160633E+02	6.16879626107E+00	1.76389726258E+02	-4.71681840316E+01	1.42964699977E+02	-5.97389426782E+00	-5.36994866832E-01
1.01012334704E+06	-1.23091481424E+01	-1.63033088945E+02	6.17708114391E+00	1.76298762366E+02	-4.84731425989E+01	-1.78270178950E+02	-5.97291988137E+00	-5.09757660250E-01
1.03231470163E+06	-1.02916163306E+01	-1.77734176530E+02	6.15880535558E+00	1.76052737785E+02	-4.26971315244E+01	-5.83592876156E+01	-5.98147447634E+00	-5.48183790175E-01
1.05450605623E+06	-9.44505648506E+00	-1.74344128892E+02	6.16484451121E+00	1.76128943350E+02	-4.68716143266E+01	3.29312461068E-01	-5.96174668761E+00	-5.34375253346E-01
1.07669741082E+06	-1.07729408899E+01	-1.79273531739E+02	6.18446094463E+00	1.76090785450E+02	-5.21330724003E+01	4.61102330182E+01	-5.96382258004E+00	-5.76131303768E-01
1.09888876542E+06	-9.77727471051E+00	1.71202218226E+02	6.19224197334E+00	1.76006775181E+02	-3.95275328205E+01	-4.47584251056E+01	-5.97015607139E+00	-6.05286116852E-01
1.12108012001E+06	-9.87032445627E+00	1.79649345734E+02	6.17390465396E+00	1.76006232299E+02	-4.85823504822E+01	9.67641893965E+01	-5.97846727164E+00	-6.24071387232E-01
1.14327147461E+06	-1.02610445701E+01	1.75505641711E+02	6.16850455065E+00	1.75512761474E+02	-5.30244921306E+01	-1.16181702289E+02	-5.97252139531E+00	-5.49030119281E-01
1.16546282920E+06	-1.22532754445E+01	1.71484131701E+02	6.14792631077E+00	1.75273439735E+02	-6.06140662978E+01	-1.14513834549E+02	-5.97882387462E+00	-6.24737137573E-01
1.18765418380E+06	-1.09133751020E+01	1.70061715616E+02	6.14917545706E+00	1.75319982902E+02	-5.16618217701E+01	-1.14039650694E+02	-5.97921760669E+00	-6.97519510877E-01
1.20984553839E+06	-1.22892212582E+01	1.68861590459E+02	6.14237386437E+00	1.75258338057E+02	-4.70706685505E+01	-7.09359538911E+01	-5.96195087268E+00	-9.68205903922E-01
1.23203689299E+06	-9.24948638391E+00	-1.79467276484E+02	6.15825660577E+00	1.75283860900E+02	-5.11657689014E+01	-8.72335717522E+01	-5.96643447530E+00	-3.37563256676E-01
1.25422824758E+06	-9.99383031034E+00	-1.71391587336E+02	6.20647701112E+00	1.74947227654E+02	-4.22231403515E+01	1.39395812449E+02	-5.98998862839E+00	-6.78773132478E-01
1.27641960218E+06	-8.77788024646E+00	1.71051935116E+02	6.15619246253E+00	1.74937141812E+02	-4.65678770724E+01	-1.59303679730E+02	-5.97258532162E+00	-6.41369181971E-01
1.29861095677E+06	-1.19249499136E+01	1.72370070746E+02	6.15040881762E+00	1.74786898172E+02	-4.92988963830E+01	-1.61694185092E+01	-5.97142333623E+00	-7.23522738852E-01
1.32080231137E+06	-9.73938360170E+00	1.77139902423E+02	6.15919946004E+00	1.74944351842E+02	-4.31482199360E+01	1.29407739428E+01	-5.94761684330E+00	-9.71049921556E-01
1.34299366596E+06	-1.13351234571E+01	-1.74400517381E+02	6.16032500265E+00	1.74751625069E+02	-4.58530502410E+01	-1.48160120720E+02	-5.98117313676E+00	-8.09320262570E-01
1.36518502056E+06	-9.20000919384E+00	-1.74660054292E+02	6.17405894243E+00	1.74117083956E+02	-4.03936055941E+01	-7.56182506483E+00	-5.95877599454E+00	-6.60551806890E-01
1.38737637515E+06	-9.26944360098E+00	-1.75902271108E+02	6.18349497414E+00	1.74391774980E+02	-4.29589875888E+01	2.04947362506E+01	-5.98852708672E+00	-5.75299834283E-01
1.40956772975E+06	-8.91760368471E+00	-1.76383092976E+02	6.23121927541E+00	1.74063086707E+02	-4.62342540009E+01	9.02007272429E+01	-5.97631993013E+00	-7.82410538223E-01
1.43175908434E+06	-1.04652335942E+01	1.60182631873E+02	6.19311421314E+00	1.74116174022E+02	-5.59397725220E+01	4.38637731216E+01	-5.97731687261E+00	-7.60347593335E-01
1.45395043894E+06	-1.03308147353E+01	1.79847906251E+02	6.18560399253E+00	1.73613852684E+02	-4.30908918425E+01	1.48898795633E+02	-5.97498115793E+00	-7.16032654667E-01
1.47614179353E+06	-1.11528300505E+01	-1.69318179144E+02	6.19103763860E+00	1.73751283859E+02	-4.54796543117E+01	6.45741349226E+01	-5.95732351302E+00	-6.29269788180E-01
1.49833314813E+06	-1.16918517006E+01	-1.75421436622E+02	6.13148453008E+00	1.73577352191E+02	-4.54580966029E+01	2.31105967457E+01	-5.99959400361E+00	-4.61594349924E-01
1.52052450272E+06	-1.08006931276E+01	1.75397432923E+02	6.19233364923E+00	1.73698503890E+02	-4.16753186199E+01	1.41652076414E+02	-5.97746688607E+00	-9.44995952974E-01
1.54271585732E+06	-1.07359721079E+01	-1.79633176729E+02	6.17945941934E+00	1.73418738354E+02	-5.62225935251E+01	5.28727965397E+00	-5.99366986325E+00	-8.46215436497E-01
1.56490721191E+06	-1.13773492761E+01	-1.56775567144E+02	6.17574272692E+00	1.73420661633E+02	-4.51447838677E+01	1.08709194191E+02	-5.96930866388E+00	-8.45469088932E-01
1.58709856651E+06	-9.76001988632E+00	1.78901127792E+02	6.14865258882E+00	1.73232364319E+02	-4.97443870814E+01	1.57165362675E+02	-5.97056666773E+00	-7.83611137270E-01
1.60928992110E+06	-1.12001983628E+01	-1.76594072788E+02	6.16613380942E+00	1.73303936500E+02	-4.61382945360E+01	-5.89782691187E+01	-5.96667172162E+00	-8.76260657359E-01
1.63148127570E+06	-1.02739111990E+01	-1.72170327201E+02	6.18238215864E+00	1.73131842954E+02	-6.25736640643E+01	-1.71349416157E+02	-5.96370721367E+00	-7.87799621739E-01
1.65367263029E+06	-1.12730715982E+01	1.74446407895E+02	6.14548615276E+00	1.72884446610E+02	-4.40302496808E+01	-1.40571593326E+02	-5.99928234519E+00	-9.19453815720E-01
1.67586398489E+06	-9.51651741829E+00	-1.76318958925E+02	6.19041567613E+00	1.72527144518E+02	-4.78729090708E+01	-5.07818938380E+01	-5.97009307170E+00	-8.59778636613E-01
1.69805533948E+06	-1.04412250867E+01	-1.60294967558E+02	6.10420923969E+00	1.72907311399E+02	-4.40462685733E+01	1.35590998633E+02	-5.95602770946E+00	-5.69590048218E-01
1.72024669408E+06	-1.08662985649E+01	1.77692850490E+02	6.12364564518E+00	1.72735166371E+02	-4.64910290793E+01	3.62946668140E+01	-5.97850005600E+00	-7.67038675331E-01
1.74243804867E+06	-9.87608634834E+00	-1.76774056839E+02	6.17351535860E+00	1.72380917676E+02	-4.14807528603E+01	-1.29997443067E+02	-5.97276564699E+00	-7.69264764317E-01
1.76462940327E+06	-1.05317058895E+01	-1.65847761867E+02	6.13755508374E+00	1.72604098681E+02	-5.92132086615E+01	-4.04221367240E+01	-5.97417822543E+00	-1.03501954366E+00
1.78682075786E+06	-1.04285320649E+01	1.79965725122E+02	6.17561835866E+00	1.72146277396E+02	-6.26403555816E+01	-5.16026471717E+01	-5.97068961933E+00	-8.56645695551E-01
1.80901211246E+06	-1.08616646536E+01	-1.78951442009E+02	6.17545152435E+00	1.72191945420E+02	-4.28015600630E+01	3.33091405508E+01	-5.96084081724E+00	-9.04467145431E-01
1.83120346705E+06	-9.52341768288E+00	1.70997094262E+02	6.17277257975E+00	1.71533588634E+02	-4.95610267253E+01	7.42556096147E+01	-5.95679985509E+00	-8.72193981844E-01
1.85339482165E+06	-9.54521282514E+00	1.73793617565E+02	6.16627883047E+00	1.72182452861E+02	-4.95902570416E+01	8.27399859714E+01	-5.95914315002E+00	-1.00173437038E+00
1.87558617624E+06	-9.60351305400E+00	1.76530507932E+02	6.18036915051E+00	1.71736013032E+02	-5.82752883330E+01	1.40002825959E+02	-5.96424866738E+00	-1.01699943824E+00
1.89777753084E+06	-9.77770559262E+00	-1.72552049197E+02	6.13983747334E+00	1.71454360678E+02	-4.92342039574E+01	-5.44872903559E+01	-5.98081328495E+00	-1.06637301320E+00
1.91996888543E+06	-1.03693653307E+01	1.73095501400E+02	6.17958553336E+00	1.71682239276E+02	-4.18317738628E+01	-8.32463798753E+01	-5.95033026979E+00	-1.05864443867E+00
1.94216024003E+06	-8.77027547845E+00	1.78432904480E+02	6.19878544282E+00	1.71594571777E+02	-4.89971490297E+01	-2.86001191251E+01	-5.96642241363E+00	-9.19800104494E-01
1.96435159462E+06	-8.50787925645E+00	-1.68204819199E+02	6.16825490266E+00	1.71041278629E+02	-5.00325460975E+01	4.31623422297E+01	-5.99376384370E+00	-9.99214206122E-01
1.98654294922E+06	-8.40688879890E+00	-1.77131131173E+02	6.16429700782E+00	1.71088713056E+02	-4.01244691055E+01	-9.85979604977E+01	-5.98124884501E+00	-9.10510232099E-01
2.00873430381E+06	-1.15890117672E+01	1.79116439739E+02	6.15789721353E+00	1.70836143342E+02	-5.92934940004E+01	3.05407132195E+01	-5.93846160535E+00	-8.32223830648E-01
2.03092565841E+06	-1.09334827562E+01	1.74307502991E+02	6.14423099668E+00	1.71000667077E+02	-4.00360519258E+01	1.77386136206E+02	-5.94938898872E+00	-7.74794274662E-01
2.05311701300E+06	-1.18031641197E+01	-1.78646560917E+02	6.17798268019E+00	1.70997716236E+02	-4.64990743965E+01	-3.05206519787E+01	-5.98105495801E+00	-1.07289088119E+00
2.07530836760E+06	-1.00123453892E+01	-1.76731735655E+02	6.17318974576E+00	1.71068568972E+02	-4.44512712619E+01	8.84332425906E+01	-5.96040441842E+00	-9.97010677688E-01
2.09749972219E+06	-1.25858969256E+01	1.73240584789E+02	6.11843660703E+00	1.70771987018E+02	-4.28868337867E+01	-4.20396897612E+01	-5.96188706862E+00	-9.78555075674E-01
2.11969107679E+06	-1.01476132120E+01	-1.77016683600E+02	6.16983001357E+00	1.70743852724E+02	-5.12722089495E+01	4.35286180559E+01	-5.97666560667E+00	-9.72172714559E-01
2.14188243138E+06	-8.63619410042E+00	1.73384502288E+02	6.13679543214E+00	1.69886962801E+02	-5.32514095027E+01	-1.45938568916E+02	-5.96549306322E+00	-1.00762678563E+00
2.16407378598E+06	-1.03852457071E+01	-1.73480199351E+02	6.16512285513E+00	1.70535148474E+02	-4.24930860194E+01	5.13057576179E+00	-5.95611975420E+00	-9.98820862040E-01
2.18626514057E+06	-1.17626062691E+01	1.73871129335E+02	6.17363767977E+00	1.70452898206E+02	-4.24478298174E+01	-9.84710236842E+01	-5.98467698158E+00	-1.18522316152E+00
2.20845649517E+06	-9.41713495419E+00	-1.61842915515E+02	6.15410425738E+00	1.70271181222E+02	-4.44218978617E+01	-8.69265385317E+00	-5.95515720387E+00	-1.08907731158E+00
2.23064784976E+06	-1.07407715984E+01	-1.75376977970E+02	6.16739795229E+00	1.70575394738E+02	-5.09783154454E+01	1.03183520577E+02	-5.99208623263E+00	-9.69830316371E-01
2.25283920436E+06	-8.91345996327E+00	-1.79083426114E+02	6.14932980612E+00	1.69594527360E+02	-4.72557597249E+01	-8.13648794105E+01	-5.96016025719E+00	-1.05770258448E+00
2.27503055895E+06	-1.12757949944E+01	1.73114244940E+02	6.12901293219E+00	1.69996173477E+02	-5.16521537039E+01	-1.65431657054E+02	-5.95958099311E+00	-1.22630307706E+00
2.29722191355E+06	-1.08265115407E+01	1.72087164822E+02	6.16049680597E+00	1.69711969085E+02	-4.34047391949E+01	-1.76118002740E+02	-5.95643031975E+00	-8.56905443110E-01
2.31941326814E+06	-8.78442831031E+00	-1.79163195000E+02	6.17941641508E+00	1.69704033791E+02	-4.62465034629E+01	-1.25463219461E+02	-5.98874597619E+00	-1.13495128918E+00
2.34160462274E+06	-9.85741516341E+00	-1.60485761967E+02	6.15596408096E+00	1.69938140224E+02	-4.94505966079E+01	1.14182887590E+02	-5.96061947728E+00	-1.08709957106E+00
2.36379597733E+06	-1.04396589864E+01	1.76216799418E+02	6.15916971324E+00	1.69584812966E+02	-4.54749397227E+01	4.34625316770E+01	-5.96573943156E+00	-1.04278559247E+00
2.38598733193E+06	-8.36568729280E+00	-1.76709584465E+02	6.14251185897E+00	1.69497874873E+02	-5.67727571748E+01	1.16296597305E+02	-5.97021212209E+00	-1.12686187912E+00
2.40817868652E+06	-1.07004274098E+01	-1.76323446528E+02	6.13218900998E+00	1.69356982810E+02	-4.45300329604E+01	-7.61458597805E+00	-5.97160681574E+00	-1.01982277303E+00
2.43037004112E+06	-1.08529490445E+01	-1.79189174608E+02	6.15200886188E+00	1.69004321339E+02	-4.17611329329E+01	1.37881458540E+02	-5.96810792525E+00	-1.34246175512E+00
2.45256139571E+06	-9.90010524199E+00	-1.79180604669E+02	6.12792984092E+00	1.68994747599E+02	-4.08315301838E+01	-1.32147139545E+02	-5.97970079037E+00	-9.10329148909E-01
2.47475275031E+06	-1.11281296357E+01	-1.71054302010E+02	6.18419564652E+00	1.68827638145E+02	-4.30432582604E+01	-1.78919465453E+02	-5.96367613398E+00	-1.07799362503E+00
2.49694410490E+06	-1.20012941596E+01	-1.65172303049E+02	6.14322755516E+00	1.68972930504E+02	-4.40866389464E+01	-8.97481657114E+01	-5.96092201412E+00	-1.17739597674E+00
2.51913545950E+06	-1.10376414127E+01	-1.77879268844E+02	6.14238950336E+00	1.68709226516E+02	-4.57903179498E+01	2.28303054111E+01	-5.97523487468E+00	-1.20590121098E+00
2.54132681409E+06	-9.47554292402E+00	-1.77239320631E+02	6.15556070651E+00	1.68822180642E+02	-4.05865647736E+01	-7.06559766501E+01	-5.95799713521E+00	-1.32893410958E+00
2.56351816869E+06	-1.16951865002E+01	-1.70717615932E+02	6.14127394105E+00	1.68205335501E+02	-4.62168005326E+01	1.86355553556E+01	-5.96450133933E+00	-1.20144373143E+00
2.58570952328E+06	-1.24967744267E+01	-1.63990696406E+02	6.16876269516E+00	1.68408369983E+02	-4.51742013215E+01	4.77441801369E+01	-5.96249916010E+00	-1.12029053544E+00
2.60790087788E+06	-9.24620407703E+00	1.78123118634E+02	6.18035975124E+00	1.68319833738E+02	-7.16747409385E+01	-6.81583121742E+00	-5.95079777358E+00	-1.12048750994E+00
2.63009223247E+06	-9.59486978199E+00	1.77703317665E+02	6.17358189161E+00	1.68278136215E+02	-6.26669532632E+01	-1.16306990765E+01	-5.98739893066E+00	-1.23537551778E+00
2.65228358707E+06	-1.01578763241E+01	1.74806206003E+02	6.15264489228E+00	1.68177453932E+02	-4.83435941368E+01	9.87273702431E+01	-5.97456866677E+00	-1.63172126410E+00
2.67447494166E+06	-1.04516035216E+01	-1.64706852879E+02	6.22717958163E+00	1.68138916690E+02	-4.11176982496E+01	1.23166039962E+01	-5.95973568027E+00	-1.45229735088E+00
2.69666629626E+06	-1.01264286999E+01	1.70998075352E+02	6.16138158326E+00	1.67901094529E+02	-5.00399658242E+01	2.65469352641E+01	-5.96687222169E+00	-1.18071308912E+00
2.71885765085E+06	-1.03744359611E+01	-1.79498553679E+02	6.17813237510E+00	1.67888756224E+02	-4.50174494219E+01	6.76381432201E+01	-5.96005283060E+00	-1.12597100057E+00
2.74104900545E+06	-9.06994050734E+00	-1.74487605712E+02	6.17226934602E+00	1.67978000131E+02	-3.88100488312E+01	1.37498428391E+02	-5.96517971114E+00	-1.20867828434E+00
2.76324036004E+06	-1.09695319822E+01	-1.76909000036E+02	6.17405338044E+00	1.67671358332E+02	-6.11036369815E+01	-1.11284714654E+02	-5.94130920692E+00	-1.28066978222E+00
2.78543171463E+06	-1.20806123156E+01	-1.76485668737E+02	6.14326316833E+00	1.67389290738E+02	-4.80735215528E+01	-1.45513052084E+01	-5.95093396953E+00	-1.23525727995E+00
2.80762306923E+06	-1.05815501362E+01	-1.71474604471E+02	6.16607822142E+00	1.67085589740E+02	-4.65576317286E+01	1.58412393974E+02	-5.96782307604E+00	-1.29367148124E+00
2.82981442382E+06	-8.72259473335E+00	-1.73298013351E+02	6.11839068596E+00	1.67525482280E+02	-4.15522121199E+01	-1.11572965199E+02	-5.97497190524E+00	-1.17907513751E+00
2.85200577842E+06	-9.22484560166E+00	-1.76029618551E+02	6.14634092363E+00	1.67243247323E+02	-4.57727995172E+01	1.47516110487E+02	-5.96890215519E+00	-1.28966540721E+00
2.87419713301E+06	-1.03297311063E+01	1.76866848825E+02	6.17927969540E+00	1.67061494768E+02	-4.03918509901E+01	7.99543433477E+01	-5.95098947971E+00	-1.26645940288E+00
