# Hz S DB R 50
! CMT, M5065, 19127446, 24.2.4/2
! Date: 10/29/2024 12:32:35 PM
! Data: Format (Calibration Info)
! Freq	S11:dB/Ang(F2)	S21:dB/Ang(F2)	S12:dB/Ang(F2)	S22:dB/Ang(F2)
3.00000000000E+05	-8.94715763222E+00	-1.76034050236E+02	1.07224315921E+01	-1.78457522481E+02	-3.94391925069E+01	-9.84572525655E+01	-5.97038389795E+00	-1.14202115133E-01
3.22191354595E+05	-7.10986096798E+00	-1.79797662892E+02	1.07458019026E+01	-1.78475212392E+02	-4.07499118494E+01	-1.77459082920E+02	-5.97628744448E+00	6.87355619816E-02
3.44382709190E+05	-7.86185331666E+00	1.71682118048E+02	1.07024603398E+01	-1.78935107501E+02	-4.33088765889E+01	1.15818358932E+02	-5.99820547636E+00	-3.08859422693E-01
3.66574063785E+05	-1.00887280758E+01	-1.71831449406E+02	1.07496404323E+01	-1.78895070517E+02	-3.59773457047E+01	1.51425781755E+02	-5.99802186902E+00	-3.24333713251E-01
3.88765418380E+05	-1.21170162544E+01	1.62399434511E+02	1.07967924657E+01	-1.79300410879E+02	-3.78523685934E+01	4.47248194067E+01	-5.99320030201E+00	-1.06753709715E-01
4.10956772975E+05	-7.28573667552E+00	-1.68044419942E+02	1.07734055113E+01	-1.79624646589E+02	-3.78872695782E+01	1.09277811312E+02	-5.96660897341E+00	-3.36770286788E-01
4.33148127570E+05	-7.80931029250E+00	-1.64041606730E+02	1.07597909329E+01	-1.79899484957E+02	-3.77302940538E+01	1.45814163699E+02	-5.95996391263E+00	-3.46786398528E-01
4.55339482165E+05	-1.08115336607E+01	1.76804227278E+02	1.07303723471E+01	-1.79948880330E+02	-4.23731019426E+01	-1.72447957101E+02	-5.97640948056E+00	-3.76437379111E-01
4.77530836760E+05	-1.28275647386E+01	1.67051102787E+02	1.07720728150E+01	1.79439662726E+02	-4.05498713484E+01	-6.47949033330E+01	-5.96770995316E+00	-3.68650974312E-01
4.99722191355E+05	-8.64314998233E+00	-1.76151806650E+02	1.07796984377E+01	1.79671936299E+02	-3.82298307582E+01	9.38862815172E+01	-6.01195407270E+00	-5.25310833176E-01
5.21913545950E+05	-1.07529553586E+01	1.79181706578E+02	1.07854985566E+01	1.79026220343E+02	-4.37655249338E+01	3.18664731815E+01	-5.96008361270E+00	-1.58849491455E-01
5.44104900545E+05	-1.23282886879E+01	1.45816599332E+02	1.07037508458E+01	1.78647762429E+02	-4.97377563073E+01	8.87762061305E+01	-5.96719049476E+00	-4.51961933621E-01
5.66296255139E+05	-9.70125369998E+00	1.73553554067E+02	1.07351315603E+01	1.78310639143E+02	-4.67324066931E+01	-7.94222434576E+00	-5.91953780406E+00	-5.17593344307E-01
5.88487609734E+05	-8.99651035284E+00	1.79909077654E+02	1.08252959725E+01	1.78187007613E+02	-5.55848584981E+01	1.01385375124E+02	-5.97515004068E+00	-2.64267743951E-01
6.10678964329E+05	-8.65012619639E+00	1.79104749496E+02	1.07732389693E+01	1.78395137350E+02	-4.28678098497E+01	-1.36670552535E+02	-5.94018143249E+00	6.05649624705E-02
6.32870318924E+05	-8.63132501502E+00	1.65008365532E+02	1.08029313974E+01	1.77846214797E+02	-3.51565288728E+01	4.52414309023E+01	-5.99885246081E+00	-5.20948351340E-01
6.55061673519E+05	-1.39541836120E+01	-1.71026180636E+02	1.07702305515E+01	1.77904917682E+02	-4.27742940604E+01	-9.59719536036E+01	-5.99788516716E+00	-2.70148125752E-01
6.77253028114E+05	-7.80574643825E+00	-1.77995017899E+02	1.07966599292E+01	1.77370110250E+02	-5.02323959099E+01	7.40779311930E+01	-5.92717236351E+00	-6.77682971518E-01
6.99444382709E+05	-1.07697036780E+01	-1.71564298521E+02	1.07318401672E+01	1.77330731904E+02	-4.92344049386E+01	-1.69905175458E+02	-5.96273308659E+00	-8.41706193903E-01
7.21635737304E+05	-8.98085134441E+00	1.79608957308E+02	1.07759258773E+01	1.77447085412E+02	-3.77130209431E+01	1.49598766440E+02	-5.96400678281E+00	-2.72975866729E-01
7.43827091899E+05	-9.93452892824E+00	1.61844221368E+02	1.07830374978E+01	1.77300310582E+02	-3.88470234627E+01	1.68932007220E+02	-5.95037494782E+00	-5.56978336246E-01
7.66018446494E+05	-8.22178055781E+00	-1.77750194875E+02	1.07530994564E+01	1.77288698321E+02	-3.52045367232E+01	6.46942869768E+01	-5.95845414210E+00	-5.08498521815E-01
7.88209801089E+05	-9.02418986026E+00	1.76150380830E+02	1.07613873155E+01	1.76827465750E+02	-5.04463520360E+01	-1.00514745073E+02	-5.97356687420E+00	-6.42603443234E-01
8.10401155684E+05	-9.66881620468E+00	-1.66064130447E+02	1.07802875447E+01	1.76446568380E+02	-3.75308976819E+01	1.72314546418E+02	-5.98713515776E+00	-5.00563895014E-01
8.32592510279E+05	-1.33717306198E+01	-1.79954012521E+02	1.07662167578E+01	1.76361866419E+02	-6.63006198856E+01	1.09497603122E+02	-5.98250506637E+00	-3.66442274375E-01
8.54783864874E+05	-9.15440264238E+00	1.57497435407E+02	1.08124661777E+01	1.75766772917E+02	-4.64718590700E+01	-1.78499958633E+01	-6.00476253160E+00	-3.01362760032E-01
8.76975219469E+05	-8.22265416288E+00	-1.72417137588E+02	1.07958184704E+01	1.76264712088E+02	-4.37078470915E+01	-1.59558644734E+00	-5.93510992966E+00	-4.30072320574E-01
8.99166574064E+05	-1.17757461169E+01	1.60600618778E+02	1.08164351666E+01	1.75980745475E+02	-4.40759114751E+01	-1.60206182439E+02	-6.02111407882E+00	-6.86020901637E-01
9.21357928659E+05	-7.98669862686E+00	1.74294652592E+02	1.07850675752E+01	1.75427263976E+02	-4.33902381140E+01	1.59907880447E+02	-5.97315355724E+00	-3.10046522677E-01
9.43549283254E+05	-1.22895740334E+01	1.66817644386E+02	1.08126653414E+01	1.75833250189E+02	-3.35115314782E+01	-1.36947293058E+02	-5.95991747883E+00	-5.57397151552E-01
9.65740637849E+05	-9.36977444668E+00	1.59673337776E+02	1.08189187464E+01	1.75839938290E+02	-3.77826774285E+01	9.76011605102E+01	-5.99201052561E+00	-7.30891732781E-01
9.87931992444E+05	-9.53119451304E+00	-1.61136316080E+02	1.07221352281E+01	1.75505160352E+02	-4.58346510048E+01	9.17071921280E+00	-5.95687210295E+00	-3.26909004815E-01
1.01012334704E+06	-9.04487432485E+00	-1.71383152004E+02	1.08152757069E+01	1.75250299834E+02	-4.57784406428E+01	-1.44146637575E+02	-5.94288962055E+00	-7.88104161502E-01
1.03231470163E+06	-1.45044862670E+01	1.68550299228E+02	1.08177727431E+01	1.74954741246E+02	-3.84997388895E+01	1.03937455195E+02	-5.99321408926E+00	-7.20082578393E-01
1.05450605623E+06	-7.20032741905E+00	1.71946999992E+02	1.07813437913E+01	1.75165418318E+02	-4.55172393948E+01	-8.99390489879E+00	-6.01073999941E+00	-6.73361281292E-01
1.07669741082E+06	-8.57870994274E+00	-1.66591608090E+02	1.07573211636E+01	1.74774113801E+02	-4.08043789364E+01	-1.74260150148E+02	-5.95699783637E+00	-6.25177787685E-01
1.09888876542E+06	-9.96945213171E+00	-1.71129715760E+02	1.07779920109E+01	1.74786580230E+02	-3.97273118290E+01	-1.06667695033E+02	-5.93963418965E+00	-6.66509712470E-01
1.12108012001E+06	-9.59873230535E+00	1.60930116979E+02	1.07902206134E+01	1.74533289469E+02	-3.71046806540E+01	1.11121633747E+02	-5.94474168739E+00	-4.52303466090E-01
1.14327147461E+06	-9.50835555596E+00	-1.71276537338E+02	1.07818865761E+01	1.74498793170E+02	-3.72321358645E+01	6.75476678114E+01	-5.98725419816E+00	-7.35944918106E-01
1.16546282920E+06	-1.48280754519E+01	-1.71556556054E+02	1.07095070870E+01	1.73949551037E+02	-3.72770595949E+01	-3.11288525898E+01	-6.00280893126E+00	-3.30552498167E-01
1.18765418380E+06	-9.91404664032E+00	-1.59681918449E+02	1.07693745627E+01	1.74188884567E+02	-4.74413736953E+01	1.53485100379E+02	-5.97911452617E+00	-6.40501374934E-01
1.20984553839E+06	-1.09919936234E+01	1.62111942497E+02	1.07516918707E+01	1.74072396717E+02	-3.39329558116E+01	-5.20836865481E+01	-5.98417928850E+00	-7.77406205897E-01
1.23203689299E+06	-1.09311867025E+01	-1.79165670614E+02	1.07630587820E+01	1.73951997286E+02	-3.83965464539E+01	7.30832952166E+01	-5.93025930174E+00	-3.20081803761E-01
1.25422824758E+06	-8.93527830107E+00	-1.70978078770E+02	1.07806296454E+01	1.73534386914E+02	-4.91250562837E+01	-7.28141286603E+00	-5.99619690420E+00	-5.67727052083E-01
1.27641960218E+06	-1.01177693402E+01	1.62316410641E+02	1.07922917230E+01	1.73255395557E+02	-4.20232534422E+01	5.22418606923E+01	-5.97290127701E+00	-3.62632364297E-01
1.29861095677E+06	-8.07884757442E+00	-1.48555976903E+02	1.07556162797E+01	1.73597636565E+02	-4.03155971077E+01	1.07887607410E+02	-5.99584370499E+00	-3.24242704441E-01
1.32080231137E+06	-9.22894080308E+00	-1.55376510302E+02	1.07892870388E+01	1.73629374864E+02	-3.60774541381E+01	-1.66306218284E+02	-5.96313247910E+00	-1.36619537626E+00
1.34299366596E+06	-1.20561273088E+01	1.48989094747E+02	1.07430879328E+01	1.72548346013E+02	-4.32260248350E+01	-8.41112142762E+01	-5.96180120379E+00	-5.66630160549E-01
1.36518502056E+06	-1.01067796285E+01	-1.78412734221E+02	1.07434014137E+01	1.73013420085E+02	-4.56082508127E+01	4.58545496631E+01	-5.95329974180E+00	-7.65057483397E-01
1.38737637515E+06	-1.03863836125E+01	1.68981284672E+02	1.07808187756E+01	1.72781916971E+02	-3.90379603969E+01	6.86227211618E+01	-5.99931973955E+00	-7.90167169986E-01
1.40956772975E+06	-1.10763243559E+01	1.73159223677E+02	1.07712051919E+01	1.72788953884E+02	-4.35569620421E+01	-1.68849954235E+02	-5.94284897546E+00	-6.45942338192E-01
1.43175908434E+06	-1.03160433815E+01	-1.65237285638E+02	1.07344261424E+01	1.72485806446E+02	-4.38249150674E+01	1.34867031899E+02	-6.00542546567E+00	-5.03181184204E-01
1.45395043894E+06	-1.16319805945E+01	1.64624811731E+02	1.07775112219E+01	1.71995148710E+02	-3.86274873674E+01	4.58748735532E+00	-5.95961613689E+00	-6.98642933516E-01
1.47614179353E+06	-8.20828002980E+00	-1.73881312809E+02	1.07879974119E+01	1.72477596951E+02	-5.42021202824E+01	1.98704151807E+01	-5.98621924470E+00	-7.42461790206E-01
1.49833314813E+06	-9.57743979561E+00	1.74645465981E+02	1.07883712988E+01	1.72168460411E+02	-3.52076211276E+01	-9.24989433722E+01	-5.95630752904E+00	-7.40761063980E-01
1.52052450272E+06	-1.18780873832E+01	-1.78074187165E+02	1.07817550984E+01	1.71921290275E+02	-4.95812671531E+01	-6.91121886943E+00	-5.98212227847E+00	-6.01368961371E-01
1.54271585732E+06	-1.25732308096E+01	1.73657262666E+02	1.06877641353E+01	1.71852615277E+02	-4.39204340391E+01	1.41771842887E+02	-5.99075932103E+00	-9.45538344961E-01
1.56490721191E+06	-7.56097043914E+00	-1.71824499295E+02	1.07906240519E+01	1.71435804381E+02	-3.90134421290E+01	1.41076121386E+01	-5.95934383838E+00	-8.82891323643E-01
1.58709856651E+06	-1.34561516136E+01	-1.69950680343E+02	1.07558503159E+01	1.71601263654E+02	-4.55521135416E+01	6.55928331028E+01	-5.98462705948E+00	-6.54452041698E-01
1.60928992110E+06	-1.10779422957E+01	-1.74429187631E+02	1.07725905155E+01	1.71410305092E+02	-3.84955275473E+01	7.00903587466E+01	-5.93013180621E+00	-6.25975967088E-01
1.63148127570E+06	-1.28839659317E+01	-1.32943825098E+02	1.08221902074E+01	1.71459109321E+02	-4.03699433500E+01	9.19292839442E+01	-5.95336253021E+00	-6.27571617036E-01
1.65367263029E+06	-9.75281830789E+00	1.76578738884E+02	1.07474990897E+01	1.70868458297E+02	-4.11085113211E+01	1.54977016992E+01	-6.00000190170E+00	-1.08226066979E+00
1.67586398489E+06	-9.55982066210E+00	-1.76182273128E+02	1.07406612842E+01	1.71272263879E+02	-3.80287580930E+01	-1.50603944497E+02	-5.92823590316E+00	-8.08898355525E-01
1.69805533948E+06	-1.04185190566E+01	-1.74615569594E+02	1.07812259382E+01	1.70634289300E+02	-4.73717088634E+01	-6.92797500430E+01	-5.93256074870E+00	-8.93614320560E-01
1.72024669408E+06	-9.17926955663E+00	-1.71800787310E+02	1.07715845679E+01	1.70489451630E+02	-3.82269234688E+01	1.26480975265E+00	-5.96337939496E+00	-6.54025022112E-01
1.74243804867E+06	-1.37770347680E+01	-1.76965262151E+02	1.07296055535E+01	1.71123205513E+02	-3.35378968232E+01	-8.63498844852E+01	-5.97426973847E+00	-1.11965533460E+00
1.76462940327E+06	-8.94238412244E+00	1.59831620118E+02	1.08114671300E+01	1.70403176105E+02	-4.34959880941E+01	-3.76129342653E+01	-5.97706374634E+00	-1.08488194636E+00
1.78682075786E+06	-9.53661544060E+00	-1.54786487793E+02	1.07967585939E+01	1.70485090799E+02	-3.78002729099E+01	6.75322993899E+01	-5.96337751129E+00	-1.01061264016E+00
1.80901211246E+06	-9.98526402104E+00	-1.65844030249E+02	1.09473764595E+01	1.70901056338E+02	-4.23999623900E+01	1.79488691153E+02	-5.95795066071E+00	-7.33131175486E-01
1.83120346705E+06	-9.53750168731E+00	1.71220823757E+02	1.07317217959E+01	1.70315498297E+02	-3.63922513057E+01	-3.46935830519E+01	-6.02636473165E+00	-5.59515987460E-01
1.85339482165E+06	-1.46773556910E+01	1.58248695419E+02	1.07974478009E+01	1.70031969435E+02	-4.82413879679E+01	-1.30184722955E+02	-5.95899038362E+00	-8.06004237192E-01
1.87558617624E+06	-1.15736439954E+01	-1.72505844114E+02	1.08060401224E+01	1.69531017509E+02	-3.99292588582E+01	-7.06442581043E+01	-5.99185940324E+00	-6.16654438277E-01
1.89777753084E+06	-1.38988819899E+01	1.71127281566E+02	1.07943635212E+01	1.69632437863E+02	-3.93598308149E+01	-5.77392851545E+01	-5.97340381773E+00	-9.42873014835E-01
1.91996888543E+06	-1.40988138340E+01	-1.63384386163E+02	1.07954860481E+01	1.69454736857E+02	-3.50697606033E+01	-1.59283426888E+02	-6.10305676549E+00	-1.18534904492E+00
1.94216024003E+06	-7.48489916331E+00	-1.65614653415E+02	1.08195497906E+01	1.69774098564E+02	-3.53730705741E+01	9.66441176509E+01	-5.94693823465E+00	-8.03561101349E-01
1.96435159462E+06	-1.33809899451E+01	-1.48768000925E+02	1.06543166139E+01	1.69719384597E+02	-4.13804808739E+01	1.39422382024E+01	-5.94756710053E+00	-8.29043304548E-01
1.98654294922E+06	-1.02395914146E+01	-1.61142138561E+02	1.07619562270E+01	1.69304430038E+02	-4.22165079311E+01	-1.69901922412E+02	-5.93044130250E+00	-1.02750836000E+00
2.00873430381E+06	-1.21567080834E+01	-1.72236749035E+02	1.07862270354E+01	1.69035471752E+02	-3.58713632428E+01	8.67185331094E+01	-6.00293570355E+00	-8.18922131891E-01
2.03092565841E+06	-1.03686120257E+01	1.76639977382E+02	1.07951318382E+01	1.68859799596E+02	-4.53388432276E+01	3.66202021604E+01	-5.98357825463E+00	-1.15625017837E+00
2.05311701300E+06	-1.38906055115E+01	1.73679027318E+02	1.07661944523E+01	1.68659523464E+02	-4.23735372801E+01	5.36581187195E+01	-5.95497891226E+00	-9.61689299932E-01
2.07530836760E+06	-1.03928956125E+01	1.65880618737E+02	1.07810347720E+01	1.68728957559E+02	-4.02889687895E+01	1.59755216409E+01	-5.91970705900E+00	-6.04825188721E-01
2.09749972219E+06	-1.02919365456E+01	-1.73042849672E+02	1.08203516848E+01	1.68692009129E+02	-3.98016291012E+01	-1.02412518364E+02	-5.92739207471E+00	-1.09900020208E+00
2.11969107679E+06	-1.28971915469E+01	-1.61501913481E+02	1.07599043145E+01	1.68874316527E+02	-4.33757206249E+01	9.53876578806E+01	-5.95529962226E+00	-1.08849600330E+00
2.14188243138E+06	-7.90014623085E+00	1.64879514267E+02	1.07484914633E+01	1.68045818425E+02	-4.63957065951E+01	5.78494246072E+01	-5.95155759592E+00	-1.20352790638E+00
2.16407378598E+06	-1.40221211265E+01	1.59681583481E+02	1.07726007610E+01	1.67964597135E+02	-3.98766069438E+01	1.96994465750E+01	-5.95947734033E+00	-9.31681312705E-01
2.18626514057E+06	-1.09406052762E+01	1.62607812129E+02	1.07575072310E+01	1.68098951805E+02	-4.07476655151E+01	-1.41113242917E+02	-5.95512869129E+00	-9.11793788700E-01
2.20845649517E+06	-8.96431913297E+00	-1.78029527039E+02	1.07999490323E+01	1.67697020840E+02	-5.31296391421E+01	5.04972842990E+01	-5.93776266806E+00	-1.17733823574E+00
2.23064784976E+06	-1.19543073829E+01	1.66441964809E+02	1.07826743744E+01	1.67624597111E+02	-3.47731013355E+01	-1.35052443089E+02	-6.01395728115E+00	-7.80409942695E-01
2.25283920436E+06	-1.07961841265E+01	-1.62392688642E+02	1.08099064356E+01	1.67632256160E+02	-4.28670368078E+01	8.75819914701E+01	-5.96625449097E+00	-1.17599223285E+00
2.27503055895E+06	-8.34703026291E+00	-1.66565630926E+02	1.08183485507E+01	1.67340960534E+02	-4.43467706974E+01	1.36502118339E+02	-5.98618959706E+00	-1.27416395049E+00
2.29722191355E+06	-8.82879967585E+00	-1.65901809325E+02	1.07984689288E+01	1.67025605400E+02	-3.83722734104E+01	1.69201288293E+02	-5.95895843794E+00	-1.09346801734E+00
2.31941326814E+06	-9.41486253768E+00	1.78378830516E+02	1.07997124023E+01	1.67041972363E+02	-4.20899367924E+01	5.24749598819E+01	-5.95233214079E+00	-1.06193660953E+00
2.34160462274E+06	-8.17304179703E+00	-1.70496479707E+02	1.07890439998E+01	1.66958037083E+02	-4.64191419478E+01	7.53642311648E+01	-5.98433420393E+00	-1.08912240690E+00
2.36379597733E+06	-1.02289452086E+01	-1.66437430295E+02	1.07985920953E+01	1.67058173976E+02	-4.57272261038E+01	9.98299108556E+01	-5.94717317868E+00	-1.34851762239E+00
2.38598733193E+06	-1.27027467042E+01	1.79225497565E+02	1.07990115235E+01	1.66642385151E+02	-3.82151646520E+01	1.24005529002E+02	-5.99964522210E+00	-1.25322157488E+00
2.40817868652E+06	-7.81780577163E+00	-1.78799440083E+02	1.08051353398E+01	1.66727596150E+02	-3.58173209089E+01	3.02183949265E+01	-5.97782287640E+00	-1.24206536079E+00
2.43037004112E+06	-1.23054462979E+01	-1.77644550264E+02	1.07113809677E+01	1.66617925660E+02	-3.65372017374E+01	-6.76138264464E+01	-5.96868790826E+00	-1.41568947437E+00
2.45256139571E+06	-8.97557490948E+00	1.79237536357E+02	1.07719983752E+01	1.66083703494E+02	-3.92871411043E+01	1.41429531923E+02	-5.97184345715E+00	-1.07041099482E+00
2.47475275031E+06	-1.28108652746E+01	-1.68483946159E+02	1.07371321785E+01	1.66424128952E+02	-4.46782695928E+01	-1.30698316795E+02	-5.99531717759E+00	-1.20695660939E+00
2.49694410490E+06	-1.11193618605E+01	-1.74157129756E+02	1.07947622464E+01	1.66295504165E+02	-3.93182435703E+01	-1.15289003974E+02	-5.97915098706E+00	-1.23134213832E+00
2.51913545950E+06	-1.03927908920E+01	-1.34560757421E+02	1.08232037460E+01	1.66171949300E+02	-4.14290914494E+01	-5.15630116426E+01	-5.94829496807E+00	-1.29364955206E+00
2.54132681409E+06	-8.16592560059E+00	1.73142730252E+02	1.08043806929E+01	1.65557718328E+02	-3.67347128516E+01	1.58016898736E+02	-6.06253718941E+00	-1.20891935870E+00
2.56351816869E+06	-1.03279549022E+01	-1.61333535734E+02	1.07668230778E+01	1.65790679445E+02	-3.60533654705E+01	-1.13775905904E+02	-5.98340046044E+00	-1.04993450687E+00
2.58570952328E+06	-9.60555133449E+00	-1.72857063746E+02	1.08391562528E+01	1.66518078845E+02	-4.12826177550E+01	-4.41780171123E+01	-5.98152298133E+00	-1.28291781877E+00
2.60790087788E+06	-1.15349887947E+01	1.40857293930E+02	1.07104825732E+01	1.65679801856E+02	-4.20438340384E+01	-5.30477049061E+01	-5.99818926624E+00	-1.03966180921E+00
2.63009223247E+06	-1.37412151847E+01	-1.74947529938E+02	1.08153776694E+01	1.65691688554E+02	-4.95156172305E+01	4.27936641070E+01	-5.92604403381E+00	-1.32249126037E+00
2.65228358707E+06	-1.45083827424E+01	1.59429552189E+02	1.07382151611E+01	1.64996700053E+02	-4.12684318579E+01	-1.56989301978E+02	-5.96398468233E+00	-1.50794576125E+00
2.67447494166E+06	-1.32727666031E+01	-1.68414347932E+02	1.07410245169E+01	1.65171343891E+02	-3.66898587522E+01	-3.34818422669E+01	-5.95190144906E+00	-1.44563702257E+00
2.69666629626E+06	-1.21286571008E+01	-1.71200760469E+02	1.07792609402E+01	1.64982342019E+02	-3.63327416311E+01	-8.53988004611E+01	-5.95414846125E+00	-1.21235263207E+00
2.71885765085E+06	-1.06841936671E+01	-1.63672189740E+02	1.07867713167E+01	1.64885812010E+02	-4.36614826593E+01	-1.34156718503E+02	-5.99127828781E+00	-1.26541573952E+00
2.74104900545E+06	-9.47798197380E+00	1.57257510850E+02	1.07840222639E+01	1.64658652690E+02	-3.57170588550E+01	-1.56533466607E+02	-5.96524770865E+00	-1.04826576265E+00
2.76324036004E+06	-8.34639894125E+00	-1.71333492874E+02	1.07497723451E+01	1.64497973229E+02	-4.17713235956E+01	1.08199042616E+01	-5.98084261149E+00	-1.26588817808E+00
2.78543171463E+06	-1.13162083757E+01	1.78550813058E+02	1.07460082877E+01	1.64471485599E+02	-4.18403083584E+01	-1.63052041664E+02	-5.94504900266E+00	-1.40349634973E+00
2.80762306923E+06	-1.26313813746E+01	1.73924698376E+02	1.07794413138E+01	1.64184299618E+02	-4.95596557075E+01	3.43366032361E+01	-5.92341579977E+00	-1.25129751732E+00
2.82981442382E+06	-1.36330060249E+01	1.72757656743E+02	1.07599867419E+01	1.64195053079E+02	-4.33124528388E+01	-2.99438829458E+01	-5.95281947163E+00	-1.47071045856E+00
2.85200577842E+06	-1.30714271336E+01	-1.68047414061E+02	1.07766799644E+01	1.64203286467E+02	-4.89566844497E+01	-1.10422309624E+02	-5.98814945619E+00	-1.38728092854E+00
2.87419713301E+06	-1.01195159683E+01	1.65331184803E+02	1.07899733502E+01	1.64080819761E+02	-3.76568883812E+01	9.74940261708E+01	-5.93300736489E+00	-1.26728874947E+00
