# Hz S DB R 50
! CMT, M5065, 19127446, 24.2.4/2
! Date: 10/29/2024 12:37:08 PM
! Data: Format (Calibration Info)
! Freq	S11:dB/Ang(F2)	S21:dB/Ang(F2)	S12:dB/Ang(F2)	S22:dB/Ang(F2)
3.00000000000E+05	-8.59348782298E+00	1.77874869205E+02	1.27986328920E+01	-1.78148966551E+02	-4.46746301468E+01	-5.87948300391E+01	-5.94405918909E+00	-1.33602707160E-01
3.22191354595E+05	-9.99125756625E+00	-1.66080092013E+02	1.28217101743E+01	-1.78283024635E+02	-3.91797936115E+01	-1.55651488627E+02	-6.00631681486E+00	-1.10225095205E-01
3.44382709190E+05	-1.00972799294E+01	-1.72953506037E+02	1.28347895176E+01	-1.78922007882E+02	-4.43562985170E+01	7.62526510691E+01	-5.97882227427E+00	-3.95816632585E-01
3.66574063785E+05	-9.42850626878E+00	-1.73144640613E+02	1.28395229832E+01	-1.79329117251E+02	-3.62987146194E+01	-1.20931558307E+02	-5.96328601445E+00	-3.13795292707E-01
3.88765418380E+05	-1.22196121977E+01	1.71750843203E+02	1.28232045975E+01	-1.79384633256E+02	-3.57607748175E+01	-2.80954063552E+01	-5.94236143138E+00	-2.47585534746E-01
4.10956772975E+05	-9.97520004036E+00	-1.69263187796E+02	1.28416520256E+01	-1.79720059644E+02	-3.66536470175E+01	-1.27844985899E+02	-5.97839909505E+00	-4.13044787446E-01
4.33148127570E+05	-6.48955972094E+00	-1.76169186659E+02	1.27862715827E+01	-1.79964810668E+02	-4.42602086454E+01	8.17450645141E+01	-5.97735395322E+00	-3.09090880675E-01
4.55339482165E+05	-7.38858367963E+00	-1.60404017471E+02	1.28228903996E+01	1.79095638780E+02	-4.43150182672E+01	3.79304940797E+01	-5.95292721497E+00	-4.08487153454E-01
4.77530836760E+05	-8.29592108762E+00	1.64537088305E+02	1.28068103283E+01	1.79596505067E+02	-4.72292507039E+01	2.99828460306E+01	-5.99596556029E+00	-2.99774405728E-01
4.99722191355E+05	-8.61784293733E+00	1.62401729953E+02	1.28618172813E+01	1.78965624575E+02	-4.14488813915E+01	1.07455370177E+02	-5.98597536220E+00	-2.69367011634E-01
5.21913545950E+05	-1.11399677819E+01	1.74485631475E+02	1.28206163960E+01	1.78680032449E+02	-3.69435744862E+01	-1.71656193538E+02	-5.98370055965E+00	-4.19912661332E-01
5.44104900545E+05	-1.12009750216E+01	1.60667963160E+02	1.28461089932E+01	1.78582201365E+02	-4.32780126871E+01	-3.15412562801E+00	-6.01271278720E+00	-4.03134919739E-01
5.66296255139E+05	-9.53466839568E+00	-1.66746743985E+02	1.28436393228E+01	1.78097447936E+02	-4.06891499238E+01	6.69949721157E+01	-5.98413506424E+00	-1.40828658555E-01
5.88487609734E+05	-8.51266439876E+00	-1.67383453286E+02	1.28005696000E+01	1.78025415245E+02	-3.77322824770E+01	6.05852718416E+01	-5.94705641705E+00	-7.22274529207E-01
6.10678964329E+05	-9.17558434471E+00	-1.74433818029E+02	1.28517791373E+01	1.78189374604E+02	-4.66149696554E+01	1.37531275824E+02	-5.96213795312E+00	-2.89607750383E-01
6.32870318924E+05	-8.45108916058E+00	-1.70748223475E+02	1.28514262215E+01	1.77873538451E+02	-4.88433932348E+01	-1.01920793474E+02	-5.96130206842E+00	-5.55638544943E-01
6.55061673519E+05	-1.05900654869E+01	-1.46794376775E+02	1.28363303607E+01	1.77429513998E+02	-4.26525034063E+01	1.52623021497E+02	-5.95563387980E+00	-1.71357402959E-01
6.77253028114E+05	-1.05381696816E+01	1.69927493435E+02	1.28139558728E+01	1.77332789680E+02	-4.51409524346E+01	-1.40305391788E+02	-5.97945112312E+00	-5.28852311514E-01
6.99444382709E+05	-1.08878379379E+01	-1.42636325341E+02	1.28548928759E+01	1.76829330794E+02	-4.05559872509E+01	-1.11090742884E+02	-5.96192046864E+00	-6.25847854454E-01
7.21635737304E+05	-1.20402246118E+01	-1.76638179926E+02	1.28225962158E+01	1.77200541457E+02	-4.47790125064E+01	1.40267558554E+02	-5.99468726301E+00	-5.16856101321E-01
7.43827091899E+05	-8.13909729782E+00	1.67455739516E+02	1.28702328262E+01	1.76650462752E+02	-3.38457609906E+01	-3.30394085773E+01	-5.96504020109E+00	-4.73549304121E-01
7.66018446494E+05	-8.86572550284E+00	1.76136852220E+02	1.28414745360E+01	1.76297575708E+02	-4.22491746397E+01	1.26093761358E+02	-5.98141037941E+00	-2.85738003887E-01
7.88209801089E+05	-8.78217379125E+00	1.76359225432E+02	1.28210474984E+01	1.76193337636E+02	-3.66358786694E+01	-1.03445690316E+01	-5.97804650357E+00	-3.54429316828E-01
8.10401155684E+05	-1.28920465977E+01	-1.61026455869E+02	1.28283449285E+01	1.76288710432E+02	-5.12117775198E+01	9.84096600012E+01	-5.96139550353E+00	-6.68229600939E-01
8.32592510279E+05	-8.14397441809E+00	1.75893703946E+02	1.28509478831E+01	1.75886019026E+02	-4.23300088331E+01	1.12389322628E+02	-5.97351873738E+00	-2.99883275356E-01
8.54783864874E+05	-8.82389283885E+00	1.61637536161E+02	1.28742557072E+01	1.75528689259E+02	-4.27464839145E+01	-4.81800202754E+01	-5.96299176199E+00	-6.78072843502E-01
8.76975219469E+05	-7.62959541648E+00	1.67111762024E+02	1.28873930725E+01	1.75399872112E+02	-4.12981530652E+01	-1.42402197330E+00	-5.97789021276E+00	-6.58164887484E-01
8.99166574064E+05	-1.30737314090E+01	-1.78594769397E+02	1.28621388645E+01	1.75165777110E+02	-3.94508299738E+01	-1.59993026443E+02	-5.97557858544E+00	-5.26429776892E-01
9.21357928659E+05	-1.24690547699E+01	-1.56024790160E+02	1.28637931126E+01	1.75396955684E+02	-4.70813058548E+01	-9.67013298119E+01	-5.96340869058E+00	-6.60559637627E-01
9.43549283254E+05	-1.03044496910E+01	1.64018698673E+02	1.28882611338E+01	1.75200153658E+02	-3.87942700632E+01	-2.93970375280E+01	-5.96949658271E+00	-6.30244560634E-01
9.65740637849E+05	-1.48198500003E+01	1.73804481925E+02	1.28601487045E+01	1.74887137271E+02	-4.26132385411E+01	4.31721644268E+01	-5.98449704716E+00	-4.39625763061E-01
9.87931992444E+05	-1.00286858695E+01	1.76480225226E+02	1.28269446306E+01	1.74846843621E+02	-4.38484050412E+01	-1.04998784732E+02	-5.97543247599E+00	-7.10576593422E-01
1.01012334704E+06	-8.71377517647E+00	-1.72749750829E+02	1.28861355312E+01	1.74637288114E+02	-3.87915853131E+01	-1.90899017901E+01	-5.99044919365E+00	-6.81658620148E-01
1.03231470163E+06	-1.12192053009E+01	1.77789361747E+02	1.28627779509E+01	1.74084837449E+02	-4.53302008022E+01	1.28761315839E+02	-6.01599630562E+00	-2.72231226831E-01
1.05450605623E+06	-7.79652109003E+00	1.68654737448E+02	1.28430292845E+01	1.73988750261E+02	-3.95389926641E+01	1.53478185073E+02	-5.97465101378E+00	-6.04400405746E-01
1.07669741082E+06	-7.96692691994E+00	1.72236060531E+02	1.28042988998E+01	1.73950410545E+02	-3.50220822007E+01	-2.11366333829E+01	-5.98189115768E+00	-5.67608492196E-01
1.09888876542E+06	-1.15195582754E+01	-1.65987700219E+02	1.28669333108E+01	1.74115676117E+02	-4.54292180311E+01	4.10085690558E+00	-5.97890900027E+00	-4.24022791751E-01
1.12108012001E+06	-7.96759152010E+00	1.79222828415E+02	1.28421339230E+01	1.73982796981E+02	-3.52804321260E+01	-6.11947437327E+01	-5.94546841366E+00	-6.65633699240E-01
1.14327147461E+06	-1.00989845500E+01	1.70832914270E+02	1.28383662472E+01	1.73658988248E+02	-3.63560306147E+01	-5.17683542565E+01	-5.98405870440E+00	-9.91023418097E-01
1.16546282920E+06	-9.58406630082E+00	-1.60443610672E+02	1.28571617258E+01	1.73144895967E+02	-4.95754014091E+01	-1.36258254106E+02	-5.95882964824E+00	-6.56260979907E-01
1.18765418380E+06	-1.15858405570E+01	1.78803480619E+02	1.27606305941E+01	1.73376707189E+02	-3.85344346079E+01	6.07649858734E+01	-5.96703206154E+00	-4.85406244429E-01
1.20984553839E+06	-1.07562725583E+01	1.67562074091E+02	1.28285906048E+01	1.73133067182E+02	-3.78536459210E+01	-1.19587384387E+02	-6.00903908340E+00	-8.68604880187E-01
1.23203689299E+06	-1.09297880286E+01	1.62219857624E+02	1.28410125171E+01	1.72890469804E+02	-4.52348447177E+01	1.74833814517E+01	-5.94427520780E+00	-3.79891504356E-01
1.25422824758E+06	-1.01732845482E+01	-1.54971389126E+02	1.28601141200E+01	1.72694596274E+02	-5.07083708921E+01	-2.35042950524E+01	-5.96335655401E+00	-5.83653122538E-01
1.27641960218E+06	-9.95105617545E+00	-1.55936741763E+02	1.28598832120E+01	1.72502767878E+02	-5.02171375284E+01	5.01979193842E+01	-5.99788443356E+00	-6.29789995454E-01
1.29861095677E+06	-8.07443271118E+00	-1.74895670760E+02	1.28408621425E+01	1.72475015039E+02	-4.34889341904E+01	-1.79743969132E+02	-5.99135334648E+00	-7.59483101805E-01
1.32080231137E+06	-8.01867335526E+00	-1.53739688615E+02	1.28126046559E+01	1.72258049151E+02	-3.84556001265E+01	6.69983046524E+01	-5.89651687589E+00	-1.12126598069E+00
1.34299366596E+06	-7.61140683805E+00	-1.75207944856E+02	1.28321364313E+01	1.71832702445E+02	-3.76497655414E+01	-1.03059578845E+02	-5.94960060743E+00	-9.15384679922E-01
1.36518502056E+06	-1.06454436611E+01	1.68881569183E+02	1.28493035310E+01	1.71437839911E+02	-4.54753131136E+01	-8.61436244989E+01	-5.98960590660E+00	-8.57143500725E-01
1.38737637515E+06	-7.84523201635E+00	1.65458642105E+02	1.28245255664E+01	1.71815225618E+02	-4.61665153781E+01	7.33758174398E+01	-5.99848292434E+00	-8.02613686390E-01
1.40956772975E+06	-8.63723853412E+00	-1.78430647155E+02	1.28523470912E+01	1.71315969253E+02	-3.67778499040E+01	1.31484896050E+02	-6.03252996585E+00	-7.78942641934E-01
1.43175908434E+06	-1.34772709349E+01	-1.65940955504E+02	1.28773920752E+01	1.71562685917E+02	-5.37706014202E+01	2.74827836838E+01	-5.96752118333E+00	-7.29319384258E-01
1.45395043894E+06	-8.38519371764E+00	-1.58732400503E+02	1.28524468460E+01	1.71378784251E+02	-4.71400216809E+01	1.01205580919E+02	-5.97046342448E+00	-9.68150145628E-01
1.47614179353E+06	-1.28279647726E+01	-1.53436787852E+02	1.28773555625E+01	1.71195064251E+02	-4.50503539291E+01	-5.72427874759E+00	-5.95103920620E+00	-4.57480490506E-01
1.49833314813E+06	-9.52619148038E+00	-1.56571547910E+02	1.28200704684E+01	1.71069342831E+02	-4.65299504693E+01	-8.43273643830E+01	-5.94963617346E+00	-6.27361960045E-01
1.52052450272E+06	-9.94151132833E+00	1.72160993705E+02	1.28637903668E+01	1.70737142839E+02	-4.54416610677E+01	1.40559035189E+02	-5.97405741527E+00	-1.13645370886E+00
1.54271585732E+06	-1.20867146333E+01	-1.70489521542E+02	1.28656981714E+01	1.70568157067E+02	-3.98441381720E+01	-1.65402891107E+02	-5.97971433872E+00	-4.42186721281E-01
1.56490721191E+06	-9.25075905893E+00	-1.76256562054E+02	1.28316791143E+01	1.70653569245E+02	-3.54120192452E+01	5.77091829456E+01	-5.96685648562E+00	-6.48183019444E-01
1.58709856651E+06	-9.53224015020E+00	-1.66067516672E+02	1.28541981652E+01	1.70439052345E+02	-4.43106239140E+01	-1.30217874380E+02	-5.96293127295E+00	-8.42541080613E-01
1.60928992110E+06	-8.78390661148E+00	-1.66778737465E+02	1.28277066185E+01	1.70149019944E+02	-3.87189806544E+01	-6.74812382641E+01	-5.97508744580E+00	-1.28590108866E+00
1.63148127570E+06	-9.92362791655E+00	-1.76093377412E+02	1.28272349562E+01	1.69934121259E+02	-3.45836935484E+01	-1.03939221627E+02	-5.90621496117E+00	-4.26760998912E-01
1.65367263029E+06	-9.17645223804E+00	-1.77597308533E+02	1.29132666183E+01	1.70266841394E+02	-3.78387372816E+01	1.62845347367E+02	-6.00770963200E+00	-8.07621148170E-01
1.67586398489E+06	-1.07744719962E+01	1.56629679501E+02	1.28310588297E+01	1.69777468192E+02	-4.70011747154E+01	-1.14535025852E+02	-5.97075541678E+00	-5.44043906346E-01
1.69805533948E+06	-8.08765001418E+00	-1.66966583653E+02	1.28419006518E+01	1.69893445550E+02	-4.79489924586E+01	-2.44067823765E+01	-5.99498709620E+00	-9.86928112672E-01
1.72024669408E+06	-9.87300623185E+00	-1.61541895482E+02	1.28159389774E+01	1.69688017297E+02	-6.41764761176E+01	-5.44427257558E+01	-6.01735597660E+00	-7.70373352668E-01
1.74243804867E+06	-1.32193867860E+01	-1.56524303432E+02	1.28526647158E+01	1.69300722300E+02	-4.04462933061E+01	-1.41782443778E+02	-5.96718479128E+00	-8.21056306862E-01
1.76462940327E+06	-1.28540049288E+01	1.74297307028E+02	1.28216253272E+01	1.69112744572E+02	-4.19282445290E+01	1.23265716290E+02	-5.97697912634E+00	-1.29467020022E+00
1.78682075786E+06	-9.42171835682E+00	-1.79432540634E+02	1.28087661808E+01	1.69183781235E+02	-3.77726959032E+01	4.99704802785E+01	-5.92268659911E+00	-1.00291763345E+00
1.80901211246E+06	-1.16159360721E+01	1.73422583569E+02	1.27582058438E+01	1.68833375475E+02	-4.89567699947E+01	-1.07922543046E+02	-5.97564421195E+00	-7.46386703059E-01
1.83120346705E+06	-9.56790676212E+00	-1.68472381800E+02	1.29129233754E+01	1.68508849665E+02	-4.03453708053E+01	-1.02159525788E+02	-5.99031554662E+00	-9.65455453132E-01
1.85339482165E+06	-6.75779292158E+00	1.79516054064E+02	1.28082939799E+01	1.68590735083E+02	-3.88174680923E+01	8.50762522813E+01	-5.92467725480E+00	-7.95308523170E-01
1.87558617624E+06	-1.02714399814E+01	1.75282711966E+02	1.28426260826E+01	1.68357091399E+02	-3.82674257359E+01	-1.79903546243E+02	-5.96827181151E+00	-8.01304289909E-01
1.89777753084E+06	-1.00313009663E+01	-1.61978585620E+02	1.28335340536E+01	1.67890325146E+02	-4.72213425585E+01	1.39056200747E+02	-5.99832377667E+00	-9.22047586253E-01
1.91996888543E+06	-1.04502868621E+01	-1.79111768974E+02	1.28316623757E+01	1.67871475453E+02	-4.02258884600E+01	6.23236720917E+01	-6.01653512142E+00	-8.66411855380E-01
1.94216024003E+06	-1.06726112932E+01	-1.77117283864E+02	1.28440918090E+01	1.67935718061E+02	-4.33847383249E+01	1.08098714508E+02	-5.94174680655E+00	-6.97354767002E-01
1.96435159462E+06	-1.13778398915E+01	-1.61124004443E+02	1.27766866827E+01	1.68473773884E+02	-4.63410551482E+01	7.00583928901E+01	-6.00395435090E+00	-7.16942999228E-01
1.98654294922E+06	-8.97559882470E+00	-1.76905857724E+02	1.28696984676E+01	1.67948048933E+02	-4.56590124383E+01	-4.95956427676E+01	-5.95788902166E+00	-1.16591560370E+00
2.00873430381E+06	-9.64623118894E+00	-1.68407849162E+02	1.28084530242E+01	1.67706523002E+02	-3.86811364506E+01	-3.20388786468E+01	-5.94165340340E+00	-7.70840512210E-01
2.03092565841E+06	-8.45486783665E+00	1.74728431950E+02	1.28323708554E+01	1.67596662364E+02	-4.37684204413E+01	6.40392514625E+01	-5.95628286322E+00	-9.02972430823E-01
2.05311701300E+06	-1.02460706852E+01	1.65256713046E+02	1.28487470436E+01	1.67133052184E+02	-5.26820645212E+01	9.85942715084E+01	-5.97875079534E+00	-7.92108014467E-01
2.07530836760E+06	-9.28935781999E+00	1.72000785185E+02	1.28358474132E+01	1.67116721399E+02	-4.49233050866E+01	1.21494796567E+02	-5.97755496271E+00	-9.52480923973E-01
2.09749972219E+06	-9.74767068471E+00	1.68873548378E+02	1.28626018610E+01	1.66892641974E+02	-3.94590354595E+01	1.64081239294E+02	-6.02743477452E+00	-6.91408039951E-01
2.11969107679E+06	-9.27009056049E+00	-1.77800064571E+02	1.28861332726E+01	1.66611486401E+02	-4.35431103620E+01	-1.12163503735E+02	-6.00584283250E+00	-7.49980545200E-01
2.14188243138E+06	-6.55044425646E+00	-1.78461666927E+02	1.28502939954E+01	1.66600240119E+02	-3.98456020485E+01	1.83802271189E+01	-5.97453545395E+00	-1.10212369226E+00
2.16407378598E+06	-1.32417672746E+01	1.74188718606E+02	1.28241055724E+01	1.66671215530E+02	-3.70312068827E+01	-5.73505408901E+01	-6.03306679235E+00	-9.25871444934E-01
2.18626514057E+06	-1.05057720184E+01	-1.70800550152E+02	1.28229449750E+01	1.66430819054E+02	-3.96028013113E+01	5.14363610230E+01	-5.95451168275E+00	-1.36065942798E+00
2.20845649517E+06	-1.10674409072E+01	-1.75745734551E+02	1.28874525233E+01	1.66336773983E+02	-3.34227777770E+01	1.03750011283E+02	-5.95929195171E+00	-1.21844349202E+00
2.23064784976E+06	-9.49425059953E+00	1.72711450204E+02	1.28131942698E+01	1.66406460350E+02	-4.95578315065E+01	3.72944346215E+01	-5.96652941911E+00	-1.27245194323E+00
2.25283920436E+06	-8.60688410860E+00	1.60770647778E+02	1.28254749287E+01	1.65732049377E+02	-4.16229168373E+01	-4.50172800310E+01	-6.01424256647E+00	-1.54643910785E+00
2.27503055895E+06	-8.60959905273E+00	1.72360137362E+02	1.28622380035E+01	1.65377012132E+02	-4.11346990065E+01	5.60287136159E+01	-5.96974702845E+00	-1.36609352558E+00
2.29722191355E+06	-9.37225037580E+00	-1.71442225832E+02	1.28581363578E+01	1.65816704430E+02	-5.44310177833E+01	-3.03107304228E+01	-5.94711340903E+00	-1.14318281406E+00
2.31941326814E+06	-1.33522799794E+01	-1.77614902912E+02	1.28305897829E+01	1.65433558133E+02	-3.23573874081E+01	7.70352532098E+00	-5.96287192319E+00	-1.11938251845E+00
2.34160462274E+06	-9.36031806729E+00	-1.67560613794E+02	1.27597612610E+01	1.65398771399E+02	-4.22567736182E+01	-6.25968959382E+01	-5.94780139626E+00	-1.21025310392E+00
2.36379597733E+06	-9.71932169940E+00	1.76241536383E+02	1.28584434867E+01	1.65168757780E+02	-3.85361507373E+01	6.69242188308E+01	-5.98001230622E+00	-1.16869680208E+00
2.38598733193E+06	-9.85007537090E+00	1.70095078865E+02	1.28020369779E+01	1.65001776349E+02	-4.32621142729E+01	-2.13693893364E+01	-5.94300919275E+00	-1.28918661243E+00
2.40817868652E+06	-8.48414411329E+00	-1.60871376324E+02	1.28059259832E+01	1.64720693225E+02	-5.13696904305E+01	-1.63718620488E+02	-5.95697889625E+00	-5.66617507021E-01
2.43037004112E+06	-1.22302280375E+01	1.61304650929E+02	1.28463252031E+01	1.65003995118E+02	-3.61181191116E+01	-5.52886817264E+01	-5.94229387204E+00	-1.55580601517E+00
2.45256139571E+06	-7.47880017200E+00	1.55446919620E+02	1.28053232618E+01	1.62822470743E+02	-4.43493108323E+01	1.10070600274E+02	-5.96102670383E+00	-8.81865528368E-01
2.47475275031E+06	-1.03530241468E+01	-1.65665724559E+02	1.28086117381E+01	1.64509516375E+02	-4.36896970075E+01	1.51100675386E+02	-5.98161058714E+00	-1.31240994333E+00
2.49694410490E+06	-1.28143764917E+01	-1.79178987468E+02	1.28073100378E+01	1.64072679717E+02	-4.20222414004E+01	-1.13873928832E+02	-5.97434323512E+00	-1.19640687502E+00
2.51913545950E+06	-1.50010563910E+01	-1.69902088632E+02	1.28044350095E+01	1.64338975147E+02	-4.97606415133E+01	-6.65932057614E+01	-5.94870363922E+00	-9.28299422733E-01
2.54132681409E+06	-9.51906686532E+00	-1.78226719832E+02	1.28106496517E+01	1.63823075450E+02	-4.40699549690E+01	5.66638052742E+01	-5.98182095274E+00	-1.08309772490E+00
2.56351816869E+06	-8.44275329431E+00	-1.77946410502E+02	1.27816087773E+01	1.64038173089E+02	-4.46842265995E+01	1.65851615558E+02	-5.94374389539E+00	-1.28309853267E+00
2.58570952328E+06	-1.03068191134E+01	-1.71185060840E+02	1.28121045994E+01	1.63714368658E+02	-3.70972752270E+01	1.47003958969E+02	-5.98738524201E+00	-6.42099359619E-01
2.60790087788E+06	-6.37028651659E+00	-1.73247583396E+02	1.29503157352E+01	1.63263525736E+02	-4.25197345531E+01	-2.62844448457E+01	-5.99389821776E+00	-1.28252132827E+00
2.63009223247E+06	-1.05108973697E+01	1.74894980615E+02	1.28312701355E+01	1.63639258288E+02	-4.05453133159E+01	-3.83668251837E+01	-5.98790234793E+00	-1.16609973324E+00
2.65228358707E+06	-8.35213590779E+00	-1.78461501051E+02	1.28136708160E+01	1.63306573631E+02	-5.14519139894E+01	6.53275795615E+01	-5.94869726586E+00	-1.85338382445E+00
2.67447494166E+06	-1.07369680706E+01	1.75323788373E+02	1.28086044120E+01	1.63299149538E+02	-4.08066771350E+01	1.24565392132E+02	-5.92718962827E+00	-1.52427127991E+00
2.69666629626E+06	-9.90391537216E+00	1.79966096455E+02	1.27706443562E+01	1.62718547556E+02	-4.28110555556E+01	-1.61752778759E+01	-6.00069658149E+00	-1.39562981132E+00
2.71885765085E+06	-1.02800846860E+01	-1.70570700801E+02	1.28230564769E+01	1.62636901505E+02	-3.95604719092E+01	-1.18178321484E+02	-5.94739968738E+00	-1.30156719675E+00
2.74104900545E+06	-6.98482544815E+00	1.71381554555E+02	1.28377721208E+01	1.62642728195E+02	-4.40471506020E+01	-9.47831273912E+00	-5.97312598287E+00	-1.24921246339E+00
2.76324036004E+06	-8.83989187563E+00	1.76325935471E+02	1.28534962579E+01	1.62367910968E+02	-4.42595755340E+01	1.08250746771E+02	-5.97894536220E+00	-1.16742641550E+00
2.78543171463E+06	-8.73600913758E+00	-1.64195506101E+02	1.28149534653E+01	1.62052912182E+02	-4.33537136636E+01	-3.59395303885E+01	-5.95769685417E+00	-1.41852728467E+00
2.80762306923E+06	-7.88738289380E+00	1.73399430902E+02	1.28331430310E+01	1.62245616414E+02	-4.31579428392E+01	7.89250187349E+01	-5.96432453695E+00	-1.26628157299E+00
2.82981442382E+06	-1.19624073550E+01	1.74692870119E+02	1.28163483021E+01	1.62005102318E+02	-4.16804098656E+01	-8.52810208729E+01	-5.94474352533E+00	-1.26522260526E+00
2.85200577842E+06	-1.07787810227E+01	1.74581292230E+02	1.28481779945E+01	1.62013268148E+02	-3.81926242716E+01	2.72584867271E+01	-5.97963732771E+00	-1.00941043522E+00
2.87419713301E+06	-8.68311176246E+00	-1.77697100245E+02	1.28531229388E+01	1.62042857262E+02	-4.28255584272E+01	-4.50781524665E+01	-5.93058174305E+00	-1.67016866267E+00
