# Hz S DB R 50
! CMT, M5065, 19127446, 24.2.4/2
! Date: 10/29/2024 11:43:02 AM
! Data: Format (Calibration Info)
! Freq	S11:dB/Ang(F2)	S21:dB/Ang(F2)	S12:dB/Ang(F2)	S22:dB/Ang(F2)
3.00000000000E+05	-1.17636961407E+01	-1.63948716265E+02	4.72014533334E+00	-1.78297773234E+02	-4.48083723688E+01	-1.10365434238E+02	-5.99079823071E+00	-1.79879533767E-01
3.22191354595E+05	-1.20316402482E+01	-1.77541416408E+02	4.75317552419E+00	-1.78542816548E+02	-5.08950276009E+01	9.00148554641E+01	-5.98613209296E+00	-3.72845203869E-01
3.44382709190E+05	-1.24395778448E+01	-1.66975305150E+02	4.70265603311E+00	-1.78512614460E+02	-5.76481051896E+01	1.18013834155E+02	-5.96812367135E+00	-1.13283003172E-01
3.66574063785E+05	-1.17713980971E+01	-1.76430879997E+02	4.66109154832E+00	-1.79250083891E+02	-4.71037515722E+01	-1.49252215118E+02	-5.98109502892E+00	-3.12047638990E-01
3.88765418380E+05	-1.05197346189E+01	-1.56966933533E+02	4.72114516669E+00	-1.79105034586E+02	-4.62044551120E+01	1.69072062634E+01	-5.97125475379E+00	-2.70697260748E-01
4.10956772975E+05	-9.37451053975E+00	-1.71615033552E+02	4.73315440268E+00	-1.79248873383E+02	-3.77384882011E+01	-6.61762222976E+00	-5.97650720360E+00	-1.14577743837E-01
4.33148127570E+05	-1.20206036683E+01	1.76111684298E+02	4.71742724452E+00	-1.79686998968E+02	-4.41523274047E+01	1.22264007796E+02	-5.98862667341E+00	-2.39956941580E-01
4.55339482165E+05	-1.11719300089E+01	-1.61258131962E+02	4.72700880121E+00	-1.79750713096E+02	-4.63216026543E+01	-1.78942443535E+02	-5.99026885917E+00	-2.69620077922E-01
4.77530836760E+05	-9.50818170802E+00	1.76754813694E+02	4.69395528732E+00	-1.79920261407E+02	-4.73486164241E+01	8.74875342107E+01	-5.98067682090E+00	-4.59704455022E-01
4.99722191355E+05	-1.05357791527E+01	-1.69041331464E+02	4.71007608415E+00	1.79743911258E+02	-4.89865254468E+01	-1.31652301850E+02	-5.96565602021E+00	-3.11215592632E-01
5.21913545950E+05	-1.11303208929E+01	-1.74950169203E+02	4.77808684102E+00	1.79945524265E+02	-4.28707174910E+01	-4.68369091484E+01	-5.96945891321E+00	-3.19954277723E-01
5.44104900545E+05	-1.09576019099E+01	-1.73215750227E+02	4.78257348144E+00	1.79126652230E+02	-4.47939800834E+01	1.68072174525E+01	-5.97443567647E+00	-3.02986702755E-01
5.66296255139E+05	-1.08123808981E+01	-1.66469766009E+02	4.67965564546E+00	1.79128448005E+02	-4.04979667845E+01	-8.94254314047E+01	-5.98891576723E+00	-3.79864245202E-01
5.88487609734E+05	-1.14286597372E+01	-1.74948648782E+02	4.76503269507E+00	1.79171832411E+02	-5.84265861593E+01	-1.47145399221E+02	-5.98047782380E+00	-4.87746592538E-01
6.10678964329E+05	-9.99268388156E+00	-1.74559298802E+02	4.73103826040E+00	1.78735866214E+02	-4.24037737808E+01	1.67330860406E+02	-5.98181166061E+00	-1.48521817234E-01
6.32870318924E+05	-1.10738618234E+01	-1.71958944400E+02	4.74089651427E+00	1.78872535364E+02	-5.85441092914E+01	8.58802108684E+01	-5.99749645573E+00	-3.83479403196E-01
6.55061673519E+05	-9.16498145201E+00	1.78553940979E+02	4.70523812137E+00	1.78606296448E+02	-4.39560703367E+01	1.70737005582E+02	-5.97049176040E+00	4.85799860225E-03
6.77253028114E+05	-9.52111191327E+00	1.77045266797E+02	4.75768285233E+00	1.78707740974E+02	-4.20994526549E+01	-2.90008868110E+01	-5.98383037294E+00	-4.79160276366E-01
6.99444382709E+05	-1.02067060621E+01	1.73560544102E+02	4.68100746469E+00	1.78735289437E+02	-5.43000302387E+01	-5.24612560061E+01	-5.96085247623E+00	-3.80859017145E-01
7.21635737304E+05	-9.52547328642E+00	1.66203855430E+02	4.76479661552E+00	1.78237390553E+02	-4.37249274617E+01	1.63258894373E+02	-5.96967890968E+00	-4.02186519023E-01
7.43827091899E+05	-9.69590478523E+00	1.75923689324E+02	4.68003425416E+00	1.77950141896E+02	-4.26839379341E+01	5.84037109784E+01	-5.97556707085E+00	-5.41286522031E-01
7.66018446494E+05	-1.17629319638E+01	-1.68883658265E+02	4.69534005093E+00	1.78034950306E+02	-5.27675247395E+01	7.37563799693E+01	-5.96483198622E+00	-4.60743260792E-01
7.88209801089E+05	-8.20881054181E+00	1.76970310601E+02	4.70867908949E+00	1.77748597788E+02	-4.29378822224E+01	8.63078398072E+01	-5.96974494506E+00	-4.26236228181E-01
8.10401155684E+05	-1.11883997683E+01	-1.72513766007E+02	4.75252606243E+00	1.77656540693E+02	-4.81887204883E+01	1.49802102478E+02	-5.97428534101E+00	-3.81811021087E-01
8.32592510279E+05	-1.14940411337E+01	1.76389230349E+02	4.71740934535E+00	1.77296281578E+02	-6.13333784575E+01	-7.24544213690E+01	-5.96838972350E+00	-5.37079793018E-01
8.54783864874E+05	-9.84355706869E+00	1.76346544007E+02	4.72794219266E+00	1.77752757684E+02	-5.54827244119E+01	-7.20387853220E+01	-5.99896591882E+00	-4.46694567894E-01
8.76975219469E+05	-1.17403338049E+01	-1.78338392655E+02	4.72354096844E+00	1.77204196247E+02	-4.71036617888E+01	-3.24346272760E+01	-5.98301170172E+00	-5.58370341190E-01
8.99166574064E+05	-8.85188091458E+00	-1.73678699480E+02	4.72140332911E+00	1.77327323898E+02	-4.46060576150E+01	-1.61716744213E+02	-5.98764583659E+00	-4.44851934645E-01
9.21357928659E+05	-9.75838523069E+00	-1.67902078023E+02	4.73314112537E+00	1.77119821739E+02	-5.16649655305E+01	-9.94720979402E+01	-5.96290226910E+00	-4.93634376359E-01
9.43549283254E+05	-9.86265083660E+00	1.71198716949E+02	4.76286644983E+00	1.77003511750E+02	-5.82256595592E+01	1.14791836018E+02	-5.95836581612E+00	-5.68074167491E-01
9.65740637849E+05	-9.76014986698E+00	1.79309351203E+02	4.70847749275E+00	1.76873712242E+02	-5.67491049827E+01	1.44431957577E+02	-5.97107345172E+00	-6.38287375941E-01
9.87931992444E+05	-1.22035889348E+01	-1.75348306681E+02	4.73994841128E+00	1.76916947698E+02	-4.46076071672E+01	-9.09636729896E+00	-5.96167013144E+00	-4.78129895056E-01
1.01012334704E+06	-1.07544469792E+01	-1.75227001461E+02	4.77760625854E+00	1.76693927485E+02	-4.05625683541E+01	-3.81319399834E+01	-5.97922099593E+00	-4.62668967780E-01
1.03231470163E+06	-1.00971878379E+01	-1.65239496099E+02	4.73841697950E+00	1.76334926482E+02	-4.85857403463E+01	1.51392448127E+02	-5.97421815367E+00	-5.66124443181E-01
1.05450605623E+06	-1.08154728293E+01	1.76120540895E+02	4.75084376310E+00	1.76166278622E+02	-4.23076989751E+01	-8.98031264451E+01	-5.97016735289E+00	-6.55639582072E-01
1.07669741082E+06	-9.48100067190E+00	1.70441708483E+02	4.71771836592E+00	1.76227351767E+02	-4.94402499615E+01	9.20244318281E+01	-5.97334377468E+00	-5.60620029189E-01
1.09888876542E+06	-1.12144306035E+01	-1.63604403030E+02	4.71314973756E+00	1.75999911227E+02	-4.72637613916E+01	-1.51302024289E+02	-5.96856731126E+00	-5.28500362109E-01
1.12108012001E+06	-1.01486189293E+01	-1.79502235954E+02	4.75793083668E+00	1.76042016202E+02	-4.92859243574E+01	-1.71970408279E+02	-5.98061533262E+00	-6.67969989002E-01
1.14327147461E+06	-1.27519146692E+01	1.72963241230E+02	4.71948620382E+00	1.76013009056E+02	-4.35955422463E+01	1.10739861979E+02	-5.98017232563E+00	-6.76069424279E-01
1.16546282920E+06	-1.09534534206E+01	1.76309585931E+02	4.74646636434E+00	1.75825880405E+02	-4.80032525125E+01	-9.60650598433E+01	-5.96960844697E+00	-6.87451438600E-01
1.18765418380E+06	-1.01636058189E+01	-1.77028344460E+02	4.70995538331E+00	1.75256090840E+02	-4.25352892496E+01	-5.30793792212E+01	-5.96165767996E+00	-6.52052701292E-01
1.20984553839E+06	-9.02129056766E+00	1.76166084398E+02	4.76950408964E+00	1.75751187623E+02	-4.52041567957E+01	-3.66255998677E+01	-5.97417304282E+00	-8.40347294289E-01
1.23203689299E+06	-9.96820160770E+00	-1.74341568757E+02	4.72147758411E+00	1.75580097361E+02	-4.37493290713E+01	-6.18866540829E+01	-5.96805193979E+00	-5.81806293504E-01
1.25422824758E+06	-9.67929183460E+00	1.64150258068E+02	4.72805485448E+00	1.75483148317E+02	-4.67284177961E+01	1.58017946975E+02	-5.98825136743E+00	-6.02924301678E-01
1.27641960218E+06	-1.18145143014E+01	-1.75539938537E+02	4.74287476255E+00	1.75799724166E+02	-5.05898361593E+01	-1.28770875113E+02	-5.96882883719E+00	-5.92525617717E-01
1.29861095677E+06	-9.55056547546E+00	-1.72664049231E+02	4.76863072577E+00	1.75186654274E+02	-4.43123661104E+01	9.64570701376E+00	-5.98767821877E+00	-6.32669645861E-01
1.32080231137E+06	-9.90685318133E+00	1.70078458492E+02	4.72756808713E+00	1.75001395331E+02	-4.38258999293E+01	1.22761887445E+02	-5.97568406719E+00	-1.03649208971E+00
1.34299366596E+06	-9.14562519094E+00	1.76960941515E+02	4.71333621705E+00	1.74612698071E+02	-5.07171834925E+01	-1.50863636765E+01	-5.97824891292E+00	-8.65015760618E-01
1.36518502056E+06	-9.35965725563E+00	-1.74500548239E+02	4.74626205181E+00	1.74702289150E+02	-5.42543469614E+01	3.46109834856E+01	-5.97572903619E+00	-8.50175856210E-01
1.38737637515E+06	-1.05086718176E+01	-1.77890521458E+02	4.74858633234E+00	1.74501609196E+02	-4.46481857679E+01	4.90832750086E+01	-6.00053646654E+00	-8.16997268956E-01
1.40956772975E+06	-9.12787508922E+00	1.76734023046E+02	4.72327650742E+00	1.74356428077E+02	-4.49200091468E+01	6.84260548562E+01	-5.98090884481E+00	-6.79399085694E-01
1.43175908434E+06	-1.19342933707E+01	1.66417578404E+02	4.72418268561E+00	1.74196227450E+02	-4.35046676809E+01	-3.88385736952E+01	-5.97377735470E+00	-7.24839011483E-01
1.45395043894E+06	-9.56311955338E+00	1.70934255170E+02	4.73899356182E+00	1.73935872428E+02	-4.77665672604E+01	-1.17583919777E+02	-5.95602217688E+00	-7.92147210985E-01
1.47614179353E+06	-1.15081921184E+01	-1.66406206012E+02	4.78620593366E+00	1.74345499124E+02	-4.78872974570E+01	-7.30371993688E+01	-5.98427527935E+00	-7.68752195915E-01
1.49833314813E+06	-9.84496866709E+00	1.77776439069E+02	4.75023025913E+00	1.74336275523E+02	-5.41687522039E+01	-1.09001107952E+02	-5.97925910180E+00	-6.20732792955E-01
1.52052450272E+06	-1.10243705865E+01	1.74983545047E+02	4.69115418536E+00	1.73939954223E+02	-5.00570204670E+01	1.00986249486E+02	-5.99519462418E+00	-7.95628149321E-01
1.54271585732E+06	-1.26220867861E+01	-1.79215304309E+02	4.75515792012E+00	1.73655937201E+02	-5.35882120720E+01	7.61353327557E+01	-5.98869001242E+00	-7.35098401576E-01
1.56490721191E+06	-1.11652898378E+01	1.79014074181E+02	4.73689974273E+00	1.73844810482E+02	-5.67972054387E+01	1.21064335980E+02	-5.98322752453E+00	-7.97112250460E-01
1.58709856651E+06	-1.15603099486E+01	1.75616160675E+02	4.71518982491E+00	1.73819746403E+02	-5.28989115676E+01	-9.81667284802E+01	-5.95580175337E+00	-7.88219046391E-01
1.60928992110E+06	-1.16922453182E+01	1.73417057752E+02	4.72041492890E+00	1.73589965755E+02	-5.21968748834E+01	1.11462649629E+02	-5.97503417513E+00	-8.02214237944E-01
1.63148127570E+06	-8.66474323190E+00	1.60229968289E+02	4.66979933129E+00	1.73246629377E+02	-4.26213223329E+01	1.55365338334E+02	-5.96981920825E+00	-7.77246046505E-01
1.65367263029E+06	-9.62581079927E+00	-1.79010769312E+02	4.74130415910E+00	1.73395016898E+02	-4.96110513965E+01	-1.47180036392E+02	-5.97181683650E+00	-7.45898317485E-01
1.67586398489E+06	-9.19411516336E+00	1.71228009062E+02	4.72715717271E+00	1.73124738993E+02	-4.25707648329E+01	1.24736110273E+02	-5.98228635376E+00	-6.65272704869E-01
1.69805533948E+06	-1.31999832393E+01	-1.75386740976E+02	4.73454547304E+00	1.73144430744E+02	-4.13309735738E+01	1.35196134932E+02	-5.97044616646E+00	-7.37505071963E-01
1.72024669408E+06	-8.51778855034E+00	1.78558651603E+02	4.78166363318E+00	1.72949193290E+02	-4.66823844540E+01	1.15922353408E+02	-5.95668359820E+00	-8.51544154153E-01
1.74243804867E+06	-1.06951819577E+01	-1.73071462449E+02	4.74624325585E+00	1.72864689088E+02	-3.98155373380E+01	6.80267406369E+01	-5.95112573052E+00	-7.32972106233E-01
1.76462940327E+06	-1.07964767094E+01	1.74390201763E+02	4.68412167527E+00	1.72937474346E+02	-4.58754644953E+01	-9.10599479906E+01	-5.98090140147E+00	-9.23174145060E-01
1.78682075786E+06	-9.57588262463E+00	-1.74933738016E+02	4.75160948494E+00	1.72753959723E+02	-3.75233385308E+01	-1.68116876328E+02	-5.99202903907E+00	-6.81672308808E-01
1.80901211246E+06	-1.12338238415E+01	1.78014664531E+02	4.72078368457E+00	1.72664789108E+02	-3.90187582212E+01	-1.01614132621E+02	-5.97561925431E+00	-8.32308946900E-01
1.83120346705E+06	-1.28320611726E+01	1.77133290932E+02	4.75125310545E+00	1.72455234192E+02	-4.33081833144E+01	-1.58209326891E+02	-5.98553304101E+00	-9.46557946867E-01
1.85339482165E+06	-1.03834915356E+01	-1.76396831316E+02	4.75025796110E+00	1.72582477926E+02	-4.44253015754E+01	-7.63015506758E+01	-5.97704056533E+00	-8.19027223087E-01
1.87558617624E+06	-9.37173324970E+00	1.68270278402E+02	4.73814615450E+00	1.72490417634E+02	-4.17537867598E+01	-1.30351300679E+02	-5.97649668124E+00	-1.02939185286E+00
1.89777753084E+06	-8.16040919240E+00	1.74831848288E+02	4.78769701336E+00	1.72165726432E+02	-5.07789806514E+01	8.71218069446E+01	-5.98401857079E+00	-8.31687194810E-01
1.91996888543E+06	-1.08539537156E+01	1.73045273179E+02	4.73431563027E+00	1.72093629429E+02	-5.90054898268E+01	1.28940542162E+02	-5.96505300767E+00	-8.68223719515E-01
1.94216024003E+06	-1.11946206078E+01	-1.69377872654E+02	4.70624924201E+00	1.71631475913E+02	-4.60341432994E+01	6.13230017343E+01	-5.97362791798E+00	-1.10142735038E+00
1.96435159462E+06	-1.07373541771E+01	1.78324838353E+02	4.74561463109E+00	1.71730971054E+02	-4.40238523511E+01	1.33335912051E+02	-5.96639374490E+00	-8.37661249545E-01
1.98654294922E+06	-1.04816556538E+01	1.76056348200E+02	4.71599003827E+00	1.71868055357E+02	-5.04892713187E+01	-7.76924726722E+01	-5.96080474992E+00	-9.83536962729E-01
2.00873430381E+06	-1.11366458963E+01	1.75654228080E+02	4.71108776194E+00	1.71632000515E+02	-4.73586078378E+01	-9.26017596267E+01	-5.96763392778E+00	-9.33014359420E-01
2.03092565841E+06	-7.92600593215E+00	-1.69496322881E+02	4.72805199121E+00	1.71760760451E+02	-5.44604531481E+01	-1.26782045579E+02	-5.96761082586E+00	-8.74728096158E-01
2.05311701300E+06	-9.90329280299E+00	1.60353973187E+02	4.68142723365E+00	1.71389237681E+02	-5.17674289309E+01	1.31212293212E+02	-5.97153577344E+00	-7.93726526015E-01
2.07530836760E+06	-1.20436126761E+01	1.78023188383E+02	4.74832459441E+00	1.71368778865E+02	-4.23460247931E+01	1.62426042783E+02	-5.95034631364E+00	-9.17008619520E-01
2.09749972219E+06	-1.05891891638E+01	-1.72463399210E+02	4.71708830952E+00	1.71328824168E+02	-4.51123022733E+01	-1.76018478706E+02	-5.96044558202E+00	-1.04493049820E+00
2.11969107679E+06	-1.05809583205E+01	-1.78603569959E+02	4.72216436217E+00	1.71211273052E+02	-4.21069245038E+01	1.30014474356E+02	-5.96630980202E+00	-1.00682733941E+00
2.14188243138E+06	-1.18326556820E+01	1.76105899884E+02	4.71800628561E+00	1.71043724507E+02	-4.33212909516E+01	-1.37915767138E+02	-5.97598833460E+00	-9.56422075488E-01
2.16407378598E+06	-9.43667604965E+00	1.78616949246E+02	4.69760867710E+00	1.70738895860E+02	-4.36045554556E+01	1.39491210840E+01	-5.96596589886E+00	-1.08642347861E+00
2.18626514057E+06	-1.11666521148E+01	-1.76289967021E+02	4.73684086339E+00	1.70995094289E+02	-4.70640412770E+01	-1.33236043005E+02	-5.97588584475E+00	-1.06684244545E+00
2.20845649517E+06	-1.05993628942E+01	-1.62895443697E+02	4.77507572998E+00	1.71150836417E+02	-5.32547625783E+01	1.51630454549E+02	-5.95793424401E+00	-1.05262901517E+00
2.23064784976E+06	-9.27385064306E+00	1.75124949569E+02	4.72111569102E+00	1.70917435955E+02	-5.69133537574E+01	-1.09343521247E+01	-5.96679896065E+00	-9.84955019354E-01
2.25283920436E+06	-9.46309411686E+00	1.72307857586E+02	4.74866614589E+00	1.70682588731E+02	-4.72477490967E+01	-1.55949630456E+02	-5.95657457018E+00	-9.51548974180E-01
2.27503055895E+06	-1.03751544693E+01	1.72144289022E+02	4.71542401644E+00	1.70170624057E+02	-3.94936141481E+01	-1.48400275367E+02	-5.98524053801E+00	-1.13280416829E+00
2.29722191355E+06	-1.12264157483E+01	-1.71019346380E+02	4.68861877883E+00	1.70336060504E+02	-5.13357763890E+01	-8.03687714233E+00	-5.97914989348E+00	-9.98999726646E-01
2.31941326814E+06	-1.15620814142E+01	-1.59187235395E+02	4.73288919489E+00	1.70801318811E+02	-4.76323575658E+01	1.25157655121E+02	-5.95458137875E+00	-1.28999815051E+00
2.34160462274E+06	-1.01670818648E+01	1.70784616995E+02	4.74780698114E+00	1.70168121664E+02	-4.11939671437E+01	1.02733077365E+02	-5.95231503932E+00	-1.09673534523E+00
2.36379597733E+06	-1.02016981934E+01	1.75851767758E+02	4.72115515569E+00	1.69954649072E+02	-4.81703802441E+01	2.07543127974E+01	-5.96460797114E+00	-1.14916293776E+00
2.38598733193E+06	-9.48583601369E+00	-1.73594411371E+02	4.76402806041E+00	1.69869238714E+02	-4.96354553166E+01	1.20011909157E+02	-5.96078277872E+00	-1.03352629156E+00
2.40817868652E+06	-9.17207486068E+00	1.76081899848E+02	4.70653709007E+00	1.69642058129E+02	-4.92402723501E+01	2.26964900820E+01	-5.97184834723E+00	-1.00474470536E+00
2.43037004112E+06	-1.12553353659E+01	1.77962300202E+02	4.77455674674E+00	1.69700303013E+02	-4.65630057398E+01	-9.47745632543E+01	-5.96616701371E+00	-1.30449407955E+00
2.45256139571E+06	-8.94830382707E+00	1.75436419299E+02	4.69437192879E+00	1.69881041539E+02	-5.46933837046E+01	1.08850281551E+02	-5.98977072226E+00	-9.80968754442E-01
2.47475275031E+06	-9.85228721623E+00	-1.75157912865E+02	4.73007332206E+00	1.69152053498E+02	-4.32230538129E+01	-4.16234763115E+01	-5.98441670052E+00	-1.05938412428E+00
2.49694410490E+06	-1.07786974807E+01	-1.76420835180E+02	4.71859177865E+00	1.69676776164E+02	-5.39389727688E+01	-1.36030730703E+02	-5.97242698713E+00	-1.15758387919E+00
2.51913545950E+06	-9.94727345515E+00	1.71636415312E+02	4.72422788239E+00	1.69590134117E+02	-4.27717123625E+01	-1.77557957674E+02	-5.95011567400E+00	-1.15640632198E+00
2.54132681409E+06	-8.99747887080E+00	1.75967655982E+02	4.70708537873E+00	1.69073882118E+02	-5.74207429409E+01	-5.01893128839E+01	-5.95581655427E+00	-1.21942749091E+00
2.56351816869E+06	-9.78887336108E+00	1.74846918658E+02	4.72916542531E+00	1.69148456160E+02	-5.50423058383E+01	1.25440182769E+02	-5.96159780106E+00	-1.27898433572E+00
2.58570952328E+06	-9.53241575145E+00	1.72159448002E+02	4.70594424265E+00	1.68869430235E+02	-4.42590436402E+01	6.05703779911E+01	-5.95530332561E+00	-1.21294596016E+00
2.60790087788E+06	-1.13953621380E+01	1.78358580673E+02	4.71302992519E+00	1.69329134870E+02	-5.00422805920E+01	1.36428990709E+02	-5.97014679635E+00	-1.14114575200E+00
2.63009223247E+06	-1.08215726844E+01	-1.58187036095E+02	4.73997336669E+00	1.69092765916E+02	-4.73578471376E+01	5.84465073963E+01	-5.96635741453E+00	-1.16902001242E+00
2.65228358707E+06	-1.08035080099E+01	1.78584525280E+02	4.72605325619E+00	1.68866978924E+02	-4.14290506765E+01	-1.72824693737E+02	-5.96976931513E+00	-1.41346640541E+00
2.67447494166E+06	-9.50478419025E+00	1.75104746021E+02	4.70325883179E+00	1.68409746838E+02	-4.57472650465E+01	8.78373388624E+01	-5.96577768508E+00	-1.41421612167E+00
2.69666629626E+06	-1.00273651565E+01	1.78671757077E+02	4.75683974617E+00	1.68769735492E+02	-3.82033135651E+01	-8.48230078011E+01	-5.96067483693E+00	-1.18570508958E+00
2.71885765085E+06	-1.15119189360E+01	1.68517627440E+02	4.72419594574E+00	1.68694708023E+02	-5.63095973879E+01	3.30238356018E+01	-5.95416924548E+00	-1.17158014658E+00
2.74104900545E+06	-1.01876614625E+01	-1.70107377944E+02	4.69996732405E+00	1.68438228732E+02	-4.83033482661E+01	-4.89016762237E+01	-5.96961152225E+00	-1.29555554191E+00
2.76324036004E+06	-1.16172796169E+01	-1.77579663172E+02	4.76727292395E+00	1.68430142538E+02	-4.82100332213E+01	1.71850931500E+02	-5.97881063427E+00	-1.23439897528E+00
2.78543171463E+06	-9.91780253563E+00	-1.72739194677E+02	4.76879970293E+00	1.68173888114E+02	-5.51028153297E+01	-1.48900593776E+02	-5.96792979226E+00	-1.30712443681E+00
2.80762306923E+06	-1.07096527940E+01	-1.78189901742E+02	4.68887971735E+00	1.68002677386E+02	-4.56724406451E+01	-1.64143921303E+02	-5.98347743203E+00	-1.31930585355E+00
2.82981442382E+06	-1.11471971407E+01	-1.78451480947E+02	4.72372819163E+00	1.68074234863E+02	-4.60313122963E+01	7.81011930062E+01	-5.97122695698E+00	-1.23246566469E+00
2.85200577842E+06	-1.20237972902E+01	-1.78980524442E+02	4.75830623113E+00	1.67915082668E+02	-4.33132995294E+01	-4.05307070713E+00	-5.97019536832E+00	-1.24661329814E+00
2.87419713301E+06	-9.71072045974E+00	-1.76324165512E+02	4.69961869304E+00	1.67789358112E+02	-4.62177021723E+01	9.47517548072E+01	-5.96992219922E+00	-1.40172204126E+00
