# Hz S DB R 50
! CMT, M5065, 19127446, 24.2.4/2
! Date: 10/29/2024 12:17:59 PM
! Data: Format (Calibration Info)
! Freq	S11:dB/Ang(F2)	S21:dB/Ang(F2)	S12:dB/Ang(F2)	S22:dB/Ang(F2)
3.00000000000E+05	-1.03847168308E+01	-1.68756123100E+02	8.13105101194E+00	-1.78181343474E+02	-4.88641633161E+01	1.68856317150E+02	-5.95828722349E+00	-3.89701475348E-01
3.22191354595E+05	-8.62012817451E+00	-1.75161760705E+02	8.15551811095E+00	-1.78349046370E+02	-4.90916582865E+01	6.65434391090E+01	-5.98613623675E+00	-3.53033171999E-01
3.44382709190E+05	-1.13209837029E+01	-1.75208109989E+02	8.13136558827E+00	-1.78778667633E+02	-4.23853111321E+01	1.69370242886E+02	-5.97687436402E+00	-2.71880994748E-01
3.66574063785E+05	-8.48183146829E+00	-1.64019172935E+02	8.15866457341E+00	-1.78752053901E+02	-4.76368298269E+01	1.21672010638E+02	-6.00210202252E+00	-1.99488007734E-01
3.88765418380E+05	-9.71456418494E+00	-1.75614672623E+02	8.16607432972E+00	-1.79449064163E+02	-4.23855078321E+01	1.65297639781E+02	-5.98184715590E+00	-9.20986578967E-02
4.10956772975E+05	-1.01960038752E+01	-1.67323857283E+02	8.16029382530E+00	-1.79921035813E+02	-4.80186627809E+01	-1.36055398355E+01	-5.98333335306E+00	-1.57712054148E-01
4.33148127570E+05	-1.05020242545E+01	1.71087415975E+02	8.13140562927E+00	-1.79663984894E+02	-5.14023357040E+01	-9.79814560233E+01	-5.96018012294E+00	-3.35420669236E-01
4.55339482165E+05	-1.25094969230E+01	-1.66675201436E+02	8.18394502224E+00	1.79948968836E+02	-5.33174553003E+01	-1.43581099238E+02	-5.97576270415E+00	-3.67611426777E-01
4.77530836760E+05	-1.06612795618E+01	-1.73080119243E+02	8.13963317819E+00	1.79991447776E+02	-4.07945636930E+01	7.65072785956E+01	-5.97217120843E+00	-3.16908534085E-01
4.99722191355E+05	-1.07541684177E+01	-1.73340625356E+02	8.15788070984E+00	1.79335118358E+02	-4.35630490865E+01	7.87855420752E+01	-5.97589882017E+00	-3.35313024099E-01
5.21913545950E+05	-9.47387405951E+00	-1.78255831759E+02	8.14166125130E+00	1.79599250417E+02	-5.02865231165E+01	-1.56781530062E+02	-5.98849420144E+00	-3.85643393149E-01
5.44104900545E+05	-9.69516243862E+00	1.73497914469E+02	8.18544802914E+00	1.79064410696E+02	-4.37560824497E+01	6.41863051171E+01	-5.95926936736E+00	-4.18824043858E-01
5.66296255139E+05	-1.01516755418E+01	-1.77890203715E+02	8.15680735182E+00	1.79110186908E+02	-4.53566690189E+01	-1.44323998679E+02	-5.99168720021E+00	-5.74885843148E-01
5.88487609734E+05	-9.15888900589E+00	-1.78865810898E+02	8.19286480993E+00	1.78680519399E+02	-4.85966377134E+01	-5.03844654630E+01	-5.98297002060E+00	-5.47348979759E-01
6.10678964329E+05	-1.04119487658E+01	-1.77347556737E+02	8.15865263152E+00	1.78892689667E+02	-4.50084118936E+01	1.11416846889E+02	-5.98737211694E+00	-2.65599007578E-02
6.32870318924E+05	-1.01272282741E+01	-1.70696508084E+02	8.16078509918E+00	1.78409418373E+02	-4.03829443548E+01	1.78810212938E+02	-5.98170576046E+00	-3.78707925792E-01
6.55061673519E+05	-1.09661475867E+01	1.78204475236E+02	8.18362924772E+00	1.78415217242E+02	-4.94270646880E+01	-1.70727396969E+01	-5.98551409961E+00	-8.75119509101E-02
6.77253028114E+05	-1.18468174969E+01	-1.73374148863E+02	8.17737764009E+00	1.77891187787E+02	-3.76566980261E+01	1.07732812711E+02	-5.97663519741E+00	-5.50783319908E-01
6.99444382709E+05	-1.07081280275E+01	1.76531725290E+02	8.17598719532E+00	1.77932850279E+02	-5.71616885734E+01	8.29738712776E+01	-5.96871587115E+00	-4.99556878665E-01
7.21635737304E+05	-9.50923843910E+00	-1.70948104239E+02	8.16286956950E+00	1.77965743345E+02	-4.66431182939E+01	1.31878044494E+02	-5.97182091886E+00	-6.72544091585E-01
7.43827091899E+05	-1.01222267154E+01	1.79123189560E+02	8.14804826659E+00	1.77797443151E+02	-4.71420438811E+01	2.33234049891E+01	-5.96601491985E+00	-4.49830602339E-01
7.66018446494E+05	-1.02282237168E+01	1.79754122944E+02	8.19979484001E+00	1.77614689888E+02	-4.89312282325E+01	-9.75011660398E+01	-5.97403744201E+00	-4.62189042812E-01
7.88209801089E+05	-8.69768519080E+00	-1.75098299851E+02	8.19002743468E+00	1.77487947847E+02	-3.98266234491E+01	1.46846698442E+01	-5.96358235122E+00	-4.78709481132E-01
8.10401155684E+05	-8.07605033723E+00	-1.62558836159E+02	8.19624515580E+00	1.77288063056E+02	-4.49156368366E+01	-8.20922153082E+01	-5.96257706052E+00	-6.08610262450E-01
8.32592510279E+05	-1.01559053907E+01	-1.73571178243E+02	8.18811946297E+00	1.77276361324E+02	-5.18322346960E+01	1.38261245058E+02	-5.96372606055E+00	-3.59032881644E-01
8.54783864874E+05	-1.15985055528E+01	-1.78199092424E+02	8.18859856338E+00	1.76744502842E+02	-4.23228511734E+01	-1.43770368149E+02	-5.98572358456E+00	-4.89272633038E-01
8.76975219469E+05	-8.91050634960E+00	1.74699141151E+02	8.18436265347E+00	1.76763972332E+02	-4.78806223863E+01	1.68513365040E+02	-5.96503314779E+00	-6.11783505807E-01
8.99166574064E+05	-8.54586392792E+00	1.79296437434E+02	8.14686745571E+00	1.76533493853E+02	-5.11894427256E+01	6.20679584267E+01	-5.97162890870E+00	-5.10479732484E-01
9.21357928659E+05	-1.05488264915E+01	-1.79574660656E+02	8.18400316645E+00	1.76583359202E+02	-5.31811438690E+01	-2.71577800765E+01	-5.97197994263E+00	-4.63142527394E-01
9.43549283254E+05	-1.14980391698E+01	-1.75862049640E+02	8.16215758228E+00	1.76323279769E+02	-5.81377364375E+01	-7.67915848679E+01	-5.98741889320E+00	-6.52029295025E-01
9.65740637849E+05	-9.32801361617E+00	1.78004034839E+02	8.15502746996E+00	1.76134501585E+02	-4.34285527780E+01	-3.87856872831E+01	-5.97276602674E+00	-5.89679181162E-01
9.87931992444E+05	-9.08188824441E+00	1.76735388065E+02	8.17397252832E+00	1.76055694198E+02	-4.76418287293E+01	-1.11104856908E+02	-5.95936359081E+00	-7.13644772855E-01
1.01012334704E+06	-9.94788183246E+00	1.78628562077E+02	8.14187803800E+00	1.75912765415E+02	-4.36542114447E+01	8.88511243069E+01	-5.98261585937E+00	-5.54086707164E-01
1.03231470163E+06	-1.05211579300E+01	-1.76896742098E+02	8.18899465998E+00	1.75645701430E+02	-4.87488430839E+01	8.23066716795E+00	-5.98138571465E+00	-5.51829567319E-01
1.05450605623E+06	-8.78893236486E+00	-1.67051433091E+02	8.17155153107E+00	1.75849464598E+02	-4.76404355050E+01	1.13452826304E+02	-5.98087184882E+00	-6.94198628906E-01
1.07669741082E+06	-1.16338194928E+01	-1.69509107918E+02	8.19089247878E+00	1.75766211996E+02	-4.37081466012E+01	-7.60740325666E+01	-5.98032935766E+00	-5.51057781123E-01
1.09888876542E+06	-1.02005512642E+01	-1.74787333946E+02	8.18297078874E+00	1.75270002273E+02	-4.14983351461E+01	-6.83136646699E+01	-5.96647951481E+00	-5.66170759491E-01
1.12108012001E+06	-1.17661013383E+01	-1.55199954462E+02	8.18117318724E+00	1.75531006247E+02	-4.32992306382E+01	9.92519827455E+00	-5.97338902592E+00	-5.82115926840E-01
1.14327147461E+06	-9.85693560638E+00	-1.79253491402E+02	8.15906160635E+00	1.75053266357E+02	-4.99852041037E+01	6.39003914300E+01	-5.94823270614E+00	-5.94912320827E-01
1.16546282920E+06	-9.08980889865E+00	1.75531716279E+02	8.17845453655E+00	1.75055926686E+02	-4.47941390529E+01	9.45229967822E+01	-5.99785561738E+00	-5.83372922838E-01
1.18765418380E+06	-1.02374090534E+01	-1.73889893905E+02	8.18873050345E+00	1.74855056662E+02	-4.20440184982E+01	-1.41485810369E+02	-6.00706522615E+00	-6.62345189568E-01
1.20984553839E+06	-1.09436770324E+01	1.74949048688E+02	8.15078629310E+00	1.74629913892E+02	-4.60060933943E+01	1.54849491333E+02	-5.99675405770E+00	-7.86063924699E-01
1.23203689299E+06	-9.09891499737E+00	1.75944533896E+02	8.19680766664E+00	1.74621520760E+02	-4.54469918010E+01	5.15334271693E+01	-5.96827759159E+00	-6.05559824017E-01
1.25422824758E+06	-9.52296015335E+00	-1.73309740530E+02	8.22130182591E+00	1.74388513598E+02	-3.94540965593E+01	-1.34057103821E+02	-5.99998527448E+00	-8.04033698544E-01
1.27641960218E+06	-8.69003537923E+00	1.69301295434E+02	8.16061780199E+00	1.74267851659E+02	-4.36405769160E+01	1.21639658533E+02	-5.97468788038E+00	-6.67601260680E-01
1.29861095677E+06	-9.16972744734E+00	1.78185491374E+02	8.19413504284E+00	1.74253492717E+02	-4.48000061142E+01	-4.43159452141E+01	-5.97753442368E+00	-7.12417999042E-01
1.32080231137E+06	-9.45855909811E+00	-1.73593303690E+02	8.16933206036E+00	1.73970263230E+02	-4.50357959527E+01	-1.67221457680E+02	-5.97281252672E+00	-1.14860585203E+00
1.34299366596E+06	-1.01935068624E+01	1.78772977698E+02	8.16924866861E+00	1.74251125808E+02	-4.31788954242E+01	-1.10623760583E+02	-5.97241033296E+00	-8.47218641659E-01
1.36518502056E+06	-9.04776434167E+00	1.79471203835E+02	8.16830581830E+00	1.73830271324E+02	-3.96500917999E+01	1.76446039792E+02	-5.96233939809E+00	-6.72422963957E-01
1.38737637515E+06	-9.97488177657E+00	-1.75871088351E+02	8.17868288103E+00	1.73914911474E+02	-4.82355157917E+01	1.86163132788E+01	-5.97263067437E+00	-8.31189195187E-01
1.40956772975E+06	-1.13015407949E+01	-1.66068405214E+02	8.17736541465E+00	1.73534735219E+02	-5.38388818349E+01	5.35517180561E+01	-5.97463124880E+00	-8.11964191797E-01
1.43175908434E+06	-1.17115359114E+01	-1.75384501258E+02	8.17379727954E+00	1.73236829882E+02	-4.35051017000E+01	-9.52021655511E+01	-5.97743800560E+00	-6.75741523165E-01
1.45395043894E+06	-8.85035251004E+00	-1.66772024188E+02	8.18937320585E+00	1.73297871698E+02	-4.55064845775E+01	-1.72829788748E+02	-5.97061068751E+00	-7.57590656341E-01
1.47614179353E+06	-1.09853774723E+01	1.76224641780E+02	8.18461822809E+00	1.73300724503E+02	-4.95957732209E+01	-5.51582312558E+01	-5.95165828282E+00	-7.40099721066E-01
1.49833314813E+06	-1.13768713565E+01	1.75266049603E+02	8.14314542633E+00	1.72807076584E+02	-5.57124562124E+01	1.52883181210E+02	-5.98126078980E+00	-8.05125633048E-01
1.52052450272E+06	-9.17330473439E+00	1.73810438819E+02	8.16414734486E+00	1.73002138361E+02	-4.74405566611E+01	2.27163544560E+00	-5.95126074257E+00	-6.84642455333E-01
1.54271585732E+06	-1.12015291559E+01	-1.69972057903E+02	8.18167372742E+00	1.72865192266E+02	-4.47361696998E+01	1.41053351241E+02	-5.96246617280E+00	-7.18241093823E-01
1.56490721191E+06	-9.75396562107E+00	-1.74235243297E+02	8.19327058189E+00	1.72867204021E+02	-5.72604692246E+01	-4.75878586282E+01	-5.97986442808E+00	-8.52093659104E-01
1.58709856651E+06	-8.73762647727E+00	1.74095944641E+02	8.16923772506E+00	1.72581632153E+02	-4.31846743650E+01	4.42073893905E+01	-5.96621689798E+00	-7.69520849269E-01
1.60928992110E+06	-1.00110692167E+01	-1.75520589924E+02	8.17214083326E+00	1.72348232477E+02	-4.72954229721E+01	-1.73058626032E+02	-5.95335464787E+00	-9.34430305342E-01
1.63148127570E+06	-1.15354981723E+01	-1.74893767408E+02	8.17775448910E+00	1.72643870321E+02	-3.98315701529E+01	-1.71721502688E+02	-5.96400454452E+00	-8.50993286024E-01
1.65367263029E+06	-1.21568739689E+01	-1.76993106330E+02	8.21440558111E+00	1.72280900497E+02	-4.39602864802E+01	1.69378423323E+02	-5.97688032430E+00	-8.22726125098E-01
1.67586398489E+06	-9.02936984141E+00	-1.69106684204E+02	8.19693610308E+00	1.72138598990E+02	-4.44125277828E+01	9.42224911655E+01	-5.98238606501E+00	-8.36071104380E-01
1.69805533948E+06	-1.12598538874E+01	1.74723118942E+02	8.17932055984E+00	1.72145719324E+02	-3.67104335326E+01	-1.42484985788E+02	-5.96283190672E+00	-7.09006300865E-01
1.72024669408E+06	-1.06883716104E+01	1.77884200085E+02	8.16836610854E+00	1.72039194223E+02	-4.78424047117E+01	5.21053825673E+01	-5.95850520697E+00	-7.09777219300E-01
1.74243804867E+06	-1.14173837180E+01	-1.71754858239E+02	8.19492048674E+00	1.72042610386E+02	-4.53674274040E+01	-9.65883365373E+01	-5.99358661836E+00	-8.24270452522E-01
1.76462940327E+06	-1.07238731482E+01	-1.76992666674E+02	8.22223949193E+00	1.71740292230E+02	-4.38690514468E+01	8.50619250114E+01	-5.98493991069E+00	-9.18753501289E-01
1.78682075786E+06	-1.04209905526E+01	-1.78662811922E+02	8.20400660939E+00	1.71518719583E+02	-4.40455707778E+01	-1.06280858814E+02	-5.98437746029E+00	-8.08856410372E-01
1.80901211246E+06	-8.91403533657E+00	-1.65663440720E+02	8.19355085689E+00	1.71304334047E+02	-4.15048099055E+01	-6.05417400079E+01	-5.96252508031E+00	-9.94682347433E-01
1.83120346705E+06	-9.32645817136E+00	1.71317441189E+02	8.19576962655E+00	1.71249618491E+02	-4.37326114077E+01	-2.81094480172E+01	-5.97505129209E+00	-8.48376171228E-01
1.85339482165E+06	-9.08291184523E+00	-1.78778533433E+02	8.19898532149E+00	1.71170098549E+02	-4.27256387606E+01	-1.08337687251E+02	-5.97156110987E+00	-8.59040569484E-01
1.87558617624E+06	-9.99104286728E+00	1.78004210963E+02	8.14259336262E+00	1.71282375939E+02	-4.32485526311E+01	1.53250379630E+02	-5.99357373119E+00	-8.42103294060E-01
1.89777753084E+06	-1.01569379462E+01	1.74370923709E+02	8.14205076270E+00	1.71106550685E+02	-5.25413102238E+01	-1.99651039765E+01	-5.94927020864E+00	-1.01491163895E+00
1.91996888543E+06	-1.20037627165E+01	-1.66697901214E+02	8.16529926564E+00	1.70821608228E+02	-5.25963019425E+01	-9.75928920867E+01	-6.00559100917E+00	-9.46011531104E-01
1.94216024003E+06	-1.03929652860E+01	-1.76672577897E+02	8.17714621769E+00	1.70460948778E+02	-4.41650242246E+01	-1.49261237625E+02	-5.95669589099E+00	-9.21554499095E-01
1.96435159462E+06	-1.03903023278E+01	1.70602676141E+02	8.18312233349E+00	1.70641527105E+02	-4.45149534467E+01	4.87437873333E+01	-5.97278895786E+00	-9.14355023283E-01
1.98654294922E+06	-9.35742109674E+00	-1.72495680291E+02	8.16859609447E+00	1.70320646282E+02	-5.48555571794E+01	-1.16652459003E+01	-5.97482375042E+00	-9.34372398099E-01
2.00873430381E+06	-1.01576121094E+01	1.72089479776E+02	8.18258725428E+00	1.70385711963E+02	-4.23845082260E+01	9.03884256580E+01	-5.98254960925E+00	-1.01184203143E+00
2.03092565841E+06	-1.22005676901E+01	1.60125154457E+02	8.11630520030E+00	1.70127607273E+02	-3.81720514714E+01	-2.50863298658E+01	-5.96833158924E+00	-1.08244559627E+00
2.05311701300E+06	-1.03157372432E+01	-1.74209908185E+02	8.19279483037E+00	1.70267149244E+02	-5.51161432978E+01	1.02699817923E+02	-5.96901842790E+00	-9.42993191535E-01
2.07530836760E+06	-9.61429391642E+00	-1.75417426753E+02	8.19089828017E+00	1.70051458271E+02	-4.16838099632E+01	-1.55971369448E+02	-5.97261254652E+00	-9.14182202551E-01
2.09749972219E+06	-9.90941356513E+00	1.77065766409E+02	8.16624459982E+00	1.70006216909E+02	-4.80794137271E+01	8.83470139059E+01	-5.96846744118E+00	-9.76521247355E-01
2.11969107679E+06	-1.02346028720E+01	-1.76542873945E+02	8.19278313780E+00	1.69770674990E+02	-5.80982844984E+01	1.73311100869E+02	-5.96502400400E+00	-8.86192247036E-01
2.14188243138E+06	-1.03883733459E+01	1.77452325502E+02	8.15545277384E+00	1.69504427199E+02	-4.82490185348E+01	5.47775879755E+01	-5.96301313501E+00	-9.90927373639E-01
2.16407378598E+06	-9.90371059527E+00	-1.79658946168E+02	8.13954182788E+00	1.69671787747E+02	-3.98483947593E+01	-1.55090056320E+02	-5.97628526933E+00	-1.09278866684E+00
2.18626514057E+06	-1.08048026800E+01	-1.77097003263E+02	8.17222407565E+00	1.69587498469E+02	-4.51296021214E+01	-3.51398272800E+01	-5.94445008959E+00	-1.02699295790E+00
2.20845649517E+06	-1.10023844251E+01	-1.78609123626E+02	8.16261866590E+00	1.69462491695E+02	-4.01991488216E+01	-1.21749173598E+02	-5.97972293674E+00	-1.05409292066E+00
2.23064784976E+06	-1.04076608219E+01	-1.66459509209E+02	8.22156548070E+00	1.69141176596E+02	-5.32935806226E+01	-1.70416972221E+02	-5.96657703972E+00	-1.05500362869E+00
2.25283920436E+06	-9.81162953520E+00	1.69731706409E+02	8.17276677465E+00	1.69152602586E+02	-4.10101356189E+01	-6.14100550730E+01	-5.96031040144E+00	-1.13642360384E+00
2.27503055895E+06	-1.15612011536E+01	1.76071491148E+02	8.15543011675E+00	1.69053342295E+02	-6.08357551217E+01	1.01300977906E+02	-5.98486719501E+00	-9.54917589550E-01
2.29722191355E+06	-9.12991046712E+00	-1.72911030029E+02	8.15841009431E+00	1.69031489769E+02	-4.74554249969E+01	-4.41287116771E+00	-5.98317529500E+00	-1.18563927143E+00
2.31941326814E+06	-9.93914023512E+00	1.77745332645E+02	8.17306127556E+00	1.68901239876E+02	-5.11016511591E+01	-7.73100603864E+01	-5.95308196891E+00	-1.02488751980E+00
2.34160462274E+06	-8.77767399574E+00	-1.75987465000E+02	8.18569553878E+00	1.68418963266E+02	-4.31471586141E+01	-1.40207424764E+02	-5.94818083399E+00	-1.08725760608E+00
2.36379597733E+06	-1.05084633138E+01	1.76004432564E+02	8.14163147594E+00	1.68462351119E+02	-4.14918077141E+01	-1.07533079871E+02	-5.97321120649E+00	-1.13166450688E+00
2.38598733193E+06	-1.02131673884E+01	1.76973862398E+02	8.16021599747E+00	1.68284845368E+02	-4.14280011080E+01	-9.24960680770E+01	-5.97720967485E+00	-1.13911389844E+00
2.40817868652E+06	-1.13873142856E+01	1.70914777152E+02	8.13154270561E+00	1.68236988236E+02	-4.15640141861E+01	5.11314928331E-01	-5.98596376116E+00	-1.17517348383E+00
2.43037004112E+06	-1.00741341707E+01	-1.73670981876E+02	8.14065227442E+00	1.68067755525E+02	-5.15168646865E+01	5.45283808101E+01	-5.96494435480E+00	-1.52805570313E+00
2.45256139571E+06	-1.03547067037E+01	-1.72557822908E+02	8.18728514190E+00	1.68082816720E+02	-4.42705533697E+01	1.48105084101E+02	-5.99266203370E+00	-9.39067184466E-01
2.47475275031E+06	-9.09365812143E+00	-1.70236909946E+02	8.20697475857E+00	1.67815302887E+02	-4.10845925755E+01	-9.56705313837E+01	-5.96611335510E+00	-1.16423341564E+00
2.49694410490E+06	-8.08873641899E+00	1.77499957351E+02	8.18072631118E+00	1.67812546475E+02	-4.39899890974E+01	-1.09976160514E+02	-5.95481788976E+00	-1.18688398951E+00
2.51913545950E+06	-8.95215677790E+00	-1.73948820936E+02	8.17748575040E+00	1.67882135314E+02	-4.93102166439E+01	-1.52092173664E+02	-5.97694099980E+00	-1.09949970584E+00
2.54132681409E+06	-1.07461102458E+01	1.70348105767E+02	8.17036589899E+00	1.67534516227E+02	-3.84065547254E+01	1.33267082311E+02	-5.98472708206E+00	-1.08575486272E+00
2.56351816869E+06	-9.63695758561E+00	1.67509027978E+02	8.23820742903E+00	1.67180509846E+02	-5.09095907120E+01	6.11584690452E+01	-5.96374561823E+00	-1.20668935755E+00
2.58570952328E+06	-1.21735887364E+01	-1.68658994331E+02	8.18668224534E+00	1.67500079339E+02	-5.16434205845E+01	-4.31689908469E+01	-5.98859921176E+00	-1.21986378507E+00
2.60790087788E+06	-9.70048172468E+00	1.77341994486E+02	8.20528990576E+00	1.67232477292E+02	-5.06113571866E+01	-3.27390782490E+01	-5.97535229692E+00	-1.18524014584E+00
2.63009223247E+06	-1.07520926139E+01	-1.73249767763E+02	8.17271101018E+00	1.67300709573E+02	-4.46253770361E+01	-5.56204615101E+01	-6.00664000926E+00	-1.21642476169E+00
2.65228358707E+06	-9.84449078352E+00	-1.77548139497E+02	8.17307133562E+00	1.66910276499E+02	-4.83050826885E+01	4.44194507418E+01	-5.95178511768E+00	-1.73070917196E+00
2.67447494166E+06	-1.28404911039E+01	-1.79356319297E+02	8.17761469712E+00	1.66820617528E+02	-5.76929779001E+01	1.15424380727E+02	-5.94898472017E+00	-1.34958474087E+00
2.69666629626E+06	-1.02479424240E+01	-1.77777309377E+02	8.17246034882E+00	1.66838735481E+02	-4.30947887562E+01	1.50396316083E+02	-5.97770438374E+00	-1.29716038326E+00
2.71885765085E+06	-1.01363587264E+01	-1.74735541724E+02	8.20227102876E+00	1.66413073834E+02	-4.17734793397E+01	1.51090739202E+02	-5.97165576464E+00	-1.24422574440E+00
2.74104900545E+06	-1.12728550426E+01	-1.71438828190E+02	8.17306705728E+00	1.66706270153E+02	-4.37634577132E+01	-1.62927006424E+02	-5.97267033885E+00	-1.36513279762E+00
2.76324036004E+06	-8.25524864323E+00	1.75629820712E+02	8.18452233612E+00	1.66304834386E+02	-4.19581634735E+01	-2.70379670672E+01	-5.97046046571E+00	-1.18747828740E+00
2.78543171463E+06	-8.41689653122E+00	-1.79350476070E+02	8.17378537987E+00	1.66283983032E+02	-5.94741012432E+01	4.92525680989E+01	-5.98732142972E+00	-1.23690054557E+00
2.80762306923E+06	-8.40317921782E+00	1.79222521863E+02	8.18655030051E+00	1.66266569981E+02	-4.61829071859E+01	8.94363269613E+00	-5.98453582925E+00	-1.32713668087E+00
2.82981442382E+06	-8.78115739641E+00	-1.66081157694E+02	8.13460054005E+00	1.66412127497E+02	-5.38299234540E+01	-9.47097827658E+00	-5.97472449885E+00	-1.29486434373E+00
2.85200577842E+06	-1.17160303207E+01	1.75398346010E+02	8.20045000527E+00	1.66138681152E+02	-4.22646006837E+01	1.20169318718E+02	-5.94917456235E+00	-1.48484136105E+00
2.87419713301E+06	-9.93279432969E+00	-1.70821334323E+02	8.20537974977E+00	1.65757658782E+02	-6.12104080144E+01	-1.36593653583E+02	-5.97504068018E+00	-1.25593245764E+00
