# Hz S DB R 50
! CMT, M5065, 19127446, 24.2.4/2
! Date: 10/29/2024 12:44:46 PM
! Data: Format (Calibration Info)
! Freq	S11:dB/Ang(F2)	S21:dB/Ang(F2)	S12:dB/Ang(F2)	S22:dB/Ang(F2)
3.00000000000E+05	-1.30975398909E+01	1.44450087213E+02	1.73767582211E+01	-1.77532282550E+02	-3.82302369929E+01	-2.95432569391E+01	-5.97704498266E+00	1.29053659938E-01
3.22191354595E+05	-9.45290249502E+00	1.79287023986E+02	1.74155943706E+01	-1.78096179393E+02	-3.76283558982E+01	1.61110125919E+02	-5.98199901648E+00	-3.54433634234E-01
3.44382709190E+05	-9.85986464463E+00	1.68987014471E+02	1.74300965634E+01	-1.78775927775E+02	-4.06391424326E+01	-1.64809675579E+02	-6.03288687247E+00	-3.32176913895E-01
3.66574063785E+05	-1.54773424540E+01	-1.52910240507E+02	1.74118625938E+01	-1.79218591977E+02	-4.34885057127E+01	7.70850648153E+01	-6.01660999482E+00	-1.68159285740E-01
3.88765418380E+05	-9.54418562476E+00	-1.62855569116E+02	1.74453696531E+01	-1.79237538675E+02	-3.90538526507E+01	9.82020210537E+00	-5.97766364608E+00	-2.58291157541E-02
4.10956772975E+05	-9.71768627069E+00	-1.71578236990E+02	1.73859829461E+01	1.79702912315E+02	-4.06688759845E+01	8.22209149740E+01	-5.99741341636E+00	-5.71994086406E-01
4.33148127570E+05	-1.14576841880E+01	-1.45490770792E+02	1.73681899149E+01	1.79637293897E+02	-4.18033809179E+01	-6.25566200187E+01	-6.01527807300E+00	-4.10682066055E-01
4.55339482165E+05	-1.48765211491E+01	-1.63279174396E+02	1.74130744024E+01	1.79209271691E+02	-5.05593427386E+01	7.61858861784E+01	-5.98912870633E+00	-2.75903480063E-01
4.77530836760E+05	-1.10259444118E+01	-1.63288286406E+02	1.74125723929E+01	1.78946273695E+02	-3.42187132844E+01	-4.20949206127E+01	-5.89895464865E+00	-5.46476239929E-01
4.99722191355E+05	-1.05211989961E+01	-1.71892950522E+02	1.74470224803E+01	1.78523634981E+02	-4.42390154330E+01	-2.95242889618E+01	-5.98905445937E+00	-3.65216067600E-01
5.21913545950E+05	-1.01905271279E+01	-1.79581431376E+02	1.74146571369E+01	1.78367498610E+02	-3.98876751838E+01	1.02815760454E+01	-5.94054975801E+00	-1.47865067099E-01
5.44104900545E+05	-1.05184352354E+01	1.74400360023E+02	1.74035628380E+01	1.77792662235E+02	-4.01245601743E+01	1.77265552530E+02	-6.01800517827E+00	-4.21819469472E-01
5.66296255139E+05	-1.01779912589E+01	-1.78001196839E+02	1.73844363269E+01	1.77370338529E+02	-4.71308042245E+01	-1.28813415605E+02	-5.92909772561E+00	-4.36733722509E-01
5.88487609734E+05	-1.04940479799E+01	-1.73222327086E+02	1.74275054485E+01	1.77122256396E+02	-4.81580649906E+01	8.09292517637E+00	-5.98685542181E+00	-5.02526854183E-01
6.10678964329E+05	-1.02651486980E+01	1.76937158963E+02	1.74197611281E+01	1.77095051115E+02	-4.75672367144E+01	-1.53626095230E+02	-5.99435882939E+00	4.10886535487E-02
6.32870318924E+05	-9.09372635212E+00	-1.70616277099E+02	1.73986725455E+01	1.76529608912E+02	-4.62949618074E+01	-1.08051191504E+02	-5.97044118249E+00	-6.25742584790E-01
6.55061673519E+05	-1.09619561683E+01	1.60933997702E+02	1.73743858112E+01	1.75920647845E+02	-4.08753504701E+01	3.65774088638E+01	-5.94748140218E+00	-1.05158004020E-01
6.77253028114E+05	-8.14467767054E+00	1.73883871907E+02	1.74410557465E+01	1.75946928922E+02	-6.21010813634E+01	-5.64328671901E+01	-6.01628190366E+00	-5.38986384271E-01
6.99444382709E+05	-1.01666963886E+01	-1.77544861038E+02	1.73934511829E+01	1.75759044945E+02	-3.79713338602E+01	-1.35248708481E+02	-5.99648834330E+00	-3.64846302736E-01
7.21635737304E+05	-1.09273322244E+01	-1.78597069236E+02	1.73793763372E+01	1.75460350985E+02	-3.93972875359E+01	-3.64740691724E+01	-5.97731130404E+00	-4.47402650502E-01
7.43827091899E+05	-9.15469534659E+00	-1.69119895482E+02	1.73993205207E+01	1.75289211150E+02	-5.44090219412E+01	1.05368653518E+02	-5.92737165664E+00	-4.87610411294E-01
7.66018446494E+05	-1.03243545738E+01	1.66037700762E+02	1.73757465656E+01	1.75031555042E+02	-4.27347824664E+01	-1.65821510606E+02	-5.99584762900E+00	-2.91008233628E-01
7.88209801089E+05	-1.08693489890E+01	-1.76692211032E+02	1.74086305867E+01	1.74921981609E+02	-4.05345589249E+01	3.31433466650E+01	-5.90305860093E+00	-7.69879455728E-01
8.10401155684E+05	-1.07611133868E+01	-1.79803880304E+02	1.73955217318E+01	1.74716629603E+02	-3.66751368920E+01	1.60998223794E+02	-5.99830525715E+00	-2.18970089426E-01
8.32592510279E+05	-7.70890428910E+00	-1.62433841158E+02	1.74543525942E+01	1.74476393971E+02	-4.01178626734E+01	1.30583494492E+02	-5.98246133918E+00	-4.57961869704E-01
8.54783864874E+05	-7.75451708212E+00	1.76170188830E+02	1.74443980594E+01	1.73994125933E+02	-3.83182837090E+01	1.58835801173E+02	-5.96158396591E+00	-4.21807032586E-01
8.76975219469E+05	-1.13033376807E+01	-1.68536739839E+02	1.73768792404E+01	1.73864354399E+02	-4.81818423494E+01	-8.84475652020E+01	-6.00373580987E+00	-6.07342696211E-01
8.99166574064E+05	-8.37777255535E+00	-1.79889591265E+02	1.73943968960E+01	1.73756218778E+02	-3.26997322751E+01	-1.70724404241E+02	-5.93269318315E+00	-3.42737429684E-01
9.21357928659E+05	-8.39923419112E+00	-1.72510410100E+02	1.73991486271E+01	1.73221173122E+02	-4.14625196999E+01	8.62841043851E+01	-6.00375428597E+00	-5.83262240511E-01
9.43549283254E+05	-1.03965762619E+01	-1.57864937552E+02	1.73778734179E+01	1.73215645310E+02	-4.63183015155E+01	8.39866632298E+01	-5.98676317405E+00	-7.57195984827E-03
9.65740637849E+05	-1.18750094753E+01	1.63470923783E+02	1.74135502350E+01	1.73014958742E+02	-4.66056494079E+01	-3.38964864967E+01	-5.97328450413E+00	-7.14698316174E-01
9.87931992444E+05	-8.41239043586E+00	-1.49896662511E+02	1.73580753921E+01	1.72845146296E+02	-3.62049233859E+01	-9.79264587163E+01	-5.97096852749E+00	-5.28298598280E-01
1.01012334704E+06	-1.02642831893E+01	-1.45997280678E+02	1.73948529986E+01	1.72545929188E+02	-4.62752377555E+01	-4.79845131544E+01	-5.97245167453E+00	-5.76087756605E-01
1.03231470163E+06	-8.94295477012E+00	1.72555230122E+02	1.73538556093E+01	1.72224367036E+02	-4.95544624187E+01	-1.54186428257E+02	-5.97266239861E+00	-6.29871595758E-01
1.05450605623E+06	-1.12468567878E+01	-1.57994759459E+02	1.73694449934E+01	1.71934346963E+02	-4.38023903518E+01	-4.92798394469E+01	-5.95115070736E+00	-5.21649950208E-01
1.07669741082E+06	-1.39354732333E+01	1.44682801900E+02	1.73496775205E+01	1.72101899277E+02	-3.84167489940E+01	-1.20453307313E+02	-5.92242449523E+00	-7.21052350157E-01
1.09888876542E+06	-1.47640150454E+01	-1.68649987392E+02	1.73721502396E+01	1.71588139635E+02	-3.66141888156E+01	-2.74222007961E+01	-5.96354434346E+00	-6.81915197476E-01
1.12108012001E+06	-1.25878599829E+01	1.70721926714E+02	1.73836508033E+01	1.71473782417E+02	-6.66239789672E+01	-1.10851551611E+02	-6.02231127732E+00	-4.10037982427E-01
1.14327147461E+06	-1.22622271289E+01	1.67934375946E+02	1.74031967539E+01	1.71134684239E+02	-3.69965420499E+01	1.26498099643E+02	-5.98811705318E+00	-5.22573658517E-01
1.16546282920E+06	-9.04241981736E+00	1.55938008206E+02	1.73915197627E+01	1.71109121318E+02	-5.06010700939E+01	1.57357015669E+01	-5.99209762754E+00	-5.02540747485E-01
1.18765418380E+06	-1.22331805240E+01	-1.73815530399E+02	1.73864866732E+01	1.70730248041E+02	-3.73871294346E+01	-4.09059305180E+01	-5.96536632181E+00	-5.67734438948E-01
1.20984553839E+06	-1.10958298390E+01	1.69537669404E+02	1.73567725995E+01	1.70609129015E+02	-4.71599225173E+01	1.68962454360E+01	-5.97767205719E+00	-8.33738986474E-01
1.23203689299E+06	-1.09663817264E+01	-1.73058399270E+02	1.73514063409E+01	1.70250822461E+02	-4.29008788124E+01	-2.95069997499E+01	-6.00014421507E+00	-6.62859012865E-01
1.25422824758E+06	-1.09177715708E+01	-1.63094459266E+02	1.73695341300E+01	1.70057025563E+02	-4.31586423160E+01	1.51416634515E+02	-5.98437769042E+00	-9.59733107770E-01
1.27641960218E+06	-1.00129111260E+01	-1.68927555772E+02	1.74046026798E+01	1.70036996799E+02	-4.30068003314E+01	-5.09902952237E+01	-5.96654371644E+00	-9.21553719576E-01
1.29861095677E+06	-9.79848701920E+00	1.72041613744E+02	1.73832740069E+01	1.69356249091E+02	-4.58897039706E+01	1.65086441451E+02	-6.02365699122E+00	-7.12003336462E-01
1.32080231137E+06	-1.17986588042E+01	-1.35096642905E+02	1.73532732437E+01	1.69427326497E+02	-4.67336092612E+01	1.38533495958E+01	-5.95757288158E+00	-1.15623398217E+00
1.34299366596E+06	-1.04870680840E+01	1.60557035079E+02	1.73259086772E+01	1.69204944677E+02	-3.94279838084E+01	-1.07661594738E+02	-5.98992373807E+00	-7.56749038318E-01
1.36518502056E+06	-1.15824005060E+01	1.75960561663E+02	1.73668629069E+01	1.69001176938E+02	-4.69357695625E+01	3.59000569763E+01	-5.98893276604E+00	-8.93628688550E-01
1.38737637515E+06	-1.20602136103E+01	-1.74704334516E+02	1.73360214412E+01	1.68783187484E+02	-4.49769768463E+01	2.16221977203E+01	-5.98893082009E+00	-7.45032041306E-01
1.40956772975E+06	-8.23233572818E+00	-1.72352104854E+02	1.73490332106E+01	1.68547621141E+02	-3.65100305115E+01	4.12369220740E+01	-6.00568199622E+00	-6.34783154555E-01
1.43175908434E+06	-1.01507637060E+01	-1.70644689242E+02	1.73596640864E+01	1.68395116103E+02	-3.82658272592E+01	-1.10734067479E+02	-5.97436015405E+00	-8.68620344350E-01
1.45395043894E+06	-6.50271349498E+00	-1.63487150158E+02	1.73588445506E+01	1.68002852641E+02	-4.03918373868E+01	-4.16444227209E+01	-5.99270252007E+00	-8.45150403287E-01
1.47614179353E+06	-1.00617272237E+01	1.59214967817E+02	1.73467425532E+01	1.68050490478E+02	-3.50169459868E+01	8.34033104671E+01	-5.97169751584E+00	-7.86069170383E-01
1.49833314813E+06	-8.69054942157E+00	-1.67943742748E+02	1.73616452968E+01	1.67813770522E+02	-4.00077353066E+01	8.98193597265E+01	-5.96031038388E+00	-9.33049838830E-01
1.52052450272E+06	-1.20746057070E+01	-1.66787034506E+02	1.73471400934E+01	1.67522848628E+02	-5.01715255773E+01	-8.99079059699E+01	-5.97307656962E+00	-7.70337702909E-01
1.54271585732E+06	-1.03116057391E+01	-1.75525012519E+02	1.73339926991E+01	1.67309105653E+02	-4.29670110319E+01	-5.10640628352E+00	-5.99718548362E+00	-7.45600358491E-01
1.56490721191E+06	-9.46160592085E+00	1.77677488791E+02	1.73668386629E+01	1.67108695682E+02	-3.48747787404E+01	1.58752430659E+02	-6.03076076266E+00	-7.12444041919E-01
1.58709856651E+06	-1.20548068547E+01	-1.72587509465E+02	1.73890883128E+01	1.66936164048E+02	-3.98980222966E+01	-1.27344457628E+02	-5.94782258725E+00	-9.15309870231E-01
1.60928992110E+06	-7.71861786499E+00	-1.64787674302E+02	1.73902401128E+01	1.66766826182E+02	-4.16792757033E+01	1.30864403321E+02	-5.98093692296E+00	-8.82595130974E-01
1.63148127570E+06	-1.41826720296E+01	-1.65009224302E+02	1.73152191013E+01	1.66277885622E+02	-4.67572045082E+01	-8.79933594131E+01	-5.98594119112E+00	-7.29978891108E-01
1.65367263029E+06	-8.38303792266E+00	1.69703744646E+02	1.73530111360E+01	1.66431951335E+02	-4.45263928362E+01	1.55740189300E+02	-6.01186725545E+00	-8.47549097877E-01
1.67586398489E+06	-1.28002322585E+01	1.73172637171E+02	1.73521838261E+01	1.66144638802E+02	-3.78077441779E+01	-6.09721149554E+01	-5.98318901976E+00	-8.69652516772E-01
1.69805533948E+06	-1.08939807518E+01	-1.61013420501E+02	1.73555915311E+01	1.66015116037E+02	-3.73405565636E+01	-6.39242976327E+01	-5.90875389730E+00	-6.62573001130E-01
1.72024669408E+06	-1.02615167517E+01	1.67443997305E+02	1.73316799830E+01	1.65786973763E+02	-3.80987995258E+01	-9.19559705740E+01	-5.89767479648E+00	-1.18028118558E+00
1.74243804867E+06	-1.09541034947E+01	-1.71791727592E+02	1.73329622733E+01	1.65129927932E+02	-3.98665773289E+01	-8.03739288710E+01	-5.97573280549E+00	-1.46558595233E+00
1.76462940327E+06	-1.40623036436E+01	-1.67154911621E+02	1.73055893023E+01	1.65447336602E+02	-3.68021746526E+01	1.11752011697E+02	-5.96522796230E+00	-8.19516100547E-01
1.78682075786E+06	-1.25153230776E+01	1.74458152006E+02	1.73118743119E+01	1.64998563040E+02	-3.76572240871E+01	9.80068328704E+01	-5.93965943737E+00	-9.79660192514E-01
1.80901211246E+06	-1.14932801490E+01	-1.58842666856E+02	1.73779590906E+01	1.64804872360E+02	-3.86830058627E+01	-1.73123045137E+02	-5.99389945295E+00	-9.47731255813E-01
1.83120346705E+06	-1.54793486407E+01	-1.74335399576E+02	1.73402330689E+01	1.64699819642E+02	-5.05938116170E+01	-1.14810228837E+02	-5.94489094769E+00	-7.86946468671E-01
1.85339482165E+06	-1.53557847357E+01	-1.52532899450E+02	1.73587047467E+01	1.64572946597E+02	-3.68030895607E+01	-1.41683770455E+02	-6.00394740288E+00	-1.05766817675E+00
1.87558617624E+06	-9.50681759025E+00	1.54603666776E+02	1.73157941941E+01	1.64137286361E+02	-3.57252851728E+01	1.79637123681E+02	-6.11963911837E+00	-5.98171494538E-01
1.89777753084E+06	-1.02572001482E+01	-1.73870619914E+02	1.73326827020E+01	1.64258984384E+02	-4.02490011554E+01	3.08916431643E+01	-5.89925649052E+00	-1.36964759896E+00
1.91996888543E+06	-1.26321812533E+01	-1.63844844903E+02	1.72418981930E+01	1.64415688037E+02	-3.88082977527E+01	4.26071551188E+00	-5.94988511536E+00	-8.21104924104E-01
1.94216024003E+06	-9.42637212658E+00	1.76480350363E+02	1.73106223041E+01	1.63683476649E+02	-4.28435634703E+01	3.72951366750E+01	-5.97477819847E+00	-7.22324289949E-01
1.96435159462E+06	-1.20619229240E+01	-1.71456097975E+02	1.73319958747E+01	1.63502026703E+02	-4.27537371329E+01	5.02643450708E+01	-5.93627440491E+00	-9.40986956960E-01
1.98654294922E+06	-1.10839371406E+01	-1.78161607527E+02	1.73740013695E+01	1.63339548433E+02	-3.63484323959E+01	1.76364109594E+02	-5.92865080596E+00	-1.06007159646E+00
2.00873430381E+06	-1.01367775464E+01	1.59620093230E+02	1.73187335347E+01	1.63101474290E+02	-3.74645922865E+01	1.38869437739E+02	-5.94184835670E+00	-8.21635628070E-01
2.03092565841E+06	-1.15619460664E+01	-1.76384024332E+02	1.72788615891E+01	1.62503645547E+02	-4.40659907917E+01	-4.51059873924E+01	-5.92657859878E+00	-1.18877968100E+00
2.05311701300E+06	-9.63346409691E+00	1.56240508548E+02	1.73681183286E+01	1.62733918474E+02	-4.43133175642E+01	7.98402426375E+01	-5.93855859664E+00	-1.18301410697E+00
2.07530836760E+06	-1.49411881494E+01	-1.51954159895E+02	1.71611700409E+01	1.62548935280E+02	-3.80676268586E+01	1.72242937585E+02	-5.96292346537E+00	-1.07486854227E+00
2.09749972219E+06	-6.67408776303E+00	-1.71680385811E+02	1.73299852106E+01	1.62073749817E+02	-3.29140495043E+01	5.92885293344E+01	-5.94101150902E+00	-1.12814427304E+00
2.11969107679E+06	-1.34531876707E+01	-1.79429237243E+02	1.73154285802E+01	1.62142063629E+02	-4.33654651021E+01	-4.32871977429E+01	-5.96855538588E+00	-1.03364072093E+00
2.14188243138E+06	-8.01659778125E+00	1.68796563869E+02	1.73030891609E+01	1.62000655699E+02	-4.61290362829E+01	4.69162385393E+01	-5.94523385438E+00	-9.50719407857E-01
2.16407378598E+06	-1.29554416778E+01	-1.61031382610E+02	1.73379343570E+01	1.61569967634E+02	-4.53449865000E+01	-6.37286394659E+01	-5.98160157647E+00	-9.61835393744E-01
2.18626514057E+06	-7.18863054706E+00	-1.65798527707E+02	1.72571641882E+01	1.61478818540E+02	-4.12249190704E+01	1.48235077835E+02	-5.98376645065E+00	-1.25217907988E+00
2.20845649517E+06	-1.07483414441E+01	1.72455212038E+02	1.73364973517E+01	1.60853521389E+02	-3.79604353451E+01	1.66201797123E+02	-6.00089763077E+00	-1.36239185400E-01
2.23064784976E+06	-1.10225820777E+01	-1.74794835350E+02	1.73660192407E+01	1.61475431094E+02	-3.57450364384E+01	-1.71142769070E+02	-5.92550213265E+00	-8.81124007860E-01
2.25283920436E+06	-7.98810046851E+00	1.67598102761E+02	1.73108860443E+01	1.61116976721E+02	-3.31418592040E+01	1.29487038415E+02	-5.96255805237E+00	-1.06169987645E+00
2.27503055895E+06	-8.85693387295E+00	-1.52842235444E+02	1.73110183751E+01	1.60880381179E+02	-4.09695344099E+01	5.47351279089E+00	-5.96982352979E+00	-1.07110832012E+00
2.29722191355E+06	-6.90983064399E+00	-1.73488190119E+02	1.73032170481E+01	1.60640842345E+02	-4.35888973066E+01	6.86120708220E+01	-5.94987142937E+00	-1.22980107118E+00
2.31941326814E+06	-1.06656400694E+01	-1.35524713875E+02	1.73178783895E+01	1.60262078338E+02	-4.50377677542E+01	1.21333059331E+02	-5.95053865708E+00	-1.01665531508E+00
2.34160462274E+06	-9.01012912367E+00	-1.76222262433E+02	1.73705204101E+01	1.60273001948E+02	-4.76253009307E+01	-1.23734309327E+02	-5.98842171838E+00	-9.39799786152E-01
2.36379597733E+06	-9.48584201429E+00	-1.75110372325E+02	1.73142103112E+01	1.59651502155E+02	-3.92155005007E+01	-8.47046189118E+01	-6.06801536423E+00	-4.62666769753E-01
2.38598733193E+06	-9.97366788889E+00	1.69639043582E+02	1.73098828876E+01	1.59238570237E+02	-4.34682706719E+01	-6.04663934369E+01	-6.01078283292E+00	-1.25858856115E+00
2.40817868652E+06	-1.27364901393E+01	-1.72535580498E+02	1.72731971819E+01	1.59591195330E+02	-4.95400913373E+01	2.67653070303E+01	-5.98796896439E+00	-1.19854008546E+00
2.43037004112E+06	-7.65647647359E+00	1.78884720107E+02	1.73367587322E+01	1.59412920129E+02	-5.19132502211E+01	8.87399982157E+01	-5.96886781401E+00	-1.44580557707E+00
2.45256139571E+06	-9.29143549361E+00	1.75985080309E+02	1.73207907534E+01	1.59247592548E+02	-4.90160950410E+01	1.68248597101E+02	-6.00172628491E+00	-9.53646340252E-01
2.47475275031E+06	-1.02180825655E+01	1.71666254128E+02	1.73251534469E+01	1.58884671030E+02	-3.67907283232E+01	3.48135006815E+01	-5.94528844926E+00	-1.22681568442E+00
2.49694410490E+06	-1.16659907607E+01	1.57298601128E+02	1.72563113617E+01	1.58746244259E+02	-4.05707986019E+01	1.38025230049E+02	-6.00081390036E+00	-1.13708631607E+00
2.51913545950E+06	-9.41984994499E+00	-1.66926254342E+02	1.72761321650E+01	1.58661795084E+02	-3.50931892629E+01	3.46430882207E+01	-5.96799959079E+00	-7.35195180339E-01
2.54132681409E+06	-1.82245059276E+01	-1.56669891245E+02	1.72300450082E+01	1.58579794060E+02	-4.34129420497E+01	-1.71856290188E+02	-5.96777926310E+00	-1.16231524362E+00
2.56351816869E+06	-1.14357378291E+01	-1.71342380202E+02	1.72952262594E+01	1.58036133789E+02	-4.77946477069E+01	4.99276350307E+01	-5.96683273065E+00	-1.14565293492E+00
2.58570952328E+06	-1.33506693063E+01	1.56125781717E+02	1.72821863940E+01	1.58178017531E+02	-4.47323489389E+01	8.71348414588E+01	-5.96254870403E+00	-1.36881741046E+00
2.60790087788E+06	-1.15910879891E+01	-1.69727174354E+02	1.72453463514E+01	1.57703968584E+02	-3.83126267990E+01	1.52585382793E+02	-5.94317616457E+00	-1.15303830977E+00
2.63009223247E+06	-1.33688562590E+01	1.58286536900E+02	1.72697025373E+01	1.57458008333E+02	-4.41606036750E+01	1.68563488712E+02	-5.96259723203E+00	-1.26105048333E+00
2.65228358707E+06	-1.02979017537E+01	1.68727464645E+02	1.72600317503E+01	1.57330179210E+02	-3.69557527294E+01	-1.58898515511E+02	-6.01597379911E+00	-1.74891512649E+00
2.67447494166E+06	-1.30083986941E+01	1.54340008019E+02	1.73023388161E+01	1.57208740678E+02	-3.73348274086E+01	6.31697611122E+01	-5.99029576606E+00	-1.41191885486E+00
2.69666629626E+06	-9.41235507428E+00	-1.63559804816E+02	1.72985048258E+01	1.57108173679E+02	-3.55770568212E+01	-5.67302427578E+01	-6.01053539758E+00	-1.37380628344E+00
2.71885765085E+06	-9.56372442789E+00	1.51060728966E+02	1.73010932605E+01	1.56701479174E+02	-4.49060661371E+01	-1.07312686827E+02	-5.93589418428E+00	-1.02500872785E+00
2.74104900545E+06	-8.98717858817E+00	1.72829263944E+02	1.72802896418E+01	1.56594815537E+02	-4.71406766823E+01	-1.74632004580E+01	-5.96826885135E+00	-1.33609465079E+00
2.76324036004E+06	-7.88874769518E+00	1.51174934750E+02	1.72633952745E+01	1.56482194579E+02	-3.21484974903E+01	-1.36361145485E+02	-5.95886518546E+00	-1.27975292847E+00
2.78543171463E+06	-9.95888936418E+00	1.46591490101E+02	1.72597588354E+01	1.56131589302E+02	-5.08448776322E+01	9.43388472910E+01	-5.97114959266E+00	-1.18996213768E+00
2.80762306923E+06	-8.51424839268E+00	-1.69487235152E+02	1.73029386429E+01	1.56065370871E+02	-4.85465485093E+01	-6.67082906065E+01	-5.95468380861E+00	-1.16354113966E+00
2.82981442382E+06	-9.45614618254E+00	-1.66394945043E+02	1.72711706621E+01	1.55775872856E+02	-3.79981490446E+01	-1.29742196618E+02	-5.97125869959E+00	-1.03457609558E+00
2.85200577842E+06	-1.01646232973E+01	-1.78438812320E+02	1.72898163272E+01	1.55711584989E+02	-4.02631505577E+01	-1.28359248359E+02	-5.95271980243E+00	-1.33793411266E+00
2.87419713301E+06	-1.12480392671E+01	-1.71469812458E+02	1.72864206587E+01	1.55684068378E+02	-3.86500602943E+01	1.34355338651E+02	-5.90813891987E+00	-1.23107606956E+00
