# Hz S DB R 50
! CMT, M5065, 19127446, 24.2.4/2
! Date: 10/29/2024 12:43:31 PM
! Data: Format (Calibration Info)
! Freq	S11:dB/Ang(F2)	S21:dB/Ang(F2)	S12:dB/Ang(F2)	S22:dB/Ang(F2)
3.00000000000E+05	-1.01229041164E+01	-1.72307188198E+02	1.61309308113E+01	-1.77961024371E+02	-4.37419561691E+01	-8.07162946704E+01	-6.04774529783E+00	-1.88124224423E-01
3.22191354595E+05	-9.44931338005E+00	-1.53005279682E+02	1.61287256424E+01	-1.78319489237E+02	-5.47595271910E+01	-1.76092016589E+01	-6.00139293907E+00	-3.70173746336E-01
3.44382709190E+05	-1.01026553649E+01	1.76685716931E+02	1.61369874618E+01	-1.78989794234E+02	-4.07437009844E+01	8.62930476959E+01	-5.93835901924E+00	-2.96700674151E-01
3.66574063785E+05	-1.09106386339E+01	1.73768085695E+02	1.61477196670E+01	-1.79329443534E+02	-3.73506176025E+01	-1.28930466285E+02	-5.98390197174E+00	-2.20496496635E-01
3.88765418380E+05	-1.08542879928E+01	-1.72101391107E+02	1.61923711863E+01	-1.79497289042E+02	-4.37210433080E+01	-1.99441290039E+01	-5.98497477188E+00	-5.14126205811E-01
4.10956772975E+05	-1.00307726954E+01	-1.78800580517E+02	1.61703667164E+01	1.79824061164E+02	-3.99845129008E+01	1.36673799389E+02	-5.94018370886E+00	-1.32464485653E-01
4.33148127570E+05	-7.45329423629E+00	1.77708068900E+02	1.61558917532E+01	1.79662842938E+02	-3.75390098361E+01	1.20991241729E+02	-5.96450758316E+00	-4.65343108711E-01
4.55339482165E+05	-8.75766558473E+00	-1.60872588592E+02	1.61509993131E+01	1.79377104533E+02	-4.11329168590E+01	-4.11934176616E+01	-5.92486115668E+00	-6.72048676023E-01
4.77530836760E+05	-1.75144613720E+01	-1.34376121488E+02	1.61503459275E+01	1.78737913667E+02	-4.01901058665E+01	1.59153300900E+02	-5.97770323995E+00	-5.69554755262E-01
4.99722191355E+05	-9.87166543679E+00	1.71888144570E+02	1.61925255318E+01	1.78491719283E+02	-4.51708100383E+01	-1.12685676399E+02	-5.96597534568E+00	-4.30526562677E-01
5.21913545950E+05	-1.40354214135E+01	1.64052753828E+02	1.61632275925E+01	1.78493056877E+02	-3.49844129207E+01	1.75344835336E+02	-6.00880014708E+00	-3.74022195545E-01
5.44104900545E+05	-1.12293013867E+01	1.73473397477E+02	1.61931365629E+01	1.77728649652E+02	-3.79447428364E+01	7.78887204470E+01	-5.98790771076E+00	-5.07695640710E-01
5.66296255139E+05	-1.12387987451E+01	-1.58370735386E+02	1.61608835776E+01	1.77836314627E+02	-3.35897480574E+01	1.26496901295E+02	-5.97799835731E+00	-3.90367557568E-01
5.88487609734E+05	-1.21423702403E+01	-1.65884123695E+02	1.61412325519E+01	1.77562704392E+02	-3.84006321691E+01	1.39441184964E+01	-5.94137810973E+00	-6.07313777018E-01
6.10678964329E+05	-9.56249907335E+00	-1.72390142133E+02	1.61918520470E+01	1.77433416611E+02	-5.23798482756E+01	1.09755309608E+01	-5.97248925021E+00	-3.31183073081E-01
6.32870318924E+05	-8.63962131649E+00	-1.63433950202E+02	1.61642659318E+01	1.77038346625E+02	-3.88403072793E+01	2.68133751917E+01	-5.98644083820E+00	-3.12205837206E-01
6.55061673519E+05	-9.77984391460E+00	-1.45734692793E+02	1.61408109677E+01	1.76636312753E+02	-3.61243051094E+01	1.03762287611E+02	-6.00125938215E+00	-2.92558226977E-01
6.77253028114E+05	-1.19153275269E+01	-1.62964536264E+02	1.61979514658E+01	1.76516141905E+02	-4.20048636191E+01	8.48518600918E+00	-5.96925789728E+00	-4.41930430015E-01
6.99444382709E+05	-8.43061302179E+00	-1.70968088309E+02	1.61826105416E+01	1.76072555995E+02	-3.95380181309E+01	-1.26288440557E+02	-5.96052607280E+00	-5.25235225158E-01
7.21635737304E+05	-1.14727501504E+01	1.70024188269E+02	1.61891375956E+01	1.76157522176E+02	-3.65544293519E+01	2.91480604921E+01	-5.97386438911E+00	-7.37338028507E-01
7.43827091899E+05	-1.15923214609E+01	-1.76891050470E+02	1.61388616150E+01	1.75800944630E+02	-5.89908764385E+01	-1.01560251720E+02	-6.00630806626E+00	-3.78027249252E-01
7.66018446494E+05	-7.91235070840E+00	-1.72258333353E+02	1.61607457387E+01	1.75529942423E+02	-4.05682572654E+01	3.63243399798E+01	-5.96878446745E+00	-6.86254971026E-01
7.88209801089E+05	-7.33121021586E+00	-1.73559144427E+02	1.61669046151E+01	1.75292915363E+02	-3.50829752368E+01	-1.62056247828E+02	-5.97781238250E+00	-6.94607793215E-01
8.10401155684E+05	-1.36351376870E+01	-1.77327623242E+02	1.61636133240E+01	1.74866694476E+02	-4.43697522728E+01	1.36204356807E+01	-5.96100537089E+00	-5.22185571774E-01
8.32592510279E+05	-1.00952485090E+01	1.78126568541E+02	1.62006233174E+01	1.74650471608E+02	-4.59424807781E+01	9.79989044749E+00	-5.98788326265E+00	-6.97088140596E-01
8.54783864874E+05	-9.42503529003E+00	-1.66985582344E+02	1.61657616500E+01	1.74705201809E+02	-4.54374772512E+01	-3.37480903911E+01	-5.95112826638E+00	-5.47460166947E-01
8.76975219469E+05	-8.84364156125E+00	-1.76328642567E+02	1.61218833030E+01	1.74498686958E+02	-3.47808885160E+01	1.68056264169E+02	-6.01153655092E+00	-4.70905901873E-01
8.99166574064E+05	-9.93520827157E+00	-1.77379898805E+02	1.61994921673E+01	1.74173897335E+02	-4.13076583712E+01	-1.39069286085E+02	-5.96655890606E+00	-3.96109388468E-01
9.21357928659E+05	-8.81827710106E+00	-1.77730482797E+02	1.61785980084E+01	1.74081230426E+02	-4.42902339791E+01	-4.96026934190E+01	-5.98867122900E+00	-7.34240758791E-01
9.43549283254E+05	-1.10911278364E+01	1.57189357306E+02	1.61927298187E+01	1.73643331680E+02	-3.85541325037E+01	1.61462451555E+02	-5.95921115318E+00	-1.11523246967E-01
9.65740637849E+05	-8.74673415582E+00	-1.59541678849E+02	1.61204215642E+01	1.73720981159E+02	-3.77306252015E+01	7.27979455601E+01	-5.99792184205E+00	-6.07708836762E-01
9.87931992444E+05	-1.41211648086E+01	1.59014416898E+02	1.61378214001E+01	1.73218923718E+02	-4.91214035338E+01	-8.12861735064E+01	-5.98502981906E+00	-7.79665865280E-01
1.01012334704E+06	-9.83679385724E+00	-1.67393670349E+02	1.61287848118E+01	1.73148128678E+02	-4.40123343698E+01	-1.71106602586E+02	-6.00211227296E+00	-7.13389214817E-01
1.03231470163E+06	-7.92797571558E+00	1.71298802175E+02	1.61695561512E+01	1.72658273556E+02	-4.08544430427E+01	-3.15092881149E+01	-6.00983500327E+00	-6.50716511213E-01
1.05450605623E+06	-8.93284154578E+00	-1.71049284854E+02	1.61541168240E+01	1.72732746497E+02	-5.02657280612E+01	-1.34521207877E+02	-5.97611851941E+00	-6.66348679131E-01
1.07669741082E+06	-1.17468621678E+01	1.48755090690E+02	1.61627981848E+01	1.72520131619E+02	-3.77789239690E+01	-3.82890968349E+01	-5.98579345935E+00	-5.47490212312E-01
1.09888876542E+06	-8.65027706055E+00	-1.65266779851E+02	1.61285250369E+01	1.72395637929E+02	-4.00534104658E+01	-1.28983799959E+02	-5.95946018872E+00	-6.74106960600E-01
1.12108012001E+06	-9.27165585785E+00	1.78277947301E+02	1.61925924139E+01	1.72127572974E+02	-6.08683458527E+01	9.79008850133E+01	-6.01346448771E+00	-8.94967818822E-01
1.14327147461E+06	-1.30097299288E+01	1.65181484972E+02	1.61415043636E+01	1.71767654545E+02	-4.96646736557E+01	-1.37255307190E+02	-5.94874815650E+00	-5.84975552072E-01
1.16546282920E+06	-9.53027723610E+00	-1.75086041590E+02	1.61684335697E+01	1.71513535014E+02	-4.35748027652E+01	6.12815704626E+01	-6.01174336371E+00	-4.37914912338E-01
1.18765418380E+06	-1.11726901018E+01	1.51983830424E+02	1.60779876046E+01	1.71085068729E+02	-5.62558803489E+01	-9.64214067242E+01	-5.98951389055E+00	-7.34640810450E-01
1.20984553839E+06	-8.91816791911E+00	1.77379417811E+02	1.61735160680E+01	1.71253177756E+02	-4.06163106298E+01	-4.08405243423E+01	-5.97857218688E+00	-1.14859392404E+00
1.23203689299E+06	-1.19567422297E+01	1.73615035433E+02	1.61644108847E+01	1.71032886624E+02	-3.85053093107E+01	-1.26295553276E+02	-5.98033768242E+00	-6.05599910974E-01
1.25422824758E+06	-8.00022991779E+00	-1.70675691902E+02	1.62044458575E+01	1.70956701697E+02	-4.42451568029E+01	5.07885727820E+01	-5.96003586370E+00	-2.72290187937E-01
1.27641960218E+06	-8.37629725160E+00	-1.78060427526E+02	1.61572308004E+01	1.70649372051E+02	-4.24113447499E+01	8.11133715721E+01	-6.00123623536E+00	-4.02613610322E-01
1.29861095677E+06	-1.26551029671E+01	-1.67261099396E+02	1.61442786476E+01	1.70388103203E+02	-5.81935484628E+01	4.74187185796E+01	-5.98304258043E+00	-7.71105926539E-01
1.32080231137E+06	-1.02713257863E+01	1.64429259503E+02	1.61257179238E+01	1.70169841521E+02	-3.83999046814E+01	-1.17102581273E+02	-5.94693329270E+00	-1.22054995905E+00
1.34299366596E+06	-1.36828397946E+01	1.54472285850E+02	1.60387102109E+01	1.70291105460E+02	-3.94009504081E+01	-4.01126814052E+00	-5.92047917849E+00	-9.80726060468E-01
1.36518502056E+06	-1.07351319931E+01	1.70333466384E+02	1.61043453754E+01	1.69804559499E+02	-3.81821749339E+01	-1.31298043964E+02	-5.99755972047E+00	-4.78537138010E-01
1.38737637515E+06	-9.53730350531E+00	1.79945249837E+02	1.61149028359E+01	1.69411231246E+02	-3.74601496070E+01	1.30392738932E+02	-5.99504314472E+00	-5.71465836327E-01
1.40956772975E+06	-1.23813455229E+01	-1.77702834201E+02	1.61507043251E+01	1.69704309240E+02	-4.01842129740E+01	1.45570027124E+02	-6.04541076800E+00	-5.39799863989E-01
1.43175908434E+06	-7.99576392856E+00	1.63143624394E+02	1.61155795965E+01	1.69161024291E+02	-4.07280018357E+01	-1.28644138296E+02	-6.05338967539E+00	-6.16618983909E-01
1.45395043894E+06	-9.47215986316E+00	-1.64105897891E+02	1.61413227957E+01	1.69587685735E+02	-5.51748068823E+01	-6.44350499455E+01	-5.88978815261E+00	-6.28284909675E-01
1.47614179353E+06	-8.90426842010E+00	-1.79519113865E+02	1.60849358995E+01	1.68652044993E+02	-4.47677378204E+01	4.14907975723E+01	-5.98213090096E+00	-6.98529475855E-01
1.49833314813E+06	-1.21095844425E+01	1.77590778779E+02	1.60823250041E+01	1.68886568546E+02	-4.47814390155E+01	8.49636800806E+01	-6.00105188553E+00	-1.01652460513E+00
1.52052450272E+06	-7.69150671046E+00	-1.66924618540E+02	1.61480860484E+01	1.68545298661E+02	-4.22742852996E+01	5.40512422888E+01	-6.00470570860E+00	-7.27529009385E-01
1.54271585732E+06	-9.14582261451E+00	1.61573773190E+02	1.61266908953E+01	1.68288784679E+02	-4.85948795405E+01	-1.68911094871E+02	-5.97262069386E+00	-7.88230621369E-01
1.56490721191E+06	-1.03532417577E+01	1.59071471324E+02	1.61210286713E+01	1.68224187617E+02	-4.41990796901E+01	-1.77967728857E+02	-5.99177969015E+00	-7.57702129346E-01
1.58709856651E+06	-8.13505239654E+00	-1.67721901756E+02	1.61088134120E+01	1.67680460886E+02	-4.24572349485E+01	1.60077040952E+02	-6.01598573140E+00	-8.85485030128E-01
1.60928992110E+06	-9.41716757715E+00	-1.75388461681E+02	1.61079998154E+01	1.67752913141E+02	-3.92967809522E+01	1.06616884212E+02	-6.01228858229E+00	-8.26015332588E-01
1.63148127570E+06	-8.58698541396E+00	1.54270592463E+02	1.61356482217E+01	1.67343789966E+02	-4.11290871938E+01	1.53022826253E+02	-5.97393139631E+00	-6.79074150853E-01
1.65367263029E+06	-1.22020897431E+01	-1.72928411730E+02	1.60905655174E+01	1.67568707962E+02	-4.18963294851E+01	-1.32219327045E+02	-5.98311735929E+00	-8.24107253209E-01
1.67586398489E+06	-1.07948623988E+01	1.62954786223E+02	1.60935743075E+01	1.67220430566E+02	-4.03778440672E+01	-1.16250911442E+02	-6.00652205362E+00	-6.45704551337E-01
1.69805533948E+06	-1.08930638591E+01	1.78602749492E+02	1.61340373132E+01	1.67272661751E+02	-3.80685315127E+01	-1.35684202327E+02	-5.97656599465E+00	-8.68455491665E-01
1.72024669408E+06	-9.26595051024E+00	1.77560085591E+02	1.61016514994E+01	1.66826406562E+02	-3.63711334493E+01	-5.24526100412E+01	-5.98601797432E+00	-1.73693887126E+00
1.74243804867E+06	-8.97301274069E+00	1.71616838409E+02	1.61397083979E+01	1.66480823081E+02	-4.19767184785E+01	-7.51995672487E+01	-5.96071373657E+00	-6.99716180813E-01
1.76462940327E+06	-1.76578757243E+01	-1.60482957595E+02	1.61134126713E+01	1.66509969233E+02	-4.17020031299E+01	-1.74805855462E+02	-5.96554843588E+00	-9.18543939300E-01
1.78682075786E+06	-9.39607468535E+00	1.75345316925E+02	1.61057655689E+01	1.66467790196E+02	-4.29878267951E+01	9.55713813217E+01	-5.99967035047E+00	-6.11000711745E-01
1.80901211246E+06	-8.72472430922E+00	1.73992572143E+02	1.61592362608E+01	1.66309175727E+02	-3.94099682680E+01	1.64660432274E+02	-5.98507614000E+00	-7.42050678869E-01
1.83120346705E+06	-8.93414936270E+00	1.73214798704E+02	1.61614464257E+01	1.65680001429E+02	-4.32499514110E+01	4.67435333646E+01	-5.99861937423E+00	-1.16746975996E+00
1.85339482165E+06	-1.37889302422E+01	1.34598129216E+02	1.61034514188E+01	1.65673284659E+02	-4.20795491931E+01	1.77914161403E+02	-6.00368289526E+00	-6.76127559480E-01
1.87558617624E+06	-1.19725184605E+01	-1.71728775679E+02	1.60902903158E+01	1.65910984227E+02	-3.60237582137E+01	-1.29678788849E+01	-5.94986764779E+00	-1.33052384283E+00
1.89777753084E+06	-1.34494135216E+01	1.72095143337E+02	1.60604661242E+01	1.65429800777E+02	-3.65893098547E+01	-1.73658529107E+02	-6.02026935205E+00	-6.22068582838E-01
1.91996888543E+06	-9.78906464132E+00	1.74881099518E+02	1.61344708690E+01	1.65174779831E+02	-3.62130053012E+01	-1.94429713382E+01	-5.97705854332E+00	-9.48907683582E-01
1.94216024003E+06	-9.74502064334E+00	-1.52358696288E+02	1.61990654721E+01	1.65133947105E+02	-4.90632840936E+01	3.90517583645E+00	-5.99012704405E+00	-8.46960485974E-01
1.96435159462E+06	-6.31152136576E+00	1.64102103107E+02	1.62690353604E+01	1.64099876269E+02	-4.02338584297E+01	8.98661200377E+01	-5.94271172796E+00	-1.16771686016E+00
1.98654294922E+06	-6.25019923987E+00	-1.71446420271E+02	1.61549231986E+01	1.64661486829E+02	-4.23431272517E+01	-5.39155306325E+01	-6.00117916983E+00	-1.05499383734E+00
2.00873430381E+06	-1.21536790903E+01	-1.73882009816E+02	1.61172846825E+01	1.64711200376E+02	-4.16222233542E+01	1.14404098023E+02	-5.96325004099E+00	-8.02665624817E-01
2.03092565841E+06	-8.44811657683E+00	1.63324217657E+02	1.60954008344E+01	1.64302915958E+02	-3.91771891333E+01	-1.17671609771E+02	-5.94103188089E+00	-7.33123029766E-01
2.05311701300E+06	-1.18667045470E+01	-1.60145187598E+02	1.60954650028E+01	1.63851425537E+02	-4.48389554298E+01	3.29806188195E+01	-5.88919815051E+00	-1.58767402479E+00
2.07530836760E+06	-1.42163031379E+01	-1.66586352801E+02	1.60914312514E+01	1.63808244964E+02	-4.49782167262E+01	-4.66248168342E+01	-6.00303594536E+00	-9.76580724576E-01
2.09749972219E+06	-1.13623120814E+01	-1.68335607526E+02	1.60710023658E+01	1.63663073077E+02	-3.96945568851E+01	3.99268452499E+01	-5.97084837352E+00	-9.03036901335E-01
2.11969107679E+06	-8.08532228111E+00	-1.76722777476E+02	1.60925981155E+01	1.63225577081E+02	-3.25149296189E+01	1.09094824816E+02	-5.94901417789E+00	-1.13158137585E+00
2.14188243138E+06	-6.55221717226E+00	-1.72802707782E+02	1.61144246707E+01	1.63380944540E+02	-3.69935511787E+01	-7.26951443730E+00	-5.97049964682E+00	-1.33109213813E+00
2.16407378598E+06	-1.35399482299E+01	1.65152500359E+02	1.61136044833E+01	1.63226280608E+02	-3.42620048766E+01	-8.45357563741E+01	-5.97321607300E+00	-1.17524744505E+00
2.18626514057E+06	-9.13326895744E+00	-1.71112187507E+02	1.61160308593E+01	1.63038355195E+02	-4.19904612907E+01	6.86397728529E+01	-5.96088978153E+00	-1.20614615564E+00
2.20845649517E+06	-1.13745757324E+01	-1.76975856098E+02	1.60858955567E+01	1.62912907009E+02	-4.92880490372E+01	-7.43255177781E+01	-6.00278600278E+00	-1.49514536005E+00
2.23064784976E+06	-7.87537574004E+00	-1.78212718147E+02	1.61076267672E+01	1.62553229289E+02	-3.41727677467E+01	1.73009252351E+02	-5.95350666259E+00	-9.73935343662E-01
2.25283920436E+06	-1.27070658638E+01	-1.62411145563E+02	1.61157885337E+01	1.62239031503E+02	-4.43417335594E+01	-9.05626146646E+01	-5.99253883268E+00	-1.06494050806E+00
2.27503055895E+06	-1.48237527517E+01	1.72369082973E+02	1.60484613461E+01	1.62552082601E+02	-3.83157778568E+01	-3.77030365082E-01	-5.98642081479E+00	-1.15309958075E+00
2.29722191355E+06	-9.54783593615E+00	1.55273191915E+02	1.60975817628E+01	1.62048138425E+02	-3.41364842963E+01	-7.77978603652E+01	-5.96574863555E+00	-8.04308211374E-01
2.31941326814E+06	-1.29809871692E+01	-1.73582306804E+02	1.61101336225E+01	1.61971722025E+02	-4.17907156913E+01	-1.49032898629E+02	-5.95645890893E+00	-7.48566405850E-01
2.34160462274E+06	-1.24354107340E+01	-1.59399938470E+02	1.60923539271E+01	1.61697006874E+02	-3.93888359406E+01	-1.79217702411E+02	-6.02558751481E+00	-1.16774278902E+00
2.36379597733E+06	-9.29353453986E+00	-1.67065103269E+02	1.61091714882E+01	1.61550435485E+02	-5.01729778003E+01	-4.66593531466E+01	-5.90548662473E+00	-1.26136335696E+00
2.38598733193E+06	-1.26200262411E+01	-1.76179515848E+02	1.61035104022E+01	1.61438356655E+02	-3.87375429006E+01	-2.40063529818E+01	-5.97357756319E+00	-1.18866890182E+00
2.40817868652E+06	-1.11074659910E+01	-1.67174082003E+02	1.61237489376E+01	1.61022657632E+02	-4.60257454225E+01	-1.30678012049E+02	-6.00322936808E+00	-1.20601038755E+00
2.43037004112E+06	-1.12593455209E+01	-1.60748430125E+02	1.60996277706E+01	1.61491487278E+02	-3.94353311252E+01	-9.31352208805E+01	-5.98555242688E+00	-1.28584823889E+00
2.45256139571E+06	-6.73186838162E+00	1.74332372122E+02	1.61128151210E+01	1.61142641527E+02	-4.22654346720E+01	1.56059713577E+02	-5.98838650848E+00	-1.17234718647E+00
2.47475275031E+06	-1.33417023436E+01	-1.77301964653E+02	1.60685799642E+01	1.60453567556E+02	-4.09130132497E+01	-6.59209543981E+01	-5.94240060352E+00	-1.47724753765E+00
2.49694410490E+06	-9.20391642663E+00	-1.55810988538E+02	1.61114450915E+01	1.60488934071E+02	-4.81623507230E+01	1.72286385738E+02	-5.96584264375E+00	-1.37719910510E+00
2.51913545950E+06	-8.96401218341E+00	-1.52869524347E+02	1.61159739913E+01	1.60212650916E+02	-4.82436752099E+01	1.10460328267E+02	-6.01853262122E+00	-8.05613662522E-01
2.54132681409E+06	-7.24625492813E+00	1.68794037433E+02	1.60900970677E+01	1.60142492638E+02	-4.11901135962E+01	6.37456847897E+01	-5.97252123876E+00	-1.28771184775E+00
2.56351816869E+06	-1.11809029250E+01	1.54563231015E+02	1.61217824458E+01	1.59920806708E+02	-3.75004356424E+01	1.64445654637E+02	-5.97106990354E+00	-1.12957803037E+00
2.58570952328E+06	-1.15367757470E+01	1.70683623614E+02	1.60169436012E+01	1.59983776018E+02	-4.30429228822E+01	1.53464293280E+02	-5.99082551132E+00	-1.17084674911E+00
2.60790087788E+06	-1.23600865941E+01	-1.71893353708E+02	1.60679779290E+01	1.59384529033E+02	-5.11196852725E+01	1.19273206735E+02	-5.94324471046E+00	-1.46146968733E+00
2.63009223247E+06	-1.04978848298E+01	-1.76047603581E+02	1.60947686926E+01	1.59427650560E+02	-4.84311192138E+01	-6.30635828971E+01	-6.02984774977E+00	-1.06742558600E+00
2.65228358707E+06	-8.40597956857E+00	-1.78034163156E+02	1.60142653895E+01	1.59432320013E+02	-4.18985338275E+01	-1.51308178027E+02	-6.00775164562E+00	-1.32478620973E+00
2.67447494166E+06	-8.63453464329E+00	1.68789380610E+02	1.60593572909E+01	1.58991724957E+02	-3.76304336534E+01	1.07665551408E+02	-5.91888956764E+00	-8.30054359057E-01
2.69666629626E+06	-8.18029734128E+00	1.68960722796E+02	1.60870911541E+01	1.58882932501E+02	-3.79050262523E+01	-9.07700372771E+01	-5.97729614314E+00	-1.31323306676E+00
2.71885765085E+06	-9.48438016915E+00	-1.78874668634E+02	1.60900544720E+01	1.58752608327E+02	-3.91925713564E+01	8.51691318644E+01	-5.91731534856E+00	-1.12916811131E+00
2.74104900545E+06	-1.52330704918E+01	-1.75154264843E+02	1.60415017663E+01	1.58684247171E+02	-4.34489476129E+01	2.08386178221E+01	-5.97609841743E+00	-1.30107515982E+00
2.76324036004E+06	-1.37144758448E+01	-1.55828157849E+02	1.61042610960E+01	1.58438631953E+02	-4.05856060100E+01	-1.29964460857E+02	-5.96102610424E+00	-1.31508514493E+00
2.78543171463E+06	-1.22452656326E+01	-1.66596139523E+02	1.60513934566E+01	1.58271849461E+02	-3.76387037220E+01	-1.39052456915E+02	-5.98779507402E+00	-1.47383165712E+00
2.80762306923E+06	-1.15624293360E+01	-1.63251996510E+02	1.61113565897E+01	1.58131654703E+02	-3.69623270132E+01	8.77658888530E+01	-6.00218391640E+00	-1.48801854987E+00
2.82981442382E+06	-1.14141733953E+01	1.78390503433E+02	1.60683033597E+01	1.57645052087E+02	-4.63272873602E+01	-1.05192933788E+02	-5.96550143693E+00	-1.11756877488E+00
2.85200577842E+06	-1.03963042818E+01	-1.73631836235E+02	1.60859349158E+01	1.57603156576E+02	-3.99559158013E+01	1.11304253668E+02	-5.99376249593E+00	-1.25606107650E+00
2.87419713301E+06	-1.13545637597E+01	-1.70440814973E+02	1.60904429498E+01	1.57377082130E+02	-5.43266184226E+01	-1.60769134467E+02	-5.96144028482E+00	-1.41725936317E+00
