# Hz S DB R 50
! CMT, M5065, 19127446, 24.2.4/2
! Date: 10/29/2024 12:07:20 PM
! Data: Format (Calibration Info)
! Freq	S11:dB/Ang(F2)	S21:dB/Ang(F2)	S12:dB/Ang(F2)	S22:dB/Ang(F2)
3.00000000000E+05	-1.03515709520E+01	1.73111889814E+02	6.83301017058E+00	-1.78287112300E+02	-5.03762233748E+01	-1.13535120462E+02	-5.96644044382E+00	-1.45974741654E-01
3.22191354595E+05	-1.20698870519E+01	-1.74621682247E+02	6.78534753001E+00	-1.78519327467E+02	-4.54496019070E+01	-1.06425117951E+02	-5.99124476994E+00	-1.31801055418E-01
3.44382709190E+05	-9.94173636486E+00	-1.66089959378E+02	6.78692625570E+00	-1.78650353070E+02	-5.26465861680E+01	-5.06377972268E+01	-5.97708456580E+00	-2.42377068809E-01
3.66574063785E+05	-1.05641383760E+01	1.78243868116E+02	6.81459289163E+00	-1.79176455886E+02	-4.20083634812E+01	-1.35391946483E+02	-5.99165823718E+00	-1.26410514924E-01
3.88765418380E+05	-1.25085784714E+01	-1.66799894808E+02	6.83489160132E+00	-1.79408199422E+02	-5.53574509705E+01	-1.10040175398E+02	-5.98258619758E+00	-1.90190319653E-01
4.10956772975E+05	-9.74892725083E+00	-1.71650726101E+02	6.79278686743E+00	-1.79616263455E+02	-4.58973268236E+01	1.80001825877E+01	-5.97170690469E+00	-3.12051084522E-01
4.33148127570E+05	-1.01872719492E+01	-1.71860143163E+02	6.80585166493E+00	-1.79451963971E+02	-4.53633985248E+01	9.96842278693E+01	-5.98859455013E+00	-4.64655089644E-01
4.55339482165E+05	-1.01771553729E+01	1.79748033334E+02	6.87097932463E+00	-1.79963049332E+02	-4.95944194385E+01	1.38333362550E+02	-5.96018285110E+00	-3.23183578061E-01
4.77530836760E+05	-1.06051384009E+01	-1.77716828755E+02	6.76358959878E+00	1.79689677629E+02	-3.89465018785E+01	1.05478219559E+02	-5.97292860523E+00	-3.57219438392E-01
4.99722191355E+05	-1.06217261328E+01	-1.63963224358E+02	6.81288302893E+00	1.79932375944E+02	-4.70855070175E+01	1.75282471557E+02	-5.97744601987E+00	-2.42862569971E-01
5.21913545950E+05	-9.53854375995E+00	1.79360234394E+02	6.82020475898E+00	1.79316838035E+02	-4.76509749101E+01	1.45086870624E+02	-5.96952946275E+00	-3.04267057607E-01
5.44104900545E+05	-1.29296909731E+01	-1.61777153073E+02	6.82067890913E+00	1.79371357390E+02	-4.95587616851E+01	5.68881633762E+01	-5.96823626303E+00	-4.47536583847E-01
5.66296255139E+05	-1.01560441722E+01	1.77605989279E+02	6.81599565625E+00	1.78821448593E+02	-4.79564429797E+01	2.36093403921E+01	-5.95366963382E+00	-4.48761953950E-01
5.88487609734E+05	-1.09667725639E+01	-1.67396591029E+02	6.81786136980E+00	1.78745683667E+02	-5.09214439832E+01	-1.71672564563E+01	-5.96768252115E+00	-4.97087703834E-01
6.10678964329E+05	-1.01352971912E+01	1.75625919642E+02	6.82180492432E+00	1.78920308029E+02	-4.76820341690E+01	-1.40596753312E+02	-5.99493266555E+00	-2.93226497991E-01
6.32870318924E+05	-1.05913772583E+01	-1.70960519853E+02	6.82515369796E+00	1.78780824532E+02	-4.38065089871E+01	-9.02285289547E+01	-5.98628833978E+00	-5.43218724830E-01
6.55061673519E+05	-1.18673246043E+01	1.67989222326E+02	6.86969199550E+00	1.78660859331E+02	-4.46612249725E+01	-1.63499532806E+02	-5.98442570817E+00	-1.08349448677E-01
6.77253028114E+05	-1.11460989477E+01	-1.72302864657E+02	6.83465401208E+00	1.78513282730E+02	-5.87176675832E+01	-7.52119309634E+01	-5.97897687390E+00	-5.39862018709E-01
6.99444382709E+05	-1.07955382475E+01	-1.76906361204E+02	6.88968275427E+00	1.77989532305E+02	-4.71880971135E+01	-1.56283178783E+02	-5.97094974449E+00	-4.71818016641E-01
7.21635737304E+05	-1.03544176185E+01	-1.70933181661E+02	6.81115525330E+00	1.78075731163E+02	-5.39250172669E+01	-6.01267555823E+01	-5.94569842827E+00	-5.13846958962E-01
7.43827091899E+05	-1.21735755166E+01	-1.78760623710E+02	6.86241265699E+00	1.78071629190E+02	-5.21112930533E+01	-2.94897603231E+01	-5.97177830331E+00	-3.77463777360E-01
7.66018446494E+05	-9.35979409206E+00	-1.79272547538E+02	6.84053559469E+00	1.77850826342E+02	-4.19124117510E+01	8.98382933822E+01	-5.97476338702E+00	-3.63964363601E-01
7.88209801089E+05	-9.64706948123E+00	1.74719611181E+02	6.85091184544E+00	1.77481444390E+02	-5.03748318085E+01	9.79148694555E+01	-5.96186081382E+00	-4.42536537720E-01
8.10401155684E+05	-1.14447156621E+01	1.64472297535E+02	6.86090419398E+00	1.77538826084E+02	-5.92074208850E+01	-2.58048930729E+01	-5.95799951804E+00	-4.98148681945E-01
8.32592510279E+05	-9.45935170719E+00	1.78923735901E+02	6.81521567755E+00	1.77200908292E+02	-4.26817809398E+01	-9.74531633941E+00	-5.95972477733E+00	-3.08714307708E-01
8.54783864874E+05	-9.67845863573E+00	-1.77019037411E+02	6.87275187294E+00	1.77372676363E+02	-4.86840938610E+01	-5.51348744293E+01	-5.94200806221E+00	-6.02154339591E-01
8.76975219469E+05	-1.13058252672E+01	-1.73666530823E+02	6.80001759714E+00	1.76845393227E+02	-6.31618663105E+01	7.81843501297E+01	-5.95782577295E+00	-6.44850312594E-01
8.99166574064E+05	-1.03657612027E+01	1.72190887430E+02	6.83636605777E+00	1.76872330949E+02	-4.96142912215E+01	1.03812482616E+01	-5.97127765607E+00	-5.01891121289E-01
9.21357928659E+05	-1.14074217559E+01	-1.66825801082E+02	6.81281647393E+00	1.76706557904E+02	-4.32917225918E+01	5.62897587385E+01	-5.97402208476E+00	-5.03057793100E-01
9.43549283254E+05	-1.05398622825E+01	1.73752923877E+02	6.82456454866E+00	1.76626603021E+02	-5.14390630027E+01	1.48913185622E+02	-5.99016357541E+00	-4.95262525760E-01
9.65740637849E+05	-1.08057226682E+01	-1.68750820031E+02	6.83033460561E+00	1.76636440840E+02	-4.61247066102E+01	-1.56353856155E+02	-5.95046155377E+00	-5.76147995709E-01
9.87931992444E+05	-9.92301466358E+00	-1.72643166329E+02	6.83434452590E+00	1.76247371065E+02	-4.11417646370E+01	1.67157957303E+02	-5.99156604722E+00	-6.03339210902E-01
1.01012334704E+06	-1.06661421011E+01	1.70556519022E+02	6.82797045730E+00	1.76336438420E+02	-5.35948849998E+01	-7.47154406620E+01	-5.97105740262E+00	-4.57384091468E-01
1.03231470163E+06	-8.98296001756E+00	-1.77496929377E+02	6.84590549600E+00	1.76159866304E+02	-4.97674719992E+01	1.43694375182E+02	-5.97138929916E+00	-5.56412390369E-01
1.05450605623E+06	-1.32293593369E+01	-1.71692840338E+02	6.82432007286E+00	1.75978308983E+02	-3.69679237091E+01	1.17212258167E+02	-5.97302356684E+00	-5.20219498753E-01
1.07669741082E+06	-1.12266399350E+01	1.70620260900E+02	6.83906914981E+00	1.75560566466E+02	-5.47701981944E+01	-1.46420591511E+02	-5.97720701820E+00	-6.15895482938E-01
1.09888876542E+06	-1.35191642373E+01	1.78503918148E+02	6.80592043977E+00	1.75705855668E+02	-4.56214077819E+01	8.54502027614E+01	-5.95245310725E+00	-6.81087644921E-01
1.12108012001E+06	-1.12417285328E+01	1.73507166364E+02	6.84135045058E+00	1.75489428787E+02	-5.36034756130E+01	-8.81049327491E+01	-5.97763039398E+00	-6.31458772983E-01
1.14327147461E+06	-8.76057557556E+00	-1.79818547497E+02	6.84872489157E+00	1.75459937942E+02	-4.28362885610E+01	-5.83486806262E+01	-5.96861730987E+00	-7.38233480539E-01
1.16546282920E+06	-1.08129588185E+01	-1.76235593895E+02	6.88183878424E+00	1.75577007670E+02	-4.09728174024E+01	-4.89271605946E+01	-5.98305746154E+00	-6.40669848767E-01
1.18765418380E+06	-9.85190308674E+00	1.78195120416E+02	6.83920808240E+00	1.75421999780E+02	-5.31187829018E+01	5.45467735712E+01	-5.98697931251E+00	-5.92124523010E-01
1.20984553839E+06	-9.67845744901E+00	1.63215164253E+02	6.81311581909E+00	1.75075669500E+02	-3.91811029146E+01	-6.55845186224E+01	-5.97329637130E+00	-8.78571230320E-01
1.23203689299E+06	-8.49680433719E+00	-1.79907331938E+02	6.82017897937E+00	1.75291573499E+02	-5.28939835540E+01	1.40748771434E+02	-5.97620725061E+00	-4.78329445015E-01
1.25422824758E+06	-1.00834312233E+01	-1.76949322791E+02	6.83424250594E+00	1.74763053664E+02	-4.27769897879E+01	-3.83175355363E+01	-5.96219288653E+00	-8.07781434408E-01
1.27641960218E+06	-1.17879975108E+01	1.78746007056E+02	6.83944332489E+00	1.74653130414E+02	-4.31964191641E+01	-8.60099190459E+01	-5.98941028826E+00	-6.71601243938E-01
1.29861095677E+06	-1.00371736002E+01	1.78114272129E+02	6.80753263633E+00	1.74612549319E+02	-4.55227799822E+01	1.67512365193E+02	-5.97484598742E+00	-7.16920664547E-01
1.32080231137E+06	-9.77868647248E+00	1.78480662635E+02	6.81239859927E+00	1.74499616654E+02	-4.83458773762E+01	5.11669163054E+01	-5.97511499682E+00	-1.13127370704E+00
1.34299366596E+06	-1.18902604834E+01	1.77874719727E+02	6.81460338232E+00	1.74513691462E+02	-4.40197445638E+01	4.65669880603E+01	-5.94370809272E+00	-7.69609664580E-01
1.36518502056E+06	-1.19911875053E+01	-1.66793729552E+02	6.84299130053E+00	1.74381860574E+02	-4.30836926999E+01	-2.85802509736E+01	-5.97277786955E+00	-7.45551206017E-01
1.38737637515E+06	-8.99465601856E+00	1.76855450386E+02	6.85210144674E+00	1.74082456465E+02	-6.37516041301E+01	-6.95368482828E+00	-5.96139136550E+00	-6.80416566543E-01
1.40956772975E+06	-1.17270439203E+01	1.69375825464E+02	6.83531596337E+00	1.73850731237E+02	-5.01200107158E+01	2.61189728675E+01	-5.98915589271E+00	-8.25901448984E-01
1.43175908434E+06	-1.02435288356E+01	-1.73255528390E+02	6.83300736082E+00	1.73630911060E+02	-5.15476976218E+01	-5.08310903325E+01	-5.95867179541E+00	-6.42342133008E-01
1.45395043894E+06	-1.03631758632E+01	1.78478808413E+02	6.80785149381E+00	1.73768674054E+02	-5.10007914909E+01	-7.69578963106E+01	-6.00211472805E+00	-7.31965318574E-01
1.47614179353E+06	-9.14380412773E+00	-1.77422082357E+02	6.85965157498E+00	1.73752334791E+02	-4.54119017018E+01	2.52631217640E+01	-5.95945366976E+00	-7.85372250738E-01
1.49833314813E+06	-9.27096506964E+00	-1.71463920517E+02	6.80716985549E+00	1.73477881771E+02	-4.62583869908E+01	6.71164094616E+01	-5.97241647097E+00	-7.45211016942E-01
1.52052450272E+06	-1.04660229984E+01	-1.71149861143E+02	6.79510761404E+00	1.73502870634E+02	-5.18750687196E+01	-3.80671736916E+01	-5.98093449456E+00	-7.80742497549E-01
1.54271585732E+06	-9.06183133496E+00	1.79671669233E+02	6.79606324134E+00	1.73133037622E+02	-5.10204368803E+01	-1.69029689367E+02	-5.97962855433E+00	-6.66145101611E-01
1.56490721191E+06	-8.00518621978E+00	1.76486119663E+02	6.83356152668E+00	1.73281957980E+02	-5.48464463694E+01	5.38002706447E+01	-5.96668698625E+00	-8.62734947677E-01
1.58709856651E+06	-1.18220991750E+01	-1.66003952610E+02	6.83831299509E+00	1.73138977755E+02	-4.90339430186E+01	1.02060848149E+02	-5.99003536884E+00	-5.84417290871E-01
1.60928992110E+06	-1.06094887748E+01	-1.73607129747E+02	6.86417551726E+00	1.72927739695E+02	-4.41191972253E+01	8.53537702005E+01	-5.96591619367E+00	-7.72504572733E-01
1.63148127570E+06	-9.58209833326E+00	1.73685655226E+02	6.81387443758E+00	1.72964256013E+02	-4.95485837514E+01	-8.46561075877E+01	-5.96434238525E+00	-6.46957052100E-01
1.65367263029E+06	-9.55598019731E+00	1.77244877036E+02	6.84270522827E+00	1.72623621470E+02	-5.39598201670E+01	-5.78014936920E+01	-5.99337232606E+00	-8.15471765302E-01
1.67586398489E+06	-9.13018495586E+00	-1.79523838108E+02	6.75987402821E+00	1.72385577801E+02	-5.50506118936E+01	6.56774651606E+01	-5.98739466937E+00	-6.70225047388E-01
1.69805533948E+06	-1.16266372265E+01	-1.76534672690E+02	6.82451376832E+00	1.72539253668E+02	-4.67352391668E+01	4.17372897682E+01	-5.99026959849E+00	-7.03244157761E-01
1.72024669408E+06	-8.70819814855E+00	-1.77897407259E+02	6.82479190839E+00	1.72370993389E+02	-4.85212089755E+01	-1.33184901772E+02	-5.97070056994E+00	-7.57992599246E-01
1.74243804867E+06	-9.72325281728E+00	-1.75669017338E+02	6.83573832528E+00	1.72516208523E+02	-4.84781719453E+01	-6.59908485991E+01	-5.98068259143E+00	-8.02805008088E-01
1.76462940327E+06	-1.17696724493E+01	-1.76434991732E+02	6.81909440894E+00	1.72081668778E+02	-4.56363341291E+01	-8.34562213675E+00	-5.96175386721E+00	-8.19860961474E-01
1.78682075786E+06	-1.12885964092E+01	-1.71029083530E+02	6.86686112207E+00	1.71911187576E+02	-4.71957249744E+01	1.02302040888E+02	-5.97998509611E+00	-8.62217044292E-01
1.80901211246E+06	-1.06128133079E+01	1.73644173151E+02	6.82305599387E+00	1.71986267459E+02	-4.48645435392E+01	5.18339292721E+01	-5.98192523895E+00	-9.45382035003E-01
1.83120346705E+06	-1.16830369791E+01	-1.69379762246E+02	6.80286665297E+00	1.72143467201E+02	-4.37242361016E+01	1.25362147460E+02	-5.97993688349E+00	-9.05005346045E-01
1.85339482165E+06	-8.52226956884E+00	1.69876666671E+02	6.83881591324E+00	1.71841282181E+02	-4.31379086812E+01	7.41754482876E+01	-5.95972090330E+00	-9.10474559592E-01
1.87558617624E+06	-8.64010104559E+00	-1.75549125457E+02	6.84548312534E+00	1.72027557800E+02	-4.55662396277E+01	-8.59453816736E+01	-5.99429296254E+00	-1.04281967313E+00
1.89777753084E+06	-9.22795609276E+00	1.71950143426E+02	6.86125108613E+00	1.71408722598E+02	-4.71883892098E+01	-1.38800962509E+02	-5.97610453621E+00	-8.34566014375E-01
1.91996888543E+06	-9.12263824275E+00	-1.76616747404E+02	6.83540738524E+00	1.71175287679E+02	-4.74225343308E+01	-1.14906151288E+02	-5.96819346560E+00	-9.64457821784E-01
1.94216024003E+06	-1.03831361189E+01	1.68273967629E+02	6.78653065692E+00	1.71173601584E+02	-5.10985589539E+01	-2.17835331616E+01	-5.93955334782E+00	-6.37430782404E-01
1.96435159462E+06	-1.01843708611E+01	1.74813077179E+02	6.82905643691E+00	1.71103213713E+02	-4.38994345095E+01	1.28085698343E+02	-5.96324615472E+00	-8.65900644899E-01
1.98654294922E+06	-1.01744240454E+01	-1.79031491681E+02	6.75190466101E+00	1.70687899502E+02	-3.87464586000E+01	4.96477629771E+01	-5.97227943385E+00	-9.46736698617E-01
2.00873430381E+06	-1.07320616871E+01	1.72552446182E+02	6.82110959089E+00	1.70826904865E+02	-4.97103885981E+01	-3.09456423284E+01	-5.95863015001E+00	-9.39926310834E-01
2.03092565841E+06	-8.79226300102E+00	1.75806083731E+02	6.85636995787E+00	1.70652195853E+02	-4.93398352913E+01	1.75279579078E+02	-5.96391850665E+00	-1.00863436357E+00
2.05311701300E+06	-1.11232116713E+01	1.63277236177E+02	6.87110085750E+00	1.70761996760E+02	-4.49141531352E+01	2.27582195284E+01	-5.93470362927E+00	-8.31514241422E-01
2.07530836760E+06	-1.09598746533E+01	-1.76363267610E+02	6.81718488320E+00	1.70643413096E+02	-3.98691624084E+01	1.25772286595E+02	-5.96221607589E+00	-9.46223687856E-01
2.09749972219E+06	-1.16723861572E+01	-1.75195548836E+02	6.81951266979E+00	1.70485378181E+02	-4.69093941153E+01	1.07710071056E+02	-5.94448546574E+00	-9.53367104475E-01
2.11969107679E+06	-9.47563443953E+00	1.65439352982E+02	6.84152054483E+00	1.70356200734E+02	-4.36019019749E+01	1.41644887717E+02	-5.96887166943E+00	-1.11654166866E+00
2.14188243138E+06	-8.85729594630E+00	-1.76239259909E+02	6.87604164562E+00	1.70147296023E+02	-4.80871757775E+01	-3.54801639506E+01	-5.97939708466E+00	-1.08547226305E+00
2.16407378598E+06	-1.08906182180E+01	-1.68427941961E+02	6.81124058688E+00	1.70345909292E+02	-4.85745944954E+01	-1.74177043865E+02	-5.98754838916E+00	-1.13266452428E+00
2.18626514057E+06	-9.97343917025E+00	-1.73755536322E+02	6.79887837983E+00	1.69966990427E+02	-5.27987452666E+01	1.72804843813E+02	-5.94655680748E+00	-1.07320790548E+00
2.20845649517E+06	-1.00899055415E+01	1.79832238891E+02	6.82731454989E+00	1.70128566991E+02	-5.19146074083E+01	-1.71358591994E+02	-5.99152258790E+00	-1.12859758866E+00
2.23064784976E+06	-1.17868643257E+01	-1.76086991916E+02	6.84939055015E+00	1.70043124290E+02	-4.73927241210E+01	-4.00227322149E+01	-5.98316562680E+00	-1.07807092007E+00
2.25283920436E+06	-9.14925020153E+00	1.72863145753E+02	6.90206489580E+00	1.69696489211E+02	-5.38888494634E+01	1.49476976911E+02	-5.95076888681E+00	-9.56727764868E-01
2.27503055895E+06	-1.01707978781E+01	-1.73864419315E+02	6.84164583467E+00	1.69669239514E+02	-6.86357914368E+01	-8.77972937488E+01	-5.96146605757E+00	-1.10447819729E+00
2.29722191355E+06	-9.62038891828E+00	1.67419476588E+02	6.80489227440E+00	1.69473446451E+02	-5.09962330053E+01	-3.58505686753E+00	-5.96492534118E+00	-8.22326249888E-01
2.31941326814E+06	-1.12784256899E+01	-1.72478501156E+02	6.83362504200E+00	1.69533328102E+02	-4.50290892766E+01	-1.29027072117E+02	-6.00452369283E+00	-8.01604250952E-01
2.34160462274E+06	-1.01790460202E+01	-1.76629293193E+02	6.85171412839E+00	1.69469223276E+02	-5.89886260687E+01	1.70300171747E+02	-5.93768955359E+00	-1.11737840258E+00
2.36379597733E+06	-8.91676228252E+00	1.77516285224E+02	6.80765394593E+00	1.69186092108E+02	-4.34082532399E+01	1.51919486217E+02	-5.94997077707E+00	-1.16377875599E+00
2.38598733193E+06	-1.24900320734E+01	1.73133013625E+02	6.81021553935E+00	1.69149844276E+02	-4.85565674019E+01	-5.93462630992E+01	-5.95721694658E+00	-1.17054167274E+00
2.40817868652E+06	-9.02099335430E+00	1.78948492420E+02	6.82475028860E+00	1.68639775617E+02	-4.89651631341E+01	1.11797729660E+02	-5.96063203434E+00	-1.13557876815E+00
2.43037004112E+06	-1.27729538333E+01	1.78527353884E+02	6.79897754128E+00	1.68882611941E+02	-5.42202869749E+01	-1.32284317903E+02	-5.98272301599E+00	-1.29126917889E+00
2.45256139571E+06	-1.20589811862E+01	-1.66034449906E+02	6.86012530879E+00	1.68619957089E+02	-5.38026264484E+01	1.65816015686E+02	-5.96193091705E+00	-8.82530072220E-01
2.47475275031E+06	-1.15440357749E+01	1.77212585056E+02	6.83373272251E+00	1.68709080827E+02	-4.99156561981E+01	-1.57456008667E+02	-5.98358526850E+00	-1.11289476631E+00
2.49694410490E+06	-1.09840964443E+01	1.75871395815E+02	6.83202681853E+00	1.68619358440E+02	-4.74196300401E+01	1.62754202207E+02	-5.98797260532E+00	-1.07745903467E+00
2.51913545950E+06	-1.01730023391E+01	-1.61109694617E+02	6.83412930410E+00	1.68568758602E+02	-4.96341056896E+01	-1.36121301866E+02	-5.96700384433E+00	-1.20308734186E+00
2.54132681409E+06	-9.28689079441E+00	1.73629948984E+02	6.84166525242E+00	1.68169087249E+02	-4.11913247604E+01	-5.51128377323E+01	-5.98655496350E+00	-1.21752143096E+00
2.56351816869E+06	-9.40656351410E+00	1.73705762398E+02	6.79690528190E+00	1.68051433060E+02	-5.07603386642E+01	9.59703407680E+00	-5.99555759283E+00	-1.23734736460E+00
2.58570952328E+06	-1.09343700799E+01	1.70701221788E+02	6.87572050537E+00	1.68209903008E+02	-5.31918889524E+01	-1.48257751035E+02	-5.97492992033E+00	-1.23180517302E+00
2.60790087788E+06	-1.05786105304E+01	1.74900479965E+02	6.83688772905E+00	1.67784172832E+02	-4.19947860990E+01	-1.12522725509E+02	-5.98668083012E+00	-1.11034696997E+00
2.63009223247E+06	-1.11469857400E+01	-1.62226451486E+02	6.84101393697E+00	1.67996739052E+02	-4.63854241401E+01	-4.20897589857E+01	-5.98682491510E+00	-1.15755576674E+00
2.65228358707E+06	-1.02463917034E+01	-1.77296583734E+02	6.82471679125E+00	1.67738019326E+02	-4.52725708765E+01	-3.55392301279E+01	-5.95924913845E+00	-1.61034276659E+00
2.67447494166E+06	-1.10509145557E+01	1.68113196195E+02	6.87512642564E+00	1.67703890727E+02	-4.38203791913E+01	1.38351401174E+02	-5.94407978772E+00	-1.37163225610E+00
2.69666629626E+06	-9.19709865140E+00	1.70462770001E+02	6.85511704343E+00	1.67652168496E+02	-4.05620688388E+01	1.48091676110E+02	-5.95346380490E+00	-1.26593160512E+00
2.71885765085E+06	-1.19176114879E+01	-1.78422824910E+02	6.82497001108E+00	1.67526241699E+02	-4.52592913135E+01	1.64819603350E+02	-5.99025426658E+00	-1.20644867467E+00
2.74104900545E+06	-9.24560825637E+00	-1.77858312748E+02	6.84446645467E+00	1.67485186096E+02	-4.01083655065E+01	1.42522301786E+02	-5.94429131614E+00	-1.22918142834E+00
2.76324036004E+06	-8.87405508491E+00	-1.75704517536E+02	6.83098095148E+00	1.67443264643E+02	-4.97025871483E+01	-1.70701444864E+02	-5.96605168318E+00	-1.28534882270E+00
2.78543171463E+06	-1.02909808412E+01	1.79125780949E+02	6.81897890378E+00	1.67331683249E+02	-4.58543132777E+01	7.07353966548E+01	-5.95447379294E+00	-1.21886068785E+00
2.80762306923E+06	-9.92876821502E+00	1.71548326403E+02	6.78424585219E+00	1.66895097055E+02	-4.96428137186E+01	-1.12024955261E+02	-5.97938995489E+00	-1.18477321035E+00
2.82981442382E+06	-9.66566322996E+00	1.73472032453E+02	6.84432284356E+00	1.66508968985E+02	-6.44589541908E+01	6.41069520355E+01	-5.97215623551E+00	-1.33042448049E+00
2.85200577842E+06	-9.74931283795E+00	-1.72125680365E+02	6.83850400356E+00	1.66880032579E+02	-4.38759316245E+01	-1.31669631192E+02	-5.96352528819E+00	-1.31687332277E+00
2.87419713301E+06	-8.38992682147E+00	-1.75833619677E+02	6.87181068956E+00	1.66913501058E+02	-4.41958917263E+01	-1.36160262692E+02	-5.96815291113E+00	-1.40306748635E+00
