# Hz S DB R 50
! CMT, M5065, 19127446, 24.2.4/2
! Date: 10/29/2024 11:53:14 AM
! Data: Format (Calibration Info)
! Freq	S11:dB/Ang(F2)	S21:dB/Ang(F2)	S12:dB/Ang(F2)	S22:dB/Ang(F2)
3.00000000000E+05	-1.10989128433E+01	1.79965470780E+02	5.53696702355E+00	-1.77898405921E+02	-5.79803869934E+01	-3.58475373989E+00	-5.98215422522E+00	-2.94124407018E-01
3.22191354595E+05	-1.06649397804E+01	-1.72717762028E+02	5.50850288213E+00	-1.78083289694E+02	-5.40341107609E+01	1.28790258356E+02	-5.95814719125E+00	-2.04546675714E-01
3.44382709190E+05	-1.01597222890E+01	-1.69836070740E+02	5.55986621649E+00	-1.78446023851E+02	-4.15766335554E+01	-4.35515886511E+01	-5.99577045795E+00	-2.48536787821E-01
3.66574063785E+05	-1.14285620699E+01	-1.79802339227E+02	5.52460207844E+00	-1.78962073927E+02	-5.37712099171E+01	2.12428905345E+01	-5.97939071571E+00	-2.41273755219E-01
3.88765418380E+05	-1.00165898961E+01	1.72595226498E+02	5.57280533525E+00	-1.79138079745E+02	-3.95161785977E+01	-9.31383870241E+01	-5.96732855077E+00	-2.51646585640E-01
4.10956772975E+05	-1.14819362418E+01	1.78498306370E+02	5.54485204592E+00	-1.79221854528E+02	-4.54895669171E+01	1.06220485719E+02	-5.98887551658E+00	-2.90620651568E-01
4.33148127570E+05	-8.93011007127E+00	-1.77037594827E+02	5.57097168931E+00	-1.79793176465E+02	-4.16647832019E+01	1.10453100638E+02	-5.96977151742E+00	-3.04144191913E-01
4.55339482165E+05	-9.79464887250E+00	1.79185762297E+02	5.57764295839E+00	-1.79897762422E+02	-5.84949855904E+01	-1.58468546807E+02	-5.96801617288E+00	-2.02909292110E-01
4.77530836760E+05	-1.08504287007E+01	-1.75186387324E+02	5.58094801464E+00	-1.79977842516E+02	-6.00063881736E+01	1.84449907951E+01	-5.96650850315E+00	-2.65813790415E-01
4.99722191355E+05	-1.09909670011E+01	-1.72099576549E+02	5.51698462352E+00	-1.79934514960E+02	-4.61370187808E+01	-3.07214178918E+01	-5.96763883191E+00	-3.32249192903E-01
5.21913545950E+05	-1.01047708299E+01	1.74537940403E+02	5.56515208162E+00	1.79559907673E+02	-4.78583540235E+01	-9.10390121208E+01	-5.95446538309E+00	-4.53536195704E-01
5.44104900545E+05	-8.43609094765E+00	-1.73102794735E+02	5.55992498785E+00	1.79295606613E+02	-4.71103911408E+01	-6.13399536855E+01	-5.97870614484E+00	-3.20912656481E-01
5.66296255139E+05	-1.04695830068E+01	-1.73532514498E+02	5.53706853021E+00	1.79370547051E+02	-3.89610625725E+01	1.29953379874E+02	-5.97967026647E+00	-3.90642646693E-01
5.88487609734E+05	-9.72603451053E+00	-1.76147253760E+02	5.58233301312E+00	1.79172344376E+02	-4.37587132246E+01	1.24194628664E+02	-5.98014846905E+00	-3.34772822035E-01
6.10678964329E+05	-1.10757010188E+01	-1.65974886011E+02	5.59348426349E+00	1.78672737483E+02	-4.54147300154E+01	4.56714115404E+01	-5.97096361540E+00	-2.25383100531E-01
6.32870318924E+05	-1.24446964930E+01	-1.75381396920E+02	5.56392425698E+00	1.78912436651E+02	-4.90524491303E+01	-1.78018919809E+02	-5.96719856088E+00	-4.51663754628E-01
6.55061673519E+05	-8.45152279287E+00	-1.70920059661E+02	5.58825491549E+00	1.78756155052E+02	-4.21359796066E+01	-1.37059837359E+02	-5.97086556659E+00	-2.44087731742E-01
6.77253028114E+05	-1.12257229141E+01	-1.72654053833E+02	5.55964170298E+00	1.78413592705E+02	-4.57961164134E+01	9.99164102223E+01	-5.96276306277E+00	-5.22154837598E-01
6.99444382709E+05	-1.06894954286E+01	1.77761940274E+02	5.57002096076E+00	1.78474301365E+02	-3.97281926044E+01	-1.11183225334E+02	-5.97645267678E+00	-4.77922682568E-01
7.21635737304E+05	-1.25766375755E+01	1.77708737878E+02	5.51413493008E+00	1.78220768670E+02	-6.85804652072E+01	-3.17163714963E+01	-5.97874381059E+00	-4.33100680258E-01
7.43827091899E+05	-1.03466028974E+01	1.68140431389E+02	5.52345966137E+00	1.77817940768E+02	-4.63193653775E+01	1.34386806905E+02	-5.97804539514E+00	-4.86522025747E-01
7.66018446494E+05	-9.40486551864E+00	1.71021329734E+02	5.57594423341E+00	1.78183484684E+02	-4.13360489058E+01	7.19217445686E+01	-5.99087609606E+00	-3.95044704298E-01
7.88209801089E+05	-9.43363928453E+00	1.79473123390E+02	5.55844396174E+00	1.77813141945E+02	-4.94116118926E+01	1.61994478241E+02	-5.97345286974E+00	-5.14133512051E-01
8.10401155684E+05	-1.07572595503E+01	1.75291974600E+02	5.54927674817E+00	1.77223381821E+02	-5.36834837178E+01	-1.47598884038E+02	-5.97612264201E+00	-4.07770295567E-01
8.32592510279E+05	-8.36218861363E+00	-1.74602193828E+02	5.56201920397E+00	1.77449444475E+02	-5.97098420528E+01	7.67929619192E+01	-5.98430231365E+00	-5.01719151336E-01
8.54783864874E+05	-1.23009874594E+01	-1.77668640381E+02	5.59760025760E+00	1.77353868625E+02	-4.50974381638E+01	1.18396836197E+01	-5.95695446691E+00	-4.75080703824E-01
8.76975219469E+05	-1.25430642914E+01	1.76102305047E+02	5.54042332523E+00	1.77336141133E+02	-3.95925427039E+01	2.69853454157E+01	-5.97676375599E+00	-5.21514261741E-01
8.99166574064E+05	-1.24375266089E+01	1.76426823899E+02	5.59020784796E+00	1.77227625720E+02	-5.17549674144E+01	1.30232096296E+02	-5.96298965925E+00	-5.03750398204E-01
9.21357928659E+05	-9.22486580116E+00	-1.78804630817E+02	5.56569798527E+00	1.77064936237E+02	-4.28159023663E+01	4.34794735604E+01	-5.96412416757E+00	-4.49563096850E-01
9.43549283254E+05	-1.11842374124E+01	1.73668274908E+02	5.57481970493E+00	1.76878426403E+02	-4.99945695518E+01	-1.65321705356E+02	-5.95427275302E+00	-5.68940995758E-01
9.65740637849E+05	-1.04966581799E+01	1.77235693304E+02	5.54127938058E+00	1.76590526664E+02	-4.73689171423E+01	-1.23680175844E+01	-5.99438873618E+00	-5.75087788062E-01
9.87931992444E+05	-1.06514330430E+01	1.76661696987E+02	5.52576802632E+00	1.76495891752E+02	-5.20930993840E+01	1.70885810178E+01	-5.98414158834E+00	-6.46404950364E-01
1.01012334704E+06	-1.05532293974E+01	-1.64551808463E+02	5.55231978527E+00	1.76527026226E+02	-4.18643300052E+01	-5.62350004510E+01	-5.97602384846E+00	-6.84863957185E-01
1.03231470163E+06	-1.04848283594E+01	-1.77728548782E+02	5.56573628580E+00	1.76547205468E+02	-3.99872508121E+01	-1.02654185284E+02	-5.97823653292E+00	-6.09945512253E-01
1.05450605623E+06	-1.02369615553E+01	-1.71711280757E+02	5.49639919123E+00	1.76325949972E+02	-5.17507704265E+01	-1.70703969454E+02	-5.96358952379E+00	-6.01757476936E-01
1.07669741082E+06	-1.03761772655E+01	1.77832733109E+02	5.55885252145E+00	1.76088054743E+02	-4.85338899563E+01	1.53240907234E+02	-5.98430725277E+00	-7.06981822619E-01
1.09888876542E+06	-9.12656887136E+00	-1.74460522906E+02	5.53776046344E+00	1.75793603999E+02	-5.16802045078E+01	1.50605231832E+02	-5.96758249057E+00	-6.16231443469E-01
1.12108012001E+06	-9.41256990505E+00	-1.74759167565E+02	5.53625968534E+00	1.76160602291E+02	-4.25438247652E+01	-1.69118304821E+02	-5.97431283385E+00	-7.05321837653E-01
1.14327147461E+06	-1.06700403410E+01	1.79282608945E+02	5.56588593655E+00	1.76119731932E+02	-5.32202447322E+01	-9.34982837511E+01	-5.96243607623E+00	-5.58629189943E-01
1.16546282920E+06	-1.15796329069E+01	-1.70544393561E+02	5.51234346065E+00	1.75610711300E+02	-4.23282378292E+01	1.02365433871E+02	-5.93717918620E+00	-6.10007045499E-01
1.18765418380E+06	-1.02699240426E+01	-1.75862622333E+02	5.55968140963E+00	1.75364509402E+02	-4.74723494475E+01	1.02381522610E+01	-5.97401138360E+00	-6.26510042741E-01
1.20984553839E+06	-1.02112599057E+01	-1.79981851743E+02	5.53791015762E+00	1.75407637776E+02	-4.54343105925E+01	-3.74538700267E+01	-5.96414922742E+00	-8.74804302243E-01
1.23203689299E+06	-8.35055134736E+00	1.74086926571E+02	5.56134124104E+00	1.75267086559E+02	-5.15866900440E+01	-1.31083719909E+01	-5.96978235678E+00	-4.88788917016E-01
1.25422824758E+06	-1.08849531272E+01	1.76545132798E+02	5.59854215319E+00	1.75119187219E+02	-4.36489305775E+01	1.19339764707E+02	-5.96177556281E+00	-5.22471703707E-01
1.27641960218E+06	-9.92280007334E+00	-1.70114254399E+02	5.55737075497E+00	1.75409957865E+02	-4.51451239338E+01	4.00072718446E+01	-5.95826152204E+00	-4.99710203666E-01
1.29861095677E+06	-8.63197081719E+00	1.78183050707E+02	5.55746281181E+00	1.75159925863E+02	-4.15613673115E+01	-1.62610396384E+02	-5.98970192456E+00	-7.38554934422E-01
1.32080231137E+06	-1.00568238568E+01	1.69802294838E+02	5.51641985547E+00	1.75065546902E+02	-4.82150428036E+01	9.89043856682E+01	-5.96128405939E+00	-1.14073718264E+00
1.34299366596E+06	-9.70854085727E+00	-1.71325628027E+02	5.50796714841E+00	1.74268301096E+02	-4.13379943217E+01	-1.74898991693E+02	-5.97484133046E+00	-7.52163375546E-01
1.36518502056E+06	-9.20409733759E+00	1.75659402684E+02	5.52472432602E+00	1.74341001047E+02	-4.71051103125E+01	-1.02429031056E+02	-5.97121954675E+00	-7.81852499469E-01
1.38737637515E+06	-7.95419537787E+00	-1.75302828888E+02	5.57730961941E+00	1.74204821577E+02	-4.14804074109E+01	-1.01278620080E+02	-5.97794550023E+00	-7.36904331022E-01
1.40956772975E+06	-9.43541495520E+00	-1.78694093989E+02	5.56196764499E+00	1.74266557136E+02	-5.21286162839E+01	-7.10824985289E+01	-5.97190554283E+00	-7.18351564903E-01
1.43175908434E+06	-1.01617514756E+01	-1.76089237163E+02	5.57262379231E+00	1.74226865120E+02	-5.06109980584E+01	-1.40230061903E+02	-5.96848121586E+00	-7.70663706016E-01
1.45395043894E+06	-9.47430861969E+00	-1.78723818902E+02	5.59160677447E+00	1.74247508513E+02	-3.91646145658E+01	-5.01766754283E+01	-5.99062092350E+00	-6.79063590717E-01
1.47614179353E+06	-9.41312596109E+00	-1.79206756237E+02	5.56524666539E+00	1.73777802731E+02	-4.09562460916E+01	-1.72280741513E+02	-5.96626005452E+00	-6.31814779455E-01
1.49833314813E+06	-8.51705455294E+00	1.76048342306E+02	5.57386618025E+00	1.73811163256E+02	-3.95673053197E+01	7.01070586295E+01	-5.95669953156E+00	-7.35379025996E-01
1.52052450272E+06	-9.17842296334E+00	1.74031277106E+02	5.57068716397E+00	1.73814863754E+02	-5.54921455045E+01	9.52795851866E+01	-5.95823969524E+00	-7.04286716261E-01
1.54271585732E+06	-1.26468675665E+01	1.77274084663E+02	5.52365470910E+00	1.73848093922E+02	-4.92634928274E+01	1.77277321593E+02	-5.97644594059E+00	-7.32326506101E-01
1.56490721191E+06	-1.00596635637E+01	1.75360783076E+02	5.52293288074E+00	1.73645301432E+02	-4.58352914005E+01	-3.00426748646E+01	-5.98499527759E+00	-9.29688440106E-01
1.58709856651E+06	-9.99582037496E+00	1.78082992849E+02	5.59197087716E+00	1.73369767568E+02	-4.41192558652E+01	7.00267504293E+01	-5.98042537285E+00	-7.00451918984E-01
1.60928992110E+06	-9.01822689854E+00	-1.78763584534E+02	5.53489582355E+00	1.73308484310E+02	-5.38403027279E+01	-5.80393227393E+01	-5.96086377241E+00	-6.66872787833E-01
1.63148127570E+06	-9.94114016001E+00	-1.74684558803E+02	5.55462435080E+00	1.73300795508E+02	-4.43783493188E+01	-1.78165737725E+02	-5.97069707187E+00	-7.45842341589E-01
1.65367263029E+06	-1.02625043541E+01	-1.78550063780E+02	5.56716096077E+00	1.72704907030E+02	-4.00551152119E+01	-1.71655056777E+02	-5.94853478144E+00	-8.12564648528E-01
1.67586398489E+06	-9.47127739293E+00	1.75451138361E+02	5.54255413302E+00	1.73036241571E+02	-4.52001231777E+01	-1.30347212064E+02	-5.96986352180E+00	-8.30010597050E-01
1.69805533948E+06	-9.02706924280E+00	1.74613129919E+02	5.53066657186E+00	1.72908268933E+02	-4.42657593346E+01	8.81007701379E+01	-5.97321107233E+00	-7.42457858181E-01
1.72024669408E+06	-1.16986604415E+01	1.72841560514E+02	5.52070241849E+00	1.72957485930E+02	-4.77581888725E+01	-3.40777176534E+01	-5.96159912773E+00	-7.32236135460E-01
1.74243804867E+06	-9.45089493433E+00	-1.73826891845E+02	5.60868705312E+00	1.72942994656E+02	-4.18423261386E+01	-8.41417371658E+01	-5.96602509228E+00	-7.86874037386E-01
1.76462940327E+06	-1.45604420943E+01	-1.71229382756E+02	5.57615367828E+00	1.72682959533E+02	-4.67199734658E+01	-7.19184424802E+01	-5.96026776548E+00	-7.91842521443E-01
1.78682075786E+06	-1.12522784175E+01	1.69391527330E+02	5.55266999799E+00	1.72536238638E+02	-4.25221714876E+01	1.12957984799E+02	-5.96466689252E+00	-8.88480656643E-01
1.80901211246E+06	-1.11107791275E+01	-1.74677305736E+02	5.49347249823E+00	1.72361033273E+02	-4.26176590554E+01	-1.57980316797E+02	-6.02480358523E+00	-7.33853940265E-01
1.83120346705E+06	-9.81815136194E+00	1.77608063264E+02	5.55794912888E+00	1.72327588841E+02	-5.69395518062E+01	1.20551236540E+02	-5.94846232432E+00	-9.00514148691E-01
1.85339482165E+06	-9.18410017728E+00	1.71864171574E+02	5.54338080438E+00	1.72091611770E+02	-5.13957260025E+01	5.19732031857E+01	-5.96356082359E+00	-7.46878636804E-01
1.87558617624E+06	-1.07423827745E+01	1.63768856452E+02	5.50051683621E+00	1.72309279583E+02	-4.27576816363E+01	1.16409511217E+01	-5.96669639271E+00	-1.07287262636E+00
1.89777753084E+06	-7.86986722643E+00	-1.73810062531E+02	5.58621923697E+00	1.71793872888E+02	-5.54289438806E+01	-1.72521751250E+02	-5.97601974235E+00	-1.14916996263E+00
1.91996888543E+06	-1.08313077667E+01	-1.77847108984E+02	5.55157886790E+00	1.72268676163E+02	-4.33519330102E+01	1.37970455396E+02	-5.97328516754E+00	-9.10668123019E-01
1.94216024003E+06	-1.09657417826E+01	1.74813244735E+02	5.57110012609E+00	1.71689674852E+02	-5.03161354415E+01	-1.18887607399E+02	-5.97449601974E+00	-9.95540039691E-01
1.96435159462E+06	-9.79287176291E+00	-1.72299443670E+02	5.55267706125E+00	1.71620600490E+02	-4.57405079195E+01	-8.31997327116E+01	-5.96038508064E+00	-1.00413346234E+00
1.98654294922E+06	-1.11594642174E+01	1.76655139254E+02	5.54497703051E+00	1.71454272833E+02	-5.54112516582E+01	3.65442893998E+00	-5.97303388031E+00	-8.96851674986E-01
2.00873430381E+06	-7.75340532768E+00	-1.75724553683E+02	5.57437778112E+00	1.71180133441E+02	-4.65395114829E+01	7.70687744354E+01	-5.97401802554E+00	-8.82620898740E-01
2.03092565841E+06	-1.06550497599E+01	-1.64944116440E+02	5.57298686874E+00	1.71412025496E+02	-4.85412414307E+01	6.63359841353E+01	-5.95484382579E+00	-7.37241990697E-01
2.05311701300E+06	-9.07026139876E+00	1.61628392609E+02	5.55607677757E+00	1.71194406354E+02	-4.25452950538E+01	5.33507823455E+01	-5.94736656636E+00	-8.44981748089E-01
2.07530836760E+06	-1.11680044114E+01	1.71332286406E+02	5.50412280088E+00	1.71126524689E+02	-3.91383963005E+01	7.30715281975E+01	-5.93612856759E+00	-9.27579211486E-01
2.09749972219E+06	-1.07434242107E+01	1.77826590252E+02	5.56041500719E+00	1.70890596304E+02	-4.13763060548E+01	-1.79688339278E+02	-5.95362843184E+00	-1.10808602796E+00
2.11969107679E+06	-8.31455769820E+00	-1.70739582321E+02	5.55594828038E+00	1.70554682750E+02	-4.41860558945E+01	-7.50447715098E+01	-5.98660696536E+00	-1.10569885771E+00
2.14188243138E+06	-1.02094750278E+01	1.75470288377E+02	5.54071056171E+00	1.70653393823E+02	-4.35624700226E+01	1.54670921311E+02	-5.96596161532E+00	-9.97019053471E-01
2.16407378598E+06	-1.11656806521E+01	-1.77843045677E+02	5.54373818346E+00	1.70689189530E+02	-4.19912045945E+01	9.29454917662E+00	-5.93742405006E+00	-1.02140427183E+00
2.18626514057E+06	-1.07210931343E+01	1.77414846540E+02	5.52517470823E+00	1.70302441739E+02	-3.72619703988E+01	1.78738027004E+02	-5.96445519808E+00	-8.89066413116E-01
2.20845649517E+06	-1.13503627332E+01	-1.77796021131E+02	5.55166996424E+00	1.70541349985E+02	-5.39681447146E+01	1.64971885690E+02	-5.95195675846E+00	-1.13137825286E+00
2.23064784976E+06	-1.01524418816E+01	1.76510157281E+02	5.57863895205E+00	1.70468019833E+02	-4.73225126767E+01	1.34549320438E+02	-5.95147340756E+00	-9.84160481150E-01
2.25283920436E+06	-9.16934611490E+00	-1.65722127807E+02	5.58004178787E+00	1.70264500874E+02	-5.72678356412E+01	-1.34606177814E+02	-5.94709438798E+00	-1.07242611295E+00
2.27503055895E+06	-9.04674313389E+00	-1.68504925292E+02	5.54628036406E+00	1.69933399594E+02	-5.19949963398E+01	-7.30673215659E+01	-5.95840466908E+00	-9.79965134677E-01
2.29722191355E+06	-8.88800256873E+00	1.76424445529E+02	5.57199472435E+00	1.69673221329E+02	-4.87542478247E+01	1.02241691433E+02	-5.96184327236E+00	-9.39640801691E-01
2.31941326814E+06	-1.15816193227E+01	-1.78398479209E+02	5.55930287659E+00	1.70275125223E+02	-6.08307305251E+01	-8.09257544295E+01	-5.96341714394E+00	-1.03661185739E+00
2.34160462274E+06	-8.82329140712E+00	-1.63669116029E+02	5.52016017691E+00	1.70482107262E+02	-5.22756091577E+01	9.63658541460E+01	-5.94469700064E+00	-1.03864796148E+00
2.36379597733E+06	-1.00289246187E+01	1.77046563430E+02	5.54302798964E+00	1.69695196359E+02	-4.07418853514E+01	1.49113872814E+02	-5.96671094439E+00	-1.17916782765E+00
2.38598733193E+06	-1.08787836144E+01	-1.78442295696E+02	5.55051056153E+00	1.69931156719E+02	-4.77507947202E+01	-1.63106808885E+02	-5.96913134605E+00	-1.13975890389E+00
2.40817868652E+06	-1.13239711802E+01	1.75822824728E+02	5.52979239994E+00	1.69773959585E+02	-5.09193464472E+01	4.94925235458E+01	-5.95584869613E+00	-1.06090068108E+00
2.43037004112E+06	-1.11897521844E+01	-1.68753712181E+02	5.60769651699E+00	1.69263981744E+02	-4.35826379289E+01	-1.62376467470E+02	-5.95270335042E+00	-1.44049455787E+00
2.45256139571E+06	-8.60597540526E+00	1.71751477727E+02	5.54531931101E+00	1.68907398231E+02	-5.37164769505E+01	-4.42539218426E+01	-5.97265248582E+00	-7.92584896472E-01
2.47475275031E+06	-9.64739243166E+00	1.73347331081E+02	5.54440920276E+00	1.69186884243E+02	-4.53132237568E+01	1.09015355270E+02	-5.98578566740E+00	-1.11799837543E+00
2.49694410490E+06	-1.09034097709E+01	1.72420477784E+02	5.60475349230E+00	1.69389400939E+02	-4.15972796644E+01	1.45391380666E+02	-5.94494879615E+00	-1.19402848710E+00
2.51913545950E+06	-1.04532485284E+01	-1.73118007653E+02	5.56792500979E+00	1.69028630644E+02	-5.02172840303E+01	-1.56382425906E+02	-5.96674986759E+00	-1.15671328026E+00
2.54132681409E+06	-1.13725262237E+01	-1.65011886274E+02	5.55925082389E+00	1.68996577422E+02	-4.89934206825E+01	6.61272533309E+01	-5.96837126815E+00	-1.17440575235E+00
2.56351816869E+06	-1.15112609441E+01	-1.79975219495E+02	5.53244624763E+00	1.69198501683E+02	-4.99066530746E+01	-1.77987798991E+02	-5.96350257230E+00	-1.05000201817E+00
2.58570952328E+06	-9.61499104356E+00	1.78450719367E+02	5.57934540238E+00	1.68648815234E+02	-4.54348512971E+01	-1.05158130288E+02	-5.97085143565E+00	-1.08552715602E+00
2.60790087788E+06	-1.02474194208E+01	1.69205528296E+02	5.56892461475E+00	1.68648455533E+02	-4.98856293915E+01	-1.28657997918E+02	-5.95902984082E+00	-1.09212435292E+00
2.63009223247E+06	-1.01409825453E+01	-1.79982517398E+02	5.54286464528E+00	1.68628975864E+02	-5.31944552464E+01	-2.57543698751E+01	-5.97382436010E+00	-1.32154632186E+00
2.65228358707E+06	-8.20710022404E+00	-1.71752109307E+02	5.58100279483E+00	1.68263981815E+02	-4.50313971496E+01	-1.18203811479E+01	-5.97341398308E+00	-1.58769322677E+00
2.67447494166E+06	-8.87798049488E+00	1.74820905298E+02	5.55303043295E+00	1.68280239372E+02	-4.80879866655E+01	2.47069736374E+01	-5.94807150041E+00	-1.34958256477E+00
2.69666629626E+06	-8.97153407425E+00	-1.74037705967E+02	5.54095060286E+00	1.68289243530E+02	-6.50594717315E+01	-5.85967423276E+01	-5.96918189015E+00	-1.17994721386E+00
2.71885765085E+06	-1.06288174556E+01	1.66457608810E+02	5.53935900290E+00	1.68190890114E+02	-3.89418529306E+01	1.47937551739E+02	-5.96303859982E+00	-1.25463658698E+00
2.74104900545E+06	-9.60357380025E+00	1.74688128212E+02	5.52730359609E+00	1.67724106475E+02	-4.61777223663E+01	-8.00765438968E+01	-5.96314583192E+00	-1.31813067572E+00
2.76324036004E+06	-1.26815484595E+01	-1.70600010404E+02	5.54719317521E+00	1.68172484875E+02	-4.30549563157E+01	6.53696459857E+01	-5.96656281416E+00	-1.23348581970E+00
2.78543171463E+06	-9.85068391399E+00	-1.78450914664E+02	5.54295032506E+00	1.67774543627E+02	-4.77112784195E+01	6.01697769750E+01	-5.95811656231E+00	-1.16422913660E+00
2.80762306923E+06	-1.14967745567E+01	-1.75586082535E+02	5.52532097675E+00	1.67695836037E+02	-5.18640766920E+01	-4.15594466702E+01	-5.94807876792E+00	-1.13489331610E+00
2.82981442382E+06	-1.01790491034E+01	-1.73602211970E+02	5.55308610929E+00	1.67847373557E+02	-4.30417280360E+01	4.88104401410E+01	-5.95521029754E+00	-1.23798539644E+00
2.85200577842E+06	-8.60657881087E+00	-1.73579959691E+02	5.53834847575E+00	1.67504902488E+02	-4.51941948792E+01	1.33163755992E+02	-5.94122988141E+00	-1.30023289281E+00
2.87419713301E+06	-9.45263537791E+00	1.71486709367E+02	5.55094755573E+00	1.67581002228E+02	-5.20019137445E+01	-1.11801672056E+02	-5.96812334038E+00	-1.30967121507E+00
