# Hz S DB R 50
! CMT, M5065, 19127446, 24.2.4/2
! Date: 10/29/2024 12:05:47 PM
! Data: Format (Calibration Info)
! Freq	S11:dB/Ang(F2)	S21:dB/Ang(F2)	S12:dB/Ang(F2)	S22:dB/Ang(F2)
3.00000000000E+05	-1.03385142676E+01	-1.61054556476E+02	6.66182683973E+00	-1.78088842332E+02	-4.06049664977E+01	-1.32714416743E+02	-5.97577883323E+00	-2.91251795528E-01
3.22191354595E+05	-9.70399629135E+00	-1.73515491691E+02	6.66461493491E+00	-1.78237856400E+02	-4.75547035510E+01	-1.67876613677E+02	-5.98628161217E+00	-1.24469155702E-01
3.44382709190E+05	-9.82511355182E+00	-1.76544769370E+02	6.67418015132E+00	-1.78846692561E+02	-4.33079628452E+01	7.06497034979E-02	-5.97599293981E+00	-2.58769551044E-01
3.66574063785E+05	-9.99111378785E+00	-1.75267820158E+02	6.68392031939E+00	-1.78970328667E+02	-4.72190533719E+01	-1.32120618982E+02	-5.98286523259E+00	-2.25792006730E-01
3.88765418380E+05	-9.18304159880E+00	1.73467946399E+02	6.67743193268E+00	-1.79421834325E+02	-4.28243902935E+01	1.08152731598E+02	-5.96644174021E+00	-2.56578486869E-01
4.10956772975E+05	-1.13770703246E+01	-1.70112375737E+02	6.64633104842E+00	-1.79290486013E+02	-4.62275633169E+01	-1.44710097657E+02	-5.98601878730E+00	-3.90350143344E-01
4.33148127570E+05	-1.25262847308E+01	-1.77942387609E+02	6.62873751415E+00	-1.79608283599E+02	-4.65894529869E+01	-7.80657754226E+01	-5.98001488614E+00	-3.31373166147E-01
4.55339482165E+05	-9.92353276047E+00	-1.73148588511E+02	6.66295406562E+00	-1.79992814635E+02	-4.37825914126E+01	-4.94134538479E+01	-5.97342070967E+00	-2.27619551181E-01
4.77530836760E+05	-9.52243379485E+00	-1.69363828264E+02	6.70493418557E+00	-1.79842332058E+02	-4.37446531378E+01	-8.93994807835E+01	-5.98508673953E+00	-3.87198003880E-01
4.99722191355E+05	-1.14879273200E+01	1.70924029512E+02	6.67284562868E+00	1.79710735613E+02	-4.53620798749E+01	1.99590341043E+01	-5.97537450293E+00	-4.46449866646E-01
5.21913545950E+05	-1.12993462325E+01	-1.72772360990E+02	6.70003099147E+00	1.79282601176E+02	-4.72591669913E+01	-2.62556663210E+01	-5.98595902468E+00	-3.50827530147E-01
5.44104900545E+05	-1.00757355710E+01	1.78424294809E+02	6.69501186048E+00	1.79235896839E+02	-5.18043393161E+01	8.47534834029E+01	-5.98592181395E+00	-4.39600572052E-01
5.66296255139E+05	-1.09898838807E+01	-1.69370896738E+02	6.66495277398E+00	1.79325435820E+02	-4.57329137370E+01	-1.13278316745E+02	-5.96855497592E+00	-4.87893657562E-01
5.88487609734E+05	-1.15800429713E+01	1.71953182371E+02	6.67566347078E+00	1.78744053225E+02	-4.34416436878E+01	1.43012364110E+02	-5.97098671597E+00	-6.18503649052E-01
6.10678964329E+05	-1.01256203511E+01	1.76760119209E+02	6.66451092604E+00	1.78982976381E+02	-4.40489028006E+01	9.54565350912E+01	-5.94857500915E+00	-1.28655354282E-01
6.32870318924E+05	-1.09129437184E+01	-1.78956010357E+02	6.67055586558E+00	1.78727543284E+02	-4.15219850676E+01	1.09008087806E+02	-5.97908348204E+00	-3.54631012602E-01
6.55061673519E+05	-9.12282150805E+00	-1.73704400046E+02	6.67018206416E+00	1.78514923530E+02	-5.80830351173E+01	1.23455908182E+02	-6.00163923231E+00	-1.37202267305E-01
6.77253028114E+05	-9.47070006875E+00	-1.69564618483E+02	6.67814659820E+00	1.78324376952E+02	-4.43999614762E+01	-9.46492537328E+01	-5.99204637635E+00	-4.52861837338E-01
6.99444382709E+05	-1.14199561712E+01	-1.69076481569E+02	6.68734743258E+00	1.78247857249E+02	-5.18661911685E+01	1.75638806923E+02	-5.95552287670E+00	-5.40361729711E-01
7.21635737304E+05	-1.09942114859E+01	-1.77759792899E+02	6.67169987207E+00	1.77968366772E+02	-5.04894129419E+01	5.38237581913E+01	-5.99001058152E+00	-5.58508698896E-01
7.43827091899E+05	-9.84246776779E+00	-1.75860103382E+02	6.66936580972E+00	1.78046334803E+02	-5.04720549688E+01	5.80036051534E+01	-5.95318165111E+00	-7.16165472983E-01
7.66018446494E+05	-1.10837229250E+01	1.76550489093E+02	6.66505567066E+00	1.77966755520E+02	-4.52103515497E+01	9.18608039706E+01	-5.96013686665E+00	-6.69126597882E-01
7.88209801089E+05	-8.13557143618E+00	-1.75960004280E+02	6.67510506512E+00	1.77704469751E+02	-4.43997787959E+01	1.09154181116E+02	-5.97512869130E+00	-3.46040400293E-01
8.10401155684E+05	-1.04589676161E+01	1.67263299424E+02	6.63583015205E+00	1.77596458157E+02	-4.12871859488E+01	1.05659467059E+02	-5.99778828768E+00	-5.06549897055E-01
8.32592510279E+05	-8.87038377958E+00	-1.79968561423E+02	6.69399636996E+00	1.77307533855E+02	-4.80049114054E+01	-9.58014926286E+01	-5.98013762420E+00	-5.70080476936E-01
8.54783864874E+05	-1.01290127469E+01	-1.79459149602E+02	6.68418765975E+00	1.77379786146E+02	-4.42352609234E+01	-6.72409189927E+01	-5.99168465753E+00	-5.39005824925E-01
8.76975219469E+05	-9.24684556432E+00	1.79664180573E+02	6.67426985878E+00	1.77124168895E+02	-4.25916578129E+01	1.62589920251E+02	-5.93885893240E+00	-5.61885432442E-01
8.99166574064E+05	-1.03534600554E+01	-1.52989478680E+02	6.67130660778E+00	1.77032789527E+02	-4.62456916308E+01	-1.76188769468E+02	-5.96113586408E+00	-5.34522260492E-01
9.21357928659E+05	-1.02409166951E+01	-1.75637920724E+02	6.68960338972E+00	1.76542946930E+02	-5.35926517756E+01	1.01931912639E+02	-5.97647841206E+00	-6.69855175653E-01
9.43549283254E+05	-1.01835598804E+01	-1.74541674682E+02	6.64798023608E+00	1.76740649958E+02	-4.58289819446E+01	1.12159395739E+01	-5.96883669531E+00	-6.47582241899E-01
9.65740637849E+05	-1.00807678772E+01	1.72455343973E+02	6.71404981677E+00	1.76328663463E+02	-4.47486287093E+01	-1.68666489614E+02	-5.97610542173E+00	-4.84214257843E-01
9.87931992444E+05	-1.08330147757E+01	-1.75697091711E+02	6.67698115321E+00	1.76264335191E+02	-5.28395691512E+01	-3.52541106157E+01	-5.97584962217E+00	-6.65080829174E-01
1.01012334704E+06	-1.04146261646E+01	1.79285702634E+02	6.69339014516E+00	1.75969753160E+02	-4.16616909427E+01	-1.05979112738E+02	-5.96248033997E+00	-5.61763442997E-01
1.03231470163E+06	-9.67283162791E+00	-1.69882081492E+02	6.67811948508E+00	1.75961193761E+02	-4.56818428850E+01	-1.06054916523E+02	-5.97788958782E+00	-6.40675699830E-01
1.05450605623E+06	-9.59591438193E+00	1.66218007079E+02	6.65497199074E+00	1.75924039151E+02	-5.07705709868E+01	6.22219124172E+01	-5.99778527650E+00	-6.07594828278E-01
1.07669741082E+06	-1.24953311099E+01	1.75419088157E+02	6.66259568116E+00	1.75873492058E+02	-4.68840148550E+01	1.88111963701E+01	-5.98241581821E+00	-6.65709917752E-01
1.09888876542E+06	-1.11439374480E+01	-1.75087566646E+02	6.67522681385E+00	1.75778867542E+02	-4.48560417615E+01	-6.71768695177E+01	-5.99466893542E+00	-4.51915066719E-01
1.12108012001E+06	-9.74241117965E+00	-1.71151413138E+02	6.68377251331E+00	1.75795538156E+02	-4.22601755179E+01	-1.58879250227E+02	-5.99455297443E+00	-5.20098577232E-01
1.14327147461E+06	-9.50937011157E+00	-1.72636686914E+02	6.70343530747E+00	1.75550940997E+02	-3.99421707254E+01	-9.50460201416E+01	-5.97312419373E+00	-6.22399509057E-01
1.16546282920E+06	-1.04024394557E+01	-1.71762350252E+02	6.67936543682E+00	1.75476308255E+02	-3.96133603728E+01	-1.78679888101E+02	-5.97409983240E+00	-7.27892068111E-01
1.18765418380E+06	-1.02326411172E+01	1.74615479002E+02	6.68339396154E+00	1.75404940121E+02	-4.29179917708E+01	-1.61886488972E+02	-5.99077932207E+00	-5.06363232169E-01
1.20984553839E+06	-1.22377820289E+01	-1.71009880633E+02	6.68198926752E+00	1.75139300521E+02	-4.79663452587E+01	7.06256060454E+01	-5.94940714977E+00	-9.56072542655E-01
1.23203689299E+06	-1.06253107551E+01	-1.78674996484E+02	6.69341649790E+00	1.75003085144E+02	-4.43863744255E+01	5.71958160346E+01	-5.98084959713E+00	-6.07379831699E-01
1.25422824758E+06	-9.73921550768E+00	1.76599857807E+02	6.64691706184E+00	1.74904388863E+02	-4.50939081611E+01	-1.40841856224E+02	-5.98189733948E+00	-6.03992513040E-01
1.27641960218E+06	-1.10754568809E+01	1.71984442173E+02	6.68244706157E+00	1.74608429242E+02	-4.63334604478E+01	1.31869659610E+02	-5.96948926725E+00	-7.52836534867E-01
1.29861095677E+06	-8.71678994845E+00	-1.70024450288E+02	6.66708843906E+00	1.74652739263E+02	-4.71716546824E+01	4.54761381887E+01	-5.99996810236E+00	-7.21421540313E-01
1.32080231137E+06	-9.35989218126E+00	-1.76268156889E+02	6.64141538279E+00	1.74438294409E+02	-4.87338932960E+01	-8.42995674299E+01	-5.96264833629E+00	-1.01716601075E+00
1.34299366596E+06	-9.04900094240E+00	-1.74067761565E+02	6.64056719174E+00	1.74426344467E+02	-4.68473635687E+01	-1.30962045318E+02	-5.96544558492E+00	-7.74310406878E-01
1.36518502056E+06	-1.07358677604E+01	1.63340655273E+02	6.64739942662E+00	1.74176512494E+02	-5.32344437448E+01	-3.43140905947E+01	-5.98464395055E+00	-7.09079260406E-01
1.38737637515E+06	-1.09192826324E+01	-1.72898062525E+02	6.67345148945E+00	1.74246618202E+02	-4.60187567328E+01	-8.34331679865E+01	-5.96450149066E+00	-7.54682407659E-01
1.40956772975E+06	-8.91159143919E+00	1.76536741278E+02	6.69172040749E+00	1.74018384290E+02	-4.69139695379E+01	1.26324405455E+02	-5.95242445296E+00	-7.71158906291E-01
1.43175908434E+06	-9.70876132204E+00	-1.72873577528E+02	6.69687804052E+00	1.73801015681E+02	-4.17903240689E+01	-1.61405375103E+02	-5.96553998050E+00	-7.21392268770E-01
1.45395043894E+06	-9.56063913179E+00	1.70898757012E+02	6.65929509042E+00	1.73757181199E+02	-4.84671320637E+01	5.27143740919E+00	-5.96529283978E+00	-6.87683485257E-01
1.47614179353E+06	-9.16598919383E+00	-1.69325396925E+02	6.67379855403E+00	1.73941064667E+02	-4.77343769610E+01	-1.54759001702E+02	-5.93315599994E+00	-7.05734798536E-01
1.49833314813E+06	-1.10186664251E+01	-1.79986462694E+02	6.62463407500E+00	1.73677598595E+02	-4.85277500188E+01	-1.12069491744E+02	-5.96994971437E+00	-8.06938575458E-01
1.52052450272E+06	-9.01182605226E+00	-1.66798080915E+02	6.68097340875E+00	1.73270332502E+02	-4.19337529189E+01	1.35186111684E+02	-5.97196525730E+00	-7.46635771741E-01
1.54271585732E+06	-1.17887113619E+01	1.68789064510E+02	6.72614759451E+00	1.73684668694E+02	-4.64896215978E+01	1.28315921125E+02	-5.95703192609E+00	-8.02085899368E-01
1.56490721191E+06	-1.12887110844E+01	1.77024630544E+02	6.66395373367E+00	1.73266208008E+02	-4.47474178899E+01	1.98177755129E-02	-5.96176062540E+00	-1.01996274309E+00
1.58709856651E+06	-1.01183685609E+01	-1.73217514229E+02	6.73324698157E+00	1.73204472094E+02	-4.11152975090E+01	-4.16274327311E+01	-5.99502709416E+00	-7.75825573466E-01
1.60928992110E+06	-1.14793538374E+01	1.77861714039E+02	6.67540610077E+00	1.72954468708E+02	-4.68812752333E+01	-6.32429783530E+00	-5.97477058362E+00	-8.45518006011E-01
1.63148127570E+06	-1.03182319397E+01	1.66070618549E+02	6.66566485555E+00	1.73054755928E+02	-4.92790198759E+01	-3.33694335682E-01	-5.96985592505E+00	-7.51978685071E-01
1.65367263029E+06	-9.19411657431E+00	-1.72960647925E+02	6.72061247492E+00	1.72823476612E+02	-4.83808971304E+01	-1.15227898720E+02	-5.96503487666E+00	-7.98230015271E-01
1.67586398489E+06	-8.93475092382E+00	-1.78866716875E+02	6.68644259288E+00	1.72770755079E+02	-4.74575594504E+01	1.59388403563E+02	-5.97624180527E+00	-8.26414996662E-01
1.69805533948E+06	-1.08467310223E+01	-1.77890149040E+02	6.63658834740E+00	1.72632438279E+02	-4.51762547403E+01	1.40422514747E+02	-5.98019121578E+00	-9.91569091891E-01
1.72024669408E+06	-9.63699442937E+00	-1.78112591289E+02	6.69830804625E+00	1.72269615556E+02	-4.79381611879E+01	-1.22353771763E+02	-5.95608631587E+00	-6.69793913864E-01
1.74243804867E+06	-9.39502504068E+00	-1.74353730359E+02	6.70180195897E+00	1.71990356046E+02	-4.00732429145E+01	-1.45195736624E+02	-5.99363012396E+00	-9.09210231691E-01
1.76462940327E+06	-9.26190982655E+00	1.72585163072E+02	6.62431861164E+00	1.72279511749E+02	-4.32736488197E+01	1.30271716890E+02	-5.94182967022E+00	-7.29798081740E-01
1.78682075786E+06	-9.93516087026E+00	-1.71067373600E+02	6.68103928821E+00	1.71971145323E+02	-4.08909578942E+01	6.77418177625E+01	-5.95354863649E+00	-9.22780354424E-01
1.80901211246E+06	-9.02946023907E+00	1.68528603767E+02	6.65014793109E+00	1.71983436359E+02	-5.34647683371E+01	9.08115330192E+01	-5.96162110623E+00	-8.86795937906E-01
1.83120346705E+06	-1.12029418799E+01	1.77699246444E+02	6.65547705870E+00	1.72222952594E+02	-5.03210878813E+01	1.74082283858E+02	-5.98605354481E+00	-7.85124870899E-01
1.85339482165E+06	-1.08470498957E+01	-1.70460267985E+02	6.63776722761E+00	1.71625557838E+02	-4.19704185533E+01	1.27167074501E+02	-5.95333252624E+00	-8.57767133945E-01
1.87558617624E+06	-8.60791561182E+00	-1.76788086687E+02	6.71127583860E+00	1.71551992699E+02	-4.21903055248E+01	-6.33614988390E+01	-5.98304676749E+00	-9.45506828327E-01
1.89777753084E+06	-9.35571363705E+00	-1.71482558882E+02	6.69425674888E+00	1.71807847995E+02	-4.52657303526E+01	1.36514429543E+02	-5.99366027277E+00	-8.69455541119E-01
1.91996888543E+06	-1.12331464547E+01	1.69959835898E+02	6.59903731016E+00	1.71406347678E+02	-4.77209028110E+01	4.94670598782E+01	-5.97270451123E+00	-8.79974549337E-01
1.94216024003E+06	-9.09652010969E+00	1.75051524540E+02	6.65422575298E+00	1.71400994778E+02	-4.66892836866E+01	-9.94920454354E+01	-5.98379920355E+00	-1.01190673592E+00
1.96435159462E+06	-9.50491684576E+00	-1.74995234932E+02	6.66382458820E+00	1.71249249225E+02	-4.62189661133E+01	2.62613351612E+00	-5.97993424189E+00	-9.15999713882E-01
1.98654294922E+06	-1.04956235932E+01	-1.75239663466E+02	6.65400668216E+00	1.70913278782E+02	-6.35941231515E+01	7.95804758141E+01	-5.96623637281E+00	-9.57703684446E-01
2.00873430381E+06	-1.28098352508E+01	1.67668749430E+02	6.68616236924E+00	1.71200061253E+02	-5.51601202024E+01	-1.62619396989E+01	-5.98459825768E+00	-1.06560410116E+00
2.03092565841E+06	-1.05868907905E+01	1.67127370054E+02	6.70002698483E+00	1.71159046437E+02	-3.94602509127E+01	1.76581054981E+02	-5.97801817867E+00	-9.61443484353E-01
2.05311701300E+06	-1.10045532345E+01	1.79179006713E+02	6.65767170059E+00	1.70974019645E+02	-4.35511327808E+01	-1.71963167991E+02	-5.98679172142E+00	-8.76540243732E-01
2.07530836760E+06	-1.25431489602E+01	1.71171945176E+02	6.69048511142E+00	1.70690761673E+02	-4.65438389451E+01	-1.69412863945E+02	-5.96485085658E+00	-9.44782101634E-01
2.09749972219E+06	-9.13788531132E+00	1.74818910773E+02	6.67725491802E+00	1.70516081498E+02	-4.41111966835E+01	1.38876166411E+01	-5.96697479750E+00	-9.34179315237E-01
2.11969107679E+06	-1.06932022229E+01	1.76320069409E+02	6.68861605246E+00	1.70715742103E+02	-4.39554925579E+01	-2.16939027136E+01	-5.95376539821E+00	-1.08314216196E+00
2.14188243138E+06	-9.80094147367E+00	-1.67432408384E+02	6.64688680867E+00	1.70316310771E+02	-6.21399093355E+01	-1.56087229726E+02	-5.94283219900E+00	-9.47738306725E-01
2.16407378598E+06	-1.02883984744E+01	1.76370886032E+02	6.64118590945E+00	1.70365202819E+02	-4.63838238417E+01	1.38048098864E+02	-5.95022837656E+00	-1.03248842854E+00
2.18626514057E+06	-1.06863775145E+01	1.65020349640E+02	6.62069125134E+00	1.70117413718E+02	-4.85749193596E+01	5.59053642333E+01	-5.97629302394E+00	-1.11741255551E+00
2.20845649517E+06	-1.11711641903E+01	-1.74587527655E+02	6.68779667643E+00	1.69836338421E+02	-4.93828098851E+01	-1.25153573711E+01	-5.95511084858E+00	-8.07416849978E-01
2.23064784976E+06	-1.06180178690E+01	-1.72572336419E+02	6.63495576950E+00	1.69937177547E+02	-4.88633421070E+01	6.44950448747E+01	-5.97965791475E+00	-1.16623475990E+00
2.25283920436E+06	-1.23194517531E+01	-1.70259479119E+02	6.66199411175E+00	1.69729060988E+02	-4.87033114689E+01	-1.30383234224E+02	-5.95601245198E+00	-9.70694826892E-01
2.27503055895E+06	-1.16661354245E+01	1.77169430759E+02	6.68867516314E+00	1.69660601219E+02	-4.15226436553E+01	5.83634534463E+01	-5.97862977163E+00	-1.11898171845E+00
2.29722191355E+06	-1.00606179171E+01	-1.77789616373E+02	6.64361103739E+00	1.69407262838E+02	-5.01920631585E+01	1.73580155542E+02	-5.95423907689E+00	-1.15948991763E+00
2.31941326814E+06	-1.14072796891E+01	-1.68606502111E+02	6.66998609727E+00	1.69303776136E+02	-4.81628490114E+01	-1.03854886292E+02	-5.95285548651E+00	-1.20125314822E+00
2.34160462274E+06	-9.12708521093E+00	1.74826028474E+02	6.64013321257E+00	1.69229177490E+02	-5.01239620754E+01	1.47295665564E+02	-5.99109438728E+00	-1.15961245410E+00
2.36379597733E+06	-9.89313055819E+00	-1.68888019102E+02	6.65320401648E+00	1.69197116481E+02	-4.57626579921E+01	1.20360151832E+02	-5.94030602530E+00	-1.11771928324E+00
2.38598733193E+06	-1.29397179463E+01	1.76032552638E+02	6.67955574963E+00	1.69235970698E+02	-4.73541006566E+01	2.75085218549E+01	-5.96302517032E+00	-1.18670199770E+00
2.40817868652E+06	-1.09024884140E+01	-1.78364577079E+02	6.67054097984E+00	1.69037972793E+02	-4.25272081006E+01	1.25717468203E+02	-5.94514094393E+00	-1.03073634743E+00
2.43037004112E+06	-1.15720268476E+01	-1.72251944162E+02	6.63303605855E+00	1.68976141214E+02	-5.54096707522E+01	1.67490747623E+02	-5.96470018830E+00	-1.38759481063E+00
2.45256139571E+06	-8.86446472237E+00	-1.79182402795E+02	6.66206265477E+00	1.68927120265E+02	-4.67889072134E+01	-3.81161067811E+01	-5.99367571293E+00	-1.03655958391E+00
2.47475275031E+06	-1.02809016210E+01	1.68722906675E+02	6.66947773750E+00	1.68724463623E+02	-4.37141340386E+01	-9.57188849081E+01	-5.98657097007E+00	-1.08425206376E+00
2.49694410490E+06	-9.80328729967E+00	-1.72197712279E+02	6.65793886108E+00	1.69078030462E+02	-4.21776079345E+01	-1.16274557954E+02	-5.97333426094E+00	-1.15123276116E+00
2.51913545950E+06	-1.11899810232E+01	-1.76119305770E+02	6.70276642552E+00	1.68529762472E+02	-5.99378708258E+01	-7.83718569314E+01	-5.99733437474E+00	-1.21833682006E+00
2.54132681409E+06	-1.04166012205E+01	-1.76972518875E+02	6.70254395567E+00	1.68556380124E+02	-5.20862990297E+01	-4.05774661717E+01	-5.97997907605E+00	-1.12824200022E+00
2.56351816869E+06	-1.15627143924E+01	1.75358078229E+02	6.66361527043E+00	1.68354319332E+02	-4.51384490473E+01	8.38005150751E+01	-5.97369540416E+00	-1.08654747779E+00
2.58570952328E+06	-8.66594753424E+00	-1.74739258875E+02	6.64776880402E+00	1.68007444404E+02	-4.89140168285E+01	-9.76726021930E+01	-5.97481253427E+00	-1.23303446572E+00
2.60790087788E+06	-1.29907711825E+01	-1.77726376027E+02	6.67446861133E+00	1.68516053244E+02	-4.17281327486E+01	1.20448621014E+02	-5.97926937375E+00	-1.15538002745E+00
2.63009223247E+06	-1.08512264167E+01	-1.72146774089E+02	6.68336364725E+00	1.68137852898E+02	-5.60290557407E+01	-1.17756322304E+02	-5.97534605993E+00	-1.15894946310E+00
2.65228358707E+06	-1.18203570553E+01	-1.68824612708E+02	6.68680377640E+00	1.68088857512E+02	-4.20644798907E+01	1.00266999224E+02	-5.97273530728E+00	-1.67601459841E+00
2.67447494166E+06	-1.16193521152E+01	-1.68639088887E+02	6.65404514411E+00	1.67857209165E+02	-4.66934297673E+01	1.75372775779E+02	-5.96695047266E+00	-1.25908244849E+00
2.69666629626E+06	-1.23098109236E+01	1.71930003309E+02	6.65021079920E+00	1.67613334813E+02	-5.16717326888E+01	1.20907503597E+02	-5.95908247906E+00	-1.17627108180E+00
2.71885765085E+06	-1.04370568411E+01	1.76779731597E+02	6.67263489290E+00	1.67827727425E+02	-4.81259139100E+01	-1.73338517570E+02	-5.96654282351E+00	-1.13299169133E+00
2.74104900545E+06	-8.44955573058E+00	1.78563876049E+02	6.65655123196E+00	1.67455131315E+02	-5.29774375062E+01	-1.75450132349E+02	-5.98056017810E+00	-1.35334004785E+00
2.76324036004E+06	-1.28524070247E+01	1.58621116152E+02	6.63266635892E+00	1.67294979233E+02	-4.12667340267E+01	8.87838598384E+01	-5.96899796751E+00	-1.26280882928E+00
2.78543171463E+06	-7.49231280766E+00	-1.72651094583E+02	6.65833708872E+00	1.67422724076E+02	-6.17157844858E+01	3.50684781392E+01	-5.96429934239E+00	-1.22520324785E+00
2.80762306923E+06	-1.03329759750E+01	-1.71913307282E+02	6.63016468548E+00	1.67070517937E+02	-4.08504581369E+01	-1.27524454721E+02	-5.97857063068E+00	-1.32575745594E+00
2.82981442382E+06	-1.16280700225E+01	-1.69942060324E+02	6.67925848767E+00	1.67061348698E+02	-4.17794473271E+01	-1.38261417140E+01	-5.96510218262E+00	-1.26919870539E+00
2.85200577842E+06	-1.05634831351E+01	1.78592764544E+02	6.67622387731E+00	1.66962216504E+02	-4.39678011757E+01	-2.17597605759E-01	-5.95244468001E+00	-1.30776595534E+00
2.87419713301E+06	-8.25814454566E+00	-1.79175192390E+02	6.69753299241E+00	1.66509534680E+02	-4.53056224015E+01	-5.21862592577E+01	-5.96816068586E+00	-1.33183738747E+00
