# Hz S DB R 50
! CMT, M5065, 19127446, 24.2.4/2
! Date: 10/29/2024 12:13:16 PM
! Data: Format (Calibration Info)
! Freq	S11:dB/Ang(F2)	S21:dB/Ang(F2)	S12:dB/Ang(F2)	S22:dB/Ang(F2)
3.00000000000E+05	-1.20236432307E+01	-1.65220100798E+02	7.57160554037E+00	-1.78328432018E+02	-4.74345678407E+01	1.52303143245E+02	-5.96087713238E+00	-2.22349246913E-01
3.22191354595E+05	-9.87740631710E+00	-1.70721640641E+02	7.54115588119E+00	-1.78312512082E+02	-4.25527112076E+01	1.36278420547E+02	-5.98294681923E+00	-3.10637994073E-01
3.44382709190E+05	-1.13562014179E+01	-1.69238219044E+02	7.54688276198E+00	-1.78508322268E+02	-4.32105634325E+01	-1.56582165404E+02	-5.97381357558E+00	-3.70180117732E-01
3.66574063785E+05	-9.99815099429E+00	-1.79690187997E+02	7.55897281523E+00	-1.79066027715E+02	-4.72514235575E+01	-5.88782665953E+01	-5.98130197569E+00	-3.30090039681E-01
3.88765418380E+05	-9.80262019559E+00	-1.72825226852E+02	7.56815232636E+00	-1.79443450463E+02	-4.79954924602E+01	1.30369854425E+02	-5.97157073767E+00	-2.55771305688E-01
4.10956772975E+05	-9.96738947971E+00	-1.78789207959E+02	7.57708325575E+00	-1.79445022947E+02	-5.40987184333E+01	8.86442406254E+01	-5.96858900837E+00	-3.54467857924E-01
4.33148127570E+05	-1.24446748097E+01	-1.78958045749E+02	7.58223239980E+00	-1.79695992554E+02	-4.62717187869E+01	-1.04789053737E+02	-5.95702914515E+00	-1.88039637144E-01
4.55339482165E+05	-9.33666485271E+00	1.79739837182E+02	7.56156883674E+00	-1.79980042243E+02	-4.61776743424E+01	-4.48458875549E+01	-5.94919728716E+00	-3.09639523153E-01
4.77530836760E+05	-1.09178607070E+01	1.78610211470E+02	7.56805500058E+00	1.79823501378E+02	-4.98782406461E+01	-4.38112750566E+01	-5.99165597625E+00	-3.30536307662E-01
4.99722191355E+05	-1.15903570205E+01	1.77924963435E+02	7.55617490518E+00	1.79568791986E+02	-3.82077435521E+01	1.07471324708E+02	-5.97888667767E+00	-2.07421296057E-01
5.21913545950E+05	-9.28292126045E+00	-1.74599056321E+02	7.53909337188E+00	1.79493134575E+02	-4.83431892585E+01	-4.66600104927E+01	-6.00009707135E+00	-2.88018441275E-01
5.44104900545E+05	-9.84282526796E+00	-1.69133727044E+02	7.57542689738E+00	1.79174639389E+02	-4.54139493154E+01	-3.37791465814E+01	-5.99051517293E+00	-4.10483680041E-01
5.66296255139E+05	-1.15100728054E+01	1.79323459512E+02	7.57405644785E+00	1.78925090204E+02	-5.25483843147E+01	-7.42356641598E+01	-5.98764668936E+00	-3.33251459506E-01
5.88487609734E+05	-9.66565289556E+00	-1.74886223529E+02	7.57551325727E+00	1.79011995419E+02	-4.72965289317E+01	5.66860138770E+01	-5.96299215002E+00	-5.51411980500E-01
6.10678964329E+05	-8.60907710824E+00	-1.68002371655E+02	7.57614925326E+00	1.78688730086E+02	-4.22825978605E+01	1.57222113649E+02	-5.96607638477E+00	-1.50843187964E-01
6.32870318924E+05	-1.02183192618E+01	1.75805057728E+02	7.57310002488E+00	1.78558231081E+02	-4.79455208519E+01	1.79407308939E+02	-5.97610592312E+00	-3.37424323588E-01
6.55061673519E+05	-1.21690189349E+01	-1.77236842029E+02	7.55178042027E+00	1.78478145049E+02	-4.47997184631E+01	-1.65103035496E+02	-5.99538976919E+00	-2.23714307913E-01
6.77253028114E+05	-1.07849944755E+01	1.74743349028E+02	7.55998534515E+00	1.78238313975E+02	-5.95202228594E+01	-3.25201785134E+01	-5.97689672561E+00	-7.79544988064E-01
6.99444382709E+05	-1.25060858865E+01	1.72221544863E+02	7.56501777146E+00	1.78001826272E+02	-4.54663494931E+01	2.99605843868E+01	-5.97679537398E+00	-4.88886601551E-01
7.21635737304E+05	-9.84081612073E+00	-1.69434342113E+02	7.58326831392E+00	1.77987730930E+02	-4.95957048395E+01	-5.98931367963E+01	-5.96218770445E+00	-5.53243175597E-01
7.43827091899E+05	-9.03163948581E+00	1.74564245018E+02	7.55724935888E+00	1.77549605719E+02	-4.08207882341E+01	-8.44969216569E+01	-5.95597666568E+00	-4.32567983304E-01
7.66018446494E+05	-9.74979821778E+00	1.77578046806E+02	7.60349271687E+00	1.77637443610E+02	-4.20122355571E+01	6.00122775834E+01	-5.95672798376E+00	-4.97449596835E-01
7.88209801089E+05	-1.06697773892E+01	1.77229747481E+02	7.57921975725E+00	1.77528317464E+02	-4.19702759695E+01	-3.13020985990E+01	-5.97894701443E+00	-5.39860665411E-01
8.10401155684E+05	-9.89796833383E+00	-1.79851997363E+02	7.59910505666E+00	1.77474186183E+02	-4.66657844190E+01	-3.48302918043E+01	-5.96404343354E+00	-4.86909976370E-01
8.32592510279E+05	-1.20736592203E+01	1.78678817982E+02	7.58223553161E+00	1.77284615236E+02	-5.17794192842E+01	-1.05129050280E+02	-5.96273003907E+00	-4.43051233816E-01
8.54783864874E+05	-1.01617699908E+01	-1.79179162373E+02	7.61412461004E+00	1.77058268766E+02	-4.11861955009E+01	-1.63685446632E+02	-5.95062269551E+00	-4.87459748616E-01
8.76975219469E+05	-1.21826865055E+01	-1.66218557013E+02	7.58826976998E+00	1.76961185825E+02	-5.03031379592E+01	1.52479060320E+02	-5.94866833391E+00	-3.53988835329E-01
8.99166574064E+05	-8.35030841153E+00	-1.70551821091E+02	7.59443797847E+00	1.76640193978E+02	-5.02522114778E+01	-1.49324374868E+02	-5.97276917864E+00	-5.73743157847E-01
9.21357928659E+05	-9.75494208575E+00	-1.79782716908E+02	7.55452328211E+00	1.76291130868E+02	-5.02380584883E+01	-1.77253756784E+02	-5.97097736301E+00	-6.11921774181E-01
9.43549283254E+05	-1.00639219721E+01	1.76646872386E+02	7.55302290490E+00	1.76193774537E+02	-5.78614927035E+01	1.65312219624E+02	-6.01468936866E+00	-5.76979718668E-01
9.65740637849E+05	-1.08733977396E+01	-1.76339265551E+02	7.58006467661E+00	1.76363029511E+02	-5.47095263487E+01	-1.10876514507E+01	-5.99494571287E+00	-5.12496630432E-01
9.87931992444E+05	-1.00959365261E+01	-1.70210942711E+02	7.60519275037E+00	1.76197015050E+02	-4.57857838151E+01	5.72840170115E+01	-5.96821760764E+00	-6.90236097620E-01
1.01012334704E+06	-9.50329748292E+00	-1.75098122918E+02	7.54695886362E+00	1.75973493357E+02	-4.12959784969E+01	1.75158722844E+02	-5.96609002483E+00	-4.67083653689E-01
1.03231470163E+06	-1.33488783030E+01	1.69184419153E+02	7.57039608295E+00	1.75924381624E+02	-5.15336822626E+01	-5.66327679610E+01	-5.97375252324E+00	-5.44056455975E-01
1.05450605623E+06	-1.13965841413E+01	1.65660578312E+02	7.58555020983E+00	1.75791509667E+02	-4.56023999352E+01	-1.72532963141E+01	-5.97187073149E+00	-6.26422747476E-01
1.07669741082E+06	-8.78761425064E+00	-1.73151298291E+02	7.58308582695E+00	1.75786496867E+02	-5.72529344869E+01	4.25514566623E+01	-5.96404765994E+00	-6.71770749134E-01
1.09888876542E+06	-1.17976326869E+01	1.73967891926E+02	7.57119462601E+00	1.75413384335E+02	-3.89601645105E+01	3.41266376260E+01	-5.97133069485E+00	-6.67639796722E-01
1.12108012001E+06	-9.78343446047E+00	1.78883107730E+02	7.57215730097E+00	1.75249249437E+02	-5.11544577413E+01	-1.07298619496E+02	-5.95928572620E+00	-5.66341584849E-01
1.14327147461E+06	-7.79028123879E+00	-1.79678064244E+02	7.61613675924E+00	1.75156009053E+02	-4.38463885028E+01	-1.71459072868E+02	-5.97950523371E+00	-5.96427075331E-01
1.16546282920E+06	-1.06926515278E+01	1.74650759312E+02	7.56656166792E+00	1.75126797545E+02	-4.70343216992E+01	1.33512529933E+01	-5.96771258259E+00	-6.91075596948E-01
1.18765418380E+06	-1.03562110008E+01	-1.78509082498E+02	7.61060989470E+00	1.75103419542E+02	-4.26136892796E+01	-3.00189408960E+01	-5.97824237093E+00	-5.90452699205E-01
1.20984553839E+06	-8.63868688315E+00	-1.78946016625E+02	7.57648042332E+00	1.75107763019E+02	-5.23866938791E+01	-8.60419393351E+01	-5.95181504487E+00	-9.05505270053E-01
1.23203689299E+06	-1.05776404103E+01	1.74917325229E+02	7.57903264480E+00	1.74765681015E+02	-4.61797726980E+01	-1.07171773241E+02	-5.98951309869E+00	-4.30066097989E-01
1.25422824758E+06	-9.01507713608E+00	-1.78848786741E+02	7.58568796148E+00	1.74673123928E+02	-4.56342620397E+01	-1.37965817298E+02	-5.96965816102E+00	-6.56106070825E-01
1.27641960218E+06	-8.74367057893E+00	1.79053292150E+02	7.60637531074E+00	1.74479695040E+02	-4.44340666940E+01	-1.26622225919E+02	-5.97666626684E+00	-6.33728724092E-01
1.29861095677E+06	-1.02360964716E+01	-1.79777830570E+02	7.63119857337E+00	1.74215293369E+02	-4.04265919184E+01	-1.26969029234E+01	-5.98727823325E+00	-7.56535001003E-01
1.32080231137E+06	-8.83974118352E+00	-1.73865265703E+02	7.61516983751E+00	1.74501750905E+02	-7.53296352057E+01	1.70616337737E+02	-5.94282777722E+00	-1.09506943642E+00
1.34299366596E+06	-1.03951640882E+01	-1.76562552243E+02	7.55916730448E+00	1.74143920691E+02	-5.02224624384E+01	-1.12003334655E+02	-5.98310064349E+00	-8.15998509567E-01
1.36518502056E+06	-1.04228434041E+01	1.78136584687E+02	7.57488342350E+00	1.74127087774E+02	-4.51471099125E+01	-5.12733480517E+01	-5.98319434067E+00	-7.42940844065E-01
1.38737637515E+06	-1.05057766750E+01	1.77412983902E+02	7.56885684172E+00	1.73773679373E+02	-5.98393032337E+01	-1.42150382969E+01	-5.99064310485E+00	-6.74606535697E-01
1.40956772975E+06	-1.04659102680E+01	-1.79934615360E+02	7.58389478332E+00	1.73533691307E+02	-4.42905151699E+01	1.24370024746E+02	-5.95206119128E+00	-7.36776389047E-01
1.43175908434E+06	-1.01390410237E+01	-1.71684507952E+02	7.58436905188E+00	1.73780275901E+02	-4.36498426090E+01	-1.09775288379E+02	-6.03109448988E+00	-7.13017341762E-01
1.45395043894E+06	-8.87298448872E+00	1.72899289591E+02	7.59883598291E+00	1.73378331848E+02	-4.86151165235E+01	-1.56880336786E+02	-5.95952127972E+00	-7.67996175101E-01
1.47614179353E+06	-1.23283729154E+01	-1.73816419370E+02	7.55561492916E+00	1.73385459963E+02	-4.29062122978E+01	-5.97957822117E+01	-5.95100371547E+00	-8.91258747142E-01
1.49833314813E+06	-1.26209968635E+01	1.75650042842E+02	7.58219722284E+00	1.73109577595E+02	-5.01026895543E+01	1.43747338512E+02	-5.97294704836E+00	-6.89300276677E-01
1.52052450272E+06	-7.83181730004E+00	1.74978657440E+02	7.59713874488E+00	1.73219058649E+02	-4.42336658233E+01	-7.94805716421E+01	-6.00843949926E+00	-6.83031638659E-01
1.54271585732E+06	-9.88088279620E+00	1.74658191173E+02	7.58288339722E+00	1.73057381195E+02	-4.24738378926E+01	9.47149519335E+01	-5.96327379393E+00	-6.63293001006E-01
1.56490721191E+06	-8.78550206283E+00	-1.64654716818E+02	7.56648740754E+00	1.73103800714E+02	-4.78137283065E+01	7.27077722138E+01	-5.96964580896E+00	-7.34882253655E-01
1.58709856651E+06	-8.56619254252E+00	1.76264659950E+02	7.61127623470E+00	1.72816503618E+02	-4.68738327772E+01	1.49126772688E+02	-5.96914790036E+00	-7.14348383787E-01
1.60928992110E+06	-1.32135088079E+01	1.78603480838E+02	7.54711592540E+00	1.72423881175E+02	-5.13019119579E+01	1.14207072146E+02	-5.97549814268E+00	-7.75098057081E-01
1.63148127570E+06	-1.05123848817E+01	1.77756471420E+02	7.59418610608E+00	1.72454703421E+02	-4.91307811229E+01	9.26469558924E+01	-5.99370145148E+00	-7.61769406730E-01
1.65367263029E+06	-9.45089192215E+00	1.79860680978E+02	7.57037012017E+00	1.72418835409E+02	-4.29277975374E+01	9.46932453626E+01	-5.96674015352E+00	-7.76971868666E-01
1.67586398489E+06	-1.14578541777E+01	-1.66020486314E+02	7.55619409250E+00	1.72443065187E+02	-4.67063989378E+01	9.63094429454E+01	-5.96668544460E+00	-8.90102385718E-01
1.69805533948E+06	-1.12708271947E+01	1.79620233189E+02	7.56021782768E+00	1.72292212905E+02	-4.67141078776E+01	-3.27147830142E+01	-5.97095872876E+00	-7.93176865509E-01
1.72024669408E+06	-1.22421538537E+01	-1.77973955411E+02	7.60347881268E+00	1.72300505151E+02	-4.51743957288E+01	-1.59933373042E+02	-5.98083090269E+00	-9.17687776147E-01
1.74243804867E+06	-9.90972059127E+00	1.75664613814E+02	7.54284097823E+00	1.71871022718E+02	-4.96949962001E+01	-1.02313479557E+02	-5.97661974650E+00	-9.48219007115E-01
1.76462940327E+06	-1.10329168833E+01	1.69777328568E+02	7.56574654642E+00	1.71743187275E+02	-4.46902404255E+01	3.72865126720E+01	-5.98243350050E+00	-7.46708909491E-01
1.78682075786E+06	-9.47931989981E+00	1.75787495203E+02	7.58505523102E+00	1.71539271982E+02	-4.06912393398E+01	1.75504633965E+02	-5.98518603233E+00	-8.89777500504E-01
1.80901211246E+06	-1.26871111648E+01	-1.75422403776E+02	7.54417591129E+00	1.71597863188E+02	-6.65654258921E+01	1.29362501511E+02	-5.96334902625E+00	-7.53581675070E-01
1.83120346705E+06	-8.15353973826E+00	-1.57565828709E+02	7.61623847227E+00	1.71549395636E+02	-4.60163646967E+01	-1.71764352697E+02	-5.96461279172E+00	-8.45768809113E-01
1.85339482165E+06	-8.59422122609E+00	-1.77707335641E+02	7.57729189903E+00	1.71354197011E+02	-5.63377712421E+01	-3.13665982758E+01	-5.98403112110E+00	-1.14798395870E+00
1.87558617624E+06	-1.04852091916E+01	-1.73784817362E+02	7.58961509609E+00	1.71168474918E+02	-4.86916835078E+01	1.19798826077E+02	-5.96450273322E+00	-8.40743342078E-01
1.89777753084E+06	-9.93020078956E+00	-1.54486101813E+02	7.56601820235E+00	1.71084527607E+02	-5.44841593876E+01	3.03821511615E+01	-5.96459958329E+00	-9.51779169469E-01
1.91996888543E+06	-1.01238997681E+01	1.75535804064E+02	7.57601817581E+00	1.71130745349E+02	-4.66403893427E+01	-1.27069790991E+02	-5.97612721081E+00	-8.51550860810E-01
1.94216024003E+06	-1.13695437781E+01	-1.73266647250E+02	7.57489801243E+00	1.70898519938E+02	-4.57121784775E+01	4.48925830215E+01	-5.96029741709E+00	-8.42297395342E-01
1.96435159462E+06	-9.55234258497E+00	1.68882006743E+02	7.55896509153E+00	1.70639447108E+02	-4.40794043949E+01	-1.59886854055E+02	-5.99615773797E+00	-8.33407624086E-01
1.98654294922E+06	-1.01124607085E+01	1.78816479731E+02	7.59084661750E+00	1.70647270211E+02	-4.91803729043E+01	1.52409908386E+02	-5.96621000555E+00	-9.89104090403E-01
2.00873430381E+06	-1.07463989554E+01	1.78710552572E+02	7.57644652728E+00	1.70629322981E+02	-3.95558263723E+01	2.07228105049E+01	-5.95959852190E+00	-1.03932343905E+00
2.03092565841E+06	-9.10726006142E+00	-1.75325158036E+02	7.58877908863E+00	1.70496415798E+02	-4.49082483831E+01	1.01940310686E+02	-5.96533218278E+00	-9.56284103399E-01
2.05311701300E+06	-1.00604849840E+01	1.68983614773E+02	7.55096733089E+00	1.70263457670E+02	-4.98147289876E+01	-5.83483507066E+00	-5.95523084568E+00	-1.04814062528E+00
2.07530836760E+06	-9.23663265099E+00	1.65690710282E+02	7.57072674323E+00	1.70128689282E+02	-4.66387145881E+01	7.85751385786E+01	-5.95518666595E+00	-9.47202682215E-01
2.09749972219E+06	-1.18746867966E+01	1.76784214792E+02	7.59681684580E+00	1.70460870607E+02	-4.31811134849E+01	1.20179201454E+01	-5.96050165900E+00	-9.71108954521E-01
2.11969107679E+06	-8.92764619825E+00	-1.65249622062E+02	7.58772044825E+00	1.69922112212E+02	-3.76860561660E+01	-1.11420494808E+01	-5.97267152988E+00	-1.38781432866E+00
2.14188243138E+06	-1.27229747279E+01	1.70470078616E+02	7.57954227612E+00	1.69915512871E+02	-4.38165258923E+01	1.15265451105E+01	-5.94947344946E+00	-9.28718292900E-01
2.16407378598E+06	-9.18561515307E+00	1.77057380762E+02	7.55744425361E+00	1.69728300915E+02	-4.28215587869E+01	2.99429768653E+01	-5.93594768205E+00	-1.12071827196E+00
2.18626514057E+06	-1.07721360663E+01	-1.73221106665E+02	7.58242161944E+00	1.69828391414E+02	-4.48923372239E+01	-4.35886510380E+01	-5.96585029379E+00	-1.03479751600E+00
2.20845649517E+06	-1.01367478078E+01	1.71742270715E+02	7.55385654829E+00	1.69621151293E+02	-4.43953607967E+01	1.35362126598E+02	-5.97635999473E+00	-9.52915113755E-01
2.23064784976E+06	-8.63149301922E+00	-1.72322848381E+02	7.56677481163E+00	1.69493831558E+02	-4.60635024198E+01	1.14546620426E+02	-5.98661758986E+00	-9.42106335810E-01
2.25283920436E+06	-9.03862527394E+00	-1.77702402791E+02	7.60013351996E+00	1.69312056996E+02	-4.66437780912E+01	9.65025183115E+01	-5.96091347060E+00	-1.07217032126E+00
2.27503055895E+06	-1.10191480626E+01	-1.74686914738E+02	7.56628165781E+00	1.69311714226E+02	-4.07583688999E+01	2.69336842693E+01	-6.00476935484E+00	-1.14146862049E+00
2.29722191355E+06	-9.49727167172E+00	-1.78052325411E+02	7.56791234022E+00	1.69408145373E+02	-4.93238068762E+01	-1.41126019055E+02	-5.95967949921E+00	-1.15028938639E+00
2.31941326814E+06	-1.00651514428E+01	1.72107360203E+02	7.56538861487E+00	1.69004694935E+02	-4.49632314607E+01	-9.24247607588E+01	-5.95251071578E+00	-1.19907247861E+00
2.34160462274E+06	-9.67977215827E+00	-1.74238625011E+02	7.54534686842E+00	1.68943226058E+02	-4.03840804076E+01	-1.03350539928E+02	-5.95078164958E+00	-9.93283233026E-01
2.36379597733E+06	-8.97869120507E+00	1.76354297560E+02	7.56914046360E+00	1.68832908485E+02	-4.89924990120E+01	6.87894460819E+01	-5.98602796946E+00	-1.13750035452E+00
2.38598733193E+06	-1.00582414360E+01	1.77235433589E+02	7.58609608900E+00	1.68841093155E+02	-5.28828027082E+01	7.39899567480E+01	-5.97121227764E+00	-1.01498445018E+00
2.40817868652E+06	-8.85342818432E+00	1.78672821179E+02	7.60598911773E+00	1.68735126548E+02	-5.33337837367E+01	7.29455774776E+01	-5.96464747351E+00	-1.13981288775E+00
2.43037004112E+06	-9.99018946784E+00	1.79485187903E+02	7.55701843349E+00	1.68468555613E+02	-4.86632985059E+01	8.50362142649E+00	-5.98136364878E+00	-1.50329454304E+00
2.45256139571E+06	-9.52922005715E+00	1.77815957296E+02	7.59670369369E+00	1.68396727245E+02	-5.63905914266E+01	-1.25978424201E+00	-5.97985926939E+00	-9.04827550562E-01
2.47475275031E+06	-1.11600306052E+01	-1.72512198280E+02	7.60829247481E+00	1.68482947453E+02	-4.47025158931E+01	3.04412789344E+01	-5.95225964818E+00	-1.17374350174E+00
2.49694410490E+06	-1.04417604097E+01	-1.75730473164E+02	7.57399629438E+00	1.68375025389E+02	-5.05481408515E+01	1.35488769638E+02	-5.99892140651E+00	-1.21281003388E+00
2.51913545950E+06	-9.44395964039E+00	1.74971705658E+02	7.53470360341E+00	1.68256525088E+02	-4.61847415923E+01	-7.10035460139E+01	-5.99243614287E+00	-1.17022405404E+00
2.54132681409E+06	-1.05789166434E+01	-1.70822983502E+02	7.58028978831E+00	1.67991355347E+02	-4.75597599886E+01	1.15838052176E+02	-5.95023491737E+00	-1.14473129140E+00
2.56351816869E+06	-8.51815423808E+00	-1.78891212087E+02	7.57858479595E+00	1.67676061374E+02	-4.80856026443E+01	1.66940058868E+02	-5.96262119875E+00	-1.14852124847E+00
2.58570952328E+06	-1.22364453637E+01	1.69517476289E+02	7.59636378436E+00	1.67627234777E+02	-5.08886471339E+01	-9.46463311424E+01	-5.97092915532E+00	-1.30558355757E+00
2.60790087788E+06	-1.04103732399E+01	-1.77605828464E+02	7.54865386069E+00	1.67590874209E+02	-5.28196098373E+01	-9.68931809001E+01	-5.99165182295E+00	-1.03922981949E+00
2.63009223247E+06	-1.01205078190E+01	-1.69705741326E+02	7.58575399403E+00	1.67356387778E+02	-5.13568146746E+01	6.87885491464E+01	-5.97557458004E+00	-1.28227400429E+00
2.65228358707E+06	-8.95930770898E+00	1.76112412016E+02	7.57702241869E+00	1.67483472181E+02	-4.53669856804E+01	7.50284970609E+01	-5.94670754367E+00	-1.58632360175E+00
2.67447494166E+06	-1.20979248730E+01	1.69987850397E+02	7.60865233769E+00	1.67298123874E+02	-4.04089972362E+01	-6.45060840500E+01	-5.95772229561E+00	-1.48852969935E+00
2.69666629626E+06	-9.88482052582E+00	-1.71260298105E+02	7.60231174617E+00	1.67187011461E+02	-4.32688724169E+01	2.18496871149E+01	-5.94972881079E+00	-1.30014922506E+00
2.71885765085E+06	-9.24165236411E+00	-1.78555693902E+02	7.58848970112E+00	1.66894021496E+02	-4.25743398352E+01	-3.81802700192E+01	-5.97761144161E+00	-1.32009809700E+00
2.74104900545E+06	-9.12807939734E+00	1.76762334594E+02	7.55873802234E+00	1.67088621255E+02	-3.96758049890E+01	1.02180539594E+01	-5.95439959625E+00	-1.39599688715E+00
2.76324036004E+06	-1.10755603108E+01	-1.67899934860E+02	7.59260484761E+00	1.66846952402E+02	-4.23873416686E+01	-1.50270677257E+01	-5.95920356173E+00	-1.27934542179E+00
2.78543171463E+06	-8.29988633701E+00	1.76770556945E+02	7.55440581037E+00	1.66640805111E+02	-4.22998044968E+01	1.23836859360E+02	-5.96860365325E+00	-1.39047243982E+00
2.80762306923E+06	-1.02277592305E+01	-1.76556791276E+02	7.56655415148E+00	1.66622274096E+02	-5.06690572298E+01	4.31805590416E+00	-5.95241369358E+00	-1.23415387150E+00
2.82981442382E+06	-9.66181086474E+00	1.77669406441E+02	7.58558240017E+00	1.66616684385E+02	-4.09472226933E+01	-1.43070638494E+02	-5.95656175719E+00	-1.21116006333E+00
2.85200577842E+06	-9.42209751917E+00	-1.79366124237E+02	7.58427319233E+00	1.66356877557E+02	-5.25399028851E+01	-1.06642325658E+02	-5.98041316735E+00	-1.25991932004E+00
2.87419713301E+06	-9.43577423129E+00	-1.65838116124E+02	7.53910370434E+00	1.66458242679E+02	-4.86215614477E+01	-1.03022833260E+02	-5.97083752999E+00	-1.44846933632E+00
