# Hz S DB R 50
! CMT, M5065, 19127446, 24.2.4/2
! Date: 10/29/2024 12:52:21 PM
! Data: Format (Calibration Info)
! Freq	S11:dB/Ang(F2)	S21:dB/Ang(F2)	S12:dB/Ang(F2)	S22:dB/Ang(F2)
3.00000000000E+05	-6.89999242695E+00	-1.26584839852E+02	2.68068771005E+01	-1.76516679190E+02	-4.23967569402E+01	-2.66709949572E+01	-5.98974730571E+00	-6.06889807321E-01
3.22191354595E+05	-1.43133381848E+01	-1.66881344931E+02	2.68380462992E+01	-1.77604892296E+02	-3.59613084290E+01	-1.59141464290E+02	-6.01711828976E+00	-4.02422778484E-01
3.44382709190E+05	-9.65381986474E+00	1.79730463038E+02	2.68145913276E+01	-1.78647226038E+02	-4.19989096326E+01	-5.43722586216E+01	-5.95956783282E+00	-2.93289596563E-01
3.66574063785E+05	-1.08115169392E+01	-1.70444319295E+02	2.68013544483E+01	-1.79514739806E+02	-4.13152852826E+01	1.05637206482E+02	-6.01746655571E+00	-1.07132683713E+00
3.88765418380E+05	-8.36827125727E+00	1.74392475542E+02	2.68593732895E+01	1.79343811539E+02	-4.53131322043E+01	-1.05041588897E+02	-6.09038513394E+00	-4.86438140938E-01
4.10956772975E+05	-6.61750456775E+00	-1.59169374094E+02	2.68417378996E+01	1.78553166719E+02	-4.53612314068E+01	6.76915428571E+01	-6.00929793952E+00	-7.70979859075E-01
4.33148127570E+05	-9.53831669780E+00	1.77055714803E+02	2.68367329121E+01	1.78159491714E+02	-4.59255456490E+01	-1.33233816441E+02	-5.92151309143E+00	-7.80636568055E-01
4.55339482165E+05	-9.33865246477E+00	1.66290428674E+02	2.68240251452E+01	1.77137310773E+02	-3.54257536804E+01	1.06512747225E+02	-5.97628547254E+00	-1.42916220663E-01
4.77530836760E+05	-1.29952248228E+01	-1.55934447712E+02	2.68120216369E+01	1.76406011042E+02	-3.46188962651E+01	-7.19950045126E+00	-5.91060549273E+00	-4.48810211679E-01
4.99722191355E+05	-1.19455060675E+01	-1.62658433659E+02	2.68211524773E+01	1.75672208579E+02	-4.21509096825E+01	-1.12692374515E+02	-5.89363704577E+00	-9.66042332996E-01
5.21913545950E+05	-9.71507721419E+00	1.70636902957E+02	2.68034051646E+01	1.74561272223E+02	-4.38149513189E+01	-3.50658203439E+01	-5.98383819310E+00	-1.21752958982E+00
5.44104900545E+05	-7.84478400388E+00	-1.76827729835E+02	2.68069931337E+01	1.73976304310E+02	-3.41003340674E+01	6.22566572269E+01	-5.93206792908E+00	-8.66113235886E-01
5.66296255139E+05	-8.38238423032E+00	-1.73562031959E+02	2.67601626235E+01	1.73732518353E+02	-4.01840341189E+01	-1.64011905288E+02	-6.00388974261E+00	-3.93872184223E-01
5.88487609734E+05	-1.03047837793E+01	-1.79540139224E+02	2.67691386403E+01	1.72535107916E+02	-4.24729481016E+01	1.20929162351E+01	-5.90965588258E+00	-1.51300139835E-01
6.10678964329E+05	-9.15633852282E+00	1.74187316980E+02	2.67450397593E+01	1.72239872652E+02	-3.72689274302E+01	-2.69014734647E+01	-5.99986366977E+00	-4.27701740198E-01
6.32870318924E+05	-9.06733063225E+00	-1.50302468687E+02	2.67630237868E+01	1.71622366468E+02	-3.54906305361E+01	-1.43161249635E+02	-6.01496065185E+00	-4.61909816186E-01
6.55061673519E+05	-6.38494557254E+00	1.67507948567E+02	2.67392180892E+01	1.71243073745E+02	-4.16886076040E+01	-1.61887585342E+02	-6.00036345890E+00	-4.65434397755E-01
6.77253028114E+05	-1.43217369497E+01	-1.72496206920E+02	2.67692259767E+01	1.70431554096E+02	-5.33066248736E+01	-1.20169631515E+02	-5.99311871555E+00	-4.27818263497E-01
6.99444382709E+05	-1.08558954326E+01	1.71778601029E+02	2.67398123275E+01	1.70011828489E+02	-4.45754221973E+01	1.05691717273E+02	-5.95541998723E+00	-6.40225735804E-01
7.21635737304E+05	-8.66707402476E+00	-1.72584830101E+02	2.67541954215E+01	1.69502683983E+02	-4.53142752274E+01	-5.62653255198E+01	-5.98339382357E+00	-6.37336238084E-01
7.43827091899E+05	-1.29205614634E+01	-1.78347230186E+02	2.67256205103E+01	1.68526752799E+02	-4.26962895455E+01	1.71858677053E+02	-5.94144354987E+00	-4.31226903520E-01
7.66018446494E+05	-1.18189130297E+01	1.67760304498E+02	2.66775608608E+01	1.68336161963E+02	-4.36904355201E+01	1.62304321093E+02	-5.99149388120E+00	-4.56144518676E-01
7.88209801089E+05	-8.75241552512E+00	-1.78299331813E+02	2.66956653595E+01	1.68127451325E+02	-4.34306200222E+01	-5.01822495697E+01	-5.95155976556E+00	-4.44486339332E-01
8.10401155684E+05	-1.26638347216E+01	1.70323539481E+02	2.66841090760E+01	1.67241897753E+02	-4.78497929525E+01	4.16697138162E+01	-6.03495096465E+00	-4.51403269657E-01
8.32592510279E+05	-1.01262823999E+01	-1.77135217191E+02	2.66905157642E+01	1.66623486487E+02	-3.97704510101E+01	3.38486694476E+01	-5.85876177706E+00	3.56464657526E-01
8.54783864874E+05	-8.10169554982E+00	-1.69208338529E+02	2.66847629820E+01	1.66147474869E+02	-3.69761939946E+01	-5.92825683537E+01	-5.99755998672E+00	-3.20334204226E-01
8.76975219469E+05	-1.08428987632E+01	-1.77369419697E+02	2.66445436623E+01	1.65680439625E+02	-4.64917403332E+01	1.47929605333E+00	-5.94617756757E+00	-8.14117418769E-01
8.99166574064E+05	-1.25365253933E+01	1.75724808905E+02	2.66216266478E+01	1.64965696868E+02	-3.49207498888E+01	1.53581292041E+02	-5.99241642075E+00	-5.73675399542E-01
9.21357928659E+05	-1.27436155787E+01	1.66029601340E+02	2.65903992874E+01	1.64658653821E+02	-3.93029031339E+01	-1.69589982671E+02	-5.93531972262E+00	-3.75351776582E-01
9.43549283254E+05	-7.06186469565E+00	1.74519879673E+02	2.65979366785E+01	1.64068102099E+02	-3.68488466235E+01	-1.28662286986E+02	-5.97209173210E+00	-8.55040530768E-01
9.65740637849E+05	-8.28860102210E+00	1.79446591771E+02	2.66055276097E+01	1.63639184988E+02	-4.45967896447E+01	1.48574326118E+02	-5.89929129236E+00	-7.12056207248E-01
9.87931992444E+05	-8.82557137617E+00	1.70766671117E+02	2.65580046548E+01	1.63294810506E+02	-3.33541458935E+01	5.93114124714E+01	-5.97023272819E+00	-1.09021308046E-01
1.01012334704E+06	-1.22463392604E+01	1.63010110848E+02	2.65453613994E+01	1.62814907778E+02	-4.12320817368E+01	-4.87269416051E+01	-5.99321975240E+00	-6.72475801255E-01
1.03231470163E+06	-9.14916254772E+00	-1.65919298133E+02	2.65709607571E+01	1.62274447359E+02	-3.14778479437E+01	-1.49100920859E+01	-6.00436967879E+00	-3.88538632936E-01
1.05450605623E+06	-1.14156992529E+01	-1.60653212804E+02	2.64989002905E+01	1.61920680266E+02	-4.12489636297E+01	1.28340461900E+02	-5.90935532938E+00	-2.33969738595E-01
1.07669741082E+06	-9.96608214109E+00	1.54851894205E+02	2.65190028716E+01	1.61392601410E+02	-6.08243080386E+01	-1.35807612403E+02	-5.95805637042E+00	-7.11618777566E-01
1.09888876542E+06	-9.97791437428E+00	1.64174345202E+02	2.64816692973E+01	1.60963565226E+02	-4.27057687592E+01	1.68830596046E+02	-5.99055215272E+00	-8.34252185343E-01
1.12108012001E+06	-9.74030683036E+00	1.77309466224E+02	2.64782190262E+01	1.60402117765E+02	-3.39929316397E+01	1.24941993272E+02	-5.99554409226E+00	-3.54201106559E-01
1.14327147461E+06	-1.18502347262E+01	-1.62275309075E+02	2.64567926571E+01	1.60125721490E+02	-4.46461974404E+01	1.02910278395E+02	-5.99485882690E+00	-1.24185039943E+00
1.16546282920E+06	-1.53555689253E+01	1.77650968102E+02	2.64542934434E+01	1.59702577007E+02	-4.37651494653E+01	1.61960812505E+01	-6.03051741502E+00	-1.53071666027E-01
1.18765418380E+06	-1.29786154091E+01	1.79013636465E+02	2.64582185604E+01	1.58805489101E+02	-3.85302298778E+01	1.63761449270E+02	-5.97592689926E+00	-4.65408380078E-01
1.20984553839E+06	-8.05301150506E+00	-1.50220856458E+02	2.64372297142E+01	1.58923450703E+02	-3.65951564370E+01	1.29010428268E+02	-5.98642769304E+00	-1.01652658058E+00
1.23203689299E+06	-1.51903245571E+01	1.79835867032E+02	2.64207447145E+01	1.58234141095E+02	-4.45888466100E+01	-7.82715584880E+01	-5.97749319962E+00	-4.87177536248E-01
1.25422824758E+06	-8.97588833958E+00	1.69321839708E+02	2.64357703964E+01	1.57656358207E+02	-4.53176536635E+01	-8.59427846396E+00	-5.95542469577E+00	-8.06457505753E-01
1.27641960218E+06	-9.20030904147E+00	-1.65079417201E+02	2.63654360978E+01	1.57227443758E+02	-3.78628457460E+01	9.21611262424E+01	-5.94277775781E+00	-7.33217499464E-01
1.29861095677E+06	-1.16164265181E+01	1.79166842919E+02	2.63589531630E+01	1.56787117256E+02	-3.97565237345E+01	-6.37452621770E+01	-5.95201619692E+00	-1.44857288189E+00
1.32080231137E+06	-9.41222971050E+00	1.75248216132E+02	2.63363824134E+01	1.56510695480E+02	-4.87341308503E+01	-5.57317638711E+01	-6.04119496547E+00	-5.45810352249E-01
1.34299366596E+06	-1.02815115852E+01	1.73033445077E+02	2.63397228639E+01	1.55977021066E+02	-4.41863868646E+01	-2.97146416950E+01	-5.98182557715E+00	-7.69440176088E-01
1.36518502056E+06	-7.01084216786E+00	1.79196929027E+02	2.63113519233E+01	1.55422636525E+02	-3.68952274109E+01	5.47777541307E+00	-6.05055402031E+00	-1.03231994246E+00
1.38737637515E+06	-9.16629739593E+00	-1.70675302366E+02	2.63316245064E+01	1.55278713069E+02	-4.41277520932E+01	-1.68584962204E+02	-5.94668478170E+00	-7.81294826165E-01
1.40956772975E+06	-8.35529204737E+00	-1.70638145272E+02	2.63055183232E+01	1.54427046207E+02	-3.90912421261E+01	-3.51543487448E+01	-5.96777777557E+00	-1.08555678223E+00
1.43175908434E+06	-8.72468393068E+00	-1.78903142858E+02	2.62843108046E+01	1.54050772862E+02	-4.07131664651E+01	-1.58582973578E+02	-5.99768608027E+00	-7.56598546212E-01
1.45395043894E+06	-1.07406993634E+01	1.57005252492E+02	2.62609345061E+01	1.53947851468E+02	-3.78358747492E+01	1.97840192318E+01	-5.94098578209E+00	2.78689433221E-01
1.47614179353E+06	-1.12040990929E+01	1.59497580760E+02	2.62092419452E+01	1.53168502492E+02	-4.91547666275E+01	-1.18323575462E+01	-5.92044980655E+00	-5.13203476437E-01
1.49833314813E+06	-9.52124336395E+00	1.75123307414E+02	2.62392635784E+01	1.52940727109E+02	-4.36689716594E+01	-3.59646113143E+01	-6.06963556572E+00	-6.04212707761E-01
1.52052450272E+06	-9.18144232006E+00	1.75423185414E+02	2.61796761575E+01	1.52633329570E+02	-4.23966006165E+01	-2.86713678073E+01	-5.96012835044E+00	-9.75422844087E-01
1.54271585732E+06	-1.06872014345E+01	1.65817674202E+02	2.62283953835E+01	1.52030077285E+02	-3.80576633087E+01	-9.60491958991E+01	-5.98671170200E+00	-1.01805648342E+00
1.56490721191E+06	-9.83215710656E+00	-1.76112106773E+02	2.61603599860E+01	1.51810665388E+02	-3.56840177154E+01	-1.19578526876E+02	-5.99264120190E+00	-1.20862760914E+00
1.58709856651E+06	-1.44784082466E+01	1.58132208345E+02	2.61501456821E+01	1.51242883045E+02	-5.40415860605E+01	6.06358229195E+01	-5.87143893671E+00	-1.01491511338E+00
1.60928992110E+06	-1.27741642473E+01	-1.67233133011E+02	2.61465987789E+01	1.50921688536E+02	-4.18148628606E+01	4.20498733941E+01	-5.74175058652E+00	-1.07942653918E+00
1.63148127570E+06	-8.46226067490E+00	1.67736852556E+02	2.61149359177E+01	1.50414671546E+02	-3.43451563292E+01	1.64772817833E+02	-6.10190909670E+00	-9.08556800084E-01
1.65367263029E+06	-1.02405764169E+01	-1.69226257589E+02	2.61132212679E+01	1.50278322457E+02	-4.03801722625E+01	-8.89436861241E+01	-5.98248672673E+00	-9.15680342665E-01
1.67586398489E+06	-9.16766772504E+00	1.59512171512E+02	2.61436237508E+01	1.49449840853E+02	-4.97259661504E+01	1.03990787386E+02	-5.91949015326E+00	-9.51825582853E-01
1.69805533948E+06	-8.33452354696E+00	-1.77347814986E+02	2.60282612484E+01	1.49631322500E+02	-4.59156687284E+01	-5.76002233839E+01	-5.93283747037E+00	-9.11493988996E-01
1.72024669408E+06	-1.04608646284E+01	-1.64223886058E+02	2.60961167829E+01	1.48997884112E+02	-4.06968459027E+01	-1.60869829554E+02	-5.96520927337E+00	-5.29813227770E-01
1.74243804867E+06	-1.23458078761E+01	-1.66004552462E+02	2.60669587164E+01	1.48593793099E+02	-5.06206730068E+01	-5.96685769776E+01	-5.91209350538E+00	-9.30389987381E-01
1.76462940327E+06	-7.00669018896E+00	1.73906131311E+02	2.60269940755E+01	1.48175901450E+02	-4.12075017523E+01	1.74341382016E+02	-6.03311958266E+00	-4.12392389788E-01
1.78682075786E+06	-6.75055004215E+00	1.68190723493E+02	2.59715093530E+01	1.47496317816E+02	-3.25309501784E+01	5.75002076934E+00	-5.89111255239E+00	-7.28173914119E-01
1.80901211246E+06	-1.30823025506E+01	-1.52467397440E+02	2.59864674348E+01	1.47483498197E+02	-3.75464420100E+01	-1.68309033897E+02	-5.95216148368E+00	-1.24605230805E+00
1.83120346705E+06	-1.27349659179E+01	-1.70993975831E+02	2.59579808574E+01	1.47209277215E+02	-3.74688929307E+01	-1.29396357694E+02	-5.97271971203E+00	-7.25203520805E-01
1.85339482165E+06	-9.40545680695E+00	-1.74373365659E+02	2.59624547911E+01	1.46365896010E+02	-4.84218779323E+01	1.35093257919E+01	-5.96880266765E+00	-9.39237649958E-01
1.87558617624E+06	-9.12193599061E+00	1.74748301066E+02	2.59080303252E+01	1.46086404723E+02	-4.08948205191E+01	1.29801193097E+02	-5.96674469358E+00	-1.11038567282E+00
1.89777753084E+06	-1.21059925855E+01	1.69649120494E+02	2.59000311917E+01	1.45843988385E+02	-4.01307057233E+01	1.90366274939E+01	-6.02537620817E+00	-1.01536798352E+00
1.91996888543E+06	-8.36822720957E+00	-1.72780624058E+02	2.58828620664E+01	1.45214898059E+02	-3.88146878270E+01	8.54615449444E+01	-6.02129643963E+00	-6.50150331905E-01
1.94216024003E+06	-1.05085502553E+01	1.68019453620E+02	2.58678848444E+01	1.44930679883E+02	-4.39828171972E+01	-1.60504657482E+02	-5.98978809530E+00	-8.51687514736E-01
1.96435159462E+06	-1.30880612956E+01	1.37528482959E+02	2.58502862693E+01	1.44489660428E+02	-4.12010316471E+01	-8.81524718201E+01	-5.96984819919E+00	-9.38465305109E-01
1.98654294922E+06	-7.99137613307E+00	-1.75132407297E+02	2.58224639563E+01	1.43977432832E+02	-3.91455273241E+01	7.62799092641E+00	-5.95164080562E+00	-1.07724405727E+00
2.00873430381E+06	-9.97991978434E+00	1.68325729084E+02	2.57642655854E+01	1.43480027564E+02	-3.54249797458E+01	2.80876334189E+01	-5.98901425010E+00	-1.10346425467E+00
2.03092565841E+06	-8.57842656841E+00	-1.66529688026E+02	2.57839373784E+01	1.43512303374E+02	-5.33122592315E+01	1.63778222481E+02	-5.96729412539E+00	-5.09830328316E-01
2.05311701300E+06	-8.81895697289E+00	-1.59505778592E+02	2.57353754355E+01	1.43124628118E+02	-4.23986149453E+01	1.72642485040E+02	-5.97683961578E+00	-8.79430787299E-01
2.07530836760E+06	-1.15878555722E+01	-1.76634525011E+02	2.57318803594E+01	1.42516312432E+02	-3.36655808924E+01	-7.60613660117E+01	-6.01733652034E+00	-1.38361238311E+00
2.09749972219E+06	-1.20807068662E+01	-1.76379638256E+02	2.57328042490E+01	1.42191954179E+02	-3.53134670265E+01	-4.91965341044E+01	-6.02188408193E+00	-1.01149130670E+00
2.11969107679E+06	-9.54290306117E+00	1.74535242071E+02	2.57449797757E+01	1.41917153463E+02	-4.13507341181E+01	8.26049401905E+01	-5.95302107458E+00	-9.30267383551E-01
2.14188243138E+06	-8.23204924504E+00	1.65861903032E+02	2.56798611654E+01	1.41721314055E+02	-3.67151620693E+01	-8.11784569910E+01	-5.99430824496E+00	-1.13689186896E+00
2.16407378598E+06	-1.53328469555E+01	1.79664895150E+02	2.57068368428E+01	1.40833292015E+02	-3.83298804996E+01	-1.56195190444E+02	-5.97876138237E+00	-8.91672352553E-01
2.18626514057E+06	-1.01487483236E+01	1.79504142986E+02	2.56583112280E+01	1.40773782752E+02	-3.65343671868E+01	1.83507327866E+00	-6.01721821558E+00	-1.29211957695E+00
2.20845649517E+06	-1.09496816916E+01	-1.71287662259E+02	2.56389785946E+01	1.40429170803E+02	-4.33876550361E+01	-5.39683042246E+01	-6.03561263737E+00	-1.34209808728E+00
2.23064784976E+06	-1.01701426072E+01	1.58021151272E+02	2.56011635275E+01	1.40045404838E+02	-5.05755123282E+01	1.22354317355E+02	-6.04754228745E+00	-6.59563858747E-01
2.25283920436E+06	-8.24569234642E+00	1.76521871130E+02	2.55640038052E+01	1.39700721756E+02	-3.69742741389E+01	1.63787915455E+02	-6.34487037103E+00	-6.04189428377E-01
2.27503055895E+06	-9.00828056745E+00	-1.75011214597E+02	2.55796291076E+01	1.39121580564E+02	-5.22959006169E+01	3.65456205331E+00	-5.96967096874E+00	-1.17098386710E+00
2.29722191355E+06	-1.01701570914E+01	1.77303977905E+02	2.55569081651E+01	1.38860660513E+02	-4.07096747955E+01	3.53579494529E+00	-5.93810130866E+00	-9.94473313360E-01
2.31941326814E+06	-7.35438746289E+00	-1.58290431192E+02	2.55476840495E+01	1.38906010279E+02	-3.80967927173E+01	-1.46912718787E+02	-5.99057208250E+00	-8.46074931940E-01
2.34160462274E+06	-1.36932334290E+01	1.73277256251E+02	2.55271530950E+01	1.37964799630E+02	-3.74843499533E+01	3.72750061598E+01	-5.96242819602E+00	-1.24404267808E+00
2.36379597733E+06	-9.00690043357E+00	-1.75715942968E+02	2.54977792658E+01	1.37858875548E+02	-5.66463914248E+01	-2.25932464164E+01	-5.95926731190E+00	-1.00824182907E+00
2.38598733193E+06	-1.21644996749E+01	1.56323179961E+02	2.54112653441E+01	1.37390435475E+02	-5.24719113024E+01	1.23098886777E+02	-6.03858958032E+00	-1.77520153161E+00
2.40817868652E+06	-8.44753209039E+00	1.71158456380E+02	2.54722061003E+01	1.37094035581E+02	-4.09048250412E+01	8.25515873864E+01	-6.18274161214E+00	-7.48249777312E-01
2.43037004112E+06	-7.45864857280E+00	-1.56192200559E+02	2.54259144521E+01	1.36733826811E+02	-3.79809701123E+01	1.32587962796E+02	-6.00274412176E+00	-1.37087763600E+00
2.45256139571E+06	-9.94617459312E+00	-1.75173868644E+02	2.53962956125E+01	1.36134276736E+02	-4.12952449544E+01	7.38284430353E+01	-6.02290509285E+00	-1.08675848993E+00
2.47475275031E+06	-8.36730035707E+00	-1.72101272670E+02	2.54289326819E+01	1.36015368951E+02	-4.32399693065E+01	2.72698213883E+01	-6.00013564541E+00	-1.37417318826E+00
2.49694410490E+06	-8.17094184433E+00	-1.75602010941E+02	2.53779040449E+01	1.35460190182E+02	-4.99911335984E+01	-2.63410227155E+00	-5.96384461252E+00	-1.04112180933E+00
2.51913545950E+06	-1.04232100015E+01	1.77931441443E+02	2.53202600319E+01	1.35170431516E+02	-3.88648553081E+01	-1.27088748811E+02	-6.00504231051E+00	-1.00812219828E+00
2.54132681409E+06	-1.09101458562E+01	-1.46953321593E+02	2.53235260761E+01	1.34835100270E+02	-3.55296850189E+01	-8.88211072034E+01	-5.87330854308E+00	-2.31140212857E+00
2.56351816869E+06	-1.09189551835E+01	1.75829956644E+02	2.53026906477E+01	1.34766082467E+02	-4.30529696020E+01	9.66655109748E+01	-6.01738660516E+00	-9.04210841778E-01
2.58570952328E+06	-8.78135983125E+00	1.61615565644E+02	2.52522030761E+01	1.34048406177E+02	-3.65674138065E+01	1.41996465081E+02	-5.93721167275E+00	-1.09009232851E+00
2.60790087788E+06	-6.38625663972E+00	-1.63841886828E+02	2.52062440220E+01	1.33975338887E+02	-4.37696741311E+01	-3.08959462363E+01	-6.04579789252E+00	-1.43502749988E+00
2.63009223247E+06	-1.23112127694E+01	1.55014733796E+02	2.52392319693E+01	1.33546180878E+02	-3.29016911521E+01	1.23118969284E+02	-5.98052975352E+00	-1.33419750636E+00
2.65228358707E+06	-1.11218320146E+01	-1.61779766551E+02	2.52154601386E+01	1.33174168282E+02	-4.02829869894E+01	1.72955320781E+02	-5.95645772743E+00	-1.77505911715E+00
2.67447494166E+06	-1.26249750521E+01	-1.72045892782E+02	2.51913447783E+01	1.32759806811E+02	-4.65601536690E+01	5.65910638388E+01	-5.90475832960E+00	-1.66819441832E+00
2.69666629626E+06	-7.97690319853E+00	-1.74838775478E+02	2.51369961847E+01	1.32402449586E+02	-4.14345524853E+01	-1.51417356153E+02	-5.90454114681E+00	-8.67550492221E-01
2.71885765085E+06	-9.32293595911E+00	1.71497776448E+02	2.51402316127E+01	1.32061711601E+02	-3.44865130681E+01	1.35541560804E+02	-5.83146385385E+00	-3.28118013694E-01
2.74104900545E+06	-7.83463348640E+00	1.78494057672E+02	2.51149174514E+01	1.31572814494E+02	-5.58125373510E+01	-1.50163432958E+02	-5.97501873652E+00	-1.35356415440E+00
2.76324036004E+06	-1.11905209244E+01	-1.59432638917E+02	2.50986490238E+01	1.31504625514E+02	-4.36973894782E+01	1.58559511677E+02	-5.97809349907E+00	-1.44770401449E+00
2.78543171463E+06	-1.04300080536E+01	1.78090441868E+02	2.50669803284E+01	1.30990113513E+02	-3.99274887991E+01	-6.56729859178E+01	-6.01776270612E+00	-1.29226317481E+00
2.80762306923E+06	-9.83042531849E+00	-1.64425385992E+02	2.50604825793E+01	1.30714430940E+02	-4.25011927876E+01	2.39915306475E+01	-5.97581866436E+00	-1.68572810442E+00
2.82981442382E+06	-1.09751005993E+01	1.77884923331E+02	2.50366673497E+01	1.30441772797E+02	-5.09899775033E+01	-4.79902396426E+01	-5.95200344054E+00	-1.51110913696E+00
2.85200577842E+06	-8.15406020033E+00	1.68973161834E+02	2.50238476599E+01	1.30069023541E+02	-3.87179904913E+01	-9.89868934200E+00	-5.97216088288E+00	-1.07453537526E+00
2.87419713301E+06	-9.55497782289E+00	1.73310556911E+02	2.49733177615E+01	1.29571931282E+02	-4.47099845249E+01	-5.09649288731E+01	-5.93832601160E+00	-9.68674158312E-01
