# Hz S DB R 50
! CMT, M5065, 19127446, 24.2.4/2
! Date: 10/29/2024 12:30:39 PM
! Data: Format (Calibration Info)
! Freq	S11:dB/Ang(F2)	S21:dB/Ang(F2)	S12:dB/Ang(F2)	S22:dB/Ang(F2)
3.00000000000E+05	-1.27670348834E+01	-1.66173189974E+02	9.94981984057E+00	-1.77977597528E+02	-4.03457040878E+01	1.36545407931E+02	-5.97224832671E+00	-2.48347891632E-01
3.22191354595E+05	-8.62793977177E+00	1.66403642537E+02	9.96757890086E+00	-1.78384415192E+02	-3.60684066742E+01	7.57842814256E+01	-5.99173985378E+00	-2.00510809986E-01
3.44382709190E+05	-9.96010779128E+00	-1.63298238415E+02	9.94031009372E+00	-1.78942596661E+02	-3.98214080446E+01	-5.75214273335E+01	-5.93336577497E+00	-3.60797786516E-01
3.66574063785E+05	-2.17352763860E+01	-1.66320655144E+02	9.88978179356E+00	-1.79190145461E+02	-3.62721768628E+01	5.82805116253E+00	-5.95412278395E+00	-1.39888415623E-01
3.88765418380E+05	-1.19602895142E+01	-1.72144857982E+02	9.86504171845E+00	1.79979933016E+02	-5.84399703747E+01	-1.34345748322E+02	-5.96190057842E+00	-3.86788938537E-01
4.10956772975E+05	-8.83350231288E+00	-1.70707215979E+02	9.92152289124E+00	-1.79662140405E+02	-4.31169008812E+01	8.96209713885E+01	-5.94105903211E+00	-4.79821605757E-01
4.33148127570E+05	-1.10031948905E+01	-1.78371349688E+02	9.93955200279E+00	-1.79912534838E+02	-4.21211390381E+01	-1.31645875771E+01	-5.95431921646E+00	-3.55700378942E-01
4.55339482165E+05	-1.16200278220E+01	1.67272222211E+02	9.93422369958E+00	1.79330970693E+02	-3.67484097404E+01	-5.12086896173E+01	-5.99044717821E+00	-4.24054022916E-01
4.77530836760E+05	-1.09638743525E+01	1.61293841154E+02	9.93537267853E+00	1.79789660557E+02	-5.69338120109E+01	-6.15293731488E+01	-5.97321365909E+00	-3.39478944238E-01
4.99722191355E+05	-9.13555813186E+00	-1.50580266312E+02	9.97152185946E+00	1.79420714517E+02	-4.27024249147E+01	4.57616157706E+01	-5.98057902432E+00	-5.76008224824E-01
5.21913545950E+05	-9.20852952504E+00	1.78130069434E+02	9.96691765688E+00	1.79057861322E+02	-3.64042306687E+01	-7.87162488947E+01	-5.97807783643E+00	-2.55208207878E-01
5.44104900545E+05	-1.68105856976E+01	-1.78066040336E+02	9.97008126212E+00	1.78533735591E+02	-4.43715540310E+01	1.36192915038E+02	-5.93993866727E+00	-3.86852511572E-01
5.66296255139E+05	-9.34137386872E+00	1.74037560950E+02	9.93080272541E+00	1.78386528233E+02	-4.35179368185E+01	1.38383198357E+02	-5.99462913774E+00	-6.74872162810E-01
5.88487609734E+05	-9.73853409157E+00	-1.76170071187E+02	9.92439523116E+00	1.78338638405E+02	-5.44624363278E+01	1.33700569938E+02	-5.98766663872E+00	-6.11436518339E-01
6.10678964329E+05	-1.14606551864E+01	-1.62838496489E+02	9.94837544550E+00	1.78487627756E+02	-3.88219284249E+01	-1.61137428464E+02	-5.98199517046E+00	-2.81860678483E-01
6.32870318924E+05	-1.16964208588E+01	1.69431446237E+02	9.94747356150E+00	1.77860807153E+02	-4.07078754269E+01	-8.77203976888E+01	-5.98494080565E+00	-2.91983639103E-02
6.55061673519E+05	-8.23970379832E+00	-1.77917409370E+02	9.89436530087E+00	1.78104170309E+02	-4.34987826515E+01	-1.38931668707E+02	-5.98838279495E+00	-4.18880763338E-01
6.77253028114E+05	-8.93389236423E+00	1.73058324947E+02	1.00312000735E+01	1.77826191840E+02	-6.37804181475E+01	1.60044425889E+02	-5.94451816658E+00	-7.10935466836E-01
6.99444382709E+05	-2.19701838935E+01	1.76767629203E+02	9.93828966653E+00	1.78029642984E+02	-3.50349752247E+01	1.20517539307E+02	-5.99404726993E+00	-4.11494746494E-01
7.21635737304E+05	-9.38697040841E+00	-1.73965653418E+02	9.92711682825E+00	1.78021046984E+02	-4.57122444019E+01	-1.14700060503E+02	-5.95797909352E+00	-5.57522291568E-01
7.43827091899E+05	-9.68689884487E+00	1.60778809840E+02	9.94896542881E+00	1.77213762654E+02	-4.02223391939E+01	-4.57689766369E+01	-6.00654094239E+00	-4.63129813768E-01
7.66018446494E+05	-9.13425811424E+00	-1.74424480642E+02	9.96017796966E+00	1.77481577756E+02	-3.75708987833E+01	1.43467627837E+02	-5.95923192170E+00	-4.53032266920E-01
7.88209801089E+05	-8.92284157050E+00	-1.79975489575E+02	1.00067328426E+01	1.77000876116E+02	-4.18716283835E+01	-6.73077333235E+01	-5.96697494362E+00	-9.19217037744E-01
8.10401155684E+05	-1.07387155115E+01	1.65261337567E+02	9.94296009181E+00	1.76640609056E+02	-4.68076642730E+01	1.59731470107E+01	-5.94429437164E+00	-8.00238705528E-01
8.32592510279E+05	-1.14546430852E+01	1.74482767528E+02	9.92180894915E+00	1.76919135583E+02	-3.53677284054E+01	-1.41459417638E+02	-6.01070134996E+00	-7.13975984466E-01
8.54783864874E+05	-1.09655809369E+01	-1.75983582528E+02	9.94241220424E+00	1.76686850627E+02	-3.10967792936E+01	1.74741962178E+01	-6.04374797100E+00	-2.24208631608E-01
8.76975219469E+05	-1.08275689453E+01	-1.56269624309E+02	9.98673254828E+00	1.76578973943E+02	-4.55252955496E+01	-5.43078843635E+01	-6.01196188139E+00	-6.86079677506E-01
8.99166574064E+05	-1.32506196904E+01	-1.79153054369E+02	9.93927956866E+00	1.76428143802E+02	-4.15885432277E+01	-1.23421586738E+02	-5.92402939452E+00	-7.63599902236E-01
9.21357928659E+05	-8.73321994375E+00	-1.79110112773E+02	9.96502314219E+00	1.75877241441E+02	-4.27283125561E+01	1.76954976723E+02	-5.98565521653E+00	-6.63569604082E-01
9.43549283254E+05	-1.32968468602E+01	1.72982173857E+02	9.95243964667E+00	1.75762454806E+02	-4.70711820945E+01	-1.53441270681E+01	-6.01156850297E+00	-6.22893008567E-01
9.65740637849E+05	-1.26975171187E+01	1.65543959700E+02	9.99897438876E+00	1.75740301450E+02	-4.54527887660E+01	4.20448977126E+01	-5.94966438916E+00	-4.75640347423E-01
9.87931992444E+05	-9.80655384605E+00	1.70232380343E+02	9.91774987791E+00	1.75751495519E+02	-4.26405887416E+01	2.64369806539E+01	-5.94911919673E+00	-4.87128948245E-01
1.01012334704E+06	-9.77107195994E+00	1.78888676431E+02	9.94763903099E+00	1.75379020938E+02	-5.03490113014E+01	3.19643915424E+01	-5.94028356399E+00	-3.59866736708E-01
1.03231470163E+06	-9.88895676185E+00	1.79590359956E+02	9.95202320093E+00	1.75481919801E+02	-4.54228126322E+01	-1.20901383271E+02	-5.98043294335E+00	-4.85794647348E-01
1.05450605623E+06	-8.57296681224E+00	1.78632216474E+02	9.99056579198E+00	1.75120602139E+02	-3.03552243438E+01	4.61849463477E+01	-5.99320439232E+00	-6.74803202092E-01
1.07669741082E+06	-9.91164492287E+00	-1.68943964772E+02	9.96803237866E+00	1.75315556672E+02	-3.96984120051E+01	-1.33597455632E+02	-5.97517861659E+00	-5.64651431710E-01
1.09888876542E+06	-8.87598289658E+00	1.78021347256E+02	9.91249191110E+00	1.74804313456E+02	-4.31213634089E+01	-1.38655355665E+02	-5.93317674976E+00	-5.81721982593E-01
1.12108012001E+06	-8.57919625810E+00	1.72767208037E+02	1.00173774205E+01	1.74717882587E+02	-3.79493875219E+01	-1.76682505885E+02	-5.95917444257E+00	-7.99315862829E-01
1.14327147461E+06	-9.79380655680E+00	1.61263655842E+02	9.98255908204E+00	1.74613580052E+02	-3.30615250227E+01	7.58571399251E+01	-5.98598144285E+00	-5.00779273891E-01
1.16546282920E+06	-1.04398191062E+01	1.78018487114E+02	9.97546458756E+00	1.74668753665E+02	-3.68119176795E+01	8.82235649547E+01	-5.97907828220E+00	-7.02967270307E-01
1.18765418380E+06	-1.13645870366E+01	-1.57979879144E+02	9.90860900721E+00	1.74422430828E+02	-4.31486910745E+01	1.32709644923E+02	-5.94721058933E+00	-9.48651808161E-01
1.20984553839E+06	-9.95802350543E+00	1.64596988243E+02	1.00039961146E+01	1.74636923470E+02	-4.06827802864E+01	-1.45817836673E+02	-5.97914412050E+00	-7.29724366448E-01
1.23203689299E+06	-1.17009517774E+01	1.65197395081E+02	9.97433180041E+00	1.73888062974E+02	-4.28409365482E+01	-1.02633247855E+02	-5.99833791314E+00	-6.25044844972E-01
1.25422824758E+06	-8.38194663543E+00	1.61570562560E+02	9.95385542729E+00	1.73648681307E+02	-3.61592355933E+01	-7.78787633008E+01	-5.94485257176E+00	-5.31023062407E-01
1.27641960218E+06	-7.12054780882E+00	-1.66717867666E+02	9.93230005360E+00	1.73804655274E+02	-4.50112913663E+01	-9.24872872539E+01	-6.01269319517E+00	-6.51750819484E-01
1.29861095677E+06	-1.01173608755E+01	1.68157003474E+02	9.89585811969E+00	1.73823555912E+02	-6.03986865557E+01	3.66560924052E+01	-5.96502502296E+00	-3.58534311606E-01
1.32080231137E+06	-1.01440593414E+01	-1.74325490511E+02	9.94119292378E+00	1.74052916281E+02	-4.22429518256E+01	-1.57607338337E+02	-5.93196558706E+00	-1.05633662412E+00
1.34299366596E+06	-1.11918126213E+01	-1.69383835608E+02	9.95417145449E+00	1.73341528003E+02	-3.34235231250E+01	-1.48817321208E+02	-5.95762116831E+00	-9.53851024622E-01
1.36518502056E+06	-9.20398401089E+00	-1.61178553134E+02	9.99107488112E+00	1.73990945463E+02	-3.65788953167E+01	-1.31520710243E+01	-5.94313421365E+00	-4.63906935157E-01
1.38737637515E+06	-8.99691477061E+00	1.74549117932E+02	9.96285070376E+00	1.73059191025E+02	-3.89462228254E+01	1.18499973407E+02	-5.94188634560E+00	-6.16571125125E-01
1.40956772975E+06	-1.42514092990E+01	1.52021486179E+02	9.93794314506E+00	1.72871043781E+02	-4.17870310981E+01	1.75608330183E+02	-5.96814322129E+00	-1.10903099055E+00
1.43175908434E+06	-9.73480756446E+00	1.78734208621E+02	9.99895653379E+00	1.72949231512E+02	-3.74102458930E+01	1.37769275619E+02	-6.00528399001E+00	-4.84813416566E-01
1.45395043894E+06	-7.96758078524E+00	1.73209961740E+02	9.96086386341E+00	1.72881020555E+02	-4.72752828235E+01	3.36740646783E+01	-5.94891349386E+00	-5.80267989777E-01
1.47614179353E+06	-7.99722236088E+00	1.59248838298E+02	9.92344076025E+00	1.72229428463E+02	-4.35356763991E+01	1.02554369458E+02	-5.95637913792E+00	-6.11589969861E-01
1.49833314813E+06	-8.80493943171E+00	-1.74566730923E+02	9.92512272253E+00	1.72238050214E+02	-4.01295829485E+01	-1.22257385933E+02	-5.95065320420E+00	-4.60313061491E-01
1.52052450272E+06	-8.43935921783E+00	1.72119853208E+02	9.91706708396E+00	1.72256470974E+02	-4.95325324941E+01	1.21571269316E+02	-5.99707635611E+00	-9.38216530960E-01
1.54271585732E+06	-1.11269991148E+01	-1.43679344701E+02	9.97750620935E+00	1.72314138446E+02	-5.18272081879E+01	1.61274302524E+02	-5.98669027006E+00	-7.49600729202E-01
1.56490721191E+06	-1.02834824727E+01	1.55764768706E+02	9.96766562849E+00	1.72146715726E+02	-3.65421901385E+01	1.17179079320E+02	-5.98887579426E+00	-6.98505294527E-01
1.58709856651E+06	-2.08872538802E+01	-1.53001904610E+02	9.99480948710E+00	1.71971957042E+02	-3.57630082341E+01	6.39296832326E+01	-5.95358176140E+00	-8.30611721683E-01
1.60928992110E+06	-1.39341755512E+01	1.76572996541E+02	9.99317617614E+00	1.72041542160E+02	-4.59638581273E+01	-5.60639456315E+01	-5.97879146137E+00	-8.73350934661E-01
1.63148127570E+06	-1.10937661587E+01	-1.58341083713E+02	9.98728156988E+00	1.71904137326E+02	-3.98133017754E+01	1.17173108561E+02	-5.94824413123E+00	-7.21524037414E-01
1.65367263029E+06	-8.69243734879E+00	-1.73541058976E+02	9.95432895892E+00	1.71377979671E+02	-4.33587828960E+01	6.71765135190E+01	-5.99578957331E+00	-8.59826533539E-01
1.67586398489E+06	-1.05621376260E+01	1.70887170506E+02	9.96344170345E+00	1.71259349527E+02	-4.42638439702E+01	-1.45776789561E+02	-5.98257084286E+00	-9.80456618957E-01
1.69805533948E+06	-1.17232341463E+01	1.61528810726E+02	9.91332462300E+00	1.71543182909E+02	-4.28555828395E+01	9.36863637454E+01	-5.97806168815E+00	-8.82743429032E-01
1.72024669408E+06	-1.06616986726E+01	1.70885797168E+02	9.93949349309E+00	1.71192138834E+02	-4.61371827123E+01	-1.50991801164E+02	-5.93619974882E+00	-1.27403477683E+00
1.74243804867E+06	-8.76945236877E+00	1.77260914359E+02	9.94617042098E+00	1.70912800935E+02	-3.56147474752E+01	9.85141429362E+01	-5.97801268050E+00	-6.46622401063E-01
1.76462940327E+06	-1.33712279140E+01	-1.63371730543E+02	9.96996527032E+00	1.70794715995E+02	-4.00576518560E+01	1.07887678264E+02	-5.96190259762E+00	-8.79300983426E-01
1.78682075786E+06	-7.92653973663E+00	-1.73314829485E+02	9.93003729245E+00	1.70353466042E+02	-3.79141706903E+01	1.95360365014E+01	-5.97844318524E+00	-7.95940025708E-01
1.80901211246E+06	-1.06298109176E+01	-1.76191334577E+02	9.95258806179E+00	1.70644764738E+02	-4.08300182663E+01	2.50483023471E+01	-5.99381464144E+00	-9.17669131289E-01
1.83120346705E+06	-1.86426332524E+01	-1.65456599219E+02	9.90927211885E+00	1.70412515820E+02	-3.68759966944E+01	3.16450484864E+01	-5.93826921206E+00	-1.03064857854E+00
1.85339482165E+06	-5.89612035228E+00	-1.75219378716E+02	1.01298281822E+01	1.69969007952E+02	-3.94722449256E+01	3.48453583841E+01	-5.95739922748E+00	-8.73445263707E-01
1.87558617624E+06	-1.26824986869E+01	1.75341299877E+02	9.93850900377E+00	1.70168917277E+02	-3.62072645507E+01	1.40422097214E+02	-5.93702003904E+00	-9.66638335578E-01
1.89777753084E+06	-1.04363360962E+01	-1.44482091699E+02	9.95785842775E+00	1.69979840780E+02	-4.27694654174E+01	-4.62522015709E+01	-5.90759778747E+00	-6.46687476667E-01
1.91996888543E+06	-6.64753099342E+00	-1.77084775807E+02	9.87079875349E+00	1.69847420487E+02	-3.60413554994E+01	-4.22269622464E+01	-5.99711979599E+00	-1.12574994896E+00
1.94216024003E+06	-1.07208426922E+01	-1.69741524139E+02	9.96070574695E+00	1.69646563865E+02	-3.85474435453E+01	-2.70135058946E+01	-5.98067267882E+00	-8.03818202083E-01
1.96435159462E+06	-1.15517381959E+01	-1.49008636453E+02	9.92059361313E+00	1.69624189012E+02	-3.83437304134E+01	1.56320321435E+02	-5.94566906278E+00	-9.73868994689E-01
1.98654294922E+06	-1.10263869596E+01	-1.71167766018E+02	9.96580602037E+00	1.69409335438E+02	-4.35677475564E+01	-1.44480791597E+02	-5.94666399272E+00	-8.45133964149E-01
2.00873430381E+06	-1.23229770678E+01	-1.65679219334E+02	9.95272184631E+00	1.70071558892E+02	-3.91164965930E+01	7.13672954945E+01	-5.95141942629E+00	-9.70826581178E-01
2.03092565841E+06	-8.13940854520E+00	1.75293517522E+02	9.98061359425E+00	1.68983979532E+02	-4.41768821697E+01	5.63214331801E+01	-5.91428679706E+00	-9.06529654835E-01
2.05311701300E+06	-9.15544900835E+00	-1.74534674673E+02	9.96935660726E+00	1.69110486270E+02	-3.30167788720E+01	-4.20388660701E+00	-5.92236353727E+00	-7.07189077709E-01
2.07530836760E+06	-7.79676698560E+00	1.78400179882E+02	1.00051821506E+01	1.69217776813E+02	-4.10191313724E+01	-1.20892568805E+02	-5.97978300539E+00	-1.16133475363E+00
2.09749972219E+06	-8.44815434081E+00	-1.71250709071E+02	9.98798499932E+00	1.68916745175E+02	-3.46134336499E+01	8.75920513343E+01	-5.96990335463E+00	-8.52047406810E-01
2.11969107679E+06	-8.86562124420E+00	1.55991844665E+02	9.94775672605E+00	1.68866423369E+02	-4.03347301399E+01	-1.71004684773E+01	-5.95264789250E+00	-1.16912176938E+00
2.14188243138E+06	-6.55766086228E+00	-1.67851387136E+02	9.92064730736E+00	1.69010900697E+02	-3.65216013679E+01	7.52910929156E+01	-5.96812596334E+00	-9.91494136960E-01
2.16407378598E+06	-9.42123831776E+00	-1.77118252564E+02	9.93565903642E+00	1.68294734885E+02	-4.29495689501E+01	-1.95025009195E+01	-5.96691865504E+00	-1.17322564896E+00
2.18626514057E+06	-1.23551678514E+01	-1.65672142150E+02	9.98413909185E+00	1.68246965781E+02	-6.21854201143E+01	-1.07584278546E+02	-5.92672274032E+00	-6.90950884722E-01
2.20845649517E+06	-8.37773653174E+00	-1.79962161155E+02	9.95929643184E+00	1.68238910992E+02	-3.94236906144E+01	7.03609657587E+01	-5.89541443689E+00	-8.53219714877E-01
2.23064784976E+06	-9.28310750846E+00	-1.65713972561E+02	9.96278045648E+00	1.68071628845E+02	-3.62811004581E+01	5.05592635679E+01	-5.93022630642E+00	-1.04870794878E+00
2.25283920436E+06	-8.52285312747E+00	1.73097955305E+02	9.94415662466E+00	1.68108535873E+02	-3.75110558401E+01	1.70607529572E+01	-5.92352156814E+00	-1.04079942632E+00
2.27503055895E+06	-1.16351022024E+01	1.78931039162E+02	9.98934942986E+00	1.68075448022E+02	-4.03392833772E+01	-1.58270713366E+01	-5.94851907366E+00	-1.07870817274E+00
2.29722191355E+06	-1.10339281433E+01	1.61308815979E+02	9.98324159697E+00	1.67595507511E+02	-5.82915403966E+01	1.55822533853E+02	-5.97427129428E+00	-8.66182734481E-01
2.31941326814E+06	-1.06663290254E+01	-1.76442727526E+02	9.94947213730E+00	1.67864737442E+02	-3.72925677626E+01	-8.62373189707E+01	-5.99715947226E+00	-1.19456601027E+00
2.34160462274E+06	-1.59218691591E+01	1.61355956553E+02	9.95295566211E+00	1.67333426056E+02	-5.06701710218E+01	1.35060845406E+02	-5.98686376125E+00	-1.17105941915E+00
2.36379597733E+06	-8.05113815685E+00	1.69490735249E+02	9.96794420432E+00	1.67302122450E+02	-3.64339524821E+01	-1.52009645564E+02	-6.03265432541E+00	-1.05734298212E+00
2.38598733193E+06	-1.38302875980E+01	-1.75675851943E+02	9.96678041873E+00	1.67605809215E+02	-4.23877730888E+01	-1.46813439518E+02	-5.99372186974E+00	-1.04032612517E+00
2.40817868652E+06	-7.26696667561E+00	-1.59896453342E+02	9.89440342000E+00	1.67202252373E+02	-3.88142057856E+01	1.23615427989E+02	-5.96396550898E+00	-1.15209038259E+00
2.43037004112E+06	-9.04774108827E+00	1.76415912558E+02	9.91845062638E+00	1.67156498299E+02	-4.40706190835E+01	4.74030457424E+01	-5.93862750115E+00	-1.41169747582E+00
2.45256139571E+06	-7.85796325365E+00	-1.69469144550E+02	9.91997230978E+00	1.66970413263E+02	-4.15722717823E+01	1.59664888830E+02	-5.96018860614E+00	-8.88701811462E-01
2.47475275031E+06	-9.79690415158E+00	-1.55765759560E+02	9.87960397649E+00	1.67889624478E+02	-4.74142632906E+01	2.48755293013E+01	-5.97615383176E+00	-1.01575859263E+00
2.49694410490E+06	-9.79416644666E+00	-1.62896184970E+02	9.97122851293E+00	1.66573950036E+02	-3.68967870977E+01	-5.24680980799E+01	-5.90743041037E+00	-1.18560441989E+00
2.51913545950E+06	-9.96338641357E+00	-1.56535760529E+02	9.95579756616E+00	1.66538643644E+02	-3.61869445888E+01	-7.78417269511E+01	-5.95686053766E+00	-1.74872350130E+00
2.54132681409E+06	-1.09913998612E+01	-1.57000133961E+02	9.96118097441E+00	1.66495063516E+02	-4.64733583099E+01	-1.40066314863E+01	-5.95047502445E+00	-1.18955035930E+00
2.56351816869E+06	-1.08153787863E+01	-1.60786496845E+02	9.96609059977E+00	1.66332297370E+02	-3.83963430632E+01	6.72436360267E+01	-5.97106247005E+00	-9.29999228194E-01
2.58570952328E+06	-9.95482324829E+00	-1.63366579049E+02	9.96041453116E+00	1.66453550913E+02	-4.12727524602E+01	4.83984096284E+01	-6.01554670631E+00	-1.10564150280E+00
2.60790087788E+06	-9.68663329556E+00	-1.69988614702E+02	9.96959940159E+00	1.66080662123E+02	-4.34437407706E+01	-1.46797210863E+02	-5.92734803107E+00	-1.17229650911E+00
2.63009223247E+06	-1.14050566048E+01	-1.40822853470E+02	9.86259017115E+00	1.66388874148E+02	-4.73705110010E+01	1.58520302751E+02	-5.97851018673E+00	-1.07146119628E+00
2.65228358707E+06	-1.21827746653E+01	-1.74801679780E+02	9.94411892693E+00	1.65739349600E+02	-4.15608021526E+01	-1.76376391286E+02	-5.97146183396E+00	-1.44841747282E+00
2.67447494166E+06	-1.37546758173E+01	1.65378628041E+02	9.93308992128E+00	1.65794187447E+02	-3.98742174811E+01	-7.01769710424E+01	-5.97994708783E+00	-1.80124810150E+00
2.69666629626E+06	-1.08054238902E+01	1.64582091840E+02	9.99864845919E+00	1.65531604659E+02	-3.93128755098E+01	-1.30937899183E+02	-5.97060017359E+00	-1.20393949937E+00
2.71885765085E+06	-1.25242412725E+01	-1.59015907492E+02	9.93420193509E+00	1.65595134409E+02	-4.23895718145E+01	-1.46017286101E+02	-5.91802690186E+00	-1.49341683656E+00
2.74104900545E+06	-1.02550060969E+01	-1.78220071242E+02	9.91207036268E+00	1.65618088034E+02	-4.03570258462E+01	1.35906015028E+01	-5.96007598680E+00	-1.47326708092E+00
2.76324036004E+06	-9.50086570260E+00	1.63631529052E+02	9.93886847190E+00	1.65069866370E+02	-4.28017813971E+01	1.10895517109E+02	-5.95413662446E+00	-1.32382444193E+00
2.78543171463E+06	-9.48668529990E+00	-1.76700310107E+02	9.95238247664E+00	1.65394437058E+02	-4.88074904613E+01	-2.85416970020E+01	-6.03399988454E+00	-1.46020834362E+00
2.80762306923E+06	-9.34290171472E+00	-1.71662257218E+02	1.00045627117E+01	1.64876113326E+02	-4.25558855512E+01	-2.06496710211E+01	-5.97108656680E+00	-1.26149165581E+00
2.82981442382E+06	-1.04641983329E+01	1.78771786898E+02	9.97884717621E+00	1.64464585277E+02	-4.07293037833E+01	-4.08653980122E+01	-5.96866111249E+00	-1.40364675371E+00
2.85200577842E+06	-1.27622827961E+01	-1.48111331723E+02	9.99287915148E+00	1.64721110942E+02	-3.54715366682E+01	-1.20023305135E+02	-5.94263853609E+00	-1.25344081959E+00
2.87419713301E+06	-1.07299407852E+01	-1.79763178536E+02	9.95656332547E+00	1.64669969803E+02	-4.06150765034E+01	-1.61740651862E+02	-5.93714033756E+00	-1.36259970215E+00
