# Hz S DB R 50
! CMT, M5065, 19127446, 24.2.4/2
! Date: 10/29/2024 11:51:16 AM
! Data: Format (Calibration Info)
! Freq	S11:dB/Ang(F2)	S21:dB/Ang(F2)	S12:dB/Ang(F2)	S22:dB/Ang(F2)
3.00000000000E+05	-8.90512104567E+00	-1.68419174216E+02	5.39602249367E+00	-1.78246625182E+02	-4.90522418109E+01	2.85281233984E+01	-5.96829351997E+00	-7.09637764696E-02
3.22191354595E+05	-1.05841713455E+01	-1.67734838997E+02	5.32163830293E+00	-1.78511011136E+02	-4.58331985671E+01	-1.66336715280E+02	-5.97027004045E+00	-2.70823814078E-01
3.44382709190E+05	-1.03976047653E+01	-1.79305093372E+02	5.45165687436E+00	-1.78843847785E+02	-5.77590801705E+01	3.75343819617E+01	-6.00545101604E+00	-2.83226521403E-01
3.66574063785E+05	-1.05756272098E+01	-1.78497627016E+02	5.41574414393E+00	-1.79035231601E+02	-4.73497116462E+01	8.88605053458E+01	-5.97189515155E+00	-2.23874010127E-01
3.88765418380E+05	-9.84831457709E+00	-1.66357604057E+02	5.46189603762E+00	-1.79247083624E+02	-4.94481433474E+01	1.51585984191E+02	-5.97586629146E+00	-2.54882384242E-01
4.10956772975E+05	-1.16268607347E+01	-1.53300529319E+02	5.39705926864E+00	-1.79389287124E+02	-4.61465491875E+01	-4.55286566245E+00	-5.97707054098E+00	-3.09563157144E-01
4.33148127570E+05	-1.12638801405E+01	-1.77861289574E+02	5.37525951091E+00	-1.79729036547E+02	-5.54087321483E+01	4.82689959379E+01	-5.96332209153E+00	-3.08531251174E-01
4.55339482165E+05	-1.13587964876E+01	1.77591044395E+02	5.41951245021E+00	-1.79895839996E+02	-5.80823417795E+01	1.11809084365E+02	-5.97643921716E+00	-3.12924078942E-01
4.77530836760E+05	-1.04007840159E+01	-1.65611771568E+02	5.40621600604E+00	1.79924617275E+02	-5.14956206646E+01	1.35341883518E+02	-5.97554202473E+00	-3.87299749540E-01
4.99722191355E+05	-1.06549780266E+01	-1.74950716157E+02	5.40489674885E+00	1.79940424417E+02	-5.86913989007E+01	-3.59892335568E+01	-5.98869071112E+00	-3.28109618964E-01
5.21913545950E+05	-9.77843939056E+00	-1.63256478541E+02	5.40601143314E+00	1.79725942525E+02	-4.85819881621E+01	6.11086693730E+01	-5.96759014698E+00	-3.35302806611E-01
5.44104900545E+05	-1.04824423792E+01	-1.58717393156E+02	5.41983511486E+00	1.79730983611E+02	-5.04647912905E+01	1.02326851323E+02	-5.95760024242E+00	-3.02135359632E-01
5.66296255139E+05	-9.05253637207E+00	-1.71453554032E+02	5.39538324588E+00	1.78876519037E+02	-4.55387329504E+01	1.49861206477E+02	-5.97859912315E+00	-3.29193067062E-01
5.88487609734E+05	-1.28522622389E+01	1.78591040315E+02	5.38621671838E+00	1.79123779966E+02	-5.38217980500E+01	1.63765025115E+02	-5.98498343537E+00	-5.24989712796E-01
6.10678964329E+05	-9.84602962521E+00	-1.68004883237E+02	5.39834815999E+00	1.79019826559E+02	-5.75511767863E+01	-5.74083023910E+01	-5.97885051365E+00	-1.50947010062E-01
6.32870318924E+05	-9.55265741675E+00	-1.76014608317E+02	5.42499117380E+00	1.78729886573E+02	-4.57419064248E+01	8.41775632568E+01	-5.98431701495E+00	-3.95339572488E-01
6.55061673519E+05	-1.04637198583E+01	1.74118342031E+02	5.40252805775E+00	1.78581965693E+02	-5.27452900812E+01	5.05296899300E+01	-5.98074402467E+00	-1.79185261711E-01
6.77253028114E+05	-8.88830956082E+00	-1.79873014608E+02	5.40645988077E+00	1.78552230565E+02	-4.75430924439E+01	9.13417881410E+00	-5.96726831966E+00	-5.27553647176E-01
6.99444382709E+05	-1.02479924985E+01	-1.78236786622E+02	5.42115271284E+00	1.78265290593E+02	-3.94534590190E+01	-4.35719598555E+01	-5.96922823935E+00	-4.59029837359E-01
7.21635737304E+05	-1.04704690585E+01	1.79394402608E+02	5.39857953799E+00	1.77943307052E+02	-5.32294455020E+01	-5.16834516711E+01	-5.94440792090E+00	-4.92884697831E-01
7.43827091899E+05	-1.10396960518E+01	1.75549837983E+02	5.40542161018E+00	1.78252454864E+02	-5.02991082106E+01	-1.43969652880E+02	-5.97112552469E+00	-4.51653730293E-01
7.66018446494E+05	-9.31332271395E+00	-1.78032849361E+02	5.40574953683E+00	1.77610269635E+02	-4.59160991925E+01	7.28814507648E+01	-5.96977809404E+00	-4.37422621946E-01
7.88209801089E+05	-1.05231319502E+01	-1.74781185547E+02	5.41434546415E+00	1.77765732608E+02	-4.20903409551E+01	-8.62775365128E+01	-5.98460510363E+00	-4.69424110505E-01
8.10401155684E+05	-1.12168742527E+01	-1.73393314105E+02	5.45406622758E+00	1.77745414995E+02	-4.61912196921E+01	1.49489894384E+02	-5.95773625689E+00	-4.83438525403E-01
8.32592510279E+05	-8.74832649566E+00	1.75996918386E+02	5.36950657646E+00	1.77417847122E+02	-5.15216346918E+01	2.17688519783E-01	-5.99512584228E+00	-4.13786463564E-01
8.54783864874E+05	-9.13281078761E+00	-1.77674938228E+02	5.40118623938E+00	1.77330612231E+02	-5.56005813368E+01	2.58596162809E+01	-5.95750231681E+00	-4.64680647252E-01
8.76975219469E+05	-1.00306125550E+01	-1.79337962529E+02	5.43307350562E+00	1.77457523230E+02	-6.19429598332E+01	-1.30311171807E+02	-5.95939620025E+00	-4.29320486495E-01
8.99166574064E+05	-9.95073904929E+00	-1.71142093961E+02	5.42884444597E+00	1.77309511136E+02	-5.08448318520E+01	-2.27513277747E+01	-5.95898916857E+00	-3.77104171380E-01
9.21357928659E+05	-1.03650232206E+01	-1.66962022120E+02	5.43631546674E+00	1.77123039048E+02	-4.44710884787E+01	4.84250255572E+01	-5.99302307064E+00	-5.67847674341E-01
9.43549283254E+05	-9.94894686435E+00	1.79281685092E+02	5.41008482896E+00	1.76773957813E+02	-4.53070849886E+01	-1.47790487953E+02	-5.96206125410E+00	-7.02687153744E-01
9.65740637849E+05	-1.06495639152E+01	-1.79389157627E+02	5.45872836886E+00	1.76840849931E+02	-4.85267498859E+01	-1.67359701873E+02	-5.95414192108E+00	-5.25492836092E-01
9.87931992444E+05	-8.21466088434E+00	1.73980984290E+02	5.42209316409E+00	1.76245978706E+02	-4.57442129554E+01	-1.08412167828E+02	-5.96141773562E+00	-5.96890865564E-01
1.01012334704E+06	-8.97876447180E+00	-1.62761328554E+02	5.41093035251E+00	1.76555224342E+02	-4.81477123759E+01	-2.38490713136E+01	-5.96524695823E+00	-6.71823080383E-01
1.03231470163E+06	-9.60264423134E+00	-1.73650458232E+02	5.43450232220E+00	1.76137691353E+02	-4.69625504350E+01	1.23705973231E+02	-5.97943270379E+00	-4.59319726113E-01
1.05450605623E+06	-1.17024045750E+01	-1.76376965021E+02	5.44015943483E+00	1.76036498668E+02	-5.16335247299E+01	1.10413490356E+02	-5.97658558444E+00	-6.35435695725E-01
1.07669741082E+06	-1.13206590770E+01	-1.66137674898E+02	5.39266619426E+00	1.76190538399E+02	-5.32689802658E+01	-1.04109396716E+02	-5.97305644525E+00	-6.60512974183E-01
1.09888876542E+06	-9.76978926232E+00	1.79076639799E+02	5.42939039832E+00	1.76070915235E+02	-4.24997988462E+01	5.00233258726E+01	-5.98140621462E+00	-6.05601961372E-01
1.12108012001E+06	-1.26007008502E+01	-1.64818372108E+02	5.38890954420E+00	1.75621329917E+02	-5.47664394898E+01	-4.76665506600E+01	-5.98085363646E+00	-4.15703061888E-01
1.14327147461E+06	-9.66193229820E+00	1.64838034924E+02	5.42023530919E+00	1.75769542853E+02	-4.26311086198E+01	-1.12750161224E+02	-5.98832344657E+00	-6.16920410100E-01
1.16546282920E+06	-9.99400088404E+00	-1.70404572747E+02	5.43088264198E+00	1.75487136991E+02	-5.59715328440E+01	-5.31972462305E+00	-5.97150460638E+00	-6.22111189084E-01
1.18765418380E+06	-1.16220129792E+01	-1.74311275062E+02	5.40692529610E+00	1.75532404039E+02	-4.79030745875E+01	-3.85206516848E+01	-5.95541441819E+00	-7.37914912182E-01
1.20984553839E+06	-1.03658652295E+01	1.78879543420E+02	5.40514659110E+00	1.75177023167E+02	-5.63036487670E+01	-5.68337316439E+00	-5.96805120357E+00	-9.49023366233E-01
1.23203689299E+06	-9.12293412183E+00	-1.69451605250E+02	5.42078989685E+00	1.75386097790E+02	-4.44246266162E+01	8.18577943017E+01	-5.98872163634E+00	-5.81719941686E-01
1.25422824758E+06	-1.15160379208E+01	-1.77347485038E+02	5.40814358654E+00	1.74837985435E+02	-4.93718112953E+01	1.06119064922E+02	-5.99972420952E+00	-7.22396224969E-01
1.27641960218E+06	-1.03246250968E+01	1.74510749773E+02	5.46369013629E+00	1.74963885643E+02	-4.32004554126E+01	6.08682343495E+01	-5.98650662115E+00	-6.56419695985E-01
1.29861095677E+06	-8.49285514507E+00	-1.79911568616E+02	5.38169807394E+00	1.74660415788E+02	-4.98250223722E+01	1.01956357790E+02	-5.97398604729E+00	-6.24921229985E-01
1.32080231137E+06	-9.53736718689E+00	-1.76225637612E+02	5.40035010395E+00	1.74714923620E+02	-4.47767829129E+01	-5.34917274389E+01	-5.96614005868E+00	-9.34919388892E-01
1.34299366596E+06	-1.01397104019E+01	-1.64305123887E+02	5.39653342980E+00	1.74930020787E+02	-4.16877052325E+01	-1.36573209331E+02	-5.95555043259E+00	-9.05392921153E-01
1.36518502056E+06	-1.06390849491E+01	-1.78131588818E+02	5.34277664302E+00	1.74651315058E+02	-3.81327928756E+01	4.79211785515E+01	-5.97392830336E+00	-5.57860251506E-01
1.38737637515E+06	-1.11527614754E+01	1.71906647380E+02	5.42928037950E+00	1.74473607610E+02	-4.59862313452E+01	-1.46004287948E+02	-6.00002256680E+00	-7.65230353239E-01
1.40956772975E+06	-1.22671593134E+01	-1.63442219805E+02	5.42138401724E+00	1.74660166681E+02	-4.50891328414E+01	-9.13032370944E+01	-5.98154116724E+00	-6.52185178764E-01
1.43175908434E+06	-9.44212754069E+00	-1.71810678492E+02	5.43855884152E+00	1.74020816829E+02	-4.10552280878E+01	1.70959023110E+02	-5.97890821378E+00	-6.61914935442E-01
1.45395043894E+06	-9.55456684324E+00	-1.69728066031E+02	5.44387903213E+00	1.74312243781E+02	-5.30850843426E+01	8.95463166481E+01	-5.99274685539E+00	-6.38145061142E-01
1.47614179353E+06	-8.51902959576E+00	1.72380393654E+02	5.43263523511E+00	1.74042027820E+02	-4.47994867577E+01	1.31649321661E+02	-5.97422339918E+00	-6.72898477298E-01
1.49833314813E+06	-1.15333972156E+01	-1.73393897408E+02	5.38225014651E+00	1.74278163861E+02	-4.80146837406E+01	9.99000836508E+01	-5.96788969132E+00	-7.15714192226E-01
1.52052450272E+06	-9.60246434870E+00	1.69423151273E+02	5.41448193650E+00	1.73354616215E+02	-5.70526561010E+01	-1.43677320842E+02	-5.97030924705E+00	-8.22246834652E-01
1.54271585732E+06	-7.92675963426E+00	1.70214104511E+02	5.42665911656E+00	1.73615262603E+02	-4.46951157866E+01	3.59059685546E+01	-5.93505307697E+00	-7.66636082310E-01
1.56490721191E+06	-9.81478285658E+00	-1.76002099588E+02	5.39497759116E+00	1.73518824711E+02	-4.72136897951E+01	-9.77035741892E+01	-5.96924839564E+00	-7.47797569253E-01
1.58709856651E+06	-9.12194654662E+00	-1.70627882817E+02	5.43761744697E+00	1.73514263979E+02	-4.34472805718E+01	-7.65845986510E+00	-5.96585098969E+00	-7.79388682921E-01
1.60928992110E+06	-1.03496685535E+01	1.72787477035E+02	5.37166257934E+00	1.73300000737E+02	-5.29784071305E+01	-1.27528184061E+02	-5.97552101370E+00	-7.59052587453E-01
1.63148127570E+06	-8.80436232395E+00	1.74268944393E+02	5.43244948144E+00	1.73503976485E+02	-4.21160580294E+01	-1.35660220669E+02	-5.96549469448E+00	-8.83479617620E-01
1.65367263029E+06	-9.22673785885E+00	-1.76968838235E+02	5.43799127038E+00	1.73035655134E+02	-4.21085516427E+01	-1.38654315510E+02	-5.96173644697E+00	-7.71075956661E-01
1.67586398489E+06	-1.05708792052E+01	1.79269570872E+02	5.40876881550E+00	1.73250947577E+02	-4.62383184314E+01	-1.34611752357E+02	-5.95744426507E+00	-8.95984167108E-01
1.69805533948E+06	-8.99555814956E+00	1.75824307179E+02	5.42708035619E+00	1.72723392976E+02	-4.39495122236E+01	-5.93082239247E+01	-5.94098926828E+00	-6.80722897853E-01
1.72024669408E+06	-9.96360098852E+00	1.77326029932E+02	5.41221689565E+00	1.72496615064E+02	-4.80740303257E+01	5.15605157840E+01	-5.97226395041E+00	-7.97447149697E-01
1.74243804867E+06	-1.05261490564E+01	1.69257456532E+02	5.40824567562E+00	1.72609605320E+02	-5.11442975743E+01	9.98727442623E+01	-5.97717648896E+00	-1.08669970797E+00
1.76462940327E+06	-8.97526766028E+00	1.71784955536E+02	5.40004652396E+00	1.72617891551E+02	-5.26235199288E+01	4.90424978846E-01	-5.97133934021E+00	-7.81583716224E-01
1.78682075786E+06	-1.05513388768E+01	-1.65444182925E+02	5.45876418810E+00	1.72536998128E+02	-4.51051167540E+01	-8.87470853376E+01	-5.95254231587E+00	-9.86988459997E-01
1.80901211246E+06	-8.86490258272E+00	-1.76022949716E+02	5.35317783251E+00	1.72302493100E+02	-5.12785806284E+01	-7.06473328423E+01	-5.95895775873E+00	-8.88731778115E-01
1.83120346705E+06	-1.12963984562E+01	-1.73321614487E+02	5.42278489750E+00	1.72372728785E+02	-3.83907804938E+01	-1.20321272358E+02	-5.96470062161E+00	-8.28155956522E-01
1.85339482165E+06	-8.11583353444E+00	1.79324596102E+02	5.40563512593E+00	1.72108454906E+02	-4.59545745089E+01	-1.03013929731E+02	-5.97094911841E+00	-8.39953420190E-01
1.87558617624E+06	-1.08550241819E+01	1.77493676959E+02	5.40581479868E+00	1.71966385785E+02	-4.47353220880E+01	-8.94318840496E+01	-5.97046954394E+00	-1.01747291421E+00
1.89777753084E+06	-1.00112155279E+01	-1.77742636371E+02	5.39320911579E+00	1.71837611538E+02	-4.71813999474E+01	-1.47746243115E+02	-5.94445272732E+00	-8.46725782880E-01
1.91996888543E+06	-1.17760740401E+01	-1.72467539452E+02	5.42814870406E+00	1.71937910358E+02	-5.39332609744E+01	-1.32286496830E+02	-5.97079749398E+00	-9.35838290548E-01
1.94216024003E+06	-8.29599893259E+00	1.78022080123E+02	5.42782418665E+00	1.71481015508E+02	-4.34912805831E+01	3.03087390143E+00	-5.96138224134E+00	-1.08449076275E+00
1.96435159462E+06	-8.51328263114E+00	1.72094562659E+02	5.40472218933E+00	1.71777487834E+02	-5.11254430075E+01	-4.04492032530E+01	-5.94741334609E+00	-9.51266531135E-01
1.98654294922E+06	-1.11000579766E+01	1.79470506987E+02	5.40144366681E+00	1.71399115623E+02	-3.66458998262E+01	-9.69786843197E+01	-5.99371811819E+00	-9.12125862594E-01
2.00873430381E+06	-1.00327728448E+01	-1.72896916230E+02	5.43821217964E+00	1.71381977849E+02	-4.79263469850E+01	-2.72207037107E+01	-5.98228094879E+00	-8.01465409677E-01
2.03092565841E+06	-1.18082257771E+01	1.79641946723E+02	5.40197528424E+00	1.71247206723E+02	-4.66210081413E+01	-1.43081873031E+02	-5.96700350046E+00	-9.24699903424E-01
2.05311701300E+06	-8.28561347101E+00	1.74206128776E+02	5.44176406892E+00	1.71109382082E+02	-5.33394807755E+01	1.42065677528E+02	-5.96404149743E+00	-9.99154946992E-01
2.07530836760E+06	-1.08616458953E+01	-1.77015450502E+02	5.42454827913E+00	1.71148790712E+02	-5.65902523529E+01	-1.21950534461E+02	-5.96631206818E+00	-8.62039238743E-01
2.09749972219E+06	-1.27253285001E+01	-1.67721437865E+02	5.36670006983E+00	1.71295054431E+02	-4.66855912280E+01	-1.05598273482E+01	-5.98497254018E+00	-1.11420399018E+00
2.11969107679E+06	-1.20105735385E+01	-1.77660291329E+02	5.43715483701E+00	1.71093702935E+02	-4.51889704722E+01	1.53847558562E+01	-5.95555290896E+00	-1.09420408443E+00
2.14188243138E+06	-9.31986530883E+00	1.73918702351E+02	5.41396170465E+00	1.70856002486E+02	-4.38407023292E+01	1.71044638393E+01	-5.98566332238E+00	-9.90000643950E-01
2.16407378598E+06	-9.86643445953E+00	-1.79676656771E+02	5.42166863482E+00	1.70958378148E+02	-4.94782601462E+01	4.87714302193E+01	-5.97087153381E+00	-1.07239618342E+00
2.18626514057E+06	-1.09350949413E+01	1.79946016302E+02	5.36957814260E+00	1.70720825183E+02	-6.46643443562E+01	-1.05792485574E+02	-5.97044057886E+00	-1.04992615039E+00
2.20845649517E+06	-1.15807837041E+01	-1.79074249671E+02	5.39337936161E+00	1.70808949500E+02	-5.56412557926E+01	7.42226545878E+01	-5.93245368778E+00	-9.41611033655E-01
2.23064784976E+06	-9.88368175460E+00	-1.73726842232E+02	5.37763859860E+00	1.70326925999E+02	-5.47649846343E+01	1.84464011228E+01	-5.94909669140E+00	-1.04937245624E+00
2.25283920436E+06	-1.39889386890E+01	1.76055777402E+02	5.39582994483E+00	1.70491620727E+02	-4.91155083709E+01	8.47045136256E+01	-5.97166674411E+00	-1.14405678953E+00
2.27503055895E+06	-9.75948621319E+00	-1.72486775769E+02	5.41530721849E+00	1.70160412775E+02	-4.83928043213E+01	-1.17075575008E+02	-5.97187445637E+00	-1.03165609535E+00
2.29722191355E+06	-1.09003233647E+01	-1.65085211041E+02	5.42254637815E+00	1.69894566384E+02	-4.46907821560E+01	-1.68292936672E+02	-5.99235642853E+00	-1.12700014468E+00
2.31941326814E+06	-1.03641810013E+01	-1.76669505938E+02	5.41180766611E+00	1.70145395353E+02	-5.71257237191E+01	9.66060944990E+01	-5.95222737240E+00	-1.06331879747E+00
2.34160462274E+06	-9.41760874379E+00	-1.76516549562E+02	5.35995754192E+00	1.70000786460E+02	-5.64118010844E+01	-5.78742556495E+01	-5.96015731617E+00	-1.17376831647E+00
2.36379597733E+06	-9.55845017189E+00	1.76752658930E+02	5.40743556863E+00	1.69617240134E+02	-4.47133852274E+01	6.81474554338E+00	-5.96987093541E+00	-1.24702909357E+00
2.38598733193E+06	-1.18257644721E+01	-1.67596338943E+02	5.38522557502E+00	1.69779278399E+02	-4.84302818769E+01	-1.35244549545E+02	-5.97519394951E+00	-1.05158844113E+00
2.40817868652E+06	-1.03236992329E+01	1.78587115029E+02	5.40563212812E+00	1.69481392907E+02	-4.65257480933E+01	1.46985198871E+02	-5.96263479060E+00	-1.09439371184E+00
2.43037004112E+06	-1.02132686685E+01	1.64692234639E+02	5.38464999482E+00	1.69398148923E+02	-4.42029311195E+01	-5.85340517828E+01	-5.94313455077E+00	-1.34391230141E+00
2.45256139571E+06	-1.03803991293E+01	-1.69597536476E+02	5.42963002248E+00	1.69540194289E+02	-4.62683506080E+01	1.86470087471E+01	-5.97170719709E+00	-9.85596538966E-01
2.47475275031E+06	-1.14501566071E+01	1.74055924614E+02	5.39122108947E+00	1.69144713592E+02	-5.09808925518E+01	1.41650767118E+02	-5.99496695115E+00	-1.14183847408E+00
2.49694410490E+06	-1.09241131251E+01	1.76844140348E+02	5.42311923711E+00	1.69449343361E+02	-4.51014886488E+01	-1.20665195915E+02	-5.98688960624E+00	-1.09911435742E+00
2.51913545950E+06	-1.19317785362E+01	-1.74473878659E+02	5.44787182850E+00	1.69292254851E+02	-4.16396653029E+01	5.89196207356E+01	-5.97909476168E+00	-8.97294416924E-01
2.54132681409E+06	-8.71702804155E+00	1.64332969090E+02	5.38885253187E+00	1.69261987536E+02	-4.97893207074E+01	-9.04890866957E+01	-5.96654861362E+00	-1.17831872383E+00
2.56351816869E+06	-1.14093914446E+01	1.74044225481E+02	5.45028560957E+00	1.69161097320E+02	-5.46034776434E+01	1.20250118800E+01	-5.96375697503E+00	-1.05069800205E+00
2.58570952328E+06	-1.05902948110E+01	1.73633803633E+02	5.44912128950E+00	1.68438261272E+02	-4.76488534985E+01	-1.63294744600E+02	-5.96255587701E+00	-1.38608820830E+00
2.60790087788E+06	-9.80156392523E+00	-1.76130310353E+02	5.42225320970E+00	1.68643594258E+02	-4.63801310900E+01	3.05682338609E+01	-5.96803436151E+00	-1.22779691504E+00
2.63009223247E+06	-1.29414069226E+01	1.66473460332E+02	5.41809825050E+00	1.68885033828E+02	-5.27746168946E+01	-3.60241503721E+01	-5.96623613475E+00	-1.11589698588E+00
2.65228358707E+06	-1.05448653509E+01	1.73315593522E+02	5.40953123236E+00	1.68417205907E+02	-4.91502634043E+01	3.38925978011E+01	-5.96022770619E+00	-1.59738088359E+00
2.67447494166E+06	-9.73503989548E+00	1.79058075355E+02	5.40981266048E+00	1.68293225302E+02	-4.42268600753E+01	1.51188735221E+02	-5.96359762421E+00	-1.34127528857E+00
2.69666629626E+06	-9.82603908840E+00	-1.76256404113E+02	5.42642862323E+00	1.68408042970E+02	-4.67965669087E+01	1.24730872773E+02	-5.94588137148E+00	-1.29080354783E+00
2.71885765085E+06	-1.01828031630E+01	-1.74667145553E+02	5.41988128315E+00	1.67845723093E+02	-4.72511814127E+01	1.42677110975E+02	-5.96212436569E+00	-1.37232153949E+00
2.74104900545E+06	-1.04442542169E+01	1.79182677197E+02	5.45388486258E+00	1.67903459708E+02	-4.42015401417E+01	8.94660945120E+01	-5.96886552453E+00	-1.27457259798E+00
2.76324036004E+06	-8.91007041239E+00	-1.71524750689E+02	5.39437679064E+00	1.68196349431E+02	-4.20866568045E+01	1.60319065396E+01	-5.98084216480E+00	-1.19201559606E+00
2.78543171463E+06	-1.14049869230E+01	1.79587368820E+02	5.40024042764E+00	1.67837462768E+02	-4.02813651377E+01	-1.83381191501E+01	-5.95237771787E+00	-1.24506970409E+00
2.80762306923E+06	-1.10207677085E+01	1.77373939650E+02	5.38822601706E+00	1.67758595928E+02	-4.86749392915E+01	-6.62756212636E+01	-5.95449505959E+00	-1.29706903634E+00
2.82981442382E+06	-1.06773055465E+01	-1.69922302116E+02	5.44039088439E+00	1.67542323161E+02	-4.73394252776E+01	-1.04323702106E+02	-5.97097837946E+00	-1.21973003833E+00
2.85200577842E+06	-1.08491821987E+01	1.73748010939E+02	5.41200837097E+00	1.67378713727E+02	-4.60346937454E+01	8.22134273701E+01	-5.97707918764E+00	-1.16585553477E+00
2.87419713301E+06	-1.05049473936E+01	-1.77402842433E+02	5.39012875369E+00	1.67315292136E+02	-4.68615845691E+01	7.47530471432E+01	-5.95615090311E+00	-1.20359140055E+00
