# Hz S DB R 50
! CMT, M5065, 19127446, 24.2.4/2
! Date: 10/29/2024 12:25:36 PM
! Data: Format (Calibration Info)
! Freq	S11:dB/Ang(F2)	S21:dB/Ang(F2)	S12:dB/Ang(F2)	S22:dB/Ang(F2)
3.00000000000E+05	-9.52004684103E+00	-1.79982149099E+02	9.19513888831E+00	-1.78094668405E+02	-4.13094922618E+01	1.53012925825E+02	-5.97739626056E+00	-1.95582370752E-01
3.22191354595E+05	-1.18725771579E+01	-1.72057552127E+02	9.22342070560E+00	-1.78593114182E+02	-4.47907208802E+01	1.56918738900E+02	-5.98264254510E+00	-3.25956033680E-01
3.44382709190E+05	-1.05837030124E+01	-1.66260420620E+02	9.22678189778E+00	-1.78766897889E+02	-4.50066911154E+01	-3.98972246163E+01	-5.98423459616E+00	-1.77555750611E-01
3.66574063785E+05	-1.06510310993E+01	-1.75597417733E+02	9.19460737743E+00	-1.78764889347E+02	-3.91879766131E+01	-1.79621279152E+02	-5.98595228617E+00	-1.81350874240E-01
3.88765418380E+05	-9.68589236747E+00	-1.70342433180E+02	9.18714973996E+00	-1.79367647937E+02	-4.51268729858E+01	-5.63636128643E+01	-5.98344922630E+00	-4.92799849816E-01
4.10956772975E+05	-9.22365067032E+00	1.68655866534E+02	9.21747670064E+00	-1.79692142445E+02	-4.74730526462E+01	1.58497651579E+02	-5.98599561980E+00	-2.70456344605E-01
4.33148127570E+05	-1.23245774161E+01	1.77651983840E+02	9.22424534698E+00	-1.79949339236E+02	-5.27917184163E+01	1.33754618649E+02	-5.98749082810E+00	-4.17403494120E-01
4.55339482165E+05	-1.02979832748E+01	-1.79593985668E+02	9.20666027718E+00	-1.79923380930E+02	-4.33522901800E+01	-1.13650021183E+02	-5.96831115578E+00	-2.56759766941E-01
4.77530836760E+05	-1.13860032164E+01	-1.65796441397E+02	9.24391487104E+00	1.79756501766E+02	-4.67671750816E+01	1.57727785742E+02	-5.98418789414E+00	-4.54117559233E-01
4.99722191355E+05	-8.97655140267E+00	-1.68946244657E+02	9.21045885000E+00	1.79453366525E+02	-4.43624823653E+01	8.11196226072E+01	-5.95970517591E+00	-5.20349569290E-01
5.21913545950E+05	-1.01690483669E+01	-1.62312029902E+02	9.23534072177E+00	1.79496854939E+02	-3.96025898757E+01	8.52676587523E+01	-5.97674390344E+00	-3.54068135508E-01
5.44104900545E+05	-9.73829813201E+00	-1.68592954205E+02	9.23921130225E+00	1.79101185662E+02	-4.37672295455E+01	-1.16349876182E+02	-5.97873460836E+00	-4.31919597884E-01
5.66296255139E+05	-1.00596189791E+01	1.78432490812E+02	9.20662748046E+00	1.78977503549E+02	-5.55189803702E+01	-1.31669000357E+02	-5.95849898652E+00	-4.28346917815E-01
5.88487609734E+05	-1.13053359816E+01	-1.64546927551E+02	9.22211566246E+00	1.78633097915E+02	-4.56801530318E+01	-1.73153166471E+02	-5.96094059912E+00	-6.46803313855E-01
6.10678964329E+05	-9.24547537383E+00	-1.73094069803E+02	9.23476904554E+00	1.78821561111E+02	-4.52063667276E+01	-1.53144186944E+02	-6.00485581548E+00	-1.70859086134E-01
6.32870318924E+05	-1.00390893581E+01	-1.76836933016E+02	9.25178549998E+00	1.78238111105E+02	-5.42967906223E+01	2.69086602002E+01	-5.98260775148E+00	-3.68838907455E-01
6.55061673519E+05	-1.02187684854E+01	1.77521260718E+02	9.24186536216E+00	1.78174588257E+02	-4.64045152685E+01	1.28726017733E+02	-5.98119188896E+00	-1.27664277213E-01
6.77253028114E+05	-1.00361485830E+01	-1.67866273960E+02	9.23695820367E+00	1.77958606344E+02	-5.17154785074E+01	1.64190299337E+02	-5.99078237619E+00	-6.02543121625E-01
6.99444382709E+05	-1.04052014186E+01	1.77313246335E+02	9.22400486177E+00	1.77973775847E+02	-4.68541805832E+01	6.71695525893E+01	-5.97701505762E+00	-5.81057167933E-01
7.21635737304E+05	-9.57723285226E+00	-1.61736904732E+02	9.22027405709E+00	1.77614274033E+02	-4.23026368923E+01	-1.19769466966E+02	-5.98998907053E+00	-5.35765613548E-01
7.43827091899E+05	-9.69279080028E+00	-1.73947858656E+02	9.25027712644E+00	1.77423917376E+02	-4.73483260310E+01	-1.32070715244E+02	-5.94542476928E+00	-5.19977595943E-01
7.66018446494E+05	-9.45769156283E+00	-1.77322564651E+02	9.22113380570E+00	1.77458286168E+02	-4.13189253132E+01	2.67424685375E+01	-5.96416678819E+00	-4.97879033639E-01
7.88209801089E+05	-1.23245447392E+01	-1.76867853731E+02	9.26365199518E+00	1.77280482234E+02	-5.01650008200E+01	-1.54503375234E+01	-5.98800968796E+00	-4.81528039328E-01
8.10401155684E+05	-9.62120822215E+00	-1.77053736867E+02	9.25517510104E+00	1.77171901095E+02	-4.69696469201E+01	-1.78159491780E+01	-5.98553889229E+00	-5.49684611247E-01
8.32592510279E+05	-9.52906203253E+00	-1.72917166492E+02	9.22977807967E+00	1.76840012043E+02	-4.14520484888E+01	1.10691802404E+02	-5.97243670991E+00	-5.72691216760E-01
8.54783864874E+05	-1.05800821904E+01	-1.73164842634E+02	9.26086662742E+00	1.76792549561E+02	-4.10965732088E+01	9.51287519757E+01	-5.97101645894E+00	-6.09739289208E-01
8.76975219469E+05	-1.17797188069E+01	-1.63586977184E+02	9.21060900404E+00	1.76544833921E+02	-4.71946609067E+01	1.06244831513E+02	-5.96859208279E+00	-3.91843538083E-01
8.99166574064E+05	-9.20373548255E+00	-1.73808883589E+02	9.25023522941E+00	1.76219789462E+02	-4.73797809440E+01	1.31897053654E+02	-5.96837949248E+00	-5.11541393491E-01
9.21357928659E+05	-1.11925026777E+01	-1.64231667792E+02	9.24024016925E+00	1.76489923947E+02	-4.43641602396E+01	-1.76865435614E+02	-5.98478464623E+00	-5.95105029886E-01
9.43549283254E+05	-1.09686675098E+01	-1.70002447787E+02	9.23020284702E+00	1.76166371024E+02	-4.59956724897E+01	-9.99947519947E+01	-5.97915000934E+00	-5.49012057051E-01
9.65740637849E+05	-1.08625685620E+01	-1.76651684694E+02	9.22654589914E+00	1.75915640146E+02	-4.20696102186E+01	4.32855921660E+01	-5.95624798771E+00	-5.59560796920E-01
9.87931992444E+05	-1.10880632552E+01	1.79348357817E+02	9.21698042257E+00	1.75791141515E+02	-3.97156203695E+01	1.45777292735E+02	-5.99084827330E+00	-7.33024548834E-01
1.01012334704E+06	-8.89636642346E+00	-1.74993703135E+02	9.23793692991E+00	1.75698962152E+02	-4.41383277006E+01	-1.12683138339E+02	-5.99300890181E+00	-7.01813165164E-01
1.03231470163E+06	-9.55439320842E+00	-1.76769376180E+02	9.20099515889E+00	1.75374123284E+02	-4.46433080323E+01	1.52032971193E+02	-5.97525289148E+00	-4.97626776689E-01
1.05450605623E+06	-9.89305024266E+00	-1.71894865311E+02	9.25559814655E+00	1.75294713669E+02	-4.54226226344E+01	4.12398672513E+01	-5.97957307317E+00	-5.75884466384E-01
1.07669741082E+06	-9.03695209297E+00	-1.74113905975E+02	9.23077456695E+00	1.75397558890E+02	-4.20668956084E+01	1.07119667408E+02	-5.97690397529E+00	-6.52395972787E-01
1.09888876542E+06	-1.13825909414E+01	-1.74183487141E+02	9.20974417140E+00	1.75010324643E+02	-4.31583896496E+01	-3.98054460764E+01	-5.98855646085E+00	-6.48626179612E-01
1.12108012001E+06	-1.01763716969E+01	1.64413908075E+02	9.22785053084E+00	1.74997170602E+02	-4.67475584230E+01	1.44644324471E+02	-5.99043331738E+00	-5.12756649595E-01
1.14327147461E+06	-9.23824797175E+00	1.79584985724E+02	9.24927933915E+00	1.74931901439E+02	-4.22879771470E+01	-1.69969231030E+01	-5.96899866338E+00	-6.83426638836E-01
1.16546282920E+06	-1.08009961398E+01	-1.64259099735E+02	9.25747811174E+00	1.74804632193E+02	-4.35639140077E+01	3.31894085914E+01	-5.96055692775E+00	-6.99321813656E-01
1.18765418380E+06	-1.09243230695E+01	1.75543742466E+02	9.23732190585E+00	1.74706809955E+02	-4.24220915261E+01	3.30425318331E+01	-5.98703609511E+00	-6.32680453305E-01
1.20984553839E+06	-1.15999998140E+01	1.75451177156E+02	9.21098955989E+00	1.74519790674E+02	-4.82687069533E+01	-2.88936939424E+01	-5.96746135608E+00	-7.77250665820E-01
1.23203689299E+06	-1.12128989216E+01	-1.64272648344E+02	9.22385477203E+00	1.74401465951E+02	-4.49669711051E+01	-1.60321419365E+02	-5.96575944372E+00	-5.14859044479E-01
1.25422824758E+06	-1.09589049768E+01	1.71581010323E+02	9.22874748594E+00	1.74102039207E+02	-4.72193698611E+01	-1.46078802733E+02	-6.01147744684E+00	-5.34930918066E-01
1.27641960218E+06	-8.89257073633E+00	-1.75423035801E+02	9.22408485310E+00	1.73886777830E+02	-4.08687533605E+01	4.30278271890E+01	-5.98471676078E+00	-6.94030315023E-01
1.29861095677E+06	-1.05368881715E+01	1.74566310171E+02	9.22054587417E+00	1.74155074687E+02	-5.52999041866E+01	8.77564002633E+01	-5.97962573228E+00	-7.10471204817E-01
1.32080231137E+06	-9.58950714869E+00	-1.78582252557E+02	9.21387366901E+00	1.73673019145E+02	-4.64843943730E+01	-3.54860215513E+01	-5.97436208863E+00	-1.00197749883E+00
1.34299366596E+06	-9.94139614061E+00	1.76412561139E+02	9.20210821454E+00	1.73566337917E+02	-6.42263038605E+01	-2.68007112129E+01	-5.92250961599E+00	-8.64670337757E-01
1.36518502056E+06	-1.06504499597E+01	-1.73133326335E+02	9.20339262740E+00	1.73592533725E+02	-4.15559420358E+01	-8.81945458700E+01	-5.95791839053E+00	-6.98234413308E-01
1.38737637515E+06	-1.05524856189E+01	-1.75475580988E+02	9.23428319624E+00	1.73440149997E+02	-4.60723559483E+01	-7.55302597803E+01	-5.97666521189E+00	-6.32623272152E-01
1.40956772975E+06	-8.54524571018E+00	-1.66182782102E+02	9.25497965167E+00	1.73445495374E+02	-4.63991781712E+01	-1.23396994644E+02	-5.95848228263E+00	-7.67744235853E-01
1.43175908434E+06	-1.03265947175E+01	1.67628774269E+02	9.23341453185E+00	1.73115944817E+02	-4.70954505232E+01	5.86000502416E+01	-5.94547270786E+00	-7.91771253852E-01
1.45395043894E+06	-8.89450284657E+00	-1.68599629822E+02	9.21882472264E+00	1.73050313540E+02	-4.20964958211E+01	2.24497533344E+01	-5.97016425491E+00	-6.85033899247E-01
1.47614179353E+06	-1.10843982286E+01	1.67594302180E+02	9.23395074685E+00	1.72851163329E+02	-4.60447485191E+01	-1.51413900147E+02	-5.96143751626E+00	-7.42892627108E-01
1.49833314813E+06	-1.03672880742E+01	1.76260865429E+02	9.23957213062E+00	1.72794591122E+02	-5.11845754756E+01	1.29993592462E+02	-5.98566306144E+00	-6.97130898428E-01
1.52052450272E+06	-1.12811781433E+01	-1.79341182781E+02	9.21184647630E+00	1.72505455029E+02	-4.11561537948E+01	1.15341150319E+02	-5.97398604836E+00	-6.90817856273E-01
1.54271585732E+06	-7.43038577905E+00	-1.77126058771E+02	9.22141534961E+00	1.72194251970E+02	-5.94489941383E+01	9.29166413975E+01	-5.97362736775E+00	-8.78877272172E-01
1.56490721191E+06	-9.39473986992E+00	1.76005888341E+02	9.25834095910E+00	1.72290114364E+02	-4.27585539914E+01	-4.41364811521E+01	-5.97795357551E+00	-8.33627274737E-01
1.58709856651E+06	-8.52870578093E+00	1.78104963941E+02	9.23479925139E+00	1.72231899818E+02	-4.42121360519E+01	-1.77662723728E+02	-5.96561126123E+00	-7.26582693720E-01
1.60928992110E+06	-9.02646541190E+00	-1.76726133572E+02	9.25839652871E+00	1.72182152503E+02	-4.62034224899E+01	2.40434336947E+01	-5.97085469611E+00	-8.16467612717E-01
1.63148127570E+06	-9.21079728979E+00	-1.78251976024E+02	9.22317453131E+00	1.71686028699E+02	-4.08467608565E+01	-1.24355191083E+02	-6.00793535715E+00	-8.06522479494E-01
1.65367263029E+06	-8.79675434639E+00	1.79902545555E+02	9.23355021509E+00	1.71816430284E+02	-4.23817283503E+01	3.80809279503E+01	-5.96888788717E+00	-9.61524887098E-01
1.67586398489E+06	-1.00883165122E+01	-1.76711091444E+02	9.19523569653E+00	1.71549198793E+02	-4.32642355989E+01	-9.53264916697E+01	-5.96340130673E+00	-8.31449005133E-01
1.69805533948E+06	-8.55784976621E+00	1.79554458708E+02	9.21446422672E+00	1.71535766014E+02	-5.07226414317E+01	-1.38620288577E+02	-5.96774307002E+00	-9.85152147623E-01
1.72024669408E+06	-1.10058760260E+01	1.68997860728E+02	9.18168195225E+00	1.71285137972E+02	-3.96035587417E+01	-9.45677874714E+01	-5.98188512870E+00	-1.01786157624E+00
1.74243804867E+06	-1.05788960126E+01	1.79124049788E+02	9.21661287326E+00	1.71392398543E+02	-4.74584660327E+01	5.71093139491E+01	-5.94418774540E+00	-9.84332563895E-01
1.76462940327E+06	-1.08176082361E+01	-1.67514238266E+02	9.22381814819E+00	1.70966761712E+02	-3.85013031094E+01	1.22814857143E+02	-5.95348816384E+00	-9.04224107009E-01
1.78682075786E+06	-8.66542287747E+00	-1.63909634418E+02	9.24843498373E+00	1.71360715961E+02	-4.10232022374E+01	-9.94080510177E+00	-5.97271450441E+00	-9.73519307111E-01
1.80901211246E+06	-1.12512534238E+01	1.77850382075E+02	9.23794683099E+00	1.70869526888E+02	-4.63129536153E+01	-8.77044210930E+01	-5.95925791286E+00	-6.85758330772E-01
1.83120346705E+06	-9.92467292409E+00	-1.77041356411E+02	9.22506257261E+00	1.70561407777E+02	-4.76842955659E+01	-1.50211112514E+02	-5.97751454797E+00	-9.05236668419E-01
1.85339482165E+06	-9.15706800542E+00	-1.79090740756E+02	9.22335543285E+00	1.70848639026E+02	-3.66481316196E+01	-8.91621683432E+01	-5.99652802443E+00	-1.27365565692E+00
1.87558617624E+06	-9.32985677695E+00	-1.73524229188E+02	9.23019478238E+00	1.70368767898E+02	-4.38694578551E+01	1.66078068700E+02	-5.96280436995E+00	-8.19521587111E-01
1.89777753084E+06	-1.00506071813E+01	-1.75988872971E+02	9.18910458675E+00	1.70731561324E+02	-4.99390667473E+01	-2.39140614164E+01	-5.94358232557E+00	-1.11716481288E+00
1.91996888543E+06	-1.14959547667E+01	1.73797795495E+02	9.19334862812E+00	1.70264974006E+02	-4.81905200812E+01	-1.72879466708E+02	-5.97061578117E+00	-1.01934422097E+00
1.94216024003E+06	-1.10113121888E+01	1.70576487750E+02	9.20825025298E+00	1.70235741007E+02	-4.06291693374E+01	-1.10866389133E+02	-5.97346507621E+00	-9.21610606737E-01
1.96435159462E+06	-1.06988089069E+01	1.79109554128E+02	9.20612496344E+00	1.69998459383E+02	-4.41263129117E+01	1.22649399030E+02	-5.96543000437E+00	-8.51259823119E-01
1.98654294922E+06	-1.01029289706E+01	1.75670890083E+02	9.22692404528E+00	1.69616410842E+02	-5.54835986237E+01	-1.75161337109E+02	-5.97753856830E+00	-9.07919789118E-01
2.00873430381E+06	-9.12982161825E+00	-1.71862782512E+02	9.21709383874E+00	1.69729591359E+02	-5.20804312841E+01	-1.78167760920E+02	-5.97595885489E+00	-1.16794408329E+00
2.03092565841E+06	-1.02765655648E+01	1.75885565058E+02	9.22900794386E+00	1.69933406043E+02	-4.21271074617E+01	1.99507952212E+01	-5.96289748685E+00	-1.03575772677E+00
2.05311701300E+06	-1.22601675835E+01	-1.73146138766E+02	9.19931640910E+00	1.69646400913E+02	-3.85401931131E+01	1.16447511697E+02	-5.97931023660E+00	-1.13738023676E+00
2.07530836760E+06	-1.34270598712E+01	1.64011953194E+02	9.21878807141E+00	1.69518764871E+02	-4.07571675669E+01	8.39102433890E+01	-5.93861065979E+00	-9.21957791447E-01
2.09749972219E+06	-9.47067479995E+00	-1.78398643876E+02	9.20496613814E+00	1.69310844280E+02	-5.05101087680E+01	1.64288977651E+01	-5.98423571872E+00	-9.73094799459E-01
2.11969107679E+06	-8.69782563342E+00	1.79061313640E+02	9.21192599860E+00	1.69294383097E+02	-3.99231089352E+01	-1.45469315279E+02	-6.02008480336E+00	-1.09294870773E+00
2.14188243138E+06	-1.03259047568E+01	1.79171251507E+02	9.23862070580E+00	1.69181458633E+02	-5.51771690188E+01	1.07176669591E+01	-5.95056196655E+00	-9.79774631776E-01
2.16407378598E+06	-1.07990583501E+01	1.71276580290E+02	9.20278170857E+00	1.69143818985E+02	-5.17967059866E+01	-1.67086237772E+02	-5.97338924047E+00	-1.04604712453E+00
2.18626514057E+06	-1.03364776003E+01	-1.77320570257E+02	9.20066233790E+00	1.68970427916E+02	-5.12514604814E+01	7.12275227953E+01	-5.95058674283E+00	-1.11075195527E+00
2.20845649517E+06	-1.10247465430E+01	-1.73018352105E+02	9.19623958170E+00	1.68666385853E+02	-4.64737597472E+01	-5.00303543050E+00	-5.96280599011E+00	-1.09585694326E+00
2.23064784976E+06	-9.07205102118E+00	1.71635836391E+02	9.22326094024E+00	1.68603721180E+02	-4.04233086353E+01	8.19405586814E+01	-5.97049032652E+00	-1.09261997827E+00
2.25283920436E+06	-9.95769720295E+00	1.78501734275E+02	9.19967986925E+00	1.68497744894E+02	-5.54393615577E+01	1.64985362170E+02	-5.95587361080E+00	-1.06145980318E+00
2.27503055895E+06	-1.08468734247E+01	1.76600092148E+02	9.21367944077E+00	1.68524416267E+02	-4.58341670999E+01	-1.63061366517E+02	-5.96809128555E+00	-9.65504704664E-01
2.29722191355E+06	-1.03652206946E+01	-1.73168747243E+02	9.23799299689E+00	1.68311663185E+02	-4.63621740362E+01	9.65403038314E+00	-5.96988711481E+00	-1.06684074417E+00
2.31941326814E+06	-1.05693444784E+01	-1.75927182803E+02	9.21810910469E+00	1.67967316409E+02	-4.11886395733E+01	1.52509745180E+02	-5.98711643087E+00	-1.08569442841E+00
2.34160462274E+06	-1.08986274695E+01	-1.79355565613E+02	9.22076438661E+00	1.67915356331E+02	-4.22688723904E+01	-7.03992495159E+01	-5.97472146004E+00	-1.09269574416E+00
2.36379597733E+06	-1.02826221218E+01	1.72705050453E+02	9.20260608801E+00	1.67630804600E+02	-5.19847579563E+01	-5.37285889495E+01	-5.95870931877E+00	-9.72638101367E-01
2.38598733193E+06	-1.13146717056E+01	1.73197001320E+02	9.20880236896E+00	1.68074816725E+02	-3.91948926295E+01	-1.05935340206E+01	-5.95773018047E+00	-1.02209471695E+00
2.40817868652E+06	-1.02309097126E+01	-1.77896591635E+02	9.23730984280E+00	1.67663803331E+02	-4.63537738506E+01	-1.70564307030E+02	-5.95436854815E+00	-1.20294246670E+00
2.43037004112E+06	-9.31803389985E+00	1.75511860710E+02	9.19729835115E+00	1.67467579749E+02	-4.15513590940E+01	1.50351499894E+02	-5.95293465056E+00	-1.38526096040E+00
2.45256139571E+06	-1.00833457956E+01	1.74441872030E+02	9.24127972425E+00	1.67357872901E+02	-4.88895838305E+01	-2.68871606243E+01	-5.98801293327E+00	-9.18898849225E-01
2.47475275031E+06	-1.04388584755E+01	-1.77842016831E+02	9.21538410825E+00	1.67400007054E+02	-5.94602313713E+01	-2.16742569362E+00	-5.98051450276E+00	-1.24633963753E+00
2.49694410490E+06	-1.00957929192E+01	-1.73058056788E+02	9.24705160715E+00	1.67478399368E+02	-3.86075894307E+01	1.63039029182E+02	-5.97684855714E+00	-1.03005901373E+00
2.51913545950E+06	-9.03432594617E+00	-1.66950362464E+02	9.24969411041E+00	1.66820678454E+02	-4.81972997129E+01	-7.46144339036E+01	-5.95807595689E+00	-1.10440094399E+00
2.54132681409E+06	-9.26344897595E+00	-1.79309229122E+02	9.21439815260E+00	1.66978276033E+02	-4.19530824754E+01	-7.38596546235E+00	-5.99948968496E+00	-1.20267790415E+00
2.56351816869E+06	-9.64227348630E+00	1.74018154290E+02	9.22278160546E+00	1.66892618353E+02	-7.00858358623E+01	1.50638963928E+02	-5.97388274261E+00	-1.08562837878E+00
2.58570952328E+06	-1.00992250869E+01	1.79815959353E+02	9.22735909342E+00	1.66671174717E+02	-4.71633797768E+01	-6.70743046565E+00	-5.97164851216E+00	-1.22080753288E+00
2.60790087788E+06	-1.09521686953E+01	-1.79820880273E+02	9.23826394882E+00	1.66609693634E+02	-4.57123407589E+01	1.07664387386E+02	-5.99083707829E+00	-1.01680607139E+00
2.63009223247E+06	-1.11652955160E+01	-1.76251400535E+02	9.23410754774E+00	1.66306971792E+02	-4.34597353375E+01	2.75358291592E+01	-5.98094362138E+00	-1.37609865522E+00
2.65228358707E+06	-8.56426687139E+00	-1.71572488531E+02	9.23377191898E+00	1.66465193262E+02	-4.71302928562E+01	-6.88393963977E+01	-5.97185896661E+00	-1.61281827624E+00
2.67447494166E+06	-9.55786353169E+00	-1.79192924443E+02	9.21651884888E+00	1.66070181573E+02	-5.18647566081E+01	-1.37049734656E+02	-5.98232745625E+00	-1.52247042003E+00
2.69666629626E+06	-1.26005123440E+01	-1.59507121151E+02	9.19607256534E+00	1.66183766439E+02	-4.71151052682E+01	-1.50584834064E+00	-5.94436791726E+00	-1.21396448973E+00
2.71885765085E+06	-1.00066639492E+01	-1.74614950352E+02	9.24252246434E+00	1.65942480011E+02	-4.52666328909E+01	2.82396228599E+00	-5.97066685456E+00	-1.39693604793E+00
2.74104900545E+06	-1.12264114803E+01	1.79080931137E+02	9.21375569465E+00	1.65840687647E+02	-4.29901993901E+01	-1.79313669533E+02	-5.93939395027E+00	-1.25734140480E+00
2.76324036004E+06	-9.70760345070E+00	-1.72148876065E+02	9.21767475738E+00	1.65776506986E+02	-6.10440804413E+01	4.26133656959E+01	-5.98152813705E+00	-1.30268445497E+00
2.78543171463E+06	-1.08519434487E+01	1.74249166681E+02	9.25640543347E+00	1.65692184537E+02	-4.84800740045E+01	1.27621345688E+02	-5.93868308367E+00	-1.35563864989E+00
2.80762306923E+06	-9.84679623168E+00	-1.77168608284E+02	9.23130098950E+00	1.65482623441E+02	-4.54490163420E+01	8.81054303604E+01	-5.94275799330E+00	-1.19737419530E+00
2.82981442382E+06	-1.13911706531E+01	-1.77208538021E+02	9.26312993836E+00	1.65385128852E+02	-5.33647275093E+01	-1.69214251703E+02	-5.95893675426E+00	-1.40250841282E+00
2.85200577842E+06	-1.00478421182E+01	1.76340647167E+02	9.24536251612E+00	1.65242530869E+02	-4.65506770129E+01	9.51865844977E+01	-5.95584514926E+00	-1.39921921104E+00
2.87419713301E+06	-1.02533324925E+01	-1.72632207389E+02	9.22243162490E+00	1.65181366379E+02	-4.58030724340E+01	-1.21867682096E+02	-5.98214419914E+00	-1.38950501433E+00
