# Hz S DB R 50
! CMT, M5065, 19127446, 24.2.4/2
! Date: 10/29/2024 12:53:37 PM
! Data: Format (Calibration Info)
! Freq	S11:dB/Ang(F2)	S21:dB/Ang(F2)	S12:dB/Ang(F2)	S22:dB/Ang(F2)
3.00000000000E+05	-1.39865160432E+01	-1.76426746129E+02	3.18408664909E+01	-1.75625875399E+02	-4.27396072906E+01	-5.17375282889E+01	-5.95023883899E+00	-9.12404932380E-01
3.22191354595E+05	-8.05699758998E+00	-1.46248358552E+02	3.18343462418E+01	-1.77393395343E+02	-4.60176265852E+01	1.61420091475E+02	-5.92589969836E+00	-6.18050519005E-01
3.44382709190E+05	-1.58796887339E+01	-1.53758300810E+02	3.18668859262E+01	-1.78922410042E+02	-4.25735979040E+01	-1.37451093852E+02	-5.89992729786E+00	-5.80002777700E-01
3.66574063785E+05	-9.05084124663E+00	1.59420454874E+02	3.18254693360E+01	1.79597872202E+02	-4.30394083059E+01	1.03045364218E+02	-5.98184245463E+00	-6.14599956752E-01
3.88765418380E+05	-1.08218372602E+01	-1.63122677441E+02	3.18134148570E+01	1.78224190387E+02	-5.08670973076E+01	4.96830079795E+01	-5.86108661166E+00	-2.17590332832E+00
4.10956772975E+05	-1.28743618499E+01	-1.66805861585E+02	3.18412374313E+01	1.76644601160E+02	-4.04099606925E+01	-1.13081501074E+02	-6.03937992945E+00	-2.21917298815E+00
4.33148127570E+05	-1.76673204308E+01	-1.73907981807E+02	3.17912154048E+01	1.75343307010E+02	-3.38267257388E+01	-1.50431588525E+02	-5.95762217376E+00	-8.85843432593E-01
4.55339482165E+05	-1.13692491768E+01	1.61407782951E+02	3.17871754762E+01	1.74047281239E+02	-3.70559039241E+01	-9.74695552175E+01	-5.93696428383E+00	-5.40283029146E-01
4.77530836760E+05	-9.58922679615E+00	1.76946205478E+02	3.17645204159E+01	1.72891782527E+02	-4.95993001483E+01	-4.54204880077E+01	-5.93681603783E+00	-6.03449275372E-01
4.99722191355E+05	-7.50968716294E+00	-1.67318699281E+02	3.17579502876E+01	1.71864417062E+02	-4.56215443380E+01	-9.65037211446E+01	-5.91876127618E+00	-9.36150431500E-01
5.21913545950E+05	-1.54181447522E+01	-1.56852216508E+02	3.17157354758E+01	1.70915299090E+02	-4.29930842809E+01	-1.61645123749E+02	-5.94315938926E+00	-2.92939441053E-01
5.44104900545E+05	-1.33795562025E+01	-1.77687202656E+02	3.16888835326E+01	1.69684209217E+02	-4.64454686371E+01	1.50189745638E+02	-5.98922784010E+00	-1.08670353668E+00
5.66296255139E+05	-1.49158215604E+01	-1.78160143503E+02	3.17150742774E+01	1.68967203644E+02	-4.56230080578E+01	-1.54420426756E+02	-6.05075229835E+00	-2.60501713592E-01
5.88487609734E+05	-1.16379032306E+01	1.69191489304E+02	3.16402135770E+01	1.67716539566E+02	-3.47410767453E+01	-1.02853241790E+02	-5.75614285619E+00	-1.12010060241E+00
6.10678964329E+05	-9.95541579551E+00	-1.76097599169E+02	3.16191125163E+01	1.66808855491E+02	-4.24730694892E+01	3.04875735671E+01	-6.03256077298E+00	-7.80550235141E-01
6.32870318924E+05	-1.22882387046E+01	-1.68649544114E+02	3.15618053801E+01	1.65736751786E+02	-3.80654018156E+01	-1.63751869559E+02	-5.94599768249E+00	-1.04201782613E+00
6.55061673519E+05	-1.62758466853E+01	1.78526766732E+02	3.15580336736E+01	1.64683316146E+02	-3.37826828173E+01	-1.41856354106E+02	-6.00953043370E+00	-1.03229602181E+00
6.77253028114E+05	-1.10774372631E+01	-1.65140406677E+02	3.15113487076E+01	1.64117504651E+02	-4.40542412792E+01	6.06097480872E+01	-5.94779935848E+00	-8.03990714407E-01
6.99444382709E+05	-8.88784026174E+00	-1.76032480498E+02	3.15132232370E+01	1.62909034156E+02	-3.99895560617E+01	-4.48233059263E+01	-5.98671697111E+00	-8.23144395092E-01
7.21635737304E+05	-9.07176503576E+00	-1.76361479526E+02	3.14899310335E+01	1.62466823107E+02	-4.48978659201E+01	7.58055034036E+01	-5.93424311926E+00	-7.18313480363E-01
7.43827091899E+05	-8.35310610142E+00	-1.77745070178E+02	3.14565365171E+01	1.61548382512E+02	-4.42912781266E+01	4.83699841022E+01	-6.04857295140E+00	-1.24080995494E+00
7.66018446494E+05	-1.06997189284E+01	-1.79497134717E+02	3.14108985487E+01	1.60659248616E+02	-3.58734173150E+01	-5.60515380134E+01	-5.99340853990E+00	-5.32108521496E-01
7.88209801089E+05	-1.34291883581E+01	-1.48921427146E+02	3.13491002935E+01	1.59863185017E+02	-4.18361033598E+01	1.12843874578E+02	-5.96949121648E+00	-4.71758179632E-01
8.10401155684E+05	-1.09213381648E+01	1.76323170262E+02	3.13280930893E+01	1.59256838450E+02	-4.00307683921E+01	-1.05350617486E+02	-6.00620309070E+00	-1.27815758289E+00
8.32592510279E+05	-7.61290948471E+00	-1.63553139304E+02	3.13341182622E+01	1.58134219876E+02	-4.25779727906E+01	1.27185589888E+02	-5.96673079585E+00	-5.98445479994E-01
8.54783864874E+05	-1.27754894186E+01	1.74244465473E+02	3.12523501042E+01	1.57498718911E+02	-4.21947447433E+01	-6.64481850519E-01	-5.97999529636E+00	-8.21165679620E-01
8.76975219469E+05	-1.20098181830E+01	-1.49360819528E+02	3.12421246010E+01	1.56825036776E+02	-4.05257138460E+01	1.21835434160E+02	-6.05642204137E+00	-1.91315677164E+00
8.99166574064E+05	-1.46833740304E+01	-1.34133910377E+02	3.11909114995E+01	1.55713209223E+02	-3.49401438460E+01	7.52566857774E+00	-5.93375353164E+00	-5.16851890273E-01
9.21357928659E+05	-1.31168553490E+01	1.44193547139E+02	3.11457548779E+01	1.55204409385E+02	-4.25478187345E+01	-1.55397650061E+02	-5.99050440465E+00	-3.39168303981E-01
9.43549283254E+05	-9.43190074665E+00	1.63753042111E+02	3.11031427316E+01	1.54460953210E+02	-6.32338790722E+01	-9.63992213242E+01	-5.98764239101E+00	-4.71621962601E-01
9.65740637849E+05	-1.12821564632E+01	-1.66181965634E+02	3.10661638242E+01	1.53933043059E+02	-4.83308552710E+01	7.12612544774E+01	-6.03732706395E+00	-4.52168874160E-01
9.87931992444E+05	-1.13478056127E+01	-1.60148719582E+02	3.10495045337E+01	1.53399471210E+02	-3.41484923553E+01	4.69369714658E+01	-5.99428827770E+00	-7.06949212537E-01
1.01012334704E+06	-9.73027834522E+00	-1.46534374398E+02	3.09927603696E+01	1.52381665073E+02	-4.08476938837E+01	8.69698167404E+01	-5.92875742416E+00	-9.07028108957E-01
1.03231470163E+06	-8.39366509678E+00	1.75490786217E+02	3.09687294940E+01	1.51656660857E+02	-4.62638038355E+01	8.52962445808E+01	-6.09076436857E+00	-7.78180367577E-01
1.05450605623E+06	-1.03064832699E+01	-1.56391516841E+02	3.09437637062E+01	1.50812563196E+02	-4.37812270583E+01	1.74907903358E+02	-5.94440453730E+00	-5.22424445756E-01
1.07669741082E+06	-1.10525651526E+01	-1.62632296629E+02	3.08677554332E+01	1.50207964072E+02	-4.13126594541E+01	1.61949127754E+02	-6.06263128831E+00	-4.44412881294E-02
1.09888876542E+06	-1.27154691579E+01	1.69428167635E+02	3.08586859861E+01	1.49700000322E+02	-4.67944630852E+01	-1.14259852187E+02	-6.03301389803E+00	-1.21600528072E+00
1.12108012001E+06	-1.22945429020E+01	-1.31138169679E+02	3.08298094291E+01	1.49260156741E+02	-3.96670733225E+01	6.98985106229E+01	-6.01445524648E+00	-7.11777418409E-01
1.14327147461E+06	-9.36530626092E+00	1.79337154021E+02	3.07458024646E+01	1.48535793363E+02	-3.95729470594E+01	1.13351799794E+02	-5.94162181234E+00	-7.89695822642E-01
1.16546282920E+06	-1.08974144945E+01	1.68653633210E+02	3.06976140132E+01	1.47899622802E+02	-3.52244549472E+01	-1.65277185323E+01	-5.97145017957E+00	-1.06168438456E+00
1.18765418380E+06	-1.01791861128E+01	-1.62252758674E+02	3.06898345611E+01	1.47401624684E+02	-3.91991787621E+01	-1.64932562141E+02	-6.01391655259E+00	-1.47290867620E+00
1.20984553839E+06	-9.96916225710E+00	1.74750652472E+02	3.06443309124E+01	1.46552991427E+02	-4.10634314519E+01	7.89690280179E+01	-5.91179981471E+00	-7.85535849095E-01
1.23203689299E+06	-9.07827671425E+00	1.75137333541E+02	3.06144778572E+01	1.45965842835E+02	-4.77514161133E+01	6.70988226134E+01	-6.01095758708E+00	-3.77603436202E-01
1.25422824758E+06	-9.85792540188E+00	-1.76129738612E+02	3.05470531346E+01	1.45219367377E+02	-4.27418522420E+01	9.19914155594E+01	-5.94869145340E+00	-9.85949378491E-01
1.27641960218E+06	-1.39283038412E+01	-1.70248473980E+02	3.05644495546E+01	1.44647333617E+02	-4.38301867196E+01	1.20195212817E+02	-6.00843703447E+00	-7.52787761663E-01
1.29861095677E+06	-1.13354308222E+01	1.37780084647E+02	3.04414194049E+01	1.44203898004E+02	-4.10040367032E+01	-1.74799257328E+02	-5.99302430926E+00	-8.16616360799E-01
1.32080231137E+06	-9.69589185047E+00	1.77837955960E+02	3.04292440624E+01	1.43699151850E+02	-3.95353402416E+01	-6.06161918382E+01	-6.02833410356E+00	-1.27967926888E+00
1.34299366596E+06	-8.14105246320E+00	-1.66106377659E+02	3.04137741850E+01	1.42843316910E+02	-4.02606549025E+01	-4.13737487731E+01	-5.98450011167E+00	-7.77389366075E-01
1.36518502056E+06	-6.53918080004E+00	1.71046759699E+02	3.03412915735E+01	1.42366247228E+02	-4.79148007599E+01	-1.29383426937E+02	-5.99167933361E+00	-7.77455566666E-01
1.38737637515E+06	-8.21603732942E+00	-1.76242546625E+02	3.03379623074E+01	1.41917568552E+02	-4.42403329184E+01	-8.33757218936E+01	-5.96300602888E+00	-3.98505425250E-01
1.40956772975E+06	-1.40494083471E+01	1.70671525313E+02	3.02676562254E+01	1.41175319076E+02	-3.51483944964E+01	-2.47793366693E+01	-5.94667061987E+00	-9.80671511336E-01
1.43175908434E+06	-1.23615775781E+01	-1.50818366712E+02	3.02082506978E+01	1.40579762650E+02	-4.24957072815E+01	-9.14861362020E+01	-5.97425261230E+00	-1.00679801681E+00
1.45395043894E+06	-1.18391654895E+01	-1.68039976958E+02	3.01152187055E+01	1.40076004161E+02	-4.64151668924E+01	1.02758349529E+02	-5.96471539381E+00	-2.03132109304E-01
1.47614179353E+06	-1.09696554938E+01	1.70363956944E+02	3.01272774353E+01	1.39470900288E+02	-3.72379696819E+01	3.97381670820E+00	-6.01412623980E+00	-9.20084710244E-01
1.49833314813E+06	-1.44109343952E+01	-1.66855196167E+02	3.01068161612E+01	1.39052289415E+02	-4.45974862327E+01	6.51423855700E+01	-6.01039595800E+00	-1.67338124338E-01
1.52052450272E+06	-9.50864729505E+00	-1.55076820703E+02	3.00567229879E+01	1.38420293276E+02	-3.60339262419E+01	1.29528461914E+02	-5.87454150857E+00	-7.70205633107E-01
1.54271585732E+06	-1.16939410245E+01	-1.64274660585E+02	3.00113115553E+01	1.37797077760E+02	-3.68943511981E+01	3.14580826754E+01	-5.96439162843E+00	-9.33267485049E-01
1.56490721191E+06	-8.70306985494E+00	-1.58882276253E+02	2.99761967775E+01	1.37476557091E+02	-4.61069335314E+01	-5.04229914238E+01	-6.01743680607E+00	-6.91514654143E-01
1.58709856651E+06	-1.11499012717E+01	1.69553145859E+02	2.99141154329E+01	1.36903270035E+02	-3.67821826847E+01	8.81228466908E+01	-5.94725077690E+00	-8.81880776661E-01
1.60928992110E+06	-1.23627842846E+01	1.61681943634E+02	2.98235731609E+01	1.36031313421E+02	-5.05211116029E+01	-7.96301706249E+01	-6.02773597443E+00	-7.64510325688E-01
1.63148127570E+06	-1.21810242097E+01	-1.74360415235E+02	2.97915586398E+01	1.35675521941E+02	-3.71535415085E+01	-5.22334054563E+01	-5.94665745353E+00	-9.57890790268E-01
1.65367263029E+06	-8.46886369957E+00	1.70811798315E+02	2.97433919085E+01	1.35426074965E+02	-4.58959264948E+01	2.72718294587E-01	-6.00011215300E+00	-8.68824976018E-01
1.67586398489E+06	-9.34090682281E+00	1.75211282195E+02	2.97314901812E+01	1.34812961673E+02	-4.25470942517E+01	8.51700478612E+01	-6.00970718325E+00	-6.81393045089E-01
1.69805533948E+06	-1.15801687008E+01	-1.60354667003E+02	2.96982948057E+01	1.34283344684E+02	-4.75222804867E+01	-2.45537186627E+01	-5.98143430251E+00	-8.96318814099E-01
1.72024669408E+06	-1.28643791410E+01	-1.55428121592E+02	2.96430390193E+01	1.33692373484E+02	-4.29694381561E+01	-9.79453994953E+01	-5.97747376704E+00	-7.61486526339E-01
1.74243804867E+06	-1.03718859995E+01	-1.62213034683E+02	2.96215040777E+01	1.33242673364E+02	-3.87238388034E+01	1.04898676707E+02	-6.00502857426E+00	-9.97039027380E-02
1.76462940327E+06	-6.71635900438E+00	-1.77641435504E+02	2.95719564396E+01	1.33141986221E+02	-3.72404391652E+01	7.08175631558E+01	-6.01303826389E+00	-1.17261448245E+00
1.78682075786E+06	-9.70294062803E+00	1.62972413985E+02	2.94828695137E+01	1.32339817383E+02	-3.88000013195E+01	-1.04496610256E+02	-5.96859090882E+00	-1.07508242399E+00
1.80901211246E+06	-6.58114804124E+00	-1.66165601679E+02	2.94536735807E+01	1.31608435590E+02	-4.05348577080E+01	-1.48354318816E+02	-5.71565709161E+00	-2.11330173035E+00
1.83120346705E+06	-9.18517846745E+00	-1.71045474028E+02	2.94249453464E+01	1.31279981811E+02	-5.41673319759E+01	-7.47721938726E+01	-5.85875547173E+00	3.19230964690E-01
1.85339482165E+06	-1.36358862854E+01	1.68648368237E+02	2.93312845193E+01	1.30783297473E+02	-3.82105971813E+01	4.19577110916E+01	-5.97868311942E+00	-7.96614747232E-01
1.87558617624E+06	-6.78938933810E+00	1.74490242490E+02	2.93185822077E+01	1.30415840930E+02	-3.41618899148E+01	-8.25931532374E+01	-6.00327910084E+00	-8.58103766269E-01
1.89777753084E+06	-1.00909181873E+01	-1.78029862166E+02	2.92777209439E+01	1.29974497629E+02	-4.64519625648E+01	-2.56892193188E+01	-6.02368126953E+00	-7.84606483631E-01
1.91996888543E+06	-1.15598752582E+01	1.60633283090E+02	2.92610085186E+01	1.29281321106E+02	-3.83903503234E+01	8.79919116947E+01	-6.00827956635E+00	-8.11999467930E-01
1.94216024003E+06	-7.62617399540E+00	1.75447046772E+02	2.91909664087E+01	1.28771633810E+02	-3.77570810276E+01	1.30579837048E+02	-5.95592770412E+00	-1.39885281718E+00
1.96435159462E+06	-8.39944418095E+00	1.65038713689E+02	2.91470859147E+01	1.28312802722E+02	-4.29553067680E+01	-1.76166980165E+02	-5.95355839812E+00	-8.42261689041E-01
1.98654294922E+06	-6.99607097801E+00	1.72328463223E+02	2.90907538648E+01	1.27894945971E+02	-4.57349781324E+01	-1.20809214340E+02	-6.03319172830E+00	-9.69100735869E-01
2.00873430381E+06	-9.79471888745E+00	-1.75169912942E+02	2.90602791458E+01	1.27519918191E+02	-4.15350645760E+01	-1.17747847333E+01	-5.99090634046E+00	-9.41998108429E-01
2.03092565841E+06	-1.38598407569E+01	-1.46606313471E+02	2.90294674730E+01	1.27156175593E+02	-4.15027827890E+01	-2.59915590682E+01	-5.99388995937E+00	-8.79375682612E-01
2.05311701300E+06	-1.38687216424E+01	-1.58438938078E+02	2.89749471857E+01	1.26557236100E+02	-4.78540135183E+01	-2.61572960690E+01	-5.97838061174E+00	-1.08107550460E+00
2.07530836760E+06	-1.47263095205E+01	-1.61530762732E+02	2.88680047710E+01	1.25767293980E+02	-4.19576165775E+01	-5.82189946688E+01	-6.01196310899E+00	-5.94799451015E-01
2.09749972219E+06	-1.02112513160E+01	1.57440937135E+02	2.88458611743E+01	1.25643640768E+02	-3.28227246342E+01	4.38504263353E+01	-6.00270092384E+00	-1.34296111503E+00
2.11969107679E+06	-9.06715315800E+00	-1.75332851676E+02	2.88173322472E+01	1.25118550626E+02	-4.00147784707E+01	3.63157332697E+01	-5.78936222000E+00	-4.45347805922E-01
2.14188243138E+06	-7.67398159750E+00	-1.70262403605E+02	2.87709563355E+01	1.24799080947E+02	-3.85018383370E+01	-5.43945784651E+01	-5.87437442783E+00	-3.91272217484E+00
2.16407378598E+06	-1.31816537061E+01	-1.77341803471E+02	2.87385048436E+01	1.24548755185E+02	-4.44242359211E+01	-9.09147113778E+01	-5.98159668705E+00	-1.27022300338E+00
2.18626514057E+06	-1.18496270942E+01	-1.62270807147E+02	2.86945148550E+01	1.23875121749E+02	-3.85125367126E+01	6.51470035797E+01	-5.98601952313E+00	-1.32169357267E+00
2.20845649517E+06	-1.02464827578E+01	1.56279078489E+02	2.86586006921E+01	1.23721819564E+02	-4.02311533988E+01	3.41334626533E+01	-6.00844337064E+00	-1.03270974472E+00
2.23064784976E+06	-1.03352137602E+01	-1.77222975139E+02	2.85810297430E+01	1.23302613960E+02	-3.56545980301E+01	7.22705386270E+01	-5.98714774446E+00	-8.22161073474E-01
2.25283920436E+06	-7.63900798445E+00	1.61319434225E+02	2.85712816399E+01	1.22561225554E+02	-4.06194552565E+01	5.31763210397E+01	-5.98898210460E+00	-1.71974215785E+00
2.27503055895E+06	-8.31727453666E+00	1.74501762050E+02	2.84981414246E+01	1.22519630844E+02	-4.80384904680E+01	1.36081847757E+02	-6.16483304708E+00	-3.81191673192E-01
2.29722191355E+06	-8.27706008591E+00	-1.61136990930E+02	2.84642232204E+01	1.22062142843E+02	-4.17269248040E+01	1.18040650691E+02	-6.00932078018E+00	-1.21658460974E+00
2.31941326814E+06	-1.68782720000E+01	-1.53946973041E+02	2.83916785641E+01	1.21393919610E+02	-3.69065618258E+01	-6.24955867311E+01	-5.97762258020E+00	-1.02932905783E+00
2.34160462274E+06	-8.89658541056E+00	1.69993399454E+02	2.83556893463E+01	1.21057037957E+02	-3.61072816909E+01	-1.25570162795E+02	-5.89998131663E+00	-9.46385726086E-01
2.36379597733E+06	-9.10546653232E+00	-1.73948937839E+02	2.83332588588E+01	1.20739007386E+02	-4.20127205953E+01	1.41453329916E+02	-5.91586675031E+00	-1.10625070150E+00
2.38598733193E+06	-9.24506545432E+00	-1.44583965776E+02	2.81993416561E+01	1.20054995114E+02	-3.74886345198E+01	1.02777794449E+02	-5.95580186708E+00	-1.16402611874E+00
2.40817868652E+06	-6.55154894187E+00	1.75851062817E+02	2.82357415386E+01	1.19630420810E+02	-4.63150112722E+01	-9.65500070881E+01	-5.98773108920E+00	-1.39871800759E+00
2.43037004112E+06	-8.73638440645E+00	-1.72268819056E+02	2.82090476263E+01	1.19432133186E+02	-4.34076159523E+01	1.14676913270E+02	-6.02374737276E+00	-1.76564469176E+00
2.45256139571E+06	-1.03667829461E+01	1.75431464988E+02	2.81323202434E+01	1.18897406869E+02	-3.80125257871E+01	1.07528942641E+02	-6.07075746137E+00	-6.81863753792E-01
2.47475275031E+06	-1.85606557180E+01	1.57093096483E+02	2.80631264910E+01	1.18818165586E+02	-4.04584585058E+01	-1.64842559909E+02	-5.96862893981E+00	-9.16726100877E-01
2.49694410490E+06	-9.58249396262E+00	-1.73726115137E+02	2.80765936659E+01	1.18051012129E+02	-4.56967878597E+01	1.53470150019E+02	-5.99902283848E+00	-1.47528164918E+00
2.51913545950E+06	-9.27796900303E+00	1.68090734451E+02	2.79833269839E+01	1.17688877358E+02	-3.69785396261E+01	3.30666136290E+01	-5.98167180391E+00	-1.17266361397E+00
2.54132681409E+06	-9.32224750484E+00	1.73880275290E+02	2.79590730966E+01	1.17129130132E+02	-5.86167573339E+01	1.75609544800E+02	-6.04666433195E+00	-1.16170062397E+00
2.56351816869E+06	-9.20798422926E+00	1.77533843495E+02	2.79117214606E+01	1.17360718238E+02	-4.41566307710E+01	4.60051832759E-01	-5.93598147700E+00	-1.51040397556E+00
2.58570952328E+06	-1.07890473038E+01	-1.75184428252E+02	2.78876818658E+01	1.16702235690E+02	-4.81737068091E+01	1.73145608918E+02	-5.89877132748E+00	-2.32027870212E+00
2.60790087788E+06	-8.19298652264E+00	1.68159190635E+02	2.78487843415E+01	1.16250896108E+02	-5.36049190159E+01	-3.70798990828E+00	-5.81584584364E+00	-2.60639381467E+00
2.63009223247E+06	-1.16050428301E+01	1.74600770970E+02	2.77969562470E+01	1.15864465031E+02	-4.34859412501E+01	-1.68579891231E+02	-5.97167796072E+00	-1.14856481401E+00
2.65228358707E+06	-1.02836536195E+01	-1.68137699087E+02	2.77345462268E+01	1.15750068883E+02	-4.07201114363E+01	-1.71112193615E+01	-5.92836434375E+00	-1.78022934626E+00
2.67447494166E+06	-1.30605506837E+01	1.60092673877E+02	2.76807116198E+01	1.15257014893E+02	-4.13681174621E+01	1.67139527767E+02	-5.93077699671E+00	-1.69895541670E+00
2.69666629626E+06	-1.44815542771E+01	1.65303513032E+02	2.76452781070E+01	1.14776647024E+02	-3.31079114660E+01	-1.18504180072E+02	-5.98720553936E+00	-1.55662274370E+00
2.71885765085E+06	-8.47936747306E+00	-1.57930817818E+02	2.76178444087E+01	1.14511040029E+02	-5.44407473414E+01	-6.93372231479E-01	-5.97896204037E+00	-1.37425273091E+00
2.74104900545E+06	-1.48822962396E+01	-1.76563601422E+02	2.75661477208E+01	1.14200165589E+02	-4.59177403503E+01	1.35206499514E+02	-6.06672181523E+00	-1.47227481883E+00
2.76324036004E+06	-9.67152988082E+00	-1.66602238677E+02	2.75491632166E+01	1.13689699680E+02	-4.37377993494E+01	1.57635559523E+02	-5.90286898567E+00	-1.10555574899E+00
2.78543171463E+06	-9.44902658360E+00	-1.69539485047E+02	2.74356327142E+01	1.13388132330E+02	-4.80864405426E+01	-3.20897998040E+01	-5.94643872348E+00	-9.47596816070E-01
2.80762306923E+06	-1.02227419489E+01	-1.64849954577E+02	2.74061921148E+01	1.13230288297E+02	-5.45608173942E+01	1.04280569857E+02	-5.97142786636E+00	-1.31338846010E+00
2.82981442382E+06	-8.72631562521E+00	1.66430336231E+02	2.73779943844E+01	1.12676593131E+02	-4.40652743196E+01	-1.51986667653E+02	-5.97055067836E+00	-1.53897008535E+00
2.85200577842E+06	-1.22884940480E+01	-1.77481348558E+02	2.73386270506E+01	1.12629777694E+02	-4.67109545405E+01	1.35931346927E+02	-5.89595040208E+00	-1.33699467662E+00
2.87419713301E+06	-1.10711731729E+01	-1.69131300908E+02	2.72723421812E+01	1.11968129884E+02	-4.16912987770E+01	-9.12024611618E+01	-5.93332323287E+00	-1.15837610541E+00
