# Hz S DB R 50
! CMT, M5065, 19127446, 24.2.4/2
! Date: 10/29/2024 12:11:46 PM
! Data: Format (Calibration Info)
! Freq	S11:dB/Ang(F2)	S21:dB/Ang(F2)	S12:dB/Ang(F2)	S22:dB/Ang(F2)
3.00000000000E+05	-1.03872415146E+01	-1.71777586462E+02	7.38176211006E+00	-1.78117602323E+02	-4.64429138710E+01	-1.19443492890E+01	-5.97838562949E+00	-1.94703868581E-01
3.22191354595E+05	-9.45213556373E+00	1.77139261637E+02	7.38317094069E+00	-1.78367362291E+02	-4.32994914221E+01	-6.81997567684E+01	-5.96466729850E+00	-2.34194310799E-01
3.44382709190E+05	-1.03099415683E+01	1.76802668245E+02	7.38389804339E+00	-1.78950428848E+02	-5.74970506678E+01	7.04846159343E+01	-5.96625378659E+00	-2.40381522505E-01
3.66574063785E+05	-1.20078372788E+01	1.76511440402E+02	7.38696181266E+00	-1.78994662446E+02	-5.06186720338E+01	-1.48395861553E+02	-5.97929501875E+00	-2.71673426702E-01
3.88765418380E+05	-1.12801376745E+01	1.73073499744E+02	7.37277930389E+00	-1.79231097889E+02	-4.89784285127E+01	1.73916640675E+02	-5.98753498558E+00	-4.07000256825E-01
4.10956772975E+05	-1.09622515431E+01	-1.53599508532E+02	7.41958856503E+00	-1.79546762889E+02	-4.87611922303E+01	-1.67242690916E+01	-5.99933839589E+00	-3.90378071237E-01
4.33148127570E+05	-8.26321618873E+00	-1.72332755296E+02	7.43175421174E+00	-1.79609531317E+02	-4.64718285060E+01	1.39711026615E+02	-5.97825775610E+00	-1.15949432970E-01
4.55339482165E+05	-9.31380029524E+00	-1.69018740349E+02	7.41334215865E+00	-1.79904909056E+02	-4.87988545380E+01	1.37715429871E+02	-5.96963621172E+00	-2.68810705296E-01
4.77530836760E+05	-9.26955942713E+00	-1.72013001549E+02	7.38639340715E+00	-1.79969414556E+02	-4.94078838456E+01	3.66123406888E+01	-5.96712912816E+00	-4.17993764965E-01
4.99722191355E+05	-1.23415174101E+01	-1.74323924082E+02	7.40675952754E+00	1.79452574502E+02	-4.53352019180E+01	-1.66272459392E+02	-5.97939041219E+00	-3.96352298375E-01
5.21913545950E+05	-9.90432075641E+00	1.77306634882E+02	7.41311631120E+00	1.79329044023E+02	-4.44050086651E+01	-1.55755815522E+02	-5.99791242412E+00	-4.29965697064E-01
5.44104900545E+05	-9.51233405354E+00	1.73415119690E+02	7.36782083885E+00	1.79527015795E+02	-4.65318490032E+01	-2.21182363204E+01	-5.97685905830E+00	-3.70031613010E-01
5.66296255139E+05	-1.07954965446E+01	1.70225583378E+02	7.38538180319E+00	1.79247076808E+02	-4.83952847341E+01	1.64303643866E+02	-5.98243019362E+00	-4.06779826202E-01
5.88487609734E+05	-1.20618353130E+01	1.73935459893E+02	7.40414747561E+00	1.78904088438E+02	-5.71895415244E+01	5.34217972291E+01	-5.97573907402E+00	-4.71284691452E-01
6.10678964329E+05	-9.86277693261E+00	1.78322485212E+02	7.38993406824E+00	1.78779102930E+02	-4.39324397422E+01	-2.82404262396E+01	-5.98564409024E+00	-7.81303911145E-02
6.32870318924E+05	-9.91182225986E+00	-1.72089354247E+02	7.37204541070E+00	1.78831584942E+02	-4.20580678406E+01	-1.60104448594E+02	-5.98090591359E+00	-3.35888159281E-01
6.55061673519E+05	-9.28480176426E+00	-1.72623408030E+02	7.39723155835E+00	1.78337860811E+02	-4.36630906440E+01	-1.76911278420E+02	-5.97100256388E+00	-1.59777086606E-01
6.77253028114E+05	-7.60697045520E+00	-1.77447372928E+02	7.44190911374E+00	1.78038126314E+02	-5.47686844642E+01	-9.16959124101E+01	-5.95903530899E+00	-7.46439977541E-01
6.99444382709E+05	-1.00056934596E+01	-1.71540971896E+02	7.39209144499E+00	1.77984531080E+02	-4.70200707045E+01	-1.39901526730E+02	-5.98243340960E+00	-4.52125021917E-01
7.21635737304E+05	-1.01991400616E+01	-1.78231427670E+02	7.39939255947E+00	1.77994858621E+02	-5.23523962973E+01	1.18081601814E+02	-5.95520063784E+00	-5.36101480498E-01
7.43827091899E+05	-1.03991947769E+01	-1.77994950559E+02	7.41107705117E+00	1.77648199548E+02	-4.17846278186E+01	6.25076887614E+01	-5.97735157465E+00	-6.04174734988E-01
7.66018446494E+05	-1.07362387666E+01	-1.77911556051E+02	7.39052924864E+00	1.77830520366E+02	-5.26332984009E+01	-7.96514207788E+01	-5.99530623630E+00	-4.22539573036E-01
7.88209801089E+05	-1.10868931000E+01	-1.78283525016E+02	7.41069883146E+00	1.77549359086E+02	-4.47176374235E+01	1.38543013571E+02	-5.96763785107E+00	-4.86252170940E-01
8.10401155684E+05	-1.08354798402E+01	1.74000727833E+02	7.38382741648E+00	1.77070011691E+02	-4.68923012370E+01	1.49830113927E+02	-5.97621263154E+00	-5.42380299073E-01
8.32592510279E+05	-8.94540387520E+00	-1.71231147925E+02	7.40991169753E+00	1.77216071759E+02	-3.88045933378E+01	-1.16801335406E+02	-5.98232907894E+00	-5.23020722180E-01
8.54783864874E+05	-1.06884238710E+01	1.59529122488E+02	7.40475709428E+00	1.77003650044E+02	-5.07089036622E+01	1.44676678755E+02	-5.97825001148E+00	-5.28679509146E-01
8.76975219469E+05	-9.31644910634E+00	-1.70006603617E+02	7.33786788827E+00	1.76995584452E+02	-4.51613041201E+01	-1.27608099763E+02	-5.97337819514E+00	-4.86669807519E-01
8.99166574064E+05	-1.10299150860E+01	1.71141214015E+02	7.40245863452E+00	1.76878791699E+02	-4.48042956865E+01	-1.52827339883E+02	-5.98925316556E+00	-6.45093025292E-01
9.21357928659E+05	-9.71471167181E+00	-1.74549194846E+02	7.39864557538E+00	1.76386419595E+02	-5.14633791580E+01	9.55836632840E+01	-5.96243153084E+00	-6.13948099792E-01
9.43549283254E+05	-1.02064337480E+01	-1.72127030747E+02	7.41606704786E+00	1.76415020139E+02	-4.03901146755E+01	-1.60589915167E+02	-5.97885509562E+00	-6.17908084811E-01
9.65740637849E+05	-9.56177990920E+00	-1.75013486011E+02	7.42622260502E+00	1.76431740012E+02	-5.22394623964E+01	1.64230733948E+02	-5.98196911488E+00	-6.73860973676E-01
9.87931992444E+05	-1.15791017317E+01	-1.66074537996E+02	7.36656744582E+00	1.76354669689E+02	-4.58780084159E+01	1.37983776156E+02	-5.98407354920E+00	-5.76038164442E-01
1.01012334704E+06	-1.07950836372E+01	1.77371027494E+02	7.37915360346E+00	1.76098454106E+02	-4.19117924309E+01	1.07101167601E+02	-5.97035452179E+00	-6.00310391508E-01
1.03231470163E+06	-1.23810257793E+01	1.76993245712E+02	7.37817728638E+00	1.76103572655E+02	-4.90831699556E+01	-2.81184602039E+01	-5.98459374707E+00	-5.96434408049E-01
1.05450605623E+06	-9.58910359369E+00	1.76267317089E+02	7.39348073604E+00	1.75735042312E+02	-5.24205294002E+01	-2.17711701962E+01	-5.98638768560E+00	-6.15059841169E-01
1.07669741082E+06	-9.02417764410E+00	1.77125997841E+02	7.42139064538E+00	1.75600619775E+02	-5.00769553633E+01	3.09787596124E+01	-5.96299909997E+00	-6.00739856836E-01
1.09888876542E+06	-1.03968085391E+01	-1.70735804519E+02	7.39873831785E+00	1.75492232966E+02	-5.21538364133E+01	-1.26414035982E+02	-5.97725963856E+00	-6.44204782386E-01
1.12108012001E+06	-1.09350821045E+01	-1.73516731301E+02	7.39298373159E+00	1.75534869119E+02	-4.08778605714E+01	1.56462623324E+02	-5.96899524287E+00	-6.02946002555E-01
1.14327147461E+06	-9.75565911185E+00	-1.74407346192E+02	7.39105855631E+00	1.75208711858E+02	-4.18685564253E+01	4.24790402762E+01	-5.97197275621E+00	-6.96194208209E-01
1.16546282920E+06	-9.80514892136E+00	-1.67603710442E+02	7.38373625526E+00	1.75307918827E+02	-4.11023278818E+01	-1.08832022072E+02	-5.98381518490E+00	-7.44054941112E-01
1.18765418380E+06	-1.09628743735E+01	-1.79048036851E+02	7.39577644380E+00	1.75308311990E+02	-4.95629449762E+01	-9.86051537064E+01	-5.98302764386E+00	-8.82438229158E-01
1.20984553839E+06	-9.65457648052E+00	-1.75685383546E+02	7.39500687206E+00	1.75097293355E+02	-5.68766861969E+01	1.25847323406E+02	-5.97479288778E+00	-8.71385535626E-01
1.23203689299E+06	-1.07988254748E+01	-1.74514601687E+02	7.41330264653E+00	1.74970468976E+02	-4.36562423755E+01	1.08212718461E+01	-5.98727790684E+00	-4.74768360433E-01
1.25422824758E+06	-9.47676542813E+00	1.70769516189E+02	7.43504739122E+00	1.74648420246E+02	-4.20994058296E+01	8.36901463612E+01	-5.97719680578E+00	-6.85532249065E-01
1.27641960218E+06	-1.02473308810E+01	-1.76168582946E+02	7.40345403176E+00	1.74711195905E+02	-4.25281470102E+01	1.28590895409E+02	-6.00272950119E+00	-6.56521370966E-01
1.29861095677E+06	-1.03980291002E+01	-1.71975918998E+02	7.43847785159E+00	1.74602290560E+02	-4.03823838803E+01	-1.52701363388E+02	-5.97919544223E+00	-6.44930650648E-01
1.32080231137E+06	-8.89995110309E+00	1.71271423779E+02	7.40332299322E+00	1.74284591374E+02	-5.16161339800E+01	4.18682211605E-03	-5.97827065941E+00	-1.14318984161E+00
1.34299366596E+06	-1.04583201586E+01	1.76410714131E+02	7.37018017693E+00	1.74364009387E+02	-4.85186518982E+01	5.03376397984E+01	-5.96976647906E+00	-8.54258674278E-01
1.36518502056E+06	-1.04851528577E+01	1.78919402166E+02	7.40361990822E+00	1.74097661950E+02	-4.14776201159E+01	-1.64612245668E+02	-5.96773162589E+00	-7.60861556519E-01
1.38737637515E+06	-9.18086037133E+00	-1.76074585492E+02	7.41079895944E+00	1.73966525357E+02	-4.76081965819E+01	1.60889869953E+02	-5.96417926302E+00	-6.87570553694E-01
1.40956772975E+06	-1.20994347342E+01	-1.70071234792E+02	7.42104006496E+00	1.73948570515E+02	-4.33199031337E+01	-5.07218907230E-01	-5.97156777452E+00	-6.98248872038E-01
1.43175908434E+06	-1.06480156967E+01	-1.65647355103E+02	7.37491444544E+00	1.73627105616E+02	-4.05475424341E+01	-1.66581774120E+01	-5.95124396672E+00	-5.91313588589E-01
1.45395043894E+06	-1.01095985490E+01	1.76624234326E+02	7.40357091519E+00	1.73871771582E+02	-4.86061444702E+01	7.24546204749E+01	-5.95420365056E+00	-7.04364520031E-01
1.47614179353E+06	-9.99829925317E+00	-1.76360719305E+02	7.40640124379E+00	1.73793462770E+02	-3.97504451800E+01	1.35244879204E+01	-5.96736258757E+00	-6.98421194907E-01
1.49833314813E+06	-9.56708508074E+00	1.77567955418E+02	7.43800387188E+00	1.73629153478E+02	-4.52476643376E+01	-6.79278683121E+01	-5.96922819931E+00	-9.25290621161E-01
1.52052450272E+06	-7.55280448498E+00	1.75665148366E+02	7.38656675205E+00	1.73196551944E+02	-4.49677532047E+01	-3.91409338810E+01	-5.97738005463E+00	-8.48367846699E-01
1.54271585732E+06	-1.03772638402E+01	-1.78883975766E+02	7.44033001775E+00	1.73021577112E+02	-4.40096452537E+01	1.09480700827E+02	-5.96993658927E+00	-6.92552279214E-01
1.56490721191E+06	-9.12300349191E+00	-1.74446186467E+02	7.38633089014E+00	1.73118918669E+02	-4.47671131726E+01	1.28596925738E+02	-5.98146528262E+00	-7.20745119589E-01
1.58709856651E+06	-1.24967106379E+01	-1.69856311614E+02	7.41441728634E+00	1.72962638592E+02	-4.44343950003E+01	1.50907037409E+02	-5.96953322976E+00	-7.53720674354E-01
1.60928992110E+06	-1.04332891782E+01	-1.77067265251E+02	7.44850760314E+00	1.73049883262E+02	-4.84839799049E+01	-1.47298703868E+02	-5.97574517739E+00	-8.35678059618E-01
1.63148127570E+06	-1.10487444008E+01	-1.79845845236E+02	7.38684883314E+00	1.72456844762E+02	-4.56366007582E+01	-7.00003904348E+01	-5.97137678933E+00	-8.63525678879E-01
1.65367263029E+06	-8.94338050790E+00	-1.71510148773E+02	7.37408971414E+00	1.72626278141E+02	-4.39273603947E+01	-1.37538642464E+01	-5.98837690208E+00	-1.00315548448E+00
1.67586398489E+06	-9.79156715221E+00	1.75344170989E+02	7.41496569820E+00	1.72559188139E+02	-6.22174910663E+01	1.09996970206E+02	-5.98044405857E+00	-8.16073663860E-01
1.69805533948E+06	-1.04648865994E+01	-1.69381671696E+02	7.38438210510E+00	1.72383657158E+02	-5.60076767438E+01	4.16859079688E+01	-5.94735018884E+00	-8.86406112177E-01
1.72024669408E+06	-1.17195839440E+01	-1.71702090467E+02	7.37976070115E+00	1.72502926315E+02	-5.58768751851E+01	1.05552928850E+01	-5.96347416573E+00	-8.63509660919E-01
1.74243804867E+06	-9.47802612344E+00	1.77786732175E+02	7.40060840695E+00	1.71945494722E+02	-4.87021496362E+01	-7.96576998822E+01	-5.99142933321E+00	-1.02562404119E+00
1.76462940327E+06	-9.73579326238E+00	1.77281900418E+02	7.41417046855E+00	1.71642671513E+02	-5.36272262706E+01	1.04625658588E+02	-5.97125597180E+00	-7.89471774212E-01
1.78682075786E+06	-9.84395802900E+00	-1.78957169334E+02	7.40910692105E+00	1.71909028995E+02	-4.36429819391E+01	-7.45672607522E+01	-5.99273444892E+00	-1.04818760321E+00
1.80901211246E+06	-9.20596153730E+00	1.69829733654E+02	7.39087104631E+00	1.71517478899E+02	-5.35419813918E+01	1.03367491518E+02	-5.98541416704E+00	-6.77152587242E-01
1.83120346705E+06	-1.03148046296E+01	-1.79572247009E+02	7.42971615319E+00	1.71722287583E+02	-6.03349612022E+01	7.69410657056E+01	-5.97812982689E+00	-8.69075019326E-01
1.85339482165E+06	-1.16057236350E+01	-1.74286638608E+02	7.37455237415E+00	1.71550889237E+02	-6.08793686913E+01	-9.78201060678E+01	-5.99636652946E+00	-9.00780099322E-01
1.87558617624E+06	-1.02799565406E+01	1.73403337126E+02	7.40335769750E+00	1.71235066443E+02	-5.14830044075E+01	-4.57767867838E+01	-5.98409966818E+00	-9.28547129424E-01
1.89777753084E+06	-1.00707554767E+01	-1.71285125996E+02	7.39493380890E+00	1.71344508013E+02	-3.97280397277E+01	9.13023143190E+00	-5.99038606569E+00	-9.95069777249E-01
1.91996888543E+06	-1.02683900752E+01	1.77213188090E+02	7.44435333603E+00	1.71460984642E+02	-4.04091836637E+01	-1.49889904470E+02	-5.98495269189E+00	-8.44220242999E-01
1.94216024003E+06	-1.19356106768E+01	1.79106929261E+02	7.39430617467E+00	1.71098535069E+02	-4.76641629793E+01	-1.45754397562E+02	-5.98082404363E+00	-1.01076882766E+00
1.96435159462E+06	-1.11830775269E+01	-1.74705155112E+02	7.37534140963E+00	1.70764134179E+02	-4.70594062950E+01	1.00470078957E+02	-5.95989395684E+00	-8.36106962005E-01
1.98654294922E+06	-8.20108249907E+00	1.74145157011E+02	7.39621293524E+00	1.70795240212E+02	-4.40672443176E+01	1.30099446732E+02	-5.96788274734E+00	-9.99441379245E-01
2.00873430381E+06	-9.64088373596E+00	1.73698194431E+02	7.38702482273E+00	1.70752017202E+02	-4.21759080042E+01	-4.37866905648E+01	-5.94969535727E+00	-1.06501420577E+00
2.03092565841E+06	-8.16573986792E+00	1.78122304933E+02	7.48234155230E+00	1.70596225291E+02	-4.93337368036E+01	-2.48461006966E+01	-5.99417578722E+00	-8.81180317975E-01
2.05311701300E+06	-9.76434830727E+00	1.74601969343E+02	7.38261499549E+00	1.70552729791E+02	-4.97388823468E+01	-1.48481132763E+02	-5.95493079220E+00	-8.89123046184E-01
2.07530836760E+06	-1.20323096325E+01	1.78198587317E+02	7.41128694123E+00	1.70322719738E+02	-5.07134445216E+01	6.62233861042E+01	-5.95004679039E+00	-1.08434372976E+00
2.09749972219E+06	-8.74343583778E+00	1.76497058474E+02	7.42488827124E+00	1.70352596387E+02	-4.34146129421E+01	-1.65138397717E+02	-5.96665334369E+00	-9.29030090007E-01
2.11969107679E+06	-9.64426843891E+00	-1.73597223855E+02	7.39939065014E+00	1.70113659208E+02	-4.44772563452E+01	5.95903419444E+01	-5.95197662831E+00	-9.61080228305E-01
2.14188243138E+06	-9.56496596137E+00	1.71470181261E+02	7.41533867307E+00	1.70050993541E+02	-6.63845768232E+01	-2.13346284577E+01	-5.96993261329E+00	-1.07412778508E+00
2.16407378598E+06	-9.74625802081E+00	-1.74907056525E+02	7.42091103745E+00	1.69960476803E+02	-4.73855426656E+01	3.78816018140E+01	-5.96606437085E+00	-1.00497579477E+00
2.18626514057E+06	-9.79192997080E+00	1.70881699817E+02	7.35962844758E+00	1.69813261698E+02	-5.26960762041E+01	1.45938200345E+02	-5.98575916150E+00	-1.05254569083E+00
2.20845649517E+06	-9.86234715531E+00	1.71202524918E+02	7.43165491370E+00	1.69525818924E+02	-4.99373966905E+01	2.29365524532E+01	-5.98103062118E+00	-9.75693201386E-01
2.23064784976E+06	-8.75876529071E+00	-1.72520009187E+02	7.39726746520E+00	1.69807596193E+02	-4.38177629301E+01	-6.61897202637E+01	-5.98946414113E+00	-1.19084749039E+00
2.25283920436E+06	-1.10074561225E+01	1.76958356510E+02	7.37062714923E+00	1.69778296117E+02	-4.75216779069E+01	-5.73633559910E+01	-5.98639635856E+00	-1.06412975225E+00
2.27503055895E+06	-1.14260406021E+01	1.69042308702E+02	7.38291030458E+00	1.69464912534E+02	-5.06040641997E+01	1.71406085337E+02	-5.97309377084E+00	-1.10777784522E+00
2.29722191355E+06	-1.12507355581E+01	-1.78601929980E+02	7.39796929524E+00	1.69168254687E+02	-4.85231549827E+01	1.29784327413E+02	-5.95660399672E+00	-1.11736446807E+00
2.31941326814E+06	-1.04400057711E+01	1.78244157205E+02	7.39711856620E+00	1.69129082993E+02	-4.41386678334E+01	-1.50719935752E+02	-5.96478997534E+00	-1.05095475918E+00
2.34160462274E+06	-1.04174095714E+01	1.59998522848E+02	7.38929952472E+00	1.69001583737E+02	-4.33627395344E+01	8.49539672392E+01	-5.93443388775E+00	-1.11856012917E+00
2.36379597733E+06	-1.10989529761E+01	-1.63721449133E+02	7.39405141203E+00	1.68888317508E+02	-5.04652373962E+01	-4.89639581075E+01	-5.97212545667E+00	-1.13074277347E+00
2.38598733193E+06	-1.35101412779E+01	1.68015554543E+02	7.38998810339E+00	1.68985190484E+02	-4.61620596408E+01	-1.88342549464E+01	-5.96611710300E+00	-1.05523630723E+00
2.40817868652E+06	-1.02721194467E+01	-1.79069318573E+02	7.42821004536E+00	1.68496390489E+02	-4.47811804995E+01	2.55144688980E+01	-5.95155312595E+00	-1.13725561793E+00
2.43037004112E+06	-1.13702167603E+01	-1.74171450866E+02	7.38450157607E+00	1.68579298156E+02	-4.31629685521E+01	-1.64601910385E+02	-5.96743152121E+00	-1.40281878045E+00
2.45256139571E+06	-8.72137818938E+00	-1.76140511434E+02	7.39655054603E+00	1.68649931862E+02	-4.71092412309E+01	3.66169928145E+01	-5.99420972795E+00	-1.01283924004E+00
2.47475275031E+06	-1.00481928526E+01	-1.77748097276E+02	7.42760752904E+00	1.68500219870E+02	-5.15414278803E+01	-4.82350804583E+01	-5.98935808304E+00	-1.11664101107E+00
2.49694410490E+06	-9.82885987537E+00	1.74814959758E+02	7.40987041277E+00	1.68348791769E+02	-5.13852011266E+01	4.56854675981E+01	-5.98090116007E+00	-9.46903935437E-01
2.51913545950E+06	-9.75558723796E+00	1.76981018542E+02	7.39124992350E+00	1.68157402782E+02	-4.36289665215E+01	-1.54597114805E+02	-5.95619473349E+00	-8.68484098232E-01
2.54132681409E+06	-9.55398787385E+00	1.76423765203E+02	7.39952146748E+00	1.67988536174E+02	-4.75456654610E+01	-6.40717424971E+01	-5.97915299207E+00	-1.27050867667E+00
2.56351816869E+06	-1.35707849721E+01	-1.78174695487E+02	7.36846574677E+00	1.68410089174E+02	-4.89899942289E+01	-9.15256401814E+01	-5.97380647060E+00	-1.16327629677E+00
2.58570952328E+06	-1.03394198957E+01	-1.77792041984E+02	7.42878784016E+00	1.67980746681E+02	-4.57941098774E+01	-1.06966121418E+02	-5.97882839579E+00	-1.10139229960E+00
2.60790087788E+06	-1.03253971181E+01	-1.74071186004E+02	7.42784550871E+00	1.67560356034E+02	-4.56002835924E+01	-9.49169258711E+00	-5.96294119392E+00	-1.25847442353E+00
2.63009223247E+06	-1.05811677317E+01	1.78165384028E+02	7.39096680809E+00	1.67822637515E+02	-5.26706173599E+01	1.45695979305E+02	-5.97088847435E+00	-1.19769235987E+00
2.65228358707E+06	-9.52965979255E+00	-1.71868075077E+02	7.40839140136E+00	1.67423098908E+02	-4.20725266237E+01	-1.10231570328E+02	-6.00227862268E+00	-1.68414637949E+00
2.67447494166E+06	-9.32326767649E+00	1.78570082056E+02	7.39405943428E+00	1.67411457857E+02	-5.64249885559E+01	6.33041368625E-01	-5.95732306451E+00	-1.37992362478E+00
2.69666629626E+06	-8.98284118561E+00	-1.79808140677E+02	7.41615471263E+00	1.67084339124E+02	-4.24175791789E+01	-2.77144677159E+01	-5.96650197766E+00	-1.10315065809E+00
2.71885765085E+06	-1.20854293452E+01	1.71764430566E+02	7.41162188973E+00	1.67162189934E+02	-4.12061725877E+01	3.65269958448E+01	-5.96528895855E+00	-1.21589050648E+00
2.74104900545E+06	-1.12954501229E+01	-1.77830991428E+02	7.41768989815E+00	1.67135383537E+02	-4.55656482679E+01	1.43677048962E+02	-5.94293533405E+00	-1.45143352970E+00
2.76324036004E+06	-1.08702550017E+01	1.77534817555E+02	7.41967197897E+00	1.66858953468E+02	-4.95219572479E+01	1.60359073332E+02	-5.98157821444E+00	-1.15566721912E+00
2.78543171463E+06	-1.09303108250E+01	1.66118695125E+02	7.40585140522E+00	1.66802470190E+02	-4.94995953711E+01	-2.70469174070E+01	-5.97441749252E+00	-1.26080721031E+00
2.80762306923E+06	-9.09497656960E+00	1.75696102930E+02	7.41232547555E+00	1.66508942916E+02	-4.37470226038E+01	1.61028930109E+02	-5.96943652203E+00	-1.29352688864E+00
2.82981442382E+06	-1.36457251196E+01	-1.77298371298E+02	7.40958335925E+00	1.66727988475E+02	-4.78096215804E+01	-1.74853189588E+02	-5.96117715429E+00	-1.41393010162E+00
2.85200577842E+06	-8.21757828395E+00	1.73514267088E+02	7.41450510540E+00	1.66597696446E+02	-4.46959743984E+01	-9.95653824994E+01	-5.96189487598E+00	-1.18087193371E+00
2.87419713301E+06	-9.83924054645E+00	1.78518940786E+02	7.39485780516E+00	1.66423545674E+02	-5.23529919259E+01	9.84611498091E+01	-5.97176662927E+00	-1.36364627485E+00
