# Hz S DB R 50
! CMT, M5065, 19127446, 24.2.4/2
! Date: 10/29/2024 12:33:56 PM
! Data: Format (Calibration Info)
! Freq	S11:dB/Ang(F2)	S21:dB/Ang(F2)	S12:dB/Ang(F2)	S22:dB/Ang(F2)
3.00000000000E+05	-8.66621427961E+00	-1.65836280118E+02	1.12784830935E+01	-1.78239690798E+02	-4.65217823455E+01	1.07051857946E+02	-6.01082687831E+00	-2.19277497542E-01
3.22191354595E+05	-1.15756928329E+01	-1.44304316995E+02	1.12358244785E+01	-1.78363337278E+02	-3.93985918308E+01	-9.93252946496E+01	-5.99797652211E+00	-2.31263823423E-01
3.44382709190E+05	-1.22937899640E+01	-1.70182271256E+02	1.12271119617E+01	-1.78650334348E+02	-4.64435109787E+01	-1.69406371467E+02	-5.97318985189E+00	-3.14269614893E-01
3.66574063785E+05	-8.44143849046E+00	-1.66782255809E+02	1.12789428757E+01	-1.79265992929E+02	-5.17209284785E+01	-1.42298873607E+02	-5.98216860563E+00	-2.62014168932E-01
3.88765418380E+05	-1.04614205924E+01	1.78608407553E+02	1.12088377634E+01	-1.79291467963E+02	-4.61467189604E+01	6.29661179485E+01	-5.98770488642E+00	-1.60310985327E-01
4.10956772975E+05	-7.71707033986E+00	1.73085507040E+02	1.13016877447E+01	-1.79740161228E+02	-3.49843917030E+01	1.45193993309E+02	-5.97151112750E+00	-3.23364271057E-01
4.33148127570E+05	-1.01183010318E+01	1.70069865055E+02	1.12662597817E+01	1.79964848623E+02	-3.56392524953E+01	1.59170086079E+02	-5.93343358695E+00	-4.43156132518E-01
4.55339482165E+05	-1.06649256446E+01	-1.74165590670E+02	1.12852319214E+01	1.79412270246E+02	-4.20106786721E+01	3.17426092694E+00	-5.96490061758E+00	-5.71433425356E-01
4.77530836760E+05	-1.41887519086E+01	1.78904651022E+02	1.13180288425E+01	1.79565273877E+02	-3.77771891528E+01	-4.96110631869E+01	-6.01469256080E+00	-3.38577728800E-01
4.99722191355E+05	-1.05961474145E+01	1.74588676907E+02	1.12648967621E+01	1.79468717853E+02	-4.24600238927E+01	-4.31638631578E+01	-5.96993211477E+00	-4.65520619771E-01
5.21913545950E+05	-1.72053232583E+01	-1.61678538251E+02	1.12927776425E+01	1.79016338265E+02	-4.43251184125E+01	-1.79859917684E+02	-6.02289044571E+00	-3.22566484694E-01
5.44104900545E+05	-1.12190928377E+01	-1.76391559685E+02	1.13215904895E+01	1.79002673938E+02	-4.00367972483E+01	1.29391123372E+02	-6.01584491018E+00	-4.55302582121E-01
5.66296255139E+05	-1.15860877298E+01	-1.61701756579E+02	1.12311355454E+01	1.78768426489E+02	-3.98675196502E+01	6.59568640937E+01	-5.93124050163E+00	-6.79300769383E-01
5.88487609734E+05	-9.51350640520E+00	-1.75382487496E+02	1.12565864242E+01	1.78453347033E+02	-3.42553458117E+01	-1.61781842375E+02	-5.98322518667E+00	-7.26735618573E-01
6.10678964329E+05	-9.50497043197E+00	1.72769818245E+02	1.12608172833E+01	1.78204146912E+02	-3.68956341245E+01	-4.23544603154E+01	-6.00814831363E+00	-2.89782848084E-01
6.32870318924E+05	-8.97066532176E+00	1.75338717188E+02	1.13171992538E+01	1.78005304725E+02	-4.05114871600E+01	-1.11294371371E+01	-5.93747728882E+00	-3.32118237181E-01
6.55061673519E+05	-1.14558401365E+01	1.72808651823E+02	1.13274691074E+01	1.77891504722E+02	-4.38205497783E+01	-3.87480622408E+01	-5.97882473822E+00	-1.03555863779E-01
6.77253028114E+05	-8.89172913593E+00	1.78750757487E+02	1.12927595107E+01	1.77727175729E+02	-4.33411141422E+01	2.80032319902E+01	-6.00060184357E+00	-6.64935637145E-01
6.99444382709E+05	-1.14752870467E+01	-1.67289270006E+02	1.12948087277E+01	1.77703851614E+02	-4.38444313907E+01	-1.02644478315E+02	-5.97117375887E+00	-5.56909690822E-01
7.21635737304E+05	-1.01886447651E+01	1.51433143501E+02	1.12390836618E+01	1.77318493722E+02	-4.06811939126E+01	4.34012767511E+01	-5.99702419715E+00	-3.56191824054E-01
7.43827091899E+05	-9.06622836124E+00	1.77905202030E+02	1.12592707571E+01	1.76934601414E+02	-3.76655317855E+01	7.43945277035E+01	-6.02928696979E+00	-5.01291252316E-01
7.66018446494E+05	-9.42092153619E+00	-1.79280690321E+02	1.13285440627E+01	1.76692701912E+02	-3.73398459907E+01	1.03935060630E+02	-5.97173571669E+00	-3.08045940148E-01
7.88209801089E+05	-1.39039625870E+01	1.64542982208E+02	1.12967079078E+01	1.76656183390E+02	-3.84722348596E+01	-8.32017332917E+01	-5.99264797862E+00	-5.36345246403E-01
8.10401155684E+05	-1.03262160062E+01	-1.73915515934E+02	1.12463758897E+01	1.76527421443E+02	-4.53976808564E+01	-1.41903655742E+02	-5.95435138310E+00	-7.39567084155E-01
8.32592510279E+05	-9.25595001186E+00	-1.59828890206E+02	1.12760531454E+01	1.76435138808E+02	-4.14178283237E+01	1.14080956317E+02	-6.00653965362E+00	-2.43006430460E-01
8.54783864874E+05	-1.17261626734E+01	-1.75022478533E+02	1.12884729369E+01	1.76254703822E+02	-3.83477498919E+01	-5.55085824077E+01	-5.93808410060E+00	-5.31498846645E-01
8.76975219469E+05	-8.72412421595E+00	1.77702719517E+02	1.12918371400E+01	1.76145171330E+02	-5.61111811363E+01	1.41563566858E+02	-5.91538584462E+00	-7.72983550950E-01
8.99166574064E+05	-9.34076526673E+00	-1.49814843980E+02	1.12530355589E+01	1.76126674087E+02	-4.35808932403E+01	1.08698532159E+02	-5.96854146458E+00	-3.57817276672E-01
9.21357928659E+05	-1.08459461390E+01	1.76509134137E+02	1.13576303739E+01	1.75893520089E+02	-4.79537306275E+01	-7.64645330918E+01	-5.93357729074E+00	-3.13495888901E-01
9.43549283254E+05	-1.07130341551E+01	-1.66750084634E+02	1.12747365317E+01	1.75315672052E+02	-4.29544322282E+01	4.75708053636E+01	-5.95700293509E+00	-3.24083281600E-01
9.65740637849E+05	-1.19403180401E+01	1.71682465982E+02	1.12874232533E+01	1.75549518751E+02	-3.74000010982E+01	1.32499404313E+02	-5.95689389518E+00	-4.44693151684E-01
9.87931992444E+05	-1.12476275508E+01	1.67440576559E+02	1.12857125792E+01	1.75508274772E+02	-3.41440908281E+01	1.42021863900E+02	-5.98915776691E+00	-4.87797985978E-01
1.01012334704E+06	-1.53412511322E+01	1.79948540166E+02	1.12938607688E+01	1.75013339894E+02	-4.25841302977E+01	-3.08197189758E+01	-5.96384153047E+00	-7.11139316232E-01
1.03231470163E+06	-9.35509973599E+00	1.68367918058E+02	1.12532752757E+01	1.74931509855E+02	-3.94450325942E+01	7.19547462085E+01	-5.95182967755E+00	-5.81459433018E-01
1.05450605623E+06	-1.78205985635E+01	1.66915238405E+02	1.12674804587E+01	1.74452054528E+02	-4.34764152370E+01	-1.01849712284E+02	-6.03061900360E+00	-8.97339079023E-01
1.07669741082E+06	-1.14235670688E+01	1.67498642869E+02	1.12794946546E+01	1.74699990356E+02	-4.59309181346E+01	-7.56380387161E+01	-6.00712234021E+00	-4.87031361425E-01
1.09888876542E+06	-1.12710014984E+01	1.76328693550E+02	1.12451260885E+01	1.74413076609E+02	-3.99670807004E+01	1.39676019166E+02	-5.98099840099E+00	-8.24252624039E-01
1.12108012001E+06	-1.06252914656E+01	1.55938444674E+02	1.12192856838E+01	1.74039477567E+02	-4.31627306640E+01	5.14801422287E+01	-5.95525251053E+00	-6.74622808785E-01
1.14327147461E+06	-7.72853408063E+00	1.64035596175E+02	1.12446653775E+01	1.74101963982E+02	-3.54952892246E+01	-5.23794187454E+01	-5.95810863303E+00	-6.39588296787E-01
1.16546282920E+06	-8.37170327049E+00	-1.73418092877E+02	1.13157608538E+01	1.74067651798E+02	-4.56015981045E+01	-1.71230407633E+02	-5.95499656025E+00	-2.90106815901E-01
1.18765418380E+06	-1.06370471084E+01	-1.63000168603E+02	1.13063895358E+01	1.73764562318E+02	-3.86031828523E+01	-2.02403858960E+01	-5.95156658282E+00	-5.22189439414E-01
1.20984553839E+06	-9.50303075568E+00	1.55711646529E+02	1.12840016365E+01	1.73756567416E+02	-5.19498047267E+01	-1.33383283419E+02	-5.97899156598E+00	-1.12327654067E+00
1.23203689299E+06	-1.17302062009E+01	1.78014257031E+02	1.12667923896E+01	1.73260760039E+02	-4.13825752337E+01	-4.39574534520E+01	-6.03133876043E+00	-5.36681569898E-01
1.25422824758E+06	-8.85925661650E+00	-1.76516241148E+02	1.12857759360E+01	1.73379225025E+02	-4.31412425513E+01	-1.73249628670E+02	-5.97028262361E+00	-6.87543246840E-01
1.27641960218E+06	-8.84328387313E+00	1.62981952387E+02	1.12865724831E+01	1.73658277221E+02	-5.40632926193E+01	1.42990437338E+01	-5.95593551940E+00	-5.20143099387E-01
1.29861095677E+06	-1.05184092897E+01	-1.62908429371E+02	1.12864400074E+01	1.73349534197E+02	-4.13258027912E+01	-9.71766626755E+01	-5.99326980414E+00	-7.64059701081E-01
1.32080231137E+06	-9.80500041609E+00	-1.73761523628E+02	1.12903245879E+01	1.73211287530E+02	-3.57915822954E+01	8.50197342671E+01	-5.89843767058E+00	-8.85188857362E-01
1.34299366596E+06	-1.00807191746E+01	-1.74798749185E+02	1.12575533781E+01	1.72873247991E+02	-3.64505812723E+01	-7.91522887404E+01	-5.98721555627E+00	-9.72979306619E-01
1.36518502056E+06	-9.38039929942E+00	-1.75685334028E+02	1.12522043017E+01	1.72492259268E+02	-3.44468990878E+01	-1.53958242594E+02	-5.96931499113E+00	-8.64072712252E-01
1.38737637515E+06	-7.49195697837E+00	-1.75792433239E+02	1.13231275311E+01	1.72344576704E+02	-4.00925720790E+01	-1.77457471151E+02	-5.99115351661E+00	-8.16309395972E-01
1.40956772975E+06	-1.05475570041E+01	1.71461229049E+02	1.12668228952E+01	1.72481676223E+02	-3.94883963971E+01	5.69239836496E+01	-5.94100354609E+00	-7.42984786896E-01
1.43175908434E+06	-9.30670622019E+00	-1.65387831885E+02	1.13000793687E+01	1.72110485473E+02	-4.66785214582E+01	1.30957217668E+01	-5.96495879445E+00	-8.35041078492E-01
1.45395043894E+06	-1.00546679372E+01	1.67722605459E+02	1.12648760595E+01	1.71576518159E+02	-4.67717867016E+01	1.64307784771E+02	-5.98944901333E+00	-7.42117622715E-01
1.47614179353E+06	-1.01804232063E+01	-1.60489557524E+02	1.12892895767E+01	1.71950355661E+02	-3.75189566484E+01	1.71674368693E+02	-5.96463143333E+00	-4.98530921520E-01
1.49833314813E+06	-9.21024180034E+00	-1.65623457157E+02	1.13255523259E+01	1.71893050501E+02	-3.65328376185E+01	4.16995390432E+01	-6.02793940815E+00	-9.52617575518E-01
1.52052450272E+06	-9.79258628180E+00	-1.68381370237E+02	1.12824639174E+01	1.71780963604E+02	-4.09483025729E+01	-1.37551364144E+02	-5.98848675670E+00	-1.05204992780E+00
1.54271585732E+06	-1.14883673462E+01	1.73450892146E+02	1.12766614619E+01	1.71661287753E+02	-4.49573306939E+01	1.05377948867E+02	-5.98157306984E+00	-9.33120034679E-01
1.56490721191E+06	-1.01737274568E+01	1.76355639636E+02	1.12554328923E+01	1.71263984283E+02	-3.10401665090E+01	9.97578500998E+01	-6.00372431228E+00	-1.07627985560E+00
1.58709856651E+06	-9.45479052503E+00	1.78879449829E+02	1.13301441009E+01	1.71008024282E+02	-4.88605805166E+01	1.05816419240E+02	-5.97838563908E+00	-5.60922874870E-01
1.60928992110E+06	-8.88316533343E+00	-1.79041245106E+02	1.12359579598E+01	1.71175169301E+02	-3.45442336905E+01	4.60228125297E+01	-6.00197449662E+00	-6.64261166738E-01
1.63148127570E+06	-9.13501261045E+00	-1.64387256225E+02	1.12761727586E+01	1.71016364224E+02	-3.75093558209E+01	-1.31062169661E+02	-5.94038012486E+00	-6.33455687638E-01
1.65367263029E+06	-8.69946501445E+00	-1.73061840092E+02	1.12842658180E+01	1.70833017938E+02	-4.39566259009E+01	1.73383394242E+01	-6.00314954820E+00	-7.90533471853E-01
1.67586398489E+06	-6.75326152110E+00	1.77151569818E+02	1.12414185772E+01	1.70589595043E+02	-4.15177953794E+01	2.47426773921E+01	-5.91853058546E+00	-8.90242316536E-01
1.69805533948E+06	-1.37207947987E+01	1.57342556755E+02	1.12963200251E+01	1.70559271510E+02	-3.82465570845E+01	4.37844311363E+01	-5.97070440376E+00	-5.43748451847E-01
1.72024669408E+06	-1.25257767846E+01	-1.69094349020E+02	1.12854170624E+01	1.70239216100E+02	-4.09678947828E+01	-1.07610660188E+01	-5.97859332697E+00	-9.13611520658E-01
1.74243804867E+06	-1.01000408674E+01	-1.53318596668E+02	1.12155062773E+01	1.70436029768E+02	-4.31455967932E+01	-8.37983560815E+01	-5.91161565765E+00	-9.99583784387E-01
1.76462940327E+06	-9.91844980979E+00	1.76895922312E+02	1.12351423837E+01	1.69626333606E+02	-3.44571931173E+01	-1.67846909869E+02	-5.96070532990E+00	-7.43455043281E-01
1.78682075786E+06	-9.00839279236E+00	-1.78742202936E+02	1.12522813267E+01	1.69856197897E+02	-5.35677504728E+01	-8.67780636026E-02	-6.00157526298E+00	-8.36218350345E-01
1.80901211246E+06	-7.40756840048E+00	-1.67648520886E+02	1.12920244322E+01	1.69925988392E+02	-4.85419575202E+01	1.95467650853E+01	-6.01797056463E+00	-6.22684148961E-01
1.83120346705E+06	-1.04325501881E+01	-1.77476509023E+02	1.12032850324E+01	1.69856951996E+02	-4.05059694657E+01	-2.22305124078E+01	-6.00072315080E+00	-9.63207006065E-01
1.85339482165E+06	-9.92466139515E+00	-1.76220066115E+02	1.12819329508E+01	1.69797355381E+02	-3.87697475798E+01	-1.71716696426E+00	-5.93499863349E+00	-1.25890098305E+00
1.87558617624E+06	-1.00641336460E+01	1.68814976322E+02	1.12666840028E+01	1.69627009852E+02	-3.23605121242E+01	-6.74412189658E+01	-5.98630809978E+00	-1.05297982625E+00
1.89777753084E+06	-8.16894459676E+00	-1.58020017711E+02	1.13158881477E+01	1.69192953323E+02	-4.04386891097E+01	-6.42398077084E+01	-5.95581930844E+00	-1.03582491379E+00
1.91996888543E+06	-1.67607867627E+01	-1.71782087163E+02	1.11474720274E+01	1.69372626323E+02	-5.09988976378E+01	-6.05935317881E+01	-5.98259763151E+00	-8.23151879692E-01
1.94216024003E+06	-7.86133969543E+00	-1.62764878354E+02	1.12682869200E+01	1.69135736136E+02	-3.68183443323E+01	-1.45029775201E+02	-5.97721961134E+00	-7.67749279070E-01
1.96435159462E+06	-7.17566846505E+00	1.74350972677E+02	1.12836331949E+01	1.69039221762E+02	-3.92078276471E+01	-1.77616430669E+02	-5.96571553946E+00	-8.96534041437E-01
1.98654294922E+06	-1.15313644812E+01	1.48213383926E+02	1.12715934249E+01	1.68600346809E+02	-3.53361274690E+01	1.53117265414E+02	-5.93294654402E+00	-1.09936757464E+00
2.00873430381E+06	-1.01352030478E+01	1.69979556768E+02	1.12908927169E+01	1.68421405480E+02	-4.54623161756E+01	-4.86381073510E+01	-5.94989787323E+00	-8.33772895512E-01
2.03092565841E+06	-9.85059294117E+00	1.60666590452E+02	1.12942605217E+01	1.68581950463E+02	-5.61475128117E+01	1.66187015400E+02	-5.99476958935E+00	-9.50301607178E-01
2.05311701300E+06	-9.47463012140E+00	1.65824485609E+02	1.13574064852E+01	1.68087441377E+02	-4.08779967924E+01	5.87557418146E+01	-5.93426979752E+00	-9.73079673877E-01
2.07530836760E+06	-6.90607587838E+00	-1.62684968691E+02	1.14162603662E+01	1.68478561255E+02	-6.46361050791E+01	-2.13565959282E+01	-6.02186535562E+00	-8.93943140185E-01
2.09749972219E+06	-1.02173396252E+01	-1.71992273507E+02	1.12773868689E+01	1.68225024133E+02	-5.13675045629E+01	-7.96278597810E+01	-5.93267940924E+00	-1.09819108004E+00
2.11969107679E+06	-1.25062185799E+01	-1.77025903235E+02	1.13019148848E+01	1.68125157384E+02	-3.74800096132E+01	-8.32996927489E+01	-5.97419186490E+00	-7.77914398218E-01
2.14188243138E+06	-1.17419020986E+01	-1.64676270693E+02	1.12901109327E+01	1.68005649573E+02	-5.18401199730E+01	-5.54940099753E+01	-5.97577623979E+00	-1.07931165892E+00
2.16407378598E+06	-8.86088834883E+00	-1.79033574628E+02	1.13286160656E+01	1.67566495117E+02	-3.86544393467E+01	-8.43128428475E+01	-5.98814538971E+00	-1.44858517231E+00
2.18626514057E+06	-1.01774261460E+01	1.78263581928E+02	1.12961321971E+01	1.67527344529E+02	-4.52316042018E+01	-5.88488621402E+01	-5.97065987931E+00	-9.88922750326E-01
2.20845649517E+06	-5.96119760103E+00	-1.70104191078E+02	1.13203594248E+01	1.67282454866E+02	-5.39279322863E+01	-1.67345259074E+02	-5.95901058102E+00	-1.16292152212E+00
2.23064784976E+06	-8.91988869566E+00	1.76118910664E+02	1.12750460605E+01	1.67405477611E+02	-3.39637658584E+01	7.38732677397E+01	-5.94030614778E+00	-9.38216148360E-01
2.25283920436E+06	-9.14495860223E+00	1.62899711226E+02	1.13219946439E+01	1.67379207502E+02	-4.89059943117E+01	-7.36273944135E+01	-5.95144787654E+00	-1.04297575940E+00
2.27503055895E+06	-6.85216674025E+00	-1.75288515562E+02	1.12847691276E+01	1.67233400907E+02	-4.24584459427E+01	9.14639527861E-02	-5.98534436023E+00	-1.04378741363E+00
2.29722191355E+06	-1.00586133380E+01	-1.69608009421E+02	1.12600890110E+01	1.66724920931E+02	-3.37204722857E+01	4.29514623582E+01	-5.91437612934E+00	-1.19322636170E+00
2.31941326814E+06	-1.51038599863E+01	-1.65742384014E+02	1.12304729823E+01	1.66905191237E+02	-3.44899005325E+01	-5.54259635020E+01	-5.93282326528E+00	-1.25736361661E+00
2.34160462274E+06	-1.02914000222E+01	-1.70592237063E+02	1.12709738157E+01	1.66538513162E+02	-3.82882318755E+01	1.69892516664E+02	-5.97520770702E+00	-1.25254119024E+00
2.36379597733E+06	-1.17915461877E+01	1.74548167844E+02	1.12715281644E+01	1.66631608492E+02	-5.18306431799E+01	-1.78167803950E+02	-5.97114345950E+00	-9.52316444163E-01
2.38598733193E+06	-1.07134456721E+01	-1.74803915962E+02	1.12272605612E+01	1.66430031116E+02	-4.32231569293E+01	-1.46908224913E+02	-5.90813648093E+00	-1.11219144228E+00
2.40817868652E+06	-1.12082041610E+01	-1.71553830782E+02	1.12712122475E+01	1.66404901712E+02	-3.86072822537E+01	8.37658311697E+01	-5.95843983940E+00	-1.30870803222E+00
2.43037004112E+06	-1.00566204733E+01	1.73547061259E+02	1.12746161055E+01	1.66234036945E+02	-4.60168983849E+01	-9.27252209613E+01	-5.97509805353E+00	-1.53022090284E+00
2.45256139571E+06	-9.53856583036E+00	1.75410633428E+02	1.12484667202E+01	1.65925508999E+02	-4.15904823650E+01	-1.06919398982E+01	-5.98709971886E+00	-9.58107395229E-01
2.47475275031E+06	-1.02235414397E+01	1.68871910967E+02	1.12742209197E+01	1.65873631246E+02	-5.13739086671E+01	-1.26600951923E+02	-5.99849996603E+00	-8.48111631225E-01
2.49694410490E+06	-1.27306759402E+01	-1.48337904117E+02	1.13121425140E+01	1.65667778438E+02	-5.24248199718E+01	1.18129113499E+02	-5.98986150712E+00	-1.42439621696E+00
2.51913545950E+06	-1.29609139070E+01	-1.75004907627E+02	1.12268102654E+01	1.65988291166E+02	-4.37460356125E+01	1.31080073459E+02	-6.00018493104E+00	-1.14658058035E+00
2.54132681409E+06	-1.07289034459E+01	1.70251212488E+02	1.12460458779E+01	1.65732199221E+02	-4.21288674194E+01	1.17313222614E+01	-5.98283715897E+00	-1.41367084572E+00
2.56351816869E+06	-1.17545100284E+01	1.64983383933E+02	1.12505667124E+01	1.65109431511E+02	-4.96745257352E+01	-1.56147414046E+02	-5.97642975446E+00	-1.20233472254E+00
2.58570952328E+06	-8.77078364207E+00	1.53346234518E+02	1.12508493620E+01	1.65206308485E+02	-4.83830172646E+01	-1.02912492510E+02	-5.99561635448E+00	-1.20481868424E+00
2.60790087788E+06	-1.21500741951E+01	1.73480479260E+02	1.12836118150E+01	1.64970622287E+02	-4.14636492059E+01	5.05067119174E+00	-5.96616928239E+00	-1.36189895087E+00
2.63009223247E+06	-8.16489576942E+00	1.69735806972E+02	1.12501093553E+01	1.65073975840E+02	-3.80784065119E+01	-7.37332511952E+01	-6.00872031110E+00	-9.19334884821E-01
2.65228358707E+06	-8.38077287339E+00	1.77964813576E+02	1.12940870052E+01	1.64979148642E+02	-4.25131900661E+01	1.35191155633E+02	-5.94400753942E+00	-1.61219823753E+00
2.67447494166E+06	-1.16807943417E+01	1.70721380329E+02	1.12969682640E+01	1.64280446426E+02	-4.08585382500E+01	5.94548456953E+01	-5.96371059345E+00	-1.39893967027E+00
2.69666629626E+06	-1.06281236646E+01	-1.73192038013E+02	1.12618807389E+01	1.64525337931E+02	-4.34855911854E+01	4.85582449274E+01	-5.94209331488E+00	-1.12682431504E+00
2.71885765085E+06	-8.34347507769E+00	-1.75128208144E+02	1.12725198216E+01	1.64329174169E+02	-3.95994998433E+01	1.58424208458E+02	-5.99901591072E+00	-1.11197299827E+00
2.74104900545E+06	-7.69919162201E+00	-1.60807478345E+02	1.12821884709E+01	1.64075133837E+02	-4.21093094678E+01	-1.25661763616E+01	-5.96591747604E+00	-1.22646580144E+00
2.76324036004E+06	-9.89687707280E+00	1.72830555110E+02	1.12623009668E+01	1.64063819342E+02	-4.78632143770E+01	-4.25142721455E+01	-5.99081243650E+00	-1.32441993099E+00
2.78543171463E+06	-1.00447812344E+01	-1.66114977746E+02	1.13062110676E+01	1.63740195584E+02	-5.16775670707E+01	6.98780619425E+01	-5.97990703889E+00	-1.24139373196E+00
2.80762306923E+06	-9.13965478038E+00	-1.69668375902E+02	1.12895138649E+01	1.63990533683E+02	-4.11108245627E+01	1.43650501714E+02	-5.94674710991E+00	-1.27287957804E+00
2.82981442382E+06	-7.95064289266E+00	-1.59780260866E+02	1.12417616499E+01	1.63278073437E+02	-3.79289236344E+01	5.58567495774E+01	-5.97422147632E+00	-1.26568638383E+00
2.85200577842E+06	-1.39004085021E+01	-1.48913836698E+02	1.13265299993E+01	1.63503808692E+02	-4.59189668918E+01	1.54251575144E+02	-5.98378662546E+00	-1.19991334119E+00
2.87419713301E+06	-7.40665790886E+00	1.73144956135E+02	1.12531346053E+01	1.63409711501E+02	-3.49923619598E+01	1.42559291192E+02	-5.98300268148E+00	-1.25200274045E+00
