# Hz S DB R 50
! CMT, M5065, 19127446, 24.2.4/2
! Date: 10/29/2024 12:44:10 PM
! Data: Format (Calibration Info)
! Freq	S11:dB/Ang(F2)	S21:dB/Ang(F2)	S12:dB/Ang(F2)	S22:dB/Ang(F2)
3.00000000000E+05	-1.07263161553E+01	-1.69697972099E+02	1.68912366984E+01	-1.77844006200E+02	-3.69503636456E+01	-9.02532462799E+01	-5.94515439747E+00	-3.04160448454E-01
3.22191354595E+05	-1.20418749897E+01	-1.77056785082E+02	1.68907506758E+01	-1.78473447176E+02	-5.31825810394E+01	1.09011083290E+02	-5.97459826568E+00	-1.36972337164E-01
3.44382709190E+05	-1.00694784974E+01	1.79448358950E+02	1.68841415832E+01	-1.78723335888E+02	-3.78624113401E+01	-1.65344011762E+02	-5.94420698394E+00	-2.85311054279E-01
3.66574063785E+05	-9.47830957583E+00	-1.68752325729E+02	1.68755788337E+01	-1.79163441396E+02	-4.25575915913E+01	1.01032571702E+02	-5.96871847021E+00	-5.00609264730E-01
3.88765418380E+05	-1.47026029790E+01	-1.73586098422E+02	1.69803069013E+01	-1.79715970529E+02	-4.66018966292E+01	2.15992277833E+01	-5.95461836428E+00	-4.70870765687E-01
4.10956772975E+05	-1.23286349042E+01	1.73853162942E+02	1.69157378180E+01	1.79980819988E+02	-3.91320791542E+01	-1.08332233104E+02	-5.99141597678E+00	-7.09286412338E-02
4.33148127570E+05	-1.42686628441E+01	1.41892914606E+02	1.68567319070E+01	1.79337590010E+02	-4.60177624039E+01	1.73433292037E+02	-6.01355713356E+00	-4.00743955276E-01
4.55339482165E+05	-5.73270924548E+00	-1.68935947791E+02	1.69191877124E+01	1.79116627398E+02	-3.62029788963E+01	9.13092038644E+01	-5.96051381502E+00	-3.99896585481E-01
4.77530836760E+05	-9.72226786365E+00	1.69346995771E+02	1.68950444191E+01	1.78878473290E+02	-4.29093728980E+01	-1.23806633803E+02	-5.96088687106E+00	-4.37537216634E-01
4.99722191355E+05	-5.72853342469E+00	-1.79690017648E+02	1.69227950203E+01	1.78467226147E+02	-3.75922748602E+01	-7.48038107572E+00	-5.96637879494E+00	-2.03755802573E-01
5.21913545950E+05	-7.48155293322E+00	1.76841518855E+02	1.68972540674E+01	1.77963972424E+02	-4.27889551637E+01	-1.15466413812E+02	-5.99036961623E+00	-4.28547126752E-01
5.44104900545E+05	-1.09447642309E+01	-1.64027756366E+02	1.69321405210E+01	1.77857357847E+02	-3.46398223674E+01	-6.66574257277E+01	-5.99514186475E+00	-6.52413179470E-01
5.66296255139E+05	-1.04394607005E+01	-1.79845787563E+02	1.68665135018E+01	1.77688798066E+02	-4.08692539771E+01	6.59327531140E+01	-5.93827391060E+00	-1.55525696400E-01
5.88487609734E+05	-1.23204572780E+01	-1.74728360823E+02	1.69364112383E+01	1.77754729292E+02	-3.62946147429E+01	-1.09716647641E+02	-5.96459339169E+00	-7.23113916505E-01
6.10678964329E+05	-1.08693280128E+01	1.78851623218E+02	1.68829176320E+01	1.76807153626E+02	-4.83395433000E+01	-1.00494668420E+02	-5.96722601883E+00	-4.92675354157E-02
6.32870318924E+05	-8.52643186942E+00	-1.63979479446E+02	1.68738856896E+01	1.76796956928E+02	-4.93808756790E+01	-1.08474821901E+02	-5.92941699769E+00	6.77977881208E-02
6.55061673519E+05	-8.65080263088E+00	-1.63535932303E+02	1.68946319130E+01	1.76540170706E+02	-3.91482178784E+01	-5.33220362559E+01	-5.90803078896E+00	-4.30506182680E-01
6.77253028114E+05	-7.60540186284E+00	-1.66788424085E+02	1.69646302198E+01	1.76224775461E+02	-4.24333912664E+01	-1.30541947554E+02	-6.01992518465E+00	-7.53663744571E-01
6.99444382709E+05	-1.03034679493E+01	1.77906354929E+02	1.68810120906E+01	1.76192454741E+02	-3.76406592321E+01	-1.02917310680E+02	-5.96725578234E+00	-3.43975713555E-01
7.21635737304E+05	-9.11564057210E+00	1.78104424702E+02	1.69041567295E+01	1.75841815514E+02	-3.53329090948E+01	1.45369190474E+02	-5.99471299036E+00	-6.94250698210E-01
7.43827091899E+05	-8.75874172823E+00	-1.67613980983E+02	1.69086657784E+01	1.75517657810E+02	-3.98033818790E+01	-7.48012350515E+01	-5.95300922183E+00	-4.34319271139E-01
7.66018446494E+05	-1.24688581197E+01	1.73417122528E+02	1.69010612392E+01	1.75446389828E+02	-4.62356958632E+01	-1.04390247308E+02	-5.97633051860E+00	-7.15768096719E-01
7.88209801089E+05	-1.24813506305E+01	-1.50687885892E+02	1.69002717941E+01	1.75212543969E+02	-5.35076020160E+01	-1.13481035299E+02	-5.92330173422E+00	-7.19178350780E-01
8.10401155684E+05	-9.02888279449E+00	-1.36945029436E+02	1.68780752869E+01	1.74750396869E+02	-3.74624442456E+01	1.77869462874E+02	-5.94995150211E+00	-7.82298453260E-01
8.32592510279E+05	-8.80920460894E+00	1.71767678597E+02	1.69823002866E+01	1.74684260140E+02	-4.11093220008E+01	-9.05609861250E+01	-5.95841217845E+00	-6.26093821490E-01
8.54783864874E+05	-1.20082585224E+01	-1.54977297923E+02	1.69378611389E+01	1.74197047459E+02	-4.00430708838E+01	1.45472664369E+02	-5.96974813894E+00	-7.21083304500E-01
8.76975219469E+05	-1.09351680144E+01	1.75372667269E+02	1.68930974087E+01	1.74167116447E+02	-3.89963500522E+01	-1.05663464502E+02	-5.95180503217E+00	-3.93395700242E-01
8.99166574064E+05	-1.26674131650E+01	-1.75763953445E+02	1.68838938790E+01	1.73930030871E+02	-4.18652857979E+01	-1.42739408578E+02	-5.99439630328E+00	-5.52285342424E-01
9.21357928659E+05	-8.23433431469E+00	-1.68031269556E+02	1.68818403563E+01	1.73539989422E+02	-6.36276315757E+01	1.12843169223E+02	-5.96392805271E+00	-4.53525881700E-01
9.43549283254E+05	-1.00951480663E+01	-1.71133428384E+02	1.68854258371E+01	1.73257485316E+02	-4.24835778574E+01	-3.45974895090E+01	-5.99245201817E+00	-4.61701168804E-01
9.65740637849E+05	-8.96097019577E+00	-1.79064529544E+02	1.68429731789E+01	1.73098671280E+02	-4.58163983824E+01	-9.40660445217E+01	-5.99877163920E+00	-5.29879004558E-01
9.87931992444E+05	-8.15597310974E+00	-1.79667971219E+02	1.68919268801E+01	1.72756291073E+02	-3.38859221069E+01	1.04481665021E+02	-5.97440733728E+00	-5.14029911621E-01
1.01012334704E+06	-1.17810638251E+01	-1.77320028677E+02	1.68933529806E+01	1.72612607989E+02	-3.44349931868E+01	1.74143866707E+02	-5.96168856445E+00	-7.10588392112E-01
1.03231470163E+06	-6.97384990886E+00	-1.73507545745E+02	1.69159351664E+01	1.72584687395E+02	-4.09296836708E+01	7.01579434851E+01	-5.97429697003E+00	-2.93858771796E-01
1.05450605623E+06	-1.49296694114E+01	1.63827014450E+02	1.69011624269E+01	1.72388049832E+02	-4.09363378398E+01	-1.42990959218E+02	-6.00555010585E+00	-5.03799270942E-01
1.07669741082E+06	-1.11656224839E+01	1.74023843581E+02	1.69116173812E+01	1.72153871292E+02	-4.19568489329E+01	-4.97395847429E+01	-5.98734421668E+00	-3.11791822349E-01
1.09888876542E+06	-1.12631689982E+01	1.50326847848E+02	1.68690523221E+01	1.71767910472E+02	-3.54803246719E+01	-1.16276376388E+02	-5.98084692901E+00	-6.17305491978E-01
1.12108012001E+06	-9.27767632165E+00	-1.64929508054E+02	1.68649423728E+01	1.71631812589E+02	-4.55098629805E+01	7.04809748685E+01	-5.97011466225E+00	-6.99829053196E-01
1.14327147461E+06	-1.31651282740E+01	1.76669612400E+02	1.68753266455E+01	1.71361032436E+02	-4.72176817705E+01	-8.78489259266E+01	-5.94562951344E+00	-9.06922524393E-01
1.16546282920E+06	-1.08539795402E+01	1.78775806888E+02	1.68722722272E+01	1.71241635111E+02	-3.85334490727E+01	-1.44908531209E+01	-6.02035337401E+00	-5.88411334858E-01
1.18765418380E+06	-1.51136795266E+01	1.66809467479E+02	1.68715887966E+01	1.71012132770E+02	-3.67961694194E+01	-1.75205680050E+01	-6.00487570978E+00	-6.22256496335E-01
1.20984553839E+06	-8.53059854655E+00	-1.63230282477E+02	1.68723555236E+01	1.70876648270E+02	-4.70122981790E+01	-1.66023109717E+02	-6.03062792304E+00	-9.00739013028E-01
1.23203689299E+06	-9.59560798644E+00	1.72657595082E+02	1.68824238371E+01	1.70429922404E+02	-4.69680119468E+01	6.16275728334E+00	-6.01224092684E+00	-5.89906703849E-01
1.25422824758E+06	-8.98802322843E+00	-1.75102633132E+02	1.68399442447E+01	1.70436317175E+02	-3.66048511550E+01	2.51218944616E+01	-5.99438431228E+00	-6.50409999773E-01
1.27641960218E+06	-7.46312873314E+00	-1.60841094762E+02	1.68344076688E+01	1.70374154524E+02	-4.49423920753E+01	-1.09218403830E+02	-5.98913099444E+00	-6.48528619366E-01
1.29861095677E+06	-1.21727090609E+01	1.78814762740E+02	1.68693337495E+01	1.70089610709E+02	-4.35768157851E+01	-1.71892328381E+02	-5.93272129064E+00	-7.45138494535E-01
1.32080231137E+06	-1.07057914283E+01	-1.72311085543E+02	1.68584494734E+01	1.69760122778E+02	-3.65065079770E+01	4.45246925247E+01	-5.92218592677E+00	-1.18698200568E+00
1.34299366596E+06	-1.24520445243E+01	1.65156989770E+02	1.68396003533E+01	1.69467761458E+02	-4.04389687066E+01	7.98232172509E+01	-5.99203205184E+00	-1.01934226157E+00
1.36518502056E+06	-1.03290626368E+01	1.71187015321E+02	1.68427828347E+01	1.69152197761E+02	-3.66522463989E+01	-4.89374821816E+01	-6.00378203136E+00	-7.28615083460E-01
1.38737637515E+06	-1.51368004088E+01	1.73992675329E+02	1.68836420866E+01	1.69028976017E+02	-3.91320980215E+01	-1.53957953486E+02	-5.93685041579E+00	-7.95542259711E-01
1.40956772975E+06	-7.30894365856E+00	-1.61173315067E+02	1.68680358461E+01	1.69128110000E+02	-4.41016710751E+01	-1.00390805363E+02	-5.97606334744E+00	-1.08382287388E+00
1.43175908434E+06	-9.38125812364E+00	-1.77852099708E+02	1.68894341231E+01	1.68769821456E+02	-4.38043570632E+01	-1.62974607848E+02	-6.01603805462E+00	-3.67761093303E-01
1.45395043894E+06	-1.19020009356E+01	-1.69490623065E+02	1.68534286362E+01	1.68802241609E+02	-4.76411867693E+01	2.89280717462E+01	-5.97394990327E+00	-6.28823655806E-01
1.47614179353E+06	-8.37080445029E+00	1.48123814809E+02	1.68509760004E+01	1.68116094931E+02	-3.37375914810E+01	7.93374026663E+01	-5.97014390902E+00	-5.79070300610E-01
1.49833314813E+06	-1.20553044581E+01	1.65657768915E+02	1.68505055097E+01	1.68216166717E+02	-4.31546242565E+01	-1.48414402803E+02	-5.93930183430E+00	-8.43982909732E-01
1.52052450272E+06	-9.80164664685E+00	1.64683026766E+02	1.68400074992E+01	1.68031707515E+02	-4.62435662655E+01	1.04856936756E+02	-5.97128214480E+00	-9.28775026524E-01
1.54271585732E+06	-1.07451607173E+01	1.64539071502E+02	1.68724511135E+01	1.67814529899E+02	-3.98804441317E+01	-1.68832941888E+02	-5.99015173179E+00	-1.15567572100E+00
1.56490721191E+06	-9.18410974752E+00	1.49877925435E+02	1.68410087134E+01	1.67689969178E+02	-4.36781805109E+01	-5.83565120714E+01	-5.91573778615E+00	-5.84556792643E-01
1.58709856651E+06	-9.84130867232E+00	-1.79434184535E+02	1.68277722473E+01	1.67353188320E+02	-4.10805252719E+01	-8.56703879963E+01	-5.77664974137E+00	-1.35740026174E+00
1.60928992110E+06	-9.37075358416E+00	-1.65408845035E+02	1.68388783581E+01	1.67688656212E+02	-4.88988357538E+01	5.37780071492E+00	-5.98894366264E+00	-8.00986019525E-01
1.63148127570E+06	-1.08706546817E+01	-1.79334010222E+02	1.67800992693E+01	1.66725962181E+02	-3.94158541439E+01	-3.80991321228E+00	-5.96360631700E+00	-9.68985883569E-01
1.65367263029E+06	-1.27050619265E+01	-1.72110706454E+02	1.68665177772E+01	1.66715060899E+02	-4.16666332327E+01	-7.93534413333E-01	-5.94084473710E+00	-9.91971155663E-01
1.67586398489E+06	-1.58020828415E+01	1.66376809348E+02	1.68356205597E+01	1.66689620063E+02	-3.23357408824E+01	1.45788977076E+02	-5.99399425363E+00	-6.65793852230E-01
1.69805533948E+06	-7.68046629683E+00	-1.74450804903E+02	1.68602030767E+01	1.66271724241E+02	-3.55397154879E+01	-2.32604434192E+01	-6.00051888943E+00	-1.05755939904E+00
1.72024669408E+06	-8.15678570889E+00	-1.48147929400E+02	1.68319353528E+01	1.66099133462E+02	-4.18369361442E+01	-3.98856763178E+01	-5.97849994750E+00	-8.08229070984E-01
1.74243804867E+06	-9.59024697104E+00	-1.65349172670E+02	1.68275302306E+01	1.66159725885E+02	-3.76008391512E+01	1.47401673609E+02	-5.97565613471E+00	-9.69459442037E-01
1.76462940327E+06	-9.26902284537E+00	-1.56632542542E+02	1.68643832520E+01	1.66144204151E+02	-4.54764306231E+01	1.67089016151E+02	-5.95601746319E+00	-9.84938557151E-01
1.78682075786E+06	-8.26920748349E+00	-1.63695549686E+02	1.68883356154E+01	1.65312064334E+02	-4.95160345497E+01	-4.00793898216E+01	-5.99070364406E+00	-1.01220717644E+00
1.80901211246E+06	-6.90099764996E+00	1.73877470777E+02	1.68154210984E+01	1.65286738488E+02	-4.55257295478E+01	3.03735296488E+01	-5.94831991329E+00	-1.04454133323E+00
1.83120346705E+06	-9.22380066903E+00	1.68509312003E+02	1.68305492782E+01	1.65091803413E+02	-4.50011209429E+01	-1.52486919373E+02	-5.95096587288E+00	-6.69637304894E-01
1.85339482165E+06	-1.06345550645E+01	-1.77177019499E+02	1.68559746419E+01	1.65161235797E+02	-3.39425094263E+01	9.52293366264E+01	-5.94933070357E+00	-8.78886924461E-01
1.87558617624E+06	-1.15057790239E+01	1.65950852362E+02	1.68200972565E+01	1.64713677102E+02	-3.81755924217E+01	-2.60537555529E+01	-5.97467471682E+00	-6.29831020775E-01
1.89777753084E+06	-1.11539406392E+01	1.64054535905E+02	1.68419890747E+01	1.64575982363E+02	-3.51657892728E+01	1.50949381813E+02	-6.00338538287E+00	-3.58766425165E-01
1.91996888543E+06	-1.36238838044E+01	-1.76076480027E+02	1.68510893755E+01	1.64345242238E+02	-3.76476346687E+01	-3.06594561914E+01	-5.99212440611E+00	-9.34957155269E-01
1.94216024003E+06	-7.24130505310E+00	1.71942284938E+02	1.68466009383E+01	1.64384697187E+02	-5.00068292868E+01	-2.94785904241E+01	-5.97689442463E+00	-1.05350912391E+00
1.96435159462E+06	-1.06691443474E+01	1.75189782012E+02	1.68126775365E+01	1.64216726969E+02	-6.27790549869E+01	1.42644037728E+02	-5.99944083644E+00	-6.95773901506E-01
1.98654294922E+06	-6.85754163290E+00	-1.75460810537E+02	1.68447842827E+01	1.64087652356E+02	-3.82582944440E+01	-1.76940504377E+02	-5.97822796768E+00	-9.16702242190E-01
2.00873430381E+06	-8.07206971092E+00	-1.76865450938E+02	1.68336482247E+01	1.63637125625E+02	-4.45396056906E+01	1.70249464467E+02	-5.95165843266E+00	-1.12119478101E+00
2.03092565841E+06	-1.24504336348E+01	1.79450446927E+02	1.68727726603E+01	1.63733133454E+02	-3.96060984972E+01	-4.16030671587E+01	-6.01885888090E+00	-1.15087454851E+00
2.05311701300E+06	-6.55139043456E+00	-1.71422410095E+02	1.68422256830E+01	1.63144185607E+02	-4.40045325965E+01	6.60905108400E+01	-5.99870018812E+00	-1.26790183239E+00
2.07530836760E+06	-1.33854718145E+01	-1.61113043677E+02	1.68561748262E+01	1.63172149301E+02	-4.32541060272E+01	-1.69056575188E+01	-5.94874712006E+00	-8.82287055235E-01
2.09749972219E+06	-1.28878899805E+01	-1.66217950470E+02	1.67259893630E+01	1.62894692923E+02	-3.49723585970E+01	1.38768326911E+02	-5.94593230578E+00	-9.66454287895E-01
2.11969107679E+06	-9.26646868350E+00	1.60730341045E+02	1.68225898577E+01	1.62976204769E+02	-4.02099895154E+01	-5.33477425179E+01	-5.95963819025E+00	-1.30505356278E+00
2.14188243138E+06	-9.67411535175E+00	1.71431245044E+02	1.68623047274E+01	1.62655446186E+02	-3.69594323124E+01	-1.68802275575E+02	-5.96357078773E+00	-1.16938683718E+00
2.16407378598E+06	-1.40541498281E+01	-1.74210737526E+02	1.67975841376E+01	1.62644393049E+02	-4.65126545074E+01	-1.77547568840E+01	-5.96574165174E+00	-1.28246922312E+00
2.18626514057E+06	-1.23566977046E+01	-1.79344370607E+02	1.68359445862E+01	1.62274254876E+02	-4.68910386370E+01	1.75115323702E+02	-5.96568263989E+00	-9.41300400385E-01
2.20845649517E+06	-1.28755107300E+01	-1.53713718285E+02	1.68141694516E+01	1.61954264236E+02	-4.02015482116E+01	-8.97083349290E+01	-5.93887488410E+00	-1.72027455063E+00
2.23064784976E+06	-1.01980178768E+01	1.68852198685E+02	1.68452035026E+01	1.61776738739E+02	-3.42998379380E+01	-6.50550196987E+01	-5.98630877272E+00	-8.18703525129E-01
2.25283920436E+06	-1.03825199446E+01	1.63257336203E+02	1.68234924469E+01	1.61488910998E+02	-3.99833558759E+01	-1.46996896832E+02	-5.93830938294E+00	-9.09264558287E-01
2.27503055895E+06	-1.12837737530E+01	-1.78690015156E+02	1.68418074331E+01	1.61284474272E+02	-5.02326744017E+01	-1.63802021525E+01	-5.95779176144E+00	-1.13498709598E+00
2.29722191355E+06	-5.56374020643E+00	1.68796681109E+02	1.67977153661E+01	1.61304651263E+02	-4.46654252212E+01	7.37307107414E+01	-5.96066766801E+00	-1.27299650563E+00
2.31941326814E+06	-8.10853256389E+00	-1.66822801399E+02	1.67855931408E+01	1.60926827333E+02	-3.61588703415E+01	-5.04394814715E+01	-5.97920751344E+00	-1.03382964476E+00
2.34160462274E+06	-9.53476467512E+00	-1.65300377886E+02	1.67794708602E+01	1.60849270796E+02	-5.00530510562E+01	1.42624329930E+02	-5.96668686023E+00	-1.00186958033E+00
2.36379597733E+06	-9.91456747203E+00	-1.62866221323E+02	1.68184942254E+01	1.60677760700E+02	-4.66479320687E+01	4.79238058037E+01	-5.97479300517E+00	-9.87683543996E-01
2.38598733193E+06	-1.24241462971E+01	-1.69790890719E+02	1.68158709983E+01	1.60495433804E+02	-3.76450748275E+01	5.33084565294E+00	-5.94702161163E+00	-1.29838006128E+00
2.40817868652E+06	-1.10546331741E+01	-1.76697002741E+02	1.68651999007E+01	1.60430457868E+02	-4.24161997539E+01	7.26329649197E+01	-5.97302154107E+00	-1.25075576497E+00
2.43037004112E+06	-1.21896422872E+01	1.57546783073E+02	1.67716923048E+01	1.60107415334E+02	-3.99085662623E+01	-1.70421257974E+01	-5.94596456174E+00	-1.31477933179E+00
2.45256139571E+06	-7.73989945327E+00	-1.76120731653E+02	1.67925597354E+01	1.59903828181E+02	-3.80165973364E+01	-7.90614184036E+01	-5.99033840252E+00	-1.01668396591E+00
2.47475275031E+06	-8.68919694661E+00	-1.70971471099E+02	1.68002247675E+01	1.59970450853E+02	-4.68906857921E+01	1.50852007113E+02	-5.97136027703E+00	-8.97369700255E-01
2.49694410490E+06	-9.31824331361E+00	1.69720399987E+02	1.68010532979E+01	1.59453418997E+02	-4.49316220240E+01	-2.02929999938E+01	-5.99209006312E+00	-1.26090160384E+00
2.51913545950E+06	-1.00231079045E+01	-1.60015963108E+02	1.68448432055E+01	1.59354028113E+02	-4.34934723426E+01	-1.64719613810E+02	-6.03103582674E+00	-9.20553265916E-01
2.54132681409E+06	-7.75787501431E+00	-1.69413877018E+02	1.68000642934E+01	1.59225363002E+02	-4.01540056860E+01	1.19204481076E+02	-5.96812236154E+00	-9.03723128406E-01
2.56351816869E+06	-9.18664205096E+00	1.78763072599E+02	1.68156354501E+01	1.58634884056E+02	-4.01955905876E+01	-1.78912430282E+02	-5.97423069334E+00	-1.11763270493E+00
2.58570952328E+06	-8.95185656517E+00	-1.61890317129E+02	1.68081766144E+01	1.58778952200E+02	-4.17485740959E+01	1.39652065653E+02	-5.97076881321E+00	-1.00733419568E+00
2.60790087788E+06	-7.30724324080E+00	-1.76902931075E+02	1.67934447710E+01	1.58232526451E+02	-4.40237053628E+01	6.10728465265E+01	-5.97889332990E+00	-1.28033063291E+00
2.63009223247E+06	-1.10118844683E+01	-1.50768421791E+02	1.68229865135E+01	1.58603634745E+02	-3.78266582073E+01	4.99630616886E+01	-5.95723747049E+00	-1.67317417863E+00
2.65228358707E+06	-1.10438789896E+01	1.55484247366E+02	1.67853271826E+01	1.58488073458E+02	-4.50130627362E+01	2.46865679778E+01	-5.98360745855E+00	-1.55675218445E+00
2.67447494166E+06	-1.38098490634E+01	-1.65956786970E+02	1.67705308865E+01	1.57777295427E+02	-3.85224982483E+01	-3.08731267908E+01	-5.98374469413E+00	-1.67814374119E+00
2.69666629626E+06	-7.84521075906E+00	-1.74903684394E+02	1.68020736398E+01	1.57882796007E+02	-4.84158346311E+01	-1.46078187457E+02	-6.00692157505E+00	-1.15436251040E+00
2.71885765085E+06	-1.09723522518E+01	1.55178928728E+02	1.67452098878E+01	1.57341913768E+02	-3.88026450748E+01	1.41491565093E+02	-5.95841615352E+00	-1.43159540312E+00
2.74104900545E+06	-1.14287860037E+01	-1.58432716858E+02	1.68008054806E+01	1.57431277045E+02	-3.60277644206E+01	-1.26390750446E+02	-5.96799183689E+00	-1.24875778253E+00
2.76324036004E+06	-9.95459001070E+00	1.77634642942E+02	1.68067849302E+01	1.57539667880E+02	-4.42036299011E+01	1.03755436710E+01	-5.97536917749E+00	-1.27519902084E+00
2.78543171463E+06	-9.68740492715E+00	-1.62868175200E+02	1.67788820945E+01	1.56945970977E+02	-4.43529246722E+01	1.52475340622E+02	-5.98267487628E+00	-1.17282396381E+00
2.80762306923E+06	-8.99306514784E+00	1.65996811638E+02	1.67858054344E+01	1.56696491732E+02	-5.40047817916E+01	1.07186676432E+01	-5.95213365850E+00	-1.31389141266E+00
2.82981442382E+06	-1.00782860830E+01	1.71992168394E+02	1.67728903572E+01	1.56763956754E+02	-3.80857168674E+01	5.49163155492E+01	-6.01034533961E+00	-1.29640017308E+00
2.85200577842E+06	-1.31763767128E+01	1.77326368902E+02	1.67524485947E+01	1.56602019574E+02	-3.52553574752E+01	-1.49929842046E+02	-6.01688294848E+00	-1.59665246032E+00
2.87419713301E+06	-9.20886101977E+00	-1.58565679104E+02	1.67870998153E+01	1.56488232510E+02	-4.04871856774E+01	2.55632980861E+01	-5.96304501949E+00	-1.04414117309E+00
