# Hz S DB R 50
! CMT, M5065, 19127446, 24.2.4/2
! Date: 10/29/2024 11:58:00 AM
! Data: Format (Calibration Info)
! Freq	S11:dB/Ang(F2)	S21:dB/Ang(F2)	S12:dB/Ang(F2)	S22:dB/Ang(F2)
3.00000000000E+05	-1.03977305993E+01	-1.78671968471E+02	5.98720619909E+00	-1.78090559430E+02	-4.73323920904E+01	1.71932511368E+02	-5.96449285824E+00	-1.51220844194E-01
3.22191354595E+05	-7.91777958625E+00	-1.73481804557E+02	5.98741076621E+00	-1.78210502864E+02	-3.58692907291E+01	-1.46504183248E+02	-5.97798870561E+00	-1.75298211105E-01
3.44382709190E+05	-9.21536724398E+00	-1.73418918635E+02	6.00010388928E+00	-1.78530747792E+02	-4.54006769994E+01	4.04003539556E+00	-5.97587806805E+00	-4.54840749667E-01
3.66574063785E+05	-1.09332924338E+01	-1.75404818800E+02	6.00395682432E+00	-1.79107126090E+02	-4.32156368178E+01	-1.79681536373E+02	-5.98814608992E+00	-3.11893406111E-01
3.88765418380E+05	-9.12140742486E+00	-1.77801403624E+02	6.01546792326E+00	-1.79124460939E+02	-4.78045987384E+01	-5.67791608637E+01	-5.95553359948E+00	-1.31777374168E-01
4.10956772975E+05	-1.08695332623E+01	-1.64961259674E+02	6.04057625372E+00	-1.79346612667E+02	-5.48414504789E+01	1.39670393652E+02	-5.98538102034E+00	-3.32030153128E-01
4.33148127570E+05	-1.20406944145E+01	-1.71826077607E+02	6.05752957562E+00	-1.79766203387E+02	-4.50778480889E+01	7.43950199781E+00	-5.95579616317E+00	-2.58409114540E-01
4.55339482165E+05	-9.66731268440E+00	-1.74968939626E+02	5.97811671133E+00	-1.79918691097E+02	-5.25535844285E+01	-1.51661151195E+02	-5.96193014368E+00	-3.04916609619E-01
4.77530836760E+05	-1.04522639389E+01	-1.73320055718E+02	5.98770215570E+00	1.79965767640E+02	-4.53836471161E+01	-1.16455978488E+01	-5.98767616280E+00	-3.68733860329E-01
4.99722191355E+05	-9.55531968870E+00	-1.75717014148E+02	6.02329922727E+00	1.79778179618E+02	-4.59007542237E+01	1.15471606094E+02	-5.96203568045E+00	-3.03631934970E-01
5.21913545950E+05	-1.24416566436E+01	-1.75351618835E+02	6.06601313473E+00	1.79562638478E+02	-4.27895537904E+01	-1.19971466535E+02	-5.96528411062E+00	-6.24597716841E-01
5.44104900545E+05	-1.09939114500E+01	-1.65389434110E+02	5.99725613374E+00	1.79406511658E+02	-4.76945671675E+01	-5.85391277474E+01	-5.96403709918E+00	-4.41687538467E-01
5.66296255139E+05	-9.46230020213E+00	1.72912694682E+02	6.02367925476E+00	1.79272172106E+02	-5.66144537513E+01	7.04938736916E+01	-5.98661052216E+00	-4.37418396583E-01
5.88487609734E+05	-9.54404778845E+00	1.75115719269E+02	6.02041221072E+00	1.79064285917E+02	-5.05724424679E+01	-7.21151592489E+01	-5.98035232707E+00	-4.00011726504E-01
6.10678964329E+05	-9.79926116166E+00	1.77061646325E+02	6.00065330148E+00	1.78766195589E+02	-5.23364873193E+01	-1.40793735142E+02	-5.96899281872E+00	-2.39702827923E-01
6.32870318924E+05	-1.10703603841E+01	-1.72706030130E+02	6.01375889128E+00	1.78688555421E+02	-4.68276444314E+01	-1.21728404689E+02	-5.98012452230E+00	-3.82070509361E-01
6.55061673519E+05	-1.02033712415E+01	-1.75119273838E+02	6.02081117915E+00	1.78283101105E+02	-4.79266030039E+01	-1.00366134926E+01	-5.98759731683E+00	-2.04142669289E-01
6.77253028114E+05	-9.30109148990E+00	1.74429018507E+02	6.04729462021E+00	1.78544366762E+02	-4.62217691843E+01	6.51004353137E+00	-5.94247396247E+00	-5.75500364571E-01
6.99444382709E+05	-1.13445947496E+01	1.73354388669E+02	6.00193601332E+00	1.78091657386E+02	-4.14976700845E+01	-1.46911468327E+02	-5.97051856257E+00	-5.35292187484E-01
7.21635737304E+05	-1.00679942304E+01	-1.79013283694E+02	6.01057440689E+00	1.78090258190E+02	-4.46213995379E+01	1.56209414122E+02	-5.98169653652E+00	-4.95951899811E-01
7.43827091899E+05	-8.11676827406E+00	-1.75735942390E+02	5.99521539784E+00	1.77687370316E+02	-4.75280874495E+01	-3.49557194102E+01	-5.95936878818E+00	-6.02211211928E-01
7.66018446494E+05	-9.21472593408E+00	1.70538455804E+02	6.00670550272E+00	1.78002150724E+02	-4.34745413018E+01	6.68487174567E+01	-5.98484401103E+00	-5.21927579474E-01
7.88209801089E+05	-9.61578557760E+00	1.67396233583E+02	6.03166452438E+00	1.77781980417E+02	-4.13865361500E+01	2.29500078524E+01	-5.97983151343E+00	-5.54096055716E-01
8.10401155684E+05	-7.76032257729E+00	1.61070195718E+02	6.01880604603E+00	1.77368829617E+02	-4.80380596422E+01	7.63210198717E+01	-5.95868267631E+00	-4.55096001301E-01
8.32592510279E+05	-9.66756117595E+00	1.72996068104E+02	6.02797032574E+00	1.77238313298E+02	-5.33503758488E+01	3.73536030133E+01	-5.96101470941E+00	-5.92179740443E-01
8.54783864874E+05	-1.02412348466E+01	-1.71932934639E+02	6.03351996130E+00	1.77429860619E+02	-4.96772150864E+01	6.40809926527E+01	-5.95878493811E+00	-4.69229360711E-01
8.76975219469E+05	-1.10844403496E+01	-1.72804338901E+02	6.02313571362E+00	1.77078387217E+02	-4.65712972277E+01	3.40414569060E+01	-5.98561080644E+00	-5.86984239727E-01
8.99166574064E+05	-1.04286815906E+01	-1.79242774675E+02	6.00032823995E+00	1.76937152527E+02	-4.66148239210E+01	-7.22770590456E+01	-5.95884240401E+00	-5.34338860207E-01
9.21357928659E+05	-1.10512628671E+01	-1.77051349578E+02	6.00882393468E+00	1.76972113037E+02	-3.90828338047E+01	-6.10469466629E+01	-5.98387379745E+00	-4.67205372975E-01
9.43549283254E+05	-1.19965394606E+01	1.60737974215E+02	5.99734045619E+00	1.76834880501E+02	-4.56457844754E+01	-1.17219791245E+02	-5.96473875395E+00	-6.34827661584E-01
9.65740637849E+05	-9.83652865041E+00	1.74269345804E+02	5.98676749310E+00	1.76482769342E+02	-4.23597027847E+01	-7.22887846060E+01	-5.95946863417E+00	-5.71995536450E-01
9.87931992444E+05	-1.11184465141E+01	-1.59380938023E+02	6.02908479360E+00	1.76401696350E+02	-4.45753882385E+01	-1.63689887471E+02	-5.99178489767E+00	-6.74730023219E-01
1.01012334704E+06	-1.00535421259E+01	1.66533970160E+02	5.99994404770E+00	1.76452048126E+02	-4.05862678605E+01	-1.05783984244E+02	-5.96946538057E+00	-5.42695357470E-01
1.03231470163E+06	-9.75235280594E+00	-1.69806674405E+02	6.02022120793E+00	1.76137437778E+02	-5.46634642845E+01	-1.30915988501E+02	-5.98326270793E+00	-4.96916722852E-01
1.05450605623E+06	-1.03520985175E+01	1.74685494375E+02	5.99713812053E+00	1.76422798392E+02	-5.68846652460E+01	1.56205466280E+02	-5.97199607678E+00	-5.60979798565E-01
1.07669741082E+06	-9.83652146416E+00	1.65000165917E+02	6.00504783988E+00	1.75669100052E+02	-5.51160735347E+01	-1.16017828238E+02	-5.98548396973E+00	-6.05378884777E-01
1.09888876542E+06	-1.18845296879E+01	-1.73473235753E+02	6.04225055892E+00	1.76033736521E+02	-5.19276593699E+01	1.74334924032E+02	-5.98549273091E+00	-7.00953018398E-01
1.12108012001E+06	-9.91179099428E+00	1.71602109314E+02	6.02410107140E+00	1.75760618756E+02	-3.88531870708E+01	1.12262077298E+01	-5.98969635713E+00	-5.59168122326E-01
1.14327147461E+06	-9.60597419173E+00	1.78150589189E+02	6.03248554399E+00	1.75617361695E+02	-4.82020059594E+01	1.83117942241E+01	-5.96783960440E+00	-4.96376149050E-01
1.16546282920E+06	-8.76954529549E+00	1.69189224826E+02	6.03643302499E+00	1.75607544226E+02	-4.60448982968E+01	-3.12784491852E+01	-5.96399787848E+00	-5.86447170949E-01
1.18765418380E+06	-9.86750220192E+00	-1.79292959514E+02	6.02732417423E+00	1.75513668886E+02	-5.19693745572E+01	8.30410597780E+01	-5.96895528504E+00	-5.37690993204E-01
1.20984553839E+06	-1.08402372468E+01	-1.76638042555E+02	6.07670081248E+00	1.75350569415E+02	-5.05456556755E+01	9.14856349970E+01	-5.96309974788E+00	-9.64544501780E-01
1.23203689299E+06	-1.21147009203E+01	1.72472850395E+02	5.99119327820E+00	1.74877684661E+02	-4.35668637402E+01	-1.32213733189E+02	-5.98069835976E+00	-5.00039270591E-01
1.25422824758E+06	-8.79202650946E+00	-1.73522657951E+02	6.06213811590E+00	1.74940479711E+02	-4.71719096428E+01	-3.48228563150E+01	-6.00062272638E+00	-6.50440129244E-01
1.27641960218E+06	-8.87583482777E+00	1.78978702986E+02	6.02247934671E+00	1.74883771803E+02	-5.17942779703E+01	-8.31451805916E+01	-5.98606492893E+00	-7.49564080467E-01
1.29861095677E+06	-1.09970030329E+01	1.77893275488E+02	6.02857294695E+00	1.74948304370E+02	-4.34305520995E+01	-1.15427452006E+02	-5.98446434925E+00	-7.24725998945E-01
1.32080231137E+06	-1.02681258051E+01	-1.72690920963E+02	6.03645887782E+00	1.74691743786E+02	-4.70874365965E+01	-5.91927551720E+01	-5.97370763980E+00	-9.68820165243E-01
1.34299366596E+06	-1.02535414599E+01	-1.77279254862E+02	6.00011665029E+00	1.74390312330E+02	-4.61616418603E+01	1.21495293313E+01	-5.95561120911E+00	-8.92759817082E-01
1.36518502056E+06	-9.42040594391E+00	1.75089975780E+02	6.00248504205E+00	1.74519555976E+02	-4.50792288038E+01	1.77199715998E+02	-5.95946833272E+00	-8.03773895277E-01
1.38737637515E+06	-1.01191052308E+01	1.76258424532E+02	6.01957180382E+00	1.74418421201E+02	-4.41975282668E+01	1.13211856778E+02	-5.96490070432E+00	-7.81171366923E-01
1.40956772975E+06	-9.27569634192E+00	1.77204951096E+02	6.04562171303E+00	1.74282834782E+02	-4.69301343083E+01	-7.10242396848E+01	-5.97643266664E+00	-6.11356428434E-01
1.43175908434E+06	-9.59577354638E+00	1.63538974275E+02	6.02733373278E+00	1.74396633668E+02	-4.90036267976E+01	1.21790199496E+02	-5.97394865096E+00	-6.99789195689E-01
1.45395043894E+06	-1.05230804009E+01	-1.73939556358E+02	6.04603644511E+00	1.73916091234E+02	-5.51397463424E+01	1.33792484939E+02	-5.97633706403E+00	-8.08522748716E-01
1.47614179353E+06	-9.52454735580E+00	-1.75056995405E+02	6.02718838978E+00	1.73807615828E+02	-5.16894950461E+01	-1.53019616025E+01	-5.97033726686E+00	-7.67455281432E-01
1.49833314813E+06	-1.06389356680E+01	-1.77080069044E+02	6.00656169308E+00	1.73831872140E+02	-4.93240769507E+01	-1.53605160893E+02	-5.96558140214E+00	-6.16939290896E-01
1.52052450272E+06	-9.23834813562E+00	-1.79338753516E+02	5.98366202356E+00	1.73680834409E+02	-5.04813824179E+01	-3.88011180308E-01	-5.97030959197E+00	-7.93696877052E-01
1.54271585732E+06	-9.76122483093E+00	1.79334925871E+02	5.97659294517E+00	1.73526075879E+02	-3.94123688388E+01	8.39438290336E+01	-5.94434804875E+00	-8.36504174652E-01
1.56490721191E+06	-1.03692406333E+01	1.73568518296E+02	6.00373830008E+00	1.73562294837E+02	-4.65863009167E+01	-1.79288471047E+02	-5.97207565174E+00	-8.40057166046E-01
1.58709856651E+06	-1.23997622125E+01	1.71888004637E+02	6.00960248681E+00	1.73213638170E+02	-4.48866836783E+01	-5.74924343588E+01	-5.97459143358E+00	-7.70819778901E-01
1.60928992110E+06	-1.01655134699E+01	1.76405609935E+02	6.03949480213E+00	1.73097866617E+02	-4.14641107435E+01	3.57989509593E+01	-5.96178142033E+00	-8.71443693776E-01
1.63148127570E+06	-1.03074632675E+01	-1.69381841930E+02	6.05097046522E+00	1.73030492046E+02	-4.19725256506E+01	3.98497745598E+01	-5.96795218408E+00	-9.35791559785E-01
1.65367263029E+06	-9.65212990262E+00	1.71541133072E+02	6.04600898028E+00	1.73014049107E+02	-4.34370264877E+01	1.75246516692E+02	-5.97137930361E+00	-9.51837284545E-01
1.67586398489E+06	-1.02492055388E+01	1.66646943124E+02	6.00948027983E+00	1.72687807175E+02	-4.54670168650E+01	-1.51784764735E+02	-5.98300402694E+00	-9.11015497071E-01
1.69805533948E+06	-1.26208630737E+01	-1.65876217028E+02	5.96465012918E+00	1.72835535249E+02	-5.55007501910E+01	-4.15120311940E+01	-5.95351183642E+00	-9.01552721209E-01
1.72024669408E+06	-9.36351659791E+00	1.72576389934E+02	6.00817743509E+00	1.72633357808E+02	-5.68613952306E+01	9.52310761877E+00	-5.99295356313E+00	-8.66612964150E-01
1.74243804867E+06	-9.13718673576E+00	1.76817801043E+02	5.98809288702E+00	1.72482905378E+02	-4.30939606481E+01	-1.05302672607E+02	-5.99837350022E+00	-1.02466470682E+00
1.76462940327E+06	-1.11790521202E+01	1.75784588704E+02	5.98964872653E+00	1.72562767201E+02	-4.43018676584E+01	1.21212419482E+02	-5.96221010418E+00	-7.58136174838E-01
1.78682075786E+06	-9.96048943952E+00	1.67287804875E+02	5.99567629915E+00	1.72473618755E+02	-4.19498024852E+01	5.21083705509E+01	-5.95639232296E+00	-1.04149205512E+00
1.80901211246E+06	-1.02269881562E+01	1.74578770233E+02	5.99314987019E+00	1.71999729968E+02	-4.23603106697E+01	9.73357551258E+01	-5.98001471310E+00	-7.77949753528E-01
1.83120346705E+06	-1.12168158040E+01	1.70712012916E+02	5.98040985898E+00	1.71873856519E+02	-4.49892728534E+01	8.28411212473E+01	-5.96578603247E+00	-8.13827298420E-01
1.85339482165E+06	-1.01815820844E+01	1.77553080673E+02	6.02420655141E+00	1.71796198922E+02	-4.72062799818E+01	-1.31603909862E+02	-5.97163221394E+00	-8.98576363893E-01
1.87558617624E+06	-1.07289783471E+01	1.74586229710E+02	6.02590269665E+00	1.71913163850E+02	-5.13902760879E+01	-1.09122833371E+02	-5.97540772262E+00	-1.11350688455E+00
1.89777753084E+06	-1.06792990901E+01	1.76586717249E+02	6.01858352996E+00	1.71761388374E+02	-4.97570089055E+01	3.91540670472E+01	-5.98355481504E+00	-9.48114565598E-01
1.91996888543E+06	-1.10605837595E+01	-1.75282370611E+02	6.02155464763E+00	1.71582363745E+02	-4.20571837934E+01	-7.74963022804E+01	-5.98229643811E+00	-9.09153697687E-01
1.94216024003E+06	-1.22324329604E+01	1.67344725763E+02	6.00575849562E+00	1.71610986377E+02	-4.74767027300E+01	-4.95889289039E+01	-5.96626551268E+00	-8.46325819965E-01
1.96435159462E+06	-1.39009543415E+01	1.64133846508E+02	5.93186399734E+00	1.71684012002E+02	-4.03660451423E+01	-1.41427971701E+02	-5.99801211936E+00	-9.85821678229E-01
1.98654294922E+06	-1.16372370526E+01	1.69538050887E+02	6.02554154941E+00	1.71675606271E+02	-4.39688493537E+01	-1.43075614010E+02	-5.97991059824E+00	-9.01376805095E-01
2.00873430381E+06	-1.08509093011E+01	1.69923433949E+02	6.03913330614E+00	1.71310620066E+02	-5.21627411837E+01	1.30004105347E+02	-5.97037099449E+00	-8.44952488020E-01
2.03092565841E+06	-9.66360954045E+00	-1.71946576117E+02	6.02687530688E+00	1.71008163412E+02	-5.14975830791E+01	-3.56488035231E+01	-5.97779373767E+00	-9.92294917535E-01
2.05311701300E+06	-1.20736034364E+01	-1.65881764361E+02	6.00337639689E+00	1.71112811106E+02	-4.99968948255E+01	1.50956443536E+02	-5.95719890869E+00	-9.47950483197E-01
2.07530836760E+06	-1.17197426060E+01	1.66716966540E+02	6.03259481580E+00	1.70911173211E+02	-4.58595281305E+01	-4.12244583349E+01	-5.98705945995E+00	-9.08239327338E-01
2.09749972219E+06	-1.11866258243E+01	-1.79276128025E+02	6.00633260481E+00	1.70796906203E+02	-6.33324911212E+01	1.18293067820E+02	-5.96089558052E+00	-1.07171194429E+00
2.11969107679E+06	-1.12441931070E+01	1.75402791042E+02	6.00210429257E+00	1.70303683520E+02	-4.25617055422E+01	-6.10768547909E+01	-5.98655639490E+00	-1.18807774847E+00
2.14188243138E+06	-1.00975095699E+01	1.76819290684E+02	6.01582592023E+00	1.70643732889E+02	-5.83099643413E+01	-8.58873640831E+01	-5.96684115764E+00	-1.08620018523E+00
2.16407378598E+06	-1.16515518239E+01	-1.76765052878E+02	6.03146315311E+00	1.70371911757E+02	-4.40722172188E+01	-3.51207679540E+01	-5.96627442246E+00	-9.31192233243E-01
2.18626514057E+06	-1.10235375308E+01	1.64058277917E+02	6.01610048782E+00	1.70537721713E+02	-4.49159423404E+01	-1.73492539046E+02	-5.95359607489E+00	-9.51858730813E-01
2.20845649517E+06	-1.02210200651E+01	1.76610764384E+02	6.02180466244E+00	1.70144454303E+02	-5.05945691047E+01	5.02068870283E+01	-5.97003448664E+00	-9.72896476289E-01
2.23064784976E+06	-1.16420128338E+01	1.73016077256E+02	5.99241757091E+00	1.70386861547E+02	-5.46563877172E+01	6.25970584435E+01	-5.98847750952E+00	-1.08362612421E+00
2.25283920436E+06	-1.14155099722E+01	-1.73688382994E+02	6.01279936084E+00	1.70312337790E+02	-3.93907957343E+01	-7.84677121845E-01	-5.96441465490E+00	-1.18249804800E+00
2.27503055895E+06	-1.19499172446E+01	1.75904706412E+02	5.99875276427E+00	1.69685260384E+02	-4.66176857933E+01	1.20844117594E+02	-5.97038369494E+00	-1.00499177613E+00
2.29722191355E+06	-1.21432553008E+01	1.69393167919E+02	6.00452264380E+00	1.70112918710E+02	-3.93748038785E+01	-1.76353267119E+02	-5.98866140891E+00	-9.46991914398E-01
2.31941326814E+06	-1.07984685860E+01	1.71621897932E+02	6.00689788591E+00	1.69822571586E+02	-4.74296655961E+01	-4.28748618328E+01	-5.95783361718E+00	-1.01295363875E+00
2.34160462274E+06	-1.11154149563E+01	1.65715465204E+02	5.97768981359E+00	1.69549726230E+02	-4.34474594027E+01	5.71298453783E+01	-5.96801308222E+00	-9.74961865076E-01
2.36379597733E+06	-1.09052718947E+01	-1.75312910661E+02	6.00959613073E+00	1.69711616663E+02	-4.23077601158E+01	-1.69092097660E+02	-5.94727376949E+00	-1.10491229555E+00
2.38598733193E+06	-1.09966307844E+01	-1.79995239885E+02	5.98515538132E+00	1.69447884253E+02	-4.49896743584E+01	-3.02125059526E+01	-5.95382574169E+00	-1.14568188899E+00
2.40817868652E+06	-1.00027251749E+01	1.79826797416E+02	5.98568144194E+00	1.69156568779E+02	-4.38954436515E+01	-7.96142783657E+01	-5.97387476385E+00	-1.08219252619E+00
2.43037004112E+06	-9.34619572995E+00	-1.77077364489E+02	6.00535242675E+00	1.69262694074E+02	-4.18426491732E+01	4.98625644042E+01	-5.97036690136E+00	-1.36388482847E+00
2.45256139571E+06	-1.06347664508E+01	1.78242950766E+02	6.00961290993E+00	1.68924642435E+02	-4.21509606637E+01	1.58077059105E+01	-5.97225418467E+00	-9.17102434345E-01
2.47475275031E+06	-1.06969427529E+01	-1.79518698899E+02	6.01600195136E+00	1.68930566900E+02	-4.98863329852E+01	1.61496556111E+02	-5.96507399724E+00	-1.04124243693E+00
2.49694410490E+06	-1.17200861317E+01	1.77996320450E+02	6.06756400539E+00	1.68855718060E+02	-5.69284373756E+01	-1.63712325812E+02	-5.94922874410E+00	-1.12663932315E+00
2.51913545950E+06	-8.70122086536E+00	1.75122193659E+02	6.04006083016E+00	1.68813242970E+02	-4.37406723008E+01	5.55067660173E+01	-5.96220148481E+00	-1.05274387174E+00
2.54132681409E+06	-1.06758523413E+01	1.61621965211E+02	6.02036151265E+00	1.68727400698E+02	-4.58907623518E+01	1.45742117931E+02	-5.96212943561E+00	-1.21451512898E+00
2.56351816869E+06	-9.17904395252E+00	-1.76383659658E+02	6.03556611506E+00	1.68625317183E+02	-4.15366861014E+01	-4.54671513770E+01	-5.95382006714E+00	-1.30897887441E+00
2.58570952328E+06	-8.96320837112E+00	-1.78680980776E+02	6.03118129305E+00	1.68318671323E+02	-5.01891417674E+01	3.63664805878E+01	-5.95898363360E+00	-1.15279394249E+00
2.60790087788E+06	-8.98175230848E+00	1.73529845434E+02	6.01821999957E+00	1.68376114663E+02	-4.00779413179E+01	-1.10158892549E+01	-5.97779071861E+00	-1.38044200877E+00
2.63009223247E+06	-1.11060926951E+01	-1.79945369567E+02	6.03735203225E+00	1.68135944979E+02	-5.15486874820E+01	-1.30767620864E+02	-5.97491890467E+00	-1.17018251346E+00
2.65228358707E+06	-1.04052771283E+01	-1.76034573251E+02	6.03310154037E+00	1.68456695092E+02	-4.45010252754E+01	-4.12936625028E+01	-5.98104380225E+00	-1.52577969058E+00
2.67447494166E+06	-8.98162101789E+00	-1.75000073016E+02	5.99522837743E+00	1.68131806524E+02	-4.26987300226E+01	5.24243204669E+01	-5.94192247992E+00	-1.38246347196E+00
2.69666629626E+06	-9.22469139011E+00	-1.73880146499E+02	5.98483130892E+00	1.67978047750E+02	-3.98925173579E+01	1.22173105738E+02	-5.96869205509E+00	-1.20337223794E+00
2.71885765085E+06	-1.17685456764E+01	1.76141379854E+02	6.01775558827E+00	1.68016762452E+02	-4.04563155715E+01	-1.44606512688E+02	-5.99575846549E+00	-1.03029473376E+00
2.74104900545E+06	-1.23583881926E+01	1.76377300140E+02	6.00676948202E+00	1.67837169741E+02	-5.35483476055E+01	-1.28042800479E+02	-5.95300102905E+00	-1.16037353921E+00
2.76324036004E+06	-1.09042275236E+01	-1.74646477326E+02	5.96204511954E+00	1.67620905752E+02	-4.93079873383E+01	1.60955765843E+02	-5.95671775564E+00	-1.25976480082E+00
2.78543171463E+06	-1.10181824273E+01	-1.71428854891E+02	6.03606965779E+00	1.67397973679E+02	-5.04730024617E+01	5.80186468095E+01	-5.97129369024E+00	-1.13426961424E+00
2.80762306923E+06	-1.03168308198E+01	-1.77985891639E+02	6.03428091805E+00	1.67709551859E+02	-4.30623216878E+01	1.10592043957E+01	-5.95108864314E+00	-1.44417528741E+00
2.82981442382E+06	-9.59295732786E+00	1.74012229381E+02	5.98275485598E+00	1.67390978554E+02	-5.69009085847E+01	1.62915294258E+01	-5.97574459208E+00	-1.28001648298E+00
2.85200577842E+06	-1.00004105060E+01	-1.77020410766E+02	5.99483489623E+00	1.67384407213E+02	-4.62173231154E+01	1.74528427878E+02	-5.98177545497E+00	-1.42986818214E+00
2.87419713301E+06	-1.08933909563E+01	-1.77375029164E+02	6.04050445420E+00	1.67452062504E+02	-4.13923381006E+01	1.61505972358E+02	-5.94986554885E+00	-1.25576850827E+00
