# Hz S DB R 50
! CMT, M5065, 19127446, 24.2.4/2
! Date: 10/29/2024 12:49:37 PM
! Data: Format (Calibration Info)
! Freq	S11:dB/Ang(F2)	S21:dB/Ang(F2)	S12:dB/Ang(F2)	S22:dB/Ang(F2)
3.00000000000E+05	-1.02437272254E+01	-1.72448595760E+02	2.17422685968E+01	-1.77216938250E+02	-4.53552276073E+01	-5.39323356926E+00	-5.96150676575E+00	-4.28343166388E-01
3.22191354595E+05	-8.42787933462E+00	1.72520753025E+02	2.17578917459E+01	-1.78034786868E+02	-3.20591769660E+01	1.78426121564E+02	-5.98300197318E+00	-1.74759541730E-01
3.44382709190E+05	-9.57567017518E+00	-1.58393813761E+02	2.17803426895E+01	-1.78748207621E+02	-4.09877906904E+01	3.99478142022E+01	-5.95423175605E+00	-3.53614521692E-01
3.66574063785E+05	-9.02187047861E+00	-1.55309248475E+02	2.17591104026E+01	-1.79234992193E+02	-4.75954280139E+01	8.64971647424E+01	-5.98900156003E+00	-1.73865313399E-01
3.88765418380E+05	-1.11814566181E+01	1.73995071698E+02	2.17465480454E+01	-1.79739035780E+02	-3.32435146106E+01	-1.63161592797E+02	-5.98066214215E+00	-1.37612419514E+00
4.10956772975E+05	-1.07285992682E+01	-1.77383293460E+02	2.17585235664E+01	1.79326141453E+02	-4.04453588148E+01	-1.52768287258E+02	-5.97191310595E+00	-4.69021576775E-01
4.33148127570E+05	-9.65425653652E+00	-1.50973331743E+02	2.17640159698E+01	1.78966742543E+02	-3.88265683936E+01	1.98587756782E+01	-5.96534741967E+00	-4.81935654942E-01
4.55339482165E+05	-7.55457548586E+00	1.64401592185E+02	2.17971355596E+01	1.78486261469E+02	-4.11253635719E+01	-1.98478388627E+01	-5.92733034430E+00	-5.42624756769E-01
4.77530836760E+05	-8.42235477699E+00	-1.49339364586E+02	2.17777057237E+01	1.78068981789E+02	-4.03676021522E+01	-8.25525360801E+01	-6.00072887439E+00	-3.99721948536E-01
4.99722191355E+05	-7.66897749025E+00	-1.55242619555E+02	2.17533421342E+01	1.77516590313E+02	-4.37404138649E+01	1.34004754454E+02	-6.00813906910E+00	-4.66609961119E-01
5.21913545950E+05	-8.21911556338E+00	-1.76044022779E+02	2.17551130909E+01	1.76979605615E+02	-4.77376705419E+01	-5.50771479131E+01	-5.95143202749E+00	-1.98436925745E-01
5.44104900545E+05	-1.21890579320E+01	-1.51038992848E+02	2.17407954877E+01	1.76511602872E+02	-3.74868935319E+01	1.56611210067E+02	-5.92060253575E+00	-2.80752343797E-01
5.66296255139E+05	-8.62957373620E+00	1.71141129688E+02	2.17492107697E+01	1.76326220324E+02	-3.85871248343E+01	-5.64461775951E+01	-5.95285817106E+00	-4.60556907633E-01
5.88487609734E+05	-1.55987460026E+01	-1.62453360413E+02	2.17470570753E+01	1.75749129064E+02	-4.00113017247E+01	-1.69906924960E+02	-5.94207730996E+00	-8.10114791703E-01
6.10678964329E+05	-1.06857204778E+01	-1.52815893092E+02	2.17812683029E+01	1.75485940726E+02	-4.85160994034E+01	3.26172320860E+01	-5.99061908003E+00	1.43969682186E-01
6.32870318924E+05	-9.68203522784E+00	-1.56796185605E+02	2.17495791828E+01	1.75133637725E+02	-4.01074766548E+01	1.74905129700E+02	-5.97133555369E+00	-4.45422348846E-01
6.55061673519E+05	-7.89168524389E+00	1.77936352669E+02	2.17670571555E+01	1.74409760671E+02	-4.33827835185E+01	-8.22020077927E+01	-5.98231390824E+00	-5.98921156925E-01
6.77253028114E+05	-1.09356382530E+01	1.75425231743E+02	2.17593678247E+01	1.74234192024E+02	-3.79917601137E+01	-1.10610056464E+02	-5.97361488451E+00	-7.36297318510E-01
6.99444382709E+05	-1.06227280401E+01	1.58499637716E+02	2.17765287605E+01	1.73774459697E+02	-4.37674158853E+01	3.34931889629E+01	-5.97915211790E+00	-5.13248225284E-01
7.21635737304E+05	-8.71882384521E+00	-1.67541910855E+02	2.17412404610E+01	1.73403580893E+02	-3.87438075437E+01	-1.32352222731E+02	-5.96201327775E+00	-4.72654088876E-01
7.43827091899E+05	-8.96883909858E+00	1.62403189110E+02	2.17638499849E+01	1.73032777825E+02	-5.14645039839E+01	-1.79889883641E+01	-5.96283927069E+00	-4.37116466435E-01
7.66018446494E+05	-1.01149297249E+01	-1.63241653792E+02	2.17398220755E+01	1.72777643342E+02	-3.55063770854E+01	-1.30135473996E+02	-5.93502953864E+00	-6.09851388741E-01
7.88209801089E+05	-1.03420688504E+01	1.77548335562E+02	2.17313137826E+01	1.72469915611E+02	-3.56221017960E+01	6.37632037523E+01	-5.94162752240E+00	-4.98167555101E-01
8.10401155684E+05	-1.30295535220E+01	1.79984773712E+02	2.17272493120E+01	1.71976997149E+02	-5.58972680170E+01	6.08682424448E+01	-5.96667561361E+00	-6.63686726456E-01
8.32592510279E+05	-1.17502375594E+01	-1.75587618143E+02	2.16918367112E+01	1.71739036725E+02	-3.98425883245E+01	-1.49799209948E+02	-6.05202776005E+00	-7.58236471422E-01
8.54783864874E+05	-8.10504267194E+00	-1.50183919658E+02	2.17143968512E+01	1.71493028280E+02	-3.74801151816E+01	7.15693849614E+01	-5.96905008761E+00	-7.81536920134E-01
8.76975219469E+05	-1.12632148066E+01	-1.63492610761E+02	2.17473965855E+01	1.71070371676E+02	-5.63041776851E+01	1.24228111461E+02	-6.01600267571E+00	-6.66236898915E-01
8.99166574064E+05	-1.36771203745E+01	1.75121027377E+02	2.17075843982E+01	1.70676028587E+02	-4.07487297936E+01	3.80831106622E+01	-5.98971253474E+00	-7.68975572653E-01
9.21357928659E+05	-1.13511855795E+01	1.61777309287E+02	2.16813324983E+01	1.70354648500E+02	-4.28188542307E+01	1.75121713252E+02	-5.98454205718E+00	-7.61724248932E-01
9.43549283254E+05	-1.21202787781E+01	-1.74453664039E+02	2.17245496653E+01	1.70228053952E+02	-3.99996404756E+01	4.12439494361E+01	-6.01423351249E+00	-8.22699701261E-01
9.65740637849E+05	-9.62703506630E+00	1.68109926926E+02	2.16898268913E+01	1.69549787775E+02	-4.79794927499E+01	-1.25467286335E+01	-6.00776305035E+00	-5.70040360342E-01
9.87931992444E+05	-8.34540129241E+00	-1.64852562516E+02	2.17197745350E+01	1.69536284497E+02	-3.55415605395E+01	1.58806460785E+02	-5.96915577307E+00	-8.07764689126E-01
1.01012334704E+06	-8.77881136963E+00	-1.45491883403E+02	2.16886027329E+01	1.68985029347E+02	-4.16762972441E+01	-3.24964140453E+01	-6.00584264028E+00	-1.11093764553E+00
1.03231470163E+06	-8.87626585263E+00	1.79527458627E+02	2.16914125347E+01	1.68644649957E+02	-4.67431721236E+01	-8.37135744199E+00	-5.94626563202E+00	-6.19537186665E-01
1.05450605623E+06	-8.80161511370E+00	-1.66332802762E+02	2.17006117484E+01	1.68502760390E+02	-3.94070734712E+01	-1.93381328765E+01	-5.94149377071E+00	-7.73951376282E-01
1.07669741082E+06	-8.21011235652E+00	-1.63359870415E+02	2.16738161765E+01	1.68335463837E+02	-3.67499229589E+01	-1.14402777650E+02	-5.83290726084E+00	-2.56385579653E-01
1.09888876542E+06	-1.18460688895E+01	-1.57584180018E+02	2.16886979003E+01	1.67788282731E+02	-4.45001857184E+01	-1.73822612189E+02	-6.02945435262E+00	-5.88034800799E-01
1.12108012001E+06	-9.28838254117E+00	-1.72150567599E+02	2.17048338601E+01	1.67718371676E+02	-4.38533121878E+01	1.11025620268E+02	-5.98965916206E+00	-3.12326125676E-01
1.14327147461E+06	-9.89524093935E+00	1.69373182934E+02	2.16530994106E+01	1.67373933430E+02	-4.18356432482E+01	-8.35993295192E+01	-6.01300860957E+00	-1.65397499003E-01
1.16546282920E+06	-9.78128237769E+00	-1.70858954931E+02	2.16801209282E+01	1.67036319069E+02	-4.31913545335E+01	-6.81623575139E+01	-5.99330308942E+00	-5.41895184544E-01
1.18765418380E+06	-9.74214905294E+00	-1.73148408917E+02	2.16494634642E+01	1.66572513200E+02	-3.75679585556E+01	-2.39393026339E+01	-5.98186800041E+00	-7.37135222961E-01
1.20984553839E+06	-1.21481442987E+01	1.57219227494E+02	2.16599117460E+01	1.66263424002E+02	-3.99082599820E+01	1.68320075064E+01	-5.96021105089E+00	-1.05232273317E+00
1.23203689299E+06	-7.60873175141E+00	-1.60214352041E+02	2.16501171555E+01	1.66106581030E+02	-4.11814001466E+01	7.32620972725E+01	-6.00505997329E+00	-5.07633780725E-01
1.25422824758E+06	-1.01027533099E+01	1.54408507372E+02	2.16612839488E+01	1.65706348056E+02	-4.21527891129E+01	1.25491563516E+02	-5.97126228165E+00	-6.95264634218E-01
1.27641960218E+06	-9.78670648572E+00	1.65989299806E+02	2.16563827930E+01	1.65450125654E+02	-4.22850782938E+01	1.18354723768E+02	-5.99638676853E+00	-7.62380899095E-01
1.29861095677E+06	-1.20210931586E+01	-1.72976529166E+02	2.16268874335E+01	1.65137249824E+02	-3.88912020843E+01	-2.28044626472E+01	-5.96267192530E+00	-9.60646491799E-01
1.32080231137E+06	-7.20708886645E+00	1.75348848381E+02	2.16486881149E+01	1.64943198456E+02	-4.23343445339E+01	3.55190628837E+01	-6.01447268192E+00	-3.34491599428E-01
1.34299366596E+06	-9.24246684632E+00	-1.69480225293E+02	2.16231973695E+01	1.64676662866E+02	-3.90119225524E+01	-7.70538792862E+01	-6.00567554309E+00	-8.79761715929E-01
1.36518502056E+06	-8.93073936629E+00	-1.54043989113E+02	2.16232653925E+01	1.64552227943E+02	-5.17461704274E+01	-7.07142844486E+01	-5.98028673603E+00	-5.80508105648E-01
1.38737637515E+06	-1.10360616739E+01	1.74587946528E+02	2.16287598172E+01	1.63865786666E+02	-5.25944008343E+01	-4.40724800598E+01	-5.94634179646E+00	-6.58442152903E-01
1.40956772975E+06	-1.00747623714E+01	1.77260934804E+02	2.16484489006E+01	1.63464205245E+02	-6.39285731458E+01	1.78076320111E+02	-6.00177254715E+00	-7.00519036054E-01
1.43175908434E+06	-1.16914918515E+01	1.43820448761E+02	2.16178345499E+01	1.63539751540E+02	-3.46060236343E+01	3.22515068350E+01	-6.05738436940E+00	-9.62664600727E-01
1.45395043894E+06	-9.20801366283E+00	1.59657249983E+02	2.16041464659E+01	1.62867468642E+02	-3.75884087182E+01	-1.78395434160E+02	-5.97432660049E+00	-6.91750062727E-01
1.47614179353E+06	-1.38041999681E+01	-1.75961365008E+02	2.16568540065E+01	1.62851818528E+02	-3.37647911856E+01	-6.89581038101E+01	-5.90198837439E+00	-1.69789732689E+00
1.49833314813E+06	-1.16387081328E+01	1.70473183626E+02	2.15939313840E+01	1.61974064328E+02	-4.03255892253E+01	-1.60689448437E+02	-5.97980427348E+00	-6.95419285756E-01
1.52052450272E+06	-1.50055853826E+01	-1.52909449544E+02	2.15749731423E+01	1.62203502950E+02	-4.26713856102E+01	-1.47976197429E+02	-5.99299085313E+00	-8.00279879901E-01
1.54271585732E+06	-1.16157442618E+01	-1.72511772361E+02	2.16027985826E+01	1.61923851444E+02	-4.70440934386E+01	7.03715361361E+00	-5.94498934567E+00	-8.92719129932E-01
1.56490721191E+06	-1.02349144082E+01	-1.67823367734E+02	2.16110369168E+01	1.61644904589E+02	-3.86793716042E+01	8.27978006506E+01	-5.95901237610E+00	-9.88982035465E-01
1.58709856651E+06	-9.69564987588E+00	-1.64942211456E+02	2.15683647613E+01	1.61452092554E+02	-4.21411587499E+01	1.46669249267E+02	-6.03279725750E+00	-8.78684208790E-01
1.60928992110E+06	-1.07992102784E+01	-1.67444823712E+02	2.15761734477E+01	1.61063666654E+02	-4.39576142927E+01	-6.75435526051E+01	-6.03683626305E+00	-8.33530149554E-01
1.63148127570E+06	-9.53481282009E+00	1.69681994085E+02	2.15823514642E+01	1.60886537059E+02	-3.79541497068E+01	-5.07856254710E+01	-5.96727602947E+00	-4.08929407368E-01
1.65367263029E+06	-1.13030737106E+01	-1.65794563711E+02	2.16137404144E+01	1.61056219926E+02	-4.63572817688E+01	-1.21065596658E+02	-5.99718232746E+00	-1.12576376586E+00
1.67586398489E+06	-1.31701766259E+01	1.67058531389E+02	2.15415816406E+01	1.60379717574E+02	-3.46611880084E+01	-8.53385412254E+00	-5.98877592673E+00	-7.66608367833E-01
1.69805533948E+06	-8.28952452875E+00	-1.76196713090E+02	2.15320206902E+01	1.59913885117E+02	-4.14781777212E+01	-1.59176761855E+02	-5.94642530255E+00	-8.23570847551E-01
1.72024669408E+06	-1.27650405713E+01	1.76747256989E+02	2.15078662585E+01	1.59719212574E+02	-3.84546588377E+01	-1.11322438766E+02	-5.99118357078E+00	-7.52212689484E-01
1.74243804867E+06	-1.59201605625E+01	-1.77753829936E+02	2.15201214661E+01	1.59825121232E+02	-4.35717927881E+01	-8.46772839220E+01	-6.03557481318E+00	-1.12465531744E+00
1.76462940327E+06	-9.86445275055E+00	-1.66871915376E+02	2.15480848381E+01	1.59223071547E+02	-3.81385585856E+01	2.28705259679E+01	-5.93790325928E+00	-6.51855774113E-01
1.78682075786E+06	-7.22990481412E+00	-1.68372272833E+02	2.15060111232E+01	1.58823161287E+02	-3.46479012502E+01	-1.75999448039E+01	-5.75608475105E+00	-4.79790196615E-01
1.80901211246E+06	-9.96699898297E+00	1.75024702621E+02	2.16157200764E+01	1.58395166711E+02	-3.89141831820E+01	3.66540059550E+01	-5.89419485418E+00	-4.65486413728E-01
1.83120346705E+06	-8.68170578259E+00	1.69196790912E+02	2.14989746165E+01	1.58366747983E+02	-4.02286329210E+01	-2.16812260590E+01	-5.96198967187E+00	-5.87281741924E-01
1.85339482165E+06	-1.01904472546E+01	1.44356460237E+02	2.15368496000E+01	1.58248792791E+02	-3.86685168732E+01	-3.62779580285E+01	-6.01016934333E+00	-8.29708032731E-01
1.87558617624E+06	-9.70833161901E+00	-1.54909808372E+02	2.15081165278E+01	1.57766054506E+02	-3.72746765906E+01	-1.69622975028E+02	-5.98788047584E+00	-1.06213407427E+00
1.89777753084E+06	-9.90869062110E+00	1.66299955820E+02	2.15307064364E+01	1.57495576675E+02	-4.02288165689E+01	-4.90848484046E+01	-5.99283621278E+00	-1.26783387752E+00
1.91996888543E+06	-1.40356674532E+01	1.62673407469E+02	2.14762200239E+01	1.57083951653E+02	-4.53169843499E+01	1.69897780311E+02	-5.94464784984E+00	-7.77064116241E-01
1.94216024003E+06	-7.36353772676E+00	1.69643016673E+02	2.14820478616E+01	1.57083387214E+02	-3.47767896866E+01	1.54060235119E+02	-6.16024275196E+00	3.93332003092E-01
1.96435159462E+06	-1.22928734580E+01	1.57455164314E+02	2.14406574577E+01	1.56405640599E+02	-3.93487574810E+01	-1.39699942716E+02	-5.93970816214E+00	-8.41286398410E-01
1.98654294922E+06	-6.35152409834E+00	1.79685791149E+02	2.14809107854E+01	1.56304250513E+02	-5.25473478619E+01	-1.54615068214E+02	-5.96761394337E+00	-1.01347781886E+00
2.00873430381E+06	-9.08579492729E+00	-1.76576072106E+02	2.14719669914E+01	1.56248895982E+02	-5.32538468282E+01	-1.02294823910E+02	-5.97172734426E+00	-9.92199713380E-01
2.03092565841E+06	-8.71906867150E+00	1.66695606389E+02	2.14835954258E+01	1.56108825259E+02	-3.87016766641E+01	1.41048353038E+02	-5.98108503367E+00	-8.35046049503E-01
2.05311701300E+06	-8.50025533481E+00	1.69849094274E+02	2.14958477749E+01	1.55683735768E+02	-5.60834445025E+01	-1.19941246511E+02	-5.98006622734E+00	-1.24735002364E+00
2.07530836760E+06	-9.52481825697E+00	-1.69766454931E+02	2.14807206526E+01	1.55356699701E+02	-4.17005714129E+01	4.18471609572E+01	-5.93713390234E+00	-1.29821810034E+00
2.09749972219E+06	-1.02617522743E+01	1.70978264154E+02	2.14399534108E+01	1.55167686889E+02	-3.57542787375E+01	1.39727947518E+02	-6.06597175122E+00	-1.25525601135E+00
2.11969107679E+06	-9.33398528818E+00	-1.77172086659E+02	2.14687750575E+01	1.55325503909E+02	-4.12557917895E+01	9.36802610045E+01	-5.95741030079E+00	-1.06528887123E+00
2.14188243138E+06	-1.47088819348E+01	1.67885176395E+02	2.14229291942E+01	1.54509122034E+02	-4.59245367549E+01	-7.01621461282E+01	-5.99100094200E+00	-1.19779248452E+00
2.16407378598E+06	-8.97285873776E+00	1.77617959943E+02	2.14084703132E+01	1.54447869877E+02	-4.02121756231E+01	6.03730756539E+01	-5.94279586710E+00	-9.86690808843E-01
2.18626514057E+06	-1.35638318286E+01	-1.75513633308E+02	2.13957924215E+01	1.54128093180E+02	-4.39383797538E+01	9.58912186927E+01	-5.92956270174E+00	-8.45767306123E-01
2.20845649517E+06	-9.27984329656E+00	-1.76850311738E+02	2.14230760508E+01	1.53686136361E+02	-4.94587095485E+01	-1.63907080283E+01	-5.96523878778E+00	-5.37029685293E-01
2.23064784976E+06	-1.01753403973E+01	-1.59223142562E+02	2.13802869198E+01	1.53373110429E+02	-4.20881326421E+01	9.43869898367E+01	-6.02884848047E+00	-1.62319516256E+00
2.25283920436E+06	-8.35464721518E+00	-1.60904867534E+02	2.14015455464E+01	1.53151505705E+02	-3.66863696919E+01	8.60362002401E+00	-5.86761313827E+00	-1.21366725712E+00
2.27503055895E+06	-1.03975961803E+01	-1.64983971824E+02	2.14164103807E+01	1.52631320809E+02	-4.01412870176E+01	-1.52076360774E+02	-6.15298352273E+00	-1.37051574531E+00
2.29722191355E+06	-9.18468480388E+00	-1.68752752896E+02	2.14018880810E+01	1.52533381128E+02	-4.88767514274E+01	8.57641457794E+01	-5.98763864821E+00	-1.00658620693E+00
2.31941326814E+06	-1.07968534194E+01	-1.74470297305E+02	2.13802661279E+01	1.52138953877E+02	-4.50463213780E+01	-1.59040687804E+02	-5.96510411238E+00	-6.63492463481E-01
2.34160462274E+06	-1.40899225445E+01	-1.53037100766E+02	2.13713941919E+01	1.52265750538E+02	-4.41129806270E+01	-7.27570426029E+01	-6.00220440639E+00	-9.17116501223E-01
2.36379597733E+06	-1.20594433638E+01	-1.74731433734E+02	2.13530768272E+01	1.52053796311E+02	-4.88174160950E+01	-1.41844247939E+02	-5.96102732227E+00	-6.27353965680E-01
2.38598733193E+06	-9.09296790196E+00	-1.75823752174E+02	2.13808552226E+01	1.51606624620E+02	-4.40831055325E+01	-4.23054012251E+01	-5.95850440618E+00	-9.10921975986E-01
2.40817868652E+06	-1.03457704636E+01	1.69512959847E+02	2.13647076999E+01	1.51323778872E+02	-3.46478442710E+01	1.66110702222E+01	-5.85320534291E+00	-1.62452135217E+00
2.43037004112E+06	-1.10882978579E+01	1.76131247354E+02	2.13116749018E+01	1.50953572872E+02	-5.67256205948E+01	2.91593118554E+01	-5.95588297330E+00	-1.33760128083E+00
2.45256139571E+06	-1.12769365657E+01	1.64461290022E+02	2.13364017391E+01	1.50926386033E+02	-4.00392512748E+01	-1.76113459535E+02	-5.97753715561E+00	-1.09896522021E+00
2.47475275031E+06	-7.09823656455E+00	-1.68822911356E+02	2.13356698738E+01	1.50506834582E+02	-3.69904570887E+01	1.33109968355E+02	-5.96078853771E+00	-1.10221315142E+00
2.49694410490E+06	-9.17229064714E+00	-1.60393320664E+02	2.13493802674E+01	1.50127548569E+02	-4.81470391985E+01	1.57644710254E+02	-5.94016230369E+00	-1.01401905515E+00
2.51913545950E+06	-1.08937351888E+01	1.73349423415E+02	2.13235542432E+01	1.49803978070E+02	-4.31536026343E+01	-1.21215765138E+02	-5.98159533041E+00	-1.52474754962E+00
2.54132681409E+06	-1.28532817948E+01	-1.75648522505E+02	2.13409507494E+01	1.49393318513E+02	-3.87293218813E+01	8.46950792907E+01	-5.95456382095E+00	-8.83018353309E-01
2.56351816869E+06	-1.18966201714E+01	1.79492915013E+02	2.13296762767E+01	1.49591947336E+02	-7.41769090527E+01	1.00495534952E+01	-6.05160730961E+00	-1.20127024900E+00
2.58570952328E+06	-8.53013547062E+00	-1.60644895040E+02	2.13181405137E+01	1.48699108462E+02	-5.07693613386E+01	-1.52028078513E+02	-5.97872341927E+00	-1.75248685584E+00
2.60790087788E+06	-9.82868415475E+00	-1.70608991210E+02	2.12955646441E+01	1.48929584141E+02	-3.85877243983E+01	-1.69467897282E+02	-5.96726068159E+00	-1.03009031394E+00
2.63009223247E+06	-1.04633438327E+01	-1.72358654138E+02	2.12771217295E+01	1.48660886613E+02	-4.95762212048E+01	9.46706522472E+01	-5.96524892387E+00	-1.13496556942E+00
2.65228358707E+06	-9.16999357455E+00	1.74933043812E+02	2.13119915920E+01	1.48436942714E+02	-3.88814849869E+01	-1.75827572464E+02	-5.95626006076E+00	-2.02575340186E+00
2.67447494166E+06	-1.15346051536E+01	1.78061097262E+02	2.12662955209E+01	1.48136929541E+02	-4.37864660382E+01	4.71051976753E+01	-6.00267985926E+00	-1.68454458017E+00
2.69666629626E+06	-1.69658919749E+01	-1.70976234438E+02	2.12482462985E+01	1.47770220400E+02	-4.03466325039E+01	8.75303956921E+01	-5.98899631212E+00	-1.30863585621E+00
2.71885765085E+06	-1.53066554151E+01	-1.54505161497E+02	2.12450664354E+01	1.47455207524E+02	-3.73707228900E+01	8.33061609873E+01	-5.93991920594E+00	-1.31713679581E+00
2.74104900545E+06	-1.28432807067E+01	1.59073266997E+02	2.12782672781E+01	1.47431043999E+02	-3.38278879828E+01	1.47181242333E+02	-6.02342100512E+00	-1.67775718801E+00
2.76324036004E+06	-9.04004576709E+00	1.77472544610E+02	2.12613070842E+01	1.46788726059E+02	-5.20344912144E+01	-3.91311681556E+01	-6.00403376177E+00	-1.26648509191E+00
2.78543171463E+06	-1.13834277970E+01	1.68806888269E+02	2.12425981510E+01	1.46881036749E+02	-3.25493114166E+01	-8.73390634903E+01	-6.00414933059E+00	-8.38713409160E-01
2.80762306923E+06	-1.07695453369E+01	-1.61631640756E+02	2.12937447681E+01	1.46483621023E+02	-4.25766016019E+01	2.84240751963E+01	-5.97703786536E+00	-1.32746479247E+00
2.82981442382E+06	-8.53069976075E+00	-1.79346783218E+02	2.12407901127E+01	1.46200119187E+02	-3.60605621218E+01	1.26912861716E+02	-5.95171349993E+00	-1.22618800293E+00
2.85200577842E+06	-7.65335472317E+00	1.76586369861E+02	2.12456966969E+01	1.45862414212E+02	-3.51950255819E+01	1.00117017072E+02	-5.96599161586E+00	-1.60063622745E+00
2.87419713301E+06	-1.30375630045E+01	1.53239661904E+02	2.12125141924E+01	1.45463114635E+02	-3.58370575392E+01	-8.98929352479E+01	-5.95347191439E+00	-1.42629706050E+00
