# Hz S DB R 50
! CMT, M5065, 19127446, 24.2.4/2
! Date: 10/29/2024 12:35:52 PM
! Data: Format (Calibration Info)
! Freq	S11:dB/Ang(F2)	S21:dB/Ang(F2)	S12:dB/Ang(F2)	S22:dB/Ang(F2)
3.00000000000E+05	-1.31981327413E+01	-1.72153213190E+02	1.21831697332E+01	-1.77722453854E+02	-4.01856500248E+01	-1.63231725569E+02	-5.99293419240E+00	-2.69935784205E-01
3.22191354595E+05	-9.33291039961E+00	-1.73755276955E+02	1.21886094229E+01	-1.78700196899E+02	-3.63185270381E+01	1.77882629657E+02	-5.99637227092E+00	-8.63403105782E-02
3.44382709190E+05	-1.19823661324E+01	1.72722006113E+02	1.22054056022E+01	-1.78633733419E+02	-4.00817978918E+01	3.01366338383E+01	-6.00267956171E+00	-6.18133177246E-02
3.66574063785E+05	-1.19970923749E+01	-1.74585401073E+02	1.21497509819E+01	-1.79285851241E+02	-4.06470470899E+01	3.15399521206E+01	-5.98205757152E+00	-4.07502871056E-01
3.88765418380E+05	-1.33383898282E+01	1.75890230905E+02	1.21474515724E+01	-1.79142934418E+02	-3.71753602869E+01	-9.65499293243E+01	-5.97597757087E+00	-3.26985768297E-01
4.10956772975E+05	-1.00424070429E+01	-1.57453118490E+02	1.22596837318E+01	-1.79760704597E+02	-3.71853402083E+01	-3.49172480737E+01	-5.97448972402E+00	-2.47616401069E-01
4.33148127570E+05	-9.13056275572E+00	-1.68447885583E+02	1.22791034325E+01	-1.79767612984E+02	-3.87702999736E+01	1.63906735957E+01	-5.95712749735E+00	-5.17547647132E-01
4.55339482165E+05	-1.21542089144E+01	-1.77625749967E+02	1.22189559793E+01	1.79744968566E+02	-4.15844104782E+01	-7.07262649535E+01	-5.97037664877E+00	-4.88948345139E-01
4.77530836760E+05	-8.67316401182E+00	1.66649775164E+02	1.21974086254E+01	1.79471570115E+02	-4.47376677789E+01	5.78424769050E+01	-5.98396928538E+00	-1.02431611908E-01
4.99722191355E+05	-1.00562257624E+01	1.79414862486E+02	1.22271058839E+01	1.79198406358E+02	-4.40370024115E+01	-1.16845037067E+02	-6.00506439074E+00	-4.74904020362E-01
5.21913545950E+05	-1.56709484056E+01	-1.53115203455E+02	1.21930824795E+01	1.78804186465E+02	-4.11492890602E+01	-7.55083358341E+01	-5.99317907388E+00	-3.82018938121E-01
5.44104900545E+05	-1.40037469882E+01	1.65740054920E+02	1.22346751817E+01	1.78689582173E+02	-4.19670525193E+01	-1.26110625222E+01	-5.94697115511E+00	-3.77733701107E-01
5.66296255139E+05	-1.23242876263E+01	-1.57010539683E+02	1.22094494431E+01	1.78627345051E+02	-3.47507603370E+01	1.57176451024E+02	-6.01725058779E+00	-6.15997309878E-01
5.88487609734E+05	-1.06602816431E+01	1.59674781732E+02	1.22409155271E+01	1.78517431411E+02	-4.37842625438E+01	-1.46461588024E+02	-5.96668228798E+00	-1.07176034841E+00
6.10678964329E+05	-1.12824207519E+01	1.72148718270E+02	1.22596395202E+01	1.78099157845E+02	-4.60829916161E+01	-1.71178489036E+02	-6.01589061926E+00	-1.67187642535E-01
6.32870318924E+05	-1.17430116679E+01	-1.63886203070E+02	1.21972318761E+01	1.77772071813E+02	-3.71360518967E+01	1.07691882481E+02	-6.01729454694E+00	-4.89354010734E-01
6.55061673519E+05	-1.07223347090E+01	-1.66319489651E+02	1.22006938023E+01	1.77516946223E+02	-4.42726575481E+01	1.65990587090E+02	-5.98234560181E+00	-4.85684004315E-02
6.77253028114E+05	-8.57718844857E+00	-1.76837059034E+02	1.22672045274E+01	1.77436472869E+02	-3.86408775506E+01	4.39447492643E+01	-5.98901423479E+00	-8.24663563268E-01
6.99444382709E+05	-1.06063213903E+01	-1.74929226882E+02	1.22532306444E+01	1.77339928645E+02	-3.98078138278E+01	-1.61864808894E+01	-5.94705580306E+00	-3.75485453322E-01
7.21635737304E+05	-1.28615036726E+01	-1.65694159295E+02	1.22256587426E+01	1.76861076972E+02	-4.47526161893E+01	-1.33581039840E+02	-5.97670991580E+00	-4.77244550079E-01
7.43827091899E+05	-1.27789345687E+01	-1.66343166097E+02	1.22119275882E+01	1.76963010976E+02	-4.27895603019E+01	-1.20971977444E+02	-5.97467819414E+00	-7.19925556270E-01
7.66018446494E+05	-1.08863401653E+01	-1.73772292736E+02	1.22241328124E+01	1.76643496997E+02	-4.47764646209E+01	8.34426416391E+01	-5.97719975137E+00	-3.75901338621E-01
7.88209801089E+05	-8.08502780818E+00	-1.74481515922E+02	1.22525378547E+01	1.76544272533E+02	-4.12185249851E+01	-1.75950758118E+02	-5.99049645934E+00	-5.70350767595E-01
8.10401155684E+05	-6.14239058900E+00	1.76792039513E+02	1.22739938189E+01	1.76400334395E+02	-4.34790598180E+01	-3.05347551648E+01	-6.00115317572E+00	-5.75154524605E-01
8.32592510279E+05	-1.24187997073E+01	1.65807782617E+02	1.22554730855E+01	1.76484795586E+02	-4.79746046749E+01	-2.31717758457E+01	-5.95747976625E+00	-5.51543715015E-01
8.54783864874E+05	-1.27313283036E+01	1.50098713685E+02	1.22653693040E+01	1.75598151483E+02	-3.35404906159E+01	1.37590157952E+02	-5.95869539605E+00	-6.33069551062E-01
8.76975219469E+05	-1.01153675232E+01	1.79684892043E+02	1.21624381600E+01	1.75530164188E+02	-4.48155198130E+01	-1.72113959134E+02	-5.97608286114E+00	-4.91637812398E-01
8.99166574064E+05	-8.08115134906E+00	-1.75718224787E+02	1.22300233957E+01	1.75662120126E+02	-3.84527800516E+01	1.17272686270E+02	-5.96816262823E+00	-7.11944692867E-01
9.21357928659E+05	-8.82200166141E+00	-1.76810783802E+02	1.22499476425E+01	1.75520303827E+02	-3.52410170935E+01	-5.11796690010E+01	-5.96768434822E+00	-8.60735634114E-01
9.43549283254E+05	-1.26133914200E+01	-1.76403565903E+02	1.22428852475E+01	1.75271238855E+02	-4.59733982211E+01	-1.42521909396E+02	-5.96061224426E+00	-5.20786582833E-01
9.65740637849E+05	-9.34011564541E+00	-1.69308157679E+02	1.21967428962E+01	1.75131072219E+02	-4.03589102572E+01	-1.31191910031E+00	-6.00552606573E+00	-5.48966186756E-01
9.87931992444E+05	-1.21567885626E+01	-1.70579901865E+02	1.22003495690E+01	1.75174283092E+02	-4.47880514754E+01	1.00580658861E+02	-5.98893106356E+00	-4.18519657544E-01
1.01012334704E+06	-8.53200612365E+00	1.73157091531E+02	1.22491676412E+01	1.74097705876E+02	-3.82323307876E+01	9.77284458989E+01	-5.99952928287E+00	-4.39499030407E-01
1.03231470163E+06	-8.87217412293E+00	-1.73362834105E+02	1.22513813849E+01	1.74672863865E+02	-3.95474248496E+01	1.36207463357E+02	-6.00148801979E+00	-6.16956294134E-01
1.05450605623E+06	-9.26864969594E+00	1.77435419298E+02	1.21668953911E+01	1.74682103792E+02	-3.44821990936E+01	7.60407508172E+01	-5.98230121614E+00	-8.56248373635E-01
1.07669741082E+06	-1.29393098322E+01	1.73483849135E+02	1.22309125811E+01	1.74531116262E+02	-3.36791248167E+01	9.15913418494E+01	-5.99038905411E+00	-6.80408369560E-01
1.09888876542E+06	-1.04390960749E+01	-1.65301533591E+02	1.22733748939E+01	1.74559487618E+02	-6.32421941650E+01	6.83429938675E+01	-5.95899405149E+00	-7.50649863676E-01
1.12108012001E+06	-8.15032733090E+00	-1.65827715804E+02	1.22750265539E+01	1.73579383009E+02	-3.70784827416E+01	1.43034008480E+02	-5.92417612066E+00	-7.60207040504E-01
1.14327147461E+06	-1.08416739739E+01	-1.71740925011E+02	1.22137848614E+01	1.73949995671E+02	-4.07497950242E+01	-1.46258399586E+02	-5.99330101902E+00	-4.98511127088E-01
1.16546282920E+06	-9.33726237466E+00	-1.67776137004E+02	1.21792246786E+01	1.73443011970E+02	-4.22556836159E+01	2.32457340692E+01	-5.98522288450E+00	-7.21055244249E-01
1.18765418380E+06	-9.99225363458E+00	-1.67359438585E+02	1.21780532343E+01	1.73392326400E+02	-4.99799003880E+01	-1.22241325143E+02	-5.98408285514E+00	-6.07349927707E-01
1.20984553839E+06	-1.31640659322E+01	1.65468897544E+02	1.22481261469E+01	1.73289770959E+02	-4.98646494666E+01	9.64945053982E+01	-6.00680241969E+00	-9.09568844852E-01
1.23203689299E+06	-8.55473564152E+00	-1.78871404998E+02	1.21872667406E+01	1.73097948672E+02	-3.79452792101E+01	-3.25849268564E+01	-5.96900388477E+00	-5.92928988531E-01
1.25422824758E+06	-8.85119124250E+00	-1.77465783703E+02	1.22702655967E+01	1.73123186398E+02	-4.40999090651E+01	1.29544277819E+02	-5.94070390994E+00	-7.77168757608E-01
1.27641960218E+06	-7.94124317611E+00	-1.61001520535E+02	1.22331610235E+01	1.72794529318E+02	-3.62633654051E+01	-1.02959027093E+02	-5.99762108502E+00	-6.83127935319E-01
1.29861095677E+06	-1.32718541295E+01	1.72134951346E+02	1.22117352197E+01	1.72835352072E+02	-4.44279230173E+01	8.66408718433E+01	-5.98310419262E+00	-5.70843759639E-01
1.32080231137E+06	-9.03181283009E+00	1.61845245678E+02	1.22546609842E+01	1.72319457783E+02	-4.29700988112E+01	1.75044650073E+02	-5.97021825966E+00	-1.04966261816E+00
1.34299366596E+06	-1.26560926748E+01	-1.67110225933E+02	1.22678886944E+01	1.72825737907E+02	-4.73041554089E+01	-1.08834104519E+02	-5.96404106381E+00	-7.06241381582E-01
1.36518502056E+06	-9.42661642621E+00	-1.72709938392E+02	1.21972698941E+01	1.72425963831E+02	-5.00727122598E+01	-4.79334371108E+01	-6.00618865121E+00	-7.55066088766E-01
1.38737637515E+06	-8.56265167585E+00	-1.72719164035E+02	1.22260445785E+01	1.71709034799E+02	-3.84208291132E+01	-4.92707819822E+01	-5.93902050435E+00	-7.76373895893E-01
1.40956772975E+06	-1.25328190074E+01	1.61884350698E+02	1.22129334769E+01	1.72221011818E+02	-4.02407444331E+01	-1.56093375462E+02	-5.92671662507E+00	-6.92983547094E-01
1.43175908434E+06	-1.04485751389E+01	1.61280884342E+02	1.22328067133E+01	1.71831377737E+02	-3.98188925047E+01	-2.66651346467E+01	-5.95111200820E+00	-1.07182264103E+00
1.45395043894E+06	-7.59410600798E+00	-1.66109753313E+02	1.22039944852E+01	1.71840171478E+02	-5.34536948837E+01	1.67155312702E+02	-5.93824858010E+00	-6.03324290599E-01
1.47614179353E+06	-6.86410064964E+00	-1.52730349805E+02	1.21914213176E+01	1.71604339276E+02	-3.66144375898E+01	1.58046988323E+02	-5.97009466837E+00	-6.05757633901E-01
1.49833314813E+06	-6.60929096338E+00	-1.77715070226E+02	1.23153478193E+01	1.71252463760E+02	-3.53895995761E+01	-5.77298968882E+00	-5.97143369278E+00	-1.04171171266E+00
1.52052450272E+06	-1.03418422640E+01	-1.69916984328E+02	1.22273686428E+01	1.71421284736E+02	-3.47383410464E+01	1.41820029015E+02	-5.97439934765E+00	-5.42892470281E-01
1.54271585732E+06	-9.27265205540E+00	1.76343432289E+02	1.22074958781E+01	1.71222255206E+02	-3.69524327202E+01	1.21837273498E+02	-5.94982587454E+00	-7.90668698088E-01
1.56490721191E+06	-1.03019382679E+01	1.78918088937E+02	1.22198440454E+01	1.70954915173E+02	-3.42258864782E+01	-1.66132123816E+02	-5.99750580946E+00	-8.62329084046E-01
1.58709856651E+06	-8.22071886710E+00	-1.66626092541E+02	1.22595015755E+01	1.70788102836E+02	-4.38969066855E+01	-8.51370678787E+01	-6.02817660329E+00	-8.28160372003E-01
1.60928992110E+06	-1.11312644549E+01	1.62876967129E+02	1.22050802521E+01	1.70453747977E+02	-4.66354633143E+01	1.07411716763E+02	-5.99764035152E+00	-1.04645181009E+00
1.63148127570E+06	-1.03805734765E+01	-1.74314787097E+02	1.22178995881E+01	1.70388228883E+02	-4.12734813956E+01	-7.71702116138E+01	-5.91724792392E+00	-8.61854681208E-01
1.65367263029E+06	-9.10995577372E+00	-1.72042306765E+02	1.21862908019E+01	1.70601917885E+02	-3.76784588038E+01	5.35680454352E+01	-5.95386802684E+00	-9.09287607192E-01
1.67586398489E+06	-8.77025340050E+00	-1.76041534067E+02	1.22483078264E+01	1.69996550439E+02	-5.26931187384E+01	-1.13243715485E+02	-5.97295596947E+00	-8.84050092137E-01
1.69805533948E+06	-8.70009186521E+00	-1.79082378457E+02	1.22342072031E+01	1.70062222969E+02	-3.64433086755E+01	-3.75265077190E+01	-5.99815398060E+00	-9.84379184017E-01
1.72024669408E+06	-7.21804475600E+00	1.73031273900E+02	1.22058642684E+01	1.69802832168E+02	-3.35129975591E+01	8.30621849545E+01	-5.92837334825E+00	-6.69121803105E-01
1.74243804867E+06	-9.14557155441E+00	-1.77646691644E+02	1.22095680728E+01	1.69643198103E+02	-4.10620658931E+01	-2.88315416807E+01	-5.92799694280E+00	-8.05911474345E-01
1.76462940327E+06	-8.07947316173E+00	1.77524502760E+02	1.22064992251E+01	1.69394974260E+02	-4.15547673885E+01	-1.50388824384E+02	-5.96207621447E+00	-4.57657471792E-01
1.78682075786E+06	-9.75223755608E+00	1.74449617727E+02	1.21991597658E+01	1.69982915712E+02	-3.51260850602E+01	-1.51945347419E+02	-5.94366696975E+00	-9.06887943780E-01
1.80901211246E+06	-1.66796270622E+01	1.35089177024E+02	1.21160506074E+01	1.69276025598E+02	-3.94223026829E+01	-5.81288237978E+01	-5.96166659532E+00	-1.05779674226E+00
1.83120346705E+06	-1.34306925776E+01	1.74171283196E+02	1.22508039376E+01	1.69496140426E+02	-4.43781889568E+01	-1.79261439882E+02	-5.99462852283E+00	-1.28111356525E+00
1.85339482165E+06	-1.22099714385E+01	-1.58008012705E+02	1.22347538273E+01	1.69363697350E+02	-3.59105472294E+01	1.14620592076E+02	-5.95922446894E+00	-1.25913671923E+00
1.87558617624E+06	-7.20035834701E+00	-1.74122103864E+02	1.22045505841E+01	1.68765815876E+02	-4.22299859653E+01	-4.06490271064E+01	-6.02279514155E+00	-1.91443691726E+00
1.89777753084E+06	-1.17261455767E+01	1.70027037012E+02	1.22586979796E+01	1.68542213714E+02	-3.71499877787E+01	6.55642838309E+01	-5.99517493546E+00	-8.96650264120E-01
1.91996888543E+06	-7.81310446292E+00	-1.79241581472E+02	1.22612482720E+01	1.68411289875E+02	-4.45569480951E+01	-1.44448617962E+02	-5.96202412529E+00	-1.11630537575E+00
1.94216024003E+06	-9.71129783477E+00	1.75795418424E+02	1.22304644572E+01	1.68832955956E+02	-4.00571830654E+01	-1.55632991752E+02	-5.97581171947E+00	-7.76511614814E-01
1.96435159462E+06	-1.27361848011E+01	1.49951262154E+02	1.22144338557E+01	1.68263931157E+02	-4.25574289571E+01	1.77886215727E+02	-5.97227535415E+00	-6.54102977201E-01
1.98654294922E+06	-1.07697949609E+01	1.65605776135E+02	1.22480911536E+01	1.67951326050E+02	-3.75620757645E+01	1.02672598149E+02	-5.97641133991E+00	-9.45991076962E-01
2.00873430381E+06	-1.74545499682E+01	1.73833490742E+02	1.22260114732E+01	1.67934434711E+02	-3.86106482334E+01	-4.29102058562E+01	-6.01010193669E+00	-9.86496497844E-01
2.03092565841E+06	-1.43004184887E+01	1.58521702894E+02	1.22127850822E+01	1.67772081633E+02	-4.14189083564E+01	1.33138716438E+02	-5.94298389067E+00	-9.72344461954E-01
2.05311701300E+06	-9.21220970132E+00	1.62838114904E+02	1.21866675021E+01	1.67721522466E+02	-3.65572933395E+01	-7.41246866118E+01	-5.93722870327E+00	-9.78873314585E-01
2.07530836760E+06	-1.10159636843E+01	1.75140592050E+02	1.22735944362E+01	1.67628795991E+02	-4.71641024968E+01	1.07248838586E+02	-5.94949214204E+00	-9.78957077023E-01
2.09749972219E+06	-9.76434941336E+00	-1.63243979426E+02	1.22940796094E+01	1.67242514038E+02	-4.32339365050E+01	-1.27139035376E+02	-5.95699440198E+00	-1.21399055438E+00
2.11969107679E+06	-1.22265221404E+01	-1.77172283911E+02	1.22236713542E+01	1.67205708760E+02	-3.62443485852E+01	2.69882477434E+01	-5.97019793502E+00	-9.99284660871E-01
2.14188243138E+06	-1.11331541874E+01	1.69567897984E+02	1.22101988930E+01	1.67199814514E+02	-4.45108656529E+01	-1.69507661161E+01	-5.92199914187E+00	-8.49542883097E-01
2.16407378598E+06	-1.23113619815E+01	-1.62880190513E+02	1.21771983135E+01	1.66994528717E+02	-4.07577353045E+01	1.18474344898E+02	-6.00379283905E+00	-9.78399644802E-01
2.18626514057E+06	-8.18727621032E+00	-1.56248535962E+02	1.22194612153E+01	1.66826858590E+02	-5.19274704046E+01	-1.51770812208E+02	-5.97414024129E+00	-1.06821719714E+00
2.20845649517E+06	-1.02104927633E+01	-1.61234127853E+02	1.22331782026E+01	1.66481267498E+02	-4.64424622451E+01	1.20014849698E+02	-5.98329397629E+00	-1.08717777631E+00
2.23064784976E+06	-1.02865514335E+01	1.66821655200E+02	1.21904241720E+01	1.66666505730E+02	-4.47971522948E+01	4.23981755145E+01	-5.99649673260E+00	-1.10633269723E+00
2.25283920436E+06	-8.39834895360E+00	-1.78202468953E+02	1.22045167667E+01	1.66291202219E+02	-4.36884784643E+01	-1.31804181433E+02	-6.00800746117E+00	-8.88166548594E-01
2.27503055895E+06	-8.05647049798E+00	-1.56617237241E+02	1.21541666504E+01	1.66174001248E+02	-4.13011837343E+01	-7.17766229383E+00	-6.00010451148E+00	-1.16382788784E+00
2.29722191355E+06	-7.63948130615E+00	-1.73394512028E+02	1.22286697160E+01	1.66103953445E+02	-4.61922508583E+01	6.58009823130E+01	-5.98345243121E+00	-8.68880750024E-01
2.31941326814E+06	-8.96219834328E+00	-1.78714834866E+02	1.21979855742E+01	1.65934287560E+02	-4.17173961522E+01	-4.19664958140E+01	-5.97225447525E+00	-8.21279700852E-01
2.34160462274E+06	-1.07197902854E+01	-1.66312514200E+02	1.22286183550E+01	1.65990952480E+02	-3.92121352749E+01	4.25685635495E+01	-5.91131350425E+00	-4.96892825960E-01
2.36379597733E+06	-7.53315401140E+00	1.70189955514E+02	1.22004902611E+01	1.65722609899E+02	-4.00880350799E+01	1.79489420592E+02	-5.99337704436E+00	-1.04671003971E+00
2.38598733193E+06	-1.06371955163E+01	1.66184816968E+02	1.22411190162E+01	1.65765235788E+02	-5.28316523882E+01	7.68999014932E+01	-5.97118199895E+00	-1.25042319787E+00
2.40817868652E+06	-1.27082077980E+01	1.78548636560E+02	1.22018226761E+01	1.65393591404E+02	-3.84718936397E+01	1.51217228801E+02	-5.96610423027E+00	-9.93683968465E-01
2.43037004112E+06	-1.12263516107E+01	-1.77276535270E+02	1.22497254706E+01	1.65369480678E+02	-4.07894736017E+01	7.98059231496E+01	-6.01618780256E+00	-1.44472028254E+00
2.45256139571E+06	-1.13867094714E+01	1.41047413772E+02	1.21940492430E+01	1.65006068362E+02	-4.61650496494E+01	1.24274775023E+02	-5.97492848381E+00	-9.32858223584E-01
2.47475275031E+06	-9.91252828245E+00	-1.78844784200E+02	1.22194704711E+01	1.64763802278E+02	-3.59057387949E+01	1.73422765309E+02	-5.98675725469E+00	-1.06611824664E+00
2.49694410490E+06	-1.04100788444E+01	1.72376659568E+02	1.22024847476E+01	1.65123721566E+02	-5.09854978886E+01	-6.71587174004E+01	-5.97799028930E+00	-1.01558890123E+00
2.51913545950E+06	-6.91314963079E+00	-1.60059785296E+02	1.22403786219E+01	1.64521860534E+02	-3.61477320183E+01	-1.24708616524E+01	-5.99825977109E+00	-9.87297634890E-01
2.54132681409E+06	-9.51395684549E+00	1.71181605892E+02	1.22375695199E+01	1.64367091586E+02	-4.34020895067E+01	-1.56313431003E+02	-5.95104601967E+00	-1.08025363093E+00
2.56351816869E+06	-9.02432574763E+00	-1.68272014865E+02	1.21997716429E+01	1.64697547067E+02	-4.85234293665E+01	7.60857726321E+01	-5.97313589200E+00	-1.28506756005E+00
2.58570952328E+06	-1.05327347155E+01	1.60491653471E+02	1.22425189771E+01	1.64413973232E+02	-4.25650042837E+01	-1.63630124087E+02	-5.97047441502E+00	-1.03819959469E+00
2.60790087788E+06	-1.41323289313E+01	-1.75406955351E+02	1.22046656059E+01	1.64123198030E+02	-3.60038390625E+01	3.29309277716E+00	-6.01394633267E+00	-1.37145866023E+00
2.63009223247E+06	-1.06859982562E+01	1.76810037834E+02	1.22405609353E+01	1.63742374416E+02	-4.73976041614E+01	1.68358836934E+02	-5.99361805782E+00	-1.32693647209E+00
2.65228358707E+06	-8.84433131663E+00	1.72634137594E+02	1.21850355581E+01	1.63917268055E+02	-5.09306183159E+01	1.68490443283E+02	-6.01292792592E+00	-1.53979795028E+00
2.67447494166E+06	-1.22743460308E+01	1.78640547907E+02	1.22180612250E+01	1.63569017501E+02	-5.79274469559E+01	1.87116096299E+01	-5.98996470320E+00	-1.41588717528E+00
2.69666629626E+06	-8.89022675556E+00	1.67611087722E+02	1.22555773479E+01	1.63623148169E+02	-3.62996935083E+01	1.07781300021E+01	-5.97141728310E+00	-1.14401570523E+00
2.71885765085E+06	-8.67008131954E+00	1.56709969427E+02	1.22017911052E+01	1.63389197281E+02	-5.12666918548E+01	1.69036640341E+02	-5.97694669950E+00	-1.30257014318E+00
2.74104900545E+06	-1.35711515799E+01	1.71817033986E+02	1.22314280245E+01	1.63435959422E+02	-5.40260338140E+01	1.38349215736E+02	-5.97526732721E+00	-1.47156519644E+00
2.76324036004E+06	-1.08429271664E+01	-1.72457009813E+02	1.22880699159E+01	1.63079490011E+02	-4.29219426080E+01	1.18186344663E+02	-5.94365216284E+00	-1.44802105903E+00
2.78543171463E+06	-1.16618773375E+01	-1.44393394638E+02	1.21902035258E+01	1.63102753867E+02	-4.02961251590E+01	1.51291476404E+01	-5.99317863893E+00	-1.18743583324E+00
2.80762306923E+06	-9.93941389479E+00	1.57037738715E+02	1.22154464530E+01	1.63117817929E+02	-4.30568140028E+01	-8.94223857939E+01	-5.99555605198E+00	-1.44967092838E+00
2.82981442382E+06	-1.28056050698E+01	-1.61306841053E+02	1.22681168214E+01	1.62773278251E+02	-3.57477281374E+01	6.21924084267E+01	-5.94958522694E+00	-1.10357796077E+00
2.85200577842E+06	-9.21830739828E+00	-1.78612198751E+02	1.22193645414E+01	1.62571768427E+02	-3.60501180828E+01	-2.13251424706E+01	-5.95503128766E+00	-1.27198294492E+00
2.87419713301E+06	-8.66358686015E+00	-1.47009391673E+02	1.22262212151E+01	1.62518874403E+02	-3.98024590577E+01	-6.28718093320E+01	-5.98411263205E+00	-1.37909401381E+00
