# Hz S DB R 50
! CMT, M5065, 19127446, 24.2.4/2
! Date: 10/29/2024 12:52:59 PM
! Data: Format (Calibration Info)
! Freq	S11:dB/Ang(F2)	S21:dB/Ang(F2)	S12:dB/Ang(F2)	S22:dB/Ang(F2)
3.00000000000E+05	-1.25509330168E+01	-1.45958372735E+02	2.94664258464E+01	-1.75823491163E+02	-3.50133487382E+01	9.04621521919E+01	-5.94569419642E+00	-2.21133103704E-01
3.22191354595E+05	-1.24393438675E+01	-1.73607578175E+02	2.94380187069E+01	-1.77169102167E+02	-4.12094256291E+01	1.39698953865E+02	-6.00893233412E+00	-7.02293478884E-01
3.44382709190E+05	-1.11191335742E+01	-1.56304194973E+02	2.94639109881E+01	-1.78679545140E+02	-4.46631407889E+01	-4.18058479974E+01	-5.92954804182E+00	-5.77564458986E-01
3.66574063785E+05	-1.04247113186E+01	-1.63622720750E+02	2.94905970123E+01	-1.79842834861E+02	-4.50247543518E+01	-1.06616614105E+01	-5.93573682139E+00	-6.86337687504E-01
3.88765418380E+05	-9.48670810928E+00	-1.73877138081E+02	2.94996379874E+01	1.78892244337E+02	-4.94569167543E+01	9.28020006084E+01	-5.42020550756E+00	2.68468205837E+00
4.10956772975E+05	-1.25260232701E+01	1.79665518543E+02	2.94781308128E+01	1.77870483080E+02	-4.37649210331E+01	-1.47342122201E+02	-6.00621929492E+00	-9.34661710961E-01
4.33148127570E+05	-6.93320423783E+00	-1.68609220520E+02	2.94589142625E+01	1.76957940468E+02	-4.17917874659E+01	2.11765805065E+01	-5.84813661625E+00	-4.73353811077E-01
4.55339482165E+05	-7.60027146844E+00	1.79172539876E+02	2.94652315773E+01	1.75806902357E+02	-4.61997197359E+01	-1.28841165263E+02	-6.06081443751E+00	-1.35045780731E+00
4.77530836760E+05	-8.89817847887E+00	-1.66175402399E+02	2.94257310801E+01	1.74989996047E+02	-5.22254880945E+01	9.00232688564E+01	-6.03860446304E+00	-9.71086374074E-01
4.99722191355E+05	-1.02142314980E+01	-1.74020047516E+02	2.94529791165E+01	1.73850833080E+02	-3.48363619603E+01	-1.50215976731E+02	-5.95324027366E+00	-5.34395819472E-01
5.21913545950E+05	-1.00403714307E+01	1.59240195600E+02	2.94031748620E+01	1.73112102123E+02	-3.81196163806E+01	-1.67691779866E+02	-5.89102471856E+00	-5.00043098959E-01
5.44104900545E+05	-8.65155984280E+00	-1.61278722575E+02	2.93915109301E+01	1.72306130765E+02	-4.47886659408E+01	-1.21047732151E+02	-5.99537680345E+00	-4.92096216858E-01
5.66296255139E+05	-1.16455475050E+01	-1.69137605155E+02	2.93578802520E+01	1.71308702575E+02	-3.63660408937E+01	-5.20000330469E+01	-5.99935528541E+00	-7.96029680333E-01
5.88487609734E+05	-1.38317064455E+01	1.57034882450E+02	2.93452124971E+01	1.70796975433E+02	-4.21707750217E+01	-1.41148181914E+02	-5.89134129586E+00	-1.36961279966E+00
6.10678964329E+05	-1.29744341357E+01	-1.69480944387E+02	2.93436083058E+01	1.69841944024E+02	-4.74129788439E+01	8.43650826326E+01	-5.90986888907E+00	1.45055670955E-01
6.32870318924E+05	-8.24017098763E+00	-1.74434509007E+02	2.93108710185E+01	1.69231288786E+02	-4.63876517995E+01	-1.01920189266E+02	-5.97851551163E+00	-7.74522868706E-01
6.55061673519E+05	-1.03806175979E+01	1.78183488944E+02	2.93222551205E+01	1.68233611838E+02	-4.34670890217E+01	1.39994284806E+02	-6.03414641895E+00	-3.33692201200E-01
6.77253028114E+05	-8.06977313883E+00	1.75993227905E+02	2.92771037433E+01	1.67616959273E+02	-3.68292368332E+01	5.06424812473E+01	-5.96691037351E+00	-6.48215710133E-01
6.99444382709E+05	-7.08074751406E+00	-1.76093247305E+02	2.92823476877E+01	1.66512583748E+02	-3.97678921831E+01	-2.99206895534E+01	-5.98336706059E+00	-9.09421782706E-01
7.21635737304E+05	-7.77724797336E+00	1.73309806701E+02	2.92511721341E+01	1.66389066977E+02	-4.08620128096E+01	-1.61265178023E+02	-5.88407321099E+00	-5.93285791423E-01
7.43827091899E+05	-1.07294131846E+01	1.73648221631E+02	2.92433490623E+01	1.65218085856E+02	-3.92403222231E+01	-1.09763740781E+02	-5.93339605436E+00	-7.66677942711E-01
7.66018446494E+05	-9.04152091772E+00	1.62714192517E+02	2.92176305051E+01	1.64724733167E+02	-4.02135759196E+01	-7.65300536408E+01	-5.95854229337E+00	-1.24795339448E+00
7.88209801089E+05	-8.55693021095E+00	-1.72794492184E+02	2.91796645374E+01	1.64357172294E+02	-4.61939827043E+01	1.52259264530E+02	-5.91628388259E+00	-5.89202416918E-01
8.10401155684E+05	-8.07148172241E+00	-1.69866965622E+02	2.92191234523E+01	1.63672719499E+02	-4.18594596110E+01	-2.19396016934E+01	-5.95757715843E+00	-1.05100761183E+00
8.32592510279E+05	-9.72089245196E+00	-1.64517252764E+02	2.91680344959E+01	1.62738843170E+02	-3.78398129583E+01	-1.62198450472E+02	-5.98517471727E+00	-9.04625119527E-01
8.54783864874E+05	-9.11298885542E+00	-1.73594536659E+02	2.91041732270E+01	1.62397922097E+02	-4.21177792696E+01	-8.43576588347E+01	-6.02195458361E+00	-7.48238568552E-01
8.76975219469E+05	-8.44060144686E+00	-1.63860662039E+02	2.91508278781E+01	1.61689392059E+02	-3.77256810286E+01	2.47306148463E+01	-5.88235940344E+00	-5.96081344816E-01
8.99166574064E+05	-1.17596329549E+01	-1.79415913893E+02	2.90687457545E+01	1.61126257035E+02	-4.05690484025E+01	-1.10810775764E+02	-6.04230923560E+00	-8.47438598833E-01
9.21357928659E+05	-1.32182973520E+01	-1.35131485052E+02	2.90708375093E+01	1.60587698232E+02	-3.96712795644E+01	-6.00590248682E+01	-6.03474727520E+00	-1.07950714605E+00
9.43549283254E+05	-1.02032635978E+01	-1.72111961195E+02	2.90319528864E+01	1.59667716422E+02	-3.94398461220E+01	-1.05235282179E+02	-5.98434482653E+00	-1.21008230571E+00
9.65740637849E+05	-1.53730998395E+01	-1.65372073878E+02	2.90070649916E+01	1.59247912006E+02	-4.47048742884E+01	-1.13022908144E+02	-5.96047973378E+00	-5.81211855203E-01
9.87931992444E+05	-1.04697351251E+01	1.74603124854E+02	2.89714896208E+01	1.58565612382E+02	-4.42037257471E+01	-1.63832034049E+02	-5.96736637894E+00	-3.39877947443E-01
1.01012334704E+06	-1.06250076475E+01	-1.59470383259E+02	2.89769625540E+01	1.58193729114E+02	-4.26254332982E+01	-1.21802986549E+02	-5.95230252128E+00	-5.75010405675E-01
1.03231470163E+06	-9.82057219151E+00	-1.66467948787E+02	2.89404823297E+01	1.57680420054E+02	-3.95471581371E+01	6.29810104792E+01	-5.95002632773E+00	-3.81408933623E-01
1.05450605623E+06	-9.59638198081E+00	1.78586696129E+02	2.89098129152E+01	1.56741046626E+02	-3.38980838324E+01	1.44116994656E+01	-5.99550730628E+00	-1.23277712493E+00
1.07669741082E+06	-1.36710874119E+01	-1.71198729950E+02	2.88891611905E+01	1.56127293626E+02	-3.56428559130E+01	-1.13231477737E+02	-6.07463693696E+00	1.89388001231E-01
1.09888876542E+06	-1.06919916705E+01	1.39850470850E+02	2.88725903741E+01	1.55761106315E+02	-4.20355463689E+01	-1.49625733593E+02	-5.96372123551E+00	-6.16967543845E-01
1.12108012001E+06	-9.91033570238E+00	1.61826738389E+02	2.88534359528E+01	1.54981516284E+02	-3.54484746259E+01	-1.17149970906E+02	-5.94533990106E+00	-6.14733828924E-01
1.14327147461E+06	-1.03665251359E+01	-1.65095611351E+02	2.88172863525E+01	1.54616195132E+02	-3.83915186327E+01	-1.53304491396E+02	-5.99820409122E+00	-5.51705932457E-01
1.16546282920E+06	-1.19745270007E+01	1.58821330450E+02	2.87929684579E+01	1.53973905333E+02	-3.42085776502E+01	-3.52303744712E+01	-6.00506837908E+00	-5.72466051359E-01
1.18765418380E+06	-1.03648665907E+01	-1.73403979379E+02	2.87514387695E+01	1.53443129752E+02	-4.65831113730E+01	-7.64789070806E+01	-5.92059010111E+00	-5.27565430709E-01
1.20984553839E+06	-1.17109646250E+01	-1.79017988312E+02	2.87350012944E+01	1.53030073162E+02	-3.47857692014E+01	9.57259550647E+01	-5.89697353434E+00	-9.39032942545E-01
1.23203689299E+06	-1.06348095659E+01	1.67780798036E+02	2.87055514109E+01	1.52291712609E+02	-3.79219781871E+01	6.78621369570E+01	-5.99334836264E+00	-5.52201750598E-01
1.25422824758E+06	-9.57614876582E+00	-1.79881506018E+02	2.87143619145E+01	1.51805787851E+02	-3.67133248643E+01	-1.65856616697E+02	-6.02552580233E+00	-6.42579526645E-01
1.27641960218E+06	-9.96844362395E+00	1.71917096615E+02	2.86557320592E+01	1.51234722002E+02	-4.68108515887E+01	1.50023339574E+02	-6.01570015408E+00	-8.09311712390E-01
1.29861095677E+06	-8.34206538632E+00	-1.67101389297E+02	2.86335779712E+01	1.50654919006E+02	-3.97345948760E+01	-2.31305523449E+01	-5.97009669133E+00	-4.09534959566E-01
1.32080231137E+06	-1.03065067517E+01	-1.61839279404E+02	2.86194591741E+01	1.50383513975E+02	-3.67620864719E+01	3.33981643406E+01	-6.02527370445E+00	-1.57450598074E+00
1.34299366596E+06	-1.01376466812E+01	-1.62151908858E+02	2.85836513852E+01	1.49887959515E+02	-3.68539307510E+01	1.33730289105E+02	-5.98875646722E+00	-1.03118620849E+00
1.36518502056E+06	-1.11580192064E+01	1.68769544120E+02	2.85727340653E+01	1.49020449788E+02	-3.91459053617E+01	-5.74559074778E+01	-5.96222388246E+00	-1.02988167876E+00
1.38737637515E+06	-9.99612818211E+00	1.69747237993E+02	2.85312458437E+01	1.48704298023E+02	-4.37558662195E+01	-1.57910757326E+02	-6.08202784085E+00	-3.23881035119E-01
1.40956772975E+06	-9.72942528515E+00	-1.79958064752E+02	2.85079930967E+01	1.48326028215E+02	-4.03573775627E+01	-8.37528550718E+01	-6.04069272591E+00	-6.61590301281E-01
1.43175908434E+06	-1.29749878775E+01	-1.63831851056E+02	2.84725371310E+01	1.47663276202E+02	-4.31352810127E+01	9.95427920665E+01	-5.94886974727E+00	-8.88704718045E-01
1.45395043894E+06	-7.09077157075E+00	-1.78826630941E+02	2.85108235944E+01	1.47263631679E+02	-4.49910794080E+01	-1.63482872171E+02	-5.70094599894E+00	-3.10732135967E-01
1.47614179353E+06	-1.13480855298E+01	1.76641439620E+02	2.84669278546E+01	1.46347531373E+02	-3.95948507213E+01	-4.74808271099E+01	-6.04704137331E+00	-7.87631116592E-01
1.49833314813E+06	-1.05781521395E+01	-1.68624362611E+02	2.83970244172E+01	1.46359470137E+02	-3.83086303208E+01	-1.18498808888E+02	-6.00715856529E+00	-6.40619068131E-01
1.52052450272E+06	-6.76800658280E+00	-1.69729152917E+02	2.83766459539E+01	1.45619364158E+02	-4.17304357963E+01	1.27433162244E+02	-6.01601296213E+00	-1.11280035593E+00
1.54271585732E+06	-1.17187338953E+01	1.71028766227E+02	2.83193255551E+01	1.45295701584E+02	-4.30517513376E+01	-5.00133386160E+01	-5.87863983347E+00	-4.88329259327E-01
1.56490721191E+06	-1.21823343302E+01	1.74981342544E+02	2.83082951049E+01	1.44682589107E+02	-4.46396882353E+01	1.48031393863E+02	-5.95264180986E+00	-7.81377262752E-01
1.58709856651E+06	-1.18840053606E+01	1.59454610055E+02	2.82630427626E+01	1.44265926545E+02	-3.71064660800E+01	-1.29396942273E+02	-5.99329118312E+00	-6.49591193591E-01
1.60928992110E+06	-9.65208465926E+00	1.69627150129E+02	2.82415337906E+01	1.43660163754E+02	-4.43195821072E+01	-2.78725359346E+01	-6.01064970277E+00	-9.84536112521E-01
1.63148127570E+06	-8.99621233181E+00	1.75154275497E+02	2.82484068678E+01	1.42901892048E+02	-5.75843305630E+01	1.27379914689E+02	-6.00133649496E+00	-6.30755817858E-01
1.65367263029E+06	-9.51764085606E+00	1.67276598032E+02	2.81918289241E+01	1.42851474870E+02	-4.33870363124E+01	4.18889965671E+01	-5.97311991575E+00	-1.18121909677E+00
1.67586398489E+06	-8.95575176823E+00	-1.68454165799E+02	2.81788072868E+01	1.42519289629E+02	-4.07825060371E+01	3.84563941457E+01	-6.04847025114E+00	-1.10833196319E+00
1.69805533948E+06	-1.63604482502E+01	-1.59018542269E+02	2.81095698374E+01	1.41900879696E+02	-3.86636711297E+01	-8.15822493852E+01	-5.83062891224E+00	-9.83698496571E-01
1.72024669408E+06	-1.38778757266E+01	-1.52820383167E+02	2.80924408760E+01	1.41164474770E+02	-4.38028172537E+01	6.63581869290E+01	-6.04213847125E+00	-4.38624524948E-01
1.74243804867E+06	-1.09005316648E+01	1.71591774900E+02	2.80902198094E+01	1.41190629168E+02	-3.73078451598E+01	1.19440265649E+02	-5.96617995615E+00	-5.45732278325E-01
1.76462940327E+06	-6.55197241546E+00	-1.69668680236E+02	2.79968148087E+01	1.40774290690E+02	-3.91574022643E+01	-4.12347834257E+01	-5.93711380690E+00	-8.01913057497E-01
1.78682075786E+06	-1.13150335010E+01	1.67171003739E+02	2.80000831741E+01	1.39700403547E+02	-4.76847691849E+01	-6.66903109361E+01	-5.94106736868E+00	-1.01764891082E+00
1.80901211246E+06	-7.82151873748E+00	1.61704179101E+02	2.79612657238E+01	1.39724358330E+02	-4.80935106126E+01	1.09413382947E+01	-5.95162924261E+00	-1.11344297357E+00
1.83120346705E+06	-1.30927832043E+01	1.79303549908E+02	2.79567383094E+01	1.39210699612E+02	-3.83045523184E+01	-1.49903725308E+02	-5.95431932778E+00	-9.38139862527E-01
1.85339482165E+06	-8.22675901959E+00	1.64788820700E+02	2.78786776752E+01	1.38646953179E+02	-5.21400066487E+01	-7.01140166037E+01	-6.00812143044E+00	-1.47807854689E+00
1.87558617624E+06	-1.04455870310E+01	1.71167867289E+02	2.79033598542E+01	1.38311860149E+02	-4.31125867802E+01	-1.42621878703E+01	-5.86109278981E+00	-2.87296193538E-01
1.89777753084E+06	-1.05624005922E+01	-1.76857891673E+02	2.78426551761E+01	1.37773331911E+02	-3.72015453316E+01	1.01910780794E+02	-5.98820741361E+00	-1.34862428497E+00
1.91996888543E+06	-8.08753862121E+00	-1.57279997729E+02	2.78120065459E+01	1.37169473315E+02	-4.03207533220E+01	-1.34955129930E+02	-5.98923412354E+00	-8.27641737773E-01
1.94216024003E+06	-8.69986992365E+00	-1.59681823177E+02	2.77575671941E+01	1.37243824942E+02	-3.81743286502E+01	-7.40711715693E+01	-5.96129698042E+00	-8.06599645393E-01
1.96435159462E+06	-9.85893181978E+00	-1.67749628735E+02	2.77485949197E+01	1.36439557544E+02	-3.92665367210E+01	-1.55326706579E+02	-5.95827978559E+00	-5.37671214495E-01
1.98654294922E+06	-1.11665254381E+01	-1.57079549944E+02	2.77283663401E+01	1.35994038617E+02	-4.27281917170E+01	-5.84429861109E+00	-5.92074800999E+00	-9.78748243953E-01
2.00873430381E+06	-1.03248977275E+01	-1.75945583375E+02	2.77183192924E+01	1.35541543160E+02	-3.39971074166E+01	-8.82395944898E+01	-5.91721007682E+00	-1.43647366620E+00
2.03092565841E+06	-1.14836733740E+01	-1.63681591449E+02	2.76890352367E+01	1.35414375800E+02	-4.13057784105E+01	-1.35102293963E+02	-5.99528845636E+00	-9.25607555243E-01
2.05311701300E+06	-1.19172702718E+01	-1.54510933092E+02	2.76489561396E+01	1.35357956869E+02	-3.74380785867E+01	6.08176300943E+01	-6.00227228586E+00	-8.69198378801E-01
2.07530836760E+06	-1.27103141573E+01	-1.65445862092E+02	2.75557416827E+01	1.34258290558E+02	-4.95479491121E+01	9.02208266104E+01	-5.96492105795E+00	-1.07079928406E+00
2.09749972219E+06	-1.04532372509E+01	-1.71613777429E+02	2.76210941633E+01	1.33708034588E+02	-3.62047912110E+01	-1.43390545712E+02	-5.93844669944E+00	-7.43186419974E-01
2.11969107679E+06	-1.26251274662E+01	1.65981571341E+02	2.75437445036E+01	1.33292226376E+02	-4.23945098083E+01	6.55202073712E+01	-5.95716864198E+00	-9.42289544663E-01
2.14188243138E+06	-1.15580365183E+01	-1.65899947845E+02	2.74998757220E+01	1.33146428807E+02	-4.35086567100E+01	-9.58104333709E+01	-6.00671162280E+00	-9.51064994548E-01
2.16407378598E+06	-9.81080266042E+00	-1.70063433101E+02	2.74318143671E+01	1.32676025432E+02	-4.39111783035E+01	-1.55542499022E+02	-6.17949646329E+00	-2.54188446085E+00
2.18626514057E+06	-9.13283288340E+00	1.57918481047E+02	2.74593340216E+01	1.32324217481E+02	-3.90698427208E+01	1.46687331452E+02	-6.24387752674E+00	-9.96639622714E-01
2.20845649517E+06	-7.42625043417E+00	-1.73140166798E+02	2.73865382140E+01	1.31659610454E+02	-6.10874992167E+01	1.27354657639E+02	-5.92699222473E+00	-1.33946602772E+00
2.23064784976E+06	-9.21751468402E+00	1.76881174421E+02	2.73617349590E+01	1.31420667875E+02	-4.73624021165E+01	1.00330071201E+02	-5.99938106568E+00	-1.32413535535E+00
2.25283920436E+06	-7.19432590616E+00	1.73185932241E+02	2.73501529177E+01	1.31070068340E+02	-5.63909865992E+01	1.73507940031E+02	-5.98818368093E+00	-1.40893615382E+00
2.27503055895E+06	-1.13809236823E+01	-1.75687441654E+02	2.73336628835E+01	1.30856452919E+02	-4.97709992004E+01	1.26277065861E+02	-5.95132575049E+00	-1.64631285135E+00
2.29722191355E+06	-1.32117033683E+01	1.65773751927E+02	2.73034256744E+01	1.30289200030E+02	-3.60338447768E+01	-1.78579052561E+01	-6.01838968441E+00	-1.23437835717E+00
2.31941326814E+06	-7.61373002190E+00	-1.64700899712E+02	2.72537894666E+01	1.29843043920E+02	-3.86279162835E+01	-1.45973515993E+02	-5.92161736814E+00	-1.60612533884E+00
2.34160462274E+06	-9.20664196371E+00	-1.79389114409E+02	2.71982797524E+01	1.29320609210E+02	-3.83911265655E+01	7.62781265868E+01	-5.99831809020E+00	-1.35157041510E+00
2.36379597733E+06	-1.00547004091E+01	-1.77246280631E+02	2.71762052000E+01	1.28967817967E+02	-3.99469909495E+01	-1.26921772075E+01	-5.93140996412E+00	-1.11843323722E+00
2.38598733193E+06	-9.20205513164E+00	1.73994887020E+02	2.71614947057E+01	1.28959147184E+02	-4.09715611066E+01	4.41116347062E+01	-5.98531738747E+00	-1.15164399263E+00
2.40817868652E+06	-1.02895339945E+01	-1.66014404565E+02	2.70801968551E+01	1.28433381118E+02	-3.73355227304E+01	-1.22336498655E+01	-6.02118889628E+00	-1.09200191192E+00
2.43037004112E+06	-1.12656027102E+01	-1.72136245863E+02	2.70675879221E+01	1.27954036297E+02	-4.11220421728E+01	1.18673110056E+02	-5.96866789557E+00	-1.52593066347E+00
2.45256139571E+06	-1.10904128531E+01	1.75034613033E+02	2.69962385717E+01	1.27585541128E+02	-5.30622528268E+01	1.57924350874E+02	-6.01328892662E+00	-7.72856101285E-01
2.47475275031E+06	-8.23327842601E+00	-1.73990770666E+02	2.69944202997E+01	1.26991489722E+02	-4.46542023177E+01	3.33254761326E+01	-5.99281860877E+00	-1.24253876372E+00
2.49694410490E+06	-9.40987352720E+00	-1.71100997191E+02	2.69780365896E+01	1.26557677860E+02	-3.47005339825E+01	6.51218889789E+01	-5.82819417400E+00	1.55887440855E+00
2.51913545950E+06	-1.21555021097E+01	1.75299748058E+02	2.69793882041E+01	1.26257545667E+02	-3.73603089733E+01	-1.56407544235E+02	-5.98551753164E+00	-9.81183640144E-01
2.54132681409E+06	-7.60028691769E+00	-1.79699749849E+02	2.69229343385E+01	1.26022710884E+02	-3.68784991608E+01	-2.67697081141E+01	-5.95940856837E+00	-8.40318783206E-01
2.56351816869E+06	-8.56306550486E+00	1.78085390341E+02	2.68913851715E+01	1.25365512712E+02	-3.48831421954E+01	-1.19871790881E+01	-6.04877716827E+00	-1.33736747857E+00
2.58570952328E+06	-1.08390515982E+01	1.62324756071E+02	2.68675250375E+01	1.25320651893E+02	-4.48208719192E+01	-3.78473876370E+01	-6.03500683717E+00	-9.75696187202E-01
2.60790087788E+06	-1.37331290522E+01	1.61587838316E+02	2.68289979994E+01	1.24945459597E+02	-3.87777280593E+01	-4.36397817338E+00	-5.97556639426E+00	-1.24491177988E+00
2.63009223247E+06	-1.25590479962E+01	1.74009889077E+02	2.67733021988E+01	1.24418221576E+02	-4.41435575854E+01	-1.30632584965E+02	-6.06771428333E+00	-7.20322823952E-01
2.65228358707E+06	-1.04813245070E+01	1.55926628688E+02	2.67815879668E+01	1.24204465017E+02	-3.31197841777E+01	9.25786350248E+00	-5.82663796572E+00	-3.45680969009E-01
2.67447494166E+06	-9.31018171714E+00	-1.79929240776E+02	2.67185172168E+01	1.23766656196E+02	-4.45705365186E+01	-1.49041948946E+02	-5.99212866326E+00	-1.24959875408E+00
2.69666629626E+06	-8.60520776992E+00	-1.76616396965E+02	2.66886321112E+01	1.23327585730E+02	-4.11750726253E+01	-9.92070330524E+01	-5.92511628778E+00	-1.10880171657E+00
2.71885765085E+06	-1.22239559102E+01	-1.72036500833E+02	2.66362509913E+01	1.22958356717E+02	-4.16013383653E+01	-1.21950674879E+02	-5.98705527589E+00	-1.10862212975E+00
2.74104900545E+06	-1.11117904055E+01	1.44575892214E+02	2.66077797534E+01	1.22548894458E+02	-5.65857578729E+01	-6.14828172659E+01	-5.91640334419E+00	-1.25943273566E+00
2.76324036004E+06	-1.04095347751E+01	1.78213456096E+02	2.65567804262E+01	1.22344847324E+02	-3.73398277755E+01	-1.25635638301E+02	-5.98909320575E+00	-1.01942582835E+00
2.78543171463E+06	-9.88918520107E+00	1.79562467922E+02	2.65246721229E+01	1.21603041214E+02	-3.86423068268E+01	1.28783469219E+02	-5.94415626585E+00	-8.09283446376E-01
2.80762306923E+06	-8.36930649067E+00	1.75707257184E+02	2.65155029213E+01	1.21184551581E+02	-4.03457527384E+01	-1.49721465831E+02	-5.96111842887E+00	-7.57509040083E-01
2.82981442382E+06	-1.04225200489E+01	-1.79049542701E+02	2.64878165840E+01	1.20813806626E+02	-3.44622681244E+01	1.65378198567E+02	-6.01609228404E+00	-1.47538488040E+00
2.85200577842E+06	-1.20397267744E+01	1.72939391323E+02	2.64397634816E+01	1.20937870883E+02	-4.30036899245E+01	1.65072857152E+02	-5.98418319155E+00	-1.37059492750E+00
2.87419713301E+06	-1.08476400412E+01	1.79875519512E+02	2.63954918084E+01	1.20636997702E+02	-4.38929362481E+01	-1.67919808763E+02	-6.00830761445E+00	-1.47810284691E+00
