# Hz S DB R 50
! CMT, M5065, 19127446, 24.2.4/2
! Date: 10/29/2024 11:46:33 AM
! Data: Format (Calibration Info)
! Freq	S11:dB/Ang(F2)	S21:dB/Ang(F2)	S12:dB/Ang(F2)	S22:dB/Ang(F2)
3.00000000000E+05	-9.95540144143E+00	-1.76164055380E+02	4.94135366853E+00	-1.77830142188E+02	-4.61467087109E+01	-7.96216138170E+01	-5.99257493661E+00	-1.36800692130E-01
3.22191354595E+05	-9.38441021064E+00	-1.61231431566E+02	4.95655575928E+00	-1.78084958789E+02	-4.99241732423E+01	5.59513261213E+01	-5.97884302343E+00	-3.03495305568E-01
3.44382709190E+05	-8.59612948482E+00	1.78016690536E+02	4.95595431665E+00	-1.78932686701E+02	-5.16471351859E+01	1.51095008885E+02	-5.97545486282E+00	-3.30420481243E-01
3.66574063785E+05	-1.14322863921E+01	1.77847618943E+02	4.95081428069E+00	-1.78969259026E+02	-4.91533753992E+01	-7.02571904929E+01	-5.98270280126E+00	-2.06907273922E-01
3.88765418380E+05	-1.03868131938E+01	1.74239177061E+02	4.94990934693E+00	-1.79329292079E+02	-4.31468381888E+01	-6.73635753700E+01	-5.98886912101E+00	-2.98949010807E-01
4.10956772975E+05	-9.72913622631E+00	1.74837877661E+02	4.96537689402E+00	-1.79843635721E+02	-4.89091811858E+01	1.68682066054E+02	-5.98006818065E+00	-2.42267423621E-01
4.33148127570E+05	-1.27032240489E+01	1.72914509827E+02	4.93335234693E+00	-1.79620901333E+02	-4.02699211472E+01	-9.00647314414E+01	-5.99609751685E+00	-2.94990932554E-01
4.55339482165E+05	-1.08919243203E+01	1.69612632969E+02	4.97355554837E+00	-1.79880020263E+02	-5.38207007995E+01	-1.03438173705E+02	-5.98135846061E+00	-2.16095541553E-01
4.77530836760E+05	-8.40470893653E+00	-1.70018813239E+02	4.96210586942E+00	1.79755911381E+02	-5.00024028687E+01	1.29938551049E+02	-5.98136584884E+00	-4.41863656967E-01
4.99722191355E+05	-8.40531983148E+00	1.77606268097E+02	4.98145127369E+00	1.79871364484E+02	-4.34975528814E+01	1.69872954948E+02	-5.97597699352E+00	-3.19805937987E-01
5.21913545950E+05	-1.18997714093E+01	1.76887666992E+02	4.94988684578E+00	1.79447749040E+02	-5.40330391998E+01	-1.73096272553E+02	-5.95780072941E+00	-3.41202346545E-01
5.44104900545E+05	-1.02771795660E+01	-1.77349222908E+02	4.98972253536E+00	1.79621792733E+02	-5.32512620751E+01	-8.74178948457E+00	-5.98105691990E+00	-4.12370415856E-01
5.66296255139E+05	-9.65855843919E+00	1.76646662440E+02	4.96013335564E+00	1.79404672396E+02	-4.94874057336E+01	1.24872623490E+02	-5.95779583299E+00	-4.01585188635E-01
5.88487609734E+05	-1.20777052380E+01	-1.73974475008E+02	4.91701525726E+00	1.79071858610E+02	-4.23440815794E+01	8.52653659904E+01	-5.96545406452E+00	-6.88624931123E-01
6.10678964329E+05	-8.91115100135E+00	1.73636334109E+02	4.96739879168E+00	1.78936977611E+02	-4.96340314688E+01	6.08581443470E-01	-5.97065495662E+00	-2.69738663790E-01
6.32870318924E+05	-9.52405167404E+00	-1.69341857293E+02	4.97496554384E+00	1.79080834062E+02	-4.33563215010E+01	8.57875292541E+01	-5.96183284849E+00	-2.49249031919E-01
6.55061673519E+05	-8.82238451808E+00	-1.76680131946E+02	4.96125982581E+00	1.78648058888E+02	-4.69103616786E+01	1.04805945522E+02	-5.97233225205E+00	-1.46686317843E-01
6.77253028114E+05	-1.14591520662E+01	1.77768245085E+02	4.96215014068E+00	1.78391660031E+02	-5.00022546381E+01	-1.03137532494E+02	-5.96767060656E+00	-4.99466750424E-01
6.99444382709E+05	-9.55028655829E+00	1.68051235344E+02	4.98693853706E+00	1.78440018560E+02	-4.75038066799E+01	8.86396017044E+01	-5.98396332741E+00	-3.76955943266E-01
7.21635737304E+05	-1.00887569615E+01	-1.74900911327E+02	4.98514574448E+00	1.78919005790E+02	-4.42748176048E+01	-3.66863175570E+00	-5.97318785963E+00	-4.91970206018E-01
7.43827091899E+05	-1.11995338628E+01	-1.64532459585E+02	4.96427527741E+00	1.78106948051E+02	-4.94955258087E+01	1.31014664523E+02	-5.97900861695E+00	-4.50306915809E-01
7.66018446494E+05	-1.02078851258E+01	1.78882973789E+02	5.01212402742E+00	1.78019290335E+02	-4.32093127532E+01	-1.73620701826E+02	-5.97235400244E+00	-5.53538036077E-01
7.88209801089E+05	-8.78162892880E+00	1.75257200014E+02	4.96807697117E+00	1.78061221533E+02	-4.38412101644E+01	5.37912702463E+01	-5.97356217414E+00	-5.29465631546E-01
8.10401155684E+05	-9.88082273940E+00	-1.77887814027E+02	4.94687561614E+00	1.77943671481E+02	-4.82011225401E+01	6.20392614911E+01	-5.97532730003E+00	-4.04899952068E-01
8.32592510279E+05	-1.08725629854E+01	1.73647882983E+02	5.02919802462E+00	1.77696718484E+02	-5.20195589946E+01	1.72703330384E+02	-5.98736669044E+00	-4.89845715243E-01
8.54783864874E+05	-1.07852989748E+01	1.72694188526E+02	5.01899677796E+00	1.77501204875E+02	-5.63245315377E+01	6.97991337920E+01	-5.97903530648E+00	-4.76401156025E-01
8.76975219469E+05	-1.12502412695E+01	-1.73025353894E+02	4.99361949057E+00	1.77370249378E+02	-4.33751092991E+01	-6.67987180366E-01	-5.96103190432E+00	-4.87006494606E-01
8.99166574064E+05	-1.03055529635E+01	-1.59421433557E+02	5.01584446688E+00	1.77172018566E+02	-5.11118534354E+01	-1.30787732767E+02	-5.96736326998E+00	-5.48463207825E-01
9.21357928659E+05	-9.84811727893E+00	-1.74395103025E+02	4.97084406292E+00	1.77056841963E+02	-4.94351118803E+01	1.69652808142E+02	-5.95477292473E+00	-6.20413473657E-01
9.43549283254E+05	-1.03633783454E+01	-1.78024262153E+02	4.97406206954E+00	1.76997097332E+02	-4.43457423956E+01	1.66047354002E+02	-5.95288064501E+00	-4.74361689261E-01
9.65740637849E+05	-1.13476645669E+01	-1.74980152470E+02	4.96422512185E+00	1.76483188318E+02	-3.99162848433E+01	7.20421448886E+01	-5.96843781003E+00	-6.01952970024E-01
9.87931992444E+05	-8.80652407735E+00	1.78781523492E+02	5.00478223162E+00	1.76685142043E+02	-4.32630554162E+01	-8.41758516596E+01	-5.97675769317E+00	-5.87101824411E-01
1.01012334704E+06	-9.24994361929E+00	-1.73685024003E+02	4.99744145612E+00	1.76635131181E+02	-4.81793675612E+01	3.10704225064E+01	-5.96609972910E+00	-5.71174549909E-01
1.03231470163E+06	-1.07502382368E+01	-1.67046113434E+02	4.96633157522E+00	1.76221745879E+02	-4.49575601933E+01	-9.25835283394E+01	-5.97184448110E+00	-6.18534274788E-01
1.05450605623E+06	-9.42108142580E+00	-1.74636654297E+02	5.01741070273E+00	1.76346156325E+02	-4.81855819281E+01	1.53307407615E+02	-5.96949462927E+00	-3.47585546839E-01
1.07669741082E+06	-1.05944240778E+01	-1.72172373740E+02	4.99100078310E+00	1.76247879537E+02	-4.09743479656E+01	1.11334189584E+02	-5.95489173965E+00	-6.92202961085E-01
1.09888876542E+06	-9.61854882097E+00	-1.78562590137E+02	5.02596709392E+00	1.76133444851E+02	-4.28505219847E+01	3.26306331081E+01	-5.98522341884E+00	-6.79534744869E-01
1.12108012001E+06	-9.50993403207E+00	-1.68383645704E+02	5.00659303597E+00	1.75591366085E+02	-4.82350834424E+01	-2.88769690533E+01	-5.97112525410E+00	-6.61477138692E-01
1.14327147461E+06	-9.82689054588E+00	-1.75937017145E+02	5.01114892802E+00	1.75682457662E+02	-4.62503874892E+01	2.48764991699E+00	-5.96723337102E+00	-5.10397636195E-01
1.16546282920E+06	-8.25637248789E+00	-1.78213316544E+02	4.96946385835E+00	1.75969322340E+02	-4.23213768578E+01	6.85997743007E+01	-5.94951610670E+00	-7.10699833754E-01
1.18765418380E+06	-1.00667342841E+01	1.64793162669E+02	5.01442204087E+00	1.75782231392E+02	-4.62613415748E+01	-1.38381787203E+02	-5.96775179935E+00	-5.78176486893E-01
1.20984553839E+06	-8.57106244224E+00	1.73051103774E+02	5.05481324184E+00	1.75430729619E+02	-5.57372600120E+01	-8.36795811695E+01	-5.96801813680E+00	-7.76878747192E-01
1.23203689299E+06	-9.53071326629E+00	1.77525653087E+02	5.02044458743E+00	1.75607679206E+02	-4.07845168474E+01	4.96154777455E+01	-5.98184049398E+00	-4.03726752632E-01
1.25422824758E+06	-9.24535433332E+00	1.66157681654E+02	5.01461151785E+00	1.75391995564E+02	-4.52996829189E+01	-1.05655739319E+02	-5.98208405014E+00	-6.09940945691E-01
1.27641960218E+06	-9.30549709910E+00	-1.78391134938E+02	4.97609900578E+00	1.74922731700E+02	-4.16891959880E+01	-1.68214561628E+02	-5.96879471202E+00	-7.09777754485E-01
1.29861095677E+06	-1.05171296285E+01	1.78697446398E+02	4.98242794320E+00	1.75183308450E+02	-4.49807258261E+01	1.00423611910E+02	-5.98858322734E+00	-6.98571860440E-01
1.32080231137E+06	-9.25128590674E+00	-1.79246296151E+02	4.92456142887E+00	1.74819317190E+02	-4.36908831556E+01	1.23856089271E+02	-5.95484610774E+00	-8.94001683229E-01
1.34299366596E+06	-1.09820462444E+01	1.67656533522E+02	4.98166307412E+00	1.74877835137E+02	-4.68986421503E+01	1.36475117803E+02	-5.96681542149E+00	-1.01962572876E+00
1.36518502056E+06	-1.13466933842E+01	1.68915729072E+02	4.93620664524E+00	1.74812401909E+02	-4.46851529643E+01	-3.34918401677E+01	-5.95723972210E+00	-5.55387884148E-01
1.38737637515E+06	-9.11945096261E+00	1.74853588640E+02	4.96283780683E+00	1.74398078389E+02	-4.82511737752E+01	7.56450936028E+01	-5.97093390096E+00	-5.90784133908E-01
1.40956772975E+06	-1.15699511920E+01	1.72393948066E+02	4.92620632488E+00	1.74529478423E+02	-5.49670566953E+01	2.88904029469E+01	-5.95955679895E+00	-6.97873931569E-01
1.43175908434E+06	-1.09077313664E+01	1.76658052877E+02	4.98906784641E+00	1.74337710429E+02	-4.16930309579E+01	9.25983078903E+01	-5.96758922323E+00	-6.88824289639E-01
1.45395043894E+06	-1.12596266778E+01	-1.73304734951E+02	5.04343929427E+00	1.74228264780E+02	-4.98300194992E+01	-1.53813607353E+02	-5.97269185404E+00	-7.57703418733E-01
1.47614179353E+06	-1.10787453868E+01	-1.64858824590E+02	4.98349099000E+00	1.74261771508E+02	-5.52895145630E+01	8.58298562813E+01	-5.96871058913E+00	-6.73413448991E-01
1.49833314813E+06	-1.18942103819E+01	-1.69162219208E+02	4.92188124801E+00	1.73898260972E+02	-4.48502658231E+01	1.09762752817E+02	-5.96363179942E+00	-7.52081697721E-01
1.52052450272E+06	-1.09943979724E+01	1.77303290322E+02	5.02340105218E+00	1.73769707835E+02	-5.17807805709E+01	4.21676541346E+00	-5.97280422922E+00	-8.05515181502E-01
1.54271585732E+06	-9.34663680951E+00	1.77719245562E+02	5.02746116536E+00	1.73855825722E+02	-5.69046613854E+01	6.05006780991E+01	-5.96724448712E+00	-8.08939169615E-01
1.56490721191E+06	-9.79618901841E+00	-1.77073899244E+02	4.99901859672E+00	1.73868703022E+02	-4.55570575914E+01	1.85513117199E+01	-5.97320297182E+00	-7.58419976832E-01
1.58709856651E+06	-1.21764708087E+01	-1.70549282267E+02	4.97215273055E+00	1.73532436513E+02	-3.81316009421E+01	4.96675600950E+00	-5.96480387355E+00	-8.13230544170E-01
1.60928992110E+06	-1.04463867036E+01	1.69321169549E+02	4.94811359841E+00	1.73480230803E+02	-3.95529077132E+01	9.47577242241E+01	-5.95979760178E+00	-6.81483042575E-01
1.63148127570E+06	-8.56759922242E+00	1.73587781507E+02	4.98124709563E+00	1.73440148321E+02	-4.71730349377E+01	1.60106146888E+02	-5.96175578100E+00	-9.17960054054E-01
1.65367263029E+06	-1.13005926024E+01	-1.76710136987E+02	4.97477983596E+00	1.73258182110E+02	-5.02811948439E+01	-2.89122881344E+01	-5.97478904362E+00	-8.46066366272E-01
1.67586398489E+06	-1.02759420785E+01	1.72281245262E+02	4.95278289458E+00	1.73127734692E+02	-4.40940996042E+01	-9.93167793272E+01	-5.97319622723E+00	-6.90230381957E-01
1.69805533948E+06	-1.02155799003E+01	1.73845268984E+02	5.00657115154E+00	1.72899298331E+02	-5.08193050334E+01	-1.45062003744E+02	-5.97769967203E+00	-7.52240743965E-01
1.72024669408E+06	-1.02103275507E+01	-1.72072526766E+02	4.97604160460E+00	1.72912976344E+02	-5.24380143494E+01	-6.21545887455E+01	-5.97370368287E+00	-8.83999934406E-01
1.74243804867E+06	-9.08157717760E+00	1.76219266446E+02	5.00256776817E+00	1.72994342707E+02	-4.06807594965E+01	-4.84519272611E+01	-5.97963526151E+00	-9.38000339865E-01
1.76462940327E+06	-1.11470654398E+01	1.72568744588E+02	4.97904439975E+00	1.72638547453E+02	-4.12414804779E+01	-1.04963253484E+02	-5.95921309347E+00	-7.58764878209E-01
1.78682075786E+06	-1.01264337537E+01	-1.68849131997E+02	5.01998521257E+00	1.72885129364E+02	-4.18205738028E+01	1.29320571612E+02	-5.96101191184E+00	-7.69942406703E-01
1.80901211246E+06	-9.49833198503E+00	1.79220620623E+02	4.98411835822E+00	1.72520626609E+02	-5.25225241681E+01	-1.25555713681E+02	-5.97563954337E+00	-9.55581732275E-01
1.83120346705E+06	-9.44441770257E+00	1.68956731474E+02	4.98484909616E+00	1.72150740326E+02	-4.71494769368E+01	4.20429403658E+01	-5.97397673509E+00	-7.80148819450E-01
1.85339482165E+06	-1.04618500958E+01	1.65560039764E+02	4.95221641228E+00	1.72154610329E+02	-4.07950565195E+01	-1.09598803742E+02	-5.98112917408E+00	-9.09080553045E-01
1.87558617624E+06	-8.84658024295E+00	-1.75198496473E+02	4.95832265542E+00	1.72166074867E+02	-4.93222957972E+01	9.61946558052E+01	-5.97477749509E+00	-9.56707480824E-01
1.89777753084E+06	-1.06696775264E+01	-1.73864902025E+02	5.01141797568E+00	1.72045181834E+02	-4.81666944654E+01	-1.61706346498E+02	-5.97879641333E+00	-8.36302263856E-01
1.91996888543E+06	-9.67140664636E+00	-1.71998327200E+02	4.99671682223E+00	1.71914216737E+02	-4.69587683246E+01	-1.76487407017E+02	-5.96972595708E+00	-8.91115230457E-01
1.94216024003E+06	-1.19977664288E+01	-1.76443569928E+02	4.96266974495E+00	1.72041313432E+02	-3.93678462927E+01	3.28101692042E+01	-5.95016333352E+00	-9.22607225480E-01
1.96435159462E+06	-1.03666980998E+01	-1.77540675181E+02	4.95793452285E+00	1.71603702872E+02	-3.84589789968E+01	-1.14694528205E+02	-5.97891330256E+00	-8.70197980499E-01
1.98654294922E+06	-9.65419182226E+00	-1.71829679697E+02	5.04360943493E+00	1.71712988574E+02	-4.57714279681E+01	-5.37745426915E+01	-5.97264566159E+00	-1.04628790935E+00
2.00873430381E+06	-9.17500436669E+00	-1.71900989655E+02	4.94366167196E+00	1.71342150748E+02	-4.69668271391E+01	-8.05364221794E+00	-5.95220523617E+00	-9.55694431461E-01
2.03092565841E+06	-1.08470246921E+01	1.77118549740E+02	4.94532010667E+00	1.71648977738E+02	-4.86811379465E+01	1.34360919865E+02	-5.96495689116E+00	-1.08005296403E+00
2.05311701300E+06	-9.97516798023E+00	1.78065289871E+02	5.04208962915E+00	1.71112951851E+02	-3.91565291638E+01	-2.10273819932E+01	-5.98078040361E+00	-1.01490423787E+00
2.07530836760E+06	-8.80860955010E+00	-1.67470035334E+02	4.99898634040E+00	1.71556924981E+02	-4.87234700146E+01	7.55618104237E+01	-5.93335140903E+00	-9.26980379680E-01
2.09749972219E+06	-1.13937091206E+01	1.69055437473E+02	4.98255242606E+00	1.70970292323E+02	-4.56683666128E+01	-7.69115015985E+01	-5.96200682257E+00	-9.88478744073E-01
2.11969107679E+06	-9.88584335140E+00	-1.78944599819E+02	4.96014349503E+00	1.71087839106E+02	-6.67203604921E+01	2.23273390575E+01	-5.97219647220E+00	-1.02523505130E+00
2.14188243138E+06	-9.90144892825E+00	1.79289171190E+02	4.99107222036E+00	1.71177526137E+02	-4.72146907832E+01	9.24271210416E-01	-5.97313398298E+00	-1.02802511059E+00
2.16407378598E+06	-9.10985319724E+00	1.78237401004E+02	4.96724157483E+00	1.70922514050E+02	-5.24242913170E+01	1.72753354030E+02	-5.95476500377E+00	-1.00733753610E+00
2.18626514057E+06	-8.05611792716E+00	1.72233618220E+02	4.98427202974E+00	1.70783988418E+02	-4.40836729984E+01	-1.64007488967E+02	-5.97618467222E+00	-1.00932669530E+00
2.20845649517E+06	-1.19740663924E+01	1.77936320408E+02	4.93979795273E+00	1.70818024776E+02	-5.07017441361E+01	-1.42732412583E+02	-5.96771145129E+00	-9.52265294622E-01
2.23064784976E+06	-9.59189192703E+00	1.73571548272E+02	4.96956841402E+00	1.70825850740E+02	-6.12589301920E+01	-7.37145976437E+01	-5.97840777901E+00	-9.00109541821E-01
2.25283920436E+06	-9.85810459222E+00	1.67477102804E+02	4.96705241616E+00	1.70615350766E+02	-5.74664922985E+01	-7.99463614414E+01	-5.96456352319E+00	-1.03992967411E+00
2.27503055895E+06	-1.19528282021E+01	1.67287928599E+02	4.97400056294E+00	1.70291356000E+02	-4.13576073567E+01	-1.01802543561E+02	-5.96711717469E+00	-1.08933777471E+00
2.29722191355E+06	-1.15573615428E+01	1.71926009995E+02	4.97628865429E+00	1.70254691956E+02	-3.97808174233E+01	6.42219076788E+01	-5.96572289236E+00	-1.15275888971E+00
2.31941326814E+06	-1.04328429679E+01	-1.62726006751E+02	4.93875939442E+00	1.70494328873E+02	-5.24155415012E+01	-1.25944459497E+02	-5.96234878467E+00	-1.05776863595E+00
2.34160462274E+06	-1.09833471231E+01	1.70827300080E+02	4.95199988369E+00	1.70168538318E+02	-4.53128397115E+01	-3.56775145166E+01	-5.96025992712E+00	-1.12494014583E+00
2.36379597733E+06	-1.20087446467E+01	1.75197708561E+02	4.95764065652E+00	1.70066435516E+02	-4.43066703224E+01	-8.73735192394E+00	-5.96773415919E+00	-1.15424207049E+00
2.38598733193E+06	-1.28430724341E+01	1.79762431054E+02	4.99243330985E+00	1.69981720863E+02	-4.59160919021E+01	-1.52826324290E+02	-5.97495911319E+00	-1.22816599777E+00
2.40817868652E+06	-9.61649560128E+00	1.65799678519E+02	4.99116106399E+00	1.69895559687E+02	-4.75847511125E+01	-1.57991272137E+02	-5.96440449921E+00	-1.18550578417E+00
2.43037004112E+06	-1.08049600374E+01	1.73335271396E+02	5.03617937530E+00	1.69649544703E+02	-4.80222849356E+01	-5.87832314337E+01	-5.97362385071E+00	-1.28117802286E+00
2.45256139571E+06	-9.39506628415E+00	1.72073137165E+02	4.97760312178E+00	1.69652293643E+02	-4.46480502524E+01	-9.73813124498E+01	-5.97431846943E+00	-8.78106623990E-01
2.47475275031E+06	-9.95272217853E+00	-1.70437526234E+02	4.93762149770E+00	1.69653122421E+02	-4.05154217394E+01	-4.96646092795E+01	-5.98634212166E+00	-1.22325137491E+00
2.49694410490E+06	-9.20127539727E+00	1.78850543882E+02	4.97586762227E+00	1.69550595105E+02	-4.24771960654E+01	1.77415701092E+02	-5.99559880136E+00	-1.20916819086E+00
2.51913545950E+06	-9.92199025349E+00	1.75946058959E+02	5.02321360210E+00	1.69305570875E+02	-4.66491265471E+01	1.50650823147E+02	-5.97969124598E+00	-1.11461093363E+00
2.54132681409E+06	-1.16829115379E+01	-1.77896830255E+02	4.96593054002E+00	1.69051096606E+02	-4.43363139468E+01	1.44121556795E+02	-5.97724893368E+00	-1.20569973795E+00
2.56351816869E+06	-1.08324060275E+01	-1.75412761203E+02	4.96276787130E+00	1.69242774034E+02	-3.95832201682E+01	1.66078221176E+02	-5.95899479261E+00	-9.90357848918E-01
2.58570952328E+06	-8.30883427107E+00	1.70751700644E+02	5.01242201618E+00	1.68795829750E+02	-5.17328331713E+01	8.58383471827E+01	-5.98102707064E+00	-1.17023151750E+00
2.60790087788E+06	-1.02592423762E+01	1.68292868806E+02	4.97413506852E+00	1.69023164317E+02	-4.71097322233E+01	1.26660433763E+02	-5.98277591123E+00	-1.24425729501E+00
2.63009223247E+06	-9.01855877540E+00	-1.70981171838E+02	5.00003943250E+00	1.68579426595E+02	-4.78662647389E+01	1.46537776677E+02	-5.99110282820E+00	-1.16782752771E+00
2.65228358707E+06	-9.36599682125E+00	-1.78828457095E+02	4.91290680070E+00	1.68528743838E+02	-5.19047358470E+01	6.16795591966E+01	-5.95576543430E+00	-1.57980309147E+00
2.67447494166E+06	-1.17814249382E+01	-1.77779771138E+02	4.94864929175E+00	1.68617876143E+02	-3.93672215753E+01	-7.19048817509E+01	-5.95879494913E+00	-1.25838466017E+00
2.69666629626E+06	-1.06205397636E+01	-1.73691954034E+02	4.98545333885E+00	1.68657895422E+02	-4.68002778735E+01	-1.15449722871E+02	-5.94776858560E+00	-1.23993306347E+00
2.71885765085E+06	-1.12792470260E+01	1.66483795816E+02	4.95165719283E+00	1.68298651500E+02	-4.57488112516E+01	-1.01401594742E+02	-5.96141368009E+00	-1.16732484248E+00
2.74104900545E+06	-1.14056766715E+01	-1.75650614127E+02	4.95279326513E+00	1.68187480358E+02	-5.06317159424E+01	1.05106182102E+01	-5.95127671318E+00	-1.06848697609E+00
2.76324036004E+06	-7.54759806005E+00	1.75608893011E+02	4.99370515043E+00	1.68245593662E+02	-4.22900543883E+01	-1.26203641096E+02	-5.97862944498E+00	-1.32581932878E+00
2.78543171463E+06	-1.03168060097E+01	1.79324533627E+02	4.97485367567E+00	1.67999287076E+02	-4.32018797256E+01	-9.06014078539E+01	-5.95777432900E+00	-1.30594937431E+00
2.80762306923E+06	-9.00542916686E+00	1.78938647543E+02	4.98736347345E+00	1.67990789115E+02	-4.95142879376E+01	-1.02503449007E+02	-5.96327100680E+00	-1.29793511687E+00
2.82981442382E+06	-1.06402036970E+01	-1.76478714166E+02	4.96447157973E+00	1.67781862184E+02	-4.78255161215E+01	1.58525551539E+02	-5.98500568569E+00	-1.28250632208E+00
2.85200577842E+06	-1.11935439905E+01	1.74559514276E+02	4.95071194476E+00	1.68036602606E+02	-4.36588470232E+01	1.12029155666E+02	-5.95582066599E+00	-1.30527941128E+00
2.87419713301E+06	-1.01033294771E+01	1.69593168900E+02	4.98391463803E+00	1.67469446770E+02	-6.32513019827E+01	-1.32236957804E+02	-5.97361259351E+00	-1.18778759732E+00
