# Hz S DB R 50
! CMT, M5065, 19127446, 24.2.4/2
! Date: 10/29/2024 12:22:29 PM
! Data: Format (Calibration Info)
! Freq	S11:dB/Ang(F2)	S21:dB/Ang(F2)	S12:dB/Ang(F2)	S22:dB/Ang(F2)
3.00000000000E+05	-9.92042563789E+00	-1.79815184550E+02	8.77314894438E+00	-1.77897978067E+02	-3.62257128705E+01	1.64608910532E+02	-5.98535771569E+00	-1.03170525045E-01
3.22191354595E+05	-9.25812101927E+00	-1.76457114326E+02	8.77658397583E+00	-1.78450908815E+02	-5.79490706024E+01	-1.24889877842E+02	-5.96434709253E+00	-2.62519535873E-01
3.44382709190E+05	-9.89814901402E+00	-1.74185085756E+02	8.81458081064E+00	-1.78846396624E+02	-5.00147495591E+01	1.33099516547E+02	-5.96562223564E+00	1.96384311057E-02
3.66574063785E+05	-1.05400734713E+01	-1.74163050613E+02	8.81752231290E+00	-1.78966424333E+02	-4.74040110059E+01	5.22978569785E+00	-5.96741832578E+00	-2.61601285745E-01
3.88765418380E+05	-1.36846485480E+01	1.75421177054E+02	8.82363211191E+00	-1.79572007900E+02	-4.57449071400E+01	7.77590424690E+01	-6.01155940660E+00	-3.64220773543E-01
4.10956772975E+05	-1.05304704682E+01	-1.74978872428E+02	8.79430476917E+00	-1.79658549216E+02	-4.68449342026E+01	-9.20919022947E+01	-5.99612474910E+00	-3.41529460975E-01
4.33148127570E+05	-1.00750844847E+01	-1.70029821663E+02	8.80797961414E+00	-1.79882306342E+02	-5.00775150505E+01	-1.29978807091E+02	-5.98734424149E+00	-1.59698095858E-01
4.55339482165E+05	-9.86476859632E+00	-1.65065055416E+02	8.79678915540E+00	1.79914462494E+02	-4.23350509327E+01	-6.86715275139E+01	-5.98014089573E+00	-4.16756009788E-01
4.77530836760E+05	-1.16172937703E+01	-1.78565595869E+02	8.80263475826E+00	1.79572500802E+02	-4.95485287598E+01	1.28246183161E+02	-5.99136287634E+00	-3.73547732083E-01
4.99722191355E+05	-1.01257830342E+01	-1.75255464919E+02	8.81695395169E+00	1.79478127158E+02	-4.38542258900E+01	1.25517902300E+02	-5.96912088541E+00	-2.42609827752E-01
5.21913545950E+05	-1.11189631074E+01	-1.72947397234E+02	8.82326835944E+00	1.79101173250E+02	-4.77931292553E+01	1.32104689419E+02	-5.98850409582E+00	-5.01973638148E-01
5.44104900545E+05	-1.07757009776E+01	1.76174672688E+02	8.80537077030E+00	1.78984499750E+02	-5.00030248537E+01	1.05199875137E+02	-5.97486940443E+00	-4.47346280412E-01
5.66296255139E+05	-1.28254696153E+01	-1.73589160109E+02	8.79095607233E+00	1.78962632396E+02	-4.67847005949E+01	1.02605833246E+02	-5.99089789906E+00	-5.09458434562E-01
5.88487609734E+05	-1.12003742600E+01	-1.78183134257E+02	8.80194124795E+00	1.78860158221E+02	-5.10339163181E+01	1.40165723260E+02	-5.97514909308E+00	-6.07985997034E-01
6.10678964329E+05	-1.21524856125E+01	1.73205784444E+02	8.82795384245E+00	1.78623325036E+02	-4.30374102094E+01	7.31234617942E+01	-5.96917403034E+00	-1.43876917023E-01
6.32870318924E+05	-1.09770801530E+01	1.76970283814E+02	8.81832303486E+00	1.78221456800E+02	-5.93608106860E+01	-1.52244915995E+02	-5.97670187898E+00	-5.04485779502E-01
6.55061673519E+05	-9.68082228319E+00	1.76239085977E+02	8.80881989779E+00	1.78380972525E+02	-5.42597185273E+01	1.47949028023E+02	-5.97202001240E+00	-2.23610950012E-01
6.77253028114E+05	-8.74365671050E+00	-1.75843182217E+02	8.83561075908E+00	1.77886162613E+02	-5.74188276654E+01	1.61595973453E+02	-5.98260103928E+00	-4.56496920674E-01
6.99444382709E+05	-1.06133768267E+01	-1.50467247902E+02	8.80650971618E+00	1.77702199154E+02	-5.19956765135E+01	3.54068920187E+01	-5.95814105613E+00	-3.81796973868E-01
7.21635737304E+05	-1.01604704422E+01	1.75039170341E+02	8.82128824680E+00	1.77607819681E+02	-4.35098354850E+01	-7.30198442699E+01	-5.97354353646E+00	-6.39292754226E-01
7.43827091899E+05	-9.09297889521E+00	1.79780332402E+02	8.84012688930E+00	1.77524983226E+02	-4.33502682604E+01	-1.19098462737E+02	-5.96947915856E+00	-5.30201836024E-01
7.66018446494E+05	-8.61016192782E+00	1.78064590868E+02	8.82900788641E+00	1.77469455098E+02	-5.12565304558E+01	1.11975586028E+02	-5.97745032963E+00	-4.62052706363E-01
7.88209801089E+05	-7.23908821806E+00	1.79652166833E+02	8.86383821654E+00	1.77008516428E+02	-4.80767145237E+01	-3.12633713751E+01	-5.94566990398E+00	-5.46377077203E-01
8.10401155684E+05	-9.82819994417E+00	-1.77522771928E+02	8.83468665634E+00	1.77263069363E+02	-4.92034298003E+01	-1.24394545633E+02	-5.98390429751E+00	-4.14964096157E-01
8.32592510279E+05	-9.42983756179E+00	1.76825733464E+02	8.81583171373E+00	1.76780604762E+02	-4.41095673801E+01	3.78895677727E+01	-5.95318932174E+00	-4.02838632809E-01
8.54783864874E+05	-9.91878826431E+00	-1.78927570130E+02	8.83221719905E+00	1.76774544245E+02	-4.56851386004E+01	1.66542916103E+01	-5.97248804685E+00	-5.56297722396E-01
8.76975219469E+05	-1.05198447749E+01	-1.74074581153E+02	8.82339599248E+00	1.76779950602E+02	-4.53222239110E+01	1.76642689561E+02	-5.96689004968E+00	-4.97187618590E-01
8.99166574064E+05	-1.08490561845E+01	-1.69894516518E+02	8.83645385586E+00	1.76362859008E+02	-3.95354557846E+01	1.23452267343E+02	-5.95353229215E+00	-5.05125193700E-01
9.21357928659E+05	-1.22968778192E+01	-1.78838784263E+02	8.83002306104E+00	1.76300277733E+02	-6.63177389803E+01	-4.60425938389E+01	-5.97966576601E+00	-5.98185021251E-01
9.43549283254E+05	-9.45448367585E+00	-1.76575261568E+02	8.85295516231E+00	1.75997081374E+02	-4.71545129703E+01	1.34040415134E+02	-5.95530589683E+00	-5.42004652098E-01
9.65740637849E+05	-1.15476640771E+01	-1.78621200426E+02	8.82065184111E+00	1.76090111691E+02	-4.80172942805E+01	8.85843483755E+00	-5.96324450863E+00	-6.42606392586E-01
9.87931992444E+05	-1.18058838610E+01	1.75003858675E+02	8.84498814969E+00	1.75933602822E+02	-5.32643381172E+01	1.71146456168E+02	-5.98553944001E+00	-4.92036945939E-01
1.01012334704E+06	-7.90913190212E+00	1.72982707193E+02	8.81578352355E+00	1.75848982630E+02	-4.56330510203E+01	1.96338813549E+01	-5.97920676653E+00	-5.73592845056E-01
1.03231470163E+06	-1.14360744825E+01	-1.72506310176E+02	8.79795624532E+00	1.75463595727E+02	-4.70190983003E+01	-2.60127635767E+01	-5.97029892864E+00	-4.93509043268E-01
1.05450605623E+06	-1.01153696373E+01	1.79857673656E+02	8.79696829996E+00	1.75452323671E+02	-4.67255031983E+01	-8.30670652421E+01	-5.96975919873E+00	-5.84269149627E-01
1.07669741082E+06	-9.26550361395E+00	1.74661434835E+02	8.82557372837E+00	1.75206216953E+02	-4.23479852421E+01	-3.45497627943E+01	-5.97268930207E+00	-5.81929081183E-01
1.09888876542E+06	-9.65725945935E+00	1.76081132715E+02	8.86325721970E+00	1.75158461565E+02	-4.58810417448E+01	1.75721134075E+02	-5.96548334561E+00	-5.21816641762E-01
1.12108012001E+06	-8.25450766370E+00	-1.74571346827E+02	8.82008070369E+00	1.74983772453E+02	-4.52266355731E+01	-2.76007752878E+01	-5.98913154331E+00	-5.85742422971E-01
1.14327147461E+06	-9.03719532650E+00	1.78015913761E+02	8.83274725988E+00	1.75070223156E+02	-4.74160055050E+01	-1.26902834709E+02	-5.96207359599E+00	-6.98211372788E-01
1.16546282920E+06	-1.11005603847E+01	-1.65105300925E+02	8.84442175320E+00	1.74827202951E+02	-4.62721672951E+01	5.60100913908E+01	-5.96223103135E+00	-6.38334207117E-01
1.18765418380E+06	-9.85512325441E+00	-1.78119280788E+02	8.80443669082E+00	1.74727132985E+02	-5.00786062192E+01	3.82073983019E+01	-5.94894618088E+00	-6.35161983707E-01
1.20984553839E+06	-1.04494014647E+01	1.76235806869E+02	8.82503817483E+00	1.74582915819E+02	-4.52997918730E+01	-6.56690621782E+01	-5.97511145477E+00	-9.78244137558E-01
1.23203689299E+06	-9.74632725921E+00	1.76955276447E+02	8.82637308043E+00	1.74494849945E+02	-4.72814636179E+01	-1.88700543268E+01	-5.98438405322E+00	-4.51409387561E-01
1.25422824758E+06	-1.08765636548E+01	1.79929111529E+02	8.86257615340E+00	1.74307919500E+02	-4.16693742661E+01	1.06350667039E+02	-5.99553184356E+00	-6.37132297174E-01
1.27641960218E+06	-9.85457233850E+00	-1.64815721396E+02	8.85910656231E+00	1.74281834955E+02	-4.95397561557E+01	-1.40652245312E+02	-5.96386999815E+00	-6.14951799634E-01
1.29861095677E+06	-9.12913688109E+00	-1.76617855019E+02	8.81254614398E+00	1.73958528194E+02	-4.88959212419E+01	-3.09158638916E+00	-5.97874130569E+00	-6.77980962315E-01
1.32080231137E+06	-1.07527375096E+01	1.77439086712E+02	8.80517471622E+00	1.73587512727E+02	-4.51550155459E+01	-4.01951413617E+01	-5.97222182869E+00	-1.08826414640E+00
1.34299366596E+06	-1.10403355478E+01	1.72345269313E+02	8.81521816625E+00	1.73764319038E+02	-4.69375889407E+01	1.73947130805E+02	-5.97783182619E+00	-7.53241933769E-01
1.36518502056E+06	-1.01373873955E+01	-1.60723482498E+02	8.87544047571E+00	1.73714444395E+02	-4.36428036190E+01	-6.10985952890E+01	-5.98285079274E+00	-7.18164313316E-01
1.38737637515E+06	-9.53000005901E+00	-1.73215510757E+02	8.80638668163E+00	1.73468660542E+02	-4.56766843584E+01	6.96543297313E+01	-5.97637146341E+00	-8.62837635583E-01
1.40956772975E+06	-1.14969130956E+01	1.75370268731E+02	8.82762119864E+00	1.73233899561E+02	-4.23832974270E+01	-1.19491224684E+02	-5.95842438636E+00	-7.89295273508E-01
1.43175908434E+06	-1.07142084070E+01	-1.79413107144E+02	8.80823273077E+00	1.73172182614E+02	-4.94521401099E+01	-1.74732137148E+02	-5.96021094257E+00	-7.62699559259E-01
1.45395043894E+06	-8.62319057437E+00	-1.76307498274E+02	8.80133071871E+00	1.73036006295E+02	-4.76966001669E+01	-1.62645336492E+02	-5.98782600841E+00	-6.67092753654E-01
1.47614179353E+06	-1.25905718660E+01	1.78026463479E+02	8.80968576758E+00	1.72960356847E+02	-5.44855841042E+01	-1.55244651100E+02	-6.00002001204E+00	-7.88619692650E-01
1.49833314813E+06	-1.08401372295E+01	-1.78294621042E+02	8.82406941011E+00	1.72719288159E+02	-4.80658576609E+01	3.96624942088E+01	-5.96274156588E+00	-7.06687859616E-01
1.52052450272E+06	-8.87319730826E+00	-1.78693057279E+02	8.83436367116E+00	1.72936975034E+02	-4.05736167326E+01	-5.22696672576E+01	-5.99114698008E+00	-8.48785312762E-01
1.54271585732E+06	-9.75734337219E+00	-1.70856437889E+02	8.83396176191E+00	1.72714705817E+02	-4.60410676954E+01	1.02276368154E+02	-5.96922619019E+00	-6.41899294460E-01
1.56490721191E+06	-1.06454765691E+01	1.74663086373E+02	8.82586680319E+00	1.72561190383E+02	-4.12108022570E+01	-5.47819619660E+01	-5.99257524957E+00	-7.95560901816E-01
1.58709856651E+06	-1.02297438437E+01	1.74812662841E+02	8.82721456860E+00	1.72399366353E+02	-4.70837603265E+01	-4.74892986692E+01	-5.94977479078E+00	-8.00852286725E-01
1.60928992110E+06	-9.78309709118E+00	-1.75691036643E+02	8.84346859271E+00	1.72241344146E+02	-4.72435983202E+01	1.70378545925E+01	-5.99030609158E+00	-8.37824269425E-01
1.63148127570E+06	-8.38967411182E+00	-1.65874366357E+02	8.86110112961E+00	1.72028807374E+02	-5.63289277597E+01	-3.78486276077E+01	-5.96469732503E+00	-8.84838652339E-01
1.65367263029E+06	-1.07677736242E+01	-1.76668479206E+02	8.82313449367E+00	1.72247449052E+02	-4.05789057386E+01	-1.60287308490E+02	-5.98906021256E+00	-6.78284909906E-01
1.67586398489E+06	-1.01215998855E+01	-1.76965619898E+02	8.80496560200E+00	1.71583068789E+02	-5.08460527219E+01	-5.39114099245E+01	-5.98141753213E+00	-8.85098771532E-01
1.69805533948E+06	-9.77919011489E+00	1.77279135447E+02	8.85435244225E+00	1.71774820804E+02	-4.87950508757E+01	7.86786927312E+01	-5.96165657286E+00	-8.41828040634E-01
1.72024669408E+06	-9.01047727434E+00	-1.75227097591E+02	8.82831875897E+00	1.71612020823E+02	-5.36158578415E+01	6.00177267202E+01	-5.98427237676E+00	-7.89407749291E-01
1.74243804867E+06	-1.01821440014E+01	1.72381296764E+02	8.81964002218E+00	1.71709644221E+02	-4.84420828086E+01	2.70769432146E+01	-5.96821324790E+00	-7.01534942119E-01
1.76462940327E+06	-1.00807720403E+01	1.79000241028E+02	8.79612942222E+00	1.71106388878E+02	-4.09559216725E+01	-2.35082747306E+01	-5.95732407972E+00	-9.09761958304E-01
1.78682075786E+06	-1.00242889533E+01	1.79164158633E+02	8.80651815509E+00	1.71008668799E+02	-4.12691628927E+01	-8.35565583605E+00	-5.95554047321E+00	-9.20347768178E-01
1.80901211246E+06	-9.16566340983E+00	-1.79702250369E+02	8.77915285832E+00	1.71232025568E+02	-4.78267147919E+01	-1.36728816479E+02	-5.97943948541E+00	-8.70144360259E-01
1.83120346705E+06	-1.10548402293E+01	-1.64618469405E+02	8.84471257535E+00	1.71031103126E+02	-4.70492709101E+01	-2.44371562426E+01	-5.97681950599E+00	-9.04662573276E-01
1.85339482165E+06	-1.04808116846E+01	1.64185629551E+02	8.83202634863E+00	1.70895147325E+02	-5.41426599954E+01	6.21299585124E+01	-5.96589937564E+00	-1.00453889871E+00
1.87558617624E+06	-1.07602840157E+01	-1.72303119747E+02	8.84554801425E+00	1.70899102009E+02	-5.02463441325E+01	7.00637515202E+01	-5.96079879489E+00	-7.44893336342E-01
1.89777753084E+06	-1.10944582660E+01	-1.75185163813E+02	8.74581891163E+00	1.70808354592E+02	-4.61353294863E+01	-2.81891956587E+01	-5.97658878616E+00	-8.93836527248E-01
1.91996888543E+06	-9.39084093505E+00	1.76677996165E+02	8.79937191115E+00	1.70519940906E+02	-4.81520747673E+01	-2.57061070510E+01	-5.96537365203E+00	-9.36312316839E-01
1.94216024003E+06	-9.27231412704E+00	1.76504611711E+02	8.81353871701E+00	1.70320542171E+02	-4.39606803856E+01	-1.71432074287E+02	-5.93137446736E+00	-7.30372433155E-01
1.96435159462E+06	-9.21151310649E+00	1.78577315825E+02	8.80848411018E+00	1.70000212008E+02	-3.92294479956E+01	-1.17460148744E+02	-5.97588196658E+00	-9.92337408984E-01
1.98654294922E+06	-9.42439645372E+00	-1.77229079140E+02	8.81433246739E+00	1.70384779973E+02	-5.01419746742E+01	1.14862422959E+02	-5.96739496923E+00	-9.29561812316E-01
2.00873430381E+06	-1.19373255436E+01	1.69663097249E+02	8.81183915247E+00	1.70174701083E+02	-4.14599121082E+01	-8.44869578112E+01	-5.98367847368E+00	-1.00286322346E+00
2.03092565841E+06	-1.08934596496E+01	-1.77765566705E+02	8.79935879814E+00	1.70155952847E+02	-5.11275537941E+01	-1.73735952886E+02	-5.98206828427E+00	-9.99149088817E-01
2.05311701300E+06	-1.00969270607E+01	1.74275473305E+02	8.91767710988E+00	1.69798271849E+02	-4.30325384460E+01	-1.72426741314E+02	-5.98518899221E+00	-9.29524697032E-01
2.07530836760E+06	-1.16751542385E+01	-1.69400822090E+02	8.80264625604E+00	1.69608029267E+02	-4.93550771319E+01	2.87276325286E+01	-5.98732547141E+00	-1.01512575148E+00
2.09749972219E+06	-9.41048574862E+00	-1.65418721133E+02	8.83933240496E+00	1.69487970057E+02	-4.79064856008E+01	1.29461601454E+02	-5.96748546490E+00	-9.77103338297E-01
2.11969107679E+06	-1.14581566054E+01	1.79492733095E+02	8.84905622214E+00	1.69466456511E+02	-4.97942861363E+01	9.48091418262E-02	-5.97023727417E+00	-1.04237203006E+00
2.14188243138E+06	-1.03079456499E+01	-1.63250916064E+02	8.82754925012E+00	1.69313261631E+02	-5.14319736553E+01	-1.21725800735E+02	-5.97329762168E+00	-9.82431468909E-01
2.16407378598E+06	-1.29945705765E+01	-1.68586668915E+02	8.75012640170E+00	1.69271125929E+02	-4.69360973651E+01	-5.19398848396E+01	-5.96722721490E+00	-1.07052753436E+00
2.18626514057E+06	-1.19326879260E+01	-1.79239729385E+02	8.81689063072E+00	1.69029178064E+02	-5.28418652190E+01	4.92865255044E+01	-5.96744495283E+00	-1.00267145245E+00
2.20845649517E+06	-8.59087634433E+00	1.76321930494E+02	8.81007706925E+00	1.68926740259E+02	-4.49159018329E+01	1.50606108124E+02	-5.93587923985E+00	-8.93951229600E-01
2.23064784976E+06	-1.07885017686E+01	-1.77697794311E+02	8.83495057815E+00	1.68812676456E+02	-3.93203873730E+01	-1.44133323739E+02	-5.96215599756E+00	-1.04400839810E+00
2.25283920436E+06	-1.04164041225E+01	-1.79499983251E+02	8.81860937095E+00	1.68683092155E+02	-4.22699628401E+01	5.61920115192E+01	-5.97201292641E+00	-1.04966068229E+00
2.27503055895E+06	-1.00307667105E+01	1.79301765754E+02	8.78369491835E+00	1.68695736437E+02	-3.93088873823E+01	5.91151751447E+01	-5.96537722120E+00	-1.05282759917E+00
2.29722191355E+06	-9.92581043163E+00	-1.70812674244E+02	8.83956902707E+00	1.68551565062E+02	-5.06217403033E+01	5.47279952405E+00	-5.96463003982E+00	-9.74119325313E-01
2.31941326814E+06	-9.17082424926E+00	-1.71646591272E+02	8.82865882710E+00	1.68469383608E+02	-4.21627659762E+01	-1.73229737543E+02	-5.94059273976E+00	-1.22735263015E+00
2.34160462274E+06	-9.35035420759E+00	1.72248808615E+02	8.79890021334E+00	1.68130506768E+02	-4.25719978644E+01	-7.38605257448E+01	-5.94917659681E+00	-1.21569126090E+00
2.36379597733E+06	-1.22897681547E+01	-1.65856805320E+02	8.80462304891E+00	1.68251443711E+02	-4.66908772643E+01	-5.35897511496E+01	-5.99389512477E+00	-9.62283584264E-01
2.38598733193E+06	-1.01921051081E+01	1.78522479023E+02	8.78744932846E+00	1.67930767700E+02	-4.76866603321E+01	-1.12889640494E+02	-5.95811636712E+00	-9.91756183635E-01
2.40817868652E+06	-9.73893780833E+00	-1.74670875740E+02	8.81358694752E+00	1.67984761903E+02	-4.24831087365E+01	6.34613998549E+01	-5.96925988207E+00	-1.11766437231E+00
2.43037004112E+06	-1.03235753245E+01	1.78510519340E+02	8.81147468011E+00	1.67578398233E+02	-4.29245759867E+01	-1.03532524166E+02	-5.97238830556E+00	-1.38955051235E+00
2.45256139571E+06	-8.92984543616E+00	1.75263734108E+02	8.82731583360E+00	1.67570286928E+02	-5.87661159158E+01	9.83521345216E+01	-5.98109797632E+00	-9.64074347254E-01
2.47475275031E+06	-1.20822378351E+01	1.75044624718E+02	8.82258334113E+00	1.67383931489E+02	-4.39746607787E+01	-1.11176665404E+02	-5.95350019549E+00	-1.18842308885E+00
2.49694410490E+06	-1.18197047887E+01	-1.76964977942E+02	8.84285186714E+00	1.67461212557E+02	-4.47912552622E+01	9.13251449242E+01	-5.98133418762E+00	-1.03669532820E+00
2.51913545950E+06	-9.70038288372E+00	-1.76989510829E+02	8.83224268836E+00	1.67173166621E+02	-4.23296722142E+01	1.75685887308E+02	-5.98077116974E+00	-1.12823267945E+00
2.54132681409E+06	-1.03669710643E+01	1.77580657960E+02	8.79891459866E+00	1.67083532525E+02	-5.64155529135E+01	1.40632393154E+02	-5.97252477386E+00	-1.11551548232E+00
2.56351816869E+06	-7.31979925913E+00	-1.73854611674E+02	8.85476818934E+00	1.67008805978E+02	-4.74684530494E+01	1.56594514044E+01	-5.95326258617E+00	-1.18235937750E+00
2.58570952328E+06	-9.83616516359E+00	-1.62281815492E+02	8.86601202442E+00	1.67091827518E+02	-6.54899360742E+01	-3.12288046304E+01	-5.97225165740E+00	-1.23768630976E+00
2.60790087788E+06	-1.05784400067E+01	-1.75615219610E+02	8.83756055152E+00	1.66675435264E+02	-4.44047764074E+01	1.35422459556E+02	-5.97961781686E+00	-1.25777478454E+00
2.63009223247E+06	-1.02298970842E+01	1.69462909547E+02	8.80559010308E+00	1.66765068968E+02	-5.55327966412E+01	-1.69061087294E+02	-5.97840430112E+00	-1.22300418821E+00
2.65228358707E+06	-1.05133534674E+01	-1.73038449562E+02	8.81995939559E+00	1.66557484155E+02	-4.28177206186E+01	-1.97479473882E+01	-5.95263240724E+00	-1.70772017726E+00
2.67447494166E+06	-1.02071004895E+01	1.75839013490E+02	8.79963317732E+00	1.66629630601E+02	-4.09556564776E+01	-3.00911022706E+01	-5.99941383992E+00	-1.45731559771E+00
2.69666629626E+06	-8.59277142163E+00	-1.79612054261E+02	8.81482844832E+00	1.66282787548E+02	-4.34446749291E+01	-1.09739184845E+02	-5.96624238018E+00	-1.27088538535E+00
2.71885765085E+06	-1.07793377022E+01	1.76626391227E+02	8.84042393317E+00	1.66221696855E+02	-5.30277525620E+01	8.85379551154E+01	-5.97058778451E+00	-1.20128930054E+00
2.74104900545E+06	-1.10906533491E+01	1.70847978054E+02	8.81064511173E+00	1.66115011569E+02	-5.62110032719E+01	1.32388469740E+02	-5.96569832643E+00	-1.23322823895E+00
2.76324036004E+06	-1.09360609539E+01	1.79778044695E+02	8.80765096859E+00	1.66073333447E+02	-4.78073910211E+01	2.28229291376E+01	-5.95136718510E+00	-1.34008577966E+00
2.78543171463E+06	-9.35662887789E+00	-1.66672819710E+02	8.80330222173E+00	1.66027858259E+02	-4.26859288330E+01	4.44140396536E+00	-5.94554420621E+00	-1.19769315299E+00
2.80762306923E+06	-1.15724607688E+01	-1.57152536784E+02	8.84434314056E+00	1.65883437111E+02	-4.53715618973E+01	3.31239206873E+01	-5.96859373036E+00	-1.32929518119E+00
2.82981442382E+06	-1.09023069174E+01	1.79471280166E+02	8.80948012671E+00	1.65810002004E+02	-4.46492659416E+01	5.55260765244E+01	-5.94245974652E+00	-1.32493340025E+00
2.85200577842E+06	-8.46550813238E+00	-1.79632150647E+02	8.80945279990E+00	1.65632393399E+02	-4.78012459009E+01	-1.57546316105E+02	-5.96235706760E+00	-1.21389807499E+00
2.87419713301E+06	-9.66389323163E+00	1.75860370736E+02	8.82502198929E+00	1.65551035070E+02	-5.32584429392E+01	-7.39074087095E+01	-5.96675454689E+00	-1.41187643541E+00
