# Hz S DB R 50
! CMT, M5065, 19127446, 24.2.4/2
! Date: 10/29/2024 12:01:37 PM
! Data: Format (Calibration Info)
! Freq	S11:dB/Ang(F2)	S21:dB/Ang(F2)	S12:dB/Ang(F2)	S22:dB/Ang(F2)
3.00000000000E+05	-1.06053113389E+01	-1.74024925427E+02	6.26291190507E+00	-1.78168718428E+02	-5.04945225680E+01	-9.22192619223E+01	-5.97987352279E+00	-2.94301187662E-01
3.22191354595E+05	-1.07550282083E+01	1.75412938335E+02	6.31016972675E+00	-1.77971601459E+02	-4.52096352014E+01	-9.98488309381E+01	-5.95785578797E+00	-8.08299171258E-02
3.44382709190E+05	-9.82311509402E+00	1.76311903669E+02	6.30102095151E+00	-1.78565603824E+02	-5.47315466259E+01	9.81937919350E+01	-5.96415830971E+00	-2.81793523046E-01
3.66574063785E+05	-9.77226897568E+00	-1.79250901818E+02	6.32368662585E+00	-1.78950134412E+02	-4.59881304253E+01	5.78674168191E+01	-5.97890463573E+00	-2.92071497737E-01
3.88765418380E+05	-8.94701164404E+00	-1.78316757279E+02	6.35295230076E+00	-1.79293925623E+02	-4.08579052973E+01	1.55375634298E+02	-5.97849816819E+00	-2.19436738871E-01
4.10956772975E+05	-1.16576892624E+01	-1.68724066099E+02	6.24951857797E+00	-1.79424346358E+02	-3.81958576745E+01	-1.38839613970E+02	-6.00158288048E+00	-3.03214988375E-01
4.33148127570E+05	-1.10657738598E+01	1.68053456849E+02	6.32481646477E+00	-1.79587701499E+02	-4.61425896009E+01	-2.57389559855E+01	-5.98181791931E+00	-3.42246205220E-01
4.55339482165E+05	-1.03801626913E+01	-1.71952963780E+02	6.30519784406E+00	-1.79899541776E+02	-5.44142710370E+01	-5.85586030539E+01	-5.98157149230E+00	-3.49829144622E-01
4.77530836760E+05	-1.35686643116E+01	-1.63987615758E+02	6.30320225422E+00	1.79589995634E+02	-5.07167675182E+01	1.43210837829E+02	-5.99242114958E+00	-3.49651688358E-01
4.99722191355E+05	-9.66175202418E+00	-1.70326289432E+02	6.30123285468E+00	1.79842442290E+02	-4.57096126713E+01	1.55876448829E+02	-5.97484461680E+00	-4.03956987456E-01
5.21913545950E+05	-9.02466236893E+00	-1.69346007348E+02	6.30811489518E+00	1.79414476910E+02	-4.21770698809E+01	-1.59687189295E+02	-5.95809108072E+00	-3.13099553645E-01
5.44104900545E+05	-9.56896496531E+00	1.76789898276E+02	6.33798114690E+00	1.79280538834E+02	-4.75404205438E+01	-6.14942180143E+00	-5.97942824826E+00	-5.19802726986E-01
5.66296255139E+05	-8.87075960271E+00	-1.74416240723E+02	6.32032743554E+00	1.78857072104E+02	-4.39835914802E+01	-1.13131632593E+02	-5.98097425823E+00	-3.63523920617E-01
5.88487609734E+05	-9.88265634889E+00	-1.77192110440E+02	6.27718884194E+00	1.78830333055E+02	-4.60056187953E+01	-4.84057388069E+01	-5.95430758211E+00	-5.48472806023E-01
6.10678964329E+05	-1.12976883255E+01	-1.78515930482E+02	6.33008999684E+00	1.78940220907E+02	-4.11969247911E+01	-8.63129849267E+01	-5.99395585558E+00	-1.63616217568E-01
6.32870318924E+05	-1.01259905124E+01	-1.74093671647E+02	6.32391123893E+00	1.78635175611E+02	-4.45788646621E+01	-1.04127259870E+02	-5.94631327011E+00	-5.11897863735E-01
6.55061673519E+05	-1.08683080188E+01	-1.75444691224E+02	6.30706930445E+00	1.78639351773E+02	-4.83011472580E+01	-1.27969481726E+02	-5.97238452731E+00	-1.51071404937E-01
6.77253028114E+05	-9.90524251463E+00	-1.74666430238E+02	6.31576711536E+00	1.78358098033E+02	-3.93912671142E+01	-4.04994032595E+01	-5.99053050213E+00	-6.24879441137E-01
6.99444382709E+05	-1.11809307161E+01	-1.61117557426E+02	6.28413973933E+00	1.78199664107E+02	-4.54418500432E+01	1.71181125336E+00	-5.98738236511E+00	-5.20606672183E-01
7.21635737304E+05	-1.17805508910E+01	1.77912181869E+02	6.32084908742E+00	1.78008167666E+02	-5.38798375394E+01	-2.88454953532E+01	-5.98445273112E+00	-4.91855686736E-01
7.43827091899E+05	-9.46763771240E+00	1.76565862443E+02	6.33439322471E+00	1.77930637113E+02	-4.21440420326E+01	-4.21869896325E+01	-5.95550418368E+00	-3.87510899832E-01
7.66018446494E+05	-1.04073153344E+01	1.79787050231E+02	6.33031505773E+00	1.77752974527E+02	-4.22719233090E+01	6.53615072673E+01	-5.98154743838E+00	-5.48991257809E-01
7.88209801089E+05	-1.31006866361E+01	-1.70540797922E+02	6.29544639523E+00	1.77701109460E+02	-5.28095978559E+01	2.16214568668E+01	-5.96494450532E+00	-5.03501044401E-01
8.10401155684E+05	-9.79056419882E+00	-1.76282837181E+02	6.32079681898E+00	1.77533467172E+02	-5.21324573088E+01	2.04704631362E+01	-5.93840552884E+00	-6.17498648922E-01
8.32592510279E+05	-1.03961235089E+01	1.71107478891E+02	6.30365999372E+00	1.77164296958E+02	-5.21300312107E+01	-5.11341121645E+01	-5.97450404893E+00	-5.47089755644E-01
8.54783864874E+05	-9.89950727197E+00	-1.69494727532E+02	6.29295667104E+00	1.77050137815E+02	-5.10446823993E+01	7.91726011585E+01	-5.99323035798E+00	-5.81193030049E-01
8.76975219469E+05	-1.13465493875E+01	1.72644023016E+02	6.31343845602E+00	1.77058055438E+02	-4.26707578575E+01	1.80033675432E+01	-5.96301591180E+00	-5.95048650939E-01
8.99166574064E+05	-1.08022069617E+01	-1.71449659947E+02	6.31711538833E+00	1.76867187242E+02	-4.60375262370E+01	1.12116822999E+02	-5.96337182865E+00	-5.37453400047E-01
9.21357928659E+05	-1.02175092152E+01	-1.76504043884E+02	6.28436121388E+00	1.76749746449E+02	-8.57423102436E+01	-9.20895333543E+01	-5.97255826504E+00	-4.58657770684E-01
9.43549283254E+05	-1.00129087770E+01	1.67300301729E+02	6.32439098958E+00	1.76437387048E+02	-4.20401331530E+01	-4.23994148289E+01	-5.98597858101E+00	-5.34391914732E-01
9.65740637849E+05	-8.33975700326E+00	1.74603023665E+02	6.29396493388E+00	1.76395177391E+02	-4.66590907424E+01	-5.70577378799E+01	-5.96686042831E+00	-4.56878277271E-01
9.87931992444E+05	-1.15349421767E+01	-1.66991929154E+02	6.32712784640E+00	1.76326234910E+02	-4.27310596210E+01	-1.72766081252E+02	-5.99195472527E+00	-5.99391121372E-01
1.01012334704E+06	-1.02155479144E+01	-1.76109173806E+02	6.30042019787E+00	1.76311292217E+02	-5.34415293362E+01	2.81183881462E+01	-5.95568809881E+00	-4.42732069316E-01
1.03231470163E+06	-1.03224679498E+01	-1.79812402635E+02	6.32084215145E+00	1.76309393780E+02	-4.66973848467E+01	1.25391707783E+02	-5.99146962437E+00	-5.65409073560E-01
1.05450605623E+06	-9.22463046232E+00	1.77371861551E+02	6.29984028236E+00	1.76017509100E+02	-4.26568534484E+01	9.63731359909E+01	-5.96290567353E+00	-6.04492110938E-01
1.07669741082E+06	-1.04134861047E+01	-1.75198871618E+02	6.28262309617E+00	1.76243800295E+02	-4.77939593949E+01	4.61627751914E+01	-5.96807146558E+00	-6.64165578880E-01
1.09888876542E+06	-1.13788991305E+01	-1.78635898491E+02	6.33889153020E+00	1.76078789355E+02	-5.77176337126E+01	-8.72865840547E+01	-5.98336642357E+00	-6.16197433933E-01
1.12108012001E+06	-9.12169689980E+00	1.75241282030E+02	6.30017952170E+00	1.75625019859E+02	-7.52632930560E+01	-1.69235074348E+02	-5.98085646313E+00	-5.80034487989E-01
1.14327147461E+06	-9.56364522788E+00	-1.75985384679E+02	6.28055575148E+00	1.75578410228E+02	-4.79257208476E+01	2.60424738387E+01	-5.98338529288E+00	-6.45345945185E-01
1.16546282920E+06	-1.05466928080E+01	-1.77136266840E+02	6.32014737069E+00	1.75600737846E+02	-4.85617159600E+01	4.34757866201E+01	-5.96894680502E+00	-7.50371697969E-01
1.18765418380E+06	-1.21131276348E+01	-1.70724271812E+02	6.29274178010E+00	1.75582273552E+02	-4.89695780483E+01	1.24850834592E+02	-5.96007692041E+00	-6.92609118097E-01
1.20984553839E+06	-8.45719843966E+00	-1.79646238927E+02	6.33316738148E+00	1.75346574218E+02	-5.92185459980E+01	1.23566763765E+02	-5.98858931074E+00	-9.15507723236E-01
1.23203689299E+06	-8.71520849208E+00	1.73477279932E+02	6.29670927161E+00	1.75208285053E+02	-4.08274468280E+01	-1.03246319217E+02	-5.97740186063E+00	-5.85765284638E-01
1.25422824758E+06	-1.08188595836E+01	1.75776179650E+02	6.30279205177E+00	1.74877435726E+02	-4.78538818932E+01	-6.04687285552E+00	-5.96494145009E+00	-6.53068580065E-01
1.27641960218E+06	-9.98664071793E+00	1.72156849591E+02	6.30342567460E+00	1.74936760067E+02	-4.39037394077E+01	1.20465075057E+02	-5.98247903354E+00	-8.44723053067E-01
1.29861095677E+06	-1.07352495308E+01	1.67326748366E+02	6.26423290540E+00	1.74731263524E+02	-4.75866635054E+01	-1.18474616721E+02	-5.97579850329E+00	-5.98570709621E-01
1.32080231137E+06	-1.13238113258E+01	-1.75779772995E+02	6.29777421961E+00	1.74587854703E+02	-5.63122218696E+01	-6.11530946680E+01	-5.98357694923E+00	-1.07565876365E+00
1.34299366596E+06	-9.20030254608E+00	1.72425502836E+02	6.35336366693E+00	1.74486485985E+02	-5.06058631242E+01	1.30733813989E+02	-5.97602470651E+00	-1.00596270335E+00
1.36518502056E+06	-1.01895180324E+01	-1.70408007486E+02	6.30151800362E+00	1.74626983469E+02	-3.94566256606E+01	-1.68829133749E+02	-5.94653579524E+00	-7.49153967260E-01
1.38737637515E+06	-9.85214726962E+00	1.79348486079E+02	6.30870062233E+00	1.74299927573E+02	-4.83801964368E+01	2.35616761960E+01	-5.97343054904E+00	-8.35876799424E-01
1.40956772975E+06	-1.11104018166E+01	-1.78611841836E+02	6.30215436655E+00	1.74176027256E+02	-4.60350199476E+01	3.15399338810E+01	-5.97945858632E+00	-6.29145167955E-01
1.43175908434E+06	-1.06107556587E+01	1.67693767091E+02	6.31977907907E+00	1.74040261272E+02	-4.78218509747E+01	8.36569684704E+01	-5.97435798388E+00	-7.35654464374E-01
1.45395043894E+06	-9.03689090281E+00	1.79624785527E+02	6.31631726255E+00	1.73803037148E+02	-4.26453493605E+01	8.04338474968E+00	-5.98218490355E+00	-8.99538948540E-01
1.47614179353E+06	-1.11749396885E+01	-1.60292321787E+02	6.31386700410E+00	1.73876686534E+02	-4.78267317832E+01	4.04193772626E+01	-5.96190881700E+00	-7.54776793773E-01
1.49833314813E+06	-9.77587026634E+00	-1.74813554138E+02	6.28341538713E+00	1.73684553065E+02	-4.59501896816E+01	1.63554857536E+01	-5.95894403383E+00	-6.96996756358E-01
1.52052450272E+06	-1.06766512592E+01	1.76801924049E+02	6.28394255618E+00	1.73441516830E+02	-4.44191832478E+01	1.26399733012E+02	-5.95151147890E+00	-8.44897097327E-01
1.54271585732E+06	-1.29231245501E+01	1.76908823937E+02	6.30163655125E+00	1.73625567487E+02	-4.32195897252E+01	1.38393736541E+02	-5.98033524952E+00	-7.62141554512E-01
1.56490721191E+06	-1.11147801320E+01	-1.78370491449E+02	6.30543790898E+00	1.73148495073E+02	-5.44933284716E+01	6.60843513024E+01	-5.96487146057E+00	-7.47406164568E-01
1.58709856651E+06	-1.05394992589E+01	1.72123562441E+02	6.36704654224E+00	1.73476700250E+02	-4.51140795240E+01	1.43667811357E+02	-5.96551939577E+00	-8.80452856816E-01
1.60928992110E+06	-9.39409780897E+00	-1.75936304231E+02	6.35008467283E+00	1.72955042869E+02	-4.36126956340E+01	-2.86253804240E+01	-5.97531772403E+00	-7.30402989782E-01
1.63148127570E+06	-1.05800027789E+01	1.78509895835E+02	6.29066247983E+00	1.72955999481E+02	-5.00047124694E+01	5.33069805486E+01	-5.97230575386E+00	-8.14702634716E-01
1.65367263029E+06	-1.17673174240E+01	-1.75716281755E+02	6.32475453609E+00	1.72840633781E+02	-4.22134329522E+01	-7.35671400426E+01	-5.97890066006E+00	-7.14717928339E-01
1.67586398489E+06	-1.00307217224E+01	1.77950176117E+02	6.33513797281E+00	1.72605959312E+02	-4.42923817427E+01	-4.38450233359E+01	-5.96845622469E+00	-7.80131373723E-01
1.69805533948E+06	-1.16972336134E+01	-1.79679047021E+02	6.31581708109E+00	1.72526490890E+02	-4.49992624553E+01	1.33359409334E+02	-5.96844546585E+00	-8.64940052284E-01
1.72024669408E+06	-1.15088530782E+01	-1.66866638433E+02	6.27770316977E+00	1.72827042064E+02	-4.37555166348E+01	-2.72363731021E+01	-5.97848090774E+00	-7.62286571010E-01
1.74243804867E+06	-1.07545002685E+01	-1.75308662039E+02	6.32776907313E+00	1.72576372872E+02	-5.54623466646E+01	1.46056115956E+02	-5.98166320815E+00	-9.33038276138E-01
1.76462940327E+06	-1.19282096469E+01	-1.79779703825E+02	6.28888188097E+00	1.72547454756E+02	-4.65896576514E+01	1.47015674989E+02	-5.98585647673E+00	-7.94939475038E-01
1.78682075786E+06	-9.39413583349E+00	1.76256822101E+02	6.31837504458E+00	1.72123013119E+02	-4.14990236897E+01	-1.11034630239E+02	-5.96405506992E+00	-9.76461887004E-01
1.80901211246E+06	-1.01455100671E+01	1.68285878564E+02	6.31520184256E+00	1.72288487673E+02	-4.59253388821E+01	-4.81804018493E+01	-5.98315885222E+00	-8.95829793961E-01
1.83120346705E+06	-1.09276465357E+01	-1.70539573794E+02	6.29068410171E+00	1.72091940953E+02	-5.24114403170E+01	-1.00760400027E+01	-5.97855830628E+00	-8.87554420477E-01
1.85339482165E+06	-1.25973245807E+01	1.79140552917E+02	6.29627650725E+00	1.71727468711E+02	-4.50891147945E+01	5.67713418683E+01	-5.96004579613E+00	-7.35759123293E-01
1.87558617624E+06	-1.07910187866E+01	-1.79811421802E+02	6.28659410312E+00	1.72111865849E+02	-3.70336888993E+01	1.04832208134E+02	-5.95102938505E+00	-6.28037281415E-01
1.89777753084E+06	-1.01525993139E+01	-1.70435912563E+02	6.28601505844E+00	1.71368217266E+02	-4.41423206012E+01	-3.10601729650E+01	-5.96098229351E+00	-8.90581407387E-01
1.91996888543E+06	-1.22597233251E+01	-1.67469405366E+02	6.29521245930E+00	1.71593108043E+02	-5.65262769405E+01	1.78068506676E+02	-5.95631950896E+00	-9.38863081940E-01
1.94216024003E+06	-9.82768254894E+00	-1.79041380419E+02	6.28926682681E+00	1.71529263616E+02	-4.97189018051E+01	1.69350492855E+02	-5.96468808434E+00	-9.96452054557E-01
1.96435159462E+06	-9.13033020688E+00	-1.70365923662E+02	6.33195603108E+00	1.71199545057E+02	-4.36034710062E+01	2.92034804475E+01	-5.98610455832E+00	-9.48671899333E-01
1.98654294922E+06	-8.83731929239E+00	-1.69246092489E+02	6.34680678341E+00	1.71455602119E+02	-4.88379379542E+01	9.80970483377E+01	-5.99398444736E+00	-1.06824642407E+00
2.00873430381E+06	-1.20049486241E+01	1.75748905576E+02	6.29499189303E+00	1.71083768637E+02	-5.78728780355E+01	-1.14729534626E+02	-5.96086892864E+00	-9.14546018237E-01
2.03092565841E+06	-1.06626110483E+01	-1.76837750728E+02	6.28731534912E+00	1.71156748139E+02	-4.84551351244E+01	5.49469684450E+01	-5.97137121269E+00	-9.54495670858E-01
2.05311701300E+06	-7.57826867045E+00	1.78183167506E+02	6.33207096589E+00	1.70987441750E+02	-4.37890284204E+01	-2.02467524627E+01	-5.95342696011E+00	-1.06378953755E+00
2.07530836760E+06	-9.70397464454E+00	-1.75642095565E+02	6.30723148005E+00	1.71002871027E+02	-4.80009859810E+01	9.19542657855E+01	-5.94906903095E+00	-9.76905514984E-01
2.09749972219E+06	-1.03596832296E+01	-1.67008012795E+02	6.29105256536E+00	1.70827513508E+02	-4.88990163683E+01	1.69653951959E+02	-5.97159793814E+00	-1.02949781090E+00
2.11969107679E+06	-9.90795680585E+00	1.72604882178E+02	6.29115631981E+00	1.70599899175E+02	-4.71362264478E+01	-7.29727765065E+01	-5.96929278103E+00	-1.03026138933E+00
2.14188243138E+06	-9.49495415613E+00	1.79969703984E+02	6.26147676754E+00	1.70185350700E+02	-4.21002659793E+01	-1.08302810874E+02	-5.99534961947E+00	-1.02687285773E+00
2.16407378598E+06	-1.11330943142E+01	-1.76925766949E+02	6.35742362992E+00	1.70606068711E+02	-5.05606493609E+01	1.45469698791E+02	-5.97390626989E+00	-1.07289310502E+00
2.18626514057E+06	-1.02816670525E+01	1.75737947651E+02	6.25671776275E+00	1.70525097332E+02	-4.64713549578E+01	1.30640588351E+02	-5.94538717784E+00	-1.01611809218E+00
2.20845649517E+06	-1.01073487931E+01	-1.70315428122E+02	6.33481141889E+00	1.69981558212E+02	-5.05896259538E+01	-1.54457916696E+02	-5.95665888608E+00	-1.05465945829E+00
2.23064784976E+06	-9.64224373290E+00	-1.76906506604E+02	6.34230908950E+00	1.70186803757E+02	-4.78139606717E+01	1.09340949702E+02	-5.97433926689E+00	-9.48262158741E-01
2.25283920436E+06	-1.16749839816E+01	1.76488894174E+02	6.30120411293E+00	1.70095476150E+02	-4.74888520335E+01	5.90089325166E+01	-5.97873325472E+00	-1.08066734392E+00
2.27503055895E+06	-8.37092827971E+00	1.75105448109E+02	6.33515821652E+00	1.69603600796E+02	-4.28483979177E+01	1.01317738490E+02	-5.95300343759E+00	-1.04462453686E+00
2.29722191355E+06	-1.15512206397E+01	1.75600548373E+02	6.31150312694E+00	1.69745784744E+02	-4.31696959039E+01	1.42907309356E+02	-5.97699661963E+00	-9.14478521554E-01
2.31941326814E+06	-9.43658303128E+00	-1.78845017122E+02	6.31011703443E+00	1.69545626163E+02	-4.82517909908E+01	-1.28368710105E+02	-5.96340410872E+00	-1.11285422673E+00
2.34160462274E+06	-1.06281733858E+01	-1.62839923612E+02	6.30972159739E+00	1.69674306425E+02	-4.04498870838E+01	1.76384472932E+02	-5.95907275088E+00	-1.02353294753E+00
2.36379597733E+06	-1.08534806901E+01	1.79574664991E+02	6.33906508377E+00	1.69510481683E+02	-5.82511358446E+01	5.41557855866E+01	-5.96050826885E+00	-1.21502535967E+00
2.38598733193E+06	-9.36803017805E+00	1.76154477707E+02	6.34684136597E+00	1.69262662525E+02	-5.95523039414E+01	8.76911302584E+01	-5.97401952464E+00	-1.10307305568E+00
2.40817868652E+06	-8.84493854645E+00	1.73821896347E+02	6.27910489895E+00	1.69059647598E+02	-5.25857912455E+01	1.41448849602E+02	-5.97945317000E+00	-1.03345144453E+00
2.43037004112E+06	-1.06096783581E+01	1.78955862533E+02	6.28473748897E+00	1.69130324312E+02	-4.90111492548E+01	1.51754204273E+02	-5.97522396112E+00	-1.29175529902E+00
2.45256139571E+06	-9.52785587055E+00	-1.79710374746E+02	6.34227883141E+00	1.68957326243E+02	-4.97140185680E+01	-7.41330259276E+01	-5.97238586892E+00	-9.91812183109E-01
2.47475275031E+06	-1.23286733949E+01	1.76687493748E+02	6.33188637896E+00	1.69028679050E+02	-4.36076846112E+01	1.35146241425E+02	-5.98470782548E+00	-1.14121878844E+00
2.49694410490E+06	-1.17062160577E+01	1.63996971689E+02	6.30018515132E+00	1.68731976378E+02	-4.84053375785E+01	9.38646745461E+00	-5.96718810527E+00	-1.14693571881E+00
2.51913545950E+06	-9.30568713826E+00	-1.77657157133E+02	6.38001093631E+00	1.68743095056E+02	-4.43079574668E+01	6.35469779716E+01	-5.96914624924E+00	-9.97695945654E-01
2.54132681409E+06	-1.07383302580E+01	-1.78139264261E+02	6.29642544567E+00	1.68588489279E+02	-4.19020379688E+01	-5.41535912023E+01	-5.97320728411E+00	-1.10901877820E+00
2.56351816869E+06	-1.18747727562E+01	-1.75421216600E+02	6.32583226372E+00	1.68483308601E+02	-4.27999532361E+01	3.05859364136E+01	-5.95379077730E+00	-1.15198346073E+00
2.58570952328E+06	-1.04321730873E+01	1.67398847429E+02	6.31517337354E+00	1.68429130163E+02	-4.95962666290E+01	-1.43891029222E+02	-5.95691218980E+00	-1.23478441265E+00
2.60790087788E+06	-9.55633735445E+00	1.76719703407E+02	6.31751757893E+00	1.68266815313E+02	-4.89007080898E+01	-2.60610032051E+01	-5.96167249439E+00	-1.19431056970E+00
2.63009223247E+06	-1.29609157117E+01	1.71677320502E+02	6.32027058526E+00	1.67833518268E+02	-5.18677725285E+01	1.12526214493E+02	-5.96394261042E+00	-1.27303425119E+00
2.65228358707E+06	-1.01286396281E+01	-1.79477402885E+02	6.30234024099E+00	1.68156072848E+02	-4.77336603385E+01	5.34544432654E+01	-5.95530097422E+00	-1.58150792122E+00
2.67447494166E+06	-1.16843852470E+01	-1.77575308604E+02	6.30000337484E+00	1.68045827547E+02	-4.53839619282E+01	-6.79614507503E+01	-5.95442164800E+00	-1.30771148172E+00
2.69666629626E+06	-1.19841916579E+01	1.77980914800E+02	6.30997219547E+00	1.67943369672E+02	-4.83692804063E+01	6.24602359717E+01	-5.95892317439E+00	-1.20463176672E+00
2.71885765085E+06	-1.10731768093E+01	1.72666233034E+02	6.32327027748E+00	1.67731038092E+02	-4.60539221609E+01	3.42885275412E+01	-5.95739170717E+00	-1.23892070181E+00
2.74104900545E+06	-1.02494174375E+01	1.74552050802E+02	6.32017718871E+00	1.67647516339E+02	-4.21986809661E+01	6.54105281798E+01	-5.95730873560E+00	-1.30982209144E+00
2.76324036004E+06	-1.06732169448E+01	-1.69748250142E+02	6.31800482405E+00	1.67586388603E+02	-4.16692423720E+01	6.73253443224E+01	-5.97355972033E+00	-1.37896131719E+00
2.78543171463E+06	-9.63106870624E+00	-1.78924220157E+02	6.34563537873E+00	1.67373083955E+02	-5.35344779440E+01	1.84384425046E+01	-5.96466538672E+00	-1.35665930887E+00
2.80762306923E+06	-9.48306332006E+00	1.77019147247E+02	6.33262210385E+00	1.67213840938E+02	-5.29647475400E+01	-1.09792484052E+02	-5.96901156453E+00	-1.31745811007E+00
2.82981442382E+06	-1.10156315142E+01	-1.74429678541E+02	6.31121810067E+00	1.67156393671E+02	-5.46140870102E+01	-8.55238072315E+01	-5.98740787628E+00	-1.22473897411E+00
2.85200577842E+06	-1.03014155780E+01	1.75552321580E+02	6.29437418278E+00	1.67241376767E+02	-4.78040630764E+01	-1.69939376392E+02	-5.96833485405E+00	-1.32371648010E+00
2.87419713301E+06	-9.93136250379E+00	-1.79008005666E+02	6.33330656802E+00	1.67042630968E+02	-5.16596602921E+01	-3.40560897517E+01	-5.96703270963E+00	-1.32428476627E+00
