# Hz S DB R 50
! CMT, M5065, 19127446, 24.2.4/2
! Date: 10/29/2024 12:16:26 PM
! Data: Format (Calibration Info)
! Freq	S11:dB/Ang(F2)	S21:dB/Ang(F2)	S12:dB/Ang(F2)	S22:dB/Ang(F2)
3.00000000000E+05	-1.20324354962E+01	-1.43925456959E+02	7.95782673259E+00	-1.78117821975E+02	-4.73839333212E+01	-1.64402432871E+02	-5.99085502039E+00	-2.14702790890E-01
3.22191354595E+05	-1.05255660438E+01	-1.67622938703E+02	7.97035039363E+00	-1.78380808569E+02	-5.55130583356E+01	1.58656072692E+02	-5.97406175118E+00	-1.50731891522E-01
3.44382709190E+05	-1.27948184183E+01	-1.76947837063E+02	7.97886971292E+00	-1.78635588060E+02	-4.67722392847E+01	-1.43025155903E+02	-5.97497724248E+00	-3.64391782630E-01
3.66574063785E+05	-9.54476565202E+00	1.73693012412E+02	7.96245158054E+00	-1.79026722060E+02	-5.33292366991E+01	1.43773945973E+02	-5.96279232765E+00	-2.20486300505E-01
3.88765418380E+05	-1.06321809654E+01	-1.67179566331E+02	8.01801645830E+00	-1.79485701905E+02	-4.78360545839E+01	1.15962861696E+02	-5.96683133052E+00	-3.65657357355E-01
4.10956772975E+05	-1.07714238975E+01	-1.71269540078E+02	8.02064520013E+00	-1.79537396335E+02	-4.46431307945E+01	1.35972873144E+01	-5.99203587651E+00	-3.65409762596E-01
4.33148127570E+05	-1.02906827554E+01	-1.77493221956E+02	7.98604837787E+00	-1.79717914346E+02	-4.89076819260E+01	-7.05586737526E+01	-5.98513560561E+00	-3.16358189999E-01
4.55339482165E+05	-1.01008638457E+01	-1.61679832523E+02	8.01497571101E+00	1.79840518519E+02	-6.88008043859E+01	6.94392222843E-01	-5.99349373864E+00	-4.17832536140E-01
4.77530836760E+05	-1.03737668575E+01	1.78402495838E+02	7.99842617533E+00	1.79517212478E+02	-5.01794744239E+01	3.66005226751E+01	-5.98905862913E+00	-3.22197589759E-01
4.99722191355E+05	-1.06912099369E+01	-1.78346461734E+02	7.98794349791E+00	1.79625656961E+02	-4.74116166721E+01	-1.43513552282E+02	-5.96786418560E+00	-1.74572462212E-01
5.21913545950E+05	-9.50722760159E+00	-1.73828399541E+02	7.95408574279E+00	1.79456012930E+02	-3.66544755071E+01	1.21965359324E+02	-5.97884040817E+00	-3.60212039226E-01
5.44104900545E+05	-9.29538721614E+00	-1.73286901326E+02	8.03534571580E+00	1.79220977473E+02	-5.17367771387E+01	-5.22021636078E+01	-5.96803664360E+00	-3.21728517219E-01
5.66296255139E+05	-9.82339465107E+00	-1.68540491090E+02	7.98441986117E+00	1.79182626806E+02	-4.05620268775E+01	-1.09935512207E+02	-5.96402466752E+00	-5.68923825591E-01
5.88487609734E+05	-8.72908369403E+00	-1.68932253685E+02	7.99038617774E+00	1.78650149608E+02	-4.99669354628E+01	1.48541990769E+02	-5.99655900893E+00	-5.54620124556E-01
6.10678964329E+05	-7.75323123270E+00	1.77213726585E+02	7.97502652192E+00	1.78430558421E+02	-4.39686853064E+01	-9.44332954734E+01	-5.99221667022E+00	-2.41346427564E-02
6.32870318924E+05	-1.03396201065E+01	-1.72296376711E+02	7.99365862685E+00	1.78534631977E+02	-4.10384035983E+01	-7.82974596244E+01	-5.99347398336E+00	-3.65267232057E-01
6.55061673519E+05	-1.06853099118E+01	-1.55447292459E+02	8.01746207191E+00	1.78540655849E+02	-4.38112646718E+01	1.41306429280E+02	-5.97879240877E+00	-2.10538989229E-01
6.77253028114E+05	-9.68537002151E+00	-1.73546309005E+02	7.96464753328E+00	1.78038215345E+02	-5.62577060782E+01	-6.74883034161E+01	-5.97177907899E+00	-6.31472163383E-01
6.99444382709E+05	-9.73276772250E+00	-1.74481498311E+02	8.00357217531E+00	1.78242124994E+02	-4.05125239904E+01	-8.58317360542E+01	-5.96500636846E+00	-3.78025590199E-01
7.21635737304E+05	-1.19180738987E+01	-1.64899050778E+02	7.99637232985E+00	1.77852062992E+02	-3.91994021036E+01	2.94728787470E+01	-5.99244737034E+00	-4.04999283126E-01
7.43827091899E+05	-8.64366857716E+00	-1.76916829874E+02	7.98639903207E+00	1.77403170395E+02	-5.51220993766E+01	1.43168757861E+02	-5.95572094737E+00	-5.95877349950E-01
7.66018446494E+05	-1.05919021553E+01	-1.69488608031E+02	7.99885248386E+00	1.77712274589E+02	-7.02487578953E+01	1.44416656078E+02	-5.95543869108E+00	-3.72783430177E-01
7.88209801089E+05	-1.10934660589E+01	-1.65422032547E+02	8.01082372998E+00	1.77280955072E+02	-4.36241221817E+01	5.12239570806E+01	-5.99183363532E+00	-5.69703107940E-01
8.10401155684E+05	-9.41027793837E+00	1.70947829612E+02	7.98855044883E+00	1.77076927864E+02	-4.58712051727E+01	4.61289957273E+01	-5.97376219996E+00	-5.92042144724E-01
8.32592510279E+05	-1.20991341175E+01	-1.76328207802E+02	7.99248218242E+00	1.77254964628E+02	-5.39459333107E+01	-1.22679775538E+02	-5.95337402667E+00	-4.48503032668E-01
8.54783864874E+05	-1.07185796456E+01	-1.70198225498E+02	8.00534620922E+00	1.76942671685E+02	-4.45861370111E+01	-1.38032541030E+01	-5.97848359234E+00	-5.04592267323E-01
8.76975219469E+05	-1.21824819609E+01	1.78308029625E+02	7.99344421919E+00	1.76874666571E+02	-4.20848036981E+01	-7.84411654145E+00	-5.99103959622E+00	-4.98497969592E-01
8.99166574064E+05	-1.11615084348E+01	1.79412758184E+02	8.00184316682E+00	1.76739765032E+02	-5.23999900297E+01	5.10880480164E+01	-5.98005470002E+00	-5.88471701620E-01
9.21357928659E+05	-9.86121698378E+00	-1.71349669958E+02	8.00253033921E+00	1.76229185389E+02	-4.56509632210E+01	4.12222830710E+01	-5.98642598158E+00	-6.66469128035E-01
9.43549283254E+05	-9.22073925526E+00	1.67318547963E+02	8.00234522272E+00	1.76109531303E+02	-4.58586233254E+01	-1.27144963853E+02	-5.97394361310E+00	-6.73220742082E-01
9.65740637849E+05	-8.94616160559E+00	-1.76325928867E+02	8.00553016121E+00	1.76583082447E+02	-4.18633345496E+01	-1.13316345527E+02	-5.94548739000E+00	-4.96339985510E-01
9.87931992444E+05	-9.88344258107E+00	1.71432633443E+02	7.99207792401E+00	1.76008643443E+02	-4.61606265526E+01	-8.18496909714E+01	-5.97701632164E+00	-6.94007152834E-01
1.01012334704E+06	-9.23212721878E+00	1.68229716875E+02	8.01945902000E+00	1.76134184152E+02	-4.66079745295E+01	-1.07248706060E+02	-5.96281540268E+00	-6.36734530318E-01
1.03231470163E+06	-8.29746351441E+00	-1.76722573593E+02	8.03105364924E+00	1.75873477125E+02	-4.43289733531E+01	1.08190364545E+02	-6.01239722213E+00	-5.78783478103E-01
1.05450605623E+06	-1.06459486283E+01	-1.68129543576E+02	7.97790439948E+00	1.75706778292E+02	-4.98839776790E+01	-1.29787439016E+02	-5.97597521512E+00	-5.51942033366E-01
1.07669741082E+06	-9.28931036198E+00	-1.78823300601E+02	8.05360283328E+00	1.75624751865E+02	-4.31251969726E+01	1.48116725826E+02	-5.96087610118E+00	-4.77530812234E-01
1.09888876542E+06	-1.06121350154E+01	-1.79464284818E+02	7.97122921834E+00	1.75513983683E+02	-4.88062465844E+01	-1.36272811590E+02	-5.98927654484E+00	-7.56045380060E-01
1.12108012001E+06	-1.34588504145E+01	-1.72315856642E+02	7.99891282718E+00	1.75396696640E+02	-4.30637696271E+01	1.17001017906E+01	-5.95614600845E+00	-6.98325006411E-01
1.14327147461E+06	-1.06186786335E+01	1.73292090538E+02	8.00649463039E+00	1.74978550940E+02	-4.38188401238E+01	-1.52109414898E+01	-5.98334601362E+00	-6.57896672029E-01
1.16546282920E+06	-1.20517711624E+01	1.66589359272E+02	8.00616728681E+00	1.74935400879E+02	-4.51856350101E+01	1.09825715606E+02	-5.97312224988E+00	-6.29560523165E-01
1.18765418380E+06	-9.37241036436E+00	-1.67962360831E+02	7.98081384173E+00	1.74809231619E+02	-5.32167651762E+01	-3.26629498087E+01	-5.99958362912E+00	-6.73110654310E-01
1.20984553839E+06	-1.03980781093E+01	1.71509994811E+02	7.98614083256E+00	1.74779153617E+02	-3.92394262632E+01	-8.83456231088E+01	-6.00258787539E+00	-9.55861363934E-01
1.23203689299E+06	-8.25262898551E+00	1.71755026480E+02	7.98826274683E+00	1.74544093541E+02	-4.26449175630E+01	6.67752365844E+01	-5.97592993359E+00	-5.22596157236E-01
1.25422824758E+06	-8.89536210763E+00	-1.64766078552E+02	8.03751923896E+00	1.74642177907E+02	-5.52674954951E+01	9.95393337285E+01	-6.00067369699E+00	-7.51064551529E-01
1.27641960218E+06	-9.34420444131E+00	-1.72199550672E+02	8.00420218148E+00	1.74469274242E+02	-4.14967154290E+01	1.51589420438E+01	-5.97323554505E+00	-5.81944600734E-01
1.29861095677E+06	-1.07062762246E+01	1.78438642922E+02	7.99964083714E+00	1.74437599209E+02	-4.47678178736E+01	-3.04077658476E+01	-5.98134968631E+00	-6.66706045482E-01
1.32080231137E+06	-9.23012458512E+00	1.79506940915E+02	8.07007405566E+00	1.74046432334E+02	-4.89126877382E+01	-5.45672303059E+01	-5.97386022749E+00	-1.19099299493E+00
1.34299366596E+06	-9.53853947643E+00	-1.74477017971E+02	7.99445037240E+00	1.74039798863E+02	-4.70155439912E+01	4.81107476648E+01	-5.96949452810E+00	-7.63767727787E-01
1.36518502056E+06	-1.25730483940E+01	1.79473751535E+02	8.01737852760E+00	1.73722311468E+02	-4.43163126975E+01	3.25858148140E+01	-5.96988898574E+00	-7.33979383814E-01
1.38737637515E+06	-1.04233610385E+01	-1.66952377216E+02	7.98190256697E+00	1.73984676274E+02	-4.68558031600E+01	9.46184614833E+01	-5.95737518440E+00	-6.67395199219E-01
1.40956772975E+06	-1.14035967314E+01	-1.77822011090E+02	8.01680158163E+00	1.73580131339E+02	-4.24238040678E+01	6.98560758052E+01	-5.96951227716E+00	-6.64726419265E-01
1.43175908434E+06	-8.90757503904E+00	1.77372495064E+02	8.00441015238E+00	1.73617371054E+02	-5.09161965162E+01	-1.48320046272E+02	-5.98501391530E+00	-7.61396224954E-01
1.45395043894E+06	-1.01569211137E+01	-1.73354017905E+02	8.00750471520E+00	1.73212585061E+02	-4.61277511344E+01	1.07847807667E+02	-5.98023909612E+00	-8.11073165418E-01
1.47614179353E+06	-8.89932641016E+00	-1.78728096961E+02	8.03334775647E+00	1.73266596159E+02	-4.13710022256E+01	-1.66352999028E+01	-5.97679869123E+00	-6.92673030507E-01
1.49833314813E+06	-1.07499775705E+01	1.69415594089E+02	7.97241207890E+00	1.73115246952E+02	-4.73954494213E+01	1.11170298742E+02	-5.96404747832E+00	-7.20283928060E-01
1.52052450272E+06	-9.21560415128E+00	-1.73933999624E+02	7.99350048200E+00	1.72967603014E+02	-4.64267301548E+01	7.27075701715E+01	-5.98061951390E+00	-8.56484876703E-01
1.54271585732E+06	-9.89193119141E+00	1.63242257300E+02	8.02666640405E+00	1.72998223643E+02	-4.64947265123E+01	-2.49915784051E+01	-5.97800810562E+00	-7.92550573561E-01
1.56490721191E+06	-1.03154963625E+01	-1.71939827922E+02	8.01415495585E+00	1.72543319280E+02	-5.07216162041E+01	-9.38143168392E+01	-5.99615280407E+00	-6.21956367720E-01
1.58709856651E+06	-1.11002883936E+01	-1.70477397539E+02	8.02943834417E+00	1.72798410231E+02	-4.25403120942E+01	1.58269504684E+02	-5.97898348755E+00	-9.69954168741E-01
1.60928992110E+06	-9.68502839061E+00	-1.68602630214E+02	7.97908084540E+00	1.72593877018E+02	-4.19612291157E+01	1.58846610146E+02	-5.96015555987E+00	-8.05403371698E-01
1.63148127570E+06	-1.16526855932E+01	1.76232473905E+02	8.04169362666E+00	1.72617985768E+02	-3.90137542763E+01	-1.00472408315E+02	-5.96549678135E+00	-9.35930141061E-01
1.65367263029E+06	-1.13234672832E+01	-1.78120989549E+02	7.97253268476E+00	1.72102599007E+02	-4.25301570424E+01	1.30331139389E+02	-5.99294236690E+00	-7.79974045760E-01
1.67586398489E+06	-9.42687687865E+00	-1.73429253710E+02	8.01577937037E+00	1.72232177699E+02	-4.97873388349E+01	-1.68859830003E+01	-5.97589394713E+00	-8.09206027765E-01
1.69805533948E+06	-1.07649706900E+01	-1.73267209882E+02	7.99414750492E+00	1.72327016960E+02	-5.34431736566E+01	-1.49843454657E+02	-5.97932766217E+00	-9.95905091628E-01
1.72024669408E+06	-9.65379171454E+00	1.79886069510E+02	8.00612451294E+00	1.72065720729E+02	-4.03567491425E+01	-1.73385262875E+02	-5.96974976896E+00	-8.77918308753E-01
1.74243804867E+06	-1.13806921407E+01	1.72411897000E+02	7.98114270715E+00	1.71953418523E+02	-4.40514802083E+01	1.35752064848E+02	-5.96101154783E+00	-9.44260083071E-01
1.76462940327E+06	-1.07269035596E+01	-1.75488086432E+02	8.00096653560E+00	1.71827533544E+02	-5.17050660482E+01	-5.61319678247E+01	-5.98258284685E+00	-8.61903402492E-01
1.78682075786E+06	-9.64190813649E+00	-1.75455020469E+02	7.98827925068E+00	1.71552979497E+02	-4.71896486890E+01	1.49236727418E+02	-5.93656329842E+00	-1.01100490442E+00
1.80901211246E+06	-1.16898572735E+01	-1.68048689920E+02	8.01775134549E+00	1.71711472318E+02	-4.45546997068E+01	-1.67983851890E+01	-5.99590815472E+00	-9.22457031393E-01
1.83120346705E+06	-1.13026205233E+01	-1.76828252834E+02	7.99563575433E+00	1.71332118590E+02	-3.91739563811E+01	-3.65727557807E+01	-5.97751878166E+00	-1.11350877339E+00
1.85339482165E+06	-9.14873849180E+00	-1.69368872162E+02	8.01689841416E+00	1.71325047474E+02	-4.51903893145E+01	1.22118738290E+02	-5.97672103947E+00	-9.03271053747E-01
1.87558617624E+06	-9.78745457755E+00	1.75842491225E+02	8.01640256570E+00	1.71102835175E+02	-4.67283112214E+01	-8.44713438936E+01	-5.98109258985E+00	-8.43634860657E-01
1.89777753084E+06	-9.06683645275E+00	1.79254532928E+02	7.98469979258E+00	1.71146272926E+02	-4.79484836514E+01	-1.17336054459E+02	-5.96251685107E+00	-9.66344285469E-01
1.91996888543E+06	-9.65876514057E+00	-1.79799092493E+02	7.99985793665E+00	1.70843246777E+02	-4.27200001381E+01	1.30178402089E+02	-5.97048408982E+00	-8.33357548188E-01
1.94216024003E+06	-1.00223944129E+01	1.75447991002E+02	7.97048302477E+00	1.70826394252E+02	-4.59146471900E+01	1.66206083651E+01	-5.98223256562E+00	-9.09919270733E-01
1.96435159462E+06	-1.04089615685E+01	-1.74016128364E+02	8.00594795921E+00	1.70706204062E+02	-4.44568903997E+01	1.24725258877E+02	-5.95252395762E+00	-9.68890507239E-01
1.98654294922E+06	-9.92974056606E+00	1.75352632561E+02	8.01321945253E+00	1.70610697269E+02	-4.55975432999E+01	2.94630313639E+01	-5.97775909273E+00	-1.04048888284E+00
2.00873430381E+06	-9.65920949014E+00	-1.79051026261E+02	7.99571699180E+00	1.70548827581E+02	-4.20147852829E+01	1.13984970109E+02	-5.94373214155E+00	-8.62909941339E-01
2.03092565841E+06	-1.30992653430E+01	-1.75966848108E+02	7.97376707413E+00	1.70232189713E+02	-4.84168298601E+01	2.74567940091E+01	-5.95787872804E+00	-1.05800678708E+00
2.05311701300E+06	-8.15216257126E+00	1.78736404739E+02	7.99459015111E+00	1.70319751435E+02	-4.16923938073E+01	9.21649307803E+01	-5.95373782819E+00	-1.03405492896E+00
2.07530836760E+06	-1.03540963685E+01	-1.78045962319E+02	7.98091879699E+00	1.70192834150E+02	-4.79232060402E+01	1.25649171986E+02	-5.96539954036E+00	-9.91848353817E-01
2.09749972219E+06	-1.08657334610E+01	-1.73513361657E+02	8.02698788279E+00	1.69931822860E+02	-4.00040770525E+01	-1.01179666184E+02	-5.99828044047E+00	-1.11428639002E+00
2.11969107679E+06	-9.93407315541E+00	1.74404690621E+02	8.00529947259E+00	1.69806710976E+02	-5.67511341743E+01	6.22570475542E+01	-5.97167894242E+00	-1.02658454434E+00
2.14188243138E+06	-1.12977419596E+01	1.68918013944E+02	8.01642219094E+00	1.69800548095E+02	-6.52282866623E+01	-2.27304577765E+00	-5.96413677782E+00	-9.45226985432E-01
2.16407378598E+06	-1.07086480318E+01	1.74927621040E+02	8.01390454140E+00	1.69784883576E+02	-4.87070798447E+01	2.36535226266E+01	-5.97255975501E+00	-9.76483046189E-01
2.18626514057E+06	-1.27732230528E+01	-1.64349742319E+02	8.01276712022E+00	1.69656017376E+02	-5.12799055847E+01	-1.50104784240E+02	-5.97299484692E+00	-1.04269930252E+00
2.20845649517E+06	-1.28594174793E+01	1.73235595349E+02	7.97719315310E+00	1.69562524897E+02	-4.31851998583E+01	-8.93653760620E+01	-5.98624676381E+00	-1.17604789727E+00
2.23064784976E+06	-1.09424864136E+01	1.69599499240E+02	7.96754034183E+00	1.68985568876E+02	-4.89911937448E+01	-1.13022894221E+02	-5.96720501988E+00	-1.08021679298E+00
2.25283920436E+06	-9.85849041219E+00	1.73613273152E+02	8.01183854052E+00	1.69185097492E+02	-5.07316155024E+01	7.66175855226E+01	-5.96381818682E+00	-1.05292707306E+00
2.27503055895E+06	-9.06601808690E+00	-1.78059387911E+02	7.97947877786E+00	1.68903371828E+02	-6.08379449637E+01	1.49075124417E+02	-5.98006810800E+00	-1.02575391701E+00
2.29722191355E+06	-1.06527875192E+01	1.73251437776E+02	7.95250322989E+00	1.68896844737E+02	-4.88475092959E+01	-5.88958622895E+01	-5.96311724878E+00	-1.07127439267E+00
2.31941326814E+06	-9.02526908621E+00	1.70663143318E+02	7.98450215049E+00	1.68595225246E+02	-4.92379630811E+01	-1.49622387809E+02	-5.96681378704E+00	-1.06656714051E+00
2.34160462274E+06	-9.64480350058E+00	1.78700600870E+02	8.01512613168E+00	1.68667943723E+02	-4.57516355273E+01	-9.02964171908E+00	-5.95996838578E+00	-1.02544755925E+00
2.36379597733E+06	-1.03409557288E+01	-1.72471638755E+02	7.99723101877E+00	1.68590014169E+02	-4.90711175578E+01	6.54889487524E+00	-5.98443582932E+00	-1.02869629167E+00
2.38598733193E+06	-1.08100176185E+01	-1.76685210247E+02	8.00593264393E+00	1.68687826608E+02	-4.77874182487E+01	-2.98787600690E+01	-5.96913739189E+00	-1.27624947188E+00
2.40817868652E+06	-9.20043522682E+00	1.79111788309E+02	7.99901562958E+00	1.68351155887E+02	-4.58874495772E+01	5.71928420072E+01	-5.96316516314E+00	-1.28318713593E+00
2.43037004112E+06	-1.31874477068E+01	-1.77418744490E+02	7.97008618278E+00	1.68490021339E+02	-4.34192459092E+01	-1.14129005785E+02	-5.97119899343E+00	-1.30314391787E+00
2.45256139571E+06	-1.04139804026E+01	-1.75681454711E+02	7.94481719495E+00	1.68146454707E+02	-4.42251336878E+01	-1.74821147438E+02	-5.97134893767E+00	-1.09257836672E+00
2.47475275031E+06	-1.17345914677E+01	1.75234796772E+02	8.00510284339E+00	1.68174325811E+02	-4.29681363731E+01	-8.91163007135E+01	-5.96311693968E+00	-1.34523183444E+00
2.49694410490E+06	-9.80071589433E+00	1.66276574019E+02	8.02743533176E+00	1.67677994928E+02	-4.95156355849E+01	8.52643628709E+01	-5.98036122486E+00	-1.16515747089E+00
2.51913545950E+06	-9.72975095646E+00	1.69314014202E+02	8.02486437461E+00	1.67841097645E+02	-4.87885022100E+01	-1.19464342899E+02	-5.97479468167E+00	-1.14117007077E+00
2.54132681409E+06	-1.19256528463E+01	-1.67226813109E+02	8.02880323670E+00	1.67597341795E+02	-5.20212803348E+01	-1.38989636248E+02	-5.97065693358E+00	-1.15333506958E+00
2.56351816869E+06	-9.38236577646E+00	1.76624838449E+02	8.00217443083E+00	1.67517558857E+02	-4.66962673375E+01	1.12670563452E+02	-5.96929050003E+00	-1.18600751506E+00
2.58570952328E+06	-1.03175280914E+01	1.70140701191E+02	8.02876702933E+00	1.67472923905E+02	-4.63923216791E+01	-1.43636349609E+02	-5.99014012116E+00	-1.20645920186E+00
2.60790087788E+06	-8.63335413526E+00	1.75574620649E+02	8.04091156513E+00	1.67119726204E+02	-4.11574533825E+01	-7.72442936614E+01	-5.96109631123E+00	-1.10394829608E+00
2.63009223247E+06	-9.26260226965E+00	-1.76831619509E+02	7.99272690800E+00	1.67175683634E+02	-4.11566251082E+01	8.60733930700E+01	-5.95410688168E+00	-1.03281356283E+00
2.65228358707E+06	-9.98287440744E+00	1.75907583016E+02	8.00480056411E+00	1.67250960225E+02	-4.65432957546E+01	-9.95737386667E+01	-5.96213278713E+00	-1.55360797648E+00
2.67447494166E+06	-8.78022860417E+00	1.78438837627E+02	8.01755211780E+00	1.67156301910E+02	-4.67656442068E+01	7.13429263044E+01	-5.94744229884E+00	-1.27832519329E+00
2.69666629626E+06	-1.05174706335E+01	1.79291827026E+02	8.02231425886E+00	1.67220713235E+02	-5.04987001213E+01	-1.71031312149E+02	-5.94720473944E+00	-1.24790365183E+00
2.71885765085E+06	-1.02865980438E+01	-1.72502944878E+02	8.01685557535E+00	1.67045322527E+02	-5.73093934145E+01	-1.71458047173E+02	-5.93175972498E+00	-1.21525927499E+00
2.74104900545E+06	-9.41106564907E+00	-1.75570153540E+02	8.01780567815E+00	1.66744067294E+02	-4.86747743841E+01	5.76244083755E+01	-5.97070302930E+00	-1.26783430273E+00
2.76324036004E+06	-1.14997669935E+01	1.72405526041E+02	8.01243836883E+00	1.66362308606E+02	-4.57782990745E+01	1.24058529562E+02	-5.95133503166E+00	-1.32777125787E+00
2.78543171463E+06	-1.04248350770E+01	-1.72961152982E+02	7.95781663260E+00	1.66673735229E+02	-4.88255140300E+01	-6.14628565520E+01	-5.97036126706E+00	-1.30901195544E+00
2.80762306923E+06	-1.10375450591E+01	1.69475840377E+02	7.97719974697E+00	1.66725310979E+02	-4.14426946409E+01	3.34935101991E+01	-5.95427083757E+00	-1.30868822007E+00
2.82981442382E+06	-1.13947439334E+01	-1.78865089969E+02	8.02459745768E+00	1.66419074561E+02	-4.44052316865E+01	-2.94292907767E+01	-5.98176059050E+00	-1.35439287025E+00
2.85200577842E+06	-9.85536711585E+00	-1.76329185882E+02	8.04510789830E+00	1.66075301414E+02	-5.54995039079E+01	-5.62076509559E+01	-5.95985805523E+00	-1.35829766667E+00
2.87419713301E+06	-1.11055814796E+01	-1.79129821500E+02	7.99544675702E+00	1.66010474875E+02	-4.59357958071E+01	-5.71621822904E+01	-5.96745888793E+00	-1.38433460345E+00
