# Hz S DB R 50
! CMT, M5065, 19127446, 24.2.4/2
! Date: 10/29/2024 12:38:55 PM
! Data: Format (Calibration Info)
! Freq	S11:dB/Ang(F2)	S21:dB/Ang(F2)	S12:dB/Ang(F2)	S22:dB/Ang(F2)
3.00000000000E+05	-1.05358210545E+01	1.75981373656E+02	1.35420727159E+01	-1.78158099572E+02	-4.47836573654E+01	-1.19758269521E+02	-5.98626562588E+00	-3.69795980373E-01
3.22191354595E+05	-1.03650873486E+01	1.63855067209E+02	1.35750252115E+01	-1.78461343640E+02	-3.71247485699E+01	-1.30545613891E+02	-5.99519781746E+00	-1.39847750172E-01
3.44382709190E+05	-8.07861702199E+00	1.65492231038E+02	1.35441081636E+01	-1.78680997211E+02	-5.28553028950E+01	-1.79430100542E+02	-5.99936956233E+00	-4.60186292801E-01
3.66574063785E+05	-1.16715989599E+01	1.56404496639E+02	1.35858212286E+01	-1.79256882470E+02	-5.01276632355E+01	-5.44343999568E+00	-5.98370583463E+00	-2.59080851383E-01
3.88765418380E+05	-1.32603037106E+01	-1.78592128399E+02	1.35996216571E+01	-1.79492441899E+02	-4.62979268103E+01	-1.96068545243E+01	-5.93020064389E+00	-4.92119000062E-01
4.10956772975E+05	-1.13299687080E+01	-1.59106103124E+02	1.35945553304E+01	-1.79838890119E+02	-4.29154258376E+01	4.60519073993E+01	-5.97711871517E+00	-2.43777365513E-01
4.33148127570E+05	-8.31690542323E+00	1.60712755125E+02	1.36234286573E+01	1.79689384071E+02	-3.43004364912E+01	-9.11861633793E+01	-5.98111789551E+00	-2.98017809651E-01
4.55339482165E+05	-7.81930002969E+00	-1.67638802012E+02	1.36270136691E+01	1.79618882781E+02	-4.17516856350E+01	-1.30145910285E+02	-5.98287781567E+00	-4.06602107017E-03
4.77530836760E+05	-9.44197118218E+00	1.48045619340E+02	1.36057634914E+01	1.79168893457E+02	-4.28330485496E+01	-7.06855842983E+01	-5.98289566500E+00	-2.87815222378E-01
4.99722191355E+05	-9.06550854174E+00	-1.62897095801E+02	1.35865799374E+01	1.78988480005E+02	-4.25191398815E+01	-7.57996449419E+01	-5.99570197239E+00	-3.34747492877E-01
5.21913545950E+05	-9.27580206304E+00	1.79432525696E+02	1.36052896321E+01	1.78725273816E+02	-3.56049784123E+01	9.37471670652E+01	-5.95211198559E+00	-2.59794015795E-01
5.44104900545E+05	-9.09987763546E+00	-1.50496355918E+02	1.36135869043E+01	1.78769067518E+02	-4.35758054482E+01	-1.34078210462E+02	-5.99587468380E+00	-6.83804248697E-01
5.66296255139E+05	-1.36867599091E+01	1.75597810384E+02	1.36034361130E+01	1.78344921414E+02	-4.03400064999E+01	1.22279969019E+02	-5.95185007804E+00	-3.85879327785E-02
5.88487609734E+05	-1.06998011328E+01	1.66862543140E+02	1.35284707128E+01	1.78160129720E+02	-3.81230946376E+01	1.35245052716E+02	-6.00674313075E+00	-6.63039737245E-01
6.10678964329E+05	-1.01659792135E+01	-1.65205746988E+02	1.35629254105E+01	1.77556071007E+02	-3.70100510099E+01	1.43869105147E+02	-5.97789377856E+00	-1.09479040143E-01
6.32870318924E+05	-6.88330983204E+00	-1.68594463907E+02	1.36207327451E+01	1.77516397860E+02	-3.93167289890E+01	6.20591606936E+01	-5.95963157301E+00	-3.56971300288E-01
6.55061673519E+05	-1.61605815003E+01	-1.60338530169E+02	1.35991832136E+01	1.77197988796E+02	-3.93725250821E+01	4.28108540112E+01	-5.97634254013E+00	-2.00681981762E-01
6.77253028114E+05	-7.70653944029E+00	-1.63123630300E+02	1.36132223738E+01	1.77353395665E+02	-4.12321787734E+01	7.05564038938E+01	-6.00716398294E+00	-7.48287806005E-01
6.99444382709E+05	-1.23012492828E+01	1.43404323328E+02	1.36064916370E+01	1.76588925065E+02	-3.92837336868E+01	3.68027532792E+01	-5.98373476609E+00	-4.11967256957E-01
7.21635737304E+05	-9.27944964086E+00	-1.59940783508E+02	1.36374536302E+01	1.76797201355E+02	-3.93304853254E+01	-5.44121336666E+01	-6.06118487754E+00	-4.29107531732E-01
7.43827091899E+05	-1.08269602996E+01	1.79684478169E+02	1.35862208081E+01	1.76482182180E+02	-3.68742771044E+01	-1.30425628303E+02	-5.95946669651E+00	-6.54317860040E-01
7.66018446494E+05	-1.06336605211E+01	-1.64120497090E+02	1.35861105485E+01	1.76153019006E+02	-3.60731495181E+01	-9.25571754850E+01	-5.99324482796E+00	-5.66450733343E-01
7.88209801089E+05	-8.32162274546E+00	1.58816701185E+02	1.36472092441E+01	1.76148825059E+02	-6.10040590969E+01	5.54398230240E+01	-5.96639958632E+00	-7.19862599098E-01
8.10401155684E+05	-6.92633148130E+00	-1.78930848213E+02	1.36448000853E+01	1.75948884404E+02	-3.71006880159E+01	1.75508689509E+02	-5.98617937352E+00	-8.75192993619E-01
8.32592510279E+05	-9.41092231579E+00	-1.67794069068E+02	1.35901157552E+01	1.75905502220E+02	-3.70417248404E+01	-6.40270109024E+01	-6.01371543263E+00	-3.83545143726E-01
8.54783864874E+05	-7.25226054685E+00	-1.68862220245E+02	1.36410767446E+01	1.75671477687E+02	-4.79772036267E+01	8.59121249401E+01	-5.92596911465E+00	-6.59053208182E-01
8.76975219469E+05	-1.03289463481E+01	1.79610001082E+02	1.36087249680E+01	1.75382679755E+02	-3.24958865543E+01	-1.71570466429E+02	-5.97928347486E+00	-4.08015081973E-01
8.99166574064E+05	-1.22175401056E+01	-1.73852372157E+02	1.36046189496E+01	1.75032895851E+02	-3.56088360111E+01	-6.09305124841E+01	-5.94355286812E+00	-4.07013547453E-01
9.21357928659E+05	-1.03806598002E+01	-1.76137039532E+02	1.36477929508E+01	1.74838385351E+02	-3.56894665163E+01	-1.09321094693E+01	-5.94751865524E+00	-6.58197779041E-01
9.43549283254E+05	-9.22905379446E+00	-1.62580230481E+02	1.36183369760E+01	1.74754182918E+02	-4.57167415105E+01	-1.79604410806E+02	-6.01311780961E+00	-8.29340543436E-01
9.65740637849E+05	-1.11238933274E+01	1.70153195588E+02	1.36133937538E+01	1.74595436025E+02	-4.36676166020E+01	-9.22807447419E+01	-6.00245715445E+00	-6.99354518301E-01
9.87931992444E+05	-1.05387432679E+01	-1.75527709677E+02	1.36023239085E+01	1.74495886040E+02	-3.53280020137E+01	-1.14293598385E+02	-5.96118993149E+00	-7.55446366647E-01
1.01012334704E+06	-7.06408129502E+00	1.70573328480E+02	1.35499220499E+01	1.74381775338E+02	-4.86970012027E+01	-6.48825433813E+01	-5.96082418067E+00	-5.96609174945E-01
1.03231470163E+06	-8.36030783298E+00	1.72102052334E+02	1.36102429025E+01	1.73921906201E+02	-3.69932748993E+01	1.68042182899E+02	-5.99770407196E+00	-5.21836788237E-01
1.05450605623E+06	-8.30610059529E+00	1.65521753570E+02	1.35993713312E+01	1.73878745626E+02	-5.32563301189E+01	1.35885288906E+02	-5.96433781506E+00	-4.87155699277E-01
1.07669741082E+06	-1.06703285132E+01	-1.57199114290E+02	1.36076176806E+01	1.73756004382E+02	-4.18483876606E+01	1.79117251366E+02	-5.98146974763E+00	-8.99913297844E-01
1.09888876542E+06	-9.23258040637E+00	1.68508275563E+02	1.36386909982E+01	1.73623623009E+02	-4.74678216242E+01	-2.90893971231E+01	-6.00287386806E+00	-5.59928740896E-01
1.12108012001E+06	-1.00115817442E+01	1.71828405496E+02	1.35810227764E+01	1.73474128537E+02	-3.96243434479E+01	-1.67991651472E+02	-5.92106501837E+00	-7.42421456072E-01
1.14327147461E+06	-7.48702700231E+00	1.74349422222E+02	1.35688168508E+01	1.73246781121E+02	-4.54259860747E+01	-1.21253179314E+02	-5.98091363803E+00	-5.32100996188E-01
1.16546282920E+06	-1.34382688848E+01	1.75929401342E+02	1.36863889590E+01	1.73097606996E+02	-4.92484773823E+01	1.70226907211E+02	-5.99759360503E+00	-6.08569450219E-01
1.18765418380E+06	-1.10748318335E+01	-1.68460843287E+02	1.36143722678E+01	1.73005189367E+02	-4.05390009416E+01	4.04394065797E+01	-5.93593521979E+00	-8.01480358570E-01
1.20984553839E+06	-1.37014446949E+01	1.73732856698E+02	1.36473265380E+01	1.72577529172E+02	-4.21324610619E+01	1.03468209415E+02	-5.97846411477E+00	-9.25044397744E-01
1.23203689299E+06	-1.20942214739E+01	-1.77992916733E+02	1.36076994626E+01	1.72463736758E+02	-3.78736423990E+01	1.21892831091E+02	-5.97261132993E+00	-4.85115870176E-01
1.25422824758E+06	-1.56688815202E+01	-1.74874443169E+02	1.36035341882E+01	1.72387619867E+02	-3.81530368676E+01	-1.42360555327E+02	-5.99419722600E+00	-4.67114897614E-01
1.27641960218E+06	-1.17151437716E+01	-1.75043649932E+02	1.36048382551E+01	1.72145572097E+02	-4.00900556387E+01	-1.47813629592E+02	-5.96101631687E+00	-5.94880045919E-01
1.29861095677E+06	-9.13331087373E+00	-1.68929760457E+02	1.35608451627E+01	1.72134906155E+02	-4.44813574960E+01	8.79674329111E+01	-6.00227043756E+00	-6.77897290884E-01
1.32080231137E+06	-8.51704316965E+00	-1.59828138198E+02	1.36577646786E+01	1.72558280130E+02	-3.78259295176E+01	1.22375518972E+02	-5.92560657268E+00	-1.07451257726E+00
1.34299366596E+06	-7.94035693844E+00	1.71283769727E+02	1.35908315574E+01	1.71759354348E+02	-3.48452123575E+01	1.23814050189E+02	-6.02809171008E+00	-1.07640711312E+00
1.36518502056E+06	-1.04680096240E+01	1.73247303865E+02	1.35749123483E+01	1.71626661508E+02	-5.88037640486E+01	3.30343936678E+01	-5.97313396190E+00	-9.98789915985E-01
1.38737637515E+06	-8.79316943844E+00	-1.61319461042E+02	1.35915771939E+01	1.71254685985E+02	-3.72030516473E+01	1.07803653532E+02	-5.98540151967E+00	-6.87784324139E-01
1.40956772975E+06	-8.72417337589E+00	-1.75216202080E+02	1.35937852876E+01	1.71332887974E+02	-4.08137196369E+01	1.43837367516E+02	-5.95292137566E+00	-8.73844442402E-01
1.43175908434E+06	-6.84167507177E+00	-1.79947480509E+02	1.35870365561E+01	1.70842694378E+02	-4.45994722150E+01	5.44035010362E+01	-5.96631756223E+00	-7.28318041896E-01
1.45395043894E+06	-9.99084656641E+00	1.73374601545E+02	1.36310812290E+01	1.70670776225E+02	-3.80664716890E+01	-3.23412328726E+00	-5.95426001304E+00	-5.33768077693E-01
1.47614179353E+06	-1.03337273630E+01	-1.44485129789E+02	1.36649340686E+01	1.70494163333E+02	-3.58574046248E+01	3.15266569792E+01	-5.94602164767E+00	-7.50033858241E-01
1.49833314813E+06	-1.26328060458E+01	-1.54156486820E+02	1.36376509074E+01	1.70490829161E+02	-3.97228495833E+01	-1.55702935449E+02	-6.05455923784E+00	-9.29928699185E-01
1.52052450272E+06	-1.15566631798E+01	1.69977220722E+02	1.36070700409E+01	1.70376044779E+02	-4.56687135587E+01	2.28660000381E+01	-5.96148262619E+00	-7.34144632542E-01
1.54271585732E+06	-8.27703091185E+00	1.75522907617E+02	1.35703133011E+01	1.70143905547E+02	-3.37611930442E+01	9.53471987674E+01	-5.95796566368E+00	-7.43558050310E-01
1.56490721191E+06	-1.28987975196E+01	1.75402474338E+02	1.35703563816E+01	1.69843401208E+02	-3.57384008428E+01	1.17254099745E+02	-5.98349710326E+00	-6.37922435148E-01
1.58709856651E+06	-1.21055365478E+01	1.70671876123E+02	1.35886487961E+01	1.70094375912E+02	-3.24105473958E+01	4.67616140056E+01	-5.93707880046E+00	-7.43461467152E-01
1.60928992110E+06	-1.39420232644E+01	1.60066022856E+02	1.36145825430E+01	1.69813871027E+02	-5.75198540219E+01	8.32073835955E+01	-5.99572647834E+00	-7.43946075837E-01
1.63148127570E+06	-9.88178623401E+00	-1.74123443000E+02	1.36491800533E+01	1.69632012890E+02	-5.00410145843E+01	-2.73281634893E+00	-5.99729805551E+00	-1.16460278944E+00
1.65367263029E+06	-7.28989576131E+00	1.71092497245E+02	1.36388579517E+01	1.69354602646E+02	-3.78352295637E+01	4.97176012382E+01	-5.93284534595E+00	-1.10519651176E+00
1.67586398489E+06	-8.68608834214E+00	-1.68381728552E+02	1.35993289438E+01	1.69188472217E+02	-4.59772241861E+01	-1.00636394085E+02	-5.98853598981E+00	-9.63021149819E-01
1.69805533948E+06	-9.22099253929E+00	-1.75093154166E+02	1.35743735687E+01	1.69343276674E+02	-4.59762690403E+01	-2.19103920411E+01	-5.96633877998E+00	-9.36775800282E-01
1.72024669408E+06	-9.51334798690E+00	1.78883858462E+02	1.35413500334E+01	1.69047622956E+02	-4.61721339403E+01	1.38073394105E+02	-5.98843722872E+00	-9.07404445663E-01
1.74243804867E+06	-8.29270212756E+00	-1.72358826108E+02	1.36121139510E+01	1.68862378941E+02	-4.09801173068E+01	3.77727170377E+01	-5.98593386787E+00	-8.99814569293E-01
1.76462940327E+06	-9.66247169351E+00	-1.71117878555E+02	1.35805936089E+01	1.68507899340E+02	-3.49529704694E+01	-4.87994585254E+01	-5.96364857083E+00	-9.33243112574E-01
1.78682075786E+06	-8.91016596003E+00	-1.71909919507E+02	1.35688352782E+01	1.68618512835E+02	-3.85953483788E+01	1.11700715859E+02	-5.95589118519E+00	-1.08941860361E+00
1.80901211246E+06	-8.78440491548E+00	1.74228770695E+02	1.35918726047E+01	1.68076749667E+02	-4.34060053934E+01	1.72348494505E+02	-6.11852680278E+00	-7.52032299919E-01
1.83120346705E+06	-1.11606271386E+01	1.69659659324E+02	1.35708238252E+01	1.68259893682E+02	-3.83822047649E+01	8.33920033664E+01	-5.96089774374E+00	-7.68332020312E-01
1.85339482165E+06	-8.09920111620E+00	-1.77830416327E+02	1.35783782892E+01	1.67760480838E+02	-4.19161942972E+01	-2.58535140256E-01	-5.96608726563E+00	-9.99697605061E-01
1.87558617624E+06	-1.25460031349E+01	-1.67570775870E+02	1.35966077141E+01	1.68081884126E+02	-4.45904199694E+01	-2.87553883522E+01	-5.97595030560E+00	-9.26092731225E-01
1.89777753084E+06	-9.93100337075E+00	-1.67157630228E+02	1.35902436859E+01	1.67748479779E+02	-3.78515354408E+01	5.18001024671E+00	-5.97727591474E+00	-1.07853922842E+00
1.91996888543E+06	-7.98352640012E+00	1.76951471170E+02	1.35816017160E+01	1.67599544627E+02	-4.27206350526E+01	-6.59486755561E+00	-5.95618896220E+00	-8.89220648745E-01
1.94216024003E+06	-1.40916751484E+01	1.66461438868E+02	1.36078365522E+01	1.67042078078E+02	-3.28517620130E+01	1.25031142403E+02	-5.96056867126E+00	-8.24810782854E-01
1.96435159462E+06	-8.88010581905E+00	1.76086255731E+02	1.35724084450E+01	1.67062784366E+02	-4.20339706187E+01	9.98183076847E+01	-5.94453972748E+00	-1.01198278989E+00
1.98654294922E+06	-9.78863167821E+00	1.73454265083E+02	1.35781260014E+01	1.67085293430E+02	-4.66690306487E+01	6.21207840316E+01	-5.97746463981E+00	-1.17238002413E+00
2.00873430381E+06	-7.96455585414E+00	1.74020175168E+02	1.35761650038E+01	1.66832321468E+02	-4.53141421350E+01	-3.75948523970E+00	-6.00611655356E+00	-1.04182287341E+00
2.03092565841E+06	-7.75106592199E+00	-1.71847224899E+02	1.36065214994E+01	1.67009478886E+02	-3.65187589519E+01	-1.16778799066E+02	-5.96326842952E+00	-1.12164129801E+00
2.05311701300E+06	-1.29004524790E+01	1.61926883375E+02	1.35961114130E+01	1.66665042496E+02	-3.69463039895E+01	-1.16244866216E+02	-5.99750136521E+00	-7.69288343414E-01
2.07530836760E+06	-7.01014123574E+00	-1.67665440758E+02	1.35932942921E+01	1.66293337136E+02	-4.06071165609E+01	1.28908838531E+02	-5.95656537834E+00	-8.19369580590E-01
2.09749972219E+06	-1.75094254383E+01	-1.61081628543E+02	1.35924228291E+01	1.66037255595E+02	-4.56682465846E+01	3.39770616740E+01	-6.01960769763E+00	-1.24531765628E+00
2.11969107679E+06	-1.05908568976E+01	-1.65508795191E+02	1.36365812054E+01	1.66559028808E+02	-3.77722751255E+01	-1.42976862386E+02	-6.07442096343E+00	-1.38749130178E+00
2.14188243138E+06	-1.14367653029E+01	1.66944466767E+02	1.35637219688E+01	1.66057177651E+02	-5.51725727818E+01	-1.69614214271E+02	-5.96336533181E+00	-1.13132008191E+00
2.16407378598E+06	-1.22319254486E+01	-1.62793629704E+02	1.35951361480E+01	1.65975135908E+02	-4.92044009672E+01	4.19739295512E+01	-5.96795846202E+00	-1.12668102190E+00
2.18626514057E+06	-7.05366965248E+00	1.78308968603E+02	1.35899991751E+01	1.65892902868E+02	-3.74472531047E+01	4.81965015092E+00	-5.95152122227E+00	-1.17196655085E+00
2.20845649517E+06	-1.02611442997E+01	-1.64551724349E+02	1.36002709295E+01	1.65760951080E+02	-4.36752546434E+01	-4.07300342178E+01	-5.96785776467E+00	-1.29186262183E+00
2.23064784976E+06	-7.41892801804E+00	1.73210259229E+02	1.35616496832E+01	1.65432738510E+02	-4.70901611147E+01	1.28418761910E+02	-5.91520297623E+00	-1.13319658564E+00
2.25283920436E+06	-1.08029399208E+01	-1.68513465838E+02	1.35992895310E+01	1.65744039126E+02	-4.55081415897E+01	-1.63163026819E+02	-5.95329300204E+00	-1.26400159061E+00
2.27503055895E+06	-1.07047941161E+01	1.72423467064E+02	1.35539972074E+01	1.64782309559E+02	-4.13853542475E+01	8.18474301504E+01	-6.00028844681E+00	-4.39268633089E-01
2.29722191355E+06	-7.91034087317E+00	-1.54901435078E+02	1.35911192201E+01	1.65029687878E+02	-3.09295468329E+01	1.43332811428E+01	-5.97783702273E+00	-1.11461896831E+00
2.31941326814E+06	-8.67023800817E+00	-1.79624871587E+02	1.36051182957E+01	1.64961154282E+02	-5.03392708273E+01	-1.66265607196E+02	-5.95793234676E+00	-9.65569741528E-01
2.34160462274E+06	-9.95214834301E+00	-1.62675799060E+02	1.35928170695E+01	1.64677279684E+02	-3.35904468316E+01	-4.31286726763E+01	-5.93953734987E+00	-8.58138286645E-01
2.36379597733E+06	-1.29416354205E+01	-1.75259830410E+02	1.36227081682E+01	1.64047066284E+02	-4.15764061581E+01	1.30388190619E+02	-5.96552941728E+00	-1.10632235527E+00
2.38598733193E+06	-1.09479269127E+01	-1.67644433610E+02	1.35832031074E+01	1.64327518536E+02	-4.24195873064E+01	1.46984007137E+02	-5.99558774367E+00	-1.22434258380E+00
2.40817868652E+06	-7.08449387448E+00	1.79178578432E+02	1.35794445301E+01	1.64103786610E+02	-3.92380740590E+01	7.45598541840E+01	-5.98571513033E+00	-1.22769174631E+00
2.43037004112E+06	-9.89510915145E+00	-1.77791458323E+02	1.35487088666E+01	1.63983335424E+02	-4.15390471102E+01	-1.00181818142E+02	-5.94461019987E+00	-1.82363315078E+00
2.45256139571E+06	-9.50596204742E+00	-1.63600683783E+02	1.35924826016E+01	1.63847367074E+02	-4.42130678498E+01	-3.64047943699E+01	-5.99082002540E+00	-9.81142863641E-01
2.47475275031E+06	-8.87861256293E+00	1.63043395944E+02	1.35681871192E+01	1.63684782123E+02	-4.28837954874E+01	-1.67898028892E+02	-5.96211644995E+00	-1.21247251382E+00
2.49694410490E+06	-9.07903102622E+00	1.58602733209E+02	1.36030788317E+01	1.63528575712E+02	-3.61787603430E+01	-1.03534599898E+02	-5.98243363513E+00	-1.04638301989E+00
2.51913545950E+06	-9.12449593308E+00	-1.64761288763E+02	1.35714792195E+01	1.63530705883E+02	-4.06012471565E+01	-1.12053423634E+02	-5.97758988523E+00	-1.34553052725E+00
2.54132681409E+06	-9.54237481884E+00	1.55654576992E+02	1.36038473155E+01	1.63408966627E+02	-3.73910789219E+01	-1.32243959422E+02	-5.98925197442E+00	-8.81655825115E-01
2.56351816869E+06	-8.40725703096E+00	-1.78192023591E+02	1.35772830509E+01	1.63005174484E+02	-3.40615891379E+01	6.26320156837E+01	-5.98311916801E+00	-1.35735556163E+00
2.58570952328E+06	-1.07089310594E+01	-1.64594539823E+02	1.36356423863E+01	1.63437297508E+02	-4.46406379483E+01	6.38517612440E+00	-6.01917730917E+00	-8.60085459910E-01
2.60790087788E+06	-9.30716607819E+00	1.67760808011E+02	1.35550990671E+01	1.62753911796E+02	-4.50445686391E+01	4.64971646617E+01	-5.96951824376E+00	-1.07675481774E+00
2.63009223247E+06	-9.36595460865E+00	-1.72481198113E+02	1.35993026048E+01	1.62380214629E+02	-3.71387982657E+01	1.11932845134E+01	-5.94392842774E+00	-1.41398490133E+00
2.65228358707E+06	-1.31658553335E+01	-1.59014398841E+02	1.36005538368E+01	1.62638344871E+02	-3.68160000582E+01	1.35506855571E+02	-5.95420302390E+00	-1.71517890890E+00
2.67447494166E+06	-6.49557010811E+00	-1.60963591606E+02	1.35999228493E+01	1.62199844615E+02	-3.85868030027E+01	1.59061707749E+02	-5.95991024961E+00	-1.40867978090E+00
2.69666629626E+06	-1.01653351389E+01	-1.78077850129E+02	1.35700206912E+01	1.62401891317E+02	-3.98707764848E+01	7.63612170277E+00	-5.96051998069E+00	-1.18914347758E+00
2.71885765085E+06	-1.03458820344E+01	-1.54641406702E+02	1.35901600095E+01	1.62100715653E+02	-3.60377948363E+01	7.91903454840E+01	-5.96627878626E+00	-1.39731887027E+00
2.74104900545E+06	-1.16554651894E+01	1.71661343462E+02	1.36034092334E+01	1.62150022767E+02	-3.99021555133E+01	4.21211703469E+01	-5.93203203175E+00	-1.14230650961E+00
2.76324036004E+06	-7.27177279601E+00	-1.68683224285E+02	1.35942521535E+01	1.62094810780E+02	-4.46204338072E+01	-1.44960433122E+02	-5.97304463590E+00	-1.15812054061E+00
2.78543171463E+06	-9.30673227350E+00	1.77191235366E+02	1.35866146654E+01	1.61706257010E+02	-4.52484148875E+01	-1.05844985140E+02	-5.99635605849E+00	-1.05616642227E+00
2.80762306923E+06	-1.08895490546E+01	1.74982562435E+02	1.35973205817E+01	1.61151043759E+02	-4.30477609109E+01	-1.24838007474E+02	-5.94959468740E+00	-1.28442480301E+00
2.82981442382E+06	-1.02420060582E+01	-1.79799025842E+02	1.35849371191E+01	1.61295287317E+02	-4.17076267964E+01	5.66944120178E+01	-5.93201474263E+00	-1.21578297231E+00
2.85200577842E+06	-1.40949888445E+01	-1.57097912652E+02	1.36091353330E+01	1.61288656389E+02	-4.65409513655E+01	-4.22545580671E+01	-5.92808145083E+00	-1.50622589375E+00
2.87419713301E+06	-9.84767783745E+00	-1.64854450513E+02	1.35407012469E+01	1.60876677517E+02	-3.97990360932E+01	-6.43320843692E+00	-5.98087655579E+00	-1.68832143185E+00
