# Hz S DB R 50
! CMT, M5065, 19127446, 24.2.4/2
! Date: 10/29/2024 12:45:24 PM
! Data: Format (Calibration Info)
! Freq	S11:dB/Ang(F2)	S21:dB/Ang(F2)	S12:dB/Ang(F2)	S22:dB/Ang(F2)
3.00000000000E+05	-9.85555096831E+00	-1.53989482713E+02	1.79649013405E+01	-1.77808338185E+02	-4.09757167155E+01	-1.54341372678E+02	-5.99168046430E+00	-3.39906869098E-01
3.22191354595E+05	-1.03945646608E+01	-1.45354439888E+02	1.79319439548E+01	-1.78235342272E+02	-3.70396350299E+01	-8.73365709779E+01	-5.97735304446E+00	-2.45070934993E-01
3.44382709190E+05	-9.46194821338E+00	-1.64743928820E+02	1.79683656804E+01	-1.78592648716E+02	-3.86066726771E+01	-1.10458680017E+01	-5.95730508022E+00	-2.83203263240E-01
3.66574063785E+05	-1.12361786154E+01	-1.73142946927E+02	1.79859786156E+01	-1.79514184784E+02	-4.14262367573E+01	1.46693207128E+02	-5.99735063017E+00	-5.03968599067E-01
3.88765418380E+05	-1.05986867525E+01	-1.69919275874E+02	1.79311953084E+01	-1.79514283162E+02	-4.12359473185E+01	1.11666020390E+02	-5.95506281285E+00	-5.90292698838E-02
4.10956772975E+05	-7.72331216525E+00	-1.78619358895E+02	1.79895913914E+01	1.79848211993E+02	-4.92957460266E+01	-1.64547854222E+02	-5.97120711909E+00	-4.54822356198E-01
4.33148127570E+05	-1.24757405833E+01	-1.64215866566E+02	1.79514251070E+01	1.79667406204E+02	-3.94659638835E+01	-2.12148555954E+01	-5.97852967530E+00	-5.30310975683E-01
4.55339482165E+05	-1.28696202495E+01	-1.61580963902E+02	1.79724038797E+01	1.78918878652E+02	-4.98752126802E+01	1.49409218064E+02	-5.96833567303E+00	-5.41687800943E-01
4.77530836760E+05	-1.55281733889E+01	1.68330694251E+02	1.79568550324E+01	1.78758486094E+02	-4.85816398381E+01	-5.14913497873E+01	-5.99635219338E+00	-7.71049158709E-01
4.99722191355E+05	-1.12235387626E+01	-1.78707153602E+02	1.79299358219E+01	1.78235791397E+02	-4.52287723585E+01	4.46686743127E+01	-5.97117322754E+00	-6.30007047520E-01
5.21913545950E+05	-9.53116795153E+00	1.77338700427E+02	1.79744501092E+01	1.78010138697E+02	-5.04912598905E+01	-9.55199969953E+01	-5.98626021409E+00	-7.54906902177E-01
5.44104900545E+05	-8.71572674089E+00	-1.64336287600E+02	1.80001418605E+01	1.77795417407E+02	-4.86704690903E+01	-2.94886153192E+01	-5.98554880084E+00	-5.85807515037E-01
5.66296255139E+05	-8.46821317265E+00	-1.68511605431E+02	1.80264473913E+01	1.77544529744E+02	-4.66154015839E+01	1.61638224086E+01	-5.96485145527E+00	-2.71031054615E-01
5.88487609734E+05	-5.57767048681E+00	1.74831784350E+02	1.80436628430E+01	1.77303982936E+02	-4.71626021006E+01	1.69098890020E+02	-5.99155356536E+00	-1.59105716436E-01
6.10678964329E+05	-9.11750391274E+00	-1.71642873357E+02	1.79729073221E+01	1.76774047593E+02	-5.48627318193E+01	1.17487166636E+02	-5.96112790884E+00	-7.19429097703E-02
6.32870318924E+05	-9.20519461009E+00	1.78333310768E+02	1.79484905973E+01	1.76423391351E+02	-4.09530912810E+01	1.72491539329E+02	-5.98600937647E+00	-4.83702303171E-01
6.55061673519E+05	-7.89932774899E+00	-1.79004386046E+02	1.79993282088E+01	1.76237844384E+02	-4.39696868121E+01	-7.52058222054E+01	-6.02937473631E+00	-3.73886932987E-01
6.77253028114E+05	-1.21478589626E+01	-1.61974380344E+02	1.80068879500E+01	1.76009399266E+02	-4.31170839326E+01	4.93822686652E+01	-5.99151154207E+00	-8.03729789779E-01
6.99444382709E+05	-9.86576655207E+00	1.67148040194E+02	1.79724737456E+01	1.75362193619E+02	-4.52106593600E+01	-5.00990756064E+01	-5.97735483388E+00	-4.30362883952E-01
7.21635737304E+05	-9.37477985434E+00	-1.71627191326E+02	1.79561433778E+01	1.75389828199E+02	-3.98468990025E+01	1.00284393540E+02	-6.01808281478E+00	-3.45061578933E-01
7.43827091899E+05	-9.34054353835E+00	1.79418920374E+02	1.79355543191E+01	1.74989504418E+02	-4.08510364944E+01	8.60336677496E+01	-5.96924643309E+00	-5.29863542357E-01
7.66018446494E+05	-9.66788471096E+00	1.78699646825E+02	1.79549478403E+01	1.74715437629E+02	-4.18356494563E+01	-9.27038741072E+00	-5.91292323486E+00	-8.37665731624E-01
7.88209801089E+05	-1.08054845750E+01	-1.73887998717E+02	1.79905687216E+01	1.74705873602E+02	-4.48309160489E+01	-1.61796578702E+02	-5.95051262286E+00	-5.17282629104E-01
8.10401155684E+05	-1.19879118573E+01	-1.67862139121E+02	1.79518075790E+01	1.74455493403E+02	-4.26931180000E+01	-1.62364604556E+02	-5.97498438333E+00	-8.88895603915E-01
8.32592510279E+05	-1.02863513701E+01	-1.55150278262E+02	1.79783044592E+01	1.73986815099E+02	-3.84742985708E+01	-2.65617931947E+01	-5.93892193108E+00	-2.62340139599E-01
8.54783864874E+05	-8.23337433390E+00	1.74640280593E+02	1.79929549821E+01	1.74050811970E+02	-5.11541414089E+01	-3.73500001889E+01	-6.00584051456E+00	-5.71179109461E-01
8.76975219469E+05	-1.00216622600E+01	-1.64192970092E+02	1.79742588845E+01	1.73512221608E+02	-5.24182046300E+01	9.15684609326E+01	-5.98004646608E+00	-7.51363353713E-01
8.99166574064E+05	-1.18294409662E+01	1.77260044703E+02	1.79357055880E+01	1.73446921421E+02	-3.85104148823E+01	9.19914050259E+01	-5.96384244482E+00	-5.45267395696E-01
9.21357928659E+05	-1.11774977085E+01	-1.73778121706E+02	1.79650077014E+01	1.73058510950E+02	-5.12705539171E+01	4.62767675985E+01	-5.95610998838E+00	-6.97464902864E-01
9.43549283254E+05	-9.79902074632E+00	-1.75166887790E+02	1.79214306118E+01	1.73015201163E+02	-3.27256461243E+01	-3.62368509159E+01	-5.94608499582E+00	-6.94341144042E-01
9.65740637849E+05	-1.06486233527E+01	-1.78215311196E+02	1.79430471628E+01	1.72440987754E+02	-3.96487562716E+01	8.88728410456E+01	-5.95906098141E+00	-4.01541565819E-01
9.87931992444E+05	-8.58199076284E+00	1.64382887694E+02	1.79648338398E+01	1.72325542246E+02	-3.84704480576E+01	-4.74899201552E+01	-6.01007338776E+00	-7.18205971102E-01
1.01012334704E+06	-1.04913234025E+01	-1.56539572152E+02	1.79335233770E+01	1.72123271756E+02	-3.23381479851E+01	-2.12069025265E+01	-5.98940542851E+00	-4.66762189051E-01
1.03231470163E+06	-1.07203784588E+01	1.67674300488E+02	1.79717838357E+01	1.71814985479E+02	-3.94606199741E+01	5.84393085020E+01	-5.96554621610E+00	-7.54739356896E-01
1.05450605623E+06	-1.19207461051E+01	-1.71380324186E+02	1.79448757190E+01	1.71558831147E+02	-4.08353609493E+01	-9.44415697943E+01	-6.01360499641E+00	-1.09389393357E+00
1.07669741082E+06	-1.24888826947E+01	-1.63845816262E+02	1.79438526803E+01	1.71323766200E+02	-5.38610854370E+01	6.48263967323E+01	-5.97832558582E+00	-7.09896696597E-01
1.09888876542E+06	-9.93191633499E+00	-1.77144406868E+02	1.79272652713E+01	1.71205912294E+02	-4.03825023749E+01	7.02096017463E+01	-5.96232161824E+00	-7.68206021530E-01
1.12108012001E+06	-9.78082593770E+00	1.76296306787E+02	1.79301237733E+01	1.70919378921E+02	-4.75244209878E+01	-1.08435482896E+02	-5.93364640140E+00	-6.96948213825E-01
1.14327147461E+06	-7.64733646966E+00	-1.72744253615E+02	1.79730968919E+01	1.70812466212E+02	-4.91148157146E+01	9.18942267446E+01	-5.95180210821E+00	-5.82775268934E-01
1.16546282920E+06	-1.06070288975E+01	1.67071726399E+02	1.79442989144E+01	1.70483434478E+02	-3.66314481564E+01	8.78381230130E+00	-5.99050846087E+00	-7.81454278984E-01
1.18765418380E+06	-1.07316201651E+01	-1.69070649877E+02	1.79242862341E+01	1.70359223853E+02	-4.43675673675E+01	9.83238899795E+01	-5.97383390431E+00	-8.63008551192E-01
1.20984553839E+06	-9.95191475669E+00	1.74659268519E+02	1.79198058635E+01	1.70552736727E+02	-3.43715474909E+01	-5.43097404324E+01	-6.03726121959E+00	-1.38501206621E+00
1.23203689299E+06	-9.77858224715E+00	-1.78557370892E+02	1.79399289697E+01	1.69806043030E+02	-3.95278216883E+01	-9.89605941399E+01	-5.90091851413E+00	-1.09721684143E+00
1.25422824758E+06	-8.52898065589E+00	-1.64695898190E+02	1.79477821601E+01	1.69684797907E+02	-3.64403343952E+01	-2.10281592315E-01	-5.98871004245E+00	-6.19233841981E-01
1.27641960218E+06	-9.04376994069E+00	-1.55917114695E+02	1.79240425914E+01	1.69455245003E+02	-3.88089650734E+01	-1.93629653933E+01	-5.98179346782E+00	-6.46338583615E-01
1.29861095677E+06	-1.25290697443E+01	1.70646402045E+02	1.79406060784E+01	1.69086624631E+02	-3.84919650649E+01	1.26938064845E+01	-5.99144137618E+00	-1.00582323466E+00
1.32080231137E+06	-1.12660674297E+01	1.63076720275E+02	1.79316304667E+01	1.68815211210E+02	-4.74828758114E+01	1.26174160164E+02	-6.02837366677E+00	-6.91563514544E-01
1.34299366596E+06	-1.13927182953E+01	-1.59715783296E+02	1.79135950816E+01	1.68675875654E+02	-3.72670971788E+01	-5.17569184030E+01	-5.98511846334E+00	-9.54015894518E-01
1.36518502056E+06	-9.70178441307E+00	1.68115177860E+02	1.79115725597E+01	1.68126804832E+02	-4.17431279500E+01	1.03115211173E+02	-5.90869047879E+00	-6.89427409945E-01
1.38737637515E+06	-1.26164214809E+01	1.50085279730E+02	1.79374513826E+01	1.68291547472E+02	-4.46957950947E+01	8.09170903970E+01	-5.92338500319E+00	-6.06320451101E-01
1.40956772975E+06	-9.87016187250E+00	1.70270379193E+02	1.79486406724E+01	1.67975925155E+02	-5.08018766050E+01	4.22440525653E+00	-5.96700383528E+00	-7.72088480023E-01
1.43175908434E+06	-6.66494171854E+00	-1.66115399928E+02	1.79509245034E+01	1.67804775836E+02	-3.79243826115E+01	-1.50723594034E+02	-6.00766041352E+00	-6.01695514117E-01
1.45395043894E+06	-1.45918711662E+01	1.70293709524E+02	1.78965343572E+01	1.67680887234E+02	-3.75872078101E+01	1.60256964596E+02	-5.99990183794E+00	-4.93475223983E-01
1.47614179353E+06	-1.11455191747E+01	1.50982718712E+02	1.79266849340E+01	1.67414254901E+02	-4.42585194035E+01	-1.42385004285E+02	-5.96303813694E+00	-7.98026806731E-01
1.49833314813E+06	-1.76905221527E+01	1.67738806525E+02	1.79275381078E+01	1.67199027716E+02	-4.22136421976E+01	-5.49165751469E+01	-6.02781712601E+00	-7.56039420050E-01
1.52052450272E+06	-1.11519736018E+01	-1.76252768826E+02	1.78992337190E+01	1.67022442862E+02	-4.59412724278E+01	7.68258466415E+01	-5.96672610478E+00	-6.66460866760E-01
1.54271585732E+06	-1.42947244484E+01	-1.66749146450E+02	1.79168869335E+01	1.66729917217E+02	-5.58700543564E+01	4.57136964450E+01	-5.92917052843E+00	-8.01685371151E-01
1.56490721191E+06	-7.19255934286E+00	1.79943016196E+02	1.78884238208E+01	1.66235590596E+02	-4.02939980077E+01	-4.54521508195E+01	-5.95170216871E+00	-7.83609717961E-01
1.58709856651E+06	-1.03231535951E+01	-1.72379084338E+02	1.78938211504E+01	1.66423796280E+02	-3.82093351600E+01	-1.45613547370E+02	-5.98796677569E+00	-8.63538425739E-01
1.60928992110E+06	-1.10821448641E+01	-1.41686999799E+02	1.79094913308E+01	1.66450132969E+02	-3.80312337792E+01	3.18069670617E+01	-5.95741446233E+00	-9.21005142713E-01
1.63148127570E+06	-1.10612335451E+01	-1.78071250471E+02	1.79112388274E+01	1.65880186708E+02	-3.41951391753E+01	-1.58697393941E+02	-5.96868137040E+00	-8.96742222791E-01
1.65367263029E+06	-1.38439154884E+01	-1.49933489682E+02	1.78848429734E+01	1.65724230860E+02	-5.40391088201E+01	-7.75298453187E+01	-5.97716787847E+00	-8.26471029691E-01
1.67586398489E+06	-1.20639963946E+01	-1.56578730434E+02	1.78545987121E+01	1.65798028077E+02	-4.32364019606E+01	1.74211673894E+01	-5.95501124273E+00	-8.56449047741E-01
1.69805533948E+06	-7.66843914011E+00	1.48079247660E+02	1.79150715776E+01	1.65054103156E+02	-4.61843488378E+01	3.68243654740E+01	-5.84553498879E+00	-1.47168673961E+00
1.72024669408E+06	-1.20180934292E+01	1.74183551953E+02	1.79199843272E+01	1.64851509298E+02	-4.58287568268E+01	3.25428354525E+01	-5.95340802210E+00	-9.39147048070E-01
1.74243804867E+06	-1.00983588139E+01	-1.63456419769E+02	1.79029728523E+01	1.64647168190E+02	-4.23164176641E+01	6.05535140691E+01	-5.89842336154E+00	-9.17721533636E-01
1.76462940327E+06	-9.16268702170E+00	1.74447304865E+02	1.78875515131E+01	1.64665978611E+02	-3.84934593156E+01	-1.18798550444E+02	-5.99773655878E+00	-1.06843669004E+00
1.78682075786E+06	-7.86062009875E+00	-1.70861261555E+02	1.78816050505E+01	1.64476814455E+02	-3.90442768432E+01	-5.24744220919E+01	-5.96733162405E+00	-8.69175202454E-01
1.80901211246E+06	-1.18983433866E+01	1.75157523063E+02	1.79025701756E+01	1.64258814248E+02	-3.87676639664E+01	4.77630626452E+01	-5.95143866603E+00	-9.14977474468E-01
1.83120346705E+06	-1.19514563705E+01	-1.49916391877E+02	1.79046979825E+01	1.64157799708E+02	-3.89548161307E+01	-9.60678474064E+01	-5.98385715888E+00	-1.17989735722E+00
1.85339482165E+06	-1.02532166758E+01	-1.72904480055E+02	1.78934479526E+01	1.63957186061E+02	-3.67718179428E+01	-1.42909883361E+01	-5.79153288073E+00	-1.78362612850E+00
1.87558617624E+06	-9.74429003934E+00	-1.72609734733E+02	1.78946171903E+01	1.63628699944E+02	-4.51396486175E+01	1.37601008794E+02	-5.97032521449E+00	-9.88626566887E-01
1.89777753084E+06	-1.29713298520E+01	1.71454364558E+02	1.78291770078E+01	1.63350202032E+02	-3.95787449610E+01	-8.22474181607E+01	-6.00097079677E+00	-8.98357136203E-01
1.91996888543E+06	-1.01256630498E+01	1.78439461474E+02	1.78908933328E+01	1.63201843957E+02	-4.22894614453E+01	1.52442367359E+02	-6.00257817022E+00	-6.96508884646E-01
1.94216024003E+06	-7.98959118656E+00	1.78877538896E+02	1.78705293171E+01	1.62892041488E+02	-3.50551699025E+01	7.28546179512E+01	-5.98185601648E+00	-7.90840099295E-01
1.96435159462E+06	-7.89032775949E+00	-1.62368809338E+02	1.78587609389E+01	1.62824603966E+02	-4.37100617378E+01	2.54079100207E+01	-5.98148661942E+00	-1.02387864334E+00
1.98654294922E+06	-7.74671235409E+00	1.71998110131E+02	1.78632751963E+01	1.62133406828E+02	-3.51163835680E+01	-1.76372446698E+02	-6.06938122380E+00	-8.51450048897E-01
2.00873430381E+06	-9.87212547410E+00	-1.54761814029E+02	1.78568004099E+01	1.62379709429E+02	-3.71760496959E+01	4.90414589843E+01	-5.82726994239E+00	-5.77111548895E-01
2.03092565841E+06	-6.80290537844E+00	1.68456635302E+02	1.78686183242E+01	1.62307736354E+02	-3.47574256347E+01	6.07156854766E+01	-5.93708476445E+00	-1.15023237540E+00
2.05311701300E+06	-8.68513193261E+00	-1.67608963324E+02	1.78596620133E+01	1.61972708598E+02	-4.11238985994E+01	-4.30153316211E+01	-6.01271960610E+00	-1.03285367035E+00
2.07530836760E+06	-9.25569569996E+00	-1.75609539184E+02	1.78854931539E+01	1.62008427244E+02	-3.36877471760E+01	1.70210593620E+02	-5.95498303177E+00	-8.07022593555E-01
2.09749972219E+06	-1.18166018867E+01	1.74552783597E+02	1.78779699137E+01	1.61504915064E+02	-5.08453579063E+01	1.04588504601E+02	-5.99565818901E+00	-1.27349294616E+00
2.11969107679E+06	-1.09359930638E+01	1.72872693464E+02	1.79155301324E+01	1.60995524688E+02	-3.55728198088E+01	1.00368257001E+02	-5.95160293608E+00	-1.09693375733E+00
2.14188243138E+06	-1.31069854542E+01	-1.79198413685E+02	1.77803376094E+01	1.61261828362E+02	-4.10093196264E+01	1.73873676684E+02	-5.98033106818E+00	-1.36021638632E+00
2.16407378598E+06	-7.90930375679E+00	1.63932660187E+02	1.78216847906E+01	1.60795285464E+02	-3.26028708454E+01	-1.26778567653E+02	-6.16670526327E+00	-1.06654710752E+00
2.18626514057E+06	-1.03082196751E+01	-1.70562931812E+02	1.78662233215E+01	1.60517262627E+02	-4.36859534243E+01	1.60965109044E+02	-5.96588412501E+00	-9.84830082666E-01
2.20845649517E+06	-1.02167388146E+01	-1.62454324292E+02	1.78080545106E+01	1.60549557350E+02	-6.05728452687E+01	4.41034802812E+01	-5.98178345275E+00	-9.91958515111E-01
2.23064784976E+06	-9.60418472538E+00	-1.59426069070E+02	1.78350884411E+01	1.60201428214E+02	-4.28062274784E+01	-7.17100432134E+01	-5.95475525342E+00	-1.09841132982E+00
2.25283920436E+06	-1.08094810437E+01	-1.69002642355E+02	1.78872359760E+01	1.59796275341E+02	-4.16668723259E+01	1.71249890792E+02	-5.96739845231E+00	-1.06808960509E+00
2.27503055895E+06	-9.64857458176E+00	1.79667593462E+02	1.78571966416E+01	1.59633305084E+02	-4.63432578569E+01	-1.61281731698E+02	-5.95152754209E+00	-1.56820493810E+00
2.29722191355E+06	-1.79216825642E+01	-1.58481607968E+02	1.78143406605E+01	1.59266358565E+02	-4.70148247171E+01	-1.30854045227E+02	-5.97239280908E+00	-1.72298067632E+00
2.31941326814E+06	-8.25884031351E+00	1.67678005080E+02	1.78364503742E+01	1.59320063771E+02	-3.79241598719E+01	1.06280946501E+02	-5.90777909321E+00	5.50959076794E-03
2.34160462274E+06	-1.07137376769E+01	-1.57325767370E+02	1.78576328113E+01	1.59355302935E+02	-4.38101609972E+01	-1.21906972406E+02	-5.91747662925E+00	-1.19394195036E+00
2.36379597733E+06	-9.01045979713E+00	1.63574909655E+02	1.78265252399E+01	1.58967164617E+02	-3.60129675994E+01	4.95580852714E+01	-5.95101142206E+00	-1.21143873302E+00
2.38598733193E+06	-9.13744146680E+00	-1.73077934109E+02	1.78671686194E+01	1.58821059114E+02	-4.59927318008E+01	-5.42826887186E+01	-5.96882084851E+00	-1.15814679700E+00
2.40817868652E+06	-8.72135872864E+00	1.71066613489E+02	1.78706291622E+01	1.58405523508E+02	-4.49153876770E+01	8.25784988704E+01	-5.95533254918E+00	-1.62802185007E+00
2.43037004112E+06	-1.27809120367E+01	-1.58590200626E+02	1.78515201144E+01	1.58263525225E+02	-4.15027029773E+01	-3.55888094895E+01	-6.00585697335E+00	-1.24214309597E+00
2.45256139571E+06	-7.95656773447E+00	-1.63576925905E+02	1.78351729809E+01	1.57990911201E+02	-4.06948750800E+01	-1.28150099953E+02	-5.93347589077E+00	-1.02775290493E+00
2.47475275031E+06	-1.29773481645E+01	-1.72387288083E+02	1.78263667155E+01	1.58066800888E+02	-4.48130099384E+01	-7.11418252014E+01	-6.02997098098E+00	-1.28014746218E+00
2.49694410490E+06	-9.74809058697E+00	-1.76355416809E+02	1.78433535745E+01	1.57812194685E+02	-5.54247159811E+01	1.52733333377E+02	-6.01975642635E+00	-9.38377460853E-01
2.51913545950E+06	-1.09794152314E+01	1.61648005607E+02	1.78382152434E+01	1.57340747641E+02	-4.26219431114E+01	5.67601343481E+01	-6.00929954711E+00	-9.28200551549E-01
2.54132681409E+06	-1.25202690656E+01	-1.77729081885E+02	1.78555614379E+01	1.57357220738E+02	-4.24449306872E+01	1.39583241752E+02	-5.97334274493E+00	-9.81532923789E-01
2.56351816869E+06	-8.91366136281E+00	1.77885104293E+02	1.78350187431E+01	1.57082673216E+02	-4.33348980088E+01	3.11195774737E+01	-5.96042572118E+00	-1.16007079102E+00
2.58570952328E+06	-8.82428906358E+00	-1.73726071489E+02	1.78686149050E+01	1.57212975884E+02	-4.03145245223E+01	6.45146628128E+01	-5.98184100219E+00	-1.15340281455E+00
2.60790087788E+06	-9.86322821917E+00	1.79492103441E+02	1.78223169736E+01	1.56706308080E+02	-3.92216245004E+01	-1.02512318133E+02	-5.98950858971E+00	-1.18717207396E+00
2.63009223247E+06	-8.14510472903E+00	1.55329493819E+02	1.78277632627E+01	1.56575395697E+02	-3.48769206872E+01	-8.67427548358E-01	-5.92492367685E+00	-1.03776173640E+00
2.65228358707E+06	-9.69085195154E+00	-1.66544441624E+02	1.78145958000E+01	1.56431009844E+02	-3.83353043013E+01	-1.05123429779E+02	-5.97271476847E+00	-1.25863911497E+00
2.67447494166E+06	-8.43997002099E+00	-1.78109411717E+02	1.78099959125E+01	1.56267979238E+02	-3.83945700783E+01	-2.14515042646E+01	-6.02425292343E+00	-1.44715086043E+00
2.69666629626E+06	-1.10648142485E+01	-1.67376877213E+02	1.78501236752E+01	1.56285260454E+02	-3.99314737551E+01	-8.83327283686E+01	-5.94932615083E+00	-1.26210149555E+00
2.71885765085E+06	-1.12033093733E+01	1.75697584319E+02	1.78170712697E+01	1.55768519934E+02	-3.90152589186E+01	-4.76020043063E+01	-5.98369351545E+00	-1.13604562477E+00
2.74104900545E+06	-9.22166187142E+00	-1.76184360506E+02	1.78243653426E+01	1.55659293086E+02	-3.92756638080E+01	1.55564396152E+01	-5.97807785570E+00	-1.31191056324E+00
2.76324036004E+06	-1.36504519435E+01	-1.69846614162E+02	1.77600473435E+01	1.55205291144E+02	-5.60314668389E+01	8.91633653997E+01	-5.97816792814E+00	-1.32151682357E+00
2.78543171463E+06	-9.21135547650E+00	-1.73207006485E+02	1.77904898960E+01	1.55077181850E+02	-4.04842010211E+01	2.35241099697E+01	-5.96298918028E+00	-1.40649709717E+00
2.80762306923E+06	-1.16584406579E+01	-1.52531447717E+02	1.78393428204E+01	1.55060970999E+02	-4.15832032611E+01	-6.62763143370E+01	-5.90899229709E+00	-1.24805341191E+00
2.82981442382E+06	-9.74251278837E+00	-1.61407245322E+02	1.78360230520E+01	1.54844388954E+02	-4.12890025126E+01	-5.19320410754E+01	-5.96731170320E+00	-1.53836581045E+00
2.85200577842E+06	-8.83596354304E+00	1.73738292607E+02	1.78073283300E+01	1.54673489091E+02	-4.93324924310E+01	2.96442832563E+01	-5.95155317669E+00	-1.56426989444E+00
2.87419713301E+06	-1.30046296697E+01	1.65499611581E+02	1.78380055113E+01	1.54265534312E+02	-4.73966197091E+01	-3.50915982260E+01	-5.97220336654E+00	-1.41823332179E+00
