# Hz S DB R 50
! CMT, M5065, 19127446, 24.2.4/2
! Date: 10/29/2024 12:40:40 PM
! Data: Format (Calibration Info)
! Freq	S11:dB/Ang(F2)	S21:dB/Ang(F2)	S12:dB/Ang(F2)	S22:dB/Ang(F2)
3.00000000000E+05	-7.99633281675E+00	-1.70467490220E+02	1.43069566874E+01	-1.77846910647E+02	-4.66095389195E+01	-1.22244096556E+02	-5.99227760296E+00	-3.31421078486E-01
3.22191354595E+05	-1.18728564537E+01	-1.74113460659E+02	1.42765894559E+01	-1.78459358971E+02	-5.32569273003E+01	1.46986587641E+02	-5.96054908164E+00	-6.30250387661E-01
3.44382709190E+05	-1.25263410190E+01	-1.79387556386E+02	1.43047704721E+01	-1.78991655024E+02	-3.67868560994E+01	1.43298506125E+02	-5.97673915934E+00	-3.70971855875E-01
3.66574063785E+05	-1.24778503003E+01	-1.53049534660E+02	1.43443764163E+01	-1.79304521623E+02	-3.99191977581E+01	1.02178717421E+02	-5.99569253693E+00	-5.25440061880E-02
3.88765418380E+05	-1.22186157265E+01	-1.65122081568E+02	1.43404178687E+01	1.79880645287E+02	-3.70046814716E+01	-9.07872430418E+01	-5.97710512702E+00	-1.45384574203E-01
4.10956772975E+05	-9.15859415505E+00	1.78628737981E+02	1.42959210690E+01	-1.79851768692E+02	-4.11086773000E+01	-1.66347989567E+02	-5.96875908757E+00	-2.19900361909E-01
4.33148127570E+05	-1.28385406460E+01	-1.78036639645E+02	1.43379326465E+01	1.79645124331E+02	-3.58535868022E+01	1.06568976878E+02	-5.96857420024E+00	-1.82165770113E-02
4.55339482165E+05	-9.95153688804E+00	-1.78305683982E+02	1.43045206094E+01	1.79653068607E+02	-3.80236150519E+01	1.40017840709E+02	-5.97376531209E+00	-4.41249074217E-01
4.77530836760E+05	-7.59784979902E+00	1.77080939037E+02	1.43149242386E+01	1.79275385370E+02	-4.15150457334E+01	-5.14399271920E+01	-5.97185417746E+00	-4.10767966475E-01
4.99722191355E+05	-1.22581167230E+01	1.69764680095E+02	1.43348555674E+01	1.78978447305E+02	-4.09706574834E+01	-6.54635585475E+01	-5.95757585189E+00	-4.73813927322E-01
5.21913545950E+05	-7.60169452098E+00	-1.63139948570E+02	1.43328343842E+01	1.78752001680E+02	-4.85318620030E+01	4.69753783877E+01	-5.95947389211E+00	-2.25375954104E-01
5.44104900545E+05	-9.56145067267E+00	-1.76279106353E+02	1.43168867753E+01	1.78300335643E+02	-5.42742809149E+01	1.45440640095E+02	-5.97648841580E+00	-5.40231198305E-01
5.66296255139E+05	-1.01050443433E+01	-1.73407210956E+02	1.43144988609E+01	1.78160053126E+02	-3.62157659808E+01	-1.35403501065E+02	-5.98266652384E+00	-2.72459238029E-01
5.88487609734E+05	-9.50755937248E+00	-1.66704921636E+02	1.43408979155E+01	1.78001847909E+02	-4.28240955650E+01	4.81003494292E+01	-5.98361439558E+00	-7.09275447744E-01
6.10678964329E+05	-1.17087887056E+01	1.70780181503E+02	1.43292238676E+01	1.77858954166E+02	-3.98655222252E+01	-1.63354698821E+01	-5.96067409189E+00	-1.41209900915E-01
6.32870318924E+05	-8.37525470249E+00	1.72315556419E+02	1.43189355228E+01	1.77547833776E+02	-3.20473021100E+01	8.45429446054E+01	-5.96705476854E+00	-4.24958089938E-01
6.55061673519E+05	-9.34375506429E+00	1.68463565323E+02	1.43221418727E+01	1.77387066514E+02	-3.60416436750E+01	-5.46137360978E+01	-5.94534508707E+00	-1.83569762124E-01
6.77253028114E+05	-1.22822650814E+01	-1.76962676937E+02	1.43318753554E+01	1.76880857107E+02	-5.49346918674E+01	-7.08229359442E+01	-5.97573339207E+00	-5.19602337071E-01
6.99444382709E+05	-1.33125692984E+01	-1.73737190216E+02	1.43378051383E+01	1.76546041103E+02	-5.20400734952E+01	1.15348997217E+02	-5.96150033476E+00	-4.95242149082E-01
7.21635737304E+05	-1.10733458638E+01	1.74980728530E+02	1.43599901401E+01	1.76357013980E+02	-3.44297149760E+01	-6.24624094832E+01	-5.91199897369E+00	-5.61962827755E-01
7.43827091899E+05	-7.70924539713E+00	1.66006501376E+02	1.43214115784E+01	1.76285751031E+02	-3.84848496656E+01	-1.53115230338E+02	-5.97578215104E+00	-6.49066598787E-01
7.66018446494E+05	-9.28463833491E+00	1.68928388571E+02	1.43483371662E+01	1.75958017828E+02	-3.66308079863E+01	-2.59072961775E+01	-6.00654916122E+00	-6.03288511072E-01
7.88209801089E+05	-6.69811920649E+00	-1.77044227010E+02	1.43195935477E+01	1.76124919016E+02	-3.84406561012E+01	-1.44182998656E+02	-6.00270968532E+00	-5.19470037138E-01
8.10401155684E+05	-1.05425377048E+01	-1.63132268264E+02	1.43629417236E+01	1.75961832494E+02	-3.49067021568E+01	1.45981674424E+02	-5.95890215635E+00	-2.91722111061E-01
8.32592510279E+05	-1.05908327869E+01	-1.54480987880E+02	1.43387635122E+01	1.75500228516E+02	-4.90984347480E+01	1.09390371752E+02	-5.99166149402E+00	-5.12291142685E-01
8.54783864874E+05	-8.92321014662E+00	-1.78775434066E+02	1.43223031256E+01	1.75264113508E+02	-4.07143612108E+01	-3.41151128863E+01	-5.97060857031E+00	-3.96362984535E-01
8.76975219469E+05	-1.29021155334E+01	-1.78149414502E+02	1.43122868167E+01	1.75368887127E+02	-4.30382679582E+01	1.23645800354E+02	-5.95509938086E+00	-7.32874321450E-01
8.99166574064E+05	-1.33511018852E+01	-1.76549846693E+02	1.43281651740E+01	1.75100646286E+02	-4.48094623177E+01	1.50096374398E+02	-5.97207263741E+00	-4.95454716640E-01
9.21357928659E+05	-9.02995766339E+00	-1.73753206009E+02	1.42785897139E+01	1.74561339000E+02	-4.01074962903E+01	-1.59688299123E+02	-5.97673004357E+00	-4.62558431847E-01
9.43549283254E+05	-1.17587846158E+01	-1.64873786862E+02	1.43206134772E+01	1.74863431035E+02	-3.58738627271E+01	-3.69090407772E+01	-5.98871717947E+00	-5.73492117995E-01
9.65740637849E+05	-9.45059200769E+00	1.76204379904E+02	1.43010074372E+01	1.74321538008E+02	-4.11146584187E+01	1.67995237878E+02	-6.08266044940E+00	-5.08877452933E-01
9.87931992444E+05	-1.36751364891E+01	1.51468167912E+02	1.42778898493E+01	1.74134397337E+02	-4.32508524902E+01	1.43970303746E+02	-5.98941998442E+00	-6.42849341113E-01
1.01012334704E+06	-1.12510895296E+01	-1.74799667788E+02	1.43359444790E+01	1.73929832015E+02	-4.27292318547E+01	-1.01785618635E+02	-5.95129694630E+00	-5.47747293024E-01
1.03231470163E+06	-8.24822228913E+00	1.53037230153E+02	1.43279309453E+01	1.73769825853E+02	-4.17734219069E+01	-1.42566319469E+02	-6.01660275548E+00	-6.08358865238E-01
1.05450605623E+06	-9.58480335427E+00	-1.58655552450E+02	1.43128531714E+01	1.73335673390E+02	-4.66312201675E+01	-3.81853241469E+01	-5.96883079608E+00	-5.07954064756E-01
1.07669741082E+06	-8.97686895621E+00	1.66827823452E+02	1.43238213125E+01	1.73270408137E+02	-3.85134535775E+01	5.23777650494E+01	-5.97539773217E+00	-6.97454994090E-01
1.09888876542E+06	-7.57212337323E+00	-1.62860412741E+02	1.43314206395E+01	1.73460826921E+02	-4.01302045775E+01	-1.57040895206E+02	-5.94705343491E+00	-7.58182073130E-01
1.12108012001E+06	-2.07719825772E+01	-1.32424829079E+02	1.43100647795E+01	1.72935407518E+02	-4.93088646949E+01	1.53266831312E+02	-5.92095750944E+00	-7.78821808705E-01
1.14327147461E+06	-7.21324970980E+00	-1.73151204192E+02	1.43185987408E+01	1.72772115441E+02	-4.12270423620E+01	9.53126529126E+01	-5.96759234988E+00	-3.33523239662E-01
1.16546282920E+06	-9.35006203970E+00	1.68638214555E+02	1.43389527813E+01	1.72545592298E+02	-4.34256452782E+01	7.51473239577E+01	-5.96285197262E+00	-2.99311072995E-01
1.18765418380E+06	-1.40958049664E+01	-1.68472657309E+02	1.43202925908E+01	1.72416714764E+02	-4.14244270265E+01	1.46102610479E+02	-5.96282357978E+00	-4.17523634867E-01
1.20984553839E+06	-8.98725607764E+00	-1.57944106843E+02	1.43136312943E+01	1.72277448290E+02	-3.93215143464E+01	2.75186938613E+01	-6.02735587588E+00	-1.05548887346E+00
1.23203689299E+06	-8.09936707824E+00	1.71279872607E+02	1.43522828662E+01	1.71987049385E+02	-3.76724729147E+01	1.57434484098E+02	-5.94256480037E+00	-9.99960514149E-02
1.25422824758E+06	-1.08132869276E+01	-1.69393176507E+02	1.43232317563E+01	1.71997766474E+02	-3.54671174778E+01	-1.44694089447E+02	-5.97316530091E+00	-7.02882239074E-01
1.27641960218E+06	-1.02612514930E+01	-1.75907773670E+02	1.43491762618E+01	1.71740443022E+02	-3.40131516476E+01	6.70021733576E+01	-5.90620669824E+00	-7.38167573767E-01
1.29861095677E+06	-1.23096932127E+01	-1.66335119276E+02	1.42929749911E+01	1.71800519295E+02	-4.36451360549E+01	-3.86694695075E+01	-5.99149479790E+00	-7.39354538896E-01
1.32080231137E+06	-1.00515620166E+01	-1.76953169376E+02	1.43547819588E+01	1.71112969237E+02	-3.71157942771E+01	-1.25423121744E+02	-5.97342492842E+00	-1.11906242812E+00
1.34299366596E+06	-9.45895182503E+00	-1.78486814719E+02	1.43315024727E+01	1.71151224272E+02	-4.10858538819E+01	-1.64681021153E+02	-5.94538601531E+00	-9.25411440727E-01
1.36518502056E+06	-1.23594805018E+01	-1.73583100297E+02	1.42684189142E+01	1.71282860202E+02	-3.56256064846E+01	-6.69710960382E+01	-5.98633954258E+00	-6.52999424798E-01
1.38737637515E+06	-1.02516463251E+01	-1.66582564866E+02	1.43360404093E+01	1.71008940842E+02	-4.44348239237E+01	1.77707882565E+02	-5.96213357675E+00	-8.48228417968E-01
1.40956772975E+06	-9.92960077175E+00	-1.67418638438E+02	1.43362546977E+01	1.70081648861E+02	-3.87440564235E+01	-4.07827627564E+01	-5.92646267841E+00	-1.23004404656E+00
1.43175908434E+06	-1.09384920848E+01	1.79017177678E+02	1.43290013754E+01	1.70492127177E+02	-3.37264444785E+01	6.25016823557E+01	-5.88720727661E+00	-4.47858153225E-01
1.45395043894E+06	-9.36885437445E+00	1.78118736385E+02	1.43115168894E+01	1.70649885325E+02	-4.33344817823E+01	-1.39062323325E+01	-5.96133782999E+00	-7.40837064906E-02
1.47614179353E+06	-9.88702515483E+00	-1.69482650906E+02	1.43145437789E+01	1.70000181134E+02	-4.68998382109E+01	-2.13200328939E+01	-5.98344805856E+00	-8.56961694364E-01
1.49833314813E+06	-9.02498783284E+00	1.68115277998E+02	1.43109012020E+01	1.70019870454E+02	-4.54336054315E+01	8.27385801326E+01	-5.94959797936E+00	-9.60466061174E-01
1.52052450272E+06	-9.70555956254E+00	1.77683957839E+02	1.43101430923E+01	1.69640362665E+02	-4.21184347039E+01	1.05538137118E+02	-5.98677441145E+00	-9.13774124712E-01
1.54271585732E+06	-1.01499910765E+01	1.78341508591E+02	1.43072518692E+01	1.69946727902E+02	-4.07024735559E+01	8.73617294175E+01	-5.96382522871E+00	-8.61600014743E-01
1.56490721191E+06	-9.20529739054E+00	-1.72334784972E+02	1.42850093875E+01	1.69674956072E+02	-5.80645113545E+01	8.03341521905E+01	-6.00283032921E+00	-5.90457544838E-01
1.58709856651E+06	-8.38917017475E+00	-1.69565512299E+02	1.42951598789E+01	1.69327527637E+02	-3.89409437138E+01	7.22296440938E-01	-5.98672859885E+00	-1.09640967036E+00
1.60928992110E+06	-9.29060391013E+00	-1.64702750361E+02	1.43059171378E+01	1.69187502413E+02	-4.16320619996E+01	-6.85358736928E+01	-5.96538346249E+00	-9.09206402037E-01
1.63148127570E+06	-9.31925773580E+00	-1.68865239946E+02	1.42856321196E+01	1.68924029591E+02	-3.59610499911E+01	1.97382494355E+01	-5.99894606599E+00	-8.08624278864E-01
1.65367263029E+06	-8.72639212797E+00	1.70700199917E+02	1.42695797891E+01	1.68826127812E+02	-3.69686696783E+01	-9.70482842993E+01	-5.98084694927E+00	-6.10668964617E-01
1.67586398489E+06	-1.05790210186E+01	-1.76042138589E+02	1.42786859249E+01	1.68773868793E+02	-4.60373095111E+01	1.01963735662E+02	-5.93173052807E+00	-7.99711678886E-01
1.69805533948E+06	-1.17990551018E+01	1.72563158097E+02	1.43602264519E+01	1.68551936827E+02	-4.26375268313E+01	1.14158752811E+02	-5.93638965201E+00	-8.40520100049E-01
1.72024669408E+06	-9.48106576797E+00	-1.65968718931E+02	1.42907468930E+01	1.68255246912E+02	-4.05462929149E+01	4.23159254928E+01	-5.96784519973E+00	-7.85854635589E-01
1.74243804867E+06	-1.38753837876E+01	-1.50875210319E+02	1.43299663957E+01	1.68477974093E+02	-3.68303528852E+01	6.82052288696E+01	-5.94788688176E+00	-5.45919053731E-01
1.76462940327E+06	-8.61895733335E+00	-1.64311630668E+02	1.43366755434E+01	1.68167938221E+02	-3.98155692559E+01	7.18329014353E+01	-5.94851478705E+00	-7.00495046999E-01
1.78682075786E+06	-1.42264884388E+01	1.70984398029E+02	1.43041289736E+01	1.67514859085E+02	-3.86690980729E+01	-8.43072947513E+01	-6.01885839147E+00	-7.75813281902E-01
1.80901211246E+06	-8.35942975369E+00	1.67973193717E+02	1.43023660359E+01	1.68045997079E+02	-5.02258530229E+01	-1.51176023306E+02	-6.01644186474E+00	-9.50243089111E-01
1.83120346705E+06	-9.63892590982E+00	1.47533359667E+02	1.43247010045E+01	1.67365986513E+02	-4.99797729704E+01	-3.16075570782E+01	-5.94710179252E+00	-9.03340077395E-01
1.85339482165E+06	-1.10063549765E+01	-1.63239240546E+02	1.42928561003E+01	1.67397357696E+02	-3.47480899231E+01	-9.48332601665E+01	-5.98175746885E+00	-9.40637268554E-01
1.87558617624E+06	-1.55713644820E+01	-1.76797341526E+02	1.42153447822E+01	1.67601328851E+02	-3.92696718772E+01	-1.96660159089E+01	-5.93461235532E+00	-1.06452249275E+00
1.89777753084E+06	-7.99509972447E+00	-1.72591692656E+02	1.43372052317E+01	1.66753461592E+02	-3.41184496042E+01	-6.14615650630E+01	-5.96288246385E+00	-8.37989256493E-01
1.91996888543E+06	-1.03384448344E+01	-1.53449463939E+02	1.43068940177E+01	1.67146191094E+02	-4.53996626148E+01	8.65486172808E+01	-5.98394093866E+00	-1.06752547536E+00
1.94216024003E+06	-1.02401128646E+01	-1.54973651542E+02	1.42781743219E+01	1.66606109763E+02	-3.53905653049E+01	-1.42206056975E+02	-5.98004290764E+00	-6.69878376608E-01
1.96435159462E+06	-8.76486283308E+00	1.72085885489E+02	1.42822472529E+01	1.66572906326E+02	-3.88959059747E+01	2.78997112374E+01	-5.99320731097E+00	-8.81480725586E-01
1.98654294922E+06	-9.93523476632E+00	1.61307880075E+02	1.42826568505E+01	1.66455406210E+02	-4.03717552315E+01	-1.87822340859E+01	-5.96458126717E+00	-1.12786006297E+00
2.00873430381E+06	-9.89445136802E+00	1.71816109784E+02	1.43086823730E+01	1.66001069998E+02	-4.05310168980E+01	-2.88893272820E+01	-5.95998542933E+00	-1.13900551319E+00
2.03092565841E+06	-1.16592539592E+01	1.67169335973E+02	1.43831556760E+01	1.65683819760E+02	-3.54493542711E+01	-2.06428193922E+01	-5.93062256049E+00	-1.20183502114E+00
2.05311701300E+06	-9.28027857327E+00	-1.76098301562E+02	1.43180393732E+01	1.65900759784E+02	-3.89152605117E+01	-1.64405798691E+02	-5.94039479790E+00	-4.68306986731E-01
2.07530836760E+06	-1.35595825378E+01	-1.66332717595E+02	1.42883032244E+01	1.65947931190E+02	-4.15372959148E+01	1.44853108132E+02	-5.96710135191E+00	-7.97205764123E-01
2.09749972219E+06	-1.02157606019E+01	1.65709351250E+02	1.42719203761E+01	1.65600721815E+02	-4.32730458084E+01	1.55738088950E+02	-5.96350892576E+00	-1.26539502601E+00
2.11969107679E+06	-9.86553937530E+00	-1.71138759339E+02	1.43208425452E+01	1.65525530147E+02	-3.66307322782E+01	-1.28093467817E+01	-5.96379772268E+00	-8.51665012579E-01
2.14188243138E+06	-9.61318863745E+00	1.77022324886E+02	1.42756528201E+01	1.65022249683E+02	-4.16958065410E+01	4.70078237774E+01	-5.96754217449E+00	-7.83259920041E-01
2.16407378598E+06	-1.04935927110E+01	-1.59424558932E+02	1.42422800690E+01	1.65248718478E+02	-4.16082051138E+01	-1.59914255963E+02	-5.98516154631E+00	-1.29621234920E+00
2.18626514057E+06	-8.28402454622E+00	1.79355989995E+02	1.43366657035E+01	1.65114790737E+02	-3.55342065314E+01	9.87692138204E+01	-5.93456616075E+00	-1.57933354801E-01
2.20845649517E+06	-1.41122463893E+01	1.67668023549E+02	1.42842095799E+01	1.64708484288E+02	-3.87315989425E+01	3.98361353592E+01	-5.90390639377E+00	-1.21792833867E+00
2.23064784976E+06	-8.98808068519E+00	-1.76088087675E+02	1.43353088276E+01	1.64525293253E+02	-3.82112283726E+01	-1.67734227576E+02	-6.01159508377E+00	-1.02410529843E+00
2.25283920436E+06	-1.12025539883E+01	-1.69302685811E+02	1.43074900287E+01	1.64245961836E+02	-4.78545586155E+01	6.46819533872E+00	-5.97420127372E+00	-1.43240391043E+00
2.27503055895E+06	-8.79500991734E+00	1.64695359616E+02	1.43088521380E+01	1.64202681922E+02	-4.75385350567E+01	-2.37532238929E+01	-5.96293057105E+00	-9.76470588546E-01
2.29722191355E+06	-6.59346726960E+00	-1.65954391643E+02	1.43209172362E+01	1.64206727175E+02	-3.82571504338E+01	-1.23415398034E+02	-5.98986880173E+00	-9.83947359643E-01
2.31941326814E+06	-8.89832150769E+00	1.69346053300E+02	1.43306385312E+01	1.63856579538E+02	-4.30414190517E+01	-6.20474262829E+01	-5.95935523529E+00	-1.28629050310E+00
2.34160462274E+06	-5.09222215678E+00	1.59121548509E+02	1.43155843026E+01	1.63146058724E+02	-4.57209385430E+01	9.98217601039E+01	-5.96417298807E+00	-9.36705610891E-01
2.36379597733E+06	-9.57357505641E+00	1.75226505181E+02	1.42662415344E+01	1.63647338899E+02	-4.28685648704E+01	1.67595116474E+02	-6.04535187871E+00	-1.18538820657E+00
2.38598733193E+06	-8.64797891570E+00	-1.77597764354E+02	1.42777562606E+01	1.63502248445E+02	-4.34105691888E+01	-1.51495642486E+02	-5.94505557592E+00	-1.31370035592E+00
2.40817868652E+06	-8.86941584516E+00	1.69583012977E+02	1.43166147770E+01	1.63420639131E+02	-4.06796132410E+01	7.91939424969E+01	-5.95619198945E+00	-1.04101092709E+00
2.43037004112E+06	-1.22657854071E+01	1.72582856668E+02	1.43310106787E+01	1.63314093325E+02	-3.60043205899E+01	7.02158421111E+01	-5.92954067103E+00	-1.34983805187E+00
2.45256139571E+06	-1.05241162722E+01	-1.54005723379E+02	1.42860573703E+01	1.63036662102E+02	-5.45593992034E+01	-1.70946511342E+01	-5.97209319734E+00	-9.56681098286E-01
2.47475275031E+06	-7.92844893223E+00	-1.78797348808E+02	1.42463150555E+01	1.62950245489E+02	-4.34198494963E+01	-4.60190573207E+01	-5.99732376815E+00	-1.19820862601E+00
2.49694410490E+06	-1.04960736717E+01	1.63056707839E+02	1.42445615585E+01	1.62073199655E+02	-3.97327864462E+01	1.68568833367E+02	-6.01080658539E+00	-9.01901276041E-01
2.51913545950E+06	-1.04632835927E+01	-1.71067970533E+02	1.42929260585E+01	1.62657253105E+02	-4.65219771444E+01	-5.95700331775E+01	-5.82134656761E+00	-1.37986219952E+00
2.54132681409E+06	-9.66167178520E+00	-1.73861222428E+02	1.43117346028E+01	1.62590411361E+02	-3.87879980671E+01	-1.36680284169E+02	-5.95850073890E+00	-9.26399129882E-01
2.56351816869E+06	-9.35582052365E+00	-1.75302352387E+02	1.42821458727E+01	1.62412764755E+02	-3.82871855250E+01	1.37935388736E+02	-5.97401575598E+00	-1.50089794397E+00
2.58570952328E+06	-9.26119143340E+00	-1.69138378471E+02	1.43230823999E+01	1.62109285883E+02	-4.08986979753E+01	-9.55763233565E+01	-6.01520480233E+00	-1.08649193858E+00
2.60790087788E+06	-9.39508380274E+00	-1.78655069706E+02	1.42919335860E+01	1.62122661956E+02	-3.89222323726E+01	-7.68781002972E+01	-5.97344027198E+00	-1.10602526415E+00
2.63009223247E+06	-1.04352109875E+01	-1.64043672784E+02	1.43228029909E+01	1.61794781863E+02	-3.93119454473E+01	1.66892475491E+02	-5.96718360310E+00	-1.29606923283E+00
2.65228358707E+06	-1.00880108403E+01	1.76834975078E+02	1.43143448074E+01	1.61412645288E+02	-5.33899508909E+01	1.09637136234E+02	-5.98811762800E+00	-1.52972180046E+00
2.67447494166E+06	-9.38036208691E+00	-1.59150680866E+02	1.42929343662E+01	1.61304819035E+02	-4.56032320933E+01	-1.44088728138E+02	-5.92214960310E+00	-2.15584681360E+00
2.69666629626E+06	-9.27708044960E+00	-1.67543318554E+02	1.43104470908E+01	1.61492293736E+02	-3.56430049588E+01	-4.25178950828E+01	-5.97719520610E+00	-1.04743266455E+00
2.71885765085E+06	-1.06962628470E+01	1.73747413361E+02	1.42900101828E+01	1.61393994604E+02	-3.99543804898E+01	-8.63611751269E+01	-5.99358872165E+00	-1.09398448498E+00
2.74104900545E+06	-1.03186115095E+01	-1.63249370141E+02	1.43076883673E+01	1.60698788462E+02	-4.59247720449E+01	1.40534757711E+02	-5.95614844394E+00	-1.04323715950E+00
2.76324036004E+06	-9.77566891164E+00	-1.71494166192E+02	1.42517039725E+01	1.60988625346E+02	-4.48531171639E+01	1.21185733453E+02	-5.92462868871E+00	-1.25245190671E+00
2.78543171463E+06	-9.24076615233E+00	1.63359494442E+02	1.42984309801E+01	1.60699281321E+02	-4.44483953947E+01	3.67637504253E+01	-5.96390548788E+00	-1.27772803487E+00
2.80762306923E+06	-1.35237785286E+01	1.76329467721E+02	1.43019047496E+01	1.60647489711E+02	-4.36557638550E+01	7.17881045948E+01	-5.95664109888E+00	-1.34576900102E+00
2.82981442382E+06	-1.31008632577E+01	1.71195530162E+02	1.43120390273E+01	1.60277766045E+02	-4.38787611252E+01	1.25465954975E+02	-5.97462319298E+00	-1.26018317736E+00
2.85200577842E+06	-1.04717130931E+01	1.72872402351E+02	1.42902765109E+01	1.60062966139E+02	-3.85528284253E+01	-4.79794991501E+01	-5.95178481392E+00	-1.14121033257E+00
2.87419713301E+06	-1.02773888523E+01	-1.63667363449E+02	1.42937357198E+01	1.60034864008E+02	-4.14520804095E+01	1.47132428749E+02	-6.01000191942E+00	-1.15699608764E+00
