# Hz S DB R 50
! CMT, M5065, 19127446, 24.2.4/2
! Date: 10/29/2024 12:28:40 PM
! Data: Format (Calibration Info)
! Freq	S11:dB/Ang(F2)	S21:dB/Ang(F2)	S12:dB/Ang(F2)	S22:dB/Ang(F2)
3.00000000000E+05	-1.07828592670E+01	-1.79518830710E+02	9.67689958777E+00	-1.77991911623E+02	-4.16747897628E+01	-1.23787229191E+02	-5.97203889277E+00	-1.71231016677E-01
3.22191354595E+05	-1.16021854299E+01	1.76847097745E+02	9.71370014783E+00	-1.78359806331E+02	-5.20064715032E+01	1.40998409924E+02	-5.98071980770E+00	-2.24687436157E-01
3.44382709190E+05	-8.29921876383E+00	-1.73081936626E+02	9.69090475968E+00	-1.78736930169E+02	-4.86120685148E+01	-1.53591973118E+02	-5.97303824749E+00	-1.60583416287E-01
3.66574063785E+05	-1.01416164104E+01	-1.69548514331E+02	9.70459033132E+00	-1.79121197202E+02	-4.34018738182E+01	1.43484286103E+02	-5.96177397085E+00	-4.07197456676E-01
3.88765418380E+05	-9.38997550469E+00	-1.68128105563E+02	9.74610526170E+00	-1.79320009740E+02	-4.70728120283E+01	7.95082422933E+01	-5.96275073923E+00	-2.61915856012E-01
4.10956772975E+05	-1.15791701257E+01	-1.72235030361E+02	9.71769067333E+00	-1.79639866179E+02	-4.39946593239E+01	-9.75208799971E+01	-5.96599698850E+00	-3.48210864007E-01
4.33148127570E+05	-1.11726185849E+01	-1.79041575379E+02	9.70117616959E+00	-1.79690728602E+02	-4.86933862793E+01	7.72258285003E+01	-5.95738243636E+00	-3.21295390837E-01
4.55339482165E+05	-7.90770424464E+00	-1.66258286966E+02	9.73892299213E+00	1.79916872975E+02	-4.44190831476E+01	-1.70721258174E+02	-5.96912124016E+00	-3.33512086539E-01
4.77530836760E+05	-1.19839544403E+01	-1.74663904608E+02	9.71684981935E+00	1.79730104916E+02	-5.54284985258E+01	-1.15143037837E+02	-6.01043611908E+00	-4.56223074055E-01
4.99722191355E+05	-1.30852113815E+01	-1.61024890670E+02	9.74441954135E+00	1.79566681762E+02	-4.75214192669E+01	1.10455434474E+02	-5.98671195886E+00	-3.88257993068E-01
5.21913545950E+05	-1.12113152243E+01	-1.74859248215E+02	9.72012674913E+00	1.79447486033E+02	-4.88845503215E+01	3.20501218969E+01	-5.98115759295E+00	-4.03310105262E-01
5.44104900545E+05	-1.08255434770E+01	-1.67954024245E+02	9.75423445072E+00	1.79041256933E+02	-5.47635005737E+01	-6.06910360170E+01	-5.98599018134E+00	-5.69300822770E-01
5.66296255139E+05	-1.05722877956E+01	-1.79588377886E+02	9.74846105957E+00	1.78929396075E+02	-4.51403237324E+01	1.07331553493E+02	-5.97822125295E+00	-4.80773995584E-01
5.88487609734E+05	-1.18335751534E+01	1.79735416219E+02	9.73839631272E+00	1.78468462319E+02	-4.72971903564E+01	-5.05553005946E+01	-5.96511796753E+00	-5.92189975783E-01
6.10678964329E+05	-1.01007695239E+01	1.75636334942E+02	9.74791285223E+00	1.78447614882E+02	-4.73271981864E+01	1.57914135124E+02	-5.98109873106E+00	-9.43382142674E-02
6.32870318924E+05	-1.01331065430E+01	-1.72019838294E+02	9.73508768285E+00	1.78149626468E+02	-5.62229903052E+01	5.53235844004E+01	-5.97983168568E+00	-5.62819921972E-01
6.55061673519E+05	-9.07622651328E+00	1.74085508736E+02	9.75421091734E+00	1.78055831646E+02	-3.90406333252E+01	1.06879689141E+02	-5.99652170578E+00	-3.58990186554E-02
6.77253028114E+05	-1.36842734234E+01	-1.73038489506E+02	9.75224899262E+00	1.77909095084E+02	-4.86332380087E+01	3.70488728339E+01	-5.96622654616E+00	-6.20691684573E-01
6.99444382709E+05	-1.02288647097E+01	-1.73199821792E+02	9.70855845050E+00	1.77919210079E+02	-4.73131767270E+01	-1.41385558583E+01	-5.98501437118E+00	-5.82416982002E-01
7.21635737304E+05	-1.17212486057E+01	-1.77486086635E+02	9.71886730141E+00	1.77535998929E+02	-4.10639927363E+01	-1.51971142506E+01	-5.98896695704E+00	-4.64968801549E-01
7.43827091899E+05	-1.19678904904E+01	1.72642250803E+02	9.75230792889E+00	1.77243320283E+02	-4.54309632453E+01	9.95241697274E+01	-5.97892760193E+00	-4.19397914694E-01
7.66018446494E+05	-8.59742760875E+00	1.67878329242E+02	9.72011917890E+00	1.77315159366E+02	-4.83236412024E+01	1.54788785335E+02	-5.96944888016E+00	-5.67803662010E-01
7.88209801089E+05	-1.11240211190E+01	-1.77341155412E+02	9.72420788876E+00	1.76916239500E+02	-3.65480955186E+01	-2.77738244241E+01	-5.96363917424E+00	-5.17748209915E-01
8.10401155684E+05	-1.15763506190E+01	-1.73517426547E+02	9.76026697442E+00	1.76721856150E+02	-4.05315489310E+01	-9.89603887671E+01	-5.99843243141E+00	-4.90093143816E-01
8.32592510279E+05	-1.08031162421E+01	-1.73265159081E+02	9.73980990765E+00	1.76775342068E+02	-4.13658780907E+01	7.89214372934E+01	-5.95565916752E+00	-4.50202330536E-01
8.54783864874E+05	-8.93221022353E+00	1.79599429979E+02	9.71983548355E+00	1.76577729956E+02	-4.76188646863E+01	-6.99959705804E+01	-5.98128119550E+00	-5.87383913196E-01
8.76975219469E+05	-1.02591458497E+01	-1.72197735870E+02	9.73941989831E+00	1.76366560791E+02	-4.33551477236E+01	-3.12816713589E+01	-5.98388731388E+00	-6.49207985666E-01
8.99166574064E+05	-1.13350700522E+01	-1.76012875485E+02	9.73305157753E+00	1.76477625661E+02	-4.71001128085E+01	1.52051756453E+02	-5.99203214852E+00	-5.87189622319E-01
9.21357928659E+05	-9.26470069454E+00	1.75768495737E+02	9.74154583651E+00	1.76080867280E+02	-5.07870201312E+01	-1.88094555975E+01	-5.98702224499E+00	-6.54201333162E-01
9.43549283254E+05	-8.97847410018E+00	-1.76216428099E+02	9.79526284542E+00	1.75908832606E+02	-3.90950307797E+01	-5.25285130151E+00	-5.98602669385E+00	-5.04008770812E-01
9.65740637849E+05	-1.12153080549E+01	-1.67541820686E+02	9.74443882141E+00	1.75804257890E+02	-4.51358074685E+01	1.02881803335E+02	-6.00945936319E+00	-5.09249067912E-01
9.87931992444E+05	-9.83205244901E+00	1.74979268523E+02	9.75208164486E+00	1.75938039424E+02	-4.54274441117E+01	1.21579244149E+02	-5.94087358362E+00	-5.34255464328E-01
1.01012334704E+06	-1.19222958519E+01	1.78400683590E+02	9.75051307185E+00	1.75458778860E+02	-5.53320780452E+01	1.51774787412E+02	-6.00068878111E+00	-5.62682002529E-01
1.03231470163E+06	-1.06549580651E+01	-1.72619398524E+02	9.72499631110E+00	1.75320496678E+02	-5.39063409569E+01	8.75313037186E+01	-5.96468584751E+00	-6.37669271616E-01
1.05450605623E+06	-8.87105065325E+00	1.78003377201E+02	9.74634615263E+00	1.75399487696E+02	-4.95091312059E+01	9.07967470347E+01	-5.96109126321E+00	-5.76808065144E-01
1.07669741082E+06	-1.09138700837E+01	1.75937457413E+02	9.74402485338E+00	1.74996282885E+02	-4.37880633301E+01	3.25260786017E+01	-5.97947403496E+00	-5.34314285738E-01
1.09888876542E+06	-9.76258677642E+00	-1.67559191951E+02	9.73539966017E+00	1.75017067197E+02	-4.57734111962E+01	4.98958929506E+01	-5.96053336969E+00	-5.09543802202E-01
1.12108012001E+06	-1.10491500037E+01	1.71702262329E+02	9.75517807988E+00	1.74995947413E+02	-4.57956272559E+01	7.46291425075E+01	-5.98622201549E+00	-5.81722855542E-01
1.14327147461E+06	-1.03049913552E+01	-1.69038696290E+02	9.74703289735E+00	1.74786975768E+02	-5.77857199584E+01	1.49100115072E+02	-5.96578361794E+00	-6.26898611945E-01
1.16546282920E+06	-9.48275898718E+00	-1.76669421299E+02	9.75758090868E+00	1.74627858187E+02	-4.89649703993E+01	8.35284764175E+01	-5.97122580822E+00	-4.89796133682E-01
1.18765418380E+06	-1.07874430228E+01	1.69462196462E+02	9.71205651406E+00	1.74514614321E+02	-4.50729654370E+01	-3.38397400545E+01	-5.96948562789E+00	-7.03373120666E-01
1.20984553839E+06	-1.24112109412E+01	1.76133482225E+02	9.71789629244E+00	1.74413461688E+02	-4.63891155947E+01	2.06983250820E+01	-5.97862238076E+00	-1.01554834890E+00
1.23203689299E+06	-9.82770305315E+00	-1.70510581874E+02	9.75825361290E+00	1.74262117442E+02	-5.67705606267E+01	-1.78764387270E+02	-5.97333467985E+00	-4.65685523272E-01
1.25422824758E+06	-9.70101012689E+00	1.73630785227E+02	9.73791847299E+00	1.74031625083E+02	-4.20541248136E+01	3.71830602467E+01	-5.96217827200E+00	-6.59005773415E-01
1.27641960218E+06	-9.27913461634E+00	1.77520900095E+02	9.75503645118E+00	1.73874741445E+02	-4.59849596684E+01	-1.66284044050E+01	-5.96714747210E+00	-7.02448409671E-01
1.29861095677E+06	-9.14099388465E+00	1.74889500722E+02	9.74988123820E+00	1.73864026874E+02	-4.89570107886E+01	-1.51495983332E+02	-5.95532807523E+00	-7.91420537362E-01
1.32080231137E+06	-9.40499981226E+00	1.77973654771E+02	9.74063071357E+00	1.73493389895E+02	-4.46025437380E+01	-1.08944900568E+01	-5.96947342124E+00	-1.06250565847E+00
1.34299366596E+06	-9.14366247135E+00	1.76095507305E+02	9.74149773492E+00	1.73400158824E+02	-5.19193391219E+01	-3.61026679677E+01	-5.97250583401E+00	-8.70524428519E-01
1.36518502056E+06	-8.94253781479E+00	-1.79865634604E+02	9.76574049583E+00	1.73482760245E+02	-4.45664243714E+01	5.25808946050E+01	-5.97579569177E+00	-8.59393263834E-01
1.38737637515E+06	-9.32101250654E+00	-1.72938294600E+02	9.75768453744E+00	1.73285565936E+02	-5.26196683018E+01	3.20060225448E+01	-5.96088575562E+00	-7.67009622756E-01
1.40956772975E+06	-8.68416741870E+00	1.65373411804E+02	9.72136702415E+00	1.73072434099E+02	-4.21403667853E+01	7.93356256149E+01	-5.95507377445E+00	-8.10645272824E-01
1.43175908434E+06	-1.00863946246E+01	1.72007098525E+02	9.75777660986E+00	1.72867055158E+02	-5.44397852073E+01	1.71777206031E+02	-5.95880491282E+00	-7.18206179008E-01
1.45395043894E+06	-9.85673805860E+00	-1.70893157471E+02	9.72336510445E+00	1.72764644686E+02	-4.45341209116E+01	-1.44279866188E+02	-5.97478570728E+00	-8.28321896680E-01
1.47614179353E+06	-1.01482669188E+01	1.77821708762E+02	9.72918317923E+00	1.72618189614E+02	-4.32566763185E+01	-1.18507580430E+02	-5.97000500262E+00	-7.23331255344E-01
1.49833314813E+06	-8.34638088004E+00	-1.74465539102E+02	9.75052595729E+00	1.72704789878E+02	-5.04186505050E+01	9.45683344607E+01	-5.95408657748E+00	-9.31108884164E-01
1.52052450272E+06	-9.97965674612E+00	-1.71053531391E+02	9.73818947145E+00	1.72273524440E+02	-4.97749164725E+01	8.69719456767E+01	-5.96720506678E+00	-7.62841826066E-01
1.54271585732E+06	-9.53751242705E+00	-1.71816519150E+02	9.75153672682E+00	1.72172829518E+02	-5.28966252238E+01	-1.33305767656E+02	-5.97680048831E+00	-8.28466081306E-01
1.56490721191E+06	-9.12963738899E+00	1.74639960589E+02	9.73392932746E+00	1.72140734244E+02	-4.46934305832E+01	7.84708193348E+01	-5.97568352333E+00	-8.06299513937E-01
1.58709856651E+06	-1.10495009171E+01	1.69417411031E+02	9.75317238321E+00	1.71928634028E+02	-4.87620982368E+01	-4.45678091954E+01	-5.96705852567E+00	-7.92140083384E-01
1.60928992110E+06	-1.21109493070E+01	-1.77878582378E+02	9.75510250371E+00	1.71834459787E+02	-4.13582119989E+01	-1.18661206366E+02	-5.96240089498E+00	-8.90505890700E-01
1.63148127570E+06	-1.14527473454E+01	1.61660552879E+02	9.73337833675E+00	1.71529742982E+02	-4.84914349033E+01	-9.58815559394E+00	-5.98656466075E+00	-9.00437595262E-01
1.65367263029E+06	-9.50347059186E+00	-1.73143313440E+02	9.74551564552E+00	1.71485167806E+02	-4.77794379349E+01	-3.39918527053E+01	-5.98541326580E+00	-9.69360787686E-01
1.67586398489E+06	-9.29048653285E+00	-1.76748586142E+02	9.76129297106E+00	1.71392031854E+02	-4.19093380186E+01	1.00727301102E+02	-5.96816466714E+00	-7.54697599015E-01
1.69805533948E+06	-9.62814860235E+00	-1.73539802583E+02	9.76980235621E+00	1.71516668902E+02	-4.54292330390E+01	9.12146278973E+01	-5.97190908136E+00	-8.66621653792E-01
1.72024669408E+06	-9.67783721136E+00	1.72173567057E+02	9.69047867653E+00	1.70975097244E+02	-4.47557203285E+01	-4.91694712267E+01	-5.99050746801E+00	-8.81668627800E-01
1.74243804867E+06	-1.10728497542E+01	1.73226337315E+02	9.74116195518E+00	1.71149796008E+02	-3.67222942318E+01	-5.18763103007E+01	-5.97963221696E+00	-7.60516714585E-01
1.76462940327E+06	-1.24406558360E+01	-1.73031283054E+02	9.70133718487E+00	1.70920858481E+02	-5.08383392385E+01	1.54933204339E+02	-5.97190869222E+00	-8.25931377136E-01
1.78682075786E+06	-1.00838233090E+01	1.79664559761E+02	9.76069741908E+00	1.70959564418E+02	-5.40027345436E+01	-1.35122469042E+01	-5.96839370318E+00	-8.45996934618E-01
1.80901211246E+06	-1.08318405172E+01	1.59987440914E+02	9.72838994912E+00	1.70652164891E+02	-3.97068113490E+01	1.42690103488E+02	-5.96191882780E+00	-8.52936705113E-01
1.83120346705E+06	-1.06651376716E+01	-1.78692317928E+02	9.71360377945E+00	1.70802602662E+02	-4.63219998330E+01	1.53298915925E+02	-5.96611656057E+00	-8.08659416606E-01
1.85339482165E+06	-9.87809896524E+00	1.73621106650E+02	9.72444967374E+00	1.70227321923E+02	-4.74843097961E+01	-1.44641482253E+02	-5.97853701392E+00	-9.19747406819E-01
1.87558617624E+06	-1.02861369042E+01	1.75981155445E+02	9.75351268663E+00	1.70333505743E+02	-3.81194335812E+01	3.27542399053E+00	-5.95507356779E+00	-1.07733747982E+00
1.89777753084E+06	-1.06104589317E+01	1.79382138416E+02	9.74184218665E+00	1.70356557320E+02	-4.34377486513E+01	1.66693492270E+02	-5.97550767100E+00	-9.42917289288E-01
1.91996888543E+06	-9.45961490885E+00	1.79577734848E+02	9.76772376315E+00	1.70195841843E+02	-4.56274832066E+01	3.81846725012E+01	-5.95465841715E+00	-1.22750993987E+00
1.94216024003E+06	-1.05101855028E+01	1.68960079045E+02	9.74056489187E+00	1.69897509432E+02	-6.34592686148E+01	1.42392757606E+02	-5.97590728583E+00	-9.22020371410E-01
1.96435159462E+06	-9.92059957778E+00	-1.74244076355E+02	9.75491721305E+00	1.69893566303E+02	-4.20306570865E+01	1.23289925998E+02	-5.97242954806E+00	-9.15511275822E-01
1.98654294922E+06	-9.35017032096E+00	1.74560458185E+02	9.74984154362E+00	1.69574836177E+02	-4.57371583218E+01	6.09203483326E+01	-5.95127995996E+00	-1.07392675169E+00
2.00873430381E+06	-1.14579662373E+01	-1.74178010489E+02	9.75094778012E+00	1.69603475421E+02	-4.44457626149E+01	-2.20316345399E+00	-5.95000085856E+00	-8.98335794936E-01
2.03092565841E+06	-1.04402362727E+01	1.76210988237E+02	9.70458272048E+00	1.69338480028E+02	-4.75723528983E+01	-9.41385918994E+01	-5.94698663162E+00	-1.13969517582E+00
2.05311701300E+06	-8.54233807751E+00	-1.72944664147E+02	9.78075445174E+00	1.69311352218E+02	-4.14147335289E+01	9.20333202869E+01	-5.96019894406E+00	-9.48108936368E-01
2.07530836760E+06	-1.09866895681E+01	-1.77934938987E+02	9.70996320187E+00	1.69285787029E+02	-5.69114944775E+01	8.05623287248E+01	-5.95358408984E+00	-1.01574326910E+00
2.09749972219E+06	-9.31553054176E+00	1.71476672380E+02	9.77354718201E+00	1.68929988028E+02	-4.06691857693E+01	-1.07676305491E+02	-5.98277413282E+00	-1.08204899083E+00
2.11969107679E+06	-1.38109085543E+01	-1.77649170531E+02	9.73361761103E+00	1.68889826374E+02	-5.33531206009E+01	-5.96200398691E+01	-5.96297506957E+00	-1.16953007821E+00
2.14188243138E+06	-1.03554680550E+01	-1.66264049461E+02	9.74659424814E+00	1.69187861935E+02	-5.31531080580E+01	4.49021977266E+01	-5.93383950641E+00	-8.87677667667E-01
2.16407378598E+06	-8.92850503297E+00	1.74931250600E+02	9.72668160929E+00	1.68811781181E+02	-4.17870754237E+01	-1.91278573846E+01	-5.97743174382E+00	-1.06412743555E+00
2.18626514057E+06	-1.02772589768E+01	1.79797184090E+02	9.72799643907E+00	1.68594040134E+02	-4.59840174519E+01	6.95498601431E+01	-5.99922774875E+00	-1.04143385426E+00
2.20845649517E+06	-9.23370763399E+00	-1.75899043996E+02	9.76101486424E+00	1.68472341183E+02	-4.38195270258E+01	-1.63115450072E+02	-5.99443843243E+00	-1.02111040402E+00
2.23064784976E+06	-1.28850460390E+01	-1.78739876647E+02	9.73556203579E+00	1.68302430503E+02	-5.80689312086E+01	-4.39162700596E+01	-5.97835257275E+00	-9.37150346407E-01
2.25283920436E+06	-1.21884219672E+01	-1.72335084982E+02	9.75078284895E+00	1.68343222381E+02	-4.65578537089E+01	-8.19621497396E+01	-5.99346097717E+00	-9.11406938075E-01
2.27503055895E+06	-1.17801501450E+01	-1.65292393226E+02	9.76052368184E+00	1.68085075949E+02	-4.33682775901E+01	4.06108337199E+01	-5.97987575061E+00	-1.03656267637E+00
2.29722191355E+06	-1.01543784562E+01	-1.76540302911E+02	9.74153538445E+00	1.67905350044E+02	-5.46978162989E+01	1.66355862592E+02	-5.97666590665E+00	-9.17090944085E-01
2.31941326814E+06	-9.88158988686E+00	-1.71158764908E+02	9.73344571668E+00	1.67854217528E+02	-4.56106881007E+01	1.32627091242E+02	-5.96752648541E+00	-1.11729894437E+00
2.34160462274E+06	-1.00940933987E+01	1.69658544478E+02	9.72665129075E+00	1.67633790787E+02	-4.23821396809E+01	-1.19492136932E+02	-5.97745066331E+00	-1.25896155495E+00
2.36379597733E+06	-9.57190904228E+00	1.74597946704E+02	9.74285634143E+00	1.67577528022E+02	-4.80089480609E+01	-1.37739178112E+02	-5.96215971899E+00	-1.18263401870E+00
2.38598733193E+06	-1.07967655149E+01	1.78242529792E+02	9.74402469679E+00	1.67378732009E+02	-4.07828130844E+01	9.53309228224E+01	-5.94352552993E+00	-1.11705438785E+00
2.40817868652E+06	-1.05685215862E+01	-1.78778354486E+02	9.74795172142E+00	1.67344095420E+02	-4.33345228680E+01	-7.86093199853E+00	-5.91114450999E+00	-1.32613324372E+00
2.43037004112E+06	-9.26438191526E+00	-1.72054364684E+02	9.71282350204E+00	1.67246945163E+02	-4.35460938914E+01	-1.57017417607E+02	-5.96681275552E+00	-1.54921917681E+00
2.45256139571E+06	-1.04605884875E+01	1.72238185657E+02	9.70949525981E+00	1.66982868357E+02	-5.11068591708E+01	-1.51000742962E+02	-5.98904600342E+00	-9.35352088308E-01
2.47475275031E+06	-9.53524253475E+00	-1.74054437208E+02	9.71919595986E+00	1.66891777271E+02	-4.59123517203E+01	-1.87723517390E+01	-5.97251931535E+00	-1.08340205292E+00
2.49694410490E+06	-1.11651496698E+01	1.79274194019E+02	9.73398391722E+00	1.66988949662E+02	-4.80485288923E+01	-3.24245935815E+01	-5.99038131904E+00	-1.02165404162E+00
2.51913545950E+06	-1.02160180294E+01	-1.73121084928E+02	9.74225706086E+00	1.66732361826E+02	-5.06832472643E+01	-1.71324320716E+02	-5.96268370509E+00	-1.18925984707E+00
2.54132681409E+06	-1.01182586264E+01	1.79674771085E+02	9.76853267055E+00	1.66667638603E+02	-4.25720518308E+01	9.61722730789E+01	-5.96008134397E+00	-1.07424251863E+00
2.56351816869E+06	-9.86760345117E+00	1.75973591131E+02	9.74254709279E+00	1.66698243890E+02	-4.71034888261E+01	-6.71451367131E+01	-6.00686856364E+00	-1.19580083794E+00
2.58570952328E+06	-1.03780744196E+01	-1.76972589924E+02	9.74478985402E+00	1.66385866915E+02	-5.09888438472E+01	-1.74193018427E+02	-5.97468082168E+00	-1.24779707368E+00
2.60790087788E+06	-1.08579525500E+01	-1.75060277204E+02	9.73560049542E+00	1.66224295091E+02	-5.61945843521E+01	-4.12839507910E+01	-5.97830174085E+00	-1.08667244371E+00
2.63009223247E+06	-1.02622954760E+01	1.79142932203E+02	9.74014636152E+00	1.66224610988E+02	-4.13641760223E+01	5.84293563017E+01	-5.98313162879E+00	-1.26308303618E+00
2.65228358707E+06	-1.11489416171E+01	-1.66185763614E+02	9.77350303502E+00	1.66051766422E+02	-6.21876947096E+01	8.21703008164E+01	-5.97138625911E+00	-1.54914273977E+00
2.67447494166E+06	-9.37422723603E+00	1.70530273421E+02	9.68336085632E+00	1.65931539083E+02	-5.19602340127E+01	1.52148408306E+02	-5.97196700353E+00	-1.30874089652E+00
2.69666629626E+06	-9.84122920595E+00	-1.77863598082E+02	9.74243407036E+00	1.65934157561E+02	-4.58505418997E+01	1.41203893405E+02	-5.97518814056E+00	-1.19207996293E+00
2.71885765085E+06	-1.16452628937E+01	1.73044484111E+02	9.75336515838E+00	1.65659890418E+02	-5.07046816353E+01	-6.77295204719E+01	-5.96022778544E+00	-1.21189747300E+00
2.74104900545E+06	-9.43988916126E+00	1.78482686352E+02	9.74789574511E+00	1.65389398527E+02	-4.84615388312E+01	1.18285426432E+02	-5.98036517347E+00	-1.23993484970E+00
2.76324036004E+06	-1.02565131092E+01	1.77907035984E+02	9.70027498082E+00	1.65563563912E+02	-4.41931039995E+01	1.59277810230E+02	-5.94939775837E+00	-1.22743288596E+00
2.78543171463E+06	-8.97816761732E+00	-1.73900870290E+02	9.72809676450E+00	1.65471213470E+02	-5.30085764593E+01	4.55551950385E+01	-5.97790168933E+00	-1.22376367094E+00
2.80762306923E+06	-1.13531356328E+01	-1.79191989823E+02	9.76381312237E+00	1.65138109527E+02	-4.57135705484E+01	1.78718323384E+02	-5.96311290253E+00	-1.29946495845E+00
2.82981442382E+06	-1.08472850050E+01	-1.78867857037E+02	9.78907003773E+00	1.64884814486E+02	-5.86337366226E+01	-1.33017065291E+02	-5.98313404511E+00	-1.19816664447E+00
2.85200577842E+06	-8.62063438576E+00	-1.76042874163E+02	9.75864043662E+00	1.64714299003E+02	-4.42629634892E+01	1.31742913681E+02	-5.97373038181E+00	-1.21030962270E+00
2.87419713301E+06	-9.80567655410E+00	-1.78428778002E+02	9.74520868099E+00	1.64760634511E+02	-4.86897463559E+01	7.65196539918E+01	-5.98487168330E+00	-1.30200569882E+00
