# Hz S DB R 50
! CMT, M5065, 19127446, 24.2.4/2
! Date: 10/29/2024 12:42:17 PM
! Data: Format (Calibration Info)
! Freq	S11:dB/Ang(F2)	S21:dB/Ang(F2)	S12:dB/Ang(F2)	S22:dB/Ang(F2)
3.00000000000E+05	-1.08057028660E+01	-1.77390714466E+02	1.52283123270E+01	-1.77843630712E+02	-4.01167215540E+01	-1.32978371309E+02	-5.96472146346E+00	-3.15997701582E-01
3.22191354595E+05	-9.59318303070E+00	-1.65368179476E+02	1.52629870175E+01	-1.78100157414E+02	-4.21098866741E+01	-6.05377156234E+01	-5.94742675938E+00	-3.87995020252E-01
3.44382709190E+05	-1.07221822692E+01	-1.78996411173E+02	1.52575722522E+01	-1.78637874477E+02	-3.77365643770E+01	-1.14266987276E+02	-5.94879981601E+00	-1.32838581416E-01
3.66574063785E+05	-7.08550923257E+00	1.79743939658E+02	1.52657220742E+01	-1.79165033415E+02	-3.67736950836E+01	-1.26509800419E+02	-5.99862077191E+00	-7.76950199165E-02
3.88765418380E+05	-1.05579778811E+01	1.73136381801E+02	1.52975433110E+01	-1.79503477768E+02	-4.98556549227E+01	-1.07346304410E+02	-5.95180126538E+00	-2.44938837826E-01
4.10956772975E+05	-1.28301943147E+01	-1.69085524910E+02	1.52485856247E+01	-1.79581669106E+02	-3.77830362996E+01	-6.30360302044E+01	-6.02869257269E+00	-7.14612339504E-02
4.33148127570E+05	-9.37914583976E+00	-1.67552481561E+02	1.53425034122E+01	1.79958227520E+02	-4.32510288696E+01	3.95666505303E+01	-5.99079479417E+00	-3.41292280103E-01
4.55339482165E+05	-1.30665823524E+01	-1.52495544058E+02	1.52773702315E+01	1.79258498287E+02	-4.14416614110E+01	1.24216072164E+02	-5.96744558637E+00	-5.07410714835E-01
4.77530836760E+05	-1.02740092376E+01	1.46302658853E+02	1.52654288758E+01	1.79168604070E+02	-3.19819507983E+01	3.30240263549E+01	-5.93730001540E+00	-4.59676197695E-01
4.99722191355E+05	-8.71346205540E+00	-1.79241149870E+02	1.52838667367E+01	1.78684843361E+02	-5.78129876217E+01	1.06268281205E+02	-5.96343147412E+00	-2.99525673550E-01
5.21913545950E+05	-1.22501909376E+01	-1.63395765001E+02	1.52473375842E+01	1.78366300966E+02	-4.05186407505E+01	-5.62118880225E+01	-5.98975785386E+00	-3.88520762591E-01
5.44104900545E+05	-1.24719414564E+01	1.69162822946E+02	1.52825790308E+01	1.78268713059E+02	-4.65938807561E+01	5.04546536482E+01	-5.93966142316E+00	-3.21648656212E-01
5.66296255139E+05	-6.43314156252E+00	-1.76294964571E+02	1.52655886974E+01	1.78130527077E+02	-4.96052660744E+01	-1.58233510581E+01	-5.97062349792E+00	-6.08867704755E-01
5.88487609734E+05	-8.06389490653E+00	-1.52278261524E+02	1.52840841550E+01	1.77580752610E+02	-4.38474657607E+01	-3.85988484745E+01	-5.95309287003E+00	-4.35397387511E-01
6.10678964329E+05	-1.20270816377E+01	1.73617030656E+02	1.53058107617E+01	1.77378909524E+02	-4.13996598895E+01	-1.48226717661E+02	-6.01301059557E+00	7.10712395192E-03
6.32870318924E+05	-6.69417624525E+00	-1.63770240504E+02	1.52621151868E+01	1.77200233077E+02	-4.06683157278E+01	-7.53208907280E+01	-6.02958811459E+00	-3.36593914687E-01
6.55061673519E+05	-8.96297220353E+00	1.79252358176E+02	1.52931201446E+01	1.77177745817E+02	-3.23509792019E+01	-3.66966840414E+01	-6.01270594741E+00	-7.36484640762E-01
6.77253028114E+05	-1.02778754631E+01	-1.70529510352E+02	1.52914065961E+01	1.76717699571E+02	-3.60435670258E+01	6.79827486306E+01	-5.94300760858E+00	-5.58192848185E-01
6.99444382709E+05	-1.13179107029E+01	-1.63409799093E+02	1.52873284346E+01	1.76905334197E+02	-4.63476453855E+01	-5.64870244720E+00	-5.98314709730E+00	-4.94584326975E-01
7.21635737304E+05	-1.07269157656E+01	1.62156487140E+02	1.53306144575E+01	1.75944676885E+02	-4.06712884595E+01	6.36373144618E+01	-5.95097909547E+00	-2.78102548296E-01
7.43827091899E+05	-9.19280633666E+00	-1.68286896420E+02	1.52608676149E+01	1.76477396981E+02	-3.69196806101E+01	1.79847939545E+02	-5.97089991296E+00	-4.05338963220E-01
7.66018446494E+05	-1.10302048919E+01	-1.79241800033E+02	1.53199455068E+01	1.75920684948E+02	-3.62997060859E+01	-4.53284272735E+01	-5.97063843863E+00	-5.29863668737E-01
7.88209801089E+05	-1.14380157583E+01	-1.68752872522E+02	1.53243421958E+01	1.75409718639E+02	-4.38135216054E+01	1.36427591486E+02	-6.04310700763E+00	-4.12119260662E-01
8.10401155684E+05	-1.39867287748E+01	-1.73482697490E+02	1.52519344562E+01	1.75322439985E+02	-4.68746291425E+01	8.31736759807E+01	-5.99229471950E+00	-8.45672601957E-01
8.32592510279E+05	-7.89553620359E+00	1.66850279137E+02	1.52592372299E+01	1.75172714235E+02	-4.32900802568E+01	-6.37025017911E+01	-5.98637417382E+00	-6.07008791544E-01
8.54783864874E+05	-1.16779143392E+01	1.59594409199E+02	1.53149096743E+01	1.74998275663E+02	-5.06176690441E+01	1.04632680854E+02	-6.00609464362E+00	-5.20470198176E-01
8.76975219469E+05	-1.06987786368E+01	-1.65834057485E+02	1.53072330901E+01	1.74781092153E+02	-4.12649368980E+01	-1.35717250095E+02	-5.93848836988E+00	-5.24433262406E-01
8.99166574064E+05	-7.77294388459E+00	1.68264738416E+02	1.52886156115E+01	1.74558003022E+02	-4.82504386917E+01	-1.16227032843E+02	-5.95523643718E+00	-4.14085734577E-01
9.21357928659E+05	-1.09834823478E+01	1.66334020404E+02	1.52800902319E+01	1.74403600586E+02	-4.23255030779E+01	-8.78934869974E+01	-5.97541908942E+00	-1.47195522003E-01
9.43549283254E+05	-1.20645438535E+01	-1.78288765199E+02	1.52467992696E+01	1.74033482304E+02	-3.50648521127E+01	-3.81396728110E+01	-5.98145324115E+00	-4.21055128797E-01
9.65740637849E+05	-8.82720591157E+00	-1.72139075312E+02	1.52701495523E+01	1.73971164788E+02	-3.85985579574E+01	-2.20337297002E+01	-5.94103207028E+00	-6.43063661168E-01
9.87931992444E+05	-1.00488384964E+01	1.73918085094E+02	1.52795475939E+01	1.73715357350E+02	-3.85764439959E+01	-1.32522225907E+01	-5.98670026870E+00	-4.99755262876E-01
1.01012334704E+06	-7.78115490022E+00	1.75096539219E+02	1.52449034919E+01	1.73626671914E+02	-3.75272702185E+01	4.77001011495E+01	-5.96589972472E+00	-5.88095978422E-01
1.03231470163E+06	-1.17128359901E+01	-1.67426853149E+02	1.53184300150E+01	1.73463310758E+02	-5.42513176795E+01	5.80632606992E+01	-5.98599167535E+00	-4.37087343351E-01
1.05450605623E+06	-1.09271370449E+01	1.73640938039E+02	1.53106526098E+01	1.72997012876E+02	-3.90530210136E+01	-1.24372794758E+02	-5.97301240786E+00	-5.91922089239E-01
1.07669741082E+06	-9.84127264061E+00	-1.79075002370E+02	1.52685323715E+01	1.72899154233E+02	-4.55770419852E+01	-4.76724956875E+01	-5.97981365577E+00	-9.16335100264E-01
1.09888876542E+06	-1.10568722519E+01	-1.76738818567E+02	1.52548702145E+01	1.72627758508E+02	-4.88926887697E+01	1.01187755347E+02	-5.97172317694E+00	-8.39949963562E-01
1.12108012001E+06	-7.87807759197E+00	1.75475695813E+02	1.52536313894E+01	1.72591569184E+02	-3.41555961728E+01	-1.46270399585E+02	-5.95404484046E+00	-5.14756890622E-01
1.14327147461E+06	-1.02678599155E+01	-1.73189457308E+02	1.52516275540E+01	1.72235418067E+02	-3.89848932735E+01	9.45028273790E+01	-5.97568844213E+00	-4.95848999182E-01
1.16546282920E+06	-1.00870781918E+01	-1.76124454887E+02	1.52610425610E+01	1.72349198411E+02	-3.94426290866E+01	-1.78613695502E+02	-5.93519742536E+00	-7.14921662367E-01
1.18765418380E+06	-8.46462816677E+00	1.77052243576E+02	1.52642186473E+01	1.71677813753E+02	-4.32905750587E+01	5.87192228057E+01	-5.96864696630E+00	-5.31318425947E-01
1.20984553839E+06	-1.02972007822E+01	-1.74065177452E+02	1.52854588882E+01	1.71888445241E+02	-3.91975456820E+01	1.57174745272E+02	-5.99885606325E+00	-7.34157304319E-01
1.23203689299E+06	-1.10613736291E+01	-1.67237801612E+02	1.52691251172E+01	1.71663683333E+02	-3.86070629065E+01	-8.76718192995E+01	-5.97852045032E+00	-6.15474544293E-01
1.25422824758E+06	-9.32760289037E+00	1.73266274516E+02	1.52799246220E+01	1.71211534175E+02	-4.37275793972E+01	4.34026942793E+01	-5.98609058418E+00	-8.78711223810E-01
1.27641960218E+06	-7.04092023272E+00	1.65211176425E+02	1.52935725823E+01	1.71226784881E+02	-4.80600367735E+01	1.36692346194E+02	-6.00917273161E+00	-5.19043424208E-01
1.29861095677E+06	-1.06560856941E+01	1.73808573355E+02	1.52682265264E+01	1.71038119661E+02	-3.50813034533E+01	9.23683637142E+01	-5.93050158896E+00	-7.54629815884E-01
1.32080231137E+06	-1.07036893763E+01	-1.77905211566E+02	1.52775181818E+01	1.70838461734E+02	-3.61864378423E+01	9.89298654301E+01	-5.96678382816E+00	-9.05580415488E-01
1.34299366596E+06	-9.82481364396E+00	-1.64273956466E+02	1.52715816712E+01	1.70717399098E+02	-3.73553933197E+01	6.10181623308E+01	-5.95169009827E+00	-1.00618896162E+00
1.36518502056E+06	-9.71914467514E+00	-1.74515660412E+02	1.51823457975E+01	1.70767595882E+02	-3.66574350782E+01	-4.33956474759E+01	-5.99349806901E+00	-4.69193904273E-01
1.38737637515E+06	-8.40438334003E+00	-1.69276735660E+02	1.52443615981E+01	1.70358874636E+02	-3.16701545581E+01	-1.42226470327E+02	-6.00147099406E+00	-5.95162929274E-01
1.40956772975E+06	-8.42900961510E+00	-1.55154000871E+02	1.52629687043E+01	1.70179234322E+02	-4.24116371110E+01	-5.83893273612E+01	-5.93608287779E+00	-5.94491664372E-01
1.43175908434E+06	-1.07031299647E+01	-1.73943860582E+02	1.52758601436E+01	1.69798657938E+02	-3.90872874122E+01	-1.10150714822E+02	-6.07371285414E+00	-4.32901613563E-01
1.45395043894E+06	-9.39895313767E+00	1.77984536282E+02	1.53026997990E+01	1.70227371821E+02	-3.93502589521E+01	8.54222602452E+01	-5.92415323099E+00	-8.99405471263E-01
1.47614179353E+06	-8.62587106948E+00	1.70913516845E+02	1.52898118632E+01	1.69455178880E+02	-4.01733078670E+01	1.76571549532E+02	-5.99735544037E+00	-7.51157218972E-01
1.49833314813E+06	-1.10205948443E+01	1.75533605204E+02	1.52400896669E+01	1.69430966795E+02	-4.57263169507E+01	1.39818236979E+02	-5.97516205170E+00	-4.91137630028E-01
1.52052450272E+06	-8.36640121920E+00	-1.73238814894E+02	1.52240561325E+01	1.69456634636E+02	-4.29085788650E+01	-1.62176546350E+02	-5.96477567230E+00	-8.81917365538E-01
1.54271585732E+06	-8.38593417567E+00	1.75796445361E+02	1.52503640902E+01	1.69395352132E+02	-4.49989776906E+01	-1.52480192626E+01	-6.01635667362E+00	-8.46767370055E-01
1.56490721191E+06	-1.76172825078E+01	1.60960896158E+02	1.52594282915E+01	1.68971273445E+02	-3.83604258988E+01	-3.99870782371E+01	-5.99969773456E+00	-9.91086889243E-01
1.58709856651E+06	-9.14963555361E+00	-1.75095693377E+02	1.52677315443E+01	1.68718041882E+02	-4.39462761534E+01	-2.01046629340E+01	-5.94783693821E+00	-5.23451286980E-01
1.60928992110E+06	-9.71130222152E+00	1.76016816227E+02	1.52428255162E+01	1.68657386359E+02	-4.51233545522E+01	4.03425646341E+01	-5.98730144560E+00	-6.86572183073E-01
1.63148127570E+06	-9.26662224634E+00	-1.78008210573E+02	1.52755769113E+01	1.68100671267E+02	-4.55181583689E+01	-1.59643131382E+02	-5.98964554926E+00	-9.66589199151E-01
1.65367263029E+06	-9.06281618925E+00	-1.75455656729E+02	1.52681946117E+01	1.68201092552E+02	-3.75280608474E+01	-1.70369280895E+02	-5.94568954434E+00	-4.70134095425E-01
1.67586398489E+06	-1.18334017805E+01	-1.49964549339E+02	1.53016007134E+01	1.68852452056E+02	-4.47850968100E+01	-1.22501796447E+02	-5.97879718279E+00	-9.73314139619E-01
1.69805533948E+06	-7.13872823224E+00	-1.51443003456E+02	1.52881484735E+01	1.67444194275E+02	-3.62828748278E+01	1.64221046406E+01	-5.96694912356E+00	-6.99063024731E-01
1.72024669408E+06	-8.01157715794E+00	-1.53627730630E+02	1.52420183095E+01	1.67527377908E+02	-3.65153387488E+01	-2.28009249450E+01	-5.96028244071E+00	-8.85355987193E-01
1.74243804867E+06	-9.68760893617E+00	-1.76108642122E+02	1.52345664659E+01	1.67977624379E+02	-3.86563755932E+01	3.91967198212E+01	-5.97172083796E+00	-7.64650238468E-01
1.76462940327E+06	-1.10804412761E+01	1.71707462571E+02	1.52650559433E+01	1.67662287274E+02	-4.11220046871E+01	1.37040951939E+02	-5.90201400348E+00	2.57874710115E-01
1.78682075786E+06	-9.44857247533E+00	-1.73423923386E+02	1.52574508766E+01	1.66992807155E+02	-4.26065611404E+01	-1.44983616785E+02	-5.95514043072E+00	-8.17960397985E-01
1.80901211246E+06	-1.07879521515E+01	1.76147059361E+02	1.52018546385E+01	1.67045746205E+02	-3.79081546117E+01	-8.65293903820E+00	-5.95107504468E+00	-1.01400438828E+00
1.83120346705E+06	-1.34132677760E+01	-1.57187379395E+02	1.51387710215E+01	1.66816963642E+02	-3.81340354341E+01	3.89852904040E+01	-5.97372638489E+00	-1.20434943750E+00
1.85339482165E+06	-8.36536680018E+00	-1.57728990823E+02	1.52704083325E+01	1.66605805345E+02	-4.48588046409E+01	1.47798731531E+02	-5.97226685531E+00	-1.05431978982E+00
1.87558617624E+06	-8.09159388480E+00	1.68595847269E+02	1.52068801479E+01	1.66530631621E+02	-4.70238031581E+01	-5.51914353476E+01	-5.95212932122E+00	-1.00974402409E+00
1.89777753084E+06	-1.11261749559E+01	-1.58886089841E+02	1.52616432977E+01	1.66172817164E+02	-4.18789131050E+01	1.71890898821E+02	-5.98241577617E+00	-5.56764063166E-01
1.91996888543E+06	-1.26573378320E+01	1.73814996123E+02	1.52546727587E+01	1.66106568957E+02	-3.39078046313E+01	9.08836825330E+01	-5.89931603874E+00	-2.26196892406E-01
1.94216024003E+06	-1.20077215164E+01	1.76074359433E+02	1.52617406810E+01	1.66032074158E+02	-3.67550001423E+01	-1.25121025995E+02	-5.99695863048E+00	-1.05714266833E+00
1.96435159462E+06	-1.05770140387E+01	1.78082952473E+02	1.52342933138E+01	1.65838533778E+02	-4.64511983235E+01	1.64484929272E+02	-5.92607146816E+00	-9.35398092385E-01
1.98654294922E+06	-1.04940202422E+01	1.74788694522E+02	1.52391229619E+01	1.65660744802E+02	-4.43841943895E+01	-3.53909879233E+01	-5.97943223160E+00	-8.25531698673E-01
2.00873430381E+06	-8.66883773484E+00	1.55332021485E+02	1.52337105335E+01	1.65226577310E+02	-3.37399680744E+01	9.86254106045E+01	-5.94381947695E+00	-1.17479906590E+00
2.03092565841E+06	-1.03171840331E+01	-1.65608424298E+02	1.52385153931E+01	1.65264185291E+02	-3.86179849764E+01	1.46561756885E+02	-5.99148008468E+00	-9.40497244056E-01
2.05311701300E+06	-1.08489452801E+01	-1.77325677996E+02	1.52189134778E+01	1.65064268414E+02	-3.95544896698E+01	1.32519335192E+02	-6.03826511624E+00	-1.24636774994E+00
2.07530836760E+06	-1.20012450520E+01	1.60563713709E+02	1.52426454102E+01	1.64714465214E+02	-4.00629127199E+01	2.16294191987E+01	-5.85991397113E+00	-1.31332913513E+00
2.09749972219E+06	-7.94175215943E+00	-1.75029175066E+02	1.52515723212E+01	1.64690722886E+02	-4.57610783036E+01	-2.16019944661E+01	-5.99512000271E+00	-8.97133991327E-01
2.11969107679E+06	-1.09997405859E+01	-1.74227297424E+02	1.52893399341E+01	1.64459872640E+02	-3.66984184282E+01	1.56586801863E+02	-5.96356354328E+00	-8.95427320107E-01
2.14188243138E+06	-9.80792124160E+00	-1.51775811520E+02	1.52579498321E+01	1.64646175455E+02	-3.94400150656E+01	1.07399078436E+02	-5.92570960685E+00	-9.95938767664E-01
2.16407378598E+06	-9.28948069703E+00	1.69671590173E+02	1.52244817879E+01	1.64304559277E+02	-3.83940602594E+01	1.55570585965E+02	-5.96887280220E+00	-1.15636962336E+00
2.18626514057E+06	-1.16884199343E+01	1.64759296435E+02	1.52321834185E+01	1.64040628363E+02	-4.66735684848E+01	1.52750150230E+01	-5.97458664389E+00	-1.04606554726E+00
2.20845649517E+06	-1.16740869766E+01	1.72176720504E+02	1.51921396773E+01	1.63966629982E+02	-4.77678371226E+01	1.33488904255E+02	-5.95345934370E+00	-8.52162719460E-01
2.23064784976E+06	-8.70427628829E+00	-1.45110697148E+02	1.52595141114E+01	1.63662982336E+02	-3.28421563615E+01	6.86662997528E+01	-5.99345202500E+00	-1.01210802311E+00
2.25283920436E+06	-9.09049150794E+00	-1.78576444990E+02	1.51952651997E+01	1.63496427719E+02	-3.41142242742E+01	-5.40387321280E+01	-5.98799340448E+00	-1.33665454236E+00
2.27503055895E+06	-9.39578025482E+00	-1.72210577089E+02	1.52096221720E+01	1.63259016924E+02	-3.74591045274E+01	-1.60108641333E+02	-5.97891544223E+00	-1.08019646212E+00
2.29722191355E+06	-7.20859383802E+00	1.79935120366E+02	1.53161072826E+01	1.63301741501E+02	-4.40544165825E+01	-3.28297160321E+01	-5.98437698885E+00	-1.06933687223E+00
2.31941326814E+06	-9.44944346988E+00	1.77294137877E+02	1.51951827388E+01	1.62654630544E+02	-4.26305342718E+01	1.67475049419E+02	-5.98281988363E+00	-8.25910501166E-01
2.34160462274E+06	-1.08568423779E+01	1.78132026713E+02	1.52210668760E+01	1.63072695130E+02	-4.52252346163E+01	3.53389200905E+01	-5.95790540687E+00	-8.46001145827E-01
2.36379597733E+06	-1.22950689520E+01	-1.70068313405E+02	1.52505307035E+01	1.62908704322E+02	-4.32168324357E+01	9.11586013500E+01	-5.95382063157E+00	-1.19797483272E+00
2.38598733193E+06	-1.05068050605E+01	1.76288945783E+02	1.52453713191E+01	1.62248806609E+02	-4.30825872230E+01	-2.28172433954E+01	-5.96657626610E+00	-1.42879115139E+00
2.40817868652E+06	-6.98684861533E+00	1.78657520257E+02	1.52137089038E+01	1.62386563602E+02	-4.17621841866E+01	-1.63997274140E+02	-5.89559741488E+00	-8.02234932836E-01
2.43037004112E+06	-1.21323992663E+01	-1.77747275810E+02	1.52400712771E+01	1.62240745890E+02	-4.24877493771E+01	-1.28850832353E+02	-5.96979801125E+00	-1.28272619791E+00
2.45256139571E+06	-1.21373438179E+01	-1.63397353155E+02	1.52372663627E+01	1.62649143595E+02	-4.05050961673E+01	-7.28908152597E+01	-5.95970596337E+00	-8.28781472485E-01
2.47475275031E+06	-5.96964183806E+00	1.78390995297E+02	1.52592077144E+01	1.61752409419E+02	-4.51152754776E+01	-1.08213277366E+02	-5.99665522492E+00	-1.14541459069E+00
2.49694410490E+06	-9.29589315067E+00	-1.70109511300E+02	1.52639810139E+01	1.61510856325E+02	-3.78780598490E+01	-1.60235408709E+02	-5.99953807155E+00	-1.17136444132E+00
2.51913545950E+06	-1.08682333098E+01	1.72225000268E+02	1.52084412940E+01	1.61444508264E+02	-4.76186098218E+01	4.13729833048E+01	-5.90566396372E+00	-1.09406242670E+00
2.54132681409E+06	-8.21406806914E+00	1.64533431004E+02	1.52367074622E+01	1.61300949187E+02	-3.94101274097E+01	2.76253502401E+01	-5.89421876469E+00	-1.11509666471E+00
2.56351816869E+06	-1.17740140315E+01	1.71699135999E+02	1.52262858554E+01	1.61194262544E+02	-3.76271254716E+01	8.39855865158E+01	-5.98147275429E+00	-1.22209454182E+00
2.58570952328E+06	-1.06596525851E+01	1.73464003455E+02	1.52457519526E+01	1.61221664824E+02	-3.80535264112E+01	6.51156610919E+01	-5.98273963137E+00	-1.27703625835E+00
2.60790087788E+06	-1.03776638000E+01	-1.64309109351E+02	1.52714230937E+01	1.61032533451E+02	-3.97419799584E+01	-2.49657768517E+01	-5.98763477215E+00	-1.30157735553E+00
2.63009223247E+06	-9.69686897590E+00	-1.76663634098E+02	1.52196308715E+01	1.60641924328E+02	-3.68427061117E+01	-8.02925284850E+01	-6.00651640436E+00	-1.24306968087E+00
2.65228358707E+06	-9.06406269905E+00	-1.78282455454E+02	1.52331036020E+01	1.60592581991E+02	-4.01178001560E+01	7.94253950481E+01	-5.96835036501E+00	-1.94566317431E+00
2.67447494166E+06	-1.13839076690E+01	1.78383819646E+02	1.52237089924E+01	1.60528133658E+02	-5.25211495894E+01	-2.11678780894E+01	-5.92870439543E+00	-1.52716225327E+00
2.69666629626E+06	-1.07742743601E+01	1.63314836286E+02	1.52196898900E+01	1.60213527585E+02	-4.16686859211E+01	3.35815356579E+01	-5.98387544871E+00	-1.45313011716E+00
2.71885765085E+06	-1.11214213339E+01	1.64655712336E+02	1.52482690322E+01	1.59813568860E+02	-3.46844628819E+01	-7.50968655777E+01	-5.98382647936E+00	-1.30721636090E+00
2.74104900545E+06	-1.12654631393E+01	1.59788393024E+02	1.52115580961E+01	1.59798291955E+02	-3.42511128626E+01	-1.64098943358E+02	-6.00303759903E+00	-1.27715299990E+00
2.76324036004E+06	-9.50559168874E+00	-1.74482720762E+02	1.52059119806E+01	1.59953991487E+02	-3.97704691588E+01	-2.03577234201E+01	-5.97915623723E+00	-1.39362037769E+00
2.78543171463E+06	-1.27247075420E+01	-1.70286739620E+02	1.52265559209E+01	1.59252168534E+02	-4.34646977659E+01	-1.15798494878E+02	-5.96554075895E+00	-1.46033752097E+00
2.80762306923E+06	-9.64515750394E+00	-1.79277364981E+02	1.52367050286E+01	1.59388463148E+02	-4.06532155746E+01	-2.12897615133E+01	-5.94956172756E+00	-1.36749903186E+00
2.82981442382E+06	-9.21663537865E+00	-1.66887952853E+02	1.52332076880E+01	1.59147428519E+02	-4.27319608371E+01	9.13680837195E+01	-5.97931920374E+00	-1.53475289764E+00
2.85200577842E+06	-1.02979492500E+01	-1.49761859548E+02	1.52606060636E+01	1.58887775909E+02	-3.89263508399E+01	1.11292283014E+02	-5.87708316749E+00	-1.46110206171E+00
2.87419713301E+06	-8.92248631299E+00	1.57478675362E+02	1.52153168814E+01	1.58925638292E+02	-3.38241387201E+01	-1.45700678184E+02	-6.02499460510E+00	-1.02338732820E+00
