# Hz S DB R 50
! CMT, M5065, 19127446, 24.2.4/2
! Date: 10/29/2024 12:50:53 PM
! Data: Format (Calibration Info)
! Freq	S11:dB/Ang(F2)	S21:dB/Ang(F2)	S12:dB/Ang(F2)	S22:dB/Ang(F2)
3.00000000000E+05	-8.97710296371E+00	-1.56729607619E+02	2.40958567705E+01	-1.76935212100E+02	-3.80116517744E+01	-1.50401093433E+02	-6.05247739762E+00	-5.59021233412E-01
3.22191354595E+05	-9.69038655750E+00	-1.72844838672E+02	2.40736767195E+01	-1.77677969952E+02	-3.97663255076E+01	-1.52254928958E+01	-6.00753496504E+00	-6.36630158125E-01
3.44382709190E+05	-1.01019720292E+01	-1.67455738950E+02	2.41325683274E+01	-1.78519711297E+02	-5.15791994615E+01	1.65852657761E+02	-5.98154958856E+00	-1.18323802329E-01
3.66574063785E+05	-7.51626019868E+00	-1.71814751776E+02	2.41691729272E+01	-1.79387753904E+02	-3.43603539096E+01	-7.63883626698E+01	-5.96689754398E+00	-5.72789460651E-01
3.88765418380E+05	-1.06353110711E+01	-1.64549966714E+02	2.41312099790E+01	-1.79913662362E+02	-6.49033982426E+01	-1.57007634220E+02	-5.95581474344E+00	-5.66396962958E-01
4.10956772975E+05	-1.18870046418E+01	-1.78778185624E+02	2.40815541823E+01	1.79237080424E+02	-3.39824860462E+01	-7.52583416208E+01	-5.97430985952E+00	-2.14132674459E-01
4.33148127570E+05	-9.75018259637E+00	-1.72358563555E+02	2.41280834677E+01	1.78559346750E+02	-4.42884313603E+01	1.70903165022E+02	-6.03443675934E+00	-6.02782016901E-01
4.55339482165E+05	-1.27714278801E+01	1.51554682409E+02	2.41130559622E+01	1.77939246079E+02	-3.41268481244E+01	1.53832162295E+02	-6.00972826629E+00	-1.66451364919E-01
4.77530836760E+05	-1.13616088973E+01	-1.72075632566E+02	2.41073141166E+01	1.77132238164E+02	-3.60953223990E+01	-1.41010879704E+02	-5.96152873517E+00	-3.47214255731E-01
4.99722191355E+05	-7.49517545508E+00	-1.71260855470E+02	2.41357710188E+01	1.76833829443E+02	-4.19499110758E+01	7.39670483320E+01	-5.96261716598E+00	-4.99709675846E-01
5.21913545950E+05	-1.10239136736E+01	1.63803654849E+02	2.40771734465E+01	1.76389360673E+02	-4.14693078798E+01	1.27698314557E+02	-5.98458266783E+00	-3.64992938328E-01
5.44104900545E+05	-7.76661283164E+00	-1.77197879748E+02	2.41176188089E+01	1.75658044638E+02	-4.26917223197E+01	9.36946251111E+01	-5.96576083842E+00	-6.09074805160E-01
5.66296255139E+05	-1.09393494579E+01	-1.67662155733E+02	2.40945003913E+01	1.75243988767E+02	-4.06534667207E+01	1.36730874173E+02	-5.97880204215E+00	-8.03647869478E-01
5.88487609734E+05	-9.48230459843E+00	-1.78876088599E+02	2.41143624327E+01	1.74805209169E+02	-4.39121870758E+01	-1.27391413900E+02	-5.95378935036E+00	-5.17980787679E-01
6.10678964329E+05	-1.13548209292E+01	-1.79228949548E+02	2.40780047720E+01	1.74193103937E+02	-3.54008972278E+01	1.78462205713E+02	-6.05300337769E+00	-3.36933524081E-01
6.32870318924E+05	-1.13548819800E+01	1.62901841485E+02	2.40831896816E+01	1.73641474985E+02	-4.45344763599E+01	2.15846657918E+01	-5.96590955403E+00	-7.91476285320E-01
6.55061673519E+05	-1.00483892561E+01	1.78876258623E+02	2.40926078444E+01	1.73723990344E+02	-4.08282493667E+01	5.86693167960E+00	-6.02379647760E+00	-1.53970653582E-01
6.77253028114E+05	-8.39609694122E+00	-1.72853717150E+02	2.41001944138E+01	1.72947163627E+02	-3.98196001137E+01	2.94197713738E+01	-5.99113120990E+00	-5.07131255524E-01
6.99444382709E+05	-8.93207625193E+00	-1.52184620218E+02	2.40636358165E+01	1.72596705362E+02	-4.03953171416E+01	-1.56385784864E+02	-6.00383040722E+00	-7.71036158027E-01
7.21635737304E+05	-7.98775440070E+00	-1.70353119613E+02	2.40681620329E+01	1.71864163805E+02	-3.61965806731E+01	1.58852140259E+01	-6.03410865514E+00	-4.08179371378E-01
7.43827091899E+05	-8.12438020272E+00	1.71763354187E+02	2.40513164528E+01	1.71622857655E+02	-3.89578157251E+01	-9.18105040810E+01	-5.98279056160E+00	-6.80711245386E-01
7.66018446494E+05	-1.02622999138E+01	-1.49842799055E+02	2.40771910270E+01	1.71056170205E+02	-4.26923514228E+01	1.12719850007E+01	-5.85295027915E+00	-1.09348378381E+00
7.88209801089E+05	-1.00283415413E+01	1.62299143896E+02	2.40424639507E+01	1.70639260211E+02	-3.54595909085E+01	-5.45031350463E+01	-5.97872713209E+00	-6.12642982052E-01
8.10401155684E+05	-7.61342289710E+00	1.61606176436E+02	2.40457495360E+01	1.70374102381E+02	-4.66389079449E+01	-1.40091752762E+01	-5.97510324127E+00	-9.45424140507E-01
8.32592510279E+05	-7.80068133334E+00	1.76802698565E+02	2.40771742610E+01	1.69728128212E+02	-4.27429844730E+01	1.06948417113E+01	-5.94812640036E+00	-4.61878890072E-01
8.54783864874E+05	-8.84445798565E+00	1.70396991858E+02	2.40419879912E+01	1.69632882855E+02	-5.47680358728E+01	-9.78910405226E+01	-5.97689387343E+00	-7.24248708273E-01
8.76975219469E+05	-9.23107322706E+00	-1.68676704163E+02	2.40024153284E+01	1.69047168123E+02	-3.83099195675E+01	-6.05029180893E+01	-5.94069476753E+00	-8.25345628173E-01
8.99166574064E+05	-8.42432341338E+00	-1.72207511187E+02	2.40149784672E+01	1.68652417369E+02	-4.46158731821E+01	-1.34180932763E+02	-6.00930120455E+00	-6.92608107779E-01
9.21357928659E+05	-7.08801421598E+00	-1.67470885273E+02	2.40159771995E+01	1.68125710368E+02	-3.52779582581E+01	1.01605130723E+02	-5.99447065108E+00	-1.14836636928E+00
9.43549283254E+05	-7.71507279304E+00	1.76481899380E+02	2.40296102614E+01	1.68019488035E+02	-4.46953903977E+01	6.08008512423E+01	-6.01049126586E+00	-1.17173816998E+00
9.65740637849E+05	-1.01677862758E+01	1.58432172597E+02	2.39891597140E+01	1.67511755884E+02	-3.86988976515E+01	-1.59508035842E+02	-6.00052641134E+00	-7.03609760973E-01
9.87931992444E+05	-1.04432647329E+01	1.70392531027E+02	2.40041102825E+01	1.66935000586E+02	-3.53614172620E+01	-1.71273024851E+02	-5.98862926861E+00	-7.35252477893E-01
1.01012334704E+06	-9.02614501466E+00	-1.77659355881E+02	2.39418505250E+01	1.66686071173E+02	-3.72480008680E+01	-2.84780777638E+01	-5.92132543047E+00	-5.51875665472E-01
1.03231470163E+06	-8.59768369578E+00	1.73512963908E+02	2.39869516727E+01	1.66214947984E+02	-4.00633794693E+01	-1.79983930932E+02	-6.05616237268E+00	-7.66388135045E-01
1.05450605623E+06	-1.00143716818E+01	-1.79473172025E+02	2.39602565653E+01	1.66093018700E+02	-3.86561671511E+01	1.31875942632E+02	-6.03071404249E+00	-5.28864431156E-01
1.07669741082E+06	-1.24021407294E+01	-1.62283471148E+02	2.39573423180E+01	1.65505390506E+02	-4.80958756137E+01	-6.35996860348E+01	-5.88663011534E+00	-7.90221547334E-01
1.09888876542E+06	-7.22262709886E+00	1.74026640438E+02	2.39810143665E+01	1.65389578785E+02	-4.14381328523E+01	1.67959366340E+02	-6.02322281221E+00	-5.45489782599E-01
1.12108012001E+06	-8.54377228320E+00	-1.63704331955E+02	2.39801627351E+01	1.64978612662E+02	-3.76596930613E+01	-1.59020747186E+01	-6.00045082636E+00	-7.56468430877E-01
1.14327147461E+06	-8.70708937366E+00	-1.77559905239E+02	2.39718928389E+01	1.64407543996E+02	-3.93752351983E+01	1.15303266414E+02	-5.93899288483E+00	-4.75763095739E-01
1.16546282920E+06	-9.73993394694E+00	-1.71205284726E+02	2.39322169353E+01	1.64078288322E+02	-3.85525529358E+01	-3.52307863152E+01	-5.97489365830E+00	-6.27039446454E-01
1.18765418380E+06	-1.03044723714E+01	1.59008256458E+02	2.39109971754E+01	1.63651029537E+02	-3.90340778762E+01	-6.53721664236E+01	-6.02230136024E+00	-5.80444894346E-01
1.20984553839E+06	-7.22673102673E+00	1.59152049132E+02	2.38887770139E+01	1.63416561699E+02	-4.88226210454E+01	7.75606829991E+01	-5.95573495387E+00	-1.32783384185E+00
1.23203689299E+06	-1.02614642649E+01	1.60956615578E+02	2.39234548976E+01	1.63061415550E+02	-4.73570594816E+01	1.52637682001E+02	-5.96906906432E+00	3.70949478875E-02
1.25422824758E+06	-1.27811831185E+01	-1.64017018561E+02	2.38883617050E+01	1.62537319576E+02	-4.48622644398E+01	-7.44687882032E+01	-5.99142994527E+00	-8.81246806887E-01
1.27641960218E+06	-8.84470851155E+00	-1.69316423387E+02	2.38837347007E+01	1.62402732051E+02	-3.99059376447E+01	1.40249283290E+02	-5.95190327723E+00	-6.22578839670E-01
1.29861095677E+06	-8.97064830323E+00	-1.78631235111E+02	2.39036798913E+01	1.62081042618E+02	-4.12015650618E+01	-2.89717202144E+01	-5.97555896661E+00	-9.57803117801E-01
1.32080231137E+06	-7.80486036500E+00	-1.56596392344E+02	2.38893128294E+01	1.61608202231E+02	-3.14772825780E+01	7.88939727134E+00	-5.96864010387E+00	-1.56893056813E+00
1.34299366596E+06	-9.88910034322E+00	1.59515887911E+02	2.38908385382E+01	1.61343663959E+02	-4.26383834371E+01	-2.07549632049E+01	-5.95915623356E+00	-8.82666739459E-01
1.36518502056E+06	-9.91869815659E+00	-1.53459088867E+02	2.38853259332E+01	1.61381975581E+02	-3.65175065170E+01	3.99939408051E+01	-5.93305516862E+00	-7.52771023274E-01
1.38737637515E+06	-1.15418827265E+01	-1.66312338228E+02	2.38286601748E+01	1.60668043276E+02	-3.91095153423E+01	4.80732194891E+01	-5.82153486590E+00	3.05702679589E-01
1.40956772975E+06	-7.93676983705E+00	1.61879907983E+02	2.38516150746E+01	1.60345217992E+02	-3.76378000981E+01	-7.74333046485E+01	-5.91445524112E+00	-6.80548981895E-01
1.43175908434E+06	-8.70173859587E+00	1.77041753021E+02	2.38624291918E+01	1.59657580774E+02	-4.06174873792E+01	2.64069022620E+00	-6.02694686585E+00	-8.30078395248E-01
1.45395043894E+06	-1.19666231658E+01	1.58766666449E+02	2.38307947121E+01	1.59072591400E+02	-5.10316834200E+01	1.79556911619E+02	-5.98803993988E+00	-5.03591073631E-01
1.47614179353E+06	-1.08603684809E+01	1.72008612936E+02	2.38379466167E+01	1.59060320341E+02	-5.68816315090E+01	1.41622409530E+02	-5.96151812709E+00	-8.89537822569E-01
1.49833314813E+06	-1.06020360719E+01	-1.78242197124E+02	2.37870673390E+01	1.58695447904E+02	-3.82214166168E+01	9.48366637158E+01	-5.95376860056E+00	-7.73041755700E-01
1.52052450272E+06	-7.79627484872E+00	1.78995122954E+02	2.38226020584E+01	1.58448100567E+02	-5.04868369221E+01	1.20011485165E+02	-5.93677220093E+00	-9.34829574965E-01
1.54271585732E+06	-9.57318264311E+00	1.71565220553E+02	2.38146942670E+01	1.57815547462E+02	-4.27055460618E+01	1.35171240844E+02	-6.04930485243E+00	-1.29430841606E+00
1.56490721191E+06	-9.60806575296E+00	-1.65770398803E+02	2.38002714427E+01	1.57872875087E+02	-4.05843690149E+01	8.16106754612E+01	-6.02498476276E+00	-4.78078326561E-01
1.58709856651E+06	-7.59933344040E+00	-1.77944292773E+02	2.37595910300E+01	1.57671698655E+02	-3.50376074069E+01	3.00231486059E-01	-5.96121564749E+00	-8.93805848202E-01
1.60928992110E+06	-9.52256424212E+00	1.68598419151E+02	2.37827056861E+01	1.57141464697E+02	-3.94000057111E+01	-1.15189256044E+02	-5.98946141766E+00	-4.49412901652E-01
1.63148127570E+06	-8.07520964020E+00	1.61023878058E+02	2.37498662906E+01	1.56726499449E+02	-4.50821625845E+01	-1.66019368547E+02	-5.99799393081E+00	-1.01935207972E+00
1.65367263029E+06	-8.81804402197E+00	1.49373752121E+02	2.37425271254E+01	1.56197096638E+02	-3.66192743783E+01	1.50828213057E+02	-5.98091406829E+00	-9.09479521514E-01
1.67586398489E+06	-1.00395845171E+01	-1.67402158713E+02	2.37277948728E+01	1.56176977676E+02	-3.63255801704E+01	-1.87928454512E+01	-6.00170971053E+00	-7.10202704327E-01
1.69805533948E+06	-9.44606612241E+00	1.73024905404E+02	2.37248882327E+01	1.55825502194E+02	-4.52447950038E+01	-1.05535708515E+02	-5.93267703709E+00	-8.21568449805E-01
1.72024669408E+06	-9.30384598284E+00	1.78979599534E+02	2.37134490541E+01	1.55424690529E+02	-4.16267433554E+01	-8.02314579317E+01	-5.98504016607E+00	-1.37409597159E+00
1.74243804867E+06	-1.60624324335E+01	-1.68412293674E+02	2.36242486772E+01	1.55588006346E+02	-4.01303440470E+01	-1.31136959850E+02	-5.86500543436E+00	-1.62485461835E-01
1.76462940327E+06	-1.16752781784E+01	1.76925536121E+02	2.36887136373E+01	1.54810000286E+02	-4.04893593649E+01	1.22750651544E+02	-5.96395237445E+00	-5.94294958057E-01
1.78682075786E+06	-1.05570997124E+01	1.78611454933E+02	2.37044813129E+01	1.54304977862E+02	-4.19473849614E+01	5.42138827908E+01	-5.96736647423E+00	-8.75231540376E-01
1.80901211246E+06	-9.73018955332E+00	-1.58289094046E+02	2.36759554561E+01	1.54101429359E+02	-3.91552104371E+01	-1.61135228964E+02	-5.97910805539E+00	-7.74811980288E-01
1.83120346705E+06	-1.26548547177E+01	1.61152826138E+02	2.36725800721E+01	1.53874155636E+02	-4.78921738699E+01	1.76570124324E+02	-5.95226359071E+00	-7.57310785729E-01
1.85339482165E+06	-1.03252278826E+01	1.71178141880E+02	2.36767149502E+01	1.53729608801E+02	-4.36650908503E+01	-1.11450340078E+02	-5.92812241220E+00	-7.00191205466E-02
1.87558617624E+06	-7.01174234371E+00	-1.70735536864E+02	2.36319709191E+01	1.53091159338E+02	-5.58400318561E+01	-5.61436828196E+01	-5.93976345572E+00	-1.76981264984E+00
1.89777753084E+06	-1.24303092553E+01	-1.71588435821E+02	2.35862792366E+01	1.52784691413E+02	-3.54935974135E+01	9.59339219225E+01	-5.96145455312E+00	-8.90157050400E-01
1.91996888543E+06	-9.17347638682E+00	-1.66241328357E+02	2.36095183780E+01	1.52849118929E+02	-4.18308319700E+01	1.18953658353E+02	-5.96027969563E+00	-7.01743531542E-01
1.94216024003E+06	-9.98996606523E+00	1.67706056025E+02	2.36420307407E+01	1.52118165539E+02	-4.16576153494E+01	-1.62827076554E+02	-5.97384328246E+00	-9.35798051903E-01
1.96435159462E+06	-7.94942029483E+00	1.77715424796E+02	2.36062924403E+01	1.51783616107E+02	-4.10224214128E+01	2.93611056281E+01	-5.93401316292E+00	-9.39458441498E-01
1.98654294922E+06	-9.84638554782E+00	-1.76492247365E+02	2.36115060099E+01	1.51556861746E+02	-3.81385222297E+01	-8.44797226024E+01	-6.00638773413E+00	-1.13550368004E+00
2.00873430381E+06	-8.70131688068E+00	-1.57661414522E+02	2.36030540389E+01	1.50886907730E+02	-4.41839469608E+01	-1.54807623008E+02	-6.16362786815E+00	-1.50329866448E+00
2.03092565841E+06	-7.32289565086E+00	1.55920230786E+02	2.35871331471E+01	1.50933525921E+02	-3.69454507132E+01	1.04532610139E+02	-5.98560482153E+00	-5.46939673896E-01
2.05311701300E+06	-1.23766909905E+01	-1.71609912787E+02	2.36208970028E+01	1.50359301681E+02	-3.85404986435E+01	1.01909011096E+02	-5.98077048558E+00	-1.34215791582E+00
2.07530836760E+06	-6.27073283372E+00	1.78869004247E+02	2.35718282958E+01	1.50473980863E+02	-3.50972759513E+01	5.65930862814E+01	-5.93848627093E+00	-1.13452987362E+00
2.09749972219E+06	-1.13285411882E+01	1.76780688467E+02	2.35430097321E+01	1.49839700156E+02	-5.41780952088E+01	1.11948558690E+02	-5.93635767631E+00	-1.25630031768E+00
2.11969107679E+06	-1.06511519013E+01	1.73936909713E+02	2.35111660353E+01	1.49593629717E+02	-4.35725187265E+01	-1.62309896793E+02	-5.94029704332E+00	-9.77623536713E-01
2.14188243138E+06	-8.01476152605E+00	-1.74495535675E+02	2.35285386148E+01	1.49296816559E+02	-4.38243611900E+01	1.26024733046E+01	-5.94371377696E+00	-1.36480679100E+00
2.16407378598E+06	-8.64820025490E+00	-1.78382195085E+02	2.35113562885E+01	1.48914467044E+02	-4.15743616081E+01	-9.46081963745E+01	-5.95570301854E+00	-1.70191052210E+00
2.18626514057E+06	-1.09175796606E+01	1.63462230952E+02	2.35117013851E+01	1.48556693638E+02	-4.44823656703E+01	-6.84419670750E+01	-5.97199472975E+00	9.42897370825E-02
2.20845649517E+06	-1.21883247656E+01	-1.66269933125E+02	2.34622363436E+01	1.48239959555E+02	-4.25363662097E+01	2.21961200668E+01	-5.95800492856E+00	-1.29883954796E+00
2.23064784976E+06	-1.06465915127E+01	1.64932816298E+02	2.34658654627E+01	1.47600905603E+02	-3.87588767661E+01	6.15229769633E+01	-5.97507888111E+00	-1.42547709115E+00
2.25283920436E+06	-7.69473276194E+00	1.74899600207E+02	2.35024800130E+01	1.47537550792E+02	-4.62944849695E+01	6.56551946718E+01	-6.02550831793E+00	-9.70376669468E-01
2.27503055895E+06	-1.09785871976E+01	1.62813012586E+02	2.34755929946E+01	1.47456882355E+02	-3.74857831651E+01	1.21788258448E+02	-5.96638333534E+00	-1.00435367281E+00
2.29722191355E+06	-8.20972857847E+00	-1.67927073570E+02	2.34805465408E+01	1.46877265255E+02	-4.59955177946E+01	-8.45295913509E+01	-5.96967023430E+00	-7.83510886371E-01
2.31941326814E+06	-1.74441680885E+01	1.48046357860E+02	2.34224954121E+01	1.46957182775E+02	-3.67819017160E+01	1.79631777710E+02	-5.99516131725E+00	-1.08993007886E+00
2.34160462274E+06	-1.17324080056E+01	-1.68877847871E+02	2.34294480574E+01	1.46471043069E+02	-4.02774369773E+01	-1.05305859568E+02	-6.01774811820E+00	-1.04478407720E+00
2.36379597733E+06	-8.22549772635E+00	1.67532848342E+02	2.34015465766E+01	1.46094396197E+02	-4.67411145687E+01	-8.82340502914E+01	-5.98737034293E+00	-1.11906987910E+00
2.38598733193E+06	-9.82612543607E+00	1.78572876575E+02	2.34372294360E+01	1.45728978287E+02	-3.78199387605E+01	-1.08842535681E+02	-5.97941100682E+00	-1.01571749621E+00
2.40817868652E+06	-9.36053528565E+00	-1.74401636072E+02	2.33980701421E+01	1.45660517017E+02	-3.39287011184E+01	9.81320401106E+01	-5.94837877130E+00	-1.20227802737E+00
2.43037004112E+06	-9.59326444341E+00	-1.77261514275E+02	2.34035228099E+01	1.45089827492E+02	-4.01943741010E+01	4.56475114708E+01	-5.96962434456E+00	-1.39893058185E+00
2.45256139571E+06	-1.07096951370E+01	1.62172027589E+02	2.33641548510E+01	1.44634680309E+02	-4.21473821675E+01	-7.40272737050E+01	-5.99657174667E+00	-1.05340415691E+00
2.47475275031E+06	-8.76844500692E+00	-1.72223215421E+02	2.33901139807E+01	1.44339433882E+02	-3.83864187998E+01	1.29774882940E+02	-5.87750548820E+00	-1.14254077525E+00
2.49694410490E+06	-1.02171765787E+01	-1.77913308528E+02	2.33521258316E+01	1.44235175145E+02	-3.64163105795E+01	6.54248163985E+01	-5.63339685391E+00	1.02247602709E+00
2.51913545950E+06	-1.23610308273E+01	-1.54935152476E+02	2.33467375811E+01	1.44158238116E+02	-4.09063098183E+01	-1.66584015448E+02	-5.94415326718E+00	-8.48771962501E-01
2.54132681409E+06	-8.87059080179E+00	1.72719420822E+02	2.33434652700E+01	1.43454226597E+02	-4.13267717117E+01	-9.65240724764E+01	-5.94646307573E+00	-1.36016458188E+00
2.56351816869E+06	-8.58606960377E+00	-1.62676976103E+02	2.33345730377E+01	1.43409652139E+02	-4.08011789203E+01	-4.52892365241E+01	-6.01330236696E+00	-1.13052186069E+00
2.58570952328E+06	-1.29480857332E+01	-1.77916299646E+02	2.32983632318E+01	1.42947349461E+02	-4.13421097852E+01	9.65561242109E+01	-5.95976312667E+00	-9.49988537455E-01
2.60790087788E+06	-8.66812339417E+00	1.78233939367E+02	2.33013761317E+01	1.42673534057E+02	-4.74528501164E+01	-1.35867516072E+02	-5.96446513277E+00	-1.12416374175E+00
2.63009223247E+06	-8.69885713554E+00	1.79251704564E+02	2.32823784661E+01	1.42260249364E+02	-4.05863841865E+01	-1.02341633373E+02	-6.04590600772E+00	-6.35492784580E-01
2.65228358707E+06	-9.04875922768E+00	1.70378214417E+02	2.32847350805E+01	1.42132582111E+02	-5.79470626078E+01	-1.19808891569E+02	-5.98116555396E+00	-1.84645307857E+00
2.67447494166E+06	-9.14126409586E+00	1.58531563645E+02	2.32195528651E+01	1.41709702412E+02	-4.06346927000E+01	-4.42463664872E+01	-5.95994257500E+00	-1.35811724012E+00
2.69666629626E+06	-1.34702615409E+01	-1.65838697690E+02	2.32176093389E+01	1.41464653249E+02	-4.10110055385E+01	-4.32036562925E+01	-5.98485221443E+00	-1.28500640470E+00
2.71885765085E+06	-1.13468382723E+01	1.78116196981E+02	2.32253516661E+01	1.41211898157E+02	-3.91533990158E+01	-3.59319090121E+01	-5.98469837400E+00	-1.49614068354E+00
2.74104900545E+06	-1.09870567686E+01	1.78195850392E+02	2.32376965318E+01	1.40832618107E+02	-5.55198104271E+01	-1.76939519177E+02	-5.96618111084E+00	-1.53980362964E+00
2.76324036004E+06	-9.89046887878E+00	1.69673127983E+02	2.32183931801E+01	1.40478505794E+02	-3.84498234192E+01	-3.01225471112E+01	-5.99592419736E+00	-1.26336801597E+00
2.78543171463E+06	-1.01621359788E+01	1.68886874063E+02	2.32123969685E+01	1.40257815752E+02	-3.54561189749E+01	-2.90049407154E+01	-6.01407110008E+00	-1.18677042768E+00
2.80762306923E+06	-1.02980048534E+01	1.73475200215E+02	2.31638164396E+01	1.39884423820E+02	-3.50147472079E+01	4.49958279847E+00	-5.93425445134E+00	-1.54957766950E+00
2.82981442382E+06	-9.15923624550E+00	-1.67544760033E+02	2.31749135939E+01	1.39617756577E+02	-4.45472051284E+01	-1.48202922678E+02	-5.92698306061E+00	-1.27982479527E+00
2.85200577842E+06	-9.00821187737E+00	1.66883535589E+02	2.31893156600E+01	1.39437468748E+02	-3.49477424963E+01	1.00258195709E+02	-5.94037759778E+00	-1.26499218683E+00
2.87419713301E+06	-9.10913025940E+00	-1.58253639764E+02	2.31398311139E+01	1.39090637484E+02	-3.93795817969E+01	-1.50907902321E+02	-5.94164798072E+00	-1.26060246556E+00
