# Hz S DB R 50
! CMT, M5065, 19127446, 24.2.4/2
! Date: 10/29/2024 12:48:13 PM
! Data: Format (Calibration Info)
! Freq	S11:dB/Ang(F2)	S21:dB/Ang(F2)	S12:dB/Ang(F2)	S22:dB/Ang(F2)
3.00000000000E+05	-1.15524505241E+01	-1.61068196032E+02	2.01593802245E+01	-1.77036840416E+02	-3.74486950990E+01	1.67567723008E+02	-5.98642299286E+00	-1.00432433363E-01
3.22191354595E+05	-8.49790995536E+00	-1.58814619660E+02	2.01337986853E+01	-1.78145496121E+02	-4.08689082712E+01	5.44725295133E+01	-5.99327857210E+00	-1.27321569174E-01
3.44382709190E+05	-6.62301915061E+00	1.78412512150E+02	2.01550657815E+01	-1.78508485364E+02	-3.97395455222E+01	-1.60209893483E+02	-5.95729659114E+00	-3.67334743101E-01
3.66574063785E+05	-1.22661641380E+01	1.68038786277E+02	2.01135651927E+01	-1.79265281939E+02	-3.82062575318E+01	-3.63793058497E+00	-6.03293123383E+00	-3.40456303022E-01
3.88765418380E+05	-9.06787881708E+00	-1.74218463798E+02	2.01528129836E+01	-1.79958375492E+02	-4.47058550513E+01	-5.62914941366E+01	-5.97712215322E+00	-2.64291588923E-01
4.10956772975E+05	-1.00170622274E+01	-1.71824311896E+02	2.01560491349E+01	1.79698609956E+02	-5.10005803903E+01	9.87050892916E+01	-6.00073766296E+00	-2.26786780323E-01
4.33148127570E+05	-1.19384117670E+01	1.79710370431E+02	2.01425087009E+01	1.79175899134E+02	-3.82965281068E+01	-1.25448084521E+02	-5.97193238006E+00	-5.16899943424E-01
4.55339482165E+05	-7.73745743998E+00	1.78877623312E+02	2.01701490818E+01	1.78480064576E+02	-3.77336523378E+01	8.23376003383E+01	-5.97968905801E+00	-3.25210529115E-01
4.77530836760E+05	-9.36181048333E+00	1.66221975752E+02	2.01812452922E+01	1.78648666285E+02	-4.95930070040E+01	4.40395060622E+01	-5.99596537849E+00	-5.41676010672E-01
4.99722191355E+05	-7.40761244425E+00	-1.66929916880E+02	2.01216699126E+01	1.78000647677E+02	-3.74358014610E+01	1.10604852382E+02	-5.98178402738E+00	-3.37570560018E-01
5.21913545950E+05	-1.03373732464E+01	-1.71451420220E+02	2.01270874287E+01	1.77607203231E+02	-3.40692883800E+01	4.08851013258E+01	-6.00876531922E+00	-5.83629046329E-01
5.44104900545E+05	-1.01356611788E+01	1.72917248941E+02	2.01420345383E+01	1.77139893271E+02	-3.54904908650E+01	-6.54836956701E+01	-6.01203775612E+00	-5.06605690660E-01
5.66296255139E+05	-1.05486462147E+01	1.77638029662E+02	2.01518994891E+01	1.76889602605E+02	-4.31904716234E+01	3.72933004237E+01	-5.97462198974E+00	-3.58282436940E-01
5.88487609734E+05	-8.88741006941E+00	1.77070301063E+02	2.01824162365E+01	1.76465023692E+02	-4.37290364691E+01	-4.60764568258E+01	-5.97582327827E+00	-7.38777348580E-01
6.10678964329E+05	-1.00972625117E+01	1.57455005589E+02	2.01336191306E+01	1.76323136642E+02	-4.01268753120E+01	1.19548441387E+01	-6.00659254557E+00	-4.05421878504E-01
6.32870318924E+05	-1.16794304606E+01	-1.60683096589E+02	2.01363484714E+01	1.75952020917E+02	-4.00478003644E+01	-1.49901359057E+02	-5.96080009723E+00	-2.87091830594E-01
6.55061673519E+05	-9.64909180420E+00	1.57873925589E+02	2.01275463180E+01	1.75618729470E+02	-3.87940437100E+01	-1.00274333496E+02	-5.97211676586E+00	-5.99125900061E-01
6.77253028114E+05	-9.87402174215E+00	-1.77021056212E+02	2.01428725070E+01	1.75231482591E+02	-4.12719645531E+01	-4.29948935972E+01	-5.99194871121E+00	-1.25408991859E+00
6.99444382709E+05	-8.65086374437E+00	1.73414260454E+02	2.01023209534E+01	1.74914735454E+02	-3.55353285032E+01	8.76398505352E+01	-5.99419031492E+00	-7.91877755801E-01
7.21635737304E+05	-1.07499254653E+01	1.68343979863E+02	2.01442719592E+01	1.74499208912E+02	-3.54476277558E+01	2.85277975070E+01	-5.98151527296E+00	-3.12956817997E-01
7.43827091899E+05	-1.28586493931E+01	1.70357561208E+02	2.01305718025E+01	1.74335571267E+02	-4.79917851195E+01	-3.19786084974E+00	-5.98555773541E+00	-4.83381935565E-01
7.66018446494E+05	-1.15032575584E+01	-1.74593434942E+02	2.02018076844E+01	1.73752769893E+02	-3.78597883156E+01	1.63969947720E+02	-5.98303014509E+00	-6.60279088670E-01
7.88209801089E+05	-1.00079119557E+01	1.72953789957E+02	2.01257280604E+01	1.73531729354E+02	-3.97447708320E+01	1.02146624913E+02	-5.94062456845E+00	-6.77613061933E-01
8.10401155684E+05	-9.78105121963E+00	-1.79973106331E+02	2.01455914298E+01	1.73256943486E+02	-4.21845147126E+01	7.45893850752E+01	-6.00622434233E+00	-5.48889761914E-01
8.32592510279E+05	-8.59483119330E+00	-1.72731225364E+02	2.01094250928E+01	1.72840154201E+02	-4.18821593777E+01	1.21150513452E+01	-5.91773092007E+00	-2.59286310968E-01
8.54783864874E+05	-8.47991295879E+00	-1.68940256957E+02	2.01308533465E+01	1.72601331319E+02	-4.89380338464E+01	8.27362451854E+01	-5.97166966361E+00	-7.49135060054E-01
8.76975219469E+05	-1.03228843595E+01	1.47982833562E+02	2.01253702158E+01	1.72344113814E+02	-4.50532754430E+01	1.25914849361E+02	-5.99917174850E+00	-4.52994236007E-01
8.99166574064E+05	-6.96816187993E+00	-1.74297166319E+02	2.01371741143E+01	1.72007672177E+02	-3.90889702847E+01	1.57226897229E+02	-5.95263121680E+00	-4.70189227452E-01
9.21357928659E+05	-8.21363689923E+00	1.63960840451E+02	2.01657322792E+01	1.71672249772E+02	-4.94963610370E+01	1.96199157846E-01	-6.00593283234E+00	-4.64945951152E-01
9.43549283254E+05	-9.58389212620E+00	-1.73849629914E+02	2.01046213010E+01	1.71604626597E+02	-4.33977171162E+01	-3.57176428145E+01	-5.97091871177E+00	-7.60897630389E-01
9.65740637849E+05	-7.57132689413E+00	-1.77773002267E+02	2.01164064251E+01	1.71420509043E+02	-4.19235775943E+01	-1.11201903131E+02	-6.00211701590E+00	-6.07654890623E-01
9.87931992444E+05	-1.07488276837E+01	1.76437206975E+02	2.01303298355E+01	1.70890549173E+02	-4.22464755068E+01	-1.37025310964E+02	-5.99890378445E+00	-8.05471096923E-01
1.01012334704E+06	-1.08541651201E+01	-1.59040304972E+02	2.00986484160E+01	1.70719068305E+02	-4.20231434142E+01	-5.90579998560E+01	-5.97097071701E+00	-4.78570707617E-01
1.03231470163E+06	-8.16413055970E+00	-1.79170390229E+02	2.01287928869E+01	1.70629282197E+02	-3.98281358672E+01	-1.14052129140E+01	-5.96973479086E+00	-5.42703451846E-01
1.05450605623E+06	-1.20634240914E+01	-1.58055483929E+02	2.01244324047E+01	1.70116899406E+02	-4.07625697928E+01	-8.78087703794E+01	-5.95100440080E+00	-6.43199795027E-01
1.07669741082E+06	-9.55768190179E+00	1.77023104925E+02	2.01196967908E+01	1.70030333903E+02	-4.27991504905E+01	1.02443628262E+02	-5.98921693533E+00	-7.95274843371E-01
1.09888876542E+06	-9.76632562159E+00	1.79506171150E+02	2.01011080198E+01	1.69623763530E+02	-3.90101924167E+01	4.86716750550E+01	-5.92608901674E+00	-4.27899457188E-01
1.12108012001E+06	-8.80692772138E+00	1.69332212941E+02	2.01136874313E+01	1.69070319761E+02	-4.53763748470E+01	-4.68859399709E+01	-5.98270373328E+00	-5.14866270894E-02
1.14327147461E+06	-9.02694395103E+00	1.66617557503E+02	2.01073974672E+01	1.69012064013E+02	-3.61525963496E+01	-1.20611060229E+02	-6.01350034954E+00	-6.20290258060E-01
1.16546282920E+06	-1.18183921321E+01	1.74990523444E+02	2.00818570841E+01	1.68907023284E+02	-3.90628690308E+01	-2.01024321086E+01	-5.95555976629E+00	-8.74618047964E-01
1.18765418380E+06	-1.19082346123E+01	-1.72072523418E+02	2.01189615568E+01	1.68524084426E+02	-3.42674178852E+01	-1.22540488377E+02	-5.94446672286E+00	-5.57023923918E-01
1.20984553839E+06	-8.19500681131E+00	-1.63107300399E+02	2.00786220239E+01	1.68316962947E+02	-4.13817461850E+01	6.23127255664E+00	-5.96217581839E+00	-1.24811741369E+00
1.23203689299E+06	-1.18764596616E+01	1.63198306554E+02	2.00982323439E+01	1.67991127387E+02	-4.38198192897E+01	-1.33225423568E+02	-5.97593544644E+00	-6.82009958581E-01
1.25422824758E+06	-7.84129104369E+00	1.73500726726E+02	2.00865265189E+01	1.67495435081E+02	-4.50271617238E+01	-1.78754543290E+02	-6.00394568861E+00	-6.76906278957E-01
1.27641960218E+06	-1.57255529631E+01	1.70288913965E+02	2.00535494180E+01	1.67471711790E+02	-4.44623576175E+01	5.74673592090E+01	-5.95723129237E+00	-6.83716546723E-01
1.29861095677E+06	-1.17745047164E+01	1.64246379040E+02	2.00811191190E+01	1.67161191236E+02	-3.77922712501E+01	-9.91296520194E+01	-6.01794446947E+00	-8.50221686498E-01
1.32080231137E+06	-1.34968949838E+01	-1.55419592350E+02	2.00849568570E+01	1.66932466437E+02	-4.00199610313E+01	5.56682336543E+01	-5.97997843596E+00	-1.12055100018E+00
1.34299366596E+06	-1.40730873148E+01	1.50214163475E+02	2.00855478264E+01	1.66524900593E+02	-4.52816954816E+01	8.12831526591E+01	-5.94679847402E+00	-1.17676680578E+00
1.36518502056E+06	-1.03717029793E+01	1.65738937370E+02	2.00796773232E+01	1.66623328940E+02	-3.87293152446E+01	-1.32779247104E+02	-5.96615619709E+00	-7.08873988918E-01
1.38737637515E+06	-1.28113317688E+01	1.72176676075E+02	2.00837289186E+01	1.65933579711E+02	-3.45521155777E+01	1.94196318967E+01	-5.99962014946E+00	-9.60700511559E-01
1.40956772975E+06	-9.63466888377E+00	-1.70273881220E+02	2.01355924326E+01	1.66083382951E+02	-3.56844464832E+01	-1.13355502916E+02	-5.97167946740E+00	-6.88977188767E-01
1.43175908434E+06	-7.73175581068E+00	-1.71149988112E+02	2.00607552563E+01	1.65530606045E+02	-4.84983910568E+01	-8.63033768709E+01	-5.87357732365E+00	-7.15475585860E-01
1.45395043894E+06	-1.04109967396E+01	1.70645830786E+02	2.00545509772E+01	1.65456801310E+02	-4.22447770351E+01	-3.83753992175E+01	-5.96526068620E+00	-4.44160620032E-01
1.47614179353E+06	-8.29976520087E+00	-1.44689843110E+02	2.00720821071E+01	1.65203096897E+02	-4.03069936387E+01	1.69705907906E+02	-6.02411459252E+00	-8.61613944156E-01
1.49833314813E+06	-1.29100446320E+01	-1.74774169800E+02	2.00784918542E+01	1.64902156012E+02	-4.65461060871E+01	-1.47726507119E+01	-5.98541052481E+00	-8.66442054646E-01
1.52052450272E+06	-9.19870983761E+00	-1.58905409516E+02	2.00389958822E+01	1.64334749449E+02	-4.06711396221E+01	-1.05401377776E+02	-5.94772242523E+00	-9.24926904478E-01
1.54271585732E+06	-9.00031089502E+00	-1.71940490118E+02	2.00201062236E+01	1.64203100691E+02	-3.63728882060E+01	-1.53705080143E+02	-5.97056521514E+00	-9.00698963660E-01
1.56490721191E+06	-8.54848366049E+00	1.78479679281E+02	2.00439004263E+01	1.64102562722E+02	-3.64337366155E+01	-1.82974967690E+01	-5.95367378213E+00	-8.41732017107E-01
1.58709856651E+06	-9.17940752097E+00	-1.68466825425E+02	2.00400367770E+01	1.63637479311E+02	-4.29202482363E+01	-1.11586841270E+02	-5.99087801478E+00	-8.75390435644E-01
1.60928992110E+06	-8.20194588977E+00	1.72837180404E+02	2.00228715989E+01	1.63660321320E+02	-4.04048151709E+01	1.46718356925E+02	-5.94126664942E+00	9.87093052491E-02
1.63148127570E+06	-1.26925206961E+01	-1.75736437571E+02	2.00062254089E+01	1.63518232019E+02	-3.65209601653E+01	7.66029416736E+01	-5.96201388687E+00	-7.30209014178E-01
1.65367263029E+06	-1.03531486015E+01	1.55111208719E+02	2.00150455083E+01	1.63121368747E+02	-3.59172333745E+01	-1.48468757856E+02	-6.02133198915E+00	-6.00043877594E-01
1.67586398489E+06	-1.02782101494E+01	1.75212314828E+02	2.00399633716E+01	1.62961225017E+02	-3.89582109677E+01	1.31163763129E+02	-5.96257397837E+00	-6.46868460693E-01
1.69805533948E+06	-9.56169830594E+00	1.75073915658E+02	2.00488867733E+01	1.62912579210E+02	-5.21360663702E+01	1.33356800136E+02	-6.02295059322E+00	-1.27997982313E+00
1.72024669408E+06	-9.89933303954E+00	-1.68764962440E+02	2.00247292148E+01	1.62526909085E+02	-4.87555557481E+01	-6.74266986219E+01	-5.99320066008E+00	-7.06013540620E-01
1.74243804867E+06	-1.17779318964E+01	-1.79240963449E+02	2.00067518261E+01	1.62171462417E+02	-4.06616473665E+01	7.37451285568E+01	-5.87604701871E+00	-1.84250037919E+00
1.76462940327E+06	-8.52253097287E+00	-1.75703505378E+02	1.99906043235E+01	1.61767115864E+02	-3.34085751377E+01	-5.60512786134E+01	-5.96257939256E+00	-1.16280281322E+00
1.78682075786E+06	-9.85267946679E+00	-1.73451165483E+02	2.00090519029E+01	1.61835017857E+02	-3.57915659000E+01	6.92509675827E+01	-5.98710761289E+00	-6.19437340805E-01
1.80901211246E+06	-8.89806645606E+00	1.72688505914E+02	2.00056350225E+01	1.61418938732E+02	-3.84497388919E+01	-1.12117965296E+01	-6.00087340290E+00	-8.44620310071E-01
1.83120346705E+06	-8.31280677843E+00	-1.79579034018E+02	2.00177019940E+01	1.61057468011E+02	-5.21047618180E+01	-1.10327334912E+02	-5.93470322203E+00	-7.66281643464E-01
1.85339482165E+06	-1.07023485864E+01	-1.51922001503E+02	1.99349908725E+01	1.60871864878E+02	-5.01234417457E+01	-1.19750373262E+02	-5.98035275563E+00	-7.36595259730E-01
1.87558617624E+06	-1.19453757069E+01	1.53708252336E+02	1.99357600002E+01	1.60388580211E+02	-5.96973100902E+01	9.05395922331E+01	-5.99595398830E+00	-1.14316541389E+00
1.89777753084E+06	-1.26649927305E+01	-1.64811553371E+02	1.99969828788E+01	1.60434158085E+02	-3.41989344271E+01	-1.00554118115E+02	-5.97479423786E+00	-6.04754889567E-01
1.91996888543E+06	-1.25068704709E+01	1.56548607172E+02	1.99910596810E+01	1.60393017935E+02	-3.69028412421E+01	2.34601735474E+00	-5.89853443742E+00	-9.99360558480E-01
1.94216024003E+06	-8.36534470203E+00	-1.66694159170E+02	1.99803018277E+01	1.59898022411E+02	-4.44632554332E+01	1.26761956332E+02	-5.97986364378E+00	-1.10402924574E+00
1.96435159462E+06	-1.56456862382E+01	1.74265328960E+02	1.99883737870E+01	1.59787888437E+02	-4.15011427443E+01	1.71912849005E+02	-6.01995090514E+00	-9.08653507061E-01
1.98654294922E+06	-1.27413409769E+01	-1.70836899565E+02	1.99742032775E+01	1.59592089490E+02	-5.73507156682E+01	1.70894959435E+02	-5.99482380369E+00	-1.07465203409E+00
2.00873430381E+06	-1.42868847821E+01	1.48817954708E+02	1.99891076178E+01	1.59016363085E+02	-4.45391928867E+01	4.64190136193E+01	-5.96983412662E+00	-1.07066989372E+00
2.03092565841E+06	-8.84652563979E+00	-1.75894226640E+02	2.00201322185E+01	1.58588944252E+02	-4.18909188047E+01	8.40618759512E+01	-5.98165126470E+00	-7.41888349538E-01
2.05311701300E+06	-1.29739507633E+01	1.67477460250E+02	1.99807496464E+01	1.59084596837E+02	-3.33410039450E+01	-5.73337159720E+01	-6.01005334368E+00	-1.35495061862E+00
2.07530836760E+06	-1.32411972661E+01	-1.70964426373E+02	1.99541283362E+01	1.58726153595E+02	-3.98342182346E+01	1.38284896018E+02	-5.87071981841E+00	-7.43121965997E-01
2.09749972219E+06	-1.16716236479E+01	-1.69876877099E+02	1.99457227724E+01	1.58267613767E+02	-4.55684120010E+01	1.76664021471E+02	-6.01921384897E+00	-7.48075612921E-01
2.11969107679E+06	-8.24562504784E+00	-1.77672096391E+02	1.99167852224E+01	1.58141120683E+02	-3.49669344821E+01	8.70365023364E+01	-5.94470764722E+00	-1.13305459278E+00
2.14188243138E+06	-7.83384176660E+00	1.79781580062E+02	1.99515660945E+01	1.57919886179E+02	-4.31548703904E+01	-1.73754310800E+02	-5.98110208255E+00	-1.14076707631E+00
2.16407378598E+06	-1.22632527123E+01	1.54773442823E+02	1.99029809452E+01	1.57470199356E+02	-4.65502463293E+01	-2.33450165455E+00	-5.99922883357E+00	-9.77316283537E-01
2.18626514057E+06	-1.40389361701E+01	-1.73693067179E+02	1.97699845777E+01	1.57552139790E+02	-3.76896024151E+01	3.93741713517E+01	-5.97537155404E+00	-1.20541261958E+00
2.20845649517E+06	-1.16163684302E+01	1.69770335947E+02	1.99502566536E+01	1.57107390655E+02	-3.87370603892E+01	-1.16751869812E+02	-5.96207976175E+00	-1.06993402084E+00
2.23064784976E+06	-9.92161476646E+00	-1.46453932011E+02	1.99915020536E+01	1.56443397357E+02	-5.36344213868E+01	-1.21250605903E+02	-5.99803475153E+00	-1.12844726422E+00
2.25283920436E+06	-1.12931856876E+01	-1.77189157505E+02	1.99526018020E+01	1.56371039062E+02	-5.54085472456E+01	1.45440839701E+02	-5.91973649432E+00	-9.33764151442E-01
2.27503055895E+06	-8.23034805348E+00	-1.58545838735E+02	1.99532290312E+01	1.56187981164E+02	-3.34960462819E+01	8.23459730780E+01	-5.97342663263E+00	-9.11308067465E-01
2.29722191355E+06	-9.20813017753E+00	1.67829740081E+02	1.99077077128E+01	1.56145964489E+02	-5.05546316620E+01	1.40182435226E+02	-5.96323964726E+00	-7.47710767755E-01
2.31941326814E+06	-7.93810344078E+00	-1.62331850746E+02	1.98924015221E+01	1.55902169371E+02	-3.96307207227E+01	-1.86050623474E+01	-6.00748451760E+00	-1.06387941041E+00
2.34160462274E+06	-1.23895549759E+01	1.52930440801E+02	1.98084596574E+01	1.54350232960E+02	-4.64231197789E+01	-9.23510279309E+00	-5.98294379901E+00	-7.80234434920E-01
2.36379597733E+06	-1.02667391127E+01	1.77434794240E+02	1.98939395397E+01	1.55250699273E+02	-3.93149439458E+01	-1.08580123793E+02	-6.01428222869E+00	-9.95073980464E-01
2.38598733193E+06	-8.35100398342E+00	-1.72896096025E+02	1.98836619853E+01	1.55013321105E+02	-4.39436113113E+01	1.75466595152E+02	-5.82627236974E+00	-3.29047396389E-01
2.40817868652E+06	-9.91651819320E+00	1.47660270365E+02	1.98783076101E+01	1.54878956202E+02	-4.93812917265E+01	-1.84057825200E+01	-5.98289874749E+00	-1.54091790233E+00
2.43037004112E+06	-8.02084152859E+00	-1.68479422189E+02	1.99042259358E+01	1.54844451503E+02	-4.05839242918E+01	-7.84007831718E+01	-5.95757333679E+00	-1.29384520598E+00
2.45256139571E+06	-7.28027437144E+00	1.77008942250E+02	1.99270784184E+01	1.54074158618E+02	-4.67722232706E+01	3.21203011980E+01	-5.98125794083E+00	-1.03932568197E+00
2.47475275031E+06	-8.98275138678E+00	1.64159562281E+02	1.99428138249E+01	1.54406496752E+02	-4.12822558948E+01	1.62386377853E+02	-5.97887041992E+00	-1.10138459742E+00
2.49694410490E+06	-9.72608939804E+00	-1.79420316567E+02	1.99212927055E+01	1.53922393989E+02	-3.93826394406E+01	-9.16141562147E+01	-5.93073608695E+00	-1.21821029714E+00
2.51913545950E+06	-7.91804350867E+00	1.76515851697E+02	1.98772156649E+01	1.53648833950E+02	-5.08309117635E+01	-1.45564089777E+01	-5.90966895893E+00	-1.16576713040E+00
2.54132681409E+06	-1.20809511938E+01	-1.57095862195E+02	1.98699632588E+01	1.53670615957E+02	-3.62467531305E+01	7.35317577847E+01	-5.95077213816E+00	-1.05881054039E+00
2.56351816869E+06	-8.85859139437E+00	1.59834680993E+02	1.98552360295E+01	1.53047436885E+02	-4.88093461699E+01	2.24363106649E+01	-5.93232610186E+00	-1.27437609958E+00
2.58570952328E+06	-1.00492178864E+01	-1.69665803360E+02	1.98687574805E+01	1.52924166817E+02	-6.25182829175E+01	-9.29046763307E+01	-5.98425230527E+00	-1.30026615099E+00
2.60790087788E+06	-1.22854655166E+01	-1.74769742946E+02	1.98451596716E+01	1.52679626672E+02	-4.50063354260E+01	-9.86059005151E+01	-5.96579588660E+00	-1.47327879361E+00
2.63009223247E+06	-7.84796376032E+00	-1.73620057903E+02	1.98728142070E+01	1.52671967478E+02	-3.98362544167E+01	-1.21285040781E+01	-6.00279990067E+00	-1.40195788379E+00
2.65228358707E+06	-1.28132535848E+01	-1.74354662253E+02	1.98207715251E+01	1.52284643473E+02	-4.04160618726E+01	-8.46166576438E+01	-6.00025004067E+00	-1.60317767872E+00
2.67447494166E+06	-9.70967274233E+00	1.70342653948E+02	1.98561923170E+01	1.52036571652E+02	-4.31459679249E+01	1.27540273998E+02	-5.96957198830E+00	-1.02204144201E+00
2.69666629626E+06	-1.00837598152E+01	-1.70549500167E+02	1.98415357747E+01	1.51862963065E+02	-3.55950210674E+01	-1.20173567219E+02	-5.96347899084E+00	-1.65080977830E+00
2.71885765085E+06	-1.17285525471E+01	1.65595330661E+02	1.98332931603E+01	1.51511504672E+02	-3.82730491930E+01	3.38664492930E+01	-5.93819834175E+00	-9.29554516191E-01
2.74104900545E+06	-1.02114852402E+01	1.55992022425E+02	1.98673632580E+01	1.51147969914E+02	-4.59347114359E+01	-1.75318753362E+02	-5.96875203892E+00	-1.49479119753E+00
2.76324036004E+06	-9.63797808264E+00	-1.65532849042E+02	1.98652728584E+01	1.50850234963E+02	-3.40528796473E+01	9.62086452735E+01	-5.94215014242E+00	-1.18734682340E+00
2.78543171463E+06	-9.28689397340E+00	1.72593078700E+02	1.98672169275E+01	1.50843664698E+02	-3.74693234213E+01	6.76718513387E+01	-5.94988203272E+00	-1.35706080218E+00
2.80762306923E+06	-9.12941037043E+00	-1.44958343487E+02	1.98487748655E+01	1.50951274810E+02	-3.92457527737E+01	9.85821149701E+01	-5.97066818240E+00	-1.22510976495E+00
2.82981442382E+06	-1.01868215096E+01	1.71031178207E+02	1.98209370075E+01	1.50294168713E+02	-4.12325810996E+01	1.02993029293E+02	-5.95314136737E+00	-1.36240595561E+00
2.85200577842E+06	-9.42268751541E+00	1.79631114268E+02	1.98216596650E+01	1.50178341072E+02	-4.10939337183E+01	-1.04165619859E+02	-5.88452298238E+00	-1.34922020933E+00
2.87419713301E+06	-1.18321654727E+01	1.69291343390E+02	1.98169404956E+01	1.49924555964E+02	-4.24451127802E+01	-7.22090945165E+01	-5.97239249503E+00	-1.66620877030E+00
