# Hz S DB R 50
! CMT, M5065, 19127446, 24.2.4/2
! Date: 10/29/2024 12:51:32 PM
! Data: Format (Calibration Info)
! Freq	S11:dB/Ang(F2)	S21:dB/Ang(F2)	S12:dB/Ang(F2)	S22:dB/Ang(F2)
3.00000000000E+05	-6.43967081905E+00	-1.65822115642E+02	2.54157209462E+01	-1.76777332165E+02	-3.75069368473E+01	1.55478377381E+02	-6.03500319272E+00	4.18214073932E-03
3.22191354595E+05	-1.07049586679E+01	1.77103291913E+02	2.53728046611E+01	-1.77609411088E+02	-4.35964603541E+01	2.61981292982E+00	-5.94108906809E+00	-3.50255858790E-01
3.44382709190E+05	-9.67660087407E+00	-1.68150732504E+02	2.54050651367E+01	-1.78561041745E+02	-4.00800774168E+01	1.72455284385E+02	-5.96991173175E+00	-2.32954060464E-01
3.66574063785E+05	-7.64725017935E+00	1.79452234503E+02	2.54415905036E+01	-1.79599453746E+02	-4.23445477268E+01	4.96889170360E+00	-5.91541199612E+00	-1.53797337706E-01
3.88765418380E+05	-1.22577772317E+01	1.74394478109E+02	2.53937889429E+01	1.79866416657E+02	-4.19647961166E+01	7.37251067138E+01	-5.87149211412E+00	1.41599606422E-01
4.10956772975E+05	-1.26401034094E+01	-1.78599868091E+02	2.54080331880E+01	1.79025793958E+02	-3.32641911585E+01	-1.09032208268E+02	-5.98867976345E+00	-6.98236125599E-01
4.33148127570E+05	-8.04895376131E+00	1.65601843471E+02	2.54236645644E+01	1.78180705330E+02	-3.95236513371E+01	-7.60136415731E+01	-6.00213113581E+00	-7.54784419145E-01
4.55339482165E+05	-1.18259879685E+01	1.76399262245E+02	2.54000970578E+01	1.77283622755E+02	-4.53564909903E+01	1.04620810340E+02	-5.99005268545E+00	-2.46386309713E-01
4.77530836760E+05	-1.25180220933E+01	-1.69947478412E+02	2.54138095473E+01	1.76855017126E+02	-3.58186813420E+01	7.45292499743E+01	-5.97233742776E+00	1.51607039524E-01
4.99722191355E+05	-8.91997665662E+00	-1.74617951975E+02	2.54217341115E+01	1.76250250675E+02	-3.77217407381E+01	1.00032151021E+02	-5.93473794779E+00	-3.05686625182E-01
5.21913545950E+05	-7.30483630764E+00	-1.78431660434E+02	2.53841017119E+01	1.75471983965E+02	-4.57329807544E+01	-1.71941227122E+02	-5.92579223688E+00	-2.94589832581E-01
5.44104900545E+05	-9.69209809710E+00	-1.67742649180E+02	2.53747646399E+01	1.75044097316E+02	-4.60872457876E+01	7.17991651447E+01	-5.94886067667E+00	-1.52434335893E-01
5.66296255139E+05	-1.30685087771E+01	1.57608859973E+02	2.53693015888E+01	1.74692166282E+02	-4.97160806138E+01	1.02650668657E+02	-5.92589605814E+00	-9.13119070865E-02
5.88487609734E+05	-9.73223557890E+00	-1.66226997377E+02	2.53865415633E+01	1.73677205148E+02	-4.09514881467E+01	6.53818710351E+01	-6.08695838462E+00	-1.12087993556E+00
6.10678964329E+05	-1.14615289736E+01	1.66258968570E+02	2.53602691178E+01	1.73143779058E+02	-4.94517347728E+01	-1.45875087241E+02	-5.87936599623E+00	-3.70159681851E-03
6.32870318924E+05	-1.74088034913E+01	-1.69084013230E+02	2.53357407075E+01	1.72974393241E+02	-3.60352013069E+01	1.67332685478E+02	-6.01662201823E+00	-1.12919682835E+00
6.55061673519E+05	-9.23491973128E+00	-1.77558402484E+02	2.53838082923E+01	1.72365413362E+02	-4.36324405289E+01	1.41216654997E+02	-6.00226000574E+00	-2.39552539836E-01
6.77253028114E+05	-8.58319567898E+00	1.76880479602E+02	2.53394361783E+01	1.71796868425E+02	-4.61627451052E+01	-2.55621360806E+01	-5.93289420852E+00	-8.19064620780E-01
6.99444382709E+05	-1.06601368028E+01	1.75517907866E+02	2.53526873140E+01	1.71179199299E+02	-3.80015462768E+01	-1.71413288457E+02	-5.93816959421E+00	-3.28265480074E-01
7.21635737304E+05	-9.72566224641E+00	-1.70447862736E+02	2.53136338100E+01	1.70804966747E+02	-4.01177480906E+01	3.04445518855E+01	-5.97179607697E+00	-4.86110459861E-01
7.43827091899E+05	-9.90348998198E+00	-1.78724628630E+02	2.53216876710E+01	1.70291792820E+02	-4.80703001226E+01	-1.02006261531E+02	-6.01030543319E+00	-4.19022643472E-01
7.66018446494E+05	-8.59107713611E+00	-1.69481613446E+02	2.53443208888E+01	1.70029576894E+02	-4.77195875128E+01	-3.88225918651E+01	-5.91815997742E+00	-9.80501285875E-01
7.88209801089E+05	-1.44617511706E+01	-1.69531101805E+02	2.53468901196E+01	1.69347764295E+02	-3.42946425371E+01	1.01846115126E+02	-6.07384553907E+00	-6.45191048022E-01
8.10401155684E+05	-7.97343729250E+00	1.74456462452E+02	2.52725292017E+01	1.68994397357E+02	-3.99280205494E+01	-9.18352815019E+01	-5.95997274060E+00	-6.37477865738E-01
8.32592510279E+05	-9.51899144021E+00	-1.69298211108E+02	2.53013732727E+01	1.68414215825E+02	-3.68268398017E+01	-3.83338302761E+01	-5.95381078258E+00	-6.16186238881E-01
8.54783864874E+05	-1.68113952556E+01	-1.72547535796E+02	2.52692900074E+01	1.68101004842E+02	-3.90571125387E+01	1.08415169423E+02	-5.99782194344E+00	-4.21434690411E-01
8.76975219469E+05	-8.73415606603E+00	-1.62841284265E+02	2.52907637424E+01	1.67454442810E+02	-4.64831631699E+01	1.78645242728E+02	-5.96407809934E+00	-8.51301192555E-01
8.99166574064E+05	-1.05896818106E+01	1.77470951986E+02	2.52798129538E+01	1.67112105073E+02	-5.08300378590E+01	7.28855262982E+01	-5.95257864844E+00	-9.61143896998E-01
9.21357928659E+05	-8.99580804772E+00	1.55944977482E+02	2.52664610876E+01	1.66618031680E+02	-4.56324304932E+01	-2.41261621496E+01	-5.96922533124E+00	-6.93778126895E-01
9.43549283254E+05	-7.84058641192E+00	1.61876568298E+02	2.52423097851E+01	1.66059509459E+02	-4.18684959488E+01	-1.27321266170E+02	-5.96370495567E+00	-3.67479441925E-01
9.65740637849E+05	-1.42828935065E+01	1.71382418272E+02	2.52693401560E+01	1.65937582828E+02	-3.46536019176E+01	3.41283275667E+01	-5.97335576304E+00	-4.63214786814E-01
9.87931992444E+05	-1.19313354664E+01	-1.63382924664E+02	2.52187743294E+01	1.65453299263E+02	-4.32009772019E+01	1.74610127165E+02	-6.01034498895E+00	-4.87112940805E-01
1.01012334704E+06	-6.32798528311E+00	-1.71134593441E+02	2.52114598973E+01	1.65007336853E+02	-3.76509462538E+01	-3.91033759488E+01	-5.96831315821E+00	-8.28021382961E-01
1.03231470163E+06	-1.06206701719E+01	1.74739164234E+02	2.52234094097E+01	1.64473090311E+02	-3.60118597124E+01	1.46704906683E+02	-6.00410124504E+00	-5.68708348280E-01
1.05450605623E+06	-1.08413549648E+01	1.72879580093E+02	2.51839441326E+01	1.64119611575E+02	-4.51252738743E+01	-4.50460043901E+01	-6.01465308550E+00	-4.83452186286E-01
1.07669741082E+06	-1.24332965333E+01	1.66498579042E+02	2.52048798231E+01	1.63403826782E+02	-3.47560817172E+01	-1.78002583868E+02	-6.08232367468E+00	-1.91272574759E+00
1.09888876542E+06	-8.28777571791E+00	-1.60211281103E+02	2.51808610464E+01	1.63459289987E+02	-4.30684209204E+01	-8.45201333483E+01	-6.02619964292E+00	-5.90834144229E-01
1.12108012001E+06	-1.15155292980E+01	1.46615720040E+02	2.51857800430E+01	1.62959122866E+02	-4.00715358456E+01	-1.24630063220E+02	-5.99254265143E+00	-3.03781654207E-01
1.14327147461E+06	-9.09948294136E+00	1.77366257280E+02	2.51391888219E+01	1.62446676785E+02	-3.70487766906E+01	-8.79826918542E+01	-5.97347941832E+00	-6.81278028277E-01
1.16546282920E+06	-9.12453251642E+00	-1.69069029707E+02	2.51448974775E+01	1.62086603495E+02	-4.56429288755E+01	1.58484239381E+02	-5.92520809586E+00	-5.74518448038E-01
1.18765418380E+06	-1.05467517016E+01	1.68591441662E+02	2.51722121117E+01	1.61598395195E+02	-3.78935335832E+01	-9.86094590652E+01	-5.99414896858E+00	-7.89315670676E-01
1.20984553839E+06	-9.96928201810E+00	-1.59285577080E+02	2.51480812949E+01	1.61138443249E+02	-4.07102499100E+01	5.01734199884E+01	-6.01788626795E+00	-1.13467473902E+00
1.23203689299E+06	-1.08453050723E+01	-1.75667029972E+02	2.51060335307E+01	1.60856786660E+02	-3.80494172550E+01	1.30299513257E+01	-5.96941721976E+00	-9.22090366458E-01
1.25422824758E+06	-8.84268366167E+00	-1.79180606743E+02	2.50836216737E+01	1.60413922974E+02	-3.67212036722E+01	-1.49629125827E+02	-6.02853486120E+00	-2.31140036430E-01
1.27641960218E+06	-8.94162401626E+00	-1.58252147109E+02	2.51007742453E+01	1.60099666858E+02	-3.60913583004E+01	5.87170848391E+01	-5.98102558815E+00	-7.02818744604E-01
1.29861095677E+06	-1.15525043886E+01	-1.63970220357E+02	2.50951105510E+01	1.59694158275E+02	-4.24785698913E+01	-1.41215953712E+02	-6.02842973363E+00	-9.51665861822E-01
1.32080231137E+06	-1.47322745933E+01	-1.72513997071E+02	2.51084522048E+01	1.59368645507E+02	-3.77821558881E+01	-3.82065954818E+01	-5.94757083946E+00	-9.74989711026E-01
1.34299366596E+06	-1.03996252052E+01	-1.59360887837E+02	2.50481588713E+01	1.58921650145E+02	-4.30751663410E+01	-2.48806886909E+01	-5.98684538535E+00	-9.26416596415E-01
1.36518502056E+06	-1.21284665730E+01	1.75655396726E+02	2.50463719157E+01	1.58329722795E+02	-3.78461192016E+01	6.94792520767E+01	-5.94497704314E+00	-6.37674346946E-01
1.38737637515E+06	-7.70301894848E+00	1.75159587438E+02	2.50374519136E+01	1.58033195695E+02	-4.08329230396E+01	-1.33246838925E+02	-5.99541626443E+00	-3.43872683820E-01
1.40956772975E+06	-1.15355131783E+01	-1.76381573935E+02	2.49819688074E+01	1.57753116503E+02	-3.41012506847E+01	1.25309155810E+02	-5.98266824384E+00	-8.06188628819E-02
1.43175908434E+06	-1.11130457603E+01	1.57207736831E+02	2.50459080234E+01	1.57363391455E+02	-3.72760333602E+01	-1.24857742590E+02	-5.99750543103E+00	-9.71888987962E-01
1.45395043894E+06	-1.35928322921E+01	1.70771354482E+02	2.49577830146E+01	1.56930828260E+02	-3.81545790770E+01	-1.66442687793E+02	-6.14807624579E+00	-8.60341141877E-01
1.47614179353E+06	-1.12607496457E+01	-1.74153651647E+02	2.50032410072E+01	1.56613347815E+02	-3.76123759933E+01	-1.48977228915E+02	-6.01741187287E+00	-7.60355281689E-01
1.49833314813E+06	-1.10376302928E+01	1.77199178887E+02	2.49992638246E+01	1.56217983819E+02	-3.71659612373E+01	-1.49741820838E+02	-6.00515861396E+00	-7.94325219819E-01
1.52052450272E+06	-1.05330658877E+01	1.53687328770E+02	2.49832099417E+01	1.55819079283E+02	-3.92362038790E+01	5.06814673692E+01	-5.94759115843E+00	-8.02805163326E-01
1.54271585732E+06	-1.53448548851E+01	-1.67877704903E+02	2.49884889296E+01	1.55440514346E+02	-4.11437428408E+01	-5.60891288885E+01	-6.02435320920E+00	-3.52286823655E-01
1.56490721191E+06	-1.03422127721E+01	1.58689123590E+02	2.49378043710E+01	1.55185356632E+02	-4.28827626955E+01	1.79692707720E+01	-5.92940618473E+00	-7.45511670096E-01
1.58709856651E+06	-9.75851813586E+00	1.69011422112E+02	2.49768122887E+01	1.54742973920E+02	-3.77477048969E+01	7.15231273548E+01	-5.99162973613E+00	-1.01910905675E+00
1.60928992110E+06	-1.58661871711E+01	1.67353592490E+02	2.49092456375E+01	1.54468390058E+02	-3.79082124993E+01	-1.68529693676E+02	-5.96736730654E+00	-7.91025447396E-01
1.63148127570E+06	-1.18268490275E+01	1.66760473481E+02	2.48938205306E+01	1.53924129967E+02	-3.47510007302E+01	7.06591009261E+01	-5.95910927547E+00	-6.26329280706E-01
1.65367263029E+06	-1.99354331821E+01	-1.75124421823E+02	2.48801983181E+01	1.53519204538E+02	-4.42950732429E+01	-9.98037967329E+01	-5.94384741873E+00	-1.06141935392E+00
1.67586398489E+06	-1.07695332311E+01	1.71469361994E+02	2.48822797357E+01	1.53268350939E+02	-3.25037410789E+01	1.79974520493E+02	-5.96888228978E+00	-5.91905457756E-01
1.69805533948E+06	-1.08022248331E+01	1.76095017653E+02	2.49170044660E+01	1.52634264451E+02	-3.45502121739E+01	1.27505694333E+02	-5.98284978291E+00	-8.82653915377E-01
1.72024669408E+06	-1.22097624486E+01	1.76919692331E+02	2.48769223756E+01	1.52510004888E+02	-4.36845637792E+01	-1.77088490721E+02	-6.08234972209E+00	-2.35296244309E-01
1.74243804867E+06	-6.23912312313E+00	-1.73969255824E+02	2.48446089926E+01	1.52147500697E+02	-3.69721545577E+01	-1.48577880635E+02	-5.88224932068E+00	-1.93495483139E+00
1.76462940327E+06	-1.14877275086E+01	-1.77243574205E+02	2.48203326011E+01	1.51811412808E+02	-3.86437520683E+01	7.32408152516E+01	-5.91374559589E+00	-1.29648370967E+00
1.78682075786E+06	-7.13369233324E+00	-1.75733240735E+02	2.47908648294E+01	1.51503832104E+02	-4.48007998586E+01	9.33288888901E+01	-5.98387374264E+00	-1.29666072869E+00
1.80901211246E+06	-1.08786769082E+01	-1.69797158724E+02	2.47872085022E+01	1.51072810179E+02	-3.54366902650E+01	3.06354679576E+01	-5.95515733792E+00	-1.01958797281E+00
1.83120346705E+06	-1.01682582589E+01	1.67520608330E+02	2.47785512302E+01	1.50536755630E+02	-4.10210614727E+01	-1.04183992206E+02	-6.03136190359E+00	-6.03013622892E-01
1.85339482165E+06	-8.94389245905E+00	1.72789833738E+02	2.48267408379E+01	1.50328935403E+02	-3.57680617017E+01	4.05245323166E+01	-5.96216158127E+00	-1.12152812792E+00
1.87558617624E+06	-8.70600209191E+00	1.79027680000E+02	2.48203803298E+01	1.50437237572E+02	-3.34278020639E+01	-1.08644478520E+02	-5.68531274396E+00	-3.68197655094E+00
1.89777753084E+06	-1.10053264818E+01	1.57644406998E+02	2.47500672823E+01	1.49581779341E+02	-4.05927211237E+01	2.61034044697E+01	-5.83822113984E+00	1.63069918189E-02
1.91996888543E+06	-1.22793852917E+01	1.70816023768E+02	2.47223151032E+01	1.49247436310E+02	-3.48749807290E+01	-8.91766001166E+01	-5.95448729487E+00	-1.17173738929E+00
1.94216024003E+06	-1.14863111488E+01	-1.76201465924E+02	2.47151534074E+01	1.48941403562E+02	-4.07001188461E+01	-2.76222308614E+01	-5.95482324531E+00	-1.20647064657E+00
1.96435159462E+06	-1.50703351946E+01	-1.61832277589E+02	2.47048840377E+01	1.48497291840E+02	-4.07919355807E+01	1.33045310843E+02	-5.96324173760E+00	-9.47300106144E-01
1.98654294922E+06	-1.10097415213E+01	1.71306852569E+02	2.46677029301E+01	1.47959932124E+02	-3.91478589747E+01	6.76940845052E+01	-5.98623188086E+00	-9.53741084244E-01
2.00873430381E+06	-9.90984224111E+00	-1.74455350610E+02	2.46415021878E+01	1.47952978949E+02	-5.00721627846E+01	1.32794486839E+02	-5.99435848962E+00	-1.08960704473E+00
2.03092565841E+06	-9.05771495903E+00	1.44684423004E+02	2.46689151693E+01	1.47626899753E+02	-4.02787468459E+01	-7.83833196638E+01	-5.95710332400E+00	-2.57869909206E-01
2.05311701300E+06	-9.02256170150E+00	1.57889782270E+02	2.46316561664E+01	1.46828757893E+02	-3.67836306115E+01	1.43282641140E+02	-6.07786657725E+00	-8.55238999428E-01
2.07530836760E+06	-7.63154879582E+00	1.66114065463E+02	2.46525604269E+01	1.46862378692E+02	-5.19112225916E+01	-9.49358315527E+00	-5.97834239364E+00	-1.16819205211E+00
2.09749972219E+06	-7.86126416829E+00	-1.77705621918E+02	2.46353108432E+01	1.46271171237E+02	-4.44942047272E+01	1.75310606691E+02	-5.97371632031E+00	-1.22470091845E+00
2.11969107679E+06	-9.61837777221E+00	1.71170959432E+02	2.46070036233E+01	1.46164545360E+02	-3.91365469912E+01	-1.10695777397E+02	-5.97680211220E+00	-1.12187974433E+00
2.14188243138E+06	-9.19142680185E+00	-1.79165403824E+02	2.45840372735E+01	1.46058133567E+02	-4.16703570351E+01	-1.07167170720E+02	-5.95140260199E+00	-1.03042657061E+00
2.16407378598E+06	-8.00049184881E+00	-1.71305108501E+02	2.45753888380E+01	1.45411586585E+02	-3.96434074506E+01	5.86015193430E+01	-5.96893290087E+00	-8.65063369086E-01
2.18626514057E+06	-1.39300251099E+01	-1.48503024258E+02	2.46001790926E+01	1.44775018578E+02	-3.75474382607E+01	3.48193067153E+01	-5.64811258047E+00	1.75941321829E-01
2.20845649517E+06	-8.24551606860E+00	1.68207851364E+02	2.45405658843E+01	1.44636345861E+02	-4.14489330219E+01	-1.38795373174E+02	-5.95953961111E+00	-1.28156301557E+00
2.23064784976E+06	-1.06774018173E+01	1.63486746707E+02	2.45225269077E+01	1.44199635880E+02	-3.99660667576E+01	9.56289529883E+01	-5.91855759099E+00	-1.19898282634E+00
2.25283920436E+06	-8.07116268768E+00	-1.67604190781E+02	2.45038079845E+01	1.43947456720E+02	-4.34475858939E+01	-1.05780866105E+01	-5.95560093975E+00	-1.04476732667E+00
2.27503055895E+06	-8.99735226731E+00	-1.79937232942E+02	2.45290288494E+01	1.43633624374E+02	-4.23631643642E+01	9.41394258499E+01	-5.92584173966E+00	-1.44472299042E+00
2.29722191355E+06	-9.33518253500E+00	1.79198541957E+02	2.44690538840E+01	1.43381364978E+02	-3.93569999980E+01	-1.01579427960E+02	-5.96012622242E+00	-7.82375625056E-01
2.31941326814E+06	-1.06264995545E+01	-1.60146992311E+02	2.44953699383E+01	1.43018059742E+02	-3.93078001506E+01	1.38105535502E+02	-6.01642105402E+00	-1.40248551106E+00
2.34160462274E+06	-8.22786868225E+00	-1.59952266982E+02	2.44776886295E+01	1.42529123368E+02	-3.89659303723E+01	1.03976065580E+02	-5.80566191392E+00	-8.79016572036E-01
2.36379597733E+06	-1.18861136454E+01	-1.57605609687E+02	2.44125949481E+01	1.42184271319E+02	-4.66075148215E+01	-8.51360733353E+01	-5.88838670203E+00	-9.34282409706E-01
2.38598733193E+06	-9.52799578595E+00	-1.51534177571E+02	2.44154323606E+01	1.42112558072E+02	-3.71852143034E+01	7.67306656121E+01	-5.99587114842E+00	-1.48654624064E+00
2.40817868652E+06	-8.36633916058E+00	-1.74730165587E+02	2.44312002251E+01	1.41563064372E+02	-4.46752878022E+01	1.79384955598E+02	-5.93597841333E+00	-1.22653486925E+00
2.43037004112E+06	-5.61246030223E+00	1.74068267135E+02	2.43837795299E+01	1.41227110272E+02	-3.72939636842E+01	1.59446850883E+01	-5.95802831317E+00	-1.67866697117E+00
2.45256139571E+06	-1.06907033646E+01	-1.44728907898E+02	2.43967453061E+01	1.40965892660E+02	-5.07381943312E+01	4.30221448927E+01	-5.95460156527E+00	-1.00150892942E+00
2.47475275031E+06	-1.28263546010E+01	-1.45449734495E+02	2.43187647107E+01	1.40962168040E+02	-3.96351055674E+01	-5.36567738705E+01	-5.99559312144E+00	-1.02230385165E+00
2.49694410490E+06	-7.40434256337E+00	1.60194836985E+02	2.44320556011E+01	1.39930111786E+02	-3.83326765304E+01	-1.32816461111E+02	-5.97151710077E+00	-1.58709392998E+00
2.51913545950E+06	-9.04984782957E+00	-1.79669847944E+02	2.43122944805E+01	1.40159408951E+02	-4.38815862598E+01	1.55414394766E+02	-6.00826512968E+00	-1.03954909345E+00
2.54132681409E+06	-8.89117141112E+00	1.59933033951E+02	2.42988942306E+01	1.39579346764E+02	-4.53853183158E+01	6.87185011894E+01	-5.96101931282E+00	-1.30307598326E+00
2.56351816869E+06	-1.06031529895E+01	1.61209816677E+02	2.42824484788E+01	1.39336041776E+02	-4.64619516825E+01	3.84926241772E+01	-5.97524724075E+00	-1.36019367095E+00
2.58570952328E+06	-1.02270558360E+01	1.71703720182E+02	2.43110468027E+01	1.38874991994E+02	-5.45592826414E+01	-4.22544120616E+01	-5.96890070575E+00	-1.49362974265E+00
2.60790087788E+06	-9.88023776835E+00	-1.75741923063E+02	2.42471975890E+01	1.38705198193E+02	-4.28062790904E+01	-5.31086000486E+01	-5.97546053319E+00	-1.55361318701E+00
2.63009223247E+06	-9.38941443022E+00	-1.61862453875E+02	2.42481442144E+01	1.38397477273E+02	-4.90292776297E+01	-1.86844185461E+01	-5.98234502123E+00	-1.49212968860E+00
2.65228358707E+06	-1.42566924717E+01	1.77483755774E+02	2.42291558193E+01	1.37657727930E+02	-4.34875990141E+01	3.28333822545E+01	-5.93925843412E+00	-2.07300934609E+00
2.67447494166E+06	-9.92433925639E+00	-1.76391954757E+02	2.42082253544E+01	1.37692102532E+02	-4.62709494288E+01	-1.08873792557E+02	-6.00258208776E+00	-1.69127362355E+00
2.69666629626E+06	-1.08733025845E+01	-1.58588573433E+02	2.41712335759E+01	1.37193303838E+02	-3.99229175544E+01	-1.79871521560E+01	-6.00157226844E+00	-1.21077140491E+00
2.71885765085E+06	-8.71567614410E+00	1.79177745692E+02	2.41737448462E+01	1.36894920499E+02	-3.24917649224E+01	-1.59292653047E+02	-5.98422621847E+00	-1.25575928470E+00
2.74104900545E+06	-1.63363418973E+01	1.76847075488E+02	2.41923073276E+01	1.36642188066E+02	-5.43787991947E+01	1.77205067944E+02	-5.94122672081E+00	-1.01719362816E+00
2.76324036004E+06	-9.19552943629E+00	-1.65685116497E+02	2.41180161382E+01	1.36095887520E+02	-5.00032387927E+01	1.68429502255E+02	-5.85940430831E+00	-1.00220879498E+00
2.78543171463E+06	-1.10442080200E+01	-1.77388576598E+02	2.41180515056E+01	1.35967162235E+02	-3.92553360430E+01	-1.42185510330E+02	-5.90412750317E+00	-1.44685965965E+00
2.80762306923E+06	-1.05945569178E+01	-1.72255090442E+02	2.41180523008E+01	1.35485981539E+02	-3.92919649824E+01	-1.62005007361E+00	-5.94659647723E+00	-1.55266150177E+00
2.82981442382E+06	-1.03043210091E+01	1.76605394487E+02	2.41103671439E+01	1.35525215348E+02	-3.78962397782E+01	4.67682072049E+00	-6.00075605554E+00	-1.67058265295E+00
2.85200577842E+06	-8.93406152168E+00	1.74359562481E+02	2.40739213736E+01	1.34974844152E+02	-4.27250147217E+01	-2.17475883005E+01	-5.96132954886E+00	-1.54956735367E+00
2.87419713301E+06	-1.17396915148E+01	-1.70321285707E+02	2.40761794962E+01	1.34433758803E+02	-4.79482627468E+01	1.49870671948E+02	-5.97949664281E+00	-1.42652967688E+00
