# Hz S DB R 50
! CMT, M5065, 19127446, 24.2.4/2
! Date: 10/29/2024 12:46:50 PM
! Data: Format (Calibration Info)
! Freq	S11:dB/Ang(F2)	S21:dB/Ang(F2)	S12:dB/Ang(F2)	S22:dB/Ang(F2)
3.00000000000E+05	-9.17772172224E+00	-1.73282653099E+02	1.85359163784E+01	-1.77444985871E+02	-4.05799553150E+01	-3.80968660370E+01	-5.95009532279E+00	-4.38243968237E-01
3.22191354595E+05	-1.01933742696E+01	1.73102723624E+02	1.85300831898E+01	-1.78193016970E+02	-3.72726819975E+01	-1.78744926805E+02	-6.00846916024E+00	-2.99943750464E-01
3.44382709190E+05	-6.79851795838E+00	-1.78986293586E+02	1.85540923647E+01	-1.78601749553E+02	-3.62715455202E+01	-6.47804563226E+00	-5.94311435897E+00	-2.71584330052E-01
3.66574063785E+05	-1.00351430470E+01	-1.66055255503E+02	1.85330023666E+01	-1.79181892875E+02	-4.51179340844E+01	-1.79469283731E+02	-6.01417690376E+00	-3.30298804910E-01
3.88765418380E+05	-8.92248931413E+00	-1.72418513340E+02	1.85724819653E+01	-1.79570634730E+02	-3.52051240952E+01	1.37133231848E+02	-5.97297951461E+00	-4.62205744250E-01
4.10956772975E+05	-1.79574115604E+01	-1.48222368841E+02	1.85472687038E+01	1.79805907559E+02	-4.17709211563E+01	-8.97849378025E+01	-5.93474334860E+00	-1.26358541159E-01
4.33148127570E+05	-9.81683340884E+00	1.54622060911E+02	1.85362719238E+01	1.79507717455E+02	-4.54042649670E+01	-5.88379232152E+01	-5.94721519337E+00	-5.23399373586E-02
4.55339482165E+05	-1.18511830673E+01	-1.70066327197E+02	1.85529222360E+01	1.79017420052E+02	-4.09071002569E+01	1.54459061776E+02	-5.94993117050E+00	-4.68252029665E-01
4.77530836760E+05	-1.71241130597E+01	1.75940184148E+02	1.85421357382E+01	1.78705258919E+02	-3.79086697091E+01	1.30454074150E+02	-5.99495143924E+00	-4.85191686738E-01
4.99722191355E+05	-1.00995743553E+01	-1.73163611799E+02	1.85815415405E+01	1.78051987639E+02	-3.67100352291E+01	-4.94464352236E+01	-5.98005208523E+00	-2.22624486857E-01
5.21913545950E+05	-9.05766382840E+00	-1.75211507943E+02	1.85695004989E+01	1.77818134315E+02	-4.06816285197E+01	-3.15354591265E+01	-5.94416072417E+00	-5.69116925298E-01
5.44104900545E+05	-9.54835655682E+00	-1.76100088524E+02	1.85529716822E+01	1.77560898102E+02	-3.53398193274E+01	9.31221268413E+01	-6.00103376983E+00	-4.50371301738E-01
5.66296255139E+05	-6.99420751657E+00	-1.67987850382E+02	1.85416830453E+01	1.77072257857E+02	-4.40685215481E+01	2.40334232026E+00	-5.97524866033E+00	-6.29289248003E-01
5.88487609734E+05	-2.04225841380E+01	-1.24695822085E+02	1.85396747811E+01	1.76634246611E+02	-3.78171454718E+01	1.44005837597E+02	-5.95115855782E+00	-1.03509554280E-02
6.10678964329E+05	-1.06418750298E+01	-1.54381881331E+02	1.85292176535E+01	1.76506089917E+02	-4.05337323790E+01	8.79577678232E+01	-5.94483341281E+00	-2.94016254721E-01
6.32870318924E+05	-1.19157839841E+01	-1.53829333536E+02	1.84956606526E+01	1.76436802798E+02	-5.08800243610E+01	-1.04564396562E+02	-5.96781337121E+00	-9.01951636448E-01
6.55061673519E+05	-1.00653945379E+01	-1.78983917465E+02	1.85403646984E+01	1.75909480852E+02	-4.18912392059E+01	-2.88234437619E+01	-5.99418722525E+00	-6.13350018168E-01
6.77253028114E+05	-1.00597962721E+01	1.73721588424E+02	1.85162911787E+01	1.75556111146E+02	-3.72905115467E+01	-3.83612373720E+01	-5.93474670832E+00	-7.09299916838E-01
6.99444382709E+05	-6.74191856242E+00	-1.72256236771E+02	1.85282300458E+01	1.75368533816E+02	-4.65261833309E+01	3.19100544575E+01	-5.95451879045E+00	-5.19122210359E-01
7.21635737304E+05	-8.74260254462E+00	1.72807094571E+02	1.85411293262E+01	1.75007768172E+02	-5.39934199755E+01	6.11872717671E+01	-6.01207913097E+00	-7.33333433646E-01
7.43827091899E+05	-9.90630164839E+00	-1.49601478844E+02	1.85543118928E+01	1.75149049446E+02	-3.66942164719E+01	1.75689496296E+02	-5.93026105390E+00	-4.85454382827E-01
7.66018446494E+05	-8.92202349363E+00	-1.75923647494E+02	1.85326504902E+01	1.74738058303E+02	-3.45173300867E+01	9.87603243018E+01	-5.92642628642E+00	1.21815204350E-01
7.88209801089E+05	-9.58533377656E+00	1.65033034656E+02	1.85501874843E+01	1.74481078889E+02	-3.65174636862E+01	-6.93059349141E+01	-5.97669498108E+00	-7.83356575054E-01
8.10401155684E+05	-9.52949359047E+00	-1.71029975383E+02	1.85310036641E+01	1.74206507946E+02	-3.74088727771E+01	-1.13966591017E+02	-5.98040883705E+00	-4.91749825151E-01
8.32592510279E+05	-9.16664573755E+00	1.70463540267E+02	1.84717826422E+01	1.73741150354E+02	-4.31189301621E+01	-1.29050273706E+02	-5.98358847115E+00	-6.12198683365E-01
8.54783864874E+05	-1.20724659004E+01	1.65916251087E+02	1.85171115439E+01	1.73556488649E+02	-4.87730535737E+01	-1.40033910117E+02	-5.98208106611E+00	-7.16189060323E-01
8.76975219469E+05	-1.24062189491E+01	-1.76829306329E+02	1.85479330309E+01	1.73228109496E+02	-4.36905645031E+01	8.53406333835E+01	-5.96634292903E+00	-5.90107588614E-01
8.99166574064E+05	-1.13660591316E+01	1.69454348761E+02	1.85327255866E+01	1.73092044481E+02	-3.98447107911E+01	-1.72342952197E+02	-6.03471750415E+00	-8.96669225492E-01
9.21357928659E+05	-1.14621024204E+01	-1.73887303616E+02	1.85255554584E+01	1.72567661010E+02	-3.84559743001E+01	1.77525979219E+02	-5.96741292365E+00	-2.97676347063E-01
9.43549283254E+05	-8.77153493827E+00	1.73563170520E+02	1.85013198665E+01	1.72555484331E+02	-3.65674450574E+01	1.30420928068E+02	-5.96196760070E+00	-3.32044597427E-01
9.65740637849E+05	-1.02509644728E+01	-1.39528407438E+02	1.85403217538E+01	1.72507915618E+02	-4.52640633574E+01	-1.30176408414E+02	-6.01058053362E+00	-8.03228549683E-01
9.87931992444E+05	-1.33208012763E+01	-1.77655178006E+02	1.84890539908E+01	1.71828821893E+02	-5.20359598736E+01	4.15840550674E+01	-5.95453426117E+00	-6.89874347931E-01
1.01012334704E+06	-8.71563197590E+00	1.62673427686E+02	1.85419232142E+01	1.71602393113E+02	-3.66525019132E+01	2.18394319363E+01	-5.92882260510E+00	-6.23871678313E-01
1.03231470163E+06	-7.40808400747E+00	-1.77623748661E+02	1.85242880461E+01	1.71271019964E+02	-4.18540998686E+01	-5.63686903638E+01	-5.93678686869E+00	-4.63186735651E-01
1.05450605623E+06	-1.05541640106E+01	1.71419378369E+02	1.84998207293E+01	1.71295300509E+02	-3.88440590554E+01	-1.03205615646E+01	-5.92567508032E+00	-9.52004448988E-01
1.07669741082E+06	-8.80054306488E+00	-1.55889902900E+02	1.85062057764E+01	1.70996930212E+02	-4.31061729234E+01	1.28999163325E+02	-5.96398223393E+00	-4.33089012003E-01
1.09888876542E+06	-1.37770155149E+01	-1.58192654935E+02	1.85157570270E+01	1.70797975413E+02	-3.71096860463E+01	-9.41160487099E+01	-6.02602883558E+00	-4.99667696564E-01
1.12108012001E+06	-7.97822118143E+00	-1.71695194757E+02	1.85428561203E+01	1.70574559846E+02	-3.48241919316E+01	-7.88141350702E+01	-5.98379525113E+00	-7.44756885107E-01
1.14327147461E+06	-1.06145064239E+01	1.79632088578E+02	1.84788991953E+01	1.70325593451E+02	-3.92012600159E+01	-7.05078374566E+01	-5.96229589330E+00	-5.89529667395E-01
1.16546282920E+06	-6.91780811098E+00	-1.60316124095E+02	1.85454243268E+01	1.70109060441E+02	-4.91176679308E+01	1.16907073321E+02	-5.96726944877E+00	-9.04252492340E-01
1.18765418380E+06	-1.22619328757E+01	-1.71046620428E+02	1.84422220015E+01	1.70024710273E+02	-3.90353312062E+01	-4.47329710490E+01	-5.95315032079E+00	-6.85684512087E-01
1.20984553839E+06	-8.11905638683E+00	-1.70382366258E+02	1.85047418631E+01	1.69720930446E+02	-3.82849343781E+01	-7.75639301089E+01	-5.95236839313E+00	-1.08219416150E+00
1.23203689299E+06	-1.04679764237E+01	1.76302914091E+02	1.85005201004E+01	1.69314967402E+02	-5.75374990067E+01	5.38366686276E+01	-5.99289970155E+00	-2.28269977692E-01
1.25422824758E+06	-8.21900730337E+00	-1.75098949145E+02	1.85001932976E+01	1.69172436315E+02	-4.49764633440E+01	-8.70611449611E+01	-6.01008571063E+00	-5.95238621535E-01
1.27641960218E+06	-7.83805141522E+00	1.75218778144E+02	1.84974590911E+01	1.69213573951E+02	-3.70686090326E+01	-7.60940164663E+01	-5.93972568818E+00	-6.84622712562E-01
1.29861095677E+06	-8.35103717411E+00	1.78755869135E+02	1.84725949261E+01	1.68568822458E+02	-3.46365807653E+01	-1.32931720072E+02	-5.97708429320E+00	-5.94772592406E-01
1.32080231137E+06	-1.17308990797E+01	-1.48767772157E+02	1.85112026601E+01	1.68651361555E+02	-4.06766551222E+01	1.74552146806E+02	-5.98494985561E+00	-1.38177681960E+00
1.34299366596E+06	-7.61768337662E+00	1.73859510024E+02	1.85173501871E+01	1.68529524979E+02	-5.37064749358E+01	-1.51245857574E+02	-6.00512103967E+00	-6.56523832617E-01
1.36518502056E+06	-9.48425927496E+00	-1.76709478113E+02	1.84638467501E+01	1.67987186954E+02	-4.73421875273E+01	7.92918600131E+01	-5.94674073766E+00	-9.30297303807E-01
1.38737637515E+06	-2.03662880106E+01	1.71848549265E+02	1.85343027281E+01	1.67785505075E+02	-4.79692034864E+01	5.42372237757E+01	-5.93248794290E+00	-1.41332973680E-01
1.40956772975E+06	-1.05897041994E+01	-1.73521690988E+02	1.85370158249E+01	1.67346553040E+02	-3.60148223720E+01	-1.15070200484E+02	-6.02512708714E+00	-1.05396673994E+00
1.43175908434E+06	-8.16887834586E+00	-1.46538429789E+02	1.84837324776E+01	1.67224853658E+02	-3.72055755823E+01	-3.48107514913E+01	-5.98753142464E+00	-6.85386716474E-01
1.45395043894E+06	-9.19235817218E+00	1.65365107152E+02	1.84888001309E+01	1.66793187915E+02	-3.96113592167E+01	-1.36529752098E+02	-6.07774453668E+00	-3.69602540369E-01
1.47614179353E+06	-9.51696323458E+00	1.68820272921E+02	1.84844017310E+01	1.66858822264E+02	-3.72873304814E+01	-1.33689959524E+02	-6.00855816702E+00	-7.79818397849E-01
1.49833314813E+06	-1.07644868588E+01	1.57831015521E+02	1.84547367522E+01	1.66625944340E+02	-4.30456433872E+01	1.52532569730E+00	-5.98362155907E+00	-8.74720501245E-01
1.52052450272E+06	-8.01270484494E+00	1.72862496654E+02	1.84962881052E+01	1.66602335603E+02	-3.75458987444E+01	-1.48009067144E+01	-6.00229242756E+00	-8.72401753509E-01
1.54271585732E+06	-9.76463467574E+00	-1.73133694133E+02	1.84880486573E+01	1.66152224491E+02	-4.49416405857E+01	1.55801526818E+02	-5.96684175931E+00	-9.70539288849E-01
1.56490721191E+06	-9.43511249066E+00	-1.73283823412E+02	1.84606954852E+01	1.65914325958E+02	-3.90954510848E+01	-1.77995235751E+02	-5.95010109489E+00	-9.52625674090E-01
1.58709856651E+06	-8.78036592665E+00	-1.77805675565E+02	1.84807530578E+01	1.65695941599E+02	-4.71351221364E+01	-7.55650867462E+01	-6.01121285137E+00	-7.80159359903E-01
1.60928992110E+06	-1.15942368832E+01	-1.79214746187E+02	1.84902568742E+01	1.65526098869E+02	-4.08456095505E+01	1.90205477273E+01	-5.94401627705E+00	-7.02252467476E-01
1.63148127570E+06	-6.71792816898E+00	1.79120734715E+02	1.84737235576E+01	1.65325729746E+02	-3.29913437411E+01	1.21261753910E+01	-5.97613748693E+00	-1.00539316601E+00
1.65367263029E+06	-8.97427749579E+00	-1.78446014190E+02	1.85066193739E+01	1.65342440271E+02	-3.97034062270E+01	4.61019718215E+01	-5.97659306886E+00	-9.38741060333E-01
1.67586398489E+06	-8.25945878804E+00	1.58905696670E+02	1.84129425750E+01	1.64715527430E+02	-4.46125710272E+01	-4.87641982258E+01	-5.94521762811E+00	-4.27841712919E-01
1.69805533948E+06	-1.01654667121E+01	1.70276292736E+02	1.84524627361E+01	1.64536018015E+02	-3.18926800400E+01	-1.62650419342E+02	-6.00725289147E+00	-3.01025295542E-01
1.72024669408E+06	-1.31034331579E+01	1.70472056138E+02	1.84562020571E+01	1.64272201864E+02	-4.81265107885E+01	1.03045205324E+02	-5.98850102256E+00	-8.81753090671E-01
1.74243804867E+06	-9.37974605644E+00	1.75804339646E+02	1.83871664024E+01	1.64026348526E+02	-4.02593884033E+01	-6.72008923349E+01	-6.10842604043E+00	-9.40728709038E-01
1.76462940327E+06	-8.54740258300E+00	1.69905673298E+02	1.84726285211E+01	1.63993806043E+02	-4.18046441292E+01	3.69414503797E+01	-5.98805267159E+00	-9.14122648623E-01
1.78682075786E+06	-1.22587531700E+01	1.79486076896E+02	1.84463032249E+01	1.63604138483E+02	-3.45278291519E+01	6.35850835605E+01	-5.98754447056E+00	-1.08419997225E+00
1.80901211246E+06	-9.83318606207E+00	-1.76411006447E+02	1.84024671261E+01	1.63178584491E+02	-5.37750411516E+01	5.57474711427E+01	-5.93912044270E+00	-9.90285640530E-01
1.83120346705E+06	-1.32109479436E+01	1.75098712633E+02	1.84193648287E+01	1.63349141270E+02	-4.23427028626E+01	-8.16824309393E+00	-6.06936864178E+00	-8.17756749970E-01
1.85339482165E+06	-6.03321881861E+00	-1.64359001753E+02	1.84697418475E+01	1.63179037344E+02	-4.11155474911E+01	1.50452707364E+01	-5.88431418878E+00	-3.34817777219E-01
1.87558617624E+06	-8.97930270299E+00	1.74068003329E+02	1.84605140725E+01	1.63034442580E+02	-3.66492171130E+01	1.17993299657E+02	-5.94973093303E+00	-7.03485302628E-01
1.89777753084E+06	-7.52576193883E+00	1.72572026226E+02	1.84414241105E+01	1.62792408970E+02	-3.89236266876E+01	-6.09301662385E+01	-5.97277110806E+00	-9.06716640001E-01
1.91996888543E+06	-1.58036446988E+01	-1.51550251116E+02	1.84395804440E+01	1.62451492342E+02	-3.73111456731E+01	6.42690686646E+01	-5.95944403474E+00	-7.38545488742E-01
1.94216024003E+06	-8.19472199541E+00	-1.68999196449E+02	1.84229430516E+01	1.62047681320E+02	-4.58831707404E+01	-9.28871432315E+01	-5.98508611763E+00	-1.11342657857E+00
1.96435159462E+06	-8.40220404975E+00	1.69551778780E+02	1.83889650691E+01	1.61776212800E+02	-3.99790082915E+01	-9.14139162978E+01	-5.94231909833E+00	-7.41946998648E-01
1.98654294922E+06	-9.22759105994E+00	-1.72934157368E+02	1.85024414761E+01	1.61650519066E+02	-3.45160350906E+01	3.38651041313E+01	-6.03808105164E+00	-7.20610691372E-01
2.00873430381E+06	-7.60196358768E+00	1.70919663497E+02	1.84445698108E+01	1.61573526578E+02	-4.32277286420E+01	8.06625931647E+01	-5.92815529587E+00	-1.17921085124E+00
2.03092565841E+06	-8.43916181726E+00	-1.61680709267E+02	1.84430294349E+01	1.61026129358E+02	-4.24994277624E+01	-1.51905105302E+02	-5.93896080767E+00	-8.30036939272E-01
2.05311701300E+06	-1.12781240765E+01	-1.65876481775E+02	1.84306177739E+01	1.61032839185E+02	-4.06970544347E+01	1.68918264549E+01	-5.96770879544E+00	-9.95220138848E-01
2.07530836760E+06	-9.07219488733E+00	-1.78319340171E+02	1.84120869554E+01	1.60776842863E+02	-4.76975898844E+01	-2.30738950505E+01	-5.97535848540E+00	-9.89963433608E-01
2.09749972219E+06	-1.01736889185E+01	-1.71442558423E+02	1.84114861012E+01	1.60819651097E+02	-3.83080910800E+01	3.47198160707E+01	-5.96619660078E+00	-8.34041097410E-01
2.11969107679E+06	-1.50128157010E+01	-1.60478067299E+02	1.83850037454E+01	1.60502964205E+02	-3.91083129039E+01	-1.60001773210E+02	-5.97188092799E+00	-8.70070295450E-01
2.14188243138E+06	-1.26003645084E+01	-1.70832200400E+02	1.83177490717E+01	1.60137222222E+02	-4.60355695139E+01	-1.17662638405E+02	-5.93455260066E+00	-1.32043442849E+00
2.16407378598E+06	-7.74012027185E+00	1.62339221464E+02	1.84034806209E+01	1.60037542546E+02	-3.47178647500E+01	-2.31215190564E+01	-5.84436463726E+00	-2.14589241147E+00
2.18626514057E+06	-1.10753618978E+01	-1.79112805338E+02	1.83901985123E+01	1.60062472325E+02	-4.88425156393E+01	-3.87468885042E+01	-5.96336782290E+00	-1.08085581331E+00
2.20845649517E+06	-9.10185146029E+00	-1.73190799470E+02	1.84353779298E+01	1.59722076873E+02	-4.12102929313E+01	1.53427300501E+02	-5.97263171499E+00	-9.92993172286E-01
2.23064784976E+06	-1.00689063051E+01	-1.67927741997E+02	1.84278392307E+01	1.59773248784E+02	-4.05177274932E+01	2.67432554782E+01	-5.94697739583E+00	-1.53857298499E+00
2.25283920436E+06	-8.91435385449E+00	1.76198442595E+02	1.83913942163E+01	1.59059878113E+02	-4.21874911629E+01	1.74233610648E+01	-5.94238896315E+00	-1.14806000840E+00
2.27503055895E+06	-8.07949335974E+00	1.69069909155E+02	1.83732125977E+01	1.58740923839E+02	-4.53012731248E+01	-1.12646487805E+01	-5.97669687590E+00	-1.01004243420E+00
2.29722191355E+06	-8.43772580945E+00	1.72378371494E+02	1.84824748318E+01	1.58609949940E+02	-3.47333751786E+01	-9.85041616650E+01	-5.94137665359E+00	-1.40029917293E+00
2.31941326814E+06	-1.20808484089E+01	1.62603894746E+02	1.84062133364E+01	1.58694348404E+02	-4.57658424077E+01	1.31817218330E+01	-5.96214133980E+00	-1.87745868994E+00
2.34160462274E+06	-1.11282165975E+01	1.73000582095E+02	1.83989945364E+01	1.58321744445E+02	-4.17456399036E+01	-4.50671389641E+01	-5.94674147691E+00	-8.75274573585E-01
2.36379597733E+06	-1.04579803257E+01	-1.65872314047E+02	1.84143682201E+01	1.58000892132E+02	-3.97286183515E+01	-7.26240831420E+01	-5.96991674706E+00	-1.13515312695E+00
2.38598733193E+06	-1.06177505429E+01	1.65060518480E+02	1.83784488011E+01	1.57835859885E+02	-4.57064732164E+01	7.26326349899E+00	-5.95382959270E+00	-1.08965058817E+00
2.40817868652E+06	-1.21603825240E+01	-1.76274530533E+02	1.83586194420E+01	1.57615085570E+02	-3.81671005133E+01	-5.24901008976E+01	-5.96560198132E+00	-1.25683260680E+00
2.43037004112E+06	-1.25457948494E+01	-1.50603228006E+02	1.83915258870E+01	1.57845069465E+02	-5.94541153126E+01	-5.38672746718E+01	-6.00364990049E+00	-1.20081219786E+00
2.45256139571E+06	-9.33556326453E+00	1.78577867496E+02	1.84230509851E+01	1.57393002505E+02	-3.59510336783E+01	9.28835403037E+01	-5.87855691172E+00	-7.32540884461E-01
2.47475275031E+06	-1.43919889773E+01	1.67268236519E+02	1.83755575533E+01	1.56874047826E+02	-4.42450966991E+01	-4.37780280043E+00	-5.85707098198E+00	-5.69701781805E-01
2.49694410490E+06	-9.59691196041E+00	1.72663874361E+02	1.84095475437E+01	1.56903685191E+02	-4.18424556823E+01	1.27226671970E+02	-6.02815391121E+00	-1.11216433116E+00
2.51913545950E+06	-9.18675406341E+00	1.75161137317E+02	1.83609002357E+01	1.56600709508E+02	-4.32939676014E+01	-5.28442082770E+00	-5.96780519532E+00	-1.17323308038E+00
2.54132681409E+06	-9.07322817559E+00	-1.75509530267E+02	1.83667671969E+01	1.56349032250E+02	-4.42888782777E+01	-1.39783869165E+02	-5.99038949301E+00	-1.32496332835E+00
2.56351816869E+06	-1.23053605647E+01	1.67583461688E+02	1.84076684577E+01	1.56194528737E+02	-3.99875656203E+01	-8.44657143493E+00	-5.98188152449E+00	-1.42448832670E+00
2.58570952328E+06	-1.23515184656E+01	-1.69014041324E+02	1.83382231452E+01	1.55679065264E+02	-4.14779632565E+01	-1.18795872257E+02	-6.00919890852E+00	-9.78827880987E-01
2.60790087788E+06	-7.64532482118E+00	1.74406684632E+02	1.84010422719E+01	1.55953005899E+02	-3.58873309037E+01	-1.85763971952E+01	-6.01293078081E+00	-1.50703884118E+00
2.63009223247E+06	-1.24677187263E+01	-1.72487240947E+02	1.83686328825E+01	1.55409892582E+02	-4.42146111180E+01	8.12779186898E+01	-6.00493249167E+00	-1.23198577600E+00
2.65228358707E+06	-1.42563448316E+01	1.77677637576E+02	1.83375725210E+01	1.55190139045E+02	-4.76359614291E+01	1.90958230858E+01	-5.94915171640E+00	-1.55707133121E+00
2.67447494166E+06	-1.44929978597E+01	1.51059395489E+02	1.83602254032E+01	1.55345811086E+02	-4.07655187640E+01	9.08620232153E+01	-5.95485457795E+00	-1.77266890816E+00
2.69666629626E+06	-1.16036912827E+01	1.64056747798E+02	1.83306151569E+01	1.54778783257E+02	-4.03627636287E+01	-1.49556284717E+02	-5.94336000734E+00	-1.16564395282E+00
2.71885765085E+06	-9.96121380534E+00	-1.60931395631E+02	1.83865878603E+01	1.54721072133E+02	-4.26141342396E+01	-1.60934827069E+02	-5.91488906704E+00	-1.06481491368E+00
2.74104900545E+06	-7.53444838885E+00	1.77738738309E+02	1.83797560323E+01	1.54590187373E+02	-3.79919803789E+01	7.67170072641E+01	-5.91636802920E+00	-1.17568200166E+00
2.76324036004E+06	-8.67268074797E+00	-1.67613911714E+02	1.83557319718E+01	1.54017496418E+02	-3.53203826950E+01	-1.34393139341E+02	-5.97757593109E+00	-9.58459667311E-01
2.78543171463E+06	-1.00085641898E+01	1.77196608476E+02	1.83486014841E+01	1.54234062434E+02	-3.98635967021E+01	-1.39318648058E+01	-5.98185763773E+00	-1.28389887422E+00
2.80762306923E+06	-6.67050245457E+00	1.76255420558E+02	1.83681572064E+01	1.53865633160E+02	-4.01126978953E+01	-4.67704564618E+01	-5.97624555815E+00	-1.51894944955E+00
2.82981442382E+06	-7.46471488661E+00	-1.68768679034E+02	1.83398024073E+01	1.53725049969E+02	-4.62559884848E+01	1.61610484286E+02	-5.98085510139E+00	-1.33741276415E+00
2.85200577842E+06	-8.54151103091E+00	-1.68894121065E+02	1.83386544521E+01	1.53517270631E+02	-4.15301188812E+01	1.21602972258E+02	-5.95061273306E+00	-1.40538767484E+00
2.87419713301E+06	-1.13924183664E+01	-1.77234129696E+02	1.83213915429E+01	1.53312301729E+02	-3.88930967567E+01	-1.38427328845E+02	-5.97428554241E+00	-1.11860140520E+00
