# Hz S DB R 50
! CMT, M5065, 19127446, 24.2.4/2
! Date: 10/29/2024 12:50:14 PM
! Data: Format (Calibration Info)
! Freq	S11:dB/Ang(F2)	S21:dB/Ang(F2)	S12:dB/Ang(F2)	S22:dB/Ang(F2)
3.00000000000E+05	-9.30823306771E+00	1.76142466131E+02	2.30549222714E+01	-1.77133510269E+02	-3.35257868994E+01	9.86996589307E+01	-5.99883588822E+00	-5.65322505959E-01
3.22191354595E+05	-1.06045685516E+01	-1.69245185506E+02	2.30471708786E+01	-1.77767476888E+02	-4.87466420769E+01	8.28176125267E+01	-5.94305213097E+00	-2.33051271096E-01
3.44382709190E+05	-1.03370558587E+01	-1.76026952955E+02	2.30781282750E+01	-1.78910240115E+02	-5.26801346279E+01	6.51090610680E+01	-5.96395143088E+00	-3.67664579930E-01
3.66574063785E+05	-8.21394840190E+00	-1.63134008526E+02	2.30823456303E+01	-1.79334600127E+02	-3.70834093450E+01	-4.04872214873E+01	-5.97874902196E+00	-5.41218959352E-01
3.88765418380E+05	-1.10198365319E+01	-1.51081135169E+02	2.31080134834E+01	-1.79988995863E+02	-4.24187809090E+01	-1.71783130234E+02	-5.88675719074E+00	2.55976861757E-01
4.10956772975E+05	-9.77351587140E+00	1.68427659946E+02	2.30842187212E+01	1.79185152358E+02	-3.91613328724E+01	1.77135236989E+02	-5.95586141581E+00	-5.80243720031E-01
4.33148127570E+05	-8.95587506260E+00	1.61569460273E+02	2.30602945708E+01	1.78769476023E+02	-4.06836571093E+01	9.62462301716E+01	-5.98222645679E+00	-1.50901372949E-01
4.55339482165E+05	-1.29172743435E+01	-1.56165848691E+02	2.30485677747E+01	1.78490939238E+02	-3.68409134733E+01	1.24049301253E+02	-6.00733426569E+00	-6.32194168347E-01
4.77530836760E+05	-9.79575051023E+00	1.58746173658E+02	2.30645337970E+01	1.77826773582E+02	-3.97104947224E+01	5.77691971915E+01	-6.00758056938E+00	-3.10472786390E-01
4.99722191355E+05	-1.17391775589E+01	-1.72583276998E+02	2.30423128809E+01	1.77173762323E+02	-3.86677707841E+01	-1.39299850397E+02	-5.98377823772E+00	-6.55096865827E-01
5.21913545950E+05	-1.26208761256E+01	-1.78578591711E+02	2.30211324966E+01	1.76384449186E+02	-4.01989542353E+01	-5.21762704497E+01	-5.97535477560E+00	-4.54611330934E-01
5.44104900545E+05	-1.06893303657E+01	-1.62800498421E+02	2.30142890132E+01	1.76273288341E+02	-3.78258505023E+01	-1.17923950059E+02	-5.98381320891E+00	-5.23286439110E-01
5.66296255139E+05	-1.31314597247E+01	-1.68776191869E+02	2.30692322107E+01	1.75784734273E+02	-4.54513985221E+01	2.30046777650E+01	-5.99235032172E+00	-6.79452488430E-01
5.88487609734E+05	-9.46147117368E+00	1.72423316118E+02	2.30550509534E+01	1.75138555214E+02	-4.46537210039E+01	-6.92183437548E+01	-5.97993738355E+00	-6.69055434019E-01
6.10678964329E+05	-9.16849102484E+00	1.76889750190E+02	2.30491158097E+01	1.74790538994E+02	-4.25342456314E+01	3.01713534406E+01	-6.01416308111E+00	2.08343176792E-01
6.32870318924E+05	-1.17188668289E+01	1.73193007182E+02	2.30755134768E+01	1.74422001536E+02	-3.63579179540E+01	1.38688997719E+02	-6.00160920663E+00	-8.15695244751E-01
6.55061673519E+05	-1.29806627250E+01	-1.52897453253E+02	2.30613190931E+01	1.73860758219E+02	-3.80515950906E+01	-2.71539112887E+01	-5.94719067228E+00	-8.34562403911E-01
6.77253028114E+05	-1.05877465941E+01	1.76884866350E+02	2.30607470581E+01	1.73394131324E+02	-3.46620202143E+01	2.83860754053E+01	-5.98510156400E+00	-5.74965870715E-01
6.99444382709E+05	-9.55852431031E+00	1.70732222101E+02	2.30325362893E+01	1.72867160729E+02	-5.01133760655E+01	4.25371322971E+01	-5.93188650329E+00	-3.94607139171E-01
7.21635737304E+05	-1.01518393526E+01	-1.69675834826E+02	2.30160055768E+01	1.72539170720E+02	-4.45693937445E+01	-1.89341522697E+00	-5.96752613841E+00	-6.02244588741E-01
7.43827091899E+05	-7.69615511300E+00	1.73437134655E+02	2.30008672801E+01	1.72199526804E+02	-4.09408613830E+01	-5.74554024157E+01	-5.95729221637E+00	-7.62109735576E-01
7.66018446494E+05	-1.09667301716E+01	-1.52785511853E+02	2.29929139668E+01	1.72043458482E+02	-4.37415778705E+01	-1.61832398770E+02	-5.96085141242E+00	-4.71100562738E-01
7.88209801089E+05	-1.09155065416E+01	-1.38134962048E+02	2.29879824827E+01	1.71644147833E+02	-3.93333673482E+01	2.26702287274E+01	-5.93168726396E+00	-2.48621018498E-02
8.10401155684E+05	-7.66702131066E+00	-1.76936793530E+02	2.30136970095E+01	1.71238732355E+02	-4.27705687900E+01	8.67131694044E+01	-5.93124283007E+00	-3.37579595873E-01
8.32592510279E+05	-9.56763755453E+00	-1.79350028431E+02	2.30093011582E+01	1.70816209887E+02	-4.32656396478E+01	1.21641482826E+02	-5.95897853009E+00	-1.01339700555E+00
8.54783864874E+05	-1.16981471817E+01	-1.40475208007E+02	2.29949447252E+01	1.70474242772E+02	-3.52187401524E+01	1.54631091462E+02	-5.96787734744E+00	-5.38655486116E-01
8.76975219469E+05	-9.16891736196E+00	1.65308772656E+02	2.30080922942E+01	1.69924857375E+02	-3.64635100644E+01	1.34422389404E+02	-5.98854398604E+00	-5.67216330716E-01
8.99166574064E+05	-7.77732765802E+00	1.69960871290E+02	2.30016896607E+01	1.69698887959E+02	-3.87393415942E+01	1.01305414322E+02	-5.99801419996E+00	-3.64692126324E-01
9.21357928659E+05	-9.13047304235E+00	1.48663796307E+02	2.30348448658E+01	1.69404429795E+02	-4.62358132867E+01	-1.70696060745E+02	-5.97595603440E+00	-5.14744350397E-01
9.43549283254E+05	-9.83387087423E+00	-1.73466046429E+02	2.29775046449E+01	1.69199784920E+02	-3.78312568859E+01	-1.78688327447E+02	-6.04002757741E+00	-1.02078056096E+00
9.65740637849E+05	-9.57357048971E+00	-1.74983547066E+02	2.29587301955E+01	1.68583102907E+02	-3.60996317300E+01	-3.51692224577E+01	-5.90851945425E+00	-5.55169475441E-01
9.87931992444E+05	-1.18670976093E+01	-1.78384004242E+02	2.29638678372E+01	1.68423171523E+02	-4.17053407309E+01	-4.97247611946E+01	-5.96263726868E+00	-5.94711365556E-01
1.01012334704E+06	-5.64141842877E+00	-1.74070140136E+02	2.29681381126E+01	1.67748408382E+02	-4.30608715448E+01	-4.57238965842E+01	-5.97191257958E+00	-5.98975381245E-01
1.03231470163E+06	-1.07032175408E+01	-1.68299179868E+02	2.29577133696E+01	1.67374641432E+02	-3.61580203567E+01	-1.22926409572E+02	-5.99914603911E+00	-3.79053518892E-01
1.05450605623E+06	-8.04731449201E+00	1.67425619094E+02	2.29816707431E+01	1.67196593121E+02	-4.73186720544E+01	-9.56411332625E+01	-5.98086180957E+00	-5.26783226517E-01
1.07669741082E+06	-1.19245377266E+01	-1.35520071892E+02	2.29564623206E+01	1.67118685863E+02	-3.84627299473E+01	-1.78719030396E+02	-6.05711631277E+00	-5.70224370800E-01
1.09888876542E+06	-9.45838212101E+00	-1.54516734640E+02	2.29314864243E+01	1.66737376616E+02	-4.78328176263E+01	-1.57435149745E+02	-5.88398849231E+00	-6.27865612352E-01
1.12108012001E+06	-1.04997061248E+01	-1.63720621470E+02	2.29297447754E+01	1.66207946284E+02	-4.16647081052E+01	-9.03877746940E+01	-6.00803906721E+00	-5.54181336446E-01
1.14327147461E+06	-8.73036874365E+00	1.67567522679E+02	2.29389000322E+01	1.65722582114E+02	-3.72738990923E+01	-1.02543629200E+02	-5.97520756647E+00	-6.08142829372E-01
1.16546282920E+06	-8.86574176638E+00	1.74901424019E+02	2.28983576661E+01	1.65488160958E+02	-7.13518696414E+01	-2.81607124278E+01	-6.03082720296E+00	-6.12828489464E-01
1.18765418380E+06	-1.39400005533E+01	1.77570756486E+02	2.29422446916E+01	1.65265438819E+02	-4.28077629161E+01	-2.80577174354E+01	-5.99321693662E+00	-7.69068299034E-01
1.20984553839E+06	-1.07238591040E+01	-1.56090208370E+02	2.29341478100E+01	1.64948561414E+02	-5.32557714753E+01	-3.03196064164E+01	-6.01629292272E+00	-5.14511385983E-01
1.23203689299E+06	-1.09810565413E+01	-1.77820975454E+02	2.28886626678E+01	1.64793312216E+02	-4.29276048808E+01	-1.20708277884E+02	-5.96611846039E+00	-4.11580873434E-01
1.25422824758E+06	-1.03920710894E+01	1.73342827819E+02	2.28878631399E+01	1.64311646579E+02	-4.13663890982E+01	-6.49478767735E+00	-5.94571906758E+00	-6.83767227717E-01
1.27641960218E+06	-8.71580438454E+00	1.72270500296E+02	2.28971130336E+01	1.64040003602E+02	-3.87588751458E+01	-5.07630935425E+01	-6.02162528061E+00	-8.75251082050E-01
1.29861095677E+06	-9.50082711947E+00	-1.74880431480E+02	2.28972410916E+01	1.63667031015E+02	-4.81319713098E+01	-1.33030685519E+02	-5.98618522498E+00	-4.38929925976E-01
1.32080231137E+06	-8.05426346707E+00	1.72120631911E+02	2.28746640460E+01	1.63351538138E+02	-3.85685845248E+01	-1.42967422552E+01	-6.03556794379E+00	-1.08427786648E+00
1.34299366596E+06	-1.04480650001E+01	-1.72903886702E+02	2.28735112103E+01	1.62891209053E+02	-3.75889923082E+01	1.21589740428E+02	-5.99422959841E+00	-5.25712853198E-01
1.36518502056E+06	-8.87517010591E+00	1.70358890628E+02	2.28992778807E+01	1.62490164548E+02	-4.85008237917E+01	-1.24838261082E+02	-6.01140889609E+00	-6.23335921821E-01
1.38737637515E+06	-1.11421705651E+01	-1.71992316349E+02	2.28133111123E+01	1.62129749308E+02	-4.63578810982E+01	1.27261195607E+02	-5.96284061694E+00	-8.25177029613E-01
1.40956772975E+06	-1.18433292441E+01	1.58119072239E+02	2.28479098327E+01	1.62108512802E+02	-3.69137523117E+01	-4.88772801240E+01	-5.99300612095E+00	-6.52856431493E-01
1.43175908434E+06	-1.03568702985E+01	1.72490612217E+02	2.28616271076E+01	1.61617748594E+02	-4.96086484321E+01	-1.48278323341E+02	-5.98840086776E+00	-8.18789513438E-01
1.45395043894E+06	-7.60160751338E+00	1.76911066267E+02	2.28281163694E+01	1.61112055554E+02	-5.29798905188E+01	-2.51392243998E+01	-6.06895550384E+00	-1.61485342758E+00
1.47614179353E+06	-8.07307404288E+00	-1.69454095163E+02	2.28317478341E+01	1.61052660840E+02	-3.81741995717E+01	-6.56764519567E+00	-5.92097274709E+00	-8.62244419969E-01
1.49833314813E+06	-8.75099841705E+00	-1.61070466497E+02	2.28298683571E+01	1.60710033891E+02	-4.55585282159E+01	6.22772964210E+01	-5.99431830123E+00	-6.30196716587E-01
1.52052450272E+06	-8.82768107695E+00	1.72372353280E+02	2.28127107887E+01	1.60476673203E+02	-3.93995725274E+01	1.16295560791E+02	-5.96025884575E+00	-9.03437835194E-01
1.54271585732E+06	-1.29832252326E+01	1.61538859385E+02	2.27989395289E+01	1.59870332933E+02	-3.54374323296E+01	-2.90317310417E+01	-5.95971395275E+00	-8.85314501805E-01
1.56490721191E+06	-8.54873289590E+00	-1.60303851731E+02	2.28052753406E+01	1.59643365444E+02	-4.16676253125E+01	-8.13235320466E+01	-5.94715057787E+00	-1.19178542458E+00
1.58709856651E+06	-1.35732358279E+01	1.60141068264E+02	2.28292053053E+01	1.59394242440E+02	-3.78706603217E+01	-6.53608266079E+01	-5.86028932317E+00	-1.00521957518E+00
1.60928992110E+06	-8.10054499588E+00	1.55539079011E+02	2.27788283263E+01	1.59165549405E+02	-3.74028836716E+01	-3.98863883700E+01	-5.95065973567E+00	-6.50062221002E-01
1.63148127570E+06	-7.95662206461E+00	1.64874724698E+02	2.28124127301E+01	1.59050337153E+02	-4.76238942645E+01	-1.33972158814E+02	-5.98288695191E+00	-9.12815017041E-01
1.65367263029E+06	-8.43570555845E+00	-1.69873543297E+02	2.27532649133E+01	1.58606754433E+02	-3.44825522731E+01	9.15600379590E+01	-5.98020992813E+00	-1.22192660945E+00
1.67586398489E+06	-1.17075732819E+01	1.74703214083E+02	2.27987672959E+01	1.58324418049E+02	-3.54650942260E+01	3.74566431007E+01	-5.93169394692E+00	-1.14940758072E+00
1.69805533948E+06	-1.10448470806E+01	-1.70261492064E+02	2.28063738760E+01	1.57848942813E+02	-3.90220955055E+01	-1.12034642513E+01	-5.99964133750E+00	-6.83124167443E-01
1.72024669408E+06	-8.63246913335E+00	-1.69931223664E+02	2.27375449418E+01	1.57578798462E+02	-4.55595590311E+01	-4.16544741740E+00	-5.98259591869E+00	-7.21917545829E-01
1.74243804867E+06	-1.17763407540E+01	1.78620947660E+02	2.27285184070E+01	1.57242480324E+02	-3.70293727197E+01	-4.78486427545E+01	-5.85515781447E+00	-1.88554144724E+00
1.76462940327E+06	-8.03775354916E+00	1.73132136516E+02	2.27482172158E+01	1.56842605401E+02	-4.75011257013E+01	-2.74153764463E+01	-5.97556385629E+00	-7.34789912310E-01
1.78682075786E+06	-7.36847117222E+00	1.75168996593E+02	2.27412970450E+01	1.56735932761E+02	-5.47808377408E+01	-8.30474554155E+01	-5.95963305779E+00	-1.02419829783E+00
1.80901211246E+06	-9.19683770372E+00	1.72614498490E+02	2.27155530579E+01	1.56301787107E+02	-3.84659001068E+01	6.59300649728E+01	-5.95988299089E+00	-1.09691477483E+00
1.83120346705E+06	-1.03092667240E+01	-1.75370847848E+02	2.26860652818E+01	1.55944378052E+02	-4.23465270250E+01	-7.43217828923E+00	-5.99997010615E+00	-5.97007643758E-01
1.85339482165E+06	-1.42609654136E+01	-1.74598377550E+02	2.26761063955E+01	1.56011339386E+02	-3.85652169345E+01	1.27842315423E+02	-5.94761628989E+00	-1.16592751237E+00
1.87558617624E+06	-8.74563189849E+00	1.78650821337E+02	2.27300521694E+01	1.55422939239E+02	-3.90750032771E+01	8.46514817986E+01	-5.99193314932E+00	-8.45172551957E-01
1.89777753084E+06	-1.21143390277E+01	-1.78562494442E+02	2.26678998319E+01	1.54823931808E+02	-3.35102786805E+01	-7.90090199077E+00	-5.71804003558E+00	-2.99469091202E+00
1.91996888543E+06	-8.19338125888E+00	-1.69011886689E+02	2.26775299815E+01	1.55029641335E+02	-5.73873266494E+01	1.87904889418E+01	-6.00545646115E+00	-1.22563225563E+00
1.94216024003E+06	-1.29087234331E+01	-1.69037267595E+02	2.26429521229E+01	1.54451964316E+02	-4.06541946621E+01	-7.26274209033E+01	-5.99450785895E+00	-1.00833946266E+00
1.96435159462E+06	-9.82293426205E+00	-1.72440490610E+02	2.26742566816E+01	1.54335791691E+02	-4.43172634353E+01	-1.41765165116E+02	-5.99671132741E+00	-1.10898217054E+00
1.98654294922E+06	-1.09053970330E+01	1.72637192651E+02	2.26383243480E+01	1.53642834122E+02	-3.36141127899E+01	-8.37873151636E+01	-6.00811123972E+00	-8.98027794121E-01
2.00873430381E+06	-1.07106456726E+01	-1.58005994551E+02	2.26928805534E+01	1.53482760720E+02	-5.05435096187E+01	-1.26098482038E+02	-5.96002580996E+00	-9.44756403866E-01
2.03092565841E+06	-8.45764686012E+00	-1.68434940129E+02	2.26393158149E+01	1.53119994488E+02	-4.42912834768E+01	-1.42722004371E+02	-5.95347262886E+00	-9.95588808002E-01
2.05311701300E+06	-8.98224869174E+00	-1.56201175462E+02	2.26234194761E+01	1.52973852074E+02	-3.89203330061E+01	-9.09979775424E+01	-6.00406979115E+00	-9.83567443905E-01
2.07530836760E+06	-8.33600617378E+00	-1.70155423958E+02	2.26250374334E+01	1.52601985154E+02	-3.63262866425E+01	2.09267611883E+01	-5.95929715999E+00	-1.36138436842E+00
2.09749972219E+06	-7.83437236161E+00	-1.74508431384E+02	2.26250323452E+01	1.52376761296E+02	-3.81535449806E+01	-2.24747556945E+01	-5.95113543492E+00	-1.15908682528E+00
2.11969107679E+06	-1.10041835392E+01	1.74224089230E+02	2.26248402031E+01	1.52097137023E+02	-3.88386700592E+01	-1.45513443082E+02	-5.98529321068E+00	-6.22863295342E-01
2.14188243138E+06	-9.30407554040E+00	1.62324246402E+02	2.25858711669E+01	1.52013206209E+02	-3.67878208642E+01	1.68228903950E+02	-5.90878301194E+00	-8.99834988884E-01
2.16407378598E+06	-1.22133413154E+01	1.62543057442E+02	2.26314203853E+01	1.51009362208E+02	-4.24534273659E+01	1.54383150071E+02	-5.94083989878E+00	-1.08964379080E+00
2.18626514057E+06	-1.34527333824E+01	1.73718335343E+02	2.25816237269E+01	1.51130669566E+02	-3.81546384126E+01	-1.41463385142E+02	-5.97289440812E+00	-1.10029366742E+00
2.20845649517E+06	-9.20246726203E+00	-1.75813567656E+02	2.26049728676E+01	1.51019518733E+02	-3.87281637646E+01	1.22029428032E+02	-6.00943802287E+00	-1.79111823991E-01
2.23064784976E+06	-9.94386838836E+00	-1.65324767661E+02	2.25869344143E+01	1.50488388521E+02	-4.71069258394E+01	9.55140172269E+01	-6.02625313285E+00	-1.64883361010E+00
2.25283920436E+06	-1.47755844571E+01	-1.61449733118E+02	2.25798285274E+01	1.50498697163E+02	-4.42077223790E+01	-1.26929543879E+02	-5.97232152875E+00	-9.14476754117E-01
2.27503055895E+06	-9.68299554005E+00	-1.77080495976E+02	2.25865806271E+01	1.49965990980E+02	-4.16927774642E+01	3.86052050005E+01	-5.94010117587E+00	-9.63821236632E-01
2.29722191355E+06	-9.35064393298E+00	1.75808195936E+02	2.25777188716E+01	1.49778799158E+02	-3.66852348933E+01	6.95732063910E+01	-5.97073666606E+00	-1.17069404312E+00
2.31941326814E+06	-9.04850749427E+00	1.77956667491E+02	2.26199507493E+01	1.49108232643E+02	-3.77899040529E+01	-8.30970228513E+01	-5.98499354891E+00	-1.07073600827E+00
2.34160462274E+06	-9.55459279224E+00	1.77489980353E+02	2.25264903026E+01	1.49244035593E+02	-4.72815970833E+01	-3.51928912429E+01	-5.97184106535E+00	-1.13263598578E+00
2.36379597733E+06	-9.68391919084E+00	-1.71170406756E+02	2.25123049423E+01	1.48866664938E+02	-4.24854395573E+01	1.54518811122E+02	-5.91506745297E+00	-7.19963281880E-01
2.38598733193E+06	-1.11169230415E+01	-1.61973933818E+02	2.25370710268E+01	1.48586922995E+02	-3.52650450781E+01	9.93788826325E+01	-6.00968715046E+00	-1.39327679647E+00
2.40817868652E+06	-6.82481466590E+00	1.68405304347E+02	2.24896571122E+01	1.48141863575E+02	-3.84820201414E+01	9.00635438833E+01	-5.97188055223E+00	-1.08160124887E+00
2.43037004112E+06	-1.15390534731E+01	1.63455668864E+02	2.24783446802E+01	1.48047696962E+02	-4.10802149483E+01	1.56909560757E+02	-5.96757389890E+00	-1.39273063921E+00
2.45256139571E+06	-8.45717376268E+00	-1.79115660298E+02	2.25256906222E+01	1.47470066888E+02	-3.65982582686E+01	1.61159962168E+02	-5.96547248735E+00	-9.12180122303E-01
2.47475275031E+06	-9.55562196320E+00	1.63897695881E+02	2.25654190383E+01	1.47562744473E+02	-4.12714908351E+01	1.08627384536E+01	-5.91856534305E+00	-1.14993791683E+00
2.49694410490E+06	-8.56121345827E+00	-1.60357714302E+02	2.24835282432E+01	1.47284210264E+02	-4.44812544249E+01	1.16830763119E+02	-5.93057396993E+00	-1.37116054366E+00
2.51913545950E+06	-8.38531180146E+00	1.69050821180E+02	2.24811889930E+01	1.46802173768E+02	-4.09650874976E+01	1.40606529606E+01	-5.91501172261E+00	-1.08729237147E+00
2.54132681409E+06	-7.87561837454E+00	-1.75201156297E+02	2.24644944017E+01	1.46507753557E+02	-4.08308584430E+01	-7.29139445927E+01	-6.07358313108E+00	-2.43196762081E+00
2.56351816869E+06	-1.16763331095E+01	1.67199622786E+02	2.24751532905E+01	1.46334261610E+02	-4.23771671828E+01	6.88023252849E+01	-5.97264128444E+00	-1.54665283256E+00
2.58570952328E+06	-1.08514422833E+01	-1.69032514722E+02	2.24435848909E+01	1.45867307068E+02	-4.43738320840E+01	7.76004300512E+01	-5.98678180391E+00	-1.31451864839E+00
2.60790087788E+06	-1.08079572701E+01	-1.70911212506E+02	2.24146713034E+01	1.45560983156E+02	-4.33226799857E+01	-1.11776012197E+02	-5.98102873023E+00	-1.12650985932E+00
2.63009223247E+06	-1.15099501455E+01	1.67405776117E+02	2.24552466176E+01	1.45005246941E+02	-3.49423415430E+01	-1.29475720450E+02	-5.98438065784E+00	-9.77012531116E-01
2.65228358707E+06	-6.96712837035E+00	-1.64739048996E+02	2.24055049953E+01	1.44889670101E+02	-4.60340323676E+01	1.73196923317E+02	-5.97199390210E+00	-1.73290367093E+00
2.67447494166E+06	-1.10335779182E+01	-1.72163337612E+02	2.23858956727E+01	1.44763718845E+02	-4.95461800910E+01	-9.08847445882E+01	-6.00099407538E+00	-1.95940333308E+00
2.69666629626E+06	-1.10949580636E+01	1.58805151014E+02	2.24155197671E+01	1.44749577736E+02	-3.88424379740E+01	-9.12667025774E+01	-5.96256879732E+00	-1.75725880162E+00
2.71885765085E+06	-1.03167499826E+01	1.69768474451E+02	2.23814073991E+01	1.44137731049E+02	-3.64928394846E+01	1.66913246150E+01	-5.95179786492E+00	-1.50826290197E+00
2.74104900545E+06	-1.05551560810E+01	-1.76280234657E+02	2.23687738905E+01	1.43899372388E+02	-3.94773508239E+01	-1.43994244197E+02	-6.02209797681E+00	-1.45764362542E+00
2.76324036004E+06	-1.02286048157E+01	-1.69135492406E+02	2.23610992857E+01	1.43719701223E+02	-3.91319932673E+01	-9.19213943476E+00	-5.99892758577E+00	-1.27811771161E+00
2.78543171463E+06	-1.21401015072E+01	1.69075230913E+02	2.23466266451E+01	1.43403185448E+02	-3.69649253397E+01	-4.63026543798E+01	-5.94827848096E+00	-1.05717081391E+00
2.80762306923E+06	-7.80753378499E+00	1.73774248622E+02	2.23145457218E+01	1.42870454471E+02	-3.47371614026E+01	7.98451684429E+01	-5.96851787482E+00	-1.07781862664E+00
2.82981442382E+06	-1.04337469189E+01	-1.75865518888E+02	2.23117305070E+01	1.42632623710E+02	-3.55524956333E+01	1.48455271925E+02	-6.00377112939E+00	-1.25252071173E+00
2.85200577842E+06	-9.05899951963E+00	-1.60201382804E+02	2.23391875197E+01	1.42636169215E+02	-4.02660142515E+01	7.43834672952E+00	-5.98213421676E+00	-1.76477876645E+00
2.87419713301E+06	-1.08226922423E+01	-1.56440138135E+02	2.23457531822E+01	1.42212645286E+02	-4.85521073875E+01	4.56932546154E+01	-5.99028378074E+00	-1.33751653879E+00
