# Hz S DB R 50
! CMT, M5065, 19127446, 24.2.4/2
! Date: 10/29/2024 12:38:13 PM
! Data: Format (Calibration Info)
! Freq	S11:dB/Ang(F2)	S21:dB/Ang(F2)	S12:dB/Ang(F2)	S22:dB/Ang(F2)
3.00000000000E+05	-7.18507951652E+00	-1.79633638665E+02	1.32521770730E+01	-1.78072099145E+02	-4.62949334814E+01	-1.37003749695E+02	-5.97584416497E+00	-2.92946809900E-01
3.22191354595E+05	-1.40318443381E+01	1.72588815439E+02	1.32683977971E+01	-1.78471433067E+02	-4.31125910220E+01	4.80753313712E+01	-5.95815742292E+00	-2.32750582463E-01
3.44382709190E+05	-9.44134438049E+00	-1.77282551565E+02	1.32797618529E+01	-1.78714536803E+02	-3.61133726974E+01	1.78232822923E+02	-5.98452033351E+00	-5.05224880790E-01
3.66574063785E+05	-1.14126748260E+01	-1.70182611054E+02	1.32537023139E+01	-1.79299597809E+02	-3.91111859138E+01	-7.13406144334E+01	-5.98751685765E+00	-3.98397351127E-01
3.88765418380E+05	-8.80167516095E+00	1.77225968488E+02	1.32172628130E+01	-1.78676768217E+02	-4.08284845677E+01	3.86950501907E+01	-6.03414463064E+00	-3.27325392598E-01
4.10956772975E+05	-1.17639542607E+01	1.75323205849E+02	1.32641321547E+01	-1.79869717829E+02	-3.75149049075E+01	-8.54366255890E+01	-5.98649664346E+00	-1.32762506184E-01
4.33148127570E+05	-9.73408145503E+00	1.59116078225E+02	1.32613211795E+01	1.79809430028E+02	-4.56810639418E+01	-1.14087099155E+02	-5.95993280500E+00	-5.04406302274E-01
4.55339482165E+05	-7.21343503316E+00	1.77532862369E+02	1.33278243449E+01	1.79193980866E+02	-3.67538400246E+01	6.42215674199E-01	-5.96758476317E+00	-1.54458745074E-01
4.77530836760E+05	-7.27886977885E+00	-1.78680787034E+02	1.32937010154E+01	1.79389938002E+02	-3.72812241784E+01	-1.89928111188E+01	-5.91833380848E+00	-4.05232929357E-01
4.99722191355E+05	-1.03013107962E+01	1.68918164568E+02	1.32556271218E+01	1.78988650938E+02	-4.25223894051E+01	-1.42921928800E+02	-5.95564957510E+00	-2.59591709078E-01
5.21913545950E+05	-1.33233020461E+01	-1.64392007503E+02	1.32737492623E+01	1.78913718660E+02	-5.50612958983E+01	1.54913328286E+02	-5.94217029403E+00	-6.80454745516E-02
5.44104900545E+05	-6.33767535884E+00	-1.75095592072E+02	1.32433406795E+01	1.78601538668E+02	-4.17259227431E+01	-4.04111731860E+01	-5.94173788741E+00	-4.34585862140E-01
5.66296255139E+05	-1.01275979447E+01	1.73704080224E+02	1.32356053141E+01	1.78766027283E+02	-4.62191307600E+01	-9.11877223428E+01	-5.96873787667E+00	-3.49247476468E-01
5.88487609734E+05	-9.59006904500E+00	1.70215736154E+02	1.32236454096E+01	1.77886420209E+02	-3.81836144268E+01	7.89409691066E+01	-5.97244366022E+00	-3.42632481245E-01
6.10678964329E+05	-9.83217992508E+00	1.67432172877E+02	1.32511978112E+01	1.78021364652E+02	-3.54532848562E+01	-9.95929226137E+00	-5.94906630454E+00	-1.67099860816E-01
6.32870318924E+05	-7.83764445699E+00	1.60973238926E+02	1.33057996287E+01	1.77390743847E+02	-5.22384537608E+01	1.41659822805E+02	-5.97912736845E+00	-4.55023833131E-01
6.55061673519E+05	-9.90828861023E+00	-1.75424703484E+02	1.32678091132E+01	1.77577522266E+02	-4.80400341587E+01	-1.62716953341E+01	-5.98271572738E+00	-2.52878565094E-01
6.77253028114E+05	-1.03253870031E+01	1.74391734589E+02	1.32853761112E+01	1.77479827045E+02	-3.36938779856E+01	1.29923600558E+02	-5.96366805814E+00	-6.43187257324E-01
6.99444382709E+05	-6.79017863546E+00	-1.79044155148E+02	1.32949224487E+01	1.77031339526E+02	-4.26614658836E+01	1.64501972048E+00	-5.97830725781E+00	-5.25754838962E-01
7.21635737304E+05	-1.11944835925E+01	-1.73740721863E+02	1.32823608413E+01	1.76741773434E+02	-4.58153533973E+01	-1.25947447142E+02	-5.99343191014E+00	-4.39340784529E-01
7.43827091899E+05	-9.58063776693E+00	1.73301483218E+02	1.32970490408E+01	1.76550557441E+02	-3.75742805081E+01	-1.71365274088E+02	-5.92489998579E+00	-3.68720968432E-01
7.66018446494E+05	-1.47080062580E+01	-1.45656689756E+02	1.32957578109E+01	1.76286296409E+02	-4.82322016465E+01	-1.45339972562E+02	-5.99237775179E+00	-4.61775102109E-01
7.88209801089E+05	-1.07308625310E+01	-1.67733141598E+02	1.32840729629E+01	1.76200824670E+02	-4.17346654957E+01	2.79762055684E+01	-5.97541824522E+00	-3.45599444844E-01
8.10401155684E+05	-7.02306080374E+00	1.70453173475E+02	1.32984941237E+01	1.76333906112E+02	-4.19035610867E+01	-1.68950293385E+02	-5.98916404448E+00	-6.20727110048E-01
8.32592510279E+05	-1.25200831551E+01	-1.59317757010E+02	1.32992864040E+01	1.75940111034E+02	-4.14140785092E+01	-7.40519065500E+01	-5.96224674695E+00	-4.67990333002E-01
8.54783864874E+05	-1.01904562597E+01	-1.54929554374E+02	1.32476806624E+01	1.75323487322E+02	-5.73592247422E+01	-6.86698562306E+01	-5.97451581796E+00	-6.24804905448E-01
8.76975219469E+05	-1.44915003917E+01	-1.51864895401E+02	1.33119806856E+01	1.75821583851E+02	-4.07663658060E+01	1.33853965844E+02	-5.96645374042E+00	-5.56318563297E-01
8.99166574064E+05	-8.35978433251E+00	1.72451417660E+02	1.32827207044E+01	1.75213780201E+02	-5.32209484607E+01	-4.45106669285E+01	-5.95042664538E+00	-7.30223555189E-01
9.21357928659E+05	-9.90679525693E+00	-1.78464142257E+02	1.32217248209E+01	1.75286891033E+02	-5.47836317348E+01	-3.56166069760E+01	-5.97304291609E+00	-5.03561810688E-01
9.43549283254E+05	-1.72564355578E+01	1.77671489289E+02	1.32983298621E+01	1.74692362317E+02	-6.80187732110E+01	-5.73545564614E+01	-5.99187451263E+00	-7.02025430205E-01
9.65740637849E+05	-8.14769497682E+00	-1.75714984381E+02	1.32948493893E+01	1.74764213485E+02	-3.79127334956E+01	7.72702622256E+01	-5.93612879040E+00	-6.58641744704E-01
9.87931992444E+05	-1.00059792416E+01	1.74980374820E+02	1.33301800463E+01	1.74603436457E+02	-3.53149318898E+01	3.68315155646E+01	-5.95800097878E+00	-4.97514047121E-01
1.01012334704E+06	-1.11246660593E+01	1.77187049565E+02	1.32648765577E+01	1.74399945496E+02	-3.85137999577E+01	-3.09470138622E+01	-5.95687307164E+00	-6.62285287715E-01
1.03231470163E+06	-1.04508548659E+01	-1.78751290808E+02	1.32466687248E+01	1.74372286173E+02	-4.28971730806E+01	1.24515297329E+02	-6.01727649191E+00	-3.79429504803E-01
1.05450605623E+06	-1.11170906822E+01	-1.72738219283E+02	1.33127425778E+01	1.74144665392E+02	-3.95697737561E+01	-4.08530518222E+01	-5.99337804594E+00	-7.70725235556E-01
1.07669741082E+06	-9.93898420972E+00	-1.45841221997E+02	1.32993579308E+01	1.74083588381E+02	-3.93662210809E+01	1.36067679675E+02	-5.94547372924E+00	-7.04458173245E-01
1.09888876542E+06	-7.78980345084E+00	-1.72630475943E+02	1.32606343273E+01	1.73551929664E+02	-4.44914494834E+01	-1.52042923664E+02	-5.99704399647E+00	-8.97283522460E-01
1.12108012001E+06	-1.05607855390E+01	1.66704815029E+02	1.32829179406E+01	1.73548925572E+02	-3.66237169064E+01	7.73940323193E+01	-5.98633770981E+00	-7.12320510662E-01
1.14327147461E+06	-1.48347427343E+01	1.77804324666E+02	1.32552017980E+01	1.73584137038E+02	-4.05447571845E+01	1.04533852923E+02	-6.01269508363E+00	-4.96560241945E-01
1.16546282920E+06	-6.33700278042E+00	1.62272409664E+02	1.32804225398E+01	1.73352783692E+02	-3.91441859707E+01	2.35976288703E+01	-6.00214923017E+00	-7.64498614408E-01
1.18765418380E+06	-6.40286832642E+00	1.64171034840E+02	1.32700388357E+01	1.72932941397E+02	-3.75560502085E+01	2.41620486136E+01	-5.96265506747E+00	-8.90246418336E-01
1.20984553839E+06	-1.06993137370E+01	1.66768731757E+02	1.32958367881E+01	1.72890942586E+02	-3.76295794902E+01	-1.18370794039E+02	-5.98942265912E+00	-1.04975663327E+00
1.23203689299E+06	-9.66289203560E+00	-1.66385278569E+02	1.32529378257E+01	1.72655457282E+02	-3.44315471826E+01	5.92842205681E+01	-5.99017166617E+00	-4.47234760607E-01
1.25422824758E+06	-9.93807886676E+00	-1.75585716542E+02	1.32563569303E+01	1.72437177704E+02	-5.37421993013E+01	3.65949537378E+01	-5.99170087860E+00	-5.73040014467E-01
1.27641960218E+06	-8.56857305447E+00	-1.79216802207E+02	1.32964887312E+01	1.72506985684E+02	-4.14085453444E+01	-9.95135880457E+01	-5.99632930140E+00	-6.36502529971E-01
1.29861095677E+06	-1.20628888083E+01	-1.57913400499E+02	1.32599208568E+01	1.72077431131E+02	-4.13611994725E+01	-7.38571032471E+01	-5.99809098138E+00	-7.08847276187E-01
1.32080231137E+06	-8.71073301147E+00	-1.69048397505E+02	1.32855943743E+01	1.72060100375E+02	-3.82575063482E+01	-1.56512169769E+02	-5.95219049065E+00	-1.10964172571E+00
1.34299366596E+06	-7.07054408503E+00	-1.69817273619E+02	1.33014930661E+01	1.71648302671E+02	-4.41539722368E+01	1.00051123053E+02	-6.04065463848E+00	-3.29071069886E-01
1.36518502056E+06	-9.90469805564E+00	1.77526732330E+02	1.33478443884E+01	1.71839118697E+02	-5.28187580231E+01	1.04619707024E+02	-5.96527267732E+00	-7.14065921842E-01
1.38737637515E+06	-9.59468390153E+00	1.63812673796E+02	1.32338794183E+01	1.71271466235E+02	-5.27707751970E+01	3.05810068013E+01	-5.98733372146E+00	-7.20657422793E-01
1.40956772975E+06	-1.00873210217E+01	-1.59342343934E+02	1.32678966530E+01	1.71756459793E+02	-4.00840517392E+01	-1.73896497762E+02	-5.97361720996E+00	-6.10005041904E-01
1.43175908434E+06	-9.22445440738E+00	-1.79736464556E+02	1.32462621082E+01	1.71516550477E+02	-4.94906343485E+01	-1.01440441426E+02	-5.96180393702E+00	-6.18640877641E-01
1.45395043894E+06	-8.52020369601E+00	-1.74992150514E+02	1.33233000002E+01	1.71211824687E+02	-4.93298956629E+01	-6.91006234324E+01	-6.01078108234E+00	-1.02890907086E+00
1.47614179353E+06	-1.24614828615E+01	1.73132736281E+02	1.32809960284E+01	1.71316370360E+02	-4.12207283867E+01	-9.62814638265E+00	-6.03184549312E+00	-5.52347808940E-01
1.49833314813E+06	-1.10397128671E+01	1.72596775678E+02	1.32635073601E+01	1.70938939963E+02	-4.23703935796E+01	-1.58545903451E+02	-5.95888542393E+00	-8.63730182118E-01
1.52052450272E+06	-1.17308036115E+01	-1.72355706685E+02	1.32717891433E+01	1.70508834918E+02	-4.56976079291E+01	-7.25760968459E+01	-5.97832480474E+00	-9.68285857213E-01
1.54271585732E+06	-9.48410426599E+00	1.65849560065E+02	1.32306979381E+01	1.70545414546E+02	-4.80465302346E+01	-2.55730476271E+01	-5.96366199015E+00	-5.01716236512E-01
1.56490721191E+06	-1.24821190957E+01	-1.79215850915E+02	1.32959008642E+01	1.70534486491E+02	-5.20932919425E+01	1.28650563478E+02	-6.01502720745E+00	-7.11155524126E-01
1.58709856651E+06	-6.57606381143E+00	1.75027890283E+02	1.33027107962E+01	1.70359761129E+02	-4.88863574791E+01	-7.08806165088E+01	-5.99696532068E+00	-8.86153390046E-01
1.60928992110E+06	-6.54149490466E+00	-1.69793449087E+02	1.32978947972E+01	1.69724140151E+02	-4.19961507481E+01	1.50815186101E+02	-5.96719702247E+00	-8.44118950561E-01
1.63148127570E+06	-8.79326334944E+00	1.71748200514E+02	1.32328447276E+01	1.69638118822E+02	-4.87117617637E+01	2.02938918676E+01	-6.00174124689E+00	-4.72316607466E-01
1.65367263029E+06	-6.94112455559E+00	1.67208793693E+02	1.32764674530E+01	1.69781045362E+02	-3.76532281280E+01	-1.72374587108E+02	-6.01068425719E+00	-1.38632961721E+00
1.67586398489E+06	-1.21050397411E+01	-1.66149091570E+02	1.32536732839E+01	1.69486921904E+02	-3.58466344521E+01	-1.07170022059E+02	-5.96526489339E+00	-9.85850175132E-01
1.69805533948E+06	-8.85562189416E+00	1.76867374715E+02	1.32249528468E+01	1.69650300155E+02	-3.92166563403E+01	8.00212650337E+01	-5.96036776470E+00	-1.20880281996E+00
1.72024669408E+06	-8.73349122516E+00	-1.76020875600E+02	1.32258902638E+01	1.68884323005E+02	-4.21507098596E+01	6.93926212331E+01	-5.97853856502E+00	-9.64508165389E-01
1.74243804867E+06	-9.07160949707E+00	-1.66113765711E+02	1.32418741092E+01	1.69310220486E+02	-4.29587081262E+01	-1.69013439307E+02	-6.02606885689E+00	-1.15471420220E+00
1.76462940327E+06	-7.18911982978E+00	1.67588661769E+02	1.32611831012E+01	1.69003185894E+02	-3.53419489859E+01	-3.22376975625E+00	-5.97497588199E+00	-7.24135413543E-01
1.78682075786E+06	-9.78213756149E+00	-1.63633218987E+02	1.32717037469E+01	1.68405106176E+02	-4.27848942935E+01	9.63822363043E+01	-5.95743832319E+00	-9.30143106396E-01
1.80901211246E+06	-1.12940588829E+01	1.68505612095E+02	1.32456310372E+01	1.68488897046E+02	-3.66246152789E+01	5.10875826461E+00	-5.78184367483E+00	-1.21337282536E+00
1.83120346705E+06	-9.42905471478E+00	-1.79092784346E+02	1.32473666785E+01	1.68239981355E+02	-3.89031742137E+01	-1.55682681057E+02	-5.97516693644E+00	-8.07241825606E-01
1.85339482165E+06	-1.44594818135E+01	1.66242639336E+02	1.32573384671E+01	1.68529918167E+02	-3.38420383796E+01	7.49028932258E+01	-5.96297625463E+00	-9.69798924183E-01
1.87558617624E+06	-9.17335737517E+00	1.56203627178E+02	1.32524666639E+01	1.67971721389E+02	-4.18476818857E+01	-1.28119257773E+02	-5.99313792941E+00	-1.32247039376E+00
1.89777753084E+06	-1.29258115298E+01	1.62009623254E+02	1.32655493804E+01	1.68140331175E+02	-4.43699977871E+01	1.07129314945E+02	-6.01273837882E+00	-8.83576924559E-01
1.91996888543E+06	-9.19239014023E+00	-1.73758060115E+02	1.32224984928E+01	1.67713029659E+02	-4.00459666764E+01	1.54006674765E+02	-5.94866492381E+00	-9.72414077167E-01
1.94216024003E+06	-6.61692573604E+00	-1.75494522171E+02	1.32754387971E+01	1.67889393408E+02	-3.73583788042E+01	1.33165093479E+02	-5.97090801202E+00	-9.31782517325E-01
1.96435159462E+06	-1.04968294676E+01	1.76332053231E+02	1.32320439340E+01	1.67606480712E+02	-3.81484082344E+01	1.70146568977E+02	-5.94777934075E+00	-9.89206500697E-01
1.98654294922E+06	-1.32731569754E+01	1.71035678458E+02	1.32702348820E+01	1.67072393002E+02	-4.71447896739E+01	-5.92346093087E+01	-6.00724219093E+00	-5.81944573239E-01
2.00873430381E+06	-7.77765073127E+00	1.58584947761E+02	1.33115744232E+01	1.66943468231E+02	-4.39631773349E+01	-1.08955208316E+02	-5.98655186281E+00	-9.69027567074E-01
2.03092565841E+06	-8.51235223311E+00	1.72751475457E+02	1.32464516126E+01	1.66905412770E+02	-3.68896386574E+01	1.59698930557E+01	-5.96748234098E+00	-8.49124923570E-01
2.05311701300E+06	-1.28455789935E+01	1.41754606546E+02	1.32804561079E+01	1.66938443640E+02	-3.79302545093E+01	-5.22025046064E+01	-6.02089203143E+00	-8.35422870267E-01
2.07530836760E+06	-1.00608564764E+01	-1.72986934902E+02	1.32493250488E+01	1.66673833398E+02	-4.02142691625E+01	-8.77834610947E+01	-5.96006912406E+00	-1.20447970294E+00
2.09749972219E+06	-1.15319120207E+01	1.77730702892E+02	1.32740113246E+01	1.66447529582E+02	-4.18122353015E+01	1.68694991578E+02	-5.91403854620E+00	-1.04579688873E+00
2.11969107679E+06	-1.15314226295E+01	-1.70473112328E+02	1.32500014388E+01	1.66373415817E+02	-3.38823493272E+01	-5.14335031916E+01	-5.99331400772E+00	-1.04436244646E+00
2.14188243138E+06	-1.09562769271E+01	-1.44301408283E+02	1.32943428328E+01	1.66192340000E+02	-3.61001614408E+01	1.41100674034E+02	-5.98266220130E+00	-9.94294219960E-01
2.16407378598E+06	-1.06955337424E+01	-1.58957413126E+02	1.33117038723E+01	1.66499483831E+02	-5.75314877588E+01	1.19264549388E+02	-5.93010459274E+00	-1.16414827701E+00
2.18626514057E+06	-7.91366019661E+00	1.70446988553E+02	1.33468640547E+01	1.65965587830E+02	-5.11989462323E+01	-1.72801864034E+02	-5.97309648672E+00	-1.15130103804E+00
2.20845649517E+06	-6.70215933816E+00	1.66645490435E+02	1.32612549734E+01	1.65513474168E+02	-4.76568540193E+01	-9.64471865573E+01	-5.96853250867E+00	-7.39288125128E-01
2.23064784976E+06	-1.33081071682E+01	1.49499344223E+02	1.32458458102E+01	1.65853583362E+02	-3.66320761709E+01	-4.39227884033E+01	-6.00730036872E+00	-9.90514409225E-01
2.25283920436E+06	-7.60745275837E+00	-1.67874522563E+02	1.32366847112E+01	1.65572703036E+02	-4.11656881199E+01	-1.65077389803E+02	-5.97876455427E+00	-9.70543208471E-01
2.27503055895E+06	-1.18357482402E+01	-1.55179415685E+02	1.32355019089E+01	1.65788822818E+02	-3.43070694830E+01	-1.54749535850E+02	-6.04105900754E+00	-1.30057348066E+00
2.29722191355E+06	-8.77532651444E+00	1.61558207915E+02	1.32464442927E+01	1.65392916729E+02	-5.46691772703E+01	8.51081246441E+01	-5.96546860914E+00	-1.04683575808E+00
2.31941326814E+06	-1.54368680731E+01	-1.75844128018E+02	1.33036969855E+01	1.65282186923E+02	-4.28056236870E+01	1.65528804013E+00	-6.00454192259E+00	-1.39556838910E+00
2.34160462274E+06	-1.09670131729E+01	1.73758946196E+02	1.32543444505E+01	1.65276046437E+02	-4.33116413061E+01	5.76722976616E+01	-5.97834264078E+00	-1.20132769716E+00
2.36379597733E+06	-9.76114463710E+00	-1.62108984146E+02	1.32677760216E+01	1.64631702863E+02	-4.01490889113E+01	1.23103369535E+02	-5.93657598897E+00	-9.87171853670E-01
2.38598733193E+06	-1.15845832815E+01	1.67801122987E+02	1.32716085449E+01	1.64843597405E+02	-5.12690507043E+01	-1.53100978809E+02	-5.93946329715E+00	-1.35783681135E+00
2.40817868652E+06	-9.55693565783E+00	1.69659582552E+02	1.32516836916E+01	1.64617781433E+02	-4.13677654336E+01	1.62453026456E+01	-5.96137150094E+00	-8.96788215072E-01
2.43037004112E+06	-7.98982755470E+00	-1.77060556586E+02	1.32993064387E+01	1.64424861027E+02	-3.55873231940E+01	5.95303769486E+01	-5.99511192102E+00	-1.55224947992E+00
2.45256139571E+06	-7.29413946493E+00	-1.74495553286E+02	1.32555870880E+01	1.64096996238E+02	-3.56325172109E+01	3.30437427446E+01	-5.93889944343E+00	-1.16018023092E+00
2.47475275031E+06	-1.14469272373E+01	-1.71355870777E+02	1.32709991798E+01	1.63631616328E+02	-4.12549379548E+01	-4.83004412374E+01	-5.98168416244E+00	-1.40916558759E+00
2.49694410490E+06	-9.98954320292E+00	-1.74842022643E+02	1.33686402183E+01	1.64258727792E+02	-4.07649515391E+01	-1.76552454055E+02	-5.98046961919E+00	-1.20758661664E+00
2.51913545950E+06	-9.45126755971E+00	-1.76445312923E+02	1.32795514179E+01	1.63586885534E+02	-4.07933569218E+01	9.85474524856E+01	-5.95602192693E+00	-9.22082703867E-01
2.54132681409E+06	-9.03834845615E+00	-1.69765274001E+02	1.32505124823E+01	1.63730790716E+02	-3.82742802001E+01	8.34210470889E+01	-5.97901845853E+00	-1.17654884686E+00
2.56351816869E+06	-1.13452770619E+01	-1.71871836089E+02	1.32521152121E+01	1.63442859257E+02	-4.50985899216E+01	3.20046042760E+01	-5.96755399923E+00	-8.57947657191E-01
2.58570952328E+06	-1.73347280688E+01	-1.54757104997E+02	1.32629395954E+01	1.63345851035E+02	-4.58790874630E+01	1.68358042635E+02	-5.90439385753E+00	-8.74894203998E-01
2.60790087788E+06	-9.59358860613E+00	1.67288002181E+02	1.32649459441E+01	1.63202682563E+02	-4.82240366510E+01	5.72615237102E+01	-5.95714874289E+00	-1.13493452756E+00
2.63009223247E+06	-1.18234933587E+01	1.73804214299E+02	1.32603422912E+01	1.62710930106E+02	-3.98164659484E+01	-1.17626643226E+01	-5.99216692627E+00	-1.42690753273E+00
2.65228358707E+06	-8.37420637824E+00	1.73622356417E+02	1.32728738798E+01	1.62517455552E+02	-3.80692465506E+01	-2.68386212408E+01	-5.96329079448E+00	-1.85672593918E+00
2.67447494166E+06	-1.35138909309E+01	1.59541789234E+02	1.32202565546E+01	1.62580445151E+02	-3.53872998950E+01	-1.08152934366E+02	-5.97767131254E+00	-1.34625216340E+00
2.69666629626E+06	-9.67524636667E+00	-1.66180358069E+02	1.32806899665E+01	1.62410814649E+02	-4.42517578609E+01	-8.65077902763E+01	-5.95526279964E+00	-9.55355994758E-01
2.71885765085E+06	-8.68312938455E+00	-1.78642260932E+02	1.32848801343E+01	1.62288536938E+02	-3.56066128347E+01	-1.74555727709E+02	-5.93617911627E+00	-1.39720181805E+00
2.74104900545E+06	-7.92318923451E+00	-1.77076915203E+02	1.32323105490E+01	1.62047660426E+02	-3.88188327960E+01	8.37859004128E+01	-5.97613080039E+00	-1.93425970797E+00
2.76324036004E+06	-7.93982885179E+00	1.78352502369E+02	1.32263769375E+01	1.62170419455E+02	-4.74055354707E+01	1.17024008522E+02	-5.95414892361E+00	-1.50241176381E+00
2.78543171463E+06	-1.28084207649E+01	-1.46904936596E+02	1.32516230871E+01	1.61946489359E+02	-4.59264477289E+01	-1.82873282719E+01	-5.96481944164E+00	-1.38611461157E+00
2.80762306923E+06	-1.16018041242E+01	-1.55065405044E+02	1.32461643632E+01	1.61812500161E+02	-4.24574230311E+01	-1.23892641143E+02	-6.00891199814E+00	-1.18169796169E+00
2.82981442382E+06	-1.07586399788E+01	-1.68642239547E+02	1.33033515216E+01	1.61593338314E+02	-4.38175660812E+01	-5.47813588991E+01	-5.96905236585E+00	-1.39227164043E+00
2.85200577842E+06	-8.50190948693E+00	1.75998948917E+02	1.32655090268E+01	1.61389725457E+02	-4.61556576803E+01	5.99376557200E+01	-5.95529616613E+00	-1.49794012650E+00
2.87419713301E+06	-1.02354415096E+01	-1.67611339158E+02	1.32321158510E+01	1.61641660832E+02	-3.52585656868E+01	5.97490835156E+01	-5.91733227183E+00	-1.61480991781E+00
