# Hz S DB R 50
! CMT, M5065, 19127446, 24.2.4/2
! Date: 10/29/2024 12:39:31 PM
! Data: Format (Calibration Info)
! Freq	S11:dB/Ang(F2)	S21:dB/Ang(F2)	S12:dB/Ang(F2)	S22:dB/Ang(F2)
3.00000000000E+05	-6.34507266568E+00	-1.78298752700E+02	1.39759317791E+01	-1.78093892160E+02	-4.86120808100E+01	-9.22943283978E+01	-5.93597255786E+00	-1.06757287988E-01
3.22191354595E+05	-7.69273477528E+00	-1.69605323858E+02	1.39699560365E+01	-1.78513878852E+02	-3.82884552185E+01	-1.11154643081E+02	-5.96581836888E+00	-3.20573385348E-01
3.44382709190E+05	-1.05716186997E+01	1.70649793975E+02	1.39338100668E+01	-1.78657199452E+02	-3.67527481012E+01	-1.30843936989E+02	-5.97900856860E+00	-4.24820229313E-01
3.66574063785E+05	-8.93314776920E+00	1.67390777091E+02	1.40058476558E+01	-1.79073554518E+02	-3.68302614519E+01	-1.27258802226E+02	-5.99457222639E+00	-6.81724916231E-02
3.88765418380E+05	-6.66515113101E+00	-1.70610006414E+02	1.39876148063E+01	-1.79896619546E+02	-3.50970867094E+01	-1.28419159472E+02	-5.87287603793E+00	1.72873655247E-01
4.10956772975E+05	-7.36371030154E+00	1.68692271449E+02	1.39771806118E+01	1.79705797002E+02	-4.76470199858E+01	-1.06252088890E+02	-5.96624295283E+00	-5.11985994634E-01
4.33148127570E+05	-1.04318332709E+01	1.79456877003E+02	1.39577528133E+01	1.79541332717E+02	-4.25992798542E+01	4.39958903913E+01	-5.96527225546E+00	-2.56702966285E-01
4.55339482165E+05	-8.51369365643E+00	1.75956667540E+02	1.39533964866E+01	1.79151052456E+02	-4.78671926728E+01	1.64670826119E+02	-5.98345933887E+00	-3.67925335521E-01
4.77530836760E+05	-7.65451306581E+00	-1.74872606951E+02	1.39495797559E+01	1.79162375618E+02	-3.81207056010E+01	8.71044538630E+01	-5.99139057033E+00	-6.24542218981E-02
4.99722191355E+05	-8.24152411139E+00	-1.78232506471E+02	1.39710546527E+01	1.78842342687E+02	-4.61518710105E+01	1.11774129490E+02	-5.96353997531E+00	-8.08332046197E-02
5.21913545950E+05	-6.92761081952E+00	1.63008601943E+02	1.39922619577E+01	1.78287245527E+02	-3.96460242097E+01	1.34273429620E+00	-5.97743391566E+00	-4.90897248742E-01
5.44104900545E+05	-1.11635977246E+01	-1.70992640432E+02	1.39239314321E+01	1.78367038372E+02	-5.18585229473E+01	1.07838165129E+02	-5.95567783967E+00	-3.73915916547E-01
5.66296255139E+05	-1.26531459760E+01	1.78822519196E+02	1.39733158824E+01	1.78465507452E+02	-3.98647523781E+01	8.90480974808E+01	-5.97104694872E+00	-2.66345753024E-01
5.88487609734E+05	-1.39921046514E+01	1.58238707154E+02	1.39739957918E+01	1.77783492471E+02	-3.86820325673E+01	3.15185704563E+01	-5.97304125343E+00	-6.47435453005E-01
6.10678964329E+05	-8.98085035773E+00	-1.71184730962E+02	1.39499031865E+01	1.77782198133E+02	-4.08316783433E+01	-4.98199784336E+01	-5.96921192979E+00	-2.45603218931E-01
6.32870318924E+05	-1.19958780749E+01	-1.77359313765E+02	1.39799325115E+01	1.77429727386E+02	-4.25085169521E+01	1.06757124122E+02	-5.97406460110E+00	-4.17250837351E-01
6.55061673519E+05	-8.56533264165E+00	-1.60740386759E+02	1.39789446874E+01	1.77271312322E+02	-3.99546936391E+01	-7.30030742314E+01	-5.98324589556E+00	1.76558414330E-01
6.77253028114E+05	-9.46714570566E+00	-1.78276831728E+02	1.40018542156E+01	1.77293687728E+02	-3.96136200640E+01	-1.32811678287E+02	-5.96795520597E+00	-4.94031855758E-01
6.99444382709E+05	-1.51818698390E+01	1.73911308534E+02	1.39659880197E+01	1.76792173437E+02	-4.05474309127E+01	-1.15513518622E+02	-5.97640033753E+00	-3.62789245451E-01
7.21635737304E+05	-1.32279009896E+01	-1.65050726762E+02	1.39340578261E+01	1.76776146930E+02	-3.95271519524E+01	-1.59633740606E+02	-6.01073217260E+00	-7.40494321926E-01
7.43827091899E+05	-9.93333707202E+00	1.71076995411E+02	1.39860359952E+01	1.76440066596E+02	-3.86807703212E+01	1.36485924582E+02	-5.99404370551E+00	-6.65150301762E-01
7.66018446494E+05	-1.34252768437E+01	1.77619478979E+02	1.39575011450E+01	1.76546144997E+02	-4.35462522874E+01	1.35078573936E+02	-5.99651488445E+00	-6.11095586024E-01
7.88209801089E+05	-1.21101268898E+01	-1.77979506400E+02	1.39571457030E+01	1.76166197288E+02	-4.49829036140E+01	-1.31179199432E+02	-6.02075717931E+00	-5.01992700241E-01
8.10401155684E+05	-1.28526738410E+01	1.73390556858E+02	1.39365715525E+01	1.75814773118E+02	-3.72004723300E+01	1.54312021519E+02	-5.89171451501E+00	-2.15687177132E-01
8.32592510279E+05	-1.47426138328E+01	1.68492383163E+02	1.39532454959E+01	1.75689995952E+02	-4.17604062659E+01	2.87068832280E+01	-5.96113046769E+00	-6.48578992297E-01
8.54783864874E+05	-1.25373890785E+01	-1.67149594382E+02	1.39168009521E+01	1.75675708828E+02	-4.62958816495E+01	9.12902684444E+01	-5.96493240869E+00	-5.53742218513E-01
8.76975219469E+05	-7.95101359919E+00	-1.67762673661E+02	1.39523076371E+01	1.75016927479E+02	-4.63629377532E+01	1.03719080771E+02	-5.99590306793E+00	-6.29414954627E-01
8.99166574064E+05	-9.31611954722E+00	-1.76351780593E+02	1.39623210691E+01	1.74995394423E+02	-4.31528072325E+01	-1.16750383404E+01	-6.00616993805E+00	-3.85911519523E-01
9.21357928659E+05	-9.79960747878E+00	-1.61829641756E+02	1.39596162650E+01	1.74754083387E+02	-3.96749720669E+01	-1.02762768270E+02	-5.97197483201E+00	-5.53273935069E-01
9.43549283254E+05	-9.49599966702E+00	1.79134892815E+02	1.39939747023E+01	1.74833298633E+02	-3.62923011757E+01	1.32598252589E+00	-6.00099136222E+00	-2.98406855206E-01
9.65740637849E+05	-7.56795370439E+00	-1.73214643351E+02	1.39835729989E+01	1.74118808213E+02	-4.20566609711E+01	5.52094137069E+01	-6.00366260591E+00	-5.59094397167E-01
9.87931992444E+05	-1.19922318700E+01	1.75935636702E+02	1.40379607313E+01	1.74299592418E+02	-3.42954951401E+01	4.93862303593E+01	-5.98891077580E+00	-5.51013460410E-01
1.01012334704E+06	-9.34830738382E+00	1.76044632493E+02	1.38599681424E+01	1.74231192811E+02	-3.75767847296E+01	7.08399913840E+01	-5.98884553081E+00	-7.36432565671E-01
1.03231470163E+06	-5.57682413255E+00	-1.67010414478E+02	1.39562723397E+01	1.73884569823E+02	-3.99578193424E+01	1.10310098451E+01	-5.97918609386E+00	-8.99710949459E-01
1.05450605623E+06	-8.85021042495E+00	-1.63400742664E+02	1.40123705447E+01	1.73789666107E+02	-3.78899061162E+01	-1.68413597512E+02	-5.95581777714E+00	-4.32412928910E-01
1.07669741082E+06	-1.29423324743E+01	1.72202396624E+02	1.39389316567E+01	1.73799483091E+02	-4.31017102849E+01	-4.03091860999E+01	-5.95478043397E+00	-7.12354001337E-01
1.09888876542E+06	-1.18511382930E+01	-1.79655645924E+02	1.39512265437E+01	1.73231720162E+02	-4.05726168734E+01	-5.88460161503E+01	-6.00447179177E+00	-7.12318704844E-01
1.12108012001E+06	-7.19155462577E+00	-1.72047729158E+02	1.39553006314E+01	1.73115584741E+02	-3.37608257170E+01	1.58897684160E+02	-6.00271125433E+00	-6.95043781930E-01
1.14327147461E+06	-1.09091047947E+01	1.69579624523E+02	1.39151462713E+01	1.72863866930E+02	-3.76701086970E+01	-3.15367275131E+01	-5.99514474218E+00	-5.24540308198E-01
1.16546282920E+06	-1.03580546640E+01	-1.50525860556E+02	1.39246751444E+01	1.72781224115E+02	-5.12031782585E+01	8.88660038197E+00	-5.97234505335E+00	-6.68242969063E-01
1.18765418380E+06	-1.17273870392E+01	-1.68793499938E+02	1.39628085228E+01	1.72743835666E+02	-4.12996073163E+01	-1.59388944688E+02	-6.01020274547E+00	-7.02443509321E-01
1.20984553839E+06	-1.01799525235E+01	1.79445058340E+02	1.40092452047E+01	1.72629443913E+02	-3.94549065683E+01	-1.00250192196E+02	-5.95270706732E+00	-7.31928621318E-01
1.23203689299E+06	-1.06932626627E+01	1.78863038974E+02	1.39578670189E+01	1.72194042261E+02	-5.66433175992E+01	3.45315024508E+01	-6.04281639171E+00	-4.72935655738E-01
1.25422824758E+06	-7.69957816515E+00	-1.70027011501E+02	1.39786278071E+01	1.72167800785E+02	-5.18484868433E+01	7.88832196399E+01	-5.97349175762E+00	-4.79577155847E-01
1.27641960218E+06	-1.01362021354E+01	1.79476331130E+02	1.39507622999E+01	1.71961858256E+02	-3.52005019143E+01	-9.12099581942E+01	-5.93053049925E+00	-1.10169201534E+00
1.29861095677E+06	-9.31751837681E+00	-1.65389790970E+02	1.39449805012E+01	1.71687642322E+02	-4.15305572148E+01	1.19982292585E+02	-6.01480982545E+00	-7.51961268018E-01
1.32080231137E+06	-8.02029515111E+00	1.65727514822E+02	1.38932771309E+01	1.70832825883E+02	-3.85204059147E+01	8.32383254810E+01	-6.00080658160E+00	-1.07992031635E+00
1.34299366596E+06	-1.04485553212E+01	1.74500753731E+02	1.39300040319E+01	1.71268432247E+02	-4.60117491358E+01	8.84478678573E+01	-5.95032132614E+00	-8.30221459689E-01
1.36518502056E+06	-8.71805600867E+00	1.68570129428E+02	1.39997739135E+01	1.71380274314E+02	-4.16937880003E+01	-3.01809048749E+00	-5.95252726940E+00	-7.12728181401E-01
1.38737637515E+06	-7.88130263887E+00	1.75324025726E+02	1.39400118845E+01	1.71104628247E+02	-3.62939650989E+01	1.43579793930E+02	-5.95382991283E+00	-7.70086702920E-01
1.40956772975E+06	-9.82575081818E+00	-1.64814162520E+02	1.39570190792E+01	1.71112554430E+02	-4.84353376229E+01	5.33018272047E+01	-5.98077598918E+00	-7.45145325633E-01
1.43175908434E+06	-1.19652746484E+01	1.72014545317E+02	1.39633463084E+01	1.70534260699E+02	-3.63012547521E+01	-4.13895586087E+01	-5.90574511333E+00	-1.20640388551E+00
1.45395043894E+06	-8.75366728751E+00	1.70050917907E+02	1.39322716678E+01	1.70477423494E+02	-3.62777866101E+01	-2.92096837331E+01	-6.01395476114E+00	-7.30304010963E-01
1.47614179353E+06	-8.36276935581E+00	-1.65120380454E+02	1.39576733527E+01	1.70741218061E+02	-4.25327407593E+01	1.10534354382E+02	-5.96508552407E+00	-8.63907486285E-01
1.49833314813E+06	-8.85988559763E+00	1.67112866999E+02	1.39987403407E+01	1.70410601519E+02	-3.94246101020E+01	1.23808685613E+02	-5.98651599393E+00	-6.81914322818E-01
1.52052450272E+06	-8.87381670476E+00	-1.78429763738E+02	1.39453731880E+01	1.69866950563E+02	-4.39110615210E+01	-6.48939148558E+01	-5.99720712085E+00	-7.04113262718E-01
1.54271585732E+06	-8.98390641332E+00	1.69317789750E+02	1.39337537816E+01	1.69775109281E+02	-4.46506774418E+01	-1.14191298835E+02	-5.95401892113E+00	-9.62939604144E-01
1.56490721191E+06	-1.28475581853E+01	1.70760888987E+02	1.39489723126E+01	1.69752180022E+02	-3.51248489105E+01	-1.63925662840E+02	-5.94163104456E+00	-8.58563804148E-01
1.58709856651E+06	-8.11143908670E+00	1.74681840835E+02	1.39288262586E+01	1.69407556092E+02	-3.82062810269E+01	-1.29097368831E+02	-5.95725330664E+00	-9.17582094805E-01
1.60928992110E+06	-6.55074712842E+00	1.50031843459E+02	1.39717170314E+01	1.69614964842E+02	-4.57390409895E+01	6.38811950692E+01	-5.92893646168E+00	-1.00026198898E+00
1.63148127570E+06	-1.01354997016E+01	1.70009478329E+02	1.40103149454E+01	1.69054019168E+02	-4.48473398229E+01	-2.68587821912E+01	-5.95669674994E+00	-1.03875740526E+00
1.65367263029E+06	-6.61883465077E+00	-1.74334652904E+02	1.39592226385E+01	1.69054756841E+02	-4.91530474489E+01	6.76032711750E+01	-6.00139600980E+00	-1.01489801598E+00
1.67586398489E+06	-8.17466877020E+00	-1.78106331719E+02	1.39360869801E+01	1.68759258911E+02	-4.04849190196E+01	-7.71428289716E+01	-5.98317790314E+00	-1.04282484220E+00
1.69805533948E+06	-9.14636655227E+00	-1.63240427702E+02	1.39375021877E+01	1.68935058809E+02	-6.96863499912E+01	-1.38898609399E+01	-6.01176251349E+00	-8.04544314255E-01
1.72024669408E+06	-9.78955370141E+00	1.79635617376E+02	1.39151061077E+01	1.68733614402E+02	-3.92082813354E+01	-7.98159889065E+01	-5.96991016962E+00	-8.84743798455E-01
1.74243804867E+06	-1.06504970027E+01	1.71795014084E+02	1.39159221472E+01	1.68795035259E+02	-3.84686980309E+01	-8.32497263384E+01	-5.93413357341E+00	-1.39900015538E+00
1.76462940327E+06	-1.32794967325E+01	1.53707468386E+02	1.40019163744E+01	1.68324907895E+02	-3.46473571143E+01	6.50671717282E+01	-5.96043524242E+00	-8.29664752662E-01
1.78682075786E+06	-2.09573047842E+01	1.66731180285E+02	1.38000207090E+01	1.68160063079E+02	-4.74460211944E+01	-5.08136989091E+01	-5.97416428607E+00	-9.49028502147E-01
1.80901211246E+06	-7.25925237206E+00	-1.65383687881E+02	1.40024200884E+01	1.68167375342E+02	-4.30052225207E+01	1.89973789055E+01	-5.94334476315E+00	-1.03587092325E+00
1.83120346705E+06	-1.01559634281E+01	-1.71799219884E+02	1.39559472673E+01	1.67955933592E+02	-4.07012460193E+01	-1.40257709101E+02	-5.98327567713E+00	-1.17781746584E+00
1.85339482165E+06	-1.05500710319E+01	1.55863141764E+02	1.39060604482E+01	1.67629632100E+02	-5.00031670650E+01	-1.61442653783E+02	-5.92499387035E+00	-7.31228084166E-01
1.87558617624E+06	-9.06326207594E+00	-1.62384373407E+02	1.39760366845E+01	1.67404760953E+02	-5.21457058775E+01	8.31356783913E+01	-6.00005492852E+00	-9.13835981227E-01
1.89777753084E+06	-1.39813257937E+01	-1.57417217188E+02	1.39468206168E+01	1.67668780863E+02	-4.49261420274E+01	2.23653385544E+01	-5.92317775659E+00	-1.50687820017E+00
1.91996888543E+06	-1.69481725707E+01	-1.75325963812E+02	1.39331357416E+01	1.67231212444E+02	-4.44365563462E+01	8.60647901460E+01	-5.95112920197E+00	-9.30398080979E-01
1.94216024003E+06	-8.52336121489E+00	-1.69589613596E+02	1.39331028488E+01	1.67018790629E+02	-3.88041953296E+01	-8.57467471453E+01	-6.01562184992E+00	-7.30100922375E-01
1.96435159462E+06	-1.42327624534E+01	-1.69670559483E+02	1.39049043666E+01	1.67627698806E+02	-4.68189300292E+01	5.17934698192E+01	-5.97175550573E+00	-9.67598292210E-01
1.98654294922E+06	-8.27243779875E+00	1.67405045639E+02	1.39136775666E+01	1.66705359813E+02	-4.20647008622E+01	-1.23344133017E+01	-5.95096117351E+00	-9.31722581100E-01
2.00873430381E+06	-1.02805174068E+01	-1.57103720381E+02	1.39636202669E+01	1.66691849520E+02	-4.58982835845E+01	-9.31205565680E+01	-5.97523211042E+00	-9.01655480008E-01
2.03092565841E+06	-9.05622471396E+00	1.74903708512E+02	1.39471797047E+01	1.66423310191E+02	-4.91008194484E+01	-1.77980698696E+02	-5.98074557817E+00	-1.20854634100E+00
2.05311701300E+06	-1.10665082861E+01	-1.52244358162E+02	1.39791922413E+01	1.66236106074E+02	-4.37353893233E+01	-2.07759355459E+01	-5.92180638659E+00	-1.48546181024E+00
2.07530836760E+06	-8.53144421398E+00	-1.70335679484E+02	1.39225136516E+01	1.66022136137E+02	-4.23258864373E+01	-6.97216889943E+01	-5.98292634343E+00	-9.35643831570E-01
2.09749972219E+06	-8.18858569909E+00	1.74191643731E+02	1.39560498322E+01	1.65733830830E+02	-4.34471727179E+01	9.49104805952E+01	-5.97028579781E+00	-1.25291088918E+00
2.11969107679E+06	-8.77830566081E+00	1.79089067301E+02	1.40083870347E+01	1.66019007541E+02	-3.88992652764E+01	6.89816733093E+01	-5.95813203727E+00	-1.03213942922E+00
2.14188243138E+06	-8.66992908447E+00	1.56332098879E+02	1.39559529468E+01	1.65718940216E+02	-4.61589064971E+01	6.57581402189E+01	-5.96498809462E+00	-8.53601798311E-01
2.16407378598E+06	-9.47337407285E+00	-1.71654926763E+02	1.39644488411E+01	1.65692552883E+02	-4.95021343418E+01	3.36206890121E+01	-5.95583062480E+00	-8.46598809953E-01
2.18626514057E+06	-9.20849083524E+00	-1.61874583558E+02	1.39771857588E+01	1.65371852316E+02	-4.20471499128E+01	-1.14958160574E+02	-5.98075469315E+00	-1.15270448040E+00
2.20845649517E+06	-7.86809753129E+00	-1.68727977849E+02	1.39674333843E+01	1.65169118213E+02	-3.57331922286E+01	1.33718728355E+02	-6.02313710327E+00	-2.38332195218E-01
2.23064784976E+06	-1.26896313394E+01	-1.71944070380E+02	1.39986780221E+01	1.64972651325E+02	-4.51682967669E+01	-6.28690976609E+01	-5.96895061238E+00	-1.00466387180E+00
2.25283920436E+06	-7.77849246552E+00	-1.76546703184E+02	1.39557935280E+01	1.64807153410E+02	-4.59961618153E+01	-6.56653291990E+01	-5.94856642293E+00	-1.06049118374E+00
2.27503055895E+06	-1.29996293845E+01	1.42896770504E+02	1.38919319685E+01	1.64545142945E+02	-5.13989856574E+01	-5.44807703634E+01	-5.97990155566E+00	-9.33933548202E-01
2.29722191355E+06	-9.44690050705E+00	-1.65828486973E+02	1.39688749995E+01	1.64696608259E+02	-4.56943894190E+01	7.62519323182E+00	-5.97905722497E+00	-1.07352616365E+00
2.31941326814E+06	-9.05795342771E+00	1.79098530165E+02	1.39268780462E+01	1.64491731226E+02	-4.36814126921E+01	1.00960299780E+02	-5.95426451645E+00	-1.11986499155E+00
2.34160462274E+06	-7.46108144088E+00	1.76353926042E+02	1.39317345299E+01	1.64338558620E+02	-4.30258414614E+01	6.21891018961E+01	-5.97691424781E+00	-1.14522279301E+00
2.36379597733E+06	-9.90693901262E+00	1.79255888027E+02	1.39562432428E+01	1.64156312845E+02	-4.85757755658E+01	-1.44053671884E+02	-5.93529377628E+00	-8.80272544188E-01
2.38598733193E+06	-7.11573231884E+00	-1.71383227289E+02	1.39177571952E+01	1.63797560496E+02	-4.88373801762E+01	-7.16917151527E+01	-5.95531769900E+00	-1.07532379263E+00
2.40817868652E+06	-1.22527554488E+01	-1.57224405252E+02	1.39436560939E+01	1.64147696005E+02	-4.20144635307E+01	-1.03334847266E+02	-5.95992282312E+00	-1.16117473511E+00
2.43037004112E+06	-1.50743001548E+01	-1.78851660457E+02	1.38954158501E+01	1.63333344070E+02	-3.77037768119E+01	1.29014490365E+01	-5.98209218709E+00	-1.37157139153E+00
2.45256139571E+06	-1.22713422773E+01	-1.65651104999E+02	1.39216886769E+01	1.63641905241E+02	-5.03051604278E+01	-1.17478475003E+02	-5.96981359363E+00	-9.64113323168E-01
2.47475275031E+06	-1.17847581635E+01	-1.63189954536E+02	1.39434545583E+01	1.63290208813E+02	-4.62497190080E+01	-5.34753052750E+00	-5.97814150144E+00	-9.61862601194E-01
2.49694410490E+06	-1.07314325053E+01	-1.73104637948E+02	1.39527230727E+01	1.63001349977E+02	-4.36627044086E+01	-6.39189632297E+01	-5.95865004310E+00	-1.02344782783E+00
2.51913545950E+06	-8.61524620521E+00	-1.79847915168E+02	1.39297872837E+01	1.62669400624E+02	-4.82102732523E+01	-4.55104251468E+01	-5.99159259895E+00	-1.14621538333E+00
2.54132681409E+06	-7.26474178876E+00	1.71927695292E+02	1.39603800511E+01	1.63009635865E+02	-5.65239453109E+01	-6.75294894851E+01	-5.96417908584E+00	-1.38000404970E+00
2.56351816869E+06	-9.37315313510E+00	1.64854760438E+02	1.39507644820E+01	1.63025963702E+02	-4.32932711243E+01	1.07645205839E+02	-5.97878982555E+00	-1.40354022644E+00
2.58570952328E+06	-9.70287492224E+00	-1.57169690490E+02	1.40272465033E+01	1.62317850103E+02	-4.20868588345E+01	1.01935619926E+01	-5.98839178746E+00	-1.42843963511E+00
2.60790087788E+06	-7.25157920666E+00	-1.74207628758E+02	1.39218162140E+01	1.62452343484E+02	-3.89760242436E+01	1.65016902982E+02	-5.98284560062E+00	-8.71521748564E-01
2.63009223247E+06	-8.12965106996E+00	-1.71966264999E+02	1.39100958224E+01	1.62314180913E+02	-5.44422961411E+01	3.34572368558E+01	-5.99616439304E+00	-1.01819804036E+00
2.65228358707E+06	-1.24285979958E+01	1.71202872358E+02	1.39335758395E+01	1.62365486078E+02	-4.26590651711E+01	6.67125572911E+01	-5.95368190328E+00	-1.92057600562E+00
2.67447494166E+06	-1.23736917601E+01	-1.58872086197E+02	1.39615776611E+01	1.62092592245E+02	-3.10866231833E+01	-4.52081536731E+01	-5.92023906060E+00	-1.91974239634E+00
2.69666629626E+06	-9.19450759159E+00	1.68195098009E+02	1.39619201703E+01	1.61516913559E+02	-4.09975925004E+01	-6.80216974997E+00	-5.99755642316E+00	-1.33813340682E+00
2.71885765085E+06	-1.18656119085E+01	-1.76586559305E+02	1.38984171578E+01	1.61470173967E+02	-4.26482014003E+01	8.23568059663E+01	-5.94068739527E+00	-1.38971538723E+00
2.74104900545E+06	-1.04453786461E+01	-1.74717196263E+02	1.39954186743E+01	1.61144063324E+02	-4.53700315875E+01	-2.85893473286E+01	-5.99746326574E+00	-1.41079027579E+00
2.76324036004E+06	-1.03400640780E+01	-1.64085445950E+02	1.39335024257E+01	1.61188508561E+02	-4.23320740981E+01	6.35496942330E+01	-5.95525706497E+00	-1.46583628606E+00
2.78543171463E+06	-1.07740869375E+01	-1.70144493611E+02	1.39477455949E+01	1.61137677424E+02	-6.43999652375E+01	-3.40903527415E+01	-5.97731653186E+00	-1.18878484899E+00
2.80762306923E+06	-8.31550497850E+00	1.79766031790E+02	1.39515085992E+01	1.60615121618E+02	-3.70011656532E+01	-1.03823392284E+02	-5.98377479993E+00	-1.14367624583E+00
2.82981442382E+06	-9.01463850395E+00	-1.72597654802E+02	1.39454536687E+01	1.60794351381E+02	-4.38343644031E+01	-1.64354456282E+02	-5.95736569093E+00	-1.16083507919E+00
2.85200577842E+06	-7.35905283963E+00	-1.73687528005E+02	1.39471066470E+01	1.60769654112E+02	-4.61619453397E+01	1.62944230695E+02	-5.95295978538E+00	-1.34994870556E+00
2.87419713301E+06	-1.15544274427E+01	-1.71620801200E+02	1.39343974080E+01	1.60744743042E+02	-4.04877061742E+01	-5.07336174787E+01	-5.98166635625E+00	-1.21771234198E+00
