# Hz S DB R 50
! CMT, M5065, 19127446, 24.2.4/2
! Date: 10/29/2024 12:23:59 PM
! Data: Format (Calibration Info)
! Freq	S11:dB/Ang(F2)	S21:dB/Ang(F2)	S12:dB/Ang(F2)	S22:dB/Ang(F2)
3.00000000000E+05	-9.31675871213E+00	-1.78170373568E+02	8.97009296558E+00	-1.78039139273E+02	-5.56450752511E+01	-1.76265224262E+02	-5.99432824524E+00	-1.67219742933E-01
3.22191354595E+05	-1.10781242588E+01	-1.72998598753E+02	8.99574824679E+00	-1.78320135914E+02	-4.35597362792E+01	1.20180560969E+02	-5.96270717975E+00	-7.63908278851E-02
3.44382709190E+05	-9.95372606554E+00	-1.78104750963E+02	8.98879253186E+00	-1.78784123218E+02	-4.29888581390E+01	-1.49216849615E+02	-5.97784126270E+00	-1.10389411415E-01
3.66574063785E+05	-1.09244842909E+01	1.79874786034E+02	8.99179013665E+00	-1.79092395936E+02	-4.91781849292E+01	9.44480598445E+01	-5.97969482573E+00	-2.56364142599E-01
3.88765418380E+05	-1.07198170344E+01	1.77737300186E+02	8.98160768921E+00	-1.79140010211E+02	-5.42517786152E+01	6.22363660036E+01	-5.98877060669E+00	-2.64990205081E-01
4.10956772975E+05	-1.01366407626E+01	-1.66461795368E+02	9.00747210205E+00	-1.79608143175E+02	-5.27043535617E+01	-6.85690983094E+01	-5.96707275731E+00	-2.33131111503E-01
4.33148127570E+05	-1.30657776231E+01	-1.71995772268E+02	8.98205060897E+00	-1.79611712051E+02	-4.15628971002E+01	-4.97691992840E+01	-5.97288293548E+00	-4.00363035298E-01
4.55339482165E+05	-9.82487510178E+00	1.79499819750E+02	9.00907727837E+00	-1.79932014057E+02	-4.39479058776E+01	7.48881962552E+01	-5.99100735086E+00	-2.86114901248E-01
4.77530836760E+05	-9.90874310614E+00	-1.64833208483E+02	9.00087866871E+00	1.79879069254E+02	-5.72915827151E+01	1.35056191357E+02	-5.97755623201E+00	-4.93339557284E-01
4.99722191355E+05	-1.12366847054E+01	1.73012518061E+02	9.04232060651E+00	1.79449734200E+02	-4.97918232337E+01	1.71589847719E+02	-5.95795672875E+00	-3.60476787959E-01
5.21913545950E+05	-9.51683899801E+00	1.72373810968E+02	9.00148533627E+00	1.79199049012E+02	-5.91748887178E+01	-1.70150241075E+02	-5.98482733423E+00	-4.18361107923E-01
5.44104900545E+05	-8.48230618139E+00	1.77058253370E+02	9.02208695653E+00	1.79164073225E+02	-4.59583100699E+01	-9.56680019018E+01	-5.97108301499E+00	-5.16955582155E-01
5.66296255139E+05	-1.04512995770E+01	1.77888751119E+02	9.01394304462E+00	1.78870544779E+02	-5.62963397865E+01	1.69267410386E+02	-5.98424454897E+00	-5.67009698803E-01
5.88487609734E+05	-9.63154636079E+00	-1.78484034154E+02	8.99899367897E+00	1.78758151367E+02	-4.40586339794E+01	-1.20544042963E+02	-5.96719407012E+00	-5.44561367699E-01
6.10678964329E+05	-1.08246036034E+01	1.76159708757E+02	9.02150406804E+00	1.78749378226E+02	-4.27129201687E+01	-9.87894003755E+01	-5.97538228162E+00	-7.67948346064E-02
6.32870318924E+05	-8.63832528848E+00	-1.65810849222E+02	9.01346801879E+00	1.78371298651E+02	-4.85400924978E+01	-1.52431690395E+02	-5.96603691049E+00	-3.72036838963E-01
6.55061673519E+05	-9.68109671733E+00	1.76418039497E+02	9.02110030144E+00	1.78264056369E+02	-4.77006567167E+01	-3.53336770760E+01	-5.97428384503E+00	-2.32468302541E-01
6.77253028114E+05	-1.19653460932E+01	-1.73435539915E+02	9.00952684774E+00	1.77940759024E+02	-4.66005998791E+01	-6.34380716978E+01	-5.96443909452E+00	-5.98935639386E-01
6.99444382709E+05	-1.09032391877E+01	-1.74584113005E+02	9.05950767841E+00	1.77746031770E+02	-4.52226441720E+01	1.41717666781E+02	-5.99600482728E+00	-6.82249405761E-01
7.21635737304E+05	-9.24011091801E+00	1.74949839516E+02	9.00048670024E+00	1.77544560573E+02	-4.12522149271E+01	-4.14226867181E+01	-5.97797146499E+00	-4.64268088263E-01
7.43827091899E+05	-9.80373962722E+00	-1.78433705485E+02	9.02190331832E+00	1.77467718411E+02	-4.82276720017E+01	1.54108038082E+02	-5.97669024711E+00	-2.76977051392E-01
7.66018446494E+05	-1.15199489561E+01	-1.69808773230E+02	8.99704984518E+00	1.77283614913E+02	-4.59358764505E+01	-1.57010167298E+02	-5.98968593300E+00	-4.39674438380E-01
7.88209801089E+05	-1.01630802464E+01	-1.62826837445E+02	9.02241581279E+00	1.77235951150E+02	-4.69306958102E+01	1.59661627597E+02	-5.97399992189E+00	-5.08165390797E-01
8.10401155684E+05	-1.20835916812E+01	1.72855555622E+02	8.99146130040E+00	1.77103029679E+02	-4.09616319840E+01	1.40513684352E+02	-5.97585884385E+00	-3.34775778182E-01
8.32592510279E+05	-1.14476762105E+01	1.78363055396E+02	9.03462033928E+00	1.76929319775E+02	-4.43380446267E+01	1.50941949886E+02	-5.97517187523E+00	-4.48287273882E-01
8.54783864874E+05	-8.34281574747E+00	1.73279103958E+02	9.01508206994E+00	1.76873350536E+02	-4.82733675372E+01	-4.61437411409E+01	-5.95269925026E+00	-5.50727426025E-01
8.76975219469E+05	-1.03714468986E+01	1.77446947474E+02	9.01457376632E+00	1.76624417804E+02	-4.25533165745E+01	-5.73902918771E+01	-5.95631373933E+00	-5.33501963458E-01
8.99166574064E+05	-1.10012552991E+01	-1.76490397453E+02	9.03506143110E+00	1.76598374435E+02	-4.01671903979E+01	-4.82964826575E+01	-5.96526765953E+00	-5.39551460025E-01
9.21357928659E+05	-9.12122469438E+00	1.76086156870E+02	9.04412865443E+00	1.76118014549E+02	-4.27465141790E+01	-1.39641023887E+02	-5.99326344202E+00	-4.39742474402E-01
9.43549283254E+05	-1.25231387173E+01	-1.68835655734E+02	9.00700792785E+00	1.76215579480E+02	-4.65857357866E+01	5.86373900776E+01	-5.97987274044E+00	-5.54249818514E-01
9.65740637849E+05	-9.98087554592E+00	-1.70738773241E+02	9.00935971810E+00	1.76071060221E+02	-4.30317399270E+01	-6.40289780650E+01	-5.95219947633E+00	-6.28731766991E-01
9.87931992444E+05	-1.14811906596E+01	-1.75137445167E+02	9.00674145803E+00	1.75962333621E+02	-5.46192906143E+01	-1.39101351884E+02	-5.97183631066E+00	-5.51749401252E-01
1.01012334704E+06	-1.16220086031E+01	-1.61116014054E+02	9.03703103585E+00	1.75944452681E+02	-5.56490632760E+01	1.45612859297E+02	-5.98699713447E+00	-6.42246777649E-01
1.03231470163E+06	-1.02112412245E+01	-1.79776930510E+02	9.01278416965E+00	1.75520276130E+02	-4.20869740023E+01	1.15366833344E+02	-6.00331760583E+00	-6.20059783298E-01
1.05450605623E+06	-9.19040586646E+00	-1.68212871122E+02	9.02089300778E+00	1.75388077239E+02	-4.69979201730E+01	4.16476008317E+01	-5.96601630038E+00	-6.41375265851E-01
1.07669741082E+06	-1.03582468326E+01	1.78481498369E+02	9.03763674256E+00	1.75154252141E+02	-4.80874519673E+01	6.86986434351E+01	-5.97475646640E+00	-6.19168759484E-01
1.09888876542E+06	-1.21144593050E+01	-1.73171703884E+02	9.04877346504E+00	1.75155099329E+02	-4.86078126323E+01	1.35266860273E+02	-5.96737723630E+00	-5.53847534852E-01
1.12108012001E+06	-8.96765388904E+00	-1.75752449042E+02	9.03142559229E+00	1.75281405981E+02	-4.74917417073E+01	3.85440360708E+01	-5.97275397064E+00	-7.39896009561E-01
1.14327147461E+06	-1.03945237179E+01	-1.58225788207E+02	9.00862473681E+00	1.74754544518E+02	-4.53073858017E+01	4.40398473345E+01	-5.96352085332E+00	-5.31717955425E-01
1.16546282920E+06	-1.08768781123E+01	-1.77402893627E+02	9.02163914757E+00	1.74726018938E+02	-4.65849518887E+01	1.02700731778E+02	-5.98125925946E+00	-6.35762863968E-01
1.18765418380E+06	-8.78317959515E+00	-1.77314716325E+02	9.02898797463E+00	1.74787843427E+02	-4.50260549859E+01	1.70214548286E+02	-5.98466055757E+00	-5.50080877009E-01
1.20984553839E+06	-1.17749418984E+01	1.75236140263E+02	9.00206036753E+00	1.74345539651E+02	-5.18029631288E+01	1.57182044095E+02	-5.95650810265E+00	-8.19089440401E-01
1.23203689299E+06	-1.15893715460E+01	-1.73952719826E+02	9.03136459226E+00	1.74354994854E+02	-4.38130376086E+01	-1.70106168563E+02	-5.97937341235E+00	-5.11256626555E-01
1.25422824758E+06	-1.18713019500E+01	1.73697191723E+02	9.00524669539E+00	1.74164373794E+02	-5.84818358633E+01	-1.21297548799E+01	-5.98457767271E+00	-6.51890510681E-01
1.27641960218E+06	-1.02728612377E+01	1.74810970012E+02	9.00829561476E+00	1.73983849327E+02	-3.91006506966E+01	9.10396999621E+01	-5.98966264580E+00	-6.07269462779E-01
1.29861095677E+06	-1.02740376682E+01	-1.72987417091E+02	9.02784611920E+00	1.74082159732E+02	-4.35338892276E+01	-1.49946661074E+02	-5.96515609443E+00	-6.73663720236E-01
1.32080231137E+06	-1.06305553312E+01	-1.78493965323E+02	9.01937595457E+00	1.73821009135E+02	-4.64461885498E+01	9.57841961944E+01	-5.96508042604E+00	-1.13989855918E+00
1.34299366596E+06	-1.09364678565E+01	-1.64351900910E+02	9.07504956179E+00	1.73708515688E+02	-4.51827004295E+01	8.14901786734E+01	-5.97941495442E+00	-8.37906226204E-01
1.36518502056E+06	-1.10215841431E+01	1.67045344076E+02	9.00346159791E+00	1.73523758628E+02	-5.58140198112E+01	2.52311185452E+01	-5.97173736091E+00	-6.94983997211E-01
1.38737637515E+06	-8.79475578039E+00	1.70099014869E+02	8.99385592701E+00	1.73305876970E+02	-4.46976711859E+01	-1.48083674228E+02	-5.97802282006E+00	-6.93434422029E-01
1.40956772975E+06	-1.11122517659E+01	-1.77656746697E+02	9.00916994015E+00	1.73089415284E+02	-4.81279269896E+01	1.24695807678E+01	-5.98632575636E+00	-7.37492892223E-01
1.43175908434E+06	-1.05168847467E+01	1.78055379857E+02	9.03450025835E+00	1.73310712323E+02	-4.54412402194E+01	1.43993436583E+02	-5.96173623635E+00	-7.74538216307E-01
1.45395043894E+06	-9.47311487870E+00	-1.76774272230E+02	9.04770622275E+00	1.72962960491E+02	-4.46025501706E+01	1.35234768638E+02	-5.97709697594E+00	-5.19698282374E-01
1.47614179353E+06	-1.05358007369E+01	-1.65381722924E+02	9.03242060759E+00	1.73288308944E+02	-3.95741736196E+01	1.27752428847E+02	-5.97114786249E+00	-7.33130288881E-01
1.49833314813E+06	-9.59568003300E+00	-1.66104968827E+02	8.98516993892E+00	1.72903951540E+02	-5.02351610565E+01	7.56026015290E+01	-5.98023298136E+00	-7.14157398501E-01
1.52052450272E+06	-9.43654715748E+00	1.77533669759E+02	9.01418291110E+00	1.72701195380E+02	-4.43804963477E+01	3.28268167355E+01	-5.96044907670E+00	-7.50151407607E-01
1.54271585732E+06	-8.75624911399E+00	1.78578810006E+02	9.01740833377E+00	1.72712057586E+02	-3.84750200681E+01	-4.61701666745E+01	-5.97113123786E+00	-8.02620101133E-01
1.56490721191E+06	-1.06212318221E+01	1.75979355218E+02	8.97604367898E+00	1.72482784201E+02	-4.40126516884E+01	1.11075220165E+02	-6.00377931067E+00	-9.46670904677E-01
1.58709856651E+06	-1.15938449738E+01	1.74787631813E+02	9.02955818636E+00	1.72139398798E+02	-5.52384577460E+01	-4.47713475832E+01	-5.96429203553E+00	-7.34472610726E-01
1.60928992110E+06	-9.76786613881E+00	-1.69779899312E+02	9.01195499707E+00	1.72085451065E+02	-5.11902367669E+01	-1.09157595223E+01	-5.95731660412E+00	-8.82610731438E-01
1.63148127570E+06	-1.01621275864E+01	-1.74596753789E+02	9.05209327370E+00	1.72155561117E+02	-3.77157792974E+01	-1.68561351274E+02	-5.96029073209E+00	-5.57109404857E-01
1.65367263029E+06	-1.24814508523E+01	-1.78194576298E+02	9.00701842119E+00	1.71968771590E+02	-4.45478311759E+01	-4.53952403484E+01	-5.97645350817E+00	-6.03943303238E-01
1.67586398489E+06	-7.72613069186E+00	-1.78493204698E+02	8.99897362164E+00	1.71657726918E+02	-6.19504595775E+01	-6.03986421599E+01	-5.95563415612E+00	-7.21351692911E-01
1.69805533948E+06	-1.03032669191E+01	-1.75157501507E+02	9.00758552419E+00	1.71872534532E+02	-4.86635423137E+01	-8.84334378535E+01	-5.98227710606E+00	-8.38441038517E-01
1.72024669408E+06	-1.01773611585E+01	1.79474084218E+02	8.99413861687E+00	1.71555890564E+02	-5.42053931709E+01	5.99897465761E+01	-5.92216238939E+00	-1.01150811677E+00
1.74243804867E+06	-9.88879555824E+00	1.73792241770E+02	9.01564938665E+00	1.71467819468E+02	-5.07823201884E+01	-5.63360348375E+01	-5.97140172845E+00	-8.56442439241E-01
1.76462940327E+06	-1.08160255067E+01	-1.71505019273E+02	9.02411431274E+00	1.71240822822E+02	-4.29241337866E+01	-3.73922794986E+01	-5.96359117222E+00	-8.62812559477E-01
1.78682075786E+06	-7.68774074068E+00	-1.76994656072E+02	9.02480756430E+00	1.71159854526E+02	-4.56014979792E+01	1.17734527284E+02	-5.95636733637E+00	-9.85350635920E-01
1.80901211246E+06	-1.19562717507E+01	-1.67074272327E+02	9.01046016566E+00	1.71147436190E+02	-4.04744067734E+01	1.05243032540E+01	-5.97656311478E+00	-9.41587064539E-01
1.83120346705E+06	-1.07257968929E+01	1.72828379794E+02	9.00239226687E+00	1.70907629758E+02	-4.22258201590E+01	-1.77805694157E+02	-5.96922581537E+00	-8.37987752630E-01
1.85339482165E+06	-9.47609990852E+00	1.77550098533E+02	8.99102209282E+00	1.70893983349E+02	-4.77627055792E+01	-1.67463997749E+02	-5.95415397053E+00	-9.69740402935E-01
1.87558617624E+06	-1.17857933745E+01	-1.78601362976E+02	8.99497832799E+00	1.70464268642E+02	-4.52754281805E+01	5.32344272268E+01	-5.94478514470E+00	-1.02929964162E+00
1.89777753084E+06	-1.05540061294E+01	-1.68353074490E+02	9.00429752946E+00	1.70656719105E+02	-4.35507935500E+01	-3.49045400196E+01	-5.97106851321E+00	-8.84825486053E-01
1.91996888543E+06	-9.55793429821E+00	-1.76742783969E+02	9.06675298548E+00	1.70084708447E+02	-4.63028757488E+01	-4.23838784837E+01	-5.97513981639E+00	-8.88605434519E-01
1.94216024003E+06	-1.17843065905E+01	-1.70173728209E+02	9.01538038423E+00	1.70303463346E+02	-4.31777514593E+01	4.07017197721E+01	-5.97939723490E+00	-8.95203224759E-01
1.96435159462E+06	-1.05609816336E+01	1.77908724890E+02	9.04701593222E+00	1.70223563776E+02	-4.76127292425E+01	7.19811768424E+01	-5.96535209732E+00	-9.30136799048E-01
1.98654294922E+06	-1.08080369148E+01	-1.73141801889E+02	8.99441175522E+00	1.69973107756E+02	-3.62329658777E+01	-1.64094530198E+02	-5.97613259380E+00	-1.10192122674E+00
2.00873430381E+06	-1.00440418500E+01	1.68514585319E+02	9.00203723302E+00	1.70047304522E+02	-4.13976668025E+01	1.36838310662E+02	-5.94526123464E+00	-8.86477410829E-01
2.03092565841E+06	-9.23444766357E+00	-1.77425187274E+02	9.04950993139E+00	1.69915206660E+02	-5.39497106344E+01	-1.19300409122E+02	-5.96842331349E+00	-1.00619326644E+00
2.05311701300E+06	-1.05573559441E+01	-1.74891945192E+02	8.96690710069E+00	1.69815282144E+02	-5.71811832474E+01	2.76181381335E+01	-5.96915531433E+00	-9.73470642519E-01
2.07530836760E+06	-9.72287809053E+00	1.73533831042E+02	9.02636968745E+00	1.69460137080E+02	-4.35571792007E+01	-6.08021185054E+00	-5.98688032213E+00	-1.12505094732E+00
2.09749972219E+06	-9.59135972212E+00	-1.79209474993E+02	9.00358529606E+00	1.69532063502E+02	-4.15315929003E+01	1.16871790654E+02	-5.95688273970E+00	-1.08046480462E+00
2.11969107679E+06	-1.08316208983E+01	1.75923091552E+02	9.03978461404E+00	1.69392858579E+02	-4.80567320353E+01	6.86597730882E+01	-5.93902548414E+00	-1.09390543891E+00
2.14188243138E+06	-1.05084431713E+01	1.71239661663E+02	8.98342883627E+00	1.69081254109E+02	-4.89900654923E+01	-1.66681708260E+02	-5.96466486829E+00	-1.07929301738E+00
2.16407378598E+06	-1.06072739015E+01	-1.76244399575E+02	8.99918571359E+00	1.69213393469E+02	-4.52446057146E+01	1.09040386496E+00	-5.98415349857E+00	-9.89141408587E-01
2.18626514057E+06	-1.04823723211E+01	1.78890970757E+02	9.01705401060E+00	1.68788062757E+02	-4.11447431119E+01	8.06244108506E+01	-5.96715060591E+00	-1.29011294067E+00
2.20845649517E+06	-1.07764759854E+01	1.77836737716E+02	9.01221288976E+00	1.68902950729E+02	-4.98096783992E+01	-1.14410049628E+02	-5.96745354537E+00	-1.19062920520E+00
2.23064784976E+06	-1.04421845443E+01	1.76415667336E+02	8.97498311709E+00	1.68577901208E+02	-4.95040926994E+01	3.42250255024E+00	-5.96461049834E+00	-1.02259455573E+00
2.25283920436E+06	-1.03530149678E+01	1.73024586081E+02	9.01370983157E+00	1.68655938620E+02	-4.68624492059E+01	1.11319819862E+02	-5.94416519887E+00	-1.04639896520E+00
2.27503055895E+06	-9.71562612315E+00	1.74920986103E+02	8.97413832865E+00	1.68538198916E+02	-4.25308859208E+01	-1.50037535121E+02	-5.98738036443E+00	-1.12337715489E+00
2.29722191355E+06	-9.59425102347E+00	1.75417799222E+02	9.00085482335E+00	1.68117458151E+02	-4.75411761432E+01	8.00817097907E+01	-5.96886158942E+00	-1.10262012021E+00
2.31941326814E+06	-9.60845552694E+00	1.77513944680E+02	9.02765204957E+00	1.68283066838E+02	-4.44235768650E+01	2.06005664130E+00	-5.96580148330E+00	-1.17131973033E+00
2.34160462274E+06	-8.96239827724E+00	1.68298435175E+02	9.01529567925E+00	1.67841976854E+02	-3.86360514090E+01	-5.34492535597E+01	-5.98080705638E+00	-1.19182465481E+00
2.36379597733E+06	-8.69688787822E+00	1.73626101503E+02	9.00916627821E+00	1.68035792973E+02	-5.12227723367E+01	1.49810882079E+02	-5.98289317826E+00	-1.03222708708E+00
2.38598733193E+06	-1.25891573723E+01	-1.67818711917E+02	8.97914565609E+00	1.68015477887E+02	-4.76884230696E+01	4.04568450617E+01	-5.97667706670E+00	-1.17715259971E+00
2.40817868652E+06	-1.04900131331E+01	-1.72100155139E+02	9.00461066208E+00	1.67826212976E+02	-4.37269980058E+01	-1.12393839859E+02	-5.95539319060E+00	-1.32318019234E+00
2.43037004112E+06	-9.47428433244E+00	-1.79414736593E+02	8.99903281574E+00	1.67659494062E+02	-4.03412362670E+01	4.65537688292E+01	-5.97223345531E+00	-1.37931389894E+00
2.45256139571E+06	-1.01134630831E+01	1.77167414548E+02	9.00637731197E+00	1.67477040086E+02	-6.67718523524E+01	-7.67560102591E+01	-5.96635184731E+00	-9.36202176573E-01
2.47475275031E+06	-1.14153837774E+01	-1.70742607018E+02	9.02799910228E+00	1.67355769629E+02	-3.93174820498E+01	-5.50930497486E+01	-5.98675409147E+00	-1.12045914217E+00
2.49694410490E+06	-7.88233572161E+00	1.77013371097E+02	8.96278669813E+00	1.67241575034E+02	-4.03485693598E+01	-1.94666173738E+01	-5.97446489196E+00	-1.20800879934E+00
2.51913545950E+06	-1.01819340890E+01	1.75419116869E+02	9.00724795375E+00	1.67349906619E+02	-3.87446805031E+01	1.37145640664E+02	-5.97779456805E+00	-1.11988372458E+00
2.54132681409E+06	-9.56053485230E+00	-1.74169395498E+02	9.00542220880E+00	1.67167700666E+02	-3.94042531718E+01	1.41972996432E+02	-5.98284985301E+00	-1.40264782699E+00
2.56351816869E+06	-8.70625511994E+00	-1.66424947013E+02	9.02931741540E+00	1.66906762899E+02	-5.35998345314E+01	1.76671200506E+02	-5.98179021374E+00	-1.19560900393E+00
2.58570952328E+06	-1.26258018131E+01	-1.79458244640E+02	9.02144063923E+00	1.67035943737E+02	-4.50977967897E+01	6.32050218128E+01	-5.97627201426E+00	-1.29280598426E+00
2.60790087788E+06	-9.32353227351E+00	1.78773843757E+02	8.96244051757E+00	1.66624461770E+02	-4.87821445798E+01	-1.28812121724E+01	-5.97894876624E+00	-1.16855726485E+00
2.63009223247E+06	-1.06892478147E+01	-1.77259632600E+02	9.03386712440E+00	1.66600605035E+02	-4.35632154356E+01	-1.76531264116E+02	-5.98440877379E+00	-1.25842721556E+00
2.65228358707E+06	-1.15429626420E+01	-1.79495137700E+02	9.00352553244E+00	1.66472642561E+02	-3.82312362585E+01	1.28104405383E+02	-5.94760297046E+00	-1.54180869358E+00
2.67447494166E+06	-1.20299908940E+01	-1.64624407094E+02	9.00111926510E+00	1.66518296557E+02	-4.84434222251E+01	-3.80633849179E+01	-5.96979440564E+00	-1.35310398660E+00
2.69666629626E+06	-9.59130563642E+00	1.74070464658E+02	9.00098465990E+00	1.66331263045E+02	-5.15690339267E+01	1.12476243289E+01	-5.96992256966E+00	-1.29552253027E+00
2.71885765085E+06	-1.00082371041E+01	1.78573231941E+02	9.02249086621E+00	1.66002312059E+02	-5.46871383166E+01	8.53868991394E+01	-5.95923791185E+00	-1.40780585132E+00
2.74104900545E+06	-1.11965502989E+01	-1.79364806492E+02	8.99008748061E+00	1.66083870088E+02	-5.43743070222E+01	1.17941726441E+02	-5.96481972959E+00	-1.25852909225E+00
2.76324036004E+06	-1.01651502775E+01	-1.73951630914E+02	9.01640531086E+00	1.65942164087E+02	-4.56333494608E+01	5.15606343318E+01	-5.96153525925E+00	-1.23919760746E+00
2.78543171463E+06	-1.10833046497E+01	-1.79036237626E+02	9.02246734578E+00	1.65857568513E+02	-4.22194906426E+01	-1.09694063936E+01	-5.93273720017E+00	-1.22490969557E+00
2.80762306923E+06	-1.16654342249E+01	-1.76565187083E+02	9.04476965218E+00	1.65699550446E+02	-4.95928333370E+01	-4.07548238973E+01	-5.97021861847E+00	-1.19905124477E+00
2.82981442382E+06	-1.04665287240E+01	1.77942684101E+02	8.99214023977E+00	1.65642166851E+02	-4.62353599792E+01	-1.13125645849E+01	-5.94286296997E+00	-1.20717786904E+00
2.85200577842E+06	-1.13014204108E+01	1.75869247191E+02	9.00558542293E+00	1.65488151962E+02	-4.25858253556E+01	1.08989549408E+02	-5.95683212704E+00	-1.40797088020E+00
2.87419713301E+06	-1.05843135772E+01	-1.78485126570E+02	9.02048213470E+00	1.65587449101E+02	-4.74927443363E+01	8.06126017294E+01	-5.98134187442E+00	-1.36582167390E+00
