# Hz S DB R 50
! CMT, M5065, 19127446, 24.2.4/2
! Date: 10/29/2024 12:31:21 PM
! Data: Format (Calibration Info)
! Freq	S11:dB/Ang(F2)	S21:dB/Ang(F2)	S12:dB/Ang(F2)	S22:dB/Ang(F2)
3.00000000000E+05	-9.76525520139E+00	-1.49873977109E+02	1.02120541969E+01	-1.78267691133E+02	-3.62703393029E+01	-5.26729175003E+01	-5.95319315847E+00	-6.45932420985E-01
3.22191354595E+05	-7.39733142761E+00	-1.73979078699E+02	1.01959515984E+01	-1.78459033841E+02	-4.61753085528E+01	-1.68240507270E+02	-5.97213193872E+00	-4.23307108008E-01
3.44382709190E+05	-8.95564778848E+00	1.74242242607E+02	1.01510869522E+01	-1.78747325867E+02	-3.48391448312E+01	1.31635285569E+02	-5.96467827223E+00	-1.06161236723E-01
3.66574063785E+05	-1.07501245822E+01	-1.62303874705E+02	1.01814031588E+01	-1.78997301981E+02	-4.71195770514E+01	1.39634025151E+02	-5.96836649307E+00	-1.91995638245E-01
3.88765418380E+05	-1.10522588598E+01	-1.78744303448E+02	1.01787337028E+01	-1.79706007950E+02	-3.57613637034E+01	-7.89878735258E+01	-5.97855305144E+00	-3.26785734160E-01
4.10956772975E+05	-1.15338567300E+01	1.72217327776E+02	1.01984709311E+01	-1.79674997196E+02	-4.08800611498E+01	-6.52093186293E+01	-5.98607931994E+00	-4.85308693744E-01
4.33148127570E+05	-8.40049060077E+00	-1.68275072519E+02	1.02251870465E+01	-1.79823039497E+02	-4.67296440937E+01	-1.37193776045E+02	-5.98909956623E+00	-2.44877046804E-01
4.55339482165E+05	-1.22186469352E+01	-1.74094531585E+02	1.01603818893E+01	1.79640423492E+02	-4.75898773105E+01	8.46472102528E+01	-5.94654519041E+00	-1.65898758304E-01
4.77530836760E+05	-1.25850862405E+01	-1.64747207195E+02	1.02137993637E+01	1.79552539728E+02	-3.82151532790E+01	-5.25267102228E+01	-5.99382698782E+00	-3.37862640083E-01
4.99722191355E+05	-7.38814055067E+00	-1.74234304082E+02	1.01189971412E+01	1.79131152871E+02	-3.69477719880E+01	-8.26878290102E+01	-5.99086786364E+00	-4.30066766133E-01
5.21913545950E+05	-8.05270566780E+00	-1.56175897047E+02	1.02496579309E+01	1.79103143912E+02	-4.16387717593E+01	1.02345375553E+01	-5.95968817776E+00	-3.14332549744E-01
5.44104900545E+05	-1.19087477929E+01	1.63012576303E+02	1.01634649806E+01	1.78936272512E+02	-3.77140796872E+01	3.48690453516E+00	-5.97863542132E+00	-6.10139731992E-01
5.66296255139E+05	-1.05996002493E+01	1.71837099028E+02	1.02336786047E+01	1.78996708637E+02	-4.28548554570E+01	-1.08365687320E+02	-5.95470223250E+00	-3.54557420500E-01
5.88487609734E+05	-1.03453714791E+01	1.79443620999E+02	1.01739800996E+01	1.78666094649E+02	-4.08618183281E+01	-2.06808909655E+01	-5.97387722562E+00	-3.62648014979E-01
6.10678964329E+05	-7.35723771072E+00	-1.65769448247E+02	1.01933153904E+01	1.78170854203E+02	-4.03754626988E+01	6.10823823775E+01	-5.96133624393E+00	-2.95409634852E-01
6.32870318924E+05	-1.06040465100E+01	1.63221199295E+02	1.02327325218E+01	1.78320462512E+02	-3.61537296756E+01	-1.20050107139E+02	-5.99517048415E+00	-4.22155703524E-01
6.55061673519E+05	-1.27981640277E+01	-1.75416179287E+02	1.01330259980E+01	1.78247713005E+02	-4.15302478769E+01	5.57733202232E+01	-5.98707373780E+00	-2.97618825436E-01
6.77253028114E+05	-1.16324680086E+01	-1.66579250723E+02	1.01564594548E+01	1.77954144309E+02	-3.46577683575E+01	1.02877487750E+01	-5.97352453008E+00	-5.99578301315E-01
6.99444382709E+05	-7.49705916237E+00	-1.57040758488E+02	1.01629696497E+01	1.77221137258E+02	-3.37093153660E+01	-8.03226277618E+01	-5.97223118513E+00	-5.61493947425E-01
7.21635737304E+05	-9.88815291398E+00	-1.67114599587E+02	1.01102098155E+01	1.77469349247E+02	-4.76428193687E+01	8.78359719809E+01	-5.97693895878E+00	-6.01282096723E-01
7.43827091899E+05	-1.29976704400E+01	1.69598469724E+02	1.01607278357E+01	1.77419567085E+02	-4.18964608164E+01	1.60755655789E+02	-6.00222397083E+00	-3.31927746778E-01
7.66018446494E+05	-9.11501579522E+00	1.73872431772E+02	1.01762652488E+01	1.77259818067E+02	-4.01543553376E+01	-1.05322421754E+02	-5.97202159885E+00	-4.76005846660E-01
7.88209801089E+05	-1.54743963301E+01	-1.69761992580E+02	1.01788955380E+01	1.77049483007E+02	-3.51089661683E+01	-8.16786826224E+01	-5.94685684925E+00	-7.21505953023E-01
8.10401155684E+05	-1.14368102747E+01	1.76355229583E+02	1.02571584012E+01	1.76785504454E+02	-4.10477113453E+01	-7.64251211819E+01	-5.99630823810E+00	-8.57310914041E-01
8.32592510279E+05	-7.61114671677E+00	-1.70683200207E+02	1.01849735323E+01	1.76507999152E+02	-3.56073757866E+01	1.32450242400E+02	-5.96276569604E+00	-5.10148011313E-01
8.54783864874E+05	-1.01221489036E+01	-1.66414379597E+02	1.02277559708E+01	1.76561063710E+02	-4.52417214437E+01	1.23276021846E+02	-6.01078928377E+00	-3.77458853032E-01
8.76975219469E+05	-8.91249783553E+00	-1.67802138990E+02	1.02352436110E+01	1.76628390975E+02	-3.65437562362E+01	1.38817409044E+02	-5.94855624928E+00	-3.85624517125E-01
8.99166574064E+05	-9.98435496369E+00	1.73207940750E+02	1.01937567136E+01	1.75879990957E+02	-3.86338229385E+01	1.63277331213E+02	-5.96680488743E+00	-6.80360438897E-01
9.21357928659E+05	-9.89903744519E+00	-1.61783827929E+02	1.02139291032E+01	1.76079715078E+02	-3.71688860466E+01	5.93627466547E+01	-5.98035900867E+00	-1.76281997121E-01
9.43549283254E+05	-8.87611722119E+00	1.77759636838E+02	1.02214648532E+01	1.75690600012E+02	-3.97914722550E+01	-3.16441274006E+00	-6.01002984757E+00	-3.90237425463E-01
9.65740637849E+05	-1.29686751967E+01	1.63624454325E+02	1.02114976642E+01	1.75664353941E+02	-4.73766841653E+01	-6.02917632583E+01	-6.01028868201E+00	-4.36217906396E-01
9.87931992444E+05	-1.45547362975E+01	-1.68394799326E+02	1.02327635292E+01	1.75390827813E+02	-3.61245604259E+01	-4.85163124058E+01	-5.97864141748E+00	-6.75114274883E-01
1.01012334704E+06	-9.79434482026E+00	-1.70039397821E+02	1.01586696043E+01	1.75666050524E+02	-3.65334576268E+01	5.31458835263E+01	-5.96665224963E+00	-6.36245735389E-01
1.03231470163E+06	-9.71407074587E+00	-1.77292797382E+02	1.01617714298E+01	1.74908494494E+02	-4.03983090053E+01	-8.42127154395E+01	-5.99354901164E+00	-7.22961996006E-01
1.05450605623E+06	-7.77023907130E+00	1.62372566712E+02	1.02099468993E+01	1.75230252860E+02	-4.15216800781E+01	1.65134034820E+02	-5.96353053952E+00	-3.62180824576E-01
1.07669741082E+06	-1.27820031552E+01	1.53660982743E+02	1.01448200431E+01	1.75000870157E+02	-3.89601105820E+01	2.87140489379E+01	-5.98920379668E+00	-6.08873725795E-01
1.09888876542E+06	-1.09957709370E+01	1.72288584493E+02	1.01990909039E+01	1.74605434330E+02	-3.47867520075E+01	1.67843007977E+02	-5.93166107645E+00	-7.33938035314E-01
1.12108012001E+06	-1.36317374376E+01	-1.62800290274E+02	1.02127347608E+01	1.74522291913E+02	-3.19263749770E+01	3.83936965000E+01	-5.99638711929E+00	-7.78338077952E-01
1.14327147461E+06	-1.24027031482E+01	-1.75987196164E+02	1.02219208180E+01	1.74615510290E+02	-3.56187492252E+01	-8.35059767153E+01	-5.97554086377E+00	-7.75209391130E-01
1.16546282920E+06	-9.77350790319E+00	1.67564148243E+02	1.01022116942E+01	1.74233204934E+02	-4.42383857727E+01	-5.34303463006E+01	-5.93165027430E+00	-5.38714397784E-01
1.18765418380E+06	-1.32645730725E+01	1.78068418786E+02	1.02224761849E+01	1.74667967197E+02	-4.68872383768E+01	5.97236329341E+01	-5.95084027434E+00	-6.86528770840E-01
1.20984553839E+06	-7.58334031002E+00	1.66041636355E+02	1.02176001958E+01	1.74077087656E+02	-3.50069775226E+01	-3.20678201911E+01	-5.95180458514E+00	-9.07682244232E-01
1.23203689299E+06	-9.65656083024E+00	-1.70557496418E+02	1.01939203637E+01	1.74194252332E+02	-4.15134583141E+01	4.03319883335E+01	-5.99318091196E+00	-2.24367402739E-01
1.25422824758E+06	-1.23084203049E+01	-1.45477768544E+02	1.02362705645E+01	1.74028927503E+02	-4.73664727203E+01	1.11250612112E+02	-5.95520800713E+00	-7.02112458021E-01
1.27641960218E+06	-1.06092109524E+01	-1.73796909629E+02	1.01857178592E+01	1.73621217796E+02	-4.03032044809E+01	-3.83140191734E+00	-5.97645044202E+00	-5.58875161994E-01
1.29861095677E+06	-1.40998802929E+01	-1.69038219787E+02	1.01670374040E+01	1.73395539572E+02	-4.17442353108E+01	3.94112118927E+01	-5.99198661810E+00	-8.65174563785E-01
1.32080231137E+06	-6.95769565288E+00	-1.76981403664E+02	1.01850758653E+01	1.73591902338E+02	-4.05190910407E+01	5.26088010573E+00	-5.94118303963E+00	-1.08417734397E+00
1.34299366596E+06	-1.20215421508E+01	1.59189788068E+02	1.01638769604E+01	1.73934428760E+02	-4.07801041010E+01	-4.50222171047E+01	-6.00326417263E+00	-7.83892932406E-01
1.36518502056E+06	-8.00542200954E+00	-1.78738080484E+02	1.01962874519E+01	1.73187174948E+02	-4.44120189530E+01	-8.70073258311E+01	-5.93137389554E+00	-5.70480233468E-01
1.38737637515E+06	-9.83613196259E+00	-1.53469200963E+02	1.01893044781E+01	1.73087284729E+02	-4.00560204917E+01	1.15774242940E+02	-6.00152442561E+00	-5.94166151896E-01
1.40956772975E+06	-1.07503607539E+01	1.62689377677E+02	1.02010643724E+01	1.72861354360E+02	-4.75485714221E+01	-1.50320774083E+02	-5.94653173024E+00	-2.85025425464E-01
1.43175908434E+06	-9.53867314397E+00	1.73467642595E+02	1.01839092022E+01	1.72881459948E+02	-3.45371934456E+01	-1.58365605721E+02	-6.01907454805E+00	-5.11642552575E-01
1.45395043894E+06	-1.19164233703E+01	-1.38813190091E+02	1.02463231228E+01	1.72216774982E+02	-4.08629100136E+01	4.70654254126E+00	-5.93375201808E+00	-6.17206081001E-01
1.47614179353E+06	-1.09878272945E+01	-1.68357572019E+02	1.01941325108E+01	1.72349267358E+02	-4.09549581005E+01	2.85225318573E+01	-5.97708287066E+00	-7.38082808496E-01
1.49833314813E+06	-1.04815725052E+01	-1.78720490314E+02	1.02181890089E+01	1.72851990991E+02	-4.14499900284E+01	-5.45030511948E+01	-5.96301493917E+00	-8.40916515997E-01
1.52052450272E+06	-7.94734372069E+00	1.78571864053E+02	1.01787911823E+01	1.71883164615E+02	-4.60988753060E+01	1.53887650308E+02	-5.97731931902E+00	-9.11519344285E-01
1.54271585732E+06	-6.51180584670E+00	1.64486477699E+02	1.02191059605E+01	1.71768106562E+02	-3.94884462699E+01	6.84631866255E+01	-5.93379882660E+00	-6.59170619796E-01
1.56490721191E+06	-1.19654903058E+01	1.69199217496E+02	1.02113701294E+01	1.71616845500E+02	-4.10299807305E+01	1.47632269717E+02	-5.94366748272E+00	-9.07646185248E-01
1.58709856651E+06	-1.18127443154E+01	-1.65656944372E+02	1.02179626122E+01	1.71613308630E+02	-4.56948034255E+01	-7.58248385388E+01	-5.97132811484E+00	-7.82651116991E-01
1.60928992110E+06	-1.01709782454E+01	1.68731805164E+02	1.01697780199E+01	1.71515078106E+02	-4.35851789312E+01	2.19212651540E+01	-6.01115669467E+00	-7.10770775679E-01
1.63148127570E+06	-9.92240158044E+00	1.74646365289E+02	1.02146204087E+01	1.71380334005E+02	-3.76564203176E+01	-1.74526633408E+02	-5.96319720165E+00	-8.14821628570E-01
1.65367263029E+06	-9.26029688412E+00	1.76806337023E+02	1.01601751105E+01	1.71694544115E+02	-3.41046393874E+01	5.47563198407E+00	-5.95875309547E+00	-7.37094826292E-01
1.67586398489E+06	-8.83254893069E+00	1.50241152771E+02	1.02310244801E+01	1.71096857197E+02	-3.95488932716E+01	-1.65590548858E+02	-5.96579362546E+00	-6.99174719171E-01
1.69805533948E+06	-7.58097498123E+00	-1.76840939084E+02	1.01894356413E+01	1.71180856183E+02	-3.59723315146E+01	-1.48115404872E+02	-5.98258364754E+00	-9.90033538985E-01
1.72024669408E+06	-1.12638549342E+01	-1.77570405955E+02	1.01530854760E+01	1.70992420466E+02	-4.60347210461E+01	7.53595610306E+01	-5.93547341440E+00	-5.74945924902E-01
1.74243804867E+06	-1.14432116475E+01	-1.77804394344E+02	1.01626869214E+01	1.70869720941E+02	-3.75315090772E+01	-2.28461610257E+01	-5.93087906406E+00	-1.32424169557E+00
1.76462940327E+06	-8.19026535780E+00	1.77225580857E+02	1.01857604245E+01	1.71176257747E+02	-4.44790772721E+01	2.82095222295E+01	-6.01466059123E+00	-8.90205922315E-01
1.78682075786E+06	-9.38011606443E+00	-1.67783543099E+02	1.02562887334E+01	1.70641369034E+02	-4.20989997930E+01	-9.67830880616E+01	-5.98460478100E+00	-7.23613597822E-01
1.80901211246E+06	-7.48684492851E+00	1.70760880906E+02	1.01249109695E+01	1.70574200080E+02	-4.08371011385E+01	6.27504829178E+01	-6.03811298432E+00	-9.46704763581E-01
1.83120346705E+06	-1.20503524762E+01	-1.45558999771E+02	1.01948035006E+01	1.70575171678E+02	-3.95712076661E+01	-6.55944369177E+01	-5.97940644739E+00	-9.17682082120E-01
1.85339482165E+06	-1.03068265564E+01	-1.56412383353E+02	1.02237366007E+01	1.70320664396E+02	-4.09898563209E+01	1.70515813269E+02	-5.94537363705E+00	-9.57932265234E-01
1.87558617624E+06	-8.22173214191E+00	-1.67496608586E+02	1.02000896038E+01	1.70039552059E+02	-3.89738640390E+01	-1.72999267867E+02	-5.94509701089E+00	-6.22322668540E-01
1.89777753084E+06	-1.03817148193E+01	1.52228716595E+02	1.02050975807E+01	1.70247338224E+02	-4.16054867356E+01	-9.58086322576E+01	-5.92924820899E+00	-8.28998638121E-01
1.91996888543E+06	-1.09200270568E+01	-1.66166907549E+02	1.02119427301E+01	1.69629473872E+02	-3.71203925429E+01	-1.39733860828E+02	-5.98919304389E+00	-7.95954690574E-01
1.94216024003E+06	-7.79632155652E+00	1.79317397268E+02	1.01672444368E+01	1.69777343143E+02	-4.83556839765E+01	1.31213964281E+02	-5.96164681228E+00	-7.93957600232E-01
1.96435159462E+06	-1.14547258146E+01	1.67505348096E+02	1.01556575909E+01	1.69051671622E+02	-3.46795274054E+01	4.17007128990E+01	-5.92593557065E+00	-9.37530573971E-01
1.98654294922E+06	-9.56056874675E+00	1.72478974442E+02	1.01561782367E+01	1.69363801568E+02	-4.07054740685E+01	1.30095049244E+02	-5.95222115430E+00	-1.03450642658E+00
2.00873430381E+06	-1.52128869747E+01	1.73761953404E+02	1.02479195093E+01	1.69433720753E+02	-3.80213069056E+01	-4.65679902401E+01	-5.97511832318E+00	-6.57360171632E-01
2.03092565841E+06	-9.69475564031E+00	1.68557998392E+02	1.02373876037E+01	1.68905004422E+02	-3.64892746316E+01	-7.09322660622E+01	-5.97271918403E+00	-8.95866164510E-01
2.05311701300E+06	-8.44870556890E+00	1.75835618612E+02	1.01855407860E+01	1.68925843312E+02	-4.31007647845E+01	-7.82576528382E+01	-5.99661811335E+00	-1.29909153589E+00
2.07530836760E+06	-1.25686524457E+01	1.75424050795E+02	1.02208900872E+01	1.69141705934E+02	-3.98204306708E+01	5.22363601654E+01	-5.96805325190E+00	-9.38392521781E-01
2.09749972219E+06	-8.27219244081E+00	1.76752022466E+02	1.02040298033E+01	1.69104465366E+02	-6.14244632353E+01	-4.31172860386E+01	-5.96006055986E+00	-1.06050675302E+00
2.11969107679E+06	-9.28483728925E+00	1.79678074108E+02	1.02288152371E+01	1.68459393354E+02	-3.95711517114E+01	-1.78706880877E+01	-5.97882534673E+00	-1.02797805019E+00
2.14188243138E+06	-1.46825909188E+01	-1.62947191326E+02	1.01473119943E+01	1.68435072861E+02	-6.22472441009E+01	-3.76916186027E+01	-5.95241267603E+00	-9.29704178307E-01
2.16407378598E+06	-9.35785074088E+00	-1.74683295356E+02	1.01753191436E+01	1.68556070663E+02	-4.46241005824E+01	-6.57751524709E+01	-5.97353152304E+00	-7.60396704942E-01
2.18626514057E+06	-1.09685868878E+01	1.71303128604E+02	1.01985286257E+01	1.68112829523E+02	-3.47836028555E+01	-1.21559048242E+02	-5.93887978797E+00	-1.09186732721E+00
2.20845649517E+06	-1.53841527373E+01	-1.72206893700E+02	1.01617521449E+01	1.68379829765E+02	-3.72744505196E+01	-5.60511434730E+01	-5.98018983497E+00	-8.36353920802E-01
2.23064784976E+06	-1.06492206472E+01	-1.76721083218E+02	1.02089969071E+01	1.68281712230E+02	-3.95009114599E+01	1.26475362186E+02	-5.94880947627E+00	-1.18632487898E+00
2.25283920436E+06	-8.64379017765E+00	-1.78514278261E+02	1.01934230190E+01	1.68030602303E+02	-3.45884797733E+01	1.33311175667E+02	-5.96933769554E+00	-8.26800273715E-01
2.27503055895E+06	-1.55992922731E+01	1.66229109291E+02	1.00869380723E+01	1.68039238544E+02	-3.42760174933E+01	1.10901783952E+02	-5.95565366129E+00	-8.64241456138E-01
2.29722191355E+06	-1.44347949345E+01	1.50323066696E+02	1.02614912192E+01	1.68301582026E+02	-3.70352503973E+01	-1.65725903539E+02	-5.98699054710E+00	-9.73726549961E-01
2.31941326814E+06	-1.39533071580E+01	-1.59600743558E+02	1.01896675682E+01	1.67658192888E+02	-4.36567113699E+01	1.73292631303E+02	-5.98035394178E+00	-1.13366516004E+00
2.34160462274E+06	-9.30381875974E+00	1.60605291429E+02	1.01736514898E+01	1.67241737889E+02	-3.76876860106E+01	-7.32985549692E+01	-5.98799458745E+00	-1.20598061912E+00
2.36379597733E+06	-9.72633275656E+00	-1.63272206008E+02	1.01866815440E+01	1.67192723796E+02	-3.54562459298E+01	1.04198165919E+02	-5.85292646932E+00	-7.75486215238E-01
2.38598733193E+06	-7.91673531255E+00	-1.60314543979E+02	1.02041607693E+01	1.67299125132E+02	-4.66275412891E+01	1.37914598801E+02	-5.97004384684E+00	-1.04295264468E+00
2.40817868652E+06	-7.16136188640E+00	1.71321767953E+02	1.01700325369E+01	1.67061775509E+02	-4.29860618763E+01	-1.01742521422E+02	-5.94829495434E+00	-1.33015034976E+00
2.43037004112E+06	-1.31306839272E+01	-1.67363660297E+02	1.02170649437E+01	1.67539009174E+02	-4.00443009650E+01	1.00241497307E+02	-5.94632397315E+00	-1.18611343537E+00
2.45256139571E+06	-1.11763443892E+01	1.59045952770E+02	1.02036760039E+01	1.66879156239E+02	-4.84340245757E+01	1.76362530779E+02	-5.97537529898E+00	-1.11016888958E+00
2.47475275031E+06	-1.31926920640E+01	1.64211184235E+02	1.01846465684E+01	1.66466223077E+02	-4.16678055828E+01	-1.29890639298E+02	-5.95924742941E+00	-1.20619535570E+00
2.49694410490E+06	-8.76958395634E+00	-1.72667453680E+02	1.01967890558E+01	1.66551166464E+02	-3.62695392073E+01	6.84546118846E+01	-5.95908236366E+00	-1.28901981582E+00
2.51913545950E+06	-1.02775775466E+01	-1.67367783875E+02	1.01832618758E+01	1.66319954283E+02	-3.85900691503E+01	-1.10633556813E+02	-5.95781231375E+00	-1.24461472211E+00
2.54132681409E+06	-1.07725601802E+01	-1.69535583553E+02	1.01639753465E+01	1.66186661820E+02	-4.39184439653E+01	-1.19334743387E+02	-6.02198141748E+00	-1.16752153185E+00
2.56351816869E+06	-1.44851034364E+01	-1.73549528946E+02	1.01970769758E+01	1.65854069555E+02	-3.91594805785E+01	1.29892105678E+02	-5.99276117133E+00	-1.11897816561E+00
2.58570952328E+06	-1.20940890640E+01	1.79394816504E+02	1.01903365421E+01	1.65825782885E+02	-4.71282425541E+01	-3.35518929308E+01	-5.97053144148E+00	-1.29239035356E+00
2.60790087788E+06	-1.31250363570E+01	1.61704468749E+02	1.01493748389E+01	1.65916657597E+02	-3.17582423960E+01	-1.70343347489E+02	-5.99915387659E+00	-1.03066731483E+00
2.63009223247E+06	-1.26041016223E+01	1.77915886065E+02	1.01952117791E+01	1.65664133781E+02	-5.02422311998E+01	-1.22285604328E+02	-5.96936655270E+00	-1.36878865896E+00
2.65228358707E+06	-1.05945654655E+01	-1.70899818992E+02	1.01963091100E+01	1.65532075054E+02	-4.27071681013E+01	-7.81083234798E+01	-5.98160748798E+00	-1.65320523584E+00
2.67447494166E+06	-1.39369643847E+01	-1.68815069892E+02	1.02167002495E+01	1.65544589889E+02	-4.00425093023E+01	1.15449979092E+02	-5.90787195084E+00	-8.81152650546E-01
2.69666629626E+06	-1.03297944223E+01	-1.55227595266E+02	1.02103414585E+01	1.65322304467E+02	-4.35007707116E+01	6.96962194219E+01	-5.98863621992E+00	-1.41095620396E+00
2.71885765085E+06	-8.77681529475E+00	-1.68418751366E+02	1.02575429627E+01	1.65330651816E+02	-3.79911840118E+01	-8.05541480283E+01	-5.94451814585E+00	-1.04008162057E+00
2.74104900545E+06	-7.90998708672E+00	-1.70337026596E+02	1.02217503710E+01	1.65003367938E+02	-3.58119946901E+01	2.46655822702E+01	-5.96522109468E+00	-1.20353456631E+00
2.76324036004E+06	-9.70024124273E+00	-1.71851046411E+02	1.01851967891E+01	1.65377246732E+02	-3.99099052474E+01	1.57007527132E+02	-5.93589978339E+00	-1.56581257608E+00
2.78543171463E+06	-8.53592674327E+00	-1.69931142380E+02	1.02130858052E+01	1.64817273918E+02	-5.02049481747E+01	1.71272136328E+02	-5.98385116652E+00	-1.32850182223E+00
2.80762306923E+06	-9.32395813396E+00	-1.70453607919E+02	1.01877787783E+01	1.64659500027E+02	-4.40177713974E+01	-1.71728622138E+02	-5.94698702132E+00	-1.21780117585E+00
2.82981442382E+06	-8.03125080300E+00	-1.76168771273E+02	1.01794945264E+01	1.64771084944E+02	-4.06825110944E+01	1.63636169413E+02	-5.94950551491E+00	-1.36788918469E+00
2.85200577842E+06	-8.19744041941E+00	1.73083880427E+02	1.02215105692E+01	1.64472241869E+02	-3.69048366091E+01	-8.58223331585E+01	-5.97556738123E+00	-1.54754759606E+00
2.87419713301E+06	-1.07437101137E+01	-1.65095427343E+02	1.01663551681E+01	1.64738307637E+02	-3.75752229648E+01	-1.62157288726E+02	-5.96523898693E+00	-1.36389765933E+00
