# Hz S DB R 50
! CMT, M5065, 19127446, 24.2.4/2
! Date: 10/29/2024 11:44:51 AM
! Data: Format (Calibration Info)
! Freq	S11:dB/Ang(F2)	S21:dB/Ang(F2)	S12:dB/Ang(F2)	S22:dB/Ang(F2)
3.00000000000E+05	-1.12086430437E+01	1.78737850089E+02	4.75129421649E+00	-1.78217262372E+02	-5.74602997573E+01	-9.33844540465E+01	-5.97521718276E+00	-2.96063245084E-01
3.22191354595E+05	-1.00942028524E+01	1.74810565664E+02	4.84185706915E+00	-1.78525312221E+02	-5.51262428110E+01	1.71788361363E+02	-6.00078061879E+00	-2.62007818940E-01
3.44382709190E+05	-1.18372320863E+01	-1.58803319765E+02	4.82609547674E+00	-1.78541350461E+02	-4.82787868384E+01	-1.57302009248E+02	-5.97528346634E+00	-1.39074384734E-01
3.66574063785E+05	-1.20921737670E+01	-1.64402464786E+02	4.86602952023E+00	-1.78924149581E+02	-5.09553745647E+01	5.75856359115E+01	-5.98351870093E+00	-1.77530999620E-01
3.88765418380E+05	-9.86932489527E+00	1.76543296825E+02	4.84358399410E+00	-1.79607785466E+02	-4.69029344020E+01	7.60453622159E+01	-6.00916173608E+00	-2.44046895417E-01
4.10956772975E+05	-9.79626946441E+00	-1.66843836113E+02	4.82748726513E+00	-1.79512123081E+02	-4.38463307569E+01	-9.94472947107E+01	-5.98442878648E+00	-3.31026359519E-01
4.33148127570E+05	-1.02025648479E+01	-1.70053995107E+02	4.84242357038E+00	-1.79612026240E+02	-4.13777982215E+01	-1.33323114648E+02	-5.96936619634E+00	-2.04919691104E-01
4.55339482165E+05	-8.93881422720E+00	1.76427066332E+02	4.84966107002E+00	-1.79872597808E+02	-4.28324455838E+01	3.53016619042E+01	-5.96420187551E+00	-2.56608127194E-01
4.77530836760E+05	-1.03255496421E+01	-1.79920098128E+02	4.83512267103E+00	1.79962423227E+02	-4.43481316372E+01	-1.17507806466E+02	-5.98260243672E+00	-3.96617136553E-01
4.99722191355E+05	-1.27532241517E+01	-1.77178339349E+02	4.80443167292E+00	1.79818585010E+02	-4.29715615523E+01	1.20450352556E+02	-5.95607875711E+00	-3.34926708940E-01
5.21913545950E+05	-9.68205519575E+00	1.73272248028E+02	4.86208711943E+00	1.79500911230E+02	-3.98397852983E+01	-3.73334478147E+01	-5.98317924011E+00	-3.76739085146E-01
5.44104900545E+05	-9.62704730925E+00	1.75809414174E+02	4.84899921605E+00	1.79328911718E+02	-4.36347248301E+01	-1.60167083240E+02	-5.98781379464E+00	-3.81840495478E-01
5.66296255139E+05	-9.78602425744E+00	1.74608951738E+02	4.82423054705E+00	1.79170950542E+02	-4.67218624619E+01	-2.05511749982E+01	-5.97374266415E+00	-4.33564111939E-01
5.88487609734E+05	-1.13467018174E+01	1.75014807906E+02	4.84809526850E+00	1.79239047703E+02	-4.83502131867E+01	9.54009615227E+01	-5.97625832440E+00	-4.22675200041E-01
6.10678964329E+05	-1.11614367977E+01	-1.70396360391E+02	4.84384446653E+00	1.79018446749E+02	-4.45088330405E+01	1.68784126831E+02	-5.98253983463E+00	-8.23300210988E-02
6.32870318924E+05	-9.98122496196E+00	-1.77764093287E+02	4.85277415420E+00	1.79104551889E+02	-4.46405324791E+01	1.48921518932E+02	-5.98494604498E+00	-2.66704623819E-01
6.55061673519E+05	-1.01151678566E+01	1.70902163053E+02	4.81716769215E+00	1.78890041897E+02	-4.36580456189E+01	-1.61456403063E+02	-5.98098523011E+00	-2.52513779193E-01
6.77253028114E+05	-1.22315534405E+01	-1.64410833575E+02	4.83028106339E+00	1.78481037338E+02	-4.61133161654E+01	-1.56791863073E+02	-5.95675973299E+00	-5.99125126813E-01
6.99444382709E+05	-9.11498687208E+00	-1.75741196132E+02	4.83918857542E+00	1.78247968148E+02	-6.05991811040E+01	-9.09278264879E+01	-5.98162711428E+00	-4.81246186607E-01
7.21635737304E+05	-9.49602547201E+00	-1.76820029012E+02	4.88041989616E+00	1.78324057271E+02	-4.90492863921E+01	-1.57659703550E+02	-5.98249639125E+00	-4.37641965524E-01
7.43827091899E+05	-9.15715900549E+00	-1.78103542439E+02	4.82678994244E+00	1.78044649725E+02	-5.05717658677E+01	1.76200447681E+02	-5.97386299915E+00	-4.03646200799E-01
7.66018446494E+05	-1.16302878569E+01	-1.73920458631E+02	4.83823272226E+00	1.77922993967E+02	-4.75508925596E+01	5.10389369070E+01	-5.97727879478E+00	-4.18984168325E-01
7.88209801089E+05	-1.28495772818E+01	-1.72047686734E+02	4.83075073215E+00	1.77691211468E+02	-4.30520529298E+01	-8.95546080465E+01	-5.97354805607E+00	-5.27325064473E-01
8.10401155684E+05	-1.21513422367E+01	-1.75880426282E+02	4.86022687178E+00	1.77486655989E+02	-4.74576806524E+01	3.97688256339E+01	-5.98098051737E+00	-4.35010698771E-01
8.32592510279E+05	-9.98421394684E+00	1.73025656199E+02	4.84510503642E+00	1.77785608030E+02	-4.35356843382E+01	-1.72643868628E+01	-5.96731193733E+00	-5.10281576036E-01
8.54783864874E+05	-9.77635509304E+00	-1.72416898460E+02	4.85391296490E+00	1.77239816897E+02	-5.10683661771E+01	-1.54439997155E+02	-5.99349639029E+00	-7.01918354554E-01
8.76975219469E+05	-1.09125555734E+01	1.63722169041E+02	4.85185007418E+00	1.77196695966E+02	-5.45222971776E+01	1.12148418976E+02	-5.95790389774E+00	-6.15813656737E-01
8.99166574064E+05	-1.07589800418E+01	-1.78075458467E+02	4.83720074735E+00	1.77339408066E+02	-5.16660922246E+01	1.19620696229E+02	-5.97933288737E+00	-6.56059993328E-01
9.21357928659E+05	-9.97839083673E+00	1.70514672085E+02	4.86993550084E+00	1.77159465074E+02	-4.09813512426E+01	-1.20370392913E+02	-5.98051372332E+00	-5.98608431437E-01
9.43549283254E+05	-1.22813606915E+01	-1.67005954337E+02	4.83996260857E+00	1.77132065720E+02	-4.70254292283E+01	1.00352197681E+02	-5.98954877837E+00	-4.96648444741E-01
9.65740637849E+05	-1.40303152370E+01	-1.77065102234E+02	4.87909190778E+00	1.76712604563E+02	-4.44559542430E+01	-1.66116515067E+00	-5.96172184868E+00	-6.23111056470E-01
9.87931992444E+05	-1.00022955363E+01	-1.69689997257E+02	4.88680079206E+00	1.76620789089E+02	-4.08234816961E+01	-1.70182312469E+02	-5.95605988032E+00	-5.97429008006E-01
1.01012334704E+06	-1.16684552461E+01	-1.74390305928E+02	4.85202320765E+00	1.76371312965E+02	-4.32889099875E+01	-4.58288966641E+01	-5.96005079480E+00	-6.77322836899E-01
1.03231470163E+06	-1.19792557037E+01	1.75626740929E+02	4.85336851902E+00	1.76264368609E+02	-5.04048573740E+01	-6.15338001863E+01	-5.98297561740E+00	-5.84149331707E-01
1.05450605623E+06	-1.12447972338E+01	-1.77052720125E+02	4.82471386299E+00	1.76209507713E+02	-4.55332868768E+01	1.35558673264E+01	-5.97929367691E+00	-5.77009849829E-01
1.07669741082E+06	-9.47579092322E+00	-1.73932885891E+02	4.85325407992E+00	1.76224537648E+02	-5.34607165933E+01	8.12139808778E+01	-5.96642159357E+00	-5.07712681630E-01
1.09888876542E+06	-9.03194441193E+00	1.76217447181E+02	4.84204948744E+00	1.76160842840E+02	-5.58512456175E+01	-1.27462458119E+02	-5.96125734490E+00	-6.43153709762E-01
1.12108012001E+06	-1.05810131523E+01	1.79134162377E+02	4.85532752922E+00	1.75914698019E+02	-4.30632330362E+01	-1.54020570690E+02	-5.96922641842E+00	-6.85116219680E-01
1.14327147461E+06	-1.00025003560E+01	1.79944948816E+02	4.85086743054E+00	1.75744071867E+02	-5.07687871757E+01	1.18298081037E+02	-5.95013770196E+00	-7.36073416794E-01
1.16546282920E+06	-1.06256993765E+01	1.78978134087E+02	4.83457019549E+00	1.75890135688E+02	-4.06835781738E+01	-1.53531970797E+02	-5.97709173251E+00	-7.00446626023E-01
1.18765418380E+06	-1.05031977279E+01	-1.60579519810E+02	4.85009901268E+00	1.75777446257E+02	-4.11972357922E+01	3.83621637142E+01	-5.97688894069E+00	-6.50209728478E-01
1.20984553839E+06	-9.95027493557E+00	1.76484057926E+02	4.82181166331E+00	1.75593928851E+02	-4.68531479408E+01	-3.66028057398E+01	-5.96305279514E+00	-9.49497535251E-01
1.23203689299E+06	-1.15456868188E+01	-1.78165046981E+02	4.80979535513E+00	1.75261798784E+02	-4.56462337905E+01	-1.56726879925E+02	-5.98738331101E+00	-4.52750759630E-01
1.25422824758E+06	-1.15209963341E+01	-1.71275416378E+02	4.84606723468E+00	1.75383869758E+02	-4.76318107359E+01	1.05267108312E+02	-5.98979487038E+00	-6.52639349036E-01
1.27641960218E+06	-1.08151939237E+01	-1.77096491467E+02	4.82178466679E+00	1.75102677664E+02	-4.47474670098E+01	4.84530741437E+01	-5.96921461420E+00	-6.81884193409E-01
1.29861095677E+06	-8.77508346624E+00	1.70470569899E+02	4.85782195178E+00	1.75094466669E+02	-4.54168095787E+01	-7.03748315028E+01	-5.98205534174E+00	-7.44588033767E-01
1.32080231137E+06	-9.89738935845E+00	1.68831239020E+02	4.83266128794E+00	1.75022784042E+02	-4.36890437602E+01	-1.70786921180E+02	-5.96730285751E+00	-1.10968486559E+00
1.34299366596E+06	-8.69242339873E+00	1.72959254405E+02	4.85767840124E+00	1.74781200451E+02	-4.75704524011E+01	6.61606028436E+01	-5.96535416877E+00	-8.14911239662E-01
1.36518502056E+06	-9.86460405473E+00	-1.79598683495E+02	4.80923323157E+00	1.74905569529E+02	-5.08479600426E+01	-1.02270126955E+02	-5.95961950268E+00	-6.48123619981E-01
1.38737637515E+06	-1.04378853037E+01	-1.78454532620E+02	4.85022787212E+00	1.74773343059E+02	-5.58375329719E+01	-1.01349789377E+02	-5.97671731887E+00	-5.80936090311E-01
1.40956772975E+06	-1.09350800019E+01	-1.67123612672E+02	4.80621216735E+00	1.74569748752E+02	-4.24228840707E+01	5.98005145484E+01	-5.96865352450E+00	-7.13610656644E-01
1.43175908434E+06	-9.63470849176E+00	-1.76147397751E+02	4.84791187800E+00	1.74717364831E+02	-6.21002451692E+01	1.53292835423E+02	-5.96463572829E+00	-7.25306808672E-01
1.45395043894E+06	-9.48801826299E+00	-1.66939400940E+02	4.84036887636E+00	1.74491075314E+02	-5.20693497989E+01	-5.09286058638E+01	-5.97712010735E+00	-7.25701943979E-01
1.47614179353E+06	-1.01505026764E+01	1.76147795784E+02	4.89405344854E+00	1.74285599395E+02	-4.47255861958E+01	1.16496385136E+02	-5.97864857923E+00	-8.14526627353E-01
1.49833314813E+06	-9.22772423052E+00	1.69836682718E+02	4.85299363070E+00	1.74082597738E+02	-4.92210762119E+01	6.41968175660E+01	-5.99229250356E+00	-7.40975652581E-01
1.52052450272E+06	-1.16648262084E+01	1.74694867043E+02	4.85127927286E+00	1.74157388188E+02	-3.90782801201E+01	-1.54466335508E+02	-5.97536769720E+00	-7.65751686017E-01
1.54271585732E+06	-9.73548060243E+00	-1.79220411268E+02	4.87793805730E+00	1.73830418209E+02	-4.22501257663E+01	8.47614387888E+01	-5.97444294776E+00	-7.79090972061E-01
1.56490721191E+06	-1.01474006794E+01	-1.78211258765E+02	4.83692319804E+00	1.73668000061E+02	-5.25905343377E+01	1.71021528652E+02	-5.96171660657E+00	-8.80153277391E-01
1.58709856651E+06	-9.67697797531E+00	-1.77783963369E+02	4.84779089331E+00	1.73980533575E+02	-5.51567477728E+01	-9.65285692397E+00	-5.98107743582E+00	-8.05155136579E-01
1.60928992110E+06	-9.44528390931E+00	1.79055560409E+02	4.85210100701E+00	1.73644636973E+02	-4.41125802027E+01	-7.93154018021E+01	-5.96346381398E+00	-7.92684628344E-01
1.63148127570E+06	-1.06716753549E+01	-1.75131601345E+02	4.88904037318E+00	1.73372506379E+02	-4.02668080998E+01	-1.61636252863E+02	-5.98467231799E+00	-8.43757075351E-01
1.65367263029E+06	-9.89484433958E+00	1.74270544459E+02	4.84010292422E+00	1.73399219250E+02	-5.46227091623E+01	-8.78510372809E+01	-5.98330824826E+00	-7.55097183910E-01
1.67586398489E+06	-1.12506667866E+01	1.77605583467E+02	4.84640886119E+00	1.73210692434E+02	-4.14558740930E+01	8.56132990513E+01	-5.97186795373E+00	-7.69918707475E-01
1.69805533948E+06	-1.11588615695E+01	1.79484211570E+02	4.84135550621E+00	1.73034285223E+02	-4.54457528258E+01	-4.78989276365E+01	-5.95475234090E+00	-8.53917695260E-01
1.72024669408E+06	-9.17232574120E+00	1.76535715021E+02	4.84007141523E+00	1.72919083701E+02	-4.51024963385E+01	7.24091237898E+01	-5.98481815192E+00	-8.75208883316E-01
1.74243804867E+06	-1.13180269449E+01	1.79944732836E+02	4.86831048551E+00	1.72607873689E+02	-4.59102562488E+01	2.24383142690E+01	-5.96925131035E+00	-8.20797854408E-01
1.76462940327E+06	-9.71801101427E+00	-1.69703332676E+02	4.85292809506E+00	1.72843784553E+02	-5.75550967279E+01	-1.35719875142E+02	-5.98073060224E+00	-7.26564867369E-01
1.78682075786E+06	-1.07895510975E+01	-1.73802685332E+02	4.80609026812E+00	1.72779954563E+02	-4.68021263286E+01	5.04642501394E+01	-5.97683781840E+00	-9.07304676767E-01
1.80901211246E+06	-1.19775045079E+01	-1.71280479568E+02	4.85220522411E+00	1.72582809230E+02	-4.81752890441E+01	3.12571603983E+01	-5.95951338004E+00	-8.42699175650E-01
1.83120346705E+06	-1.12898159081E+01	1.77265353892E+02	4.84213621269E+00	1.72770421080E+02	-3.71969194047E+01	7.21343687321E+01	-5.94814842053E+00	-8.06276538493E-01
1.85339482165E+06	-1.32650301379E+01	1.74110969228E+02	4.83490774166E+00	1.72047002108E+02	-4.48440813141E+01	1.08093640694E+02	-5.96575910967E+00	-9.18286916175E-01
1.87558617624E+06	-1.19194670108E+01	-1.74215079881E+02	4.88031126535E+00	1.72235024497E+02	-4.50211637679E+01	-1.65106076524E+02	-5.97853354918E+00	-8.46222337258E-01
1.89777753084E+06	-8.58390862550E+00	1.78624630497E+02	4.84070263456E+00	1.72078285418E+02	-5.33878490539E+01	1.51833164764E+02	-5.96481869945E+00	-7.95816703571E-01
1.91996888543E+06	-1.13987102966E+01	1.78724922855E+02	4.80875167070E+00	1.72322809101E+02	-4.88822510654E+01	-4.50025114129E+01	-5.95679213845E+00	-8.50426057011E-01
1.94216024003E+06	-1.01805197958E+01	-1.73341429865E+02	4.78433333746E+00	1.71970199851E+02	-4.28394631562E+01	8.88508331326E+01	-5.97219488403E+00	-9.84903457134E-01
1.96435159462E+06	-1.31652612605E+01	-1.65351101829E+02	4.81633270521E+00	1.72100640738E+02	-5.72987515473E+01	-4.12982520051E+01	-5.97062608819E+00	-9.70920928854E-01
1.98654294922E+06	-1.01918545632E+01	-1.76046665297E+02	4.86025641998E+00	1.71925930477E+02	-4.43215547331E+01	-6.41676430569E+01	-6.00051731234E+00	-9.48082817762E-01
2.00873430381E+06	-9.56132804060E+00	1.73180038026E+02	4.87250605893E+00	1.71648104867E+02	-4.71827793831E+01	8.21618814507E+01	-5.97671082004E+00	-9.09770839118E-01
2.03092565841E+06	-9.79135780014E+00	1.76348978370E+02	4.82160227211E+00	1.71616903922E+02	-4.64110064888E+01	6.50934402676E+01	-5.95134619542E+00	-8.71823546598E-01
2.05311701300E+06	-9.49819101705E+00	-1.79806391835E+02	4.86033712707E+00	1.71453252846E+02	-4.33513969853E+01	4.02508969085E+01	-5.96623654389E+00	-8.80632685499E-01
2.07530836760E+06	-9.57005220248E+00	-1.73543860906E+02	4.85442976836E+00	1.71175991459E+02	-4.81256357550E+01	-1.02966404575E+01	-5.98008632930E+00	-9.51955745797E-01
2.09749972219E+06	-1.10800526850E+01	1.73130298513E+02	4.85309293782E+00	1.71464243161E+02	-4.18267555758E+01	-9.19123164232E+01	-5.94672434936E+00	-1.09036121508E+00
2.11969107679E+06	-9.83708885419E+00	1.78678026984E+02	4.83930734157E+00	1.71206030237E+02	-4.29549524629E+01	1.48260725526E+02	-5.95512461632E+00	-9.86428064486E-01
2.14188243138E+06	-9.64958811789E+00	1.72207259497E+02	4.77533303481E+00	1.71199990795E+02	-4.70681378986E+01	-1.00656751404E+02	-5.96855654342E+00	-1.05517643830E+00
2.16407378598E+06	-1.07873745255E+01	1.73578427466E+02	4.86396482671E+00	1.70873408367E+02	-4.19313298794E+01	-5.99850442488E+01	-5.98546046494E+00	-9.73893889402E-01
2.18626514057E+06	-1.00419551517E+01	1.75308984444E+02	4.84406091971E+00	1.71066850862E+02	-5.37311958375E+01	-1.53019543930E+02	-5.97003112528E+00	-1.07912301136E+00
2.20845649517E+06	-1.23746662847E+01	-1.70520971940E+02	4.81814533670E+00	1.70875843146E+02	-5.86656359095E+01	-7.84249286916E+01	-5.96075318265E+00	-9.97997888694E-01
2.23064784976E+06	-8.65800174356E+00	-1.77424081758E+02	4.82790593649E+00	1.70957427086E+02	-5.26861184275E+01	-1.26952325086E+02	-5.95777057804E+00	-8.43616098440E-01
2.25283920436E+06	-1.24073308901E+01	1.79101238307E+02	4.89460190527E+00	1.70230054256E+02	-4.10890020637E+01	1.46554175727E+02	-5.97688846833E+00	-1.06470016900E+00
2.27503055895E+06	-8.67068965065E+00	1.75726657188E+02	4.84818759317E+00	1.70432526894E+02	-4.87726382792E+01	1.68901288341E+02	-5.98235224374E+00	-9.88590362327E-01
2.29722191355E+06	-9.83245917619E+00	-1.76867835241E+02	4.85171505491E+00	1.70632003174E+02	-5.33652933513E+01	1.23066507127E+02	-5.97803219891E+00	-1.11011074378E+00
2.31941326814E+06	-7.89195797744E+00	1.77800329796E+02	4.86599533582E+00	1.70308556745E+02	-4.37272981087E+01	-1.35256361526E+02	-5.96833974686E+00	-1.00313769997E+00
2.34160462274E+06	-1.09126821040E+01	-1.78314766477E+02	4.86002551640E+00	1.70116628885E+02	-4.33363765957E+01	1.23579503825E+02	-5.95826627026E+00	-1.22995433592E+00
2.36379597733E+06	-9.48234967674E+00	-1.72820278557E+02	4.84906572406E+00	1.69871803615E+02	-4.71444350240E+01	7.73121054029E+01	-5.97253764954E+00	-1.17695322674E+00
2.38598733193E+06	-1.06203221073E+01	-1.77987877538E+02	4.85616378777E+00	1.69865196884E+02	-4.75734097754E+01	-9.55247201353E+01	-5.96839610879E+00	-1.03221202426E+00
2.40817868652E+06	-1.15604846279E+01	-1.78722101221E+02	4.82175808053E+00	1.69961705112E+02	-4.39142876465E+01	1.28525061791E+01	-5.95448554688E+00	-1.09177276667E+00
2.43037004112E+06	-9.46616862785E+00	1.77299580317E+02	4.84137991407E+00	1.69852096273E+02	-3.97021000865E+01	1.34537286311E+02	-5.94678826118E+00	-1.22081440122E+00
2.45256139571E+06	-1.23643855412E+01	1.67630620771E+02	4.85280527428E+00	1.69914564277E+02	-4.89852890816E+01	9.04452734030E+01	-5.96321082908E+00	-9.55880741976E-01
2.47475275031E+06	-9.52148663114E+00	1.71178874005E+02	4.86693608584E+00	1.69286579515E+02	-4.85065175737E+01	-9.28164944322E+01	-5.98357682125E+00	-1.19546620420E+00
2.49694410490E+06	-9.46063022911E+00	1.74316513751E+02	4.87355923312E+00	1.69521489919E+02	-4.93828098763E+01	-1.29210162490E+02	-5.95866575295E+00	-1.43328877625E+00
2.51913545950E+06	-1.19147700445E+01	1.68417916190E+02	4.85594071332E+00	1.69344303133E+02	-4.58260859910E+01	5.35297872244E+01	-5.96728112907E+00	-1.10277513321E+00
2.54132681409E+06	-1.21028958776E+01	-1.70524211613E+02	4.83440680485E+00	1.69213046394E+02	-4.23609696680E+01	-1.76035232595E+02	-5.97420475853E+00	-9.15935797439E-01
2.56351816869E+06	-1.00766281060E+01	-1.75111805069E+02	4.87367785146E+00	1.68961968299E+02	-4.26644674873E+01	-2.59898814931E+01	-5.98773528862E+00	-1.19703416241E+00
2.58570952328E+06	-9.48888346726E+00	1.67155335548E+02	4.88094239474E+00	1.69200607349E+02	-4.96062593043E+01	-9.47120880616E+01	-5.97073336893E+00	-1.18854865402E+00
2.60790087788E+06	-9.09114021503E+00	1.77971429485E+02	4.87469980309E+00	1.69070138762E+02	-4.62383344937E+01	-4.62875596219E+01	-5.98524915784E+00	-1.00980802503E+00
2.63009223247E+06	-1.00100005073E+01	1.77537844398E+02	4.82304192150E+00	1.68925747576E+02	-4.17674178354E+01	-1.39881580348E+02	-5.94566114019E+00	-1.21832834950E+00
2.65228358707E+06	-9.82910519918E+00	1.68574678296E+02	4.79534296971E+00	1.68849496892E+02	-5.89558212324E+01	-1.51069483793E+02	-5.97521621472E+00	-1.69301834023E+00
2.67447494166E+06	-1.01383135802E+01	-1.74153431684E+02	4.85061428366E+00	1.68836199466E+02	-4.66292314056E+01	9.16896699791E+00	-5.97002279893E+00	-1.37060783735E+00
2.69666629626E+06	-1.10476249771E+01	-1.77230705595E+02	4.88119169289E+00	1.68816913710E+02	-5.24538557550E+01	1.36350192897E+02	-5.96740740199E+00	-1.18285803184E+00
2.71885765085E+06	-1.09198475345E+01	-1.78144100704E+02	4.79514214541E+00	1.68090225758E+02	-5.94021123406E+01	-1.61882127023E+02	-5.96437379488E+00	-1.28720868266E+00
2.74104900545E+06	-1.11959834752E+01	1.74324609828E+02	4.78916970005E+00	1.68636954104E+02	-4.28755532627E+01	-1.37198140803E+02	-5.94286920130E+00	-1.25991249107E+00
2.76324036004E+06	-1.02646567084E+01	1.74977008830E+02	4.86092268541E+00	1.68051920823E+02	-4.62485787095E+01	-1.59154847847E+02	-5.95755467651E+00	-1.24548038726E+00
2.78543171463E+06	-1.05145401546E+01	1.78544751216E+02	4.82766119109E+00	1.68241788335E+02	-5.08157634793E+01	-1.57269100836E+02	-5.95254600770E+00	-1.33222897659E+00
2.80762306923E+06	-9.86689409048E+00	-1.74626033361E+02	4.87977775142E+00	1.67905628418E+02	-4.88688976701E+01	-8.29348122093E+00	-5.96101720175E+00	-1.24862230203E+00
2.82981442382E+06	-8.11987589149E+00	1.78479877277E+02	4.81575671716E+00	1.67756933142E+02	-4.36892616578E+01	1.20606086812E+02	-5.95819117252E+00	-1.31777425674E+00
2.85200577842E+06	-1.25638705351E+01	1.63128370150E+02	4.85526563147E+00	1.67862160477E+02	-3.94212894931E+01	1.40781251709E+02	-5.96226662468E+00	-1.31079451863E+00
2.87419713301E+06	-1.04864951036E+01	-1.76964110230E+02	4.86161205459E+00	1.67767807806E+02	-5.16320069642E+01	-5.01710721059E+01	-5.97879937206E+00	-1.31046559821E+00
