# Hz S DB R 50
! CMT, M5065, 19127446, 24.2.4/2
! Date: 10/29/2024 12:04:01 PM
! Data: Format (Calibration Info)
! Freq	S11:dB/Ang(F2)	S21:dB/Ang(F2)	S12:dB/Ang(F2)	S22:dB/Ang(F2)
3.00000000000E+05	-9.66725141501E+00	-1.58971267802E+02	6.49630126949E+00	-1.77975204029E+02	-4.93118314188E+01	-1.72867357406E+02	-5.97465680702E+00	-1.60499440710E-01
3.22191354595E+05	-1.08553306242E+01	-1.68533284191E+02	6.53388975803E+00	-1.78712530206E+02	-6.03607241801E+01	-1.57653576536E+02	-5.99466941117E+00	-1.97167781286E-01
3.44382709190E+05	-1.12643460478E+01	1.78301427105E+02	6.50994817500E+00	-1.78860703338E+02	-4.41698562164E+01	-1.19031313716E+02	-5.96854468457E+00	-3.82872027973E-01
3.66574063785E+05	-8.23482173618E+00	1.78408339035E+02	6.51369299881E+00	-1.79115936661E+02	-4.80100983670E+01	4.78790010362E+01	-5.96293446651E+00	-1.62368003752E-01
3.88765418380E+05	-9.93478248271E+00	-1.77454725169E+02	6.51872277210E+00	-1.79011912190E+02	-4.45469745080E+01	-1.56387618058E+02	-5.99295570689E+00	-2.10683775068E-01
4.10956772975E+05	-1.06582086612E+01	1.77867823379E+02	6.51501968376E+00	-1.79718673048E+02	-5.50757174993E+01	3.73684126293E+01	-5.99213223425E+00	-2.76813399004E-01
4.33148127570E+05	-1.12076063242E+01	-1.67702406182E+02	6.53302710147E+00	-1.79516669891E+02	-4.88271096140E+01	2.80578665292E+01	-5.96616415114E+00	-1.88802480252E-01
4.55339482165E+05	-9.12800297204E+00	-1.75562313248E+02	6.53071912269E+00	-1.79785397302E+02	-4.58758106034E+01	7.79288556787E+01	-5.96031715666E+00	-2.54698023260E-01
4.77530836760E+05	-8.14067186311E+00	1.77929772056E+02	6.50326845116E+00	1.79732124299E+02	-4.97501143324E+01	1.50129295073E+02	-5.95872094545E+00	-3.35359809545E-01
4.99722191355E+05	-1.14395305881E+01	-1.70763389747E+02	6.54808226802E+00	1.79411223468E+02	-3.99330703294E+01	-1.30035468175E+02	-5.98515938717E+00	-3.95757237352E-01
5.21913545950E+05	-9.68638584466E+00	1.74629383977E+02	6.52885811973E+00	1.79617471861E+02	-4.65330445836E+01	-9.38577769155E+01	-5.96632847135E+00	-5.81724033128E-01
5.44104900545E+05	-1.03346690368E+01	-1.68470688069E+02	6.48383621751E+00	1.79254159287E+02	-4.37552968345E+01	-8.54696912666E+01	-5.97357727184E+00	-3.91962333773E-01
5.66296255139E+05	-9.20795665215E+00	1.73847319366E+02	6.53438032114E+00	1.78854556017E+02	-4.45236217985E+01	-1.78541759558E+02	-5.96882459805E+00	-5.24352976364E-01
5.88487609734E+05	-1.09632602909E+01	1.77048420053E+02	6.52676597304E+00	1.78830238192E+02	-4.93648238987E+01	3.91108403416E+01	-5.98218164078E+00	-5.13284581258E-01
6.10678964329E+05	-8.32607152947E+00	-1.70811874086E+02	6.54469981351E+00	1.78798974145E+02	-4.33279650307E+01	-1.28828754446E+02	-5.97075243471E+00	-1.51849339021E-01
6.32870318924E+05	-9.59027844238E+00	1.71309379661E+02	6.52036448170E+00	1.78610525752E+02	-4.69141643702E+01	-1.09022319818E+02	-5.96618483714E+00	-3.17926766086E-01
6.55061673519E+05	-8.92253424948E+00	-1.75890948178E+02	6.54266947732E+00	1.78665489663E+02	-4.33707003931E+01	1.48462121762E+02	-5.98113229685E+00	-2.59197269743E-01
6.77253028114E+05	-1.09046553580E+01	-1.66156850328E+02	6.52367808056E+00	1.78321963090E+02	-4.39216643353E+01	-1.28861863710E+02	-5.97871414141E+00	-7.09760652623E-01
6.99444382709E+05	-1.12156506109E+01	1.73197838737E+02	6.56085033838E+00	1.78194955948E+02	-4.81389651227E+01	-2.72190977109E+01	-5.96593846682E+00	-3.93926764407E-01
7.21635737304E+05	-8.89063626504E+00	-1.68525495280E+02	6.52140490709E+00	1.78053529291E+02	-4.41348487309E+01	-2.43856724377E+01	-5.95656306101E+00	-5.55247825240E-01
7.43827091899E+05	-1.16996670053E+01	-1.79391077478E+02	6.49651953971E+00	1.78068948885E+02	-6.00894254651E+01	1.67929290638E+02	-5.98043719706E+00	-4.27408739369E-01
7.66018446494E+05	-9.43762260119E+00	-1.71587878490E+02	6.51512236357E+00	1.77931413950E+02	-4.93653832754E+01	-1.11731118395E+02	-5.97708369645E+00	-4.45087600849E-01
7.88209801089E+05	-1.22082288620E+01	1.64396405505E+02	6.52218333935E+00	1.77368071089E+02	-4.93730833125E+01	-1.22591592976E+02	-5.97189002080E+00	-6.09904840368E-01
8.10401155684E+05	-9.48560358470E+00	-1.78079523681E+02	6.50341538274E+00	1.77438010378E+02	-4.89117389681E+01	-1.13122495669E+02	-5.99155795710E+00	-6.15825508890E-01
8.32592510279E+05	-8.88419522382E+00	-1.77131658322E+02	6.53193464639E+00	1.77553072702E+02	-4.38755999622E+01	4.16418572999E+01	-5.98475037917E+00	-4.89165161874E-01
8.54783864874E+05	-1.05101457648E+01	-1.65399122736E+02	6.56270811801E+00	1.77120869073E+02	-5.31278696233E+01	9.72920112538E+00	-5.96689708626E+00	-4.13112687622E-01
8.76975219469E+05	-1.18767840218E+01	-1.78155483184E+02	6.55638326397E+00	1.76869685197E+02	-4.31945132851E+01	4.46450859640E+01	-5.96486630977E+00	-5.04541669293E-01
8.99166574064E+05	-1.11001325682E+01	1.79229191165E+02	6.47703302927E+00	1.77126359141E+02	-5.14386907518E+01	1.48711433420E+02	-5.97569336093E+00	-5.23735293148E-01
9.21357928659E+05	-8.18495427156E+00	1.77456683837E+02	6.50790825227E+00	1.76891740020E+02	-5.16636787263E+01	-1.48266538368E+02	-5.94127559217E+00	-4.89331043231E-01
9.43549283254E+05	-1.07562594086E+01	1.73492829788E+02	6.57541610782E+00	1.76547599980E+02	-4.51360318591E+01	-5.77511569997E+01	-5.98156615431E+00	-6.56762773607E-01
9.65740637849E+05	-9.69611381602E+00	-1.62740980461E+02	6.50839958299E+00	1.76467355169E+02	-5.38599877150E+01	-9.87523842151E+01	-5.98253263199E+00	-5.15423431952E-01
9.87931992444E+05	-8.98462543015E+00	-1.79304051561E+02	6.52101869035E+00	1.76634730096E+02	-4.12686024510E+01	6.91514267346E+01	-5.98011954056E+00	-5.44387687178E-01
1.01012334704E+06	-9.86262044992E+00	1.70875636939E+02	6.58468864696E+00	1.76139005696E+02	-4.71879125423E+01	-6.92064472960E+01	-5.96963007844E+00	-6.33116136910E-01
1.03231470163E+06	-1.04431945057E+01	-1.70255546753E+02	6.54180769696E+00	1.76423244601E+02	-4.90652737149E+01	1.55520560116E+02	-5.98161478826E+00	-5.45810134573E-01
1.05450605623E+06	-9.20665548429E+00	1.76834080909E+02	6.52686366972E+00	1.75775242820E+02	-5.31152114648E+01	1.27205486665E+02	-5.95604503916E+00	-5.46981747354E-01
1.07669741082E+06	-8.95613565889E+00	-1.70207844570E+02	6.54975879010E+00	1.75881272876E+02	-4.65418017331E+01	1.71260130781E+02	-5.97783611172E+00	-6.36077244868E-01
1.09888876542E+06	-9.96990349679E+00	1.71743852987E+02	6.53212753524E+00	1.75865297019E+02	-4.46323000467E+01	1.24060179288E+02	-5.96140219466E+00	-6.13727290542E-01
1.12108012001E+06	-1.02694497557E+01	1.73243359757E+02	6.60816459591E+00	1.75487555234E+02	-4.79734054630E+01	-5.34241113877E+01	-5.99084566146E+00	-7.10392299046E-01
1.14327147461E+06	-1.14485257576E+01	1.76169663755E+02	6.54396071161E+00	1.75637959493E+02	-5.04446830011E+01	1.98646093338E+01	-5.95949295545E+00	-4.92073418464E-01
1.16546282920E+06	-9.59892641945E+00	1.77426039972E+02	6.49672851862E+00	1.75346320128E+02	-4.57953907829E+01	-1.72487521279E+02	-5.96626584449E+00	-6.65167150004E-01
1.18765418380E+06	-9.65842081737E+00	1.75776057022E+02	6.52541440412E+00	1.75308121178E+02	-4.88523699358E+01	8.47278130875E+01	-5.97927078532E+00	-5.84458029618E-01
1.20984553839E+06	-1.14881751285E+01	-1.79192349630E+02	6.50525099428E+00	1.75242390801E+02	-4.50275690987E+01	-1.15850467201E+02	-5.96968025159E+00	-1.03767152315E+00
1.23203689299E+06	-1.16405706599E+01	-1.76395099575E+02	6.52728812945E+00	1.75352360427E+02	-5.06989614405E+01	6.22894702385E+01	-5.96499322266E+00	-5.07975205040E-01
1.25422824758E+06	-1.06360094971E+01	1.73857631904E+02	6.51825811907E+00	1.74793625159E+02	-5.03159679893E+01	1.25631089082E+02	-5.97331951313E+00	-5.01290605000E-01
1.27641960218E+06	-1.08507038716E+01	-1.78333208041E+02	6.55120989284E+00	1.75147825485E+02	-5.17365737956E+01	1.77145960496E+02	-5.99513308460E+00	-6.78257428427E-01
1.29861095677E+06	-1.13758500221E+01	-1.75303512286E+02	6.51000769543E+00	1.74832042256E+02	-5.06429850212E+01	1.24230120467E+02	-5.97653581924E+00	-6.85977464027E-01
1.32080231137E+06	-1.01474139010E+01	-1.78667653933E+02	6.53261259461E+00	1.74574395830E+02	-6.25832329682E+01	-5.52936221249E+01	-5.97693847100E+00	-9.66678668025E-01
1.34299366596E+06	-1.08565895509E+01	-1.72822478633E+02	6.51393778099E+00	1.74553600445E+02	-4.64531710417E+01	8.59583824328E+01	-5.97614124452E+00	-6.67993696302E-01
1.36518502056E+06	-1.18709211437E+01	1.69152252539E+02	6.52336569032E+00	1.74249454387E+02	-4.67373045625E+01	1.54115407514E+02	-5.95363954194E+00	-6.60911379073E-01
1.38737637515E+06	-7.95648621664E+00	-1.70423427667E+02	6.56784671918E+00	1.74150470309E+02	-4.30080647482E+01	-2.28653741442E+00	-5.97132691404E+00	-6.79785931009E-01
1.40956772975E+06	-1.12681259834E+01	1.72442022411E+02	6.54440465285E+00	1.73895093835E+02	-4.30567576978E+01	-1.43936098638E+02	-5.95319160787E+00	-7.53906776231E-01
1.43175908434E+06	-1.02552587440E+01	1.79960554954E+02	6.49670758416E+00	1.74226733334E+02	-4.95850135501E+01	-8.25107760704E+01	-5.94324500848E+00	-6.24307851764E-01
1.45395043894E+06	-1.01640931611E+01	-1.69409893046E+02	6.49360601944E+00	1.74120317926E+02	-5.11506470686E+01	3.92646853207E+01	-5.97714076453E+00	-6.54944878260E-01
1.47614179353E+06	-9.03090263800E+00	-1.73896132962E+02	6.53788811573E+00	1.73680455315E+02	-4.03156292600E+01	-1.01213458372E+02	-5.98120214322E+00	-7.62443985775E-01
1.49833314813E+06	-9.21362222615E+00	-1.79522295979E+02	6.55549097074E+00	1.73827871099E+02	-4.82050101599E+01	1.13814835489E+02	-5.95924478907E+00	-8.00196623618E-01
1.52052450272E+06	-9.91739256608E+00	-1.72829935457E+02	6.51593787365E+00	1.73404150205E+02	-4.22947927715E+01	-4.43704036330E-01	-5.98195404295E+00	-7.24809408272E-01
1.54271585732E+06	-9.10572677214E+00	-1.78336656708E+02	6.56538417314E+00	1.73439687515E+02	-4.65967103092E+01	6.28045549798E+01	-5.97557547998E+00	-7.90075465596E-01
1.56490721191E+06	-1.02508123189E+01	1.70147451432E+02	6.53345590992E+00	1.73081998565E+02	-4.32468676903E+01	-4.16604834211E+01	-5.94784491543E+00	-8.12864258959E-01
1.58709856651E+06	-9.03497703620E+00	1.75324262318E+02	6.51730545602E+00	1.73268875380E+02	-5.06992940940E+01	1.51298912554E+02	-5.95539771918E+00	-8.15858043044E-01
1.60928992110E+06	-9.04124268414E+00	1.74237411498E+02	6.47933870710E+00	1.73034370397E+02	-4.19798293384E+01	1.34999760280E+02	-5.95048368443E+00	-8.49015704729E-01
1.63148127570E+06	-8.80812232591E+00	1.78775940073E+02	6.53080640117E+00	1.73218477002E+02	-4.26674418396E+01	-1.56175293593E+02	-5.99726862042E+00	-7.76871947567E-01
1.65367263029E+06	-1.27686439833E+01	-1.77094067079E+02	6.50847493636E+00	1.72809016105E+02	-4.08417176431E+01	1.81043823767E+01	-5.97082725511E+00	-8.11596631462E-01
1.67586398489E+06	-9.55668526281E+00	1.67604482831E+02	6.52838668568E+00	1.72711329857E+02	-4.71579926300E+01	-1.03066366224E+02	-5.96809681475E+00	-7.83148376499E-01
1.69805533948E+06	-1.15369192253E+01	1.77895897989E+02	6.51118347538E+00	1.72664726495E+02	-5.01819193052E+01	5.50429575366E+00	-5.96942725808E+00	-8.74807946122E-01
1.72024669408E+06	-1.13404372680E+01	-1.79008375145E+02	6.53189696804E+00	1.72565661342E+02	-4.34522962925E+01	-1.71101473704E+02	-5.97181190972E+00	-8.50348463087E-01
1.74243804867E+06	-8.62427561018E+00	-1.71094050086E+02	6.55963927709E+00	1.72267005559E+02	-4.95713799448E+01	1.50447710069E+02	-5.96922401642E+00	-8.01593609428E-01
1.76462940327E+06	-1.03094074042E+01	-1.72009068908E+02	6.51337196539E+00	1.72418135015E+02	-4.96547387394E+01	-4.49497748069E+01	-5.96592878010E+00	-8.38578830967E-01
1.78682075786E+06	-1.05054029525E+01	-1.69425507288E+02	6.51223430855E+00	1.72364706143E+02	-5.35895551513E+01	-1.51985958692E+02	-5.98599227640E+00	-9.30845114590E-01
1.80901211246E+06	-9.50521616109E+00	1.64887504651E+02	6.47384564311E+00	1.72005871104E+02	-5.28404513443E+01	-4.43069464703E+01	-5.97296145517E+00	-7.91674269139E-01
1.83120346705E+06	-1.03459459217E+01	1.77306800859E+02	6.53135322148E+00	1.71962209681E+02	-5.22367931598E+01	-3.94214032663E+01	-5.99635971689E+00	-9.57872747196E-01
1.85339482165E+06	-8.67740768526E+00	-1.74561807107E+02	6.48725763275E+00	1.71730902181E+02	-5.13604966244E+01	-2.23664740147E+01	-5.97510160135E+00	-8.55033060568E-01
1.87558617624E+06	-1.17388454783E+01	-1.69791896041E+02	6.54024157072E+00	1.71800808098E+02	-4.53353556354E+01	-1.02539538469E+02	-5.96936057720E+00	-8.96887314548E-01
1.89777753084E+06	-1.04729965938E+01	1.78362959649E+02	6.52121705750E+00	1.71666252096E+02	-6.21697502588E+01	3.68386658843E+01	-5.97731958743E+00	-1.00180004803E+00
1.91996888543E+06	-1.05173851684E+01	1.78148164381E+02	6.53862169881E+00	1.71454288622E+02	-4.46530555034E+01	-1.46398499697E+02	-5.98952379170E+00	-8.67174750611E-01
1.94216024003E+06	-7.88356135330E+00	1.75537099884E+02	6.52773711233E+00	1.71240155093E+02	-3.80731764199E+01	-1.69743453831E+02	-5.98333549939E+00	-8.12801866916E-01
1.96435159462E+06	-8.52824448032E+00	-1.71274691660E+02	6.52399604790E+00	1.71268526043E+02	-4.59739605075E+01	-1.53728091904E+02	-5.95906436896E+00	-9.68938237491E-01
1.98654294922E+06	-9.90243914896E+00	1.79642997583E+02	6.47628011693E+00	1.71078315146E+02	-4.55778893160E+01	-5.42215030331E+01	-5.96720805582E+00	-1.17908501662E+00
2.00873430381E+06	-9.97220475631E+00	1.77662098414E+02	6.55697623413E+00	1.71109049652E+02	-4.97427567980E+01	-1.03391755262E+02	-5.96838121846E+00	-8.67048937340E-01
2.03092565841E+06	-1.08321347882E+01	1.78106322392E+02	6.50020419177E+00	1.71154249859E+02	-4.58724070771E+01	-2.97335035914E+01	-5.97247862655E+00	-7.86419397210E-01
2.05311701300E+06	-1.10722536199E+01	1.75659418350E+02	6.49506085351E+00	1.71192686350E+02	-5.49884446957E+01	1.65043374610E+02	-5.95232423263E+00	-8.94783558033E-01
2.07530836760E+06	-8.33119076725E+00	-1.79616983085E+02	6.51468114029E+00	1.70846700951E+02	-4.85741744081E+01	1.67956957992E+02	-5.93019091744E+00	-8.59032855996E-01
2.09749972219E+06	-1.06303589812E+01	1.79760153683E+02	6.50077243737E+00	1.70542221109E+02	-3.81202663438E+01	-4.17962587558E+01	-5.95768233392E+00	-1.19361052331E+00
2.11969107679E+06	-9.73245643015E+00	-1.73933615519E+02	6.53064781280E+00	1.70540504700E+02	-5.14115643157E+01	1.15487411102E+02	-5.98081970317E+00	-9.23900090362E-01
2.14188243138E+06	-9.89792984513E+00	1.76196745842E+02	6.51660943325E+00	1.70634451218E+02	-4.53237845675E+01	-3.69138473474E+01	-5.96912855502E+00	-1.00411843315E+00
2.16407378598E+06	-1.22971429070E+01	-1.72428526798E+02	6.51970913427E+00	1.70114294415E+02	-5.05737174746E+01	1.18847814452E+02	-5.97121559389E+00	-1.03911513971E+00
2.18626514057E+06	-1.00904496709E+01	-1.72424438018E+02	6.50601658220E+00	1.70085065059E+02	-4.21096568335E+01	2.68405144218E+01	-5.98357965565E+00	-1.03616852636E+00
2.20845649517E+06	-1.22126506959E+01	-1.57589549337E+02	6.53065239256E+00	1.70187323919E+02	-4.58145028066E+01	9.39561297959E+01	-5.94302579933E+00	-9.34574564768E-01
2.23064784976E+06	-1.04483332693E+01	1.75092619592E+02	6.52420731378E+00	1.69728031384E+02	-4.79973312403E+01	1.70890650624E+02	-5.95650192723E+00	-1.08508718936E+00
2.25283920436E+06	-1.07871991648E+01	-1.69406724525E+02	6.50819981586E+00	1.69824118936E+02	-5.83240159223E+01	-4.15021819725E+00	-5.95774755113E+00	-1.13206925726E+00
2.27503055895E+06	-1.18263007201E+01	-1.79427409038E+02	6.51434173662E+00	1.69751836192E+02	-4.19149591583E+01	-9.17453927269E+01	-5.96802513688E+00	-1.03858945697E+00
2.29722191355E+06	-1.13193052090E+01	1.73771793827E+02	6.51005177347E+00	1.69469355423E+02	-5.38971388663E+01	6.21739401092E+01	-5.96173010156E+00	-1.05264863495E+00
2.31941326814E+06	-9.12414538877E+00	-1.63973877863E+02	6.54210278108E+00	1.69756223276E+02	-5.61782903073E+01	-1.62084433744E+02	-5.95281572293E+00	-1.17496672948E+00
2.34160462274E+06	-1.13476005910E+01	-1.66008623948E+02	6.55666538863E+00	1.69381378683E+02	-4.30507194520E+01	1.68788202329E+02	-5.97382218377E+00	-1.09162046826E+00
2.36379597733E+06	-1.05026387930E+01	1.77290250325E+02	6.55576176524E+00	1.69300151456E+02	-5.00045866803E+01	-1.92617901306E+00	-5.95099543055E+00	-1.14730661043E+00
2.38598733193E+06	-1.07900762779E+01	1.76816634367E+02	6.50196256281E+00	1.69276189663E+02	-5.33483698829E+01	1.33033305418E+02	-5.98068824236E+00	-1.03896393410E+00
2.40817868652E+06	-9.80816184271E+00	1.75102485098E+02	6.55287982609E+00	1.69258697761E+02	-4.79335808070E+01	-1.02345891197E+01	-5.96943539692E+00	-1.15245904272E+00
2.43037004112E+06	-1.00347681632E+01	-1.79945159988E+02	6.51972177246E+00	1.69088037741E+02	-4.82887870728E+01	1.09612188449E+02	-5.96555557688E+00	-1.30649221281E+00
2.45256139571E+06	-1.03736060894E+01	1.78449180906E+02	6.53017400901E+00	1.68947076536E+02	-4.32576001857E+01	-1.36058587314E+00	-5.98343533846E+00	-1.11588461485E+00
2.47475275031E+06	-1.12350289972E+01	1.72251300187E+02	6.48027534756E+00	1.68807313454E+02	-4.36366982415E+01	4.00573420697E+01	-5.93309802899E+00	-1.28098275721E+00
2.49694410490E+06	-1.00502768068E+01	-1.75393472896E+02	6.51807828076E+00	1.68462167475E+02	-4.35792387049E+01	-1.69140279618E+02	-5.98992325946E+00	-1.24048547597E+00
2.51913545950E+06	-1.36961923652E+01	1.77993049591E+02	6.51067843928E+00	1.68448547142E+02	-4.02791593226E+01	7.05130223717E+00	-5.96376074496E+00	-1.21249005777E+00
2.54132681409E+06	-9.58519016433E+00	1.75496808039E+02	6.39161489059E+00	1.68196884641E+02	-4.55825415620E+01	-2.19129397232E+01	-5.95801379547E+00	-1.27761702594E+00
2.56351816869E+06	-9.92313559383E+00	1.77760954245E+02	6.52834509583E+00	1.68439038526E+02	-4.57121677105E+01	4.87793216796E+01	-5.96189078009E+00	-1.06120291969E+00
2.58570952328E+06	-1.02132911473E+01	1.79297512227E+02	6.54152339015E+00	1.68450757487E+02	-5.32791669013E+01	-2.66735451029E+01	-5.97904487910E+00	-1.18456157882E+00
2.60790087788E+06	-8.90204188328E+00	-1.77952884048E+02	6.55469138296E+00	1.68196530086E+02	-4.44408539160E+01	-8.51517668757E+01	-5.97130459648E+00	-1.18934792222E+00
2.63009223247E+06	-9.28314235451E+00	-1.78115671671E+02	6.51394439060E+00	1.68071534637E+02	-3.83056686786E+01	1.17301502517E+02	-5.98665292493E+00	-1.07430999438E+00
2.65228358707E+06	-1.03376320387E+01	1.77250140498E+02	6.50780942972E+00	1.68079853303E+02	-4.93495660268E+01	8.49708531316E+01	-5.97698516419E+00	-1.64484093310E+00
2.67447494166E+06	-9.23192012689E+00	-1.68867484559E+02	6.50534231541E+00	1.67970417594E+02	-4.56840771354E+01	-7.61321876132E+01	-5.95536064466E+00	-1.42703760031E+00
2.69666629626E+06	-1.00514050996E+01	1.79830470358E+02	6.47540211007E+00	1.68038060760E+02	-5.37837430207E+01	-1.29757000334E+02	-5.95182900584E+00	-1.11686722737E+00
2.71885765085E+06	-9.49302538421E+00	-1.68501170789E+02	6.54583880155E+00	1.67552977043E+02	-4.51060245333E+01	2.88039114294E+01	-5.96637699623E+00	-1.33854196779E+00
2.74104900545E+06	-9.85497700244E+00	1.77899869234E+02	6.50070844236E+00	1.67568567338E+02	-5.48748956339E+01	-1.40137460188E+02	-5.95922887947E+00	-1.19575853754E+00
2.76324036004E+06	-9.33760637628E+00	1.76964477954E+02	6.48071771523E+00	1.67704408516E+02	-3.99121546343E+01	-1.53329948397E+02	-5.95687395244E+00	-1.19061359239E+00
2.78543171463E+06	-1.16192719633E+01	-1.77276200543E+02	6.56956740827E+00	1.67366781877E+02	-4.16956798011E+01	1.62590284715E+02	-5.96402193517E+00	-1.26555493482E+00
2.80762306923E+06	-1.15790882324E+01	-1.69334000868E+02	6.48318744758E+00	1.67401248712E+02	-4.83750735302E+01	-1.54587204207E+02	-5.96239218587E+00	-1.38076919140E+00
2.82981442382E+06	-1.13196251302E+01	1.78025179798E+02	6.55825928070E+00	1.67360715730E+02	-4.86989190990E+01	-8.77126922600E+01	-5.97120428843E+00	-1.40493724542E+00
2.85200577842E+06	-8.86914765702E+00	-1.77996431749E+02	6.57808891898E+00	1.67079031757E+02	-4.32861028965E+01	-1.77582073303E+02	-5.96538269384E+00	-1.34916385711E+00
2.87419713301E+06	-9.61850477670E+00	1.76939132671E+02	6.53271027875E+00	1.66888519055E+02	-5.29892948411E+01	-2.42335950747E+01	-5.96291698642E+00	-1.40013406273E+00
