# Hz S DB R 50
! CMT, M5065, 19127446, 24.2.4/2
! Date: 10/29/2024 11:54:51 AM
! Data: Format (Calibration Info)
! Freq	S11:dB/Ang(F2)	S21:dB/Ang(F2)	S12:dB/Ang(F2)	S22:dB/Ang(F2)
3.00000000000E+05	-1.14716390519E+01	1.76542772196E+02	5.62172524946E+00	-1.78350054081E+02	-5.11000736169E+01	-6.82342092236E+01	-5.97274226316E+00	-1.53121016655E-01
3.22191354595E+05	-1.24164548674E+01	-1.67109942377E+02	5.61874397428E+00	-1.78535811074E+02	-5.59771151913E+01	-7.68508083637E+00	-5.96956841212E+00	-2.08719674424E-01
3.44382709190E+05	-9.98756172257E+00	-1.71740835043E+02	5.69657843963E+00	-1.78519646101E+02	-4.57760382669E+01	1.50110998229E+02	-5.97173578449E+00	-2.69013829581E-01
3.66574063785E+05	-1.01268745265E+01	1.74378392576E+02	5.67601012438E+00	-1.78892112582E+02	-4.79177285226E+01	-9.19875601595E+01	-5.98640837945E+00	-3.44524206684E-01
3.88765418380E+05	-1.06501816868E+01	-1.77804808659E+02	5.67617975593E+00	-1.79015002878E+02	-5.04624071141E+01	2.77572555996E+01	-5.95889069252E+00	-3.19416935957E-01
4.10956772975E+05	-1.09220082290E+01	-1.74445484428E+02	5.69047909719E+00	-1.79262439515E+02	-4.10625577272E+01	3.29928882609E-01	-5.94925934892E+00	-3.16927510809E-01
4.33148127570E+05	-1.02837199361E+01	-1.69588608301E+02	5.65818728784E+00	-1.79422374167E+02	-4.56309677837E+01	-6.89478206856E+01	-5.97896052747E+00	-4.40224446325E-01
4.55339482165E+05	-9.40672480177E+00	-1.74776086815E+02	5.68288361780E+00	-1.79932900717E+02	-4.07629178004E+01	7.60624367032E+01	-5.98204395179E+00	-3.96872590625E-01
4.77530836760E+05	-9.99605287298E+00	-1.77078650952E+02	5.70250490343E+00	1.79990452594E+02	-4.36233411630E+01	8.64094926981E+01	-5.96279282762E+00	-3.45341569273E-01
4.99722191355E+05	-1.00905589825E+01	-1.75143408228E+02	5.69878954689E+00	1.79810121360E+02	-6.00772366341E+01	2.58720595550E+01	-5.96324557952E+00	-2.79028859403E-01
5.21913545950E+05	-1.29441700244E+01	-1.74969030502E+02	5.66736873469E+00	1.79529379124E+02	-4.69412940564E+01	1.27818922449E+02	-5.98135735876E+00	-2.57403535624E-01
5.44104900545E+05	-1.16047826302E+01	1.78336775712E+02	5.67428171920E+00	1.79177556671E+02	-3.94657411658E+01	1.18163629263E+02	-5.98807536621E+00	-3.10193687270E-01
5.66296255139E+05	-7.38521878612E+00	-1.76896318980E+02	5.70242281522E+00	1.79218955818E+02	-4.03103944352E+01	-9.01059322558E+01	-5.97246048228E+00	-3.80290197647E-01
5.88487609734E+05	-1.12042949573E+01	-1.64872890803E+02	5.69136179522E+00	1.79101866265E+02	-5.48809095316E+01	3.68645211172E+01	-5.95719974527E+00	-6.47787069641E-01
6.10678964329E+05	-9.90699442346E+00	-1.65616966534E+02	5.71133584439E+00	1.79004755451E+02	-4.66276259961E+01	1.53958467769E+02	-5.97321557277E+00	-8.42492937106E-03
6.32870318924E+05	-8.53400936416E+00	-1.76057345920E+02	5.69235593107E+00	1.78835391245E+02	-4.05581478576E+01	1.48942830730E+02	-5.98382012949E+00	-2.93860818645E-01
6.55061673519E+05	-1.14878973082E+01	-1.78912649385E+02	5.65256011872E+00	1.78644344323E+02	-4.67146951462E+01	1.24405972420E+02	-5.97615352461E+00	-1.12789495583E-01
6.77253028114E+05	-9.87701963961E+00	1.74132850549E+02	5.65807091476E+00	1.78316542402E+02	-4.74466144130E+01	-6.71647801866E+01	-5.97164932007E+00	-5.24347650854E-01
6.99444382709E+05	-9.20078236466E+00	1.77217952219E+02	5.71213352907E+00	1.78126158598E+02	-4.01466904443E+01	1.03810489304E+02	-5.97101605056E+00	-5.75173553020E-01
7.21635737304E+05	-9.77717684763E+00	-1.62549324649E+02	5.69118128712E+00	1.78232605989E+02	-6.29536873311E+01	3.65582032471E+01	-5.97100515460E+00	-3.64065781578E-01
7.43827091899E+05	-1.03129513788E+01	-1.79019546414E+02	5.68794847544E+00	1.77970602652E+02	-4.98819825584E+01	-1.16566094747E+02	-5.97931527018E+00	-5.50244601373E-01
7.66018446494E+05	-1.07051086460E+01	-1.69582748258E+02	5.69504864227E+00	1.78013506988E+02	-4.25259035620E+01	1.50144304955E+02	-5.96299430219E+00	-3.30537328110E-01
7.88209801089E+05	-8.53699121605E+00	-1.66112438809E+02	5.68733070270E+00	1.77876023690E+02	-5.00086269930E+01	1.72226446138E+02	-5.99198473764E+00	-5.19989938156E-01
8.10401155684E+05	-1.03778279639E+01	1.70004199005E+02	5.68437274664E+00	1.77607020587E+02	-4.47699701711E+01	-9.52624444998E+01	-5.95541516023E+00	-4.01400465235E-01
8.32592510279E+05	-9.80541676860E+00	-1.75192734882E+02	5.70983600854E+00	1.77460623714E+02	-5.03347551153E+01	-4.24008353388E+01	-5.97033301801E+00	-3.95475337852E-01
8.54783864874E+05	-1.18623588437E+01	-1.74504209171E+02	5.70468389488E+00	1.77409748965E+02	-4.23080731519E+01	1.44801597469E+02	-5.95389025447E+00	-6.67852505884E-01
8.76975219469E+05	-1.07575541088E+01	1.77037048545E+02	5.68804102937E+00	1.77171748356E+02	-5.76008269313E+01	1.62826711558E+02	-5.97871019165E+00	-6.43291453846E-01
8.99166574064E+05	-1.03154455975E+01	1.79415246977E+02	5.67653963076E+00	1.77152945489E+02	-5.07854051921E+01	-1.59398557962E+02	-5.97181256427E+00	-4.89954076682E-01
9.21357928659E+05	-1.08611579572E+01	-1.78639091349E+02	5.69423786891E+00	1.76690999908E+02	-4.22773885763E+01	-7.41365650072E+01	-5.97206337612E+00	-5.05448525213E-01
9.43549283254E+05	-1.06159344381E+01	1.70732806361E+02	5.70315869175E+00	1.76915423999E+02	-5.72600281118E+01	-3.32739273029E+01	-5.97381881188E+00	-5.12481022888E-01
9.65740637849E+05	-8.86435592460E+00	-1.68707606407E+02	5.72344742700E+00	1.76876253980E+02	-4.34084779467E+01	1.42074569869E+02	-5.98500142985E+00	-4.85431425801E-01
9.87931992444E+05	-1.10762898462E+01	1.71156953986E+02	5.71647789966E+00	1.76383740976E+02	-4.20636742104E+01	8.19601942702E+01	-5.96352371534E+00	-6.32868581850E-01
1.01012334704E+06	-1.03076595359E+01	-1.70108995530E+02	5.69959056142E+00	1.76408083085E+02	-7.52039081731E+01	9.06557067247E+01	-5.95909040532E+00	-4.79638402000E-01
1.03231470163E+06	-1.08080616313E+01	-1.66019612206E+02	5.67607816664E+00	1.76456112314E+02	-4.77415144506E+01	-1.01124811553E+02	-5.98031460710E+00	-5.76614138057E-01
1.05450605623E+06	-1.04854443053E+01	-1.66039609784E+02	5.67882735874E+00	1.75823310779E+02	-5.11941564898E+01	-1.08793131047E+02	-5.97824536555E+00	-5.75879961933E-01
1.07669741082E+06	-1.04709167987E+01	1.79101019214E+02	5.70247719261E+00	1.76218208856E+02	-4.65512085379E+01	1.02566097863E+02	-5.95977553968E+00	-5.52411770993E-01
1.09888876542E+06	-9.42521161314E+00	1.74696059257E+02	5.68199392324E+00	1.76002544354E+02	-5.72507676399E+01	2.09498898085E+01	-5.95037553524E+00	-4.94114738403E-01
1.12108012001E+06	-1.01320103522E+01	-1.74740943006E+02	5.65540149256E+00	1.75914666651E+02	-4.30034561612E+01	1.26308141172E+02	-5.97628196988E+00	-6.50235207332E-01
1.14327147461E+06	-9.44315286755E+00	1.77576002449E+02	5.68663789925E+00	1.75701554046E+02	-4.22591156159E+01	1.58104807488E+02	-5.96873339071E+00	-5.03083047786E-01
1.16546282920E+06	-1.15577566953E+01	-1.78220089868E+02	5.68141015183E+00	1.75594978428E+02	-6.59581450159E+01	-1.47659459543E+02	-5.96576264581E+00	-6.60524916050E-01
1.18765418380E+06	-1.16320457457E+01	-1.75484978344E+02	5.70050217013E+00	1.75253111431E+02	-4.13612973626E+01	-4.32732472028E-01	-5.97044868428E+00	-6.18189983269E-01
1.20984553839E+06	-1.33394201580E+01	-1.69948296670E+02	5.67828524841E+00	1.75305879140E+02	-4.74162991600E+01	-1.79176874220E+02	-5.97572595961E+00	-8.78945188607E-01
1.23203689299E+06	-9.16874573704E+00	-1.72078087586E+02	5.70486666324E+00	1.75274633593E+02	-4.11126489235E+01	-1.71484088177E+02	-5.96632890768E+00	-5.30550396629E-01
1.25422824758E+06	-1.05053301836E+01	-1.74336722670E+02	5.74212055263E+00	1.75259716694E+02	-4.46796812567E+01	-2.73420899368E+01	-5.97290627087E+00	-5.95249461450E-01
1.27641960218E+06	-1.06563331259E+01	-1.78652881379E+02	5.63119198921E+00	1.74888205478E+02	-5.14259902327E+01	-1.27313512242E+02	-5.97923640984E+00	-6.65961602597E-01
1.29861095677E+06	-1.14195122820E+01	1.74904474097E+02	5.67866196019E+00	1.74993893965E+02	-5.47373031250E+01	-6.55049859738E+01	-5.96520210126E+00	-7.24977959994E-01
1.32080231137E+06	-8.01177588730E+00	-1.73877186926E+02	5.68451068605E+00	1.74730934829E+02	-4.88687722482E+01	-8.24038957873E+01	-5.99201416278E+00	-1.07100563971E+00
1.34299366596E+06	-9.41529544305E+00	-1.76372633556E+02	5.66078488982E+00	1.74702180502E+02	-4.61570664749E+01	1.19494074422E+02	-5.95179276338E+00	-6.89390138872E-01
1.36518502056E+06	-1.00113164673E+01	-1.75965173568E+02	5.64927118823E+00	1.74334853586E+02	-4.60495868332E+01	1.00211043295E+02	-5.96289856473E+00	-7.46132257638E-01
1.38737637515E+06	-1.03788038927E+01	-1.77399193801E+02	5.67025309000E+00	1.74375258343E+02	-4.46346241863E+01	-2.59396866903E+01	-5.98856188884E+00	-6.81470017692E-01
1.40956772975E+06	-1.17978678461E+01	1.72030656299E+02	5.72099344709E+00	1.73849008157E+02	-5.47359659123E+01	-1.55765660980E+02	-5.95521389387E+00	-6.95780813008E-01
1.43175908434E+06	-9.93049933807E+00	-1.77241366157E+02	5.69871771400E+00	1.73969904251E+02	-4.58275863725E+01	1.74116117010E+02	-5.98106187727E+00	-7.64560025809E-01
1.45395043894E+06	-1.02384386533E+01	1.68904787008E+02	5.64240414109E+00	1.74033383259E+02	-5.92965234150E+01	-1.52442463485E+02	-5.96033564278E+00	-8.55760259419E-01
1.47614179353E+06	-1.06344142488E+01	-1.75275542558E+02	5.67592171094E+00	1.73907066586E+02	-4.41432122927E+01	-2.66038157054E+01	-5.97245757833E+00	-7.90790578017E-01
1.49833314813E+06	-8.70215637431E+00	1.75442778173E+02	5.64908262275E+00	1.73621761525E+02	-4.09026371190E+01	-1.01583341353E+02	-5.96317947672E+00	-8.56159977498E-01
1.52052450272E+06	-1.07310889631E+01	1.75749601600E+02	5.67178857484E+00	1.73621657697E+02	-5.32427151696E+01	-1.24823557081E+02	-5.97807652730E+00	-8.59089909352E-01
1.54271585732E+06	-1.11463476138E+01	1.74275467622E+02	5.70781826657E+00	1.73601994405E+02	-6.31083398862E+01	6.65932578606E+01	-5.96380641498E+00	-7.62020082708E-01
1.56490721191E+06	-1.13887963117E+01	-1.73524030646E+02	5.66918963186E+00	1.73481524603E+02	-4.32665300321E+01	1.44434678582E+02	-5.98009935558E+00	-9.09432126249E-01
1.58709856651E+06	-9.18190069064E+00	1.74049554331E+02	5.65543368506E+00	1.73344984753E+02	-4.62421559516E+01	7.84091423163E+01	-5.96554461405E+00	-8.38051576496E-01
1.60928992110E+06	-1.03226897245E+01	1.75343431330E+02	5.65511972266E+00	1.73118368348E+02	-4.67053552233E+01	-3.39929692538E+01	-5.97560237290E+00	-7.27297190374E-01
1.63148127570E+06	-9.22909906168E+00	-1.78940757962E+02	5.69570580365E+00	1.72842221695E+02	-4.36287515399E+01	-1.41472168936E+01	-5.97860616640E+00	-8.51040583252E-01
1.65367263029E+06	-1.09193120884E+01	1.79845257912E+02	5.71494643504E+00	1.72990285135E+02	-5.55542362423E+01	-1.39133021730E+02	-5.94227262701E+00	-8.35146332242E-01
1.67586398489E+06	-9.57438409415E+00	1.78268972135E+02	5.64590176370E+00	1.72772820101E+02	-4.74873009221E+01	1.32784455946E+02	-5.96596281963E+00	-8.47307964228E-01
1.69805533948E+06	-9.50443866418E+00	-1.72039056910E+02	5.69694766957E+00	1.72623934254E+02	-4.72139714242E+01	1.14153844672E+02	-5.98785843778E+00	-8.28575842627E-01
1.72024669408E+06	-1.15963777592E+01	1.68164944533E+02	5.71615839323E+00	1.72764536320E+02	-4.00649865985E+01	5.49098427065E+01	-5.98746949188E+00	-7.02217419358E-01
1.74243804867E+06	-8.87059880015E+00	-1.76751473717E+02	5.76238701110E+00	1.72749936157E+02	-4.36219718562E+01	-1.60771539204E+02	-5.97749928916E+00	-9.25751407126E-01
1.76462940327E+06	-1.03917154745E+01	-1.76141876988E+02	5.67510943775E+00	1.72699930323E+02	-4.26306393078E+01	-1.69373933276E+02	-5.99514683557E+00	-8.88526455839E-01
1.78682075786E+06	-1.08567890772E+01	1.75422749986E+02	5.65827284538E+00	1.72735641453E+02	-4.97236567779E+01	-1.65967048624E+02	-5.95869686547E+00	-8.42322097698E-01
1.80901211246E+06	-1.13864058483E+01	-1.79998233990E+02	5.66199210934E+00	1.72471931313E+02	-4.29918047881E+01	-1.56160723024E+02	-6.00987275000E+00	-7.72758153764E-01
1.83120346705E+06	-9.19719011057E+00	-1.76219166249E+02	5.71170291781E+00	1.72254040904E+02	-4.53419655118E+01	1.22414495796E+02	-5.97314937411E+00	-9.16883752950E-01
1.85339482165E+06	-9.70943304173E+00	-1.70400171818E+02	5.69274885149E+00	1.72245744463E+02	-4.28408899649E+01	2.34718703384E+01	-5.96349314753E+00	-9.35386413365E-01
1.87558617624E+06	-9.24950810280E+00	-1.79605964545E+02	5.64452420380E+00	1.71967813033E+02	-3.92950800037E+01	7.29384739052E+01	-5.98042223523E+00	-9.53354721132E-01
1.89777753084E+06	-9.79131060099E+00	-1.63392791550E+02	5.71869902983E+00	1.72487043814E+02	-4.11424556834E+01	-1.36300582354E+02	-5.96048271953E+00	-9.24365439309E-01
1.91996888543E+06	-1.11025528835E+01	1.71981031240E+02	5.67685253925E+00	1.72146155940E+02	-4.12242360048E+01	-1.00991941348E+02	-6.01256127114E+00	-8.26760945352E-01
1.94216024003E+06	-9.56980600417E+00	-1.78918877779E+02	5.67756266222E+00	1.71613611479E+02	-4.87789735648E+01	1.60795962204E+02	-5.97074099146E+00	-9.27645338303E-01
1.96435159462E+06	-9.20511373608E+00	-1.69828527600E+02	5.70640720629E+00	1.71772856368E+02	-4.99737270893E+01	9.08660479230E+01	-5.97556172883E+00	-8.12054820967E-01
1.98654294922E+06	-9.10514942269E+00	-1.69217855445E+02	5.69549385357E+00	1.71395600722E+02	-4.42894492108E+01	-9.83059057914E+01	-5.97751931751E+00	-9.39168551145E-01
2.00873430381E+06	-9.59150583533E+00	1.77720256401E+02	5.66614359453E+00	1.71434413076E+02	-4.09937427537E+01	9.08395568262E+01	-5.95073028820E+00	-9.09941769764E-01
2.03092565841E+06	-1.05791881365E+01	1.75881356022E+02	5.70714972699E+00	1.71240181949E+02	-4.87358787522E+01	1.54180148632E+01	-5.97214815128E+00	-7.90654439731E-01
2.05311701300E+06	-1.17086437051E+01	-1.67608570392E+02	5.63115935461E+00	1.71403807694E+02	-5.49861381619E+01	-7.77064772075E+01	-5.94777380035E+00	-1.03669401700E+00
2.07530836760E+06	-1.01122235952E+01	1.77975711624E+02	5.73998936542E+00	1.70980532381E+02	-4.32751452253E+01	-7.64003236756E+01	-5.95860454717E+00	-1.28456195472E+00
2.09749972219E+06	-9.91968607965E+00	1.73187329176E+02	5.63763374391E+00	1.70651940435E+02	-4.87636315028E+01	1.43761584473E+02	-5.97946104642E+00	-1.07591519959E+00
2.11969107679E+06	-1.03800596897E+01	-1.76442109901E+02	5.72552072476E+00	1.70693647996E+02	-5.37380098276E+01	1.47630938264E+02	-5.96273415475E+00	-9.36056880637E-01
2.14188243138E+06	-1.07584043618E+01	1.69639480727E+02	5.68513446511E+00	1.70487338542E+02	-4.45178097314E+01	-1.78726984071E+02	-5.98449656529E+00	-1.08942753015E+00
2.16407378598E+06	-9.22706077528E+00	1.76451858906E+02	5.72866745915E+00	1.70583949139E+02	-3.76021225961E+01	-4.07251049795E+01	-5.95654325042E+00	-1.00851707706E+00
2.18626514057E+06	-7.95559488180E+00	-1.75996296820E+02	5.63770294231E+00	1.70454747098E+02	-4.32028444088E+01	1.39602507421E+02	-6.00181001768E+00	-9.63851659874E-01
2.20845649517E+06	-1.05872076898E+01	-1.79655693871E+02	5.71413147581E+00	1.70789876143E+02	-4.45090274260E+01	5.84961096001E+01	-5.96606283453E+00	-1.11482757119E+00
2.23064784976E+06	-9.08488047367E+00	1.79905335375E+02	5.67287988744E+00	1.70240661442E+02	-4.76104364807E+01	-1.33765309742E+02	-5.93170352334E+00	-1.21075754816E+00
2.25283920436E+06	-1.23552046111E+01	1.74380135448E+02	5.73295285709E+00	1.70169297347E+02	-4.79272147178E+01	1.50377016579E+02	-5.97350996523E+00	-1.06450483486E+00
2.27503055895E+06	-7.99301600581E+00	-1.73529361057E+02	5.73550235486E+00	1.70038869694E+02	-4.28495278480E+01	2.86457606062E+01	-5.96291361047E+00	-1.01442106199E+00
2.29722191355E+06	-9.74193456014E+00	-1.66682812062E+02	5.70202922221E+00	1.69979290059E+02	-4.51156194666E+01	4.94078147769E+01	-5.95448635153E+00	-9.95575317649E-01
2.31941326814E+06	-1.10554300244E+01	-1.78827098993E+02	5.65120210731E+00	1.69901379264E+02	-4.05514346348E+01	1.61563353144E+02	-5.95662941312E+00	-1.01420843716E+00
2.34160462274E+06	-9.20383985700E+00	1.55720645289E+02	5.63086968988E+00	1.69501663913E+02	-4.28624146775E+01	-4.93742329733E+01	-5.97276617731E+00	-9.96592147156E-01
2.36379597733E+06	-1.04176699588E+01	-1.78258118969E+02	5.66912550012E+00	1.69783907297E+02	-4.39965263471E+01	-9.27687926286E+01	-5.96739005945E+00	-1.14693966246E+00
2.38598733193E+06	-1.01696273145E+01	1.71043913904E+02	5.66289917738E+00	1.69481256961E+02	-4.42811840585E+01	1.22777927866E+02	-5.97334067075E+00	-1.14648568970E+00
2.40817868652E+06	-9.16886831041E+00	-1.68900598067E+02	5.69051581907E+00	1.69640448084E+02	-4.82935995913E+01	1.21727151151E+02	-5.97877130017E+00	-1.14923655790E+00
2.43037004112E+06	-1.05823841982E+01	-1.66124195238E+02	5.65961027921E+00	1.69041025802E+02	-4.48557911309E+01	-7.55015954593E+01	-5.98303959125E+00	-1.36096579791E+00
2.45256139571E+06	-1.11765681013E+01	-1.77235287903E+02	5.70422472589E+00	1.69310459082E+02	-6.21741850382E+01	7.05722585051E+01	-5.97012639262E+00	-9.93083979618E-01
2.47475275031E+06	-9.49985626148E+00	1.74629263363E+02	5.70630837167E+00	1.69350771278E+02	-4.39772903263E+01	-6.98610133776E+01	-5.94815186575E+00	-1.10507114571E+00
2.49694410490E+06	-1.02832676161E+01	-1.79851314623E+02	5.69266764778E+00	1.68914735537E+02	-4.47714360396E+01	-1.36574665752E+02	-5.97096603838E+00	-1.06135933148E+00
2.51913545950E+06	-9.78298745723E+00	1.75007099823E+02	5.71156385282E+00	1.68776420065E+02	-4.27301204455E+01	-2.32525912064E+01	-5.98948317037E+00	-1.27126286610E+00
2.54132681409E+06	-1.05365855204E+01	1.77214302276E+02	5.63074506230E+00	1.68631788511E+02	-3.96820831556E+01	1.31541982515E+01	-5.96013563647E+00	-1.13092697684E+00
2.56351816869E+06	-1.23479997379E+01	1.76341494820E+02	5.73295285278E+00	1.68748192722E+02	-5.01228070728E+01	-6.08713767744E+01	-5.98585879516E+00	-1.30913051652E+00
2.58570952328E+06	-9.54783964216E+00	1.79221535876E+02	5.68317217493E+00	1.68695854839E+02	-4.85642454448E+01	-6.61618963224E+00	-5.96795296852E+00	-1.15589447477E+00
2.60790087788E+06	-9.62390485482E+00	1.78153816990E+02	5.70285176689E+00	1.68556125240E+02	-4.99756180354E+01	-4.29394243828E+01	-5.99590219612E+00	-1.23660580635E+00
2.63009223247E+06	-1.15196595897E+01	-1.79832147611E+02	5.64626970700E+00	1.68596910734E+02	-5.04875921949E+01	-1.00118145545E+02	-5.98052675684E+00	-1.10664302375E+00
2.65228358707E+06	-9.00662233587E+00	1.79901486617E+02	5.74332466279E+00	1.68458201473E+02	-4.38123088231E+01	-1.83910220210E+01	-5.96389012442E+00	-1.61944323083E+00
2.67447494166E+06	-8.44495101726E+00	-1.65470532947E+02	5.69549612784E+00	1.67981604361E+02	-4.20817478649E+01	1.07862164421E+02	-5.97302264004E+00	-1.41394859485E+00
2.69666629626E+06	-1.05225409837E+01	-1.74866870859E+02	5.66266401173E+00	1.68202409094E+02	-4.42388324342E+01	-7.71630421580E+01	-5.96497854822E+00	-1.15018516093E+00
2.71885765085E+06	-1.14803397997E+01	1.73542547712E+02	5.68343719333E+00	1.67903169581E+02	-4.68151577856E+01	3.48424965634E+01	-5.98181928969E+00	-1.31958526990E+00
2.74104900545E+06	-1.05148766340E+01	-1.77831077053E+02	5.65501563086E+00	1.68444352613E+02	-4.92771525580E+01	-4.76625309483E+01	-5.95472667995E+00	-1.48482445103E+00
2.76324036004E+06	-7.82488176628E+00	1.78322677043E+02	5.67053825585E+00	1.67503369184E+02	-4.12861289682E+01	-1.52805027814E+02	-5.96041817192E+00	-1.16189081991E+00
2.78543171463E+06	-1.10904967232E+01	1.76440339735E+02	5.66311590714E+00	1.67990700842E+02	-4.32188842254E+01	-1.20936072595E+02	-5.94097534576E+00	-1.36201472004E+00
2.80762306923E+06	-9.48565171723E+00	-1.73010421223E+02	5.68445209333E+00	1.67843002475E+02	-4.82478661947E+01	-6.82362185911E+01	-5.94358719497E+00	-1.21829524067E+00
2.82981442382E+06	-1.15394765224E+01	-1.71289835975E+02	5.69187015988E+00	1.67659976115E+02	-4.14263202235E+01	8.23645021640E+01	-5.94888898005E+00	-1.21544579486E+00
2.85200577842E+06	-8.45811943914E+00	1.79281471008E+02	5.67910874258E+00	1.67526719937E+02	-4.96094847645E+01	1.39122100666E+02	-5.95811495456E+00	-1.20137799984E+00
2.87419713301E+06	-9.70601431260E+00	1.73465024853E+02	5.67270425576E+00	1.67246891149E+02	-5.70179076138E+01	4.19566692828E+01	-5.96624396224E+00	-1.22687607451E+00
