# Hz S DB R 50
! CMT, M5065, 19127446, 24.2.4/2
! Date: 10/29/2024 12:36:31 PM
! Data: Format (Calibration Info)
! Freq	S11:dB/Ang(F2)	S21:dB/Ang(F2)	S12:dB/Ang(F2)	S22:dB/Ang(F2)
3.00000000000E+05	-1.17661021117E+01	1.74936494730E+02	1.25017024483E+01	-1.78269486998E+02	-4.21246749888E+01	1.64626305063E+02	-5.95340803363E+00	-1.87394975624E-01
3.22191354595E+05	-1.21559377401E+01	-1.73454690573E+02	1.25161952905E+01	-1.78346521956E+02	-5.04576426282E+01	1.35409544158E+02	-5.98393642649E+00	-3.58841085742E-01
3.44382709190E+05	-1.11644477114E+01	1.63454688850E+02	1.25463294134E+01	-1.78993834081E+02	-4.71913797220E+01	1.32247270428E+02	-5.92459868420E+00	-3.79119249755E-01
3.66574063785E+05	-9.12413405478E+00	1.72299497213E+02	1.24919159088E+01	-1.79239323794E+02	-3.96859423988E+01	7.90927988204E+01	-5.96749968595E+00	-2.26792194279E-01
3.88765418380E+05	-9.21731931635E+00	-1.74383449393E+02	1.25278380977E+01	-1.79214781812E+02	-4.40031107414E+01	-1.65178655164E+02	-5.98924254878E+00	-1.90009759279E-01
4.10956772975E+05	-7.49042315784E+00	-1.64884615048E+02	1.25546364052E+01	1.79916483772E+02	-4.66453249163E+01	-3.82998875181E+01	-6.01852393517E+00	-3.07338110468E-01
4.33148127570E+05	-7.48441796125E+00	1.70132313360E+02	1.25401546177E+01	-1.79950047028E+02	-3.87433440894E+01	-5.92208483515E+01	-5.96122415596E+00	-3.24477218763E-01
4.55339482165E+05	-6.93687627833E+00	1.66539991845E+02	1.25739278213E+01	1.79193182631E+02	-5.16288608610E+01	1.12819771805E+02	-5.94405610175E+00	-2.49103962187E-01
4.77530836760E+05	-9.12153789619E+00	1.75861569602E+02	1.24972867234E+01	1.79338101184E+02	-4.13461060044E+01	4.93597609586E+01	-5.96786174815E+00	-2.30061052395E-01
4.99722191355E+05	-1.12971138977E+01	-1.57625660242E+02	1.25346313313E+01	1.79092133891E+02	-3.83227795478E+01	-9.55392649216E+01	-5.99257703322E+00	-2.92745543205E-01
5.21913545950E+05	-8.21615459705E+00	1.70630092235E+02	1.25525235203E+01	1.78983419212E+02	-3.60154593300E+01	1.20610268797E+02	-5.96859785442E+00	-2.98774918185E-01
5.44104900545E+05	-9.20278763526E+00	1.79004205152E+02	1.25094426707E+01	1.78635633501E+02	-4.13638297978E+01	-1.11082073384E+02	-5.95337019565E+00	-6.08426556627E-01
5.66296255139E+05	-7.41160921385E+00	1.72164604479E+02	1.25122229346E+01	1.78493951228E+02	-3.72661118260E+01	2.27486070028E+01	-6.00900631278E+00	-8.20506504864E-02
5.88487609734E+05	-9.51498175611E+00	1.61029763656E+02	1.25327663323E+01	1.78161220083E+02	-4.43069098963E+01	-1.29174072183E+02	-5.97030240691E+00	-5.67123640018E-01
6.10678964329E+05	-6.01858589169E+00	-1.79232332958E+02	1.25521376583E+01	1.77966965401E+02	-4.25149788026E+01	8.47346880351E+01	-5.95677945091E+00	-9.35392970501E-02
6.32870318924E+05	-1.37568242818E+01	-1.70583868995E+02	1.25691913037E+01	1.77550180956E+02	-4.35457287932E+01	-7.68324390396E+01	-5.92208125679E+00	-5.72157031515E-01
6.55061673519E+05	-1.21526679824E+01	-1.68224324976E+02	1.24901136588E+01	1.77223944654E+02	-4.00179032998E+01	2.56297127314E+01	-6.00404727140E+00	-2.00943415243E-01
6.77253028114E+05	-5.12491672878E+00	1.79059878604E+02	1.25943727871E+01	1.77549629791E+02	-3.58824007614E+01	1.74439527662E+02	-6.00392976738E+00	-4.80010511440E-01
6.99444382709E+05	-1.00827162461E+01	-1.65681862783E+02	1.25944113476E+01	1.77123779740E+02	-4.80656806893E+01	-1.11349043289E+02	-6.00618273378E+00	-2.15138693704E-01
7.21635737304E+05	-8.89466047027E+00	-1.65347310574E+02	1.25092569994E+01	1.77153786179E+02	-4.12017888393E+01	8.29602503848E+01	-5.97989949325E+00	-5.13219137738E-01
7.43827091899E+05	-8.72209017619E+00	-1.47284832702E+02	1.25367023379E+01	1.76814738637E+02	-4.43511232480E+01	-1.20345709733E+02	-6.00047428667E+00	-6.01530855935E-01
7.66018446494E+05	-8.86476358471E+00	1.78591600705E+02	1.25448676963E+01	1.76814149396E+02	-4.15600793826E+01	-7.92288081469E+01	-6.00573742061E+00	-5.54444516193E-01
7.88209801089E+05	-1.09425475597E+01	-1.71405745807E+02	1.25146315157E+01	1.76326587511E+02	-5.00920724443E+01	6.25738966360E+01	-5.96760224903E+00	-6.10257971573E-01
8.10401155684E+05	-1.00548454373E+01	-1.63306197146E+02	1.25605626956E+01	1.76199036835E+02	-4.27549308306E+01	-6.31929685519E+00	-5.97851575887E+00	-9.59221525541E-01
8.32592510279E+05	-1.94589804883E+01	1.76434099008E+02	1.25303827481E+01	1.76004233235E+02	-3.89762981013E+01	1.54417905878E+02	-5.98289532505E+00	2.29857165108E-01
8.54783864874E+05	-8.31123142276E+00	-1.77315015161E+02	1.25130605140E+01	1.75697417678E+02	-4.55429508832E+01	1.60569061503E+02	-6.00477132580E+00	-4.32397389878E-01
8.76975219469E+05	-1.09584574970E+01	-1.68682113362E+02	1.25162251069E+01	1.75367908734E+02	-3.92804846101E+01	8.21576863097E+01	-5.98230086546E+00	-6.94533128847E-01
8.99166574064E+05	-1.22677842103E+01	-1.71017205352E+02	1.25713175880E+01	1.75435508823E+02	-3.84415383874E+01	-1.55799330284E+02	-5.98628659943E+00	-5.57319858312E-01
9.21357928659E+05	-9.93442964744E+00	1.76886898197E+02	1.25283811957E+01	1.75274060692E+02	-3.24080402451E+01	1.08876524912E+02	-5.94274542173E+00	-3.97746613321E-01
9.43549283254E+05	-1.17851937689E+01	-1.62872644379E+02	1.26049637731E+01	1.75343679109E+02	-4.88285643272E+01	4.51517981887E+01	-5.95301963150E+00	-6.21333192726E-01
9.65740637849E+05	-1.49647521802E+01	-1.32946834453E+02	1.25411753787E+01	1.75142903463E+02	-4.05349561468E+01	-1.52557715063E+02	-5.96541633828E+00	-5.61683519371E-01
9.87931992444E+05	-9.04644215787E+00	-1.77846405011E+02	1.25391893870E+01	1.74430673459E+02	-4.14790247370E+01	-8.42876091651E+01	-5.96326785806E+00	-3.93609949085E-01
1.01012334704E+06	-1.24235964289E+01	1.68566392542E+02	1.26192280750E+01	1.74640944142E+02	-4.54446730971E+01	2.39328328624E+01	-5.95902946972E+00	-5.67248967366E-01
1.03231470163E+06	-8.54398639560E+00	-1.75402330408E+02	1.25314057012E+01	1.74667072930E+02	-4.89582025293E+01	1.04056827164E+02	-5.98379338641E+00	-5.94237527505E-01
1.05450605623E+06	-1.24830509589E+01	1.77799775088E+02	1.25585933984E+01	1.74480553396E+02	-3.69548918367E+01	6.46046466188E+01	-5.91998058799E+00	-5.97388264083E-01
1.07669741082E+06	-9.47501764019E+00	1.74762962856E+02	1.25675516044E+01	1.74307643715E+02	-6.41543800180E+01	-1.17124096697E+02	-5.99899409391E+00	-6.78883838892E-01
1.09888876542E+06	-9.68818282198E+00	-1.74362975734E+02	1.25174129793E+01	1.73690579651E+02	-3.60782954946E+01	2.67441135503E+01	-5.96250094201E+00	-7.54591954924E-01
1.12108012001E+06	-1.35729744163E+01	-1.79113643532E+02	1.25002224895E+01	1.73966155479E+02	-4.19400676223E+01	1.59328203220E+02	-5.99776761516E+00	-4.76324330151E-01
1.14327147461E+06	-1.04573174996E+01	1.69717323779E+02	1.25224283186E+01	1.73529069630E+02	-3.88054053276E+01	1.73831052293E+02	-6.02867674919E+00	-5.20927191981E-01
1.16546282920E+06	-9.27733691034E+00	-1.74091874254E+02	1.25109873019E+01	1.73580781761E+02	-3.91432163388E+01	4.69650459620E+00	-5.96573223011E+00	-8.87753036201E-01
1.18765418380E+06	-7.31136940101E+00	1.67757517991E+02	1.25644097554E+01	1.73221902195E+02	-4.09179617393E+01	-6.82216991227E+01	-5.91921892999E+00	-6.06359778601E-01
1.20984553839E+06	-8.62063339407E+00	-1.67849502526E+02	1.25293197022E+01	1.73486426006E+02	-4.87908533605E+01	1.66343338285E+02	-5.98598354318E+00	-6.66385561234E-01
1.23203689299E+06	-1.12385592593E+01	1.53104194661E+02	1.25549055232E+01	1.72998099523E+02	-3.89308888843E+01	-7.95802899991E+01	-6.00266499525E+00	-7.43624010871E-01
1.25422824758E+06	-1.21167168727E+01	-1.67146685820E+02	1.25316268668E+01	1.73101678847E+02	-4.52475362373E+01	1.53712073308E+02	-5.99135898817E+00	-7.45221805108E-01
1.27641960218E+06	-1.23054628032E+01	-1.78827862966E+02	1.25564042968E+01	1.72824846767E+02	-4.64344341848E+01	-1.00346228093E+02	-5.99841393091E+00	-8.76301008484E-01
1.29861095677E+06	-1.29037167651E+01	-1.70633613372E+02	1.25205071681E+01	1.72612532582E+02	-6.28912994192E+01	7.57531697269E+01	-5.98982731718E+00	-4.39348586667E-01
1.32080231137E+06	-1.23222896246E+01	-1.72332702251E+02	1.25502801590E+01	1.72401869655E+02	-3.73913755942E+01	-1.43663866368E+02	-5.97748615105E+00	-1.02832799495E+00
1.34299366596E+06	-8.38630464769E+00	-1.66149984913E+02	1.25401486993E+01	1.72140389641E+02	-3.58813726071E+01	8.77030661443E+01	-6.02858924485E+00	-8.61768773207E-01
1.36518502056E+06	-1.33000046507E+01	1.69866678679E+02	1.25281452516E+01	1.71977928933E+02	-4.09883038376E+01	7.15833164712E+01	-5.95158798237E+00	-7.37500348636E-01
1.38737637515E+06	-1.40998160195E+01	-1.69903861345E+02	1.25845139902E+01	1.71945993930E+02	-3.76141515711E+01	1.66936262430E+02	-5.96158832750E+00	-8.66965789088E-01
1.40956772975E+06	-1.27227219713E+01	-1.59530169360E+02	1.25384148204E+01	1.71728608890E+02	-4.53773724630E+01	1.54178222319E+02	-6.00444133531E+00	-8.11592709513E-01
1.43175908434E+06	-8.73172934527E+00	1.76209086832E+02	1.25481400765E+01	1.71783069039E+02	-3.83012251451E+01	1.00551181841E+02	-5.94292213547E+00	-6.69165165877E-01
1.45395043894E+06	-1.03120175870E+01	1.68490417969E+02	1.25606637452E+01	1.71667524101E+02	-3.53727769939E+01	2.67599095929E+01	-5.94300582284E+00	-2.04878384747E-01
1.47614179353E+06	-1.11577013970E+01	1.79871770228E+02	1.25377611378E+01	1.71156401336E+02	-5.11500497281E+01	4.95000707390E+01	-5.96637710480E+00	-1.07705378811E+00
1.49833314813E+06	-9.78955254701E+00	1.61567510212E+02	1.25436641360E+01	1.71271899666E+02	-3.46082331643E+01	-8.98834992031E+01	-5.97502822304E+00	-1.00195294940E+00
1.52052450272E+06	-7.52997151348E+00	1.77285976547E+02	1.25128223241E+01	1.71090583887E+02	-3.78073551010E+01	-5.86905903400E+01	-5.96618432217E+00	-6.79442963016E-01
1.54271585732E+06	-1.07646716494E+01	-1.77018420355E+02	1.25140225144E+01	1.70942511815E+02	-4.66623774867E+01	1.24799282082E+02	-5.94923484419E+00	-7.70546150833E-01
1.56490721191E+06	-9.96969062064E+00	1.72422117197E+02	1.25655490746E+01	1.70954994219E+02	-5.39564754341E+01	-9.32084764071E+01	-5.94424047796E+00	-4.78048375141E-01
1.58709856651E+06	-8.79934993965E+00	-1.59799873737E+02	1.25461672616E+01	1.70584083720E+02	-3.91459269442E+01	-2.93088059429E+01	-5.93644537795E+00	-9.33995235690E-01
1.60928992110E+06	-1.18036927856E+01	-1.77843607944E+02	1.25319219283E+01	1.70258917818E+02	-5.45011808565E+01	1.44436346287E+02	-5.95919236269E+00	-7.35202662579E-01
1.63148127570E+06	-8.89914880374E+00	-1.77368441942E+02	1.24912515102E+01	1.70535951034E+02	-3.47750950514E+01	1.65181372950E+02	-6.00704554645E+00	-7.05465816915E-01
1.65367263029E+06	-1.10807597512E+01	1.60842387965E+02	1.25380094950E+01	1.69614410949E+02	-3.57300018867E+01	-1.63741645239E+02	-6.01930422004E+00	-8.63556404634E-01
1.67586398489E+06	-1.13899474481E+01	1.59805081915E+02	1.25705215574E+01	1.69864315006E+02	-3.22209229154E+01	-9.34358477341E+01	-6.01890277363E+00	-7.20022442216E-01
1.69805533948E+06	-8.88514613281E+00	-1.64952265052E+02	1.25948433880E+01	1.69650559773E+02	-3.65273521862E+01	4.99931552320E+01	-5.98432865904E+00	-6.39283183085E-01
1.72024669408E+06	-1.00811006637E+01	-1.46989173310E+02	1.26422085619E+01	1.69899680895E+02	-5.34968573591E+01	-6.22277564484E+01	-5.96447746676E+00	-9.35015740514E-01
1.74243804867E+06	-1.06479763470E+01	-1.67661398551E+02	1.25520367145E+01	1.69157817984E+02	-3.54198635418E+01	1.62042557862E+02	-5.93813587364E+00	-1.19341849859E+00
1.76462940327E+06	-8.82735414374E+00	-1.72946068916E+02	1.25283050132E+01	1.69329977065E+02	-3.40128186184E+01	-1.05229790427E+02	-6.01777236561E+00	-1.68780428076E+00
1.78682075786E+06	-8.74565084198E+00	-1.59442105873E+02	1.25676224298E+01	1.69196002775E+02	-4.15377844845E+01	-1.19382919640E+02	-5.95159939705E+00	-6.38328995634E-01
1.80901211246E+06	-9.88064643808E+00	-1.77022781430E+02	1.25729860128E+01	1.69094779366E+02	-6.29679583951E+01	-7.61471571173E+01	-5.96679084675E+00	-8.28661531125E-01
1.83120346705E+06	-1.00558962034E+01	-1.72754326546E+02	1.25010236274E+01	1.68892845121E+02	-5.66403862875E+01	-4.16106651748E+01	-5.94948387832E+00	-9.42399880095E-01
1.85339482165E+06	-1.15303659273E+01	1.67132755500E+02	1.25051794688E+01	1.68898224671E+02	-4.36638448878E+01	1.68710893507E+01	-6.00145709824E+00	-6.62602008329E-01
1.87558617624E+06	-1.44800492565E+01	1.70527762818E+02	1.24916675112E+01	1.68472059975E+02	-3.76389594767E+01	-1.65106962462E+02	-5.99128021110E+00	-7.78221362388E-01
1.89777753084E+06	-7.54179348327E+00	1.73594469715E+02	1.25075937845E+01	1.68654050490E+02	-4.56125451627E+01	1.37924932131E+02	-5.98152564006E+00	-1.06914393391E+00
1.91996888543E+06	-7.88295482887E+00	1.67586635522E+02	1.26097218286E+01	1.68203925190E+02	-3.99026838549E+01	1.74429889572E+02	-6.08823699443E+00	-3.06292455902E-01
1.94216024003E+06	-8.34318242902E+00	1.75438576807E+02	1.25336837424E+01	1.68104719717E+02	-3.62913692707E+01	-1.62852257262E+02	-5.95701410348E+00	-1.06239827576E+00
1.96435159462E+06	-1.31841759131E+01	1.69399412654E+02	1.24977407520E+01	1.67973231662E+02	-3.47482834703E+01	-1.12060417854E+02	-5.99534316282E+00	-6.59341659973E-01
1.98654294922E+06	-8.11216411874E+00	-1.65227702252E+02	1.25262007888E+01	1.67873122311E+02	-3.34698245159E+01	2.70112819796E+01	-5.98285199979E+00	-1.08654030912E+00
2.00873430381E+06	-7.28328767002E+00	-1.79200219787E+02	1.24992213483E+01	1.67824539614E+02	-4.69860738773E+01	-5.95395380600E+01	-5.97004656088E+00	-9.10406431700E-01
2.03092565841E+06	-9.81307677668E+00	-1.43414440113E+02	1.26098877812E+01	1.68977140188E+02	-4.03921460077E+01	1.22841036583E+02	-5.98213239875E+00	-1.09007001737E+00
2.05311701300E+06	-8.60462870125E+00	-1.74181558649E+02	1.25040854300E+01	1.67293746276E+02	-3.75643843022E+01	-7.87177818883E+00	-5.95372842522E+00	-1.40327109111E+00
2.07530836760E+06	-1.01305429124E+01	1.79914915409E+02	1.25553581293E+01	1.67381091091E+02	-3.91805573636E+01	-8.95145945349E+01	-6.03424790810E+00	-1.03072950524E+00
2.09749972219E+06	-9.34863195106E+00	-1.64403875935E+02	1.25536214995E+01	1.67106964312E+02	-3.80672675704E+01	1.23866256857E+02	-5.94447289580E+00	-8.69291250455E-01
2.11969107679E+06	-1.00700726077E+01	-1.79142935892E+02	1.25849755693E+01	1.66920312250E+02	-4.04913924448E+01	-4.51855037055E+00	-5.95441455600E+00	-1.24969164862E+00
2.14188243138E+06	-1.14249355841E+01	1.66136913825E+02	1.25261402602E+01	1.66968408925E+02	-4.26121638733E+01	-1.27988968817E+01	-5.95656732881E+00	-1.03989443634E+00
2.16407378598E+06	-1.07001839370E+01	1.70861627292E+02	1.25211920099E+01	1.66490434608E+02	-4.20900834986E+01	-1.36242891137E+02	-5.97546886756E+00	-9.09474152012E-01
2.18626514057E+06	-5.49760976941E+00	-1.62905504840E+02	1.26806413977E+01	1.66454427445E+02	-4.30064058812E+01	3.88402557663E+01	-5.97791528416E+00	-1.09912373938E+00
2.20845649517E+06	-7.63534701434E+00	-1.74523621236E+02	1.25078387589E+01	1.66428643789E+02	-3.70750191821E+01	-1.77998417428E+02	-6.00981049414E+00	-1.23576423122E+00
2.23064784976E+06	-8.08235041970E+00	-1.79591308834E+02	1.25480168053E+01	1.66262433122E+02	-4.49533026838E+01	6.65222782397E+01	-5.95682428535E+00	-1.36348500260E+00
2.25283920436E+06	-9.75942479321E+00	-1.67997849243E+02	1.25817919787E+01	1.66131015246E+02	-4.75086238619E+01	-2.54343665232E+01	-5.96649603043E+00	-1.09020362983E+00
2.27503055895E+06	-8.58990055135E+00	1.71862113190E+02	1.25263908529E+01	1.65998261783E+02	-4.28190267583E+01	7.42903093734E+01	-5.98025450670E+00	-1.20138550066E+00
2.29722191355E+06	-6.30524471405E+00	-1.78947929559E+02	1.26122769110E+01	1.65958710166E+02	-4.50166630560E+01	-1.21925362121E+02	-5.96493161522E+00	-9.33375556841E-01
2.31941326814E+06	-1.17178234646E+01	1.63628001299E+02	1.25162022462E+01	1.65692896317E+02	-3.54377724350E+01	1.51831732671E+02	-5.96904074567E+00	-1.22232445410E+00
2.34160462274E+06	-1.09052474960E+01	-1.43854938112E+02	1.25212440394E+01	1.65625664775E+02	-4.16518125200E+01	3.34850970090E+01	-5.98416101813E+00	-1.12957296248E+00
2.36379597733E+06	-1.04578703173E+01	1.69881573311E+02	1.25254588710E+01	1.65147044476E+02	-4.30711391492E+01	-1.53258453681E+02	-5.97387307351E+00	-9.13012300095E-01
2.38598733193E+06	-1.21522615858E+01	1.78650209772E+02	1.25421951150E+01	1.65076980395E+02	-4.62820761832E+01	9.26083478165E+01	-6.04014404242E+00	-1.36369937159E+00
2.40817868652E+06	-8.36200558743E+00	-1.78362338334E+02	1.25002179049E+01	1.64916555294E+02	-4.39554755555E+01	-1.52202300013E+02	-5.95540900390E+00	-1.10292824411E+00
2.43037004112E+06	-8.67852747107E+00	1.75738040772E+02	1.25173299317E+01	1.65073232777E+02	-3.69481228573E+01	-9.78098991392E+01	-5.97443774731E+00	-1.30443464825E+00
2.45256139571E+06	-9.10493993278E+00	1.59589006040E+02	1.25179936008E+01	1.65135691922E+02	-3.62350632138E+01	-5.14631898371E+00	-6.00062245089E+00	-9.82613993536E-01
2.47475275031E+06	-9.92601522362E+00	1.63043382035E+02	1.24851979714E+01	1.64731089477E+02	-4.52785058289E+01	1.48915551390E+02	-5.94786744686E+00	-8.53804318598E-01
2.49694410490E+06	-9.12879910173E+00	1.62717844099E+02	1.25253223410E+01	1.64148211713E+02	-5.69447604770E+01	-1.50050578225E+02	-6.02598674020E+00	-1.17082267328E+00
2.51913545950E+06	-1.05778442936E+01	1.66348071291E+02	1.25585306477E+01	1.64535650976E+02	-4.09863884492E+01	-8.59455343207E+01	-6.01246060808E+00	-9.41379642150E-01
2.54132681409E+06	-6.43556265236E+00	-1.73912225675E+02	1.25149213426E+01	1.64298445853E+02	-4.05324640252E+01	6.93233189835E+01	-5.97787397189E+00	-1.17517485878E+00
2.56351816869E+06	-9.65461147072E+00	-1.63111612415E+02	1.25322479507E+01	1.64438819377E+02	-3.81651395774E+01	5.43981216771E+00	-5.99671233806E+00	-1.10879206863E+00
2.58570952328E+06	-1.44792563115E+01	1.62186603368E+02	1.25577581421E+01	1.63976097555E+02	-3.60553234940E+01	1.35316688025E+02	-5.99784978636E+00	-1.09695825014E+00
2.60790087788E+06	-1.11838700245E+01	1.52140184901E+02	1.24883216432E+01	1.63653787593E+02	-4.38641388993E+01	6.71173794531E+01	-5.95814802065E+00	-1.26201146932E+00
2.63009223247E+06	-1.09283664541E+01	-1.76321862970E+02	1.25266117128E+01	1.63796102064E+02	-3.78193657055E+01	-1.07748400798E+02	-6.00207005056E+00	-1.33554173282E+00
2.65228358707E+06	-1.17352314372E+01	-1.75387825535E+02	1.25572596626E+01	1.63483478412E+02	-4.34043758838E+01	1.61616956951E+01	-5.99294742837E+00	-1.59003632868E+00
2.67447494166E+06	-6.25781794732E+00	-1.76512773158E+02	1.25132669199E+01	1.63283920526E+02	-3.99817698866E+01	-4.63947084854E+01	-5.98303160346E+00	-1.10483863113E+00
2.69666629626E+06	-8.07827472077E+00	-1.69960304523E+02	1.25694170249E+01	1.63081588889E+02	-3.94831219306E+01	1.52588092027E+02	-5.99126916334E+00	-1.23550797940E+00
2.71885765085E+06	-1.33196293212E+01	1.60351793103E+02	1.25068309887E+01	1.63327128699E+02	-4.04315606981E+01	1.26576588754E+02	-5.92259676875E+00	-1.07500509075E+00
2.74104900545E+06	-8.57982642908E+00	1.79503523563E+02	1.25072346737E+01	1.62956801225E+02	-3.91826897458E+01	-1.49737904854E+02	-5.97276728378E+00	-1.19548035755E+00
2.76324036004E+06	-9.93344870120E+00	1.77685846971E+02	1.25111973428E+01	1.62727347995E+02	-4.81941607552E+01	1.33980594854E+02	-5.99565345407E+00	-9.99773144426E-01
2.78543171463E+06	-1.49027168344E+01	-1.79594647693E+02	1.25505630949E+01	1.62885910979E+02	-3.45491335750E+01	1.25884528939E+02	-5.96845354303E+00	-1.30954214285E+00
2.80762306923E+06	-1.24789947913E+01	1.74120289170E+02	1.24743415215E+01	1.62965019036E+02	-3.73281776378E+01	1.34198908076E+01	-5.95830523987E+00	-1.61766221063E+00
2.82981442382E+06	-1.09606078682E+01	-1.79101541834E+02	1.25525846768E+01	1.62465086391E+02	-3.58021119888E+01	1.49282122084E+02	-5.91660710786E+00	-1.36630123774E+00
2.85200577842E+06	-7.34200026070E+00	-1.62105534101E+02	1.25030255047E+01	1.62316492374E+02	-3.73577781329E+01	1.14763334717E+02	-5.98064297586E+00	-1.59386085488E+00
2.87419713301E+06	-1.01075835454E+01	1.69605963420E+02	1.24927549161E+01	1.62094270334E+02	-4.27657558483E+01	6.92791594612E+01	-5.96037701409E+00	-1.44518908472E+00
