# Hz S DB R 50
! CMT, M5065, 19127446, 24.2.4/2
! Date: 10/29/2024 12:54:17 PM
! Data: Format (Calibration Info)
! Freq	S11:dB/Ang(F2)	S21:dB/Ang(F2)	S12:dB/Ang(F2)	S22:dB/Ang(F2)
3.00000000000E+05	-1.04062972691E+01	1.77322549213E+02	3.53599337386E+01	-1.75946025110E+02	-4.06305134059E+01	-1.68367116374E+02	-5.92848830665E+00	-1.10861049055E+00
3.22191354595E+05	-1.47268530760E+01	-1.57200653765E+02	3.53344398250E+01	-1.78428850055E+02	-3.74584472991E+01	3.36332778465E+01	-5.89522877378E+00	-7.01841568874E-02
3.44382709190E+05	-1.35886274537E+01	-1.67867684938E+02	3.53182998766E+01	1.79418774081E+02	-3.84395451039E+01	3.86360006477E+01	-5.99537320976E+00	6.48064874035E-01
3.66574063785E+05	-9.15169998920E+00	1.71177949488E+02	3.53407067742E+01	1.77043666609E+02	-4.11391469515E+01	-1.70200825335E+02	-5.93056519223E+00	-1.39706461191E+00
3.88765418380E+05	-1.03749196801E+01	1.78406678110E+02	3.52901037639E+01	1.75355377519E+02	-5.90700039341E+01	3.66177944676E+00	-5.93143696541E+00	1.97379505257E-01
4.10956772975E+05	-8.63437351849E+00	-1.65376978629E+02	3.52571099935E+01	1.73245259895E+02	-4.45519485493E+01	1.50323026832E+01	-5.89497941133E+00	-1.11551030989E+00
4.33148127570E+05	-1.19188295181E+01	-1.44309758197E+02	3.52442583940E+01	1.71525223274E+02	-4.47196938702E+01	-1.45703612056E+02	-5.90714714722E+00	-1.03220055817E+00
4.55339482165E+05	-8.90518033326E+00	-1.68758758001E+02	3.52299419395E+01	1.70046141549E+02	-4.84311419686E+01	5.90876241869E+01	-6.00836456725E+00	-1.36592680491E+00
4.77530836760E+05	-1.20462322028E+01	-1.70159900207E+02	3.51639827289E+01	1.68113791924E+02	-4.55157128104E+01	-1.69320467189E+02	-6.01558424116E+00	-4.47065802522E-02
4.99722191355E+05	-1.03784306285E+01	1.79547971307E+02	3.51175276832E+01	1.66791031269E+02	-5.32865209720E+01	-1.38678951966E+02	-5.98290586585E+00	-1.40713251283E+00
5.21913545950E+05	-1.02844245108E+01	1.57507067482E+02	3.50617662965E+01	1.65411745810E+02	-4.06456043005E+01	-6.38225256163E+01	-6.03694215028E+00	-1.72519691649E+00
5.44104900545E+05	-8.39141907071E+00	-1.46942799402E+02	3.50289564513E+01	1.64127298805E+02	-3.62396088364E+01	1.09322179905E+02	-6.07568949409E+00	-7.08161675334E-01
5.66296255139E+05	-6.84717850685E+00	-1.62280067293E+02	3.50091956893E+01	1.62780929268E+02	-5.76153326408E+01	1.27863297887E+02	-5.90471789728E+00	-9.35336876993E-01
5.88487609734E+05	-1.00519348438E+01	1.68991148301E+02	3.48858360290E+01	1.61334732287E+02	-3.59437400730E+01	-1.35158661484E+02	-5.74885203797E+00	1.63185789102E+00
6.10678964329E+05	-1.59787027134E+01	-1.48552944393E+02	3.48512284329E+01	1.60207579663E+02	-4.32335216682E+01	1.44754853521E+02	-5.90589884777E+00	-2.66035614389E-01
6.32870318924E+05	-8.71457695747E+00	1.62281819413E+02	3.47964330531E+01	1.58962496138E+02	-4.66189575300E+01	-3.09288032198E+01	-5.95601130372E+00	-6.96738794622E-01
6.55061673519E+05	-1.19270539916E+01	-1.55155388991E+02	3.46806017790E+01	1.57710095353E+02	-3.88831489406E+01	6.99400971048E+01	-6.03880633038E+00	-9.29169171799E-01
6.77253028114E+05	-1.37856951926E+01	1.46785090479E+02	3.46524923220E+01	1.56417116574E+02	-4.39366538264E+01	1.28210303235E+02	-6.11767186704E+00	-1.00776204293E+00
6.99444382709E+05	-1.06173135330E+01	1.60494720063E+02	3.46023079814E+01	1.55294800123E+02	-3.89430643189E+01	2.96042458325E+01	-6.03667627433E+00	-1.13355104659E+00
7.21635737304E+05	-1.03828616383E+01	-1.51902675068E+02	3.45120302480E+01	1.54462659985E+02	-3.87942891744E+01	9.33281041345E+01	-6.05667740451E+00	-7.92490090845E-01
7.43827091899E+05	-9.36760962147E+00	-1.72408704517E+02	3.44782231174E+01	1.53085904352E+02	-4.11394917097E+01	-3.23584986175E+01	-5.94317732152E+00	-3.37624024950E-01
7.66018446494E+05	-9.72327973524E+00	-1.74594837417E+02	3.43706339979E+01	1.52233094897E+02	-4.02447725612E+01	9.57145450951E+00	-5.96175246774E+00	-6.09007838038E-01
7.88209801089E+05	-1.06946124227E+01	1.70243398779E+02	3.43567911388E+01	1.51038995066E+02	-4.18252571026E+01	-4.42927805021E+01	-5.98192672919E+00	-1.53097270566E+00
8.10401155684E+05	-1.13871996196E+01	1.40930900105E+02	3.42719732972E+01	1.50293538372E+02	-3.50108835446E+01	-1.67548991749E+02	-5.97693130822E+00	-3.55819571281E-01
8.32592510279E+05	-8.94131766633E+00	-1.65602157239E+02	3.41846344209E+01	1.49155666586E+02	-3.67583967824E+01	-9.02785763743E+01	-5.93922792195E+00	-9.42552888466E-01
8.54783864874E+05	-1.14333386864E+01	-1.74308383734E+02	3.41216549348E+01	1.48311243564E+02	-3.37266703929E+01	-1.46510286615E+02	-6.04608332337E+00	-6.90605873096E-01
8.76975219469E+05	-1.28518078840E+01	-1.65050427265E+02	3.40385432779E+01	1.47205688669E+02	-3.83965612850E+01	-8.88903606377E+01	-5.95101024356E+00	-6.25460207642E-01
8.99166574064E+05	-8.05078218022E+00	1.78297051701E+02	3.39493998464E+01	1.46657932689E+02	-4.22182843497E+01	-1.64261875902E+02	-5.95126080292E+00	-6.00190374268E-01
9.21357928659E+05	-1.03212827159E+01	-1.70265102540E+02	3.38999888096E+01	1.45409177475E+02	-4.05838534727E+01	1.01031696235E+02	-6.01312918364E+00	-1.98349298488E-01
9.43549283254E+05	-7.92352049749E+00	-1.52643384416E+02	3.38238109504E+01	1.44700640899E+02	-4.67506819653E+01	1.68780277156E+02	-5.99322088349E+00	-1.41808889144E+00
9.65740637849E+05	-1.17523049700E+01	-1.58591448574E+02	3.37648773728E+01	1.43821987503E+02	-3.91906510355E+01	7.59947949120E+01	-5.95914172052E+00	-9.11538242197E-01
9.87931992444E+05	-7.48158601844E+00	-1.78231179805E+02	3.36919582651E+01	1.42937188191E+02	-3.94880045215E+01	8.94844318724E+01	-5.89308796712E+00	-6.87878683941E-01
1.01012334704E+06	-8.25626759040E+00	-1.63856805231E+02	3.36043500367E+01	1.42222505278E+02	-4.71425227232E+01	5.17602529384E+01	-5.92916055122E+00	-6.70298378922E-01
1.03231470163E+06	-9.48773231448E+00	-1.74908367993E+02	3.35109750617E+01	1.41335111827E+02	-4.08879807840E+01	-3.39853978021E+01	-5.96690627089E+00	-8.17864694115E-01
1.05450605623E+06	-1.05069464073E+01	1.55485742256E+02	3.34699409044E+01	1.40240933029E+02	-3.52240355131E+01	-1.60510174396E+01	-6.05284581062E+00	-1.51400424652E+00
1.07669741082E+06	-1.31260338301E+01	-1.41811192168E+02	3.34320511338E+01	1.39796604226E+02	-4.77466372435E+01	-4.45797878109E+01	-5.95834849479E+00	-7.55792291040E-01
1.09888876542E+06	-9.17051959967E+00	-1.62608278880E+02	3.33092945957E+01	1.39029148859E+02	-4.29587043958E+01	1.20643744427E+02	-5.96163031313E+00	1.02051927331E-02
1.12108012001E+06	-1.03741802162E+01	1.73943219856E+02	3.32385657283E+01	1.38221379521E+02	-4.91797921990E+01	-2.14230852047E+01	-6.05880849777E+00	-1.12729737383E+00
1.14327147461E+06	-1.42372090992E+01	-1.44286747937E+02	3.31629948203E+01	1.37400478915E+02	-4.55552117670E+01	-7.15335813297E+01	-5.98329206918E+00	-4.49565142780E-01
1.16546282920E+06	-9.40763150737E+00	-1.67869872672E+02	3.30992457678E+01	1.37163636562E+02	-3.69776611315E+01	-1.11317237702E+02	-5.99698029980E+00	-7.84430701746E-01
1.18765418380E+06	-8.98084769725E+00	1.60582871552E+02	3.30350603569E+01	1.36136083311E+02	-3.92565070388E+01	1.13282137640E+02	-6.02283838321E+00	-9.56981214304E-01
1.20984553839E+06	-1.23940494248E+01	-1.78041562153E+02	3.29635996537E+01	1.35272416031E+02	-3.87848300153E+01	8.41432932424E+01	-5.94079437450E+00	-8.55590118201E-01
1.23203689299E+06	-8.39510418756E+00	-1.66416265695E+02	3.28916583032E+01	1.34761466732E+02	-3.67429151058E+01	1.96367605005E+01	-6.00100943501E+00	-4.91811987264E-01
1.25422824758E+06	-1.03188813034E+01	1.54259363017E+02	3.27944334618E+01	1.34012053160E+02	-3.62892341254E+01	5.56263218869E+01	-5.99592888905E+00	-6.66374198043E-01
1.27641960218E+06	-1.00143445220E+01	-1.76522126117E+02	3.27037115058E+01	1.33130251852E+02	-4.95502092420E+01	1.66812471858E+02	-6.03406316861E+00	-2.84699589667E-01
1.29861095677E+06	-1.16226119328E+01	-1.77694074591E+02	3.26689943971E+01	1.32471234786E+02	-4.14235783576E+01	1.63820203505E+01	-5.96591225882E+00	-1.73954365416E+00
1.32080231137E+06	-9.33758010288E+00	-1.79654447584E+02	3.25694770955E+01	1.32027524171E+02	-3.64761346116E+01	-1.40239138043E+02	-5.93753199741E+00	-8.66428554030E-01
1.34299366596E+06	-1.17090848768E+01	1.72348014379E+02	3.25367945807E+01	1.31350606922E+02	-3.84070011587E+01	-4.27376624452E-01	-5.94661019666E+00	-1.09840260782E+00
1.36518502056E+06	-1.38380671492E+01	1.53243208629E+02	3.23977340780E+01	1.30409219804E+02	-3.56852045810E+01	-9.86438827392E+01	-5.94878265791E+00	-1.02018748488E+00
1.38737637515E+06	-7.06815498389E+00	1.79617449921E+02	3.23903573313E+01	1.29911966546E+02	-3.79428894442E+01	-3.22016711972E+01	-5.98688315256E+00	-7.53915535204E-01
1.40956772975E+06	-1.32734742339E+01	1.74079514855E+02	3.22853705942E+01	1.29117963749E+02	-3.79151558282E+01	-5.26531341555E+01	-5.89604760864E+00	-9.44431493054E-01
1.43175908434E+06	-1.11419669178E+01	1.72921361507E+02	3.22164382480E+01	1.28694167201E+02	-4.13354441643E+01	-2.10461177091E+00	-5.97397745313E+00	-1.23277264324E+00
1.45395043894E+06	-9.08864373080E+00	1.74636603684E+02	3.21838590365E+01	1.28115898488E+02	-4.20968315236E+01	-8.61459051526E+01	-6.00193111139E+00	-2.41463804445E+00
1.47614179353E+06	-6.94001623103E+00	1.75770928269E+02	3.20840782639E+01	1.27652993126E+02	-3.72869960077E+01	1.28579987013E+02	-5.94703182156E+00	-2.50459674902E-01
1.49833314813E+06	-1.01220279199E+01	-1.72481260708E+02	3.20075017924E+01	1.27140838937E+02	-3.97130786384E+01	1.45334628311E+02	-6.01326509008E+00	-1.23782257184E+00
1.52052450272E+06	-1.09878705331E+01	-1.52307811481E+02	3.19188766172E+01	1.26382617194E+02	-5.80150654200E+01	-1.64384542236E+02	-5.97739894343E+00	-1.19835579887E+00
1.54271585732E+06	-6.60365726271E+00	1.77099089139E+02	3.18769673231E+01	1.25919223011E+02	-3.54616686574E+01	-1.33498949601E+02	-5.99222680044E+00	-4.18715888718E-01
1.56490721191E+06	-8.68173779707E+00	-1.64721365347E+02	3.18107631952E+01	1.25390974959E+02	-4.58395702325E+01	2.08347681993E+01	-6.02133698051E+00	-1.18570556526E+00
1.58709856651E+06	-7.54208586184E+00	1.60144415181E+02	3.17208192525E+01	1.24593774794E+02	-4.28560745760E+01	-1.20100798409E+02	-5.96857448041E+00	-1.13529271904E+00
1.60928992110E+06	-8.97374771949E+00	-1.71170022992E+02	3.16595955142E+01	1.23935962349E+02	-3.91741395648E+01	1.21437298274E+02	-5.91237668794E+00	-5.14090322292E-01
1.63148127570E+06	-8.19684769918E+00	1.79387382547E+02	3.15787942178E+01	1.23858362581E+02	-4.87718776230E+01	-1.18405566464E+02	-6.08273404535E+00	-1.15835883615E+00
1.65367263029E+06	-8.28214800006E+00	1.59409797984E+02	3.15282527803E+01	1.23136028436E+02	-4.92373880939E+01	1.62129671300E+02	-5.94301979579E+00	-1.13793339299E+00
1.67586398489E+06	-1.43933877822E+01	1.71554180211E+02	3.14098034831E+01	1.22624247902E+02	-3.99965783427E+01	1.68700800785E+02	-5.90571925091E+00	-9.02683219081E-01
1.69805533948E+06	-9.31997837527E+00	1.77620923640E+02	3.13592720872E+01	1.22068986802E+02	-4.24522833347E+01	-7.70275113240E+01	-6.01381780640E+00	-1.03752012948E+00
1.72024669408E+06	-6.24813147800E+00	1.79621008801E+02	3.13055990613E+01	1.21361511306E+02	-3.64421632455E+01	1.46664134574E+01	-6.06326828220E+00	-8.83944696162E-01
1.74243804867E+06	-8.53327089885E+00	-1.79919999352E+02	3.12237627166E+01	1.20841321761E+02	-4.00853619882E+01	1.01662897788E+02	-6.00891408537E+00	-2.38008522498E+00
1.76462940327E+06	-6.85841235797E+00	1.72535384645E+02	3.11192896655E+01	1.20732125998E+02	-4.08890846381E+01	3.38345891074E+01	-6.25030922808E+00	-2.24724225464E+00
1.78682075786E+06	-6.91458895824E+00	1.68701819879E+02	3.11055607271E+01	1.19890604182E+02	-5.33896053908E+01	5.24725157301E+01	-6.08515375290E+00	2.19899054664E-02
1.80901211246E+06	-1.27326320209E+01	-1.70643196497E+02	3.10053242740E+01	1.19666442802E+02	-4.82489768362E+01	-3.14768076796E+01	-6.04121325407E+00	-1.27015010763E+00
1.83120346705E+06	-1.73334388324E+01	-1.48498691107E+02	3.08953180132E+01	1.18698718722E+02	-3.69273952785E+01	-1.75912701483E+02	-5.96283093853E+00	-1.17771820562E+00
1.85339482165E+06	-1.00871452898E+01	-1.79733172265E+02	3.09128765345E+01	1.18790197694E+02	-3.44000701641E+01	1.39409142227E+02	-5.90872659416E+00	-8.93819229393E-01
1.87558617624E+06	-8.13586803458E+00	-1.72609467279E+02	3.08425856514E+01	1.18069085532E+02	-5.17866798497E+01	4.80151740174E+01	-5.98348559332E+00	-8.67939769227E-01
1.89777753084E+06	-1.30771814220E+01	-1.77594977476E+02	3.07491369531E+01	1.17851644325E+02	-4.17586830925E+01	3.04854592877E+01	-5.94683767816E+00	-1.12082934859E+00
1.91996888543E+06	-8.19535775325E+00	-1.78668584245E+02	3.06918387167E+01	1.17202950335E+02	-5.07143019914E+01	-3.12128134147E+01	-5.89637140568E+00	-1.26026102845E-01
1.94216024003E+06	-1.08399463204E+01	-1.65192563517E+02	3.06319421764E+01	1.16616026600E+02	-3.33779457843E+01	-1.26201220497E+02	-5.89592840634E+00	-2.47771973120E+00
1.96435159462E+06	-8.33315642933E+00	-1.71124369331E+02	3.05261252815E+01	1.16308868414E+02	-3.87942260697E+01	1.13004732129E+02	-5.90520180690E+00	-1.31303770979E+00
1.98654294922E+06	-1.57418548828E+01	1.34674307864E+02	3.05187167834E+01	1.15714475728E+02	-4.19824526831E+01	9.82872205738E+01	-6.01172104253E+00	-1.15794149103E+00
2.00873430381E+06	-9.02764211811E+00	1.67399579183E+02	3.04041411702E+01	1.15528322065E+02	-5.22468228443E+01	-1.14492864908E+02	-6.02115269611E+00	-1.22600359770E+00
2.03092565841E+06	-7.31273140784E+00	-1.62967340800E+02	3.03469904055E+01	1.15029432393E+02	-4.77863916248E+01	1.65794056359E+02	-6.01546117041E+00	-8.92872315101E-01
2.05311701300E+06	-1.22347913823E+01	-1.75796291812E+02	3.03171677285E+01	1.14399981248E+02	-5.45078825415E+01	3.40310270754E+01	-5.97434895941E+00	-1.26098271700E+00
2.07530836760E+06	-8.22380555095E+00	1.55654513417E+02	3.02135448908E+01	1.13970447056E+02	-3.56685115600E+01	1.34606923409E+02	-5.90665184642E+00	-1.46062502720E-01
2.09749972219E+06	-7.50265076588E+00	-1.77386623027E+02	3.01602011832E+01	1.13727851415E+02	-3.63998975049E+01	-1.50764696878E+02	-6.09637150931E+00	-2.38044497425E+00
2.11969107679E+06	-8.84789318892E+00	-1.78549115689E+02	3.01098051148E+01	1.13572214985E+02	-4.07831389242E+01	-9.41987931408E+01	-6.01038164200E+00	-8.49266638677E-01
2.14188243138E+06	-7.82868997336E+00	-1.61573781799E+02	2.99821074136E+01	1.13359026530E+02	-4.57456877330E+01	2.73010551872E+01	-5.98030688441E+00	-1.07152840115E+00
2.16407378598E+06	-1.03892212647E+01	-1.78566851058E+02	2.99439522489E+01	1.12753815684E+02	-4.22866023245E+01	-1.67597791210E+02	-5.96994168169E+00	-9.04564832509E-01
2.18626514057E+06	-7.85262783918E+00	1.58347993631E+02	2.98771106048E+01	1.12298700236E+02	-3.75171495679E+01	1.18279901988E+02	-5.93643975342E+00	-7.93409279797E-01
2.20845649517E+06	-1.49961941115E+01	1.60062464864E+02	2.98518738818E+01	1.11692108216E+02	-3.48275032879E+01	-3.18344008068E+01	-6.02702561749E+00	-8.34026655095E-01
2.23064784976E+06	-1.25874454915E+01	-1.71728776391E+02	2.97521963887E+01	1.11552501243E+02	-3.50561787044E+01	6.38613946676E+01	-5.99656017028E+00	2.22159113468E-01
2.25283920436E+06	-9.62357598227E+00	-1.67491729958E+02	2.97182228341E+01	1.10923216157E+02	-3.65722286561E+01	-1.61707481666E+01	-6.02265132541E+00	-6.56353800570E-01
2.27503055895E+06	-8.85268125269E+00	1.79918458975E+02	2.96054139725E+01	1.10378414059E+02	-4.16169800566E+01	1.64195942928E+01	-5.94936501518E+00	-9.71024729602E-01
2.29722191355E+06	-1.16888352483E+01	1.73286029397E+02	2.95740820745E+01	1.09879225510E+02	-5.30202368538E+01	6.78746419078E+01	-5.93487128430E+00	-1.14554907822E+00
2.31941326814E+06	-1.15948568630E+01	-1.76437948561E+02	2.94986603721E+01	1.09585393597E+02	-4.26167999480E+01	8.81970465546E+01	-5.94853138227E+00	-1.18556746789E+00
2.34160462274E+06	-1.15240639472E+01	-1.71449640440E+02	2.94402877620E+01	1.09283533098E+02	-3.91628353874E+01	-1.60149553529E+02	-5.93509749240E+00	-8.21288081830E-01
2.36379597733E+06	-1.07080918250E+01	-1.57261980357E+02	2.93911468848E+01	1.08864606506E+02	-4.74184196487E+01	-3.23797505976E+01	-6.02126738818E+00	-8.92286070085E-01
2.38598733193E+06	-1.09223495331E+01	-1.64830073070E+02	2.93329587368E+01	1.08549206520E+02	-3.88508674604E+01	6.01883162918E+01	-6.13471304672E+00	-2.17269177277E-01
2.40817868652E+06	-8.20518610360E+00	-1.69994091034E+02	2.92507337199E+01	1.08239251246E+02	-4.21400878531E+01	-1.54542289569E+02	-6.06208619309E+00	4.05145889400E-01
2.43037004112E+06	-9.89776216355E+00	1.65572589063E+02	2.91805393000E+01	1.07540012554E+02	-4.93840730522E+01	-4.55333184488E+01	-5.98813750837E+00	-1.37256861148E+00
2.45256139571E+06	-9.05710676411E+00	-1.73410332877E+02	2.90984560692E+01	1.07499785284E+02	-4.92476024294E+01	1.23517703954E+02	-6.01285552858E+00	-1.43868348145E+00
2.47475275031E+06	-1.15275874395E+01	1.65893433358E+02	2.89922211172E+01	1.07108359500E+02	-3.73582314147E+01	9.69609404608E+01	-5.99873465709E+00	-1.35964150546E+00
2.49694410490E+06	-8.94002799811E+00	-1.71923061445E+02	2.89930269039E+01	1.06736507005E+02	-3.53513089653E+01	-1.15518916692E+02	-6.03836260084E+00	-5.94096087136E-01
2.51913545950E+06	-1.03546956607E+01	1.74327542945E+02	2.89284812479E+01	1.06413940187E+02	-4.12686077899E+01	2.29052501587E+01	-6.02140367029E+00	-1.27964137954E+00
2.54132681409E+06	-1.20627241031E+01	-1.73014494092E+02	2.88925917140E+01	1.05939636151E+02	-4.38162542288E+01	-1.62247272623E+02	-6.05784074300E+00	-1.18274718074E+00
2.56351816869E+06	-1.13570536212E+01	1.75034850014E+02	2.88334806843E+01	1.05964274636E+02	-4.74189889293E+01	-3.14382310713E+01	-5.78189121200E+00	-2.41232104514E+00
2.58570952328E+06	-8.85017111743E+00	-1.68452602151E+02	2.87929314042E+01	1.05415808777E+02	-4.52543331199E+01	3.74717898135E+01	-5.97771108375E+00	-1.54413473738E+00
2.60790087788E+06	-1.32703186620E+01	1.72780910844E+02	2.86938645122E+01	1.05038381736E+02	-3.99764145708E+01	-1.37846817205E+02	-5.97537478258E+00	-1.40868777448E+00
2.63009223247E+06	-1.10937898319E+01	-1.64522269822E+02	2.86451717358E+01	1.04607726050E+02	-4.42862378530E+01	5.32173814208E+01	-6.02982976871E+00	-1.24360451667E+00
2.65228358707E+06	-1.12346502461E+01	1.73215197101E+02	2.86013663805E+01	1.04438261164E+02	-4.87151145990E+01	-8.36640798770E+01	-5.98719115250E+00	-1.41268293441E+00
2.67447494166E+06	-8.82231317880E+00	1.77871678427E+02	2.85173158169E+01	1.03960393231E+02	-4.06876886791E+01	-1.68903707177E+02	-5.88607225446E+00	-1.14329241621E+00
2.69666629626E+06	-1.06763296846E+01	-1.75817316004E+02	2.84828450285E+01	1.03691061844E+02	-4.45955153814E+01	1.97146851046E+00	-5.82800288522E+00	-1.55125256871E+00
2.71885765085E+06	-7.73829724496E+00	1.79884103811E+02	2.84098245391E+01	1.03535194744E+02	-4.18847144897E+01	-9.02914860090E+01	-5.89310108770E+00	-1.92214456814E+00
2.74104900545E+06	-1.00421937233E+01	1.70205048889E+02	2.83869300268E+01	1.02945179108E+02	-3.86651140971E+01	1.20122382891E+02	-5.93882166750E+00	-1.81828838429E+00
2.76324036004E+06	-9.82524860354E+00	1.49302006699E+02	2.83066281979E+01	1.02660055402E+02	-3.79345976534E+01	1.42889788934E+02	-5.98344186080E+00	-1.75223436665E+00
2.78543171463E+06	-1.10245209245E+01	-1.77772637725E+02	2.82656478339E+01	1.02241161258E+02	-3.77803014947E+01	1.40294749278E+02	-5.94440922953E+00	-1.73653669924E+00
2.80762306923E+06	-1.39301117376E+01	-1.74852266195E+02	2.81919606000E+01	1.02140915354E+02	-3.50363181679E+01	-1.57438972656E+02	-5.96244774972E+00	-1.13332129371E+00
2.82981442382E+06	-1.38151263213E+01	-1.57076414506E+02	2.81356901156E+01	1.01737831900E+02	-3.86575918201E+01	4.54073211821E+01	-5.97406635945E+00	-1.55890568426E+00
2.85200577842E+06	-9.55158739718E+00	-1.72581882877E+02	2.80937266321E+01	1.01477017882E+02	-3.47756136146E+01	7.66297290353E+01	-5.87040418523E+00	-1.00157919157E+00
2.87419713301E+06	-1.29623391116E+01	1.74323190181E+02	2.80248340114E+01	1.01075517476E+02	-3.94084418570E+01	-6.45376225813E+01	-5.97926323748E+00	-2.06526538632E+00
