# Hz S DB R 50
! CMT, M5065, 19127446, 24.2.4/2
! Date: 10/29/2024 12:33:16 PM
! Data: Format (Calibration Info)
! Freq	S11:dB/Ang(F2)	S21:dB/Ang(F2)	S12:dB/Ang(F2)	S22:dB/Ang(F2)
3.00000000000E+05	-9.94852781628E+00	-1.70748682072E+02	1.10258002227E+01	-1.78231984997E+02	-3.80858195052E+01	-9.66418097427E+01	-6.01598072006E+00	-2.65742332749E-01
3.22191354595E+05	-1.38642483434E+01	-1.79624665748E+02	1.09980885457E+01	-1.78492292286E+02	-4.51769004983E+01	-7.16281420607E+00	-5.98089272160E+00	-1.30442153159E-01
3.44382709190E+05	-9.29560131205E+00	1.75069394187E+02	1.09943464341E+01	-1.78879495826E+02	-3.82851581252E+01	-4.32072381819E+01	-6.06760431302E+00	-2.29636175204E-02
3.66574063785E+05	-1.19995093100E+01	-1.75750930573E+02	1.09985727368E+01	-1.79125545272E+02	-4.26424239653E+01	-4.57379115852E+01	-6.00068365283E+00	-2.80857246223E-01
3.88765418380E+05	-1.41748697351E+01	-1.52520916310E+02	1.09870482847E+01	-1.79586343281E+02	-3.61838809646E+01	-4.69350428962E+01	-5.98895365252E+00	-5.07039867862E-01
4.10956772975E+05	-1.20010522931E+01	-1.52064127199E+02	1.09900261060E+01	-1.79799400745E+02	-3.91646654635E+01	9.85739750350E+00	-5.96108214792E+00	-3.17048016336E-01
4.33148127570E+05	-6.44493070324E+00	-1.70857409570E+02	1.09952630059E+01	-1.79752720677E+02	-3.77849341633E+01	1.61437449195E+02	-5.95837086442E+00	-4.80651612793E-01
4.55339482165E+05	-1.29435618879E+01	1.73786305478E+02	1.10205654797E+01	1.79628715712E+02	-4.00535439172E+01	-6.55770570777E+01	-5.98269970639E+00	-2.97841432445E-01
4.77530836760E+05	-6.45807351052E+00	1.72276016908E+02	1.10365845873E+01	1.79706173397E+02	-4.84075005847E+01	1.65686680468E+02	-5.98552208076E+00	-1.99639542934E-01
4.99722191355E+05	-1.52813628773E+01	1.70068521016E+02	1.09911531535E+01	1.79000177530E+02	-3.71504747681E+01	4.48039112194E+01	-5.94001727593E+00	-6.69969602821E-01
5.21913545950E+05	-9.41119528312E+00	-1.65123189766E+02	1.10103400589E+01	1.79077100501E+02	-4.75529898410E+01	-4.98773494739E+01	-5.97027369150E+00	-2.69342395073E-01
5.44104900545E+05	-9.20810473072E+00	1.62369675067E+02	1.10392971250E+01	1.78820496206E+02	-4.51933296772E+01	1.64070790402E+02	-5.99182841714E+00	-4.70002554312E-01
5.66296255139E+05	-1.17159814791E+01	1.76276538580E+02	1.10409255749E+01	1.78628829484E+02	-3.70950149351E+01	1.59910175466E+02	-5.99319711764E+00	-5.82825787197E-01
5.88487609734E+05	-9.02583881571E+00	-1.74296296545E+02	1.09964655391E+01	1.78358017156E+02	-4.30996698737E+01	-7.63046660305E+01	-6.00482141808E+00	-5.17753884084E-01
6.10678964329E+05	-9.53542726816E+00	-1.72323006194E+02	1.10688826431E+01	1.78110757092E+02	-4.31768409787E+01	1.59409178342E+02	-6.00767486735E+00	-3.64265070215E-02
6.32870318924E+05	-1.02019936279E+01	1.78243465737E+02	1.10588781681E+01	1.78106614207E+02	-4.32525167340E+01	1.51668726343E+02	-6.03769039452E+00	-5.33435395723E-01
6.55061673519E+05	-8.47804330640E+00	1.69595881150E+02	1.10602717536E+01	1.77803408064E+02	-3.74055141246E+01	4.37614018119E+01	-5.97285866863E+00	-3.49317913630E-01
6.77253028114E+05	-1.07944372412E+01	-1.59700213539E+02	1.10467499935E+01	1.77489394363E+02	-3.99740271535E+01	1.48189857690E+01	-5.88232324518E+00	-4.80596156250E-01
6.99444382709E+05	-7.95413104837E+00	1.78008169906E+02	1.10464553821E+01	1.77367845743E+02	-4.91910382241E+01	-1.35453722543E+02	-6.00069191078E+00	-4.35208255534E-01
7.21635737304E+05	-1.15145123569E+01	-1.69819415226E+02	1.10339110488E+01	1.77582799170E+02	-3.67346889061E+01	-2.45187615247E+01	-5.99274877327E+00	-4.50095050254E-01
7.43827091899E+05	-1.04489103472E+01	-1.52169685848E+02	1.10223424797E+01	1.77146116579E+02	-4.45188210241E+01	1.70174108473E+02	-5.95321278712E+00	-4.75100918731E-01
7.66018446494E+05	-1.10215625458E+01	1.68302005516E+02	1.10246845979E+01	1.77026517861E+02	-3.19860680025E+01	9.63018998739E+01	-5.98239467697E+00	-6.69711837916E-01
7.88209801089E+05	-9.20493270678E+00	-1.78452399656E+02	1.10029950484E+01	1.76716890469E+02	-4.20305314999E+01	-3.35868661674E+01	-5.98584125511E+00	-8.40338149883E-01
8.10401155684E+05	-8.10496848505E+00	-1.72459623183E+02	1.10654098454E+01	1.76747773341E+02	-4.55596696578E+01	1.36241559320E+02	-6.01323273820E+00	-8.27074586584E-02
8.32592510279E+05	-9.79811783377E+00	1.77048978350E+02	1.10415076612E+01	1.76293595657E+02	-4.03075014152E+01	1.55266465472E+02	-5.99784718596E+00	-2.03846095950E-01
8.54783864874E+05	-9.05281903367E+00	-1.74474859884E+02	1.09856364410E+01	1.75974748045E+02	-4.39059692199E+01	5.03341273436E+01	-6.06181526850E+00	-7.96531045576E-01
8.76975219469E+05	-7.20643629553E+00	-1.68299692002E+02	1.10254506478E+01	1.76254274681E+02	-5.13625770924E+01	-8.75118801148E+01	-5.94057421670E+00	-6.39297963022E-01
8.99166574064E+05	-7.42376217139E+00	-1.64366124159E+02	1.09897202435E+01	1.75751664375E+02	-4.32641734128E+01	-8.05487252389E+01	-6.00202224765E+00	-5.80182236913E-01
9.21357928659E+05	-9.63562769157E+00	1.74598307550E+02	1.10202213013E+01	1.75832479856E+02	-3.76691511667E+01	1.77039024746E+02	-5.94320275719E+00	-5.69441518502E-01
9.43549283254E+05	-1.11043563698E+01	-1.70089592253E+02	1.10448264871E+01	1.75419885678E+02	-3.55894824050E+01	-1.29619259409E+01	-5.98806068210E+00	-6.73825142345E-01
9.65740637849E+05	-7.79665363288E+00	-1.74063267777E+02	1.09876461840E+01	1.75687933328E+02	-3.50991490377E+01	-9.76364515358E+01	-5.93846958837E+00	-5.60524964632E-01
9.87931992444E+05	-7.11941986512E+00	-1.49411378074E+02	1.10244280379E+01	1.75651673118E+02	-3.69197757494E+01	-7.22851980487E+01	-5.98883129069E+00	-4.03072657376E-01
1.01012334704E+06	-9.49287757008E+00	1.75822124670E+02	1.10419644523E+01	1.75180542681E+02	-3.73894264976E+01	-7.81088910826E+01	-5.98657679722E+00	-7.55960207928E-01
1.03231470163E+06	-1.56069068365E+01	-1.24084108511E+02	1.10333101958E+01	1.75151218033E+02	-5.35367870730E+01	9.60938438660E+01	-5.93473035527E+00	-9.02994034236E-01
1.05450605623E+06	-1.19001275600E+01	-1.53443260077E+02	1.10371635898E+01	1.74947656418E+02	-4.07414871054E+01	1.24533104393E+02	-5.98726918990E+00	-3.39263775883E-01
1.07669741082E+06	-8.69555502960E+00	-1.79636355433E+02	1.10068071596E+01	1.74891954665E+02	-3.57737125393E+01	-1.73671576036E+02	-5.93621072193E+00	-6.59509910776E-01
1.09888876542E+06	-1.35531393029E+01	1.51062669060E+02	1.09700349173E+01	1.74298941869E+02	-3.80870023924E+01	-2.07396489179E+01	-5.98346929026E+00	-6.45909382875E-01
1.12108012001E+06	-1.22697603672E+01	-1.63932791587E+02	1.09629963708E+01	1.74259996603E+02	-3.59452833140E+01	-8.80337142803E+01	-5.96346346481E+00	-7.70056825101E-01
1.14327147461E+06	-1.00845356301E+01	-1.57415259655E+02	1.10625451782E+01	1.74285887588E+02	-4.09310228118E+01	-1.35945107418E+02	-6.03270545227E+00	-4.09546209306E-01
1.16546282920E+06	-8.55170976676E+00	-1.77977286763E+02	1.10223871138E+01	1.73958766714E+02	-5.15976428315E+01	-1.10416670984E+02	-5.97839166197E+00	-5.02497775817E-01
1.18765418380E+06	-1.22281426537E+01	-1.76277415657E+02	1.10113903474E+01	1.74334380498E+02	-3.60514741565E+01	-1.05500639399E+02	-6.01304227048E+00	-8.13123123634E-01
1.20984553839E+06	-1.06927341593E+01	-1.55335606566E+02	1.10589531512E+01	1.73897551590E+02	-4.25141281486E+01	2.59818068749E+01	-5.97985907004E+00	-8.78550863569E-01
1.23203689299E+06	-1.02429705838E+01	-1.71715187678E+02	1.10630628426E+01	1.74001403837E+02	-3.40595349884E+01	-7.88295666555E+01	-5.95838904610E+00	-5.37815592973E-01
1.25422824758E+06	-8.33366309179E+00	-1.76580279274E+02	1.09706221979E+01	1.73394498412E+02	-4.69896447655E+01	-4.44179021030E+01	-5.98321402396E+00	-6.30432985036E-01
1.27641960218E+06	-1.03258742050E+01	-1.75086019254E+02	1.09671092626E+01	1.73163348430E+02	-4.24577231701E+01	-2.74475538627E+01	-5.97657171037E+00	-5.96214973981E-01
1.29861095677E+06	-9.67651846227E+00	1.72778451696E+02	1.09893298231E+01	1.72986274456E+02	-3.60739509499E+01	-1.18930474841E+02	-5.99577561589E+00	-8.80696738909E-01
1.32080231137E+06	-8.73560825737E+00	-1.66844111879E+02	1.09845787861E+01	1.73030533405E+02	-4.09539964048E+01	5.57926711620E+01	-5.98037143209E+00	-1.10451400680E+00
1.34299366596E+06	-8.38545567555E+00	1.78177714955E+02	1.09781644915E+01	1.72889276068E+02	-3.70390697947E+01	-1.52695998594E+02	-5.95754077906E+00	-8.20334106552E-01
1.36518502056E+06	-1.14435921571E+01	-1.71841541257E+02	1.10408314842E+01	1.73006193137E+02	-3.79227639477E+01	8.48339560227E+01	-6.01190588197E+00	-8.06285987340E-01
1.38737637515E+06	-9.09252328762E+00	-1.68014691409E+02	1.10836068006E+01	1.73042065018E+02	-4.03868681568E+01	-1.37969137331E+02	-5.96863036876E+00	-1.00480134050E+00
1.40956772975E+06	-1.03594890547E+01	1.70407181035E+02	1.10449361103E+01	1.72514899654E+02	-4.13142767956E+01	3.18095950810E+00	-5.99941265670E+00	-4.54548161608E-01
1.43175908434E+06	-1.04892903393E+01	1.68214660137E+02	1.10064841734E+01	1.72072653530E+02	-4.06501760469E+01	1.64516315793E+02	-5.96885493697E+00	-6.82788509429E-01
1.45395043894E+06	-9.41432290954E+00	1.77591910291E+02	1.10325959176E+01	1.72571408259E+02	-3.22896049946E+01	-9.85279300858E+01	-6.08809848242E+00	-9.55412581377E-01
1.47614179353E+06	-1.20700404815E+01	-1.45996350511E+02	1.10455186191E+01	1.72143779900E+02	-4.35619584114E+01	3.27028995603E+01	-5.96558206103E+00	-8.78129795430E-01
1.49833314813E+06	-7.97057732166E+00	-1.66317450280E+02	1.09875506933E+01	1.71638990207E+02	-3.54106439493E+01	9.88637607167E+01	-5.95810216989E+00	-7.67417077928E-01
1.52052450272E+06	-8.48798228752E+00	-1.68520445440E+02	1.09837261765E+01	1.71788369267E+02	-4.53622079928E+01	-1.02765668314E+02	-5.95271676402E+00	-6.07913677103E-01
1.54271585732E+06	-8.69443327886E+00	-1.74481037422E+02	1.10524669546E+01	1.71526720342E+02	-3.90248399560E+01	-9.60911524585E+00	-5.95419723438E+00	-6.61125336296E-01
1.56490721191E+06	-8.38036162519E+00	1.47629519063E+02	1.10247166570E+01	1.71457687074E+02	-4.41946155621E+01	8.12880830051E+01	-5.94194375668E+00	-8.20160861432E-01
1.58709856651E+06	-8.92693165199E+00	1.79119114893E+02	1.10395094776E+01	1.71875781843E+02	-4.01066492294E+01	-2.03078207834E+01	-5.94693521075E+00	-3.97408622820E-01
1.60928992110E+06	-9.98852307837E+00	1.56032918480E+02	1.10292240910E+01	1.71035836014E+02	-4.04757567391E+01	-3.34708175685E+01	-6.03005312559E+00	-8.48047675242E-01
1.63148127570E+06	-8.85958154003E+00	1.65576503264E+02	1.10889020721E+01	1.71105356386E+02	-3.81754604379E+01	3.35513936397E+01	-5.92663171006E+00	-9.50455149328E-01
1.65367263029E+06	-1.05468140371E+01	1.78459707948E+02	1.09965399696E+01	1.71174279843E+02	-4.93432432439E+01	1.16870367276E+02	-5.99604129797E+00	-7.77243430977E-01
1.67586398489E+06	-1.52833743637E+01	-1.53925554147E+02	1.10148469702E+01	1.70779739335E+02	-4.46054348287E+01	-1.02874811064E+02	-5.98092394525E+00	-7.60273852003E-01
1.69805533948E+06	-8.98667410741E+00	-1.69029166370E+02	1.10373128938E+01	1.70513409202E+02	-4.38353247104E+01	1.74011139155E+02	-5.97384278685E+00	-8.90472860818E-01
1.72024669408E+06	-9.98749260033E+00	-1.52956532121E+02	1.10093515195E+01	1.70457690084E+02	-4.74477345775E+01	1.41392075791E+02	-5.98946065978E+00	-8.51692618521E-01
1.74243804867E+06	-9.59202869455E+00	-1.70027516259E+02	1.10205243091E+01	1.70548331913E+02	-3.57010575119E+01	-8.01858649796E+01	-6.02847424208E+00	-9.87290471415E-01
1.76462940327E+06	-9.33144978121E+00	-1.71049414429E+02	1.09757978930E+01	1.71198257000E+02	-3.68878102233E+01	-4.80295993205E+01	-5.93602805581E+00	-1.12654745648E+00
1.78682075786E+06	-1.09655942827E+01	1.58435664249E+02	1.09899358650E+01	1.70076196862E+02	-3.74007658813E+01	1.56685959579E+01	-5.96740008826E+00	-8.57659935195E-01
1.80901211246E+06	-1.02068937179E+01	1.77710612352E+02	1.09826614575E+01	1.69941478372E+02	-3.97543873506E+01	1.14077370855E+02	-5.99303222108E+00	-7.88642323840E-01
1.83120346705E+06	-1.16058342509E+01	-1.72842049824E+02	1.10275043638E+01	1.69922745634E+02	-3.52409312659E+01	1.73572778702E+02	-5.96241949877E+00	-1.01903108757E+00
1.85339482165E+06	-1.33510201049E+01	-1.66342955433E+02	1.09526423239E+01	1.69866999659E+02	-3.50464591229E+01	-1.25904293414E+02	-5.95794797939E+00	-6.83443429347E-01
1.87558617624E+06	-7.68310390872E+00	-1.68893010512E+02	1.09959100626E+01	1.69422140047E+02	-4.09007648117E+01	-8.57321245674E+01	-5.98209889786E+00	-8.34487519950E-01
1.89777753084E+06	-8.52136451735E+00	-1.71874961671E+02	1.10074666873E+01	1.69433298700E+02	-4.77608260983E+01	1.70450939611E+02	-6.00430158705E+00	-9.19019142259E-01
1.91996888543E+06	-1.47103766226E+01	-1.63045358181E+02	1.09064353277E+01	1.69690413697E+02	-4.85301488277E+01	-9.37375698658E+01	-5.99805875108E+00	-9.67573988640E-01
1.94216024003E+06	-1.27836800565E+01	1.73769362623E+02	1.10215732441E+01	1.69193896369E+02	-3.79295796729E+01	9.20878706292E+01	-5.93817492564E+00	-7.06467495567E-01
1.96435159462E+06	-9.18490220428E+00	1.48474136157E+02	1.09954042308E+01	1.68823134882E+02	-5.75045061490E+01	1.92909637642E+01	-5.98956865347E+00	-9.70556668205E-01
1.98654294922E+06	-7.91461537725E+00	-1.78819843663E+02	1.10202799604E+01	1.68954045395E+02	-5.03659765406E+01	8.10850856936E+01	-5.95697079579E+00	-8.95902296773E-01
2.00873430381E+06	-9.37907267236E+00	1.71308495699E+02	1.10174256584E+01	1.68694520726E+02	-4.68086492810E+01	-2.26337498107E+01	-6.00446871594E+00	-7.49361625623E-01
2.03092565841E+06	-1.16807827024E+01	-1.56053810422E+02	1.10285557235E+01	1.68625627787E+02	-3.87439044633E+01	-1.04506190418E+02	-5.98222845800E+00	-9.21555943117E-01
2.05311701300E+06	-1.11383603525E+01	1.70888176535E+02	1.10035950817E+01	1.68783278090E+02	-4.73170449519E+01	9.12146767606E+01	-5.95511579971E+00	-1.17270510535E+00
2.07530836760E+06	-1.01756183087E+01	-1.72339075615E+02	1.11517896461E+01	1.68057788087E+02	-4.51439200649E+01	-5.70831309796E+01	-6.02128181441E+00	-1.31329869609E+00
2.09749972219E+06	-9.34635367820E+00	1.73484536642E+02	1.09839166166E+01	1.68340653961E+02	-3.54617477189E+01	-7.74140064486E+01	-5.96057529694E+00	-9.01956773852E-01
2.11969107679E+06	-1.42262216164E+01	-1.72460030385E+02	1.10308849962E+01	1.68043657052E+02	-3.50783429552E+01	-5.34346115910E+01	-5.98080557974E+00	-9.86922248598E-01
2.14188243138E+06	-1.29447018727E+01	-1.65367557821E+02	1.10372670954E+01	1.68180909418E+02	-4.72001062315E+01	1.66938482021E+02	-5.95954254575E+00	-1.00928854672E+00
2.16407378598E+06	-1.27999006578E+01	1.69221139352E+02	1.10229427615E+01	1.67732395325E+02	-3.34062055582E+01	1.64269722923E+01	-6.02689493632E+00	-1.21490640106E+00
2.18626514057E+06	-9.17255377420E+00	-1.78395485496E+02	1.10238313565E+01	1.67861453253E+02	-3.81170103032E+01	-1.10147975446E+02	-5.99848678261E+00	-9.46040745467E-01
2.20845649517E+06	-1.03935698340E+01	1.61647847971E+02	1.10130580135E+01	1.67744139351E+02	-4.61217458096E+01	8.41484762855E+01	-5.93864383656E+00	-1.36239574160E+00
2.23064784976E+06	-9.93507645642E+00	1.78737671484E+02	1.09989733441E+01	1.67464620997E+02	-3.76621164775E+01	9.17031944152E+01	-5.92948584886E+00	-7.88039770962E-01
2.25283920436E+06	-7.77608133060E+00	1.78463675772E+02	1.10788769473E+01	1.67240938254E+02	-5.99425341145E+01	-1.91689588825E+01	-5.94124105443E+00	-8.95904801198E-01
2.27503055895E+06	-9.81079794745E+00	-1.76273374348E+02	1.10128933004E+01	1.67397309551E+02	-4.25074488546E+01	1.11452727822E+02	-5.96323906371E+00	-1.14294959872E+00
2.29722191355E+06	-1.26776790878E+01	1.51399170844E+02	1.09918100775E+01	1.66981848383E+02	-4.19554223558E+01	-1.96695307298E+01	-5.95710345230E+00	-1.26523965730E+00
2.31941326814E+06	-1.09447819818E+01	1.72999460304E+02	1.09844599833E+01	1.67132190783E+02	-3.86664523532E+01	1.37322336059E+02	-5.97638132826E+00	-1.07377292345E+00
2.34160462274E+06	-1.52382055759E+01	-1.37383396572E+02	1.10438429300E+01	1.66999806698E+02	-4.53390236341E+01	3.54423531073E+01	-5.97039462653E+00	-1.18246147346E+00
2.36379597733E+06	-7.51147396399E+00	1.55291021297E+02	1.09942701458E+01	1.66463296007E+02	-4.12956443827E+01	-5.44578156069E+01	-6.02016919862E+00	-1.18633701011E+00
2.38598733193E+06	-1.39093855287E+01	1.59900221005E+02	1.10220899134E+01	1.66614383987E+02	-4.02364484421E+01	-2.67456217117E+01	-5.92783413473E+00	-1.31958865066E+00
2.40817868652E+06	-1.45511648402E+01	1.67908676357E+02	1.09838225281E+01	1.66556681988E+02	-3.87310565451E+01	1.53754730287E+02	-5.95658914446E+00	-1.14434807632E+00
2.43037004112E+06	-9.99032318567E+00	-1.75630641599E+02	1.10248475036E+01	1.66216988663E+02	-3.75979091281E+01	5.00090974199E+01	-5.98543377398E+00	-1.65942422358E+00
2.45256139571E+06	-8.74235760210E+00	1.79549019344E+02	1.09901456624E+01	1.66336962738E+02	-3.82288014488E+01	6.51529977689E+01	-5.95708415542E+00	-1.08423654936E+00
2.47475275031E+06	-9.41249720914E+00	1.75790105903E+02	1.10157044791E+01	1.66207837086E+02	-4.67916967358E+01	6.81162237930E+01	-6.00403135729E+00	-1.21026942303E+00
2.49694410490E+06	-1.25091418944E+01	1.70601139065E+02	1.09984354243E+01	1.66120029891E+02	-4.58785307794E+01	1.12079451894E+02	-5.97997998551E+00	-8.63786256261E-01
2.51913545950E+06	-9.16223741379E+00	1.57420453877E+02	1.10886850803E+01	1.65499243933E+02	-4.23711734339E+01	2.98198078078E+01	-5.99353949406E+00	-1.30890082547E+00
2.54132681409E+06	-9.36294549605E+00	-1.72879052758E+02	1.10422043122E+01	1.65881970607E+02	-4.28098279272E+01	-1.26025304510E+02	-5.99089687150E+00	-1.12182023852E+00
2.56351816869E+06	-9.83643929427E+00	-1.78728167907E+02	1.09641319059E+01	1.65843345925E+02	-5.67670061477E+01	1.56454593956E+02	-5.93915551043E+00	-1.17568089398E+00
2.58570952328E+06	-1.03682755481E+01	1.65079417984E+02	1.10112144213E+01	1.65227884674E+02	-4.71594668872E+01	-1.60458284301E+02	-5.94983250330E+00	-1.20220816567E+00
2.60790087788E+06	-9.39753822849E+00	1.78917252792E+02	1.09887684426E+01	1.65276526247E+02	-3.81964004657E+01	5.22508833115E+01	-5.94821375134E+00	-1.19349926893E+00
2.63009223247E+06	-1.37333434781E+01	-1.63304834496E+02	1.10653808855E+01	1.65032210630E+02	-4.39306244178E+01	-5.10485195894E+01	-6.01343730833E+00	-1.42695897230E+00
2.65228358707E+06	-6.75607622601E+00	1.74938666740E+02	1.10223208464E+01	1.65210471222E+02	-4.70486001128E+01	9.16093746202E+01	-5.95104419186E+00	-1.76130936730E+00
2.67447494166E+06	-8.74975080682E+00	-1.79740365184E+02	1.10383277290E+01	1.64982978504E+02	-3.90487465658E+01	-7.16072453675E+01	-5.96209498975E+00	-1.49384317686E+00
2.69666629626E+06	-1.13483162655E+01	1.66438716648E+02	1.09207390760E+01	1.64807956178E+02	-3.74090990159E+01	-1.20085810725E+02	-6.10464632992E+00	-9.62237477118E-01
2.71885765085E+06	-1.11825647204E+01	1.77971181242E+02	1.10170536138E+01	1.64747757405E+02	-4.41008517466E+01	-5.41115428977E+00	-5.98451674835E+00	-1.12932393397E+00
2.74104900545E+06	-9.23368067216E+00	1.79063179456E+02	1.09788394272E+01	1.64519261219E+02	-4.67385809958E+01	1.29010516622E+02	-5.93293319106E+00	-1.42400140143E+00
2.76324036004E+06	-1.15003677946E+01	1.73631605234E+02	1.10067024041E+01	1.64366368573E+02	-3.69625187097E+01	1.66608898780E+02	-5.96223412753E+00	-1.41169383667E+00
2.78543171463E+06	-9.63105719939E+00	1.76494679011E+02	1.10270104106E+01	1.64306423459E+02	-4.03486050265E+01	1.06348549876E+00	-5.88300735149E+00	-1.46642291346E+00
2.80762306923E+06	-8.40495941242E+00	1.78157337341E+02	1.10877020716E+01	1.63861146952E+02	-4.94042235411E+01	1.00581196545E+02	-5.95582334653E+00	-1.42791572105E+00
2.82981442382E+06	-1.07313536167E+01	1.61227707571E+02	1.10040033767E+01	1.63979740003E+02	-3.61943157223E+01	9.92878062901E+01	-5.99546158559E+00	-1.25492023236E+00
2.85200577842E+06	-9.03510699173E+00	-1.74333774788E+02	1.09935726237E+01	1.63862988094E+02	-3.84533793042E+01	4.40470463862E+01	-5.92962848633E+00	-1.44743657213E+00
2.87419713301E+06	-9.18645807482E+00	1.74371643255E+02	1.10367360749E+01	1.63691337034E+02	-3.96060538005E+01	3.53010775424E+01	-5.98497562461E+00	-1.29911477023E+00
