# Hz S DB R 50
! CMT, M5065, 19127446, 24.2.4/2
! Date: 10/29/2024 12:35:15 PM
! Data: Format (Calibration Info)
! Freq	S11:dB/Ang(F2)	S21:dB/Ang(F2)	S12:dB/Ang(F2)	S22:dB/Ang(F2)
3.00000000000E+05	-1.46256865740E+01	-1.64842338521E+02	1.19446316993E+01	-1.77907961864E+02	-4.64850901175E+01	1.79195633204E+01	-5.97474207696E+00	-1.60745653490E-01
3.22191354595E+05	-1.43926172711E+01	1.79572985702E+02	1.18867226426E+01	-1.78424396555E+02	-4.23117467304E+01	4.54401884059E+01	-5.97148212751E+00	-2.57533102129E-01
3.44382709190E+05	-8.86354592866E+00	-1.65787971618E+02	1.19167335509E+01	-1.78761658898E+02	-4.44194466111E+01	4.78752568880E+01	-5.98580406587E+00	-2.76472353931E-01
3.66574063785E+05	-1.19157142398E+01	1.66350038106E+02	1.19070222157E+01	-1.78826130642E+02	-4.14389866712E+01	-6.29082603038E-01	-5.95630796763E+00	-6.78597801220E-02
3.88765418380E+05	-9.42703534765E+00	-1.78095055380E+02	1.19089037297E+01	-1.79395051238E+02	-4.53857420645E+01	1.10103305668E+02	-5.98057188418E+00	-4.54035112590E-01
4.10956772975E+05	-9.22061388398E+00	1.69644517716E+02	1.19323030558E+01	-1.79901311925E+02	-4.18264650849E+01	-9.11447945517E+00	-5.95493445830E+00	-2.80032484419E-01
4.33148127570E+05	-1.08658963619E+01	1.76952833825E+02	1.19460341286E+01	-1.79570120393E+02	-3.66477590976E+01	-2.54136986367E+01	-5.97331933754E+00	-4.38310271673E-01
4.55339482165E+05	-8.63701358503E+00	-1.79393956259E+02	1.19743511296E+01	1.79887215916E+02	-4.55507330376E+01	6.29917973763E+01	-5.98298226618E+00	-9.19243868681E-02
4.77530836760E+05	-9.38399853287E+00	-1.59987504983E+02	1.19342180255E+01	1.79374657131E+02	-5.73430881245E+01	-1.37250159281E+02	-5.97056753599E+00	-2.14671240521E-01
4.99722191355E+05	-1.19389938084E+01	-1.71794638606E+02	1.19330419704E+01	1.79230585196E+02	-4.42662329365E+01	1.19816398168E+02	-5.98049260966E+00	-3.38813287257E-01
5.21913545950E+05	-1.01533133268E+01	-1.69912005085E+02	1.19670922493E+01	1.78868037036E+02	-4.87031639070E+01	3.94853743177E+00	-5.98464412255E+00	-2.40355995234E-01
5.44104900545E+05	-1.09187334560E+01	-1.69728948229E+02	1.19656196930E+01	1.78834365481E+02	-4.14969810758E+01	-3.82390333156E+01	-5.98133526085E+00	-2.35574774048E-01
5.66296255139E+05	-9.03697714408E+00	1.74302159576E+02	1.19577505279E+01	1.78085241516E+02	-3.64082340960E+01	9.38736432083E+01	-5.99007962723E+00	-4.97980423653E-01
5.88487609734E+05	-1.15394675231E+01	-1.63103518444E+02	1.19303476698E+01	1.78515238540E+02	-3.88078979462E+01	1.74961707086E+02	-5.97360418168E+00	-6.50345702745E-01
6.10678964329E+05	-1.21104831544E+01	-1.72964016961E+02	1.19782827353E+01	1.77914660134E+02	-3.74796138713E+01	-1.48338400655E+02	-6.01390530625E+00	-2.62524393708E-01
6.32870318924E+05	-8.17579784549E+00	1.79148075468E+02	1.19536452491E+01	1.77945010097E+02	-3.39671930076E+01	8.06609967796E+01	-5.98083277020E+00	-4.98907070148E-01
6.55061673519E+05	-1.07904332286E+01	-1.78166311355E+02	1.19486346850E+01	1.77962870340E+02	-4.34412657297E+01	1.75193165044E+02	-6.01339209340E+00	-6.55709236119E-01
6.77253028114E+05	-1.17234967602E+01	1.53296189070E+02	1.19527717491E+01	1.77462746775E+02	-4.90903005152E+01	-2.55565850635E+01	-5.98344493000E+00	-6.99081396946E-01
6.99444382709E+05	-1.08302505381E+01	-1.67630201116E+02	1.19354820178E+01	1.77256021294E+02	-4.79439678095E+01	1.31540571389E+02	-5.98018591029E+00	-5.98102872170E-01
7.21635737304E+05	-1.18190299709E+01	1.76814765837E+02	1.19851659984E+01	1.76979384266E+02	-3.93708781483E+01	-7.56164359350E+01	-5.94895313314E+00	-7.35459879678E-01
7.43827091899E+05	-9.56641695788E+00	1.74389887223E+02	1.19793492457E+01	1.76768444871E+02	-4.29165335517E+01	9.24355592750E+01	-5.97594855231E+00	-7.60511179234E-01
7.66018446494E+05	-8.60280082786E+00	-1.73012017531E+02	1.19443413958E+01	1.76886355906E+02	-5.22581548066E+01	1.03543874224E+02	-6.01339999779E+00	-6.03066828810E-01
7.88209801089E+05	-7.15398230921E+00	1.71626926286E+02	1.19809931849E+01	1.76222161087E+02	-4.00056544772E+01	1.70799575181E+02	-5.96798083156E+00	-3.92814890245E-01
8.10401155684E+05	-9.53359645972E+00	-1.50488013796E+02	1.19589748774E+01	1.76662673388E+02	-4.11498475376E+01	4.49408620073E+01	-5.93435038874E+00	-5.40253930470E-01
8.32592510279E+05	-1.14359737873E+01	-1.66572961596E+02	1.19812189488E+01	1.76424744688E+02	-4.04494081941E+01	4.77996648380E-01	-5.95720013849E+00	-5.53962891607E-01
8.54783864874E+05	-7.15442933238E+00	1.78050618361E+02	1.18829598907E+01	1.76450134763E+02	-3.32595322808E+01	6.42065324917E+00	-5.98315576213E+00	-4.33868534287E-01
8.76975219469E+05	-8.87866116876E+00	-1.67767533452E+02	1.19029248448E+01	1.76024096733E+02	-3.71355909536E+01	-3.26269422409E+01	-5.97816313200E+00	-6.91332834579E-01
8.99166574064E+05	-1.51943217430E+01	-1.56721216400E+02	1.19381973371E+01	1.75622894823E+02	-4.81105655014E+01	-1.50191831461E+02	-6.01718966976E+00	-4.93261492249E-01
9.21357928659E+05	-9.94201480241E+00	1.72807043448E+02	1.19526817598E+01	1.76067527056E+02	-4.42417148768E+01	-1.63980140895E+02	-5.97613084435E+00	-3.80816716071E-01
9.43549283254E+05	-8.90716482331E+00	1.78607171916E+02	1.19596786933E+01	1.75428261403E+02	-3.58507004527E+01	-1.28793089117E+02	-5.98459988516E+00	-5.79324198143E-01
9.65740637849E+05	-9.57806778287E+00	-1.79355604441E+02	1.19691818492E+01	1.74959637466E+02	-4.46527310096E+01	-1.77215891727E+02	-5.95571813923E+00	-5.98258670684E-01
9.87931992444E+05	-9.79672628127E+00	-1.57037921769E+02	1.19091054752E+01	1.74930855294E+02	-4.04041679011E+01	1.38923892176E+02	-5.93561221880E+00	-6.96442451984E-01
1.01012334704E+06	-1.09581690103E+01	1.63301225427E+02	1.19304406516E+01	1.75005099253E+02	-4.37613572024E+01	-1.43974403236E+02	-5.98972712877E+00	-6.53173399110E-01
1.03231470163E+06	-1.00651190232E+01	-1.59165538751E+02	1.19342602230E+01	1.74965333610E+02	-4.12271606126E+01	-2.00192810240E+00	-5.96290676114E+00	-5.95770784959E-01
1.05450605623E+06	-1.11278294881E+01	1.71563668226E+02	1.19206052260E+01	1.74634165796E+02	-3.95716335803E+01	5.27454700429E+01	-5.96081913777E+00	-6.49229332218E-01
1.07669741082E+06	-9.96781979104E+00	1.74304830021E+02	1.19743313331E+01	1.74462736092E+02	-5.21469963835E+01	1.75198336063E+02	-5.99084186982E+00	-5.77558751875E-01
1.09888876542E+06	-8.71035094622E+00	1.44426689678E+02	1.19582688899E+01	1.74124490359E+02	-3.81247890764E+01	2.55286798066E+01	-5.98150312838E+00	-9.91980179700E-01
1.12108012001E+06	-9.88938905600E+00	1.71507404800E+02	1.19515770669E+01	1.74085179377E+02	-4.42364479902E+01	-1.65248997934E+02	-5.96021637915E+00	-4.23638349281E-01
1.14327147461E+06	-7.83533017281E+00	-1.78418873921E+02	1.19667866515E+01	1.73989339869E+02	-5.71374728296E+01	-1.72888146588E+02	-6.02261559771E+00	-7.12141814922E-01
1.16546282920E+06	-8.42716481341E+00	1.79053327310E+02	1.19110487468E+01	1.73612718363E+02	-3.77167216771E+01	1.78717542449E+02	-5.97029190740E+00	-6.84055401438E-01
1.18765418380E+06	-1.21454988697E+01	1.55599910144E+02	1.19895188555E+01	1.73388482191E+02	-4.38503982711E+01	1.29156565279E+02	-5.98448874413E+00	-6.05333418079E-01
1.20984553839E+06	-1.02180332339E+01	1.61260053580E+02	1.19796090379E+01	1.73464518010E+02	-3.95142931281E+01	-8.28018730193E+01	-5.97752473956E+00	-1.03389840089E+00
1.23203689299E+06	-1.09692855619E+01	1.68453681345E+02	1.19577734521E+01	1.73370611923E+02	-4.09256281833E+01	-1.12516587878E+02	-5.98252350240E+00	-4.63271716997E-01
1.25422824758E+06	-9.42813741206E+00	-1.68034930632E+02	1.19477193554E+01	1.73228698342E+02	-3.42780182432E+01	-1.55518726131E+02	-5.95288994553E+00	-7.50049258741E-01
1.27641960218E+06	-1.21778362430E+01	-1.68455770161E+02	1.19091440881E+01	1.72995519381E+02	-3.40606769423E+01	-7.88377341226E+00	-5.93985391302E+00	-3.58544017137E-01
1.29861095677E+06	-7.32225256662E+00	1.59369238613E+02	1.19492594415E+01	1.72938127050E+02	-4.37197285888E+01	6.23259254966E+01	-6.02269983726E+00	-6.01476128748E-01
1.32080231137E+06	-1.14137688785E+01	1.74163100599E+02	1.19305724965E+01	1.72719553552E+02	-3.57186201305E+01	-1.01240992062E+02	-5.94731647402E+00	-1.21754217145E+00
1.34299366596E+06	-1.07369811404E+01	-1.61474619404E+02	1.19570158803E+01	1.72243928758E+02	-3.98701333648E+01	-1.50816754495E+02	-5.98063926499E+00	-8.73066954720E-01
1.36518502056E+06	-1.03212827243E+01	-1.69031710683E+02	1.19637495768E+01	1.72426535608E+02	-3.76617803299E+01	7.68795047078E+01	-5.95352914943E+00	-6.25827772703E-01
1.38737637515E+06	-1.06393246236E+01	1.60188753548E+02	1.19592299435E+01	1.72495952832E+02	-3.53288390029E+01	1.71049038591E+02	-6.00891893384E+00	-5.72872825577E-01
1.40956772975E+06	-1.09498051526E+01	-1.73994746530E+02	1.19515800627E+01	1.72110550233E+02	-3.60299537351E+01	-9.82029441719E+01	-6.00900711738E+00	-9.89063409807E-01
1.43175908434E+06	-1.05460198155E+01	-1.76811726110E+02	1.19571865181E+01	1.71989193316E+02	-5.10605871667E+01	-5.70223851448E+00	-5.97864946852E+00	-9.63208257669E-01
1.45395043894E+06	-1.21238969729E+01	-1.46127264890E+02	1.19382245559E+01	1.71355907761E+02	-3.47100191440E+01	5.66577506120E+01	-5.98198036759E+00	-5.71676069739E-01
1.47614179353E+06	-1.32671474523E+01	-1.70395359774E+02	1.19520684451E+01	1.71645302375E+02	-5.06720138735E+01	-1.64708370471E+02	-5.99083256769E+00	-6.59905020959E-01
1.49833314813E+06	-1.32961161657E+01	1.74012602352E+02	1.19407620547E+01	1.71662918688E+02	-3.57120171632E+01	-4.97973958004E+01	-5.97201917747E+00	-6.89073890374E-01
1.52052450272E+06	-1.46205308208E+01	1.78930962252E+02	1.19030415102E+01	1.71588902308E+02	-3.80714549973E+01	1.24962344164E+02	-5.94774372419E+00	-9.88091868302E-01
1.54271585732E+06	-1.03920406161E+01	-1.65489875239E+02	1.19619286991E+01	1.71154467163E+02	-3.64938351186E+01	8.49503827186E+01	-5.98583614433E+00	-9.24620243368E-01
1.56490721191E+06	-1.14959483103E+01	1.78046676201E+02	1.19139155012E+01	1.71240591909E+02	-4.01628458189E+01	1.95009211171E+01	-5.98726122800E+00	-6.78421560279E-01
1.58709856651E+06	-1.06208383203E+01	1.65032823600E+02	1.19344919535E+01	1.70988550241E+02	-4.49104500963E+01	1.59158618002E+02	-5.95413895099E+00	-8.01127991883E-01
1.60928992110E+06	-7.83623392408E+00	-1.75172397310E+02	1.19254124626E+01	1.70663542449E+02	-3.81572402985E+01	-4.24575679821E+01	-6.00369350690E+00	-1.03774753232E+00
1.63148127570E+06	-9.74130909930E+00	1.67382604675E+02	1.19319949643E+01	1.70721543757E+02	-3.93642497361E+01	8.72052222893E+00	-5.93448154527E+00	-9.67479608315E-01
1.65367263029E+06	-9.71851619689E+00	-1.79410055628E+02	1.18975169322E+01	1.69950263991E+02	-4.46230774007E+01	-1.51173431451E+02	-5.97716677734E+00	-8.69547807235E-01
1.67586398489E+06	-1.31264586415E+01	1.57688852222E+02	1.18464535069E+01	1.70049006223E+02	-5.01909341189E+01	-1.31377408361E+02	-5.98032612244E+00	-7.55378157052E-01
1.69805533948E+06	-9.01402742136E+00	-1.65151013965E+02	1.19567002702E+01	1.70239003471E+02	-4.27376095232E+01	-1.64515120862E+02	-5.97296500265E+00	-6.62903349318E-01
1.72024669408E+06	-9.53018184038E+00	1.54980239248E+02	1.18952353897E+01	1.69853047197E+02	-3.93609740509E+01	1.03358407543E+02	-5.98980755545E+00	-9.05778443993E-01
1.74243804867E+06	-1.19601779581E+01	1.68919410334E+02	1.19699866677E+01	1.70006392721E+02	-4.55382744714E+01	9.58099836092E+01	-5.96673743181E+00	-1.04720474134E+00
1.76462940327E+06	-6.47679002069E+00	1.75456865616E+02	1.19176094019E+01	1.69829968421E+02	-4.43732922813E+01	5.75061084282E+01	-5.96386835002E+00	-1.18250068236E+00
1.78682075786E+06	-9.60125466323E+00	1.75466519994E+02	1.19171686575E+01	1.69824270040E+02	-4.66000699367E+01	7.87942966894E+01	-5.95306354896E+00	-1.08653156693E+00
1.80901211246E+06	-9.35097747287E+00	1.66337020013E+02	1.19772312369E+01	1.68930944622E+02	-4.29648936147E+01	3.99253379315E+01	-5.97500954733E+00	-1.04543016096E+00
1.83120346705E+06	-1.04004995836E+01	-1.71273569524E+02	1.18462856582E+01	1.69032279365E+02	-4.25782593332E+01	-1.46430151941E+02	-5.94781084290E+00	-7.77242352306E-01
1.85339482165E+06	-8.46929798616E+00	-1.74638065254E+02	1.19108078158E+01	1.69218695056E+02	-4.02835148341E+01	-8.22332829725E-01	-5.98640776123E+00	-1.09960075889E+00
1.87558617624E+06	-1.34030014409E+01	-1.41087129100E+02	1.19077106651E+01	1.69056398738E+02	-4.09827340683E+01	2.99855864735E+01	-5.94600590917E+00	-8.86714836477E-01
1.89777753084E+06	-1.00504271905E+01	-1.47569536836E+02	1.19709797591E+01	1.68921063402E+02	-4.85697394895E+01	-1.48225458194E+01	-6.03725869810E+00	-8.22320927091E-01
1.91996888543E+06	-1.60438974444E+01	1.65203678381E+02	1.19524502083E+01	1.68652574235E+02	-4.06254015770E+01	-1.21401474678E+02	-5.99933219646E+00	-8.16113092232E-01
1.94216024003E+06	-9.88197372597E+00	-1.61209232136E+02	1.18843382089E+01	1.68503476728E+02	-4.28651777737E+01	1.08201572446E+02	-5.97761823784E+00	-7.87470610437E-01
1.96435159462E+06	-1.12862479634E+01	1.54280227574E+02	1.19304323138E+01	1.68382008681E+02	-3.72707451016E+01	9.58480591517E+01	-5.98392505311E+00	-9.22135238022E-01
1.98654294922E+06	-1.05486296524E+01	1.70873020248E+02	1.18634026955E+01	1.68740409746E+02	-5.63151746200E+01	-8.51095570685E+01	-5.95559248364E+00	-1.00887371806E+00
2.00873430381E+06	-9.26813072930E+00	-1.58484694527E+02	1.19636894458E+01	1.67971296413E+02	-4.25967850295E+01	8.03021539025E+01	-5.99619122961E+00	-8.66133153445E-01
2.03092565841E+06	-8.34089715657E+00	1.75977939042E+02	1.19071357913E+01	1.67925768436E+02	-3.62939396576E+01	1.46816516446E+02	-5.97531101169E+00	-1.08168025384E+00
2.05311701300E+06	-8.06697687012E+00	1.72597746202E+02	1.19609626947E+01	1.68134156733E+02	-3.96475600591E+01	-5.56499578681E+01	-5.95940561131E+00	-1.05029745694E+00
2.07530836760E+06	-1.06550049899E+01	1.62895356520E+02	1.19787920238E+01	1.67831941254E+02	-3.66240682861E+01	4.53994617075E+01	-5.76204990857E+00	-1.03874199750E+00
2.09749972219E+06	-1.23086621799E+01	1.69355047618E+02	1.18980566547E+01	1.67996032409E+02	-4.47753822770E+01	6.24388059036E+01	-5.97636566974E+00	-1.29515836140E+00
2.11969107679E+06	-1.17744370755E+01	1.76596898039E+02	1.19592486427E+01	1.67438686994E+02	-3.44244454448E+01	1.01132797020E+02	-5.94018203996E+00	-8.67340026346E-01
2.14188243138E+06	-1.01780790763E+01	1.50186365888E+02	1.18673263210E+01	1.67232758587E+02	-4.03230697920E+01	-1.57787596276E+02	-5.95991654073E+00	-9.15043402525E-01
2.16407378598E+06	-9.37251621815E+00	1.65977787724E+02	1.19219033678E+01	1.67120444939E+02	-3.68987683989E+01	8.90952144288E+01	-5.94459930770E+00	-1.16673210882E+00
2.18626514057E+06	-8.58718128988E+00	1.78726977189E+02	1.19031766837E+01	1.66964774029E+02	-4.40853464744E+01	-1.23768352054E+02	-5.97414774670E+00	-1.07838245056E+00
2.20845649517E+06	-8.32216848607E+00	1.66058230582E+02	1.19099421761E+01	1.66899182664E+02	-3.49476044497E+01	-1.57916914778E+01	-5.96913310606E+00	-1.13219672268E+00
2.23064784976E+06	-1.13846279267E+01	1.76444357253E+02	1.19219440501E+01	1.66852732453E+02	-3.85914163952E+01	7.30396745132E+01	-5.82789129179E+00	-9.69856828032E-01
2.25283920436E+06	-9.51212113360E+00	-1.78086329596E+02	1.18976398289E+01	1.66541712812E+02	-4.65731765555E+01	-1.41510277035E+02	-5.96704084487E+00	-9.95982555170E-01
2.27503055895E+06	-8.47046141531E+00	-1.71534561627E+02	1.19260024173E+01	1.66352463649E+02	-3.87068575190E+01	-1.71146876758E+02	-5.97559927979E+00	-9.46102723881E-01
2.29722191355E+06	-6.99871113076E+00	-1.79109141092E+02	1.20719146809E+01	1.65584834466E+02	-4.27637204844E+01	-1.19621955822E+02	-5.95959369746E+00	-1.01889800199E+00
2.31941326814E+06	-8.06505485019E+00	1.68504214110E+02	1.19146107050E+01	1.66325958079E+02	-4.84126405386E+01	-1.53150663784E+02	-5.95487523252E+00	-1.29549381205E+00
2.34160462274E+06	-9.11890037587E+00	1.72409690724E+02	1.19574935044E+01	1.65870895455E+02	-5.09643869049E+01	4.14152197623E+00	-5.95773842110E+00	-7.30223204201E-01
2.36379597733E+06	-1.25743812950E+01	-1.69686249665E+02	1.19556428265E+01	1.66014810020E+02	-4.07599824882E+01	-3.70023334755E+01	-6.02210761352E+00	-1.19957691225E+00
2.38598733193E+06	-9.48731746262E+00	-1.79387213657E+02	1.19707788457E+01	1.65840084088E+02	-3.67505732640E+01	1.08153343094E+02	-5.98471476819E+00	-8.94225770074E-01
2.40817868652E+06	-9.50302370647E+00	-1.73495343261E+02	1.19305791286E+01	1.65648487728E+02	-4.08659986158E+01	-2.55680449751E+01	-5.99633883117E+00	-1.30648871898E+00
2.43037004112E+06	-7.41723866721E+00	-1.66296667825E+02	1.19395649887E+01	1.65821409021E+02	-3.95388179677E+01	7.98189794856E+01	-5.97316238084E+00	-1.36303567949E+00
2.45256139571E+06	-1.13996250482E+01	1.67974151297E+02	1.19571482751E+01	1.65772437992E+02	-4.43449341526E+01	-1.46128598352E+02	-6.00232372103E+00	-1.06266643190E+00
2.47475275031E+06	-7.37551294823E+00	-1.69046015781E+02	1.19684653902E+01	1.65176653335E+02	-4.34859344257E+01	5.20588977839E+01	-6.00231680915E+00	-1.17158177681E+00
2.49694410490E+06	-8.84669580271E+00	-1.67580687071E+02	1.19124955842E+01	1.65100738730E+02	-5.54208071346E+01	1.60167986679E+02	-5.96829601446E+00	-1.31528582945E+00
2.51913545950E+06	-9.26526092024E+00	-1.71112208896E+02	1.19119129618E+01	1.65027108226E+02	-4.32816891247E+01	1.08530854640E+02	-5.99432897131E+00	-1.24979774940E+00
2.54132681409E+06	-1.08991116306E+01	1.72392588465E+02	1.19381984645E+01	1.64812860310E+02	-3.50769390944E+01	-1.71286174971E+02	-6.06771883844E+00	-7.14500176646E-01
2.56351816869E+06	-1.23537719177E+01	1.78133053039E+02	1.19511703527E+01	1.64711640530E+02	-5.30364762032E+01	3.01620880330E+01	-5.98701295031E+00	-1.10346322446E+00
2.58570952328E+06	-1.26635858673E+01	1.75315802124E+02	1.19375735713E+01	1.64831613617E+02	-3.64806486994E+01	9.10438784782E+01	-5.96115917094E+00	-1.42252788875E+00
2.60790087788E+06	-7.87468753755E+00	1.79104069455E+02	1.19306604578E+01	1.64577552905E+02	-4.69707458597E+01	1.41124551601E+02	-5.96852175671E+00	-1.28174119663E+00
2.63009223247E+06	-9.93680740051E+00	1.74676432677E+02	1.19304204396E+01	1.64338425237E+02	-4.45690595677E+01	5.21075620188E+01	-5.96990375456E+00	-1.36188009012E+00
2.65228358707E+06	-1.18616365683E+01	1.62471756531E+02	1.19567304994E+01	1.63900568491E+02	-3.66772382000E+01	-1.78369127279E+02	-5.93831356976E+00	-1.76317175892E+00
2.67447494166E+06	-1.79973449027E+01	-1.69247794217E+02	1.19470814101E+01	1.64081883147E+02	-3.84458988196E+01	5.28750006058E+01	-5.90501026437E+00	-1.23289749685E+00
2.69666629626E+06	-1.20349368350E+01	1.62449036612E+02	1.19700237771E+01	1.63808831795E+02	-4.51322263694E+01	1.35866626712E+02	-5.95090951129E+00	-1.26875621736E+00
2.71885765085E+06	-1.18673404857E+01	-1.67059273230E+02	1.19303481739E+01	1.63742484575E+02	-4.23259908170E+01	-3.13228521660E+01	-5.94277608611E+00	-1.13088589871E+00
2.74104900545E+06	-7.96129188661E+00	-1.65160484296E+02	1.19697447339E+01	1.63532858961E+02	-4.50208370930E+01	1.53579792915E+02	-5.90220568191E+00	-1.31201988834E+00
2.76324036004E+06	-9.55867136496E+00	-1.74397276005E+02	1.19209924761E+01	1.63489716712E+02	-4.44351470356E+01	-1.17312271047E+02	-5.97983949264E+00	-1.31950114950E+00
2.78543171463E+06	-8.27740852290E+00	1.76471340264E+02	1.19092812845E+01	1.63406643366E+02	-3.76446188196E+01	7.51025233786E+01	-5.91363219919E+00	-1.36666058262E+00
2.80762306923E+06	-9.88298850491E+00	-1.68093489784E+02	1.19125396879E+01	1.63184886273E+02	-3.84916460558E+01	2.54212912869E+01	-5.97628414409E+00	-1.32219427493E+00
2.82981442382E+06	-8.98911313348E+00	1.73375228822E+02	1.18849973602E+01	1.63128094536E+02	-3.54128743256E+01	-1.42348783360E+02	-5.94841426626E+00	-1.37237030911E+00
2.85200577842E+06	-1.01238316194E+01	1.75736945689E+02	1.19526693732E+01	1.63121221328E+02	-5.54041180676E+01	1.30352068080E+02	-6.04949610827E+00	-1.22593382344E+00
2.87419713301E+06	-9.19097676863E+00	-1.73388811744E+02	1.19414133225E+01	1.62859583411E+02	-3.90984377874E+01	4.85427357463E+01	-5.97896436931E+00	-1.07458653906E+00
