# Hz S DB R 50
! CMT, M5065, 19127446, 24.2.4/2
! Date: 10/29/2024 11:49:42 AM
! Data: Format (Calibration Info)
! Freq	S11:dB/Ang(F2)	S21:dB/Ang(F2)	S12:dB/Ang(F2)	S22:dB/Ang(F2)
3.00000000000E+05	-1.17256684511E+01	1.77693592950E+02	5.24119789259E+00	-1.77942516481E+02	-4.66842555063E+01	-6.92201828279E+00	-5.96380078787E+00	-2.06566798572E-01
3.22191354595E+05	-1.23739714085E+01	-1.71569466555E+02	5.27429095420E+00	-1.78613001486E+02	-6.22672084470E+01	1.57819942433E+02	-5.97335415380E+00	-1.69705851794E-01
3.44382709190E+05	-1.12089461118E+01	-1.78536352720E+02	5.23980659143E+00	-1.78810469809E+02	-4.95037289089E+01	-3.51625316421E-02	-5.98608017285E+00	-7.71262235778E-02
3.66574063785E+05	-7.65293268738E+00	-1.66168166667E+02	5.28268600456E+00	-1.78788729378E+02	-3.93767200115E+01	-1.05751008434E+02	-5.99303454522E+00	-2.81814605252E-01
3.88765418380E+05	-1.16474880244E+01	-1.75150757684E+02	5.26132495688E+00	-1.79279285144E+02	-4.37018951563E+01	-1.45319700765E+02	-5.98429190649E+00	-2.36159948784E-01
4.10956772975E+05	-9.26124678114E+00	1.70962215346E+02	5.26127423338E+00	-1.79312911072E+02	-5.28591849562E+01	1.75694186717E+02	-5.97510400422E+00	-4.36921072127E-01
4.33148127570E+05	-1.02450591020E+01	1.73913663313E+02	5.28837336193E+00	-1.79756356316E+02	-5.45855184941E+01	1.00554289518E+02	-5.96975129621E+00	-2.56260119040E-01
4.55339482165E+05	-1.24340852008E+01	1.74352020465E+02	5.27958283799E+00	-1.79821243833E+02	-4.14494995693E+01	-4.13585293932E+01	-5.98153371870E+00	-3.01134850173E-01
4.77530836760E+05	-8.54436674024E+00	-1.74671467886E+02	5.28820610598E+00	1.79801771333E+02	-4.14672759058E+01	8.64990427088E+01	-5.97663412806E+00	-3.54380900222E-01
4.99722191355E+05	-9.33285586828E+00	1.65751401999E+02	5.31395671800E+00	1.79961543069E+02	-5.36836658978E+01	1.54608379191E+02	-5.97637324330E+00	-4.16465766483E-01
5.21913545950E+05	-9.81392382408E+00	-1.74733444262E+02	5.27625893677E+00	1.79703208994E+02	-5.22705508540E+01	2.35001359115E+01	-5.97731060131E+00	-1.92730275827E-01
5.44104900545E+05	-1.12980140017E+01	-1.64119312138E+02	5.29198443901E+00	1.79675294334E+02	-4.76018256370E+01	-1.60097870895E+02	-5.97943342714E+00	-3.17031854445E-01
5.66296255139E+05	-1.12122565341E+01	-1.74503064674E+02	5.29539169330E+00	1.79405219839E+02	-5.93739500231E+01	-1.68521375108E+02	-5.97632729935E+00	-3.95486807946E-01
5.88487609734E+05	-9.47283147052E+00	-1.64383932940E+02	5.25211748377E+00	1.79054554694E+02	-4.75828992485E+01	-7.43386675952E+01	-5.95896249844E+00	-3.90778503772E-01
6.10678964329E+05	-1.36477338507E+01	1.77942723463E+02	5.27748794049E+00	1.78827324039E+02	-4.23814945652E+01	9.33183344712E+01	-5.99422379227E+00	4.25038206718E-03
6.32870318924E+05	-1.03606142087E+01	-1.72265795217E+02	5.30645355950E+00	1.78648362045E+02	-4.25274056225E+01	-5.96744573475E+01	-5.97920407168E+00	-3.51114313259E-01
6.55061673519E+05	-1.19087018522E+01	1.77931177658E+02	5.27634745069E+00	1.78503239628E+02	-4.67807647717E+01	1.68446638731E+02	-5.95831371206E+00	-2.25008247184E-01
6.77253028114E+05	-1.14923044861E+01	-1.70522116287E+02	5.26256899146E+00	1.78792042848E+02	-5.39520148765E+01	8.64547182575E+01	-5.97751065826E+00	-6.42995484364E-01
6.99444382709E+05	-1.00210961692E+01	1.76706186003E+02	5.27305128656E+00	1.78381046085E+02	-4.62390493551E+01	-1.14317039165E+02	-5.96687178861E+00	-4.50970527366E-01
7.21635737304E+05	-1.10383799949E+01	1.78047408191E+02	5.25795315267E+00	1.78038295437E+02	-4.72097814806E+01	1.68812265741E+01	-5.99930935863E+00	-4.69126596082E-01
7.43827091899E+05	-8.75818880877E+00	1.77749425773E+02	5.32032815422E+00	1.77934096497E+02	-4.43049844900E+01	-2.98684789445E+01	-5.97113418987E+00	-4.96021561848E-01
7.66018446494E+05	-9.56945386137E+00	-1.74139687062E+02	5.28697728927E+00	1.77702738571E+02	-4.12495820227E+01	1.87373599432E+01	-5.97966621163E+00	-5.16121808825E-01
7.88209801089E+05	-1.17086548581E+01	-1.72780952782E+02	5.32573617679E+00	1.77804300246E+02	-4.25698889864E+01	-3.39249654259E+01	-5.96949005829E+00	-3.41260943200E-01
8.10401155684E+05	-1.03078407053E+01	1.72727210752E+02	5.29538334754E+00	1.77715128921E+02	-4.45902854672E+01	4.74609944048E+01	-5.96699972936E+00	-5.11804095566E-01
8.32592510279E+05	-1.22535486876E+01	1.59862701114E+02	5.32913844894E+00	1.77422171906E+02	-4.31093038216E+01	1.46472838889E+02	-5.95749298752E+00	-3.84254695319E-01
8.54783864874E+05	-9.07264669246E+00	-1.79866420405E+02	5.30430951236E+00	1.77459762303E+02	-4.54132399454E+01	-6.29849501917E+01	-5.96471287259E+00	-5.09108134368E-01
8.76975219469E+05	-1.12827187741E+01	1.78329278926E+02	5.27094018996E+00	1.77288642314E+02	-4.03312907483E+01	1.62876105670E+02	-5.96082372530E+00	-4.03017182582E-01
8.99166574064E+05	-9.36167973295E+00	-1.76982902460E+02	5.26188866698E+00	1.77067797840E+02	-4.24226047441E+01	3.16159392069E+01	-5.96907218955E+00	-5.06016162902E-01
9.21357928659E+05	-1.25299027001E+01	1.77779746126E+02	5.29439977226E+00	1.76774809527E+02	-5.12223636441E+01	-5.27118523563E+01	-5.97007223746E+00	-5.68888305631E-01
9.43549283254E+05	-8.82355964524E+00	1.68680818216E+02	5.32354993800E+00	1.76957949467E+02	-4.40667031456E+01	1.23260182109E+02	-5.96712247979E+00	-5.22666078404E-01
9.65740637849E+05	-8.83726157238E+00	-1.72971979002E+02	5.29738575947E+00	1.76874203684E+02	-4.39725786666E+01	1.54090691486E+01	-5.96794247578E+00	-3.92260881696E-01
9.87931992444E+05	-1.15354947774E+01	-1.75274153317E+02	5.28298415668E+00	1.76542403455E+02	-4.72736114965E+01	-2.05215765775E+01	-5.96642034341E+00	-3.97960559286E-01
1.01012334704E+06	-8.92075679082E+00	-1.69249270848E+02	5.32291429254E+00	1.76322007997E+02	-4.38299894983E+01	-4.42661307549E+00	-5.95643692847E+00	-5.44474205945E-01
1.03231470163E+06	-9.68021348971E+00	1.67204550409E+02	5.29789597066E+00	1.76317473514E+02	-4.21147646323E+01	-1.16364733455E+02	-5.98726294259E+00	-5.27132421183E-01
1.05450605623E+06	-1.11822045719E+01	1.63555776053E+02	5.29185215379E+00	1.76258559276E+02	-4.85966408632E+01	1.23910495823E+02	-5.95561042450E+00	-5.29662300554E-01
1.07669741082E+06	-9.70198139232E+00	-1.77580035085E+02	5.27244734172E+00	1.76067114620E+02	-4.26953482700E+01	8.60276377943E+01	-5.97193533630E+00	-5.34790787885E-01
1.09888876542E+06	-1.01001594352E+01	-1.61713225512E+02	5.24212885121E+00	1.76162518371E+02	-4.46658234549E+01	7.37593020625E+01	-5.97762221084E+00	-8.18249737246E-01
1.12108012001E+06	-1.10396984866E+01	1.70872938151E+02	5.26710071214E+00	1.75807218304E+02	-4.47755256022E+01	-4.30878661382E+01	-5.94401951984E+00	-5.63083861287E-01
1.14327147461E+06	-9.55724459738E+00	-1.67610104503E+02	5.31238524063E+00	1.75877478207E+02	-4.58487923600E+01	-3.95247649856E+01	-6.00117468981E+00	-5.39073872933E-01
1.16546282920E+06	-1.35746565510E+01	-1.75948604220E+02	5.27329277322E+00	1.75426042616E+02	-4.70682263936E+01	-5.84428617661E+01	-5.98498911787E+00	-5.60659762477E-01
1.18765418380E+06	-1.09701318108E+01	-1.66910095185E+02	5.28364763281E+00	1.75634764292E+02	-5.14332667778E+01	-2.28661825413E+01	-5.96309967092E+00	-6.96394834291E-01
1.20984553839E+06	-1.03574359373E+01	1.67787857786E+02	5.26703041950E+00	1.75478071097E+02	-4.43937811179E+01	-1.33606802737E+02	-5.96968324354E+00	-9.70461319414E-01
1.23203689299E+06	-9.46593517258E+00	-1.73576608872E+02	5.29245853190E+00	1.75250801100E+02	-5.60085371438E+01	-6.09555692205E+01	-5.98237965351E+00	-3.94472890882E-01
1.25422824758E+06	-1.12061950662E+01	-1.74247799919E+02	5.32006352020E+00	1.75285352636E+02	-4.28696462254E+01	5.14475536202E+01	-5.96572465542E+00	-5.74133165034E-01
1.27641960218E+06	-1.13508895002E+01	1.79536284827E+02	5.31259592565E+00	1.75223367943E+02	-4.33667991485E+01	-1.08066150821E+02	-5.97296236410E+00	-6.15390120884E-01
1.29861095677E+06	-9.49642238175E+00	1.76004988149E+02	5.31564065349E+00	1.74858472536E+02	-5.26948655046E+01	7.62745890264E+01	-5.97338551770E+00	-7.37199184166E-01
1.32080231137E+06	-1.02857577372E+01	-1.79541167352E+02	5.32086404813E+00	1.75070890684E+02	-4.86938901097E+01	-1.79836290047E+02	-5.98740478476E+00	-1.09165205798E+00
1.34299366596E+06	-8.74586145672E+00	1.66958834178E+02	5.30721083783E+00	1.75124713243E+02	-3.63324458615E+01	1.63614346085E+02	-5.97383598235E+00	-7.46882979816E-01
1.36518502056E+06	-9.69854947698E+00	1.78627565231E+02	5.29011940682E+00	1.74793436931E+02	-5.31732734907E+01	7.88667527649E+01	-5.97964138127E+00	-7.41768138645E-01
1.38737637515E+06	-1.00950618999E+01	-1.77196407644E+02	5.28624680036E+00	1.74593286898E+02	-4.70021085921E+01	1.64287854084E+02	-5.98100394870E+00	-5.00685600726E-01
1.40956772975E+06	-1.14543887330E+01	1.73265135361E+02	5.32439532387E+00	1.74378903705E+02	-4.99308298396E+01	8.57353347778E+01	-5.97895547457E+00	-7.41808451841E-01
1.43175908434E+06	-1.14580254013E+01	-1.77887204111E+02	5.28816421658E+00	1.74417076118E+02	-4.58585855345E+01	7.23377842578E+01	-5.98250500329E+00	-7.69080452036E-01
1.45395043894E+06	-9.88319846316E+00	-1.69054754761E+02	5.29224580884E+00	1.74296413293E+02	-4.93769754459E+01	9.82659815939E+00	-5.95171903234E+00	-9.11588942439E-01
1.47614179353E+06	-1.03017377159E+01	1.71174448363E+02	5.27187246922E+00	1.73919636080E+02	-4.69025384379E+01	1.26181457612E+02	-5.96123696726E+00	-7.32933092486E-01
1.49833314813E+06	-9.44194534787E+00	1.77505346479E+02	5.30630165728E+00	1.74055022845E+02	-4.06564191509E+01	1.72155276999E+02	-5.98874859766E+00	-8.47399282497E-01
1.52052450272E+06	-1.02406692362E+01	1.75603033559E+02	5.28186684041E+00	1.73691207810E+02	-5.09338776091E+01	4.00608978735E+01	-5.95989560284E+00	-8.01477223703E-01
1.54271585732E+06	-9.71107938380E+00	1.73584374365E+02	5.30037132517E+00	1.73688845594E+02	-4.48009599835E+01	1.13145291540E+02	-5.98218299492E+00	-9.03375032105E-01
1.56490721191E+06	-1.04719902368E+01	1.69121581375E+02	5.30658871626E+00	1.73398725775E+02	-4.18953065764E+01	-2.38213183392E+01	-5.96069950041E+00	-7.06280575527E-01
1.58709856651E+06	-1.03045317809E+01	1.74501756711E+02	5.28077550667E+00	1.73551868309E+02	-4.78766774915E+01	1.28436229483E+02	-5.98555974522E+00	-7.94967311567E-01
1.60928992110E+06	-9.92499486220E+00	-1.76299662213E+02	5.28116931960E+00	1.73459979443E+02	-4.40994747877E+01	-4.36681400146E+01	-5.99882466015E+00	-8.46405344448E-01
1.63148127570E+06	-9.09381788071E+00	1.73637493686E+02	5.28306559046E+00	1.73203151894E+02	-5.56755097852E+01	-1.56121230476E+02	-5.97719145298E+00	-7.26800621660E-01
1.65367263029E+06	-9.08221259765E+00	-1.66473260836E+02	5.27935843465E+00	1.73187173481E+02	-4.89501774623E+01	-3.41793416149E+00	-5.97899771941E+00	-9.70777362509E-01
1.67586398489E+06	-1.03037589402E+01	-1.77478100692E+02	5.27313376874E+00	1.73048335902E+02	-6.01179759739E+01	-6.25904257655E+01	-5.97539920399E+00	-7.91761311840E-01
1.69805533948E+06	-9.07175651477E+00	1.69787218264E+02	5.31903425946E+00	1.72954749765E+02	-4.37429287664E+01	5.27670442996E+01	-5.96324885552E+00	-7.18110931626E-01
1.72024669408E+06	-9.72105388894E+00	-1.63288592048E+02	5.29598463391E+00	1.73080526975E+02	-5.69046081941E+01	5.39958676117E+01	-5.98918867628E+00	-8.45145119578E-01
1.74243804867E+06	-7.93680320506E+00	-1.77651210880E+02	5.29375124914E+00	1.72453246069E+02	-5.17888002789E+01	-1.49653757038E+02	-5.95531390475E+00	-7.76717058347E-01
1.76462940327E+06	-1.08359066365E+01	-1.79261725306E+02	5.25822693124E+00	1.72481993748E+02	-4.60489714538E+01	-1.49507403179E+02	-5.96790515740E+00	-9.58248378670E-01
1.78682075786E+06	-1.08897343428E+01	1.75441135792E+02	5.28856557268E+00	1.72817175316E+02	-5.30048886235E+01	1.47618763238E+02	-5.95803173799E+00	-8.79203347088E-01
1.80901211246E+06	-1.06445350537E+01	-1.64536347468E+02	5.30779158583E+00	1.72525793549E+02	-4.79742628819E+01	-1.23084688932E+02	-5.97893419340E+00	-7.95489959808E-01
1.83120346705E+06	-1.20436037539E+01	1.70691942889E+02	5.25146515404E+00	1.72275385000E+02	-5.32499285522E+01	-2.79332799180E+01	-5.95680896048E+00	-7.90311569220E-01
1.85339482165E+06	-1.08275363977E+01	1.78680826348E+02	5.29006363182E+00	1.72384961663E+02	-3.91188362395E+01	-3.36299090682E+01	-5.97607487484E+00	-8.50870492381E-01
1.87558617624E+06	-1.12036385885E+01	1.75492744679E+02	5.27069188485E+00	1.71739550853E+02	-4.47397861696E+01	-1.68564866437E+02	-5.97376267294E+00	-8.84670393731E-01
1.89777753084E+06	-9.44239975396E+00	1.70938637628E+02	5.31952067564E+00	1.72022504792E+02	-4.94228397391E+01	-1.31796435600E+02	-5.96419473407E+00	-9.15618635552E-01
1.91996888543E+06	-8.54591294001E+00	-1.79635891628E+02	5.30475589595E+00	1.71955212744E+02	-5.04295790388E+01	7.19500575579E+01	-5.96338016556E+00	-1.08647669175E+00
1.94216024003E+06	-1.00387367292E+01	1.77764948511E+02	5.27569815642E+00	1.71832930686E+02	-5.59289835636E+01	1.45416469051E+02	-5.95882768772E+00	-9.70149726481E-01
1.96435159462E+06	-9.00684979310E+00	1.71217972255E+02	5.23874615694E+00	1.71890494385E+02	-4.29689943810E+01	-1.09975846932E+01	-5.96419072400E+00	-9.56741064052E-01
1.98654294922E+06	-9.50892782839E+00	-1.68876002783E+02	5.33789710009E+00	1.71629889474E+02	-4.58159942177E+01	1.02013358419E+02	-5.95672054136E+00	-8.28290322218E-01
2.00873430381E+06	-1.04106049937E+01	1.69261113664E+02	5.27230273447E+00	1.71467920158E+02	-4.02082940959E+01	1.28301816209E+02	-5.94803734142E+00	-1.04273005795E+00
2.03092565841E+06	-1.20693065430E+01	1.75049151382E+02	5.26690524954E+00	1.71579949694E+02	-4.39668009770E+01	1.35665034977E+02	-5.97070637656E+00	-9.21678034433E-01
2.05311701300E+06	-1.29746949453E+01	1.69444319653E+02	5.27305794273E+00	1.71245877723E+02	-4.38019657295E+01	9.98811206662E+00	-5.96625338168E+00	-1.04666534796E+00
2.07530836760E+06	-1.18960811089E+01	-1.79624170669E+02	5.31570514944E+00	1.71130785588E+02	-4.34586518293E+01	-1.24778258394E+02	-5.98305288893E+00	-9.63907289365E-01
2.09749972219E+06	-1.15676293712E+01	1.74869928627E+02	5.28889137751E+00	1.71199165837E+02	-6.07958575500E+01	1.02734989505E+02	-5.96446048071E+00	-1.11876779973E+00
2.11969107679E+06	-7.77051055033E+00	-1.68587763046E+02	5.25965931340E+00	1.70942560593E+02	-5.45276009495E+01	7.67141027519E+01	-5.96813149838E+00	-9.33207519767E-01
2.14188243138E+06	-8.82809353965E+00	1.79634601395E+02	5.27995257683E+00	1.70809151550E+02	-4.88283591174E+01	3.31915960430E+01	-5.97080415314E+00	-9.10638979522E-01
2.16407378598E+06	-1.04612890726E+01	1.73580936050E+02	5.30221541911E+00	1.70556760674E+02	-4.38115278444E+01	1.02235172219E+01	-5.95442944153E+00	-1.04878548281E+00
2.18626514057E+06	-1.02855876895E+01	-1.72138667471E+02	5.28776404482E+00	1.70714866327E+02	-6.09918370016E+01	9.89795287496E+01	-5.97447777291E+00	-9.53716405335E-01
2.20845649517E+06	-8.83392660298E+00	1.77741170584E+02	5.30108856804E+00	1.70547053744E+02	-3.95513222501E+01	1.10765306637E+01	-5.96616786538E+00	-1.13075543129E+00
2.23064784976E+06	-1.00579510757E+01	-1.69121114313E+02	5.27717330518E+00	1.70549268424E+02	-3.94720408531E+01	1.61239891283E+01	-5.95588593842E+00	-9.95081941922E-01
2.25283920436E+06	-8.99335867720E+00	1.71921490730E+02	5.31178949753E+00	1.70349318846E+02	-4.96564846389E+01	3.88960547512E+01	-5.95306767754E+00	-9.32794370871E-01
2.27503055895E+06	-1.10200586894E+01	-1.67058273872E+02	5.25703774770E+00	1.70548864684E+02	-4.43119244118E+01	2.17522003630E+01	-5.96546856133E+00	-9.19318278493E-01
2.29722191355E+06	-1.00950099935E+01	-1.77904473704E+02	5.29744074098E+00	1.70180195069E+02	-4.65799026286E+01	1.71707107295E+02	-5.94766459576E+00	-1.00142942804E+00
2.31941326814E+06	-8.94325669960E+00	1.78929072594E+02	5.32055288004E+00	1.70217500172E+02	-4.25453455430E+01	-1.66307810072E+02	-5.95899628221E+00	-1.02287447451E+00
2.34160462274E+06	-1.13259834637E+01	-1.70837293438E+02	5.26102992877E+00	1.70339020548E+02	-5.05329995221E+01	1.26687687594E+02	-5.96415178451E+00	-9.97459216615E-01
2.36379597733E+06	-1.09434304695E+01	-1.76155587876E+02	5.30740317600E+00	1.69995355206E+02	-3.99132204868E+01	-1.54800359544E+02	-5.95870771530E+00	-1.14620853493E+00
2.38598733193E+06	-9.85742606574E+00	-1.77637915235E+02	5.27843379553E+00	1.69734630470E+02	-4.54981331357E+01	7.50618039143E+01	-5.97495642472E+00	-1.22517393244E+00
2.40817868652E+06	-1.17950612746E+01	1.79443489924E+02	5.31663564640E+00	1.69771075961E+02	-5.06863715543E+01	1.16583453948E+02	-5.96674164547E+00	-1.10582832095E+00
2.43037004112E+06	-1.05114993783E+01	1.67752781315E+02	5.29637786385E+00	1.69616868387E+02	-5.40192247299E+01	8.11028798730E+01	-5.95056869615E+00	-1.37892623274E+00
2.45256139571E+06	-9.06222581422E+00	1.77427744442E+02	5.29002154667E+00	1.69403409081E+02	-5.21672479727E+01	-1.09542490013E+02	-5.98974482815E+00	-9.94433183690E-01
2.47475275031E+06	-1.19379984516E+01	1.64125258639E+02	5.30524379114E+00	1.69609150857E+02	-5.08701385310E+01	-1.28009783208E+02	-5.95748699371E+00	-1.14603617977E+00
2.49694410490E+06	-1.08629733721E+01	1.67202825733E+02	5.30360616126E+00	1.69056755368E+02	-5.68180912390E+01	-4.34499029936E+00	-5.97259589836E+00	-1.21568370245E+00
2.51913545950E+06	-9.36042786890E+00	1.74767343366E+02	5.28472423128E+00	1.69245844264E+02	-4.78691561333E+01	-8.51833913432E+01	-5.97219589205E+00	-1.25575810741E+00
2.54132681409E+06	-8.94185296805E+00	-1.78873067695E+02	5.29660037616E+00	1.68717427665E+02	-5.46568765057E+01	-2.04757310846E+01	-5.96651436545E+00	-1.08016614760E+00
2.56351816869E+06	-1.09389952068E+01	1.74360830844E+02	5.30735698907E+00	1.68965424680E+02	-4.21510093493E+01	-1.10183422247E+02	-6.00338521397E+00	-1.17555781470E+00
2.58570952328E+06	-8.30519475614E+00	-1.76992430598E+02	5.31396688093E+00	1.68569662608E+02	-4.97017355709E+01	-1.06453978499E+02	-5.97322410609E+00	-1.08247904357E+00
2.60790087788E+06	-9.34683919805E+00	1.62445558111E+02	5.28581693563E+00	1.68709973982E+02	-4.70577004267E+01	-1.55730395066E+02	-5.97871096852E+00	-1.08720966969E+00
2.63009223247E+06	-1.15757648576E+01	-1.72479336840E+02	5.30595521551E+00	1.68779399740E+02	-4.10532479965E+01	-8.56651265905E+01	-5.97754836469E+00	-1.07721968689E+00
2.65228358707E+06	-1.07339205764E+01	-1.68134675081E+02	5.31457203333E+00	1.68629884171E+02	-4.67989179315E+01	3.09740820678E+01	-5.96525678085E+00	-1.66292770755E+00
2.67447494166E+06	-1.08155985518E+01	1.75262697949E+02	5.30934596107E+00	1.68415548174E+02	-4.46365830358E+01	7.67552845678E+01	-5.95479267658E+00	-1.22313617246E+00
2.69666629626E+06	-1.00921543587E+01	-1.73684236028E+02	5.26166356703E+00	1.68214775352E+02	-5.37367760085E+01	-1.18478490478E+02	-5.95460971511E+00	-1.31113649426E+00
2.71885765085E+06	-1.15528440444E+01	1.69442107126E+02	5.31039764262E+00	1.68308328858E+02	-4.16980499328E+01	-7.33757390493E+01	-5.96397808774E+00	-1.19051116459E+00
2.74104900545E+06	-9.55459736084E+00	-1.70722462391E+02	5.27616774435E+00	1.67760720550E+02	-4.56472378537E+01	-2.63990329505E+01	-5.95831934572E+00	-1.41398780526E+00
2.76324036004E+06	-1.11118090424E+01	1.79810863219E+02	5.30770415102E+00	1.68065769865E+02	-4.76813752604E+01	-7.19293404015E+01	-5.96368317319E+00	-1.28903470270E+00
2.78543171463E+06	-9.30837100737E+00	-1.73032388918E+02	5.31879528443E+00	1.68386360292E+02	-4.27477106055E+01	1.30082257127E+02	-5.94833996539E+00	-1.23410731681E+00
2.80762306923E+06	-9.87040015823E+00	-1.66993674340E+02	5.27328138053E+00	1.67699815755E+02	-4.54227207613E+01	-5.69081246232E+01	-5.98747168957E+00	-1.33259671468E+00
2.82981442382E+06	-1.00394180652E+01	1.78480540439E+02	5.28928510920E+00	1.67423106944E+02	-5.05410563989E+01	1.54516687787E+02	-5.93752587681E+00	-1.15105074753E+00
2.85200577842E+06	-1.05016584320E+01	1.74565822245E+02	5.36052001477E+00	1.67625126146E+02	-4.93490231397E+01	1.39731285480E+02	-5.94431072966E+00	-1.12113664276E+00
2.87419713301E+06	-1.01977810967E+01	-1.74054521254E+02	5.29309320781E+00	1.67586737488E+02	-4.88690339159E+01	1.44477025993E+02	-5.94786463706E+00	-1.15045827439E+00
