# Hz S DB R 50
! CMT, M5065, 19127446, 24.2.4/2
! Date: 10/29/2024 11:56:25 AM
! Data: Format (Calibration Info)
! Freq	S11:dB/Ang(F2)	S21:dB/Ang(F2)	S12:dB/Ang(F2)	S22:dB/Ang(F2)
3.00000000000E+05	-1.09566123822E+01	-1.72801475660E+02	5.88651402934E+00	-1.78062795907E+02	-4.25218640915E+01	-2.02390977213E+01	-5.98321054709E+00	-2.80952431911E-01
3.22191354595E+05	-1.02636960429E+01	1.73859761109E+02	5.89261955648E+00	-1.78298604413E+02	-6.58914052619E+01	1.14939937003E+02	-5.96948530674E+00	-1.11349327538E-01
3.44382709190E+05	-1.00252043962E+01	1.70531428143E+02	5.84844149254E+00	-1.78765200373E+02	-4.78360516139E+01	-1.61414442990E+02	-5.97443133322E+00	-1.90815620327E-01
3.66574063785E+05	-9.05616247434E+00	-1.76195096747E+02	5.87606199763E+00	-1.79116102500E+02	-4.37647004451E+01	-1.35221181647E+01	-5.95819251974E+00	-2.46400488963E-01
3.88765418380E+05	-1.04104708678E+01	-1.70120167561E+02	5.83322827167E+00	-1.79282917349E+02	-4.16673514394E+01	-9.87046487016E+01	-5.95629169014E+00	-1.25232408927E-01
4.10956772975E+05	-1.00740862635E+01	-1.71124637162E+02	5.85416093349E+00	-1.79459485039E+02	-4.47371802793E+01	1.70982254552E+02	-5.97243343730E+00	-3.12635342066E-01
4.33148127570E+05	-1.01654461063E+01	1.77754698224E+02	5.90283778977E+00	-1.79495559598E+02	-4.37199331289E+01	1.12226523277E+02	-6.00073643393E+00	-3.34630381529E-01
4.55339482165E+05	-1.07559092011E+01	-1.74344123953E+02	5.85398035354E+00	1.79978811597E+02	-4.56865574132E+01	-2.10842562089E+01	-5.96808744759E+00	-4.19175166087E-01
4.77530836760E+05	-9.48423108592E+00	-1.69614509138E+02	5.84063026816E+00	1.79824945025E+02	-5.21734723305E+01	-1.73404160035E+02	-5.98882390310E+00	-3.13975835477E-01
4.99722191355E+05	-1.44847896856E+01	-1.76297313132E+02	5.89589964306E+00	1.79913505758E+02	-4.33638262760E+01	7.72883306844E+01	-5.97142956766E+00	-3.19362433328E-01
5.21913545950E+05	-1.03872430720E+01	-1.74934691056E+02	5.91468128728E+00	1.79514510368E+02	-5.39316139486E+01	1.54579534592E+02	-5.97755527177E+00	-3.29306516306E-01
5.44104900545E+05	-8.81099161552E+00	1.77565292165E+02	5.84044698281E+00	1.79274306330E+02	-4.67961488891E+01	-1.63831547497E+02	-5.97212263495E+00	-3.95345032976E-01
5.66296255139E+05	-9.72981690641E+00	1.75232983271E+02	5.86720508043E+00	1.79385670506E+02	-4.49845499262E+01	-1.13052958628E+02	-6.00108276528E+00	-4.21768330980E-01
5.88487609734E+05	-9.79014937047E+00	-1.79376915580E+02	5.87767496105E+00	1.79250874721E+02	-4.11403048251E+01	-4.19309705929E+01	-5.98349859005E+00	-6.58581123061E-01
6.10678964329E+05	-1.14523924935E+01	-1.67353705175E+02	5.87253677061E+00	1.78981021978E+02	-4.27311651357E+01	-1.32531564722E+01	-5.97435444056E+00	-8.47960241723E-02
6.32870318924E+05	-8.44047242321E+00	-1.73321278503E+02	5.91402076239E+00	1.78642707546E+02	-3.75690164449E+01	-7.82401132633E+01	-5.97639775375E+00	-5.04518773281E-01
6.55061673519E+05	-9.97529523852E+00	-1.73411265994E+02	5.92850741889E+00	1.78427188742E+02	-4.42866535842E+01	-1.46700304647E+02	-5.97763657585E+00	-2.01957648428E-01
6.77253028114E+05	-9.44579099577E+00	-1.64205538606E+02	5.85883604875E+00	1.78394314882E+02	-5.91319489756E+01	-3.80117161340E+01	-5.97715665145E+00	-5.81957305032E-01
6.99444382709E+05	-1.13006187267E+01	-1.76458398476E+02	5.86338822848E+00	1.78233484233E+02	-4.54193921008E+01	-7.27699336775E+01	-5.94195455251E+00	-4.60911149893E-01
7.21635737304E+05	-1.14949282060E+01	-1.76144055834E+02	5.87212649677E+00	1.78138409242E+02	-4.59089605504E+01	5.26872419812E+01	-5.96875969112E+00	-4.87189290560E-01
7.43827091899E+05	-1.10890798332E+01	1.76572874458E+02	5.87809755346E+00	1.77929212560E+02	-5.01325030541E+01	1.10953071594E+00	-5.97523155294E+00	-5.34243821969E-01
7.66018446494E+05	-9.98724908753E+00	1.72826007018E+02	5.90733403955E+00	1.77765039309E+02	-4.63547736288E+01	1.36773976047E+02	-5.96271659642E+00	-4.17450229239E-01
7.88209801089E+05	-1.16678590959E+01	-1.78943090600E+02	5.90114327233E+00	1.77700879047E+02	-7.21465189676E+01	-1.82667148906E+01	-5.96600369837E+00	-3.69500245513E-01
8.10401155684E+05	-9.59681083995E+00	1.69338531628E+02	5.89981502391E+00	1.77580283041E+02	-5.41108300525E+01	1.30983678398E+02	-5.98817643731E+00	-5.24261416079E-01
8.32592510279E+05	-9.13492939180E+00	-1.78381710847E+02	5.91116174568E+00	1.77631253545E+02	-4.73760955850E+01	7.25074867460E+01	-5.95595917786E+00	-4.61011504051E-01
8.54783864874E+05	-9.80414302411E+00	1.77520821429E+02	5.88942763007E+00	1.77406597572E+02	-4.78920577738E+01	-2.02268294651E+01	-5.97563314334E+00	-4.64688437763E-01
8.76975219469E+05	-9.05860445775E+00	-1.73666003058E+02	5.89753301931E+00	1.77151345868E+02	-4.76462604841E+01	-1.65152472934E+02	-5.96763899844E+00	-3.82144269508E-01
8.99166574064E+05	-1.26591186880E+01	1.77674096885E+02	5.84839894202E+00	1.77163004007E+02	-5.02277166394E+01	-1.31867017730E+02	-5.95755680250E+00	-5.86224169294E-01
9.21357928659E+05	-9.63784327047E+00	-1.66693022402E+02	5.90477654505E+00	1.76758914363E+02	-4.35568458495E+01	-7.74739359145E+00	-5.97646603572E+00	-4.98440076517E-01
9.43549283254E+05	-8.70213564879E+00	1.74234897717E+02	5.85992644715E+00	1.76966092029E+02	-4.94753813232E+01	-1.06901309708E+02	-5.98112708667E+00	-5.16255479761E-01
9.65740637849E+05	-9.97987894809E+00	-1.78273319428E+02	5.84847959232E+00	1.76435002387E+02	-4.87305235313E+01	-1.64588612035E+02	-5.97765523554E+00	-6.35742943004E-01
9.87931992444E+05	-8.40089273850E+00	1.75260465539E+02	5.90292803083E+00	1.76628529141E+02	-5.07561078002E+01	-1.67100185702E+00	-5.98878708033E+00	-5.75973627668E-01
1.01012334704E+06	-1.08873184271E+01	-1.70489271995E+02	5.86394626439E+00	1.76242466737E+02	-4.69781716478E+01	-1.24913538455E+02	-5.97817604419E+00	-5.59038675481E-01
1.03231470163E+06	-8.91886695184E+00	-1.75867558212E+02	5.91033248328E+00	1.76349365384E+02	-4.46354314741E+01	-3.24268591342E+01	-5.95843771314E+00	-6.48047061114E-01
1.05450605623E+06	-1.01994635517E+01	1.78047014132E+02	5.90088154346E+00	1.76078966574E+02	-4.45518192277E+01	1.55299524245E+01	-5.96411593386E+00	-7.35172670003E-01
1.07669741082E+06	-1.14327207215E+01	-1.78636995950E+02	5.86348590301E+00	1.76037623599E+02	-5.11803799821E+01	-1.76430614043E+02	-5.96444338170E+00	-6.61799230215E-01
1.09888876542E+06	-1.22858072629E+01	-1.71463943504E+02	5.86046478235E+00	1.75660981194E+02	-4.32068687023E+01	-2.72343262344E+01	-5.97479997467E+00	-6.27807454206E-01
1.12108012001E+06	-1.01412146270E+01	1.75008205691E+02	5.91809528378E+00	1.75743405749E+02	-4.25261967252E+01	-3.08900306387E+01	-5.97522865311E+00	-6.97394658864E-01
1.14327147461E+06	-1.08667316596E+01	-1.72729206626E+02	5.86335049234E+00	1.75549413209E+02	-4.40814890098E+01	1.51127077781E+02	-5.96985791716E+00	-7.11197824059E-01
1.16546282920E+06	-8.64487294603E+00	-1.69344189293E+02	5.89806348532E+00	1.75543254718E+02	-4.25760752662E+01	-1.32530723114E+02	-5.98058850762E+00	-4.78250114025E-01
1.18765418380E+06	-9.72754387238E+00	-1.68248762338E+02	5.90579036469E+00	1.75437640363E+02	-4.33959833689E+01	-7.21089502111E+01	-5.98019864961E+00	-7.49198771010E-01
1.20984553839E+06	-1.17123230728E+01	1.78909934316E+02	5.86371712548E+00	1.75497926812E+02	-4.40809950122E+01	6.16496908743E+01	-5.96470652142E+00	-9.54212561699E-01
1.23203689299E+06	-9.78646496105E+00	-1.71870461515E+02	5.91882873659E+00	1.75278339980E+02	-4.69778562277E+01	-1.65252971255E+02	-5.99654330280E+00	-5.19826766847E-01
1.25422824758E+06	-1.05050187539E+01	1.70764377128E+02	5.91761554837E+00	1.75226693088E+02	-4.62647511334E+01	-1.99242690847E+01	-5.99716784496E+00	-5.63305247153E-01
1.27641960218E+06	-8.94132363123E+00	-1.66770457400E+02	5.90066629204E+00	1.75048096431E+02	-5.03127478607E+01	9.47363578075E+01	-5.98439890308E+00	-6.57044598280E-01
1.29861095677E+06	-1.05777249708E+01	1.62587909916E+02	5.90197503811E+00	1.74879124361E+02	-4.58267580660E+01	1.14567129637E+02	-5.96503990043E+00	-6.16210614685E-01
1.32080231137E+06	-1.15410403773E+01	1.74970965387E+02	5.89281310776E+00	1.74530478159E+02	-4.18455017170E+01	-7.55473302718E+01	-5.95762250807E+00	-1.10220266674E+00
1.34299366596E+06	-1.24197950648E+01	-1.69308014563E+02	5.86217636710E+00	1.74784980712E+02	-4.62252998687E+01	4.66851715808E+01	-5.98553511936E+00	-9.72957589008E-01
1.36518502056E+06	-1.07508888083E+01	1.77120973252E+02	5.88050685248E+00	1.74557186898E+02	-4.53762808131E+01	1.08394402584E+02	-5.93966022077E+00	-6.07845437632E-01
1.38737637515E+06	-1.06263374125E+01	-1.77590299237E+02	5.92067912475E+00	1.74459193484E+02	-4.50998385735E+01	-1.12924916828E+02	-5.97208843015E+00	-7.01052038641E-01
1.40956772975E+06	-9.54613650872E+00	1.77438661596E+02	5.85632180226E+00	1.74374220312E+02	-4.37354620806E+01	-1.53209396741E+02	-5.96182099513E+00	-6.42336769662E-01
1.43175908434E+06	-8.22121696451E+00	1.75120071909E+02	5.90497065870E+00	1.74041099768E+02	-4.78019207446E+01	1.24019820032E+02	-5.97238657807E+00	-7.70077703579E-01
1.45395043894E+06	-1.31202365165E+01	-1.72017849020E+02	5.91768894408E+00	1.74075327853E+02	-4.09773301247E+01	-1.56192652603E+02	-5.96565084113E+00	-7.79297567574E-01
1.47614179353E+06	-1.14015834330E+01	1.76278647853E+02	5.89324917152E+00	1.73777592820E+02	-5.48011377980E+01	1.62065071527E+02	-5.98253256021E+00	-9.06709337657E-01
1.49833314813E+06	-1.03628690770E+01	-1.76467581311E+02	5.86927911563E+00	1.74195137643E+02	-4.45548691037E+01	-7.72263615494E+01	-5.98191771242E+00	-8.12470245217E-01
1.52052450272E+06	-1.03851437474E+01	1.79354663876E+02	5.89051294261E+00	1.73520524101E+02	-4.24452564032E+01	-8.79877172511E+01	-5.97663335447E+00	-6.81433248800E-01
1.54271585732E+06	-1.03696802005E+01	1.69668876005E+02	5.89449881890E+00	1.73591692345E+02	-4.74509562923E+01	2.77070544790E+01	-5.94512174329E+00	-7.97415294938E-01
1.56490721191E+06	-1.27455552124E+01	1.79573057331E+02	5.86751423125E+00	1.73368173510E+02	-4.56583642233E+01	-4.82154750007E+00	-5.97646690963E+00	-6.69390340930E-01
1.58709856651E+06	-1.26920694735E+01	1.76092494592E+02	5.86895463185E+00	1.73245157406E+02	-6.41202365241E+01	5.21312045942E+00	-5.97275615302E+00	-8.56010087782E-01
1.60928992110E+06	-9.50987521071E+00	-1.79984791648E+02	5.87489046589E+00	1.73519531567E+02	-3.99953406227E+01	-4.80372418632E+01	-5.99333111183E+00	-7.84908398995E-01
1.63148127570E+06	-1.14058389180E+01	-1.76658975613E+02	5.87961898926E+00	1.73019113673E+02	-5.24740828108E+01	7.87675108997E+01	-5.94159110173E+00	-8.30417314866E-01
1.65367263029E+06	-8.26252870903E+00	1.79613502625E+02	5.92377089466E+00	1.72916018331E+02	-5.23619847469E+01	-1.63276020480E+01	-5.97197725910E+00	-9.76966503576E-01
1.67586398489E+06	-9.85772008013E+00	1.69428653216E+02	5.88891517089E+00	1.73162216770E+02	-5.49179296692E+01	1.42372100198E+02	-5.96591745414E+00	-7.96604265770E-01
1.69805533948E+06	-1.17388507009E+01	-1.71322770375E+02	5.84527140008E+00	1.73180608670E+02	-4.51087880657E+01	8.85478252901E+01	-5.98496460630E+00	-8.91464999291E-01
1.72024669408E+06	-8.43560018987E+00	-1.75650930962E+02	5.89609344373E+00	1.72707545586E+02	-4.39416865454E+01	-5.96543750759E+01	-5.96891861849E+00	-9.04058089739E-01
1.74243804867E+06	-9.66059983189E+00	1.77666710529E+02	5.89236673036E+00	1.72381551042E+02	-4.39973195496E+01	1.69072669537E+02	-5.96854102598E+00	-6.66404621566E-01
1.76462940327E+06	-9.55196329853E+00	-1.76098056667E+02	5.88532017589E+00	1.72234130128E+02	-4.96606686610E+01	1.79701599545E+02	-5.97184519863E+00	-9.29866099610E-01
1.78682075786E+06	-9.93134450643E+00	1.78076143586E+02	5.85822240995E+00	1.72373847072E+02	-4.90969539515E+01	-9.88300869721E+01	-5.97208444761E+00	-8.78720229541E-01
1.80901211246E+06	-9.36863009059E+00	1.73711543055E+02	5.89976933958E+00	1.72068722320E+02	-5.36114688969E+01	8.52454854914E+01	-5.94572854182E+00	-8.73396824401E-01
1.83120346705E+06	-1.03743191435E+01	1.77293896278E+02	5.92119138902E+00	1.72377349034E+02	-4.18887511324E+01	1.14947618142E+02	-5.96793921108E+00	-8.04555981404E-01
1.85339482165E+06	-1.18328408283E+01	1.79427374775E+02	5.89553794010E+00	1.72135265886E+02	-4.29328597190E+01	7.18451600581E+01	-5.96135062667E+00	-8.28680952292E-01
1.87558617624E+06	-9.66086325063E+00	-1.78791526202E+02	5.88779151395E+00	1.71831852276E+02	-4.50508358460E+01	1.67429076342E+02	-5.97007579139E+00	-9.52288819769E-01
1.89777753084E+06	-1.05603118666E+01	-1.79743773353E+02	5.90906322838E+00	1.71632299727E+02	-4.05126155120E+01	3.38172278586E+00	-5.95619511297E+00	-1.05162797689E+00
1.91996888543E+06	-9.71004833057E+00	1.79720363098E+02	5.80659456638E+00	1.72024819688E+02	-3.90262511053E+01	1.62483474391E+02	-5.97277235860E+00	-9.58254962177E-01
1.94216024003E+06	-9.13104258886E+00	1.68410643647E+02	5.87236999966E+00	1.71433726760E+02	-4.85641488839E+01	3.00689637397E+01	-5.96745785608E+00	-8.65376390433E-01
1.96435159462E+06	-9.39938347657E+00	-1.78534026206E+02	5.84014388848E+00	1.71679335677E+02	-5.48430833278E+01	1.33269964888E+02	-5.97903138745E+00	-9.42726342475E-01
1.98654294922E+06	-9.81173034259E+00	-1.76126865721E+02	5.89853105904E+00	1.71357495815E+02	-6.17175362993E+01	1.58292427369E+02	-5.95721380309E+00	-9.65527694277E-01
2.00873430381E+06	-1.16297135005E+01	1.72622300259E+02	5.88968497637E+00	1.71448473740E+02	-5.26061393211E+01	-1.26191481015E+02	-5.96848927246E+00	-1.16409664156E+00
2.03092565841E+06	-1.09263055809E+01	-1.75866705464E+02	5.87742687909E+00	1.70938930005E+02	-4.77889913214E+01	-1.51861938688E+02	-5.96477864326E+00	-9.52463151911E-01
2.05311701300E+06	-1.21080528508E+01	1.74572550657E+02	5.87902487855E+00	1.70993154909E+02	-4.13698464991E+01	-3.63199291232E+01	-5.98142850440E+00	-8.96126642388E-01
2.07530836760E+06	-1.08727076233E+01	-1.76709146356E+02	5.87008664823E+00	1.71088578518E+02	-4.56553633424E+01	-1.32820840072E+02	-5.95747200903E+00	-1.01320621063E+00
2.09749972219E+06	-1.03088000034E+01	1.72978889062E+02	5.88531470666E+00	1.70833073042E+02	-4.11062992362E+01	-4.32258287245E+01	-5.94017898351E+00	-1.03684770974E+00
2.11969107679E+06	-9.85551687173E+00	1.77634839708E+02	5.87528104594E+00	1.71060785007E+02	-4.92699446401E+01	3.48222180626E+01	-5.97896244801E+00	-9.71081858084E-01
2.14188243138E+06	-1.19140651010E+01	1.70538451439E+02	5.88711947910E+00	1.70684232466E+02	-4.22486123560E+01	-1.12988733973E+02	-6.00386703291E+00	-8.41989378339E-01
2.16407378598E+06	-1.09142435511E+01	-1.79036319928E+02	5.89637477818E+00	1.70834512315E+02	-4.49885083739E+01	6.50489501070E+01	-5.94520731813E+00	-9.18038218197E-01
2.18626514057E+06	-1.00882065182E+01	1.67535240379E+02	5.88096328189E+00	1.69829691112E+02	-4.53526090932E+01	-1.12619497214E+02	-5.96233716506E+00	-1.15071241853E+00
2.20845649517E+06	-1.14011919316E+01	1.67668133776E+02	5.84346879150E+00	1.70218172891E+02	-4.98179588762E+01	-5.33093318640E+01	-5.98236630260E+00	-1.09189626399E+00
2.23064784976E+06	-1.22708949896E+01	-1.79227425367E+02	5.86190209211E+00	1.70650083146E+02	-4.23862150243E+01	-5.62594137809E+01	-5.96380083070E+00	-1.06193185186E+00
2.25283920436E+06	-1.14638237391E+01	1.72171201046E+02	5.89036576545E+00	1.70117158976E+02	-4.95835611166E+01	-1.27925123662E+02	-5.95250202649E+00	-1.01961929011E+00
2.27503055895E+06	-1.02051722304E+01	-1.79804717788E+02	5.88156821234E+00	1.70108018345E+02	-4.25601467659E+01	8.85157836055E+01	-5.96267916596E+00	-1.20804669529E+00
2.29722191355E+06	-9.89445852639E+00	-1.76982953308E+02	5.85546898235E+00	1.70043362023E+02	-4.73801050082E+01	1.47241699787E+02	-5.96864894757E+00	-9.60234381834E-01
2.31941326814E+06	-1.18169781446E+01	1.77924881913E+02	5.86535298749E+00	1.69644584568E+02	-5.55287037689E+01	9.18538067557E+01	-5.97611666639E+00	-1.07615854355E+00
2.34160462274E+06	-9.63897451053E+00	-1.62478693429E+02	5.85315525395E+00	1.70245400135E+02	-5.13668152316E+01	1.26751881502E+02	-5.96747296112E+00	-1.00628662036E+00
2.36379597733E+06	-9.90540317902E+00	-1.75560401983E+02	5.88210680155E+00	1.69557967527E+02	-4.72930764527E+01	-5.92948536087E+01	-5.94918906643E+00	-1.02866998439E+00
2.38598733193E+06	-1.02289159948E+01	1.78485488844E+02	5.87100852608E+00	1.69738819516E+02	-4.73740610826E+01	1.93509034930E+01	-5.93242605648E+00	-1.05548662242E+00
2.40817868652E+06	-1.18230010752E+01	1.71713096379E+02	5.87910373147E+00	1.69482532053E+02	-4.59650212577E+01	-5.16157222624E+01	-5.95417127224E+00	-1.14583388552E+00
2.43037004112E+06	-1.04230044040E+01	1.79512218508E+02	5.89042725943E+00	1.69188586031E+02	-5.44109346880E+01	-1.67512807457E+02	-5.96887116133E+00	-1.36941271299E+00
2.45256139571E+06	-1.06089968797E+01	1.75577206995E+02	5.80370300905E+00	1.69380371467E+02	-4.64362644804E+01	-1.24549624956E+02	-5.97476497431E+00	-1.05717571842E+00
2.47475275031E+06	-8.90347101504E+00	1.79688695473E+02	5.85546809884E+00	1.69029208399E+02	-4.95334635346E+01	-1.39709151742E+01	-5.98946472343E+00	-9.22694576278E-01
2.49694410490E+06	-1.03546201828E+01	-1.71239401621E+02	5.92460128035E+00	1.68975213595E+02	-4.97145135645E+01	1.65796982589E+02	-5.96505356452E+00	-1.08381372268E+00
2.51913545950E+06	-1.05960962600E+01	1.78968430758E+02	5.85261417926E+00	1.69107913961E+02	-4.54376384971E+01	1.43002301542E+01	-5.99544192153E+00	-1.12246186025E+00
2.54132681409E+06	-1.02393657935E+01	-1.70531205377E+02	5.86804591154E+00	1.68844404166E+02	-4.61649265546E+01	2.31600262169E+01	-5.97708021047E+00	-1.08282858464E+00
2.56351816869E+06	-1.17507543152E+01	-1.67897471676E+02	5.87943962611E+00	1.68507331483E+02	-4.24547589377E+01	1.29089628116E+02	-5.96326855392E+00	-1.02690784999E+00
2.58570952328E+06	-1.19867662622E+01	-1.77878079162E+02	5.84930294345E+00	1.68702682256E+02	-4.57111855769E+01	9.94282617437E+01	-5.97000407641E+00	-1.06782093859E+00
2.60790087788E+06	-1.06810830185E+01	1.69460306309E+02	5.87592960498E+00	1.68556473689E+02	-5.00471495051E+01	1.09499552638E+02	-5.96879699304E+00	-1.10572100467E+00
2.63009223247E+06	-9.96792220151E+00	1.72605431579E+02	5.87675167774E+00	1.68401694666E+02	-4.54391378471E+01	1.65801947537E+02	-5.97638335527E+00	-1.24638862513E+00
2.65228358707E+06	-1.21123370999E+01	-1.78999485765E+02	5.81921943364E+00	1.68256691702E+02	-4.62359110683E+01	-1.42731193733E+02	-5.95359311620E+00	-1.46747004322E+00
2.67447494166E+06	-1.04207536765E+01	1.79303609483E+02	5.86471484904E+00	1.68047629970E+02	-5.29231650081E+01	3.43966561122E+01	-5.96075779542E+00	-1.33631584884E+00
2.69666629626E+06	-1.09591848931E+01	-1.72306607578E+02	5.87192024350E+00	1.68496129229E+02	-4.63811516435E+01	9.71192652111E+01	-5.96741670330E+00	-1.33519497856E+00
2.71885765085E+06	-8.90708597737E+00	1.74278334454E+02	5.89924748322E+00	1.67786667554E+02	-4.13260905334E+01	3.70604852922E+01	-5.97907153647E+00	-1.28130793469E+00
2.74104900545E+06	-1.00154933367E+01	1.77102767740E+02	5.90686555148E+00	1.67656297299E+02	-4.76331338150E+01	-7.65021900534E+01	-5.95172114356E+00	-1.27993306319E+00
2.76324036004E+06	-1.20732737460E+01	-1.78567815819E+02	5.88930180251E+00	1.68017024326E+02	-4.55371311511E+01	-1.35879669299E+02	-5.96727915770E+00	-1.25553171380E+00
2.78543171463E+06	-9.56525164616E+00	-1.72874628923E+02	5.86570066925E+00	1.67746391023E+02	-4.91185435741E+01	-1.37677224674E+02	-5.95603400971E+00	-1.14235270098E+00
2.80762306923E+06	-1.02171930265E+01	1.66883967653E+02	5.83553182871E+00	1.67815411009E+02	-4.20118267913E+01	1.77812030152E+02	-5.97490364603E+00	-1.24009127133E+00
2.82981442382E+06	-8.76460457854E+00	1.79213890752E+02	5.87181957889E+00	1.67508049581E+02	-4.77316436903E+01	-1.06285925939E+02	-5.98942040401E+00	-1.31320406675E+00
2.85200577842E+06	-8.83368311167E+00	1.68199653647E+02	5.86803820010E+00	1.67603942770E+02	-5.17452805432E+01	-1.76311186538E+02	-5.94723223556E+00	-1.22394647342E+00
2.87419713301E+06	-1.20408714482E+01	-1.76418251065E+02	5.79438287247E+00	1.67338383726E+02	-4.42858708071E+01	1.35440971824E+01	-5.97896675282E+00	-1.28043526216E+00
