# Hz S DB R 50
! CMT, M5065, 19127446, 24.2.4/2
! Date: 10/29/2024 12:27:10 PM
! Data: Format (Calibration Info)
! Freq	S11:dB/Ang(F2)	S21:dB/Ang(F2)	S12:dB/Ang(F2)	S22:dB/Ang(F2)
3.00000000000E+05	-1.09784782752E+01	1.71705012145E+02	9.40706135192E+00	-1.78145756042E+02	-5.36611325455E+01	6.23615685147E+01	-5.98790531460E+00	-1.81984185841E-01
3.22191354595E+05	-9.39292174478E+00	-1.61809223147E+02	9.42987745837E+00	-1.78390516351E+02	-4.80065694765E+01	1.68955362723E+02	-5.96710117935E+00	-3.60865135757E-01
3.44382709190E+05	-1.06562734939E+01	-1.79389322413E+02	9.39455436730E+00	-1.78780329989E+02	-5.88474301116E+01	1.22194214443E+02	-5.96079855769E+00	-2.55110700046E-01
3.66574063785E+05	-1.02427634574E+01	-1.66537413651E+02	9.43174109146E+00	-1.78886680706E+02	-5.31106652349E+01	1.61372521663E+02	-5.97947465413E+00	-2.76634200259E-01
3.88765418380E+05	-1.07511856210E+01	-1.72996973488E+02	9.38194897731E+00	-1.79150355459E+02	-4.51472204590E+01	-1.15792680168E+02	-5.98839782196E+00	-3.67683628794E-01
4.10956772975E+05	-1.24067706543E+01	1.69355595054E+02	9.39024537170E+00	-1.79531208868E+02	-3.69887615744E+01	6.79320611596E+00	-5.96708161967E+00	-2.06096205526E-01
4.33148127570E+05	-1.01018347878E+01	-1.77011424488E+02	9.45085563462E+00	-1.79906813094E+02	-4.69635457445E+01	-1.64528770990E+02	-5.97738330577E+00	-3.22815208301E-01
4.55339482165E+05	-1.02185899274E+01	-1.72644048335E+02	9.41933871996E+00	1.79899203943E+02	-4.88416461660E+01	1.31880561618E+02	-5.98259882232E+00	-2.89603571745E-01
4.77530836760E+05	-9.08954101392E+00	-1.66158668962E+02	9.40239237498E+00	1.79446822271E+02	-4.11757746247E+01	4.90979965087E+01	-5.97965159716E+00	-3.09303600178E-01
4.99722191355E+05	-1.11546086541E+01	-1.70776513015E+02	9.45562319414E+00	1.79458720097E+02	-4.47087895340E+01	7.35082317952E+01	-5.96070444521E+00	-3.14529795460E-01
5.21913545950E+05	-9.93057641925E+00	-1.73001242656E+02	9.45731149500E+00	1.79409321487E+02	-4.38727368324E+01	-1.42913014192E+01	-5.97680752864E+00	-4.66619715490E-01
5.44104900545E+05	-8.98529845263E+00	1.70748069135E+02	9.40679372327E+00	1.79062806804E+02	-5.01284382203E+01	-1.92201527166E+01	-5.97668210336E+00	-4.74709249976E-01
5.66296255139E+05	-7.28007844217E+00	1.71902718725E+02	9.41453236214E+00	1.78732243564E+02	-4.39854256589E+01	-7.77009936179E+00	-5.95911331473E+00	-2.63673474348E-01
5.88487609734E+05	-1.05573394352E+01	1.74590372443E+02	9.42171399916E+00	1.78691292748E+02	-4.98474390296E+01	-1.06632641973E+02	-5.96890564712E+00	-7.61008256871E-01
6.10678964329E+05	-8.57926184634E+00	-1.75311838686E+02	9.42555030872E+00	1.78420572857E+02	-5.42522067365E+01	-1.71365279583E+02	-5.96704861023E+00	-9.29203474122E-02
6.32870318924E+05	-9.78552956763E+00	-1.69191520043E+02	9.43223211045E+00	1.78333852002E+02	-5.01192982134E+01	-1.19100205770E+02	-5.93485407294E+00	-3.59780258858E-01
6.55061673519E+05	-1.02508570789E+01	-1.66879672129E+02	9.42998207703E+00	1.78142784743E+02	-5.09388667790E+01	-1.31850075416E+02	-5.97982484603E+00	-2.12626305737E-03
6.77253028114E+05	-1.03770559463E+01	-1.78816488344E+02	9.43112360298E+00	1.77962976818E+02	-4.04515114077E+01	-1.25047734089E+02	-5.93920058495E+00	-7.04724539377E-01
6.99444382709E+05	-8.36604807795E+00	1.73810810526E+02	9.43426335888E+00	1.77635463743E+02	-4.52186830998E+01	2.70697232360E+01	-5.95060793697E+00	-4.74117408549E-01
7.21635737304E+05	-1.02874107427E+01	1.65248885640E+02	9.38660258249E+00	1.77784176045E+02	-4.49176259868E+01	-1.26315227079E+02	-5.96435319684E+00	-5.10446756745E-01
7.43827091899E+05	-8.64416169045E+00	-1.73800582055E+02	9.44454859220E+00	1.77286741829E+02	-4.73720669528E+01	6.20286833740E+01	-5.98472109531E+00	-3.99106903310E-01
7.66018446494E+05	-1.06095781751E+01	1.72544371430E+02	9.41568071778E+00	1.77377717492E+02	-4.31018758891E+01	6.04472645037E+01	-5.96272304696E+00	-4.19745922703E-01
7.88209801089E+05	-1.03443406180E+01	1.76508404155E+02	9.41095633020E+00	1.77233839404E+02	-4.75251235569E+01	1.41782978038E+02	-5.98383766337E+00	-4.31264493456E-01
8.10401155684E+05	-9.22739197864E+00	1.76433922458E+02	9.44942685196E+00	1.76975811055E+02	-4.42659937909E+01	-4.94102162742E+00	-5.96437882733E+00	-5.01952353052E-01
8.32592510279E+05	-1.01521313366E+01	-1.75441320337E+02	9.42572125906E+00	1.76896502697E+02	-4.40548661253E+01	-1.36883635535E+01	-5.98191567184E+00	-5.02238523474E-01
8.54783864874E+05	-1.30307233589E+01	1.76897699394E+02	9.45579679862E+00	1.76530981446E+02	-4.24278759158E+01	3.33911756696E+01	-5.98797741661E+00	-4.36641804527E-01
8.76975219469E+05	-8.72603618283E+00	-1.72336631440E+02	9.47310289810E+00	1.76522201899E+02	-4.26672304071E+01	-8.71334772188E+00	-5.96413256115E+00	-4.86620318240E-01
8.99166574064E+05	-1.06662822877E+01	-1.79721262704E+02	9.43433282668E+00	1.76168892223E+02	-3.82703516121E+01	-9.44060904710E+01	-5.96318393038E+00	-5.78386446610E-01
9.21357928659E+05	-8.57155794452E+00	-1.72699443790E+02	9.43958476607E+00	1.76162352542E+02	-5.05933920893E+01	9.96193212424E+01	-5.97660794498E+00	-5.12180613642E-01
9.43549283254E+05	-1.17029571876E+01	1.71839028178E+02	9.42845549946E+00	1.76038347538E+02	-5.42677941603E+01	1.77987799289E+02	-6.00418132877E+00	-5.93685576756E-01
9.65740637849E+05	-8.88509936579E+00	1.66719015224E+02	9.43622150926E+00	1.76103486454E+02	-4.35477063372E+01	2.71550993258E+01	-5.97159508366E+00	-5.17909392187E-01
9.87931992444E+05	-9.54360605974E+00	1.78124579917E+02	9.42061563206E+00	1.75743976827E+02	-5.70720376475E+01	-4.72197474928E+01	-5.96177324190E+00	-6.11974112500E-01
1.01012334704E+06	-1.04650349674E+01	-1.73366628689E+02	9.43911367681E+00	1.75588568667E+02	-4.20850599387E+01	1.54857535366E+02	-5.97043654940E+00	-6.23643350404E-01
1.03231470163E+06	-8.85237398884E+00	1.73652242975E+02	9.43386668693E+00	1.75538590540E+02	-5.05328400525E+01	4.92166919625E+00	-5.96823785492E+00	-5.49427678108E-01
1.05450605623E+06	-7.98462884132E+00	1.76969058912E+02	9.43890027407E+00	1.75314235088E+02	-4.54652292212E+01	9.50905653364E+01	-5.96597727082E+00	-5.16328622675E-01
1.07669741082E+06	-1.02200561879E+01	-1.78125379836E+02	9.42141952836E+00	1.75069895764E+02	-4.99469460954E+01	1.01410684207E+02	-5.93491468025E+00	-6.37639785379E-01
1.09888876542E+06	-7.98034707712E+00	1.79337570393E+02	9.42255044952E+00	1.75090916203E+02	-5.30032479938E+01	3.35015561152E+01	-5.96659163487E+00	-4.84535328937E-01
1.12108012001E+06	-1.01391924792E+01	1.77893870682E+02	9.41810722338E+00	1.74814699417E+02	-7.21673195381E+01	-9.89504581983E+01	-5.99309153633E+00	-4.37115013158E-01
1.14327147461E+06	-1.14529633750E+01	1.73035970891E+02	9.42859388696E+00	1.74767624131E+02	-4.75689447895E+01	7.36442932952E+01	-5.96896160549E+00	-7.70027656742E-01
1.16546282920E+06	-1.13877665718E+01	-1.66919662149E+02	9.46767327502E+00	1.74533298763E+02	-4.62874530052E+01	1.27074092929E+02	-5.96160431926E+00	-5.62592807753E-01
1.18765418380E+06	-1.08006743552E+01	-1.69588569461E+02	9.41839838207E+00	1.74625153306E+02	-4.22016789819E+01	4.15398193766E+01	-5.99460694433E+00	-5.99978449832E-01
1.20984553839E+06	-1.06650029862E+01	-1.75978670882E+02	9.43743659795E+00	1.74615960952E+02	-4.66411072642E+01	-7.85308796680E+00	-5.95939417316E+00	-9.48132416570E-01
1.23203689299E+06	-1.11486791144E+01	-1.79594250463E+02	9.42325004189E+00	1.74211138131E+02	-4.86148261864E+01	-1.69348602536E+02	-5.98794977887E+00	-5.87728609192E-01
1.25422824758E+06	-1.12520023693E+01	-1.77409856543E+02	9.42104701440E+00	1.74192579506E+02	-4.28240861199E+01	-2.82326460882E+01	-5.97478683585E+00	-6.83590726077E-01
1.27641960218E+06	-9.37317691860E+00	1.79807466481E+02	9.45074964585E+00	1.74179877709E+02	-4.84037061271E+01	1.74761901908E+02	-5.98739151151E+00	-6.97561537510E-01
1.29861095677E+06	-1.00061437305E+01	1.73501735342E+02	9.42298573379E+00	1.73764662114E+02	-5.32356917607E+01	-1.61941919649E+02	-5.97298603067E+00	-7.54921265397E-01
1.32080231137E+06	-1.11427220461E+01	1.74335829487E+02	9.41278470129E+00	1.73737753152E+02	-4.56598672049E+01	-1.54805020028E+02	-5.97187739876E+00	-1.07745238986E+00
1.34299366596E+06	-9.94978921280E+00	-1.79107715702E+02	9.40926443727E+00	1.73479599202E+02	-5.04707739730E+01	4.75390223656E+01	-5.95881262611E+00	-8.76181972939E-01
1.36518502056E+06	-8.65624913309E+00	-1.78987179511E+02	9.43486404392E+00	1.73475187691E+02	-4.25906426199E+01	7.90056781293E+01	-5.96934673397E+00	-6.33476754174E-01
1.38737637515E+06	-1.02444715892E+01	1.74134043245E+02	9.43423043136E+00	1.73571430603E+02	-4.56885705857E+01	-4.50449959678E+01	-5.97980409196E+00	-6.36620084493E-01
1.40956772975E+06	-1.07016415536E+01	-1.64923237424E+02	9.44805815212E+00	1.73074367018E+02	-4.40531753326E+01	1.12567371836E+02	-5.96181917888E+00	-6.90928063133E-01
1.43175908434E+06	-1.11781648382E+01	1.66821897081E+02	9.42495755367E+00	1.72976753621E+02	-5.07445231211E+01	-1.69472854867E+02	-6.00709547474E+00	-8.31101986691E-01
1.45395043894E+06	-1.05067347203E+01	1.75702164669E+02	9.42506805479E+00	1.73024375778E+02	-5.23296459859E+01	-2.91026212036E+01	-5.97481291665E+00	-7.01804457103E-01
1.47614179353E+06	-8.42852069955E+00	1.76116531612E+02	9.44586130646E+00	1.72644284920E+02	-4.14836869724E+01	-1.19902551770E+02	-5.97609039154E+00	-6.96189437584E-01
1.49833314813E+06	-9.05789468522E+00	-1.70960807306E+02	9.43819306305E+00	1.72556778814E+02	-5.38944932999E+01	-1.43183390880E+02	-5.95383751156E+00	-8.00108918473E-01
1.52052450272E+06	-8.10051698442E+00	-1.77916434931E+02	9.43205258981E+00	1.72442106112E+02	-5.28717198781E+01	8.34387212219E+01	-5.95586221895E+00	-7.74624114963E-01
1.54271585732E+06	-8.98816503401E+00	-1.66590602481E+02	9.46598542053E+00	1.72456060823E+02	-4.56062768126E+01	-1.31187153662E+02	-5.97734238089E+00	-7.90846354324E-01
1.56490721191E+06	-9.30609196029E+00	-1.79931929080E+02	9.43203478368E+00	1.72208094808E+02	-5.05810623864E+01	-8.72514061630E+00	-5.98431841400E+00	-8.99475951022E-01
1.58709856651E+06	-1.08364437771E+01	-1.76343061550E+02	9.43766070209E+00	1.72047722535E+02	-4.51496338382E+01	-1.27719269356E+01	-5.98782171434E+00	-8.79127632473E-01
1.60928992110E+06	-1.07726262386E+01	-1.78290986611E+02	9.44649116868E+00	1.71997147853E+02	-4.70063479040E+01	-1.66379763057E+02	-5.99542308654E+00	-7.55345174838E-01
1.63148127570E+06	-1.18267935173E+01	-1.78699458220E+02	9.43228769807E+00	1.71766600140E+02	-4.23994646392E+01	5.05863551768E+01	-5.96708623689E+00	-7.30654512316E-01
1.65367263029E+06	-8.33794087985E+00	-1.69076382759E+02	9.43820842597E+00	1.71741866382E+02	-5.07460882059E+01	1.52111807651E+01	-5.97459187617E+00	-9.74070294336E-01
1.67586398489E+06	-9.84835046849E+00	-1.64484670273E+02	9.42572818002E+00	1.71654691192E+02	-4.99678524600E+01	-1.60667177384E+02	-5.94310460417E+00	-8.29449057043E-01
1.69805533948E+06	-1.04242420356E+01	1.77182810069E+02	9.38682528876E+00	1.71573527309E+02	-4.94502878485E+01	2.22122731822E+01	-5.95999676985E+00	-8.32086427411E-01
1.72024669408E+06	-1.01690852381E+01	1.70629630178E+02	9.38710449181E+00	1.71226931311E+02	-5.25844248436E+01	-1.19448844801E+02	-5.98617995068E+00	-8.18736331542E-01
1.74243804867E+06	-8.77921557512E+00	1.76898305646E+02	9.46723071834E+00	1.71351544554E+02	-4.19579191218E+01	-6.96377511608E+01	-5.96905096564E+00	-8.69366787070E-01
1.76462940327E+06	-1.00318080689E+01	-1.75310814104E+02	9.38517823867E+00	1.71152750520E+02	-4.68674405480E+01	-9.98517885468E+01	-5.98069037768E+00	-7.88936272288E-01
1.78682075786E+06	-1.16874600842E+01	-1.79325173196E+02	9.44827511419E+00	1.70941394812E+02	-4.64828966084E+01	1.24480417089E+02	-5.98974964829E+00	-7.63176973283E-01
1.80901211246E+06	-1.01352966945E+01	-1.67364756528E+02	9.42847142640E+00	1.70799537906E+02	-4.74703154115E+01	5.42240004594E+01	-5.96919740717E+00	-7.71587960713E-01
1.83120346705E+06	-1.29340818161E+01	-1.69371976916E+02	9.43498034295E+00	1.70737830080E+02	-5.24346911256E+01	1.67785082588E+01	-5.97006066592E+00	-8.47100231780E-01
1.85339482165E+06	-1.08753016543E+01	-1.65421991078E+02	9.44114943889E+00	1.70684972126E+02	-4.57528882000E+01	2.53720402126E+01	-5.97775419536E+00	-9.11806353100E-01
1.87558617624E+06	-1.02028982730E+01	-1.70769350024E+02	9.43902035672E+00	1.70515310839E+02	-4.66196305742E+01	1.79916727365E+02	-5.98954046042E+00	-9.65188962298E-01
1.89777753084E+06	-1.03177180169E+01	-1.71075218104E+02	9.44081979111E+00	1.70395903985E+02	-4.43097091748E+01	1.27944142907E+02	-5.97524867759E+00	-9.39433018155E-01
1.91996888543E+06	-1.03592453470E+01	1.77787758474E+02	9.44120511115E+00	1.70383467412E+02	-5.24732383098E+01	-1.42518603153E+02	-5.98293412299E+00	-1.00140793790E+00
1.94216024003E+06	-1.04114299693E+01	-1.77325215047E+02	9.43387661513E+00	1.70028516023E+02	-4.36627726840E+01	-7.79016045587E+01	-5.98452137535E+00	-9.36883095934E-01
1.96435159462E+06	-1.00104648234E+01	-1.77962964806E+02	9.44305092900E+00	1.69990683721E+02	-5.55205615474E+01	1.77629897422E+02	-5.97155097554E+00	-9.22747364374E-01
1.98654294922E+06	-1.02640431938E+01	-1.76287287970E+02	9.43498813854E+00	1.69907050915E+02	-4.04582030727E+01	-1.24527344147E+02	-5.97576355588E+00	-9.95388601027E-01
2.00873430381E+06	-9.70121180837E+00	1.76659143139E+02	9.45136221937E+00	1.69574176466E+02	-4.85311043349E+01	2.13645856077E+01	-5.99341358379E+00	-1.00878415882E+00
2.03092565841E+06	-9.19624008209E+00	-1.77238270851E+02	9.41692155716E+00	1.69386232786E+02	-4.36630671203E+01	1.35615716588E+02	-5.97039925957E+00	-9.71996864356E-01
2.05311701300E+06	-9.93130565892E+00	1.72009853409E+02	9.43008840458E+00	1.69529580959E+02	-5.89266904177E+01	4.10722381941E+01	-5.97573513693E+00	-9.89845896642E-01
2.07530836760E+06	-1.04311935682E+01	-1.71392355934E+02	9.43517457498E+00	1.69473652356E+02	-4.70798007718E+01	5.29796981849E+01	-5.95183314369E+00	-9.02224974934E-01
2.09749972219E+06	-1.06213997531E+01	1.70324706777E+02	9.41764117076E+00	1.69160772733E+02	-4.81463756346E+01	7.17859880304E+01	-5.97525579930E+00	-9.20511788957E-01
2.11969107679E+06	-9.04883218896E+00	-1.76265492957E+02	9.41291811485E+00	1.68976046908E+02	-4.28497203762E+01	-8.57186890977E+01	-5.99307025274E+00	-1.26031264506E+00
2.14188243138E+06	-1.08049467502E+01	-1.75459652608E+02	9.44537251555E+00	1.68948516819E+02	-4.32527283961E+01	5.11143643018E+01	-5.95695214785E+00	-1.01648828791E+00
2.16407378598E+06	-9.57005981626E+00	-1.79414207462E+02	9.40655132590E+00	1.68763856917E+02	-5.21667755424E+01	8.80733309029E+01	-5.93965232405E+00	-1.07545132468E+00
2.18626514057E+06	-9.59520956864E+00	-1.53288809890E+02	9.46477282072E+00	1.69067023710E+02	-4.25436970258E+01	1.30850025799E+02	-5.95660516573E+00	-1.13446606955E+00
2.20845649517E+06	-1.29378035224E+01	1.77212857842E+02	9.42433732611E+00	1.68724041666E+02	-4.66021424053E+01	-4.38303666095E+01	-5.96223783130E+00	-9.88320710576E-01
2.23064784976E+06	-1.14639059407E+01	-1.78920065969E+02	9.41393518507E+00	1.68469815281E+02	-5.51368511810E+01	7.29425365147E+01	-5.97232990599E+00	-1.21825973849E+00
2.25283920436E+06	-1.06538228169E+01	1.79856965530E+02	9.43724184608E+00	1.68233153940E+02	-4.57422614216E+01	6.96466426089E+01	-5.93463851164E+00	-9.35625727754E-01
2.27503055895E+06	-9.39602310620E+00	1.73636307428E+02	9.41087230982E+00	1.68298045459E+02	-4.04188804496E+01	-6.14904023077E+01	-5.97988911238E+00	-1.20519417792E+00
2.29722191355E+06	-1.07189617227E+01	-1.77927962065E+02	9.40029634514E+00	1.68141411375E+02	-4.35459302690E+01	-1.17374384750E+02	-5.96043981251E+00	-1.01993951259E+00
2.31941326814E+06	-1.00348804834E+01	-1.67887380319E+02	9.43164218574E+00	1.67970900322E+02	-4.38886904186E+01	6.68856094331E+01	-5.96358318887E+00	-1.05968328718E+00
2.34160462274E+06	-9.71311948905E+00	1.75924515696E+02	9.41909427823E+00	1.67522216791E+02	-3.95928220290E+01	-1.28632940948E+02	-5.93831967547E+00	-1.09530967024E+00
2.36379597733E+06	-1.05817769582E+01	1.66553629208E+02	9.42112370300E+00	1.67661359378E+02	-4.56815253668E+01	1.48459291245E+02	-5.97819094863E+00	-1.03117092673E+00
2.38598733193E+06	-9.48361924630E+00	-1.66097992717E+02	9.41765792567E+00	1.67482118457E+02	-4.53242962890E+01	1.31594867724E+02	-5.97965608817E+00	-9.22586122278E-01
2.40817868652E+06	-9.59527566838E+00	-1.74065179990E+02	9.43913590447E+00	1.67528131076E+02	-5.58397068649E+01	-3.78683978196E+01	-5.96954842200E+00	-1.02632891766E+00
2.43037004112E+06	-1.00532060158E+01	1.69777653101E+02	9.43251397116E+00	1.67394905977E+02	-4.41875322004E+01	1.54188320994E+02	-5.94679298233E+00	-1.57849697567E+00
2.45256139571E+06	-1.13167712917E+01	-1.69879877407E+02	9.40769507405E+00	1.67270237387E+02	-4.36539895682E+01	1.70466165970E+02	-5.96853374462E+00	-1.00573670362E+00
2.47475275031E+06	-1.09431242339E+01	-1.75862562899E+02	9.41584039500E+00	1.67169531238E+02	-5.17192252115E+01	-1.20517578254E+02	-5.99044109197E+00	-1.17253434175E+00
2.49694410490E+06	-1.03795277674E+01	-1.61853099544E+02	9.40832890332E+00	1.67024632298E+02	-4.65475195348E+01	1.18809579790E+02	-5.94689687087E+00	-1.29670821040E+00
2.51913545950E+06	-9.41733534009E+00	1.67139642013E+02	9.42541113593E+00	1.66946868142E+02	-5.23011247171E+01	5.56024249434E+01	-5.98751135723E+00	-1.05574979432E+00
2.54132681409E+06	-9.05873729458E+00	-1.79723117089E+02	9.41878809829E+00	1.66757671874E+02	-5.77181958603E+01	-1.26661043430E+01	-5.99108392532E+00	-1.36561246572E+00
2.56351816869E+06	-9.39673295629E+00	-1.78538384863E+02	9.40540693165E+00	1.66694996083E+02	-5.07148199909E+01	1.11703083098E+01	-5.97461052993E+00	-1.13341562301E+00
2.58570952328E+06	-8.18748412858E+00	-1.71412673902E+02	9.44475494864E+00	1.66333711090E+02	-5.02650785500E+01	1.23545050310E+01	-5.96792084694E+00	-1.05606528263E+00
2.60790087788E+06	-9.71242124096E+00	-1.72102829942E+02	9.48114484328E+00	1.66358282173E+02	-4.25206815277E+01	-4.78905140691E+01	-5.95740194976E+00	-1.18905023037E+00
2.63009223247E+06	-8.63707881844E+00	1.75706040165E+02	9.45972391204E+00	1.66421541313E+02	-5.12567250682E+01	-1.42288404250E+02	-5.98192433605E+00	-1.18010655953E+00
2.65228358707E+06	-1.05286273848E+01	1.79734344499E+02	9.45727204745E+00	1.66362270050E+02	-4.79903020529E+01	-3.56351643039E+01	-5.97376225905E+00	-1.55707925676E+00
2.67447494166E+06	-9.79424450206E+00	1.77193900554E+02	9.42107490151E+00	1.66037025592E+02	-6.07699482925E+01	-1.50831298211E+02	-5.96277932533E+00	-1.21606437043E+00
2.69666629626E+06	-1.13447149584E+01	-1.78048217692E+02	9.42487140699E+00	1.66082981517E+02	-4.03398144233E+01	3.03920970282E+01	-5.96566446449E+00	-1.29931452168E+00
2.71885765085E+06	-9.83212048676E+00	-1.77674863532E+02	9.44853814159E+00	1.65811909551E+02	-5.51700370307E+01	9.14380455313E+00	-5.96783106032E+00	-1.23744019189E+00
2.74104900545E+06	-1.29470910793E+01	-1.75019759544E+02	9.44666572043E+00	1.65665989090E+02	-4.83384771870E+01	8.52543133032E+01	-5.96992858832E+00	-1.25373679507E+00
2.76324036004E+06	-9.58374170468E+00	-1.74311109333E+02	9.41201886970E+00	1.65709029401E+02	-5.49621145756E+01	1.17440860222E+02	-5.98941004219E+00	-1.34528656503E+00
2.78543171463E+06	-9.87883844462E+00	1.73471841091E+02	9.43738909052E+00	1.65627842681E+02	-4.69745746187E+01	-1.28868165085E+02	-5.95813311889E+00	-1.21129735350E+00
2.80762306923E+06	-9.98738229871E+00	-1.72383335966E+02	9.42648290597E+00	1.65385044218E+02	-5.04212627551E+01	-2.61066565960E+01	-5.94459026901E+00	-1.15392203484E+00
2.82981442382E+06	-8.66235201107E+00	-1.79219780454E+02	9.42726967935E+00	1.65065490578E+02	-4.34286585439E+01	6.06815307477E+01	-5.96259467421E+00	-1.31804213808E+00
2.85200577842E+06	-9.39685313320E+00	-1.64360279329E+02	9.42073159497E+00	1.64985221100E+02	-4.83534193247E+01	4.07908843014E+01	-5.96122225792E+00	-1.28182504748E+00
2.87419713301E+06	-1.10118128588E+01	1.70804410110E+02	9.39665938988E+00	1.65182568899E+02	-5.08354140579E+01	-1.20372718564E+02	-5.94834294133E+00	-1.37454374642E+00
