# Hz S DB R 50
! CMT, M5065, 19127446, 24.2.4/2
! Date: 10/29/2024 12:34:36 PM
! Data: Format (Calibration Info)
! Freq	S11:dB/Ang(F2)	S21:dB/Ang(F2)	S12:dB/Ang(F2)	S22:dB/Ang(F2)
3.00000000000E+05	-9.84821225877E+00	-1.73974851548E+02	1.15579653051E+01	-1.78242152560E+02	-3.90824769843E+01	5.71097329381E+01	-5.94007113418E+00	1.45401840470E-02
3.22191354595E+05	-9.46165874329E+00	1.62376585699E+02	1.15475203839E+01	-1.78229778886E+02	-3.60896542565E+01	1.00272203306E+02	-5.98273013750E+00	-3.06304687701E-01
3.44382709190E+05	-1.23248023175E+01	-1.76647491792E+02	1.15129891972E+01	-1.78618939133E+02	-4.13007182293E+01	-1.41946750415E+02	-5.95713175329E+00	-3.36477592980E-01
3.66574063785E+05	-1.59803314536E+01	-1.70899618441E+02	1.15552238323E+01	-1.79295350088E+02	-5.90539753636E+01	-1.05898928502E+02	-5.98203134570E+00	-3.76736349827E-01
3.88765418380E+05	-1.30532731782E+01	-1.78409345780E+02	1.14991213811E+01	-1.79478381944E+02	-5.82417732355E+01	1.68159562765E+02	-5.99781854055E+00	-3.49432495958E-01
4.10956772975E+05	-1.04404515436E+01	-1.64205197698E+02	1.15452226887E+01	-1.79714761513E+02	-3.86043480511E+01	4.48538802464E+01	-5.95023814286E+00	-1.85090761099E-01
4.33148127570E+05	-9.01719770434E+00	1.68687831064E+02	1.15712984474E+01	-1.79908129338E+02	-4.15115797282E+01	3.72107926067E+01	-5.92304840068E+00	-3.86843713932E-01
4.55339482165E+05	-8.86168332699E+00	-1.77437685655E+02	1.15358150912E+01	1.79674735942E+02	-3.96568754059E+01	4.11990918874E+01	-5.98444266583E+00	-3.32857929826E-01
4.77530836760E+05	-1.52700988497E+01	1.77970815810E+02	1.15179676551E+01	1.79915838927E+02	-3.82933922154E+01	-1.51627442368E+02	-5.97568020386E+00	-5.57393904218E-01
4.99722191355E+05	-1.03971822688E+01	-1.71025027651E+02	1.15442808271E+01	1.79824159755E+02	-4.22979849989E+01	1.43621490290E+02	-5.97032555945E+00	-2.29652443372E-01
5.21913545950E+05	-2.22056811677E+01	1.48825755960E+02	1.15239360560E+01	1.78979203322E+02	-3.53283257364E+01	6.80337751816E+01	-5.99389907525E+00	-4.54242471101E-01
5.44104900545E+05	-1.34870183005E+01	1.66520921039E+02	1.15453536427E+01	1.78507456832E+02	-4.04368956556E+01	-1.53732653622E+02	-5.96196299211E+00	-5.36505579532E-01
5.66296255139E+05	-1.35317245438E+01	1.70047183355E+02	1.15335419914E+01	1.78680538397E+02	-4.97254274489E+01	1.00888969289E+02	-5.98095687226E+00	-5.18940900643E-01
5.88487609734E+05	-1.25655673307E+01	-1.63975073501E+02	1.15526099368E+01	1.78515196800E+02	-4.14906004492E+01	1.71839267333E+02	-6.03072517531E+00	-5.22807143444E-01
6.10678964329E+05	-1.26493823326E+01	-1.70582951598E+02	1.15541696260E+01	1.78216394703E+02	-3.99714194563E+01	-1.46833770126E+02	-5.98261995316E+00	-2.63992345993E-01
6.32870318924E+05	-1.23517777819E+01	-1.61799256307E+02	1.15601278833E+01	1.78078070248E+02	-4.80600096541E+01	-5.86304644560E+01	-5.98148188055E+00	-5.00164752992E-01
6.55061673519E+05	-6.39762107528E+00	-1.76019496238E+02	1.14833327719E+01	1.77743827596E+02	-4.42915229316E+01	-5.71616798109E+00	-5.95623392345E+00	-1.72550140472E-02
6.77253028114E+05	-1.25046037429E+01	-1.57331618866E+02	1.15965580353E+01	1.77381102185E+02	-4.34385599440E+01	-1.74529738347E+02	-5.96935631579E+00	-6.72180938140E-01
6.99444382709E+05	-9.04424548919E+00	1.74482858496E+02	1.15446902483E+01	1.77561718357E+02	-4.93390243485E+01	-6.02304271603E+01	-5.98706558430E+00	-4.93553916359E-01
7.21635737304E+05	-9.11657751136E+00	1.51962716229E+02	1.15768758315E+01	1.76954080290E+02	-3.86396952830E+01	-4.28185779574E+01	-5.93520851515E+00	-4.88120061014E-01
7.43827091899E+05	-8.14262014075E+00	-1.76000793271E+02	1.15574479456E+01	1.77275176036E+02	-3.61845461389E+01	-1.47144661433E+02	-5.96490657169E+00	-6.77028805659E-01
7.66018446494E+05	-1.15417408803E+01	-1.60380440354E+02	1.15374743364E+01	1.77295216171E+02	-3.64440357717E+01	7.95829189187E+00	-5.94454628894E+00	-6.50258754851E-01
7.88209801089E+05	-1.57661965478E+01	1.51863418009E+02	1.15994771210E+01	1.76754001492E+02	-4.06011286981E+01	6.31062965490E+01	-5.97861319638E+00	-5.49953124723E-01
8.10401155684E+05	-1.10794655027E+01	-1.51745216213E+02	1.15858737000E+01	1.76451025288E+02	-4.31952734121E+01	5.75253089392E+01	-5.98559312323E+00	-5.84800888292E-01
8.32592510279E+05	-8.00188912381E+00	-1.55655699056E+02	1.15483479042E+01	1.76191947975E+02	-4.00603482487E+01	6.89085764376E+01	-5.99946087913E+00	-5.97225339368E-01
8.54783864874E+05	-1.06585218056E+01	-1.76400400291E+02	1.15618335795E+01	1.76307125942E+02	-4.13886989190E+01	2.83334290929E+01	-5.98632500929E+00	-3.27446095957E-01
8.76975219469E+05	-9.71444411886E+00	1.74709066363E+02	1.15685535098E+01	1.75696408832E+02	-4.42527369875E+01	1.21460616733E+01	-5.96149143846E+00	-5.67433443073E-01
8.99166574064E+05	-1.13143709380E+01	-1.77081458020E+02	1.15746682597E+01	1.75808500631E+02	-4.36976061403E+01	9.51353149159E+01	-5.98940931760E+00	-7.25489005993E-01
9.21357928659E+05	-9.94749411451E+00	1.60382614578E+02	1.15551719394E+01	1.75346677897E+02	-4.61551914428E+01	1.78393016298E+02	-5.99688785350E+00	-4.00320505070E-01
9.43549283254E+05	-8.88921238339E+00	-1.69989054050E+02	1.15091978567E+01	1.74877972002E+02	-3.49266465199E+01	-6.89470931853E+01	-5.97931849233E+00	-4.52548634797E-01
9.65740637849E+05	-1.29706777351E+01	-1.72370042004E+02	1.15345375098E+01	1.75111880501E+02	-5.19816559756E+01	7.16076615156E+01	-5.96152963138E+00	-3.78950160609E-01
9.87931992444E+05	-1.32749070380E+01	-1.61820486125E+02	1.15091903507E+01	1.74989460740E+02	-4.14781303142E+01	-8.51573905255E+01	-5.97277499312E+00	-7.75743408448E-01
1.01012334704E+06	-7.43771199098E+00	1.78895884511E+02	1.15703987956E+01	1.75260430424E+02	-3.89652675099E+01	6.07660483106E-01	-5.96961745728E+00	-6.17087308248E-01
1.03231470163E+06	-7.52708807653E+00	-1.70169713209E+02	1.15638782929E+01	1.75088076228E+02	-4.28495793223E+01	-1.13858285390E+01	-5.96915148453E+00	-7.26637393255E-01
1.05450605623E+06	-6.38656714653E+00	1.66010207392E+02	1.15158618815E+01	1.74785764992E+02	-4.46379695753E+01	-1.24468783268E+02	-5.96584429265E+00	-6.69976438183E-01
1.07669741082E+06	-9.04982880599E+00	1.61080396388E+02	1.15777312187E+01	1.74589718702E+02	-4.67472686255E+01	4.93418234326E+01	-5.96132263812E+00	-5.29060532001E-01
1.09888876542E+06	-1.11162476170E+01	-1.64581167863E+02	1.15184945150E+01	1.74736163623E+02	-4.35641251026E+01	1.49499307467E+02	-5.98385096922E+00	-7.41912838791E-01
1.12108012001E+06	-1.18630841264E+01	-1.77298294434E+02	1.15448144853E+01	1.74085612344E+02	-3.95152954303E+01	2.18172831795E+01	-5.97892745607E+00	-8.53037250498E-01
1.14327147461E+06	-1.01232682720E+01	1.66988337041E+02	1.15378259387E+01	1.74529997306E+02	-4.05514372546E+01	9.09508877050E+00	-5.97650408629E+00	-6.20106255264E-01
1.16546282920E+06	-1.09072514518E+01	1.79822213994E+02	1.15643346616E+01	1.74084422584E+02	-3.89804655733E+01	1.25912412695E+02	-5.97837993885E+00	-3.72638623165E-01
1.18765418380E+06	-7.23437634442E+00	1.78739592471E+02	1.15621570376E+01	1.73657384436E+02	-4.49461818874E+01	-9.12697699987E+01	-5.97444170977E+00	-6.51217660437E-01
1.20984553839E+06	-9.57116237736E+00	-1.61066379048E+02	1.15748233573E+01	1.74030329552E+02	-4.46630662820E+01	2.98280167877E+00	-5.99146814205E+00	-1.00270832290E+00
1.23203689299E+06	-1.35455226782E+01	-1.53533031517E+02	1.15467869106E+01	1.73468294467E+02	-3.96530039232E+01	4.92493176819E+01	-5.97948876540E+00	-8.45432505677E-01
1.25422824758E+06	-8.55055740872E+00	1.75358581385E+02	1.15123201228E+01	1.73057834493E+02	-3.69197479009E+01	4.45517512987E+01	-5.94715190272E+00	-7.52595234091E-01
1.27641960218E+06	-1.20166552277E+01	-1.66352455441E+02	1.15565083127E+01	1.73223424725E+02	-3.71978146406E+01	1.23770804636E+02	-5.96293151998E+00	-6.21945536310E-01
1.29861095677E+06	-1.02862120060E+01	1.58994157742E+02	1.15214220565E+01	1.72841923329E+02	-4.21890312926E+01	1.34559078809E+02	-5.99680337032E+00	-7.70800189899E-01
1.32080231137E+06	-6.74639848551E+00	-1.79765619981E+02	1.15078828691E+01	1.72623396584E+02	-4.43116692534E+01	-1.45053274885E+02	-5.97598141398E+00	-1.15292302193E+00
1.34299366596E+06	-1.24694760986E+01	-1.68128079603E+02	1.15555245494E+01	1.72913531886E+02	-4.00962226766E+01	-5.46480341935E+01	-5.98081598183E+00	-9.86143570195E-01
1.36518502056E+06	-1.31107963814E+01	-1.73989740487E+02	1.15676879635E+01	1.72292700869E+02	-3.83828402149E+01	1.06105548055E+02	-5.97705336018E+00	-6.32466952131E-01
1.38737637515E+06	-9.42745656267E+00	-1.62787055144E+02	1.15513917308E+01	1.71983588335E+02	-3.99914519763E+01	-1.58432308087E+02	-5.98252845835E+00	-9.44750856437E-01
1.40956772975E+06	-1.02741625962E+01	1.76753194883E+02	1.15129962941E+01	1.72552795154E+02	-6.41318838344E+01	1.04012835721E+02	-5.94275478482E+00	-8.72756903227E-01
1.43175908434E+06	-1.03018488568E+01	1.62216545069E+02	1.15098409327E+01	1.71672574342E+02	-4.19804089380E+01	3.37341514564E+01	-5.96281912134E+00	-9.35215010033E-01
1.45395043894E+06	-8.85259899003E+00	-1.61588535950E+02	1.15115429682E+01	1.72183644731E+02	-3.96440119396E+01	1.63913459413E+02	-6.01353763720E+00	-1.10922476490E+00
1.47614179353E+06	-1.20826759033E+01	1.74709720233E+02	1.15956913498E+01	1.72348406091E+02	-3.79723536140E+01	-1.09678603486E+02	-5.99410815789E+00	-1.06462708522E+00
1.49833314813E+06	-1.18081319947E+01	1.59186449359E+02	1.15979290737E+01	1.71605830346E+02	-3.94679052363E+01	-3.16488582256E+01	-5.99494885196E+00	-6.66839989665E-01
1.52052450272E+06	-8.72233108336E+00	1.69180633341E+02	1.15599254228E+01	1.71257857512E+02	-4.37180459684E+01	-1.47960566055E+02	-5.99239307212E+00	-8.60246969721E-01
1.54271585732E+06	-1.08828769570E+01	-1.74367664930E+02	1.15414285357E+01	1.71353140288E+02	-4.22284728162E+01	-7.58431021061E+01	-5.92167934427E+00	-1.01728726248E+00
1.56490721191E+06	-7.01608597956E+00	-1.58889103179E+02	1.16002913826E+01	1.71429624542E+02	-3.13165180359E+01	2.14017570651E+01	-5.90791018980E+00	-7.70103829349E-01
1.58709856651E+06	-9.53868095952E+00	1.71830281733E+02	1.16541529627E+01	1.71161621106E+02	-3.78629979406E+01	1.72433598780E+01	-5.97035665512E+00	-9.12175070652E-01
1.60928992110E+06	-1.00979431354E+01	1.71748048869E+02	1.15398529747E+01	1.70992101282E+02	-4.00314281499E+01	8.63390402639E+01	-5.97506075546E+00	-9.07899693683E-01
1.63148127570E+06	-7.33051825327E+00	-1.68696696700E+02	1.15492822335E+01	1.70915632121E+02	-3.77755434260E+01	-1.41225380466E+02	-5.98847002789E+00	-7.38659602339E-01
1.65367263029E+06	-9.05331133613E+00	-1.50592474481E+02	1.15738137717E+01	1.70339317619E+02	-4.37988476326E+01	-6.46616656498E+01	-5.96596421040E+00	-8.77203791051E-01
1.67586398489E+06	-1.15330329828E+01	1.68562746056E+02	1.15475075240E+01	1.70122910637E+02	-4.15734691183E+01	-6.56300068902E+01	-5.98586353646E+00	-8.58833381565E-01
1.69805533948E+06	-1.00884202951E+01	1.79881921837E+02	1.15237295252E+01	1.70356702212E+02	-3.77256414280E+01	-1.16818347274E+02	-5.99998764051E+00	-1.20779445684E+00
1.72024669408E+06	-1.15624575387E+01	-1.73084312266E+02	1.15088759952E+01	1.70340100152E+02	-3.62156443213E+01	9.26056995135E+01	-5.95651382814E+00	-7.64997766553E-01
1.74243804867E+06	-9.43617160075E+00	-1.67746908394E+02	1.15638297130E+01	1.70222942957E+02	-5.15549513847E+01	-1.46678012769E+01	-5.95681686269E+00	-1.15221671906E+00
1.76462940327E+06	-1.00659336814E+01	1.71993298554E+02	1.15384368631E+01	1.70035568915E+02	-4.09113892511E+01	-1.68222423874E+02	-6.00408215145E+00	-9.00712963651E-01
1.78682075786E+06	-1.02778715515E+01	1.70018038666E+02	1.15200895296E+01	1.69668739042E+02	-4.06236811798E+01	-3.28257893532E+01	-5.97512696604E+00	-8.98852398327E-01
1.80901211246E+06	-9.71869247194E+00	-1.71164863206E+02	1.15864892969E+01	1.69763973801E+02	-4.80012020976E+01	-1.05722249292E+01	-5.95069968380E+00	-9.71943463368E-01
1.83120346705E+06	-8.35268825844E+00	-1.69982863093E+02	1.15052284143E+01	1.69554310031E+02	-3.44982155922E+01	-8.81008843162E+01	-5.98194526236E+00	-8.40359889609E-01
1.85339482165E+06	-7.05862001733E+00	1.78697731763E+02	1.15779263021E+01	1.69216085956E+02	-5.01153715921E+01	8.48008448085E+01	-5.95241486780E+00	-1.01778853758E+00
1.87558617624E+06	-9.23442569512E+00	1.52064934284E+02	1.15679343481E+01	1.68948476954E+02	-5.65118877445E+01	-1.16778779060E+01	-5.97238818296E+00	-5.32141555668E-01
1.89777753084E+06	-7.70804978181E+00	1.66013866380E+02	1.15910788318E+01	1.69032960838E+02	-4.60993940125E+01	5.94022575043E+01	-5.95779212768E+00	-9.94321642118E-01
1.91996888543E+06	-1.11677170249E+01	1.77342540878E+02	1.15690544839E+01	1.69150266306E+02	-4.66511790098E+01	-1.66897278764E+02	-5.94935458229E+00	-1.05571658443E+00
1.94216024003E+06	-1.11958895033E+01	-1.56473367104E+02	1.15189658090E+01	1.68853166699E+02	-3.86249555050E+01	7.92015928826E+01	-5.96990370062E+00	-1.05245518447E+00
1.96435159462E+06	-1.39024361790E+01	-1.75119077526E+02	1.15427750496E+01	1.68739327073E+02	-4.91054457859E+01	-1.38487601015E+02	-6.00863310213E+00	-9.10064903699E-01
1.98654294922E+06	-8.00248120140E+00	-1.74890296064E+02	1.15483759801E+01	1.68466982713E+02	-5.73344495969E+01	-1.35187450946E+02	-5.90732750044E+00	-9.87585917510E-01
2.00873430381E+06	-1.39634560036E+01	-1.58597920658E+02	1.15149885475E+01	1.68494987124E+02	-4.02990666532E+01	1.63285597976E+02	-6.03974327746E+00	-1.14157188709E+00
2.03092565841E+06	-1.57060579796E+01	1.65150874914E+02	1.14496612559E+01	1.68052664893E+02	-4.15520274885E+01	-1.31563358002E+02	-6.08609110120E+00	-8.93964488116E-01
2.05311701300E+06	-1.28338509807E+01	1.78347106806E+02	1.15412370338E+01	1.68023024140E+02	-4.25624594097E+01	-8.44563624521E+01	-5.98211823835E+00	-9.30542896342E-01
2.07530836760E+06	-8.71476666930E+00	1.68558139815E+02	1.15423867359E+01	1.67853438202E+02	-3.38980757943E+01	1.78216508846E+02	-5.96877143749E+00	-1.07130605668E+00
2.09749972219E+06	-1.01957455765E+01	-1.72199949507E+02	1.15348588739E+01	1.68037294139E+02	-3.85347502066E+01	8.63323273855E+01	-5.93461239874E+00	-1.17047328029E+00
2.11969107679E+06	-1.31282074523E+01	-1.50416137820E+02	1.15359066615E+01	1.67617808779E+02	-5.95556484873E+01	-1.73277618939E+02	-5.97182043257E+00	-1.03298803676E+00
2.14188243138E+06	-1.13277126608E+01	-1.69949957323E+02	1.15955856545E+01	1.67782111141E+02	-4.09796572467E+01	9.06013672010E+01	-5.99624145819E+00	-1.24743326986E+00
2.16407378598E+06	-8.98806648174E+00	-1.56463943168E+02	1.15374901459E+01	1.67658197176E+02	-4.20747169488E+01	3.15203539433E+01	-5.96628509109E+00	-1.37511877752E+00
2.18626514057E+06	-8.63802638116E+00	1.76755653295E+02	1.15614035222E+01	1.67542246504E+02	-3.58123876937E+01	-1.14164851529E+01	-5.98352841494E+00	-1.20360724722E+00
2.20845649517E+06	-1.14271855718E+01	-1.68924861651E+02	1.15044394795E+01	1.67234398706E+02	-4.14659427271E+01	-5.30017148503E+01	-5.98500122634E+00	-1.20409006047E+00
2.23064784976E+06	-1.21820722601E+01	1.77106877765E+02	1.15718570127E+01	1.67058638885E+02	-4.02427260752E+01	-8.53884800603E+01	-5.95150699633E+00	-1.10772781690E+00
2.25283920436E+06	-1.03632933827E+01	1.76258009447E+02	1.15558981884E+01	1.66756955444E+02	-4.49369243546E+01	6.20286859993E+01	-5.94377872963E+00	-1.01455859866E+00
2.27503055895E+06	-1.06988540382E+01	-1.72470328333E+02	1.14774107255E+01	1.66795800254E+02	-3.88132087135E+01	3.81523472546E+01	-5.95734544648E+00	-9.67255078439E-01
2.29722191355E+06	-9.29729525042E+00	1.78446923549E+02	1.15936701708E+01	1.66578931343E+02	-3.99774537404E+01	1.23357881091E+02	-5.92674989420E+00	-9.65078008121E-01
2.31941326814E+06	-1.13161117007E+01	1.73964439156E+02	1.15074413092E+01	1.66803158217E+02	-3.83756673754E+01	-1.72303303853E+02	-5.98475426175E+00	-1.09314591630E+00
2.34160462274E+06	-1.06315745765E+01	1.68523385950E+02	1.14413712519E+01	1.65854678381E+02	-4.32795062744E+01	-6.54100806833E+01	-5.95891347029E+00	-1.44926044870E+00
2.36379597733E+06	-1.06194071036E+01	1.62908952993E+02	1.15535556467E+01	1.66166305422E+02	-4.77323467353E+01	-1.32598654955E+02	-5.95743381947E+00	-1.11989091253E+00
2.38598733193E+06	-1.32398890801E+01	-1.63736541879E+02	1.15165297286E+01	1.66246789895E+02	-4.24399322225E+01	5.20346760367E+01	-5.96232093396E+00	-1.01484590758E+00
2.40817868652E+06	-8.33855275948E+00	-1.63214388244E+02	1.15322675357E+01	1.66038027015E+02	-3.97220225922E+01	-1.01312784151E+02	-6.00380956396E+00	-1.16268790332E+00
2.43037004112E+06	-7.45210794269E+00	-1.73720192394E+02	1.14928874189E+01	1.65683561029E+02	-4.32784618751E+01	1.70081770486E+02	-5.96536906466E+00	-1.52189954166E+00
2.45256139571E+06	-1.06381887251E+01	-1.70056322147E+02	1.15282251324E+01	1.65663419014E+02	-3.54691678935E+01	-1.44277731622E+02	-6.00599434253E+00	-1.08698659843E+00
2.47475275031E+06	-1.11822308452E+01	1.76023590177E+02	1.15382745067E+01	1.65392935737E+02	-4.36396590463E+01	-1.19891053476E+02	-6.04390508546E+00	-9.48731317974E-01
2.49694410490E+06	-7.69229433054E+00	-1.64802330948E+02	1.15616588217E+01	1.65470000728E+02	-4.07996502300E+01	-1.22354225850E+02	-5.99695445121E+00	-1.22558780367E+00
2.51913545950E+06	-9.55685628272E+00	1.70709859119E+02	1.15294823697E+01	1.65324365430E+02	-5.47074171219E+01	4.36137834120E+01	-6.00877547660E+00	-1.15920164956E+00
2.54132681409E+06	-1.14874234012E+01	1.78835504325E+02	1.15715671061E+01	1.65017582772E+02	-3.68936739906E+01	3.65192878996E+00	-5.95404540913E+00	-1.27434297656E+00
2.56351816869E+06	-1.46139366307E+01	-1.69965922464E+02	1.15327389661E+01	1.64928590106E+02	-5.21117991435E+01	-2.38608356238E+01	-5.96570656889E+00	-9.41736920114E-01
2.58570952328E+06	-7.50772639189E+00	-1.78058281260E+02	1.15484749524E+01	1.64950868690E+02	-3.95699373058E+01	9.94830600439E+01	-5.95482452788E+00	-1.15031890526E+00
2.60790087788E+06	-1.13287836841E+01	-1.73765474551E+02	1.15806170169E+01	1.64430227489E+02	-5.36468745011E+01	1.49680900088E+02	-5.98360136932E+00	-1.12178988263E+00
2.63009223247E+06	-9.20905181753E+00	-1.67857977042E+02	1.15688853565E+01	1.64615099588E+02	-3.87465068266E+01	5.66760150283E+01	-5.96079583581E+00	-1.32319524187E+00
2.65228358707E+06	-9.74591536860E+00	1.75938230542E+02	1.15137898853E+01	1.64465113107E+02	-5.44352554265E+01	9.00768393997E+01	-5.91497760701E+00	-1.82239066166E+00
2.67447494166E+06	-1.29352713969E+01	1.59218666889E+02	1.14543458470E+01	1.64565474183E+02	-4.21701450829E+01	-1.39506365169E+02	-5.98779411619E+00	-1.41509776826E+00
2.69666629626E+06	-1.05693682158E+01	1.79350917688E+02	1.15937278174E+01	1.64414915223E+02	-4.22454283859E+01	-4.88143041217E+01	-5.94061963093E+00	-1.35862545068E+00
2.71885765085E+06	-1.20099415637E+01	-1.68271247772E+02	1.14869949137E+01	1.64187232858E+02	-4.47665115274E+01	-2.15286962578E+01	-6.00612213106E+00	-1.23791242193E+00
2.74104900545E+06	-9.95054855672E+00	-1.72117912990E+02	1.15790189544E+01	1.63895391045E+02	-4.55823804268E+01	1.74187753347E+02	-5.99218023271E+00	-1.19834911348E+00
2.76324036004E+06	-8.79105872748E+00	-1.77732965719E+02	1.15681783542E+01	1.63908963182E+02	-4.93188994799E+01	1.66732992344E+02	-5.93576412265E+00	-1.31052573129E+00
2.78543171463E+06	-1.41369093157E+01	-1.65717205778E+02	1.15482907751E+01	1.63834523474E+02	-3.58973889890E+01	-1.21890598981E+02	-5.98848003631E+00	-1.23344403351E+00
2.80762306923E+06	-8.95479605962E+00	-1.79641495618E+02	1.15653278868E+01	1.63455526194E+02	-4.10122319299E+01	-7.37081118175E+01	-5.93389609617E+00	-1.14680132613E+00
2.82981442382E+06	-7.46289837955E+00	-1.55667981973E+02	1.16211935157E+01	1.63501162390E+02	-4.47635111825E+01	-1.14393070583E+02	-5.99282207224E+00	-1.25203041685E+00
2.85200577842E+06	-9.64373761149E+00	1.75886560637E+02	1.15795748635E+01	1.63210390947E+02	-4.49025431252E+01	9.05618887363E+01	-5.95257118581E+00	-1.19061369134E+00
2.87419713301E+06	-1.01201724031E+01	-1.67382462074E+02	1.15216886398E+01	1.62992309187E+02	-4.25142154338E+01	9.37219851245E+01	-5.97299036002E+00	-1.26216285800E+00
