# Hz S DB R 50
! CMT, M5065, 19127446, 24.2.4/2
! Date: 10/29/2024 12:10:18 PM
! Data: Format (Calibration Info)
! Freq	S11:dB/Ang(F2)	S21:dB/Ang(F2)	S12:dB/Ang(F2)	S22:dB/Ang(F2)
3.00000000000E+05	-1.47768069404E+01	1.75420210178E+02	7.20231235833E+00	-1.78246607706E+02	-4.59802670937E+01	1.49897853107E+02	-5.95337260786E+00	-2.60202771723E-01
3.22191354595E+05	-9.50772297389E+00	-1.72087737910E+02	7.20985607348E+00	-1.78460231355E+02	-5.10947985909E+01	-5.14621475266E+01	-5.96489250101E+00	-1.16975360830E-01
3.44382709190E+05	-1.12536309328E+01	-1.78990069974E+02	7.16049610284E+00	-1.78963487360E+02	-4.38233323215E+01	1.32948059314E+02	-5.96780274995E+00	-2.64447178896E-01
3.66574063785E+05	-9.06152534198E+00	-1.63331729275E+02	7.23411701829E+00	-1.78943762490E+02	-4.82032934528E+01	1.12631301506E+02	-5.96052631811E+00	-1.25708977325E-01
3.88765418380E+05	-1.05553530683E+01	-1.65908624991E+02	7.23896081995E+00	-1.79191515425E+02	-4.20471828250E+01	-1.54584129126E+02	-5.97799309378E+00	-2.93331390165E-01
4.10956772975E+05	-1.09731886082E+01	1.77788305047E+02	7.23909291752E+00	-1.79764961734E+02	-4.19057660696E+01	-2.98745622932E+01	-5.96786388092E+00	-1.49369026405E-01
4.33148127570E+05	-1.10096346929E+01	-1.72658888819E+02	7.25142397392E+00	-1.79755173743E+02	-4.68789294124E+01	4.93395872903E+01	-6.00196085374E+00	-4.50499433459E-01
4.55339482165E+05	-1.34978575243E+01	-1.79654888378E+02	7.28110054532E+00	-1.79905038449E+02	-4.69142856917E+01	-1.12793868399E+02	-5.97986895556E+00	-2.83466464833E-01
4.77530836760E+05	-1.03927786550E+01	-1.75728088645E+02	7.24846207536E+00	1.79944796050E+02	-4.48381389095E+01	1.67796126386E+02	-5.98458697280E+00	-3.35766427854E-01
4.99722191355E+05	-9.04375233217E+00	1.79101933922E+02	7.25072925359E+00	1.79623679846E+02	-3.98734564551E+01	1.79624954186E+02	-5.97703705087E+00	-3.47424825393E-01
5.21913545950E+05	-1.00836668852E+01	1.73849592867E+02	7.24116621339E+00	1.79545782919E+02	-4.80429100982E+01	1.08159043307E+02	-5.98079920957E+00	-2.91859024346E-01
5.44104900545E+05	-1.00158098624E+01	1.77243675030E+02	7.26649852115E+00	1.79455496256E+02	-4.11044545582E+01	1.00647908915E+02	-5.98581653168E+00	-4.11417735521E-01
5.66296255139E+05	-9.62719167944E+00	-1.79448914565E+02	7.25871865556E+00	1.79270059887E+02	-5.94495688273E+01	-1.71124032448E+02	-5.96424688273E+00	-3.54981478568E-01
5.88487609734E+05	-1.32285880293E+01	-1.77360919692E+02	7.22428878576E+00	1.78766465836E+02	-4.26866915894E+01	1.70185189950E+02	-5.95883999325E+00	-4.41802586353E-01
6.10678964329E+05	-1.14192145103E+01	-1.76289981004E+02	7.23187964986E+00	1.78809685380E+02	-5.60796104259E+01	-6.39274353423E+00	-5.97408392907E+00	-4.10952795297E-02
6.32870318924E+05	-1.30153968767E+01	-1.63832578056E+02	7.24112769766E+00	1.78675080028E+02	-5.86284554005E+01	1.69311607436E+02	-5.97575764501E+00	-4.29478878007E-01
6.55061673519E+05	-9.85103110342E+00	1.78680952041E+02	7.23668239634E+00	1.78455342354E+02	-4.49061702494E+01	-2.06238727962E+01	-6.00727092500E+00	-2.92962770144E-01
6.77253028114E+05	-1.13675563035E+01	1.65278115128E+02	7.26415106096E+00	1.78003635456E+02	-5.30277531851E+01	-5.66690423786E+00	-5.97672274249E+00	-6.36376686438E-01
6.99444382709E+05	-1.03298822544E+01	-1.77479324366E+02	7.22403693727E+00	1.78067556204E+02	-3.93213953963E+01	8.72083523913E+01	-5.98052351288E+00	-4.69677938918E-01
7.21635737304E+05	-1.08060836022E+01	1.77006723793E+02	7.21358778736E+00	1.77972314944E+02	-5.09453480542E+01	1.72882205203E+02	-5.97819007378E+00	-3.02627313849E-01
7.43827091899E+05	-8.74399825500E+00	1.78199034375E+02	7.23825356045E+00	1.78006599130E+02	-4.42783528175E+01	-3.69045805556E+01	-5.97658679444E+00	-5.18210134024E-01
7.66018446494E+05	-9.03154154282E+00	1.79003030829E+02	7.22395334267E+00	1.77849672983E+02	-4.62005788759E+01	-1.73561594899E+02	-5.97404897556E+00	-4.97908575393E-01
7.88209801089E+05	-8.89723135987E+00	-1.76743456139E+02	7.21499122818E+00	1.77474849457E+02	-4.61849518691E+01	1.01172142818E+02	-5.97206677057E+00	-4.91143906018E-01
8.10401155684E+05	-1.10612434024E+01	1.77279619613E+02	7.22098467015E+00	1.77162218139E+02	-4.72205321507E+01	-7.96026986858E+01	-5.98357466561E+00	-6.92393768772E-01
8.32592510279E+05	-1.08518231981E+01	-1.79167598431E+02	7.21729233479E+00	1.77359367216E+02	-4.32172000750E+01	-1.83578296766E+01	-5.96998053660E+00	-4.02013106667E-01
8.54783864874E+05	-8.84203592302E+00	1.76644873379E+02	7.23013507550E+00	1.77054310707E+02	-4.03708148125E+01	1.54178422184E+02	-5.96460306781E+00	-4.39244388783E-01
8.76975219469E+05	-1.10359227486E+01	-1.68995986250E+02	7.26058868795E+00	1.77168922438E+02	-4.24564113466E+01	6.66734533527E+01	-5.97467717212E+00	-5.45281282047E-01
8.99166574064E+05	-9.79340911030E+00	-1.76780605862E+02	7.25189713109E+00	1.76681434942E+02	-4.17969681868E+01	-1.24719161540E+02	-5.97615500496E+00	-6.28793754143E-01
9.21357928659E+05	-9.77260842715E+00	1.77787517437E+02	7.26582993693E+00	1.76577142696E+02	-4.35124441834E+01	1.56852554109E+02	-5.96717313496E+00	-5.11962568080E-01
9.43549283254E+05	-1.07593565688E+01	1.71529575295E+02	7.29949509590E+00	1.76487044014E+02	-4.78129838697E+01	-1.09679746802E+02	-5.97854393655E+00	-4.33009326186E-01
9.65740637849E+05	-1.01013325347E+01	1.75089064479E+02	7.24257091286E+00	1.76530298963E+02	-3.99041611486E+01	-9.76590958058E+01	-5.95869467179E+00	-5.59871970900E-01
9.87931992444E+05	-9.77369511534E+00	-1.79126731442E+02	7.23940687323E+00	1.76097298094E+02	-3.98723002479E+01	-1.09928939388E+01	-5.97828198681E+00	-3.97190726845E-01
1.01012334704E+06	-9.23617791108E+00	-1.77264546296E+02	7.23455669022E+00	1.76271456817E+02	-4.10801985084E+01	1.06229933715E+02	-6.00728517920E+00	-7.14975883013E-01
1.03231470163E+06	-8.16309534998E+00	1.79636425617E+02	7.22868058476E+00	1.75785725299E+02	-4.37731455340E+01	-6.34425497534E+01	-5.97459482369E+00	-6.66048507343E-01
1.05450605623E+06	-9.67942426153E+00	-1.74837062787E+02	7.27312472835E+00	1.75983299158E+02	-4.12501499045E+01	-1.35808052820E+02	-5.96032692647E+00	-5.59277843052E-01
1.07669741082E+06	-1.01313064517E+01	-1.78710525498E+02	7.23839267446E+00	1.75796403731E+02	-4.55158619848E+01	-8.16679889889E+01	-5.98293625195E+00	-4.88917434888E-01
1.09888876542E+06	-1.10178107338E+01	-1.79602896121E+02	7.24260524577E+00	1.75549906200E+02	-4.55614891050E+01	-1.76971078676E+02	-5.98689493811E+00	-5.63067700446E-01
1.12108012001E+06	-9.78566719278E+00	-1.63023490267E+02	7.22632534164E+00	1.75636350888E+02	-4.57314657710E+01	-1.21892951137E+02	-5.96523637087E+00	-5.83962263418E-01
1.14327147461E+06	-8.87610832987E+00	1.69239930722E+02	7.23066652385E+00	1.75380292894E+02	-5.28498629147E+01	-1.62868565066E+02	-5.98061364673E+00	-6.81024361271E-01
1.16546282920E+06	-1.07763526981E+01	-1.67281827027E+02	7.25900293521E+00	1.75034304115E+02	-5.65181898713E+01	-1.29231706173E+02	-5.97238826302E+00	-6.17560095446E-01
1.18765418380E+06	-9.29494163176E+00	1.68189844242E+02	7.24907603707E+00	1.75115283767E+02	-4.64653858658E+01	5.56132750547E-01	-5.96834497011E+00	-6.26461975826E-01
1.20984553839E+06	-9.19214942820E+00	-1.77866247327E+02	7.23704345598E+00	1.74948688828E+02	-5.17787326745E+01	-3.67657471752E+01	-5.96631609205E+00	-8.83471329183E-01
1.23203689299E+06	-1.18217936945E+01	1.75850123283E+02	7.21220952351E+00	1.74888903957E+02	-4.60669239791E+01	1.14934658324E+02	-5.98627769330E+00	-6.48021869956E-01
1.25422824758E+06	-1.21052966432E+01	-1.74635606833E+02	7.25985944041E+00	1.74918173682E+02	-4.53149262525E+01	-7.86741826268E+01	-5.99511784218E+00	-7.01323648195E-01
1.27641960218E+06	-9.49248568439E+00	-1.75506034489E+02	7.21787670443E+00	1.74648632536E+02	-4.57415419418E+01	1.47494962897E+02	-5.96594334953E+00	-6.07124364335E-01
1.29861095677E+06	-9.51787021583E+00	1.79032523569E+02	7.24811711900E+00	1.74613999352E+02	-4.26997898470E+01	3.24766931259E+01	-5.98009821799E+00	-6.51999603598E-01
1.32080231137E+06	-1.04262495782E+01	-1.67705985808E+02	7.24114263782E+00	1.74562013910E+02	-4.88200969707E+01	1.20234300594E+02	-5.96988141956E+00	-1.16949892551E+00
1.34299366596E+06	-1.21643750421E+01	1.78087725129E+02	7.20945389267E+00	1.74178934470E+02	-4.83204527945E+01	1.14998732373E+02	-5.97587485599E+00	-7.66203336401E-01
1.36518502056E+06	-1.01520671923E+01	-1.66762813910E+02	7.28348445876E+00	1.74250177079E+02	-4.47571756561E+01	-9.95688674509E+01	-5.97218768451E+00	-6.99881454818E-01
1.38737637515E+06	-1.04623035598E+01	1.72490867966E+02	7.22909263963E+00	1.74115998121E+02	-4.51690657589E+01	1.38346255738E+00	-5.96988895201E+00	-7.79990729472E-01
1.40956772975E+06	-1.07823661123E+01	-1.60694032638E+02	7.22502973592E+00	1.74053233748E+02	-4.43683957253E+01	4.69034233384E+01	-5.97108981470E+00	-7.34477581637E-01
1.43175908434E+06	-1.08946604501E+01	1.74587755356E+02	7.22118652193E+00	1.73633262479E+02	-4.81074515415E+01	-8.73331928711E+01	-5.98532424106E+00	-8.62074663780E-01
1.45395043894E+06	-9.82227720523E+00	-1.73057165551E+02	7.22802911211E+00	1.73641765078E+02	-5.93073366010E+01	2.66148029884E+01	-5.96156095286E+00	-5.89832246346E-01
1.47614179353E+06	-1.17193689238E+01	1.77885969347E+02	7.26025272793E+00	1.73297616865E+02	-4.83941437679E+01	1.71499118571E+02	-5.95622120017E+00	-6.97181383383E-01
1.49833314813E+06	-1.12014403772E+01	-1.78712821469E+02	7.21268968605E+00	1.73288342186E+02	-5.18741543797E+01	-1.40812675859E+02	-5.94836456722E+00	-8.64466706244E-01
1.52052450272E+06	-1.09343675685E+01	1.77881058628E+02	7.24520521923E+00	1.73264619563E+02	-5.58896549959E+01	-4.49359866854E+01	-5.99474907514E+00	-7.69512187248E-01
1.54271585732E+06	-1.01802114415E+01	-1.74064714385E+02	7.26564436412E+00	1.73299761466E+02	-3.67839893212E+01	5.60495500012E+01	-5.95235767710E+00	-5.18718045922E-01
1.56490721191E+06	-1.11089156822E+01	1.73083393317E+02	7.28661680104E+00	1.73289673005E+02	-4.22420791547E+01	-2.29089266140E+01	-5.97607581219E+00	-7.73105680057E-01
1.58709856651E+06	-1.09723593644E+01	1.73369039368E+02	7.26114697567E+00	1.72937032795E+02	-4.78691760825E+01	1.69592126321E+02	-6.00426675722E+00	-6.86841864185E-01
1.60928992110E+06	-1.03326469894E+01	-1.76640508238E+02	7.23591184056E+00	1.72782159283E+02	-4.43781395413E+01	-1.71208897561E+02	-5.96857614170E+00	-8.32312559912E-01
1.63148127570E+06	-9.94937571005E+00	-1.65820597813E+02	7.24157869861E+00	1.73283568432E+02	-5.13212113010E+01	-6.33025042699E+01	-5.98502973752E+00	-9.00937518141E-01
1.65367263029E+06	-1.32330567166E+01	-1.78924058233E+02	7.24616167755E+00	1.72555922510E+02	-4.46105416598E+01	-9.20400930640E+01	-6.00444728974E+00	-6.87846011331E-01
1.67586398489E+06	-1.16449200957E+01	-1.68664645951E+02	7.25759318209E+00	1.72467493418E+02	-4.42979283614E+01	-4.67100131514E+01	-5.97660845152E+00	-9.63985745387E-01
1.69805533948E+06	-1.06415694631E+01	1.72441675863E+02	7.23316980476E+00	1.72242465969E+02	-4.26797786577E+01	1.04878369951E+02	-5.97700501899E+00	-6.78507109294E-01
1.72024669408E+06	-1.15567420119E+01	-1.72745314872E+02	7.20584261272E+00	1.72207762987E+02	-4.52003208307E+01	1.17492177967E+02	-5.96502383184E+00	-8.78557460801E-01
1.74243804867E+06	-1.10245340488E+01	-1.65549764171E+02	7.26413435208E+00	1.72097141628E+02	-4.34568415434E+01	3.80233090481E+01	-5.97626681340E+00	-1.08766655108E+00
1.76462940327E+06	-9.43723868132E+00	-1.69945158142E+02	7.23091116714E+00	1.71979886096E+02	-4.97208161958E+01	-1.11193044193E+02	-5.97282103515E+00	-8.50377811384E-01
1.78682075786E+06	-9.45016153206E+00	-1.75074296983E+02	7.24481917419E+00	1.71663788488E+02	-4.66632330453E+01	-6.30287248933E+01	-5.97096116150E+00	-8.04511663467E-01
1.80901211246E+06	-1.01860884279E+01	1.77778357364E+02	7.24930079533E+00	1.71878809573E+02	-4.39392536555E+01	1.09698486762E+02	-5.94446016319E+00	-7.95249156440E-01
1.83120346705E+06	-1.07556879009E+01	1.70967430591E+02	7.22947220895E+00	1.71711021051E+02	-4.56433534768E+01	-1.08353701212E+01	-5.96193442334E+00	-9.67005535338E-01
1.85339482165E+06	-1.08590813690E+01	-1.76719936790E+02	7.24619077292E+00	1.71462316784E+02	-4.25007152747E+01	4.13419372392E+01	-5.97188543551E+00	-8.88779931922E-01
1.87558617624E+06	-1.07594737440E+01	-1.68146665337E+02	7.23585145834E+00	1.71607704616E+02	-5.51973240461E+01	-1.71000854960E+02	-5.95662132581E+00	-8.65801824749E-01
1.89777753084E+06	-1.28426875954E+01	1.78191223138E+02	7.17684134943E+00	1.71382962374E+02	-3.95603627790E+01	8.16018169668E+01	-5.96991175201E+00	-8.72689062555E-01
1.91996888543E+06	-1.05746491751E+01	1.77424813564E+02	7.23916777364E+00	1.71174285947E+02	-4.80689468003E+01	1.43184378435E+02	-5.96173470898E+00	-8.52141517351E-01
1.94216024003E+06	-1.10891740432E+01	1.74675593170E+02	7.20963295938E+00	1.71015827673E+02	-5.35776711062E+01	1.41372771283E+02	-5.98399113645E+00	-1.02485447955E+00
1.96435159462E+06	-1.03374094382E+01	-1.79791185269E+02	7.20955122807E+00	1.70708107801E+02	-4.02954381302E+01	-1.10127826629E+02	-5.97785255790E+00	-1.01670891522E+00
1.98654294922E+06	-1.10542231692E+01	-1.70789641831E+02	7.26767821701E+00	1.70892897384E+02	-4.31075688018E+01	1.25943463848E+02	-5.95750074022E+00	-1.00728328862E+00
2.00873430381E+06	-1.22801391223E+01	1.76367157441E+02	7.21694004073E+00	1.70764068118E+02	-4.38153611402E+01	1.74649429324E+02	-5.97723354238E+00	-1.05145675740E+00
2.03092565841E+06	-8.81314871016E+00	1.68845927183E+02	7.27891424703E+00	1.70688970970E+02	-5.04614312708E+01	-6.88409143949E+01	-5.97836908967E+00	-9.64024702225E-01
2.05311701300E+06	-9.23337668815E+00	-1.77601718135E+02	7.20077003229E+00	1.70711523980E+02	-4.58330298662E+01	4.78010000077E+01	-5.94933630106E+00	-9.86142666087E-01
2.07530836760E+06	-1.07929832588E+01	-1.76753380975E+02	7.23543714635E+00	1.70568690308E+02	-4.79275505518E+01	-6.55483019416E+01	-5.98002844254E+00	-9.85497560677E-01
2.09749972219E+06	-1.07544785564E+01	1.77158660582E+02	7.27231196663E+00	1.70371667265E+02	-4.20530416020E+01	1.08795720587E+02	-5.96465431031E+00	-1.02927192688E+00
2.11969107679E+06	-1.01402409223E+01	-1.77409758948E+02	7.27699527909E+00	1.70299407544E+02	-3.95749628512E+01	1.31307296119E+02	-5.97698841444E+00	-1.01402159616E+00
2.14188243138E+06	-1.22187340487E+01	1.70015947638E+02	7.22160786931E+00	1.70151502694E+02	-5.45901876299E+01	-7.49715436279E+01	-5.98554319415E+00	-1.02988293915E+00
2.16407378598E+06	-8.83160281870E+00	-1.77612469627E+02	7.27094259410E+00	1.69939475631E+02	-4.27416360472E+01	1.50003334106E+02	-5.95957889242E+00	-9.54110994673E-01
2.18626514057E+06	-1.01966010902E+01	-1.72696061307E+02	7.18808877604E+00	1.69867545857E+02	-6.62787763048E+01	1.06878443507E+02	-5.97961187225E+00	-1.01473950073E+00
2.20845649517E+06	-1.07738361528E+01	1.70552528875E+02	7.20356551843E+00	1.70062092734E+02	-4.41890718922E+01	1.03682209191E+02	-5.96576457289E+00	-1.00018531493E+00
2.23064784976E+06	-9.36663983781E+00	-1.76105398112E+02	7.20198804720E+00	1.69829025265E+02	-4.90262285118E+01	-1.03820527851E+02	-5.93988709949E+00	-1.07365502570E+00
2.25283920436E+06	-1.05028963361E+01	1.70222941456E+02	7.20140280761E+00	1.69541018517E+02	-3.94473496009E+01	-1.40294229820E+02	-5.97836196836E+00	-1.01570022464E+00
2.27503055895E+06	-1.17484470972E+01	1.75254236881E+02	7.22479411662E+00	1.69735978858E+02	-5.36966613552E+01	2.00068776817E+01	-5.94736283644E+00	-1.08026457383E+00
2.29722191355E+06	-7.75409928642E+00	1.76153278758E+02	7.20494220623E+00	1.69392571879E+02	-4.78019277621E+01	6.82955431401E+01	-5.95297522660E+00	-1.12288090541E+00
2.31941326814E+06	-9.69210267155E+00	1.75439045450E+02	7.22676067801E+00	1.69543666294E+02	-4.58988891764E+01	1.78243435400E+02	-5.96281882403E+00	-1.13630964909E+00
2.34160462274E+06	-1.01222613253E+01	1.78623958153E+02	7.24679290960E+00	1.69007266430E+02	-4.37654715057E+01	-7.66041215143E+01	-5.98201368600E+00	-1.05875248099E+00
2.36379597733E+06	-1.08513927624E+01	-1.72516377135E+02	7.25251315983E+00	1.68881262738E+02	-4.39427313938E+01	1.78724056640E+02	-5.96738135086E+00	-1.04574183931E+00
2.38598733193E+06	-1.09206572250E+01	-1.79331021810E+02	7.22085601181E+00	1.69033518270E+02	-4.95110396723E+01	4.14984268665E+01	-5.97381508836E+00	-1.03647721379E+00
2.40817868652E+06	-1.02826694841E+01	-1.75774564017E+02	7.25413047377E+00	1.68705199336E+02	-5.32147490912E+01	-1.15170710750E+02	-5.97625740541E+00	-1.12908613068E+00
2.43037004112E+06	-9.74496987063E+00	-1.70438631773E+02	7.24618298631E+00	1.68944779188E+02	-4.67509274491E+01	1.13427728570E+02	-5.97987707801E+00	-1.27257502677E+00
2.45256139571E+06	-1.29291821089E+01	1.76403064207E+02	7.24236291149E+00	1.68601513873E+02	-4.74921652001E+01	8.65512060554E+01	-5.96417150859E+00	-1.07641607854E+00
2.47475275031E+06	-8.60604578625E+00	-1.75170992071E+02	7.21332500272E+00	1.68586617265E+02	-4.62012425697E+01	-2.23933838009E+01	-5.99519301180E+00	-1.17614907598E+00
2.49694410490E+06	-9.46645435623E+00	1.78219623641E+02	7.18724440849E+00	1.68319127424E+02	-4.95658439898E+01	8.99757275387E+00	-5.97464053311E+00	-1.43665177121E+00
2.51913545950E+06	-1.14129262208E+01	-1.74491748382E+02	7.25561876638E+00	1.68272009422E+02	-5.80603076005E+01	-2.95133074478E+01	-5.96959358283E+00	-1.14689857150E+00
2.54132681409E+06	-9.24690670789E+00	1.78988645804E+02	7.23764989867E+00	1.68296004736E+02	-3.90128496551E+01	9.44810184725E+01	-5.97256266662E+00	-1.21711892608E+00
2.56351816869E+06	-1.19158938380E+01	1.70923849482E+02	7.23172349307E+00	1.68239872242E+02	-4.95804056678E+01	7.02158683381E+01	-5.98961042196E+00	-1.15992446624E+00
2.58570952328E+06	-1.22268861152E+01	1.66188304596E+02	7.18819917378E+00	1.67817120300E+02	-4.59687382853E+01	8.74409146721E+01	-5.97450201766E+00	-1.09161357569E+00
2.60790087788E+06	-9.57852747691E+00	1.74029298773E+02	7.23955882724E+00	1.67860391143E+02	-4.84133136783E+01	5.94564169971E+01	-5.96849012651E+00	-1.01304910581E+00
2.63009223247E+06	-9.95443702652E+00	-1.64276557530E+02	7.26266298264E+00	1.67696006494E+02	-3.97554571351E+01	-7.66921620995E+01	-5.97094652750E+00	-1.16714488654E+00
2.65228358707E+06	-1.06522961684E+01	1.79477846708E+02	7.26657527980E+00	1.67730778343E+02	-4.18146183875E+01	1.39720265854E+02	-5.95896559897E+00	-1.73445947178E+00
2.67447494166E+06	-9.66036475331E+00	1.73928637996E+02	7.25119961878E+00	1.67170895055E+02	-4.25038664303E+01	4.21153152375E+01	-5.95951427551E+00	-1.26732776201E+00
2.69666629626E+06	-1.16655618850E+01	-1.78892854290E+02	7.24153524728E+00	1.67516667223E+02	-4.54856540752E+01	-9.04702825003E+01	-5.96147859653E+00	-1.28785829889E+00
2.71885765085E+06	-1.05452047023E+01	1.63323889749E+02	7.23453955775E+00	1.67436311090E+02	-4.43657404618E+01	8.77724017774E+01	-5.97963296359E+00	-1.32154965681E+00
2.74104900545E+06	-9.28382320750E+00	-1.74069152570E+02	7.25069275255E+00	1.67352513330E+02	-5.29902224284E+01	8.50276903675E+01	-5.95508245426E+00	-1.16774004986E+00
2.76324036004E+06	-1.14062591370E+01	1.67648943636E+02	7.22946533395E+00	1.66877327482E+02	-4.20354940107E+01	-1.70273298298E+00	-5.96678455120E+00	-1.31366105356E+00
2.78543171463E+06	-9.95161898394E+00	1.71663226447E+02	7.20013286244E+00	1.66700112183E+02	-4.60446992048E+01	-1.62323186080E+02	-5.95901069858E+00	-1.26371070232E+00
2.80762306923E+06	-1.09373244202E+01	1.73535081932E+02	7.22455888327E+00	1.66563952754E+02	-4.33770836146E+01	1.37192401010E+02	-5.98573781465E+00	-1.22809802381E+00
2.82981442382E+06	-9.90883973648E+00	1.79456978424E+02	7.24507516810E+00	1.66764762145E+02	-5.07257763982E+01	4.42603717548E+01	-5.96147443184E+00	-1.31194043931E+00
2.85200577842E+06	-9.76345458477E+00	-1.75975340014E+02	7.24438916021E+00	1.66677017920E+02	-5.58592329321E+01	-1.41069839459E+01	-5.97803738434E+00	-1.24504606044E+00
2.87419713301E+06	-1.13491782631E+01	-1.79151189299E+02	7.27202316005E+00	1.66520085942E+02	-4.57585765657E+01	4.91055472199E+01	-5.97179758854E+00	-1.34177852903E+00
