# Hz S DB R 50
! CMT, M5065, 19127446, 24.2.4/2
! Date: 10/29/2024 11:48:08 AM
! Data: Format (Calibration Info)
! Freq	S11:dB/Ang(F2)	S21:dB/Ang(F2)	S12:dB/Ang(F2)	S22:dB/Ang(F2)
3.00000000000E+05	-1.08479509613E+01	-1.76947532780E+02	5.06994315832E+00	-1.77788900170E+02	-4.69350639926E+01	3.07598124954E+01	-5.95831173716E+00	-3.40180286960E-01
3.22191354595E+05	-1.09522674423E+01	-1.75704487130E+02	5.10145450150E+00	-1.78470226333E+02	-5.28960051227E+01	-1.78334103861E+02	-5.98685231984E+00	-3.01679983065E-01
3.44382709190E+05	-1.11457654784E+01	1.76276606959E+02	5.09397751142E+00	-1.78789892045E+02	-4.66124230282E+01	6.46214318031E+00	-5.98589276661E+00	-2.12210511967E-01
3.66574063785E+05	-1.09872700223E+01	-1.73377907140E+02	5.06173121757E+00	-1.78839422354E+02	-4.48281810486E+01	-1.06544826092E+02	-5.98330831116E+00	-2.30718634229E-01
3.88765418380E+05	-1.05745087068E+01	-1.71284072886E+02	5.08892976028E+00	-1.79057555902E+02	-4.55106230125E+01	-1.48547184852E+02	-5.97953371701E+00	-3.14105479391E-01
4.10956772975E+05	-1.08062173666E+01	1.77417421328E+02	5.10562007832E+00	-1.79719017161E+02	-4.67353872704E+01	-5.95779607220E+01	-5.97385244000E+00	-2.04278944140E-01
4.33148127570E+05	-1.26221944684E+01	1.70437378095E+02	5.10925250528E+00	-1.79455282004E+02	-4.69199730833E+01	-1.39440831602E+02	-5.98125605932E+00	-2.54907034698E-01
4.55339482165E+05	-8.62015980114E+00	-1.73602546224E+02	5.09180821028E+00	-1.79549726534E+02	-4.10562212719E+01	-1.40731507042E+02	-5.95237010313E+00	-3.65918402478E-01
4.77530836760E+05	-1.00085577571E+01	-1.67829668825E+02	5.06979297108E+00	1.79801362038E+02	-4.69563954551E+01	-1.18527444637E+02	-5.97773435847E+00	-3.17317421717E-01
4.99722191355E+05	-1.05471653168E+01	1.76346343868E+02	5.06611977355E+00	1.79657490969E+02	-4.25633168932E+01	-1.43760600013E+02	-5.99079204534E+00	-2.96273996697E-01
5.21913545950E+05	-1.22901330342E+01	-1.72637580171E+02	5.06607828293E+00	1.79607777351E+02	-5.03524224488E+01	7.39988027157E+01	-5.96137646454E+00	-5.07176291551E-01
5.44104900545E+05	-1.05295236295E+01	1.75898594338E+02	5.08668866875E+00	1.79326916366E+02	-4.99952290222E+01	-1.64921720121E+02	-5.98471372470E+00	-3.48018685577E-01
5.66296255139E+05	-9.70787144936E+00	-1.74987890976E+02	5.10668962816E+00	1.79117515538E+02	-4.18729183219E+01	-1.20733031521E+02	-5.94737344314E+00	-5.52452218830E-01
5.88487609734E+05	-1.21627376090E+01	-1.77365710849E+02	5.08152037013E+00	1.79184928885E+02	-4.26242005060E+01	-1.17311415623E+02	-5.98108272648E+00	-4.35973462262E-01
6.10678964329E+05	-9.47913718154E+00	1.79788597979E+02	5.07360780054E+00	1.79025485876E+02	-6.20092706415E+01	-1.64121675482E+02	-5.99562409397E+00	-3.58126303181E-02
6.32870318924E+05	-1.09222850707E+01	-1.75344998446E+02	5.07434037123E+00	1.78791146947E+02	-4.47831957513E+01	2.89852126700E+01	-5.95689024173E+00	-3.39084052007E-01
6.55061673519E+05	-1.10622401278E+01	-1.71630882928E+02	5.13023905341E+00	1.78713135873E+02	-4.47410475691E+01	4.62197010007E+01	-5.97105544440E+00	-1.61287522325E-01
6.77253028114E+05	-1.11415227208E+01	1.79276113937E+02	5.06118639161E+00	1.78488165722E+02	-4.07855546951E+01	-2.78108094060E+01	-5.94732877313E+00	-6.03144702025E-01
6.99444382709E+05	-1.08944716542E+01	-1.67556879062E+02	5.06706461450E+00	1.78075229147E+02	-4.74352448579E+01	1.60864899961E+01	-5.96564724652E+00	-5.31028059833E-01
7.21635737304E+05	-1.14359087871E+01	-1.66331698502E+02	5.12196941722E+00	1.78246773501E+02	-4.39497312910E+01	-1.50459666031E+02	-5.97028890506E+00	-4.08123684417E-01
7.43827091899E+05	-9.26513987420E+00	1.77722656357E+02	5.10321454427E+00	1.77944666841E+02	-4.83351658013E+01	-1.02342381167E+02	-5.96914981024E+00	-5.05364315050E-01
7.66018446494E+05	-1.03925048902E+01	1.75600601821E+02	5.11740573784E+00	1.78039561015E+02	-4.69146386274E+01	1.27918208434E+00	-5.96690359202E+00	-4.86119728831E-01
7.88209801089E+05	-9.39927543679E+00	-1.77639849798E+02	5.11459166264E+00	1.77772218824E+02	-4.89093103312E+01	-2.14988675023E+01	-5.95667565766E+00	-5.52584179657E-01
8.10401155684E+05	-9.58687427322E+00	-1.74023645903E+02	5.11687217399E+00	1.77541696376E+02	-4.55970318590E+01	-1.68063373871E+02	-5.96556831774E+00	-4.00174432092E-01
8.32592510279E+05	-1.10377089380E+01	-1.75758095475E+02	5.11471003265E+00	1.77737699552E+02	-4.01429420651E+01	1.10951643018E+02	-5.96651807411E+00	-4.39136092026E-01
8.54783864874E+05	-8.81347517214E+00	1.73888257847E+02	5.11986445217E+00	1.77496137866E+02	-4.15993688067E+01	9.70563823328E+00	-5.98494493722E+00	-6.27115191679E-01
8.76975219469E+05	-1.06172146533E+01	1.70112915583E+02	5.11005463620E+00	1.77389227282E+02	-5.32992856078E+01	1.11063592904E+02	-5.97998278587E+00	-4.93598349271E-01
8.99166574064E+05	-9.24042605445E+00	1.64448526221E+02	5.12869059688E+00	1.76937822447E+02	-4.82132988752E+01	-1.69362098714E+02	-5.96824833435E+00	-4.45673854314E-01
9.21357928659E+05	-1.11971013373E+01	-1.77348756758E+02	5.05094563100E+00	1.77271732720E+02	-4.61931132484E+01	-1.65928435865E+02	-5.97959435907E+00	-5.32840110960E-01
9.43549283254E+05	-1.07942239425E+01	-1.58401488237E+02	5.08937516991E+00	1.76964634069E+02	-5.32452639335E+01	7.82516739643E+01	-5.97289958457E+00	-6.11276935020E-01
9.65740637849E+05	-1.09578173266E+01	-1.65508178809E+02	5.07129007841E+00	1.76948593889E+02	-4.85451742829E+01	-4.63865214468E+01	-5.95581604159E+00	-4.36375762937E-01
9.87931992444E+05	-1.07690335173E+01	1.74057911285E+02	5.11472037470E+00	1.76710911538E+02	-4.72075615508E+01	1.04162929034E+02	-5.96347845964E+00	-4.38629463459E-01
1.01012334704E+06	-8.59275326389E+00	1.76213989520E+02	5.11197494243E+00	1.76458985567E+02	-4.64346554849E+01	4.99233940345E+01	-5.94679601461E+00	-5.38660006336E-01
1.03231470163E+06	-9.13695618428E+00	1.77895970408E+02	5.09522370500E+00	1.76187940479E+02	-4.52839467921E+01	1.03765688924E+02	-5.97032016677E+00	-4.99815210742E-01
1.05450605623E+06	-1.22208123969E+01	-1.71310714735E+02	5.08239815697E+00	1.76527977398E+02	-4.31980108650E+01	-6.82524919554E+01	-5.96607470484E+00	-4.33992987790E-01
1.07669741082E+06	-1.16752456592E+01	1.78660371696E+02	5.07793096749E+00	1.76168824823E+02	-4.44213264238E+01	-1.20061989164E+02	-5.96043158646E+00	-6.94131747176E-01
1.09888876542E+06	-1.00379489075E+01	1.69834022323E+02	5.08964314379E+00	1.75786934904E+02	-6.03657284684E+01	1.77579464150E+02	-5.97941681342E+00	-6.02608325509E-01
1.12108012001E+06	-1.01696322594E+01	-1.73043659208E+02	5.13225560262E+00	1.75727393114E+02	-5.17948374711E+01	1.11924695734E+02	-5.97093104930E+00	-5.52747226416E-01
1.14327147461E+06	-9.88706084761E+00	1.72839116315E+02	5.11117257059E+00	1.76050171133E+02	-5.09860606607E+01	9.83590674459E+01	-5.97743053676E+00	-5.15661331547E-01
1.16546282920E+06	-8.49014244175E+00	1.76759727606E+02	5.09055331781E+00	1.75885871948E+02	-5.01952968033E+01	3.65666898455E+01	-5.96866463470E+00	-6.41201532574E-01
1.18765418380E+06	-1.12973540863E+01	-1.74904254366E+02	5.09113794398E+00	1.75531040567E+02	-4.48861040159E+01	-1.64892410030E+02	-5.97049731870E+00	-5.07316143114E-01
1.20984553839E+06	-1.05957197026E+01	-1.71286458825E+02	5.12383002440E+00	1.75476744006E+02	-4.64112974609E+01	5.67404832024E+01	-5.98839788182E+00	-8.19674651865E-01
1.23203689299E+06	-1.05906725503E+01	1.78908372205E+02	5.08583828460E+00	1.75351934373E+02	-4.11290756636E+01	1.04755497137E+02	-5.94883389740E+00	-4.82488941322E-01
1.25422824758E+06	-7.47630006942E+00	-1.62842703340E+02	5.12810301868E+00	1.75372013264E+02	-3.92753699327E+01	1.50695877577E+02	-5.97964337600E+00	-7.40787717452E-01
1.27641960218E+06	-1.00721487207E+01	-1.76705181223E+02	5.08115210168E+00	1.75035651845E+02	-3.80311853998E+01	4.92706160240E+01	-5.95336900347E+00	-6.83167835437E-01
1.29861095677E+06	-1.04221990559E+01	1.71567737952E+02	5.12544189756E+00	1.74889209447E+02	-4.02734940411E+01	2.14741259375E+01	-5.96936273461E+00	-7.01858681167E-01
1.32080231137E+06	-9.90027976561E+00	-1.73551726580E+02	5.11472933461E+00	1.74719631077E+02	-5.43766806548E+01	-5.39966195897E+01	-5.95726553160E+00	-1.05984159934E+00
1.34299366596E+06	-1.04484091377E+01	1.74355815308E+02	5.07857276572E+00	1.75015054560E+02	-4.04700217114E+01	-1.60784761708E+02	-5.95352589584E+00	-8.09818644906E-01
1.36518502056E+06	-1.12987217703E+01	-1.75566278874E+02	5.11634121093E+00	1.74653937839E+02	-4.61691181253E+01	1.86369703539E+01	-5.96852488161E+00	-6.86860584365E-01
1.38737637515E+06	-9.48767171297E+00	-1.78183712641E+02	5.13035447909E+00	1.74538885300E+02	-4.82107064750E+01	4.76331016883E+01	-5.96597755601E+00	-6.59722695521E-01
1.40956772975E+06	-9.30651385591E+00	1.76748513744E+02	5.10528793946E+00	1.74435400005E+02	-4.70827724294E+01	-7.48200662017E+01	-5.98381623055E+00	-6.28700784149E-01
1.43175908434E+06	-1.06144036982E+01	-1.73117163260E+02	5.08979598947E+00	1.74644488219E+02	-5.14917828291E+01	1.76434923512E+02	-5.97176845602E+00	-7.35396429279E-01
1.45395043894E+06	-1.03634093852E+01	1.70094925693E+02	5.10732990325E+00	1.74078639929E+02	-4.36216065620E+01	-6.19668102966E+01	-5.95473036433E+00	-7.21888820173E-01
1.47614179353E+06	-9.18221934923E+00	-1.77463921503E+02	5.12388958039E+00	1.74041531462E+02	-4.04716512326E+01	6.04086370182E+01	-5.97274962222E+00	-9.52074541892E-01
1.49833314813E+06	-1.08265021202E+01	1.75019474797E+02	5.13202786620E+00	1.73632755685E+02	-4.34652452236E+01	1.39734033124E+02	-5.96705851826E+00	-7.81186547388E-01
1.52052450272E+06	-1.04708750449E+01	1.66535391336E+02	5.11519243205E+00	1.73853862691E+02	-5.23782057441E+01	-1.68250488336E+02	-5.96263244763E+00	-7.63215798223E-01
1.54271585732E+06	-1.23127818798E+01	-1.75043631903E+02	5.11852329553E+00	1.73950898439E+02	-5.03485331067E+01	-1.02025112191E+02	-5.97115396871E+00	-7.69636174752E-01
1.56490721191E+06	-1.32201386290E+01	1.68570417154E+02	5.08754243015E+00	1.73644917637E+02	-4.56476553936E+01	-1.00464243866E+02	-5.93847203084E+00	-6.22283536484E-01
1.58709856651E+06	-8.06028994946E+00	-1.77220298449E+02	5.12560935404E+00	1.73706933601E+02	-4.15907749160E+01	1.00877494386E+02	-5.98924092804E+00	-7.12051751355E-01
1.60928992110E+06	-1.36696793985E+01	1.65050524537E+02	5.08446645094E+00	1.73111329470E+02	-4.18279945450E+01	1.47137388066E+02	-5.99459212543E+00	-9.02027755123E-01
1.63148127570E+06	-1.02805401596E+01	-1.69693879233E+02	5.09873877483E+00	1.73688713142E+02	-4.88103994359E+01	1.22582591290E+02	-5.97749121842E+00	-7.69464110139E-01
1.65367263029E+06	-1.14522006303E+01	-1.78490791872E+02	5.09471637400E+00	1.73255840361E+02	-4.38669766748E+01	-1.65703593395E+02	-5.95613167444E+00	-7.84596494660E-01
1.67586398489E+06	-1.02157345495E+01	-1.74449553048E+02	5.11778426119E+00	1.73138157446E+02	-4.88137411996E+01	8.83855822848E+01	-5.95814359779E+00	-7.17429739931E-01
1.69805533948E+06	-1.08602504434E+01	1.79345223932E+02	5.11347041722E+00	1.73064972634E+02	-4.07899015180E+01	2.27907866203E+01	-5.95779599224E+00	-9.18446371889E-01
1.72024669408E+06	-1.08864617530E+01	-1.76399380863E+02	5.09560175548E+00	1.72767083320E+02	-5.40946132726E+01	7.71547588311E+01	-5.96678967092E+00	-7.76999538327E-01
1.74243804867E+06	-8.97417489690E+00	1.78867635332E+02	5.10785543012E+00	1.73064118085E+02	-4.58960950240E+01	-1.23317134534E+01	-5.97926328725E+00	-8.64658234496E-01
1.76462940327E+06	-9.81628429599E+00	-1.76102537831E+02	5.08910828820E+00	1.72574870749E+02	-5.03508991188E+01	1.60229503372E+02	-5.97018341197E+00	-8.00760415855E-01
1.78682075786E+06	-9.55577575303E+00	1.72694841872E+02	5.11637887596E+00	1.72536460866E+02	-5.86984866433E+01	1.16848741641E+02	-5.98217993912E+00	-7.65707105228E-01
1.80901211246E+06	-9.73664588754E+00	-1.75409434858E+02	5.17513351184E+00	1.72394677185E+02	-4.69711372410E+01	-1.13968116031E+02	-5.95868121742E+00	-8.26566420565E-01
1.83120346705E+06	-9.93896337597E+00	1.74689024918E+02	5.10812432438E+00	1.72667559953E+02	-5.02750647475E+01	-6.40098717560E+01	-5.96612318398E+00	-8.86045853664E-01
1.85339482165E+06	-1.07204446398E+01	1.77249681242E+02	5.12351915146E+00	1.72248142010E+02	-4.28398889553E+01	-2.63452951515E+01	-5.96042183652E+00	-7.98465562382E-01
1.87558617624E+06	-1.02091453118E+01	-1.72148694627E+02	5.08107534326E+00	1.71971715025E+02	-5.01562682289E+01	-1.64561367661E+02	-5.96242513904E+00	-1.04917919077E+00
1.89777753084E+06	-1.08293695176E+01	1.79467158689E+02	5.11283694792E+00	1.72534830253E+02	-4.91899216759E+01	3.86526841744E+00	-5.97087735767E+00	-9.96496199607E-01
1.91996888543E+06	-9.96710491120E+00	1.74869709544E+02	5.11749277771E+00	1.71859645352E+02	-4.53697008482E+01	-5.78354015149E+01	-5.96083044651E+00	-9.08437301411E-01
1.94216024003E+06	-1.08900796162E+01	1.79836636257E+02	5.09988010140E+00	1.71787911392E+02	-5.31635846261E+01	1.66157285529E+02	-5.95962984663E+00	-8.16227701046E-01
1.96435159462E+06	-9.38928964387E+00	-1.78640945828E+02	5.11566651616E+00	1.71612295982E+02	-4.69855792769E+01	-8.48462890367E+01	-5.96796476567E+00	-9.33911773803E-01
1.98654294922E+06	-9.08696911359E+00	1.71506634295E+02	5.10096569529E+00	1.71778576575E+02	-4.97798410631E+01	-1.33284236992E+02	-5.97352737742E+00	-9.04726131938E-01
2.00873430381E+06	-9.81119797017E+00	-1.71297830567E+02	5.13099760762E+00	1.71788318546E+02	-4.40651898584E+01	1.67686028384E+02	-5.98185680143E+00	-7.05769993460E-01
2.03092565841E+06	-8.45073217595E+00	-1.79479214383E+02	5.10914717762E+00	1.71458478729E+02	-4.15448802932E+01	-4.43644638754E+01	-5.97511753208E+00	-1.01115735944E+00
2.05311701300E+06	-1.06063032879E+01	-1.76308059512E+02	5.12837565872E+00	1.71290493177E+02	-5.86652558010E+01	-8.34734581440E+01	-5.96481592469E+00	-9.83210811731E-01
2.07530836760E+06	-1.06531655960E+01	1.75741980112E+02	5.08052649604E+00	1.71106397091E+02	-4.39848368420E+01	-9.29164837080E+01	-5.96916329862E+00	-1.07884239387E+00
2.09749972219E+06	-1.07375891212E+01	1.77790349574E+02	5.10268631569E+00	1.70846641718E+02	-4.93855988261E+01	-1.49422631658E+02	-5.95683209114E+00	-9.55981906074E-01
2.11969107679E+06	-1.01596229274E+01	1.64001948442E+02	5.10163793203E+00	1.70888300095E+02	-5.76164554167E+01	-6.45799555911E+01	-5.95239066074E+00	-1.07008526525E+00
2.14188243138E+06	-1.00665959534E+01	1.72818932014E+02	5.12249649660E+00	1.70587611364E+02	-4.20168125542E+01	6.76185981307E+01	-5.96352174375E+00	-1.01549983638E+00
2.16407378598E+06	-9.11923179599E+00	1.65380601979E+02	5.09252998388E+00	1.70891564222E+02	-4.72863207985E+01	-2.03981677677E+01	-5.95760440162E+00	-1.01394849285E+00
2.18626514057E+06	-1.06171193034E+01	-1.75210573006E+02	5.09024188571E+00	1.70646296925E+02	-4.79128375702E+01	-1.18099523339E+02	-5.98241221724E+00	-9.89902791481E-01
2.20845649517E+06	-1.14854077288E+01	1.79250472374E+02	5.09535430083E+00	1.70534723103E+02	-5.47868771410E+01	9.10599171824E+01	-5.95470786939E+00	-1.03541077735E+00
2.23064784976E+06	-1.10179318050E+01	1.75092443107E+02	5.12335474590E+00	1.70904342552E+02	-5.71470856791E+01	-8.19866140510E+01	-5.97796435916E+00	-8.64669084890E-01
2.25283920436E+06	-1.15919640605E+01	1.79084665262E+02	5.10486040204E+00	1.70771012965E+02	-4.85540707412E+01	3.43089848346E+01	-5.95776859552E+00	-1.05247201435E+00
2.27503055895E+06	-1.28618225747E+01	1.55199848422E+02	5.07428636775E+00	1.69958850052E+02	-4.84958622667E+01	1.47063864120E+02	-5.95786969463E+00	-1.14294134539E+00
2.29722191355E+06	-1.01755026911E+01	-1.70753192030E+02	5.10333924746E+00	1.70294280595E+02	-4.63328170731E+01	7.97193893128E+01	-5.97874262551E+00	-1.15238187957E+00
2.31941326814E+06	-1.26291930464E+01	1.71151951132E+02	5.13470754544E+00	1.70359707574E+02	-4.71552906855E+01	-1.31164621910E+02	-5.95407903775E+00	-1.19959316318E+00
2.34160462274E+06	-1.00820262044E+01	1.70232414347E+02	5.11812280705E+00	1.70007331139E+02	-4.61380308167E+01	5.46454729588E+01	-5.96891509477E+00	-1.10768911732E+00
2.36379597733E+06	-1.02547512580E+01	-1.79969619877E+02	5.07127134535E+00	1.69806384346E+02	-4.90374745412E+01	5.45609475650E+01	-5.95359505201E+00	-1.17811382558E+00
2.38598733193E+06	-7.73096547011E+00	1.74783328177E+02	5.16334417620E+00	1.69949173801E+02	-4.43861494623E+01	9.57194302794E+01	-5.97324617960E+00	-9.67550980429E-01
2.40817868652E+06	-9.72937880084E+00	-1.78813160820E+02	5.13110753802E+00	1.69746284964E+02	-4.71429016910E+01	1.36092356831E+02	-5.97108117222E+00	-1.07403209684E+00
2.43037004112E+06	-1.18192012739E+01	-1.78900757095E+02	5.07925722938E+00	1.70005601913E+02	-4.60823019167E+01	5.11862268626E+01	-5.95144922394E+00	-1.29411274548E+00
2.45256139571E+06	-1.03880023190E+01	1.77659307464E+02	5.08201801586E+00	1.69348324157E+02	-4.78400261474E+01	-1.52594364071E+02	-5.96614313200E+00	-9.16264014192E-01
2.47475275031E+06	-9.66471206306E+00	-1.77895832256E+02	5.10506325686E+00	1.69553085308E+02	-4.98955147224E+01	-1.72469011033E+00	-5.97650750140E+00	-1.10100063481E+00
2.49694410490E+06	-1.14514441815E+01	1.72577240475E+02	5.08106534686E+00	1.69329646656E+02	-5.27632031753E+01	3.65257737503E+01	-5.96326179680E+00	-1.02174434928E+00
2.51913545950E+06	-9.90501695586E+00	-1.71194187564E+02	5.12420697496E+00	1.69192257190E+02	-5.06084270650E+01	8.87727589144E+01	-5.96605399564E+00	-1.17749304473E+00
2.54132681409E+06	-9.15738303261E+00	1.73546543247E+02	5.00148234294E+00	1.68809732682E+02	-5.18934402187E+01	-7.09846406282E+01	-5.98010490470E+00	-1.21860845450E+00
2.56351816869E+06	-1.36520646912E+01	-1.78212018188E+02	5.12103014642E+00	1.69325020966E+02	-4.35142050706E+01	7.47645135729E+01	-5.97494774740E+00	-1.16008583953E+00
2.58570952328E+06	-9.52739260690E+00	1.76023453565E+02	5.11635749152E+00	1.68966279874E+02	-4.09270018828E+01	-3.52547107719E+01	-5.96998428972E+00	-1.24516249202E+00
2.60790087788E+06	-9.15966127156E+00	1.75298831336E+02	5.08693095930E+00	1.68720191617E+02	-5.03776949403E+01	-1.72104801605E+02	-5.97388496631E+00	-1.24885026473E+00
2.63009223247E+06	-9.23399629204E+00	-1.74655523645E+02	5.08440557403E+00	1.68636602854E+02	-4.98475956417E+01	2.15744446223E+01	-5.97681975807E+00	-1.28038016575E+00
2.65228358707E+06	-1.06858015259E+01	-1.78483749142E+02	5.10162991621E+00	1.68801420429E+02	-5.27619687520E+01	-7.23422497712E+01	-5.96750643033E+00	-1.66721525928E+00
2.67447494166E+06	-1.02323728911E+01	-1.74920206682E+02	5.05443012589E+00	1.68651063470E+02	-4.15679805069E+01	2.70004560859E+01	-5.95051073666E+00	-1.52470039014E+00
2.69666629626E+06	-8.55867275563E+00	1.79475138136E+02	5.13168923113E+00	1.68644195908E+02	-4.92293042078E+01	-1.31750332762E+02	-5.97045041695E+00	-1.22952686357E+00
2.71885765085E+06	-9.55083873370E+00	-1.70804814483E+02	5.07631189161E+00	1.68558787886E+02	-5.24299974081E+01	1.11100576426E+02	-5.94787105691E+00	-1.16091254373E+00
2.74104900545E+06	-9.13532861580E+00	1.70141868142E+02	5.09097409342E+00	1.68228271093E+02	-5.37858056340E+01	-1.47880293530E+02	-5.94737156857E+00	-1.17248133044E+00
2.76324036004E+06	-9.89329072299E+00	1.77129159766E+02	5.10202234599E+00	1.68238704744E+02	-4.52235886598E+01	-6.83645904403E+01	-5.96253616817E+00	-1.26156050844E+00
2.78543171463E+06	-9.59483037573E+00	-1.71316107467E+02	5.11222869499E+00	1.68004329763E+02	-3.98132925059E+01	-1.12134822240E+02	-5.97332439314E+00	-1.25786935585E+00
2.80762306923E+06	-8.70740804786E+00	-1.72731636301E+02	5.07131512850E+00	1.68072262326E+02	-5.51282239943E+01	1.64183764456E+02	-5.94583040366E+00	-1.21395554948E+00
2.82981442382E+06	-1.11580338750E+01	-1.72884324067E+02	5.09674395985E+00	1.67876529941E+02	-4.98765279853E+01	3.59201967584E+01	-5.95430257700E+00	-1.23401214142E+00
2.85200577842E+06	-9.31481334883E+00	-1.77019603492E+02	5.11357367725E+00	1.67791015180E+02	-4.75620389479E+01	-9.93669735149E+01	-5.96221361333E+00	-1.27515001133E+00
2.87419713301E+06	-1.11755937870E+01	1.76106637872E+02	5.08521769945E+00	1.67532128270E+02	-4.10626342306E+01	-1.67845488326E+02	-5.96012036597E+00	-1.22105362783E+00
