# Hz S DB R 50
! CMT, M5065, 19127446, 24.2.4/2
! Date: 10/29/2024 12:48:55 PM
! Data: Format (Calibration Info)
! Freq	S11:dB/Ang(F2)	S21:dB/Ang(F2)	S12:dB/Ang(F2)	S22:dB/Ang(F2)
3.00000000000E+05	-5.78871604896E+00	1.72309954712E+02	2.09275354605E+01	-1.77338903590E+02	-4.41835084398E+01	1.58116602773E+02	-5.96173986640E+00	-1.53032661487E-01
3.22191354595E+05	-7.88741843844E+00	-1.73315970469E+02	2.09482001417E+01	-1.77897062132E+02	-3.50834072852E+01	1.20460319655E+02	-6.00703716387E+00	-5.45653722574E-02
3.44382709190E+05	-1.61870124367E+01	-1.41931197733E+02	2.09347493196E+01	-1.78753934253E+02	-4.47421362999E+01	3.15485152089E+01	-5.94311309496E+00	-3.64353409103E-01
3.66574063785E+05	-1.21573760504E+01	1.67366756935E+02	2.09658754535E+01	-1.79215199893E+02	-5.14439736800E+01	-3.39119803659E+00	-6.02132377009E+00	-3.52756275851E-01
3.88765418380E+05	-9.17156333280E+00	-1.58192623408E+02	2.09609462726E+01	-1.79610630817E+02	-3.53722319245E+01	-1.71890242745E+02	-6.00714918655E+00	-2.25383168800E-01
4.10956772975E+05	-1.26144184530E+01	-1.64178378328E+02	2.09480709772E+01	-1.79965617309E+02	-3.69157839031E+01	1.14949053788E+02	-5.99022967913E+00	-8.05172088922E-01
4.33148127570E+05	-1.21616945158E+01	-1.75099978252E+02	2.09321268102E+01	1.79275384321E+02	-3.41136217605E+01	1.52050076564E+02	-5.99314512662E+00	-6.76271198931E-01
4.55339482165E+05	-7.71789844119E+00	1.75867389024E+02	2.09520080070E+01	1.78560129441E+02	-4.73884652046E+01	1.32330352866E+02	-6.01351669014E+00	-6.40951007955E-01
4.77530836760E+05	-1.16184009454E+01	-1.76902787106E+02	2.09761080868E+01	1.78189956167E+02	-5.48015811040E+01	-1.42601840161E+01	-5.98121746707E+00	-6.26584125727E-01
4.99722191355E+05	-1.46617964527E+01	-1.74270931236E+02	2.09196162293E+01	1.77911580110E+02	-3.74496280719E+01	1.54972414116E+02	-5.95117717809E+00	-2.35331860427E-01
5.21913545950E+05	-1.20282209414E+01	1.58711626615E+02	2.09681444832E+01	1.77222366171E+02	-3.95123707896E+01	-1.61763548435E+02	-5.97791498124E+00	-4.31821764479E-01
5.44104900545E+05	-8.08005802281E+00	-1.65563327445E+02	2.09256303745E+01	1.76825057310E+02	-4.36024623521E+01	-1.23362458729E+02	-5.99454484494E+00	-6.61446059616E-01
5.66296255139E+05	-1.35732966738E+01	1.77197414414E+02	2.09019492436E+01	1.76434375561E+02	-3.44336579910E+01	-5.70125807011E-01	-5.93711200981E+00	-7.17439783320E-01
5.88487609734E+05	-1.03140693243E+01	-1.49153972750E+02	2.09384459757E+01	1.75813645850E+02	-3.79319902958E+01	-5.51725157195E+01	-5.97502304742E+00	-5.14201994539E-01
6.10678964329E+05	-8.06609599851E+00	1.58966775568E+02	2.09572199092E+01	1.75706199198E+02	-3.43570713005E+01	1.03359813964E+02	-5.93050401948E+00	1.88045226485E-01
6.32870318924E+05	-1.32057342967E+01	-1.74789880733E+02	2.09188745234E+01	1.75409191864E+02	-4.10330899701E+01	-8.89536333437E+01	-5.97654250840E+00	-4.20701238106E-01
6.55061673519E+05	-1.04746064264E+01	-1.77674306760E+02	2.09422902804E+01	1.74839912160E+02	-4.18979838164E+01	8.03192954383E+01	-5.94102898398E+00	-8.88133443387E-02
6.77253028114E+05	-8.44842454255E+00	-1.75514432188E+02	2.09545202514E+01	1.74758098398E+02	-4.98528642665E+01	1.13625425673E+02	-6.01975450820E+00	-6.74094656659E-01
6.99444382709E+05	-9.87829054731E+00	-1.69795892829E+02	2.09484793985E+01	1.74180623174E+02	-5.24517061708E+01	-1.59644290998E+02	-5.98350827401E+00	-5.33617803382E-01
7.21635737304E+05	-7.76408476974E+00	-1.71385658895E+02	2.09309246261E+01	1.74455185142E+02	-4.90919942045E+01	3.56285537248E+01	-5.93501259288E+00	9.05525673121E-02
7.43827091899E+05	-9.60301535829E+00	1.54762462428E+02	2.09385857619E+01	1.73609206428E+02	-3.26801962137E+01	4.00393683213E+01	-5.89937698734E+00	1.99286335883E-01
7.66018446494E+05	-9.40116173865E+00	-1.50994121290E+02	2.09374269330E+01	1.73480229647E+02	-3.87745219567E+01	-8.74504461150E+01	-5.97178666688E+00	-4.60734886550E-01
7.88209801089E+05	-1.22750366228E+01	1.68463645852E+02	2.09053914004E+01	1.73086137570E+02	-4.65921122075E+01	-6.45790559466E+01	-6.01544027634E+00	-7.57154038016E-01
8.10401155684E+05	-7.75886550553E+00	1.64545329042E+02	2.09355335446E+01	1.72684115466E+02	-3.86172422745E+01	-1.15483723199E+02	-5.90259037315E+00	-6.45922623847E-01
8.32592510279E+05	-1.08596970045E+01	-1.79216131887E+02	2.09335985166E+01	1.72513460094E+02	-4.21165566548E+01	5.21558449491E+01	-5.96852730456E+00	-6.83193284103E-01
8.54783864874E+05	-1.05191030486E+01	-1.70848872164E+02	2.09136983304E+01	1.72279487973E+02	-3.27432348017E+01	-8.44907528479E+01	-5.98255553269E+00	-5.48640261163E-01
8.76975219469E+05	-9.14295713613E+00	1.77802219706E+02	2.09115284474E+01	1.71852314206E+02	-4.27895119388E+01	1.66977442584E+02	-5.98429703691E+00	-5.17708165995E-01
8.99166574064E+05	-1.22950397677E+01	1.58421861042E+02	2.09300928254E+01	1.71549413287E+02	-3.65980994797E+01	1.12269785713E+02	-6.04705051720E+00	6.19626767477E-01
9.21357928659E+05	-7.77242197704E+00	-1.78844566723E+02	2.09174857119E+01	1.70758912154E+02	-3.68514494441E+01	7.56430918200E+01	-5.94914155879E+00	-7.59130552137E-01
9.43549283254E+05	-1.65673688945E+01	-1.50556975202E+02	2.08804700882E+01	1.70662974262E+02	-3.57923280600E+01	-1.91372863543E+01	-5.94546671748E+00	-5.52384022586E-01
9.65740637849E+05	-1.08818306805E+01	1.64701476337E+02	2.09302145885E+01	1.70621904326E+02	-3.96794358724E+01	1.44585560276E+02	-5.96259398695E+00	-2.03682840337E-01
9.87931992444E+05	-9.66298625154E+00	1.76988397237E+02	2.09219628565E+01	1.70338612641E+02	-3.70157414017E+01	-1.35201690849E+02	-5.96312510402E+00	-7.61869232070E-01
1.01012334704E+06	-1.00973312242E+01	-1.52620182537E+02	2.09084337788E+01	1.69826170901E+02	-3.56767030625E+01	1.31234967857E+02	-5.96992030731E+00	-5.80970615158E-01
1.03231470163E+06	-8.43818398975E+00	1.77348710637E+02	2.09190244824E+01	1.69591398517E+02	-4.57887870515E+01	1.30171286406E+02	-5.99685526922E+00	-6.62779152041E-01
1.05450605623E+06	-1.21563803262E+01	1.71089033302E+02	2.08561211358E+01	1.69103111437E+02	-3.73046773393E+01	9.19081906807E+01	-5.89301282510E+00	-1.01542360338E+00
1.07669741082E+06	-1.20338563306E+01	-1.71767156037E+02	2.08570031470E+01	1.69232251343E+02	-3.80396937080E+01	-4.05875234984E+01	-5.94222798906E+00	-1.69502205308E-01
1.09888876542E+06	-8.87546373023E+00	1.70432247018E+02	2.08479010514E+01	1.68798341722E+02	-4.11236838607E+01	1.69556302657E+02	-5.97340447409E+00	-6.53385976471E-01
1.12108012001E+06	-8.67344039149E+00	-1.57457253636E+02	2.08736567479E+01	1.68548293366E+02	-3.39063398126E+01	1.38292323242E+02	-5.97627198945E+00	-6.42634702499E-01
1.14327147461E+06	-7.76239157470E+00	-1.74828553178E+02	2.08513904687E+01	1.68246158786E+02	-4.03227003132E+01	3.07293929525E+01	-6.00121604938E+00	-4.87028641525E-01
1.16546282920E+06	-7.68444196844E+00	1.58674308717E+02	2.08544823465E+01	1.68010101523E+02	-3.73745644222E+01	-1.32559180853E+02	-5.98179566438E+00	-6.29326818207E-01
1.18765418380E+06	-7.19153312295E+00	1.79394099676E+02	2.08417317992E+01	1.67818703220E+02	-5.32806362647E+01	-1.72193914957E+02	-5.93581470482E+00	-4.77454117264E-01
1.20984553839E+06	-1.12162499038E+01	-1.76875034522E+02	2.08884487848E+01	1.67268390550E+02	-4.17642172597E+01	-9.60697317818E+01	-6.03457394168E+00	-1.23422450402E+00
1.23203689299E+06	-9.95974885874E+00	-1.78797492632E+02	2.08740121296E+01	1.66819382772E+02	-4.16777920410E+01	1.29231038952E+02	-5.99189280041E+00	-4.37154817601E-01
1.25422824758E+06	-1.07672962170E+01	1.68814009628E+02	2.08759902454E+01	1.66787180962E+02	-4.75562673843E+01	-4.62085798911E+01	-5.99644806838E+00	-6.41935986495E-01
1.27641960218E+06	-9.76423847071E+00	-1.53986857614E+02	2.08337641502E+01	1.66445554461E+02	-3.89841841096E+01	1.76144522514E+02	-5.96671074080E+00	-8.21375491565E-01
1.29861095677E+06	-6.95573983795E+00	-1.74621198475E+02	2.08186530564E+01	1.66271984047E+02	-4.40085773786E+01	-4.36040392511E+01	-5.99310821744E+00	-7.42002362718E-01
1.32080231137E+06	-8.09805153523E+00	-1.79761167733E+02	2.08405966263E+01	1.66142363628E+02	-3.69521234342E+01	-6.81627172809E+01	-5.97364626641E+00	-1.32262168129E+00
1.34299366596E+06	-9.41379388144E+00	1.77791712734E+02	2.08596680190E+01	1.65484148546E+02	-3.49717271346E+01	1.25068483727E+02	-6.00774719737E+00	-1.01169678766E+00
1.36518502056E+06	-8.27731155731E+00	1.75551563030E+02	2.08235646039E+01	1.65483868031E+02	-4.49072927940E+01	1.66976999357E+02	-5.91019628229E+00	-7.79580165548E-01
1.38737637515E+06	-5.58286115213E+00	1.66446647898E+02	2.08431965898E+01	1.64943924545E+02	-5.75315766939E+01	1.09310464355E+02	-5.96530233067E+00	-8.20331767294E-01
1.40956772975E+06	-1.01466615401E+01	-1.64433311550E+02	2.08301474044E+01	1.64881740765E+02	-3.83070354465E+01	1.78142541691E+02	-5.94978311790E+00	-6.63170895641E-01
1.43175908434E+06	-5.45325162442E+00	1.71963598592E+02	2.08222627547E+01	1.64397034977E+02	-3.99032761796E+01	-7.51160353249E+01	-5.96231303383E+00	-8.13020191443E-01
1.45395043894E+06	-1.10752172800E+01	1.74836740941E+02	2.08278394549E+01	1.64376925955E+02	-3.81743317996E+01	-1.37365131833E+02	-5.91156886038E+00	-4.00886236227E-01
1.47614179353E+06	-8.49704554922E+00	-1.78084496907E+02	2.08734509187E+01	1.63984071425E+02	-4.07664095465E+01	-1.25356724023E+02	-5.98867595786E+00	-8.63514792454E-01
1.49833314813E+06	-9.47240879597E+00	-1.53554637782E+02	2.08382231974E+01	1.63957763618E+02	-3.99782948154E+01	4.94102848875E+01	-5.96919892371E+00	-8.82634585363E-01
1.52052450272E+06	-9.09349333378E+00	-1.58065927663E+02	2.08187947444E+01	1.63320813076E+02	-4.09875967938E+01	6.54978494465E+01	-5.99642470440E+00	-1.16409685273E+00
1.54271585732E+06	-1.14252089001E+01	-1.54527727038E+02	2.08545647399E+01	1.63224261589E+02	-3.86324118370E+01	-8.19246773611E+01	-5.99209216566E+00	-7.84420092711E-01
1.56490721191E+06	-1.00048572712E+01	1.71016808318E+02	2.08016660768E+01	1.62909866942E+02	-4.67504181007E+01	-3.25623860896E+01	-6.01412972880E+00	-6.89758965706E-01
1.58709856651E+06	-1.36052378218E+01	1.48082028916E+02	2.07973078319E+01	1.62732649306E+02	-3.94414361222E+01	-1.22469241381E+02	-5.97816764618E+00	-7.86533300809E-01
1.60928992110E+06	-7.59283949556E+00	-1.76228382479E+02	2.07836189258E+01	1.62400337814E+02	-4.50066058039E+01	-5.35860316775E+01	-5.95640488234E+00	-1.03638858304E+00
1.63148127570E+06	-7.11347698431E+00	-1.61536026417E+02	2.08034836479E+01	1.62052244388E+02	-3.43784366572E+01	4.21725142879E+01	-5.95259025145E+00	-1.13161317836E+00
1.65367263029E+06	-8.72181766121E+00	-1.46798645720E+02	2.07787773610E+01	1.62713912603E+02	-4.22816184663E+01	8.44192527664E+01	-5.97773527696E+00	-6.84971571319E-01
1.67586398489E+06	-1.08692408037E+01	-1.63636484796E+02	2.07713444617E+01	1.61552862079E+02	-3.93586662894E+01	-8.63983965561E+01	-5.96832196536E+00	-1.12364851563E+00
1.69805533948E+06	-1.01560897536E+01	-1.72930178721E+02	2.07658932971E+01	1.61357136774E+02	-4.76036126528E+01	-1.02325679143E+01	-5.95591866295E+00	-1.13783717079E+00
1.72024669408E+06	-9.97034723736E+00	-1.74321729951E+02	2.07574593557E+01	1.61148687997E+02	-4.57959611458E+01	-2.63645883241E+01	-5.95897306233E+00	-1.10552246372E+00
1.74243804867E+06	-1.39989401135E+01	-1.61937284961E+02	2.07724087863E+01	1.61134269995E+02	-4.44997699910E+01	-5.98756707193E+01	-5.93037106566E+00	-5.30065874723E-01
1.76462940327E+06	-1.05129686757E+01	-1.59624026044E+02	2.07817840094E+01	1.60582762270E+02	-5.39617617215E+01	9.41937252180E+00	-5.95888496567E+00	-7.84617043634E-01
1.78682075786E+06	-1.09937724751E+01	-1.64930122386E+02	2.07819887511E+01	1.60134031779E+02	-4.90209930697E+01	-1.06893845315E+02	-5.95114339054E+00	-5.83284526643E-01
1.80901211246E+06	-8.64730718485E+00	1.73502484447E+02	2.07593892034E+01	1.59601382449E+02	-4.04659359918E+01	9.04248115283E+01	-5.93483430076E+00	-1.07989795754E+00
1.83120346705E+06	-8.77531276831E+00	1.69818510254E+02	2.06722528005E+01	1.59691976828E+02	-4.29129963785E+01	-1.29304395260E+02	-5.90200776020E+00	-1.09810927678E+00
1.85339482165E+06	-9.72467749696E+00	1.66516460642E+02	2.07716098590E+01	1.59518983443E+02	-3.39224431661E+01	4.85235204556E+01	-5.94449745925E+00	-1.21335680829E+00
1.87558617624E+06	-1.19586187342E+01	-1.53725299989E+02	2.07329738039E+01	1.59176796280E+02	-3.95562827645E+01	2.78943459197E+01	-5.98501827339E+00	-1.15464272180E+00
1.89777753084E+06	-1.31957263161E+01	-1.69419097944E+02	2.07382079541E+01	1.59072072082E+02	-5.48708922766E+01	-1.24169584174E+02	-5.93774456453E+00	-9.17263458452E-01
1.91996888543E+06	-1.11699478044E+01	-1.69620601363E+02	2.07188912008E+01	1.58898975473E+02	-4.64450080894E+01	5.55795741423E+01	-5.98035775659E+00	-1.10037832732E+00
1.94216024003E+06	-8.62543894849E+00	-1.78093624520E+02	2.07190195526E+01	1.58345195275E+02	-3.99904180460E+01	3.54735298538E+01	-5.93113827608E+00	-9.18758955390E-01
1.96435159462E+06	-1.14740732180E+01	1.70100179980E+02	2.07270517173E+01	1.58269560084E+02	-4.12771970043E+01	9.24864229432E+01	-5.97619723503E+00	-9.01160113655E-01
1.98654294922E+06	-9.82415869067E+00	1.61927076676E+02	2.07501109571E+01	1.57693279974E+02	-4.48617877418E+01	-8.11251893747E+01	-6.05021511406E+00	-1.12514336573E+00
2.00873430381E+06	-1.00618316932E+01	1.67107229750E+02	2.07302312202E+01	1.57556119671E+02	-4.27348480452E+01	-5.36247893305E+00	-5.94796494523E+00	-9.53684976268E-01
2.03092565841E+06	-1.03252816589E+01	-1.44177970983E+02	2.07198914521E+01	1.57723103453E+02	-3.95901522279E+01	-7.64467129660E+01	-5.98859749331E+00	-1.48180710146E+00
2.05311701300E+06	-8.09167641381E+00	1.70398693346E+02	2.07103456334E+01	1.57047615067E+02	-3.79907863561E+01	-3.07049104745E+01	-5.97868642975E+00	-8.94682518671E-01
2.07530836760E+06	-1.13104888924E+01	-1.56404281077E+02	2.07112806409E+01	1.57008547403E+02	-3.70688998416E+01	4.85522133678E+00	-5.99644881939E+00	-1.12513913534E+00
2.09749972219E+06	-1.40837254933E+01	-1.36452206451E+02	2.07077485884E+01	1.56664216162E+02	-3.71956176766E+01	1.93181616247E+01	-5.94651738681E+00	-1.05300575590E+00
2.11969107679E+06	-1.49695031889E+01	-1.62631541982E+02	2.06952499613E+01	1.56640256721E+02	-4.90533311040E+01	-1.58255788196E+02	-5.96798738896E+00	-8.21333261303E-01
2.14188243138E+06	-1.17414478672E+01	-1.43938973134E+02	2.06259697443E+01	1.56364644412E+02	-3.63310883161E+01	-6.57146841870E+01	-5.80289390651E+00	-1.11189313782E+00
2.16407378598E+06	-1.29003162756E+01	1.51886951487E+02	2.06812223066E+01	1.55940813938E+02	-4.38918584564E+01	7.17708185720E+01	-5.92884890936E+00	5.31064572552E-02
2.18626514057E+06	-1.12340170955E+01	1.68495551592E+02	2.06701451567E+01	1.55662397505E+02	-3.57345073966E+01	-6.85184435499E+01	-5.97186292011E+00	-1.24164051556E+00
2.20845649517E+06	-1.07381674817E+01	-1.74294440172E+02	2.06705669086E+01	1.55427428251E+02	-3.53906517824E+01	1.46374530850E+02	-5.96789711700E+00	-1.12188176758E+00
2.23064784976E+06	-1.12380240258E+01	-1.79434902960E+02	2.06780606366E+01	1.55472507722E+02	-4.44886219316E+01	-1.52701759241E+01	-5.98597646926E+00	-1.06122362456E+00
2.25283920436E+06	-8.26444238586E+00	-1.68887689034E+02	2.06379411479E+01	1.54901711056E+02	-4.16495203084E+01	1.65665541635E+02	-5.88693788607E+00	-1.17448382322E+00
2.27503055895E+06	-5.47448711474E+00	1.71487048453E+02	2.06607524772E+01	1.54752982996E+02	-3.88877100923E+01	-6.25807107620E+00	-5.94168317992E+00	-1.38821694884E+00
2.29722191355E+06	-1.54729879571E+01	1.53517406233E+02	2.07036475483E+01	1.54437797813E+02	-5.47540900005E+01	9.17590912171E+01	-5.97039547334E+00	-4.97702686161E-01
2.31941326814E+06	-1.18169427224E+01	1.71739379172E+02	2.06488424196E+01	1.54306257223E+02	-4.39564053857E+01	1.06141653157E+01	-5.97153844564E+00	-2.18133406308E-01
2.34160462274E+06	-8.60582127866E+00	-1.58743039739E+02	2.06494578569E+01	1.54092402766E+02	-3.82674124359E+01	4.16930446719E+01	-5.96509278359E+00	-1.33534587587E+00
2.36379597733E+06	-9.96686556088E+00	1.77646007167E+02	2.06122271421E+01	1.53638472658E+02	-3.96042452439E+01	9.94891620416E+01	-5.94961393608E+00	-1.15982128540E+00
2.38598733193E+06	-1.04982158651E+01	1.59164700430E+02	2.06297527980E+01	1.53560900327E+02	-3.38227825500E+01	5.41215544452E+01	-5.99033817295E+00	-1.16719921595E+00
2.40817868652E+06	-6.87941448492E+00	1.77139679283E+02	2.06256022948E+01	1.53315608610E+02	-4.41844394796E+01	4.06912306727E+01	-5.93888068627E+00	-1.49099024928E+00
2.43037004112E+06	-1.56095003886E+01	-1.63916609740E+02	2.06254649654E+01	1.52969748027E+02	-4.43599841400E+01	1.23095614381E+02	-5.96432323574E+00	-1.25251474012E+00
2.45256139571E+06	-1.07327465040E+01	1.73617337043E+02	2.06498919185E+01	1.52407095907E+02	-4.24289911212E+01	1.49793177468E+02	-6.12823166263E+00	-7.45907060965E-01
2.47475275031E+06	-1.05458511157E+01	1.69144846241E+02	2.05915181444E+01	1.52228290640E+02	-4.34087041368E+01	8.79206336346E+01	-5.97075048838E+00	-1.43117982000E+00
2.49694410490E+06	-1.15373769336E+01	-1.78443557500E+02	2.06139700568E+01	1.52226729921E+02	-4.06340236267E+01	2.98919185622E+01	-5.90941695820E+00	-1.65702009733E+00
2.51913545950E+06	-1.22235470028E+01	1.71311582222E+02	2.06332243173E+01	1.51877863608E+02	-3.81879905280E+01	3.93896003554E+01	-6.00821154881E+00	-1.43870485719E+00
2.54132681409E+06	-1.04434356510E+01	1.63225892699E+02	2.06015326287E+01	1.51566620320E+02	-4.89899975877E+01	-1.40632534039E+02	-5.98396866993E+00	-1.25239262415E+00
2.56351816869E+06	-1.12942613796E+01	-1.63585880380E+02	2.05980434557E+01	1.51504862839E+02	-4.19071353351E+01	-2.36421983243E+01	-5.97161389504E+00	-1.04624581519E+00
2.58570952328E+06	-9.88936212573E+00	-1.73054663460E+02	2.05878601727E+01	1.50901029401E+02	-3.87926838059E+01	1.03399337967E+01	-5.96763017525E+00	-1.52165288275E+00
2.60790087788E+06	-1.46868190312E+01	1.74138558807E+02	2.05765015010E+01	1.50835778572E+02	-4.24970449342E+01	-1.19346973033E+02	-5.93342581738E+00	-1.06948039392E+00
2.63009223247E+06	-8.39699083533E+00	1.70593321309E+02	2.05692415993E+01	1.50436473952E+02	-4.11874005726E+01	2.21701623075E+01	-5.97901169089E+00	-1.21765206031E+00
2.65228358707E+06	-7.50083165426E+00	-1.79014471751E+02	2.05992044692E+01	1.50253620849E+02	-4.67136432371E+01	-4.90764797747E+00	-5.98139536202E+00	-1.65375099734E+00
2.67447494166E+06	-1.01190679375E+01	-1.72474280258E+02	2.05665096696E+01	1.50244956916E+02	-3.86657942578E+01	1.13238384728E+02	-5.95225479387E+00	-1.02902522229E+00
2.69666629626E+06	-7.59445175095E+00	-1.75572228498E+02	2.05667444662E+01	1.50099096070E+02	-3.61602726261E+01	1.31448659802E+02	-5.97574934548E+00	-1.60287021476E+00
2.71885765085E+06	-9.34275293249E+00	-1.77535672450E+02	2.05223056249E+01	1.49781672090E+02	-3.96491893292E+01	-1.27190117026E+02	-5.95947953365E+00	-8.68160429256E-01
2.74104900545E+06	-9.46995824553E+00	-1.72975453103E+02	2.05339652509E+01	1.49351046773E+02	-3.56297964834E+01	1.07324280001E+02	-5.92219864536E+00	-1.21253759848E+00
2.76324036004E+06	-1.29428723382E+01	1.74530359222E+02	2.05503156668E+01	1.48918185097E+02	-4.63918138077E+01	-1.10470167293E+02	-5.90488938836E+00	-1.23557007315E+00
2.78543171463E+06	-1.01920764659E+01	-1.67653218606E+02	2.05480576794E+01	1.48907543741E+02	-3.65046015678E+01	1.45671306582E+01	-5.82725158954E+00	-1.28416749683E+00
2.80762306923E+06	-9.94815460775E+00	-1.71256271080E+02	2.05245643818E+01	1.48510504389E+02	-4.23298201957E+01	-2.56905352419E+01	-5.98298115542E+00	-1.17565872172E+00
2.82981442382E+06	-8.33826661684E+00	-1.63758004911E+02	2.05179161153E+01	1.48423838403E+02	-4.15849247783E+01	1.78761106333E+01	-5.93775648734E+00	-1.14827712008E+00
2.85200577842E+06	-1.05400217433E+01	1.78376054481E+02	2.05391016093E+01	1.48109312174E+02	-5.49191177982E+01	-1.63599117160E+02	-5.94445746999E+00	-1.30728835191E+00
2.87419713301E+06	-9.44509780466E+00	-1.51794950560E+02	2.05327895851E+01	1.47830164889E+02	-4.41497531218E+01	-9.43203240458E+01	-6.02070386351E+00	-1.61451491494E+00
