# Hz S DB R 50
! CMT, M5065, 19127446, 24.2.4/2
! Date: 10/29/2024 12:14:51 PM
! Data: Format (Calibration Info)
! Freq	S11:dB/Ang(F2)	S21:dB/Ang(F2)	S12:dB/Ang(F2)	S22:dB/Ang(F2)
3.00000000000E+05	-1.01860644093E+01	1.79722058514E+02	7.72953798924E+00	-1.77874883359E+02	-4.22727718051E+01	-7.95835021517E+01	-5.95517762874E+00	-3.34711928656E-01
3.22191354595E+05	-1.12017714798E+01	-1.73693334568E+02	7.71344442464E+00	-1.78655109973E+02	-4.28714078495E+01	6.79842226216E+01	-5.97575092164E+00	-1.87396842613E-01
3.44382709190E+05	-9.59914562487E+00	-1.68990927144E+02	7.69354341330E+00	-1.78697166832E+02	-5.00651757516E+01	6.37599068303E+01	-5.98331902811E+00	-2.62069828311E-01
3.66574063785E+05	-1.11152072567E+01	-1.72140207900E+02	7.71084151763E+00	-1.79031979239E+02	-5.22892419850E+01	1.33385787208E+02	-5.96588581427E+00	-2.28741357496E-01
3.88765418380E+05	-1.01788403801E+01	1.64768194384E+02	7.74828989236E+00	-1.79366847369E+02	-4.79193137847E+01	-1.18537123770E+02	-5.97698194872E+00	-4.59449138053E-01
4.10956772975E+05	-1.06861357478E+01	1.71064669643E+02	7.73146349523E+00	-1.79503765155E+02	-4.48801286782E+01	1.73702369991E+02	-5.98053292350E+00	-4.02454365705E-01
4.33148127570E+05	-8.89186580284E+00	-1.74271985485E+02	7.76304671263E+00	-1.79733714468E+02	-3.85524481350E+01	1.66206903876E+02	-5.97596204735E+00	-2.09442776171E-01
4.55339482165E+05	-1.04474640647E+01	-1.71946510887E+02	7.70342712686E+00	1.79885570707E+02	-5.55781091134E+01	1.14696005572E+02	-5.99708659585E+00	-2.85148575589E-01
4.77530836760E+05	-9.08855914515E+00	-1.75171856332E+02	7.73556513182E+00	1.79660695247E+02	-4.35704918582E+01	-1.54015202658E+02	-5.98381292161E+00	-3.55428004310E-01
4.99722191355E+05	-8.73753363417E+00	-1.77182666084E+02	7.77816040696E+00	1.79620027198E+02	-4.46194558298E+01	-3.68810028646E+01	-5.96321261414E+00	-5.05367046853E-01
5.21913545950E+05	-1.01482701106E+01	1.73470503275E+02	7.74428160265E+00	1.79392991082E+02	-4.62092742886E+01	-1.95009970108E+00	-5.97380594229E+00	-4.82924692258E-01
5.44104900545E+05	-8.70909352354E+00	-1.76583105860E+02	7.80002278919E+00	1.79142029299E+02	-5.20386680715E+01	-1.19752752530E+02	-5.97691341507E+00	-2.82685132381E-01
5.66296255139E+05	-8.21454623808E+00	1.78494717982E+02	7.72485353153E+00	1.79070645521E+02	-5.30638188564E+01	-1.03522959312E+02	-5.96351699438E+00	-3.88295956444E-01
5.88487609734E+05	-1.08565411568E+01	-1.70003924062E+02	7.72913977054E+00	1.78848542295E+02	-5.40185139183E+01	-7.34804575843E+01	-5.94854227060E+00	-4.24108993938E-01
6.10678964329E+05	-8.83833374178E+00	-1.68676808952E+02	7.74095696623E+00	1.79007804874E+02	-4.50254503266E+01	-1.54296577726E+02	-5.96564801700E+00	-2.54487457357E-01
6.32870318924E+05	-1.05428264735E+01	-1.69220510974E+02	7.75469640435E+00	1.78574429983E+02	-4.63993911731E+01	-2.11868384078E+01	-5.94977416761E+00	-2.91010728731E-01
6.55061673519E+05	-1.00917238790E+01	-1.75769922553E+02	7.74358027659E+00	1.78388847787E+02	-4.01714784800E+01	1.84053458516E+01	-5.95158031413E+00	-1.17045147264E-01
6.77253028114E+05	-9.12379566290E+00	-1.60527360740E+02	7.78357215975E+00	1.78434743508E+02	-4.39195857705E+01	1.23772637602E+01	-5.97014779520E+00	-5.35771676919E-01
6.99444382709E+05	-1.11835792523E+01	1.62764608437E+02	7.74241953626E+00	1.77926322140E+02	-4.73288134077E+01	1.36119267127E+02	-5.97349382320E+00	-4.83376714820E-01
7.21635737304E+05	-9.49735310250E+00	-1.79541245195E+02	7.73580712128E+00	1.77930100329E+02	-4.57240343153E+01	5.02766481143E+01	-5.98248712526E+00	-5.12792908281E-01
7.43827091899E+05	-8.16776981230E+00	-1.64217684527E+02	7.73226670184E+00	1.77604825329E+02	-4.25167342870E+01	1.55271985377E+02	-5.97472836841E+00	-5.05450513104E-01
7.66018446494E+05	-1.29810596575E+01	-1.64026556887E+02	7.73692525888E+00	1.77755961192E+02	-4.63776293123E+01	1.22011507778E+02	-5.98013861707E+00	-4.52219013704E-01
7.88209801089E+05	-1.15215058669E+01	-1.72431257551E+02	7.75582325568E+00	1.77081048145E+02	-4.24641994332E+01	2.51582038978E+01	-5.99684132658E+00	-4.90673747712E-01
8.10401155684E+05	-1.09941786465E+01	-1.75304917851E+02	7.74943758781E+00	1.77376433712E+02	-4.26334457559E+01	-1.10126153310E+02	-5.99527689291E+00	-4.48768342378E-01
8.32592510279E+05	-1.38883166003E+01	1.74194893255E+02	7.79624429879E+00	1.77300562498E+02	-5.19454645404E+01	-1.27991452225E+02	-5.95912000036E+00	-5.60970438035E-01
8.54783864874E+05	-9.22744503631E+00	-1.75575329688E+02	7.71339621524E+00	1.77170400399E+02	-4.66587732307E+01	2.95113907243E+01	-5.97174632128E+00	-5.16259357180E-01
8.76975219469E+05	-1.06930934748E+01	1.68802917461E+02	7.74883513629E+00	1.76839719399E+02	-4.51929488978E+01	-1.66852107074E-01	-5.97426001958E+00	-6.33398037985E-01
8.99166574064E+05	-1.02974074588E+01	1.71876293896E+02	7.74862153560E+00	1.76669353859E+02	-4.79905681049E+01	-1.49308858683E+02	-5.97960725958E+00	-5.39780789888E-01
9.21357928659E+05	-1.18533036170E+01	-1.79043362598E+02	7.73865131078E+00	1.76657012339E+02	-4.02134559954E+01	4.59200183873E+01	-5.99653861214E+00	-6.32960985175E-01
9.43549283254E+05	-1.18192449637E+01	-1.78267465785E+02	7.72395871540E+00	1.76180784528E+02	-5.66412937986E+01	-7.43628130464E+01	-5.99205231150E+00	-5.17490390838E-01
9.65740637849E+05	-1.06542530758E+01	-1.68931676586E+02	7.74343372700E+00	1.76236239452E+02	-4.55740756614E+01	-1.75340790947E+02	-5.99286165204E+00	-5.22588061545E-01
9.87931992444E+05	-9.34472467581E+00	-1.75575193372E+02	7.76271139117E+00	1.76467710806E+02	-4.51015153191E+01	-8.86998780222E+01	-5.96151365816E+00	-6.42605239777E-01
1.01012334704E+06	-1.03945365685E+01	-1.76463634848E+02	7.73731651046E+00	1.76087517343E+02	-4.80815361516E+01	1.41291071907E+02	-5.97074552728E+00	-5.45746354970E-01
1.03231470163E+06	-8.94233302838E+00	-1.76466491999E+02	7.76671076327E+00	1.75865027085E+02	-4.26800998489E+01	-3.24552875040E+01	-5.96312287235E+00	-6.25208427561E-01
1.05450605623E+06	-9.34825479534E+00	1.71870453470E+02	7.73920069897E+00	1.75646461668E+02	-4.63636708821E+01	-1.45545541078E+02	-5.98807423332E+00	-6.25355384663E-01
1.07669741082E+06	-1.03681874472E+01	-1.67579248218E+02	7.77921920236E+00	1.75695287413E+02	-4.99582682712E+01	-1.53878599381E+02	-5.95119526616E+00	-5.60251004619E-01
1.09888876542E+06	-1.10157600494E+01	1.77377570808E+02	7.71788280670E+00	1.75469537084E+02	-4.65895377990E+01	1.61674910458E+02	-5.98150639467E+00	-6.98126189058E-01
1.12108012001E+06	-1.07015653222E+01	1.71743916645E+02	7.73664903760E+00	1.75368236691E+02	-5.00711482116E+01	2.80121944038E+01	-5.95405260716E+00	-7.43433496544E-01
1.14327147461E+06	-1.21932936496E+01	1.78228848604E+02	7.75462002901E+00	1.75331764556E+02	-4.87513900020E+01	4.51404162721E+01	-5.96648552934E+00	-5.38891883257E-01
1.16546282920E+06	-1.03691585709E+01	1.76372960802E+02	7.78418479711E+00	1.75255547790E+02	-4.22057569403E+01	-4.36332169292E+01	-5.98091166277E+00	-5.76377866774E-01
1.18765418380E+06	-8.55156441869E+00	-1.70322935206E+02	7.76951932061E+00	1.75060787425E+02	-4.12655745288E+01	-1.50942629791E+02	-5.98203174671E+00	-6.58592119433E-01
1.20984553839E+06	-9.64473323533E+00	1.68723938361E+02	7.74384081293E+00	1.75091456280E+02	-4.14141448588E+01	5.88686109904E+01	-5.96050325354E+00	-8.57412497721E-01
1.23203689299E+06	-9.57990851393E+00	-1.77131044212E+02	7.74816564908E+00	1.74928014819E+02	-4.32106986681E+01	1.13685865395E+02	-5.97348892739E+00	-5.61142685839E-01
1.25422824758E+06	-1.02056950086E+01	-1.67672956718E+02	7.73516868755E+00	1.74724656353E+02	-4.45066478969E+01	1.60713649008E+01	-5.99650833318E+00	-6.07372053457E-01
1.27641960218E+06	-1.08921443698E+01	-1.72383020108E+02	7.77439567682E+00	1.74501474732E+02	-5.66120287594E+01	-1.34584229410E+02	-5.98579681519E+00	-6.60203612214E-01
1.29861095677E+06	-1.04973132868E+01	-1.72183495448E+02	7.75402200409E+00	1.74635708838E+02	-4.89328406363E+01	4.47604504034E+01	-5.99451072582E+00	-7.17641233149E-01
1.32080231137E+06	-1.08933686483E+01	-1.77767169248E+02	7.75839328905E+00	1.74365585395E+02	-4.48723577569E+01	-6.41648834372E+01	-5.98609381923E+00	-1.27282421275E+00
1.34299366596E+06	-9.67858244038E+00	1.72796732792E+02	7.75959340068E+00	1.74322557808E+02	-4.76502618685E+01	-3.84781892067E-01	-5.96722418418E+00	-8.70013769606E-01
1.36518502056E+06	-1.01178665847E+01	1.75406290753E+02	7.72110243753E+00	1.73849024880E+02	-5.06439133461E+01	1.47654407941E+02	-5.99006846280E+00	-8.29396174678E-01
1.38737637515E+06	-9.44302728022E+00	1.74299771986E+02	7.73495385194E+00	1.73653711893E+02	-4.68476326498E+01	-1.26620953557E+02	-5.97194765114E+00	-7.00821572467E-01
1.40956772975E+06	-9.68435319244E+00	-1.72624987710E+02	7.73881347325E+00	1.73742289482E+02	-4.07409212652E+01	1.60450864282E+02	-5.97410276123E+00	-8.19415414002E-01
1.43175908434E+06	-9.41247883037E+00	1.75223055855E+02	7.78557921297E+00	1.73516514492E+02	-4.69090216681E+01	1.30124936936E+01	-5.99003908530E+00	-6.83419060967E-01
1.45395043894E+06	-9.24517347201E+00	-1.79277718003E+02	7.73417075422E+00	1.73641456029E+02	-5.15810130955E+01	-1.70586151108E+01	-5.98198632532E+00	-7.35658767413E-01
1.47614179353E+06	-9.67302032025E+00	-1.67989623406E+02	7.77067850560E+00	1.73330536065E+02	-4.37288681267E+01	1.50699108619E+02	-5.97451171581E+00	-8.00703735780E-01
1.49833314813E+06	-1.01288292886E+01	1.75310712178E+02	7.76788079137E+00	1.73583992634E+02	-5.67736859055E+01	-1.57774860443E+02	-5.96607867852E+00	-6.85149065748E-01
1.52052450272E+06	-1.06712251644E+01	-1.78949229227E+02	7.74751597207E+00	1.73214076024E+02	-4.44880334748E+01	-8.66974502585E+01	-5.98560770065E+00	-7.62247548216E-01
1.54271585732E+06	-1.01745352949E+01	-1.77323756318E+02	7.76043843071E+00	1.73065681366E+02	-4.90654544310E+01	-1.71822442915E+02	-5.98442742372E+00	-7.28774541145E-01
1.56490721191E+06	-9.57479536863E+00	-1.78806494558E+02	7.75240975388E+00	1.72956651174E+02	-4.34180809785E+01	-4.90386102164E+01	-5.98679316844E+00	-7.86308875160E-01
1.58709856651E+06	-8.84796682784E+00	1.77241053134E+02	7.77335689546E+00	1.72665128107E+02	-5.28829943424E+01	1.68378265386E+02	-5.97953899851E+00	-7.78306435511E-01
1.60928992110E+06	-1.06935318511E+01	-1.78847184496E+02	7.78475402841E+00	1.72657692507E+02	-4.49007256848E+01	-5.72706836593E+01	-5.98745756680E+00	-9.23214586665E-01
1.63148127570E+06	-9.43965627644E+00	1.79425349697E+02	7.72616511079E+00	1.72545540566E+02	-4.87197136427E+01	-4.66414584891E+01	-5.97529344570E+00	-8.37255394628E-01
1.65367263029E+06	-9.67881411912E+00	-1.74802628026E+02	7.75546668935E+00	1.72451024974E+02	-4.70838454653E+01	6.09452274910E+00	-5.97552610438E+00	-9.18351271554E-01
1.67586398489E+06	-1.04605998123E+01	-1.74321022304E+02	7.73793662039E+00	1.72550873069E+02	-5.98992492741E+01	-1.54411983468E+01	-5.97401303679E+00	-8.11092760517E-01
1.69805533948E+06	-1.04925222948E+01	-1.67102892715E+02	7.76355700087E+00	1.72485225376E+02	-4.32627384973E+01	4.23739951967E+01	-5.96234763907E+00	-9.44988867070E-01
1.72024669408E+06	-1.38962795055E+01	1.74545619044E+02	7.72883671605E+00	1.72191624321E+02	-4.01892688067E+01	-6.04802279112E+01	-5.96386953268E+00	-8.71551939901E-01
1.74243804867E+06	-1.08024523233E+01	1.78974950675E+02	7.71806428436E+00	1.72030396879E+02	-4.89061134808E+01	1.41000711844E+02	-5.97695070802E+00	-8.11651427747E-01
1.76462940327E+06	-1.02236663211E+01	1.70848860947E+02	7.78013664617E+00	1.71900818674E+02	-4.12580735179E+01	-3.97618875865E+01	-5.95499890282E+00	-1.09784279702E+00
1.78682075786E+06	-8.28048565278E+00	1.76173322111E+02	7.72575574250E+00	1.71724393801E+02	-4.66609387775E+01	3.19917001908E+01	-5.97633114034E+00	-8.78928720974E-01
1.80901211246E+06	-1.07468560057E+01	1.78588364138E+02	7.77056354694E+00	1.71717638542E+02	-4.31465770656E+01	-9.03678129727E+00	-5.95626960556E+00	-8.88057088822E-01
1.83120346705E+06	-1.18979209759E+01	1.77918922130E+02	7.74180173824E+00	1.71585391567E+02	-5.00489882711E+01	-8.91861940886E+01	-5.97227937024E+00	-9.21581398060E-01
1.85339482165E+06	-1.06940734900E+01	-1.53048060938E+02	7.71810414532E+00	1.71928600913E+02	-4.41865754007E+01	3.66746294467E+01	-5.95974817156E+00	-1.07396795890E+00
1.87558617624E+06	-9.60972421717E+00	-1.61399118332E+02	7.71510192303E+00	1.71114847943E+02	-4.96371559726E+01	-3.00835295329E+01	-5.98044380880E+00	-9.44972046960E-01
1.89777753084E+06	-9.90294176058E+00	1.70996848883E+02	7.73945254393E+00	1.71010421526E+02	-4.45945667709E+01	5.08362345198E+01	-5.97313968470E+00	-8.49596880325E-01
1.91996888543E+06	-9.83266942268E+00	-1.73268480277E+02	7.76264101679E+00	1.71022127825E+02	-4.25052783730E+01	-1.51923219820E+01	-5.96502432918E+00	-9.63620743322E-01
1.94216024003E+06	-1.11443038262E+01	1.77600889018E+02	7.73457672906E+00	1.70695275610E+02	-4.15519947799E+01	-1.04948228410E+02	-5.96683265719E+00	-1.00242680628E+00
1.96435159462E+06	-8.87258378870E+00	1.72278199167E+02	7.68018850247E+00	1.70715088599E+02	-5.03850030534E+01	-1.37563557839E+02	-5.94320620161E+00	-9.04815654491E-01
1.98654294922E+06	-9.40953803096E+00	-1.75983850397E+02	7.73170241520E+00	1.70699374733E+02	-4.79334638121E+01	-8.45284166151E+01	-5.97306376491E+00	-8.31916555888E-01
2.00873430381E+06	-1.06556734940E+01	-1.78038412242E+02	7.73690651422E+00	1.70407858329E+02	-4.15459169095E+01	-9.90482191881E+01	-5.97447263252E+00	-1.01503095326E+00
2.03092565841E+06	-1.25946263200E+01	-1.70021510129E+02	7.72920527067E+00	1.70648240281E+02	-4.54450168949E+01	-1.24546856831E+02	-5.97539612651E+00	-8.06054593293E-01
2.05311701300E+06	-9.90433214823E+00	1.75729619540E+02	7.71094533312E+00	1.70188821330E+02	-4.94543534389E+01	8.34817779730E+01	-5.96803458743E+00	-1.06358460228E+00
2.07530836760E+06	-1.03043748392E+01	-1.79325804612E+02	7.74027810513E+00	1.70254575401E+02	-3.93609870313E+01	-1.35582109073E+02	-5.96020914663E+00	-1.08439242257E+00
2.09749972219E+06	-1.21164670350E+01	-1.69723515792E+02	7.73691607019E+00	1.70197139759E+02	-5.28947569074E+01	1.28490802121E+02	-5.98455139824E+00	-1.00019123266E+00
2.11969107679E+06	-1.02656347752E+01	-1.79295578295E+02	7.75055772745E+00	1.69726310354E+02	-5.45507062583E+01	1.32181629250E+02	-5.97550774179E+00	-9.51102587313E-01
2.14188243138E+06	-1.17166438819E+01	1.70560718070E+02	7.70185038428E+00	1.70109801994E+02	-5.78712984174E+01	-4.27115899357E+01	-5.96405241162E+00	-9.87352616147E-01
2.16407378598E+06	-1.08126319875E+01	-1.77057249412E+02	7.71267229455E+00	1.69847847095E+02	-4.61468258355E+01	1.49614042515E+02	-6.00093079081E+00	-1.09949065858E+00
2.18626514057E+06	-9.91302400899E+00	-1.69289240592E+02	7.70740346032E+00	1.69769291725E+02	-4.35963188813E+01	2.21445735680E+01	-5.97490183803E+00	-1.07312387369E+00
2.20845649517E+06	-1.08791393217E+01	-1.68198617806E+02	7.74927997472E+00	1.69519774015E+02	-4.22768136119E+01	1.44664069429E+02	-5.97476610080E+00	-1.03548283796E+00
2.23064784976E+06	-9.07181784189E+00	-1.71034263404E+02	7.76634957858E+00	1.69514670374E+02	-5.64429498338E+01	1.38704063165E+02	-5.98713648318E+00	-1.12958508192E+00
2.25283920436E+06	-9.43578624008E+00	1.74774151292E+02	7.74110223658E+00	1.69217820274E+02	-4.19547702317E+01	1.11659464851E+02	-5.97097327155E+00	-1.05828216322E+00
2.27503055895E+06	-9.24091187698E+00	1.79862656462E+02	7.76721356757E+00	1.69154431526E+02	-4.22005696374E+01	-1.44482589902E+02	-6.01300969611E+00	-1.36926712113E+00
2.29722191355E+06	-1.28963658031E+01	-1.72631910295E+02	7.72419711096E+00	1.69107683678E+02	-5.08509423608E+01	-1.46428258172E+02	-5.95886335771E+00	-1.10228267660E+00
2.31941326814E+06	-1.01273403527E+01	-1.73441852525E+02	7.73604664164E+00	1.69234076199E+02	-4.82011927772E+01	-1.44602719594E+02	-5.97461422126E+00	-9.94319774649E-01
2.34160462274E+06	-1.02500299910E+01	-1.75014317727E+02	7.73705986281E+00	1.68847051289E+02	-4.51362684909E+01	-1.22160472056E+02	-5.97954517164E+00	-1.15653213781E+00
2.36379597733E+06	-1.10364688287E+01	1.76031410919E+02	7.71611384344E+00	1.68655724025E+02	-4.12290441119E+01	-4.49238321546E+01	-5.96223665958E+00	-1.15461632321E+00
2.38598733193E+06	-1.08154175015E+01	1.72727490025E+02	7.73237980819E+00	1.68627503281E+02	-5.00258969751E+01	-1.28197668740E+02	-5.95388768654E+00	-1.17661182644E+00
2.40817868652E+06	-1.08668615967E+01	-1.68309832782E+02	7.76498698640E+00	1.68527441277E+02	-4.68226177772E+01	-7.41973904614E+01	-5.97789941985E+00	-1.16722584401E+00
2.43037004112E+06	-9.92991086694E+00	-1.75010845723E+02	7.72155681443E+00	1.68403930718E+02	-4.22253642164E+01	1.61208196715E+02	-5.98193927147E+00	-1.26878872217E+00
2.45256139571E+06	-1.15057859901E+01	1.77164819635E+02	7.71619930359E+00	1.68658624088E+02	-4.48134756156E+01	6.99563554444E+01	-5.97551182528E+00	-9.65059469435E-01
2.47475275031E+06	-1.10051689791E+01	-1.74308072514E+02	7.72883571589E+00	1.68166273465E+02	-5.02621509967E+01	-1.21479863398E+02	-5.96780615223E+00	-1.10646480564E+00
2.49694410490E+06	-9.12508572973E+00	-1.73950329212E+02	7.80474655369E+00	1.68022916635E+02	-5.04056494279E+01	-1.08490815569E+02	-5.97108107047E+00	-1.04344119757E+00
2.51913545950E+06	-1.03866539038E+01	-1.79695720572E+02	7.75613068997E+00	1.67946291804E+02	-5.05870600176E+01	-2.82361490191E+01	-5.97584998885E+00	-1.10507031301E+00
2.54132681409E+06	-1.02956149193E+01	-1.68977719453E+02	7.74386972287E+00	1.67914256573E+02	-4.10236943348E+01	4.31116375732E+00	-5.98011793664E+00	-1.21137269654E+00
2.56351816869E+06	-9.62260667026E+00	-1.75898700180E+02	7.73944404858E+00	1.67654764534E+02	-4.07921097834E+01	1.60684410764E+02	-5.97388509468E+00	-1.28317953621E+00
2.58570952328E+06	-1.08097341274E+01	1.71081163407E+02	7.74666414420E+00	1.67772238295E+02	-4.66845398691E+01	-2.13040058982E+01	-5.97923402387E+00	-1.23905272230E+00
2.60790087788E+06	-1.06522076508E+01	-1.75347492334E+02	7.76033781003E+00	1.67568836453E+02	-4.68268460077E+01	1.66344348825E+02	-5.97547199935E+00	-1.12561113800E+00
2.63009223247E+06	-9.74186019618E+00	-1.74368411234E+02	7.78610135801E+00	1.67344984608E+02	-4.99692991889E+01	-7.37036829357E+01	-5.97190473466E+00	-1.11515362707E+00
2.65228358707E+06	-1.12148497173E+01	-1.78984362172E+02	7.76660048622E+00	1.67184591616E+02	-4.67837868855E+01	8.12995624477E+01	-5.95939836835E+00	-1.63737300122E+00
2.67447494166E+06	-1.00963967826E+01	1.74036572874E+02	7.73098346431E+00	1.67055715923E+02	-4.63077244422E+01	-4.89724187841E+01	-5.97453411165E+00	-1.38647079091E+00
2.69666629626E+06	-1.05038388444E+01	-1.71104912458E+02	7.76893707697E+00	1.66919658270E+02	-4.91182616440E+01	-1.23280231028E+02	-5.95941837231E+00	-1.01225173081E+00
2.71885765085E+06	-9.96988807169E+00	-1.74938000295E+02	7.75129769101E+00	1.67010864131E+02	-4.31297912983E+01	-7.38187067707E+01	-5.96665978627E+00	-1.20305784124E+00
2.74104900545E+06	-1.07078022483E+01	-1.79618445683E+02	7.73290145948E+00	1.66736312501E+02	-4.70749097356E+01	-1.20100523460E+02	-5.98101561631E+00	-1.23616608288E+00
2.76324036004E+06	-1.18454864566E+01	-1.63628600597E+02	7.71925986868E+00	1.66781862411E+02	-4.47305327186E+01	6.47295746468E+01	-5.92466035486E+00	-1.25217257669E+00
2.78543171463E+06	-9.19776792199E+00	-1.71451823473E+02	7.75005486979E+00	1.66664801595E+02	-4.89779857185E+01	-1.24365097251E+02	-5.99356500220E+00	-1.29237554950E+00
2.80762306923E+06	-1.12770819007E+01	1.75065368729E+02	7.73638439518E+00	1.66310259892E+02	-4.74405538269E+01	3.49522849818E+01	-5.96471470323E+00	-1.26970767644E+00
2.82981442382E+06	-1.11583192301E+01	-1.76818710530E+02	7.75557700071E+00	1.66447349383E+02	-4.81983425881E+01	1.42739797662E+02	-5.98300793700E+00	-1.36405457358E+00
2.85200577842E+06	-1.10323557678E+01	-1.79136147597E+02	7.73717616042E+00	1.66203232395E+02	-4.75300378784E+01	-1.01901315212E+02	-5.97954372647E+00	-1.30024180971E+00
2.87419713301E+06	-9.73310963893E+00	1.66011510139E+02	7.78268802412E+00	1.66370964083E+02	-6.41032791848E+01	1.51039822636E+02	-5.95420779441E+00	-1.20638723025E+00
