# Hz S DB R 50
! CMT, M5065, 19127446, 24.2.4/2
! Date: 12/3/2024 4:19:32 PM
! Data: Format (Calibration Info)
! Freq	S11:dB/Ang(F2)	S21:dB/Ang(F2)	S12:dB/Ang(F2)	S22:dB/Ang(F2)
3.00000000000E+05	-6.10079294682E+00	-1.77217773218E+02	-7.07516490582E-01	9.09963044469E+01	-4.12945109020E+01	-1.10977089169E+02	-2.97489186546E+01	4.57703656379E-01
3.49972219135E+05	-4.91597030617E+00	-1.70149309502E+02	5.28764372703E-01	8.96542398443E+01	-4.78560210430E+01	-7.59586494351E+00	-3.05208549412E+01	2.92114304887E+00
3.99944438271E+05	-6.15392043303E+00	-1.78294582340E+02	1.90633706479E+00	8.90383517002E+01	-4.39554247369E+01	-4.72968897660E+01	-2.92726575204E+01	9.20908512756E-01
4.49916657406E+05	-5.23544952396E+00	-1.75515865216E+02	2.64538300587E+00	8.84191187473E+01	-4.46392733927E+01	4.08255479998E+01	-3.04093490025E+01	7.46128388557E+00
4.99888876542E+05	-5.13848075803E+00	1.79634072149E+02	3.60016875466E+00	8.80087091817E+01	-5.32967639498E+01	7.00227828275E+01	-3.04944822695E+01	7.10171697774E+00
5.49861095677E+05	-4.98013296852E+00	1.79600043837E+02	4.49436449203E+00	8.77109845930E+01	-5.29258217501E+01	1.44449040346E+02	-2.99750311788E+01	8.56631866415E-01
5.99833314813E+05	-5.14565323479E+00	-1.75883191501E+02	5.23824911552E+00	8.61274618815E+01	-5.35863312150E+01	-1.02096023783E+02	-2.97669032904E+01	8.16121384665E-01
6.49805533948E+05	-5.27572753290E+00	-1.79726036916E+02	5.97750560756E+00	8.64160168622E+01	-4.44962658188E+01	1.31748690628E+01	-2.98792737240E+01	1.01766328238E+01
6.99777753084E+05	-5.95855876877E+00	-1.78729893474E+02	6.65327320884E+00	8.51995483774E+01	-5.83950219789E+01	6.38391469647E+01	-2.99930781356E+01	4.80528788617E+00
7.49749972219E+05	-5.00049775912E+00	-1.73517735817E+02	7.16975210085E+00	8.41860269230E+01	-4.21409601553E+01	1.67863407082E+02	-3.04666066719E+01	-6.53463794981E+00
7.99722191355E+05	-5.08103755004E+00	1.79999910073E+02	7.73283034331E+00	8.48698223424E+01	-4.28866825379E+01	9.48833001059E+01	-3.14373770306E+01	2.55348157420E+00
8.49694410490E+05	-6.88255272210E+00	1.75552633417E+02	8.49382697819E+00	8.47663377308E+01	-4.60394346525E+01	-9.00472940549E+01	-2.91991060751E+01	-1.47956012238E-01
8.99666629626E+05	-5.62504235401E+00	1.77147855986E+02	8.86721164736E+00	8.40158723815E+01	-4.20356094387E+01	-1.74680902175E+02	-3.02376989463E+01	-1.61767381997E+00
9.49638848761E+05	-7.45717643591E+00	1.79491499710E+02	9.52950923084E+00	8.34508739349E+01	-4.67414231973E+01	-1.05680703864E+02	-2.97720194612E+01	2.99242768205E+00
9.99611067896E+05	-5.24992205502E+00	1.75281895576E+02	9.78827886741E+00	8.33545769775E+01	-5.26728851363E+01	8.15983785896E+01	-3.01309389229E+01	8.06987319010E+00
1.04958328703E+06	-5.25627534178E+00	-1.76502483238E+02	1.01588775852E+01	8.23518467053E+01	-5.14542081724E+01	-1.58282642554E+02	-2.99352840294E+01	5.23142047821E+00
1.09955550617E+06	-5.17097088337E+00	-1.78022138875E+02	1.05319540510E+01	8.16395374612E+01	-5.55465004588E+01	1.25843805915E+02	-3.00309773184E+01	3.98299143775E+00
1.14952772530E+06	-5.29462708347E+00	-1.77955676857E+02	1.09591976226E+01	8.09076365682E+01	-4.74411781291E+01	-6.88237603706E+00	-2.97522789612E+01	1.19889174996E+01
1.19949994444E+06	-6.30535245692E+00	1.77542729946E+02	1.14786979801E+01	8.16108924362E+01	-4.44434981633E+01	-5.34092518790E+01	-2.84841389694E+01	1.01252465495E+01
1.24947216357E+06	-6.81290954840E+00	1.76379702557E+02	1.18438791078E+01	8.09986534086E+01	-5.60506587437E+01	1.41212235663E+02	-3.12165430645E+01	4.05811708699E+00
1.29944438271E+06	-5.53594142242E+00	1.79983024426E+02	1.20335287737E+01	8.01349887885E+01	-4.33059074471E+01	-1.28884979452E+02	-2.84772029143E+01	-2.74838539386E+00
1.34941660184E+06	-5.92653416430E+00	-1.75848076831E+02	1.24268772699E+01	7.95549792064E+01	-6.28861126554E+01	-4.02067311507E+01	-2.95935798929E+01	7.72934189379E+00
1.39938882098E+06	-4.87643761916E+00	-1.75156074402E+02	1.25594875478E+01	7.88034945088E+01	-4.42568266121E+01	-7.99649776448E+01	-2.84570528209E+01	9.55289645650E+00
1.44936104012E+06	-5.17098439550E+00	-1.72519818450E+02	1.29257452290E+01	7.80431778872E+01	-4.58043780037E+01	1.34107533482E+02	-3.13868271060E+01	9.47703085763E+00
1.49933325925E+06	-5.93378310735E+00	1.76487391350E+02	1.33072321679E+01	7.90332540131E+01	-4.45525202099E+01	1.12193691368E+02	-3.23380872180E+01	1.26614267269E+01
1.54930547839E+06	-5.88758194567E+00	-1.78009599464E+02	1.35769380794E+01	7.79419157613E+01	-5.12275213021E+01	-1.51072637196E+02	-3.03827518718E+01	1.09324222159E+00
1.59927769752E+06	-5.60836879948E+00	1.75271399656E+02	1.38402403257E+01	7.84424943229E+01	-4.55297718312E+01	-1.15210240232E+02	-2.98510015769E+01	4.60184158407E+00
1.64924991666E+06	-5.84067873601E+00	1.78921671872E+02	1.41217124866E+01	7.77150477214E+01	-4.83543141137E+01	-4.58612785202E-02	-2.95657383137E+01	1.84316356481E+01
1.69922213579E+06	-6.46141181663E+00	-1.72570330728E+02	1.44407506020E+01	7.58276197001E+01	-3.91918874342E+01	-1.03868543434E+02	-2.71726447894E+01	-2.90437970767E+00
1.74919435493E+06	-5.25696003532E+00	-1.79953025170E+02	1.45546163191E+01	7.63259823875E+01	-4.05727303819E+01	-3.76841690172E+01	-2.69892307006E+01	1.45727033885E+01
1.79916657406E+06	-6.09318564708E+00	1.77589663694E+02	1.49164090670E+01	7.64560670200E+01	-4.69426324904E+01	4.49302372288E+01	-3.05013278477E+01	2.26228739242E+01
1.84913879320E+06	-4.53773589950E+00	1.79653389531E+02	1.49526545399E+01	7.58897611193E+01	-5.91462610683E+01	9.76963066017E+01	-3.11769122320E+01	8.31518534935E+00
1.89911101233E+06	-7.76280206871E+00	-1.77195773277E+02	1.56476537047E+01	7.43839745777E+01	-4.62857319118E+01	-4.14234932712E+01	-2.82352782969E+01	1.77466600049E+01
1.94908323147E+06	-5.97332518173E+00	1.76477442127E+02	1.55996053986E+01	7.58419046052E+01	-5.37948714518E+01	1.21476719033E+02	-3.13836874484E+01	1.62768107949E+01
1.99905545061E+06	-5.89317469578E+00	1.77692724681E+02	1.58062863794E+01	7.46653235158E+01	-4.44809141887E+01	-4.04122213150E+01	-2.82623689594E+01	1.73977542203E+01
2.04902766974E+06	-5.19258348323E+00	1.76191334547E+02	1.59303674253E+01	7.46446775722E+01	-5.09167314048E+01	-1.03607636673E+02	-2.89919290016E+01	1.15673666332E+01
2.09899988888E+06	-5.39765385551E+00	1.76511056533E+02	1.61834770478E+01	7.43477032851E+01	-6.34207462072E+01	6.37536510137E+01	-3.01702242813E+01	1.53459563018E+01
2.14897210801E+06	-5.53936754621E+00	-1.74681931228E+02	1.63796313288E+01	7.27294545120E+01	-7.02328884870E+01	1.36914149291E+02	-3.03586291363E+01	1.55349266876E+01
2.19894432715E+06	-5.10337839227E+00	1.74708720021E+02	1.65442940000E+01	7.38150796685E+01	-5.24349614684E+01	-7.94117605655E+00	-2.91986273507E+01	2.16707129268E+01
2.24891654628E+06	-5.34915479994E+00	-1.77053167008E+02	1.67552256583E+01	7.24759079044E+01	-4.78773169264E+01	-5.56064760653E+01	-2.87118224166E+01	1.25410049278E+01
2.29888876542E+06	-4.68314017916E+00	1.77362612708E+02	1.68406245521E+01	7.26116936417E+01	-5.49781060506E+01	1.31196217916E+02	-3.08821202156E+01	2.04471066306E+01
2.34886098455E+06	-5.97404193975E+00	-1.76737128500E+02	1.71903048825E+01	7.14779818734E+01	-5.19272665934E+01	-2.64391293868E+01	-2.88763756887E+01	8.65319378791E+00
2.39883320369E+06	-4.87341217280E+00	1.73697984340E+02	1.72608290406E+01	7.23540891649E+01	-6.05521436700E+01	-1.68218302194E+02	-3.00367251005E+01	1.38727407034E+01
2.44880542282E+06	-5.03068762742E+00	1.72562590234E+02	1.74923751119E+01	7.21597795608E+01	-4.52495533520E+01	-1.67268368352E+02	-3.12201820956E+01	4.48611924286E-01
2.49877764196E+06	-6.03731833386E+00	1.72558065985E+02	1.77907113424E+01	7.12764507030E+01	-4.65035041100E+01	1.16330675368E+02	-3.29850026073E+01	2.15644902677E+01
2.54874986110E+06	-5.23527369753E+00	1.78819079497E+02	1.78245197039E+01	7.05175565823E+01	-5.07269694434E+01	-1.18915166159E+02	-2.93125801130E+01	9.13136197460E+00
2.59872208023E+06	-5.52977788378E+00	1.73679074319E+02	1.80658710396E+01	7.05628506609E+01	-4.99575246272E+01	1.50483912425E+02	-3.14426278201E+01	8.03368382184E+00
2.64869429937E+06	-6.11725631080E+00	1.77196100108E+02	1.83242283865E+01	6.96468717908E+01	-4.89248267692E+01	-9.32774574549E+01	-2.87735103991E+01	1.21154464148E+01
2.69866651850E+06	-6.23861159455E+00	1.73826827029E+02	1.84538770796E+01	6.96656983505E+01	-4.47199401813E+01	-1.51801781621E+02	-3.03272224406E+01	-3.22010307066E+00
2.74863873764E+06	-5.79541403362E+00	1.72070734911E+02	1.86479648791E+01	6.92834959231E+01	-4.97724678122E+01	5.07614103145E+01	-2.98618146425E+01	3.12749357402E+01
2.79861095677E+06	-4.94088309189E+00	-1.78642138449E+02	1.86206868946E+01	6.80591540129E+01	-4.33593693790E+01	1.55297202078E+02	-3.44249743917E+01	1.21832912521E+01
2.84858317591E+06	-5.64241650442E+00	1.78735933697E+02	1.88780366455E+01	6.79957982726E+01	-5.32386102727E+01	-8.47324149969E+01	-2.91829216486E+01	1.25430777446E+01
2.89855539504E+06	-4.89863072789E+00	1.76320930839E+02	1.89289159066E+01	6.80234008449E+01	-4.37540389445E+01	-6.68035252687E+01	-2.69964850472E+01	1.02846372209E+01
2.94852761418E+06	-5.22596737245E+00	-1.74611659567E+02	1.90847643725E+01	6.63071479006E+01	-4.73504686764E+01	1.70695134339E+02	-3.30893367709E+01	6.27145007740E+00
2.99849983331E+06	-5.98553457549E+00	-1.75759425883E+02	1.93624197851E+01	6.59064661053E+01	-5.30013281840E+01	-3.70673313892E+01	-2.82003995913E+01	2.27792407350E+01
3.04847205245E+06	-5.82179323129E+00	1.76853456498E+02	1.94719841450E+01	6.64676063422E+01	-4.63159254054E+01	-1.63041287413E+02	-3.26194017934E+01	-1.64886998974E+00
3.09844427159E+06	-5.04817217976E+00	1.74456250661E+02	1.95402506121E+01	6.65779908358E+01	-4.70385297470E+01	-2.37585343896E+01	-2.74447370859E+01	2.34425006876E+01
3.14841649072E+06	-6.00738923060E+00	1.78274383995E+02	1.97496419515E+01	6.54540796163E+01	-4.74801816721E+01	-4.27681456878E+01	-2.71796353386E+01	1.93215229837E+01
3.19838870986E+06	-5.27018970943E+00	1.77089421840E+02	1.98198997726E+01	6.51983862657E+01	-4.78362189237E+01	6.54091824759E+01	-2.99801814796E+01	3.72017361679E+01
3.24836092899E+06	-6.91904251182E+00	1.78989463984E+02	2.01269875350E+01	6.44773365640E+01	-4.72810310213E+01	-6.83787050922E+01	-2.70208471992E+01	1.27221067266E+01
3.29833314813E+06	-6.15936998521E+00	1.79802957469E+02	2.01813049975E+01	6.39203148380E+01	-4.30743389206E+01	1.83798905118E+01	-2.65081469380E+01	3.95542164910E+01
3.34830536726E+06	-5.27368739829E+00	-1.78889121849E+02	2.02068097605E+01	6.36707586264E+01	-4.81138898476E+01	-1.02121533057E+01	-2.75986362852E+01	2.47509753842E+01
3.39827758640E+06	-5.74083665835E+00	1.77833576976E+02	2.04191351906E+01	6.34119872574E+01	-4.60414001918E+01	9.13464416050E+01	-3.30225312009E+01	6.49642043212E+01
3.44824980553E+06	-5.88701798909E+00	1.75844118924E+02	2.05927438107E+01	6.33256052531E+01	-4.90730062923E+01	-6.87671136720E+01	-2.81985539285E+01	1.35499245036E+01
3.49822202467E+06	-6.04728479226E+00	1.74260064224E+02	2.07307756784E+01	6.29799096593E+01	-4.34004908039E+01	-1.39639461302E+02	-3.09010785217E+01	-8.48764832846E+00
3.54819424380E+06	-5.35357261738E+00	-1.71502166720E+02	2.07028096863E+01	6.09034654097E+01	-4.14640658792E+01	1.32506701298E+02	-3.62585973291E+01	5.44356919080E+01
3.59816646294E+06	-5.81450871760E+00	1.75097143805E+02	2.09332629481E+01	6.22270394303E+01	-4.20221477236E+01	-5.69346812683E+00	-2.54931340402E+01	2.98654619439E+01
3.64813868208E+06	-6.08324300528E+00	1.76443075327E+02	2.11002312407E+01	6.17511759937E+01	-4.35492311135E+01	2.73566389550E+01	-2.64905495210E+01	4.18495304569E+01
3.69811090121E+06	-5.76187410430E+00	1.75369548651E+02	2.11770169795E+01	6.13159455708E+01	-4.91928579365E+01	-1.70523408312E+02	-3.23100063434E+01	1.45052678016E+01
3.74808312035E+06	-5.57401211662E+00	-1.79197572340E+02	2.12398474118E+01	6.04334349840E+01	-4.74712340222E+01	1.33656789873E+02	-3.06947266352E+01	3.41666299164E+01
3.79805533948E+06	-5.63057360396E+00	-1.71948258746E+02	2.13529467020E+01	5.89627121222E+01	-5.22553658185E+01	-7.30460644411E+01	-2.83977924964E+01	1.36205509942E+01
3.84802755862E+06	-6.43348356924E+00	-1.79915305763E+02	2.15800797409E+01	5.94167406374E+01	-4.97009497035E+01	1.51992079764E+02	-3.27444086074E+01	2.75180899547E+01
3.89799977775E+06	-6.44943294886E+00	-1.79404773746E+02	2.16922490411E+01	5.90069602559E+01	-5.15934315378E+01	-1.23558821018E+02	-2.96708547409E+01	1.06408662646E+01
3.94797199689E+06	-5.27727015578E+00	-1.79137397174E+02	2.16555600467E+01	5.89188744424E+01	-4.82212233797E+01	9.30909311372E+01	-3.02161408308E+01	4.81914034613E+01
3.99794421602E+06	-5.63046194785E+00	-1.78774577767E+02	2.18126128282E+01	5.82574328585E+01	-5.15521659398E+01	6.16426341825E+01	-2.91811228890E+01	3.99995438544E+01
4.04791643516E+06	-5.24337778118E+00	1.75239842451E+02	2.19166265497E+01	5.88509556979E+01	-4.36913507275E+01	-1.26983340387E+02	-3.09926205034E+01	-7.35327963228E+00
4.09788865429E+06	-5.76723818515E+00	1.75032919936E+02	2.20648049438E+01	5.83569460480E+01	-5.35294956584E+01	9.47002333650E+01	-2.92710279303E+01	3.71241314227E+01
4.14786087343E+06	-6.38726180647E+00	1.75072329681E+02	2.22505504108E+01	5.77129947913E+01	-4.25407613514E+01	-9.20050004928E+01	-2.65685277678E+01	-1.82096077422E+00
4.19783309257E+06	-5.88348209379E+00	-1.76116868108E+02	2.22518818573E+01	5.63622818458E+01	-5.07385268000E+01	1.75616666964E+02	-3.17398412265E+01	2.63985814355E+01
4.24780531170E+06	-5.63728617533E+00	1.78333184042E+02	2.23418509628E+01	5.66744988139E+01	-4.78151866159E+01	3.68312225806E+00	-2.67482231343E+01	3.41117221765E+01
4.29777753084E+06	-6.21795341313E+00	1.74621508758E+02	2.25385105432E+01	5.65192541354E+01	-4.49219497160E+01	-1.54809929684E+02	-3.33134637578E+01	-2.15652103930E+00
4.34774974997E+06	-6.42318933057E+00	-1.78984083357E+02	2.26602270053E+01	5.54912904237E+01	-4.51203977542E+01	-7.40272785052E+01	-2.70944350369E+01	7.69928449753E+00
4.39772196911E+06	-5.82065428142E+00	1.77483013758E+02	2.27297455944E+01	5.56393778851E+01	-4.95042537130E+01	8.42366102317E+01	-2.88352915676E+01	4.97552252266E+01
4.44769418824E+06	-6.19298466464E+00	1.79543234464E+02	2.28218660739E+01	5.48006818854E+01	-4.12209795272E+01	-5.52338185749E+01	-2.44174059069E+01	1.03795634913E+01
4.49766640738E+06	-6.72423604131E+00	1.78165666785E+02	2.29906885491E+01	5.44484992916E+01	-4.42036728941E+01	5.93217464026E+01	-2.54804033400E+01	6.00472865987E+01
4.54763862651E+06	-6.22123821748E+00	1.76891001021E+02	2.30455268659E+01	5.42836501518E+01	-4.56189210272E+01	-7.33485583477E+01	-2.71849671588E+01	1.19374603942E+01
4.59761084565E+06	-5.93906236751E+00	-1.77900870448E+02	2.30623604969E+01	5.33946884906E+01	-5.57766806239E+01	1.15258020517E+01	-2.79691740041E+01	3.79049808544E+01
4.64758306478E+06	-5.80651353903E+00	-1.77900722645E+02	2.31568520015E+01	5.28244941827E+01	-5.36194738118E+01	1.56696102512E+02	-3.15450333736E+01	3.51019686608E+01
4.69755528392E+06	-4.89976062038E+00	-1.78550772395E+02	2.31284408770E+01	5.29086286086E+01	-5.79973950572E+01	-1.01326267843E+02	-2.89763640745E+01	2.57107200508E+01
4.74752750306E+06	-6.11287610172E+00	1.78602541467E+02	2.34178803620E+01	5.23667999287E+01	-5.06996580258E+01	-6.40000512296E+01	-2.77010523325E+01	2.08692809426E+01
4.79749972219E+06	-6.15061431333E+00	1.79314628236E+02	2.34830276067E+01	5.20330607849E+01	-5.30891733748E+01	-7.46958453711E+01	-2.92775321401E+01	2.34368319749E+01
4.84747194133E+06	-6.76613044408E+00	1.73856894688E+02	2.36635305386E+01	5.20347037504E+01	-3.88831558233E+01	4.17922697528E+01	-2.24197634096E+01	4.52681877486E+01
4.89744416046E+06	-5.48748679955E+00	1.77782165215E+02	2.35924842976E+01	5.14128824436E+01	-6.51234241633E+01	-1.66134247430E+02	-2.97568988155E+01	3.38461228346E+01
4.94741637960E+06	-6.59508762401E+00	1.77441209312E+02	2.38131077610E+01	5.07899681170E+01	-5.60408325077E+01	-2.34928684610E+01	-2.77765678442E+01	3.09560320870E+01
4.99738859873E+06	-6.23759483885E+00	1.73137459146E+02	2.38830176333E+01	5.09008665324E+01	-4.16502400069E+01	-1.63602978224E+02	-4.03726014997E+01	-1.36400268052E+01
5.04736081787E+06	-5.06092915058E+00	1.78989123443E+02	2.37917142235E+01	5.02549760777E+01	-4.89209409597E+01	-3.21928387441E+01	-2.63606392160E+01	2.53868417324E+01
5.09733303700E+06	-6.13743775009E+00	1.75244173668E+02	2.40492699005E+01	4.98180277364E+01	-4.57165790171E+01	1.48269917200E+02	-3.36959833155E+01	6.53829363775E+01
5.14730525614E+06	-5.83851983216E+00	-1.78846594803E+02	2.40433994520E+01	4.90603859084E+01	-4.89140892860E+01	-8.55196111066E+01	-2.87613198789E+01	1.19951343635E+01
5.19727747528E+06	-5.55739298882E+00	-1.79849621899E+02	2.41119293735E+01	4.86311121164E+01	-4.77634064657E+01	1.44417985269E+02	-3.12290940708E+01	4.90280571470E+01
5.24724969441E+06	-5.85043238101E+00	-1.71972587060E+02	2.41921701810E+01	4.73127548917E+01	-4.12000259876E+01	-1.45829650188E+02	-3.41319012037E+01	-2.35531388926E+01
5.29722191355E+06	-6.30645889495E+00	-1.78401075928E+02	2.43671316415E+01	4.75483052639E+01	-4.65825478060E+01	5.93607228840E+01	-2.60915233178E+01	5.59539606546E+01
5.34719413268E+06	-7.39526642157E+00	1.77601801218E+02	2.45916905656E+01	4.72983307220E+01	-5.68008488217E+01	-1.61305169476E+02	-2.99517510130E+01	3.61271695565E+01
5.39716635182E+06	-6.34539112201E+00	1.76823563349E+02	2.45817572379E+01	4.72696019214E+01	-4.50888031800E+01	9.38354249849E+01	-2.69155107253E+01	6.71614703582E+01
5.44713857095E+06	-6.62108961351E+00	1.76511489497E+02	2.46478914414E+01	4.67834334314E+01	-5.47677590235E+01	-1.01792707510E+02	-2.96872736154E+01	2.44072981059E+01
5.49711079009E+06	-5.98374223674E+00	-1.79584842164E+02	2.46554776709E+01	4.59956999346E+01	-4.32099050395E+01	4.16922131073E+01	-2.40774612478E+01	4.99686873052E+01
5.54708300922E+06	-5.61817798523E+00	1.79526061111E+02	2.46925996500E+01	4.58084671366E+01	-4.97349463299E+01	5.51560354424E+01	-2.64721642799E+01	4.71313307217E+01
5.59705522836E+06	-5.49416971559E+00	-1.79299434872E+02	2.47680526302E+01	4.54550719159E+01	-4.61808983729E+01	-7.18223288590E+00	-2.48029371658E+01	3.18252429543E+01
5.64702744749E+06	-6.58293921318E+00	1.72583974284E+02	2.50035923766E+01	4.55747933329E+01	-4.74428422862E+01	1.72885775803E+02	-3.35323975138E+01	5.59218225648E+01
5.69699966663E+06	-5.41244251935E+00	1.72943299264E+02	2.49440525396E+01	4.55134433687E+01	-5.17264805263E+01	1.46357234373E+00	-2.64407750979E+01	3.58453604994E+01
5.74697188577E+06	-5.82350936239E+00	1.79036532243E+02	2.50660464943E+01	4.39341121569E+01	-5.54980993129E+01	-2.49982734380E+01	-2.52758511230E+01	1.56075491885E+01
5.79694410490E+06	-5.95855082610E+00	1.78622040885E+02	2.51042982754E+01	4.39553015857E+01	-4.79371043405E+01	-9.08278437354E+00	-2.52645469155E+01	3.33391021638E+01
5.84691632404E+06	-6.11383001792E+00	-1.79907006061E+02	2.52184515484E+01	4.32314945568E+01	-4.63593931134E+01	4.54041902034E+01	-2.45986499415E+01	5.09780038478E+01
5.89688854317E+06	-5.35394712293E+00	-1.78523948486E+02	2.51981339613E+01	4.28438812081E+01	-5.20465118494E+01	1.10199015927E+02	-2.90630871455E+01	5.60288454381E+01
5.94686076231E+06	-6.55347599537E+00	1.79399336158E+02	2.54427946449E+01	4.23094628771E+01	-5.20572008096E+01	9.12719313783E+01	-2.76994659202E+01	5.21934910384E+01
5.99683298144E+06	-6.40563319809E+00	1.78929176741E+02	2.54768999745E+01	4.20877941485E+01	-5.91937510173E+01	-1.25245118583E+02	-3.01113195200E+01	3.63855850219E+01
6.04680520058E+06	-6.97237830474E+00	-1.78711453121E+02	2.55997790543E+01	4.11087139719E+01	-4.57494706144E+01	-6.55694511368E+01	-2.64092877756E+01	1.23788592497E+01
6.09677741971E+06	-5.60412674921E+00	1.79226970729E+02	2.55496068033E+01	4.15210917944E+01	-4.78186761628E+01	1.77802870884E+02	-3.17704848151E+01	5.54211739527E+01
6.14674963885E+06	-5.35807243586E+00	1.77829735394E+02	2.56232525847E+01	4.13000877798E+01	-4.43965805125E+01	9.22486008157E+01	-2.52472486294E+01	7.12671455058E+01
