# Hz S DB R 50
! CMT, M5065, 19127446, 24.2.4/2
! Date: 12/3/2024 4:18:19 PM
! Data: Format (Calibration Info)
! Freq	S11:dB/Ang(F2)	S21:dB/Ang(F2)	S12:dB/Ang(F2)	S22:dB/Ang(F2)
3.00000000000E+05	-5.72353471836E+00	1.79797142169E+02	3.26075333604E+01	8.16825052694E+01	-5.23164553454E+01	-6.13629506229E+01	-2.46139160501E+01	-8.01736639230E+00
3.49972219135E+05	-4.63655242144E+00	1.79238276355E+02	3.36399859094E+01	7.50761692164E+01	-4.36349873747E+01	-2.09962173760E+01	-2.05014292212E+01	4.25668558345E+01
3.99944438271E+05	-5.30065631164E+00	-1.78519300666E+02	3.47013019728E+01	6.89711320217E+01	-5.96544960885E+01	9.24252876483E+01	-4.73143931600E+01	1.08796503369E+02
4.49916657406E+05	-6.26560451298E+00	-1.79778608115E+02	3.55643427049E+01	6.43173565713E+01	-4.01408959970E+01	-6.43633173625E+01	-1.55207937036E+01	-2.10158648974E+00
4.99888876542E+05	-5.16723396325E+00	1.73932653399E+02	3.60809082765E+01	6.07433233627E+01	-5.50387474714E+01	1.47550275952E+02	-4.35401844498E+01	-1.16923319669E+02
5.49861095677E+05	-5.86019718430E+00	-1.76341609705E+02	3.67227980141E+01	5.56331118010E+01	-4.57011323252E+01	-7.06691560072E+01	-1.98000216640E+01	-6.26946564145E+00
5.99833314813E+05	-6.04038333191E+00	-1.77732081204E+02	3.71773248796E+01	5.22105918931E+01	-4.35436191332E+01	-1.53589467142E+02	-2.02557200349E+01	-9.06905136658E+01
6.49805533948E+05	-4.79258502879E+00	-1.77836401378E+02	3.73853778309E+01	4.87984231063E+01	-4.49946258092E+01	1.72819235810E+02	-2.10920481928E+01	-1.39580069165E+02
6.99777753084E+05	-5.94823195333E+00	-1.78708820769E+02	3.78878412928E+01	4.59414537488E+01	-4.13603531425E+01	-1.30774997925E+02	-1.60819757506E+01	-8.08592561535E+01
7.49749972219E+05	-5.74908024210E+00	-1.76642799945E+02	3.81237301127E+01	4.28999274945E+01	-4.03888645351E+01	5.09629254534E+01	-1.37308922142E+01	8.60153215630E+01
7.99722191355E+05	-6.01925880499E+00	1.77512208517E+02	3.84396384457E+01	4.09791751578E+01	-4.53208789534E+01	1.14597774482E+02	-2.00453248587E+01	1.42736684786E+02
8.49694410490E+05	-4.65239858638E+00	1.79688990605E+02	3.84442767021E+01	3.86136833392E+01	-4.92217287935E+01	4.00678037744E+01	-2.14852451615E+01	6.90163708628E+01
8.99666629626E+05	-5.82627299178E+00	1.78722654860E+02	3.87905648159E+01	3.60968623422E+01	-4.78090787777E+01	4.93870173633E+01	-1.95001373629E+01	6.92266338048E+01
9.49638848761E+05	-5.30374162843E+00	-1.76486523329E+02	3.89024322482E+01	3.34971118274E+01	-4.99944709698E+01	-1.02479728264E+01	-2.09506512704E+01	2.17977298894E+01
9.99611067896E+05	-5.97221263915E+00	1.74473205541E+02	3.91472099176E+01	3.26683757024E+01	-4.48747555392E+01	-3.01922617261E+01	-1.62375813376E+01	1.59194010449E+00
1.04958328703E+06	-5.95048022194E+00	1.73700201253E+02	3.92736728532E+01	3.09210578661E+01	-5.12714866498E+01	-6.34261946749E+01	-2.10570262711E+01	-2.37745508406E+01
1.09955550617E+06	-5.44990031564E+00	1.79909509975E+02	3.92988991296E+01	2.83488586835E+01	-4.07569686600E+01	3.71655484306E+01	-1.26993874377E+01	5.71085174281E+01
1.14952772530E+06	-4.62216304295E+00	-1.75307873231E+02	3.93003024561E+01	2.60126407415E+01	-5.31531307958E+01	-1.38894382481E+02	-2.75639447861E+01	-8.95126683562E+01
1.19949994444E+06	-5.78963061920E+00	1.76208885752E+02	3.95525880472E+01	2.57947186637E+01	-4.64609916066E+01	3.57441927607E+01	-1.68652390470E+01	4.69184851942E+01
1.24947216357E+06	-5.82784360922E+00	-1.78119931107E+02	3.96193209251E+01	2.35859569871E+01	-4.04592348750E+01	4.47778153236E+01	-1.19994022888E+01	5.92218346900E+01
1.29944438271E+06	-5.89106004392E+00	1.76599216954E+02	3.97046984434E+01	2.27139902685E+01	-5.35128271120E+01	1.47057846700E+02	-2.83054588294E+01	1.32148856135E+02
1.34941660184E+06	-5.64796056790E+00	-1.79933594526E+02	3.97470021881E+01	2.10042284830E+01	-5.13805759156E+01	2.68383962795E+01	-2.02368710436E+01	3.88402626125E+01
1.39938882098E+06	-6.85216508858E+00	1.73943752451E+02	3.99789674839E+01	2.02203681452E+01	-5.19584217838E+01	1.26265417116E+01	-2.04422457368E+01	2.82807648511E+01
1.44936104012E+06	-5.54010396488E+00	1.75588365063E+02	3.98853154259E+01	1.90116682167E+01	-4.69434991948E+01	-2.65743183784E+01	-1.66876534796E+01	-8.69755099747E+00
1.49933325925E+06	-6.02136992250E+00	-1.78842664722E+02	3.99622459498E+01	1.71060459156E+01	-4.94427835368E+01	6.37502577482E+01	-1.99967216232E+01	6.33689919470E+01
1.54930547839E+06	-5.85713898810E+00	-1.79890860282E+02	4.00200305368E+01	1.60998989512E+01	-5.38818703438E+01	2.98962937405E+01	-2.24478900476E+01	3.03961358880E+01
1.59927769752E+06	-5.65695472239E+00	1.73761978312E+02	4.00385739715E+01	1.57756741555E+01	-4.47320284645E+01	1.69622476947E+02	-1.81292227443E+01	1.73656678960E+02
1.64924991666E+06	-6.13346636443E+00	1.76266397995E+02	4.01261039319E+01	1.46085082308E+01	-4.98063739796E+01	4.42433513166E+01	-1.78717636135E+01	4.22461383152E+01
1.69922213579E+06	-5.97254689777E+00	-1.77659648619E+02	4.01374954247E+01	1.26726764761E+01	-5.23769059556E+01	-9.98878688662E+01	-4.63243210681E+01	1.42515683902E+02
1.74919435493E+06	-5.06739067280E+00	-1.77681471201E+02	4.00589435993E+01	1.17649026511E+01	-4.53387886280E+01	-3.56572809383E+01	-1.57320062170E+01	-2.04229700206E+01
1.79916657406E+06	-6.63254958891E+00	1.76572882150E+02	4.03011620602E+01	1.12846586259E+01	-4.25856246299E+01	1.51785180195E+02	-1.54861266641E+01	1.50066164227E+02
1.84913879320E+06	-7.36023023958E+00	-1.79472830243E+02	4.04037057103E+01	9.77212513854E+00	-4.32635098484E+01	1.44257050370E+02	-1.59167243846E+01	1.35598348795E+02
1.89911101233E+06	-5.24751000022E+00	-1.76304780090E+02	4.01720727894E+01	8.75856486297E+00	-5.57905630084E+01	9.47772951784E+01	-2.43114048794E+01	5.32541241787E+01
1.94908323147E+06	-5.51830779926E+00	1.72101055446E+02	4.02633083258E+01	9.22248898831E+00	-5.32118380505E+01	7.35408366325E+00	-2.15607355451E+01	1.35840722796E+01
1.99905545061E+06	-6.83989838877E+00	1.77070919319E+02	4.04040420591E+01	7.74988969537E+00	-4.61699980838E+01	1.49721841228E+02	-1.83696141144E+01	1.38600676524E+02
2.04902766974E+06	-5.33377069096E+00	1.74755261453E+02	4.02794293730E+01	7.30265820306E+00	-4.79560308769E+01	1.79384909182E+02	-2.38032925011E+01	-1.64889137352E+02
2.09899988888E+06	-6.45435782539E+00	-1.76973572845E+02	4.04301324000E+01	5.34051616378E+00	-4.46672667070E+01	-5.02071302836E+01	-1.56468078472E+01	-4.31427833491E+01
2.14897210801E+06	-6.07340465450E+00	-1.74102017784E+02	4.03670461226E+01	4.22502317121E+00	-4.78086332803E+01	-1.65642535024E+02	-2.19485580582E+01	-1.74108534696E+02
2.19894432715E+06	-5.60030909453E+00	1.77520345585E+02	4.03772475168E+01	4.70884082963E+00	-4.58503319337E+01	1.37431632748E+02	-1.78025396887E+01	1.16596278573E+02
2.24891654628E+06	-5.59161953522E+00	1.77609371599E+02	4.04010146912E+01	3.80226590922E+00	-4.96974806370E+01	7.77268838340E-01	-1.85564658548E+01	2.33741837557E+00
2.29888876542E+06	-7.03420367019E+00	1.73006382738E+02	4.05800758698E+01	3.32343405230E+00	-6.07575369667E+01	6.13197296509E+01	-2.51850912021E+01	3.41274007042E+01
2.34886098455E+06	-6.75678073258E+00	1.69251025432E+02	4.06118377538E+01	3.13153313830E+00	-5.30976921256E+01	5.44951115250E+01	-2.05821278659E+01	4.23488694122E+01
2.39883320369E+06	-6.33838956213E+00	-1.73903732270E+02	4.05107490467E+01	5.59243439052E-01	-4.01235704785E+01	-6.07900848741E+01	-1.15604697043E+01	-5.87009863275E+01
2.44880542282E+06	-5.26618741729E+00	1.75415789284E+02	4.04173413073E+01	1.34233699215E+00	-4.90404639161E+01	-7.26557563711E+01	-2.09341870715E+01	-6.59657039655E+01
2.49877764196E+06	-5.14116001012E+00	1.79612487953E+02	4.03994980726E+01	1.32378837590E-02	-4.72289407713E+01	-4.91394541595E+01	-1.82782652945E+01	-4.34339244487E+01
2.54874986110E+06	-5.66389575813E+00	1.79387671493E+02	4.04845737009E+01	-7.39086806282E-01	-3.79346557786E+01	1.40020569043E+02	-9.38474439944E+00	1.25204095004E+02
2.59872208023E+06	-6.95690794010E+00	-1.74962195182E+02	4.06485614815E+01	-2.17736796218E+00	-5.29022565621E+01	9.81591901658E+01	-2.09632591296E+01	7.01838830820E+01
2.64869429937E+06	-5.35024548733E+00	1.75542018970E+02	4.04834073184E+01	-1.52975890042E+00	-5.03270556482E+01	-1.29022042677E+02	-2.73715822723E+01	-1.35637363720E+02
2.69866651850E+06	-6.93812212873E+00	1.76954819766E+02	4.06490685536E+01	-2.77952014817E+00	-4.73617270736E+01	-6.45298470535E+00	-1.69720598049E+01	-7.30882748320E+00
2.74863873764E+06	-6.35174327594E+00	-1.74200409424E+02	4.06007599836E+01	-4.21841193432E+00	-4.83756735904E+01	2.43738463997E+01	-1.89657366651E+01	1.83708139708E+01
2.79861095677E+06	-5.65803473324E+00	-1.78041946890E+02	4.05172369074E+01	-4.27687525327E+00	-4.47969947113E+01	-4.41812015777E-01	-1.46760229879E+01	-2.71808285161E+00
2.84858317591E+06	-5.11817529698E+00	1.75623632599E+02	4.04829009894E+01	-4.04963626283E+00	-5.44757581679E+01	1.58791927915E+02	-2.53651920404E+01	1.07223008792E+02
2.89855539504E+06	-5.63056288151E+00	1.74674543856E+02	4.05642594539E+01	-4.60768789447E+00	-4.82966733935E+01	-1.51736471100E+02	-2.24564154267E+01	1.74363715173E+02
2.94852761418E+06	-5.82327110630E+00	-1.77443049388E+02	4.05498774746E+01	-6.37039109218E+00	-4.38232245693E+01	4.57426989703E+01	-1.39974035822E+01	3.00679200132E+01
2.99849983331E+06	-5.67124920046E+00	-1.71942378178E+02	4.05186891812E+01	-7.51799628967E+00	-3.99862065316E+01	-6.47986740015E+01	-1.15490214825E+01	-7.38663067064E+01
3.04847205245E+06	-5.49851080830E+00	1.78687634465E+02	4.05154348495E+01	-6.93165272006E+00	-4.96255927648E+01	-8.88400723680E+00	-1.98156719015E+01	-1.49515015104E+01
3.09844427159E+06	-6.88994147382E+00	1.79486679195E+02	4.07097490843E+01	-7.71793186773E+00	-5.33211449326E+01	-1.25917845391E+02	-2.64176877220E+01	-1.73063813345E+02
3.14841649072E+06	-5.34862555166E+00	1.79023929294E+02	4.05461017051E+01	-8.04485464281E+00	-4.48455751272E+01	6.65756650165E+01	-1.48734213099E+01	4.71763725344E+01
3.19838870986E+06	-6.36837167812E+00	-1.78405074047E+02	4.06353261495E+01	-8.98292321964E+00	-4.95235151331E+01	-1.06984839054E+02	-2.49115697615E+01	-1.23818410605E+02
3.24836092899E+06	-6.02770135699E+00	1.79662354305E+02	4.06384043792E+01	-9.40848404990E+00	-4.35633226749E+01	-1.47626555454E+02	-1.65229927452E+01	-1.73934902285E+02
3.29833314813E+06	-6.03695527573E+00	-1.76773981080E+02	4.06226036975E+01	-1.04672521809E+01	-4.46665406407E+01	-2.36190984945E+01	-1.57811081838E+01	-3.54547975444E+01
3.34830536726E+06	-6.70941584341E+00	1.77544013878E+02	4.07434088598E+01	-1.04090035084E+01	-4.89901323163E+01	7.53483451674E+01	-1.80281837137E+01	4.99075722881E+01
3.39827758640E+06	-5.89725431910E+00	1.78646029201E+02	4.06245865832E+01	-1.07816627497E+01	-4.59878854905E+01	-5.35777492599E+01	-1.84219644740E+01	-6.12762589469E+01
3.44824980553E+06	-6.21921939524E+00	1.73077435105E+02	4.07026504814E+01	-1.08189363496E+01	-4.62492838575E+01	-6.20329252052E+00	-1.66347763813E+01	-1.44324669463E+01
3.49822202467E+06	-6.30226863699E+00	1.73062914790E+02	4.06942530996E+01	-1.13604480768E+01	-4.10316209886E+01	1.41583405843E+02	-1.23575757403E+01	1.10066377933E+02
3.54819424380E+06	-5.55252919878E+00	-1.74755956560E+02	4.05806508754E+01	-1.33158376382E+01	-4.73444301460E+01	1.76172194002E+02	-2.04372155464E+01	1.37818351275E+02
3.59816646294E+06	-5.54926317319E+00	1.76524936168E+02	4.05892395410E+01	-1.27745776394E+01	-4.27575581876E+01	7.31044447220E-01	-1.35063349458E+01	-1.62265947997E+01
3.64813868208E+06	-6.49901152552E+00	1.74269005139E+02	4.07365719057E+01	-1.30720212837E+01	-5.09603473918E+01	4.88180021697E+01	-1.91920140720E+01	2.60749306061E+01
3.69811090121E+06	-5.18693639144E+00	1.79215593323E+02	4.05726307431E+01	-1.39122165976E+01	-4.72059528166E+01	1.03770277045E+02	-1.66259723288E+01	6.65608129835E+01
3.74808312035E+06	-5.85806632629E+00	-1.79181251076E+02	4.06403722405E+01	-1.45956036239E+01	-4.69843169244E+01	-4.55283959846E+01	-1.89515958445E+01	-4.94551315212E+01
3.79805533948E+06	-5.60164577538E+00	-1.79473960879E+02	4.06124463649E+01	-1.51529115777E+01	-4.10724180788E+01	-1.94507647744E+01	-1.26176632614E+01	-4.77255745857E+01
3.84802755862E+06	-4.78779249317E+00	1.78225206886E+02	4.05230068085E+01	-1.51918616465E+01	-4.69930030476E+01	7.09135539853E+01	-1.63310716899E+01	3.65329228167E+01
3.89799977775E+06	-6.25176514010E+00	1.73896625833E+02	4.07285706104E+01	-1.54574693917E+01	-4.86022877126E+01	-1.02445093540E+02	-2.47041918455E+01	-1.28421576524E+02
3.94797199689E+06	-5.91647220891E+00	1.79735968693E+02	4.06804184086E+01	-1.64150338618E+01	-4.75497001529E+01	1.68420979549E+02	-1.89272555707E+01	1.17689263642E+02
3.99794421602E+06	-5.63487166825E+00	-1.76023094623E+02	4.05959014677E+01	-1.77286963401E+01	-5.41072748322E+01	-1.45948378124E+02	-3.01704964212E+01	1.44004432097E+02
4.04791643516E+06	-5.74384853387E+00	1.76455923447E+02	4.06655060131E+01	-1.72269017978E+01	-5.07789073281E+01	1.50234572835E+02	-2.11052924710E+01	9.78167725712E+01
4.09788865429E+06	-6.59667388528E+00	-1.76417470762E+02	4.07445978312E+01	-1.88267655624E+01	-5.25156963724E+01	1.34822971895E+02	-2.10982426077E+01	7.27186090699E+01
4.14786087343E+06	-5.62993854868E+00	1.76583901542E+02	4.06625593134E+01	-1.80358134736E+01	-4.78403980279E+01	1.52848273201E+02	-1.88701302793E+01	9.79682701006E+01
4.19783309257E+06	-7.29655894291E+00	1.78363126923E+02	4.08499095265E+01	-1.92352341349E+01	-5.73347903029E+01	-1.55353020416E+02	-2.95978563013E+01	8.80567280674E+01
4.24780531170E+06	-6.40608231350E+00	1.74881190750E+02	4.07736804382E+01	-1.91023771846E+01	-4.68014473166E+01	-3.66582001340E+01	-1.84453116074E+01	-4.94024974494E+01
4.29777753084E+06	-6.48700413395E+00	-1.78217298103E+02	4.07441048047E+01	-2.03550598176E+01	-5.52376419816E+01	1.70208284674E+01	-2.19988894018E+01	9.01000419555E+00
4.34774974997E+06	-6.17324272768E+00	1.78481674711E+02	4.07268768955E+01	-2.03955125797E+01	-3.97177111279E+01	-1.09301204972E+02	-1.24394205627E+01	-1.44770021328E+02
4.39772196911E+06	-5.12311404288E+00	1.76963628308E+02	4.05977793906E+01	-2.01913292179E+01	-4.64587927035E+01	-1.31977829318E+02	-2.08128268538E+01	-1.77411701709E+02
4.44769418824E+06	-6.37334511544E+00	1.72891747444E+02	4.08001425744E+01	-2.09558282231E+01	-5.31360605084E+01	6.27737314236E+01	-2.10341842436E+01	2.92636641782E+01
4.49766640738E+06	-6.57318513985E+00	-1.76468720420E+02	4.07291097414E+01	-2.23669986738E+01	-5.09825504466E+01	6.47716640452E+01	-1.97005172620E+01	1.50602320052E+01
4.54763862651E+06	-6.23993220226E+00	-1.78004355475E+02	4.07238617887E+01	-2.25889232509E+01	-6.15657559487E+01	-1.26750787959E+02	-3.08305431808E+01	4.47893729529E+01
4.59761084565E+06	-7.28811613051E+00	1.77825242817E+02	4.08335153644E+01	-2.27481605245E+01	-4.78910942800E+01	8.86310408797E+01	-1.68577867778E+01	4.63206114714E+01
4.64758306478E+06	-5.38862338186E+00	-1.77444207698E+02	4.06215802205E+01	-2.33415022811E+01	-4.69624312495E+01	-1.14786851823E+02	-2.23027539610E+01	-1.57705248258E+02
4.69755528392E+06	-6.84930664431E+00	-1.78545868642E+02	4.07975626067E+01	-2.39752713118E+01	-4.59311600212E+01	6.63702673137E+00	-1.65330581433E+01	-1.72219448852E+01
4.74752750306E+06	-6.87308670768E+00	-1.79870296818E+02	4.07938940036E+01	-2.43208121667E+01	-4.31340593345E+01	-1.30950009388E+02	-1.68362027464E+01	-1.77196711352E+02
4.79749972219E+06	-5.33050753503E+00	1.77275546299E+02	4.06907943978E+01	-2.40727109125E+01	-4.41939792422E+01	2.22499105308E+01	-1.44128443390E+01	-1.03372549676E+01
4.84747194133E+06	-5.79023259971E+00	-1.79231423784E+02	4.06746968524E+01	-2.49643656526E+01	-4.99358752517E+01	1.62373012070E+02	-2.05326193762E+01	1.00398066279E+02
4.89744416046E+06	-5.38881724640E+00	1.73252856455E+02	4.06685263748E+01	-2.43655496577E+01	-4.74941509681E+01	1.14681841277E+02	-1.80631120287E+01	6.32285939173E+01
4.94741637960E+06	-5.18981360940E+00	1.72720321843E+02	4.06815133113E+01	-2.47374048308E+01	-4.11485751311E+01	1.51231135929E+02	-1.22810943946E+01	9.88739702245E+01
4.99738859873E+06	-5.71171827139E+00	1.79186145101E+02	4.06583534557E+01	-2.60050497344E+01	-4.57681951506E+01	1.67386313026E+02	-1.68572676187E+01	1.07042741196E+02
5.04736081787E+06	-5.07527107746E+00	-1.77615985284E+02	4.05858493481E+01	-2.67589089679E+01	-5.05798173823E+01	-1.31775048282E+02	-2.77476874275E+01	1.55365111039E+02
5.09733303700E+06	-5.49712704800E+00	-1.78134467335E+02	4.06335778168E+01	-2.72680335562E+01	-4.34328306556E+01	1.85090780163E+00	-1.42923122845E+01	-2.90184407606E+01
5.14730525614E+06	-5.74922700163E+00	1.78596236489E+02	4.06591027256E+01	-2.72196573029E+01	-5.08243483327E+01	-4.42990709770E+01	-2.73505339797E+01	-5.41697919565E+01
5.19727747528E+06	-6.87137545151E+00	1.76278589782E+02	4.08192221049E+01	-2.79168540252E+01	-4.92762274338E+01	-1.71154440981E+02	-2.10285502429E+01	1.12766360616E+02
5.24724969441E+06	-5.96395563229E+00	1.75684062308E+02	4.07547858731E+01	-2.79468745911E+01	-5.55481334937E+01	-1.28399075724E+02	-3.33383162488E+01	1.40792742896E+02
5.29722191355E+06	-5.21297069414E+00	1.74064784179E+02	4.06607255832E+01	-2.80223070909E+01	-5.00378227180E+01	-1.36381693366E+02	-2.43070119136E+01	1.52190905830E+02
5.34719413268E+06	-5.94438536476E+00	1.73229889324E+02	4.07586170762E+01	-2.85437625501E+01	-4.87329720916E+01	8.48194684848E+01	-1.69975047287E+01	3.95648263852E+01
5.39716635182E+06	-5.94821888029E+00	1.77320610272E+02	4.07309553105E+01	-2.93805536184E+01	-5.07791464379E+01	1.16903628119E+02	-1.96544835940E+01	5.92582646097E+01
5.44713857095E+06	-6.34640928368E+00	1.76522371580E+02	4.07849241280E+01	-2.98428296067E+01	-5.10496278816E+01	1.35804213018E+02	-1.94690116336E+01	6.94117602205E+01
5.49711079009E+06	-6.07430044282E+00	1.78315382473E+02	4.07553987568E+01	-3.04510912631E+01	-4.09814375818E+01	4.20581539564E+01	-1.13747385707E+01	2.98037719441E-01
5.54708300922E+06	-5.62059906916E+00	1.77970540383E+02	4.07110883882E+01	-3.06677992732E+01	-4.63551644166E+01	-4.93862483692E+01	-2.07259638937E+01	-8.16106268864E+01
5.59705522836E+06	-6.00601054512E+00	1.79894707414E+02	4.07339743962E+01	-3.15402169014E+01	-4.58908453596E+01	6.41913248630E+01	-1.46691982626E+01	1.88011190468E+01
5.64702744749E+06	-5.84912167931E+00	-1.76201822906E+02	4.06982697680E+01	-3.21087990957E+01	-5.08269422365E+01	1.34192196072E+02	-1.90109466193E+01	6.59570727200E+01
5.69699966663E+06	-5.98368249465E+00	1.77045210968E+02	4.07473314478E+01	-3.19373536232E+01	-6.22297148392E+01	-3.75201970521E+01	-2.92381980287E+01	1.95067080859E+01
5.74697188577E+06	-5.97144265753E+00	1.71827105024E+02	4.07574363087E+01	-3.14886564769E+01	-4.94548131291E+01	4.34051166877E+00	-3.43388751881E+01	-2.67993737489E+01
5.79694410490E+06	-6.54391485213E+00	1.78264298690E+02	4.08133631516E+01	-3.30139032560E+01	-6.59245562674E+01	1.70535355483E+02	-2.62688767037E+01	4.99313812209E+01
5.84691632404E+06	-5.92798405028E+00	1.77651514015E+02	4.07596387130E+01	-3.30740623556E+01	-5.62514441426E+01	-1.48014815517E+02	-2.69476306343E+01	8.91657570928E+01
5.89688854317E+06	-5.48007353614E+00	1.79245486283E+02	4.07191437042E+01	-3.36633815015E+01	-4.49453572647E+01	7.55559733058E+01	-1.41810211338E+01	2.88801256673E+01
5.94686076231E+06	-6.08633070449E+00	1.72027741936E+02	4.08138781336E+01	-3.35024514978E+01	-4.48512628899E+01	1.21934593409E+02	-1.50745766035E+01	6.06053225970E+01
5.99683298144E+06	-5.88530763879E+00	1.77585895844E+02	4.07467801646E+01	-3.44054260630E+01	-4.37908512177E+01	-1.57442329791E+02	-1.62542061263E+01	1.32113617920E+02
6.04680520058E+06	-5.31156952234E+00	1.76868712178E+02	4.07081444712E+01	-3.46547413460E+01	-4.36859630337E+01	1.75129643229E+02	-1.49985511645E+01	1.05942895489E+02
6.09677741971E+06	-6.26789687614E+00	1.76208743038E+02	4.08179417090E+01	-3.52535415137E+01	-6.07473181162E+01	-1.13347925697E+02	-3.08308883711E+01	7.51336304837E+01
6.14674963885E+06	-6.20851753550E+00	-1.79681410588E+02	4.07912118920E+01	-3.60862339219E+01	-5.07008868576E+01	-1.54803447005E+02	-2.33051917744E+01	1.17549320465E+02
