# Hz S DB R 50
! CMT, M5065, 19127446, 24.2.4/2
! Date: 12/3/2024 4:20:16 PM
! Data: Format (Calibration Info)
! Freq	S11:dB/Ang(F2)	S21:dB/Ang(F2)	S12:dB/Ang(F2)	S22:dB/Ang(F2)
3.00000000000E+05	-5.65866044979E+00	-1.78257173734E+02	8.50327156998E+00	9.15578469902E+01	-4.35166530422E+01	-8.49989386187E+01	-2.91469562905E+01	3.38392279475E+00
3.49972219135E+05	-5.19684381499E+00	-1.78084547318E+02	9.75740999534E+00	9.05081171088E+01	-4.03325085110E+01	-9.24763362731E+01	-2.63347869668E+01	-8.84625917924E+00
3.99944438271E+05	-6.36126832161E+00	-1.77986848921E+02	1.10883202930E+01	8.91274447948E+01	-4.85537732789E+01	1.05315682932E+02	-3.29457773260E+01	-7.17793690758E+00
4.49916657406E+05	-5.72783533675E+00	-1.79056613254E+02	1.20210584204E+01	8.81120233527E+01	-4.83427203106E+01	9.52022786924E+00	-3.10999260426E+01	1.39236925911E+01
4.99888876542E+05	-6.31514501519E+00	1.79055284332E+02	1.30227227208E+01	8.75548124399E+01	-4.55404921062E+01	-1.41267496743E+02	-2.94430390237E+01	-5.88812154751E+00
5.49861095677E+05	-5.87937783118E+00	-1.77959227978E+02	1.37752742403E+01	8.63172300188E+01	-4.73181653297E+01	-7.70379894538E+00	-2.96255793230E+01	1.37305556910E+01
5.99833314813E+05	-6.54419967882E+00	1.79851945930E+02	1.45625098503E+01	8.55999198524E+01	-4.30599928397E+01	1.49673406326E+02	-3.12480541404E+01	-1.34223808472E+01
6.49805533948E+05	-5.72070759210E+00	-1.78611269732E+02	1.52617819329E+01	8.49307848501E+01	-4.68496279971E+01	-8.45136657226E-01	-2.99098943274E+01	1.30257785806E+01
6.99777753084E+05	-4.90047882494E+00	-1.78393858407E+02	1.57762654171E+01	8.38998974306E+01	-4.43857135165E+01	-1.73340365994E+02	-3.06941575318E+01	-1.92439294027E+01
7.49749972219E+05	-5.57241611163E+00	1.78240966683E+02	1.63928561596E+01	8.33872252947E+01	-4.88819348683E+01	1.63957235206E+02	-3.07417405716E+01	3.43574833955E-01
7.99722191355E+05	-6.20773224448E+00	1.77071124330E+02	1.70929811958E+01	8.30786302052E+01	-4.15662019965E+01	-3.84450547835E+01	-2.76967321751E+01	2.11766502759E+01
8.49694410490E+05	-5.42091812871E+00	1.76576822690E+02	1.75217250294E+01	8.23748895610E+01	-4.06689513098E+01	-7.83475574639E+01	-2.67205706828E+01	3.56628226844E+00
8.99666629626E+05	-6.52465195331E+00	-1.78987952731E+02	1.81336090120E+01	8.13631414106E+01	-5.17435759673E+01	1.46152062898E+02	-3.22323377683E+01	3.89177911226E+00
9.49638848761E+05	-5.78627367159E+00	1.75706637106E+02	1.85286969842E+01	8.13501953333E+01	-4.92028018467E+01	6.55784621932E+01	-3.19918976698E+01	2.86894503527E+01
9.99611067896E+05	-6.11935298802E+00	-1.74705523842E+02	1.89941541469E+01	7.96904168256E+01	-4.14994898382E+01	-6.79446365376E+01	-2.61778033929E+01	9.48687809170E+00
1.04958328703E+06	-4.76561652429E+00	-1.76309116014E+02	1.92036897873E+01	7.91103253801E+01	-4.51465495486E+01	-2.78777658155E+00	-2.78569039460E+01	2.10058459326E+01
1.09955550617E+06	-4.98975323901E+00	1.76547371545E+02	1.96499643395E+01	7.94929299015E+01	-5.36255014809E+01	8.36555780109E+01	-3.35892467928E+01	-7.34498231828E-01
1.14952772530E+06	-5.47952653864E+00	1.78608209369E+02	2.01242220806E+01	7.84451544960E+01	-4.33887099901E+01	7.94737794562E+01	-3.37103965577E+01	3.62112821968E+01
1.19949994444E+06	-4.77933359543E+00	1.73218663474E+02	2.03917963640E+01	7.89534239406E+01	-5.11791162261E+01	6.57237645488E+01	-3.18768952539E+01	1.97108621878E+01
1.24947216357E+06	-7.17690902666E+00	1.73863562047E+02	2.10117087550E+01	7.76010537467E+01	-4.67823888428E+01	-6.95227757446E+01	-2.73326167315E+01	7.05334428733E+00
1.29944438271E+06	-5.80331236659E+00	-1.75144237776E+02	2.12009737700E+01	7.60156667783E+01	-5.48886486646E+01	8.89946554407E+01	-3.23741146911E+01	1.12927115343E+01
1.34941660184E+06	-6.83871768449E+00	-1.77147077103E+02	2.16121210730E+01	7.54770885366E+01	-4.46624689463E+01	-9.56337669377E+01	-2.72213259144E+01	-9.34542070352E-02
1.39938882098E+06	-6.31505311735E+00	-1.77004669781E+02	2.18762432377E+01	7.50310259232E+01	-6.26245925944E+01	6.25966771315E+01	-3.19605028942E+01	2.11959269180E+01
1.44936104012E+06	-6.89265043248E+00	1.75845649168E+02	2.23826641585E+01	7.54506278949E+01	-4.56929475760E+01	1.15425457877E+01	-2.80192605424E+01	3.07065106950E+01
1.49933325925E+06	-5.65115315282E+00	1.79728891412E+02	2.23910538893E+01	7.42711961675E+01	-4.34706653211E+01	2.61492779903E+01	-2.81919058911E+01	5.19107801706E+01
1.54930547839E+06	-5.43685121669E+00	1.79808913817E+02	2.26704110473E+01	7.36408327605E+01	-5.14104330299E+01	-1.66522038856E+02	-3.08315665449E+01	-1.70021309111E+01
1.59927769752E+06	-5.48140525689E+00	1.78751312444E+02	2.29127270677E+01	7.32630288713E+01	-4.48693603675E+01	-6.88405802304E+01	-2.61163118279E+01	6.38816270102E+00
1.64924991666E+06	-5.28393694785E+00	1.76853051490E+02	2.31813650087E+01	7.29878829539E+01	-5.05629085804E+01	1.15553751732E+02	-3.47613899402E+01	1.87231940206E+01
1.69922213579E+06	-5.79426073585E+00	-1.75128486809E+02	2.34873797445E+01	7.12135426822E+01	-4.41017411636E+01	-1.65931938174E+02	-3.00157482676E+01	-2.95098011423E+01
1.74919435493E+06	-6.27747406512E+00	-1.79490029097E+02	2.37971925585E+01	7.13043203398E+01	-5.43831703767E+01	1.78665845264E+02	-3.19257238482E+01	2.83928761671E+00
1.79916657406E+06	-4.86547541292E+00	1.76269383265E+02	2.38272226511E+01	7.16831132223E+01	-5.41714958748E+01	-1.89954813210E+01	-2.70503808053E+01	1.34014638008E+01
1.84913879320E+06	-6.43643866149E+00	1.76494536504E+02	2.43238426735E+01	7.07633326443E+01	-4.25208694354E+01	-1.21680766284E+02	-2.53650819533E+01	-2.11448370983E+01
1.89911101233E+06	-4.99415171765E+00	1.79561214126E+02	2.43069016738E+01	6.96829755151E+01	-6.05794031839E+01	-1.32713169859E+02	-3.04652803418E+01	9.00189466945E+00
1.94908323147E+06	-5.43022470396E+00	1.75937167406E+02	2.46499803883E+01	6.95975282533E+01	-4.82210862950E+01	1.57018404453E+02	-3.41304385898E+01	-1.80567976582E+01
1.99905545061E+06	-6.25543582716E+00	1.75705543988E+02	2.49444705012E+01	6.90174502241E+01	-4.53915145752E+01	5.09780097206E+01	-2.86324749565E+01	5.60288321924E+01
2.04902766974E+06	-6.12438132910E+00	-1.74862592362E+02	2.51373971472E+01	6.72868403039E+01	-4.72598193586E+01	-1.17289503007E+02	-2.84685587846E+01	-1.51095483120E+01
2.09899988888E+06	-4.86147289042E+00	1.77351163793E+02	2.51868336114E+01	6.78776909267E+01	-5.19360013376E+01	8.46548734729E+01	-3.23875750478E+01	2.35507025991E+01
2.14897210801E+06	-6.39122919003E+00	-1.77957313676E+02	2.55329206167E+01	6.60105357709E+01	-3.82070305994E+01	1.24989200525E+02	-2.86498293116E+01	-1.70861311894E+02
2.19894432715E+06	-5.12738787342E+00	1.77938306993E+02	2.55979017324E+01	6.67353619190E+01	-4.91705037325E+01	7.55640293553E+01	-3.00809812989E+01	4.31697317544E+01
2.24891654628E+06	-4.97762650937E+00	-1.79152133883E+02	2.57918490803E+01	6.59033910463E+01	-4.42435204658E+01	-1.27868457326E+02	-2.67164397715E+01	-2.32238657143E+01
2.29888876542E+06	-5.62739308868E+00	-1.79957866692E+02	2.60682301238E+01	6.51731913532E+01	-4.40012014812E+01	-1.74243526780E+02	-3.12257253522E+01	-5.18924118880E+01
2.34886098455E+06	-5.96629495812E+00	-1.74533686726E+02	2.62578029727E+01	6.39765623468E+01	-4.30159159274E+01	5.00710530406E+01	-2.73305232121E+01	6.74088526405E+01
2.39883320369E+06	-6.10125889898E+00	1.76618221443E+02	2.64835750408E+01	6.44865966674E+01	-4.34270239522E+01	3.36579364117E+01	-2.44964330580E+01	5.36205812494E+01
2.44880542282E+06	-5.97184861189E+00	1.73114320667E+02	2.66406988405E+01	6.43417052202E+01	-4.38078804478E+01	1.51027758504E+02	-3.86033434149E+01	-1.33915198636E+02
2.49877764196E+06	-5.05986131145E+00	1.74673419093E+02	2.66958822430E+01	6.39587428707E+01	-4.73733259524E+01	-3.91581604538E+01	-2.43807641598E+01	4.67734382128E-01
2.54874986110E+06	-5.35028919386E+00	1.78464847352E+02	2.68828473093E+01	6.27203076263E+01	-5.15424711648E+01	1.81114538692E+01	-2.77406793456E+01	3.69992463505E+01
2.59872208023E+06	-5.84236858375E+00	1.78652324239E+02	2.71085427383E+01	6.22138669709E+01	-4.77963342726E+01	-1.11008412896E+02	-2.63579695799E+01	-1.72890382114E+01
2.64869429937E+06	-6.21388636084E+00	1.78000751787E+02	2.73066161090E+01	6.15066837991E+01	-6.29057171627E+01	-4.44633154596E+01	-2.89352908545E+01	1.29739721803E+01
2.69866651850E+06	-5.26110977703E+00	1.75726302138E+02	2.73842132974E+01	6.15567039706E+01	-5.21148543382E+01	-8.09288259165E+01	-2.72539435982E+01	1.53914413953E+00
2.74863873764E+06	-6.10866499579E+00	-1.74689024475E+02	2.75795086165E+01	5.95481727294E+01	-4.25997167707E+01	-1.18287622477E+02	-2.49605227158E+01	-3.49890984735E+01
2.79861095677E+06	-5.53378786013E+00	1.79698217177E+02	2.77135426517E+01	5.98121985694E+01	-3.93198702899E+01	-4.97235997088E+01	-2.00471223185E+01	9.33834894741E+00
2.84858317591E+06	-5.96501948941E+00	-1.78733440637E+02	2.79117082875E+01	5.90914541101E+01	-4.44379298150E+01	3.35262932784E+01	-2.51872018754E+01	5.56923652971E+01
2.89855539504E+06	-4.50602963985E+00	-1.77560974430E+02	2.78395716142E+01	5.84936563033E+01	-8.42361985371E+01	1.12594284560E+01	-3.05765495883E+01	2.63823363256E+01
2.94852761418E+06	-6.12322977094E+00	-1.75465202929E+02	2.82047357926E+01	5.74938532140E+01	-4.57021757222E+01	2.93874748981E+01	-2.43986765583E+01	5.08088976081E+01
2.99849983331E+06	-6.73954794793E+00	1.71979572978E+02	2.84652576937E+01	5.82376876920E+01	-5.84225866620E+01	9.92615466758E+01	-3.24906344038E+01	3.45118164248E+01
3.04847205245E+06	-4.75691236284E+00	-1.79858960139E+02	2.83280348615E+01	5.71148702519E+01	-4.60033703230E+01	1.76127726771E+02	-4.04718656099E+01	-5.15529278530E+01
3.09844427159E+06	-5.85118279032E+00	1.78940697700E+02	2.85935145732E+01	5.65346791158E+01	-4.27705719658E+01	1.48104409114E+02	-3.33069013859E+01	1.75927445090E+02
3.14841649072E+06	-5.87946601516E+00	1.77676702799E+02	2.87469070257E+01	5.60850187946E+01	-5.11497085977E+01	1.72919715001E+02	-3.51778768340E+01	1.00237846227E+01
3.19838870986E+06	-5.31926575986E+00	1.75666509725E+02	2.87957722980E+01	5.57804099744E+01	-4.61482710171E+01	-7.49516957822E+00	-2.25774333256E+01	3.31690940207E+01
3.24836092899E+06	-5.25255882656E+00	1.76842185285E+02	2.89114472206E+01	5.53646981489E+01	-5.27455277597E+01	9.95533354716E+01	-3.23028705132E+01	4.48191156911E+01
3.29833314813E+06	-6.51363999106E+00	1.73231045926E+02	2.92207985642E+01	5.47413338153E+01	-5.41341801088E+01	9.80171380331E+00	-2.74053472063E+01	3.17791132797E+01
3.34830536726E+06	-5.88905092991E+00	1.79807402020E+02	2.92359159763E+01	5.36376129823E+01	-4.38895005050E+01	1.43780158713E+02	-3.60231672756E+01	1.59973652097E+02
3.39827758640E+06	-5.29387100756E+00	1.71744746335E+02	2.93444116803E+01	5.42730777625E+01	-5.37638478237E+01	1.70599895519E+02	-3.70635610193E+01	1.25234945069E+01
3.44824980553E+06	-6.33834922802E+00	-1.76720545251E+02	2.95408174882E+01	5.21593271802E+01	-4.41140580835E+01	1.42126411788E+02	-3.29218306810E+01	1.40762996114E+02
3.49822202467E+06	-6.07742597226E+00	1.73319797718E+02	2.96417833096E+01	5.26615067565E+01	-4.48681645419E+01	1.56510851644E+02	-3.49150675861E+01	-1.73731730152E+02
3.54819424380E+06	-6.18745854700E+00	1.75158154388E+02	2.97516945751E+01	5.20288531022E+01	-3.99585506718E+01	-1.49359158164E+01	-1.98784299724E+01	2.58520660732E+01
3.59816646294E+06	-5.52921459543E+00	1.78204405719E+02	2.97826142101E+01	5.12673894795E+01	-4.01419816707E+01	-4.11979990157E+00	-1.98220185882E+01	2.95373420813E+01
3.64813868208E+06	-5.00555730918E+00	-1.76867206672E+02	2.98395432255E+01	5.00909288637E+01	-4.13382134024E+01	5.26778107713E+01	-2.10038741095E+01	7.12111218245E+01
3.69811090121E+06	-5.20116378082E+00	1.78528208738E+02	2.99958943699E+01	5.01678038892E+01	-5.75902606464E+01	6.67943017949E+01	-2.87574860036E+01	3.91046055576E+01
3.74808312035E+06	-6.13712691325E+00	1.75713278595E+02	3.02371277393E+01	4.97213598951E+01	-4.48551364433E+01	-1.53428615483E+02	-3.22674103839E+01	-7.06262847319E+01
3.79805533948E+06	-6.38043622675E+00	1.78947258531E+02	3.03330464378E+01	4.87667843340E+01	-4.55557891467E+01	4.77981467084E+01	-2.43955521292E+01	6.11103544231E+01
3.84802755862E+06	-6.21124337348E+00	1.76950440514E+02	3.04391611779E+01	4.84959318067E+01	-6.06127335377E+01	7.23600533920E+01	-2.81710943022E+01	4.83071033849E+01
3.89799977775E+06	-5.80012531451E+00	1.73497478736E+02	3.05121468430E+01	4.82417484324E+01	-4.33814684831E+01	-1.48429268804E+02	-2.56790204355E+01	-8.33180585643E+01
3.94797199689E+06	-6.83822935023E+00	-1.78865618856E+02	3.06911694525E+01	4.66423142017E+01	-5.12226110261E+01	1.20002848389E+02	-3.04109989032E+01	6.86596676581E+01
3.99794421602E+06	-6.24683896224E+00	-1.78477407903E+02	3.07385795575E+01	4.63629073346E+01	-5.96335758774E+01	-1.76346357511E+02	-3.24116148324E+01	2.93933747983E+01
4.04791643516E+06	-5.86201723253E+00	-1.78289666899E+02	3.07831596090E+01	4.58256287862E+01	-4.62928994277E+01	4.30256414336E+01	-2.34162596999E+01	5.49891938539E+01
4.09788865429E+06	-5.67597279453E+00	1.74173693533E+02	3.09089828025E+01	4.61938307843E+01	-5.40930857195E+01	7.77814764665E+00	-2.57089601416E+01	3.32291391369E+01
4.14786087343E+06	-5.76315925173E+00	1.74382164904E+02	3.10373744303E+01	4.56497406416E+01	-4.93252266325E+01	-1.06219692998E+02	-2.91384801234E+01	-1.90042203366E+01
4.19783309257E+06	-5.36940753542E+00	-1.76520365759E+02	3.10457970909E+01	4.40398003102E+01	-5.65773338542E+01	1.76289042782E+02	-3.33490341854E+01	4.45941452770E+01
4.24780531170E+06	-5.59018161847E+00	-1.77453562005E+02	3.11371144693E+01	4.36117438511E+01	-5.50463892625E+01	1.37080648874E+02	-3.13462739041E+01	7.57410644157E+01
4.29777753084E+06	-5.70152552606E+00	1.73693040412E+02	3.12999349546E+01	4.41585535720E+01	-4.56689932926E+01	-1.35082833856E+02	-2.99040777133E+01	-4.45534419744E+01
4.34774974997E+06	-5.20947704775E+00	1.77729874984E+02	3.12943676328E+01	4.32362284237E+01	-5.66954961758E+01	8.70570845624E+01	-2.85902013753E+01	5.35358250713E+01
4.39772196911E+06	-6.13434807288E+00	-1.75328876727E+02	3.14638945334E+01	4.16517255653E+01	-4.63495297402E+01	-9.92384398939E+01	-2.68585296021E+01	-3.25485784241E+01
4.44769418824E+06	-5.97312715619E+00	1.73306994149E+02	3.16103192086E+01	4.21997529899E+01	-4.30426351462E+01	6.24393702141E+01	-2.08410359469E+01	6.99146092965E+01
4.49766640738E+06	-5.86134855982E+00	1.75472149208E+02	3.16885848877E+01	4.16176764671E+01	-4.91463748210E+01	1.63536369870E+02	-3.52635605946E+01	8.97247712270E+01
4.54763862651E+06	-5.54115295380E+00	1.76684295883E+02	3.17240698212E+01	4.10438576834E+01	-4.66412581518E+01	3.92033533721E+01	-2.22673889055E+01	4.96430721387E+01
4.59761084565E+06	-5.28482036783E+00	1.78733675258E+02	3.17495508564E+01	4.02902292756E+01	-4.57808774959E+01	-1.26244636321E+02	-3.23575420505E+01	-6.92718790995E+01
4.64758306478E+06	-7.07831326610E+00	1.69101822102E+02	3.21052906814E+01	4.00040581907E+01	-4.57393577657E+01	1.13625451529E+01	-2.12006747306E+01	3.83883508364E+01
4.69755528392E+06	-6.03234514492E+00	-1.79456004317E+02	3.19978204877E+01	3.88452815413E+01	-5.02561326998E+01	1.03890480959E+02	-2.68068768019E+01	7.93247658285E+01
4.74752750306E+06	-5.04760986697E+00	1.71939121131E+02	3.20365904914E+01	3.95605613944E+01	-6.92594115176E+01	-5.50603129365E+01	-2.85251536420E+01	2.80470983794E+01
4.79749972219E+06	-7.02135896005E+00	1.71994335111E+02	3.23411123148E+01	3.83582450330E+01	-4.54746093282E+01	-4.53493805247E+01	-2.23675013965E+01	5.56369239849E-01
4.84747194133E+06	-4.93582791417E+00	1.75466434899E+02	3.21704851145E+01	3.80773681438E+01	-4.54733820049E+01	-1.16950775226E+02	-2.81793634402E+01	-5.55433013797E+01
4.89744416046E+06	-6.15015100573E+00	-1.78782151369E+02	3.23444350907E+01	3.66098871510E+01	-4.53645989319E+01	4.01895064246E+01	-2.06772847800E+01	5.44123561443E+01
4.94741637960E+06	-6.08647040718E+00	1.79739130932E+02	3.24222269750E+01	3.64779669317E+01	-4.76086144209E+01	-1.79038006694E+02	-3.45147980573E+01	1.69179960835E+02
4.99738859873E+06	-5.81923653590E+00	1.76760838834E+02	3.24987620950E+01	3.60309450210E+01	-4.58515366495E+01	-2.99343235824E+01	-2.21130192118E+01	7.85306915058E+00
5.04736081787E+06	-6.16939303489E+00	-1.79603844460E+02	3.25831224372E+01	3.49401378524E+01	-5.03838432387E+01	-1.51453217784E+02	-4.25239253955E+01	-3.11123576951E+00
5.09733303700E+06	-5.51377683491E+00	1.79490165002E+02	3.25916851433E+01	3.47199601907E+01	-5.34305522764E+01	-6.83603375133E+01	-2.70809916878E+01	1.16633147265E+01
5.14730525614E+06	-6.16922322293E+00	1.73031812919E+02	3.27795828234E+01	3.46334232811E+01	-6.01174399873E+01	-9.78226573112E+01	-2.90156658732E+01	1.63245720475E+01
5.19727747528E+06	-6.02606789595E+00	-1.79318774164E+02	3.28001281781E+01	3.32595003279E+01	-5.09976500878E+01	-6.07231327557E+01	-2.50064013830E+01	8.21816383086E+00
5.24724969441E+06	-5.72860443077E+00	1.76704679334E+02	3.28613584159E+01	3.34438460242E+01	-5.61801520098E+01	-2.12679971528E+01	-2.62298243418E+01	2.45687752972E+01
5.29722191355E+06	-4.91607838901E+00	1.79028229099E+02	3.28162719131E+01	3.27097054135E+01	-5.49559618898E+01	6.57491501446E+01	-2.57362239495E+01	4.98707275247E+01
5.34719413268E+06	-5.84846867764E+00	1.70466936565E+02	3.31104850795E+01	3.29351044763E+01	-4.78544744525E+01	2.34699954939E+01	-2.20010264171E+01	3.10482377900E+01
5.39716635182E+06	-5.53137038207E+00	1.79268634306E+02	3.30443115674E+01	3.16328559543E+01	-4.76745182984E+01	8.99709650594E+01	-2.32366497342E+01	7.27830723995E+01
5.44713857095E+06	-5.07946306516E+00	-1.77996831758E+02	3.30491756051E+01	3.07110329539E+01	-4.85737399675E+01	1.18247943475E+02	-2.56038261901E+01	8.34859187794E+01
5.49711079009E+06	-6.19066500768E+00	1.79253864973E+02	3.32597966960E+01	3.02560576281E+01	-5.75309574938E+01	-1.76811900972E+02	-3.16932714481E+01	6.71601908536E+01
5.54708300922E+06	-5.68078344446E+00	1.77417939015E+02	3.32725559538E+01	3.00131354140E+01	-4.52206775680E+01	1.68595050609E+02	-2.86681392471E+01	1.40939724658E+02
5.59705522836E+06	-6.81537326242E+00	-1.78605038525E+02	3.34570822404E+01	2.87979163043E+01	-4.56126616637E+01	8.49239044651E+01	-2.15526049333E+01	7.47130900120E+01
5.64702744749E+06	-5.18191085977E+00	1.78709775581E+02	3.33401093717E+01	2.90735623373E+01	-5.73576200914E+01	4.35494993962E+01	-2.59848647984E+01	5.03238546894E+01
5.69699966663E+06	-5.17765234397E+00	-1.76825528282E+02	3.33856737906E+01	2.77665672619E+01	-5.24364571669E+01	1.53303070159E+02	-2.97265259435E+01	7.65727773771E+01
5.74697188577E+06	-5.53262041126E+00	1.79250607131E+02	3.35046896020E+01	2.79824336958E+01	-5.39637696577E+01	-3.57442546651E-01	-1.89503001352E+01	3.21164567657E+01
5.79694410490E+06	-7.36364791811E+00	1.78485259624E+02	3.37677299248E+01	2.67896388605E+01	-4.97783237808E+01	-5.44411201375E+01	-2.49564161416E+01	-2.71110143645E-01
5.84691632404E+06	-6.25180336314E+00	1.78939261747E+02	3.37172166011E+01	2.66048231945E+01	-4.16802702585E+01	-1.10111289267E+02	-2.31565388730E+01	-8.05167690464E+01
5.89688854317E+06	-6.49651954991E+00	-1.78938795650E+02	3.38062134859E+01	2.56311279011E+01	-4.93545555195E+01	1.58756317079E+02	-2.84584739705E+01	1.04760939662E+02
5.94686076231E+06	-6.43319784748E+00	1.79966718713E+02	3.38776373364E+01	2.53645889203E+01	-5.69463728187E+01	-1.03489070340E+02	-2.89851159584E+01	1.90728734821E+01
5.99683298144E+06	-6.40399350287E+00	-1.78499837173E+02	3.39230998112E+01	2.46003287773E+01	-4.99349332542E+01	-4.76043935415E+01	-2.48839446383E+01	-5.87963916275E-01
6.04680520058E+06	-5.65218648683E+00	-1.77122557445E+02	3.38969058205E+01	2.42228515355E+01	-5.06210444891E+01	-1.55948447077E+02	-3.93121086227E+01	1.11120317366E+02
6.09677741971E+06	-6.52655405934E+00	1.79341955934E+02	3.40512244548E+01	2.37037349150E+01	-4.93952728616E+01	6.34445719827E+01	-2.19995455900E+01	5.65894856134E+01
6.14674963885E+06	-6.30180339965E+00	1.76352614748E+02	3.41216031206E+01	2.34817140846E+01	-5.02081969279E+01	-4.46797408485E+01	-2.46857322760E+01	1.28303721771E-02
