# Hz S DB R 50
! CMT, M5065, 19127446, 24.2.4/2
! Date: 12/3/2024 4:18:59 PM
! Data: Format (Calibration Info)
! Freq	S11:dB/Ang(F2)	S21:dB/Ang(F2)	S12:dB/Ang(F2)	S22:dB/Ang(F2)
3.00000000000E+05	-7.73330744082E+00	-1.73455071349E+02	2.96776432967E+00	9.12833765726E+01	-5.53128625429E+01	1.67786086404E+02	-2.99276175721E+01	8.82807924200E-02
3.49972219135E+05	-5.75037488973E+00	1.78961971083E+02	4.13890693185E+00	9.00541897902E+01	-3.94223673724E+01	8.13862576603E+01	-3.16280828421E+01	3.67957884233E+00
3.99944438271E+05	-5.47786020074E+00	-1.76020896292E+02	5.24457963575E+00	8.88579824632E+01	-3.96139113205E+01	-6.71502897211E+01	-2.89600087525E+01	2.43287003593E+00
4.49916657406E+05	-5.43835821425E+00	-1.73287793036E+02	6.23123114905E+00	8.75027561872E+01	-4.79360335262E+01	1.51982639001E+02	-2.98263287232E+01	-2.08886966519E-01
4.99888876542E+05	-5.01035836850E+00	1.76079625180E+02	7.05001614174E+00	8.87743074991E+01	-4.66473037647E+01	7.15131566790E+01	-3.08348252692E+01	8.91998443833E+00
5.49861095677E+05	-5.83085975987E+00	-1.73727077732E+02	8.06260678582E+00	8.67749707656E+01	-4.42863216119E+01	1.18090358373E+02	-3.12859046798E+01	-3.00391025509E+00
5.99833314813E+05	-4.94041464652E+00	-1.78997370762E+02	8.74442066777E+00	8.57095606579E+01	-5.81192618145E+01	-1.31723571758E+02	-3.01066723739E+01	2.75546026447E+00
6.49805533948E+05	-6.44739416739E+00	-1.77164043152E+02	9.63648182742E+00	8.54398588508E+01	-4.79825557069E+01	8.31141249650E+01	-3.15657557553E+01	8.03179548093E+00
6.99777753084E+05	-6.00996489920E+00	1.77813277447E+02	1.01546195213E+01	8.55757124385E+01	-4.14966287455E+01	4.17684241950E+01	-3.06878134966E+01	1.43435933974E+01
7.49749972219E+05	-6.25411640890E+00	1.78208534742E+02	1.07719871542E+01	8.48013504680E+01	-5.22033156555E+01	1.96165608399E+01	-3.03786021560E+01	5.46329105625E+00
7.99722191355E+05	-5.33545204744E+00	1.74595545935E+02	1.12644683209E+01	8.49364249903E+01	-4.58475821764E+01	3.73279644358E+00	-2.91188877371E+01	1.10636863329E+01
8.49694410490E+05	-6.82893825252E+00	1.78123063463E+02	1.19922638125E+01	8.39674208891E+01	-5.22957266645E+01	1.07204408737E+02	-3.09749733168E+01	-4.52766114028E-01
8.99666629626E+05	-4.49072512397E+00	-1.76022275244E+02	1.21139013699E+01	8.29752327965E+01	-4.50046600331E+01	-1.42338825153E+02	-2.93507913728E+01	-2.93433913417E+00
9.49638848761E+05	-5.12766081779E+00	-1.78458258464E+02	1.26433945658E+01	8.23206397452E+01	-4.98022219681E+01	-2.96529742260E+01	-2.96326409429E+01	1.01282128697E+01
9.99611067896E+05	-5.82948775052E+00	-1.75026369337E+02	1.32262824673E+01	8.16167359679E+01	-4.54661630583E+01	-1.06320334442E+02	-2.91208582064E+01	6.73950718646E-01
1.04958328703E+06	-4.46226073909E+00	1.79676279027E+02	1.34310688425E+01	8.19548649467E+01	-6.02486846075E+01	-2.22061602003E+00	-2.99863324975E+01	3.83919144384E+00
1.09955550617E+06	-5.34348466621E+00	-1.76739895145E+02	1.40001978157E+01	8.06917264498E+01	-4.58968921641E+01	1.77450912639E+01	-2.97311735900E+01	1.80071777689E+01
1.14952772530E+06	-5.88143089923E+00	-1.77232788679E+02	1.44549517169E+01	8.04758803878E+01	-4.58375078467E+01	-5.17387909448E+01	-2.85883258914E+01	1.31479092720E+01
1.19949994444E+06	-5.78981564740E+00	1.77759170016E+02	1.47752716020E+01	8.05860206695E+01	-4.82398035990E+01	1.62564853846E+02	-3.11180056649E+01	1.10209909904E-02
1.24947216357E+06	-5.51719649235E+00	1.77250293263E+02	1.51497867146E+01	8.02171198090E+01	-6.82172010993E+01	1.77459868351E+02	-2.97684055746E+01	7.33633141281E+00
1.29944438271E+06	-7.03454279998E+00	1.79983408952E+02	1.56782008809E+01	7.94752779467E+01	-5.36102344144E+01	-5.84206534143E+00	-2.90927465804E+01	1.19824544804E+01
1.34941660184E+06	-5.79513654120E+00	1.79562085856E+02	1.58004655674E+01	7.88705184555E+01	-4.84886016427E+01	4.46078630002E+01	-3.06115276945E+01	2.15450195811E+01
1.39938882098E+06	-5.18025642556E+00	1.79509082121E+02	1.60642342773E+01	7.85910866675E+01	-4.72420368681E+01	-1.74656913563E+02	-3.02943913035E+01	-6.31581826943E+00
1.44936104012E+06	-6.31407906098E+00	1.77558788945E+02	1.65130462455E+01	7.82171324006E+01	-5.62750307335E+01	6.37819655278E+01	-3.00827970026E+01	1.57791054938E+01
1.49933325925E+06	-5.27605552286E+00	1.78853442071E+02	1.66426486822E+01	7.77631434224E+01	-4.15858182361E+01	-5.03228524693E+01	-2.67708883460E+01	1.88117267435E+01
1.54930547839E+06	-6.08648328475E+00	1.73830732167E+02	1.70495466363E+01	7.78315337361E+01	-5.12156717151E+01	-1.58000111798E+02	-3.10230115206E+01	1.49700388117E+00
1.59927769752E+06	-4.77563875189E+00	-1.77443075185E+02	1.71462009150E+01	7.61214995397E+01	-5.61560598745E+01	-1.17844192009E+02	-2.97282706782E+01	5.17125111624E+00
1.64924991666E+06	-5.49079630187E+00	1.78763266280E+02	1.75147422156E+01	7.62416292585E+01	-4.62854155272E+01	9.32221473144E+01	-3.31129370666E+01	2.80199435414E+01
1.69922213579E+06	-5.06053717437E+00	-1.76322953205E+02	1.76850814907E+01	7.51397500327E+01	-4.62599332614E+01	6.78076312529E+01	-3.12896381936E+01	3.01544172082E+01
1.74919435493E+06	-5.15742790933E+00	1.79488454257E+02	1.79895949043E+01	7.52607139802E+01	-5.54171282572E+01	-1.34969326321E+02	-2.91864582715E+01	2.64574428348E+00
1.79916657406E+06	-6.38759381224E+00	1.77461460930E+02	1.84041377363E+01	7.48771185350E+01	-5.21941184692E+01	2.01012285506E+01	-3.02540588951E+01	1.43485678406E+01
1.84913879320E+06	-4.95119633794E+00	-1.79425337829E+02	1.84305196622E+01	7.42897144938E+01	-4.79473064721E+01	-3.49142990774E+01	-2.65314409574E+01	2.42296048798E+01
1.89911101233E+06	-5.19421299785E+00	1.74203495503E+02	1.87045483213E+01	7.46465926397E+01	-5.20377148008E+01	-1.57883175431E+02	-3.05700741015E+01	6.10324093382E+00
1.94908323147E+06	-5.71606753796E+00	1.73388020060E+02	1.90253089361E+01	7.42850294817E+01	-4.98039932514E+01	8.15616691355E+00	-2.89071094122E+01	2.57916101549E+01
1.99905545061E+06	-7.08633610506E+00	1.76075433575E+02	1.94028339842E+01	7.31213033003E+01	-4.63421329755E+01	-8.06311600558E+01	-2.72986225738E+01	7.49027006050E+00
2.04902766974E+06	-5.86978864266E+00	1.73136588039E+02	1.94581489515E+01	7.31715476926E+01	-4.72206202588E+01	-3.38229989508E+01	-2.78701866791E+01	1.64490199239E+01
2.09899988888E+06	-5.28933870742E+00	1.76238565792E+02	1.95896751832E+01	7.25862396733E+01	-4.64652727034E+01	3.01800827976E-01	-2.81588143755E+01	2.36219659899E+01
2.14897210801E+06	-4.95254578428E+00	1.74326050757E+02	1.97573403891E+01	7.28930763366E+01	-5.35006908606E+01	-1.36487006375E+02	-3.01087413673E+01	8.83280739735E+00
2.19894432715E+06	-6.33075787197E+00	1.77158627981E+02	2.01137672280E+01	7.14671407868E+01	-4.41002450477E+01	1.72212496451E+02	-3.14890868868E+01	-1.69314656353E+01
2.24891654628E+06	-6.34190220821E+00	-1.74653419921E+02	2.03003607526E+01	7.02217524835E+01	-5.04870948722E+01	2.13565367243E+01	-2.94001502990E+01	2.45724859899E+01
2.29888876542E+06	-5.04352037940E+00	1.75374634801E+02	2.03483852745E+01	7.07471124747E+01	-5.96950599423E+01	-3.74416880598E+01	-3.09562414743E+01	1.82642136164E+01
2.34886098455E+06	-5.65939007079E+00	1.71674437093E+02	2.06146077568E+01	7.09140544049E+01	-5.09417793073E+01	-1.21884963343E+02	-2.92053916081E+01	2.22098518935E+00
2.39883320369E+06	-5.90970064479E+00	1.79990354843E+02	2.08109806826E+01	6.94586192160E+01	-6.45100308481E+01	-3.97035227136E+00	-2.97596118860E+01	1.70023276341E+01
2.44880542282E+06	-6.69998847565E+00	1.79177952901E+02	2.10894299068E+01	6.90629540476E+01	-4.85045910996E+01	-7.89396370104E+01	-2.73806120130E+01	8.08125337828E+00
2.49877764196E+06	-6.30629972770E+00	1.77926692727E+02	2.12037247563E+01	6.88816580888E+01	-4.06507077779E+01	7.57732729909E+01	-3.10045577712E+01	6.73791708196E+01
2.54874986110E+06	-5.10436198185E+00	1.73553207871E+02	2.12572207891E+01	6.92291895953E+01	-4.21594301556E+01	-1.62033763087E+01	-2.48427569006E+01	3.39299951374E+01
2.59872208023E+06	-6.33868652009E+00	-1.79905392558E+02	2.15562161867E+01	6.76412738546E+01	-4.53565396317E+01	9.70545891573E+01	-3.50819277778E+01	2.75553254423E+01
2.64869429937E+06	-5.03910817476E+00	1.73266922247E+02	2.15899111963E+01	6.83053318706E+01	-4.89396751820E+01	7.44450720807E+01	-3.17565648725E+01	3.39677593403E+01
2.69866651850E+06	-5.83501187463E+00	1.79296669312E+02	2.18694055225E+01	6.66593396274E+01	-4.99083388626E+01	1.09537340669E+02	-3.21714071237E+01	2.39546794437E+01
2.74863873764E+06	-6.13862978426E+00	-1.78446622502E+02	2.20332207999E+01	6.62118812655E+01	-5.03178528289E+01	4.02506927475E+01	-2.88526507426E+01	2.98681451563E+01
2.79861095677E+06	-5.53311159622E+00	1.79873353175E+02	2.20919426780E+01	6.58347231605E+01	-5.11147825172E+01	-9.60609802680E+01	-2.83276023498E+01	5.78749555650E+00
2.84858317591E+06	-5.67493997092E+00	1.76566142021E+02	2.22983172306E+01	6.59057476563E+01	-4.78000140371E+01	1.78963865233E+01	-2.81113856181E+01	3.34959853299E+01
2.89855539504E+06	-5.60053325248E+00	-1.78325236277E+02	2.24237369885E+01	6.47610267677E+01	-3.98123464359E+01	-1.22699017671E+02	-2.59420395329E+01	-2.78870608205E+01
2.94852761418E+06	-6.09328195587E+00	-1.79908673551E+02	2.25965468086E+01	6.44184780626E+01	-4.45416842466E+01	1.08474144375E+02	-3.51042203692E+01	6.63462622370E+01
2.99849983331E+06	-5.38106502597E+00	-1.79956990530E+02	2.26765854469E+01	6.41267456380E+01	-6.22745488729E+01	3.92557905012E+01	-2.96222064242E+01	2.51003813687E+01
3.04847205245E+06	-5.36970506527E+00	1.76374759240E+02	2.28402566095E+01	6.41531921793E+01	-5.01086026532E+01	1.14825873061E+02	-3.14326492864E+01	3.41840003599E+01
3.09844427159E+06	-5.81956539354E+00	-1.79187388115E+02	2.30375957023E+01	6.29804463451E+01	-4.97810548506E+01	-8.15371458787E+01	-2.82056309810E+01	1.01278671098E+01
3.14841649072E+06	-5.75562180012E+00	-1.76439683562E+02	2.31337878037E+01	6.25019923052E+01	-4.59355063914E+01	-3.39658398129E+01	-2.57412069955E+01	2.18723391129E+01
3.19838870986E+06	-5.75442104201E+00	-1.79211852298E+02	2.32777992910E+01	6.22155695083E+01	-4.81829881978E+01	-2.64969748428E+00	-2.67924585712E+01	2.79163622440E+01
3.24836092899E+06	-6.15946789831E+00	-1.73680987346E+02	2.34403990518E+01	6.10753895670E+01	-5.64787547970E+01	7.42589472798E+01	-3.12611049515E+01	3.45214811798E+01
3.29833314813E+06	-6.10512257411E+00	1.75721640012E+02	2.36116346641E+01	6.19307891189E+01	-4.39907802041E+01	1.30108670116E+02	-3.72701091592E+01	7.30450361027E+01
3.34830536726E+06	-6.95881668143E+00	1.77886100736E+02	2.38047537667E+01	6.10059900306E+01	-4.52172722614E+01	-9.95653230173E+01	-2.78569172069E+01	-7.92271227755E+00
3.39827758640E+06	-6.24653392322E+00	-1.78845802956E+02	2.38575031052E+01	6.03147205263E+01	-4.43548918990E+01	-3.42049571556E+01	-2.48676455442E+01	1.80827620505E+01
3.44824980553E+06	-6.53481284631E+00	1.74417249106E+02	2.40620875710E+01	6.09564975840E+01	-4.53460716597E+01	1.73495405391E+01	-2.62619434523E+01	3.89790919603E+01
3.49822202467E+06	-5.83536113210E+00	1.73603542560E+02	2.40939837052E+01	6.04766501006E+01	-5.11466377672E+01	-1.26724545788E+02	-2.95674684464E+01	2.74374233068E+00
3.54819424380E+06	-4.73725160836E+00	1.78674980774E+02	2.40752833794E+01	5.95489763647E+01	-4.59928705262E+01	-1.60501341821E+02	-3.46734662350E+01	-1.08903265852E+01
3.59816646294E+06	-4.90620209745E+00	1.79080329889E+02	2.41888549363E+01	5.89677389491E+01	-4.09336368616E+01	4.06139572952E+01	-2.50025920493E+01	7.00688320376E+01
3.64813868208E+06	-6.29259810123E+00	1.79255149286E+02	2.44860348368E+01	5.85102185599E+01	-5.89317130473E+01	1.41453638252E+02	-3.08915671584E+01	2.46955068586E+01
3.69811090121E+06	-5.95730587836E+00	-1.79814471991E+02	2.45693109224E+01	5.79079234702E+01	-5.59462582277E+01	-8.26703928341E+01	-2.98991035060E+01	1.57879741617E+01
3.74808312035E+06	-5.79221358538E+00	1.74638995694E+02	2.47136973287E+01	5.82081374236E+01	-6.00926149913E+01	2.91763279824E+01	-2.87408340112E+01	3.32196340692E+01
3.79805533948E+06	-5.83771106164E+00	1.79247757302E+02	2.48300743074E+01	5.71100675565E+01	-4.79806416133E+01	7.58574028158E+01	-2.91432669760E+01	5.64960106409E+01
3.84802755862E+06	-8.01851885946E+00	-1.74489900857E+02	2.51417582330E+01	5.55445547031E+01	-4.95083857949E+01	-6.99004624646E+01	-2.74365214080E+01	1.42995469718E+01
3.89799977775E+06	-6.11403155776E+00	1.76849872487E+02	2.50621399237E+01	5.64883882488E+01	-4.27300302676E+01	-1.27480631526E+02	-2.89550388989E+01	-2.30291824916E+01
3.94797199689E+06	-5.26450971019E+00	1.69816589090E+02	2.51074849991E+01	5.71523846994E+01	-4.41989350621E+01	-1.73727229450E+02	-3.88372612916E+01	-1.67896784001E+01
3.99794421602E+06	-6.10479597256E+00	1.76128295940E+02	2.52828703497E+01	5.57368291939E+01	-5.17384024570E+01	9.62349983444E+01	-2.91812927181E+01	4.07547193034E+01
4.04791643516E+06	-6.22734032831E+00	1.76800087560E+02	2.54088064963E+01	5.50629596807E+01	-5.42276573328E+01	-2.56079580545E+01	-2.83700221618E+01	2.61967877539E+01
4.09788865429E+06	-6.58611263013E+00	-1.78910149056E+02	2.55258551949E+01	5.42079633967E+01	-4.78368959240E+01	-8.15292269525E+01	-2.69688603261E+01	8.19092138861E+00
4.14786087343E+06	-6.85438804998E+00	1.75110450693E+02	2.57035202572E+01	5.45503005842E+01	-4.82619155248E+01	-2.17920267303E+01	-2.61289329045E+01	2.75608168670E+01
4.19783309257E+06	-5.79840040451E+00	-1.76706525164E+02	2.56317598522E+01	5.31036221474E+01	-5.42173991169E+01	-1.79762605543E+02	-3.23560725321E+01	2.03375958612E+01
4.24780531170E+06	-4.84080526024E+00	1.75988474622E+02	2.56703945073E+01	5.38088549563E+01	-4.65249926599E+01	1.31540831920E+02	-3.35834032505E+01	6.59964463896E+01
4.29777753084E+06	-5.98384896110E+00	1.79726506223E+02	2.58993900641E+01	5.25746219964E+01	-5.02184954399E+01	4.11268804118E+01	-2.70074361261E+01	4.64630831501E+01
4.34774974997E+06	-6.15528176053E+00	-1.77845315576E+02	2.59863312450E+01	5.18088167556E+01	-4.32851896932E+01	9.31407218219E+00	-2.34188398807E+01	3.43260614417E+01
4.39772196911E+06	-5.91854252795E+00	1.76337020483E+02	2.60964211686E+01	5.22194551477E+01	-5.49401270939E+01	1.23822148455E+02	-3.09793155040E+01	4.64366357682E+01
4.44769418824E+06	-6.15480364283E+00	1.76725592260E+02	2.62081045415E+01	5.14944402438E+01	-4.29935081121E+01	6.26915652976E+01	-2.49050014545E+01	6.82769174883E+01
4.49766640738E+06	-6.15678233333E+00	1.74917503289E+02	2.63704193395E+01	5.12467673982E+01	-4.84419957710E+01	1.56132335803E+02	-3.50816099404E+01	4.93717542395E+01
4.54763862651E+06	-5.25353598290E+00	-1.76788646072E+02	2.62639791176E+01	5.01067842523E+01	-4.45415994256E+01	-9.11357783124E+01	-2.70095747434E+01	-5.93850291759E+00
4.59761084565E+06	-5.76359487934E+00	1.79990077011E+02	2.64335751948E+01	5.00035975465E+01	-4.63975376969E+01	-8.14759815616E+01	-2.69876420468E+01	4.35697473079E-02
4.64758306478E+06	-5.38339595165E+00	-1.79927728897E+02	2.64824201083E+01	4.96344460645E+01	-4.20033002310E+01	-1.50536860720E+02	-3.25273909478E+01	-6.30322460811E+01
4.69755528392E+06	-6.58572971852E+00	1.79429264273E+02	2.67212723206E+01	4.90945891311E+01	-4.31680902985E+01	8.95070336687E+00	-2.33864173734E+01	3.32880178305E+01
4.74752750306E+06	-4.94501249066E+00	-1.76030950708E+02	2.66054425703E+01	4.82951737840E+01	-4.88328698733E+01	-1.19402627334E+02	-3.00724988901E+01	4.32237024953E+00
4.79749972219E+06	-6.09931393187E+00	1.72319844749E+02	2.68972125663E+01	4.87579127680E+01	-4.32274671327E+01	-1.02879150498E+02	-2.69504259537E+01	-2.23998717635E+01
4.84747194133E+06	-6.47348640398E+00	1.72238634331E+02	2.70365489443E+01	4.84876332561E+01	-5.51374481894E+01	8.32478252305E+01	-2.87198103088E+01	5.60780244515E+01
4.89744416046E+06	-6.48353340671E+00	1.74752655390E+02	2.70835377854E+01	4.75634512944E+01	-5.47857579209E+01	1.04288184587E+02	-2.88487476194E+01	5.33575010328E+01
4.94741637960E+06	-6.22268159181E+00	1.78100624686E+02	2.71317323748E+01	4.70040922937E+01	-4.07736551625E+01	8.28416277706E+01	-2.33196931260E+01	8.13907765031E+01
4.99738859873E+06	-6.44044043497E+00	-1.77508661293E+02	2.72206443778E+01	4.58788587655E+01	-4.91161516616E+01	-3.31111553774E+01	-2.52593321340E+01	2.06264962267E+01
5.04736081787E+06	-5.33169643834E+00	1.73289317321E+02	2.72552541451E+01	4.68444968927E+01	-5.06178894715E+01	1.48968958656E+02	-3.18165959456E+01	3.50397964546E+01
5.09733303700E+06	-5.40132591822E+00	1.75796002890E+02	2.73360883448E+01	4.61468331897E+01	-5.22337968289E+01	-1.14756886285E+02	-2.91119634276E+01	1.22976739120E+01
5.14730525614E+06	-6.44661592326E+00	1.79218362566E+02	2.74863694404E+01	4.49526260966E+01	-5.65043881206E+01	-6.17987740244E+01	-2.81187925543E+01	2.65045525422E+01
5.19727747528E+06	-5.71793957290E+00	1.79286791959E+02	2.74994746965E+01	4.47254000433E+01	-4.51331229148E+01	1.46178864404E+02	-3.25611541290E+01	9.73000717803E+01
5.24724969441E+06	-4.99369171764E+00	-1.78767899365E+02	2.74730512035E+01	4.41475181782E+01	-4.35290457409E+01	-6.40115619830E+01	-2.42630452392E+01	-5.34489878070E-01
5.29722191355E+06	-5.40275251551E+00	1.78247635268E+02	2.76303738047E+01	4.40495955049E+01	-4.26570696860E+01	-2.90634153301E+01	-2.28854941334E+01	1.57596062086E+01
5.34719413268E+06	-5.22888073196E+00	-1.78793027866E+02	2.76801676253E+01	4.31633629030E+01	-5.24459902507E+01	2.82903573382E+01	-2.59937087965E+01	4.38190113317E+01
5.39716635182E+06	-5.58734144179E+00	-1.78314391699E+02	2.77945056417E+01	4.25820689055E+01	-4.86703574302E+01	6.83711999328E+01	-2.63869499695E+01	6.23334087080E+01
5.44713857095E+06	-5.87994372777E+00	1.74170035001E+02	2.79478795006E+01	4.28877135283E+01	-4.98932834413E+01	-6.13109544364E+01	-2.70631584655E+01	1.54976526107E+01
5.49711079009E+06	-5.42675682197E+00	-1.78044050846E+02	2.79171470398E+01	4.17170283122E+01	-4.93432726226E+01	6.60020081539E+01	-2.56196873309E+01	5.73834750717E+01
5.54708300922E+06	-6.26367942630E+00	-1.78689360939E+02	2.80968114628E+01	4.10005812213E+01	-4.63292548659E+01	3.28823311427E+01	-2.35461188441E+01	4.50483726707E+01
5.59705522836E+06	-5.67429346825E+00	1.78406159706E+02	2.81451124585E+01	4.10855910206E+01	-4.88869828103E+01	-1.35341990268E+02	-3.33273952059E+01	1.53605303038E+01
5.64702744749E+06	-6.11497141206E+00	1.75577807376E+02	2.82807206099E+01	4.09460857800E+01	-4.25817334415E+01	-1.54592034030E+02	-4.08575942846E+01	-9.86582612410E+01
5.69699966663E+06	-6.67721364682E+00	1.76158172509E+02	2.83932403461E+01	4.01436375900E+01	-4.54095117817E+01	-7.93656779387E+01	-2.65799412083E+01	-4.63315502117E+00
5.74697188577E+06	-6.43428478580E+00	1.73651093887E+02	2.85538585819E+01	4.00799795655E+01	-5.12212664705E+01	1.19966553099E+02	-2.52360863055E+01	5.05772033274E+01
5.79694410490E+06	-5.77490641567E+00	1.76563225186E+02	2.84438559208E+01	3.95992159677E+01	-4.81584960560E+01	1.48385126000E+02	-3.04277650340E+01	7.55946803253E+01
5.84691632404E+06	-6.60832881907E+00	1.77866877729E+02	2.86112733869E+01	3.88448988989E+01	-4.23527799746E+01	-7.39299414334E+01	-2.38862244810E+01	-1.24857469905E+01
5.89688854317E+06	-6.45238853466E+00	1.78567108882E+02	2.86678685382E+01	3.83309419484E+01	-5.23715813383E+01	1.32295745700E+02	-2.92104855389E+01	6.30405384371E+01
5.94686076231E+06	-5.57625602998E+00	1.78471531637E+02	2.86469252780E+01	3.80071178799E+01	-5.79655887849E+01	1.18092386266E+02	-2.72963447852E+01	4.86660848817E+01
5.99683298144E+06	-6.22193257390E+00	-1.79767735851E+02	2.87908309501E+01	3.72593203748E+01	-4.83098981527E+01	4.28152700839E+01	-2.40922639309E+01	5.12132201524E+01
6.04680520058E+06	-5.49592993750E+00	1.76204066828E+02	2.87860015128E+01	3.75093014587E+01	-4.61211388655E+01	-9.10039863417E+01	-2.88688592001E+01	-4.59793315358E+00
6.09677741971E+06	-5.77541536653E+00	1.77289588519E+02	2.88878700077E+01	3.68329611739E+01	-5.28590130582E+01	3.41869686532E+01	-2.56511976183E+01	4.52425132604E+01
6.14674963885E+06	-5.78679190215E+00	1.77831093090E+02	2.89483437199E+01	3.62090397479E+01	-5.93031199802E+01	1.20909397886E+01	-2.63227280112E+01	3.90118941393E+01
