# Hz S DB R 50
! CMT, M5065, 19127446, 24.2.4/2
! Date: 12/3/2024 4:17:43 PM
! Data: Format (Calibration Info)
! Freq	S11:dB/Ang(F2)	S21:dB/Ang(F2)	S12:dB/Ang(F2)	S22:dB/Ang(F2)
3.00000000000E+05	-5.57774046139E+00	-1.71387232673E+02	-2.83326528529E+00	8.98748092849E+01	-4.14108380299E+01	7.24113086382E+01	-3.04548912056E+01	1.14886017484E+00
3.49972219135E+05	-5.42212849829E+00	-1.72834384750E+02	-1.58357644497E+00	8.92425536782E+01	-4.40758449449E+01	-1.62061520108E+02	-2.97801444732E+01	-1.39973104791E+00
3.99944438271E+05	-5.89677472422E+00	-1.72406522337E+02	-3.96172901036E-01	8.90823062840E+01	-3.82250986531E+01	-1.10003653449E+02	-2.92793893125E+01	-1.70613121408E+00
4.49916657406E+05	-5.93303670198E+00	-1.74871723617E+02	6.22370018223E-01	8.80165353673E+01	-4.47790858119E+01	-2.80550909768E+01	-2.96317399259E+01	2.94109862407E+00
4.99888876542E+05	-5.30361019276E+00	1.79616561834E+02	1.37917373249E+00	8.84228600667E+01	-5.27842588883E+01	-1.69892063295E+02	-3.05107266704E+01	3.66336519961E+00
5.49861095677E+05	-4.83070534934E+00	1.77846304958E+02	2.14376291369E+00	8.80419311946E+01	-4.18191123313E+01	1.74194441019E+02	-3.12595596685E+01	3.25682192141E+00
5.99833314813E+05	-5.93836367880E+00	-1.74670592013E+02	3.13327403292E+00	8.63332789670E+01	-4.61218290093E+01	-1.04063738235E+01	-2.98148740190E+01	6.55101783545E+00
6.49805533948E+05	-6.43918385728E+00	-1.77177747651E+02	3.80088318859E+00	8.62428096000E+01	-4.32806788243E+01	3.76063931514E+01	-3.02868956859E+01	7.10976959056E+00
6.99777753084E+05	-6.37570784342E+00	-1.77510512025E+02	4.51274517293E+00	8.59263366920E+01	-5.16342057601E+01	9.70022811850E+01	-3.03405694693E+01	3.72823974236E+00
7.49749972219E+05	-5.12437888385E+00	-1.79097684691E+02	4.90791999305E+00	8.56503814498E+01	-4.39532210110E+01	1.27300837055E+02	-3.04126839449E+01	4.42665779039E+00
7.99722191355E+05	-4.90787709277E+00	1.77701228421E+02	5.44546350347E+00	8.53738931907E+01	-4.76284061735E+01	1.04460263172E+02	-3.05930309333E+01	7.22970813550E+00
8.49694410490E+05	-7.12089138499E+00	1.76835353142E+02	6.28711384644E+00	8.45812450072E+01	-4.46317501374E+01	9.80794317136E+01	-3.11720906532E+01	5.54399169268E+00
8.99666629626E+05	-5.66655121050E+00	-1.79458642967E+02	6.52802667775E+00	8.46839766896E+01	-4.36084111591E+01	5.04896814369E+01	-3.06994840304E+01	1.33573197632E+01
9.49638848761E+05	-5.69376271089E+00	1.77387374349E+02	7.02151297239E+00	8.39038935153E+01	-4.66203075768E+01	7.25927839021E+01	-3.12115287401E+01	1.08969930171E+01
9.99611067896E+05	-6.78394294298E+00	-1.78571990787E+02	7.62139443830E+00	8.27482362468E+01	-3.97680761873E+01	-8.31024239950E+01	-2.88884514816E+01	5.50388732847E+00
1.04958328703E+06	-5.58302286874E+00	-1.76585055498E+02	7.90358448930E+00	8.25115145803E+01	-4.97367531852E+01	7.80448227614E+01	-3.09075655064E+01	8.26867714101E+00
1.09955550617E+06	-5.14603325318E+00	1.76573581520E+02	8.21263512844E+00	8.29934577908E+01	-4.49349897923E+01	-1.52251798532E+02	-3.02662665522E+01	-2.64979239675E-03
1.14952772530E+06	-5.29192018366E+00	-1.76224156362E+02	8.67437898462E+00	8.14267824769E+01	-4.49877275273E+01	2.28072233833E+01	-3.00605833337E+01	1.31807283124E+01
1.19949994444E+06	-5.64767992725E+00	1.76511843607E+02	9.10333930731E+00	8.19664997328E+01	-4.11833838556E+01	1.64736019413E+02	-3.14270791215E+01	-4.84014875293E+00
1.24947216357E+06	-6.35566275687E+00	-1.78400345746E+02	9.52586374219E+00	8.07028752560E+01	-5.15436519857E+01	-9.16995632426E+01	-2.95006802203E+01	2.52719498445E+00
1.29944438271E+06	-5.46933821971E+00	-1.74035014835E+02	9.77413634527E+00	7.96368852686E+01	-5.62634427267E+01	1.97789898708E+01	-3.00515289285E+01	7.94140104604E+00
1.34941660184E+06	-6.17915050653E+00	1.73683971389E+02	1.01492021423E+01	8.10419007669E+01	-3.89063807634E+01	-1.23207435784E+01	-2.89218947042E+01	1.84187059490E+01
1.39938882098E+06	-5.99505102499E+00	1.75012824372E+02	1.04827454314E+01	8.04908525016E+01	-5.60372435615E+01	-6.49737331070E+01	-2.99562744236E+01	1.09457725629E+01
1.44936104012E+06	-5.06715912070E+00	1.79765369006E+02	1.06415360024E+01	7.98833456166E+01	-4.45176359547E+01	-1.56256995907E+02	-2.95565362634E+01	-2.54488228094E+00
1.49933325925E+06	-5.23222841324E+00	-1.78562820657E+02	1.09059119459E+01	7.90280730758E+01	-4.81702311032E+01	6.11459121909E+01	-3.08754906407E+01	1.70963752830E+01
1.54930547839E+06	-6.08438343652E+00	-1.79115983734E+02	1.13730859855E+01	7.84363115639E+01	-4.49811137364E+01	-1.34610950706E+02	-2.92614712707E+01	1.05672917014E+00
1.59927769752E+06	-6.21004576151E+00	1.74331383469E+02	1.16276095798E+01	7.88193344659E+01	-4.63037715234E+01	1.00801347200E+02	-3.03625933225E+01	1.19956247243E+01
1.64924991666E+06	-6.16029824584E+00	1.78557234422E+02	1.18607875970E+01	7.81687129498E+01	-4.65146701767E+01	4.70139546355E+00	-2.97945785327E+01	1.39189183479E+01
1.69922213579E+06	-5.34226473281E+00	1.74432644243E+02	1.20790882332E+01	7.84582101663E+01	-4.50411857849E+01	5.56655960542E+00	-2.95528057826E+01	2.08961349059E+01
1.74919435493E+06	-6.00465293703E+00	1.78787156632E+02	1.23974453545E+01	7.71613996040E+01	-4.13116958605E+01	2.75946405186E+01	-2.92132382394E+01	2.43600677962E+01
1.79916657406E+06	-5.57182724647E+00	1.79940589688E+02	1.25967182581E+01	7.70502496669E+01	-5.40319817368E+01	-2.77902392013E+01	-2.96749991232E+01	1.14544606512E+01
1.84913879320E+06	-5.53752950889E+00	1.78230168623E+02	1.28239047982E+01	7.66647508306E+01	-4.31268255314E+01	2.47102903903E+01	-2.94449246809E+01	2.43504756225E+01
1.89911101233E+06	-5.85959096304E+00	1.76313996812E+02	1.30777471951E+01	7.60819545924E+01	-3.91220880812E+01	2.71126742535E+01	-2.90681271314E+01	3.34539020436E+01
1.94908323147E+06	-3.82400840823E+00	1.76812108479E+02	1.29256337156E+01	7.66494646102E+01	-4.38939787782E+01	1.34348687763E+01	-2.88762337300E+01	2.77642456978E+01
1.99905545061E+06	-6.49690693290E+00	1.75173745585E+02	1.36597485102E+01	7.58989115107E+01	-3.88130551407E+01	-1.47171403807E+02	-2.93101932147E+01	-1.47591331745E+01
2.04902766974E+06	-5.52648806248E+00	1.79899007801E+02	1.36743938144E+01	7.47508677076E+01	-5.27928497237E+01	1.18564039772E+02	-3.08252028797E+01	1.36050335522E+01
2.09899988888E+06	-6.27265241873E+00	1.79331929822E+02	1.40373686389E+01	7.43766881008E+01	-4.16764433485E+01	-1.30772304060E+02	-2.92610960929E+01	-2.85544128729E+00
2.14897210801E+06	-5.35638454765E+00	1.75685726375E+02	1.41213232915E+01	7.47011503619E+01	-4.25213325353E+01	-2.49050512252E+01	-2.73920324646E+01	2.14860438899E+01
2.19894432715E+06	-5.38622351551E+00	1.74241794381E+02	1.43404593408E+01	7.46904394520E+01	-4.55200659733E+01	-1.46607949182E+02	-3.04861031275E+01	1.96146383605E+00
2.24891654628E+06	-7.01716625879E+00	-1.79544836469E+02	1.47008578915E+01	7.31672595938E+01	-4.68929973418E+01	1.73934999540E+02	-3.14878834735E+01	2.94460222769E-01
2.29888876542E+06	-6.11356783286E+00	1.77456393707E+02	1.48537398781E+01	7.26320204103E+01	-5.43248528004E+01	1.57274686566E+02	-3.05860908936E+01	5.86173156995E+00
2.34886098455E+06	-6.29397995447E+00	-1.77654042894E+02	1.49571341400E+01	7.20608848795E+01	-3.65390291980E+01	-1.22601237835E+02	-2.63980425320E+01	-2.81224410358E+01
2.39883320369E+06	-5.52919410263E+00	-1.79491966780E+02	1.50829823254E+01	7.20187246542E+01	-4.46432404916E+01	-1.13961643579E+02	-2.93655647924E+01	5.23484031941E+00
2.44880542282E+06	-5.07030975733E+00	-1.76208088727E+02	1.51741809639E+01	7.13226811500E+01	-5.08690888434E+01	-8.73622862317E+01	-2.93699250114E+01	1.08768160241E+01
2.49877764196E+06	-5.60603625514E+00	1.76485804043E+02	1.54302698225E+01	7.19878610440E+01	-5.33046127770E+01	1.65678394654E+01	-2.90822260666E+01	2.17089883560E+01
2.54874986110E+06	-5.58799670899E+00	1.77592054060E+02	1.56515619158E+01	7.14850594935E+01	-5.02514175934E+01	-1.60645566699E+02	-3.05368351150E+01	8.87262022475E+00
2.59872208023E+06	-5.63636936994E+00	1.78659601555E+02	1.58093569317E+01	7.08638255872E+01	-5.04957424523E+01	5.06405998575E+01	-3.01133291655E+01	2.63622622215E+01
2.64869429937E+06	-4.97921507531E+00	-1.79865081653E+02	1.58305819150E+01	7.01505068726E+01	-5.20093826605E+01	-1.21743897427E+02	-2.93206725937E+01	1.12450142224E+01
2.69866651850E+06	-6.24113488487E+00	1.77426199993E+02	1.61943047596E+01	6.99307199535E+01	-4.41159307846E+01	6.93854757936E+01	-3.08351167576E+01	3.82014897954E+01
2.74863873764E+06	-6.01350897007E+00	-1.77225887808E+02	1.62913052320E+01	6.90596877990E+01	-4.93055682216E+01	-1.38568694259E+02	-3.01972106638E+01	8.19283006258E+00
2.79861095677E+06	-5.82362353331E+00	1.76638782712E+02	1.64947383966E+01	6.94791964562E+01	-4.75771082997E+01	-9.39135564291E+01	-2.89741693300E+01	9.86038887963E+00
2.84858317591E+06	-6.69133448140E+00	-1.71485559225E+02	1.67053345260E+01	6.76328195767E+01	-5.99129316018E+01	-2.85129754696E+01	-2.93628231162E+01	1.37592953611E+01
2.89855539504E+06	-6.08355479877E+00	1.77527149616E+02	1.68184361590E+01	6.86785077813E+01	-4.70012603394E+01	1.50892321459E+02	-3.21830255185E+01	1.37460569564E+01
2.94852761418E+06	-6.11097823313E+00	1.79462771684E+02	1.69684974415E+01	6.82347712041E+01	-4.40889553649E+01	3.36004564192E+01	-2.87866742633E+01	3.46518627938E+01
2.99849983331E+06	-5.35353705091E+00	-1.77149605169E+02	1.69905317987E+01	6.71014664507E+01	-4.13554664224E+01	8.94495286205E+01	-3.14499947569E+01	5.16618414556E+01
3.04847205245E+06	-5.86406193117E+00	-1.77619933966E+02	1.71989642188E+01	6.68058018906E+01	-5.25765675675E+01	-1.43485211333E+02	-3.06551909376E+01	1.19893116718E+01
3.09844427159E+06	-5.39155563825E+00	1.74396271034E+02	1.73138142299E+01	6.76950585607E+01	-4.58315583123E+01	2.20615254962E+01	-2.81105916899E+01	3.22425692273E+01
3.14841649072E+06	-5.28453194451E+00	1.76899587722E+02	1.74476782668E+01	6.69674741835E+01	-4.68515430678E+01	-2.50998569895E+01	-2.76755416910E+01	2.20072317164E+01
3.19838870986E+06	-6.17883975338E+00	-1.75565852061E+02	1.76529910445E+01	6.53983362669E+01	-4.66074064713E+01	8.22181238304E+01	-3.07769412696E+01	3.63391691333E+01
3.24836092899E+06	-5.73187204264E+00	1.78728916523E+02	1.77721722870E+01	6.59027424085E+01	-4.76610692245E+01	4.66719460725E+00	-2.81740857287E+01	2.70425438048E+01
3.29833314813E+06	-5.25455128708E+00	1.77347163546E+02	1.78438361935E+01	6.57531796052E+01	-4.50349462582E+01	-1.20315508540E+02	-2.90926294420E+01	4.78626123388E+00
3.34830536726E+06	-5.08479631944E+00	1.75979339726E+02	1.79571475233E+01	6.55719083057E+01	-5.21937562287E+01	1.01837847771E+02	-3.07128330679E+01	3.04574703312E+01
3.39827758640E+06	-6.18095806045E+00	1.71332661589E+02	1.82456720757E+01	6.56293557929E+01	-5.24670994135E+01	8.62437522428E+01	-2.99799100055E+01	2.90567191371E+01
3.44824980553E+06	-5.52623710844E+00	-1.79809293052E+02	1.82496099769E+01	6.41596903354E+01	-5.35494562632E+01	1.32278577820E+02	-3.06393627622E+01	2.38696632115E+01
3.49822202467E+06	-5.62906910856E+00	-1.78696324363E+02	1.83880478189E+01	6.36170692732E+01	-6.68811555614E+01	1.23413813763E+02	-3.04321562687E+01	2.49317255303E+01
3.54819424380E+06	-4.94846848262E+00	-1.77615248110E+02	1.84107452269E+01	6.31723809762E+01	-4.45830596554E+01	1.12376289852E+02	-3.23721334344E+01	4.19013631732E+01
3.59816646294E+06	-6.20931133215E+00	-1.78803603737E+02	1.87017665050E+01	6.27224541156E+01	-4.81124511826E+01	-1.19880733925E+02	-2.95882696800E+01	9.39348789185E+00
3.64813868208E+06	-6.88337787281E+00	1.71007565293E+02	1.88925646813E+01	6.33540400665E+01	-4.68869684240E+01	-3.61370004708E+01	-2.80449552761E+01	2.11276563886E+01
3.69811090121E+06	-6.32078396456E+00	-1.76100617712E+02	1.90057936712E+01	6.16159732686E+01	-4.45267801609E+01	-1.06071110452E+01	-2.65803059966E+01	2.77194765031E+01
3.74808312035E+06	-5.88271549436E+00	-1.76074999828E+02	1.90505673896E+01	6.12365173504E+01	-4.41544221937E+01	1.21791696538E+02	-3.29129244368E+01	4.91976309208E+01
3.79805533948E+06	-5.38630807415E+00	1.73772912648E+02	1.91096167181E+01	6.23141597613E+01	-5.74942648700E+01	1.20137280777E+02	-3.01466744696E+01	2.67193532544E+01
3.84802755862E+06	-5.09949850354E+00	-1.77534811694E+02	1.91387939394E+01	6.09186854022E+01	-5.45032190217E+01	1.47044769005E+02	-3.09889904336E+01	2.87155714728E+01
3.89799977775E+06	-5.64899245992E+00	1.79302417374E+02	1.93412713123E+01	6.08308160515E+01	-4.63363677729E+01	-2.50015325194E+01	-2.74980717425E+01	2.40884029046E+01
3.94797199689E+06	-6.15924381275E+00	1.78991081931E+02	1.95164290284E+01	6.02550962389E+01	-5.93343410533E+01	-1.34765748681E+02	-2.98434865823E+01	2.44688844506E+01
3.99794421602E+06	-5.70723751594E+00	1.75200911053E+02	1.96098700950E+01	6.06463274386E+01	-4.28433426443E+01	-1.11638425172E+02	-2.88465239325E+01	1.54429245973E+00
4.04791643516E+06	-6.25736071030E+00	1.78132694303E+02	1.97657868446E+01	5.96661531865E+01	-4.12086579657E+01	1.76140077465E+02	-3.59781897947E+01	6.17430481038E+00
4.09788865429E+06	-5.89950644587E+00	1.76887212587E+02	1.98135243852E+01	5.93897664526E+01	-4.23410403789E+01	-1.74191281052E+02	-3.58115792150E+01	3.87562013716E-01
4.14786087343E+06	-5.92130036080E+00	1.73859178973E+02	1.99650172929E+01	5.95232168538E+01	-5.71506474427E+01	1.47480118652E+02	-3.03082622045E+01	2.99846551247E+01
4.19783309257E+06	-6.67533332848E+00	1.78325883675E+02	2.01499153195E+01	5.84669552619E+01	-4.34397679265E+01	1.45072431916E+02	-3.41076550335E+01	4.10692561987E+01
4.24780531170E+06	-5.72915624093E+00	1.74732305509E+02	2.01380511904E+01	5.86991495448E+01	-4.59055637940E+01	-1.72714157395E+02	-3.29834361781E+01	1.65204784603E+01
4.29777753084E+06	-6.84387708381E+00	1.76887282519E+02	2.03471614615E+01	5.79430366112E+01	-4.76937687345E+01	-1.46987066571E+02	-3.10634142040E+01	1.45783159980E+01
4.34774974997E+06	-5.74330017943E+00	1.72756684871E+02	2.03611526026E+01	5.81052531127E+01	-4.53628030132E+01	9.22367557483E+01	-2.96168331212E+01	5.01074623171E+01
4.39772196911E+06	-4.72177215518E+00	1.76263691482E+02	2.02957051183E+01	5.75817672033E+01	-4.07781359104E+01	1.29404175666E+02	-3.32418886710E+01	7.10127879251E+01
4.44769418824E+06	-7.45232397778E+00	1.75070721224E+02	2.07272782004E+01	5.65809871664E+01	-4.55127437566E+01	1.52299122346E+02	-3.23896508689E+01	5.05440898426E+01
4.49766640738E+06	-5.76872808398E+00	1.77399815008E+02	2.06470376091E+01	5.66567684767E+01	-4.49399117588E+01	-1.31255292863E+02	-3.04004169878E+01	4.80544744400E-01
4.54763862651E+06	-6.02234263397E+00	1.75823700210E+02	2.07529934724E+01	5.60432293061E+01	-4.63981924935E+01	1.37608324207E+02	-3.20571328638E+01	4.08238883989E+01
4.59761084565E+06	-5.23466666884E+00	-1.79814832866E+02	2.07352401763E+01	5.54222234096E+01	-5.02091737166E+01	-1.54396559173E+01	-2.70180944891E+01	2.98586416241E+01
4.64758306478E+06	-5.85191165484E+00	-1.77486622626E+02	2.09078553291E+01	5.45964426376E+01	-4.95602324484E+01	1.79884538657E+02	-3.23045400833E+01	2.56625092799E+01
4.69755528392E+06	-5.71623815678E+00	1.78474901636E+02	2.09870161786E+01	5.45788420667E+01	-4.78138878325E+01	-1.52918894291E+02	-3.15711215309E+01	1.64689488909E+01
4.74752750306E+06	-6.03671712301E+00	-1.79961543925E+02	2.11168193414E+01	5.42083580906E+01	-4.44307690221E+01	1.79049696941E+02	-3.47517786735E+01	2.65916633389E+01
4.79749972219E+06	-5.44821770275E+00	1.77188428380E+02	2.11913712587E+01	5.45129626321E+01	-4.40419050703E+01	-1.52325905870E+02	-3.42927109400E+01	1.47426176785E+01
4.84747194133E+06	-6.05606676436E+00	1.79757644977E+02	2.13193060329E+01	5.34533976437E+01	-4.95464515399E+01	1.49879364624E+02	-3.14827740943E+01	4.61390967843E+01
4.89744416046E+06	-5.12605169558E+00	1.77070879785E+02	2.13035376121E+01	5.35561427051E+01	-4.94853328545E+01	-8.13169355281E+01	-2.84813684508E+01	2.04748389443E+01
4.94741637960E+06	-6.05795219350E+00	1.73893819301E+02	2.15468665545E+01	5.31908791659E+01	-4.76035240225E+01	-1.96038342447E+01	-2.65201246649E+01	2.77027711839E+01
4.99738859873E+06	-6.29326230844E+00	1.76839958646E+02	2.16346855955E+01	5.25313956925E+01	-5.91606407442E+01	-9.69717686492E+01	-2.91251828927E+01	2.88192468469E+01
5.04736081787E+06	-5.87204491337E+00	1.74418314834E+02	2.16798073476E+01	5.24296776526E+01	-4.64067080544E+01	-9.19389075185E+01	-2.82056889895E+01	1.39989064805E+01
5.09733303700E+06	-5.78666181897E+00	-1.79917253447E+02	2.17312877621E+01	5.14427671362E+01	-4.09667254997E+01	2.43259475900E+01	-2.44247253616E+01	4.51643270959E+01
5.14730525614E+06	-5.89665779123E+00	1.77162648505E+02	2.18315825891E+01	5.12496619409E+01	-4.17504710924E+01	6.92879723700E+01	-2.57423328419E+01	6.25073826467E+01
5.19727747528E+06	-5.17455004824E+00	1.79045513540E+02	2.18215572507E+01	5.09045836149E+01	-4.85504609143E+01	8.35768366569E+01	-2.85039109052E+01	5.14669460689E+01
5.24724969441E+06	-6.17333498048E+00	1.78189714136E+02	2.20235330939E+01	5.02439004230E+01	-5.93372075963E+01	9.47484283480E+00	-2.82849172095E+01	3.74217995044E+01
5.29722191355E+06	-5.82115205627E+00	1.76933232492E+02	2.20847042212E+01	5.04635349706E+01	-5.21540703202E+01	1.31040620436E+02	-3.02389602722E+01	4.81789892708E+01
5.34719413268E+06	-6.08114602618E+00	-1.77878378266E+02	2.21723769764E+01	4.92685676174E+01	-4.35559684983E+01	1.29181792514E+02	-3.00606929777E+01	6.91674049263E+01
5.39716635182E+06	-6.17130817536E+00	-1.79540637235E+02	2.22655955613E+01	4.88750314910E+01	-4.65404597382E+01	6.71312252287E+01	-2.68047679484E+01	5.28484436352E+01
5.44713857095E+06	-6.23117050745E+00	1.79565702303E+02	2.23761291763E+01	4.87035497122E+01	-4.14614957452E+01	3.21108640867E+01	-2.40627990010E+01	4.72781455398E+01
5.49711079009E+06	-5.93550961251E+00	1.68165100899E+02	2.25247779117E+01	4.95658416048E+01	-6.43591705045E+01	1.51924921616E+02	-2.94313929948E+01	3.87097084022E+01
5.54708300922E+06	-5.77107020326E+00	1.78172931786E+02	2.24422035517E+01	4.80478232116E+01	-4.86829296238E+01	-4.40138223045E+01	-2.65374420572E+01	2.76577769884E+01
5.59705522836E+06	-5.49570629201E+00	1.71285796265E+02	2.25745148043E+01	4.86143364623E+01	-4.75932883558E+01	-8.15072556921E+01	-2.79982249538E+01	2.00636762500E+01
5.64702744749E+06	-5.79573465968E+00	1.74516215019E+02	2.26594124232E+01	4.76399238770E+01	-6.34620481270E+01	9.53770024122E+01	-2.88387618590E+01	4.17014792316E+01
5.69699966663E+06	-6.51106514133E+00	1.73510072667E+02	2.28293963643E+01	4.71960077420E+01	-5.10337114583E+01	-1.23668379956E+01	-2.67662791891E+01	3.24079727776E+01
5.74697188577E+06	-6.74356613081E+00	1.73489023777E+02	2.28605881358E+01	4.65344954995E+01	-5.79441285726E+01	-1.11163541627E+02	-3.19707025112E+01	4.90810103072E+01
5.79694410490E+06	-5.80475757038E+00	-1.77419707004E+02	2.28442628637E+01	4.57048829057E+01	-4.95300936188E+01	-1.53996372797E+02	-3.15901831632E+01	3.34623710566E+01
5.84691632404E+06	-4.56920360928E+00	1.69921985989E+02	2.28644832427E+01	4.72010900897E+01	-5.33333142515E+01	-1.73718801008E+02	-2.99391831552E+01	4.43371336383E+01
5.89688854317E+06	-6.95832537145E+00	-1.79612221442E+02	2.31461259423E+01	4.49978627327E+01	-4.90166557950E+01	-1.36681080558E+02	-3.13391178383E+01	3.11209660888E+01
5.94686076231E+06	-5.94217616013E+00	1.78449566527E+02	2.31180198047E+01	4.50738804833E+01	-4.82640423846E+01	-4.22843097775E+01	-2.62864955465E+01	2.29031143564E+01
5.99683298144E+06	-6.14016668794E+00	1.74531082340E+02	2.32339665549E+01	4.49326319348E+01	-5.27980485433E+01	-9.12838523132E+01	-2.85119867456E+01	2.71985618877E+01
6.04680520058E+06	-6.04657260415E+00	1.75843997502E+02	2.32993925718E+01	4.44351132037E+01	-6.23690732687E+01	1.01278286106E+02	-2.77290008167E+01	4.55944354082E+01
6.09677741971E+06	-5.78096014781E+00	1.69878926775E+02	2.33705732456E+01	4.46927207047E+01	-5.93697197118E+01	-1.27933385793E+02	-2.91321087696E+01	3.54847460207E+01
6.14674963885E+06	-5.48012426375E+00	1.79363116030E+02	2.33487972609E+01	4.33300795215E+01	-5.42567422804E+01	-1.78200478031E+02	-2.98812935772E+01	4.39813298678E+01
