Freq.	V(out_fs)
1.00000000000000e+00	(-1.27836053291705e+02dB,9.00048283047375e+01°)
1.00230523807790e+00	(-1.27816053291529e+02dB,9.00048394351293e+01°)
1.00461579027839e+00	(-1.27796053291352e+02dB,9.00048505911794e+01°)
1.00693166885180e+00	(-1.27776053291174e+02dB,9.00048617729468e+01°)
1.00925288607668e+00	(-1.27756053290995e+02dB,9.00048729804909e+01°)
1.01157945425990e+00	(-1.27736053290816e+02dB,9.00048842138710e+01°)
1.01391138573668e+00	(-1.27716053290636e+02dB,9.00048954731467e+01°)
1.01624869287070e+00	(-1.27696053290455e+02dB,9.00049067583777e+01°)
1.01859138805412e+00	(-1.27676053290273e+02dB,9.00049180696239e+01°)
1.02093948370768e+00	(-1.27656053290090e+02dB,9.00049294069452e+01°)
1.02329299228075e+00	(-1.27636053289907e+02dB,9.00049407704017e+01°)
1.02565192625141e+00	(-1.27616053289722e+02dB,9.00049521600537e+01°)
1.02801629812647e+00	(-1.27596053289537e+02dB,9.00049635759615e+01°)
1.03038612044162e+00	(-1.27576053289351e+02dB,9.00049750181857e+01°)
1.03276140576140e+00	(-1.27556053289164e+02dB,9.00049864867870e+01°)
1.03514216667934e+00	(-1.27536053288976e+02dB,9.00049979818262e+01°)
1.03752841581801e+00	(-1.27516053288788e+02dB,9.00050095033641e+01°)
1.03992016582906e+00	(-1.27496053288598e+02dB,9.00050210514619e+01°)
1.04231742939330e+00	(-1.27476053288408e+02dB,9.00050326261809e+01°)
1.04472021922080e+00	(-1.27456053288216e+02dB,9.00050442275823e+01°)
1.04712854805090e+00	(-1.27436053288024e+02dB,9.00050558557277e+01°)
1.04954242865232e+00	(-1.27416053287831e+02dB,9.00050675106788e+01°)
1.05196187382322e+00	(-1.27396053287637e+02dB,9.00050791924972e+01°)
1.05438689639126e+00	(-1.27376053287442e+02dB,9.00050909012451e+01°)
1.05681750921366e+00	(-1.27356053287247e+02dB,9.00051026369844e+01°)
1.05925372517729e+00	(-1.27336053287050e+02dB,9.00051143997774e+01°)
1.06169555719872e+00	(-1.27316053286852e+02dB,9.00051261896864e+01°)
1.06414301822431e+00	(-1.27296053286654e+02dB,9.00051380067740e+01°)
1.06659612123026e+00	(-1.27276053286454e+02dB,9.00051498511028e+01°)
1.06905487922266e+00	(-1.27256053286254e+02dB,9.00051617227356e+01°)
1.07151930523761e+00	(-1.27236053286053e+02dB,9.00051736217352e+01°)
1.07398941234124e+00	(-1.27216053285851e+02dB,9.00051855481650e+01°)
1.07646521362983e+00	(-1.27196053285648e+02dB,9.00051975020880e+01°)
1.07894672222983e+00	(-1.27176053285444e+02dB,9.00052094835676e+01°)
1.08143395129794e+00	(-1.27156053285239e+02dB,9.00052214926674e+01°)
1.08392691402120e+00	(-1.27136053285033e+02dB,9.00052335294510e+01°)
1.08642562361706e+00	(-1.27116053284826e+02dB,9.00052455939823e+01°)
1.08893009333343e+00	(-1.27096053284618e+02dB,9.00052576863252e+01°)
1.09144033644876e+00	(-1.27076053284409e+02dB,9.00052698065438e+01°)
1.09395636627209e+00	(-1.27056053284199e+02dB,9.00052819547024e+01°)
1.09647819614318e+00	(-1.27036053283989e+02dB,9.00052941308654e+01°)
1.09900583943252e+00	(-1.27016053283777e+02dB,9.00053063350974e+01°)
1.10153930954141e+00	(-1.26996053283564e+02dB,9.00053185674630e+01°)
1.10407861990207e+00	(-1.26976053283351e+02dB,9.00053308280272e+01°)
1.10662378397766e+00	(-1.26956053283136e+02dB,9.00053431168548e+01°)
1.10917481526240e+00	(-1.26936053282920e+02dB,9.00053554340112e+01°)
1.11173172728159e+00	(-1.26916053282704e+02dB,9.00053677795615e+01°)
1.11429453359173e+00	(-1.26896053282486e+02dB,9.00053801535712e+01°)
1.11686324778056e+00	(-1.26876053282267e+02dB,9.00053925561060e+01°)
1.11943788346715e+00	(-1.26856053282048e+02dB,9.00054049872315e+01°)
1.12201845430196e+00	(-1.26836053281827e+02dB,9.00054174470138e+01°)
1.12460497396692e+00	(-1.26816053281605e+02dB,9.00054299355188e+01°)
1.12719745617551e+00	(-1.26796053281383e+02dB,9.00054424528129e+01°)
1.12979591467280e+00	(-1.26776053281159e+02dB,9.00054549989622e+01°)
1.13240036323556e+00	(-1.26756053280934e+02dB,9.00054675740334e+01°)
1.13501081567231e+00	(-1.26736053280708e+02dB,9.00054801780932e+01°)
1.13762728582343e+00	(-1.26716053280482e+02dB,9.00054928112083e+01°)
1.14024978756117e+00	(-1.26696053280254e+02dB,9.00055054734457e+01°)
1.14287833478977e+00	(-1.26676053280025e+02dB,9.00055181648726e+01°)
1.14551294144553e+00	(-1.26656053279795e+02dB,9.00055308855563e+01°)
1.14815362149688e+00	(-1.26636053279564e+02dB,9.00055436355642e+01°)
1.15080038894443e+00	(-1.26616053279332e+02dB,9.00055564149639e+01°)
1.15345325782109e+00	(-1.26596053279098e+02dB,9.00055692238231e+01°)
1.15611224219210e+00	(-1.26576053278864e+02dB,9.00055820622098e+01°)
1.15877735615512e+00	(-1.26556053278629e+02dB,9.00055949301921e+01°)
1.16144861384034e+00	(-1.26536053278392e+02dB,9.00056078278381e+01°)
1.16412602941049e+00	(-1.26516053278155e+02dB,9.00056207552162e+01°)
1.16680961706096e+00	(-1.26496053277916e+02dB,9.00056337123951e+01°)
1.16949939101987e+00	(-1.26476053277676e+02dB,9.00056466994433e+01°)
1.17219536554813e+00	(-1.26456053277436e+02dB,9.00056597164297e+01°)
1.17489755493953e+00	(-1.26436053277194e+02dB,9.00056727634234e+01°)
1.17760597352080e+00	(-1.26416053276951e+02dB,9.00056858404936e+01°)
1.18032063565173e+00	(-1.26396053276706e+02dB,9.00056989477095e+01°)
1.18304155572516e+00	(-1.26376053276461e+02dB,9.00057120851406e+01°)
1.18576874816716e+00	(-1.26356053276215e+02dB,9.00057252528566e+01°)
1.18850222743702e+00	(-1.26336053275967e+02dB,9.00057384509274e+01°)
1.19124200802737e+00	(-1.26316053275718e+02dB,9.00057516794229e+01°)
1.19398810446427e+00	(-1.26296053275468e+02dB,9.00057649384132e+01°)
1.19674053130724e+00	(-1.26276053275217e+02dB,9.00057782279686e+01°)
1.19949930314938e+00	(-1.26256053274965e+02dB,9.00057915481596e+01°)
1.20226443461741e+00	(-1.26236053274712e+02dB,9.00058048990568e+01°)
1.20503594037179e+00	(-1.26216053274457e+02dB,9.00058182807310e+01°)
1.20781383510678e+00	(-1.26196053274202e+02dB,9.00058316932532e+01°)
1.21059813355048e+00	(-1.26176053273945e+02dB,9.00058451366944e+01°)
1.21338885046497e+00	(-1.26156053273687e+02dB,9.00058586111260e+01°)
1.21618600064636e+00	(-1.26136053273427e+02dB,9.00058721166193e+01°)
1.21898959892486e+00	(-1.26116053273167e+02dB,9.00058856532460e+01°)
1.22179966016487e+00	(-1.26096053272905e+02dB,9.00058992210778e+01°)
1.22461619926504e+00	(-1.26076053272643e+02dB,9.00059128201867e+01°)
1.22743923115840e+00	(-1.26056053272378e+02dB,9.00059264506448e+01°)
1.23026877081238e+00	(-1.26036053272113e+02dB,9.00059401125244e+01°)
1.23310483322890e+00	(-1.26016053271847e+02dB,9.00059538058978e+01°)
1.23594743344451e+00	(-1.25996053271579e+02dB,9.00059675308378e+01°)
1.23879658653036e+00	(-1.25976053271310e+02dB,9.00059812874169e+01°)
1.24165230759241e+00	(-1.25956053271040e+02dB,9.00059950757083e+01°)
1.24451461177138e+00	(-1.25936053270768e+02dB,9.00060088957850e+01°)
1.24738351424294e+00	(-1.25916053270495e+02dB,9.00060227477202e+01°)
1.25025903021771e+00	(-1.25896053270222e+02dB,9.00060366315874e+01°)
1.25314117494141e+00	(-1.25876053269946e+02dB,9.00060505474603e+01°)
1.25602996369487e+00	(-1.25856053269670e+02dB,9.00060644954125e+01°)
1.25892541179416e+00	(-1.25836053269392e+02dB,9.00060784755181e+01°)
1.26182753459066e+00	(-1.25816053269113e+02dB,9.00060924878512e+01°)
1.26473634747115e+00	(-1.25796053268833e+02dB,9.00061065324861e+01°)
1.26765186585784e+00	(-1.25776053268551e+02dB,9.00061206094971e+01°)
1.27057410520854e+00	(-1.25756053268268e+02dB,9.00061347189590e+01°)
1.27350308101666e+00	(-1.25736053267984e+02dB,9.00061488609466e+01°)
1.27643880881134e+00	(-1.25716053267698e+02dB,9.00061630355349e+01°)
1.27938130415752e+00	(-1.25696053267411e+02dB,9.00061772427989e+01°)
1.28233058265602e+00	(-1.25676053267123e+02dB,9.00061914828141e+01°)
1.28528665994361e+00	(-1.25656053266833e+02dB,9.00062057556558e+01°)
1.28824955169313e+00	(-1.25636053266542e+02dB,9.00062200613999e+01°)
1.29121927361353e+00	(-1.25616053266250e+02dB,9.00062344001222e+01°)
1.29419584144998e+00	(-1.25596053265957e+02dB,9.00062487718986e+01°)
1.29717927098395e+00	(-1.25576053265662e+02dB,9.00062631768053e+01°)
1.30016957803328e+00	(-1.25556053265365e+02dB,9.00062776149188e+01°)
1.30316677845229e+00	(-1.25536053265068e+02dB,9.00062920863156e+01°)
1.30617088813183e+00	(-1.25516053264769e+02dB,9.00063065910724e+01°)
1.30918192299940e+00	(-1.25496053264468e+02dB,9.00063211292661e+01°)
1.31219989901920e+00	(-1.25476053264167e+02dB,9.00063357009738e+01°)
1.31522483219223e+00	(-1.25456053263863e+02dB,9.00063503062728e+01°)
1.31825673855640e+00	(-1.25436053263559e+02dB,9.00063649452404e+01°)
1.32129563418657e+00	(-1.25416053263253e+02dB,9.00063796179544e+01°)
1.32434153519466e+00	(-1.25396053262945e+02dB,9.00063943244925e+01°)
1.32739445772973e+00	(-1.25376053262637e+02dB,9.00064090649326e+01°)
1.33045441797808e+00	(-1.25356053262326e+02dB,9.00064238393530e+01°)
1.33352143216332e+00	(-1.25336053262015e+02dB,9.00064386478319e+01°)
1.33659551654643e+00	(-1.25316053261701e+02dB,9.00064534904479e+01°)
1.33967668742593e+00	(-1.25296053261387e+02dB,9.00064683672796e+01°)
1.34276496113786e+00	(-1.25276053261071e+02dB,9.00064832784060e+01°)
1.34586035405594e+00	(-1.25256053260753e+02dB,9.00064982239060e+01°)
1.34896288259164e+00	(-1.25236053260434e+02dB,9.00065132038590e+01°)
1.35207256319427e+00	(-1.25216053260114e+02dB,9.00065282183444e+01°)
1.35518941235103e+00	(-1.25196053259792e+02dB,9.00065432674417e+01°)
1.35831344658715e+00	(-1.25176053259469e+02dB,9.00065583512308e+01°)
1.36144468246594e+00	(-1.25156053259144e+02dB,9.00065734697916e+01°)
1.36458313658892e+00	(-1.25136053258817e+02dB,9.00065886232043e+01°)
1.36772882559584e+00	(-1.25116053258490e+02dB,9.00066038115492e+01°)
1.37088176616484e+00	(-1.25096053258160e+02dB,9.00066190349069e+01°)
1.37404197501251e+00	(-1.25076053257829e+02dB,9.00066342933580e+01°)
1.37720946889394e+00	(-1.25056053257497e+02dB,9.00066495869834e+01°)
1.38038426460288e+00	(-1.25036053257163e+02dB,9.00066649158644e+01°)
1.38356637897177e+00	(-1.25016053256827e+02dB,9.00066802800820e+01°)
1.38675582887188e+00	(-1.24996053256490e+02dB,9.00066956797178e+01°)
1.38995263121334e+00	(-1.24976053256152e+02dB,9.00067111148535e+01°)
1.39315680294529e+00	(-1.24956053255811e+02dB,9.00067265855708e+01°)
1.39636836105593e+00	(-1.24936053255470e+02dB,9.00067420919518e+01°)
1.39958732257261e+00	(-1.24916053255126e+02dB,9.00067576340787e+01°)
1.40281370456195e+00	(-1.24896053254781e+02dB,9.00067732120338e+01°)
1.40604752412990e+00	(-1.24876053254435e+02dB,9.00067888258999e+01°)
1.40928879842186e+00	(-1.24856053254087e+02dB,9.00068044757597e+01°)
1.41253754462274e+00	(-1.24836053253737e+02dB,9.00068201616961e+01°)
1.41579377995707e+00	(-1.24816053253386e+02dB,9.00068358837924e+01°)
1.41905752168908e+00	(-1.24796053253033e+02dB,9.00068516421317e+01°)
1.42232878712281e+00	(-1.24776053252678e+02dB,9.00068674367979e+01°)
1.42560759360218e+00	(-1.24756053252322e+02dB,9.00068832678745e+01°)
1.42889395851109e+00	(-1.24736053251964e+02dB,9.00068991354455e+01°)
1.43218789927353e+00	(-1.24716053251605e+02dB,9.00069150395950e+01°)
1.43548943335364e+00	(-1.24696053251243e+02dB,9.00069309804073e+01°)
1.43879857825583e+00	(-1.24676053250880e+02dB,9.00069469579671e+01°)
1.44211535152486e+00	(-1.24656053250516e+02dB,9.00069629723589e+01°)
1.44543977074592e+00	(-1.24636053250150e+02dB,9.00069790236677e+01°)
1.44877185354475e+00	(-1.24616053249782e+02dB,9.00069951119786e+01°)
1.45211161758773e+00	(-1.24596053249412e+02dB,9.00070112373768e+01°)
1.45545908058195e+00	(-1.24576053249041e+02dB,9.00070273999480e+01°)
1.45881426027534e+00	(-1.24556053248668e+02dB,9.00070435997777e+01°)
1.46217717445671e+00	(-1.24536053248293e+02dB,9.00070598369519e+01°)
1.46554784095590e+00	(-1.24516053247917e+02dB,9.00070761115566e+01°)
1.46892627764385e+00	(-1.24496053247539e+02dB,9.00070924236782e+01°)
1.47231250243271e+00	(-1.24476053247159e+02dB,9.00071087734031e+01°)
1.47570653327588e+00	(-1.24456053246777e+02dB,9.00071251608180e+01°)
1.47910838816819e+00	(-1.24436053246393e+02dB,9.00071415860098e+01°)
1.48251808514594e+00	(-1.24416053246008e+02dB,9.00071580490656e+01°)
1.48593564228699e+00	(-1.24396053245621e+02dB,9.00071745500726e+01°)
1.48936107771090e+00	(-1.24376053245232e+02dB,9.00071910891184e+01°)
1.49279440957898e+00	(-1.24356053244842e+02dB,9.00072076662906e+01°)
1.49623565609442e+00	(-1.24336053244449e+02dB,9.00072242816771e+01°)
1.49968483550236e+00	(-1.24316053244055e+02dB,9.00072409353661e+01°)
1.50314196609001e+00	(-1.24296053243659e+02dB,9.00072576274458e+01°)
1.50660706618673e+00	(-1.24276053243261e+02dB,9.00072743580046e+01°)
1.51008015416413e+00	(-1.24256053242862e+02dB,9.00072911271315e+01°)
1.51356124843619e+00	(-1.24236053242460e+02dB,9.00073079349151e+01°)
1.51705036745932e+00	(-1.24216053242057e+02dB,9.00073247814447e+01°)
1.52054752973248e+00	(-1.24196053241651e+02dB,9.00073416668095e+01°)
1.52405275379728e+00	(-1.24176053241244e+02dB,9.00073585910991e+01°)
1.52756605823806e+00	(-1.24156053240835e+02dB,9.00073755544033e+01°)
1.53108746168202e+00	(-1.24136053240424e+02dB,9.00073925568119e+01°)
1.53461698279928e+00	(-1.24116053240012e+02dB,9.00074095984151e+01°)
1.53815464030302e+00	(-1.24096053239597e+02dB,9.00074266793032e+01°)
1.54170045294954e+00	(-1.24076053239180e+02dB,9.00074437995669e+01°)
1.54525443953840e+00	(-1.24056053238762e+02dB,9.00074609592968e+01°)
1.54881661891247e+00	(-1.24036053238341e+02dB,9.00074781585840e+01°)
1.55238700995807e+00	(-1.24016053237919e+02dB,9.00074953975196e+01°)
1.55596563160506e+00	(-1.23996053237495e+02dB,9.00075126761951e+01°)
1.55955250282694e+00	(-1.23976053237068e+02dB,9.00075299947021e+01°)
1.56314764264094e+00	(-1.23956053236640e+02dB,9.00075473531323e+01°)
1.56675107010813e+00	(-1.23936053236210e+02dB,9.00075647515779e+01°)
1.57036280433354e+00	(-1.23916053235778e+02dB,9.00075821901310e+01°)
1.57398286446620e+00	(-1.23896053235343e+02dB,9.00075996688841e+01°)
1.57761126969933e+00	(-1.23876053234907e+02dB,9.00076171879299e+01°)
1.58124803927037e+00	(-1.23856053234469e+02dB,9.00076347473613e+01°)
1.58489319246110e+00	(-1.23836053234029e+02dB,9.00076523472713e+01°)
1.58854674859776e+00	(-1.23816053233586e+02dB,9.00076699877533e+01°)
1.59220872705115e+00	(-1.23796053233142e+02dB,9.00076876689009e+01°)
1.59587914723672e+00	(-1.23776053232696e+02dB,9.00077053908076e+01°)
1.59955802861465e+00	(-1.23756053232247e+02dB,9.00077231535676e+01°)
1.60324539069002e+00	(-1.23736053231797e+02dB,9.00077409572750e+01°)
1.60694125301286e+00	(-1.23716053231344e+02dB,9.00077588020242e+01°)
1.61064563517825e+00	(-1.23696053230889e+02dB,9.00077766879097e+01°)
1.61435855682647e+00	(-1.23676053230432e+02dB,9.00077946150265e+01°)
1.61808003764305e+00	(-1.23656053229974e+02dB,9.00078125834696e+01°)
1.62181009735891e+00	(-1.23636053229512e+02dB,9.00078305933341e+01°)
1.62554875575047e+00	(-1.23616053229049e+02dB,9.00078486447158e+01°)
1.62929603263970e+00	(-1.23596053228584e+02dB,9.00078667377101e+01°)
1.63305194789432e+00	(-1.23576053228117e+02dB,9.00078848724131e+01°)
1.63681652142779e+00	(-1.23556053227647e+02dB,9.00079030489209e+01°)
1.64058977319952e+00	(-1.23536053227175e+02dB,9.00079212673299e+01°)
1.64437172321491e+00	(-1.23516053226701e+02dB,9.00079395277366e+01°)
1.64816239152549e+00	(-1.23496053226225e+02dB,9.00079578302380e+01°)
1.65196179822900e+00	(-1.23476053225747e+02dB,9.00079761749309e+01°)
1.65576996346951e+00	(-1.23456053225266e+02dB,9.00079945619128e+01°)
1.65958690743754e+00	(-1.23436053224784e+02dB,9.00080129912809e+01°)
1.66341265037015e+00	(-1.23416053224299e+02dB,9.00080314631332e+01°)
1.66724721255104e+00	(-1.23396053223811e+02dB,9.00080499775675e+01°)
1.67109061431069e+00	(-1.23376053223322e+02dB,9.00080685346820e+01°)
1.67494287602642e+00	(-1.23356053222830e+02dB,9.00080871345750e+01°)
1.67880401812254e+00	(-1.23336053222336e+02dB,9.00081057773453e+01°)
1.68267406107045e+00	(-1.23316053221840e+02dB,9.00081244630915e+01°)
1.68655302538872e+00	(-1.23296053221341e+02dB,9.00081431919128e+01°)
1.69044093164324e+00	(-1.23276053220840e+02dB,9.00081619639085e+01°)
1.69433780044731e+00	(-1.23256053220337e+02dB,9.00081807791782e+01°)
1.69824365246172e+00	(-1.23236053219832e+02dB,9.00081996378215e+01°)
1.70215850839493e+00	(-1.23216053219324e+02dB,9.00082185399385e+01°)
1.70608238900310e+00	(-1.23196053218814e+02dB,9.00082374856293e+01°)
1.71001531509027e+00	(-1.23176053218301e+02dB,9.00082564749945e+01°)
1.71395730750840e+00	(-1.23156053217786e+02dB,9.00082755081346e+01°)
1.71790838715757e+00	(-1.23136053217269e+02dB,9.00082945851507e+01°)
1.72186857498599e+00	(-1.23116053216749e+02dB,9.00083137061439e+01°)
1.72583789199018e+00	(-1.23096053216227e+02dB,9.00083328712155e+01°)
1.72981635921508e+00	(-1.23076053215703e+02dB,9.00083520804671e+01°)
1.73380399775412e+00	(-1.23056053215176e+02dB,9.00083713340007e+01°)
1.73780082874935e+00	(-1.23036053214647e+02dB,9.00083906319182e+01°)
1.74180687339159e+00	(-1.23016053214115e+02dB,9.00084099743220e+01°)
1.74582215292048e+00	(-1.22996053213581e+02dB,9.00084293613146e+01°)
1.74984668862464e+00	(-1.22976053213044e+02dB,9.00084487929989e+01°)
1.75388050184174e+00	(-1.22956053212505e+02dB,9.00084682694779e+01°)
1.75792361395867e+00	(-1.22936053211963e+02dB,9.00084877908547e+01°)
1.76197604641161e+00	(-1.22916053211419e+02dB,9.00085073572330e+01°)
1.76603782068614e+00	(-1.22896053210872e+02dB,9.00085269687164e+01°)
1.77010895831740e+00	(-1.22876053210323e+02dB,9.00085466254090e+01°)
1.77418948089014e+00	(-1.22856053209771e+02dB,9.00085663274149e+01°)
1.77827941003890e+00	(-1.22836053209217e+02dB,9.00085860748386e+01°)
1.78237876744807e+00	(-1.22816053208660e+02dB,9.00086058677849e+01°)
1.78648757485203e+00	(-1.22796053208101e+02dB,9.00086257063586e+01°)
1.79060585403527e+00	(-1.22776053207539e+02dB,9.00086455906649e+01°)
1.79473362683250e+00	(-1.22756053206974e+02dB,9.00086655208093e+01°)
1.79887091512876e+00	(-1.22736053206407e+02dB,9.00086854968974e+01°)
1.80301774085955e+00	(-1.22716053205837e+02dB,9.00087055190351e+01°)
1.80717412601090e+00	(-1.22696053205265e+02dB,9.00087255873287e+01°)
1.81134009261958e+00	(-1.22676053204690e+02dB,9.00087457018844e+01°)
1.81551566277311e+00	(-1.22656053204112e+02dB,9.00087658628090e+01°)
1.81970085860996e+00	(-1.22636053203532e+02dB,9.00087860702093e+01°)
1.82389570231961e+00	(-1.22616053202949e+02dB,9.00088063241924e+01°)
1.82810021614272e+00	(-1.22596053202363e+02dB,9.00088266248658e+01°)
1.83231442237119e+00	(-1.22576053201774e+02dB,9.00088469723371e+01°)
1.83653834334832e+00	(-1.22556053201183e+02dB,9.00088673667142e+01°)
1.84077200146893e+00	(-1.22536053200589e+02dB,9.00088878081051e+01°)
1.84501541917945e+00	(-1.22516053199993e+02dB,9.00089082966183e+01°)
1.84926861897805e+00	(-1.22496053199393e+02dB,9.00089288323624e+01°)
1.85353162341479e+00	(-1.22476053198791e+02dB,9.00089494154463e+01°)
1.85780445509167e+00	(-1.22456053198186e+02dB,9.00089700459791e+01°)
1.86208713666284e+00	(-1.22436053197578e+02dB,9.00089907240702e+01°)
1.86637969083464e+00	(-1.22416053196968e+02dB,9.00090114498292e+01°)
1.87068214036577e+00	(-1.22396053196354e+02dB,9.00090322233660e+01°)
1.87499450806739e+00	(-1.22376053195738e+02dB,9.00090530447907e+01°)
1.87931681680324e+00	(-1.22356053195119e+02dB,9.00090739142138e+01°)
1.88364908948977e+00	(-1.22336053194497e+02dB,9.00090948317459e+01°)
1.88799134909627e+00	(-1.22316053193873e+02dB,9.00091157974978e+01°)
1.89234361864495e+00	(-1.22296053193245e+02dB,9.00091368115808e+01°)
1.89670592121112e+00	(-1.22276053192614e+02dB,9.00091578741063e+01°)
1.90107827992327e+00	(-1.22256053191981e+02dB,9.00091789851859e+01°)
1.90546071796322e+00	(-1.22236053191344e+02dB,9.00092001449316e+01°)
1.90985325856621e+00	(-1.22216053190705e+02dB,9.00092213534555e+01°)
1.91425592502106e+00	(-1.22196053190063e+02dB,9.00092426108701e+01°)
1.91866874067026e+00	(-1.22176053189418e+02dB,9.00092639172881e+01°)
1.92309172891013e+00	(-1.22156053188769e+02dB,9.00092852728224e+01°)
