Freq.	V(out_fs)
1.00000000000000e+00	(-1.22102782076356e+02dB,-9.00000018875576e+01°)
1.00230523807790e+00	(-1.22082782076356e+02dB,-9.00000018919089e+01°)
1.00461579027839e+00	(-1.22062782076356e+02dB,-9.00000018962702e+01°)
1.00693166885180e+00	(-1.22042782076356e+02dB,-9.00000019006416e+01°)
1.00925288607668e+00	(-1.22022782076356e+02dB,-9.00000019050230e+01°)
1.01157945425990e+00	(-1.22002782076356e+02dB,-9.00000019094145e+01°)
1.01391138573668e+00	(-1.21982782076356e+02dB,-9.00000019138162e+01°)
1.01624869287070e+00	(-1.21962782076356e+02dB,-9.00000019182280e+01°)
1.01859138805412e+00	(-1.21942782076356e+02dB,-9.00000019226500e+01°)
1.02093948370768e+00	(-1.21922782076356e+02dB,-9.00000019270821e+01°)
1.02329299228075e+00	(-1.21902782076356e+02dB,-9.00000019315245e+01°)
1.02565192625141e+00	(-1.21882782076356e+02dB,-9.00000019359771e+01°)
1.02801629812647e+00	(-1.21862782076356e+02dB,-9.00000019404400e+01°)
1.03038612044162e+00	(-1.21842782076356e+02dB,-9.00000019449132e+01°)
1.03276140576140e+00	(-1.21822782076356e+02dB,-9.00000019493967e+01°)
1.03514216667934e+00	(-1.21802782076356e+02dB,-9.00000019538905e+01°)
1.03752841581801e+00	(-1.21782782076356e+02dB,-9.00000019583947e+01°)
1.03992016582906e+00	(-1.21762782076356e+02dB,-9.00000019629093e+01°)
1.04231742939330e+00	(-1.21742782076356e+02dB,-9.00000019674342e+01°)
1.04472021922080e+00	(-1.21722782076356e+02dB,-9.00000019719696e+01°)
1.04712854805090e+00	(-1.21702782076356e+02dB,-9.00000019765155e+01°)
1.04954242865232e+00	(-1.21682782076356e+02dB,-9.00000019810718e+01°)
1.05196187382322e+00	(-1.21662782076356e+02dB,-9.00000019856387e+01°)
1.05438689639126e+00	(-1.21642782076356e+02dB,-9.00000019902160e+01°)
1.05681750921366e+00	(-1.21622782076356e+02dB,-9.00000019948040e+01°)
1.05925372517729e+00	(-1.21602782076356e+02dB,-9.00000019994025e+01°)
1.06169555719872e+00	(-1.21582782076356e+02dB,-9.00000020040116e+01°)
1.06414301822431e+00	(-1.21562782076356e+02dB,-9.00000020086313e+01°)
1.06659612123026e+00	(-1.21542782076356e+02dB,-9.00000020132617e+01°)
1.06905487922266e+00	(-1.21522782076356e+02dB,-9.00000020179027e+01°)
1.07151930523761e+00	(-1.21502782076356e+02dB,-9.00000020225545e+01°)
1.07398941234124e+00	(-1.21482782076356e+02dB,-9.00000020272169e+01°)
1.07646521362983e+00	(-1.21462782076356e+02dB,-9.00000020318901e+01°)
1.07894672222983e+00	(-1.21442782076356e+02dB,-9.00000020365741e+01°)
1.08143395129794e+00	(-1.21422782076356e+02dB,-9.00000020412689e+01°)
1.08392691402120e+00	(-1.21402782076356e+02dB,-9.00000020459745e+01°)
1.08642562361706e+00	(-1.21382782076356e+02dB,-9.00000020506910e+01°)
1.08893009333343e+00	(-1.21362782076356e+02dB,-9.00000020554183e+01°)
1.09144033644876e+00	(-1.21342782076356e+02dB,-9.00000020601565e+01°)
1.09395636627209e+00	(-1.21322782076356e+02dB,-9.00000020649057e+01°)
1.09647819614318e+00	(-1.21302782076356e+02dB,-9.00000020696658e+01°)
1.09900583943252e+00	(-1.21282782076356e+02dB,-9.00000020744369e+01°)
1.10153930954141e+00	(-1.21262782076356e+02dB,-9.00000020792189e+01°)
1.10407861990207e+00	(-1.21242782076356e+02dB,-9.00000020840120e+01°)
1.10662378397766e+00	(-1.21222782076356e+02dB,-9.00000020888162e+01°)
1.10917481526240e+00	(-1.21202782076356e+02dB,-9.00000020936314e+01°)
1.11173172728159e+00	(-1.21182782076356e+02dB,-9.00000020984577e+01°)
1.11429453359173e+00	(-1.21162782076356e+02dB,-9.00000021032952e+01°)
1.11686324778056e+00	(-1.21142782076356e+02dB,-9.00000021081438e+01°)
1.11943788346715e+00	(-1.21122782076356e+02dB,-9.00000021130035e+01°)
1.12201845430196e+00	(-1.21102782076356e+02dB,-9.00000021178745e+01°)
1.12460497396692e+00	(-1.21082782076356e+02dB,-9.00000021227567e+01°)
1.12719745617551e+00	(-1.21062782076356e+02dB,-9.00000021276502e+01°)
1.12979591467280e+00	(-1.21042782076356e+02dB,-9.00000021325549e+01°)
1.13240036323556e+00	(-1.21022782076356e+02dB,-9.00000021374710e+01°)
1.13501081567231e+00	(-1.21002782076356e+02dB,-9.00000021423983e+01°)
1.13762728582343e+00	(-1.20982782076356e+02dB,-9.00000021473371e+01°)
1.14024978756117e+00	(-1.20962782076356e+02dB,-9.00000021522872e+01°)
1.14287833478977e+00	(-1.20942782076356e+02dB,-9.00000021572487e+01°)
1.14551294144553e+00	(-1.20922782076356e+02dB,-9.00000021622217e+01°)
1.14815362149688e+00	(-1.20902782076356e+02dB,-9.00000021672061e+01°)
1.15080038894443e+00	(-1.20882782076356e+02dB,-9.00000021722021e+01°)
1.15345325782109e+00	(-1.20862782076356e+02dB,-9.00000021772095e+01°)
1.15611224219210e+00	(-1.20842782076356e+02dB,-9.00000021822285e+01°)
1.15877735615512e+00	(-1.20822782076356e+02dB,-9.00000021872591e+01°)
1.16144861384034e+00	(-1.20802782076356e+02dB,-9.00000021923012e+01°)
1.16412602941049e+00	(-1.20782782076356e+02dB,-9.00000021973550e+01°)
1.16680961706096e+00	(-1.20762782076356e+02dB,-9.00000022024204e+01°)
1.16949939101987e+00	(-1.20742782076356e+02dB,-9.00000022074975e+01°)
1.17219536554813e+00	(-1.20722782076356e+02dB,-9.00000022125863e+01°)
1.17489755493953e+00	(-1.20702782076356e+02dB,-9.00000022176869e+01°)
1.17760597352080e+00	(-1.20682782076356e+02dB,-9.00000022227992e+01°)
1.18032063565173e+00	(-1.20662782076356e+02dB,-9.00000022279232e+01°)
1.18304155572516e+00	(-1.20642782076356e+02dB,-9.00000022330591e+01°)
1.18576874816716e+00	(-1.20622782076356e+02dB,-9.00000022382069e+01°)
1.18850222743702e+00	(-1.20602782076356e+02dB,-9.00000022433665e+01°)
1.19124200802737e+00	(-1.20582782076356e+02dB,-9.00000022485380e+01°)
1.19398810446427e+00	(-1.20562782076356e+02dB,-9.00000022537214e+01°)
1.19674053130724e+00	(-1.20542782076356e+02dB,-9.00000022589167e+01°)
1.19949930314938e+00	(-1.20522782076356e+02dB,-9.00000022641241e+01°)
1.20226443461741e+00	(-1.20502782076356e+02dB,-9.00000022693434e+01°)
1.20503594037179e+00	(-1.20482782076356e+02dB,-9.00000022745748e+01°)
1.20781383510678e+00	(-1.20462782076356e+02dB,-9.00000022798182e+01°)
1.21059813355048e+00	(-1.20442782076356e+02dB,-9.00000022850738e+01°)
1.21338885046497e+00	(-1.20422782076356e+02dB,-9.00000022903414e+01°)
1.21618600064636e+00	(-1.20402782076356e+02dB,-9.00000022956212e+01°)
1.21898959892486e+00	(-1.20382782076356e+02dB,-9.00000023009131e+01°)
1.22179966016487e+00	(-1.20362782076356e+02dB,-9.00000023062173e+01°)
1.22461619926504e+00	(-1.20342782076356e+02dB,-9.00000023115337e+01°)
1.22743923115840e+00	(-1.20322782076356e+02dB,-9.00000023168623e+01°)
1.23026877081238e+00	(-1.20302782076356e+02dB,-9.00000023222032e+01°)
1.23310483322890e+00	(-1.20282782076356e+02dB,-9.00000023275565e+01°)
1.23594743344451e+00	(-1.20262782076356e+02dB,-9.00000023329220e+01°)
1.23879658653036e+00	(-1.20242782076356e+02dB,-9.00000023383000e+01°)
1.24165230759241e+00	(-1.20222782076356e+02dB,-9.00000023436903e+01°)
1.24451461177138e+00	(-1.20202782076356e+02dB,-9.00000023490931e+01°)
1.24738351424294e+00	(-1.20182782076356e+02dB,-9.00000023545083e+01°)
1.25025903021771e+00	(-1.20162782076356e+02dB,-9.00000023599360e+01°)
1.25314117494141e+00	(-1.20142782076356e+02dB,-9.00000023653762e+01°)
1.25602996369487e+00	(-1.20122782076356e+02dB,-9.00000023708290e+01°)
1.25892541179416e+00	(-1.20102782076356e+02dB,-9.00000023762943e+01°)
1.26182753459066e+00	(-1.20082782076356e+02dB,-9.00000023817722e+01°)
1.26473634747115e+00	(-1.20062782076356e+02dB,-9.00000023872628e+01°)
1.26765186585784e+00	(-1.20042782076356e+02dB,-9.00000023927660e+01°)
1.27057410520854e+00	(-1.20022782076356e+02dB,-9.00000023982819e+01°)
1.27350308101666e+00	(-1.20002782076356e+02dB,-9.00000024038105e+01°)
1.27643880881134e+00	(-1.19982782076356e+02dB,-9.00000024093518e+01°)
1.27938130415752e+00	(-1.19962782076356e+02dB,-9.00000024149060e+01°)
1.28233058265602e+00	(-1.19942782076356e+02dB,-9.00000024204729e+01°)
1.28528665994361e+00	(-1.19922782076356e+02dB,-9.00000024260527e+01°)
1.28824955169313e+00	(-1.19902782076356e+02dB,-9.00000024316453e+01°)
1.29121927361353e+00	(-1.19882782076356e+02dB,-9.00000024372508e+01°)
1.29419584144998e+00	(-1.19862782076356e+02dB,-9.00000024428693e+01°)
1.29717927098395e+00	(-1.19842782076356e+02dB,-9.00000024485007e+01°)
1.30016957803328e+00	(-1.19822782076356e+02dB,-9.00000024541450e+01°)
1.30316677845229e+00	(-1.19802782076356e+02dB,-9.00000024598024e+01°)
1.30617088813183e+00	(-1.19782782076356e+02dB,-9.00000024654728e+01°)
1.30918192299940e+00	(-1.19762782076356e+02dB,-9.00000024711563e+01°)
1.31219989901920e+00	(-1.19742782076356e+02dB,-9.00000024768530e+01°)
1.31522483219223e+00	(-1.19722782076356e+02dB,-9.00000024825627e+01°)
1.31825673855640e+00	(-1.19702782076356e+02dB,-9.00000024882856e+01°)
1.32129563418657e+00	(-1.19682782076356e+02dB,-9.00000024940217e+01°)
1.32434153519466e+00	(-1.19662782076356e+02dB,-9.00000024997710e+01°)
1.32739445772973e+00	(-1.19642782076356e+02dB,-9.00000025055336e+01°)
1.33045441797808e+00	(-1.19622782076356e+02dB,-9.00000025113094e+01°)
1.33352143216332e+00	(-1.19602782076356e+02dB,-9.00000025170986e+01°)
1.33659551654643e+00	(-1.19582782076356e+02dB,-9.00000025229011e+01°)
1.33967668742593e+00	(-1.19562782076356e+02dB,-9.00000025287170e+01°)
1.34276496113786e+00	(-1.19542782076356e+02dB,-9.00000025345463e+01°)
1.34586035405594e+00	(-1.19522782076356e+02dB,-9.00000025403890e+01°)
1.34896288259164e+00	(-1.19502782076356e+02dB,-9.00000025462452e+01°)
1.35207256319427e+00	(-1.19482782076356e+02dB,-9.00000025521149e+01°)
1.35518941235103e+00	(-1.19462782076356e+02dB,-9.00000025579981e+01°)
1.35831344658715e+00	(-1.19442782076356e+02dB,-9.00000025638949e+01°)
1.36144468246594e+00	(-1.19422782076356e+02dB,-9.00000025698053e+01°)
1.36458313658892e+00	(-1.19402782076356e+02dB,-9.00000025757293e+01°)
1.36772882559584e+00	(-1.19382782076356e+02dB,-9.00000025816670e+01°)
1.37088176616484e+00	(-1.19362782076356e+02dB,-9.00000025876184e+01°)
1.37404197501251e+00	(-1.19342782076356e+02dB,-9.00000025935834e+01°)
1.37720946889394e+00	(-1.19322782076356e+02dB,-9.00000025995623e+01°)
1.38038426460288e+00	(-1.19302782076356e+02dB,-9.00000026055549e+01°)
1.38356637897177e+00	(-1.19282782076356e+02dB,-9.00000026115613e+01°)
1.38675582887188e+00	(-1.19262782076356e+02dB,-9.00000026175816e+01°)
1.38995263121334e+00	(-1.19242782076356e+02dB,-9.00000026236157e+01°)
1.39315680294529e+00	(-1.19222782076356e+02dB,-9.00000026296638e+01°)
1.39636836105593e+00	(-1.19202782076356e+02dB,-9.00000026357258e+01°)
1.39958732257261e+00	(-1.19182782076356e+02dB,-9.00000026418018e+01°)
1.40281370456195e+00	(-1.19162782076356e+02dB,-9.00000026478917e+01°)
1.40604752412990e+00	(-1.19142782076356e+02dB,-9.00000026539958e+01°)
1.40928879842186e+00	(-1.19122782076356e+02dB,-9.00000026601139e+01°)
1.41253754462274e+00	(-1.19102782076356e+02dB,-9.00000026662460e+01°)
1.41579377995707e+00	(-1.19082782076356e+02dB,-9.00000026723924e+01°)
1.41905752168908e+00	(-1.19062782076356e+02dB,-9.00000026785529e+01°)
1.42232878712281e+00	(-1.19042782076356e+02dB,-9.00000026847276e+01°)
1.42560759360218e+00	(-1.19022782076356e+02dB,-9.00000026909165e+01°)
1.42889395851109e+00	(-1.19002782076356e+02dB,-9.00000026971197e+01°)
1.43218789927353e+00	(-1.18982782076356e+02dB,-9.00000027033372e+01°)
1.43548943335364e+00	(-1.18962782076356e+02dB,-9.00000027095691e+01°)
1.43879857825583e+00	(-1.18942782076356e+02dB,-9.00000027158153e+01°)
1.44211535152486e+00	(-1.18922782076356e+02dB,-9.00000027220758e+01°)
1.44543977074592e+00	(-1.18902782076356e+02dB,-9.00000027283509e+01°)
1.44877185354475e+00	(-1.18882782076356e+02dB,-9.00000027346404e+01°)
1.45211161758773e+00	(-1.18862782076356e+02dB,-9.00000027409444e+01°)
1.45545908058195e+00	(-1.18842782076356e+02dB,-9.00000027472629e+01°)
1.45881426027534e+00	(-1.18822782076356e+02dB,-9.00000027535960e+01°)
1.46217717445671e+00	(-1.18802782076356e+02dB,-9.00000027599437e+01°)
1.46554784095590e+00	(-1.18782782076356e+02dB,-9.00000027663060e+01°)
1.46892627764385e+00	(-1.18762782076356e+02dB,-9.00000027726830e+01°)
1.47231250243271e+00	(-1.18742782076356e+02dB,-9.00000027790747e+01°)
1.47570653327588e+00	(-1.18722782076356e+02dB,-9.00000027854812e+01°)
1.47910838816819e+00	(-1.18702782076356e+02dB,-9.00000027919023e+01°)
1.48251808514594e+00	(-1.18682782076356e+02dB,-9.00000027983384e+01°)
1.48593564228699e+00	(-1.18662782076356e+02dB,-9.00000028047892e+01°)
1.48936107771090e+00	(-1.18642782076356e+02dB,-9.00000028112549e+01°)
1.49279440957898e+00	(-1.18622782076356e+02dB,-9.00000028177355e+01°)
1.49623565609442e+00	(-1.18602782076356e+02dB,-9.00000028242311e+01°)
1.49968483550236e+00	(-1.18582782076356e+02dB,-9.00000028307416e+01°)
1.50314196609001e+00	(-1.18562782076356e+02dB,-9.00000028372671e+01°)
1.50660706618673e+00	(-1.18542782076356e+02dB,-9.00000028438077e+01°)
1.51008015416413e+00	(-1.18522782076356e+02dB,-9.00000028503633e+01°)
1.51356124843619e+00	(-1.18502782076356e+02dB,-9.00000028569341e+01°)
1.51705036745932e+00	(-1.18482782076356e+02dB,-9.00000028635200e+01°)
1.52054752973248e+00	(-1.18462782076356e+02dB,-9.00000028701211e+01°)
1.52405275379728e+00	(-1.18442782076356e+02dB,-9.00000028767374e+01°)
1.52756605823806e+00	(-1.18422782076356e+02dB,-9.00000028833690e+01°)
1.53108746168202e+00	(-1.18402782076356e+02dB,-9.00000028900158e+01°)
1.53461698279928e+00	(-1.18382782076356e+02dB,-9.00000028966780e+01°)
1.53815464030302e+00	(-1.18362782076356e+02dB,-9.00000029033556e+01°)
1.54170045294954e+00	(-1.18342782076356e+02dB,-9.00000029100485e+01°)
1.54525443953840e+00	(-1.18322782076356e+02dB,-9.00000029167568e+01°)
1.54881661891247e+00	(-1.18302782076356e+02dB,-9.00000029234807e+01°)
1.55238700995807e+00	(-1.18282782076356e+02dB,-9.00000029302200e+01°)
1.55596563160506e+00	(-1.18262782076356e+02dB,-9.00000029369748e+01°)
1.55955250282694e+00	(-1.18242782076356e+02dB,-9.00000029437452e+01°)
1.56314764264094e+00	(-1.18222782076356e+02dB,-9.00000029505313e+01°)
1.56675107010813e+00	(-1.18202782076356e+02dB,-9.00000029573330e+01°)
1.57036280433354e+00	(-1.18182782076356e+02dB,-9.00000029641503e+01°)
1.57398286446620e+00	(-1.18162782076356e+02dB,-9.00000029709834e+01°)
1.57761126969933e+00	(-1.18142782076356e+02dB,-9.00000029778322e+01°)
1.58124803927037e+00	(-1.18122782076356e+02dB,-9.00000029846968e+01°)
1.58489319246110e+00	(-1.18102782076356e+02dB,-9.00000029915773e+01°)
1.58854674859776e+00	(-1.18082782076356e+02dB,-9.00000029984736e+01°)
1.59220872705115e+00	(-1.18062782076356e+02dB,-9.00000030053858e+01°)
1.59587914723672e+00	(-1.18042782076356e+02dB,-9.00000030123139e+01°)
1.59955802861465e+00	(-1.18022782076356e+02dB,-9.00000030192580e+01°)
1.60324539069002e+00	(-1.18002782076356e+02dB,-9.00000030262181e+01°)
1.60694125301286e+00	(-1.17982782076356e+02dB,-9.00000030331942e+01°)
1.61064563517825e+00	(-1.17962782076356e+02dB,-9.00000030401865e+01°)
1.61435855682647e+00	(-1.17942782076356e+02dB,-9.00000030471948e+01°)
1.61808003764305e+00	(-1.17922782076356e+02dB,-9.00000030542193e+01°)
1.62181009735891e+00	(-1.17902782076356e+02dB,-9.00000030612600e+01°)
1.62554875575047e+00	(-1.17882782076356e+02dB,-9.00000030683170e+01°)
1.62929603263970e+00	(-1.17862782076356e+02dB,-9.00000030753902e+01°)
1.63305194789432e+00	(-1.17842782076356e+02dB,-9.00000030824797e+01°)
1.63681652142779e+00	(-1.17822782076356e+02dB,-9.00000030895855e+01°)
1.64058977319952e+00	(-1.17802782076356e+02dB,-9.00000030967078e+01°)
1.64437172321491e+00	(-1.17782782076356e+02dB,-9.00000031038464e+01°)
1.64816239152549e+00	(-1.17762782076356e+02dB,-9.00000031110015e+01°)
1.65196179822900e+00	(-1.17742782076356e+02dB,-9.00000031181731e+01°)
1.65576996346951e+00	(-1.17722782076356e+02dB,-9.00000031253613e+01°)
1.65958690743754e+00	(-1.17702782076356e+02dB,-9.00000031325660e+01°)
1.66341265037015e+00	(-1.17682782076356e+02dB,-9.00000031397873e+01°)
1.66724721255104e+00	(-1.17662782076356e+02dB,-9.00000031470252e+01°)
1.67109061431069e+00	(-1.17642782076356e+02dB,-9.00000031542799e+01°)
1.67494287602642e+00	(-1.17622782076356e+02dB,-9.00000031615512e+01°)
1.67880401812254e+00	(-1.17602782076356e+02dB,-9.00000031688394e+01°)
1.68267406107045e+00	(-1.17582782076356e+02dB,-9.00000031761443e+01°)
1.68655302538872e+00	(-1.17562782076356e+02dB,-9.00000031834661e+01°)
1.69044093164324e+00	(-1.17542782076356e+02dB,-9.00000031908047e+01°)
1.69433780044731e+00	(-1.17522782076356e+02dB,-9.00000031981603e+01°)
1.69824365246172e+00	(-1.17502782076356e+02dB,-9.00000032055328e+01°)
1.70215850839493e+00	(-1.17482782076356e+02dB,-9.00000032129223e+01°)
1.70608238900310e+00	(-1.17462782076356e+02dB,-9.00000032203288e+01°)
1.71001531509027e+00	(-1.17442782076356e+02dB,-9.00000032277525e+01°)
1.71395730750840e+00	(-1.17422782076356e+02dB,-9.00000032351932e+01°)
1.71790838715757e+00	(-1.17402782076356e+02dB,-9.00000032426511e+01°)
1.72186857498599e+00	(-1.17382782076356e+02dB,-9.00000032501262e+01°)
1.72583789199018e+00	(-1.17362782076356e+02dB,-9.00000032576185e+01°)
1.72981635921508e+00	(-1.17342782076356e+02dB,-9.00000032651281e+01°)
1.73380399775412e+00	(-1.17322782076356e+02dB,-9.00000032726550e+01°)
1.73780082874935e+00	(-1.17302782076356e+02dB,-9.00000032801993e+01°)
1.74180687339159e+00	(-1.17282782076356e+02dB,-9.00000032877609e+01°)
1.74582215292048e+00	(-1.17262782076356e+02dB,-9.00000032953400e+01°)
1.74984668862464e+00	(-1.17242782076356e+02dB,-9.00000033029365e+01°)
1.75388050184174e+00	(-1.17222782076356e+02dB,-9.00000033105506e+01°)
1.75792361395867e+00	(-1.17202782076356e+02dB,-9.00000033181822e+01°)
1.76197604641161e+00	(-1.17182782076356e+02dB,-9.00000033258314e+01°)
1.76603782068614e+00	(-1.17162782076356e+02dB,-9.00000033334982e+01°)
1.77010895831740e+00	(-1.17142782076356e+02dB,-9.00000033411827e+01°)
1.77418948089014e+00	(-1.17122782076356e+02dB,-9.00000033488849e+01°)
1.77827941003890e+00	(-1.17102782076356e+02dB,-9.00000033566049e+01°)
1.78237876744807e+00	(-1.17082782076356e+02dB,-9.00000033643427e+01°)
1.78648757485203e+00	(-1.17062782076356e+02dB,-9.00000033720983e+01°)
1.79060585403527e+00	(-1.17042782076356e+02dB,-9.00000033798718e+01°)
1.79473362683250e+00	(-1.17022782076356e+02dB,-9.00000033876632e+01°)
1.79887091512876e+00	(-1.17002782076356e+02dB,-9.00000033954725e+01°)
1.80301774085955e+00	(-1.16982782076356e+02dB,-9.00000034032999e+01°)
1.80717412601090e+00	(-1.16962782076356e+02dB,-9.00000034111453e+01°)
1.81134009261958e+00	(-1.16942782076356e+02dB,-9.00000034190088e+01°)
1.81551566277311e+00	(-1.16922782076356e+02dB,-9.00000034268905e+01°)
1.81970085860996e+00	(-1.16902782076356e+02dB,-9.00000034347903e+01°)
1.82389570231961e+00	(-1.16882782076356e+02dB,-9.00000034427083e+01°)
1.82810021614272e+00	(-1.16862782076356e+02dB,-9.00000034506445e+01°)
1.83231442237119e+00	(-1.16842782076356e+02dB,-9.00000034585991e+01°)
1.83653834334832e+00	(-1.16822782076356e+02dB,-9.00000034665720e+01°)
1.84077200146893e+00	(-1.16802782076356e+02dB,-9.00000034745633e+01°)
1.84501541917945e+00	(-1.16782782076356e+02dB,-9.00000034825730e+01°)
1.84926861897805e+00	(-1.16762782076356e+02dB,-9.00000034906011e+01°)
1.85353162341479e+00	(-1.16742782076356e+02dB,-9.00000034986478e+01°)
1.85780445509167e+00	(-1.16722782076356e+02dB,-9.00000035067130e+01°)
1.86208713666284e+00	(-1.16702782076356e+02dB,-9.00000035147968e+01°)
1.86637969083464e+00	(-1.16682782076356e+02dB,-9.00000035228993e+01°)
1.87068214036577e+00	(-1.16662782076356e+02dB,-9.00000035310204e+01°)
1.87499450806739e+00	(-1.16642782076356e+02dB,-9.00000035391602e+01°)
1.87931681680324e+00	(-1.16622782076356e+02dB,-9.00000035473188e+01°)
1.88364908948977e+00	(-1.16602782076356e+02dB,-9.00000035554962e+01°)
1.88799134909627e+00	(-1.16582782076356e+02dB,-9.00000035636925e+01°)
1.89234361864495e+00	(-1.16562782076356e+02dB,-9.00000035719077e+01°)
1.89670592121112e+00	(-1.16542782076356e+02dB,-9.00000035801418e+01°)
1.90107827992327e+00	(-1.16522782076356e+02dB,-9.00000035883948e+01°)
1.90546071796322e+00	(-1.16502782076356e+02dB,-9.00000035966669e+01°)
