Freq.	V(out_fs)
1.00000000000000e+00	(-1.22109799602196e+02dB,-9.00000020198785e+01°)
1.00230523807790e+00	(-1.22089799602196e+02dB,-9.00000020245348e+01°)
1.00461579027839e+00	(-1.22069799602196e+02dB,-9.00000020292018e+01°)
1.00693166885180e+00	(-1.22049799602196e+02dB,-9.00000020338796e+01°)
1.00925288607668e+00	(-1.22029799602196e+02dB,-9.00000020385682e+01°)
1.01157945425990e+00	(-1.22009799602196e+02dB,-9.00000020432676e+01°)
1.01391138573668e+00	(-1.21989799602196e+02dB,-9.00000020479778e+01°)
1.01624869287070e+00	(-1.21969799602196e+02dB,-9.00000020526989e+01°)
1.01859138805412e+00	(-1.21949799602196e+02dB,-9.00000020574308e+01°)
1.02093948370768e+00	(-1.21929799602196e+02dB,-9.00000020621737e+01°)
1.02329299228075e+00	(-1.21909799602196e+02dB,-9.00000020669275e+01°)
1.02565192625141e+00	(-1.21889799602196e+02dB,-9.00000020716923e+01°)
1.02801629812647e+00	(-1.21869799602196e+02dB,-9.00000020764680e+01°)
1.03038612044162e+00	(-1.21849799602196e+02dB,-9.00000020812548e+01°)
1.03276140576140e+00	(-1.21829799602196e+02dB,-9.00000020860525e+01°)
1.03514216667934e+00	(-1.21809799602196e+02dB,-9.00000020908614e+01°)
1.03752841581801e+00	(-1.21789799602196e+02dB,-9.00000020956813e+01°)
1.03992016582906e+00	(-1.21769799602196e+02dB,-9.00000021005124e+01°)
1.04231742939330e+00	(-1.21749799602196e+02dB,-9.00000021053546e+01°)
1.04472021922080e+00	(-1.21729799602196e+02dB,-9.00000021102079e+01°)
1.04712854805090e+00	(-1.21709799602196e+02dB,-9.00000021150724e+01°)
1.04954242865232e+00	(-1.21689799602196e+02dB,-9.00000021199482e+01°)
1.05196187382322e+00	(-1.21669799602196e+02dB,-9.00000021248352e+01°)
1.05438689639126e+00	(-1.21649799602196e+02dB,-9.00000021297334e+01°)
1.05681750921366e+00	(-1.21629799602196e+02dB,-9.00000021346430e+01°)
1.05925372517729e+00	(-1.21609799602196e+02dB,-9.00000021395638e+01°)
1.06169555719872e+00	(-1.21589799602196e+02dB,-9.00000021444960e+01°)
1.06414301822431e+00	(-1.21569799602196e+02dB,-9.00000021494396e+01°)
1.06659612123026e+00	(-1.21549799602196e+02dB,-9.00000021543946e+01°)
1.06905487922266e+00	(-1.21529799602196e+02dB,-9.00000021593610e+01°)
1.07151930523761e+00	(-1.21509799602196e+02dB,-9.00000021643388e+01°)
1.07398941234124e+00	(-1.21489799602196e+02dB,-9.00000021693281e+01°)
1.07646521362983e+00	(-1.21469799602196e+02dB,-9.00000021743289e+01°)
1.07894672222983e+00	(-1.21449799602196e+02dB,-9.00000021793413e+01°)
1.08143395129794e+00	(-1.21429799602196e+02dB,-9.00000021843652e+01°)
1.08392691402120e+00	(-1.21409799602196e+02dB,-9.00000021894007e+01°)
1.08642562361706e+00	(-1.21389799602196e+02dB,-9.00000021944477e+01°)
1.08893009333343e+00	(-1.21369799602196e+02dB,-9.00000021995065e+01°)
1.09144033644876e+00	(-1.21349799602196e+02dB,-9.00000022045769e+01°)
1.09395636627209e+00	(-1.21329799602196e+02dB,-9.00000022096589e+01°)
1.09647819614318e+00	(-1.21309799602196e+02dB,-9.00000022147527e+01°)
1.09900583943252e+00	(-1.21289799602196e+02dB,-9.00000022198583e+01°)
1.10153930954141e+00	(-1.21269799602196e+02dB,-9.00000022249756e+01°)
1.10407861990207e+00	(-1.21249799602196e+02dB,-9.00000022301047e+01°)
1.10662378397766e+00	(-1.21229799602196e+02dB,-9.00000022352456e+01°)
1.10917481526240e+00	(-1.21209799602196e+02dB,-9.00000022403984e+01°)
1.11173172728159e+00	(-1.21189799602196e+02dB,-9.00000022455630e+01°)
1.11429453359173e+00	(-1.21169799602196e+02dB,-9.00000022507396e+01°)
1.11686324778056e+00	(-1.21149799602196e+02dB,-9.00000022559281e+01°)
1.11943788346715e+00	(-1.21129799602196e+02dB,-9.00000022611285e+01°)
1.12201845430196e+00	(-1.21109799602196e+02dB,-9.00000022663409e+01°)
1.12460497396692e+00	(-1.21089799602196e+02dB,-9.00000022715654e+01°)
1.12719745617551e+00	(-1.21069799602196e+02dB,-9.00000022768019e+01°)
1.12979591467280e+00	(-1.21049799602196e+02dB,-9.00000022820505e+01°)
1.13240036323556e+00	(-1.21029799602196e+02dB,-9.00000022873111e+01°)
1.13501081567231e+00	(-1.21009799602196e+02dB,-9.00000022925839e+01°)
1.13762728582343e+00	(-1.20989799602196e+02dB,-9.00000022978689e+01°)
1.14024978756117e+00	(-1.20969799602196e+02dB,-9.00000023031660e+01°)
1.14287833478977e+00	(-1.20949799602196e+02dB,-9.00000023084754e+01°)
1.14551294144553e+00	(-1.20929799602196e+02dB,-9.00000023137970e+01°)
1.14815362149688e+00	(-1.20909799602196e+02dB,-9.00000023191308e+01°)
1.15080038894443e+00	(-1.20889799602196e+02dB,-9.00000023244770e+01°)
1.15345325782109e+00	(-1.20869799602196e+02dB,-9.00000023298354e+01°)
1.15611224219210e+00	(-1.20849799602196e+02dB,-9.00000023352063e+01°)
1.15877735615512e+00	(-1.20829799602196e+02dB,-9.00000023405895e+01°)
1.16144861384034e+00	(-1.20809799602196e+02dB,-9.00000023459851e+01°)
1.16412602941049e+00	(-1.20789799602196e+02dB,-9.00000023513931e+01°)
1.16680961706096e+00	(-1.20769799602196e+02dB,-9.00000023568137e+01°)
1.16949939101987e+00	(-1.20749799602196e+02dB,-9.00000023622467e+01°)
1.17219536554813e+00	(-1.20729799602196e+02dB,-9.00000023676922e+01°)
1.17489755493953e+00	(-1.20709799602196e+02dB,-9.00000023731503e+01°)
1.17760597352080e+00	(-1.20689799602196e+02dB,-9.00000023786210e+01°)
1.18032063565173e+00	(-1.20669799602196e+02dB,-9.00000023841043e+01°)
1.18304155572516e+00	(-1.20649799602196e+02dB,-9.00000023896002e+01°)
1.18576874816716e+00	(-1.20629799602196e+02dB,-9.00000023951088e+01°)
1.18850222743702e+00	(-1.20609799602196e+02dB,-9.00000024006301e+01°)
1.19124200802737e+00	(-1.20589799602196e+02dB,-9.00000024061641e+01°)
1.19398810446427e+00	(-1.20569799602196e+02dB,-9.00000024117109e+01°)
1.19674053130724e+00	(-1.20549799602196e+02dB,-9.00000024172705e+01°)
1.19949930314938e+00	(-1.20529799602196e+02dB,-9.00000024228428e+01°)
1.20226443461741e+00	(-1.20509799602196e+02dB,-9.00000024284281e+01°)
1.20503594037179e+00	(-1.20489799602196e+02dB,-9.00000024340262e+01°)
1.20781383510678e+00	(-1.20469799602196e+02dB,-9.00000024396372e+01°)
1.21059813355048e+00	(-1.20449799602196e+02dB,-9.00000024452611e+01°)
1.21338885046497e+00	(-1.20429799602196e+02dB,-9.00000024508981e+01°)
1.21618600064636e+00	(-1.20409799602196e+02dB,-9.00000024565479e+01°)
1.21898959892486e+00	(-1.20389799602196e+02dB,-9.00000024622109e+01°)
1.22179966016487e+00	(-1.20369799602196e+02dB,-9.00000024678869e+01°)
1.22461619926504e+00	(-1.20349799602196e+02dB,-9.00000024735759e+01°)
1.22743923115840e+00	(-1.20329799602196e+02dB,-9.00000024792781e+01°)
1.23026877081238e+00	(-1.20309799602196e+02dB,-9.00000024849934e+01°)
1.23310483322890e+00	(-1.20289799602196e+02dB,-9.00000024907219e+01°)
1.23594743344451e+00	(-1.20269799602196e+02dB,-9.00000024964636e+01°)
1.23879658653036e+00	(-1.20249799602196e+02dB,-9.00000025022186e+01°)
1.24165230759241e+00	(-1.20229799602196e+02dB,-9.00000025079868e+01°)
1.24451461177138e+00	(-1.20209799602196e+02dB,-9.00000025137683e+01°)
1.24738351424294e+00	(-1.20189799602196e+02dB,-9.00000025195631e+01°)
1.25025903021771e+00	(-1.20169799602196e+02dB,-9.00000025253713e+01°)
1.25314117494141e+00	(-1.20149799602196e+02dB,-9.00000025311929e+01°)
1.25602996369487e+00	(-1.20129799602196e+02dB,-9.00000025370279e+01°)
1.25892541179416e+00	(-1.20109799602196e+02dB,-9.00000025428764e+01°)
1.26182753459066e+00	(-1.20089799602196e+02dB,-9.00000025487383e+01°)
1.26473634747115e+00	(-1.20069799602196e+02dB,-9.00000025546137e+01°)
1.26765186585784e+00	(-1.20049799602196e+02dB,-9.00000025605028e+01°)
1.27057410520854e+00	(-1.20029799602196e+02dB,-9.00000025664053e+01°)
1.27350308101666e+00	(-1.20009799602196e+02dB,-9.00000025723215e+01°)
1.27643880881134e+00	(-1.19989799602196e+02dB,-9.00000025782513e+01°)
1.27938130415752e+00	(-1.19969799602196e+02dB,-9.00000025841948e+01°)
1.28233058265602e+00	(-1.19949799602196e+02dB,-9.00000025901520e+01°)
1.28528665994361e+00	(-1.19929799602196e+02dB,-9.00000025961229e+01°)
1.28824955169313e+00	(-1.19909799602196e+02dB,-9.00000026021076e+01°)
1.29121927361353e+00	(-1.19889799602196e+02dB,-9.00000026081060e+01°)
1.29419584144998e+00	(-1.19869799602196e+02dB,-9.00000026141183e+01°)
1.29717927098395e+00	(-1.19849799602196e+02dB,-9.00000026201445e+01°)
1.30016957803328e+00	(-1.19829799602196e+02dB,-9.00000026261846e+01°)
1.30316677845229e+00	(-1.19809799602196e+02dB,-9.00000026322385e+01°)
1.30617088813183e+00	(-1.19789799602196e+02dB,-9.00000026383065e+01°)
1.30918192299940e+00	(-1.19769799602196e+02dB,-9.00000026443884e+01°)
1.31219989901920e+00	(-1.19749799602196e+02dB,-9.00000026504843e+01°)
1.31522483219223e+00	(-1.19729799602196e+02dB,-9.00000026565943e+01°)
1.31825673855640e+00	(-1.19709799602196e+02dB,-9.00000026627184e+01°)
1.32129563418657e+00	(-1.19689799602196e+02dB,-9.00000026688566e+01°)
1.32434153519466e+00	(-1.19669799602196e+02dB,-9.00000026750090e+01°)
1.32739445772973e+00	(-1.19649799602196e+02dB,-9.00000026811755e+01°)
1.33045441797808e+00	(-1.19629799602196e+02dB,-9.00000026873563e+01°)
1.33352143216332e+00	(-1.19609799602196e+02dB,-9.00000026935513e+01°)
1.33659551654643e+00	(-1.19589799602196e+02dB,-9.00000026997605e+01°)
1.33967668742593e+00	(-1.19569799602196e+02dB,-9.00000027059841e+01°)
1.34276496113786e+00	(-1.19549799602196e+02dB,-9.00000027122221e+01°)
1.34586035405594e+00	(-1.19529799602196e+02dB,-9.00000027184744e+01°)
1.34896288259164e+00	(-1.19509799602196e+02dB,-9.00000027247411e+01°)
1.35207256319427e+00	(-1.19489799602196e+02dB,-9.00000027310223e+01°)
1.35518941235103e+00	(-1.19469799602196e+02dB,-9.00000027373180e+01°)
1.35831344658715e+00	(-1.19449799602196e+02dB,-9.00000027436281e+01°)
1.36144468246594e+00	(-1.19429799602196e+02dB,-9.00000027499528e+01°)
1.36458313658892e+00	(-1.19409799602196e+02dB,-9.00000027562921e+01°)
1.36772882559584e+00	(-1.19389799602196e+02dB,-9.00000027626460e+01°)
1.37088176616484e+00	(-1.19369799602196e+02dB,-9.00000027690146e+01°)
1.37404197501251e+00	(-1.19349799602196e+02dB,-9.00000027753978e+01°)
1.37720946889394e+00	(-1.19329799602196e+02dB,-9.00000027817958e+01°)
1.38038426460288e+00	(-1.19309799602196e+02dB,-9.00000027882085e+01°)
1.38356637897177e+00	(-1.19289799602196e+02dB,-9.00000027946360e+01°)
1.38675582887188e+00	(-1.19269799602196e+02dB,-9.00000028010783e+01°)
1.38995263121334e+00	(-1.19249799602196e+02dB,-9.00000028075354e+01°)
1.39315680294529e+00	(-1.19229799602196e+02dB,-9.00000028140075e+01°)
1.39636836105593e+00	(-1.19209799602196e+02dB,-9.00000028204944e+01°)
1.39958732257261e+00	(-1.19189799602196e+02dB,-9.00000028269963e+01°)
1.40281370456195e+00	(-1.19169799602196e+02dB,-9.00000028335132e+01°)
1.40604752412990e+00	(-1.19149799602196e+02dB,-9.00000028400452e+01°)
1.40928879842186e+00	(-1.19129799602196e+02dB,-9.00000028465921e+01°)
1.41253754462274e+00	(-1.19109799602196e+02dB,-9.00000028531542e+01°)
1.41579377995707e+00	(-1.19089799602196e+02dB,-9.00000028597314e+01°)
1.41905752168908e+00	(-1.19069799602196e+02dB,-9.00000028663238e+01°)
1.42232878712281e+00	(-1.19049799602196e+02dB,-9.00000028729313e+01°)
1.42560759360218e+00	(-1.19029799602196e+02dB,-9.00000028795541e+01°)
1.42889395851109e+00	(-1.19009799602196e+02dB,-9.00000028861922e+01°)
1.43218789927353e+00	(-1.18989799602196e+02dB,-9.00000028928455e+01°)
1.43548943335364e+00	(-1.18969799602196e+02dB,-9.00000028995142e+01°)
1.43879857825583e+00	(-1.18949799602196e+02dB,-9.00000029061983e+01°)
1.44211535152486e+00	(-1.18929799602196e+02dB,-9.00000029128978e+01°)
1.44543977074592e+00	(-1.18909799602196e+02dB,-9.00000029196127e+01°)
1.44877185354475e+00	(-1.18889799602196e+02dB,-9.00000029263431e+01°)
1.45211161758773e+00	(-1.18869799602196e+02dB,-9.00000029330890e+01°)
1.45545908058195e+00	(-1.18849799602196e+02dB,-9.00000029398505e+01°)
1.45881426027534e+00	(-1.18829799602196e+02dB,-9.00000029466276e+01°)
1.46217717445671e+00	(-1.18809799602196e+02dB,-9.00000029534202e+01°)
1.46554784095590e+00	(-1.18789799602196e+02dB,-9.00000029602286e+01°)
1.46892627764385e+00	(-1.18769799602196e+02dB,-9.00000029670526e+01°)
1.47231250243271e+00	(-1.18749799602196e+02dB,-9.00000029738924e+01°)
1.47570653327588e+00	(-1.18729799602196e+02dB,-9.00000029807479e+01°)
1.47910838816819e+00	(-1.18709799602196e+02dB,-9.00000029876192e+01°)
1.48251808514594e+00	(-1.18689799602196e+02dB,-9.00000029945064e+01°)
1.48593564228699e+00	(-1.18669799602196e+02dB,-9.00000030014094e+01°)
1.48936107771090e+00	(-1.18649799602196e+02dB,-9.00000030083284e+01°)
1.49279440957898e+00	(-1.18629799602196e+02dB,-9.00000030152633e+01°)
1.49623565609442e+00	(-1.18609799602196e+02dB,-9.00000030222142e+01°)
1.49968483550236e+00	(-1.18589799602196e+02dB,-9.00000030291811e+01°)
1.50314196609001e+00	(-1.18569799602196e+02dB,-9.00000030361641e+01°)
1.50660706618673e+00	(-1.18549799602196e+02dB,-9.00000030431632e+01°)
1.51008015416413e+00	(-1.18529799602196e+02dB,-9.00000030501784e+01°)
1.51356124843619e+00	(-1.18509799602196e+02dB,-9.00000030572098e+01°)
1.51705036745932e+00	(-1.18489799602196e+02dB,-9.00000030642574e+01°)
1.52054752973248e+00	(-1.18469799602196e+02dB,-9.00000030713213e+01°)
1.52405275379728e+00	(-1.18449799602196e+02dB,-9.00000030784014e+01°)
1.52756605823806e+00	(-1.18429799602196e+02dB,-9.00000030854978e+01°)
1.53108746168202e+00	(-1.18409799602196e+02dB,-9.00000030926106e+01°)
1.53461698279928e+00	(-1.18389799602196e+02dB,-9.00000030997398e+01°)
1.53815464030302e+00	(-1.18369799602196e+02dB,-9.00000031068855e+01°)
1.54170045294954e+00	(-1.18349799602196e+02dB,-9.00000031140476e+01°)
1.54525443953840e+00	(-1.18329799602196e+02dB,-9.00000031212262e+01°)
1.54881661891247e+00	(-1.18309799602196e+02dB,-9.00000031284214e+01°)
1.55238700995807e+00	(-1.18289799602196e+02dB,-9.00000031356331e+01°)
1.55596563160506e+00	(-1.18269799602196e+02dB,-9.00000031428615e+01°)
1.55955250282694e+00	(-1.18249799602196e+02dB,-9.00000031501066e+01°)
1.56314764264094e+00	(-1.18229799602196e+02dB,-9.00000031573683e+01°)
1.56675107010813e+00	(-1.18209799602196e+02dB,-9.00000031646468e+01°)
1.57036280433354e+00	(-1.18189799602196e+02dB,-9.00000031719421e+01°)
1.57398286446620e+00	(-1.18169799602196e+02dB,-9.00000031792541e+01°)
1.57761126969933e+00	(-1.18149799602196e+02dB,-9.00000031865831e+01°)
1.58124803927037e+00	(-1.18129799602196e+02dB,-9.00000031939289e+01°)
1.58489319246110e+00	(-1.18109799602196e+02dB,-9.00000032012917e+01°)
1.58854674859776e+00	(-1.18089799602196e+02dB,-9.00000032086714e+01°)
1.59220872705115e+00	(-1.18069799602196e+02dB,-9.00000032160682e+01°)
1.59587914723672e+00	(-1.18049799602196e+02dB,-9.00000032234820e+01°)
1.59955802861465e+00	(-1.18029799602196e+02dB,-9.00000032309129e+01°)
1.60324539069002e+00	(-1.18009799602196e+02dB,-9.00000032383609e+01°)
1.60694125301286e+00	(-1.17989799602196e+02dB,-9.00000032458261e+01°)
1.61064563517825e+00	(-1.17969799602196e+02dB,-9.00000032533085e+01°)
1.61435855682647e+00	(-1.17949799602196e+02dB,-9.00000032608081e+01°)
1.61808003764305e+00	(-1.17929799602196e+02dB,-9.00000032683251e+01°)
1.62181009735891e+00	(-1.17909799602196e+02dB,-9.00000032758593e+01°)
1.62554875575047e+00	(-1.17889799602196e+02dB,-9.00000032834110e+01°)
1.62929603263970e+00	(-1.17869799602196e+02dB,-9.00000032909800e+01°)
1.63305194789432e+00	(-1.17849799602196e+02dB,-9.00000032985665e+01°)
1.63681652142779e+00	(-1.17829799602196e+02dB,-9.00000033061705e+01°)
1.64058977319952e+00	(-1.17809799602196e+02dB,-9.00000033137920e+01°)
1.64437172321491e+00	(-1.17789799602196e+02dB,-9.00000033214311e+01°)
1.64816239152549e+00	(-1.17769799602196e+02dB,-9.00000033290878e+01°)
1.65196179822900e+00	(-1.17749799602196e+02dB,-9.00000033367621e+01°)
1.65576996346951e+00	(-1.17729799602196e+02dB,-9.00000033444541e+01°)
1.65958690743754e+00	(-1.17709799602196e+02dB,-9.00000033521639e+01°)
1.66341265037015e+00	(-1.17689799602196e+02dB,-9.00000033598914e+01°)
1.66724721255104e+00	(-1.17669799602196e+02dB,-9.00000033676368e+01°)
1.67109061431069e+00	(-1.17649799602196e+02dB,-9.00000033754000e+01°)
1.67494287602642e+00	(-1.17629799602196e+02dB,-9.00000033831811e+01°)
1.67880401812254e+00	(-1.17609799602196e+02dB,-9.00000033909801e+01°)
1.68267406107045e+00	(-1.17589799602196e+02dB,-9.00000033987971e+01°)
1.68655302538872e+00	(-1.17569799602196e+02dB,-9.00000034066322e+01°)
1.69044093164324e+00	(-1.17549799602196e+02dB,-9.00000034144853e+01°)
1.69433780044731e+00	(-1.17529799602196e+02dB,-9.00000034223565e+01°)
1.69824365246172e+00	(-1.17509799602196e+02dB,-9.00000034302458e+01°)
1.70215850839493e+00	(-1.17489799602196e+02dB,-9.00000034381534e+01°)
1.70608238900310e+00	(-1.17469799602196e+02dB,-9.00000034460791e+01°)
1.71001531509027e+00	(-1.17449799602196e+02dB,-9.00000034540232e+01°)
1.71395730750840e+00	(-1.17429799602196e+02dB,-9.00000034619855e+01°)
1.71790838715757e+00	(-1.17409799602196e+02dB,-9.00000034699662e+01°)
1.72186857498599e+00	(-1.17389799602196e+02dB,-9.00000034779653e+01°)
1.72583789199018e+00	(-1.17369799602196e+02dB,-9.00000034859828e+01°)
1.72981635921508e+00	(-1.17349799602196e+02dB,-9.00000034940189e+01°)
1.73380399775412e+00	(-1.17329799602196e+02dB,-9.00000035020734e+01°)
1.73780082874935e+00	(-1.17309799602196e+02dB,-9.00000035101465e+01°)
1.74180687339159e+00	(-1.17289799602196e+02dB,-9.00000035182382e+01°)
1.74582215292048e+00	(-1.17269799602196e+02dB,-9.00000035263486e+01°)
1.74984668862464e+00	(-1.17249799602196e+02dB,-9.00000035344777e+01°)
1.75388050184174e+00	(-1.17229799602196e+02dB,-9.00000035426255e+01°)
1.75792361395867e+00	(-1.17209799602196e+02dB,-9.00000035507921e+01°)
1.76197604641161e+00	(-1.17189799602196e+02dB,-9.00000035589775e+01°)
1.76603782068614e+00	(-1.17169799602196e+02dB,-9.00000035671818e+01°)
1.77010895831740e+00	(-1.17149799602196e+02dB,-9.00000035754050e+01°)
1.77418948089014e+00	(-1.17129799602196e+02dB,-9.00000035836472e+01°)
1.77827941003890e+00	(-1.17109799602196e+02dB,-9.00000035919083e+01°)
1.78237876744807e+00	(-1.17089799602196e+02dB,-9.00000036001885e+01°)
1.78648757485203e+00	(-1.17069799602196e+02dB,-9.00000036084878e+01°)
1.79060585403527e+00	(-1.17049799602196e+02dB,-9.00000036168063e+01°)
1.79473362683250e+00	(-1.17029799602196e+02dB,-9.00000036251438e+01°)
1.79887091512876e+00	(-1.17009799602196e+02dB,-9.00000036335007e+01°)
1.80301774085955e+00	(-1.16989799602196e+02dB,-9.00000036418768e+01°)
1.80717412601090e+00	(-1.16969799602196e+02dB,-9.00000036502721e+01°)
1.81134009261958e+00	(-1.16949799602196e+02dB,-9.00000036586869e+01°)
1.81551566277311e+00	(-1.16929799602196e+02dB,-9.00000036671210e+01°)
1.81970085860996e+00	(-1.16909799602196e+02dB,-9.00000036755746e+01°)
1.82389570231961e+00	(-1.16889799602196e+02dB,-9.00000036840477e+01°)
1.82810021614272e+00	(-1.16869799602196e+02dB,-9.00000036925403e+01°)
1.83231442237119e+00	(-1.16849799602196e+02dB,-9.00000037010525e+01°)
1.83653834334832e+00	(-1.16829799602196e+02dB,-9.00000037095843e+01°)
1.84077200146893e+00	(-1.16809799602196e+02dB,-9.00000037181358e+01°)
1.84501541917945e+00	(-1.16789799602196e+02dB,-9.00000037267070e+01°)
1.84926861897805e+00	(-1.16769799602196e+02dB,-9.00000037352979e+01°)
1.85353162341479e+00	(-1.16749799602196e+02dB,-9.00000037439087e+01°)
1.85780445509167e+00	(-1.16729799602196e+02dB,-9.00000037525393e+01°)
1.86208713666284e+00	(-1.16709799602196e+02dB,-9.00000037611898e+01°)
1.86637969083464e+00	(-1.16689799602196e+02dB,-9.00000037698602e+01°)
1.87068214036577e+00	(-1.16669799602196e+02dB,-9.00000037785506e+01°)
1.87499450806739e+00	(-1.16649799602196e+02dB,-9.00000037872611e+01°)
1.87931681680324e+00	(-1.16629799602196e+02dB,-9.00000037959916e+01°)
1.88364908948977e+00	(-1.16609799602196e+02dB,-9.00000038047423e+01°)
1.88799134909627e+00	(-1.16589799602196e+02dB,-9.00000038135131e+01°)
1.89234361864495e+00	(-1.16569799602196e+02dB,-9.00000038223042e+01°)
1.89670592121112e+00	(-1.16549799602196e+02dB,-9.00000038311155e+01°)
1.90107827992327e+00	(-1.16529799602196e+02dB,-9.00000038399471e+01°)
1.90546071796322e+00	(-1.16509799602196e+02dB,-9.00000038487991e+01°)
1.90985325856621e+00	(-1.16489799602196e+02dB,-9.00000038576715e+01°)
1.91425592502106e+00	(-1.16469799602196e+02dB,-9.00000038665644e+01°)
1.91866874067026e+00	(-1.16449799602196e+02dB,-9.00000038754777e+01°)
1.92309172891013e+00	(-1.16429799602196e+02dB,-9.00000038844116e+01°)
