Freq.	V(out_preamp)
1.00000000000000e+00	(-5.74727831444543e+00dB,-1.79995173884240e+02°)
1.00230523807790e+00	(-5.74727831426937e+00dB,-1.79995162758895e+02°)
1.00461579027839e+00	(-5.74727831409249e+00dB,-1.79995151607902e+02°)
1.00693166885180e+00	(-5.74727831391480e+00dB,-1.79995140431204e+02°)
1.00925288607668e+00	(-5.74727831373628e+00dB,-1.79995129228741e+02°)
1.01157945425990e+00	(-5.74727831355694e+00dB,-1.79995118000454e+02°)
1.01391138573668e+00	(-5.74727831337678e+00dB,-1.79995106746283e+02°)
1.01624869287070e+00	(-5.74727831319579e+00dB,-1.79995095466168e+02°)
1.01859138805412e+00	(-5.74727831301395e+00dB,-1.79995084160050e+02°)
1.02093948370768e+00	(-5.74727831283128e+00dB,-1.79995072827869e+02°)
1.02329299228075e+00	(-5.74727831264776e+00dB,-1.79995061469564e+02°)
1.02565192625141e+00	(-5.74727831246340e+00dB,-1.79995050085076e+02°)
1.02801629812647e+00	(-5.74727831227819e+00dB,-1.79995038674343e+02°)
1.03038612044162e+00	(-5.74727831209212e+00dB,-1.79995027237307e+02°)
1.03276140576140e+00	(-5.74727831190520e+00dB,-1.79995015773905e+02°)
1.03514216667934e+00	(-5.74727831171741e+00dB,-1.79995004284077e+02°)
1.03752841581801e+00	(-5.74727831152875e+00dB,-1.79994992767763e+02°)
1.03992016582906e+00	(-5.74727831133923e+00dB,-1.79994981224900e+02°)
1.04231742939330e+00	(-5.74727831114882e+00dB,-1.79994969655429e+02°)
1.04472021922080e+00	(-5.74727831095755e+00dB,-1.79994958059287e+02°)
1.04712854805090e+00	(-5.74727831076538e+00dB,-1.79994946436413e+02°)
1.04954242865232e+00	(-5.74727831057233e+00dB,-1.79994934786746e+02°)
1.05196187382322e+00	(-5.74727831037839e+00dB,-1.79994923110224e+02°)
1.05438689639126e+00	(-5.74727831018355e+00dB,-1.79994911406784e+02°)
1.05681750921366e+00	(-5.74727830998781e+00dB,-1.79994899676366e+02°)
1.05925372517729e+00	(-5.74727830979117e+00dB,-1.79994887918905e+02°)
1.06169555719872e+00	(-5.74727830959363e+00dB,-1.79994876134341e+02°)
1.06414301822431e+00	(-5.74727830939517e+00dB,-1.79994864322611e+02°)
1.06659612123026e+00	(-5.74727830919580e+00dB,-1.79994852483652e+02°)
1.06905487922266e+00	(-5.74727830899550e+00dB,-1.79994840617402e+02°)
1.07151930523761e+00	(-5.74727830879428e+00dB,-1.79994828723797e+02°)
1.07398941234124e+00	(-5.74727830859213e+00dB,-1.79994816802774e+02°)
1.07646521362983e+00	(-5.74727830838905e+00dB,-1.79994804854270e+02°)
1.07894672222983e+00	(-5.74727830818503e+00dB,-1.79994792878223e+02°)
1.08143395129794e+00	(-5.74727830798007e+00dB,-1.79994780874567e+02°)
1.08392691402120e+00	(-5.74727830777416e+00dB,-1.79994768843241e+02°)
1.08642562361706e+00	(-5.74727830756731e+00dB,-1.79994756784179e+02°)
1.08893009333343e+00	(-5.74727830735950e+00dB,-1.79994744697319e+02°)
1.09144033644876e+00	(-5.74727830715072e+00dB,-1.79994732582595e+02°)
1.09395636627209e+00	(-5.74727830694099e+00dB,-1.79994720439944e+02°)
1.09647819614318e+00	(-5.74727830673029e+00dB,-1.79994708269301e+02°)
1.09900583943252e+00	(-5.74727830651861e+00dB,-1.79994696070602e+02°)
1.10153930954141e+00	(-5.74727830630596e+00dB,-1.79994683843782e+02°)
1.10407861990207e+00	(-5.74727830609232e+00dB,-1.79994671588776e+02°)
1.10662378397766e+00	(-5.74727830587770e+00dB,-1.79994659305520e+02°)
1.10917481526240e+00	(-5.74727830566209e+00dB,-1.79994646993948e+02°)
1.11173172728159e+00	(-5.74727830544548e+00dB,-1.79994634653995e+02°)
1.11429453359173e+00	(-5.74727830522788e+00dB,-1.79994622285595e+02°)
1.11686324778056e+00	(-5.74727830500927e+00dB,-1.79994609888683e+02°)
1.11943788346715e+00	(-5.74727830478965e+00dB,-1.79994597463193e+02°)
1.12201845430196e+00	(-5.74727830456902e+00dB,-1.79994585009060e+02°)
1.12460497396692e+00	(-5.74727830434736e+00dB,-1.79994572526216e+02°)
1.12719745617551e+00	(-5.74727830412469e+00dB,-1.79994560014597e+02°)
1.12979591467280e+00	(-5.74727830390099e+00dB,-1.79994547474136e+02°)
1.13240036323556e+00	(-5.74727830367625e+00dB,-1.79994534904766e+02°)
1.13501081567231e+00	(-5.74727830345048e+00dB,-1.79994522306420e+02°)
1.13762728582343e+00	(-5.74727830322367e+00dB,-1.79994509679033e+02°)
1.14024978756117e+00	(-5.74727830299580e+00dB,-1.79994497022536e+02°)
1.14287833478977e+00	(-5.74727830276689e+00dB,-1.79994484336863e+02°)
1.14551294144553e+00	(-5.74727830253692e+00dB,-1.79994471621946e+02°)
1.14815362149688e+00	(-5.74727830230589e+00dB,-1.79994458877719e+02°)
1.15080038894443e+00	(-5.74727830207379e+00dB,-1.79994446104113e+02°)
1.15345325782109e+00	(-5.74727830184062e+00dB,-1.79994433301060e+02°)
1.15611224219210e+00	(-5.74727830160638e+00dB,-1.79994420468494e+02°)
1.15877735615512e+00	(-5.74727830137105e+00dB,-1.79994407606346e+02°)
1.16144861384034e+00	(-5.74727830113464e+00dB,-1.79994394714547e+02°)
1.16412602941049e+00	(-5.74727830089713e+00dB,-1.79994381793030e+02°)
1.16680961706096e+00	(-5.74727830065853e+00dB,-1.79994368841725e+02°)
1.16949939101987e+00	(-5.74727830041883e+00dB,-1.79994355860565e+02°)
1.17219536554813e+00	(-5.74727830017802e+00dB,-1.79994342849480e+02°)
1.17489755493953e+00	(-5.74727829993610e+00dB,-1.79994329808401e+02°)
1.17760597352080e+00	(-5.74727829969307e+00dB,-1.79994316737260e+02°)
1.18032063565173e+00	(-5.74727829944891e+00dB,-1.79994303635986e+02°)
1.18304155572516e+00	(-5.74727829920363e+00dB,-1.79994290504511e+02°)
1.18576874816716e+00	(-5.74727829895721e+00dB,-1.79994277342765e+02°)
1.18850222743702e+00	(-5.74727829870965e+00dB,-1.79994264150678e+02°)
1.19124200802737e+00	(-5.74727829846096e+00dB,-1.79994250928179e+02°)
1.19398810446427e+00	(-5.74727829821111e+00dB,-1.79994237675200e+02°)
1.19674053130724e+00	(-5.74727829796012e+00dB,-1.79994224391670e+02°)
1.19949930314938e+00	(-5.74727829770796e+00dB,-1.79994211077518e+02°)
1.20226443461741e+00	(-5.74727829745463e+00dB,-1.79994197732673e+02°)
1.20503594037179e+00	(-5.74727829720015e+00dB,-1.79994184357066e+02°)
1.20781383510678e+00	(-5.74727829694448e+00dB,-1.79994170950624e+02°)
1.21059813355048e+00	(-5.74727829668764e+00dB,-1.79994157513278e+02°)
1.21338885046497e+00	(-5.74727829642961e+00dB,-1.79994144044955e+02°)
1.21618600064636e+00	(-5.74727829617038e+00dB,-1.79994130545585e+02°)
1.21898959892486e+00	(-5.74727829590997e+00dB,-1.79994117015095e+02°)
1.22179966016487e+00	(-5.74727829564835e+00dB,-1.79994103453414e+02°)
1.22461619926504e+00	(-5.74727829538552e+00dB,-1.79994089860471e+02°)
1.22743923115840e+00	(-5.74727829512148e+00dB,-1.79994076236192e+02°)
1.23026877081238e+00	(-5.74727829485622e+00dB,-1.79994062580507e+02°)
1.23310483322890e+00	(-5.74727829458974e+00dB,-1.79994048893341e+02°)
1.23594743344451e+00	(-5.74727829432202e+00dB,-1.79994035174624e+02°)
1.23879658653036e+00	(-5.74727829405307e+00dB,-1.79994021424281e+02°)
1.24165230759241e+00	(-5.74727829378288e+00dB,-1.79994007642241e+02°)
1.24451461177138e+00	(-5.74727829351145e+00dB,-1.79993993828430e+02°)
1.24738351424294e+00	(-5.74727829323875e+00dB,-1.79993979982775e+02°)
1.25025903021771e+00	(-5.74727829296480e+00dB,-1.79993966105202e+02°)
1.25314117494141e+00	(-5.74727829268959e+00dB,-1.79993952195638e+02°)
1.25602996369487e+00	(-5.74727829241311e+00dB,-1.79993938254009e+02°)
1.25892541179416e+00	(-5.74727829213535e+00dB,-1.79993924280242e+02°)
1.26182753459066e+00	(-5.74727829185630e+00dB,-1.79993910274261e+02°)
1.26473634747115e+00	(-5.74727829157597e+00dB,-1.79993896235994e+02°)
1.26765186585784e+00	(-5.74727829129435e+00dB,-1.79993882165365e+02°)
1.27057410520854e+00	(-5.74727829101142e+00dB,-1.79993868062299e+02°)
1.27350308101666e+00	(-5.74727829072719e+00dB,-1.79993853926723e+02°)
1.27643880881134e+00	(-5.74727829044165e+00dB,-1.79993839758561e+02°)
1.27938130415752e+00	(-5.74727829015479e+00dB,-1.79993825557738e+02°)
1.28233058265602e+00	(-5.74727828986661e+00dB,-1.79993811324179e+02°)
1.28528665994361e+00	(-5.74727828957709e+00dB,-1.79993797057808e+02°)
1.28824955169313e+00	(-5.74727828928624e+00dB,-1.79993782758550e+02°)
1.29121927361353e+00	(-5.74727828899405e+00dB,-1.79993768426328e+02°)
1.29419584144998e+00	(-5.74727828870050e+00dB,-1.79993754061067e+02°)
1.29717927098395e+00	(-5.74727828840560e+00dB,-1.79993739662691e+02°)
1.30016957803328e+00	(-5.74727828810935e+00dB,-1.79993725231123e+02°)
1.30316677845229e+00	(-5.74727828781172e+00dB,-1.79993710766287e+02°)
1.30617088813183e+00	(-5.74727828751272e+00dB,-1.79993696268107e+02°)
1.30918192299940e+00	(-5.74727828721234e+00dB,-1.79993681736504e+02°)
1.31219989901920e+00	(-5.74727828691058e+00dB,-1.79993667171403e+02°)
1.31522483219223e+00	(-5.74727828660742e+00dB,-1.79993652572725e+02°)
1.31825673855640e+00	(-5.74727828630286e+00dB,-1.79993637940394e+02°)
1.32129563418657e+00	(-5.74727828599690e+00dB,-1.79993623274332e+02°)
1.32434153519466e+00	(-5.74727828568952e+00dB,-1.79993608574462e+02°)
1.32739445772973e+00	(-5.74727828538072e+00dB,-1.79993593840704e+02°)
1.33045441797808e+00	(-5.74727828507050e+00dB,-1.79993579072982e+02°)
1.33352143216332e+00	(-5.74727828475885e+00dB,-1.79993564271217e+02°)
1.33659551654643e+00	(-5.74727828444576e+00dB,-1.79993549435330e+02°)
1.33967668742593e+00	(-5.74727828413122e+00dB,-1.79993534565243e+02°)
1.34276496113786e+00	(-5.74727828381523e+00dB,-1.79993519660877e+02°)
1.34586035405594e+00	(-5.74727828349778e+00dB,-1.79993504722152e+02°)
1.34896288259164e+00	(-5.74727828317887e+00dB,-1.79993489748991e+02°)
1.35207256319427e+00	(-5.74727828285849e+00dB,-1.79993474741312e+02°)
1.35518941235103e+00	(-5.74727828253663e+00dB,-1.79993459699038e+02°)
1.35831344658715e+00	(-5.74727828221328e+00dB,-1.79993444622087e+02°)
1.36144468246594e+00	(-5.74727828188844e+00dB,-1.79993429510380e+02°)
1.36458313658892e+00	(-5.74727828156210e+00dB,-1.79993414363838e+02°)
1.36772882559584e+00	(-5.74727828123425e+00dB,-1.79993399182379e+02°)
1.37088176616484e+00	(-5.74727828090489e+00dB,-1.79993383965923e+02°)
1.37404197501251e+00	(-5.74727828057401e+00dB,-1.79993368714389e+02°)
1.37720946889394e+00	(-5.74727828024160e+00dB,-1.79993353427697e+02°)
1.38038426460288e+00	(-5.74727827990766e+00dB,-1.79993338105766e+02°)
1.38356637897177e+00	(-5.74727827957218e+00dB,-1.79993322748514e+02°)
1.38675582887188e+00	(-5.74727827923515e+00dB,-1.79993307355860e+02°)
1.38995263121334e+00	(-5.74727827889656e+00dB,-1.79993291927722e+02°)
1.39315680294529e+00	(-5.74727827855641e+00dB,-1.79993276464018e+02°)
1.39636836105593e+00	(-5.74727827821469e+00dB,-1.79993260964667e+02°)
1.39958732257261e+00	(-5.74727827787139e+00dB,-1.79993245429587e+02°)
1.40281370456195e+00	(-5.74727827752651e+00dB,-1.79993229858694e+02°)
1.40604752412990e+00	(-5.74727827718004e+00dB,-1.79993214251907e+02°)
1.40928879842186e+00	(-5.74727827683196e+00dB,-1.79993198609142e+02°)
1.41253754462274e+00	(-5.74727827648228e+00dB,-1.79993182930317e+02°)
1.41579377995707e+00	(-5.74727827613099e+00dB,-1.79993167215349e+02°)
1.41905752168908e+00	(-5.74727827577807e+00dB,-1.79993151464154e+02°)
1.42232878712281e+00	(-5.74727827542353e+00dB,-1.79993135676648e+02°)
1.42560759360218e+00	(-5.74727827506735e+00dB,-1.79993119852749e+02°)
1.42889395851109e+00	(-5.74727827470952e+00dB,-1.79993103992372e+02°)
1.43218789927353e+00	(-5.74727827435005e+00dB,-1.79993088095432e+02°)
1.43548943335364e+00	(-5.74727827398891e+00dB,-1.79993072161847e+02°)
1.43879857825583e+00	(-5.74727827362611e+00dB,-1.79993056191531e+02°)
1.44211535152486e+00	(-5.74727827326163e+00dB,-1.79993040184399e+02°)
1.44543977074592e+00	(-5.74727827289547e+00dB,-1.79993024140368e+02°)
1.44877185354475e+00	(-5.74727827252762e+00dB,-1.79993008059351e+02°)
1.45211161758773e+00	(-5.74727827215808e+00dB,-1.79992991941263e+02°)
1.45545908058195e+00	(-5.74727827178682e+00dB,-1.79992975786020e+02°)
1.45881426027534e+00	(-5.74727827141385e+00dB,-1.79992959593534e+02°)
1.46217717445671e+00	(-5.74727827103916e+00dB,-1.79992943363721e+02°)
1.46554784095590e+00	(-5.74727827066274e+00dB,-1.79992927096495e+02°)
1.46892627764385e+00	(-5.74727827028459e+00dB,-1.79992910791769e+02°)
1.47231250243271e+00	(-5.74727826990469e+00dB,-1.79992894449456e+02°)
1.47570653327588e+00	(-5.74727826952303e+00dB,-1.79992878069471e+02°)
1.47910838816819e+00	(-5.74727826913962e+00dB,-1.79992861651726e+02°)
1.48251808514594e+00	(-5.74727826875443e+00dB,-1.79992845196134e+02°)
1.48593564228699e+00	(-5.74727826836746e+00dB,-1.79992828702607e+02°)
1.48936107771090e+00	(-5.74727826797871e+00dB,-1.79992812171060e+02°)
1.49279440957898e+00	(-5.74727826758817e+00dB,-1.79992795601403e+02°)
1.49623565609442e+00	(-5.74727826719582e+00dB,-1.79992778993549e+02°)
1.49968483550236e+00	(-5.74727826680166e+00dB,-1.79992762347411e+02°)
1.50314196609001e+00	(-5.74727826640568e+00dB,-1.79992745662899e+02°)
1.50660706618673e+00	(-5.74727826600788e+00dB,-1.79992728939925e+02°)
1.51008015416413e+00	(-5.74727826560824e+00dB,-1.79992712178400e+02°)
1.51356124843619e+00	(-5.74727826520675e+00dB,-1.79992695378237e+02°)
1.51705036745932e+00	(-5.74727826480341e+00dB,-1.79992678539345e+02°)
1.52054752973248e+00	(-5.74727826439821e+00dB,-1.79992661661635e+02°)
1.52405275379728e+00	(-5.74727826399114e+00dB,-1.79992644745018e+02°)
1.52756605823806e+00	(-5.74727826358219e+00dB,-1.79992627789405e+02°)
1.53108746168202e+00	(-5.74727826317135e+00dB,-1.79992610794704e+02°)
1.53461698279928e+00	(-5.74727826275862e+00dB,-1.79992593760827e+02°)
1.53815464030302e+00	(-5.74727826234398e+00dB,-1.79992576687683e+02°)
1.54170045294954e+00	(-5.74727826192742e+00dB,-1.79992559575181e+02°)
1.54525443953840e+00	(-5.74727826150895e+00dB,-1.79992542423231e+02°)
1.54881661891247e+00	(-5.74727826108854e+00dB,-1.79992525231741e+02°)
1.55238700995807e+00	(-5.74727826066619e+00dB,-1.79992508000621e+02°)
1.55596563160506e+00	(-5.74727826024190e+00dB,-1.79992490729779e+02°)
1.55955250282694e+00	(-5.74727825981564e+00dB,-1.79992473419124e+02°)
1.56314764264094e+00	(-5.74727825938742e+00dB,-1.79992456068563e+02°)
1.56675107010813e+00	(-5.74727825895721e+00dB,-1.79992438678005e+02°)
1.57036280433354e+00	(-5.74727825852503e+00dB,-1.79992421247358e+02°)
1.57398286446620e+00	(-5.74727825809085e+00dB,-1.79992403776529e+02°)
1.57761126969933e+00	(-5.74727825765467e+00dB,-1.79992386265426e+02°)
1.58124803927037e+00	(-5.74727825721647e+00dB,-1.79992368713955e+02°)
1.58489319246110e+00	(-5.74727825677625e+00dB,-1.79992351122025e+02°)
1.58854674859776e+00	(-5.74727825633399e+00dB,-1.79992333489540e+02°)
1.59220872705115e+00	(-5.74727825588970e+00dB,-1.79992315816409e+02°)
1.59587914723672e+00	(-5.74727825544335e+00dB,-1.79992298102536e+02°)
1.59955802861465e+00	(-5.74727825499495e+00dB,-1.79992280347829e+02°)
1.60324539069002e+00	(-5.74727825454447e+00dB,-1.79992262552193e+02°)
1.60694125301286e+00	(-5.74727825409192e+00dB,-1.79992244715534e+02°)
1.61064563517825e+00	(-5.74727825363727e+00dB,-1.79992226837758e+02°)
1.61435855682647e+00	(-5.74727825318053e+00dB,-1.79992208918768e+02°)
1.61808003764305e+00	(-5.74727825272168e+00dB,-1.79992190958472e+02°)
1.62181009735891e+00	(-5.74727825226071e+00dB,-1.79992172956772e+02°)
1.62554875575047e+00	(-5.74727825179762e+00dB,-1.79992154913574e+02°)
1.62929603263970e+00	(-5.74727825133238e+00dB,-1.79992136828783e+02°)
1.63305194789432e+00	(-5.74727825086500e+00dB,-1.79992118702301e+02°)
1.63681652142779e+00	(-5.74727825039547e+00dB,-1.79992100534034e+02°)
1.64058977319952e+00	(-5.74727824992376e+00dB,-1.79992082323885e+02°)
1.64437172321491e+00	(-5.74727824944988e+00dB,-1.79992064071756e+02°)
1.64816239152549e+00	(-5.74727824897381e+00dB,-1.79992045777553e+02°)
1.65196179822900e+00	(-5.74727824849554e+00dB,-1.79992027441177e+02°)
1.65576996346951e+00	(-5.74727824801507e+00dB,-1.79992009062531e+02°)
1.65958690743754e+00	(-5.74727824753237e+00dB,-1.79991990641518e+02°)
1.66341265037015e+00	(-5.74727824704745e+00dB,-1.79991972178040e+02°)
1.66724721255104e+00	(-5.74727824656029e+00dB,-1.79991953671999e+02°)
1.67109061431069e+00	(-5.74727824607089e+00dB,-1.79991935123298e+02°)
1.67494287602642e+00	(-5.74727824557922e+00dB,-1.79991916531838e+02°)
1.67880401812254e+00	(-5.74727824508529e+00dB,-1.79991897897519e+02°)
1.68267406107045e+00	(-5.74727824458907e+00dB,-1.79991879220245e+02°)
1.68655302538872e+00	(-5.74727824409056e+00dB,-1.79991860499914e+02°)
1.69044093164324e+00	(-5.74727824358976e+00dB,-1.79991841736429e+02°)
1.69433780044731e+00	(-5.74727824308663e+00dB,-1.79991822929690e+02°)
1.69824365246172e+00	(-5.74727824258119e+00dB,-1.79991804079596e+02°)
1.70215850839493e+00	(-5.74727824207342e+00dB,-1.79991785186049e+02°)
1.70608238900310e+00	(-5.74727824156330e+00dB,-1.79991766248947e+02°)
1.71001531509027e+00	(-5.74727824105083e+00dB,-1.79991747268191e+02°)
1.71395730750840e+00	(-5.74727824053599e+00dB,-1.79991728243680e+02°)
1.71790838715757e+00	(-5.74727824001877e+00dB,-1.79991709175312e+02°)
1.72186857498599e+00	(-5.74727823949917e+00dB,-1.79991690062988e+02°)
1.72583789199018e+00	(-5.74727823897717e+00dB,-1.79991670906605e+02°)
1.72981635921508e+00	(-5.74727823845276e+00dB,-1.79991651706062e+02°)
1.73380399775412e+00	(-5.74727823792593e+00dB,-1.79991632461258e+02°)
1.73780082874935e+00	(-5.74727823739667e+00dB,-1.79991613172089e+02°)
1.74180687339159e+00	(-5.74727823686497e+00dB,-1.79991593838454e+02°)
1.74582215292048e+00	(-5.74727823633081e+00dB,-1.79991574460251e+02°)
1.74984668862464e+00	(-5.74727823579418e+00dB,-1.79991555037377e+02°)
1.75388050184174e+00	(-5.74727823525508e+00dB,-1.79991535569728e+02°)
1.75792361395867e+00	(-5.74727823471349e+00dB,-1.79991516057201e+02°)
1.76197604641161e+00	(-5.74727823416940e+00dB,-1.79991496499693e+02°)
1.76603782068614e+00	(-5.74727823362280e+00dB,-1.79991476897101e+02°)
1.77010895831740e+00	(-5.74727823307368e+00dB,-1.79991457249320e+02°)
1.77418948089014e+00	(-5.74727823252202e+00dB,-1.79991437556246e+02°)
1.77827941003890e+00	(-5.74727823196781e+00dB,-1.79991417817775e+02°)
1.78237876744807e+00	(-5.74727823141105e+00dB,-1.79991398033803e+02°)
1.78648757485203e+00	(-5.74727823085172e+00dB,-1.79991378204223e+02°)
1.79060585403527e+00	(-5.74727823028980e+00dB,-1.79991358328931e+02°)
1.79473362683250e+00	(-5.74727822972529e+00dB,-1.79991338407823e+02°)
1.79887091512876e+00	(-5.74727822915818e+00dB,-1.79991318440791e+02°)
1.80301774085955e+00	(-5.74727822858844e+00dB,-1.79991298427731e+02°)
1.80717412601090e+00	(-5.74727822801608e+00dB,-1.79991278368535e+02°)
1.81134009261958e+00	(-5.74727822744108e+00dB,-1.79991258263099e+02°)
1.81551566277311e+00	(-5.74727822686342e+00dB,-1.79991238111314e+02°)
1.81970085860996e+00	(-5.74727822628310e+00dB,-1.79991217913075e+02°)
1.82389570231961e+00	(-5.74727822570009e+00dB,-1.79991197668275e+02°)
1.82810021614272e+00	(-5.74727822511440e+00dB,-1.79991177376805e+02°)
1.83231442237119e+00	(-5.74727822452600e+00dB,-1.79991157038558e+02°)
1.83653834334832e+00	(-5.74727822393489e+00dB,-1.79991136653427e+02°)
1.84077200146893e+00	(-5.74727822334105e+00dB,-1.79991116221304e+02°)
1.84501541917945e+00	(-5.74727822274446e+00dB,-1.79991095742079e+02°)
1.84926861897805e+00	(-5.74727822214513e+00dB,-1.79991075215645e+02°)
1.85353162341479e+00	(-5.74727822154303e+00dB,-1.79991054641893e+02°)
1.85780445509167e+00	(-5.74727822093814e+00dB,-1.79991034020713e+02°)
1.86208713666284e+00	(-5.74727822033047e+00dB,-1.79991013351997e+02°)
1.86637969083464e+00	(-5.74727821971999e+00dB,-1.79990992635634e+02°)
1.87068214036577e+00	(-5.74727821910669e+00dB,-1.79990971871516e+02°)
1.87499450806739e+00	(-5.74727821849056e+00dB,-1.79990951059531e+02°)
1.87931681680324e+00	(-5.74727821787160e+00dB,-1.79990930199569e+02°)
1.88364908948977e+00	(-5.74727821724976e+00dB,-1.79990909291520e+02°)
1.88799134909627e+00	(-5.74727821662507e+00dB,-1.79990888335273e+02°)
1.89234361864495e+00	(-5.74727821599748e+00dB,-1.79990867330717e+02°)
1.89670592121112e+00	(-5.74727821536701e+00dB,-1.79990846277741e+02°)
1.90107827992327e+00	(-5.74727821473362e+00dB,-1.79990825176232e+02°)
1.90546071796322e+00	(-5.74727821409730e+00dB,-1.79990804026080e+02°)
1.90985325856621e+00	(-5.74727821345805e+00dB,-1.79990782827171e+02°)
1.91425592502106e+00	(-5.74727821281586e+00dB,-1.79990761579394e+02°)
1.91866874067026e+00	(-5.74727821217069e+00dB,-1.79990740282635e+02°)
1.92309172891013e+00	(-5.74727821152254e+00dB,-1.79990718936783e+02°)
