Freq.	V(out_preamp)
1.00000000000000e+00	(-5.73327121534908e+00dB,-1.79995169807705e+02°)
1.00230523807790e+00	(-5.73327121517299e+00dB,-1.79995158672962e+02°)
1.00461579027839e+00	(-5.73327121499609e+00dB,-1.79995147512550e+02°)
1.00693166885180e+00	(-5.73327121481838e+00dB,-1.79995136326411e+02°)
1.00925288607668e+00	(-5.73327121463984e+00dB,-1.79995125114486e+02°)
1.01157945425990e+00	(-5.73327121446049e+00dB,-1.79995113876714e+02°)
1.01391138573668e+00	(-5.73327121428030e+00dB,-1.79995102613037e+02°)
1.01624869287070e+00	(-5.73327121409928e+00dB,-1.79995091323394e+02°)
1.01859138805412e+00	(-5.73327121391743e+00dB,-1.79995080007726e+02°)
1.02093948370768e+00	(-5.73327121373473e+00dB,-1.79995068665973e+02°)
1.02329299228075e+00	(-5.73327121355120e+00dB,-1.79995057298074e+02°)
1.02565192625141e+00	(-5.73327121336681e+00dB,-1.79995045903969e+02°)
1.02801629812647e+00	(-5.73327121318157e+00dB,-1.79995034483598e+02°)
1.03038612044162e+00	(-5.73327121299549e+00dB,-1.79995023036901e+02°)
1.03276140576140e+00	(-5.73327121280853e+00dB,-1.79995011563816e+02°)
1.03514216667934e+00	(-5.73327121262072e+00dB,-1.79995000064283e+02°)
1.03752841581801e+00	(-5.73327121243204e+00dB,-1.79994988538241e+02°)
1.03992016582906e+00	(-5.73327121224250e+00dB,-1.79994976985629e+02°)
1.04231742939330e+00	(-5.73327121205207e+00dB,-1.79994965406385e+02°)
1.04472021922080e+00	(-5.73327121186077e+00dB,-1.79994953800448e+02°)
1.04712854805090e+00	(-5.73327121166858e+00dB,-1.79994942167757e+02°)
1.04954242865232e+00	(-5.73327121147550e+00dB,-1.79994930508249e+02°)
1.05196187382322e+00	(-5.73327121128154e+00dB,-1.79994918821864e+02°)
1.05438689639126e+00	(-5.73327121108668e+00dB,-1.79994907108539e+02°)
1.05681750921366e+00	(-5.73327121089092e+00dB,-1.79994895368211e+02°)
1.05925372517729e+00	(-5.73327121069425e+00dB,-1.79994883600820e+02°)
1.06169555719872e+00	(-5.73327121049668e+00dB,-1.79994871806302e+02°)
1.06414301822431e+00	(-5.73327121029820e+00dB,-1.79994859984595e+02°)
1.06659612123026e+00	(-5.73327121009880e+00dB,-1.79994848135635e+02°)
1.06905487922266e+00	(-5.73327120989848e+00dB,-1.79994836259362e+02°)
1.07151930523761e+00	(-5.73327120969724e+00dB,-1.79994824355710e+02°)
1.07398941234124e+00	(-5.73327120949507e+00dB,-1.79994812424618e+02°)
1.07646521362983e+00	(-5.73327120929196e+00dB,-1.79994800466022e+02°)
1.07894672222983e+00	(-5.73327120908792e+00dB,-1.79994788479858e+02°)
1.08143395129794e+00	(-5.73327120888293e+00dB,-1.79994776466063e+02°)
1.08392691402120e+00	(-5.73327120867700e+00dB,-1.79994764424574e+02°)
1.08642562361706e+00	(-5.73327120847012e+00dB,-1.79994752355327e+02°)
1.08893009333343e+00	(-5.73327120826228e+00dB,-1.79994740258256e+02°)
1.09144033644876e+00	(-5.73327120805348e+00dB,-1.79994728133299e+02°)
1.09395636627209e+00	(-5.73327120784372e+00dB,-1.79994715980392e+02°)
1.09647819614318e+00	(-5.73327120763299e+00dB,-1.79994703799469e+02°)
1.09900583943252e+00	(-5.73327120742129e+00dB,-1.79994691590466e+02°)
1.10153930954141e+00	(-5.73327120720861e+00dB,-1.79994679353318e+02°)
1.10407861990207e+00	(-5.73327120699495e+00dB,-1.79994667087961e+02°)
1.10662378397766e+00	(-5.73327120678031e+00dB,-1.79994654794329e+02°)
1.10917481526240e+00	(-5.73327120656467e+00dB,-1.79994642472357e+02°)
1.11173172728159e+00	(-5.73327120634803e+00dB,-1.79994630121981e+02°)
1.11429453359173e+00	(-5.73327120613040e+00dB,-1.79994617743133e+02°)
1.11686324778056e+00	(-5.73327120591177e+00dB,-1.79994605335750e+02°)
1.11943788346715e+00	(-5.73327120569212e+00dB,-1.79994592899765e+02°)
1.12201845430196e+00	(-5.73327120547146e+00dB,-1.79994580435111e+02°)
1.12460497396692e+00	(-5.73327120524978e+00dB,-1.79994567941724e+02°)
1.12719745617551e+00	(-5.73327120502708e+00dB,-1.79994555419537e+02°)
1.12979591467280e+00	(-5.73327120480335e+00dB,-1.79994542868483e+02°)
1.13240036323556e+00	(-5.73327120457858e+00dB,-1.79994530288495e+02°)
1.13501081567231e+00	(-5.73327120435279e+00dB,-1.79994517679508e+02°)
1.13762728582343e+00	(-5.73327120412594e+00dB,-1.79994505041454e+02°)
1.14024978756117e+00	(-5.73327120389806e+00dB,-1.79994492374267e+02°)
1.14287833478977e+00	(-5.73327120366912e+00dB,-1.79994479677878e+02°)
1.14551294144553e+00	(-5.73327120343912e+00dB,-1.79994466952222e+02°)
1.14815362149688e+00	(-5.73327120320806e+00dB,-1.79994454197229e+02°)
1.15080038894443e+00	(-5.73327120297593e+00dB,-1.79994441412834e+02°)
1.15345325782109e+00	(-5.73327120274273e+00dB,-1.79994428598967e+02°)
1.15611224219210e+00	(-5.73327120250846e+00dB,-1.79994415755561e+02°)
1.15877735615512e+00	(-5.73327120227311e+00dB,-1.79994402882549e+02°)
1.16144861384034e+00	(-5.73327120203666e+00dB,-1.79994389979861e+02°)
1.16412602941049e+00	(-5.73327120179913e+00dB,-1.79994377047429e+02°)
1.16680961706096e+00	(-5.73327120156050e+00dB,-1.79994364085184e+02°)
1.16949939101987e+00	(-5.73327120132077e+00dB,-1.79994351093059e+02°)
1.17219536554813e+00	(-5.73327120107993e+00dB,-1.79994338070984e+02°)
1.17489755493953e+00	(-5.73327120083798e+00dB,-1.79994325018889e+02°)
1.17760597352080e+00	(-5.73327120059492e+00dB,-1.79994311936707e+02°)
1.18032063565173e+00	(-5.73327120035073e+00dB,-1.79994298824367e+02°)
1.18304155572516e+00	(-5.73327120010542e+00dB,-1.79994285681800e+02°)
1.18576874816716e+00	(-5.73327119985897e+00dB,-1.79994272508936e+02°)
1.18850222743702e+00	(-5.73327119961139e+00dB,-1.79994259305706e+02°)
1.19124200802737e+00	(-5.73327119936265e+00dB,-1.79994246072039e+02°)
1.19398810446427e+00	(-5.73327119911278e+00dB,-1.79994232807865e+02°)
1.19674053130724e+00	(-5.73327119886175e+00dB,-1.79994219513114e+02°)
1.19949930314938e+00	(-5.73327119860956e+00dB,-1.79994206187716e+02°)
1.20226443461741e+00	(-5.73327119835621e+00dB,-1.79994192831600e+02°)
1.20503594037179e+00	(-5.73327119810169e+00dB,-1.79994179444694e+02°)
1.20781383510678e+00	(-5.73327119784600e+00dB,-1.79994166026928e+02°)
1.21059813355048e+00	(-5.73327119758912e+00dB,-1.79994152578232e+02°)
1.21338885046497e+00	(-5.73327119733106e+00dB,-1.79994139098532e+02°)
1.21618600064636e+00	(-5.73327119707181e+00dB,-1.79994125587759e+02°)
1.21898959892486e+00	(-5.73327119681136e+00dB,-1.79994112045841e+02°)
1.22179966016487e+00	(-5.73327119654970e+00dB,-1.79994098472705e+02°)
1.22461619926504e+00	(-5.73327119628685e+00dB,-1.79994084868279e+02°)
1.22743923115840e+00	(-5.73327119602277e+00dB,-1.79994071232493e+02°)
1.23026877081238e+00	(-5.73327119575748e+00dB,-1.79994057565272e+02°)
1.23310483322890e+00	(-5.73327119549096e+00dB,-1.79994043866545e+02°)
1.23594743344451e+00	(-5.73327119522322e+00dB,-1.79994030136240e+02°)
1.23879658653036e+00	(-5.73327119495423e+00dB,-1.79994016374283e+02°)
1.24165230759241e+00	(-5.73327119468401e+00dB,-1.79994002580601e+02°)
1.24451461177138e+00	(-5.73327119441254e+00dB,-1.79993988755122e+02°)
1.24738351424294e+00	(-5.73327119413982e+00dB,-1.79993974897771e+02°)
1.25025903021771e+00	(-5.73327119386583e+00dB,-1.79993961008476e+02°)
1.25314117494141e+00	(-5.73327119359059e+00dB,-1.79993947087163e+02°)
1.25602996369487e+00	(-5.73327119331407e+00dB,-1.79993933133758e+02°)
1.25892541179416e+00	(-5.73327119303627e+00dB,-1.79993919148187e+02°)
1.26182753459066e+00	(-5.73327119275719e+00dB,-1.79993905130376e+02°)
1.26473634747115e+00	(-5.73327119247683e+00dB,-1.79993891080251e+02°)
1.26765186585784e+00	(-5.73327119219517e+00dB,-1.79993876997737e+02°)
1.27057410520854e+00	(-5.73327119191221e+00dB,-1.79993862882759e+02°)
1.27350308101666e+00	(-5.73327119162794e+00dB,-1.79993848735243e+02°)
1.27643880881134e+00	(-5.73327119134237e+00dB,-1.79993834555113e+02°)
1.27938130415752e+00	(-5.73327119105547e+00dB,-1.79993820342295e+02°)
1.28233058265602e+00	(-5.73327119076726e+00dB,-1.79993806096713e+02°)
1.28528665994361e+00	(-5.73327119047770e+00dB,-1.79993791818291e+02°)
1.28824955169313e+00	(-5.73327119018682e+00dB,-1.79993777506955e+02°)
1.29121927361353e+00	(-5.73327118989459e+00dB,-1.79993763162627e+02°)
1.29419584144998e+00	(-5.73327118960101e+00dB,-1.79993748785232e+02°)
1.29717927098395e+00	(-5.73327118930608e+00dB,-1.79993734374694e+02°)
1.30016957803328e+00	(-5.73327118900978e+00dB,-1.79993719930936e+02°)
1.30316677845229e+00	(-5.73327118871212e+00dB,-1.79993705453882e+02°)
1.30617088813183e+00	(-5.73327118841308e+00dB,-1.79993690943455e+02°)
1.30918192299940e+00	(-5.73327118811267e+00dB,-1.79993676399577e+02°)
1.31219989901920e+00	(-5.73327118781086e+00dB,-1.79993661822173e+02°)
1.31522483219223e+00	(-5.73327118750767e+00dB,-1.79993647211164e+02°)
1.31825673855640e+00	(-5.73327118720307e+00dB,-1.79993632566474e+02°)
1.32129563418657e+00	(-5.73327118689707e+00dB,-1.79993617888024e+02°)
1.32434153519466e+00	(-5.73327118658966e+00dB,-1.79993603175736e+02°)
1.32739445772973e+00	(-5.73327118628082e+00dB,-1.79993588429534e+02°)
1.33045441797808e+00	(-5.73327118597056e+00dB,-1.79993573649337e+02°)
1.33352143216332e+00	(-5.73327118565887e+00dB,-1.79993558835069e+02°)
1.33659551654643e+00	(-5.73327118534574e+00dB,-1.79993543986651e+02°)
1.33967668742593e+00	(-5.73327118503117e+00dB,-1.79993529104003e+02°)
1.34276496113786e+00	(-5.73327118471515e+00dB,-1.79993514187048e+02°)
1.34586035405594e+00	(-5.73327118439766e+00dB,-1.79993499235705e+02°)
1.34896288259164e+00	(-5.73327118407871e+00dB,-1.79993484249896e+02°)
1.35207256319427e+00	(-5.73327118375829e+00dB,-1.79993469229540e+02°)
1.35518941235103e+00	(-5.73327118343638e+00dB,-1.79993454174560e+02°)
1.35831344658715e+00	(-5.73327118311299e+00dB,-1.79993439084874e+02°)
1.36144468246594e+00	(-5.73327118278811e+00dB,-1.79993423960403e+02°)
1.36458313658892e+00	(-5.73327118246173e+00dB,-1.79993408801066e+02°)
1.36772882559584e+00	(-5.73327118213385e+00dB,-1.79993393606784e+02°)
1.37088176616484e+00	(-5.73327118180445e+00dB,-1.79993378377475e+02°)
1.37404197501251e+00	(-5.73327118147352e+00dB,-1.79993363113058e+02°)
1.37720946889394e+00	(-5.73327118114108e+00dB,-1.79993347813454e+02°)
1.38038426460288e+00	(-5.73327118080710e+00dB,-1.79993332478580e+02°)
1.38356637897177e+00	(-5.73327118047157e+00dB,-1.79993317108356e+02°)
1.38675582887188e+00	(-5.73327118013450e+00dB,-1.79993301702700e+02°)
1.38995263121334e+00	(-5.73327117979587e+00dB,-1.79993286261531e+02°)
1.39315680294529e+00	(-5.73327117945568e+00dB,-1.79993270784765e+02°)
1.39636836105593e+00	(-5.73327117911392e+00dB,-1.79993255272322e+02°)
1.39958732257261e+00	(-5.73327117877058e+00dB,-1.79993239724119e+02°)
1.40281370456195e+00	(-5.73327117842565e+00dB,-1.79993224140074e+02°)
1.40604752412990e+00	(-5.73327117807914e+00dB,-1.79993208520104e+02°)
1.40928879842186e+00	(-5.73327117773102e+00dB,-1.79993192864126e+02°)
1.41253754462274e+00	(-5.73327117738130e+00dB,-1.79993177172058e+02°)
1.41579377995707e+00	(-5.73327117702996e+00dB,-1.79993161443815e+02°)
1.41905752168908e+00	(-5.73327117667700e+00dB,-1.79993145679315e+02°)
1.42232878712281e+00	(-5.73327117632242e+00dB,-1.79993129878474e+02°)
1.42560759360218e+00	(-5.73327117596619e+00dB,-1.79993114041209e+02°)
1.42889395851109e+00	(-5.73327117560832e+00dB,-1.79993098167435e+02°)
1.43218789927353e+00	(-5.73327117524880e+00dB,-1.79993082257068e+02°)
1.43548943335364e+00	(-5.73327117488762e+00dB,-1.79993066310023e+02°)
1.43879857825583e+00	(-5.73327117452477e+00dB,-1.79993050326217e+02°)
1.44211535152486e+00	(-5.73327117416025e+00dB,-1.79993034305565e+02°)
1.44543977074592e+00	(-5.73327117379405e+00dB,-1.79993018247981e+02°)
1.44877185354475e+00	(-5.73327117342616e+00dB,-1.79993002153381e+02°)
1.45211161758773e+00	(-5.73327117305656e+00dB,-1.79992986021679e+02°)
1.45545908058195e+00	(-5.73327117268526e+00dB,-1.79992969852789e+02°)
1.45881426027534e+00	(-5.73327117231225e+00dB,-1.79992953646626e+02°)
1.46217717445671e+00	(-5.73327117193752e+00dB,-1.79992937403104e+02°)
1.46554784095590e+00	(-5.73327117156105e+00dB,-1.79992921122137e+02°)
1.46892627764385e+00	(-5.73327117118285e+00dB,-1.79992904803638e+02°)
1.47231250243271e+00	(-5.73327117080290e+00dB,-1.79992888447522e+02°)
1.47570653327588e+00	(-5.73327117042120e+00dB,-1.79992872053701e+02°)
1.47910838816819e+00	(-5.73327117003774e+00dB,-1.79992855622088e+02°)
1.48251808514594e+00	(-5.73327116965250e+00dB,-1.79992839152596e+02°)
1.48593564228699e+00	(-5.73327116926549e+00dB,-1.79992822645138e+02°)
1.48936107771090e+00	(-5.73327116887669e+00dB,-1.79992806099626e+02°)
1.49279440957898e+00	(-5.73327116848610e+00dB,-1.79992789515974e+02°)
1.49623565609442e+00	(-5.73327116809370e+00dB,-1.79992772894092e+02°)
1.49968483550236e+00	(-5.73327116769950e+00dB,-1.79992756233892e+02°)
1.50314196609001e+00	(-5.73327116730347e+00dB,-1.79992739535287e+02°)
1.50660706618673e+00	(-5.73327116690562e+00dB,-1.79992722798187e+02°)
1.51008015416413e+00	(-5.73327116650593e+00dB,-1.79992706022505e+02°)
1.51356124843619e+00	(-5.73327116610439e+00dB,-1.79992689208151e+02°)
1.51705036745932e+00	(-5.73327116570100e+00dB,-1.79992672355035e+02°)
1.52054752973248e+00	(-5.73327116529575e+00dB,-1.79992655463069e+02°)
1.52405275379728e+00	(-5.73327116488863e+00dB,-1.79992638532163e+02°)
1.52756605823806e+00	(-5.73327116447963e+00dB,-1.79992621562227e+02°)
1.53108746168202e+00	(-5.73327116406875e+00dB,-1.79992604553172e+02°)
1.53461698279928e+00	(-5.73327116365596e+00dB,-1.79992587504907e+02°)
1.53815464030302e+00	(-5.73327116324127e+00dB,-1.79992570417341e+02°)
1.54170045294954e+00	(-5.73327116282466e+00dB,-1.79992553290384e+02°)
1.54525443953840e+00	(-5.73327116240614e+00dB,-1.79992536123946e+02°)
1.54881661891247e+00	(-5.73327116198568e+00dB,-1.79992518917935e+02°)
1.55238700995807e+00	(-5.73327116156328e+00dB,-1.79992501672260e+02°)
1.55596563160506e+00	(-5.73327116113893e+00dB,-1.79992484386830e+02°)
1.55955250282694e+00	(-5.73327116071262e+00dB,-1.79992467061552e+02°)
1.56314764264094e+00	(-5.73327116028434e+00dB,-1.79992449696336e+02°)
1.56675107010813e+00	(-5.73327115985409e+00dB,-1.79992432291089e+02°)
1.57036280433354e+00	(-5.73327115942185e+00dB,-1.79992414845718e+02°)
1.57398286446620e+00	(-5.73327115898762e+00dB,-1.79992397360132e+02°)
1.57761126969933e+00	(-5.73327115855138e+00dB,-1.79992379834238e+02°)
1.58124803927037e+00	(-5.73327115811313e+00dB,-1.79992362267942e+02°)
1.58489319246110e+00	(-5.73327115767285e+00dB,-1.79992344661151e+02°)
1.58854674859776e+00	(-5.73327115723055e+00dB,-1.79992327013773e+02°)
1.59220872705115e+00	(-5.73327115678620e+00dB,-1.79992309325713e+02°)
1.59587914723672e+00	(-5.73327115633980e+00dB,-1.79992291596878e+02°)
1.59955802861465e+00	(-5.73327115589134e+00dB,-1.79992273827174e+02°)
1.60324539069002e+00	(-5.73327115544081e+00dB,-1.79992256016507e+02°)
1.60694125301286e+00	(-5.73327115498820e+00dB,-1.79992238164781e+02°)
1.61064563517825e+00	(-5.73327115453350e+00dB,-1.79992220271903e+02°)
1.61435855682647e+00	(-5.73327115407670e+00dB,-1.79992202337778e+02°)
1.61808003764305e+00	(-5.73327115361780e+00dB,-1.79992184362311e+02°)
1.62181009735891e+00	(-5.73327115315677e+00dB,-1.79992166345406e+02°)
1.62554875575047e+00	(-5.73327115269362e+00dB,-1.79992148286967e+02°)
1.62929603263970e+00	(-5.73327115222833e+00dB,-1.79992130186899e+02°)
1.63305194789432e+00	(-5.73327115176089e+00dB,-1.79992112045107e+02°)
1.63681652142779e+00	(-5.73327115129130e+00dB,-1.79992093861493e+02°)
1.64058977319952e+00	(-5.73327115081954e+00dB,-1.79992075635962e+02°)
1.64437172321491e+00	(-5.73327115034559e+00dB,-1.79992057368417e+02°)
1.64816239152549e+00	(-5.73327114986947e+00dB,-1.79992039058760e+02°)
1.65196179822900e+00	(-5.73327114939114e+00dB,-1.79992020706896e+02°)
1.65576996346951e+00	(-5.73327114891061e+00dB,-1.79992002312726e+02°)
1.65958690743754e+00	(-5.73327114842786e+00dB,-1.79991983876153e+02°)
1.66341265037015e+00	(-5.73327114794288e+00dB,-1.79991965397079e+02°)
1.66724721255104e+00	(-5.73327114745566e+00dB,-1.79991946875407e+02°)
1.67109061431069e+00	(-5.73327114696619e+00dB,-1.79991928311038e+02°)
1.67494287602642e+00	(-5.73327114647446e+00dB,-1.79991909703873e+02°)
1.67880401812254e+00	(-5.73327114598047e+00dB,-1.79991891053815e+02°)
1.68267406107045e+00	(-5.73327114548419e+00dB,-1.79991872360764e+02°)
1.68655302538872e+00	(-5.73327114498562e+00dB,-1.79991853624621e+02°)
1.69044093164324e+00	(-5.73327114448476e+00dB,-1.79991834845286e+02°)
1.69433780044731e+00	(-5.73327114398157e+00dB,-1.79991816022661e+02°)
1.69824365246172e+00	(-5.73327114347607e+00dB,-1.79991797156645e+02°)
1.70215850839493e+00	(-5.73327114296824e+00dB,-1.79991778247139e+02°)
1.70608238900310e+00	(-5.73327114245806e+00dB,-1.79991759294042e+02°)
1.71001531509027e+00	(-5.73327114194552e+00dB,-1.79991740297253e+02°)
1.71395730750840e+00	(-5.73327114143062e+00dB,-1.79991721256672e+02°)
1.71790838715757e+00	(-5.73327114091334e+00dB,-1.79991702172198e+02°)
1.72186857498599e+00	(-5.73327114039367e+00dB,-1.79991683043730e+02°)
1.72583789199018e+00	(-5.73327113987161e+00dB,-1.79991663871166e+02°)
1.72981635921508e+00	(-5.73327113934714e+00dB,-1.79991644654404e+02°)
1.73380399775412e+00	(-5.73327113882024e+00dB,-1.79991625393344e+02°)
1.73780082874935e+00	(-5.73327113829092e+00dB,-1.79991606087882e+02°)
1.74180687339159e+00	(-5.73327113775915e+00dB,-1.79991586737917e+02°)
1.74582215292048e+00	(-5.73327113722492e+00dB,-1.79991567343345e+02°)
1.74984668862464e+00	(-5.73327113668824e+00dB,-1.79991547904064e+02°)
1.75388050184174e+00	(-5.73327113614907e+00dB,-1.79991528419971e+02°)
1.75792361395867e+00	(-5.73327113560741e+00dB,-1.79991508890963e+02°)
1.76197604641161e+00	(-5.73327113506325e+00dB,-1.79991489316935e+02°)
1.76603782068614e+00	(-5.73327113451658e+00dB,-1.79991469697785e+02°)
1.77010895831740e+00	(-5.73327113396739e+00dB,-1.79991450033408e+02°)
1.77418948089014e+00	(-5.73327113341567e+00dB,-1.79991430323700e+02°)
1.77827941003890e+00	(-5.73327113286139e+00dB,-1.79991410568556e+02°)
1.78237876744807e+00	(-5.73327113230456e+00dB,-1.79991390767872e+02°)
1.78648757485203e+00	(-5.73327113174516e+00dB,-1.79991370921543e+02°)
1.79060585403527e+00	(-5.73327113118318e+00dB,-1.79991351029463e+02°)
1.79473362683250e+00	(-5.73327113061860e+00dB,-1.79991331091527e+02°)
1.79887091512876e+00	(-5.73327113005142e+00dB,-1.79991311107630e+02°)
1.80301774085955e+00	(-5.73327112948161e+00dB,-1.79991291077665e+02°)
1.80717412601090e+00	(-5.73327112890918e+00dB,-1.79991271001526e+02°)
1.81134009261958e+00	(-5.73327112833411e+00dB,-1.79991250879106e+02°)
1.81551566277311e+00	(-5.73327112775638e+00dB,-1.79991230710300e+02°)
1.81970085860996e+00	(-5.73327112717599e+00dB,-1.79991210495000e+02°)
1.82389570231961e+00	(-5.73327112659291e+00dB,-1.79991190233099e+02°)
1.82810021614272e+00	(-5.73327112600715e+00dB,-1.79991169924489e+02°)
1.83231442237119e+00	(-5.73327112541867e+00dB,-1.79991149569063e+02°)
1.83653834334832e+00	(-5.73327112482749e+00dB,-1.79991129166714e+02°)
1.84077200146893e+00	(-5.73327112423358e+00dB,-1.79991108717331e+02°)
1.84501541917945e+00	(-5.73327112363692e+00dB,-1.79991088220808e+02°)
1.84926861897805e+00	(-5.73327112303751e+00dB,-1.79991067677036e+02°)
1.85353162341479e+00	(-5.73327112243533e+00dB,-1.79991047085906e+02°)
1.85780445509167e+00	(-5.73327112183038e+00dB,-1.79991026447308e+02°)
1.86208713666284e+00	(-5.73327112122263e+00dB,-1.79991005761133e+02°)
1.86637969083464e+00	(-5.73327112061208e+00dB,-1.79990985027271e+02°)
1.87068214036577e+00	(-5.73327111999871e+00dB,-1.79990964245613e+02°)
1.87499450806739e+00	(-5.73327111938250e+00dB,-1.79990943416049e+02°)
1.87931681680324e+00	(-5.73327111876346e+00dB,-1.79990922538467e+02°)
1.88364908948977e+00	(-5.73327111814155e+00dB,-1.79990901612758e+02°)
1.88799134909627e+00	(-5.73327111751678e+00dB,-1.79990880638809e+02°)
1.89234361864495e+00	(-5.73327111688912e+00dB,-1.79990859616511e+02°)
1.89670592121112e+00	(-5.73327111625856e+00dB,-1.79990838545752e+02°)
1.90107827992327e+00	(-5.73327111562509e+00dB,-1.79990817426419e+02°)
1.90546071796322e+00	(-5.73327111498870e+00dB,-1.79990796258401e+02°)
