# Hz S DB R 50
! CMT, M5065, 19127446, 24.2.4/2
! Date: 12/3/2024 4:29:49 PM
! Data: Format (Calibration Info)
! Freq	S11:dB/Ang(F2)	S21:dB/Ang(F2)	S12:dB/Ang(F2)	S22:dB/Ang(F2)
3.00000000000E+05	-6.31585836440E+00	1.78990489758E+02	3.23019989659E+01	8.42051984979E+01	-5.23103083476E+01	1.57154987243E+02	-3.22489551773E+01	-3.45693763346E+01
3.49972219135E+05	-6.24454188488E+00	-1.73505158381E+02	3.34942251388E+01	7.61778209728E+01	-5.35021407356E+01	8.02672940043E+01	-4.15242288566E+01	1.10139711389E+02
3.99944438271E+05	-6.00610432989E+00	-1.77054564623E+02	3.44044755543E+01	7.06235073938E+01	-4.13509000933E+01	3.40828308582E+01	-1.90070433976E+01	9.20182750186E+01
4.49916657406E+05	-5.40476713108E+00	1.78270579310E+02	3.51276418066E+01	6.61419189159E+01	-3.99449540862E+01	-1.51525553475E+01	-1.60614880219E+01	4.18413617954E+01
4.99888876542E+05	-5.32751937733E+00	-1.68900415195E+02	3.57625884720E+01	5.99623115059E+01	-5.05320287990E+01	1.23558474127E+02	-2.84766195428E+01	-1.63763503464E+02
5.49861095677E+05	-6.37393073401E+00	-1.72256162290E+02	3.64250271518E+01	5.65460942878E+01	-4.75464084354E+01	-1.75306134973E+02	-2.58098246705E+01	-1.10824111952E+02
5.99833314813E+05	-5.66244621135E+00	-1.75733124522E+02	3.67838543908E+01	5.33322278413E+01	-5.90878088505E+01	6.18268265914E+01	-3.22016971891E+01	6.13807902291E+01
6.49805533948E+05	-5.44080304761E+00	-1.74982901214E+02	3.71756455138E+01	4.97511949087E+01	-4.52713394924E+01	1.12598489595E+02	-2.24785988202E+01	1.52764760845E+02
6.99777753084E+05	-5.47001173710E+00	-1.71520922929E+02	3.75139290888E+01	4.62452305373E+01	-5.10145723967E+01	-2.29489463745E+01	-2.18717630317E+01	2.55237014132E+01
7.49749972219E+05	-5.80310412402E+00	-1.75398405661E+02	3.78530645051E+01	4.38329109101E+01	-5.70685501457E+01	1.77854531053E+02	-3.20695249595E+01	-8.16110703560E+01
7.99722191355E+05	-5.08561904586E+00	1.76875375133E+02	3.80289675606E+01	4.24895701489E+01	-4.70831501966E+01	-1.29165961789E+02	-2.13547968753E+01	-7.69798186553E+01
8.49694410490E+05	-5.29418792688E+00	-1.74926340625E+02	3.82403522329E+01	3.87755186868E+01	-5.07860068180E+01	-1.47963502691E+02	-2.74684671687E+01	-8.68827863135E+01
8.99666629626E+05	-4.58846692446E+00	1.78672294176E+02	3.83495865024E+01	3.73832015352E+01	-4.64977682693E+01	9.93344303475E+01	-2.10111364355E+01	1.23302971959E+02
9.49638848761E+05	-6.66044485352E+00	-1.77632865198E+02	3.88087834845E+01	3.45819967252E+01	-4.44549911360E+01	8.82517635132E+01	-1.91787777804E+01	1.06859044639E+02
9.99611067896E+05	-5.56107482318E+00	-1.74440264080E+02	3.88429683433E+01	3.23738520026E+01	-4.23371664339E+01	-1.30529751836E+02	-1.71758827930E+01	-8.77122473047E+01
1.04958328703E+06	-5.89354103314E+00	-1.75162948845E+02	3.89941478555E+01	3.04816172112E+01	-4.50247959304E+01	1.72707474302E+02	-2.06722622604E+01	-1.56657984595E+02
1.09955550617E+06	-5.65162312942E+00	1.78025867551E+02	3.90785421591E+01	2.96184531085E+01	-4.96426976065E+01	-2.99017834243E+01	-2.00980999601E+01	-2.76260864925E+00
1.14952772530E+06	-6.51114239470E+00	-1.79622506974E+02	3.92991875635E+01	2.75151703600E+01	-4.77757575613E+01	1.37093456411E+02	-2.28601489508E+01	1.44851523091E+02
1.19949994444E+06	-5.74179967479E+00	1.76886338493E+02	3.93117548796E+01	2.64430422559E+01	-4.58551702938E+01	1.73482494568E+02	-2.09250435367E+01	-1.56796675258E+02
1.24947216357E+06	-5.24233139162E+00	-1.78066552292E+02	3.93081450157E+01	2.42422704293E+01	-4.48693380963E+01	4.96054870442E+01	-1.62109265337E+01	5.97397577149E+01
1.29944438271E+06	-6.70401539096E+00	1.79261492395E+02	3.96069672628E+01	2.31012974515E+01	-4.89853492240E+01	5.03867898074E+00	-1.85363874747E+01	1.77378743756E+01
1.34941660184E+06	-7.25325036742E+00	-1.75605834799E+02	3.96918103552E+01	2.11572232122E+01	-4.57490679985E+01	-4.89352325871E+01	-1.79130061338E+01	-1.84433719255E+01
1.39938882098E+06	-5.55903047912E+00	-1.74454106295E+02	3.95680660447E+01	1.96269669112E+01	-4.35088248576E+01	-1.73046242267E+02	-1.77086468878E+01	-1.53437663043E+02
1.44936104012E+06	-7.07885210367E+00	-1.78036833883E+02	3.98111859944E+01	1.88212997300E+01	-4.21924398605E+01	1.21892244397E+02	-1.48926871146E+01	1.28720461130E+02
1.49933325925E+06	-5.88120394046E+00	1.75503502291E+02	3.97279444558E+01	1.85119998059E+01	-4.49016252047E+01	7.87577663571E+01	-1.65319961079E+01	7.85437474543E+01
1.54930547839E+06	-5.85931585196E+00	-1.77868296479E+02	3.97692001948E+01	1.65367961539E+01	-4.92691947676E+01	2.77686394938E+01	-1.89215697107E+01	3.66240718810E+01
1.59927769752E+06	-6.62294044044E+00	-1.78380968586E+02	3.98977053076E+01	1.54356413358E+01	-4.94856587565E+01	1.90838755940E+01	-1.87862362505E+01	3.12960892599E+01
1.64924991666E+06	-5.31963673301E+00	1.76044481848E+02	3.97831134314E+01	1.51711450954E+01	-5.02190185986E+01	-1.67807687503E+01	-2.07070351973E+01	7.15102294962E-02
1.69922213579E+06	-5.77676067142E+00	-1.75618605028E+02	3.98661300161E+01	1.28422205300E+01	-4.56552902875E+01	-1.47827865492E+01	-1.77144432481E+01	6.27030496721E+00
1.74919435493E+06	-5.10476653645E+00	1.76703010547E+02	3.98501399159E+01	1.30179636650E+01	-4.36709324451E+01	-1.12272021486E+02	-1.63049752538E+01	-9.53033389833E+01
1.79916657406E+06	-6.46084883936E+00	1.77675466750E+02	4.00594304013E+01	1.18094146225E+01	-6.21451544570E+01	1.66967767222E+01	-2.53814078165E+01	3.16898738865E+01
1.84913879320E+06	-5.63027645158E+00	1.78440359927E+02	3.99842187508E+01	1.07535373877E+01	-4.20954844084E+01	1.18854495488E+02	-1.42139733239E+01	1.16337145176E+02
1.89911101233E+06	-5.42623022592E+00	1.73425954950E+02	4.00210318964E+01	1.06827751506E+01	-4.51196655741E+01	-7.01885405099E+01	-1.62937511414E+01	-6.08331029508E+01
1.94908323147E+06	-5.77167699959E+00	-1.73720994199E+02	4.00791998895E+01	8.09215638711E+00	-6.03218385747E+01	-1.25545364120E+02	-3.34383081252E+01	-1.51994376811E+00
1.99905545061E+06	-5.60028888176E+00	-1.78211009997E+02	4.00593521968E+01	7.60036545302E+00	-5.30858576837E+01	-1.14324277567E+02	-2.75863327760E+01	-9.51434451586E+01
2.04902766974E+06	-5.52335514933E+00	-1.78198401284E+02	4.00624409453E+01	6.69084773430E+00	-4.61801705893E+01	8.41192504979E+01	-1.95553747381E+01	5.32024785506E+01
2.09899988888E+06	-4.99644494001E+00	1.77642923150E+02	4.00314160490E+01	6.62999956979E+00	-4.41163086406E+01	1.58934551993E+02	-1.68002997725E+01	1.49256270206E+02
2.14897210801E+06	-5.67542229639E+00	-1.75180525746E+02	4.01230096516E+01	4.72763491073E+00	-5.60160172778E+01	9.39773442255E+01	-2.64622261795E+01	5.72114087857E+01
2.19894432715E+06	-6.10426007033E+00	-1.76802370796E+02	4.01926588494E+01	4.25812832160E+00	-4.26426314620E+01	-9.72474154224E+01	-1.55942393986E+01	-9.15525255897E+01
2.24891654628E+06	-7.10091830405E+00	-1.75970113602E+02	4.03292881186E+01	3.41568846731E+00	-4.75714315204E+01	6.28049321793E+01	-1.73559050399E+01	5.53587321989E+01
2.29888876542E+06	-5.35811128686E+00	1.78411790444E+02	4.01150204174E+01	3.30378238284E+00	-4.61455471319E+01	-2.05984261585E+01	-1.66777025848E+01	-1.62965762837E+01
2.34886098455E+06	-4.57830706001E+00	1.75941671727E+02	4.00745287325E+01	3.02332216911E+00	-4.35105619840E+01	-1.72377942055E+02	-1.64442153825E+01	1.74869763073E+02
2.39883320369E+06	-6.18231305819E+00	1.77917182166E+02	4.02805242376E+01	1.84787267084E+00	-4.79710208073E+01	-1.23293804373E+02	-2.50261809871E+01	-1.02763361549E+02
2.44880542282E+06	-6.62668732438E+00	1.78865654986E+02	4.03377382858E+01	9.50827002177E-01	-5.60479330495E+01	3.82472470508E+01	-2.22958952204E+01	3.34093728480E+01
2.49877764196E+06	-5.81158036845E+00	-1.79020907289E+02	4.02519316953E+01	1.16743387463E-01	-4.73083592404E+01	-4.24062647480E+01	-1.84368249204E+01	-3.32381044370E+01
2.54874986110E+06	-6.46879769817E+00	-1.76821965018E+02	4.03474654348E+01	-9.31584695564E-01	-5.63883606367E+01	-1.20465211440E+02	-3.87560893810E+01	-8.78099269949E+01
2.59872208023E+06	-5.47583541190E+00	1.79474817509E+02	4.02504497676E+01	-1.05787751029E+00	-4.38114406195E+01	-9.68587221556E+01	-1.65352001713E+01	-9.89792406465E+01
2.64869429937E+06	-5.91871236727E+00	-1.73892642115E+02	4.03011494960E+01	-2.57038718623E+00	-4.06363616052E+01	-6.98826012836E+01	-1.24844108472E+01	-7.36492540779E+01
2.69866651850E+06	-5.51794087443E+00	1.75215324270E+02	4.03022713660E+01	-1.85448487656E+00	-4.32795428648E+01	6.56368618946E+01	-1.34250019305E+01	4.85650131136E+01
2.74863873764E+06	-6.19958938877E+00	-1.76499988742E+02	4.03663245151E+01	-3.58114331166E+00	-4.43559120418E+01	-1.06616795567E+02	-1.90576729730E+01	-7.49530751442E+01
2.79861095677E+06	-6.34526450648E+00	1.76671616076E+02	4.04047529288E+01	-3.53397134598E+00	-4.88481411963E+01	8.07079847853E+01	-1.80802437726E+01	6.14027282722E+01
2.84858317591E+06	-5.34674489134E+00	1.74902808826E+02	4.03157313596E+01	-3.76551680568E+00	-4.92975228403E+01	1.63064132311E+02	-2.21758329973E+01	1.25105866851E+02
2.89855539504E+06	-5.76539049697E+00	-1.78289988101E+02	4.03366012018E+01	-5.23640846555E+00	-4.44289380194E+01	-1.72315985041E+02	-1.69032550463E+01	1.60920758688E+02
2.94852761418E+06	-5.93132859847E+00	-1.73406004590E+02	4.03482751677E+01	-6.48022677254E+00	-4.10238426327E+01	-7.63325403782E+01	-1.35279980273E+01	-8.34292708518E+01
2.99849983331E+06	-5.60677337123E+00	1.76696344572E+02	4.03431446098E+01	-5.87589505598E+00	-4.71207246680E+01	-1.67372816938E+02	-2.08809420692E+01	1.58854244065E+02
3.04847205245E+06	-5.84763917904E+00	1.78464391852E+02	4.03803771598E+01	-6.70609399599E+00	-5.02142040156E+01	-9.17443638507E+01	-2.72525662738E+01	-1.02240527363E+02
3.09844427159E+06	-7.89916468466E+00	-1.78730083222E+02	4.05921718891E+01	-7.94200676136E+00	-4.00585410386E+01	-1.41124392466E+01	-1.13893698066E+01	-1.98066748732E+01
3.14841649072E+06	-4.98759864310E+00	1.74904698066E+02	4.03017157792E+01	-7.12055090401E+00	-4.18828131897E+01	1.60282740592E+02	-1.33900351110E+01	1.32387221890E+02
3.19838870986E+06	-5.98457045533E+00	-1.76737412554E+02	4.03926862192E+01	-9.11438834663E+00	-4.83222556312E+01	-1.76765268135E+02	-2.00959192725E+01	1.36246397501E+02
3.24836092899E+06	-6.26400576634E+00	1.75687716510E+02	4.04652003202E+01	-8.82100246666E+00	-4.77847649438E+01	-7.28367768741E+01	-2.27403872048E+01	-7.76877379903E+01
3.29833314813E+06	-5.70838284708E+00	-1.77867122518E+02	4.03892734261E+01	-9.95008516820E+00	-5.03192448091E+01	1.31737114231E+02	-2.01504730712E+01	8.94044180338E+01
3.34830536726E+06	-5.91565742813E+00	-1.77938006656E+02	4.04128872919E+01	-1.06888233244E+01	-5.11868809711E+01	1.13435098355E+02	-1.96784587957E+01	7.35907875589E+01
3.39827758640E+06	-5.33079458886E+00	-1.79112939377E+02	4.03399198132E+01	-1.08576248390E+01	-5.95056674853E+01	-8.83001760153E+01	-3.48231751172E+01	3.76019813246E+01
3.44824980553E+06	-6.45497180776E+00	1.76613910685E+02	4.04903087451E+01	-1.12145556154E+01	-4.76221381408E+01	5.30740194361E+01	-1.70559335688E+01	3.18687545536E+01
3.49822202467E+06	-5.30200673814E+00	1.77035694005E+02	4.03703388542E+01	-1.14015734114E+01	-4.87877864281E+01	-1.72042676249E+02	-2.18421701175E+01	1.39467207532E+02
3.54819424380E+06	-6.45093394922E+00	1.77056530666E+02	4.05174180440E+01	-1.21742201615E+01	-4.07045151406E+01	-2.23776319962E+01	-1.22773492649E+01	-3.70586152598E+01
3.59816646294E+06	-7.91395878255E+00	-1.73784329467E+02	4.06066385503E+01	-1.39548813276E+01	-4.68338945077E+01	-7.03899854342E+00	-1.77935979499E+01	-1.60007124944E+01
3.64813868208E+06	-5.81669294615E+00	1.78599876916E+02	4.04336856884E+01	-1.33217631467E+01	-4.26897967533E+01	-8.36594647810E+01	-1.61290746204E+01	-9.96817552224E+01
3.69811090121E+06	-6.01977161503E+00	1.75831249531E+02	4.04772926330E+01	-1.37882369938E+01	-5.55836899226E+01	8.37582350781E+01	-2.16562334918E+01	4.13520691122E+01
3.74808312035E+06	-6.34868359035E+00	-1.78604130835E+02	4.04890803740E+01	-1.48810292542E+01	-5.00721027064E+01	4.28777741658E+01	-1.78611319551E+01	2.04989643974E+01
3.79805533948E+06	-6.19527885482E+00	-1.74673539536E+02	4.04407820563E+01	-1.59646013618E+01	-4.26731460693E+01	7.18609926472E+01	-1.23761365992E+01	3.35742033110E+01
3.84802755862E+06	-6.25833045485E+00	1.71801708096E+02	4.05428715758E+01	-1.47847876337E+01	-4.78821616148E+01	1.52064280602E+02	-1.84962549779E+01	1.02058007287E+02
3.89799977775E+06	-5.84399532930E+00	-1.77112346539E+02	4.04305080441E+01	-1.64522238794E+01	-4.44525732038E+01	-6.47950535486E+01	-1.83099100219E+01	-8.37457711724E+01
3.94797199689E+06	-5.81468803811E+00	-1.77309692198E+02	4.04295015416E+01	-1.69473067454E+01	-4.87321733117E+01	1.59401204145E+02	-1.88418858115E+01	1.04287561393E+02
3.99794421602E+06	-4.83482798238E+00	1.78090374116E+02	4.03371260304E+01	-1.66627022293E+01	-4.86589545329E+01	1.46975696794E+02	-1.87083176572E+01	9.11224259445E+01
4.04791643516E+06	-5.34955556105E+00	-1.78524512373E+02	4.03705152783E+01	-1.76051320180E+01	-4.89526863361E+01	3.93081706369E+01	-1.76896825988E+01	1.98441069428E+01
4.09788865429E+06	-5.80405539617E+00	-1.73683931466E+02	4.04234937551E+01	-1.89055026882E+01	-4.14175336722E+01	3.36605920658E+01	-1.16548635836E+01	9.14220646967E+00
4.14786087343E+06	-6.37808675776E+00	1.77955921943E+02	4.05306795552E+01	-1.85113777444E+01	-4.80050853663E+01	4.46191007793E+01	-1.71137840837E+01	1.22787084447E+01
4.19783309257E+06	-6.33570479518E+00	-1.73141476664E+02	4.05055466496E+01	-2.00447453575E+01	-4.31711884335E+01	1.35272309240E+02	-1.45682075402E+01	8.90369041652E+01
4.24780531170E+06	-6.69026423990E+00	-1.77663876480E+02	4.05424602962E+01	-1.98685307626E+01	-5.68835117391E+01	7.35770826074E+01	-2.15707347240E+01	4.18365403859E+01
4.29777753084E+06	-5.66718008601E+00	-1.78173799368E+02	4.04183444102E+01	-2.01734318355E+01	-4.27473779250E+01	6.65339802523E+01	-1.25973945681E+01	3.46660827510E+01
4.34774974997E+06	-6.12413299603E+00	1.79913745748E+02	4.04905082775E+01	-2.04910912153E+01	-4.43484236114E+01	5.72763931042E+00	-1.52529501974E+01	-1.36822837471E+01
4.39772196911E+06	-5.64777160899E+00	1.78606199126E+02	4.04422112790E+01	-2.05844098641E+01	-4.98111425841E+01	7.96460613954E+01	-1.77162533308E+01	4.27685828810E+01
4.44769418824E+06	-6.97556958686E+00	-1.78254083412E+02	4.05631339940E+01	-2.18085622932E+01	-4.20999105677E+01	3.42018894067E+01	-1.24327305107E+01	6.98624737718E+00
4.49766640738E+06	-6.14374307936E+00	-1.78989389675E+02	4.04902226540E+01	-2.20014305080E+01	-4.92611471297E+01	1.69448444256E+02	-2.14999871761E+01	1.00416407662E+02
4.54763862651E+06	-6.20423557705E+00	1.77509862075E+02	4.05105377758E+01	-2.20528922254E+01	-4.92110804222E+01	9.41185617853E+01	-1.70424448993E+01	4.62490904899E+01
4.59761084565E+06	-5.60236928193E+00	1.77976055448E+02	4.04287526643E+01	-2.24510268427E+01	-5.75881340684E+01	1.52121236296E+02	-2.39830497480E+01	6.65201941888E+01
4.64758306478E+06	-5.77660307284E+00	-1.79590685613E+02	4.04377504673E+01	-2.32648129379E+01	-4.25460038136E+01	7.97307466765E+00	-1.36232192272E+01	-1.70635704101E+01
4.69755528392E+06	-5.95777123157E+00	1.76475347037E+02	4.04868653734E+01	-2.32789834835E+01	-4.93533605307E+01	-1.62800872212E+02	-2.20790570596E+01	1.28717430948E+02
4.74752750306E+06	-6.86429318691E+00	1.79129720321E+02	4.05884484295E+01	-2.43255710203E+01	-4.60778807419E+01	-9.12941922582E+01	-2.24930155231E+01	-1.29633677159E+02
4.79749972219E+06	-6.78041864055E+00	1.74983698416E+02	4.05906860236E+01	-2.43241518826E+01	-5.42529504801E+01	-4.27483734158E+01	-2.65098885672E+01	-2.56335177400E+01
4.84747194133E+06	-5.39567488460E+00	1.78861985916E+02	4.04336807072E+01	-2.47602727397E+01	-4.75050432225E+01	1.63318097116E+02	-1.65282981512E+01	7.86137112393E+01
4.89744416046E+06	-6.04457743074E+00	1.79684274226E+02	4.04912450933E+01	-2.54351914675E+01	-6.54349624009E+01	1.64315282636E+02	-2.36684525185E+01	7.29984036219E+01
4.94741637960E+06	-6.05146657501E+00	-1.76340639753E+02	4.04931714402E+01	-2.64354532010E+01	-4.82520146028E+01	6.79162737827E+01	-1.62277072418E+01	3.22221082630E+01
4.99738859873E+06	-5.71972268494E+00	-1.75036796874E+02	4.04268474109E+01	-2.69613972708E+01	-5.41054154777E+01	3.25062544094E+01	-2.07091515588E+01	1.88627072882E+01
5.04736081787E+06	-5.54566226826E+00	-1.75342050011E+02	4.04295855702E+01	-2.72292830832E+01	-4.04170537558E+01	-1.06062642066E+02	-1.41916709493E+01	-1.51525865867E+02
5.09733303700E+06	-5.75392998137E+00	-1.79057611618E+02	4.04761941324E+01	-2.74426194479E+01	-4.37027741718E+01	-1.57045111424E+02	-1.66405094691E+01	1.41476268642E+02
5.14730525614E+06	-6.71200487414E+00	-1.73840588710E+02	4.05301737857E+01	-2.85248922966E+01	-4.54280410330E+01	4.55023960789E+01	-1.46163722961E+01	1.21737913368E+01
5.19727747528E+06	-5.68240746431E+00	1.79799231381E+02	4.04613282248E+01	-2.80632819836E+01	-4.81427952029E+01	-1.53872191310E+02	-2.30576865002E+01	1.22372439188E+02
5.24724969441E+06	-5.74098382690E+00	-1.76914145866E+02	4.04481746098E+01	-2.90504126651E+01	-4.63312077632E+01	8.95490173798E+01	-1.56813221542E+01	4.10653891316E+01
5.29722191355E+06	-5.04551445011E+00	1.78920770227E+02	4.03786555292E+01	-2.86552619379E+01	-4.92105916485E+01	-7.72642509051E+01	-2.92871682461E+01	-1.01154841965E+02
5.34719413268E+06	-6.46545749387E+00	1.77876736753E+02	4.05433404022E+01	-2.95246592651E+01	-4.13583521692E+01	6.60546042753E+01	-1.16424148402E+01	2.28666122891E+01
5.39716635182E+06	-5.65841263561E+00	1.79119365261E+02	4.04458169148E+01	-2.96866657427E+01	-4.91456731248E+01	-1.10742504709E+02	-2.81364645795E+01	1.71829306414E+02
5.44713857095E+06	-5.76648594814E+00	1.78057330748E+02	4.04635278906E+01	-2.99138001079E+01	-4.54120173055E+01	1.69770272260E+02	-1.60448511691E+01	1.01768980818E+02
5.49711079009E+06	-7.13457981566E+00	-1.78465623684E+02	4.06059212317E+01	-3.11796737523E+01	-4.74200987876E+01	1.25774150651E+02	-1.62278684003E+01	6.65443633702E+01
5.54708300922E+06	-5.45657024983E+00	1.79164648392E+02	4.04552983634E+01	-3.09946611227E+01	-4.70179416442E+01	-7.10111975105E+01	-2.42229984342E+01	-1.08062514604E+02
5.59705522836E+06	-5.79835572578E+00	-1.76273593031E+02	4.04423774310E+01	-3.20744476940E+01	-4.70452801063E+01	-3.63628454338E+01	-2.14090554868E+01	-6.18217802357E+01
5.64702744749E+06	-6.07830978143E+00	1.73225751630E+02	4.05559381902E+01	-3.14888234487E+01	-5.15426702146E+01	1.34691718431E+02	-1.93746545115E+01	6.59368548415E+01
5.69699966663E+06	-6.00622715088E+00	1.76847373563E+02	4.05282647932E+01	-3.23635003377E+01	-4.88952269658E+01	5.51647291673E+01	-1.71463640649E+01	1.96871824033E+01
5.74697188577E+06	-6.62930224941E+00	1.78728790394E+02	4.05727567646E+01	-3.31028853000E+01	-4.54410664736E+01	-7.43300924573E+01	-2.08223212408E+01	-1.20599210301E+02
5.79694410490E+06	-5.99966062045E+00	1.78329996014E+02	4.05374263311E+01	-3.32698796737E+01	-4.21567754122E+01	-1.69470054257E+02	-1.40614106781E+01	1.23421143282E+02
5.84691632404E+06	-6.40575101134E+00	1.79430649696E+02	4.05310016383E+01	-3.37760651778E+01	-5.45626354821E+01	6.88225749181E+01	-1.98482645676E+01	3.25052640806E+01
5.89688854317E+06	-6.39264539682E+00	-1.69923488533E+02	4.05177365356E+01	-3.53856937971E+01	-4.70926300465E+01	1.11587765388E+02	-1.50073563705E+01	5.59003784990E+01
5.94686076231E+06	-6.11236598766E+00	-1.77211865347E+02	4.04893819727E+01	-3.48924454214E+01	-4.82495630146E+01	1.76529846858E-01	-2.07130716130E+01	-1.75784003551E+01
5.99683298144E+06	-5.75165194785E+00	-1.77086454485E+02	4.04692072675E+01	-3.53133399101E+01	-4.12659938132E+01	-7.41490521413E+01	-1.57271515621E+01	-1.23166500845E+02
6.04680520058E+06	-5.87713958336E+00	1.73494845562E+02	4.05383868505E+01	-3.47230071240E+01	-4.36850272402E+01	-6.88897510083E+01	-1.96202280170E+01	-1.16795266648E+02
6.09677741971E+06	-5.92586793436E+00	-1.78867588012E+02	4.04835432659E+01	-3.59133574654E+01	-4.45494459367E+01	1.42859843398E+02	-1.40801659539E+01	7.52275849676E+01
