# Hz S DB R 50
! CMT, M5065, 19127446, 24.2.4/2
! Date: 12/3/2024 4:27:45 PM
! Data: Format (Calibration Info)
! Freq	S11:dB/Ang(F2)	S21:dB/Ang(F2)	S12:dB/Ang(F2)	S22:dB/Ang(F2)
3.00000000000E+05	-5.85402312616E+00	1.78066841716E+02	-7.06636297335E-01	9.11397108296E+01	-4.09835137365E+01	1.38528642441E+02	-3.05632433596E+01	-4.81267580060E-01
3.49972219135E+05	-7.00959256183E+00	-1.76097163840E+02	8.78597911893E-01	9.01856809589E+01	-4.19241617602E+01	1.50193651988E+02	-3.08249207370E+01	-2.08407547802E+00
3.99944438271E+05	-6.26617392237E+00	-1.77251540947E+02	1.87559497705E+00	8.93963821319E+01	-4.21282385988E+01	5.99266311324E+01	-3.03962674413E+01	4.51392969554E+00
4.49916657406E+05	-7.09259742932E+00	-1.76789524510E+02	2.93737410973E+00	8.90820914380E+01	-4.94690855286E+01	-1.42625574712E+02	-2.97620413553E+01	-2.45159293987E+00
4.99888876542E+05	-5.45061986903E+00	1.78718854768E+02	3.91107271521E+00	8.75539440198E+01	-5.17199373038E+01	-1.22338738627E+02	-2.99456162239E+01	3.12466602979E+00
5.49861095677E+05	-5.49809500946E+00	-1.74478728139E+02	4.46319383786E+00	8.70241476965E+01	-3.71544809255E+01	-7.55063445196E+01	-2.86902481692E+01	4.74831528303E+00
5.99833314813E+05	-6.24845396933E+00	-1.79503044196E+02	5.45412408009E+00	8.69142409165E+01	-4.74815397556E+01	-1.64810101860E+02	-2.99868673379E+01	2.85252153488E+00
6.49805533948E+05	-6.15281779124E+00	-1.75469522642E+02	6.07043705596E+00	8.60118502924E+01	-4.34257832042E+01	4.92666177709E+00	-3.02999069618E+01	7.98018676190E+00
6.99777753084E+05	-5.93829325701E+00	-1.79593532138E+02	6.69655933609E+00	8.58566572485E+01	-4.76403237873E+01	2.12624274754E+01	-2.99378553776E+01	7.23113699955E+00
7.49749972219E+05	-5.02054331120E+00	-1.78720707842E+02	7.26072559922E+00	8.52114975073E+01	-4.48302659463E+01	-8.31426630009E+01	-2.93296022075E+01	3.89014524731E+00
7.99722191355E+05	-5.53359390713E+00	-1.77583028024E+02	7.71548643634E+00	8.45649395924E+01	-4.70713788202E+01	-1.57293342644E+02	-3.19996032086E+01	-7.63016140917E+00
8.49694410490E+05	-6.42899274741E+00	1.78732129755E+02	8.58565180743E+00	8.38646597106E+01	-4.99072591478E+01	-1.73424765167E+02	-3.05495107416E+01	1.83864727372E+00
8.99666629626E+05	-5.48100529556E+00	1.74304967363E+02	8.82826753933E+00	8.43891699343E+01	-6.11095557628E+01	-1.06551271481E+02	-2.99827976544E+01	7.17064994286E+00
9.49638848761E+05	-5.17724085179E+00	-1.74401753564E+02	9.22186168401E+00	8.24138354037E+01	-4.75923273079E+01	-1.34393740468E+02	-2.96960956067E+01	1.79394611711E+00
9.99611067896E+05	-6.44280266648E+00	-1.76695972403E+02	9.83341392310E+00	8.26710715585E+01	-4.66800840167E+01	5.10640971374E+01	-3.07391967717E+01	1.43310662205E+01
1.04958328703E+06	-6.56025123798E+00	1.79710786005E+02	1.03519072887E+01	8.26213043903E+01	-5.11405743153E+01	-8.22260418879E+01	-2.93268876957E+01	2.68997932206E+00
1.09955550617E+06	-5.40910756295E+00	-1.76361302823E+02	1.05667692418E+01	8.18825419770E+01	-5.81053338041E+01	1.02980740187E+02	-3.04667566384E+01	6.06636254811E+00
1.14952772530E+06	-6.12444243538E+00	-1.71927960744E+02	1.10261876353E+01	8.02833952972E+01	-4.76380220840E+01	1.44388474099E+02	-3.04813407864E+01	3.93506237770E+00
1.19949994444E+06	-5.88084820301E+00	-1.77026111258E+02	1.13667362330E+01	8.07550212100E+01	-4.47320206887E+01	-7.07316361685E+01	-2.87135444013E+01	5.38686724262E+00
1.24947216357E+06	-5.78105334251E+00	1.75471180047E+02	1.17644732912E+01	8.17449807410E+01	-4.65446907888E+01	-6.85207692602E+01	-2.85517686696E+01	9.55307222701E+00
1.29944438271E+06	-5.25351001442E+00	-1.78381432575E+02	1.19921733727E+01	8.01344260649E+01	-5.43252113976E+01	-2.66318447773E+00	-2.96331776825E+01	9.95393943495E+00
1.34941660184E+06	-6.71102296055E+00	-1.77892956326E+02	1.24716055671E+01	7.97716411421E+01	-4.69383941977E+01	-3.19918452732E+01	-2.88419890273E+01	1.40519354745E+01
1.39938882098E+06	-6.60948366558E+00	1.79889753546E+02	1.28316281002E+01	7.95233098261E+01	-4.93338034116E+01	-9.18318574816E+00	-3.02957365863E+01	1.37475285479E+01
1.44936104012E+06	-5.46811257096E+00	-1.75099936240E+02	1.29989633506E+01	7.84007947522E+01	-4.14024233645E+01	-7.54460268723E+01	-2.84113398720E+01	8.58275029703E+00
1.49933325925E+06	-5.79557119138E+00	-1.75502625094E+02	1.33590398155E+01	7.79752308625E+01	-4.77512188015E+01	-6.48718842930E+01	-2.94814583555E+01	1.12063990621E+01
1.54930547839E+06	-6.39326219161E+00	-1.77468341765E+02	1.36614070596E+01	7.71716123801E+01	-4.54024523132E+01	-7.62598367395E+01	-2.86154087873E+01	1.04130966361E+01
1.59927769752E+06	-4.90815171705E+00	-1.76682642125E+02	1.36872356056E+01	7.72734421391E+01	-4.12264960793E+01	-1.22167324368E+01	-2.82659657022E+01	2.34640116898E+01
1.64924991666E+06	-6.15422645888E+00	1.78445782434E+02	1.41931664964E+01	7.72038249846E+01	-5.93715905667E+01	1.10311359496E+02	-3.06451172181E+01	9.35566065825E+00
1.69922213579E+06	-6.05552953695E+00	1.79332446920E+02	1.43919440988E+01	7.69518725294E+01	-4.54578720964E+01	-1.25856444313E+02	-2.94552489650E+01	3.04775739302E+00
1.74919435493E+06	-5.18260593863E+00	1.77864300092E+02	1.45589148600E+01	7.65531908131E+01	-4.89085731952E+01	-1.30357245542E+02	-2.96791231760E+01	8.67650841314E+00
1.79916657406E+06	-5.53395471800E+00	-1.73757951672E+02	1.48576620125E+01	7.51782920704E+01	-4.21481966419E+01	-1.80693784167E+01	-2.78856592974E+01	2.03969167912E+01
1.84913879320E+06	-6.49530324136E+00	1.77742224509E+02	1.52085220113E+01	7.62095227446E+01	-4.48321247789E+01	-7.36947582079E+01	-2.80085179178E+01	3.71680345042E+00
1.89911101233E+06	-7.97161007693E+00	1.74285271457E+02	1.57307013727E+01	7.57376591928E+01	-5.67102262958E+01	1.12671103957E+02	-3.07931334770E+01	1.85530554599E+01
1.94908323147E+06	-6.52126583984E+00	-1.75326878494E+02	1.56479697304E+01	7.42261995273E+01	-4.54137601038E+01	1.65918837476E+02	-3.13958551965E+01	1.93415714597E+00
1.99905545061E+06	-6.98755586375E+00	1.77000109484E+02	1.59444481360E+01	7.46802048156E+01	-5.34196023653E+01	1.00618107288E+02	-3.14431236873E+01	1.60669965670E+01
2.04902766974E+06	-5.58257657859E+00	-1.72553107074E+02	1.59390370571E+01	7.29059372222E+01	-4.33041152372E+01	1.22201774724E+02	-3.41870645390E+01	1.97336636831E+01
2.09899988888E+06	-5.80923806871E+00	-1.78646999458E+02	1.61979168297E+01	7.34401471926E+01	-4.06693419140E+01	7.69780242211E+01	-3.27521447814E+01	4.51509239607E+01
2.14897210801E+06	-5.23347995840E+00	-1.74885986699E+02	1.63204584902E+01	7.27077749101E+01	-4.43333739165E+01	-1.66672202918E+01	-2.82242471013E+01	2.04160975319E+01
2.19894432715E+06	-6.08626469401E+00	-1.74681277700E+02	1.66551853299E+01	7.18062166932E+01	-4.73300383271E+01	4.52054224001E+00	-2.90981128162E+01	2.59748419909E+01
2.24891654628E+06	-6.05731278361E+00	1.79104907810E+02	1.67866076269E+01	7.23936203017E+01	-4.94649986142E+01	-3.59837301649E+01	-2.88697172651E+01	2.25714641859E+01
2.29888876542E+06	-5.65335575757E+00	1.75462922405E+02	1.70023759853E+01	7.24282511121E+01	-4.78662075844E+01	-6.47950482853E+01	-2.85834334667E+01	1.37922898155E+01
2.34886098455E+06	-6.50298463629E+00	-1.77134622627E+02	1.72713283954E+01	7.10252530612E+01	-4.57550872377E+01	1.72646469157E+02	-3.14309773702E+01	3.80838466165E+00
2.39883320369E+06	-6.23723103131E+00	-1.78744089523E+02	1.74223041520E+01	7.08434659538E+01	-4.71228549614E+01	2.53161997402E+01	-2.90993921335E+01	2.74595004833E+01
2.44880542282E+06	-6.35911931112E+00	1.77981208676E+02	1.76199260060E+01	7.09321512643E+01	-4.33911298762E+01	1.69639585426E+02	-3.22379034324E+01	-4.95911052882E+00
2.49877764196E+06	-5.50258248155E+00	-1.79965748668E+02	1.76860839482E+01	7.02595149843E+01	-4.97752461261E+01	-1.60918588809E+01	-2.86764616486E+01	2.12494122097E+01
2.54874986110E+06	-7.36431303635E+00	-1.70972523861E+02	1.80648630766E+01	6.87463238264E+01	-4.16136256238E+01	-2.98374815504E+01	-2.57684571576E+01	2.37342584344E+01
2.59872208023E+06	-5.69043649224E+00	1.78058675634E+02	1.81102953011E+01	6.99427372520E+01	-4.24747167828E+01	1.38281408349E+02	-3.81640609595E+01	1.99761741007E+00
2.64869429937E+06	-5.91946784277E+00	1.78509487665E+02	1.82954946554E+01	6.92433586514E+01	-4.16875639012E+01	5.72928876755E+00	-2.66440342897E+01	3.53833748059E+01
2.69866651850E+06	-6.07073701233E+00	-1.73477270195E+02	1.84061487873E+01	6.78664429503E+01	-3.93780199645E+01	-1.28786891089E+02	-2.79494705008E+01	-1.20333817527E+01
2.74863873764E+06	-6.85895329386E+00	-1.78503288308E+02	1.86807655341E+01	6.79506670409E+01	-4.03207366205E+01	1.07737128442E+02	-3.44015635102E+01	5.82165579935E+01
2.79861095677E+06	-7.00575717622E+00	-1.76073626018E+02	1.88368631962E+01	6.73015384955E+01	-4.35328984476E+01	-7.12843927881E+01	-2.71307805058E+01	1.13511170464E+01
2.84858317591E+06	-5.54377738411E+00	-1.78157780393E+02	1.88236952330E+01	6.72392429461E+01	-4.55952478507E+01	4.81518691355E+01	-2.90586537030E+01	4.30142590687E+01
2.89855539504E+06	-5.98277921731E+00	-1.75556301008E+02	1.90240697491E+01	6.64970530726E+01	-4.97552563136E+01	-1.20642215708E+02	-3.00356949041E+01	6.68307029723E+00
2.94852761418E+06	-5.72452320563E+00	1.76432090047E+02	1.91774332011E+01	6.72924325829E+01	-4.33008013740E+01	3.66084587855E+01	-2.82006214824E+01	3.91683439508E+01
2.99849983331E+06	-5.84062469062E+00	1.78940305821E+02	1.92936059246E+01	6.63977408652E+01	-4.41955807685E+01	-2.33873071870E+01	-2.68198458546E+01	2.46723604546E+01
3.04847205245E+06	-5.75782763835E+00	-1.78753324341E+02	1.94501631199E+01	6.57530576176E+01	-5.15179211786E+01	-1.38173531734E+02	-3.01415413872E+01	1.01030783034E+01
3.09844427159E+06	-5.88740290170E+00	1.77582367868E+02	1.96203253547E+01	6.56550001077E+01	-4.64571595424E+01	1.22912998170E+02	-3.34183179573E+01	3.65030692419E+01
3.14841649072E+06	-7.47118774166E+00	-1.74622012316E+02	1.99237472637E+01	6.42734299813E+01	-5.76940731050E+01	1.65899451478E+02	-3.08082111457E+01	1.86269139327E+01
3.19838870986E+06	-5.64181867935E+00	-1.79866719018E+02	1.98409157219E+01	6.47174004093E+01	-4.91493087164E+01	8.55626647942E+01	-3.04795757290E+01	3.93445618543E+01
3.24836092899E+06	-6.03194983549E+00	-1.79874526505E+02	2.00716389412E+01	6.41191578344E+01	-4.60692740335E+01	-6.58139404121E+01	-2.76168544321E+01	1.54235546735E+01
3.29833314813E+06	-5.15505692001E+00	1.78730031253E+02	2.00709099571E+01	6.40362768040E+01	-5.35695395540E+01	4.54350634282E+01	-2.93741524904E+01	3.37365317944E+01
3.34830536726E+06	-5.99340149211E+00	-1.79778178493E+02	2.03147512052E+01	6.31476453667E+01	-5.30385566610E+01	1.08687891017E+02	-3.14606110467E+01	3.52370924249E+01
3.39827758640E+06	-6.45333545130E+00	-1.77308439144E+02	2.04942483134E+01	6.24711622740E+01	-4.78255892442E+01	-1.75915688151E+02	-3.29018713049E+01	1.25488933639E+01
3.44824980553E+06	-6.13547130810E+00	1.79975410164E+02	2.05814079572E+01	6.23164097945E+01	-4.56769214911E+01	-7.39360595195E+01	-2.75877373840E+01	1.22073534245E+01
3.49822202467E+06	-5.44732612924E+00	1.76121177582E+02	2.06570474563E+01	6.27786824648E+01	-5.24668188189E+01	1.17162992566E+02	-3.13914889763E+01	3.81673365938E+01
3.54819424380E+06	-5.40193392550E+00	-1.76917765654E+02	2.07442675183E+01	6.13170796515E+01	-4.67651374902E+01	1.99317745994E+01	-2.75844576397E+01	3.83891272693E+01
3.59816646294E+06	-5.38957133721E+00	1.79401402974E+02	2.08227108024E+01	6.14933773085E+01	-4.89880778538E+01	-8.81891734089E+01	-2.84328357566E+01	1.05833840534E+01
3.64813868208E+06	-6.00601389294E+00	1.77908812735E+02	2.10391660319E+01	6.12485281811E+01	-5.41784400806E+01	-1.49550686456E+02	-3.01218063631E+01	1.67948235129E+01
3.69811090121E+06	-5.74414265502E+00	-1.77877306934E+02	2.11984434798E+01	6.03162263577E+01	-4.33481034316E+01	-1.16106457269E+02	-2.86130284229E+01	-1.67590789742E+00
3.74808312035E+06	-5.88929390176E+00	1.77856165404E+02	2.12996815437E+01	6.02483289009E+01	-4.69401949310E+01	1.13304942753E+02	-3.14144848064E+01	4.58278660105E+01
3.79805533948E+06	-6.50840384845E+00	1.78979459606E+02	2.14832591021E+01	5.96898887149E+01	-4.25405649645E+01	1.32439170617E+02	-3.55618835429E+01	7.40613948663E+01
3.84802755862E+06	-6.44166285045E+00	-1.70649746654E+02	2.15591654124E+01	5.82393352758E+01	-4.39819086313E+01	-1.17281391956E+02	-2.94696563806E+01	4.54678519935E-01
3.89799977775E+06	-5.56748065538E+00	-1.76434236087E+02	2.15893922043E+01	5.84568851880E+01	-4.29582750289E+01	4.80041454697E+01	-2.66480942350E+01	5.41328546457E+01
3.94797199689E+06	-5.91913394805E+00	-1.79711561353E+02	2.17414234240E+01	5.84029081394E+01	-5.14471466641E+01	1.17053136633E+02	-3.07489569497E+01	3.48853348760E+01
3.99794421602E+06	-6.16040343134E+00	1.76198795330E+02	2.18903238469E+01	5.84642259251E+01	-5.12333272606E+01	-1.70106614991E+02	-3.31073793528E+01	2.56120938070E+01
4.04791643516E+06	-6.44368489848E+00	1.75056041361E+02	2.20427226509E+01	5.81091201703E+01	-5.40605037842E+01	-1.08844686666E+02	-2.99557938145E+01	1.99751697078E+01
4.09788865429E+06	-5.99664433021E+00	1.76737447848E+02	2.20590614032E+01	5.75361968864E+01	-4.41923210513E+01	-5.09254756673E+01	-2.63014714434E+01	1.65704650512E+01
4.14786087343E+06	-6.14975642709E+00	-1.77595460709E+02	2.22003292041E+01	5.65485844073E+01	-4.84751923233E+01	-1.30538058226E+02	-3.13176938132E+01	6.80061103467E+00
4.19783309257E+06	-5.60627647093E+00	-1.70223262210E+02	2.22227290386E+01	5.51436834911E+01	-4.25772109347E+01	1.78953551659E+02	-4.05206368471E+01	1.81426542659E+00
4.24780531170E+06	-6.18879481383E+00	1.79978055144E+02	2.24137261379E+01	5.60303470331E+01	-4.50457621264E+01	-3.16078880770E+01	-2.58079913367E+01	2.24816363948E+01
4.29777753084E+06	-5.52371796255E+00	1.78980494541E+02	2.24977829761E+01	5.58716091167E+01	-5.10549684568E+01	-2.64780843650E+01	-2.76908709023E+01	2.67911447196E+01
4.34774974997E+06	-6.95585132640E+00	-1.78448688898E+02	2.27022817796E+01	5.46926403618E+01	-4.01480528615E+01	-2.23105460822E+01	-2.36131009274E+01	2.20001344542E+01
4.39772196911E+06	-6.32941331037E+00	-1.79796990555E+02	2.27318988555E+01	5.47390224868E+01	-5.64319923436E+01	1.12261198959E+02	-3.01687552617E+01	4.33605918912E+01
4.44769418824E+06	-6.76438429191E+00	-1.79008632389E+02	2.28902229462E+01	5.40005828676E+01	-5.10958522601E+01	-4.39513178236E+01	-2.74684014258E+01	2.56352945367E+01
4.49766640738E+06	-5.48330064024E+00	1.79953263537E+02	2.28405024921E+01	5.40629028053E+01	-4.94457510046E+01	-1.46212758322E+02	-3.13085208798E+01	1.82269922385E+01
4.54763862651E+06	-6.40933197074E+00	1.76058031820E+02	2.30518040959E+01	5.39662072576E+01	-5.00681126364E+01	1.56754858030E+02	-3.19506982482E+01	4.36440472810E+01
4.59761084565E+06	-5.56060295244E+00	-1.78501504193E+02	2.30390297537E+01	5.30118417686E+01	-5.42681925137E+01	2.49054735763E+01	-2.77921174218E+01	3.98039771855E+01
4.64758306478E+06	-6.17132856424E+00	-1.77144058741E+02	2.32059108593E+01	5.23794539271E+01	-6.09759069867E+01	1.32706602064E+01	-2.85880874550E+01	3.58864107143E+01
4.69755528392E+06	-5.96880678622E+00	1.78177629667E+02	2.32880060771E+01	5.26114237556E+01	-4.96124858437E+01	-1.21997608146E+02	-3.03954590932E+01	1.06051154184E+01
4.74752750306E+06	-6.69501193064E+00	1.69794406798E+02	2.35207403369E+01	5.28291099272E+01	-6.00337296826E+01	-9.98302319615E+00	-2.86122616957E+01	3.16251902271E+01
4.79749972219E+06	-5.85174332833E+00	-1.79728869258E+02	2.34720997706E+01	5.16167153823E+01	-4.76291695687E+01	-1.50254270955E+01	-2.62827622086E+01	3.10563465126E+01
4.84747194133E+06	-5.00920639376E+00	-1.75392838922E+02	2.34381360123E+01	5.06929404460E+01	-4.08184556752E+01	-1.40439726952E+02	-3.20764293283E+01	-2.38079900064E+01
4.89744416046E+06	-6.37423271708E+00	-1.78963883983E+02	2.37074730588E+01	5.04359314998E+01	-4.61642843313E+01	1.51700665947E+02	-3.36450088505E+01	5.88834451657E+01
4.94741637960E+06	-6.13089384049E+00	-1.78924046556E+02	2.37777865991E+01	5.00875444720E+01	-5.37715205711E+01	5.11843983987E+01	-2.79164645853E+01	4.40164805688E+01
4.99738859873E+06	-6.74605604455E+00	-1.79823540733E+02	2.38918985883E+01	4.96337501111E+01	-4.49565594378E+01	9.41828863048E+01	-2.75033317820E+01	6.97877157271E+01
5.04736081787E+06	-5.61894335373E+00	1.79639669630E+02	2.38694934369E+01	4.94407201487E+01	-4.94310545589E+01	1.69452048741E+02	-3.10612372587E+01	5.35855142508E+01
5.09733303700E+06	-5.41813159539E+00	-1.78990163715E+02	2.39337044892E+01	4.91730435184E+01	-4.77644066699E+01	-8.47605156535E+01	-2.79188306718E+01	1.49238539344E+01
5.14730525614E+06	-6.48538684290E+00	-1.72370534321E+02	2.41113203894E+01	4.76189717940E+01	-5.28086140490E+01	7.12760892361E+00	-2.74476488013E+01	3.91113009071E+01
5.19727747528E+06	-6.01447346171E+00	-1.77145901631E+02	2.41597736570E+01	4.77462010757E+01	-4.50412499811E+01	1.13751486796E+02	-2.82585450045E+01	7.59691490539E+01
5.24724969441E+06	-6.45671231606E+00	1.79607592343E+02	2.43281180387E+01	4.78074597568E+01	-4.78352171303E+01	5.53661338409E+01	-2.58469533711E+01	5.45222225811E+01
5.29722191355E+06	-6.07650977065E+00	1.78347909517E+02	2.43438844120E+01	4.74003634434E+01	-4.72450234004E+01	9.91072121804E+01	-2.76615493882E+01	6.58442190966E+01
5.34719413268E+06	-6.05635236156E+00	-1.78394593305E+02	2.44089596541E+01	4.68274915719E+01	-5.00296046206E+01	-1.99869908421E+01	-2.59252519678E+01	3.37826207287E+01
5.39716635182E+06	-6.15385593241E+00	-1.75489136021E+02	2.44816783620E+01	4.59860600509E+01	-6.02975784042E+01	-1.19075932248E+02	-2.86026213038E+01	4.08417615451E+01
5.44713857095E+06	-5.39435642964E+00	1.73911748323E+02	2.45722612514E+01	4.69500667416E+01	-4.84586360033E+01	1.76816351733E+02	-3.28715971484E+01	5.74808740815E+01
5.49711079009E+06	-5.80811809506E+00	-1.75051550967E+02	2.46331658693E+01	4.52609922098E+01	-4.83701470744E+01	-5.23450216433E+01	-2.65122811163E+01	2.55058253143E+01
5.54708300922E+06	-5.58460895113E+00	1.73340327134E+02	2.47412653670E+01	4.59867410509E+01	-4.79293126935E+01	6.73801508905E+01	-2.60020638545E+01	5.45958525939E+01
5.59705522836E+06	-5.73679798721E+00	-1.77074732265E+02	2.47830054265E+01	4.45926793482E+01	-5.41730787527E+01	1.53357565589E+02	-2.93842573814E+01	4.94002320631E+01
5.64702744749E+06	-6.61155806660E+00	-1.77290866943E+02	2.49574560659E+01	4.40155771634E+01	-4.39070673373E+01	-1.27884806462E+02	-3.20506542387E+01	3.40136813883E+00
5.69699966663E+06	-5.72517309231E+00	1.77694688352E+02	2.49658439909E+01	4.43038783194E+01	-4.60622008140E+01	1.22197975652E+02	-2.86457207533E+01	7.49628929261E+01
5.74697188577E+06	-6.87471183009E+00	-1.76870417538E+02	2.51399639248E+01	4.31148009644E+01	-4.95526367613E+01	3.43701019569E+01	-2.53572045825E+01	4.67118404837E+01
5.79694410490E+06	-6.04284761588E+00	-1.77205208464E+02	2.51147067852E+01	4.29187254733E+01	-4.55385663723E+01	3.99258502282E+01	-2.41641137247E+01	5.13957573000E+01
5.84691632404E+06	-6.24036438468E+00	-1.75431091463E+02	2.52174312857E+01	4.21795402808E+01	-4.13429262904E+01	-1.77781228319E+01	-2.27576126381E+01	2.44672347160E+01
5.89688854317E+06	-5.87145819851E+00	-1.72614802729E+02	2.52586942446E+01	4.14297927177E+01	-7.00145872787E+01	-1.19398447367E+02	-2.80393711529E+01	4.04580239637E+01
5.94686076231E+06	-6.26802419963E+00	-1.78952641758E+02	2.53722084023E+01	4.17036504911E+01	-4.46983202596E+01	1.66221334028E+02	-3.27391678431E+01	8.18879257782E+01
5.99683298144E+06	-6.00676958531E+00	1.77661867722E+02	2.54445508070E+01	4.17600191931E+01	-4.42692680117E+01	-1.30396451888E+02	-3.35689083984E+01	7.35870161791E-01
6.04680520058E+06	-7.73709801767E+00	1.76124832132E+02	2.57225182081E+01	4.10050738868E+01	-4.58899197737E+01	-2.95972290410E+01	-2.49090691792E+01	2.50846179008E+01
6.09677741971E+06	-5.93719890710E+00	-1.79525083688E+02	2.55588776059E+01	4.04741295050E+01	-5.61435794851E+01	1.70420540766E+02	-2.99394915908E+01	6.09006708704E+01
6.14674963885E+06	-6.22252295459E+00	-1.76221218732E+02	2.56317533615E+01	3.98175947754E+01	-4.79744841891E+01	1.00696090279E+02	-2.62646697401E+01	7.02436836654E+01
