# Hz S DB R 50
! CMT, M5065, 19127446, 24.2.4/2
! Date: 12/3/2024 4:27:11 PM
! Data: Format (Calibration Info)
! Freq	S11:dB/Ang(F2)	S21:dB/Ang(F2)	S12:dB/Ang(F2)	S22:dB/Ang(F2)
3.00000000000E+05	-5.42633650617E+00	-1.79205286309E+02	-3.12827185735E+00	9.05783234100E+01	-5.30694070703E+01	1.67696817165E+02	-3.02845354122E+01	-1.37086134940E+00
3.49972219135E+05	-6.37020931223E+00	-1.79378425986E+02	-1.54653779574E+00	8.89774561693E+01	-4.26833565218E+01	8.64109720308E+01	-3.08028546048E+01	2.91321846119E+00
3.99944438271E+05	-5.51021675830E+00	-1.78544357274E+02	-5.91147942293E-01	8.86966620976E+01	-4.43592911792E+01	1.39435246669E+02	-3.04596618093E+01	-4.79158659240E-01
4.49916657406E+05	-5.60448875283E+00	1.77011114406E+02	5.44234721329E-01	8.95458755150E+01	-4.12228052755E+01	3.31988191404E+01	-3.00605628424E+01	5.20895908111E+00
4.99888876542E+05	-5.49743108773E+00	-1.78439567204E+02	1.49612956934E+00	8.87735981068E+01	-3.94238707253E+01	-1.56614771256E+02	-2.99366504444E+01	-1.13860339385E-01
5.49861095677E+05	-6.11981042758E+00	-1.77875199966E+02	2.44556514199E+00	8.78502063858E+01	-4.52263411601E+01	1.58871004579E+02	-3.04457999369E+01	-9.19279643286E-02
5.99833314813E+05	-6.15561779750E+00	-1.77087085626E+02	3.08534307222E+00	8.66986533473E+01	-5.01993149988E+01	3.44051118360E+01	-2.96466304644E+01	5.57309428246E+00
6.49805533948E+05	-5.66478920896E+00	1.76591496268E+02	3.86787935312E+00	8.69328149220E+01	-4.88426697744E+01	-1.46598706098E+02	-2.96752740993E+01	-4.83996532691E-01
6.99777753084E+05	-5.72857808516E+00	-1.78418979854E+02	4.33732074097E+00	8.56710752924E+01	-4.57185700549E+01	1.01607438335E+02	-3.11012706982E+01	6.28326870972E+00
7.49749972219E+05	-5.68382731341E+00	-1.75925248548E+02	4.94336706736E+00	8.49759493824E+01	-4.74569032039E+01	-1.66772382423E+02	-2.98884391725E+01	-8.73135747075E-02
7.99722191355E+05	-5.91037897465E+00	-1.74584990431E+02	5.56455861316E+00	8.39135487787E+01	-4.66236943772E+01	-4.81694890161E+01	-2.93160618261E+01	5.89000542531E+00
8.49694410490E+05	-6.58420963315E+00	1.79079637049E+02	6.18223725072E+00	8.52069847674E+01	-4.45279763726E+01	-4.76976860668E+00	-2.95173148023E+01	7.46460039427E+00
8.99666629626E+05	-7.62570510290E+00	-1.71083894566E+02	6.84043242939E+00	8.35329654641E+01	-4.82691833206E+01	6.02658755887E+01	-3.06850290582E+01	9.58765921457E+00
9.49638848761E+05	-5.03163250513E+00	-1.76244715776E+02	6.96441524680E+00	8.32092326264E+01	-4.36361179754E+01	-1.37913698646E+02	-2.97891947891E+01	-3.15052726849E-01
9.99611067896E+05	-6.80704078203E+00	-1.77955497951E+02	7.65142724717E+00	8.30436907059E+01	-4.87475895913E+01	1.13800983296E+02	-3.07733469097E+01	4.22088950024E+00
1.04958328703E+06	-7.03605136775E+00	-1.77132511440E+02	8.03727866619E+00	8.24924935249E+01	-4.52124490287E+01	3.88088059319E+01	-3.05826243839E+01	1.30216322604E+01
1.09955550617E+06	-5.04835270535E+00	1.77468342019E+02	8.25935326201E+00	8.27909541982E+01	-4.36412750489E+01	-1.35488251546E+02	-2.88844349022E+01	1.29577195042E+00
1.14952772530E+06	-5.93078926124E+00	-1.76475512519E+02	8.75336975970E+00	8.13349412567E+01	-4.12451567002E+01	-8.98676451344E+01	-2.86291244412E+01	3.32444925394E+00
1.19949994444E+06	-6.89281650807E+00	1.75087979048E+02	9.24576693349E+00	8.19028284187E+01	-5.27665716566E+01	1.93787573906E+01	-3.02866376734E+01	9.29392267111E+00
1.24947216357E+06	-6.09317564771E+00	1.71705882066E+02	9.56561601051E+00	8.21079401080E+01	-4.92166404813E+01	1.00705007800E+02	-3.09478987960E+01	8.29053740816E+00
1.29944438271E+06	-6.06919844551E+00	-1.78788899953E+02	9.80662955970E+00	8.05888209910E+01	-4.98212487171E+01	7.58860128275E+01	-3.13699845629E+01	1.00622723680E+01
1.34941660184E+06	-5.84142595213E+00	-1.73477108106E+02	1.01256114616E+01	7.88476522443E+01	-5.50766214665E+01	1.36194612698E+02	-3.01873711072E+01	8.89541022824E+00
1.39938882098E+06	-4.95773724279E+00	1.71905997897E+02	1.03664613696E+01	8.10324039141E+01	-5.06077536507E+01	-1.44337445492E+02	-2.98736562800E+01	6.22238524143E+00
1.44936104012E+06	-6.05281744747E+00	1.72125205320E+02	1.07693752879E+01	8.02671014329E+01	-5.34601204088E+01	1.33731664991E+02	-3.04207562359E+01	9.15167726590E+00
1.49933325925E+06	-5.72610243121E+00	1.73159794808E+02	1.10317486098E+01	8.00917537235E+01	-4.69851015978E+01	6.07183051908E+01	-3.08045746291E+01	1.64781444230E+01
1.54930547839E+06	-6.19861251810E+00	-1.78437469269E+02	1.13645558499E+01	7.82151457522E+01	-4.06406599264E+01	7.96442421531E+01	-3.19947263741E+01	2.64004171087E+01
1.59927769752E+06	-5.14557408465E+00	-1.77727480920E+02	1.15055009145E+01	7.82166616536E+01	-4.19530659026E+01	7.16602887760E+01	-3.20773476549E+01	2.09192761329E+01
1.64924991666E+06	-6.69605425174E+00	-1.74791297683E+02	1.19045309676E+01	7.67652199686E+01	-3.99512275671E+01	1.87298502483E+01	-2.88028038074E+01	2.64627525387E+01
1.69922213579E+06	-6.38286170320E+00	-1.74716401585E+02	1.21999401493E+01	7.65239635715E+01	-4.73835855486E+01	8.82657463529E+01	-3.11358064320E+01	1.69438066751E+01
1.74919435493E+06	-5.63479864307E+00	-1.78337604929E+02	1.23736208697E+01	7.69037475834E+01	-4.68770797976E+01	6.90727583810E+01	-3.08636722614E+01	2.29237040588E+01
1.79916657406E+06	-5.55448880874E+00	1.79991478163E+02	1.25976525012E+01	7.69637344578E+01	-4.53401645531E+01	1.29181455382E+01	-2.90058002731E+01	2.40894890946E+01
1.84913879320E+06	-4.68999074096E+00	1.74422147527E+02	1.27184701873E+01	7.74567497323E+01	-4.46764152346E+01	-9.28235869121E+01	-2.88057440329E+01	9.42663450889E+00
1.89911101233E+06	-5.42709231275E+00	-1.79874945886E+02	1.30420080128E+01	7.61348343979E+01	-4.10169447310E+01	1.99727260012E+01	-2.85770117487E+01	3.07308528150E+01
1.94908323147E+06	-5.88937230572E+00	1.79274746207E+02	1.33487985812E+01	7.55499380637E+01	-4.72724241786E+01	1.77371398122E+02	-3.13035852211E+01	6.81278695990E+00
1.99905545061E+06	-6.61825977307E+00	-1.75487159621E+02	1.36695155111E+01	7.46797270945E+01	-4.79552334485E+01	-4.40823568643E+01	-2.86830403101E+01	1.52521430752E+01
2.04902766974E+06	-6.49236928833E+00	1.78202889021E+02	1.37413643314E+01	7.46432094726E+01	-5.34144522415E+01	1.02815742067E+02	-3.07271571344E+01	1.40407117176E+01
2.09899988888E+06	-5.07847817103E+00	-1.75345527629E+02	1.38679185370E+01	7.37297855153E+01	-6.66299044025E+01	2.43148453399E+01	-2.94387499845E+01	1.42388409460E+01
2.14897210801E+06	-6.44434781934E+00	1.75074292131E+02	1.42657649449E+01	7.45101799482E+01	-4.65958441570E+01	-1.47400047956E+02	-2.97125487900E+01	3.95891331910E+00
2.19894432715E+06	-5.68818592456E+00	-1.76696295093E+02	1.43685223131E+01	7.33319131313E+01	-5.19375287369E+01	1.49805474286E+02	-3.15563010589E+01	1.38035252894E+01
2.24891654628E+06	-5.18092100534E+00	-1.78213531535E+02	1.44493128862E+01	7.31886939797E+01	-5.03212521293E+01	5.11635290075E+01	-2.98545303435E+01	2.51408704049E+01
2.29888876542E+06	-6.09657724571E+00	1.77706371553E+02	1.48018061968E+01	7.29893670872E+01	-4.81922778930E+01	-5.42057533910E+01	-2.71043724569E+01	2.66494365427E+01
2.34886098455E+06	-5.20118165598E+00	-1.77645407543E+02	1.48209730204E+01	7.20129290329E+01	-6.16535415031E+01	4.45919353034E+01	-2.96636137031E+01	1.95982355354E+01
2.39883320369E+06	-5.77344865508E+00	1.70072860698E+02	1.51948154069E+01	7.39816247602E+01	-4.43580670040E+01	4.93694078567E+01	-2.96835758360E+01	3.36632560147E+01
2.44880542282E+06	-7.34774719331E+00	-1.74848543702E+02	1.54696287402E+01	7.09452278930E+01	-4.64878288109E+01	-9.00181778413E+01	-2.86682970364E+01	9.99009039800E+00
2.49877764196E+06	-6.30264457923E+00	-1.78674815904E+02	1.55268639878E+01	7.09295064045E+01	-5.03610123695E+01	-1.42607763482E+01	-2.89034409974E+01	2.43684796495E+01
2.54874986110E+06	-5.91007411077E+00	1.74844453117E+02	1.56603895175E+01	7.13833660487E+01	-5.52343419572E+01	1.26855187260E+02	-3.07681547535E+01	1.70209176518E+01
2.59872208023E+06	-6.41293465437E+00	1.75944888335E+02	1.59033811999E+01	7.07976043541E+01	-4.48989435782E+01	1.07318732162E+02	-3.28503351864E+01	3.15860218907E+01
2.64869429937E+06	-7.01970230223E+00	1.74725368862E+02	1.61179179304E+01	7.03983085416E+01	-5.09926322240E+01	-7.72805210246E+01	-2.85892494179E+01	1.64935591667E+01
2.69866651850E+06	-4.94805853712E+00	1.71291537644E+02	1.61090682823E+01	7.12150141591E+01	-4.06445399142E+01	-1.18408035838E+02	-2.86402553501E+01	-6.51556541862E+00
2.74863873764E+06	-5.48344155040E+00	1.75342776107E+02	1.62842315352E+01	7.01569695360E+01	-4.26073441234E+01	1.80044031552E+01	-2.79479453774E+01	3.30707551635E+01
2.79861095677E+06	-5.67085359925E+00	1.79389660213E+02	1.64573990316E+01	6.90722603727E+01	-4.03841297414E+01	-5.76013020633E+00	-2.68842116096E+01	3.13228320431E+01
2.84858317591E+06	-5.65102366264E+00	1.79701452012E+02	1.65739996743E+01	6.87867939819E+01	-5.70053586908E+01	1.14228716995E+02	-3.07316264275E+01	2.20896363550E+01
2.89855539504E+06	-6.83208962569E+00	-1.76877178826E+02	1.68868783937E+01	6.77004212165E+01	-5.24352454670E+01	-1.34166084347E+02	-3.00280928416E+01	1.07514167290E+01
2.94852761418E+06	-6.22635123027E+00	1.73000999315E+02	1.70314373527E+01	6.84167950335E+01	-4.02522634426E+01	-7.20888329987E+01	-2.68945877596E+01	7.51122909925E+00
2.99849983331E+06	-6.33209373465E+00	-1.77804107677E+02	1.71417680199E+01	6.69832559928E+01	-4.10571079989E+01	-2.69685472831E+01	-2.59829923222E+01	2.26318878571E+01
3.04847205245E+06	-6.31864162978E+00	1.79768831313E+02	1.72864862243E+01	6.71266323677E+01	-5.36947634852E+01	7.07857730242E+01	-3.04691044143E+01	2.80292630915E+01
3.09844427159E+06	-5.77601270309E+00	-1.79836797731E+02	1.73704114120E+01	6.66015756779E+01	-4.22783688650E+01	1.31124108573E+02	-3.45397622301E+01	2.74003619790E+01
3.14841649072E+06	-5.41542322969E+00	1.77344282402E+02	1.74757168054E+01	6.66361597547E+01	-5.36611190607E+01	-1.00755155547E+02	-2.94169661985E+01	1.61157618835E+01
3.19838870986E+06	-5.69307032622E+00	-1.79728420041E+02	1.76240729839E+01	6.59248265700E+01	-4.52040424742E+01	2.36356215227E+01	-2.80444312037E+01	3.83481401073E+01
3.24836092899E+06	-5.91923442914E+00	-1.78933451662E+02	1.77677147395E+01	6.54719036033E+01	-5.55393722313E+01	8.64088970825E+01	-3.04229569482E+01	3.07818102187E+01
3.29833314813E+06	-5.72343778936E+00	-1.74460578675E+02	1.78608914472E+01	6.44361954884E+01	-4.37243572041E+01	1.53827388013E+02	-3.45976645417E+01	3.11158764931E+01
3.34830536726E+06	-6.15203106344E+00	1.79103404871E+02	1.80865074431E+01	6.46756035721E+01	-4.66527510678E+01	-6.27520365736E+01	-2.76260910416E+01	1.67587245188E+01
3.39827758640E+06	-6.70704214948E+00	-1.78464163370E+02	1.82344624410E+01	6.39672155137E+01	-4.57704546390E+01	9.22871701431E+01	-3.08516409055E+01	4.02300999129E+01
3.44824980553E+06	-6.94203663162E+00	1.75036907360E+02	1.84384339405E+01	6.40337045591E+01	-5.09799829028E+01	7.52017498718E+01	-3.01605406945E+01	3.24881490526E+01
3.49822202467E+06	-6.19295285984E+00	-1.69656238380E+02	1.84534118622E+01	6.21398509615E+01	-4.49867442146E+01	1.48586272322E+02	-3.33940612194E+01	2.90302303851E+01
3.54819424380E+06	-6.11275631253E+00	1.77444953762E+02	1.86053851175E+01	6.34204819884E+01	-5.40486028034E+01	-1.12387411970E+02	-3.02092104374E+01	1.50457398233E+01
3.59816646294E+06	-5.76220851917E+00	1.76410561396E+02	1.86880367633E+01	6.32349863679E+01	-5.07165653088E+01	-7.32930113817E+01	-2.83229588705E+01	1.80399420541E+01
3.64813868208E+06	-5.50466177856E+00	1.77376530342E+02	1.87593642649E+01	6.26578269519E+01	-4.14688584309E+01	1.36261617646E+02	-3.59825145280E+01	4.20530432828E+01
3.69811090121E+06	-6.47983365070E+00	-1.78557081159E+02	1.89835234471E+01	6.15422784918E+01	-4.37191109420E+01	1.50725399017E+02	-3.45926945592E+01	3.76860224569E+01
3.74808312035E+06	-5.46124945321E+00	1.75584680197E+02	1.90164633801E+01	6.22884135361E+01	-5.34935923092E+01	9.43369829545E+00	-2.85428142551E+01	3.23428237945E+01
3.79805533948E+06	-5.66953025474E+00	1.79039326871E+02	1.91183268767E+01	6.13358965139E+01	-4.76932618891E+01	-6.66506962412E+01	-2.79237017664E+01	1.86355374320E+01
3.84802755862E+06	-5.72063212501E+00	1.77813251580E+02	1.92452298075E+01	6.12049292975E+01	-4.09649357131E+01	-6.37712165834E+01	-2.61395958332E+01	1.14884691098E+01
3.89799977775E+06	-6.01467035705E+00	1.77398969324E+02	1.93988323310E+01	6.06754355174E+01	-4.71138637310E+01	5.99000240555E+01	-2.93063100651E+01	4.84856312968E+01
3.94797199689E+06	-5.70972564692E+00	-1.79141435787E+02	1.94743336108E+01	5.98933205423E+01	-4.54604232406E+01	-1.77091030561E+02	-3.36752000954E+01	1.95174383793E+01
3.99794421602E+06	-5.81714769384E+00	-1.78100440509E+02	1.95913998844E+01	5.94920000207E+01	-5.71359395453E+01	-5.28925030074E+00	-2.88958008489E+01	3.25656842224E+01
4.04791643516E+06	-5.35462631776E+00	1.76454577212E+02	1.96619884731E+01	5.99849076322E+01	-5.17570119089E+01	1.54801664317E+02	-3.08273064925E+01	3.33862955093E+01
4.09788865429E+06	-6.56032456929E+00	-1.73163597618E+02	1.98964044263E+01	5.78993366292E+01	-4.14347400839E+01	-1.12962212596E+02	-2.81391936145E+01	-4.09657125488E+00
4.14786087343E+06	-5.38496004163E+00	-1.78604041792E+02	1.98535792285E+01	5.83984829980E+01	-4.33316914861E+01	6.41513274938E+01	-2.81189210561E+01	5.41530132490E+01
4.19783309257E+06	-5.94984531067E+00	1.77562412274E+02	2.00593233716E+01	5.85038390000E+01	-4.67969069843E+01	-1.50972328252E+01	-2.67517256739E+01	3.10617589879E+01
4.24780531170E+06	-6.46863636156E+00	1.73753349878E+02	2.02199453915E+01	5.82404087915E+01	-5.49738809212E+01	2.94793446263E+01	-2.86206921512E+01	3.55197636732E+01
4.29777753084E+06	-5.57185751359E+00	1.76174873407E+02	2.02313240460E+01	5.79275639570E+01	-5.33799870103E+01	-1.76696167795E+02	-3.07695203718E+01	3.15477704692E+01
4.34774974997E+06	-4.92190919551E+00	-1.76430965688E+02	2.01957416108E+01	5.67674435357E+01	-4.55369156672E+01	-7.41086992686E+01	-2.73120233972E+01	1.83452344030E+01
4.39772196911E+06	-5.45451162588E+00	-1.79788773910E+02	2.04114689482E+01	5.66049403072E+01	-4.75826290771E+01	6.00987250944E+01	-2.77194321666E+01	4.52928036839E+01
4.44769418824E+06	-6.42734765830E+00	-1.78710454817E+02	2.05860009990E+01	5.58510665802E+01	-4.59445211181E+01	4.47283946731E+00	-2.62685854791E+01	3.53223593366E+01
4.49766640738E+06	-6.82029865254E+00	-1.77164837547E+02	2.07285345682E+01	5.54575290845E+01	-5.41262997045E+01	1.68691534458E+02	-3.06683906510E+01	3.36859661097E+01
4.54763862651E+06	-6.15430439477E+00	-1.79619682663E+02	2.07821288093E+01	5.53308300830E+01	-4.53034415609E+01	-2.65036561163E+01	-2.64280190602E+01	2.81834810273E+01
4.59761084565E+06	-6.43460489701E+00	-1.77378839286E+02	2.08738363467E+01	5.46826677301E+01	-4.81197920516E+01	-8.94516485421E+01	-2.80319393241E+01	1.82596695705E+01
4.64758306478E+06	-5.73714005140E+00	-1.75303525303E+02	2.09201470073E+01	5.41113809395E+01	-4.45202774103E+01	-5.98362448621E+01	-2.69375424267E+01	1.56563595580E+01
4.69755528392E+06	-5.50316417284E+00	1.71313688817E+02	2.10319561611E+01	5.54553995673E+01	-4.75948039840E+01	1.13860716725E+02	-2.90065114468E+01	5.94290476546E+01
4.74752750306E+06	-6.83165963994E+00	-1.76605276338E+02	2.12325389980E+01	5.32780830888E+01	-5.09528616209E+01	3.71581389024E+01	-2.74088629498E+01	3.60529262131E+01
4.79749972219E+06	-5.12584355423E+00	-1.73093096197E+02	2.10898645831E+01	5.27635814368E+01	-4.13240809907E+01	-6.20238272858E+01	-2.62135493399E+01	1.10296676036E+01
4.84747194133E+06	-5.97192594935E+00	-1.79581564744E+02	2.13518280492E+01	5.26589626122E+01	-4.06756183461E+01	9.15938590904E+01	-2.75533540453E+01	7.45951447325E+01
4.89744416046E+06	-6.94096621468E+00	1.76849924008E+02	2.15387961401E+01	5.27348939359E+01	-5.43035570407E+01	-2.32547870607E+01	-2.78954524978E+01	3.48657381095E+01
4.94741637960E+06	-6.51211467176E+00	1.78101107356E+02	2.15767026524E+01	5.25255910414E+01	-5.55512110820E+01	6.42470870043E+01	-2.80201873190E+01	4.35644331025E+01
4.99738859873E+06	-5.55428473198E+00	-1.77078879299E+02	2.15175304897E+01	5.15655609632E+01	-5.49821755705E+01	-7.48011270838E+01	-2.85488138476E+01	2.67713188170E+01
5.04736081787E+06	-6.14588763606E+00	-1.78477792245E+02	2.16903791025E+01	5.12345673457E+01	-6.39213034029E+01	-1.76463794997E+02	-2.89867553586E+01	3.76442806181E+01
5.09733303700E+06	-5.77867340956E+00	-1.79495306557E+02	2.17370750526E+01	5.09518191723E+01	-5.55488594808E+01	-8.87472596139E+01	-2.86673031892E+01	3.22865862191E+01
5.14730525614E+06	-5.69513676864E+00	1.78433070290E+02	2.18052763429E+01	5.08623353212E+01	-4.93660109980E+01	1.15970815862E+02	-2.94333937835E+01	5.57817562694E+01
5.19727747528E+06	-5.90591369661E+00	-1.79666202754E+02	2.19623947710E+01	5.00006992220E+01	-5.00222328690E+01	7.54484119828E+01	-2.78506490143E+01	4.91999765245E+01
5.24724969441E+06	-5.87929558272E+00	-1.77215602913E+02	2.19838398455E+01	4.93741694200E+01	-4.31909051094E+01	2.69551207144E+01	-2.49352510277E+01	4.63644278526E+01
5.29722191355E+06	-5.52312616023E+00	-1.76613576924E+02	2.20106541686E+01	4.91568068023E+01	-4.82029838588E+01	1.72785965608E+02	-3.15273420849E+01	4.64267619891E+01
5.34719413268E+06	-6.83706107536E+00	-1.75713828237E+02	2.22730887448E+01	4.83977160751E+01	-5.20807386139E+01	-1.32949872788E+02	-3.12367671503E+01	2.74033229674E+01
5.39716635182E+06	-6.96338883863E+00	-1.78223942611E+02	2.23633383562E+01	4.83025728758E+01	-4.81257932950E+01	-8.46028476627E+01	-2.79389220080E+01	2.28438202337E+01
5.44713857095E+06	-5.79970124580E+00	1.76474956955E+02	2.23708202221E+01	4.87989388276E+01	-4.39439772809E+01	1.64667069356E+02	-3.29541300992E+01	6.31431543235E+01
5.49711079009E+06	-6.56066740282E+00	1.73634689136E+02	2.25300126899E+01	4.83882897299E+01	-4.68216342420E+01	-7.02908463671E+01	-2.71369531121E+01	1.81615264011E+01
5.54708300922E+06	-7.36654066372E+00	1.73737361611E+02	2.27019067512E+01	4.77049999160E+01	-5.05705432775E+01	-9.08543953584E+01	-2.84503471833E+01	2.68217656015E+01
5.59705522836E+06	-5.57701715119E+00	1.77506697446E+02	2.25438712916E+01	4.73729721911E+01	-5.02610783959E+01	1.47395145585E+02	-2.95605102770E+01	5.46642650247E+01
5.64702744749E+06	-5.77120766585E+00	1.77097056668E+02	2.26888497193E+01	4.69659870172E+01	-5.19978182658E+01	9.52838591777E+01	-2.80346557460E+01	5.57605935166E+01
5.69699966663E+06	-6.67549175727E+00	-1.78613431069E+02	2.28326203277E+01	4.58051195437E+01	-4.46206116925E+01	1.06481239714E+02	-2.71233542209E+01	6.82320645451E+01
5.74697188577E+06	-6.13417398088E+00	1.79638250716E+02	2.28313767359E+01	4.58110553345E+01	-4.25647884372E+01	-6.61390204971E+01	-2.62348054856E+01	1.17005035048E+01
5.79694410490E+06	-5.70122557587E+00	1.78863611236E+02	2.28755972614E+01	4.56000696221E+01	-5.51043395189E+01	-1.79327485175E+01	-2.76158867877E+01	3.81927965292E+01
5.84691632404E+06	-5.52932843666E+00	1.74705017320E+02	2.29710860637E+01	4.58798008552E+01	-4.41876919028E+01	-1.36821761752E+02	-3.20824006246E+01	1.88662713182E+01
5.89688854317E+06	-6.39331438772E+00	1.78977957129E+02	2.31216566537E+01	4.46099446198E+01	-5.37058481955E+01	7.89355537628E+01	-2.68719855007E+01	5.03569378053E+01
5.94686076231E+06	-5.90136535194E+00	-1.79394860215E+02	2.30952332692E+01	4.41860070681E+01	-4.51374205477E+01	-1.15467722662E+02	-3.07876742266E+01	1.24913692656E+01
5.99683298144E+06	-6.33824900927E+00	-1.76348273569E+02	2.32281465640E+01	4.34696531646E+01	-4.72988945885E+01	6.31035328384E+01	-2.57669863311E+01	5.53251521580E+01
6.04680520058E+06	-6.34205610317E+00	1.76742038153E+02	2.33397396283E+01	4.37638159954E+01	-4.59988300591E+01	1.23947534601E+02	-2.80460148315E+01	6.96563060855E+01
6.09677741971E+06	-5.52170469530E+00	-1.75878394987E+02	2.32446038427E+01	4.26635741307E+01	-4.29670800158E+01	-2.82425125881E+01	-2.44928566209E+01	2.83408084482E+01
6.14674963885E+06	-6.06615831864E+00	-1.76995196132E+02	2.34146635860E+01	4.22918675530E+01	-4.63768082620E+01	3.84396570653E+00	-2.52145146314E+01	3.60149604804E+01
