# Hz S DB R 50
! CMT, M5065, 19127446, 24.2.4/2
! Date: 12/3/2024 4:28:18 PM
! Data: Format (Calibration Info)
! Freq	S11:dB/Ang(F2)	S21:dB/Ang(F2)	S12:dB/Ang(F2)	S22:dB/Ang(F2)
3.00000000000E+05	-5.41553923022E+00	-1.79797717329E+02	2.72674037226E+00	9.14230918203E+01	-4.21434482629E+01	-1.39366810118E+02	-2.98583250340E+01	-4.83597329269E+00
3.49972219135E+05	-6.01365708046E+00	-1.72748885042E+02	4.21078105416E+00	8.98812744500E+01	-4.72715646280E+01	-1.41426021755E+02	-3.03220497705E+01	4.62632851153E-01
3.99944438271E+05	-6.46666737341E+00	1.77893608374E+02	5.40861541635E+00	9.08313759722E+01	-4.22344060715E+01	-9.96608256894E+00	-2.90314942127E+01	1.33025054738E+01
4.49916657406E+05	-5.63123478396E+00	-1.73863030096E+02	6.19692338716E+00	8.78342823345E+01	-4.82484632752E+01	-1.33859978168E+02	-2.99936301660E+01	1.31995452661E+00
4.99888876542E+05	-5.32477923017E+00	-1.75251916264E+02	7.16669942601E+00	8.70243502110E+01	-5.41055223273E+01	1.04101727009E+02	-3.05763199942E+01	1.83913970270E+00
5.49861095677E+05	-5.54994369593E+00	-1.74164931983E+02	8.04813863626E+00	8.60482893276E+01	-4.05902288877E+01	-1.69781720879E+02	-3.02138116362E+01	-8.61096955520E+00
5.99833314813E+05	-6.19151077754E+00	1.78175796495E+02	8.84660556373E+00	8.68279755257E+01	-4.10879781191E+01	7.20406029071E+01	-3.31453269726E+01	2.33024660815E+01
6.49805533948E+05	-6.22680621517E+00	-1.73776355420E+02	9.57500964985E+00	8.49907913911E+01	-4.97434390081E+01	2.34381351218E+01	-3.04117942688E+01	1.10293217482E+01
6.99777753084E+05	-6.78880324408E+00	-1.76788314390E+02	1.02778379524E+01	8.46262277303E+01	-5.31439991636E+01	1.58673817074E+02	-3.02127895350E+01	2.46734212465E+00
7.49749972219E+05	-6.03922564710E+00	-1.76535291394E+02	1.08685202734E+01	8.45132911192E+01	-5.25751082616E+01	-7.50172505272E+01	-2.99565294577E+01	5.57312895540E+00
7.99722191355E+05	-5.87240010280E+00	-1.76238454310E+02	1.13053665517E+01	8.33484032671E+01	-3.70083437440E+01	-1.64921596766E+02	-2.92264188188E+01	-1.73569172620E+01
8.49694410490E+05	-6.99427996834E+00	1.76196269762E+02	1.19101980953E+01	8.37434973609E+01	-4.73890172327E+01	1.38171588788E+02	-3.02052363561E+01	2.44143064523E+00
8.99666629626E+05	-6.33846132798E+00	1.72888616770E+02	1.23762271026E+01	8.40679169604E+01	-4.75126729046E+01	9.47305256450E-01	-3.01962532662E+01	7.90067232314E+00
9.49638848761E+05	-6.02621259364E+00	-1.79402627320E+02	1.28064213867E+01	8.27408631152E+01	-4.26613074224E+01	-7.70816033733E+01	-2.88572351219E+01	5.49785374506E+00
9.99611067896E+05	-5.87848763224E+00	1.79641520036E+02	1.32323536182E+01	8.24338620733E+01	-5.47769728274E+01	7.94687266353E+01	-3.07512149375E+01	3.83474341137E+00
1.04958328703E+06	-7.32405936786E+00	-1.73981600968E+02	1.38168868417E+01	8.09530346845E+01	-4.76330798806E+01	-6.04105431028E+01	-2.87769982166E+01	8.21496894306E+00
1.09955550617E+06	-5.96821827720E+00	1.74630191144E+02	1.40793995055E+01	8.17649383117E+01	-5.74547317507E+01	9.95474526761E+01	-3.12247426484E+01	6.54407496163E+00
1.14952772530E+06	-5.63662130510E+00	1.73476690180E+02	1.44292074051E+01	8.13021574691E+01	-5.32862004938E+01	1.50018281681E+01	-2.97066872161E+01	1.28389215972E+01
1.19949994444E+06	-5.99992721612E+00	-1.77595533584E+02	1.47965392127E+01	8.00378349762E+01	-4.43516503958E+01	1.59270678443E+02	-3.20288819672E+01	1.92318456206E+00
1.24947216357E+06	-6.41219096007E+00	-1.78810123125E+02	1.52381590686E+01	7.95262836940E+01	-4.98927673830E+01	1.55345478206E+02	-3.15935200209E+01	5.23355251375E+00
1.29944438271E+06	-6.77213405546E+00	1.71820814960E+02	1.56261093871E+01	7.98303171211E+01	-4.72706093046E+01	8.01085803215E+00	-3.03521860017E+01	1.89773934510E+01
1.34941660184E+06	-5.57289952186E+00	1.79867665401E+02	1.57640144279E+01	7.84254337468E+01	-4.16947148010E+01	-1.37083602650E+02	-2.82984918127E+01	-1.01136414322E+01
1.39938882098E+06	-6.97055662831E+00	1.79261458443E+02	1.62907638377E+01	7.84283286379E+01	-4.55433479175E+01	-6.29954295929E+01	-2.79056297649E+01	1.16262852328E+01
1.44936104012E+06	-5.26985417193E+00	1.77290305626E+02	1.63796419805E+01	7.83622930777E+01	-4.55762642908E+01	-1.69594916066E+02	-3.07844775246E+01	-6.62472780952E+00
1.49933325925E+06	-5.14711952970E+00	1.78577804823E+02	1.66014153052E+01	7.79637273426E+01	-5.73796411658E+01	-1.65143887205E+02	-2.98375971112E+01	7.53427974613E+00
1.54930547839E+06	-5.47393392216E+00	1.79646816105E+02	1.69425194071E+01	7.67794279863E+01	-4.00526700914E+01	-7.72419859472E+01	-2.64400704804E+01	3.02479706590E+00
1.59927769752E+06	-6.22285786939E+00	-1.76071925723E+02	1.73685184793E+01	7.59508209536E+01	-4.72802206102E+01	-2.07016907997E+01	-2.89074375072E+01	1.31448202787E+01
1.64924991666E+06	-6.34677652455E+00	-1.79075437639E+02	1.76156215223E+01	7.57755715499E+01	-3.72033036243E+01	-1.83685997769E+01	-2.37927008390E+01	3.43897932729E+01
1.69922213579E+06	-5.93337585559E+00	1.78208032811E+02	1.78413954378E+01	7.58320660236E+01	-4.20862048290E+01	-1.38423756214E+02	-2.84667057972E+01	-1.29433227509E+01
1.74919435493E+06	-6.50665545179E+00	1.76213516739E+02	1.81449238961E+01	7.54950413821E+01	-4.57826115407E+01	4.65450573107E+01	-2.96629225458E+01	2.96331882109E+01
1.79916657406E+06	-5.37889047625E+00	-1.78656634149E+02	1.82264896237E+01	7.43513045888E+01	-5.00810261491E+01	9.70270335966E+00	-2.92660938300E+01	2.36013098919E+01
1.84913879320E+06	-4.73756325794E+00	-1.76544114481E+02	1.82857582157E+01	7.36866217445E+01	-4.08677132100E+01	5.35479426358E+01	-2.97653550972E+01	4.71238574402E+01
1.89911101233E+06	-5.25544951826E+00	1.78698929853E+02	1.87217540791E+01	7.40013317038E+01	-5.15843298922E+01	-1.53820682249E+02	-3.06410619683E+01	3.96602603119E+00
1.94908323147E+06	-5.72112259010E+00	1.77633522879E+02	1.89843435781E+01	7.34928047933E+01	-4.52305242582E+01	-4.02710081489E+01	-2.78851196335E+01	1.55201939406E+01
1.99905545061E+06	-5.25052635064E+00	-1.78261013308E+02	1.91119386089E+01	7.26451818633E+01	-3.80951123518E+01	1.21959436754E+02	-3.98577393507E+01	1.48059519943E+02
2.04902766974E+06	-5.97163695622E+00	-1.77616546425E+02	1.94336174395E+01	7.17904211057E+01	-4.66814439566E+01	-5.80376320944E+01	-2.82930852171E+01	9.85105780654E+00
2.09899988888E+06	-5.91007391674E+00	1.79236107156E+02	1.96792478649E+01	7.19291263337E+01	-4.52401566395E+01	-2.66080219028E+01	-2.69413751959E+01	1.99421863629E+01
2.14897210801E+06	-6.14302119352E+00	1.76403318442E+02	1.98930618720E+01	7.20654142500E+01	-4.33348300944E+01	1.20305156244E+02	-3.55659534761E+01	3.14031667896E+01
2.19894432715E+06	-5.16694828076E+00	-1.73362758625E+02	1.99483319396E+01	6.97178735662E+01	-4.44045802641E+01	8.32399716445E+01	-3.24714588175E+01	4.29449430830E+01
2.24891654628E+06	-5.12018205217E+00	1.79238021720E+02	2.01169741498E+01	7.07953673434E+01	-4.68439043489E+01	-1.67444918813E+02	-3.14259273915E+01	-2.91568390806E+00
2.29888876542E+06	-5.38868198871E+00	-1.71829264500E+02	2.03702129031E+01	6.90167949460E+01	-5.05326345768E+01	-1.51920163592E+02	-3.08064479229E+01	3.36590817793E+00
2.34886098455E+06	-6.27797365351E+00	-1.75531888383E+02	2.06639591134E+01	6.90921480679E+01	-4.75645222637E+01	1.25728902579E+01	-2.86744465344E+01	3.52662197908E+01
2.39883320369E+06	-6.53470463035E+00	1.77332705778E+02	2.08710036004E+01	6.94421940972E+01	-5.63351301966E+01	-1.71864498761E+01	-2.74187504628E+01	2.30220567135E+01
2.44880542282E+06	-6.56882390537E+00	1.78940273412E+02	2.10714280673E+01	6.88178375742E+01	-4.71730182600E+01	-9.67128941302E+01	-2.80493947808E+01	5.08886487539E+00
2.49877764196E+06	-5.92855665089E+00	1.79634539737E+02	2.11439346335E+01	6.84964601512E+01	-6.16775799145E+01	9.95063685802E+01	-3.04698804766E+01	2.11799405110E+01
2.54874986110E+06	-6.16127530593E+00	1.79730266685E+02	2.13921995725E+01	6.78476474730E+01	-5.94344072508E+01	-1.20037987498E+02	-3.04089221172E+01	1.36128893310E+01
2.59872208023E+06	-5.97324114916E+00	-1.70598725404E+02	2.14720148130E+01	6.63682346232E+01	-5.11866640025E+01	1.46548204354E+02	-3.27188045580E+01	5.61201054021E+00
2.64869429937E+06	-4.93649525973E+00	1.77988240281E+02	2.15449015623E+01	6.73535298281E+01	-5.75023878553E+01	1.17758225994E+02	-3.05672225730E+01	2.17818402814E+01
2.69866651850E+06	-6.33571997834E+00	-1.79776767929E+02	2.18515467084E+01	6.65381409091E+01	-4.71202058009E+01	1.66508456891E+02	-3.20115746510E+01	-5.26550537304E+00
2.74863873764E+06	-6.23593688778E+00	1.79415476643E+02	2.20282810011E+01	6.61035985454E+01	-4.57788354638E+01	-1.13774576527E+02	-2.92157812193E+01	-7.84009663752E+00
2.79861095677E+06	-5.66060820570E+00	1.75950806429E+02	2.21397064035E+01	6.60129410442E+01	-4.71703062378E+01	3.30333896125E+01	-2.82135970414E+01	4.09358601109E+01
2.84858317591E+06	-5.55689936846E+00	1.78961218867E+02	2.22562753127E+01	6.54613506009E+01	-4.88503023962E+01	-1.43864298929E+02	-2.92920008504E+01	-1.38273523147E+00
2.89855539504E+06	-6.09152854856E+00	-1.77590102505E+02	2.24717855328E+01	6.44423203821E+01	-6.08692785428E+01	-1.50750110240E+02	-3.10568662066E+01	1.87683258381E+01
2.94852761418E+06	-5.16412815654E+00	-1.78060845061E+02	2.24714697487E+01	6.39402398041E+01	-4.54900931409E+01	-1.58890146327E+02	-3.20679346533E+01	-2.10453532949E+01
2.99849983331E+06	-6.69829323614E+00	-1.74223795596E+02	2.28155130971E+01	6.30583169902E+01	-5.35163093918E+01	1.62908563583E+02	-3.21799550102E+01	1.75196824190E+01
3.04847205245E+06	-5.84021608207E+00	1.79755351894E+02	2.28865851356E+01	6.34023052227E+01	-5.07454959038E+01	7.99067619349E-01	-2.68779915571E+01	3.16189392846E+01
3.09844427159E+06	-6.61855328055E+00	-1.74171900746E+02	2.31257860483E+01	6.22279773042E+01	-4.81351808768E+01	6.95846575760E+01	-2.92359582322E+01	5.17659432296E+01
3.14841649072E+06	-6.01554691386E+00	1.79414475655E+02	2.31942823745E+01	6.25713618547E+01	-4.16570142415E+01	1.22006905207E+02	-3.48966218966E+01	8.53489012030E+01
3.19838870986E+06	-5.38412977946E+00	1.78495769114E+02	2.32279852808E+01	6.23369385400E+01	-4.91450864644E+01	7.54003531657E+01	-3.06870908909E+01	4.57234878658E+01
3.24836092899E+06	-6.08985884013E+00	1.75789767048E+02	2.34568914063E+01	6.20565251933E+01	-4.50671808298E+01	-1.98563520963E+01	-2.57205546105E+01	2.61630078973E+01
3.29833314813E+06	-4.61387275932E+00	-1.75745397089E+02	2.33755931363E+01	6.07222772890E+01	-4.04230889808E+01	1.43301325130E+02	-4.00836116718E+01	1.38570708000E+02
3.34830536726E+06	-6.13261495895E+00	-1.78954413034E+02	2.37067868435E+01	6.05086607283E+01	-4.95480294847E+01	-1.37258041715E+02	-3.00551705945E+01	1.28100179266E+00
3.39827758640E+06	-5.31213505965E+00	1.79023979819E+02	2.37539789903E+01	6.04081617840E+01	-4.31222643869E+01	-5.96235048184E+01	-2.67744512186E+01	7.99155805809E+00
3.44824980553E+06	-6.22493107525E+00	1.75623225276E+02	2.40231866616E+01	6.03873442277E+01	-4.20199308020E+01	1.19966304230E+02	-3.22247245061E+01	1.12027086188E+02
3.49822202467E+06	-5.81143011178E+00	1.73010079507E+02	2.41060139812E+01	6.01699026413E+01	-4.38250645708E+01	-1.06999106086E+00	-2.49769521311E+01	3.38767230448E+01
3.54819424380E+06	-6.39689912436E+00	1.79601401537E+02	2.42520699137E+01	5.86871023807E+01	-6.46680482381E+01	4.46201816171E+01	-2.94864986176E+01	3.01546634868E+01
3.59816646294E+06	-6.51386461224E+00	1.78643440947E+02	2.44299648397E+01	5.85649196492E+01	-5.36268710931E+01	1.14618175125E+02	-3.10094036631E+01	4.33237081125E+01
3.64813868208E+06	-5.57345610729E+00	-1.78087369884E+02	2.43932896825E+01	5.79205852493E+01	-5.19063717960E+01	1.57661476745E+02	-3.29426151802E+01	3.64184656064E+01
3.69811090121E+06	-6.35045474082E+00	-1.74936561304E+02	2.46209852460E+01	5.68406279613E+01	-4.85414547922E+01	-8.22016117354E+01	-2.75798943740E+01	1.13602273935E+01
3.74808312035E+06	-5.79789149152E+00	1.75985889711E+02	2.46971763721E+01	5.75559801159E+01	-4.84206106645E+01	8.84419092514E+01	-2.96916896456E+01	6.27367546955E+01
3.79805533948E+06	-5.85866809477E+00	1.78053272388E+02	2.48078445465E+01	5.69857710197E+01	-4.66274071335E+01	-1.10977879941E+02	-2.95818329533E+01	-2.80348010556E+00
3.84802755862E+06	-7.10407574798E+00	-1.78566031711E+02	2.50407076896E+01	5.58339119401E+01	-4.30650080349E+01	1.45132029022E+01	-2.42111537403E+01	4.45191472103E+01
3.89799977775E+06	-5.71172188853E+00	1.78933929210E+02	2.50035655381E+01	5.60210363395E+01	-4.07217932027E+01	1.42657482155E+02	-3.49750613699E+01	1.27311512922E+02
3.94797199689E+06	-5.22421874282E+00	-1.73075497917E+02	2.49948160588E+01	5.46557708184E+01	-4.54879203685E+01	-1.32707889542E+02	-3.08581840347E+01	-9.55925640634E+00
3.99794421602E+06	-6.88591598312E+00	-1.76222082256E+02	2.53449708562E+01	5.42108531956E+01	-4.87110639524E+01	8.11294481280E+01	-2.94641528991E+01	6.10074527804E+01
4.04791643516E+06	-4.84626118875E+00	1.75266066334E+02	2.52750104936E+01	5.52883300177E+01	-4.84217098780E+01	-4.81814111970E+01	-2.66706029131E+01	1.78767267247E+01
4.09788865429E+06	-6.37029696512E+00	1.76903057685E+02	2.55076122762E+01	5.43123180082E+01	-4.29026138537E+01	1.20805400567E+02	-3.09465433558E+01	8.66943579439E+01
4.14786087343E+06	-5.43361588738E+00	-1.78380481770E+02	2.55148839371E+01	5.34517507173E+01	-4.28252698967E+01	-6.33540851081E+01	-2.42524606809E+01	4.93340837485E+00
4.19783309257E+06	-5.78488031994E+00	1.78573521233E+02	2.56429196034E+01	5.32309922662E+01	-4.75210981410E+01	1.48186843312E+02	-3.49804330723E+01	7.03370323411E+01
4.24780531170E+06	-6.88544375253E+00	-1.78357644017E+02	2.58706796800E+01	5.23194273602E+01	-4.33537905446E+01	7.17638489599E+01	-2.58067937613E+01	6.88460591454E+01
4.29777753084E+06	-5.73188041957E+00	1.76448527332E+02	2.58666746997E+01	5.24319672184E+01	-4.78630843937E+01	8.17017647618E+01	-2.78033136084E+01	6.47066433293E+01
4.34774974997E+06	-5.90886852187E+00	1.74779887372E+02	2.59989727836E+01	5.21273282869E+01	-4.44450721677E+01	-1.38227395191E+02	-3.21657971053E+01	-2.01104169419E+01
4.39772196911E+06	-5.94480109697E+00	-1.78110128155E+02	2.60653329766E+01	5.10981290933E+01	-4.80665404781E+01	7.56217123678E+01	-2.71429401929E+01	6.06685767863E+01
4.44769418824E+06	-6.00167999781E+00	-1.78499032424E+02	2.61728593840E+01	5.05321554506E+01	-4.46366137716E+01	1.01665611093E+02	-2.84378357590E+01	7.92100632271E+01
4.49766640738E+06	-6.24957468723E+00	1.76639998319E+02	2.63077988401E+01	5.07526196695E+01	-4.39838271126E+01	-1.53661621366E+02	-4.42596008397E+01	-4.27173978217E+01
4.54763862651E+06	-5.88173083068E+00	-1.77866662278E+02	2.63282523697E+01	4.97070249154E+01	-4.24798291090E+01	4.20544037410E+00	-2.30018355729E+01	3.82529259437E+01
4.59761084565E+06	-4.90142806101E+00	-1.75746831806E+02	2.62956215315E+01	4.91986240134E+01	-4.20641360682E+01	1.26933983686E+02	-2.81793290056E+01	1.05839503188E+02
4.64758306478E+06	-6.01882427793E+00	-1.75429722083E+02	2.65468081558E+01	4.82696833597E+01	-4.67730104627E+01	7.06654709186E+00	-2.51726281722E+01	3.86926982451E+01
4.69755528392E+06	-5.88269267218E+00	-1.78259063522E+02	2.66112638568E+01	4.84384417645E+01	-4.07755611475E+01	1.19235441421E+02	-2.65218612916E+01	1.07763618562E+02
4.74752750306E+06	-6.06298057585E+00	1.74800638493E+02	2.67876948472E+01	4.87298508379E+01	-5.73188464680E+01	-9.64327434204E+01	-2.93046021503E+01	2.21514856304E+01
4.79749972219E+06	-5.73459684638E+00	1.79035835975E+02	2.67995656471E+01	4.77941144637E+01	-4.31828436639E+01	1.63977127627E+02	-3.59653287305E+01	1.14983345946E+02
4.84747194133E+06	-5.78756260052E+00	1.75460750082E+02	2.69181295461E+01	4.77180794398E+01	-4.55177463773E+01	1.71887088019E+02	-3.76247796192E+01	1.14141271865E+02
4.89744416046E+06	-6.15697909570E+00	1.79324586969E+02	2.70217439335E+01	4.66098472478E+01	-4.81924020542E+01	6.80658746580E+00	-2.50304976505E+01	4.01332765260E+01
4.94741637960E+06	-5.26942719389E+00	-1.79913402918E+02	2.69920249043E+01	4.64571992034E+01	-5.74584813868E+01	-1.76128766955E+02	-3.08066751797E+01	4.34880547004E+01
4.99738859873E+06	-6.84930186053E+00	1.78239950120E+02	2.72710511479E+01	4.56597289926E+01	-4.68475257472E+01	1.31720652912E+02	-2.92296077461E+01	8.28948667799E+01
5.04736081787E+06	-6.20282113161E+00	1.78618149686E+02	2.72954362597E+01	4.53936542644E+01	-4.35827371895E+01	-2.62191002434E+01	-2.33477361933E+01	2.03696554112E+01
5.09733303700E+06	-6.74783112772E+00	-1.76099459640E+02	2.74208622712E+01	4.44468746022E+01	-5.75797850446E+01	1.17854920386E+02	-2.94913140664E+01	5.63176323971E+01
5.14730525614E+06	-5.27312465115E+00	1.78535594509E+02	2.73720412180E+01	4.49382690609E+01	-4.53907643924E+01	9.92767675311E+01	-2.61295906694E+01	7.79596613097E+01
5.19727747528E+06	-6.17980135410E+00	-1.75664991939E+02	2.75236369294E+01	4.33603733163E+01	-4.81154343109E+01	-1.16328865564E+02	-3.17935064058E+01	4.62701463030E+00
5.24724969441E+06	-6.84909209689E+00	-1.76979748695E+02	2.76776293082E+01	4.31170727023E+01	-5.18628266220E+01	1.68411351756E+02	-3.19945880401E+01	5.16128630823E+01
5.29722191355E+06	-6.06090136131E+00	-1.79225875469E+02	2.76831519954E+01	4.30017022547E+01	-5.08070537378E+01	-5.71500188614E+01	-2.68445036417E+01	2.07562495808E+01
5.34719413268E+06	-5.79111566833E+00	1.77641982454E+02	2.77705544937E+01	4.29407085959E+01	-5.31430700303E+01	-9.32934101950E+01	-2.95337872939E+01	2.02188934023E+01
5.39716635182E+06	-5.41620770761E+00	-1.79714774426E+02	2.77938368520E+01	4.24105638097E+01	-4.42390462268E+01	-6.18457858845E+01	-2.52968401261E+01	1.24705637641E+00
5.44713857095E+06	-7.22416366578E+00	1.76716996905E+02	2.80714163685E+01	4.17825397434E+01	-4.33977326656E+01	-4.79654193029E+01	-2.36940352842E+01	7.39920557914E+00
5.49711079009E+06	-6.64250258800E+00	-1.79630924905E+02	2.80769264787E+01	4.09457125969E+01	-4.96439167642E+01	2.39917525944E+01	-2.43323822776E+01	4.31643266966E+01
5.54708300922E+06	-6.12113270357E+00	-1.75378048625E+02	2.80799835105E+01	4.01991103494E+01	-5.98465301351E+01	-1.38069021690E+02	-3.16206947580E+01	4.22969046828E+01
5.59705522836E+06	-5.91296502577E+00	-1.72108881583E+02	2.80821456437E+01	3.91872433225E+01	-4.49334516669E+01	8.08653735253E+01	-2.41367795092E+01	7.27990180228E+01
5.64702744749E+06	-6.17827505062E+00	-1.76075313938E+02	2.82306255868E+01	3.94423185685E+01	-5.71930550775E+01	-6.63827473011E+01	-2.76142998280E+01	3.55719560002E+01
5.69699966663E+06	-6.35954426349E+00	-1.77019064596E+02	2.83366379436E+01	3.89676190327E+01	-4.76764167580E+01	1.47800223593E+02	-2.97424140628E+01	8.60687282918E+01
5.74697188577E+06	-6.41234225635E+00	1.77749642328E+02	2.84716463652E+01	3.92109259929E+01	-4.42042467504E+01	-3.67944394757E+01	-2.35901283357E+01	1.47355177449E+01
5.79694410490E+06	-5.79690919661E+00	-1.74464388013E+02	2.84001413142E+01	3.79665273926E+01	-5.27349029501E+01	1.38726630268E+02	-2.91393920578E+01	6.84928621763E+01
5.84691632404E+06	-6.31491800393E+00	1.79626297085E+02	2.85827961469E+01	3.79777665540E+01	-4.51708219029E+01	-1.34145737846E+02	-3.74541028135E+01	-8.98364115464E+00
5.89688854317E+06	-5.50288999596E+00	-1.78135018067E+02	2.85480409742E+01	3.74550878103E+01	-5.42514983439E+01	1.39401448196E+01	-2.60706364356E+01	4.31479409878E+01
5.94686076231E+06	-6.85687860267E+00	-1.78203477587E+02	2.87824648569E+01	3.68158543419E+01	-4.94027431129E+01	-1.67413760188E+02	-3.33182600074E+01	6.61596333519E+01
5.99683298144E+06	-6.43509928874E+00	-1.78516277598E+02	2.87964745609E+01	3.63839733634E+01	-4.55791762153E+01	3.12466751145E+01	-2.25153412959E+01	4.74435292929E+01
6.04680520058E+06	-6.11940881181E+00	-1.77504559335E+02	2.88384514076E+01	3.59020739949E+01	-4.08359020522E+01	-1.76437217227E+02	-3.03208292622E+01	1.60989977748E+02
6.09677741971E+06	-6.77625048291E+00	1.79176672381E+02	2.89798559563E+01	3.57128406065E+01	-4.27855261691E+01	1.12821780861E+01	-2.13265894525E+01	3.63554587922E+01
6.14674963885E+06	-6.25245986512E+00	-1.75250363767E+02	2.89678370405E+01	3.47407395924E+01	-5.46421604713E+01	1.60611785338E+01	-2.56786067519E+01	4.56538835921E+01
