# Hz S DB R 50
! CMT, M5065, 19127446, 24.2.4/2
! Date: 12/3/2024 4:28:53 PM
! Data: Format (Calibration Info)
! Freq	S11:dB/Ang(F2)	S21:dB/Ang(F2)	S12:dB/Ang(F2)	S22:dB/Ang(F2)
3.00000000000E+05	-6.07660888435E+00	-1.79659592947E+02	8.58647153793E+00	9.19825400022E+01	-5.99489516699E+01	-3.42288803661E+01	-3.05748096032E+01	4.34241133542E+00
3.49972219135E+05	-7.72932312428E+00	-1.74307277820E+02	1.00652329943E+01	8.94887873655E+01	-5.06207705262E+01	-1.06305205449E+02	-2.93517916900E+01	3.11913820360E+00
3.99944438271E+05	-5.37870220803E+00	1.76584325631E+02	1.08670933048E+01	8.96681244512E+01	-4.47875513129E+01	-1.07246078634E+02	-2.90060870695E+01	-1.39580815294E+00
4.49916657406E+05	-6.62631796924E+00	-1.70417596964E+02	1.21508068230E+01	8.70321739779E+01	-5.55641427428E+01	-9.20363266588E+01	-2.93119946249E+01	4.49344301602E+00
4.99888876542E+05	-6.88788773326E+00	1.79505367568E+02	1.31208048580E+01	8.72249514349E+01	-4.64392696889E+01	-9.47095676217E+01	-2.96723055052E+01	3.85977567841E+00
5.49861095677E+05	-6.57297057770E+00	-1.77649733580E+02	1.38893860540E+01	8.61251477918E+01	-4.09609062466E+01	-1.24264050238E+02	-2.79778331104E+01	-1.63420332932E+01
5.99833314813E+05	-5.43229093843E+00	1.78697825824E+02	1.44626568307E+01	8.58547962880E+01	-4.64933054661E+01	-5.02824655282E+01	-2.86952205968E+01	1.01255976396E+01
6.49805533948E+05	-5.12999933413E+00	-1.79187443260E+02	1.51920923348E+01	8.45013715583E+01	-4.72392967206E+01	5.41315014590E+01	-3.13385949820E+01	1.71330968550E+01
6.99777753084E+05	-5.78860630589E+00	-1.76314918445E+02	1.58624449429E+01	8.35938482612E+01	-4.82317054617E+01	-3.07283545684E+01	-2.98588513218E+01	1.63974399534E+01
7.49749972219E+05	-5.58806585045E+00	-1.79987659380E+02	1.63447014246E+01	8.39101404165E+01	-4.90068687791E+01	9.43684561275E+01	-3.21469203796E+01	1.72166544571E+01
7.99722191355E+05	-6.01452760214E+00	-1.78261456251E+02	1.69947740229E+01	8.24649198784E+01	-4.68827729474E+01	-1.04431323324E+02	-2.90435977054E+01	-7.21400479413E+00
8.49694410490E+05	-5.70020644261E+00	1.73236501020E+02	1.75299534614E+01	8.28628504324E+01	-5.64038590068E+01	1.55314480454E+02	-3.18329538384E+01	4.86262088716E+00
8.99666629626E+05	-5.63732853886E+00	-1.79651250097E+02	1.79961742861E+01	8.12920690121E+01	-4.66698030178E+01	-6.86803580792E+01	-2.81634747945E+01	5.34471341324E+00
9.49638848761E+05	-6.25478711542E+00	1.77064042051E+02	1.85542930544E+01	8.11026917773E+01	-4.73230535243E+01	-5.69017882693E+01	-2.74848132897E+01	5.93840383347E+00
9.99611067896E+05	-6.17875723960E+00	-1.79114439783E+02	1.89386702547E+01	7.98800447048E+01	-5.17347076588E+01	8.06177166903E+01	-3.25485618079E+01	1.90062693041E+01
1.04958328703E+06	-4.85033131324E+00	-1.75678610279E+02	1.92292473640E+01	7.89373716943E+01	-5.27596385901E+01	6.04998601118E+01	-3.09683849835E+01	1.43154669940E+01
1.09955550617E+06	-6.26289674096E+00	-1.76116826654E+02	1.97388305276E+01	7.82754121230E+01	-4.27542714588E+01	1.20645374193E+02	-3.86223323033E+01	-1.61195530954E+01
1.14952772530E+06	-5.74384356317E+00	1.73797683195E+02	2.01717064590E+01	7.91074942073E+01	-4.76333500435E+01	-2.16911681232E+01	-2.78697070316E+01	1.86885862984E+01
1.19949994444E+06	-6.63084103989E+00	-1.77682870975E+02	2.06095102135E+01	7.72809960043E+01	-5.83391946356E+01	1.27578442485E+02	-2.97733259019E+01	1.48795229161E+01
1.24947216357E+06	-5.55638226729E+00	1.79974878340E+02	2.08471721901E+01	7.70522992168E+01	-5.23970132038E+01	-2.54170409637E+01	-2.90458337653E+01	1.37500942932E+01
1.29944438271E+06	-5.88725097694E+00	1.78487969805E+02	2.12149776405E+01	7.66799910897E+01	-5.26687723835E+01	-1.63001521488E+02	-3.05686695375E+01	-1.06200068851E+01
1.34941660184E+06	-6.59747344218E+00	1.79033218741E+02	2.16191311195E+01	7.58099745192E+01	-5.99541876840E+01	7.54159357511E+01	-3.24924077595E+01	1.37540121462E+01
1.39938882098E+06	-6.30497299672E+00	-1.79120929547E+02	2.18819647494E+01	7.49751621682E+01	-4.54174476965E+01	1.16589167596E+02	-3.60884025364E+01	9.86900707036E+00
1.44936104012E+06	-6.18479487322E+00	1.79194664236E+02	2.21691664697E+01	7.44978233182E+01	-4.29495599053E+01	-1.07956151678E+02	-2.58696515247E+01	-7.24946412638E+00
1.49933325925E+06	-6.67643775130E+00	1.77373776543E+02	2.25486728248E+01	7.45533395960E+01	-4.52735561620E+01	-1.09020671363E+02	-2.69991134032E+01	-8.40569637302E+00
1.54930547839E+06	-7.07202385904E+00	1.73113734093E+02	2.28640437607E+01	7.40599423112E+01	-4.47881475178E+01	6.49181810235E+01	-3.36564243346E+01	4.93813894604E+01
1.59927769752E+06	-6.32108362708E+00	-1.77024290937E+02	2.29771833511E+01	7.23687311309E+01	-4.50900310901E+01	-1.11449546912E+02	-2.70502802031E+01	-1.12161846046E+01
1.64924991666E+06	-6.73542634762E+00	-1.67497320418E+02	2.33418235672E+01	7.07780893258E+01	-4.62674048872E+01	9.00767386132E+01	-3.46095655401E+01	4.48454823694E+01
1.69922213579E+06	-6.90715552432E+00	-1.79060204877E+02	2.35878816781E+01	7.15934027501E+01	-5.06240984920E+01	9.90442531325E+01	-3.34193008324E+01	3.77748540829E+01
1.74919435493E+06	-4.83083187211E+00	1.79948826535E+02	2.35710527607E+01	7.12263173606E+01	-4.48772254223E+01	1.56598860306E+02	-3.53918924876E+01	-2.10129493569E+01
1.79916657406E+06	-6.22330287646E+00	1.78885735263E+02	2.40393071916E+01	7.10146073735E+01	-5.56414161166E+01	1.70443150955E+02	-3.20559106692E+01	7.26052338073E+00
1.84913879320E+06	-6.21606450544E+00	-1.76549265480E+02	2.42443312576E+01	6.94139914704E+01	-5.28694434503E+01	4.73060744090E+01	-3.10058408588E+01	3.23656723631E+01
1.89911101233E+06	-6.21379250973E+00	1.74056508461E+02	2.45111428870E+01	6.98517166593E+01	-4.58548089537E+01	-1.70869899479E+02	-2.96715894404E+01	-5.44299005277E+01
1.94908323147E+06	-6.58043254859E+00	-1.78286489182E+02	2.47423489071E+01	6.84351062454E+01	-5.21640822515E+01	-7.45749819630E+01	-2.78684801784E+01	6.02164075816E+00
1.99905545061E+06	-5.64777403557E+00	-1.77512803547E+02	2.48075100409E+01	6.80216061657E+01	-4.48071353968E+01	2.55832750310E+01	-2.65635893788E+01	4.17773419939E+01
2.04902766974E+06	-6.72266997275E+00	1.79023187271E+02	2.52153305958E+01	6.78807711090E+01	-4.44272949940E+01	7.56926671250E+01	-3.08204621770E+01	7.36033644926E+01
2.09899988888E+06	-6.17059207348E+00	-1.78921576253E+02	2.53304548655E+01	6.68808276788E+01	-4.49334094493E+01	6.71733997598E+01	-3.03814580317E+01	6.16481675922E+01
2.14897210801E+06	-5.25897125865E+00	-1.79850649070E+02	2.53866949135E+01	6.66421403410E+01	-5.08171605112E+01	-1.40086961557E+02	-2.91146936062E+01	-2.12582310264E+01
2.19894432715E+06	-5.27153635170E+00	-1.74857639941E+02	2.54884016165E+01	6.46536921778E+01	-5.05966237133E+01	-1.54952641481E+02	-3.29731939238E+01	-7.42853373188E+00
2.24891654628E+06	-6.34509522855E+00	-1.76363267266E+02	2.59334064881E+01	6.49620149186E+01	-5.30942364750E+01	-1.65542637317E+02	-2.84630124775E+01	1.21350727582E+01
2.29888876542E+06	-6.39738123963E+00	-1.76274720401E+02	2.61174332722E+01	6.43585257778E+01	-5.42185317552E+01	-1.14841309141E+02	-3.00399373437E+01	-1.65675291270E+00
2.34886098455E+06	-4.95652320297E+00	1.75785033728E+02	2.61280356044E+01	6.51541826450E+01	-5.72107960187E+01	-1.73757477567E+02	-3.07655299027E+01	2.61320061872E+00
2.39883320369E+06	-6.24390448033E+00	1.74810833221E+02	2.64652455645E+01	6.45129684698E+01	-4.55419723357E+01	4.91588314194E-01	-2.47213013143E+01	3.35506747789E+01
2.44880542282E+06	-5.93001306767E+00	-1.76791220513E+02	2.65868367536E+01	6.31210439288E+01	-5.02530865788E+01	-1.14438828066E+02	-2.79974922334E+01	-1.32850365108E+01
2.49877764196E+06	-5.64307145389E+00	1.77775564281E+02	2.67248737500E+01	6.31110795939E+01	-5.87270225800E+01	-1.45156318781E+02	-2.92967896928E+01	1.24039956575E-01
2.54874986110E+06	-5.90467527157E+00	1.79446040488E+02	2.69251219683E+01	6.18846189177E+01	-5.05346206867E+01	-9.70437247650E+01	-2.87733325396E+01	-4.96616885521E+00
2.59872208023E+06	-5.85544528620E+00	1.77760250447E+02	2.70950075806E+01	6.18741687654E+01	-4.01276567526E+01	-1.21853547987E+02	-2.17799646389E+01	-3.22022774278E+01
2.64869429937E+06	-5.55278558015E+00	1.77217748025E+02	2.71947819987E+01	6.13784056370E+01	-5.08151453906E+01	-1.03868928357E+02	-2.91965519119E+01	-3.43111522224E+00
2.69866651850E+06	-5.71703576580E+00	1.70749117086E+02	2.74421083838E+01	6.17186098663E+01	-5.50291909344E+01	-1.72694952353E+02	-3.23475645960E+01	4.26483537299E+00
2.74863873764E+06	-6.00998735187E+00	1.77141807103E+02	2.75885676840E+01	6.02044297935E+01	-4.71097626471E+01	-8.33940914017E+01	-2.58998588013E+01	-2.66134853935E+00
2.79861095677E+06	-6.22748352147E+00	-1.79261454019E+02	2.77820674356E+01	5.91018073249E+01	-4.47998899421E+01	1.63041370988E+02	-3.88580358638E+01	-8.98138020621E+01
2.84858317591E+06	-5.30819321036E+00	1.76313184199E+02	2.78382802899E+01	5.94957297765E+01	-6.78594055881E+01	7.79809208121E+01	-3.01865113694E+01	3.04258634089E+01
2.89855539504E+06	-5.45714492004E+00	-1.78227360458E+02	2.79796264085E+01	5.80049906662E+01	-4.54030552405E+01	5.81531042888E+01	-2.61271392835E+01	6.42551421160E+01
2.94852761418E+06	-6.48357583436E+00	-1.77177472476E+02	2.82295024972E+01	5.72991658996E+01	-3.93116324970E+01	-1.55395711110E+02	-2.56564113650E+01	-8.79476766409E+01
2.99849983331E+06	-5.54640233161E+00	-1.78303063198E+02	2.82560470851E+01	5.69255745335E+01	-5.28322484988E+01	1.22247736580E+02	-3.45085721743E+01	4.57780907560E+01
3.04847205245E+06	-5.58322548117E+00	-1.74463341502E+02	2.83786598207E+01	5.57775245046E+01	-4.92439083698E+01	-1.61993517918E+02	-3.38616481198E+01	-1.81678235934E+01
3.09844427159E+06	-6.86573744771E+00	-1.78133856530E+02	2.86730592331E+01	5.56686186684E+01	-5.76809832323E+01	9.78850333674E+01	-3.13806442238E+01	4.14050033779E+01
3.14841649072E+06	-5.07582993676E+00	-1.75150909077E+02	2.85784716152E+01	5.48952479873E+01	-4.45501411809E+01	-1.45096742380E+02	-2.99075383656E+01	-5.39550833630E+01
3.19838870986E+06	-5.39810836622E+00	1.74434695911E+02	2.88267879299E+01	5.56113297403E+01	-4.41186884049E+01	1.22273478249E+02	-3.03332020615E+01	1.20468708658E+02
3.24836092899E+06	-5.69159764917E+00	-1.78553199156E+02	2.89498249866E+01	5.41328859940E+01	-5.11646191331E+01	-1.68152094781E+02	-4.06804399124E+01	-6.00285984223E+00
3.29833314813E+06	-5.79384148044E+00	-1.77524763626E+02	2.90723524324E+01	5.35686190980E+01	-4.76733283363E+01	-1.74455012796E+02	-4.60335026352E+01	-5.05893962499E+01
3.34830536726E+06	-5.93332866812E+00	1.79325350973E+02	2.92210017913E+01	5.32950193758E+01	-4.39614290236E+01	1.20450538936E+02	-3.01336050064E+01	1.04943354590E+02
3.39827758640E+06	-5.86505448074E+00	1.77506477917E+02	2.93432870219E+01	5.29355997869E+01	-4.65021896366E+01	1.75915481880E+02	-4.56723937095E+01	-9.36051250427E+01
3.44824980553E+06	-6.14860207792E+00	-1.79167558604E+02	2.95082563130E+01	5.18524576879E+01	-4.82675112407E+01	4.27642274620E+01	-2.53729566027E+01	5.10264193065E+01
3.49822202467E+06	-6.44054215410E+00	1.79589372901E+02	2.96510502640E+01	5.14797899039E+01	-4.50121469833E+01	-6.42608756013E+01	-2.36811320232E+01	-4.98118433770E+00
3.54819424380E+06	-7.59377638800E+00	1.79765839595E+02	2.98717614686E+01	5.05592808714E+01	-4.54286286363E+01	-1.43607005928E+02	-2.99839816230E+01	-5.31910332416E+01
3.59816646294E+06	-5.97061482538E+00	-1.77664186556E+02	2.97866535424E+01	5.01823126780E+01	-5.46740919651E+01	8.62254445688E+01	-2.90698982888E+01	5.04467605572E+01
3.64813868208E+06	-5.43670015379E+00	-1.74481775563E+02	2.98551221687E+01	4.92784676387E+01	-5.37939800351E+01	-4.57035332649E+01	-2.91728996674E+01	1.28407853031E+01
3.69811090121E+06	-6.09065180484E+00	1.76375612341E+02	3.01025706358E+01	4.97794703513E+01	-5.63104833481E+01	1.49282450443E+02	-3.60468781354E+01	3.84219700334E+01
3.74808312035E+06	-6.59832581380E+00	1.75866898133E+02	3.02607518770E+01	4.91116845840E+01	-4.85971429959E+01	-8.47938164960E+01	-2.70223175297E+01	-2.44052560794E+00
3.79805533948E+06	-4.91067162374E+00	1.74640726019E+02	3.01564948367E+01	4.91681289956E+01	-4.46767091742E+01	1.49557748042E+02	-3.22777426307E+01	1.52899244261E+02
3.84802755862E+06	-6.32664248560E+00	-1.79953773402E+02	3.03958655438E+01	4.76967141013E+01	-5.71875025361E+01	-2.60053697037E+01	-2.69472968914E+01	2.81495427062E+01
3.89799977775E+06	-6.15339421360E+00	-1.78034316277E+02	3.04996880412E+01	4.70030338099E+01	-4.58024596020E+01	-7.90694126824E+01	-2.40131080611E+01	-1.46713275696E+01
3.94797199689E+06	-5.01192193276E+00	-1.78136772601E+02	3.04197511416E+01	4.66602808255E+01	-4.33460966344E+01	2.58724410319E+01	-2.14594594983E+01	5.18743817601E+01
3.99794421602E+06	-6.29273805288E+00	1.78751686570E+02	3.07478955811E+01	4.60574863771E+01	-5.30791158438E+01	-1.43630490502E+02	-3.59329764970E+01	4.10011021480E+00
4.04791643516E+06	-6.37164067220E+00	-1.76951559115E+02	3.08216755886E+01	4.49642755433E+01	-4.62377897504E+01	-1.51500800471E+02	-3.94485580124E+01	-7.31741377477E+01
4.09788865429E+06	-5.97335597282E+00	1.77070646776E+02	3.09115256778E+01	4.51245097058E+01	-4.56927174210E+01	-5.29314149729E+01	-2.40900844073E+01	4.47661232971E+00
4.14786087343E+06	-5.57393016976E+00	-1.79704299726E+02	3.09161239555E+01	4.43212587962E+01	-4.97998642952E+01	6.54979043882E+01	-2.58750690663E+01	6.90275076240E+01
4.19783309257E+06	-5.54153910287E+00	-1.78990599432E+02	3.10390301523E+01	4.37282929238E+01	-4.79179553164E+01	-9.21275577128E+01	-2.75117540104E+01	-1.84207020445E+01
4.24780531170E+06	-5.90367724657E+00	1.74935425014E+02	3.11998672195E+01	4.39754921555E+01	-4.51593659733E+01	1.53418316340E+02	-3.24090920249E+01	1.46127367552E+02
4.29777753084E+06	-5.49045301844E+00	1.79069389347E+02	3.12115536201E+01	4.31084375136E+01	-5.15918396657E+01	5.88596683054E+01	-2.52228475579E+01	5.66211694983E+01
4.34774974997E+06	-7.03038217823E+00	1.78263203227E+02	3.14798330805E+01	4.20556717926E+01	-5.09308830215E+01	-4.38171614845E+01	-2.56904052044E+01	1.93291139455E+01
4.39772196911E+06	-6.30519050155E+00	-1.77701969195E+02	3.14944537158E+01	4.12505666497E+01	-5.26149616930E+01	5.45617911685E+01	-2.41308702655E+01	4.80205760474E+01
4.44769418824E+06	-5.53807088555E+00	1.74272928015E+02	3.15269675477E+01	4.19267330426E+01	-4.42082648356E+01	-5.39362912647E+01	-2.21302052556E+01	-2.40952751551E+00
4.49766640738E+06	-5.66058475680E+00	1.76529066152E+02	3.16316714243E+01	4.10841803456E+01	-5.09916073216E+01	-2.06248997327E+01	-2.47495308972E+01	2.32170155801E+01
4.54763862651E+06	-6.00295942806E+00	-1.79603204212E+02	3.17207258667E+01	3.99317333471E+01	-4.74835778175E+01	-1.46363385912E+02	-4.17405571902E+01	-7.29103985726E+01
4.59761084565E+06	-6.87312265355E+00	1.77527015504E+02	3.19368843558E+01	3.93928690098E+01	-5.76759608875E+01	-1.57644196989E+01	-2.68224423376E+01	3.35996972652E+01
4.64758306478E+06	-5.92164896097E+00	-1.74646623370E+02	3.18769401928E+01	3.80475563917E+01	-4.78184871987E+01	1.45433670274E+01	-2.26882936237E+01	3.81215917903E+01
4.69755528392E+06	-5.49129420207E+00	-1.69504072245E+02	3.18953788976E+01	3.70461550841E+01	-3.85024195488E+01	-5.39201372673E+01	-1.85048252850E+01	-1.95238981795E+01
4.74752750306E+06	-6.45700837499E+00	-1.78618566597E+02	3.21154902084E+01	3.75576823405E+01	-5.12343933833E+01	-1.01203410242E+02	-3.87326523906E+01	3.27118609994E+01
4.79749972219E+06	-6.26389690916E+00	-1.74251146485E+02	3.21568667365E+01	3.64694382587E+01	-4.34990728003E+01	5.69058104430E+01	-2.02247860744E+01	6.64372914625E+01
4.84747194133E+06	-6.42499873705E+00	-1.74269646763E+02	3.22584809392E+01	3.58322111518E+01	-5.42394414024E+01	6.88893331591E+01	-2.60413073768E+01	6.67841580021E+01
4.89744416046E+06	-6.02063647583E+00	-1.76120641204E+02	3.23102090140E+01	3.54600994489E+01	-4.69025692726E+01	6.08866465198E+01	-2.25595053611E+01	6.41170642305E+01
4.94741637960E+06	-6.00785534609E+00	1.79686361083E+02	3.24017892631E+01	3.55021938939E+01	-5.35717952141E+01	9.80610614695E+01	-2.60442390595E+01	6.86634122888E+01
4.99738859873E+06	-5.91156052951E+00	1.77068347110E+02	3.24679931311E+01	3.52442296741E+01	-4.57818518061E+01	-4.32453093187E+00	-2.06936667361E+01	2.87649519816E+01
5.04736081787E+06	-6.26926303784E+00	1.75712231950E+02	3.25768003607E+01	3.48122996508E+01	-4.10763431183E+01	1.20281340687E+02	-1.94874118230E+01	1.11152726430E+02
5.09733303700E+06	-6.09014640682E+00	-1.70817774539E+02	3.25765978521E+01	3.27423951744E+01	-4.84671738594E+01	-1.32436598740E+02	-4.16298583721E+01	-2.86225723089E+01
5.14730525614E+06	-4.88213098530E+00	1.73207864441E+02	3.26139574394E+01	3.44025657310E+01	-5.51305565742E+01	-1.53527305791E+02	-3.46013592682E+01	4.87492373732E+01
5.19727747528E+06	-5.89099622267E+00	-1.74230944663E+02	3.27313155554E+01	3.19224729862E+01	-4.81932453871E+01	8.88305497431E+01	-2.29188458536E+01	8.00141860756E+01
5.24724969441E+06	-5.95704864062E+00	-1.77907028951E+02	3.28218020029E+01	3.19094211999E+01	-4.41719547470E+01	5.05140064823E+01	-2.01742827764E+01	5.81154391405E+01
5.29722191355E+06	-5.81550919222E+00	-1.79997015613E+02	3.28965488438E+01	3.16785262841E+01	-4.55811883779E+01	1.65751190108E+02	-2.76518862741E+01	1.35398022342E+02
5.34719413268E+06	-6.92406064456E+00	-1.74875005663E+02	3.30439936949E+01	3.04419911798E+01	-6.12428135082E+01	3.83410851583E+01	-2.60842356859E+01	5.77057423537E+01
5.39716635182E+06	-6.08283397298E+00	1.78316870894E+02	3.30771797389E+01	3.06642111569E+01	-4.26286885397E+01	1.41882756853E+02	-2.20920639627E+01	1.26458324977E+02
5.44713857095E+06	-6.06478240275E+00	-1.74279728132E+02	3.31238169601E+01	2.92572214433E+01	-4.69311898050E+01	7.16733399360E+01	-2.08054492791E+01	7.42050315869E+01
5.49711079009E+06	-6.55254112732E+00	-1.75161617022E+02	3.32341854833E+01	2.87929906823E+01	-4.16931242826E+01	2.66445505209E+01	-1.76626306410E+01	3.99256836367E+01
5.54708300922E+06	-6.71953496235E+00	-1.79258482088E+02	3.33547993184E+01	2.85379030712E+01	-4.87131918529E+01	2.16541939864E+01	-2.19801046267E+01	3.97033059053E+01
5.59705522836E+06	-6.18053886003E+00	1.71404282598E+02	3.33985773613E+01	2.91320220870E+01	-4.58925383163E+01	6.46767122188E+01	-2.05065550751E+01	6.28713545561E+01
5.64702744749E+06	-5.18644835684E+00	-1.78268684283E+02	3.32965027026E+01	2.77643917490E+01	-4.98928205045E+01	-1.67485117413E+02	-3.40942500627E+01	1.06569623190E+02
5.69699966663E+06	-6.61718504683E+00	-1.78506765793E+02	3.35527787289E+01	2.68772062462E+01	-4.81551256493E+01	-1.36483118381E+02	-4.52788687922E+01	-5.75522337466E+01
5.74697188577E+06	-6.47933182299E+00	-1.73333326162E+02	3.35557371777E+01	2.59241111750E+01	-4.48265620011E+01	1.42434411200E+02	-2.35676623218E+01	1.14854126032E+02
5.79694410490E+06	-5.38971497376E+00	-1.74816991945E+02	3.35055631647E+01	2.55674090920E+01	-4.65276748586E+01	-1.42331612095E+02	-3.00809419230E+01	-1.45464199258E+02
5.84691632404E+06	-5.85155266019E+00	-1.78620611552E+02	3.36640529340E+01	2.54126763687E+01	-5.58020369435E+01	-3.21299071384E+01	-2.59852273727E+01	2.55774571186E+01
5.89688854317E+06	-5.21731057900E+00	1.79647006774E+02	3.36553894101E+01	2.52689447065E+01	-4.56842187940E+01	2.28495510276E+01	-2.01654693177E+01	3.82436402077E+01
5.94686076231E+06	-5.85401232776E+00	-1.77556169812E+02	3.37516456089E+01	2.41968977946E+01	-4.35023163788E+01	1.37720207937E+02	-2.06221366331E+01	1.17050706860E+02
5.99683298144E+06	-6.75561557887E+00	1.71967336751E+02	3.39760485687E+01	2.45176179627E+01	-5.50480945729E+01	1.51070332647E+02	-2.68957610243E+01	7.91155488765E+01
6.04680520058E+06	-5.93648941145E+00	-1.78140205707E+02	3.38778800404E+01	2.30783993622E+01	-4.48190344213E+01	-1.37186624201E+02	-3.25913556388E+01	-1.41308576871E+02
6.09677741971E+06	-6.00425603486E+00	-1.76541356708E+02	3.39596419789E+01	2.24546513886E+01	-4.65644815291E+01	1.36853720364E+01	-2.07796552217E+01	3.20824922506E+01
6.14674963885E+06	-5.90965624130E+00	-1.74179227951E+02	3.39976694207E+01	2.16136700051E+01	-4.58511130681E+01	-2.04760880721E+01	-1.93150146095E+01	6.34397389586E+00
