# Hz S DB R 50
! CMT, M5065, 19127446, 24.2.4/2
! Date: 11/8/2024 6:39:08 PM
! Data: Format (Calibration Info)
! Freq	S11:dB/Ang(F2)	S21:dB/Ang(F2)	S12:dB/Ang(F2)	S22:dB/Ang(F2)
3.00000000000E+05	-1.41815623314E+01	2.08846329732E+01	-8.25628946630E-01	1.78447620608E+02	-4.83292682697E+01	-1.47825904743E+02	-5.96493106413E+00	-2.15785909672E-01
3.22191354595E+05	-1.50543218154E+01	1.90272323930E+01	-8.58022732993E-01	1.78124529492E+02	-4.96565064869E+01	1.29143545804E+02	-5.96098789004E+00	-2.70488295775E-01
3.44382709190E+05	-1.35827196109E+01	2.09563684283E+01	-8.24126062257E-01	1.77808363868E+02	-5.04035998853E+01	1.58743905117E+02	-5.96974188555E+00	-2.74475590281E-01
3.66574063785E+05	-1.47321727747E+01	4.64941093921E+00	-7.77433861905E-01	1.77202006089E+02	-4.47618040402E+01	-7.11548422186E+00	-5.96716949642E+00	-2.67306855026E-01
3.88765418380E+05	-1.32954565102E+01	8.30594172701E+00	-8.65815940028E-01	1.78567974500E+02	-4.87363357746E+01	-5.52839558984E+01	-5.97378148676E+00	-3.21402636107E-01
4.10956772975E+05	-1.51170394244E+01	2.00831967851E+01	-8.22630233554E-01	1.77102303972E+02	-4.96184328505E+01	7.21774249754E+01	-5.96942199159E+00	-2.51808616729E-01
4.33148127570E+05	-1.40982156910E+01	4.48088271073E+00	-8.33787282744E-01	1.76565625668E+02	-5.52515926177E+01	-1.64467025187E+02	-5.96041355780E+00	-3.01432551646E-01
4.55339482165E+05	-1.24193882514E+01	1.83065199690E+01	-8.23666528335E-01	1.76595208867E+02	-5.00780856738E+01	-1.51543856310E+02	-5.97533127127E+00	-3.17083351028E-01
4.77530836760E+05	-1.21298401230E+01	1.84251790445E+01	-8.13999362463E-01	1.76087963276E+02	-6.02682229125E+01	1.16525132094E+02	-5.97133731533E+00	-2.46867084505E-01
4.99722191355E+05	-1.50788738087E+01	1.41160360618E+01	-8.22772758371E-01	1.75900319731E+02	-5.42438475395E+01	-5.36856827053E+01	-5.98226996790E+00	-3.24002829275E-01
5.21913545950E+05	-1.44324432709E+01	6.85367818341E+00	-8.51584673500E-01	1.75508236236E+02	-4.93538597805E+01	-1.64805675496E+02	-5.97217751043E+00	-2.95815470095E-01
5.44104900545E+05	-1.47663518940E+01	1.61255189753E+01	-7.80356468338E-01	1.75541289535E+02	-4.78390855414E+01	-1.75768801900E+01	-5.97305737188E+00	-3.85473813691E-01
5.66296255139E+05	-1.41616355018E+01	9.72061049533E+00	-8.65544797107E-01	1.75084464550E+02	-5.50260301677E+01	9.26444697957E+01	-5.96831075789E+00	-2.80849225731E-01
5.88487609734E+05	-1.44679997731E+01	8.48856558774E+00	-8.15820581159E-01	1.74933933598E+02	-6.25345563707E+01	-9.46230229779E+01	-5.96810250343E+00	-3.35281155849E-01
6.10678964329E+05	-1.33491764521E+01	1.07700005425E+01	-8.83558712460E-01	1.74492690608E+02	-5.00162831212E+01	-1.34904061608E+02	-5.97585755901E+00	1.15836178230E-01
6.32870318924E+05	-1.46072290008E+01	1.64769740496E+01	-8.45095008143E-01	1.74781696883E+02	-5.41639205140E+01	7.67311212829E+01	-5.96337120153E+00	-1.14567924023E-01
6.55061673519E+05	-1.40842976770E+01	2.02446866337E+00	-8.07532582642E-01	1.74132875177E+02	-4.57236342757E+01	-8.81056076448E+00	-5.97345261950E+00	-3.40023010208E-01
6.77253028114E+05	-1.43105033382E+01	1.37295961462E+01	-8.49153642002E-01	1.74053504963E+02	-5.68111971978E+01	-5.07794850844E+01	-5.96332555916E+00	-6.89724525083E-01
6.99444382709E+05	-1.29014207624E+01	4.18961290596E+00	-8.42446439728E-01	1.73649965173E+02	-6.15281150630E+01	-1.72219895153E+01	-5.96570621124E+00	-3.58302039794E-01
7.21635737304E+05	-1.28477619230E+01	5.17108457132E+00	-8.59908666938E-01	1.73510623588E+02	-5.18073626452E+01	-2.01583407399E+01	-5.97660548113E+00	-3.81708407878E-01
7.43827091899E+05	-1.44635912146E+01	4.61839342219E+00	-8.51661964268E-01	1.73313113718E+02	-5.38901675802E+01	-1.57876206642E+02	-5.97318798928E+00	-4.45444149158E-01
7.66018446494E+05	-1.42872444032E+01	1.11440225764E+01	-8.51679133309E-01	1.73075302693E+02	-4.83994243334E+01	9.15981051346E+01	-5.96631528654E+00	-3.71700229446E-01
7.88209801089E+05	-1.46152023644E+01	9.61640673732E+00	-7.88436472759E-01	1.72755292702E+02	-5.34727964517E+01	4.32675914019E+01	-5.96309932276E+00	-3.90903805541E-01
8.10401155684E+05	-1.52159452977E+01	3.12186203795E+01	-8.67579543467E-01	1.72514883205E+02	-6.03279066288E+01	-1.61500422281E+02	-5.97367286329E+00	-4.95995402956E-01
8.32592510279E+05	-1.64887756788E+01	-2.11650901293E-01	-8.32755320200E-01	1.72284937549E+02	-5.57847140866E+01	5.21383507968E+01	-5.98052265420E+00	-4.12788470380E-01
8.54783864874E+05	-1.57400466208E+01	9.41217965641E+00	-9.05603958494E-01	1.72153537144E+02	-5.52641761038E+01	-1.46033023148E+02	-5.95976108946E+00	-4.25107244508E-01
8.76975219469E+05	-1.21564314179E+01	2.29064527890E+00	-8.45694214327E-01	1.71799290443E+02	-5.01267578932E+01	1.04602697433E+02	-5.96824788764E+00	-3.84012327559E-01
8.99166574064E+05	-1.53387394500E+01	1.64082400829E+01	-8.54294037593E-01	1.71691636826E+02	-5.77379599373E+01	1.24371120638E+02	-5.96762363165E+00	-5.18109267580E-01
9.21357928659E+05	-1.50087537688E+01	5.58534825592E+00	-8.69093716885E-01	1.71314768241E+02	-4.63138476223E+01	-6.95885752691E+01	-5.95848573715E+00	-4.92224127479E-01
9.43549283254E+05	-1.30603255601E+01	6.09673436429E+00	-8.01348967402E-01	1.71039970991E+02	-4.67670784118E+01	3.23271419083E+01	-5.95722082727E+00	-5.02031623792E-01
9.65740637849E+05	-1.31165760850E+01	7.94501531570E+00	-8.93820719893E-01	1.70799841278E+02	-4.75374855655E+01	-1.15132554726E+02	-5.96486727701E+00	-5.20097474602E-01
9.87931992444E+05	-1.30101921669E+01	1.31173636640E+01	-8.99366193985E-01	1.70726781981E+02	-5.30964300094E+01	-1.78510323394E+02	-5.95964522309E+00	-4.63853297721E-01
1.01012334704E+06	-1.41160425426E+01	8.17341523098E+00	-8.67391187236E-01	1.70543675889E+02	-6.01957511433E+01	-1.59603462321E+02	-5.97464439593E+00	-4.74046848104E-01
1.03231470163E+06	-1.42808923751E+01	5.94568349400E+00	-9.09928854787E-01	1.70406757481E+02	-5.03003410371E+01	-3.77236039669E+01	-5.97546447465E+00	-5.49966279416E-01
1.05450605623E+06	-1.24648576048E+01	-6.20693165978E+00	-8.31458028931E-01	1.69969442214E+02	-4.86771091976E+01	-1.47514717899E+02	-5.96621316089E+00	-5.25018224478E-01
1.07669741082E+06	-1.43780236643E+01	-2.51074832937E+00	-8.95484401022E-01	1.69839128933E+02	-5.75893172874E+01	4.17060556166E+01	-5.97119767932E+00	-5.44821648695E-01
1.09888876542E+06	-1.44499068072E+01	-6.06021232460E+00	-8.43230229933E-01	1.69601126788E+02	-5.65784972681E+01	-9.18720172220E+01	-5.97904348515E+00	-5.45989480060E-01
1.12108012001E+06	-1.40329028092E+01	6.73954457516E+00	-8.65925113676E-01	1.69362963530E+02	-4.58755723851E+01	-6.88060078146E+01	-5.97226301532E+00	-5.51858733603E-01
1.14327147461E+06	-1.45908984928E+01	-3.36747133798E+00	-8.47647975022E-01	1.68897386035E+02	-6.14051585006E+01	-2.34124425886E+01	-5.96803394454E+00	-5.01140773111E-01
1.16546282920E+06	-1.37415338568E+01	4.94979541674E+00	-8.67314334673E-01	1.69139262967E+02	-4.51715610966E+01	-1.64083595300E+02	-5.96540868338E+00	-5.80516277239E-01
1.18765418380E+06	-1.56217901192E+01	-1.16710790515E+01	-8.96133516525E-01	1.68549001522E+02	-5.31364991107E+01	-1.39222042535E+02	-5.96208317356E+00	-5.41785485553E-01
1.20984553839E+06	-1.61060800886E+01	8.61454309683E+00	-9.11347425449E-01	1.68309397260E+02	-5.74822680016E+01	1.70820686513E+02	-5.97685098539E+00	-6.91319127694E-01
1.23203689299E+06	-1.36339156868E+01	-2.32421845454E+00	-8.99128591191E-01	1.68301670431E+02	-5.31736898848E+01	1.39156730372E+02	-5.96352015135E+00	-3.42992041441E-01
1.25422824758E+06	-1.36894964210E+01	-2.14411747022E+00	-8.99797122061E-01	1.68302154025E+02	-6.07240549559E+01	-4.45692695513E+01	-5.98344021902E+00	-6.16821565203E-01
1.27641960218E+06	-1.34374661153E+01	-3.76734181078E+00	-8.76994903378E-01	1.67896904530E+02	-4.94622377602E+01	-8.96657684567E+01	-5.98116379550E+00	-6.02457450488E-01
1.29861095677E+06	-1.40054566205E+01	1.44004642887E+01	-8.96904169181E-01	1.67720122437E+02	-4.36544102204E+01	3.14595164367E+01	-5.97827121859E+00	-6.40820642715E-01
1.32080231137E+06	-1.40151180008E+01	3.87464917673E+00	-8.77506928034E-01	1.67460927211E+02	-5.17792979701E+01	1.11848002990E+02	-5.96513965963E+00	-9.74308319916E-01
1.34299366596E+06	-1.30619043672E+01	8.55091335894E+00	-9.20143416684E-01	1.67481059861E+02	-5.94891635053E+01	-9.20925141566E+01	-5.96187417603E+00	-7.43633711207E-01
1.36518502056E+06	-1.38398781448E+01	9.16271053037E+00	-9.33267460140E-01	1.67233400627E+02	-5.81723104561E+01	1.79864408938E+02	-5.96954790346E+00	-5.89480410811E-01
1.38737637515E+06	-1.17111013867E+01	1.43939623238E+00	-8.74028745825E-01	1.66844567500E+02	-4.78505542365E+01	-1.47324948102E+02	-5.95851460199E+00	-6.17278689972E-01
1.40956772975E+06	-1.37567727399E+01	3.59206249774E+00	-8.91625041981E-01	1.66464294389E+02	-5.12307878638E+01	5.79484465400E+01	-5.96252427610E+00	-7.39019228099E-01
1.43175908434E+06	-1.41227649195E+01	7.12809639357E+00	-8.86790463455E-01	1.66214818608E+02	-6.14636086539E+01	1.57476276881E+02	-5.96307925320E+00	-6.36295040142E-01
1.45395043894E+06	-1.32024735798E+01	-6.21823914079E+00	-8.83348746931E-01	1.66144316399E+02	-5.23862197542E+01	-1.49896197417E+02	-5.96563208944E+00	-6.80364922869E-01
1.47614179353E+06	-1.49473365487E+01	1.62157624403E+01	-9.41093919397E-01	1.66327179356E+02	-5.50031461564E+01	-4.09949596852E+01	-5.96225532587E+00	-7.28505517370E-01
1.49833314813E+06	-1.39095076669E+01	-1.48469765735E+01	-8.50807432397E-01	1.65553788315E+02	-6.02309854542E+01	1.57220072211E+01	-5.97896135190E+00	-6.47109695928E-01
1.52052450272E+06	-1.37520062625E+01	-2.32653560199E+00	-9.26969884506E-01	1.65675660131E+02	-4.40016345953E+01	7.86204983885E+01	-5.97087569442E+00	-7.13911210052E-01
1.54271585732E+06	-1.33954866228E+01	1.24449060240E+00	-9.12945486750E-01	1.65425076824E+02	-5.99790215135E+01	-9.35683369646E+01	-5.97428850203E+00	-7.24371129689E-01
1.56490721191E+06	-1.65652130938E+01	6.41423430660E-01	-9.13838263624E-01	1.65206379390E+02	-5.43022326756E+01	-3.00503281684E+01	-5.97357935673E+00	-7.46329780095E-01
1.58709856651E+06	-1.44925648687E+01	6.95793449310E+00	-9.14249100534E-01	1.64872910048E+02	-5.88613759233E+01	-2.02637795076E+01	-5.96989518795E+00	-7.20274760915E-01
1.60928992110E+06	-1.30622871462E+01	1.23517612741E+01	-8.91771728017E-01	1.64813904280E+02	-5.46536415815E+01	-1.24444615892E+02	-5.97056172686E+00	-7.18424160357E-01
1.63148127570E+06	-1.16974546491E+01	-4.28796409242E+00	-8.61692418202E-01	1.64459260121E+02	-3.90528564701E+01	6.65357599096E+01	-5.96618269140E+00	-7.57550876297E-01
1.65367263029E+06	-1.50607647300E+01	1.80573323692E+00	-9.45152621859E-01	1.64068805506E+02	-5.46602591542E+01	2.95929680098E+01	-5.96725102799E+00	-7.80560725594E-01
1.67586398489E+06	-1.60025516753E+01	-1.05108104263E+01	-9.28360699141E-01	1.64083006902E+02	-5.35986096974E+01	-6.57824842048E+01	-5.97347263279E+00	-8.02467800348E-01
1.69805533948E+06	-1.39301561491E+01	1.50528521342E+00	-9.25812930816E-01	1.63691023651E+02	-6.03975404068E+01	8.76443951504E+01	-5.97824461548E+00	-8.06409110719E-01
1.72024669408E+06	-1.48445909367E+01	1.09783238829E+01	-9.29001678491E-01	1.63482410829E+02	-5.87817108576E+01	8.95846666218E+01	-5.97062748257E+00	-8.12584575546E-01
1.74243804867E+06	-2.15488691631E+01	-2.17970396840E+01	-9.17724344627E-01	1.63007728306E+02	-4.91608372332E+01	8.90231695129E+01	-5.97975204255E+00	-8.66932644043E-01
1.76462940327E+06	-1.32205652906E+01	-2.72559943420E+00	-9.09318948125E-01	1.63026831233E+02	-4.93581143952E+01	-8.41416149591E+01	-5.97109999298E+00	-8.71065821629E-01
1.78682075786E+06	-1.31092306268E+01	-9.95024513952E-01	-8.91103422388E-01	1.63060087549E+02	-4.71666460383E+01	-1.11770460308E+02	-5.96752078830E+00	-8.04965020836E-01
1.80901211246E+06	-1.43157003336E+01	1.26599536889E+01	-9.51218233517E-01	1.62598890680E+02	-5.60548974250E+01	6.83837243745E+01	-5.96465372858E+00	-8.53754029397E-01
1.83120346705E+06	-1.48385945179E+01	4.22552158881E+00	-9.54854523875E-01	1.62254054467E+02	-5.85413887284E+01	-1.37874247783E+02	-5.96509042550E+00	-7.70545633241E-01
1.85339482165E+06	-1.08124902200E+01	2.42920804721E+00	-9.21159482790E-01	1.62439567470E+02	-4.55154824348E+01	-6.13211251695E+01	-5.97388454345E+00	-8.74654248619E-01
1.87558617624E+06	-1.47817827427E+01	1.15224263870E+01	-9.39074561603E-01	1.61987036430E+02	-5.22364575287E+01	9.35057750666E+01	-5.97895438531E+00	-8.78050221666E-01
1.89777753084E+06	-1.52659377502E+01	3.15810777376E+00	-2.31103594066E+00	1.61421955493E+02	-5.46861833707E+01	-8.32802971491E+01	-5.97550499612E+00	-9.01772482497E-01
1.91996888543E+06	-1.38057829853E+01	2.04942055785E+00	-9.74945275751E-01	1.61602025673E+02	-5.16648708332E+01	-1.08144235344E+02	-5.96372406827E+00	-8.07595215243E-01
1.94216024003E+06	-1.32577789756E+01	-3.70959981576E+00	-9.10645991365E-01	1.61490919000E+02	-4.69118853304E+01	1.43963323593E+02	-5.97351281597E+00	-9.06218725453E-01
1.96435159462E+06	-9.70571880615E+00	1.08142369075E+01	-8.80189309556E-01	1.61689781896E+02	-4.83142671862E+01	1.21453657568E+02	-5.96699686452E+00	-9.10722064949E-01
1.98654294922E+06	-1.36739987981E+01	-1.47871569475E+00	-9.65316327382E-01	1.61028387762E+02	-4.51913531275E+01	3.87065165629E+01	-5.97512572672E+00	-9.75205206333E-01
2.00873430381E+06	-1.45580737538E+01	5.20210333310E+00	-9.51105301770E-01	1.60797693924E+02	-5.08382301650E+01	5.21298896785E+01	-5.96387045121E+00	-1.00669959942E+00
2.03092565841E+06	-1.35707063620E+01	4.82689071531E+00	-9.41698109411E-01	1.60591125734E+02	-5.34401541024E+01	-3.48357905526E+01	-5.97188970239E+00	-9.81253350092E-01
2.05311701300E+06	-1.36563379445E+01	-3.03259118221E+00	-9.27796150269E-01	1.60490248164E+02	-5.06247203222E+01	-1.42652082062E+02	-5.97713206933E+00	-9.34301652182E-01
2.07530836760E+06	-1.17465186894E+01	9.56792287080E+00	-9.40325561015E-01	1.60483650516E+02	-5.26198541876E+01	1.15415335983E+02	-5.96948154349E+00	-9.91542202046E-01
2.09749972219E+06	-1.44064392660E+01	7.68386673064E+00	-9.56790736857E-01	1.60233541827E+02	-3.75380575349E+01	-1.62479712514E+02	-5.96772062615E+00	-9.14010461449E-01
2.11969107679E+06	-1.27396535852E+01	-2.45237161197E+00	-9.38859220406E-01	1.59870596454E+02	-4.86595821707E+01	9.35565862577E+01	-5.96284124577E+00	-1.03199926491E+00
2.14188243138E+06	-1.38856508121E+01	-3.61332984834E+00	-9.53946862327E-01	1.59588040378E+02	-5.69106174027E+01	1.54611420612E+02	-5.96989438473E+00	-1.01030483419E+00
2.16407378598E+06	-1.36835205732E+01	1.99198126578E+00	-9.72763066914E-01	1.59225743304E+02	-5.20255839680E+01	9.61081542358E+01	-5.96840954258E+00	-1.02636911028E+00
2.18626514057E+06	-1.48791384006E+01	-1.60097475363E+00	-9.79290118216E-01	1.59188855183E+02	-5.91928833872E+01	-9.50178012896E+01	-5.97772819349E+00	-1.01630088045E+00
2.20845649517E+06	-1.25336403273E+01	7.07270656328E+00	-9.68410751374E-01	1.58922289740E+02	-4.52333664523E+01	1.78978593461E+02	-5.96289157146E+00	-9.84977818390E-01
2.23064784976E+06	-1.47930261401E+01	-6.24335046288E+00	-9.96778986935E-01	1.58415674058E+02	-4.98549903346E+01	1.24446462478E+02	-5.97234639269E+00	-1.05479697469E+00
2.25283920436E+06	-1.37783158476E+01	-4.00888321523E+00	-1.01082097246E+00	1.58373885795E+02	-4.90756345588E+01	-3.44922669600E+01	-5.97294653820E+00	-1.00231956477E+00
2.27503055895E+06	-1.41088495087E+01	1.71678125953E+00	-1.04481059013E+00	1.58475692464E+02	-5.27447038918E+01	-9.61940151233E+01	-5.96397574063E+00	-1.06482135789E+00
2.29722191355E+06	-1.43325501639E+01	-5.81116621486E+00	-9.84994311963E-01	1.58121823375E+02	-5.16179550663E+01	5.67463601076E+01	-5.97475405315E+00	-1.07678857799E+00
2.31941326814E+06	-1.32533157094E+01	1.95454280239E+01	-1.03156976320E+00	1.57933856859E+02	-5.69421579424E+01	1.22255625723E+02	-5.97475501381E+00	-1.07896202865E+00
2.34160462274E+06	-1.51183425386E+01	2.74066205795E+00	-9.62913269430E-01	1.57795082534E+02	-5.44687178045E+01	-1.10492778706E+02	-5.97138142335E+00	-1.10178460197E+00
2.36379597733E+06	-1.40951552337E+01	-2.85669286628E+00	-1.01472693378E+00	1.57375425667E+02	-5.43777929334E+01	-6.37620846608E+01	-5.97763248201E+00	-1.11651854062E+00
2.38598733193E+06	-1.33267701226E+01	-4.80470006957E-01	-1.01647960991E+00	1.57086884890E+02	-5.20865831768E+01	3.70706575001E+01	-5.97152814537E+00	-1.15048170759E+00
2.40817868652E+06	-1.40115228498E+01	-9.83864781537E+00	-1.00131275551E+00	1.56859898840E+02	-5.23332380071E+01	-1.35135862194E+02	-5.97638343677E+00	-1.23945865020E+00
2.43037004112E+06	-1.33227031431E+01	5.25489953292E+00	-1.00193847075E+00	1.56930796327E+02	-5.42365844723E+01	-5.48410584597E+01	-5.97566982879E+00	-1.51652806026E+00
2.45256139571E+06	-1.33435863937E+01	9.94670317805E-01	-9.92415463029E-01	1.56589981389E+02	-4.00601232369E+01	5.48569405248E+01	-5.96555989649E+00	-1.17562487360E+00
2.47475275031E+06	-1.29086121343E+01	-2.46908104278E+00	-9.91644142875E-01	1.56583337208E+02	-5.32209388593E+01	4.09272844192E+01	-5.97793487605E+00	-1.17412034543E+00
2.49694410490E+06	-1.49345584127E+01	5.04411884371E+00	-1.01997737998E+00	1.56058545020E+02	-4.90210931314E+01	-1.66502589137E+02	-5.97429597267E+00	-1.13988434645E+00
2.51913545950E+06	-1.26087856647E+01	8.02717568561E+00	-1.00987849094E+00	1.56224414992E+02	-5.23350722062E+01	-9.38481361776E+01	-5.96461221206E+00	-1.13743825956E+00
2.54132681409E+06	-6.82290881103E+00	8.41020153717E+00	-1.03013389609E+00	1.56028831210E+02	-4.68237133778E+01	-1.28991359463E+02	-5.98320146242E+00	-1.16700729108E+00
2.56351816869E+06	-1.44300871185E+01	-8.55274598744E+00	-1.00978371894E+00	1.55402558976E+02	-5.05855935224E+01	-8.68820148377E+01	-5.98693492656E+00	-1.18387624900E+00
2.58570952328E+06	-1.51258445813E+01	-3.28813007775E+00	-1.01425218246E+00	1.55097317078E+02	-5.01573544003E+01	2.18622020984E+01	-5.98008331744E+00	-1.14681286184E+00
2.60790087788E+06	-1.40004891347E+01	2.33548164223E+00	-1.02474779331E+00	1.55161490878E+02	-4.67175403406E+01	1.77359394373E+01	-5.98140503816E+00	-1.07333206697E+00
2.63009223247E+06	-1.24987403287E+01	2.38660118093E+00	-1.02790541112E+00	1.55016999140E+02	-5.03118240617E+01	1.06219401928E+02	-5.99384265860E+00	-8.08850099566E-01
2.65228358707E+06	-1.26782328330E+01	-5.14277286902E+00	-9.88609234197E-01	1.54748895105E+02	-5.31861673833E+01	1.14440319696E+01	-5.97857942921E+00	-1.22686048384E+00
2.67447494166E+06	-1.14552688949E+01	-5.40093897362E+00	-9.87223696810E-01	1.54351344623E+02	-4.21429686771E+01	-1.09007136949E+02	-5.97727943414E+00	-1.22167883583E+00
2.69666629626E+06	-1.42180693824E+01	-4.50063165160E-01	-1.05014623047E+00	1.54116683386E+02	-4.81894933581E+01	-8.10563467415E+01	-5.97542099971E+00	-1.19991679394E+00
2.71885765085E+06	-1.36676886456E+01	1.61835995543E+00	-1.02469880955E+00	1.54220320376E+02	-5.82565910136E+01	9.71283691165E+00	-5.97436726948E+00	-1.29896706869E+00
2.74104900545E+06	-1.42143912650E+01	1.63408224378E+01	-1.03383524264E+00	1.53758470426E+02	-5.00529990655E+01	9.45030877498E+01	-5.95788902453E+00	-1.29471602698E+00
2.76324036004E+06	-1.35888875462E+01	7.23782046515E-01	-9.96071229576E-01	1.53346042466E+02	-6.12084687101E+01	8.36249769041E+01	-5.98121597197E+00	-1.30590825759E+00
2.78543171463E+06	-1.34145326187E+01	-9.22618624664E-01	-1.04057090349E+00	1.53139188858E+02	-4.87227186464E+01	1.56708915414E+02	-5.98097183938E+00	-1.30784331644E+00
2.80762306923E+06	-1.42403784642E+01	-8.81027213785E+00	-1.05030520292E+00	1.53035041287E+02	-5.16102343353E+01	-2.94747441648E+01	-5.98596047481E+00	-1.31507873156E+00
2.82981442382E+06	-1.50639008320E+01	-5.70372720390E+00	-1.06070680951E+00	1.52735522069E+02	-5.25515979605E+01	6.53975993430E+01	-5.98159299174E+00	-1.29003033305E+00
2.85200577842E+06	-1.30354276806E+01	-1.95455799524E+00	-1.04998641879E+00	1.52636696508E+02	-5.31602116389E+01	3.34752623928E+01	-5.97873356348E+00	-1.27618553477E+00
2.87419713301E+06	-1.29620649304E+01	2.06477676911E+00	-1.07174725524E+00	1.52502872917E+02	-7.46156522693E+01	7.81334939844E+01	-5.98097540889E+00	-1.35348457083E+00
