# Hz S DB R 50
! CMT, M5065, 19127446, 24.2.4/2
! Date: 11/8/2024 6:36:20 PM
! Data: Format (Calibration Info)
! Freq	S11:dB/Ang(F2)	S21:dB/Ang(F2)	S12:dB/Ang(F2)	S22:dB/Ang(F2)
3.00000000000E+05	-1.61606278843E+01	2.73892923361E+01	-2.18627452352E+00	1.78614209239E+02	-5.01437525159E+01	-1.60978093482E+02	-5.95488522718E+00	-1.76692637021E-01
3.22191354595E+05	-1.30592039940E+01	2.91923718458E+01	-2.18192331575E+00	1.78059878312E+02	-4.91369837260E+01	-3.71644768538E+01	-5.95973130458E+00	-2.72938856231E-01
3.44382709190E+05	-1.31480550250E+01	2.32625646966E+01	-2.18233829602E+00	1.77832636918E+02	-4.28334983743E+01	-1.30414546516E+02	-5.96441537677E+00	-2.34076924400E-01
3.66574063785E+05	-1.42465317773E+01	9.67522382414E+00	-2.19927374175E+00	1.77703418272E+02	-5.30379617810E+01	3.75382285978E+01	-5.96914294116E+00	-2.08177795732E-01
3.88765418380E+05	-1.41784083423E+01	1.42870812191E+01	-2.15088810534E+00	1.77611231651E+02	-4.82480226969E+01	-1.20461046210E+02	-5.96429139214E+00	-3.74260822049E-01
4.10956772975E+05	-1.47639385889E+01	1.07461029258E+01	-2.19749975035E+00	1.77189754228E+02	-5.98762750352E+01	-9.94145875628E+01	-5.96683155892E+00	-3.03621811765E-01
4.33148127570E+05	-1.43860792001E+01	1.03597822615E+01	-2.20966640204E+00	1.76710728825E+02	-5.29651383410E+01	5.22041483997E+01	-5.98014885238E+00	-2.89281782948E-01
4.55339482165E+05	-1.33097580341E+01	7.75771201934E+00	-2.17372087345E+00	1.76483918153E+02	-6.06438009684E+01	-1.15006532838E+02	-5.96336456302E+00	-3.25874327978E-01
4.77530836760E+05	-1.48881987032E+01	1.28559423371E+01	-2.20142999695E+00	1.76096469549E+02	-4.82273768319E+01	5.49537485853E+01	-5.96191231638E+00	-3.72464665813E-01
4.99722191355E+05	-1.40658114822E+01	6.94791826522E+00	-2.21267114326E+00	1.76204433418E+02	-5.85055771788E+01	3.68159456535E+01	-5.96101627534E+00	-2.91545523363E-01
5.21913545950E+05	-1.40152915320E+01	1.14114195301E+01	-2.17720554675E+00	1.75719195908E+02	-5.28485971898E+01	1.79021637579E+02	-5.95925380710E+00	-3.04115860577E-01
5.44104900545E+05	-1.28877102220E+01	3.50155878606E+00	-2.16777476646E+00	1.75466758915E+02	-5.25916664557E+01	-1.05676175956E+01	-5.96165669408E+00	-3.40764105422E-01
5.66296255139E+05	-1.33379470080E+01	1.89589773841E+01	-2.18275740016E+00	1.75237186429E+02	-4.57183059302E+01	-3.99184503778E+01	-5.96773794705E+00	-3.20769919898E-01
5.88487609734E+05	-1.52458331366E+01	5.14289564629E+00	-2.17391267053E+00	1.75261580398E+02	-5.70296210361E+01	9.54568697468E+01	-5.96302823461E+00	-4.02454301661E-01
6.10678964329E+05	-1.36488609409E+01	9.72034884817E+00	-2.16648752133E+00	1.74852822907E+02	-5.73067499664E+01	-1.69975455190E+02	-5.97036372584E+00	7.71580342433E-02
6.32870318924E+05	-1.57881116481E+01	1.15081726046E+01	-2.20440765255E+00	1.74765963606E+02	-5.25611401868E+01	1.39431909653E+02	-5.96389169368E+00	-1.13168354487E-01
6.55061673519E+05	-1.47035842459E+01	1.02744113434E+01	-2.17954079724E+00	1.74560868189E+02	-5.49947966319E+01	-1.47234967571E+02	-5.96342318988E+00	-3.20630084370E-01
6.77253028114E+05	-1.34432483755E+01	7.05724316996E+00	-2.25766776087E+00	1.74203311589E+02	-4.98928161363E+01	-1.57972804760E+02	-5.95613173110E+00	-6.16028112499E-01
6.99444382709E+05	-1.34207282815E+01	1.92412699454E+01	-2.24898759303E+00	1.74134212949E+02	-5.20022671831E+01	6.47839815631E+01	-5.96317184542E+00	-3.89793657831E-01
7.21635737304E+05	-1.25544166179E+01	9.87408637234E+00	-2.17759898540E+00	1.73717157547E+02	-5.47610383716E+01	-1.00835620740E+02	-5.95374432904E+00	-4.10387590383E-01
7.43827091899E+05	-1.65692996502E+01	5.64224707750E+00	-2.25911327101E+00	1.73622983512E+02	-5.25537657243E+01	1.21520529320E+02	-5.96536863547E+00	-4.37241925925E-01
7.66018446494E+05	-1.41438846141E+01	-8.90070389592E-01	-2.19492977134E+00	1.73219770942E+02	-5.12378775788E+01	-1.58002068234E+02	-5.96338242414E+00	-4.37546378558E-01
7.88209801089E+05	-1.47074274858E+01	-4.90486449995E+00	-2.22815166800E+00	1.72900175095E+02	-5.84554534056E+01	-1.49114442886E+02	-5.96773629656E+00	-4.79470405213E-01
8.10401155684E+05	-1.48197438970E+01	5.80219804856E+00	-2.25610846537E+00	1.72872768557E+02	-4.91839868898E+01	-1.21530757688E+02	-5.96289074260E+00	-4.26927349573E-01
8.32592510279E+05	-1.39988734061E+01	1.72693939616E+01	-2.19764228181E+00	1.72643980572E+02	-5.43859297091E+01	-4.39037930172E+01	-5.96563097928E+00	-4.43171874675E-01
8.54783864874E+05	-1.57816845219E+01	7.08908498230E+00	-2.19108033136E+00	1.72427831661E+02	-5.11879889116E+01	-1.69556888558E+02	-5.96477227181E+00	-4.72913559396E-01
8.76975219469E+05	-1.32270361034E+01	7.56851792699E+00	-2.23249580412E+00	1.72379300231E+02	-4.95599275221E+01	-1.40999261699E+02	-5.97560526114E+00	-4.59396297588E-01
8.99166574064E+05	-1.48317117594E+01	-5.07855813180E+00	-2.18436636628E+00	1.72165373732E+02	-5.86906837084E+01	1.00967139087E+02	-5.95831939978E+00	-4.16171314055E-01
9.21357928659E+05	-1.50569127935E+01	1.08851655177E+01	-2.23315366416E+00	1.71858894303E+02	-5.22351333660E+01	1.53932175235E+02	-5.96762793921E+00	-4.98012370089E-01
9.43549283254E+05	-1.51748339128E+01	9.73553465419E+00	-2.24482660236E+00	1.71357603478E+02	-5.04309195991E+01	-1.41678236530E+02	-5.96535996554E+00	-4.62505650148E-01
9.65740637849E+05	-1.53593512525E+01	-1.37496553287E+00	-2.24543706300E+00	1.71108317768E+02	-5.95727090640E+01	1.22986515601E+02	-5.96223697783E+00	-4.45884697109E-01
9.87931992444E+05	-1.45397523473E+01	1.98395180666E+00	-2.20483586386E+00	1.71060145061E+02	-6.13327669767E+01	-1.67986350851E+02	-5.97089483658E+00	-5.74781445338E-01
1.01012334704E+06	-1.47125070622E+01	8.29188400640E+00	-2.24624116129E+00	1.70896563049E+02	-5.07223412798E+01	-1.56216518649E+02	-5.95547805476E+00	-5.46652823053E-01
1.03231470163E+06	-1.37671929490E+01	2.77262876835E+00	-2.25123329800E+00	1.70224335772E+02	-5.88718744874E+01	-3.31803689962E+01	-5.96251452867E+00	-6.03066734390E-01
1.05450605623E+06	-1.64220522421E+01	9.39352127736E+00	-2.25550035987E+00	1.70643846179E+02	-5.59196765013E+01	1.38398741223E+02	-5.95436309902E+00	-6.13866892059E-01
1.07669741082E+06	-1.48523347364E+01	-4.38008994896E+00	-2.25687049528E+00	1.70242616644E+02	-5.00173676654E+01	1.77143286164E+01	-5.96852455025E+00	-5.32581361531E-01
1.09888876542E+06	-1.57158840877E+01	-5.96111302244E-01	-2.27925524523E+00	1.70127489793E+02	-4.87048648786E+01	7.91470300072E+01	-5.95781467480E+00	-5.68861085052E-01
1.12108012001E+06	-1.35179580883E+01	1.68270841155E+00	-2.29900706101E+00	1.69638883400E+02	-4.83025891193E+01	1.43860980299E+02	-5.96545019043E+00	-6.03462380165E-01
1.14327147461E+06	-1.32344175956E+01	2.67796168815E+00	-2.25357905707E+00	1.69802052230E+02	-4.33440602877E+01	2.93013171104E+01	-5.97526363339E+00	-5.89194205704E-01
1.16546282920E+06	-1.40726082834E+01	1.56837352213E+01	-2.24261899618E+00	1.69439875098E+02	-5.10946862718E+01	6.57761737127E+01	-5.96849303290E+00	-5.78250425840E-01
1.18765418380E+06	-1.25935699712E+01	-8.63543905454E+00	-2.20008841703E+00	1.69279441682E+02	-5.14113380517E+01	1.77312122034E+02	-5.96457071786E+00	-6.33163813315E-01
1.20984553839E+06	-1.46751762621E+01	1.54413888321E+00	-2.28887410861E+00	1.68858246360E+02	-5.12363281971E+01	1.60596094166E+02	-5.97044433634E+00	-6.67907001571E-01
1.23203689299E+06	-1.42328477715E+01	7.42039369464E+00	-2.23851516119E+00	1.68584503427E+02	-4.92326592227E+01	-2.60219659392E+01	-5.96398849084E+00	-3.84853500717E-01
1.25422824758E+06	-1.29184791167E+01	5.67639744095E+00	-2.24394768963E+00	1.68872627067E+02	-4.79905744030E+01	-1.16615582969E+02	-5.96566013544E+00	-5.90000044907E-01
1.27641960218E+06	-1.42019703112E+01	8.04730944921E+00	-2.20948271994E+00	1.68420249865E+02	-6.40581752397E+01	-4.03567499280E+01	-5.96876004481E+00	-5.82645893750E-01
1.29861095677E+06	-1.28867531572E+01	3.23467634692E+00	-2.25351378359E+00	1.68022899161E+02	-5.46268834608E+01	5.90227528017E+01	-5.96995885949E+00	-6.40129224551E-01
1.32080231137E+06	-1.58080424820E+01	-1.83517659337E+01	-2.22266373061E+00	1.67886842218E+02	-5.48365120556E+01	-9.09800141487E+01	-5.96322450775E+00	-1.03372521809E+00
1.34299366596E+06	-1.34425716246E+01	3.00212772033E+00	-2.27446969359E+00	1.67930420348E+02	-4.98993092870E+01	1.26837478540E+02	-5.95971269875E+00	-7.16912618090E-01
1.36518502056E+06	-1.56866943169E+01	5.10280118016E+00	-2.28395526095E+00	1.67275657161E+02	-5.11217472730E+01	-5.73636418758E+00	-5.96811391072E+00	-6.42880331191E-01
1.38737637515E+06	-1.41808464324E+01	1.79718259784E+00	-2.28737545906E+00	1.67763815722E+02	-6.58996522949E+01	-2.89836764438E-01	-5.96328324659E+00	-6.49210209408E-01
1.40956772975E+06	-1.45915695393E+01	1.23265298993E+01	-2.29363494651E+00	1.67462511650E+02	-4.64881654918E+01	-1.27187045175E+02	-5.95828365956E+00	-6.55426010176E-01
1.43175908434E+06	-1.19828699908E+01	-3.49716948841E-01	-2.28555710244E+00	1.67157996616E+02	-5.33383419781E+01	-1.02031021866E+02	-5.97803859079E+00	-6.56080192347E-01
1.45395043894E+06	-1.39216328706E+01	1.34852805381E+00	-2.19373773740E+00	1.66792291860E+02	-5.43952664581E+01	1.02954074214E+02	-5.97429705942E+00	-6.93977156978E-01
1.47614179353E+06	-1.30612354558E+01	-1.26652973888E+00	-2.24412404731E+00	1.66159603908E+02	-4.62103073503E+01	1.77332484089E+02	-5.97827204937E+00	-7.16110207437E-01
1.49833314813E+06	-1.50052063033E+01	5.04611372720E+00	-2.31454783853E+00	1.66429018968E+02	-4.60742657500E+01	-1.06466088515E+02	-5.96488529040E+00	-7.61115979548E-01
1.52052450272E+06	-1.43600850261E+01	-1.37897451865E+00	-2.32288922879E+00	1.66164997573E+02	-4.84687291502E+01	-1.11486197182E+02	-5.95969488804E+00	-6.98999693319E-01
1.54271585732E+06	-1.34304983763E+01	1.78756959768E+00	-2.29506834792E+00	1.65882576816E+02	-5.37102999500E+01	1.97859494344E+01	-5.96643516426E+00	-7.65432909256E-01
1.56490721191E+06	-1.44113112609E+01	1.84764532903E+00	-2.23851878182E+00	1.65950186552E+02	-5.48974420541E+01	5.58703316876E+01	-5.97142240589E+00	-7.52687585268E-01
1.58709856651E+06	-1.27664226162E+01	2.63600823765E+00	-2.28394373490E+00	1.65662650965E+02	-5.77291866641E+01	1.01429763738E+02	-5.97126546365E+00	-7.78987622068E-01
1.60928992110E+06	-1.30804687053E+01	2.62938159372E+00	-2.28304808928E+00	1.65486297087E+02	-4.76341079452E+01	-1.03179143019E+02	-5.96207462488E+00	-7.16955448107E-01
1.63148127570E+06	-1.34163885401E+01	-1.26779377796E+00	-2.28418364130E+00	1.64838892536E+02	-5.76365307340E+01	-1.18081609717E+02	-5.95751641083E+00	-8.10498503936E-01
1.65367263029E+06	-1.45725309118E+01	1.73736079626E+00	-2.32077039967E+00	1.64755771335E+02	-5.37072850936E+01	-4.07774576160E+01	-5.96576150154E+00	-7.99949140816E-01
1.67586398489E+06	-1.41771967828E+01	5.83457027751E-01	-2.28683440883E+00	1.64338058602E+02	-5.07348163921E+01	-1.20946724197E+02	-5.96896344528E+00	-7.62430258095E-01
1.69805533948E+06	-1.53111661553E+01	3.92994169721E+00	-2.27580160056E+00	1.64449148756E+02	-5.61647441566E+01	-3.86445537741E+01	-5.97326351854E+00	-8.08768043845E-01
1.72024669408E+06	-1.38171111537E+01	2.40741042082E+00	-2.30507667426E+00	1.64399952899E+02	-5.84772119023E+01	8.59607821437E+01	-5.97479686444E+00	-8.18557945410E-01
1.74243804867E+06	-1.64170055906E+01	-1.06752974292E+01	-2.29790646069E+00	1.63783796536E+02	-5.47874694279E+01	-1.02719907195E+02	-5.96803252183E+00	-8.79983102672E-01
1.76462940327E+06	-1.54243364579E+01	-5.10201779612E+00	-2.30174332447E+00	1.64051425127E+02	-5.02816730041E+01	-3.47930813968E+01	-5.97329547503E+00	-8.95255149030E-01
1.78682075786E+06	-8.94939883674E+00	-7.68311699715E-01	-2.31618377769E+00	1.64413510827E+02	-4.54467675310E+01	3.11584057281E+01	-5.97388290354E+00	-9.17571657384E-01
1.80901211246E+06	-1.28105594679E+01	6.48770215285E-01	-2.27304978182E+00	1.63588078658E+02	-4.93852398923E+01	-1.40125582228E+02	-5.96479713257E+00	-8.67282969728E-01
1.83120346705E+06	-1.55117069584E+01	-9.29423501711E+00	-2.33126139759E+00	1.63113528275E+02	-5.38975510708E+01	-1.27463229570E+02	-5.95833700410E+00	-9.26569932730E-01
1.85339482165E+06	-1.27505682393E+01	-1.04774685896E+00	-2.31286086186E+00	1.62958169569E+02	-4.40040541415E+01	-9.75105035467E+01	-5.97775441665E+00	-8.67165278597E-01
1.87558617624E+06	-1.46672837621E+01	-5.08737754084E+00	-2.31796187105E+00	1.62620532761E+02	-4.71309556648E+01	1.71811380015E+02	-5.96758976595E+00	-8.50545231385E-01
1.89777753084E+06	-1.44365980537E+01	6.36049617848E-01	-2.28628255118E+00	1.62482023694E+02	-4.98488716081E+01	-1.59013001366E+02	-5.96149000564E+00	-8.69891141482E-01
1.91996888543E+06	-1.39264686308E+01	3.79082515317E+00	-2.26525716015E+00	1.62382879517E+02	-4.38643858932E+01	2.41818267695E+01	-5.96503505586E+00	-8.89499285814E-01
1.94216024003E+06	-1.51917857258E+01	6.15853438862E+00	-2.33465085681E+00	1.62025332469E+02	-4.81834715040E+01	-5.36154062446E+00	-5.97014903540E+00	-9.46940641000E-01
1.96435159462E+06	-1.47771975662E+01	4.47685704025E+00	-2.33436078011E+00	1.61984260183E+02	-4.55313474338E+01	1.14949585658E+02	-5.96463775677E+00	-9.29254794155E-01
1.98654294922E+06	-1.39698683208E+01	-1.81489786179E+01	-2.30392772922E+00	1.61446007822E+02	-6.09723079945E+01	5.59387122829E+01	-5.96829774444E+00	-9.16756320630E-01
2.00873430381E+06	-1.36326682325E+01	5.36348078958E+00	-2.30453881300E+00	1.61565815509E+02	-4.67635855473E+01	5.84502321003E+01	-5.95882668762E+00	-9.60881967626E-01
2.03092565841E+06	-1.37964682018E+01	-3.84110375100E+00	-2.28447251381E+00	1.61284473027E+02	-6.31320517016E+01	1.53086647033E+02	-5.95544725899E+00	-9.12248319799E-01
2.05311701300E+06	-1.34871691599E+01	-3.81903217740E+00	-2.33695159301E+00	1.61335289346E+02	-4.93532421458E+01	-1.25238961912E+02	-5.96157497142E+00	-9.29752752651E-01
2.07530836760E+06	-1.47566285999E+01	9.22408496373E+00	-2.28361119465E+00	1.60698290226E+02	-4.61028903103E+01	-1.65382356636E+02	-5.97190086476E+00	-1.03444430115E+00
2.09749972219E+06	-1.26796545675E+01	-2.86400838035E+00	-2.29546428025E+00	1.60756887296E+02	-4.50042065495E+01	-9.74381625010E+01	-5.95220787958E+00	-9.70569788089E-01
2.11969107679E+06	-1.42027391029E+01	1.93066107116E+01	-2.37874427408E+00	1.60380244808E+02	-5.50405252401E+01	-1.00524134242E+02	-5.96102657688E+00	-9.72079649273E-01
2.14188243138E+06	-1.42661676499E+01	5.48248517585E+00	-2.39483482205E+00	1.60455989920E+02	-7.28644930142E+01	1.56392892560E+01	-5.96269300891E+00	-1.04415345792E+00
2.16407378598E+06	-1.30291969627E+01	5.95338892200E+00	-2.33669267169E+00	1.60413359385E+02	-5.11096497630E+01	-2.64885958795E+01	-5.96992752510E+00	-9.67735075360E-01
2.18626514057E+06	-1.35764228168E+01	7.98588878213E+00	-2.29445732351E+00	1.60467851558E+02	-4.53690126638E+01	7.72267598178E+01	-5.96788664150E+00	-9.62534438843E-01
2.20845649517E+06	-1.53110446209E+01	1.56597326163E+01	-2.33634804775E+00	1.59758421762E+02	-5.62648843050E+01	-3.22824875923E+01	-5.96783219484E+00	-1.09463488311E+00
2.23064784976E+06	-1.38889482074E+01	-7.47338815241E-01	-2.35202935062E+00	1.59472790592E+02	-5.45357371741E+01	-9.83395563168E+01	-5.97042400508E+00	-1.00076038202E+00
2.25283920436E+06	-1.35077684099E+01	-5.39356933249E+00	-2.32529376892E+00	1.59187179422E+02	-5.80494783743E+01	3.83345779570E+01	-5.96912468458E+00	-1.01187532018E+00
2.27503055895E+06	-1.35146335113E+01	3.65432363161E+00	-2.35154981237E+00	1.59028510468E+02	-5.52757906918E+01	-1.18048282631E+01	-5.97216913899E+00	-1.12529518705E+00
2.29722191355E+06	-1.45227025843E+01	2.80084819055E+00	-2.35201717701E+00	1.59423905990E+02	-4.35295509407E+01	1.03964054021E+02	-5.96467789603E+00	-1.11592324213E+00
2.31941326814E+06	-1.31743045590E+01	-4.96646071452E+00	-2.35276787009E+00	1.58659929003E+02	-5.40081826872E+01	4.05616031593E+01	-5.96244088046E+00	-1.07531123668E+00
2.34160462274E+06	-1.39351262929E+01	2.76104287890E+00	-2.36197519233E+00	1.58477999327E+02	-5.35692712172E+01	1.47312684042E+02	-5.96862298068E+00	-1.06654173757E+00
2.36379597733E+06	-1.54422817761E+01	-1.22095612388E+01	-2.35246961324E+00	1.58131076329E+02	-4.95900514585E+01	1.30522125324E+02	-5.96161108672E+00	-1.10697990879E+00
2.38598733193E+06	-1.50532274793E+01	3.32689665275E+00	-2.33947882795E+00	1.58049095123E+02	-6.09953490655E+01	1.19353407599E+02	-5.96600290233E+00	-1.11659706729E+00
2.40817868652E+06	-1.45813798324E+01	-1.67594455448E+00	-2.38090737478E+00	1.57959582719E+02	-4.70378987016E+01	1.10379107477E+02	-5.96975991405E+00	-1.28258658969E+00
2.43037004112E+06	-1.42713721114E+01	-2.97046919304E+00	-2.37815635800E+00	1.57846415192E+02	-4.57055950087E+01	8.43829562654E+01	-5.97631498081E+00	-1.52758089840E+00
2.45256139571E+06	-1.48749132567E+01	2.44675401550E+00	-2.37193491312E+00	1.57727289029E+02	-5.12827875770E+01	-1.25026852487E+02	-5.96176236588E+00	-1.07307727558E+00
2.47475275031E+06	-1.15082232512E+01	-1.83159045194E+01	-2.33996874653E+00	1.57668812394E+02	-4.92149375555E+01	-2.74582155211E+01	-5.97093687414E+00	-1.09702535549E+00
2.49694410490E+06	-1.40943783245E+01	8.43685226649E-01	-2.32550312766E+00	1.56948387974E+02	-5.42274272135E+01	1.65189472920E+02	-5.96811014794E+00	-1.10305656191E+00
2.51913545950E+06	-1.39083910798E+01	1.50724481867E-01	-2.38021661207E+00	1.57269990997E+02	-4.43927024508E+01	8.27216357858E+01	-5.97085937503E+00	-1.20382694849E+00
2.54132681409E+06	-1.43039135981E+01	5.51616773507E+00	-2.41720724690E+00	1.56681375293E+02	-4.60665812660E+01	-1.92329810526E+01	-5.97677930759E+00	-1.13962361253E+00
2.56351816869E+06	-1.41663551964E+01	9.50465759651E+00	-2.38505746534E+00	1.56529030139E+02	-5.50880208944E+01	-4.57416540307E+01	-5.97886656701E+00	-1.16728948176E+00
2.58570952328E+06	-1.15835855830E+01	8.14413475581E+00	-2.37894240347E+00	1.56488170006E+02	-4.86853060360E+01	-1.38462090518E+02	-5.97486481038E+00	-1.11542999593E+00
2.60790087788E+06	-1.27200251780E+01	3.48657548832E+00	-2.35394725594E+00	1.56057696885E+02	-4.80883287710E+01	-1.18100367180E+02	-5.98014338624E+00	-1.05912642803E+00
2.63009223247E+06	-1.33999624001E+01	-3.87717647457E+00	-2.34821755099E+00	1.55633071689E+02	-5.19579313396E+01	-6.64662042216E+01	-5.97604204701E+00	-8.82433260965E-01
2.65228358707E+06	-1.29030298310E+01	-1.32810705664E+00	-2.38206620893E+00	1.55405394412E+02	-3.87700649375E+01	3.16583205712E+01	-5.97731878182E+00	-1.26347971645E+00
2.67447494166E+06	-1.28587611476E+01	-4.46846079334E-01	-2.40166703798E+00	1.55361698739E+02	-4.77476268377E+01	-1.46026541930E+02	-5.96669952161E+00	-1.27026879142E+00
2.69666629626E+06	-1.38058561271E+01	-1.02472864494E+01	-2.37312616104E+00	1.55212132823E+02	-5.16146068919E+01	1.63736507580E+02	-5.95809320674E+00	-1.21318513743E+00
2.71885765085E+06	-1.42590864687E+01	1.10492738418E+00	-2.41228380278E+00	1.55276708715E+02	-5.14990712006E+01	-2.53879026851E+01	-5.96881818943E+00	-1.24537583331E+00
2.74104900545E+06	-1.44868815552E+01	1.54052279073E+00	-2.41379316759E+00	1.55070715779E+02	-4.74439907523E+01	-6.77137723768E+01	-5.96987474203E+00	-1.26683024894E+00
2.76324036004E+06	-1.36691921505E+01	3.18112660100E+00	-2.41187859632E+00	1.54609094906E+02	-5.24986520196E+01	-1.05667878234E+00	-5.97573791055E+00	-1.26550262368E+00
2.78543171463E+06	-1.52149693299E+01	-8.07356102977E+00	-2.44031239881E+00	1.54160565364E+02	-5.03083712397E+01	-1.62437255165E+02	-5.96960306218E+00	-1.29957911023E+00
2.80762306923E+06	-1.37242565248E+01	-4.48166157300E+00	-2.38211769173E+00	1.54319332313E+02	-5.87525477273E+01	3.86633418193E+01	-5.97084907757E+00	-1.31131435514E+00
2.82981442382E+06	-1.49816815470E+01	-6.51638194531E+00	-2.44688166931E+00	1.53851367486E+02	-5.24478109984E+01	-1.33253368915E+02	-5.95056172272E+00	-1.24991668657E+00
2.85200577842E+06	-1.32002620885E+01	-5.82546687418E+00	-2.40758700914E+00	1.53729015334E+02	-6.36041793557E+01	-9.48259526372E+01	-5.98665319015E+00	-1.31679132225E+00
2.87419713301E+06	-1.50335436599E+01	-5.29143262580E+00	-2.40679038466E+00	1.53710360561E+02	-4.59429752351E+01	4.74048571474E+01	-5.97194610402E+00	-1.24489371122E+00
