# Hz S DB R 50
! CMT, M5065, 19127446, 24.2.4/2
! Date: 11/8/2024 6:29:48 PM
! Data: Format (Calibration Info)
! Freq	S11:dB/Ang(F2)	S21:dB/Ang(F2)	S12:dB/Ang(F2)	S22:dB/Ang(F2)
3.00000000000E+05	-1.34255398081E+01	1.01317477168E+01	-5.29198172923E+00	1.78599627389E+02	-4.63617147918E+01	-1.20986758992E+02	-5.94742586216E+00	-3.27857290958E-01
3.22191354595E+05	-1.44077309425E+01	3.02849288234E+01	-5.32746303756E+00	1.77885420412E+02	-4.83195686588E+01	-1.20205293121E+02	-5.95162242029E+00	-2.77632035518E-01
3.44382709190E+05	-1.41133968812E+01	2.81909865287E+01	-5.27175619374E+00	1.77789658451E+02	-5.11910171419E+01	-1.21950482478E+02	-5.95981942461E+00	-2.09897244390E-01
3.66574063785E+05	-1.50743752418E+01	1.91702498935E+01	-5.26191591177E+00	1.77648308234E+02	-4.68420826448E+01	4.79520836026E+01	-5.94958621864E+00	-2.60127069853E-01
3.88765418380E+05	-1.37999578957E+01	5.96352196162E+00	-5.22342280081E+00	1.77119961209E+02	-4.55201886139E+01	1.13617327050E+02	-5.96180114207E+00	-2.24958639017E-01
4.10956772975E+05	-1.30475233050E+01	6.02622645908E+00	-5.28634376855E+00	1.77263043381E+02	-4.89568634563E+01	-3.77541288976E+01	-5.95154012696E+00	-3.20349882930E-01
4.33148127570E+05	-1.39480146363E+01	1.32945164293E+01	-5.29603994559E+00	1.76956089050E+02	-4.76321933245E+01	1.65538959845E+02	-5.95789251088E+00	-2.89897338950E-01
4.55339482165E+05	-1.40925723586E+01	2.40364971962E+01	-5.30106020576E+00	1.76878927765E+02	-5.18818891118E+01	-6.33431079413E+01	-5.95523383799E+00	-2.96185680594E-01
4.77530836760E+05	-1.33856752720E+01	9.60201287394E+00	-5.27832842090E+00	1.76718789386E+02	-4.57258248358E+01	1.68762160747E+02	-5.96580257096E+00	-2.26591766203E-01
4.99722191355E+05	-1.43284680664E+01	6.29077376262E+00	-5.25303571471E+00	1.76674714321E+02	-5.34996817569E+01	-9.22380811560E+01	-5.95524010496E+00	-3.20084238424E-01
5.21913545950E+05	-1.46093997083E+01	6.56528646488E+00	-5.33066570181E+00	1.76084582267E+02	-4.60021321485E+01	-1.34710691866E+02	-5.95844784996E+00	-2.96235494231E-01
5.44104900545E+05	-1.35011966620E+01	8.96383974922E+00	-5.25664172445E+00	1.75867817027E+02	-5.60400649750E+01	-2.67977230149E+01	-5.95665206906E+00	-3.13742780558E-01
5.66296255139E+05	-1.46404294186E+01	5.14881524990E+00	-5.28076490336E+00	1.75651924785E+02	-4.34229134179E+01	-1.35512107284E+02	-5.95022269266E+00	-2.26459141774E-01
5.88487609734E+05	-1.58541836470E+01	5.49294406404E+00	-5.31209012809E+00	1.75555499701E+02	-6.20936398787E+01	-8.18376255511E+01	-5.95852349304E+00	-3.82089030974E-01
6.10678964329E+05	-1.46603325207E+01	-3.25242019424E+00	-5.32462951181E+00	1.75555999805E+02	-4.54904537069E+01	-1.19913839932E+02	-5.95303360821E+00	1.58816999564E-01
6.32870318924E+05	-1.41263977045E+01	-8.06630906781E-01	-5.29747155235E+00	1.75334983188E+02	-5.15724419392E+01	-4.09204237670E+01	-5.96189480180E+00	-1.01353526700E-01
6.55061673519E+05	-1.39475726351E+01	5.87002910011E+00	-5.22862534055E+00	1.74969180591E+02	-4.80155871033E+01	5.90848439238E+01	-5.96386350525E+00	-3.08152139525E-01
6.77253028114E+05	-1.33618213000E+01	9.98703404236E+00	-5.30652385418E+00	1.74557288865E+02	-5.46240821671E+01	-4.30188403877E+01	-5.95438868183E+00	-6.64053114295E-01
6.99444382709E+05	-1.45862102749E+01	9.43155618177E-01	-5.28854384813E+00	1.74164644015E+02	-5.85933726029E+01	-4.84746897780E+01	-5.95832873966E+00	-3.35083674192E-01
7.21635737304E+05	-1.44770296889E+01	8.64322671585E+00	-5.31945981043E+00	1.73844266717E+02	-3.58842689318E+01	1.25278433613E+02	-5.95539417078E+00	-4.93385509291E-01
7.43827091899E+05	-1.43268854620E+01	1.47452218089E+01	-5.28898874707E+00	1.74190668520E+02	-4.63902814241E+01	-1.02711033280E+02	-5.95809005903E+00	-3.11991684542E-01
7.66018446494E+05	-1.43032009286E+01	1.40750102979E+01	-5.23785905397E+00	1.73794712520E+02	-5.63190153019E+01	-1.42162063958E+02	-5.95430634668E+00	-4.40446718956E-01
7.88209801089E+05	-1.32308059079E+01	1.19553413039E+01	-5.29549772781E+00	1.73698892224E+02	-5.71325885425E+01	1.57632629896E+02	-5.96184263391E+00	-3.65582373293E-01
8.10401155684E+05	-1.60037846475E+01	-3.56481298361E+00	-5.33904267086E+00	1.73357191182E+02	-4.94808857846E+01	1.68392591538E+02	-5.95492032600E+00	-4.34842719410E-01
8.32592510279E+05	-1.50306519833E+01	8.25193519594E+00	-5.38285592442E+00	1.73250597860E+02	-5.30394841427E+01	-1.62569679372E+01	-5.95293787159E+00	-4.46973130679E-01
8.54783864874E+05	-1.51923643499E+01	4.92273475982E+00	-5.28449103545E+00	1.73167570964E+02	-6.27241954543E+01	1.03429617862E+02	-5.95970569506E+00	-4.77718607021E-01
8.76975219469E+05	-1.60299516922E+01	6.04893587128E+00	-5.36201113930E+00	1.72764649559E+02	-5.03111725349E+01	1.41364130387E+02	-5.94933212300E+00	-3.89840585547E-01
8.99166574064E+05	-1.45781949942E+01	8.50621652217E+00	-5.35146178029E+00	1.72835937202E+02	-7.80827618142E+01	1.05095090002E+02	-5.95818987220E+00	-4.69409732918E-01
9.21357928659E+05	-1.31001142650E+01	1.48742296118E+01	-5.32454041460E+00	1.72693132833E+02	-6.19044928208E+01	8.84718224247E+01	-5.96657648433E+00	-5.28291291813E-01
9.43549283254E+05	-1.38878425629E+01	8.50337321472E+00	-5.32648299478E+00	1.72622032177E+02	-4.70502677058E+01	-2.50674987282E+01	-5.95495593628E+00	-4.84599482554E-01
9.65740637849E+05	-1.42618123524E+01	7.13723796278E+00	-5.39695105435E+00	1.72021384831E+02	-5.34545575264E+01	8.67827349460E+01	-5.95572270388E+00	-4.74181536499E-01
9.87931992444E+05	-1.42115418442E+01	1.16234054657E+01	-5.32092300124E+00	1.71949839516E+02	-5.52541738999E+01	-1.19615555388E+02	-5.95686159326E+00	-5.19649211248E-01
1.01012334704E+06	-1.30831617415E+01	9.12359444002E+00	-5.30608835015E+00	1.71493194080E+02	-4.70861944197E+01	-4.12270695497E+01	-5.94648104447E+00	-4.94093347151E-01
1.03231470163E+06	-1.72196796664E+01	-2.83679291089E+00	-5.38388035276E+00	1.71330210024E+02	-5.82980271532E+01	-1.65233514713E+02	-5.96225637497E+00	-4.70391600063E-01
1.05450605623E+06	-1.45475112949E+01	4.44995922163E+00	-5.27245566569E+00	1.71097991509E+02	-5.21408373093E+01	-1.45619928708E+02	-5.95394465984E+00	-5.10511181685E-01
1.07669741082E+06	-1.35260929071E+01	4.06257550284E+00	-5.34683815851E+00	1.71112203578E+02	-6.60440750786E+01	-9.09128080566E+00	-5.95639634202E+00	-5.12714290746E-01
1.09888876542E+06	-1.49294801598E+01	9.63722435551E+00	-5.33078290075E+00	1.70750108069E+02	-4.73530372580E+01	7.37278124414E+01	-5.96213602031E+00	-6.18055031467E-01
1.12108012001E+06	-1.53276105751E+01	4.87742435808E+00	-5.39770616256E+00	1.70333119694E+02	-4.94998405531E+01	6.32131066944E+01	-5.95991094087E+00	-5.31226094477E-01
1.14327147461E+06	-1.54163322279E+01	9.73225661876E+00	-5.33174504624E+00	1.70546011418E+02	-5.32900000788E+01	9.20928905153E+01	-5.96433109364E+00	-6.21788896188E-01
1.16546282920E+06	-1.45599581561E+01	6.18427993616E+00	-5.31309568955E+00	1.70123381408E+02	-6.43510589963E+01	1.08305178107E+01	-5.95520700013E+00	-6.02911121714E-01
1.18765418380E+06	-1.44992138686E+01	1.38951580533E+01	-5.35971675883E+00	1.70093061567E+02	-5.14072624125E+01	1.43914214668E+02	-5.95289318280E+00	-5.99104765853E-01
1.20984553839E+06	-1.17402210544E+01	5.38264389111E+00	-5.30232573309E+00	1.70224211678E+02	-6.03799350371E+01	-7.37714742195E+01	-5.97533245731E+00	-6.39798355507E-01
1.23203689299E+06	-1.49713689967E+01	-5.32138493824E+00	-5.32071755492E+00	1.69811903619E+02	-6.97914417610E+01	-5.65310414873E+01	-5.95524559398E+00	-3.93947924006E-01
1.25422824758E+06	-1.54812879712E+01	6.45492816019E+00	-5.32211649611E+00	1.69303588762E+02	-4.72667452332E+01	-5.70060946070E+01	-5.96624422949E+00	-6.17285314368E-01
1.27641960218E+06	-1.39713006494E+01	-6.41674456964E+00	-5.31497864735E+00	1.69015888005E+02	-5.06327382112E+01	-1.60656052860E+02	-5.95947012597E+00	-5.82677671373E-01
1.29861095677E+06	-1.50608864467E+01	-1.57887024002E+00	-5.31809931390E+00	1.68860759509E+02	-4.60728560862E+01	-9.52150627674E+01	-5.95545014877E+00	-5.95259828608E-01
1.32080231137E+06	-1.72173039149E+01	9.81648515616E+00	-5.32086241865E+00	1.69046771979E+02	-5.83868577671E+01	1.27331598780E+02	-5.94147548837E+00	-1.04592067372E+00
1.34299366596E+06	-1.23568804557E+01	4.77987131003E+00	-5.37080186342E+00	1.68803113723E+02	-5.73581848546E+01	-6.66204774420E+01	-5.96345774900E+00	-7.66293003213E-01
1.36518502056E+06	-1.59949151753E+01	-5.68130970623E+00	-5.33770789711E+00	1.67964501584E+02	-4.83502646971E+01	1.68560404560E+02	-5.95051620597E+00	-6.12003215532E-01
1.38737637515E+06	-1.40455259195E+01	3.06515556134E+00	-5.35333544819E+00	1.68296200080E+02	-5.38017999669E+01	7.51996828735E+01	-5.95431676698E+00	-7.13731467353E-01
1.40956772975E+06	-1.40610915911E+01	1.19440573638E+01	-5.34094802508E+00	1.68153879414E+02	-4.40425603548E+01	8.56997328079E+01	-5.95857666667E+00	-7.04073188630E-01
1.43175908434E+06	-1.40761591158E+01	-2.00355906108E+00	-5.31232734912E+00	1.67945970174E+02	-5.61205264755E+01	-1.45388779941E+02	-5.95620876237E+00	-6.94302804636E-01
1.45395043894E+06	-1.34188237628E+01	9.67575161642E+00	-5.31790473027E+00	1.67763445819E+02	-5.98566353724E+01	-9.90073811226E+01	-5.95218214122E+00	-7.21794724665E-01
1.47614179353E+06	-1.40039120808E+01	5.32967627796E+00	-5.37575447670E+00	1.67479278985E+02	-5.65293239765E+01	4.83064458796E+01	-5.96482378091E+00	-7.13213945141E-01
1.49833314813E+06	-1.41229411088E+01	-6.87814750185E+00	-5.33335627172E+00	1.67400979899E+02	-4.79822224358E+01	6.06418813907E+01	-5.96035789814E+00	-7.34960672178E-01
1.52052450272E+06	-1.58763208436E+01	1.16895628197E+00	-5.33644192884E+00	1.67252155156E+02	-4.63959974032E+01	-1.14273158806E+02	-5.96184490896E+00	-6.75995952225E-01
1.54271585732E+06	-1.35178662104E+01	-1.46508920303E+00	-5.33060163374E+00	1.67013466889E+02	-6.65646342465E+01	9.59311031996E+01	-5.95548437636E+00	-7.22426435672E-01
1.56490721191E+06	-1.21452209730E+01	-1.27220627073E+00	-5.35466674950E+00	1.66594934693E+02	-4.94693216310E+01	1.41746404479E+01	-5.95797139783E+00	-7.00809507429E-01
1.58709856651E+06	-1.39263134994E+01	-6.40072445676E+00	-5.30794671007E+00	1.66918861258E+02	-5.56791643158E+01	-1.17964276104E+01	-5.96134067999E+00	-7.65721027667E-01
1.60928992110E+06	-1.48019439017E+01	8.07539621061E+00	-5.34654325966E+00	1.66340032610E+02	-6.31952419099E+01	-1.36455029767E+02	-5.96127455836E+00	-7.39552111512E-01
1.63148127570E+06	-1.37314741384E+01	1.43109760758E+01	-5.37869259236E+00	1.66594791355E+02	-4.79243024796E+01	7.26436584272E+01	-5.95222973119E+00	-7.50881548472E-01
1.65367263029E+06	-1.57903791300E+01	9.27843807783E+00	-5.43328177836E+00	1.66177556419E+02	-5.22130707272E+01	1.58969457840E+02	-5.96098639003E+00	-8.10846890804E-01
1.67586398489E+06	-1.77289500414E+01	-3.30660573584E+00	-5.32933205998E+00	1.65744035225E+02	-5.34654844849E+01	-9.02590115077E+00	-5.96140487225E+00	-8.19220621881E-01
1.69805533948E+06	-1.47799588790E+01	-1.34859970811E+00	-5.40122110835E+00	1.65535104868E+02	-4.95207555196E+01	3.63142423338E+01	-5.95405964183E+00	-7.77395897208E-01
1.72024669408E+06	-1.45516685873E+01	2.48504518671E+00	-5.40109280315E+00	1.65151673068E+02	-4.76374229264E+01	8.53374991400E+01	-5.94903334958E+00	-7.72410779325E-01
1.74243804867E+06	-1.35984402052E+01	7.57058836591E+00	-5.36593914719E+00	1.65241809831E+02	-5.23365267694E+01	1.14430692293E+02	-5.96000924999E+00	-8.06337264201E-01
1.76462940327E+06	-1.42768988216E+01	8.94612414156E+00	-5.34439335099E+00	1.65254026086E+02	-4.26896498045E+01	1.41637716624E+02	-5.95534351347E+00	-8.65845784339E-01
1.78682075786E+06	-1.42943310053E+01	3.67399000262E+01	-5.39361891862E+00	1.65093843782E+02	-4.95977301616E+01	1.06353325312E+02	-5.96127395260E+00	-9.01474345206E-01
1.80901211246E+06	-1.40434641199E+01	1.28364889190E+01	-5.33439277968E+00	1.64461458470E+02	-5.67455223225E+01	1.79861953660E+02	-5.95918351963E+00	-8.41171226479E-01
1.83120346705E+06	-1.48904637219E+01	-6.67833181359E+00	-5.39202088745E+00	1.64539372108E+02	-4.62479325807E+01	-8.38955877548E+01	-5.96382120377E+00	-9.09261927083E-01
1.85339482165E+06	-1.46285350364E+01	6.84438593008E+00	-5.40137572673E+00	1.64116007021E+02	-5.22826457516E+01	1.07043847113E+02	-5.95568083814E+00	-8.95957191281E-01
1.87558617624E+06	-1.33715669291E+01	6.52689349428E+00	-5.34626956011E+00	1.64015656160E+02	-5.26400812612E+01	9.89223037969E+01	-5.95446952074E+00	-9.04438920229E-01
1.89777753084E+06	-1.53319535068E+01	-1.15197272048E+01	-5.35821428788E+00	1.63406065940E+02	-5.45647185224E+01	4.26593235811E+01	-5.94891426127E+00	-9.02410162509E-01
1.91996888543E+06	-1.45953681056E+01	1.37317047220E+00	-5.45168999356E+00	1.63315261113E+02	-5.06292639955E+01	6.28148833051E+00	-5.96372656886E+00	-9.54050657764E-01
1.94216024003E+06	-1.56630151384E+01	-2.26686341560E+00	-5.36543343068E+00	1.63257625750E+02	-7.29281820658E+01	6.87913433555E+01	-5.96652319737E+00	-9.00402360700E-01
1.96435159462E+06	-1.32440992484E+01	1.06223442348E+00	-5.40599425169E+00	1.63250876457E+02	-5.22119389307E+01	-1.40667624811E+02	-5.96609814960E+00	-9.18485934359E-01
1.98654294922E+06	-1.37202054680E+01	-7.08688405788E+00	-5.44527046501E+00	1.63253175626E+02	-4.84757326285E+01	-1.14786202349E+02	-5.97096505800E+00	-9.37611609512E-01
2.00873430381E+06	-1.21341540340E+01	-5.40717524223E+00	-5.44519740483E+00	1.62970389717E+02	-4.71208582994E+01	-8.09332067337E+01	-5.95903701872E+00	-9.07928703356E-01
2.03092565841E+06	-1.88108307636E+01	8.98799173938E+00	-5.40937465046E+00	1.62397149266E+02	-4.86347556437E+01	6.19093218934E+01	-5.96462312676E+00	-1.01532184910E+00
2.05311701300E+06	-1.46469676047E+01	-5.38698248581E-02	-5.34892047717E+00	1.62405242755E+02	-5.47731907942E+01	1.32120292877E+02	-5.96248933821E+00	-9.59369558756E-01
2.07530836760E+06	-1.44666943889E+01	2.17672015200E+00	-5.47088143073E+00	1.62605727872E+02	-5.19981127688E+01	-1.66086316957E+02	-5.95894194784E+00	-9.99380427661E-01
2.09749972219E+06	-1.45717655485E+01	2.64987683624E+00	-5.39139586366E+00	1.61931668185E+02	-4.84183026085E+01	1.26942099709E+02	-5.95347976959E+00	-9.44278635163E-01
2.11969107679E+06	-1.57466648792E+01	1.07728876913E+00	-5.46440951528E+00	1.61951714320E+02	-4.40940550525E+01	1.37086572684E+02	-5.95490936184E+00	-9.99450810981E-01
2.14188243138E+06	-1.87184330657E+01	1.52237744387E+01	-5.38271964447E+00	1.61849039876E+02	-5.82915567249E+01	5.33207790166E+01	-5.96479216000E+00	-9.85319302950E-01
2.16407378598E+06	-1.37221188090E+01	7.08326418079E+00	-5.44293603252E+00	1.61738337237E+02	-5.26593491127E+01	1.77362927110E+02	-5.94961092614E+00	-9.34570277255E-01
2.18626514057E+06	-1.29331268332E+01	2.15515835201E+00	-5.37658668369E+00	1.61477036865E+02	-5.27336869819E+01	3.76669845377E+01	-5.95506124735E+00	-1.03036897017E+00
2.20845649517E+06	-1.47421026948E+01	4.48853686096E+00	-5.43452483567E+00	1.60995934154E+02	-5.29472970367E+01	-9.19430686144E+01	-5.95449837535E+00	-1.02442337252E+00
2.23064784976E+06	-1.35835320365E+01	6.03367555698E+00	-5.35933790256E+00	1.61193308376E+02	-4.17359410568E+01	-8.69128583013E+01	-5.96574534657E+00	-1.00603522664E+00
2.25283920436E+06	-2.51645745657E+01	-2.99836737417E+01	-5.42874827399E+00	1.60339198885E+02	-4.67222845918E+01	-1.76597190611E+02	-5.95239184182E+00	-1.00707215200E+00
2.27503055895E+06	-1.50558254574E+01	1.49096079658E+01	-5.44524153684E+00	1.61021852596E+02	-5.39586760530E+01	1.67363856166E+02	-5.96059159404E+00	-1.06771556652E+00
2.29722191355E+06	-1.49482811257E+01	3.50905926520E+00	-5.44487873117E+00	1.60529564274E+02	-5.96862553109E+01	8.39157893747E+00	-5.95747042777E+00	-9.79042419367E-01
2.31941326814E+06	-1.42448051824E+01	-1.12015326768E+01	-5.45977261567E+00	1.60346757696E+02	-5.40840973590E+01	1.53303116154E+02	-5.97219864676E+00	-1.03040143366E+00
2.34160462274E+06	-1.35076485957E+01	9.88364904666E+00	-5.51100369612E+00	1.60453865834E+02	-3.73234387332E+01	5.95185521437E+01	-5.94962287713E+00	-1.16724444856E+00
2.36379597733E+06	-1.65437915412E+01	-2.51584301655E+01	-5.43841842600E+00	1.59431545662E+02	-5.46073991809E+01	-9.36402191604E+01	-5.95089877356E+00	-1.03929507163E+00
2.38598733193E+06	-1.46889400475E+01	1.05526479556E+01	-5.47310732486E+00	1.60262449567E+02	-4.99178829750E+01	-6.20363245168E+01	-5.94876121570E+00	-1.06739834530E+00
2.40817868652E+06	-1.47374340063E+01	-2.67586163860E+00	-5.48610973274E+00	1.59467067222E+02	-5.36856543659E+01	-7.03875013763E+01	-5.96067151805E+00	-1.25853866585E+00
2.43037004112E+06	-1.36552361132E+01	3.05491912997E+00	-5.41067810410E+00	1.59269560613E+02	-4.40138922077E+01	1.02483522429E+02	-5.96698383197E+00	-1.48731878632E+00
2.45256139571E+06	-1.48118644469E+01	-1.07788925838E+01	-5.43946055226E+00	1.58963764437E+02	-3.43937731354E+01	1.24605008567E+02	-5.96000900266E+00	-1.10803200231E+00
2.47475275031E+06	-1.60513716128E+01	-6.99268018850E+00	-5.47527219136E+00	1.58677097564E+02	-4.95176872777E+01	4.14699818653E+01	-5.96742712670E+00	-1.07989740760E+00
2.49694410490E+06	-1.38726366948E+01	-8.47650045230E+00	-5.41597857762E+00	1.58934790949E+02	-5.35649820095E+01	-1.05903335076E+02	-5.95848907983E+00	-1.16936933959E+00
2.51913545950E+06	-1.25070971863E+01	-7.00885093709E+00	-5.37746977205E+00	1.59021175273E+02	-5.42858241663E+01	7.98574573118E+01	-5.97001342350E+00	-1.10012003615E+00
2.54132681409E+06	-1.50853632189E+01	-1.37083948837E-01	-5.43189147247E+00	1.58516083180E+02	-6.41402055654E+01	6.06973028749E+01	-5.97760495290E+00	-1.17313330001E+00
2.56351816869E+06	-1.40783199667E+01	-3.05231222171E+00	-5.42406873659E+00	1.58502679850E+02	-4.88954120688E+01	-8.30602016471E+01	-5.96272064127E+00	-1.10458849910E+00
2.58570952328E+06	-1.40941645262E+01	2.59646143742E-02	-5.42699180082E+00	1.57572612724E+02	-4.71074223106E+01	-3.97448441175E+01	-5.97158845103E+00	-1.12611796395E+00
2.60790087788E+06	-1.48229427661E+01	1.38709333865E+01	-5.41259539771E+00	1.57866944428E+02	-5.64749460863E+01	1.56949338814E+02	-5.95607109079E+00	-1.11933530114E+00
2.63009223247E+06	-1.42399008423E+01	6.23548040037E+00	-5.41004511225E+00	1.57641618328E+02	-5.33143284118E+01	-9.70018028707E+01	-5.96595012991E+00	-8.06686202602E-01
2.65228358707E+06	-1.37842589576E+01	-2.13811610692E+00	-5.45167126138E+00	1.57629772421E+02	-4.49055139191E+01	1.50832230614E+02	-5.97218124980E+00	-1.22662573707E+00
2.67447494166E+06	-1.33308737820E+01	4.35743702684E+00	-5.49840780431E+00	1.57242060474E+02	-6.52049806344E+01	1.31620937136E+02	-5.97146487743E+00	-1.25127434878E+00
2.69666629626E+06	-1.53584202487E+01	-8.50631642768E+00	-5.46497848053E+00	1.57332372198E+02	-4.90208897216E+01	8.18206077992E+01	-5.96310326554E+00	-1.31455679324E+00
2.71885765085E+06	-1.67705471728E+01	-1.10758510233E+01	-5.46636928728E+00	1.56677816132E+02	-5.89556405316E+01	6.81314930088E+01	-5.96065667928E+00	-1.23351033441E+00
2.74104900545E+06	-1.42216569233E+01	3.66782492492E+00	-5.48882654004E+00	1.56894476299E+02	-5.67983068446E+01	-2.59160220761E+01	-5.95649808699E+00	-1.27871483084E+00
2.76324036004E+06	-1.31758383389E+01	6.60488263568E+00	-5.51456067140E+00	1.56651068964E+02	-6.76541484103E+01	-1.56319357258E+01	-5.96610792596E+00	-1.25061474149E+00
2.78543171463E+06	-1.42977739470E+01	2.37997088260E+00	-5.47034931046E+00	1.56285445118E+02	-5.12860465968E+01	7.07074201684E+01	-5.95434010700E+00	-1.26267965569E+00
2.80762306923E+06	-1.45186033257E+01	-2.61386425395E+00	-5.52690827701E+00	1.56078993418E+02	-4.37447085846E+01	1.93831620638E+01	-5.96264913810E+00	-1.22148576136E+00
2.82981442382E+06	-1.33785961836E+01	2.67370679079E+00	-5.57660356314E+00	1.56105071344E+02	-5.32609643211E+01	1.22255691562E+02	-5.96001195809E+00	-1.32781853253E+00
2.85200577842E+06	-1.40993001475E+01	2.24685369074E+00	-5.53750786971E+00	1.56078366675E+02	-4.96840608578E+01	-1.33863284038E+02	-5.96117456043E+00	-1.28360055436E+00
2.87419713301E+06	-1.51156139970E+01	7.65719976658E+00	-5.54513219440E+00	1.55414516894E+02	-4.80610979202E+01	5.71224965096E+00	-5.96767746164E+00	-1.29277790319E+00
