# Hz S DB R 50
! CMT, M5065, 19127446, 24.2.4/2
! Date: 11/8/2024 6:41:17 PM
! Data: Format (Calibration Info)
! Freq	S11:dB/Ang(F2)	S21:dB/Ang(F2)	S12:dB/Ang(F2)	S22:dB/Ang(F2)
3.00000000000E+05	-1.48290020794E+01	1.14950378227E+01	1.40005998825E+00	1.78575478132E+02	-4.58578207913E+01	-6.15919363032E+01	-5.96955440237E+00	-2.38508064645E-01
3.22191354595E+05	-1.33268805226E+01	1.74100525728E+01	1.41398791837E+00	1.78049582394E+02	-5.83561970754E+01	3.53135326510E+01	-5.96196794218E+00	-2.44736542015E-01
3.44382709190E+05	-1.35873307477E+01	1.66148283001E+01	1.37620499730E+00	1.77851580674E+02	-5.09982183136E+01	2.20404725964E+01	-5.96780662966E+00	-3.13648196301E-01
3.66574063785E+05	-1.39554227394E+01	2.05287785946E+01	1.38669419363E+00	1.77360976464E+02	-5.25580974016E+01	-4.66358423759E+01	-5.97269490618E+00	-2.42707452334E-01
3.88765418380E+05	-1.26664199867E+01	2.12758166511E+01	1.37462401835E+00	1.77292043735E+02	-5.46612725505E+01	-1.34566494600E+02	-5.95716260656E+00	-3.48107012953E-01
4.10956772975E+05	-1.48741430091E+01	1.30606659183E+01	1.38588100032E+00	1.76710195536E+02	-4.54992889322E+01	1.47683373403E+02	-5.97555920044E+00	-2.47089207211E-01
4.33148127570E+05	-1.44882331448E+01	9.06771832067E+00	1.36065373104E+00	1.76524384051E+02	-5.66706970694E+01	7.86567353362E+01	-5.97386475025E+00	-2.61918048015E-01
4.55339482165E+05	-1.47546337960E+01	2.40605752598E-01	1.35804943657E+00	1.76029077137E+02	-4.61073226694E+01	8.33220586814E+01	-5.96614244229E+00	-3.36645617258E-01
4.77530836760E+05	-1.27817566233E+01	1.60588736513E+01	1.36334058671E+00	1.76051905871E+02	-5.97504413658E+01	-4.48630197819E+01	-5.96734523023E+00	-2.37583047836E-01
4.99722191355E+05	-1.30988975021E+01	1.16902006890E+01	1.36555424276E+00	1.75453949997E+02	-5.27852084751E+01	-1.28026238916E+02	-5.96838440458E+00	-3.04189665684E-01
5.21913545950E+05	-1.48134386552E+01	1.83739199509E+01	1.34188434043E+00	1.75310180914E+02	-5.25500520268E+01	1.10293421861E+02	-5.96122109435E+00	-2.86935179558E-01
5.44104900545E+05	-1.35979200540E+01	1.57181892015E+01	1.38669039041E+00	1.74920689447E+02	-4.66609644714E+01	-1.07810621964E+02	-5.97278684471E+00	-3.17247193206E-01
5.66296255139E+05	-1.26269576234E+01	7.76409338592E+00	1.37661086570E+00	1.74811591905E+02	-4.31625943796E+01	9.43002761303E+01	-5.97746633595E+00	-3.31812113809E-01
5.88487609734E+05	-1.53371123904E+01	1.26464769535E+01	1.36090861907E+00	1.74557408346E+02	-5.05806260616E+01	9.02331926754E+00	-5.96266849220E+00	-3.29831031940E-01
6.10678964329E+05	-1.22564615634E+01	7.56802532981E+00	1.37536827481E+00	1.74247946124E+02	-5.75509211672E+01	2.92652448021E+01	-5.97591950696E+00	5.99166747652E-02
6.32870318924E+05	-1.34869165125E+01	2.08455957924E+01	1.35253317964E+00	1.73988852468E+02	-4.87737361093E+01	-1.60374503725E+02	-5.98137977977E+00	-1.38360606938E-01
6.55061673519E+05	-1.45320479035E+01	1.05985541024E+01	1.34714361078E+00	1.73625921123E+02	-5.05691338373E+01	3.31099405084E+01	-5.97176312509E+00	-2.69845823510E-01
6.77253028114E+05	-1.35677681544E+01	-3.67622371726E-01	1.39617181814E+00	1.73384411513E+02	-4.54424326136E+01	-9.72671743591E+01	-5.96965775384E+00	-6.02099215320E-01
6.99444382709E+05	-1.40442417945E+01	1.01001707107E+01	1.36229639501E+00	1.73418164986E+02	-4.79013668432E+01	-1.17673488693E+02	-5.96645514613E+00	-3.51517254151E-01
7.21635737304E+05	-1.31477177726E+01	1.91710193203E+01	1.40097018213E+00	1.72761092551E+02	-4.67049675566E+01	-5.22626508841E+01	-5.97391546336E+00	-3.75228290485E-01
7.43827091899E+05	-1.49974502741E+01	1.77137525837E+01	1.33374240773E+00	1.72644549880E+02	-5.41486831148E+01	1.74819377652E+02	-5.96734585364E+00	-3.88580542801E-01
7.66018446494E+05	-1.34429169835E+01	8.22862380077E+00	1.34653923634E+00	1.72669687074E+02	-6.62712810014E+01	-8.72036107719E+00	-5.96085987915E+00	-4.73660750594E-01
7.88209801089E+05	-1.38168214322E+01	1.05030839880E+00	1.36168654696E+00	1.72365512313E+02	-4.33182163700E+01	1.63134077204E+01	-5.97210243084E+00	-4.59416565433E-01
8.10401155684E+05	-1.38074190786E+01	3.20047270604E+00	1.34055768734E+00	1.71788054039E+02	-5.61955430268E+01	4.65328733627E+01	-5.97012667701E+00	-4.77611667975E-01
8.32592510279E+05	-1.55032628941E+01	1.25708163854E+01	1.32213210652E+00	1.71836725852E+02	-5.02705514240E+01	4.52409913988E+01	-5.97070097773E+00	-4.67629184184E-01
8.54783864874E+05	-1.36084952306E+01	1.39238823921E+01	1.36207623525E+00	1.71490223199E+02	-5.50302965669E+01	7.24761167515E+01	-5.96292655647E+00	-4.16303783679E-01
8.76975219469E+05	-1.38129936959E+01	-3.55085841352E+00	1.35534826469E+00	1.71255931495E+02	-5.06900954151E+01	1.41783625436E+01	-5.96418970071E+00	-4.38370619025E-01
8.99166574064E+05	-1.34575281441E+01	1.15420741659E+01	1.33855384029E+00	1.71188850166E+02	-4.83214521127E+01	-4.59288171577E+01	-5.97255683543E+00	-4.82753519681E-01
9.21357928659E+05	-1.42651949276E+01	-8.02963156913E+00	1.34281570803E+00	1.70547813666E+02	-5.25720024909E+01	-5.84628874827E+00	-5.96772861290E+00	-4.72458501634E-01
9.43549283254E+05	-1.46283513176E+01	7.14240656093E-01	1.33089264620E+00	1.70371928070E+02	-5.55317940783E+01	-9.88253160550E+01	-5.96919740623E+00	-4.77684179940E-01
9.65740637849E+05	-1.44776224459E+01	4.29169615265E+00	1.36852586335E+00	1.70183871151E+02	-5.85183549206E+01	9.32790812669E+01	-5.97253291759E+00	-4.75089874190E-01
9.87931992444E+05	-1.34232520493E+01	3.59497171832E+00	1.33321605234E+00	1.70023987720E+02	-5.21444732147E+01	1.53629836935E+02	-5.96923914929E+00	-5.22822186613E-01
1.01012334704E+06	-1.38544877175E+01	8.90082258960E+00	1.33123659727E+00	1.69868515613E+02	-5.93764079430E+01	-2.53659222411E+00	-5.96761496701E+00	-5.09167602872E-01
1.03231470163E+06	-1.56000040637E+01	9.47422613258E-01	1.31881286231E+00	1.69534521619E+02	-4.85158993727E+01	1.62567714163E+02	-5.96967103776E+00	-5.32426973972E-01
1.05450605623E+06	-1.38988692152E+01	5.22550911476E+00	1.33680541052E+00	1.69427735378E+02	-5.64000093757E+01	5.98407046666E+01	-5.96671564604E+00	-5.54775631708E-01
1.07669741082E+06	-1.18709160044E+01	-2.70862524957E+00	1.31987712872E+00	1.69038053285E+02	-5.92263242243E+01	-1.23604959624E+02	-5.97521348609E+00	-6.38436246669E-01
1.09888876542E+06	-1.52487281893E+01	1.10072307521E+01	1.30678079586E+00	1.68961325237E+02	-4.84532552204E+01	8.26478098861E+01	-5.96820262474E+00	-5.03564776465E-01
1.12108012001E+06	-1.43505295621E+01	-1.93099855090E-01	1.34816570219E+00	1.68680029195E+02	-4.73108006002E+01	4.00302976376E+01	-5.97060112782E+00	-6.40932292756E-01
1.14327147461E+06	-1.36639154356E+01	5.57303434086E+00	1.34408798843E+00	1.68163414002E+02	-4.68180031828E+01	-6.68099718479E+01	-5.97171205383E+00	-5.80736070549E-01
1.16546282920E+06	-1.50765075608E+01	4.58892748372E+00	1.29041149729E+00	1.68365514677E+02	-4.57452884376E+01	8.53906420707E+01	-5.97755566029E+00	-5.34895747722E-01
1.18765418380E+06	-1.36051670842E+01	-2.62596880913E+00	1.35707446584E+00	1.67938245390E+02	-5.21123026014E+01	1.37886021350E+02	-5.96878255483E+00	-5.73885016923E-01
1.20984553839E+06	-1.32273008518E+01	3.83852087603E+00	1.29249815182E+00	1.67524492808E+02	-5.83965973839E+01	9.62177776803E+01	-5.97946198292E+00	-7.51813583346E-01
1.23203689299E+06	-1.35493977366E+01	2.46672440524E+00	1.32680414301E+00	1.67335558941E+02	-5.63579177023E+01	1.13808794045E+02	-5.97811633272E+00	-3.88289664615E-01
1.25422824758E+06	-1.48297101733E+01	-1.34352030858E+01	1.28132738266E+00	1.67037899992E+02	-4.58254883701E+01	2.75820159483E+01	-5.98276263244E+00	-5.89726268178E-01
1.27641960218E+06	-1.36180862896E+01	1.08326690183E+01	1.29390390430E+00	1.66979045447E+02	-4.44379900787E+01	2.06563460911E+01	-5.97122314339E+00	-6.07035031410E-01
1.29861095677E+06	-1.49339626689E+01	3.80130821736E+00	1.31060584625E+00	1.66768779435E+02	-5.84736094866E+01	-9.40705766961E+01	-5.96949882058E+00	-6.32671758445E-01
1.32080231137E+06	-1.38495243614E+01	-1.06078420912E+00	1.28737443907E+00	1.66596107202E+02	-5.31615858688E+01	-1.77237924664E+02	-5.96495206092E+00	-9.22861246107E-01
1.34299366596E+06	-1.45006090436E+01	9.98580512264E+00	1.32545799926E+00	1.66408414292E+02	-5.15129449197E+01	3.74215896414E+01	-5.96756148953E+00	-7.58639350204E-01
1.36518502056E+06	-1.44275866871E+01	9.00662328295E+00	1.29318753464E+00	1.66008306238E+02	-5.15174774683E+01	-1.57852045284E+02	-5.98013521291E+00	-7.07224565486E-01
1.38737637515E+06	-1.35808399558E+01	-1.80606223784E+00	1.27668051547E+00	1.65813460192E+02	-4.33811350806E+01	6.39522060237E+01	-5.97043924684E+00	-7.11309333538E-01
1.40956772975E+06	-1.94039198386E+01	2.76668119241E+01	1.29689074701E+00	1.65295985801E+02	-5.22100405620E+01	-6.67677646604E+01	-5.97650495249E+00	-5.97490142878E-01
1.43175908434E+06	-1.33745800763E+01	-2.57317194079E+00	1.28663555726E+00	1.65362982954E+02	-5.55888941975E+01	-5.13734146161E-01	-5.96910692719E+00	-7.13559401888E-01
1.45395043894E+06	-1.31833403419E+01	4.11520341442E+00	1.29870162213E+00	1.65243889845E+02	-6.39787561308E+01	2.87423525641E+01	-5.97852411466E+00	-7.12476527712E-01
1.47614179353E+06	-1.33589187616E+01	1.06758458078E+01	1.26848793872E+00	1.64675937016E+02	-4.56777011114E+01	1.03732097318E+00	-5.96294366104E+00	-7.22532735114E-01
1.49833314813E+06	-1.29209532673E+01	1.29497215203E+01	1.27550834111E+00	1.64586562483E+02	-5.34206225902E+01	-5.70880289150E+01	-5.96937428292E+00	-6.95554507254E-01
1.52052450272E+06	-1.23844071927E+01	4.62587591505E+00	1.30487351995E+00	1.64410099382E+02	-4.59899920671E+01	-6.44942967559E+01	-5.97791418297E+00	-6.20821601255E-01
1.54271585732E+06	-1.46728987522E+01	-4.07466413408E-01	1.29688795543E+00	1.63977367093E+02	-5.71536381106E+01	1.03599056797E+02	-5.97130146807E+00	-7.46505817469E-01
1.56490721191E+06	-1.35390140356E+01	-6.10395504948E-01	1.29096294908E+00	1.63692103951E+02	-6.96384761822E+01	3.55597430597E+00	-5.97755401924E+00	-7.64652290752E-01
1.58709856651E+06	-1.29896500663E+01	7.03554115848E+00	1.27032204550E+00	1.63538950592E+02	-5.61252334041E+01	1.64126235044E+02	-5.97190112363E+00	-7.23284710230E-01
1.60928992110E+06	-1.54330403379E+01	3.94729084967E+00	1.25077228822E+00	1.63345606868E+02	-4.38658373365E+01	-1.47106680113E+02	-5.96700912691E+00	-7.97713641527E-01
1.63148127570E+06	-1.48097980097E+01	1.00382285488E+01	1.24823656775E+00	1.63236874811E+02	-5.12600976129E+01	-4.06210559208E+01	-5.97891562459E+00	-7.95059775138E-01
1.65367263029E+06	-1.54825544083E+01	-4.68058020003E+00	1.28357901380E+00	1.62870641364E+02	-4.67283246789E+01	9.06534326635E+01	-5.97714559645E+00	-8.43836768768E-01
1.67586398489E+06	-1.37500146293E+01	1.39249905675E+01	1.26936892513E+00	1.62808955104E+02	-5.38079807382E+01	-1.05690587725E+02	-5.96868170656E+00	-7.80120457741E-01
1.69805533948E+06	-1.48042815253E+01	-3.08175504423E+00	1.28782990782E+00	1.62593023325E+02	-4.52755318674E+01	-3.58751593053E+01	-5.97723848052E+00	-7.72910080767E-01
1.72024669408E+06	-1.43947963455E+01	-3.48377828240E+00	1.28713487068E+00	1.62240446043E+02	-4.24215882206E+01	1.08697328511E+02	-5.97028609860E+00	-8.12135093995E-01
1.74243804867E+06	-1.61740109542E+01	8.11688221771E-01	1.26347499698E+00	1.61718508846E+02	-5.03971095552E+01	6.38234655897E+00	-5.98202216598E+00	-8.44523746287E-01
1.76462940327E+06	-1.13322870861E+01	1.23429810042E+01	1.24257066037E+00	1.61989039269E+02	-4.55913004731E+01	-7.30457079790E+00	-5.97032831460E+00	-8.68513025363E-01
1.78682075786E+06	-1.54483789960E+01	3.09112976779E+00	1.23157363742E+00	1.61494417423E+02	-4.73067677062E+01	1.60285911691E+02	-5.97099692269E+00	-8.83975297846E-01
1.80901211246E+06	-1.47196996253E+01	2.84772101318E+00	1.23543488778E+00	1.61061827284E+02	-4.66402003396E+01	-8.85702913473E+01	-5.97451720872E+00	-8.60124896905E-01
1.83120346705E+06	-1.54097025923E+01	-2.12044836849E+00	1.25950827120E+00	1.61011795855E+02	-3.77177405640E+01	-1.62592036026E+02	-5.96812277979E+00	-7.98463151658E-01
1.85339482165E+06	-1.40998606093E+01	2.39188617232E+00	1.26128761364E+00	1.60704207725E+02	-5.32025068141E+01	-1.11697575180E+02	-5.97416631203E+00	-8.92510933629E-01
1.87558617624E+06	-1.51831120685E+01	2.33303314170E+01	1.25877432022E+00	1.60524736960E+02	-6.28881758730E+01	-1.05066850110E+02	-5.97466894435E+00	-8.47065537277E-01
1.89777753084E+06	-1.28100130761E+01	-4.35766139004E+00	1.24888788244E+00	1.60332543617E+02	-6.84160563497E+01	3.97918942886E+01	-5.97411666098E+00	-9.28977114833E-01
1.91996888543E+06	-1.34543214982E+01	-6.84093498590E+00	1.22895673552E+00	1.60078395488E+02	-5.92278962623E+01	-1.64212024785E+02	-5.97054543399E+00	-8.81542856008E-01
1.94216024003E+06	-1.31586643218E+01	-4.80622213796E+00	1.26990651993E+00	1.59876168655E+02	-4.83490661627E+01	3.12201048220E+01	-5.98263523577E+00	-8.94659768281E-01
1.96435159462E+06	-1.34863865962E+01	1.03168717245E+01	1.20251270054E+00	1.59727826577E+02	-4.75517799253E+01	1.52995114633E+02	-5.96788445439E+00	-9.04184358333E-01
1.98654294922E+06	-9.16606144283E+00	-4.54838706892E+00	1.25598373896E+00	1.59557946674E+02	-5.49653787546E+01	9.84670992112E+01	-5.97544152658E+00	-9.21027236683E-01
2.00873430381E+06	-1.39849925316E+01	3.92651718664E-01	1.21754735653E+00	1.59097649850E+02	-5.19543288243E+01	-1.06109863159E+02	-5.96468657806E+00	-9.59966240202E-01
2.03092565841E+06	-1.27022508060E+01	6.82773802716E-01	1.22975726440E+00	1.58999673082E+02	-5.66064595661E+01	1.49140490091E+02	-5.97044233009E+00	-9.25761961234E-01
2.05311701300E+06	-1.41174087298E+01	4.19481058571E+00	1.22972208122E+00	1.58740201833E+02	-4.50623248372E+01	4.34837327938E+01	-5.97327100447E+00	-9.66372243661E-01
2.07530836760E+06	-1.32964519566E+01	3.81985294343E+00	1.22149369083E+00	1.58366505552E+02	-4.29387559004E+01	8.58031004698E+01	-5.98310933284E+00	-9.31419269007E-01
2.09749972219E+06	-1.44380596655E+01	1.68364363310E+00	1.23523357116E+00	1.58126874294E+02	-5.47231860066E+01	6.30202710829E+01	-5.97552518104E+00	-1.00246724385E+00
2.11969107679E+06	-1.64907821717E+01	-1.36160994324E+01	1.21870500152E+00	1.57786188259E+02	-5.65886430847E+01	-6.81127778540E+01	-5.96538491258E+00	-9.96382020102E-01
2.14188243138E+06	-1.30455340387E+01	-3.55935994744E+00	1.22167183963E+00	1.57757878291E+02	-5.25991718137E+01	-1.62093191365E+02	-5.97292251269E+00	-1.01675817093E+00
2.16407378598E+06	-1.45178070607E+01	-5.57998607836E-01	1.21939155847E+00	1.57712549310E+02	-5.17460540572E+01	1.14988381528E+01	-5.96728130995E+00	-1.05922107885E+00
2.18626514057E+06	-1.55352869040E+01	7.55033814128E+00	1.16168818099E+00	1.57268653746E+02	-3.96236626039E+01	-5.82432562322E+01	-5.98490138351E+00	-1.10063972968E+00
2.20845649517E+06	-1.46139605768E+01	3.12951430827E+00	1.19304093714E+00	1.57046951771E+02	-6.66150837385E+01	1.32746003307E+02	-5.95868656105E+00	-9.89003289343E-01
2.23064784976E+06	-1.58827923872E+01	1.94852251948E+01	1.19169416895E+00	1.56762107834E+02	-5.01201569657E+01	-8.39736747021E+01	-5.96827860759E+00	-1.02688185688E+00
2.25283920436E+06	-1.48583489310E+01	5.33089978885E+00	1.16183328075E+00	1.56600920053E+02	-4.94868940754E+01	4.83996983635E+01	-5.97350870114E+00	-1.07967011670E+00
2.27503055895E+06	-1.44879363468E+01	-8.57072293997E+00	1.19930120651E+00	1.56357880670E+02	-5.75671355223E+01	-7.64934738389E+01	-5.96341391415E+00	-1.06931059894E+00
2.29722191355E+06	-1.51908361959E+01	-3.03405940048E+00	1.19537484260E+00	1.56096803500E+02	-4.32638177396E+01	3.61728198790E+01	-5.97258023902E+00	-1.10748161522E+00
2.31941326814E+06	-1.28077032074E+01	-2.59655503635E-01	1.20530086815E+00	1.55986903046E+02	-5.21542643962E+01	-1.00405297279E+02	-5.96978836916E+00	-1.03057385743E+00
2.34160462274E+06	-1.17108392106E+01	1.76339347648E+01	1.14216813958E+00	1.56072696934E+02	-5.23454308085E+01	9.66644584771E+01	-5.97630579652E+00	-1.08992716114E+00
2.36379597733E+06	-1.38735148797E+01	-9.31732502831E-01	1.17174480245E+00	1.55579827364E+02	-7.83184686855E+01	-6.44033387557E+01	-5.98287465332E+00	-1.09317698314E+00
2.38598733193E+06	-1.33249720467E+01	1.07261030345E+01	1.17613562258E+00	1.55444903733E+02	-6.25263914509E+01	1.19360061056E+02	-5.98364793205E+00	-1.09357445370E+00
2.40817868652E+06	-1.45292890191E+01	-7.94859785625E+00	1.17564487378E+00	1.54819802997E+02	-4.49555198822E+01	-6.47067630053E+01	-5.97117415665E+00	-1.19329127622E+00
2.43037004112E+06	-1.54124421380E+01	-6.75130851736E+00	1.15603401173E+00	1.54937067748E+02	-5.51160462396E+01	1.70848564857E+02	-5.96623799769E+00	-1.54626452244E+00
2.45256139571E+06	-1.39405868975E+01	-8.86137294429E+00	1.22383995339E+00	1.54428654552E+02	-5.21758935861E+01	-1.43221940578E+02	-5.97204067370E+00	-1.10014663142E+00
2.47475275031E+06	-1.49646742003E+01	1.07182076606E+01	1.12395367397E+00	1.54474142797E+02	-5.28398483907E+01	-1.64479700205E+02	-5.97867941087E+00	-1.18520282742E+00
2.49694410490E+06	-1.42330985598E+01	1.65413157082E+01	1.13203873750E+00	1.54145949797E+02	-4.81143688839E+01	-9.77229856680E+01	-5.97533776360E+00	-1.15157707285E+00
2.51913545950E+06	-1.36534318167E+01	8.08961450488E+00	1.15870596212E+00	1.53867480936E+02	-3.80150345684E+01	-1.12692298476E+02	-5.98870606964E+00	-1.10446395790E+00
2.54132681409E+06	-1.49130663002E+01	-5.98171002427E+00	1.15996326664E+00	1.53568921542E+02	-5.06563002468E+01	9.73263791606E+00	-5.99102834178E+00	-1.12689588299E+00
2.56351816869E+06	-1.10148083349E+01	7.96206978876E+00	1.14705213343E+00	1.53327602578E+02	-5.19070844925E+01	1.35122777531E+02	-5.97158226668E+00	-1.18470562958E+00
2.58570952328E+06	-1.36153241172E+01	-3.29917676090E+00	1.15468098715E+00	1.53201308173E+02	-5.68125711750E+01	1.33809629664E+02	-5.98771668129E+00	-1.16482578215E+00
2.60790087788E+06	-1.39950017318E+01	-4.71282497184E-01	1.15705853460E+00	1.52965612558E+02	-5.00931468598E+01	1.06844879937E+02	-5.97387140137E+00	-1.04841947061E+00
2.63009223247E+06	-1.42231949343E+01	-1.10100372403E+01	1.14435900740E+00	1.52795293427E+02	-3.83666181303E+01	-4.45145407764E+01	-5.99574400822E+00	-8.53747299389E-01
2.65228358707E+06	-1.33477562567E+01	5.06816909062E-01	1.13354922096E+00	1.52419579910E+02	-5.37900977928E+01	1.18214461197E+02	-5.97936381451E+00	-1.26988357301E+00
2.67447494166E+06	-1.33870204192E+01	3.88880762542E+00	1.16765926254E+00	1.52329461914E+02	-5.40419505174E+01	-1.32907306731E+02	-5.97225086753E+00	-1.20616474988E+00
2.69666629626E+06	-1.36392651723E+01	-2.29166729938E+00	1.15482148923E+00	1.52093469593E+02	-5.46646873590E+01	-4.38066505585E+01	-5.97323353223E+00	-1.19397357938E+00
2.71885765085E+06	-1.46540064078E+01	9.43144916477E+00	1.12712912229E+00	1.51740637860E+02	-6.23196913276E+01	-1.36862289315E+02	-5.97915968796E+00	-1.24242849283E+00
2.74104900545E+06	-1.44706880196E+01	-1.96554197231E-02	1.16671737322E+00	1.51598569785E+02	-4.97429321091E+01	-1.48128068629E+02	-5.97707096864E+00	-1.33901941267E+00
2.76324036004E+06	-1.38664721265E+01	9.17656327260E-01	1.13277239684E+00	1.51314421498E+02	-4.72402324050E+01	2.50353779300E+01	-5.97785743776E+00	-1.28387831230E+00
2.78543171463E+06	-1.53473190986E+01	-5.12678895023E-01	1.12582086120E+00	1.50795627688E+02	-5.00103806212E+01	-1.69014170662E+02	-5.97559876336E+00	-1.30426585798E+00
2.80762306923E+06	-1.44939179055E+01	-1.74105316055E+00	1.10328059311E+00	1.50899642823E+02	-4.60346741690E+01	4.66962333438E+01	-5.99635706427E+00	-1.34678676194E+00
2.82981442382E+06	-1.47174003264E+01	-1.01178446821E+01	1.14440796738E+00	1.50528300705E+02	-4.98700649940E+01	1.47482526276E+02	-5.95989481593E+00	-1.34996742310E+00
2.85200577842E+06	-1.43835903986E+01	2.29808820069E+00	1.12184172987E+00	1.50237118826E+02	-4.68256168396E+01	9.78762801172E+01	-5.98458815739E+00	-1.47185672389E+00
2.87419713301E+06	-1.40284307182E+01	-6.57135543497E-01	1.09599658964E+00	1.50196505527E+02	-4.78863793749E+01	-4.64829307502E+01	-5.98015549617E+00	-1.33708732393E+00
2.89638848761E+06	-1.24485798859E+01	-3.54022875283E+00	1.12576936827E+00	1.50277381549E+02	-4.43839323536E+01	-1.05921051902E+02	-5.97322805278E+00	-1.35118299256E+00
