# Hz S DB R 50
! CMT, M5065, 19127446, 24.2.4/2
! Date: 11/8/2024 6:46:58 PM
! Data: Format (Calibration Info)
! Freq	S11:dB/Ang(F2)	S21:dB/Ang(F2)	S12:dB/Ang(F2)	S22:dB/Ang(F2)
3.00000000000E+05	-1.34740383521E+01	2.11352374449E+01	8.87294120663E+00	1.78924565529E+02	-4.69347193740E+01	-2.77043272870E+01	-5.97120247750E+00	-3.45385075373E-01
3.22191354595E+05	-1.28706621204E+01	1.81662032757E+01	8.85281139760E+00	1.78125073786E+02	-5.75958636095E+01	-1.21894135951E+02	-5.96529203190E+00	-3.94397548820E-01
3.44382709190E+05	-1.39977062268E+01	1.93385474861E+01	8.84510010509E+00	1.77390270670E+02	-5.49178988831E+01	-9.77244486297E+00	-5.97095257977E+00	-3.82874231691E-01
3.66574063785E+05	-1.39593883843E+01	1.09847812064E+01	8.84173803586E+00	1.77082326088E+02	-4.71192323774E+01	8.62094674897E+01	-5.95684805881E+00	-2.89964107287E-01
3.88765418380E+05	-1.44007062472E+01	1.48914317145E+01	8.81002958091E+00	1.76642183255E+02	-4.73897982497E+01	5.09160227101E+01	-5.98995058587E+00	-1.71360732690E-01
4.10956772975E+05	-1.44405449664E+01	8.08888245033E+00	8.83403791195E+00	1.75833967369E+02	-5.71307183688E+01	1.60812253096E+02	-5.97245347759E+00	-2.85976567510E-01
4.33148127570E+05	-1.72386067533E+01	6.77384189693E+00	8.81608390700E+00	1.75423619893E+02	-4.31870443379E+01	-1.64447716526E+02	-5.95223197362E+00	-3.41769142144E-01
4.55339482165E+05	-1.33737015358E+01	1.35476594606E+01	8.82804561743E+00	1.75093773595E+02	-5.96927284010E+01	-5.64964411163E+01	-5.96514056971E+00	-3.00279331674E-01
4.77530836760E+05	-1.53923468071E+01	1.31164353162E+01	8.84409840290E+00	1.74584331636E+02	-5.95745146436E+01	3.75012614854E+01	-5.96010109258E+00	-4.15027063326E-01
4.99722191355E+05	-1.19743508825E+01	8.86533510082E+00	8.85201886419E+00	1.74096054674E+02	-4.83570661289E+01	3.46138247581E+01	-5.96896992895E+00	-4.01997692163E-01
5.21913545950E+05	-1.48006039326E+01	1.61027228893E+01	8.81573675690E+00	1.73834681551E+02	-4.83988051602E+01	1.39734979408E+02	-5.97364875815E+00	-3.94066758561E-01
5.44104900545E+05	-1.27710375895E+01	9.75220739431E+00	8.81769704206E+00	1.73485510393E+02	-4.81060221343E+01	1.46714597997E+02	-5.95630456588E+00	-3.40938776241E-01
5.66296255139E+05	-1.28234711725E+01	2.37674050018E+01	8.81850427094E+00	1.72989194851E+02	-5.14928310991E+01	-9.46755452254E+01	-5.97451380052E+00	-3.31777103008E-01
5.88487609734E+05	-1.46538252557E+01	1.76718888773E+01	8.80581745537E+00	1.72492995029E+02	-6.04376711936E+01	-5.73711273750E+01	-5.96916671585E+00	-3.86795858005E-01
6.10678964329E+05	-1.39733316557E+01	-1.38098982493E-01	8.81693577536E+00	1.72078846000E+02	-6.18202703898E+01	-1.52917799661E+02	-5.96447725567E+00	1.31177477040E-01
6.32870318924E+05	-1.56303430298E+01	7.06159497654E+00	8.78065072300E+00	1.71582656784E+02	-5.30752647055E+01	-1.19851876081E+02	-5.98309288489E+00	-8.31498397032E-02
6.55061673519E+05	-1.41538704374E+01	1.60130936279E+01	8.77877564663E+00	1.71343659575E+02	-4.72198149967E+01	-1.77126614889E+02	-5.96260286235E+00	-3.16459420017E-01
6.77253028114E+05	-1.47970146147E+01	1.53860526847E+01	8.80978436823E+00	1.70892087190E+02	-4.73690279849E+01	-1.01627894427E+02	-5.98042096947E+00	-6.74743012305E-01
6.99444382709E+05	-1.34334796679E+01	1.14857269898E+01	8.79308587461E+00	1.70421645254E+02	-5.29873286461E+01	1.73778089844E+01	-5.97832209281E+00	-4.05372209229E-01
7.21635737304E+05	-1.31319652296E+01	5.98925642825E+00	8.79222929663E+00	1.70164983865E+02	-5.31571441459E+01	-9.25956581262E+01	-5.97339920041E+00	-3.25854278453E-01
7.43827091899E+05	-1.24452877910E+01	9.76928355205E+00	8.78657092954E+00	1.69852129677E+02	-4.62039777589E+01	-1.35739436507E+02	-5.96840883674E+00	-3.89996553235E-01
7.66018446494E+05	-1.36297070742E+01	1.31826063415E+00	8.77556660425E+00	1.69315559678E+02	-5.28088665109E+01	-1.74028975263E+02	-5.96598617070E+00	-4.25985321886E-01
7.88209801089E+05	-1.48937478764E+01	8.93528094738E+00	8.78349368382E+00	1.68905226193E+02	-7.54353959241E+01	-5.93043319067E+00	-5.97323852852E+00	-3.91661074298E-01
8.10401155684E+05	-1.49868172953E+01	1.87512558568E+01	8.76408678463E+00	1.68821802017E+02	-4.95246531973E+01	-4.24011551010E+01	-5.97399606097E+00	-4.23264899837E-01
8.32592510279E+05	-1.41064582835E+01	6.24634240690E+00	8.76454380592E+00	1.68227242637E+02	-4.85889710853E+01	7.67968408790E+00	-5.97379087647E+00	-5.06708468285E-01
8.54783864874E+05	-1.31146480522E+01	8.27410385736E+00	8.75729489909E+00	1.68041347193E+02	-6.60101779200E+01	-6.75945210808E+01	-5.97134535597E+00	-4.43502638498E-01
8.76975219469E+05	-1.34104799281E+01	3.67039186170E+00	8.77672454009E+00	1.67647829810E+02	-5.28903530019E+01	4.03806773993E+01	-5.98432034457E+00	-4.21018983394E-01
8.99166574064E+05	-1.52775780497E+01	1.14303213677E+01	8.75495601577E+00	1.67255409675E+02	-5.32003739978E+01	-1.66101979280E+02	-5.97208202917E+00	-5.29243753723E-01
9.21357928659E+05	-1.31484456623E+01	6.28861017461E+00	8.77022254172E+00	1.66942289693E+02	-5.21221795577E+01	1.57960601118E+01	-5.97376976023E+00	-5.05701995486E-01
9.43549283254E+05	-1.44768981686E+01	-5.09180896853E+00	8.73153754965E+00	1.66368325725E+02	-6.21658592792E+01	-1.40733449517E+02	-5.96444077722E+00	-5.71021888813E-01
9.65740637849E+05	-1.56380623892E+01	9.85335823367E+00	8.72397804981E+00	1.66211382816E+02	-5.21497993878E+01	-9.83677786328E+01	-5.98095444050E+00	-5.41037788146E-01
9.87931992444E+05	-1.42579292730E+01	3.76322127251E+00	8.73706462823E+00	1.65654957928E+02	-4.95470054037E+01	-3.12864473989E+01	-5.97487927455E+00	-4.80817590225E-01
1.01012334704E+06	-1.33993833467E+01	9.21075612551E+00	8.71487773045E+00	1.65475572985E+02	-5.17800445088E+01	3.31347012496E+01	-5.97269061849E+00	-5.83543450126E-01
1.03231470163E+06	-1.18557561815E+01	9.20058747759E-01	8.74875889136E+00	1.65091443616E+02	-4.97111815470E+01	6.40899171636E+01	-5.96779568054E+00	-5.88109752816E-01
1.05450605623E+06	-1.42877040473E+01	1.27478103395E+01	8.70787762672E+00	1.64795276206E+02	-5.01057590710E+01	1.33648820629E+01	-5.96831074317E+00	-5.27559482564E-01
1.07669741082E+06	-1.41784557906E+01	6.60229866621E+00	8.72281167859E+00	1.64354401982E+02	-4.41267786151E+01	1.76733440813E+02	-5.96739810057E+00	-5.94842333845E-01
1.09888876542E+06	-1.52014362408E+01	-6.46251936828E+00	8.70843521302E+00	1.63998654545E+02	-5.60367069579E+01	-1.36878755791E+02	-5.97139632122E+00	-5.41189595836E-01
1.12108012001E+06	-1.46302287874E+01	1.65133963386E+01	8.71959594130E+00	1.63795829966E+02	-4.80455671047E+01	1.70817053281E+02	-5.97181462884E+00	-5.97226067274E-01
1.14327147461E+06	-1.41221174345E+01	-4.52746196130E+00	8.69337191022E+00	1.63350416005E+02	-5.31782347122E+01	4.40693411091E+01	-5.98048880994E+00	-5.15617751690E-01
1.16546282920E+06	-1.37947057754E+01	3.49975511493E+00	8.69516674711E+00	1.63072512504E+02	-4.70889832145E+01	1.05943424848E+02	-5.96406120893E+00	-5.26666494653E-01
1.18765418380E+06	-1.38725260586E+01	4.97371907354E-01	8.70225897652E+00	1.62625752423E+02	-5.61755425388E+01	-1.10563418949E+02	-5.96379462238E+00	-6.61662810223E-01
1.20984553839E+06	-1.45206088865E+01	2.00486324082E+01	8.65577788130E+00	1.62353677940E+02	-5.00098353610E+01	-2.55436420966E+01	-5.96641640343E+00	-6.95295018284E-01
1.23203689299E+06	-1.34248335127E+01	6.95526746903E+00	8.67523826185E+00	1.62081465081E+02	-5.24302974592E+01	-9.67183544475E+01	-5.97042529154E+00	-3.36894098712E-01
1.25422824758E+06	-1.35268091441E+01	1.58140151034E+00	8.67687346537E+00	1.61687119934E+02	-5.38838404474E+01	-2.59657871615E+01	-5.97864402359E+00	-6.31131962717E-01
1.27641960218E+06	-1.46525165436E+01	6.61189721067E+00	8.67367876113E+00	1.61380042698E+02	-6.04864811467E+01	6.57721531449E+01	-5.97692894331E+00	-6.90172788481E-01
1.29861095677E+06	-1.35840681173E+01	-6.07173668627E-01	8.65982867513E+00	1.60924836494E+02	-5.02351735690E+01	-1.26098160106E+02	-5.96845015557E+00	-6.76395891370E-01
1.32080231137E+06	-1.33439694560E+01	8.70879241643E-02	8.65683361459E+00	1.60611233012E+02	-5.01761228610E+01	1.65774829640E+01	-5.96737853891E+00	-1.06593401199E+00
1.34299366596E+06	-1.28408532439E+01	6.80802538604E+00	8.65600767488E+00	1.60325144442E+02	-5.69953645860E+01	6.35115147723E+01	-5.96903982252E+00	-7.49512158075E-01
1.36518502056E+06	-1.21373922773E+01	8.22276796918E+00	8.65370982445E+00	1.60012055725E+02	-6.56063403952E+01	3.31449877748E+01	-5.97124667831E+00	-7.47569788432E-01
1.38737637515E+06	-1.39385383736E+01	-7.05189078854E+00	8.63771905236E+00	1.59483014485E+02	-4.47285831509E+01	-1.29050193705E+02	-5.96296564306E+00	-6.76875730652E-01
1.40956772975E+06	-1.57532711997E+01	2.84591653774E+00	8.63885896101E+00	1.59249363589E+02	-5.33916373731E+01	8.97092784658E+01	-5.96901151368E+00	-7.37590683266E-01
1.43175908434E+06	-1.39759509304E+01	5.84669979647E+00	8.63072149239E+00	1.58947397087E+02	-4.73260561438E+01	-1.27797922458E+02	-5.97321716637E+00	-6.86848252097E-01
1.45395043894E+06	-1.23153730483E+01	6.67775207829E+00	8.62476320569E+00	1.58634083170E+02	-4.48249431316E+01	1.49977277489E+02	-5.97506686568E+00	-7.80593593835E-01
1.47614179353E+06	-1.39764582617E+01	4.28505716941E+00	8.60273542961E+00	1.58199790079E+02	-5.32789873011E+01	1.37347638456E+02	-5.96668216438E+00	-7.18034920137E-01
1.49833314813E+06	-1.48277553497E+01	1.17200133895E+01	8.60979497238E+00	1.57862246413E+02	-5.35084328112E+01	-1.20571104640E+02	-5.97957060466E+00	-7.11343102102E-01
1.52052450272E+06	-1.26359804035E+01	2.98788464692E+00	8.60728197645E+00	1.57548123060E+02	-5.74165515300E+01	9.57121592245E+01	-5.97055935308E+00	-6.69016579018E-01
1.54271585732E+06	-1.46260140501E+01	1.03584633396E+01	8.60829726688E+00	1.57170178577E+02	-5.69960923540E+01	1.09069970357E+02	-5.97224718477E+00	-8.10183640977E-01
1.56490721191E+06	-1.45175233922E+01	-1.77806669940E+00	8.61198635328E+00	1.56781936158E+02	-4.66593660962E+01	-5.91620124293E+01	-5.98363550508E+00	-7.74123066134E-01
1.58709856651E+06	-1.39751204462E+01	-2.02678090913E+00	8.61168038760E+00	1.56422354428E+02	-4.93314668231E+01	-4.39759901910E+01	-5.98364695671E+00	-7.95146277633E-01
1.60928992110E+06	-1.37097973431E+01	-1.42619685962E+01	8.58988565128E+00	1.56087216264E+02	-6.05710680964E+01	1.98701648608E+01	-5.97414661299E+00	-7.34421103501E-01
1.63148127570E+06	-1.27224087188E+01	5.53749036081E+00	8.57923918171E+00	1.55859567829E+02	-5.20229549080E+01	1.66853077233E+02	-5.96835238514E+00	-7.52424387956E-01
1.65367263029E+06	-1.41083700860E+01	2.66474162218E-01	8.57756788454E+00	1.55608205071E+02	-5.04926682822E+01	5.56850585322E+01	-5.97010211497E+00	-8.55343401173E-01
1.67586398489E+06	-1.34730996151E+01	8.32013537186E+00	8.57400544471E+00	1.55162003992E+02	-4.83886352636E+01	-5.18781312473E+01	-5.99764425095E+00	-7.12517407360E-01
1.69805533948E+06	-1.23258379567E+01	1.86729913807E+00	8.60007259794E+00	1.54920466106E+02	-4.96941505132E+01	1.57650677575E+02	-5.97388076337E+00	-9.09956710034E-01
1.72024669408E+06	-1.31942344574E+01	-1.35475977961E+01	8.55866249083E+00	1.54489749899E+02	-4.72421749742E+01	-7.78042843229E+01	-5.98178615352E+00	-8.01058810080E-01
1.74243804867E+06	-1.36001896341E+01	1.36699497839E+00	8.56051453623E+00	1.53975401559E+02	-4.78767766217E+01	5.85103294121E+01	-5.98467052408E+00	-8.10827036031E-01
1.76462940327E+06	-1.35748998208E+01	-9.80186268747E+00	8.52400574161E+00	1.53784884014E+02	-5.94808425075E+01	2.66710252035E+01	-5.97835162217E+00	-8.11133685294E-01
1.78682075786E+06	-1.33591654883E+01	-3.25539724186E+00	8.54369576177E+00	1.53333933642E+02	-4.49538317853E+01	-8.68286530988E+01	-5.97413671636E+00	-8.13226823165E-01
1.80901211246E+06	-1.48827141907E+01	3.47238095622E+00	8.52598054198E+00	1.53163834016E+02	-4.69915664211E+01	-4.17184105031E+01	-5.98966151647E+00	-8.14374465170E-01
1.83120346705E+06	-1.37875055364E+01	1.85666432535E+01	8.48380319259E+00	1.52883074055E+02	-5.71398919485E+01	9.36906159727E+00	-5.97512606907E+00	-9.24942666063E-01
1.85339482165E+06	-1.36590740108E+01	4.94315439771E+00	8.52021053482E+00	1.52485826044E+02	-5.37915247648E+01	7.55228454594E+01	-5.97988626073E+00	-8.72568468266E-01
1.87558617624E+06	-1.30886093397E+01	-3.12722683356E+00	8.53766406987E+00	1.52086324082E+02	-4.63172339528E+01	1.72839828099E+02	-5.96373459754E+00	-9.50500514670E-01
1.89777753084E+06	-1.41294673180E+01	-4.44306814994E+00	8.52072467888E+00	1.51807727226E+02	-5.20257299196E+01	9.47889827714E+00	-5.97890982290E+00	-8.56343953767E-01
1.91996888543E+06	-1.56247275297E+01	-1.50428726028E+00	8.49366495502E+00	1.51450836106E+02	-4.41182739309E+01	2.44069819711E+01	-5.98180368638E+00	-9.09397049106E-01
1.94216024003E+06	-1.43353009508E+01	-3.74236088636E-01	8.49662437247E+00	1.51128879974E+02	-5.62005982118E+01	1.79780063041E+02	-5.98314405367E+00	-8.82979105427E-01
1.96435159462E+06	-1.45340398962E+01	7.24427505889E+00	8.47138160660E+00	1.50858639627E+02	-5.19525565133E+01	9.57317260328E+01	-5.96703197987E+00	-1.00468306624E+00
1.98654294922E+06	-1.43825146728E+01	6.33952272051E+00	8.48236618015E+00	1.50459007466E+02	-6.03553718697E+01	1.30303924640E+01	-5.97558244309E+00	-9.30313145155E-01
2.00873430381E+06	-1.37639558684E+01	-4.46727942884E+00	8.46772384227E+00	1.50094348485E+02	-5.37894519970E+01	-4.48419727689E+01	-5.96827445699E+00	-9.55102519992E-01
2.03092565841E+06	-1.33531568583E+01	1.81937727950E-01	8.47879819960E+00	1.49682828130E+02	-4.68004314816E+01	1.08938632739E+02	-5.97581109414E+00	-9.81330878171E-01
2.05311701300E+06	-1.36871660302E+01	-5.31147058474E+00	8.45832253787E+00	1.49500473653E+02	-5.48232844294E+01	1.12485807779E+02	-5.96011362550E+00	-9.89989150838E-01
2.07530836760E+06	-1.43768110512E+01	-5.20664588679E+00	8.44261446096E+00	1.49118163540E+02	-6.27816099817E+01	2.86183256545E+01	-5.96706176025E+00	-9.42590604164E-01
2.09749972219E+06	-1.43452022856E+01	5.43034260360E+00	8.44632893295E+00	1.48864811720E+02	-5.43305552003E+01	1.61583627498E+02	-5.96552377406E+00	-9.34632752292E-01
2.11969107679E+06	-1.52586753373E+01	-4.61786517650E+00	8.41211348621E+00	1.48544203565E+02	-5.19930695492E+01	2.48296324042E+01	-5.97368154399E+00	-9.91429644597E-01
2.14188243138E+06	-1.48548199368E+01	-3.40001143398E+00	8.43537426102E+00	1.48019448255E+02	-4.04571872275E+01	-1.75051821975E+02	-5.97560282828E+00	-9.93416598931E-01
2.16407378598E+06	-1.50506556948E+01	-1.19995627165E+00	8.41776374276E+00	1.47874201316E+02	-5.64400864981E+01	-1.66929833414E+02	-5.97150190688E+00	-9.88217420380E-01
2.18626514057E+06	-1.00176634088E+01	-4.21473240294E+00	8.40571880228E+00	1.47654407372E+02	-5.37957089606E+01	1.06076067268E+02	-5.96652587523E+00	-1.13387311851E+00
2.20845649517E+06	-1.45458803189E+01	4.57235322027E+00	8.39189143266E+00	1.47343924201E+02	-5.33794482779E+01	2.84017744118E+01	-5.97967794373E+00	-1.09449249199E+00
2.23064784976E+06	-1.51866186537E+01	-1.14169727970E+00	8.38167394845E+00	1.46799096955E+02	-5.86985418187E+01	1.49826788758E+02	-5.96730873160E+00	-1.11854530015E+00
2.25283920436E+06	-1.30266648854E+01	4.68050335201E+00	8.39519641450E+00	1.46629112356E+02	-4.41245860243E+01	5.96217990170E+01	-5.97631500495E+00	-1.17441487530E+00
2.27503055895E+06	-1.42050061825E+01	-1.46046321238E+01	8.39081898983E+00	1.46178556846E+02	-4.59424321318E+01	-1.25418653473E+01	-5.98228487322E+00	-1.03193013174E+00
2.29722191355E+06	-9.48570246181E+00	-1.06063809880E+01	8.39501562023E+00	1.46101882423E+02	-4.79151709300E+01	1.46768554131E+02	-5.96885858024E+00	-1.08163417183E+00
2.31941326814E+06	-1.35435301504E+01	-8.92249094448E+00	8.38246123305E+00	1.45564388116E+02	-5.97832849021E+01	3.15022163484E+01	-5.96853638300E+00	-1.11098877483E+00
2.34160462274E+06	-1.36262174307E+01	-2.25711362139E+00	8.38198655874E+00	1.45220900369E+02	-5.19428897770E+01	1.64353231420E+02	-5.96303962828E+00	-1.17795725803E+00
2.36379597733E+06	-1.45541524106E+01	-5.15586530492E+00	8.37143197449E+00	1.44923597788E+02	-4.31294354361E+01	3.50283782877E+01	-5.96572896132E+00	-1.14509453808E+00
2.38598733193E+06	-1.34849284245E+01	-8.51913574527E+00	8.36286293686E+00	1.44615873052E+02	-5.08417007843E+01	5.01314235804E+01	-5.97103722726E+00	-1.14998707087E+00
2.40817868652E+06	-1.26176801939E+01	-6.08414592656E+00	8.33162662891E+00	1.44286467157E+02	-5.62143807892E+01	-1.00977727735E+02	-5.97492081102E+00	-1.19344865660E+00
2.43037004112E+06	-1.41370817911E+01	-2.14149343198E+00	8.31720569441E+00	1.44028680577E+02	-5.43451854477E+01	1.36092870701E+02	-5.97280568873E+00	-1.58804730483E+00
2.45256139571E+06	-1.25300693542E+01	-4.18978885547E+00	8.34743313059E+00	1.43681140160E+02	-5.24230600806E+01	-1.27398911264E+02	-5.98079177208E+00	-1.05291277940E+00
2.47475275031E+06	-1.68215665391E+01	7.85483863231E-02	8.28506537524E+00	1.43298980956E+02	-4.97533042349E+01	-1.04018615824E+02	-5.98200497664E+00	-1.11402957619E+00
2.49694410490E+06	-1.43776206066E+01	-4.10100808081E+00	8.29598014142E+00	1.42837199249E+02	-4.81831352015E+01	6.13937041090E+00	-5.99527480728E+00	-1.18921497411E+00
2.51913545950E+06	-1.11383314624E+01	-2.50757056156E+01	8.29276085582E+00	1.42767119691E+02	-4.79461579924E+01	-2.97254542856E+01	-5.98390650189E+00	-1.16718792770E+00
2.54132681409E+06	-1.29428875202E+01	6.73521597065E+00	8.27901895738E+00	1.42492161793E+02	-5.19840080837E+01	-1.58096361059E+02	-5.97779219834E+00	-1.14277949452E+00
2.56351816869E+06	-1.36328716236E+01	1.02228698219E+01	8.27684834425E+00	1.42165262543E+02	-5.78330396048E+01	6.21907420817E+01	-5.97980776899E+00	-1.18104033300E+00
2.58570952328E+06	-1.38295613157E+01	-2.66652549580E+00	8.26949709995E+00	1.41723890332E+02	-5.13052931875E+01	-1.51909090567E+02	-5.96575638706E+00	-1.20593021896E+00
2.60790087788E+06	-1.37137980741E+01	3.24574506212E+00	8.26397052604E+00	1.41454187989E+02	-3.66742647863E+01	2.62883272078E+01	-5.98325783896E+00	-1.14361919017E+00
2.63009223247E+06	-1.83527390697E+01	1.15627249627E+01	8.23322342936E+00	1.41045611791E+02	-5.62515430517E+01	1.45410281149E+01	-5.96944953458E+00	-8.09168780635E-01
2.65228358707E+06	-1.48548701434E+01	-3.92682085397E+00	8.23926844623E+00	1.40653922012E+02	-5.48735941139E+01	-1.02445027190E+02	-5.97684335792E+00	-1.29388602689E+00
2.67447494166E+06	-1.39271716053E+01	-4.94290228219E+00	8.25221623508E+00	1.40427863035E+02	-5.82614294896E+01	-1.01196549735E+02	-5.96476388621E+00	-1.20004672662E+00
2.69666629626E+06	-1.23072725847E+01	-3.40223827502E+00	8.25597771317E+00	1.40088782784E+02	-5.53758279852E+01	-8.86264818498E+01	-5.96421361957E+00	-1.28982060877E+00
2.71885765085E+06	-1.35372737690E+01	-6.08806995255E+00	8.24502901333E+00	1.39653032004E+02	-4.62647668814E+01	-6.28906092605E+01	-5.98100672416E+00	-1.30739063380E+00
2.74104900545E+06	-1.29274772813E+01	7.21592374985E+00	8.21481965515E+00	1.39535599197E+02	-4.72881538583E+01	1.28509168017E+02	-5.97384722797E+00	-1.34336349189E+00
2.76324036004E+06	-1.33468994527E+01	-2.89125482674E+00	8.21509782798E+00	1.38937193282E+02	-4.84750385706E+01	1.38078395182E+02	-5.96218192432E+00	-1.30022841124E+00
2.78543171463E+06	-1.27897394895E+01	-3.50637924458E+00	8.21410403192E+00	1.38844380711E+02	-5.31611528497E+01	-1.28975904196E+02	-5.97598749456E+00	-1.27720282485E+00
2.80762306923E+06	-1.40768779315E+01	3.50632366788E+00	8.17384319978E+00	1.38529226127E+02	-5.90810632532E+01	1.41625908940E+02	-5.98054500581E+00	-1.31670104673E+00
2.82981442382E+06	-1.35998127965E+01	-5.16514280636E+00	8.17751609470E+00	1.38038364802E+02	-5.50387078617E+01	-7.76623920500E+01	-5.98443662504E+00	-1.34853035969E+00
2.85200577842E+06	-1.36037829488E+01	-1.42710731672E+01	8.17438588531E+00	1.37679716908E+02	-5.44970268350E+01	1.14027965368E+02	-5.97614771395E+00	-1.40620835115E+00
2.87419713301E+06	-1.33635341249E+01	1.44074651688E+01	8.15751244227E+00	1.37520957831E+02	-5.59345911280E+01	2.77618529892E+01	-5.97925083661E+00	-1.41308646950E+00
2.89638848761E+06	-1.34425227031E+01	-1.00133410542E+01	8.16135815029E+00	1.37221436067E+02	-4.83638802981E+01	1.38197739228E+02	-5.96868976099E+00	-1.40237947463E+00
