# Hz S DB R 50
! CMT, M5065, 19127446, 24.2.4/2
! Date: 11/8/2024 6:48:25 PM
! Data: Format (Calibration Info)
! Freq	S11:dB/Ang(F2)	S21:dB/Ang(F2)	S12:dB/Ang(F2)	S22:dB/Ang(F2)
3.00000000000E+05	-1.32264026075E+01	2.13974056232E+01	1.24094157108E+01	1.79102048738E+02	-4.85983095408E+01	-3.12218839756E+01	-5.97006297937E+00	-4.51187401239E-01
3.22191354595E+05	-1.50104310067E+01	1.08014592573E+01	1.24012394927E+01	1.78052398808E+02	-5.44897032804E+01	5.77375572518E+01	-5.97358188758E+00	-4.57706939121E-01
3.44382709190E+05	-1.45283386638E+01	1.58784979624E+01	1.23801767427E+01	1.77453184470E+02	-4.73600445026E+01	-1.02852705135E+02	-5.95361118248E+00	-2.79317146455E-01
3.66574063785E+05	-1.34157319040E+01	3.76541647023E+00	1.23997221305E+01	1.76671139144E+02	-5.12374316535E+01	-1.65448771084E+02	-5.96677951358E+00	-2.71742180486E-01
3.88765418380E+05	-1.45528186944E+01	2.43985314737E+01	1.27303647355E+01	1.76024987461E+02	-4.61891231338E+01	1.50522659990E+02	-5.95619344173E+00	-4.69360218476E-01
4.10956772975E+05	-1.57451683149E+01	1.96157262102E+01	1.23660903251E+01	1.75354668052E+02	-5.66293859317E+01	1.83989894283E+01	-5.97010121010E+00	-2.36956606729E-01
4.33148127570E+05	-1.47112927594E+01	6.67730801729E+00	1.23689520447E+01	1.74763547094E+02	-6.57820627523E+01	-1.22706129147E+02	-5.96369163355E+00	-3.46532702674E-01
4.55339482165E+05	-1.34745044141E+01	1.63273541790E+01	1.23486203310E+01	1.74090958484E+02	-5.07926227909E+01	-8.99923238643E+00	-5.98604013463E+00	-3.65194807651E-01
4.77530836760E+05	-1.41672024451E+01	1.75940291724E+01	1.23295802484E+01	1.73646162068E+02	-5.33307182961E+01	1.15837196195E+02	-5.94969780789E+00	-3.44835245636E-01
4.99722191355E+05	-1.33494782116E+01	8.24955352072E+00	1.23555210733E+01	1.72989405207E+02	-4.74832274845E+01	-2.99421521796E+01	-5.97489154098E+00	-2.33332341178E-01
5.21913545950E+05	-1.38684620055E+01	7.73886004860E+00	1.23407223599E+01	1.72507840560E+02	-5.68712885974E+01	1.32359958277E+02	-5.95837776790E+00	-4.23280816551E-01
5.44104900545E+05	-1.44949832086E+01	1.45342800785E+01	1.23267223018E+01	1.71723719902E+02	-6.78346008772E+01	7.48193911419E+01	-5.97010765044E+00	-4.16872639249E-01
5.66296255139E+05	-1.36439222675E+01	4.32818220332E+00	1.23361710987E+01	1.71155491484E+02	-6.18472615993E+01	9.53126169064E+01	-5.97039536328E+00	-3.96729507056E-01
5.88487609734E+05	-1.33564235271E+01	1.67714084901E+00	1.23353923864E+01	1.70726699631E+02	-4.75620682106E+01	-8.15628058867E+01	-5.97526741018E+00	-3.71168498496E-01
6.10678964329E+05	-1.33083719009E+01	1.36875873408E+01	1.23167081476E+01	1.70292337815E+02	-5.75373604907E+01	-6.62836556828E+01	-5.96094767073E+00	5.26058324557E-02
6.32870318924E+05	-1.50273392229E+01	1.32762794486E+01	1.23096299989E+01	1.69753115596E+02	-5.14272899205E+01	1.53817694710E+02	-5.95484012174E+00	-2.56062563354E-01
6.55061673519E+05	-1.29014488022E+01	7.93722351430E+00	1.23176364266E+01	1.69255966585E+02	-5.30137692239E+01	2.44346659617E+01	-5.97387188235E+00	-3.25367561275E-01
6.77253028114E+05	-1.42478487133E+01	1.77903036837E+01	1.22933951056E+01	1.68804296837E+02	-5.08395786629E+01	4.29854082713E+01	-5.97164471246E+00	-8.84986863408E-01
6.99444382709E+05	-1.52506636267E+01	1.26378475254E+01	1.22817002061E+01	1.68228306032E+02	-6.20209279243E+01	-3.63815181002E+00	-5.96643181173E+00	-5.12693841417E-01
7.21635737304E+05	-1.45834806622E+01	-3.66606252050E+00	1.22998226283E+01	1.67675868870E+02	-4.69279971387E+01	1.68729635944E+02	-5.95488969843E+00	-5.37570417162E-01
7.43827091899E+05	-1.52836315468E+01	1.99767574807E+01	1.22636081225E+01	1.67311746219E+02	-5.35803238301E+01	1.68146327621E+02	-5.96268832296E+00	-4.54361698114E-01
7.66018446494E+05	-1.31239896802E+01	4.86144114239E+00	1.22767023838E+01	1.66796607987E+02	-5.83742318351E+01	-1.44253766049E+02	-5.96478209960E+00	-5.02935602448E-01
7.88209801089E+05	-1.42859421221E+01	9.81705553202E+00	1.22589674090E+01	1.66457553690E+02	-6.36974311506E+01	-1.51095534368E+02	-5.96925427261E+00	-4.08302962926E-01
8.10401155684E+05	-1.24656790107E+01	-2.23723138078E+00	1.22785067025E+01	1.65820177507E+02	-5.42056910540E+01	-6.01432483561E+01	-5.96084126040E+00	-5.07285583011E-01
8.32592510279E+05	-1.55041091269E+01	1.12289268314E+01	1.22095940697E+01	1.65293546309E+02	-5.16169806726E+01	1.28559713998E+01	-5.97162402849E+00	-4.49687548851E-01
8.54783864874E+05	-1.43649320324E+01	1.84874709757E+00	1.22277307536E+01	1.64810509641E+02	-4.94368467165E+01	9.47345760640E+01	-5.96619208285E+00	-5.98052910642E-01
8.76975219469E+05	-1.42520053057E+01	8.18524174034E-01	1.22212325548E+01	1.64483497441E+02	-4.37876604326E+01	6.55837440167E+01	-5.97182229500E+00	-5.63303136858E-01
8.99166574064E+05	-1.36963941516E+01	2.05605264552E+01	1.22163712382E+01	1.64091672147E+02	-5.26973627352E+01	-7.97986519946E+01	-5.95955734095E+00	-5.77891874629E-01
9.21357928659E+05	-1.50903188840E+01	-7.12423411974E+00	1.21875623038E+01	1.63391876408E+02	-5.40612085133E+01	-1.49395537619E+02	-5.96582179778E+00	-4.97083734191E-01
9.43549283254E+05	-1.46113037131E+01	-1.53200508274E+00	1.21786755029E+01	1.62925785459E+02	-4.91638095807E+01	2.61109233164E+01	-5.97963248288E+00	-5.77164278884E-01
9.65740637849E+05	-1.43324313438E+01	1.75925631690E+00	1.21924692976E+01	1.62478252709E+02	-5.12335971655E+01	-6.12679549964E+01	-5.96650073995E+00	-5.20310726658E-01
9.87931992444E+05	-1.40085581682E+01	3.21699918693E+00	1.21772162378E+01	1.62081989496E+02	-4.18744045867E+01	6.32773291356E+01	-5.96537085265E+00	-6.75495152762E-01
1.01012334704E+06	-1.49606542096E+01	2.81584292389E+00	1.21610291763E+01	1.61782211946E+02	-6.39651228959E+01	1.07476561702E+02	-5.97680547641E+00	-7.41885304460E-01
1.03231470163E+06	-1.45658967922E+01	2.50234165442E+00	1.21567140558E+01	1.61327704479E+02	-5.31090816067E+01	-1.53866950710E+02	-5.97850881662E+00	-4.79386699297E-01
1.05450605623E+06	-1.47499784652E+01	4.92087869697E+00	1.21669574481E+01	1.60787994823E+02	-5.28988842464E+01	-9.60191241190E+01	-5.96566063083E+00	-4.35231036049E-01
1.07669741082E+06	-1.39456370439E+01	7.50872174593E+00	1.21643800667E+01	1.60469846251E+02	-5.15172829174E+01	-5.41677341255E+01	-5.97292114751E+00	-5.88557677557E-01
1.09888876542E+06	-1.37300807934E+01	9.59170599429E+00	1.21212770027E+01	1.60004945601E+02	-4.87075836874E+01	1.47120726778E+02	-5.95088505195E+00	-6.22725670119E-01
1.12108012001E+06	-1.52858395641E+01	-3.92976994979E+00	1.21203082882E+01	1.59461091275E+02	-6.00839041103E+01	1.04822640006E+02	-5.97091963489E+00	-6.16772744706E-01
1.14327147461E+06	-1.40591608121E+01	5.43600679888E+00	1.21068870428E+01	1.59018343741E+02	-5.13234212705E+01	-1.67161041322E+02	-5.96548918261E+00	-6.60555241139E-01
1.16546282920E+06	-1.35672638768E+01	2.46147740266E+00	1.21023262192E+01	1.58632100820E+02	-5.26816939842E+01	-5.23089328388E+01	-5.96953192620E+00	-5.65636977743E-01
1.18765418380E+06	-1.33838346340E+01	2.32917569043E+00	1.20864377248E+01	1.58250946493E+02	-5.54694886314E+01	-7.09565211271E+01	-5.96637392205E+00	-6.06786381646E-01
1.20984553839E+06	-1.43739918574E+01	-7.74555826345E+00	1.20924808193E+01	1.57815242200E+02	-4.55682034623E+01	-9.36967194393E+01	-5.97083708042E+00	-6.38813079224E-01
1.23203689299E+06	-1.28366781606E+01	4.77525605651E+00	1.20765260681E+01	1.57402584446E+02	-4.64171008823E+01	1.47416770706E+02	-5.96932937959E+00	-5.29155680689E-01
1.25422824758E+06	-1.43129252686E+01	1.29939191678E+01	1.20413932426E+01	1.57017554068E+02	-5.50979104762E+01	-1.23233329651E+02	-5.97608484563E+00	-6.52661313846E-01
1.27641960218E+06	-1.34275679721E+01	3.48275090186E+00	1.20454842177E+01	1.56534594387E+02	-5.03179687900E+01	-7.93591503817E+01	-5.98136527996E+00	-5.34181492121E-01
1.29861095677E+06	-1.39314084836E+01	4.49324420321E+00	1.20560418665E+01	1.56049806542E+02	-5.60882725245E+01	-7.36897316945E+00	-5.97000084672E+00	-6.40223329587E-01
1.32080231137E+06	-1.40560416620E+01	-5.38213573245E+00	1.20425877845E+01	1.55490421898E+02	-4.52609243461E+01	-6.10148592811E+01	-5.97136999503E+00	-9.67373710487E-01
1.34299366596E+06	-1.43434453076E+01	-1.08834142695E+00	1.20213859212E+01	1.55126046117E+02	-4.75220186030E+01	1.47300514083E+02	-5.95559449513E+00	-7.51446885170E-01
1.36518502056E+06	-1.48963062266E+01	4.25100726444E-01	1.19984523202E+01	1.54860008350E+02	-4.96371056032E+01	-1.25533688364E+02	-5.96508998417E+00	-6.26103874748E-01
1.38737637515E+06	-1.55784589176E+01	1.13586049194E+01	1.19777100326E+01	1.54391596376E+02	-4.78250085518E+01	1.02563962586E+02	-5.97372053438E+00	-8.39043435455E-01
1.40956772975E+06	-1.43937599542E+01	2.03248726698E+00	1.19901867778E+01	1.53909124399E+02	-5.04074333138E+01	1.71133139968E+02	-5.97199792651E+00	-6.89145246047E-01
1.43175908434E+06	-1.43237910907E+01	1.88091577529E+01	1.19743054646E+01	1.53627366628E+02	-5.17627162773E+01	-1.44922287265E+01	-5.97464864498E+00	-6.98054880381E-01
1.45395043894E+06	-1.33927392181E+01	1.47700449284E+00	1.19631220493E+01	1.53171987614E+02	-4.53910459816E+01	-1.41026820112E+02	-5.97865238348E+00	-6.95481802867E-01
1.47614179353E+06	-1.30402707349E+01	7.62502382919E+00	1.19545705058E+01	1.52866471656E+02	-5.28071045910E+01	-7.29819463739E+01	-5.97580434737E+00	-6.25560336757E-01
1.49833314813E+06	-1.35602718220E+01	-1.52925952415E+00	1.19290738337E+01	1.52152483250E+02	-5.20870511237E+01	-1.41333293707E+02	-5.95519623935E+00	-7.48720349337E-01
1.52052450272E+06	-1.50248655787E+01	-7.38141826093E-01	1.19163482813E+01	1.51787541437E+02	-5.18656296231E+01	-2.06776713171E+01	-5.99841761176E+00	-7.81314796618E-01
1.54271585732E+06	-1.39579890535E+01	1.13470053670E+01	1.19178308909E+01	1.51522551833E+02	-4.83098543450E+01	-7.07926204081E+01	-5.96825666943E+00	-6.60859615021E-01
1.56490721191E+06	-1.39884746192E+01	7.32845934840E+00	1.18962967364E+01	1.51081034006E+02	-4.60564348397E+01	-1.10968627368E+02	-5.97568496555E+00	-7.22544396606E-01
1.58709856651E+06	-1.26743280887E+01	1.14621379837E+00	1.19018621105E+01	1.50550724461E+02	-5.58228724332E+01	-1.49363478118E+00	-5.98169700182E+00	-8.01410397598E-01
1.60928992110E+06	-1.29619393163E+01	-3.39694046232E+00	1.18996224196E+01	1.50185546470E+02	-5.04381609831E+01	8.06748902773E+01	-5.98080360499E+00	-8.59210728707E-01
1.63148127570E+06	-1.43940008825E+01	-5.56030240639E+00	1.18541300309E+01	1.49745199795E+02	-4.63962664649E+01	-9.27198843717E+01	-5.96465076601E+00	-6.98826990983E-01
1.65367263029E+06	-1.51671311088E+01	8.89569170182E+00	1.18461745884E+01	1.49344002552E+02	-6.47202141116E+01	1.47402597544E+02	-5.95977757109E+00	-7.37888045064E-01
1.67586398489E+06	-1.15558343741E+01	1.96480258970E+01	1.18449364428E+01	1.49087079150E+02	-6.57916490062E+01	-3.82153000074E+01	-5.98490090320E+00	-7.56122152092E-01
1.69805533948E+06	-1.45897046689E+01	2.36921599054E+00	1.18153827279E+01	1.48521612852E+02	-5.22894922751E+01	1.23472163755E+02	-5.97041627704E+00	-8.44981559830E-01
1.72024669408E+06	-1.20205352540E+01	-2.41004909350E+00	1.18478492554E+01	1.48172946521E+02	-4.91250189712E+01	-7.66359720383E+01	-5.97349993900E+00	-7.28677392616E-01
1.74243804867E+06	-1.59105232398E+01	-3.71110441578E+00	1.17887269603E+01	1.47570868386E+02	-4.86743484254E+01	-7.84606210507E+01	-5.95058387240E+00	-7.76164506189E-01
1.76462940327E+06	-1.41043470646E+01	8.35501047367E+00	1.17884278232E+01	1.47253881728E+02	-4.92332461482E+01	-6.37669021684E+01	-5.97441110927E+00	-7.64866599617E-01
1.78682075786E+06	-1.30680812160E+01	9.43099986831E+00	1.17728325894E+01	1.46905624835E+02	-4.50224572843E+01	8.13936007519E+01	-5.98024022349E+00	-9.81917957365E-01
1.80901211246E+06	-1.52117652190E+01	-5.76999035332E-01	1.17739819182E+01	1.46477415049E+02	-5.61304177816E+01	-5.96791580150E+01	-5.98039593676E+00	-8.38545182629E-01
1.83120346705E+06	-1.35284930783E+01	-1.72450531867E+00	1.17601568587E+01	1.46039797861E+02	-5.22562890761E+01	-8.38928668565E+01	-5.96600856125E+00	-8.28153389819E-01
1.85339482165E+06	-1.31878123282E+01	-7.19210016245E+00	1.17694920963E+01	1.45616212767E+02	-4.65256260341E+01	1.84511481396E+01	-5.96956148909E+00	-9.01389170140E-01
1.87558617624E+06	-1.35560418550E+01	-3.07454185394E+00	1.17363769291E+01	1.45204654655E+02	-5.26990134911E+01	-8.40872719392E+01	-5.97079035609E+00	-8.74255042591E-01
1.89777753084E+06	-1.24039256553E+01	1.14989656606E+01	1.17129842099E+01	1.44950656768E+02	-5.76895415297E+01	6.86404517709E-01	-5.96699615739E+00	-8.90001678788E-01
1.91996888543E+06	-1.43523021221E+01	7.27571108546E+00	1.16942278538E+01	1.44628893054E+02	-4.60121544013E+01	-6.91937881374E+01	-5.97304116759E+00	-8.67686672802E-01
1.94216024003E+06	-1.44189315094E+01	4.42055601737E+00	1.16775549739E+01	1.44050380503E+02	-5.16993758098E+01	-1.08123463758E+02	-5.96556056394E+00	-9.08130815080E-01
1.96435159462E+06	-1.30369095134E+01	3.84813743946E+00	1.16885855641E+01	1.43779880314E+02	-5.68829284405E+01	4.71480502201E+01	-5.96973425904E+00	-9.62863556802E-01
1.98654294922E+06	-1.38014192306E+01	6.91085225085E+00	1.16564303540E+01	1.43337310042E+02	-4.92597042067E+01	5.85275452694E+01	-5.99334343617E+00	-1.01257524477E+00
2.00873430381E+06	-1.37226456190E+01	1.62715294142E+00	1.16484488908E+01	1.42788880526E+02	-5.51024836131E+01	-9.08070683378E+01	-5.97687002632E+00	-9.77510204606E-01
2.03092565841E+06	-1.44454366372E+01	-2.26943710096E-01	1.16357492382E+01	1.42466563012E+02	-4.83460169043E+01	6.34669257148E+01	-5.96985172201E+00	-9.62942651828E-01
2.05311701300E+06	-1.46632554346E+01	6.52725673018E+00	1.15927099349E+01	1.42108338805E+02	-5.12416862408E+01	1.67473735383E+02	-5.96401839465E+00	-1.01279395712E+00
2.07530836760E+06	-1.40640320073E+01	-3.12814000786E+00	1.16156325830E+01	1.41697222853E+02	-5.31005276584E+01	-1.69691508098E+02	-5.97561759278E+00	-1.02350076992E+00
2.09749972219E+06	-1.42046060375E+01	5.18280211446E+00	1.15930768611E+01	1.41266346004E+02	-5.36508993095E+01	-7.28839888590E+01	-5.97105511386E+00	-9.74810379817E-01
2.11969107679E+06	-1.28151236360E+01	4.04447941096E-01	1.15995222562E+01	1.40917918547E+02	-5.49518716985E+01	1.13086252408E+02	-5.96202815237E+00	-1.10719621353E+00
2.14188243138E+06	-1.29168975267E+01	1.77643544024E+01	1.15536242973E+01	1.40582510192E+02	-3.54965902880E+01	-1.68466856856E+02	-5.96072749777E+00	-9.63016357342E-01
2.16407378598E+06	-1.26309222185E+01	3.60913439086E+00	1.15646771868E+01	1.40295860694E+02	-5.69641023566E+01	-8.63117945022E+01	-5.96822778111E+00	-1.06824715358E+00
2.18626514057E+06	-1.41715154555E+01	-3.33109793224E+00	1.15408487124E+01	1.39686966411E+02	-5.60460961516E+01	-6.46887336465E-01	-5.97244768662E+00	-1.09122430129E+00
2.20845649517E+06	-1.46882484287E+01	-9.74977797844E-01	1.15229641941E+01	1.39365258977E+02	-5.45851499213E+01	9.42902532429E+01	-5.97577584997E+00	-1.10111947956E+00
2.23064784976E+06	-1.55238939981E+01	4.90982565234E+00	1.15000360729E+01	1.38924744406E+02	-6.31986321591E+01	4.53985702954E+01	-5.96739006306E+00	-1.16069873065E+00
2.25283920436E+06	-1.44905980062E+01	5.49385612187E+00	1.14842940971E+01	1.38321196771E+02	-3.93430733979E+01	-6.85941846978E+01	-5.96835033647E+00	-9.96201700400E-01
2.27503055895E+06	-1.34883744119E+01	4.27716069572E+00	1.14638740692E+01	1.38124265339E+02	-5.32774861228E+01	-7.35646662094E+00	-5.97676644515E+00	-1.05419039919E+00
2.29722191355E+06	-1.36530554827E+01	1.11484316275E-01	1.14643011753E+01	1.37790849021E+02	-5.16939938665E+01	-1.01709693415E+02	-5.97307093369E+00	-9.74270657028E-01
2.31941326814E+06	-1.50034485663E+01	6.87685348374E+00	1.14301430167E+01	1.37332601866E+02	-5.17079695163E+01	7.85063815745E+01	-5.97604358667E+00	-1.19113907747E+00
2.34160462274E+06	-1.40062470014E+01	8.02252650340E+00	1.14206188722E+01	1.36989062300E+02	-4.86225055041E+01	9.35033595696E+01	-5.96915010893E+00	-1.17835330576E+00
2.36379597733E+06	-1.44319349811E+01	-1.69053178376E+01	1.14119856348E+01	1.36431733359E+02	-4.78804657085E+01	9.99604004507E+01	-5.97470629536E+00	-1.18026804245E+00
2.38598733193E+06	-1.31553455102E+01	-1.27466415036E+00	1.14194336142E+01	1.36181325521E+02	-6.27126846748E+01	8.48892400179E+01	-5.99281128926E+00	-1.16261999569E+00
2.40817868652E+06	-1.35113506201E+01	4.46901744748E+00	1.14009841174E+01	1.35870169794E+02	-5.93485803316E+01	9.94465553836E+01	-5.96917365807E+00	-1.33071885365E+00
2.43037004112E+06	-1.58006780956E+01	-6.07055149811E+00	1.13557443456E+01	1.35199284970E+02	-5.49580232813E+01	-1.81701005929E+01	-5.97998577140E+00	-1.54083962286E+00
2.45256139571E+06	-1.38961221712E+01	-1.51807068692E+00	1.13509952371E+01	1.34985093510E+02	-6.27342062137E+01	1.61308636615E+02	-5.97118970146E+00	-1.14731771086E+00
2.47475275031E+06	-9.47045534464E+00	3.43029289538E+01	1.13273299584E+01	1.34735714079E+02	-4.74274640236E+01	-1.28924042577E+02	-5.95900687366E+00	-1.10416931541E+00
2.49694410490E+06	-1.29837022121E+01	-6.75043681154E+00	1.13338297308E+01	1.34173937547E+02	-4.25176661549E+01	5.49810815952E+01	-5.97722800361E+00	-1.12105766665E+00
2.51913545950E+06	-1.31052379339E+01	-5.59615108602E+00	1.13225044851E+01	1.33784537460E+02	-4.91258963767E+01	1.24672953689E+02	-5.96568851349E+00	-1.18435496944E+00
2.54132681409E+06	-1.44155450980E+01	7.66386655262E+00	1.12906988218E+01	1.33560731786E+02	-4.62030207943E+01	-3.96365368204E+01	-5.99192911646E+00	-1.05060764186E+00
2.56351816869E+06	-1.33951307546E+01	-2.40982114517E+00	1.12791426260E+01	1.33067522498E+02	-4.88058206024E+01	-8.33400269962E+01	-5.98340338918E+00	-1.10472730349E+00
2.58570952328E+06	-1.63963767310E+01	-4.88644279664E+00	1.12468993754E+01	1.32708019182E+02	-6.31884339687E+01	-7.94996639869E+01	-5.97812758495E+00	-1.17340227240E+00
2.60790087788E+06	-1.26509448128E+01	3.78382033837E+00	1.12560575047E+01	1.32379502734E+02	-5.72925612647E+01	1.25859768239E+02	-5.98554948593E+00	-1.08425876289E+00
2.63009223247E+06	-1.33086472942E+01	2.54755896229E-01	1.12288185613E+01	1.31837387212E+02	-4.67048856517E+01	2.47260880384E+01	-6.00396484113E+00	-8.94962594345E-01
2.65228358707E+06	-1.39905757278E+01	-4.96354837979E+00	1.12039010823E+01	1.31452139911E+02	-5.45322431613E+01	1.09411936494E+02	-5.97515892430E+00	-1.25606023006E+00
2.67447494166E+06	-1.37438706341E+01	-5.54395440055E+00	1.12006354389E+01	1.31193178260E+02	-5.02163081920E+01	-7.12749985091E+01	-5.97778728793E+00	-1.16586601216E+00
2.69666629626E+06	-1.32366431699E+01	-5.77330828491E+00	1.11863029297E+01	1.30817681498E+02	-5.18049933040E+01	-8.91956233216E+01	-5.97976324115E+00	-1.21241080333E+00
2.71885765085E+06	-1.25602701379E+01	4.10601041838E+00	1.11520657208E+01	1.30532101188E+02	-6.29210910060E+01	-1.54880807812E+02	-5.96876481926E+00	-1.22084884791E+00
2.74104900545E+06	-1.37776393740E+01	2.90120764336E-01	1.11331424702E+01	1.30097986622E+02	-5.32126541699E+01	3.94741242557E-01	-5.97706020345E+00	-1.29435333123E+00
2.76324036004E+06	-1.27429578060E+01	8.26225494502E-02	1.11320925599E+01	1.29625234980E+02	-5.14991755218E+01	6.24739279729E+01	-5.98791070990E+00	-1.34450898965E+00
2.78543171463E+06	-1.41880782822E+01	-1.51386712091E+01	1.11039021981E+01	1.29112150814E+02	-5.19256659375E+01	1.28072497918E+02	-5.98018893395E+00	-1.36116009682E+00
2.80762306923E+06	-1.33220301619E+01	-3.53721506138E-01	1.11071309244E+01	1.28955244771E+02	-5.30722647064E+01	1.34500043784E+01	-5.97466392885E+00	-1.24838818641E+00
2.82981442382E+06	-1.11854807990E+01	1.14146888960E+01	1.10907965953E+01	1.28592046123E+02	-5.61997820866E+01	-1.02146504846E+02	-5.97020498724E+00	-1.30786893635E+00
2.85200577842E+06	-1.42702278402E+01	-4.75137543575E+00	1.10530971927E+01	1.28054245471E+02	-6.47791733492E+01	-4.98454054184E+01	-5.97588837643E+00	-1.31838662975E+00
2.87419713301E+06	-1.53323549073E+01	-3.88998245445E-01	1.10252591002E+01	1.27516883116E+02	-5.18384892045E+01	1.08818406352E+02	-5.97353348944E+00	-1.31249212216E+00
2.89638848761E+06	-1.32438969783E+01	6.09880989067E+00	1.10214155182E+01	1.27342034131E+02	-5.46334230169E+01	-7.52742139671E+01	-5.97861687759E+00	-1.32570968347E+00
