# Hz S DB R 50
! CMT, M5065, 19127446, 24.2.4/2
! Date: 11/8/2024 6:44:47 PM
! Data: Format (Calibration Info)
! Freq	S11:dB/Ang(F2)	S21:dB/Ang(F2)	S12:dB/Ang(F2)	S22:dB/Ang(F2)
3.00000000000E+05	-1.27485114720E+01	1.38901075895E+01	5.16006038117E+00	1.78421897877E+02	-5.14775887122E+01	-1.50829662364E+02	-5.96999407136E+00	-2.56624690761E-01
3.22191354595E+05	-1.41215011105E+01	1.54349629450E+01	5.15592568157E+00	1.78011037026E+02	-4.77651807057E+01	-1.15250004812E+02	-5.96098804388E+00	-2.60276503376E-01
3.44382709190E+05	-1.32667183273E+01	1.80116867669E+01	5.16006421828E+00	1.77625204191E+02	-5.02709864765E+01	-4.17453807455E+01	-5.97308568606E+00	-2.92856734812E-01
3.66574063785E+05	-1.29758555295E+01	1.40464212775E+01	5.15168334083E+00	1.77233257510E+02	-5.12008266852E+01	-1.33570898814E+01	-5.96436022454E+00	-2.87312798037E-01
3.88765418380E+05	-1.51962755215E+01	8.13347751706E+00	5.16673253739E+00	1.76421068741E+02	-5.93317568223E+01	1.43784684463E+02	-5.95498795358E+00	-2.44977643003E-01
4.10956772975E+05	-1.41041399311E+01	6.81064459984E+00	5.15982381415E+00	1.76439287071E+02	-4.38264586907E+01	-1.77959130438E+02	-5.96427338699E+00	-2.86339540895E-01
4.33148127570E+05	-1.49137467810E+01	7.75555313544E+00	5.13614581181E+00	1.75948079010E+02	-4.86836410353E+01	1.08940006625E+02	-5.98506566568E+00	-3.17193120154E-01
4.55339482165E+05	-1.44142513919E+01	1.86756953460E+01	5.12315496488E+00	1.75570824152E+02	-5.02795517781E+01	5.03802171032E+01	-5.97193412544E+00	-3.71803901705E-01
4.77530836760E+05	-1.43082093922E+01	1.24451325058E+01	5.13821690166E+00	1.75319931896E+02	-4.84828121576E+01	-4.83543968223E+01	-5.97307018254E+00	-3.80321534500E-01
4.99722191355E+05	-1.30964499856E+01	1.12150387450E+01	5.13617767806E+00	1.75067310953E+02	-4.69388662988E+01	1.74115874322E+02	-5.97596668328E+00	-3.89748826714E-01
5.21913545950E+05	-1.43790659922E+01	1.24085292098E+01	5.11205301413E+00	1.74650394421E+02	-4.11668971459E+01	-8.85145221254E+01	-5.97501250471E+00	-2.09852456955E-01
5.44104900545E+05	-1.56209549281E+01	1.57948554137E+01	5.09923399506E+00	1.74313966633E+02	-5.90149453755E+01	-1.35241293917E+02	-5.96565414737E+00	-2.61151500121E-01
5.66296255139E+05	-1.27154692153E+01	1.14948582116E+01	5.11996523422E+00	1.73789213374E+02	-6.28242511200E+01	8.56691252990E+01	-5.97435254091E+00	-3.22441418627E-01
5.88487609734E+05	-1.59738698263E+01	5.88164143121E+00	5.11240991241E+00	1.73653962068E+02	-4.78231390817E+01	-3.40034379681E+01	-5.97284779879E+00	-2.26560901324E-01
6.10678964329E+05	-1.35280073994E+01	-3.37586116847E+00	5.11751825938E+00	1.73205856167E+02	-5.76767975894E+01	3.09120239197E+01	-5.98776970227E+00	1.70445876330E-01
6.32870318924E+05	-1.48225304694E+01	2.52435344590E+01	5.11409916000E+00	1.73161272972E+02	-5.05490002034E+01	-4.86020650994E+01	-5.96872716358E+00	-5.82776417651E-02
6.55061673519E+05	-1.49745307047E+01	3.98047781069E+00	5.12430827724E+00	1.72650596829E+02	-4.95053302893E+01	-1.27867384700E+02	-5.97836772595E+00	-2.87268090672E-01
6.77253028114E+05	-1.34964687505E+01	1.76031919370E+00	5.11618897120E+00	1.72390255171E+02	-6.69307795785E+01	-1.79760025981E+02	-5.97920376935E+00	-7.13668539138E-01
6.99444382709E+05	-1.29906239829E+01	-1.67483002434E+00	5.13429606886E+00	1.72074000537E+02	-5.08011516946E+01	8.39559465675E+00	-5.97855597306E+00	-5.37654921182E-01
7.21635737304E+05	-1.60900801995E+01	6.79446133797E+00	5.08437265344E+00	1.71879880686E+02	-5.85241750639E+01	-8.68204225997E+01	-5.97006818895E+00	-4.81164551855E-01
7.43827091899E+05	-1.45040974919E+01	-1.97545095676E+00	5.11302625390E+00	1.71196550221E+02	-5.10656895155E+01	-5.29777052222E+01	-5.97289952065E+00	-3.97859943910E-01
7.66018446494E+05	-1.45687637240E+01	6.33267606651E+00	5.06868347520E+00	1.71224301474E+02	-5.00263332474E+01	2.21634855623E+01	-5.97653289932E+00	-4.18643354480E-01
7.88209801089E+05	-1.42574516904E+01	-2.88335120698E+00	5.10846902867E+00	1.70680717068E+02	-5.39549459573E+01	7.08312705369E+01	-5.97616923405E+00	-4.55935282535E-01
8.10401155684E+05	-1.60782507345E+01	-1.80339998218E+01	5.10240696742E+00	1.70494129719E+02	-5.34785714624E+01	-2.06558477042E-02	-5.96786557068E+00	-4.65561190012E-01
8.32592510279E+05	-1.36557897686E+01	2.15252849993E+00	5.09480779855E+00	1.70153528367E+02	-5.32098015489E+01	-1.10898474827E+02	-5.97132183918E+00	-4.43410933275E-01
8.54783864874E+05	-1.43603868097E+01	7.11538627336E+00	5.06329158039E+00	1.69907663025E+02	-5.06786909516E+01	4.03616929642E+01	-5.97672924451E+00	-4.73378324078E-01
8.76975219469E+05	-1.35581811068E+01	9.48713349183E+00	5.08531944235E+00	1.69719575318E+02	-6.93680742584E+01	-1.01375891605E+02	-5.97995730524E+00	-4.23275032604E-01
8.99166574064E+05	-1.53999669056E+01	6.37131623238E+00	5.08075055336E+00	1.69479313213E+02	-4.92892270724E+01	-4.09319157717E+01	-5.97943803866E+00	-3.73693697860E-01
9.21357928659E+05	-1.31875672450E+01	-6.08270909740E+00	5.06401524297E+00	1.69066434432E+02	-6.10134947308E+01	1.16962480587E+02	-5.95617082680E+00	-4.79843790081E-01
9.43549283254E+05	-1.46306154247E+01	7.51935793677E-01	5.08464621399E+00	1.68901826061E+02	-5.34292414834E+01	-1.50867108921E+02	-5.97082302782E+00	-5.11416932898E-01
9.65740637849E+05	-1.30152208176E+01	-3.05697783231E+00	5.09524322452E+00	1.68365397224E+02	-4.63080782815E+01	-4.43302615274E+01	-5.97155909377E+00	-4.68655392780E-01
9.87931992444E+05	-1.30637135533E+01	1.04185956575E+01	5.09590870875E+00	1.68407316371E+02	-4.83605444583E+01	-3.49626583025E+01	-5.97887439361E+00	-5.07020774570E-01
1.01012334704E+06	-1.50554405192E+01	2.77083065962E+00	5.06351387008E+00	1.67958255234E+02	-5.77895769958E+01	-2.45278734236E+01	-5.97446531751E+00	-5.35899448117E-01
1.03231470163E+06	-1.34970375818E+01	2.43862849972E+01	5.05002385782E+00	1.67692545833E+02	-5.46878420362E+01	-8.93461342902E+01	-5.97853937485E+00	-5.00564026473E-01
1.05450605623E+06	-1.55477597706E+01	4.18226759092E+00	5.03016361442E+00	1.67143898096E+02	-4.69007456662E+01	-1.25738165738E+02	-5.96839582616E+00	-5.08837435519E-01
1.07669741082E+06	-1.33720455664E+01	-5.36135416312E+00	5.06852381573E+00	1.66914438305E+02	-5.00867688704E+01	6.00846036097E+01	-5.96734844557E+00	-5.66732751343E-01
1.09888876542E+06	-1.26196595184E+01	4.28474264354E+00	5.05928791476E+00	1.66826689120E+02	-4.80165136570E+01	-6.12202791797E+01	-5.98015825025E+00	-5.38568022119E-01
1.12108012001E+06	-1.18044383651E+01	1.98030112241E+00	5.10512485894E+00	1.66489954141E+02	-4.96053753743E+01	2.56370571895E+01	-5.98386229273E+00	-6.16981363127E-01
1.14327147461E+06	-1.24614283289E+01	-9.78841468296E+00	5.06063499746E+00	1.66215379061E+02	-4.75924998816E+01	-3.35210947301E+01	-5.97532233063E+00	-5.75540396235E-01
1.16546282920E+06	-1.36354370614E+01	1.31779941923E+00	5.05954371293E+00	1.66121822000E+02	-7.00584492809E+01	-8.62522335952E+01	-5.97989613461E+00	-5.92687334319E-01
1.18765418380E+06	-1.47569664197E+01	7.12541877818E+00	5.03903173168E+00	1.65674931101E+02	-5.20298130628E+01	-8.65056523795E+01	-5.96441784970E+00	-6.54470523985E-01
1.20984553839E+06	-1.36961673832E+01	3.56719784259E+00	5.06127377069E+00	1.65516741139E+02	-4.62923710232E+01	-3.65561750980E+00	-5.97402372862E+00	-7.42861680472E-01
1.23203689299E+06	-1.35151428133E+01	6.45873769429E-01	5.06278766959E+00	1.65087948093E+02	-5.01920177288E+01	5.21904653374E-01	-5.98631919592E+00	-3.30764166445E-01
1.25422824758E+06	-1.53072751229E+01	-9.31140626762E+00	5.04692393099E+00	1.64627564232E+02	-5.21150377533E+01	1.71283840444E+02	-5.96930735605E+00	-6.04637787294E-01
1.27641960218E+06	-1.39477001976E+01	6.40756216283E+00	5.02814217025E+00	1.64685901580E+02	-5.20384401011E+01	-1.16691497041E+02	-5.97586231215E+00	-5.94760642895E-01
1.29861095677E+06	-1.40280111481E+01	1.11483580974E+01	5.01543850304E+00	1.64435648377E+02	-5.54744661789E+01	-5.16867584870E+01	-5.97040431653E+00	-6.18394190644E-01
1.32080231137E+06	-1.43854036220E+01	8.30234444138E-01	5.01229619533E+00	1.64054974370E+02	-6.43307640503E+01	-1.73647096114E+02	-5.97133179546E+00	-1.07509339126E+00
1.34299366596E+06	-1.40140305987E+01	1.14506201402E+01	5.03979682103E+00	1.63734577476E+02	-4.60711435756E+01	-1.78897756653E+02	-5.94911456320E+00	-6.21071758378E-01
1.36518502056E+06	-1.31741703904E+01	1.08317522454E+01	5.01329871976E+00	1.63465549556E+02	-5.85963695321E+01	1.49169347683E+02	-5.96965906425E+00	-6.12846490781E-01
1.38737637515E+06	-1.85078520040E+01	-1.18185120434E+01	5.01985317115E+00	1.62852662849E+02	-5.10705244455E+01	7.55394242723E+01	-5.96973748415E+00	-6.79920204836E-01
1.40956772975E+06	-1.34474259323E+01	1.43084833425E+01	5.00691461112E+00	1.62995658314E+02	-4.97614371110E+01	1.38154425346E+01	-5.97341133664E+00	-6.42435908588E-01
1.43175908434E+06	-1.35820965013E+01	5.10182028147E+00	5.01346684546E+00	1.62656195603E+02	-5.33863538831E+01	1.89154162643E+01	-5.96735753786E+00	-6.90084681708E-01
1.45395043894E+06	-1.38706105301E+01	1.31997249102E+01	5.04213525181E+00	1.62305827629E+02	-5.85934555209E+01	-1.46159991617E+02	-5.96825500081E+00	-6.31054152129E-01
1.47614179353E+06	-1.43790060700E+01	-4.28462303756E+00	4.99344895312E+00	1.62180047529E+02	-5.81848621842E+01	2.65201858160E+01	-5.97055496544E+00	-7.40344532905E-01
1.49833314813E+06	-1.32696494010E+01	2.20461475774E+00	4.99998997329E+00	1.61625729588E+02	-5.08780748460E+01	5.42230144997E+01	-5.97072219386E+00	-8.03537921368E-01
1.52052450272E+06	-1.44474121861E+01	8.38710919865E-01	5.01391753699E+00	1.61391160981E+02	-6.62681854037E+01	8.85694163685E+00	-5.98134252343E+00	-7.18404405365E-01
1.54271585732E+06	-1.29007899267E+01	-7.28837480654E+00	4.98505723076E+00	1.61180738875E+02	-5.68928989558E+01	2.66033141260E+01	-5.97815022536E+00	-7.80079457005E-01
1.56490721191E+06	-1.45689786408E+01	7.19668130826E+00	4.98840741841E+00	1.61071710276E+02	-4.03941535505E+01	-4.60629972473E+01	-5.98191973598E+00	-8.26566164683E-01
1.58709856651E+06	-1.48310696302E+01	3.90024465026E+00	4.98515368531E+00	1.60675921235E+02	-7.35894863417E+01	1.43422962729E+02	-5.96181591786E+00	-8.48178254123E-01
1.60928992110E+06	-1.33529973623E+01	1.48133493375E+00	4.99046754988E+00	1.60396459431E+02	-5.24382137456E+01	-1.62677409131E+02	-5.96697993808E+00	-7.73330334828E-01
1.63148127570E+06	-1.36016244130E+01	6.96541833026E+00	4.99266840356E+00	1.60051198127E+02	-4.62327155752E+01	-1.71224474253E+02	-5.97148920471E+00	-7.91779482990E-01
1.65367263029E+06	-1.38011796009E+01	6.86215231670E-02	4.99726518595E+00	1.59848346199E+02	-4.78622542248E+01	4.98871134131E+01	-5.96760651479E+00	-8.23744586209E-01
1.67586398489E+06	-1.35373203759E+01	1.96795608521E+00	4.98428264032E+00	1.59524765571E+02	-4.48558736948E+01	1.57266638228E+02	-5.97563596430E+00	-8.02210358878E-01
1.69805533948E+06	-1.49803329945E+01	-1.21206732668E-01	4.98551611021E+00	1.59352226635E+02	-5.45041545498E+01	5.22439988770E+01	-5.97678041407E+00	-7.76139294179E-01
1.72024669408E+06	-9.84968196105E+00	-5.53052381923E-02	4.97270818060E+00	1.59326237170E+02	-4.99533114178E+01	1.61636927679E+02	-5.96751048318E+00	-8.94890862545E-01
1.74243804867E+06	-1.57014178212E+01	1.58540450125E+00	4.93414581775E+00	1.58611013023E+02	-4.95344375550E+01	1.35750961621E+02	-5.97238091217E+00	-7.99003503179E-01
1.76462940327E+06	-1.34663974711E+01	-3.69309264593E+00	4.96755223020E+00	1.58458499227E+02	-6.21926181133E+01	1.29687938157E+02	-5.97588445289E+00	-8.09939868724E-01
1.78682075786E+06	-1.55671045798E+01	-4.53524784996E+00	4.95620304615E+00	1.58162064798E+02	-5.15375753799E+01	-4.23603152565E+01	-5.98044080345E+00	-8.98274564415E-01
1.80901211246E+06	-1.55565847660E+01	9.53594566389E+00	4.91854897673E+00	1.57986689333E+02	-4.65039481361E+01	-1.24936420682E+02	-5.97050677840E+00	-8.56820617759E-01
1.83120346705E+06	-1.43593201430E+01	-8.33576477800E+00	4.96172448381E+00	1.57803861996E+02	-4.99728675327E+01	9.47664415722E+01	-5.96966078930E+00	-9.53103617184E-01
1.85339482165E+06	-1.48796471224E+01	1.90216505417E+01	4.91873726566E+00	1.57490253697E+02	-4.52966409916E+01	-8.35074793868E+00	-5.99261925305E+00	-8.64405376267E-01
1.87558617624E+06	-1.34819058319E+01	-2.62452813196E+00	4.96265030300E+00	1.57128720446E+02	-5.15667668635E+01	1.76667070126E+02	-5.97203520521E+00	-9.56682665828E-01
1.89777753084E+06	-1.30568487753E+01	1.51770051912E+00	4.97015504822E+00	1.56788566407E+02	-4.76181039363E+01	-4.03689279803E+01	-5.98162176585E+00	-8.45044538733E-01
1.91996888543E+06	-1.51441316777E+01	9.11835903451E-01	4.93232040313E+00	1.56643374341E+02	-4.23255180129E+01	-1.53650928594E+02	-5.97608394077E+00	-8.60477394166E-01
1.94216024003E+06	-1.31990063733E+01	6.67103352629E+00	4.91916533518E+00	1.56443972546E+02	-6.17507229376E+01	-1.35500789251E+02	-5.96273945969E+00	-9.51070304015E-01
1.96435159462E+06	-1.32381625958E+01	-4.10465263266E+00	4.93143796648E+00	1.56053524051E+02	-5.13637836272E+01	1.04429647409E+02	-5.97977295619E+00	-9.79537450552E-01
1.98654294922E+06	-1.38505558769E+01	5.45798489144E+00	4.93881723806E+00	1.55796330447E+02	-5.74798870140E+01	-9.74712790389E+01	-5.97856838946E+00	-8.71689758843E-01
2.00873430381E+06	-1.59944231088E+01	-2.45145112681E+00	4.93201443519E+00	1.55426062670E+02	-4.71586889862E+01	-1.38144683544E+02	-5.97816295983E+00	-8.46609254813E-01
2.03092565841E+06	-1.28121873906E+01	-1.23694699850E+00	4.91630468319E+00	1.55060703758E+02	-4.89605455652E+01	1.57392434842E+01	-5.96156444771E+00	-9.64395978906E-01
2.05311701300E+06	-1.39999615403E+01	2.43459747289E+00	4.92432958649E+00	1.55006962679E+02	-5.72948258559E+01	6.16295250409E+01	-5.97697287062E+00	-9.68380712415E-01
2.07530836760E+06	-1.54745753371E+01	6.43084829958E+00	4.91443335083E+00	1.54539165279E+02	-5.66582744863E+01	1.69164865348E+02	-5.98313597193E+00	-9.54852225969E-01
2.09749972219E+06	-1.55953395180E+01	2.44492387887E+00	4.91338709173E+00	1.54251403279E+02	-6.32695329796E+01	-1.58518595783E+02	-5.97354797253E+00	-9.71718476308E-01
2.11969107679E+06	-1.35318881067E+01	-1.04029857594E+00	4.92273627169E+00	1.54036454049E+02	-4.77794751930E+01	-2.02115410647E+01	-5.97323167411E+00	-9.62114477631E-01
2.14188243138E+06	-1.43218771379E+01	4.80489605588E+00	4.87034059750E+00	1.53726990843E+02	-4.47680849557E+01	1.46860228414E+02	-5.96177439490E+00	-1.04982580766E+00
2.16407378598E+06	-1.37574205466E+01	2.28493820284E+00	4.87824580233E+00	1.53639855550E+02	-5.07824919626E+01	-3.90110391333E+01	-5.98406489426E+00	-1.09689319492E+00
2.18626514057E+06	-7.89671513611E+00	1.66299742196E+00	4.86590422752E+00	1.53771887197E+02	-5.21574957795E+01	-1.23597353876E+02	-5.97499858936E+00	-9.79715314163E-01
2.20845649517E+06	-1.45529250940E+01	-4.57475458038E-01	4.89358672488E+00	1.52871767084E+02	-5.16835922835E+01	-4.03896714755E+01	-5.97087753991E+00	-1.03688663220E+00
2.23064784976E+06	-1.45027193610E+01	6.99462018487E+00	4.88470699724E+00	1.52641471615E+02	-5.51745295672E+01	-2.58444766922E+00	-5.96824681916E+00	-1.07793669326E+00
2.25283920436E+06	-1.39719431504E+01	4.11759048954E+00	4.89072498629E+00	1.52561640785E+02	-4.48814740646E+01	-1.19493743880E+02	-5.98831191445E+00	-1.10132954444E+00
2.27503055895E+06	-1.43188540207E+01	-6.98855542561E+00	4.87728304465E+00	1.52293185868E+02	-5.34161966745E+01	-1.02069566580E+01	-5.98223558316E+00	-1.14464169015E+00
2.29722191355E+06	-1.12481640268E+01	-3.17530448370E+00	4.87115525775E+00	1.52020473503E+02	-6.28594797220E+01	1.21894401904E+02	-5.98337251267E+00	-1.11916457692E+00
2.31941326814E+06	-1.39229594527E+01	9.73407363971E-01	4.86367205928E+00	1.51665637453E+02	-6.41987291878E+01	-2.56108115693E+01	-5.97015673763E+00	-1.06660445118E+00
2.34160462274E+06	-1.29469012872E+01	-9.23970370193E+00	4.88672953635E+00	1.51420916807E+02	-4.99387295616E+01	-1.46554938411E+02	-5.96771604694E+00	-1.13149692738E+00
2.36379597733E+06	-1.49471918311E+01	7.58798117898E+00	4.85998852032E+00	1.50902616051E+02	-4.78541965879E+01	-4.49206424854E+00	-5.97289912586E+00	-1.12874508605E+00
2.38598733193E+06	-1.41676686407E+01	3.06087990774E+00	4.85265274455E+00	1.50747167145E+02	-4.61840233249E+01	8.94417046602E+01	-5.96835860251E+00	-1.12797183810E+00
2.40817868652E+06	-1.44097770408E+01	2.26534110759E+01	4.81100197965E+00	1.50734326221E+02	-4.75275798210E+01	-9.54289164061E+01	-5.98527884215E+00	-1.20335966764E+00
2.43037004112E+06	-1.53546253656E+01	4.74378997900E+00	4.86188004790E+00	1.50074237189E+02	-5.38608377693E+01	1.49157206747E+02	-5.97325718093E+00	-1.50339456877E+00
2.45256139571E+06	-1.42222788361E+01	-1.27669592858E-01	4.84869005604E+00	1.50194017720E+02	-4.94992372612E+01	3.22384549328E+01	-5.98630035483E+00	-1.07197293452E+00
2.47475275031E+06	-1.31160967106E+01	8.19703785345E-01	4.84732714575E+00	1.49706581355E+02	-4.71696400955E+01	-1.54349865271E+02	-5.96925126760E+00	-1.14908589389E+00
2.49694410490E+06	-1.41671001262E+01	-2.68384966383E+00	4.82818899454E+00	1.49533060868E+02	-5.04958176380E+01	2.94323246459E+01	-5.98126328371E+00	-1.19023645558E+00
2.51913545950E+06	-1.30297616183E+01	3.89241643298E-01	4.85572944345E+00	1.49166879937E+02	-5.23317234458E+01	-1.18897746449E+02	-5.98843378968E+00	-1.08438547418E+00
2.54132681409E+06	-1.68909928529E+01	-1.19977932067E+01	4.84692397259E+00	1.48837266503E+02	-5.97980448391E+01	-1.09420897647E+02	-5.98513047766E+00	-1.11047363043E+00
2.56351816869E+06	-1.34461751868E+01	1.98776639292E+00	4.82571819253E+00	1.48776276422E+02	-6.61946475442E+01	-8.18613742611E+01	-5.97534615922E+00	-1.19164563923E+00
2.58570952328E+06	-1.34959857359E+01	2.31951397451E+00	4.80728873806E+00	1.48391207241E+02	-5.91164884285E+01	-9.70675412205E+01	-5.97920850622E+00	-1.11928635302E+00
2.60790087788E+06	-1.34137560157E+01	-1.05474874942E+01	4.81687382737E+00	1.48111367785E+02	-4.95011813653E+01	-9.12513530349E+01	-5.98588333042E+00	-1.05135017655E+00
2.63009223247E+06	-1.32177898087E+01	-5.50002886916E+00	4.80565485007E+00	1.47990990631E+02	-5.93837073522E+01	-4.98222375023E+01	-5.98040916141E+00	-7.85698736901E-01
2.65228358707E+06	-1.15188549010E+01	-8.85882000098E+00	4.80938815554E+00	1.47598178010E+02	-4.86636944297E+01	-8.66258622485E+01	-5.96405088043E+00	-1.19696679130E+00
2.67447494166E+06	-1.34727333974E+01	-1.26032174804E-01	4.78849029044E+00	1.47250026378E+02	-5.24145155088E+01	1.40699599011E+02	-5.96741214245E+00	-1.22469007402E+00
2.69666629626E+06	-1.49307784330E+01	-7.28975060666E-01	4.78512936649E+00	1.46989187187E+02	-5.11547226285E+01	1.16951586810E+02	-5.97498485075E+00	-1.24142224769E+00
2.71885765085E+06	-1.53201967215E+01	-9.49651251629E-01	4.78694377044E+00	1.46699831164E+02	-4.35002756073E+01	-1.55793496545E+02	-5.97031740800E+00	-1.18269713910E+00
2.74104900545E+06	-1.37714009194E+01	-7.24098589529E+00	4.77038525183E+00	1.46419032630E+02	-4.48832118235E+01	-1.72272666693E+02	-5.96566050736E+00	-1.22482157537E+00
2.76324036004E+06	-1.23249417344E+01	8.24651416326E+00	4.77258055013E+00	1.46306461919E+02	-5.47899853949E+01	-1.03005290926E+02	-5.97854139853E+00	-1.23685295313E+00
2.78543171463E+06	-1.30921197595E+01	-6.04693761027E-01	4.77505271104E+00	1.45920346173E+02	-5.87573751579E+01	-1.36928972758E+02	-5.96591383270E+00	-1.29377821316E+00
2.80762306923E+06	-1.43741431314E+01	-3.53588097585E+00	4.76047507625E+00	1.45581581618E+02	-5.09033601646E+01	-7.49245543488E+01	-5.99027004699E+00	-1.23028765609E+00
2.82981442382E+06	-1.34856444846E+01	-7.28771767808E+00	4.75738882091E+00	1.45369201470E+02	-4.54394070715E+01	5.45470105423E+00	-5.98974770555E+00	-1.33538998715E+00
2.85200577842E+06	-1.37281164216E+01	-1.32640553149E+00	4.76885106718E+00	1.45138112349E+02	-7.32476600817E+01	5.26775579671E+01	-5.96997869909E+00	-1.34748177777E+00
2.87419713301E+06	-1.57221163810E+01	6.45613858073E+00	4.73047111438E+00	1.44847271125E+02	-5.10902028502E+01	1.03102107799E+02	-5.97638145604E+00	-1.42591909542E+00
