# Hz S DB R 50
! CMT, M5065, 19127446, 24.2.4/2
! Date: 11/8/2024 6:34:01 PM
! Data: Format (Calibration Info)
! Freq	S11:dB/Ang(F2)	S21:dB/Ang(F2)	S12:dB/Ang(F2)	S22:dB/Ang(F2)
3.00000000000E+05	-1.22831408193E+01	6.78052039387E+00	-3.30308545320E+00	1.78650294206E+02	-5.30370243178E+01	1.25132114112E+02	-5.97023724011E+00	-2.64759576448E-01
3.22191354595E+05	-1.39907419302E+01	1.91753914768E+01	-3.30591113084E+00	1.77986840671E+02	-4.69320166365E+01	-1.33140592461E+02	-5.96461414819E+00	-2.12557902985E-01
3.44382709190E+05	-1.39911760180E+01	1.27904352760E+01	-3.30155197803E+00	1.77588241896E+02	-5.02394732052E+01	-1.13120658274E+02	-5.96157305672E+00	-2.61764371669E-01
3.66574063785E+05	-1.44037590480E+01	1.86343443831E+01	-3.33228003949E+00	1.77538258123E+02	-4.87014568637E+01	-3.90073233444E+01	-5.97803834111E+00	-2.41329437822E-01
3.88765418380E+05	-1.62072515989E+01	8.27064245116E+00	-3.37174852427E+00	1.77019205620E+02	-5.17058562985E+01	-5.38223520651E+01	-5.92620748610E+00	-1.76962471882E-01
4.10956772975E+05	-1.46011306826E+01	1.91286495893E+01	-3.32041581708E+00	1.76947253022E+02	-4.71080514474E+01	1.10011158252E+02	-5.96884372005E+00	-2.70608605043E-01
4.33148127570E+05	-1.30588308934E+01	7.31872454162E+00	-3.32159513773E+00	1.76811053681E+02	-5.47899485746E+01	-7.96462393877E+01	-5.96601715111E+00	-2.96337322414E-01
4.55339482165E+05	-1.57766017201E+01	1.33138428620E+01	-3.40969667885E+00	1.76743189293E+02	-4.61826321157E+01	1.57194852320E+02	-5.96472654039E+00	-3.26034438087E-01
4.77530836760E+05	-1.30248963226E+01	8.19129233213E+00	-3.34372030025E+00	1.76592786454E+02	-4.83047443980E+01	1.61286261049E+02	-5.95840051235E+00	-3.19208984645E-01
4.99722191355E+05	-1.49196330689E+01	1.32520298586E+01	-3.29570959113E+00	1.76385420740E+02	-5.80025471863E+01	8.03897764909E+01	-5.96075217016E+00	-2.84336341211E-01
5.21913545950E+05	-1.44373479453E+01	5.33983843908E+00	-3.31175901706E+00	1.75588972167E+02	-7.75751523868E+01	-1.32381178510E+02	-5.96145820928E+00	-3.44392382072E-01
5.44104900545E+05	-1.50697182888E+01	2.78008908910E+01	-3.32668425750E+00	1.75438470185E+02	-4.88568680209E+01	-1.37597030974E+02	-5.95704302344E+00	-2.37056984187E-01
5.66296255139E+05	-1.36690369988E+01	7.41885551734E+00	-3.32719561816E+00	1.75466795718E+02	-5.63006340061E+01	1.29443223217E+02	-5.95101575348E+00	-3.18774259123E-01
5.88487609734E+05	-1.53261298687E+01	1.15006637737E+01	-3.34422457605E+00	1.75009682002E+02	-6.38819276445E+01	-3.93290682365E+01	-5.96057755807E+00	-3.98699730679E-01
6.10678964329E+05	-1.57209572166E+01	2.75273576846E-01	-3.33905020169E+00	1.75234884150E+02	-4.87358917977E+01	-1.41603352124E+02	-5.95217592724E+00	1.55912861667E-01
6.32870318924E+05	-1.44394008776E+01	2.30026036111E+00	-3.32961120337E+00	1.74980403841E+02	-5.20001347415E+01	-1.28010950995E+02	-5.95921334470E+00	-1.17051656195E-01
6.55061673519E+05	-1.65054157418E+01	4.76706046625E+00	-3.35192887210E+00	1.74306909083E+02	-4.39253881377E+01	8.84554881393E+00	-5.96508155886E+00	-2.89910248386E-01
6.77253028114E+05	-1.23355672735E+01	6.33801100953E+00	-3.35606106314E+00	1.74614503850E+02	-5.17102515078E+01	-1.10082547467E+02	-5.96163616645E+00	-6.50343934102E-01
6.99444382709E+05	-1.38508237051E+01	6.66913423350E+00	-3.39828577994E+00	1.74314163457E+02	-6.33516235149E+01	-1.09051836477E+01	-5.95160784465E+00	-4.06133700369E-01
7.21635737304E+05	-1.38926583953E+01	1.52467185983E+00	-3.37697513783E+00	1.74204074583E+02	-5.54104671967E+01	7.81941638112E+01	-5.96270526464E+00	-3.46936094295E-01
7.43827091899E+05	-1.55736183964E+01	-1.92186260830E+00	-3.37272310689E+00	1.73918379364E+02	-5.42188078293E+01	4.46246033724E+01	-5.96632577268E+00	-4.12031778483E-01
7.66018446494E+05	-1.69011560497E+01	1.98808775746E+01	-3.31336574546E+00	1.73520441457E+02	-4.20004030343E+01	-1.21190103810E+02	-5.95562693165E+00	-3.82835408624E-01
7.88209801089E+05	-1.34171812514E+01	1.20607988523E+01	-3.28112657430E+00	1.73775386066E+02	-4.72502399019E+01	-1.53414600680E+02	-5.96520969385E+00	-4.23183654545E-01
8.10401155684E+05	-1.52175110370E+01	-3.42880375990E+00	-3.33704542175E+00	1.73149702017E+02	-5.17489210038E+01	-1.29551895531E+02	-5.96949701296E+00	-3.53928234036E-01
8.32592510279E+05	-1.39786650012E+01	3.91640466539E+00	-3.34205047009E+00	1.72728297710E+02	-5.90928425761E+01	2.32893142057E+00	-5.95845266597E+00	-4.32163408421E-01
8.54783864874E+05	-1.27496409230E+01	9.37433133877E+00	-3.28909966386E+00	1.72631365927E+02	-5.09670715824E+01	-1.26869244493E+02	-5.95881265312E+00	-3.57686598193E-01
8.76975219469E+05	-1.45933834872E+01	2.87315169807E+00	-3.39114169547E+00	1.72696956291E+02	-4.73566887870E+01	4.79600888574E+01	-5.96809591930E+00	-5.13275175475E-01
8.99166574064E+05	-1.49558899987E+01	2.45880846926E-01	-3.39371739604E+00	1.72239767598E+02	-4.97257924546E+01	1.68172648146E+02	-5.97107559858E+00	-4.24339792745E-01
9.21357928659E+05	-1.37492222949E+01	7.61350790953E+00	-3.35564680371E+00	1.72336496842E+02	-5.13922791895E+01	-1.34545248009E+02	-5.96259400116E+00	-4.46947812391E-01
9.43549283254E+05	-1.60013269058E+01	1.46697839201E+01	-3.40365120030E+00	1.72225542621E+02	-4.66934799762E+01	-1.17813108872E+02	-5.96482409130E+00	-4.80426744409E-01
9.65740637849E+05	-1.39268804839E+01	2.77669356340E+00	-3.39929220080E+00	1.71675730369E+02	-5.85345015889E+01	9.34031446814E+01	-5.95268710898E+00	-5.01371741371E-01
9.87931992444E+05	-1.42766609876E+01	-3.52979237023E+00	-3.35883834254E+00	1.71585847584E+02	-5.98647230749E+01	-9.40038984841E+01	-5.96307699043E+00	-4.73322728351E-01
1.01012334704E+06	-1.41145545304E+01	-1.10059514190E+01	-3.36779382166E+00	1.71020773754E+02	-4.18560720070E+01	-4.66625483064E+01	-5.96777596797E+00	-5.23176055593E-01
1.03231470163E+06	-1.55325389340E+01	2.50237614570E+00	-3.31607085559E+00	1.71121150048E+02	-5.55591937684E+01	-8.80279597210E+01	-5.96615995352E+00	-5.53633804007E-01
1.05450605623E+06	-1.39770847152E+01	1.03524211738E+01	-3.42764770336E+00	1.70912282717E+02	-5.59156941611E+01	2.39708260441E+00	-5.97008771124E+00	-6.13299069618E-01
1.07669741082E+06	-1.57068662412E+01	5.10714545374E+00	-3.40243702731E+00	1.70486343060E+02	-4.52068975587E+01	1.64494305720E+02	-5.95077481418E+00	-5.70824949911E-01
1.09888876542E+06	-1.47442465220E+01	9.73210968488E+00	-3.38617540906E+00	1.70590634653E+02	-4.64976672600E+01	1.22360991165E+02	-5.95382050786E+00	-5.41235513375E-01
1.12108012001E+06	-1.34990891782E+01	-3.42922100813E+00	-3.34332997347E+00	1.70524312787E+02	-5.31193093242E+01	-1.71297452568E+02	-5.96378702701E+00	-5.60813584198E-01
1.14327147461E+06	-1.43273147387E+01	4.12103554579E+00	-3.36495655178E+00	1.70115640981E+02	-4.99152075726E+01	7.71700069847E+01	-5.95696029819E+00	-5.27414287198E-01
1.16546282920E+06	-1.44847616325E+01	-8.74715387505E+00	-3.38873661458E+00	1.69763474546E+02	-4.80671651238E+01	-1.57257583477E+02	-5.96095902955E+00	-5.91125778494E-01
1.18765418380E+06	-1.44426175235E+01	3.03842817512E+00	-3.42083975979E+00	1.69585113792E+02	-4.81000337211E+01	-9.85019427841E+01	-5.96787259203E+00	-5.91157334627E-01
1.20984553839E+06	-1.50965136010E+01	2.07329843893E+01	-3.38440228310E+00	1.69680811566E+02	-5.27378384520E+01	1.13896092907E+02	-5.96520782461E+00	-7.49448138062E-01
1.23203689299E+06	-1.45473620386E+01	-8.19771884937E+00	-3.38503021751E+00	1.69070342324E+02	-4.86942774216E+01	1.20675653535E+02	-5.97548993285E+00	-3.50438032948E-01
1.25422824758E+06	-1.59300371767E+01	4.24327639564E+00	-3.40249615023E+00	1.68906725834E+02	-5.19126965486E+01	3.88894487491E+01	-5.97532257244E+00	-5.90900238259E-01
1.27641960218E+06	-1.41015805364E+01	3.37670994350E+00	-3.39639197663E+00	1.68587112970E+02	-6.05556273189E+01	-1.49876859299E+02	-5.97633557191E+00	-6.31537052749E-01
1.29861095677E+06	-1.41155026489E+01	6.60220794400E+00	-3.37051289802E+00	1.68842157821E+02	-4.87249981686E+01	6.82517208680E+01	-5.97062753479E+00	-6.43339148697E-01
1.32080231137E+06	-1.44225370188E+01	-1.37748436376E+00	-3.35488236155E+00	1.68229338538E+02	-5.22816962011E+01	-6.32884057599E+01	-5.96809969849E+00	-9.97554085121E-01
1.34299366596E+06	-1.27624774715E+01	-6.34851203724E+00	-3.39150520097E+00	1.68410693043E+02	-4.78647656512E+01	-1.65491042903E+02	-5.95551137078E+00	-7.10812403153E-01
1.36518502056E+06	-1.64724878624E+01	1.11840036948E+01	-3.42013534856E+00	1.68052064719E+02	-4.57245625579E+01	-1.02190532863E+02	-5.96461022196E+00	-6.02975625142E-01
1.38737637515E+06	-1.33300123651E+01	1.69778361719E+01	-3.44073972698E+00	1.67984309084E+02	-5.38482961878E+01	-1.59972362476E+02	-5.96101818772E+00	-6.73252160672E-01
1.40956772975E+06	-1.51280805876E+01	3.43233166423E+00	-3.37757589714E+00	1.67495908356E+02	-5.84194625776E+01	9.87315837512E+01	-5.96665125621E+00	-7.57570660566E-01
1.43175908434E+06	-1.50722157460E+01	6.97893170628E+00	-3.43224873940E+00	1.67507241561E+02	-4.77999534900E+01	-1.75974709516E+02	-5.95853762652E+00	-6.60173974902E-01
1.45395043894E+06	-1.16586160902E+01	-5.47706740561E-01	-3.40363227399E+00	1.67193689487E+02	-4.32572489223E+01	1.19407626285E+02	-5.96629518940E+00	-7.00324809856E-01
1.47614179353E+06	-1.34717160345E+01	-8.69518873921E-01	-3.39684769811E+00	1.67017708374E+02	-4.99419857410E+01	3.53773154582E+01	-5.96952668324E+00	-7.09616691367E-01
1.49833314813E+06	-1.45673322250E+01	1.07259012186E+01	-3.35002392944E+00	1.66664136834E+02	-5.21999716211E+01	6.94282575207E+01	-5.97133239189E+00	-7.05446380953E-01
1.52052450272E+06	-1.51902423008E+01	3.89821678303E+00	-3.41476461999E+00	1.66314349734E+02	-4.87659341770E+01	1.48228836111E+02	-5.96050604438E+00	-7.45641657662E-01
1.54271585732E+06	-1.28110120813E+01	3.26672711697E+00	-3.38221295154E+00	1.66348055030E+02	-4.98902061087E+01	-6.53029478475E+01	-5.96546692948E+00	-7.37683957787E-01
1.56490721191E+06	-1.35580774880E+01	7.18571772069E+00	-3.38513412413E+00	1.66478960980E+02	-6.30714140443E+01	9.42608202869E+01	-5.96625670120E+00	-7.51580810970E-01
1.58709856651E+06	-1.38558387080E+01	9.99333392109E+00	-3.46939652460E+00	1.65415014406E+02	-5.94476146324E+01	1.71882960963E+02	-5.95797513110E+00	-7.99350864309E-01
1.60928992110E+06	-1.37846625152E+01	-7.90617848141E+00	-3.41752898648E+00	1.65545536837E+02	-5.48529486671E+01	-1.33978610592E+02	-5.95098537022E+00	-7.26436661665E-01
1.63148127570E+06	-1.33576173576E+01	-2.98175170566E+00	-3.36424040964E+00	1.65436052055E+02	-7.80525246970E+01	-8.03873529416E+01	-5.96785946177E+00	-7.56878188763E-01
1.65367263029E+06	-1.43438767028E+01	3.74486244182E+00	-3.42450680157E+00	1.64979661385E+02	-5.56457763088E+01	1.27260613648E+02	-5.96385535341E+00	-7.69111362609E-01
1.67586398489E+06	-1.58688951265E+01	2.35367111870E-01	-3.42644970980E+00	1.64880155188E+02	-4.78395003420E+01	-1.53021178280E+02	-5.96193053827E+00	-7.80614083118E-01
1.69805533948E+06	-1.37112616713E+01	3.48729075683E+00	-3.44657215270E+00	1.64983476184E+02	-4.91530229071E+01	1.65411005805E+02	-5.97044612388E+00	-7.73385826171E-01
1.72024669408E+06	-1.27428228773E+01	-2.86075126715E+00	-3.45096729936E+00	1.64704311752E+02	-6.98263499138E+01	7.98180784067E+01	-5.96579150987E+00	-7.88830726870E-01
1.74243804867E+06	-1.51844544023E+01	5.27431329020E-01	-3.38787894419E+00	1.64673102448E+02	-5.20719787061E+01	1.63411024935E+02	-5.96249801073E+00	-8.90202221439E-01
1.76462940327E+06	-1.39354189325E+01	1.11805006063E+01	-3.49187606192E+00	1.64474604170E+02	-5.57271297243E+01	1.29338461436E+02	-5.95751456808E+00	-8.42336335107E-01
1.78682075786E+06	-1.57815566133E+01	-4.66031812800E+00	-3.41676240836E+00	1.64438678500E+02	-5.15845248743E+01	8.48112717270E+01	-5.96389002789E+00	-8.90701400153E-01
1.80901211246E+06	-1.31437724616E+01	1.24709795494E+01	-3.48893178215E+00	1.64229149349E+02	-3.73888972225E+01	3.47349402851E+01	-5.96702873547E+00	-8.89383726958E-01
1.83120346705E+06	-1.33863259359E+01	7.12156824511E+00	-3.38367616062E+00	1.64104962055E+02	-4.27668782272E+01	4.69629671204E+01	-5.96114493862E+00	-9.16479560568E-01
1.85339482165E+06	-1.71414889245E+01	2.23854087289E+00	-3.44291480964E+00	1.63372413676E+02	-5.90769202292E+01	9.80157281214E+01	-5.97099281759E+00	-9.04571275175E-01
1.87558617624E+06	-1.37354005104E+01	3.35810421487E+00	-3.41433574145E+00	1.63470446626E+02	-6.04858676220E+01	-6.52936349590E+01	-5.95382977369E+00	-8.65665019469E-01
1.89777753084E+06	-1.40588303442E+01	3.75507120108E+00	-3.39822642574E+00	1.63162324581E+02	-5.31020865681E+01	1.24953885807E+02	-5.96901748398E+00	-8.57976130766E-01
1.91996888543E+06	-1.37067074680E+01	-4.78116098408E+00	-3.35157561556E+00	1.62847730648E+02	-4.40663896225E+01	1.79312224238E+02	-5.96901588513E+00	-9.30723497605E-01
1.94216024003E+06	-1.38645303153E+01	1.13791703317E-01	-3.45768542722E+00	1.62863438288E+02	-4.68190470002E+01	1.24808048593E+02	-5.96272218504E+00	-9.27927687945E-01
1.96435159462E+06	-1.34995607118E+01	-2.93984814631E+00	-3.40025913141E+00	1.62567392919E+02	-5.68827371918E+01	-6.16905011333E+01	-5.97115757377E+00	-8.53683123239E-01
1.98654294922E+06	-1.42603779332E+01	5.86973288917E+00	-3.42720752859E+00	1.62466282910E+02	-5.19302728575E+01	5.19060069993E+01	-5.97662359738E+00	-8.56270314441E-01
2.00873430381E+06	-1.35955947742E+01	8.09029115113E+00	-3.41527799728E+00	1.62334226306E+02	-5.23798098841E+01	-1.67766782388E+02	-5.95952491968E+00	-9.33222088877E-01
2.03092565841E+06	-1.13699645579E+01	-4.73275583215E+00	-3.39965784816E+00	1.61949324409E+02	-4.86559283382E+01	-2.78759790205E+01	-5.96859869301E+00	-8.62016796216E-01
2.05311701300E+06	-1.55647728881E+01	-3.79610386994E+00	-3.46777547480E+00	1.61937128380E+02	-4.19344862223E+01	7.16529478506E+01	-5.96273602123E+00	-9.67722932950E-01
2.07530836760E+06	-1.56763087813E+01	-7.75480109158E+00	-3.50528205946E+00	1.61673200202E+02	-4.87803289521E+01	-6.53045128497E+01	-5.96314097051E+00	-1.00589355425E+00
2.09749972219E+06	-1.50033026608E+01	-3.65315116251E+00	-3.41012519933E+00	1.61476656187E+02	-5.71638937810E+01	-1.17953026910E+01	-5.96784677138E+00	-9.98232249362E-01
2.11969107679E+06	-1.40438317006E+01	-4.59750103226E+00	-3.45471336128E+00	1.60934424720E+02	-5.65148404468E+01	9.08194573858E+01	-5.97263514912E+00	-9.85727280404E-01
2.14188243138E+06	-1.56029721304E+01	-2.62425639419E+01	-3.39886473371E+00	1.60897427627E+02	-5.05608540066E+01	-1.57088385853E+02	-5.96020950562E+00	-1.04237227971E+00
2.16407378598E+06	-1.34988988205E+01	-3.42825325721E+00	-3.47533385840E+00	1.60739662225E+02	-4.63224056101E+01	2.89440101296E+01	-5.97249358069E+00	-1.00219037627E+00
2.18626514057E+06	-1.43362021209E+01	1.08405264945E+00	-3.49026169669E+00	1.60287891132E+02	-5.99343068819E+01	-1.10913618220E+02	-5.95860689126E+00	-9.91644361702E-01
2.20845649517E+06	-1.39070885656E+01	1.03089209243E+01	-3.46311884152E+00	1.60737525996E+02	-6.90584346148E+01	-8.87281033435E+01	-5.95705762794E+00	-1.02496558086E+00
2.23064784976E+06	-1.32536175261E+01	5.71269847201E+00	-3.47640193400E+00	1.59991892835E+02	-7.09964567808E+01	8.36797601207E+01	-5.95844580432E+00	-1.10342811186E+00
2.25283920436E+06	-1.58797856893E+01	-2.90688736126E-01	-3.48213050920E+00	1.60259401937E+02	-5.64046427151E+01	1.73428654099E+02	-5.96283878161E+00	-1.02263962546E+00
2.27503055895E+06	-1.81465184207E+01	2.92674254657E-01	-3.49595945987E+00	1.59615185195E+02	-4.35208980432E+01	1.51137532583E+02	-5.96415624008E+00	-1.00036818698E+00
2.29722191355E+06	-1.47739924520E+01	3.99142729435E+00	-3.41575486273E+00	1.59378952581E+02	-5.65268979949E+01	4.14981972549E+01	-5.97078042013E+00	-9.85541626901E-01
2.31941326814E+06	-1.38397097093E+01	8.15032929274E+00	-3.48533516682E+00	1.59496084715E+02	-5.30551790237E+01	8.46286825822E+01	-5.96195572096E+00	-1.04572444940E+00
2.34160462274E+06	-1.46178761931E+01	2.76208538959E+00	-3.43920300761E+00	1.58878555790E+02	-4.81889177038E+01	9.90131395831E+01	-5.97459933180E+00	-1.15415492851E+00
2.36379597733E+06	-1.46632782452E+01	-7.49591894597E-01	-3.48766786984E+00	1.58983263534E+02	-4.54818437670E+01	5.01234846633E+01	-5.96855865613E+00	-1.09853936802E+00
2.38598733193E+06	-1.32592455122E+01	-8.14341052426E+00	-3.47839546239E+00	1.59080831209E+02	-4.52938681973E+01	1.25228943505E+02	-5.96159195161E+00	-1.10143866919E+00
2.40817868652E+06	-1.51698049238E+01	-4.36941935010E+00	-3.51282835803E+00	1.58058286789E+02	-4.78457035811E+01	-7.29631294067E+01	-5.97233090677E+00	-1.16990489683E+00
2.43037004112E+06	-1.29365696475E+01	1.17026148186E+01	-3.50353229628E+00	1.58596912763E+02	-5.40957856868E+01	-7.87518135562E+01	-5.97240479295E+00	-1.49572761869E+00
2.45256139571E+06	-1.34939141897E+01	1.37011082294E+00	-3.47731310244E+00	1.58264574707E+02	-4.56523263667E+01	1.10537482486E+02	-5.97082706774E+00	-1.14692995240E+00
2.47475275031E+06	-1.34959330203E+01	3.33694848706E+00	-3.52297407182E+00	1.57939634342E+02	-5.03833908530E+01	8.90111075954E+01	-5.96704465860E+00	-1.20798310972E+00
2.49694410490E+06	-1.16209401013E+01	-3.09389093832E-01	-3.49760702146E+00	1.57957316816E+02	-5.15802085619E+01	-1.08194032088E+02	-5.97616172421E+00	-1.16642911820E+00
2.51913545950E+06	-1.46632345040E+01	7.14914791500E+00	-3.50638279192E+00	1.57863044524E+02	-5.74531722181E+01	2.80382716995E+01	-5.98379817997E+00	-1.19662295341E+00
2.54132681409E+06	-1.34793892640E+01	7.40642437600E+00	-3.50624451685E+00	1.57490746781E+02	-4.74660244904E+01	4.91055811986E+01	-5.98632436825E+00	-1.24192707755E+00
2.56351816869E+06	-1.37234544510E+01	2.67210860216E+00	-3.47498097861E+00	1.57232584436E+02	-5.08614835080E+01	5.73005211454E+01	-5.98130156589E+00	-1.18882671808E+00
2.58570952328E+06	-1.25321652535E+01	-2.12790822413E-01	-3.49016159553E+00	1.57031017111E+02	-5.28315076602E+01	-9.20959028925E+01	-5.98360795807E+00	-1.16905572625E+00
2.60790087788E+06	-1.55202945772E+01	-1.95800107101E-01	-3.50890366647E+00	1.56934963860E+02	-5.22282596423E+01	-7.88952740154E+01	-5.95869060020E+00	-1.02833138024E+00
2.63009223247E+06	-1.62045829882E+01	3.72289385501E-01	-3.49505792900E+00	1.56683307009E+02	-3.72697742490E+01	5.53815646284E+01	-5.96659931660E+00	-7.81190164606E-01
2.65228358707E+06	-1.38454221568E+01	6.69661205301E+00	-3.51372346558E+00	1.56287037920E+02	-5.74416511543E+01	1.50021303243E+02	-5.96932778993E+00	-1.18863589954E+00
2.67447494166E+06	-1.55051028987E+01	3.05546802289E+00	-3.51888113727E+00	1.56000444752E+02	-5.61991419350E+01	-2.37729843121E+01	-5.97602949368E+00	-1.27508760485E+00
2.69666629626E+06	-1.39969772774E+01	2.97042798315E+00	-3.50251282637E+00	1.55900961361E+02	-4.57889734632E+01	-9.63073589924E+01	-5.97006245863E+00	-1.29664110858E+00
2.71885765085E+06	-1.65503147482E+01	-1.37050663702E+01	-3.51081556101E+00	1.55773397311E+02	-5.15272147845E+01	-7.82171695423E+01	-5.97968839864E+00	-1.25833190444E+00
2.74104900545E+06	-1.33997194120E+01	-5.16808286498E+00	-3.51913522866E+00	1.55310957608E+02	-4.28280565117E+01	1.23423695340E+02	-5.96485917424E+00	-1.31639237986E+00
2.76324036004E+06	-1.35751143148E+01	-3.69744858456E+00	-3.47655274761E+00	1.55238421315E+02	-5.07936041064E+01	1.62770397787E+02	-5.97042947975E+00	-1.28799426223E+00
2.78543171463E+06	-1.45355815452E+01	-3.60189819754E+00	-3.54445441195E+00	1.55039053516E+02	-5.36925895769E+01	-1.05922141051E+02	-5.96295423010E+00	-1.31633196511E+00
2.80762306923E+06	-1.37968804436E+01	-4.42173834146E+00	-3.52829121933E+00	1.54926024503E+02	-5.27162774905E+01	-1.88482339014E+01	-5.97884522977E+00	-1.28900345301E+00
2.82981442382E+06	-1.63854370635E+01	-2.76596482267E-01	-3.62119048730E+00	1.54747599123E+02	-5.36725761401E+01	4.80138545846E+01	-5.97285638067E+00	-1.25662240192E+00
2.85200577842E+06	-1.43722582809E+01	1.36770012857E+01	-3.50492960368E+00	1.54792133327E+02	-4.16470785178E+01	-7.96677252158E+01	-5.96874910314E+00	-1.27996830274E+00
2.87419713301E+06	-1.43491392447E+01	-2.72099027321E+00	-3.48625361165E+00	1.54414710240E+02	-5.69918058992E+01	1.67184487869E+02	-5.98128293254E+00	-1.32300502764E+00
