# Hz S DB R 50
! CMT, M5065, 19127446, 24.2.4/2
! Date: 11/8/2024 6:46:16 PM
! Data: Format (Calibration Info)
! Freq	S11:dB/Ang(F2)	S21:dB/Ang(F2)	S12:dB/Ang(F2)	S22:dB/Ang(F2)
3.00000000000E+05	-1.41149599591E+01	1.83075457263E+01	7.37941573004E+00	1.78576524177E+02	-5.15083484065E+01	2.64488594157E+01	-5.96441958730E+00	-2.91211211111E-01
3.22191354595E+05	-1.31901007108E+01	2.19392382128E+01	7.38061678285E+00	1.78088807185E+02	-4.61960070501E+01	1.21875853153E+02	-5.96648919336E+00	-3.94308107708E-01
3.44382709190E+05	-1.29132185450E+01	1.56441551260E+01	7.41603476713E+00	1.77458167443E+02	-6.02680197383E+01	-5.53273644456E+01	-5.95727746748E+00	-2.98355033449E-01
3.66574063785E+05	-1.36212890642E+01	1.38376220100E+01	7.37591685543E+00	1.77064947264E+02	-5.69726492648E+01	7.27641996179E+01	-5.97165254101E+00	-2.93805203367E-01
3.88765418380E+05	-1.36851342248E+01	1.27542821228E+01	7.39003934288E+00	1.76563515270E+02	-6.35783777552E+01	-1.79184234139E+02	-5.97815224129E+00	-1.66788051560E-01
4.10956772975E+05	-1.43161836229E+01	2.32319256923E+01	7.37901295980E+00	1.76076780592E+02	-4.62602873011E+01	-1.12680151369E+02	-5.96128397897E+00	-3.32684874085E-01
4.33148127570E+05	-1.36678834762E+01	1.04976572722E+01	7.36654286616E+00	1.75731554990E+02	-4.95890879196E+01	1.05499441330E+02	-5.96853057591E+00	-3.52770364779E-01
4.55339482165E+05	-1.27096490448E+01	1.85247120633E+01	7.37023190160E+00	1.75331903179E+02	-6.80448399303E+01	-1.44828639024E+01	-5.98346251181E+00	-3.56506088723E-01
4.77530836760E+05	-1.36924433298E+01	8.76615084396E+00	7.34686809671E+00	1.74903990493E+02	-5.08604484613E+01	1.72457472651E+01	-5.97844889026E+00	-4.27275395840E-01
4.99722191355E+05	-1.49673856860E+01	1.28384628446E+01	7.35076010300E+00	1.74531768043E+02	-5.56527071406E+01	1.74480450469E+02	-5.97576297463E+00	-3.69744156552E-01
5.21913545950E+05	-1.40049395103E+01	-4.30485753076E+00	7.35480525486E+00	1.74037500735E+02	-5.52994195864E+01	1.50229211743E+02	-5.96707945655E+00	-3.80188100157E-01
5.44104900545E+05	-1.59087338618E+01	1.90492805267E+01	7.35398013450E+00	1.73751953735E+02	-4.67611731941E+01	1.64670570934E+02	-5.95771079160E+00	-4.00276490889E-01
5.66296255139E+05	-1.48143929651E+01	1.01484496639E+01	7.35516992771E+00	1.73352135703E+02	-6.16424880687E+01	1.67772652945E+02	-5.97797138080E+00	-3.11929769612E-01
5.88487609734E+05	-1.15550076999E+01	7.51554783207E+00	7.37828799458E+00	1.73144387939E+02	-4.29437106011E+01	-1.19321744704E+02	-5.96267775930E+00	-3.47024302811E-01
6.10678964329E+05	-1.49198420184E+01	1.06371873737E+00	7.33615676827E+00	1.72640551474E+02	-5.96011998702E+01	1.19704785782E+02	-5.96215514197E+00	1.12648131085E-01
6.32870318924E+05	-1.38391423058E+01	1.47178863246E+01	7.31777018347E+00	1.72272875397E+02	-5.82192625705E+01	1.51683437140E+02	-5.98611353291E+00	-1.83124006925E-01
6.55061673519E+05	-1.26061795947E+01	2.01401400703E+00	7.32969382489E+00	1.71889618498E+02	-4.75876731046E+01	-2.23465047144E+00	-5.98154127234E+00	-3.13031573852E-01
6.77253028114E+05	-1.41593356750E+01	1.63058415488E+01	7.30552303597E+00	1.71450921298E+02	-5.00244498525E+01	5.69736971105E+01	-5.97129083602E+00	-7.74743933737E-01
6.99444382709E+05	-1.42052544865E+01	-1.95244135505E-01	7.32191130806E+00	1.71032324457E+02	-5.54773055453E+01	-1.67283081475E+02	-5.97077205650E+00	-4.27804817860E-01
7.21635737304E+05	-1.39272769958E+01	1.54960145171E+00	7.32380735342E+00	1.70797995344E+02	-5.04139323781E+01	-2.18560255850E+01	-5.97627862529E+00	-4.64573698247E-01
7.43827091899E+05	-1.41795650136E+01	1.62385016083E+01	7.28706806306E+00	1.70607132444E+02	-5.58502417369E+01	8.89040799960E+01	-5.97034572161E+00	-4.13414120218E-01
7.66018446494E+05	-1.80411754465E+01	1.55040101166E+01	7.28348250144E+00	1.69993456470E+02	-4.70648858914E+01	-1.39893403070E+02	-5.97487176632E+00	-3.35084769912E-01
7.88209801089E+05	-1.51243118661E+01	-5.13688544098E+00	7.31076485728E+00	1.69705847008E+02	-4.65393049130E+01	6.79172217883E+01	-5.96295899089E+00	-5.32206714302E-01
8.10401155684E+05	-1.46881032948E+01	-1.65403238969E+00	7.28722830175E+00	1.69305304508E+02	-6.79782736142E+01	1.07633293048E+02	-5.97434104461E+00	-4.55670665471E-01
8.32592510279E+05	-1.39732962632E+01	9.49577426829E+00	7.30324780973E+00	1.69005816362E+02	-5.13954638674E+01	8.34812854644E+01	-5.96648240463E+00	-4.89784566226E-01
8.54783864874E+05	-1.33057476135E+01	7.00569614399E+00	7.30231503640E+00	1.68801938919E+02	-5.58685339850E+01	5.84499379225E+01	-5.97189492727E+00	-4.43261232123E-01
8.76975219469E+05	-1.54837698157E+01	-1.66478700276E+01	7.27093700775E+00	1.68397173988E+02	-5.58103116897E+01	1.29307001621E+02	-5.97145735694E+00	-4.67797011522E-01
8.99166574064E+05	-1.44866537984E+01	-6.01351201928E+00	7.28481781125E+00	1.68006407981E+02	-5.51711704583E+01	7.95533996612E+00	-5.97863401202E+00	-4.80469659628E-01
9.21357928659E+05	-1.55955995674E+01	2.67152514964E+00	7.26017077627E+00	1.67752960993E+02	-4.48494954902E+01	7.90488960192E+01	-5.97578016171E+00	-5.23895245396E-01
9.43549283254E+05	-1.42623654558E+01	7.77629587605E+00	7.29285254273E+00	1.67500048114E+02	-5.74430085505E+01	5.42488491647E+01	-5.98189319133E+00	-4.88663450061E-01
9.65740637849E+05	-1.39023118247E+01	6.46047018051E+00	7.28675978006E+00	1.67101273106E+02	-6.32826948424E+01	-1.34575888830E+02	-5.96818181730E+00	-5.30075161220E-01
9.87931992444E+05	-1.42854087084E+01	1.59250592103E+01	7.26600458737E+00	1.66888282878E+02	-5.71121819038E+01	-2.00597072117E+01	-5.96895688077E+00	-5.10660054517E-01
1.01012334704E+06	-1.41330607243E+01	3.08749723070E+00	7.27846290270E+00	1.66516930879E+02	-4.38305138042E+01	1.36226964609E+02	-5.96873553417E+00	-4.92965882869E-01
1.03231470163E+06	-1.38263706081E+01	4.09101745405E+00	7.26856675014E+00	1.66021821568E+02	-6.02389366485E+01	-1.67959409322E+02	-5.96413858880E+00	-4.78645319729E-01
1.05450605623E+06	-1.33966886003E+01	6.11106581369E+00	7.26948767630E+00	1.65910076425E+02	-5.19300937707E+01	-8.42866912779E+01	-5.97199495068E+00	-4.28743300844E-01
1.07669741082E+06	-1.48444314522E+01	4.79749733596E+00	7.27290763163E+00	1.65527638767E+02	-5.18931072748E+01	-4.82932586875E+01	-5.96840835866E+00	-6.33612737419E-01
1.09888876542E+06	-1.52670210029E+01	4.43159554574E+00	7.25415157718E+00	1.65126408453E+02	-5.93113267344E+01	2.17445883221E-02	-5.96408663568E+00	-5.37545521724E-01
1.12108012001E+06	-1.32733946698E+01	6.93775676412E+00	7.24659155713E+00	1.64963374435E+02	-5.02662762567E+01	9.95355194214E+01	-5.97034571958E+00	-5.98182252330E-01
1.14327147461E+06	-1.28798514744E+01	3.76475131217E+00	7.26404995876E+00	1.64605064664E+02	-5.17045241952E+01	-1.55384562449E+01	-5.96721154046E+00	-5.55933359720E-01
1.16546282920E+06	-1.46667327753E+01	2.39367119630E+00	7.23748906852E+00	1.64241354339E+02	-5.18514377979E+01	-7.49502801465E+01	-5.97263478938E+00	-5.87586024815E-01
1.18765418380E+06	-1.37932535004E+01	2.68114680449E+00	7.25825994428E+00	1.64042322724E+02	-4.92140606818E+01	-5.81089601632E+01	-5.97714969856E+00	-5.39832583291E-01
1.20984553839E+06	-1.32274243874E+01	5.83284705485E-01	7.24917421450E+00	1.63639475052E+02	-4.80901639255E+01	-1.42290505617E+02	-5.95600148516E+00	-7.17185402499E-01
1.23203689299E+06	-1.49089041181E+01	-6.38912924543E+00	7.21782599566E+00	1.63371794912E+02	-5.52989029964E+01	1.40636941529E+01	-5.96619530629E+00	-3.55347244117E-01
1.25422824758E+06	-1.38720090771E+01	2.22930172338E+00	7.21699156856E+00	1.62970790995E+02	-4.35160690456E+01	-3.53165369733E+01	-5.98080058968E+00	-6.04876885876E-01
1.27641960218E+06	-1.36925538938E+01	1.04003046889E+01	7.21313938365E+00	1.62795364819E+02	-5.03424919381E+01	1.68602682522E+02	-5.96521846364E+00	-6.36637532532E-01
1.29861095677E+06	-1.42793444934E+01	1.22759468174E+00	7.20770451633E+00	1.62325928802E+02	-5.29996912409E+01	-1.53711661896E+02	-5.97979870604E+00	-6.70614735551E-01
1.32080231137E+06	-1.61230467004E+01	-2.11465198287E+00	7.21427152663E+00	1.61903185621E+02	-4.95246440172E+01	-1.40348824503E+02	-5.96300151687E+00	-9.62001035153E-01
1.34299366596E+06	-1.35915123551E+01	1.98473079085E+01	7.21872350096E+00	1.61838136299E+02	-4.83141048971E+01	1.23024709760E+02	-5.98084885959E+00	-8.00786306912E-01
1.36518502056E+06	-1.33706968291E+01	9.89086822263E+00	7.18978978328E+00	1.61536821507E+02	-5.52707559216E+01	-9.84570218806E+01	-5.96740322017E+00	-6.40968858985E-01
1.38737637515E+06	-1.49500771547E+01	-8.02048493489E+00	7.19904324432E+00	1.61030093289E+02	-5.27539060720E+01	1.76299009040E+02	-5.96860329658E+00	-7.26566062724E-01
1.40956772975E+06	-1.48255573418E+01	4.07129708968E+00	7.18398378250E+00	1.60779725296E+02	-5.97640969528E+01	3.58735706506E+01	-5.97504749306E+00	-6.89012778227E-01
1.43175908434E+06	-1.35434463251E+01	-2.41456488216E+00	7.19396247469E+00	1.60570755253E+02	-5.48690804745E+01	1.78716396468E+02	-5.95943738346E+00	-6.87990037734E-01
1.45395043894E+06	-1.43604804409E+01	-9.28304772058E+00	7.19142323805E+00	1.60113921710E+02	-4.60113367935E+01	-1.70878062227E+02	-5.95993408529E+00	-6.46358027921E-01
1.47614179353E+06	-1.42046638084E+01	4.13062171526E+00	7.19839991152E+00	1.59962321657E+02	-4.66301171080E+01	-1.10733404066E+02	-5.96771270224E+00	-6.51349219967E-01
1.49833314813E+06	-1.26860027243E+01	-9.54421179515E-02	7.18449274930E+00	1.59554499201E+02	-5.07489811529E+01	9.35505864373E+01	-5.97212906179E+00	-6.97151423318E-01
1.52052450272E+06	-1.33621080920E+01	1.56290466648E+00	7.18035060139E+00	1.59338070875E+02	-4.60573848187E+01	1.40076606622E+01	-5.99184283625E+00	-7.37722182175E-01
1.54271585732E+06	-1.36834146538E+01	-1.43017928335E-01	7.18530844801E+00	1.59019659934E+02	-5.26987776469E+01	-1.36024434210E+02	-5.96568285558E+00	-6.81113991446E-01
1.56490721191E+06	-1.40948569924E+01	8.91815973370E+00	7.17194749742E+00	1.58642367288E+02	-4.53649003591E+01	9.30947302800E+01	-5.97077847509E+00	-8.46441399425E-01
1.58709856651E+06	-1.37271462255E+01	1.10349236142E+01	7.15678303605E+00	1.58311223690E+02	-5.53359629661E+01	-1.06681417608E+02	-5.97958450505E+00	-7.78920739158E-01
1.60928992110E+06	-1.30756524034E+01	1.54317134818E+00	7.16008144698E+00	1.58039761764E+02	-5.25760379484E+01	1.96660063624E+01	-5.97779264388E+00	-8.39149748583E-01
1.63148127570E+06	-1.40486487622E+01	7.56683872351E-01	7.16240853118E+00	1.57708983718E+02	-4.44083564167E+01	9.81097540815E+01	-5.97736818033E+00	-9.83318482687E-01
1.65367263029E+06	-1.28304654725E+01	-3.53352248443E+00	7.15610558202E+00	1.57262587624E+02	-5.44575188331E+01	-5.82647709641E+01	-5.97980374168E+00	-6.96565473552E-01
1.67586398489E+06	-1.36392154614E+01	7.52726773362E+00	7.16205273423E+00	1.57160044926E+02	-4.88167870184E+01	1.32743900006E+02	-5.96646664243E+00	-8.30044770973E-01
1.69805533948E+06	-1.60109543921E+01	5.89429034228E+00	7.12220358602E+00	1.56762645600E+02	-4.79345780507E+01	3.11612058669E+01	-5.98113915672E+00	-7.81785768125E-01
1.72024669408E+06	-1.39990341558E+01	7.18957004100E-02	7.12254539837E+00	1.56560704555E+02	-5.20172165736E+01	3.33004352040E+01	-5.97930460265E+00	-7.77532296785E-01
1.74243804867E+06	-1.36096161127E+01	1.37067965387E+00	7.10815897872E+00	1.56311857517E+02	-6.06761336117E+01	3.39815356729E+01	-5.96362122126E+00	-8.36267684638E-01
1.76462940327E+06	-1.38522911705E+01	-3.52965039272E-01	7.13939748433E+00	1.55930286852E+02	-5.18784500882E+01	1.66052833936E+02	-5.98191364181E+00	-8.52840669510E-01
1.78682075786E+06	-1.32032908782E+01	7.09418940959E+00	7.12026267355E+00	1.55715119483E+02	-5.84984765422E+01	1.02682263691E+02	-5.97684461454E+00	-9.24215369403E-01
1.80901211246E+06	-1.34076294000E+01	-2.83374181681E+01	7.11854568627E+00	1.55223016537E+02	-4.81855977954E+01	-4.82276885683E+01	-5.98097310609E+00	-8.74891104320E-01
1.83120346705E+06	-1.43570728120E+01	1.07223951903E+01	7.10767784884E+00	1.54999278934E+02	-5.19637115891E+01	3.11731738356E+01	-5.97819634081E+00	-8.87530526591E-01
1.85339482165E+06	-1.39917202211E+01	8.50386257248E+00	7.09410249477E+00	1.54639403941E+02	-5.11140198748E+01	-2.02082456197E+01	-5.98104947015E+00	-8.32944075940E-01
1.87558617624E+06	-1.41342169629E+01	1.12553154751E+01	7.09175670655E+00	1.54441520527E+02	-5.32513327200E+01	-1.00405358843E+02	-5.96517233455E+00	-8.11416879273E-01
1.89777753084E+06	-1.35114310539E+01	-6.08412769773E+00	7.09793267369E+00	1.54116860423E+02	-5.89341977721E+01	-1.60397297037E+02	-5.97256475708E+00	-8.43751803524E-01
1.91996888543E+06	-1.32825066669E+01	-1.55808986229E+01	7.08819858743E+00	1.53645297863E+02	-4.77088105361E+01	-5.08491657126E+01	-5.97584620404E+00	-8.81342185321E-01
1.94216024003E+06	-1.32571714343E+01	-4.97505970005E+00	7.10147353229E+00	1.53435536049E+02	-4.85615853444E+01	-4.98040512421E+01	-5.97908458405E+00	-8.75661203874E-01
1.96435159462E+06	-1.31572767721E+01	2.72364665788E+00	7.09140244345E+00	1.53167969090E+02	-5.26323246014E+01	-6.39488483807E+01	-5.97865270835E+00	-9.26051803726E-01
1.98654294922E+06	-1.49316701179E+01	4.85071101464E+00	7.06688585706E+00	1.52813245901E+02	-6.44871575643E+01	3.20649426062E+01	-5.97270798191E+00	-9.74822382790E-01
2.00873430381E+06	-1.29935072545E+01	-8.98057273956E+00	7.08937696007E+00	1.52341474417E+02	-4.75732907246E+01	2.22197093333E+00	-5.98061163666E+00	-1.00656771579E+00
2.03092565841E+06	-1.45391710759E+01	-5.74690586611E+00	7.06350989723E+00	1.52034351003E+02	-4.52306124828E+01	-4.31187892343E+01	-5.98110200182E+00	-8.82292201830E-01
2.05311701300E+06	-1.40966251526E+01	5.42486603030E-01	7.06793529587E+00	1.51791550182E+02	-4.13187529348E+01	1.28712056564E+02	-5.96031832142E+00	-8.93815253449E-01
2.07530836760E+06	-1.34023398880E+01	5.90578623080E+00	7.03899124574E+00	1.51694358547E+02	-4.84515204480E+01	-1.76898531330E+02	-5.96350671451E+00	-9.77976396557E-01
2.09749972219E+06	-1.48247934022E+01	7.38144970233E+00	7.03299714894E+00	1.51320949270E+02	-4.51279938970E+01	2.40783942082E+01	-5.97629827035E+00	-9.93830470832E-01
2.11969107679E+06	-1.33092201742E+01	-1.61303159939E+00	7.04907773616E+00	1.50896386735E+02	-5.98355431272E+01	1.58051112027E+02	-5.96499361335E+00	-1.00024839969E+00
2.14188243138E+06	-1.22037047915E+01	-2.83028807270E+01	7.05475642376E+00	1.50740605966E+02	-4.57239062703E+01	-7.45923067727E+01	-5.98576976734E+00	-9.92094015793E-01
2.16407378598E+06	-1.46493804923E+01	9.66022948089E+00	7.00506097142E+00	1.50569809247E+02	-6.12085330890E+01	-1.61142318591E+01	-5.98517858784E+00	-1.03937607636E+00
2.18626514057E+06	-1.38902941355E+01	-3.79581494443E+00	7.03639432162E+00	1.49955964283E+02	-5.47087677886E+01	7.81909157555E+01	-5.97702297981E+00	-1.03377114041E+00
2.20845649517E+06	-1.52190867796E+01	1.75625960669E+00	7.01535544441E+00	1.49905715860E+02	-6.33669130623E+01	-1.42853180602E+02	-5.96933957676E+00	-1.12865856551E+00
2.23064784976E+06	-1.44457980121E+01	4.81920322094E+00	7.02090979993E+00	1.49457276655E+02	-5.49793782106E+01	-1.52288189751E+02	-5.97138395722E+00	-1.00309890975E+00
2.25283920436E+06	-1.65774732994E+01	-2.20837795435E+01	7.03344500871E+00	1.48900205038E+02	-5.33575737116E+01	5.73824658324E+01	-5.98507141151E+00	-1.08321601351E+00
2.27503055895E+06	-1.41823760399E+01	2.92064760699E+00	7.01183714141E+00	1.48874661241E+02	-4.48495410617E+01	-1.40397167443E+02	-5.97455840260E+00	-1.03742906863E+00
2.29722191355E+06	-1.38023865349E+01	-3.14534308408E+00	6.99830476126E+00	1.48475238018E+02	-5.32720382148E+01	1.53365899919E+01	-5.97828465775E+00	-1.03864110398E+00
2.31941326814E+06	-1.26537558537E+01	-2.76014652322E+00	6.99249201262E+00	1.48202071125E+02	-5.51823418448E+01	-8.78341741944E+01	-5.97850671633E+00	-1.06058818500E+00
2.34160462274E+06	-1.29116733516E+01	3.34772164437E+00	6.99015694693E+00	1.48104512786E+02	-6.50167758952E+01	4.93926862637E+01	-5.97612922038E+00	-1.16632660929E+00
2.36379597733E+06	-1.45328438017E+01	2.42948220418E+01	6.96340671751E+00	1.47615353808E+02	-5.39157920534E+01	-1.71116423620E+01	-5.97127109713E+00	-1.12457793675E+00
2.38598733193E+06	-1.14759050235E+01	-2.07397776091E+01	7.02277492961E+00	1.47269887548E+02	-5.20478824072E+01	-1.06746797667E+01	-5.98012469360E+00	-1.11521625016E+00
2.40817868652E+06	-1.37557139865E+01	-8.57453778640E-01	6.96646188221E+00	1.47080677148E+02	-5.22434921218E+01	-8.76313584328E+01	-5.97819782664E+00	-1.25208039917E+00
2.43037004112E+06	-1.26016815938E+01	9.03973686635E+00	6.96924825587E+00	1.46887489062E+02	-5.48696613644E+01	-1.86404780170E+01	-5.98651792400E+00	-1.55035454264E+00
2.45256139571E+06	-1.36151318389E+01	-7.63354688374E+00	6.95705228619E+00	1.46246995522E+02	-4.41297973580E+01	1.71574757864E+02	-5.95990991834E+00	-1.16513973291E+00
2.47475275031E+06	-1.29408001539E+01	3.85954496680E+00	6.94736169859E+00	1.46177355009E+02	-6.16286094970E+01	-1.65197624776E+02	-5.96463807411E+00	-1.12293018581E+00
2.49694410490E+06	-1.48606499718E+01	-3.17012945732E+01	6.95853006899E+00	1.45775836182E+02	-3.94153585043E+01	4.31785690377E+01	-5.98272713073E+00	-1.17726155687E+00
2.51913545950E+06	-1.27013246028E+01	-9.18014222540E-01	6.96135345542E+00	1.45545823872E+02	-4.72531082743E+01	-5.18092005457E+01	-5.98470367030E+00	-1.14956093067E+00
2.54132681409E+06	-1.32670698030E+01	-2.39915855060E-01	6.91334127351E+00	1.45378222104E+02	-5.56233372165E+01	3.17262173873E+00	-5.99272683971E+00	-1.20341148822E+00
2.56351816869E+06	-1.40705074348E+01	1.60024697517E+00	6.93514198250E+00	1.45022488410E+02	-4.87789215523E+01	-8.12913230849E+01	-5.98223730923E+00	-1.16517436108E+00
2.58570952328E+06	-1.53482334180E+01	-1.54582913002E+00	6.91518025253E+00	1.44638971991E+02	-5.40462089174E+01	1.32885493075E+02	-5.97714163878E+00	-1.17593412428E+00
2.60790087788E+06	-1.18971970811E+01	-5.64823080138E+00	6.90648289303E+00	1.44246813523E+02	-4.35645355364E+01	1.15381691675E+02	-5.97036142323E+00	-1.09904677164E+00
2.63009223247E+06	-1.41153126775E+01	5.80340090277E+00	6.88951663479E+00	1.43939196179E+02	-5.41617469990E+01	-1.10843880288E+02	-5.98256952291E+00	-8.53187928076E-01
2.65228358707E+06	-1.32664679537E+01	-1.74589865472E+00	6.92133453321E+00	1.43597681564E+02	-5.57471815061E+01	-7.88756966626E+00	-5.97431240514E+00	-1.29118938472E+00
2.67447494166E+06	-1.30468959405E+01	-2.88382211874E+00	6.87800305532E+00	1.43428422211E+02	-5.45364074183E+01	5.56957758511E+01	-5.97917422977E+00	-1.26821700478E+00
2.69666629626E+06	-1.30509874584E+01	1.15434579206E+01	6.87543988470E+00	1.43187094743E+02	-4.62652704495E+01	-1.78802300319E+02	-5.98290245943E+00	-1.21539397884E+00
2.71885765085E+06	-1.20217680555E+01	-8.32775737487E+00	6.89279235745E+00	1.42928394320E+02	-5.20744628800E+01	-1.34246858215E+02	-5.97667134891E+00	-1.28999907607E+00
2.74104900545E+06	-1.47531484725E+01	-1.56913161848E+00	6.86927197005E+00	1.42381211907E+02	-4.98951779938E+01	8.95573970589E+01	-5.96815860221E+00	-1.27034615027E+00
2.76324036004E+06	-1.37711961676E+01	1.29114993287E+00	6.86136742920E+00	1.42082133424E+02	-5.47520496267E+01	-1.45553808134E+02	-5.97489679506E+00	-1.24180939542E+00
2.78543171463E+06	-1.31218950573E+01	-1.57167822128E+00	6.86385218832E+00	1.41845415815E+02	-5.05873855440E+01	-1.64544949726E+02	-5.97537121756E+00	-1.22383037443E+00
2.80762306923E+06	-1.46543583154E+01	-1.07412208405E+01	6.86599710007E+00	1.41502502061E+02	-5.06526661235E+01	7.25481339669E+01	-5.97735278227E+00	-1.33450385696E+00
2.82981442382E+06	-1.27371622915E+01	-1.06803764886E+01	6.84537714933E+00	1.41298945579E+02	-4.72528026555E+01	-5.47181900639E+00	-5.99722935850E+00	-1.39511741815E+00
2.85200577842E+06	-1.49599008714E+01	-5.35381709350E+00	6.81718137455E+00	1.40693145031E+02	-4.49667243550E+01	1.23221262165E+02	-5.97714125271E+00	-1.37003814961E+00
2.87419713301E+06	-1.73843476341E+01	1.65746439168E-01	6.80757883143E+00	1.40527868600E+02	-6.13883863836E+01	1.17855274086E+02	-5.98059120837E+00	-1.37930691747E+00
2.89638848761E+06	-1.28826507235E+01	3.51439620305E+00	6.83301408840E+00	1.40444219167E+02	-4.78778393325E+01	2.49717443832E+01	-5.98373738351E+00	-1.31908073774E+00
