# Hz S DB R 50
! CMT, M5065, 19127446, 24.2.4/2
! Date: 11/8/2024 6:45:27 PM
! Data: Format (Calibration Info)
! Freq	S11:dB/Ang(F2)	S21:dB/Ang(F2)	S12:dB/Ang(F2)	S22:dB/Ang(F2)
3.00000000000E+05	-1.49930446333E+01	1.12809805851E+01	5.11793033088E+00	1.78546121899E+02	-5.52813775336E+01	-1.07928059945E+02	-5.97289500445E+00	-2.88209236289E-01
3.22191354595E+05	-1.30647715493E+01	4.85651982668E+00	5.19471062102E+00	1.78037598238E+02	-5.13340792107E+01	-7.88383049432E+01	-5.97229099094E+00	-2.67047498022E-01
3.44382709190E+05	-1.40046895019E+01	1.50544918828E+01	5.14962421591E+00	1.77473008688E+02	-4.70694643728E+01	-1.25960027767E+02	-5.97964713762E+00	-1.94672169328E-01
3.66574063785E+05	-1.36884045740E+01	2.55653669874E+01	5.14177282283E+00	1.77328923520E+02	-4.91285618610E+01	1.35131972582E+02	-5.96575568139E+00	-3.20896669906E-01
3.88765418380E+05	-1.10904713431E+01	1.31251335906E+01	5.10853033554E+00	1.76539809575E+02	-5.41786108142E+01	7.91480351800E+00	-5.98951221813E+00	-3.44669124415E-01
4.10956772975E+05	-1.35129920817E+01	2.75901315339E+00	5.17161879005E+00	1.76264721256E+02	-4.89176998486E+01	6.97507616428E+01	-5.97422574999E+00	-3.01044619604E-01
4.33148127570E+05	-1.50152948858E+01	1.02721104479E+01	5.13226738196E+00	1.75887719806E+02	-4.72061467050E+01	6.50932546949E+01	-5.97550262146E+00	-4.19004069012E-01
4.55339482165E+05	-1.27081661236E+01	7.32054652166E+00	5.13413697493E+00	1.75579783525E+02	-6.05635266663E+01	-1.19291206968E+02	-5.96844342296E+00	-3.75954399529E-01
4.77530836760E+05	-1.35999208327E+01	1.61181439493E+01	5.10686383101E+00	1.75399492342E+02	-4.92485334207E+01	1.08065416556E+02	-5.97529582701E+00	-3.67577742034E-01
4.99722191355E+05	-1.43189338995E+01	6.46955683806E+00	5.11665715779E+00	1.74840311994E+02	-5.11976386701E+01	-1.53047506679E+02	-5.96442659565E+00	-3.30049851624E-01
5.21913545950E+05	-1.47682729353E+01	1.41805653939E+01	5.11335758934E+00	1.74532174216E+02	-5.32319958673E+01	-8.07776623229E+01	-5.95725866508E+00	-3.42216957088E-01
5.44104900545E+05	-1.41272737025E+01	7.91396936963E+00	5.12473873915E+00	1.74256303881E+02	-4.89926620484E+01	4.93184400404E+01	-5.96959331543E+00	-2.99719565310E-01
5.66296255139E+05	-1.62225554313E+01	1.99437257971E+01	5.09554475742E+00	1.73825803290E+02	-4.92524505996E+01	-9.01944304501E+01	-5.97341084546E+00	-3.10643400397E-01
5.88487609734E+05	-1.52402949747E+01	1.71952949414E+01	5.10491466650E+00	1.73711022345E+02	-5.66016992118E+01	3.45143141545E+01	-5.96266525688E+00	-3.34610339660E-01
6.10678964329E+05	-1.42510601208E+01	8.52631355750E+00	5.09394653791E+00	1.73291339701E+02	-5.08066590282E+01	-7.72973209274E+01	-5.96539551102E+00	1.19398266407E-01
6.32870318924E+05	-1.42669103585E+01	1.25811802424E+01	5.11678931415E+00	1.72905213112E+02	-4.98941106249E+01	-1.11626016050E+02	-5.96098770764E+00	-2.22903676611E-01
6.55061673519E+05	-1.50523839526E+01	-1.74329751254E+00	5.10399467888E+00	1.72724108898E+02	-5.07441786799E+01	-1.62415222474E+01	-5.97950106741E+00	-3.64989286485E-01
6.77253028114E+05	-1.52746076837E+01	4.65175956214E+00	5.09891870862E+00	1.72375396521E+02	-5.75800530043E+01	3.45126246702E+01	-5.98059491515E+00	-7.79836485869E-01
6.99444382709E+05	-1.54773477190E+01	2.98934227772E+00	5.09999166453E+00	1.71932484099E+02	-5.78084901072E+01	-6.21862844043E+01	-5.97617435638E+00	-4.14053697236E-01
7.21635737304E+05	-1.54140516683E+01	2.43754438158E+00	5.11260532346E+00	1.71724537077E+02	-5.35566138314E+01	1.06808679110E+02	-5.94973179259E+00	-4.24505487392E-01
7.43827091899E+05	-1.14620485376E+01	4.97433392943E+00	5.14061807030E+00	1.71403446622E+02	-5.35039030242E+01	1.30646821864E+02	-5.97658881379E+00	-4.28553912084E-01
7.66018446494E+05	-1.30664474618E+01	-1.70240286086E+00	5.11027540099E+00	1.71162108295E+02	-4.91278164679E+01	-1.54648937465E+02	-5.97044176296E+00	-4.49453377161E-01
7.88209801089E+05	-1.20435697518E+01	9.12348118518E+00	5.11021823506E+00	1.71005307907E+02	-6.10118107362E+01	1.54192267628E+02	-5.97110325438E+00	-4.59852907975E-01
8.10401155684E+05	-1.32186033628E+01	1.11168959824E+01	5.10985675571E+00	1.70556816147E+02	-4.40390624427E+01	-3.96662305252E+01	-5.98187443907E+00	-4.57821866144E-01
8.32592510279E+05	-1.67445615681E+01	-6.44561785109E+00	5.05656997590E+00	1.70038913298E+02	-6.03408857147E+01	-1.27891865886E+02	-5.97457543110E+00	-4.91198157693E-01
8.54783864874E+05	-1.45800494397E+01	6.51243114646E+00	5.09164986715E+00	1.70053464673E+02	-3.94993015187E+01	-1.69125689263E+02	-5.97203619869E+00	-5.43855125392E-01
8.76975219469E+05	-1.33363265404E+01	2.45754764723E+00	5.08590908315E+00	1.69628045313E+02	-5.26994762548E+01	2.19280910361E+01	-5.96838792057E+00	-4.55758664424E-01
8.99166574064E+05	-1.25360740587E+01	8.32281021845E+00	5.11326340784E+00	1.69552569763E+02	-5.90648362370E+01	-7.40724432874E+00	-5.97158682881E+00	-4.36129290993E-01
9.21357928659E+05	-1.51123610003E+01	4.48123594562E+00	5.06708411426E+00	1.69069279560E+02	-4.91905215931E+01	6.97682669805E+01	-5.96847899525E+00	-5.56888090699E-01
9.43549283254E+05	-1.51011334757E+01	6.20740831101E+00	5.06895417687E+00	1.68782131697E+02	-5.20885611449E+01	-8.98545936907E+00	-5.98581236006E+00	-3.87779626108E-01
9.65740637849E+05	-1.42083810122E+01	2.43310758759E+00	5.10452640120E+00	1.68443403492E+02	-4.86790490026E+01	-1.33607883159E+02	-5.97089878406E+00	-4.52173996456E-01
9.87931992444E+05	-1.36351380454E+01	1.23605637482E+01	5.05499055416E+00	1.68220488262E+02	-6.07427045043E+01	-1.57734408391E+02	-5.97351135412E+00	-5.92725827730E-01
1.01012334704E+06	-1.41782760594E+01	1.10366482394E+01	5.05396334771E+00	1.67952416601E+02	-5.41160193764E+01	3.43781507686E+01	-5.98215809562E+00	-5.85392705649E-01
1.03231470163E+06	-1.30833912451E+01	9.34498442162E+00	5.06901501256E+00	1.67712837680E+02	-4.80395232278E+01	-4.40499650546E+01	-5.97005890460E+00	-6.27482893478E-01
1.05450605623E+06	-1.45326486029E+01	-2.72847882894E+00	5.06255154151E+00	1.67300310150E+02	-4.84011527353E+01	-3.88605672897E+00	-5.96670722190E+00	-6.12881033638E-01
1.07669741082E+06	-1.33880212928E+01	4.22890472665E+00	5.05714671706E+00	1.66895566050E+02	-4.73144269933E+01	-9.65533669403E+01	-5.97114445836E+00	-4.97692300398E-01
1.09888876542E+06	-1.60341620383E+01	-4.48042423946E+00	5.03634426264E+00	1.66705931930E+02	-4.87978287099E+01	1.63901700439E+02	-5.95785300263E+00	-6.17153298750E-01
1.12108012001E+06	-1.25721105951E+01	5.53023030497E+00	5.06573878246E+00	1.66566085295E+02	-5.82930453459E+01	1.04279297159E+02	-5.97626150374E+00	-5.78673299981E-01
1.14327147461E+06	-1.38386962951E+01	7.85774413835E+00	5.07342077435E+00	1.66300739534E+02	-5.00784193183E+01	-1.73538128284E+02	-5.96949655209E+00	-5.26165939712E-01
1.16546282920E+06	-1.52820260584E+01	5.03750062350E+00	5.04545023982E+00	1.65993223431E+02	-5.16704434824E+01	-9.85349024627E+01	-5.96441985499E+00	-5.37783270301E-01
1.18765418380E+06	-1.41108162300E+01	-2.79200672616E+00	5.07083760011E+00	1.65706586164E+02	-4.70465726870E+01	5.50494181604E+01	-5.98343844860E+00	-6.02397185180E-01
1.20984553839E+06	-1.34742189515E+01	-1.36147189092E+00	5.04177317751E+00	1.65260080957E+02	-5.77621588878E+01	5.97809505934E+01	-5.96682642761E+00	-7.01076247070E-01
1.23203689299E+06	-1.30321243891E+01	7.44701771939E+00	5.04550449264E+00	1.65066588456E+02	-5.81545767652E+01	1.14467093704E+02	-5.97443651165E+00	-3.36602660588E-01
1.25422824758E+06	-1.34885838145E+01	7.04830292533E+00	5.03736511325E+00	1.64826634388E+02	-5.89943539597E+01	1.75593606382E+02	-5.97714783655E+00	-6.26405688289E-01
1.27641960218E+06	-1.38209328656E+01	4.39719652912E+00	5.01949102561E+00	1.64596542337E+02	-5.59637604609E+01	-4.59467426080E+01	-5.96950859528E+00	-5.53593091630E-01
1.29861095677E+06	-1.46400370536E+01	-5.81740933911E-01	5.01095140164E+00	1.64346049786E+02	-4.53212892884E+01	-6.35767136608E+01	-5.98137703696E+00	-5.90122083087E-01
1.32080231137E+06	-1.27890587603E+01	-4.06407870311E+00	5.04900887911E+00	1.64108545381E+02	-5.55784032547E+01	7.87768934328E+01	-5.96564796563E+00	-1.00222406556E+00
1.34299366596E+06	-1.53831702798E+01	-2.77497071582E+00	5.01212777184E+00	1.63694688223E+02	-5.14200868091E+01	7.57225539883E+01	-5.96325217265E+00	-8.07443737675E-01
1.36518502056E+06	-1.29949712721E+01	5.21199104981E+00	5.04231350182E+00	1.63407848731E+02	-5.05866799120E+01	-1.45463076284E+02	-5.96831794647E+00	-6.51735816909E-01
1.38737637515E+06	-1.28869830216E+01	3.38850291183E+00	5.02355475884E+00	1.63144604052E+02	-5.26059741462E+01	-1.69336919518E+02	-5.96409461244E+00	-6.45458802697E-01
1.40956772975E+06	-1.47025197089E+01	-4.09650447654E+00	5.00739177873E+00	1.63009509140E+02	-4.35120955546E+01	1.12832233150E+02	-5.97706028094E+00	-8.29066495521E-01
1.43175908434E+06	-1.37972636216E+01	-3.27371937234E-02	5.04469280715E+00	1.62736864081E+02	-5.58199713293E+01	2.47721998550E+01	-5.97086916469E+00	-7.63948142885E-01
1.45395043894E+06	-1.41016341664E+01	-2.34949873596E+00	5.00741685771E+00	1.62130384992E+02	-4.87101743912E+01	7.47151810666E+01	-5.97372056149E+00	-7.00814826031E-01
1.47614179353E+06	-1.47965684734E+01	-7.67644492044E+00	5.01826002496E+00	1.61992643066E+02	-5.13433771641E+01	1.04892108671E+02	-5.96698752418E+00	-7.40238812514E-01
1.49833314813E+06	-1.46050761944E+01	-3.75121278413E-01	4.99485261600E+00	1.61667656003E+02	-4.99010460286E+01	2.75600269739E+01	-5.97741596085E+00	-7.64480397884E-01
1.52052450272E+06	-1.23806782349E+01	-5.90393161189E+00	5.00777543664E+00	1.61412096655E+02	-4.70263748323E+01	4.44054775416E+01	-5.98029362582E+00	-7.04745115342E-01
1.54271585732E+06	-1.43398661769E+01	3.29783965203E+00	4.97664297678E+00	1.61289033656E+02	-4.51974055966E+01	-6.03186026411E+01	-5.97667514068E+00	-7.08094079129E-01
1.56490721191E+06	-1.33859844925E+01	2.09202982292E+00	4.99572781251E+00	1.60990963699E+02	-4.65667468507E+01	-1.14898178412E+02	-5.97247541975E+00	-7.71023867213E-01
1.58709856651E+06	-1.25677220516E+01	5.98573090585E+00	5.01845154893E+00	1.60916199217E+02	-4.99317087530E+01	-1.92872695482E+01	-5.97497719365E+00	-7.98279405140E-01
1.60928992110E+06	-1.22659270077E+01	2.62597565482E+00	4.98580128572E+00	1.60550739184E+02	-5.08176955401E+01	-3.89392423803E+01	-5.98468464801E+00	-8.64548040106E-01
1.63148127570E+06	-1.34352626441E+01	7.66032612836E+00	5.00642776115E+00	1.60151993999E+02	-5.23745238643E+01	-1.71148489779E+02	-5.95741577315E+00	-8.00270442005E-01
1.65367263029E+06	-1.47418032284E+01	1.17448826310E+01	4.96370548747E+00	1.59615528256E+02	-4.52849992397E+01	5.11106523496E+01	-5.97260824757E+00	-7.56455050399E-01
1.67586398489E+06	-1.48132369096E+01	4.08463364480E+00	2.92491252029E+00	1.59543323333E+02	-5.61117497895E+01	5.87073397354E+01	-5.97607038484E+00	-8.28997636347E-01
1.69805533948E+06	-1.67347142964E+01	1.53822073068E+01	4.95557109198E+00	1.59329083995E+02	-6.00438450551E+01	-1.27321265615E+02	-5.96147757471E+00	-8.55132988640E-01
1.72024669408E+06	-1.25650613611E+01	-1.14875222889E+00	4.98275896647E+00	1.59164404113E+02	-4.73826463740E+01	7.59692631961E+01	-5.96415334068E+00	-8.64331173968E-01
1.74243804867E+06	-1.42864015397E+01	-4.02177242754E+00	4.94796004661E+00	1.58629739881E+02	-5.49458272358E+01	-8.42272647679E+01	-5.96364934040E+00	-8.06952349300E-01
1.76462940327E+06	-1.26905995981E+01	6.83327415781E+00	4.94635599436E+00	1.58473670219E+02	-4.92070064830E+01	-1.16861349499E+02	-5.96866758496E+00	-8.38815096641E-01
1.78682075786E+06	-1.30070486706E+01	-4.60458371756E+00	4.99203374699E+00	1.58062978024E+02	-4.30768587244E+01	-1.18408655214E+02	-5.98421474838E+00	-8.48265880515E-01
1.80901211246E+06	-1.46357769984E+01	-3.25169707739E+00	4.95727662832E+00	1.57830095092E+02	-5.34230894262E+01	9.68032790899E+01	-5.97506975267E+00	-8.68761761460E-01
1.83120346705E+06	-1.39231910838E+01	1.53168058770E+01	4.92682723946E+00	1.57681470451E+02	-7.23635651292E+01	-4.40320819990E+01	-5.97837630789E+00	-8.51326471214E-01
1.85339482165E+06	-1.38870691658E+01	1.50854043398E+00	4.93993409372E+00	1.57338511563E+02	-5.19077764398E+01	-1.59372189136E+02	-5.97063230138E+00	-8.62269441440E-01
1.87558617624E+06	-1.21500417762E+01	1.58001603923E+01	4.92082886103E+00	1.57231440912E+02	-4.85869741397E+01	-2.13509662185E+01	-5.97707650827E+00	-9.09423683897E-01
1.89777753084E+06	-1.39253030553E+01	-6.49786433568E+00	4.93265005171E+00	1.56777505980E+02	-4.11509189972E+01	1.71400428791E+02	-5.97011605569E+00	-9.48814145978E-01
1.91996888543E+06	-1.42720533854E+01	8.35488915476E+00	4.92373767939E+00	1.56483368200E+02	-5.04056909188E+01	1.13157107519E+02	-5.97679605069E+00	-1.00941238733E+00
1.94216024003E+06	-1.40423393294E+01	5.72263843099E+00	4.92914186054E+00	1.56383934988E+02	-5.87941523133E+01	-1.28477515841E+02	-5.97037215949E+00	-9.26578887032E-01
1.96435159462E+06	-1.58997759941E+01	-2.17779702825E+00	4.91737111808E+00	1.55873463949E+02	-5.07018059172E+01	5.78257033402E+01	-5.98262591902E+00	-9.37587276541E-01
1.98654294922E+06	-1.21319544970E+01	-2.34612492569E+00	4.92387188170E+00	1.55805983241E+02	-5.59276658515E+01	-1.45585981248E+02	-5.96358847200E+00	-9.24028098920E-01
2.00873430381E+06	-1.43135498635E+01	8.94603398411E+00	4.89470276959E+00	1.55347162848E+02	-5.45581201576E+01	-2.29410165796E+01	-5.98094721754E+00	-9.70263495036E-01
2.03092565841E+06	-1.36517345290E+01	3.32842949646E+00	4.89812999928E+00	1.55216610949E+02	-6.09917150399E+01	-1.64120314147E+02	-5.97128587069E+00	-8.65576169095E-01
2.05311701300E+06	-1.39515677152E+01	3.95811374738E+00	4.92783133407E+00	1.54834999158E+02	-4.75885929558E+01	1.53602707173E+02	-5.97417353752E+00	-9.77244758894E-01
2.07530836760E+06	-1.35539279591E+01	-5.47402073328E+00	4.93545440407E+00	1.54728927249E+02	-6.02197502224E+01	-4.78575242172E+01	-5.97801926584E+00	-9.25252873815E-01
2.09749972219E+06	-1.23626397338E+01	9.04561223964E-01	4.93730943899E+00	1.54569234380E+02	-4.91223399646E+01	2.69367862572E+01	-5.97186504182E+00	-1.03259157944E+00
2.11969107679E+06	-1.28372790598E+01	-6.21994023122E+00	4.90921821451E+00	1.54083505381E+02	-5.26760413438E+01	8.01053949629E+01	-5.97684587460E+00	-1.06505757011E+00
2.14188243138E+06	-1.36025764721E+01	3.58226478383E+00	4.89191953761E+00	1.53852108165E+02	-4.60384565624E+01	1.77058611189E+02	-5.95903805992E+00	-9.44125663252E-01
2.16407378598E+06	-1.37511640958E+01	3.80104342678E-01	4.92219725835E+00	1.53571642260E+02	-6.92955031170E+01	8.85235444984E+01	-5.96990987337E+00	-1.08587689683E+00
2.18626514057E+06	-1.31093933253E+01	4.48371713758E+00	4.89988605304E+00	1.53523986293E+02	-4.98449205293E+01	-7.42541035630E+01	-5.98156494065E+00	-1.00497308872E+00
2.20845649517E+06	-1.38365713970E+01	-1.13158741201E+00	4.91521898206E+00	1.53152968368E+02	-6.23853665577E+01	5.21868628732E+01	-5.96789301661E+00	-1.05205704145E+00
2.23064784976E+06	-1.40644918368E+01	-1.69264105010E+01	4.89670904999E+00	1.52801272591E+02	-3.76141202820E+01	-9.39633374433E+01	-5.98950817367E+00	-1.03600758083E+00
2.25283920436E+06	-1.39466804335E+01	-9.43834984621E+00	4.88661600470E+00	1.52477407149E+02	-4.75830155652E+01	1.27146553971E+02	-5.96074644514E+00	-1.01601214135E+00
2.27503055895E+06	-1.36226078149E+01	-9.05152332006E+00	4.90605290858E+00	1.52178761992E+02	-4.85941203124E+01	-1.54636758484E+02	-5.96857614006E+00	-1.15556358212E+00
2.29722191355E+06	-1.25115915596E+01	-5.99788842457E+00	4.86643544927E+00	1.51998114976E+02	-5.30691343414E+01	-1.44377994074E+02	-5.97070414799E+00	-1.13904265883E+00
2.31941326814E+06	-1.47160773999E+01	-2.24159326517E+00	4.86945917381E+00	1.51681875794E+02	-5.28302143789E+01	-1.29829818316E+02	-5.97056431349E+00	-1.08016946155E+00
2.34160462274E+06	-1.48121609510E+01	1.12659260540E+01	4.86236619173E+00	1.51262462801E+02	-4.86329874879E+01	1.63480082074E+02	-5.96968293089E+00	-1.09800316222E+00
2.36379597733E+06	-1.42227927784E+01	1.03641046674E+00	4.83699931941E+00	1.51248455286E+02	-4.06772298402E+01	5.74476272661E+01	-5.97708058860E+00	-1.16633650480E+00
2.38598733193E+06	-1.38563290146E+01	-2.04918224342E+00	4.84203707347E+00	1.50687612995E+02	-5.35139376075E+01	-1.59765703962E+02	-5.96877270456E+00	-1.11013380912E+00
2.40817868652E+06	-1.39622966727E+01	-6.98727243223E+00	4.85444018228E+00	1.50416726662E+02	-5.17683158364E+01	-1.41561715532E+02	-5.96492268854E+00	-1.20725321214E+00
2.43037004112E+06	-1.51519954578E+01	-2.24106892936E+00	4.82597766855E+00	1.50030905409E+02	-5.90323253815E+01	1.53572270473E+02	-5.97546210414E+00	-1.60012329424E+00
2.45256139571E+06	-1.41567783063E+01	-6.84807088406E+00	4.81289129368E+00	1.49979135403E+02	-6.15521541142E+01	1.68024719182E+02	-5.98151876368E+00	-1.13277024106E+00
2.47475275031E+06	-1.24529326891E+01	-2.93988669951E+00	4.83704396566E+00	1.49860148393E+02	-4.04578931490E+01	-1.54758726004E+02	-5.97401699569E+00	-1.10823134286E+00
2.49694410490E+06	-1.43519098370E+01	-1.53755874204E+00	4.81845419211E+00	1.49621035396E+02	-5.40448211226E+01	-7.28570019622E+01	-5.96829386088E+00	-1.04255026073E+00
2.51913545950E+06	-1.30901815300E+01	-3.11555688889E+00	4.83455204117E+00	1.49291762252E+02	-5.58237655341E+01	6.68575494302E+00	-5.98121323075E+00	-1.10872018083E+00
2.54132681409E+06	-1.44506174783E+01	-1.00011961527E+01	4.85183250781E+00	1.48890977813E+02	-5.16603221775E+01	-2.79005478613E+01	-5.98480104237E+00	-1.21761434757E+00
2.56351816869E+06	-1.20485376340E+01	-5.22348817308E+00	4.86105807018E+00	1.48606154638E+02	-4.55310926664E+01	6.62893096116E+01	-5.98333255409E+00	-1.22832321982E+00
2.58570952328E+06	-1.43887404455E+01	-2.52552872910E+00	4.81799442897E+00	1.48282359765E+02	-3.69666050244E+01	-9.89459514755E+01	-5.99241332849E+00	-1.12020941089E+00
2.60790087788E+06	-1.28660338392E+01	1.76985656107E+00	4.80292575974E+00	1.48217274029E+02	-5.83798263846E+01	-8.77371743422E+01	-5.98459000046E+00	-1.09787011864E+00
2.63009223247E+06	-1.37812066995E+01	4.15457938596E+00	4.81215753232E+00	1.48117663583E+02	-5.05758857939E+01	2.90579244581E+01	-5.97522681895E+00	-8.98208003532E-01
2.65228358707E+06	-1.35799821747E+01	-5.67907516980E+00	4.79740568783E+00	1.47548183154E+02	-5.87283094343E+01	1.79827764594E+02	-5.97076532313E+00	-1.23501494491E+00
2.67447494166E+06	-1.43011511765E+01	-6.07437321581E-01	4.79237244767E+00	1.47145458381E+02	-5.50660100471E+01	5.49959669763E+01	-5.99160264673E+00	-1.31387793532E+00
2.69666629626E+06	-1.22817983122E+01	3.07558009387E+00	4.79892884277E+00	1.46985856894E+02	-4.28512179575E+01	5.62265049365E+01	-5.97572756944E+00	-1.29389869143E+00
2.71885765085E+06	-1.26413690545E+01	1.01757210506E+01	4.77642709829E+00	1.46904732926E+02	-5.38111463371E+01	2.81954790824E+01	-5.98146826775E+00	-1.32162145786E+00
2.74104900545E+06	-1.27901091654E+01	-8.13067172712E+00	4.78787356939E+00	1.46440992067E+02	-5.43075403617E+01	-8.87521858880E+01	-5.96432577914E+00	-1.22589749109E+00
2.76324036004E+06	-1.26955426761E+01	-5.96723691101E+00	4.78342707320E+00	1.46077973955E+02	-4.79205335510E+01	3.93669050925E+01	-5.98423805428E+00	-1.33253413171E+00
2.78543171463E+06	-1.35638723518E+01	3.27491212879E+00	4.77921330551E+00	1.45798035206E+02	-5.81050037459E+01	-8.20154434120E+01	-5.98678389727E+00	-1.26158070024E+00
2.80762306923E+06	-1.51305688792E+01	-1.23785296123E+01	4.77134817229E+00	1.45604019201E+02	-4.78282128882E+01	-8.25179591541E+01	-5.97320004676E+00	-1.21666331022E+00
2.82981442382E+06	-1.48781059717E+01	-1.73126773839E+00	4.73673141476E+00	1.45355245553E+02	-6.25555654461E+01	-7.58673872186E+01	-5.97566487643E+00	-1.33093615526E+00
2.85200577842E+06	-1.39745415861E+01	-4.38517836657E-01	4.76083941523E+00	1.45230441808E+02	-6.15985824329E+01	-1.66567536605E+02	-5.98338437039E+00	-1.27343611306E+00
2.87419713301E+06	-1.38379304799E+01	2.83169120146E+00	4.72823363913E+00	1.44937085308E+02	-5.46383023272E+01	-1.35699723339E+02	-5.97457694874E+00	-1.37266226314E+00
