# Hz S DB R 50
! CMT, M5065, 19127446, 24.2.4/2
! Date: 11/8/2024 6:43:21 PM
! Data: Format (Calibration Info)
! Freq	S11:dB/Ang(F2)	S21:dB/Ang(F2)	S12:dB/Ang(F2)	S22:dB/Ang(F2)
3.00000000000E+05	-1.35873848012E+01	1.64302671330E+01	2.71290385741E+00	1.78435292843E+02	-5.61457412325E+01	-9.99822761088E+01	-5.97415028424E+00	-2.70206850100E-01
3.22191354595E+05	-1.54575777755E+01	2.22075371623E+01	2.70611687193E+00	1.77942033913E+02	-6.71754789282E+01	-6.69682078865E+00	-5.96475292356E+00	-2.60540052731E-01
3.44382709190E+05	-1.44283896960E+01	6.25820789041E+00	2.68251733421E+00	1.77573991163E+02	-4.65046942144E+01	-3.87964373643E+01	-5.97120952634E+00	-2.43507068874E-01
3.66574063785E+05	-1.41068113414E+01	1.63339991418E+01	2.71721570921E+00	1.77227304340E+02	-4.85935712293E+01	1.53030263378E+00	-5.97970928355E+00	-2.64653344060E-01
3.88765418380E+05	-1.34504462425E+01	2.17377952725E+01	2.71556368476E+00	1.76638692232E+02	-6.43446905246E+01	1.44248490025E+01	-5.98424124695E+00	-2.21759993852E-01
4.10956772975E+05	-1.47013802275E+01	3.94744378092E+00	2.69741013327E+00	1.76426596412E+02	-5.05773598548E+01	-1.06212665007E+01	-5.98698514320E+00	-2.99646022045E-01
4.33148127570E+05	-1.35986339019E+01	1.17453797970E+01	2.66270596108E+00	1.76391416965E+02	-5.23419126659E+01	-1.50388680347E+02	-5.96978925948E+00	-2.08408470648E-01
4.55339482165E+05	-1.44437537353E+01	2.63484417790E+01	2.68648565884E+00	1.75842349994E+02	-5.30231418944E+01	-1.49596041058E+01	-5.96611672914E+00	-2.84504742312E-01
4.77530836760E+05	-1.45468655140E+01	5.08958976265E+00	2.68730941782E+00	1.75550646599E+02	-5.67945590778E+01	-6.35443319006E+01	-5.97750973854E+00	-3.00729089403E-01
4.99722191355E+05	-1.44979596130E+01	1.38434945352E+01	2.67599855067E+00	1.75615150094E+02	-4.33451852027E+01	2.86291432666E+01	-5.97926511472E+00	-3.28081741520E-01
5.21913545950E+05	-1.35333131402E+01	-1.83874313360E+01	2.69855632885E+00	1.75035719202E+02	-4.85717017732E+01	1.69265971754E-01	-5.96285951557E+00	-4.06897567032E-01
5.44104900545E+05	-1.41785737457E+01	5.10841744057E+00	2.69034009680E+00	1.74761725251E+02	-5.33259950007E+01	1.19991971568E+02	-5.97644948299E+00	-3.13999785239E-01
5.66296255139E+05	-1.35362723971E+01	1.48965825881E+01	2.67930832122E+00	1.74563095875E+02	-5.29662202465E+01	-6.08408409579E+01	-5.97497637931E+00	-3.21537877541E-01
5.88487609734E+05	-1.41734329748E+01	1.16708199507E+01	2.68572475032E+00	1.74218449048E+02	-3.98173935438E+01	1.56004150595E+02	-5.96192428110E+00	-3.75774074231E-01
6.10678964329E+05	-1.45048280890E+01	1.00194678642E+01	2.63694093388E+00	1.73968677017E+02	-5.82778013625E+01	-9.20021946671E+01	-5.97285148323E+00	9.95976337645E-02
6.32870318924E+05	-1.38469047000E+01	1.30226505633E+00	2.66901512856E+00	1.73785854959E+02	-4.99357798945E+01	2.17011339829E+01	-5.96681326523E+00	-1.77464271582E-01
6.55061673519E+05	-1.45716383049E+01	1.47073561321E+01	2.66659246168E+00	1.73496666247E+02	-5.76961763450E+01	-1.33343553837E+01	-5.96666412435E+00	-3.02806159066E-01
6.77253028114E+05	-1.28995339956E+01	3.48639975377E+00	2.71900086856E+00	1.73027348527E+02	-5.17176374444E+01	-1.83808068660E+01	-5.96311013886E+00	-6.38104987162E-01
6.99444382709E+05	-1.44144969941E+01	1.23762906386E+01	2.66349731081E+00	1.72914712749E+02	-4.92453812007E+01	1.50996697440E+02	-5.96658564089E+00	-4.14394584151E-01
7.21635737304E+05	-1.56850657643E+01	6.31118340367E+00	2.62882447880E+00	1.72657411398E+02	-5.03857319769E+01	-2.38469973876E+01	-5.96963085044E+00	-4.51280915243E-01
7.43827091899E+05	-1.34379193635E+01	1.83246292451E+01	2.69302655797E+00	1.72251153201E+02	-5.29307737688E+01	-3.45693497410E+01	-5.97848673582E+00	-3.59919628189E-01
7.66018446494E+05	-1.63982088483E+01	-8.05788364538E+00	2.65685003668E+00	1.71863345497E+02	-5.71022023676E+01	1.99044174077E+01	-5.97389094984E+00	-4.61055305146E-01
7.88209801089E+05	-1.48742200797E+01	-5.21750121157E+00	2.67664902496E+00	1.71629403815E+02	-4.82774916362E+01	1.57904072885E+02	-5.96597526647E+00	-4.76120005438E-01
8.10401155684E+05	-1.56631427041E+01	8.02176778124E+00	2.65808824366E+00	1.71455975610E+02	-4.56854300865E+01	7.70311784668E+01	-5.97478769481E+00	-5.17911779781E-01
8.32592510279E+05	-1.50660798208E+01	-8.37922314441E-01	2.63427646672E+00	1.71197566977E+02	-5.09211246608E+01	-1.50542132257E+02	-5.95813218619E+00	-4.91163507065E-01
8.54783864874E+05	-1.34700112751E+01	3.34549632836E+00	2.66073896625E+00	1.71068515363E+02	-5.65535582479E+01	-1.12720419452E+02	-5.97410970713E+00	-4.43530734708E-01
8.76975219469E+05	-1.50013494536E+01	2.24977787636E+01	2.65580639071E+00	1.71038538845E+02	-5.27543831237E+01	6.45662695016E+00	-5.96912889156E+00	-5.23955142276E-01
8.99166574064E+05	-1.36687230056E+01	1.15939299262E+01	2.69049944280E+00	1.70478121644E+02	-5.49909826162E+01	-6.58333691358E+01	-5.97758409743E+00	-5.20712483140E-01
9.21357928659E+05	-1.51182554555E+01	9.82858953685E+00	2.63898050297E+00	1.70284235171E+02	-6.08500373057E+01	3.40397369035E+01	-5.98013940327E+00	-5.23262265874E-01
9.43549283254E+05	-1.40727742099E+01	9.93707060712E+00	2.65558073547E+00	1.70183213140E+02	-4.86683245457E+01	1.57446984728E+02	-5.95051356277E+00	-4.65320978965E-01
9.65740637849E+05	-1.34050613363E+01	1.25810608218E+00	2.65778449047E+00	1.69756787409E+02	-5.89153473696E+01	-7.06449618498E+01	-5.97600431908E+00	-5.07380625096E-01
9.87931992444E+05	-1.54672764704E+01	1.74462567187E+01	2.65554367200E+00	1.69364808164E+02	-5.58448308485E+01	6.59421036676E+00	-5.96331131445E+00	-4.87941704624E-01
1.01012334704E+06	-1.35239025571E+01	-2.64842806843E+00	2.67085077874E+00	1.69204769660E+02	-4.74500019856E+01	1.28150655630E+02	-5.97103345685E+00	-5.60073722858E-01
1.03231470163E+06	-1.38439041049E+01	2.97807816973E+00	2.65755386468E+00	1.68924856599E+02	-5.85964973789E+01	1.70769266881E+02	-5.97297999871E+00	-5.21280621322E-01
1.05450605623E+06	-1.33152051744E+01	6.23295851785E+00	2.67557371201E+00	1.68738848385E+02	-4.82006702486E+01	9.46178235331E+01	-5.97167396756E+00	-5.96397499040E-01
1.07669741082E+06	-1.32865803844E+01	8.14077724884E+00	2.71609032824E+00	1.68321419652E+02	-5.33940378420E+01	1.73870647388E+02	-5.96251254063E+00	-4.87960291192E-01
1.09888876542E+06	-1.32538434149E+01	-1.21088577722E+00	2.65013755452E+00	1.68445658046E+02	-5.17867283046E+01	1.00065216418E+02	-5.96818106243E+00	-5.58962977860E-01
1.12108012001E+06	-1.58207978485E+01	5.67193819306E-01	2.64491782903E+00	1.67859787990E+02	-5.67443765362E+01	1.61929806009E+02	-5.96924998151E+00	-5.67417902714E-01
1.14327147461E+06	-1.24642714379E+01	3.06354343772E+00	2.63886737683E+00	1.67590140727E+02	-4.81576239038E+01	-1.26154411738E+02	-5.97023536475E+00	-6.08917713956E-01
1.16546282920E+06	-1.39849264979E+01	4.14306250647E+00	2.66618600239E+00	1.67232069158E+02	-4.35745730605E+01	-5.41009648240E+01	-5.96473883754E+00	-5.86778876046E-01
1.18765418380E+06	-1.46863171148E+01	-3.57500659715E+00	2.64944013751E+00	1.66996994989E+02	-5.15267416055E+01	-2.28053247190E+01	-5.97171833192E+00	-5.75052664231E-01
1.20984553839E+06	-1.33500108806E+01	9.06138957317E+00	2.64806862346E+00	1.66883051165E+02	-4.88502753083E+01	-1.24292759805E+02	-5.96927446225E+00	-7.39346732033E-01
1.23203689299E+06	-1.37840080991E+01	4.50478952895E+00	2.61493340101E+00	1.66840353245E+02	-5.95509047325E+01	-9.91997307583E+01	-5.97632167960E+00	-3.57670033660E-01
1.25422824758E+06	-1.46555968233E+01	-9.08190790040E+00	2.63103343390E+00	1.66345666748E+02	-5.33373357003E+01	-4.48760433193E+01	-5.97901599180E+00	-6.15228658842E-01
1.27641960218E+06	-1.26960420385E+01	1.95498681696E+00	2.61319898058E+00	1.66426201510E+02	-6.04446802224E+01	-1.20453971211E+02	-5.97224371719E+00	-6.19245379159E-01
1.29861095677E+06	-1.46683194447E+01	1.02865693144E+01	2.62750745340E+00	1.66017722937E+02	-5.56289317332E+01	-1.27822126454E+02	-5.97989856460E+00	-6.54404206344E-01
1.32080231137E+06	-1.45766077995E+01	9.37311772525E+00	2.61165961076E+00	1.65646009397E+02	-5.05917006268E+01	-1.45368604604E+02	-5.97019307295E+00	-9.72889517262E-01
1.34299366596E+06	-1.44108387136E+01	2.78670459082E+00	2.61683745587E+00	1.65398864930E+02	-4.84864010298E+01	1.06149513344E+02	-5.97631508593E+00	-8.39147656445E-01
1.36518502056E+06	-1.29297559004E+01	-6.13242620637E+00	2.64018472317E+00	1.65341129153E+02	-5.07113508264E+01	-1.09543888410E+02	-5.97866487788E+00	-6.05941648413E-01
1.38737637515E+06	-1.48173043998E+01	-2.11855411610E-01	2.61742159190E+00	1.64947733447E+02	-4.57213733009E+01	-3.19514174728E+01	-5.97430288474E+00	-7.50880534573E-01
1.40956772975E+06	-1.34002652705E+01	-6.08615339703E+00	2.63080071080E+00	1.64659096162E+02	-5.83222778299E+01	6.42127254592E+01	-5.97009655545E+00	-6.89560206876E-01
1.43175908434E+06	-1.45974006642E+01	-6.11621406296E+00	2.60948463605E+00	1.64368876192E+02	-5.72660223869E+01	1.83383532335E+01	-5.98097934148E+00	-6.88899788392E-01
1.45395043894E+06	-1.31923586182E+01	-9.73118535858E+00	2.61538732427E+00	1.63871005579E+02	-4.55067267572E+01	-1.61948605073E+02	-5.97361236384E+00	-6.81280929535E-01
1.47614179353E+06	-1.26846401747E+01	-1.54732923007E+00	2.60918651208E+00	1.63930666869E+02	-5.53413311019E+01	5.01478863456E+01	-5.98740795373E+00	-7.38966404904E-01
1.49833314813E+06	-1.41206320211E+01	5.99415269390E+00	2.59106460268E+00	1.63639759175E+02	-5.28943986802E+01	-1.48214961747E+01	-5.97546944147E+00	-7.32604096050E-01
1.52052450272E+06	-1.43887074032E+01	-1.99508367908E-01	2.64290393987E+00	1.63463429802E+02	-4.16492733551E+01	4.22259726881E+01	-5.97802602123E+00	-7.70403831692E-01
1.54271585732E+06	-1.61251961832E+01	1.68265921496E+00	2.60008916081E+00	1.62897644357E+02	-5.25837927846E+01	-1.58384609621E+02	-5.97234836466E+00	-6.84076200163E-01
1.56490721191E+06	-1.35049217364E+01	-3.53037211494E+00	2.62146332164E+00	1.63194516850E+02	-5.43467919063E+01	4.82572828533E+00	-5.97596151186E+00	-8.01884404037E-01
1.58709856651E+06	-1.33367260403E+01	4.64682795415E+00	2.60087904824E+00	1.62598896900E+02	-6.20300347846E+01	-1.19253925209E+02	-5.97326813544E+00	-7.12875765218E-01
1.60928992110E+06	-1.36763555926E+01	8.05375832468E+00	3.22519049058E+00	1.62022937909E+02	-4.87756922907E+01	-1.47928650963E+01	-5.97298102039E+00	-8.44588371730E-01
1.63148127570E+06	-1.29674612469E+01	6.40384906761E+00	3.30172842397E+00	1.61707635425E+02	-4.48321849922E+01	9.91333694562E+00	-5.97992140988E+00	-8.09844831931E-01
1.65367263029E+06	-1.27558722134E+01	-1.42868307506E-01	3.26478130094E+00	1.61474331163E+02	-5.52326305031E+01	-1.11828066001E+02	-5.97009657944E+00	-7.73082233477E-01
1.67586398489E+06	-1.73523890584E+01	7.98457428657E-01	3.23362408250E+00	1.61228903355E+02	-5.49367188189E+01	4.82339480378E+01	-5.97246158789E+00	-7.99833654876E-01
1.69805533948E+06	-1.46290247649E+01	3.62149121656E+00	3.25771340526E+00	1.60729680963E+02	-4.84735551580E+01	-4.08767788389E+01	-5.97885837390E+00	-8.18085916299E-01
1.72024669408E+06	-1.56672219547E+01	1.05273910959E+00	3.24123213843E+00	1.60615937457E+02	-4.76772679205E+01	-1.26940614662E+02	-5.97401082765E+00	-8.14303022233E-01
1.74243804867E+06	-1.27528606189E+01	-9.51597162672E+00	3.28051928818E+00	1.60380964626E+02	-4.76218957067E+01	-6.44056222315E+01	-5.95356876179E+00	-8.81291317986E-01
1.76462940327E+06	-1.38829857786E+01	1.40596345249E+01	3.23636577145E+00	1.60196248670E+02	-5.53233010896E+01	1.12531261959E+02	-5.97767957519E+00	-7.85567832406E-01
1.78682075786E+06	-1.28766744131E+01	-1.25865460123E+01	3.25617252503E+00	1.59804338698E+02	-4.97016113944E+01	1.15403320594E+02	-5.97250763676E+00	-8.76980901321E-01
1.80901211246E+06	-1.37443693681E+01	7.02573061310E+00	3.24736309064E+00	1.59648424984E+02	-5.15224569250E+01	1.38295317232E+02	-5.96461930179E+00	-8.42851854438E-01
1.83120346705E+06	-1.37498183119E+01	8.17002236364E+00	3.22915268503E+00	1.59479760225E+02	-6.32539122048E+01	7.31832181550E+01	-5.97610369722E+00	-8.91271206942E-01
1.85339482165E+06	-1.53621304175E+01	3.52200235550E+00	3.21544251988E+00	1.58955690224E+02	-5.78303819440E+01	-7.67969598911E+01	-5.97074538413E+00	-8.29378949229E-01
1.87558617624E+06	-1.41093069157E+01	-8.24828531752E+00	3.22298057135E+00	1.58864082946E+02	-7.92997693419E+01	9.24436882577E+01	-5.97822065585E+00	-8.86905337964E-01
1.89777753084E+06	-2.07784962893E+01	-1.01610761493E+01	3.22672903449E+00	1.58555598248E+02	-6.06326259400E+01	1.26604124175E+02	-5.97876061783E+00	-8.89402165438E-01
1.91996888543E+06	-1.06816893977E+01	1.46566955005E+00	3.22242373440E+00	1.58565922042E+02	-5.62157631801E+01	-4.78902390591E+01	-5.97294028670E+00	-8.44808808854E-01
1.94216024003E+06	-1.38534147886E+01	4.78223057554E-01	3.22022079600E+00	1.58047708822E+02	-4.87751644981E+01	-8.02522457430E+00	-5.97865686168E+00	-8.95185855687E-01
1.96435159462E+06	-1.57030948272E+01	9.23626639253E+00	3.20406502282E+00	1.57924483625E+02	-4.45404474203E+01	-3.64863798830E+01	-5.98049954586E+00	-8.78561216902E-01
1.98654294922E+06	-1.34425361161E+01	-4.93278919226E+00	3.20980663346E+00	1.57596347658E+02	-4.77397014742E+01	1.55752054539E+02	-5.96643152852E+00	-8.72655883251E-01
2.00873430381E+06	-1.45641919984E+01	9.53118756133E+00	3.21354760938E+00	1.57325349222E+02	-5.90760975842E+01	5.59944729905E+01	-5.97767100404E+00	-9.47504176819E-01
2.03092565841E+06	-1.60058875868E+01	9.94312607369E-01	3.20786765458E+00	1.57073065493E+02	-4.79571707965E+01	6.57929970978E+01	-5.96745496991E+00	-9.96809031154E-01
2.05311701300E+06	-1.44736294596E+01	4.39200030331E+00	3.20706089545E+00	1.56860906985E+02	-6.11242517191E+01	-6.42298997031E+01	-5.98161773879E+00	-9.55818243488E-01
2.07530836760E+06	-1.41204141389E+01	3.75937297854E+00	3.21507135451E+00	1.56655044449E+02	-5.28358722526E+01	-1.00504832020E+02	-5.98263546500E+00	-9.30378710143E-01
2.09749972219E+06	-1.35634501743E+01	3.11039547783E+00	3.20356731114E+00	1.56337998684E+02	-6.18434438969E+01	1.33861316231E+02	-5.96912798474E+00	-1.03188350449E+00
2.11969107679E+06	-1.32551438944E+01	1.90323487664E-01	3.19005836678E+00	1.56138276520E+02	-4.56449688887E+01	1.61912918784E+02	-5.97004164884E+00	-1.01342347170E+00
2.14188243138E+06	-1.11023240538E+01	-8.79669422208E+00	3.17132692954E+00	1.55844771127E+02	-6.33104458637E+01	-9.40906623645E+01	-5.96872801766E+00	-1.05720464033E+00
2.16407378598E+06	-1.35755631030E+01	-6.96706454743E+00	3.21441084306E+00	1.55326017243E+02	-5.56780787314E+01	5.04055610759E+01	-5.98065282914E+00	-1.01959704549E+00
2.18626514057E+06	-1.46779834174E+01	-2.97118274179E+00	3.18200140913E+00	1.55301026905E+02	-5.29671397429E+01	1.22769104755E+02	-5.97335710972E+00	-1.05644288371E+00
2.20845649517E+06	-1.50186217485E+01	8.56530893718E+00	3.18995097761E+00	1.54972459398E+02	-4.36960815024E+01	7.16784128774E+01	-5.95694846093E+00	-1.09057370697E+00
2.23064784976E+06	-1.45278895970E+01	3.19928603356E+00	3.16515833063E+00	1.54872962448E+02	-5.34833945252E+01	1.39729467459E+02	-5.97320181598E+00	-1.02879383514E+00
2.25283920436E+06	-9.88506435001E+00	1.67208408598E+01	3.14804124288E+00	1.54801486694E+02	-4.89784667328E+01	1.72068446022E+02	-5.96216772181E+00	-1.04734859538E+00
2.27503055895E+06	-1.31258739850E+01	2.17745012033E+00	3.18989569508E+00	1.54383885097E+02	-4.85313010529E+01	-1.57194125166E+02	-5.96083334957E+00	-1.06407362573E+00
2.29722191355E+06	-1.44228801498E+01	-8.98082938418E+00	3.19801258967E+00	1.54037428288E+02	-5.65436195576E+01	-1.17087159151E+02	-5.97036379325E+00	-1.02717092664E+00
2.31941326814E+06	-1.34612648586E+01	-4.85713672880E+00	3.20625765163E+00	1.53717120722E+02	-4.23422752864E+01	-1.39400882966E+02	-5.97418065320E+00	-9.97723360017E-01
2.34160462274E+06	-1.54854439928E+01	-2.69730537025E+00	3.14689782375E+00	1.53404023768E+02	-5.02834091161E+01	2.15468052598E+01	-5.96650249880E+00	-1.12059410081E+00
2.36379597733E+06	-1.88674265487E+01	2.01207905034E+01	3.15615723533E+00	1.53122414550E+02	-5.65213341991E+01	-1.48155167840E+01	-5.97237283485E+00	-1.08260967991E+00
2.38598733193E+06	-1.32125656021E+01	-4.03729939304E+00	3.19769566943E+00	1.52996734627E+02	-4.69473875536E+01	1.41141561045E+02	-5.96133465330E+00	-1.14048201302E+00
2.40817868652E+06	-1.49121397204E+01	4.31361894650E+00	3.16858051351E+00	1.52795024916E+02	-5.38738664855E+01	-7.73557065642E+01	-5.97120158768E+00	-1.25617658064E+00
2.43037004112E+06	-1.43591468669E+01	4.15770277431E+00	3.16176059796E+00	1.52691694702E+02	-3.64052196686E+01	-1.74988029722E+01	-5.98478899988E+00	-1.51626368498E+00
2.45256139571E+06	-1.51927735011E+01	-6.01975693171E+00	3.13480393426E+00	1.52425141857E+02	-4.93644706986E+01	1.91605224007E+01	-5.99151127448E+00	-1.10652509924E+00
2.47475275031E+06	-1.43080071276E+01	-3.05787683975E+00	3.16494539007E+00	1.52065886484E+02	-4.69328676645E+01	-1.57702245083E+02	-5.97101100313E+00	-1.13618685299E+00
2.49694410490E+06	-1.32549631600E+01	-8.43225716711E-01	3.15175337552E+00	1.51987485189E+02	-5.03688897269E+01	7.40406226779E+01	-5.98396638895E+00	-1.19669214429E+00
2.51913545950E+06	-1.42688897662E+01	9.04887742580E+00	3.12382491965E+00	1.51558140184E+02	-5.57247769960E+01	-5.45551925689E+01	-5.98941487060E+00	-1.10285922973E+00
2.54132681409E+06	-1.38159633912E+01	-1.72148721399E+00	3.14100347761E+00	1.51329371158E+02	-4.39473930124E+01	3.65690967079E+01	-5.99212580953E+00	-1.19107170465E+00
2.56351816869E+06	-1.60817602364E+01	1.16113515795E+01	3.09252762290E+00	1.51072818227E+02	-5.37067262459E+01	7.67452985843E+01	-5.97648511393E+00	-1.14587902430E+00
2.58570952328E+06	-1.29856964669E+01	1.64901785474E+00	3.08666813672E+00	1.50750894265E+02	-4.59107425915E+01	8.19282489202E+01	-5.98330371405E+00	-1.27266454123E+00
2.60790087788E+06	-1.34581820247E+01	1.15267674366E+01	3.12976567850E+00	1.50577496227E+02	-5.48893567466E+01	1.79518088262E+02	-5.97629531878E+00	-1.07877174676E+00
2.63009223247E+06	-1.47446168081E+01	4.68526297381E+00	3.10916025256E+00	1.50311245988E+02	-4.98515928093E+01	7.35150735070E+01	-5.98691731549E+00	-8.73861184490E-01
2.65228358707E+06	-1.43444830600E+01	-5.35208923493E-01	3.12355169598E+00	1.50057662499E+02	-5.72451838115E+01	-1.68470293053E+02	-5.97918626854E+00	-1.28582647029E+00
2.67447494166E+06	-1.33573690819E+01	-7.29330594425E+00	3.13000689528E+00	1.49828386605E+02	-5.67221607330E+01	1.06739770424E+02	-5.97674727672E+00	-1.25401297213E+00
2.69666629626E+06	-1.36318188219E+01	1.53380753175E+00	3.13032821864E+00	1.49689214929E+02	-5.59208033836E+01	1.50014652302E+02	-5.98359804365E+00	-1.24140988474E+00
2.71885765085E+06	-1.38720750198E+01	-5.12899010721E+00	3.11255349000E+00	1.49203385250E+02	-5.44921219075E+01	1.51019023963E+02	-5.97400312120E+00	-1.24729987848E+00
2.74104900545E+06	-1.53098602777E+01	7.91767331548E+00	3.07506270241E+00	1.48973026000E+02	-6.50174681580E+01	-6.09209184179E+01	-5.97852481616E+00	-1.31556162467E+00
2.76324036004E+06	-1.34694762138E+01	-5.69520567826E+00	3.10984976087E+00	1.48610574885E+02	-4.43530111830E+01	-9.38182836374E+01	-5.97207339780E+00	-1.25512966910E+00
2.78543171463E+06	-1.37550543908E+01	1.39984514468E+00	3.11216781135E+00	1.48598272744E+02	-5.11604140008E+01	-1.75773335290E+02	-5.97084057994E+00	-1.23505244233E+00
2.80762306923E+06	-1.31863601308E+01	1.44385127434E+00	3.09563195537E+00	1.48369714625E+02	-6.03650363267E+01	9.15947834561E+01	-5.98290677710E+00	-1.36815128171E+00
2.82981442382E+06	-1.56118834880E+01	1.39069890998E+01	3.08693373746E+00	1.48000164103E+02	-6.28786874837E+01	-1.29594320830E+02	-5.98779511237E+00	-1.32298024345E+00
2.85200577842E+06	-1.28565079588E+01	1.33777108174E+00	3.10404791749E+00	1.47768453967E+02	-4.64914010736E+01	-1.39544226581E+02	-5.97269347999E+00	-1.31433443409E+00
2.87419713301E+06	-1.27203789433E+01	-1.02000817310E+01	3.09274005025E+00	1.47556615566E+02	-6.10296721912E+01	6.09659503625E+01	-5.98144328077E+00	-1.34719181304E+00
2.89638848761E+06	-1.49413742922E+01	-3.86018044265E+00	3.06475546684E+00	1.47181730738E+02	-4.53339670544E+01	-1.61805861485E+02	-5.96720572167E+00	-1.25423606631E+00
