# Hz S DB R 50
! CMT, M5065, 19127446, 24.2.4/2
! Date: 11/8/2024 6:33:17 PM
! Data: Format (Calibration Info)
! Freq	S11:dB/Ang(F2)	S21:dB/Ang(F2)	S12:dB/Ang(F2)	S22:dB/Ang(F2)
3.00000000000E+05	-1.44826524626E+01	2.51702053585E+01	-3.65341843609E+00	1.78540268468E+02	-4.88847576383E+01	-5.33208793963E+00	-5.97155344414E+00	-1.75731338936E-01
3.22191354595E+05	-1.31452421498E+01	2.19447073280E+01	-3.76186745277E+00	1.78372548090E+02	-6.23595020134E+01	1.08661137682E+02	-5.96404175360E+00	-2.31250750371E-01
3.44382709190E+05	-1.58573624414E+01	1.32205306881E+01	-3.65856913308E+00	1.77568724411E+02	-6.07880499023E+01	-1.47557459508E+02	-5.96195199629E+00	-2.20558605531E-01
3.66574063785E+05	-1.39484106965E+01	1.16340663806E+01	-3.66048984780E+00	1.77444874540E+02	-4.63894307246E+01	6.00067526026E+01	-5.96324267928E+00	-2.85462571462E-01
3.88765418380E+05	-1.52687656072E+01	1.98120239767E+01	-3.70811757076E+00	1.77409338651E+02	-5.62991602988E+01	3.61380979769E+00	-5.96772454825E+00	-2.92887472788E-01
4.10956772975E+05	-1.31958926005E+01	7.26097499657E+00	-3.70802511340E+00	1.77257665570E+02	-5.76780829319E+01	9.87695391083E+01	-5.94859369011E+00	-2.17148587234E-01
4.33148127570E+05	-1.51375529445E+01	2.06894549389E+01	-3.74293090421E+00	1.76845982004E+02	-4.76194502013E+01	9.00873178874E+01	-5.96741921474E+00	-3.11233280544E-01
4.55339482165E+05	-1.34705021968E+01	2.91021411451E+00	-3.69148312711E+00	1.76390685557E+02	-4.87933282453E+01	-2.07721633311E+01	-5.95578025569E+00	-3.06683993827E-01
4.77530836760E+05	-1.40844412373E+01	7.51974195775E+00	-3.75027259931E+00	1.76604003897E+02	-5.86074683819E+01	1.44682335798E+02	-5.96296143502E+00	-3.84321423953E-01
4.99722191355E+05	-1.39567642209E+01	1.12081665143E+01	-3.72049905067E+00	1.76430516440E+02	-4.10285457610E+01	3.79138431768E+01	-5.96274103021E+00	-3.16506781686E-01
5.21913545950E+05	-1.33709974431E+01	1.52266672842E+01	-3.75201857523E+00	1.75785066808E+02	-4.96984708276E+01	1.19357445949E+02	-5.95425449679E+00	-2.99267134062E-01
5.44104900545E+05	-1.55543520210E+01	2.58838947923E+01	-3.70541663896E+00	1.76204420664E+02	-5.19702656655E+01	6.51610430135E+01	-5.95928818277E+00	-4.06205785536E-01
5.66296255139E+05	-1.30757027377E+01	9.82369741682E+00	-3.73765934719E+00	1.75487149681E+02	-4.41497776680E+01	1.03627910097E+02	-5.96721576008E+00	-3.70695448890E-01
5.88487609734E+05	-1.53721262853E+01	5.57776889056E+00	-3.79513986016E+00	1.75098785132E+02	-5.08841906732E+01	-5.86797027900E+01	-5.96557585529E+00	-3.64814703817E-01
6.10678964329E+05	-1.34137159672E+01	6.47097820484E+00	-3.77684540347E+00	1.74864143151E+02	-4.39945569619E+01	1.49926318296E+02	-5.97071770364E+00	2.33328403147E-01
6.32870318924E+05	-1.43116522412E+01	6.90077186925E+00	-3.76218952219E+00	1.74883805737E+02	-6.55220923758E+01	-2.24138606377E+01	-5.96923416074E+00	-1.50738761303E-01
6.55061673519E+05	-1.62356255628E+01	2.66456082463E+01	-3.77845120612E+00	1.74742045039E+02	-6.54076297632E+01	-1.47715220412E+02	-5.97278113122E+00	-2.53253342064E-01
6.77253028114E+05	-1.41854912715E+01	6.86798598287E+00	-3.81545036154E+00	1.74360977986E+02	-5.32231510364E+01	-1.57809257047E+01	-5.95634663109E+00	-6.18946504439E-01
6.99444382709E+05	-1.40582669785E+01	6.70982424557E+00	-3.73031712090E+00	1.74387790899E+02	-5.38666815731E+01	1.64656883930E+02	-5.95199489136E+00	-3.85103199478E-01
7.21635737304E+05	-1.39901832076E+01	8.64970187343E-01	-3.75237432035E+00	1.73783595563E+02	-4.92515934622E+01	1.49521672655E+02	-5.97101178370E+00	-3.48101975326E-01
7.43827091899E+05	-1.25595965382E+01	-1.03643615003E+01	-3.72830557129E+00	1.73264731163E+02	-5.10332486828E+01	7.49068137690E+01	-5.96572229162E+00	-4.22343076719E-01
7.66018446494E+05	-1.49300508365E+01	1.08140189851E+01	-3.76020182132E+00	1.73874362188E+02	-6.44257526468E+01	-1.67406921093E+01	-5.97106514387E+00	-4.14060327256E-01
7.88209801089E+05	-1.32720504451E+01	1.53370977198E+01	-3.78434477111E+00	1.73282267947E+02	-5.30570660123E+01	-9.35197761501E+01	-5.95929686337E+00	-3.56131954942E-01
8.10401155684E+05	-1.50538891838E+01	1.03267850583E+01	-3.74518738058E+00	1.73017936569E+02	-4.83831475543E+01	4.33823158074E+01	-5.97076866823E+00	-4.52770857735E-01
8.32592510279E+05	-1.42192639609E+01	1.41078108363E+01	-3.76444519171E+00	1.72940109689E+02	-4.81618671093E+01	9.93661340758E+00	-5.97001731091E+00	-3.98539508061E-01
8.54783864874E+05	-1.23103873657E+01	5.06333263213E+00	-3.72626622680E+00	1.73059269706E+02	-4.96802864385E+01	5.26940163502E+01	-5.95905804239E+00	-4.57288678370E-01
8.76975219469E+05	-1.60756038530E+01	4.51647586309E+00	-3.78001255849E+00	1.72769673206E+02	-6.96597217224E+01	-4.99520226015E+01	-5.95189502866E+00	-5.27576840645E-01
8.99166574064E+05	-1.65686478311E+01	1.18164120847E+01	-3.72083144037E+00	1.72506052873E+02	-4.67531001897E+01	-8.55980217508E+01	-5.96819685311E+00	-4.70031012511E-01
9.21357928659E+05	-1.53289382727E+01	2.32987330024E+00	-3.80470788705E+00	1.72037425951E+02	-5.45676994300E+01	1.37912144093E+02	-5.96208895975E+00	-5.17116934716E-01
9.43549283254E+05	-1.52877687220E+01	2.09851006476E+00	-3.73226105436E+00	1.72189939333E+02	-4.67414845142E+01	-1.42651705432E+02	-5.95972461844E+00	-4.26855517375E-01
9.65740637849E+05	-1.36319524311E+01	1.28937565634E+01	-3.77645857286E+00	1.71475099775E+02	-5.57450206539E+01	-1.28582747697E+02	-5.97339962096E+00	-4.33556300017E-01
9.87931992444E+05	-1.53000749229E+01	9.25034607641E+00	-3.72311483523E+00	1.71395188577E+02	-5.84492897811E+01	3.66620445246E+01	-5.95765518329E+00	-5.39088179947E-01
1.01012334704E+06	-1.49211848721E+01	1.58394002572E+01	-3.77059989588E+00	1.70877423936E+02	-4.74061568485E+01	-6.43968649890E+01	-5.96164451205E+00	-4.76335929556E-01
1.03231470163E+06	-1.46826495635E+01	-4.13810601471E-01	-3.76174516382E+00	1.70906434920E+02	-4.83281332223E+01	5.90750755997E+01	-5.96588814183E+00	-5.74424972965E-01
1.05450605623E+06	-1.32278473521E+01	1.36853145159E+00	-3.78613606419E+00	1.71314326168E+02	-5.44430006686E+01	1.41202277713E+02	-5.95872590098E+00	-4.83621966797E-01
1.07669741082E+06	-1.54799912780E+01	1.60561204179E+01	-3.79298341119E+00	1.70459801130E+02	-5.68156140013E+01	1.07817569780E+02	-5.95887170192E+00	-5.04705142232E-01
1.09888876542E+06	-1.59818813995E+01	7.52076037239E+00	-3.72810220465E+00	1.70849118250E+02	-4.76269493135E+01	1.43619451124E+01	-5.96049941126E+00	-5.37744503624E-01
1.12108012001E+06	-1.42284629854E+01	9.36168256116E+00	-3.77585017860E+00	1.70385045403E+02	-4.61100109506E+01	2.36693901576E+01	-5.96406413813E+00	-5.75858208416E-01
1.14327147461E+06	-1.45161007722E+01	1.87519360063E+00	-3.75687769603E+00	1.69816776792E+02	-6.20583906691E+01	-1.53411596743E+02	-5.95910863978E+00	-5.41456972501E-01
1.16546282920E+06	-1.48849906671E+01	1.07507040705E+01	-3.81848742960E+00	1.69779029212E+02	-5.08780252679E+01	-1.16401035619E+02	-5.95758871443E+00	-5.69503688946E-01
1.18765418380E+06	-1.36001202911E+01	-8.21694151670E-01	-3.76824975558E+00	1.69684370377E+02	-6.17060771984E+01	1.35556833964E+02	-5.96503661928E+00	-6.11194997165E-01
1.20984553839E+06	-1.88865534486E+01	1.23402908478E-01	-3.75302537056E+00	1.69199946710E+02	-4.94558994534E+01	-7.57719365559E+01	-5.95651640078E+00	-6.94526165472E-01
1.23203689299E+06	-1.51240977298E+01	3.05452075743E-01	-3.81427552354E+00	1.69586150600E+02	-5.29152500058E+01	-1.27656205595E+01	-5.97214726981E+00	-3.51307827229E-01
1.25422824758E+06	-1.45081207156E+01	1.40763433670E+01	-3.78449679625E+00	1.69405094414E+02	-4.96646751067E+01	1.20198496369E+02	-5.98009316506E+00	-6.09773229841E-01
1.27641960218E+06	-1.30039079862E+01	1.20379174394E+00	-3.79518580197E+00	1.68780092406E+02	-5.09647820267E+01	-6.41197102554E+01	-5.96541440110E+00	-6.03264724620E-01
1.29861095677E+06	-1.46485595844E+01	5.72988252909E+00	-3.77871968980E+00	1.68792597350E+02	-5.16286730987E+01	7.58443503004E+01	-5.97370056402E+00	-5.76774699491E-01
1.32080231137E+06	-1.43038394153E+01	3.45528087103E+00	-3.79621718714E+00	1.68210333713E+02	-5.49598797294E+01	-4.31562930817E+01	-5.95668253359E+00	-9.70783644154E-01
1.34299366596E+06	-1.54534110879E+01	4.55182074216E+00	-3.78982544967E+00	1.68353779653E+02	-5.65683732064E+01	-2.79703198499E+01	-5.96423987228E+00	-7.27901804164E-01
1.36518502056E+06	-2.04199031475E+01	-2.28866223682E+00	-3.77019911455E+00	1.67664296193E+02	-4.86334914496E+01	-1.44418769698E+01	-5.95379850747E+00	-6.19393417478E-01
1.38737637515E+06	-1.41742718460E+01	1.43661486447E+01	-3.81229140419E+00	1.67855604951E+02	-6.02553899009E+01	1.00871566286E+02	-5.95890425803E+00	-7.11272245368E-01
1.40956772975E+06	-1.56569089971E+01	7.21148180316E+00	-3.78903254039E+00	1.67697784367E+02	-4.79480202281E+01	1.17073280376E+02	-5.97937788864E+00	-7.32680248130E-01
1.43175908434E+06	-1.33474089817E+01	6.30920590056E+00	-3.80062153251E+00	1.67703978519E+02	-4.80080239417E+01	-4.02356224846E+01	-5.97789261597E+00	-6.45473895479E-01
1.45395043894E+06	-1.48414443610E+01	2.87274689203E+00	-3.81570742301E+00	1.67259014031E+02	-5.19910152333E+01	1.44819649601E+02	-5.96701123309E+00	-7.35066715834E-01
1.47614179353E+06	-1.64816126881E+01	1.07783202231E+01	-3.77571602474E+00	1.67310399427E+02	-5.56077189814E+01	-1.35020641441E+02	-5.96518399190E+00	-6.81412724308E-01
1.49833314813E+06	-1.45018302847E+01	6.82080229168E+00	-3.80171383261E+00	1.66792954501E+02	-5.57242218615E+01	1.71314883649E+02	-5.95512031528E+00	-6.55973295077E-01
1.52052450272E+06	-1.67018855380E+01	1.24346309849E+01	-3.83931084257E+00	1.66408864824E+02	-5.46062432906E+01	-6.48237647168E+01	-5.95734491364E+00	-6.72019416950E-01
1.54271585732E+06	-1.34250136464E+01	-3.87128415538E+00	-3.82577010564E+00	1.66167479641E+02	-5.10489744210E+01	-1.68183999550E+02	-5.96962421430E+00	-6.91677457154E-01
1.56490721191E+06	-1.38978415450E+01	1.67318910800E+00	-3.81256104904E+00	1.66243696616E+02	-5.88137445759E+01	-1.44245483909E+01	-5.96634664393E+00	-7.61388301752E-01
1.58709856651E+06	-1.39548065248E+01	2.43938987041E+00	-3.80239333060E+00	1.66050186869E+02	-6.44598082137E+01	1.67939495102E+02	-5.97070698011E+00	-7.34675226229E-01
1.60928992110E+06	-1.43619058054E+01	-7.48195783130E+00	-3.78867954847E+00	1.65968607031E+02	-5.57380482379E+01	-1.64415884488E+02	-5.95851575164E+00	-7.75201185117E-01
1.63148127570E+06	-1.50656438707E+01	9.20352094222E+00	-3.86634375995E+00	1.65713028267E+02	-4.75043761906E+01	-2.13121588953E+01	-5.97446612695E+00	-7.75269858748E-01
1.65367263029E+06	-1.35057740039E+01	2.53783122036E+00	-3.82798508822E+00	1.65679151075E+02	-4.37778022074E+01	-1.57614998897E+02	-5.96163292293E+00	-8.07275744058E-01
1.67586398489E+06	-1.59482785980E+01	-8.88404348550E-01	-3.82274294213E+00	1.65259007134E+02	-5.25834453000E+01	1.74193781654E+02	-5.96669560059E+00	-7.41405505948E-01
1.69805533948E+06	-1.75298343177E+01	-8.82798770575E+00	-3.83457338854E+00	1.64970667560E+02	-5.70269127216E+01	-9.06906404590E+01	-5.96285963861E+00	-8.17569715706E-01
1.72024669408E+06	-1.32207858003E+01	-3.86770293117E+00	-3.79350880522E+00	1.64750143520E+02	-4.69192825407E+01	5.47340581016E+01	-5.96626520783E+00	-8.19488892135E-01
1.74243804867E+06	-1.35142410680E+01	3.07242884363E+00	-3.89420705791E+00	1.64703330346E+02	-5.11968378583E+01	2.30291944546E+01	-5.96498181759E+00	-7.57836243287E-01
1.76462940327E+06	-1.49685809890E+01	-7.03936057424E+00	-3.84702585493E+00	1.64498003929E+02	-5.37727403136E+01	1.36562116655E+02	-5.94488396684E+00	-8.71582553495E-01
1.78682075786E+06	-1.61067445943E+01	-2.06740200360E+00	-3.87046550798E+00	1.64207055369E+02	-4.99597520860E+01	-7.39829099255E+01	-5.96559287532E+00	-8.40012182607E-01
1.80901211246E+06	-1.43050825131E+01	7.15508407747E+00	-3.85574531869E+00	1.64038011112E+02	-6.03365758487E+01	-8.44526997365E+01	-5.97065588851E+00	-8.37486799445E-01
1.83120346705E+06	-1.48843217486E+01	-6.64113228545E+00	-3.80558431621E+00	1.63872262384E+02	-5.07206660865E+01	-8.53220856420E+01	-5.97364823454E+00	-8.85707306673E-01
1.85339482165E+06	-1.46673104794E+01	5.78232247955E+00	-3.82969577276E+00	1.63690661163E+02	-5.78512408183E+01	3.55154713342E+01	-5.95955633066E+00	-9.18483299043E-01
1.87558617624E+06	-1.43199552499E+01	1.17670815846E+00	-3.81087943243E+00	1.63196799661E+02	-3.94977232830E+01	-2.67017911095E+01	-5.95976166524E+00	-8.15358579766E-01
1.89777753084E+06	-1.46763440880E+01	4.51730489397E+00	-3.83205060339E+00	1.63157373697E+02	-5.10217378970E+01	-1.96970835818E+01	-5.96636974238E+00	-9.26566569696E-01
1.91996888543E+06	-1.43966310327E+01	1.19048316168E+01	-3.84755916669E+00	1.62761817127E+02	-6.66211375439E+01	-1.99826605350E+01	-5.96532476611E+00	-9.02555868060E-01
1.94216024003E+06	-1.59056041184E+01	2.68617934477E+01	-3.83198645538E+00	1.62877577450E+02	-5.45581049027E+01	-5.07087420375E+01	-5.96977622406E+00	-9.58300469305E-01
1.96435159462E+06	-1.41846372185E+01	-4.46205228354E+00	-3.78944224520E+00	1.62605707110E+02	-5.46218964692E+01	1.64860145901E+00	-5.96339342701E+00	-8.94338469010E-01
1.98654294922E+06	-1.39400020161E+01	-1.97433705119E+00	-3.85417001193E+00	1.62323357096E+02	-3.97068528589E+01	-1.53068110047E+02	-5.96470952061E+00	-8.89524266300E-01
2.00873430381E+06	-1.47914263503E+01	-1.09180910841E+00	-3.85991872403E+00	1.62258817504E+02	-4.86001939735E+01	-1.82211623378E+01	-5.97010227042E+00	-9.73094200032E-01
2.03092565841E+06	-1.46886789617E+01	-7.53407692483E-01	-3.87892744432E+00	1.61884640898E+02	-5.16508451147E+01	-5.07828621644E+01	-5.96338550933E+00	-9.64670590487E-01
2.05311701300E+06	-1.39425778443E+01	2.90753874699E+00	-3.85991686882E+00	1.61927599135E+02	-5.13548515578E+01	1.78864521144E+02	-5.96179203145E+00	-9.43110550261E-01
2.07530836760E+06	-1.43526967285E+01	-7.11961452595E-01	-3.93101801418E+00	1.61221380409E+02	-5.68247991749E+01	1.43218539213E+02	-5.96806096604E+00	-9.01696325347E-01
2.09749972219E+06	-1.41429399503E+01	3.34821863776E+00	-3.93419109600E+00	1.61834004019E+02	-4.54988701987E+01	-4.84334147053E+01	-5.96194705402E+00	-9.81020928138E-01
2.11969107679E+06	-1.36336601983E+01	6.04226156955E+00	-3.82852758417E+00	1.61251658608E+02	-6.63409542197E+01	2.73202571146E+01	-5.96213608603E+00	-9.76340628555E-01
2.14188243138E+06	-1.40360492941E+01	-3.71663176350E+00	-3.79009953967E+00	1.61186176677E+02	-5.47461168966E+01	7.61959025368E+01	-5.97111767704E+00	-9.22510577345E-01
2.16407378598E+06	-1.87425911337E+01	4.21278611702E+01	-3.94668789071E+00	1.60743515500E+02	-4.86060623628E+01	6.12845214194E+01	-5.96539279533E+00	-1.00328625884E+00
2.18626514057E+06	-1.56041772867E+01	2.42248728639E+00	-3.95629693647E+00	1.60443870813E+02	-5.32520277460E+01	-2.95949647268E+01	-5.96520932808E+00	-1.04284919135E+00
2.20845649517E+06	-1.29971417228E+01	1.95478054335E+00	-3.87182963043E+00	1.60736921345E+02	-4.40239579225E+01	2.97072576701E+01	-5.97058813551E+00	-9.73615867664E-01
2.23064784976E+06	-1.50393923370E+01	-1.28854188830E+01	-3.84528313859E+00	1.60103671418E+02	-4.88585122297E+01	1.16228417613E+02	-5.96520030708E+00	-1.08224062432E+00
2.25283920436E+06	-1.43507770420E+01	-7.71389690915E-01	-3.88494096790E+00	1.60226989079E+02	-5.07172882930E+01	1.87117448770E+01	-5.97733594350E+00	-1.05504513818E+00
2.27503055895E+06	-1.49263788550E+01	-3.07177975437E+00	-3.85733928301E+00	1.60222324821E+02	-4.85251966790E+01	6.44874677195E+01	-5.96636760313E+00	-1.06677933968E+00
2.29722191355E+06	-1.49516651631E+01	-7.29995429235E+00	-3.88150734913E+00	1.59922869754E+02	-5.44184904698E+01	8.11484055283E+01	-5.96831838857E+00	-1.08741050239E+00
2.31941326814E+06	-1.57240410403E+01	3.41121015769E+00	-3.87666116381E+00	1.59665498038E+02	-6.82901594411E+01	1.49895315740E+02	-5.97086938961E+00	-1.06114729521E+00
2.34160462274E+06	-1.53913329717E+01	1.92321772105E+00	-3.89306543179E+00	1.59328347709E+02	-4.12755422910E+01	-4.40471921087E+01	-5.96122221266E+00	-1.06799272992E+00
2.36379597733E+06	-1.59479551828E+01	7.89417745265E+00	-3.86065530124E+00	1.58595142227E+02	-4.63606756171E+01	8.46012705744E+00	-5.97537700880E+00	-1.16820259632E+00
2.38598733193E+06	-1.27528451543E+01	6.87648903993E+00	-3.91147724409E+00	1.58807504247E+02	-5.01601657317E+01	4.94792488183E+01	-5.97568429688E+00	-1.12806752474E+00
2.40817868652E+06	-1.20617712142E+01	1.75005326774E+01	-3.96092818354E+00	1.58513023262E+02	-4.89787976086E+01	-9.32672656757E+01	-5.98307630555E+00	-1.22882611201E+00
2.43037004112E+06	-1.42172377148E+01	2.29339087224E+00	-3.92211731939E+00	1.58666271247E+02	-6.97565005854E+01	-4.17577414333E+01	-5.96703819168E+00	-1.50196560202E+00
2.45256139571E+06	-1.41054833007E+01	-7.12293742503E+00	-3.91839953655E+00	1.58224232271E+02	-4.26476017098E+01	1.28126866171E+02	-5.97083639127E+00	-1.10712208818E+00
2.47475275031E+06	-1.49498314105E+01	1.53474536028E+01	-3.94778746692E+00	1.58184242574E+02	-5.06646077416E+01	4.61576727618E+01	-5.97402467931E+00	-1.11636780716E+00
2.49694410490E+06	-1.31789125888E+01	1.67296416299E+00	-3.87377654296E+00	1.57946072473E+02	-5.62406347072E+01	9.97463292203E+01	-5.96991838775E+00	-1.09098613713E+00
2.51913545950E+06	-1.41122683265E+01	4.57057313483E+01	-3.96724325520E+00	1.57873763821E+02	-5.59064421030E+01	2.36093862151E+01	-5.97333360992E+00	-1.11430480631E+00
2.54132681409E+06	-1.39854450411E+01	8.26001607919E+00	-3.90200461700E+00	1.57378938922E+02	-5.18860144191E+01	5.51084932327E+01	-5.97107481942E+00	-1.17221333881E+00
2.56351816869E+06	-1.37757232905E+01	4.60098480545E-01	-3.89366623067E+00	1.57484934784E+02	-3.98902947150E+01	-7.11047967285E+01	-5.98789298353E+00	-1.13835213256E+00
2.58570952328E+06	-1.40371174922E+01	-2.96791679295E-02	-3.87165077360E+00	1.57157584336E+02	-4.73738538298E+01	5.11583761716E+01	-5.98113911258E+00	-1.18714108530E+00
2.60790087788E+06	-1.36653804226E+01	-3.31891210200E+00	-3.97674594751E+00	1.57212483650E+02	-8.07218104490E+01	5.81410054899E+01	-5.96780933248E+00	-9.92302567504E-01
2.63009223247E+06	-1.16052763057E+01	4.16890432755E+00	-3.93594317448E+00	1.56762956052E+02	-6.26897637336E+01	3.92262081296E+01	-5.97629948611E+00	-8.43932627266E-01
2.65228358707E+06	-1.41934450495E+01	-5.27689749367E-01	-3.89551640388E+00	1.56671927291E+02	-4.73330818000E+01	-7.69826585744E+00	-5.96367065323E+00	-1.23727309697E+00
2.67447494166E+06	-1.43029995117E+01	1.31154518960E+00	-3.92625628059E+00	1.56308070850E+02	-4.67807569952E+01	8.28614995300E+01	-5.96631527177E+00	-1.25073112293E+00
2.69666629626E+06	-1.39246740085E+01	5.10878185040E+00	-3.96210096105E+00	1.56068789942E+02	-4.78909964234E+01	2.33458775008E+01	-5.96462270064E+00	-1.26260763210E+00
2.71885765085E+06	-1.42517675891E+01	5.57837743793E-01	-3.97840598301E+00	1.56044073580E+02	-4.60542910244E+01	-5.27309367992E+01	-5.97643574962E+00	-1.20347256067E+00
2.74104900545E+06	-1.68180205372E+01	1.40680925098E+01	-3.92472295067E+00	1.55849702850E+02	-6.71606036271E+01	-7.17262478671E+01	-5.98154031163E+00	-1.26222044973E+00
2.76324036004E+06	-1.50159184030E+01	1.20266324032E+01	-3.93768150623E+00	1.55662276397E+02	-6.03956382058E+01	-2.29836143891E+01	-5.97052621476E+00	-1.30322211726E+00
2.78543171463E+06	-1.42853241629E+01	3.80706278415E+00	-3.95851462583E+00	1.55590986423E+02	-5.15824795249E+01	4.27731708346E+01	-5.97509265322E+00	-1.26441865354E+00
2.80762306923E+06	-1.51154473945E+01	-4.95285375383E+00	-3.99081195015E+00	1.55217495167E+02	-4.27672364304E+01	9.42539052511E+01	-5.96464364687E+00	-1.31053914996E+00
2.82981442382E+06	-1.35833799418E+01	-1.30553279444E+00	-3.99204534084E+00	1.55224691526E+02	-5.08487538413E+01	2.75654070565E+01	-5.97161758955E+00	-1.30503130375E+00
2.85200577842E+06	-1.23163964471E+01	2.96199318396E+00	-3.91313772526E+00	1.54999753928E+02	-4.99191593469E+01	-1.12173098938E+02	-5.98209713265E+00	-1.33959866066E+00
2.87419713301E+06	-1.37324362157E+01	7.12452494906E-01	-3.90654480565E+00	1.54867049873E+02	-5.01630392411E+01	-1.31767122857E+02	-5.96940140175E+00	-1.38673897588E+00
