# Hz S DB R 50
! CMT, M5065, 19127446, 24.2.4/2
! Date: 11/8/2024 6:38:27 PM
! Data: Format (Calibration Info)
! Freq	S11:dB/Ang(F2)	S21:dB/Ang(F2)	S12:dB/Ang(F2)	S22:dB/Ang(F2)
3.00000000000E+05	-1.37174563957E+01	1.48732384229E+01	-7.83632580670E-01	1.78215546957E+02	-6.40555065314E+01	1.01187690393E+02	-5.96083907631E+00	-2.34211321028E-01
3.22191354595E+05	-1.33744533674E+01	1.72210776624E+01	-7.97114351458E-01	1.78270881978E+02	-5.85186365105E+01	-7.56802611144E+01	-5.96280757470E+00	-3.03652422811E-01
3.44382709190E+05	-1.67555813551E+01	2.68463765309E+01	-7.96045907115E-01	1.77804258880E+02	-5.27261293676E+01	1.48998051464E+02	-5.95883311280E+00	-2.57268607676E-01
3.66574063785E+05	-1.76942626402E+01	1.52994615548E+01	-8.03644504576E-01	1.77618428560E+02	-4.75819504013E+01	5.73859230745E+01	-5.97038355116E+00	-2.51006567302E-01
3.88765418380E+05	-1.36590040372E+01	2.53747083427E+01	-7.70468945591E-01	1.77291350227E+02	-6.46013115458E+01	2.24834115212E+01	-5.97492521752E+00	-2.60084175982E-01
4.10956772975E+05	-1.34227633082E+01	2.24400329618E+01	-7.57070335764E-01	1.76971242891E+02	-5.20609977608E+01	3.25844572763E+01	-5.95919563644E+00	-2.68638747932E-01
4.33148127570E+05	-1.28270715827E+01	1.61433953982E+01	-8.19658057342E-01	1.76780627705E+02	-5.09483718016E+01	-1.26096247130E+02	-5.95857454018E+00	-2.07365572733E-01
4.55339482165E+05	-1.69462626230E+01	1.41974064395E+01	-8.12445701475E-01	1.76327231099E+02	-5.06738688698E+01	-7.80586030657E+01	-5.97318975670E+00	-3.02047873491E-01
4.77530836760E+05	-1.42485063346E+01	1.01908091162E+01	-8.66016287447E-01	1.76052106799E+02	-4.62642877158E+01	4.23558049152E+01	-5.96265834289E+00	-3.07963561333E-01
4.99722191355E+05	-1.68791255265E+01	6.91782882876E+00	-8.27281354942E-01	1.75928415094E+02	-4.89780998423E+01	1.02980121801E+02	-5.97060588924E+00	-2.88535513390E-01
5.21913545950E+05	-1.52361389843E+01	1.10044578608E+01	-8.16091168031E-01	1.75494736198E+02	-5.35789087419E+01	4.37255557131E+01	-5.96929285287E+00	-2.34933450267E-01
5.44104900545E+05	-1.37093336892E+01	1.81678338687E+01	-8.17154097631E-01	1.75633957367E+02	-5.53652799688E+01	-1.11828974470E+02	-5.96164728202E+00	-3.75048149482E-01
5.66296255139E+05	-1.47006467363E+01	7.39253916533E+00	-8.00257566025E-01	1.75013433842E+02	-5.25019280954E+01	1.25492453982E+01	-5.96644782807E+00	-3.28955676192E-01
5.88487609734E+05	-1.47591942853E+01	7.50359830994E+00	-8.35321981951E-01	1.74727224410E+02	-4.35699109131E+01	6.71450090004E+00	-5.96530851573E+00	-3.07141625937E-01
6.10678964329E+05	-1.55154942731E+01	7.80546160404E+00	-8.87764901090E-01	1.74479416263E+02	-4.43375053537E+01	-1.45554483546E+02	-5.96601928443E+00	1.58115432226E-01
6.32870318924E+05	-1.21737921758E+01	2.29274392222E+00	-8.28761840273E-01	1.74240727313E+02	-5.56832627226E+01	2.10263952296E-01	-5.96402591694E+00	-1.16185987830E-01
6.55061673519E+05	-1.34849523432E+01	8.35407022438E+00	-8.59487350653E-01	1.74387353039E+02	-5.62868704123E+01	1.31075319897E+02	-5.96214232125E+00	-2.91347465570E-01
6.77253028114E+05	-1.43112763509E+01	7.90705809883E+00	-8.22522041806E-01	1.73629137753E+02	-4.97947625882E+01	-1.60563890790E+01	-5.96620432479E+00	-6.83405260141E-01
6.99444382709E+05	-1.35962026337E+01	2.14198941299E+00	-8.10897182831E-01	1.73681337350E+02	-4.98754810437E+01	-2.91628526007E+01	-5.96606251385E+00	-3.65822366998E-01
7.21635737304E+05	-1.25580024840E+01	1.23631364398E+01	-8.33945165088E-01	1.73377831595E+02	-5.35037855697E+01	-2.37928604137E+00	-5.97093982572E+00	-4.18681693592E-01
7.43827091899E+05	-1.57318738545E+01	-5.09202248151E-01	-8.31842786061E-01	1.73285924467E+02	-5.23945727144E+01	6.30433210717E+01	-5.96714412203E+00	-3.48327610762E-01
7.66018446494E+05	-1.43019871851E+01	7.08344439140E-01	-8.84721314759E-01	1.72881862191E+02	-6.25333178283E+01	1.19723488984E+02	-5.96438678089E+00	-3.61027839292E-01
7.88209801089E+05	-1.38818285987E+01	2.33515634830E+00	-8.44783888058E-01	1.72706189646E+02	-5.98355209534E+01	9.46664286339E+01	-5.96887228682E+00	-4.38097499320E-01
8.10401155684E+05	-1.34496872963E+01	4.28301462464E+00	-8.30601935014E-01	1.72741182621E+02	-4.70016991702E+01	-1.30663061971E+02	-5.96660153027E+00	-4.03885075379E-01
8.32592510279E+05	-1.43338453182E+01	1.59095410974E+01	-8.52934370376E-01	1.72187052398E+02	-4.97435390520E+01	-3.24371626520E+01	-5.96163795422E+00	-4.52229972256E-01
8.54783864874E+05	-1.40056379196E+01	-1.12030218674E+01	-8.53339453087E-01	1.72346465687E+02	-4.88238341416E+01	-6.74205886098E+01	-5.96174112068E+00	-4.54227254621E-01
8.76975219469E+05	-1.32941289460E+01	2.98821305185E+00	-8.30017903194E-01	1.71871125677E+02	-5.56133630408E+01	1.79774770593E+02	-5.96442931266E+00	-4.08134456351E-01
8.99166574064E+05	-1.47598813646E+01	7.12956507212E+00	-8.29590218872E-01	1.71824764590E+02	-7.37173200159E+01	8.38323957664E+01	-5.96218320739E+00	-4.87690302666E-01
9.21357928659E+05	-1.49030439984E+01	1.09450171547E+00	-8.53913651264E-01	1.71236308680E+02	-5.54972518899E+01	-4.85234680878E+01	-5.97678739988E+00	-4.78596195738E-01
9.43549283254E+05	-1.37162678139E+01	6.26830658707E+00	-8.49353293935E-01	1.71034752778E+02	-5.22132887531E+01	-1.51038134176E+02	-5.96415380934E+00	-4.69163259762E-01
9.65740637849E+05	-1.49383639594E+01	1.57476128566E+01	-8.97658075348E-01	1.71329568911E+02	-6.07328544314E+01	-1.29032135511E+02	-5.96470582852E+00	-4.80926393427E-01
9.87931992444E+05	-1.39492097872E+01	7.63569887009E+00	-8.59637859076E-01	1.70604716379E+02	-5.12166538133E+01	-4.50292325734E+00	-5.96110288240E+00	-4.61577696958E-01
1.01012334704E+06	-1.46556214824E+01	2.08416710253E+00	-8.85676230302E-01	1.70177458776E+02	-4.99578709903E+01	-1.35500946692E+02	-5.95923725963E+00	-4.22642500782E-01
1.03231470163E+06	-1.27892122364E+01	-1.63183482496E+00	-8.96827794653E-01	1.70192309543E+02	-5.15949677744E+01	-1.26970904245E+02	-5.96865501513E+00	-4.92778049000E-01
1.05450605623E+06	-1.48697198385E+01	-3.66967419438E+00	-9.07454449875E-01	1.69961369041E+02	-7.17009651403E+01	1.52672529140E+02	-5.96666066466E+00	-5.12668204480E-01
1.07669741082E+06	-1.56190125859E+01	1.23132721499E+01	-9.12727707104E-01	1.70032670231E+02	-4.76766354377E+01	-1.43872695619E+02	-5.96916273684E+00	-5.24674339568E-01
1.09888876542E+06	-1.30989414493E+01	3.61967938919E+00	-8.56333647867E-01	1.69803755657E+02	-4.42514153683E+01	8.55874509889E-01	-5.97355929497E+00	-4.86419869519E-01
1.12108012001E+06	-1.42056794888E+01	1.62371690567E+00	-8.72569219775E-01	1.69471836982E+02	-5.08709957882E+01	-3.10244631588E+00	-5.97804949578E+00	-5.68658753823E-01
1.14327147461E+06	-1.38059768814E+01	4.48408244326E+00	-9.00888205901E-01	1.69056700185E+02	-6.75760845337E+01	-2.96375669869E+01	-5.96727406745E+00	-5.72039165129E-01
1.16546282920E+06	-1.36713253714E+01	5.01356704325E+00	-8.77878262675E-01	1.68902447660E+02	-4.92409398045E+01	-2.23997269407E+01	-5.95836641597E+00	-6.30918326515E-01
1.18765418380E+06	-1.42191257726E+01	1.17710220410E+01	-8.65913045381E-01	1.68581758037E+02	-4.78544257144E+01	-7.93423881221E+01	-5.96307751101E+00	-5.10705347200E-01
1.20984553839E+06	-1.50768428998E+01	-8.24098628826E+00	-8.87550737109E-01	1.68599226457E+02	-6.97152081764E+01	-1.00592576753E+02	-5.97221993736E+00	-7.26549804494E-01
1.23203689299E+06	-1.42672895456E+01	1.01889565718E+01	-8.86164456166E-01	1.68466737555E+02	-5.67242753791E+01	-7.27543793213E+01	-5.95951178451E+00	-3.40216424088E-01
1.25422824758E+06	-1.47169842664E+01	1.52895324396E+00	-8.97472361432E-01	1.68200789827E+02	-5.05347266038E+01	-7.52414096674E+01	-5.97265015941E+00	-5.90007002033E-01
1.27641960218E+06	-1.36843128214E+01	-3.77842572560E+00	-8.83579548782E-01	1.68066905567E+02	-5.06637810964E+01	1.03244869000E+01	-5.98209489839E+00	-6.57689581064E-01
1.29861095677E+06	-1.71327825894E+01	3.78780349670E+00	-9.08464937667E-01	1.67751652194E+02	-5.17322796779E+01	-1.78995401197E+01	-5.97638248930E+00	-6.49685591206E-01
1.32080231137E+06	-1.27711142622E+01	-1.14114296770E+01	-9.10849784832E-01	1.67681988254E+02	-5.20897036501E+01	1.28634158271E+02	-5.96462795197E+00	-9.56679888809E-01
1.34299366596E+06	-1.46535260904E+01	-5.41637082365E-01	-8.84777653212E-01	1.67142238138E+02	-5.62862949545E+01	7.44754342847E+01	-5.96805556569E+00	-7.53272002321E-01
1.36518502056E+06	-1.55514475220E+01	-2.13148171952E+00	-8.97702469619E-01	1.66877837644E+02	-4.51321491202E+01	4.63751518102E+01	-5.96724034764E+00	-6.36264002983E-01
1.38737637515E+06	-1.53293248024E+01	6.82384476966E+00	-8.97340322647E-01	1.66813266561E+02	-4.92033862850E+01	-5.00313392201E+01	-5.96527935932E+00	-7.70885741846E-01
1.40956772975E+06	-1.35359342452E+01	4.25529105051E+00	-8.54205916529E-01	1.66719560807E+02	-4.86957281858E+01	1.47182693030E+02	-5.96712156382E+00	-6.70198868170E-01
1.43175908434E+06	-1.90530626790E+01	3.05196262218E+00	-8.80784359726E-01	1.66230602802E+02	-5.61020108794E+01	-1.68726187206E+02	-5.96823931476E+00	-6.70156836639E-01
1.45395043894E+06	-1.49990667385E+01	3.17185620102E+00	-9.58439505461E-01	1.66046569094E+02	-4.81623272071E+01	-7.36423744478E-01	-5.96811639640E+00	-6.90858546468E-01
1.47614179353E+06	-1.34756714865E+01	4.73979994719E-01	-8.77857304481E-01	1.66011636934E+02	-5.13134380269E+01	3.93255045408E+01	-5.97752532391E+00	-7.05417890433E-01
1.49833314813E+06	-1.34847601176E+01	8.69619564919E+00	-8.81895770083E-01	1.65809306178E+02	-5.97209243041E+01	-1.73362357801E+02	-5.95700076134E+00	-7.44345450518E-01
1.52052450272E+06	-1.34399754869E+01	-5.19752451750E+00	-8.94943942026E-01	1.65370226019E+02	-4.48729051256E+01	-1.50608454586E+02	-5.97596049101E+00	-6.80575151663E-01
1.54271585732E+06	-1.37036864848E+01	1.40168381826E+01	-9.76013194394E-01	1.65133875986E+02	-5.08651572488E+01	8.87050313391E+01	-5.96897968210E+00	-7.29977999243E-01
1.56490721191E+06	-1.41754375172E+01	-1.28026836452E+01	-8.96540141743E-01	1.64919476952E+02	-6.21810183427E+01	7.36888988855E+01	-5.96920162358E+00	-8.02569928120E-01
1.58709856651E+06	-1.34307831228E+01	7.66452399964E-01	-9.07164497092E-01	1.64916297003E+02	-5.76922087559E+01	1.22461513194E+02	-5.96260121653E+00	-8.13173608300E-01
1.60928992110E+06	-1.35008835476E+01	-5.41833060244E+00	-9.02881829592E-01	1.64579222171E+02	-4.69037480681E+01	-1.15642719504E+02	-5.98466339297E+00	-7.35224575052E-01
1.63148127570E+06	-1.39549949324E+01	-4.05225263764E+00	-9.08758254433E-01	1.64202027548E+02	-4.37899392136E+01	-1.64235075737E+02	-5.97210841008E+00	-7.46452719314E-01
1.65367263029E+06	-1.51894807005E+01	-1.11101693170E+01	-9.26327882238E-01	1.63959919615E+02	-4.11845813876E+01	-3.32743849750E+01	-5.98026796671E+00	-7.77408004740E-01
1.67586398489E+06	-1.50340539932E+01	1.85465860023E+00	-9.30685465850E-01	1.63947572065E+02	-5.61624551633E+01	-6.90596766643E+01	-5.98352762369E+00	-7.66590277246E-01
1.69805533948E+06	-1.32516765541E+01	3.18242787968E+00	-9.20162338514E-01	1.63989209390E+02	-5.15578748855E+01	-1.03928255665E+02	-5.96962161865E+00	-8.08469947474E-01
1.72024669408E+06	-1.25897769624E+01	5.61896314461E+00	-9.15687337065E-01	1.63882509276E+02	-7.40168873351E+01	2.10726420187E+01	-5.97121044203E+00	-7.45732613815E-01
1.74243804867E+06	-1.23418397053E+01	6.96413799793E+00	-9.60971384199E-01	1.64011315530E+02	-5.25462938819E+01	-1.41545122128E+02	-5.96420417648E+00	-7.69245057095E-01
1.76462940327E+06	-1.39791830617E+01	-6.42683037448E-01	-9.22767038579E-01	1.62971044133E+02	-3.94022013529E+01	-1.32041440825E+02	-5.95991893998E+00	-7.72280515717E-01
1.78682075786E+06	-1.29428911423E+01	2.80730853069E+01	-9.49966269412E-01	1.63015361726E+02	-5.82808703289E+01	-1.56980145584E+02	-5.96284522560E+00	-8.95298292910E-01
1.80901211246E+06	-1.49698418851E+01	3.23611007762E-01	-9.22648455547E-01	1.62688039040E+02	-5.64529578647E+01	-7.03817383343E+01	-5.97054304737E+00	-8.23044249683E-01
1.83120346705E+06	-1.39961317670E+01	6.49513315115E-01	-9.40771170494E-01	1.62392722174E+02	-5.67042583371E+01	-6.13958314995E+01	-5.97024261238E+00	-8.38224462178E-01
1.85339482165E+06	-1.44821332780E+01	1.10005236944E+01	-9.85342082537E-01	1.62429999336E+02	-4.90027797543E+01	-7.37757023761E+01	-5.96980802241E+00	-8.69465916586E-01
1.87558617624E+06	-1.38421187369E+01	-2.06807949154E+00	-9.40372871140E-01	1.62127843279E+02	-3.94375701295E+01	3.12887366247E+00	-5.97188647508E+00	-9.49580387782E-01
1.89777753084E+06	-1.70423165430E+01	-4.06430376836E+01	-9.15149181540E-01	1.61554916958E+02	-4.80287496099E+01	-8.41709889603E+01	-5.98185583571E+00	-8.51585385268E-01
1.91996888543E+06	-1.42688366749E+01	6.87076514602E+00	-9.26362853274E-01	1.61859119604E+02	-5.66175831446E+01	-2.19836589249E+01	-5.97218539864E+00	-8.31379455601E-01
1.94216024003E+06	-1.32573227046E+01	-6.59321273405E+00	-9.12807681784E-01	1.61648005435E+02	-5.44238868716E+01	-1.17265468164E+02	-5.97415221364E+00	-9.85773056305E-01
1.96435159462E+06	-1.54294193778E+01	2.70921487079E+00	-9.47906963192E-01	1.61037859175E+02	-4.93882531490E+01	-1.15774371833E-01	-5.97991535770E+00	-8.82331139227E-01
1.98654294922E+06	-1.45400679766E+01	-7.13906441003E-01	-9.54575227248E-01	1.60906045156E+02	-4.71998128406E+01	-9.41812421852E+01	-5.96817392917E+00	-9.37862954571E-01
2.00873430381E+06	-1.64021149706E+01	-9.53505616449E+00	-9.39475808878E-01	1.60815951145E+02	-5.23912670643E+01	-9.64593689369E+01	-5.97918044098E+00	-9.29049601454E-01
2.03092565841E+06	-1.41699672853E+01	1.91345879115E+00	-9.51357147830E-01	1.60498553881E+02	-6.59905471414E+01	-3.12727878054E+00	-5.97773730900E+00	-9.93100727063E-01
2.05311701300E+06	-1.36972322136E+01	1.63388133316E+00	-9.30601343120E-01	1.60241087823E+02	-4.98103936263E+01	8.70003586523E+01	-5.96523125988E+00	-1.05298022376E+00
2.07530836760E+06	-1.26463245934E+01	8.38473208991E+00	-9.70838663923E-01	1.60193967551E+02	-5.33145590121E+01	7.90333950912E+01	-5.96558094487E+00	-9.18873484954E-01
2.09749972219E+06	-1.44267846739E+01	5.17120480852E+00	-9.77920649029E-01	1.59939396623E+02	-4.08980730216E+01	-1.85376775653E+01	-5.97282210824E+00	-9.74158243528E-01
2.11969107679E+06	-1.29550286167E+01	-9.08913769962E+00	-9.63436014758E-01	1.59942827857E+02	-4.26475862615E+01	1.12148258618E+02	-5.96627735774E+00	-1.02318418671E+00
2.14188243138E+06	-1.59581475210E+01	-1.59454370377E+01	-9.70889884256E-01	1.59296062182E+02	-5.34370786778E+01	-7.18528561382E+01	-5.95665624884E+00	-9.86124442616E-01
2.16407378598E+06	-1.41862800325E+01	6.38745790571E+00	-9.70321891576E-01	1.59355597676E+02	-4.67644754836E+01	2.59538416939E+01	-5.96625506375E+00	-9.98652329273E-01
2.18626514057E+06	-1.41490000198E+01	-6.13630059790E-01	-9.37938293141E-01	1.59105257372E+02	-5.20879746289E+01	-1.68841931810E+01	-5.98073445588E+00	-1.04383401139E+00
2.20845649517E+06	-1.16541661473E+01	4.23365095188E+00	-9.62902102814E-01	1.59009724571E+02	-5.39172555462E+01	1.41385328470E+02	-5.97096096331E+00	-9.79363468502E-01
2.23064784976E+06	-1.44454163035E+01	-7.64311190742E+00	-9.37454389459E-01	1.59047369987E+02	-5.38329276053E+01	-2.35820613620E+01	-5.96711761552E+00	-1.11387181541E+00
2.25283920436E+06	-1.13865020945E+01	1.90733260380E+01	-1.00981362262E+00	1.58376673457E+02	-5.85764613467E+01	-1.09168137673E+02	-5.96529362058E+00	-1.05692901813E+00
2.27503055895E+06	-1.27309422974E+01	-1.82687136483E+00	-9.53521232337E-01	1.58043104332E+02	-4.71373740272E+01	1.59252975931E+02	-5.96597755121E+00	-1.10322454850E+00
2.29722191355E+06	-1.57097544763E+01	-8.14557199378E+00	-9.90183323193E-01	1.57774826066E+02	-5.36938991712E+01	-1.13970188177E+02	-5.96219459206E+00	-1.15186467135E+00
2.31941326814E+06	-1.29362946738E+01	1.81858967955E+00	-9.92595813889E-01	1.57821351188E+02	-5.05713235575E+01	-6.32963954425E+01	-5.97985368298E+00	-1.11667462411E+00
2.34160462274E+06	-1.39139559684E+01	1.25413004434E+01	-9.91615530916E-01	1.57754818323E+02	-4.64875919233E+01	2.32024826926E+01	-5.97527555742E+00	-1.14763522273E+00
2.36379597733E+06	-9.82254808625E+00	-2.43079591762E+01	-9.72240227981E-01	1.57586587397E+02	-5.12948522107E+01	2.72231768656E+01	-5.97068530208E+00	-1.11958315687E+00
2.38598733193E+06	-1.47217676201E+01	-5.82536966358E+00	-1.00073570868E+00	1.57059316021E+02	-5.33214318513E+01	-1.12179013940E+02	-5.97120776375E+00	-1.11258528278E+00
2.40817868652E+06	-1.30446866484E+01	5.36143352000E+00	-1.00070093189E+00	1.57103443117E+02	-5.74040626247E+01	1.27728432308E+02	-5.97960412149E+00	-1.21214435810E+00
2.43037004112E+06	-1.52390674653E+01	-6.88762113877E+00	-9.76337131460E-01	1.56567512138E+02	-4.35505657580E+01	1.59285682527E+02	-5.95498905613E+00	-1.49514977862E+00
2.45256139571E+06	-1.48649673691E+01	2.58607750049E+00	-1.01826901317E+00	1.56656808055E+02	-4.50943330514E+01	-1.59376559370E+02	-5.98372486010E+00	-1.10995625187E+00
2.47475275031E+06	-1.30941759903E+01	1.52043814052E+00	-1.00200845994E+00	1.56203061245E+02	-5.81241314422E+01	-1.59993741325E+02	-5.96813358877E+00	-1.17136256393E+00
2.49694410490E+06	-1.33356964099E+01	2.57779788755E+00	-1.01029831822E+00	1.56125263228E+02	-5.10245898401E+01	-7.50273372592E+01	-5.97183220418E+00	-1.13879747456E+00
2.51913545950E+06	-1.51619264450E+01	5.43462347166E+00	-9.65411669932E-01	1.55886785391E+02	-6.16245669594E+01	-1.63795672704E+01	-5.97224985834E+00	-1.13758664350E+00
2.54132681409E+06	-1.43090663992E+01	2.60829843718E+00	-9.88332579602E-01	1.55654097503E+02	-5.99225327853E+01	-9.05373755365E+00	-5.96569182315E+00	-1.13878752378E+00
2.56351816869E+06	-1.40163110762E+01	2.49451166949E-02	-1.02347748949E+00	1.55597661662E+02	-3.87116333768E+01	-1.56838294808E+02	-5.98385875759E+00	-1.09196194012E+00
2.58570952328E+06	-1.23196315693E+01	-5.57028467533E+00	-9.94536840824E-01	1.55401950731E+02	-5.36959408925E+01	4.23781297657E+01	-5.97965568996E+00	-1.18122029579E+00
2.60790087788E+06	-1.32723619479E+01	-3.19231133653E+00	-1.01035469590E+00	1.55045584168E+02	-4.79537212076E+01	-9.05642320143E+01	-5.97222787895E+00	-1.02097207702E+00
2.63009223247E+06	-1.49610802902E+01	-7.01992439417E+00	-9.96551812222E-01	1.54780142262E+02	-5.36785178056E+01	1.46210665541E+02	-5.96040996952E+00	-7.78176493653E-01
2.65228358707E+06	-1.39807063229E+01	7.77593463806E+00	-1.00876160814E+00	1.54838964353E+02	-4.79531213051E+01	3.40512402252E+01	-5.97535485243E+00	-1.17783075169E+00
2.67447494166E+06	-1.21884177711E+01	-1.65715187821E-01	-9.93808497973E-01	1.54375335015E+02	-4.59504251993E+01	-2.11259016489E+01	-5.97725768142E+00	-1.22654239905E+00
2.69666629626E+06	-1.30667882712E+01	-4.48380396732E-01	-1.04965039502E+00	1.54298060621E+02	-5.12360621624E+01	1.23804655591E+02	-5.96803888019E+00	-1.24696883665E+00
2.71885765085E+06	-1.42300490004E+01	7.81627269183E-01	-1.03548839227E+00	1.53696149793E+02	-4.66225564714E+01	1.36633684330E+02	-5.96989341139E+00	-1.29287316740E+00
2.74104900545E+06	-1.34156384021E+01	5.14312614867E+00	-1.00551517254E+00	1.53635809469E+02	-4.74289030211E+01	1.70329998671E+02	-5.96668576521E+00	-1.24970881240E+00
2.76324036004E+06	-1.44273285741E+01	2.74479722518E-01	-1.00805270868E+00	1.53808457431E+02	-5.06585104090E+01	1.33422417415E+02	-5.97333731876E+00	-1.33329883043E+00
2.78543171463E+06	-1.32950149479E+01	-2.67923671988E+00	-1.08430473598E+00	1.53449499620E+02	-4.39936141836E+01	8.08392025851E+01	-5.97542304298E+00	-1.30333482685E+00
2.80762306923E+06	-1.43232000530E+01	-6.69715224352E+00	-1.03581598183E+00	1.53006386315E+02	-5.21859060220E+01	8.73957280618E+01	-5.97762643283E+00	-1.32582697378E+00
2.82981442382E+06	-1.46277941433E+01	4.74016811370E+00	-1.08074692766E+00	1.52888081087E+02	-5.46409928611E+01	5.21282783689E+01	-5.97867258753E+00	-1.30359224281E+00
2.85200577842E+06	-1.29442356736E+01	-1.76842851095E-01	-1.03172969336E+00	1.52923255030E+02	-5.26193779058E+01	-1.27279067635E+02	-5.97428619713E+00	-1.26388783199E+00
2.87419713301E+06	-1.27533171050E+01	9.10575294842E+00	-1.06802065313E+00	1.52636758811E+02	-4.83344204345E+01	-2.76649448785E+01	-5.97606217692E+00	-1.28539816148E+00
