# Hz S DB R 50
! CMT, M5065, 19127446, 24.2.4/2
! Date: 11/8/2024 6:39:52 PM
! Data: Format (Calibration Info)
! Freq	S11:dB/Ang(F2)	S21:dB/Ang(F2)	S12:dB/Ang(F2)	S22:dB/Ang(F2)
3.00000000000E+05	-1.47617982450E+01	2.99728367723E+01	2.01102939778E-01	1.78587069152E+02	-5.32833610525E+01	4.78361580275E+01	-5.95559298653E+00	-2.36927992759E-01
3.22191354595E+05	-1.40822240060E+01	8.59397151575E+00	2.37544974536E-01	1.78006436450E+02	-4.78207928037E+01	-1.48435855469E+02	-5.96572760334E+00	-2.29212727956E-01
3.44382709190E+05	-1.40190057221E+01	2.40078042657E+01	2.24556847486E-01	1.77981978613E+02	-5.13936017508E+01	-7.16463082013E+01	-5.96530990471E+00	-2.80291356559E-01
3.66574063785E+05	-1.20736290654E+01	1.17590431535E+01	2.10770503901E-01	1.77561813506E+02	-6.28783093338E+01	2.56714998163E+01	-5.96499936198E+00	-2.82740932963E-01
3.88765418380E+05	-1.31051574428E+01	1.73116991862E+01	2.23496759311E-01	1.77487344746E+02	-5.53160911569E+01	-2.07644274255E+01	-5.95994261687E+00	-3.10003648247E-01
4.10956772975E+05	-1.37736457530E+01	1.25814314473E+01	2.33955930808E-01	1.76953135130E+02	-5.60811050491E+01	-8.90570164088E+01	-5.95167925843E+00	-2.96391356196E-01
4.33148127570E+05	-1.57767993754E+01	1.81850262247E+01	1.45945487737E-01	1.76603863399E+02	-4.44100875935E+01	-2.24533679108E+01	-5.98017003481E+00	-2.61840332589E-01
4.55339482165E+05	-1.41384640043E+01	6.55246556048E+00	1.52955769206E-01	1.76414230341E+02	-4.43404190039E+01	-1.56531594930E+02	-5.96077560533E+00	-2.74594098659E-01
4.77530836760E+05	-1.55544125256E+01	1.34206030989E+01	1.90997615255E-01	1.76053984574E+02	-6.38486202651E+01	-1.33459538228E+02	-5.96382929832E+00	-2.59061418689E-01
4.99722191355E+05	-1.44726198470E+01	1.27170998808E+01	1.52880279847E-01	1.75676478580E+02	-4.82589291352E+01	-1.08973377199E+02	-5.95364550171E+00	-2.63587647359E-01
5.21913545950E+05	-1.39257256302E+01	9.14187538653E+00	1.94152778886E-01	1.75559041972E+02	-5.88284362571E+01	8.28131219286E+01	-5.96178712656E+00	-2.87122890185E-01
5.44104900545E+05	-1.38536517446E+01	1.79337655497E+01	2.21004516150E-01	1.75103652148E+02	-5.88097165286E+01	-9.77358354241E+01	-5.96633166925E+00	-2.95115155495E-01
5.66296255139E+05	-1.32735761761E+01	1.53635144188E+01	1.81207218058E-01	1.74916058903E+02	-4.39740394991E+01	7.65089800508E+01	-5.96706788536E+00	-2.91338544235E-01
5.88487609734E+05	-1.47533500927E+01	8.15569418503E+00	1.84737960878E-01	1.75103466378E+02	-5.33819189749E+01	1.50273058149E+02	-5.95695876874E+00	-2.72769368233E-01
6.10678964329E+05	-1.53192554074E+01	1.51217290793E+01	1.39867247953E-01	1.74579167015E+02	-4.83206112801E+01	-3.21296119737E+01	-5.95508082397E+00	1.55929070958E-01
6.32870318924E+05	-1.39714264523E+01	6.62386232612E+00	1.91577931920E-01	1.74124533496E+02	-5.00919367311E+01	-9.80826511080E+01	-5.96756297425E+00	-2.24657587543E-01
6.55061673519E+05	-1.38413834097E+01	-2.36662888552E+00	2.00488335948E-01	1.73739041772E+02	-4.99039860447E+01	-1.40134894141E+01	-5.98108156125E+00	-2.72618621382E-01
6.77253028114E+05	-1.46446490903E+01	5.56459071314E+00	1.97128580495E-01	1.73844764225E+02	-4.70913770530E+01	-7.59849216108E+01	-5.96385800351E+00	-6.41899812223E-01
6.99444382709E+05	-1.63734855290E+01	-1.29894070429E+01	1.69374700459E-01	1.73294536180E+02	-6.14342746705E+01	-6.92938070521E+01	-5.96549923353E+00	-3.69173964629E-01
7.21635737304E+05	-1.50286070877E+01	-5.42769540216E+00	1.62501248225E-01	1.72928505720E+02	-6.22938897912E+01	8.37865910502E+01	-5.96093042976E+00	-4.18014184497E-01
7.43827091899E+05	-1.50869771754E+01	2.61026341731E+00	1.79421675256E-01	1.73050239832E+02	-5.09038141941E+01	1.70722938393E+02	-5.95727475760E+00	-4.10303007688E-01
7.66018446494E+05	-1.43177665469E+01	8.47630631150E+00	1.78448508278E-01	1.72797439173E+02	-5.52338544327E+01	-1.02474407899E+02	-5.96766135870E+00	-3.32177164375E-01
7.88209801089E+05	-1.41935394855E+01	3.54118545798E+00	1.79303133650E-01	1.72588747272E+02	-6.57461612859E+01	2.15633259294E+01	-5.95747091816E+00	-4.04717675189E-01
8.10401155684E+05	-1.34015454866E+01	2.24707902468E+01	1.82564165999E-01	1.72268527872E+02	-4.83872556727E+01	7.25128087009E+01	-5.96063946473E+00	-4.02004379536E-01
8.32592510279E+05	-1.38389102952E+01	8.16070702695E+00	1.80218069235E-01	1.72049926423E+02	-6.37375968650E+01	4.25106075769E+00	-5.97091473412E+00	-4.63593358844E-01
8.54783864874E+05	-1.58616715925E+01	2.63821723613E+00	1.48922856670E-01	1.71995003014E+02	-4.88848469553E+01	-1.56314968481E+02	-5.96566469500E+00	-4.83507468461E-01
8.76975219469E+05	-1.60698276124E+01	2.32781184550E+00	1.91709013234E-01	1.71432208350E+02	-5.36755679109E+01	-8.31314870267E+01	-5.96427127026E+00	-3.36728443495E-01
8.99166574064E+05	-1.32983460220E+01	1.54224892690E+01	1.60747739013E-01	1.71287473755E+02	-4.42418897809E+01	8.88119107363E+01	-5.98281314179E+00	-4.88603181172E-01
9.21357928659E+05	-1.47079651077E+01	-6.14981942706E+00	1.49039761448E-01	1.71104284381E+02	-5.02145693804E+01	4.13603429232E+01	-5.97466824003E+00	-5.29903624070E-01
9.43549283254E+05	-1.30754559712E+01	9.86871286458E+00	1.55565770689E-01	1.70800460337E+02	-5.04718682242E+01	6.69973013907E+01	-5.96985133694E+00	-4.69689706150E-01
9.65740637849E+05	-1.34033924749E+01	1.49740283444E+01	1.95672095601E-01	1.70762473365E+02	-5.29744544080E+01	1.47504015189E+02	-5.96566202429E+00	-4.67994909211E-01
9.87931992444E+05	-1.37671335379E+01	2.95834640799E-01	1.60158392588E-01	1.70286068415E+02	-4.92547217651E+01	-1.38607648211E+02	-5.95866882646E+00	-4.77748119414E-01
1.01012334704E+06	-1.36355063567E+01	7.70479466068E+00	2.05856833239E-01	1.70151772326E+02	-5.02792142007E+01	1.45597646949E+02	-5.96882078671E+00	-5.53016313008E-01
1.03231470163E+06	-1.30160955305E+01	6.89317588917E+00	1.70030498063E-01	1.69981607536E+02	-5.08729529010E+01	2.82548417431E+01	-5.96257130385E+00	-4.59461523457E-01
1.05450605623E+06	-1.47509232330E+01	8.39790738417E+00	1.62997474253E-01	1.69671498715E+02	-6.44023595159E+01	-6.87714722466E+01	-5.96034540386E+00	-5.23552039141E-01
1.07669741082E+06	-1.43264910724E+01	1.11126290719E+01	1.79851325671E-01	1.69466554661E+02	-5.06833473102E+01	-8.53734408355E+01	-5.98167889631E+00	-5.23025653438E-01
1.09888876542E+06	-1.27490533572E+01	4.83116358016E+00	1.13491446646E-01	1.69380745690E+02	-5.34268214357E+01	1.40948819160E+02	-5.97401873385E+00	-5.45630344827E-01
1.12108012001E+06	-1.48547921534E+01	1.06925832162E+01	1.21919590878E-01	1.69065084956E+02	-5.21797740152E+01	4.80820434315E+01	-5.97153271484E+00	-5.36119811597E-01
1.14327147461E+06	-1.31708893142E+01	1.07439927480E-01	1.80271545392E-01	1.68751142358E+02	-5.43434707480E+01	1.62509084803E+02	-5.96843749512E+00	-5.67392880792E-01
1.16546282920E+06	-1.25360933084E+01	5.96869998117E-01	1.46039647902E-01	1.68593784795E+02	-4.78084031897E+01	-2.24308890714E+01	-5.98363318224E+00	-5.51438859040E-01
1.18765418380E+06	-1.46026225199E+01	6.48861428972E+00	1.56124375834E-01	1.68242407892E+02	-5.85540876704E+01	1.28776061143E+02	-5.95944295472E+00	-5.73993650874E-01
1.20984553839E+06	-1.35176202321E+01	2.32136495219E+00	1.68677952288E-01	1.68052892551E+02	-4.99501734453E+01	2.71588361482E+00	-5.97281362763E+00	-7.61118238617E-01
1.23203689299E+06	-1.39193814206E+01	1.15265327481E+01	1.56936385978E-01	1.67877612635E+02	-4.94730481020E+01	1.16973917799E+02	-5.97420150479E+00	-3.35599443482E-01
1.25422824758E+06	-1.50876118551E+01	9.88478721442E+00	1.27153514479E-01	1.67826740182E+02	-4.53057359279E+01	1.11827145569E+02	-5.97727110133E+00	-6.79816237525E-01
1.27641960218E+06	-1.62093012445E+01	1.91543305244E+01	1.11822833023E-01	1.67674512087E+02	-5.74417222671E+01	-5.10812005404E+01	-5.96773939855E+00	-5.56118106256E-01
1.29861095677E+06	-1.41797326227E+01	7.17424808870E+00	1.17414270835E-01	1.67097023175E+02	-5.40343394300E+01	1.75557805415E+02	-5.96601064016E+00	-5.69603351527E-01
1.32080231137E+06	-1.18932826628E+01	8.22686680516E+00	1.22592648613E-01	1.67057900265E+02	-4.96879150844E+01	-1.46837183511E+02	-5.96203342785E+00	-9.63838194917E-01
1.34299366596E+06	-1.44000672893E+01	-5.60549551210E+00	1.30552402413E-01	1.66686871111E+02	-5.46905759539E+01	6.24260888107E+01	-5.96258958282E+00	-8.01306381913E-01
1.36518502056E+06	-1.46668527531E+01	4.70286700533E+00	1.00559086885E-01	1.66679966501E+02	-4.69941745892E+01	4.58548270927E+01	-5.97425746438E+00	-6.87720665871E-01
1.38737637515E+06	-1.26289094679E+01	-2.51836456067E+00	1.54509137002E-01	1.66316970816E+02	-5.79764296711E+01	-1.60598746123E+02	-5.96112965840E+00	-7.11408924156E-01
1.40956772975E+06	-1.47280003759E+01	6.26816052025E+00	9.25509147959E-02	1.66050205559E+02	-5.12995184235E+01	-1.67881638079E+02	-5.96665639929E+00	-6.41212002381E-01
1.43175908434E+06	-1.37997119336E+01	1.33917290425E+01	1.26413460145E-01	1.65772127465E+02	-4.92110467248E+01	-1.60183686041E+02	-5.96377277529E+00	-6.94686055425E-01
1.45395043894E+06	-1.32625725136E+01	-8.52458713132E-01	1.49367590330E-01	1.65622845084E+02	-4.81152709614E+01	1.09871095105E+02	-5.96662247756E+00	-7.28612459112E-01
1.47614179353E+06	-1.32512279921E+01	1.08861943761E+00	1.21111387108E-01	1.65493107388E+02	-6.08923630524E+01	-1.22081588706E+02	-5.96675028523E+00	-7.80764682060E-01
1.49833314813E+06	-1.30323057448E+01	2.99551449757E+00	1.37983494552E-01	1.65314464568E+02	-5.89414257269E+01	-4.25622123508E+01	-5.97788015227E+00	-7.55964689182E-01
1.52052450272E+06	-1.49422089347E+01	-6.08818573639E+00	1.28013438823E-01	1.64840884753E+02	-4.73691567850E+01	8.80871840654E+01	-5.97036797554E+00	-7.29927614848E-01
1.54271585732E+06	-1.51075398291E+01	3.19743412027E-01	1.31031295651E-01	1.64696028025E+02	-4.50357644307E+01	2.89750061996E+01	-5.96960200791E+00	-7.56232756780E-01
1.56490721191E+06	-1.24684490155E+01	-3.24694470910E-01	8.22833507257E-02	1.64632944845E+02	-4.68508172803E+01	-8.39024332168E+01	-5.97212633873E+00	-6.93667181598E-01
1.58709856651E+06	-1.51806337158E+01	-5.52699846745E+00	1.04504988936E-01	1.64516177270E+02	-4.75119878714E+01	7.86866805365E+01	-5.97156316848E+00	-7.81037509467E-01
1.60928992110E+06	-1.38189798456E+01	6.10242648019E+00	1.27844433028E-01	1.64085187235E+02	-5.57424726541E+01	-2.96136925287E+01	-5.97309260448E+00	-8.03274642095E-01
1.63148127570E+06	-1.27879405087E+01	6.56758348811E+00	1.11559189528E-01	1.63808118428E+02	-4.79591607181E+01	1.56745151909E+02	-5.96128965513E+00	-7.46725269152E-01
1.65367263029E+06	-1.46453646197E+01	7.10481536242E+00	1.02374569829E-01	1.63658693788E+02	-4.95005973775E+01	-1.54533954032E+01	-5.97668962243E+00	-7.19350843198E-01
1.67586398489E+06	-1.44589887950E+01	8.13378520020E+00	7.38060226611E-02	1.63381920895E+02	-5.04930822629E+01	1.65600827230E+02	-5.97025575257E+00	-8.36415326575E-01
1.69805533948E+06	-1.55214069144E+01	1.72290279363E+01	7.90385059377E-02	1.63396771912E+02	-4.62124095785E+01	-7.47115185547E+01	-5.97064398499E+00	-7.67830976821E-01
1.72024669408E+06	-1.36738106772E+01	1.87999562223E+01	7.11708700354E-02	1.63121446053E+02	-4.60149817494E+01	2.16014389533E+01	-5.97342573209E+00	-8.32895698343E-01
1.74243804867E+06	-1.21730183268E+01	-5.87399714694E+00	1.42573485025E-01	1.62796636495E+02	-5.48702994915E+01	-5.20399832975E+01	-5.96120200460E+00	-8.93192217561E-01
1.76462940327E+06	-1.42213647534E+01	1.07729700185E+00	8.67118574262E-02	1.62483384465E+02	-4.90978788777E+01	7.59847259357E+01	-5.97152232285E+00	-9.05896572359E-01
1.78682075786E+06	-1.26780978906E+01	7.21979133112E-01	1.18303842982E-01	1.62401639803E+02	-4.64191392795E+01	-1.71899522216E+02	-5.96656889304E+00	-7.95616381412E-01
1.80901211246E+06	-1.34075549276E+01	7.50303625400E+00	1.26723214835E-01	1.62284088503E+02	-5.20257875390E+01	2.83966182974E+01	-5.96825274651E+00	-8.62648993562E-01
1.83120346705E+06	-1.44426604938E+01	2.47444922328E-01	7.00359081439E-02	1.62045692531E+02	-4.85597069358E+01	-8.14948703062E+01	-5.96794234754E+00	-8.64624182165E-01
1.85339482165E+06	-1.37164568284E+01	2.45054398061E+01	8.19917837778E-02	1.61589755634E+02	-5.49322248303E+01	-1.25186419324E+02	-5.96405480840E+00	-9.03308819998E-01
1.87558617624E+06	-1.36704467479E+01	6.59504607243E+00	1.13931334201E-01	1.61306505974E+02	-4.47183813569E+01	-3.02198786141E+01	-5.98638315109E+00	-8.68387528277E-01
1.89777753084E+06	-1.46703661638E+01	9.18032195327E+00	7.75279552044E-02	1.61456149002E+02	-4.92900004902E+01	-9.38594442872E+01	-5.96966209385E+00	-9.15924377253E-01
1.91996888543E+06	-1.56361074355E+01	-5.37074773920E+00	6.46666591329E-02	1.60969656013E+02	-5.14522258100E+01	8.09018736821E+01	-5.96940604075E+00	-9.34622791506E-01
1.94216024003E+06	-1.35057606492E+01	-1.92958616362E+00	1.03974984148E-01	1.60818502265E+02	-5.00457057111E+01	1.10124436144E+02	-5.97599626340E+00	-9.00406588597E-01
1.96435159462E+06	-1.68670143031E+01	4.31709940964E+01	4.21541833244E-03	1.60346992599E+02	-5.06964637370E+01	4.35772148613E+01	-5.97749792826E+00	-9.48136286397E-01
1.98654294922E+06	-1.34770250754E+01	3.16502200771E+00	5.32359768160E-02	1.60116466123E+02	-5.41310041791E+01	5.72579491934E+00	-5.97881950699E+00	-9.09915135783E-01
2.00873430381E+06	-1.45830077325E+01	6.14082267951E+00	6.27393751520E-02	1.60060464385E+02	-4.89487270558E+01	-2.67586524604E+01	-5.96519395324E+00	-9.12546838951E-01
2.03092565841E+06	-1.53665444038E+01	6.64255541302E-02	3.66222518927E-02	1.59626909202E+02	-4.90874820830E+01	-1.21681585580E+02	-5.96776370873E+00	-8.87704403158E-01
2.05311701300E+06	-1.31924917833E+01	1.79525140798E+00	4.18494826503E-02	1.59778204100E+02	-4.16059472354E+01	1.54810950328E+02	-5.95521413326E+00	-9.08587574474E-01
2.07530836760E+06	-1.90299182598E+01	1.58038291676E+01	5.53576049619E-02	1.59190148959E+02	-4.37160662335E+01	-1.19661407895E+02	-5.97901602679E+00	-9.60351971787E-01
2.09749972219E+06	-1.34339252774E+01	-8.64402751036E-01	1.13307955000E-01	1.59037635755E+02	-5.03144753762E+01	3.36586220726E+00	-5.96400565856E+00	-1.01453874480E+00
2.11969107679E+06	-1.40815180696E+01	8.32707900612E-01	4.92382982997E-02	1.59072901109E+02	-5.19658732953E+01	6.54333262559E+01	-5.97076480351E+00	-1.02393779056E+00
2.14188243138E+06	-1.34647511930E+01	6.50304341122E+00	5.05999339752E-02	1.58974595149E+02	-6.17309762887E+01	9.06797688469E+01	-5.96886753210E+00	-1.05073054542E+00
2.16407378598E+06	-1.47917153730E+01	8.23650981033E+00	7.83661272762E-02	1.58205141613E+02	-4.52573362936E+01	1.71461805558E+01	-5.97224076973E+00	-1.09006620262E+00
2.18626514057E+06	-1.39445451900E+01	-1.35922849520E+01	5.56552515144E-02	1.58125350670E+02	-3.49688858118E+01	1.40970402726E+02	-5.96163073748E+00	-1.01037045697E+00
2.20845649517E+06	-1.42366522945E+01	-1.07136441269E+01	6.33764348058E-02	1.57891242656E+02	-5.01661076742E+01	1.36626535518E+02	-5.96514726935E+00	-1.01359613575E+00
2.23064784976E+06	-1.47107105353E+01	-6.74410315014E+00	6.56293627221E-02	1.57793482762E+02	-5.59353206836E+01	1.21076701846E+02	-5.96634978346E+00	-1.06641376238E+00
2.25283920436E+06	-1.38174939439E+01	8.48825205855E+00	3.55053949745E-02	1.57666754877E+02	-6.17705189631E+01	-1.46020135454E+00	-5.96701238819E+00	-1.11676876700E+00
2.27503055895E+06	-1.45056463463E+01	5.57338320105E+00	6.17677936337E-02	1.57484173522E+02	-5.71638601193E+01	-7.05675599399E+01	-5.97493768573E+00	-1.08588398558E+00
2.29722191355E+06	-1.34147371778E+01	-8.09015055728E+00	4.33911414442E-02	1.57241564351E+02	-3.41232958495E+01	7.72697981960E+01	-5.96510772859E+00	-1.09124355454E+00
2.31941326814E+06	-1.47746255373E+01	8.20952548296E+00	2.68053404937E-02	1.56985814055E+02	-4.73034232390E+01	5.83267469375E+01	-5.96924148011E+00	-1.04018353631E+00
2.34160462274E+06	-1.36334776924E+01	-4.50168268330E+00	3.54970962371E-02	1.56747264424E+02	-5.48250549184E+01	-9.56718458528E-01	-5.95635182894E+00	-1.12216775542E+00
2.36379597733E+06	-1.69982804826E+01	-1.26800085094E+01	2.16309338498E-03	1.56313249309E+02	-4.85863124141E+01	-1.68383222221E+02	-5.96770723975E+00	-1.07634708600E+00
2.38598733193E+06	-1.34749244089E+01	-2.74505750423E+00	4.80387714360E-02	1.56414015293E+02	-5.34387553039E+01	-1.03059857028E+02	-5.96046246973E+00	-1.03533795221E+00
2.40817868652E+06	-1.31926532362E+01	4.35808576171E+00	2.59618309229E-02	1.56246054564E+02	-4.11725524295E+01	-8.68070029970E+01	-5.97068555466E+00	-1.22627072065E+00
2.43037004112E+06	-1.47069105594E+01	-5.66980189495E+00	6.27632100167E-03	1.55875118251E+02	-4.95903963154E+01	1.92492295383E+01	-5.96898638860E+00	-1.51401406971E+00
2.45256139571E+06	-1.26459151453E+01	-1.10286739226E+01	7.31859122583E-02	1.55733886048E+02	-5.40415120158E+01	1.12737913234E+02	-5.97912584030E+00	-1.15648744043E+00
2.47475275031E+06	-1.50799246960E+01	8.70816308225E+00	2.02955410415E-02	1.55504849217E+02	-5.23548425251E+01	-1.44602548822E+02	-5.96914194059E+00	-1.13230143506E+00
2.49694410490E+06	-1.33368997700E+01	7.22018481054E+00	3.55683141561E-02	1.55613614367E+02	-6.69589974512E+01	-3.41007661185E+01	-5.97500192178E+00	-1.13445406288E+00
2.51913545950E+06	-1.42773534907E+01	1.72096435784E+00	2.56882422507E-02	1.55264213811E+02	-3.81215452456E+01	3.01779194158E+01	-5.98117575193E+00	-1.18240740769E+00
2.54132681409E+06	-1.39541874587E+01	4.30697884274E+00	4.72949468224E-02	1.55085536286E+02	-4.84568704540E+01	6.93148007082E+01	-5.98255238328E+00	-1.20047554178E+00
2.56351816869E+06	-1.43552528559E+01	-1.22333920761E+01	7.77824884966E-03	1.54039128707E+02	-4.80132136485E+01	-1.62363373553E+02	-5.97931211482E+00	-1.12247296530E+00
2.58570952328E+06	-1.33305900915E+01	-8.43830540294E+00	2.65892583538E-02	1.54434907894E+02	-5.75809967752E+01	1.55563755501E+02	-5.98326261998E+00	-1.22709326776E+00
2.60790087788E+06	-1.35545962177E+01	-5.79450159915E+00	-2.22296002733E-02	1.54119231128E+02	-5.06027397883E+01	-1.45034648646E+02	-5.97574477121E+00	-1.09038994433E+00
2.63009223247E+06	-1.45945874198E+01	-5.41305721187E+00	-1.69552147967E-02	1.53911561296E+02	-4.96787058387E+01	-1.30036462434E+02	-5.98628325104E+00	-8.10279169202E-01
2.65228358707E+06	-1.36763004632E+01	7.63053567268E+00	-1.18754604363E-02	1.53860056985E+02	-5.34703662190E+01	-1.37289582410E+02	-5.98671019676E+00	-1.21496986509E+00
2.67447494166E+06	-1.38492443567E+01	1.10598690369E+01	-1.93829651220E-02	1.53437730803E+02	-5.91712414410E+01	8.44285964946E+01	-5.98378980389E+00	-1.30122782038E+00
2.69666629626E+06	-1.32498332562E+01	-1.22195270937E-01	-1.74835192848E-02	1.53278819098E+02	-5.35117329895E+01	4.16011548991E+01	-5.98170827246E+00	-1.25612056410E+00
2.71885765085E+06	-1.41265578618E+01	-9.07673820009E+00	-3.05803842265E-02	1.53006901932E+02	-4.97487905638E+01	-7.92781825942E+01	-5.98096619844E+00	-1.35027360922E+00
2.74104900545E+06	-1.43582932099E+01	3.22046675493E+00	-3.56315055276E-02	1.52623625347E+02	-5.39676697724E+01	1.54238860604E+02	-5.98009736229E+00	-1.26731118305E+00
2.76324036004E+06	-1.53922595189E+01	1.20449238759E+01	-1.27927507505E-02	1.52694348466E+02	-4.84579489584E+01	-1.38247128393E+02	-5.97668913609E+00	-1.19518578466E+00
2.78543171463E+06	-1.26658110967E+01	1.69668030640E+00	-7.02498514401E-03	1.52378059635E+02	-5.34116023873E+01	-1.10724138238E+02	-5.97401182208E+00	-1.24617615977E+00
2.80762306923E+06	-1.38062696039E+01	-3.01938409526E+00	-5.21399296431E-02	1.52300766968E+02	-6.26042316989E+01	1.62956981438E+02	-5.97426258211E+00	-1.34086972204E+00
2.82981442382E+06	-1.28518403937E+01	-3.83387104165E+00	-1.43383325841E-02	1.51771514027E+02	-5.16260806972E+01	-8.63135744745E+01	-5.97847631771E+00	-1.25292125936E+00
2.85200577842E+06	-1.41381680628E+01	-1.86039405565E+00	-3.91773317302E-02	1.51617280913E+02	-5.59129913629E+01	-7.18901072555E+01	-5.98128803274E+00	-1.32906696086E+00
2.87419713301E+06	-1.37058423025E+01	-8.31105364759E+00	-4.52686713113E-02	1.51355427364E+02	-5.37160984306E+01	-7.82841735374E+01	-5.97579599801E+00	-1.30496102277E+00
2.89638848761E+06	-1.50753436932E+01	-1.00110877936E+00	-5.16478809518E-02	1.51201529615E+02	-5.36589430263E+01	-1.14237453796E+02	-5.97431566925E+00	-1.32284980729E+00
