# Hz S DB R 50
! CMT, M5065, 19127446, 24.2.4/2
! Date: 11/8/2024 6:51:17 PM
! Data: Format (Calibration Info)
! Freq	S11:dB/Ang(F2)	S21:dB/Ang(F2)	S12:dB/Ang(F2)	S22:dB/Ang(F2)
3.00000000000E+05	-1.62255144894E+01	7.80712057622E+00	2.41718144572E+01	1.78895139028E+02	-5.59731429990E+01	-9.86010664174E+01	-5.94282151296E+00	-5.56448111541E-01
3.22191354595E+05	-1.45528806192E+01	1.73981981002E+01	2.41735519548E+01	1.76553399995E+02	-5.27490116097E+01	1.13725379922E+02	-5.90663558163E+00	-7.58838238394E-01
3.44382709190E+05	-1.34862044958E+01	2.44824849204E+01	2.41623510479E+01	1.74331920372E+02	-5.28002233919E+01	8.05074152764E+01	-5.93022040521E+00	-5.94948502108E-01
3.66574063785E+05	-1.38165934404E+01	6.29007038243E+00	2.41510484290E+01	1.72126341289E+02	-5.18521840354E+01	1.37493327443E+02	-5.90861802816E+00	-1.07597704155E+00
3.88765418380E+05	-1.61145691422E+01	-7.34902059729E+00	2.40730119270E+01	1.69639285234E+02	-4.71273964538E+01	1.74117589276E+02	-5.90321087438E+00	-4.22514188299E-01
4.10956772975E+05	-1.40267753384E+01	9.94735140909E+00	2.40399851546E+01	1.68328748938E+02	-5.17725437371E+01	-1.50747011527E+02	-5.93313071489E+00	-5.57260811722E-01
4.33148127570E+05	-1.31836508954E+01	1.32238301158E+01	2.40045520770E+01	1.66427006616E+02	-4.78292862970E+01	1.30260665674E+01	-6.00483085625E+00	-8.71485389840E-01
4.55339482165E+05	-1.39277491557E+01	1.74405663279E+01	2.39400332309E+01	1.64781918707E+02	-4.76761279377E+01	-9.14653070706E+01	-5.94254055393E+00	-3.36161912494E-01
4.77530836760E+05	-1.42971558948E+01	1.17132047520E+01	2.38860986483E+01	1.63078892457E+02	-4.92375687481E+01	-2.57447554567E+01	-6.01397095702E+00	-4.55291147126E-01
4.99722191355E+05	-1.18456436922E+01	1.77996046247E+01	2.38379860005E+01	1.61563238586E+02	-5.14032636299E+01	-1.71406537016E+02	-5.95965256456E+00	-7.76461564080E-01
5.21913545950E+05	-1.63167669325E+01	4.05504841947E+00	2.37446356494E+01	1.59866650809E+02	-5.24094405112E+01	-7.60077137606E+01	-5.96988276050E+00	-3.26220262222E-01
5.44104900545E+05	-1.34396205856E+01	1.41138680288E+00	2.37027404479E+01	1.58375470790E+02	-4.46213739447E+01	6.59353737695E+01	-5.98156919845E+00	-1.03371407224E+00
5.66296255139E+05	-1.63329327139E+01	1.16407291076E+01	2.36143818409E+01	1.57157203390E+02	-5.05391433844E+01	-4.47638950357E+01	-6.02513887923E+00	-5.07028387880E-01
5.88487609734E+05	-1.30966111815E+01	1.13499986163E+01	2.35800135459E+01	1.55633720177E+02	-5.02976892494E+01	1.58446870618E+02	-5.97485671655E+00	-9.12125097451E-01
6.10678964329E+05	-1.76722377966E+01	1.82162472917E+01	2.34645387538E+01	1.54383845971E+02	-4.47337841148E+01	-1.31208921542E+02	-5.92961817400E+00	-6.95320213210E-02
6.32870318924E+05	-1.55749248083E+01	1.80124803575E+00	2.33925656264E+01	1.53101955870E+02	-5.63200096492E+01	-1.74508147934E+02	-5.94220689429E+00	-2.84845268042E-01
6.55061673519E+05	-1.47611241574E+01	9.32081267883E+00	2.33175952155E+01	1.51771581452E+02	-4.86245924818E+01	-1.04815764688E+02	-5.95213868269E+00	-3.09377140629E-01
6.77253028114E+05	-1.38408099885E+01	-1.41037557875E+00	2.32759499895E+01	1.50423172549E+02	-4.66355832139E+01	6.04382532023E+00	-6.01335583960E+00	-1.03550837905E+00
6.99444382709E+05	-1.44317617828E+01	8.40745805889E+00	2.31783600528E+01	1.49412437411E+02	-4.90491742980E+01	-1.26586424084E+02	-5.91202918223E+00	-5.93910464072E-01
7.21635737304E+05	-1.49216334398E+01	7.65260924563E+00	2.31097573170E+01	1.48139415617E+02	-6.02190900727E+01	-6.22499824544E+01	-5.97020977313E+00	-7.18665903175E-01
7.43827091899E+05	-1.58765049733E+01	7.80304014830E+00	2.30165770383E+01	1.47118754224E+02	-4.68870832009E+01	-1.14090735237E+02	-5.94939175225E+00	-3.47125437064E-01
7.66018446494E+05	-1.37770010024E+01	5.38868917658E+00	2.29521629362E+01	1.45898872665E+02	-5.34517305920E+01	1.66628456078E+02	-5.95201517828E+00	-5.78420942450E-01
7.88209801089E+05	-1.37498532199E+01	7.35770087038E-01	2.28831324857E+01	1.44797276161E+02	-4.49920407261E+01	1.47914617434E+02	-5.96105422238E+00	-9.43904046025E-01
8.10401155684E+05	-1.35335161394E+01	7.74141394355E+00	2.28030277705E+01	1.43778613468E+02	-5.51688599328E+01	-9.16083485939E+01	-5.97961098468E+00	-6.22218985196E-01
8.32592510279E+05	-1.40212150096E+01	1.62368995049E+01	2.27038721545E+01	1.42827331662E+02	-5.09909822320E+01	1.37144999868E+02	-5.97902537940E+00	-8.62582364685E-01
8.54783864874E+05	-1.35710327294E+01	1.54797540978E+00	2.26252750720E+01	1.41758025317E+02	-4.32298164764E+01	1.54371822496E+02	-5.93327771955E+00	-1.08283117800E+00
8.76975219469E+05	-1.42307887538E+01	9.38497762424E+00	2.25374039264E+01	1.40690499129E+02	-6.06126084861E+01	1.28035630554E+02	-5.98349603260E+00	-7.81553319403E-01
8.99166574064E+05	-1.58258253511E+01	1.02746906773E+01	2.24524866248E+01	1.39706601913E+02	-5.08462486577E+01	-1.45440433039E+02	-5.95109210394E+00	-5.93655553266E-01
9.21357928659E+05	-1.36652796325E+01	7.78981986890E+00	2.23827778114E+01	1.38872454906E+02	-5.00948096473E+01	-1.45495282517E+02	-5.92686794888E+00	-6.34993263204E-01
9.43549283254E+05	-1.46605740146E+01	9.21164799400E+00	2.22855939884E+01	1.37861975965E+02	-5.26767533592E+01	1.15081330784E+02	-5.97114711302E+00	-9.38622379285E-01
9.65740637849E+05	-1.60904173222E+01	4.30606565303E+00	2.21956833536E+01	1.36905093821E+02	-4.54314373761E+01	4.35529508760E+01	-6.01470857303E+00	-6.33491851721E-01
9.87931992444E+05	-1.48677034231E+01	-3.62155442864E+00	2.21215937275E+01	1.35990155389E+02	-4.38026129527E+01	1.55816380272E+02	-5.94953504017E+00	-1.12061551405E+00
1.01012334704E+06	-1.36379423545E+01	3.24739142699E+00	2.20354072502E+01	1.35075970596E+02	-5.44906515927E+01	-1.55859560976E+01	-6.00021629788E+00	-5.72039297961E-01
1.03231470163E+06	-1.39157868972E+01	4.91182736083E+00	2.19481284479E+01	1.34249796858E+02	-5.24858313914E+01	-2.14615450376E+01	-5.97286395378E+00	-4.89353410389E-01
1.05450605623E+06	-1.50491923266E+01	8.63577457650E+00	2.18769292753E+01	1.33383482260E+02	-5.87638560871E+01	-5.41748082906E-01	-6.00644560585E+00	-5.13748416777E-01
1.07669741082E+06	-1.15652149857E+01	-1.56269667662E+00	2.18213609098E+01	1.32600562123E+02	-4.32933265627E+01	-7.21894717961E+01	-5.93600230866E+00	-9.79926003808E-02
1.09888876542E+06	-1.40277862981E+01	-1.35759331810E+00	2.17097403392E+01	1.31597013132E+02	-5.47219181829E+01	7.61625242022E+01	-5.98462850170E+00	-5.29956536883E-01
1.12108012001E+06	-1.36322107201E+01	3.05558774598E+00	2.16231449882E+01	1.30839341382E+02	-6.07600406620E+01	3.34795774956E+01	-5.97861644442E+00	-8.49321947059E-01
1.14327147461E+06	-1.51727319318E+01	-9.95478340396E+00	2.15482372929E+01	1.29948740268E+02	-4.60622297841E+01	-4.21575967721E+01	-5.98968070161E+00	-4.97499906635E-01
1.16546282920E+06	-1.38956630761E+01	-1.50739449868E+01	2.14741550664E+01	1.29135418335E+02	-5.75859996639E+01	-7.10498122682E+01	-5.98307265276E+00	-7.47153374931E-01
1.18765418380E+06	-1.34561665511E+01	-1.92981724116E-01	2.13847479822E+01	1.28395756099E+02	-4.13904214159E+01	-8.05585537756E+01	-5.94019979821E+00	-2.56506258635E-01
1.20984553839E+06	-1.38999221868E+01	8.40489083006E+00	2.12856575303E+01	1.27794336038E+02	-4.85271055630E+01	-3.59849968552E+01	-5.96024450013E+00	-6.26239590125E-01
1.23203689299E+06	-1.36184248825E+01	6.91447917446E-01	2.12309447376E+01	1.26998633098E+02	-5.02337656325E+01	-9.56169361895E+01	-5.99207050510E+00	-3.30818597900E-01
1.25422824758E+06	-1.45551769015E+01	7.87070257432E+00	2.11105292236E+01	1.26178371317E+02	-6.19720657443E+01	2.00179674860E+01	-6.00345086116E+00	-7.00572345091E-01
1.27641960218E+06	-1.31773767758E+01	8.01814846455E+00	2.10577996605E+01	1.25616656470E+02	-4.91130649005E+01	-1.89385078740E+01	-5.99775580575E+00	-5.13297263027E-01
1.29861095677E+06	-1.32887119253E+01	7.75832940545E+00	2.09740830375E+01	1.24896000688E+02	-5.92056345387E+01	-4.45790770186E+00	-6.00076689684E+00	-5.60618439479E-01
1.32080231137E+06	-1.62029012354E+01	1.23161955538E+01	2.08725828203E+01	1.24121875351E+02	-5.75678408292E+01	-9.50310389729E+00	-5.98910268339E+00	-9.42307794553E-01
1.34299366596E+06	-1.42436600505E+01	1.07390809739E+01	2.08070544146E+01	1.23408619283E+02	-5.16051693446E+01	-1.11667374678E+02	-5.98106578056E+00	-7.58746981719E-01
1.36518502056E+06	-1.38163909218E+01	4.64638129782E+00	2.07271261475E+01	1.22776061410E+02	-5.19637814916E+01	5.20107444981E+01	-6.00677521473E+00	-6.09923127629E-01
1.38737637515E+06	-1.29189589636E+01	9.86982026119E+00	2.06509398701E+01	1.22064213239E+02	-5.06535215034E+01	4.40820435662E+01	-6.00819548053E+00	-6.90794151899E-01
1.40956772975E+06	-1.47058569811E+01	2.49943138687E+00	2.05466167053E+01	1.21403360503E+02	-5.60173663371E+01	-1.59829210984E+02	-5.95693256800E+00	-7.72129970873E-01
1.43175908434E+06	-1.65678982411E+01	1.84886423939E+00	2.04730697742E+01	1.20665117457E+02	-4.88186659579E+01	-8.81999326956E+01	-5.95174089725E+00	-6.91016505411E-01
1.45395043894E+06	-1.39145876422E+01	1.28311062861E+01	2.03964748899E+01	1.20164894687E+02	-5.22724641878E+01	1.46520750179E+02	-5.97470694087E+00	-1.01348626742E+00
1.47614179353E+06	-1.36406140741E+01	1.26681665589E+00	2.03104041928E+01	1.19281155563E+02	-4.97716349764E+01	2.23851355093E+01	-6.01047606103E+00	-7.93683543164E-01
1.49833314813E+06	-1.45516005641E+01	5.95800909216E+00	2.02298425315E+01	1.18772438496E+02	-4.99155485590E+01	-2.92125772455E+01	-5.97846103794E+00	-5.97699007098E-01
1.52052450272E+06	-1.37057699201E+01	5.05522114149E+00	2.01627091232E+01	1.18201722579E+02	-5.17168700667E+01	-3.45779575089E+01	-5.97335668662E+00	-7.51141525417E-01
1.54271585732E+06	-1.30900449606E+01	-1.40780013828E+00	2.01021213300E+01	1.17432890753E+02	-3.91914501184E+01	1.64029207191E+01	-6.02361653008E+00	-5.54545463025E-01
1.56490721191E+06	-1.31226044162E+01	-1.32622912897E+00	2.00098559854E+01	1.16845608246E+02	-6.20116214452E+01	-3.22814507517E+01	-5.96417255977E+00	-7.90810936770E-01
1.58709856651E+06	-1.35975925212E+01	3.80878438268E+00	1.99276466298E+01	1.16396039310E+02	-4.92105954465E+01	-1.50588953670E+02	-5.96478207008E+00	-7.70621837079E-01
1.60928992110E+06	-1.35712887819E+01	7.51250696208E+00	1.98310008464E+01	1.15789840295E+02	-5.03037877156E+01	-3.07065726005E+01	-5.97751391109E+00	-7.67826842312E-01
1.63148127570E+06	-1.29992578909E+01	-4.72412791852E+00	1.97865313817E+01	1.15056695619E+02	-5.20529619577E+01	7.90076117306E+01	-5.99271358412E+00	-9.42935675192E-01
1.65367263029E+06	-1.65135937507E+01	3.01817917487E+01	1.96644991204E+01	1.14577117340E+02	-5.17310309566E+01	8.68853006307E+01	-5.99559914316E+00	-8.12620554523E-01
1.67586398489E+06	-1.50718923229E+01	-1.28262205724E+00	1.96005374321E+01	1.13845973872E+02	-5.15516425602E+01	1.06973927877E+02	-6.00222068386E+00	-8.83598375838E-01
1.69805533948E+06	-1.56446646874E+01	1.82793392578E+00	1.95276859997E+01	1.13263650355E+02	-5.34330588975E+01	1.40544316539E+02	-5.97668933610E+00	-9.97841250402E-01
1.72024669408E+06	-1.29798713036E+01	5.53515433775E+00	1.94528904246E+01	1.12895914819E+02	-5.20682083822E+01	-1.16798065414E+01	-5.99214844473E+00	-8.21806548145E-01
1.74243804867E+06	-1.45535285874E+01	-8.81159434214E-02	1.93850311473E+01	1.12138290620E+02	-5.65129468872E+01	-1.03862927927E+02	-5.98679011160E+00	-1.05132385008E+00
1.76462940327E+06	-1.27494360361E+01	-5.22171638112E-01	1.93359553406E+01	1.11631603040E+02	-4.91275939395E+01	8.03449557978E+01	-5.98823115696E+00	-8.70290542315E-01
1.78682075786E+06	-1.44345485459E+01	8.17356393754E+00	1.92216672218E+01	1.11108856607E+02	-4.59340445834E+01	-8.70053375260E+01	-5.94743795888E+00	-7.13689847948E-01
1.80901211246E+06	-1.33264127575E+01	-9.54007193488E+00	1.91504322490E+01	1.10451759200E+02	-4.66053149225E+01	7.18060942669E+01	-5.99710778732E+00	-1.01551853586E+00
1.83120346705E+06	-1.36723835071E+01	3.64433261146E-01	1.90827278548E+01	1.09966824066E+02	-5.45584864533E+01	-4.79921484688E+01	-5.96488281050E+00	-8.04611692022E-01
1.85339482165E+06	-1.33187966145E+01	3.10830707106E+00	1.90098569442E+01	1.09447871441E+02	-5.10382284787E+01	-1.34880866641E+02	-5.95635053132E+00	-9.61837475669E-01
1.87558617624E+06	-1.28598855417E+01	7.22274408620E-01	1.89485307639E+01	1.08970306747E+02	-5.28249556919E+01	-9.15274960596E+01	-5.95104516192E+00	-8.38711994602E-01
1.89777753084E+06	-1.42855562938E+01	1.08148500268E+00	1.88459215461E+01	1.08313900357E+02	-4.99143968022E+01	-1.22719387757E+02	-5.94088334729E+00	-8.56945740528E-01
1.91996888543E+06	-1.39113320263E+01	-1.67280098685E+00	1.87866228307E+01	1.07918674039E+02	-5.89242526948E+01	-1.52203357997E+01	-5.98061944915E+00	-8.01421152542E-01
1.94216024003E+06	-1.45713612951E+01	2.27500747088E+00	1.87031832011E+01	1.07482928839E+02	-5.88172250036E+01	-9.18163471215E+01	-5.97113569479E+00	-1.00864195296E+00
1.96435159462E+06	-1.28127135731E+01	8.47358494212E+00	1.86474063566E+01	1.07026641851E+02	-4.82273917884E+01	-1.00424346627E+00	-5.98630395597E+00	-8.97298803309E-01
1.98654294922E+06	-1.36240005846E+01	1.05272636162E+00	1.85615764443E+01	1.06463976673E+02	-6.46289321775E+01	2.86154791072E+00	-5.95611724176E+00	-1.00242806645E+00
2.00873430381E+06	-1.80881317964E+01	2.67112103871E+01	1.84548022901E+01	1.06037798554E+02	-4.71710833995E+01	-1.36727123564E+02	-5.95228666620E+00	-9.25973340510E-01
2.03092565841E+06	-1.31980221183E+01	-6.36437224660E-01	1.84276045536E+01	1.05571441251E+02	-4.80977676894E+01	6.66875800689E+01	-5.99278382202E+00	-1.14921912284E+00
2.05311701300E+06	-1.47978846728E+01	-1.96715968753E+00	1.83510959165E+01	1.04898990691E+02	-4.86988387799E+01	-1.73396760272E+02	-5.94486295925E+00	-1.11473959054E+00
2.07530836760E+06	-1.37036516586E+01	-1.17191481649E-01	1.82771741108E+01	1.04568367221E+02	-5.33583595336E+01	1.54087375863E+02	-5.97702578018E+00	-1.08079746286E+00
2.09749972219E+06	-1.30240753777E+01	1.43849856608E+00	1.82051530172E+01	1.04086942801E+02	-4.73474438738E+01	5.61365065922E+01	-5.99894874850E+00	-9.86521224158E-01
2.11969107679E+06	-1.12115084957E+01	2.51506258568E+01	1.81439580363E+01	1.03911589088E+02	-4.22491524738E+01	-9.52073102275E+01	-5.92331918806E+00	-8.69478689054E-01
2.14188243138E+06	-1.44178891073E+01	4.98460857592E+00	1.80638984157E+01	1.03064929379E+02	-5.18672203954E+01	-8.01241450793E+01	-5.96765747896E+00	-9.76429174049E-01
2.16407378598E+06	-1.29660557276E+01	2.01455137229E+00	1.80005568892E+01	1.02660055397E+02	-6.76900389035E+01	-2.73350161923E+01	-5.96255129677E+00	-9.81005252379E-01
2.18626514057E+06	-1.56101336023E+01	5.63355484410E+00	1.79263213211E+01	1.02134157650E+02	-5.08039597194E+01	-1.59878638920E+01	-5.98315312014E+00	-9.80957996056E-01
2.20845649517E+06	-1.48409531297E+01	5.75811804022E+00	1.78444677636E+01	1.01706871649E+02	-5.17238074935E+01	-4.36502440252E+01	-5.96379759585E+00	-9.57113517554E-01
2.23064784976E+06	-1.76441549053E+01	2.10040929965E+01	1.77543510017E+01	1.01354553986E+02	-4.07671234182E+01	1.64032982713E+02	-5.97024812162E+00	-1.59926340549E+00
2.25283920436E+06	-1.47139781902E+01	-9.96554698892E-01	1.77069187419E+01	1.00860327224E+02	-5.32184452383E+01	-3.95734832044E+01	-5.96456253641E+00	-1.01189216195E+00
2.27503055895E+06	-1.37425543887E+01	4.16731935232E+00	1.76505227784E+01	1.00543944993E+02	-5.72981089672E+01	-1.37302966000E+02	-5.95203838182E+00	-1.08971543091E+00
2.29722191355E+06	-1.27933828165E+01	-8.27534838387E+00	1.76104144961E+01	9.98463973049E+01	-5.71789849986E+01	1.35721577968E+02	-5.96170980164E+00	-1.12866539813E+00
2.31941326814E+06	-1.33985145885E+01	1.02557289114E+01	1.75129323792E+01	9.96723400121E+01	-4.68289339571E+01	1.25248768730E+02	-5.98546208012E+00	-1.24867535767E+00
2.34160462274E+06	-1.14769672758E+01	-1.30938876231E+01	1.74845622463E+01	9.89797737652E+01	-4.52478551032E+01	1.79478173880E+02	-5.94962935064E+00	-1.38947588067E+00
2.36379597733E+06	-1.47969962507E+01	1.38748515096E+01	1.73527583992E+01	9.86499034887E+01	-4.79293296286E+01	1.38325333172E+01	-6.00103990446E+00	-1.11858809954E+00
2.38598733193E+06	-1.34142203259E+01	-3.50950556909E+00	1.73131911090E+01	9.81581517983E+01	-5.80474096642E+01	-2.49094556998E+01	-5.97674840628E+00	-1.15239415584E+00
2.40817868652E+06	-1.36177023410E+01	-2.14158428251E+00	1.72442766615E+01	9.77614338330E+01	-5.09993423519E+01	-1.14099693362E+02	-5.95836513118E+00	-1.24764401755E+00
2.43037004112E+06	-1.25619136400E+01	4.40092298136E+00	1.72018201991E+01	9.74363566444E+01	-4.89185890072E+01	-8.76499368736E+01	-5.95074271876E+00	-1.52755387833E+00
2.45256139571E+06	-1.69584790911E+01	-1.86690492783E+01	1.70991086038E+01	9.67831816738E+01	-4.90546113515E+01	1.16500259685E+02	-5.97953192433E+00	-1.40840766670E+00
2.47475275031E+06	-1.32376876174E+01	-1.63291951089E+01	1.70624312307E+01	9.63952339835E+01	-4.34676354120E+01	-6.47872877163E+01	-5.95544603628E+00	-1.02787740497E+00
2.49694410490E+06	-1.31376473167E+01	4.21354481881E-01	1.69868238888E+01	9.61852989673E+01	-4.89483588820E+01	1.28446337939E+02	-5.97369273407E+00	-1.18031822639E+00
2.51913545950E+06	-1.42999835465E+01	3.30182867412E+00	1.69206902486E+01	9.57261563631E+01	-5.74762051992E+01	-1.54448775303E+02	-5.98048132076E+00	-1.10711019391E+00
2.54132681409E+06	-1.35895565984E+01	-7.90810211828E+00	1.68768039314E+01	9.52422163648E+01	-5.23830465320E+01	-1.20762004546E+02	-5.98053448146E+00	-1.13782664756E+00
2.56351816869E+06	-1.42758598221E+01	-1.89339438961E+00	1.67960577301E+01	9.48960167527E+01	-5.86521976905E+01	1.39056169163E+02	-5.97311100397E+00	-1.27969986739E+00
2.58570952328E+06	-1.36362865262E+01	3.95313697373E+00	1.67353524760E+01	9.45936365456E+01	-4.32197571423E+01	2.46290342189E+01	-6.01128204400E+00	-8.84467803764E-01
2.60790087788E+06	-1.33350718982E+01	-4.79699472606E+00	1.66794692394E+01	9.41462469162E+01	-6.23799326573E+01	4.05520311214E+01	-5.96837814334E+00	-1.19158692526E+00
2.63009223247E+06	-1.46499897506E+01	4.02697346114E+00	1.65889662570E+01	9.37873595634E+01	-5.85002317986E+01	-1.47387850026E+02	-5.97865724594E+00	-7.92968544600E-01
2.65228358707E+06	-1.53179234025E+01	1.05264191419E+01	1.65090069179E+01	9.34315154293E+01	-6.58487613462E+01	-8.65671722825E+01	-5.97375216967E+00	-1.17624068826E+00
2.67447494166E+06	-1.35302698785E+01	-6.82704121258E+00	1.64721406308E+01	9.28506401822E+01	-5.36018187432E+01	9.86233935805E+01	-5.97507903482E+00	-1.31328005807E+00
2.69666629626E+06	-1.33604254617E+01	-1.10475428512E+01	1.64211356852E+01	9.24716406134E+01	-4.16601675534E+01	-1.42383734204E+02	-5.96112801811E+00	-1.44904027563E+00
2.71885765085E+06	-1.63981937738E+01	8.89757142550E+00	1.63294014657E+01	9.20800751488E+01	-4.77911205073E+01	9.18175530090E+01	-6.00370281071E+00	-1.40105857105E+00
2.74104900545E+06	-1.36805700847E+01	5.85414031762E+00	1.62811538544E+01	9.18418391642E+01	-6.41824372383E+01	5.44870417187E+01	-5.99154727041E+00	-1.28496911288E+00
2.76324036004E+06	-1.39297064716E+01	-7.98330886669E+00	1.62303901819E+01	9.13209984451E+01	-6.49793502345E+01	4.14956695496E+00	-5.98036184577E+00	-1.30282023811E+00
2.78543171463E+06	-1.37658899997E+01	3.02768420800E+00	1.61566205722E+01	9.11410502828E+01	-5.91176121881E+01	1.36184543982E+02	-5.97294969745E+00	-1.36809090104E+00
2.80762306923E+06	-1.37414176650E+01	-3.64954672647E+00	1.60955374174E+01	9.06601901265E+01	-4.49581634219E+01	-8.24551731266E+01	-5.94755244117E+00	-1.19556228857E+00
2.82981442382E+06	-1.30322695551E+01	2.30212059199E-02	1.60359657154E+01	9.03310877011E+01	-4.72923104795E+01	1.57698950325E+02	-5.96848510877E+00	-1.46566622743E+00
2.85200577842E+06	-1.31665372803E+01	2.60285487650E+00	1.59834338299E+01	8.99877315903E+01	-6.21892647166E+01	-1.42068886976E+02	-5.96982917201E+00	-1.31737792172E+00
2.87419713301E+06	-1.36840953524E+01	-1.37175887616E+00	1.59114396416E+01	8.95405967302E+01	-5.71177695814E+01	1.13691683616E+02	-5.99372158134E+00	-1.46297972333E+00
2.89638848761E+06	-1.42458379743E+01	6.19443020557E+00	1.58365637132E+01	8.92400731386E+01	-4.94205120990E+01	-5.48430626288E+01	-5.98151016912E+00	-1.26058267877E+00
