# Hz S DB R 50
! CMT, M5065, 19127446, 24.2.4/2
! Date: 11/8/2024 6:41:57 PM
! Data: Format (Calibration Info)
! Freq	S11:dB/Ang(F2)	S21:dB/Ang(F2)	S12:dB/Ang(F2)	S22:dB/Ang(F2)
3.00000000000E+05	-1.41525999275E+01	2.65296346097E+01	1.94658717763E+00	1.78554717056E+02	-4.86058366319E+01	7.91992383611E+01	-5.96904590960E+00	-3.89509877694E-01
3.22191354595E+05	-1.35654514105E+01	2.22806020019E+01	1.97340185456E+00	1.78006928569E+02	-4.91013259539E+01	1.92485196656E+01	-5.97042329825E+00	-2.61364838783E-01
3.44382709190E+05	-1.33761098232E+01	1.50612678216E+01	2.00731724655E+00	1.77449554272E+02	-4.81639454418E+01	-1.93086423271E+01	-5.97032293963E+00	-2.64359757465E-01
3.66574063785E+05	-1.39151951649E+01	5.16491140057E+00	2.02092124967E+00	1.77110083047E+02	-4.66205741776E+01	7.04408507780E+00	-5.97181582199E+00	-2.06571368237E-01
3.88765418380E+05	-1.30397724548E+01	3.13379756605E+01	1.93682445811E+00	1.77350161809E+02	-5.09791137886E+01	-5.95987627254E+01	-5.95812086274E+00	-2.13326366155E-01
4.10956772975E+05	-1.37587589982E+01	6.61013600981E+00	1.98520985008E+00	1.76702045101E+02	-4.46518386754E+01	1.77015197166E+02	-5.97165234861E+00	-2.98745036552E-01
4.33148127570E+05	-1.43742053808E+01	6.70577924279E+00	1.96402076336E+00	1.76333353510E+02	-5.28617003317E+01	9.05058559741E+01	-5.97153305271E+00	-2.16187898359E-01
4.55339482165E+05	-1.27006251898E+01	1.26854249614E+01	1.96309782806E+00	1.76258836350E+02	-5.13702351702E+01	-2.84682361271E+01	-5.96644626470E+00	-2.25772791296E-01
4.77530836760E+05	-1.34796034536E+01	6.11263065115E+00	1.97734786535E+00	1.75798729913E+02	-5.65638365826E+01	-1.70227374379E+02	-5.97276893509E+00	-3.58534611348E-01
4.99722191355E+05	-1.40306411580E+01	1.09902618761E+01	1.95455745544E+00	1.75552322087E+02	-4.78619054865E+01	1.18860851315E+02	-5.96344409255E+00	-3.78334143731E-01
5.21913545950E+05	-1.48441834991E+01	1.51691439437E+00	1.92768956854E+00	1.75116527547E+02	-4.58372308554E+01	-1.18149860370E+02	-5.97090733063E+00	-3.05651043379E-01
5.44104900545E+05	-1.31966719872E+01	6.96291832005E+00	1.95361025980E+00	1.74929820142E+02	-4.85663005747E+01	-6.05717608570E+00	-5.96671845547E+00	-3.68160158043E-01
5.66296255139E+05	-1.34846015869E+01	8.95150938080E+00	1.99251179699E+00	1.74666441407E+02	-5.83191226242E+01	1.38345818478E+02	-5.97299118679E+00	-3.83021961180E-01
5.88487609734E+05	-1.34582653409E+01	7.04642537556E+00	1.96188466220E+00	1.74413180077E+02	-6.63363220190E+01	-1.73175155030E+02	-5.96997260535E+00	-3.44838638732E-01
6.10678964329E+05	-1.38497593006E+01	3.71105333702E+00	1.96551241095E+00	1.74182265219E+02	-5.94603722815E+01	3.67448904025E+01	-5.96689291671E+00	1.11406031307E-01
6.32870318924E+05	-1.56968497778E+01	3.81642723112E+00	1.93543539111E+00	1.73656975093E+02	-4.44548387480E+01	1.49084036396E+02	-5.97044467150E+00	-1.69553435020E-01
6.55061673519E+05	-1.49172847651E+01	5.83989647877E+00	1.93466579644E+00	1.73509738868E+02	-4.79501535817E+01	-4.62885908298E+01	-5.97619950310E+00	-2.83951112737E-01
6.77253028114E+05	-1.39953262491E+01	4.58996682022E+00	1.92938092723E+00	1.73319013666E+02	-4.96973153763E+01	9.80664987244E+01	-5.97589631333E+00	-6.48984019566E-01
6.99444382709E+05	-1.35831049921E+01	1.30478603498E+01	1.95828151953E+00	1.73111796124E+02	-5.16891392236E+01	4.36234675274E+01	-5.97194645034E+00	-4.08449909226E-01
7.21635737304E+05	-1.54692771758E+01	2.00963384333E+01	1.93530873806E+00	1.72846651665E+02	-4.30470215034E+01	-1.47168155509E+02	-5.96355500106E+00	-3.23263424835E-01
7.43827091899E+05	-1.34229011601E+01	7.49307989476E+00	1.93593892784E+00	1.72493527383E+02	-5.05308944670E+01	-1.09143389919E+02	-5.96848465615E+00	-4.69017724302E-01
7.66018446494E+05	-1.41206897737E+01	1.45548487184E+01	1.89818928186E+00	1.72129295573E+02	-5.50940338302E+01	1.50373856807E+02	-5.96458162021E+00	-4.95097246655E-01
7.88209801089E+05	-1.38945568814E+01	1.15267553122E+01	1.95708366256E+00	1.71982637344E+02	-5.15578633220E+01	-2.38021469027E+01	-5.97859335309E+00	-3.86585481992E-01
8.10401155684E+05	-1.47650225772E+01	-1.76470358063E+00	1.93140796807E+00	1.71898820368E+02	-5.77828134539E+01	-1.58754515412E+02	-5.96068876132E+00	-3.89829253791E-01
8.32592510279E+05	-1.26376595296E+01	-3.67399807400E-02	1.92811822997E+00	1.71317076701E+02	-4.56328818178E+01	-1.31422018062E+02	-5.96881301254E+00	-3.22739736040E-01
8.54783864874E+05	-1.59589761684E+01	2.02111923560E+01	1.88485556148E+00	1.71262812591E+02	-4.91421281299E+01	5.09097843627E+01	-5.97901019413E+00	-4.69692177261E-01
8.76975219469E+05	-1.48574204678E+01	2.89701128767E-01	1.90772317788E+00	1.70762653755E+02	-5.90699581975E+01	5.48975638376E+01	-5.96891328381E+00	-4.54017433023E-01
8.99166574064E+05	-1.50016622089E+01	5.18942866674E+00	1.91892198907E+00	1.70660267765E+02	-5.29281072749E+01	-1.21894870584E+02	-5.96028306874E+00	-4.51804659034E-01
9.21357928659E+05	-1.37279263907E+01	3.73077177397E+00	1.95207758090E+00	1.70441896632E+02	-4.69114677784E+01	-1.65532413457E+02	-5.96570878403E+00	-4.65410196010E-01
9.43549283254E+05	-1.27479801511E+01	1.19680992952E+01	1.92214363694E+00	1.70427254946E+02	-4.92762203434E+01	-1.10804663258E+02	-5.96434694322E+00	-4.09413743801E-01
9.65740637849E+05	-1.40137907165E+01	2.76804799364E+00	1.92502186597E+00	1.70085302463E+02	-5.71556973935E+01	1.50169773572E+02	-5.97303868975E+00	-5.36857394341E-01
9.87931992444E+05	-1.32413572161E+01	-2.73021259133E+00	1.93909309587E+00	1.69763985981E+02	-4.90278974708E+01	-1.28228706614E+02	-5.97113741304E+00	-5.82120210247E-01
1.01012334704E+06	-1.44102659749E+01	8.03234195478E+00	1.90367749982E+00	1.69516375232E+02	-5.71054086899E+01	-1.74679554447E+02	-5.95748580426E+00	-5.32526444076E-01
1.03231470163E+06	-1.45800932282E+01	5.85396529996E+00	1.91830704327E+00	1.69350260469E+02	-5.34726556000E+01	1.14555082322E+02	-5.96219074347E+00	-4.91003621585E-01
1.05450605623E+06	-1.25742157565E+01	-1.86731294365E+00	1.89607955497E+00	1.68998099046E+02	-5.65231603073E+01	6.85078036202E+01	-5.96289168360E+00	-5.49960758968E-01
1.07669741082E+06	-1.35273381895E+01	-3.93046809724E+00	1.96255615072E+00	1.68933547504E+02	-5.01740135748E+01	-3.83851420732E+01	-5.97087191325E+00	-4.67765696535E-01
1.09888876542E+06	-1.42830165437E+01	4.16493688655E+00	1.88961478182E+00	1.68712206151E+02	-6.05123433686E+01	-1.54253697857E+02	-5.97200497091E+00	-5.70357533825E-01
1.12108012001E+06	-1.27504402177E+01	-4.75810173307E-01	1.91759272623E+00	1.68271520601E+02	-4.94280816550E+01	-8.06434102322E+01	-5.96532385278E+00	-4.89231795069E-01
1.14327147461E+06	-1.42693753144E+01	8.84333331745E+00	1.86220697220E+00	1.68084495516E+02	-4.65380786259E+01	-3.82989306910E+01	-5.97611767155E+00	-5.07366089808E-01
1.16546282920E+06	-1.25258694715E+01	-4.55541370149E-02	1.90078039536E+00	1.67865253406E+02	-4.74464227927E+01	-1.25375329779E+02	-5.97210670361E+00	-5.66684974933E-01
1.18765418380E+06	-1.24917853739E+01	8.16280124170E+00	1.90780409851E+00	1.67501758556E+02	-5.82889200827E+01	-6.99438708808E+01	-5.98072222936E+00	-5.60320663012E-01
1.20984553839E+06	-1.56219157096E+01	-5.65777375222E+00	1.90829262985E+00	1.67143674765E+02	-5.08446456521E+01	1.73084347572E+02	-5.96787011483E+00	-6.81044228205E-01
1.23203689299E+06	-1.34339703501E+01	8.37304472829E+00	1.88925629723E+00	1.67101175233E+02	-5.35882785878E+01	1.63263214297E+02	-5.97184056099E+00	-3.48160193249E-01
1.25422824758E+06	-1.36841644882E+01	-1.97450382701E+00	1.89167520574E+00	1.66872335093E+02	-6.10497095475E+01	1.20901926946E+02	-5.98070445764E+00	-5.91323471957E-01
1.27641960218E+06	-1.35451398249E+01	1.75610605079E+00	1.89466385678E+00	1.66874635398E+02	-5.15656023703E+01	1.65029895349E+02	-5.96739022559E+00	-6.62498732181E-01
1.29861095677E+06	-1.41697856050E+01	3.38182206350E+00	1.86789599696E+00	1.66254161986E+02	-5.46792032222E+01	1.67554439658E+02	-5.98169880487E+00	-6.34496613088E-01
1.32080231137E+06	-1.43940661301E+01	3.22629431159E+00	1.86399701969E+00	1.66058392100E+02	-3.96733254140E+01	1.38394194967E+02	-5.96778592074E+00	-9.71769918597E-01
1.34299366596E+06	-1.36075682771E+01	1.36833782796E+01	1.88104797921E+00	1.65998021814E+02	-6.78208937652E+01	-7.48006220236E+00	-5.95421686694E+00	-6.97068933681E-01
1.36518502056E+06	-1.55886170868E+01	8.27865128505E-01	1.87884837723E+00	1.65613612777E+02	-4.75203094801E+01	1.18407122433E+02	-5.97154430786E+00	-6.25045590091E-01
1.38737637515E+06	-1.50749684234E+01	-7.70578167172E+00	1.86600550565E+00	1.65206277257E+02	-5.51755620961E+01	-1.62736091995E+02	-5.96423095837E+00	-6.81062037822E-01
1.40956772975E+06	-1.38882112106E+01	-6.19468845839E-01	1.89183828214E+00	1.64881831749E+02	-6.33497384198E+01	-1.25691673468E+02	-5.96857522534E+00	-6.85787340220E-01
1.43175908434E+06	-1.30674309515E+01	4.02988697991E+00	1.89893500545E+00	1.64959043759E+02	-6.08600805234E+01	5.83244647752E+01	-5.97488741141E+00	-6.85350350823E-01
1.45395043894E+06	-1.33220944383E+01	-1.30056736632E+00	1.85439998765E+00	1.64614689217E+02	-5.58630180184E+01	8.53028127977E+00	-5.97403881627E+00	-7.24971093373E-01
1.47614179353E+06	-1.39410749492E+01	1.04263607628E+00	1.89425790561E+00	1.64235253535E+02	-5.09384322295E+01	-6.76172526511E+01	-5.96898171854E+00	-6.88689705475E-01
1.49833314813E+06	-1.38355382662E+01	-4.83078875504E-01	1.88186226860E+00	1.64269041262E+02	-6.03983298066E+01	-1.57394202269E+01	-5.97406520769E+00	-7.22091016115E-01
1.52052450272E+06	-1.41169757715E+01	-1.74245459654E-01	1.86445102297E+00	1.63739940159E+02	-6.39729283894E+01	1.12388913413E+02	-5.96098139008E+00	-7.44659984899E-01
1.54271585732E+06	-1.25831187815E+01	4.89303083317E+00	1.88014918270E+00	1.63926231436E+02	-4.81651897744E+01	7.34610254200E+01	-5.97702111869E+00	-7.43136195352E-01
1.56490721191E+06	-1.38100805612E+01	4.99523191842E+00	1.82948696016E+00	1.63575606235E+02	-5.54741253742E+01	1.09003036485E+02	-5.97919298232E+00	-7.94192373543E-01
1.58709856651E+06	-1.39787900021E+01	4.28955377242E+00	1.84419980807E+00	1.63184332174E+02	-5.70140418395E+01	-1.77306022418E+02	-5.96907140437E+00	-6.99016795453E-01
1.60928992110E+06	-1.35209313828E+01	2.11896404375E+00	1.86121580070E+00	1.63095516500E+02	-4.92007124948E+01	-4.30270884634E+01	-5.96796236165E+00	-7.46058368286E-01
1.63148127570E+06	-1.43937934607E+01	5.29841137538E+00	1.85732252386E+00	1.62644847937E+02	-4.82907612118E+01	4.91021360314E+01	-5.97535314634E+00	-8.19916595321E-01
1.65367263029E+06	-1.40107895734E+01	-1.52453368060E+01	1.87388454407E+00	1.62568072237E+02	-4.75822949107E+01	1.26924480721E+02	-5.97121741094E+00	-8.42910974482E-01
1.67586398489E+06	-1.41401212173E+01	-7.01534094319E+00	1.87135208926E+00	1.62160743641E+02	-4.70835534398E+01	-1.79362828574E+01	-5.96403748415E+00	-8.08765292231E-01
1.69805533948E+06	-1.51268827783E+01	1.11092122022E+00	1.83993018555E+00	1.62110594812E+02	-4.69628045166E+01	2.00851359167E+00	-5.98023942640E+00	-7.60828151726E-01
1.72024669408E+06	-1.51691374403E+01	-2.12301665469E+00	1.82631436223E+00	1.61725163344E+02	-4.77653707543E+01	-2.34677313514E+01	-5.96711690424E+00	-7.96999215969E-01
1.74243804867E+06	-1.26164778201E+01	1.12933393515E+01	1.84160435930E+00	1.61526826724E+02	-6.88685262686E+01	4.56293961838E+01	-5.96263570813E+00	-8.71398540822E-01
1.76462940327E+06	-1.18525541875E+01	2.17657516294E+01	1.78384950067E+00	1.61389524434E+02	-4.93670461183E+01	1.04038557853E+02	-5.96379861247E+00	-8.39729011096E-01
1.78682075786E+06	-1.36728117566E+01	6.30303011769E+00	1.80761679262E+00	1.61150114935E+02	-4.33059084998E+01	-5.53933452057E+01	-5.98054092975E+00	-8.66146583163E-01
1.80901211246E+06	-1.41177470705E+01	-7.16318883720E+00	1.85108382278E+00	1.60691977867E+02	-5.18450104959E+01	6.64391151749E+01	-5.97371873212E+00	-8.73309151166E-01
1.83120346705E+06	-1.43740115194E+01	5.34326190183E+00	1.82469972463E+00	1.60744616196E+02	-5.22306150103E+01	1.11729041262E+02	-5.97907354830E+00	-8.51600657630E-01
1.85339482165E+06	-1.36478083023E+01	6.04599039987E+00	1.85293669382E+00	1.60401577594E+02	-4.97164358201E+01	7.86199356411E+01	-5.97234628850E+00	-8.52198594562E-01
1.87558617624E+06	-1.75725063422E+01	3.50563417338E+01	1.79212557598E+00	1.59913969242E+02	-5.86432502480E+01	1.66723443441E+02	-5.97046853610E+00	-9.06245878630E-01
1.89777753084E+06	-1.27206038267E+01	4.63185387937E+00	1.79177154138E+00	1.59904596688E+02	-3.81884193656E+01	-1.28012189268E+02	-5.98341971208E+00	-8.58495294251E-01
1.91996888543E+06	-1.40428417303E+01	-2.71381931778E-01	1.85177862921E+00	1.59610399202E+02	-5.31590725520E+01	-6.49291628276E+01	-5.97391736105E+00	-9.53108659828E-01
1.94216024003E+06	-1.45805992352E+01	4.79827701120E+00	1.82625049335E+00	1.59352764454E+02	-4.98426312203E+01	1.14268939659E+02	-5.98076555866E+00	-8.83604985420E-01
1.96435159462E+06	-1.41029779148E+01	-1.23346505441E+01	1.79401034644E+00	1.59068448741E+02	-5.25851848541E+01	7.45796525823E+01	-5.97872329638E+00	-9.76658176934E-01
1.98654294922E+06	-1.24119179951E+01	5.24142240395E+00	1.85524628472E+00	1.59091906165E+02	-6.03497138752E+01	-1.63209850999E+02	-5.96576189731E+00	-8.84992503801E-01
2.00873430381E+06	-1.76519650996E+01	5.54440198422E+00	1.79298364996E+00	1.58732735146E+02	-4.78190574846E+01	-7.74283836710E+01	-5.97046464771E+00	-9.53119988041E-01
2.03092565841E+06	-1.39586547903E+01	-5.31966000731E-01	1.80543796284E+00	1.58396406498E+02	-5.35968654834E+01	1.49717372904E+02	-5.96983965931E+00	-9.31398855996E-01
2.05311701300E+06	-1.20116620652E+01	9.79898418121E+00	1.78983011734E+00	1.58381117271E+02	-5.01916632148E+01	-1.49091525347E+02	-5.97197003254E+00	-9.81230868424E-01
2.07530836760E+06	-1.35315838396E+01	-3.50754967209E+00	1.80032018713E+00	1.57799533696E+02	-6.22770899193E+01	-6.59771936686E+01	-5.96331049003E+00	-9.16022615156E-01
2.09749972219E+06	-1.25763595137E+01	-8.88197645957E+00	1.82881906938E+00	1.57813489498E+02	-6.71382733265E+01	-1.76669220863E+02	-5.96608712616E+00	-9.64583994475E-01
2.11969107679E+06	-1.30930450218E+01	4.20620477763E+01	1.74104043062E+00	1.57431230135E+02	-4.65152490209E+01	-9.95316487606E+01	-5.97279046246E+00	-9.65580971626E-01
2.14188243138E+06	-1.41378307142E+01	-4.47026251184E+00	1.79924411856E+00	1.57319891723E+02	-4.89598408002E+01	-1.24243036896E+02	-5.97347114709E+00	-1.00210228226E+00
2.16407378598E+06	-1.33349116448E+01	-4.57928012432E+00	1.78550138715E+00	1.56949205902E+02	-5.50352385299E+01	5.67050240240E+01	-5.95462929551E+00	-9.78949957929E-01
2.18626514057E+06	-1.42709030346E+01	2.54111321225E-01	1.78716756246E+00	1.56701800925E+02	-4.93993181678E+01	-4.29863716964E+01	-5.97532967351E+00	-1.03916389408E+00
2.20845649517E+06	-1.38878927495E+01	3.93960886822E+00	1.78293279182E+00	1.56361896307E+02	-4.91070870128E+01	-3.65910410648E+01	-5.97962100326E+00	-1.14755512687E+00
2.23064784976E+06	-2.07064715393E+01	-2.66227450030E+01	1.80851232456E+00	1.56173547545E+02	-6.83483045909E+01	-5.96122078966E+01	-5.97190577983E+00	-1.14640067595E+00
2.25283920436E+06	-1.50567720134E+01	-3.43881844779E+00	1.78940983256E+00	1.56074647356E+02	-4.36571747260E+01	-6.58716135954E+01	-5.98773364999E+00	-1.07158342428E+00
2.27503055895E+06	-1.42616669301E+01	1.38986759589E+01	1.75380322227E+00	1.56165077145E+02	-5.87584632085E+01	-8.35624196847E+00	-5.96676838522E+00	-9.23937902824E-01
2.29722191355E+06	-1.43426933862E+01	3.20861255925E+00	1.79116490634E+00	1.55716471029E+02	-5.68865389928E+01	-1.48445941648E+02	-5.97325303450E+00	-1.06479077468E+00
2.31941326814E+06	-1.36187337800E+01	-2.50376250488E+00	1.77550759432E+00	1.55266024936E+02	-5.04904539510E+01	-1.06527498049E+02	-5.96769717939E+00	-1.10322834597E+00
2.34160462274E+06	-1.27681131379E+01	1.06124586583E+01	1.79305663434E+00	1.55087628458E+02	-5.23558396502E+01	2.15387548561E+01	-5.96976286413E+00	-1.05872802533E+00
2.36379597733E+06	-1.33314678510E+01	3.52398703610E-01	1.73885339034E+00	1.54838023901E+02	-4.66513035872E+01	-1.27496487144E+02	-5.98144995130E+00	-1.06654504135E+00
2.38598733193E+06	-1.38867061209E+01	-2.03883503717E-01	1.78695982304E+00	1.54682418272E+02	-5.19254398600E+01	5.60742324805E+01	-5.97894884204E+00	-1.18663021283E+00
2.40817868652E+06	-1.44394574135E+01	4.32048333352E+00	1.76346862162E+00	1.54067729016E+02	-5.35448336059E+01	1.16994183741E+02	-5.96708545528E+00	-1.25351331257E+00
2.43037004112E+06	-1.38741860410E+01	7.32031113064E+00	1.72035904501E+00	1.54322966775E+02	-4.91432534716E+01	-5.28930311532E+01	-5.97698674544E+00	-1.51909540378E+00
2.45256139571E+06	-1.20964094942E+01	8.39131604714E+00	1.76448434816E+00	1.54055810153E+02	-5.67986162294E+01	1.27488137843E+01	-5.98266734245E+00	-1.18960515209E+00
2.47475275031E+06	-1.43081371956E+01	-3.05822771727E+00	1.74196800284E+00	1.53666362644E+02	-4.42320577409E+01	-7.43674069767E+01	-5.98219042194E+00	-1.09115940410E+00
2.49694410490E+06	-1.42320462356E+01	-1.21574737600E+01	1.73978957152E+00	1.53305934876E+02	-5.93684240795E+01	1.23808976224E+02	-5.97822873005E+00	-1.10750344191E+00
2.51913545950E+06	-1.50169370510E+01	7.45995320076E+00	1.74215588196E+00	1.53161164885E+02	-7.30859420581E+01	-4.54787446891E+01	-5.97496222096E+00	-1.11532911571E+00
2.54132681409E+06	-1.40440325650E+01	9.40597966032E+00	1.73616921924E+00	1.53098778666E+02	-5.14047846717E+01	-1.54890794349E+02	-5.97501803120E+00	-1.09072153085E+00
2.56351816869E+06	-1.19476353560E+01	6.14296033908E+00	1.75598554814E+00	1.53008133693E+02	-4.69111142928E+01	1.04262596072E+02	-5.98574334623E+00	-1.21892865910E+00
2.58570952328E+06	-1.32512628841E+01	4.47692901161E-01	1.74416129900E+00	1.52823494687E+02	-4.72758453563E+01	-1.40712046071E+02	-5.98004546598E+00	-1.18784638505E+00
2.60790087788E+06	-1.55005149149E+01	3.31855267787E-01	1.70218394575E+00	1.52132704027E+02	-5.53679735438E+01	9.70482314700E+01	-5.98054840011E+00	-1.11422329980E+00
2.63009223247E+06	-1.25961776795E+01	4.29987415556E+00	1.75387803758E+00	1.51982190864E+02	-5.14146821038E+01	1.25158431272E+02	-5.97293599086E+00	-8.81289100576E-01
2.65228358707E+06	-1.50862000683E+01	-1.10764687620E+01	1.74498183826E+00	1.51806256557E+02	-5.13513777418E+01	-1.40414054559E+02	-5.97227674030E+00	-1.22625670743E+00
2.67447494166E+06	-1.22029894181E+01	9.43605792710E-02	1.73906952301E+00	1.51735862668E+02	-4.77398584419E+01	9.03547674256E+00	-5.98621012093E+00	-1.28956516406E+00
2.69666629626E+06	-1.41108547556E+01	-1.53537951733E+01	1.75790389324E+00	1.51373269894E+02	-4.13890698745E+01	-7.94483951608E+01	-5.98716512718E+00	-1.14551987795E+00
2.71885765085E+06	-1.29629216360E+01	-3.04051884019E+00	1.73304997027E+00	1.50895382929E+02	-4.54574336866E+01	9.92411475711E+01	-5.96739498123E+00	-1.27062941593E+00
2.74104900545E+06	-1.44213157030E+01	2.90113865588E+00	1.68844835722E+00	1.50979632211E+02	-6.89731051600E+01	1.58656863393E+02	-5.97889445235E+00	-1.26961529550E+00
2.76324036004E+06	-1.30094044048E+01	-4.26004753734E+00	1.70630456639E+00	1.50551722325E+02	-5.80098101372E+01	1.25250804390E+02	-5.97467587395E+00	-1.20841070872E+00
2.78543171463E+06	-1.46301071942E+01	-2.24595712335E+00	1.68382304285E+00	1.50278250943E+02	-5.44686310962E+01	1.20760967026E+02	-5.98777707953E+00	-1.39709291474E+00
2.80762306923E+06	-1.35668732389E+01	-1.48631553598E+01	1.71662696852E+00	1.50015562366E+02	-5.39878065502E+01	-1.34513346008E+02	-5.97857053251E+00	-1.19079051817E+00
2.82981442382E+06	-1.35678961787E+01	6.62171072170E+00	1.67910773430E+00	1.49894395351E+02	-4.74460570667E+01	-4.87635154718E+01	-5.98437857948E+00	-1.22426547698E+00
2.85200577842E+06	-1.31514971230E+01	2.83110926824E+00	1.73272455159E+00	1.49699376138E+02	-4.98521947729E+01	1.42518126835E+02	-5.98176785113E+00	-1.37195901694E+00
2.87419713301E+06	-1.48930075925E+01	5.60019432165E+00	1.66388345950E+00	1.49465624872E+02	-5.48765861326E+01	1.69138791380E+02	-5.97661699843E+00	-1.35740016338E+00
2.89638848761E+06	-1.46023413245E+01	-7.07818234090E+00	1.69687652920E+00	1.48878084494E+02	-5.37209988011E+01	7.35182058490E+01	-5.97652494377E+00	-1.40358957692E+00
