# Hz S DB R 50
! CMT, M5065, 19127446, 24.2.4/2
! Date: 11/8/2024 6:47:41 PM
! Data: Format (Calibration Info)
! Freq	S11:dB/Ang(F2)	S21:dB/Ang(F2)	S12:dB/Ang(F2)	S22:dB/Ang(F2)
3.00000000000E+05	-1.63430854763E+01	1.38261203460E+01	1.03073391369E+01	1.78708918675E+02	-6.51140626814E+01	-5.94044808597E+01	-5.97006893648E+00	-3.57390792322E-01
3.22191354595E+05	-1.36198345458E+01	2.39772868998E+01	1.03268438188E+01	1.78130101087E+02	-5.26048863923E+01	-6.31691372400E+01	-5.96670269601E+00	-3.27468416910E-01
3.44382709190E+05	-1.32636300894E+01	1.65991617817E+01	1.03157339501E+01	1.77512428231E+02	-6.65117709111E+01	2.10341191498E+01	-5.97087764155E+00	-3.38156184978E-01
3.66574063785E+05	-1.50493670359E+01	1.31245563678E+01	1.02959633544E+01	1.76769516747E+02	-4.87812953416E+01	-7.40575742436E+01	-5.96462662587E+00	-2.57041299671E-01
3.88765418380E+05	-1.36040167759E+01	5.33785852781E+00	1.03266516403E+01	1.76138302103E+02	-4.50443071792E+01	-8.08566963908E+01	-5.94702450935E+00	-1.38948023797E-01
4.10956772975E+05	-1.44144660872E+01	1.86981680642E+01	1.02950997865E+01	1.75835479817E+02	-5.07037968953E+01	-1.06816161231E+02	-5.95954662953E+00	-3.79234626245E-01
4.33148127570E+05	-1.50908554917E+01	3.21679293315E+00	1.02903869409E+01	1.75125299478E+02	-4.88795904134E+01	1.75359527647E+02	-5.96329741031E+00	-3.68890694778E-01
4.55339482165E+05	-1.32817546337E+01	1.49930867299E+01	1.02960629821E+01	1.74775301470E+02	-5.16595917429E+01	-3.14237300500E+01	-5.97645401888E+00	-3.44947772896E-01
4.77530836760E+05	-1.40926020796E+01	1.54309288046E+01	1.03026751434E+01	1.74216329297E+02	-5.48921471604E+01	9.35233814327E+01	-5.97668444903E+00	-4.81628227447E-01
4.99722191355E+05	-1.47068083728E+01	7.05514344401E+00	1.02564720376E+01	1.73695141225E+02	-5.58822183550E+01	-2.93788056098E+01	-5.97754342475E+00	-3.64455901135E-01
5.21913545950E+05	-1.36965377074E+01	7.54177392556E+00	1.02965201747E+01	1.73217110121E+02	-4.82577213826E+01	-1.16652223200E+02	-5.96237699975E+00	-3.31502726840E-01
5.44104900545E+05	-1.54299108694E+01	1.68066600004E+01	1.02560228592E+01	1.72717202995E+02	-4.85211662640E+01	1.03925122062E+02	-5.96301531324E+00	-3.83629046719E-01
5.66296255139E+05	-1.22297499975E+01	4.24547640477E+00	1.02773919358E+01	1.72240286863E+02	-4.81759797974E+01	1.61494913844E+02	-5.97562222876E+00	-3.85923087894E-01
5.88487609734E+05	-1.44286166058E+01	1.11038945685E+01	1.02775094990E+01	1.71930129205E+02	-5.46644715972E+01	-1.21832813031E+01	-5.97793188635E+00	-3.65712775498E-01
6.10678964329E+05	-1.47886191270E+01	8.59192009668E+00	1.02454752781E+01	1.71447319062E+02	-4.82481727327E+01	1.51446216281E+02	-5.96460182957E+00	2.68769626378E-01
6.32870318924E+05	-1.40581678070E+01	1.21885896119E+01	1.02467430582E+01	1.71032083810E+02	-6.23006872526E+01	-1.25139630954E+02	-5.97608666957E+00	-1.19539567223E-01
6.55061673519E+05	-1.52017125717E+01	2.13741990448E+01	1.02371256172E+01	1.70479544175E+02	-5.38168057224E+01	-1.53062542185E+02	-5.96594271829E+00	-3.21470891628E-01
6.77253028114E+05	-1.45758228535E+01	8.52637237715E+00	1.02295000490E+01	1.70088969502E+02	-5.88980165449E+01	-1.50077959132E+02	-5.96198442783E+00	-7.45486331619E-01
6.99444382709E+05	-1.53381595532E+01	1.26141870677E+01	1.02180565734E+01	1.69621270717E+02	-5.97609491871E+01	8.65215566622E-01	-5.96091681864E+00	-3.97236212819E-01
7.21635737304E+05	-1.33525716691E+01	1.35394721469E+01	1.02252225532E+01	1.69305216800E+02	-5.74089456887E+01	1.21524119765E+02	-5.96513273170E+00	-5.14582555690E-01
7.43827091899E+05	-1.43451667061E+01	1.17729908838E+01	1.02081976352E+01	1.68804667410E+02	-4.81793481052E+01	1.50077831950E+02	-5.96319610203E+00	-4.35531278240E-01
7.66018446494E+05	-1.71581134180E+01	2.50573848472E+01	1.01711672860E+01	1.68533506033E+02	-5.05545531142E+01	-2.43784840071E+01	-5.98031280844E+00	-4.25686684757E-01
7.88209801089E+05	-1.27071310065E+01	3.13808512730E+00	1.02350793323E+01	1.67938373544E+02	-6.36624414479E+01	-4.74184325565E+00	-5.97805834851E+00	-5.07090476335E-01
8.10401155684E+05	-1.36813631147E+01	8.67585820449E+00	1.02017467898E+01	1.67604645536E+02	-5.91739523896E+01	4.85608118670E+01	-5.97188827351E+00	-4.68665899517E-01
8.32592510279E+05	-1.46147563187E+01	1.18715922213E+01	1.01843179834E+01	1.67086919281E+02	-5.83748030213E+01	-1.68408938715E+02	-5.97232176989E+00	-4.16070450319E-01
8.54783864874E+05	-1.49733573305E+01	8.67291659321E+00	1.01916558437E+01	1.66884923514E+02	-4.75391619961E+01	5.13567186634E+01	-5.98526201659E+00	-5.63722431957E-01
8.76975219469E+05	-1.32976166099E+01	5.50102135942E+00	1.01989701600E+01	1.66344107823E+02	-4.73978131430E+01	-1.36737029228E+00	-5.96906038551E+00	-4.43894224788E-01
8.99166574064E+05	-1.46762689425E+01	-6.78613408214E+00	1.01916147852E+01	1.65900891511E+02	-5.37440847044E+01	-1.72920930548E+01	-5.95802151834E+00	-4.99070226295E-01
9.21357928659E+05	-1.35482945393E+01	9.55831703789E-01	1.01896764328E+01	1.65557358864E+02	-5.26853305296E+01	-1.20713747644E+02	-5.96448750213E+00	-4.89082304594E-01
9.43549283254E+05	-1.35074630203E+01	4.96536409934E+00	1.01907365544E+01	1.65104821834E+02	-4.66411795410E+01	-1.28942344437E+02	-5.97587326598E+00	-4.83219776463E-01
9.65740637849E+05	-1.34319727779E+01	-1.52557408261E+01	1.01746609586E+01	1.64548725269E+02	-5.69130236773E+01	7.83235963677E+00	-5.98390500556E+00	-4.73256364945E-01
9.87931992444E+05	-1.47036219163E+01	4.82789297933E+00	1.01641831177E+01	1.64373451725E+02	-4.93177461254E+01	7.80842076680E+01	-5.97721962959E+00	-5.78151177177E-01
1.01012334704E+06	-1.29914645790E+01	8.85873926447E+00	1.01606402151E+01	1.63997200637E+02	-4.83147035138E+01	-3.59662986876E+01	-5.98025434158E+00	-5.01499253722E-01
1.03231470163E+06	-1.34985924446E+01	1.14551398350E+01	1.01514034512E+01	1.63703030076E+02	-5.52025473418E+01	-6.62960389085E+01	-5.98404918301E+00	-5.38640809158E-01
1.05450605623E+06	-1.51883962705E+01	1.97520148275E+00	1.01447668273E+01	1.63262846677E+02	-5.64586313268E+01	4.27161523814E+01	-5.97310728751E+00	-5.60815230605E-01
1.07669741082E+06	-1.27299264106E+01	4.21682221795E+00	1.01381786022E+01	1.62878840471E+02	-4.87583531432E+01	1.58416272607E+02	-5.96191159719E+00	-5.42416605691E-01
1.09888876542E+06	-1.40223212022E+01	1.66134941881E+00	1.01106403266E+01	1.62449279086E+02	-5.64465942720E+01	-6.09230323288E+01	-5.98273985160E+00	-5.90154802624E-01
1.12108012001E+06	-1.47188942235E+01	1.02763240242E+01	1.01106022097E+01	1.62183511838E+02	-5.54405315598E+01	-1.56622458339E+02	-5.98694943589E+00	-4.92908132873E-01
1.14327147461E+06	-1.41285495927E+01	3.84151701366E+00	1.01100301494E+01	1.61700064589E+02	-5.28673076717E+01	6.70652326311E+01	-5.97580482227E+00	-6.59216767140E-01
1.16546282920E+06	-1.38729230148E+01	1.88545130964E+00	1.01205074324E+01	1.61181626539E+02	-5.83347745375E+01	1.77886919555E+02	-5.96721065612E+00	-6.30035215869E-01
1.18765418380E+06	-1.51919349745E+01	6.81836081643E+00	1.00837138393E+01	1.60948599627E+02	-4.70879764277E+01	-5.33406566409E+01	-5.96195072313E+00	-6.00588312939E-01
1.20984553839E+06	-1.50386817892E+01	-4.76276541379E+00	1.00779691049E+01	1.60544845864E+02	-5.30888976613E+01	-7.82339566724E+01	-5.96779365307E+00	-7.10891681689E-01
1.23203689299E+06	-1.33791601160E+01	4.05206480234E+00	1.01044486762E+01	1.60186388293E+02	-5.71270821008E+01	-1.04695973561E+01	-5.97506485358E+00	-4.63620738245E-01
1.25422824758E+06	-1.40928393172E+01	-1.81722901499E+00	1.00776068573E+01	1.59808601420E+02	-7.06868425325E+01	5.00355093587E+00	-5.97947831582E+00	-6.59050126550E-01
1.27641960218E+06	-1.49252161152E+01	-3.65659871936E-01	1.00699200890E+01	1.59364424592E+02	-5.50096682923E+01	-4.81322905472E+01	-5.96908565390E+00	-6.19423882879E-01
1.29861095677E+06	-1.33932986479E+01	6.89222579110E+00	1.00725941550E+01	1.59145107180E+02	-4.35021764917E+01	-4.45725503979E+01	-5.98164111439E+00	-5.65835309237E-01
1.32080231137E+06	-1.33203279418E+01	-6.14033767647E+00	1.00715700174E+01	1.58506054057E+02	-5.95457296223E+01	1.59347783098E+02	-5.97476340795E+00	-9.95328693844E-01
1.34299366596E+06	-1.41253430926E+01	-1.92970071098E+00	1.00652131132E+01	1.58328716486E+02	-4.78187660994E+01	-9.42983445487E+01	-5.96446739175E+00	-7.15284237964E-01
1.36518502056E+06	-1.51803166740E+01	1.24600165904E+01	1.00489568567E+01	1.57978215980E+02	-4.70170583347E+01	-4.14782233354E+01	-5.97806890645E+00	-6.84191059504E-01
1.38737637515E+06	-1.40310132252E+01	-2.14530911503E+00	1.00320649978E+01	1.57580796962E+02	-5.68553471367E+01	-7.17510069675E+01	-5.97411160219E+00	-7.25428325540E-01
1.40956772975E+06	-1.47358097355E+01	-2.49796850019E-01	1.00377968767E+01	1.57143158524E+02	-5.36612346872E+01	1.20379346228E+02	-5.98315651139E+00	-7.51655418089E-01
1.43175908434E+06	-1.39257129345E+01	3.81855777996E-01	1.00120962080E+01	1.56799255710E+02	-6.79711172384E+01	6.10444533188E+01	-5.96709050460E+00	-7.27842287820E-01
1.45395043894E+06	-1.38352455035E+01	3.20862012134E+00	9.99554471809E+00	1.56501057664E+02	-5.70456111909E+01	-7.90629862193E+00	-5.96597483271E+00	-5.95448188982E-01
1.47614179353E+06	-1.24215907385E+01	2.04225129875E+01	1.00280704109E+01	1.56151152307E+02	-6.22486248455E+01	-1.56309984011E+02	-5.96228610800E+00	-7.74149578008E-01
1.49833314813E+06	-1.51119892052E+01	1.52907079298E+01	9.98229127789E+00	1.55938648484E+02	-5.30833295157E+01	1.11281055867E+02	-5.97487371419E+00	-7.62495996294E-01
1.52052450272E+06	-1.49308935148E+01	1.85880770873E+00	9.97025260905E+00	1.55304796752E+02	-4.67336297769E+01	-5.84369809770E+01	-5.98152461947E+00	-6.38081314021E-01
1.54271585732E+06	-1.26426683858E+01	7.03926159694E+00	1.00055686577E+01	1.55137018505E+02	-4.41137189644E+01	1.04373981595E+02	-5.95796099867E+00	-7.59666916007E-01
1.56490721191E+06	-1.38446733915E+01	-6.30203556819E+00	9.98805493970E+00	1.54578141550E+02	-5.15757697993E+01	6.96972377616E+01	-5.95967248409E+00	-8.05168583169E-01
1.58709856651E+06	-1.42924976654E+01	3.84197077818E+00	9.96651075683E+00	1.54219081585E+02	-6.24481236427E+01	-1.45133978765E+02	-5.96796266482E+00	-8.28225767034E-01
1.60928992110E+06	-1.62843889901E+01	-4.04507181364E-01	9.93399910808E+00	1.53816043494E+02	-6.28876496202E+01	-6.03179843247E+01	-5.97789446446E+00	-7.28268741711E-01
1.63148127570E+06	-1.48231652326E+01	1.04543624957E+00	9.94709504684E+00	1.53508566871E+02	-4.45800736128E+01	1.55200719225E+02	-5.97412342137E+00	-7.20099186942E-01
1.65367263029E+06	-1.43329505737E+01	-7.83319772034E+00	9.96114904906E+00	1.53094086040E+02	-3.83469162143E+01	-1.47510637176E+02	-5.97445144707E+00	-7.75688328950E-01
1.67586398489E+06	-1.52132935012E+01	7.04772488846E+00	9.90861589412E+00	1.52815759323E+02	-5.86970923657E+01	-1.58917391690E+02	-5.98174705288E+00	-7.61087790509E-01
1.69805533948E+06	-1.57313005718E+01	-1.57081185509E+01	9.92183241059E+00	1.52269021647E+02	-5.78836245010E+01	2.45670885601E+01	-5.97316515899E+00	-8.59169236931E-01
1.72024669408E+06	-1.31754718422E+01	5.31672183115E-02	9.91893229402E+00	1.52016255260E+02	-4.56374893263E+01	-2.36577688930E+01	-5.98895235716E+00	-7.67100651212E-01
1.74243804867E+06	-1.39399383186E+01	-2.04169616815E+00	9.93085320054E+00	1.51659675544E+02	-5.14081595091E+01	8.27114709727E+01	-5.98728087705E+00	-9.75772311868E-01
1.76462940327E+06	-1.30911552344E+01	4.13535861364E+00	9.90498929769E+00	1.51460048926E+02	-4.90327286783E+01	6.06842930638E+01	-5.96834484140E+00	-8.48042192448E-01
1.78682075786E+06	-1.36149324997E+01	-2.03186863853E+00	9.89630516056E+00	1.50982590448E+02	-4.93427415633E+01	-1.46833304738E+02	-5.95651741351E+00	-7.77420065978E-01
1.80901211246E+06	-1.43605130426E+01	2.49254118105E+00	9.89295026399E+00	1.50537020102E+02	-4.87463138749E+01	-1.21441444481E+02	-5.96662811723E+00	-7.99365389102E-01
1.83120346705E+06	-1.27341298512E+01	1.89698267359E+01	9.87955032856E+00	1.50211222402E+02	-6.01247330771E+01	7.20560449770E+01	-5.97621288861E+00	-8.80359972123E-01
1.85339482165E+06	-1.31366255114E+01	3.51709005828E+00	9.87911950354E+00	1.49927928573E+02	-5.56885409929E+01	1.71927850447E+01	-5.98442748851E+00	-8.59324408933E-01
1.87558617624E+06	-1.41036530930E+01	7.80651901239E+00	9.84683679834E+00	1.49577491143E+02	-4.96579518492E+01	8.81431785976E+01	-5.96211126895E+00	-9.55260800849E-01
1.89777753084E+06	-1.59879696049E+01	2.23530684981E+00	9.85595572048E+00	1.49073675193E+02	-5.61431960882E+01	6.48322660814E+01	-5.97615355902E+00	-8.95277898312E-01
1.91996888543E+06	-1.40326231606E+01	7.29646378368E+00	9.83909140221E+00	1.48885977403E+02	-5.44029914700E+01	-1.15435322142E+02	-5.97942244526E+00	-8.93478019747E-01
1.94216024003E+06	-1.33683645757E+01	-1.65370306025E+00	9.84609604318E+00	1.48418892480E+02	-5.23346662891E+01	1.78124498618E+02	-5.96658573383E+00	-9.53666149192E-01
1.96435159462E+06	-1.29100878114E+01	-4.69680968924E-01	9.83278973815E+00	1.48146869474E+02	-6.53199404946E+01	6.46315142972E+01	-5.96420942843E+00	-9.14729668024E-01
1.98654294922E+06	-1.39079787380E+01	1.26912608065E-02	9.83342136891E+00	1.47732671028E+02	-5.47092448113E+01	-8.93463060370E+01	-5.97083430429E+00	-8.70581001654E-01
2.00873430381E+06	-1.41061558502E+01	2.21842356810E+00	9.81985108053E+00	1.47337478981E+02	-5.27343433497E+01	1.64864605761E+02	-5.95944019628E+00	-9.78846381576E-01
2.03092565841E+06	-1.31335742721E+01	8.46503933826E-01	9.81110086389E+00	1.47008570776E+02	-5.31557045812E+01	-1.24299729461E+01	-5.97834234741E+00	-9.12068080809E-01
2.05311701300E+06	-1.33161823925E+01	2.84302047555E+01	9.78624898899E+00	1.46576516887E+02	-6.01057248477E+01	-5.69229962752E+00	-5.98189615640E+00	-9.65820990830E-01
2.07530836760E+06	-1.56037361511E+01	1.74970177423E+00	9.77972475718E+00	1.46271393372E+02	-5.46512240880E+01	-1.51833660454E+02	-5.95706521660E+00	-9.42671707260E-01
2.09749972219E+06	-1.44822393987E+01	2.88775107275E+00	9.77424256806E+00	1.45894508995E+02	-5.25064117647E+01	1.17402469053E+02	-5.96494747343E+00	-1.02529759391E+00
2.11969107679E+06	-1.34268211236E+01	-5.55537597728E-01	9.76856105997E+00	1.45548069341E+02	-4.51318582056E+01	1.07959900409E+02	-5.97568917008E+00	-1.08054236923E+00
2.14188243138E+06	-1.25701377539E+01	1.40450590841E+01	9.75217642102E+00	1.45481108079E+02	-5.85754603898E+01	3.31805514568E+01	-5.97722083306E+00	-1.04895076475E+00
2.16407378598E+06	-1.74468977533E+01	-2.90073197076E+01	9.75766514450E+00	1.44763124239E+02	-5.04518985310E+01	3.82763607217E+01	-5.97586404125E+00	-1.06874512474E+00
2.18626514057E+06	-1.31527897626E+01	-1.18314135340E+00	9.74572884252E+00	1.44519589324E+02	-4.92912742889E+01	1.61776001077E+02	-5.95457276239E+00	-1.11636456953E+00
2.20845649517E+06	-1.41455844275E+01	1.13028261222E+01	9.72220212426E+00	1.44214032785E+02	-4.10938023412E+01	-1.57742380248E+00	-5.99635900488E+00	-1.04756973797E+00
2.23064784976E+06	-1.31395740003E+01	-7.23221208822E+00	9.72988308808E+00	1.43785856185E+02	-4.76670205297E+01	7.84884916359E+01	-5.97531241584E+00	-1.05630181533E+00
2.25283920436E+06	-1.35005972861E+01	6.66317050155E+00	9.69649350151E+00	1.43507112366E+02	-4.97067870940E+01	1.14621531603E+02	-5.96555680610E+00	-1.01870840143E+00
2.27503055895E+06	-1.66506462228E+01	6.97324108400E+00	9.67307381419E+00	1.43062014184E+02	-5.96625576652E+01	6.93334881927E+01	-5.98418597102E+00	-1.14591910907E+00
2.29722191355E+06	-1.28593468195E+01	-1.30472064697E+01	9.67731803421E+00	1.42685480820E+02	-7.17497582855E+01	-1.46698560744E+02	-5.98284183488E+00	-1.08068670636E+00
2.31941326814E+06	-1.38251416379E+01	1.57884568019E+00	9.67901608537E+00	1.42460705133E+02	-6.01668116690E+01	-6.20291063378E+01	-5.97418178966E+00	-1.08150662464E+00
2.34160462274E+06	-1.30277113537E+01	7.12537357146E+00	9.67439644113E+00	1.42193019100E+02	-4.55538368454E+01	1.24109003693E+02	-5.96115480203E+00	-1.12705893109E+00
2.36379597733E+06	-1.18750289160E+01	-5.66043480427E+00	9.68094190792E+00	1.41747294026E+02	-4.75270028255E+01	7.68800221758E+01	-5.97447441559E+00	-1.16930279953E+00
2.38598733193E+06	-1.28205788817E+01	-6.65792902719E-01	9.67846367259E+00	1.41313550793E+02	-5.62578468359E+01	1.40835735591E+02	-5.97305399943E+00	-1.20159684292E+00
2.40817868652E+06	-1.29582733195E+01	7.80568015134E+00	9.63329834074E+00	1.41069390278E+02	-4.88283095370E+01	-8.53641541784E+01	-5.97913235475E+00	-1.18856347233E+00
2.43037004112E+06	-1.33392968282E+01	4.39063844148E+00	9.61233551179E+00	1.40622008345E+02	-4.89002389812E+01	-1.78372106762E+02	-5.95639744065E+00	-1.53655460875E+00
2.45256139571E+06	-1.34484387147E+01	-6.79548150875E+00	9.63523028914E+00	1.40325153998E+02	-4.29596766752E+01	1.42497389565E+02	-5.96742774110E+00	-1.11917141803E+00
2.47475275031E+06	-1.28526445806E+01	8.85783312238E+00	9.60261899330E+00	1.40057915133E+02	-5.24192555833E+01	4.69659406845E+01	-5.97984400630E+00	-1.19228880434E+00
2.49694410490E+06	-1.43702454039E+01	6.77583904560E-01	9.58483046312E+00	1.39593761927E+02	-5.55137188594E+01	1.31186715931E+02	-5.97053528369E+00	-1.18516132218E+00
2.51913545950E+06	-1.27773817711E+01	-1.32722353437E+00	9.55676603831E+00	1.39299425378E+02	-5.93340470364E+01	-7.28389804857E+01	-5.97343867633E+00	-1.14982065627E+00
2.54132681409E+06	-1.34486968659E+01	-3.50916059537E+00	9.57809843160E+00	1.38938547115E+02	-4.77225985197E+01	-2.34988433007E+01	-6.00280080434E+00	-1.17063969061E+00
2.56351816869E+06	-1.49289370668E+01	9.72231462667E+00	9.53487076206E+00	1.38705993457E+02	-4.98929489151E+01	-1.04675279995E+02	-5.97494064573E+00	-1.17776922991E+00
2.58570952328E+06	-1.40131873679E+01	8.02400969518E-01	9.54265618369E+00	1.38297749200E+02	-5.69747818521E+01	-2.38350514424E+01	-5.98578703173E+00	-1.28944202448E+00
2.60790087788E+06	-1.37136689793E+01	2.42296054199E+00	9.53280447152E+00	1.37905969836E+02	-5.41989365700E+01	-2.69720566358E+01	-5.98044470171E+00	-1.11349458104E+00
2.63009223247E+06	-1.36828193240E+01	-1.25488758468E+01	9.51052319099E+00	1.37322587625E+02	-5.59836195168E+01	-1.47455997151E+02	-5.97794246265E+00	-7.65095070092E-01
2.65228358707E+06	-1.50666493239E+01	-1.27880026289E+00	9.50281506842E+00	1.37143042755E+02	-4.98045041542E+01	-1.78585180868E+02	-5.96589292138E+00	-1.27606116431E+00
2.67447494166E+06	-1.17018876811E+01	-3.02340273796E+00	9.52236477532E+00	1.36842488574E+02	-5.96509807405E+01	1.72546390689E+02	-5.96736882158E+00	-1.35041612039E+00
2.69666629626E+06	-1.43496545769E+01	4.15259247932E+00	9.49097123917E+00	1.36459988334E+02	-4.79781156716E+01	-6.59229523350E+01	-5.97238828932E+00	-1.31896098721E+00
2.71885765085E+06	-1.24862935211E+01	-1.07112248443E+01	9.49722978095E+00	1.36002578263E+02	-4.92938542469E+01	2.32136202383E+01	-5.98580779151E+00	-1.21435141658E+00
2.74104900545E+06	-1.21928730275E+01	-1.57910703483E+00	9.46505067818E+00	1.35693771328E+02	-5.76405518204E+01	-1.72136253145E+02	-5.96970649114E+00	-1.29840860656E+00
2.76324036004E+06	-1.32662216556E+01	-4.04540529380E+00	9.46555555379E+00	1.35375463229E+02	-4.40622573767E+01	-1.61298927625E+02	-5.96665407244E+00	-1.15465020029E+00
2.78543171463E+06	-1.36435803195E+01	-1.84456706576E+00	9.45410149811E+00	1.35014749724E+02	-5.03910142732E+01	-1.29140945751E+02	-5.97922880312E+00	-1.27219002978E+00
2.80762306923E+06	-1.40663467720E+01	-3.96202386312E+00	9.42806560359E+00	1.34698589298E+02	-5.60935706392E+01	7.09812695826E+01	-5.97588367287E+00	-1.31201761805E+00
2.82981442382E+06	-1.35067036190E+01	-2.17756154812E+00	9.41782963441E+00	1.34432011029E+02	-5.44563834501E+01	-5.59941121874E+00	-5.97274856001E+00	-1.29870661444E+00
2.85200577842E+06	-1.25686910527E+01	-1.45448890673E+01	9.42604940365E+00	1.33855404265E+02	-5.03706953986E+01	1.17399426046E+02	-5.97060081124E+00	-1.37795435224E+00
2.87419713301E+06	-1.48804461809E+01	-5.61361520883E+00	9.38075392580E+00	1.33540046465E+02	-5.80569936625E+01	1.25861224352E+02	-5.99474112685E+00	-1.30852437258E+00
2.89638848761E+06	-1.53662819165E+01	4.24239751762E+00	9.36317442240E+00	1.33245839706E+02	-5.05298544469E+01	1.51120947032E+02	-5.96306631257E+00	-1.39144204607E+00
