# Hz S DB R 50
! CMT, M5065, 19127446, 24.2.4/2
! Date: 11/8/2024 6:40:36 PM
! Data: Format (Calibration Info)
! Freq	S11:dB/Ang(F2)	S21:dB/Ang(F2)	S12:dB/Ang(F2)	S22:dB/Ang(F2)
3.00000000000E+05	-1.42979410412E+01	2.16948715066E+01	7.20581684781E-01	1.78514845526E+02	-6.26885282076E+01	-1.26058448220E+02	-5.96354150167E+00	-2.43311013093E-01
3.22191354595E+05	-1.30698095116E+01	2.11273050965E+01	7.54883235629E-01	1.78410921007E+02	-4.78615050563E+01	-8.86973182656E+01	-5.96819865045E+00	-2.23259602293E-01
3.44382709190E+05	-1.39671475873E+01	2.43987816508E+01	7.39271980897E-01	1.77615690817E+02	-5.58156856590E+01	3.83694945367E+01	-5.97121695128E+00	-3.01135142566E-01
3.66574063785E+05	-1.33819655336E+01	1.57477137696E+01	7.42352788652E-01	1.77320122994E+02	-5.07883827341E+01	-8.69631400844E+01	-5.97745246502E+00	-2.41875555291E-01
3.88765418380E+05	-1.40378399767E+01	2.69733027033E+01	6.89380954267E-01	1.77213129278E+02	-5.93889345964E+01	-1.41144443697E+02	-5.96982403891E+00	-2.51847728586E-01
4.10956772975E+05	-1.46911190178E+01	1.33536236572E+01	7.26084598849E-01	1.76731491142E+02	-5.02252766039E+01	5.97984049809E+01	-5.97298908379E+00	-3.90022835541E-01
4.33148127570E+05	-1.39175493445E+01	1.17158567770E+01	7.23034001879E-01	1.76434805032E+02	-6.31033031110E+01	4.10226051372E+00	-5.96136025890E+00	-3.23520316523E-01
4.55339482165E+05	-1.35379528081E+01	2.21483938638E+01	7.23625617835E-01	1.76146306828E+02	-5.50387756865E+01	1.01422037799E+02	-5.96346007298E+00	-2.88554894151E-01
4.77530836760E+05	-1.53919352379E+01	1.63751325211E+01	7.11788207115E-01	1.75936227471E+02	-6.77408307880E+01	-1.16974297270E+02	-5.95550720579E+00	-2.86323836252E-01
4.99722191355E+05	-1.42594568043E+01	1.16141584231E+01	7.24030183166E-01	1.75692910030E+02	-5.56839712642E+01	-6.08464418550E+01	-5.95712601813E+00	-3.56641793884E-01
5.21913545950E+05	-1.53750139219E+01	4.05131056566E+00	7.37840598454E-01	1.75417810656E+02	-5.43698313626E+01	-1.50027186317E+02	-5.96307027274E+00	-2.49160921591E-01
5.44104900545E+05	-1.42393980892E+01	2.29869637651E+01	7.09422489901E-01	1.75414401188E+02	-5.80008597625E+01	-1.14386623607E+02	-5.96578493214E+00	-2.51260319926E-01
5.66296255139E+05	-1.49468022542E+01	1.65604556827E+01	6.82901105850E-01	1.74857166715E+02	-4.75494757267E+01	-3.92832061377E+01	-5.96688092099E+00	-3.07413991464E-01
5.88487609734E+05	-1.51204678647E+01	9.32901861326E+00	6.82208203210E-01	1.74534630842E+02	-4.76912763555E+01	-1.25250392563E+02	-5.96138661766E+00	-3.79691294493E-01
6.10678964329E+05	-1.27231557718E+01	9.29667547867E+00	6.93138367158E-01	1.74476615576E+02	-6.16844845183E+01	-3.94504612449E+01	-5.97407643422E+00	1.02377808685E-01
6.32870318924E+05	-1.47004233315E+01	-1.24924711288E+01	7.18037387193E-01	1.73965602072E+02	-5.18957600782E+01	1.44129003954E+02	-5.96706554475E+00	-1.53304157997E-01
6.55061673519E+05	-1.39725834748E+01	8.63038769121E+00	6.86662238787E-01	1.73776894783E+02	-4.72438816037E+01	4.56954318411E+01	-5.96587498679E+00	-3.15665855194E-01
6.77253028114E+05	-1.39548838772E+01	7.72755652436E+00	7.00151147095E-01	1.73702182436E+02	-5.36836233372E+01	3.77196271156E+00	-5.97297096187E+00	-6.54417334673E-01
6.99444382709E+05	-1.33560701552E+01	2.82110138344E+00	6.71536571256E-01	1.73347607003E+02	-5.52792902670E+01	1.37117723681E+02	-5.97050564384E+00	-4.12501837662E-01
7.21635737304E+05	-1.41193379259E+01	-3.74184613532E+00	7.17821565218E-01	1.72843598908E+02	-4.47528289761E+01	-3.08298005877E+01	-5.98352602726E+00	-3.69335399204E-01
7.43827091899E+05	-1.26269207988E+01	1.81517565193E+01	6.82862440800E-01	1.72940352254E+02	-4.53907535786E+01	-1.06732687762E+01	-5.97261999607E+00	-3.84829410066E-01
7.66018446494E+05	-1.38912351638E+01	7.16482436534E+00	6.88303470049E-01	1.72764769310E+02	-5.55903332140E+01	-8.20578233132E+01	-5.97239223989E+00	-4.62648474611E-01
7.88209801089E+05	-1.28045522792E+01	6.71892250842E+00	6.70620914331E-01	1.72452443683E+02	-5.45216475892E+01	8.73537271226E+01	-5.98074373631E+00	-4.64382568858E-01
8.10401155684E+05	-1.45201811643E+01	9.15814158172E+00	6.93593653101E-01	1.72121037526E+02	-5.92863890775E+01	3.67682728990E+01	-5.96489665233E+00	-4.04689636315E-01
8.32592510279E+05	-1.49493425349E+01	1.70852653804E+00	6.66703656692E-01	1.71753691384E+02	-4.96841190744E+01	1.78316616408E+02	-5.96596317203E+00	-4.69361411171E-01
8.54783864874E+05	-1.35657643047E+01	1.51111893525E+01	6.86357933188E-01	1.71717083305E+02	-5.20735987445E+01	-5.58873312622E+01	-5.96865911075E+00	-3.92199258306E-01
8.76975219469E+05	-1.45448220635E+01	6.53477343984E+00	6.58997882475E-01	1.71518182654E+02	-4.64950086087E+01	-6.80341959359E+01	-5.98243021572E+00	-4.32500718202E-01
8.99166574064E+05	-1.45991089176E+01	-2.16973667609E+00	6.73530793373E-01	1.71043590951E+02	-5.52705998202E+01	-5.04372291646E+01	-5.97170826376E+00	-4.16687062323E-01
9.21357928659E+05	-1.38129839697E+01	1.68500208656E+00	6.76232764679E-01	1.70786794887E+02	-5.64708678353E+01	-4.84519994064E+01	-5.96796902585E+00	-4.89414059930E-01
9.43549283254E+05	-1.51340864997E+01	5.09089991588E+00	6.95383681575E-01	1.70688523245E+02	-5.73852149443E+01	1.09990252686E+02	-5.96224140640E+00	-5.18896527190E-01
9.65740637849E+05	-1.45501839462E+01	-7.74378719353E-01	6.84087013655E-01	1.70541027201E+02	-5.76217399384E+01	-2.48565608355E+01	-5.96733865051E+00	-5.06143413742E-01
9.87931992444E+05	-1.35134688179E+01	-1.03070640629E+00	7.29160214587E-01	1.70373032080E+02	-6.35826118334E+01	-8.07853231676E+01	-5.97617285912E+00	-5.75018634862E-01
1.01012334704E+06	-1.44512515863E+01	4.21082863134E+00	6.38655180468E-01	1.69928254443E+02	-5.01674297191E+01	1.35261285027E+02	-5.97049371111E+00	-5.36890775948E-01
1.03231470163E+06	-1.44338828389E+01	9.58617647818E+00	6.32908448784E-01	1.69780681274E+02	-6.65462443341E+01	9.45284626720E+01	-5.97778816450E+00	-4.84341520401E-01
1.05450605623E+06	-1.36600590111E+01	7.07372916521E+00	7.02653438545E-01	1.69323178911E+02	-5.51602066758E+01	1.75686859104E+02	-5.96897590646E+00	-5.13784456883E-01
1.07669741082E+06	-1.36015434059E+01	1.68821569611E+00	6.68593162032E-01	1.69395329218E+02	-5.16433177068E+01	1.28326699539E+01	-5.97213152947E+00	-4.79133984126E-01
1.09888876542E+06	-1.55379141122E+01	-4.00166987468E+00	6.59622070325E-01	1.68976124458E+02	-4.96615590843E+01	1.19895847957E+02	-5.96754338199E+00	-5.79744194070E-01
1.12108012001E+06	-1.31797294874E+01	4.09520450804E+00	6.58288677410E-01	1.68667389689E+02	-4.93636393866E+01	8.34122547864E+01	-5.97467050857E+00	-6.20103361677E-01
1.14327147461E+06	-1.29330178108E+01	1.69967760075E+01	6.64509633236E-01	1.68607577064E+02	-4.44212036155E+01	-7.05623968800E+01	-5.98378292321E+00	-5.35249182965E-01
1.16546282920E+06	-1.32795584435E+01	1.64440611341E+00	6.68103534102E-01	1.68316946047E+02	-5.31975962522E+01	-1.09291276836E+02	-5.95907320766E+00	-6.64577833187E-01
1.18765418380E+06	-1.41583022352E+01	1.09722706965E+00	6.70641318159E-01	1.68360868026E+02	-5.46349616277E+01	-1.12096127438E+02	-5.96444303668E+00	-5.99437435217E-01
1.20984553839E+06	-1.33966772337E+01	5.89639485092E+00	6.75747284937E-01	1.68205387746E+02	-5.33319455534E+01	5.66050854278E+01	-5.97469493996E+00	-7.01305958856E-01
1.23203689299E+06	-1.42759741054E+01	-1.14587245062E+01	6.49225097762E-01	1.67880017523E+02	-6.16721485038E+01	-5.50716723595E+00	-5.97404849363E+00	-3.52602448486E-01
1.25422824758E+06	-1.34618707450E+01	7.18635802251E+00	6.51287541487E-01	1.67477859694E+02	-4.93742293917E+01	1.40088509670E+01	-5.98241684261E+00	-5.69456527537E-01
1.27641960218E+06	-1.56981084088E+01	-1.29563955061E+01	6.40930269668E-01	1.67290046326E+02	-5.51740852493E+01	5.00742078097E+01	-5.98035428718E+00	-6.68057499833E-01
1.29861095677E+06	-1.57753651353E+01	-2.88992255940E+00	6.35717426299E-01	1.67043890498E+02	-5.28620940993E+01	-7.38440019399E+01	-5.97047641227E+00	-5.59995648670E-01
1.32080231137E+06	-1.03662171639E+01	-2.12897316649E+00	6.56772151095E-01	1.67005594156E+02	-5.09096272963E+01	-1.85464533504E+00	-5.97122586205E+00	-9.90055220223E-01
1.34299366596E+06	-1.51449149581E+01	4.24406361161E+00	6.06067949356E-01	1.66602832974E+02	-6.12002968933E+01	1.07576641385E+01	-5.97018075825E+00	-7.01176560534E-01
1.36518502056E+06	-1.34179532820E+01	8.48435912937E+00	6.42536792747E-01	1.66311554702E+02	-5.06582555193E+01	-1.38265605013E+02	-5.97338337530E+00	-6.35698740012E-01
1.38737637515E+06	-1.56059628776E+01	-1.64260169443E+00	6.28287678766E-01	1.65854329824E+02	-6.09281182113E+01	6.85611362700E+01	-5.97363191353E+00	-6.93677986620E-01
1.40956772975E+06	-1.45729196383E+01	1.87627056563E+00	6.13929713875E-01	1.65558098591E+02	-4.99545277053E+01	1.44125795327E+02	-5.97508890974E+00	-7.42857641694E-01
1.43175908434E+06	-1.29129690880E+01	-2.45823377847E+01	6.95277290367E-01	1.65157438371E+02	-6.42641429956E+01	-6.29190301140E+01	-5.96414281477E+00	-6.53173345921E-01
1.45395043894E+06	-1.43437661237E+01	-1.11965413743E+00	6.20522187795E-01	1.65176005769E+02	-5.13317100804E+01	-1.36067658099E+02	-5.97427021944E+00	-7.26671200615E-01
1.47614179353E+06	-1.53934494073E+01	2.38813458818E+00	5.96771488914E-01	1.64946511057E+02	-5.16621366074E+01	6.48527055357E+01	-5.96680530512E+00	-6.95460001869E-01
1.49833314813E+06	-1.48466044559E+01	-3.59384897227E+00	6.49011949257E-01	1.64864238293E+02	-4.99261111654E+01	8.95850340697E+01	-5.97309731750E+00	-7.17564588317E-01
1.52052450272E+06	-1.37608682206E+01	8.27352173842E+00	6.16621606794E-01	1.64725641923E+02	-5.67495011323E+01	3.88004062012E+01	-5.96022501891E+00	-7.42142094782E-01
1.54271585732E+06	-1.40018360282E+01	5.88377034692E+00	6.09412715118E-01	1.64755881977E+02	-5.39763876525E+01	8.64842012737E+01	-5.96624857230E+00	-7.40789808758E-01
1.56490721191E+06	-1.42146765584E+01	1.08642604233E+01	6.72657116108E-01	1.64157951813E+02	-5.22172546573E+01	1.22910880115E+02	-5.96603755419E+00	-7.62237957172E-01
1.58709856651E+06	-1.47536422577E+01	2.63202183987E+00	6.40563752737E-01	1.64130168173E+02	-4.54904419630E+01	-7.34569576618E+01	-5.97064534259E+00	-7.51067508208E-01
1.60928992110E+06	-1.37366313567E+01	-1.93702603564E+00	6.07944427437E-01	1.63764141463E+02	-4.83930676531E+01	-1.97114079545E+01	-5.96511979462E+00	-7.07848321044E-01
1.63148127570E+06	-1.30691018977E+01	4.59834194732E+00	6.39031140375E-01	1.63753799330E+02	-4.97114310610E+01	-7.27957534195E+01	-5.97526875903E+00	-7.29593739495E-01
1.65367263029E+06	-1.54820926700E+01	1.55239957505E+01	6.24101477951E-01	1.63332541840E+02	-6.02845445669E+01	7.33584315739E+01	-5.97752250538E+00	-8.44135058959E-01
1.67586398489E+06	-1.49156007513E+01	1.26918796067E+00	6.04565484492E-01	1.63127950067E+02	-4.64983759203E+01	-1.64786296762E+02	-5.96410510413E+00	-7.87330953685E-01
1.69805533948E+06	-1.46235155161E+01	5.93582664935E+00	6.34893470879E-01	1.62798533499E+02	-4.70290910947E+01	-3.57537315801E+01	-5.97679397294E+00	-7.94035225165E-01
1.72024669408E+06	-1.43174205129E+01	-1.99502464870E+00	6.10921671474E-01	1.62659272485E+02	-3.75001386062E+01	-6.35365654426E+01	-5.97492894451E+00	-8.20496272555E-01
1.74243804867E+06	-1.32419617682E+01	-3.29599344391E-01	6.53020120086E-01	1.62470391668E+02	-6.40690148295E+01	5.92318818290E+01	-5.96862381734E+00	-8.42999784097E-01
1.76462940327E+06	-1.36604486083E+01	1.18183157462E+00	6.15018273461E-01	1.62176966530E+02	-5.09005005816E+01	7.78198602112E+01	-5.98049831434E+00	-8.44716198347E-01
1.78682075786E+06	-1.34745994857E+01	-3.99997375658E+01	6.34775634015E-01	1.61928834051E+02	-5.37511043136E+01	-3.66861772448E+01	-5.96914389540E+00	-8.22695199313E-01
1.80901211246E+06	-1.23747898011E+01	-1.80084269800E+00	6.48942116133E-01	1.61979410575E+02	-5.14574900937E+01	-6.30345071320E+00	-5.96897808115E+00	-8.63398611942E-01
1.83120346705E+06	-1.52440721661E+01	1.19747819271E+01	5.81768879894E-01	1.61277830207E+02	-4.64222035220E+01	-6.07202098344E+01	-5.97950885021E+00	-8.04036670185E-01
1.85339482165E+06	-1.46693077500E+01	1.35422150955E+00	5.96086929457E-01	1.61134558563E+02	-4.62481763786E+01	-1.00668831578E+02	-5.96984966208E+00	-8.24868994664E-01
1.87558617624E+06	-1.39479355352E+01	1.13531617051E+01	5.96535063276E-01	1.60878987072E+02	-5.57333554224E+01	-1.19182189076E+00	-5.97812236366E+00	-8.94890524601E-01
1.89777753084E+06	-1.99311171012E+01	-6.97715912748E+01	6.51787939530E-01	1.60416818651E+02	-4.65791462278E+01	1.27517792893E+02	-5.96856490829E+00	-9.59749549430E-01
1.91996888543E+06	-1.48102399313E+01	3.77464652203E+00	6.04536447023E-01	1.60475153819E+02	-4.80586500484E+01	1.73325065923E+02	-5.97039203260E+00	-9.64459337471E-01
1.94216024003E+06	-1.28660538639E+01	5.33148025995E+00	5.87713134527E-01	1.60429479120E+02	-5.36721286412E+01	-2.46399250431E+01	-5.97567434455E+00	-9.08343179703E-01
1.96435159462E+06	-1.31575054675E+01	4.49825814505E+00	5.96725391803E-01	1.60060407870E+02	-5.50860273976E+01	1.53025743298E+02	-5.96963520983E+00	-9.23435981829E-01
1.98654294922E+06	-1.40778127969E+01	-3.74607524673E+00	5.87661392962E-01	1.59844611755E+02	-5.53568106263E+01	-1.53000512687E+01	-5.97307558087E+00	-9.67264515797E-01
2.00873430381E+06	-1.15293631592E+01	9.22297847471E+00	6.27014545228E-01	1.59810135480E+02	-5.17324708071E+01	6.64513943312E+01	-5.97352673669E+00	-9.33962420446E-01
2.03092565841E+06	-1.34328928832E+01	-2.85145674605E+00	5.48782204038E-01	1.59362026694E+02	-4.71319987880E+01	-4.98188973666E+00	-5.97782018928E+00	-8.52626123728E-01
2.05311701300E+06	-1.26983047709E+01	8.16973876483E-01	5.78016793477E-01	1.59335872695E+02	-4.77803890460E+01	-7.05509577658E+01	-5.98046770750E+00	-9.61130402373E-01
2.07530836760E+06	-1.43412260362E+01	-7.19844311206E-01	5.42121896436E-01	1.59025797439E+02	-5.05202441440E+01	1.84507871162E+01	-5.97847581561E+00	-9.69314666009E-01
2.09749972219E+06	-1.36092653839E+01	-1.65597826598E-01	5.54862913210E-01	1.58970107828E+02	-5.25779240091E+01	1.37698409918E+02	-5.96662025730E+00	-9.75972530586E-01
2.11969107679E+06	-1.50860235254E+01	4.08730196228E+00	5.40229831294E-01	1.58718897033E+02	-4.83155208586E+01	1.21130135013E+02	-5.96955991673E+00	-1.02397812062E+00
2.14188243138E+06	-1.28069403079E+01	-1.45602121776E+00	5.40050481644E-01	1.58286556713E+02	-5.64683919203E+01	1.18865720558E+02	-5.97571620591E+00	-1.02538741477E+00
2.16407378598E+06	-1.36518369441E+01	3.91388182355E+00	5.26204761350E-01	1.58099572428E+02	-4.85790794431E+01	-3.51008046131E+01	-5.97013620521E+00	-1.07320967635E+00
2.18626514057E+06	-1.58834756763E+01	4.21860101245E+00	5.92145905508E-01	1.57940264779E+02	-4.04508402315E+01	-2.60473157088E+01	-5.97969788161E+00	-1.03410238165E+00
2.20845649517E+06	-1.42001693293E+01	-3.63257682648E+00	5.94298468724E-01	1.57624398689E+02	-4.74477646151E+01	5.82633238994E+01	-5.96902674241E+00	-1.08284141111E+00
2.23064784976E+06	-1.27220438029E+01	1.23490109466E+01	5.40601644954E-01	1.57484322797E+02	-4.89595069070E+01	-1.16385305732E+02	-5.97457157850E+00	-1.09906065369E+00
2.25283920436E+06	-1.37837373062E+01	-2.32684650772E+01	5.92585076413E-01	1.57296610251E+02	-5.31161700591E+01	-1.18293693542E+02	-5.96580237901E+00	-1.06011099076E+00
2.27503055895E+06	-1.54061873044E+01	6.12433736212E+00	5.21546653943E-01	1.56792070756E+02	-5.74904768220E+01	7.07815373719E+01	-5.96756372768E+00	-9.46568434063E-01
2.29722191355E+06	-1.54274768887E+01	6.91300821359E+00	5.31618011858E-01	1.56733896787E+02	-3.60072470886E+01	-1.12960713707E+01	-5.96295055303E+00	-1.14579338034E+00
2.31941326814E+06	-1.48023451874E+01	-3.97389947010E+00	5.22540122517E-01	1.56372485252E+02	-5.42600442200E+01	-9.44885477730E+01	-5.98092188629E+00	-1.05980265685E+00
2.34160462274E+06	-1.24842988997E+01	-7.65297314013E+00	5.39778036059E-01	1.56425827889E+02	-5.70092148467E+01	-2.19599335453E+01	-5.97792760121E+00	-1.08889801159E+00
2.36379597733E+06	-1.40929705958E+01	-1.72754259097E+01	5.53792906836E-01	1.56211694794E+02	-4.60424056049E+01	2.58345941583E+01	-5.98128082922E+00	-1.13507398725E+00
2.38598733193E+06	-1.45607691057E+01	2.83220811668E+00	5.42099934165E-01	1.55811569120E+02	-4.80694595864E+01	1.63235995895E+02	-5.96876444489E+00	-1.14627889546E+00
2.40817868652E+06	-1.36068046361E+01	5.85761770779E-01	5.74783667542E-01	1.55945271367E+02	-3.82338830890E+01	-1.70307920446E+02	-5.95501700014E+00	-1.20310309665E+00
2.43037004112E+06	-1.32357819374E+01	1.30958288748E+01	5.26605763459E-01	1.55507519779E+02	-5.11112059936E+01	1.76218634593E+02	-5.97760531067E+00	-1.50265652928E+00
2.45256139571E+06	-1.43175994093E+01	4.61750860679E+00	4.83545641406E-01	1.55214749580E+02	-5.53214732080E+01	5.47613117554E+01	-5.98513444813E+00	-1.13971708042E+00
2.47475275031E+06	-1.42646179930E+01	9.66852005987E+00	4.91579492017E-01	1.54977537669E+02	-4.80126543349E+01	-6.59250738373E+01	-5.97411542922E+00	-1.17747174101E+00
2.49694410490E+06	-1.34584335004E+01	1.53214731282E+00	4.78223703647E-01	1.54649828600E+02	-4.60095603692E+01	6.66751305549E+00	-5.98090953296E+00	-1.15704529038E+00
2.51913545950E+06	-1.39224138244E+01	-8.80078748398E+00	5.27802347593E-01	1.54449479178E+02	-3.95019052913E+01	-8.09977140231E+01	-5.99262161448E+00	-1.11729642749E+00
2.54132681409E+06	-1.30635776693E+01	-3.46211670571E-01	5.37844636067E-01	1.54387329560E+02	-4.64122245396E+01	3.94738431897E+00	-5.98515573774E+00	-1.16212641202E+00
2.56351816869E+06	-1.56094657691E+01	-3.25190517489E+00	4.91272250023E-01	1.54026631247E+02	-5.51494743591E+01	1.72965153097E+02	-5.97342414777E+00	-1.15472314958E+00
2.58570952328E+06	-1.27549663750E+01	2.19359423724E+01	4.87126921974E-01	1.54244933326E+02	-4.81412729911E+01	5.45138323627E+01	-5.98790667981E+00	-1.20006870680E+00
2.60790087788E+06	-1.41206611838E+01	-2.25910602946E+00	5.41394292806E-01	1.53692936911E+02	-6.32986838820E+01	-6.98667191150E+01	-5.97397990439E+00	-1.02654260441E+00
2.63009223247E+06	-1.42927715718E+01	-1.16943905622E+01	4.99649794569E-01	1.53355360127E+02	-5.67534562905E+01	-7.45483647196E+01	-5.97353876509E+00	-8.57524970716E-01
2.65228358707E+06	-1.25177630027E+01	2.92736748879E+00	5.40304174252E-01	1.53328166035E+02	-5.76163572363E+01	-1.56230612810E+02	-5.97487394289E+00	-1.22792717731E+00
2.67447494166E+06	-1.40559259453E+01	3.99536238741E+00	4.75135340739E-01	1.53093274044E+02	-4.98194883230E+01	1.79347224427E+02	-5.96436831202E+00	-1.22900749478E+00
2.69666629626E+06	-1.47241590470E+01	-1.89263045820E+01	4.92575271208E-01	1.52689627178E+02	-6.08365156259E+01	9.51505394964E+01	-5.97354030142E+00	-1.26613990966E+00
2.71885765085E+06	-1.34095674484E+01	5.00742605002E+00	4.54053129285E-01	1.52517659831E+02	-5.76709357514E+01	-1.62919199218E+02	-5.97996103496E+00	-1.22266943288E+00
2.74104900545E+06	-1.43756819861E+01	-4.61392544732E+00	5.03763637512E-01	1.52155294258E+02	-4.60205624996E+01	7.91369024021E+01	-5.96596612027E+00	-1.30141006631E+00
2.76324036004E+06	-1.37883118497E+01	-5.02536555770E+00	4.82656672984E-01	1.52057159289E+02	-4.19559839216E+01	5.29690475954E+01	-5.95885616558E+00	-1.40600811217E+00
2.78543171463E+06	-1.55428451407E+01	2.16816785705E+00	4.49151104131E-01	1.51797587829E+02	-6.20784430561E+01	1.30250135477E+02	-5.97244794066E+00	-1.30431623021E+00
2.80762306923E+06	-1.40429614505E+01	-1.09654438032E+01	4.86753192987E-01	1.51106715940E+02	-5.02580754921E+01	1.64434026789E+01	-5.98028476085E+00	-1.31953399002E+00
2.82981442382E+06	-1.59904509062E+01	-1.03307428429E+01	4.80070553162E-01	1.51195636402E+02	-6.16578161452E+01	1.62794038077E+02	-5.96007950213E+00	-1.29361177955E+00
2.85200577842E+06	-1.32672088399E+01	3.26388471010E+00	4.78220413036E-01	1.51324832251E+02	-5.56216315660E+01	-1.72770817618E+02	-5.96784346414E+00	-1.26545694337E+00
2.87419713301E+06	-1.32799691984E+01	1.47259826889E+01	4.44387257753E-01	1.51132368821E+02	-4.42142358990E+01	9.84370622615E+00	-5.98381746270E+00	-1.34722401508E+00
2.89638848761E+06	-1.42747806882E+01	-9.09720573267E-01	4.25002998819E-01	1.50561811570E+02	-6.25085253295E+01	1.46797719330E+01	-5.97060599417E+00	-1.40697232941E+00
