# Hz S DB R 50
! CMT, M5065, 19127446, 24.2.4/2
! Date: 11/8/2024 6:49:58 PM
! Data: Format (Calibration Info)
! Freq	S11:dB/Ang(F2)	S21:dB/Ang(F2)	S12:dB/Ang(F2)	S22:dB/Ang(F2)
3.00000000000E+05	-1.50821407177E+01	1.22430054766E+01	1.85923648033E+01	1.79575665658E+02	-6.55872859546E+01	-1.28959988020E+02	-5.92503337082E+00	-5.88938554541E-01
3.22191354595E+05	-1.30673599908E+01	1.67893011579E+01	1.86233450665E+01	1.78084184158E+02	-5.34043351171E+01	5.60265867875E+01	-5.94199355059E+00	-6.94604134977E-01
3.44382709190E+05	-1.52521353005E+01	9.68588993816E+00	1.86095150709E+01	1.76713282426E+02	-5.15102512799E+01	-2.39091961792E+01	-5.97144656546E+00	-4.85719746201E-01
3.66574063785E+05	-1.37058850334E+01	3.32411996296E+00	1.86034461326E+01	1.75517056465E+02	-4.77354822500E+01	3.71534326633E+01	-5.97447889105E+00	-5.44419947355E-01
3.88765418380E+05	-1.41699492496E+01	1.14300734861E+01	1.85928792102E+01	1.74184445323E+02	-4.68825977091E+01	-1.39673767844E+02	-5.96141936782E+00	-2.45320576034E-01
4.10956772975E+05	-1.37376158486E+01	1.02622380835E+01	1.85569081074E+01	1.73284450293E+02	-5.00428126536E+01	1.56370435551E+02	-5.95154113793E+00	-4.47979686029E-01
4.33148127570E+05	-1.32782893857E+01	1.91442248798E+01	1.85666212668E+01	1.72222413848E+02	-5.31226886865E+01	1.28968056027E+02	-5.94889940545E+00	-5.91714107720E-01
4.55339482165E+05	-1.40563735431E+01	-1.51676560542E+00	1.85513475307E+01	1.70956899061E+02	-4.33023825681E+01	-4.56911068994E+01	-5.98414960377E+00	-2.14455213300E-01
4.77530836760E+05	-1.52489644763E+01	2.07574676653E+01	1.85206012058E+01	1.70098993488E+02	-5.02167533953E+01	-6.33021903483E+00	-5.99027470811E+00	-4.78375412624E-01
4.99722191355E+05	-1.46183020119E+01	1.72403651146E+01	1.85029115730E+01	1.69106495004E+02	-6.22474240836E+01	-1.19135111871E+02	-5.96790818455E+00	-4.35457174383E-01
5.21913545950E+05	-1.49653368786E+01	2.45236352315E+00	1.84776367900E+01	1.68038764708E+02	-4.71628923570E+01	1.55897568584E+02	-5.94270145600E+00	-5.80104547945E-01
5.44104900545E+05	-1.32799276469E+01	6.69495354649E+00	1.84658818533E+01	1.67235000822E+02	-4.87280706828E+01	1.08186395637E+02	-5.98331352433E+00	-7.63995546251E-01
5.66296255139E+05	-1.35483891426E+01	-2.46359184816E+00	1.84436033900E+01	1.66081058512E+02	-5.99580397535E+01	1.90429479273E+00	-5.95904568509E+00	-4.35667148836E-01
5.88487609734E+05	-1.46083019568E+01	1.14273375479E+01	1.84092396368E+01	1.65406815803E+02	-6.19460549583E+01	-8.85752741946E+01	-5.99166396031E+00	-4.14177676781E-01
6.10678964329E+05	-1.32469474972E+01	7.25952613128E+00	1.84034393449E+01	1.64583916140E+02	-6.49118021228E+01	1.73166480086E+02	-5.98502207431E+00	6.11959548592E-02
6.32870318924E+05	-1.38739764253E+01	5.17633203884E+00	1.83694665274E+01	1.63611389165E+02	-4.32758818406E+01	-4.37222012896E+01	-5.99690364756E+00	-2.36809566244E-01
6.55061673519E+05	-1.41592740516E+01	7.75931958146E+00	1.83387509110E+01	1.62842218476E+02	-4.90052663863E+01	-2.91813501383E+01	-5.98999035857E+00	-3.00444379875E-01
6.77253028114E+05	-1.57125772770E+01	-1.05426248299E+00	1.82932214259E+01	1.61875034406E+02	-5.25524606120E+01	4.10935993473E+01	-5.98831062429E+00	-8.79044674107E-01
6.99444382709E+05	-1.34829103562E+01	2.59163884871E+00	1.83009425982E+01	1.61123206161E+02	-5.08468090918E+01	1.48846892214E+02	-5.94563629538E+00	-5.69592449867E-01
7.21635737304E+05	-1.48003156007E+01	1.44726910752E+01	1.82552334804E+01	1.60333320258E+02	-5.10017838881E+01	3.75927590599E+01	-6.00370471624E+00	-6.23058049295E-01
7.43827091899E+05	-1.39746702170E+01	1.76464646287E+00	1.82409359373E+01	1.59563228804E+02	-5.62757361336E+01	-9.46062152621E+01	-5.97582435476E+00	-4.93318095791E-01
7.66018446494E+05	-1.57551953821E+01	1.08669308499E+01	1.81905427967E+01	1.58842093610E+02	-5.17928732157E+01	-1.31553862818E+02	-5.96256370954E+00	-4.50744767495E-01
7.88209801089E+05	-1.50785546928E+01	1.78887882927E+01	1.81679706580E+01	1.58169347338E+02	-5.28246182889E+01	-2.04067315302E+01	-5.98876331622E+00	-4.80862011180E-01
8.10401155684E+05	-1.41743760039E+01	1.13886994505E+00	1.81505138028E+01	1.57266328619E+02	-4.86554151886E+01	7.87593505051E+01	-5.98137067589E+00	-8.38606721038E-01
8.32592510279E+05	-1.56531876541E+01	5.00622190820E+00	1.81166933714E+01	1.56479343716E+02	-4.41393158230E+01	3.96773224452E+01	-5.99408797097E+00	-6.76734731897E-01
8.54783864874E+05	-1.51004981220E+01	-3.62051275027E+00	1.80833799926E+01	1.55776186813E+02	-6.80293506288E+01	3.71558842972E-02	-5.96731854986E+00	-5.00754472580E-01
8.76975219469E+05	-1.36429130341E+01	8.58190815170E+00	1.80872023771E+01	1.55148788044E+02	-5.20970434157E+01	1.30554337282E+02	-5.96833393734E+00	-6.21087007584E-01
8.99166574064E+05	-1.39241591095E+01	3.47155839943E-01	1.80426840814E+01	1.54322822806E+02	-4.82414461492E+01	-1.67877083413E+02	-5.94886890437E+00	-6.26998428718E-01
9.21357928659E+05	-1.31451882319E+01	1.09869564335E+01	1.80149513213E+01	1.53663911470E+02	-4.87088824633E+01	8.69213346502E+01	-5.95072343917E+00	-7.83599967810E-01
9.43549283254E+05	-1.47146854764E+01	1.90817608595E-01	1.79726822597E+01	1.52944942792E+02	-5.37044429313E+01	-1.57871486295E+02	-5.97312074818E+00	-5.35166997180E-01
9.65740637849E+05	-1.49092849068E+01	1.45656190438E+01	1.79411811133E+01	1.52271460210E+02	-5.57462960122E+01	-1.05189891465E+02	-5.95024676447E+00	-4.67757107612E-01
9.87931992444E+05	-1.42470488584E+01	2.35612687692E+00	1.79156562768E+01	1.51438353826E+02	-5.17616370598E+01	-1.35522027057E+02	-5.94618166211E+00	-5.84131700778E-01
1.01012334704E+06	-1.38716367849E+01	6.05152137711E+00	1.78761987065E+01	1.50852749172E+02	-5.64645687958E+01	3.90168433216E+01	-5.98347303634E+00	-6.38212579254E-01
1.03231470163E+06	-1.50492330372E+01	-1.01130384307E+01	1.78461688495E+01	1.50178777348E+02	-4.82662981696E+01	-1.63402006939E+02	-5.94400027993E+00	-5.01555779688E-01
1.05450605623E+06	-1.33728217581E+01	8.90011573420E+00	1.78037780541E+01	1.49729400859E+02	-5.84158238824E+01	1.67391067491E+02	-5.96272650167E+00	-6.70551804356E-01
1.07669741082E+06	-1.33654730546E+01	-6.40241318996E+00	1.77881692333E+01	1.48820029431E+02	-4.94815536381E+01	4.41835747297E+00	-6.00795010071E+00	-4.92684383378E-01
1.09888876542E+06	-1.45020994356E+01	-4.34658923445E-02	1.77501071700E+01	1.48133736409E+02	-5.72593341868E+01	1.65200595749E+02	-5.97189463910E+00	-6.85360976151E-01
1.12108012001E+06	-1.46556658656E+01	-6.45744989795E+00	1.77085816887E+01	1.47434215511E+02	-5.74519947614E+01	-2.16412468762E+01	-6.00661524737E+00	-6.52693265073E-01
1.14327147461E+06	-1.50428602583E+01	3.98381559145E+00	1.76751707325E+01	1.46862970870E+02	-5.04009019774E+01	1.39311735594E+02	-5.96006590166E+00	-6.51385425523E-01
1.16546282920E+06	-1.30438968766E+01	1.81413514984E+00	1.76707873279E+01	1.46214124223E+02	-5.55559565257E+01	1.29524850642E+02	-5.98569268476E+00	-7.93721428666E-01
1.18765418380E+06	-1.31800457759E+01	5.67013572586E+00	1.76235297948E+01	1.45685328407E+02	-4.54363903477E+01	6.45299371191E+01	-5.98997130728E+00	-8.33663765635E-01
1.20984553839E+06	-1.47096421333E+01	1.49097877167E+00	1.75651519035E+01	1.44997181096E+02	-4.22309114558E+01	8.19867106585E+01	-5.99042308206E+00	-1.08817335155E+00
1.23203689299E+06	-1.36398732076E+01	-1.67584891917E+00	1.75307879590E+01	1.44290406259E+02	-5.29969259410E+01	6.13430068238E+01	-5.98535904090E+00	-5.07416800301E-01
1.25422824758E+06	-1.34111798576E+01	8.68031911481E+00	1.75085045030E+01	1.43706494691E+02	-4.95200746798E+01	7.15537313492E+01	-5.97828461860E+00	-7.74498948480E-01
1.27641960218E+06	-1.36167007309E+01	1.38808118962E+00	1.74740511049E+01	1.43135940710E+02	-5.46588866253E+01	1.08618360232E+02	-5.97773329290E+00	-7.36653164460E-01
1.29861095677E+06	-1.35852940658E+01	1.09846056176E+01	1.74406363022E+01	1.42530951508E+02	-5.35848445047E+01	1.33847837280E+02	-5.98164505992E+00	-6.51486994259E-01
1.32080231137E+06	-1.35794011779E+01	-8.56837881401E-01	1.74120092973E+01	1.41753775603E+02	-4.87358177563E+01	1.13579749466E+02	-5.97364789693E+00	-1.21136065658E+00
1.34299366596E+06	-1.46512582667E+01	1.82960913846E+01	1.73410705936E+01	1.41334023631E+02	-4.98191890797E+01	2.44966948316E+01	-5.97844355465E+00	-8.28339147083E-01
1.36518502056E+06	-1.54025964260E+01	6.23379369793E+00	1.73268712232E+01	1.40615749085E+02	-4.72525445235E+01	-1.10580440543E+02	-5.96784017885E+00	-6.39894868281E-01
1.38737637515E+06	-1.36650774992E+01	2.74387584738E+00	1.72890870317E+01	1.39981212579E+02	-4.66553078488E+01	1.75210807350E+02	-5.95560276159E+00	-7.63322397094E-01
1.40956772975E+06	-1.36942128617E+01	-3.96206729199E+00	1.72612330384E+01	1.39333385763E+02	-5.25652925205E+01	2.18179544341E+01	-5.99960867009E+00	-7.14817856336E-01
1.43175908434E+06	-1.34856608344E+01	9.45078067660E+00	1.72144753465E+01	1.38923118477E+02	-4.84942344825E+01	1.17127806847E+02	-5.98398859645E+00	-8.25437302648E-01
1.45395043894E+06	-1.47502024700E+01	6.44896162839E-01	1.71970810708E+01	1.38196260831E+02	-4.76909847475E+01	1.51087957947E+01	-6.00016116372E+00	-7.14509673827E-01
1.47614179353E+06	-1.61847631134E+01	-1.13524207179E+01	1.71289772319E+01	1.37409496910E+02	-4.67731380176E+01	1.54262297843E+00	-6.00683396187E+00	-7.20548575743E-01
1.49833314813E+06	-1.28531034247E+01	-7.34848945815E+00	1.71247023881E+01	1.37000114026E+02	-5.82169641064E+01	-1.01709793047E+02	-5.96984210434E+00	-7.67109365546E-01
1.52052450272E+06	-1.59652492423E+01	-3.26967326219E+00	1.70539437015E+01	1.36435624034E+02	-5.35472858141E+01	-1.42364735782E+02	-5.95198694365E+00	-6.78586500520E-01
1.54271585732E+06	-1.33595521845E+01	5.84042570580E+00	1.70348931335E+01	1.35933083170E+02	-5.12972580982E+01	-1.96595042212E+01	-5.98411770178E+00	-7.86850989098E-01
1.56490721191E+06	-1.32759293038E+01	-5.40121561137E+00	1.70136290093E+01	1.35393446694E+02	-4.61864873958E+01	2.95831907097E+01	-5.98800088769E+00	-7.80983931859E-01
1.58709856651E+06	-1.52327747979E+01	-5.90987972979E+00	1.69454162781E+01	1.34657279521E+02	-5.06438414136E+01	2.33736900700E+01	-5.99740214229E+00	-7.92883764471E-01
1.60928992110E+06	-1.36955207382E+01	-1.94672725085E+00	1.69236473614E+01	1.34144856447E+02	-5.65386644702E+01	8.07378549839E+01	-5.99688511693E+00	-9.37786355760E-01
1.63148127570E+06	-1.40855618278E+01	-6.82814558454E+00	1.68811008158E+01	1.33537613223E+02	-5.81839153108E+01	1.07514727785E+02	-5.99385715599E+00	-8.37144310860E-01
1.65367263029E+06	-1.33770198723E+01	-7.23744693336E-01	1.68452708062E+01	1.33031470487E+02	-5.03065911481E+01	1.06716457064E+02	-5.98992202648E+00	-9.53934920676E-01
1.67586398489E+06	-1.33727890462E+01	7.57268569605E-01	1.68131348708E+01	1.32585193149E+02	-4.45662911705E+01	-4.93302880930E+00	-5.98760358277E+00	-6.80957597460E-01
1.69805533948E+06	-1.54948969898E+01	-5.76471732571E+00	1.67516257860E+01	1.31871645252E+02	-5.83298447855E+01	-6.99092354878E+01	-5.97739639463E+00	-8.53669717199E-01
1.72024669408E+06	-1.69481487636E+01	2.95406751014E+01	1.67113872614E+01	1.31568482012E+02	-4.65825446270E+01	-9.40838066707E+01	-5.96698085067E+00	-6.82555203101E-01
1.74243804867E+06	-1.58652911480E+01	-4.47962239033E+00	1.66610820233E+01	1.30635114394E+02	-6.33072711413E+01	-7.34603483131E+01	-5.93232070528E+00	-8.78941397001E-01
1.76462940327E+06	-1.49274942321E+01	2.29726943149E+00	1.66428656080E+01	1.30260999143E+02	-4.98589707845E+01	-1.25625406257E+02	-5.93618459143E+00	-7.58372643221E-01
1.78682075786E+06	-1.35957470549E+01	-9.22185421779E+00	1.66122740116E+01	1.29645073977E+02	-5.06733705292E+01	1.24920416038E+02	-5.98825722999E+00	-9.25473826589E-01
1.80901211246E+06	-1.40010970825E+01	-2.00500190929E+00	1.65670275632E+01	1.29167326060E+02	-4.56748936166E+01	-1.45544547435E+02	-5.94967370312E+00	-8.51629109037E-01
1.83120346705E+06	-1.59907601012E+01	1.77769511126E+01	1.65083397836E+01	1.28745366554E+02	-4.85140962897E+01	-7.12196706760E+01	-5.95789252947E+00	-7.43722345959E-01
1.85339482165E+06	-1.34077222555E+01	1.35082505795E+00	1.64947393488E+01	1.28118656698E+02	-5.18054233827E+01	-1.08371821165E+00	-5.98381938013E+00	-7.87835129216E-01
1.87558617624E+06	-1.31563505161E+01	2.16367518321E+00	1.64622242352E+01	1.27653163318E+02	-5.29601363477E+01	1.41393624805E+02	-5.96056629865E+00	-9.36936224963E-01
1.89777753084E+06	-1.26352067771E+01	9.58090126071E+00	1.64136693288E+01	1.27211786983E+02	-4.30396266849E+01	-3.33457914486E+00	-6.01172414965E+00	-7.96165876983E-01
1.91996888543E+06	-1.39285797559E+01	1.89829925926E-02	1.63649585565E+01	1.26542898199E+02	-5.95810641761E+01	5.29549537168E+01	-5.98225471099E+00	-9.18053735297E-01
1.94216024003E+06	-1.44072940945E+01	-1.68939712545E+01	1.63258084520E+01	1.25995631820E+02	-6.43139450305E+01	8.29731571184E+01	-5.97819622726E+00	-9.26887123259E-01
1.96435159462E+06	-1.32921285112E+01	-8.64000883295E+00	1.63009438930E+01	1.25371604152E+02	-5.47181596420E+01	1.55327357915E+02	-5.95394837982E+00	-9.95707736425E-01
1.98654294922E+06	-1.35604920422E+01	1.08968317410E+01	1.62289060188E+01	1.25101507119E+02	-5.03596552534E+01	-1.71769815708E+02	-5.94459129389E+00	-1.06775828480E+00
2.00873430381E+06	-1.36248006138E+01	3.16779154360E+00	1.62102909100E+01	1.24590890913E+02	-4.08018887775E+01	3.93419252550E+01	-6.00952970987E+00	-9.65114565574E-01
2.03092565841E+06	-1.35994324220E+01	5.72065575788E+00	1.61692689292E+01	1.24092371942E+02	-4.89625316435E+01	8.78060542142E+01	-5.99490028917E+00	-1.24510976640E+00
2.05311701300E+06	-1.09801888665E+01	1.29824880185E+01	1.61432481509E+01	1.23663319097E+02	-5.10835360033E+01	-4.49323865746E+01	-5.98589263828E+00	-9.51677752119E-01
2.07530836760E+06	-1.27471162672E+01	-2.30399240409E+00	1.60987855397E+01	1.23051685676E+02	-5.40058535757E+01	-6.48547730805E+01	-5.97526164820E+00	-1.01077143458E+00
2.09749972219E+06	-1.38444693220E+01	-6.69713514377E+00	1.60395108432E+01	1.22360553764E+02	-4.89430001179E+01	2.80569809975E+01	-5.99732313466E+00	-1.03927491320E+00
2.11969107679E+06	-1.48863514430E+01	-1.14118503384E+01	1.60051520063E+01	1.21921916229E+02	-4.74262807094E+01	-1.54879922148E+02	-5.95546122661E+00	-1.08279996995E+00
2.14188243138E+06	-1.37186361860E+01	4.13947623825E+00	1.59579198975E+01	1.21513109370E+02	-4.49006886148E+01	-1.82872680425E+01	-5.96846534287E+00	-8.69603917111E-01
2.16407378598E+06	-1.35161536007E+01	-7.97873680290E+00	1.59211310423E+01	1.21088936531E+02	-5.04121739335E+01	-9.94055995680E+01	-5.95916021126E+00	-9.87446052464E-01
2.18626514057E+06	-1.59922273531E+01	-1.02824103439E+01	1.58695070668E+01	1.20405653039E+02	-5.30001633400E+01	-1.54137667881E+02	-5.94658210647E+00	-1.04387250525E+00
2.20845649517E+06	-1.45188632950E+01	7.89881808372E+00	1.58332018689E+01	1.20020927409E+02	-4.86576554633E+01	-1.10035140595E+02	-5.95568480118E+00	-8.96901440621E-01
2.23064784976E+06	-1.23684554689E+01	6.04090037727E-01	1.58136700542E+01	1.19589168494E+02	-5.42816923799E+01	4.75689114265E+01	-5.98574210996E+00	-1.09853118895E+00
2.25283920436E+06	-1.34025804127E+01	5.40478293567E+00	1.57459145821E+01	1.19184032490E+02	-4.26580946344E+01	-1.39586266414E+02	-5.93405724981E+00	-1.09619654941E+00
2.27503055895E+06	-1.43106257479E+01	1.42059951744E+00	1.57018611023E+01	1.18514848241E+02	-4.77230938086E+01	6.20335939485E+01	-5.98223624103E+00	-1.15039188363E+00
2.29722191355E+06	-1.55644169268E+01	-3.09859184422E+01	1.56492394675E+01	1.17915475800E+02	-4.97353445457E+01	-1.47745591851E+02	-5.95468118299E+00	-1.10372091050E+00
2.31941326814E+06	-1.38875289108E+01	-5.38559744120E-01	1.56307462659E+01	1.17656741418E+02	-4.39993810721E+01	-5.14707618565E+01	-5.99203351968E+00	-9.25999370526E-01
2.34160462274E+06	-1.30105271481E+01	-2.28050728702E+00	1.55958956443E+01	1.17128238805E+02	-5.08677746642E+01	1.37617045349E+02	-5.97474374922E+00	-1.16627443287E+00
2.36379597733E+06	-1.35980530541E+01	-3.74657964270E+00	1.55649812855E+01	1.16718199592E+02	-4.58048897319E+01	-1.55864922879E+01	-5.97800212583E+00	-9.72193486504E-01
2.38598733193E+06	-1.38478229297E+01	4.49547787678E+00	1.54944403390E+01	1.16340297362E+02	-4.87128717426E+01	7.73670055302E+01	-5.98922170186E+00	-1.26700015027E+00
2.40817868652E+06	-1.52188008729E+01	1.88307015170E+01	1.54358879653E+01	1.15927921926E+02	-6.16628256634E+01	1.11626112095E+02	-5.98192716541E+00	-1.21726620360E+00
2.43037004112E+06	-1.46062400628E+01	2.05399274370E+00	1.54174737056E+01	1.15291194322E+02	-4.76354439497E+01	-7.97439115542E+01	-5.96475390898E+00	-1.28754000190E+00
2.45256139571E+06	-1.55291157290E+01	5.32911924196E+00	1.53549250953E+01	1.14796396809E+02	-5.12630750568E+01	-1.14704414393E+02	-5.96864029233E+00	-9.96130514016E-01
2.47475275031E+06	-1.45394195946E+01	-4.62555652562E+00	1.53362693821E+01	1.14368887049E+02	-4.42285815559E+01	5.09886814525E+01	-6.00257174989E+00	-1.15803746688E+00
2.49694410490E+06	-1.39718850614E+01	9.32956445965E-01	1.52853992363E+01	1.13942302407E+02	-5.83231309056E+01	8.22942507189E+01	-5.98408385786E+00	-1.18249476816E+00
2.51913545950E+06	-1.28222728401E+01	-4.01912689566E+01	1.52510250207E+01	1.13200446957E+02	-5.66776251280E+01	-1.44822678381E+02	-5.97022424528E+00	-1.10943980668E+00
2.54132681409E+06	-1.42383433262E+01	2.78263236069E+00	1.52219576877E+01	1.13081898163E+02	-5.76921570726E+01	-1.43596364683E+02	-5.96623697053E+00	-1.17402642186E+00
2.56351816869E+06	-1.41708768824E+01	-1.82566449449E+00	1.51611985463E+01	1.12540298637E+02	-4.96101330492E+01	1.55767206464E+02	-5.97256692799E+00	-1.32902049075E+00
2.58570952328E+06	-1.36479541435E+01	3.70637708140E+00	1.51266923880E+01	1.12277049104E+02	-3.67644628543E+01	1.18081932161E+02	-6.00902903363E+00	-1.49423900098E+00
2.60790087788E+06	-1.42906939698E+01	2.83411654227E+00	1.50814609308E+01	1.11677307401E+02	-5.94199009248E+01	1.09806272709E+02	-5.98934256001E+00	-1.21275261994E+00
2.63009223247E+06	-1.50691015939E+01	-3.67279176516E+00	1.50408777401E+01	1.11200703546E+02	-5.20368875498E+01	-1.58340829210E+02	-5.99009720596E+00	-9.83605232925E-01
2.65228358707E+06	-1.35994963842E+01	2.46174075768E+00	1.50101164904E+01	1.10764884427E+02	-5.37078547565E+01	9.84372519455E+01	-5.98161842101E+00	-1.36640881028E+00
2.67447494166E+06	-1.32224374526E+01	2.49855940150E+00	1.49600433306E+01	1.10382514955E+02	-5.31124360950E+01	-5.31315474618E+01	-5.98677045647E+00	-1.19895300688E+00
2.69666629626E+06	-1.50016453522E+01	1.52331240018E+00	1.49151897034E+01	1.09962426404E+02	-4.62711202027E+01	1.10171256313E+02	-5.99890355797E+00	-1.29698919332E+00
2.71885765085E+06	-1.37316074472E+01	3.59105450401E+00	1.48781660049E+01	1.09489465025E+02	-5.29115644858E+01	-1.75688272554E+02	-5.97814416284E+00	-1.26130985964E+00
2.74104900545E+06	-1.37858628425E+01	5.36113523662E+00	1.48347861977E+01	1.09145202830E+02	-5.89042581282E+01	-1.62200300325E+02	-5.97978916800E+00	-1.21825813507E+00
2.76324036004E+06	-1.35448180977E+01	-5.62323756298E+00	1.47952416545E+01	1.08513107486E+02	-5.00724675963E+01	1.76171301186E+02	-5.96458038202E+00	-1.42431925439E+00
2.78543171463E+06	-1.33532500123E+01	-4.17333947446E+00	1.47691849463E+01	1.08167142969E+02	-4.79700815126E+01	-8.95405707269E+01	-5.96768990379E+00	-1.14438376559E+00
2.80762306923E+06	-1.47001190340E+01	4.49744801616E-01	1.46957054353E+01	1.07793809931E+02	-4.48785465212E+01	-1.79826853627E+02	-5.95037590462E+00	-1.48425917532E+00
2.82981442382E+06	-1.44543628915E+01	5.38772190718E+00	1.46475685695E+01	1.07397848441E+02	-6.00518306081E+01	7.87995494174E+00	-5.97775799840E+00	-1.27215146498E+00
2.85200577842E+06	-1.25527257097E+01	1.13214866317E+01	1.46358684228E+01	1.07098449513E+02	-5.17852789780E+01	-1.45563721207E+02	-5.95513383684E+00	-1.33295731648E+00
2.87419713301E+06	-1.62756970919E+01	-6.67788368664E+00	1.45710604778E+01	1.06433012813E+02	-5.72178298834E+01	1.75555332278E+02	-5.96740946896E+00	-1.40543927788E+00
2.89638848761E+06	-1.39586374184E+01	2.75167032927E+00	1.45371666390E+01	1.06102485891E+02	-5.27561401258E+01	6.20634293976E+01	-5.98784691710E+00	-1.38850793781E+00
