# Hz S DB R 50
! CMT, M5065, 19127446, 24.2.4/2
! Date: 11/8/2024 6:37:46 PM
! Data: Format (Calibration Info)
! Freq	S11:dB/Ang(F2)	S21:dB/Ang(F2)	S12:dB/Ang(F2)	S22:dB/Ang(F2)
3.00000000000E+05	-1.25273268114E+01	2.19046213544E+01	-1.34399003275E+00	1.78672997334E+02	-6.58167431416E+01	-4.08525041816E+01	-5.96778725595E+00	-2.41250023088E-01
3.22191354595E+05	-1.24326305164E+01	1.83950912910E+01	-1.30061194174E+00	1.78052634567E+02	-4.57780557415E+01	3.95687973514E+01	-5.97502212102E+00	-2.81834717211E-01
3.44382709190E+05	-1.54442212910E+01	1.41348857330E+01	-1.33308093150E+00	1.77913744704E+02	-5.04029942527E+01	1.20774939050E+02	-5.96662293284E+00	-2.67431651078E-01
3.66574063785E+05	-1.45994683730E+01	1.70908958081E+01	-1.29512327278E+00	1.77779875198E+02	-5.02888835917E+01	7.84457258635E+01	-5.97411934744E+00	-3.34021508354E-01
3.88765418380E+05	-1.48749681390E+01	1.60470504666E+01	-1.43186406386E+00	1.77696938890E+02	-5.54865148577E+01	-6.88596334897E+01	-5.96567313870E+00	-2.48478836299E-01
4.10956772975E+05	-1.41623385577E+01	4.22633499360E+00	-1.32136093199E+00	1.77001688650E+02	-5.36794495136E+01	-6.89990745718E+01	-5.96408574471E+00	-2.93360928338E-01
4.33148127570E+05	-1.29795965860E+01	1.06053963909E+01	-1.32396575600E+00	1.76722758061E+02	-4.87773821129E+01	-1.73515423275E+02	-5.96293314290E+00	-2.25845051972E-01
4.55339482165E+05	-1.45252252257E+01	1.20436356373E+01	-1.35819765836E+00	1.76488598439E+02	-5.10426271738E+01	-2.16551001455E+00	-5.96517127621E+00	-3.18760029403E-01
4.77530836760E+05	-1.39266793913E+01	4.43461241352E+00	-1.35821786620E+00	1.76427217109E+02	-4.84791577100E+01	6.54931820032E+01	-5.96340098415E+00	-3.02786567245E-01
4.99722191355E+05	-1.34478816274E+01	5.42156420677E+00	-1.32125008766E+00	1.75938880315E+02	-4.94286520209E+01	7.98811510061E+01	-5.97153703351E+00	-3.68340706332E-01
5.21913545950E+05	-1.55997506656E+01	1.44124092266E+01	-1.34918543430E+00	1.75780256524E+02	-5.39091100887E+01	8.93697985003E+01	-5.96402105169E+00	-3.13964218640E-01
5.44104900545E+05	-1.31662170327E+01	-1.44904980616E+00	-1.36359174227E+00	1.75558085811E+02	-5.47254315576E+01	6.76980349025E+01	-5.96300887667E+00	-3.08616790962E-01
5.66296255139E+05	-1.16846146926E+01	2.17347499451E+01	-1.29296688593E+00	1.75122513658E+02	-5.25688260548E+01	1.79356375136E+02	-5.96365280529E+00	-2.87748729299E-01
5.88487609734E+05	-1.45499341689E+01	1.14211359416E+01	-1.36812419049E+00	1.74989408580E+02	-4.95571741221E+01	3.79065353974E+01	-5.96278944248E+00	-4.44742230089E-01
6.10678964329E+05	-1.35436020440E+01	1.41928578799E+01	-1.35789974712E+00	1.74702693014E+02	-4.61753433264E+01	1.01780514984E+02	-5.96430175985E+00	1.65173165015E-01
6.32870318924E+05	-1.50465789269E+01	9.46890805127E+00	-1.36996527826E+00	1.74676936685E+02	-5.35476688399E+01	1.12282209059E+02	-5.96276400674E+00	-9.85357678793E-02
6.55061673519E+05	-1.67930372927E+01	9.86527888570E+00	-1.38317476976E+00	1.74551651485E+02	-4.60008879234E+01	-1.45313756655E+02	-5.96759303118E+00	-2.89178861970E-01
6.77253028114E+05	-1.40101644483E+01	5.94503922352E+00	-1.31253252855E+00	1.74157581607E+02	-4.87816597579E+01	3.59659295513E+01	-5.97624357482E+00	-6.52315649480E-01
6.99444382709E+05	-1.42528665869E+01	5.97967954604E+00	-1.34850890431E+00	1.73827936149E+02	-5.78154296921E+01	6.87072168631E+01	-5.96879566535E+00	-4.24447774471E-01
7.21635737304E+05	-1.36244861086E+01	6.17114994509E+00	-1.35019179794E+00	1.73512775776E+02	-5.25199468877E+01	-1.07120508505E+02	-5.96367991928E+00	-4.26394152731E-01
7.43827091899E+05	-1.30447112779E+01	1.17596423386E+01	-1.35999108943E+00	1.73661911383E+02	-5.40275790595E+01	-6.00917594015E+01	-5.96809236441E+00	-4.41172164625E-01
7.66018446494E+05	-1.36582868076E+01	4.50981354477E+00	-1.36532162927E+00	1.73135331828E+02	-5.17963243256E+01	-3.41812279321E+01	-5.96866719787E+00	-4.14406708468E-01
7.88209801089E+05	-1.51430944082E+01	1.24090491909E+01	-1.39483016721E+00	1.72700522005E+02	-4.43833929984E+01	5.31955300707E+00	-5.96996264317E+00	-4.33218377486E-01
8.10401155684E+05	-1.48967560062E+01	5.79921924582E+00	-1.35323632937E+00	1.72808479696E+02	-5.25630881810E+01	1.50570788780E+02	-5.96477616048E+00	-4.43250032703E-01
8.32592510279E+05	-1.33719536455E+01	1.57636413193E-01	-1.37591754912E+00	1.72349021523E+02	-4.81494458157E+01	4.17810862768E+01	-5.96101221107E+00	-5.10915177745E-01
8.54783864874E+05	-1.48004881263E+01	4.72185579063E+00	-1.34196535336E+00	1.72370743301E+02	-6.34438951425E+01	-1.79579141746E+02	-5.97151700506E+00	-4.44146423406E-01
8.76975219469E+05	-1.46465561032E+01	4.37791120850E+00	-1.34464232629E+00	1.72016439673E+02	-5.05211288189E+01	1.12701436056E+01	-5.96135706898E+00	-4.19663237230E-01
8.99166574064E+05	-1.43484631779E+01	-9.56453475021E+00	-1.31664747157E+00	1.71715626973E+02	-4.55799035209E+01	-1.36317564140E+02	-5.96237935182E+00	-4.77811439259E-01
9.21357928659E+05	-1.36409262352E+01	1.30772538946E+01	-1.34012597262E+00	1.71735303542E+02	-5.18026797661E+01	1.71996874322E+02	-5.96347853984E+00	-4.18635458983E-01
9.43549283254E+05	-1.50809360729E+01	2.27686102468E+00	-1.37782596347E+00	1.71205589104E+02	-5.33688794851E+01	7.89024492709E+01	-5.96940247350E+00	-4.74105006951E-01
9.65740637849E+05	-1.39856970864E+01	4.35432005019E+00	-1.37020119528E+00	1.71023939098E+02	-5.73058500602E+01	8.89102075035E+01	-5.96297696157E+00	-4.97450275755E-01
9.87931992444E+05	-1.50284476392E+01	4.34315813590E+00	-1.38561774942E+00	1.70916922466E+02	-5.70544028173E+01	-1.31613137226E+01	-5.96442328044E+00	-5.42575962478E-01
1.01012334704E+06	-1.51148735986E+01	2.12572119586E+00	-1.34115119797E+00	1.70592455281E+02	-5.30861968874E+01	-6.66228038404E+01	-5.96425776421E+00	-5.42479800596E-01
1.03231470163E+06	-1.38981688197E+01	1.05038698286E+01	-1.36223247665E+00	1.70438117754E+02	-5.01838743034E+01	-3.54358027367E+01	-5.97216584379E+00	-5.38705658547E-01
1.05450605623E+06	-1.38858029748E+01	1.18430643337E+01	-1.38269620014E+00	1.69957102035E+02	-5.73004591511E+01	-1.37677972602E+02	-5.96710462327E+00	-5.32427551601E-01
1.07669741082E+06	-1.65257989234E+01	2.34250399828E+00	-1.36210373366E+00	1.70023448975E+02	-5.32997772637E+01	-2.24731242856E+01	-5.96651220008E+00	-5.83012285648E-01
1.09888876542E+06	-1.47803834844E+01	2.39600877145E+01	-1.40209312576E+00	1.69910188568E+02	-5.20092983344E+01	1.31773413532E+02	-5.97028363932E+00	-4.63162741388E-01
1.12108012001E+06	-1.52003328051E+01	2.51167784536E+01	-1.35665292067E+00	1.69802621542E+02	-5.41667185116E+01	1.01615927907E+02	-5.96293929765E+00	-6.72165605630E-01
1.14327147461E+06	-1.57465910020E+01	4.06638137271E+00	-1.39259093975E+00	1.69313030777E+02	-4.24856526028E+01	1.21739096266E+02	-5.97168814696E+00	-5.28084573965E-01
1.16546282920E+06	-1.59852162355E+01	-2.50424900548E+00	-1.43774195002E+00	1.69098867682E+02	-5.30871437014E+01	1.41894485599E+02	-5.97329639834E+00	-6.16644453853E-01
1.18765418380E+06	-1.33465830978E+01	1.66561650839E+01	-1.37211376381E+00	1.69043226641E+02	-5.32941807042E+01	-9.85019744912E+01	-5.96439426860E+00	-5.27846278510E-01
1.20984553839E+06	-1.26513887795E+01	5.84124042293E+00	-1.38858034170E+00	1.68738680394E+02	-4.91870651599E+01	1.44879308204E+02	-5.96109262477E+00	-7.46683708921E-01
1.23203689299E+06	-1.64821024997E+01	6.99595309095E+00	-1.34525541375E+00	1.68341018301E+02	-7.64582742548E+01	2.80337992300E+01	-5.98099541315E+00	-3.97277072591E-01
1.25422824758E+06	-1.48647788214E+01	2.01726527607E+00	-1.41526902902E+00	1.68345555016E+02	-5.45087695096E+01	8.76534345718E+01	-5.97266973462E+00	-6.00243056398E-01
1.27641960218E+06	-1.43844463254E+01	5.82570606531E+00	-1.38408835081E+00	1.68080931413E+02	-5.49329761843E+01	1.55584411362E+02	-5.96677496445E+00	-6.04287544446E-01
1.29861095677E+06	-1.34006482265E+01	7.94940284698E-01	-1.40892068972E+00	1.68054920141E+02	-5.90193770562E+01	-4.54454441613E+01	-5.98632475381E+00	-6.44091056095E-01
1.32080231137E+06	-1.36070003068E+01	6.25855325581E+00	-1.42182965729E+00	1.67838225954E+02	-5.25577289275E+01	-1.06037299596E+02	-5.96582651597E+00	-1.01546795790E+00
1.34299366596E+06	-1.28853616509E+01	4.32325192831E+00	-1.37139995000E+00	1.67634440123E+02	-5.10056256234E+01	7.48409096366E+01	-5.98318314107E+00	-7.43863738624E-01
1.36518502056E+06	-1.55038405732E+01	3.50264085295E+00	-1.37803912119E+00	1.67119975964E+02	-5.24471679185E+01	1.48415738620E+02	-5.97197142156E+00	-5.75593498988E-01
1.38737637515E+06	-1.50890575189E+01	8.70627574969E+00	-1.44630294039E+00	1.67126994218E+02	-4.68316952263E+01	5.03808661334E+00	-5.96577311444E+00	-6.78032421275E-01
1.40956772975E+06	-1.41951588155E+01	7.76867184935E+00	-1.38671031752E+00	1.66762519000E+02	-5.28204844252E+01	-1.24548153525E+02	-5.95827593871E+00	-7.21106356238E-01
1.43175908434E+06	-1.39527366332E+01	3.14558840661E+00	-1.39480171002E+00	1.66619427584E+02	-5.57242924151E+01	-1.83613166581E+01	-5.97179784234E+00	-6.77817154382E-01
1.45395043894E+06	-1.30587503890E+01	1.23726876084E+01	-1.43403724622E+00	1.66332338071E+02	-5.17492375571E+01	-3.11618699774E+01	-5.97785266486E+00	-6.71006837932E-01
1.47614179353E+06	-1.33506574066E+01	6.97036536145E+00	-1.46826510481E+00	1.66240970386E+02	-4.86160496887E+01	-2.75038856371E+01	-5.96809067330E+00	-7.55944977663E-01
1.49833314813E+06	-1.31175350977E+01	-6.44888987485E+00	-1.37937532808E+00	1.65868843484E+02	-4.54385616736E+01	-1.57460406403E+02	-5.97098914887E+00	-6.90689157812E-01
1.52052450272E+06	-1.41503389426E+01	1.92185174138E+00	-1.37054038707E+00	1.65663362530E+02	-5.29666663378E+01	2.23908888111E-01	-5.96874840767E+00	-7.31509580105E-01
1.54271585732E+06	-1.31887724089E+01	6.46393821568E+00	-1.38897206435E+00	1.65771447647E+02	-5.35820387432E+01	-1.05099236570E+01	-5.98157751365E+00	-6.79064158069E-01
1.56490721191E+06	-1.28863759680E+01	-1.46060162797E+01	-1.41093891568E+00	1.65265680229E+02	-5.91471900175E+01	1.17470555468E+02	-5.96870074511E+00	-7.86693819718E-01
1.58709856651E+06	-1.43009220337E+01	-6.36653834052E+00	-1.42137874126E+00	1.65105451488E+02	-5.76388355813E+01	1.25981577612E+02	-5.96041613771E+00	-7.98245656734E-01
1.60928992110E+06	-1.54357725635E+01	6.33210139202E-01	-1.41500965877E+00	1.64855279993E+02	-4.61524666952E+01	-8.92818317635E+01	-5.96831050349E+00	-7.57468103241E-01
1.63148127570E+06	-1.44362598127E+01	2.77949761119E+00	-1.44245793508E+00	1.64584436852E+02	-5.58572925533E+01	-1.12053382728E+02	-5.96862795688E+00	-6.83076289734E-01
1.65367263029E+06	-1.52608056304E+01	6.91156802273E+00	-1.44569820130E+00	1.64499178942E+02	-5.95220387449E+01	6.33662398426E+01	-5.96658892064E+00	-7.98465610092E-01
1.67586398489E+06	-1.55162724426E+01	2.85850223022E-01	-1.45520455844E+00	1.64023711162E+02	-5.63604420221E+01	3.43887262154E+01	-5.96279945000E+00	-7.38376078384E-01
1.69805533948E+06	-1.53236619159E+01	2.78786325895E+01	-1.49855277860E+00	1.63979563452E+02	-4.38340005042E+01	2.23743356372E+01	-5.97198837460E+00	-7.97417810335E-01
1.72024669408E+06	-1.41016491744E+01	8.32999084746E+00	-1.39742975649E+00	1.64144196262E+02	-3.81107926460E+01	-8.34039352483E+01	-5.97853792817E+00	-8.15519652857E-01
1.74243804867E+06	-1.50537772908E+01	1.13054930185E+01	-1.49737502045E+00	1.63556709204E+02	-4.88984911747E+01	1.64475046760E+02	-5.95741274844E+00	-8.38975216682E-01
1.76462940327E+06	-1.57982925943E+01	-5.17325977229E+00	-1.45342182146E+00	1.63343882866E+02	-5.27796029753E+01	-1.32023112281E+02	-5.96579164132E+00	-8.21814319134E-01
1.78682075786E+06	-1.43200926531E+01	8.41640655456E+00	-1.46160412201E+00	1.63070903529E+02	-5.11372200061E+01	3.74083213073E+01	-5.96839795378E+00	-8.58445024782E-01
1.80901211246E+06	-1.19886290719E+01	-5.11481852652E-01	-1.41561778965E+00	1.63155171405E+02	-5.10305637245E+01	1.64863893608E+02	-5.97009631864E+00	-8.11346166178E-01
1.83120346705E+06	-1.42095527956E+01	9.68646837940E+00	-1.45711837118E+00	1.62973751863E+02	-3.54658422843E+01	-8.83243285667E+01	-5.97131271259E+00	-8.15755321010E-01
1.85339482165E+06	-1.49970286481E+01	-9.85968263693E-01	-1.46511397585E+00	1.62493334161E+02	-5.40601954654E+01	-9.60982102645E+01	-5.97486971167E+00	-8.39334558539E-01
1.87558617624E+06	-1.34614737824E+01	7.76993797138E+00	-1.44685416483E+00	1.62507120738E+02	-4.86793598408E+01	-1.27411672679E+01	-5.96874063158E+00	-8.20470322297E-01
1.89777753084E+06	-1.36104813630E+01	-2.95833926700E+00	-1.44276949168E+00	1.62303242663E+02	-5.96674827487E+01	-4.81699135958E+01	-5.95755634322E+00	-8.90954860596E-01
1.91996888543E+06	-1.25757765360E+01	1.70159447169E+01	-1.47769149400E+00	1.61878938198E+02	-5.87658445192E+01	3.53335243658E+01	-5.96753358297E+00	-9.12860292589E-01
1.94216024003E+06	-1.51687652544E+01	4.47168566458E-01	-1.46663754569E+00	1.61802534794E+02	-6.12327492668E+01	1.26797575271E+01	-5.97265617500E+00	-9.34730451591E-01
1.96435159462E+06	-1.41065117738E+01	5.27666215722E+00	-1.49803220125E+00	1.61542825435E+02	-4.80800798643E+01	1.43008099501E+02	-5.97020699981E+00	-9.61715880966E-01
1.98654294922E+06	-1.30120122488E+01	2.65064200170E+00	-1.43705769724E+00	1.61343748478E+02	-6.16742074228E+01	1.62340227030E+02	-5.97590579666E+00	-9.18992893664E-01
2.00873430381E+06	-1.34613057573E+01	6.06514217271E+00	-1.45883819506E+00	1.61152656757E+02	-5.28042140574E+01	-8.18569204837E+01	-5.96869448875E+00	-9.36203649675E-01
2.03092565841E+06	-1.52626997376E+01	-1.71078790773E+01	-1.50753839414E+00	1.60645570330E+02	-4.80777143387E+01	-1.67011817074E+02	-5.97660416657E+00	-9.22800364779E-01
2.05311701300E+06	-1.48773062652E+01	-1.48081828418E+01	-1.46213197021E+00	1.60533266217E+02	-4.07894756311E+01	1.74821658185E+02	-5.97046163384E+00	-8.91853546529E-01
2.07530836760E+06	-1.46279383439E+01	-5.46394272734E+00	-1.50064386307E+00	1.60462595919E+02	-4.91934488134E+01	1.75150928348E+02	-5.98098209396E+00	-9.44130986617E-01
2.09749972219E+06	-1.39476645632E+01	3.33198483512E+00	-1.41998707195E+00	1.59989728073E+02	-6.22466915009E+01	-7.87313550761E+01	-5.96600357880E+00	-9.58198460014E-01
2.11969107679E+06	-1.40441204476E+01	-3.33713105787E+00	-1.44277630601E+00	1.60006287411E+02	-5.03857352736E+01	-6.89819028020E-01	-5.96752717449E+00	-9.24576770178E-01
2.14188243138E+06	-1.67200146313E+01	-1.90120224789E+00	-1.46965806938E+00	1.59846475013E+02	-5.26066037262E+01	-1.20873995725E+01	-5.98131874779E+00	-9.82855014572E-01
2.16407378598E+06	-1.13673625326E+01	-5.39117575901E+00	-1.46457505790E+00	1.59786141953E+02	-4.86005607760E+01	-5.03742847740E+01	-5.97377913687E+00	-1.01515891572E+00
2.18626514057E+06	-1.29422682496E+01	4.51327165943E+00	-1.49914261369E+00	1.59339458337E+02	-5.34842318947E+01	2.79915913764E+00	-5.96544569806E+00	-1.00926281638E+00
2.20845649517E+06	-1.37110740848E+01	1.14851606831E+01	-1.49330584848E+00	1.59091255806E+02	-5.31711837627E+01	1.26951637111E+02	-5.97658808507E+00	-1.03388226072E+00
2.23064784976E+06	-1.51114289621E+01	1.30491227981E+01	-1.53768712522E+00	1.59225362216E+02	-6.92507154581E+01	1.25320840476E+02	-5.97387107193E+00	-9.93727456543E-01
2.25283920436E+06	-1.40845079560E+01	6.21509338222E-01	-1.48329406060E+00	1.58987847711E+02	-5.25082685473E+01	1.71718666846E+02	-5.97231831376E+00	-1.08804842963E+00
2.27503055895E+06	-1.30698127956E+01	7.29153997009E+00	-1.47847577006E+00	1.58469401992E+02	-5.23919718148E+01	-1.45306218471E+02	-5.96821460614E+00	-1.09761980087E+00
2.29722191355E+06	-1.43064102874E+01	3.46549603314E+00	-1.49723120939E+00	1.58294038770E+02	-4.84120422222E+01	-1.39299292606E+02	-5.97171432455E+00	-1.05874124465E+00
2.31941326814E+06	-1.58215874416E+01	7.43853462944E+00	-1.53477487703E+00	1.58159912760E+02	-4.88585205448E+01	1.25003031476E+01	-5.97211745256E+00	-1.08266294431E+00
2.34160462274E+06	-1.30878090862E+01	4.06177698654E+00	-1.49694724520E+00	1.57825524268E+02	-5.74140020655E+01	1.78891951984E+02	-5.97018582124E+00	-1.15594109520E+00
2.36379597733E+06	-1.39581908385E+01	-2.27259788674E+00	-1.49619231561E+00	1.57961120056E+02	-4.70495350400E+01	-6.47369916751E+00	-5.96344656002E+00	-1.13095823583E+00
2.38598733193E+06	-1.94085544873E+01	3.83573803234E+00	-1.55411481060E+00	1.56983211801E+02	-5.31840325997E+01	-5.02909286315E+01	-5.97065497766E+00	-1.14222733510E+00
2.40817868652E+06	-1.47750475529E+01	6.32124774509E-01	-1.52299536602E+00	1.57080478276E+02	-4.14619246392E+01	-1.28805470526E+02	-5.96858757646E+00	-1.24373932996E+00
2.43037004112E+06	-1.49923156154E+01	7.76362075266E+00	-1.49115047935E+00	1.57201096393E+02	-6.30057087515E+01	-1.35020211504E+02	-5.97674631750E+00	-1.53887699674E+00
2.45256139571E+06	-1.45272123846E+01	-8.17583342856E+00	-1.53468715250E+00	1.56812181745E+02	-5.67142648494E+01	1.51647448213E+02	-5.97784794112E+00	-1.14724668733E+00
2.47475275031E+06	-1.35534279783E+01	7.59176198949E-02	-1.47884265058E+00	1.56428809454E+02	-4.71997714416E+01	-1.49354987763E+02	-5.97224818081E+00	-1.19833955849E+00
2.49694410490E+06	-1.35143793887E+01	-1.36388931360E+01	-1.46754516403E+00	1.56598570988E+02	-5.49911554393E+01	6.50262993455E+01	-5.99499889718E+00	-1.10305093981E+00
2.51913545950E+06	-1.29320597874E+01	9.84603595826E-01	-1.54353036335E+00	1.56111889094E+02	-4.77491947098E+01	8.55552425701E+01	-5.98334519825E+00	-1.11307723950E+00
2.54132681409E+06	-1.33243183958E+01	-1.54960700383E+00	-1.51188981043E+00	1.56186282653E+02	-4.60913991260E+01	5.35223056682E+01	-5.98097343106E+00	-1.12883542081E+00
2.56351816869E+06	-1.37108669388E+01	-1.15852438984E+01	-1.48710127758E+00	1.55818407994E+02	-5.54985883017E+01	-3.77103809999E+01	-5.96484938191E+00	-1.17840549711E+00
2.58570952328E+06	-1.49760801605E+01	-8.29877796093E+00	-1.58537667560E+00	1.55632637349E+02	-7.95580391329E+01	-6.65205329193E+01	-5.97874350568E+00	-1.16119801978E+00
2.60790087788E+06	-1.10455677881E+01	6.92048755295E+00	-1.52523355572E+00	1.55703631003E+02	-5.12930446681E+01	9.75532846084E+01	-5.97659385943E+00	-1.07577658554E+00
2.63009223247E+06	-1.43886525468E+01	2.53098181139E+00	-1.51609126339E+00	1.55246247777E+02	-5.89807302879E+01	-1.15568540475E+02	-5.97715281955E+00	-8.19597785893E-01
2.65228358707E+06	-1.48694057035E+01	5.31628066700E+00	-1.52761209814E+00	1.54843305698E+02	-4.98515531105E+01	1.00611024589E+02	-5.96894074740E+00	-1.23903629022E+00
2.67447494166E+06	-1.51218528433E+01	6.32064048250E+00	-1.54748775881E+00	1.54614236523E+02	-5.86934303540E+01	1.14341033263E+02	-5.96858619142E+00	-1.17911613779E+00
2.69666629626E+06	-1.32025650716E+01	-6.26703882607E+00	-1.53968028373E+00	1.54824518581E+02	-6.17920365830E+01	-7.44933187160E+00	-5.97194193900E+00	-1.19178984103E+00
2.71885765085E+06	-1.69718008549E+01	7.27629625611E+00	-1.57750652257E+00	1.54131013568E+02	-5.17275789902E+01	1.47863264886E+02	-5.97396334141E+00	-1.23147329733E+00
2.74104900545E+06	-1.57019204859E+01	-2.35156458826E+00	-1.55239778956E+00	1.53902539712E+02	-5.03131168240E+01	-6.47901320007E+01	-5.98115614092E+00	-1.30649181668E+00
2.76324036004E+06	-1.45360904169E+01	3.58765999058E+00	-1.56367742924E+00	1.54291788886E+02	-4.45006179087E+01	-1.41558166383E+02	-5.97918640392E+00	-1.27052542565E+00
2.78543171463E+06	-1.38324590153E+01	7.28913163625E+00	-1.54499889177E+00	1.53773109772E+02	-4.84810117529E+01	6.18917528767E+01	-5.97942127571E+00	-1.36192852317E+00
2.80762306923E+06	-1.26469709818E+01	-7.37194212039E+00	-1.52339282008E+00	1.53379947362E+02	-5.12343550375E+01	-8.43569051842E+01	-5.97313350665E+00	-1.27589082462E+00
2.82981442382E+06	-1.38348378202E+01	4.49298989397E+00	-1.58729275205E+00	1.53277916893E+02	-5.52191134037E+01	1.46222130969E+02	-5.97941946651E+00	-1.29027003383E+00
2.85200577842E+06	-1.41548241222E+01	6.61282350449E+00	-1.56166384520E+00	1.53301680155E+02	-5.73103500301E+01	3.25461792805E+01	-5.97100502063E+00	-1.29568958999E+00
2.87419713301E+06	-1.39753841667E+01	-8.53689347785E+00	-1.52907437913E+00	1.53043209557E+02	-4.68284969574E+01	1.31029308246E+02	-5.97030762213E+00	-1.35667310017E+00
