# Hz S DB R 50
! CMT, M5065, 19127446, 24.2.4/2
! Date: 11/8/2024 6:35:39 PM
! Data: Format (Calibration Info)
! Freq	S11:dB/Ang(F2)	S21:dB/Ang(F2)	S12:dB/Ang(F2)	S22:dB/Ang(F2)
3.00000000000E+05	-1.26349683009E+01	1.45346821385E+01	-2.53007278768E+00	1.78299936012E+02	-5.75028304931E+01	-7.29284801592E+00	-5.96799634532E+00	-1.42095712053E-01
3.22191354595E+05	-1.42837010002E+01	1.63457836913E+01	-2.53091800177E+00	1.77983619314E+02	-4.89798888992E+01	-1.53301343500E+02	-5.96530860662E+00	-2.90813708852E-01
3.44382709190E+05	-1.37827561977E+01	1.71116917257E+01	-2.57016288001E+00	1.77932141711E+02	-5.67026769161E+01	7.42194961612E+00	-5.97009050799E+00	-2.00208139341E-01
3.66574063785E+05	-1.57732603858E+01	2.32666061707E+01	-2.55275717501E+00	1.77386206970E+02	-6.32010004065E+01	-1.45205637094E+01	-5.96054925743E+00	-2.18681511253E-01
3.88765418380E+05	-1.28507954279E+01	1.78627856000E+01	-2.56514848744E+00	1.77197597923E+02	-4.63116900915E+01	1.18479675093E+02	-5.95591413706E+00	-3.95051259941E-01
4.10956772975E+05	-1.47152351078E+01	8.21060464329E+00	-2.54311492604E+00	1.76883881586E+02	-5.51931859955E+01	-4.96694203616E+01	-5.95127498386E+00	-2.43689789534E-01
4.33148127570E+05	-1.31821887293E+01	9.70524662446E+00	-2.55527697701E+00	1.76975042558E+02	-4.63355000634E+01	1.03644783042E+02	-5.96618227557E+00	-3.47393079707E-01
4.55339482165E+05	-1.44203156332E+01	2.76147956075E-01	-2.54654880390E+00	1.76366961481E+02	-5.99309149804E+01	5.53680376252E+01	-5.97039849721E+00	-2.84944351360E-01
4.77530836760E+05	-1.35850748342E+01	3.08949335130E+00	-2.56416660151E+00	1.76396337251E+02	-4.62595884467E+01	1.19850441353E+02	-5.96428581768E+00	-3.78510597108E-01
4.99722191355E+05	-1.31876531465E+01	-9.77992739347E-02	-2.59264521755E+00	1.75933890220E+02	-5.52324032525E+01	-1.22251300263E+02	-5.95788396028E+00	-3.62799781515E-01
5.21913545950E+05	-1.48472327414E+01	2.70915681252E+01	-2.55998403538E+00	1.76207984390E+02	-6.32849483101E+01	7.34984773741E+01	-5.96201390845E+00	-3.15270684206E-01
5.44104900545E+05	-1.45206453552E+01	1.70437434849E+01	-2.56301476771E+00	1.75630672927E+02	-5.69491788370E+01	-4.30515585749E+01	-5.95852267662E+00	-3.65843880757E-01
5.66296255139E+05	-1.41919788320E+01	9.27436331437E+00	-2.63696550886E+00	1.75267896476E+02	-5.98472280708E+01	-1.39730257354E+02	-5.96437169056E+00	-3.65344475568E-01
5.88487609734E+05	-1.30865422236E+01	6.66755992985E-01	-2.54944037502E+00	1.74705012655E+02	-5.09213597317E+01	1.38353748527E+02	-5.95729734208E+00	-2.71507241052E-01
6.10678964329E+05	-1.49521757727E+01	9.29678958665E+00	-2.55834951789E+00	1.74974056581E+02	-5.01566454784E+01	8.21591181948E+01	-5.96733003997E+00	1.19033724547E-01
6.32870318924E+05	-1.40324095976E+01	9.80852393539E+00	-2.56956300187E+00	1.74845137581E+02	-5.74348508380E+01	-4.17798556523E+01	-5.96468018233E+00	-1.87817296216E-01
6.55061673519E+05	-1.30819289644E+01	7.49205799279E+00	-2.53711455948E+00	1.74165396887E+02	-5.39644508745E+01	-7.31203664003E+01	-5.97268972888E+00	-2.29791099485E-01
6.77253028114E+05	-1.47061675020E+01	1.14073469935E+01	-2.56601637488E+00	1.74257343276E+02	-5.24824848625E+01	6.27233942125E+01	-5.96658186953E+00	-7.00399385273E-01
6.99444382709E+05	-1.44947249799E+01	4.40230184288E+01	-2.56029882011E+00	1.74352596460E+02	-5.02431084596E+01	1.41075579659E+02	-5.95974231464E+00	-4.28143079650E-01
7.21635737304E+05	-1.42314291383E+01	9.48820508359E+00	-2.58302906704E+00	1.73839074013E+02	-5.40219812713E+01	-2.02238804690E+01	-5.97183887310E+00	-4.35684847065E-01
7.43827091899E+05	-1.38523532407E+01	7.22679201782E+00	-2.59107269553E+00	1.73261852364E+02	-4.50329043627E+01	-1.41506917181E+02	-5.95780784026E+00	-3.68713061914E-01
7.66018446494E+05	-1.51546436728E+01	1.80984117498E+01	-2.60341992987E+00	1.73646030523E+02	-5.99984984766E+01	-2.74701238188E+01	-5.96782829439E+00	-4.18092605028E-01
7.88209801089E+05	-1.51481970365E+01	1.35440407950E+01	-2.59695011707E+00	1.73254457319E+02	-5.90835750298E+01	5.90306423361E+01	-5.96224319725E+00	-4.48893552426E-01
8.10401155684E+05	-1.50145279669E+01	-8.80459172156E-01	-2.60336911487E+00	1.72837950101E+02	-5.02255601336E+01	1.75492081867E+02	-5.96527300472E+00	-4.07814964057E-01
8.32592510279E+05	-1.39947413974E+01	6.65140870598E+00	-2.58828647495E+00	1.72808287516E+02	-4.98504844699E+01	2.61767463969E+01	-5.96469132334E+00	-4.92666961896E-01
8.54783864874E+05	-1.37571377559E+01	3.19901096863E+00	-2.62081080631E+00	1.72522742211E+02	-4.69571172181E+01	1.46373940758E+02	-5.95397719459E+00	-4.76857299499E-01
8.76975219469E+05	-1.31604777554E+01	4.92743644195E+00	-2.60086452103E+00	1.72179015724E+02	-6.63529773141E+01	-6.02609253319E+01	-5.96128202311E+00	-4.42947453730E-01
8.99166574064E+05	-1.43025671567E+01	7.74199492516E-01	-2.55451126233E+00	1.72130439552E+02	-5.18423978680E+01	-7.53160039179E+01	-5.96175670636E+00	-5.19619248575E-01
9.21357928659E+05	-1.74698375078E+01	3.66321629683E+00	-2.61002110191E+00	1.71944810902E+02	-5.00262567380E+01	-9.44611722325E+01	-5.97414395206E+00	-4.85298062459E-01
9.43549283254E+05	-1.59996922493E+01	1.07999367398E+01	-2.62901325686E+00	1.71396689498E+02	-5.77516388427E+01	-1.70327978011E+02	-5.95877947545E+00	-3.96527811154E-01
9.65740637849E+05	-1.36820154364E+01	-1.66366954529E+00	-2.63533379687E+00	1.71255282432E+02	-4.89564811530E+01	-1.47913726769E+02	-5.96147459686E+00	-4.82182434159E-01
9.87931992444E+05	-1.56110306610E+01	-5.62686829182E+00	-2.57755942658E+00	1.71134266433E+02	-4.95988909167E+01	-1.04818828257E+01	-5.96626018970E+00	-5.67000483406E-01
1.01012334704E+06	-1.31439076828E+01	5.24305671435E+00	-2.61239222572E+00	1.71140629419E+02	-5.62175971762E+01	-1.00552717892E+02	-5.97075533843E+00	-4.68954848059E-01
1.03231470163E+06	-1.51363853684E+01	1.48968595606E+00	-2.60787950006E+00	1.71019960971E+02	-5.11038280794E+01	-8.74275343247E+01	-5.96347590619E+00	-5.31126930181E-01
1.05450605623E+06	-1.39705625406E+01	1.04979227893E+01	-2.61853277404E+00	1.70463795182E+02	-4.58084245163E+01	1.52826239347E+02	-5.96181874563E+00	-5.01431035412E-01
1.07669741082E+06	-1.43004551160E+01	-5.85416888168E+00	-2.61479481526E+00	1.70386642932E+02	-4.30213531450E+01	-3.60673881269E+01	-5.96623562758E+00	-5.22278654257E-01
1.09888876542E+06	-1.48151293308E+01	8.33018539447E+00	-2.65374142233E+00	1.70263412349E+02	-4.67421838020E+01	-1.15626507207E+02	-5.96262475407E+00	-5.10597605154E-01
1.12108012001E+06	-1.54021490855E+01	8.20606820052E+00	-2.67463984897E+00	1.69897729483E+02	-5.83134772944E+01	-4.01546333745E+01	-5.97039721756E+00	-6.14031537096E-01
1.14327147461E+06	-1.80418121969E+01	-9.92261821786E+00	-2.64143466085E+00	1.70002262339E+02	-6.32905090573E+01	2.41421561608E+01	-5.96839557021E+00	-6.04856604731E-01
1.16546282920E+06	-1.49046473014E+01	6.15406617772E+00	-2.58471478732E+00	1.69667434577E+02	-5.27777557338E+01	1.23081520417E+02	-5.97493990156E+00	-5.32757687269E-01
1.18765418380E+06	-1.38032365325E+01	4.93552537902E+00	-2.64014634423E+00	1.69311293838E+02	-4.82491209088E+01	3.05428951131E+01	-5.96158259440E+00	-5.71504702785E-01
1.20984553839E+06	-1.38638241641E+01	1.60373595126E+00	-2.62392770037E+00	1.68940979518E+02	-5.43694266132E+01	1.32242030602E+02	-5.95877304271E+00	-7.34342094455E-01
1.23203689299E+06	-1.39735720461E+01	6.52118632491E+00	-2.66515960760E+00	1.68992731908E+02	-4.69723132325E+01	1.32374384901E+02	-5.96121579169E+00	-3.53714144068E-01
1.25422824758E+06	-1.45443945226E+01	1.29382116488E+01	-2.60251891586E+00	1.68908066059E+02	-7.22753866124E+01	1.57077175005E+02	-5.97481506906E+00	-6.24840901792E-01
1.27641960218E+06	-1.31695902758E+01	7.98498991972E+00	-2.62460966731E+00	1.68574595839E+02	-6.98212185182E+01	1.47892771448E+02	-5.96335004878E+00	-6.25106123605E-01
1.29861095677E+06	-1.38686914898E+01	3.14924119444E+00	-2.55859922122E+00	1.68027108133E+02	-4.96884245974E+01	1.59796750747E+02	-5.97201810225E+00	-6.25268305363E-01
1.32080231137E+06	-1.51176676103E+01	5.00832709703E+00	-2.65433703799E+00	1.67882505601E+02	-5.39999811202E+01	6.96044516842E+01	-5.97493007525E+00	-9.74325243200E-01
1.34299366596E+06	-1.44969120265E+01	5.48337282460E-01	-2.59840451095E+00	1.67997972856E+02	-4.70235399656E+01	1.08930367085E+02	-5.96359626481E+00	-6.89621696991E-01
1.36518502056E+06	-1.39459299833E+01	5.18940526009E+00	-2.65943126930E+00	1.67624538833E+02	-4.70774990553E+01	-9.96207259339E+01	-5.95796443923E+00	-6.36115891081E-01
1.38737637515E+06	-1.37680643195E+01	-1.33296274519E+01	-2.62824679548E+00	1.67160497145E+02	-5.01174201429E+01	-1.71982018527E+02	-5.96595118907E+00	-6.02507516262E-01
1.40956772975E+06	-1.28465037975E+01	3.63860060141E+00	-2.64788250005E+00	1.67325986249E+02	-5.21895304458E+01	5.45255721016E+01	-5.97065955216E+00	-7.24586524489E-01
1.43175908434E+06	-1.38382661155E+01	-2.36219481047E-01	-2.63214900205E+00	1.67219155783E+02	-4.55744292189E+01	-9.91504875345E+01	-5.96912129580E+00	-6.87023272765E-01
1.45395043894E+06	-1.50835069828E+01	-1.00045205601E+01	-2.65247959725E+00	1.66915287771E+02	-4.89050080711E+01	1.11298552590E+02	-5.96586320377E+00	-6.94717229903E-01
1.47614179353E+06	-1.42391240599E+01	-3.28403097706E+00	-2.61474498810E+00	1.66612458357E+02	-5.20462179964E+01	-1.36287779113E+02	-5.96185797677E+00	-7.11487024357E-01
1.49833314813E+06	-1.35153005807E+01	3.57778015298E+01	-2.69385052210E+00	1.66479092616E+02	-5.43932309026E+01	-7.75535934634E+01	-5.96516964865E+00	-7.19507485554E-01
1.52052450272E+06	-1.40826563331E+01	3.62551644899E+00	-2.59540949783E+00	1.66180041965E+02	-5.59999178783E+01	1.17842741068E+02	-5.96537706976E+00	-7.57261663952E-01
1.54271585732E+06	-1.45717741923E+01	-6.84979388369E+00	-2.64140617955E+00	1.66124198196E+02	-5.17865814766E+01	-4.11600378899E+01	-5.96026425580E+00	-7.97277896099E-01
1.56490721191E+06	-1.47570537162E+01	-9.28619819888E+00	-2.66988317002E+00	1.65805426512E+02	-5.25084796970E+01	3.00901625935E+01	-5.94383575677E+00	-7.15800540368E-01
1.58709856651E+06	-1.46845471173E+01	3.16692931950E-01	-2.64670351300E+00	1.65753583224E+02	-5.74942136959E+01	1.72004145862E+01	-5.96451764794E+00	-8.41430322612E-01
1.60928992110E+06	-1.50751553885E+01	2.27397811883E+01	-2.73554218380E+00	1.65202067193E+02	-5.34426179372E+01	-1.48808425750E+01	-5.96321585754E+00	-7.56211442193E-01
1.63148127570E+06	-1.48173592848E+01	-1.56205828603E-01	-2.70916282447E+00	1.65185304423E+02	-6.26392010047E+01	-1.71127841672E+02	-5.96528629604E+00	-7.60445197211E-01
1.65367263029E+06	-1.32443883475E+01	8.04799115428E-01	-2.62991257106E+00	1.65057151065E+02	-5.80409557886E+01	3.36883085709E+01	-5.96722997275E+00	-8.97595543730E-01
1.67586398489E+06	-1.40706133819E+01	4.11960461121E+00	-2.66802991517E+00	1.65275337068E+02	-4.73916800710E+01	-1.76601293627E+02	-5.95930801702E+00	-7.97786135626E-01
1.69805533948E+06	-1.38442233226E+01	-5.59912413789E-01	-2.59798467613E+00	1.64570729160E+02	-6.57346572039E+01	2.77626452838E+01	-5.96012048605E+00	-7.54134592000E-01
1.72024669408E+06	-1.79395087728E+01	-1.11722103851E+01	-2.67123569974E+00	1.64199234565E+02	-4.82793081382E+01	9.87298381323E+01	-5.95809180963E+00	-7.75978141464E-01
1.74243804867E+06	-1.20679648106E+01	3.28380750949E+00	-2.67398936427E+00	1.64263815623E+02	-5.03362845806E+01	-1.13098299704E+02	-5.95180621240E+00	-8.60342934050E-01
1.76462940327E+06	-1.38615171073E+01	-3.99278129825E+00	-2.65321723671E+00	1.64058607551E+02	-4.64876186691E+01	1.68462733423E+02	-5.96660622664E+00	-7.67435509568E-01
1.78682075786E+06	-1.38847912748E+01	9.91513021938E+00	-2.67480835966E+00	1.63995058950E+02	-4.96600746095E+01	-1.27437211273E+02	-5.95897118688E+00	-7.84460539622E-01
1.80901211246E+06	-1.30574656249E+01	2.19670056745E+00	-2.66912000605E+00	1.63462717370E+02	-5.10754913791E+01	-1.21258458067E+01	-5.96656746590E+00	-8.92439421028E-01
1.83120346705E+06	-1.49589529129E+01	1.80268859037E+01	-2.67093334185E+00	1.63294056326E+02	-4.92004092188E+01	1.05721550939E+02	-5.96544243677E+00	-8.50909122355E-01
1.85339482165E+06	-1.45388445041E+01	1.35997937078E+00	-2.68499666016E+00	1.63234078010E+02	-5.61671571872E+01	-1.55738091613E+02	-5.97012769350E+00	-9.03429483178E-01
1.87558617624E+06	-1.54714606748E+01	-2.76144964424E+00	-2.66156738001E+00	1.62914661906E+02	-5.43468013132E+01	4.26192686196E+01	-5.97596809401E+00	-9.02759402955E-01
1.89777753084E+06	-1.42462608702E+01	3.57162130860E+00	-2.72423731429E+00	1.62521243310E+02	-4.37490987131E+01	-2.67244265708E+01	-5.97572482448E+00	-8.71565493095E-01
1.91996888543E+06	-1.34567791445E+01	-5.00151575583E+00	-2.63130244818E+00	1.62600226386E+02	-5.32955918093E+01	1.63305825852E+02	-5.97407050604E+00	-9.37812618433E-01
1.94216024003E+06	-1.53437227859E+01	1.36542530301E+01	-2.65756677195E+00	1.62556237453E+02	-5.01837186536E+01	-1.04185209087E+02	-5.96671048625E+00	-8.64854914792E-01
1.96435159462E+06	-1.40954882091E+01	-2.36961005001E+00	-2.64171536969E+00	1.62242768591E+02	-5.10510349967E+01	-2.46769126852E+01	-5.97324435758E+00	-9.86923829039E-01
1.98654294922E+06	-1.35851689311E+01	4.18195611891E-01	-2.66132047365E+00	1.61893873952E+02	-6.91504206644E+01	1.19466659508E+02	-5.95957177423E+00	-8.49971289624E-01
2.00873430381E+06	-1.38389754121E+01	-5.03074394064E-01	-2.72022341558E+00	1.61764154337E+02	-4.62932799918E+01	-1.01283316856E+02	-5.96746451827E+00	-9.35773692743E-01
2.03092565841E+06	-1.40042189859E+01	6.21475570694E+00	-2.69205191989E+00	1.61881524551E+02	-4.88400579983E+01	-1.03193083644E+02	-5.96986880403E+00	-9.10299357786E-01
2.05311701300E+06	-1.34849679252E+01	3.19123394518E+00	-2.70040442706E+00	1.61744688646E+02	-5.06717259339E+01	-2.11871063691E+00	-5.94736879891E+00	-9.07068336218E-01
2.07530836760E+06	-1.28045183266E+01	4.71010606546E+00	-2.70108357785E+00	1.61215851208E+02	-5.12808084503E+01	-1.79321165899E+02	-5.96281482437E+00	-9.68604753868E-01
2.09749972219E+06	-1.41426649915E+01	8.01439473659E+00	-2.77431855607E+00	1.60997953363E+02	-4.60936725587E+01	1.79724138726E+02	-5.95787555265E+00	-9.47797063933E-01
2.11969107679E+06	-1.39084188423E+01	1.43386498573E+00	-2.69658786290E+00	1.60101364946E+02	-5.32462626881E+01	-9.69494778886E+01	-5.95957130023E+00	-9.52206059435E-01
2.14188243138E+06	-1.39893352340E+01	9.29976051320E+00	-2.70244018545E+00	1.60659151930E+02	-5.68421730072E+01	4.64595069592E+01	-5.95527641695E+00	-1.09238655547E+00
2.16407378598E+06	-1.33216335491E+01	-1.33553822594E-01	-2.67962035193E+00	1.60403714004E+02	-5.22469711468E+01	-1.96070818964E+01	-5.97463067161E+00	-1.01684188669E+00
2.18626514057E+06	-1.44736545366E+01	-1.96821943447E+01	-2.72742228710E+00	1.60340981959E+02	-7.13839248419E+01	6.51934119310E+00	-5.96813429729E+00	-1.01883313766E+00
2.20845649517E+06	-1.35159819670E+01	8.67524165213E+00	-2.73237198756E+00	1.59681684835E+02	-4.76272544033E+01	-1.05426644910E+02	-5.96247524647E+00	-1.02347747163E+00
2.23064784976E+06	-1.39085480270E+01	3.84505774025E+00	-2.71677539440E+00	1.59920758692E+02	-4.18957564629E+01	-2.55991668937E+01	-5.96323265002E+00	-1.00318005726E+00
2.25283920436E+06	-1.47671522588E+01	4.63149591522E-01	-2.70968648618E+00	1.59390600319E+02	-6.16419770654E+01	-8.93851289986E+01	-5.95410958233E+00	-1.03972884154E+00
2.27503055895E+06	-1.52346346285E+01	1.00179073566E+01	-2.67576350646E+00	1.59248573609E+02	-5.96921671038E+01	-1.28283558273E+02	-5.97421005115E+00	-1.01803678438E+00
2.29722191355E+06	-1.30063305583E+01	-1.68367624289E+01	-2.73029984122E+00	1.59631438933E+02	-4.96169079631E+01	1.35980294167E+02	-5.96430307650E+00	-1.08113835822E+00
2.31941326814E+06	-1.35972729033E+01	2.99000824066E+00	-2.75480496874E+00	1.59193982949E+02	-4.84564413749E+01	1.74827182199E+02	-5.96412663847E+00	-1.14367027619E+00
2.34160462274E+06	-1.46417037253E+01	4.01735063407E+00	-2.73742908510E+00	1.58990273067E+02	-4.75584204833E+01	8.77568174917E+01	-5.96026638446E+00	-1.08987656241E+00
2.36379597733E+06	-1.35724316093E+01	6.65371498104E+00	-2.74016935032E+00	1.58436774188E+02	-4.78651767599E+01	1.21153727909E+02	-5.95883157773E+00	-1.14231159156E+00
2.38598733193E+06	-1.37877506414E+01	-3.05635971462E+00	-2.71775439468E+00	1.58356034465E+02	-4.57933013361E+01	-1.26161160359E+02	-5.97118478455E+00	-1.08272748499E+00
2.40817868652E+06	-1.55010198755E+01	9.97406132955E-01	-2.73020513536E+00	1.58044089270E+02	-5.05416606192E+01	-8.23930370140E+01	-5.96703969849E+00	-1.17802135778E+00
2.43037004112E+06	-1.40752619454E+01	-2.62560001092E+00	-2.75204950826E+00	1.57817175229E+02	-5.05262061759E+01	-5.59390899244E+01	-5.97682594727E+00	-1.51556519020E+00
2.45256139571E+06	-1.51699985365E+01	3.72272182837E+00	-2.73430457196E+00	1.57963318125E+02	-6.09115480055E+01	7.65737719791E+01	-5.96918963975E+00	-1.16803499002E+00
2.47475275031E+06	-1.29626188198E+01	-8.63070735803E+00	-2.71848415445E+00	1.57237504540E+02	-4.33140757193E+01	-3.84647161486E+01	-5.98383890659E+00	-1.14433724535E+00
2.49694410490E+06	-1.50373823120E+01	-1.15158006647E+00	-2.73411404804E+00	1.57335967295E+02	-4.75199158674E+01	-2.11726745237E+01	-5.97675300275E+00	-1.17763607626E+00
2.51913545950E+06	-1.31826098204E+01	4.09163340025E+00	-2.77413862469E+00	1.57133875368E+02	-6.32915353674E+01	-1.52207109438E+02	-5.97318554818E+00	-1.13092656087E+00
2.54132681409E+06	-1.37446386045E+01	-1.33536481186E+01	-2.71247958390E+00	1.56438874060E+02	-6.40125091701E+01	1.88934839992E+01	-5.96595419259E+00	-1.16140910831E+00
2.56351816869E+06	-1.40806301019E+01	-6.92887572639E+00	-2.75659981386E+00	1.56569120818E+02	-6.03234684994E+01	-1.62927935569E+02	-5.97568730512E+00	-1.16961352063E+00
2.58570952328E+06	-1.54262416483E+01	2.46628248718E+00	-2.74804577421E+00	1.56427123717E+02	-4.34993812488E+01	1.78146764574E+02	-5.96541517135E+00	-1.10841548506E+00
2.60790087788E+06	-1.43994457372E+01	4.78596129591E+00	-2.74457826086E+00	1.56589243248E+02	-6.66249695419E+01	-2.26294685351E+01	-5.98799232606E+00	-1.14153524823E+00
2.63009223247E+06	-1.29744558264E+01	-7.98444016238E+00	-2.74237757081E+00	1.56253497385E+02	-5.01542317795E+01	-2.17647960818E+01	-5.96887923241E+00	-7.67927116574E-01
2.65228358707E+06	-1.78798864171E+01	-2.26970388627E+01	-2.66737816978E+00	1.55503093222E+02	-4.94695959288E+01	-2.46990207790E+01	-5.97120248849E+00	-1.19059684618E+00
2.67447494166E+06	-1.29688006331E+01	-5.56752095594E+00	-2.78071326515E+00	1.55296070960E+02	-5.61155439158E+01	-4.80763888340E+00	-5.97107703834E+00	-1.24741079003E+00
2.69666629626E+06	-1.34111456360E+01	3.65527385833E+00	-2.75267192286E+00	1.55463629683E+02	-6.45533138653E+01	-1.54640694217E+02	-5.96567893765E+00	-1.24137199374E+00
2.71885765085E+06	-1.49864823879E+01	-1.09868725009E+00	-2.81311889555E+00	1.55236608174E+02	-5.37716324986E+01	1.31640796622E+02	-5.96809099722E+00	-1.26600796378E+00
2.74104900545E+06	-1.34112769068E+01	1.45981883111E+00	-2.75739415856E+00	1.55195605941E+02	-5.48677011341E+01	5.09592798466E+01	-5.96148619769E+00	-1.25782936745E+00
2.76324036004E+06	-1.57217228090E+01	-6.77025038805E+00	-2.72461521727E+00	1.54702824745E+02	-5.29993553135E+01	-1.17231438795E+02	-5.95650648359E+00	-1.20919546522E+00
2.78543171463E+06	-1.23975791370E+01	8.09605314781E+00	-2.75102701357E+00	1.55172924645E+02	-5.23969879378E+01	-7.19824096622E+01	-5.96531388634E+00	-1.27080343562E+00
2.80762306923E+06	-1.43913810191E+01	-1.36847250317E+00	-2.81807072789E+00	1.54269663107E+02	-5.21597920548E+01	1.55332788449E+02	-5.96389142689E+00	-1.23931686395E+00
2.82981442382E+06	-1.27151857553E+01	-1.51405074966E+00	-2.77703409519E+00	1.54345040604E+02	-7.23675247211E+01	-1.01356914953E+02	-5.96501694297E+00	-1.30758559246E+00
2.85200577842E+06	-1.43832965365E+01	5.48875365819E+00	-2.82225672184E+00	1.54150257391E+02	-5.05946888971E+01	-1.01596667480E+02	-5.96563048772E+00	-1.34314076155E+00
2.87419713301E+06	-1.30618708406E+01	3.00640299199E+00	-2.77408070012E+00	1.54382435601E+02	-5.55165563744E+01	1.92815307545E+01	-5.96854122617E+00	-1.33063713469E+00
