# Hz S DB R 50
! CMT, M5065, 19127446, 24.2.4/2
! Date: 11/8/2024 6:42:41 PM
! Data: Format (Calibration Info)
! Freq	S11:dB/Ang(F2)	S21:dB/Ang(F2)	S12:dB/Ang(F2)	S22:dB/Ang(F2)
3.00000000000E+05	-1.32046390116E+01	2.39207844966E+01	1.98439476705E+00	1.78622456935E+02	-4.45672812193E+01	9.21246520536E+01	-5.95553802953E+00	-2.60469743544E-01
3.22191354595E+05	-1.33593787074E+01	1.78385306819E+01	1.98511539772E+00	1.78089666911E+02	-5.76408473543E+01	-3.31340028488E+00	-5.97899705654E+00	-1.97904058411E-01
3.44382709190E+05	-1.55753250083E+01	1.12113668003E+01	1.98832826805E+00	1.77400226958E+02	-5.09135984282E+01	3.82934076440E+01	-5.97675583454E+00	-3.26617614821E-01
3.66574063785E+05	-1.34575084711E+01	2.20294039706E+01	1.97698080623E+00	1.77510201172E+02	-4.71671738039E+01	-1.67729187179E+02	-5.97470363396E+00	-2.73889340927E-01
3.88765418380E+05	-1.46668109619E+01	7.36145294530E+00	1.96402744131E+00	1.77039154686E+02	-4.84799810029E+01	-8.99764183468E+01	-5.96850464689E+00	-2.93175573483E-01
4.10956772975E+05	-1.46838098026E+01	1.89499638712E+01	1.98166533617E+00	1.76650349315E+02	-4.95707639873E+01	1.59723789571E+02	-5.97432804791E+00	-3.15893594588E-01
4.33148127570E+05	-1.39207114606E+01	7.56832208101E+00	1.97979040055E+00	1.76170130171E+02	-5.46621540836E+01	-4.61304475600E+01	-5.97744870303E+00	-2.43108581248E-01
4.55339482165E+05	-1.39522981272E+01	1.42154908230E+01	1.93409636892E+00	1.76299074400E+02	-5.66759579524E+01	3.18278560176E+01	-5.97247866159E+00	-3.27725834875E-01
4.77530836760E+05	-1.43825925266E+01	3.25723235214E+00	1.95966709781E+00	1.75827393746E+02	-4.61251583961E+01	1.04947076755E+02	-5.97096553189E+00	-3.44703688232E-01
4.99722191355E+05	-1.55689136279E+01	1.01015534553E+01	1.96887200820E+00	1.75641697233E+02	-5.27412073909E+01	-5.51891803798E+01	-5.95823572828E+00	-2.44388021783E-01
5.21913545950E+05	-1.28192967446E+01	1.00990821801E+01	1.99301599416E+00	1.75136158828E+02	-5.78351424289E+01	-1.11728238174E+02	-5.96525160520E+00	-3.95570254006E-01
5.44104900545E+05	-1.45155262971E+01	2.29994428649E+00	1.95054120052E+00	1.74966252684E+02	-6.45102857725E+01	-1.13867393821E+02	-5.96805710764E+00	-3.02377492422E-01
5.66296255139E+05	-1.42803790203E+01	3.00374135119E+00	1.93891329708E+00	1.74380777184E+02	-5.88838861046E+01	-1.28757010666E+01	-5.97235186112E+00	-4.06462886995E-01
5.88487609734E+05	-1.38298763174E+01	2.32263139282E+01	1.94989341071E+00	1.74496084235E+02	-5.62731130573E+01	-8.13333687353E+01	-5.96606765424E+00	-3.88238066975E-01
6.10678964329E+05	-1.50837180153E+01	2.35530000654E+01	1.93509343621E+00	1.74357429403E+02	-5.18639186949E+01	-1.15387023355E+02	-5.98098317901E+00	1.69458678253E-01
6.32870318924E+05	-1.58476786425E+01	1.70479057616E+01	1.88742429727E+00	1.74028516221E+02	-4.84067685746E+01	1.35836488753E+02	-5.96700382832E+00	-5.51025626451E-02
6.55061673519E+05	-1.30717136546E+01	9.02800265653E+00	1.93229074572E+00	1.73613053745E+02	-5.13337044725E+01	4.22642395322E+01	-5.97472085546E+00	-2.86876008623E-01
6.77253028114E+05	-1.37708696454E+01	-3.41470909988E+00	1.92860440803E+00	1.73213831467E+02	-5.71640749914E+01	-2.52596939963E+01	-5.97966890915E+00	-7.05055835555E-01
6.99444382709E+05	-1.51742114890E+01	6.40129074082E+00	1.93997536230E+00	1.73097203813E+02	-4.67830631081E+01	-1.20432246729E+02	-5.96739422898E+00	-3.54389008860E-01
7.21635737304E+05	-1.41634241888E+01	-4.49006685156E+00	1.94348965833E+00	1.72621431337E+02	-4.78858789168E+01	1.08027333843E+02	-5.97743040420E+00	-5.04633962164E-01
7.43827091899E+05	-1.21614500564E+01	1.20794727652E+01	1.95127034665E+00	1.72666839390E+02	-5.93822555179E+01	1.52132582170E+02	-5.97200159064E+00	-5.29160761572E-01
7.66018446494E+05	-1.35472042500E+01	-3.94875306973E+00	2.00340490134E+00	1.72195922041E+02	-4.50211769012E+01	-2.31108650588E+01	-5.97462465426E+00	-4.24692695160E-01
7.88209801089E+05	-1.39151589451E+01	6.83002534022E+00	1.91070972323E+00	1.71948940531E+02	-5.29803957571E+01	-2.79388099250E+01	-5.97124059921E+00	-3.91132433271E-01
8.10401155684E+05	-1.31950330689E+01	3.10679934072E+01	1.93217139877E+00	1.71741637293E+02	-5.26389017160E+01	-1.63627649567E+02	-5.96826660803E+00	-3.59934004110E-01
8.32592510279E+05	-1.39089860962E+01	6.69065241763E+00	1.96274570822E+00	1.71512411241E+02	-4.97696707614E+01	1.95248549176E+01	-5.97382885289E+00	-4.71125785523E-01
8.54783864874E+05	-1.25714971479E+01	1.11624720730E+01	1.93856387177E+00	1.71258898553E+02	-5.23264532549E+01	-1.08850257333E+02	-5.97869779378E+00	-4.26632161316E-01
8.76975219469E+05	-1.32496282872E+01	5.75661519584E+00	1.93974298673E+00	1.71045203071E+02	-4.57584040106E+01	-2.56754250157E+01	-5.96774694070E+00	-5.00430642654E-01
8.99166574064E+05	-1.34213736893E+01	3.38332567120E+00	2.00179592161E+00	1.70506385472E+02	-5.15836335838E+01	-7.61334073165E+01	-5.98182985457E+00	-4.42727377952E-01
9.21357928659E+05	-1.19323879042E+01	2.15266001325E+01	2.64513557439E+00	1.70327084299E+02	-4.98897723253E+01	-1.30276066002E+02	-5.97497448215E+00	-4.59936659009E-01
9.43549283254E+05	-1.45091440664E+01	3.89903056714E+00	2.65799076564E+00	1.69995857459E+02	-5.73092523028E+01	-5.04826173206E+01	-5.96594454002E+00	-4.79917386945E-01
9.65740637849E+05	-1.22691775374E+01	1.24190999228E+00	2.66952897272E+00	1.69871648668E+02	-7.51977615674E+01	4.29809626582E+01	-5.97003343917E+00	-5.00916861395E-01
9.87931992444E+05	-1.39222109389E+01	2.26553346901E+00	2.64046295254E+00	1.69323817894E+02	-5.06339632603E+01	1.04143612323E+02	-5.97870129873E+00	-4.91568137929E-01
1.01012334704E+06	-1.39922845552E+01	8.49122701064E+00	2.63093119806E+00	1.69248988594E+02	-5.04043294822E+01	-1.36645970921E+02	-5.97081723175E+00	-5.04195963466E-01
1.03231470163E+06	-1.52388430510E+01	7.95360823397E+00	2.63224561095E+00	1.69047541307E+02	-5.83680983693E+01	-1.29693023028E+02	-5.95676732431E+00	-5.27733358256E-01
1.05450605623E+06	-1.44278338614E+01	5.33097792843E+00	2.67444739130E+00	1.68803134899E+02	-4.63911303442E+01	-9.04524473463E+01	-5.98757080751E+00	-5.11969839176E-01
1.07669741082E+06	-1.43417968959E+01	6.26073100878E+00	2.60097435514E+00	1.68373815047E+02	-5.10270392077E+01	-1.05423499171E+02	-5.97974597432E+00	-5.13700449056E-01
1.09888876542E+06	-1.43228215792E+01	-2.15973774793E+00	2.65671841587E+00	1.68056480557E+02	-5.06867398700E+01	-8.01415411898E+01	-5.97358282228E+00	-4.80580515193E-01
1.12108012001E+06	-1.36762064907E+01	4.78622280349E+00	2.61570362960E+00	1.68093668959E+02	-5.27462594634E+01	4.72440836127E+01	-5.97131956884E+00	-5.75287390049E-01
1.14327147461E+06	-1.46734909732E+01	-8.80929590568E+00	2.65019734486E+00	1.67778854004E+02	-5.40785413718E+01	-1.64210416131E+02	-5.97132263754E+00	-5.19966147236E-01
1.16546282920E+06	-1.36992471624E+01	6.90363631488E+00	2.64116617497E+00	1.67320587724E+02	-5.06431121615E+01	1.08006214781E+02	-5.97140557631E+00	-6.10046062121E-01
1.18765418380E+06	-1.34177354799E+01	1.85838009166E+00	2.64401651226E+00	1.67276398418E+02	-5.19088822042E+01	-2.86409701836E+01	-5.96471376293E+00	-6.22673464881E-01
1.20984553839E+06	-1.36364029792E+01	9.47986890682E-01	2.64485012962E+00	1.66964702692E+02	-4.57406948832E+01	1.62119331906E+02	-5.95759777250E+00	-6.58137056587E-01
1.23203689299E+06	-1.41894980787E+01	1.20937102782E+00	2.62494239535E+00	1.66482358927E+02	-5.35627239539E+01	3.61989753111E+01	-5.97662503387E+00	-4.25426180102E-01
1.25422824758E+06	-1.47159476771E+01	1.03964205760E+01	2.60831825643E+00	1.66591833478E+02	-5.68229700299E+01	1.31649730128E+02	-5.97691761485E+00	-5.53547516166E-01
1.27641960218E+06	-1.57487547864E+01	7.55772494609E+00	2.63094717755E+00	1.66279305916E+02	-4.68005903751E+01	-6.16670407897E+01	-5.97813335408E+00	-5.45226451655E-01
1.29861095677E+06	-1.34799609908E+01	3.27384164196E+00	2.60492857021E+00	1.66143219055E+02	-5.56697208522E+01	-1.20266873046E+02	-5.97632527762E+00	-6.13092172028E-01
1.32080231137E+06	-1.45765101835E+01	-5.46268827693E-01	2.64402224474E+00	1.65698048595E+02	-6.21859992068E+01	-1.56931517376E+02	-5.97570583205E+00	-1.02693138446E+00
1.34299366596E+06	-1.44750011354E+01	-8.98978946498E-01	2.63293974363E+00	1.65330768027E+02	-4.46060605472E+01	1.59729238510E+02	-5.96704803642E+00	-6.89024422131E-01
1.36518502056E+06	-1.32415780454E+01	5.29999161237E+00	2.61549123194E+00	1.65322479575E+02	-5.34711993075E+01	-1.67584925880E+01	-5.96743108503E+00	-6.42104871603E-01
1.38737637515E+06	-1.55538238144E+01	6.99409375100E+00	2.60849013190E+00	1.64918606708E+02	-5.44961104906E+01	-1.15693360790E+02	-5.97305851243E+00	-6.89530085212E-01
1.40956772975E+06	-1.37564246347E+01	9.59347356960E+00	2.63369596263E+00	1.64888517068E+02	-5.44218653899E+01	-1.05502046350E+02	-5.96868533612E+00	-6.32237613197E-01
1.43175908434E+06	-1.45396036004E+01	-4.04011190592E+00	2.61096557727E+00	1.64454078721E+02	-5.46459710084E+01	3.71153442701E+01	-5.97435343717E+00	-6.57398790410E-01
1.45395043894E+06	-1.34533883363E+01	1.12992725636E+01	2.61181095675E+00	1.64183608013E+02	-6.09925059231E+01	-7.22031577962E+01	-5.96715274793E+00	-7.10248134328E-01
1.47614179353E+06	-1.52326977298E+01	8.33294328171E+00	2.58471461645E+00	1.63919968313E+02	-4.73128834300E+01	1.41461259280E+02	-5.97344562952E+00	-7.14732710184E-01
1.49833314813E+06	-1.32393971178E+01	1.17324075178E+01	2.60293933111E+00	1.63710794682E+02	-4.95840321302E+01	4.73607220037E+00	-5.97232293886E+00	-7.10356383889E-01
1.52052450272E+06	-1.49474664236E+01	1.41968124765E+00	2.59267241702E+00	1.63408407198E+02	-5.24688409485E+01	-4.55436239747E+01	-5.97116719279E+00	-7.24321405733E-01
1.54271585732E+06	-1.40834089961E+01	8.73579476189E+00	2.57331104697E+00	1.63351697264E+02	-5.62321656229E+01	1.63704611421E+02	-5.98436047745E+00	-7.72001908685E-01
1.56490721191E+06	-1.58159562758E+01	5.17757924457E+00	2.60176764647E+00	1.63051823320E+02	-5.15003712150E+01	1.11292712946E+02	-5.96858049785E+00	-7.25723997797E-01
1.58709856651E+06	-1.39971361172E+01	-1.05523518364E+01	2.62789578289E+00	1.62584084812E+02	-5.05819150655E+01	1.70570390349E+02	-5.96798884179E+00	-7.72679340065E-01
1.60928992110E+06	-1.50416641244E+01	-8.42708525338E+00	2.58104327242E+00	1.62144731860E+02	-6.50180637609E+01	9.80973172081E+00	-5.97173898674E+00	-7.91397169250E-01
1.63148127570E+06	-1.42364502083E+01	-5.38544622240E+00	2.59574166441E+00	1.62271560898E+02	-5.11981611561E+01	4.01264473836E+01	-5.97034451504E+00	-8.44631184746E-01
1.65367263029E+06	-1.34752307110E+01	8.91241936695E+00	2.58909590948E+00	1.62147572925E+02	-6.21928443584E+01	1.35900410406E+02	-5.97928011023E+00	-8.45076031492E-01
1.67586398489E+06	-1.31902477349E+01	4.03190594072E+00	2.58388301021E+00	1.61507293694E+02	-5.02029540537E+01	6.76409758889E+00	-5.97840171437E+00	-8.04601026762E-01
1.69805533948E+06	-1.48733821673E+01	6.32478996063E+00	2.58566221438E+00	1.61596193699E+02	-5.15065578474E+01	-1.37727758676E+02	-5.97153107401E+00	-8.00165771541E-01
1.72024669408E+06	-1.24687589315E+01	4.88792686452E+00	2.56975823072E+00	1.61346517251E+02	-4.68678249984E+01	-1.01255456553E+02	-5.97680096941E+00	-8.80398508563E-01
1.74243804867E+06	-1.46714809877E+01	-7.41927336216E-01	2.57614441052E+00	1.61016055735E+02	-5.49327129278E+01	-1.41144790108E+02	-5.97519825726E+00	-8.74853886717E-01
1.76462940327E+06	-1.37847915122E+01	-7.02820518628E+00	2.58702388124E+00	1.60607178171E+02	-4.64420058940E+01	-3.67802048900E-01	-5.98955876474E+00	-8.11240799027E-01
1.78682075786E+06	-1.33766437766E+01	5.82892006748E+00	2.56269250453E+00	1.60483523428E+02	-4.35509806785E+01	1.20811221274E+02	-5.96135001049E+00	-7.69961056352E-01
1.80901211246E+06	-1.38960600684E+01	2.75880047923E+00	2.57980499656E+00	1.60300164630E+02	-4.86609521412E+01	1.77508003263E+02	-5.96231563986E+00	-8.16376820668E-01
1.83120346705E+06	-1.64495805779E+01	1.44666527520E+01	2.53620004051E+00	1.59791407855E+02	-4.74364916931E+01	-3.80740739201E+01	-5.98135464927E+00	-8.13155466413E-01
1.85339482165E+06	-1.20299236379E+01	-1.42840440643E+01	2.63399451123E+00	1.59764256416E+02	-6.01982573999E+01	8.52066448710E+01	-5.97477833326E+00	-8.91335440584E-01
1.87558617624E+06	-1.43738241357E+01	-4.97928268149E-01	2.53664382283E+00	1.59368627972E+02	-5.18423867946E+01	8.26079891060E+01	-5.96602650808E+00	-9.26634183759E-01
1.89777753084E+06	-1.36708879965E+01	7.28964939958E+00	2.54045736022E+00	1.59279036067E+02	-4.37310393565E+01	-9.88614708554E+01	-5.97978386893E+00	-8.47835359058E-01
1.91996888543E+06	-1.40292523398E+01	1.03171047350E+00	2.55355734415E+00	1.58879327823E+02	-4.41664329976E+01	-1.24157222628E+01	-5.96678831579E+00	-9.26949766869E-01
1.94216024003E+06	-1.43060761289E+01	3.28885061949E+00	2.52230731969E+00	1.58714194709E+02	-5.29349321683E+01	3.43784962963E+01	-5.98269391044E+00	-9.44690022414E-01
1.96435159462E+06	-1.21252500675E+01	2.09810530472E+01	2.53479121346E+00	1.58615051207E+02	-5.19963416556E+01	3.67292327921E+01	-5.97677811050E+00	-9.33353388365E-01
1.98654294922E+06	-1.45831862405E+01	1.01348163376E+01	2.53874249121E+00	1.58266202573E+02	-5.24258921337E+01	9.42135294061E+01	-5.98188971178E+00	-9.10408843320E-01
2.00873430381E+06	-1.43129298314E+01	8.43582008523E+00	2.53499892122E+00	1.58207539736E+02	-5.22720038551E+01	-8.86489489241E+01	-5.97592110503E+00	-9.22578632399E-01
2.03092565841E+06	-1.34441005648E+01	-3.11668747827E+00	2.58389484362E+00	1.57789196058E+02	-3.85944650851E+01	-2.09994701892E+01	-5.99257786366E+00	-9.41625132690E-01
2.05311701300E+06	-1.39333695329E+01	-8.48256440123E+00	2.55100866871E+00	1.57609532466E+02	-5.01574149639E+01	-4.90592283935E+01	-5.98060736987E+00	-9.67753626514E-01
2.07530836760E+06	-1.38428641335E+01	4.00900421660E+00	2.53389351899E+00	1.57390086094E+02	-5.21610543681E+01	-1.60816191292E+02	-5.96444700575E+00	-1.02066482976E+00
2.09749972219E+06	-1.46881121050E+01	6.20666573928E+00	2.47949772539E+00	1.57133759261E+02	-5.81303208049E+01	1.33588656708E+02	-5.96663459950E+00	-9.90619392248E-01
2.11969107679E+06	-1.44892054130E+01	1.26783574766E+00	2.53117980402E+00	1.56641802416E+02	-4.92848416246E+01	-1.35037441698E+02	-5.97131709504E+00	-1.00581996249E+00
2.14188243138E+06	-1.39318696574E+01	-1.57227930101E+00	2.51842948698E+00	1.56554067739E+02	-3.57286206692E+01	-1.11191362383E+02	-5.98197593387E+00	-1.02260023343E+00
2.16407378598E+06	-1.34661835132E+01	6.63468280943E+00	2.53758566038E+00	1.56503569208E+02	-5.55694685488E+01	-4.24574113686E+01	-5.97902225969E+00	-1.02210316488E+00
2.18626514057E+06	-1.44477933157E+01	2.92111732508E+01	2.46981242679E+00	1.55978958525E+02	-6.06772852940E+01	9.27726963578E+01	-5.96980548293E+00	-1.04132958109E+00
2.20845649517E+06	-1.30737451128E+01	-3.96732439041E+00	2.53514626640E+00	1.55994925078E+02	-5.93075136784E+01	-8.55168769428E+01	-5.97288745512E+00	-1.05576423779E+00
2.23064784976E+06	-1.35654094586E+01	1.66921258926E+00	2.53867502673E+00	1.55791365136E+02	-6.11658272515E+01	1.18235731541E+02	-5.96993298555E+00	-1.07239209852E+00
2.25283920436E+06	-1.35056833566E+01	1.10847899599E+00	2.49571958957E+00	1.55509723523E+02	-4.58393020254E+01	9.18166431819E+01	-5.97401006500E+00	-1.03891735988E+00
2.27503055895E+06	-1.29298898130E+01	1.10376704620E+01	2.50074635192E+00	1.55220384483E+02	-4.77690333279E+01	1.67750863782E+02	-5.96880063264E+00	-1.07110825476E+00
2.29722191355E+06	-1.71420456708E+01	-1.29111147818E+01	2.51394338919E+00	1.54748375273E+02	-4.81613661690E+01	2.37583019017E+00	-5.97625714214E+00	-1.08972226963E+00
2.31941326814E+06	-1.53819648771E+01	1.92106813530E+01	2.45273866256E+00	1.54630014934E+02	-5.47515429106E+01	5.17295238120E+01	-5.97185126120E+00	-1.08808978154E+00
2.34160462274E+06	-1.39652072105E+01	-5.28600146715E+00	2.49332825108E+00	1.54376768256E+02	-5.19026183860E+01	-1.59789390719E+02	-5.96476725861E+00	-1.04659762323E+00
2.36379597733E+06	-1.39079941845E+01	-3.46820020299E-01	2.47120409272E+00	1.54148027723E+02	-4.13861465138E+01	-1.46523115279E+02	-5.97800740899E+00	-1.07646112419E+00
2.38598733193E+06	-1.45585120060E+01	-6.14044570707E+00	2.46307789160E+00	1.53821183988E+02	-4.84852914403E+01	-1.10828616768E+02	-5.97147165765E+00	-1.09560333353E+00
2.40817868652E+06	-1.27158815547E+01	7.26228164613E+00	2.47859429062E+00	1.53729304138E+02	-4.94778058500E+01	-1.01555468582E+02	-5.97609312343E+00	-1.15662702094E+00
2.43037004112E+06	-1.61324689721E+01	2.12338187439E+01	2.44220044857E+00	1.53505537253E+02	-5.66037937660E+01	1.64403372306E+01	-5.97279342255E+00	-1.51756258588E+00
2.45256139571E+06	-1.43365535883E+01	3.24656347731E+00	2.47342742697E+00	1.53286113211E+02	-4.74358473017E+01	1.28675233000E+02	-5.97513923849E+00	-1.15687280020E+00
2.47475275031E+06	-1.21793863860E+01	1.20060987858E+00	2.49372631143E+00	1.52803638062E+02	-4.70922714059E+01	1.21083596337E+02	-5.96234160124E+00	-1.18176016867E+00
2.49694410490E+06	-1.42591060086E+01	-3.13844123555E+00	2.46178311376E+00	1.52736513662E+02	-3.83736671288E+01	-2.76550009932E+01	-5.98624676024E+00	-1.13938767796E+00
2.51913545950E+06	-1.32351878813E+01	3.65004292485E+00	2.47851479762E+00	1.52639565512E+02	-4.74346387459E+01	-9.18951988849E+01	-5.98546088974E+00	-1.15686807138E+00
2.54132681409E+06	-1.08480393444E+01	-8.83078444451E+00	2.49072761139E+00	1.52345220172E+02	-5.07883195225E+01	-1.26477708557E+02	-5.97124755045E+00	-1.12430270464E+00
2.56351816869E+06	-1.28804720382E+01	5.68922889209E+00	2.47247564146E+00	1.52112446490E+02	-5.49930307262E+01	-1.57091557346E+02	-5.96956116427E+00	-1.11267625027E+00
2.58570952328E+06	-1.38768350797E+01	3.55121332824E+00	2.45915782634E+00	1.51886944070E+02	-5.07403634761E+01	1.49098701044E+02	-5.96934366039E+00	-1.21394639258E+00
2.60790087788E+06	-1.31334724742E+01	-3.54371116261E+00	2.47185506337E+00	1.51608937021E+02	-3.98825344646E+01	-1.17410270186E+02	-5.98949497600E+00	-1.05637740607E+00
2.63009223247E+06	-1.38763752590E+01	-8.76085015415E-01	2.48478863918E+00	1.51139540960E+02	-5.03908576833E+01	1.07776659838E+02	-5.97073632783E+00	-8.82768435894E-01
2.65228358707E+06	-1.56199888306E+01	-1.59861739178E+01	2.44130348511E+00	1.50933433939E+02	-4.90295410842E+01	-1.41330327720E+02	-5.97055288603E+00	-1.23399174832E+00
2.67447494166E+06	-1.34622956378E+01	6.78378532296E+00	2.44070995495E+00	1.51031825335E+02	-5.67012492116E+01	1.40167914462E+02	-5.96732577060E+00	-1.23109875187E+00
2.69666629626E+06	-1.37352848338E+01	7.59845581900E+00	2.43766649508E+00	1.50941652186E+02	-4.90080663660E+01	1.26112218259E+02	-5.96892510011E+00	-1.27382891555E+00
2.71885765085E+06	-1.37455572982E+01	-5.25535995622E+00	2.41544645961E+00	1.50222103907E+02	-4.37792227234E+01	-1.73408068229E+02	-5.97677314932E+00	-1.20385998557E+00
2.74104900545E+06	-1.39076445895E+01	7.43261020858E-01	2.43670795242E+00	1.49997717195E+02	-5.30230356876E+01	4.38219502734E+01	-5.97650277254E+00	-1.33059632484E+00
2.76324036004E+06	-1.24430230391E+01	4.40574926059E+00	2.43274028996E+00	1.49774159850E+02	-5.04326823846E+01	1.33056660714E+02	-5.97721068666E+00	-1.32733419658E+00
2.78543171463E+06	-1.48215829180E+01	-2.85586583664E+00	2.40056993731E+00	1.49290959970E+02	-5.43699950215E+01	1.21476277976E+02	-5.96974660886E+00	-1.30205479228E+00
2.80762306923E+06	-1.39414966990E+01	-1.58194868421E+01	2.43157466136E+00	1.49262781488E+02	-4.89700958400E+01	-1.22165770522E+02	-5.97374760922E+00	-1.26746495087E+00
2.82981442382E+06	-1.34589807425E+01	3.69173376640E+00	2.39745345407E+00	1.49228540407E+02	-4.16432221701E+01	-2.88470606620E+01	-5.99519955005E+00	-1.33021489138E+00
2.85200577842E+06	-1.21832359081E+01	-1.13506546244E+01	2.44281014986E+00	1.48923676458E+02	-5.49347801734E+01	1.50266336145E+02	-5.98211662600E+00	-1.31331360048E+00
2.87419713301E+06	-1.39542757183E+01	-9.50081110077E+00	2.41660069127E+00	1.48530114528E+02	-5.23562327481E+01	-7.96353715144E+01	-5.97386296746E+00	-1.31543746159E+00
2.89638848761E+06	-1.44995676413E+01	1.43172856923E+01	2.37241052987E+00	1.48381632996E+02	-5.04134903258E+01	1.24053650876E+02	-5.97280907493E+00	-1.35602316634E+00
