# Hz S DB R 50
! CMT, M5065, 19127446, 24.2.4/2
! Date: 11/8/2024 6:32:36 PM
! Data: Format (Calibration Info)
! Freq	S11:dB/Ang(F2)	S21:dB/Ang(F2)	S12:dB/Ang(F2)	S22:dB/Ang(F2)
3.00000000000E+05	-1.50379229454E+01	1.40422182369E+01	-3.96693419755E+00	1.78041692264E+02	-5.53826013321E+01	-1.46530007897E+01	-5.97094101776E+00	-2.93060970276E-01
3.22191354595E+05	-1.51812166391E+01	1.93885910318E+01	-4.06913621953E+00	1.78057272727E+02	-4.49151274541E+01	-6.29361349611E+01	-5.96824218011E+00	-2.40463470764E-01
3.44382709190E+05	-1.41639094723E+01	1.13635840747E+01	-3.97407531957E+00	1.77820894218E+02	-4.48916852305E+01	-2.79936689845E+01	-5.96448296034E+00	-2.21908310198E-01
3.66574063785E+05	-1.38353096807E+01	-1.46402256820E+01	-4.03956777471E+00	1.77508530811E+02	-5.76190708902E+01	-1.34739631094E+02	-5.95454994754E+00	-2.79260294529E-01
3.88765418380E+05	-1.45039364794E+01	1.93863650333E+01	-4.05311520108E+00	1.77790996862E+02	-5.23290761505E+01	-7.55385780190E+01	-5.96271072352E+00	-3.13308029604E-01
4.10956772975E+05	-1.46130081247E+01	1.67078609227E+01	-3.99962404362E+00	1.76802034903E+02	-4.44781221270E+01	-3.80981201710E+01	-5.96617656834E+00	-2.01602789388E-01
4.33148127570E+05	-1.47164909735E+01	9.83383083632E+00	-4.02441545673E+00	1.76659694747E+02	-5.72298136240E+01	-1.25588150963E+02	-5.96639631284E+00	-2.50263622721E-01
4.55339482165E+05	-1.45968191584E+01	3.25276087930E+01	-4.02456611454E+00	1.76364351045E+02	-4.59672758761E+01	1.39378452866E+02	-5.95933441939E+00	-2.84259641447E-01
4.77530836760E+05	-1.42784023560E+01	1.23593692080E+01	-4.07117743871E+00	1.76584238996E+02	-4.56581679784E+01	7.12458502225E+01	-5.96747650139E+00	-2.79040268406E-01
4.99722191355E+05	-1.34384345882E+01	2.03788263527E+01	-4.05088270952E+00	1.76512884661E+02	-5.41155668559E+01	-8.64852309309E+01	-5.95300207366E+00	-3.08604018518E-01
5.21913545950E+05	-1.34344584905E+01	1.11076507853E+01	-3.99337740041E+00	1.75907964376E+02	-5.21663589342E+01	-1.58254300386E+02	-5.96864883410E+00	-2.88184061810E-01
5.44104900545E+05	-1.44551592618E+01	5.25898880320E-01	-4.00829840279E+00	1.75257432720E+02	-5.48136751313E+01	6.51733335693E+01	-5.94763179489E+00	-4.10400088755E-01
5.66296255139E+05	-1.48081367177E+01	1.46280887328E+01	-4.09472546320E+00	1.75427375299E+02	-4.47727406281E+01	-1.13795187950E+02	-5.95566073166E+00	-3.32320234682E-01
5.88487609734E+05	-1.28489754637E+01	7.21354001970E-01	-4.07316237951E+00	1.74811929278E+02	-5.27717398089E+01	-1.38688820551E+02	-5.96339530731E+00	-2.84593739968E-01
6.10678964329E+05	-1.54969874922E+01	1.00097497173E+01	-4.04429857270E+00	1.75118384851E+02	-5.40039841874E+01	-4.64964116719E+01	-5.95580521547E+00	1.55980305952E-01
6.32870318924E+05	-1.30603698593E+01	8.18062389521E+00	-4.09208734256E+00	1.75019896287E+02	-5.91651458068E+01	-1.79928775918E+02	-5.96409695741E+00	-1.50686146902E-01
6.55061673519E+05	-1.53511098378E+01	6.04346493914E+00	-4.05267016151E+00	1.74570861982E+02	-4.71608699580E+01	-4.33010830512E+01	-5.96801950773E+00	-2.64741413177E-01
6.77253028114E+05	-1.28602707931E+01	1.81503011547E+01	-4.01519992165E+00	1.74701077066E+02	-4.82342786428E+01	-9.01554594046E+01	-5.96248502054E+00	-6.38238744845E-01
6.99444382709E+05	-1.41155099280E+01	1.67561350858E+01	-4.00849376733E+00	1.74194469041E+02	-5.25964376207E+01	9.40013541796E+01	-5.96381355031E+00	-4.38538943244E-01
7.21635737304E+05	-1.36623555323E+01	3.68322900980E+00	-4.06832881057E+00	1.73766373334E+02	-4.84262404964E+01	1.21376041829E+02	-5.96143657533E+00	-4.34506497502E-01
7.43827091899E+05	-1.42119970056E+01	1.38868985751E+01	-4.05123275645E+00	1.73732040534E+02	-4.73415594242E+01	-1.48011614013E+02	-5.95689860840E+00	-4.27705930611E-01
7.66018446494E+05	-1.52563861820E+01	9.29480998894E+00	-4.06467821973E+00	1.73787518484E+02	-7.74091850226E+01	-3.47192799560E+01	-5.95961160377E+00	-4.48892254759E-01
7.88209801089E+05	-1.37441917743E+01	9.76317789286E+00	-4.05945150466E+00	1.73669646792E+02	-4.80651429767E+01	1.13584985007E+02	-5.96305898426E+00	-4.72186927365E-01
8.10401155684E+05	-1.47638712614E+01	-6.12257772363E+00	-4.08997017827E+00	1.72948850656E+02	-4.32903309551E+01	-9.93206419158E+01	-5.97493522271E+00	-4.05775855803E-01
8.32592510279E+05	-1.15357086077E+01	1.26980392256E+01	-3.98838219065E+00	1.73008195061E+02	-6.51455193387E+01	-1.35371151505E+02	-5.95871468370E+00	-4.37576904871E-01
8.54783864874E+05	-1.34082040869E+01	3.22682906024E-01	-4.05329801076E+00	1.72662164187E+02	-4.93400407718E+01	1.42905252311E+02	-5.95051514322E+00	-4.32997311482E-01
8.76975219469E+05	-1.46791530218E+01	1.30866850645E+01	-4.10786073165E+00	1.72713755219E+02	-4.96660281042E+01	6.97299956338E+01	-5.95748048121E+00	-4.64882737263E-01
8.99166574064E+05	-1.44267496529E+01	1.32816717585E+01	-4.13216217859E+00	1.72609881592E+02	-6.16209999387E+01	-3.01561433837E+01	-5.96525883739E+00	-4.70223981425E-01
9.21357928659E+05	-1.31838155591E+01	7.14081651839E+00	-4.05084919323E+00	1.72173097695E+02	-4.66288228972E+01	9.28327979598E+01	-5.95693758381E+00	-4.60305360133E-01
9.43549283254E+05	-1.34691433677E+01	7.27876909782E-02	-4.08960383428E+00	1.72156981756E+02	-5.22622892697E+01	1.79041196589E+02	-5.95908742397E+00	-4.99182139001E-01
9.65740637849E+05	-1.56608739498E+01	1.56303742079E+01	-4.09108647640E+00	1.72129078072E+02	-5.08008276576E+01	-1.32975775165E+02	-5.96790969242E+00	-4.91996401478E-01
9.87931992444E+05	-1.41557267372E+01	1.49752527491E+00	-4.06137221701E+00	1.71929377601E+02	-6.12903899072E+01	-8.02027258737E+01	-5.97027188981E+00	-5.02882482219E-01
1.01012334704E+06	-1.34290251613E+01	2.52944410059E+00	-4.10721465320E+00	1.71328409964E+02	-6.69373473335E+01	8.16067188857E+01	-5.96382871763E+00	-5.11267901181E-01
1.03231470163E+06	-1.32888734982E+01	4.77974274146E+00	-4.04913054590E+00	1.71355158877E+02	-4.49606859519E+01	1.28939050501E+01	-5.96018656459E+00	-5.47416931227E-01
1.05450605623E+06	-1.45785312469E+01	1.53840978942E+01	-4.02558175596E+00	1.70658871927E+02	-4.91628123668E+01	-3.50678102179E+01	-5.96251129994E+00	-4.90649010866E-01
1.07669741082E+06	-1.47448059337E+01	-4.79122054668E+00	-4.08305810436E+00	1.70968892418E+02	-5.24582638402E+01	-1.51474302227E+02	-5.95486237531E+00	-5.36532268822E-01
1.09888876542E+06	-1.40480952061E+01	1.58739790042E+01	-4.07728884556E+00	1.70932632082E+02	-5.03702641812E+01	-1.38820286444E+02	-5.95481804967E+00	-5.67766692278E-01
1.12108012001E+06	-1.45431402717E+01	6.09240483096E+00	-4.10830228454E+00	1.70734455426E+02	-5.30449915718E+01	-3.43805108103E+01	-5.96713545685E+00	-5.25111841711E-01
1.14327147461E+06	-1.48792528487E+01	-4.04088019066E+00	-4.08291718686E+00	1.70357405690E+02	-4.76550153062E+01	-1.23116926913E+02	-5.96986367433E+00	-5.33004534272E-01
1.16546282920E+06	-1.57215498451E+01	-8.51685255026E+00	-4.12630564580E+00	1.69991359770E+02	-6.26318340276E+01	1.59193436724E+02	-5.95635628190E+00	-5.36470735220E-01
1.18765418380E+06	-1.49632564260E+01	-1.69145091874E+00	-4.15544706789E+00	1.69947277397E+02	-5.58105924127E+01	-1.41548489252E+02	-5.96446624211E+00	-5.86429684127E-01
1.20984553839E+06	-1.34187010752E+01	2.79516015018E+00	-4.11127245114E+00	1.69285225722E+02	-5.20171846824E+01	9.52459397931E+01	-5.96243703223E+00	-7.20430118895E-01
1.23203689299E+06	-1.54486817820E+01	2.73816817625E+00	-4.09867426219E+00	1.69270995903E+02	-5.44366711935E+01	1.54570477288E+02	-5.96705682457E+00	-4.38941534554E-01
1.25422824758E+06	-1.28238862610E+01	8.10377515508E+00	-4.06658503825E+00	1.69030232383E+02	-4.67678098592E+01	4.49026761522E+01	-5.97621114501E+00	-6.25468992505E-01
1.27641960218E+06	-1.39938354639E+01	-1.07216688192E+00	-4.10648352648E+00	1.68908415384E+02	-5.13282960441E+01	-1.39713335786E+02	-5.96312537718E+00	-5.63275986802E-01
1.29861095677E+06	-1.27413768022E+01	6.10794983954E+00	-4.10984739407E+00	1.68680006998E+02	-5.10184373063E+01	6.60653040809E+01	-5.97526929461E+00	-5.69414705208E-01
1.32080231137E+06	-1.31209511684E+01	-5.83947089043E+00	-4.08933256279E+00	1.68509389766E+02	-5.11696802120E+01	-1.22729581687E+02	-5.96405485201E+00	-9.13383018127E-01
1.34299366596E+06	-1.36029084892E+01	1.07972190523E+01	-4.07761714132E+00	1.68138938920E+02	-6.14543622715E+01	1.39873630362E+02	-5.96810039389E+00	-6.97259957457E-01
1.36518502056E+06	-1.39814318305E+01	1.01042154495E+01	-4.10044512418E+00	1.68292484302E+02	-5.16236348207E+01	1.10299403140E+02	-5.96464195538E+00	-5.55574085204E-01
1.38737637515E+06	-1.30357113810E+01	1.62529103198E+01	-4.10299065583E+00	1.68007069890E+02	-4.84097226247E+01	-1.69710459857E+02	-5.96671184728E+00	-5.66966329405E-01
1.40956772975E+06	-1.36896012469E+01	3.19217265679E+00	-4.12429516042E+00	1.67654513839E+02	-5.70461807021E+01	-1.27569698968E+02	-5.96337109965E+00	-6.81918294250E-01
1.43175908434E+06	-1.37272457204E+01	6.92229007467E+00	-4.11216341643E+00	1.67656313982E+02	-5.91841539460E+01	-3.09609067992E+01	-5.97163667363E+00	-6.81399187521E-01
1.45395043894E+06	-1.49338972129E+01	5.62037374712E+00	-4.13313111834E+00	1.67239534832E+02	-6.22577767382E+01	-6.24326902017E+01	-5.96649988085E+00	-6.28460985506E-01
1.47614179353E+06	-1.28671063950E+01	-1.55877608263E+00	-4.08936480961E+00	1.67479640351E+02	-4.75058214187E+01	9.77444851896E+00	-5.96573455553E+00	-7.06232173170E-01
1.49833314813E+06	-1.56161583249E+01	1.15877418061E+01	-4.08295274244E+00	1.67062391919E+02	-5.07489990312E+01	2.48656650276E+01	-5.96220444704E+00	-6.82689948920E-01
1.52052450272E+06	-1.60670492500E+01	-1.68213307284E+01	-4.10845755900E+00	1.66945616616E+02	-5.69664505298E+01	-6.75937894483E+01	-5.95999349270E+00	-7.40592705358E-01
1.54271585732E+06	-1.33100549170E+01	9.89012961568E+00	-4.10315124147E+00	1.66875580471E+02	-4.73822212916E+01	1.17330912318E+02	-5.95993863566E+00	-7.16025841032E-01
1.56490721191E+06	-1.65510576956E+01	1.91356210375E+00	-4.15303232453E+00	1.66771954761E+02	-5.74312720288E+01	1.10585939348E+02	-5.96641413966E+00	-7.40918614081E-01
1.58709856651E+06	-1.79980382980E+01	8.82907549290E-01	-4.14018934357E+00	1.65959148139E+02	-5.13005826998E+01	-1.72031720514E+02	-5.96947991514E+00	-7.16762976326E-01
1.60928992110E+06	-1.35276243341E+01	-1.61667428908E+00	-4.09147599604E+00	1.65520669214E+02	-3.95341900391E+01	-3.45878719889E+01	-5.97300771926E+00	-7.93901558857E-01
1.63148127570E+06	-1.42225544164E+01	4.09579060608E+00	-4.18103947532E+00	1.65959386716E+02	-5.17806845112E+01	-2.91119151793E+01	-5.96302002236E+00	-7.03288399994E-01
1.65367263029E+06	-1.42501783192E+01	5.29301824581E+00	-4.11625732980E+00	1.65306357697E+02	-5.64207861453E+01	-1.17951147302E+02	-5.96290986024E+00	-8.41475367049E-01
1.67586398489E+06	-1.48844010951E+01	-1.34467655984E+00	-4.14862962073E+00	1.65355989034E+02	-5.34800838845E+01	-1.66161626009E+02	-5.96850744275E+00	-7.97570971377E-01
1.69805533948E+06	-1.42559292213E+01	8.80167969141E-01	-4.15822003755E+00	1.65410268596E+02	-5.05152432653E+01	-1.17849321665E+02	-5.96585685566E+00	-7.95763568824E-01
1.72024669408E+06	-1.33381140968E+01	6.37351815743E+00	-4.18378708165E+00	1.65063363736E+02	-4.32091832848E+01	-1.32394241344E+02	-5.97556318367E+00	-7.23490350484E-01
1.74243804867E+06	-1.47306098051E+01	-7.50005850117E+00	-4.14905486052E+00	1.64897034662E+02	-5.39808638478E+01	-1.01230898362E+02	-5.95694375327E+00	-7.71495204878E-01
1.76462940327E+06	-1.22812702395E+01	7.26816413330E+00	-4.14519086982E+00	1.64599043395E+02	-4.91245438266E+01	1.60844250921E+02	-5.96750242552E+00	-8.54664896954E-01
1.78682075786E+06	-1.64030927525E+01	3.14418229777E+00	-4.11111912894E+00	1.64384976589E+02	-7.74160291169E+01	4.11290510298E+01	-5.96025621292E+00	-8.04323246261E-01
1.80901211246E+06	-1.33375265370E+01	1.61266214390E+00	-4.14545503770E+00	1.64071381697E+02	-5.23520061457E+01	-1.71367130887E+02	-5.97197531875E+00	-8.67475754594E-01
1.83120346705E+06	-1.53458551465E+01	-6.33323518644E+00	-4.18841610369E+00	1.63801311662E+02	-5.40182150458E+01	-3.93249201864E+01	-5.96598368694E+00	-8.82722182874E-01
1.85339482165E+06	-1.44043104970E+01	1.94301389684E+00	-4.13672373027E+00	1.63803816425E+02	-5.34088104041E+01	-4.26769089020E+01	-5.95905780962E+00	-8.89471419991E-01
1.87558617624E+06	-1.39282380050E+01	-1.21037210826E+01	-4.12029035198E+00	1.63303681409E+02	-4.82510900094E+01	-2.03667400003E+01	-5.96733687619E+00	-9.02129110811E-01
1.89777753084E+06	-1.55041095807E+01	1.19657277647E+01	-4.15105357503E+00	1.63358006189E+02	-6.00711421202E+01	3.36150950538E+01	-5.95715304793E+00	-8.46789234507E-01
1.91996888543E+06	-1.45924499480E+01	1.13934119824E+01	-4.20220157053E+00	1.63211878665E+02	-5.42788651945E+01	-4.93975771969E+01	-5.96682709002E+00	-9.07245466905E-01
1.94216024003E+06	-1.36941511186E+01	4.76208259047E+00	-4.12973058796E+00	1.63089045347E+02	-5.61032493913E+01	6.49233017241E+01	-5.96214542240E+00	-9.09074012272E-01
1.96435159462E+06	-1.36470877846E+01	-6.25870649949E+00	-4.13752372413E+00	1.62995907742E+02	-4.86010789549E+01	-6.17713894757E+00	-5.97383588169E+00	-9.08705829040E-01
1.98654294922E+06	-1.18713207028E+01	5.08470255166E+00	-4.18613172806E+00	1.62406657488E+02	-5.51945238552E+01	1.36021124699E+02	-5.96022485583E+00	-9.56559260811E-01
2.00873430381E+06	-1.42222295720E+01	1.26777326716E+00	-4.15333274775E+00	1.62658785308E+02	-4.92477630640E+01	-3.04758403455E+00	-5.96821782663E+00	-8.77434279385E-01
2.03092565841E+06	-1.42520015971E+01	1.14001555234E+01	-4.12390073387E+00	1.62232637545E+02	-4.40707616994E+01	-8.12050366671E+01	-5.96853016807E+00	-9.28142229954E-01
2.05311701300E+06	-1.40347249391E+01	-9.33838504189E-01	-4.12390187787E+00	1.61871220738E+02	-4.30004690688E+01	3.18580655595E+00	-5.97186364639E+00	-9.62887898224E-01
2.07530836760E+06	-1.44784012348E+01	4.96240477848E+00	-4.14441780531E+00	1.61935691044E+02	-3.70101703882E+01	4.51218524939E+01	-5.95847976781E+00	-9.68764155087E-01
2.09749972219E+06	-1.65196946558E+01	1.70392014235E+01	-4.13745098729E+00	1.61276159812E+02	-5.36158684902E+01	1.36632004978E+02	-5.96558513879E+00	-1.04938430862E+00
2.11969107679E+06	-1.40009745792E+01	1.15026934221E+01	-4.22327392629E+00	1.61648849546E+02	-4.86412731277E+01	1.08288884728E+02	-5.97314538234E+00	-9.85966926651E-01
2.14188243138E+06	-1.44334073093E+01	8.30100386504E-01	-4.21894739994E+00	1.61332980154E+02	-5.65566429705E+01	-5.79633599949E+01	-5.96037045432E+00	-1.03892282423E+00
2.16407378598E+06	-1.31259469918E+01	2.80923139433E+00	-4.18675352353E+00	1.61162175631E+02	-6.95038180806E+01	1.62669941810E+02	-5.95960342434E+00	-9.95390010683E-01
2.18626514057E+06	-1.48539731205E+01	-5.84045055880E+00	-4.16896059531E+00	1.60617990964E+02	-3.51930943197E+01	1.47746838208E+02	-5.96786434280E+00	-9.57425565920E-01
2.20845649517E+06	-1.46979245271E+01	-2.94197122146E+00	-4.14952900941E+00	1.60901390347E+02	-4.99452905978E+01	1.08918983668E+02	-5.95209830915E+00	-1.01455204353E+00
2.23064784976E+06	-1.47835106087E+01	-1.32624459201E+01	-4.22100161967E+00	1.60581533795E+02	-4.97747698037E+01	-6.61864447655E+01	-5.96781183246E+00	-1.06959310350E+00
2.25283920436E+06	-1.43284457047E+01	-4.65702257851E+00	-4.16384877961E+00	1.59881057701E+02	-5.51139280778E+01	1.74749114324E+02	-5.96553083584E+00	-1.02062257592E+00
2.27503055895E+06	-1.41264536124E+01	-1.13224297742E+00	-4.14521930306E+00	1.60193425136E+02	-5.47020094242E+01	1.15332228492E+02	-5.95994635759E+00	-1.09369207650E+00
2.29722191355E+06	-1.48183286092E+01	2.48581452649E+00	-4.16891274095E+00	1.60096611576E+02	-5.00965377283E+01	1.33210093480E+02	-5.96249697261E+00	-1.02605658425E+00
2.31941326814E+06	-1.35372524108E+01	1.17010913633E-01	-4.15408635119E+00	1.60052091097E+02	-5.79033839957E+01	-1.17439527784E+02	-5.95474897331E+00	-1.08993085643E+00
2.34160462274E+06	-1.39704862298E+01	-9.37085413018E+00	-4.16746525991E+00	1.59312918626E+02	-5.10559357472E+01	3.66001657140E+01	-5.97106591732E+00	-1.11982799439E+00
2.36379597733E+06	-1.42064939775E+01	9.91195969124E+00	-4.21888569417E+00	1.59211670060E+02	-5.03293934535E+01	1.12300246401E+02	-5.95913348584E+00	-1.06740423123E+00
2.38598733193E+06	-1.37165504104E+01	1.81329369914E+00	-4.20599632560E+00	1.59182345066E+02	-5.05952743333E+01	1.89089127710E+01	-5.95970150505E+00	-1.18588883474E+00
2.40817868652E+06	-1.35383376273E+01	4.33398020165E+00	-4.21141054931E+00	1.59191174902E+02	-4.94175148373E+01	-1.75783925667E+02	-5.95880773883E+00	-1.22598979685E+00
2.43037004112E+06	-1.32100157113E+01	6.73408325841E+00	-4.23734353741E+00	1.58807802630E+02	-5.08731427526E+01	1.53825860315E+02	-5.96068228033E+00	-1.47914185454E+00
2.45256139571E+06	-1.13006722996E+01	-6.19028455310E+00	-4.23048054567E+00	1.58812297441E+02	-4.40242440946E+01	1.55274959368E+02	-5.97045021088E+00	-1.15705586742E+00
2.47475275031E+06	-1.49132754889E+01	-2.57332832277E+00	-4.21714503319E+00	1.58289499917E+02	-5.19281095069E+01	1.64684473240E+02	-5.97243180927E+00	-1.08986832845E+00
2.49694410490E+06	-1.21493894251E+01	2.01757049167E+00	-4.22514296664E+00	1.58458078300E+02	-4.89487809547E+01	-3.09783925389E+00	-5.97943288047E+00	-1.09966407439E+00
2.51913545950E+06	-1.44707614470E+01	3.87374428108E+00	-4.18935762315E+00	1.57906977744E+02	-4.02772961893E+01	1.26578640255E+02	-5.96450159890E+00	-1.10024061394E+00
2.54132681409E+06	-1.23260722374E+01	-3.91233706248E+00	-4.19664795190E+00	1.57969654209E+02	-5.56648974000E+01	1.27704385837E+02	-5.96456164979E+00	-1.13512509500E+00
2.56351816869E+06	-1.28964588255E+01	8.31448627280E+00	-4.22692217345E+00	1.57710319503E+02	-5.16136860601E+01	-1.10671620236E+02	-5.97284612007E+00	-1.16422154602E+00
2.58570952328E+06	-1.44820597499E+01	-6.19570941213E+00	-4.16738109353E+00	1.57333426720E+02	-5.81695492743E+01	4.38975177164E+01	-5.96281489677E+00	-1.24267445589E+00
2.60790087788E+06	-1.32863294496E+01	6.72197874803E-01	-4.25507913468E+00	1.57128580179E+02	-5.62474468842E+01	-1.50682450840E+02	-5.97497707661E+00	-1.12243665612E+00
2.63009223247E+06	-1.34083871325E+01	-1.80347224916E+00	-4.19737149417E+00	1.56870571722E+02	-4.15783415339E+01	-1.02075752611E+02	-5.98213490866E+00	-7.36706357997E-01
2.65228358707E+06	-1.44806629715E+01	3.22596871581E+00	-4.23326629901E+00	1.57082809546E+02	-4.70883606407E+01	-1.07865066622E+02	-5.97013900454E+00	-1.16233912221E+00
2.67447494166E+06	-1.44810899289E+01	9.90416673997E-01	-4.23213150307E+00	1.56922271675E+02	-5.39108757703E+01	1.76880989419E+02	-5.96162794084E+00	-1.24331250005E+00
2.69666629626E+06	-1.23025977250E+01	-7.87766010272E-01	-4.22038486342E+00	1.56359496728E+02	-5.13260760855E+01	1.06603893618E+02	-5.96810470043E+00	-1.20474725566E+00
2.71885765085E+06	-1.40419837575E+01	-5.18538541410E-01	-4.22805330300E+00	1.56184510002E+02	-5.34848160988E+01	1.05790182178E+02	-5.96656702272E+00	-1.19374383679E+00
2.74104900545E+06	-1.38161987030E+01	7.88301648876E-01	-4.26386216199E+00	1.56192300428E+02	-4.54408441143E+01	8.89481539999E-01	-5.98140943031E+00	-1.22815779278E+00
2.76324036004E+06	-1.30593484812E+01	-9.80869992046E+00	-4.25867938690E+00	1.55759416844E+02	-4.19250518781E+01	-1.78210530130E+02	-5.96554027197E+00	-1.31026301115E+00
2.78543171463E+06	-1.28808058569E+01	1.76882399959E+01	-4.31094407977E+00	1.55988613672E+02	-5.21933792472E+01	-1.72010944413E+02	-5.97568671778E+00	-1.27023936697E+00
2.80762306923E+06	-1.38212144794E+01	3.84743631096E+00	-4.24683178323E+00	1.55521452515E+02	-5.74262756114E+01	9.39726295906E+01	-5.97416919194E+00	-1.27958382957E+00
2.82981442382E+06	-1.56862063521E+01	6.17526826076E+00	-4.28048027499E+00	1.55498271980E+02	-6.11961798405E+01	1.19241746711E+02	-5.96882892037E+00	-1.27598042735E+00
2.85200577842E+06	-1.31169551968E+01	-8.40495252861E-01	-4.20044628726E+00	1.54795077224E+02	-5.12554876901E+01	-1.67628836806E+02	-5.95762173754E+00	-1.39083739592E+00
2.87419713301E+06	-1.29401870518E+01	-5.40428535050E+00	-4.30136955654E+00	1.55094668486E+02	-4.89848867573E+01	9.44717701262E+01	-5.95506130095E+00	-1.35686852587E+00
