# Hz S DB R 50
! CMT, M5065, 19127446, 24.2.4/2
! Date: 11/8/2024 6:30:33 PM
! Data: Format (Calibration Info)
! Freq	S11:dB/Ang(F2)	S21:dB/Ang(F2)	S12:dB/Ang(F2)	S22:dB/Ang(F2)
3.00000000000E+05	-1.54735434821E+01	2.50285416440E+01	-5.22771823228E+00	1.78773006702E+02	-5.08802215137E+01	-9.96854814025E+01	-5.95197846315E+00	-2.07042164909E-01
3.22191354595E+05	-1.40330207964E+01	2.10109623016E+01	-5.24384633547E+00	1.77919939012E+02	-5.78928807322E+01	-2.46354034754E+01	-5.95637788572E+00	-2.38118113338E-01
3.44382709190E+05	-1.35829281417E+01	2.02997298048E+01	-5.22822238297E+00	1.78151043105E+02	-4.80387929528E+01	-8.98092070571E+00	-5.94969392839E+00	-2.87474773373E-01
3.66574063785E+05	-1.29732578843E+01	1.27905248750E+01	-5.21875560823E+00	1.77743286691E+02	-4.80535756800E+01	-6.73085655994E+01	-5.95491930706E+00	-2.29583680864E-01
3.88765418380E+05	-1.66026818216E+01	2.22403307495E+01	-5.27238619637E+00	1.77083159983E+02	-5.16697591602E+01	-7.44704772761E+01	-5.94895862518E+00	-4.81574711570E-01
4.10956772975E+05	-1.38132096965E+01	1.94671116358E+01	-5.33952089853E+00	1.77237706247E+02	-4.82314403627E+01	-2.15525017095E+01	-5.95593361480E+00	-3.23287533279E-01
4.33148127570E+05	-1.57478776111E+01	2.18296031730E+00	-5.26266237257E+00	1.77033548204E+02	-4.68506899974E+01	-1.70878149973E+01	-5.96249448280E+00	-3.26045509546E-01
4.55339482165E+05	-1.44692297029E+01	8.91057541484E+00	-5.31121168232E+00	1.76670735848E+02	-4.28679177190E+01	-1.63650145407E+02	-5.94743128517E+00	-3.20426209108E-01
4.77530836760E+05	-1.39801279041E+01	5.00848741881E+00	-5.29383424308E+00	1.76247071623E+02	-4.29994425249E+01	-2.63598443096E+01	-5.96352134614E+00	-3.29532166243E-01
4.99722191355E+05	-1.42988880919E+01	1.05098386784E+01	-5.28325664757E+00	1.76376043325E+02	-5.09605233783E+01	-1.31975194327E+02	-5.96180960313E+00	-2.42327191986E-01
5.21913545950E+05	-1.32801729320E+01	1.10086275472E+01	-5.32691639380E+00	1.75933625908E+02	-4.81795115310E+01	-2.43855335289E+01	-5.94997155044E+00	-3.94323534432E-01
5.44104900545E+05	-1.61994111232E+01	8.04008275000E+00	-5.35804509281E+00	1.75696292764E+02	-4.97671222846E+01	-3.50313987789E+01	-5.95944404281E+00	-2.88851193214E-01
5.66296255139E+05	-1.51484901115E+01	7.53100181904E+00	-5.29925543187E+00	1.75361834404E+02	-5.29961121761E+01	8.57441739681E+01	-5.95321539742E+00	-2.85980571187E-01
5.88487609734E+05	-1.36089632708E+01	1.38336054830E+01	-5.24443723877E+00	1.75807015691E+02	-4.94903174105E+01	3.49723061759E+01	-5.95324952805E+00	-4.02171371046E-01
6.10678964329E+05	-1.47226829153E+01	-9.65783670482E-01	-5.29608542035E+00	1.75425874787E+02	-5.21388607989E+01	-5.64369885088E+01	-5.96152210771E+00	1.42586721187E-01
6.32870318924E+05	-1.62372874673E+01	1.62504168071E+01	-5.32809775183E+00	1.75148098769E+02	-5.76173511482E+01	1.78776720248E+02	-5.95808820762E+00	-1.09010738436E-01
6.55061673519E+05	-1.51327727186E+01	6.79430033843E+00	-5.27136530145E+00	1.74718150094E+02	-5.53417838036E+01	-8.20396540501E+01	-5.95712749438E+00	-2.17692498263E-01
6.77253028114E+05	-1.71674987786E+01	7.49831648633E+00	-5.27690483846E+00	1.74319880333E+02	-5.36891199337E+01	-1.27544343585E+02	-5.96327883918E+00	-6.21764888415E-01
6.99444382709E+05	-1.50985557529E+01	7.19786048995E+00	-5.37493703013E+00	1.74569008889E+02	-4.99033091134E+01	-1.16558933626E+02	-5.95370232679E+00	-4.69445492086E-01
7.21635737304E+05	-1.36510222508E+01	1.90092618228E+01	-5.28413875469E+00	1.74704825212E+02	-5.22990742768E+01	7.93003927214E+01	-5.95508425313E+00	-3.79096147822E-01
7.43827091899E+05	-1.64904381419E+01	1.65653846954E+01	-5.31227447981E+00	1.74058635695E+02	-4.98044561215E+01	7.18239669530E+01	-5.95313521745E+00	-3.51441101658E-01
7.66018446494E+05	-1.37864353956E+01	2.75114670394E+00	-5.31509727155E+00	1.73631384174E+02	-5.03690102095E+01	1.59433357229E+02	-5.94618539325E+00	-3.99749384487E-01
7.88209801089E+05	-1.42031152637E+01	2.66605252886E+00	-5.25767175739E+00	1.73365571875E+02	-5.80378061249E+01	1.60570704729E+02	-5.95495664346E+00	-4.17681341466E-01
8.10401155684E+05	-1.37243916455E+01	5.04365736797E+00	-5.32617248326E+00	1.73012636947E+02	-4.79908830712E+01	-1.22214347878E+02	-5.95106070422E+00	-4.51332842333E-01
8.32592510279E+05	-1.42017818020E+01	8.74558967389E-01	-5.37134207795E+00	1.73036206506E+02	-5.00789992967E+01	1.03449954910E+02	-5.95351950046E+00	-4.33983380110E-01
8.54783864874E+05	-1.43480831732E+01	1.49706772577E+01	-5.32989764828E+00	1.73019895092E+02	-5.55375696380E+01	-5.17393729466E+01	-5.96188557157E+00	-3.77888182540E-01
8.76975219469E+05	-1.39095849051E+01	1.16823344911E+01	-5.29893124441E+00	1.72505979170E+02	-5.38126238993E+01	-1.63005807565E+02	-5.95562503934E+00	-4.15210804514E-01
8.99166574064E+05	-1.42308422566E+01	-2.30294291242E+00	-5.33664948733E+00	1.72517343631E+02	-5.05094241944E+01	-5.79497045829E+01	-5.96205725001E+00	-4.46376566953E-01
9.21357928659E+05	-1.41550193506E+01	5.51164805227E+00	-5.18695913194E+00	1.72593557947E+02	-4.79139532839E+01	-1.54816163251E+02	-5.96787841772E+00	-4.99972368195E-01
9.43549283254E+05	-1.55435445453E+01	-8.75421875451E-01	-5.05775645987E+00	1.71820735990E+02	-4.67119779597E+01	-1.56935846864E+02	-5.96553029162E+00	-4.56882835142E-01
9.65740637849E+05	-1.40923060144E+01	1.80692696106E+01	-5.04676209499E+00	1.71935418251E+02	-4.80413075144E+01	-8.73744399070E+01	-5.95822359620E+00	-3.91573118149E-01
9.87931992444E+05	-1.44836480724E+01	8.35072562837E+00	-5.03218422292E+00	1.71805185192E+02	-5.93776777136E+01	-7.51147389671E+01	-5.95616128760E+00	-3.55369344081E-01
1.01012334704E+06	-1.51817068609E+01	-4.66938299386E+00	-5.02278994152E+00	1.71744895547E+02	-5.39185176136E+01	5.31866464154E+01	-5.96365998134E+00	-5.33969497121E-01
1.03231470163E+06	-1.43201283375E+01	1.99386225737E+00	-5.10437802353E+00	1.71800286068E+02	-4.70275783509E+01	7.64528416786E+01	-5.95852800165E+00	-4.46265118120E-01
1.05450605623E+06	-1.42991049831E+01	7.88696237173E+00	-5.01230292956E+00	1.70758652160E+02	-4.98964010112E+01	-9.24102932062E+01	-5.95974967471E+00	-5.39626501262E-01
1.07669741082E+06	-1.48134936479E+01	9.91901044817E+00	-5.01918380477E+00	1.71029677612E+02	-4.76082457580E+01	6.96217382007E+00	-5.96552112996E+00	-6.37267914693E-01
1.09888876542E+06	-1.38906414262E+01	1.05989678825E+01	-5.06192502521E+00	1.70921742218E+02	-5.16389045642E+01	-1.76092694274E+02	-5.95408205971E+00	-4.41586654632E-01
1.12108012001E+06	-1.36191839316E+01	7.30182769339E+00	-5.05931038619E+00	1.70783157176E+02	-5.05414044417E+01	-9.80429070326E+01	-5.95288276716E+00	-5.67620054763E-01
1.14327147461E+06	-1.38033897090E+01	4.33062924467E+00	-5.07656676306E+00	1.70204687324E+02	-5.67292701685E+01	1.70250286791E+02	-5.96466785583E+00	-5.11984067665E-01
1.16546282920E+06	-1.38110377217E+01	6.75615986836E+00	-5.10862190703E+00	1.69827167559E+02	-4.85211165249E+01	-2.31400046687E+01	-5.96074792064E+00	-5.39904554646E-01
1.18765418380E+06	-1.42872549939E+01	-8.36822048129E+00	-5.04757106576E+00	1.69975852624E+02	-5.44571907760E+01	-7.64645599511E+01	-5.96392713739E+00	-6.24908322108E-01
1.20984553839E+06	-1.45191964751E+01	7.54623036586E+00	-5.05185542800E+00	1.69808172012E+02	-5.71147344497E+01	-1.05370723067E+02	-5.96251152012E+00	-7.41493273984E-01
1.23203689299E+06	-1.38862189299E+01	1.59570426290E-01	-5.03379596603E+00	1.69785072532E+02	-5.26000008572E+01	1.21887065462E+02	-5.97386985009E+00	-3.91087722264E-01
1.25422824758E+06	-1.49382255269E+01	5.44362149562E+00	-5.04167829834E+00	1.69401158499E+02	-5.22555965956E+01	1.43411439108E+02	-5.95978531707E+00	-5.58375451109E-01
1.27641960218E+06	-1.38999811451E+01	-1.97093894758E+00	-5.08069919763E+00	1.69370385690E+02	-4.81056058009E+01	6.47305860847E+01	-5.96336943461E+00	-5.96038236391E-01
1.29861095677E+06	-1.35342028031E+01	-1.93898668015E+00	-5.10398916197E+00	1.69394428816E+02	-6.07166019249E+01	-6.40699219634E+01	-5.96368653387E+00	-5.75038654500E-01
1.32080231137E+06	-1.33952616692E+01	1.52161886735E+01	-5.03769670865E+00	1.69103721894E+02	-6.70441602819E+01	9.78744409178E+01	-5.96636753714E+00	-9.68265580116E-01
1.34299366596E+06	-1.48363025473E+01	1.77232589275E+00	-5.07529629723E+00	1.69057862895E+02	-4.97999079030E+01	-4.38687083537E+01	-5.94769416362E+00	-7.05895268863E-01
1.36518502056E+06	-1.32495458367E+01	5.56092651597E+00	-5.07162389071E+00	1.68514248737E+02	-4.91017820624E+01	-1.25958023937E+02	-5.96388745151E+00	-5.39111667138E-01
1.38737637515E+06	-1.31350174502E+01	6.36840109347E+00	-5.07259353388E+00	1.68443856755E+02	-4.32245393382E+01	-4.83456623058E-01	-5.96567106179E+00	-6.72061289112E-01
1.40956772975E+06	-1.52368072076E+01	1.24692209649E+01	-5.03219927310E+00	1.68286379953E+02	-5.12883418284E+01	3.74457982701E+01	-5.96263289091E+00	-6.95102927354E-01
1.43175908434E+06	-1.36717132242E+01	4.36513370025E+00	-5.07573293609E+00	1.68111694142E+02	-5.52481982203E+01	1.31981615458E+02	-5.96149592604E+00	-7.31840061187E-01
1.45395043894E+06	-1.41166257905E+01	-3.96100097633E+00	-5.12163306440E+00	1.67653787692E+02	-4.88200273436E+01	6.71018748280E+01	-5.95564557046E+00	-6.39817323394E-01
1.47614179353E+06	-1.42273798441E+01	1.34408421654E+01	-5.08370158900E+00	1.67722036738E+02	-5.24160531597E+01	-1.47121384599E+02	-5.95627313930E+00	-7.00035327190E-01
1.49833314813E+06	-1.58832813588E+01	1.42918159628E+01	-5.10650738384E+00	1.67271684873E+02	-4.54028616236E+01	2.94085563955E+01	-5.96198855894E+00	-7.44772033092E-01
1.52052450272E+06	-1.33386479621E+01	-6.02017413957E+00	-5.10516969797E+00	1.67175620351E+02	-5.49827507684E+01	-1.58920053180E+02	-5.96020836853E+00	-7.80876826956E-01
1.54271585732E+06	-1.37289058659E+01	1.06813448493E+01	-5.13269985693E+00	1.67013930887E+02	-4.49011832229E+01	-1.24271937641E+02	-5.96352440266E+00	-6.94718100426E-01
1.56490721191E+06	-1.65553311110E+01	7.83188352231E+00	-5.12079562315E+00	1.67072136999E+02	-6.38137744741E+01	-5.73682717465E+01	-5.96239357347E+00	-7.50340910605E-01
1.58709856651E+06	-1.39998838666E+01	1.36087950730E+01	-5.17268960902E+00	1.66440159330E+02	-5.17595478392E+01	6.47630118432E+01	-5.96371039981E+00	-7.28914464365E-01
1.60928992110E+06	-1.57218880663E+01	1.23259540729E+00	-5.10115497733E+00	1.65863111743E+02	-5.31346517362E+01	1.04875823474E+02	-5.95554931655E+00	-7.65286514635E-01
1.63148127570E+06	-1.43988590169E+01	2.04831333682E+01	-5.09328652756E+00	1.66182845843E+02	-5.26010819042E+01	8.87263442258E+01	-5.97084920688E+00	-8.41939124794E-01
1.65367263029E+06	-1.42345527442E+01	-1.67839817768E+01	-5.07706869337E+00	1.65666269979E+02	-5.64393339064E+01	-8.33260171164E+01	-5.97501003269E+00	-7.64977502626E-01
1.67586398489E+06	-1.50532443596E+01	8.55300202803E+00	-5.04913741524E+00	1.65574647183E+02	-4.84243727767E+01	-3.89394659887E+01	-5.95754956224E+00	-7.87692430714E-01
1.69805533948E+06	-1.28822318282E+01	8.57580279560E+00	-5.12895965820E+00	1.65606146968E+02	-4.87929468345E+01	-6.55909672986E+01	-5.96518346747E+00	-8.14861655524E-01
1.72024669408E+06	-1.39080995708E+01	-1.51003742435E+01	-5.09919237210E+00	1.65053897226E+02	-4.85252868338E+01	-4.91590789971E+01	-5.96611063479E+00	-8.62832744505E-01
1.74243804867E+06	-1.54897859320E+01	3.61380263483E+00	-5.08727833201E+00	1.65075438160E+02	-4.01374478788E+01	1.59245603143E+01	-5.97345630138E+00	-8.53725585129E-01
1.76462940327E+06	-1.27940853567E+01	-1.40173458650E+01	-5.13571623463E+00	1.64631814212E+02	-5.04052201957E+01	-1.57342280179E+02	-5.95142794920E+00	-8.50808592091E-01
1.78682075786E+06	-1.40946290766E+01	-3.21332191242E+00	-5.17231580369E+00	1.65126347267E+02	-5.27623508725E+01	-2.50976479735E+01	-5.95802029798E+00	-7.65226651835E-01
1.80901211246E+06	-1.42287673054E+01	5.35696152122E-01	-5.14805013251E+00	1.64756717237E+02	-5.14285356633E+01	-8.66825227573E+01	-5.96839197108E+00	-8.00388676269E-01
1.83120346705E+06	-1.29613703132E+01	1.37819538999E+01	-5.13918104372E+00	1.64601568577E+02	-5.19681243309E+01	1.68364487616E+02	-5.96668646175E+00	-8.68378289596E-01
1.85339482165E+06	-1.44935327123E+01	4.55699896039E+00	-5.11540359737E+00	1.64088846308E+02	-3.92356036563E+01	-4.33774732342E+01	-5.96188581368E+00	-9.56485016220E-01
1.87558617624E+06	-1.55886474909E+01	6.09896082713E-01	-5.16874679113E+00	1.63648132121E+02	-6.13193656110E+01	1.74101947959E+02	-5.95858970585E+00	-8.99976241141E-01
1.89777753084E+06	-1.48078075435E+01	1.06759044625E+00	-5.15008419081E+00	1.63493274142E+02	-5.36945182374E+01	-1.32312653240E+01	-5.96422860009E+00	-8.83735500478E-01
1.91996888543E+06	-1.50054892771E+01	4.54485982120E+00	-5.20669334536E+00	1.64060809789E+02	-4.95555081729E+01	-1.11448190282E+02	-5.96177674890E+00	-9.45073322933E-01
1.94216024003E+06	-1.34804153338E+01	-1.49263244530E+01	-5.09256130543E+00	1.63329775414E+02	-5.17966676000E+01	-3.69275465467E+00	-5.96036595071E+00	-9.08267441290E-01
1.96435159462E+06	-1.48272514076E+01	-5.52713130649E+00	-5.07676114692E+00	1.63408557172E+02	-5.02109140057E+01	-8.73175548153E+01	-5.96950382151E+00	-9.10312094931E-01
1.98654294922E+06	-1.60902349222E+01	4.95382604229E+00	-5.09223306826E+00	1.63015280666E+02	-6.59414070673E+01	-4.10475785932E+01	-5.96746949640E+00	-8.46232723056E-01
2.00873430381E+06	-1.58637891856E+01	1.30528209858E+00	-5.11193049991E+00	1.62344819800E+02	-5.87637129004E+01	-1.49126406993E+02	-5.97534468300E+00	-9.10002694306E-01
2.03092565841E+06	-1.38177356411E+01	-2.52387404830E+00	-5.08574875296E+00	1.62361717370E+02	-4.78360362012E+01	-1.32684130495E+02	-5.95499633410E+00	-9.49654787224E-01
2.05311701300E+06	-1.55177285276E+01	-2.13912143991E+00	-5.14292469076E+00	1.62217642456E+02	-5.84329979427E+01	-1.10872859447E+02	-5.95891658314E+00	-9.48153581524E-01
2.07530836760E+06	-1.42160258455E+01	-3.03757219283E+00	-5.13856642240E+00	1.62374721802E+02	-5.39519215173E+01	1.18582274473E+02	-5.95465892448E+00	-9.90769828497E-01
2.09749972219E+06	-1.35978119391E+01	-5.04695896238E+00	-5.11994329572E+00	1.61729609306E+02	-5.11659101903E+01	-1.60703617044E+02	-5.96118372529E+00	-9.01411459164E-01
2.11969107679E+06	-1.43968796402E+01	1.01795850012E+01	-5.13816299714E+00	1.61885540648E+02	-5.23286163035E+01	-2.26141176570E+01	-5.95709353556E+00	-1.00758295745E+00
2.14188243138E+06	-1.42369573455E+01	1.24904379600E+01	-5.12877394553E+00	1.61987803572E+02	-5.68645768609E+01	1.37800331436E+02	-5.96213366671E+00	-1.01152514281E+00
2.16407378598E+06	-1.37924906006E+01	1.24192241972E+00	-5.15972733533E+00	1.61695822831E+02	-5.34232541372E+01	-8.61217612737E+01	-5.95981417326E+00	-1.01618888004E+00
2.18626514057E+06	-1.40241086533E+01	-1.34476661989E+01	-5.14203281276E+00	1.60703144803E+02	-4.66826536803E+01	-8.13191005042E+01	-5.96606002253E+00	-1.06811059518E+00
2.20845649517E+06	-1.56305232975E+01	2.38829910193E+00	-5.12911127897E+00	1.60980524106E+02	-5.01205463736E+01	1.53934152231E+02	-5.95591705528E+00	-9.77408042479E-01
2.23064784976E+06	-1.50609403258E+01	1.12787575536E+01	-5.15656051360E+00	1.60969397304E+02	-4.77650425306E+01	-1.18734900684E+02	-5.95398890435E+00	-1.01817369058E+00
2.25283920436E+06	-1.41172452379E+01	-7.27004265919E+00	-5.10407326336E+00	1.60713348012E+02	-6.06123558677E+01	-9.62825497616E+00	-5.95506723295E+00	-1.06701610144E+00
2.27503055895E+06	-1.51173498577E+01	8.50043786866E+00	-5.22709091806E+00	1.60802466077E+02	-6.31265271254E+01	-6.15200404971E+01	-5.96132897452E+00	-1.03738594671E+00
2.29722191355E+06	-1.42063780197E+01	2.70677840206E+00	-5.12497893943E+00	1.60351265708E+02	-5.00831121386E+01	2.18901970907E+01	-5.97027400597E+00	-9.88952511324E-01
2.31941326814E+06	-1.41348660727E+01	3.01754177774E+00	-5.16683801164E+00	1.60369070326E+02	-4.62108352449E+01	1.03826902558E+02	-5.96437644639E+00	-1.04838442593E+00
2.34160462274E+06	-1.62182885461E+01	-5.15784254788E+00	-5.13203400483E+00	1.59785060861E+02	-5.41796938050E+01	-1.24159249776E+02	-5.94887751974E+00	-1.11458138740E+00
2.36379597733E+06	-1.37669699999E+01	-2.38140454270E+00	-5.20480483777E+00	1.60134874247E+02	-5.26191536481E+01	8.46789191338E+01	-5.96949834866E+00	-1.13192603972E+00
2.38598733193E+06	-1.40080585305E+01	-1.01477917467E+00	-5.14149663133E+00	1.59259403106E+02	-4.82017743301E+01	-9.08032304853E+01	-5.96054383160E+00	-1.08845744278E+00
2.40817868652E+06	-1.50427553958E+01	5.00736161796E+00	-5.17556348578E+00	1.59384873244E+02	-4.76066618812E+01	6.24356884554E+01	-5.96651785783E+00	-1.28110687963E+00
2.43037004112E+06	-1.38256148182E+01	-6.86954692808E-02	-5.17942170962E+00	1.59213187867E+02	-3.65059906762E+01	-2.70176660337E+01	-5.96334855133E+00	-1.57803160703E+00
2.45256139571E+06	-1.51486948594E+01	-5.04568718159E-01	-5.12197220923E+00	1.59220094211E+02	-5.52244808916E+01	1.68753746018E+02	-5.96375258187E+00	-1.10423544480E+00
2.47475275031E+06	-1.37095908378E+01	2.00078527886E+01	-5.21777791791E+00	1.58680048487E+02	-5.34288915858E+01	-1.69344560907E+02	-5.96413302634E+00	-1.12084236003E+00
2.49694410490E+06	-1.38219198969E+01	-3.20395186850E-01	-5.16827060095E+00	1.58720828556E+02	-4.57745453589E+01	-5.57494924823E+01	-5.96264977822E+00	-1.13048964965E+00
2.51913545950E+06	-1.22164483258E+01	-2.31794611136E+00	-5.17992716708E+00	1.58515646297E+02	-5.24004815135E+01	-1.21947415773E+02	-5.97017844268E+00	-1.09386084082E+00
2.54132681409E+06	-1.37655167805E+01	-5.76836816205E-01	-5.12566524274E+00	1.58101006194E+02	-4.14430709399E+01	-8.41205935588E+01	-5.95900027825E+00	-1.15985181712E+00
2.56351816869E+06	-1.46499848426E+01	-6.67798389131E+00	-5.15370133865E+00	1.57823060808E+02	-4.53872036504E+01	9.98784208081E+01	-5.96035478590E+00	-1.15671647882E+00
2.58570952328E+06	-1.07460782105E+01	-8.31998106562E-01	-5.13348685257E+00	1.58234281889E+02	-5.35407607909E+01	4.53343581715E+01	-5.96069020708E+00	-1.19266616588E+00
2.60790087788E+06	-1.42619122432E+01	-8.48293241202E-01	-5.14184975403E+00	1.58158986672E+02	-5.48848179205E+01	-1.74992640604E+02	-5.96873303545E+00	-1.04589574876E+00
2.63009223247E+06	-1.45116811763E+01	2.83845525236E+00	-5.23814088526E+00	1.57340735936E+02	-5.44445398940E+01	-1.57271784809E+02	-5.95313456645E+00	-7.69400076839E-01
2.65228358707E+06	-1.46402506007E+01	-4.94992582165E-01	-5.22345998745E+00	1.57320758423E+02	-4.41507989623E+01	-1.45346129950E+02	-5.95284802495E+00	-1.15945699708E+00
2.67447494166E+06	-1.34487259182E+01	-5.86882332047E+00	-5.16522051298E+00	1.57257002760E+02	-4.66299317136E+01	-7.62841119824E+01	-5.96258430889E+00	-1.22710629203E+00
2.69666629626E+06	-1.61882230808E+01	2.95170379828E+00	-5.23552904660E+00	1.57006746488E+02	-5.42423430901E+01	-1.24452999497E+02	-5.95592507522E+00	-1.25450177266E+00
2.71885765085E+06	-1.61558806830E+01	-5.76014790906E+00	-5.23656558091E+00	1.56270720264E+02	-4.74554938318E+01	-1.64680699690E+02	-5.96393691018E+00	-1.24962752537E+00
2.74104900545E+06	-1.26246990091E+01	2.82870648679E+00	-5.15704155438E+00	1.56824971071E+02	-4.98703158281E+01	6.10748837871E+01	-5.97156169813E+00	-1.31485189742E+00
2.76324036004E+06	-1.35941599356E+01	1.21161373922E+00	-5.16605694443E+00	1.56555492073E+02	-5.41596136841E+01	-9.92955251860E+01	-5.95744558447E+00	-1.19734683999E+00
2.78543171463E+06	-1.28496954754E+01	-7.44388640607E+00	-5.13550184809E+00	1.55816120733E+02	-6.14463786916E+01	-4.63664244247E+01	-5.97136934900E+00	-1.31805522313E+00
2.80762306923E+06	-1.36662670202E+01	-1.28913084539E+01	-5.21995661831E+00	1.56103693909E+02	-4.87364981575E+01	-3.36146683898E+01	-5.96564409159E+00	-1.29140136943E+00
2.82981442382E+06	-1.33572894718E+01	-1.26059604396E+00	-5.19922265065E+00	1.55782648079E+02	-4.67816342988E+01	4.56347681329E+01	-5.96044411721E+00	-1.26106278464E+00
2.85200577842E+06	-1.31630544050E+01	-3.40024030580E+00	-5.19904192448E+00	1.55636253301E+02	-6.07414194532E+01	-1.71096371709E+02	-5.97179568171E+00	-1.39189788541E+00
2.87419713301E+06	-1.29648114789E+01	9.21091057176E+00	-5.26795541965E+00	1.55768363066E+02	-5.01807638132E+01	5.80482161166E+01	-5.97356761212E+00	-1.41087183467E+00
