# Hz S DB R 50
! CMT, M5065, 19127446, 24.2.4/2
! Date: 11/8/2024 6:44:03 PM
! Data: Format (Calibration Info)
! Freq	S11:dB/Ang(F2)	S21:dB/Ang(F2)	S12:dB/Ang(F2)	S22:dB/Ang(F2)
3.00000000000E+05	-1.31688079233E+01	1.42429008837E+01	3.42319318196E+00	1.78273002385E+02	-4.80930708385E+01	-5.82095924241E+01	-5.97761635762E+00	-2.21132070701E-01
3.22191354595E+05	-1.48389978158E+01	1.68729820978E+01	3.37626838419E+00	1.78088537201E+02	-4.91306980717E+01	1.01015077574E+02	-5.96373216007E+00	-2.21023945087E-01
3.44382709190E+05	-1.33443060760E+01	1.70360676271E+01	3.40482640940E+00	1.77675179889E+02	-4.87906111171E+01	7.24047745710E+01	-5.95782587573E+00	-3.06361500233E-01
3.66574063785E+05	-1.43870471506E+01	2.98677250516E+01	3.41719329129E+00	1.77364777316E+02	-5.63456647444E+01	-1.71270033642E+02	-5.96186688998E+00	-3.02364982604E-01
3.88765418380E+05	-1.51428787814E+01	2.30467148956E+01	3.43287790363E+00	1.76233580885E+02	-5.13836108178E+01	7.90250559429E+01	-5.99963466529E+00	-8.28207371662E-02
4.10956772975E+05	-1.51889350704E+01	1.80098373301E+01	3.37513879070E+00	1.76569581910E+02	-5.63000146324E+01	-1.09981906259E+02	-5.96728857474E+00	-2.44606923275E-01
4.33148127570E+05	-1.40411343005E+01	5.45255414690E+00	3.41577509717E+00	1.76235893869E+02	-5.65971415066E+01	-1.24042589853E+02	-5.96221493851E+00	-3.09073279895E-01
4.55339482165E+05	-1.42687547427E+01	6.49373474905E+00	3.38474049397E+00	1.75829153561E+02	-5.48208897894E+01	-1.42821435834E+02	-5.96568827081E+00	-2.54219298654E-01
4.77530836760E+05	-1.50776518810E+01	1.96822604666E+01	3.37312846998E+00	1.75594460827E+02	-5.06135658902E+01	-1.04973200184E+02	-5.97146858468E+00	-3.44221330046E-01
4.99722191355E+05	-1.44939100531E+01	4.49650106456E+00	3.35578583792E+00	1.75184924846E+02	-6.34428916061E+01	-1.70241261738E+02	-5.97135523822E+00	-3.49991420471E-01
5.21913545950E+05	-1.55825197640E+01	4.45488435379E+00	3.38149636862E+00	1.74811502080E+02	-6.10406609831E+01	1.50234733863E+02	-5.97279885730E+00	-2.48636232489E-01
5.44104900545E+05	-1.49068031023E+01	1.41025474871E+01	3.36059494629E+00	1.74540915660E+02	-5.00855342801E+01	-3.81559970994E+01	-5.96240526588E+00	-3.48961106644E-01
5.66296255139E+05	-1.49076537110E+01	1.18473285685E+01	3.38937185830E+00	1.74218221984E+02	-5.29197916935E+01	-6.18478585938E+01	-5.96474564737E+00	-3.57769001973E-01
5.88487609734E+05	-1.29209484865E+01	2.63914466849E+00	3.38218413180E+00	1.73988895041E+02	-4.87292574360E+01	-1.70721025259E+02	-5.96134061817E+00	-3.55408953646E-01
6.10678964329E+05	-1.42619088273E+01	1.78648965169E+01	3.34489717292E+00	1.73849652007E+02	-5.75928293819E+01	1.56318847065E+02	-5.96754425201E+00	8.99695708141E-02
6.32870318924E+05	-1.23689042962E+01	1.11664425162E+01	3.37132138908E+00	1.73605271222E+02	-5.25183530072E+01	4.70234657792E+01	-5.96999741651E+00	-1.53948852711E-01
6.55061673519E+05	-1.42879126610E+01	1.11721644015E+01	3.35950957453E+00	1.73268563029E+02	-6.20690474898E+01	-1.53402546730E+02	-5.96970810607E+00	-3.38724314180E-01
6.77253028114E+05	-1.43715005454E+01	1.49384030041E+01	3.35646056219E+00	1.73169722547E+02	-5.09358260145E+01	-3.14894944206E+00	-5.96946281249E+00	-6.87519771305E-01
6.99444382709E+05	-1.41361442397E+01	9.69577315893E+00	3.35870973762E+00	1.72831543502E+02	-4.66596548766E+01	8.30142774378E+01	-5.97412977899E+00	-3.83387736844E-01
7.21635737304E+05	-1.40061139496E+01	-4.03118169513E-01	3.37310318139E+00	1.72336059037E+02	-4.45466712396E+01	-7.52221196705E+01	-5.96339284992E+00	-3.80845426101E-01
7.43827091899E+05	-1.28896101971E+01	8.34770203403E+00	3.36937728821E+00	1.72283696474E+02	-4.90159040329E+01	1.29953670409E+02	-5.97320268076E+00	-4.32326716214E-01
7.66018446494E+05	-1.32752588266E+01	4.91929730004E+00	3.36090675636E+00	1.71979302775E+02	-5.72591068680E+01	3.92758701272E+01	-5.97437922263E+00	-4.07625233488E-01
7.88209801089E+05	-1.60162455000E+01	1.44847040761E+01	3.36366531392E+00	1.71382204200E+02	-6.54749356952E+01	-1.77332030790E+01	-5.97170205462E+00	-4.61984862015E-01
8.10401155684E+05	-1.46391945790E+01	3.93879882961E+00	3.35934448144E+00	1.71214312174E+02	-5.59129406575E+01	3.14370366846E+01	-5.96878379442E+00	-5.12506466123E-01
8.32592510279E+05	-1.43086964881E+01	9.25188197483E+00	3.33521606468E+00	1.70915449484E+02	-4.14418112826E+01	2.30344128436E+00	-5.96902028004E+00	-4.40264607922E-01
8.54783864874E+05	-1.49787327269E+01	4.81036522734E+00	3.38324006421E+00	1.70706407518E+02	-5.68353610063E+01	2.16688423294E+01	-5.96758222664E+00	-5.05425354962E-01
8.76975219469E+05	-1.46353153353E+01	1.85473162431E+01	3.34336936938E+00	1.70501309136E+02	-4.24238940976E+01	1.00620701066E+02	-5.96841931785E+00	-4.75493698650E-01
8.99166574064E+05	-1.26852952205E+01	1.48550091028E+01	3.35717728693E+00	1.70052466939E+02	-5.19515690631E+01	-9.28353733987E+01	-5.95689325477E+00	-5.04828770875E-01
9.21357928659E+05	-1.35698471613E+01	1.10021421983E+01	3.36762313054E+00	1.70086586464E+02	-5.31878947924E+01	1.98751510085E+01	-5.97108956862E+00	-5.21489000314E-01
9.43549283254E+05	-1.37873019779E+01	1.08860666027E+01	3.34772973893E+00	1.69486737416E+02	-4.36021199529E+01	-5.98676943280E+01	-5.97441712466E+00	-5.53733875994E-01
9.65740637849E+05	-1.31266421017E+01	1.65583940307E+01	3.34456823532E+00	1.69376210447E+02	-5.90840239735E+01	-2.62981744374E+00	-5.96907582681E+00	-4.87851473757E-01
9.87931992444E+05	-1.51333764385E+01	8.82578427763E+00	3.31759143792E+00	1.69075775008E+02	-5.74558595039E+01	8.87010126678E+00	-5.98270611506E+00	-5.16217371113E-01
1.01012334704E+06	-1.30862895998E+01	1.14564275653E+01	3.33677627968E+00	1.68852422984E+02	-5.01820345627E+01	-9.12561317950E+01	-5.97410484037E+00	-4.34573986017E-01
1.03231470163E+06	-1.48298665264E+01	-5.03770346966E-01	3.32326337324E+00	1.68630292714E+02	-5.04370323059E+01	-9.36091959967E+01	-5.96307359942E+00	-5.11305743521E-01
1.05450605623E+06	-1.47862659304E+01	-2.12088207088E+00	1.25423105411E+00	1.68191813616E+02	-5.25436737720E+01	-5.42471547178E+01	-5.96122711469E+00	-4.91209753395E-01
1.07669741082E+06	-1.36601449394E+01	-2.35539119495E+00	3.30163636902E+00	1.67688719995E+02	-4.67723204505E+01	-2.84239163162E+01	-5.98045499018E+00	-5.42358274655E-01
1.09888876542E+06	-1.48135490407E+01	1.46373519582E+00	3.29413069560E+00	1.67950546480E+02	-6.00794617659E+01	-9.90593476187E+01	-5.95749082700E+00	-5.50129333659E-01
1.12108012001E+06	-1.26107908467E+01	1.71977733575E+01	3.30604256738E+00	1.67585078979E+02	-6.04398872925E+01	8.38268242721E+01	-5.97747891046E+00	-5.24818697693E-01
1.14327147461E+06	-1.49479469180E+01	-9.10103363623E-01	3.32118897567E+00	1.67291244982E+02	-4.42434178554E+01	-1.05908472997E+02	-5.96205430532E+00	-5.04225610087E-01
1.16546282920E+06	-1.44555008104E+01	8.92959099916E+00	3.29170410768E+00	1.67093599125E+02	-4.79015416619E+01	-1.39049338012E+02	-5.96910689449E+00	-5.13920496438E-01
1.18765418380E+06	-1.45348585101E+01	-9.64005595820E+00	3.30034511494E+00	1.66785483318E+02	-5.00812624728E+01	-1.41903658511E+02	-5.96593235962E+00	-5.79514119757E-01
1.20984553839E+06	-1.48300449671E+01	9.52013788638E+00	3.32601889390E+00	1.66673066025E+02	-5.06174964830E+01	-1.57949225052E+02	-5.97395505386E+00	-7.67667296946E-01
1.23203689299E+06	-1.24633795939E+01	4.55955373390E+00	3.31402936470E+00	1.66205028067E+02	-5.00294396002E+01	-2.82428015838E+01	-5.97892620360E+00	-3.68729623778E-01
1.25422824758E+06	-1.39338267007E+01	1.16052588447E+01	3.32665678805E+00	1.66212180860E+02	-5.16493648403E+01	1.37931008278E+02	-5.96959700017E+00	-6.40831126081E-01
1.27641960218E+06	-1.56784248933E+01	7.69945930858E+00	3.30010682950E+00	1.65651648517E+02	-5.46435252396E+01	-1.12106215025E+02	-5.98172359459E+00	-6.69193092792E-01
1.29861095677E+06	-1.57217259962E+01	3.86636786061E+00	3.29039727477E+00	1.65464216955E+02	-5.44317951584E+01	9.95132760647E+01	-5.97299505659E+00	-6.47423430875E-01
1.32080231137E+06	-1.35806974258E+01	9.57371888781E-01	3.29766241520E+00	1.65035711585E+02	-4.87133765775E+01	-9.61022640263E+01	-5.96691531507E+00	-9.80686841879E-01
1.34299366596E+06	-1.37213434136E+01	6.30938343164E+00	3.28909396200E+00	1.65066779755E+02	-6.06596420068E+01	8.33686256610E+01	-5.96947795368E+00	-6.91188626585E-01
1.36518502056E+06	-1.53438959260E+01	1.00324107168E+01	3.28235947703E+00	1.64542650011E+02	-5.36598362631E+01	-6.52980996717E+01	-5.96976918261E+00	-6.21081334941E-01
1.38737637515E+06	-1.36207382165E+01	3.26969374093E+00	3.28806763408E+00	1.64190008587E+02	-5.42859176922E+01	-5.42179934394E+01	-5.97356605117E+00	-6.57233959665E-01
1.40956772975E+06	-1.46734999744E+01	5.77658959191E-01	3.29035390394E+00	1.64277649105E+02	-4.40695026552E+01	-4.38144088482E+00	-5.98003227949E+00	-7.15339394837E-01
1.43175908434E+06	-1.51089568939E+01	6.62466175909E+00	3.28776147390E+00	1.64069891950E+02	-4.91892029686E+01	-1.01860122239E+02	-5.96556082113E+00	-6.61885711542E-01
1.45395043894E+06	-1.42018994941E+01	6.81053680195E+00	3.28136853500E+00	1.63722696720E+02	-5.34526469680E+01	-5.80274310044E+01	-5.97304318875E+00	-7.61384212094E-01
1.47614179353E+06	-1.63626658261E+01	1.17573210220E+01	3.29271019065E+00	1.63532689064E+02	-5.61225845254E+01	3.90924078079E+01	-5.97199750031E+00	-7.44750472194E-01
1.49833314813E+06	-1.43022672975E+01	-7.53807844269E+00	3.28359789102E+00	1.63259299757E+02	-5.24679123389E+01	7.29106802492E+01	-5.97171733682E+00	-6.77457642646E-01
1.52052450272E+06	-1.38243758846E+01	7.78788349200E-01	3.27523217028E+00	1.63006096634E+02	-5.16628308933E+01	7.85658625107E+01	-5.96223153208E+00	-7.81600832948E-01
1.54271585732E+06	-1.38907581290E+01	3.27330586214E+00	3.29736592695E+00	1.62794778635E+02	-5.07084042558E+01	1.01297678515E+02	-5.97212497677E+00	-8.09186623410E-01
1.56490721191E+06	-1.31596432870E+01	-5.77377795641E+00	3.27431585358E+00	1.62478791246E+02	-5.27015135242E+01	6.41820426466E+01	-5.97300590474E+00	-8.00873694965E-01
1.58709856651E+06	-1.54180854965E+01	7.60946703476E-01	3.26800954843E+00	1.62239883483E+02	-4.82877789621E+01	-6.38430973397E+01	-5.97361853928E+00	-7.03247994796E-01
1.60928992110E+06	-1.25083510686E+01	-2.01153396554E+00	3.28834901257E+00	1.61837332831E+02	-5.41062742962E+01	-1.35824482938E+02	-5.97391435911E+00	-8.24160432773E-01
1.63148127570E+06	-1.39396420159E+01	-3.48555857644E+00	3.29230478280E+00	1.61753963956E+02	-5.03114182645E+01	-1.47985180230E+02	-5.96831457646E+00	-7.69408399169E-01
1.65367263029E+06	-1.34819203050E+01	-1.29820896808E+00	3.24567437729E+00	1.61286267136E+02	-5.69580145874E+01	5.90351427557E+01	-5.97181068414E+00	-8.74818420205E-01
1.67586398489E+06	-1.51434236618E+01	3.01778524296E+00	3.25831011539E+00	1.61095948614E+02	-5.66421592164E+01	1.62172221113E+02	-5.96718871936E+00	-8.04880814857E-01
1.69805533948E+06	-1.48299978364E+01	5.00741602591E+00	3.26247286106E+00	1.60906968499E+02	-5.95284283711E+01	-9.65787916138E+00	-5.97461185684E+00	-8.43088897408E-01
1.72024669408E+06	-1.47760394290E+01	3.26110583974E+00	3.20997847053E+00	1.60615583846E+02	-4.52490193937E+01	9.11867143843E+01	-5.97057155034E+00	-9.10387207778E-01
1.74243804867E+06	-1.36838053141E+01	7.11313019641E+00	3.27537133863E+00	1.60410398407E+02	-4.41486350137E+01	-3.83924915729E+01	-5.97223452470E+00	-7.37478334710E-01
1.76462940327E+06	-1.26679843918E+01	1.16910433022E+00	3.28447551642E+00	1.60054636883E+02	-5.09534006441E+01	5.17645197550E+01	-5.97753863787E+00	-9.06762129912E-01
1.78682075786E+06	-1.48407808610E+01	3.21025325920E+00	3.25999106064E+00	1.59815096204E+02	-5.14466952276E+01	8.69784774575E+01	-5.95988548610E+00	-8.43450447276E-01
1.80901211246E+06	-1.40216413675E+01	-5.05855459399E+00	3.25064746508E+00	1.59585770145E+02	-4.93989142489E+01	1.19593386407E+02	-5.97567465332E+00	-8.29491283076E-01
1.83120346705E+06	-1.23256875809E+01	1.17658170278E+01	3.20176735269E+00	1.59414513807E+02	-5.36758961539E+01	-4.96353640677E+01	-5.97066041931E+00	-9.08293032673E-01
1.85339482165E+06	-1.24007610783E+01	7.13161359579E+00	3.23943865822E+00	1.59115642854E+02	-5.32282917198E+01	2.97024824944E+01	-5.96673878123E+00	-9.16903798701E-01
1.87558617624E+06	-1.60799664225E+01	3.72419322594E+00	3.20777516891E+00	1.58669060754E+02	-4.34584269483E+01	9.74395312788E+01	-5.95672917531E+00	-8.79402442037E-01
1.89777753084E+06	-1.46683644148E+01	9.15133142060E-01	3.22274505461E+00	1.58604667112E+02	-4.88321360329E+01	-1.73912991121E+01	-5.98289347919E+00	-9.04014666143E-01
1.91996888543E+06	-1.45967110224E+01	6.22969745875E+00	3.20880927519E+00	1.58225903390E+02	-5.85691466603E+01	1.76052434026E+02	-5.97203858923E+00	-8.69329964518E-01
1.94216024003E+06	-1.42511039620E+01	3.24235990232E+01	3.18380983583E+00	1.58087208036E+02	-4.82764366183E+01	-1.10432955001E+02	-5.97212805892E+00	-8.34342740784E-01
1.96435159462E+06	-1.46993453792E+01	1.03047857919E+01	3.19792237831E+00	1.57930492575E+02	-4.83412121153E+01	-7.18100003047E+01	-5.98004861090E+00	-1.03379577554E+00
1.98654294922E+06	-1.46029643791E+01	-1.89861534155E+00	3.20417155262E+00	1.57461934105E+02	-5.33555230372E+01	4.97831314950E+01	-5.97301616440E+00	-9.57513402952E-01
2.00873430381E+06	-1.24265334593E+01	8.27554775999E-01	3.23700373877E+00	1.57270473523E+02	-6.10263302234E+01	-1.14167502994E+02	-5.96991833007E+00	-8.56333100661E-01
2.03092565841E+06	-1.32598198119E+01	-1.05073908745E+01	3.23298132680E+00	1.57101884883E+02	-4.90525633701E+01	1.60518557186E+02	-5.96499389937E+00	-1.03988255977E+00
2.05311701300E+06	-2.04149646248E+01	-1.01221040473E+00	3.19591598643E+00	1.56473035427E+02	-4.78040129661E+01	-8.64538991755E+01	-5.96116868082E+00	-9.48182940160E-01
2.07530836760E+06	-1.33699386281E+01	-2.88847859685E+00	3.20143941148E+00	1.56695929290E+02	-5.75076248723E+01	1.25380988572E+02	-5.97442509749E+00	-1.02793328640E+00
2.09749972219E+06	-1.41385150759E+01	-2.75279401498E+00	3.23011071472E+00	1.56237207536E+02	-4.49421792399E+01	1.34494030668E+02	-5.96248023699E+00	-9.45306245036E-01
2.11969107679E+06	-1.38607469618E+01	-4.41242024419E+00	3.22325799154E+00	1.56122313917E+02	-4.91460980522E+01	1.23866402119E+02	-5.96705630066E+00	-1.05005123763E+00
2.14188243138E+06	-1.32604393444E+01	-2.45109292686E-01	3.19333820882E+00	1.56009739713E+02	-6.98774764083E+01	4.78206502778E+01	-5.98027566149E+00	-9.59592264123E-01
2.16407378598E+06	-1.47687985531E+01	-1.17542413249E+01	3.21448388359E+00	1.55377753839E+02	-5.12508965232E+01	-5.33742470944E+01	-5.97057083289E+00	-9.77637477320E-01
2.18626514057E+06	-1.30855387921E+01	-1.36312266470E+01	3.24367005446E+00	1.55275357045E+02	-5.75112625819E+01	-4.71374540837E+01	-5.96815048673E+00	-1.04948202986E+00
2.20845649517E+06	-1.49547537687E+01	-6.06080356880E+00	3.17702709852E+00	1.54805234678E+02	-4.13116175186E+01	5.57371390391E+01	-5.97499331000E+00	-1.10024094282E+00
2.23064784976E+06	-1.44856708958E+01	3.25571159837E+00	3.17705495423E+00	1.54936988279E+02	-6.25720929172E+01	-9.99280369872E+01	-5.97419377746E+00	-1.05321718846E+00
2.25283920436E+06	-1.46436414917E+01	5.87813437066E+00	3.17217201710E+00	1.54638773986E+02	-5.77430009833E+01	-9.46917341519E+01	-5.96022581562E+00	-1.07954472731E+00
2.27503055895E+06	-1.46312401404E+01	2.47066653787E+00	3.15441821825E+00	1.54446461463E+02	-5.20882028487E+01	-2.89261902006E+01	-5.96880903854E+00	-1.05902446503E+00
2.29722191355E+06	-1.30393226312E+01	-9.10114381531E+00	3.19677668915E+00	1.54351010039E+02	-5.11144172329E+01	1.18212303033E+02	-5.96826596663E+00	-1.19236612802E+00
2.31941326814E+06	-1.34660730433E+01	-1.42701072590E+00	3.22807987726E+00	1.53839466159E+02	-3.79045585430E+01	1.31679126905E+01	-5.97557710527E+00	-1.17044705195E+00
2.34160462274E+06	-1.40608484348E+01	-8.13248337327E-01	3.18826113274E+00	1.53701639031E+02	-4.76860930617E+01	9.69955938876E+01	-5.96810337696E+00	-1.11208864936E+00
2.36379597733E+06	-1.24602131988E+01	-2.00944870984E+00	3.15186389748E+00	1.53410853016E+02	-5.38022912461E+01	-1.04546142098E+02	-5.97372236054E+00	-1.15742207496E+00
2.38598733193E+06	-1.41771169465E+01	-4.71418068308E+00	3.14670702775E+00	1.53113092753E+02	-4.84741493600E+01	3.90708033937E+01	-5.97391096862E+00	-1.13378593698E+00
2.40817868652E+06	-1.78010491051E+01	-1.62876609250E+01	3.17640191434E+00	1.52629701075E+02	-4.92635873997E+01	1.57999326661E+02	-5.97225725487E+00	-1.26884080041E+00
2.43037004112E+06	-1.27031228125E+01	-5.71234115856E+00	3.15147276992E+00	1.52512281672E+02	-6.15697861171E+01	6.67830138854E+01	-5.96826341190E+00	-1.48940603295E+00
2.45256139571E+06	-1.26705111598E+01	3.82963446691E+00	3.16345580510E+00	1.52492485002E+02	-4.77317910401E+01	-1.54608007509E+02	-5.98722139090E+00	-1.12266426319E+00
2.47475275031E+06	-1.35222598588E+01	5.15166186959E+00	3.16868544553E+00	1.52176134631E+02	-6.43536506639E+01	-1.39903660886E+02	-5.98712188470E+00	-1.05027193643E+00
2.49694410490E+06	-1.52562864336E+01	1.76294492281E+00	3.13875966164E+00	1.51760644088E+02	-5.20589296444E+01	1.15179164937E+02	-5.97900014265E+00	-1.13820697897E+00
2.51913545950E+06	-1.28184727403E+01	1.29506398454E+01	3.14825469005E+00	1.51724975647E+02	-4.62349753922E+01	-2.89372451741E+01	-5.98219578765E+00	-1.17503061363E+00
2.54132681409E+06	-1.45218439550E+01	1.29302387457E+01	3.10936622858E+00	1.51381705199E+02	-5.90618452803E+01	-2.48052262448E+01	-5.98116560582E+00	-1.18438202405E+00
2.56351816869E+06	-1.37621371924E+01	2.16278164049E+00	3.13848444798E+00	1.50979725038E+02	-4.62513207739E+01	-1.22576790330E+02	-5.98644198507E+00	-1.13734200827E+00
2.58570952328E+06	-1.43459469939E+01	5.79203387884E+00	3.12549901305E+00	1.50851021078E+02	-5.88824801351E+01	-1.52154559564E+02	-5.96774115043E+00	-1.17028132173E+00
2.60790087788E+06	-1.41014831018E+01	9.53027304245E-02	3.11512167225E+00	1.50503550586E+02	-4.92987945829E+01	1.05575003454E+01	-5.98499883397E+00	-1.06657729619E+00
2.63009223247E+06	-1.05703285815E+01	7.51569574183E-01	3.10580651459E+00	1.50495629248E+02	-5.06794916377E+01	-1.08823170253E+02	-5.97236721393E+00	-7.63154517187E-01
2.65228358707E+06	-1.42983476931E+01	-3.82520910304E+00	3.11978056549E+00	1.50038025443E+02	-5.37878317717E+01	-1.70106934898E+02	-5.96606280072E+00	-1.20091067100E+00
2.67447494166E+06	-1.30177706369E+01	-5.32971252123E+00	3.12167354789E+00	1.49955368317E+02	-4.94019376256E+01	-1.71088428637E+02	-5.97013863414E+00	-1.29340684022E+00
2.69666629626E+06	-1.46640420490E+01	-9.47416722110E-01	3.10361722253E+00	1.49663552327E+02	-6.21849373375E+01	-2.92674399870E+01	-5.97553194766E+00	-1.24116444813E+00
2.71885765085E+06	-1.37554249922E+01	-1.30489359073E+01	3.14035674497E+00	1.49393985771E+02	-5.10792134936E+01	-8.42323875187E+01	-5.97978278275E+00	-1.19806146456E+00
2.74104900545E+06	-1.50884689448E+01	-1.01671141866E+01	3.11701565597E+00	1.48807722563E+02	-4.75323484619E+01	-1.32702953027E+02	-5.97788661574E+00	-1.25769893941E+00
2.76324036004E+06	-1.29697644114E+01	-7.78599255075E+00	3.13532982180E+00	1.48593366293E+02	-5.33930254842E+01	-1.40088735075E+02	-5.98218379464E+00	-1.26448170194E+00
2.78543171463E+06	-1.34875610038E+01	-6.50092240597E+00	3.05912745840E+00	1.48478871081E+02	-4.32749629689E+01	3.64033571565E+01	-5.97842494311E+00	-1.31031881133E+00
2.80762306923E+06	-1.36582709463E+01	3.03294585490E+00	3.08836550089E+00	1.48291175270E+02	-5.41341699160E+01	8.64341194280E+01	-5.96115617652E+00	-1.33522849983E+00
2.82981442382E+06	-1.46671164389E+01	5.79585411502E+00	3.06847145788E+00	1.48152644642E+02	-4.79308580949E+01	-1.50509640369E+02	-5.96309567233E+00	-1.25479695713E+00
2.85200577842E+06	-1.46155240748E+01	7.64180195207E-01	3.11254207376E+00	1.47727267261E+02	-5.75496393109E+01	-1.78935847979E+02	-5.97229556706E+00	-1.29273218021E+00
2.87419713301E+06	-1.27986881369E+01	4.57676056576E+00	3.08027996122E+00	1.47664300978E+02	-4.81350159181E+01	3.32074528909E+01	-5.97425565181E+00	-1.28839390961E+00
2.89638848761E+06	-1.32533178218E+01	-1.66361601495E+00	3.06647997910E+00	1.47420597801E+02	-4.29885835323E+01	1.46401903355E+02	-5.97152048354E+00	-1.39288694936E+00
