# Hz S DB R 50
! CMT, M5065, 19127446, 24.2.4/2
! Date: 11/8/2024 6:31:14 PM
! Data: Format (Calibration Info)
! Freq	S11:dB/Ang(F2)	S21:dB/Ang(F2)	S12:dB/Ang(F2)	S22:dB/Ang(F2)
3.00000000000E+05	-1.41043545477E+01	1.34316688421E+01	-4.66779652605E+00	1.78238312827E+02	-5.32430373510E+01	1.14750976408E+02	-5.96772342880E+00	-1.99385838053E-01
3.22191354595E+05	-1.42037079547E+01	2.27100484443E+01	-4.63769834361E+00	1.78421646356E+02	-5.36653104352E+01	6.84505277724E+01	-5.96405821137E+00	-2.11876893519E-01
3.44382709190E+05	-1.43408323158E+01	2.00299979621E+01	-4.64191300982E+00	1.78125743442E+02	-4.56872705727E+01	1.71326805165E+02	-5.96465034270E+00	-1.96728271206E-01
3.66574063785E+05	-1.54097032387E+01	2.41163750690E+01	-4.71591887595E+00	1.77030903391E+02	-5.79448392564E+01	1.46340911641E+02	-5.95916706387E+00	-2.27047986449E-01
3.88765418380E+05	-1.44048561070E+01	8.44275564969E+00	-4.68588229838E+00	1.77995436527E+02	-5.22748611226E+01	5.53359425421E+01	-5.95707378750E+00	-3.47660707230E-01
4.10956772975E+05	-1.39936310340E+01	1.18632487071E+01	-4.73309533719E+00	1.77344278570E+02	-5.93142493168E+01	1.62783173154E+02	-5.96513173140E+00	-2.69386148699E-01
4.33148127570E+05	-1.57746188984E+01	1.16435116189E+01	-4.70834357204E+00	1.76908133988E+02	-4.91503739186E+01	9.08960442758E+00	-5.96424384205E+00	-2.48572743687E-01
4.55339482165E+05	-1.43234932107E+01	-1.16646587329E+00	-4.71080591013E+00	1.76427507207E+02	-4.52008083380E+01	6.62031421643E+00	-5.94845905650E+00	-3.50991701212E-01
4.77530836760E+05	-1.49071790575E+01	1.91397461099E+01	-4.63810348660E+00	1.76335923000E+02	-4.92334533785E+01	7.19102878331E+01	-5.96302606755E+00	-2.56789998524E-01
4.99722191355E+05	-1.37489167579E+01	1.32345764883E+01	-4.68535819658E+00	1.76402541318E+02	-5.07505910311E+01	-8.50282671048E+01	-5.95556337305E+00	-2.62520763233E-01
5.21913545950E+05	-1.46926254138E+01	1.52908232171E+01	-4.71706117138E+00	1.76446740493E+02	-6.47907663083E+01	6.96988254588E+01	-5.95478549692E+00	-3.36805690703E-01
5.44104900545E+05	-1.30988276879E+01	3.96402940877E+00	-4.76102919491E+00	1.75878511188E+02	-5.75544607897E+01	-1.28495916412E+02	-5.94536329439E+00	-3.33017713380E-01
5.66296255139E+05	-1.51711795352E+01	1.00070502893E+01	-4.66793280786E+00	1.75638453872E+02	-5.47407077645E+01	4.05091617891E+01	-5.95609460922E+00	-3.60946596416E-01
5.88487609734E+05	-1.21456514392E+01	7.22942175363E+00	-4.68525248395E+00	1.75326255889E+02	-4.59058622555E+01	1.44249678672E+02	-5.95267300544E+00	-3.53990864500E-01
6.10678964329E+05	-1.52450829648E+01	1.99981176600E+01	-4.75353622382E+00	1.75049508600E+02	-5.57724497564E+01	3.69304156048E+01	-5.95936026161E+00	1.53499082077E-01
6.32870318924E+05	-1.43537712494E+01	1.85290293936E+01	-4.71390453660E+00	1.75213141007E+02	-5.07781326164E+01	-4.43580110898E+01	-5.96283594290E+00	-1.07066220069E-01
6.55061673519E+05	-1.40951932240E+01	3.07823134477E+00	-4.75257845914E+00	1.74557033742E+02	-4.64051403458E+01	-9.52530018264E+01	-5.96132897290E+00	-2.50526047950E-01
6.77253028114E+05	-1.52480033202E+01	-5.00281893567E+00	-4.65363871571E+00	1.74265545508E+02	-4.74612198298E+01	8.14613315968E+01	-5.95825724127E+00	-6.33855289657E-01
6.99444382709E+05	-1.55456824029E+01	5.48906528270E+00	-4.72188348020E+00	1.74269936137E+02	-4.92782029174E+01	2.15488242300E+01	-5.95399115154E+00	-3.97132003513E-01
7.21635737304E+05	-1.40518338578E+01	5.99802566911E+00	-4.72975393692E+00	1.73755121740E+02	-4.58456761161E+01	1.61321135195E+02	-5.95367107401E+00	-3.95596589048E-01
7.43827091899E+05	-1.43276413877E+01	1.05251104276E+01	-4.65690233401E+00	1.73500268183E+02	-5.53625758153E+01	-2.60361512324E+01	-5.95678136211E+00	-3.86862017191E-01
7.66018446494E+05	-1.60775198996E+01	6.09033883345E+00	-4.72778382440E+00	1.73580276946E+02	-5.10541339708E+01	-1.78444247231E+02	-5.95987813423E+00	-4.18101312657E-01
7.88209801089E+05	-1.50265125276E+01	1.26735737471E+01	-4.64133163534E+00	1.73103175928E+02	-4.93833484069E+01	6.97119816330E+01	-5.95772857913E+00	-4.32921915810E-01
8.10401155684E+05	-1.61765536716E+01	1.28988747396E+01	-4.71684927097E+00	1.73600984936E+02	-4.93892521088E+01	1.25966685440E+01	-5.95096929529E+00	-4.76170327665E-01
8.32592510279E+05	-1.47036822345E+01	9.99731900212E+00	-4.71205124615E+00	1.73419783744E+02	-4.66237477769E+01	-5.93500898058E+01	-5.94927835753E+00	-4.00355942427E-01
8.54783864874E+05	-1.33879782499E+01	2.65034280502E+00	-4.65459899296E+00	1.72773605768E+02	-5.26239989741E+01	-3.01768769635E+00	-5.96545825504E+00	-4.55482194143E-01
8.76975219469E+05	-1.48804530810E+01	1.20931573000E+01	-4.69120590162E+00	1.73119691761E+02	-5.60520520852E+01	1.23608435236E+02	-5.95301800757E+00	-4.54541366594E-01
8.99166574064E+05	-1.49261189572E+01	1.17705680511E+01	-4.71278601549E+00	1.72290839292E+02	-6.31345394161E+01	-1.28506510259E+02	-5.95678291457E+00	-5.05320304217E-01
9.21357928659E+05	-1.43503095194E+01	-1.93802338841E+00	-4.73579471965E+00	1.71952931209E+02	-4.11090262104E+01	1.09291883222E+02	-5.95522128171E+00	-4.45541356527E-01
9.43549283254E+05	-1.51074045057E+01	6.18716386233E+00	-4.75726256601E+00	1.72304012581E+02	-5.62074877706E+01	1.63959696216E+02	-5.94690632465E+00	-4.89337596526E-01
9.65740637849E+05	-1.47408796813E+01	-5.95240949885E+00	-4.71854043501E+00	1.71796837750E+02	-4.66321556799E+01	7.29068602826E+01	-5.95703162887E+00	-5.44873653825E-01
9.87931992444E+05	-1.43798104710E+01	3.25109201622E+00	-4.70604415765E+00	1.71772972560E+02	-5.76197732739E+01	8.22665703043E+01	-5.96322573487E+00	-4.97556297373E-01
1.01012334704E+06	-1.54018516768E+01	1.43166194346E+01	-4.79657604603E+00	1.71183000934E+02	-5.09159975718E+01	-7.66383834239E+01	-5.96704983131E+00	-5.25187009077E-01
1.03231470163E+06	-1.33409560778E+01	-1.70252155430E+00	-4.72880872650E+00	1.71372458446E+02	-5.24941707090E+01	-1.01119509931E+02	-5.95977283844E+00	-4.77048456363E-01
1.05450605623E+06	-1.65347835574E+01	-2.27272744416E-02	-4.75102033508E+00	1.71086930854E+02	-7.11787844469E+01	3.11635274025E+01	-5.94484192954E+00	-5.66489155733E-01
1.07669741082E+06	-1.32135586206E+01	9.11831610020E-01	-4.72022878564E+00	1.71122873813E+02	-4.99770445818E+01	3.73439907979E+01	-5.95817908837E+00	-5.40064501153E-01
1.09888876542E+06	-1.50487182408E+01	4.55336700164E-01	-4.75929936441E+00	1.70831093592E+02	-5.62719656053E+01	1.39691692740E+02	-5.97131080407E+00	-6.09541023345E-01
1.12108012001E+06	-1.32067223293E+01	1.05571445283E+01	-4.73601488900E+00	1.70254039465E+02	-4.53701287763E+01	-3.98432993165E+01	-5.96298085911E+00	-6.00117288643E-01
1.14327147461E+06	-1.39026750797E+01	1.60627359385E+01	-4.75124345805E+00	1.70733829450E+02	-5.45205002723E+01	2.44012823462E+01	-5.95856861441E+00	-5.64068421623E-01
1.16546282920E+06	-1.28033698589E+01	8.41602417052E+00	-4.64761028659E+00	1.70353046631E+02	-5.12449767060E+01	-4.83431990244E+01	-5.95788726464E+00	-5.54194335610E-01
1.18765418380E+06	-1.39270329018E+01	4.93406198357E+00	-4.74933457685E+00	1.70303463960E+02	-5.25099575246E+01	-3.80118645749E+01	-5.94564240068E+00	-5.93684344727E-01
1.20984553839E+06	-1.26591572247E+01	1.18642098706E+00	-4.69039472255E+00	1.70055814738E+02	-4.79979350234E+01	-3.14841337931E+00	-5.96782836902E+00	-7.29220726074E-01
1.23203689299E+06	-1.45675026960E+01	1.27066828344E+01	-4.71658917975E+00	1.69584951596E+02	-4.68504402763E+01	-6.77691306895E+01	-5.96979109095E+00	-3.87231621074E-01
1.25422824758E+06	-1.41109466446E+01	3.44277232199E+00	-4.75212851139E+00	1.69558541497E+02	-4.77544433742E+01	1.37843603916E+02	-5.97441703598E+00	-6.56417808743E-01
1.27641960218E+06	-1.51065178470E+01	-1.33620677986E+00	-4.66923495891E+00	1.69051061635E+02	-4.70110411223E+01	-2.46855955730E+01	-5.96335558083E+00	-5.76334826030E-01
1.29861095677E+06	-1.50659552555E+01	6.27429949566E+00	-4.74945241156E+00	1.69245043493E+02	-5.51283038829E+01	7.93733433175E+01	-5.96296833003E+00	-6.72475893381E-01
1.32080231137E+06	-1.52246846409E+01	1.47403039597E+01	-4.77303494447E+00	1.68852041136E+02	-4.96722507714E+01	-5.77306982370E+00	-5.96525743146E+00	-1.04357632643E+00
1.34299366596E+06	-1.47688670136E+01	-1.58370629593E+00	-4.73195615756E+00	1.68601157861E+02	-5.13090495419E+01	-1.55929791780E+02	-5.96078524944E+00	-6.83564822234E-01
1.36518502056E+06	-1.35036782435E+01	2.84162362121E-01	-4.78407831241E+00	1.68153665818E+02	-5.09348582412E+01	8.68859407689E+01	-5.95166764856E+00	-6.85284045386E-01
1.38737637515E+06	-1.36728384210E+01	4.08729251581E+01	-4.79177303507E+00	1.68309079219E+02	-4.97820062880E+01	-1.71067949052E+02	-5.96881118553E+00	-6.92041357121E-01
1.40956772975E+06	-1.40599093962E+01	1.94973539335E+00	-4.73405637343E+00	1.67828040988E+02	-5.64301477279E+01	9.53359293110E+01	-5.95871087017E+00	-6.42754435176E-01
1.43175908434E+06	-1.31330313004E+01	1.40748751618E+01	-4.77202726576E+00	1.67758063373E+02	-5.67046724574E+01	-1.76440431554E+02	-5.95765593947E+00	-7.07615634589E-01
1.45395043894E+06	-1.40533558211E+01	8.08231176282E+00	-4.76166899162E+00	1.67721518314E+02	-4.80157996936E+01	8.43968427056E+01	-5.95971872328E+00	-6.72836034191E-01
1.47614179353E+06	-1.58443179030E+01	2.21684572063E+00	-4.77392895072E+00	1.67415671530E+02	-5.55932603963E+01	-3.93703080694E+00	-5.94946288810E+00	-7.64094089509E-01
1.49833314813E+06	-1.40845435216E+01	1.08759022973E+01	-4.80446212088E+00	1.67515471649E+02	-4.88440995228E+01	-9.90541381613E+01	-5.96198739463E+00	-7.79502949601E-01
1.52052450272E+06	-1.48911728697E+01	-3.20955503774E+00	-4.79145234009E+00	1.67122664633E+02	-5.07062713902E+01	1.47375345047E+02	-5.96492872577E+00	-7.55275661936E-01
1.54271585732E+06	-1.59291970610E+01	3.58070117571E+00	-4.84206538612E+00	1.66950103790E+02	-4.50526549366E+01	-1.76789550458E+02	-5.95964703232E+00	-7.98197596681E-01
1.56490721191E+06	-1.29994332639E+01	5.01101294784E+00	-4.72793953567E+00	1.66798842106E+02	-4.88729842916E+01	7.25406222952E+01	-5.96379044371E+00	-7.58231833371E-01
1.58709856651E+06	-1.37719553552E+01	2.46448902181E+00	-4.78601569770E+00	1.66634592299E+02	-5.87170079122E+01	-1.28806866634E+02	-5.95693790961E+00	-6.70962306273E-01
1.60928992110E+06	-1.45054645428E+01	-3.78588764105E+00	-4.77125643194E+00	1.66395138968E+02	-4.03078236510E+01	8.96610961903E+01	-5.96094315258E+00	-7.84003599487E-01
1.63148127570E+06	-1.25775027513E+01	-1.07447612872E+00	-4.73367575963E+00	1.65929604067E+02	-5.92238113101E+01	-3.76642531312E+01	-5.96702373385E+00	-7.37064629479E-01
1.65367263029E+06	-1.46292376521E+01	5.87579492087E+00	-4.74291741971E+00	1.65564456894E+02	-5.68586283708E+01	1.52739474192E+02	-5.95478035330E+00	-8.23353849975E-01
1.67586398489E+06	-1.38261311201E+01	-1.84482758764E+00	-4.77865621706E+00	1.65524575007E+02	-4.51650549831E+01	1.74291036799E+02	-5.96463580654E+00	-7.59452758813E-01
1.69805533948E+06	-1.40388501309E+01	-1.23329634367E+00	-4.69389493481E+00	1.65594295042E+02	-4.90551791024E+01	-5.00201800268E+01	-5.96281560851E+00	-7.61437802724E-01
1.72024669408E+06	-1.14672629948E+01	-9.06997429453E+00	-4.76696339744E+00	1.64924266859E+02	-4.86706177446E+01	1.99556919194E+01	-5.96731066726E+00	-8.32516758625E-01
1.74243804867E+06	-1.50517496912E+01	4.42272975791E+00	-4.80596265148E+00	1.65096254272E+02	-5.54660066828E+01	-1.18511005739E+02	-5.95636993745E+00	-8.33675904038E-01
1.76462940327E+06	-1.39962203232E+01	1.81116111378E+00	-4.77696121582E+00	1.64978454275E+02	-4.95871976756E+01	5.98460037959E+01	-5.96001951005E+00	-7.98813010861E-01
1.78682075786E+06	-1.51583481499E+01	2.55404159282E+00	-4.79168182594E+00	1.64823610572E+02	-6.19266086556E+01	8.86553927572E+01	-5.95827530966E+00	-8.29335145903E-01
1.80901211246E+06	-1.57888089151E+01	-3.19289227839E+00	-4.79287142896E+00	1.64818136240E+02	-4.63826888707E+01	-3.06963836231E+01	-5.95712825759E+00	-8.34837199571E-01
1.83120346705E+06	-1.39736644338E+01	-1.00966892676E+01	-4.79781040520E+00	1.64160918424E+02	-4.59547945096E+01	-1.09475410149E+02	-5.95655816899E+00	-8.39363554178E-01
1.85339482165E+06	-1.32460804371E+01	2.01392056427E+00	-4.82710143744E+00	1.64202314546E+02	-3.86096995190E+01	1.69987864045E+02	-5.95287134685E+00	-9.01856173127E-01
1.87558617624E+06	-1.50589297442E+01	-1.19815736738E+01	-4.83329142662E+00	1.63636948404E+02	-5.33010167738E+01	1.55955265489E+02	-5.95947616794E+00	-8.96125475543E-01
1.89777753084E+06	-1.29712783346E+01	1.19801204766E+00	-4.78328116449E+00	1.63901457350E+02	-6.34133606989E+01	-4.81720160416E+01	-5.95486101921E+00	-8.68923797470E-01
1.91996888543E+06	-1.35505112799E+01	3.81875845446E-01	-4.77881208797E+00	1.63634719121E+02	-4.83179404930E+01	3.16191848354E+01	-5.96545893821E+00	-9.33335345011E-01
1.94216024003E+06	-1.50548686142E+01	-1.13541550232E+01	-4.82936486074E+00	1.63447916592E+02	-4.90497779349E+01	-1.00804173863E+02	-5.95010758427E+00	-8.80796593587E-01
1.96435159462E+06	-1.13817803361E+01	-3.00767635956E+00	-4.85562705367E+00	1.63468065695E+02	-4.10783728201E+01	-1.61512004301E+02	-5.95738226066E+00	-8.10676536855E-01
1.98654294922E+06	-1.31438715383E+01	-6.76362529741E+00	-4.79738688101E+00	1.62582660186E+02	-5.51403435704E+01	6.39003901092E+01	-5.94897726100E+00	-9.65621206920E-01
2.00873430381E+06	-1.39731130001E+01	5.28197866445E+00	-4.81468784982E+00	1.62808111262E+02	-5.49221204148E+01	-1.20524530033E+02	-5.96560669339E+00	-8.94150188672E-01
2.03092565841E+06	-1.42735123448E+01	1.21247564366E+01	-4.87052172363E+00	1.62759705652E+02	-6.45260028733E+01	2.50007571680E+01	-5.96606324261E+00	-9.36426292179E-01
2.05311701300E+06	-1.38876496390E+01	6.57051651349E+00	-4.77946111891E+00	1.62349940578E+02	-4.77766397787E+01	-1.21743496724E+02	-5.95872967430E+00	-9.05246736839E-01
2.07530836760E+06	-1.58035902847E+01	3.83973276973E+01	-4.80493254400E+00	1.62084329657E+02	-3.94953347824E+01	1.44759895614E+02	-5.95985140739E+00	-1.04929652127E+00
2.09749972219E+06	-1.43320117831E+01	-7.38671253651E+00	-4.78528869060E+00	1.61955802362E+02	-5.11114042759E+01	3.62646094219E+01	-5.95427765144E+00	-9.58790376470E-01
2.11969107679E+06	-1.44039075887E+01	6.20272482356E+00	-4.80043234473E+00	1.61773865187E+02	-5.83188634536E+01	-5.74094586289E+01	-5.95529742841E+00	-9.66135107888E-01
2.14188243138E+06	-1.57332666117E+01	2.61995822551E+00	-4.78421746688E+00	1.61548279403E+02	-5.90742940758E+01	9.66799263073E+01	-5.96712485869E+00	-9.77319035765E-01
2.16407378598E+06	-1.44305004540E+01	3.02337357186E+00	-4.80399117552E+00	1.61769398025E+02	-5.34961830313E+01	5.10863879264E+01	-5.96120430830E+00	-1.08091900233E+00
2.18626514057E+06	-1.89504008443E+01	-3.05056562267E+01	-4.82485502883E+00	1.61078478364E+02	-4.53640787985E+01	9.47694057992E+01	-5.95868292732E+00	-1.07311572392E+00
2.20845649517E+06	-1.52194795286E+01	2.81977792942E+00	-4.83270490446E+00	1.61565235070E+02	-5.25681980862E+01	4.07511471893E+01	-5.96902584437E+00	-9.93498117075E-01
2.23064784976E+06	-1.31084948595E+01	-4.75982955062E+00	-4.75056368488E+00	1.61072435229E+02	-5.62846558716E+01	-1.75181554448E+02	-5.95979583499E+00	-1.08489219881E+00
2.25283920436E+06	-1.39596704298E+01	4.86419269135E-01	-4.73697343603E+00	1.60367502747E+02	-4.81407576843E+01	-2.41025875523E+01	-5.96562556900E+00	-1.03442534918E+00
2.27503055895E+06	-1.32821372552E+01	-4.92940707117E+00	-4.82262384321E+00	1.60444577596E+02	-4.69751819945E+01	2.82241140995E+01	-5.95790391213E+00	-1.09793385982E+00
2.29722191355E+06	-1.68414985433E+01	1.91877545507E+01	-4.81460327189E+00	1.60259826676E+02	-5.01351102344E+01	4.62174082307E+00	-5.95907746565E+00	-1.12350590181E+00
2.31941326814E+06	-1.05784487366E+01	-9.36305191977E+00	-4.85944063796E+00	1.60150065152E+02	-4.55180381773E+01	-1.83327008471E+00	-5.96349444431E+00	-1.15782538728E+00
2.34160462274E+06	-1.54509962557E+01	-9.52700112458E+00	-4.90821883062E+00	1.60023514391E+02	-6.20333928320E+01	-1.56674048920E+01	-5.96664177565E+00	-1.07199411771E+00
2.36379597733E+06	-1.24363199928E+01	-4.29953458780E+00	-4.82463635814E+00	1.59708989782E+02	-4.72363543580E+01	-7.62597022534E+01	-5.96242703812E+00	-1.07822810192E+00
2.38598733193E+06	-1.43423707099E+01	7.27963077447E+00	-4.84487567877E+00	1.59453037967E+02	-5.97690755783E+01	1.05709343089E+02	-5.95025684831E+00	-1.12376464958E+00
2.40817868652E+06	-1.56832826287E+01	2.44462935618E-01	-4.87167961214E+00	1.59448400370E+02	-4.61433831054E+01	1.46601335060E+02	-5.96218077779E+00	-1.28700279443E+00
2.43037004112E+06	-1.15067408305E+01	-3.10091113276E+01	-4.77957635049E+00	1.59187469410E+02	-4.45361040995E+01	-5.61509325666E+01	-5.96336806186E+00	-1.51325390662E+00
2.45256139571E+06	-1.34010861505E+01	-5.03120977586E+00	-4.81409735361E+00	1.58752446719E+02	-5.16088164892E+01	-4.20389073297E+01	-5.96899403694E+00	-1.18910693481E+00
2.47475275031E+06	-1.41389456770E+01	1.91578188590E+00	-4.86257031390E+00	1.58753043837E+02	-5.71159375779E+01	1.77465607907E+02	-5.97629050219E+00	-1.10363100219E+00
2.49694410490E+06	-1.23136630106E+01	1.09512424081E+00	-4.85653544318E+00	1.58885721666E+02	-5.82308322448E+01	-1.53227767763E+02	-5.96992056846E+00	-1.11093150687E+00
2.51913545950E+06	-1.57973146478E+01	-8.35976892086E+00	-4.89197827462E+00	1.58037096396E+02	-5.38575654936E+01	-1.75747253615E+02	-5.96421512652E+00	-1.18898165486E+00
2.54132681409E+06	-1.82522717036E+01	-1.29902333270E+01	-4.84162145881E+00	1.57909231257E+02	-3.21516555330E+01	-1.09077627040E+02	-5.97442804253E+00	-1.15622043376E+00
2.56351816869E+06	-1.62234322603E+01	-1.03233128391E+01	-4.89915432307E+00	1.58004714451E+02	-5.37531248581E+01	5.50888744297E+00	-5.96554693571E+00	-1.13639983328E+00
2.58570952328E+06	-1.43162565999E+01	-3.40022780441E-01	-4.84554660976E+00	1.58194745741E+02	-5.22448200180E+01	-8.31815858336E+01	-5.97684231440E+00	-1.17321227041E+00
2.60790087788E+06	-1.47464028334E+01	1.52888205237E+00	-4.88469271960E+00	1.57449608448E+02	-5.36276786181E+01	-5.26042914681E+01	-5.98089950336E+00	-1.03952161663E+00
2.63009223247E+06	-1.50849059016E+01	2.24866269786E+00	-4.80700873812E+00	1.57182337987E+02	-4.46815316791E+01	6.48903255799E+01	-5.97596800632E+00	-8.55268598024E-01
2.65228358707E+06	-1.28665866645E+01	-3.79779014455E+00	-4.81176134907E+00	1.57539444799E+02	-4.71899533587E+01	-7.23795486651E+01	-5.96900986402E+00	-1.15164603449E+00
2.67447494166E+06	-1.46387682403E+01	-3.73746563939E+00	-4.80950610991E+00	1.56980379783E+02	-6.05971967070E+01	1.03884154556E+02	-5.96601492096E+00	-1.14494550069E+00
2.69666629626E+06	-1.42584310846E+01	2.46752993907E+00	-4.93347352301E+00	1.56535693540E+02	-4.74098912262E+01	-1.30186109940E+02	-5.96017805173E+00	-1.16601577514E+00
2.71885765085E+06	-1.42834054455E+01	-1.07691315808E+01	-4.90237534757E+00	1.56352824920E+02	-5.00431341142E+01	-1.14438714633E+02	-5.97234468189E+00	-1.24557156260E+00
2.74104900545E+06	-1.36739972022E+01	2.17450767078E+00	-4.85345869222E+00	1.56282121347E+02	-4.73537794166E+01	-1.95040155724E+01	-5.97625932859E+00	-1.25983428329E+00
2.76324036004E+06	-1.38209389299E+01	1.39749462732E+01	-4.90753942579E+00	1.56523855238E+02	-4.70311585968E+01	3.15595277484E-01	-5.96612201976E+00	-1.31852728511E+00
2.78543171463E+06	-1.33264985275E+01	-1.28812895057E+00	-4.88727834841E+00	1.55896441326E+02	-5.91266119704E+01	-1.53561313809E+02	-5.96713172858E+00	-1.37156920193E+00
2.80762306923E+06	-1.42942861242E+01	5.19718851485E+00	-4.93777656531E+00	1.55864935688E+02	-5.05028902985E+01	1.10308597216E+02	-5.96472099481E+00	-1.21673911917E+00
2.82981442382E+06	-1.26329336391E+01	3.31888020463E+00	-4.87654781964E+00	1.55546282529E+02	-5.45622135349E+01	5.42475062998E+00	-5.97435432559E+00	-1.30261552338E+00
2.85200577842E+06	-1.26078930389E+01	-1.68312268158E+00	-4.86223188695E+00	1.55431380992E+02	-6.80347596990E+01	1.02980942045E+02	-5.97003615932E+00	-1.32750849772E+00
2.87419713301E+06	-1.53033215240E+01	-8.54008457978E-01	-4.90186076390E+00	1.54756023904E+02	-4.85419234745E+01	6.63851744711E+01	-5.96583425464E+00	-1.25104929664E+00
