# Hz S DB R 50
! CMT, M5065, 19127446, 24.2.4/2
! Date: 11/8/2024 6:49:09 PM
! Data: Format (Calibration Info)
! Freq	S11:dB/Ang(F2)	S21:dB/Ang(F2)	S12:dB/Ang(F2)	S22:dB/Ang(F2)
3.00000000000E+05	-1.39296463662E+01	2.10956984825E+01	1.46845333546E+01	1.79184201375E+02	-6.41076492973E+01	-1.15106251896E+02	-5.98686754716E+00	-3.73051687143E-01
3.22191354595E+05	-1.36934925754E+01	2.24498293206E+01	1.47111142724E+01	1.78227026451E+02	-5.82545487647E+01	1.55252265190E+02	-5.96058603336E+00	-4.83885652525E-01
3.44382709190E+05	-1.39110065982E+01	2.54102338931E+01	1.46979821721E+01	1.77286958675E+02	-5.73973928576E+01	-1.33705394869E+02	-5.95884805372E+00	-3.15873960783E-01
3.66574063785E+05	-1.50347615917E+01	1.43783911813E+01	1.46730082368E+01	1.76312681115E+02	-4.89918733185E+01	4.17417497404E+01	-5.98533376358E+00	-4.71547356284E-01
3.88765418380E+05	-1.44895579942E+01	1.45634108885E+01	1.46816431658E+01	1.75550593031E+02	-5.35909039216E+01	1.77962829738E+02	-5.97057992865E+00	-3.41009519099E-01
4.10956772975E+05	-1.45590871939E+01	2.04597213376E+00	1.46682892277E+01	1.74572195903E+02	-4.22433717786E+01	4.50560288155E+01	-5.97462603618E+00	-4.40661322394E-01
4.33148127570E+05	-1.25018603420E+01	1.28283333388E+01	1.46747849989E+01	1.74037408735E+02	-5.20036386481E+01	1.16284108808E+02	-5.95431835046E+00	-4.91567729924E-01
4.55339482165E+05	-1.39129218397E+01	1.57846497609E+01	1.46431551935E+01	1.73222364462E+02	-5.96477167249E+01	5.65868378428E+01	-5.95048125166E+00	-4.07040518587E-01
4.77530836760E+05	-1.49263707299E+01	1.14490987659E+01	1.46322645080E+01	1.72419745503E+02	-4.99046574628E+01	1.54804213355E+02	-5.95471970713E+00	-3.65289787337E-01
4.99722191355E+05	-1.57985980912E+01	6.99639573933E-01	1.46145170103E+01	1.71705680198E+02	-5.65490252029E+01	-1.63553526925E+02	-5.96187982336E+00	-4.25114130347E-01
5.21913545950E+05	-1.53067196847E+01	-4.39450551597E+00	1.46100113810E+01	1.70904036493E+02	-3.92346887859E+01	-8.52862103435E+01	-5.95515809774E+00	-2.87408153195E-01
5.44104900545E+05	-1.70343241702E+01	9.53311715064E+00	1.45761497546E+01	1.70333621290E+02	-4.56786054825E+01	7.64790989097E+01	-5.99328971782E+00	-5.57023484517E-01
5.66296255139E+05	-1.52598919771E+01	1.06367525091E+00	1.45923662492E+01	1.69798879094E+02	-5.65420121783E+01	5.54314284448E+01	-5.98619982295E+00	-5.19023552193E-01
5.88487609734E+05	-1.38886907198E+01	3.70936722766E+00	1.45792902070E+01	1.69058054304E+02	-5.24820135139E+01	1.15351506792E+02	-5.95500855764E+00	-4.33981530042E-01
6.10678964329E+05	-1.50849949980E+01	1.12363954764E+01	1.45713312969E+01	1.68577246033E+02	-5.26613302126E+01	7.75282169295E+01	-5.97973140298E+00	-9.93042122354E-03
6.32870318924E+05	-1.43325842139E+01	1.85208724214E+01	1.45648222714E+01	1.68003612780E+02	-4.78821537687E+01	-7.80193894380E+01	-5.95728036830E+00	-1.54392417647E-01
6.55061673519E+05	-1.54770868122E+01	6.01643763371E+00	1.45453113533E+01	1.67283869804E+02	-6.81843644313E+01	3.60675139140E+01	-5.97233445963E+00	-3.34204515516E-01
6.77253028114E+05	-1.53155226223E+01	-3.20098822237E+00	1.45265080533E+01	1.66517609531E+02	-4.87418540684E+01	-1.21914976543E+02	-5.95881310450E+00	-6.04697956305E-01
6.99444382709E+05	-1.43260439827E+01	3.12428017872E+01	1.45126900117E+01	1.66248201745E+02	-4.76835589244E+01	-1.64863771165E+01	-5.97351421021E+00	-4.72163880902E-01
7.21635737304E+05	-1.37944841956E+01	3.86657654640E+00	1.45095126471E+01	1.65428701046E+02	-5.45570142242E+01	1.16879622222E+02	-5.95823551770E+00	-5.17112681451E-01
7.43827091899E+05	-1.40901324408E+01	9.59696836995E-01	1.45085756091E+01	1.64908318989E+02	-4.50229204083E+01	-5.72103549433E+01	-5.98853573309E+00	-2.87281608871E-01
7.66018446494E+05	-1.47083282751E+01	-1.32235067675E+00	1.44746813459E+01	1.64379996977E+02	-5.55469926900E+01	1.25631481759E+02	-5.96755614053E+00	-4.87132596816E-01
7.88209801089E+05	-1.42123061364E+01	1.16510317803E+00	1.44746745585E+01	1.63705469248E+02	-4.64896290321E+01	1.54896747246E+01	-5.99424912544E+00	-5.18570825024E-01
8.10401155684E+05	-1.45011614602E+01	3.13055362174E+00	1.44576683162E+01	1.63244881974E+02	-5.51377499520E+01	1.42658298874E+02	-5.96393805160E+00	-4.60617721658E-01
8.32592510279E+05	-1.28278253301E+01	3.53126261960E+00	1.44629718038E+01	1.62759280236E+02	-5.51512498792E+01	1.24190115962E+02	-5.97018269770E+00	-4.87707688199E-01
8.54783864874E+05	-1.27163543686E+01	2.06989547315E+00	1.44574775095E+01	1.62135508985E+02	-6.29534794971E+01	1.37696559748E+02	-5.96090992129E+00	-4.86631237917E-01
8.76975219469E+05	-1.37500510692E+01	-4.44317492130E+00	1.44364588504E+01	1.61555728071E+02	-6.82363922174E+01	-1.11931392361E+02	-5.97270747697E+00	-5.17902020681E-01
8.99166574064E+05	-1.63265647404E+01	4.76651808010E+00	1.44031527023E+01	1.61084698134E+02	-5.10870800080E+01	-1.79611509000E+02	-5.95663337765E+00	-5.68460497352E-01
9.21357928659E+05	-1.30524720839E+01	-6.69476739793E+00	1.44186874379E+01	1.60426890505E+02	-5.88980052966E+01	3.87647829165E+01	-5.98481918485E+00	-5.77590429545E-01
9.43549283254E+05	-1.30129177351E+01	9.12567644376E+00	1.44032608494E+01	1.59997809397E+02	-5.30914701623E+01	-4.45433735096E+01	-5.98934689116E+00	-5.31423150928E-01
9.65740637849E+05	-1.47099596910E+01	1.98414657630E+00	1.43674377897E+01	1.59338430194E+02	-5.39747558417E+01	-1.21464152947E+02	-5.97500177540E+00	-5.63209715301E-01
9.87931992444E+05	-1.45445614899E+01	-8.15721554957E+00	1.43642280188E+01	1.58769573889E+02	-4.99946958606E+01	-1.21837976871E+02	-5.94730610795E+00	-4.35920723560E-01
1.01012334704E+06	-1.43127625375E+01	-3.22395122495E+00	1.43412935126E+01	1.58367387739E+02	-4.66797203182E+01	-7.29537002260E-01	-5.98536108749E+00	-6.39144601088E-01
1.03231470163E+06	-1.32999781058E+01	1.32026214299E+01	1.43188415695E+01	1.57966671978E+02	-4.77344256768E+01	1.11251346019E+02	-5.96679386162E+00	-7.37144998513E-01
1.05450605623E+06	-1.55276367802E+01	1.23383740523E+01	1.43054823583E+01	1.57375977874E+02	-5.05250953578E+01	8.06099069373E+01	-5.96678626711E+00	-6.14754166829E-01
1.07669741082E+06	-1.46564782871E+01	4.77977591554E+00	1.42985860477E+01	1.56878951974E+02	-5.14212423518E+01	-1.14525318373E+02	-5.95055376871E+00	-4.66429815431E-01
1.09888876542E+06	-1.30494540159E+01	-6.02410909822E-01	1.43022433707E+01	1.56304277390E+02	-4.40924935967E+01	-1.72644122937E+02	-5.97033289525E+00	-5.34808405433E-01
1.12108012001E+06	-1.41718190062E+01	8.66642332864E-01	1.42833375739E+01	1.55762065261E+02	-5.67845762091E+01	-1.28892771540E+01	-5.97533474142E+00	-6.00290850631E-01
1.14327147461E+06	-1.38402465991E+01	5.41573176477E+00	1.42532821982E+01	1.55246127580E+02	-4.73821956111E+01	-1.14378449709E+02	-5.97054186605E+00	-5.19641190702E-01
1.16546282920E+06	-1.27862772297E+01	-2.20213602203E-01	1.42461430078E+01	1.54778863302E+02	-6.03619602622E+01	3.29967209392E+01	-5.96485942075E+00	-7.35969570728E-01
1.18765418380E+06	-1.30244527045E+01	-3.43430935669E+00	1.42269858471E+01	1.54281131624E+02	-6.14021932771E+01	9.05928225824E+01	-5.97413922677E+00	-6.78842279616E-01
1.20984553839E+06	-1.48527464837E+01	1.08813645951E+01	1.41950992689E+01	1.53780801793E+02	-3.92856245722E+01	2.57361798450E+01	-5.99996077043E+00	-6.95023939672E-01
1.23203689299E+06	-1.35709418658E+01	-8.82947732491E-01	1.41827154792E+01	1.53278464268E+02	-5.21295133041E+01	4.34209699919E+01	-5.98153095467E+00	-4.25671833408E-01
1.25422824758E+06	-1.48706921448E+01	7.64292507332E+00	1.41672208625E+01	1.52853721559E+02	-5.00999560001E+01	4.18012562294E+00	-5.98895968774E+00	-5.48302572146E-01
1.27641960218E+06	-1.47440244437E+01	7.75982176405E-01	1.41506087228E+01	1.52193081653E+02	-5.13583669733E+01	-9.46120824040E+01	-5.97585953476E+00	-6.37379585084E-01
1.29861095677E+06	-1.53696037452E+01	9.88513146065E+00	1.41263035108E+01	1.51694843348E+02	-5.25403994262E+01	-1.45940326686E+02	-5.98196355732E+00	-6.50449888473E-01
1.32080231137E+06	-1.57654576045E+01	8.51523185432E+00	1.41003435432E+01	1.51332684216E+02	-4.70629497952E+01	1.05197449126E+02	-5.96218218074E+00	-1.10445706498E+00
1.34299366596E+06	-1.51920807954E+01	-6.16896822110E-01	1.40820663849E+01	1.50686118912E+02	-5.31083592228E+01	-9.58319603059E+01	-5.97524850947E+00	-5.82992338373E-01
1.36518502056E+06	-1.38476274308E+01	3.05736294449E+00	1.40813124251E+01	1.50289710984E+02	-4.76088589253E+01	-1.24778862881E+02	-5.96025146473E+00	-5.77162184107E-01
1.38737637515E+06	-1.42614846012E+01	1.10516854812E+01	1.40734913344E+01	1.49912588457E+02	-5.16266970560E+01	1.46549995622E+02	-5.97140271587E+00	-7.36977422102E-01
1.40956772975E+06	-1.26228998812E+01	1.12702020938E+01	1.40533591157E+01	1.49432569131E+02	-6.46316018546E+01	7.02785385443E+01	-5.96220339265E+00	-7.60854781416E-01
1.43175908434E+06	-1.38204070150E+01	-3.30676676154E+00	1.40217350996E+01	1.48799845572E+02	-4.69086943344E+01	-3.07857109982E+01	-5.98336360037E+00	-6.73718746550E-01
1.45395043894E+06	-1.27679628368E+01	1.58157186905E+00	1.40160894574E+01	1.48381700005E+02	-4.56214181056E+01	8.07214213558E+01	-5.96098938935E+00	-9.36087476447E-01
1.47614179353E+06	-1.50177763671E+01	1.27266390217E+01	1.39958426594E+01	1.47906534935E+02	-5.70622538718E+01	-1.23913415172E+02	-5.96293577187E+00	-7.73923049257E-01
1.49833314813E+06	-1.42757158911E+01	6.96208742741E+00	1.39597230250E+01	1.47456139170E+02	-5.40699022081E+01	7.67737373655E+01	-5.97787631223E+00	-8.02937086413E-01
1.52052450272E+06	-1.49703466114E+01	-6.57157221714E-02	1.39474913129E+01	1.46836512155E+02	-4.94113896230E+01	-2.38126761194E+01	-5.97661624912E+00	-7.72787102141E-01
1.54271585732E+06	-1.57643874099E+01	2.00858861020E+00	1.39413618308E+01	1.46445967549E+02	-5.03495827053E+01	1.08006212595E+01	-5.97863960137E+00	-7.54422345813E-01
1.56490721191E+06	-1.45746407924E+01	9.51432321812E+00	1.39148063233E+01	1.45905962147E+02	-4.79977509043E+01	-6.19431483050E+01	-5.95528675495E+00	-6.75225884103E-01
1.58709856651E+06	-1.31320200312E+01	4.78760452508E+00	1.38995643680E+01	1.45508918038E+02	-4.58957032096E+01	-4.08619670074E+01	-5.97617869609E+00	-5.90968339251E-01
1.60928992110E+06	-1.32048014042E+01	-7.21573267853E+00	1.39066648154E+01	1.44942499718E+02	-5.23160935055E+01	4.29336802438E+01	-5.98709725657E+00	-8.70693377629E-01
1.63148127570E+06	-1.37394932082E+01	-8.08229538882E+00	1.38734569418E+01	1.44602497964E+02	-5.51934982310E+01	-6.42051564341E+00	-5.97224262993E+00	-7.31502133069E-01
1.65367263029E+06	-1.31724240370E+01	3.79421204043E+00	1.38557377169E+01	1.44153183964E+02	-4.97561639442E+01	1.02554646032E+02	-5.96677858703E+00	-9.13940809908E-01
1.67586398489E+06	-1.43300049247E+01	-9.81899753148E-01	1.38388806690E+01	1.43628599975E+02	-4.93311687645E+01	-8.82696065374E+01	-5.98263948959E+00	-8.41917603747E-01
1.69805533948E+06	-1.32662199272E+01	-3.15559824918E+00	1.38132704821E+01	1.43174020298E+02	-6.55639356673E+01	-6.08619448423E+01	-5.97191471442E+00	-8.01993383612E-01
1.72024669408E+06	-1.44466479572E+01	-9.33894444416E-01	1.37731575407E+01	1.42609019465E+02	-4.69527862644E+01	9.57851873511E+01	-5.97965289988E+00	-9.87627983385E-01
1.74243804867E+06	-1.15539681753E+01	1.93699513233E+01	1.37810051951E+01	1.42404738066E+02	-5.10119859612E+01	-1.16212705201E+02	-5.96390409101E+00	-7.47178114453E-01
1.76462940327E+06	-1.44788023055E+01	-1.50134949457E+00	1.37269509327E+01	1.41658195691E+02	-5.56112613865E+01	-1.29709906865E+02	-5.95677855065E+00	-9.28209789202E-01
1.78682075786E+06	-1.19862393893E+01	2.04523803602E-01	1.37457668589E+01	1.41303119837E+02	-4.94314704722E+01	6.72270113558E+01	-5.99526993223E+00	-8.36082269920E-01
1.80901211246E+06	-1.40906334198E+01	7.62537613768E+00	1.37026554190E+01	1.40823473219E+02	-5.08786264324E+01	1.51469274268E+02	-5.96639033257E+00	-9.75554954394E-01
1.83120346705E+06	-1.43814249940E+01	-2.46574583808E+00	1.36797835172E+01	1.40262857470E+02	-4.96150840779E+01	-1.03655262007E+02	-5.97890122399E+00	-7.64406368512E-01
1.85339482165E+06	-1.40925763419E+01	2.09735837458E+00	1.36831209983E+01	1.39795094366E+02	-4.74238255021E+01	4.60420500296E+01	-5.97799690187E+00	-9.27054816296E-01
1.87558617624E+06	-1.30040157867E+01	2.43530396768E+00	1.36431510675E+01	1.39331706751E+02	-5.54758999098E+01	6.21546208579E+01	-5.97558325055E+00	-9.37539402964E-01
1.89777753084E+06	-1.22351088725E+01	-2.37378387915E+00	1.36390521421E+01	1.38947000865E+02	-4.04172635530E+01	-1.59964128038E+02	-5.95417782818E+00	-9.71403504864E-01
1.91996888543E+06	-1.63750939196E+01	-6.50591557725E+00	1.35828738045E+01	1.38327155749E+02	-4.99151639158E+01	5.68174934936E+01	-5.97189450084E+00	-9.80080348146E-01
1.94216024003E+06	-1.27972352854E+01	-1.42665095986E+01	1.35916145610E+01	1.37973167227E+02	-5.44994327126E+01	4.61339139225E+00	-5.97969102530E+00	-8.93910203769E-01
1.96435159462E+06	-1.77353896529E+01	1.19826251989E+00	1.35330373945E+01	1.37553596389E+02	-4.82039651778E+01	-1.13202779449E+02	-5.96895338038E+00	-7.99709482038E-01
1.98654294922E+06	-1.56726516783E+01	3.24529237580E+00	1.35389869099E+01	1.37189350882E+02	-5.12838120493E+01	-8.02641626989E+01	-5.97343480062E+00	-8.97606991517E-01
2.00873430381E+06	-1.42263292242E+01	1.38295904890E+00	1.35349315876E+01	1.36648384196E+02	-3.55043584281E+01	-4.94379081475E+01	-5.96920653834E+00	-7.53855161189E-01
2.03092565841E+06	-1.36853775603E+01	-4.84795135366E+00	1.34980982884E+01	1.36164465518E+02	-6.28162867657E+01	1.02091414161E+02	-5.98394687732E+00	-9.79056911808E-01
2.05311701300E+06	-1.42921259663E+01	-1.44392869397E+01	1.34895620669E+01	1.35632410440E+02	-4.92960066801E+01	2.04071714857E+01	-5.97264364892E+00	-9.91232048503E-01
2.07530836760E+06	-1.62065637902E+01	-7.99346053303E+00	1.34470049262E+01	1.35260516549E+02	-5.15342651304E+01	-4.96643207824E+01	-5.96726127714E+00	-1.00981100329E+00
2.09749972219E+06	-1.36672485729E+01	-2.51229578145E+00	1.34538392951E+01	1.34868305041E+02	-4.89099690479E+01	4.93720720141E+01	-5.97840263123E+00	-1.00126784609E+00
2.11969107679E+06	-1.37126891389E+01	-1.01327815814E+01	1.34177137208E+01	1.34514594080E+02	-3.92023150161E+01	8.91874277852E+01	-5.99034791155E+00	-1.10138672757E+00
2.14188243138E+06	-1.38100567262E+01	-1.13500837064E+00	1.34005305522E+01	1.34082001871E+02	-5.29287870096E+01	-1.34099147669E+02	-5.96465115147E+00	-1.07551258506E+00
2.16407378598E+06	-1.28819280910E+01	1.21949531782E+00	1.33823569982E+01	1.33568230469E+02	-5.61859860359E+01	1.18364643898E+01	-5.98586052656E+00	-1.04970532716E+00
2.18626514057E+06	-1.32814906608E+01	-8.18050312590E+00	1.33527137270E+01	1.33079003411E+02	-5.79993681189E+01	-9.06776110322E+01	-5.96319827965E+00	-9.05217227090E-01
2.20845649517E+06	-1.39875020142E+01	-5.49703069546E+00	1.33130880623E+01	1.32683288480E+02	-4.90582363006E+01	1.64445753330E+02	-5.96607985666E+00	-1.17720518372E+00
2.23064784976E+06	-1.36751380911E+01	7.78156882449E+00	1.32866521043E+01	1.32345010050E+02	-5.55792267266E+01	1.70487406940E+02	-5.96462676574E+00	-1.14024392494E+00
2.25283920436E+06	-1.32117044966E+01	2.77738544776E+00	1.32888523827E+01	1.31907653043E+02	-5.00123011228E+01	1.06261070691E+02	-5.97871325654E+00	-1.17005658597E+00
2.27503055895E+06	-1.39038173397E+01	-2.91406762346E+00	1.32508401953E+01	1.31441695422E+02	-6.12925493695E+01	-1.39153414188E+02	-5.97060482229E+00	-1.09559395404E+00
2.29722191355E+06	-1.52550306401E+01	1.15188442756E+01	1.32013915248E+01	1.31007218192E+02	-4.88004049989E+01	-2.68452212681E+01	-5.99519396949E+00	-1.06794506536E+00
2.31941326814E+06	-1.75462469502E+01	-3.27436503289E+00	1.31990251413E+01	1.30442553771E+02	-5.16168077853E+01	7.57590637755E+01	-5.97601626876E+00	-1.16019127842E+00
2.34160462274E+06	-1.50026179787E+01	5.47056954359E+00	1.31761828708E+01	1.30059999667E+02	-4.52136652456E+01	3.40929380837E+01	-5.99179811495E+00	-1.11019532411E+00
2.36379597733E+06	-1.32540448613E+01	-3.04643868894E+00	1.31442512047E+01	1.29668165742E+02	-4.80500857985E+01	1.24195158591E+01	-5.95093715389E+00	-1.12153367494E+00
2.38598733193E+06	-1.33283801674E+01	-3.87991832173E+00	1.31394056664E+01	1.29238480179E+02	-5.38719540126E+01	-1.19946197964E+02	-5.96210075940E+00	-1.07100293782E+00
2.40817868652E+06	-1.37522911972E+01	3.15268353318E+00	1.31036268186E+01	1.28778015883E+02	-5.31363627350E+01	-9.97418485381E+01	-5.97162367872E+00	-1.27828473413E+00
2.43037004112E+06	-1.28743473709E+01	9.92671385479E+00	1.30915147962E+01	1.28497653982E+02	-4.90183406011E+01	-1.45504242875E+02	-5.96835419128E+00	-1.52745589493E+00
2.45256139571E+06	-1.35375017361E+01	2.51607219340E-01	1.30636629409E+01	1.28046970265E+02	-5.83162489540E+01	8.12781082517E+01	-5.97987178244E+00	-1.24958384407E+00
2.47475275031E+06	-1.28111742213E+01	4.18186870870E-01	1.30535651957E+01	1.27615382394E+02	-4.50984724537E+01	3.22312610607E+01	-5.98763193554E+00	-1.12025179526E+00
2.49694410490E+06	-1.40539247308E+01	-2.62807199472E+00	1.30228840047E+01	1.27057634399E+02	-5.35847266199E+01	4.29693829360E+01	-5.98241128393E+00	-1.21945646138E+00
2.51913545950E+06	-1.39601264355E+01	8.88696794018E+00	1.29819489651E+01	1.26687931596E+02	-5.11161127042E+01	1.64066969851E+02	-5.99685455084E+00	-1.25129769025E+00
2.54132681409E+06	-1.31303534495E+01	-7.69721282405E+00	1.29747065534E+01	1.26237757201E+02	-6.38825252550E+01	-1.44339704537E+02	-5.97819985047E+00	-1.15156779328E+00
2.56351816869E+06	-1.48145120177E+01	7.71535425135E+00	1.29463367842E+01	1.25853444021E+02	-5.63352604577E+01	-8.17358849893E+01	-5.97313591718E+00	-1.13119447744E+00
2.58570952328E+06	-1.39875406658E+01	-6.35986384197E+00	1.29142433656E+01	1.25326319366E+02	-4.58473613004E+01	-5.43233474237E+01	-5.97607832414E+00	-1.12523593629E+00
2.60790087788E+06	-1.39417165221E+01	3.38491763198E-02	1.28966655749E+01	1.25130023255E+02	-5.26883368529E+01	-1.51836256608E+02	-5.97840926241E+00	-1.14743715541E+00
2.63009223247E+06	-1.36470446346E+01	9.46395930314E+00	1.28602475646E+01	1.24688714958E+02	-5.10873770129E+01	5.32933923065E+01	-5.99160700378E+00	-9.32466786739E-01
2.65228358707E+06	-1.38146627107E+01	8.29054365977E-01	1.28379746530E+01	1.24154562075E+02	-4.97004859825E+01	1.19082061181E+02	-5.97789504934E+00	-1.37067094345E+00
2.67447494166E+06	-1.33188172914E+01	1.59864115471E+01	1.28232259595E+01	1.23912950197E+02	-4.60497263544E+01	6.36564763640E+01	-5.98636575520E+00	-1.34058311610E+00
2.69666629626E+06	-1.30958304352E+01	5.73051780994E-01	1.28076115832E+01	1.23384386414E+02	-5.07361757406E+01	1.77188804413E+01	-5.97682258945E+00	-1.32703660197E+00
2.71885765085E+06	-1.40262460014E+01	-2.39118681513E+00	1.27729440037E+01	1.22899586246E+02	-5.15793403371E+01	-7.70851449497E+01	-5.96929634900E+00	-1.30770798441E+00
2.74104900545E+06	-1.31885932927E+01	1.74467803496E+00	1.27456600080E+01	1.22503989509E+02	-4.71645813321E+01	-1.25171682014E+02	-5.95854788261E+00	-1.16188447322E+00
2.76324036004E+06	-1.38218847315E+01	9.86645910292E-02	1.27109249174E+01	1.22017483156E+02	-6.78380070365E+01	-2.18102334758E+00	-5.97525065377E+00	-1.30411953783E+00
2.78543171463E+06	-1.33110450467E+01	1.28506483590E+00	1.27000747089E+01	1.21609842567E+02	-5.63856002700E+01	-1.11849999149E+02	-5.95745473783E+00	-1.25653085572E+00
2.80762306923E+06	-1.52728299224E+01	-3.53371960730E+00	1.26710756303E+01	1.21157157778E+02	-4.92543163796E+01	-1.25453213462E+01	-5.99207417723E+00	-1.37681774253E+00
2.82981442382E+06	-1.40226331824E+01	4.40190285584E+00	1.26342051559E+01	1.20833222593E+02	-5.51859722994E+01	-1.12360820093E+02	-5.97465590794E+00	-1.35910212667E+00
2.85200577842E+06	-1.41017770511E+01	-6.26003259139E+00	1.26236195976E+01	1.20434037130E+02	-5.26734373770E+01	-2.44990009385E+01	-5.99374692911E+00	-1.24357466115E+00
2.87419713301E+06	-1.37756039902E+01	-5.75938712881E+00	1.26036011572E+01	1.20053901309E+02	-5.77082827661E+01	-1.75812856085E+02	-5.96386415369E+00	-1.31038557165E+00
2.89638848761E+06	-1.32408807134E+01	-1.62649322150E+01	1.25693876675E+01	1.19520717666E+02	-5.71263414648E+01	1.24939368155E+02	-5.97566260487E+00	-1.40423772055E+00
