# Hz S DB R 50
! CMT, M5065, 19127446, 24.2.4/2
! Date: 11/8/2024 6:37:04 PM
! Data: Format (Calibration Info)
! Freq	S11:dB/Ang(F2)	S21:dB/Ang(F2)	S12:dB/Ang(F2)	S22:dB/Ang(F2)
3.00000000000E+05	-1.41119551206E+01	1.66150792250E+01	-1.70727880321E+00	1.78591891776E+02	-5.45910095143E+01	-1.75171019411E+02	-5.95552377522E+00	-2.64645123671E-01
3.22191354595E+05	-1.41988874068E+01	1.86932148571E+01	-1.74032197631E+00	1.77980385027E+02	-4.76676591888E+01	1.57273268134E+02	-5.96710706821E+00	-2.38038163545E-01
3.44382709190E+05	-1.45977792261E+01	6.68753806199E+00	-1.71881581779E+00	1.77811993637E+02	-4.67851564767E+01	2.55705220102E+01	-5.96577230003E+00	-2.37962434291E-01
3.66574063785E+05	-1.44640672594E+01	9.89217082202E+00	-1.72255075986E+00	1.77461184573E+02	-5.63155403247E+01	-6.76030505291E+01	-5.97242358794E+00	-2.94131429119E-01
3.88765418380E+05	-1.31387834214E+01	2.70438575806E+01	-1.78845057917E+00	1.77426890951E+02	-5.41369272483E+01	-8.53725118245E+01	-5.98048427173E+00	-2.80105201126E-01
4.10956772975E+05	-1.51025445377E+01	9.16580921756E+00	-1.75976706181E+00	1.76729691471E+02	-5.81058829070E+01	7.29737647992E+01	-5.96501561990E+00	-3.43319181624E-01
4.33148127570E+05	-1.24210267763E+01	6.83970826981E+00	-1.70249018145E+00	1.76580063460E+02	-4.64422214434E+01	-1.23776727375E+02	-5.96497167435E+00	-2.60787359729E-01
4.55339482165E+05	-1.32942904594E+01	1.44281686147E+01	-1.72006208189E+00	1.76367033955E+02	-5.59411565919E+01	-1.51406229944E+02	-5.96602901569E+00	-2.65868444017E-01
4.77530836760E+05	-1.45744838704E+01	1.10394393526E+01	-1.72213606982E+00	1.76261197887E+02	-5.75526938084E+01	7.32194625021E+00	-5.96869355500E+00	-3.18004443350E-01
4.99722191355E+05	-1.64730496349E+01	1.64122098331E+00	-1.76430413419E+00	1.75862868797E+02	-5.46631193963E+01	-8.83105652087E+01	-5.97632098270E+00	-3.03983454631E-01
5.21913545950E+05	-1.39098056635E+01	1.52013749476E+01	-1.71067724138E+00	1.75721678018E+02	-5.23135230966E+01	-5.46247870925E+01	-5.96463327076E+00	-3.06425655855E-01
5.44104900545E+05	-1.28694956456E+01	1.22896399151E+01	-1.71719042150E+00	1.75701870995E+02	-5.04721432892E+01	-7.58663386659E+01	-5.96353255147E+00	-3.73545186900E-01
5.66296255139E+05	-1.45398912417E+01	9.25613934383E+00	-1.75241530421E+00	1.75807156955E+02	-4.46427135222E+01	6.90172866939E+01	-5.95776097754E+00	-3.72510523602E-01
5.88487609734E+05	-1.34415469948E+01	1.25580743349E+01	-1.71865032251E+00	1.75074682613E+02	-4.96806875311E+01	-1.87240377254E+01	-5.94881081397E+00	-2.60110768026E-01
6.10678964329E+05	-1.52926196223E+01	1.30551829063E+01	-1.76761907761E+00	1.74818129244E+02	-5.48673929190E+01	7.57986029270E+01	-5.96402906785E+00	1.30564473383E-01
6.32870318924E+05	-1.45066801935E+01	2.68467263012E+00	-1.76353037259E+00	1.74807564091E+02	-4.70285269097E+01	5.48297208745E+01	-5.97478060136E+00	-1.35020543335E-01
6.55061673519E+05	-1.51789716674E+01	-8.25554976214E+00	-1.72469445246E+00	1.74218334551E+02	-4.76559189515E+01	1.01975360478E+02	-5.96845872657E+00	-2.73773774365E-01
6.77253028114E+05	-1.44410486049E+01	1.97127823160E+01	-1.81088172246E+00	1.74517716740E+02	-4.67461730673E+01	-1.20098520877E+02	-5.95747361373E+00	-6.79346338900E-01
6.99444382709E+05	-1.35032535548E+01	4.62051663407E+00	-1.75335504670E+00	1.73520475177E+02	-5.15249195845E+01	-1.70510597562E+02	-5.97075349233E+00	-4.24295184256E-01
7.21635737304E+05	-1.56210215428E+01	-3.12418193197E+00	-1.76830206835E+00	1.73625491889E+02	-5.70734838300E+01	8.62258254831E+01	-5.96409185991E+00	-3.75713109700E-01
7.43827091899E+05	-1.43672019332E+01	9.63691531167E-01	-1.73178224936E+00	1.73584407160E+02	-5.09569738676E+01	5.53547662947E+00	-5.97126139128E+00	-4.21690557730E-01
7.66018446494E+05	-1.42813313533E+01	-2.67592336625E+00	-1.78216504240E+00	1.73308680358E+02	-5.21985038336E+01	1.71599375618E+02	-5.96263843579E+00	-4.12072428795E-01
7.88209801089E+05	-1.50491625456E+01	9.55062054669E-01	-1.74883954951E+00	1.73382490957E+02	-4.41755913339E+01	1.62807451254E+02	-5.96730453601E+00	-4.09951526803E-01
8.10401155684E+05	-1.47361158851E+01	1.02283088017E+01	-1.81134235158E+00	1.72868594825E+02	-6.05409578403E+01	-5.56728507493E+01	-5.97307566382E+00	-4.16171488321E-01
8.32592510279E+05	-1.60475294146E+01	2.39293851910E+01	-1.78785634783E+00	1.72545511146E+02	-5.05452864586E+01	4.95484124103E+01	-5.97398980236E+00	-4.34112375183E-01
8.54783864874E+05	-1.49256280271E+01	7.42211463522E+00	-1.73970441284E+00	1.72318880243E+02	-5.93688338785E+01	-8.22066003361E+01	-5.95702419817E+00	-4.52749722794E-01
8.76975219469E+05	-1.41388807179E+01	-3.61270853616E+00	-1.78810860701E+00	1.72230367551E+02	-5.07906445130E+01	-1.51835064584E+02	-5.96704322049E+00	-4.45815557593E-01
8.99166574064E+05	-1.41843246601E+01	9.41917465028E+00	-1.74999101161E+00	1.72104199250E+02	-4.57064784085E+01	-1.28384522861E+02	-5.96510938669E+00	-4.76820788267E-01
9.21357928659E+05	-1.46175674757E+01	-1.11813312894E+00	-1.79918348123E+00	1.71454227396E+02	-4.33194925440E+01	-1.64872139485E+02	-5.96519731498E+00	-4.57523904073E-01
9.43549283254E+05	-1.30392670521E+01	9.17093799954E+00	-1.78587906202E+00	1.71651934534E+02	-4.53200281110E+01	-3.72456550981E+01	-5.96869533644E+00	-4.88944785947E-01
9.65740637849E+05	-1.23669371095E+01	3.26450064825E+00	-1.75715821580E+00	1.71236861209E+02	-5.46132100312E+01	-9.10653911791E+01	-5.97731535210E+00	-4.31143026972E-01
9.87931992444E+05	-1.45829290317E+01	4.68300723342E+00	-1.77813828248E+00	1.70944093887E+02	-5.35059473119E+01	5.57690775417E+01	-5.97112884159E+00	-5.07941001766E-01
1.01012334704E+06	-1.36603442506E+01	4.59619346539E+00	-1.78390135833E+00	1.70890684126E+02	-5.12718248570E+01	1.27644366843E+02	-5.96969024980E+00	-4.45130929676E-01
1.03231470163E+06	-1.47138958160E+01	-2.09217025314E+00	-1.80862669077E+00	1.70356830501E+02	-5.43597541439E+01	5.04157967671E+01	-5.97628163712E+00	-5.52067448129E-01
1.05450605623E+06	-1.44577280993E+01	7.93546969321E+00	-1.80190420486E+00	1.70561678152E+02	-5.21104776323E+01	7.35686831993E+01	-5.96955207177E+00	-5.33695434587E-01
1.07669741082E+06	-1.92554166439E+01	1.19732527922E+01	-1.77757203949E+00	1.70358603218E+02	-6.38439521012E+01	1.41893692486E+02	-5.97038419510E+00	-5.21076820306E-01
1.09888876542E+06	-1.65402386951E+01	9.72877355579E+00	-1.78153799539E+00	1.69822566691E+02	-6.31930938879E+01	-2.03394122406E+01	-5.97363952418E+00	-5.23034915757E-01
1.12108012001E+06	-1.67889902159E+01	4.49261968306E+00	-1.81750114616E+00	1.69766497724E+02	-6.24725695935E+01	-1.72361226654E+02	-5.96560128003E+00	-5.53894077966E-01
1.14327147461E+06	-1.35652374179E+01	1.32810957704E+00	-1.79843240274E+00	1.69917825603E+02	-5.50089261184E+01	1.11624374882E+02	-5.96303682875E+00	-6.54908688598E-01
1.16546282920E+06	-1.45199929557E+01	6.09364638789E+00	-1.81377590753E+00	1.69186848158E+02	-5.04881846278E+01	-1.27785101183E+02	-5.96511094940E+00	-5.83342812670E-01
1.18765418380E+06	-1.51977425748E+01	-6.23739165349E+00	-1.78686692152E+00	1.69280458455E+02	-6.66267952861E+01	1.62681360057E+02	-5.96391131880E+00	-5.60518617555E-01
1.20984553839E+06	-1.77888633321E+01	1.01906251780E+01	-1.86022096597E+00	1.68609231187E+02	-5.25390457336E+01	-6.36791233017E+01	-5.95364415820E+00	-7.54893887045E-01
1.23203689299E+06	-1.50556046714E+01	6.96896071227E+00	-1.80362215211E+00	1.68768977780E+02	-5.30100954778E+01	-1.47533513372E+02	-5.97854546419E+00	-2.98170580110E-01
1.25422824758E+06	-1.48605469102E+01	-5.60802790240E+00	-1.76015619198E+00	1.68660469804E+02	-4.53487924714E+01	-5.95895795611E+01	-5.97387065478E+00	-5.82633500254E-01
1.27641960218E+06	-1.41092599917E+01	-9.46542413601E+00	-1.80396083105E+00	1.68170539766E+02	-4.92741984476E+01	1.27581361106E+02	-5.97283285768E+00	-6.60519346593E-01
1.29861095677E+06	-1.68265048249E+01	4.93052534010E+00	-1.82224618346E+00	1.68118858684E+02	-6.85128744119E+01	1.49531657012E+02	-5.96053205904E+00	-6.43868639458E-01
1.32080231137E+06	-1.44364024974E+01	-5.02033723325E+00	-1.80867855751E+00	1.67918968724E+02	-5.47642043916E+01	7.94872336088E+01	-5.95618189355E+00	-1.03070171719E+00
1.34299366596E+06	-1.45818841764E+01	-1.58481011549E+00	-1.83559125431E+00	1.67568647239E+02	-4.72973435667E+01	-2.71155465096E+01	-5.97456744629E+00	-7.09384549780E-01
1.36518502056E+06	-1.29462191909E+01	1.06286194329E+01	-1.79389056985E+00	1.67232035508E+02	-3.91163987821E+01	-2.11523267501E+00	-5.96632584680E+00	-6.70050520678E-01
1.38737637515E+06	-1.31848303153E+01	7.43127809511E-01	-1.80897503244E+00	1.67217776228E+02	-5.42422906835E+01	-1.01076778248E+02	-5.96477488510E+00	-7.05169362203E-01
1.40956772975E+06	-1.53359458820E+01	9.92164335684E+00	-1.83513716935E+00	1.67169571440E+02	-5.86434672848E+01	1.71762043987E+02	-5.96725922831E+00	-6.92739438324E-01
1.43175908434E+06	-1.30675819401E+01	-1.68252557504E+00	-1.80797568703E+00	1.66610866891E+02	-5.69511311242E+01	-1.58485018887E+00	-5.97170883600E+00	-6.48146886417E-01
1.45395043894E+06	-1.42286799140E+01	-1.24610303815E+00	-1.80214262186E+00	1.66820341446E+02	-5.08394145539E+01	2.93683962117E+01	-5.97376578310E+00	-6.68527596513E-01
1.47614179353E+06	-1.42369360923E+01	-2.54557014038E+00	-1.82059058623E+00	1.65936157407E+02	-7.42287265601E+01	1.16632212466E+02	-5.97092468880E+00	-7.27841155395E-01
1.49833314813E+06	-1.45561365796E+01	-3.11829382013E+00	-1.80276299682E+00	1.65997429428E+02	-5.36614582363E+01	1.13978668807E+02	-5.96127850267E+00	-7.11979149948E-01
1.52052450272E+06	-1.27134554581E+01	4.78862747611E-01	-1.73634522939E+00	1.66131004348E+02	-6.11718233755E+01	-1.44232077371E+02	-5.97553061591E+00	-6.86944608710E-01
1.54271585732E+06	-1.25284615901E+01	1.51242798615E+01	-1.88200852480E+00	1.65824287493E+02	-5.60489641025E+01	-4.23704021611E+01	-5.97095069103E+00	-7.41689027551E-01
1.56490721191E+06	-1.48982001826E+01	5.82087406318E-01	-1.82554563350E+00	1.65555977394E+02	-7.08009381108E+01	3.02152321374E+01	-5.97321026039E+00	-7.52627279564E-01
1.58709856651E+06	-1.41810707328E+01	-4.08801126572E-01	-1.78962309995E+00	1.65063676180E+02	-4.59061136260E+01	-1.70452672846E+02	-5.96851577975E+00	-6.80393989689E-01
1.60928992110E+06	-1.47633835224E+01	1.04050838807E+01	-1.82245908451E+00	1.65110423689E+02	-5.69256780582E+01	-1.41111258292E+02	-5.97096800428E+00	-7.18645597967E-01
1.63148127570E+06	-1.38496509999E+01	8.31423739310E+00	-1.84727524005E+00	1.65123554578E+02	-5.83033735889E+01	1.54249206931E+02	-5.96347447774E+00	-7.72057471737E-01
1.65367263029E+06	-1.28287689549E+01	-3.58728179557E+00	-1.85276584935E+00	1.64592401959E+02	-4.81909358989E+01	-5.75772332417E+01	-5.95907005957E+00	-7.52168149165E-01
1.67586398489E+06	-1.47906377239E+01	2.00179648765E+00	-1.85131837168E+00	1.64470763796E+02	-5.32151720166E+01	2.47799981184E+01	-5.96986387938E+00	-8.18508362289E-01
1.69805533948E+06	-1.53105500359E+01	1.94138055577E+00	-1.86278464466E+00	1.64124483431E+02	-6.24226719219E+01	-6.85478017807E+01	-5.96830764015E+00	-7.36109492216E-01
1.72024669408E+06	-1.29749556491E+01	3.05919810420E+00	-1.81998683532E+00	1.64142067228E+02	-4.89337388077E+01	-1.49011963392E+02	-5.97611038305E+00	-7.92829507208E-01
1.74243804867E+06	-1.48344655352E+01	-3.25280180653E+00	-1.84186833835E+00	1.63612421509E+02	-5.01927647694E+01	9.63906427414E+00	-5.96963514108E+00	-8.44722989982E-01
1.76462940327E+06	-1.52587449266E+01	-6.55352249262E+00	-1.85782534581E+00	1.63397754753E+02	-5.34476751819E+01	-1.41638095071E+01	-5.97849246695E+00	-8.77130221121E-01
1.78682075786E+06	-1.59999598178E+01	-6.06479605785E+00	-1.88654445733E+00	1.63647089848E+02	-5.22229462994E+01	-1.36326821070E+01	-5.96444903426E+00	-8.70812071021E-01
1.80901211246E+06	-1.24004666011E+01	3.42279887856E+00	-1.82517387802E+00	1.63399683312E+02	-5.17243706333E+01	-1.51432266282E+02	-5.96884587167E+00	-8.51839429713E-01
1.83120346705E+06	-1.42426641315E+01	8.88537818317E+00	-1.83730584258E+00	1.63598369819E+02	-5.46334822959E+01	-2.19225995056E+01	-5.97341646964E+00	-8.55725987472E-01
1.85339482165E+06	-1.47279382454E+01	-3.46130631226E+00	-1.89350566590E+00	1.62801471671E+02	-5.08136569817E+01	-3.15921880157E+01	-5.96136935995E+00	-8.80787118648E-01
1.87558617624E+06	-1.18989676872E+01	6.59980512477E+00	-1.91097721624E+00	1.62578641327E+02	-4.89481272056E+01	1.76744133363E+02	-5.96666418318E+00	-8.46426483606E-01
1.89777753084E+06	-1.47889124892E+01	-3.00488528954E+00	-1.84576889689E+00	1.62275641628E+02	-5.07779813127E+01	1.46063657512E+02	-5.95717658171E+00	-8.80068421082E-01
1.91996888543E+06	-1.39838251902E+01	-3.84581501016E+00	-1.84493683688E+00	1.62387739839E+02	-4.85838494051E+01	-7.65106635940E+01	-5.97258465767E+00	-9.20978908952E-01
1.94216024003E+06	-1.68802803916E+01	2.20827516164E+00	-1.89442428123E+00	1.61852711024E+02	-3.62078890788E+01	1.51059477442E+02	-5.96214092238E+00	-8.61540323717E-01
1.96435159462E+06	-1.42995846964E+01	-8.87346883785E-01	-1.89143846044E+00	1.61624223570E+02	-5.20003967872E+01	-1.07169405230E+02	-5.96812481856E+00	-9.20901639708E-01
1.98654294922E+06	-1.32290687585E+01	-8.12993341856E+00	-1.82426959119E+00	1.61374018838E+02	-4.38826958688E+01	1.00277014556E+02	-5.96131357912E+00	-9.55088186481E-01
2.00873430381E+06	-1.48251509137E+01	-1.97415513872E-01	-1.87990032478E+00	1.61261012297E+02	-6.03848969732E+01	9.19923340892E+01	-5.96075034883E+00	-9.66736080068E-01
2.03092565841E+06	-1.31135482120E+01	-6.08860747348E-01	-1.81602631546E+00	1.60941044159E+02	-5.84731227889E+01	-1.85291381076E+01	-5.96991602347E+00	-9.34233960024E-01
2.05311701300E+06	-1.35954785413E+01	-4.41786843215E+00	-1.83023101236E+00	1.60853787615E+02	-4.00512047915E+01	1.65593970555E+02	-5.96503494353E+00	-9.07926541827E-01
2.07530836760E+06	-1.47257378610E+01	-1.04012108727E-01	-1.87918609091E+00	1.60804511545E+02	-5.67636425810E+01	-1.19446265490E+02	-5.97221298711E+00	-9.16093267508E-01
2.09749972219E+06	-1.50166220454E+01	-8.72785462794E+00	-1.87123651758E+00	1.60228658161E+02	-5.36427010958E+01	2.24898608701E+01	-5.96660031654E+00	-1.01214773192E+00
2.11969107679E+06	-1.52354654413E+01	1.35679612447E+00	-1.89856634997E+00	1.60059705139E+02	-4.77689358568E+01	3.70152092738E+01	-5.97220669006E+00	-1.04526510277E+00
2.14188243138E+06	-1.37827601085E+01	-3.64451515476E+00	-1.85948665102E+00	1.60096811827E+02	-5.22856689838E+01	-9.59058947880E+01	-5.96090393829E+00	-9.33044390300E-01
2.16407378598E+06	-1.41538998599E+01	4.86979626480E+00	-1.88830336694E+00	1.59997238929E+02	-4.82670312141E+01	2.88532182821E+01	-5.97376402787E+00	-1.03303352644E+00
2.18626514057E+06	-1.37831635280E+01	-3.60192325887E+00	-1.85236282627E+00	1.59583207431E+02	-4.45206112669E+01	1.68561621021E+02	-5.98136290308E+00	-1.00435572647E+00
2.20845649517E+06	-1.39975999088E+01	2.01520320967E+00	-1.93750816316E+00	1.59317648945E+02	-5.62282196866E+01	1.34065345822E+02	-5.97924901381E+00	-9.85887070085E-01
2.23064784976E+06	-1.64255098108E+01	-7.64075745132E+00	-1.86682152616E+00	1.59360374113E+02	-5.58386154446E+01	-4.09204698220E+01	-5.96704581425E+00	-9.30207344833E-01
2.25283920436E+06	-1.34164976040E+01	-4.39695071326E+00	-1.87064996360E+00	1.59013329201E+02	-4.96699894934E+01	-1.51969145303E+02	-5.97301484864E+00	-1.03433561943E+00
2.27503055895E+06	-1.35004162989E+01	1.21853140268E+00	-1.87350755498E+00	1.58911702723E+02	-5.38269691056E+01	7.91437679466E+01	-5.95990702339E+00	-1.07276249626E+00
2.29722191355E+06	-1.33947823662E+01	1.44550579227E+01	-1.88072364920E+00	1.58715330325E+02	-4.27188250606E+01	1.07857986986E+02	-5.95671035151E+00	-1.14987828418E+00
2.31941326814E+06	-1.32164732565E+01	-5.54352965759E+00	-1.87499164767E+00	1.58536302733E+02	-4.69027480449E+01	1.37331357444E+02	-5.96112575321E+00	-1.09269670951E+00
2.34160462274E+06	-1.34395225651E+01	-1.35494862216E+01	-1.89681926916E+00	1.57939862781E+02	-4.68519620839E+01	1.40259264633E+02	-5.97085786205E+00	-1.10196453588E+00
2.36379597733E+06	-1.25218600461E+01	5.70165649025E+00	-1.92234649412E+00	1.57997073670E+02	-4.69390970758E+01	-1.61958085805E+02	-5.96717822676E+00	-1.08756926618E+00
2.38598733193E+06	-1.41895537172E+01	1.29472011161E+01	-1.92489304296E+00	1.57922216482E+02	-5.24775274121E+01	8.63865084906E+01	-5.97284477196E+00	-1.03813697776E+00
2.40817868652E+06	-1.39820793256E+01	7.48205152649E+00	-1.97734681777E+00	1.57918447075E+02	-4.61680842199E+01	1.20065035869E+02	-5.97112612601E+00	-1.17681103889E+00
2.43037004112E+06	-1.54343635373E+01	-5.62732037880E+00	-1.97615062048E+00	1.57463208041E+02	-4.53293339645E+01	6.19934742912E+01	-5.98129662165E+00	-1.56414775432E+00
2.45256139571E+06	-7.83968053893E+00	-3.00615963704E+00	-1.91611676854E+00	1.57782493335E+02	-4.90298306672E+01	-1.52641397784E+02	-5.97304443310E+00	-1.09305634178E+00
2.47475275031E+06	-1.52075124935E+01	3.19677071921E+00	-1.92775297826E+00	1.56967579047E+02	-5.72824190572E+01	8.83611399753E+01	-5.97320650710E+00	-1.11534325129E+00
2.49694410490E+06	-1.46095019511E+01	-5.08682017408E+00	-1.91533653890E+00	1.56887280873E+02	-5.18520195358E+01	-1.78185791713E+02	-5.97883541282E+00	-1.10598693802E+00
2.51913545950E+06	-1.44577585149E+01	9.10518405732E+00	-1.94087493488E+00	1.56687868003E+02	-3.69782756483E+01	-8.41709559199E+01	-5.98411203576E+00	-1.09996622289E+00
2.54132681409E+06	-1.53297543343E+01	-3.33556876019E+00	-1.96641194231E+00	1.56304414735E+02	-5.35395932831E+01	-7.13752227728E+01	-5.98154657648E+00	-1.16742001731E+00
2.56351816869E+06	-1.27155529487E+01	-1.59531399187E+01	-1.87402467378E+00	1.56310762302E+02	-4.99355206011E+01	7.80172117583E+01	-5.97421054306E+00	-1.18424336269E+00
2.58570952328E+06	-1.32384021123E+01	-3.32755758211E+00	-1.93156540822E+00	1.56238941083E+02	-5.68169235452E+01	5.18615768732E+01	-5.97557478653E+00	-1.21666868703E+00
2.60790087788E+06	-1.34566089001E+01	4.09727216994E+00	-1.94608239963E+00	1.55598201990E+02	-5.10810302984E+01	1.51056871231E+01	-5.97765812472E+00	-1.06067426348E+00
2.63009223247E+06	-1.39491554463E+01	9.52314846819E+00	-1.90447593092E+00	1.55769565244E+02	-4.46447562472E+01	-1.54800249125E+01	-5.97606429079E+00	-8.48851462740E-01
2.65228358707E+06	-1.40174674035E+01	2.88214075492E+00	-1.95069185148E+00	1.55561319758E+02	-5.37640839943E+01	-7.61431392097E+01	-5.97355846272E+00	-1.21496360337E+00
2.67447494166E+06	-1.30349878547E+01	3.35365539750E+00	-1.93049827403E+00	1.55348908595E+02	-5.98232554590E+01	-1.45725249592E+02	-5.96452065503E+00	-1.26329094015E+00
2.69666629626E+06	-1.31674328662E+01	-2.72169854050E+00	-1.93073843945E+00	1.54865728288E+02	-5.11672111651E+01	-1.74514633844E+02	-5.96790848324E+00	-1.22414588742E+00
2.71885765085E+06	-1.38459024871E+01	1.05688575435E+00	-1.94159678708E+00	1.54784323001E+02	-4.69963631487E+01	-4.51498646319E+01	-5.97493749659E+00	-1.21272478012E+00
2.74104900545E+06	-1.37703208367E+01	-1.87476021831E-01	-1.90474209272E+00	1.54537353501E+02	-5.33574883830E+01	-1.21153217808E+02	-5.97529717519E+00	-1.22079579542E+00
2.76324036004E+06	-1.41287166224E+01	-2.38431280230E+00	-1.91649096004E+00	1.54235413282E+02	-4.57057128660E+01	7.27783737969E+01	-5.96379089756E+00	-1.27618887014E+00
2.78543171463E+06	-1.17566526116E+01	-6.27755690193E+00	-1.91850160776E+00	1.54169014596E+02	-5.21301566249E+01	-1.41408369593E+02	-5.97512051888E+00	-1.32695918276E+00
2.80762306923E+06	-1.28986353529E+01	4.07971561068E+00	-1.88602095045E+00	1.54234770327E+02	-5.67474058217E+01	7.04137922743E+01	-5.95963091407E+00	-1.30269746117E+00
2.82981442382E+06	-1.42206741810E+01	6.75978235367E+00	-1.95408503573E+00	1.53599237165E+02	-5.21838237078E+01	7.00374394271E+01	-5.98071381771E+00	-1.26014343468E+00
2.85200577842E+06	-1.35587967476E+01	-3.15067816755E+00	-1.95047124237E+00	1.53585750192E+02	-5.37303641848E+01	-9.53686208063E+01	-5.97722969289E+00	-1.35631238836E+00
2.87419713301E+06	-1.47485345540E+01	6.73208751577E+00	-2.00633797540E+00	1.53144126826E+02	-4.85497588837E+01	-1.67879249107E+02	-5.97723889876E+00	-1.29238354568E+00
