# Hz S DB R 50
! CMT, M5065, 19127446, 24.2.4/2
! Date: 11/8/2024 6:31:56 PM
! Data: Format (Calibration Info)
! Freq	S11:dB/Ang(F2)	S21:dB/Ang(F2)	S12:dB/Ang(F2)	S22:dB/Ang(F2)
3.00000000000E+05	-1.45457731906E+01	2.11900234107E+01	-4.63372455906E+00	1.78463204897E+02	-4.52192274822E+01	5.59837805202E+01	-5.96401039325E+00	-2.52196469901E-01
3.22191354595E+05	-1.41002237651E+01	1.94581013743E+01	-4.66228174034E+00	1.77992661399E+02	-6.06179734961E+01	-1.72924357540E+02	-5.98093231384E+00	-2.62005857486E-01
3.44382709190E+05	-1.69778210476E+01	1.67756311518E+01	-4.67661342957E+00	1.77759328225E+02	-4.58841811361E+01	1.08848106992E+02	-5.95481638693E+00	-2.34307886419E-01
3.66574063785E+05	-1.43193376073E+01	1.31259409376E+01	-4.64782776722E+00	1.77691453715E+02	-5.19830110706E+01	5.67662638298E+01	-5.95617483743E+00	-2.23104379191E-01
3.88765418380E+05	-1.37588940127E+01	2.87919820718E+01	-4.68067884762E+00	1.77882613645E+02	-5.45640155227E+01	-1.70652944491E+02	-5.95754966852E+00	-2.26256863470E-01
4.10956772975E+05	-1.32519017831E+01	1.79830535174E+01	-4.72915897554E+00	1.77039814848E+02	-5.67484084364E+01	-1.61760301407E+02	-5.95865734918E+00	-3.24154754748E-01
4.33148127570E+05	-1.52799998107E+01	9.15166820074E+00	-4.70746426180E+00	1.77217806924E+02	-5.04940820638E+01	-9.59650502772E+01	-5.96311791516E+00	-3.46501525072E-01
4.55339482165E+05	-1.56217906980E+01	6.96126217429E+00	-4.73354961568E+00	1.76581860090E+02	-6.38548298224E+01	8.96785693532E+01	-5.95015635404E+00	-2.33652657699E-01
4.77530836760E+05	-1.53307901502E+01	9.32215745140E+00	-4.73822768568E+00	1.76229266408E+02	-5.17511702599E+01	1.37009229148E+02	-5.96556670305E+00	-2.58267103044E-01
4.99722191355E+05	-1.16420903458E+01	1.59321969252E+00	-4.72236702005E+00	1.76151650989E+02	-5.44178623606E+01	2.78105243650E+01	-5.95711064090E+00	-3.35284889659E-01
5.21913545950E+05	-1.57155147672E+01	1.99780453822E+00	-4.76065103973E+00	1.75933661092E+02	-5.26046429557E+01	5.30404731854E+01	-5.95405345833E+00	-3.51165236403E-01
5.44104900545E+05	-1.24199641615E+01	6.81501341431E+00	-4.68823584451E+00	1.76017097537E+02	-5.23568249443E+01	-1.77954700919E+02	-5.94235900900E+00	-2.87505272750E-01
5.66296255139E+05	-1.49498219932E+01	4.93834917751E+00	-4.72544000000E+00	1.75550801222E+02	-5.33266494888E+01	6.18932119980E+01	-5.95841486583E+00	-3.21218414450E-01
5.88487609734E+05	-1.43696725403E+01	1.17511435054E+01	-4.68592123154E+00	1.75580946620E+02	-4.79333728664E+01	1.05517832543E+02	-5.96435316021E+00	-3.64538131481E-01
6.10678964329E+05	-1.43445033302E+01	5.40914557127E+00	-4.71098251867E+00	1.75420974722E+02	-5.24739092497E+01	8.13748168668E+01	-5.97052183542E+00	1.92848594660E-01
6.32870318924E+05	-1.39510443125E+01	1.26134758157E+01	-4.69920990729E+00	1.74585121576E+02	-4.87217611776E+01	-1.40893234380E+02	-5.95632514209E+00	-1.77852453625E-01
6.55061673519E+05	-1.58362853884E+01	9.90571886342E-01	-4.72917871733E+00	1.74971732366E+02	-5.41994474085E+01	5.70289691289E+01	-5.96178621194E+00	-2.58361022380E-01
6.77253028114E+05	-1.33811515073E+01	1.10813842353E+01	-4.70941176758E+00	1.74727094882E+02	-4.69488014275E+01	-5.25828010444E+00	-5.96114351418E+00	-6.56510910596E-01
6.99444382709E+05	-1.45468688102E+01	1.28450853225E+00	-4.75556127745E+00	1.74051991376E+02	-5.13238118800E+01	3.10836233498E+01	-5.95894773796E+00	-4.29187412112E-01
7.21635737304E+05	-1.45017654995E+01	2.70806169541E+01	-4.65635397608E+00	1.74497437164E+02	-5.08353252089E+01	-6.78530959232E+01	-5.95826576431E+00	-3.50405411468E-01
7.43827091899E+05	-1.57875415767E+01	1.06641152914E+00	-4.70482916352E+00	1.74080955082E+02	-5.01345407802E+01	-1.51163469824E+02	-5.96416738608E+00	-4.09833863084E-01
7.66018446494E+05	-1.54738510663E+01	1.14516452771E+01	-4.68126630622E+00	1.74123708104E+02	-4.89402443032E+01	1.78264021593E+02	-5.95448275056E+00	-4.09615408617E-01
7.88209801089E+05	-1.60133316867E+01	9.99961298001E-01	-4.71020975517E+00	1.73764161641E+02	-4.69990746277E+01	-7.26720041634E+01	-5.96870137335E+00	-3.98890409816E-01
8.10401155684E+05	-1.41292899331E+01	-3.21930536999E-01	-4.67533704429E+00	1.72961074600E+02	-5.04032934645E+01	-4.98522637163E+01	-5.96040357863E+00	-4.03955632329E-01
8.32592510279E+05	-1.32146893885E+01	6.55622573939E+00	-4.70238912156E+00	1.73297929926E+02	-5.09058577966E+01	-9.93819325755E+01	-5.96147753478E+00	-3.65757873746E-01
8.54783864874E+05	-1.57455874289E+01	8.67533362172E+00	-4.65399140662E+00	1.72974341172E+02	-5.23540229222E+01	-9.94413152966E+01	-5.95868216078E+00	-4.21613163770E-01
8.76975219469E+05	-1.58544063957E+01	1.10183426669E+01	-4.70162422907E+00	1.72851099069E+02	-5.59849194696E+01	1.38667206232E+02	-5.95765822457E+00	-3.86649084304E-01
8.99166574064E+05	-1.37578402406E+01	8.10489914434E+00	-4.71381702074E+00	1.72376450274E+02	-4.56365341938E+01	-8.82853990256E+01	-5.95764902977E+00	-3.88767223713E-01
9.21357928659E+05	-1.36605568654E+01	-4.01473766033E-02	-4.67159459727E+00	1.72256530176E+02	-6.89120623115E+01	-7.25382523768E+01	-5.96369468360E+00	-5.23671073535E-01
9.43549283254E+05	-1.53790004215E+01	4.34357759900E+00	-4.70575867406E+00	1.71860423007E+02	-4.63687723209E+01	-1.83618900615E+01	-5.95712033635E+00	-4.35944009752E-01
9.65740637849E+05	-1.42856170978E+01	7.46667164424E+00	-4.73926451063E+00	1.72168115204E+02	-5.22682725438E+01	-7.08697303373E+01	-5.95717220439E+00	-4.63259457883E-01
9.87931992444E+05	-1.64098528174E+01	8.32377477604E+00	-4.74275471514E+00	1.72103687296E+02	-4.79359884447E+01	-5.94617601559E+01	-5.96976007253E+00	-5.12976847794E-01
1.01012334704E+06	-1.41019897245E+01	4.04767348732E-01	-4.71005578115E+00	1.71361544886E+02	-5.86056807156E+01	5.20954864161E+01	-5.95834000527E+00	-4.92620891539E-01
1.03231470163E+06	-1.27532431645E+01	1.19645272679E+01	-4.74597349132E+00	1.71673218751E+02	-4.73454532785E+01	1.26199163205E+02	-5.95325350256E+00	-4.74309198007E-01
1.05450605623E+06	-1.44674251625E+01	3.38039091506E+00	-4.73928512120E+00	1.71053649404E+02	-4.90192404490E+01	-1.07724644052E+01	-5.94922689079E+00	-5.40018884230E-01
1.07669741082E+06	-1.44453417794E+01	-1.78945504006E-01	-4.70508780717E+00	1.70789938487E+02	-5.72827875940E+01	1.56528587310E+02	-5.96106571028E+00	-5.03795351841E-01
1.09888876542E+06	-1.45897111005E+01	3.26349826468E+00	-4.78973916423E+00	1.70654123596E+02	-5.25918891450E+01	2.09474141530E+01	-5.95629405167E+00	-5.72602052841E-01
1.12108012001E+06	-1.38877914187E+01	1.13637720515E+01	-4.76609067229E+00	1.70310330819E+02	-5.37599987588E+01	-2.65188510814E+01	-5.96619764531E+00	-5.89971560392E-01
1.14327147461E+06	-1.49344799986E+01	1.18824454502E+01	-4.71216513123E+00	1.70214965074E+02	-4.90820707592E+01	-1.68632642568E+02	-5.96655561737E+00	-5.63946413728E-01
1.16546282920E+06	-1.57074393047E+01	-7.93931697532E-01	-4.69752854977E+00	1.69912175371E+02	-5.28887564983E+01	-1.17237287142E+02	-5.95982590757E+00	-5.93977380786E-01
1.18765418380E+06	-1.51665755464E+01	3.46516517780E+01	-4.75287318854E+00	1.70076987457E+02	-4.83582405234E+01	4.70559303479E+01	-5.96641701989E+00	-6.29081633461E-01
1.20984553839E+06	-1.45605197822E+01	5.93575171709E+00	-4.76557530293E+00	1.69801380260E+02	-5.34698950986E+01	-1.18833637854E+02	-5.95952047198E+00	-7.38536128487E-01
1.23203689299E+06	-1.29105656210E+01	1.44363436566E+00	-4.68562267847E+00	1.69187891737E+02	-4.93418779891E+01	1.52245982720E+02	-5.97126121207E+00	-3.52568737735E-01
1.25422824758E+06	-1.34802018131E+01	4.10147498070E+00	-4.74231741065E+00	1.69079939308E+02	-5.08204467167E+01	-2.11374338494E+01	-5.96281792587E+00	-6.94146407368E-01
1.27641960218E+06	-1.29581401909E+01	-1.22304629744E+00	-4.77327175807E+00	1.69009393271E+02	-5.12955245041E+01	6.11156619799E+01	-5.96395699316E+00	-6.61312801384E-01
1.29861095677E+06	-1.46395209778E+01	5.77040916940E+00	-4.75978333989E+00	1.69307052172E+02	-4.78820085487E+01	6.73663960667E+01	-5.96612750616E+00	-6.18788781165E-01
1.32080231137E+06	-1.38120172999E+01	6.04624828030E+00	-4.75298010097E+00	1.69092874871E+02	-5.08869608161E+01	1.33298086037E+02	-5.96268831483E+00	-9.11126011808E-01
1.34299366596E+06	-1.38636387958E+01	1.02907789922E+01	-4.75198945214E+00	1.68801037008E+02	-5.28651960926E+01	-4.60738138981E+01	-5.96089101651E+00	-7.20913566683E-01
1.36518502056E+06	-1.46559642140E+01	4.51009821895E+00	-4.73041193751E+00	1.68631864401E+02	-5.02336605149E+01	-9.53462865935E+01	-5.95819963922E+00	-6.61643061182E-01
1.38737637515E+06	-1.35273864919E+01	6.85939459798E+00	-4.75181238087E+00	1.68551860170E+02	-6.69948220805E+01	-6.70420177459E+01	-5.96323029916E+00	-6.86558954666E-01
1.40956772975E+06	-1.42518810574E+01	7.49802838120E+00	-4.71510824140E+00	1.68143347609E+02	-6.68699557667E+01	-1.55348821307E+02	-5.96606566557E+00	-6.75337652492E-01
1.43175908434E+06	-1.30417007165E+01	8.96839306907E+00	-4.81249803665E+00	1.67619604502E+02	-4.99253842819E+01	-1.63807818297E+02	-5.94354866587E+00	-6.95182607355E-01
1.45395043894E+06	-1.30787727290E+01	7.17731555308E+00	-4.73396556411E+00	1.67322372046E+02	-5.16921929562E+01	1.68120351496E+02	-5.95416599867E+00	-6.57755537204E-01
1.47614179353E+06	-1.43687947166E+01	-1.52552726184E+00	-4.75797649732E+00	1.67351579262E+02	-5.34879704603E+01	4.99553060847E+01	-5.95475705648E+00	-6.95471447620E-01
1.49833314813E+06	-1.61916259790E+01	1.16229627568E+00	-4.76655820822E+00	1.67325255683E+02	-6.12829227490E+01	-4.91311109770E+01	-5.97024284075E+00	-6.47595671871E-01
1.52052450272E+06	-1.40872630708E+01	7.56877798168E+00	-4.80056378811E+00	1.67268714250E+02	-4.98190354110E+01	-1.11017958323E+02	-5.96451897392E+00	-6.94071075630E-01
1.54271585732E+06	-1.24242464259E+01	3.13861409856E+01	-4.75313700743E+00	1.66745969795E+02	-5.35825864915E+01	5.01932750655E+01	-5.96750682590E+00	-6.82048156959E-01
1.56490721191E+06	-1.36927415495E+01	4.23027285113E+00	-4.79354122842E+00	1.66486263435E+02	-5.30618391945E+01	-1.54820007203E+02	-5.96458460602E+00	-7.20361878453E-01
1.58709856651E+06	-1.36513345844E+01	9.58062614236E+00	-4.80056404467E+00	1.66365316741E+02	-5.08847749428E+01	-5.40888022373E+00	-5.96504947243E+00	-7.60931037131E-01
1.60928992110E+06	-1.56122055710E+01	5.85877688094E+00	-4.74610642049E+00	1.66492743515E+02	-4.80175027234E+01	-7.29612450160E+01	-5.96977845765E+00	-7.97481753660E-01
1.63148127570E+06	-1.42746268166E+01	4.02821890137E+00	-4.80504719966E+00	1.65911232050E+02	-4.64970279451E+01	9.13780470849E+01	-5.96471194866E+00	-7.46455284610E-01
1.65367263029E+06	-1.28807074178E+01	-3.39765496123E+01	-4.75502084715E+00	1.65780946033E+02	-4.75418537899E+01	1.03055819956E+02	-5.95674108049E+00	-8.58649778338E-01
1.67586398489E+06	-1.28408203008E+01	7.74797472643E+00	-4.75192645078E+00	1.65575099933E+02	-4.69776556021E+01	-3.52426397307E+01	-5.96671931115E+00	-8.13207205640E-01
1.69805533948E+06	-1.33157814174E+01	4.90108019350E+00	-4.77389036291E+00	1.65975620027E+02	-4.93228000618E+01	1.66623971618E+02	-5.96697657050E+00	-8.36070526756E-01
1.72024669408E+06	-1.40426593067E+01	-4.22331191182E+00	-4.78428682267E+00	1.65241609343E+02	-4.23275808476E+01	1.32586306671E+01	-5.97530870447E+00	-7.84477297819E-01
1.74243804867E+06	-1.37275462693E+01	2.06801491688E+00	-4.74148269309E+00	1.65317086424E+02	-4.91533069227E+01	-1.75729267491E+02	-5.95614881971E+00	-8.27035904030E-01
1.76462940327E+06	-1.47724071895E+01	8.54188769483E+00	-4.80109447373E+00	1.64911892895E+02	-5.34602219716E+01	-1.51238367041E+02	-5.96377487173E+00	-7.85262308937E-01
1.78682075786E+06	-1.48191435049E+01	-9.64901915675E+00	-4.80081208890E+00	1.64439003643E+02	-4.69025330480E+01	3.16959834303E+01	-5.95503551109E+00	-8.80309292362E-01
1.80901211246E+06	-1.53186005951E+01	4.78198208893E+00	-4.77196352148E+00	1.64796303146E+02	-5.24921697229E+01	-2.54625607810E+01	-5.95435631216E+00	-8.26988990139E-01
1.83120346705E+06	-1.63493082640E+01	1.26405927590E+01	-4.81192543275E+00	1.64273461688E+02	-4.71989766961E+01	2.69576555979E+01	-5.95887481429E+00	-8.68650682385E-01
1.85339482165E+06	-1.46194919849E+01	-2.51616337754E+00	-4.75811334528E+00	1.63849043812E+02	-5.23089243977E+01	8.70067947269E+01	-5.95405100757E+00	-8.86687111274E-01
1.87558617624E+06	-1.39909619671E+01	3.48173971319E+01	-4.82333041723E+00	1.63567662619E+02	-5.61599597708E+01	-1.18996225996E+02	-5.95722238378E+00	-8.52255869111E-01
1.89777753084E+06	-1.32741209265E+01	-2.08472341113E+00	-4.79165493800E+00	1.64133202079E+02	-4.79474721058E+01	-5.08742823287E+01	-5.95535629909E+00	-9.04441687351E-01
1.91996888543E+06	-1.39639073170E+01	-3.11395901224E+00	-4.85572138857E+00	1.63230359451E+02	-4.84374748908E+01	-1.15102870877E+02	-5.96447544758E+00	-8.80484610862E-01
1.94216024003E+06	-1.27420768870E+01	5.64831150941E+00	-4.77018287561E+00	1.63341313330E+02	-4.52343148198E+01	-1.24317983448E+02	-5.97319756503E+00	-8.63704480679E-01
1.96435159462E+06	-1.50997420457E+01	-6.28704708267E+00	-4.76505420753E+00	1.63012835183E+02	-4.74958667091E+01	-1.32345676377E+02	-5.97277739112E+00	-8.92981916830E-01
1.98654294922E+06	-1.50892393960E+01	-1.09790982487E+01	-4.85056692497E+00	1.62812727108E+02	-5.50278338491E+01	-1.76550228895E+02	-5.96849716225E+00	-9.49194595999E-01
2.00873430381E+06	-1.45427199513E+01	4.08025954688E+00	-4.75738428831E+00	1.63178733911E+02	-5.51297810169E+01	-4.45892786736E+00	-5.97176019887E+00	-9.49132327157E-01
2.03092565841E+06	-1.39132496002E+01	2.59159217534E+00	-4.77227110663E+00	1.62799948117E+02	-4.65818469347E+01	-4.73275457938E+01	-5.96216047391E+00	-9.57648307366E-01
2.05311701300E+06	-1.36587704972E+01	1.42422507856E+00	-4.83662340778E+00	1.62108931750E+02	-5.44884593407E+01	-1.72100584681E+02	-5.96549194961E+00	-8.97638608909E-01
2.07530836760E+06	-1.49274259884E+01	-2.34456211607E+00	-4.81010411574E+00	1.62043733172E+02	-3.92980921015E+01	-1.20180030987E+02	-5.95734224844E+00	-9.24037708883E-01
2.09749972219E+06	-1.52012195732E+01	-1.83954934227E+00	-4.79289774742E+00	1.61743438756E+02	-5.02834303639E+01	-1.59313929029E+02	-5.95994723540E+00	-9.29216605446E-01
2.11969107679E+06	-1.41042588053E+01	3.30675530223E+00	-4.56701625098E+00	1.61789683103E+02	-5.62310114146E+01	5.59056903528E+01	-5.95677835799E+00	-1.02748831359E+00
2.14188243138E+06	-1.64748540562E+01	1.24739542245E+01	-4.53229472008E+00	1.61381856698E+02	-5.29877755179E+01	-1.38008832350E+02	-5.95365288844E+00	-9.57738886051E-01
2.16407378598E+06	-1.41652329704E+01	1.27884131195E+01	-4.59926244825E+00	1.61326191712E+02	-4.91700445425E+01	9.08733901253E+01	-5.96326278699E+00	-1.08480968046E+00
2.18626514057E+06	-1.46452913914E+01	-1.44131558226E+00	-4.45143927513E+00	1.60874902692E+02	-5.16561792666E+01	-9.10070786456E+01	-5.96762303300E+00	-1.08764312320E+00
2.20845649517E+06	-1.29971269582E+01	-8.96748985959E-01	-4.53142095828E+00	1.60759019764E+02	-4.32953739610E+01	1.38269322510E+02	-5.96222100287E+00	-1.02779945983E+00
2.23064784976E+06	-1.79467945315E+01	-3.47226909765E+01	-4.51205442155E+00	1.60277019306E+02	-4.62191686204E+01	-8.70635142373E+01	-5.96863744376E+00	-1.06375283383E+00
2.25283920436E+06	-1.38252020856E+01	5.94013610012E+00	-4.57128640088E+00	1.60715855474E+02	-4.95030450236E+01	-8.80426930487E+01	-5.95970815383E+00	-1.04524651661E+00
2.27503055895E+06	-1.34906638514E+01	3.98098193828E+00	-4.46725312679E+00	1.60434067894E+02	-5.17867340950E+01	9.77000110660E+01	-5.96375834944E+00	-1.04845300204E+00
2.29722191355E+06	-1.38786302229E+01	1.53430754514E+00	-4.57716973332E+00	1.60129112228E+02	-5.66203566307E+01	8.08910737528E+01	-5.96491542786E+00	-1.02918023167E+00
2.31941326814E+06	-1.42703851229E+01	-8.30266265506E-01	-4.59421602687E+00	1.60060605069E+02	-4.82413089859E+01	7.59887453844E+01	-5.96683051413E+00	-1.07105223592E+00
2.34160462274E+06	-1.39662129955E+01	-1.88395747542E+00	-4.57672660369E+00	1.59504040808E+02	-5.19747558305E+01	-3.76916490110E+00	-5.96618317400E+00	-1.03155421622E+00
2.36379597733E+06	-1.42934678694E+01	1.10856091946E+01	-4.60841426329E+00	1.59582462841E+02	-6.23575441980E+01	-1.39002004486E+02	-5.96731845706E+00	-1.06551446882E+00
2.38598733193E+06	-1.35125953688E+01	6.69644647981E+00	-4.52733514747E+00	1.59215738006E+02	-5.60289681141E+01	-8.92566693734E+01	-5.96079775754E+00	-1.12684095884E+00
2.40817868652E+06	-1.42553341867E+01	1.52388747763E+00	-4.59167652170E+00	1.59132233603E+02	-5.15216288958E+01	1.51867756357E+01	-5.96626461615E+00	-1.27882750865E+00
2.43037004112E+06	-1.43914207566E+01	1.16633736686E-01	-4.52926296047E+00	1.58994668911E+02	-4.10765776600E+01	1.24505592995E+02	-5.95902526796E+00	-1.55786155630E+00
2.45256139571E+06	-1.38022408907E+01	-1.15158525142E+01	-4.55300837492E+00	1.58788233732E+02	-5.19876190388E+01	1.50773774268E+02	-5.97057565713E+00	-1.10498346132E+00
2.47475275031E+06	-1.32377018959E+01	-2.43093829670E+00	-4.58212037961E+00	1.58568928128E+02	-5.80460646052E+01	-1.51382123877E+02	-5.97680819826E+00	-1.15150054404E+00
2.49694410490E+06	-1.29596907573E+01	-4.13889748725E+00	-4.57134614442E+00	1.58056568451E+02	-5.09071948143E+01	8.44592627049E+01	-5.96591900802E+00	-1.11963602849E+00
2.51913545950E+06	-1.23335678397E+01	8.31276672359E+00	-4.60675850262E+00	1.58202879888E+02	-4.97391557573E+01	1.12067295817E+02	-5.97662037654E+00	-1.19213410948E+00
2.54132681409E+06	-1.47845431594E+01	4.29489857793E+00	-4.52119168022E+00	1.57553877438E+02	-4.27832209342E+01	3.69761284076E+01	-5.97376773478E+00	-1.17725766013E+00
2.56351816869E+06	-1.57784197735E+01	-1.09351519872E+01	-4.56493344551E+00	1.57977746469E+02	-6.07123741832E+01	9.15028835412E+01	-5.97165139021E+00	-1.16028114274E+00
2.58570952328E+06	-1.41647018394E+01	8.32721366156E+00	-4.59480956818E+00	1.57361391351E+02	-7.50986383397E+01	3.96503349800E+01	-5.97534247906E+00	-1.10794559173E+00
2.60790087788E+06	-1.35903307731E+01	1.00271101703E+00	-4.53368809349E+00	1.57222500943E+02	-5.18736559951E+01	-7.37146477731E+01	-5.97704878266E+00	-1.04301034853E+00
2.63009223247E+06	-1.40847579115E+01	-2.97632951193E+00	-4.57513064817E+00	1.57240302186E+02	-5.26823997102E+01	-7.33405490164E+01	-5.97072934663E+00	-8.29579487815E-01
2.65228358707E+06	-1.27920449398E+01	7.67562798066E+00	-4.60220794594E+00	1.57363454772E+02	-4.02839161033E+01	1.66365104397E+02	-5.96564231974E+00	-1.13256870522E+00
2.67447494166E+06	-1.44990428440E+01	-7.75620351946E+00	-4.59616512527E+00	1.56603063891E+02	-4.81537485567E+01	-1.50578442093E+02	-5.96804168039E+00	-1.16032968534E+00
2.69666629626E+06	-1.49328166190E+01	-6.98421309115E+00	-4.57076462432E+00	1.56721662157E+02	-6.18233801095E+01	-1.19794653752E+02	-5.97655208433E+00	-1.17872808822E+00
2.71885765085E+06	-1.35771001269E+01	5.84917838876E+00	-4.59720987711E+00	1.56574881992E+02	-6.06336688552E+01	-5.20059231547E+01	-5.96744402610E+00	-1.21544222929E+00
2.74104900545E+06	-1.46466310100E+01	1.25516453134E+01	-4.60451160266E+00	1.56459750175E+02	-5.02534780545E+01	-6.18875326704E+01	-5.96678422906E+00	-1.27887343137E+00
2.76324036004E+06	-1.48178863117E+01	1.32663239765E+01	-4.63736462491E+00	1.56105848209E+02	-5.06489033147E+01	-6.39434353081E+01	-5.96328027774E+00	-1.28793631541E+00
2.78543171463E+06	-1.53705708669E+01	1.81104354745E+00	-4.61805003053E+00	1.55778030187E+02	-4.71423835586E+01	1.27790159385E+02	-5.96571863729E+00	-1.24791406412E+00
2.80762306923E+06	-1.45081270574E+01	1.21747332193E+01	-4.64627262345E+00	1.55565474595E+02	-5.28515276233E+01	-2.24951208426E+01	-5.97075334318E+00	-1.30573799901E+00
2.82981442382E+06	-1.43939792545E+01	7.75167818300E+00	-4.61154868887E+00	1.55227914857E+02	-4.92669178847E+01	8.55282203735E+01	-5.96412861172E+00	-1.24638859785E+00
2.85200577842E+06	-1.31103493576E+01	3.66259941772E+00	-4.64813079611E+00	1.55482477515E+02	-7.46247168097E+01	1.65095837969E+01	-5.96019926154E+00	-1.29474577248E+00
2.87419713301E+06	-1.34542281997E+01	-4.64292928390E+00	-4.61515478632E+00	1.54901000235E+02	-4.06937257618E+01	1.79872797179E+02	-5.96947838009E+00	-1.34996747711E+00
