# Hz S DB R 50
! CMT, M5065, 19127446, 24.2.4/2
! Date: 11/8/2024 6:28:59 PM
! Data: Format (Calibration Info)
! Freq	S11:dB/Ang(F2)	S21:dB/Ang(F2)	S12:dB/Ang(F2)	S22:dB/Ang(F2)
3.00000000000E+05	-1.33999582501E+01	2.43434812525E+01	-5.61690002230E+00	1.78631651488E+02	-5.85515276047E+01	-8.92888820466E-02	-5.95338161456E+00	-2.81422532446E-01
3.22191354595E+05	-1.27894073745E+01	2.56544704267E+01	-5.65123252594E+00	1.78401976208E+02	-5.19475187049E+01	1.15824198140E+02	-5.96628058153E+00	-2.27858205542E-01
3.44382709190E+05	-1.79826668407E+01	1.05813318984E+01	-5.53134181506E+00	1.78120890132E+02	-5.50466710860E+01	-9.35788004032E+01	-5.95680336780E+00	-2.25471829289E-01
3.66574063785E+05	-1.33146433887E+01	1.61369975757E+01	-5.62754038869E+00	1.77621260176E+02	-5.05522668799E+01	9.50061038862E+01	-5.95935792535E+00	-1.91123462774E-01
3.88765418380E+05	-1.40077486656E+01	2.15045855049E+01	-5.52856789886E+00	1.77307583315E+02	-4.92654701300E+01	-6.58695697759E+01	-5.94062275942E+00	-2.89449495028E-01
4.10956772975E+05	-1.27897498699E+01	1.33659754597E+01	-5.54997738319E+00	1.77671934978E+02	-5.66751280536E+01	6.38692759070E+01	-5.94913225127E+00	-3.53188009513E-01
4.33148127570E+05	-1.39750503405E+01	1.12314465728E+01	-5.60109359848E+00	1.77528931197E+02	-4.80599525274E+01	-5.84703401982E+01	-5.95483235591E+00	-2.35988185153E-01
4.55339482165E+05	-1.30443074879E+01	9.51252105669E+00	-5.59324745941E+00	1.76463854035E+02	-5.30777323184E+01	1.43851862893E+02	-5.95716570891E+00	-3.12710261455E-01
4.77530836760E+05	-1.41252416054E+01	2.00208603435E+01	-5.54578346776E+00	1.77226847915E+02	-4.95996843664E+01	1.10409172135E+02	-5.95259496312E+00	-2.85994785297E-01
4.99722191355E+05	-1.26142660679E+01	7.07458220932E+00	-5.58527083656E+00	1.76413154148E+02	-5.23957913421E+01	-1.25537067554E+02	-5.95322912779E+00	-2.55084922447E-01
5.21913545950E+05	-1.51766295684E+01	1.82900848890E+01	-5.57126480769E+00	1.76201654284E+02	-4.78278321955E+01	3.18670893535E+00	-5.95447182371E+00	-3.75793542561E-01
5.44104900545E+05	-1.52815855726E+01	1.57546576238E+01	-5.56460507806E+00	1.75604758962E+02	-5.17876790177E+01	-1.05772507661E+02	-5.94578548485E+00	-3.42451436389E-01
5.66296255139E+05	-1.58076624463E+01	8.41149402738E+00	-5.58018298356E+00	1.75723984887E+02	-4.75871409912E+01	-6.31987388586E+01	-5.94693667067E+00	-3.36789488518E-01
5.88487609734E+05	-1.46966661976E+01	2.54338410183E+01	-5.61277032921E+00	1.75601508116E+02	-5.08241012620E+01	9.23384713475E+01	-5.95352989288E+00	-3.56542748936E-01
6.10678964329E+05	-1.42316945872E+01	3.01979386877E+00	-5.62872854699E+00	1.75471118344E+02	-4.61140099273E+01	1.15438286385E+02	-5.94934467684E+00	1.08312602792E-01
6.32870318924E+05	-1.29100950682E+01	3.82790706416E+00	-5.61214504044E+00	1.75285940222E+02	-4.85975771860E+01	-3.45511493500E+01	-5.95620867337E+00	-1.06560363414E-01
6.55061673519E+05	-1.53996145260E+01	4.14294664332E+00	-5.69117163831E+00	1.74855843203E+02	-6.02079205410E+01	7.28694390658E+01	-5.95516413111E+00	-2.66902278816E-01
6.77253028114E+05	-1.50268851782E+01	8.42327644181E+00	-5.62508103462E+00	1.74060323062E+02	-5.58616443215E+01	5.14882210225E+01	-5.94939573127E+00	-5.97266769395E-01
6.99444382709E+05	-1.42829135410E+01	5.88019683171E+00	-5.63612961548E+00	1.74266540519E+02	-5.48437490407E+01	-8.48692724536E+01	-5.95325894006E+00	-3.52180102040E-01
7.21635737304E+05	-1.44791251317E+01	1.98394118622E+00	-5.67199949206E+00	1.74136939625E+02	-5.44478714650E+01	1.79530028389E+02	-5.94940640913E+00	-4.28304871808E-01
7.43827091899E+05	-1.17805511591E+01	3.20854980010E+00	-5.61870520944E+00	1.74086921447E+02	-5.56846919642E+01	-1.68380744345E+02	-5.95258284490E+00	-3.73556490411E-01
7.66018446494E+05	-1.41555603789E+01	1.14378701676E+01	-5.62077731726E+00	1.74141021043E+02	-5.13871039393E+01	6.59701536837E+01	-5.95619257764E+00	-4.24569188597E-01
7.88209801089E+05	-1.31300457673E+01	2.64684710685E+00	-5.52990713945E+00	1.73867845765E+02	-5.80139058603E+01	-1.05972532272E+02	-5.94975880704E+00	-4.46518807397E-01
8.10401155684E+05	-1.36475737560E+01	-1.00738814426E+01	-5.61354841997E+00	1.73136649285E+02	-5.18341886877E+01	-6.51489674170E+00	-5.95699205579E+00	-4.67800779470E-01
8.32592510279E+05	-1.60543329080E+01	1.32157160072E+01	-5.65118680178E+00	1.72927837651E+02	-4.97014454748E+01	1.02315017549E+02	-5.94483723770E+00	-4.57033168777E-01
8.54783864874E+05	-1.36700856348E+01	1.54930416362E+01	-5.61338130230E+00	1.72764549454E+02	-4.62876321204E+01	5.65554830808E+01	-5.94926410727E+00	-4.35154455900E-01
8.76975219469E+05	-1.55720238207E+01	3.21834821771E+00	-5.70457770594E+00	1.73030761060E+02	-5.51348765704E+01	5.30633334474E+00	-5.96220261262E+00	-5.58396633700E-01
8.99166574064E+05	-1.44843546505E+01	1.51492495406E+01	-5.59052292643E+00	1.73106625085E+02	-5.04805828521E+01	1.50725655241E+02	-5.95996157946E+00	-4.93974868797E-01
9.21357928659E+05	-1.32507875587E+01	1.60421684076E+00	-5.62969847204E+00	1.72228946555E+02	-5.55805244972E+01	1.04984895268E+02	-5.95347561782E+00	-4.69543665916E-01
9.43549283254E+05	-1.43297697452E+01	9.64686791710E+00	-5.59362522906E+00	1.72116724294E+02	-5.56776230151E+01	1.34136731183E+02	-5.96141766374E+00	-4.57418176863E-01
9.65740637849E+05	-1.53168794932E+01	5.03564140097E-01	-5.62932689202E+00	1.71422183643E+02	-4.58153103489E+01	-1.33460478590E+02	-5.95777889837E+00	-4.81984179914E-01
9.87931992444E+05	-1.51806792660E+01	3.21648696012E+00	-5.57606984340E+00	1.72076213779E+02	-5.88046737990E+01	1.74272791683E+02	-5.95850335726E+00	-5.36159717574E-01
1.01012334704E+06	-1.52849322369E+01	1.18476322192E+01	-5.64000904731E+00	1.71677857480E+02	-6.05630193045E+01	-1.73267552508E+01	-5.95591377540E+00	-4.96134877934E-01
1.03231470163E+06	-1.34332827982E+01	-3.31153831641E+00	-5.60158360157E+00	1.71204992292E+02	-4.48937042820E+01	-1.77797508672E+02	-5.94398432952E+00	-5.79804197727E-01
1.05450605623E+06	-1.39589938581E+01	4.22252523028E-01	-5.57263204766E+00	1.71308676839E+02	-4.53868649142E+01	-2.81372942742E+01	-5.95290865536E+00	-4.76690473761E-01
1.07669741082E+06	-1.34274456375E+01	1.00731353347E+01	-5.68358669732E+00	1.71150858203E+02	-4.78145757371E+01	1.34271444244E+02	-5.95757028099E+00	-5.30114439315E-01
1.09888876542E+06	-1.53284304075E+01	3.26067609119E+00	-5.65280655567E+00	1.70842429032E+02	-5.53683223744E+01	-1.63354807702E+02	-5.96017426614E+00	-4.95474106098E-01
1.12108012001E+06	-1.54012495148E+01	1.04674706006E+01	-5.63803610346E+00	1.70953031453E+02	-5.21273187116E+01	-1.55373267984E+02	-5.94956702163E+00	-5.32954420593E-01
1.14327147461E+06	-1.33488279762E+01	2.40252308797E+00	-5.71774453340E+00	1.70395741511E+02	-6.22640216737E+01	-1.46246123208E+02	-5.95250386895E+00	-5.89002015845E-01
1.16546282920E+06	-1.47494237102E+01	1.84370039164E+01	-5.63489116289E+00	1.70195108869E+02	-4.41085240702E+01	-9.57569677862E+01	-5.97445280858E+00	-5.23532511551E-01
1.18765418380E+06	-1.52940053188E+01	-2.04320098826E+00	-5.59337177040E+00	1.70011110780E+02	-4.74967281454E+01	9.96573242187E+01	-5.96052962876E+00	-5.19126087105E-01
1.20984553839E+06	-1.37748108989E+01	8.84962825263E-01	-5.63848214639E+00	1.69405183746E+02	-5.37796878796E+01	-7.32054242729E+01	-5.96454775913E+00	-6.80596048473E-01
1.23203689299E+06	-1.37568431556E+01	1.18267372892E+01	-5.63924624302E+00	1.69963369481E+02	-5.81350126217E+01	1.48628707636E+02	-5.95663393062E+00	-3.66493113000E-01
1.25422824758E+06	-1.60141286578E+01	-4.27963079005E+00	-5.61959667289E+00	1.69162855390E+02	-4.70698111047E+01	-9.01547984542E+01	-5.96040439067E+00	-5.64330924901E-01
1.27641960218E+06	-1.40996542055E+01	3.84069758423E+00	-5.65202117074E+00	1.69115492955E+02	-4.90308148309E+01	3.59710470558E+01	-5.97117932695E+00	-6.44664777758E-01
1.29861095677E+06	-1.49416178556E+01	7.90795227276E+00	-5.64551498016E+00	1.69302732011E+02	-4.30632931638E+01	-5.32800402632E+01	-5.96572910884E+00	-4.81321081474E-01
1.32080231137E+06	-1.40821859036E+01	6.59068433287E+00	-5.71030257222E+00	1.68672198828E+02	-4.70689634186E+01	-3.03940734714E+01	-5.95692854177E+00	-9.18184559228E-01
1.34299366596E+06	-1.36263284406E+01	1.40921079234E+01	-5.71121891823E+00	1.68894946564E+02	-5.63269224162E+01	1.58117745810E+02	-5.95762503170E+00	-7.94789902149E-01
1.36518502056E+06	-1.44472320817E+01	9.28409944285E+00	-5.63468055595E+00	1.69017422853E+02	-6.55400116318E+01	6.42218769009E+01	-5.94947135414E+00	-6.79494246921E-01
1.38737637515E+06	-1.51122489447E+01	1.34102746858E+01	-5.68541244517E+00	1.68239274851E+02	-4.72952107682E+01	2.43298628277E+00	-5.96009192301E+00	-6.50415775037E-01
1.40956772975E+06	-1.63983181851E+01	1.84151068871E+01	-5.63171363634E+00	1.68071632328E+02	-5.22832779492E+01	-1.12544014825E+02	-5.96355218195E+00	-6.06001201329E-01
1.43175908434E+06	-1.41326224897E+01	-9.43741450850E+00	-5.62257439323E+00	1.68648752802E+02	-4.77634706896E+01	1.56670974355E+02	-5.96264455742E+00	-6.35113225994E-01
1.45395043894E+06	-1.59071936958E+01	-1.31608226539E+01	-5.69208167680E+00	1.67377309266E+02	-5.33685606902E+01	1.68612357096E+02	-5.95650490035E+00	-6.92246955762E-01
1.47614179353E+06	-1.38733740171E+01	4.91990809381E+00	-5.63712471568E+00	1.67569858800E+02	-5.40063851405E+01	-1.54858794530E+02	-5.95615879840E+00	-6.62480419458E-01
1.49833314813E+06	-1.31123842834E+01	7.49696734405E+00	-5.66659429713E+00	1.67280087462E+02	-4.83053678558E+01	1.53324091858E+02	-5.95602797867E+00	-7.51714922503E-01
1.52052450272E+06	-1.55908747128E+01	1.14744341288E+01	-5.59083140161E+00	1.67259038168E+02	-4.33205410936E+01	1.19456723083E+02	-5.94577072117E+00	-7.48330547972E-01
1.54271585732E+06	-1.45197651812E+01	4.92564468423E+00	-5.65790970818E+00	1.67265209360E+02	-4.89758071393E+01	-6.43835157021E+01	-5.96509204142E+00	-6.74837287036E-01
1.56490721191E+06	-1.39940235252E+01	1.20568672087E+01	-5.77291665334E+00	1.66821574974E+02	-5.10776775095E+01	-1.33114993962E+02	-5.95454299971E+00	-7.76730660560E-01
1.58709856651E+06	-1.49001420223E+01	8.41201482481E+00	-5.61431253025E+00	1.66979508331E+02	-4.55489249747E+01	5.48412625318E+01	-5.95283349435E+00	-7.47127813668E-01
1.60928992110E+06	-1.48279405581E+01	7.39326576806E+00	-5.65781794069E+00	1.66590978862E+02	-5.28580497449E+01	-6.05816109649E+01	-5.94901094112E+00	-6.89060362151E-01
1.63148127570E+06	-1.69758504367E+01	-1.70626786480E+01	-5.71292706250E+00	1.66473894441E+02	-5.00818977934E+01	-3.49132701875E+01	-5.95007403204E+00	-7.13456631457E-01
1.65367263029E+06	-1.46249532923E+01	9.01307891376E+00	-5.74482228204E+00	1.65902031938E+02	-5.46988267094E+01	-8.98755603668E+01	-5.95098059994E+00	-8.42561072840E-01
1.67586398489E+06	-1.37013427824E+01	-5.82372232245E+00	-5.56883519941E+00	1.66331723036E+02	-6.47745514488E+01	1.60280534418E+00	-5.95075271474E+00	-7.81786280506E-01
1.69805533948E+06	-1.46657639792E+01	2.18518526890E+01	-5.64994641152E+00	1.65782885983E+02	-4.50074473243E+01	-8.82485899038E+01	-5.95325991225E+00	-7.66054816597E-01
1.72024669408E+06	-1.45456209120E+01	7.24291349243E+00	-5.74349436949E+00	1.65661303034E+02	-5.05857620383E+01	-3.10699359185E+01	-5.95694953651E+00	-7.88093090738E-01
1.74243804867E+06	-1.57870376038E+01	-1.60142606085E+01	-5.69265077731E+00	1.65381842641E+02	-4.78708779842E+01	-7.31919800344E+01	-5.96001406335E+00	-7.79258733361E-01
1.76462940327E+06	-1.35347825873E+01	1.03725635799E+01	-5.71734376183E+00	1.65060415524E+02	-5.37290528346E+01	-1.41508570877E+01	-5.94182900583E+00	-8.82499414816E-01
1.78682075786E+06	-1.28804017340E+01	1.13147356546E+00	-5.68984657345E+00	1.65019056413E+02	-5.50527731768E+01	1.60920268053E+02	-5.95234310850E+00	-8.42020433115E-01
1.80901211246E+06	-1.62140229824E+01	5.30764863269E+00	-5.72451802420E+00	1.64885411314E+02	-5.36775130689E+01	-1.02939984781E+02	-5.96072030385E+00	-8.42544229280E-01
1.83120346705E+06	-1.44340374914E+01	2.13544573621E-01	-5.72255198894E+00	1.64553633785E+02	-5.76609094027E+01	-1.16126743289E+02	-5.95980695822E+00	-8.45380661749E-01
1.85339482165E+06	-1.60106423710E+01	2.15364007290E+01	-5.75747314069E+00	1.64026476015E+02	-5.79158091256E+01	2.11022986320E+01	-5.94631414952E+00	-8.62080121009E-01
1.87558617624E+06	-1.43288778666E+01	1.14683336079E+01	-5.72540626461E+00	1.64573235646E+02	-5.42432934436E+01	6.62045462105E+01	-5.97138902295E+00	-8.56081105600E-01
1.89777753084E+06	-1.38424153532E+01	-1.43102488974E+00	-5.70794935666E+00	1.63953020110E+02	-4.57395069973E+01	1.16323951686E+01	-5.96479070625E+00	-9.81275426710E-01
1.91996888543E+06	-1.37524239919E+01	-2.98387433285E+00	-5.65745403895E+00	1.63805517116E+02	-5.50190728746E+01	1.72910522744E+02	-5.95638039539E+00	-8.97843447782E-01
1.94216024003E+06	-1.44694650019E+01	-4.90877432413E+00	-5.75674393429E+00	1.63637889033E+02	-4.77583419518E+01	-1.59871203281E+02	-5.96522006727E+00	-8.94151693564E-01
1.96435159462E+06	-1.29719281747E+01	2.23155891385E+01	-5.75488857255E+00	1.63521342826E+02	-5.29139852463E+01	1.74408317096E+02	-5.96296417687E+00	-8.75916033788E-01
1.98654294922E+06	-1.59115725404E+01	9.74393823755E+00	-5.75817743960E+00	1.63398919075E+02	-4.38976395586E+01	-1.05924206918E+02	-5.95553080683E+00	-9.43624890187E-01
2.00873430381E+06	-1.39392758601E+01	5.04883519996E+00	-5.66127364078E+00	1.63190487086E+02	-5.06476833597E+01	-3.22205197690E+01	-5.95495199848E+00	-8.95259620735E-01
2.03092565841E+06	-1.49173650415E+01	-1.13309618262E+00	-5.70535231394E+00	1.62881715093E+02	-5.66320642857E+01	-1.21507031673E+02	-5.95084287197E+00	-9.72398851228E-01
2.05311701300E+06	-1.41277440089E+01	2.46361925048E+00	-5.76488454805E+00	1.62691217671E+02	-4.89871159302E+01	1.54067526244E+02	-5.95345029637E+00	-1.00317953508E+00
2.07530836760E+06	-1.57795099055E+01	1.28737831708E+01	-5.79365433791E+00	1.62477184004E+02	-5.98966923745E+01	2.16432435663E+01	-5.95747229772E+00	-9.81317596270E-01
2.09749972219E+06	-1.17039489113E+01	2.69743891106E+00	-5.71006730477E+00	1.62521262330E+02	-3.76209425371E+01	5.53373304440E+01	-5.94343647490E+00	-9.71066517864E-01
2.11969107679E+06	-1.52112732980E+01	6.06027793384E+00	-5.80277575751E+00	1.62199128290E+02	-5.36334521781E+01	-8.89998933258E+01	-5.95804688078E+00	-9.51403058305E-01
2.14188243138E+06	-1.60358463873E+01	-1.54353236326E+00	-5.78420026692E+00	1.61637854766E+02	-5.31436520868E+01	1.43414783838E+02	-5.95658391351E+00	-1.02579730498E+00
2.16407378598E+06	-1.35784097274E+01	5.12226952146E+00	-5.76778464185E+00	1.61800597704E+02	-4.90955697620E+01	9.77367452756E+01	-5.95840228169E+00	-1.01790882493E+00
2.18626514057E+06	-1.27096924283E+01	-7.95777012750E+00	-5.71944501991E+00	1.61292001619E+02	-5.03076687096E+01	-1.37561677404E+02	-5.96994265136E+00	-9.40651356694E-01
2.20845649517E+06	-1.43589159892E+01	8.11650581941E+00	-5.76436529658E+00	1.61385146757E+02	-4.67024175406E+01	2.39215924037E+01	-5.95101615488E+00	-1.03017789490E+00
2.23064784976E+06	-1.46190221014E+01	6.11014251320E+00	-5.72948333260E+00	1.61595165955E+02	-5.56198067479E+01	1.75414240103E+02	-5.96724223678E+00	-1.00132244336E+00
2.25283920436E+06	-1.40928490024E+01	4.00209059019E+00	-5.78870392422E+00	1.61092060291E+02	-5.18775456735E+01	7.68034632491E+01	-5.95437206109E+00	-1.01326804082E+00
2.27503055895E+06	-1.42295316990E+01	4.72488875306E+00	-5.79293335609E+00	1.61026355131E+02	-5.48554823616E+01	9.14183525503E+01	-5.95976734397E+00	-1.01348881441E+00
2.29722191355E+06	-1.46570287974E+01	-3.62031433856E+00	-5.70378314568E+00	1.60108411079E+02	-5.25090244107E+01	1.71226143620E+02	-5.94585384076E+00	-1.01091637793E+00
2.31941326814E+06	-1.09415717799E+01	1.79020818952E-03	-5.73066540842E+00	1.60335166253E+02	-4.11261708020E+01	-1.49200249606E+02	-5.95027231433E+00	-1.06900571643E+00
2.34160462274E+06	-1.39824001077E+01	5.49811190358E+00	-5.70287119294E+00	1.59673033220E+02	-4.82372458154E+01	-7.81244917806E+01	-5.95575361230E+00	-1.04822057884E+00
2.36379597733E+06	-1.28637119926E+01	-2.95594346409E+00	-5.83119221403E+00	1.60440100214E+02	-4.42008969035E+01	1.31446764372E+02	-5.96106169351E+00	-1.13970200467E+00
2.38598733193E+06	-1.46791245705E+01	2.83101247407E+00	-5.74972357750E+00	1.59958709249E+02	-4.59043275399E+01	-1.62077083198E+02	-5.94703820963E+00	-1.07279034102E+00
2.40817868652E+06	-1.53462737906E+01	8.20826604357E+00	-5.77926799871E+00	1.59878154837E+02	-5.35024577898E+01	-4.85693285277E+01	-5.95523891811E+00	-1.23954506466E+00
2.43037004112E+06	-1.27770049739E+01	-9.86571058126E+00	-5.77543549479E+00	1.59346261269E+02	-4.57478654649E+01	-1.72944955472E+02	-5.95304488134E+00	-1.50475855345E+00
2.45256139571E+06	-1.47596459985E+01	-6.25741650084E+00	-5.73090692250E+00	1.59175330158E+02	-5.11131130699E+01	-1.33268899161E+02	-5.96284183909E+00	-1.12773096141E+00
2.47475275031E+06	-1.46724596753E+01	1.43325183202E+00	-5.70399822315E+00	1.59021313831E+02	-6.32631471773E+01	-1.49222929751E+02	-5.96257981066E+00	-1.17404470745E+00
2.49694410490E+06	-1.38716051163E+01	-5.70780203621E+00	-5.74128112200E+00	1.59120781113E+02	-5.47000527884E+01	-6.40245185722E+01	-5.95934961430E+00	-1.16363171834E+00
2.51913545950E+06	-1.46339641053E+01	7.45087370904E+00	-5.76978597024E+00	1.58729875700E+02	-4.85470047416E+01	3.91633188787E+01	-5.96693651077E+00	-1.10745988246E+00
2.54132681409E+06	-1.33055753342E+01	9.27185295109E+00	-5.80646744937E+00	1.58146870138E+02	-5.08759016655E+01	1.57804537990E+02	-5.95395174336E+00	-1.11992165520E+00
2.56351816869E+06	-1.30551818664E+01	4.63814823391E+00	-5.76852672724E+00	1.58437753457E+02	-4.43285953544E+01	-6.93582924800E+01	-5.96532914763E+00	-1.18469732101E+00
2.58570952328E+06	-1.50135990725E+01	-3.21260295773E+00	-5.79901347722E+00	1.58048541794E+02	-7.73738962641E+01	1.11192796075E+02	-5.96455881442E+00	-1.18654285587E+00
2.60790087788E+06	-1.38046952486E+01	3.56526634710E+00	-5.74682533831E+00	1.58098594408E+02	-5.45159812070E+01	1.45405943164E+01	-5.96367261125E+00	-1.10604056605E+00
2.63009223247E+06	-1.42842699512E+01	-3.89617357234E+00	-5.72851365445E+00	1.57427540525E+02	-4.96000096078E+01	-6.96549524358E+01	-5.96317624657E+00	-7.82559542975E-01
2.65228358707E+06	-1.57179233372E+01	5.38288122034E+00	-5.79864407666E+00	1.57568770619E+02	-6.51355056817E+01	-1.95922662065E+01	-5.96552256711E+00	-1.18200931635E+00
2.67447494166E+06	-1.33201923860E+01	9.27977824629E+00	-5.86097469892E+00	1.57439312967E+02	-4.92196746129E+01	1.78375552242E+02	-5.97050495824E+00	-1.19648044100E+00
2.69666629626E+06	-1.32578718326E+01	-4.51459519620E+00	-5.76220444242E+00	1.57305298373E+02	-6.28258435430E+01	-1.10264036099E+02	-5.96547211257E+00	-1.22110534293E+00
2.71885765085E+06	-1.48539860320E+01	8.28441077245E+00	-5.79720711208E+00	1.57110627815E+02	-6.38649355192E+01	6.86667602760E+01	-5.95346510167E+00	-1.28825209689E+00
2.74104900545E+06	-1.36674388357E+01	-6.28998294994E+00	-5.77858869924E+00	1.56900712840E+02	-5.56157967266E+01	6.95127067691E+01	-5.95792195057E+00	-1.24911485151E+00
2.76324036004E+06	-1.42170236616E+01	2.12916259038E+01	-5.83120015110E+00	1.56876810895E+02	-5.15183522905E+01	3.71088942341E+00	-5.96083308693E+00	-1.33548413181E+00
2.78543171463E+06	-1.43504155351E+01	1.11771173989E+01	-5.80681127521E+00	1.56457169332E+02	-4.70966686588E+01	1.22147867093E+01	-5.95105939620E+00	-1.35124904256E+00
2.80762306923E+06	-1.52844276430E+01	-1.18555975843E+00	-5.83562373162E+00	1.56240140022E+02	-4.64707523826E+01	1.67236338204E+02	-5.95697163912E+00	-1.24679842693E+00
2.82981442382E+06	-1.44163746418E+01	-8.21939045569E+00	-5.84929314910E+00	1.56603699162E+02	-5.10936600831E+01	-1.67915865098E+01	-5.96419589166E+00	-1.21585194275E+00
2.85200577842E+06	-1.36772014210E+01	1.43213058301E+00	-5.81441672019E+00	1.55924023524E+02	-4.95991221474E+01	-1.57082314487E+02	-5.96311912265E+00	-1.36580600691E+00
2.87419713301E+06	-1.59293494787E+01	-3.73592855348E+00	-5.82476260685E+00	1.55110312278E+02	-4.51560238341E+01	1.51933005525E+02	-5.97321520215E+00	-1.32849079478E+00
