# Hz S DB R 50
! CMT, M5065, 19127446, 24.2.4/2
! Date: 11/8/2024 6:28:09 PM
! Data: Format (Calibration Info)
! Freq	S11:dB/Ang(F2)	S21:dB/Ang(F2)	S12:dB/Ang(F2)	S22:dB/Ang(F2)
3.00000000000E+05	-1.41952612128E+01	1.70096982550E+01	-5.88262036419E+00	1.78108086489E+02	-4.16471465131E+01	-1.31487020257E+02	-5.95309750996E+00	-2.07788645401E-01
3.22191354595E+05	-1.32934447918E+01	2.66572260681E+01	-5.74403688995E+00	1.78065787981E+02	-5.66945117279E+01	2.92844240198E+01	-5.95729400805E+00	-2.24399914391E-01
3.44382709190E+05	-1.18007396005E+01	1.73596874611E+01	-5.79066082690E+00	1.77686422900E+02	-5.29798259734E+01	1.65270330500E+02	-5.95893498376E+00	-2.87936847890E-01
3.66574063785E+05	-1.37696181754E+01	1.44997586198E+00	-5.82530796831E+00	1.77530513498E+02	-5.99504461545E+01	-1.45432586744E+02	-5.94943204479E+00	-2.64859345721E-01
3.88765418380E+05	-1.33049365350E+01	1.28959594664E+01	-5.78562524348E+00	1.77169281493E+02	-4.98601164621E+01	8.14270362583E+01	-5.96275153900E+00	-2.32408785812E-01
4.10956772975E+05	-1.45541582540E+01	1.50017348561E+01	-5.81809871282E+00	1.77189595302E+02	-4.63610768100E+01	-4.17019642237E+01	-5.95284278869E+00	-3.27147875219E-01
4.33148127570E+05	-1.36550277158E+01	2.48535614397E+01	-5.86217280767E+00	1.77085316040E+02	-5.41864519983E+01	-1.01179487414E+02	-5.95405765629E+00	-2.27100361247E-01
4.55339482165E+05	-1.25936065192E+01	1.37586839149E+01	-5.78564825544E+00	1.76787615687E+02	-7.79449433688E+01	-1.58837593921E+02	-5.94521138010E+00	-2.62841703723E-01
4.77530836760E+05	-1.36871931999E+01	1.82654744608E+00	-5.84640220769E+00	1.76669212547E+02	-5.39049983484E+01	-1.20059816756E+01	-5.94930550378E+00	-2.88064667327E-01
4.99722191355E+05	-1.40662214665E+01	1.05652489508E+01	-5.95324612487E+00	1.76750996225E+02	-5.36700140579E+01	1.50522176891E+02	-5.95391364918E+00	-3.12937803755E-01
5.21913545950E+05	-1.39778512950E+01	1.00909332578E+01	-5.90001142921E+00	1.75929312430E+02	-4.90497887708E+01	-5.63012307619E+01	-5.95293428547E+00	-3.47345926717E-01
5.44104900545E+05	-1.26676473833E+01	1.12794947306E+01	-5.88977835819E+00	1.75406089517E+02	-4.70384959539E+01	-7.27517894241E+01	-5.95050771539E+00	-3.19096899114E-01
5.66296255139E+05	-1.40597863033E+01	1.23860560472E+01	-5.89920584844E+00	1.75310750636E+02	-6.25950709421E+01	7.91994469195E+01	-5.94898307865E+00	-3.54165477819E-01
5.88487609734E+05	-1.45314851642E+01	-1.04589788501E+01	-5.86013799436E+00	1.75527414017E+02	-5.53299055956E+01	-1.62346900360E+02	-5.95857795615E+00	-2.60760609973E-01
6.10678964329E+05	-1.43799976453E+01	1.48583075207E+01	-5.88187573047E+00	1.75191365162E+02	-5.22007521751E+01	5.13524477662E+01	-5.95598603884E+00	1.49253159723E-01
6.32870318924E+05	-1.37106472435E+01	9.00703811148E+00	-5.90223607805E+00	1.75250873005E+02	-5.02083540553E+01	1.56825718368E+02	-5.95253045330E+00	-1.39703743426E-01
6.55061673519E+05	-1.40212150184E+01	7.42695074003E+00	-5.78663039632E+00	1.74946481039E+02	-5.20687021451E+01	9.66556124090E+01	-5.95248910080E+00	-2.56123437829E-01
6.77253028114E+05	-1.28755848514E+01	5.74546644896E+00	-5.79927631462E+00	1.74896012144E+02	-4.84638946276E+01	-6.35272718657E+01	-5.95120617767E+00	-6.52340336586E-01
6.99444382709E+05	-1.45453101727E+01	9.44509952267E+00	-5.85046043875E+00	1.74401129155E+02	-4.84931295291E+01	-1.41184567468E+02	-5.94912748810E+00	-3.58178495645E-01
7.21635737304E+05	-1.39193273785E+01	1.17246397120E+01	-5.83236243564E+00	1.73919235805E+02	-5.92701591193E+01	-7.57876372609E+01	-5.95774281023E+00	-3.98487701831E-01
7.43827091899E+05	-1.44004300783E+01	9.95140845106E+00	-5.93029110301E+00	1.73908838611E+02	-5.53423973968E+01	-2.63742646720E+00	-5.95336226471E+00	-3.92976746985E-01
7.66018446494E+05	-1.49819240195E+01	3.96470005929E-01	-5.88630975562E+00	1.74099251366E+02	-3.76327483776E+01	1.41175879896E+02	-5.94807204285E+00	-4.41444105672E-01
7.88209801089E+05	-1.44438803091E+01	4.50571499892E+00	-5.82488633033E+00	1.73859354489E+02	-6.09454883948E+01	2.81754835222E+01	-5.96416585868E+00	-4.17782135771E-01
8.10401155684E+05	-1.31288727113E+01	5.44627456204E+00	-5.85123857329E+00	1.73498862424E+02	-5.47207660660E+01	4.39295160280E+01	-5.96091297804E+00	-4.37252762564E-01
8.32592510279E+05	-1.38746285760E+01	2.28024419211E+01	-5.84515517451E+00	1.72856903445E+02	-5.13760076913E+01	1.40822226385E+02	-5.94938136870E+00	-4.16693790614E-01
8.54783864874E+05	-1.41468164326E+01	-1.64493479276E+00	-5.87090693213E+00	1.73324091447E+02	-5.11689694047E+01	-6.89253322757E+01	-5.96060035666E+00	-4.16008696989E-01
8.76975219469E+05	-1.38737822060E+01	6.51166998242E+00	-5.89294588248E+00	1.72817581020E+02	-4.31274360341E+01	1.61935158784E+02	-5.95753557187E+00	-4.74382008336E-01
8.99166574064E+05	-1.39351970962E+01	6.01610117020E+00	-5.93389434302E+00	1.73298360296E+02	-5.07406126388E+01	-2.78096088051E+01	-5.94292886717E+00	-4.30713448203E-01
9.21357928659E+05	-1.53328771191E+01	6.35783988286E+00	-5.82562465791E+00	1.72536582699E+02	-4.95790358822E+01	-3.81045041600E+01	-5.95005513599E+00	-3.64469177357E-01
9.43549283254E+05	-1.52509637117E+01	-4.28107662361E+00	-5.91906251126E+00	1.72317928145E+02	-4.89281708083E+01	-1.39090685832E+02	-5.96330013070E+00	-5.22527485527E-01
9.65740637849E+05	-1.50361512576E+01	4.21153322240E+00	-5.86632701790E+00	1.72355645801E+02	-6.23515196944E+01	-3.10233726641E+01	-5.96037307530E+00	-4.40019710137E-01
9.87931992444E+05	-1.57526917964E+01	3.60560606850E+00	-5.89378797659E+00	1.71837185121E+02	-4.45367014228E+01	1.03845899110E+02	-5.95390145615E+00	-5.01051362740E-01
1.01012334704E+06	-1.49898781544E+01	1.96094732544E+00	-5.97200706385E+00	1.72344604467E+02	-4.94540659507E+01	-1.68242262478E+02	-5.94568644234E+00	-4.36415364633E-01
1.03231470163E+06	-1.42167910962E+01	3.76133864071E+00	-5.91184114564E+00	1.71464222218E+02	-5.70485368921E+01	8.73178726433E+01	-5.95254411959E+00	-4.80802708691E-01
1.05450605623E+06	-1.47504348161E+01	3.50525366261E+00	-5.89007349758E+00	1.71856084350E+02	-5.61148337132E+01	6.91156090702E+01	-5.95166848137E+00	-6.16575221193E-01
1.07669741082E+06	-1.47885383098E+01	4.00860373546E+00	-5.88051362545E+00	1.70831732095E+02	-5.19439535536E+01	-7.73842216753E+00	-5.95265778845E+00	-5.52845989411E-01
1.09888876542E+06	-1.35759183716E+01	6.80201610550E+00	-5.91759951578E+00	1.71212238048E+02	-5.38733533202E+01	1.78895758004E+02	-5.94434661481E+00	-5.00065188077E-01
1.12108012001E+06	-1.44294552823E+01	3.63990531052E+00	-5.92126054654E+00	1.70966507705E+02	-6.24978876978E+01	3.41001205199E+01	-5.95577110339E+00	-6.12051017770E-01
1.14327147461E+06	-1.46197263441E+01	4.30760572581E+00	-5.92243904385E+00	1.70457070646E+02	-5.33906770627E+01	8.75918084268E+01	-5.95584236020E+00	-5.65206844062E-01
1.16546282920E+06	-1.44434081466E+01	9.33704724721E+00	-5.91094089680E+00	1.70636298907E+02	-4.91664959660E+01	2.06596484015E+01	-5.95607098404E+00	-5.95231791478E-01
1.18765418380E+06	-1.46549019114E+01	7.77083850856E+00	-5.97881433646E+00	1.70092010460E+02	-6.00555027424E+01	6.45416696062E+01	-5.95050930008E+00	-5.65299309487E-01
1.20984553839E+06	-1.47979869686E+01	-6.23545617682E+00	-5.89709121846E+00	1.69858811941E+02	-5.04564432810E+01	-1.45795624679E+02	-5.94654593140E+00	-6.89605582809E-01
1.23203689299E+06	-1.54408402219E+01	9.84169763254E+00	-5.93811180144E+00	1.69462189966E+02	-4.87718265594E+01	1.73505325261E+02	-5.95931725442E+00	-3.81334907795E-01
1.25422824758E+06	-1.34332055965E+01	9.49375683557E-01	-5.91708147278E+00	1.69790513651E+02	-5.87383038626E+01	1.35925032063E+02	-5.94974047382E+00	-5.96419848092E-01
1.27641960218E+06	-1.37074550905E+01	3.61765843781E+00	-5.85081605206E+00	1.69579710371E+02	-5.41782825847E+01	3.64285222495E+01	-5.95456806632E+00	-5.53633072513E-01
1.29861095677E+06	-1.31424231946E+01	8.28700639812E+00	-5.86504797938E+00	1.69626243721E+02	-4.59110554692E+01	-1.76219381819E+02	-5.94150184810E+00	-5.85253753725E-01
1.32080231137E+06	-1.62128768186E+01	8.96103026339E+00	-5.90531266513E+00	1.69051929030E+02	-4.84476380211E+01	1.20820386400E+02	-5.94572567808E+00	-9.71772917173E-01
1.34299366596E+06	-1.41809226654E+01	5.38037455752E+00	-5.91102081543E+00	1.68521408464E+02	-4.61473717590E+01	1.52852810342E+02	-5.95375895149E+00	-6.95066075783E-01
1.36518502056E+06	-1.29200834973E+01	4.90064298053E+00	-5.84090721421E+00	1.68898878406E+02	-5.86350221434E+01	-4.26089752728E+01	-5.94720863728E+00	-6.59341897183E-01
1.38737637515E+06	-1.28472958550E+01	1.35535031159E+01	-5.97148434178E+00	1.68940243398E+02	-5.37602353092E+01	2.23927998546E+01	-5.95660824864E+00	-6.42685830557E-01
1.40956772975E+06	-1.37002148770E+01	8.40997461188E+00	-5.82644400531E+00	1.68416698437E+02	-5.07924058355E+01	-1.34275740693E+02	-5.95828606455E+00	-6.43027321967E-01
1.43175908434E+06	-1.40588986875E+01	3.82304411760E+00	-5.92755657914E+00	1.67943625409E+02	-5.15560490631E+01	-1.07059112749E+02	-5.94686087405E+00	-6.65991578334E-01
1.45395043894E+06	-1.47973661128E+01	6.90542122241E+00	-5.95489083537E+00	1.67743187900E+02	-3.92330052013E+01	-1.14356377594E+02	-5.95627880652E+00	-6.71160299916E-01
1.47614179353E+06	-1.27727912162E+01	-1.39224240669E+00	-5.83396037992E+00	1.67672738369E+02	-6.20243017079E+01	6.77497019868E+01	-5.94563292986E+00	-7.47125779651E-01
1.49833314813E+06	-1.44113038308E+01	-5.57370721131E+00	-5.90038841143E+00	1.67390654882E+02	-5.62168653105E+01	-4.57834238518E+01	-5.94201691758E+00	-7.03511304747E-01
1.52052450272E+06	-1.21728122452E+01	1.05555663456E+01	-5.91457720405E+00	1.67801473233E+02	-4.92440378121E+01	-1.35305976691E+02	-5.95564234668E+00	-7.61312079204E-01
1.54271585732E+06	-1.50795530501E+01	-1.32019696910E+00	-5.89583542050E+00	1.67318075495E+02	-6.04410633460E+01	7.50528262042E+00	-5.94816656988E+00	-6.73453813967E-01
1.56490721191E+06	-1.42351318291E+01	1.14009209804E+01	-5.91451563227E+00	1.67010502537E+02	-4.20934950288E+01	3.05390607142E+01	-5.95920191444E+00	-7.68726003977E-01
1.58709856651E+06	-1.48440786297E+01	-2.57525591031E+00	-6.01908991977E+00	1.66385962668E+02	-5.04202729829E+01	-6.32065687287E+01	-5.95057058569E+00	-7.76044532124E-01
1.60928992110E+06	-1.37314640865E+01	2.28942993447E+00	-5.94326674778E+00	1.66493991020E+02	-5.13877978372E+01	2.44605277865E+01	-5.96137634892E+00	-7.19192887496E-01
1.63148127570E+06	-1.30424370297E+01	-3.04091013871E+01	-5.80216610557E+00	1.66395226770E+02	-6.01329933263E+01	1.40807800895E+02	-5.95691052761E+00	-7.98585411285E-01
1.65367263029E+06	-1.47572572948E+01	2.61476189169E+00	-5.87679721203E+00	1.65964512450E+02	-7.89859624209E+01	1.58240545534E+02	-5.94890502177E+00	-8.17425581518E-01
1.67586398489E+06	-1.55115946645E+01	1.29695787217E+01	-5.96262449410E+00	1.66434772893E+02	-4.94632138121E+01	-1.46711397696E+02	-5.95061723279E+00	-7.79066773755E-01
1.69805533948E+06	-1.35314998175E+01	3.09740512730E+00	-5.92139864135E+00	1.65688846376E+02	-5.82475937214E+01	1.39864531819E+02	-5.94987985267E+00	-7.48522632210E-01
1.72024669408E+06	-1.38437735708E+01	7.04359226978E+00	-5.93928154263E+00	1.66325353794E+02	-4.88471067009E+01	1.03622398867E+02	-5.96048264915E+00	-8.20019827039E-01
1.74243804867E+06	-1.61481980597E+01	6.25896408050E+00	-5.95613629547E+00	1.64737248681E+02	-7.04879940635E+01	1.64721609664E+02	-5.94745073816E+00	-7.87582585584E-01
1.76462940327E+06	-1.46953927852E+01	2.22402510318E+01	-6.02846177255E+00	1.65182672550E+02	-5.38337993153E+01	-1.23299092395E+02	-5.95048346191E+00	-8.01681495143E-01
1.78682075786E+06	-1.30329105554E+01	-1.73440605344E+00	-5.94666283093E+00	1.65312829949E+02	-4.77969349002E+01	-1.39934300173E+02	-5.95268602035E+00	-8.13621575851E-01
1.80901211246E+06	-1.44505826247E+01	4.18392725066E+00	-5.96047943052E+00	1.64521878379E+02	-4.44358731660E+01	1.08528850189E+02	-5.94398847402E+00	-8.69270271741E-01
1.83120346705E+06	-1.26240052859E+01	-7.42760610332E-01	-5.97449860831E+00	1.64658970933E+02	-5.56903088990E+01	-1.06762798372E+02	-5.94047632846E+00	-8.09881888077E-01
1.85339482165E+06	-1.45788794658E+01	3.33756958217E+00	-5.95354482631E+00	1.64279440434E+02	-5.59647769729E+01	1.19615010880E+02	-5.95841813974E+00	-8.79339877806E-01
1.87558617624E+06	-1.47743219934E+01	-1.04328100554E+01	-5.98519710048E+00	1.64110322370E+02	-5.22453609788E+01	-1.28706434278E+02	-5.95521855543E+00	-9.24850538523E-01
1.89777753084E+06	-1.28967485727E+01	5.92263660631E+00	-5.90927079193E+00	1.64515230155E+02	-4.82747014995E+01	-1.17164309488E+02	-5.96228045624E+00	-9.06539847166E-01
1.91996888543E+06	-1.42557544488E+01	1.34872063554E+00	-6.02886312511E+00	1.63885335113E+02	-4.43350447232E+01	1.17654251813E+02	-5.95629962571E+00	-8.28257904874E-01
1.94216024003E+06	-1.50982234167E+01	1.40819623830E+01	-6.00382246830E+00	1.63510577074E+02	-6.01855959592E+01	-8.01619626174E+01	-5.96196041093E+00	-9.04003811986E-01
1.96435159462E+06	-1.60019338081E+01	-1.61650824814E+00	-5.97866863086E+00	1.63448194503E+02	-5.56050543860E+01	1.16815924650E+02	-5.96527567708E+00	-9.17261484092E-01
1.98654294922E+06	-1.33966702959E+01	4.41561539335E+01	-5.94507490014E+00	1.62542475746E+02	-5.25376286954E+01	-1.40923508410E+02	-5.95852815807E+00	-9.43101785540E-01
2.00873430381E+06	-1.34606793393E+01	2.53566656997E+00	-5.99147569427E+00	1.63514056417E+02	-5.63574982618E+01	5.55258227043E+01	-5.95531316903E+00	-9.50020570869E-01
2.03092565841E+06	-1.26223309852E+01	4.79902768484E+00	-6.05667116122E+00	1.63477908306E+02	-4.31459396412E+01	7.85840831615E+01	-5.95080214461E+00	-9.02315058414E-01
2.05311701300E+06	-1.54221344391E+01	-4.53478352610E+00	-5.96255062879E+00	1.62934778709E+02	-4.55802051160E+01	3.96475272613E+00	-5.94332096753E+00	-9.13228262875E-01
2.07530836760E+06	-1.37836929658E+01	8.91668915413E+00	-6.00758245509E+00	1.63034320572E+02	-4.85718618860E+01	9.74422270190E+01	-5.95584654644E+00	-9.18844909346E-01
2.09749972219E+06	-1.43087989446E+01	2.72579700309E+00	-6.00592227839E+00	1.62785286808E+02	-5.00735579800E+01	5.64732362062E+01	-5.95651067440E+00	-1.04959470985E+00
2.11969107679E+06	-1.64701002796E+01	2.23790682318E+00	-6.05734488826E+00	1.62261876309E+02	-4.94148067110E+01	-3.80877856369E+01	-5.96166848800E+00	-9.36594911207E-01
2.14188243138E+06	-1.36979433968E+01	9.69368305622E+00	-5.93193133294E+00	1.61577640499E+02	-3.90342699412E+01	2.36450540896E+01	-5.94808336418E+00	-9.61871214292E-01
2.16407378598E+06	-1.27760395476E+01	1.99534011611E+00	-6.00837754142E+00	1.61989102959E+02	-6.92554960120E+01	-3.62567671824E+01	-5.95779710872E+00	-1.03632465054E+00
2.18626514057E+06	-1.28618092228E+01	2.38755443997E+00	-5.91655995674E+00	1.61383770915E+02	-5.40369384109E+01	1.44824723070E+02	-5.95502537457E+00	-1.01408705698E+00
2.20845649517E+06	-1.63090854603E+01	-2.50435913921E+01	-5.93527916559E+00	1.61754559124E+02	-5.55297533324E+01	-5.06264412782E+01	-5.94758803566E+00	-1.06498709027E+00
2.23064784976E+06	-1.49134658961E+01	-1.70027660689E+01	-6.06724476679E+00	1.61266584874E+02	-5.08178478364E+01	-4.21154291260E+01	-5.95888910096E+00	-9.75351147412E-01
2.25283920436E+06	-1.45188879808E+01	5.89276858863E+00	-6.01745565930E+00	1.60801049089E+02	-4.56154425220E+01	4.11704332548E+01	-5.95321386800E+00	-1.05875030759E+00
2.27503055895E+06	-1.35900979106E+01	4.28986564582E+00	-6.03274647822E+00	1.60500888289E+02	-5.90697934670E+01	4.63234470656E+01	-5.95401634403E+00	-1.04979063186E+00
2.29722191355E+06	-1.43306330812E+01	1.62151267687E+00	-6.00933900949E+00	1.60646156597E+02	-6.87054780961E+01	-1.10469021069E+02	-5.95477855347E+00	-1.03199204746E+00
2.31941326814E+06	-1.42719283460E+01	-1.69975541411E+00	-6.04432125615E+00	1.60391789516E+02	-6.26412134044E+01	-5.39958469044E+01	-5.95335940007E+00	-1.07612177590E+00
2.34160462274E+06	-1.30411924144E+01	8.92259442492E+00	-5.96666302344E+00	1.60527102995E+02	-4.83829440093E+01	-1.40200102577E+02	-5.96068557040E+00	-9.95166445496E-01
2.36379597733E+06	-1.39625446323E+01	4.19390939170E+00	-5.97085733497E+00	1.60215790038E+02	-6.15790126976E+01	1.19440057524E+02	-5.95676244378E+00	-1.11161199945E+00
2.38598733193E+06	-1.45237660202E+01	4.93401668491E+00	-6.02712285450E+00	1.59512490549E+02	-4.68173112856E+01	-3.71672822040E+01	-5.96059729268E+00	-1.04554508332E+00
2.40817868652E+06	-1.38481305512E+01	-9.64034683062E-01	-5.97352656299E+00	1.59637166013E+02	-5.74181944949E+01	1.31704533607E+02	-5.95335945355E+00	-1.18429073976E+00
2.43037004112E+06	-1.25263159923E+01	-5.37377943724E+00	-5.99329367639E+00	1.59645550710E+02	-5.39752883080E+01	-2.95910893661E+01	-5.96976524451E+00	-1.47507148144E+00
2.45256139571E+06	-1.23272998782E+01	1.76735824205E+01	-6.14079859610E+00	1.59382946688E+02	-5.61186831336E+01	-1.26188445546E+02	-5.96778503469E+00	-1.13950002580E+00
2.47475275031E+06	-1.51145469056E+01	7.97633637633E+00	-5.98363277350E+00	1.59067431580E+02	-5.01140091989E+01	-2.31925781039E+01	-5.97013131654E+00	-1.14056174294E+00
2.49694410490E+06	-1.42897341506E+01	8.16317019277E+00	-6.00699723446E+00	1.59273974836E+02	-4.30760339793E+01	1.68988162609E+02	-5.95668306560E+00	-1.09616491882E+00
2.51913545950E+06	-1.65432030612E+01	6.24580810216E+00	-6.01444295914E+00	1.58941816698E+02	-6.71138464204E+01	1.76198069714E+02	-5.96380132572E+00	-1.16999389389E+00
2.54132681409E+06	-1.61432620572E+01	2.77189840085E+00	-6.04031241945E+00	1.58661949978E+02	-5.33798958852E+01	3.21966683121E+01	-5.96053516498E+00	-1.12737393395E+00
2.56351816869E+06	-1.37074322233E+01	9.22773103497E+00	-6.01305469439E+00	1.58685744436E+02	-5.44697394968E+01	-1.59503637916E+02	-5.95398843944E+00	-1.18583467002E+00
2.58570952328E+06	-1.43439315769E+01	-5.15871306389E-01	-6.03265797698E+00	1.58699358731E+02	-5.89779275005E+01	-1.44960289147E+02	-5.96469078362E+00	-1.25279184528E+00
2.60790087788E+06	-1.38207066958E+01	9.19503131948E+00	-5.96835255968E+00	1.57674731524E+02	-3.91478447252E+01	1.69623601057E+02	-5.95803672570E+00	-9.86213145882E-01
2.63009223247E+06	-1.36294423016E+01	1.24754265304E+01	-6.05197692622E+00	1.58139141804E+02	-5.33119795145E+01	6.57629501824E+01	-5.95997072033E+00	-7.66253545775E-01
2.65228358707E+06	-1.35209906473E+01	-1.20591336836E-01	-6.01854962993E+00	1.57853842549E+02	-5.40695571443E+01	1.77501502650E+02	-5.95422559921E+00	-1.24798827112E+00
2.67447494166E+06	-1.44577924802E+01	-1.33464976498E+01	-6.05596270328E+00	1.57799908551E+02	-4.73099842812E+01	3.19877030448E+01	-5.95704376752E+00	-1.21425231165E+00
2.69666629626E+06	-1.29120715272E+01	9.49797484848E+00	-6.09893026503E+00	1.57549731518E+02	-6.33830127091E+01	-6.23938247027E+01	-5.96038089324E+00	-1.23276376286E+00
2.71885765085E+06	-1.37367476333E+01	5.79539253260E+00	-6.15385671599E+00	1.56987936819E+02	-4.54783576150E+01	1.47454160796E+02	-5.95200870199E+00	-1.27314674081E+00
2.74104900545E+06	-1.40735423457E+01	8.80796816619E+00	-6.08774201111E+00	1.57344715837E+02	-6.12484679152E+01	-1.35368198540E+02	-5.96032566005E+00	-1.28465117224E+00
2.76324036004E+06	-1.42138474520E+01	5.45666186496E+00	-6.11049214633E+00	1.56344920839E+02	-5.09460672649E+01	2.12367498716E+01	-5.96021742657E+00	-1.23878599583E+00
2.78543171463E+06	-1.55014422731E+01	-1.64304909104E+01	-6.04656009411E+00	1.56096644140E+02	-5.25898147482E+01	-5.56287592416E+01	-5.96053474499E+00	-1.28857590001E+00
2.80762306923E+06	-1.45501475544E+01	-1.91187975491E-01	-6.03583527124E+00	1.56538408633E+02	-5.20613255147E+01	8.45554107224E+01	-5.95274387326E+00	-1.26380445179E+00
2.82981442382E+06	-1.27935615369E+01	-7.54606431717E+00	-6.03469918396E+00	1.56295587169E+02	-5.44667191322E+01	1.70777657057E+02	-5.96806950731E+00	-1.24468456807E+00
2.85200577842E+06	-1.25033933343E+01	7.92726522297E+00	-6.08947499885E+00	1.56319148841E+02	-5.27563004955E+01	-8.27551667508E+01	-5.95676438482E+00	-1.28725509318E+00
2.87419713301E+06	-1.25165917466E+01	1.64725256230E-01	-6.04400276887E+00	1.55484195366E+02	-5.20451057441E+01	1.05887123159E+02	-5.95175305466E+00	-1.25337836066E+00
