# Hz S DB R 50
! CMT, M5065, 19127446, 24.2.4/2
! Date: 11/8/2024 6:34:56 PM
! Data: Format (Calibration Info)
! Freq	S11:dB/Ang(F2)	S21:dB/Ang(F2)	S12:dB/Ang(F2)	S22:dB/Ang(F2)
3.00000000000E+05	-1.43488743754E+01	1.86886222114E+01	-2.92956157719E+00	1.78454551237E+02	-4.97350859594E+01	-6.10566129398E+01	-5.96537506572E+00	-2.22031906884E-01
3.22191354595E+05	-1.48647717341E+01	1.96613810206E+01	-3.00782747971E+00	1.78050693033E+02	-5.75034263506E+01	1.04094646252E+02	-5.96288170092E+00	-3.21151217711E-01
3.44382709190E+05	-1.48547284845E+01	1.65116113669E+01	-2.98355436273E+00	1.77810559880E+02	-5.03247527013E+01	1.46332119266E+02	-5.97621722506E+00	-2.39368358242E-01
3.66574063785E+05	-1.41902071279E+01	1.22736470642E+01	-2.93505651533E+00	1.77855544697E+02	-5.84130795171E+01	9.06719018892E+01	-5.96018440035E+00	-3.22065568865E-01
3.88765418380E+05	-1.54145714411E+01	1.06510412901E+01	-3.09137868596E+00	1.77817545270E+02	-5.09600058300E+01	-5.91495813435E+01	-5.97917563401E+00	-2.92545977036E-01
4.10956772975E+05	-1.63559643316E+01	7.74529065322E-02	-2.98279088823E+00	1.77329995288E+02	-6.64584617671E+01	-1.24422046602E+02	-5.94975211156E+00	-2.83241359682E-01
4.33148127570E+05	-1.33494487173E+01	1.85155023995E+01	-2.95335015136E+00	1.76649732255E+02	-5.16404003527E+01	-1.53248197264E+02	-5.96327121965E+00	-2.11336126207E-01
4.55339482165E+05	-1.56739718952E+01	1.48255930667E+01	-2.98960816988E+00	1.76471679453E+02	-4.74120486523E+01	7.23005144901E+01	-5.97371764205E+00	-2.58926463295E-01
4.77530836760E+05	-1.40737799893E+01	2.48416095592E-01	-2.97740975439E+00	1.76610750758E+02	-4.83128019556E+01	-1.14804463738E+01	-5.97110329540E+00	-2.71413069516E-01
4.99722191355E+05	-1.50987223287E+01	1.66810051037E+01	-2.98531605003E+00	1.76387747648E+02	-4.92375591857E+01	-3.76479298615E+01	-5.97451600462E+00	-3.12521544636E-01
5.21913545950E+05	-1.40859065850E+01	1.27590474049E+01	-2.98375988188E+00	1.75850788063E+02	-4.86097807582E+01	-6.74765657736E+01	-5.96610531266E+00	-3.42385218468E-01
5.44104900545E+05	-1.40926787802E+01	1.03681541180E+01	-3.01495678048E+00	1.75368920770E+02	-5.20253990286E+01	4.47963299770E+01	-5.96220802089E+00	-3.30426450477E-01
5.66296255139E+05	-1.44687905568E+01	1.04514086348E+01	-3.00839562553E+00	1.75255670689E+02	-5.98526509280E+01	6.21783905929E+01	-5.97340830160E+00	-3.86355443106E-01
5.88487609734E+05	-1.56344841686E+01	-1.37323738016E+00	-3.02218374918E+00	1.75219932075E+02	-4.76095120970E+01	3.53850257939E+01	-5.96762953248E+00	-3.28470287855E-01
6.10678964329E+05	-1.46746671170E+01	-7.98739193019E-01	-2.96368768276E+00	1.75163609108E+02	-5.04492355927E+01	-9.58939830240E+01	-5.96416052832E+00	1.15083720892E-01
6.32870318924E+05	-1.49477618955E+01	1.91310789385E+01	-3.01136003278E+00	1.74437116373E+02	-5.27890848823E+01	-8.61873413690E+01	-5.97794844090E+00	-1.17503501682E-01
6.55061673519E+05	-1.48613615435E+01	1.66699858512E+00	-2.93202219000E+00	1.74631681856E+02	-4.54758402872E+01	-1.07154410719E+02	-5.95994672589E+00	-2.77632870477E-01
6.77253028114E+05	-1.47178633271E+01	8.44056926908E+00	-3.02997910752E+00	1.74395724864E+02	-4.82454264465E+01	9.60629680248E+01	-5.95677361089E+00	-6.10825705587E-01
6.99444382709E+05	-1.56915885376E+01	5.75921197502E+00	-3.02218279745E+00	1.74464269116E+02	-4.86888799212E+01	6.65471108678E+01	-5.96014696153E+00	-4.04029680174E-01
7.21635737304E+05	-1.32702827259E+01	1.04221512873E+01	-3.00123370873E+00	1.73855977832E+02	-4.95338271401E+01	-1.51583180232E+02	-5.96491595286E+00	-4.31262627782E-01
7.43827091899E+05	-1.48160486460E+01	-8.43583935364E+00	-3.01613169095E+00	1.73524337033E+02	-4.99609566599E+01	-1.28945430651E+02	-5.96415852086E+00	-4.43910321986E-01
7.66018446494E+05	-1.54965511720E+01	5.02210193154E+00	-3.05165834363E+00	1.73397786843E+02	-4.48268205345E+01	-1.18855325660E+02	-5.95488225665E+00	-4.21353875014E-01
7.88209801089E+05	-1.45795044064E+01	4.57285477801E+00	-2.99406892590E+00	1.73352829402E+02	-4.78193999602E+01	1.47079127825E+02	-5.95670101249E+00	-4.02065263679E-01
8.10401155684E+05	-1.31198171855E+01	3.37425446916E+00	-3.01418580756E+00	1.72825985175E+02	-5.13110015728E+01	-4.61246731918E+01	-5.96403198798E+00	-3.91966210375E-01
8.32592510279E+05	-1.43412560276E+01	-8.66469416591E-01	-3.04268659324E+00	1.72757645286E+02	-4.68735040164E+01	1.73434901321E+02	-5.96694836603E+00	-4.35780866230E-01
8.54783864874E+05	-1.38620573016E+01	-2.24384833834E+00	-3.02118405821E+00	1.72729219040E+02	-5.11487507044E+01	-1.56940454414E+02	-5.96668671778E+00	-4.75506133995E-01
8.76975219469E+05	-1.23845183146E+01	4.41252388246E+00	-3.00607849138E+00	1.72702143692E+02	-4.94358718402E+01	1.63235825397E+02	-5.96724303337E+00	-4.61280645416E-01
8.99166574064E+05	-1.29367870458E+01	3.02789497057E+00	-3.02220831875E+00	1.72221462384E+02	-4.75460674405E+01	-1.04569908029E+02	-5.96514917769E+00	-4.12668475325E-01
9.21357928659E+05	-1.43478800322E+01	7.74986870202E+00	-3.02365189013E+00	1.72113366341E+02	-6.00821440615E+01	1.28855138592E+02	-5.95350603213E+00	-4.48304543416E-01
9.43549283254E+05	-1.38276435876E+01	1.40244324637E+01	-3.00161410257E+00	1.71762940486E+02	-5.15829358053E+01	-1.50415826780E+02	-5.96151831056E+00	-5.22333692084E-01
9.65740637849E+05	-1.34343010146E+01	-5.77515142372E+00	-2.99059695900E+00	1.71734930134E+02	-5.13197857400E+01	-4.78878412728E+01	-5.96707196559E+00	-4.63177653754E-01
9.87931992444E+05	-1.29564571341E+01	2.07715977298E+01	-3.06002218924E+00	1.71223724683E+02	-5.09993961122E+01	-4.05830125371E+01	-5.96884825092E+00	-5.03159981201E-01
1.01012334704E+06	-1.38393148694E+01	7.91250412850E+00	-3.02746085642E+00	1.71078493558E+02	-5.31619771153E+01	-3.18707661596E+01	-5.95052208716E+00	-4.72624088404E-01
1.03231470163E+06	-1.40364450445E+01	4.32073181115E+00	-2.99634405326E+00	1.71036142107E+02	-5.01404085466E+01	-1.33522943334E+02	-5.96871281706E+00	-5.41240485502E-01
1.05450605623E+06	-1.46600843076E+01	5.79369465391E+00	-3.01556236855E+00	1.70835968081E+02	-5.24651279368E+01	1.45245511058E+02	-5.96327907898E+00	-5.21449862384E-01
1.07669741082E+06	-1.38454383216E+01	1.99547578841E+00	-2.99297621277E+00	1.70668054160E+02	-5.39456149141E+01	1.70200238820E+02	-5.95383458164E+00	-4.74766121203E-01
1.09888876542E+06	-1.50856301249E+01	-1.98929684603E+00	-2.95761186066E+00	1.70604288579E+02	-5.69084573799E+01	1.30814802214E+02	-5.96808608019E+00	-4.92743818449E-01
1.12108012001E+06	-1.33932288682E+01	7.18880237430E+00	-3.05773085725E+00	1.69849973813E+02	-5.05692677193E+01	-1.34610732752E+01	-5.96938755499E+00	-5.36295145828E-01
1.14327147461E+06	-1.41562125604E+01	1.14206888743E+01	-3.03901915993E+00	1.70046527988E+02	-5.15108956019E+01	-1.73239472741E+02	-5.96754357685E+00	-6.26305006048E-01
1.16546282920E+06	-1.39305296392E+01	2.06225888685E+00	-3.04124830355E+00	1.69886299813E+02	-5.45190020767E+01	-1.72834537847E+02	-5.96090517579E+00	-5.61440508987E-01
1.18765418380E+06	-1.50760834902E+01	1.13362365948E+01	-3.03543726200E+00	1.69756244221E+02	-4.48776263003E+01	3.07800066293E+01	-5.96311797401E+00	-5.97319480534E-01
1.20984553839E+06	-1.33522904581E+01	-7.84205589417E+00	-3.01834258090E+00	1.69313291652E+02	-5.05093127342E+01	-1.26642820868E+02	-5.95101258030E+00	-6.71298006684E-01
1.23203689299E+06	-1.40240234506E+01	6.95903964214E+00	-3.04895718891E+00	1.69429277441E+02	-4.80028669885E+01	-5.47919954852E+01	-5.96947288432E+00	-3.80739119463E-01
1.25422824758E+06	-1.37224242404E+01	7.03046788057E+00	-3.05902477572E+00	1.68712880764E+02	-5.16773124198E+01	-8.87615698560E+01	-5.97324195535E+00	-6.22049115971E-01
1.27641960218E+06	-1.35725374520E+01	8.90610037235E+00	-3.00377503444E+00	1.68699610310E+02	-5.09538989737E+01	-8.99668175386E+01	-5.96487104951E+00	-6.28808255433E-01
1.29861095677E+06	-1.50192298900E+01	1.08383185345E+01	-3.05981994604E+00	1.68552891272E+02	-4.83422996127E+01	5.98435539450E+01	-5.97480260549E+00	-6.16108671829E-01
1.32080231137E+06	-1.31036245270E+01	7.35865921539E-01	-3.09067923578E+00	1.68180887134E+02	-4.47705949473E+01	3.30329770957E+01	-5.94888873637E+00	-9.67438175094E-01
1.34299366596E+06	-1.69843867707E+01	3.28619893757E+00	-3.06294639373E+00	1.68173033645E+02	-4.20803646907E+01	-1.69105236827E+02	-5.97020984962E+00	-7.26022362684E-01
1.36518502056E+06	-1.43426780495E+01	9.15990086932E+00	-3.05491521244E+00	1.67871147775E+02	-4.94316720112E+01	6.91561332887E+01	-5.96147394968E+00	-6.03622725441E-01
1.38737637515E+06	-1.33242525909E+01	-3.32295720475E+00	-3.01551489473E+00	1.67495626738E+02	-4.88536506494E+01	1.69266720248E+02	-5.95778120593E+00	-6.80788842725E-01
1.40956772975E+06	-1.31466152290E+01	-5.39913412272E-01	-3.05831548058E+00	1.67319126339E+02	-5.10710927905E+01	-9.97090504361E+01	-5.95882991071E+00	-6.32643110753E-01
1.43175908434E+06	-1.24778191449E+01	1.74019878406E-01	-3.07390439276E+00	1.67360047296E+02	-4.51923462423E+01	-6.52393944972E+01	-5.96560680482E+00	-6.09952085827E-01
1.45395043894E+06	-1.32146651248E+01	9.56007686992E-01	-3.08171211480E+00	1.67240956844E+02	-5.04638172283E+01	6.55200433529E+01	-5.96870969751E+00	-6.98372275780E-01
1.47614179353E+06	-1.26817785407E+01	-3.00792603656E+00	-3.01398582396E+00	1.66427686007E+02	-5.73414211302E+01	4.42945728090E+01	-5.96550541210E+00	-7.42184346022E-01
1.49833314813E+06	-1.44793273146E+01	9.75910664240E+00	-3.04665191221E+00	1.66692832674E+02	-4.67371132192E+01	1.94484928470E+01	-5.96060082672E+00	-7.51196125295E-01
1.52052450272E+06	-1.46340639732E+01	6.51502087580E+00	-3.04637856437E+00	1.66070865000E+02	-5.53488363225E+01	1.44917700928E+01	-5.96263848951E+00	-8.18087050766E-01
1.54271585732E+06	-1.34900248611E+01	4.39533669711E+00	-3.02974580757E+00	1.66514140168E+02	-5.50399211598E+01	9.06994680157E+01	-5.96498351145E+00	-7.57478961224E-01
1.56490721191E+06	-1.33591117405E+01	-3.77641455215E+00	-3.09345483931E+00	1.66099941689E+02	-5.27016353624E+01	1.75766859948E+02	-5.96192086067E+00	-7.11011615334E-01
1.58709856651E+06	-1.36203651660E+01	1.40395299696E+01	-3.02229721114E+00	1.66033244323E+02	-4.96732425553E+01	-1.35217099060E+01	-5.96883673197E+00	-7.97265182344E-01
1.60928992110E+06	-1.46398792952E+01	-3.26148497211E+00	-3.08898485841E+00	1.65360803679E+02	-5.42368023037E+01	-1.48456551746E+02	-5.96372053052E+00	-7.36462201246E-01
1.63148127570E+06	-1.42839872426E+01	1.13632597634E+00	-3.09858110178E+00	1.65180931161E+02	-5.32165670898E+01	1.28736984933E+02	-5.96211189954E+00	-7.54349866408E-01
1.65367263029E+06	-1.48612619309E+01	1.57240987115E+01	-3.07901681617E+00	1.65447159484E+02	-5.07642284199E+01	-1.19716472604E+02	-5.96101482642E+00	-7.75726567808E-01
1.67586398489E+06	-1.25459199008E+01	-1.33166315208E+01	-3.03447054117E+00	1.65399532021E+02	-4.87638678897E+01	1.33376906339E+02	-5.95693107901E+00	-7.73002731223E-01
1.69805533948E+06	-1.44909273969E+01	7.56299122614E+00	-3.08918084877E+00	1.65162520743E+02	-4.24001838704E+01	-7.54617834692E+01	-5.97603230136E+00	-8.19580407699E-01
1.72024669408E+06	-1.50960517888E+01	1.52765235382E+01	-3.06069747484E+00	1.64825096369E+02	-4.50268903047E+01	1.68049887346E+01	-5.96848396212E+00	-7.96848561236E-01
1.74243804867E+06	-1.31089030753E+01	8.77739417656E+00	-3.11530855789E+00	1.64639039891E+02	-6.34932755344E+01	1.02110916639E+02	-5.96783358148E+00	-8.91504947266E-01
1.76462940327E+06	-1.58709245219E+01	7.82497286209E+00	-3.11730702991E+00	1.64183847077E+02	-4.81305162454E+01	-9.68914254742E+01	-5.96874813254E+00	-8.35201327857E-01
1.78682075786E+06	-1.15924640604E+01	-4.01546707803E+00	-3.07344256644E+00	1.63900272190E+02	-5.32310209625E+01	-7.59760635803E+01	-5.96295766762E+00	-8.72141718751E-01
1.80901211246E+06	-1.46122131434E+01	-4.32633646049E+00	-3.06381766137E+00	1.63764361164E+02	-4.47081362415E+01	-7.48189888238E+01	-5.96515146229E+00	-8.15328672523E-01
1.83120346705E+06	-1.48768620482E+01	-3.75240999572E+00	-3.09884092652E+00	1.63602919178E+02	-4.76365380129E+01	-1.23749467554E+02	-5.97145403391E+00	-7.65132907848E-01
1.85339482165E+06	-1.40310998880E+01	2.81102996293E+00	-3.08714364336E+00	1.63678589697E+02	-5.61962313898E+01	-1.76230057449E+01	-5.97603044673E+00	-9.41073961387E-01
1.87558617624E+06	-1.24172983799E+01	2.20539387134E+00	-3.09986063369E+00	1.62860689742E+02	-5.17620938532E+01	-1.40940627208E+02	-5.97014119245E+00	-9.41187593084E-01
1.89777753084E+06	-1.39043615290E+01	1.42430141252E+01	-3.09522389349E+00	1.63221548230E+02	-5.89615614786E+01	-1.03771875822E+02	-5.96724735478E+00	-9.28501560766E-01
1.91996888543E+06	-1.23015353006E+01	3.25866479346E+00	-3.14460196187E+00	1.62910933365E+02	-4.55689617865E+01	9.91553152442E+01	-5.96622579513E+00	-9.29534497029E-01
1.94216024003E+06	-1.47899841093E+01	-7.08930923449E+00	-3.13060766580E+00	1.62501477859E+02	-6.23762932976E+01	-9.45748983289E+01	-5.96469602276E+00	-9.22816574663E-01
1.96435159462E+06	-1.39324753771E+01	-1.94067917492E+00	-3.07427504249E+00	1.62456629101E+02	-5.26371268806E+01	1.56527819514E+01	-5.96778252210E+00	-8.54608573629E-01
1.98654294922E+06	-1.55354337763E+01	-3.09417583722E+00	-3.10139520612E+00	1.62109044930E+02	-5.45983173875E+01	-1.58380566040E+02	-5.95101640087E+00	-8.79140280077E-01
2.00873430381E+06	-1.43000154898E+01	9.10177482333E+00	-3.10563842037E+00	1.61798695155E+02	-5.33585453361E+01	1.35990993098E+00	-5.97635718377E+00	-9.65730199840E-01
2.03092565841E+06	-1.61212358446E+01	-7.57476486993E+00	-3.11958792114E+00	1.61865451777E+02	-5.01182525213E+01	-5.01350803512E+01	-5.97284313054E+00	-9.94950867483E-01
2.05311701300E+06	-1.35075228062E+01	4.10630723681E+00	-3.09988805410E+00	1.61522629819E+02	-5.02804139445E+01	1.37267630585E+02	-5.97751410048E+00	-1.00170142610E+00
2.07530836760E+06	-1.43349775842E+01	-3.64339721248E-01	-3.11604708571E+00	1.61168322661E+02	-5.32999560406E+01	-1.13712468552E+02	-5.97434887584E+00	-9.63935858660E-01
2.09749972219E+06	-1.28507938070E+01	4.38277857833E-01	-3.09726504875E+00	1.61209284476E+02	-4.77187242509E+01	1.29413475636E+01	-5.97134490752E+00	-8.75086109123E-01
2.11969107679E+06	-1.23194428984E+01	5.73651679158E+00	-3.15280814970E+00	1.61147709595E+02	-5.10122911605E+01	6.08616777243E+01	-5.96450298193E+00	-9.73614041528E-01
2.14188243138E+06	-1.51291472734E+01	-4.45274506846E+00	-3.16496020138E+00	1.60677818056E+02	-4.67611415142E+01	2.96589403772E+01	-5.97036886554E+00	-1.04187371430E+00
2.16407378598E+06	-1.47133958527E+01	8.33306740268E-01	-3.12450096762E+00	1.60565553815E+02	-4.52627282221E+01	1.70548315045E+02	-5.96616241140E+00	-1.01800752739E+00
2.18626514057E+06	-1.50613946985E+01	-8.21126196806E+00	-3.12409705311E+00	1.60412101658E+02	-5.57576668157E+01	3.34447657240E+01	-5.96871364216E+00	-9.80368945591E-01
2.20845649517E+06	-1.32549178117E+01	2.82678279217E+00	-3.12641184567E+00	1.60197101619E+02	-5.05780339804E+01	1.75573102965E+02	-5.97023477324E+00	-1.06314641432E+00
2.23064784976E+06	-1.43852341798E+01	1.95568281001E+00	-3.11798702500E+00	1.60003991425E+02	-5.64089652052E+01	-8.25032776118E+01	-5.97420809388E+00	-1.11502610442E+00
2.25283920436E+06	-1.57553602443E+01	-5.14962122704E+00	-3.15548958284E+00	1.59562764284E+02	-5.87604189596E+01	1.36544837666E+02	-5.97050558276E+00	-9.94204210445E-01
2.27503055895E+06	-1.24115533274E+01	-1.01656712295E+01	-3.10355717729E+00	1.59424671311E+02	-3.59311017918E+01	4.83927405140E+01	-5.95848135515E+00	-1.14298447640E+00
2.29722191355E+06	-1.28923514936E+01	1.91315349850E+00	-3.11830310244E+00	1.59792210301E+02	-5.67018785514E+01	4.37814083870E+01	-5.96521068389E+00	-1.05708651284E+00
2.31941326814E+06	-1.42113070421E+01	-6.96192314396E+00	-3.12997744135E+00	1.59396677736E+02	-5.04888621336E+01	7.38191257358E+01	-5.97274794759E+00	-1.13413701331E+00
2.34160462274E+06	-1.49719837143E+01	7.00962048466E+00	-3.16109267008E+00	1.59086113526E+02	-5.66940693416E+01	2.63873478529E+01	-5.97065486520E+00	-1.13046072613E+00
2.36379597733E+06	-1.35187991618E+01	-3.42002274486E+00	-3.16019827699E+00	1.59002974794E+02	-4.68832748452E+01	6.24867683766E+01	-5.97600639622E+00	-1.09759858353E+00
2.38598733193E+06	-1.53901586871E+01	-7.67909685904E+00	-3.18945598240E+00	1.58416176580E+02	-3.95658688391E+01	-1.72700127849E+02	-5.96586884061E+00	-1.09119132406E+00
2.40817868652E+06	-1.34555762092E+01	3.45285045817E+00	-3.15117836648E+00	1.57978264846E+02	-4.68333166461E+01	1.39590448604E+02	-5.96946832843E+00	-1.24026043220E+00
2.43037004112E+06	-1.23620187977E+01	-1.13101946436E+01	-3.15318030948E+00	1.57860874261E+02	-5.38949474436E+01	1.56935137841E+02	-5.96805908080E+00	-1.51684245721E+00
2.45256139571E+06	-1.32095402289E+01	-9.10837565319E-01	-3.11493923189E+00	1.57979017678E+02	-5.24229906440E+01	1.66215178076E+02	-5.97233169270E+00	-1.12245927194E+00
2.47475275031E+06	-1.55490132607E+01	-6.39765099164E-01	-3.14774790125E+00	1.57824582520E+02	-5.06278587274E+01	1.28066241254E+01	-5.97273127846E+00	-1.13757542661E+00
2.49694410490E+06	-1.15495965880E+01	-1.88289960784E+01	-3.12486520634E+00	1.57757884373E+02	-4.61401856767E+01	-1.17347411267E+02	-5.97488200438E+00	-1.15224482316E+00
2.51913545950E+06	-1.48904954518E+01	1.38245632851E+01	-3.20991069802E+00	1.57069617261E+02	-5.19206315882E+01	6.51523243825E+01	-5.97994714679E+00	-1.16941458059E+00
2.54132681409E+06	-1.67840744045E+01	3.86392332850E+00	-3.12853295605E+00	1.56898865389E+02	-5.35914233465E+01	-9.72896939454E+01	-5.96580571911E+00	-1.13579581801E+00
2.56351816869E+06	-1.53313149654E+01	-6.62890445861E+00	-3.13949420267E+00	1.56775457815E+02	-5.98540846639E+01	1.58084272197E+01	-5.97286811900E+00	-1.18215404568E+00
2.58570952328E+06	-1.54197276007E+01	-1.25111281026E+00	-3.19314208391E+00	1.56590002458E+02	-5.10982232204E+01	1.56111818247E+02	-5.97957131032E+00	-1.12584777898E+00
2.60790087788E+06	-1.13889174172E+01	5.81650230488E+00	-3.21055687765E+00	1.56838910013E+02	-4.76283043390E+01	1.72539068872E+02	-5.97072508574E+00	-1.11020405333E+00
2.63009223247E+06	-1.28287674057E+01	5.01191585236E-02	-3.15457807298E+00	1.56596113531E+02	-5.13112178128E+01	1.20881978100E+02	-5.95938998822E+00	-7.94777574730E-01
2.65228358707E+06	-1.45183824090E+01	-5.52721699409E+00	-3.18410942420E+00	1.56133814400E+02	-6.64980869352E+01	1.03679384081E+02	-5.96579452680E+00	-1.22012379097E+00
2.67447494166E+06	-1.52730574245E+01	-3.34400848585E+00	-3.19398507247E+00	1.56083446023E+02	-5.33679835094E+01	-1.68321620910E+02	-5.97379894865E+00	-1.18630390508E+00
2.69666629626E+06	-1.39712676471E+01	1.60139803780E+00	-3.19580341285E+00	1.56055691282E+02	-5.75771047162E+01	1.36944529478E+02	-5.97513100017E+00	-1.24888351750E+00
2.71885765085E+06	-1.39310457866E+01	-2.98904707112E+00	-3.17873949454E+00	1.55524318830E+02	-5.50162087171E+01	-1.02835544778E+01	-5.96672775375E+00	-1.30391346167E+00
2.74104900545E+06	-1.30655639025E+01	6.54999806711E+00	-3.19137270407E+00	1.55533791404E+02	-4.83437812563E+01	-1.45368138573E+02	-5.97053277414E+00	-1.22778373748E+00
2.76324036004E+06	-1.39074970455E+01	6.58955156166E+00	-3.19312317036E+00	1.55277556026E+02	-5.38032784027E+01	-1.21140579694E+01	-5.97399873330E+00	-1.33563514279E+00
2.78543171463E+06	-1.38263373535E+01	5.88744418100E+00	-3.19815840428E+00	1.54978451052E+02	-5.44066961005E+01	-1.66241922048E+02	-5.96211330344E+00	-1.26459602724E+00
2.80762306923E+06	-1.26501728055E+01	-3.36718036152E+00	-3.22474348945E+00	1.54871563517E+02	-5.64959329723E+01	-1.65042053745E+02	-5.97199594135E+00	-1.35765557750E+00
2.82981442382E+06	-1.33891202007E+01	1.95620017995E+01	-3.24115769180E+00	1.54438907292E+02	-6.13677499376E+01	-2.55989424298E+01	-5.96484624277E+00	-1.31561258485E+00
2.85200577842E+06	-1.33872946174E+01	-5.59449981453E+00	-3.12556760317E+00	1.54424586734E+02	-5.34004104259E+01	-1.43891825710E+02	-5.96974466913E+00	-1.28921539793E+00
2.87419713301E+06	-1.41156804041E+01	-2.82110550860E+00	-3.20719252082E+00	1.53934714929E+02	-4.85311243126E+01	-7.29845742844E+01	-5.97538207074E+00	-1.28721516208E+00
