Freq.	V(out_fs)
1.00000000000000e+05	(-1.00568845623235e+01dB,-9.05471964803010e+01°)
1.00230523807790e+05	(-1.00368839777037e+01dB,-9.05484579732108e+01°)
1.00461579027839e+05	(-1.00168833903860e+01dB,-9.05497223746803e+01°)
1.00693166885180e+05	(-9.99688280035796e+00dB,-9.05509896914179e+01°)
1.00925288607668e+05	(-9.97688220760707e+00dB,-9.05522599301476e+01°)
1.01157945425990e+05	(-9.95688161212077e+00dB,-9.05535330976089e+01°)
1.01391138573668e+05	(-9.93688101388645e+00dB,-9.05548092005570e+01°)
1.01624869287070e+05	(-9.91688041289141e+00dB,-9.05560882457626e+01°)
1.01859138805412e+05	(-9.89687980912292e+00dB,-9.05573702400118e+01°)
1.02093948370768e+05	(-9.87687920256820e+00dB,-9.05586551901069e+01°)
1.02329299228075e+05	(-9.85687859321438e+00dB,-9.05599431028654e+01°)
1.02565192625141e+05	(-9.83687798104854e+00dB,-9.05612339851208e+01°)
1.02801629812647e+05	(-9.81687736605772e+00dB,-9.05625278437222e+01°)
1.03038612044162e+05	(-9.79687674822888e+00dB,-9.05638246855348e+01°)
1.03276140576140e+05	(-9.77687612754893e+00dB,-9.05651245174395e+01°)
1.03514216667934e+05	(-9.75687550400471e+00dB,-9.05664273463329e+01°)
1.03752841581801e+05	(-9.73687487758301e+00dB,-9.05677331791279e+01°)
1.03992016582906e+05	(-9.71687424827055e+00dB,-9.05690420227530e+01°)
1.04231742939330e+05	(-9.69687361605400e+00dB,-9.05703538841529e+01°)
1.04472021922080e+05	(-9.67687298091996e+00dB,-9.05716687702884e+01°)
1.04712854805090e+05	(-9.65687234285496e+00dB,-9.05729866881361e+01°)
1.04954242865232e+05	(-9.63687170184549e+00dB,-9.05743076446891e+01°)
1.05196187382322e+05	(-9.61687105787795e+00dB,-9.05756316469563e+01°)
1.05438689639126e+05	(-9.59687041093872e+00dB,-9.05769587019629e+01°)
1.05681750921366e+05	(-9.57686976101406e+00dB,-9.05782888167504e+01°)
1.05925372517729e+05	(-9.55686910809021e+00dB,-9.05796219983765e+01°)
1.06169555719872e+05	(-9.53686845215334e+00dB,-9.05809582539152e+01°)
1.06414301822431e+05	(-9.51686779318954e+00dB,-9.05822975904569e+01°)
1.06659612123026e+05	(-9.49686713118485e+00dB,-9.05836400151082e+01°)
1.06905487922266e+05	(-9.47686646612523e+00dB,-9.05849855349922e+01°)
1.07151930523760e+05	(-9.45686579799660e+00dB,-9.05863341572486e+01°)
1.07398941234124e+05	(-9.43686512678479e+00dB,-9.05876858890335e+01°)
1.07646521362983e+05	(-9.41686445247558e+00dB,-9.05890407375193e+01°)
1.07894672222983e+05	(-9.39686377505469e+00dB,-9.05903987098953e+01°)
1.08143395129794e+05	(-9.37686309450775e+00dB,-9.05917598133672e+01°)
1.08392691402120e+05	(-9.35686241082035e+00dB,-9.05931240551574e+01°)
1.08642562361706e+05	(-9.33686172397799e+00dB,-9.05944914425051e+01°)
1.08893009333343e+05	(-9.31686103396611e+00dB,-9.05958619826659e+01°)
1.09144033644875e+05	(-9.29686034077012e+00dB,-9.05972356829125e+01°)
1.09395636627209e+05	(-9.27685964437529e+00dB,-9.05986125505342e+01°)
1.09647819614318e+05	(-9.25685894476688e+00dB,-9.05999925928373e+01°)
1.09900583943252e+05	(-9.23685824193008e+00dB,-9.06013758171447e+01°)
1.10153930954141e+05	(-9.21685753584997e+00dB,-9.06027622307964e+01°)
1.10407861990207e+05	(-9.19685682651160e+00dB,-9.06041518411495e+01°)
1.10662378397766e+05	(-9.17685611389994e+00dB,-9.06055446555778e+01°)
1.10917481526240e+05	(-9.15685539799988e+00dB,-9.06069406814722e+01°)
1.11173172728159e+05	(-9.13685467879626e+00dB,-9.06083399262408e+01°)
1.11429453359173e+05	(-9.11685395627383e+00dB,-9.06097423973088e+01°)
1.11686324778056e+05	(-9.09685323041730e+00dB,-9.06111481021184e+01°)
1.11943788346715e+05	(-9.07685250121126e+00dB,-9.06125570481291e+01°)
1.12201845430196e+05	(-9.05685176864027e+00dB,-9.06139692428176e+01°)
1.12460497396692e+05	(-9.03685103268882e+00dB,-9.06153846936779e+01°)
1.12719745617551e+05	(-9.01685029334129e+00dB,-9.06168034082212e+01°)
1.12979591467279e+05	(-8.99684955058203e+00dB,-9.06182253939763e+01°)
1.13240036323555e+05	(-8.97684880439530e+00dB,-9.06196506584891e+01°)
1.13501081567231e+05	(-8.95684805476528e+00dB,-9.06210792093232e+01°)
1.13762728582343e+05	(-8.93684730167610e+00dB,-9.06225110540594e+01°)
1.14024978756117e+05	(-8.91684654511179e+00dB,-9.06239462002962e+01°)
1.14287833478977e+05	(-8.89684578505632e+00dB,-9.06253846556495e+01°)
1.14551294144553e+05	(-8.87684502149358e+00dB,-9.06268264277530e+01°)
1.14815362149688e+05	(-8.85684425440739e+00dB,-9.06282715242580e+01°)
1.15080038894443e+05	(-8.83684348378151e+00dB,-9.06297199528332e+01°)
1.15345325782109e+05	(-8.81684270959960e+00dB,-9.06311717211653e+01°)
1.15611224219210e+05	(-8.79684193184527e+00dB,-9.06326268369587e+01°)
1.15877735615512e+05	(-8.77684115050202e+00dB,-9.06340853079355e+01°)
1.16144861384034e+05	(-8.75684036555330e+00dB,-9.06355471418358e+01°)
1.16412602941049e+05	(-8.73683957698248e+00dB,-9.06370123464174e+01°)
1.16680961706096e+05	(-8.71683878477285e+00dB,-9.06384809294562e+01°)
1.16949939101987e+05	(-8.69683798890763e+00dB,-9.06399528987459e+01°)
1.17219536554813e+05	(-8.67683718936995e+00dB,-9.06414282620983e+01°)
1.17489755493953e+05	(-8.65683638614287e+00dB,-9.06429070273432e+01°)
1.17760597352080e+05	(-8.63683557920936e+00dB,-9.06443892023286e+01°)
1.18032063565173e+05	(-8.61683476855235e+00dB,-9.06458747949205e+01°)
1.18304155572516e+05	(-8.59683395415463e+00dB,-9.06473638130031e+01°)
1.18576874816716e+05	(-8.57683313599897e+00dB,-9.06488562644789e+01°)
1.18850222743701e+05	(-8.55683231406802e+00dB,-9.06503521572685e+01°)
1.19124200802737e+05	(-8.53683148834437e+00dB,-9.06518514993109e+01°)
1.19398810446427e+05	(-8.51683065881053e+00dB,-9.06533542985636e+01°)
1.19674053130724e+05	(-8.49682982544892e+00dB,-9.06548605630021e+01°)
1.19949930314937e+05	(-8.47682898824187e+00dB,-9.06563703006207e+01°)
1.20226443461741e+05	(-8.45682814717165e+00dB,-9.06578835194320e+01°)
1.20503594037179e+05	(-8.43682730222045e+00dB,-9.06594002274671e+01°)
1.20781383510678e+05	(-8.41682645337036e+00dB,-9.06609204327756e+01°)
1.21059813355048e+05	(-8.39682560060339e+00dB,-9.06624441434260e+01°)
1.21338885046497e+05	(-8.37682474390148e+00dB,-9.06639713675050e+01°)
1.21618600064636e+05	(-8.35682388324647e+00dB,-9.06655021131184e+01°)
1.21898959892486e+05	(-8.33682301862013e+00dB,-9.06670363883905e+01°)
1.22179966016487e+05	(-8.31682215000414e+00dB,-9.06685742014644e+01°)
1.22461619926504e+05	(-8.29682127738010e+00dB,-9.06701155605020e+01°)
1.22743923115840e+05	(-8.27682040072952e+00dB,-9.06716604736842e+01°)
1.23026877081238e+05	(-8.25681952003382e+00dB,-9.06732089492105e+01°)
1.23310483322890e+05	(-8.23681863527434e+00dB,-9.06747609952998e+01°)
1.23594743344450e+05	(-8.21681774643235e+00dB,-9.06763166201895e+01°)
1.23879658653036e+05	(-8.19681685348901e+00dB,-9.06778758321365e+01°)
1.24165230759240e+05	(-8.17681595642540e+00dB,-9.06794386394164e+01°)
1.24451461177138e+05	(-8.15681505522251e+00dB,-9.06810050503241e+01°)
1.24738351424294e+05	(-8.13681414986126e+00dB,-9.06825750731737e+01°)
1.25025903021771e+05	(-8.11681324032245e+00dB,-9.06841487162984e+01°)
1.25314117494141e+05	(-8.09681232658683e+00dB,-9.06857259880508e+01°)
1.25602996369487e+05	(-8.07681140863503e+00dB,-9.06873068968027e+01°)
1.25892541179416e+05	(-8.05681048644760e+00dB,-9.06888914509452e+01°)
1.26182753459066e+05	(-8.03680956000501e+00dB,-9.06904796588888e+01°)
1.26473634747114e+05	(-8.01680862928764e+00dB,-9.06920715290637e+01°)
1.26765186585784e+05	(-7.99680769427575e+00dB,-9.06936670699193e+01°)
1.27057410520853e+05	(-7.97680675494954e+00dB,-9.06952662899245e+01°)
1.27350308101665e+05	(-7.95680581128912e+00dB,-9.06968691975681e+01°)
1.27643880881134e+05	(-7.93680486327449e+00dB,-9.06984758013581e+01°)
1.27938130415752e+05	(-7.91680391088557e+00dB,-9.07000861098224e+01°)
1.28233058265601e+05	(-7.89680295410218e+00dB,-9.07017001315086e+01°)
1.28528665994361e+05	(-7.87680199290405e+00dB,-9.07033178749841e+01°)
1.28824955169313e+05	(-7.85680102727082e+00dB,-9.07049393488359e+01°)
1.29121927361353e+05	(-7.83680005718203e+00dB,-9.07065645616711e+01°)
1.29419584144998e+05	(-7.81679908261713e+00dB,-9.07081935221164e+01°)
1.29717927098395e+05	(-7.79679810355547e+00dB,-9.07098262388188e+01°)
1.30016957803328e+05	(-7.77679711997632e+00dB,-9.07114627204451e+01°)
1.30316677845229e+05	(-7.75679613185884e+00dB,-9.07131029756820e+01°)
1.30617088813183e+05	(-7.73679513918209e+00dB,-9.07147470132364e+01°)
1.30918192299940e+05	(-7.71679414192504e+00dB,-9.07163948418355e+01°)
1.31219989901919e+05	(-7.69679314006658e+00dB,-9.07180464702264e+01°)
1.31522483219223e+05	(-7.67679213358547e+00dB,-9.07197019071765e+01°)
1.31825673855640e+05	(-7.65679112246039e+00dB,-9.07213611614735e+01°)
1.32129563418657e+05	(-7.63679010666994e+00dB,-9.07230242419255e+01°)
1.32434153519466e+05	(-7.61678908619258e+00dB,-9.07246911573608e+01°)
1.32739445772973e+05	(-7.59678806100669e+00dB,-9.07263619166281e+01°)
1.33045441797808e+05	(-7.57678703109057e+00dB,-9.07280365285968e+01°)
1.33352143216332e+05	(-7.55678599642240e+00dB,-9.07297150021566e+01°)
1.33659551654643e+05	(-7.53678495698025e+00dB,-9.07313973462176e+01°)
1.33967668742593e+05	(-7.51678391274211e+00dB,-9.07330835697109e+01°)
1.34276496113785e+05	(-7.49678286368587e+00dB,-9.07347736815880e+01°)
1.34586035405594e+05	(-7.47678180978929e+00dB,-9.07364676908210e+01°)
1.34896288259164e+05	(-7.45678075103005e+00dB,-9.07381656064030e+01°)
1.35207256319427e+05	(-7.43677968738573e+00dB,-9.07398674373477e+01°)
1.35518941235103e+05	(-7.41677861883379e+00dB,-9.07415731926897e+01°)
1.35831344658714e+05	(-7.39677754535160e+00dB,-9.07432828814845e+01°)
1.36144468246594e+05	(-7.37677646691643e+00dB,-9.07449965128085e+01°)
1.36458313658891e+05	(-7.35677538350543e+00dB,-9.07467140957591e+01°)
1.36772882559584e+05	(-7.33677429509564e+00dB,-9.07484356394548e+01°)
1.37088176616484e+05	(-7.31677320166401e+00dB,-9.07501611530350e+01°)
1.37404197501251e+05	(-7.29677210318740e+00dB,-9.07518906456605e+01°)
1.37720946889394e+05	(-7.27677099964251e+00dB,-9.07536241265131e+01°)
1.38038426460288e+05	(-7.25676989100598e+00dB,-9.07553616047958e+01°)
1.38356637897177e+05	(-7.23676877725434e+00dB,-9.07571030897330e+01°)
1.38675582887188e+05	(-7.21676765836398e+00dB,-9.07588485905703e+01°)
1.38995263121334e+05	(-7.19676653431121e+00dB,-9.07605981165748e+01°)
1.39315680294529e+05	(-7.17676540507222e+00dB,-9.07623516770351e+01°)
1.39636836105593e+05	(-7.15676427062309e+00dB,-9.07641092812609e+01°)
1.39958732257261e+05	(-7.13676313093979e+00dB,-9.07658709385839e+01°)
1.40281370456195e+05	(-7.11676198599818e+00dB,-9.07676366583571e+01°)
1.40604752412990e+05	(-7.09676083577403e+00dB,-9.07694064499552e+01°)
1.40928879842186e+05	(-7.07675968024294e+00dB,-9.07711803227746e+01°)
1.41253754462274e+05	(-7.05675851938047e+00dB,-9.07729582862333e+01°)
1.41579377995707e+05	(-7.03675735316201e+00dB,-9.07747403497712e+01°)
1.41905752168908e+05	(-7.01675618156286e+00dB,-9.07765265228502e+01°)
1.42232878712281e+05	(-6.99675500455823e+00dB,-9.07783168149536e+01°)
1.42560759360218e+05	(-6.97675382212316e+00dB,-9.07801112355871e+01°)
1.42889395851109e+05	(-6.95675263423262e+00dB,-9.07819097942782e+01°)
1.43218789927353e+05	(-6.93675144086146e+00dB,-9.07837125005764e+01°)
1.43548943335364e+05	(-6.91675024198439e+00dB,-9.07855193640533e+01°)
1.43879857825583e+05	(-6.89674903757603e+00dB,-9.07873303943028e+01°)
1.44211535152486e+05	(-6.87674782761087e+00dB,-9.07891456009407e+01°)
1.44543977074592e+05	(-6.85674661206327e+00dB,-9.07909649936053e+01°)
1.44877185354475e+05	(-6.83674539090751e+00dB,-9.07927885819570e+01°)
1.45211161758773e+05	(-6.81674416411770e+00dB,-9.07946163756786e+01°)
1.45545908058195e+05	(-6.79674293166787e+00dB,-9.07964483844755e+01°)
1.45881426027534e+05	(-6.77674169353193e+00dB,-9.07982846180752e+01°)
1.46217717445671e+05	(-6.75674044968364e+00dB,-9.08001250862279e+01°)
1.46554784095590e+05	(-6.73673920009668e+00dB,-9.08019697987064e+01°)
1.46892627764385e+05	(-6.71673794474456e+00dB,-9.08038187653060e+01°)
1.47231250243271e+05	(-6.69673668360071e+00dB,-9.08056719958447e+01°)
1.47570653327588e+05	(-6.67673541663842e+00dB,-9.08075295001632e+01°)
1.47910838816820e+05	(-6.65673414383086e+00dB,-9.08093912881248e+01°)
1.48251808514594e+05	(-6.63673286515106e+00dB,-9.08112573696160e+01°)
1.48593564228699e+05	(-6.61673158057196e+00dB,-9.08131277545459e+01°)
1.48936107771090e+05	(-6.59673029006634e+00dB,-9.08150024528465e+01°)
1.49279440957898e+05	(-6.57672899360689e+00dB,-9.08168814744729e+01°)
1.49623565609442e+05	(-6.55672769116614e+00dB,-9.08187648294032e+01°)
1.49968483550236e+05	(-6.53672638271651e+00dB,-9.08206525276385e+01°)
1.50314196609001e+05	(-6.51672506823029e+00dB,-9.08225445792031e+01°)
1.50660706618673e+05	(-6.49672374767965e+00dB,-9.08244409941445e+01°)
1.51008015416414e+05	(-6.47672242103662e+00dB,-9.08263417825335e+01°)
1.51356124843619e+05	(-6.45672108827312e+00dB,-9.08282469544640e+01°)
1.51705036745932e+05	(-6.43671974936091e+00dB,-9.08301565200536e+01°)
1.52054752973248e+05	(-6.41671840427164e+00dB,-9.08320704894429e+01°)
1.52405275379728e+05	(-6.39671705297683e+00dB,-9.08339888727962e+01°)
1.52756605823806e+05	(-6.37671569544786e+00dB,-9.08359116803014e+01°)
1.53108746168202e+05	(-6.35671433165600e+00dB,-9.08378389221696e+01°)
1.53461698279928e+05	(-6.33671296157235e+00dB,-9.08397706086360e+01°)
1.53815464030302e+05	(-6.31671158516791e+00dB,-9.08417067499592e+01°)
1.54170045294954e+05	(-6.29671020241353e+00dB,-9.08436473564216e+01°)
1.54525443953840e+05	(-6.27670881327994e+00dB,-9.08455924383294e+01°)
1.54881661891247e+05	(-6.25670741773771e+00dB,-9.08475420060125e+01°)
1.55238700995807e+05	(-6.23670601575730e+00dB,-9.08494960698250e+01°)
1.55596563160506e+05	(-6.21670460730902e+00dB,-9.08514546401448e+01°)
1.55955250282694e+05	(-6.19670319236305e+00dB,-9.08534177273737e+01°)
1.56314764264094e+05	(-6.17670177088942e+00dB,-9.08553853419377e+01°)
1.56675107010813e+05	(-6.15670034285805e+00dB,-9.08573574942870e+01°)
1.57036280433354e+05	(-6.13669890823868e+00dB,-9.08593341948959e+01°)
1.57398286446620e+05	(-6.11669746700095e+00dB,-9.08613154542628e+01°)
1.57761126969933e+05	(-6.09669601911434e+00dB,-9.08633012829107e+01°)
1.58124803927037e+05	(-6.07669456454819e+00dB,-9.08652916913866e+01°)
1.58489319246110e+05	(-6.05669310327171e+00dB,-9.08672866902623e+01°)
1.58854674859776e+05	(-6.03669163525395e+00dB,-9.08692862901338e+01°)
1.59220872705115e+05	(-6.01669016046384e+00dB,-9.08712905016217e+01°)
1.59587914723672e+05	(-5.99668867887014e+00dB,-9.08732993353710e+01°)
1.59955802861465e+05	(-5.97668719044149e+00dB,-9.08753128020518e+01°)
1.60324539069002e+05	(-5.95668569514637e+00dB,-9.08773309123583e+01°)
1.60694125301286e+05	(-5.93668419295313e+00dB,-9.08793536770100e+01°)
1.61064563517825e+05	(-5.91668268382995e+00dB,-9.08813811067509e+01°)
1.61435855682647e+05	(-5.89668116774489e+00dB,-9.08834132123498e+01°)
1.61808003764305e+05	(-5.87667964466586e+00dB,-9.08854500046008e+01°)
1.62181009735891e+05	(-5.85667811456060e+00dB,-9.08874914943226e+01°)
1.62554875575047e+05	(-5.83667657739672e+00dB,-9.08895376923592e+01°)
1.62929603263970e+05	(-5.81667503314167e+00dB,-9.08915886095795e+01°)
1.63305194789432e+05	(-5.79667348176277e+00dB,-9.08936442568776e+01°)
1.63681652142779e+05	(-5.77667192322717e+00dB,-9.08957046451731e+01°)
1.64058977319952e+05	(-5.75667035750187e+00dB,-9.08977697854105e+01°)
1.64437172321491e+05	(-5.73666878455371e+00dB,-9.08998396885599e+01°)
1.64816239152549e+05	(-5.71666720434942e+00dB,-9.09019143656166e+01°)
1.65196179822900e+05	(-5.69666561685553e+00dB,-9.09039938276015e+01°)
1.65576996346951e+05	(-5.67666402203843e+00dB,-9.09060780855609e+01°)
1.65958690743754e+05	(-5.65666241986436e+00dB,-9.09081671505668e+01°)
1.66341265037015e+05	(-5.63666081029940e+00dB,-9.09102610337168e+01°)
1.66724721255104e+05	(-5.61665919330948e+00dB,-9.09123597461341e+01°)
1.67109061431069e+05	(-5.59665756886038e+00dB,-9.09144632989678e+01°)
1.67494287602642e+05	(-5.57665593691769e+00dB,-9.09165717033926e+01°)
1.67880401812254e+05	(-5.55665429744687e+00dB,-9.09186849706095e+01°)
1.68267406107045e+05	(-5.53665265041323e+00dB,-9.09208031118448e+01°)
1.68655302538872e+05	(-5.51665099578188e+00dB,-9.09229261383514e+01°)
1.69044093164324e+05	(-5.49664933351781e+00dB,-9.09250540614079e+01°)
1.69433780044731e+05	(-5.47664766358583e+00dB,-9.09271868923192e+01°)
1.69824365246172e+05	(-5.45664598595059e+00dB,-9.09293246424162e+01°)
1.70215850839493e+05	(-5.43664430057657e+00dB,-9.09314673230562e+01°)
1.70608238900310e+05	(-5.41664260742810e+00dB,-9.09336149456228e+01°)
1.71001531509027e+05	(-5.39664090646935e+00dB,-9.09357675215258e+01°)
1.71395730750840e+05	(-5.37663919766430e+00dB,-9.09379250622015e+01°)
1.71790838715757e+05	(-5.35663748097678e+00dB,-9.09400875791128e+01°)
1.72186857498599e+05	(-5.33663575637046e+00dB,-9.09422550837491e+01°)
1.72583789199018e+05	(-5.31663402380883e+00dB,-9.09444275876263e+01°)
1.72981635921508e+05	(-5.29663228325522e+00dB,-9.09466051022871e+01°)
1.73380399775412e+05	(-5.27663053467279e+00dB,-9.09487876393008e+01°)
1.73780082874935e+05	(-5.25662877802453e+00dB,-9.09509752102637e+01°)
1.74180687339159e+05	(-5.23662701327325e+00dB,-9.09531678267987e+01°)
1.74582215292048e+05	(-5.21662524038161e+00dB,-9.09553655005559e+01°)
1.74984668862463e+05	(-5.19662345931208e+00dB,-9.09575682432122e+01°)
1.75388050184174e+05	(-5.17662167002695e+00dB,-9.09597760664715e+01°)
1.75792361395867e+05	(-5.15661987248837e+00dB,-9.09619889820650e+01°)
1.76197604641161e+05	(-5.13661806665827e+00dB,-9.09642070017510e+01°)
1.76603782068614e+05	(-5.11661625249846e+00dB,-9.09664301373150e+01°)
1.77010895831740e+05	(-5.09661442997052e+00dB,-9.09686584005698e+01°)
1.77418948089014e+05	(-5.07661259903588e+00dB,-9.09708918033556e+01°)
1.77827941003890e+05	(-5.05661075965581e+00dB,-9.09731303575400e+01°)
1.78237876744807e+05	(-5.03660891179135e+00dB,-9.09753740750182e+01°)
1.78648757485203e+05	(-5.01660705540341e+00dB,-9.09776229677128e+01°)
1.79060585403527e+05	(-4.99660519045270e+00dB,-9.09798770475741e+01°)
1.79473362683250e+05	(-4.97660331689975e+00dB,-9.09821363265802e+01°)
1.79887091512876e+05	(-4.95660143470490e+00dB,-9.09844008167367e+01°)
1.80301774085954e+05	(-4.93659954382833e+00dB,-9.09866705300772e+01°)
1.80717412601090e+05	(-4.91659764423002e+00dB,-9.09889454786632e+01°)
1.81134009261958e+05	(-4.89659573586977e+00dB,-9.09912256745841e+01°)
1.81551566277311e+05	(-4.87659381870719e+00dB,-9.09935111299571e+01°)
1.81970085860996e+05	(-4.85659189270171e+00dB,-9.09958018569280e+01°)
1.82389570231961e+05	(-4.83658995781257e+00dB,-9.09980978676702e+01°)
1.82810021614272e+05	(-4.81658801399882e+00dB,-9.10003991743855e+01°)
1.83231442237119e+05	(-4.79658606121934e+00dB,-9.10027057893043e+01°)
1.83653834334832e+05	(-4.77658409943280e+00dB,-9.10050177246848e+01°)
1.84077200146893e+05	(-4.75658212859768e+00dB,-9.10073349928140e+01°)
1.84501541917945e+05	(-4.73658014867227e+00dB,-9.10096576060071e+01°)
1.84926861897805e+05	(-4.71657815961468e+00dB,-9.10119855766082e+01°)
1.85353162341478e+05	(-4.69657616138283e+00dB,-9.10143189169897e+01°)
1.85780445509167e+05	(-4.67657415393442e+00dB,-9.10166576395527e+01°)
1.86208713666284e+05	(-4.65657213722699e+00dB,-9.10190017567272e+01°)
1.86637969083464e+05	(-4.63657011121784e+00dB,-9.10213512809719e+01°)
1.87068214036577e+05	(-4.61656807586412e+00dB,-9.10237062247745e+01°)
1.87499450806739e+05	(-4.59656603112277e+00dB,-9.10260666006514e+01°)
1.87931681680324e+05	(-4.57656397695051e+00dB,-9.10284324211483e+01°)
1.88364908948977e+05	(-4.55656191330387e+00dB,-9.10308036988398e+01°)
1.88799134909627e+05	(-4.53655984013920e+00dB,-9.10331804463298e+01°)
1.89234361864495e+05	(-4.51655775741263e+00dB,-9.10355626762512e+01°)
1.89670592121112e+05	(-4.49655566508008e+00dB,-9.10379504012663e+01°)
1.90107827992327e+05	(-4.47655356309730e+00dB,-9.10403436340668e+01°)
1.90546071796322e+05	(-4.45655145141981e+00dB,-9.10427423873738e+01°)
1.90985325856621e+05	(-4.43654933000292e+00dB,-9.10451466739380e+01°)
1.91425592502106e+05	(-4.41654719880176e+00dB,-9.10475565065394e+01°)
1.91866874067026e+05	(-4.39654505777124e+00dB,-9.10499718979877e+01°)
1.92309172891013e+05	(-4.37654290686605e+00dB,-9.10523928611226e+01°)
