# Hz S DB R 50
! CMT, M5065, 19127446, 24.2.4/2
! Date: 11/8/2024 3:54:38 PM
! Data: Format (Calibration Info)
! Freq	S11:dB/Ang(F2)	S21:dB/Ang(F2)	S12:dB/Ang(F2)	S22:dB/Ang(F2)
3.00000000000E+05	-1.73554441111E+01	-1.55982034092E+02	6.99799203810E+00	-1.77852064280E+02	-5.70561957312E+01	1.09879695528E+02	-5.83565857589E+00	-3.35102158311E-01
3.22191354595E+05	-1.52606849932E+01	-1.64547142237E+02	7.01845863462E+00	-1.77995056230E+02	-4.60309320940E+01	7.31118435254E+01	-5.83474641836E+00	-3.02916954806E-01
3.44382709190E+05	-2.03318902984E+01	-1.23411528297E+02	7.01553046133E+00	-1.78513506052E+02	-4.79497577337E+01	9.77819420603E+01	-5.84827448291E+00	-4.10083411404E-01
3.66574063785E+05	-1.69465336260E+01	1.54257157311E+02	7.03740826374E+00	-1.78679193579E+02	-5.19772305302E+01	1.66556264150E+02	-5.84340935796E+00	-2.13803584830E-01
3.88765418380E+05	-1.64768648804E+01	-1.29090344109E+02	7.05050142031E+00	-1.79063852903E+02	-5.09453762166E+01	-1.56400674865E+02	-5.83459680001E+00	-4.36366369438E-01
4.10956772975E+05	-1.68110087715E+01	1.76033950940E+02	6.98425465027E+00	-1.79064686688E+02	-5.12555489576E+01	-3.33190960472E+01	-5.83495914524E+00	-3.12599331503E-01
4.33148127570E+05	-1.83691165027E+01	1.68794069580E+02	7.04664488891E+00	-1.79062847979E+02	-5.34634808749E+01	-7.72999581435E+01	-5.87959344206E+00	-3.60820097937E-01
4.55339482165E+05	-1.47108341861E+01	1.65182849575E+02	7.01612173707E+00	-1.79333523580E+02	-4.16203812035E+01	8.68581754663E+01	-5.84503456952E+00	-3.05327841207E-01
4.77530836760E+05	-1.98264540007E+01	1.79281554954E+02	7.06538731488E+00	-1.79652982187E+02	-4.45040853752E+01	8.99833390484E+01	-5.83572396319E+00	-3.28587940955E-01
4.99722191355E+05	-2.26008655580E+01	-1.77820945967E+02	7.08721247122E+00	1.79846122866E+02	-3.76461235251E+01	2.23715881187E+01	-5.86189562783E+00	-5.08309116449E-01
5.21913545950E+05	-1.90485162534E+01	-1.63339326928E+02	7.06227537987E+00	1.79912959674E+02	-4.72551153996E+01	8.27987157845E+01	-5.86063799266E+00	-4.31474364234E-01
5.44104900545E+05	-1.89213591136E+01	-1.65333942516E+02	7.04684817118E+00	1.79676986516E+02	-6.68491932060E+01	1.64754770962E+02	-5.83610774498E+00	-3.29906053751E-01
5.66296255139E+05	-1.83140796648E+01	1.78829100618E+02	7.05540508420E+00	1.79456142954E+02	-4.38353358298E+01	1.67349192906E+02	-5.84452288543E+00	-3.21556087843E-01
5.88487609734E+05	-1.97748454448E+01	-1.55444221763E+02	7.04736602070E+00	1.79298655210E+02	-4.85798617784E+01	-9.37757373290E+01	-5.83948629438E+00	-2.63672860282E-01
6.10678964329E+05	-1.99141293628E+01	-1.49127964793E+02	7.08737287895E+00	1.79028370798E+02	-4.55522984312E+01	-1.06773061138E+02	-5.83174764285E+00	1.35179345127E-01
6.32870318924E+05	-1.75153791709E+01	-1.54744333437E+02	7.04600739152E+00	1.79133527024E+02	-5.51548657218E+01	1.23871350562E+02	-5.84995168944E+00	-1.33723079404E-01
6.55061673519E+05	-1.57770111483E+01	-1.64961680786E+02	7.06310465930E+00	1.78879362638E+02	-5.13886020512E+01	-8.16569950400E+01	-5.84474345606E+00	-3.82509105013E-01
6.77253028114E+05	-1.96544129834E+01	-1.79116183256E+02	7.05167167423E+00	1.78474834353E+02	-4.29203764400E+01	3.83226410824E+01	-5.85974297670E+00	-8.10765384546E-01
6.99444382709E+05	-1.69664978712E+01	-1.67200810550E+02	7.02841031484E+00	1.78390030342E+02	-4.26200274096E+01	-7.09040107923E+01	-5.85798819819E+00	-4.48302728278E-01
7.21635737304E+05	-1.46678229406E+01	1.76191778332E+02	6.98526302759E+00	1.78461961244E+02	-5.12571231225E+01	-2.34586403143E+01	-5.83465982817E+00	-4.39700539940E-01
7.43827091899E+05	-1.69024163051E+01	-1.59344837026E+02	7.04015905232E+00	1.77915803320E+02	-5.33898961145E+01	-9.36131123753E+01	-5.84278294542E+00	-5.86112288638E-01
7.66018446494E+05	-2.16157079842E+01	-1.70141282492E+02	7.03590983609E+00	1.78298811326E+02	-4.29381799744E+01	-1.12395646752E+02	-5.84120633425E+00	-2.90046258216E-01
7.88209801089E+05	-1.30357287726E+01	-1.51316315488E+02	7.06689753506E+00	1.77579152073E+02	-5.22628320225E+01	1.30498815266E+02	-5.83066571990E+00	-4.37475055962E-01
8.10401155684E+05	-1.51509822980E+01	-1.67700501195E+02	7.07031631652E+00	1.77602431635E+02	-4.35769416610E+01	1.13170285106E+02	-5.84737258206E+00	-5.59829228229E-01
8.32592510279E+05	-1.92396731331E+01	-1.67264682092E+02	7.04256592074E+00	1.77660298710E+02	-5.10592667480E+01	-8.13951069984E+01	-5.84649884720E+00	-3.60204956374E-01
8.54783864874E+05	-1.61856258111E+01	1.77730928190E+02	7.03901636038E+00	1.77590273662E+02	-3.94125279186E+01	1.79116616851E+02	-5.80970439419E+00	-4.26096014285E-01
8.76975219469E+05	-1.78777138352E+01	-1.62480066386E+02	7.05867995301E+00	1.77406304115E+02	-4.37621219282E+01	1.52081953075E+02	-5.81340816404E+00	-4.33708949210E-01
8.99166574064E+05	-1.86587058741E+01	1.63746809974E+02	7.03402846822E+00	1.77350380676E+02	-4.41904315871E+01	9.05925031623E+01	-5.82648623953E+00	-3.50912538239E-01
9.21357928659E+05	-2.13365111830E+01	-1.52298492688E+02	7.05585685280E+00	1.77065662254E+02	-5.34131660595E+01	1.06737893117E+02	-5.84365774448E+00	-5.92641406673E-01
9.43549283254E+05	-1.33750812357E+01	1.65073076126E+02	6.99420430698E+00	1.77269045499E+02	-4.81627260626E+01	-5.18416023978E+01	-5.87190458496E+00	-4.45651449914E-01
9.65740637849E+05	-1.58608082003E+01	1.77979710295E+02	7.02647933971E+00	1.76911911410E+02	-5.11686211160E+01	1.21355618057E+02	-5.85191209426E+00	-4.34451499542E-01
9.87931992444E+05	-1.88978677538E+01	1.46576886449E+02	7.05013496241E+00	1.77001252954E+02	-4.24715576294E+01	-7.32804643617E+01	-5.84787323020E+00	-3.01638999642E-01
1.01012334704E+06	-1.33723679584E+01	1.59923960526E+02	6.99339429758E+00	1.76939049196E+02	-5.35255401490E+01	5.95118207945E+01	-5.86097842804E+00	-4.73641898371E-01
1.03231470163E+06	-1.87219286806E+01	-1.64812960142E+02	7.04985230345E+00	1.76490315471E+02	-4.50756051978E+01	-3.82478497978E+01	-5.84756191746E+00	-6.39160864334E-01
1.05450605623E+06	-1.44392638922E+01	1.62280327890E+02	7.01307653912E+00	1.76618365658E+02	-4.71040234101E+01	1.06976542462E+02	-5.84221535662E+00	-6.66180895782E-01
1.07669741082E+06	-1.98069041858E+01	-1.45146395169E+02	7.08577263746E+00	1.76385750970E+02	-4.76012570316E+01	-2.03407880066E+01	-5.83341665447E+00	-5.21917546892E-01
1.09888876542E+06	-1.36621108253E+01	-1.53068278311E+02	7.07553840139E+00	1.76145605063E+02	-5.01541312075E+01	-2.35684970770E+01	-5.85849419587E+00	-5.52111644375E-01
1.12108012001E+06	-1.79227870626E+01	1.66195288938E+02	7.02864147165E+00	1.76258905389E+02	-4.50587408166E+01	1.42503172725E+02	-5.85242874989E+00	-5.35768064441E-01
1.14327147461E+06	-1.42631476753E+01	1.76388569603E+02	7.01978261632E+00	1.76084520003E+02	-4.73827968861E+01	1.27400008893E+02	-5.84712014049E+00	-6.59188109694E-01
1.16546282920E+06	-2.69800610193E+01	-1.23879091599E+02	7.11357208858E+00	1.75771313188E+02	-3.68576562749E+01	-1.49822371352E+02	-5.84055082817E+00	-5.18597719304E-01
1.18765418380E+06	-1.81168886675E+01	1.64424709333E+02	7.05286638140E+00	1.75597735067E+02	-3.66405723019E+01	-1.90496803357E+00	-5.85410741502E+00	-4.82073223347E-01
1.20984553839E+06	-1.20598457666E+01	-1.63896549952E+02	7.02703465200E+00	1.75393883379E+02	-4.99963926550E+01	1.36604261152E+02	-5.84392311585E+00	-8.17000815795E-01
1.23203689299E+06	-1.76345270809E+01	-1.65363480394E+02	7.09254163778E+00	1.75468690194E+02	-5.14997719087E+01	1.67210508207E+02	-5.83895375730E+00	-4.05779871756E-01
1.25422824758E+06	-1.26415288203E+01	-1.45741727562E+02	7.06316879114E+00	1.75327421703E+02	-4.73184545448E+01	-9.90877444487E+01	-5.84551465867E+00	-7.06459093131E-01
1.27641960218E+06	-2.09412059322E+01	1.75109176413E+02	7.06027860113E+00	1.75672427535E+02	-4.92956269615E+01	-4.11915237794E+01	-5.84197834114E+00	-4.33491081766E-01
1.29861095677E+06	-1.78640697915E+01	-1.51746594043E+02	7.06373664451E+00	1.75045267996E+02	-4.36863932721E+01	2.36063875107E+01	-5.84534629316E+00	-6.94970723817E-01
1.32080231137E+06	-2.01518808293E+01	1.72101765595E+02	7.06289716225E+00	1.75369609294E+02	-4.67892436369E+01	-4.32177904193E+01	-5.82074292257E+00	-8.97339021848E-01
1.34299366596E+06	-1.83332146878E+01	1.64150293761E+02	7.05971604223E+00	1.75251043972E+02	-4.34719522071E+01	-1.77548328864E+02	-5.83207869152E+00	-7.93366793644E-01
1.36518502056E+06	-1.74712418323E+01	-1.64809960427E+02	7.06968527789E+00	1.74787693237E+02	-4.23305301241E+01	1.09969619184E+02	-5.84001268599E+00	-7.61773627705E-01
1.38737637515E+06	-2.45778889421E+01	-1.41715808909E+02	7.05947044055E+00	1.74742982215E+02	-4.77374711365E+01	1.42477844264E+02	-5.85398827922E+00	-6.90658976969E-01
1.40956772975E+06	-1.15568943136E+01	-1.52506048415E+02	7.01774944287E+00	1.74246744559E+02	-3.95276795597E+01	-5.09641255398E+01	-5.87099138555E+00	-6.42492134431E-01
1.43175908434E+06	-1.47227077522E+01	-1.72783896915E+02	7.04441892361E+00	1.74614347224E+02	-4.87354439225E+01	1.76261569078E+02	-5.83457645935E+00	-7.31662526922E-01
1.45395043894E+06	-1.71910184663E+01	1.77581485245E+02	7.02880266431E+00	1.74619727576E+02	-4.08582867462E+01	-7.28072777868E+01	-5.87896897319E+00	-6.94710603510E-01
1.47614179353E+06	-1.87537016347E+01	1.74007152100E+02	7.01605825943E+00	1.74369697891E+02	-5.45996235392E+01	4.73001723328E+01	-5.84587879776E+00	-6.83487125896E-01
1.49833314813E+06	-1.92095182392E+01	1.48306631091E+02	7.09717424110E+00	1.74531815762E+02	-4.32670984182E+01	1.15282614596E+02	-5.81043660955E+00	-8.11302412204E-01
1.52052450272E+06	-1.57736809229E+01	-1.59315736909E+02	7.01416746763E+00	1.74057651566E+02	-4.76718212731E+01	2.94504513185E+01	-5.83273988455E+00	-9.30263910918E-01
1.54271585732E+06	-2.19139983294E+01	1.44152361770E+02	7.07175014876E+00	1.74390315268E+02	-3.95214229262E+01	1.28117667930E+02	-5.80691615492E+00	-9.63933788303E-01
1.56490721191E+06	-1.25903614997E+01	-1.12298548146E+02	7.11445557699E+00	1.73903098489E+02	-4.40984781513E+01	-1.06511758140E+02	-5.84542686357E+00	-7.85949782018E-01
1.58709856651E+06	-1.54205873028E+01	-1.67583620468E+02	7.06289431802E+00	1.73928247465E+02	-4.77055976117E+01	-9.18572986466E+01	-5.84078666289E+00	-6.30320540373E-01
1.60928992110E+06	-2.23919223808E+01	1.78678249062E+02	7.08931997500E+00	1.73871711857E+02	-4.69640188535E+01	-1.37660868845E+02	-5.85012721955E+00	-6.64208008452E-01
1.63148127570E+06	-1.67639218206E+01	-1.46785723631E+02	7.07776826770E+00	1.73305782312E+02	-4.80311651599E+01	7.23880118731E+01	-5.84325450496E+00	-9.57057591483E-01
1.65367263029E+06	-1.84673935079E+01	-1.75528709145E+02	7.04921945018E+00	1.73422439952E+02	-3.76466241210E+01	-6.85984477255E+01	-5.87051022020E+00	-7.20105143740E-01
1.67586398489E+06	-1.45140632823E+01	-1.67264901647E+02	7.07454077775E+00	1.73355278219E+02	-4.48427560476E+01	9.19590936398E+01	-5.83713796258E+00	-8.78861874155E-01
1.69805533948E+06	-1.87669774256E+01	-1.70529230963E+02	7.04439773790E+00	1.73362799566E+02	-4.14962491488E+01	-1.95738181749E+01	-5.85702771427E+00	-9.27880492363E-01
1.72024669408E+06	-1.73102398461E+01	-1.62134498583E+02	7.05698179059E+00	1.73111473376E+02	-4.26578676537E+01	3.48809929855E+01	-5.84693230571E+00	-1.06968783411E+00
1.74243804867E+06	-1.77677852779E+01	-1.64654301682E+02	7.07603932928E+00	1.73037136801E+02	-4.96711384141E+01	1.48047114863E+02	-5.84364671171E+00	-8.32378848541E-01
1.76462940327E+06	-1.64826830036E+01	-1.64824555302E+02	7.05096166594E+00	1.72735779865E+02	-4.66602571178E+01	1.52691560265E+02	-5.85707646005E+00	-1.06025482586E+00
1.78682075786E+06	-1.83173786708E+01	-1.68481337759E+02	7.07876356894E+00	1.72742608173E+02	-5.82471398163E+01	4.70873280978E+01	-5.83775668246E+00	-9.30885508663E-01
1.80901211246E+06	-1.42747723302E+01	-1.76850435249E+02	7.01343832465E+00	1.72719889437E+02	-3.84246952043E+01	1.74742746929E+02	-5.79800756031E+00	-7.55156636144E-01
1.83120346705E+06	-1.48744649516E+01	-1.69865355849E+02	7.02114053359E+00	1.72564491576E+02	-3.71642701726E+01	-1.40363346960E+02	-5.82734184361E+00	-7.79615300649E-01
1.85339482165E+06	-1.68632117106E+01	-1.75351542321E+02	7.07020094739E+00	1.72464637785E+02	-4.62017914466E+01	7.77122517657E+01	-5.86976975018E+00	-9.34879997580E-01
1.87558617624E+06	-7.53706249965E+00	-1.23617454519E+02	7.13042603170E+00	1.72084420711E+02	-4.50530632789E+01	1.41399549745E+02	-5.81009623587E+00	-9.79736865021E-01
1.89777753084E+06	-1.86375583328E+01	-1.62536212998E+02	7.07345090471E+00	1.72217862817E+02	-4.48709999483E+01	1.67801991760E+02	-5.84672085179E+00	-8.59316467586E-01
1.91996888543E+06	-2.06551196955E+01	-1.78428583946E+02	7.06688095696E+00	1.72373786229E+02	-5.12061591368E+01	-9.61451111070E+01	-5.87551387499E+00	-1.10440808464E+00
1.94216024003E+06	-1.49989805678E+01	1.71133086413E+02	7.04432081312E+00	1.72083253380E+02	-5.00411756898E+01	1.76689569631E+02	-5.83198119599E+00	-8.30423984888E-01
1.96435159462E+06	-1.80277512030E+01	-1.74391015109E+02	7.04030345064E+00	1.71979908570E+02	-3.06185156334E+01	1.36210255092E+02	-5.78715626906E+00	-1.03581934457E+00
1.98654294922E+06	-1.50060646653E+01	-1.41830569735E+02	7.08150609713E+00	1.71817237476E+02	-4.18948041068E+01	3.85203531482E+01	-5.84832524561E+00	-1.09023909484E+00
2.00873430381E+06	-1.55827362310E+01	-1.72202899915E+02	7.10050150387E+00	1.71826025256E+02	-4.25945361116E+01	1.57116159342E+02	-5.80590377424E+00	-9.19467034616E-01
2.03092565841E+06	-1.79714411297E+01	1.39982193112E+02	7.05484697415E+00	1.72043514607E+02	-4.14789919982E+01	-7.53179586398E+01	-5.85433252554E+00	-9.22044206191E-01
2.05311701300E+06	-1.64173711201E+01	-1.61678279766E+02	7.05319738198E+00	1.71404399362E+02	-4.49955897850E+01	-1.69208810298E+02	-5.86186968535E+00	-9.94175055183E-01
2.07530836760E+06	-1.31809034457E+01	-1.73487439588E+02	7.04120713735E+00	1.71410651148E+02	-5.06503708827E+01	1.44596296432E+02	-5.84688822624E+00	-1.08369055157E+00
2.09749972219E+06	-1.46917610094E+01	-1.59987066586E+02	7.04990667536E+00	1.71297376507E+02	-5.22778494556E+01	1.16783258413E+02	-5.82947937159E+00	-1.10251504523E+00
2.11969107679E+06	-2.45564588418E+01	-1.39871625192E+02	7.08182358319E+00	1.71321695683E+02	-3.27016787087E+01	-1.58211504591E+02	-5.82408718797E+00	-8.15205615710E-01
2.14188243138E+06	-1.80210932529E+01	-1.78776324650E+02	7.02623288983E+00	1.71311084071E+02	-4.37619351327E+01	-1.22966515740E+02	-5.84251234499E+00	-1.07113936640E+00
2.16407378598E+06	-1.62767609996E+01	1.58908510930E+02	7.04287958447E+00	1.71420155211E+02	-5.49380444516E+01	4.83743950211E+00	-5.85936162242E+00	-1.07123578192E+00
2.18626514057E+06	-1.27043152196E+01	1.76678489478E+02	7.02437189282E+00	1.70828176841E+02	-5.33200517133E+01	1.79550626472E+02	-5.82532883513E+00	-1.13987775967E+00
2.20845649517E+06	-1.83273096084E+01	1.73597147025E+02	7.10316496978E+00	1.70894615643E+02	-4.66141275445E+01	9.46970826735E-01	-5.84646480605E+00	-1.07466510881E+00
2.23064784976E+06	-1.91860517937E+01	-1.78749379868E+02	7.07250321837E+00	1.70926264355E+02	-4.48740950628E+01	-1.60124222924E+02	-5.83307376452E+00	-1.20549248964E+00
2.25283920436E+06	-1.68973261813E+01	-1.51611206541E+02	7.06648885793E+00	1.70664595792E+02	-4.47028271043E+01	1.45543839243E+02	-5.83568193134E+00	-1.13332203661E+00
2.27503055895E+06	-1.57394525974E+01	1.79669967222E+02	7.08081811578E+00	1.70777326267E+02	-3.40483734650E+01	9.07237497453E+01	-5.83532482635E+00	-1.25732821231E+00
2.29722191355E+06	-2.44334008721E+01	-1.66508208461E+02	7.08221717274E+00	1.70756550446E+02	-4.45780159146E+01	-1.14459813372E+02	-5.86778639445E+00	-1.12231543361E+00
2.31941326814E+06	-1.56123961748E+01	-1.79617880614E+02	7.05400126043E+00	1.70319558772E+02	-5.03483988739E+01	-4.47946786624E+01	-5.84302046865E+00	-1.09791910034E+00
2.34160462274E+06	-1.13559101059E+01	1.68405542782E+02	7.00945529220E+00	1.69990519314E+02	-5.32739514863E+01	-3.66058816572E+01	-5.83581185327E+00	-1.17598489918E+00
2.36379597733E+06	-1.64993495528E+01	1.65449862556E+02	7.06156738676E+00	1.70525671364E+02	-5.75711395576E+01	-7.45752382651E+01	-5.84788152990E+00	-1.17511905600E+00
2.38598733193E+06	-2.37899017981E+01	-1.79613922374E+02	7.12433234464E+00	1.70266549008E+02	-4.94367095989E+01	1.36397832518E+02	-5.83194207756E+00	-1.24018994549E+00
2.40817868652E+06	-2.30484834315E+01	1.65827428407E+02	7.10051057066E+00	1.70110218248E+02	-4.78392188825E+01	1.03499862884E+02	-5.83675673119E+00	-1.43062657573E+00
2.43037004112E+06	-1.70440492881E+01	-1.56204948107E+02	7.09340682363E+00	1.70028705589E+02	-3.35767739207E+01	4.96994372148E+00	-5.85921959540E+00	-1.71258257346E+00
2.45256139571E+06	-1.67399039953E+01	1.71005485434E+02	7.06190578660E+00	1.69888078763E+02	-3.90289377742E+01	-1.61500711451E+02	-5.83540661723E+00	-1.10383727184E+00
2.47475275031E+06	-1.93129474724E+01	-1.69487425961E+02	7.09275826438E+00	1.69932112480E+02	-4.81608819545E+01	-1.46136317503E+02	-5.83760380379E+00	-1.04331538574E+00
2.49694410490E+06	-1.37034798392E+01	1.15343841116E+02	7.05767731989E+00	1.70196615923E+02	-4.43920936958E+01	-6.89471795605E+01	-5.84201448101E+00	-1.17527392095E+00
2.51913545950E+06	-1.93451106752E+01	-1.18298446729E+02	7.11941918829E+00	1.69674822006E+02	-4.28220817471E+01	5.12150529145E+01	-5.83934930435E+00	-1.23961247381E+00
2.54132681409E+06	-1.55669255287E+01	-1.72077714683E+02	7.06191724465E+00	1.69222746997E+02	-5.93424721867E+01	8.07991396618E+01	-5.84528936157E+00	-1.26753832111E+00
2.56351816869E+06	-1.83564736414E+01	1.61066431906E+02	7.04142018930E+00	1.69507469615E+02	-4.76643538840E+01	-8.56848892100E+01	-5.84919276555E+00	-1.13100048181E+00
2.58570952328E+06	-1.43529353661E+01	-1.56011626410E+02	7.06573166825E+00	1.69017010362E+02	-4.73125993361E+01	-1.29058367873E+02	-5.84325617603E+00	-1.35156803578E+00
2.60790087788E+06	-1.63059205083E+01	-1.60334302251E+02	7.10777307342E+00	1.69034726210E+02	-3.79424572083E+01	8.63544804432E+01	-5.83338525941E+00	-1.25846704874E+00
2.63009223247E+06	-1.61965844830E+01	-1.79779589527E+02	7.05452270549E+00	1.69091507842E+02	-4.15358387497E+01	2.81488543984E+01	-5.87997711257E+00	-8.68167971432E-01
2.65228358707E+06	-1.44566976036E+01	-1.35889600483E+02	7.12768263224E+00	1.68768691166E+02	-4.35762069509E+01	7.59196802163E+00	-5.84972819802E+00	-1.43395069582E+00
2.67447494166E+06	-1.19930548108E+01	-1.59654184561E+02	7.08811080612E+00	1.68667219527E+02	-4.65330041984E+01	-6.71410847951E+01	-5.86031783879E+00	-1.27396298646E+00
2.69666629626E+06	-1.87852370104E+01	1.78263927077E+02	7.11635860390E+00	1.68803599878E+02	-4.30599717078E+01	1.37278258966E+02	-5.84006663226E+00	-1.30220223390E+00
2.71885765085E+06	-1.85361244338E+01	-1.72250972163E+02	7.10353565310E+00	1.68559593500E+02	-4.96384991626E+01	-6.90574141219E+01	-5.87288287862E+00	-1.31575485006E+00
2.74104900545E+06	-1.63415976036E+01	-1.53810498061E+02	7.09970073981E+00	1.68572921135E+02	-4.02654995854E+01	-2.73471683757E+01	-5.84210872458E+00	-1.24486164285E+00
2.76324036004E+06	-1.90758605292E+01	-1.50250254607E+02	7.08675797779E+00	1.68340379330E+02	-4.32249118469E+01	-1.29433120196E+02	-5.82242235843E+00	-1.28424648481E+00
2.78543171463E+06	-1.73033107352E+01	-1.52616910552E+02	7.11351779611E+00	1.68182748530E+02	-5.73615247097E+01	-2.86293260831E+01	-5.85063777498E+00	-1.40540798003E+00
2.80762306923E+06	-1.42860224669E+01	1.64275183452E+02	7.04929900685E+00	1.68578855757E+02	-4.25731071209E+01	-4.22357679491E+01	-5.86025874785E+00	-1.33957030256E+00
2.82981442382E+06	-1.31500504354E+01	-1.24263451747E+02	7.13645949834E+00	1.67913347820E+02	-5.42299777258E+01	1.68137006392E+02	-5.85242266736E+00	-1.42033519692E+00
2.85200577842E+06	-1.97616067426E+01	-1.69148561800E+02	7.13111893033E+00	1.68157347996E+02	-4.00268918716E+01	-1.64722860066E+02	-5.84765496987E+00	-1.43177482559E+00
2.87419713301E+06	-2.14546620800E+01	-1.71626378214E+02	7.10111222559E+00	1.68148915130E+02	-4.48075309647E+01	2.30087858502E+01	-5.84894892559E+00	-1.43058361901E+00
