# Hz S DB R 50
! CMT, M5065, 19127446, 24.2.4/2
! Date: 11/8/2024 3:58:39 PM
! Data: Format (Calibration Info)
! Freq	S11:dB/Ang(F2)	S21:dB/Ang(F2)	S12:dB/Ang(F2)	S22:dB/Ang(F2)
3.00000000000E+05	-1.56067271289E+01	-1.68338716205E+02	8.34767025811E+00	-1.77763112055E+02	-4.48009501832E+01	-1.26005109589E+02	-5.84514145281E+00	-1.59591314690E-01
3.22191354595E+05	-1.57510970736E+01	1.73236762153E+02	8.32445873674E+00	-1.77891544848E+02	-4.54890225754E+01	-3.38502575950E+01	-5.83770019050E+00	-2.70972314736E-01
3.44382709190E+05	-1.70145105343E+01	1.76378853705E+02	8.33857078534E+00	-1.78211843586E+02	-4.54584127990E+01	-9.50351683223E+01	-5.85379200294E+00	-1.92350046224E-01
3.66574063785E+05	-1.41868155250E+01	1.73744205268E+02	8.32878862893E+00	-1.78530110605E+02	-4.60665941504E+01	-1.29862412711E+00	-5.85071875688E+00	-4.32534562949E-01
3.88765418380E+05	-1.63136616473E+01	1.38484445694E+02	8.34034316736E+00	-1.78659436017E+02	-4.04956942617E+01	9.05758137677E+01	-5.91040858873E+00	-3.92881166096E-01
4.10956772975E+05	-2.21458170812E+01	1.62923941520E+02	8.35359846725E+00	-1.78959943364E+02	-5.10635015818E+01	4.12823014321E+01	-5.84810124507E+00	-3.88694184677E-01
4.33148127570E+05	-2.17052247619E+01	-1.57604374998E+02	8.36133713464E+00	-1.79444669703E+02	-4.60055995278E+01	-1.38676879161E+02	-5.84290862011E+00	-1.24612251123E-01
4.55339482165E+05	-1.35658814690E+01	1.71353546798E+02	8.29365332349E+00	-1.79522286937E+02	-4.43829219704E+01	6.42490962281E+01	-5.85725371926E+00	-3.84734233195E-01
4.77530836760E+05	-1.61431163671E+01	1.46803712560E+02	8.36320103755E+00	-1.79562668896E+02	-4.57431570471E+01	1.65360497889E+02	-5.84778918112E+00	-1.89575147983E-01
4.99722191355E+05	-1.54248720857E+01	-1.79189580505E+02	8.32557499009E+00	1.79836812676E+02	-4.07217164888E+01	-1.45653465883E+02	-5.83563474385E+00	-1.95992762865E-01
5.21913545950E+05	-1.89903097608E+01	-1.52439094800E+02	8.37627900638E+00	1.79710982514E+02	-4.72557877368E+01	-3.12856514414E+01	-5.87679942926E+00	-3.93910694185E-01
5.44104900545E+05	-1.57290548184E+01	-1.75158664093E+02	8.33395970198E+00	1.79615206627E+02	-4.45920214746E+01	1.76961736745E+02	-5.81714226793E+00	-4.29007108074E-01
5.66296255139E+05	-1.74352846467E+01	-1.71960936106E+02	8.37129086482E+00	1.79055183264E+02	-3.81526034076E+01	-1.59524840069E+02	-5.81370521110E+00	-2.31715768697E-01
5.88487609734E+05	-1.18991050208E+01	1.71290960933E+02	8.31174198887E+00	1.79206253162E+02	-4.04542822093E+01	1.20110226479E+01	-5.84181230404E+00	-3.30228102745E-01
6.10678964329E+05	-1.72123159988E+01	-1.59345140603E+02	8.36481183064E+00	1.79121385586E+02	-4.90872593918E+01	1.21262270487E+02	-5.85931558038E+00	1.72464747459E-01
6.32870318924E+05	-1.43076748286E+01	1.68887636724E+02	8.32551872995E+00	1.78874514803E+02	-4.39629082689E+01	6.63826492861E+01	-5.83904746646E+00	-3.68508313880E-02
6.55061673519E+05	-1.64971219103E+01	1.51586038275E+02	8.36849815162E+00	1.78740973510E+02	-4.21458665966E+01	-1.98964356624E+01	-5.85894080370E+00	-3.85874587163E-01
6.77253028114E+05	-1.54140143331E+01	-1.57420463813E+02	8.39956382294E+00	1.78216379282E+02	-3.93453244748E+01	-7.77346701046E+01	-5.85209299452E+00	-5.88074641743E-01
6.99444382709E+05	-1.70826145486E+01	-1.45589165625E+02	8.37046136889E+00	1.78157220799E+02	-3.99170648831E+01	1.74457278576E+02	-5.81840313631E+00	-3.43167912363E-01
7.21635737304E+05	-1.74017584855E+01	-1.78343302965E+02	8.36358995960E+00	1.78359059263E+02	-3.70894250793E+01	1.75131112229E+02	-5.81665743560E+00	-3.56695492700E-01
7.43827091899E+05	-1.71806553982E+01	1.70564172454E+02	8.34811877290E+00	1.77912399074E+02	-4.68592214735E+01	-1.10086223765E+02	-5.82944925076E+00	-4.14740372453E-01
7.66018446494E+05	-1.39968063887E+01	-1.62973875658E+02	8.34090238636E+00	1.77785282942E+02	-4.27412965077E+01	1.32432996874E+02	-5.84876454005E+00	-6.01519207445E-01
7.88209801089E+05	-1.63090232652E+01	1.70614586823E+02	8.35168377266E+00	1.77598628430E+02	-4.82003316584E+01	-2.78647954390E+01	-5.85676638103E+00	-5.13698935483E-01
8.10401155684E+05	-1.43750000266E+01	1.76079672429E+02	8.34610717462E+00	1.77578820706E+02	-4.11622028147E+01	1.49014612218E+02	-5.82084231454E+00	-5.10293259732E-01
8.32592510279E+05	-1.56751601554E+01	1.43832461067E+02	8.34908412684E+00	1.77780427911E+02	-4.63174979523E+01	-1.51874957496E+02	-5.83670594136E+00	-3.46872131704E-01
8.54783864874E+05	-1.68894822043E+01	1.74193697322E+02	8.35707648128E+00	1.77393935662E+02	-4.09216671354E+01	1.48908325442E+02	-5.83657226858E+00	-4.46226727331E-01
8.76975219469E+05	-1.75176943901E+01	1.69719550722E+02	8.36915459552E+00	1.77131484430E+02	-4.29656220026E+01	-3.03559120056E+01	-5.86167460173E+00	-4.35018676106E-01
8.99166574064E+05	-1.85318854981E+01	-1.65063124686E+02	8.37140694149E+00	1.77172088933E+02	-6.29230810826E+01	-1.32814038845E+02	-5.85294425798E+00	-5.32867308455E-01
9.21357928659E+05	-1.66114625174E+01	-1.58400573545E+02	8.37658739182E+00	1.76755878305E+02	-4.36890152496E+01	-1.61492076410E+02	-5.84965322741E+00	-4.06743972260E-01
9.43549283254E+05	-2.35453305569E+01	1.74232306199E+02	8.42114016054E+00	1.76742879707E+02	-4.24710588393E+01	2.21002571004E+01	-5.85801210041E+00	-5.79803610157E-01
9.65740637849E+05	-1.34627640772E+01	-1.76263992521E+02	8.34262865731E+00	1.76484991163E+02	-4.66463319504E+01	1.48046620916E+02	-5.81693412605E+00	-5.30880823981E-01
9.87931992444E+05	-1.72253119738E+01	-1.75016823357E+02	8.38309232382E+00	1.76341494885E+02	-3.84627028717E+01	-1.77256714050E+02	-5.82960292447E+00	-4.48131163385E-01
1.01012334704E+06	-2.17550611538E+01	1.68838923574E+02	8.38560877211E+00	1.76651110158E+02	-4.23214712685E+01	4.78713396728E+00	-5.85622069361E+00	-5.87712754977E-01
1.03231470163E+06	-1.62658551564E+01	-1.77803223652E+02	8.35143616813E+00	1.76132965322E+02	-4.62380792006E+01	-1.58118420879E+02	-5.83184743615E+00	-5.52525236295E-01
1.05450605623E+06	-1.27712378798E+01	-1.79062382049E+02	8.32503922673E+00	1.76161813764E+02	-4.36381383627E+01	-7.36930201817E+00	-5.84362131439E+00	-5.43875929698E-01
1.07669741082E+06	-1.43243367037E+01	1.73823070579E+02	8.35687950984E+00	1.76145922099E+02	-4.64511362611E+01	9.17122595911E+01	-5.86581385436E+00	-7.08898777226E-01
1.09888876542E+06	-1.89022172458E+01	-1.77508144560E+02	8.38726942083E+00	1.75720546695E+02	-4.61155497277E+01	8.96033299423E+01	-5.84268695122E+00	-6.35651362632E-01
1.12108012001E+06	-2.03718417606E+01	1.63826145031E+02	8.37864790839E+00	1.75727700091E+02	-4.24250100552E+01	5.44550100539E+01	-5.86219483146E+00	-5.93743140741E-01
1.14327147461E+06	-1.52492543746E+01	1.54515573695E+02	8.34951859556E+00	1.75780939883E+02	-3.92492806467E+01	-2.62600246266E+01	-5.84409548276E+00	-6.07491274592E-01
1.16546282920E+06	-1.88820897992E+01	1.78935296263E+02	8.37890713800E+00	1.75677252832E+02	-3.96128355678E+01	1.23460935443E+02	-5.83323920912E+00	-6.69343112697E-01
1.18765418380E+06	-1.63570390682E+01	-1.61370276716E+02	8.37971650097E+00	1.75216948019E+02	-3.47992038601E+01	-4.79959138510E+01	-5.86313056890E+00	-5.81606798848E-01
1.20984553839E+06	-2.60117836244E+01	-1.69796610407E+02	8.39157621611E+00	1.75506025660E+02	-4.36762709580E+01	1.66399605554E+02	-5.83731150720E+00	-7.27394030444E-01
1.23203689299E+06	-1.73220978922E+01	-1.65126261317E+02	8.36156207839E+00	1.75294169072E+02	-6.73838165584E+01	-2.38004243677E+00	-5.84512743155E+00	-3.34699560651E-01
1.25422824758E+06	-1.57648298077E+01	-1.76180248701E+02	8.38090455728E+00	1.74957399250E+02	-4.56253451797E+01	-1.14200182552E+02	-5.84121239911E+00	-5.34884317627E-01
1.27641960218E+06	-1.31904834741E+01	-1.74536045463E+02	8.33736779109E+00	1.74779142872E+02	-4.44194028315E+01	-6.43619741780E+01	-5.85804513466E+00	-4.51488263139E-01
1.29861095677E+06	-1.84482892864E+01	-1.62009776366E+02	8.33293015697E+00	1.74578284856E+02	-4.59192474211E+01	-7.16259554927E+01	-5.84559928953E+00	-6.06381207891E-01
1.32080231137E+06	-1.87331319734E+01	1.72844819617E+02	8.37697874783E+00	1.74612819746E+02	-3.98886846208E+01	-3.82587538803E+01	-5.86595073071E+00	-9.27395220948E-01
1.34299366596E+06	-2.04519610554E+01	-1.65548358354E+02	8.38167177666E+00	1.74589624643E+02	-4.10325613434E+01	9.52745520997E+01	-5.84377838970E+00	-7.02432605354E-01
1.36518502056E+06	-1.98014420320E+01	1.75173792023E+02	8.34598029602E+00	1.74418580785E+02	-5.34881418551E+01	2.91731727120E+01	-5.86293558113E+00	-7.05107419055E-01
1.38737637515E+06	-2.14412715714E+01	-9.49060108553E+01	8.41684148282E+00	1.74446363000E+02	-4.75591357778E+01	1.74335282145E+02	-5.84619958528E+00	-8.15726155143E-01
1.40956772975E+06	-1.50128683007E+01	-1.73772479684E+02	8.33678480069E+00	1.74204285784E+02	-4.04696263875E+01	1.33180991285E+02	-5.81951162064E+00	-8.40101602784E-01
1.43175908434E+06	-1.84284702193E+01	1.31487303002E+02	8.37460075520E+00	1.74487131327E+02	-4.87569672019E+01	-3.61148645451E+00	-5.85173712576E+00	-7.52329214160E-01
1.45395043894E+06	-1.55422249520E+01	1.78354959979E+02	8.33641755506E+00	1.73629614453E+02	-4.30409177522E+01	-1.73706583681E+02	-5.83664252369E+00	-7.53618047099E-01
1.47614179353E+06	-1.56668374478E+01	-1.67476810775E+02	8.36415200306E+00	1.73979837471E+02	-4.40072605418E+01	-1.35656960901E+01	-5.85798763777E+00	-8.36818440006E-01
1.49833314813E+06	-2.04591791338E+01	-1.73157714630E+02	8.37460247785E+00	1.73701199756E+02	-4.15465015782E+01	1.01466823014E+02	-5.83955079760E+00	-8.09995061108E-01
1.52052450272E+06	-1.76468345486E+01	1.26672326281E+02	8.35384899016E+00	1.74038423889E+02	-4.62626213547E+01	9.81302653100E+01	-5.81166252594E+00	-9.70451301580E-01
1.54271585732E+06	-1.91838824442E+01	4.09390179520E+01	8.33771222455E+00	1.73788451403E+02	-4.05258055211E+01	1.54480329581E+02	-5.82752531355E+00	-8.47830263894E-01
1.56490721191E+06	-1.50508574596E+01	-1.54953478658E+02	8.38423837955E+00	1.73191514317E+02	-4.51405062072E+01	-1.33437961047E+02	-5.84954197346E+00	-6.29941788015E-01
1.58709856651E+06	-1.52867247839E+01	-1.61503820332E+02	8.37997360708E+00	1.73059715798E+02	-5.38280026284E+01	2.74283754399E+01	-5.85151548317E+00	-8.06313290408E-01
1.60928992110E+06	-1.60370747850E+01	-1.54555708817E+02	8.34965995608E+00	1.72944475012E+02	-4.31801790929E+01	-2.60360108011E+01	-5.85168812747E+00	-7.32260075140E-01
1.63148127570E+06	-1.87803652592E+01	-1.65570537370E+02	8.37012689602E+00	1.73029948859E+02	-3.87879199134E+01	1.08274643782E+01	-5.85526417851E+00	-9.28431056942E-01
1.65367263029E+06	-1.40148048029E+01	-1.71755257844E+02	8.33974374793E+00	1.72917853577E+02	-3.47550634579E+01	4.10090054009E+01	-5.88030041997E+00	-1.02836732706E+00
1.67586398489E+06	-1.79306945509E+01	1.54818260069E+02	8.35603571160E+00	1.72986356437E+02	-4.86322454521E+01	-1.22354889514E+02	-5.83234082778E+00	-8.00723757203E-01
1.69805533948E+06	-8.31707639283E+00	1.60363803003E+02	8.28284254770E+00	1.72608125310E+02	-4.16691035099E+01	7.20205520535E+01	-5.84281746451E+00	-1.05129987167E+00
1.72024669408E+06	-1.70925458720E+01	1.62417148564E+02	8.35068040141E+00	1.72724803052E+02	-4.92973977747E+01	-3.50166268286E+01	-5.85204888310E+00	-8.42734589095E-01
1.74243804867E+06	-1.66500323907E+01	-1.32118246116E+02	8.40484012537E+00	1.72123623660E+02	-4.13896428017E+01	1.59684410958E+02	-5.83461246808E+00	-8.89191154814E-01
1.76462940327E+06	-1.82269401630E+01	1.73759154139E+02	8.35809044467E+00	1.72526580606E+02	-3.93220355555E+01	7.46752799753E+01	-5.84368756159E+00	-1.08924210565E+00
1.78682075786E+06	-1.53107189982E+01	1.55739230337E+02	8.35230223233E+00	1.72714223339E+02	-3.77746104937E+01	1.61688319736E+02	-5.82313595188E+00	-8.65010940728E-01
1.80901211246E+06	-2.26682614759E+01	1.68774747281E+02	8.40370851539E+00	1.72201263495E+02	-3.35499963026E+01	-1.03173934633E+01	-5.87061332944E+00	-9.74746433928E-01
1.83120346705E+06	-1.86285866860E+01	1.67975092206E+02	8.39011952041E+00	1.72070553210E+02	-4.59776249060E+01	-1.43071966567E+02	-5.84806374153E+00	-9.06903367078E-01
1.85339482165E+06	-1.06634354132E+01	1.77685053685E+02	8.32405890892E+00	1.71753878686E+02	-4.85216510959E+01	1.39303206144E+01	-5.85256109166E+00	-9.44499074216E-01
1.87558617624E+06	-1.57575816356E+01	-1.61293606785E+02	8.38246907899E+00	1.71797323847E+02	-4.65989585865E+01	7.05175459658E+01	-5.83007846627E+00	-9.31410945392E-01
1.89777753084E+06	-1.69919542759E+01	1.57624094061E+02	8.38272341623E+00	1.71794339718E+02	-3.73248348045E+01	7.21975386948E+01	-5.83900772844E+00	-1.19750019313E+00
1.91996888543E+06	-1.62095523696E+01	1.77065210668E+02	8.34449296818E+00	1.71709841847E+02	-4.36858446491E+01	6.77005244764E+01	-5.85609481560E+00	-1.13278836585E+00
1.94216024003E+06	-2.18377762440E+01	1.66986180944E+02	8.36027781196E+00	1.71624053985E+02	-3.32877556723E+01	-3.56981350914E+01	-5.88707530394E+00	-1.11449564699E+00
1.96435159462E+06	-1.43290075387E+01	1.64105772139E+02	8.35672824520E+00	1.71740411982E+02	-4.07163158303E+01	9.87992973750E+01	-5.83783718633E+00	-1.02860596825E+00
1.98654294922E+06	-1.85036802104E+01	-1.73587044429E+02	8.38120961544E+00	1.71240352304E+02	-4.53141264938E+01	4.97772095809E+00	-5.86656405907E+00	-9.98668464747E-01
2.00873430381E+06	-1.10919580400E+01	-1.51177395841E+02	8.38055495981E+00	1.70760122234E+02	-4.95327046664E+01	1.38773705302E+02	-5.83787109731E+00	-9.70747083776E-01
2.03092565841E+06	-1.74751462461E+01	-1.54904206452E+02	8.39628430831E+00	1.70900374968E+02	-4.17748133966E+01	-1.73061594243E+02	-5.83911272421E+00	-1.14157634443E+00
2.05311701300E+06	-1.83428804889E+01	-1.72201572635E+02	8.39096874149E+00	1.70934014087E+02	-4.95612477761E+01	1.07687667613E+02	-5.82042857133E+00	-1.12553031871E+00
2.07530836760E+06	-2.42900429692E+01	1.75279868706E+02	8.41555419345E+00	1.71019766823E+02	-4.85820139277E+01	-4.54062320280E+01	-5.86063490851E+00	-1.06563012843E+00
2.09749972219E+06	-1.33755478957E+01	-1.56484388690E+02	8.37757712633E+00	1.70608345852E+02	-4.00187314674E+01	1.16322685224E+02	-5.82336346781E+00	-1.14583044823E+00
2.11969107679E+06	-2.06799880239E+01	-1.71266898191E+02	8.40725642164E+00	1.70917327711E+02	-3.60660571979E+01	7.96789450479E+01	-5.83428558163E+00	-1.21088790244E+00
2.14188243138E+06	-1.56935664044E+01	-1.72289465085E+02	8.36744847400E+00	1.70430249188E+02	-4.93436954453E+01	-1.48270526150E+01	-5.85352222257E+00	-1.13969346480E+00
2.16407378598E+06	-1.29228922681E+01	1.50455501684E+02	8.31984225242E+00	1.70558668152E+02	-4.93381569159E+01	-1.40076334612E+02	-5.81200155455E+00	-1.01863841302E+00
2.18626514057E+06	-2.15460677805E+01	-1.64465304747E+02	8.41677567259E+00	1.70213559605E+02	-4.67891821539E+01	1.79964904662E+02	-5.84039524850E+00	-1.00769350340E+00
2.20845649517E+06	-1.68334184039E+01	1.76290065401E+02	8.37483323051E+00	1.70300732104E+02	-4.80289331468E+01	-1.72362674982E+02	-5.83815646920E+00	-1.10229524139E+00
2.23064784976E+06	-1.45374117573E+01	-1.79046063133E+02	8.36222596802E+00	1.70064691408E+02	-5.08883521698E+01	3.60374797008E+01	-5.86292536885E+00	-1.06715343048E+00
2.25283920436E+06	-1.92004743969E+01	-1.68902272957E+02	8.38028567553E+00	1.70064719148E+02	-3.79164429072E+01	1.34579155577E+02	-5.81835807807E+00	-1.13777738720E+00
2.27503055895E+06	-1.69132620014E+01	1.64367505893E+02	8.35912436769E+00	1.70093989968E+02	-3.69087764045E+01	-6.74737547585E+01	-5.86093006107E+00	-1.03509905643E+00
2.29722191355E+06	-1.34516210010E+01	-1.45578147687E+02	8.36600395783E+00	1.69145436694E+02	-4.09400512901E+01	8.21377894612E+01	-5.80944194926E+00	-1.29064295387E+00
2.31941326814E+06	-1.38874525855E+01	-1.41953009916E+02	8.44542354835E+00	1.69287783442E+02	-4.45653498135E+01	-3.50638399167E+01	-5.85410194173E+00	-1.17828768044E+00
2.34160462274E+06	-1.77761619846E+01	1.52158708693E+02	8.39082222558E+00	1.69762232742E+02	-4.22608650519E+01	1.31119943290E+02	-5.84441860433E+00	-1.21577746257E+00
2.36379597733E+06	-1.51785159726E+01	-1.46844494755E+02	8.41386963397E+00	1.69248189186E+02	-5.01802445900E+01	-2.77157310673E+00	-5.86703510548E+00	-1.21094924376E+00
2.38598733193E+06	-1.72548185891E+01	1.61434946850E+02	8.38415664066E+00	1.69443059057E+02	-4.56727946908E+01	1.17774727268E+02	-5.83934343847E+00	-1.10084726181E+00
2.40817868652E+06	-1.83294541556E+01	-1.63548482994E+02	8.38320859075E+00	1.69394230555E+02	-3.75060057833E+01	3.65294384492E+01	-5.86078673207E+00	-1.48981661676E+00
2.43037004112E+06	-2.07881678301E+01	1.46745118309E+02	8.37412034494E+00	1.69521085315E+02	-4.61056342576E+01	4.26447725684E+01	-5.86771218796E+00	-1.62746235533E+00
2.45256139571E+06	-2.42379160841E+01	1.63478903804E+02	8.40143970805E+00	1.69304015261E+02	-4.57107466035E+01	-5.96679848868E+01	-5.85032955152E+00	-1.05034357884E+00
2.47475275031E+06	-2.22824187402E+01	-1.34817523233E+02	8.41677381543E+00	1.68884895758E+02	-5.73871739819E+01	-1.35590163810E+02	-5.83909417685E+00	-1.12447673496E+00
2.49694410490E+06	-1.28777126102E+01	1.72744063505E+02	8.35940742600E+00	1.68576692057E+02	-4.80618866140E+01	-1.57439782023E+02	-5.85067503409E+00	-1.02538493221E+00
2.51913545950E+06	-1.53489161748E+01	-1.53685650908E+02	8.41406158893E+00	1.68555606808E+02	-5.30610900287E+01	-1.00264367339E+01	-5.86963750508E+00	-1.22233919214E+00
2.54132681409E+06	-1.42968048881E+01	-1.77073380538E+02	8.38221568335E+00	1.68511014881E+02	-4.38738142177E+01	-9.01138889493E+01	-5.85777765265E+00	-1.18438183761E+00
2.56351816869E+06	-1.70902229679E+01	-1.33825827246E+02	8.40142514799E+00	1.68228278615E+02	-3.86858767936E+01	5.09436392333E+01	-5.85157115364E+00	-1.33426844017E+00
2.58570952328E+06	-1.58752200842E+01	-1.61451476446E+02	8.38327645168E+00	1.68484896962E+02	-3.96843254678E+01	-1.38824779725E+02	-5.86160190332E+00	-1.13436391279E+00
2.60790087788E+06	-1.62003246882E+01	-1.74594528988E+02	8.37837888939E+00	1.68500894494E+02	-4.58417488256E+01	-1.37454672929E+02	-5.85216178027E+00	-1.15170724290E+00
2.63009223247E+06	-1.42867744422E+01	1.73763842833E+02	8.34736659402E+00	1.67978201961E+02	-4.82178259949E+01	6.94586177707E+01	-5.85349485087E+00	-1.08315733631E+00
2.65228358707E+06	-2.66760175068E+01	8.10653496823E+01	8.40555744006E+00	1.68461200993E+02	-4.29075505537E+01	1.50308585566E+02	-5.82482836080E+00	-1.28101365588E+00
2.67447494166E+06	-1.51704095616E+01	-1.66624443793E+02	8.41496166457E+00	1.68086039443E+02	-4.37749795726E+01	7.55417903054E+01	-5.84902847778E+00	-1.37849406183E+00
2.69666629626E+06	-1.72930133850E+01	1.39835199937E+02	8.37370111662E+00	1.68215008954E+02	-4.79438014477E+01	-1.53869694338E+02	-5.85567543739E+00	-1.21986424472E+00
2.71885765085E+06	-1.61336663449E+01	1.73511558174E+02	8.39395434542E+00	1.67740312188E+02	-3.76702739769E+01	-1.13333243383E+02	-5.83758075378E+00	-1.17289861691E+00
2.74104900545E+06	-2.39329029648E+01	-1.74518605701E+02	8.42500127063E+00	1.67944018861E+02	-3.60226353438E+01	1.33741489454E+02	-5.79763651069E+00	-1.40261759110E+00
2.76324036004E+06	-2.00122542547E+01	-1.49469977115E+02	8.41631214547E+00	1.67716665026E+02	-4.10996861384E+01	1.43215934243E+02	-5.84002384256E+00	-1.40809151409E+00
2.78543171463E+06	-1.54607616701E+01	1.59692088368E+02	8.35747734756E+00	1.67431720566E+02	-4.58293433498E+01	1.31575099675E+01	-5.87575067742E+00	-1.45529010235E+00
2.80762306923E+06	-1.75795930430E+01	1.44117978488E+02	8.36531626423E+00	1.67581715268E+02	-4.52906593670E+01	5.24379369516E-01	-5.86643254216E+00	-1.55512355593E+00
2.82981442382E+06	-2.00720984351E+01	-1.57366385023E+02	8.44539207944E+00	1.67376144157E+02	-5.72670956675E+01	-1.03839236782E+02	-5.84551684705E+00	-1.46875326890E+00
2.85200577842E+06	-1.91003883725E+01	1.64047572722E+02	8.43624288692E+00	1.67291001156E+02	-5.09771979966E+01	-1.66231158395E+02	-5.85372690557E+00	-1.37837866056E+00
2.87419713301E+06	-1.48718913314E+01	-1.64962820537E+02	8.38151931529E+00	1.66875434065E+02	-3.88058610169E+01	1.43143534718E+02	-5.80817340856E+00	-1.41441028380E+00
