# Hz S DB R 50
! CMT, M5065, 19127446, 24.2.4/2
! Date: 11/8/2024 4:14:17 PM
! Data: Format (Calibration Info)
! Freq	S11:dB/Ang(F2)	S21:dB/Ang(F2)	S12:dB/Ang(F2)	S22:dB/Ang(F2)
3.00000000000E+05	-1.86781958961E+01	1.59895310015E+02	1.77542762730E+01	-1.76337716206E+02	-4.17120597738E+01	-1.15456365870E+02	-5.82521791475E+00	-1.77099831734E-01
3.22191354595E+05	-2.21540190567E+01	1.70528036735E+02	1.77733691613E+01	-1.76937516598E+02	-4.55161146640E+01	3.72549938570E+01	-5.84311757500E+00	-5.00470141657E-01
3.44382709190E+05	-1.58405632396E+01	1.74991188518E+02	1.77528119327E+01	-1.77374747221E+02	-4.60637591767E+01	1.47285466908E+02	-5.81175936880E+00	-5.51656026303E-01
3.66574063785E+05	-1.64854933204E+01	1.79652945019E+02	1.77525037854E+01	-1.78196044889E+02	-5.09662714015E+01	1.75338938476E+02	-5.83180456049E+00	-3.12285426675E-01
3.88765418380E+05	-1.57767388811E+01	1.63945748054E+02	1.77453048154E+01	-1.78480292253E+02	-5.12130163347E+01	9.60636591946E+01	-5.85950386051E+00	-2.18518710184E-01
4.10956772975E+05	-1.86921965072E+01	-1.56354407145E+02	1.77903311109E+01	-1.79180788418E+02	-4.19622721260E+01	-7.42188904161E+01	-5.84522779683E+00	-2.16912060274E-01
4.33148127570E+05	-1.43449820609E+01	-1.75075998368E+02	1.77568650521E+01	-1.79756152134E+02	-3.88498015117E+01	-1.57340773894E+02	-5.80324413749E+00	-1.77035318712E-01
4.55339482165E+05	-1.46347365850E+01	-1.76284103323E+02	1.77561958397E+01	1.79985483107E+02	-5.98800414325E+01	-6.84303273987E+01	-5.84168670053E+00	-4.28939940381E-01
4.77530836760E+05	-1.69042029232E+01	-1.70840489574E+02	1.77728617963E+01	1.79521253051E+02	-4.68326984205E+01	-8.41546888077E+01	-5.83792573838E+00	-2.21214226746E-02
4.99722191355E+05	-1.69955856074E+01	-1.77472663081E+02	1.77437808765E+01	1.79235444349E+02	-4.37367128085E+01	-1.55576872436E+02	-5.80663555813E+00	-3.35978962455E-01
5.21913545950E+05	-1.99656513606E+01	-1.79745383625E+02	1.77907513511E+01	1.78886365711E+02	-4.74704101984E+01	7.00499568079E+01	-5.85598932692E+00	-5.24091483540E-01
5.44104900545E+05	-1.68695373697E+01	-1.64175490283E+02	1.77581681389E+01	1.78461548609E+02	-4.86855950433E+01	1.68556107604E+02	-5.78821233092E+00	-3.31204490650E-01
5.66296255139E+05	-1.38403766797E+01	-1.66372738371E+02	1.77322524919E+01	1.77990687647E+02	-3.98916450149E+01	1.35829665968E-01	-5.90030497680E+00	-4.10808294212E-01
5.88487609734E+05	-1.45865136205E+01	1.45341464846E+02	1.77660465878E+01	1.78112607791E+02	-4.66930855272E+01	1.00669865862E+02	-5.86953552762E+00	-4.22839649878E-01
6.10678964329E+05	-1.49779112151E+01	-1.68534609447E+02	1.77657194742E+01	1.77517741072E+02	-4.16793342663E+01	4.58548040482E+01	-5.84148273333E+00	5.71231311351E-02
6.32870318924E+05	-2.23724755373E+01	-1.65896150657E+02	1.77766940614E+01	1.77342029026E+02	-4.81694689467E+01	1.67199867657E+00	-5.88223859980E+00	-3.53335735920E-01
6.55061673519E+05	-2.28751817691E+01	-1.75262442223E+02	1.77908464930E+01	1.76975934479E+02	-4.68312591130E+01	1.30801794391E+02	-5.79653760946E+00	-3.97758562100E-01
6.77253028114E+05	-1.68402503012E+01	1.69615606737E+02	1.77669511472E+01	1.76639913863E+02	-6.22802350470E+01	-1.75970579655E+02	-5.80488482107E+00	-8.28356273776E-01
6.99444382709E+05	-2.21352377008E+01	-1.76981445797E+02	1.77886741704E+01	1.76490663004E+02	-3.85950111077E+01	-8.00531366358E+00	-5.90214050193E+00	-4.60134187329E-01
7.21635737304E+05	-2.27958907673E+01	1.41027181317E+02	1.77815656004E+01	1.76254196014E+02	-4.71046735984E+01	1.11372042339E+02	-5.82538617038E+00	-7.24582752870E-01
7.43827091899E+05	-1.60912937492E+01	1.54253112137E+02	1.77707267187E+01	1.75875365736E+02	-4.54161974183E+01	4.76634288396E+01	-5.83651672597E+00	-5.50590189302E-01
7.66018446494E+05	-1.76515273388E+01	-1.61517306767E+02	1.77592565905E+01	1.75366990050E+02	-4.45055392107E+01	3.35337535629E+01	-5.86116830712E+00	-4.97708978536E-01
7.88209801089E+05	-1.67931588668E+01	1.63930366447E+02	1.77525983564E+01	1.75527691590E+02	-5.80607121973E+01	-2.65515508855E+01	-5.84055805797E+00	-5.07743299452E-01
8.10401155684E+05	-1.82530386908E+01	-1.73268824370E+02	1.77676494437E+01	1.74925324072E+02	-4.03971051201E+01	5.92508781153E+01	-5.85425416627E+00	-7.62498969327E-01
8.32592510279E+05	-1.29397288725E+01	1.66885262572E+02	1.77339720140E+01	1.74756064099E+02	-5.26487870931E+01	2.15004068292E+01	-5.83281970993E+00	-5.11360505113E-01
8.54783864874E+05	-1.81261816540E+01	1.66737448741E+02	1.77658335773E+01	1.74633448365E+02	-4.96473839930E+01	-1.78770052871E+02	-5.81291411980E+00	-5.55373693098E-01
8.76975219469E+05	-1.79921938010E+01	-1.76360839874E+02	1.77466531342E+01	1.74304221039E+02	-4.30267619058E+01	-1.05928964697E+02	-5.82810035255E+00	-1.34289962507E-01
8.99166574064E+05	-2.06693532094E+01	-1.70748747033E+02	1.77610878504E+01	1.74043867739E+02	-3.92623198401E+01	-1.28312514161E+02	-5.87575693389E+00	-2.48259878794E-01
9.21357928659E+05	-2.35379143685E+01	-1.63203542748E+02	1.77696512022E+01	1.73702772665E+02	-4.67850175819E+01	1.19977771034E+02	-5.80701758182E+00	-6.61572384577E-01
9.43549283254E+05	-1.66461057623E+01	1.65688863524E+02	1.77500659909E+01	1.73759518876E+02	-5.60110148147E+01	1.45699854894E+02	-5.80662690017E+00	-4.35691985180E-01
9.65740637849E+05	-1.55929423038E+01	1.32591807237E+02	1.77405359706E+01	1.73702556888E+02	-4.43614597146E+01	-1.65152560268E+02	-5.79845900745E+00	-4.09601730840E-01
9.87931992444E+05	-1.50876409896E+01	-1.77779087587E+02	1.77154196652E+01	1.73129810369E+02	-4.62881507524E+01	8.23917323144E+01	-5.82280121014E+00	-6.06197884295E-01
1.01012334704E+06	-1.74324738563E+01	1.60914573932E+02	1.77507338786E+01	1.73039043108E+02	-5.66922094928E+01	9.49104022621E-01	-5.82219061773E+00	-5.00280899809E-01
1.03231470163E+06	-1.54269346500E+01	1.76822186573E+02	1.77509903388E+01	1.72548114730E+02	-3.98261732273E+01	8.40835391406E+01	-5.81412109912E+00	-9.49453400722E-01
1.05450605623E+06	-2.03544512750E+01	-1.78830098674E+02	1.77514900053E+01	1.72458322219E+02	-3.92825078526E+01	4.14506862315E+01	-5.85449416873E+00	-8.40894772289E-01
1.07669741082E+06	-2.26981060234E+01	-1.76312628317E+02	1.77904489786E+01	1.71480431147E+02	-5.25298789775E+01	5.86422172650E+01	-5.90188880992E+00	-9.71249131857E-01
1.09888876542E+06	-1.52236892154E+01	-1.74491088762E+02	1.77245711639E+01	1.71869094004E+02	-4.53338347138E+01	4.44081035466E+01	-5.87747765099E+00	-9.42926355259E-01
1.12108012001E+06	-1.61821815329E+01	1.66422045048E+02	1.77354312503E+01	1.71816737122E+02	-4.39640910818E+01	-1.48226158343E+02	-5.79935578293E+00	-4.59758598033E-01
1.14327147461E+06	-1.65832269260E+01	1.60740993458E+02	1.77367379731E+01	1.71650632419E+02	-4.77952351671E+01	-1.21726973432E+02	-5.82860163919E+00	-6.42117130484E-01
1.16546282920E+06	-1.59678959846E+01	1.72984930833E+02	1.77296757949E+01	1.71301635773E+02	-4.61643023385E+01	1.39035579020E+01	-5.85824342686E+00	-6.89737614833E-01
1.18765418380E+06	-1.42958087112E+01	-1.56296796109E+02	1.77330022884E+01	1.70805229568E+02	-4.54812437054E+01	-1.71295803058E+02	-5.80846726144E+00	-4.89538328817E-01
1.20984553839E+06	-8.77383213119E+00	1.79221699253E+02	1.76687097951E+01	1.70640932817E+02	-3.53368486417E+01	1.43669223618E+02	-5.76606600478E+00	-9.72524995189E-01
1.23203689299E+06	-1.47360399461E+01	-1.60068940876E+02	1.77173958976E+01	1.70411361754E+02	-4.57549739036E+01	-5.55850110920E+01	-5.86245734069E+00	-1.68877184057E-01
1.25422824758E+06	-1.81743861662E+01	1.60824782839E+02	1.77351727483E+01	1.70496928105E+02	-5.38224207923E+01	1.74277157633E+02	-5.81788817059E+00	-8.92142349687E-01
1.27641960218E+06	-2.92113643464E+01	-1.25541330536E+02	1.77724448668E+01	1.70190240871E+02	-4.45317756184E+01	5.02105967588E+01	-5.86713530364E+00	-8.36114077070E-01
1.29861095677E+06	-2.14122765261E+01	-1.64839760212E+02	1.77590125242E+01	1.69956003392E+02	-4.83975463403E+01	1.70987716735E+02	-5.83140609339E+00	-6.02913523162E-01
1.32080231137E+06	-1.77120031677E+01	-1.63746509710E+02	1.77336906609E+01	1.69606069034E+02	-4.85278000893E+01	1.01518345844E+02	-5.81701553474E+00	-1.18123844027E+00
1.34299366596E+06	-2.28475902070E+01	1.23167793622E+02	1.77409931455E+01	1.69716811444E+02	-4.52414598450E+01	1.22530569828E+02	-5.80262221677E+00	-7.89800064984E-01
1.36518502056E+06	-1.72816632457E+01	1.41985104795E+02	1.77094642184E+01	1.69506882487E+02	-3.76299353570E+01	1.41250242955E+02	-5.79604952787E+00	-6.74272910347E-01
1.38737637515E+06	-1.85226725487E+01	-1.56040178589E+02	1.77372707703E+01	1.69060738765E+02	-3.39770521709E+01	4.03678526537E+01	-5.89187986774E+00	-1.42653844334E+00
1.40956772975E+06	-1.98706449963E+01	1.66601703630E+02	1.77210939624E+01	1.69109211643E+02	-4.58520609285E+01	-1.00444580016E+02	-5.87411409324E+00	-6.39587346069E-01
1.43175908434E+06	-1.66298656288E+01	1.78112153493E+02	1.77155430962E+01	1.68767439447E+02	-4.45333997119E+01	7.55063166358E+01	-5.81976942078E+00	-9.96670898126E-01
1.45395043894E+06	-1.63119091762E+01	-1.68438867369E+02	1.76790377262E+01	1.68395395930E+02	-4.47916344941E+01	-1.35200555966E+02	-5.82220689970E+00	-5.91213036776E-01
1.47614179353E+06	-1.68021119583E+01	1.51804075882E+02	1.76881573386E+01	1.68327846509E+02	-4.59370266616E+01	1.37095464072E+02	-5.79880379038E+00	-8.66526310268E-01
1.49833314813E+06	-1.70632620941E+01	-1.60831494443E+02	1.77262801586E+01	1.67885912043E+02	-4.29801691109E+01	-2.60464709837E+01	-5.87365290739E+00	-6.59351612619E-01
1.52052450272E+06	-1.57738025727E+01	1.69047071314E+02	1.77133180061E+01	1.67914246894E+02	-3.16623908825E+01	-1.12362603739E+02	-5.80428759175E+00	-5.60921950833E-02
1.54271585732E+06	-1.80763570266E+01	1.73365839221E+02	1.77260931459E+01	1.67744946834E+02	-3.88506113169E+01	1.48983804522E+02	-5.78831803028E+00	-7.13023505851E-01
1.56490721191E+06	-1.98507437121E+01	1.52844641091E+02	1.77189233464E+01	1.67693915031E+02	-5.91675312554E+01	-9.48749815276E+01	-5.84929856979E+00	-5.51265522415E-01
1.58709856651E+06	-1.75184998551E+01	-1.71914359338E+02	1.77080155494E+01	1.67248390152E+02	-5.08851785211E+01	1.76769365041E+02	-5.82246916930E+00	-9.93332755203E-01
1.60928992110E+06	-1.74846248787E+01	-1.49805684265E+02	1.77218175930E+01	1.66754590554E+02	-5.15747583632E+01	4.38729703916E+01	-5.85231241163E+00	-9.48572916956E-01
1.63148127570E+06	-2.27892445777E+01	-1.66266281083E+02	1.77542584030E+01	1.66893787942E+02	-4.11159150592E+01	1.24039233065E+02	-5.77991401470E+00	-9.81280747605E-01
1.65367263029E+06	-2.14036400876E+01	-1.12383856783E+02	1.77446581895E+01	1.66491468207E+02	-4.25852586444E+01	1.01027750257E+02	-5.82782969443E+00	-1.16239026393E+00
1.67586398489E+06	-1.30209045548E+01	-1.64854630828E+02	1.76889656228E+01	1.66484664974E+02	-4.35075116060E+01	1.52496627980E+02	-5.82692115179E+00	-8.75919866467E-01
1.69805533948E+06	-2.11858681752E+01	1.76292483787E+02	1.77219928587E+01	1.66333541408E+02	-4.57576350265E+01	-1.65073416689E+02	-5.82817111065E+00	-8.56722818891E-01
1.72024669408E+06	-2.99836646755E+01	1.65003554841E+02	1.77473887375E+01	1.66179366538E+02	-5.05754553898E+01	1.12903418630E+02	-5.83393445913E+00	-1.07054329747E+00
1.74243804867E+06	-1.75793930068E+01	1.54967973987E+02	1.76833537437E+01	1.65873757244E+02	-4.73807483403E+01	7.14125499596E+01	-5.87688191099E+00	-9.96079293852E-01
1.76462940327E+06	-2.54159273755E+01	1.71031893741E+02	1.77210148308E+01	1.65658666937E+02	-3.91983599485E+01	7.85541259939E+01	-5.80854584613E+00	-1.36250604397E+00
1.78682075786E+06	-1.73032858780E+01	-1.16869631133E+02	1.77426986661E+01	1.65205258542E+02	-4.12296628642E+01	1.03043660152E+02	-5.80630480136E+00	-1.10410628511E+00
1.80901211246E+06	-2.46217581287E+01	-1.45213634401E+02	1.77157820252E+01	1.65255666479E+02	-4.73638348107E+01	9.20772383954E+01	-5.83469789466E+00	-9.27619461685E-01
1.83120346705E+06	-1.38820394210E+01	1.73775903945E+02	1.76620822523E+01	1.64819810868E+02	-5.65165453240E+01	3.42107240699E+01	-5.85327009093E+00	-8.94761084666E-01
1.85339482165E+06	-1.19759438435E+01	-1.72892588959E+02	1.76504694050E+01	1.64448952280E+02	-3.78476802675E+01	-1.13680409023E+02	-5.82373693103E+00	-4.94838989192E-01
1.87558617624E+06	-1.41773618839E+01	-1.54369076779E+02	1.76841292970E+01	1.64247540415E+02	-4.32417641821E+01	-9.29914477602E+00	-5.88731616627E+00	-9.61472095361E-01
1.89777753084E+06	-1.52990465311E+01	-1.72024716070E+02	1.76775211240E+01	1.64369045893E+02	-4.32430449590E+01	-2.72015791079E+01	-5.87939585773E+00	-8.04187678993E-01
1.91996888543E+06	-2.60345081678E+01	1.45408358760E+02	1.77267455942E+01	1.64315883293E+02	-5.02451452434E+01	-8.02248058648E+01	-5.84740797096E+00	-9.32498700410E-01
1.94216024003E+06	-1.60850031915E+01	-1.78354903232E+02	1.76673722707E+01	1.63962736943E+02	-4.84000556037E+01	-1.58664171409E+02	-5.79774857169E+00	-9.36066060056E-01
1.96435159462E+06	-1.88330586337E+01	1.57955068713E+02	1.76975178783E+01	1.63901171132E+02	-4.06515311049E+01	-6.93936790864E+01	-5.87117694576E+00	-8.42100006351E-01
1.98654294922E+06	-1.81962510779E+01	1.70956062510E+02	1.77076733077E+01	1.63644608391E+02	-3.49585651157E+01	1.65948836042E+02	-5.76354484058E+00	-8.07363300734E-01
2.00873430381E+06	-1.33881216668E+01	1.79874250073E+02	1.76573083549E+01	1.63239167332E+02	-3.83966391581E+01	-9.13185807636E+01	-5.85671705348E+00	-6.84840858716E-01
2.03092565841E+06	-1.41661939229E+01	1.68338007590E+02	1.76651727107E+01	1.63093116138E+02	-4.69914783424E+01	-7.98789382626E+01	-5.85518775147E+00	-9.66282785744E-01
2.05311701300E+06	-1.74223535299E+01	-1.47893683382E+02	1.77115587087E+01	1.62803618081E+02	-5.54981595196E+01	1.21007067121E+02	-5.82916858710E+00	-1.11117375685E+00
2.07530836760E+06	-2.03524022255E+01	1.75543088030E+02	1.76754875913E+01	1.62796528203E+02	-4.37424761846E+01	-5.53368699506E+01	-5.87378476863E+00	-8.09069430608E-01
2.09749972219E+06	-1.92465658245E+01	-1.65241330801E+02	1.76893616750E+01	1.62564722000E+02	-4.09283049007E+01	-2.26444514036E+01	-5.86920944349E+00	-1.08688084679E+00
2.11969107679E+06	-1.51947262011E+01	-1.72363026573E+02	1.76734195047E+01	1.62328434965E+02	-4.00503803794E+01	1.75132916405E+01	-5.87808338444E+00	-1.31368393832E+00
2.14188243138E+06	-1.46561338993E+01	8.10607232676E+01	1.76738266413E+01	1.62579578693E+02	-4.74230119133E+01	1.60093745240E+02	-5.82106477012E+00	-1.02118992772E+00
2.16407378598E+06	-1.38790851276E+01	-1.35518164669E+02	1.76984802425E+01	1.61680107352E+02	-3.49662765795E+01	1.03655695319E+02	-5.79776696065E+00	-1.49758046410E+00
2.18626514057E+06	-1.68984795954E+01	1.67956795648E+02	1.76597619416E+01	1.61830523546E+02	-4.68458866575E+01	-5.98089406300E+01	-5.82743653112E+00	-9.57456724336E-01
2.20845649517E+06	-1.73116262880E+01	1.69798810785E+02	1.76625176482E+01	1.61586208809E+02	-4.38508400619E+01	-1.73034997580E+01	-5.88636579443E+00	-1.14461490377E+00
2.23064784976E+06	-2.01909893662E+01	-1.54636690294E+02	1.76849175284E+01	1.61219350708E+02	-5.33021214733E+01	1.68288723722E+02	-5.84890683647E+00	-1.18240662495E+00
2.25283920436E+06	-1.67909561879E+01	-1.64503253119E+02	1.76975293507E+01	1.61006229045E+02	-4.21788259135E+01	-6.65801526479E+01	-5.88183069646E+00	-9.02083197493E-01
2.27503055895E+06	-1.77890179079E+01	-1.54757885933E+02	1.76857839064E+01	1.60938791493E+02	-3.77800651464E+01	1.57741692340E+02	-5.75008230715E+00	-1.14541683509E+00
2.29722191355E+06	-1.61067536193E+01	-1.04739260027E+02	1.77231189137E+01	1.60707274390E+02	-4.93248335761E+01	-8.13158405197E+01	-5.81384395466E+00	-1.06350767865E+00
2.31941326814E+06	-2.40333403217E+01	1.63676113123E+02	1.76958751235E+01	1.60769116318E+02	-3.56119581640E+01	1.54177743347E+02	-5.75646556401E+00	-1.08476590203E+00
2.34160462274E+06	-1.33631104256E+01	-1.65353261566E+02	1.76441397602E+01	1.60146628414E+02	-4.59899483489E+01	3.79598261495E+01	-5.85218247097E+00	-1.26812384419E+00
2.36379597733E+06	-1.57250043338E+01	1.69177931615E+02	1.76462533121E+01	1.60262845971E+02	-5.52390811171E+01	6.17077988016E+01	-5.83571420009E+00	-1.31258167139E+00
2.38598733193E+06	-1.47205692809E+01	-1.79873593444E+02	1.76208153815E+01	1.59795952555E+02	-5.24467362489E+01	-1.65007643686E+02	-5.82128451855E+00	-1.25518504283E+00
2.40817868652E+06	-1.52613198681E+01	1.69244985729E+02	1.76291185984E+01	1.59701917914E+02	-5.28215763346E+01	6.91100143958E+01	-5.84802295271E+00	-1.52852426885E+00
2.43037004112E+06	-1.65167875862E+01	-1.78964482782E+02	1.76421388837E+01	1.59627799788E+02	-4.39064934027E+01	7.34117675191E+01	-5.85506060176E+00	-1.88237131124E+00
2.45256139571E+06	-9.43486239450E+00	-1.35186425181E+02	1.76709181570E+01	1.58909860942E+02	-3.94550822379E+01	-1.21549072704E+02	-5.81353404361E+00	-7.64829673148E-01
2.47475275031E+06	-1.48674413952E+01	-1.45988740974E+02	1.76860003454E+01	1.58992864937E+02	-4.30070143921E+01	-1.60127851045E+02	-5.82863833935E+00	-1.01740297318E+00
2.49694410490E+06	-1.61390207897E+01	-1.75845613015E+02	1.76394833660E+01	1.58883082832E+02	-4.36198133401E+01	8.73361190570E+01	-5.82960854955E+00	-1.54761251966E+00
2.51913545950E+06	-1.92656426690E+01	1.57606339106E+02	1.76489666712E+01	1.58971668436E+02	-4.51257454054E+01	7.09483899167E+00	-5.85939408098E+00	-1.40347677019E+00
2.54132681409E+06	-2.13619542133E+01	-1.60577039158E+02	1.76808123736E+01	1.58649577625E+02	-4.44169014442E+01	1.58005927371E+00	-5.88404759333E+00	-1.34435013850E+00
2.56351816869E+06	-1.68720893772E+01	-1.76041041748E+02	1.76463507171E+01	1.58318262380E+02	-4.46125995202E+01	-3.93199881890E+01	-5.89731706969E+00	-1.12337937532E+00
2.58570952328E+06	-2.03546463202E+01	-1.40765017816E+02	1.76640258284E+01	1.58142195003E+02	-4.32401680289E+01	-1.27816830116E+02	-5.81655513056E+00	-1.10679260987E+00
2.60790087788E+06	-1.42586308127E+01	1.46183330713E+02	1.75852375882E+01	1.58225964312E+02	-5.61332177542E+01	-8.20819048341E+01	-5.85964864733E+00	-1.25331801118E+00
2.63009223247E+06	-2.36308443403E+01	1.73923209590E+02	1.76403083841E+01	1.57711842042E+02	-4.49426477892E+01	-1.15790548333E+02	-5.83940293000E+00	-7.25045915863E-01
2.65228358707E+06	-1.52575842716E+01	1.71811808592E+02	1.76325664335E+01	1.57714392384E+02	-4.00274327937E+01	-1.49772038107E+02	-5.77390778137E+00	-9.87449258181E-01
2.67447494166E+06	-2.01893752559E+01	-1.53348088986E+02	1.76715284872E+01	1.57281915981E+02	-4.56039812895E+01	-1.79771170595E+02	-5.79193693726E+00	-1.28076382634E+00
2.69666629626E+06	-1.58136124147E+01	-1.68148410099E+02	1.76503838405E+01	1.57121701475E+02	-4.36380854503E+01	1.69571787484E+02	-5.80953489668E+00	-1.19001465530E+00
2.71885765085E+06	-1.74379788263E+01	-1.63160545527E+02	1.76233664709E+01	1.56967197720E+02	-3.86227123621E+01	-5.71749515363E+01	-5.89669979476E+00	-9.70604222807E-01
2.74104900545E+06	-1.49661865611E+01	1.79920407986E+02	1.76008006703E+01	1.56794852889E+02	-4.85718381150E+01	1.52137822534E+02	-5.80093744621E+00	-1.20495803059E+00
2.76324036004E+06	-1.77605022745E+01	1.55499798154E+02	1.76255908442E+01	1.56725435776E+02	-4.31529273658E+01	8.23181469324E+00	-5.88633477347E+00	-1.50891079654E+00
2.78543171463E+06	-1.86075955902E+01	1.41937090583E+02	1.76187371984E+01	1.56600574555E+02	-4.03677457616E+01	1.22616408849E+02	-5.80031592181E+00	-1.63943976011E+00
2.80762306923E+06	-2.44203419617E+01	-1.74097953468E+02	1.76365528226E+01	1.56339296059E+02	-4.87904360034E+01	-5.81228064709E+01	-5.86131161674E+00	-1.27700096563E+00
2.82981442382E+06	-2.18301361480E+01	1.65562231663E+02	1.76466378165E+01	1.56156847053E+02	-4.69923042612E+01	-1.18879842102E+02	-5.83286110760E+00	-1.24635039377E+00
2.85200577842E+06	-1.67487599932E+01	-1.51614701135E+02	1.76495843033E+01	1.55728672941E+02	-4.22916522849E+01	-1.13827886014E+02	-5.82624561237E+00	-9.87394087028E-01
2.87419713301E+06	-2.11418292400E+01	1.76199880795E+02	1.76180814688E+01	1.55640684543E+02	-4.25013167833E+01	-6.15460605991E+01	-5.86498071749E+00	-1.15780579927E+00
