# Hz S DB R 50
! CMT, M5065, 19127446, 24.2.4/2
! Date: 11/8/2024 4:11:57 PM
! Data: Format (Calibration Info)
! Freq	S11:dB/Ang(F2)	S21:dB/Ang(F2)	S12:dB/Ang(F2)	S22:dB/Ang(F2)
3.00000000000E+05	-1.80054921054E+01	-1.46515718454E+02	1.55299180279E+01	-1.76837392722E+02	-4.37796018473E+01	-4.33268657878E+01	-5.86819185110E+00	-2.53297331808E-01
3.22191354595E+05	-1.41446316968E+01	-1.66929609917E+02	1.54873683924E+01	-1.77373191095E+02	-5.29500213238E+01	7.45620912953E+01	-5.84475123780E+00	-4.13547690142E-01
3.44382709190E+05	-2.16985366984E+01	-1.30148071971E+02	1.55497135374E+01	-1.77963365307E+02	-4.31602362726E+01	1.35777650625E+02	-5.81402245159E+00	-2.48438223619E-01
3.66574063785E+05	-2.49892863474E+01	-1.30402564498E+02	1.55388701785E+01	-1.78396073723E+02	-5.58047731798E+01	1.48080481020E+02	-5.83314038605E+00	-2.90567861382E-01
3.88765418380E+05	-2.42632062795E+01	-1.58905529705E+02	1.56010980443E+01	-1.78304950065E+02	-4.71131347836E+01	2.55824991947E+01	-5.81823832313E+00	-4.27326378338E-01
4.10956772975E+05	-2.29557859000E+01	-1.33419077553E+02	1.55299153040E+01	-1.79314456937E+02	-4.56212716611E+01	-8.98078967463E+01	-5.83954087228E+00	-1.04880598030E-01
4.33148127570E+05	-1.32237379822E+01	1.78476433690E+02	1.54798739230E+01	-1.79643544984E+02	-4.69536931537E+01	2.98254048014E+01	-5.85145500524E+00	-3.55534626009E-01
4.55339482165E+05	-1.86684265669E+01	1.76892858618E+02	1.55129558429E+01	-1.79929074076E+02	-4.64690868729E+01	1.02904461389E+02	-5.82660417118E+00	-4.14659850223E-01
4.77530836760E+05	-2.24225275466E+01	1.67918848402E+02	1.55130879972E+01	1.79798582059E+02	-4.12488569382E+01	2.27675213669E+01	-5.85086360751E+00	-6.02935935522E-01
4.99722191355E+05	-1.40527310176E+01	1.69222152618E+02	1.54894748676E+01	1.79713579247E+02	-3.97934960885E+01	1.05645610882E+02	-5.81342979754E+00	-5.31351256223E-01
5.21913545950E+05	-1.75588147830E+01	1.53756846435E+02	1.55188424349E+01	1.79263732159E+02	-5.01649549815E+01	-7.08035436927E+01	-5.83264267825E+00	-2.48258709627E-01
5.44104900545E+05	-1.45191939266E+01	-1.68874473483E+02	1.55071692884E+01	1.78800517607E+02	-5.31861168315E+01	-6.73543063027E+01	-5.84115778047E+00	-3.31774565062E-01
5.66296255139E+05	-1.91517705861E+01	1.27818324176E+02	1.55572643406E+01	1.78812208506E+02	-4.67029056787E+01	2.47083441323E+01	-5.84693671202E+00	-4.70889627054E-01
5.88487609734E+05	-1.27990978273E+01	1.68707475946E+02	1.54839428621E+01	1.78326642054E+02	-4.20357263240E+01	-3.13372304545E+01	-5.87021774527E+00	-1.69676104025E-01
6.10678964329E+05	-1.84536796566E+01	1.50882704303E+02	1.55169513534E+01	1.78129326140E+02	-3.54464724478E+01	1.29093789090E+02	-5.81657765160E+00	-4.12945350288E-02
6.32870318924E+05	-2.31799386884E+01	-1.73090128860E+02	1.55521858704E+01	1.77714812267E+02	-3.70121609875E+01	8.85989668821E+01	-5.82403688319E+00	-5.15804385466E-01
6.55061673519E+05	-2.14145152612E+01	-1.47847471041E+02	1.55312617018E+01	1.77369797067E+02	-4.22849005310E+01	-1.41045613110E+02	-5.81336363070E+00	-2.18334721192E-01
6.77253028114E+05	-1.74886290665E+01	-1.53675475314E+02	1.55344995357E+01	1.77212827959E+02	-4.96405574115E+01	1.63180399342E+02	-5.81468887930E+00	-6.19054318988E-01
6.99444382709E+05	-1.88707816848E+01	1.79780342141E+02	1.55138933603E+01	1.77091516140E+02	-4.31664704076E+01	4.00223935928E+01	-5.85872997934E+00	-5.96838398593E-01
7.21635737304E+05	-1.46199593689E+01	1.73210151188E+02	1.55012438501E+01	1.76756876574E+02	-4.47540712221E+01	2.36361474958E+00	-5.85134550378E+00	-4.88926295389E-01
7.43827091899E+05	-1.87563640808E+01	1.60853223871E+02	1.55311622279E+01	1.76803764025E+02	-5.61083695497E+01	1.32029291989E-01	-5.83754799692E+00	-5.09853097195E-01
7.66018446494E+05	-2.08932250729E+01	-1.77146658308E+02	1.55240193587E+01	1.76305622856E+02	-5.53025286418E+01	6.59085401521E+01	-5.84131294811E+00	-3.94267759889E-01
7.88209801089E+05	-2.03487735391E+01	-1.60532675379E+02	1.55338618747E+01	1.76116247085E+02	-5.82733481452E+01	-1.59629287165E+02	-5.85259150362E+00	-4.58681988262E-01
8.10401155684E+05	-1.34297999338E+01	-1.74291166563E+02	1.54970006185E+01	1.75880862971E+02	-5.16468625852E+01	-1.43638650894E+02	-5.82653522765E+00	-3.45803998810E-01
8.32592510279E+05	-1.68473682766E+01	1.76953947467E+02	1.54846883751E+01	1.75607269260E+02	-5.06181141660E+01	-1.38145998665E+02	-5.83626164194E+00	-4.15979978751E-01
8.54783864874E+05	-1.35742633968E+01	-1.69646481319E+02	1.55146626321E+01	1.75395582701E+02	-4.75387380537E+01	-6.39559610827E+01	-5.83396742811E+00	-4.94316877756E-01
8.76975219469E+05	-1.83808733482E+01	1.53583957143E+02	1.55101315431E+01	1.75402202567E+02	-4.39196707742E+01	-5.22802918650E+01	-5.84162764575E+00	-4.40045683250E-01
8.99166574064E+05	-1.64286096437E+01	1.61774505881E+02	1.55164761420E+01	1.75149046050E+02	-4.15653186166E+01	6.35206278753E+01	-5.87021619529E+00	-8.29390821011E-01
9.21357928659E+05	-1.50859596830E+01	-1.78252740598E+02	1.55178460598E+01	1.74847193374E+02	-5.39286591968E+01	-1.40102745930E+02	-5.82724483360E+00	-4.01654288255E-01
9.43549283254E+05	-1.94888621720E+01	1.61698459483E+02	1.55112177329E+01	1.74789884429E+02	-4.72271397799E+01	-1.40179411852E+02	-5.83753854624E+00	-6.02877271659E-01
9.65740637849E+05	-1.72511180698E+01	1.60535426618E+02	1.54976972326E+01	1.74669627635E+02	-4.93135290159E+01	-1.45550164873E+02	-5.81385355473E+00	-3.81146884153E-01
9.87931992444E+05	-1.48540604013E+01	1.75634136839E+02	1.54643100503E+01	1.74285635055E+02	-5.29766778740E+01	1.24386397003E+02	-5.83657107400E+00	-4.72515938775E-01
1.01012334704E+06	-1.79348989933E+01	1.46780897562E+02	1.55068190519E+01	1.74040203614E+02	-5.43716829164E+01	-2.02127774009E-01	-5.84912791768E+00	-6.02491666446E-01
1.03231470163E+06	-1.99191552149E+01	1.69858431297E+02	1.55331994919E+01	1.73888985701E+02	-4.81583531354E+01	-1.54269953163E+02	-5.80663144454E+00	-6.09414166468E-01
1.05450605623E+06	-2.02111720084E+01	1.28326483072E+02	1.55344598477E+01	1.73927386169E+02	-4.34981384309E+01	-1.46427803376E+02	-5.80958399617E+00	-4.35968467142E-01
1.07669741082E+06	-2.00117821566E+01	-1.39349659586E+02	1.55142686306E+01	1.73532489167E+02	-4.41005306071E+01	9.81353386804E+01	-5.85104524872E+00	-6.49851031215E-01
1.09888876542E+06	-1.80198301000E+01	1.77240720112E+02	1.55008200388E+01	1.73372906830E+02	-3.53031406460E+01	-8.73235606026E+01	-5.84393378250E+00	-3.07227131838E-01
1.12108012001E+06	-1.79883638322E+01	-1.72118600822E+02	1.54958205678E+01	1.73022573217E+02	-5.91640650377E+01	1.03243318086E+02	-5.83744891458E+00	-6.18845824350E-01
1.14327147461E+06	-1.76554326101E+01	1.58472469230E+02	1.54964433595E+01	1.73035834820E+02	-5.09911778326E+01	-4.14617666878E+01	-5.85157464503E+00	-4.54331025485E-01
1.16546282920E+06	-1.59578042730E+01	1.61918321892E+02	1.54821739553E+01	1.72773117150E+02	-4.11646767603E+01	-7.36328969852E+01	-5.82519685888E+00	-4.92695481279E-01
1.18765418380E+06	-1.62105951669E+01	-1.71794589291E+02	1.55066809368E+01	1.72566999100E+02	-5.18257058563E+01	3.73798730906E+01	-5.84110006732E+00	-7.31588891833E-01
1.20984553839E+06	-1.75815599805E+01	1.58435410530E+02	1.55032640424E+01	1.72509111120E+02	-4.16403171238E+01	-1.51718573654E+02	-5.80902189763E+00	-6.47466053189E-01
1.23203689299E+06	-1.56924539269E+01	1.63536658895E+02	1.54725673997E+01	1.72338097458E+02	-4.65185315804E+01	-9.38775080157E+01	-5.83399614380E+00	-2.06469898421E-01
1.25422824758E+06	-1.85202762503E+01	-1.58063969877E+02	1.55381895036E+01	1.71843748051E+02	-5.15482379392E+01	9.31087692237E+01	-5.86342749788E+00	-7.83833591365E-01
1.27641960218E+06	-1.70471764760E+01	-1.55344780679E+02	1.54976631346E+01	1.71663275304E+02	-4.64268652325E+01	-1.58259786595E+02	-5.83458054968E+00	-6.29380636836E-01
1.29861095677E+06	-1.94011657582E+01	1.64601390483E+02	1.55071342725E+01	1.71777681100E+02	-4.86821914843E+01	4.50766365061E+01	-5.84997142301E+00	-7.51391576163E-01
1.32080231137E+06	-1.51530422694E+01	1.66395990487E+02	1.54844776575E+01	1.71506425846E+02	-4.98147020154E+01	-1.22882144853E+02	-5.83992967222E+00	-9.53646437606E-01
1.34299366596E+06	-1.57162444590E+01	-1.77637979116E+02	1.54693688448E+01	1.71232753458E+02	-5.43189168488E+01	1.54579025276E+02	-5.84337546809E+00	-7.53451512899E-01
1.36518502056E+06	-1.46992432587E+01	-1.61789941122E+02	1.55164895695E+01	1.70817146666E+02	-4.17082457327E+01	1.76289423156E+02	-5.78935008170E+00	-6.07224828141E-01
1.38737637515E+06	-1.67979124550E+01	1.59263024433E+02	1.54852277661E+01	1.71096608606E+02	-4.15074410019E+01	-8.63045433694E+01	-5.84353219698E+00	-4.56755622195E-01
1.40956772975E+06	-1.45384377319E+01	1.79492513595E+02	1.54604948592E+01	1.70634056227E+02	-4.67696784166E+01	-1.14024219301E+02	-5.85761992821E+00	-6.81367186008E-01
1.43175908434E+06	-1.60760268980E+01	-1.65153099082E+02	1.54888210851E+01	1.70513223968E+02	-4.78759661765E+01	1.08825146564E+02	-5.84525346362E+00	-6.20268591613E-01
1.45395043894E+06	-1.83138213473E+01	-1.73201184769E+02	1.55036785867E+01	1.70527605781E+02	-4.48819601285E+01	5.54572946524E+00	-5.84483676249E+00	-9.33188631993E-01
1.47614179353E+06	-1.48610444994E+01	1.74228291781E+02	1.54884158182E+01	1.70301744966E+02	-4.32385255152E+01	1.16636651279E+02	-5.81156350818E+00	-1.03203394849E+00
1.49833314813E+06	-1.43037861843E+01	-1.78868694477E+02	1.54577144960E+01	1.70047923474E+02	-4.59673938761E+01	-1.51347164218E+02	-5.82831831180E+00	-7.75876166789E-01
1.52052450272E+06	-1.43992273700E+01	-1.78936299221E+02	1.54758761965E+01	1.69755959998E+02	-5.49436786415E+01	-8.55500711569E+01	-5.84370232199E+00	-7.82298092840E-01
1.54271585732E+06	-1.79726644927E+01	1.73215764451E+02	1.54756272515E+01	1.69627703088E+02	-4.51123983901E+01	1.15362642223E+02	-5.82153554852E+00	-9.27976683961E-01
1.56490721191E+06	-1.82402469246E+01	1.67182808746E+02	1.54929029955E+01	1.69579035153E+02	-4.50560947603E+01	-1.23450037128E+02	-5.86408285667E+00	-6.45058800479E-01
1.58709856651E+06	-1.40093937180E+01	-1.56510264102E+02	1.54926379352E+01	1.69007815347E+02	-5.27804915254E+01	1.39269854321E+02	-5.85518083517E+00	-8.32398486282E-01
1.60928992110E+06	-2.14167185430E+01	1.63462167527E+02	1.55163665110E+01	1.69331113654E+02	-4.79477439711E+01	1.64656840078E+02	-5.79959095459E+00	-7.53923861693E-01
1.63148127570E+06	-1.82213545742E+01	1.77102913078E+02	1.55013391499E+01	1.68999196366E+02	-4.56108940639E+01	-5.66424797686E+01	-5.84911104895E+00	-7.30542077203E-01
1.65367263029E+06	-1.88958308892E+01	1.72215882019E+02	1.55022353717E+01	1.68783175495E+02	-4.15561389447E+01	-3.20982623651E+01	-5.89012203794E+00	-7.10172011821E-01
1.67586398489E+06	-2.35647341983E+01	1.53481458869E+02	1.55042258953E+01	1.68746086281E+02	-4.47240321331E+01	1.69563799859E+02	-5.82510175226E+00	-9.46130789811E-01
1.69805533948E+06	-1.30910680934E+01	1.34601671453E+02	1.54659530216E+01	1.68576774569E+02	-4.53187315227E+01	1.59108382430E+01	-5.87309859999E+00	-9.57225261674E-01
1.72024669408E+06	-2.18017260278E+01	-1.48551283267E+02	1.55003089199E+01	1.68259776109E+02	-3.35357183454E+01	1.04026170403E+02	-5.77645848850E+00	-1.17746780880E+00
1.74243804867E+06	-1.62308117021E+01	-1.71700591879E+02	1.54902157636E+01	1.67940359488E+02	-5.85010680097E+01	-4.93827851429E+01	-5.83402932714E+00	-8.93954095362E-01
1.76462940327E+06	-1.80625390897E+01	-1.73101311288E+02	1.54936741596E+01	1.67987573624E+02	-4.39538087425E+01	-1.04312418111E+02	-5.84487831159E+00	-7.47837202849E-01
1.78682075786E+06	-1.26069338796E+01	1.79854021500E+02	1.54362503060E+01	1.67785762688E+02	-4.78624396382E+01	2.86305832190E+01	-5.85768989403E+00	-1.03164773750E+00
1.80901211246E+06	-1.81784685992E+01	1.75083533400E+02	1.54692718814E+01	1.67548033404E+02	-4.03269891442E+01	-1.53904309083E+01	-5.89420654497E+00	-8.59942229339E-01
1.83120346705E+06	-1.51056620306E+01	-1.76239459897E+02	1.54706618550E+01	1.67269670615E+02	-3.70335355889E+01	9.87131728546E+01	-5.80954003492E+00	-1.44518293308E+00
1.85339482165E+06	-1.88227729657E+01	-1.68563728443E+02	1.55028193461E+01	1.67301255203E+02	-4.22066376214E+01	4.32580639921E+01	-5.86766564455E+00	-1.20482229047E+00
1.87558617624E+06	-2.31478403922E+01	-1.35746217450E+02	1.55374714726E+01	1.67121225261E+02	-3.40423389576E+01	-1.84720719832E+01	-5.88911428613E+00	-9.94661416183E-01
1.89777753084E+06	-1.91401705095E+01	1.60572129067E+02	1.54981642303E+01	1.67216971703E+02	-4.42525765329E+01	-7.87358644444E+01	-5.84362650407E+00	-7.90674584703E-01
1.91996888543E+06	-2.10145021466E+01	-1.66408197774E+02	1.55013000968E+01	1.66665006697E+02	-5.52429878795E+01	-1.68733425217E+02	-5.82100238426E+00	-8.20501578554E-01
1.94216024003E+06	-1.70573316492E+01	1.77801556498E+02	1.54877657088E+01	1.66619798810E+02	-4.06570621232E+01	-1.15059532112E+02	-5.82904994696E+00	-7.36321644147E-01
1.96435159462E+06	-2.10797913767E+01	1.33126134114E+02	1.54941977076E+01	1.66776531550E+02	-4.88749844536E+01	1.60778643742E+02	-5.81661346830E+00	-9.58737024874E-01
1.98654294922E+06	-1.75622317229E+01	1.67658522803E+02	1.54889956581E+01	1.66388253105E+02	-4.15900209483E+01	-1.24476987514E+02	-5.81258308498E+00	-6.88022500474E-01
2.00873430381E+06	-1.85281181929E+01	1.24653770283E+02	1.54814399200E+01	1.66452099871E+02	-4.55311119024E+01	-5.90001026619E+01	-5.87028956647E+00	-7.81075564700E-01
2.03092565841E+06	-1.66527438854E+01	1.60980388472E+02	1.54721912005E+01	1.65878310135E+02	-2.80879028008E+01	-3.69859361422E+00	-5.95149967315E+00	-1.41464945570E+00
2.05311701300E+06	-1.80363702997E+01	1.72789269634E+02	1.54760857658E+01	1.65800838134E+02	-4.79328161784E+01	2.58875531677E+01	-5.85616711234E+00	-1.19936894616E+00
2.07530836760E+06	-2.10460275171E+01	-1.59302221570E+02	1.54993089359E+01	1.65681928380E+02	-5.32706917794E+01	9.69732603606E+01	-5.83648850675E+00	-1.04552208336E+00
2.09749972219E+06	-2.33565515480E+01	1.67620451699E+02	1.54941982275E+01	1.65457137886E+02	-4.62232665785E+01	-1.76159367119E+02	-5.81316492974E+00	-1.00414359760E+00
2.11969107679E+06	-1.74259818538E+01	-1.65999619201E+02	1.54807768636E+01	1.65128611091E+02	-4.03348483510E+01	-8.03277121309E+01	-5.85213252115E+00	-7.79806318204E-01
2.14188243138E+06	-1.84502047571E+01	1.44829572043E+02	1.54792756289E+01	1.65203620581E+02	-4.26646737838E+01	-8.08352369347E+01	-5.84850457450E+00	-7.10447150895E-01
2.16407378598E+06	-1.10767772413E+01	1.66193353779E+02	1.54361480262E+01	1.64830445363E+02	-4.01310257524E+01	7.50505814250E+01	-5.80653911999E+00	-1.46643758880E+00
2.18626514057E+06	-1.23555603326E+01	1.50673460037E+02	1.54428290526E+01	1.64960476501E+02	-4.35459343601E+01	-4.53087107125E+01	-5.86909635540E+00	-1.24074947097E+00
2.20845649517E+06	-1.54373122955E+01	-1.75737513809E+02	1.54825263616E+01	1.64493560713E+02	-4.33658724994E+01	1.62191267601E+02	-5.79629656229E+00	-1.04584043311E+00
2.23064784976E+06	-2.04259346405E+01	-1.61761944679E+02	1.54856838892E+01	1.64288219997E+02	-7.06853139764E+01	1.71676125598E+01	-5.82610435931E+00	-1.29760249660E+00
2.25283920436E+06	-1.63475105217E+01	-1.50798986368E+02	1.54744569469E+01	1.64001981566E+02	-3.88505169630E+01	-2.50404605141E+01	-5.90304032348E+00	-1.05785904436E+00
2.27503055895E+06	-2.42153147229E+01	1.27646544009E+02	1.55177789954E+01	1.64340178310E+02	-4.56776242280E+01	1.27334340870E+01	-5.86455004971E+00	-1.24680940494E+00
2.29722191355E+06	-1.80168743026E+01	-1.44319358243E+02	1.55089108150E+01	1.63815477252E+02	-4.67033231294E+01	5.86162740480E+01	-5.83278502903E+00	-1.33786537523E+00
2.31941326814E+06	-1.73760441193E+01	-1.56722652640E+02	1.54876975471E+01	1.63617063290E+02	-4.47964486887E+01	2.53441377285E+01	-5.83008937764E+00	-1.51331553587E+00
2.34160462274E+06	-1.18424866911E+01	-1.35410829133E+02	1.55192831476E+01	1.63222048970E+02	-5.66507697306E+01	8.46222948519E+00	-5.85323798293E+00	-1.10995252315E+00
2.36379597733E+06	-1.64462905033E+01	-1.60522631055E+02	1.54875417080E+01	1.63239926164E+02	-5.42580458378E+01	-1.03016360962E+02	-5.86868770941E+00	-1.18426082766E+00
2.38598733193E+06	-1.83676649957E+01	1.66849669024E+02	1.54724582639E+01	1.63386825388E+02	-5.32643810297E+01	-4.95369251572E+01	-5.84281918443E+00	-1.15405570362E+00
2.40817868652E+06	-1.54073989748E+01	1.69978030941E+02	1.54519343722E+01	1.63127261774E+02	-4.29003880971E+01	-3.07776034901E+01	-5.85957042649E+00	-1.31686729198E+00
2.43037004112E+06	-1.81882239867E+01	1.67122306762E+02	1.54777728935E+01	1.63107358521E+02	-5.44592828666E+01	1.04676915418E+02	-5.84555188878E+00	-1.59961188597E+00
2.45256139571E+06	-2.00352266023E+01	-1.43578476868E+02	1.55133615583E+01	1.62795902052E+02	-5.71300650078E+01	8.12475026957E+01	-5.80980050747E+00	-1.30739297172E+00
2.47475275031E+06	-1.46388439380E+01	-1.29761402529E+02	1.55152541951E+01	1.62386174999E+02	-4.78770201995E+01	1.41851862920E+02	-5.83322207904E+00	-1.23593649472E+00
2.49694410490E+06	-1.91616168621E+01	-1.58590256047E+02	1.54916884818E+01	1.62241489681E+02	-5.06263209772E+01	-2.88918613245E+01	-5.84819307611E+00	-1.23190551587E+00
2.51913545950E+06	-2.45005292198E+01	1.64754002342E+02	1.55110436995E+01	1.62328382636E+02	-3.43059618136E+01	-1.46856788533E+02	-5.84695603327E+00	-8.42273988690E-01
2.54132681409E+06	-1.51986196443E+01	1.59239185678E+02	1.54381284228E+01	1.62115751367E+02	-5.11671953410E+01	1.45820574959E+02	-5.80854904101E+00	-1.25155102568E+00
2.56351816869E+06	-1.71920112846E+01	1.61947851346E+02	1.54588033884E+01	1.61891157146E+02	-4.03169221286E+01	-1.13842068040E+02	-5.83606155946E+00	-8.86937694158E-01
2.58570952328E+06	-1.70635437565E+01	-1.73412206401E+02	1.54827307499E+01	1.61643083142E+02	-6.07166804837E+01	8.12680941438E+01	-5.85678205577E+00	-1.43826571876E+00
2.60790087788E+06	-1.76087950677E+01	-1.57953973753E+02	1.55000160444E+01	1.61429913720E+02	-4.26085112706E+01	-1.30428869734E+02	-5.83560044483E+00	-8.58975866883E-01
2.63009223247E+06	-2.41664017787E+01	-1.34701058822E+02	1.55267616442E+01	1.61490574345E+02	-4.32153581074E+01	4.95529913202E+01	-5.88069052964E+00	-1.10412483574E+00
2.65228358707E+06	-1.35369977017E+01	1.74219907026E+02	1.54608128323E+01	1.61208689400E+02	-4.67547539996E+01	-8.30769355028E+00	-5.84071654418E+00	-1.33776284883E+00
2.67447494166E+06	-1.95229827405E+01	-1.58750168969E+02	1.55083252793E+01	1.61035836940E+02	-4.17488855300E+01	-6.35208003745E+01	-5.84151511418E+00	-1.07271757846E+00
2.69666629626E+06	-2.07262434598E+01	1.77965741208E+02	1.54927131743E+01	1.61058240941E+02	-4.86731567550E+01	1.68606658459E+02	-5.83079585335E+00	-1.33805059807E+00
2.71885765085E+06	-1.52673267229E+01	-1.72167998884E+02	1.54667480778E+01	1.60551931390E+02	-4.39292141896E+01	1.52496353210E+02	-5.78950538023E+00	-1.31831630063E+00
2.74104900545E+06	-1.57817126946E+01	-1.70249669281E+02	1.54622957309E+01	1.60400413666E+02	-3.77255285729E+01	-8.14082534174E+01	-5.88736264165E+00	-1.02514090467E+00
2.76324036004E+06	-2.32031271865E+01	-1.52065242646E+02	1.55055930371E+01	1.60525113207E+02	-5.58214944715E+01	1.28666439024E+02	-5.83942922075E+00	-1.47194834581E+00
2.78543171463E+06	-1.12651866768E+01	-1.70490347897E+02	1.54382037480E+01	1.59923989632E+02	-5.26344011297E+01	-2.60079994131E+01	-5.84464182529E+00	-1.25590949020E+00
2.80762306923E+06	-2.25337424356E+01	-1.65084302798E+02	1.54817117918E+01	1.59957545310E+02	-3.82974082927E+01	1.52704283380E+02	-5.80768900301E+00	-1.51455978490E+00
2.82981442382E+06	-1.66857291334E+01	1.52648995789E+02	1.54350018488E+01	1.60007584835E+02	-4.41575934945E+01	1.47427848147E+02	-5.81989140184E+00	-1.49407975505E+00
2.85200577842E+06	-1.56866317598E+01	-1.62757200124E+02	1.54769390777E+01	1.59488980121E+02	-4.83187121416E+01	8.78195494127E+01	-5.83104410668E+00	-1.58835944863E+00
2.87419713301E+06	-1.75236535652E+01	-1.34885015827E+02	1.55270041487E+01	1.59199329184E+02	-4.18433238007E+01	-1.28019814233E+02	-5.82560223878E+00	-1.25761671301E+00
