# Hz S DB R 50
! CMT, M5065, 19127446, 24.2.4/2
! Date: 11/8/2024 4:07:27 PM
! Data: Format (Calibration Info)
! Freq	S11:dB/Ang(F2)	S21:dB/Ang(F2)	S12:dB/Ang(F2)	S22:dB/Ang(F2)
3.00000000000E+05	-1.38885961790E+01	-1.61957556952E+02	1.22957753179E+01	-1.77301216827E+02	-4.56989044865E+01	-1.79756465628E+02	-5.80599534820E+00	-2.55004770322E-01
3.22191354595E+05	-1.98758142771E+01	-1.58457507887E+02	1.23307856867E+01	-1.77670322328E+02	-4.53479581358E+01	6.52886199466E+01	-5.85252724154E+00	-2.60740205164E-01
3.44382709190E+05	-2.16677679016E+01	-1.39673292865E+02	1.23676284832E+01	-1.78308169447E+02	-4.19773137236E+01	-1.67542712384E+02	-5.81811193066E+00	-1.57468577426E-01
3.66574063785E+05	-2.13418509309E+01	1.56507842858E+02	1.23087575531E+01	-1.78341839747E+02	-4.65306783232E+01	-8.27046123176E+01	-5.83703151882E+00	-2.27246783961E-01
3.88765418380E+05	-1.72394319162E+01	-1.56941173493E+02	1.23561142562E+01	-1.79126485821E+02	-4.07256062112E+01	5.32596316249E+01	-5.81551572453E+00	-6.63894275316E-01
4.10956772975E+05	-1.34062616078E+01	1.77626864102E+02	1.23003439086E+01	-1.78950992713E+02	-5.52028390885E+01	-1.97253365091E+01	-5.84540041815E+00	-4.54707555107E-01
4.33148127570E+05	-1.50976600871E+01	1.62623506897E+02	1.23377401656E+01	-1.79487136585E+02	-5.35671839481E+01	9.07873304253E+01	-5.82166755050E+00	-4.08244350908E-01
4.55339482165E+05	-2.15773040973E+01	-1.74405542134E+02	1.23857705493E+01	-1.79598809484E+02	-4.89831284566E+01	-6.29696760480E+01	-5.82861986511E+00	-1.83944966967E-01
4.77530836760E+05	-1.65174746844E+01	-1.60526443475E+02	1.23132743757E+01	1.79866883337E+02	-4.95441412542E+01	7.12735390638E+01	-5.84484273862E+00	-3.34753696312E-01
4.99722191355E+05	-1.71436770196E+01	-1.65430273523E+02	1.23413173964E+01	1.79607986222E+02	-3.24227070677E+01	1.01076431069E+02	-5.80312157466E+00	-6.86824463141E-01
5.21913545950E+05	-1.72851120971E+01	-1.49826548023E+02	1.23411862162E+01	1.79210703756E+02	-4.80834341283E+01	1.21790935245E+02	-5.82622559180E+00	-5.64901898688E-01
5.44104900545E+05	-1.56629704630E+01	1.55048924354E+02	1.23062744888E+01	1.79452632526E+02	-4.68808539276E+01	8.58616188566E+00	-5.86589254717E+00	-3.66491236061E-01
5.66296255139E+05	-1.82576128645E+01	-1.59621939835E+02	1.23466198623E+01	1.78958702563E+02	-4.27383446501E+01	1.54871064304E+02	-5.82578108074E+00	-4.26486798133E-01
5.88487609734E+05	-1.44690287243E+01	-1.41595851125E+02	1.23082807769E+01	1.78559910193E+02	-4.94418106655E+01	-1.47084253093E+02	-5.84101461141E+00	-2.45831504517E-01
6.10678964329E+05	-1.73520845363E+01	-1.72374803748E+02	1.23324942232E+01	1.78547219931E+02	-4.71646655144E+01	-1.52845175718E+02	-5.81809194416E+00	1.92096894830E-01
6.32870318924E+05	-1.97849402433E+01	-1.70603974155E+02	1.23502348393E+01	1.78394298442E+02	-5.01333967180E+01	-7.52394410037E+01	-5.84527960473E+00	-8.37500007902E-02
6.55061673519E+05	-1.76955848499E+01	-1.78245837038E+02	1.23046852763E+01	1.77981179462E+02	-3.84129180288E+01	-1.25188329234E+02	-5.80865640033E+00	-1.78687256110E-01
6.77253028114E+05	-1.78258109818E+01	-1.53739629311E+02	1.23616075211E+01	1.77911627176E+02	-5.77604576050E+01	1.79039296308E+02	-5.83010086341E+00	-6.31956607631E-01
6.99444382709E+05	-2.10742638948E+01	1.48178982804E+02	1.23456636851E+01	1.77881370289E+02	-3.88762403723E+01	2.21214212982E+01	-5.87060519806E+00	-5.49089863813E-01
7.21635737304E+05	-2.03257655843E+01	1.60455535394E+02	1.23532642396E+01	1.77745244588E+02	-4.88442243497E+01	-7.43099863542E+01	-5.84990276629E+00	-3.12018007694E-01
7.43827091899E+05	-1.51391776255E+01	-1.64316113654E+02	1.23288322087E+01	1.77087084756E+02	-5.56179163916E+01	3.06344544130E+01	-5.83623387526E+00	-6.29644029503E-01
7.66018446494E+05	-1.60339767931E+01	1.75960807822E+02	1.23420452628E+01	1.77242286919E+02	-5.39618174388E+01	-8.97560695230E+01	-5.85209174447E+00	-2.87931425750E-01
7.88209801089E+05	-1.87851797229E+01	1.38189543883E+02	1.23143753470E+01	1.77182075228E+02	-4.42721279020E+01	-5.68411616846E+01	-5.84949364814E+00	-3.31392420283E-01
8.10401155684E+05	-1.80035763054E+01	-1.54021597539E+02	1.23492307216E+01	1.76634632588E+02	-4.02670307181E+01	-3.97416348451E+01	-5.85694202800E+00	-5.18920562686E-01
8.32592510279E+05	-2.56078801793E+01	-1.52660567152E+02	1.23522798897E+01	1.76713769664E+02	-4.93663954834E+01	1.56796778640E+02	-5.83641555660E+00	-4.94816279167E-01
8.54783864874E+05	-1.85084260654E+01	1.70523524290E+02	1.23332619897E+01	1.76578394943E+02	-5.01207779727E+01	1.32421220147E+02	-5.82035456098E+00	-6.76973940110E-01
8.76975219469E+05	-1.50225401031E+01	-1.76948408986E+02	1.23307714987E+01	1.76246202584E+02	-4.14234802803E+01	1.50911138507E+02	-5.80811421300E+00	-4.10090327225E-01
8.99166574064E+05	-2.00732643371E+01	1.79528874365E+02	1.23040129187E+01	1.76098675579E+02	-3.81184513217E+01	1.50412303731E+02	-5.80755987152E+00	-6.51910118046E-01
9.21357928659E+05	-1.92156136009E+01	1.78381666193E+02	1.23637760120E+01	1.76048109414E+02	-4.97946511960E+01	-7.93031809432E+01	-5.84173102870E+00	-4.93817826335E-01
9.43549283254E+05	-1.55994765093E+01	-1.48168529588E+02	1.23551650950E+01	1.75537714546E+02	-4.82509543893E+01	6.81187408196E+01	-5.83949222772E+00	-6.22969114403E-01
9.65740637849E+05	-1.41778283118E+01	1.71725124303E+02	1.23205723340E+01	1.75759652922E+02	-4.97199142242E+01	-1.19147926111E+02	-5.83011390934E+00	-4.00861887709E-01
9.87931992444E+05	-1.72138999123E+01	-1.58669453033E+02	1.23343225796E+01	1.75445672093E+02	-5.03548765121E+01	5.32801316330E+01	-5.82554764913E+00	-7.16652564686E-01
1.01012334704E+06	-2.49552686590E+01	-1.22390447163E+02	1.23329879986E+01	1.75259116592E+02	-4.80626612607E+01	-3.59386010044E+01	-5.85674731889E+00	-4.59432738744E-01
1.03231470163E+06	-1.66271972318E+01	1.65668702617E+02	1.23061326927E+01	1.75288564665E+02	-5.05647017294E+01	2.40885181795E+01	-5.82918650343E+00	-4.40142449837E-01
1.05450605623E+06	-1.68943070953E+01	1.75457327967E+02	1.23106484502E+01	1.74984904772E+02	-4.45208664027E+01	1.71468329494E+02	-5.80575549070E+00	-6.51562833708E-01
1.07669741082E+06	-1.59478075698E+01	1.76731579992E+02	1.23012893386E+01	1.74745092112E+02	-4.73042721613E+01	-1.18796842822E+02	-5.79006282956E+00	-6.07265170258E-01
1.09888876542E+06	-2.30896362442E+01	1.76165440084E+02	1.23654769655E+01	1.74745610509E+02	-4.60609134925E+01	1.20885549997E+02	-5.82321757961E+00	-5.91544526756E-01
1.12108012001E+06	-1.72129885499E+01	-1.76385241502E+02	1.23399465091E+01	1.74539307790E+02	-4.78486274069E+01	-2.55903361228E+01	-5.84610616663E+00	-6.57788572184E-01
1.14327147461E+06	-1.78773148265E+01	1.54759512405E+02	1.23228870699E+01	1.74439958115E+02	-3.85530587577E+01	-3.65793364021E+00	-5.82596259290E+00	-7.17281190751E-01
1.16546282920E+06	-1.46025778824E+01	1.58265877252E+02	1.22989841759E+01	1.74326511394E+02	-4.88875936288E+01	1.20061278764E+02	-5.81686386393E+00	-6.51441809698E-01
1.18765418380E+06	-1.77878720031E+01	-1.71840372946E+02	1.23408936909E+01	1.74145401509E+02	-4.65377415295E+01	-1.05928371938E+02	-5.82760699785E+00	-3.60985003076E-01
1.20984553839E+06	-1.38942354913E+01	1.76357780267E+02	1.22851935780E+01	1.73900093647E+02	-4.80950722772E+01	1.63427295577E+02	-5.83620246711E+00	-6.61874809471E-01
1.23203689299E+06	-1.60125185365E+01	-1.63010281784E+02	1.23186705545E+01	1.73794844111E+02	-4.54586556418E+01	8.37113018776E+01	-5.83947802181E+00	-6.23253871581E-01
1.25422824758E+06	-1.58859223453E+01	-1.65777084988E+02	1.23320059884E+01	1.73635708907E+02	-4.30286278979E+01	1.19294351672E+02	-5.83057975553E+00	-7.25096736896E-01
1.27641960218E+06	-1.89441845105E+01	-1.41724812061E+02	1.23592984978E+01	1.73377251374E+02	-4.93242732496E+01	-8.76256969217E+01	-5.85427236384E+00	-5.72538337918E-01
1.29861095677E+06	-2.34712727878E+01	-1.65024847289E+02	1.23507341693E+01	1.73535241935E+02	-3.99094019722E+01	-2.05356315397E+01	-5.84900548571E+00	-5.88010828422E-01
1.32080231137E+06	-3.11529680651E+01	2.32454650435E+01	1.23863498531E+01	1.73442053489E+02	-4.98031293987E+01	-2.68652063510E+01	-5.82691526997E+00	-9.28036327509E-01
1.34299366596E+06	-1.65395829744E+01	1.71917067550E+02	1.23360612399E+01	1.73069872087E+02	-4.86271088350E+01	-1.03848140844E+02	-5.83500436294E+00	-7.73211568849E-01
1.36518502056E+06	-1.68070715297E+01	-1.76045127207E+02	1.23603110661E+01	1.72802576509E+02	-5.54449296632E+01	-6.52140621772E+01	-5.82172900922E+00	-7.21849270011E-01
1.38737637515E+06	-1.90512379308E+01	-1.58794711713E+02	1.23604497740E+01	1.72692008938E+02	-4.56270770137E+01	1.67909107001E+02	-5.81354843271E+00	-7.14203028389E-01
1.40956772975E+06	-1.68210461291E+01	-1.41442798914E+02	1.23432199079E+01	1.72515801465E+02	-4.47821345680E+01	-3.66836498034E+01	-5.86847376030E+00	-7.26402750804E-01
1.43175908434E+06	-1.93931613342E+01	1.67408885426E+02	1.23310037748E+01	1.72579292037E+02	-5.96953501812E+01	4.32822322451E+01	-5.85055179689E+00	-7.68527005478E-01
1.45395043894E+06	-1.97471896929E+01	1.51649289560E+02	1.23089336873E+01	1.72451471252E+02	-3.66034776181E+01	-1.72249741110E+02	-5.80740970565E+00	-7.11007576400E-01
1.47614179353E+06	-2.20449485045E+01	1.59032550122E+02	1.23472749593E+01	1.72412572762E+02	-5.54461742412E+01	-1.04744842493E+02	-5.82246856237E+00	-6.14176323294E-01
1.49833314813E+06	-1.87967533687E+01	-1.60050255838E+02	1.23569745110E+01	1.72067741345E+02	-4.48261880576E+01	-1.47120743829E+02	-5.81852970631E+00	-6.99631682997E-01
1.52052450272E+06	-1.78058046338E+01	1.72334298272E+02	1.23281859244E+01	1.71926844132E+02	-4.54675601815E+01	-9.14458706106E+01	-5.83171819431E+00	-6.34624142047E-01
1.54271585732E+06	-1.87518239453E+01	1.56899517594E+02	1.23092648704E+01	1.71874116909E+02	-4.09745075517E+01	-1.55274035731E+02	-5.81748201515E+00	-6.78158115564E-01
1.56490721191E+06	-2.12658745435E+01	1.44076611345E+02	1.23567539306E+01	1.72066223134E+02	-4.35629013461E+01	-7.08263331131E+01	-5.86763054645E+00	-6.84454924600E-01
1.58709856651E+06	-1.70736486000E+01	-1.66001416301E+02	1.23387441140E+01	1.71584002358E+02	-4.97840536704E+01	5.26736548625E+01	-5.85075888701E+00	-8.38396642343E-01
1.60928992110E+06	-2.12615506342E+01	1.18934461702E+02	1.23490475203E+01	1.71732277053E+02	-4.42495763450E+01	-7.10271126911E+01	-5.85908350066E+00	-8.30385099353E-01
1.63148127570E+06	-1.89633315500E+01	1.70462604973E+02	1.23144447239E+01	1.71239860749E+02	-5.04791404577E+01	-3.88558925170E+01	-5.81958412941E+00	-8.40243689933E-01
1.65367263029E+06	-1.55942417142E+01	1.66935316849E+02	1.23319919978E+01	1.71095616619E+02	-4.20467415243E+01	-6.14379815903E+00	-5.86215303510E+00	-8.74613657157E-01
1.67586398489E+06	-1.89121901590E+01	1.77871962612E+02	1.23378919747E+01	1.71011930596E+02	-5.63214058877E+01	-6.92511395035E+01	-5.84376688911E+00	-7.32387305720E-01
1.69805533948E+06	-2.32263741818E+01	-1.77997940298E+02	1.23531324862E+01	1.70963922037E+02	-4.84575900652E+01	7.66739269716E+01	-5.83749221173E+00	-9.64171397883E-01
1.72024669408E+06	-1.80771798039E+01	1.56563431739E+02	1.23138577197E+01	1.70899792537E+02	-4.03295545617E+01	1.72158706052E+02	-5.80321777983E+00	-9.47610900172E-01
1.74243804867E+06	-1.92485997953E+01	-1.61168474824E+02	1.23420841694E+01	1.70575796501E+02	-3.65557764487E+01	-1.31096514857E+02	-5.81899203164E+00	-6.35766729908E-01
1.76462940327E+06	-1.43838410909E+01	-1.61570052345E+02	1.23105053308E+01	1.70077029568E+02	-4.02532593821E+01	1.12964518920E+02	-5.83723147931E+00	-1.08597649076E+00
1.78682075786E+06	-2.33961753538E+01	-1.64937465505E+02	1.23669913910E+01	1.70245412053E+02	-4.52006465742E+01	-8.02548374222E+01	-5.83163154606E+00	-8.52919963535E-01
1.80901211246E+06	-1.55536114556E+01	-1.76171285086E+02	1.23380959034E+01	1.70071888097E+02	-4.47029935300E+01	-1.05614047254E+01	-5.85537745425E+00	-8.52197875452E-01
1.83120346705E+06	-2.04849219760E+01	-1.70213713848E+02	1.23708905962E+01	1.70068691332E+02	-3.78282759720E+01	4.49262051712E+01	-5.86987516832E+00	-1.31361267137E+00
1.85339482165E+06	-2.29824372031E+01	1.77278115991E+02	1.23489325806E+01	1.69737608198E+02	-4.87852910422E+01	-1.38219946889E+02	-5.82524126793E+00	-8.43584301977E-01
1.87558617624E+06	-1.94474725379E+01	-1.62557216404E+02	1.23571951830E+01	1.69666064983E+02	-4.70772103470E+01	8.67334946465E+01	-5.82852389406E+00	-1.01938472389E+00
1.89777753084E+06	-1.66147557130E+01	1.79574548595E+02	1.23343234198E+01	1.69403824215E+02	-3.54745835543E+01	-3.53824972816E+01	-5.87491881031E+00	-1.01853817203E+00
1.91996888543E+06	-1.83424940078E+01	1.63707803966E+02	1.23401849560E+01	1.69408460322E+02	-3.61386434326E+01	-1.15009642156E+02	-5.83408635150E+00	-7.63357682326E-01
1.94216024003E+06	-1.13580506877E+01	-1.54194755602E+02	1.23371076744E+01	1.68915707126E+02	-4.19389308583E+01	-1.70405354950E+02	-5.79975860283E+00	-9.67396029910E-01
1.96435159462E+06	-2.19852101152E+01	1.41089210239E+02	1.23617899868E+01	1.69446567673E+02	-4.78991994107E+01	-1.74812779900E+02	-5.82586535480E+00	-8.92407774300E-01
1.98654294922E+06	-1.76274961179E+01	1.72183855556E+02	1.23465043044E+01	1.69109637232E+02	-5.40826443638E+01	6.89115296124E+01	-5.85292462237E+00	-1.09218139197E+00
2.00873430381E+06	-1.66065878032E+01	-1.46957772454E+02	1.23683627152E+01	1.68547587757E+02	-4.64872767888E+01	-4.12709316578E+01	-5.84675586195E+00	-9.95319243414E-01
2.03092565841E+06	-1.74064737166E+01	1.47514284644E+02	1.23318328519E+01	1.69041353488E+02	-5.72088182361E+01	-1.38593105459E+02	-5.83918992725E+00	-9.70460629051E-01
2.05311701300E+06	-1.22236219504E+01	1.76386316282E+02	1.22764410423E+01	1.68508152849E+02	-3.86059456971E+01	1.05040776906E+02	-5.81406863922E+00	-1.20161606537E+00
2.07530836760E+06	-1.30185698793E+01	-1.74153501064E+02	1.23170301169E+01	1.68304248331E+02	-3.02258229157E+01	1.66368459864E+02	-5.76196903445E+00	-6.46178841942E-01
2.09749972219E+06	-1.06863190035E+01	-4.63677381835E+01	1.24297973589E+01	1.68546166669E+02	-4.89490450188E+01	-9.20363818496E+01	-5.84530336776E+00	-9.84211810165E-01
2.11969107679E+06	-1.73140230666E+01	-1.58347792044E+02	1.23387113246E+01	1.68167671535E+02	-5.11998349480E+01	-6.50083649613E+01	-5.84789389056E+00	-1.13347747772E+00
2.14188243138E+06	-1.96154132392E+01	-1.56073047956E+02	1.23579928756E+01	1.68013464564E+02	-4.54534963263E+01	-1.65222917369E+02	-5.82840858455E+00	-9.15591370878E-01
2.16407378598E+06	-2.05696995358E+01	-1.75187562053E+02	1.23147732062E+01	1.67992166031E+02	-4.45888625256E+01	9.77167526374E+01	-5.81095093720E+00	-1.20369914645E+00
2.18626514057E+06	-1.94041862051E+01	1.64950046891E+02	1.23465869560E+01	1.67971243388E+02	-5.03247800493E+01	-1.69117717306E+02	-5.83224770083E+00	-1.16229435572E+00
2.20845649517E+06	-1.87807461301E+01	1.76604848426E+02	1.23583703578E+01	1.67657955017E+02	-4.30757756264E+01	-2.29062904128E+01	-5.85337768544E+00	-1.00937098503E+00
2.23064784976E+06	-1.52966172409E+01	-1.49009415731E+02	1.23484609945E+01	1.67372185892E+02	-3.39585307585E+01	-1.46518118935E+02	-5.82103723076E+00	-8.73981068187E-01
2.25283920436E+06	-9.53842864655E+00	1.47868818682E+02	1.22698349438E+01	1.67240727864E+02	-4.70203686139E+01	-1.53434643431E+01	-5.86089697498E+00	-9.48732801824E-01
2.27503055895E+06	-1.88591605517E+01	1.78144213484E+02	1.23578480066E+01	1.67242500209E+02	-4.82551446251E+01	1.01328402053E+02	-5.83486621994E+00	-1.25019348105E+00
2.29722191355E+06	-2.18511948022E+01	-1.60952721012E+02	1.23607710872E+01	1.67175921298E+02	-4.60399997150E+01	-6.19485510311E+01	-5.84978224740E+00	-1.03966039857E+00
2.31941326814E+06	-1.91696424904E+01	1.58316932048E+02	1.23318694802E+01	1.67052137977E+02	-4.23571716587E+01	6.21562223688E+01	-5.85785137289E+00	-1.26530691794E+00
2.34160462274E+06	-1.69335068090E+01	-1.68241130201E+02	1.23216708777E+01	1.66782253039E+02	-6.48378334846E+01	1.15148324151E+02	-5.83790974932E+00	-1.26165194731E+00
2.36379597733E+06	-1.85581595546E+01	-1.74727725672E+02	1.23645050360E+01	1.66810452925E+02	-4.38199590394E+01	6.62580736534E+01	-5.84756273718E+00	-1.26862706848E+00
2.38598733193E+06	-1.22395466271E+01	-1.76003134083E+02	1.23349042572E+01	1.66249085834E+02	-3.10415921545E+01	9.24694679582E+01	-5.81726464700E+00	-1.48872914375E+00
2.40817868652E+06	-1.18729036426E+01	-1.36117124095E+02	1.23416704781E+01	1.66141477275E+02	-4.79918017926E+01	1.50593047288E+02	-5.81993976945E+00	-1.34082654592E+00
2.43037004112E+06	-1.79585618456E+01	1.63256705835E+02	1.23286275952E+01	1.66403033566E+02	-4.59964859050E+01	1.70146620350E+02	-5.81490191396E+00	-1.53397069228E+00
2.45256139571E+06	-1.36444088454E+01	1.70952710596E+02	1.22975787580E+01	1.66206781691E+02	-4.82477849000E+01	-1.27505877635E+02	-5.82785863238E+00	-1.26876492788E+00
2.47475275031E+06	-1.78952950697E+01	1.69400930068E+02	1.23572112015E+01	1.66066348970E+02	-4.49270137176E+01	-8.72521341969E+01	-5.87355196011E+00	-1.05838800063E+00
2.49694410490E+06	-1.54665325093E+01	-1.76015494630E+02	1.23469051753E+01	1.65946725261E+02	-4.94799343769E+01	-1.56713799894E+02	-5.83316985875E+00	-1.15663057835E+00
2.51913545950E+06	-1.65631958544E+01	-1.56810180829E+02	1.23706294475E+01	1.65589643202E+02	-4.49108216071E+01	-2.88786136032E+01	-5.85841799236E+00	-1.29032990879E+00
2.54132681409E+06	-1.88010021498E+01	-1.73855558945E+02	1.23547571115E+01	1.65522110096E+02	-2.91466214777E+01	1.08078611836E+02	-5.79109455518E+00	-1.61581399130E+00
2.56351816869E+06	-1.33044817373E+01	9.20188368311E+01	1.23708592461E+01	1.66209144604E+02	-4.82371673211E+01	-1.67689840573E+01	-5.85586075866E+00	-1.29855866212E+00
2.58570952328E+06	-1.70643294708E+01	1.58436531382E+02	1.23463749227E+01	1.65449745555E+02	-6.23610761661E+01	4.34989196808E+01	-5.85537873155E+00	-1.31623708890E+00
2.60790087788E+06	-2.88606012356E+01	1.77200079649E+02	1.23825582225E+01	1.65559446723E+02	-4.42717715215E+01	1.31497124946E+02	-5.82683782649E+00	-1.30017827870E+00
2.63009223247E+06	-1.73589266973E+01	-1.74841621570E+02	1.23539160944E+01	1.65030452320E+02	-3.98309416872E+01	1.56382188694E+02	-5.81383161382E+00	-9.46986992444E-01
2.65228358707E+06	-1.72537334033E+01	1.79874723709E+02	1.23624485654E+01	1.65049978471E+02	-4.20662086838E+01	-1.42488272121E+01	-5.85911668608E+00	-1.32662176078E+00
2.67447494166E+06	-1.51978184325E+01	-1.79094705398E+02	1.23539900237E+01	1.64734578794E+02	-4.61779654174E+01	7.06281111879E+01	-5.84521996398E+00	-1.50272840893E+00
2.69666629626E+06	-3.11127196821E+01	-1.50689836335E+02	1.24038696234E+01	1.64760897358E+02	-3.53983157605E+01	-1.77510250183E+02	-5.79037511721E+00	-9.90969854635E-01
2.71885765085E+06	-1.27210003034E+01	-1.75760846599E+02	1.23016964726E+01	1.64270885386E+02	-5.36664938462E+01	-1.58966970514E+02	-5.83745054215E+00	-1.28406421735E+00
2.74104900545E+06	-1.72922678989E+01	-1.64755754289E+02	1.23539698731E+01	1.64402680446E+02	-5.14515733308E+01	-1.45342710484E+02	-5.82783737828E+00	-1.40411112678E+00
2.76324036004E+06	-1.99419542027E+01	-1.54674723356E+02	1.23885554423E+01	1.64209122407E+02	-5.71247085213E+01	-1.14758612836E+02	-5.83837949894E+00	-1.28705842932E+00
2.78543171463E+06	-2.17021061163E+01	1.67053587303E+02	1.23687297127E+01	1.64261299886E+02	-4.07710378094E+01	-8.15941198866E+01	-5.86552262273E+00	-9.88823951448E-01
2.80762306923E+06	-2.00625276801E+01	-1.77525164989E+02	1.23875813136E+01	1.64125970325E+02	-4.03936060402E+01	-7.59396489324E+01	-5.86775409821E+00	-1.26636644354E+00
2.82981442382E+06	-1.73396508429E+01	-1.69060493035E+02	1.23481401721E+01	1.63707262928E+02	-4.68967439365E+01	-7.82963039445E+01	-5.84335609158E+00	-1.29815345692E+00
2.85200577842E+06	-1.62905477188E+01	1.70147024884E+02	1.23492762124E+01	1.63777069050E+02	-4.93555273778E+01	1.43201421062E+02	-5.81767128476E+00	-1.51106043723E+00
2.87419713301E+06	-1.34188594805E+01	1.36497882906E+02	1.23279438570E+01	1.64041281959E+02	-4.49282199140E+01	1.68294288049E+02	-5.81845618790E+00	-1.53212216697E+00
