# Hz S DB R 50
! CMT, M5065, 19127446, 24.2.4/2
! Date: 11/8/2024 4:11:23 PM
! Data: Format (Calibration Info)
! Freq	S11:dB/Ang(F2)	S21:dB/Ang(F2)	S12:dB/Ang(F2)	S22:dB/Ang(F2)
3.00000000000E+05	-1.12450116786E+01	-1.43936251423E+02	1.50420440787E+01	-1.77172650908E+02	-4.33546577317E+01	-8.68067771788E+01	-5.82162289198E+00	-1.66459132499E-01
3.22191354595E+05	-1.70529862162E+01	-1.53342071969E+02	1.50687548130E+01	-1.77478618083E+02	-5.05040692644E+01	1.71924012629E+02	-5.82980103411E+00	-3.03508731385E-01
3.44382709190E+05	-2.01531180529E+01	-1.26625699058E+02	1.51058388570E+01	-1.77906571051E+02	-4.44019860874E+01	-2.46128262863E+01	-5.84531412915E+00	-2.73589479702E-01
3.66574063785E+05	-1.97396025339E+01	1.72353690394E+02	1.50958122275E+01	-1.78374833922E+02	-4.76083204518E+01	-1.02099662444E+02	-5.84026177143E+00	-2.14211336980E-01
3.88765418380E+05	-1.80651901802E+01	-1.72278778044E+02	1.50794419385E+01	-1.79102982069E+02	-4.39330498386E+01	-1.60293083032E+02	-5.77653780320E+00	-2.23096235658E-01
4.10956772975E+05	-2.02230420428E+01	-1.57436111554E+02	1.50872803812E+01	-1.79098700154E+02	-3.83496350129E+01	2.76343850748E+01	-5.88250900319E+00	-4.99456712760E-01
4.33148127570E+05	-1.74910770513E+01	1.76836410319E+02	1.50781500801E+01	-1.79460399213E+02	-4.22411333077E+01	4.70725582562E+01	-5.86748413667E+00	-5.85838609250E-01
4.55339482165E+05	-1.90294296083E+01	-9.96787769573E+01	1.51015688198E+01	-1.79931095381E+02	-4.42952184864E+01	1.38253166142E+02	-5.81200321735E+00	-3.77962889761E-01
4.77530836760E+05	-1.52621228941E+01	-1.64275382011E+02	1.50509340280E+01	1.79737129047E+02	-4.26876645597E+01	-4.89480793761E+01	-5.87228318468E+00	-3.63689739287E-01
4.99722191355E+05	-2.40232738621E+01	-1.57417884131E+02	1.50843345261E+01	1.79386873883E+02	-4.68817830346E+01	1.22340471560E+02	-5.81075836166E+00	-5.72201355493E-01
5.21913545950E+05	-1.62554024886E+01	1.53299959649E+02	1.50703299875E+01	1.79478695714E+02	-5.55313077449E+01	3.72932600583E+01	-5.81256290968E+00	-5.33832325810E-01
5.44104900545E+05	-1.51435372210E+01	-1.49671035949E+02	1.50654808658E+01	1.78660036843E+02	-4.42768199256E+01	9.04421489083E+01	-5.83614296410E+00	-6.33686815117E-01
5.66296255139E+05	-1.48456377216E+01	1.70880038563E+02	1.50485369782E+01	1.78818652770E+02	-5.71413831272E+01	1.37386855076E+02	-5.84043202657E+00	-4.25216240183E-01
5.88487609734E+05	-2.31241277642E+01	-1.58549227740E+02	1.51102496124E+01	1.78399033716E+02	-5.71452172993E+01	1.69679891576E+02	-5.82555015347E+00	-2.92603864292E-01
6.10678964329E+05	-1.85360837831E+01	-1.14078981159E+02	1.50736201366E+01	1.78246645800E+02	-5.22628641804E+01	9.68055088019E+01	-5.82165505970E+00	1.80298124639E-02
6.32870318924E+05	-2.14724613197E+01	-1.74200637950E+02	1.50737241306E+01	1.78016732358E+02	-4.95810753977E+01	1.24247471696E+02	-5.83031164321E+00	-3.83905861537E-01
6.55061673519E+05	-1.98466461151E+01	-1.76323064474E+02	1.50633646419E+01	1.77692057938E+02	-5.49882176757E+01	-1.69883591057E+02	-5.82598923584E+00	-4.35731923819E-01
6.77253028114E+05	-1.54474402724E+01	1.43204301860E+02	1.50600151438E+01	1.77657101698E+02	-4.21002062276E+01	4.82171214703E+01	-5.83716903215E+00	-8.40095041188E-01
6.99444382709E+05	-1.81059110279E+01	1.59200501652E+02	1.50740685709E+01	1.77265699870E+02	-5.35861748040E+01	-2.80511125330E+01	-5.82526161482E+00	-3.84761261333E-01
7.21635737304E+05	-2.30882667979E+01	1.67994992492E+02	1.50680304321E+01	1.77029964996E+02	-4.27340663945E+01	-1.67698332008E+02	-5.81144215870E+00	-4.31566784577E-01
7.43827091899E+05	-2.20346163992E+01	1.61164533849E+02	1.50839842957E+01	1.76932762311E+02	-4.49260416956E+01	-1.40335135414E+02	-5.81902887963E+00	-2.96636515569E-01
7.66018446494E+05	-2.14777737869E+01	-1.32275021465E+02	1.51062805274E+01	1.76459014961E+02	-4.40537332332E+01	-9.15898605661E+01	-5.84037153812E+00	-3.00475327760E-01
7.88209801089E+05	-1.90349581988E+01	-1.37058496609E+02	1.51129731741E+01	1.76184046628E+02	-5.31727713096E+01	-8.66314306465E+01	-5.84971099702E+00	-4.90317096032E-01
8.10401155684E+05	-1.96362054418E+01	1.66958210951E+02	1.50816114956E+01	1.76166724952E+02	-4.88215519480E+01	1.22159864296E+02	-5.80587987602E+00	-6.78696846735E-01
8.32592510279E+05	-2.26939904228E+01	1.55232309723E+02	1.50948494399E+01	1.76039652645E+02	-4.50412692786E+01	-5.46259370651E+01	-5.84813207955E+00	-4.55264226384E-01
8.54783864874E+05	-1.89785765111E+01	1.59245219300E+02	1.50645873903E+01	1.75963132481E+02	-4.91744278836E+01	-1.69046637916E+02	-5.83164200420E+00	-3.27240083883E-01
8.76975219469E+05	-1.77814252980E+01	-1.71233986575E+02	1.50691690698E+01	1.75501257914E+02	-4.67252738688E+01	-7.37898406666E+01	-5.85514974789E+00	-4.88103553412E-01
8.99166574064E+05	-2.19841080146E+01	-1.66956885427E+02	1.50666676115E+01	1.75244335411E+02	-4.53064074232E+01	-1.28172486922E+02	-5.82048359452E+00	-5.07988490240E-01
9.21357928659E+05	-1.73880811250E+01	-1.79810053414E+02	1.50657104737E+01	1.75283874933E+02	-5.29301467857E+01	-3.02798720079E+01	-5.84911718256E+00	-5.72827623400E-01
9.43549283254E+05	-2.05057601180E+01	1.76200690108E+02	1.50737490400E+01	1.74881878533E+02	-5.12108942059E+01	-8.66903543442E+01	-5.83355808450E+00	-3.76286850837E-01
9.65740637849E+05	-1.96443435816E+01	-1.70992352791E+02	1.50753947838E+01	1.74713248315E+02	-4.18872495657E+01	1.66408308960E+02	-5.80524819785E+00	-5.82963174991E-01
9.87931992444E+05	-2.23499177198E+01	-1.42588211363E+02	1.51079251986E+01	1.74387337970E+02	-4.49623537082E+01	1.04774575352E+02	-5.81809112279E+00	-6.64710917179E-01
1.01012334704E+06	-1.80384766219E+01	1.62363152006E+02	1.50797358596E+01	1.74477867755E+02	-5.19212042992E+01	1.64646805794E+01	-5.84224702192E+00	-5.95095528299E-01
1.03231470163E+06	-1.56276080977E+01	-1.69967599583E+02	1.50502126058E+01	1.74127422676E+02	-4.82747256767E+01	-6.75368048803E+01	-5.85820916146E+00	-4.08986275715E-01
1.05450605623E+06	-1.87665098161E+01	1.77487320015E+02	1.50728409324E+01	1.73958266128E+02	-4.86998853264E+01	8.86096096771E+01	-5.82337367096E+00	-8.04992329047E-01
1.07669741082E+06	-1.27572740636E+01	-1.74038349864E+02	1.49679344913E+01	1.74813461221E+02	-4.22621742526E+01	2.71345502406E+01	-5.83993526347E+00	-5.07006706777E-01
1.09888876542E+06	-1.50827575522E+01	1.72468257936E+02	1.50482048468E+01	1.73697962918E+02	-4.00674665962E+01	-9.49569599682E+01	-5.84205129515E+00	-1.60168969900E-01
1.12108012001E+06	-1.43495899086E+01	1.68894502281E+02	1.50473815948E+01	1.73511997128E+02	-4.65036301803E+01	7.78291806859E+01	-5.85859109042E+00	-7.49499082675E-01
1.14327147461E+06	-1.97119051272E+01	-1.56352926890E+02	1.50773458330E+01	1.73121135578E+02	-4.20747848483E+01	5.44027375854E+01	-5.83929722265E+00	-8.58744999698E-01
1.16546282920E+06	-1.67861591596E+01	-1.68640381442E+02	1.50569282296E+01	1.73049831056E+02	-4.36781253997E+01	8.64893931109E+01	-5.83039180554E+00	-7.92888746398E-01
1.18765418380E+06	-2.17158678512E+01	-1.71791789866E+02	1.50879891671E+01	1.72788515906E+02	-4.86173765632E+01	-7.19975535425E+01	-5.88719389435E+00	-4.65699910722E-01
1.20984553839E+06	-1.70444939908E+01	-1.57980500820E+02	1.50589521388E+01	1.72545406357E+02	-4.16395283914E+01	1.41057277345E+02	-5.82191020604E+00	-9.01845378136E-01
1.23203689299E+06	-2.07887334095E+01	-1.44486359053E+02	1.50703258120E+01	1.72312452241E+02	-3.97116123611E+01	1.42019896603E+02	-5.80208117158E+00	-5.46331773729E-01
1.25422824758E+06	-2.01572079525E+01	1.78495469809E+02	1.50571660635E+01	1.72445643946E+02	-4.49823935310E+01	1.57040684657E+02	-5.83416300737E+00	-6.88726063212E-01
1.27641960218E+06	-1.42919020356E+01	-1.79761237377E+02	1.50442665772E+01	1.72185238550E+02	-4.38349724639E+01	8.47588428808E+01	-5.84024358814E+00	-7.84683954362E-01
1.29861095677E+06	-1.83097436174E+01	-1.48969270674E+02	1.50793413317E+01	1.71852008592E+02	-4.01910417428E+01	2.47280949419E+01	-5.86500533181E+00	-9.34704248722E-01
1.32080231137E+06	-2.17180089825E+01	-1.72108198616E+02	1.50854995141E+01	1.71822903605E+02	-4.36722340341E+01	-1.37341898794E+02	-5.78735843546E+00	-1.07276572994E+00
1.34299366596E+06	-2.47922616930E+01	1.71045084615E+02	1.50878606579E+01	1.71586421183E+02	-4.20704563288E+01	1.44036507585E+02	-5.81348404194E+00	-9.90259606908E-01
1.36518502056E+06	-1.95209675485E+01	1.63139675486E+02	1.50716469627E+01	1.71560577295E+02	-4.66345530696E+01	1.79230394454E+02	-5.82098352272E+00	-6.43054974728E-01
1.38737637515E+06	-1.23847051121E+01	1.34579840804E+02	1.50265211909E+01	1.71440699007E+02	-3.99647476029E+01	6.42995025972E+01	-5.84641448355E+00	-1.08595544672E+00
1.40956772975E+06	-1.15517561136E+01	1.59518233524E+02	1.50317052717E+01	1.71244162516E+02	-5.66871689978E+01	-3.64327865787E+01	-5.85182542650E+00	-7.15214270652E-01
1.43175908434E+06	-1.56717016105E+01	1.74542431121E+02	1.50537354029E+01	1.70825101394E+02	-4.51891164780E+01	6.12678872383E+01	-5.84627905051E+00	-8.95322106933E-01
1.45395043894E+06	-2.41985968175E+01	-1.57969482316E+02	1.50737801317E+01	1.70762252651E+02	-5.47737140861E+01	-7.07679479304E+01	-5.82207478151E+00	-8.36817297280E-01
1.47614179353E+06	-1.51985944793E+01	-1.55706988496E+02	1.50711847149E+01	1.70373406042E+02	-4.37016515877E+01	-7.36269019718E+01	-5.83089558033E+00	-5.10272430247E-01
1.49833314813E+06	-1.69994803373E+01	-1.51911351095E+02	1.50595664834E+01	1.70182541722E+02	-4.37708223597E+01	1.70988027617E+02	-5.80944148529E+00	-9.68149648884E-01
1.52052450272E+06	-1.48219274935E+01	-1.54565360628E+02	1.50533810585E+01	1.70003494878E+02	-3.69508188402E+01	8.99453420018E+01	-5.80200006679E+00	-1.00834307080E+00
1.54271585732E+06	-1.30530448041E+01	-1.38455861412E+02	1.50923288738E+01	1.69806506447E+02	-4.67041873989E+01	7.25539043350E+01	-5.82919298985E+00	-9.71868827364E-01
1.56490721191E+06	-1.75585499209E+01	1.63464207865E+02	1.50543444586E+01	1.69917739506E+02	-4.83508439986E+01	1.40117018669E+02	-5.80892737783E+00	-8.08602925285E-01
1.58709856651E+06	-1.67446002696E+01	1.69896457419E+02	1.50747848663E+01	1.69793746859E+02	-4.15307370830E+01	-1.03106617703E+01	-5.89632485796E+00	-8.17097861725E-01
1.60928992110E+06	-1.78485617846E+01	1.60084353815E+02	1.50499405768E+01	1.69739716310E+02	-5.47986527093E+01	7.69743347368E+01	-5.83068975590E+00	-9.89354659182E-01
1.63148127570E+06	-1.64874122032E+01	1.61135425217E+02	1.50499242012E+01	1.69650604052E+02	-4.21091001801E+01	1.36515219344E+02	-5.80504391161E+00	-8.80563099831E-01
1.65367263029E+06	-1.61023630455E+01	1.73396261419E+02	1.50371234165E+01	1.69111659503E+02	-5.14968471485E+01	-6.73456288315E+01	-5.86367694821E+00	-8.28745983855E-01
1.67586398489E+06	-2.11942553521E+01	-1.62148024218E+02	1.50820325061E+01	1.69024521602E+02	-3.66228441592E+01	1.51176502424E+02	-5.80004903405E+00	-7.60102651318E-01
1.69805533948E+06	-1.91367402594E+01	1.51741329235E+02	1.50275616320E+01	1.69033924991E+02	-5.61941359833E+01	-3.94072967082E+01	-5.82225124187E+00	-8.88523071616E-01
1.72024669408E+06	-1.55438780202E+01	-1.45857278337E+02	1.50762389704E+01	1.68492521452E+02	-4.37595585490E+01	-5.34894735573E+01	-5.83908575791E+00	-9.93089749816E-01
1.74243804867E+06	-1.69227416731E+01	-1.77976724437E+02	1.50587994729E+01	1.68570693388E+02	-5.10153635344E+01	5.18707718001E+01	-5.85541966422E+00	-9.58549554902E-01
1.76462940327E+06	-1.56446645787E+01	-1.70061807917E+02	1.50456907851E+01	1.68207152217E+02	-4.82451257128E+01	4.54028323122E+01	-5.85837254439E+00	-9.82046482893E-01
1.78682075786E+06	-1.51514552696E+01	-1.63483515326E+02	1.50564042602E+01	1.68171547289E+02	-5.07473652877E+01	-1.26916703266E+02	-5.83915426681E+00	-7.60879546636E-01
1.80901211246E+06	-1.40135853089E+01	-1.75398032860E+02	1.50350303024E+01	1.68131416868E+02	-3.96624920522E+01	-1.23757931432E+02	-5.81824829878E+00	-7.00680016108E-01
1.83120346705E+06	-1.76875402723E+01	-1.57014257202E+02	1.50656601809E+01	1.67731936424E+02	-4.31019213486E+01	-1.27710430828E+02	-5.85777035730E+00	-8.50651643469E-01
1.85339482165E+06	-1.82672592198E+01	-9.67135448402E+01	1.51216809362E+01	1.67689211617E+02	-4.42831992136E+01	1.53707358602E+02	-5.79871747196E+00	-9.79542766665E-01
1.87558617624E+06	-1.66772754199E+01	1.59233662754E+02	1.50447299712E+01	1.67669203262E+02	-4.50728642105E+01	6.46034924324E+00	-5.84093901140E+00	-1.12592246347E+00
1.89777753084E+06	-1.84472205765E+01	-1.48460001057E+02	1.50657064716E+01	1.67167877488E+02	-4.99525919088E+01	-1.31259127021E+02	-5.84707947632E+00	-9.39152928264E-01
1.91996888543E+06	-1.60295384823E+01	-1.56302726641E+02	1.50439719958E+01	1.67093442983E+02	-4.22359992448E+01	6.06829780944E+01	-5.83248104456E+00	-1.15498790482E+00
1.94216024003E+06	-2.00892713546E+01	-1.70124618195E+02	1.50640618213E+01	1.67121166322E+02	-4.03659141439E+01	1.20459419048E+02	-5.81629233571E+00	-1.24251183130E+00
1.96435159462E+06	-1.55468840623E+01	-1.76737471587E+02	1.50198797450E+01	1.66887255526E+02	-5.26244531200E+01	1.67025667460E+02	-5.83739580711E+00	-1.01020926219E+00
1.98654294922E+06	-2.17598509988E+01	-1.59947844633E+02	1.50696202941E+01	1.66639519722E+02	-3.64464929543E+01	-1.15796488011E+02	-5.83605850230E+00	-7.20883751737E-01
2.00873430381E+06	-1.66761799371E+01	-1.42757367474E+02	1.50682324920E+01	1.66342743608E+02	-4.49800872720E+01	1.09723014719E+02	-5.81948526238E+00	-1.02313082379E+00
2.03092565841E+06	-1.23776024802E+01	-1.34454700986E+02	1.50786557544E+01	1.66053262198E+02	-4.63512097703E+01	-9.27584275416E+01	-5.80340839188E+00	-8.60898145276E-01
2.05311701300E+06	-1.86709955568E+01	-1.69062648972E+02	1.50516185532E+01	1.66129773794E+02	-4.21210847774E+01	-5.47343743968E+00	-5.86621177697E+00	-1.07681513170E+00
2.07530836760E+06	-1.86300168366E+01	-1.68927462084E+02	1.50515218954E+01	1.66097106690E+02	-3.91652126781E+01	9.82346405975E+01	-5.80570212367E+00	-1.28645253746E+00
2.09749972219E+06	-1.98345334796E+01	-1.53855117328E+02	1.50890596455E+01	1.65810825014E+02	-5.06551292797E+01	3.67870143651E+01	-5.84699834300E+00	-1.27061819820E+00
2.11969107679E+06	-2.07799518747E+01	-1.64572347971E+02	1.50693955268E+01	1.65708898193E+02	-4.84939870225E+01	7.48756682978E+01	-5.83414871478E+00	-1.05572116394E+00
2.14188243138E+06	-1.95668494862E+01	-1.71009367255E+02	1.50592244180E+01	1.65499880783E+02	-3.85859909496E+01	-2.57899869731E+01	-5.85497336896E+00	-1.07058455254E+00
2.16407378598E+06	-1.68773751472E+01	-1.30258874666E+02	1.50892747202E+01	1.65344652966E+02	-5.83973335460E+01	-9.23640518804E+01	-5.84298909567E+00	-9.72940815524E-01
2.18626514057E+06	-1.63926535182E+01	-8.10023858820E+01	1.51169745035E+01	1.65281329540E+02	-4.16588438695E+01	1.21984171298E+02	-5.80227954949E+00	-1.24094050378E+00
2.20845649517E+06	-1.90372867005E+01	-1.76533245138E+02	1.50898083687E+01	1.65242079604E+02	-5.63038925971E+01	-1.24267004753E+02	-5.82862433105E+00	-9.99252564228E-01
2.23064784976E+06	-2.29896698475E+01	1.64594832640E+02	1.50700271012E+01	1.65085482676E+02	-4.96635765260E+01	-1.28433055709E+02	-5.83920422743E+00	-1.01992259638E+00
2.25283920436E+06	-1.56182709682E+01	-1.79385461222E+02	1.50607126350E+01	1.64748298949E+02	-3.76494335318E+01	5.80664760777E+01	-5.82116176770E+00	-1.55450004227E+00
2.27503055895E+06	-2.12870447446E+01	1.49013540947E+02	1.50613219512E+01	1.64801919073E+02	-5.63062553560E+01	4.29588760722E+01	-5.84158277379E+00	-1.26558370703E+00
2.29722191355E+06	-1.63566800168E+01	-1.59209240048E+02	1.50565244221E+01	1.64221600033E+02	-3.36762616442E+01	-2.55685690224E+00	-5.89912241194E+00	-1.47816521497E+00
2.31941326814E+06	-1.56527541477E+01	8.49073111208E+01	1.50268162147E+01	1.64906457040E+02	-4.94267552050E+01	-1.73754361653E+02	-5.83574088096E+00	-9.64846262544E-01
2.34160462274E+06	-1.57172161147E+01	9.32306626218E+01	1.50439944726E+01	1.64517208605E+02	-4.10663181306E+01	-1.05216921329E+02	-5.83085518054E+00	-8.61474782308E-01
2.36379597733E+06	-1.55031907719E+01	1.64874857784E+02	1.50450703458E+01	1.64119486377E+02	-6.10331988441E+01	-1.02450837416E+02	-5.81608087948E+00	-1.16892004150E+00
2.38598733193E+06	-1.58393410168E+01	1.79099641033E+02	1.50393796631E+01	1.63763857821E+02	-4.30036285512E+01	4.67488774639E+01	-5.84506225667E+00	-1.62883182264E+00
2.40817868652E+06	-1.73302049220E+01	1.67838630663E+02	1.50463284067E+01	1.63769175309E+02	-6.26881944729E+01	2.88921748503E+01	-5.84103444018E+00	-1.36080247651E+00
2.43037004112E+06	-1.79119340282E+01	-1.41197767175E+02	1.50981043779E+01	1.63262300741E+02	-4.74079578398E+01	1.57347051850E+02	-5.81765844720E+00	-1.78754567760E+00
2.45256139571E+06	-1.68571925599E+01	1.71957032522E+02	1.50293598486E+01	1.63362767008E+02	-4.82828603053E+01	1.78779618833E+02	-5.82493969875E+00	-1.22396247759E+00
2.47475275031E+06	-1.42423826163E+01	1.66438321246E+02	1.50145205524E+01	1.63175658925E+02	-3.98724456402E+01	6.20152587531E+01	-5.86103068727E+00	-1.56957727489E+00
2.49694410490E+06	-3.06012240998E+01	1.16010210979E+02	1.50569348387E+01	1.63292987240E+02	-4.77513457139E+01	1.23708217863E+02	-5.82026797581E+00	-1.45424550871E+00
2.51913545950E+06	-1.85469911371E+01	-1.74955744691E+02	1.50324783642E+01	1.62797393553E+02	-4.93368207940E+01	-1.78119977968E+02	-5.83392932064E+00	-1.19998737513E+00
2.54132681409E+06	-1.71846247032E+01	-1.53557873098E+02	1.50626150078E+01	1.62522502392E+02	-5.45817271115E+01	1.77366862086E+02	-5.85310467709E+00	-1.22855185610E+00
2.56351816869E+06	-1.73729347771E+01	-1.71493535134E+02	1.50533361442E+01	1.62432572006E+02	-4.52751536337E+01	1.73746642747E+02	-5.82510738207E+00	-1.08931454561E+00
2.58570952328E+06	-1.98858821071E+01	1.68813990436E+02	1.50684323588E+01	1.62564246026E+02	-4.36384163840E+01	-1.58422936592E+02	-5.80407862571E+00	-9.22147904079E-01
2.60790087788E+06	-2.10841732378E+01	-1.22078941669E+02	1.50951508477E+01	1.62265085808E+02	-4.65045830651E+01	-5.13350159577E+01	-5.85695844235E+00	-1.05263844849E+00
2.63009223247E+06	-2.14221668821E+01	-1.72253023251E+02	1.50757190303E+01	1.62030324815E+02	-4.22002015829E+01	7.26306622895E+01	-5.83188703937E+00	-1.11109940022E+00
2.65228358707E+06	-1.98060704796E+01	1.44975203732E+02	1.50398571955E+01	1.61970077355E+02	-4.41408988785E+01	-1.30239538508E+02	-5.82226832873E+00	-1.07226000163E+00
2.67447494166E+06	-1.49769889861E+01	1.69554149564E+02	1.50391429663E+01	1.61728197267E+02	-4.48904654661E+01	-5.82757156727E+01	-5.86513203252E+00	-1.21168383285E+00
2.69666629626E+06	-2.02172991438E+01	-1.37955150013E+02	1.50927182519E+01	1.61587477459E+02	-5.52180780391E+01	1.43121529739E+02	-5.82331244685E+00	-1.45662083764E+00
2.71885765085E+06	-1.83976868841E+01	1.70514513754E+02	1.50409499144E+01	1.61478227632E+02	-4.36722523054E+01	-6.45802517594E+00	-5.86798368114E+00	-1.46810757477E+00
2.74104900545E+06	-2.15773450375E+01	1.21190674422E+02	1.50726900608E+01	1.61607990107E+02	-4.78816863852E+01	1.74688437235E+02	-5.80775626186E+00	-1.33015833001E+00
2.76324036004E+06	-1.66949653184E+01	-1.42597105721E+02	1.50955784760E+01	1.60853033031E+02	-4.47352524192E+01	-1.24137188094E+02	-5.82350164990E+00	-1.21899318907E+00
2.78543171463E+06	-2.63121263672E+01	-1.54994337532E+02	1.50875472062E+01	1.61156164960E+02	-5.20559296735E+01	-1.28443634457E+02	-5.83599074117E+00	-1.28709479911E+00
2.80762306923E+06	-2.34535049360E+01	-9.70933160077E+01	1.51066276132E+01	1.60977725452E+02	-5.33018851133E+01	-1.17111071214E+02	-5.85031058246E+00	-1.30485895512E+00
2.82981442382E+06	-1.79493942999E+01	1.63531525079E+02	1.50425641903E+01	1.60665732219E+02	-4.09153897743E+01	-1.47101137802E+01	-5.88500042106E+00	-1.43057809567E+00
2.85200577842E+06	-1.57594495858E+01	1.74123077160E+02	1.50284457214E+01	1.60396388663E+02	-4.70698177468E+01	-2.32521845499E+01	-5.86630469708E+00	-1.32636197709E+00
2.87419713301E+06	-1.37486020203E+01	1.73047932858E+02	1.50051285851E+01	1.60058127521E+02	-4.86010084798E+01	1.50997289793E+02	-5.82460686111E+00	-1.46379311266E+00
