# Hz S DB R 50
! CMT, M5065, 19127446, 24.2.4/2
! Date: 11/8/2024 4:08:02 PM
! Data: Format (Calibration Info)
! Freq	S11:dB/Ang(F2)	S21:dB/Ang(F2)	S12:dB/Ang(F2)	S22:dB/Ang(F2)
3.00000000000E+05	-1.77383049294E+01	-1.20192291684E+02	1.26421752567E+01	-1.77328743449E+02	-4.16271490529E+01	1.15687504726E+02	-5.81328016773E+00	-5.50762469846E-01
3.22191354595E+05	-1.58377015578E+01	-1.78005876735E+02	1.26336453794E+01	-1.77833239779E+02	-4.40506831148E+01	-7.27209830905E+01	-5.84747338577E+00	-3.32003273344E-01
3.44382709190E+05	-2.13782946339E+01	-1.77785154779E+02	1.26452440309E+01	-1.78106855153E+02	-4.11183731619E+01	1.50592796689E+02	-5.81614165131E+00	-3.01830200128E-01
3.66574063785E+05	-1.65832606268E+01	-1.67949712533E+02	1.26395937236E+01	-1.78503558867E+02	-4.62469781102E+01	1.09283364645E+02	-5.83230123262E+00	-3.15968553337E-01
3.88765418380E+05	-1.84868754402E+01	1.66861869291E+02	1.26123227391E+01	-1.78857527693E+02	-5.12607052024E+01	-1.76540160654E+02	-5.82580871475E+00	-2.97534545230E-01
4.10956772975E+05	-1.45799773106E+01	1.50295718865E+02	1.26168638556E+01	-1.78841686294E+02	-5.12908001531E+01	-7.95112606505E+00	-5.82857942096E+00	-2.98630633151E-01
4.33148127570E+05	-1.70088536381E+01	-1.55024221273E+02	1.26407522641E+01	-1.79605652069E+02	-4.22635710411E+01	3.48889071875E+01	-5.84572142613E+00	-5.22194246831E-01
4.55339482165E+05	-1.59491161157E+01	1.71307360290E+02	1.26064848262E+01	-1.79661780225E+02	-3.99046234905E+01	1.59998527048E+02	-5.79940801332E+00	-5.14471803348E-01
4.77530836760E+05	-2.31966285568E+01	-1.73751002227E+02	1.26393540662E+01	1.79776198677E+02	-5.40711206151E+01	-1.63101697799E+02	-5.81982395983E+00	-3.42967529698E-01
4.99722191355E+05	-1.41102177869E+01	-1.76436235290E+02	1.26005183141E+01	1.79746946236E+02	-4.25114739723E+01	2.49121907177E+01	-5.85652671951E+00	-4.55229539577E-01
5.21913545950E+05	-1.78062315897E+01	-1.77222695922E+02	1.26437928264E+01	1.79550597176E+02	-3.88581176161E+01	-5.47028573573E+01	-5.86298089163E+00	-3.27452968974E-01
5.44104900545E+05	-2.28041093999E+01	1.26228403106E+02	1.26784222122E+01	1.79332874993E+02	-4.56234667162E+01	1.10316915286E+02	-5.84713433774E+00	-4.58807252577E-01
5.66296255139E+05	-1.36679756446E+01	-1.43701357411E+02	1.26333860868E+01	1.78601504316E+02	-4.88117165727E+01	-1.53228454338E+02	-5.82343772753E+00	-1.96219836499E-01
5.88487609734E+05	-1.66293521155E+01	1.51301635347E+02	1.26398745892E+01	1.78820097735E+02	-4.89562103201E+01	1.69182167204E+02	-5.82849989538E+00	-3.47313093610E-01
6.10678964329E+05	-1.25990246205E+01	1.67558356220E+02	1.26031466200E+01	1.78665918129E+02	-5.05797616088E+01	6.80307252773E+01	-5.84616666393E+00	9.59651206244E-03
6.32870318924E+05	-1.52255842900E+01	-1.57345385889E+02	1.26035824971E+01	1.78064229232E+02	-5.53188363054E+01	-1.33911056034E+00	-5.85874271175E+00	-4.17545564025E-02
6.55061673519E+05	-1.45335714272E+01	1.78725752718E+02	1.26130386918E+01	1.78119106225E+02	-5.18195388864E+01	-1.17227967215E+02	-5.85831928911E+00	-1.69991353499E-01
6.77253028114E+05	-1.83988756100E+01	1.72671945350E+02	1.26342582124E+01	1.77929412574E+02	-4.58109578141E+01	-1.31035816660E+02	-5.84634055548E+00	-5.45250069169E-01
6.99444382709E+05	-1.44035372921E+01	-1.74190741317E+02	1.26178017364E+01	1.77507765640E+02	-4.94014388266E+01	-1.51908329771E+02	-5.85383120199E+00	-4.37523087258E-01
7.21635737304E+05	-1.73763922592E+01	-1.60335194562E+02	1.26220823053E+01	1.77407935145E+02	-4.13369150797E+01	3.63133169888E+01	-5.82106394799E+00	-5.01323719941E-01
7.43827091899E+05	-2.09695217774E+01	-1.61496781244E+02	1.26575273117E+01	1.77283147155E+02	-4.24970904099E+01	4.95662033053E+01	-5.84135000374E+00	-5.45348586267E-01
7.66018446494E+05	-1.27254661076E+01	-1.59858728749E+02	1.26038187992E+01	1.76946937298E+02	-4.28015939018E+01	-6.75832604087E+01	-5.84500463435E+00	-3.97473410593E-01
7.88209801089E+05	-1.55978618839E+01	1.70849825298E+02	1.26125703285E+01	1.76892800838E+02	-4.45200192665E+01	-6.53542704997E+01	-5.84955019654E+00	-3.70650050424E-01
8.10401155684E+05	-2.05058299398E+01	1.63062726235E+02	1.26423876667E+01	1.76793123720E+02	-4.89024776507E+01	-1.41900860326E+02	-5.83607778154E+00	-3.23515459796E-01
8.32592510279E+05	-1.53165232204E+01	-1.74536755417E+02	1.26406626233E+01	1.76496150669E+02	-4.90570729392E+01	5.89671402080E+01	-5.86014079653E+00	-5.30222732534E-01
8.54783864874E+05	-1.46403485000E+01	1.66465037554E+02	1.26032058052E+01	1.76428545492E+02	-4.75364829623E+01	-9.11903922282E+01	-5.83502648564E+00	-4.49005789765E-01
8.76975219469E+05	-1.87529258534E+01	-1.78681726787E+02	1.26463321419E+01	1.76260075510E+02	-4.58674657247E+01	2.25244067809E+01	-5.82731316747E+00	-5.21262807210E-01
8.99166574064E+05	-1.89534243395E+01	1.63279110440E+02	1.26508138812E+01	1.76129306966E+02	-4.92358110492E+01	3.87375044755E+00	-5.86632467016E+00	-4.10970725303E-01
9.21357928659E+05	-1.56208745586E+01	-1.41233877218E+02	1.26327771408E+01	1.75606636214E+02	-4.21217905325E+01	-4.21966077641E+01	-5.86756067989E+00	-4.94414212534E-01
9.43549283254E+05	-1.79029884361E+01	-1.73177464949E+02	1.26457613158E+01	1.75636730161E+02	-4.65597073327E+01	-1.05229162973E+02	-5.84175366800E+00	-4.68257044296E-01
9.65740637849E+05	-1.68067651444E+01	-1.76564071085E+02	1.26305623120E+01	1.75391636283E+02	-4.78155959639E+01	-1.65882145075E+02	-5.80516117355E+00	-4.81380785454E-01
9.87931992444E+05	-1.66631550652E+01	-1.76659351118E+02	1.26300954383E+01	1.75351826469E+02	-4.14015491698E+01	-4.68889538863E+01	-5.85430902747E+00	-4.95634393533E-01
1.01012334704E+06	-1.49566778100E+01	1.76928140115E+02	1.26236282158E+01	1.75300436867E+02	-4.53757199962E+01	-1.71906260591E+02	-5.82060682086E+00	-4.18458701986E-01
1.03231470163E+06	-2.13748180120E+01	-1.40179958780E+02	1.26411108110E+01	1.74832837310E+02	-4.68303910389E+01	-5.66458761449E+01	-5.85579716912E+00	-4.10828341709E-01
1.05450605623E+06	-1.85687537820E+01	-1.49609905051E+02	1.26436417406E+01	1.74681609603E+02	-4.30984534095E+01	-1.54576645156E+02	-5.82879537081E+00	-4.43499726012E-01
1.07669741082E+06	-1.42801445102E+01	1.46110499585E+02	1.25077157341E+01	1.74396623118E+02	-4.84414135330E+01	-1.34095365375E+02	-5.83027116066E+00	-4.81751589909E-01
1.09888876542E+06	-1.76084485027E+01	1.56513202283E+02	1.26291905899E+01	1.74736301339E+02	-4.99330937820E+01	-9.10578741914E+01	-5.81400040586E+00	-4.57282433869E-01
1.12108012001E+06	-1.64599755805E+01	1.55345226472E+02	1.26199854473E+01	1.74599420484E+02	-4.48702464746E+01	9.11582836184E+01	-5.82417292091E+00	-6.20595519659E-01
1.14327147461E+06	-2.09952266477E+01	1.49160858575E+02	1.26498792411E+01	1.74445828970E+02	-3.78415454987E+01	-5.84700242970E+01	-5.86681366487E+00	-5.79787478833E-01
1.16546282920E+06	-1.50384517408E+01	1.42793229264E+02	1.26016792280E+01	1.74233234935E+02	-3.60304844194E+01	1.48225901509E+02	-5.79598790860E+00	-6.85934221822E-01
1.18765418380E+06	-2.16797825190E+01	1.66591746206E+02	1.26359757029E+01	1.74144455697E+02	-4.87535265515E+01	-3.24614615004E+01	-5.85485553130E+00	-6.33715999367E-01
1.20984553839E+06	-2.13386987313E+01	-1.71711646235E+02	1.26412106223E+01	1.73672112355E+02	-5.52216787326E+01	-1.32629150642E+02	-5.81939068053E+00	-6.83268726118E-01
1.23203689299E+06	-3.30370625062E+01	-1.64495178717E+02	1.26701840347E+01	1.73668827803E+02	-4.76670075877E+01	1.70621516214E+02	-5.81832004262E+00	-2.96785200110E-01
1.25422824758E+06	-2.27232189594E+01	1.35900885160E+02	1.26273104092E+01	1.73838191664E+02	-4.78450163407E+01	-1.79376830854E+02	-5.80984868701E+00	-5.25353354886E-01
1.27641960218E+06	-1.56212631969E+01	-1.62793899647E+02	1.26423636238E+01	1.73277648001E+02	-4.50833993064E+01	-8.61992859282E+01	-5.84912914350E+00	-5.21518309135E-01
1.29861095677E+06	-2.67206626090E+01	1.61265670345E+02	1.26386770418E+01	1.73362757380E+02	-3.97810034634E+01	-7.00147054004E+01	-5.86230431337E+00	-5.53055331788E-01
1.32080231137E+06	-1.62239375076E+01	1.51442066177E+02	1.26259471300E+01	1.73125962487E+02	-3.91639562211E+01	6.97725598162E+01	-5.83057049001E+00	-1.13701771861E+00
1.34299366596E+06	-1.67753698562E+01	-1.76153608781E+02	1.26234133869E+01	1.72892403613E+02	-4.86499766650E+01	-1.23372435685E+01	-5.86584605706E+00	-7.82395690961E-01
1.36518502056E+06	-1.60298184516E+01	-1.66913927456E+02	1.26452860507E+01	1.72726798468E+02	-5.00747056583E+01	1.62368343714E+02	-5.81103476129E+00	-6.54835772172E-01
1.38737637515E+06	-1.84841215355E+01	-1.79693595570E+02	1.26259890820E+01	1.72510413592E+02	-4.75396077920E+01	-3.98400224978E+01	-5.84958005926E+00	-6.04403064872E-01
1.40956772975E+06	-1.56189581453E+01	1.68047004183E+02	1.26212929348E+01	1.72605172277E+02	-5.19463952757E+01	-1.55726122090E+01	-5.83997302809E+00	-7.35148810632E-01
1.43175908434E+06	-1.97044851261E+01	-1.54774360564E+02	1.26141960315E+01	1.72111923216E+02	-4.18158414629E+01	8.33693744165E+01	-5.84463618266E+00	-8.04451773891E-01
1.45395043894E+06	-1.99835094873E+01	-1.56124642278E+02	1.26623224776E+01	1.72117268253E+02	-4.89217788997E+01	-1.36267863296E+02	-5.83814244459E+00	-6.44299811056E-01
1.47614179353E+06	-2.33399806633E+01	-1.71205826196E+02	1.26569305419E+01	1.71934580484E+02	-5.17931323979E+01	-3.02132362161E+00	-5.85028424081E+00	-8.67208165615E-01
1.49833314813E+06	-1.62269998141E+01	1.50051629501E+02	1.26196444074E+01	1.72149071295E+02	-4.72300967927E+01	8.43010695201E+01	-5.83152454238E+00	-9.66329748889E-01
1.52052450272E+06	-1.88989931548E+01	1.65484284754E+02	1.26163493533E+01	1.71686488737E+02	-4.54813063766E+01	8.53297449783E+01	-5.82590290542E+00	-9.50689556835E-01
1.54271585732E+06	-1.63800284635E+01	1.58571925954E+02	1.26353249171E+01	1.71688832010E+02	-4.74714750944E+01	1.01328039577E+02	-5.82967340413E+00	-9.53442447940E-01
1.56490721191E+06	-1.94515707297E+01	-1.60062835088E+02	1.26649525526E+01	1.71354885571E+02	-4.60824398826E+01	-4.39334946018E+01	-5.83989768143E+00	-6.50758596859E-01
1.58709856651E+06	-1.62493888059E+01	-1.79700011013E+02	1.26438995616E+01	1.71346199963E+02	-4.36376101631E+01	6.37622652165E+01	-5.83725502193E+00	-8.66678421952E-01
1.60928992110E+06	-2.68305427169E+01	-1.68993945816E+02	1.26493576365E+01	1.71256688438E+02	-4.21257947466E+01	3.49423095028E+01	-5.85923216877E+00	-1.00134621494E+00
1.63148127570E+06	-1.57764068676E+01	-1.53531004733E+02	1.26366124752E+01	1.70821419935E+02	-4.31706211590E+01	1.38171466236E+02	-5.80843745210E+00	-6.98663329407E-01
1.65367263029E+06	-1.67357992042E+01	1.72974098318E+02	1.26094990347E+01	1.70917581285E+02	-4.25862746304E+01	-1.37506095228E+02	-5.83253964974E+00	-7.46715615368E-01
1.67586398489E+06	-2.03638291417E+01	1.69702572776E+02	1.26513939114E+01	1.70753682867E+02	-4.38058908072E+01	1.78303212580E+01	-5.84545246322E+00	-1.08462253989E+00
1.69805533948E+06	-9.64508468033E+00	1.34650626454E+02	1.25478288540E+01	1.70787271116E+02	-4.63783489536E+01	2.29302791635E+01	-5.83346886157E+00	-9.17169911640E-01
1.72024669408E+06	-1.60433877748E+01	-7.60052817758E+01	1.27181302039E+01	1.70487781756E+02	-4.61749836309E+01	7.66188295948E+01	-5.83411002715E+00	-9.46533157474E-01
1.74243804867E+06	-1.68098474712E+01	-1.40529095964E+02	1.26493741403E+01	1.70080544342E+02	-4.49522878768E+01	1.69055573004E+02	-5.81986974538E+00	-7.66694998038E-01
1.76462940327E+06	-1.94779502062E+01	1.65569028682E+02	1.26390203207E+01	1.70283944228E+02	-5.20722914319E+01	-7.94889113214E+01	-5.86440119197E+00	-7.85338337664E-01
1.78682075786E+06	-1.64959690262E+01	-1.66114719468E+02	1.26150483488E+01	1.69793460756E+02	-4.10953303848E+01	5.35538978801E+01	-5.83013026568E+00	-1.08861839331E+00
1.80901211246E+06	-1.50914131909E+01	-1.68004303432E+02	1.26348650095E+01	1.69792055821E+02	-5.25766401968E+01	-2.80834769477E+01	-5.84569682995E+00	-1.03945154704E+00
1.83120346705E+06	-1.57697439725E+01	1.60655238626E+02	1.26188496469E+01	1.69781907804E+02	-4.50877134184E+01	-4.36827198191E+01	-5.85685567759E+00	-8.71481539878E-01
1.85339482165E+06	-1.04798645194E+01	1.36092648510E+02	1.25800817773E+01	1.69847423971E+02	-5.38188922747E+01	7.05472612096E+01	-5.84082296074E+00	-8.63028754958E-01
1.87558617624E+06	-1.78249989978E+01	1.38284136792E+02	1.26072449650E+01	1.69787174867E+02	-4.58793747371E+01	-9.54130781704E+01	-5.84915482405E+00	-8.21703803770E-01
1.89777753084E+06	-1.83403146879E+01	-1.79523409351E+02	1.26168170545E+01	1.69428171610E+02	-6.18491860168E+01	-8.06413786466E+00	-5.84487431016E+00	-9.75023880910E-01
1.91996888543E+06	-2.38229001756E+01	-1.53920829808E+02	1.26687823880E+01	1.69317549352E+02	-4.17372996022E+01	-1.49688803230E+02	-5.82872636171E+00	-8.50185971806E-01
1.94216024003E+06	-2.52803654873E+01	-1.37220128606E+02	1.26876732269E+01	1.69166916729E+02	-3.50286968016E+01	-6.49623117865E+01	-5.87948343988E+00	-7.09603112287E-01
1.96435159462E+06	-1.87842914825E+01	-1.72831506316E+02	1.26324777662E+01	1.69013492706E+02	-3.99741166330E+01	-1.43277386663E+01	-5.87471345140E+00	-1.06640111035E+00
1.98654294922E+06	-1.72869654430E+01	-1.52314114323E+02	1.26355502966E+01	1.68631470138E+02	-4.95171954686E+01	-6.05925931427E+01	-5.85522693233E+00	-1.09204857780E+00
2.00873430381E+06	-2.99428069043E+01	-9.31068317014E+01	1.26765337833E+01	1.68663124827E+02	-4.21998309422E+01	-2.19578954891E+01	-5.86706332629E+00	-1.17235414203E+00
2.03092565841E+06	-1.59238899277E+01	1.23855079832E+02	1.26040322767E+01	1.68915509350E+02	-4.48021826332E+01	-9.68099630433E+01	-5.83402640089E+00	-9.03043606063E-01
2.05311701300E+06	-2.03900066873E+01	-1.76774686753E+02	1.26723796439E+01	1.68423508924E+02	-4.41239335320E+01	1.45811778836E+02	-5.82243831195E+00	-1.19815589213E+00
2.07530836760E+06	-1.62143764672E+01	1.78593447463E+02	1.26262439632E+01	1.68111308163E+02	-3.50336479673E+01	-4.15656592547E+01	-5.89055213288E+00	-9.61000514051E-01
2.09749972219E+06	-1.72691651597E+01	-1.69201690528E+02	1.26519363737E+01	1.68041738556E+02	-4.17669248227E+01	1.18785566212E+02	-5.82630553571E+00	-1.05436704199E+00
2.11969107679E+06	-1.65896985942E+01	-1.63564754824E+02	1.26383037563E+01	1.67742657748E+02	-5.49058771564E+01	1.69555876555E+02	-5.79702528769E+00	-9.45504534458E-01
2.14188243138E+06	-1.62053735264E+01	-1.48417691717E+02	1.26436661393E+01	1.67596484546E+02	-5.05900912989E+01	1.16983525638E+02	-5.80959018660E+00	-1.14581598352E+00
2.16407378598E+06	-9.09195770822E+00	-1.53659338405E+02	1.26389525347E+01	1.67141937730E+02	-4.21250358312E+01	-1.25063688754E+02	-5.84436925698E+00	-9.26536369170E-01
2.18626514057E+06	-8.34584687493E+00	1.75752664570E+02	1.25516357243E+01	1.67085225486E+02	-4.70834722495E+01	2.49100186122E+01	-5.84840990684E+00	-1.14795779374E+00
2.20845649517E+06	-1.82170518067E+01	-1.72986929772E+02	1.26706866107E+01	1.67366124884E+02	-4.91768410881E+01	7.98577642896E+01	-5.80329466635E+00	-1.17452085497E+00
2.23064784976E+06	-1.60588779756E+01	-1.53775849802E+02	1.26328916941E+01	1.67107387665E+02	-4.59186656273E+01	-1.58204357440E+02	-5.82942737510E+00	-1.15060834096E+00
2.25283920436E+06	-1.69217402703E+01	-1.61339040273E+02	1.26577864415E+01	1.67125369634E+02	-3.30073616639E+01	-1.79922806778E+02	-5.79167723439E+00	-9.80714572729E-01
2.27503055895E+06	-2.17585191131E+01	1.53307465345E+02	1.26671949094E+01	1.67157583877E+02	-4.65185121170E+01	-1.26859590619E+02	-5.81143782848E+00	-1.19384583910E+00
2.29722191355E+06	-1.60360897398E+01	-1.64312401097E+02	1.26453039560E+01	1.66502126169E+02	-4.77020719958E+01	1.37369273939E+02	-5.82250358131E+00	-1.19533357194E+00
2.31941326814E+06	-2.34568251330E+01	-1.03797246296E+02	1.26888030910E+01	1.66703901424E+02	-5.84588542603E+01	8.65973903717E+01	-5.83726703715E+00	-1.01499573632E+00
2.34160462274E+06	-2.00597133312E+01	-1.63268282380E+02	1.26592397754E+01	1.66617432964E+02	-5.62598895912E+01	-1.40232325968E+01	-5.85136980029E+00	-1.17325979273E+00
2.36379597733E+06	-1.82251335272E+01	-1.75494552026E+02	1.26358646455E+01	1.66466909225E+02	-4.38369161047E+01	1.23518068707E+02	-5.80299776990E+00	-1.27823383038E+00
2.38598733193E+06	-2.41215716477E+01	1.78965041504E+02	1.26643793327E+01	1.66478377877E+02	-4.65765786065E+01	-4.97675448244E+01	-5.85154519160E+00	-1.14541368157E+00
2.40817868652E+06	-1.65222313321E+01	-1.66801857016E+02	1.26422131816E+01	1.66041651306E+02	-4.15296156274E+01	9.24099611614E+01	-5.82573727504E+00	-1.49896756984E+00
2.43037004112E+06	-1.76255458922E+01	1.73694562519E+02	1.26465179899E+01	1.66180455596E+02	-4.42384020620E+01	-1.70316014562E+01	-5.84555203772E+00	-1.56012067534E+00
2.45256139571E+06	-1.53981435006E+01	-1.33269435929E+02	1.26856975921E+01	1.65890998547E+02	-4.75591217713E+01	-1.34361374220E+02	-5.84704351614E+00	-9.07249490483E-01
2.47475275031E+06	-3.17705792260E+01	1.01723075423E+02	1.26906179207E+01	1.66057207468E+02	-4.54882635462E+01	9.89015081311E+01	-5.81344130625E+00	-1.28243920334E+00
2.49694410490E+06	-8.53254404801E+00	-1.06534074891E+02	1.27564842924E+01	1.65182054476E+02	-4.68418111058E+01	-7.81172059131E+01	-5.86541953041E+00	-1.34136677522E+00
2.51913545950E+06	-1.77153349131E+01	1.72005341468E+02	1.26546451985E+01	1.65481440941E+02	-5.25688168337E+01	-1.18318656907E+02	-5.83249009676E+00	-1.15729547211E+00
2.54132681409E+06	-1.71277223196E+01	-1.77894481474E+02	1.26295876424E+01	1.65375574511E+02	-5.54644154858E+01	3.81622603177E+01	-5.84597589175E+00	-1.28279625381E+00
2.56351816869E+06	-1.59818375455E+01	-1.61568397738E+02	1.26490076559E+01	1.65017771763E+02	-3.36937762575E+01	-1.43833191015E+02	-5.81802333855E+00	-8.33179763980E-01
2.58570952328E+06	-2.17917188137E+01	-1.63999340729E+02	1.26683796819E+01	1.65248356877E+02	-4.34778557312E+01	7.34233193549E+01	-5.84725530524E+00	-1.37881700426E+00
2.60790087788E+06	-1.61344426109E+01	1.64326484421E+02	1.26433812908E+01	1.64867136595E+02	-5.58569233606E+01	-9.59119460470E+01	-5.84205687743E+00	-1.14167506204E+00
2.63009223247E+06	-1.63361209420E+01	-1.74513182093E+02	1.26495513672E+01	1.64622414816E+02	-4.77682821840E+01	-1.13653521940E+02	-5.84033591017E+00	-7.79544963408E-01
2.65228358707E+06	-1.89449899493E+01	-1.68071888234E+02	1.26546904285E+01	1.64699923542E+02	-4.49235924209E+01	1.07749659384E+02	-5.83099001092E+00	-1.43867275973E+00
2.67447494166E+06	-1.67167493936E+01	1.75523185110E+02	1.26553022729E+01	1.64586444617E+02	-5.97208178899E+01	1.03428382671E+02	-5.84066081361E+00	-1.28256997433E+00
2.69666629626E+06	-1.69422581722E+01	-1.67584811834E+02	1.26549850912E+01	1.64304673340E+02	-5.35371177362E+01	-1.31228743907E+02	-5.84030482636E+00	-1.46393883450E+00
2.71885765085E+06	-1.67899192218E+01	1.54636467141E+02	1.26233404269E+01	1.64416542012E+02	-3.74132495434E+01	-4.93519493456E+01	-5.86884790301E+00	-1.29100120081E+00
2.74104900545E+06	-2.09444189731E+01	-1.76696741930E+02	1.26778020203E+01	1.64221753130E+02	-4.42697317425E+01	1.65238427701E+02	-5.81415756178E+00	-1.34296228121E+00
2.76324036004E+06	-1.59600135308E+01	-1.69557710484E+02	1.26388489143E+01	1.64056159530E+02	-4.44753022872E+01	-1.27502440621E+02	-5.82298654568E+00	-1.21998181748E+00
2.78543171463E+06	-1.74016761285E+01	1.78729594575E+02	1.26642483529E+01	1.63993762377E+02	-4.69067275410E+01	-1.88175451386E+00	-5.85959012588E+00	-1.44951961466E+00
2.80762306923E+06	-1.55488313325E+01	-1.64890674877E+02	1.26489018088E+01	1.63440261738E+02	-4.92691171106E+01	1.16329297669E+02	-5.84294055076E+00	-1.59962522509E+00
2.82981442382E+06	-1.73177454253E+01	-1.74211427069E+02	1.26535583556E+01	1.63590515123E+02	-4.43678874658E+01	-1.22774442636E+02	-5.83386745826E+00	-1.21571880920E+00
2.85200577842E+06	-2.10614448459E+01	-1.72084097091E+02	1.26856105023E+01	1.63350670601E+02	-4.73203059243E+01	1.69256261732E+02	-5.81788361406E+00	-1.36291941331E+00
2.87419713301E+06	-1.70673323224E+01	-1.76534541066E+02	1.26661714100E+01	1.63469568517E+02	-4.98331553518E+01	1.73148664693E+02	-5.82302257305E+00	-1.24347782100E+00
