# Hz S DB R 50
! CMT, M5065, 19127446, 24.2.4/2
! Date: 11/8/2024 3:56:17 PM
! Data: Format (Calibration Info)
! Freq	S11:dB/Ang(F2)	S21:dB/Ang(F2)	S12:dB/Ang(F2)	S22:dB/Ang(F2)
3.00000000000E+05	-1.72351793782E+01	1.53215368866E+02	7.56343592829E+00	-1.77385473937E+02	-4.05733209041E+01	1.42227272744E+02	-5.84663853596E+00	-3.84353574212E-01
3.22191354595E+05	-1.78744902291E+01	1.74149884999E+02	7.51824338267E+00	-1.77830366356E+02	-4.38855566982E+01	-1.24035981066E+02	-5.84613305413E+00	-2.62366950643E-01
3.44382709190E+05	-1.74815660441E+01	1.75356780133E+02	7.51269480029E+00	-1.78107678889E+02	-4.55665460310E+01	3.04613099078E+01	-5.87053398209E+00	-4.08096217937E-01
3.66574063785E+05	-2.01642033983E+01	-1.27605753821E+02	7.53370376289E+00	-1.78710994341E+02	-4.15148465946E+01	7.66778427353E+01	-5.84461960954E+00	-5.36664148047E-01
3.88765418380E+05	-1.75938126116E+01	-1.35963100758E+02	7.52515151938E+00	-1.78898327520E+02	-4.45047343766E+01	-7.24998614282E+01	-5.85584741402E+00	-2.22698910155E-01
4.10956772975E+05	-1.55284612620E+01	1.48549195895E+02	7.54039234139E+00	-1.78699422942E+02	-6.40036482765E+01	1.47700433455E+02	-5.82476880863E+00	-3.85197091314E-01
4.33148127570E+05	-1.45062965076E+01	-1.73202401080E+02	7.53212391360E+00	-1.79475839098E+02	-4.89209104399E+01	-1.01752105267E+02	-5.83731640759E+00	-2.62965039508E-01
4.55339482165E+05	-1.65014378849E+01	1.74009911939E+02	7.52436134586E+00	-1.79737635643E+02	-4.47374736007E+01	1.00322315275E+02	-5.83486595426E+00	-3.09039756168E-01
4.77530836760E+05	-1.39119004164E+01	-1.62573258374E+02	7.56464485339E+00	-1.79887817607E+02	-4.16225447074E+01	5.94821616176E+00	-5.86582603801E+00	-2.77745731506E-01
4.99722191355E+05	-1.58744447481E+01	-1.77883744528E+02	7.54876446413E+00	1.79850644874E+02	-4.43088687039E+01	1.65558803423E+02	-5.81807099600E+00	-2.50783156513E-01
5.21913545950E+05	-1.50237405253E+01	1.53391998060E+02	7.55735408325E+00	1.79797280958E+02	-4.88423577016E+01	1.60418286214E+02	-5.83301063089E+00	-4.85051996461E-01
5.44104900545E+05	-1.53004921664E+01	-1.56057492521E+02	7.53075193044E+00	1.79443249599E+02	-4.14433907444E+01	-2.04815623928E+01	-5.86281001008E+00	-2.46883417300E-01
5.66296255139E+05	-1.94454304223E+01	1.53473757061E+02	7.58959481479E+00	1.79531293145E+02	-5.18285924926E+01	-1.53532646538E+02	-5.85071626515E+00	-4.06085491640E-01
5.88487609734E+05	-2.24228955610E+01	1.69008865582E+02	7.56637193989E+00	1.79139502225E+02	-4.11284019286E+01	-1.56569327552E+02	-5.83556279136E+00	-3.09924329877E-01
6.10678964329E+05	-1.87133955663E+01	1.57576185965E+02	7.57492228264E+00	1.79205852810E+02	-4.26089171019E+01	2.21603934227E+01	-5.86920106107E+00	1.69615010000E-02
6.32870318924E+05	-1.78949119989E+01	1.51254562085E+02	7.53760417053E+00	1.79352680210E+02	-5.21473103093E+01	-1.45786540397E+02	-5.83690671883E+00	-1.39984733885E-02
6.55061673519E+05	-1.43465048593E+01	1.67643831400E+02	7.50816773400E+00	1.78857179274E+02	-4.25286180570E+01	1.66499474395E+02	-5.82607333537E+00	-1.61606322944E-01
6.77253028114E+05	-1.84368456325E+01	1.26526896908E+02	7.52883992989E+00	1.78398971612E+02	-4.32512662647E+01	-3.64288002417E+01	-5.85077540587E+00	-6.11040294805E-01
6.99444382709E+05	-1.20901654240E+01	-1.65326241373E+02	7.52701483771E+00	1.78182131238E+02	-6.23729617238E+01	1.49704996827E+02	-5.85856261874E+00	-4.65125790504E-01
7.21635737304E+05	-1.69408098661E+01	-1.77702266754E+02	7.55691382888E+00	1.78296707407E+02	-5.28058830543E+01	1.08254631803E+02	-5.82891601930E+00	-4.55950805900E-01
7.43827091899E+05	-1.70465342465E+01	-1.77365198195E+02	7.54432976228E+00	1.78218664810E+02	-4.98888175768E+01	-7.87727021971E+00	-5.82789521876E+00	-5.19435327647E-01
7.66018446494E+05	-1.91003967307E+01	-1.67691432800E+02	7.55207244827E+00	1.78027275623E+02	-4.22508804691E+01	-8.86343136751E+00	-5.85753549540E+00	-4.53678146774E-01
7.88209801089E+05	-1.32738391941E+01	1.68729756304E+02	7.52437535068E+00	1.77903762298E+02	-3.80359921564E+01	-6.61323643787E+00	-5.86707690240E+00	-3.35037551288E-01
8.10401155684E+05	-1.72556140412E+01	1.73570742220E+02	7.56549605705E+00	1.77584670749E+02	-7.15245249887E+01	1.60080561668E+02	-5.82052004912E+00	-5.16005349584E-01
8.32592510279E+05	-1.68014531049E+01	-1.65919819649E+02	7.57352056212E+00	1.77537474557E+02	-4.11009645567E+01	-1.13131844701E+02	-5.83257267843E+00	-2.68069021086E-01
8.54783864874E+05	-2.26066311831E+01	-1.61077409752E+02	7.59795820722E+00	1.77454129024E+02	-3.61053906665E+01	3.96325540219E+01	-5.83018303002E+00	-5.51532873079E-01
8.76975219469E+05	-1.65327675039E+01	1.55902714675E+02	7.55038531444E+00	1.77491084112E+02	-5.28476783191E+01	-1.37197932901E+01	-5.85403560343E+00	-3.90998347128E-01
8.99166574064E+05	-2.14530212824E+01	-1.57811855664E+02	7.60513606955E+00	1.77295072169E+02	-3.99681029785E+01	-1.10331602749E+02	-5.86011725494E+00	-3.55817595520E-01
9.21357928659E+05	-1.79806198693E+01	1.69312366021E+02	7.51052961874E+00	1.77040118848E+02	-4.59980043225E+01	-1.17587639581E+02	-5.85814739722E+00	-6.93469680471E-01
9.43549283254E+05	-1.64381605448E+01	1.78402549628E+02	7.55030756413E+00	1.76640147613E+02	-3.97026251294E+01	1.39021264287E+02	-5.82183767876E+00	-5.61581440613E-01
9.65740637849E+05	-2.19130708148E+01	-1.40944767477E+02	7.56428247998E+00	1.76897403697E+02	-4.16506228842E+01	-1.74730092958E+02	-5.82764872096E+00	-4.41297922593E-01
9.87931992444E+05	-1.46271978519E+01	-1.65388013048E+02	7.56298364224E+00	1.76447003158E+02	-4.17888188920E+01	-9.38772240494E+01	-5.84509904350E+00	-5.58297421665E-01
1.01012334704E+06	-2.22400179927E+01	1.62680497737E+02	7.57581495573E+00	1.76716335544E+02	-3.83324224207E+01	1.41090592671E+02	-5.81394214275E+00	-6.01921956343E-01
1.03231470163E+06	-1.85710775281E+01	-1.64894906811E+02	7.54670389802E+00	1.76350242698E+02	-5.20595717967E+01	1.11992899022E+02	-5.85945191154E+00	-4.67441959549E-01
1.05450605623E+06	-2.05470125720E+01	-1.73020484558E+02	7.57701353970E+00	1.76278088703E+02	-5.04766365994E+01	-9.04959639483E+01	-5.86000520731E+00	-5.27215519694E-01
1.07669741082E+06	-1.67053822162E+01	-1.39886166714E+02	7.56200376223E+00	1.76217720702E+02	-6.09120359435E+01	1.40190960431E+00	-5.84184234020E+00	-5.98180173278E-01
1.09888876542E+06	-1.84715748893E+01	1.68905339852E+02	7.54721605255E+00	1.76296518419E+02	-5.53732626259E+01	9.57805289617E+01	-5.83530609170E+00	-5.97498181033E-01
1.12108012001E+06	-1.99365524371E+01	-1.76043457364E+02	7.58801737195E+00	1.75855710178E+02	-4.96399600704E+01	-1.69462668026E+02	-5.84381395655E+00	-6.80246089795E-01
1.14327147461E+06	-1.51439235150E+01	1.50955433619E+02	7.53477724119E+00	1.76024303632E+02	-5.43184117005E+01	-1.53338057249E+02	-5.85053885973E+00	-6.97857737966E-01
1.16546282920E+06	-2.04248316923E+01	1.48729203119E+02	7.54160904797E+00	1.75893454797E+02	-5.19157629083E+01	1.44365901245E+02	-5.84430864273E+00	-5.10704243776E-01
1.18765418380E+06	-1.84667774419E+01	1.68510741437E+02	7.58247596804E+00	1.75812175464E+02	-5.80406760717E+01	-1.06605641568E+02	-5.84339275179E+00	-5.52382503299E-01
1.20984553839E+06	-1.69431094576E+01	-1.75046759269E+02	7.56941026071E+00	1.75339696326E+02	-5.95080171394E+01	6.67053720276E+01	-5.84863397918E+00	-8.14491263268E-01
1.23203689299E+06	-1.72962021526E+01	-1.58306260070E+02	7.62656516135E+00	1.75523871590E+02	-4.68468465951E+01	-1.24684087539E+02	-5.82499778144E+00	-2.95002184206E-01
1.25422824758E+06	-1.63073142427E+01	-1.78237595091E+02	7.57084222288E+00	1.75199698036E+02	-4.72305505150E+01	3.38630037202E+01	-5.86055211759E+00	-7.90716932246E-01
1.27641960218E+06	-2.09168092534E+01	1.60135842347E+02	7.57944950348E+00	1.75328052932E+02	-5.52554728962E+01	-1.04227282785E+02	-5.86556358626E+00	-6.19183587946E-01
1.29861095677E+06	-1.73910159422E+01	1.77806405724E+02	7.56955546901E+00	1.75231052656E+02	-5.26340870402E+01	4.86480265810E+01	-5.83369370731E+00	-5.57354719367E-01
1.32080231137E+06	-2.20190350192E+01	1.56226126574E+02	7.56570116889E+00	1.74883457038E+02	-4.40771265843E+01	-6.30288459764E+01	-5.84835793762E+00	-9.01143685234E-01
1.34299366596E+06	-1.50823817158E+01	1.72929552134E+02	7.56526182236E+00	1.74667945338E+02	-4.57934268749E+01	-1.21489788843E+02	-5.84715141480E+00	-6.30826218911E-01
1.36518502056E+06	-1.95467491244E+01	1.71671600807E+02	7.54741208808E+00	1.74963684943E+02	-4.32362961678E+01	1.76090761210E+02	-5.82054904800E+00	-5.96864809793E-01
1.38737637515E+06	-1.74401260075E+01	-1.71462598989E+02	7.55595180563E+00	1.74939680537E+02	-3.93520275931E+01	1.67360265437E+01	-5.84594752259E+00	-7.17505950712E-01
1.40956772975E+06	-1.70532253142E+01	1.66085537078E+02	7.56382900776E+00	1.74406926260E+02	-4.18860799005E+01	6.78548462546E+01	-5.83832819261E+00	-7.23788319666E-01
1.43175908434E+06	-2.25219743545E+01	-1.42815080196E+02	7.61127292854E+00	1.74419011554E+02	-4.23836140020E+01	1.66379083620E+02	-5.82155324289E+00	-6.04271617362E-01
1.45395043894E+06	-1.52027880395E+01	-1.73732752464E+02	7.56630041582E+00	1.74243658746E+02	-4.90676683512E+01	-1.67371681060E+02	-5.82608047431E+00	-7.35566558667E-01
1.47614179353E+06	-1.82965366755E+01	-1.78930435714E+02	7.55631051469E+00	1.74284759543E+02	-3.81074120105E+01	1.17829084448E+02	-5.81423596713E+00	-8.74155342517E-01
1.49833314813E+06	-2.30817732220E+01	1.58626166468E+02	7.58814568855E+00	1.74067421607E+02	-4.35499309622E+01	1.38188312137E+02	-5.84312630538E+00	-9.29988631096E-01
1.52052450272E+06	-1.45437486018E+01	1.72987608668E+02	7.54701799033E+00	1.73764670151E+02	-4.60006618215E+01	-2.83445200708E+01	-5.84662699256E+00	-8.51207428831E-01
1.54271585732E+06	-1.52271521520E+01	1.57719110689E+02	7.54094870928E+00	1.73994315085E+02	-4.73680959541E+01	7.94661491344E+01	-5.83861425775E+00	-7.79608890883E-01
1.56490721191E+06	-1.53833898192E+01	1.72055124972E+02	7.54650320577E+00	1.73927440613E+02	-4.37528820196E+01	-1.46893721677E+02	-5.83662420294E+00	-6.45527552812E-01
1.58709856651E+06	-1.66237360995E+01	-1.61029213345E+02	7.55269164469E+00	1.73543495037E+02	-3.98325442869E+01	7.05491037415E+01	-5.84516983670E+00	-8.64604224466E-01
1.60928992110E+06	-1.82522146458E+01	-1.73520812448E+02	7.57342432406E+00	1.73448339036E+02	-4.99703456511E+01	-5.26851479924E+00	-5.86982812932E+00	-8.62100361826E-01
1.63148127570E+06	-2.12946173583E+01	1.77358513976E+02	7.55865478524E+00	1.73559198003E+02	-5.21772549955E+01	-1.06007863122E+02	-5.82475419537E+00	-7.59978553139E-01
1.65367263029E+06	-1.76484016884E+01	-1.51816045241E+02	7.60763107767E+00	1.72921773952E+02	-3.66544553430E+01	1.24867100883E+02	-5.82228100865E+00	-1.02823672821E+00
1.67586398489E+06	-2.50075479282E+01	-1.62807912200E+02	7.58202059190E+00	1.73170489806E+02	-4.13517866431E+01	-1.72232498696E+02	-5.82033361988E+00	-8.07930007982E-01
1.69805533948E+06	-1.62041120623E+01	1.66471307865E+02	7.54472433937E+00	1.73144743738E+02	-4.36476457738E+01	-3.93341938764E+01	-5.86594456284E+00	-9.58654572910E-01
1.72024669408E+06	-1.97071721153E+01	1.69425736313E+02	7.57017912838E+00	1.73042527666E+02	-5.60768292539E+01	-3.96950642144E+01	-5.83058960619E+00	-9.31203893489E-01
1.74243804867E+06	-1.52639839142E+01	-1.76340367144E+02	7.51961382139E+00	1.72970877105E+02	-4.35540445028E+01	-1.37003668766E+02	-5.84619164474E+00	-1.01420579475E+00
1.76462940327E+06	-1.81915792494E+01	1.67286978074E+02	7.54758873120E+00	1.72722023928E+02	-4.95385431437E+01	8.61452907328E+01	-5.85538566724E+00	-8.82842318725E-01
1.78682075786E+06	-1.61681701633E+01	-1.71119316412E+02	7.55420946325E+00	1.72551219806E+02	-5.25723891339E+01	4.38355493725E+01	-5.87210893679E+00	-9.06134086673E-01
1.80901211246E+06	-2.21858222518E+01	7.78247704275E+01	7.56879090689E+00	1.72954443347E+02	-4.09018923455E+01	1.36901807788E+02	-5.81639013145E+00	-9.28984585890E-01
1.83120346705E+06	-1.85415376511E+01	-1.49134403213E+02	7.59384226880E+00	1.72406316999E+02	-3.77007632410E+01	-1.11498864284E+02	-5.84404602897E+00	-7.00834696096E-01
1.85339482165E+06	-1.64283188562E+01	1.69911567272E+02	7.56014683383E+00	1.72506803048E+02	-4.31316057128E+01	9.66321311598E+01	-5.83300764281E+00	-8.34272912305E-01
1.87558617624E+06	-1.71463116966E+01	-1.56337560219E+02	7.58133777788E+00	1.72077540682E+02	-5.04636105606E+01	9.26572886587E+00	-5.87025577481E+00	-9.89264479222E-01
1.89777753084E+06	-1.62951521412E+01	-1.64347552671E+02	7.57291687816E+00	1.72043063612E+02	-4.57112585660E+01	8.68695116532E+01	-5.83800642050E+00	-9.31290082853E-01
1.91996888543E+06	-1.47812109491E+01	1.77995203168E+02	7.54761869414E+00	1.72038683610E+02	-4.63664526577E+01	1.56683983081E+02	-5.82295929463E+00	-9.03363429858E-01
1.94216024003E+06	-1.38171366078E+01	-1.77088193885E+02	7.55539840053E+00	1.71674376413E+02	-3.87765641976E+01	1.33291575718E+02	-5.82384722896E+00	-8.86049298843E-01
1.96435159462E+06	-2.18484360709E+01	-8.12941981418E+01	7.62294205401E+00	1.71795518727E+02	-3.70566392402E+01	-7.42634188105E+01	-5.87827801713E+00	-9.78188959785E-01
1.98654294922E+06	-1.53880470905E+01	-1.60656933971E+02	7.58785912500E+00	1.71518523384E+02	-4.92226787789E+01	3.96681417864E+01	-5.85946891520E+00	-1.06745309268E+00
2.00873430381E+06	-1.43811967955E+01	-1.61766147659E+02	7.55569890944E+00	1.71193575736E+02	-4.32844476108E+01	-1.49414346210E+01	-5.86795393140E+00	-8.73602984808E-01
2.03092565841E+06	-2.03595975720E+01	-1.71514866045E+02	7.58884209790E+00	1.71673697319E+02	-3.95057476873E+01	-1.10179528339E+02	-5.84418328672E+00	-8.63352187852E-01
2.05311701300E+06	-1.76943120559E+01	-1.49407095035E+02	7.59374314990E+00	1.71135268241E+02	-4.19223208279E+01	4.77696365828E+01	-5.84543385967E+00	-9.91584151008E-01
2.07530836760E+06	-1.58393624783E+01	1.71603682384E+02	7.57161771141E+00	1.71315346071E+02	-4.57396344388E+01	1.18758711221E+02	-5.84856078876E+00	-1.15009885395E+00
2.09749972219E+06	-1.52464565633E+01	-1.15205610652E+02	7.61444153928E+00	1.71070224023E+02	-4.35500796557E+01	4.75978604956E+00	-5.84542031372E+00	-1.09229121354E+00
2.11969107679E+06	-2.07266083839E+01	7.57874177481E+01	7.61148248194E+00	1.71626853343E+02	-3.59442761375E+01	9.77641022949E+01	-5.80885096349E+00	-1.20397332340E+00
2.14188243138E+06	-1.37472112391E+01	-1.63216678363E+02	7.61118478588E+00	1.70802048979E+02	-5.82274286470E+01	3.69787587157E+01	-5.83411468837E+00	-1.09502419837E+00
2.16407378598E+06	-1.59694563995E+01	-1.68947721351E+02	7.56357485359E+00	1.70590093583E+02	-5.53892361965E+01	1.43230136918E+02	-5.83921873680E+00	-1.10823934119E+00
2.18626514057E+06	-1.46638370791E+01	-1.64686915034E+02	7.59629199600E+00	1.70643286916E+02	-4.70517612158E+01	8.55763357849E+00	-5.85373396450E+00	-1.11368617695E+00
2.20845649517E+06	-1.55837453298E+01	-1.49786284198E+02	7.59619186988E+00	1.70615253721E+02	-4.38927820637E+01	-2.05724965225E+00	-5.85763119068E+00	-1.21270128866E+00
2.23064784976E+06	-1.79716498051E+01	-1.62543113033E+02	7.60188186995E+00	1.70582971359E+02	-4.50075233579E+01	-1.28592009305E+01	-5.85496545911E+00	-1.18700064966E+00
2.25283920436E+06	-1.69206221499E+01	-1.72513526290E+02	7.60793326572E+00	1.70640049656E+02	-4.59417179865E+01	-1.74019861834E+02	-5.83348226837E+00	-9.96660387867E-01
2.27503055895E+06	-1.08803551107E+01	-1.35902602493E+02	7.66182249729E+00	1.70400973725E+02	-3.20516903350E+01	1.66310964695E+02	-5.79904637692E+00	-9.10865470507E-01
2.29722191355E+06	-1.69322582850E+01	-1.62834055340E+02	7.61143312212E+00	1.69893121962E+02	-4.99130771631E+01	-1.69937500568E+02	-5.84507794444E+00	-1.29062656737E+00
2.31941326814E+06	-2.57357776732E+01	1.67453154512E+02	7.60810416151E+00	1.70276592224E+02	-4.82310933117E+01	-1.68023150743E+02	-5.83838322395E+00	-1.11924979098E+00
2.34160462274E+06	-1.55881321397E+01	1.78108539282E+02	7.53804311441E+00	1.69862772502E+02	-5.15010961528E+01	1.20065161216E+02	-5.83641646707E+00	-1.15886661546E+00
2.36379597733E+06	-1.94640230392E+01	-1.62725211787E+02	7.63141226246E+00	1.69891930447E+02	-5.38812779027E+01	-3.59275182305E+01	-5.83641581894E+00	-1.17400332706E+00
2.38598733193E+06	-2.23033718788E+01	-1.62870674053E+02	7.60588935900E+00	1.69937078110E+02	-3.91928553900E+01	-1.10466255413E+02	-5.86917181147E+00	-1.02339165304E+00
2.40817868652E+06	-1.50511674020E+01	-1.66052871852E+02	7.57702746006E+00	1.69478988639E+02	-4.65853632355E+01	8.85898669249E+01	-5.83514441479E+00	-1.36918674329E+00
2.43037004112E+06	-1.86933194382E+01	-1.67519721176E+02	7.57408709001E+00	1.69492162203E+02	-2.93083526498E+01	-4.96322840508E+01	-5.90274991621E+00	-1.76138898836E+00
2.45256139571E+06	-1.67872817893E+01	-1.75720902338E+02	7.54449331121E+00	1.69335749882E+02	-4.60838337466E+01	4.68090639405E+01	-5.84299286189E+00	-1.31452275212E+00
2.47475275031E+06	-1.77227943559E+01	1.78755377001E+02	7.57856736726E+00	1.69392311674E+02	-5.35171875636E+01	1.71326979517E+02	-5.87439267500E+00	-1.18084688052E+00
2.49694410490E+06	-1.60338115635E+01	1.75837531277E+02	7.56188128976E+00	1.69305949401E+02	-4.86429470908E+01	-9.46206852658E+01	-5.83471028218E+00	-1.20284360938E+00
2.51913545950E+06	-1.87202107011E+01	-1.61689276975E+02	7.62559027017E+00	1.69211666927E+02	-4.70508529883E+01	1.32518866103E+02	-5.83198087460E+00	-1.37580715737E+00
2.54132681409E+06	-1.81852714864E+01	-1.48408048311E+02	7.60404206757E+00	1.68962900766E+02	-4.83736238748E+01	-1.00530533218E+02	-5.84233893395E+00	-1.12475083154E+00
2.56351816869E+06	-1.34928081176E+01	1.64807094616E+02	7.54567789544E+00	1.68961889487E+02	-4.73243607659E+01	8.09216146063E+01	-5.83044956532E+00	-1.34331396258E+00
2.58570952328E+06	-6.53141232851E+00	1.78627267899E+02	7.49378844340E+00	1.68496018785E+02	-4.71258675190E+01	4.35497475312E+01	-5.85260937596E+00	-1.30220822716E+00
2.60790087788E+06	-1.79530289822E+01	1.69478745182E+02	7.60741391042E+00	1.68992755573E+02	-4.81168982676E+01	1.27330015993E+02	-5.84978457132E+00	-1.18439072798E+00
2.63009223247E+06	-1.63511277348E+01	-1.38027072789E+02	7.63761819898E+00	1.68427006208E+02	-4.57012869203E+01	1.73066373399E+02	-5.82311261501E+00	-8.07130984054E-01
2.65228358707E+06	-1.95629045778E+01	-1.68882974538E+02	7.62864965077E+00	1.68729909668E+02	-4.15501363362E+01	5.43033789514E+01	-5.84868786159E+00	-1.41294683525E+00
2.67447494166E+06	-1.84800972211E+01	-1.48798268210E+02	7.62010094463E+00	1.68597714517E+02	-4.41132149925E+01	9.15452081440E+01	-5.83424978759E+00	-1.36381430053E+00
2.69666629626E+06	-1.54505892432E+01	-1.72957798459E+02	7.58792305964E+00	1.68058382388E+02	-5.33105691207E+01	-2.22888800095E+00	-5.84827864070E+00	-1.42129459836E+00
2.71885765085E+06	-1.79962649911E+01	-1.55236856529E+02	7.57973655098E+00	1.68365852326E+02	-4.37673537125E+01	9.24489582444E+01	-5.84811486743E+00	-1.39043929456E+00
2.74104900545E+06	-2.37184940199E+01	-1.61534485543E+02	7.65782459542E+00	1.68450914570E+02	-4.69004984808E+01	-9.86875217728E+00	-5.86989721638E+00	-1.47386221098E+00
2.76324036004E+06	-1.47393129098E+01	-1.68624330558E+02	7.58320978718E+00	1.68028503982E+02	-4.94318601503E+01	-1.23716734175E+02	-5.86186018884E+00	-1.37714349000E+00
2.78543171463E+06	-1.79708315927E+01	1.68454761405E+02	7.56873136872E+00	1.68232972289E+02	-4.89880455093E+01	-6.53513826961E+01	-5.84991335238E+00	-1.34638852307E+00
2.80762306923E+06	-1.69091243316E+01	-1.50436711716E+02	7.59318473469E+00	1.67882075252E+02	-4.37756340684E+01	-1.79705870480E+02	-5.85273510411E+00	-1.29463364628E+00
2.82981442382E+06	-1.78849305893E+01	-1.62280050221E+02	7.61574405439E+00	1.67730456332E+02	-5.50081157996E+01	1.63234346276E+02	-5.82802131205E+00	-1.39490577544E+00
2.85200577842E+06	-1.88783537394E+01	-1.60178855009E+02	7.59043722250E+00	1.67692200216E+02	-5.10110222434E+01	-1.62916408797E+02	-5.83204987834E+00	-1.32555553191E+00
2.87419713301E+06	-3.94831333939E+01	-5.57320139609E+01	7.64078905335E+00	1.67859473008E+02	-4.31512227821E+01	7.57839077028E+01	-5.83303875535E+00	-1.50440439963E+00
