# Hz S DB R 50
! CMT, M5065, 19127446, 24.2.4/2
! Date: 11/8/2024 4:15:21 PM
! Data: Format (Calibration Info)
! Freq	S11:dB/Ang(F2)	S21:dB/Ang(F2)	S12:dB/Ang(F2)	S22:dB/Ang(F2)
3.00000000000E+05	-1.83585526009E+01	-1.77572894484E+02	1.92306520483E+01	-1.75941832828E+02	-4.01378006762E+01	-2.89165307192E+01	-5.88375538986E+00	-1.08893058769E-01
3.22191354595E+05	-1.96068447916E+01	-1.23012122214E+02	1.92829263261E+01	-1.77163759790E+02	-4.24926451955E+01	-1.50335142070E+02	-5.77341408070E+00	-2.28005719642E-01
3.44382709190E+05	-1.83831037921E+01	1.63145958055E+02	1.92691229970E+01	-1.77471717610E+02	-5.04293156642E+01	1.54591793586E+02	-5.81081773522E+00	-5.06185104822E-01
3.66574063785E+05	-1.66135365946E+01	-1.71382305939E+02	1.92577548512E+01	-1.78170435477E+02	-4.99821329573E+01	8.00438456059E+01	-5.82633078104E+00	-5.08956112064E-01
3.88765418380E+05	-1.66002375735E+01	1.48472353574E+02	1.92437270969E+01	-1.78293667326E+02	-4.50559384615E+01	1.68034065346E+02	-5.80283087920E+00	-1.58042558609E-01
4.10956772975E+05	-1.69030766989E+01	1.76900943835E+02	1.92473016579E+01	-1.79208625134E+02	-4.54677061099E+01	-8.42534675351E+01	-5.83870398292E+00	-2.37348212144E-01
4.33148127570E+05	-1.75613239420E+01	1.68827397504E+02	1.92886296153E+01	-1.79662463428E+02	-3.47572345071E+01	-1.24511519520E+01	-5.89251752906E+00	-4.25518550235E-01
4.55339482165E+05	-1.99998441205E+01	-1.69902020109E+02	1.92659431187E+01	1.79915015628E+02	-5.31364293248E+01	1.93189886035E+01	-5.86769884829E+00	-3.26770348488E-01
4.77530836760E+05	-1.72460485645E+01	-1.69874485105E+02	1.92520517925E+01	1.79445990501E+02	-5.15148461448E+01	1.45039734518E+02	-5.80206571011E+00	-3.37280675675E-01
4.99722191355E+05	-1.67590072845E+01	-1.39000256997E+02	1.92579006181E+01	1.78919367966E+02	-4.94117331758E+01	8.66343372010E+01	-5.84235878359E+00	-3.48963296575E-01
5.21913545950E+05	-1.74635645729E+01	-1.65935339024E+02	1.92590345281E+01	1.78506197121E+02	-4.83148203829E+01	1.06495026391E+02	-5.85549966530E+00	-3.61507437335E-01
5.44104900545E+05	-1.75828293888E+01	-1.79347554073E+02	1.92521276745E+01	1.78382123601E+02	-4.34587646967E+01	-2.54065610314E+01	-5.84325961927E+00	-2.49833253556E-01
5.66296255139E+05	-2.81337597677E+01	-1.70344623646E+02	1.92840554328E+01	1.77798318850E+02	-3.82005506151E+01	1.11050836325E+02	-5.78379548265E+00	-7.99435393490E-01
5.88487609734E+05	-2.11229072691E+01	-1.26745330403E+02	1.92917792220E+01	1.77540435251E+02	-5.01839818845E+01	-1.53471588659E+02	-5.83848384710E+00	-2.71595759982E-01
6.10678964329E+05	-1.69255599938E+01	1.47178098630E+02	1.92488184019E+01	1.77339339074E+02	-4.67018587226E+01	-1.21272636077E+02	-5.80817614861E+00	3.50387910791E-01
6.32870318924E+05	-2.12509558162E+01	-1.60178316702E+02	1.92592995830E+01	1.76777920936E+02	-4.13476151103E+01	-9.09054953045E+01	-5.86226126396E+00	1.97130873535E-01
6.55061673519E+05	-1.66351814157E+01	-1.76966014939E+02	1.92301034083E+01	1.76454481906E+02	-3.94241977079E+01	7.49105139325E+01	-5.85413416989E+00	-9.38529845647E-01
6.77253028114E+05	-1.86062139697E+01	-1.51586398996E+02	1.92683021045E+01	1.76019444163E+02	-4.29943520611E+01	1.72888723583E+02	-5.78874020499E+00	-6.62819684327E-01
6.99444382709E+05	-1.83817108997E+01	1.66578192227E+02	1.92487283994E+01	1.75939565709E+02	-4.31215022478E+01	-1.69050688282E+02	-5.78728157992E+00	-4.22634278461E-01
7.21635737304E+05	-2.18488719953E+01	-1.79113241864E+02	1.92659514666E+01	1.75559066594E+02	-3.70794854458E+01	1.73883382637E+02	-5.79153773906E+00	-2.99339591892E-01
7.43827091899E+05	-1.83769092572E+01	-1.42266757304E+02	1.92635298891E+01	1.75247290316E+02	-3.61517808655E+01	1.18284362156E+02	-5.77427269467E+00	-6.75581566628E-01
7.66018446494E+05	-1.62074017873E+01	1.61571539874E+02	1.92564377817E+01	1.75077806271E+02	-4.00401141483E+01	-4.56638031048E+01	-5.88533366132E+00	-9.72523930516E-02
7.88209801089E+05	-1.94113584325E+01	-1.56989307255E+02	1.92691046792E+01	1.74535691902E+02	-4.64288506834E+01	3.11825771312E+01	-5.86722780793E+00	-5.54350225310E-01
8.10401155684E+05	-1.69139100492E+01	1.53646364737E+02	1.92401088658E+01	1.74404095538E+02	-4.36613125555E+01	1.10273169648E+02	-5.78776425715E+00	-7.19682535307E-01
8.32592510279E+05	-1.74079795738E+01	-1.45722260657E+02	1.92611036158E+01	1.73965414203E+02	-5.30252873028E+01	-1.48137478044E+02	-5.81190325705E+00	-4.53750250815E-01
8.54783864874E+05	-1.47890090509E+01	1.76829468017E+02	1.92372378168E+01	1.73830652279E+02	-4.96414493839E+01	-7.84407129899E+01	-5.84161543052E+00	-2.68800974083E-01
8.76975219469E+05	-2.16201707714E+01	1.62759461849E+02	1.92728562947E+01	1.73523948939E+02	-4.96630491641E+01	-1.61700591844E+02	-5.82384727416E+00	-5.44130277905E-01
8.99166574064E+05	-1.74817881808E+01	-1.76251537386E+02	1.92318607972E+01	1.73146197434E+02	-4.49302642840E+01	8.96833272896E+01	-5.82437141818E+00	-6.29353756227E-01
9.21357928659E+05	-1.79398052243E+01	1.68785205905E+02	1.92291487214E+01	1.73072778626E+02	-5.45999489271E+01	5.03732497381E+01	-5.81846204848E+00	-5.71502787943E-01
9.43549283254E+05	-1.83282145222E+01	-1.42571824829E+02	1.92444879636E+01	1.72549543567E+02	-4.70999600898E+01	1.65771752560E+02	-5.80575271450E+00	-5.91952543610E-01
9.65740637849E+05	-1.63025124692E+01	1.77925421383E+02	1.92386131055E+01	1.72377600144E+02	-4.70066856357E+01	-4.74697019341E+01	-5.83705721213E+00	-4.02085334856E-01
9.87931992444E+05	-1.43315707307E+01	1.75450148345E+02	1.92152479547E+01	1.72076412580E+02	-4.70410525224E+01	-4.18824611648E+00	-5.87685721352E+00	-4.50319001291E-01
1.01012334704E+06	-1.42155866844E+01	-1.72902363576E+02	1.91963005626E+01	1.71992840420E+02	-4.73327919141E+01	7.97431744274E+01	-5.84328636459E+00	-8.26547912115E-01
1.03231470163E+06	-1.83416099216E+01	1.65434145794E+02	1.92358719528E+01	1.71737545250E+02	-4.18995137617E+01	-3.05215667743E+01	-5.86320697579E+00	-2.48592705687E-01
1.05450605623E+06	-1.65784942404E+01	-1.67458682185E+02	1.92219381320E+01	1.71296457541E+02	-3.85540501093E+01	1.29021737793E+02	-5.79742405309E+00	-9.47474509026E-01
1.07669741082E+06	-1.88265020637E+01	1.25026624144E+02	1.92002966829E+01	1.71303395653E+02	-4.32455665037E+01	-6.17784874120E+01	-5.90769922091E+00	-2.81599189177E-01
1.09888876542E+06	-1.54932251821E+01	-1.60770609461E+02	1.92144850945E+01	1.70730271493E+02	-4.45828703328E+01	-1.49947446286E+02	-5.76772976769E+00	-4.29473512004E-01
1.12108012001E+06	-1.36059493848E+01	1.64836073216E+02	1.91906191647E+01	1.70790936420E+02	-5.09265432332E+01	1.04257148805E+02	-5.82712020123E+00	-7.71200149484E-01
1.14327147461E+06	-1.48241840079E+01	-1.78582344036E+02	1.91834431059E+01	1.70439187776E+02	-4.30248023441E+01	1.15123007376E+02	-5.80702626941E+00	-1.09621327405E+00
1.16546282920E+06	-2.30396548638E+01	-1.76086006647E+02	1.92203155496E+01	1.70105365302E+02	-3.97933248975E+01	1.19508073817E+00	-5.90058663568E+00	-6.51207672402E-01
1.18765418380E+06	-1.45637586843E+01	-1.79202858417E+02	1.91847901054E+01	1.69811813897E+02	-5.24605716129E+01	-1.19034262083E+02	-5.84807654533E+00	-6.30186432226E-01
1.20984553839E+06	-1.32557122827E+01	-1.70099718826E+02	1.91727980648E+01	1.69531667988E+02	-4.11775266984E+01	-5.45997618867E+01	-5.86445301501E+00	-4.31820357334E-01
1.23203689299E+06	-1.81872143914E+01	1.75286393981E+02	1.92053064353E+01	1.69633697509E+02	-5.97171775237E+01	-5.51420054786E+01	-5.83336225792E+00	-4.34263015842E-01
1.25422824758E+06	-1.89722389618E+01	9.92278471892E+01	1.92058634695E+01	1.69633710957E+02	-4.93770746333E+01	-1.41753189546E+02	-5.84062097205E+00	-6.44440436956E-01
1.27641960218E+06	-1.66623203261E+01	-1.71622441371E+02	1.91977239036E+01	1.68814216636E+02	-4.23141872025E+01	1.28595084301E+02	-5.80443225452E+00	-6.98092764646E-01
1.29861095677E+06	-1.88430152901E+01	-1.36283329247E+02	1.92375623932E+01	1.68544124995E+02	-5.31616642387E+01	1.03207662085E+02	-5.82344980415E+00	-7.34464405477E-01
1.32080231137E+06	-1.60548070050E+01	-1.56174372441E+02	1.92119979094E+01	1.68260454826E+02	-5.30096412501E+01	-6.82862175475E+01	-5.84530920535E+00	-9.68554742615E-01
1.34299366596E+06	-1.26166689475E+01	1.65852661363E+02	1.91535463404E+01	1.68254735356E+02	-4.50494906552E+01	1.53107250996E+02	-5.79985544521E+00	-7.90256359900E-01
1.36518502056E+06	-1.90706593332E+01	-1.75779043526E+02	1.91896969405E+01	1.67871895238E+02	-3.75962899732E+01	2.64054589920E+01	-5.89381446670E+00	-8.57547994321E-01
1.38737637515E+06	-1.42147342394E+01	1.37859656294E+02	1.91334597972E+01	1.67882903396E+02	-4.99016651172E+01	-1.83914871430E+00	-5.85175751166E+00	-6.96648767090E-01
1.40956772975E+06	-1.24600395591E+01	1.54133652033E+02	1.91535751666E+01	1.67544747016E+02	-4.89662671533E+01	1.57790039867E+02	-5.80756450044E+00	-7.41115282629E-01
1.43175908434E+06	-1.68119552398E+01	1.66265426127E+02	1.91774360012E+01	1.67305421007E+02	-4.87512430336E+01	1.78004642673E+01	-5.85803460445E+00	-8.27831675458E-01
1.45395043894E+06	-1.79223742494E+01	-1.78630108474E+02	1.91692024432E+01	1.67133831093E+02	-4.39111353097E+01	6.20119051165E+01	-5.86549842346E+00	-9.36314474860E-01
1.47614179353E+06	-1.82384617172E+01	-1.75229933148E+02	1.91874218845E+01	1.66799735292E+02	-4.34982133461E+01	1.59671996100E+02	-5.76375163692E+00	-9.88996621850E-01
1.49833314813E+06	-1.81022245246E+01	-1.38041456658E+02	1.91974024726E+01	1.66523658710E+02	-5.14048151219E+01	-1.71050719854E+02	-5.80812032069E+00	-7.33457098099E-01
1.52052450272E+06	-1.53412383113E+01	-1.41051144132E+02	1.91878808979E+01	1.65975131219E+02	-4.02376806049E+01	4.53709744924E+01	-5.86913345863E+00	-9.77243096595E-01
1.54271585732E+06	-1.90894001665E+01	-1.67086506209E+02	1.91809480809E+01	1.66044338075E+02	-4.83866552206E+01	2.01334095463E+01	-5.87187042424E+00	-8.33411368652E-01
1.56490721191E+06	-1.34746869542E+01	1.73566749239E+02	1.91463481889E+01	1.65874170671E+02	-4.23904331872E+01	-1.58739855116E+02	-5.79260774299E+00	-7.05280927466E-01
1.58709856651E+06	-1.83097952521E+01	1.73432596911E+02	1.91903975650E+01	1.65724857117E+02	-4.92131735452E+01	5.20256873391E+01	-5.82241238837E+00	-1.00508833719E+00
1.60928992110E+06	-1.85751059787E+01	-1.54903331303E+02	1.91795201926E+01	1.65228142533E+02	-4.20022414939E+01	-1.13306571774E+02	-5.83150181522E+00	-4.48915916581E-01
1.63148127570E+06	-2.27368209284E+01	-1.35620847378E+02	1.91983299209E+01	1.65246890852E+02	-4.65913660031E+01	8.98054929167E+01	-5.84593074923E+00	-9.60382221080E-01
1.65367263029E+06	-1.62822220619E+01	-1.69285520420E+02	1.91678379507E+01	1.64888523622E+02	-3.80335624887E+01	-8.32542743503E+00	-5.90743842270E+00	-9.06578010389E-01
1.67586398489E+06	-1.99177298275E+01	1.73238338385E+02	1.91650912104E+01	1.64955286230E+02	-4.73688514657E+01	6.70656679491E+01	-5.86009003643E+00	-1.11910531244E+00
1.69805533948E+06	-1.44179888356E+01	1.79477663781E+02	1.91401108469E+01	1.64472668094E+02	-4.87035495997E+01	7.85466912813E+01	-5.85840878147E+00	-1.18537157163E+00
1.72024669408E+06	-2.42732347720E+01	-1.38899209608E+02	1.91704094673E+01	1.64256255755E+02	-4.16777870249E+01	-3.87759389242E+01	-5.91393588152E+00	-7.60990555032E-01
1.74243804867E+06	-1.49559356588E+01	1.73865285216E+02	1.91107627332E+01	1.64077419390E+02	-5.15733356293E+01	-5.38853905123E+01	-5.84060220887E+00	-6.80711306747E-01
1.76462940327E+06	-2.06446337390E+01	1.57587590254E+02	1.91598096947E+01	1.64028806508E+02	-4.37514182215E+01	9.42100303577E+01	-5.80915044277E+00	-1.14218175847E+00
1.78682075786E+06	-2.05374952921E+01	1.76492173260E+02	1.91475170188E+01	1.63589280913E+02	-4.60659702774E+01	-1.65206590104E+02	-5.78235846029E+00	-7.51848000491E-01
1.80901211246E+06	-1.36473367351E+01	1.56067447535E+02	1.90963508018E+01	1.63483097646E+02	-5.08513855480E+01	-1.59461931580E+02	-5.80506969513E+00	-9.19194380629E-01
1.83120346705E+06	-2.04985179896E+01	-1.38483761548E+02	1.91544645190E+01	1.62961354305E+02	-3.31158439299E+01	-1.13437466730E+02	-5.84336680917E+00	-1.44347148347E-01
1.85339482165E+06	-1.83253916274E+01	-1.41309027387E+02	1.91834269222E+01	1.62644768018E+02	-4.58494598075E+01	-6.53441539257E+01	-5.84539917876E+00	-7.37277563196E-01
1.87558617624E+06	-1.60387243384E+01	1.50624208359E+02	1.91300614824E+01	1.62699969272E+02	-5.05334126279E+01	-9.54617690446E+01	-5.82298813183E+00	-8.04486119099E-01
1.89777753084E+06	-1.39079599198E+01	1.64635718320E+02	1.90987531714E+01	1.62413008434E+02	-4.50679600784E+01	-6.37907898381E+01	-5.87356474546E+00	-8.22364388169E-01
1.91996888543E+06	-1.88429793884E+01	-1.46603270345E+02	1.91644713414E+01	1.62139218923E+02	-5.66393761408E+01	-1.54683997243E+02	-5.82893204729E+00	-7.71755817004E-01
1.94216024003E+06	-1.75006946584E+01	1.45183655095E+02	1.91080550626E+01	1.62285439384E+02	-4.29061722938E+01	-1.27258123540E+02	-5.83216168235E+00	-7.77194742639E-01
1.96435159462E+06	-1.90626671449E+01	-1.60874589791E+02	1.91193294899E+01	1.61662139285E+02	-4.67214439042E+01	-6.29829507259E+01	-5.86974057831E+00	-7.35457894541E-01
1.98654294922E+06	-1.93982977503E+01	1.74800137504E+02	1.91448638392E+01	1.61649377603E+02	-3.49146659898E+01	1.52612018442E+02	-5.77197937343E+00	-1.16951911536E+00
2.00873430381E+06	-1.38533723598E+01	1.76182534437E+02	1.90957042427E+01	1.61132003586E+02	-4.30239164719E+01	1.19841493641E+02	-5.80114373890E+00	-1.14776745065E+00
2.03092565841E+06	-2.11482025895E+01	1.68622016609E+02	1.91044304840E+01	1.61076865342E+02	-4.83641342304E+01	-1.66428732489E+02	-5.80424498802E+00	-9.85242500971E-01
2.05311701300E+06	-1.68495325203E+01	-1.56291497654E+02	1.91122746833E+01	1.60713592384E+02	-4.44504656718E+01	1.39618042308E+02	-5.79694286154E+00	-1.23997087971E+00
2.07530836760E+06	-1.92208860136E+01	1.56616063278E+02	1.91153857109E+01	1.60677714709E+02	-4.03992689346E+01	-1.70072877440E+02	-5.77629668057E+00	-8.83163719597E-01
2.09749972219E+06	-2.29321749235E+01	-1.57693368085E+02	1.91260781069E+01	1.60496473290E+02	-4.47439138527E+01	-1.77004647205E+02	-5.78138137494E+00	-8.88732831123E-01
2.11969107679E+06	-2.57037739605E+01	-1.50983990012E+02	1.91500344602E+01	1.60221859476E+02	-5.98892206141E+01	1.74842268864E+01	-5.84692699062E+00	-1.20203551885E+00
2.14188243138E+06	-1.52695982619E+01	1.34443907147E+02	1.90704883538E+01	1.60230297328E+02	-3.71603104630E+01	1.36009920518E+02	-5.76005701575E+00	-1.27738944746E+00
2.16407378598E+06	-1.48257858136E+01	1.79388826350E+02	1.91030242815E+01	1.59752092315E+02	-3.65620467711E+01	1.69733770312E+02	-5.72587073591E+00	-1.06152006851E+00
2.18626514057E+06	-1.36954434226E+01	1.64630417015E+02	1.90942456150E+01	1.59480217844E+02	-4.87652914647E+01	-2.73467359546E+01	-5.85605369803E+00	-9.59379246350E-01
2.20845649517E+06	-1.43826464334E+01	-1.76925796178E+02	1.90596137151E+01	1.59203273734E+02	-4.85855044124E+01	1.72816921479E+02	-5.81874219865E+00	-1.06639938890E+00
2.23064784976E+06	-1.63822544382E+01	-1.59991703861E+02	1.90898008361E+01	1.58916673960E+02	-4.33036825723E+01	-1.59429428501E+02	-5.78120586963E+00	-1.12959526008E+00
2.25283920436E+06	-1.88706908008E+01	-1.53221534344E+02	1.91309575199E+01	1.58786087938E+02	-4.22126482155E+01	1.21820249291E+02	-5.77917472871E+00	-1.21918965784E+00
2.27503055895E+06	-1.55863419142E+01	1.79079139668E+02	1.90685295808E+01	1.58505304377E+02	-4.32058002717E+01	-4.80994367461E+01	-5.86386722539E+00	-8.97298461870E-01
2.29722191355E+06	-2.19691591504E+01	1.29408785886E+02	1.91085801743E+01	1.58705389417E+02	-4.17946040349E+01	1.16350353795E+02	-5.78734303133E+00	-1.39128983868E+00
2.31941326814E+06	-1.56298607383E+01	-1.57384218926E+02	1.90926018441E+01	1.57947747903E+02	-4.24381191991E+01	1.05859411738E+02	-5.80434027312E+00	-1.57799812097E+00
2.34160462274E+06	-1.48373259843E+01	1.70357635775E+02	1.90558653598E+01	1.57905530907E+02	-5.15587760849E+01	1.10490647460E+02	-5.82773701000E+00	-1.27495621190E+00
2.36379597733E+06	-1.49479911051E+01	-1.55651926303E+02	1.90945560484E+01	1.57434305358E+02	-4.67373463591E+01	1.29400671522E+02	-5.79018479279E+00	-1.21336947316E+00
2.38598733193E+06	-1.48683743251E+01	-1.77076632013E+02	1.90660983816E+01	1.57368305090E+02	-4.46587077270E+01	-4.74499963778E+01	-5.87888969443E+00	-1.11877409522E+00
2.40817868652E+06	-1.47028166412E+01	1.74420959727E+02	1.90407643221E+01	1.57448183751E+02	-4.80614122714E+01	9.36788489930E+01	-5.82124935490E+00	-1.60697548533E+00
2.43037004112E+06	-2.16713737783E+01	-1.70983523823E+02	1.90933745341E+01	1.57156329522E+02	-4.07528931611E+01	9.12744109691E+01	-5.80753635204E+00	-1.99007005466E+00
2.45256139571E+06	-1.51298862126E+01	-1.77507636863E+02	1.90667158322E+01	1.56868176087E+02	-4.04579565355E+01	-1.65131191833E+02	-5.79621500759E+00	-1.18781325908E+00
2.47475275031E+06	-1.88975037257E+01	-1.45666777857E+02	1.90723184065E+01	1.56503878975E+02	-3.25797871539E+01	1.17183545183E+02	-5.74442585343E+00	-1.87920791619E+00
2.49694410490E+06	-2.31148757051E+01	5.82156506967E+01	1.90807733228E+01	1.56800142853E+02	-5.28931721367E+01	1.73825036998E+01	-5.84711869101E+00	-1.17810053130E+00
2.51913545950E+06	-1.79035950204E+01	1.62188776607E+02	1.90385439820E+01	1.56381832478E+02	-4.48095760542E+01	-1.53800172765E+02	-5.77432254667E+00	-1.07167278325E+00
2.54132681409E+06	-2.15736483252E+01	-1.72788118989E+02	1.90750098514E+01	1.55887809541E+02	-4.59180032077E+01	1.08128209823E+02	-5.80236576181E+00	-1.37797953542E+00
2.56351816869E+06	-1.75209591776E+01	-1.53853388171E+02	1.90425824015E+01	1.55556193744E+02	-5.23227122623E+01	8.31921416334E+01	-5.84993864025E+00	-1.39233424206E+00
2.58570952328E+06	-1.65502245328E+01	-1.71664571119E+02	1.90433008286E+01	1.55418139849E+02	-4.68097042689E+01	1.42220606152E+02	-5.78442414690E+00	-1.24159775569E+00
2.60790087788E+06	-1.81303081786E+01	-1.57834584793E+02	1.90623051824E+01	1.55278985753E+02	-3.64451965370E+01	-2.90547440008E+01	-5.93193058834E+00	-1.09606276007E+00
2.63009223247E+06	-1.69578664090E+01	-1.74903889622E+02	1.90376806930E+01	1.55039248603E+02	-3.94024010374E+01	1.60348606676E+02	-5.78267327490E+00	-1.03403126221E+00
2.65228358707E+06	-1.64331067972E+01	1.34320552469E+02	1.90138888195E+01	1.55067247538E+02	-5.08312001609E+01	-8.68192375982E+01	-5.84367470393E+00	-1.20340033581E+00
2.67447494166E+06	-2.29554248714E+01	1.46682067220E+02	1.90580784454E+01	1.54733505069E+02	-4.34121945102E+01	4.12883449701E+01	-5.87677686472E+00	-1.57572739643E+00
2.69666629626E+06	-1.84105299866E+01	-1.70465145674E+02	1.90464198064E+01	1.54438576423E+02	-5.42365368282E+01	1.40165825782E+02	-5.82423608497E+00	-1.56159486337E+00
2.71885765085E+06	-2.11565884660E+01	1.54172375727E+02	1.90470968041E+01	1.54454222650E+02	-4.18330523509E+01	-1.60226228889E+02	-5.74712110787E+00	-1.05408346892E+00
2.74104900545E+06	-1.84590429782E+01	1.75391114271E+02	1.90358301139E+01	1.54055547569E+02	-4.48621925656E+01	4.32372644550E+01	-5.90624713995E+00	-1.67338419755E+00
2.76324036004E+06	-1.65795446806E+01	-1.75174426962E+02	1.90173676271E+01	1.53801630197E+02	-5.30813846943E+01	-3.86445777111E+01	-5.86676897067E+00	-1.20436126439E+00
2.78543171463E+06	-1.60548150659E+01	1.73723577829E+02	1.90029259137E+01	1.53475119857E+02	-4.46135242347E+01	3.99297417215E+01	-5.83931845850E+00	-1.73754734072E+00
2.80762306923E+06	-1.25101203690E+01	-1.48684873274E+02	1.90311101497E+01	1.53090667909E+02	-5.64848334402E+01	1.51290571343E+02	-5.82785119955E+00	-1.40548017897E+00
2.82981442382E+06	-2.11542606888E+01	-1.70040062813E+02	1.90464443852E+01	1.53152949994E+02	-4.59683302239E+01	-4.88153668751E+01	-5.88075944412E+00	-1.25910603418E+00
2.85200577842E+06	-1.47820386356E+01	-1.72914870565E+02	1.90193917640E+01	1.52795662102E+02	-5.02990150274E+01	-2.15024236368E+01	-5.85838754453E+00	-1.48473772717E+00
2.87419713301E+06	-1.77679268306E+01	-1.73194399181E+02	1.89995592053E+01	1.52675973691E+02	-4.99156885235E+01	-1.03198182515E+02	-5.83767746863E+00	-1.32245291101E+00
