# Hz S DB R 50
! CMT, M5065, 19127446, 24.2.4/2
! Date: 11/8/2024 3:55:11 PM
! Data: Format (Calibration Info)
! Freq	S11:dB/Ang(F2)	S21:dB/Ang(F2)	S12:dB/Ang(F2)	S22:dB/Ang(F2)
3.00000000000E+05	-1.77136239818E+01	1.75428866859E+02	7.18215806626E+00	-1.77532894851E+02	-4.70664315600E+01	6.20830341289E+01	-5.87258521324E+00	-3.70897903598E-01
3.22191354595E+05	-1.67460432860E+01	-1.38102930208E+02	7.17187464129E+00	-1.77931212621E+02	-3.98639844357E+01	1.07363895100E+02	-5.81772349411E+00	-3.82722325477E-01
3.44382709190E+05	-1.48513872409E+01	1.53403514304E+02	7.18498730756E+00	-1.78094920314E+02	-4.44097644982E+01	-1.00464998897E+02	-5.85259261958E+00	-2.35999594522E-01
3.66574063785E+05	-1.89436460416E+01	1.74724116691E+02	7.18918579160E+00	-1.78811121443E+02	-5.47760395530E+01	-7.21729676965E+01	-5.85747380587E+00	-3.39455951200E-01
3.88765418380E+05	-1.58303217373E+01	1.59736404688E+02	7.19672684571E+00	-1.78872861812E+02	-4.21129817905E+01	-1.34238918571E+02	-5.84186214483E+00	-3.64169195123E-01
4.10956772975E+05	-2.35660404174E+01	1.31484483752E+02	7.20999394028E+00	-1.78835859781E+02	-4.55912989367E+01	1.06375252638E+02	-5.86144112800E+00	-4.30451380856E-01
4.33148127570E+05	-1.54719381574E+01	1.69597068609E+02	7.17934999208E+00	-1.79348171378E+02	-4.20263088076E+01	-1.53026893727E+02	-5.83513492691E+00	-4.19939907470E-01
4.55339482165E+05	-1.39665833308E+01	-1.64103587360E+02	7.15027285141E+00	-1.79764618890E+02	-4.34357022400E+01	1.39299916365E+02	-5.82291439040E+00	-3.32641375902E-01
4.77530836760E+05	-1.76091324571E+01	-1.34903384864E+02	7.21057433594E+00	-1.79910024269E+02	-4.46896263365E+01	1.10370659098E+02	-5.85525307828E+00	-3.25042826834E-01
4.99722191355E+05	-1.44712905426E+01	1.61981575031E+02	7.16912136345E+00	-1.79785192791E+02	-4.37625285891E+01	-3.11780749340E+01	-5.83483924671E+00	-2.64750510954E-01
5.21913545950E+05	-2.15898287525E+01	1.69071958032E+02	7.19348494271E+00	1.79757947630E+02	-3.00616220803E+01	-1.28569255679E+02	-5.85546186076E+00	8.46222719071E-03
5.44104900545E+05	-2.04620788810E+01	1.13775856900E+02	7.19072165988E+00	1.79785544261E+02	-5.37698146051E+01	1.67159344070E+02	-5.85550982983E+00	-3.93863393147E-01
5.66296255139E+05	-1.97615951986E+01	-1.40335918414E+02	7.23356668579E+00	1.79570139608E+02	-5.49875149134E+01	1.53568939968E+01	-5.84480450135E+00	-2.66863318605E-01
5.88487609734E+05	-1.55859226666E+01	-1.67039783183E+02	7.19215036209E+00	1.79132497576E+02	-4.25610455357E+01	-2.36658912567E+01	-5.87029653035E+00	-3.63193641626E-01
6.10678964329E+05	-1.53021252125E+01	-1.64405207294E+02	7.17961530793E+00	1.79114682504E+02	-4.20204655673E+01	-3.38902106152E+01	-5.84478666870E+00	1.56277763812E-01
6.32870318924E+05	-1.57015033599E+01	1.79802426633E+02	7.15157364857E+00	1.78929180838E+02	-3.98223246042E+01	-9.88903256817E+01	-5.84885433997E+00	-9.80750411432E-03
6.55061673519E+05	-2.19323899374E+01	1.50548745400E+02	7.26759084113E+00	1.79058771885E+02	-5.48680017371E+01	3.14257837217E-03	-5.83628382442E+00	-2.77673023810E-01
6.77253028114E+05	-2.04584210651E+01	1.50212684603E+02	7.19839641731E+00	1.78735628221E+02	-4.27411204783E+01	-1.05864382112E+02	-5.86720320097E+00	-6.74388458617E-01
6.99444382709E+05	-1.58053620497E+01	1.39342187670E+02	7.19536545859E+00	1.78315262973E+02	-4.22917566722E+01	-1.03459633036E+02	-5.85223086743E+00	-4.55130194982E-01
7.21635737304E+05	-1.56695496979E+01	1.72887409399E+02	7.21032107610E+00	1.78294240106E+02	-5.03789516613E+01	1.10735606059E+02	-5.85723275969E+00	-5.04904776810E-01
7.43827091899E+05	-1.82223350940E+01	1.78704754702E+02	7.21285876309E+00	1.78055991640E+02	-4.14101035749E+01	-1.24534955029E+02	-5.84366186160E+00	-3.25289662415E-01
7.66018446494E+05	-1.68023107823E+01	-1.77120704412E+02	7.20195981226E+00	1.77954113623E+02	-5.04314145379E+01	-2.90717751225E+01	-5.85039941831E+00	-4.59321299402E-01
7.88209801089E+05	-1.50640897225E+01	1.55501109239E+02	7.20494180258E+00	1.78164281595E+02	-4.75196875759E+01	3.89787066189E+01	-5.86008087682E+00	-3.39195124931E-01
8.10401155684E+05	-1.56063530799E+01	-1.77681353348E+02	7.17793875678E+00	1.77660963313E+02	-4.58902743488E+01	1.16860661925E+02	-5.82502357499E+00	-4.47928310236E-01
8.32592510279E+05	-1.78577728560E+01	-1.75140468883E+02	7.24165647478E+00	1.77833949250E+02	-4.12221854800E+01	-1.66509924590E+02	-5.82517554636E+00	-3.17061446465E-01
8.54783864874E+05	-1.73954334811E+01	1.74200152562E+02	7.21530150645E+00	1.77455417971E+02	-4.91491498026E+01	-5.63557349084E+01	-5.84632379546E+00	-4.93516043904E-01
8.76975219469E+05	-1.36796862320E+01	-1.78824123090E+02	7.15237730708E+00	1.77279836050E+02	-4.30483616399E+01	1.39168610108E+02	-5.82003625225E+00	-5.16490575632E-01
8.99166574064E+05	-1.31300807649E+01	-1.67947600533E+02	7.20267617715E+00	1.77008641517E+02	-5.44286762345E+01	-6.78350070746E+01	-5.88143493963E+00	-3.76941158975E-01
9.21357928659E+05	-1.63575876193E+01	1.74445848908E+02	7.17886771513E+00	1.77075692029E+02	-3.94398331322E+01	7.77468120010E+01	-5.85565285250E+00	-6.13622704126E-01
9.43549283254E+05	-1.79275592074E+01	-1.74390620892E+02	7.22164345190E+00	1.76879046226E+02	-4.87890585779E+01	-1.46601483577E+02	-5.82424248230E+00	-4.71992931456E-01
9.65740637849E+05	-1.65359816300E+01	1.74310983343E+02	7.20754875904E+00	1.77239708337E+02	-3.96337187036E+01	1.72450403280E+02	-5.81983072492E+00	-3.96513416724E-01
9.87931992444E+05	-1.67965999139E+01	-1.75262611367E+02	7.21318336277E+00	1.76794036444E+02	-6.18193225202E+01	1.01302283374E+02	-5.84890642569E+00	-4.28965713480E-01
1.01012334704E+06	-1.54986997414E+01	1.22667076995E+02	7.24086595934E+00	1.76703117305E+02	-4.10068635891E+01	-1.28819294308E+02	-5.82567745550E+00	-5.66834193777E-01
1.03231470163E+06	-2.29756073268E+01	4.54393202402E+01	7.24402014246E+00	1.76695421671E+02	-5.49247440653E+01	4.05263956865E+01	-5.85364469779E+00	-6.15307862134E-01
1.05450605623E+06	-1.44090341485E+01	1.79150537353E+02	7.19185193462E+00	1.76568948610E+02	-4.65299212056E+01	-3.18265424705E+01	-5.85046969578E+00	-8.24361041526E-01
1.07669741082E+06	-1.80048868234E+01	1.62299244513E+02	7.16974656996E+00	1.76127015547E+02	-4.62215322750E+01	-1.54399997108E+02	-5.80756931604E+00	-3.83842631659E-01
1.09888876542E+06	-1.87293217326E+01	1.67536518852E+02	7.23018161691E+00	1.76357651833E+02	-4.99633233927E+01	4.86721083852E+01	-5.84863620815E+00	-6.57223522861E-01
1.12108012001E+06	-2.04414392890E+01	-1.70344332701E+02	7.20280977323E+00	1.76019424011E+02	-4.29516436213E+01	1.71384593326E+02	-5.84200305652E+00	-6.09419031471E-01
1.14327147461E+06	-1.75607706701E+01	-1.77154627200E+02	7.19776415564E+00	1.76025686552E+02	-3.68795930196E+01	6.67437832777E+01	-5.83694933488E+00	-8.25829466584E-01
1.16546282920E+06	-1.89227348427E+01	1.66119052005E+02	7.23952918257E+00	1.75969987424E+02	-4.61808744631E+01	-1.67390919376E+02	-5.84871586537E+00	-5.28363633563E-01
1.18765418380E+06	-1.47095673359E+01	1.71538030835E+02	7.15296742883E+00	1.75723445989E+02	-4.17378911487E+01	7.39226320663E+01	-5.84284546522E+00	-6.71305958056E-01
1.20984553839E+06	-1.60814971586E+01	1.47567438771E+02	7.17355985081E+00	1.75944919972E+02	-5.23387241724E+01	-1.41922170701E+02	-5.83794250003E+00	-8.44039781896E-01
1.23203689299E+06	-1.67218706670E+01	1.79615123559E+02	7.17666386662E+00	1.75391452510E+02	-4.41533065267E+01	1.59547332445E+02	-5.84894759615E+00	-4.68949681563E-01
1.25422824758E+06	-1.43068201837E+01	1.75261370104E+02	7.18332675012E+00	1.75347783396E+02	-5.31021725002E+01	2.07908625168E+01	-5.85084976931E+00	-7.21382417683E-01
1.27641960218E+06	-1.48371844388E+01	-1.64779606868E+02	7.19921683611E+00	1.74946902963E+02	-4.30921069305E+01	-1.68784253738E+02	-5.83293015339E+00	-6.03688351921E-01
1.29861095677E+06	-1.36004725558E+01	-1.79100477770E+02	7.19041277892E+00	1.74966066212E+02	-4.43966486194E+01	6.12357647316E+01	-5.85089644247E+00	-7.43217545282E-01
1.32080231137E+06	-1.68123693799E+01	1.29800046788E+02	7.16692172630E+00	1.75337250102E+02	-3.15383144503E+01	9.98923740039E+01	-5.81656780284E+00	-1.26885006870E+00
1.34299366596E+06	-1.49171907499E+01	1.68542690950E+02	7.23152115808E+00	1.74631537009E+02	-5.65250275919E+01	2.90019445601E+01	-5.83553658158E+00	-7.99414578869E-01
1.36518502056E+06	-1.65812499217E+01	1.78232537023E+02	7.21014643984E+00	1.74553475186E+02	-4.16381547059E+01	1.45134579815E+02	-5.82162448189E+00	-7.39986798826E-01
1.38737637515E+06	-1.95383025827E+01	-1.64778746541E+02	7.23081920761E+00	1.74819010800E+02	-4.90772734250E+01	1.31590385666E+02	-5.85114401482E+00	-8.40201412194E-01
1.40956772975E+06	-2.39267408812E+01	1.43137624642E+02	7.24191731696E+00	1.74639270635E+02	-3.84156096100E+01	1.48521284862E+02	-5.81465047933E+00	-9.44914751626E-01
1.43175908434E+06	-1.52844457488E+01	-1.72766625732E+02	7.23589103424E+00	1.74368053321E+02	-4.63047889370E+01	1.76228426611E+02	-5.82442308432E+00	-7.43872541088E-01
1.45395043894E+06	-1.84930428372E+01	1.70792894800E+02	7.26931938333E+00	1.74533383403E+02	-3.78729663000E+01	-1.52344444831E+02	-5.83746196339E+00	-6.09224023430E-01
1.47614179353E+06	-2.23483563230E+01	-1.67796346784E+02	7.20564970253E+00	1.74185834130E+02	-3.45855557214E+01	1.37069969862E+02	-5.83442409984E+00	-7.51858698389E-01
1.49833314813E+06	-1.73415291795E+01	-1.30063583247E+02	7.19883534523E+00	1.74100965445E+02	-4.03219285567E+01	-7.34445959743E+01	-5.85220996338E+00	-7.33000582071E-01
1.52052450272E+06	-1.94027735649E+01	-1.66589809818E+02	7.25324363022E+00	1.73904415691E+02	-4.44032225041E+01	-2.37791272072E+00	-5.85166690027E+00	-8.14261419539E-01
1.54271585732E+06	-1.63799474824E+01	-1.68750905061E+02	7.24688289498E+00	1.73640883602E+02	-4.85985596198E+01	8.02965213855E+01	-5.84181419337E+00	-8.09819555912E-01
1.56490721191E+06	-1.62059798978E+01	-1.53554226896E+02	7.18087004836E+00	1.73846679767E+02	-4.11812915610E+01	-1.46350766244E+02	-5.83247018772E+00	-6.56064225313E-01
1.58709856651E+06	-1.64410249032E+01	-1.66238747132E+02	7.26032897753E+00	1.73533305287E+02	-4.24659738796E+01	-7.89934238113E+01	-5.86213512086E+00	-6.40144579523E-01
1.60928992110E+06	-1.72780063026E+01	1.77246354008E+02	7.18518240723E+00	1.73735883486E+02	-4.68553091692E+01	1.42713875535E+02	-5.84974258176E+00	-7.63891858587E-01
1.63148127570E+06	-1.79811269127E+01	1.49351036835E+02	7.22306379949E+00	1.73498034896E+02	-3.70362812905E+01	2.73002355318E+00	-5.87556502317E+00	-9.16295875576E-01
1.65367263029E+06	-9.37192758897E+00	1.37302298098E+02	7.13778000064E+00	1.73504608283E+02	-4.38128155669E+01	-2.80601205898E+01	-5.84319371538E+00	-8.37816566660E-01
1.67586398489E+06	-1.75672473185E+01	1.37342322937E+02	7.20747282327E+00	1.73536437317E+02	-4.45457458761E+01	1.28073218492E+02	-5.82596822199E+00	-9.89787175400E-01
1.69805533948E+06	-1.81961008069E+01	-1.61985133785E+02	7.24050160505E+00	1.73216207682E+02	-4.57603413668E+01	-8.60305719203E+01	-5.83174870481E+00	-7.59979870392E-01
1.72024669408E+06	-1.62853428635E+01	-1.69387364117E+02	7.18234265527E+00	1.73323244696E+02	-4.92667432681E+01	-3.80394178653E+01	-5.87863016798E+00	-8.54664442948E-01
1.74243804867E+06	-2.05952783511E+01	-1.56309586591E+02	7.20842110773E+00	1.73176350845E+02	-5.47451707708E+01	1.47832528287E+02	-5.83673517178E+00	-9.52498570484E-01
1.76462940327E+06	-1.47805407325E+01	-1.78486102754E+02	7.23995924968E+00	1.72823055925E+02	-4.24148951831E+01	-5.66947533526E+01	-5.85411065095E+00	-8.27851691793E-01
1.78682075786E+06	-2.08667196515E+01	-1.73747877782E+02	7.23411670388E+00	1.72741075191E+02	-4.91745894917E+01	1.58006029992E+02	-5.83950702896E+00	-9.07552882807E-01
1.80901211246E+06	-2.40690665107E+01	-7.33344836208E+01	7.22908583844E+00	1.72989737162E+02	-3.98212806680E+01	-7.90346127387E+01	-5.85413916206E+00	-7.70375349964E-01
1.83120346705E+06	-1.70217239635E+01	-1.55671444947E+02	7.22703986800E+00	1.72404011493E+02	-5.18868534708E+01	8.65034910601E+01	-5.83899375269E+00	-9.03079411951E-01
1.85339482165E+06	-1.75289142138E+01	1.35572221175E+02	7.21176836520E+00	1.72890530410E+02	-4.15409402611E+01	5.40979349495E+01	-5.84985714691E+00	-1.04177790405E+00
1.87558617624E+06	-1.41063520648E+01	-1.78978312650E+02	7.18033108589E+00	1.72389077699E+02	-4.55645850169E+01	-5.39059626682E+01	-5.86812723370E+00	-8.68866168027E-01
1.89777753084E+06	-1.80747568399E+01	1.66980721109E+02	7.24408396612E+00	1.72300972950E+02	-4.96505455046E+01	1.29090176490E+02	-5.83029071506E+00	-1.04723783465E+00
1.91996888543E+06	-1.39253434500E+01	-1.66827165359E+02	7.18203581501E+00	1.71933147691E+02	-4.56699879412E+01	4.78834104747E+01	-5.86444036524E+00	-1.07518311265E+00
1.94216024003E+06	-1.56934871787E+01	-1.69186295211E+02	7.18423250465E+00	1.71968467790E+02	-5.07065663300E+01	-1.76111488843E+01	-5.84318912902E+00	-9.26375659697E-01
1.96435159462E+06	-1.28100997720E+01	1.55413898700E+02	7.19248428796E+00	1.72202777291E+02	-4.09964385522E+01	8.90821994430E+01	-5.84801252429E+00	-1.07159440767E+00
1.98654294922E+06	-1.69299146204E+01	-1.57136413891E+02	7.20679253588E+00	1.71560350698E+02	-5.28495167659E+01	1.73515722534E+02	-5.85169522511E+00	-1.01942661249E+00
2.00873430381E+06	-1.53493812230E+01	-1.74900576425E+02	7.21525431493E+00	1.71672717121E+02	-4.85192144428E+01	-1.38528124090E+02	-5.84434020412E+00	-9.07332740916E-01
2.03092565841E+06	-1.79375653012E+01	1.76129085413E+02	7.22911903772E+00	1.71654918198E+02	-4.18151763162E+01	7.63154507294E+01	-5.82737012264E+00	-1.17406310867E+00
2.05311701300E+06	-2.00837980269E+01	1.77249000045E+02	7.23218267986E+00	1.71770639621E+02	-4.55158046675E+01	3.88040644455E+01	-5.83739397143E+00	-1.09503577566E+00
2.07530836760E+06	-1.79630811648E+01	1.70858909980E+02	7.19531208123E+00	1.71297205270E+02	-3.39568909463E+01	-1.48823614546E+02	-5.80072387088E+00	-8.61407283693E-01
2.09749972219E+06	-1.88029246780E+01	1.60878648914E+02	7.26711592531E+00	1.71617438702E+02	-4.25403075602E+01	-1.64146466189E+02	-5.85916568278E+00	-9.16606300439E-01
2.11969107679E+06	-1.28267347919E+01	-1.63982572355E+02	7.16787703697E+00	1.71109916222E+02	-5.77643735338E+01	4.72468991792E+01	-5.85183482006E+00	-8.96602528178E-01
2.14188243138E+06	-1.42005816434E+01	1.57478573337E+02	7.21272333307E+00	1.71023199618E+02	-4.26055956974E+01	-7.92537656193E+01	-5.81360757496E+00	-9.89213127669E-01
2.16407378598E+06	-2.12612368822E+01	-1.41596337781E+02	7.26463101904E+00	1.71111984347E+02	-4.52719341741E+01	1.01160072981E+02	-5.84760006014E+00	-1.11573178957E+00
2.18626514057E+06	-1.44354053013E+01	-1.69616197876E+02	7.21361916497E+00	1.70876841631E+02	-4.55396280653E+01	-3.72740364740E+01	-5.87225959739E+00	-1.16874319297E+00
2.20845649517E+06	-1.66638998866E+01	1.70534377834E+02	7.21183132230E+00	1.70777500396E+02	-5.71974169568E+01	9.24487667722E+01	-5.83832413642E+00	-1.27914964919E+00
2.23064784976E+06	-1.35971572124E+01	-1.57270426066E+02	7.20895391353E+00	1.70637660151E+02	-4.28803056867E+01	-1.12912895786E+01	-5.87194142135E+00	-1.18517429874E+00
2.25283920436E+06	-1.97030632447E+01	-1.57845826735E+02	7.27956223458E+00	1.70845652217E+02	-3.73763156642E+01	-1.98863540633E+01	-5.86093046690E+00	-1.27291474992E+00
2.27503055895E+06	-1.58990453573E+01	1.52324279434E+02	7.23507658369E+00	1.70570134258E+02	-4.42197651943E+01	1.44308423125E+02	-5.84477233586E+00	-1.12510785206E+00
2.29722191355E+06	-1.86098873808E+01	1.71217400583E+02	7.25356348751E+00	1.70651140969E+02	-4.06699029058E+01	1.34913687149E+02	-5.83555836143E+00	-1.17744042269E+00
2.31941326814E+06	-1.69438959862E+01	-1.67992843438E+02	7.22030095906E+00	1.70103702520E+02	-5.13086076525E+01	1.48545311449E+02	-5.84176658585E+00	-1.19508710835E+00
2.34160462274E+06	-1.31981752399E+01	-1.75011978915E+02	7.19137312530E+00	1.69991408534E+02	-5.95991855612E+01	1.45514052303E+02	-5.85812612670E+00	-1.01949253702E+00
2.36379597733E+06	-1.59197239451E+01	-1.57874903185E+02	7.22389620459E+00	1.69765261561E+02	-3.98064679005E+01	2.74858965486E+01	-5.84563170111E+00	-1.49089019245E+00
2.38598733193E+06	-1.90256439097E+01	1.53823102858E+02	7.22091575702E+00	1.70084572541E+02	-4.46862491286E+01	3.51947178763E+00	-5.87505024630E+00	-1.19472247551E+00
2.40817868652E+06	-1.85875959008E+01	-1.66732742054E+02	7.25694560296E+00	1.69997208354E+02	-3.78304922598E+01	1.69946580435E+02	-5.83616688932E+00	-1.30476987682E+00
2.43037004112E+06	-2.45965454638E+01	2.39540290311E-01	7.32239389801E+00	1.70397122823E+02	-4.92915194519E+01	-1.34301621164E+02	-5.84426254904E+00	-1.47481317658E+00
2.45256139571E+06	-1.56769968485E+01	1.56402321919E+02	7.22141806940E+00	1.69884574557E+02	-5.14813589735E+01	-1.77249787443E+02	-5.85371466030E+00	-1.28502651562E+00
2.47475275031E+06	-2.21303544327E+01	-1.78909322577E+02	7.27363755654E+00	1.70146124798E+02	-4.76124675709E+01	1.98642027910E+01	-5.87742307909E+00	-1.28928191193E+00
2.49694410490E+06	-1.99188487204E+01	1.53261594416E+02	7.26193054955E+00	1.69852719952E+02	-6.06737206134E+01	2.32313823431E+01	-5.85255589613E+00	-1.07694104949E+00
2.51913545950E+06	-1.49285371599E+01	-1.77820540164E+02	7.25715126091E+00	1.69474425478E+02	-4.11609791457E+01	-1.32418011666E+02	-5.84325719170E+00	-1.07179392095E+00
2.54132681409E+06	-1.31414693712E+01	-1.71873854759E+02	7.23972999330E+00	1.69048199303E+02	-4.02466955742E+01	9.90659124843E+00	-5.86760362270E+00	-1.37016682496E+00
2.56351816869E+06	-1.93191493125E+01	-1.78556626181E+02	7.26017457519E+00	1.69316974085E+02	-4.95332486349E+01	-4.14878879912E+01	-5.84746600134E+00	-1.24355544249E+00
2.58570952328E+06	-1.62659452001E+01	1.43265070982E+02	7.21293794270E+00	1.69119995732E+02	-4.88718157072E+01	-1.29297796503E+02	-5.83375736431E+00	-1.20448257356E+00
2.60790087788E+06	-1.35481754351E+01	1.72140293558E+02	7.23955509025E+00	1.68737289409E+02	-4.68406253156E+01	5.14123770734E+01	-5.84190806206E+00	-1.41322151809E+00
2.63009223247E+06	-1.44076420962E+01	1.74173633916E+02	7.22642786899E+00	1.68840393737E+02	-4.53608900685E+01	-1.23313286651E+02	-5.85965494709E+00	-8.48151398013E-01
2.65228358707E+06	-1.75139069043E+01	1.57333698987E+02	7.20790442197E+00	1.69080387707E+02	-4.83678660956E+01	8.89393494034E+01	-5.82787199707E+00	-1.57553322818E+00
2.67447494166E+06	-1.68069647025E+01	-1.79497699314E+02	7.25738541790E+00	1.68758262037E+02	-4.26316666747E+01	-1.30726042708E+02	-5.84508832152E+00	-1.22927715336E+00
2.69666629626E+06	-1.77848165673E+01	-1.66937562901E+02	7.25565879598E+00	1.68621212464E+02	-5.61876473479E+01	-5.26745959309E+01	-5.83347447725E+00	-1.24804126043E+00
2.71885765085E+06	-1.68134010615E+01	1.56997778752E+02	7.19634398082E+00	1.68672192841E+02	-4.48373828555E+01	7.91477895132E+01	-5.82814156660E+00	-1.42239070098E+00
2.74104900545E+06	-1.46376879045E+01	1.60646922229E+02	7.25331018666E+00	1.68315040546E+02	-3.86705166837E+01	1.15557294757E+02	-5.81163794700E+00	-1.39929835082E+00
2.76324036004E+06	-2.21372143324E+01	1.70994054743E+02	7.26245998196E+00	1.68618045710E+02	-4.21259881460E+01	1.54467555598E+02	-5.82625367899E+00	-1.39811409679E+00
2.78543171463E+06	-1.91943220147E+01	1.78323192410E+02	7.27038689022E+00	1.68528134176E+02	-5.36196149313E+01	-1.36221160759E+02	-5.83687952790E+00	-1.44336163354E+00
2.80762306923E+06	-1.85192455031E+01	-1.78387344276E+02	7.26360074186E+00	1.68384787001E+02	-5.79702821442E+01	1.74805959131E+02	-5.84845833625E+00	-1.17851761267E+00
2.82981442382E+06	-2.11499400095E+01	-1.68359323296E+02	7.24730254381E+00	1.68151931656E+02	-5.03754580789E+01	5.23356793130E+01	-5.85058184468E+00	-1.47546172519E+00
2.85200577842E+06	-1.81076897614E+01	-1.67098049642E+02	7.27068385554E+00	1.68007608366E+02	-5.61041094407E+01	-8.47547806915E+00	-5.84795489554E+00	-1.35095671665E+00
2.87419713301E+06	-1.76923713296E+01	-1.76093714903E+02	7.25211190663E+00	1.67898820118E+02	-4.42051994734E+01	-2.66444098615E+01	-5.85741583889E+00	-1.35891279301E+00
