# Hz S DB R 50
! CMT, M5065, 19127446, 24.2.4/2
! Date: 11/8/2024 3:44:25 PM
! Data: Format (Calibration Info)
! Freq	S11:dB/Ang(F2)	S21:dB/Ang(F2)	S12:dB/Ang(F2)	S22:dB/Ang(F2)
3.00000000000E+05	-1.48607557690E+01	-1.62019232339E+02	4.47069867904E+00	-1.78037960351E+02	-4.84160978385E+01	3.70019064071E+01	-5.84226497496E+00	-2.62333344860E-01
3.22191354595E+05	-1.67266244931E+01	1.67632153821E+02	4.50659554192E+00	-1.77919420257E+02	-4.82548835289E+01	-1.31801662178E+01	-5.84160204516E+00	-3.86691943856E-01
3.44382709190E+05	-1.89085555640E+01	-1.42349281902E+02	4.55709271385E+00	-1.78407337679E+02	-4.36922232574E+01	-8.82260775231E+01	-5.82107109786E+00	-2.75319615435E-01
3.66574063785E+05	-2.01478132859E+01	1.51756467608E+02	4.55151938129E+00	-1.78187088073E+02	-4.63399119691E+01	1.78582228884E+02	-5.85089049570E+00	-2.21112928548E-01
3.88765418380E+05	-1.98742554016E+01	-1.44035327635E+02	4.51990411381E+00	-1.78733462856E+02	-5.01183496504E+01	7.31058973197E+01	-5.85269277182E+00	-1.81594968613E-01
4.10956772975E+05	-2.08494725678E+01	-1.64167665807E+02	4.52718430432E+00	-1.78811924141E+02	-4.51033198757E+01	-1.60774877576E+02	-5.85519450087E+00	-2.74060426264E-01
4.33148127570E+05	-2.30336788265E+01	1.14143130584E+02	4.53226295373E+00	-1.79204971628E+02	-5.07511574762E+01	-1.28525608587E+02	-5.83577916455E+00	-3.45300353491E-01
4.55339482165E+05	-2.50580816669E+01	-1.76624808954E+02	4.51528379413E+00	-1.79281372398E+02	-4.00830936085E+01	-7.40287549815E+01	-5.82723920099E+00	-3.39551029971E-01
4.77530836760E+05	-1.59343612214E+01	-1.40664493221E+02	4.49773010348E+00	1.79912895628E+02	-5.57735025579E+01	-2.12924323465E+01	-5.85666675705E+00	-2.38283074093E-01
4.99722191355E+05	-2.57191308867E+01	1.62553603852E+02	4.50617658708E+00	-1.79779711441E+02	-4.27714746492E+01	-4.37028801921E+01	-5.85739773167E+00	-3.37626382758E-01
5.21913545950E+05	-1.68494551979E+01	1.76216670306E+02	4.48856132288E+00	1.79910957827E+02	-5.41840882311E+01	-8.07724645470E+01	-5.81515549397E+00	-2.59348895262E-01
5.44104900545E+05	-1.77259779357E+01	-1.71421381167E+02	4.54746733622E+00	1.79998482300E+02	-3.90466026043E+01	9.74786288991E+01	-5.84778025235E+00	-4.93898019826E-01
5.66296255139E+05	-3.76878440762E+01	7.84580083017E+01	4.56666568563E+00	1.79836839715E+02	-4.36327319827E+01	9.34112524329E+01	-5.82156564643E+00	-3.64625103010E-01
5.88487609734E+05	-1.55933149764E+01	1.47290270109E+02	4.55218338201E+00	1.79745753426E+02	-3.74574173455E+01	-2.79212400736E+01	-5.87264491638E+00	-1.79761069645E-01
6.10678964329E+05	-1.89979868674E+01	-1.69051926892E+02	4.52151697525E+00	1.79434909121E+02	-4.18923072797E+01	1.15479385737E+02	-5.87077183268E+00	1.04807328406E-01
6.32870318924E+05	-1.82931805865E+01	1.48796491724E+02	4.54576123073E+00	1.79413357173E+02	-5.04380013491E+01	1.45928626847E+02	-5.84406578500E+00	-2.60905072032E-01
6.55061673519E+05	-2.39064624157E+01	1.57310153285E+02	4.53202474695E+00	1.78781768599E+02	-3.99349156439E+01	1.25945538730E+02	-5.84608443151E+00	-4.78062850313E-01
6.77253028114E+05	-1.65494200884E+01	-1.58974374947E+02	4.54451594734E+00	1.78870821718E+02	-5.39588084549E+01	-6.82999226704E+01	-5.83248625285E+00	-6.36677398238E-01
6.99444382709E+05	-1.76852727270E+01	-1.76392754559E+02	4.48086770443E+00	1.78953635875E+02	-4.49148654596E+01	1.35569302082E+02	-5.83956043694E+00	-3.45454111377E-01
7.21635737304E+05	-2.07352692469E+01	1.50203219338E+02	4.49708618968E+00	1.78737715498E+02	-4.55346460394E+01	-1.71862255636E+02	-5.83792179709E+00	-4.76111285602E-01
7.43827091899E+05	-1.75758486693E+01	-1.38355075787E+02	4.55908035702E+00	1.78522879478E+02	-5.29163930421E+01	-1.43021215739E+02	-5.84630824703E+00	-4.21043053783E-01
7.66018446494E+05	-1.78523205415E+01	1.75088275996E+02	4.52334937632E+00	1.78222794715E+02	-4.71126349348E+01	1.78210897334E+00	-5.83961356746E+00	-4.27071218441E-01
7.88209801089E+05	-1.82754392416E+01	1.76588596322E+02	4.51487731073E+00	1.78531492095E+02	-5.73093807043E+01	1.56662082935E+02	-5.85567099180E+00	-4.13746513825E-01
8.10401155684E+05	-1.53735255361E+01	-1.42212585586E+02	4.55621405699E+00	1.78045080267E+02	-4.25858355461E+01	4.64587832968E+01	-5.85424317727E+00	-3.79325635595E-01
8.32592510279E+05	-1.68032232731E+01	1.70017553620E+02	4.56188816823E+00	1.78144793416E+02	-5.95484707494E+01	7.31218026359E+01	-5.84355038444E+00	-3.41090108859E-01
8.54783864874E+05	-1.79564815737E+01	1.57767685799E+02	4.51820613284E+00	1.78027179867E+02	-4.47934701503E+01	1.47091106566E+02	-5.83071664698E+00	-5.37639821373E-01
8.76975219469E+05	-1.89723165204E+01	-1.68003748565E+02	4.57497446938E+00	1.77585339641E+02	-3.83208350429E+01	1.01790130336E+02	-5.82834138347E+00	-5.35748088042E-01
8.99166574064E+05	-1.82093335428E+01	-1.63565756080E+02	4.48153132104E+00	1.77543647008E+02	-4.30071487311E+01	1.75058176696E+02	-5.82932613619E+00	-5.50408962363E-01
9.21357928659E+05	-1.63073639890E+01	-1.48534739300E+02	4.50516461662E+00	1.77346210350E+02	-4.90204065673E+01	1.27964293439E+02	-5.84791332737E+00	-5.03463695017E-01
9.43549283254E+05	-2.14298124618E+01	-1.67616570708E+02	4.54906236213E+00	1.77252395110E+02	-4.83504281549E+01	-1.42161104319E+02	-5.83770463649E+00	-4.46292174127E-01
9.65740637849E+05	-1.76340882094E+01	1.70082264974E+02	4.52978955950E+00	1.77315992341E+02	-4.71641945634E+01	-1.79779740764E+02	-5.83964722325E+00	-5.66760573504E-01
9.87931992444E+05	-1.72467825960E+01	-1.45746124907E+02	4.53875325178E+00	1.77189360203E+02	-4.93661868493E+01	-8.29020564928E+00	-5.84656528302E+00	-5.37223836007E-01
1.01012334704E+06	-2.07707309569E+01	-1.30574219709E+02	4.55501948554E+00	1.77188522909E+02	-5.99021502057E+01	-9.30024346336E+01	-5.85002204828E+00	-4.62045273833E-01
1.03231470163E+06	-2.15049242220E+01	-1.38672886566E+02	4.54710245681E+00	1.77032526772E+02	-4.67591342122E+01	-9.98499282701E+00	-5.85581302150E+00	-6.03510375447E-01
1.05450605623E+06	-2.73608403202E+01	-1.37210288687E+02	4.56436892139E+00	1.76902470360E+02	-5.01568333586E+01	1.72223130835E+02	-5.84091163789E+00	-6.00654451430E-01
1.07669741082E+06	-2.18498132675E+01	-1.55651924454E+02	4.52564023353E+00	1.76928666899E+02	-4.02570690664E+01	-1.43170491570E+02	-5.84231624992E+00	-4.91124241978E-01
1.09888876542E+06	-2.64946109762E+01	1.66755427780E+02	4.55402738843E+00	1.76596938239E+02	-6.96257035214E+01	-1.11072015978E+01	-5.85118576419E+00	-5.57372637913E-01
1.12108012001E+06	-1.81315156656E+01	-1.79490587741E+02	4.51955002284E+00	1.76599347958E+02	-4.66901478644E+01	5.56478990018E+01	-5.85218495549E+00	-7.09494893162E-01
1.14327147461E+06	-1.50266191232E+01	1.54645855384E+02	4.57976598846E+00	1.76560447070E+02	-5.43753845555E+01	1.49878591999E+01	-5.83870059460E+00	-5.34071683610E-01
1.16546282920E+06	-1.69938474248E+01	-1.60793756182E+02	4.56661386457E+00	1.76338571878E+02	-5.61555489265E+01	6.62450015946E+01	-5.87458080600E+00	-6.86859515970E-01
1.18765418380E+06	-1.80756558109E+01	1.66062128645E+02	4.49389564511E+00	1.76531639987E+02	-3.42610819399E+01	-7.43442269269E+01	-5.85951776041E+00	-5.66744506461E-01
1.20984553839E+06	-1.36770280317E+01	1.69527209178E+02	4.52230921604E+00	1.76256313331E+02	-4.36385067872E+01	1.42928288610E+02	-5.83175813473E+00	-5.76088375240E-01
1.23203689299E+06	-2.49063396580E+01	-1.72219862047E+02	4.49665059342E+00	1.76364569411E+02	-5.05155175907E+01	-1.73265910370E+02	-5.84610159681E+00	-4.29620659430E-01
1.25422824758E+06	-1.42001823585E+01	1.68078844623E+02	4.49284581833E+00	1.76347267018E+02	-4.34576974043E+01	-3.28639657305E+01	-5.83845108719E+00	-4.18925909328E-01
1.27641960218E+06	-2.28765909328E+01	-1.77135316863E+02	4.55817261979E+00	1.75838354145E+02	-4.73910313919E+01	-9.42501364765E+01	-5.82975674371E+00	-6.57550023910E-01
1.29861095677E+06	-1.49837217886E+01	-1.62650378828E+02	4.51023939823E+00	1.75623024668E+02	-5.78215880426E+01	-1.63617537600E+02	-5.83176388735E+00	-7.17726449172E-01
1.32080231137E+06	-2.36919345296E+01	-1.61243969926E+02	4.59304468134E+00	1.76026576354E+02	-5.05239083035E+01	1.00173251456E+02	-5.85753133871E+00	-1.30654359437E+00
1.34299366596E+06	-1.66019381842E+01	-1.77698791999E+02	4.53893373882E+00	1.75375907727E+02	-3.40169815050E+01	1.40384602953E+02	-5.82850673337E+00	-7.52318202503E-01
1.36518502056E+06	-1.63106726386E+01	1.39790851551E+02	4.48910628874E+00	1.75699944543E+02	-3.60299805036E+01	9.96539822098E+01	-5.83287421765E+00	-7.57146873531E-01
1.38737637515E+06	-1.30521676860E+01	-1.51949490429E+02	4.54220145404E+00	1.75267932437E+02	-4.70718581027E+01	1.74821493924E+01	-5.86773565803E+00	-6.59892251118E-01
1.40956772975E+06	-1.69333077216E+01	-1.51267858274E+02	4.55581871989E+00	1.75118553602E+02	-4.96935814537E+01	-1.37066285135E+01	-5.86453745077E+00	-7.10321522033E-01
1.43175908434E+06	-1.46641760000E+01	-1.79805516716E+02	4.50292559239E+00	1.75310466949E+02	-4.05154647270E+01	8.64379321337E+01	-5.85041323019E+00	-8.29911580895E-01
1.45395043894E+06	-1.49484880088E+01	-1.63801660118E+02	4.52161860938E+00	1.74974806429E+02	-4.94200999560E+01	2.02927920992E+01	-5.82489032336E+00	-6.26978851095E-01
1.47614179353E+06	-1.78312422009E+01	1.68455796683E+02	4.50747649057E+00	1.75376133858E+02	-6.26181465313E+01	-1.16159000371E+01	-5.85181838685E+00	-7.15539180065E-01
1.49833314813E+06	-1.84911067676E+01	1.78448684355E+02	4.57775885592E+00	1.74907954485E+02	-4.15473772996E+01	-2.57032306886E+01	-5.85242872369E+00	-7.59885351381E-01
1.52052450272E+06	-1.14263014219E+01	-1.53807749764E+02	4.55178795060E+00	1.74491902996E+02	-4.42996943629E+01	9.92532993369E+01	-5.82061587895E+00	-7.48396546609E-01
1.54271585732E+06	-2.44183955968E+01	1.65050499170E+02	4.60024779679E+00	1.74835488792E+02	-3.71261450009E+01	3.64739170577E+01	-5.87857565842E+00	-7.52453816601E-01
1.56490721191E+06	-2.59856257745E+01	-1.43685549393E+02	4.55225096158E+00	1.74537323433E+02	-4.37017806544E+01	-7.79070469213E+01	-5.84932104165E+00	-7.48877400920E-01
1.58709856651E+06	-2.65116855525E+01	-1.25185745789E+02	4.61514370867E+00	1.74519114210E+02	-5.81423701924E+01	-1.56791075130E+01	-5.83283906613E+00	-8.06439359382E-01
1.60928992110E+06	-1.70544631868E+01	1.61963412368E+02	4.48824440492E+00	1.74871115424E+02	-4.33939577928E+01	2.59434079110E+01	-5.85067025049E+00	-9.24260777939E-01
1.63148127570E+06	-1.60884281873E+01	-1.41767585848E+02	4.55704057020E+00	1.74257051934E+02	-4.32636372316E+01	1.36462111993E+02	-5.86571013803E+00	-8.92585420267E-01
1.65367263029E+06	-1.91455787979E+01	-1.42271154587E+02	4.57271460021E+00	1.74299571128E+02	-3.61603186075E+01	3.70275077589E+01	-5.84358926918E+00	-9.61028932423E-01
1.67586398489E+06	-1.08549817349E+01	-1.44966570124E+02	4.55808813498E+00	1.73732867280E+02	-5.19206693034E+01	-1.42037594843E+02	-5.83538343440E+00	-8.26858900207E-01
1.69805533948E+06	-1.63824445732E+01	1.69478171405E+02	4.50124928368E+00	1.74277797471E+02	-4.83868516192E+01	1.67322865981E+02	-5.83908268235E+00	-7.64220610859E-01
1.72024669408E+06	-1.82527443074E+01	1.79743497398E+02	4.55155926275E+00	1.73914260751E+02	-4.33356820477E+01	-1.02302292515E+02	-5.84308417870E+00	-7.06649162581E-01
1.74243804867E+06	-1.60075539398E+01	1.67497559027E+02	4.50951032211E+00	1.73725624827E+02	-4.77155251392E+01	-1.04962764464E+02	-5.84720884973E+00	-8.48520669977E-01
1.76462940327E+06	-1.62760650474E+01	1.72077432919E+02	4.51863065355E+00	1.73963854767E+02	-4.49377607188E+01	-1.32472429103E+02	-5.84775919152E+00	-8.76735653131E-01
1.78682075786E+06	-1.72966110860E+01	-1.77117179131E+02	4.52521316929E+00	1.73878362031E+02	-4.49935031134E+01	-1.34062462327E+02	-5.83697233444E+00	-9.17255226085E-01
1.80901211246E+06	-1.76974514885E+01	-1.49487537384E+02	4.53187303074E+00	1.73213855066E+02	-6.85430061335E+01	-6.66261906897E+01	-5.83259844688E+00	-8.36324760834E-01
1.83120346705E+06	-1.00521422034E+01	-1.13674404482E+02	4.62014120051E+00	1.73014342516E+02	-3.22165044901E+01	1.24446803264E+01	-5.85783130317E+00	-1.06431095188E+00
1.85339482165E+06	-1.93830960170E+01	1.58162565454E+02	4.53098252273E+00	1.73746575695E+02	-5.20886447461E+01	5.19726346158E+01	-5.86854955253E+00	-9.76070010194E-01
1.87558617624E+06	-1.69630761978E+01	-1.76005971363E+02	4.49119629570E+00	1.73085744686E+02	-4.26704747640E+01	-7.67708538014E+01	-5.85098969288E+00	-9.52809318896E-01
1.89777753084E+06	-1.77218244062E+01	1.71743348838E+02	4.55610175159E+00	1.73257309598E+02	-4.40702647672E+01	-2.90633569995E+01	-5.85677595104E+00	-1.02098232471E+00
1.91996888543E+06	-1.87934685754E+01	-1.35167212363E+02	4.58562492361E+00	1.72996956458E+02	-4.60073143690E+01	-1.51786293564E+02	-5.86110804325E+00	-8.36492263197E-01
1.94216024003E+06	-1.72010071737E+01	1.65250578140E+02	4.55934409418E+00	1.73088047002E+02	-4.63667947317E+01	-7.28544920677E+01	-5.82750839777E+00	-1.06558866887E+00
1.96435159462E+06	-1.94132978419E+01	-1.79451385555E+02	4.54706236046E+00	1.73037681136E+02	-4.19697995857E+01	-1.40903047114E+02	-5.84096674190E+00	-1.07030670965E+00
1.98654294922E+06	-1.39328852193E+01	1.67476787615E+02	4.50468289299E+00	1.73035275220E+02	-4.65635841314E+01	-2.99012758343E+01	-5.84587262972E+00	-1.16949287917E+00
2.00873430381E+06	-1.46647574125E+01	-1.73164490409E+02	4.50121404633E+00	1.72813982365E+02	-4.38500457954E+01	-6.68274862022E+01	-5.86094805520E+00	-8.44291616569E-01
2.03092565841E+06	-1.68692016893E+01	-1.58788340496E+02	4.53262558761E+00	1.72329644949E+02	-5.39326129118E+01	-1.83725868064E+01	-5.85163921718E+00	-8.29447933335E-01
2.05311701300E+06	-2.12013972778E+01	-1.75439789835E+02	4.56208092823E+00	1.72601314560E+02	-4.76868662613E+01	1.70824281314E+01	-5.85470514857E+00	-1.19809594445E+00
2.07530836760E+06	-2.06042615485E+01	1.74505097470E+02	4.56467249485E+00	1.72386425210E+02	-4.47095361019E+01	-8.77559665648E+01	-5.85840627539E+00	-1.01890182221E+00
2.09749972219E+06	-1.56487703122E+01	1.68955326931E+02	4.52850328783E+00	1.72569278152E+02	-5.03241309686E+01	-3.35918234048E+00	-5.84107416571E+00	-1.03432886764E+00
2.11969107679E+06	-1.71168702479E+01	-1.74112782895E+02	4.54761913806E+00	1.72483943008E+02	-4.35126390367E+01	-3.56385241091E-01	-5.82562300578E+00	-1.21615825559E+00
2.14188243138E+06	-1.48798666881E+01	-4.80342531902E+01	4.64089984641E+00	1.72819631103E+02	-2.73554271280E+01	-7.28730114283E+00	-5.88965924900E+00	-1.44266307904E+00
2.16407378598E+06	-1.79868200233E+01	-1.76892587093E+02	4.50197695217E+00	1.72043670087E+02	-5.89982822344E+01	1.25259181840E+02	-5.83685353804E+00	-1.07897007436E+00
2.18626514057E+06	-1.68551794208E+01	1.75687258612E+02	4.54661139142E+00	1.71983060886E+02	-4.75123608991E+01	1.66845779413E+02	-5.80846588898E+00	-1.06501613891E+00
2.20845649517E+06	-1.71610062150E+01	1.76117771335E+02	4.57997392674E+00	1.71764721705E+02	-5.09425997795E+01	5.79973715621E+01	-5.84372849847E+00	-1.01766675535E+00
2.23064784976E+06	-2.05999062351E+01	1.51179720159E+02	4.60028171026E+00	1.71903965616E+02	-4.01195351744E+01	-6.39708944186E+01	-5.85410136391E+00	-1.06258035225E+00
2.25283920436E+06	-1.74697702758E+01	1.65629443487E+02	4.52407996795E+00	1.71847226278E+02	-4.68275574789E+01	-1.08517541651E+02	-5.86675912208E+00	-1.12585719301E+00
2.27503055895E+06	-1.67844589481E+01	-1.68579736882E+02	4.52672878206E+00	1.72090685926E+02	-4.78351988852E+01	-2.26225294114E+01	-5.83093986153E+00	-1.14751639299E+00
2.29722191355E+06	-2.22156038366E+01	1.09609765382E+02	4.56081421620E+00	1.71988982128E+02	-2.92873471894E+01	1.96297235959E+01	-5.86624665470E+00	-1.33962908568E+00
2.31941326814E+06	-1.30260689239E+01	-1.54351665589E+02	4.58231131329E+00	1.71205594475E+02	-4.62120104838E+01	-1.38024902711E+02	-5.85427145081E+00	-1.11487525567E+00
2.34160462274E+06	-2.27960337496E+01	1.71437386799E+02	4.54839528894E+00	1.71470793964E+02	-5.15903730845E+01	-5.01506819446E+01	-5.85344025179E+00	-1.14315369397E+00
2.36379597733E+06	-1.63592969900E+01	-1.50782516518E+02	4.57401073001E+00	1.71106974483E+02	-4.05130925022E+01	1.33516304792E+02	-5.84532605628E+00	-1.28693374306E+00
2.38598733193E+06	-1.62326893386E+01	1.70152816682E+02	4.50938461083E+00	1.71105582552E+02	-4.23216742718E+01	-7.95110094853E+01	-5.85798638409E+00	-1.03572839400E+00
2.40817868652E+06	-2.05518056974E+01	1.61709364617E+02	4.55519420837E+00	1.71062055717E+02	-5.05587671786E+01	1.57309615083E+02	-5.85190134030E+00	-1.22729923287E+00
2.43037004112E+06	-2.01030246836E+01	1.70737535359E+02	4.53395141220E+00	1.70939599745E+02	-5.49411814866E+01	1.31719335609E+02	-5.81731003811E+00	-1.56095015524E+00
2.45256139571E+06	-1.88391264862E+01	1.28106462602E+02	4.55989898392E+00	1.71298690507E+02	-3.78835107735E+01	-1.17465749234E+01	-5.83502015216E+00	-1.29998373281E+00
2.47475275031E+06	-1.57300962462E+01	-8.46310129996E+01	4.61783018472E+00	1.71117394243E+02	-4.66223017830E+01	1.16278256492E+02	-5.83632823937E+00	-1.21659146984E+00
2.49694410490E+06	-1.72620939968E+01	1.71712752105E+02	4.54498073567E+00	1.70949811100E+02	-4.81574004597E+01	-1.91565656982E+00	-5.84214909933E+00	-1.21352527637E+00
2.51913545950E+06	-1.72146416210E+01	1.66126798012E+02	4.55608846118E+00	1.70946210902E+02	-4.68205308823E+01	7.54823545383E+01	-5.83266780125E+00	-1.16662451902E+00
2.54132681409E+06	-1.55600500867E+01	-1.75492587442E+02	4.58101933300E+00	1.70953469444E+02	-4.45850364306E+01	-7.71191727960E+01	-5.86004470771E+00	-1.25154620647E+00
2.56351816869E+06	-1.82169059316E+01	-1.62457752650E+02	4.57045004892E+00	1.70598344030E+02	-4.72122382176E+01	1.75443094904E+02	-5.84358661038E+00	-1.22296535084E+00
2.58570952328E+06	-1.66081826735E+01	-1.48951653097E+02	4.61027715662E+00	1.70008633920E+02	-4.25177010648E+01	-6.83844245853E+01	-5.85914497947E+00	-1.19737724665E+00
2.60790087788E+06	-3.17450949880E+01	-1.72570134184E+02	4.55847655376E+00	1.70436538042E+02	-3.60327290124E+01	1.24963804973E+02	-5.83987007789E+00	-1.11857677955E+00
2.63009223247E+06	-1.44911921027E+01	-1.70559821004E+02	4.58869453439E+00	1.69977174697E+02	-5.72652129081E+01	-1.58434287225E+02	-5.83595813770E+00	-9.52649716765E-01
2.65228358707E+06	-3.00815088438E+01	1.60136347415E+02	4.58887363271E+00	1.70439202304E+02	-4.59062305684E+01	5.59931813818E+01	-5.84337184885E+00	-1.38384876951E+00
2.67447494166E+06	-1.62475608401E+01	-1.77067347860E+02	4.54014616841E+00	1.70039562153E+02	-4.73337793345E+01	1.20489602810E+02	-5.82193842985E+00	-1.23682641907E+00
2.69666629626E+06	-1.93106128165E+01	-1.54940943146E+02	4.57641183718E+00	1.70174796352E+02	-4.34727219239E+01	2.52152358073E+01	-5.88057773137E+00	-1.47879131359E+00
2.71885765085E+06	-1.79939637277E+01	1.66488651149E+02	4.53175637016E+00	1.70013897375E+02	-5.05790701675E+01	-5.50264099451E+01	-5.85445213858E+00	-1.46317957328E+00
2.74104900545E+06	-1.63100442228E+01	-1.73122535270E+02	4.47336396908E+00	1.69699490568E+02	-4.73576157744E+01	-3.59338484230E+01	-5.83876190832E+00	-1.35976664932E+00
2.76324036004E+06	-1.35701313983E+01	-1.71163034680E+02	4.57635970252E+00	1.69853933308E+02	-4.58553228797E+01	1.66703286228E+02	-5.83823170767E+00	-1.39497637515E+00
2.78543171463E+06	-1.55660822436E+01	1.44066438349E+02	4.53702228212E+00	1.70118110605E+02	-5.30457885972E+01	-3.33184392468E+01	-5.86091162638E+00	-1.32930543268E+00
2.80762306923E+06	-1.82083471444E+01	-1.31845202950E+02	4.61346095271E+00	1.69433273789E+02	-4.46793686194E+01	1.02807637685E+01	-5.85207259931E+00	-1.46959945733E+00
2.82981442382E+06	-2.23184532381E+01	-1.65507833108E+02	4.56987736643E+00	1.69432022532E+02	-5.42077865645E+01	-1.32407242776E+02	-5.82159404709E+00	-1.32956698918E+00
2.85200577842E+06	-1.95262798863E+01	-1.43571288858E+02	4.63927989676E+00	1.69397499670E+02	-5.06677300959E+01	1.37605591326E+02	-5.84955431556E+00	-1.53542341982E+00
2.87419713301E+06	-1.88602798129E+01	1.59630386323E+02	4.59447874992E+00	1.69631444671E+02	-4.44219156462E+01	6.23376609186E+01	-5.83040668072E+00	-1.44349622173E+00
