# Hz S DB R 50
! CMT, M5065, 19127446, 24.2.4/2
! Date: 11/8/2024 4:00:16 PM
! Data: Format (Calibration Info)
! Freq	S11:dB/Ang(F2)	S21:dB/Ang(F2)	S12:dB/Ang(F2)	S22:dB/Ang(F2)
3.00000000000E+05	-2.76771189454E+01	1.68346954635E+02	9.00790979792E+00	-1.77436143990E+02	-3.37102927756E+01	1.35707740589E+02	-5.80914329226E+00	-3.59369270996E-01
3.22191354595E+05	-1.86518856605E+01	1.64651836237E+02	9.00689558765E+00	-1.77995600511E+02	-4.08697906633E+01	-1.64237798191E+02	-5.84170993254E+00	-1.10251931669E-01
3.44382709190E+05	-1.55406996111E+01	-1.50894416271E+02	9.01154388720E+00	-1.78553447932E+02	-5.32335137152E+01	7.76814122373E+01	-5.85474675630E+00	-2.93396772145E-01
3.66574063785E+05	-2.13170558511E+01	-1.77699279595E+02	9.01874775075E+00	-1.78474959380E+02	-4.55226128025E+01	-1.38301231728E+02	-5.85803415303E+00	-3.57385216107E-01
3.88765418380E+05	-1.12263511784E+01	1.53104911367E+02	9.00337128665E+00	-1.78345742881E+02	-4.63694849963E+01	-6.65965115978E+01	-5.84665749771E+00	-5.12072268565E-01
4.10956772975E+05	-2.33940680191E+01	1.71204850718E+02	9.04154712332E+00	-1.79253899963E+02	-4.82307412763E+01	-9.22970851900E+01	-5.84016545045E+00	-2.30575811761E-01
4.33148127570E+05	-2.21215319653E+01	1.62877218451E+02	9.00542873107E+00	-1.79359952519E+02	-4.35168052032E+01	-1.70105215511E+02	-5.83217987899E+00	-4.16288934130E-01
4.55339482165E+05	-1.54730048144E+01	1.70130095195E+02	9.01711657115E+00	-1.79578803678E+02	-3.67694714314E+01	6.18718337012E+01	-5.82819279596E+00	-4.75354867434E-01
4.77530836760E+05	-1.35616468581E+01	1.63161783470E+02	8.99648648015E+00	-1.79776593076E+02	-3.69556718888E+01	-1.73119651489E+01	-5.83184796939E+00	-3.56840527020E-01
4.99722191355E+05	-1.53901353071E+01	1.52995506713E+02	9.03708689359E+00	1.79807235943E+02	-4.57112996159E+01	-1.78816857956E+02	-5.80949244587E+00	-3.21417290846E-01
5.21913545950E+05	-1.96815104252E+01	1.47064544254E+02	9.02924928044E+00	1.79765231136E+02	-4.76781775894E+01	-1.24513236260E+02	-5.82746456681E+00	-1.44368025587E-01
5.44104900545E+05	-2.00820156455E+01	-1.58716128774E+02	9.04334876282E+00	1.79459936541E+02	-3.96936795647E+01	-1.42668846235E+01	-5.87124048445E+00	-2.09424621290E-01
5.66296255139E+05	-1.50058024791E+01	-1.66143706308E+02	9.04670203923E+00	1.78965976569E+02	-5.04201562568E+01	-1.48773276428E+02	-5.84742930568E+00	-2.51806072093E-01
5.88487609734E+05	-1.50420792803E+01	-1.76524193314E+02	9.00597528003E+00	1.79029662602E+02	-5.07001282808E+01	2.30189621230E+01	-5.85562401415E+00	-3.60946805883E-01
6.10678964329E+05	-1.67707650405E+01	1.24791078880E+02	9.02319981510E+00	1.79294332572E+02	-4.55505535081E+01	-2.98006568385E+00	-5.83410024444E+00	-5.07069393907E-02
6.32870318924E+05	-1.60357430519E+01	1.57233289104E+02	9.02232593393E+00	1.78936906120E+02	-4.06026155728E+01	3.89545689591E+01	-5.86095426093E+00	-2.63931453407E-01
6.55061673519E+05	-1.58388111159E+01	-1.76693464104E+02	9.04704629986E+00	1.78534836733E+02	-5.01649709480E+01	6.08841865615E+01	-5.85225563735E+00	-3.15566796366E-01
6.77253028114E+05	-1.61464448106E+01	-1.78181654257E+02	9.04553057799E+00	1.78329553541E+02	-5.37953229091E+01	1.74284581567E+02	-5.81781733554E+00	-8.16969032271E-01
6.99444382709E+05	-2.88219978611E+01	-1.59701029906E+02	9.08699662744E+00	1.78073141646E+02	-4.33638169205E+01	-1.58892534409E+02	-5.80966891191E+00	-3.53603745305E-01
7.21635737304E+05	-1.79963585169E+01	1.64980809759E+02	9.00369856866E+00	1.78350527869E+02	-4.98187653011E+01	2.42141449034E+01	-5.86800255070E+00	-3.36870427199E-01
7.43827091899E+05	-1.91127065205E+01	1.75544390302E+02	9.06037973374E+00	1.78079929847E+02	-4.23763630156E+01	1.37684206641E+02	-5.82129627357E+00	-6.35624496703E-01
7.66018446494E+05	-1.96308428140E+01	-1.63950570686E+02	9.04528991308E+00	1.77723788215E+02	-3.96945513014E+01	-1.02820816936E+02	-5.82902408535E+00	-3.49546496345E-01
7.88209801089E+05	-2.00877199454E+01	1.62762496186E+02	9.03911926140E+00	1.77758995003E+02	-6.80987517858E+01	1.10120440968E+02	-5.82326196303E+00	-3.50744171231E-01
8.10401155684E+05	-2.01045170082E+01	-1.51312388173E+02	9.03759699735E+00	1.77280800952E+02	-4.26168503368E+01	-1.06653736815E+02	-5.84106322706E+00	-2.49168319526E-01
8.32592510279E+05	-1.85407607669E+01	1.36029870124E+02	9.02247928345E+00	1.77517678862E+02	-4.41026917754E+01	5.03637913677E+01	-5.83493871133E+00	-4.48333004107E-01
8.54783864874E+05	-1.67747146410E+01	1.78114256076E+02	9.03696215715E+00	1.77169739062E+02	-5.47179754484E+01	-5.34376234143E+01	-5.84926505302E+00	-5.02513937716E-01
8.76975219469E+05	-1.87089375945E+01	-1.59840689498E+02	9.05173549908E+00	1.76721699575E+02	-4.93840409849E+01	8.88600627364E+01	-5.84448999738E+00	-5.99833279139E-01
8.99166574064E+05	-1.50685672808E+01	1.73183036661E+02	8.98606782723E+00	1.76715830399E+02	-4.22082077091E+01	2.33576132857E+01	-5.86178376497E+00	-6.29339842139E-01
9.21357928659E+05	-1.86489727792E+01	1.78057775277E+02	9.03094606456E+00	1.76893955272E+02	-4.04006625487E+01	7.85666242844E+01	-5.84823013030E+00	-6.88410119542E-01
9.43549283254E+05	-1.70139022685E+01	-1.76478553564E+02	9.02159812653E+00	1.76625155047E+02	-3.87570779039E+01	3.23261821744E+01	-5.83359336725E+00	-7.18943343503E-01
9.65740637849E+05	-2.87950592639E+01	-1.47916480630E+02	9.06165005721E+00	1.76689044993E+02	-4.21764883895E+01	3.49001291867E+01	-5.83730381732E+00	-5.66580429057E-01
9.87931992444E+05	-2.09494159605E+01	-1.40703496566E+02	9.09250073805E+00	1.75980719256E+02	-4.65794750549E+01	-1.37088453433E+02	-5.82268278372E+00	-6.17521323395E-01
1.01012334704E+06	-1.75676125012E+01	-1.54701165447E+02	9.04631034043E+00	1.76071016041E+02	-4.02919315819E+01	-8.75038430862E+01	-5.82014259444E+00	-3.96888449411E-01
1.03231470163E+06	-2.67678990190E+01	1.78654056876E+02	9.04116369395E+00	1.76146094896E+02	-3.87067089258E+01	-6.73641080732E+00	-5.85842748326E+00	-5.51499973966E-01
1.05450605623E+06	-1.67502016572E+01	-1.68127346518E+02	9.04653170936E+00	1.76026746342E+02	-4.58724129412E+01	-1.22516033678E+02	-5.86370707878E+00	-4.11698937303E-01
1.07669741082E+06	-1.80032627915E+01	-1.54927057469E+02	9.03991334917E+00	1.75651162456E+02	-4.37206155489E+01	1.09050244985E+00	-5.82951063325E+00	-6.89348093765E-01
1.09888876542E+06	-1.84859304527E+01	1.74853697344E+02	9.07208089652E+00	1.75668364485E+02	-5.21247001725E+01	-8.56256846061E+01	-5.82566414615E+00	-5.78925610087E-01
1.12108012001E+06	-1.83279933615E+01	1.46130313856E+02	9.04854129326E+00	1.75701268762E+02	-4.09224350200E+01	-1.89502500724E+01	-5.85549815505E+00	-3.47207457470E-01
1.14327147461E+06	-1.70626960230E+01	-1.27078268237E+02	9.07685203168E+00	1.75256196804E+02	-4.54443713085E+01	1.32131099195E+02	-5.83405750025E+00	-5.17521244416E-01
1.16546282920E+06	-1.76291592985E+01	-1.66798359464E+02	9.03293852320E+00	1.75374457773E+02	-4.81651803779E+01	-1.08880548085E+02	-5.85972736165E+00	-6.78499751636E-01
1.18765418380E+06	-2.06572181559E+01	1.54039976344E+02	9.04152560312E+00	1.75406685943E+02	-4.77655611062E+01	-1.08672216221E+02	-5.82264296865E+00	-5.51879095997E-01
1.20984553839E+06	-2.11617458507E+01	1.71660618376E+02	9.03647648526E+00	1.75133103522E+02	-5.13455288618E+01	-6.72057662258E+01	-5.84453664127E+00	-7.11485859898E-01
1.23203689299E+06	-1.93505999454E+01	-1.66719366944E+02	9.04471953705E+00	1.74888776341E+02	-4.78361011104E+01	1.25754832527E+02	-5.83432093550E+00	-5.55933173526E-01
1.25422824758E+06	-1.62478550100E+01	1.67256492008E+02	9.00296538746E+00	1.74862016918E+02	-3.58476451365E+01	1.19344775396E+02	-5.81775671344E+00	-8.89708131844E-01
1.27641960218E+06	-1.98234488161E+01	-1.75302812349E+02	9.03811044152E+00	1.74740437238E+02	-6.64513138358E+01	-9.57222096193E+01	-5.84919000215E+00	-8.10652577738E-01
1.29861095677E+06	-2.01184804414E+01	-1.64798875844E+02	9.05980604115E+00	1.74688759454E+02	-5.20694354856E+01	-7.07367543778E+01	-5.85666332184E+00	-4.97720301548E-01
1.32080231137E+06	-2.08991253119E+01	1.76552675307E+02	9.05300320635E+00	1.74650341176E+02	-5.04183260964E+01	-1.71737280552E+01	-5.83558340721E+00	-1.03449375060E+00
1.34299366596E+06	-1.47371457562E+01	1.60079777352E+02	9.05261390506E+00	1.74338586001E+02	-5.21115077672E+01	-8.42973721763E+01	-5.83286191389E+00	-7.62028498413E-01
1.36518502056E+06	-2.22256484288E+01	1.77079629464E+02	9.06542820282E+00	1.74411059301E+02	-4.77434311351E+01	-1.13074675926E+02	-5.81480796646E+00	-6.85918284748E-01
1.38737637515E+06	-1.51733340531E+01	1.71848131643E+02	9.03070723194E+00	1.74123310980E+02	-4.62352816199E+01	2.76510188055E+01	-5.83088998398E+00	-8.45782278283E-01
1.40956772975E+06	-1.94111058905E+01	-1.54512299139E+02	9.03606617649E+00	1.74118035780E+02	-3.40470817431E+01	1.52088154840E+01	-5.86788820246E+00	-7.90569157743E-01
1.43175908434E+06	-1.74021670837E+01	-1.73001866511E+02	9.04200524375E+00	1.73801475350E+02	-5.00074130100E+01	-1.80856902946E+01	-5.83843254896E+00	-7.84080955084E-01
1.45395043894E+06	-1.59291147270E+01	-1.69545162749E+02	9.00670739452E+00	1.73680632645E+02	-4.32392774048E+01	-1.14211825068E+02	-5.85767184590E+00	-6.11634569346E-01
1.47614179353E+06	-1.52800876947E+01	-1.50249205887E+02	9.05224365900E+00	1.73469054101E+02	-6.27954919305E+01	-3.33252503478E+01	-5.83816186484E+00	-6.77292859482E-01
1.49833314813E+06	-1.24085713412E+01	-1.76133125182E+02	9.01984307122E+00	1.73282856771E+02	-3.63675637717E+01	-7.38439674026E+01	-5.86451920371E+00	-5.27692151141E-01
1.52052450272E+06	-1.70336563210E+01	-1.74106749345E+02	9.02774812563E+00	1.73378056081E+02	-4.45824463624E+01	-8.91916551412E+01	-5.87076860228E+00	-7.19006573779E-01
1.54271585732E+06	-2.34684352159E+01	1.29408960379E+02	9.07893058017E+00	1.73514087988E+02	-4.79295872807E+01	9.00747370777E+01	-5.83786983615E+00	-8.99735699321E-01
1.56490721191E+06	-2.20656703041E+01	1.61681746924E+02	9.05097043363E+00	1.73158071593E+02	-4.03643939852E+01	-1.28156119787E+00	-5.85341914752E+00	-8.40153551014E-01
1.58709856651E+06	-2.42631829832E+01	-1.78155056119E+02	9.07204976637E+00	1.73062141218E+02	-4.56935934303E+01	9.74562283204E+01	-5.82817473464E+00	-7.15862633768E-01
1.60928992110E+06	-1.96726894792E+01	-1.74590956317E+02	9.06702796815E+00	1.72956815467E+02	-4.05922088520E+01	1.21222391547E+02	-5.81044391523E+00	-8.90296657295E-01
1.63148127570E+06	-1.73158794697E+01	1.09635283123E+02	9.04767541579E+00	1.73207664289E+02	-5.21438687333E+01	9.31749388515E+01	-5.83436478074E+00	-7.63421730173E-01
1.65367263029E+06	-1.45053176345E+01	-1.50507111170E+02	9.07947901566E+00	1.72576080567E+02	-5.00110328435E+01	-1.52497591363E+02	-5.82810745281E+00	-6.88271566064E-01
1.67586398489E+06	-1.59737534384E+01	-1.59179285183E+02	9.04496946674E+00	1.72662831521E+02	-3.99535277492E+01	8.99841433492E+00	-5.87496306680E+00	-9.36129217258E-01
1.69805533948E+06	-1.88397410806E+01	-1.77530727181E+02	9.03090989633E+00	1.72519063599E+02	-4.43605546290E+01	1.43992004738E+02	-5.83879484099E+00	-9.34310416968E-01
1.72024669408E+06	-1.88638028841E+01	-1.74604013756E+02	9.01069690685E+00	1.72344300670E+02	-4.14093790091E+01	2.76612369273E+01	-5.83632218030E+00	-1.00978598558E+00
1.74243804867E+06	-1.59808813887E+01	1.54429090202E+02	9.00007435989E+00	1.72447079631E+02	-4.74528089023E+01	-1.75045066697E+02	-5.80611734016E+00	-9.54366213899E-01
1.76462940327E+06	-3.16910038376E+01	-1.14053429592E+02	9.08353920754E+00	1.72361157057E+02	-5.24515987481E+01	1.62593281208E+02	-5.83294181960E+00	-8.41567420293E-01
1.78682075786E+06	-1.61775734025E+01	-1.53233582339E+02	9.06050514086E+00	1.71836051236E+02	-4.32214788640E+01	-3.30255699780E+01	-5.83967246801E+00	-8.74875195383E-01
1.80901211246E+06	-1.41789407203E+01	-6.82827401301E+01	9.10585429743E+00	1.71938427244E+02	-3.74174001574E+01	1.20576001606E+02	-5.81774307261E+00	-1.10356122067E+00
1.83120346705E+06	-1.83961829674E+01	-1.70132988444E+02	9.04027949911E+00	1.71710657960E+02	-4.69914034921E+01	-4.18503845409E+01	-5.84804412279E+00	-9.78801174178E-01
1.85339482165E+06	-1.72003367410E+01	-1.77816111451E+02	9.08498282908E+00	1.71782396892E+02	-4.18074652986E+01	2.70959814213E+01	-5.87331787490E+00	-1.02002182095E+00
1.87558617624E+06	-2.39110324719E+01	1.74507992302E+02	9.04285455406E+00	1.71684535385E+02	-3.47956587810E+01	1.08333659182E+02	-5.80923641000E+00	-1.07863326342E+00
1.89777753084E+06	-1.55443091133E+01	-1.70429726803E+02	9.02365633465E+00	1.71426789619E+02	-5.52616909384E+01	-1.10368585150E+02	-5.82011250073E+00	-8.58838973467E-01
1.91996888543E+06	-1.73435110696E+01	-1.72551145698E+02	9.05646225146E+00	1.71215698325E+02	-5.02841898680E+01	-1.62348283894E+02	-5.80239624312E+00	-9.08621138445E-01
1.94216024003E+06	-1.15596141243E+01	1.31942368905E+02	8.98466898776E+00	1.71295189772E+02	-5.42596547388E+01	4.92632406887E+01	-5.83278457329E+00	-9.08871011625E-01
1.96435159462E+06	-1.44867450625E+01	1.13119862057E+02	8.98114886749E+00	1.71453931802E+02	-3.93789506866E+01	9.08965520964E+01	-5.83571547067E+00	-1.05571532098E+00
1.98654294922E+06	-1.68413969463E+01	1.66318203055E+02	9.04171615673E+00	1.70915594409E+02	-4.59556164404E+01	1.14247561239E+02	-5.85724650546E+00	-1.00085360333E+00
2.00873430381E+06	-1.82510374648E+01	1.37300646963E+02	9.03736184260E+00	1.71124119445E+02	-4.69880844963E+01	-5.79822345212E+01	-5.85328123011E+00	-1.11138512684E+00
2.03092565841E+06	-2.14437739768E+01	-1.35162420247E+02	9.10454173662E+00	1.70772844396E+02	-3.47735554215E+01	1.73596202213E+02	-5.81342017281E+00	-9.67163056818E-01
2.05311701300E+06	-1.49088365130E+01	1.78126758972E+02	9.05307837195E+00	1.70579681829E+02	-5.64894253431E+01	-1.10557318414E+01	-5.83066802093E+00	-9.19929771463E-01
2.07530836760E+06	-1.78818730485E+01	-1.60619751204E+02	9.07487022975E+00	1.70533741816E+02	-4.41369500100E+01	5.76832790486E+01	-5.84487771234E+00	-1.14639704789E+00
2.09749972219E+06	-1.96150142061E+01	-1.24777420603E+02	9.11367737209E+00	1.70351615164E+02	-3.81744457014E+01	1.02255838343E+02	-5.80988453203E+00	-1.23312839267E+00
2.11969107679E+06	-1.66982417509E+01	1.52411436887E+02	9.00475814419E+00	1.70536240530E+02	-5.45108850137E+01	-1.11266435712E+02	-5.84870933967E+00	-1.13633328525E+00
2.14188243138E+06	-1.76722872772E+01	1.75208196691E+02	9.01167757494E+00	1.70025118146E+02	-4.79079053303E+01	-3.01851173880E+01	-5.87675175656E+00	-1.13489247257E+00
2.16407378598E+06	-1.84315804390E+01	-1.53667843660E+02	9.08538223654E+00	1.69896326277E+02	-4.02722860643E+01	5.12135422004E+00	-5.84861881801E+00	-1.11785673478E+00
2.18626514057E+06	-1.70900640004E+01	-1.74564446135E+02	9.06754758074E+00	1.70036066074E+02	-3.84249351682E+01	-1.10950981999E+01	-5.87104180413E+00	-1.28432636256E+00
2.20845649517E+06	-1.57928921623E+01	-1.74463787851E+02	9.03478831719E+00	1.69857788453E+02	-4.50245762526E+01	-2.95752188535E+01	-5.84825071457E+00	-1.01730321322E+00
2.23064784976E+06	-1.72019217996E+01	-1.77719879307E+02	9.06485849510E+00	1.69705062573E+02	-4.72067447170E+01	1.35396052540E+02	-5.83058027043E+00	-1.16065199375E+00
2.25283920436E+06	-2.24264979396E+01	1.66008669906E+02	9.08950681186E+00	1.70037052297E+02	-4.67759290038E+01	1.40073273687E+02	-5.86399622359E+00	-1.19257735530E+00
2.27503055895E+06	-1.72272878606E+01	-1.79637421310E+02	9.05362221537E+00	1.69561097112E+02	-4.70122647485E+01	1.44342153992E+02	-5.84085795862E+00	-1.02455953938E+00
2.29722191355E+06	-1.80210212107E+01	-1.72341504512E+02	9.06349804942E+00	1.69603827656E+02	-4.62519384892E+01	-5.60558435260E+01	-5.84690755980E+00	-1.02754666049E+00
2.31941326814E+06	-1.49598039630E+01	-1.51993130575E+02	9.05631778722E+00	1.69125146182E+02	-3.75088002714E+01	8.67409606204E+00	-5.84939926776E+00	-1.22919911793E+00
2.34160462274E+06	-1.78817441622E+01	-1.73812953374E+02	9.10798833508E+00	1.69282428300E+02	-3.45603391428E+01	-1.28854867375E+02	-5.83545942712E+00	-9.17950030846E-01
2.36379597733E+06	-1.90426461179E+01	1.78243879725E+02	9.06772361736E+00	1.69098899138E+02	-4.94650574417E+01	7.61512941244E+01	-5.84631856772E+00	-1.05938640050E+00
2.38598733193E+06	-1.70959043622E+01	-1.79368816743E+02	9.07535424558E+00	1.69035280246E+02	-4.97511762683E+01	-1.29078102363E+02	-5.83013061370E+00	-1.14434458333E+00
2.40817868652E+06	-1.56250989016E+01	-1.55092233734E+02	9.11056472202E+00	1.68883899515E+02	-4.69903398326E+01	-1.75354707479E+01	-5.84170924819E+00	-1.34144738487E+00
2.43037004112E+06	-1.44577418457E+01	1.59472832364E+02	9.02526972464E+00	1.68993524668E+02	-4.58144839220E+01	4.81814730354E+01	-5.85797724769E+00	-1.84244552800E+00
2.45256139571E+06	-1.59926551095E+01	-1.61738267418E+02	9.09259766906E+00	1.68628548549E+02	-4.99199693372E+01	-4.60620043947E+01	-5.85494187059E+00	-1.13934111172E+00
2.47475275031E+06	-1.73488175274E+01	-1.66482660464E+02	9.05474854237E+00	1.68563939693E+02	-5.17166590642E+01	-1.79550440604E+02	-5.85785970090E+00	-1.15421588559E+00
2.49694410490E+06	-1.66368985370E+01	-1.73430212552E+02	9.07831776236E+00	1.68427377806E+02	-2.94500413279E+01	-5.62395619410E+01	-5.91132880987E+00	-9.06838107103E-01
2.51913545950E+06	-1.56497719124E+01	-1.50120567774E+02	9.08002544340E+00	1.68338700573E+02	-4.99481976834E+01	-3.54482605923E+01	-5.86324457359E+00	-1.29655824356E+00
2.54132681409E+06	-1.66858475506E+01	-1.56906172422E+02	9.05926395001E+00	1.68022984613E+02	-4.31584940908E+01	1.24922605633E+02	-5.83415772749E+00	-1.26300921950E+00
2.56351816869E+06	-2.60399357286E+01	-1.21774529436E+02	9.12610078957E+00	1.68369646162E+02	-4.45966600131E+01	-1.24739855339E+02	-5.85344527419E+00	-1.25831200223E+00
2.58570952328E+06	-1.03401308955E+01	1.79442610887E+02	9.03199042031E+00	1.67523145609E+02	-4.76479369498E+01	6.61969593908E+01	-5.84881815059E+00	-1.23076179465E+00
2.60790087788E+06	-2.14163322137E+01	1.68699350127E+02	9.07829407009E+00	1.67988259464E+02	-4.92171721711E+01	-3.07440688947E+00	-5.85735398152E+00	-1.13915465055E+00
2.63009223247E+06	-2.02407391271E+01	1.32791563372E+02	9.07844705481E+00	1.68207948772E+02	-6.34788704064E+01	-8.58368546676E+01	-5.85310792886E+00	-9.40847210592E-01
2.65228358707E+06	-1.82529947127E+01	-1.44464900303E+02	9.10682266563E+00	1.67634555688E+02	-3.89064387216E+01	3.66664369832E+01	-5.84984944156E+00	-1.44022065142E+00
2.67447494166E+06	-1.83409763653E+01	-1.51959158099E+02	9.10166512399E+00	1.67444518664E+02	-5.04825166199E+01	5.91366553607E+01	-5.85019426315E+00	-1.42144663930E+00
2.69666629626E+06	-2.21245894982E+01	-1.47330940452E+02	9.08769619497E+00	1.67306053675E+02	-3.98654796283E+01	5.57445062183E+01	-5.84105208870E+00	-1.49319151525E+00
2.71885765085E+06	-2.54615849206E+01	1.10802120876E+02	9.10098139705E+00	1.67592775301E+02	-4.92330450188E+01	1.58158527299E+01	-5.84896638668E+00	-1.48259974511E+00
2.74104900545E+06	-1.87856374982E+01	-1.62032905517E+02	9.09186476272E+00	1.67315686548E+02	-4.35456840021E+01	-1.05178345518E+02	-5.82982936981E+00	-1.20917366434E+00
2.76324036004E+06	-2.24866808787E+01	-1.71220789656E+02	9.08775233234E+00	1.67166382521E+02	-4.52053052090E+01	1.61619603026E+02	-5.82190508619E+00	-1.35931848937E+00
2.78543171463E+06	-2.12121302609E+01	-1.72967982120E+02	9.08619703639E+00	1.67159128756E+02	-4.20527300668E+01	1.59238890315E+02	-5.82189834105E+00	-1.34688693162E+00
2.80762306923E+06	-2.07326964976E+01	1.36463457507E+02	9.07283825498E+00	1.67120811849E+02	-4.31275027546E+01	-1.01831283117E+02	-5.87122612044E+00	-1.25697413887E+00
2.82981442382E+06	-1.98907210664E+01	-1.64568436783E+02	9.12501377729E+00	1.66761610053E+02	-4.68021401983E+01	-5.33672030223E+01	-5.83943892873E+00	-1.46231982168E+00
2.85200577842E+06	-1.80202434651E+01	1.60478141242E+02	9.07095873087E+00	1.66678681073E+02	-4.18911473152E+01	9.17614694248E+01	-5.83432913284E+00	-1.45382506152E+00
2.87419713301E+06	-1.51255537133E+01	1.40411938529E+02	9.06822964178E+00	1.66957856826E+02	-4.68061445233E+01	1.05146438319E+02	-5.84759218184E+00	-1.34212742508E+00
