# Hz S DB R 50
! CMT, M5065, 19127446, 24.2.4/2
! Date: 11/8/2024 4:01:55 PM
! Data: Format (Calibration Info)
! Freq	S11:dB/Ang(F2)	S21:dB/Ang(F2)	S12:dB/Ang(F2)	S22:dB/Ang(F2)
3.00000000000E+05	-2.08054977588E+01	-1.71255435044E+02	9.76169138758E+00	-1.77408115683E+02	-4.89790915685E+01	-2.11929476288E+01	-5.85556591648E+00	-3.84316603094E-01
3.22191354595E+05	-1.89098934122E+01	-1.68452024515E+02	9.75831647476E+00	-1.77953886796E+02	-4.69747800889E+01	-1.38684145461E+02	-5.85440315047E+00	-2.99833473475E-01
3.44382709190E+05	-2.23409675058E+01	-1.40937358937E+02	9.76970351206E+00	-1.78430064718E+02	-6.99356872489E+01	-1.20424286049E+02	-5.83347833261E+00	-2.51390933924E-01
3.66574063785E+05	-1.81212525213E+01	1.37940267722E+02	9.74102928024E+00	-1.78521681151E+02	-4.35728402917E+01	-1.03511934621E+02	-5.80481102012E+00	-2.28625954513E-01
3.88765418380E+05	-2.33030653709E+01	1.37843008305E+02	9.77192288451E+00	-1.79036652956E+02	-5.40882447692E+01	1.48972932282E+02	-5.82999685191E+00	-2.84224238758E-01
4.10956772975E+05	-1.61381377419E+01	-1.60071985547E+02	9.77364966763E+00	-1.79163800037E+02	-5.05659300930E+01	1.95704092069E+01	-5.85478699916E+00	-3.63378698094E-01
4.33148127570E+05	-1.43344384611E+01	-1.53886606744E+02	9.72536459405E+00	-1.79587438654E+02	-4.76057007551E+01	-1.55938506720E+02	-5.82724590126E+00	-3.42595792614E-01
4.55339482165E+05	-1.98973574227E+01	1.47460122328E+02	9.76470115937E+00	-1.79624748418E+02	-3.95998094432E+01	4.84553234016E+01	-5.87237032478E+00	-5.25354780825E-01
4.77530836760E+05	-2.03305684166E+01	-1.68612453757E+02	9.76963439221E+00	-1.79841684983E+02	-3.93281781373E+01	-3.19357781451E+01	-5.87616824064E+00	-2.80386921282E-01
4.99722191355E+05	-1.69146107821E+01	-1.72697381007E+02	9.73510016607E+00	1.79661223593E+02	-4.54454515633E+01	2.41833308745E+01	-5.86651793309E+00	-4.11147192146E-01
5.21913545950E+05	-1.72512696295E+01	-1.19223053225E+02	9.76896167313E+00	1.79646076676E+02	-3.87637172413E+01	-5.08702130749E+01	-5.86211778600E+00	-6.82884929712E-02
5.44104900545E+05	-2.25872667091E+01	-1.45463528581E+02	9.78332760905E+00	1.79239863820E+02	-4.96132871812E+01	1.51016923049E+02	-5.81250859862E+00	-4.24155468260E-01
5.66296255139E+05	-8.10425364100E+00	1.79689682584E+02	9.70099937747E+00	1.79059874429E+02	-4.81310301892E+01	5.19527775785E+01	-5.85314362473E+00	-5.45400731984E-01
5.88487609734E+05	-1.73308703360E+01	-1.68031558118E+02	9.78269547923E+00	1.78839244129E+02	-4.33921074273E+01	-6.05699194710E+01	-5.86222376594E+00	-2.75192454061E-01
6.10678964329E+05	-1.53077934600E+01	1.77173810579E+02	9.75185501404E+00	1.79201635160E+02	-4.54713223306E+01	-1.09901519685E+01	-5.85177620668E+00	1.40027373529E-01
6.32870318924E+05	-1.29750396462E+01	-1.73685008123E+02	9.73929626813E+00	1.78570947511E+02	-3.91421039618E+01	-1.47363385782E+02	-5.82297414562E+00	-1.12939223165E-01
6.55061673519E+05	-1.50071590726E+01	1.79947780187E+02	9.71123071077E+00	1.78383613021E+02	-3.91800417671E+01	8.94830527994E+01	-5.86349466434E+00	-5.97555718879E-01
6.77253028114E+05	-2.09073235575E+01	-1.63601465294E+02	9.78454309554E+00	1.78203708559E+02	-4.21052802778E+01	-1.31602227195E+02	-5.81667752459E+00	-6.74048825857E-01
6.99444382709E+05	-1.97671565520E+01	-1.52910603025E+02	9.77996278957E+00	1.77759391736E+02	-3.95940890474E+01	-1.64283432151E+02	-5.83269930318E+00	-3.01338157556E-01
7.21635737304E+05	-1.99219977474E+01	-1.53890580907E+02	9.78656788275E+00	1.77599585997E+02	-3.68947031974E+01	-1.69959177005E+00	-5.88134525452E+00	-4.28602615822E-01
7.43827091899E+05	-1.52951424141E+01	1.68484298469E+02	9.78516872303E+00	1.77936601640E+02	-5.91489384049E+01	1.04063683435E+02	-5.83760207437E+00	-5.53649446621E-01
7.66018446494E+05	-2.13012198589E+01	1.44469454962E+02	9.77488920055E+00	1.77740513196E+02	-5.79044662685E+01	-1.69231778184E+02	-5.84480466686E+00	-4.46301441592E-01
7.88209801089E+05	-1.71967826635E+01	1.67723222291E+02	9.75660313007E+00	1.77410894617E+02	-5.07550713952E+01	-1.65018908890E+02	-5.84078580267E+00	-4.59780687028E-01
8.10401155684E+05	-2.67226980676E+01	-1.79913732213E+02	9.76365375948E+00	1.77266330562E+02	-4.49726282186E+01	-6.04227910332E+00	-5.84920601800E+00	-4.36692164293E-01
8.32592510279E+05	-1.98280273059E+01	-1.70814222930E+02	9.75020345960E+00	1.77262589003E+02	-4.51590714094E+01	1.56324064398E+02	-5.84552381934E+00	-2.89152021963E-01
8.54783864874E+05	-1.79155588567E+01	-1.74141381470E+02	9.78522975018E+00	1.76977662751E+02	-4.18284954874E+01	-1.09502173185E+02	-5.84308938747E+00	-3.15747647324E-01
8.76975219469E+05	-1.70177532232E+01	1.66520095556E+02	9.72303349836E+00	1.76807216952E+02	-4.24773613710E+01	-1.67051382135E+02	-5.81796838904E+00	-4.45976009389E-01
8.99166574064E+05	-1.71271600094E+01	-1.74315449783E+02	9.77149575477E+00	1.76764308899E+02	-4.46851086974E+01	1.31280972982E+01	-5.85376462079E+00	-6.32359770632E-01
9.21357928659E+05	-1.60483361193E+01	1.51229688452E+02	9.76950553642E+00	1.76762234676E+02	-4.22489224670E+01	1.18267960881E+02	-5.84314815935E+00	-4.95445640726E-01
9.43549283254E+05	-2.48672373581E+01	1.78549824674E+02	9.79108369425E+00	1.76310427635E+02	-3.71840064318E+01	-8.68730998999E+01	-5.86923929187E+00	-4.04327984611E-01
9.65740637849E+05	-1.68660690261E+01	1.67164569303E+02	9.77832857756E+00	1.76413022914E+02	-4.56902537590E+01	-6.76664873854E+01	-5.85544695017E+00	-3.57643198655E-01
9.87931992444E+05	-1.98590362408E+01	1.57298149145E+02	9.78165488040E+00	1.76302810229E+02	-4.47280053576E+01	5.29042503150E+01	-5.84420195341E+00	-7.34626075448E-01
1.01012334704E+06	-1.49850217389E+01	1.74613205698E+02	9.72216660658E+00	1.76021464397E+02	-4.13327191365E+01	3.43823068337E+00	-5.86048283821E+00	-7.18849696604E-01
1.03231470163E+06	-1.77915037708E+01	-1.62553587194E+02	9.78543654523E+00	1.75600758304E+02	-4.92371196058E+01	1.57878964985E+02	-5.84825723610E+00	-6.80103817980E-01
1.05450605623E+06	-1.72136235376E+01	1.70124661269E+02	9.76277462420E+00	1.75720101697E+02	-4.49835683892E+01	-5.57114105278E+01	-5.85267054074E+00	-6.07477884120E-01
1.07669741082E+06	-1.36399941134E+01	1.70064013896E+02	9.70605048391E+00	1.75765058908E+02	-4.50507671676E+01	2.83030975186E+01	-5.84206418189E+00	-5.27378569473E-01
1.09888876542E+06	-2.05719024708E+01	1.52276619311E+02	9.77373126339E+00	1.75728525592E+02	-4.51723579097E+01	-1.49588343485E+02	-5.80193388751E+00	-6.55403766176E-01
1.12108012001E+06	-2.34529825399E+01	1.60532585353E+02	9.77914681922E+00	1.75631540388E+02	-4.71400835377E+01	-1.30505664823E+02	-5.84886113691E+00	-5.73591753020E-01
1.14327147461E+06	-1.56315054804E+01	-1.43681731053E+02	9.79178298894E+00	1.75043592963E+02	-4.25187991754E+01	-1.62698539679E+02	-5.83260208708E+00	-6.90621001017E-01
1.16546282920E+06	-1.94602667985E+01	-1.52765570617E+02	9.76756274727E+00	1.75121762174E+02	-4.22695814705E+01	-3.55385948851E+01	-5.86628432233E+00	-4.56318912965E-01
1.18765418380E+06	-1.48307968754E+01	1.64727091075E+02	9.75746347714E+00	1.74891738047E+02	-4.04648832142E+01	1.31784300168E+02	-5.85224441022E+00	-6.20748646862E-01
1.20984553839E+06	-1.77801608650E+01	1.68450239874E+02	9.74551681780E+00	1.74823874412E+02	-4.54932940644E+01	-1.12560560728E+02	-5.86999646701E+00	-6.58897276612E-01
1.23203689299E+06	-1.80177585064E+01	-1.76447394436E+02	9.77109588072E+00	1.74519770749E+02	-4.09196469618E+01	7.16512041044E+01	-5.84307216072E+00	-4.30206679587E-01
1.25422824758E+06	-1.80282404156E+01	-1.71118988710E+02	9.77090826930E+00	1.74569604110E+02	-4.71320551863E+01	1.66314522796E+01	-5.84781528406E+00	-4.94332757169E-01
1.27641960218E+06	-2.14246538676E+01	1.60563342588E+02	9.74156182809E+00	1.74681376905E+02	-4.40537427003E+01	-1.29147899188E+02	-5.84397477819E+00	-5.36743205864E-01
1.29861095677E+06	-2.08546369783E+01	-1.53429416436E+02	9.79409612778E+00	1.74272747757E+02	-4.32821102906E+01	-1.79945358620E+02	-5.82875986301E+00	-4.86310036366E-01
1.32080231137E+06	-1.79235398590E+01	1.69945832331E+02	9.75211175132E+00	1.74020533943E+02	-4.33848622754E+01	-1.44455166254E+02	-5.83219012862E+00	-9.10878312071E-01
1.34299366596E+06	-1.55177257582E+01	1.54104179485E+02	9.72539112653E+00	1.74421849438E+02	-5.05792378411E+01	-7.42639882127E+01	-5.85820289089E+00	-7.48402411606E-01
1.36518502056E+06	-1.47597662315E+01	1.48627576850E+02	9.75961868727E+00	1.74291634588E+02	-5.17406308582E+01	9.09333743405E+01	-5.84374994385E+00	-7.22269298018E-01
1.38737637515E+06	-2.14595678014E+01	-1.60733696966E+02	9.78334530227E+00	1.73700003708E+02	-4.21354974070E+01	-4.38056565031E+01	-5.87752563405E+00	-5.79857192890E-01
1.40956772975E+06	-1.54416931577E+01	-1.72259751659E+02	9.75124532933E+00	1.73617966198E+02	-4.47164070874E+01	6.00377188670E+01	-5.84234093401E+00	-8.02768863581E-01
1.43175908434E+06	-1.79047453855E+01	1.77046608013E+02	9.76913237772E+00	1.73579840933E+02	-4.61313400156E+01	1.18986705745E+02	-5.83928909080E+00	-8.29515655202E-01
1.45395043894E+06	-1.99032307752E+01	-1.67791927995E+02	9.80407715502E+00	1.73503741821E+02	-4.67224352606E+01	-5.14529486370E+01	-5.85852740348E+00	-6.04218882497E-01
1.47614179353E+06	-1.32260487240E+01	-1.74248665564E+02	9.75538485452E+00	1.73110602719E+02	-4.36159774436E+01	-1.63777529531E+02	-5.83419688527E+00	-7.59672503239E-01
1.49833314813E+06	-1.45514635412E+01	-1.52163133932E+02	9.79570891576E+00	1.73030073148E+02	-3.86986970382E+01	5.63524455063E+01	-5.84769460713E+00	-1.00270967896E+00
1.52052450272E+06	-1.83686308175E+01	1.46279485850E+02	9.78607618078E+00	1.73344193387E+02	-6.04302849137E+01	5.67408893379E+01	-5.82169341814E+00	-8.68629433454E-01
1.54271585732E+06	-1.99912360425E+01	-1.57158148466E+02	9.77491547117E+00	1.72896781527E+02	-4.43725620601E+01	-1.37230157474E+02	-5.84979387837E+00	-7.17746254133E-01
1.56490721191E+06	-1.60653390633E+01	-1.73749931557E+02	9.75117456998E+00	1.72846178863E+02	-3.76197999323E+01	9.64878619416E+01	-5.84178872045E+00	-8.29560963389E-01
1.58709856651E+06	-2.42378167506E+01	-1.58725007709E+02	9.78848791236E+00	1.72809358142E+02	-4.23861152002E+01	1.05268768520E+02	-5.81549369490E+00	-6.71451575073E-01
1.60928992110E+06	-1.87640950839E+01	1.51842135589E+02	9.77701459159E+00	1.72894494838E+02	-5.02910541492E+01	1.61840631342E+02	-5.84992597779E+00	-8.46017146860E-01
1.63148127570E+06	-1.83002882517E+01	1.67584177675E+02	9.75166487916E+00	1.72555600953E+02	-5.04749684363E+01	-5.31691346661E+01	-5.84669077047E+00	-7.17501327774E-01
1.65367263029E+06	-2.03743976899E+01	1.09693585000E+02	9.79812133827E+00	1.72647162774E+02	-4.94170585928E+01	1.63553706043E+02	-5.83438910730E+00	-8.82631977514E-01
1.67586398489E+06	-2.16574948825E+01	-1.73201988308E+02	9.79618076402E+00	1.72280888324E+02	-4.54034270606E+01	4.38440515246E+00	-5.85375714911E+00	-8.74202197795E-01
1.69805533948E+06	-2.08583280014E+01	1.78565730508E+02	9.76416382713E+00	1.72198985947E+02	-4.56691740210E+01	1.42178743934E+02	-5.79764119575E+00	-7.06600754781E-01
1.72024669408E+06	-1.38318570414E+01	1.47391105826E+02	9.72843970433E+00	1.72338978803E+02	-5.32471081221E+01	-4.72772714623E+01	-5.84375026691E+00	-8.92181827101E-01
1.74243804867E+06	-2.03850271628E+01	1.67704384337E+02	9.77558525220E+00	1.72182490362E+02	-4.58351960729E+01	1.67386629670E+01	-5.88119401600E+00	-8.56440286589E-01
1.76462940327E+06	-1.64727986772E+01	-1.46931266840E+02	9.76108700976E+00	1.71551460510E+02	-5.77379361497E+01	-7.69484698091E+01	-5.84091693397E+00	-9.26927115500E-01
1.78682075786E+06	-1.42322355233E+01	-1.74711245632E+02	9.77998926396E+00	1.71434404450E+02	-5.63290153151E+01	9.77017255746E+01	-5.83428268535E+00	-8.72231082037E-01
1.80901211246E+06	-9.21409296223E+00	1.74404228766E+02	9.73029473066E+00	1.71314585904E+02	-3.82407156380E+01	1.38941693651E+02	-5.80261446982E+00	-1.07489033549E+00
1.83120346705E+06	-2.58526564378E+01	-9.33824064812E+01	9.79328598719E+00	1.71587858651E+02	-4.16874294115E+01	-1.81072117210E+01	-5.88134360128E+00	-8.95262473339E-01
1.85339482165E+06	-1.50974663788E+01	1.70685797007E+02	9.77272927419E+00	1.71553857007E+02	-4.51175190704E+01	1.52377293506E+02	-5.82720629800E+00	-9.86749603660E-01
1.87558617624E+06	-1.85650837453E+01	-1.39148143483E+02	9.84381376028E+00	1.71112681430E+02	-3.55748422522E+01	7.89170829207E+01	-5.82427168224E+00	-1.15225249328E+00
1.89777753084E+06	-2.56892162781E+01	1.71098729378E+02	9.78224591529E+00	1.71237444642E+02	-5.54404415560E+01	9.15288014099E+01	-5.84033067715E+00	-9.84978642213E-01
1.91996888543E+06	-1.34851935189E+01	-1.69889741848E+02	9.77851602934E+00	1.70676437734E+02	-4.56383394094E+01	-1.68559821899E+01	-5.85650651101E+00	-9.26250274528E-01
1.94216024003E+06	-1.81212654585E+01	-1.57919921444E+02	9.80794871598E+00	1.70846485036E+02	-4.87544200779E+01	3.62083925861E+01	-5.84658694702E+00	-9.67157753561E-01
1.96435159462E+06	-1.71202061554E+01	1.75800831215E+02	9.79747292684E+00	1.70755712739E+02	-4.05119145754E+01	1.48872356238E+02	-5.81527735204E+00	-1.05086366500E+00
1.98654294922E+06	-1.29614280605E+01	1.61759213001E+02	9.73768726959E+00	1.70489281608E+02	-4.49644503952E+01	6.05321629536E+01	-5.83024563792E+00	-1.03162596051E+00
2.00873430381E+06	-2.03381621901E+01	1.77379006132E+02	9.81019230353E+00	1.70723135980E+02	-4.39644130959E+01	-1.52903344009E+02	-5.83367656053E+00	-6.91311194034E-01
2.03092565841E+06	-2.27935589746E+01	-1.58926906702E+02	9.81767677478E+00	1.70364588556E+02	-2.95430680501E+01	9.94012527373E+01	-5.78543795253E+00	-1.29231385849E+00
2.05311701300E+06	-1.75670648404E+01	-1.49251621496E+02	9.81396019178E+00	1.70199542217E+02	-4.97145808875E+01	7.62668531185E+01	-5.85182793085E+00	-1.21018322898E+00
2.07530836760E+06	-2.18797365293E+01	-1.59836692599E+02	9.79814930526E+00	1.70163313348E+02	-5.50037480357E+01	6.98387992126E+01	-5.83068526670E+00	-1.14423098685E+00
2.09749972219E+06	-1.50399579887E+01	-1.73919825281E+02	9.77892628601E+00	1.69865527225E+02	-5.74967650354E+01	-1.57381087931E+01	-5.85209824177E+00	-1.13212220749E+00
2.11969107679E+06	-1.26072026937E+01	-1.74141009680E+02	9.76615047570E+00	1.69892807774E+02	-4.27019902122E+01	-2.41782652161E+01	-5.86415369910E+00	-1.16511980478E+00
2.14188243138E+06	-1.60028855621E+01	-1.29717577337E+02	9.83943590305E+00	1.69578207289E+02	-5.07863445775E+01	4.02973469066E+01	-5.83560040696E+00	-1.05513731132E+00
2.16407378598E+06	-2.18795001074E+01	1.59233825133E+02	9.76451245208E+00	1.69775373349E+02	-4.09293854109E+01	-1.56778023458E+02	-5.82575353920E+00	-8.68789264511E-01
2.18626514057E+06	-2.26539144481E+01	-1.56788652216E+02	9.81079874370E+00	1.69531447759E+02	-4.61493464891E+01	1.17122973174E+02	-5.82242427246E+00	-1.20619557346E+00
2.20845649517E+06	-1.94728923775E+01	-1.74745647891E+02	9.77588732384E+00	1.69425541096E+02	-4.88867251577E+01	-1.11169236404E+02	-5.85084542005E+00	-1.02247214035E+00
2.23064784976E+06	-1.89066627385E+01	-1.64874996629E+02	9.79358930022E+00	1.69370208088E+02	-4.84628451308E+01	1.35033342628E+02	-5.83707329714E+00	-1.07717998502E+00
2.25283920436E+06	-1.61122307363E+01	1.55593021664E+02	9.76552673061E+00	1.69380253888E+02	-4.23637632944E+01	9.93094747516E+01	-5.83176300488E+00	-1.32501132784E+00
2.27503055895E+06	-1.78257879106E+01	-1.54245122228E+02	9.80521342569E+00	1.69078575996E+02	-4.23078456855E+01	-1.34769393762E+02	-5.82265614752E+00	-1.09896853727E+00
2.29722191355E+06	-2.50727175731E+01	-5.71250605348E+01	9.83093222622E+00	1.69228596656E+02	-3.97144394270E+01	-6.08070079928E+01	-5.87005911346E+00	-1.01265551499E+00
2.31941326814E+06	-1.91775326097E+01	1.60718328170E+02	9.79690665759E+00	1.69165728767E+02	-4.56857170992E+01	-1.03109061977E+02	-5.84236309374E+00	-9.01061699293E-01
2.34160462274E+06	-1.70048824895E+01	-1.66696173458E+02	9.81021330598E+00	1.68738703103E+02	-3.12849636992E+01	-2.34094407534E+01	-5.89821484175E+00	-1.32795498799E+00
2.36379597733E+06	-1.77264925733E+01	1.71274442402E+02	9.78498901747E+00	1.68832624709E+02	-4.63204148447E+01	-1.77356175382E+02	-5.83107828681E+00	-1.22514353358E+00
2.38598733193E+06	-1.85281917609E+01	1.51745677771E+02	9.78504349673E+00	1.68678432936E+02	-5.75041421785E+01	1.38547076150E+02	-5.85068123778E+00	-1.24748719274E+00
2.40817868652E+06	-1.65950845409E+01	1.67711914828E+02	9.76954972589E+00	1.68299938606E+02	-4.73427562550E+01	-7.62382189869E+01	-5.86906109671E+00	-1.26599821752E+00
2.43037004112E+06	-1.28631155446E+01	-1.38825831971E+02	9.81949891485E+00	1.68095506202E+02	-5.09007840066E+01	-1.70366324294E+02	-5.84402094577E+00	-1.48893315647E+00
2.45256139571E+06	-1.70398094410E+01	2.36380962422E+01	9.84512069413E+00	1.68656701296E+02	-4.19663109472E+01	3.27196639492E+01	-5.88151742655E+00	-1.36296532191E+00
2.47475275031E+06	-1.67054378782E+01	-1.52762591266E+02	9.77898947676E+00	1.67981550396E+02	-4.35702500140E+01	1.42265624259E+02	-5.82481022655E+00	-1.24790590291E+00
2.49694410490E+06	-2.05734201324E+01	-1.44451396674E+02	9.79042162363E+00	1.67951298392E+02	-3.73164438760E+01	5.36242388993E+01	-5.85368820622E+00	-1.57546385410E+00
2.51913545950E+06	-1.74413235732E+01	-1.74928755575E+02	9.77743627038E+00	1.67850051735E+02	-3.95281484842E+01	1.93883876197E+01	-5.84316000385E+00	-1.43655522140E+00
2.54132681409E+06	-1.69512445784E+01	-1.76030289974E+02	9.77771458015E+00	1.67901636144E+02	-4.92589382774E+01	1.48404077576E+02	-5.85024370493E+00	-1.26298399998E+00
2.56351816869E+06	-1.98137341789E+01	1.67244319812E+02	9.80424576594E+00	1.67798212540E+02	-4.33646924902E+01	1.47902826917E+02	-5.84479344785E+00	-1.27712945797E+00
2.58570952328E+06	-1.61543066518E+01	1.43609968088E+02	9.77118156143E+00	1.67668326662E+02	-4.57679264799E+01	-6.24137922886E+01	-5.87479223088E+00	-1.31167555020E+00
2.60790087788E+06	-1.82314002338E+01	1.45572591687E+02	9.80342727727E+00	1.67725163173E+02	-5.14038966953E+01	-5.15764271361E+01	-5.84739577731E+00	-1.11467236701E+00
2.63009223247E+06	-2.17594277108E+01	-1.56317130573E+02	9.83093000092E+00	1.67412297062E+02	-5.09156632714E+01	-3.90082555819E+01	-5.84412437306E+00	-8.30069593961E-01
2.65228358707E+06	-1.74923601885E+01	-1.64534364347E+02	9.77722586765E+00	1.67143671933E+02	-5.66284475481E+01	2.39236262855E+01	-5.84721937475E+00	-1.36254540328E+00
2.67447494166E+06	-1.55265009362E+01	1.53071820656E+02	9.74826137387E+00	1.67338811650E+02	-4.96295755196E+01	1.26088539043E+02	-5.84589523578E+00	-1.31028113660E+00
2.69666629626E+06	-2.13135872257E+01	1.70041686688E+02	9.81224607683E+00	1.66991896221E+02	-4.25995759276E+01	1.22018956468E+02	-5.83334258710E+00	-1.46605652573E+00
2.71885765085E+06	-1.50601434739E+01	-1.72271389403E+02	9.78762391766E+00	1.66651124403E+02	-4.23659109669E+01	-1.34390867663E+02	-5.84758361058E+00	-1.26244010304E+00
2.74104900545E+06	-1.76276459859E+01	-1.72368431092E+02	9.78860849249E+00	1.66895448367E+02	-4.89801962225E+01	-7.30580238326E+01	-5.86751573824E+00	-1.36612415624E+00
2.76324036004E+06	-1.07606223584E+01	1.48901861221E+02	9.72768472410E+00	1.66570433634E+02	-3.99048583782E+01	1.43834161876E+02	-5.80084409511E+00	-1.38808393486E+00
2.78543171463E+06	-1.62061077158E+01	-1.66024131810E+02	9.81152214975E+00	1.66326217115E+02	-4.44323388043E+01	6.42109732358E+01	-5.82887384640E+00	-1.52752902965E+00
2.80762306923E+06	-1.37233686167E+01	1.66389983687E+02	9.74928777692E+00	1.66435030985E+02	-5.04153693118E+01	-1.35192314148E+02	-5.83374964266E+00	-1.40136698089E+00
2.82981442382E+06	-1.66104503804E+01	1.71331794327E+02	9.80305959991E+00	1.66325664036E+02	-4.57183893535E+01	1.36248375314E+02	-5.82327113232E+00	-1.30581348860E+00
2.85200577842E+06	-1.97027742475E+01	1.49592172541E+02	9.80725601377E+00	1.66218546282E+02	-4.86923743382E+01	-2.25767597564E+01	-5.87261052088E+00	-1.30965393040E+00
2.87419713301E+06	-1.77471933309E+01	1.70196013418E+02	9.77777049040E+00	1.66182547855E+02	-4.40804332567E+01	1.86769920122E+01	-5.84386829705E+00	-1.50818276150E+00
