# Hz S DB R 50
! CMT, M5065, 19127446, 24.2.4/2
! Date: 11/8/2024 4:13:09 PM
! Data: Format (Calibration Info)
! Freq	S11:dB/Ang(F2)	S21:dB/Ang(F2)	S12:dB/Ang(F2)	S22:dB/Ang(F2)
3.00000000000E+05	-2.41615686454E+01	-1.70411613553E+02	1.66947781186E+01	-1.76715359575E+02	-4.66397563383E+01	1.73717005156E+02	-5.82751552108E+00	-2.94842514341E-01
3.22191354595E+05	-2.85861852612E+01	1.68862283717E+02	1.66850416374E+01	-1.77250389113E+02	-4.04497819646E+01	1.16801979793E+02	-5.82373240574E+00	-6.31765535529E-01
3.44382709190E+05	-1.95321040586E+01	-1.10149244081E+02	1.67386489790E+01	-1.77787187850E+02	-4.73298216562E+01	-7.11822654703E+01	-5.84955518664E+00	-1.85943732604E-01
3.66574063785E+05	-1.71081712554E+01	1.65627160531E+02	1.66918770917E+01	-1.78190032979E+02	-4.21543605110E+01	-1.15890560058E+02	-5.82258758560E+00	-3.35731338525E-01
3.88765418380E+05	-1.78092926485E+01	-1.69359610206E+02	1.67555957547E+01	-1.78407659164E+02	-4.10613034127E+01	1.53348364407E+02	-5.78553923064E+00	-5.88700949091E-01
4.10956772975E+05	-1.96882479279E+01	1.71886349655E+02	1.67209832833E+01	-1.79022905852E+02	-4.21236255293E+01	-1.16187149441E+02	-5.84112977514E+00	-2.48222653935E-03
4.33148127570E+05	-1.86137356336E+01	1.73022588104E+02	1.66730096664E+01	-1.79507064216E+02	-3.86540115324E+01	-1.61184184539E+02	-5.77160724419E+00	-3.07172523963E-01
4.55339482165E+05	-1.38810450066E+01	-1.50148519422E+02	1.66973423380E+01	1.79827438676E+02	-4.92194192514E+01	-3.34719403644E+01	-5.82448751209E+00	-2.77165984612E-01
4.77530836760E+05	-1.59817937044E+01	1.49003985722E+02	1.66830982766E+01	1.79925401148E+02	-4.19057628206E+01	1.51168221369E+02	-5.80007914376E+00	-3.89924751202E-01
4.99722191355E+05	-1.38672876942E+01	-1.58581299754E+02	1.66846950174E+01	1.79271909939E+02	-4.64813141951E+01	-1.71854035588E+02	-5.80995918921E+00	-3.82100708461E-01
5.21913545950E+05	-1.92700713096E+01	1.35712012624E+02	1.67060900934E+01	1.79366390030E+02	-4.52028295856E+01	-7.07491218614E+01	-5.85317561765E+00	-2.86085133043E-01
5.44104900545E+05	-1.35629596485E+01	-1.65068020485E+02	1.66733274768E+01	1.78701142892E+02	-5.69907112454E+01	1.43316111172E+01	-5.83670067420E+00	-4.27316675725E-01
5.66296255139E+05	-2.15325265512E+01	1.74469378132E+02	1.67005462399E+01	1.78302851778E+02	-5.08210104686E+01	1.49809834611E+02	-5.84541506523E+00	-3.35174267160E-01
5.88487609734E+05	-1.76357968826E+01	-1.30977813417E+02	1.67163500592E+01	1.77919495516E+02	-4.98468857078E+01	-8.71828746726E+01	-5.85019472938E+00	-2.80026091996E-01
6.10678964329E+05	-1.56980830080E+01	1.67756192404E+02	1.66619951379E+01	1.77754304536E+02	-4.92931875093E+01	6.24443934828E+01	-5.84211769539E+00	1.61725650404E-01
6.32870318924E+05	-1.81976912421E+01	-1.68073131942E+02	1.66988339556E+01	1.77559790812E+02	-4.75597439407E+01	3.57333097139E+01	-5.84831531303E+00	-2.37594220506E-01
6.55061673519E+05	-1.37565095732E+01	1.69454281992E+02	1.66786043551E+01	1.77487920827E+02	-4.67412195739E+01	-1.54120850491E+01	-5.84872669364E+00	-4.29773536943E-01
6.77253028114E+05	-1.84094642765E+01	1.72066553580E+02	1.66953602196E+01	1.76929320582E+02	-5.85425412845E+01	-4.53096161118E+01	-5.83813865126E+00	-6.96652180663E-01
6.99444382709E+05	-1.81905729679E+01	-1.76561417731E+02	1.66991093263E+01	1.76786299808E+02	-4.66124081467E+01	1.69595098101E+02	-5.81617002895E+00	-2.82096568718E-01
7.21635737304E+05	-1.58115725358E+01	-1.70021285448E+02	1.66810538049E+01	1.76271757214E+02	-4.32118851152E+01	2.77054125211E+01	-5.85138805873E+00	-6.77316164616E-01
7.43827091899E+05	-2.35892609153E+01	-1.68821872228E+02	1.67078308513E+01	1.76254510462E+02	-4.10609392913E+01	1.61406539944E+02	-5.79022830047E+00	-3.17532208905E-01
7.66018446494E+05	-1.68851143861E+01	-1.70448935759E+02	1.66781311568E+01	1.76037809079E+02	-5.04491011848E+01	6.65096546459E+00	-5.84110384497E+00	-4.37480133403E-01
7.88209801089E+05	-1.70473120131E+01	-1.46040424962E+02	1.66911351971E+01	1.75513931291E+02	-3.95488577787E+01	-4.30939781693E+01	-5.88915436203E+00	-2.95228833319E-01
8.10401155684E+05	-1.81238030542E+01	-1.36198505280E+02	1.67076094762E+01	1.75438317253E+02	-4.01934576817E+01	2.55391315962E+01	-5.87854150237E+00	-5.06474888969E-01
8.32592510279E+05	-2.28998956446E+01	-1.79152148209E+02	1.67103452247E+01	1.75344117189E+02	-5.24179334399E+01	-8.13958717352E+01	-5.83153712644E+00	-4.72540755104E-01
8.54783864874E+05	-1.46881210802E+01	1.79903836147E+02	1.66743675782E+01	1.75058622809E+02	-4.94736812635E+01	1.48701522213E+02	-5.82456189349E+00	-5.02090800300E-01
8.76975219469E+05	-1.99027589551E+01	-1.65611349898E+02	1.67079161778E+01	1.74622493050E+02	-4.37248077550E+01	7.52335821362E+01	-5.83606865550E+00	-6.63792610755E-01
8.99166574064E+05	-1.53949380930E+01	-1.71026225295E+02	1.66845438144E+01	1.74695755200E+02	-4.15797360060E+01	-1.74481075406E+02	-5.79822814058E+00	-2.78533427865E-01
9.21357928659E+05	-1.49190191578E+01	-1.70555358258E+02	1.66465763750E+01	1.74311070249E+02	-5.35976185480E+01	1.42700250777E+02	-5.80822710478E+00	-6.81242090239E-01
9.43549283254E+05	-1.34835204276E+01	-1.72386045697E+02	1.66745918839E+01	1.74116810190E+02	-4.59463962787E+01	-7.85167872141E+01	-5.86230967350E+00	-3.73435033439E-01
9.65740637849E+05	-2.11460599180E+01	1.58345882228E+02	1.66710145053E+01	1.73935561852E+02	-4.95746871633E+01	-1.05950185728E+02	-5.84960126373E+00	-4.34413017308E-01
9.87931992444E+05	-1.63507850719E+01	-1.65288111404E+02	1.66809005561E+01	1.73579094084E+02	-4.23163584767E+01	1.32947294064E+02	-5.80374147081E+00	-7.44437546714E-01
1.01012334704E+06	-1.98073814907E+01	-1.77959220742E+02	1.66582567516E+01	1.73527209314E+02	-5.06866933906E+01	-1.70120341899E+02	-5.80274600415E+00	-5.98895703488E-01
1.03231470163E+06	-1.71370485888E+01	1.73175166327E+02	1.66889186843E+01	1.73514125186E+02	-4.38562098625E+01	1.31072821933E+02	-5.81608995589E+00	-6.28035459028E-01
1.05450605623E+06	-1.83520300270E+01	-1.60046942385E+02	1.67012629200E+01	1.72917423350E+02	-4.58785259278E+01	1.79116373213E+02	-5.79011926251E+00	-4.58188954979E-01
1.07669741082E+06	-2.00801301934E+01	-1.71594303213E+02	1.67260327907E+01	1.72795818997E+02	-3.91803211228E+01	3.40159980404E+01	-5.88092682642E+00	-5.28554318047E-01
1.09888876542E+06	-2.20737553360E+01	-1.42069686287E+02	1.67261238669E+01	1.72638605292E+02	-5.00358204013E+01	-1.73533107885E+01	-5.83547779506E+00	-4.22513370299E-01
1.12108012001E+06	-1.45317538061E+01	1.77591303187E+02	1.66596037951E+01	1.72398698117E+02	-4.14887978308E+01	1.60331934701E+02	-5.78077578511E+00	-5.58041641799E-01
1.14327147461E+06	-1.93757242341E+01	1.63721194933E+02	1.66589004585E+01	1.72379198449E+02	-5.59062942145E+01	-1.71106697651E+00	-5.85186225508E+00	-6.43988584385E-01
1.16546282920E+06	-1.82727109059E+01	-1.64097425187E+02	1.66841345934E+01	1.71805679900E+02	-4.81054267396E+01	1.58195574064E+02	-5.81871640584E+00	-5.20653124877E-01
1.18765418380E+06	-1.78318573142E+01	1.43845954200E+02	1.66632855122E+01	1.71905954495E+02	-4.47762302463E+01	1.02449318294E+02	-5.82866724657E+00	-8.75181316685E-01
1.20984553839E+06	-1.76593731562E+01	-1.52926602208E+02	1.66929090071E+01	1.71502937251E+02	-4.22554965362E+01	7.37170029669E+01	-5.84215425450E+00	-1.07642786644E+00
1.23203689299E+06	-1.98149678954E+01	1.65929441110E+02	1.66804710177E+01	1.71587669083E+02	-4.83034626104E+01	-3.21020175968E+00	-5.84913258670E+00	-2.91485747663E-01
1.25422824758E+06	-1.88065498491E+01	-1.60836184041E+02	1.66885088138E+01	1.71176733114E+02	-4.31467326214E+01	-1.24164733256E+02	-5.87570112082E+00	-5.58525230338E-01
1.27641960218E+06	-1.71187843494E+01	1.75291324847E+02	1.66826993322E+01	1.71008795484E+02	-6.08848535777E+01	-5.70635079046E+01	-5.84870932328E+00	-7.06179997064E-01
1.29861095677E+06	-1.70530108203E+01	1.75613964358E+02	1.66578912001E+01	1.70963480799E+02	-6.17351406156E+01	9.69387739866E+01	-5.85180277014E+00	-6.94187634751E-01
1.32080231137E+06	-1.74045604495E+01	-1.73162317784E+02	1.66697370989E+01	1.70660187469E+02	-5.76038361361E+01	8.70736639622E+01	-5.84199362115E+00	-9.80503933366E-01
1.34299366596E+06	-1.60006513533E+01	-1.71881905974E+02	1.66602698214E+01	1.70379584516E+02	-4.75129856197E+01	-1.60754695781E+02	-5.81512562452E+00	-6.77755335184E-01
1.36518502056E+06	-1.92957391903E+01	1.73928978275E+02	1.66660545275E+01	1.70233895259E+02	-5.20976170535E+01	1.19036942724E+02	-5.83851362777E+00	-7.17356188220E-01
1.38737637515E+06	-1.76540407600E+01	-1.57086392169E+02	1.66727877223E+01	1.69955643259E+02	-5.08333362490E+01	1.75107460599E+02	-5.82609453339E+00	-7.49833889088E-01
1.40956772975E+06	-1.69798161382E+01	1.78889889586E+02	1.66479738735E+01	1.69856385824E+02	-2.94951085719E+01	-1.53384444505E+02	-5.78163812030E+00	-1.08210762654E-02
1.43175908434E+06	-1.71987147085E+01	-1.73441966689E+02	1.66384653719E+01	1.69505798897E+02	-4.38628960266E+01	-1.25632740162E+02	-5.81094646918E+00	-6.41567862477E-01
1.45395043894E+06	-1.91911757352E+01	-1.54340856757E+02	1.66822769134E+01	1.69387743332E+02	-4.75526227794E+01	1.30530796272E+02	-5.84583086949E+00	-8.80494667575E-01
1.47614179353E+06	-2.37871323631E+01	1.42460467140E+02	1.66824599272E+01	1.69453335210E+02	-5.10912205389E+01	1.18121997289E+02	-5.83947356566E+00	-7.41560030605E-01
1.49833314813E+06	-1.44934297668E+01	-1.73342920042E+02	1.66461360139E+01	1.69095198313E+02	-4.58450157268E+01	8.95625460558E+01	-5.82864956319E+00	-1.00723201064E+00
1.52052450272E+06	-1.62482686397E+01	-1.65122514012E+02	1.66690278998E+01	1.68857944629E+02	-5.66234632185E+01	2.05934541420E+01	-5.84172358022E+00	-9.42369054655E-01
1.54271585732E+06	-1.55544602633E+01	-1.51222231061E+02	1.66997354461E+01	1.68500150117E+02	-5.50456027396E+01	1.24743072638E+02	-5.84203846104E+00	-8.73657726466E-01
1.56490721191E+06	-1.80186060393E+01	-1.48471109425E+02	1.66790709990E+01	1.68357449162E+02	-4.19826687052E+01	3.97381850616E+01	-5.84044870485E+00	-8.88824987760E-01
1.58709856651E+06	-2.04443850633E+01	-1.33852962643E+02	1.66932422401E+01	1.68369016680E+02	-4.00315056772E+01	7.05070140746E+00	-5.86956275525E+00	-1.04404168344E+00
1.60928992110E+06	-1.47030543460E+01	-1.77246664262E+02	1.66354031050E+01	1.67843385310E+02	-4.29578018006E+01	-1.61370344631E+02	-5.82215933139E+00	-4.61691034782E-01
1.63148127570E+06	-1.79297512015E+01	-1.34337043487E+02	1.66779687757E+01	1.67740661616E+02	-4.50788591894E+01	1.57181865477E+02	-5.81364369046E+00	-9.59393495979E-01
1.65367263029E+06	-1.72661310244E+01	-1.77480857966E+02	1.66404885234E+01	1.67827916139E+02	-4.57324810063E+01	-1.05120820641E+02	-5.83648458133E+00	-6.74718752578E-01
1.67586398489E+06	-1.83403313063E+01	-1.72099627941E+02	1.66676083838E+01	1.67589588511E+02	-4.90286767976E+01	-2.81829923086E+01	-5.84644166682E+00	-7.12557502301E-01
1.69805533948E+06	-1.79380312500E+01	-1.73755326324E+02	1.66646108761E+01	1.67537652453E+02	-4.20071831385E+01	6.48356755344E+01	-5.84459504984E+00	-1.19230713543E+00
1.72024669408E+06	-1.51761748457E+01	-1.73328042981E+02	1.66381224264E+01	1.67083288792E+02	-3.63408543825E+01	1.90041462460E+01	-5.88155360179E+00	-1.03817243182E+00
1.74243804867E+06	-8.81423935301E+00	1.57850659019E+02	1.65709527630E+01	1.67154502194E+02	-3.84631360816E+01	6.72853465494E+01	-5.79711394952E+00	-1.46761012988E+00
1.76462940327E+06	-1.92711173711E+01	1.77702034033E+02	1.66502720025E+01	1.67020735734E+02	-5.47345007502E+01	-4.75890298122E+01	-5.82560237893E+00	-1.02646099336E+00
1.78682075786E+06	-1.70493797435E+01	-1.79031785887E+02	1.66458760310E+01	1.66711951410E+02	-4.06256898746E+01	-3.87689535326E+01	-5.91974635400E+00	-7.05105305863E-01
1.80901211246E+06	-1.94957382364E+01	-1.39069104542E+02	1.66939747753E+01	1.66371830058E+02	-4.21831129039E+01	-4.25901632721E+01	-5.89452886494E+00	-8.16071167400E-01
1.83120346705E+06	-1.52764137166E+01	1.79503935582E+02	1.66543625045E+01	1.66244564982E+02	-5.34162205017E+01	9.98839874199E+01	-5.82690258554E+00	-8.60860880394E-01
1.85339482165E+06	-1.52114019999E+01	1.65669342134E+02	1.66049233777E+01	1.66033164317E+02	-5.60054984784E+01	8.88101038998E+01	-5.83463930967E+00	-1.07960400362E+00
1.87558617624E+06	-2.06544699790E+01	-1.72279388564E+02	1.66561697629E+01	1.65996232970E+02	-4.33631237292E+01	-1.12157451208E+02	-5.82869335849E+00	-8.96940120967E-01
1.89777753084E+06	-2.73695826473E+01	-7.56176791349E+01	1.66688883962E+01	1.65834715266E+02	-5.17574514874E+01	-2.52205710333E+01	-5.85174549261E+00	-1.05438599903E+00
1.91996888543E+06	-1.91598220493E+01	-1.72221241123E+02	1.66441120408E+01	1.65681700744E+02	-3.97410158274E+01	-1.65247647477E+02	-5.78232011611E+00	-8.27446622776E-01
1.94216024003E+06	-1.74131693733E+01	-1.63151641110E+02	1.66519769820E+01	1.65223381995E+02	-4.00805332837E+01	4.66640926924E+00	-5.90376259641E+00	-1.20622044378E+00
1.96435159462E+06	-1.76505809054E+01	-1.51451160399E+02	1.66613569461E+01	1.65240496634E+02	-5.19864261046E+01	8.56580212663E+01	-5.84779435008E+00	-1.16847315251E+00
1.98654294922E+06	-2.37084850370E+01	-1.72704529204E+02	1.66728119505E+01	1.65121747935E+02	-4.61259880685E+01	1.72387840322E+02	-5.80979065953E+00	-1.01146064430E+00
2.00873430381E+06	-1.72185628887E+01	-1.69443531430E+02	1.66421531431E+01	1.64734563451E+02	-4.49389866002E+01	1.03619842347E+02	-5.81825897690E+00	-1.21444389533E+00
2.03092565841E+06	-1.22461308487E+01	-1.61910502758E+02	1.66129592669E+01	1.64332374739E+02	-4.54722568727E+01	-8.75497923919E+01	-5.87646776685E+00	-1.13693899503E+00
2.05311701300E+06	-1.34661874398E+01	-1.69755934652E+02	1.66334272223E+01	1.64240768886E+02	-4.08796587916E+01	-5.20344149881E+01	-5.85875675416E+00	-9.50802448266E-01
2.07530836760E+06	-1.43394635940E+01	1.53062064501E+02	1.65984715125E+01	1.64340102564E+02	-4.49628304195E+01	1.31669480374E+02	-5.80904007118E+00	-1.23361248510E+00
2.09749972219E+06	-1.93952255200E+01	-1.68963811594E+02	1.66704424617E+01	1.64265547937E+02	-4.39572115972E+01	-1.16000379048E+01	-5.87270498337E+00	-1.02493141913E+00
2.11969107679E+06	-1.94906528708E+01	-1.61670641427E+02	1.66707178868E+01	1.63861074026E+02	-5.20281939813E+01	1.69480545954E+02	-5.82477214054E+00	-1.12651031761E+00
2.14188243138E+06	-1.87166883495E+01	1.77749767638E+02	1.66450255525E+01	1.63668803246E+02	-5.63755139223E+01	-1.63571814639E+02	-5.82789021018E+00	-1.11692723193E+00
2.16407378598E+06	-1.68519715848E+01	1.52761939203E+02	1.66201669938E+01	1.63560036457E+02	-4.02324488149E+01	-1.52575995292E+01	-5.88386370001E+00	-1.10945464321E+00
2.18626514057E+06	-1.33282014196E+01	-1.76076802716E+02	1.65872206814E+01	1.63211328844E+02	-3.83075314272E+01	6.36902442427E+01	-5.86100820498E+00	-1.39208535646E+00
2.20845649517E+06	-1.46979872429E+01	1.78095507314E+02	1.66294736933E+01	1.63042135735E+02	-3.58303214080E+01	3.65645114670E+01	-5.83607371295E+00	-1.60833128776E+00
2.23064784976E+06	-1.74484042376E+01	1.66970054874E+02	1.66369631264E+01	1.63139826625E+02	-4.74509965101E+01	1.13988513124E+02	-5.82429827385E+00	-1.14013382446E+00
2.25283920436E+06	-2.31063459699E+01	-1.65969092749E+02	1.66575004967E+01	1.62931386961E+02	-4.59530009352E+01	5.49453064819E+01	-5.85190323040E+00	-1.24174127856E+00
2.27503055895E+06	-1.57878363754E+01	1.70260422963E+02	1.66160820979E+01	1.62703915607E+02	-4.75788118666E+01	7.93052736773E+01	-5.84021938064E+00	-1.23069039392E+00
2.29722191355E+06	-1.80781426548E+01	1.79042027659E+02	1.66324735685E+01	1.62500482932E+02	-4.87387328188E+01	1.19052139683E+02	-5.80985826844E+00	-1.28042931723E+00
2.31941326814E+06	-1.75419091370E+01	-1.63642813856E+02	1.66313658859E+01	1.62076108254E+02	-4.65875168830E+01	3.83382403498E+01	-5.85393655394E+00	-1.30804830888E+00
2.34160462274E+06	-1.86266690380E+01	-1.75033477699E+02	1.66483282343E+01	1.62111719013E+02	-4.17005858296E+01	-9.15379475983E+01	-5.84082780074E+00	-8.46877853682E-01
2.36379597733E+06	-1.27449446607E+01	-1.64192796110E+02	1.66213494630E+01	1.61620110399E+02	-4.97883634631E+01	-1.59289171816E+02	-5.82932550688E+00	-1.31458155486E+00
2.38598733193E+06	-1.77864162040E+01	-1.61138858425E+02	1.66433448006E+01	1.61469925470E+02	-4.36613537016E+01	1.17846125248E+02	-5.81116489453E+00	-1.31250162981E+00
2.40817868652E+06	-1.99430947890E+01	-1.28296545583E+02	1.66579534912E+01	1.61479719409E+02	-5.07109721323E+01	9.47673797758E+01	-5.81343966706E+00	-1.36982044167E+00
2.43037004112E+06	-1.87454198363E+01	-1.51983052720E+02	1.66635151748E+01	1.61117999012E+02	-4.06091998617E+01	1.53287813180E+02	-5.75822531222E+00	-1.69735157805E+00
2.45256139571E+06	-2.11389283743E+01	-1.47303837970E+02	1.66544961357E+01	1.61220920597E+02	-4.86444249057E+01	8.40350637672E+00	-5.85863386469E+00	-1.35855186475E+00
2.47475275031E+06	-1.42295984428E+01	-1.73371843916E+02	1.65969365525E+01	1.60843160656E+02	-5.05929171530E+01	-6.73342363465E+01	-5.83709634278E+00	-1.17916197012E+00
2.49694410490E+06	-1.52513001540E+01	-1.72741315491E+02	1.66151696453E+01	1.60638913065E+02	-4.03421571238E+01	3.30927755970E+01	-5.83436337716E+00	-1.57393463461E+00
2.51913545950E+06	-1.53675030535E+01	1.71491810645E+02	1.66201564310E+01	1.60534037220E+02	-4.37637510621E+01	-1.61458520890E+02	-5.82235243555E+00	-1.14881064481E+00
2.54132681409E+06	-2.68192951562E+01	1.64680265310E+02	1.66251561377E+01	1.60408076076E+02	-7.41316749258E+01	9.57280447649E+01	-5.83674122278E+00	-1.21211050345E+00
2.56351816869E+06	-1.95364626072E+01	-1.69252777954E+02	1.66242210356E+01	1.60161615582E+02	-5.44445888807E+01	-1.38516226221E+02	-5.84576239617E+00	-1.17847033874E+00
2.58570952328E+06	-2.23326679670E+01	-1.61000334492E+02	1.66401234222E+01	1.60091361348E+02	-4.70130143271E+01	1.33373625843E+02	-5.81375778040E+00	-1.55909809611E+00
2.60790087788E+06	-1.68460709107E+01	-1.72702329490E+02	1.66395035425E+01	1.59821685741E+02	-4.59550523445E+01	-1.28040776205E+02	-5.82683114988E+00	-1.03783263425E+00
2.63009223247E+06	-1.84784976125E+01	1.57622649971E+02	1.65843065385E+01	1.59775030542E+02	-4.99653025581E+01	-1.43516047759E+02	-5.80609591220E+00	-8.30401351373E-01
2.65228358707E+06	-1.94112305055E+01	1.59881438767E+02	1.66007150893E+01	1.59590380776E+02	-3.55723849401E+01	1.34121256975E+02	-5.74711645485E+00	-1.43203901112E+00
2.67447494166E+06	-1.92980795203E+01	-1.32797248383E+02	1.66536226814E+01	1.59247537174E+02	-3.72822357780E+01	1.00486130032E+02	-5.82044959648E+00	-1.72910224496E+00
2.69666629626E+06	-1.70623708782E+01	-1.05427910704E+02	1.66690431497E+01	1.58923683698E+02	-4.06033907036E+01	-1.62928507501E+02	-5.77673953524E+00	-1.17370466122E+00
2.71885765085E+06	-1.50143750571E+01	-1.78656379546E+02	1.65888383715E+01	1.58856766754E+02	-4.32656828560E+01	-9.13979965943E+01	-5.84510007974E+00	-1.06570867474E+00
2.74104900545E+06	-1.82793153545E+01	1.70454367165E+02	1.66108746927E+01	1.58700349897E+02	-6.43434574157E+01	2.75598806122E+00	-5.84780746193E+00	-1.29829300108E+00
2.76324036004E+06	-1.65159103988E+01	-1.69184004193E+02	1.66039756158E+01	1.58515628279E+02	-5.20407063531E+01	4.72553463424E+01	-5.83374683316E+00	-1.58383408098E+00
2.78543171463E+06	-1.63866712092E+01	-1.76889990558E+02	1.66016000456E+01	1.58286789377E+02	-5.11380679280E+01	4.26384695534E+01	-5.84177322621E+00	-1.35599152728E+00
2.80762306923E+06	-2.61336248310E+01	1.65892741277E+02	1.66218610078E+01	1.58422068429E+02	-4.58404471694E+01	9.22055848373E+01	-5.83946585978E+00	-1.46607976351E+00
2.82981442382E+06	-1.65633188145E+01	-1.66662734127E+02	1.66148716288E+01	1.57941973762E+02	-3.56962244879E+01	-1.39491514914E+02	-5.78867283271E+00	-1.17059119537E+00
2.85200577842E+06	-2.59507336949E+01	1.02760117511E+02	1.66285082129E+01	1.58075679551E+02	-6.31629074702E+01	-1.06983106580E+02	-5.82416298536E+00	-1.43099653338E+00
2.87419713301E+06	-1.64449429117E+01	-1.66057589816E+02	1.66152987529E+01	1.57575084474E+02	-5.56026974985E+01	6.24216189228E+01	-5.83298418407E+00	-1.53456315525E+00
