# Hz S DB R 50
! CMT, M5065, 19127446, 24.2.4/2
! Date: 11/8/2024 4:13:44 PM
! Data: Format (Calibration Info)
! Freq	S11:dB/Ang(F2)	S21:dB/Ang(F2)	S12:dB/Ang(F2)	S22:dB/Ang(F2)
3.00000000000E+05	-1.90333614412E+01	1.54555578429E+02	1.72121200441E+01	-1.76449054615E+02	-5.62553204412E+01	-1.16133891437E+02	-5.81834503611E+00	-1.04426784488E-01
3.22191354595E+05	-1.59031857863E+01	1.61849311314E+02	1.71772646810E+01	-1.77097134336E+02	-4.16472359059E+01	-9.49028689136E+01	-5.83750214297E+00	-1.23697897748E-01
3.44382709190E+05	-1.69748173913E+01	-1.68502026712E+02	1.71996304125E+01	-1.77705385658E+02	-4.31795080082E+01	-1.88653450632E+01	-5.83582318465E+00	-3.64431858355E-01
3.66574063785E+05	-1.62257622913E+01	1.32611654617E+02	1.71932669622E+01	-1.78111639554E+02	-4.20952290208E+01	-1.08778875096E+02	-5.82955883257E+00	-1.65981016117E-01
3.88765418380E+05	-1.67446685039E+01	1.69472632278E+02	1.71566628624E+01	-1.78578504578E+02	-5.06814086131E+01	-1.59901865545E+01	-5.83908130238E+00	-1.91102091671E-02
4.10956772975E+05	-1.87774567706E+01	1.76071518556E+02	1.72040073989E+01	-1.79278961101E+02	-4.62662811772E+01	-1.53944747595E+02	-5.81001907928E+00	-3.60353838215E-01
4.33148127570E+05	-2.17551504874E+01	-1.65393371014E+02	1.72220625728E+01	-1.79712375308E+02	-4.84353146723E+01	-1.13005672963E+02	-5.83595209561E+00	-3.44226194393E-01
4.55339482165E+05	-1.86939994485E+01	1.52880396469E+02	1.72142080663E+01	-1.79739303649E+02	-4.29132205186E+01	1.93131948936E+01	-5.85824754427E+00	-4.58776067934E-01
4.77530836760E+05	-1.52056046519E+01	-1.77795861902E+02	1.71764933934E+01	1.79648340402E+02	-4.82909529662E+01	1.57581658259E+02	-5.82340482499E+00	-3.84456727459E-01
4.99722191355E+05	-1.59603741465E+01	1.59796994876E+02	1.72063058877E+01	1.79488584142E+02	-4.25578752526E+01	-9.19539805975E+01	-5.82474445540E+00	-2.94705963875E-01
5.21913545950E+05	-1.86880478071E+01	-1.46279491769E+02	1.72138214925E+01	1.79005245331E+02	-3.61088076706E+01	6.71717112205E+01	-5.82614167062E+00	-8.05282526335E-01
5.44104900545E+05	-1.88696497962E+01	1.54528957574E+02	1.72174027814E+01	1.78722088894E+02	-4.52941913316E+01	9.64201993170E+01	-5.83756580505E+00	-4.78060482839E-01
5.66296255139E+05	-1.32178604713E+01	-1.55462300486E+02	1.71726896996E+01	1.77897669747E+02	-3.99028594531E+01	-1.35366719192E+02	-5.83444929007E+00	8.07151060530E-02
5.88487609734E+05	-1.46910720329E+01	-1.71972460599E+02	1.71676506859E+01	1.77896775241E+02	-4.49468277579E+01	-1.17115439371E+02	-5.81236205181E+00	-2.08390194188E-01
6.10678964329E+05	-2.08238055894E+01	1.79769852905E+02	1.72078777406E+01	1.77715159795E+02	-4.38281861464E+01	-1.51607898613E+02	-5.79771875591E+00	2.23696403180E-01
6.32870318924E+05	-1.61154962996E+01	-1.64627581678E+02	1.71893987046E+01	1.77269353164E+02	-5.17947598161E+01	-1.40274948741E+02	-5.83274253984E+00	-1.68740285163E-01
6.55061673519E+05	-1.47399028779E+01	-1.77268191239E+02	1.71856218031E+01	1.77109487539E+02	-6.25227853043E+01	-9.46089565066E+01	-5.81218236906E+00	-2.25434283133E-01
6.77253028114E+05	-1.73331506128E+01	1.77241277323E+02	1.72052402863E+01	1.76746348716E+02	-3.78577950542E+01	-1.60465509374E+02	-5.77016637233E+00	-5.40745499697E-01
6.99444382709E+05	-1.78800683845E+01	1.47616731458E+02	1.71989646045E+01	1.76908532275E+02	-4.63413845903E+01	1.07519532361E+02	-5.82369147163E+00	-5.00466040213E-01
7.21635737304E+05	-2.43182408232E+01	-1.14816754519E+02	1.72276718955E+01	1.76405409758E+02	-4.16546371930E+01	-4.88066490612E+01	-5.88158720119E+00	-4.08722943075E-01
7.43827091899E+05	-1.70437520605E+01	-1.79037732815E+02	1.71880428941E+01	1.75933744872E+02	-4.17871409046E+01	2.24189040439E+01	-5.86252743527E+00	-6.05976105867E-01
7.66018446494E+05	-2.48415235490E+01	-1.55218668902E+02	1.72188883814E+01	1.75743459873E+02	-4.11676982866E+01	3.53516732846E+01	-5.85991849103E+00	-7.01418336793E-01
7.88209801089E+05	-1.52858653545E+01	-1.72311114548E+02	1.71915784020E+01	1.75432264004E+02	-4.96110685595E+01	1.08683890483E+02	-5.84560564968E+00	-5.45983545846E-01
8.10401155684E+05	-1.71023464509E+01	-1.78955948959E+02	1.71792397210E+01	1.75248619786E+02	-6.35584715754E+01	1.35176688316E+02	-5.83873866570E+00	-5.44767179989E-01
8.32592510279E+05	-1.74388294477E+01	1.75916683558E+02	1.71957806063E+01	1.74967843880E+02	-4.31650645666E+01	-5.13061334701E+01	-5.88442182463E+00	-4.10899203311E-01
8.54783864874E+05	-1.49258113847E+01	1.72502350890E+02	1.71693634533E+01	1.74835902879E+02	-4.63315031389E+01	9.70729836034E+01	-5.84854043018E+00	-7.11392021838E-01
8.76975219469E+05	-1.66001940487E+01	-1.65168682283E+02	1.71958938546E+01	1.74443170374E+02	-4.79504630164E+01	-9.52992317622E+01	-5.83292773357E+00	-2.53285899944E-01
8.99166574064E+05	-1.60030274034E+01	1.61290553789E+02	1.71755513544E+01	1.74343814785E+02	-4.79004709544E+01	-1.64742525460E+02	-5.80627338278E+00	-4.87319034877E-01
9.21357928659E+05	-1.70574675014E+01	1.64652537728E+02	1.71727900213E+01	1.74073943208E+02	-4.44268860863E+01	6.92564207455E+01	-5.82743775614E+00	-7.03420042384E-01
9.43549283254E+05	-1.87739528300E+01	1.66395087559E+02	1.71737846213E+01	1.74008140978E+02	-5.02927311014E+01	1.17095316965E+02	-5.83465173135E+00	-7.14574684089E-01
9.65740637849E+05	-1.83472145732E+01	1.68390724349E+02	1.71879233215E+01	1.73734667381E+02	-5.10898763819E+01	-4.79717191118E+01	-5.84510258046E+00	-5.32890367052E-01
9.87931992444E+05	-2.04353602402E+01	-9.63728554780E+01	1.72215929144E+01	1.73455528559E+02	-3.96387116687E+01	8.40470762905E+01	-5.83015316688E+00	-7.36841720568E-01
1.01012334704E+06	-1.81869838246E+01	-1.76294545434E+02	1.71944562567E+01	1.73126985757E+02	-4.84839660916E+01	1.47934427575E+02	-5.81230824712E+00	-7.59842521928E-01
1.03231470163E+06	-1.26515794364E+01	1.74926751515E+02	1.71175982942E+01	1.73015097889E+02	-4.23880049019E+01	-1.08072279243E+02	-5.82642347331E+00	-3.49195889748E-01
1.05450605623E+06	-1.64307649109E+01	1.77011571403E+02	1.71783034721E+01	1.72888819495E+02	-4.78429202371E+01	-1.68340817761E+02	-5.82207248845E+00	-4.74079147847E-01
1.07669741082E+06	-2.07422473349E+01	1.54487906337E+02	1.71986982123E+01	1.72719035577E+02	-4.87023361608E+01	-5.54789635666E-02	-5.92364153927E+00	-9.21065624203E-01
1.09888876542E+06	-1.66099126309E+01	-1.53642693889E+02	1.71942823967E+01	1.72233190325E+02	-5.31697964119E+01	5.68515231323E+01	-5.85365715816E+00	-5.60487142144E-01
1.12108012001E+06	-1.67383490018E+01	-1.76698171950E+02	1.71422484661E+01	1.72252393978E+02	-4.19238436078E+01	1.59427146831E+02	-5.81862552333E+00	-5.63111015030E-01
1.14327147461E+06	-1.53105204407E+01	1.68010469597E+02	1.71634308352E+01	1.72077282933E+02	-4.37749037873E+01	2.16409977887E+01	-5.86886065049E+00	-7.89110484201E-01
1.16546282920E+06	-1.94402663604E+01	-1.63723366955E+02	1.72106566379E+01	1.71723337213E+02	-4.53628785283E+01	1.01481586550E+02	-5.81739595276E+00	-7.99820088907E-01
1.18765418380E+06	-1.69591333907E+01	1.77486290353E+02	1.71539108567E+01	1.71536225005E+02	-4.55891488335E+01	-1.25984719511E+02	-5.84474728642E+00	-5.81904997286E-01
1.20984553839E+06	-1.63105439500E+01	1.65473406161E+02	1.71672010976E+01	1.71219701801E+02	-4.17120935533E+01	-2.18222422753E+01	-5.87392137599E+00	-5.65671862130E-01
1.23203689299E+06	-1.91965179640E+01	1.66776532934E+02	1.71788139705E+01	1.71158279987E+02	-4.58705989096E+01	-5.61202374805E+01	-5.85791864176E+00	-1.75524524234E-01
1.25422824758E+06	-1.60504097561E+01	-1.75470714268E+02	1.71448611697E+01	1.70796004761E+02	-5.65924499719E+01	-6.79788431684E+01	-5.85444329931E+00	-5.85321239883E-01
1.27641960218E+06	-1.84408737039E+01	1.54886827313E+02	1.71758114025E+01	1.70830649849E+02	-4.01105615731E+01	7.79820624306E+00	-5.88885390287E+00	-7.80900714967E-01
1.29861095677E+06	-1.87222493928E+01	-1.71812155199E+02	1.71751075322E+01	1.70312621352E+02	-4.21024174774E+01	-1.42171011694E+02	-5.79792790153E+00	-5.53422015513E-01
1.32080231137E+06	-2.85893245823E+01	-1.42885978193E+02	1.72024800889E+01	1.70200650351E+02	-5.35591248412E+01	8.07292545205E+01	-5.83870456651E+00	-1.34385962910E+00
1.34299366596E+06	-1.71884014667E+01	1.43113838022E+02	1.71528374433E+01	1.70337992023E+02	-4.58814626327E+01	-1.27194953763E+02	-5.79687132016E+00	-5.65574520803E-01
1.36518502056E+06	-1.89601259624E+01	1.78691383176E+02	1.71753586650E+01	1.69918410613E+02	-4.90282066014E+01	-1.25624666990E+02	-5.81236277971E+00	-4.26412068170E-01
1.38737637515E+06	-1.56711437390E+01	1.72452489700E+02	1.71403301873E+01	1.69689543933E+02	-4.26502827133E+01	-1.35581991700E+01	-5.87909795374E+00	-6.07178530020E-01
1.40956772975E+06	-1.50843150416E+01	-1.49341425837E+02	1.71729186090E+01	1.69189282260E+02	-4.31587055824E+01	9.00376255586E+01	-5.82404559572E+00	-9.32757455257E-01
1.43175908434E+06	-1.40915027325E+01	-1.71236438381E+02	1.71461358994E+01	1.69008010592E+02	-4.74240579031E+01	1.21710113549E+01	-5.85683494991E+00	-8.75886812707E-01
1.45395043894E+06	-2.42673921744E+01	-1.72793951973E+02	1.71738907003E+01	1.69170136087E+02	-4.29618671133E+01	-7.54606827911E+01	-5.81789767784E+00	-6.56911252189E-01
1.47614179353E+06	-1.73674854398E+01	-1.59653712904E+02	1.71516051279E+01	1.68750673721E+02	-4.90284364931E+01	5.65472329734E+01	-5.83773939012E+00	-8.42715198059E-01
1.49833314813E+06	-1.52537467195E+01	1.59482832548E+02	1.71263079095E+01	1.68712253437E+02	-4.50709521539E+01	-5.71979363511E+00	-5.87590941389E+00	-1.00857043438E+00
1.52052450272E+06	-1.51864987938E+01	1.58023815028E+02	1.71289324727E+01	1.68527471743E+02	-4.33459846626E+01	-1.22311225583E+02	-5.80456913096E+00	-4.98272321638E-01
1.54271585732E+06	-2.04160756316E+01	-1.57523949822E+02	1.71899027736E+01	1.68217328278E+02	-5.08663746431E+01	1.55852279468E+02	-5.82247378615E+00	-8.34496978994E-01
1.56490721191E+06	-2.06961515971E+01	-1.04062600349E+02	1.72193053543E+01	1.68055905037E+02	-4.09366129593E+01	-8.65561185680E+01	-5.84308893994E+00	-5.49174644359E-01
1.58709856651E+06	-1.69479009458E+01	1.54769237240E+02	1.71233433887E+01	1.68057461109E+02	-4.54102846026E+01	-1.60050621750E+01	-5.84410089228E+00	-7.78611637801E-01
1.60928992110E+06	-1.45747985464E+01	-1.60398807919E+02	1.71479014309E+01	1.67463137817E+02	-3.99116758678E+01	9.93874794331E+01	-5.82340549423E+00	-1.09800505852E+00
1.63148127570E+06	-1.41427276039E+01	1.67756257227E+02	1.71548616943E+01	1.67459412515E+02	-3.69462275176E+01	-1.25383199478E+02	-5.81198818868E+00	-2.13803002965E-01
1.65367263029E+06	-2.06764285234E+01	-1.71571129212E+02	1.71760170985E+01	1.67264140224E+02	-4.53576057545E+01	-1.58362207213E+02	-5.79294336843E+00	-7.00972583882E-01
1.67586398489E+06	-1.68629994022E+01	-1.68037869724E+02	1.71582417734E+01	1.67055832838E+02	-4.34271462012E+01	2.85470855975E+01	-5.87241876574E+00	-1.05644813549E+00
1.69805533948E+06	-1.63571373977E+01	-1.76324251155E+02	1.71322053460E+01	1.66787710222E+02	-4.71790206867E+01	-3.63549986499E+00	-5.86241726147E+00	-9.05740470870E-01
1.72024669408E+06	-1.53255058714E+01	-1.68352566980E+02	1.71367181533E+01	1.66318901589E+02	-4.63156578366E+01	-1.45581425091E+02	-5.81472439959E+00	-5.09111613807E-01
1.74243804867E+06	-2.01008518391E+01	-1.57318167829E+02	1.71605312683E+01	1.66491648706E+02	-4.06545684647E+01	1.39155078240E+02	-5.77571463799E+00	-1.17545968719E+00
1.76462940327E+06	-1.27178344107E+01	-1.78758380350E+02	1.71269465929E+01	1.66127204372E+02	-3.86217958510E+01	-2.83042085818E+01	-5.88816511902E+00	-7.96981191900E-01
1.78682075786E+06	-1.40888632130E+01	1.56940040442E+02	1.71310890409E+01	1.66097347870E+02	-3.62697388993E+01	1.53793379542E+02	-5.78904706821E+00	-8.89452896260E-01
1.80901211246E+06	-1.70768235935E+01	1.58348214751E+02	1.71168727829E+01	1.65972802180E+02	-3.80430180042E+01	-1.17918483677E+02	-5.78945591551E+00	-4.76041587677E-01
1.83120346705E+06	-1.87152215088E+01	1.77140756732E+02	1.71515817736E+01	1.65731236904E+02	-4.98164149561E+01	-1.18381540416E+01	-5.87133856821E+00	-9.78677808483E-01
1.85339482165E+06	-1.88364072653E+01	-1.77502242067E+02	1.71526203644E+01	1.65575982479E+02	-4.94593749252E+01	1.64328030114E+02	-5.81086382259E+00	-8.88597334279E-01
1.87558617624E+06	-1.71532026505E+01	-1.67316769435E+02	1.71299483677E+01	1.65337361789E+02	-5.57302871695E+01	-1.25037485544E+02	-5.82713559320E+00	-8.97082458379E-01
1.89777753084E+06	-1.42940500718E+01	-1.60927863437E+02	1.71181666055E+01	1.65045525272E+02	-4.04077828271E+01	-1.06269497300E+02	-5.83029357504E+00	-7.86123131840E-01
1.91996888543E+06	-2.25812119738E+01	-1.73958661210E+02	1.71773110334E+01	1.65087519350E+02	-4.85187051466E+01	9.75851639524E+01	-5.82648775035E+00	-1.15954792559E+00
1.94216024003E+06	-2.62502690784E+01	-1.17993441638E+01	1.71794253083E+01	1.64962191697E+02	-4.20711336950E+01	-1.74280987090E+02	-5.79728135209E+00	-8.43512177847E-01
1.96435159462E+06	-1.64048496930E+01	1.64240452894E+02	1.71253113053E+01	1.64402323290E+02	-5.62919912746E+01	-1.56107906484E+02	-5.80784177442E+00	-1.04228347905E+00
1.98654294922E+06	-1.71417189098E+01	-1.68198621108E+02	1.71329184148E+01	1.64349015975E+02	-4.31542767912E+01	7.81434334231E+01	-5.83804538781E+00	-1.21445019969E+00
2.00873430381E+06	-1.57096684916E+01	-1.54731365657E+02	1.71515257408E+01	1.64129636068E+02	-4.65823871249E+01	1.54718666724E+01	-5.83913204301E+00	-1.25258016936E+00
2.03092565841E+06	-1.37654995991E+01	1.52863526086E+02	1.70738359130E+01	1.64165560529E+02	-4.55979485410E+01	-1.66376431872E+02	-5.81405717246E+00	-8.78541123959E-01
2.05311701300E+06	-2.05605073220E+01	-1.44491418000E+02	1.71670232805E+01	1.63746601433E+02	-4.84930669086E+01	1.59334143044E+02	-5.83696149678E+00	-9.86563377967E-01
2.07530836760E+06	-1.81601493578E+01	1.45802212292E+02	1.71290705726E+01	1.63763411751E+02	-3.81277356786E+01	-5.68340933240E+00	-5.90266043680E+00	-1.06932805286E+00
2.09749972219E+06	-1.06921442442E+01	-7.94766100876E+01	1.72307883525E+01	1.63204492321E+02	-5.90218080631E+01	1.32772829278E+02	-5.83310603626E+00	-1.12006736083E+00
2.11969107679E+06	-2.10216729222E+01	-1.57677144718E+02	1.71559294794E+01	1.63121088804E+02	-4.46414955938E+01	-6.82227142136E+01	-5.83325656185E+00	-7.92843134503E-01
2.14188243138E+06	-1.69553785136E+01	1.75415740375E+02	1.71120925817E+01	1.63031055608E+02	-4.31443924637E+01	1.44576123599E+02	-5.81058812097E+00	-1.26177009691E+00
2.16407378598E+06	-1.39238581150E+01	1.65747855400E+02	1.70949076283E+01	1.62977117224E+02	-4.64335590547E+01	-1.30486681818E+02	-5.80957855783E+00	-8.35926222556E-01
2.18626514057E+06	-1.79861224495E+01	1.76424726975E+02	1.71239402235E+01	1.62584247153E+02	-4.47698166286E+01	-1.62934903641E+02	-5.81612914039E+00	-1.01796279774E+00
2.20845649517E+06	-1.64419002950E+01	-1.57746234311E+02	1.71512436288E+01	1.62384953978E+02	-4.36548465246E+01	9.31904312595E+01	-5.82528388170E+00	-1.44001845360E+00
2.23064784976E+06	-1.42077098491E+01	-1.50546614504E+02	1.71470206491E+01	1.62022857461E+02	-3.23112565799E+01	-1.72769813304E+02	-5.75540491861E+00	-7.45743491440E-01
2.25283920436E+06	-1.65383194068E+01	8.47420854380E+01	1.71162921912E+01	1.62359552564E+02	-3.19657216286E+01	2.66067835303E+01	-5.89255813200E+00	-1.66139366448E+00
2.27503055895E+06	-2.03437408249E+01	-1.30793744865E+02	1.71806887247E+01	1.61807612660E+02	-4.87976828065E+01	-1.11938543814E+02	-5.84468627366E+00	-1.16061223439E+00
2.29722191355E+06	-1.47543877009E+01	1.73131529415E+02	1.71080398059E+01	1.61683323356E+02	-4.35240898162E+01	-3.06944335013E+01	-5.85189552405E+00	-1.18143344665E+00
2.31941326814E+06	-1.83835515013E+01	-1.72086714330E+02	1.71027363177E+01	1.61450571976E+02	-4.98499336446E+01	1.26755899253E+02	-5.82257900363E+00	-1.20605992083E+00
2.34160462274E+06	-1.75910055002E+01	1.70940785564E+02	1.71277852390E+01	1.61351680485E+02	-4.66316505755E+01	-3.41689733656E+01	-5.87638925287E+00	-1.17166542241E+00
2.36379597733E+06	-1.70851457001E+01	1.71784480766E+02	1.71095689418E+01	1.61137550326E+02	-5.29046048547E+01	1.43629867266E+02	-5.83226373149E+00	-1.38591201600E+00
2.38598733193E+06	-1.21817326100E+01	-1.66926438686E+02	1.70899978770E+01	1.60758917991E+02	-4.22136104760E+01	-4.96805642960E+01	-5.87020445277E+00	-9.18216945824E-01
2.40817868652E+06	-1.57320951171E+01	-1.26478415336E+02	1.71596060377E+01	1.60670534673E+02	-3.47373560239E+01	-1.11154790825E+02	-5.84584678430E+00	-7.41778707967E-01
2.43037004112E+06	-1.68155298098E+01	1.65105635265E+02	1.70830434007E+01	1.60558404706E+02	-4.25448721000E+01	-7.06965572794E+01	-5.86833052493E+00	-1.20058146521E+00
2.45256139571E+06	-1.94184530669E+01	1.72193561910E+02	1.71250522768E+01	1.60521975246E+02	-5.21968748830E+01	9.25191166773E+01	-5.83783870645E+00	-1.23383221203E+00
2.47475275031E+06	-1.89725121139E+01	-1.47177270812E+02	1.71301378688E+01	1.60052830965E+02	-4.39667364823E+01	1.38515184287E+02	-5.82353700359E+00	-1.35982512656E+00
2.49694410490E+06	-1.31641903066E+01	1.70864921604E+02	1.70791186837E+01	1.59932204393E+02	-6.58412183931E+01	7.45533825255E+01	-5.84833759487E+00	-1.24612700828E+00
2.51913545950E+06	-1.59853479998E+01	-1.69722662794E+02	1.71174585869E+01	1.59758297613E+02	-4.13651367133E+01	1.71203903917E+02	-5.78129495491E+00	-1.29798644037E+00
2.54132681409E+06	-2.09648790474E+01	1.52682079661E+02	1.71174301335E+01	1.59853565363E+02	-4.15127965098E+01	9.61123231801E+01	-5.84859394998E+00	-1.65404978516E+00
2.56351816869E+06	-2.43208572633E+01	-8.51862989278E+01	1.71415888122E+01	1.59492500954E+02	-3.41641746419E+01	-1.54782060304E+02	-5.76562129469E+00	-8.60337019555E-01
2.58570952328E+06	-1.82407361602E+01	1.69973386365E+02	1.71029248873E+01	1.59291657932E+02	-4.65713209664E+01	-4.80843800406E+00	-5.90464808841E+00	-1.36739708911E+00
2.60790087788E+06	-1.51804402516E+01	1.73601664273E+02	1.70609636142E+01	1.58961525745E+02	-5.89676703829E+01	-1.41709510566E+02	-5.83423531996E+00	-1.28876166696E+00
2.63009223247E+06	-1.50058197737E+01	-1.73015358098E+02	1.71124119436E+01	1.58767886831E+02	-5.40155883721E+01	1.08560926470E+02	-5.84984771142E+00	-9.29890415025E-01
2.65228358707E+06	-1.69753538033E+01	1.74410461798E+02	1.71052662187E+01	1.58535540209E+02	-5.46813720907E+01	-1.12746321528E+02	-5.82810489939E+00	-1.29309956698E+00
2.67447494166E+06	-1.77022532915E+01	-1.75603348485E+02	1.71166724037E+01	1.58372273082E+02	-4.96107553041E+01	1.04951902142E+01	-5.83192142516E+00	-1.49641103033E+00
2.69666629626E+06	-1.69693040028E+01	1.77678103945E+02	1.70805096513E+01	1.58201808704E+02	-4.50843390546E+01	1.64759680499E+02	-5.79795559546E+00	-1.47008474704E+00
2.71885765085E+06	-1.30012152094E+01	1.44300999507E+02	1.70631834084E+01	1.58155302147E+02	-3.55486067936E+01	-4.02870771222E+01	-5.91016330001E+00	-1.30165968802E+00
2.74104900545E+06	-1.85043396592E+01	1.69557593040E+02	1.70815436979E+01	1.58001602125E+02	-4.48197145138E+01	-9.10771601251E+00	-5.85834265327E+00	-1.26706940468E+00
2.76324036004E+06	-1.39525254695E+01	-1.76490273293E+02	1.70941039756E+01	1.57571659660E+02	-4.83815828831E+01	-6.71886134641E+01	-5.86264924345E+00	-1.26425971602E+00
2.78543171463E+06	-2.51277726538E+01	1.52691687164E+02	1.71243757800E+01	1.57801051127E+02	-4.19548661711E+01	1.03196455891E+02	-5.82914656937E+00	-1.66820297566E+00
2.80762306923E+06	-1.70772157402E+01	-1.77420518944E+02	1.71089936192E+01	1.57225717926E+02	-4.19767434110E+01	9.68976361249E+01	-5.81303644482E+00	-1.99283415318E+00
2.82981442382E+06	-1.66447459011E+01	-1.66497854122E+02	1.70862205180E+01	1.57020072229E+02	-4.52573575320E+01	3.90292804132E+01	-5.86586219908E+00	-1.54184095540E+00
2.85200577842E+06	-2.10690855099E+01	-1.70365678129E+02	1.71198034472E+01	1.57046657069E+02	-4.42095909531E+01	-1.42566575936E+02	-5.81725517456E+00	-1.07773912737E+00
2.87419713301E+06	-1.53212092134E+01	-1.69435829356E+02	1.70869731845E+01	1.56666845527E+02	-6.09755536267E+01	-5.92853108571E+01	-5.82633735327E+00	-1.33649143901E+00
