# Hz S DB R 50
! CMT, M5065, 19127446, 24.2.4/2
! Date: 11/8/2024 4:00:49 PM
! Data: Format (Calibration Info)
! Freq	S11:dB/Ang(F2)	S21:dB/Ang(F2)	S12:dB/Ang(F2)	S22:dB/Ang(F2)
3.00000000000E+05	-1.84167749631E+01	-1.49676659171E+02	9.24062828507E+00	-1.77511490692E+02	-4.80961300161E+01	-4.37495070440E+01	-5.83344920507E+00	-3.12453626117E-01
3.22191354595E+05	-1.82831537047E+01	-1.45710784396E+02	9.20992799305E+00	-1.78000645864E+02	-3.70826970406E+01	-3.27255164747E+01	-5.88364847349E+00	-1.64436170511E-01
3.44382709190E+05	-1.93949466792E+01	-7.76519201794E+01	9.25620735376E+00	-1.78272670522E+02	-4.48370721479E+01	-9.18997328937E+01	-5.83537208051E+00	-2.32428238651E-01
3.66574063785E+05	-1.61733716085E+01	-1.52204698518E+02	9.22198365013E+00	-1.78583940646E+02	-5.34570253880E+01	-1.70862439526E+01	-5.82365515654E+00	-3.13468832115E-01
3.88765418380E+05	-1.61496927385E+01	-1.76929768585E+02	9.21015479937E+00	-1.78827536527E+02	-4.76322221422E+01	-6.73133776321E+01	-5.83766277942E+00	-2.12058663407E-01
4.10956772975E+05	-1.83835134102E+01	-1.69102819190E+02	9.21367373024E+00	-1.79008608255E+02	-4.27946000753E+01	6.12939125603E+01	-5.85139693832E+00	-3.07862203884E-01
4.33148127570E+05	-1.65856520447E+01	-1.65126281504E+02	9.19960941459E+00	-1.79527788203E+02	-4.34881504293E+01	5.83377693757E+01	-5.84907557006E+00	-4.29003035797E-01
4.55339482165E+05	-1.54147244178E+01	-1.75167484863E+02	9.20847343140E+00	-1.79547620768E+02	-3.90393235053E+01	-6.85891020623E+00	-5.85812023806E+00	-2.93780582567E-01
4.77530836760E+05	-1.72318692919E+01	-1.75336213876E+02	9.24347922926E+00	-1.79966082565E+02	-4.19507518843E+01	-8.16893199201E+01	-5.84256042314E+00	-2.36108828197E-01
4.99722191355E+05	-1.90411860886E+01	1.52407077046E+02	9.25777953903E+00	-1.79972884012E+02	-4.12500221521E+01	-1.48025502948E+02	-5.81340354469E+00	-3.03072203301E-01
5.21913545950E+05	-1.91243214718E+01	-1.71660186473E+02	9.25046073151E+00	1.79626865249E+02	-4.29424199833E+01	1.52358078781E+02	-5.84376285434E+00	-3.20167720574E-01
5.44104900545E+05	-1.27674114306E+01	-1.70353423230E+02	9.20760518868E+00	1.79223543384E+02	-3.74707940218E+01	7.18859328541E+01	-5.84833966621E+00	-4.24959679911E-01
5.66296255139E+05	-1.61494911291E+01	-1.58473647214E+02	9.22934508078E+00	1.79182112820E+02	-5.39453964777E+01	1.62623325562E+02	-5.85611449875E+00	-1.93920193719E-01
5.88487609734E+05	-2.34562473445E+01	1.76419266554E+02	9.24207599757E+00	1.78990812217E+02	-4.42255152465E+01	-1.10787727760E+02	-5.84659117844E+00	-3.65322025461E-01
6.10678964329E+05	-1.65746804566E+01	1.64587867964E+02	9.20237247870E+00	1.79173301312E+02	-4.05835238895E+01	4.31792057839E+01	-5.85192025149E+00	8.25806067558E-02
6.32870318924E+05	-2.09528273139E+01	1.45873834480E+02	9.29423743910E+00	1.78918653856E+02	-4.65725520299E+01	-4.74453253406E+01	-5.85469157241E+00	-1.66286433052E-01
6.55061673519E+05	-1.62418046382E+01	1.65033418264E+02	9.24674399516E+00	1.78399379861E+02	-4.44455771098E+01	1.76437084681E+02	-5.83492726696E+00	-4.01177201088E-01
6.77253028114E+05	-1.70112757378E+01	-1.73322711006E+02	9.23737337316E+00	1.78465694231E+02	-4.35315743553E+01	1.63161239909E+02	-5.85204097139E+00	-6.83384757571E-01
6.99444382709E+05	-1.75326199743E+01	-1.65807369594E+02	9.24472999179E+00	1.78153484595E+02	-4.24386193305E+01	-5.32154315622E+01	-5.84421592930E+00	-2.58481479226E-01
7.21635737304E+05	-1.80551171574E+01	1.75533606965E+02	9.24156370314E+00	1.77887373344E+02	-4.81580673827E+01	1.78707035272E+02	-5.83628506619E+00	-3.59245825773E-01
7.43827091899E+05	-1.60799977817E+01	1.74394045862E+02	9.23194706890E+00	1.77841090227E+02	-4.17216274234E+01	2.53191809468E+01	-5.86369802059E+00	-5.14318709304E-01
7.66018446494E+05	-1.56848517637E+01	-1.70763362858E+02	9.24165288887E+00	1.77628429075E+02	-4.14466853435E+01	-4.29076598011E+01	-5.83761867029E+00	-3.60665455262E-01
7.88209801089E+05	-1.60127753249E+01	1.72888829509E+02	9.23662173364E+00	1.77578559352E+02	-4.15618961972E+01	7.26121088938E+01	-5.84711438139E+00	-4.27905772371E-01
8.10401155684E+05	-1.78205098964E+01	-1.56952192894E+02	9.22663296429E+00	1.77423793208E+02	-3.92083926466E+01	1.22297737939E+02	-5.82505647948E+00	-5.35286278140E-01
8.32592510279E+05	-1.57299212406E+01	-1.67278375308E+02	9.23223782781E+00	1.77077591525E+02	-5.85478788257E+01	3.70949498121E+00	-5.83167894943E+00	-4.90785636514E-01
8.54783864874E+05	-2.69451559697E+01	1.78932728022E+02	9.27485257705E+00	1.77182035897E+02	-5.22169224617E+01	-1.16852591802E+02	-5.85214704637E+00	-3.64457943398E-01
8.76975219469E+05	-2.20904797141E+01	-1.36493139190E+02	9.27418756892E+00	1.76899393385E+02	-4.32089313815E+01	1.29134580965E+02	-5.85225611691E+00	-5.41417898648E-01
8.99166574064E+05	-2.05243332889E+01	-1.78550519991E+02	9.22868186810E+00	1.76978129205E+02	-5.23997177695E+01	1.20311872829E+02	-5.83148579092E+00	-5.83981479727E-01
9.21357928659E+05	-1.46729297550E+01	-1.63601126180E+02	9.20914787871E+00	1.76637952771E+02	-5.04271950242E+01	-7.50739950705E+01	-5.83765695788E+00	-5.20198960732E-01
9.43549283254E+05	-1.46976951760E+01	-1.70357613246E+02	9.22721485777E+00	1.76383744063E+02	-4.10726933240E+01	1.73602820234E+02	-5.81923053951E+00	-4.49252287407E-01
9.65740637849E+05	-1.83217377151E+01	1.70765652509E+02	9.24427810935E+00	1.76699424682E+02	-4.23386671152E+01	-6.54865939909E+01	-5.85497150724E+00	-4.86852497215E-01
9.87931992444E+05	-1.81995033240E+01	-1.52388260267E+02	9.29322504212E+00	1.76240667528E+02	-5.09365696658E+01	1.15468504993E+02	-5.84830959350E+00	-5.10776042224E-01
1.01012334704E+06	-2.10952268593E+01	-1.56280529364E+02	9.24297111371E+00	1.75777899934E+02	-5.98320568600E+01	-1.70766981780E+02	-5.85829995874E+00	-5.82044260040E-01
1.03231470163E+06	-1.71867288055E+01	1.57792723493E+02	9.21542149292E+00	1.76058605103E+02	-4.60116441552E+01	-5.61429881873E+01	-5.85588129195E+00	-5.66398171272E-01
1.05450605623E+06	-1.79256596819E+01	-1.77557016809E+02	9.25768741288E+00	1.75745257701E+02	-5.49060900273E+01	-1.06248043343E+02	-5.83376293792E+00	-5.04512203140E-01
1.07669741082E+06	-1.94571946859E+01	1.77984157197E+02	9.31636280644E+00	1.75671455469E+02	-4.29375361741E+01	1.17733644055E+01	-5.87205358149E+00	-5.47006368701E-01
1.09888876542E+06	-2.20776880130E+01	-1.67667338260E+02	9.26425104184E+00	1.75563451131E+02	-4.26565737506E+01	1.25537092804E+02	-5.84841984890E+00	-7.95644648310E-01
1.12108012001E+06	-1.79110628441E+01	1.70075913743E+02	9.27477763642E+00	1.75652915674E+02	-4.41994648745E+01	3.49462032394E+01	-5.83110967630E+00	-7.00140627207E-01
1.14327147461E+06	-1.73233012702E+01	-1.57411294731E+02	9.23257003441E+00	1.75315173891E+02	-5.32121799200E+01	1.78480249676E+02	-5.84547887297E+00	-5.13457531769E-01
1.16546282920E+06	-2.30835136424E+01	-1.38405264365E+02	9.25008702687E+00	1.75311829159E+02	-4.07186559226E+01	-6.48584499941E+01	-5.83734614246E+00	-5.78931663829E-01
1.18765418380E+06	-2.02701081267E+01	1.77359874266E+02	9.25530508524E+00	1.75060922664E+02	-5.39149870870E+01	1.33966693556E+01	-5.84974053684E+00	-5.41353539841E-01
1.20984553839E+06	-2.03503119087E+01	-1.64307932004E+02	9.24244645641E+00	1.75226173361E+02	-3.98667911519E+01	1.48760446605E+02	-5.81809354024E+00	-8.02600996452E-01
1.23203689299E+06	-1.74089389975E+01	1.62055555520E+02	9.26238305090E+00	1.74882458285E+02	-5.00371488471E+01	3.93620794444E+01	-5.83166867470E+00	-4.80257907951E-01
1.25422824758E+06	-1.61581312752E+01	1.70746275805E+02	9.22804748100E+00	1.74887888578E+02	-4.62330409496E+01	4.46296949457E+01	-5.85829522935E+00	-7.31690922461E-01
1.27641960218E+06	-1.27373051432E+01	-1.50607054973E+02	9.24962411606E+00	1.74367347624E+02	-5.37467966711E+01	1.59990893356E+02	-5.84747446037E+00	-4.77796190569E-01
1.29861095677E+06	-2.34975004565E+01	-1.67949433225E+02	9.26170748132E+00	1.74508496100E+02	-4.12237180363E+01	1.29097354172E+02	-5.82631615535E+00	-8.58773401950E-01
1.32080231137E+06	-1.89633231537E+01	-1.69217282083E+02	9.23729640963E+00	1.74302546929E+02	-4.87419975774E+01	-6.24293723623E+01	-5.83945075627E+00	-9.10263568883E-01
1.34299366596E+06	-1.67924202511E+01	1.74019007830E+02	9.23457486162E+00	1.74470570476E+02	-5.17788121441E+01	-4.82235437844E+01	-5.83559637008E+00	-6.78585636547E-01
1.36518502056E+06	-1.45087815234E+01	-1.76642489457E+02	9.23600867167E+00	1.73990176628E+02	-4.79038632836E+01	1.00028876952E+02	-5.84101844472E+00	-7.02144371881E-01
1.38737637515E+06	-1.42015933567E+01	1.68571699059E+02	9.22212287419E+00	1.74141472240E+02	-4.45994468676E+01	9.11291387764E+01	-5.81751716971E+00	-7.79604237009E-01
1.40956772975E+06	-1.91962715824E+01	-1.67996866831E+02	9.23319001947E+00	1.74014661006E+02	-3.94309649831E+01	1.66648989720E+02	-5.81049177228E+00	-5.82164566624E-01
1.43175908434E+06	-1.32211406422E+01	-1.59382305317E+02	9.25231462499E+00	1.73468061045E+02	-4.40582830039E+01	-1.73722548393E+02	-5.84399772648E+00	-7.20684907244E-01
1.45395043894E+06	-1.98097594583E+01	1.75353040963E+02	9.27176978749E+00	1.73640091687E+02	-5.01586855698E+01	1.52936564721E+02	-5.81122927064E+00	-9.51538225158E-01
1.47614179353E+06	-2.20299895128E+01	1.79005499302E+02	9.24451492640E+00	1.73713588629E+02	-4.33483049831E+01	1.44824371954E+01	-5.85506602687E+00	-7.35491396758E-01
1.49833314813E+06	-1.46834453170E+01	-1.77489040356E+02	9.20186586173E+00	1.73388587970E+02	-4.72029150466E+01	3.81187684296E+01	-5.84616058908E+00	-6.60393040803E-01
1.52052450272E+06	-1.39592655023E+01	1.78433372890E+02	9.22722537419E+00	1.73138023425E+02	-5.21128448707E+01	8.39060909616E+01	-5.84628500905E+00	-7.38119580588E-01
1.54271585732E+06	-1.92329081701E+01	-1.71851611774E+02	9.26788957618E+00	1.73215810383E+02	-5.85389717822E+01	-8.58329471388E+01	-5.84497335789E+00	-7.65592562214E-01
1.56490721191E+06	-2.49143512320E+01	-1.76685072089E+02	9.28496616837E+00	1.73287678628E+02	-4.96716982376E+01	-1.69509177531E+02	-5.83213552619E+00	-7.34745989321E-01
1.58709856651E+06	-1.69952499287E+01	1.63402368514E+02	9.25083442485E+00	1.73119960126E+02	-4.01408357625E+01	-4.81579715367E-01	-5.84105361960E+00	-8.84241857857E-01
1.60928992110E+06	-1.61482611583E+01	-1.67226124643E+02	9.25566668202E+00	1.72827495733E+02	-4.43157232798E+01	-1.28126994139E+02	-5.81941882133E+00	-6.32680394647E-01
1.63148127570E+06	-1.90467481105E+01	-1.73376376320E+02	9.25347628334E+00	1.72819547389E+02	-4.14657014530E+01	1.25680772339E+02	-5.83618571362E+00	-8.21960438517E-01
1.65367263029E+06	-1.74213861660E+01	-1.56025602613E+02	9.25103136245E+00	1.72381044052E+02	-6.25280617865E+01	6.34007515239E+01	-5.83850533441E+00	-8.02024649089E-01
1.67586398489E+06	-1.20063269110E+01	-1.72175513138E+02	9.19928367730E+00	1.72312316064E+02	-4.44893551546E+01	9.87210540007E+01	-5.83630516858E+00	-8.98397047146E-01
1.69805533948E+06	-1.88397682400E+01	-1.62500851744E+02	9.26350338674E+00	1.72085959022E+02	-4.12075435488E+01	1.13176940137E+02	-5.85738453691E+00	-7.91410584659E-01
1.72024669408E+06	-1.62231576968E+01	1.78413330145E+02	9.24777040878E+00	1.72286665185E+02	-4.53876616097E+01	-1.79577367914E+02	-5.85160209897E+00	-9.65021578317E-01
1.74243804867E+06	-1.89948244202E+01	-1.41296516800E+02	9.28058410577E+00	1.72180562017E+02	-4.65729520503E+01	1.50235525360E+02	-5.84556157438E+00	-9.01834244808E-01
1.76462940327E+06	-2.51393349545E+01	-6.90251561771E+01	9.33915053396E+00	1.72245636687E+02	-4.74912019751E+01	-8.62095159393E+00	-5.87438086160E+00	-8.49708955154E-01
1.78682075786E+06	-1.95619534799E+01	-1.60544902249E+02	9.26673758138E+00	1.71979885682E+02	-4.55897519677E+01	-2.49733739043E+01	-5.86092807749E+00	-9.11204130829E-01
1.80901211246E+06	-1.59607900504E+01	-1.71056235748E+02	9.24661545280E+00	1.71583672416E+02	-4.52849751219E+01	-4.13381015539E+01	-5.84533198217E+00	-8.45813852279E-01
1.83120346705E+06	-1.91727339519E+01	1.71045737440E+02	9.28140867951E+00	1.71747032354E+02	-4.70786017270E+01	-1.50617554569E+01	-5.83868496346E+00	-9.33628673847E-01
1.85339482165E+06	-1.96639643357E+01	-1.14100811534E+02	9.29864010755E+00	1.71331423652E+02	-4.97046542702E+01	-1.59447477220E+02	-5.83105460788E+00	-8.53568825471E-01
1.87558617624E+06	-1.78541212810E+01	1.68389781546E+02	9.22421990580E+00	1.71585646962E+02	-3.17652944518E+01	-1.13767310419E+02	-5.85927397804E+00	-5.77303480718E-01
1.89777753084E+06	-2.11600182355E+01	-1.63178396751E+02	9.25716265936E+00	1.71471193110E+02	-3.61122555826E+01	-8.46817886969E+01	-5.86173847669E+00	-8.46828166110E-01
1.91996888543E+06	-1.99954461991E+01	-8.60275564766E+01	9.30152730297E+00	1.71261620181E+02	-4.53011975254E+01	-1.54310263375E+02	-5.83614005709E+00	-9.16954922480E-01
1.94216024003E+06	-1.56332917202E+01	1.71791651554E+02	9.24113181968E+00	1.71226272286E+02	-4.23841221153E+01	-1.46039223799E+02	-5.83429606564E+00	-7.89450631381E-01
1.96435159462E+06	-1.87018992080E+01	-1.59078466240E+02	9.25313998017E+00	1.70848496643E+02	-4.58971367859E+01	-9.21882146843E+01	-5.85307953408E+00	-9.87498452834E-01
1.98654294922E+06	-2.01409976348E+01	-1.48445198764E+02	9.26084392752E+00	1.70690430325E+02	-4.12232313571E+01	-5.45994116828E+01	-5.86545262642E+00	-8.17495031657E-01
2.00873430381E+06	-1.63099258154E+01	-1.73177211849E+02	9.23949566861E+00	1.70577739286E+02	-4.82727871460E+01	1.14441321900E+02	-5.84181791054E+00	-1.04947010597E+00
2.03092565841E+06	-1.66929158709E+01	1.70736094261E+02	9.23033415215E+00	1.70646527639E+02	-3.56782666910E+01	-6.73664269011E+01	-5.86154747339E+00	-9.26027671905E-01
2.05311701300E+06	-1.71272093378E+01	1.76758370067E+02	9.26880480633E+00	1.70550680934E+02	-4.21331348441E+01	1.13472029871E+02	-5.84394102439E+00	-1.06168695037E+00
2.07530836760E+06	-1.36157765775E+01	1.12361359047E+02	9.24507226123E+00	1.70715944229E+02	-4.54008318760E+01	1.76644404303E+02	-5.82230722712E+00	-1.22230345426E+00
2.09749972219E+06	-1.54251985103E+01	-1.60736270110E+02	9.24937462687E+00	1.70164245987E+02	-3.82340954891E+01	4.38280425629E+01	-5.86759381849E+00	-1.33388517885E+00
2.11969107679E+06	-1.80526267590E+01	1.75525595983E+02	9.24327628446E+00	1.70350169742E+02	-4.13802600114E+01	1.61110202366E+02	-5.82188573646E+00	-1.09049494680E+00
2.14188243138E+06	-2.10835625483E+01	1.66089868197E+02	9.28098317091E+00	1.70162574503E+02	-4.88049279650E+01	1.19120443631E+02	-5.84600893017E+00	-1.04116873200E+00
2.16407378598E+06	-1.59066225580E+01	1.71972921300E+02	9.24593711091E+00	1.70183981360E+02	-4.42446467244E+01	-1.51688855046E+02	-5.83257446359E+00	-1.04562565571E+00
2.18626514057E+06	-1.54684555160E+01	1.79486491497E+02	9.25205269736E+00	1.69757747747E+02	-4.45513302842E+01	3.98297175967E+01	-5.84117544405E+00	-1.26203740010E+00
2.20845649517E+06	-2.34862505409E+01	-4.49331657603E+01	9.33356835102E+00	1.69993387353E+02	-4.61103956504E+01	5.13376979420E+01	-5.84847245246E+00	-1.03727726243E+00
2.23064784976E+06	-5.23159354894E+00	1.35671101500E+02	9.09770357433E+00	1.69338475458E+02	-5.12949235323E+01	4.08846016734E+01	-5.83570634047E+00	-1.17662234869E+00
2.25283920436E+06	-1.90125824249E+01	-1.74912064287E+02	9.26516055303E+00	1.69708701216E+02	-3.78105605639E+01	-1.02169504386E+02	-5.83396351181E+00	-8.07541529979E-01
2.27503055895E+06	-1.66415836030E+01	1.79893954419E+02	9.29003297081E+00	1.69390540573E+02	-4.72133445406E+01	1.05258314262E+02	-5.82168756860E+00	-1.27765571765E+00
2.29722191355E+06	-1.60962459599E+01	1.66694979703E+02	9.23196666548E+00	1.69569399686E+02	-3.90789180774E+01	5.16668981445E+01	-5.82895754427E+00	-1.29242505678E+00
2.31941326814E+06	-2.08394745817E+01	-1.69430529725E+02	9.30654519398E+00	1.69200777663E+02	-4.55396171409E+01	1.16196646703E+02	-5.83115224598E+00	-1.24724443798E+00
2.34160462274E+06	-1.74563448666E+01	-1.79178294081E+02	9.27938244633E+00	1.69061875968E+02	-4.00392437840E+01	-1.21451560868E+02	-5.85924315999E+00	-9.28321789913E-01
2.36379597733E+06	-1.59422776563E+01	-1.69556453320E+02	9.26666214023E+00	1.68974773333E+02	-4.61581800344E+01	-1.14115011894E+02	-5.83047439301E+00	-1.11616395111E+00
2.38598733193E+06	-1.38501931278E+01	1.29434391006E+02	9.21563285009E+00	1.68929836262E+02	-4.48423110285E+01	-6.47394876514E+01	-5.87158956330E+00	-1.11867824866E+00
2.40817868652E+06	-1.48587437715E+01	-1.70595874635E+02	9.26077082934E+00	1.68748823957E+02	-4.07738421665E+01	-6.54173370306E+01	-5.86256890888E+00	-1.25864422922E+00
2.43037004112E+06	-1.56436706820E+01	1.74503043635E+02	9.22697933953E+00	1.68627122917E+02	-4.93370425873E+01	4.14494037675E+01	-5.85422057482E+00	-1.61836416638E+00
2.45256139571E+06	-2.50800039641E+01	-1.47379987649E+02	9.30566103819E+00	1.68856130653E+02	-5.10702054075E+01	-7.33116082670E+01	-5.85985436745E+00	-1.14243174715E+00
2.47475275031E+06	-1.60097636140E+01	-1.73316920869E+02	9.24050397199E+00	1.68294938664E+02	-4.25457059410E+01	-2.89186206157E+01	-5.87703010830E+00	-1.30152308651E+00
2.49694410490E+06	-1.55786355589E+01	1.76756765537E+02	9.24508047495E+00	1.68187042091E+02	-4.56116130244E+01	3.14190624185E+01	-5.84997199964E+00	-1.25422646514E+00
2.51913545950E+06	-1.52324858232E+01	1.55969360931E+02	9.20745799400E+00	1.68230749616E+02	-4.46758263044E+01	1.60877948777E+02	-5.83871546294E+00	-1.16246502093E+00
2.54132681409E+06	-1.59788650967E+01	-1.65573022920E+02	9.27024986413E+00	1.67929408513E+02	-4.23512992506E+01	5.37363289554E+01	-5.87305280780E+00	-1.45061616025E+00
2.56351816869E+06	-1.75059192843E+01	-1.75242125765E+02	9.27082956321E+00	1.68006680377E+02	-5.75524106194E+01	5.55495818113E+01	-5.82956173735E+00	-1.42678688505E+00
2.58570952328E+06	-1.50543932258E+01	-1.76820211599E+02	9.24577609069E+00	1.67764385718E+02	-4.58392280616E+01	-1.35798357330E+01	-5.85618410711E+00	-1.34614119556E+00
2.60790087788E+06	-1.83167406092E+01	1.69122066265E+02	9.26627762463E+00	1.67987426025E+02	-4.44304004155E+01	-8.00300157918E+01	-5.85443839508E+00	-1.15420822506E+00
2.63009223247E+06	-2.16516206476E+01	-1.60542155168E+02	9.30716884743E+00	1.67831890953E+02	-4.29192854741E+01	1.72058266118E+02	-5.82776615456E+00	-9.22062089130E-01
2.65228358707E+06	-1.36186319913E+01	-1.79492378387E+02	9.24720580481E+00	1.67286912978E+02	-4.33165947432E+01	6.35872210587E+01	-5.85481830327E+00	-1.31545035336E+00
2.67447494166E+06	-1.35926617040E+01	-1.56553070887E+02	9.26167849715E+00	1.67139455256E+02	-5.28404064162E+01	-4.20002042406E+01	-5.85269345670E+00	-1.28223452878E+00
2.69666629626E+06	-2.45187041431E+01	1.51858075516E+02	9.28133308675E+00	1.67540916555E+02	-4.69403225430E+01	-1.59294341413E+02	-5.83743877227E+00	-1.29187257292E+00
2.71885765085E+06	-1.88018131217E+01	-1.67331905148E+02	9.29313647680E+00	1.66824819922E+02	-4.87842202279E+01	-1.05632543620E+02	-5.85582622297E+00	-1.23449981817E+00
2.74104900545E+06	-1.63669135707E+01	-1.60758883524E+02	9.28353927100E+00	1.66972913042E+02	-5.15253210262E+01	2.31656136257E+01	-5.84468838213E+00	-1.31298837342E+00
2.76324036004E+06	-1.92733183638E+01	1.60303570182E+02	9.28083559191E+00	1.67306308492E+02	-4.15245609479E+01	-1.37873652545E+01	-5.87284400694E+00	-1.41987234521E+00
2.78543171463E+06	-1.72006442929E+01	1.52333173946E+02	9.28177691844E+00	1.66960505381E+02	-4.66339823771E+01	3.34664518695E+01	-5.85007455448E+00	-1.44385900468E+00
2.80762306923E+06	-1.65546515607E+01	-1.65489406154E+02	9.28962974623E+00	1.66696086692E+02	-3.96019460563E+01	1.37619963870E+02	-5.82009600051E+00	-1.32079813167E+00
2.82981442382E+06	-1.93559434690E+01	-1.63233235927E+02	9.30031171955E+00	1.66601806562E+02	-4.03193083468E+01	-5.78974635976E+00	-5.86916805871E+00	-1.39774237076E+00
2.85200577842E+06	-1.64319645313E+01	1.45636751723E+02	9.27178624802E+00	1.66742831980E+02	-4.43138806726E+01	-1.43755686960E+02	-5.82877267834E+00	-1.29974858950E+00
2.87419713301E+06	-1.81839152137E+01	-1.73426466956E+02	9.29652181229E+00	1.66449153996E+02	-4.23542207037E+01	-9.81464717127E+00	-5.86485843617E+00	-1.49124895974E+00
