# Hz S DB R 50
! CMT, M5065, 19127446, 24.2.4/2
! Date: 11/8/2024 3:52:16 PM
! Data: Format (Calibration Info)
! Freq	S11:dB/Ang(F2)	S21:dB/Ang(F2)	S12:dB/Ang(F2)	S22:dB/Ang(F2)
3.00000000000E+05	-2.20585945322E+01	1.68265506180E+02	6.32731514273E+00	-1.77675890448E+02	-5.40332715203E+01	1.50703115313E+02	-5.84286477546E+00	-3.19338627039E-01
3.22191354595E+05	-1.59013379645E+01	-1.75189001377E+02	6.27260337825E+00	-1.77919936602E+02	-4.58836467455E+01	5.31548377365E+00	-5.86943456700E+00	-2.23350197117E-01
3.44382709190E+05	-1.71843155326E+01	1.71932920718E+02	6.30106870954E+00	-1.78000443663E+02	-3.90158179725E+01	-9.09709198112E+01	-5.84857685166E+00	-2.37868628647E-01
3.66574063785E+05	-1.75297573936E+01	1.67017809236E+02	6.28791284226E+00	-1.78359391290E+02	-4.13514533680E+01	7.50804146797E+01	-5.84142507834E+00	-3.29955326235E-01
3.88765418380E+05	-1.85677997009E+01	-1.67184303851E+02	6.25222892055E+00	-1.78573003577E+02	-3.98655464471E+01	9.76571373846E+01	-5.84753356624E+00	-4.07687942565E-01
4.10956772975E+05	-1.21315199671E+01	1.63157783374E+02	6.24210717513E+00	-1.79159897335E+02	-4.06755339266E+01	-1.41284634650E+02	-5.84300659333E+00	-1.82846415421E-01
4.33148127570E+05	-1.64232393017E+01	-1.64824634269E+02	6.30173304673E+00	-1.79298597593E+02	-5.90360210097E+01	6.41696480583E+01	-5.83693421498E+00	-3.23310923038E-01
4.55339482165E+05	-1.73379021431E+01	-1.60029209956E+02	6.31663410572E+00	-1.79588079135E+02	-4.52422058632E+01	-6.63835200736E+01	-5.85266272894E+00	-3.38380464514E-01
4.77530836760E+05	-2.07536724214E+01	-1.71364685120E+02	6.28478168805E+00	-1.79543878231E+02	-4.27769460397E+01	6.54971587424E+01	-5.85737690594E+00	-3.62975272240E-01
4.99722191355E+05	-1.62114113638E+01	-1.76339254580E+02	6.30945172439E+00	-1.79906335554E+02	-5.13985137531E+01	8.05318379533E+01	-5.83467199596E+00	-2.79954058704E-01
5.21913545950E+05	-1.76781052452E+01	-1.72316088489E+02	6.33592172768E+00	1.79975308924E+02	-4.86451216191E+01	8.89272009928E+01	-5.85113315742E+00	-2.36449474065E-01
5.44104900545E+05	-2.02543637250E+01	-1.61690547942E+02	6.38072814099E+00	1.79418101937E+02	-4.39883896603E+01	-8.31093518985E+01	-5.84756334114E+00	-2.84108957146E-01
5.66296255139E+05	-1.81674815595E+01	1.49456753401E+02	6.35772004172E+00	1.79861740124E+02	-4.10021589839E+01	7.35031961864E+00	-5.87993751945E+00	-4.34570851365E-01
5.88487609734E+05	-1.46197037215E+01	1.68813460793E+02	6.28360368603E+00	1.79375970246E+02	-4.77653401478E+01	1.66864038205E+02	-5.83822231371E+00	-2.13492590107E-01
6.10678964329E+05	-1.88289498972E+01	-1.72522067040E+02	6.28630695997E+00	1.79166254541E+02	-4.38873094423E+01	-9.32252966412E+00	-5.86668160378E+00	2.66458300280E-01
6.32870318924E+05	-1.74623649601E+01	-1.74277005186E+02	6.30815916508E+00	1.78962277536E+02	-5.75235222906E+01	5.69527140657E+01	-5.85438676638E+00	-1.30359881588E-01
6.55061673519E+05	-1.43151184645E+01	1.67103861667E+02	6.30044139841E+00	1.78997425923E+02	-4.20232998728E+01	-5.24032712209E+01	-5.86415897589E+00	-2.33353384844E-01
6.77253028114E+05	-1.90840016685E+01	1.74237646787E+02	6.32594219909E+00	1.78501828807E+02	-5.22645844499E+01	8.46855752285E+01	-5.84404242611E+00	-7.95929788761E-01
6.99444382709E+05	-1.85997415752E+01	-1.55399460111E+02	6.33277059787E+00	1.78663663040E+02	-4.17220403359E+01	7.27720667898E+01	-5.85003840530E+00	-4.57911176407E-01
7.21635737304E+05	-1.46857070610E+01	1.59841455391E+02	6.28322142088E+00	1.78644496629E+02	-4.58827180032E+01	1.18056656895E+02	-5.83647228794E+00	-4.09592583383E-01
7.43827091899E+05	-1.99656700721E+01	1.51093111363E+02	6.36248802657E+00	1.78302008592E+02	-5.19218536442E+01	1.12099282281E+02	-5.82741013125E+00	-4.29552585754E-01
7.66018446494E+05	-1.41168548552E+01	-1.70580773784E+02	6.31986295686E+00	1.78069618355E+02	-5.21402539658E+01	-1.06522922214E+02	-5.83915014411E+00	-3.25466195439E-01
7.88209801089E+05	-1.56708661053E+01	1.67534509372E+02	6.30124864308E+00	1.78213902169E+02	-4.99074386760E+01	1.63689292327E+02	-5.83567956906E+00	-4.59372145308E-01
8.10401155684E+05	-1.74491895210E+01	1.71467865501E+02	6.35484505756E+00	1.78105928746E+02	-4.45042525526E+01	1.62786009672E+02	-5.83910987264E+00	-4.15214513457E-01
8.32592510279E+05	-1.41750538261E+01	1.76909613752E+02	6.27707782205E+00	1.77735415595E+02	-4.30964746619E+01	-5.94786916421E+00	-5.83976157231E+00	-4.32201340144E-01
8.54783864874E+05	-1.38114238805E+01	-1.75239726476E+02	6.28049988980E+00	1.77829010449E+02	-4.52315006603E+01	-1.52068377089E+02	-5.84238360098E+00	-5.38928425700E-01
8.76975219469E+05	-1.34334292360E+01	1.53144378542E+02	6.32609956056E+00	1.77689817422E+02	-3.93053204311E+01	7.64437954209E+01	-5.84520111525E+00	-5.73093874667E-01
8.99166574064E+05	-1.55335745966E+01	1.62374614672E+02	6.29946085247E+00	1.77466774972E+02	-4.04137925945E+01	5.75425093651E+01	-5.84036687996E+00	-5.76575285508E-01
9.21357928659E+05	-2.06771097695E+01	1.74783660095E+02	6.35818831261E+00	1.77428466542E+02	-4.16386489615E+01	1.14004596574E+02	-5.82414164996E+00	-6.37998889720E-01
9.43549283254E+05	-1.96218571687E+01	-1.65450557830E+02	6.31868170030E+00	1.77317065627E+02	-4.24740847800E+01	1.67360318338E+02	-5.84086962865E+00	-4.53640656601E-01
9.65740637849E+05	-2.99440602694E+01	-1.76265375063E+02	6.34438586178E+00	1.77149215372E+02	-5.01313416760E+01	-1.79218198308E+02	-5.82808924867E+00	-5.32289287221E-01
9.87931992444E+05	-1.34154298552E+01	-1.69602329151E+02	6.32196506209E+00	1.76860784283E+02	-3.96748056899E+01	-1.12910706850E+02	-5.85584547696E+00	-3.65512414041E-01
1.01012334704E+06	-1.79517813439E+01	1.68328577567E+02	6.33467300619E+00	1.76902508595E+02	-4.39181395799E+01	-1.14469693034E+02	-5.80491157731E+00	-3.78263388670E-01
1.03231470163E+06	-1.34390680453E+01	-1.39869208015E+02	6.31571900033E+00	1.76417648375E+02	-4.33162815396E+01	1.74003275773E+02	-5.85304601378E+00	-6.24429389182E-01
1.05450605623E+06	-1.50866329140E+01	1.77122759133E+02	6.29564694784E+00	1.76312913101E+02	-4.64252877986E+01	1.30232367489E+02	-5.84596901340E+00	-5.20541197826E-01
1.07669741082E+06	-1.38893867433E+01	1.70399322589E+02	6.30512165347E+00	1.76339104848E+02	-4.09831071239E+01	8.02675694267E+01	-5.85259416678E+00	-6.45422140558E-01
1.09888876542E+06	-1.66945998823E+01	-1.62188617001E+02	6.36614849777E+00	1.76243041869E+02	-4.13676065487E+01	-7.23060581361E+01	-5.83878104128E+00	-5.35012203858E-01
1.12108012001E+06	-1.97225951670E+01	-1.72712717650E+02	6.35460437455E+00	1.76026682071E+02	-4.31858252505E+01	8.45604708314E+01	-5.83525174910E+00	-7.22981959696E-01
1.14327147461E+06	-1.94741406590E+01	1.50022120503E+02	6.31111622520E+00	1.76261857067E+02	-4.37286320598E+01	7.61322561012E+01	-5.84611832715E+00	-7.25209896126E-01
1.16546282920E+06	-1.61522442145E+01	1.64464582256E+02	6.28372187389E+00	1.76081279052E+02	-5.15715447951E+01	-1.19875881470E+02	-5.85265382877E+00	-5.35887687757E-01
1.18765418380E+06	-2.02485361463E+01	-1.44631351983E+02	6.38936398989E+00	1.75960821721E+02	-4.53782535355E+01	-1.12163044328E+01	-5.83715190107E+00	-5.97039962381E-01
1.20984553839E+06	-1.64094159982E+01	-1.52415437387E+02	6.32460680445E+00	1.75988783143E+02	-5.38626554341E+01	1.32975018171E+02	-5.83071779487E+00	-5.30785309514E-01
1.23203689299E+06	-1.86904442598E+01	-1.60071824283E+02	6.35868716691E+00	1.75577866123E+02	-4.87166558539E+01	1.76431734681E+02	-5.83590106774E+00	-4.52039259323E-01
1.25422824758E+06	-1.67577308539E+01	-1.73916336923E+02	6.35426324573E+00	1.75319455773E+02	-4.57375441530E+01	-7.42079023389E+01	-5.83538125459E+00	-5.43710512291E-01
1.27641960218E+06	-1.65319065430E+01	-1.75858069574E+02	6.34368027588E+00	1.75345069954E+02	-5.04088371948E+01	1.26293138985E+02	-5.84229229025E+00	-7.02230048237E-01
1.29861095677E+06	-1.90739242413E+01	-1.66020175928E+02	6.32687274554E+00	1.75357610655E+02	-3.89682459810E+01	-8.77290648943E+01	-5.85330543589E+00	-6.23083043735E-01
1.32080231137E+06	-1.70455699569E+01	-1.51898216948E+02	6.38115191863E+00	1.75185449701E+02	-4.31057832665E+01	-1.63545224248E+02	-5.84162118058E+00	-1.01485636607E+00
1.34299366596E+06	-2.43079688190E+01	-1.29352169342E+02	6.31213802793E+00	1.75351641406E+02	-3.52284955246E+01	-1.02289767532E+02	-5.83488877346E+00	-6.96673198490E-01
1.36518502056E+06	-1.65564704229E+01	-1.70484424116E+02	6.31352543786E+00	1.74969089443E+02	-4.33120719918E+01	4.43285081574E+01	-5.87615526494E+00	-7.81282244938E-01
1.38737637515E+06	-1.78129727676E+01	1.63741428325E+02	6.32289608881E+00	1.75301294882E+02	-5.50149743655E+01	-4.24103939541E+00	-5.85542355855E+00	-6.47481257809E-01
1.40956772975E+06	-2.22448976324E+01	-1.39618621226E+02	6.33682846410E+00	1.75160517777E+02	-4.65219988801E+01	6.72492559447E+01	-5.82319057773E+00	-7.45987080316E-01
1.43175908434E+06	-3.01645797567E+01	1.65376309995E+02	6.34447531893E+00	1.74833943613E+02	-4.75092206920E+01	-7.09366406822E+00	-5.84642405051E+00	-6.55292049521E-01
1.45395043894E+06	-1.72027523195E+01	1.53964208168E+02	6.29992750744E+00	1.74841831903E+02	-4.80166766975E+01	6.83053446695E+01	-5.85465678174E+00	-6.82246153418E-01
1.47614179353E+06	-2.03551028704E+01	1.31544700027E+02	6.34492585310E+00	1.75131295742E+02	-4.11718677578E+01	6.75753376749E+01	-5.83833721216E+00	-8.70660771140E-01
1.49833314813E+06	-1.52197278802E+01	-1.42049388945E+02	6.34977009997E+00	1.74329163425E+02	-4.58190663271E+01	-1.75721076641E+02	-5.85088375548E+00	-7.86784901280E-01
1.52052450272E+06	-1.83745282194E+01	-1.56730494668E+02	6.32497688563E+00	1.74117337242E+02	-4.11521351003E+01	8.72043951020E+01	-5.82788508276E+00	-8.84684827037E-01
1.54271585732E+06	-1.68453067179E+01	-1.71900908343E+02	6.30509488882E+00	1.74505549328E+02	-4.48850125414E+01	8.00042956786E+01	-5.83729789503E+00	-8.63545476001E-01
1.56490721191E+06	-1.77978430905E+01	-1.76207330614E+02	6.34828051591E+00	1.74504073025E+02	-4.44688753686E+01	1.12957523821E+02	-5.84724340540E+00	-8.60656609560E-01
1.58709856651E+06	-3.28477589726E+01	-1.78728903203E+02	6.40908675437E+00	1.74004806222E+02	-5.55737985405E+01	1.57153216685E+02	-5.84628576367E+00	-8.08969044799E-01
1.60928992110E+06	-1.77701972311E+01	1.64671268902E+02	6.34367565252E+00	1.74272218691E+02	-4.42833956337E+01	7.65277271495E+01	-5.85078774130E+00	-9.92000046250E-01
1.63148127570E+06	-1.98098593650E+01	-1.64779425676E+02	6.32024650902E+00	1.73812933299E+02	-4.59492034381E+01	-8.81272318644E+00	-5.85326892250E+00	-7.80281465874E-01
1.65367263029E+06	-9.08561248058E+00	1.60014036005E+02	6.26404574680E+00	1.73848479920E+02	-4.05766368893E+01	-6.60248039063E+01	-5.86783470554E+00	-7.01252342450E-01
1.67586398489E+06	-2.01375862403E+01	1.60771565747E+02	6.33073883401E+00	1.73637949063E+02	-4.27813672117E+01	-1.55056571297E+02	-5.83528454120E+00	-7.54367725446E-01
1.69805533948E+06	-2.14767507039E+01	1.60280926501E+02	6.29262635412E+00	1.73818926034E+02	-4.72993547767E+01	-8.53557681767E+01	-5.83722622001E+00	-8.03618983481E-01
1.72024669408E+06	-1.99510587950E+01	-1.61002237057E+02	6.33282216742E+00	1.73423010080E+02	-4.14121699221E+01	7.22818090090E+01	-5.83585137959E+00	-9.46956342139E-01
1.74243804867E+06	-1.49717703631E+01	-1.75933863968E+02	6.35975035991E+00	1.73242954897E+02	-3.89423734257E+01	1.71580485884E+02	-5.82875087094E+00	-7.80517221192E-01
1.76462940327E+06	-1.84076800203E+01	-1.70005959776E+02	6.33217024077E+00	1.73217618627E+02	-5.09968956255E+01	6.13931343159E+01	-5.85457874193E+00	-1.01714445846E+00
1.78682075786E+06	-1.36036343779E+01	-1.62614119723E+02	6.31531931838E+00	1.72868271066E+02	-4.51362855265E+01	-1.63707022763E+02	-5.83766402359E+00	-7.93141190049E-01
1.80901211246E+06	-2.86429899359E+01	6.26783527129E+01	6.34128141631E+00	1.73053459399E+02	-3.58314944673E+01	1.24581531078E+02	-5.82093543625E+00	-7.96130912987E-01
1.83120346705E+06	-1.75507506934E+01	1.72579549850E+02	6.34149497016E+00	1.73052904037E+02	-5.11087185866E+01	1.29774092810E+02	-5.83988080379E+00	-9.05834962115E-01
1.85339482165E+06	-2.37443882370E+01	1.16165603823E+02	6.40671952543E+00	1.73058101705E+02	-4.22528056618E+01	-6.34201507651E+01	-5.85764715238E+00	-7.88695111890E-01
1.87558617624E+06	-1.76980100947E+01	1.71939655077E+02	6.31955221889E+00	1.72709039859E+02	-4.78756972556E+01	-4.20548583543E+01	-5.84125276210E+00	-1.00924695438E+00
1.89777753084E+06	-1.81930660526E+01	-1.78044805387E+02	6.34667938632E+00	1.72617120206E+02	-4.76739892000E+01	8.84947261817E+01	-5.82437486309E+00	-1.04642338003E+00
1.91996888543E+06	-1.55850105162E+01	-1.61161238679E+02	6.32832577066E+00	1.72367849976E+02	-4.51618973547E+01	1.00391874441E+02	-5.83915000599E+00	-9.28120702463E-01
1.94216024003E+06	-1.45532007251E+01	-1.66509534312E+02	6.32608790878E+00	1.72239176235E+02	-4.69687501907E+01	-1.51384153339E+02	-5.84083003234E+00	-8.80062578929E-01
1.96435159462E+06	-9.48343347235E+00	-1.52742146405E+02	6.35517014038E+00	1.71910071477E+02	-3.35273257841E+01	-7.16488298890E+01	-5.86138672291E+00	-7.50817381132E-01
1.98654294922E+06	-2.57829540284E+01	1.51162598330E+02	6.36937475285E+00	1.72440584266E+02	-4.19299396355E+01	3.40866915273E+01	-5.83682113315E+00	-8.98962346636E-01
2.00873430381E+06	-2.14526686691E+01	-1.62317332423E+02	6.37239258573E+00	1.72053658057E+02	-4.45203300441E+01	-1.40827042283E+02	-5.81593354953E+00	-8.67049689527E-01
2.03092565841E+06	-2.66126457960E+01	-1.43064872005E+02	6.39297630768E+00	1.72061867320E+02	-5.88467011617E+01	-3.48853039231E+01	-5.85065846158E+00	-1.01691576821E+00
2.05311701300E+06	-1.70987800189E+01	1.72436045597E+02	6.34463155155E+00	1.72060392857E+02	-4.86483725288E+01	4.26184416929E+01	-5.86083211454E+00	-1.11028703412E+00
2.07530836760E+06	-1.77201967551E+01	1.67895679044E+02	6.36744404359E+00	1.72081939542E+02	-5.15531678432E+01	1.70556800228E+02	-5.84898907572E+00	-9.91890372780E-01
2.09749972219E+06	-1.72648776780E+01	1.76264349568E+02	6.33319570940E+00	1.71784284586E+02	-4.52047671119E+01	-1.19152323448E+02	-5.82465486876E+00	-1.14708702217E+00
2.11969107679E+06	-9.80004139371E+00	-1.75211269633E+02	6.36327775561E+00	1.71103353492E+02	-4.07943490521E+01	1.03306038917E+02	-5.80058372008E+00	-1.18502780725E+00
2.14188243138E+06	-1.76190369408E+01	-1.74304505341E+02	6.35763782305E+00	1.71805069372E+02	-3.37538385390E+01	-5.08784036868E+01	-5.86898330653E+00	-1.01605171210E+00
2.16407378598E+06	-1.39008345363E+01	-1.62440399321E+02	6.34090639853E+00	1.71307124639E+02	-4.69960606527E+01	-1.56098349863E+02	-5.83118000794E+00	-1.06967748115E+00
2.18626514057E+06	-2.19107667044E+01	-1.44668863071E+02	6.36077916050E+00	1.71323132372E+02	-5.18739961195E+01	4.02187894593E+01	-5.84567140927E+00	-9.44085847287E-01
2.20845649517E+06	-2.16876490050E+01	1.69474339365E+02	6.40087039463E+00	1.71473007114E+02	-5.78818404903E+01	1.55080183633E+02	-5.82804057195E+00	-1.09044076867E+00
2.23064784976E+06	-1.51773899850E+01	1.69913354534E+02	6.30934483942E+00	1.71137926092E+02	-4.20673398404E+01	-7.32753655301E+01	-5.84488023627E+00	-1.01952645723E+00
2.25283920436E+06	-1.51108686543E+01	1.74194663368E+02	6.33640437193E+00	1.71434919905E+02	-3.74372012909E+01	-2.52897649954E+01	-5.87219497909E+00	-9.65857555461E-01
2.27503055895E+06	-1.56131874289E+01	1.76458247119E+02	6.29944532064E+00	1.70972165990E+02	-4.30472261240E+01	7.96749995156E+01	-5.85613188502E+00	-1.18847865366E+00
2.29722191355E+06	-1.63453652898E+01	-1.71157280603E+02	6.34787897866E+00	1.70678940310E+02	-6.78870445980E+01	-1.40460818866E+02	-5.83261132923E+00	-1.01483444526E+00
2.31941326814E+06	-1.59324512797E+01	-1.76277965803E+02	6.33541261476E+00	1.70775426725E+02	-5.07522688323E+01	-7.43576554182E+01	-5.86180092016E+00	-1.09073313940E+00
2.34160462274E+06	-3.22682838979E+01	-1.50950386135E+02	6.37232200803E+00	1.70687095287E+02	-4.61262499348E+01	-5.95055807327E+01	-5.88653788931E+00	-1.19585019845E+00
2.36379597733E+06	-1.83155492944E+01	-1.65553675145E+02	6.36149827083E+00	1.70875463549E+02	-4.86995511618E+01	-4.75989030721E+01	-5.84914492628E+00	-1.08978065424E+00
2.38598733193E+06	-1.27014833528E+01	-1.70710431483E+02	6.33837188310E+00	1.70166603836E+02	-4.57838283837E+01	-1.68241577865E+02	-5.84107896383E+00	-1.17495109406E+00
2.40817868652E+06	-1.81872294157E+01	-1.56525478130E+02	6.29449059393E+00	1.70158533255E+02	-4.31326665094E+01	-4.86340759531E+01	-5.86913357080E+00	-1.46314795779E+00
2.43037004112E+06	-1.10399903999E+01	-1.27611089562E+02	6.44830509007E+00	1.69698715645E+02	-3.67915461519E+01	-5.85658969618E+01	-5.89331995889E+00	-1.47671958769E+00
2.45256139571E+06	-1.81148444763E+01	-4.48167549573E+01	6.40578614453E+00	1.70442924518E+02	-3.43526279899E+01	-1.17407077285E+01	-5.88319937299E+00	-1.33498638791E+00
2.47475275031E+06	-1.64619785889E+01	-1.76056504676E+02	6.36781337194E+00	1.69982809709E+02	-4.05996973077E+01	-1.07782209768E+02	-5.84318914408E+00	-1.19655279724E+00
2.49694410490E+06	-2.15940621347E+01	-1.61492542502E+02	6.35507874518E+00	1.70092008308E+02	-5.00859268104E+01	-1.71253856661E+02	-5.83654490532E+00	-1.16851276225E+00
2.51913545950E+06	-1.77377338461E+01	1.67671624541E+02	6.34026602411E+00	1.69971192370E+02	-4.56034770765E+01	9.83243676252E+01	-5.83456533606E+00	-1.15999558364E+00
2.54132681409E+06	-2.20131382161E+01	-1.75163880706E+02	6.39974524408E+00	1.69693248413E+02	-5.71654168101E+01	-7.35102311322E+01	-5.87469002890E+00	-1.16503654447E+00
2.56351816869E+06	-1.72195794382E+01	1.72529019829E+02	6.34669020350E+00	1.69939508288E+02	-4.42485744816E+01	1.22540863440E+01	-5.83593761168E+00	-1.23252302213E+00
2.58570952328E+06	-1.76393875420E+01	-1.07501666614E+02	6.38792862609E+00	1.69388525851E+02	-4.97739269527E+01	-1.70613909186E+01	-5.87498867388E+00	-1.28656520555E+00
2.60790087788E+06	-1.25931503965E+01	1.74799423874E+02	6.32997345241E+00	1.69182859225E+02	-3.68113019144E+01	8.05608718543E+01	-5.83412305934E+00	-1.26683316266E+00
2.63009223247E+06	-1.63616554060E+01	-1.74402608371E+02	6.35309001358E+00	1.69381377073E+02	-5.05276782735E+01	2.74701536778E+01	-5.86982733646E+00	-8.97356038674E-01
2.65228358707E+06	-1.71625098089E+01	-1.69301440774E+02	6.39666811274E+00	1.69279821606E+02	-5.83347516709E+01	-1.22925283043E+02	-5.85638223390E+00	-1.27576041841E+00
2.67447494166E+06	-1.68273428632E+01	1.61420352497E+02	6.36954874295E+00	1.69173851442E+02	-6.32939069184E+01	6.02569240506E+01	-5.84248634678E+00	-1.26869622077E+00
2.69666629626E+06	-1.65127008631E+01	1.79216319479E+02	6.33631719318E+00	1.68996851078E+02	-5.18304067957E+01	5.33967303979E+01	-5.82927014523E+00	-1.32380188251E+00
2.71885765085E+06	-1.93765352050E+01	1.68741890938E+02	6.38997937481E+00	1.69012543155E+02	-6.15569396032E+01	6.99797878851E+01	-5.85257747961E+00	-1.41658808370E+00
2.74104900545E+06	-2.09293780149E+01	1.71108325380E+02	6.38830270362E+00	1.69003655197E+02	-4.13596300468E+01	2.81845155455E+01	-5.83702219848E+00	-1.48862100480E+00
2.76324036004E+06	-1.60679914034E+01	-1.63034623284E+02	6.34143746298E+00	1.68779833896E+02	-3.89094378877E+01	1.97754779184E+01	-5.86096864684E+00	-1.50330381101E+00
2.78543171463E+06	-1.68303046765E+01	-1.52245783547E+02	6.38264007485E+00	1.68625451924E+02	-4.86663494979E+01	1.08264963677E+02	-5.84287537259E+00	-1.47877045197E+00
2.80762306923E+06	-1.84452263317E+01	-1.40251144681E+02	6.40845515511E+00	1.68527144402E+02	-4.44715792079E+01	-3.86959466422E+00	-5.87479876502E+00	-1.38676858300E+00
2.82981442382E+06	-2.02809630216E+01	-1.45577803426E+02	6.39462464982E+00	1.68808494672E+02	-4.69531086261E+01	1.39758398113E+02	-5.85371526800E+00	-1.36741898028E+00
2.85200577842E+06	-1.77233685994E+01	-1.41646245512E+02	6.42323623369E+00	1.68476470473E+02	-4.36980369092E+01	-6.15935485474E+01	-5.83651344287E+00	-1.30014266259E+00
2.87419713301E+06	-1.58055090095E+01	1.79185244523E+02	6.34197370680E+00	1.68082597265E+02	-4.39726115613E+01	-1.77177166825E+01	-5.85807981951E+00	-1.44618327447E+00
