# Hz S DB R 50
! CMT, M5065, 19127446, 24.2.4/2
! Date: 11/8/2024 3:49:11 PM
! Data: Format (Calibration Info)
! Freq	S11:dB/Ang(F2)	S21:dB/Ang(F2)	S12:dB/Ang(F2)	S22:dB/Ang(F2)
3.00000000000E+05	-2.03393482490E+01	-1.20900664738E+02	5.67630347849E+00	-1.77650088267E+02	-4.08752134001E+01	-1.15526269741E+02	-5.84875903491E+00	-9.13722566503E-02
3.22191354595E+05	-1.49484731111E+01	-1.66852742969E+02	5.63484705803E+00	-1.78235154727E+02	-4.21141806992E+01	-1.44927381744E+01	-5.87283576899E+00	-4.53776005706E-01
3.44382709190E+05	-1.81443399827E+01	-1.48872097405E+02	5.68332095109E+00	-1.78468762452E+02	-4.47030815102E+01	4.46698067134E+01	-5.85666270597E+00	-3.20573978097E-01
3.66574063785E+05	-2.23771110422E+01	1.72040229312E+02	5.69554758312E+00	-1.78357021954E+02	-4.18093168805E+01	-3.12834962016E+01	-5.83430294704E+00	-2.32786780695E-01
3.88765418380E+05	-1.55118875948E+01	1.69043203323E+02	5.66977642246E+00	-1.78547957707E+02	-5.26002552889E+01	7.11386441736E+01	-5.85971466415E+00	-3.63328298988E-01
4.10956772975E+05	-2.06958292102E+01	-1.53904815351E+02	5.68167009390E+00	-1.78976051702E+02	-4.33519144354E+01	-7.36801311254E+01	-5.84987984362E+00	-1.06444360849E-01
4.33148127570E+05	-1.55261785693E+01	1.49515202540E+02	5.66823262849E+00	-1.79098627230E+02	-5.03697522184E+01	1.19096800854E+02	-5.83930541161E+00	-8.66612663174E-02
4.55339482165E+05	-1.86985093147E+01	-1.41994223476E+02	5.72125053071E+00	-1.79555318969E+02	-4.52428968669E+01	-1.36744149814E+02	-5.83092179793E+00	-2.63790257293E-01
4.77530836760E+05	-1.96219245108E+01	1.59275932458E+02	5.67019637450E+00	1.79992663125E+02	-4.09756587788E+01	5.82924678760E+01	-5.82333107061E+00	-3.82055959776E-01
4.99722191355E+05	-1.79011057277E+01	1.68942727675E+02	5.65624066984E+00	-1.79930593389E+02	-4.53006982177E+01	7.29318729646E+01	-5.84726232861E+00	-1.32294481771E-01
5.21913545950E+05	-1.72586681399E+01	-1.58441135689E+02	5.69017787589E+00	1.79980705525E+02	-5.89769569994E+01	-4.64451398512E+01	-5.83205867139E+00	-3.60519142021E-01
5.44104900545E+05	-1.60486732302E+01	1.57062519949E+02	5.68297065597E+00	1.79601578427E+02	-4.45917696030E+01	-2.06014656470E+01	-5.84416063925E+00	-3.01543053389E-01
5.66296255139E+05	-1.59803695504E+01	1.57967066174E+02	5.69088620260E+00	1.79699901267E+02	-4.18196608765E+01	9.84362287172E+01	-5.81775105556E+00	-5.31971584129E-01
5.88487609734E+05	-2.01758187111E+01	1.56725968513E+02	5.63047493621E+00	1.79403004645E+02	-4.06327111298E+01	1.70052007701E+02	-5.84120185461E+00	-3.44574998981E-01
6.10678964329E+05	-1.77904720726E+01	1.49897689988E+02	5.71804558777E+00	1.79341902687E+02	-4.25807726979E+01	-1.29693118129E+02	-5.83966769585E+00	1.29866184699E-01
6.32870318924E+05	-1.42070954571E+01	-1.54412565811E+02	5.66894155095E+00	1.79224314929E+02	-4.81097644590E+01	-6.44294561014E+01	-5.85771751163E+00	-1.36304157351E-01
6.55061673519E+05	-1.91644496844E+01	-1.67747537297E+02	5.64887887955E+00	1.78717266328E+02	-6.38078311066E+01	9.62538055623E+01	-5.85622448107E+00	-2.68273443062E-01
6.77253028114E+05	-1.67649844185E+01	1.53332431648E+02	5.68484942053E+00	1.79102657838E+02	-4.75199703931E+01	-1.38964823138E+02	-5.83093357966E+00	-6.70509479971E-01
6.99444382709E+05	-2.06559819611E+01	1.77825893755E+02	5.66722497202E+00	1.78490774637E+02	-4.41384655099E+01	-8.14852227553E+01	-5.82457784957E+00	-2.97915535406E-01
7.21635737304E+05	-1.59601979703E+01	-1.54744393095E+02	5.66381633182E+00	1.78374468468E+02	-3.83107592472E+01	-9.19127983861E+01	-5.84179053787E+00	-3.18655946149E-01
7.43827091899E+05	-2.16079917013E+01	1.65420532001E+02	5.70401357037E+00	1.78485736415E+02	-5.21169845219E+01	-1.71340781986E+02	-5.83412765624E+00	-4.50004017697E-01
7.66018446494E+05	-1.38794821023E+01	-1.45133925810E+02	5.67736417475E+00	1.78069952080E+02	-5.44581492299E+01	9.90000479336E+01	-5.85129413228E+00	-3.90746294436E-01
7.88209801089E+05	-1.65723444901E+01	-1.62829375565E+02	5.67103278563E+00	1.78241447982E+02	-4.08830397920E+01	-9.59977800066E+01	-5.83287868843E+00	-3.11789705445E-01
8.10401155684E+05	-1.35773982055E+01	1.74374898933E+02	5.65463440860E+00	1.78105478066E+02	-4.40782134609E+01	2.53270881321E+01	-5.85034623104E+00	-5.02922269786E-01
8.32592510279E+05	-1.75660802178E+01	1.73731382914E+02	5.71143620917E+00	1.77763187037E+02	-4.47769875276E+01	-1.38383659535E+02	-5.83616551861E+00	-2.68099702178E-01
8.54783864874E+05	-1.71884413850E+01	-1.63884144594E+02	5.68211816183E+00	1.77860883171E+02	-3.72383652775E+01	1.77505166088E+02	-5.85019353368E+00	-4.83267905918E-01
8.76975219469E+05	-1.51728481968E+01	1.74890137773E+02	5.64702918172E+00	1.77818553962E+02	-4.87004655972E+01	1.36182272726E+02	-5.84330641171E+00	-3.69930566270E-01
8.99166574064E+05	-1.62451394430E+01	-1.78553725797E+02	5.68611603598E+00	1.77806674754E+02	-4.17075797616E+01	-5.10248162829E+01	-5.84607328814E+00	-3.49808733403E-01
9.21357928659E+05	-1.83562263230E+01	-1.66603413801E+02	5.69196082338E+00	1.77384841436E+02	-4.42978943975E+01	6.30812134734E+01	-5.83245211144E+00	-6.04512307752E-01
9.43549283254E+05	-2.41449749892E+01	-8.96974032293E+01	5.72898285847E+00	1.77470060023E+02	-4.43490892456E+01	1.67643691533E+02	-5.83767194251E+00	-6.27335469331E-01
9.65740637849E+05	-1.53088955161E+01	-1.55985885245E+02	5.66131981095E+00	1.76897999026E+02	-4.16840082655E+01	-1.61291230722E+02	-5.83355476576E+00	-5.92847241508E-01
9.87931992444E+05	-1.42437921200E+01	1.65393697402E+02	5.62686190422E+00	1.77127118807E+02	-5.02195628849E+01	-8.45664364484E+01	-5.86049861407E+00	-4.21581099913E-01
1.01012334704E+06	-1.98705777035E+01	-1.60229211312E+02	5.67204155978E+00	1.77079955063E+02	-4.21794486400E+01	2.25412313302E+00	-5.84328782986E+00	-3.25399686710E-01
1.03231470163E+06	-1.84153016368E+01	-1.64424860420E+02	5.66325816026E+00	1.76975392981E+02	-4.18405770048E+01	-3.40953512793E-01	-5.83110185272E+00	-4.52040446356E-01
1.05450605623E+06	-1.69749945236E+01	-1.30786454192E+02	5.66953207633E+00	1.76152059546E+02	-4.93533702475E+01	-7.40393963322E+01	-5.84372586260E+00	-6.02717670458E-01
1.07669741082E+06	-2.52793394511E+01	-1.51392826578E+02	5.67553624867E+00	1.76629954922E+02	-4.01372144963E+01	7.75624913186E+01	-5.86030880516E+00	-7.13495102530E-01
1.09888876542E+06	-1.71975632908E+01	-1.53840025490E+02	5.69305241669E+00	1.76381136672E+02	-5.41882833284E+01	-2.88622887397E+01	-5.85970849000E+00	-6.15576361567E-01
1.12108012001E+06	-2.36005980459E+01	-1.28271956824E+02	5.67946687035E+00	1.76563500194E+02	-4.12366612523E+01	-4.12151250974E-01	-5.87038607861E+00	-5.48812812227E-01
1.14327147461E+06	-1.58874844264E+01	-1.72297652228E+02	5.68230744656E+00	1.76214736771E+02	-5.52668506419E+01	3.13934644143E+01	-5.83201067061E+00	-5.28587912470E-01
1.16546282920E+06	-2.07943978125E+01	1.17431157867E+02	5.74138191628E+00	1.76352608651E+02	-4.13686698499E+01	-7.43972054333E+01	-5.82359953272E+00	-5.25197404319E-01
1.18765418380E+06	-1.45556551199E+01	1.53967802719E+02	5.65272719338E+00	1.76208247216E+02	-4.11614914888E+01	1.38382673576E+02	-5.82659715111E+00	-7.40955402112E-01
1.20984553839E+06	-1.26601959333E+01	1.75851505223E+02	5.70310970784E+00	1.75932394426E+02	-4.67465461197E+01	3.77615629606E+01	-5.84219014350E+00	-8.85279076240E-01
1.23203689299E+06	-1.53198618285E+01	1.46907754959E+02	5.65048222881E+00	1.76431065428E+02	-4.66956489796E+01	-1.31575571391E+01	-5.85520131333E+00	-2.97607138632E-01
1.25422824758E+06	-1.43915709313E+01	1.72049036240E+02	5.69052006729E+00	1.75691339963E+02	-4.76666395570E+01	-9.69658226865E+01	-5.85414712438E+00	-5.74153083581E-01
1.27641960218E+06	-1.40285488794E+01	-1.77619614277E+02	5.70370196690E+00	1.75614006395E+02	-4.47109290566E+01	1.26263420700E+02	-5.85150452503E+00	-6.65786921406E-01
1.29861095677E+06	-1.55412442982E+01	1.75308575536E+02	5.70821633798E+00	1.75542372989E+02	-4.91010188179E+01	-1.78468019533E+02	-5.84537742785E+00	-6.16332555456E-01
1.32080231137E+06	-1.66954573504E+01	1.79754194081E+02	5.65283603909E+00	1.75488970304E+02	-5.13337308984E+01	3.34270786227E+00	-5.84665140400E+00	-1.10144409471E+00
1.34299366596E+06	-2.06480755499E+01	-1.65662675020E+02	5.74372996971E+00	1.75133701331E+02	-3.53033404767E+01	-7.90469412097E+01	-5.86920001312E+00	-7.86977609434E-01
1.36518502056E+06	-1.58725652195E+01	-1.62811836403E+02	5.64200034353E+00	1.75201360364E+02	-4.11656153763E+01	1.02426038687E+02	-5.83731005152E+00	-7.25279401595E-01
1.38737637515E+06	-1.77636298967E+01	-1.55030138464E+02	5.68214461113E+00	1.74997924480E+02	-5.11320472535E+01	-1.58066180875E+02	-5.84637025155E+00	-7.15074935216E-01
1.40956772975E+06	-1.51026227913E+01	1.63945794006E+02	5.65874430837E+00	1.75241875684E+02	-4.08305073157E+01	7.50312901530E+01	-5.82489582895E+00	-7.84044841528E-01
1.43175908434E+06	-1.71940258310E+01	-1.52902004060E+02	5.72197561683E+00	1.74682619670E+02	-6.07719887987E+01	9.09286258789E+01	-5.86423996847E+00	-6.81480311293E-01
1.45395043894E+06	-1.86146496406E+01	1.61107877105E+02	5.71942276717E+00	1.75094441998E+02	-4.30269224590E+01	1.12336135938E+02	-5.81082239008E+00	-7.02024208898E-01
1.47614179353E+06	-1.73804863610E+01	1.79465646614E+02	5.68320112790E+00	1.74579115140E+02	-4.55766665616E+01	2.30037454411E+01	-5.84183337300E+00	-7.67992011814E-01
1.49833314813E+06	-2.40562785766E+01	-1.63028991457E+02	5.71286975153E+00	1.74465289141E+02	-3.26096669603E+01	-7.78214921128E+01	-5.87512230072E+00	-8.02825225809E-01
1.52052450272E+06	-2.21626824889E+01	-1.74308131287E+02	5.72839537104E+00	1.74477410646E+02	-5.20678266856E+01	-1.05115781203E+02	-5.85500568534E+00	-7.43158714763E-01
1.54271585732E+06	-2.38122382074E+01	-1.53771834414E+02	5.73036805634E+00	1.74617081588E+02	-3.86912564764E+01	-8.43790595726E+01	-5.85441738314E+00	-7.45206187744E-01
1.56490721191E+06	-1.28376690940E+01	-1.47765468094E+02	5.70438338279E+00	1.73773321492E+02	-4.41598394488E+01	-1.45836026021E+02	-5.83084190683E+00	-8.28866208447E-01
1.58709856651E+06	-1.40092866153E+01	1.62815722796E+02	5.66552306378E+00	1.74234067067E+02	-4.77497762995E+01	1.61436920997E+02	-5.84090886445E+00	-8.49120086984E-01
1.60928992110E+06	-2.12272840395E+01	-1.46256711585E+02	5.71333873517E+00	1.74246025720E+02	-5.30995057262E+01	4.96022017728E+01	-5.84502271744E+00	-7.64618419996E-01
1.63148127570E+06	-2.01452912829E+01	-1.50700981060E+02	5.69499924854E+00	1.73905936328E+02	-5.22275945184E+01	-3.68121468726E+01	-5.83983285370E+00	-7.85252773848E-01
1.65367263029E+06	-1.68671622682E+01	1.59147211927E+02	5.65273919960E+00	1.74184488810E+02	-4.44266641542E+01	-4.32061245100E+01	-5.85339787447E+00	-7.38396633667E-01
1.67586398489E+06	-1.91029517663E+01	1.47480204544E+02	5.69866330401E+00	1.73911871727E+02	-4.44103857406E+01	-7.04201596944E+00	-5.83095586019E+00	-8.53506827016E-01
1.69805533948E+06	-1.23647638913E+01	-1.68181227102E+02	5.74545954357E+00	1.73421844892E+02	-4.56626133947E+01	-1.30880140025E+02	-5.85701465492E+00	-8.21811266270E-01
1.72024669408E+06	-1.39316004124E+01	-1.59455305489E+02	5.71748593821E+00	1.73684532428E+02	-5.03669392421E+01	-1.55455051813E+02	-5.83620963338E+00	-9.75280481059E-01
1.74243804867E+06	-1.68341807491E+01	1.58091898759E+02	5.65284296028E+00	1.73862483004E+02	-4.72455555992E+01	-3.67011891123E+01	-5.85106885204E+00	-7.86729059086E-01
1.76462940327E+06	-1.64826273061E+01	-1.78586062224E+02	5.69959897717E+00	1.73475887567E+02	-4.51371928059E+01	1.55051046667E+02	-5.85265816334E+00	-8.32089350296E-01
1.78682075786E+06	-1.72309429713E+01	1.74620767894E+02	5.70686784903E+00	1.73369848396E+02	-5.26309834196E+01	-1.09142704613E+02	-5.86337555948E+00	-8.72051854436E-01
1.80901211246E+06	-2.16971671870E+01	1.56185535180E+02	5.73279797756E+00	1.73133114938E+02	-3.59372120679E+01	7.59726529851E+01	-5.84338488294E+00	-9.82068112559E-01
1.83120346705E+06	-1.35653839141E+01	1.69860763037E+02	5.66767099139E+00	1.73214182519E+02	-3.88496836446E+01	-1.05511986172E+02	-5.85946669867E+00	-9.08921920172E-01
1.85339482165E+06	-1.65214571133E+01	1.50180368645E+02	5.63488374944E+00	1.73198845701E+02	-4.52959320115E+01	-1.25071384569E+02	-5.84709290948E+00	-7.39095102310E-01
1.87558617624E+06	-1.37926489538E+01	1.73577687235E+02	5.71019741023E+00	1.73092910330E+02	-5.44286481626E+01	-1.32394917446E+02	-5.84850606488E+00	-9.05273145157E-01
1.89777753084E+06	-1.97558690859E+01	-1.63616331934E+02	5.73339715569E+00	1.72885602748E+02	-4.32238223324E+01	1.47290472768E+02	-5.83587121163E+00	-1.09688602926E+00
1.91996888543E+06	-1.51374209766E+01	1.48438482335E+02	5.67474547293E+00	1.72911436810E+02	-4.42545912980E+01	2.83761198554E+01	-5.85224366668E+00	-1.15728540313E+00
1.94216024003E+06	-2.14710497527E+01	1.37035222219E+02	5.70876690579E+00	1.72962569688E+02	-4.49895036941E+01	-1.79928845256E+02	-5.85777096224E+00	-8.95173561125E-01
1.96435159462E+06	-1.53128396642E+01	1.64367709646E+02	5.70960371314E+00	1.72695978087E+02	-4.28614962256E+01	-7.05573405715E+01	-5.85874527972E+00	-9.67055690404E-01
1.98654294922E+06	-2.05285479663E+01	1.69432086616E+02	5.72545597743E+00	1.72575473873E+02	-3.70613833914E+01	-1.51452592029E+02	-5.84134333701E+00	-9.23652652628E-01
2.00873430381E+06	-2.28644125689E+01	-1.41094959210E+02	5.72790806390E+00	1.72115934665E+02	-5.30888999240E+01	1.69334982207E+02	-5.85222517825E+00	-9.84651391909E-01
2.03092565841E+06	-1.47239042398E+01	1.68672296560E+02	5.72879967395E+00	1.72365931821E+02	-4.23837323833E+01	8.34631096631E+01	-5.82379163785E+00	-1.06020737799E+00
2.05311701300E+06	-1.61679955773E+01	-1.60550706939E+02	5.72890309509E+00	1.71947774424E+02	-4.13122925713E+01	-8.52418815227E+01	-5.83936004933E+00	-8.34844896239E-01
2.07530836760E+06	-2.48899617506E+01	-1.79885484144E+02	5.76343090679E+00	1.72224103334E+02	-4.88519145615E+01	-1.57098021315E+02	-5.83880143105E+00	-1.08953609191E+00
2.09749972219E+06	-1.90093718478E+01	-1.49006252348E+02	5.72219107861E+00	1.72072994268E+02	-4.87449573408E+01	-8.25637771476E+00	-5.86379873694E+00	-1.01306064555E+00
2.11969107679E+06	-1.91354792723E+01	-1.69964087329E+02	5.67994639793E+00	1.71954786897E+02	-3.67425595829E+01	-2.85330517848E+01	-5.87153352345E+00	-1.12624978836E+00
2.14188243138E+06	-1.98916617895E+01	1.73986631337E+02	5.68409553014E+00	1.71806673577E+02	-4.51388055698E+01	1.10231121978E+02	-5.82397589474E+00	-1.12991202160E+00
2.16407378598E+06	-1.87177734795E+01	1.68682214488E+02	5.71679341340E+00	1.71581406207E+02	-4.88443501355E+01	-1.25405521643E+02	-5.84556869313E+00	-9.83297177821E-01
2.18626514057E+06	-2.51843444314E+01	1.37148195036E+02	5.75964118806E+00	1.71994791467E+02	-4.62072316784E+01	1.15944102937E+01	-5.84432705970E+00	-1.19539916263E+00
2.20845649517E+06	-1.97335338595E+01	1.64348698500E+02	5.69470393248E+00	1.71881648835E+02	-4.19261947528E+01	-1.36557754782E+02	-5.84741346119E+00	-9.79222618193E-01
2.23064784976E+06	-1.57619020184E+01	-1.53992367857E+02	5.71359362873E+00	1.71271654751E+02	-4.25174803242E+01	3.30809391871E+00	-5.82842588541E+00	-1.15666198970E+00
2.25283920436E+06	-1.92038625047E+01	-1.63438675096E+02	5.76571531326E+00	1.71072351998E+02	-4.90918774889E+01	8.24169732112E+01	-5.82908174652E+00	-1.12289133501E+00
2.27503055895E+06	-2.37309986406E+01	1.68883913909E+02	5.72336138692E+00	1.71637866607E+02	-3.34705061693E+01	-1.14750523535E+01	-5.85773701324E+00	-1.22565426588E+00
2.29722191355E+06	-1.34327961556E+01	1.78646346320E+02	5.65496477990E+00	1.71217197567E+02	-3.32188989131E+01	1.77815392165E+02	-5.80892077919E+00	-1.00981129513E+00
2.31941326814E+06	-1.46463203167E+01	-1.71933743983E+02	5.68716180535E+00	1.70901239028E+02	-4.58021408901E+01	-1.05890463772E+02	-5.82202056101E+00	-1.05260479498E+00
2.34160462274E+06	-8.97258612681E+00	-1.50621954757E+02	5.74439740085E+00	1.70462993434E+02	-4.31298744756E+01	1.57542888498E+02	-5.83309923215E+00	-1.12793589203E+00
2.36379597733E+06	-1.67873354802E+01	-6.22763327384E+01	5.79144230195E+00	1.70873390784E+02	-6.20119855357E+01	-1.74753360054E+02	-5.83270519547E+00	-1.27281022488E+00
2.38598733193E+06	-1.99758285652E+01	1.72828075368E+02	5.70864349492E+00	1.70712781234E+02	-5.07060309223E+01	-1.04803157718E+02	-5.85545742225E+00	-1.20402016620E+00
2.40817868652E+06	-1.86854304837E+01	-1.72679909007E+02	5.74153949137E+00	1.70824637807E+02	-4.78149343900E+01	-1.69334225782E+02	-5.85499241329E+00	-1.26444483528E+00
2.43037004112E+06	-2.20965000541E+01	-1.65742385009E+02	5.71047509678E+00	1.70599907217E+02	-4.86439415241E+01	6.71885814456E+01	-5.85597190608E+00	-1.60679329081E+00
2.45256139571E+06	-1.46684447212E+01	-1.54794635599E+02	5.74555493291E+00	1.70431281621E+02	-3.61173186358E+01	-1.18492516825E+02	-5.86860786706E+00	-9.20918664324E-01
2.47475275031E+06	-1.88695518925E+01	-1.68687776135E+02	5.72499361596E+00	1.70562759146E+02	-4.80569758165E+01	-2.58767336992E+01	-5.83538254757E+00	-1.25910572915E+00
2.49694410490E+06	-2.99311492652E+01	-1.01590816875E+02	5.77551323955E+00	1.70604848161E+02	-4.86194712713E+01	-1.68468186528E+01	-5.86601008550E+00	-1.07380174289E+00
2.51913545950E+06	-7.96864790489E+00	-1.08088722594E+02	5.84215660147E+00	1.69948943111E+02	-4.63564091629E+01	-1.29056299096E+02	-5.84215328785E+00	-1.23899161667E+00
2.54132681409E+06	-1.92092174385E+01	1.48200445653E+02	5.65439031573E+00	1.70146693153E+02	-5.24451663241E+01	1.41858699711E+02	-5.86270760006E+00	-1.19237054712E+00
2.56351816869E+06	-1.51503854874E+01	1.65672558712E+02	5.70281931662E+00	1.69971044246E+02	-4.36869380068E+01	5.62658870302E+01	-5.87440553626E+00	-1.26437123101E+00
2.58570952328E+06	-1.58794732801E+01	-1.74318934196E+02	5.75319840908E+00	1.69792715110E+02	-4.11890667222E+01	9.39372848008E+01	-5.81934887289E+00	-1.32669949805E+00
2.60790087788E+06	-1.63332498267E+01	-1.63389603192E+02	5.69551667079E+00	1.69773862672E+02	-3.61914857966E+01	-1.66692670485E+02	-5.83446303389E+00	-9.97152510629E-01
2.63009223247E+06	-1.95668229149E+01	-1.51660021348E+02	5.78753661664E+00	1.69851977642E+02	-4.38255321741E+01	-8.35459053067E+00	-5.85089600524E+00	-9.09357130943E-01
2.65228358707E+06	-1.63873761213E+01	-1.42592608052E+02	5.76861001955E+00	1.69329311203E+02	-5.99855187217E+01	5.35348508453E+01	-5.85024359816E+00	-1.42057696158E+00
2.67447494166E+06	-2.50155976367E+01	1.30513725396E+02	5.74098099473E+00	1.69690297749E+02	-4.08214915138E+01	6.25847967831E+01	-5.84895689426E+00	-1.34472919294E+00
2.69666629626E+06	-1.60303005139E+01	1.61190747190E+02	5.72257249126E+00	1.69559727573E+02	-5.40576998661E+01	-2.56786311403E+01	-5.85667226134E+00	-1.21666377588E+00
2.71885765085E+06	-1.77895580135E+01	-1.52106855539E+02	5.71923014029E+00	1.69230563864E+02	-5.00155335998E+01	7.08033196948E+01	-5.85061673773E+00	-1.39193834949E+00
2.74104900545E+06	-1.92197230132E+01	-1.61906342088E+02	5.72100201750E+00	1.69454296327E+02	-5.02243143325E+01	1.55881647374E+02	-5.86339830157E+00	-1.28011507297E+00
2.76324036004E+06	-1.38059771605E+01	-1.73630146774E+02	5.69672415499E+00	1.69117034717E+02	-3.81866872076E+01	-1.13511098593E+02	-5.86724955014E+00	-1.18749293562E+00
2.78543171463E+06	-1.92364285446E+01	-1.68043916059E+02	5.75322565648E+00	1.69096618522E+02	-4.01319841088E+01	-1.43978337157E+02	-5.83272724953E+00	-1.38205663222E+00
2.80762306923E+06	-1.77303515607E+01	-1.40762268144E+02	5.75627841114E+00	1.68904375749E+02	-5.63130244629E+01	1.30848035635E+02	-5.84468287537E+00	-1.44355936991E+00
2.82981442382E+06	-2.78937163828E+01	1.04564322216E+02	5.73003649263E+00	1.69117498489E+02	-5.18365621261E+01	4.86541465651E+01	-5.83869204492E+00	-1.44641338316E+00
2.85200577842E+06	-1.89228539570E+01	1.58617306702E+02	5.73950968132E+00	1.69130248862E+02	-4.50728525696E+01	-1.53863160878E+02	-5.85349710974E+00	-1.25814911328E+00
2.87419713301E+06	-1.99549610548E+01	1.63553583513E+02	5.73207415047E+00	1.68786500075E+02	-4.82987263929E+01	1.09845751001E+02	-5.84257885632E+00	-1.41999655968E+00
