# Hz S DB R 50
! CMT, M5065, 19127446, 24.2.4/2
! Date: 11/8/2024 3:51:17 PM
! Data: Format (Calibration Info)
! Freq	S11:dB/Ang(F2)	S21:dB/Ang(F2)	S12:dB/Ang(F2)	S22:dB/Ang(F2)
3.00000000000E+05	-2.44879455632E+01	1.78605675636E+02	6.12322977083E+00	-1.77819601547E+02	-4.28224502138E+01	-7.71690666088E+01	-5.85834811740E+00	-1.55182772165E-01
3.22191354595E+05	-2.36089693033E+01	-1.47503568102E+02	6.13010484164E+00	-1.78057825559E+02	-5.20478892694E+01	6.41793132743E+01	-5.84268377826E+00	-4.75525830458E-01
3.44382709190E+05	-1.69338530071E+01	1.53526597468E+02	6.04930962146E+00	-1.78291677109E+02	-5.97247113458E+01	8.28824185858E+01	-5.83139116234E+00	-4.31520291135E-01
3.66574063785E+05	-1.58954592654E+01	1.64193004976E+02	6.12540862153E+00	-1.78470506227E+02	-4.09904247745E+01	-1.85480569596E+00	-5.85204142646E+00	-2.99467678485E-01
3.88765418380E+05	-1.46072123253E+01	1.55311373276E+02	6.04207725796E+00	-1.78759032653E+02	-4.02001888445E+01	-7.63176648061E+01	-5.85040527053E+00	-1.77787742862E-01
4.10956772975E+05	-1.33413145052E+01	1.46127503043E+02	6.07999178955E+00	-1.79192647721E+02	-4.66367647750E+01	-3.68490884276E+01	-5.84501691769E+00	-1.07927808505E-01
4.33148127570E+05	-1.33915515375E+01	1.68748727641E+02	6.04377102840E+00	-1.79339538547E+02	-5.17031893172E+01	-1.11131874733E+02	-5.86571644113E+00	-2.95117353139E-01
4.55339482165E+05	-1.79962008993E+01	1.73232058952E+02	6.08538464813E+00	-1.79481621507E+02	-4.34559849642E+01	1.54179197670E+01	-5.84600134024E+00	-3.43039650108E-01
4.77530836760E+05	-1.56774566900E+01	-1.73607271772E+02	6.10404200613E+00	-1.79729499071E+02	-4.28957028993E+01	-9.17474461663E+01	-5.82123428251E+00	-3.38826922214E-01
4.99722191355E+05	-1.70468963351E+01	-1.69028812631E+02	6.08418287360E+00	-1.79914642595E+02	-4.77840061360E+01	-3.74622849937E+01	-5.86753087251E+00	-3.10707407552E-01
5.21913545950E+05	-1.61046005722E+01	-1.74664899181E+02	6.10901556990E+00	1.79945449303E+02	-3.63780474506E+01	1.93446281561E+01	-5.84818819868E+00	-3.53041137933E-01
5.44104900545E+05	-1.74099866913E+01	-1.23323276982E+02	6.14791462527E+00	1.79300244815E+02	-4.39454200178E+01	-1.86294760465E+01	-5.85763453309E+00	-3.21326973661E-01
5.66296255139E+05	-1.70085113635E+01	-1.52767589695E+02	6.11473083058E+00	1.79233778569E+02	-4.34293590127E+01	-9.13593337616E+01	-5.83752138606E+00	-2.71863019844E-01
5.88487609734E+05	-1.62199392252E+01	1.58124960909E+02	6.14552454630E+00	1.79436211757E+02	-4.20688904514E+01	4.73280604256E+01	-5.86161637986E+00	-3.86247394590E-01
6.10678964329E+05	-1.70085354682E+01	-1.71762182683E+02	6.10884483313E+00	1.79171946309E+02	-4.38204408441E+01	1.61520147104E+02	-5.83937481717E+00	1.43815225986E-01
6.32870318924E+05	-1.75614614716E+01	1.78146694498E+02	6.12267362798E+00	1.79281077134E+02	-4.43306858261E+01	-6.90482776406E+01	-5.86267456943E+00	-2.02077613013E-02
6.55061673519E+05	-1.56607118648E+01	-1.51470592336E+02	6.09149099253E+00	1.78638473508E+02	-4.62147421463E+01	-1.54368851411E+02	-5.85993741627E+00	-3.65486014802E-01
6.77253028114E+05	-1.45513187820E+01	1.67820793840E+02	6.08721859044E+00	1.78497526566E+02	-4.85018733068E+01	-1.67486565531E+02	-5.83426906890E+00	-6.57982098435E-01
6.99444382709E+05	-1.97457476361E+01	-1.39933712885E+02	6.09908075525E+00	1.78451931183E+02	-4.42897283027E+01	7.68655834776E+01	-5.82566758317E+00	-4.47096207724E-01
7.21635737304E+05	-1.24221474531E+01	-1.73467590545E+02	6.09236297714E+00	1.78198775793E+02	-3.94504661514E+01	-3.94296075916E+01	-5.85082939142E+00	-2.32155184814E-01
7.43827091899E+05	-1.92291673424E+01	1.63545345776E+02	6.08233595629E+00	1.78084034327E+02	-4.52898716353E+01	1.04882197286E+02	-5.85563119007E+00	-4.73721862473E-01
7.66018446494E+05	-1.71338489574E+01	-1.45566133770E+02	6.14109309693E+00	1.77905107230E+02	-4.36467926534E+01	9.36229132461E+01	-5.85691098699E+00	-5.62320057558E-01
7.88209801089E+05	-2.20476359249E+01	-1.71930336797E+02	6.14018655570E+00	1.78480401904E+02	-4.12751887539E+01	-5.80458991908E+01	-5.86063999355E+00	-3.12648498318E-01
8.10401155684E+05	-2.34011563188E+01	-1.46267516348E+02	6.17487057785E+00	1.77957863977E+02	-4.68993852114E+01	1.56751246807E+02	-5.81353260564E+00	-4.29366591051E-01
8.32592510279E+05	-1.65669620821E+01	-1.57580166045E+02	6.18589204375E+00	1.77830266742E+02	-4.23996622884E+01	5.02454158129E+01	-5.83779353168E+00	-5.53181408836E-01
8.54783864874E+05	-2.32616251644E+01	1.20219462094E+02	6.15833571985E+00	1.77904236037E+02	-4.84697950300E+01	-5.73993565108E+01	-5.83701321801E+00	-4.57113142244E-01
8.76975219469E+05	-1.75444174280E+01	1.74920699625E+02	6.10386194247E+00	1.77365813401E+02	-5.36309780305E+01	-8.79900046984E+01	-5.83590001514E+00	-4.57073380457E-01
8.99166574064E+05	-3.02124446739E+01	1.25385590948E+02	6.14559368213E+00	1.77877967679E+02	-4.74191603815E+01	-1.40477589494E+02	-5.85319172410E+00	-5.08236527471E-01
9.21357928659E+05	-2.10243688948E+01	-1.46457620894E+02	6.15065300999E+00	1.77231836758E+02	-4.91779895391E+01	1.68806392398E+02	-5.84443556277E+00	-5.00269076428E-01
9.43549283254E+05	-1.65832603370E+01	1.60802164745E+02	6.09737355433E+00	1.77405274099E+02	-5.29806412582E+01	1.32754509388E+02	-5.84952039504E+00	-5.10659244588E-01
9.65740637849E+05	-1.68368114082E+01	1.58282800362E+02	6.10431655259E+00	1.77403261194E+02	-4.52628080017E+01	4.06371954910E+01	-5.85667105711E+00	-5.91117159617E-01
9.87931992444E+05	-1.88149023039E+01	-1.70238432540E+02	6.12094961663E+00	1.77169559188E+02	-4.21172899762E+01	9.24490977340E+01	-5.85702550927E+00	-6.22990419830E-01
1.01012334704E+06	-2.11070878426E+01	1.37090820496E+02	6.16767617024E+00	1.76966306507E+02	-3.83375628810E+01	1.69709030631E+02	-5.83270275852E+00	-4.29809406657E-01
1.03231470163E+06	-1.77851467914E+01	1.58293720204E+02	6.11124914499E+00	1.76989038861E+02	-4.42261007687E+01	1.30692546945E+02	-5.82328755422E+00	-6.16709748358E-01
1.05450605623E+06	-1.72430172139E+01	1.79007369170E+02	6.09934441082E+00	1.76518023822E+02	-4.16149880937E+01	-8.35232884827E+00	-5.87948413857E+00	-6.94203341159E-01
1.07669741082E+06	-1.42719169207E+01	1.77173941035E+02	6.05802822239E+00	1.76539516236E+02	-4.21174532603E+01	1.55353455481E+02	-5.84476087910E+00	-5.27471780953E-01
1.09888876542E+06	-1.81934607329E+01	-1.60501280777E+02	6.15758535770E+00	1.76410936581E+02	-4.99316227068E+01	4.67616571404E+01	-5.86354893103E+00	-6.50237346924E-01
1.12108012001E+06	-1.56601080698E+01	-1.77734669024E+02	6.06817806274E+00	1.76319732467E+02	-4.67622779262E+01	-7.42427133005E+01	-5.85249237598E+00	-6.84298701468E-01
1.14327147461E+06	-1.64322908597E+01	1.69792178256E+02	6.13916409638E+00	1.76028169644E+02	-4.36072871118E+01	-9.22645830459E+01	-5.84328489277E+00	-4.69640193089E-01
1.16546282920E+06	-1.11046672616E+01	-1.67985860021E+02	6.10166491057E+00	1.75978711014E+02	-3.80896299649E+01	-1.45704778416E+02	-5.84628727613E+00	-5.64659039812E-01
1.18765418380E+06	-1.59552703399E+01	1.53503511124E+02	6.08007808632E+00	1.75957833501E+02	-4.67890932348E+01	-6.50419359047E+01	-5.84370337800E+00	-6.29462882391E-01
1.20984553839E+06	-1.39695623335E+01	-1.58631416357E+02	6.12693955708E+00	1.75674176374E+02	-5.57443757789E+01	-1.60699144789E+02	-5.83625697781E+00	-7.48416183632E-01
1.23203689299E+06	-1.51518521791E+01	-1.79172867641E+02	6.02537393619E+00	1.75640792436E+02	-4.08637582824E+01	1.29368296703E+02	-5.82809537517E+00	-4.79815840528E-01
1.25422824758E+06	-1.81048066659E+01	-1.65898741277E+02	6.14626491027E+00	1.75504979552E+02	-4.50911210915E+01	-1.46008551612E+02	-5.84568417953E+00	-5.75434877008E-01
1.27641960218E+06	-1.66011475022E+01	-1.76060485208E+02	6.11738715887E+00	1.75828616857E+02	-4.99541003342E+01	3.79520120266E+01	-5.85225745314E+00	-7.24368230881E-01
1.29861095677E+06	-1.75123866360E+01	-1.64454427164E+02	6.14577278388E+00	1.75409991011E+02	-4.29269726461E+01	-1.68358264298E+02	-5.83402102336E+00	-6.15996678478E-01
1.32080231137E+06	-1.70669150532E+01	-1.56977075724E+02	6.15435025456E+00	1.75413191784E+02	-3.86800442215E+01	-1.60722232682E+02	-5.84674230366E+00	-9.43759707603E-01
1.34299366596E+06	-1.26719899947E+01	1.50368086045E+02	6.06221613961E+00	1.75217126934E+02	-4.74843067111E+01	-1.23944941829E+02	-5.86069004060E+00	-7.58057969805E-01
1.36518502056E+06	-1.68555836833E+01	1.74844310933E+02	6.12749404091E+00	1.75248283712E+02	-5.19469957846E+01	-1.59939868887E+02	-5.84442122454E+00	-6.89808131629E-01
1.38737637515E+06	-2.14780557133E+01	-1.50276641896E+02	6.11898229596E+00	1.75144415488E+02	-5.03105228822E+01	-1.65253120216E+02	-5.84332112446E+00	-6.99426504239E-01
1.40956772975E+06	-1.52979001886E+01	-1.58283437843E+02	6.12105418967E+00	1.74880105657E+02	-5.42284074505E+01	-3.54383854086E+01	-5.87498265598E+00	-5.98768136498E-01
1.43175908434E+06	-2.14316219502E+01	-1.50140345410E+02	6.12772150491E+00	1.74572563797E+02	-3.89988172460E+01	1.78905138439E+02	-5.82831827629E+00	-6.54333447989E-01
1.45395043894E+06	-1.66069452516E+01	-1.65016708298E+02	6.12539972151E+00	1.74396062755E+02	-4.46983437123E+01	-1.49783351757E+02	-5.83210558030E+00	-6.21628705578E-01
1.47614179353E+06	-1.36629946177E+01	1.64603156492E+02	6.05058759709E+00	1.74532047675E+02	-4.92424474031E+01	1.76104348179E+02	-5.85032921186E+00	-7.85358265049E-01
1.49833314813E+06	-1.60666605969E+01	1.72811875576E+02	6.07619041674E+00	1.74532202442E+02	-4.69418406170E+01	-7.23592355799E+01	-5.83689805184E+00	-7.49886011674E-01
1.52052450272E+06	-1.49738791303E+01	-1.68020989688E+02	6.12066073770E+00	1.74106815638E+02	-4.84583845904E+01	1.64540812933E+02	-5.85651021361E+00	-6.67969878912E-01
1.54271585732E+06	-2.17969052813E+01	-1.58262915201E+02	6.17845038468E+00	1.74436852930E+02	-4.58471946752E+01	6.65424452897E+01	-5.85333514693E+00	-8.10503130325E-01
1.56490721191E+06	-1.32489655417E+01	1.69862744765E+02	6.10208697988E+00	1.74129859321E+02	-4.65387663731E+01	9.04543803487E+01	-5.85614396920E+00	-8.05726815030E-01
1.58709856651E+06	-1.49105559790E+01	-1.78898022746E+02	6.12279001854E+00	1.74039452652E+02	-4.79157311637E+01	1.48514025207E+02	-5.83760661811E+00	-8.10988795735E-01
1.60928992110E+06	-1.66770271927E+01	1.52174882309E+02	6.12708681626E+00	1.74308447171E+02	-4.16378506369E+01	-1.27002542096E+02	-5.86400053776E+00	-7.41957913570E-01
1.63148127570E+06	-1.87430082528E+01	-1.56147870534E+02	6.13988778243E+00	1.73676449891E+02	-4.11695474345E+01	-4.50792514645E+01	-5.85954779546E+00	-9.00671801299E-01
1.65367263029E+06	-1.92130088190E+01	1.60241228397E+02	6.13165111913E+00	1.73889085238E+02	-4.93287384921E+01	1.19175995065E+01	-5.83594726981E+00	-9.22962088338E-01
1.67586398489E+06	-1.80272188851E+01	-1.70602963617E+02	6.11962440215E+00	1.73507643233E+02	-4.61237967906E+01	-1.67672674337E+02	-5.82197793031E+00	-8.14934558521E-01
1.69805533948E+06	-1.65588809910E+01	-1.68109317524E+02	6.09896632686E+00	1.73559749380E+02	-4.62761100889E+01	-1.06633061083E+02	-5.82254159764E+00	-7.06684167112E-01
1.72024669408E+06	-1.95007736000E+01	-1.69906977492E+02	6.13071121453E+00	1.73453830057E+02	-4.84353925182E+01	8.94578198113E+01	-5.85616363817E+00	-7.87598909097E-01
1.74243804867E+06	-1.96648868378E+01	-1.75995715916E+02	6.16748315103E+00	1.73374431897E+02	-6.20854006966E+01	-1.45416507970E+02	-5.82783575604E+00	-8.58756566655E-01
1.76462940327E+06	-1.41871840962E+01	1.33711297719E+02	6.08947819741E+00	1.73800781464E+02	-3.96295457917E+01	-5.77828955153E+01	-5.86242527593E+00	-7.84712928277E-01
1.78682075786E+06	-1.63527839808E+01	1.49045365014E+02	6.07980316263E+00	1.73351174527E+02	-3.12017598449E+01	-1.41880210699E+02	-5.83281088212E+00	-6.36706270535E-01
1.80901211246E+06	-1.13514015180E+01	-1.16402199074E+02	6.20682528649E+00	1.72854114296E+02	-4.98265706343E+01	-1.70818156001E+02	-5.84031619216E+00	-8.72453962816E-01
1.83120346705E+06	-1.96759610420E+01	1.72895478565E+02	6.13262051187E+00	1.72893776808E+02	-4.76110232762E+01	3.37868456500E+01	-5.84851190610E+00	-9.94168903424E-01
1.85339482165E+06	-1.50168093089E+01	1.62556558339E+02	6.11979607461E+00	1.72778270141E+02	-4.49139223031E+01	1.50124489686E+02	-5.84001406479E+00	-9.84686857793E-01
1.87558617624E+06	-1.59294196903E+01	1.75997295211E+02	6.10082952075E+00	1.73176128127E+02	-5.10124690790E+01	-8.67895927664E+01	-5.83868045331E+00	-8.79378292913E-01
1.89777753084E+06	-1.99779468483E+01	-1.29581230991E+02	6.14974399385E+00	1.72516891532E+02	-4.38266952240E+01	7.12673849222E+01	-5.85594473142E+00	-1.09925792549E+00
1.91996888543E+06	-1.48263207229E+01	1.52987821499E+02	6.07610280952E+00	1.72766630537E+02	-5.31779942530E+01	9.24629948384E+01	-5.84804864085E+00	-1.02362352111E+00
1.94216024003E+06	-1.76805703742E+01	1.65597479304E+02	6.09463056485E+00	1.72665735502E+02	-3.62333274660E+01	1.83397395343E+01	-5.84949066487E+00	-9.18315157608E-01
1.96435159462E+06	-1.80539247557E+01	1.13806773432E+02	6.10822180764E+00	1.72832037388E+02	-4.56862585390E+01	-9.49951730557E+01	-5.86496824868E+00	-9.42881554557E-01
1.98654294922E+06	-2.08232734042E+01	-1.73821612365E+02	6.16903509770E+00	1.72523509427E+02	-4.39722189957E+01	3.16562927239E+01	-5.86420384604E+00	-1.13904266956E+00
2.00873430381E+06	-1.69768693488E+01	-1.77897111987E+02	6.14858406878E+00	1.72123573870E+02	-5.54287407852E+01	-1.27863153487E+02	-5.82182161138E+00	-8.21651467086E-01
2.03092565841E+06	-2.14814467632E+01	1.72306540700E+02	6.10296752602E+00	1.72082315195E+02	-4.18698519467E+01	-7.32020055497E+01	-5.85455313090E+00	-8.68350850823E-01
2.05311701300E+06	-2.08695523586E+01	-1.68186410537E+02	6.15851652486E+00	1.72131776135E+02	-3.99404912019E+01	3.90459791016E+01	-5.86855065491E+00	-1.19667885261E+00
2.07530836760E+06	-1.43307222379E+01	-1.38879439554E+02	6.16007824339E+00	1.71383206740E+02	-4.06841163710E+01	-9.25095389229E+00	-5.84920097418E+00	-1.00785312678E+00
2.09749972219E+06	-1.57432443360E+01	-1.74295067487E+02	6.11694470202E+00	1.71566750855E+02	-3.14334125171E+01	1.06031863317E+02	-5.83101416376E+00	-1.03884333787E+00
2.11969107679E+06	-7.80122863730E+00	-8.61086203287E+01	6.29530291443E+00	1.71437477869E+02	-4.63523181652E+01	4.15758734657E+01	-5.84852996163E+00	-1.25203412336E+00
2.14188243138E+06	-1.42062047217E+01	-1.67779094083E+02	6.14907332810E+00	1.71350560379E+02	-4.51286198565E+01	-3.31177142025E+01	-5.85984970894E+00	-1.16357195872E+00
2.16407378598E+06	-1.47444163040E+01	1.67845774321E+02	6.12874912290E+00	1.71813304500E+02	-4.66644363466E+01	-1.73104549277E+02	-5.82713808494E+00	-9.76710119934E-01
2.18626514057E+06	-2.40856706675E+01	-1.51383891876E+02	6.18455720900E+00	1.71526591033E+02	-4.61648533252E+01	1.15391297260E+02	-5.82904069838E+00	-1.19894868275E+00
2.20845649517E+06	-1.36023574286E+01	1.51309913865E+02	6.04671069750E+00	1.71498925466E+02	-5.27534857408E+01	-1.35860232921E+01	-5.84689439770E+00	-1.18204951605E+00
2.23064784976E+06	-1.82162648995E+01	-1.69553457384E+02	6.11831526137E+00	1.71421198230E+02	-4.18420152875E+01	9.24740046051E+01	-5.84905407420E+00	-1.03504001806E+00
2.25283920436E+06	-1.64088259785E+01	1.69449717876E+02	6.10662353271E+00	1.71346495257E+02	-3.36840596983E+01	-1.34246860662E+02	-5.83303975089E+00	-1.03757437266E+00
2.27503055895E+06	-2.39497956305E+01	-1.19929686020E+01	6.19287659992E+00	1.71259515097E+02	-3.80163661793E+01	-2.65424516751E+01	-5.85847669233E+00	-1.09008080140E+00
2.29722191355E+06	-1.52062211144E+01	-1.03893522547E+02	6.21125316497E+00	1.70923432193E+02	-5.88611929833E+01	1.73492670494E+02	-5.83208532919E+00	-1.22555061917E+00
2.31941326814E+06	-1.76621239934E+01	1.76935830548E+02	6.13117237692E+00	1.70801773706E+02	-4.84194987551E+01	2.54510176226E+00	-5.85477541529E+00	-1.21864915607E+00
2.34160462274E+06	-1.44817199627E+01	1.61717022026E+02	6.11082212100E+00	1.70725476030E+02	-4.44598801210E+01	-3.83638250548E+01	-5.85832034844E+00	-1.17608057059E+00
2.36379597733E+06	-1.83416772170E+01	-1.62582247685E+02	6.15898783744E+00	1.70456761289E+02	-4.64026101743E+01	-1.39214969965E+02	-5.83923710891E+00	-1.14554807975E+00
2.38598733193E+06	-1.34741193557E+01	-1.75159137579E+02	6.11733078601E+00	1.70436042952E+02	-5.87797103966E+01	-1.60765514062E+02	-5.83509983993E+00	-1.12636265269E+00
2.40817868652E+06	-1.87010745333E+01	1.77843987887E+02	6.10010151042E+00	1.70515091273E+02	-3.21413053305E+01	1.06089526969E+02	-5.79779172241E+00	-1.31513775099E+00
2.43037004112E+06	-1.99914715586E+01	-1.23869916272E+02	6.14751964319E+00	1.70053740836E+02	-4.32131010527E+01	-1.76044413431E+02	-5.84205512441E+00	-1.57176015181E+00
2.45256139571E+06	-2.21710377697E+01	1.56357706459E+02	6.14567637609E+00	1.70367824259E+02	-5.24858767800E+01	2.01362290458E+01	-5.85555474290E+00	-1.17722807660E+00
2.47475275031E+06	-1.59288225872E+01	1.76163671439E+02	6.13494148655E+00	1.70298180977E+02	-4.56642230661E+01	-1.25037226692E+02	-5.85586696610E+00	-1.06056965634E+00
2.49694410490E+06	-2.05753853665E+01	-1.75038216263E+02	6.18927899635E+00	1.69996552319E+02	-4.88500659956E+01	-4.57479115769E+01	-5.84862765032E+00	-1.20082499759E+00
2.51913545950E+06	-2.17782647483E+01	-1.64998414445E+02	6.18148562770E+00	1.70130470586E+02	-4.85032254756E+01	-1.40497195171E+02	-5.83651094135E+00	-1.16668493484E+00
2.54132681409E+06	-1.73077784602E+01	1.70180875439E+02	6.14064901436E+00	1.69880829925E+02	-5.78514657492E+01	1.44821475890E+02	-5.85351759916E+00	-1.15187034803E+00
2.56351816869E+06	-1.97049873438E+01	1.59277060730E+02	6.14255401476E+00	1.69893992161E+02	-4.75522727346E+01	1.16480460224E+02	-5.80379192859E+00	-1.29092224161E+00
2.58570952328E+06	-1.37252004290E+01	-1.68440422112E+02	6.11072631161E+00	1.69436965606E+02	-4.44633229622E+01	1.24142457397E+02	-5.83668625342E+00	-1.24280041873E+00
2.60790087788E+06	-1.10481525633E+01	1.68080368326E+02	6.09526669048E+00	1.69483981577E+02	-4.19226489855E+01	-5.21742502782E+01	-5.86172416354E+00	-1.00681225489E+00
2.63009223247E+06	-2.05076178098E+01	-1.70268213162E+02	6.19339734967E+00	1.69839387484E+02	-5.36281806307E+01	-1.67089779051E+02	-5.84542337044E+00	-9.05898059753E-01
2.65228358707E+06	-1.48552250205E+01	-1.78358302681E+02	6.14829063038E+00	1.69414038407E+02	-4.66420456150E+01	-3.25006309892E+01	-5.86488410555E+00	-1.26877984345E+00
2.67447494166E+06	-1.84565079568E+01	-1.79677998526E+02	6.14762307406E+00	1.69314824580E+02	-4.57947726445E+01	-9.40774058451E+01	-5.84603088468E+00	-1.25206681259E+00
2.69666629626E+06	-1.86516305933E+01	-1.44420802178E+02	6.17708093736E+00	1.69270623344E+02	-3.70197197005E+01	4.65894273641E+01	-5.85114524346E+00	-1.60140693951E+00
2.71885765085E+06	-1.87411418425E+01	-1.76175392407E+02	6.16757644970E+00	1.69311648737E+02	-5.70685267959E+01	6.59084012623E+01	-5.85412713204E+00	-1.36894629027E+00
2.74104900545E+06	-1.69559100477E+01	-1.58475043887E+02	6.16151389230E+00	1.68879048735E+02	-4.24650096052E+01	-1.45830518915E+02	-5.84436694985E+00	-1.16540861791E+00
2.76324036004E+06	-2.02099678298E+01	1.26836381799E+02	6.18546265685E+00	1.69267739373E+02	-4.42877261161E+01	-1.07790943438E+02	-5.86299379441E+00	-1.37153744936E+00
2.78543171463E+06	-3.01513385666E+01	1.71070755065E+02	6.18882421975E+00	1.68928604473E+02	-4.43089440403E+01	4.40553635054E+01	-5.83192939880E+00	-1.39277561866E+00
2.80762306923E+06	-1.83547290199E+01	-1.59404708877E+02	6.16129202046E+00	1.68584310585E+02	-4.38996309047E+01	1.26527067953E+02	-5.83782333532E+00	-1.50785372757E+00
2.82981442382E+06	-1.54477909880E+01	1.76566944516E+02	6.11832093734E+00	1.68586260101E+02	-4.11477395797E+01	-1.46736401306E+00	-5.84972635582E+00	-1.51166584889E+00
2.85200577842E+06	-1.97654731938E+01	1.78518098024E+02	6.14617087841E+00	1.68488029119E+02	-4.68831868808E+01	4.01055401688E+01	-5.82534455722E+00	-1.53432350528E+00
2.87419713301E+06	-2.15763305692E+01	-1.74633593932E+02	6.21487158058E+00	1.68692708578E+02	-3.84115944680E+01	-2.55033384281E+00	-5.86815097531E+00	-1.46129044566E+00
