# Hz S DB R 50
! CMT, M5065, 19127446, 24.2.4/2
! Date: 11/8/2024 4:09:42 PM
! Data: Format (Calibration Info)
! Freq	S11:dB/Ang(F2)	S21:dB/Ang(F2)	S12:dB/Ang(F2)	S22:dB/Ang(F2)
3.00000000000E+05	-1.66279865535E+01	-1.76958277591E+02	1.37700698461E+01	-1.77056002943E+02	-4.16290331947E+01	-5.54854715293E+01	-5.85512304608E+00	-3.15293117228E-01
3.22191354595E+05	-1.69799026937E+01	-1.74425775231E+02	1.37319347381E+01	-1.77635148107E+02	-3.74530233872E+01	1.04046506536E+02	-5.85055679542E+00	-4.58969171752E-01
3.44382709190E+05	-1.93304667587E+01	-1.78284378018E+02	1.37519166167E+01	-1.78090886192E+02	-4.45649784751E+01	-6.78547591066E+01	-5.83409404273E+00	-2.41112466981E-01
3.66574063785E+05	-1.47279255349E+01	-1.66224558138E+02	1.37572146028E+01	-1.78353179311E+02	-4.88896026370E+01	-1.97082032657E+01	-5.87889380976E+00	-3.02099423654E-01
3.88765418380E+05	-1.45875819730E+01	-1.75409134319E+02	1.37304581644E+01	-1.79259259445E+02	-4.79160552760E+01	-1.26198940394E+02	-5.83500584992E+00	-1.50356709186E-01
4.10956772975E+05	-1.94470196614E+01	-1.50518406972E+02	1.37912746751E+01	-1.79265048267E+02	-4.78409720789E+01	-1.25663357633E+02	-5.82219057492E+00	-3.58652222975E-01
4.33148127570E+05	-1.42231466653E+01	1.73363927002E+02	1.37484149582E+01	-1.79443545660E+02	-6.20774775511E+01	-2.47228246805E+01	-5.83388633607E+00	-3.44283987143E-01
4.55339482165E+05	-1.33951431273E+01	1.77348198833E+02	1.37384626904E+01	-1.79750295377E+02	-4.84646459471E+01	8.43462566014E+00	-5.83575205255E+00	-2.08530781442E-01
4.77530836760E+05	-1.40124660434E+01	1.64750011244E+02	1.37436852291E+01	-1.79937331721E+02	-4.13789840461E+01	-9.14112164632E+01	-5.81759281997E+00	-1.57119372786E-01
4.99722191355E+05	-2.45810259304E+01	1.76903145762E+02	1.37992657381E+01	1.79701458689E+02	-5.09264014008E+01	-4.91882891865E+01	-5.85321012682E+00	-3.24035357883E-01
5.21913545950E+05	-1.84192438884E+01	1.78031154254E+02	1.37818714382E+01	1.79412262409E+02	-4.84108131217E+01	-9.94581222245E+01	-5.83785550735E+00	-1.99747595760E-01
5.44104900545E+05	-1.59167003098E+01	-1.62712204100E+02	1.37500928784E+01	1.79001984057E+02	-5.16654047789E+01	9.35332412367E+01	-5.84146815851E+00	-2.50140622609E-01
5.66296255139E+05	-1.72192854930E+01	-1.75045276730E+02	1.37749834778E+01	1.78934004569E+02	-4.58621790607E+01	-9.20112193235E+01	-5.83361857270E+00	-2.02285661822E-01
5.88487609734E+05	-1.84463668397E+01	1.51038269386E+02	1.37611497232E+01	1.78633797845E+02	-3.46745838326E+01	-1.41069248782E+02	-5.78755596901E+00	-2.99192761611E-01
6.10678964329E+05	-1.65584556434E+01	-1.70580757574E+02	1.37669318047E+01	1.78216528891E+02	-4.24852598140E+01	1.35686257807E+02	-5.80409229608E+00	-1.13258769126E-01
6.32870318924E+05	-2.27664110320E+01	1.67488092703E+02	1.37935381254E+01	1.78341363224E+02	-5.84725814694E+01	-1.15296818423E+02	-5.81953176804E+00	-3.07486354475E-01
6.55061673519E+05	-1.66051082232E+01	-1.76802301838E+02	1.37827354889E+01	1.77722054056E+02	-4.41391873571E+01	1.32099441365E+02	-5.80446454443E+00	-3.38817053586E-01
6.77253028114E+05	-2.50863705645E+01	1.70390408342E+02	1.38147586447E+01	1.77646917873E+02	-4.78534226202E+01	-1.62796697578E+02	-5.81140615466E+00	-6.11250533661E-01
6.99444382709E+05	-1.57859479334E+01	1.69459443962E+02	1.37534244915E+01	1.77607426339E+02	-3.82441800933E+01	2.63107822508E+01	-5.90165517601E+00	-4.61441473380E-01
7.21635737304E+05	-1.62393706847E+01	1.38141105225E+02	1.37726957660E+01	1.77581380287E+02	-4.54520348193E+01	-5.40468321805E+01	-5.84891584353E+00	-3.91880378212E-01
7.43827091899E+05	-1.16803383577E+01	1.76408282385E+02	1.37229083289E+01	1.77048000205E+02	-3.79704356134E+01	1.31932206895E+02	-5.80282567751E+00	-5.46349025508E-01
7.66018446494E+05	-1.24797976904E+01	-1.60522833516E+02	1.37303696649E+01	1.76797620913E+02	-5.20371570353E+01	8.08607455343E+00	-5.82745413235E+00	-5.17654334768E-01
7.88209801089E+05	-1.61341223262E+01	1.58381594730E+02	1.37598732108E+01	1.76738341815E+02	-3.99149770753E+01	-1.73197250477E+01	-5.87938221974E+00	-5.95540102685E-01
8.10401155684E+05	-1.53676204297E+01	1.66778301814E+02	1.37991688668E+01	1.76434496748E+02	-5.83372077509E+01	-8.03370324610E+01	-5.85753886995E+00	-2.59068413358E-01
8.32592510279E+05	-1.43971540333E+01	-1.47244336608E+02	1.37441889169E+01	1.75945953056E+02	-4.26055631314E+01	-6.71332841718E+01	-5.84926183283E+00	-3.46950103462E-01
8.54783864874E+05	-1.47172718868E+01	-1.46899067453E+02	1.37860067794E+01	1.75971562851E+02	-4.17242893445E+01	1.03457954236E+02	-5.82545241767E+00	-5.85302411484E-01
8.76975219469E+05	-2.17251179226E+01	1.74026706456E+02	1.37973303468E+01	1.75867428466E+02	-4.37535769753E+01	1.42426101931E+02	-5.81818910032E+00	-4.47113050852E-01
8.99166574064E+05	-1.60453107486E+01	-1.55328796984E+02	1.37892121331E+01	1.75574810475E+02	-4.14467080997E+01	-4.96087661349E+01	-5.84288189436E+00	-3.42684906253E-01
9.21357928659E+05	-1.96040841181E+01	1.60231537049E+02	1.37533130545E+01	1.75435234756E+02	-4.46802982908E+01	-2.87222546933E+01	-5.85299686952E+00	-5.32272650713E-01
9.43549283254E+05	-1.75279967909E+01	1.65988920333E+02	1.37625348281E+01	1.75334563267E+02	-4.36211830018E+01	-3.98080459577E+01	-5.86790865981E+00	-4.51851647507E-01
9.65740637849E+05	-1.55908667282E+01	1.72657809583E+02	1.37301684089E+01	1.75253637215E+02	-4.35716601556E+01	-6.61716979017E+00	-5.85535230183E+00	-5.90944810478E-01
9.87931992444E+05	-1.81073725181E+01	-1.70723936459E+02	1.37590928583E+01	1.74759810843E+02	-4.32154507345E+01	2.94162690799E+00	-5.84603790303E+00	-5.96055886969E-01
1.01012334704E+06	-1.77017107435E+01	-1.67802682062E+02	1.37733509694E+01	1.74866715790E+02	-4.74888494710E+01	5.73632628484E+01	-5.83992117061E+00	-7.09885693739E-01
1.03231470163E+06	-1.84264821821E+01	1.41632054883E+02	1.37723616258E+01	1.74896847615E+02	-5.16577056196E+01	1.12938200035E+02	-5.82996912553E+00	-6.98323611346E-01
1.05450605623E+06	-1.31137139326E+01	-1.54302758966E+02	1.37466286626E+01	1.74261649292E+02	-4.39805352596E+01	5.01895370436E+01	-5.83122624120E+00	-5.76125873596E-01
1.07669741082E+06	-2.00452430192E+01	-1.66151451755E+02	1.37306828975E+01	1.74962983695E+02	-4.39003080236E+01	-7.74624542222E+00	-5.83286585815E+00	-7.14862285643E-01
1.09888876542E+06	-1.78396429875E+01	1.55333287161E+02	1.37621088712E+01	1.74297917730E+02	-4.88339841521E+01	1.58005400482E+02	-5.84016549095E+00	-6.31422947255E-01
1.12108012001E+06	-1.44625034605E+01	-1.63957067862E+02	1.37422748411E+01	1.73758762871E+02	-5.08818480515E+01	-4.86461262467E+01	-5.86008381878E+00	-5.22465642354E-01
1.14327147461E+06	-1.87947347718E+01	1.78688398662E+02	1.37784139377E+01	1.73897626464E+02	-5.00564390472E+01	-1.41355342035E+02	-5.82439825209E+00	-4.85183858842E-01
1.16546282920E+06	-1.67260312746E+01	1.55094405615E+02	1.37696368765E+01	1.74033894755E+02	-3.85792160579E+01	1.07328410278E+02	-5.82524807082E+00	-9.25631245093E-01
1.18765418380E+06	-2.70663322260E+01	-1.32257142038E+02	1.38003216096E+01	1.73539689108E+02	-4.08113302997E+01	1.61324220154E+02	-5.81094793454E+00	-6.84585564381E-01
1.20984553839E+06	-1.40278811473E+01	-1.63657806007E+02	1.37584328602E+01	1.73238598545E+02	-3.46478356836E+01	-1.14851464172E+02	-5.84858025449E+00	-3.73347504214E-01
1.23203689299E+06	-1.91039011296E+01	-1.76777519197E+02	1.37563423859E+01	1.73103307169E+02	-5.49409098146E+01	1.50815801375E+02	-5.84565517192E+00	-3.75971576176E-01
1.25422824758E+06	-1.51366447310E+01	-1.76761355122E+02	1.37639908937E+01	1.73096072965E+02	-5.30835725245E+01	9.54852099141E+01	-5.82903032998E+00	-6.09518217029E-01
1.27641960218E+06	-2.04827338676E+01	1.66139234842E+02	1.37549852670E+01	1.72860221327E+02	-4.37166216318E+01	-5.72187109261E+01	-5.86309195056E+00	-5.12267123089E-01
1.29861095677E+06	-3.02754322952E+01	1.67635601276E+02	1.38061294045E+01	1.72721439317E+02	-6.52630818793E+01	-1.21182610468E+02	-5.84129341212E+00	-5.07062807856E-01
1.32080231137E+06	-2.40641903237E+01	-1.46744805602E+02	1.38140271809E+01	1.72468941856E+02	-4.12229129752E+01	-2.89560658659E+00	-5.86656564655E+00	-1.03849253730E+00
1.34299366596E+06	-1.68419561682E+01	-1.69251617443E+02	1.37677297298E+01	1.72390074329E+02	-3.72148948189E+01	1.65237972012E+02	-5.80568866990E+00	-7.67848370147E-01
1.36518502056E+06	-1.35431639375E+01	1.29929449113E+02	1.37325807192E+01	1.72492087528E+02	-4.93400705871E+01	-6.71906869918E+01	-5.83693270696E+00	-5.43973987760E-01
1.38737637515E+06	-2.68736192457E+01	1.61235673775E+02	1.37920679424E+01	1.72134635922E+02	-3.21099636827E+01	1.48148557748E+02	-5.77792495608E+00	-7.60723335224E-01
1.40956772975E+06	-1.71646410245E+01	-1.58196835482E+02	1.37663925589E+01	1.71736100599E+02	-4.57350480602E+01	6.12032910027E+01	-5.80625091273E+00	-9.31855355176E-01
1.43175908434E+06	-1.69816149507E+01	-1.54391379033E+02	1.37798757287E+01	1.71593053515E+02	-4.48706405773E+01	-3.26251873102E+01	-5.84755426483E+00	-6.39278382577E-01
1.45395043894E+06	-1.67557560850E+01	1.78594716568E+02	1.37676616625E+01	1.71495126120E+02	-4.43930660213E+01	-1.60940272337E+02	-5.82124702393E+00	-6.25511452856E-01
1.47614179353E+06	-1.66728089220E+01	1.75247243074E+02	1.37617580559E+01	1.71431636700E+02	-4.18776875479E+01	-7.03918431945E+01	-5.87655988927E+00	-6.86023193020E-01
1.49833314813E+06	-1.46271400541E+01	-1.32673446266E+02	1.37914998760E+01	1.70856746349E+02	-4.84375873703E+01	-1.40821611533E+02	-5.83239308847E+00	-6.64708553689E-01
1.52052450272E+06	-9.78586194538E+00	-1.65513073008E+02	1.37546783911E+01	1.70857687631E+02	-4.60034163000E+01	-1.09002257181E+02	-5.84231141798E+00	-6.65142558177E-01
1.54271585732E+06	-1.83963571692E+01	1.73566499275E+02	1.37753617026E+01	1.71066275546E+02	-4.49401487130E+01	1.61373633868E+02	-5.81133548187E+00	-7.63391711650E-01
1.56490721191E+06	-1.40823482881E+01	1.66205583779E+02	1.37255226586E+01	1.70827926991E+02	-5.00461867775E+01	-1.73886245185E+00	-5.85251784958E+00	-8.59630005324E-01
1.58709856651E+06	-2.36452262808E+01	1.70868975631E+02	1.37658161595E+01	1.70647530298E+02	-4.96182937340E+01	7.49571979555E+01	-5.84806566020E+00	-8.82532635895E-01
1.60928992110E+06	-1.84693530192E+01	-1.78084249225E+02	1.37892001463E+01	1.70610133718E+02	-4.61633949387E+01	1.56069968599E+02	-5.80739139064E+00	-5.63911471132E-01
1.63148127570E+06	-1.53858336296E+01	-1.77077576154E+02	1.37394300482E+01	1.70154513716E+02	-6.50498903964E+01	7.81691083949E+01	-5.84757365346E+00	-9.78151414399E-01
1.65367263029E+06	-1.78412671108E+01	-1.55192599818E+02	1.37710399015E+01	1.70148836096E+02	-4.29137876756E+01	5.10606515219E+01	-5.83649312777E+00	-9.39913566254E-01
1.67586398489E+06	-1.05123193747E+01	1.32613112418E+02	1.37186653504E+01	1.70154268339E+02	-4.13578937171E+01	7.01217153161E+01	-5.83407877516E+00	-1.01785174959E+00
1.69805533948E+06	-1.44776718912E+01	1.77273690359E+02	1.37557322160E+01	1.69975347424E+02	-6.00672442639E+01	1.75185935172E+02	-5.84469660625E+00	-7.65647868218E-01
1.72024669408E+06	-1.46028656877E+01	-1.74891195873E+02	1.37459605021E+01	1.69751828044E+02	-5.17402957676E+01	-1.57269303987E+02	-5.83644629938E+00	-8.10373307556E-01
1.74243804867E+06	-1.73137066271E+01	1.62884783182E+02	1.37394097499E+01	1.69845416229E+02	-4.17966960478E+01	1.49681902578E+02	-5.77647951690E+00	-6.74601962468E-01
1.76462940327E+06	-1.78769284229E+01	-1.60716477850E+02	1.37827983203E+01	1.69305981361E+02	-4.42218976591E+01	3.91512786044E+01	-5.83457654462E+00	-9.88093012528E-01
1.78682075786E+06	-2.26591056974E+01	-1.79596600470E+02	1.37895047824E+01	1.69391686851E+02	-4.64315813985E+01	-1.39163534093E+02	-5.84783187075E+00	-8.29431117393E-01
1.80901211246E+06	-1.40510811372E+01	1.63751851754E+02	1.37323618509E+01	1.69238847119E+02	-4.28797788673E+01	1.76155283221E+02	-5.80115360214E+00	-1.01132475069E+00
1.83120346705E+06	-1.33647697381E+01	1.79625697878E+02	1.37507744459E+01	1.68699718664E+02	-3.75397283713E+01	1.31875998839E+02	-5.78600272845E+00	-8.30784982395E-01
1.85339482165E+06	-1.41487186822E+01	1.31811887528E+02	1.37164797968E+01	1.69113733030E+02	-3.59190081409E+01	-1.34820005376E+02	-5.84441442381E+00	-7.48868749873E-01
1.87558617624E+06	-1.66625618041E+01	-1.11861251230E+02	1.38246656654E+01	1.68401988199E+02	-4.32154232068E+01	7.98604001194E+01	-5.83002203061E+00	-9.79254136249E-01
1.89777753084E+06	-1.44642261638E+01	-1.64396144827E+02	1.37185489187E+01	1.68361351123E+02	-4.27562834151E+01	1.32335980369E+02	-5.81691239031E+00	-1.11242028863E+00
1.91996888543E+06	-1.84138332744E+01	1.69120300065E+02	1.37580958281E+01	1.68504997471E+02	-4.42845999637E+01	2.82640999815E+01	-5.85687140303E+00	-1.10362710638E+00
1.94216024003E+06	-2.49056647623E+01	1.65590644969E+02	1.37983767920E+01	1.68252782784E+02	-5.26804006350E+01	6.72725444205E+01	-5.85128337552E+00	-1.00749039667E+00
1.96435159462E+06	-1.74207971849E+01	-1.57287113239E+02	1.37705590554E+01	1.67852820156E+02	-4.55954435227E+01	-1.64337708490E+02	-5.80128073031E+00	-7.17485671149E-01
1.98654294922E+06	-1.92118332604E+01	-1.23725205095E+02	1.38044377004E+01	1.67896413996E+02	-3.84482364407E+01	-1.04953287292E+02	-5.85075454156E+00	-6.31081688776E-01
2.00873430381E+06	-1.38799302447E+01	-7.79237289854E+01	1.38693042651E+01	1.67687258887E+02	-3.10003771696E+01	-2.69635180816E+01	-5.92235294457E+00	-1.04186971688E+00
2.03092565841E+06	-1.61986857039E+01	1.73253211487E+02	1.37395775289E+01	1.67568307123E+02	-4.50034095862E+01	-5.37640873813E+01	-5.86156588770E+00	-9.58052725519E-01
2.05311701300E+06	-1.75564937855E+01	1.70125054030E+02	1.37486469796E+01	1.67520033558E+02	-5.07598464328E+01	-6.80434249247E+01	-5.85510913565E+00	-1.07295033827E+00
2.07530836760E+06	-1.53093428700E+01	-1.65890148883E+02	1.37334506499E+01	1.67180726105E+02	-5.01043129922E+01	-5.15654450253E+01	-5.84377001848E+00	-1.01467492615E+00
2.09749972219E+06	-2.04085496800E+01	1.66118744072E+02	1.37683653771E+01	1.67272461209E+02	-5.66532611058E+01	1.75681533968E+02	-5.84335672015E+00	-1.13551120692E+00
2.11969107679E+06	-1.47608525453E+01	-1.64012197028E+02	1.37383057444E+01	1.66786058349E+02	-4.49531275686E+01	3.62199139456E+01	-5.85218606528E+00	-1.13034714532E+00
2.14188243138E+06	-2.03902497209E+01	-1.24263404395E+02	1.38164219887E+01	1.66891100292E+02	-4.01155040201E+01	7.86171133343E+01	-5.81774334870E+00	-1.40948065479E+00
2.16407378598E+06	-1.20838744915E+01	1.61943326348E+02	1.37273354346E+01	1.66560333524E+02	-3.35903113379E+01	6.74565660653E+01	-5.83175628873E+00	-1.39226475716E+00
2.18626514057E+06	-3.02413865316E+01	1.67051211132E+02	1.38079747210E+01	1.66758604181E+02	-6.05883153781E+01	-1.78514295760E+02	-5.81898333491E+00	-1.00758324511E+00
2.20845649517E+06	-1.47210260063E+01	-1.56121877034E+02	1.37445408554E+01	1.66184618617E+02	-4.03901967267E+01	-8.51507497442E+00	-5.86820709895E+00	-1.11083288894E+00
2.23064784976E+06	-2.04211311527E+01	1.65309235014E+02	1.37836529774E+01	1.66407246752E+02	-4.93457541858E+01	-1.02554865206E+02	-5.83469152292E+00	-9.75327546147E-01
2.25283920436E+06	-1.59966333932E+01	-1.66747118501E+02	1.37445461279E+01	1.66094011692E+02	-5.93196807709E+01	5.41695197703E+01	-5.82281999828E+00	-1.03905248891E+00
2.27503055895E+06	-1.61591785714E+01	-1.79888296713E+02	1.37642841127E+01	1.65788209484E+02	-4.02574938640E+01	-6.59817937616E+01	-5.87047908760E+00	-8.64952566142E-01
2.29722191355E+06	-1.34340946501E+01	1.75909597097E+02	1.37426481744E+01	1.65838808879E+02	-5.06233588196E+01	1.24573020653E+02	-5.82974072929E+00	-1.14535376427E+00
2.31941326814E+06	-2.05946360419E+01	1.73735547302E+02	1.37563186860E+01	1.65606412144E+02	-3.43018709891E+01	-2.92267108847E+01	-5.85237302999E+00	-1.33493947830E+00
2.34160462274E+06	-1.67100413063E+01	-1.77333625525E+02	1.37607039433E+01	1.65549286605E+02	-5.44323939782E+01	-6.68865678836E+00	-5.83195392401E+00	-1.07698884744E+00
2.36379597733E+06	-1.61280074454E+01	-1.44364983518E+02	1.37956842544E+01	1.65264057815E+02	-3.97120679238E+01	4.96844618484E+01	-5.83990929415E+00	-1.47378539303E+00
2.38598733193E+06	-1.57725205156E+01	1.67194754806E+02	1.37402274315E+01	1.65282788540E+02	-4.19484679584E+01	-1.38566094290E+02	-5.82125092305E+00	-9.92376032781E-01
2.40817868652E+06	-1.71215994679E+01	1.76745610266E+02	1.37496460585E+01	1.65228433839E+02	-4.34297646927E+01	9.00414613910E+01	-5.83094100111E+00	-1.52999054846E+00
2.43037004112E+06	-1.75421130996E+01	-1.77074052375E+02	1.37742035628E+01	1.64917145181E+02	-4.42772443698E+01	7.67139514740E+01	-5.82355634854E+00	-1.75338503333E+00
2.45256139571E+06	-1.36339998784E+01	1.57815825478E+02	1.37336059356E+01	1.64633203119E+02	-3.97161435852E+01	-1.69131197991E+02	-5.82944584681E+00	-9.11999474517E-01
2.47475275031E+06	-7.02904380568E+00	-1.28222833423E+02	1.38382322087E+01	1.63857248127E+02	-4.07007109941E+01	-4.48328025156E+01	-5.85769743366E+00	-1.35133393326E+00
2.49694410490E+06	-1.55642276885E+01	-1.75440667245E+02	1.37614898636E+01	1.64262988866E+02	-4.76494672484E+01	-4.05114158765E+00	-5.85605906844E+00	-1.23648627179E+00
2.51913545950E+06	-1.58191789900E+01	1.57528389227E+02	1.37468104205E+01	1.64448427718E+02	-5.35122639240E+01	-7.25441825808E+00	-5.83080955663E+00	-1.28414275195E+00
2.54132681409E+06	-1.62867160357E+01	-1.58811391198E+02	1.37817157860E+01	1.64020968186E+02	-5.43267322034E+01	-1.71293116227E+02	-5.82710330107E+00	-1.34480725208E+00
2.56351816869E+06	-1.83275207531E+01	1.64168195931E+02	1.37522429326E+01	1.64172312151E+02	-4.47986367255E+01	4.36792035866E+01	-5.84912996611E+00	-1.52392071997E+00
2.58570952328E+06	-1.88685976238E+01	-1.79122999362E+02	1.37403576904E+01	1.63972648629E+02	-4.54693373921E+01	1.72815632384E+02	-5.82781912586E+00	-1.14687177186E+00
2.60790087788E+06	-1.51260316117E+01	1.57743587392E+02	1.37614814448E+01	1.63843878415E+02	-5.68021167683E+01	1.27695362615E+02	-5.85403123005E+00	-1.26681691384E+00
2.63009223247E+06	-2.46761081899E+01	1.98252686871E+01	1.38140587971E+01	1.64056919074E+02	-4.04254701916E+01	5.80543018604E+01	-5.83705946080E+00	-1.06193986077E+00
2.65228358707E+06	-1.88564871819E+01	1.72471617198E+02	1.37756270802E+01	1.63464500246E+02	-4.52888628480E+01	6.30549522848E+01	-5.84337983051E+00	-1.54220358753E+00
2.67447494166E+06	-1.69443224028E+01	-1.48428247558E+02	1.37873119454E+01	1.63105169489E+02	-4.17987565034E+01	-6.26831892256E+01	-5.84013081002E+00	-1.21872884132E+00
2.69666629626E+06	-2.19769277392E+01	-1.23672226353E+02	1.38319996977E+01	1.63204600828E+02	-5.01308837592E+01	-1.24306130148E+02	-5.84212515976E+00	-1.34840257167E+00
2.71885765085E+06	-1.90283664461E+01	-1.58533674878E+02	1.37961612144E+01	1.62902950202E+02	-4.61455499868E+01	-7.42019052336E+01	-5.84866622280E+00	-1.38252270250E+00
2.74104900545E+06	-1.94324336314E+01	-1.68591137796E+02	1.37920744629E+01	1.62788279604E+02	-6.55336780775E+01	-1.11869996594E+02	-5.84088870042E+00	-1.32222795130E+00
2.76324036004E+06	-1.36652386078E+01	-1.53500640569E+02	1.38056307652E+01	1.62466813018E+02	-5.68546721017E+01	-1.22466743939E+02	-5.81851462039E+00	-1.29072439206E+00
2.78543171463E+06	-2.25124533474E+01	1.26653808947E+02	1.37881254944E+01	1.62799215438E+02	-4.15934011887E+01	1.64942030230E+02	-5.80410522137E+00	-1.40042720643E+00
2.80762306923E+06	-1.57296618613E+01	1.74809431915E+02	1.37741577581E+01	1.62464214194E+02	-3.99777335518E+01	-6.85867294476E+01	-5.85269623042E+00	-1.21628129174E+00
2.82981442382E+06	-1.94608765001E+01	1.57152293034E+02	1.37909311080E+01	1.62507462062E+02	-4.49884558197E+01	1.68089707334E+02	-5.81385191482E+00	-1.34071233323E+00
2.85200577842E+06	-1.49783858211E+01	1.72840878205E+02	1.37514949255E+01	1.62059726039E+02	-5.02593604822E+01	-8.09252509501E+01	-5.84244584114E+00	-1.22957325077E+00
2.87419713301E+06	-1.55109811910E+01	1.75531677453E+02	1.37428423453E+01	1.61986686072E+02	-4.67070547477E+01	-1.61408524013E+02	-5.82284798982E+00	-1.38322274870E+00
