# Hz S DB R 50
! CMT, M5065, 19127446, 24.2.4/2
! Date: 11/8/2024 4:05:49 PM
! Data: Format (Calibration Info)
! Freq	S11:dB/Ang(F2)	S21:dB/Ang(F2)	S12:dB/Ang(F2)	S22:dB/Ang(F2)
3.00000000000E+05	-2.17129047153E+01	2.56437364739E+01	1.17691974836E+01	-1.77165935306E+02	-4.36980899910E+01	2.29647606040E+01	-5.84408035578E+00	-4.80900753988E-01
3.22191354595E+05	-2.25920765264E+01	-1.59016562060E+02	1.17645884839E+01	-1.77842452224E+02	-5.40048558727E+01	2.52787193197E+01	-5.84664073904E+00	-2.09367716468E-01
3.44382709190E+05	-1.85521207771E+01	1.74323198866E+02	1.17517928261E+01	-1.78024894847E+02	-4.51712688446E+01	2.23521308462E+01	-5.85881447051E+00	-4.54004929669E-01
3.66574063785E+05	-1.55786352754E+01	-1.75284488449E+02	1.17062552983E+01	-1.78627889722E+02	-3.92623037647E+01	-8.13020010468E+00	-5.86775716822E+00	-2.15866398531E-01
3.88765418380E+05	-1.88459246293E+01	1.79671887568E+02	1.16356359663E+01	-1.79007408739E+02	-4.49024598294E+01	-1.39633002315E+02	-5.81370457495E+00	-1.70021039986E-01
4.10956772975E+05	-1.59200097520E+01	1.65477863636E+02	1.17081683172E+01	-1.79056100310E+02	-4.03619172538E+01	9.75118328349E+01	-5.85348258383E+00	-5.07692881870E-01
4.33148127570E+05	-1.99432431944E+01	-1.77087104636E+02	1.17527121475E+01	-1.79441037913E+02	-4.22848515819E+01	1.23306080879E+02	-5.83342217896E+00	-4.45973527817E-01
4.55339482165E+05	-3.27065689207E+01	-1.57099688709E+02	1.17725152767E+01	-1.79719467340E+02	-3.54421696804E+01	2.44772355289E+01	-5.83339892926E+00	-4.50101992726E-01
4.77530836760E+05	-2.21239156284E+01	1.48217054084E+02	1.17527199738E+01	-1.79987198854E+02	-4.69622058904E+01	1.24947729038E+02	-5.81541702263E+00	-4.88818659403E-01
4.99722191355E+05	-1.68537814666E+01	1.78298060752E+02	1.17117338169E+01	1.79728236994E+02	-4.21116098560E+01	-9.99740302723E+01	-5.83402086204E+00	-2.33820569119E-01
5.21913545950E+05	-1.62862400800E+01	-1.59763398192E+02	1.17508734871E+01	1.79348610437E+02	-4.43256890161E+01	1.46269231760E+01	-5.83340709517E+00	-4.26151965402E-01
5.44104900545E+05	-1.60727069890E+01	-1.68159538905E+02	1.17468277875E+01	1.79184197145E+02	-4.19953508246E+01	-1.30721687421E+02	-5.82653742399E+00	-3.38703373354E-01
5.66296255139E+05	-1.35567449285E+01	1.68682066147E+02	1.17255531910E+01	1.79287219756E+02	-4.41097767196E+01	-4.31059352957E+01	-5.87054384836E+00	-3.70247936933E-01
5.88487609734E+05	-1.88593953972E+01	-1.36609440745E+02	1.17691852839E+01	1.78719702623E+02	-4.50559084772E+01	-5.19196669635E+01	-5.83325687009E+00	-2.82382555630E-01
6.10678964329E+05	-1.51513109045E+01	1.78798766472E+02	1.17196015828E+01	1.78719756263E+02	-3.56736674518E+01	1.26811323354E+02	-5.80342654371E+00	-2.18039429984E-01
6.32870318924E+05	-1.84538701725E+01	1.68791164537E+02	1.17557978666E+01	1.78687598212E+02	-4.04838041736E+01	-5.40978261028E+01	-5.84206380365E+00	2.97593823500E-03
6.55061673519E+05	-1.43484225042E+01	1.69145553997E+02	1.17246777427E+01	1.78156239940E+02	-5.45121822587E+01	1.48277829392E+02	-5.82992684561E+00	-4.20732382236E-01
6.77253028114E+05	-1.67007207531E+01	-1.68259773414E+02	1.17533871369E+01	1.77914390633E+02	-4.67138435657E+01	-1.19648819925E+02	-5.82115762257E+00	-6.65366404570E-01
6.99444382709E+05	-1.51462161988E+01	-1.76023088246E+02	1.17365224315E+01	1.77873856850E+02	-4.00129378836E+01	-8.62493597514E+01	-5.83746878498E+00	-1.31047207205E-01
7.21635737304E+05	-1.80814789068E+01	-1.62230027716E+02	1.17542493278E+01	1.77713473078E+02	-4.48508925588E+01	1.01441998292E+01	-5.83500456628E+00	-5.36485735064E-01
7.43827091899E+05	-1.80330466266E+01	-1.68281968689E+02	1.17622735191E+01	1.77160544087E+02	-4.39077329743E+01	-1.19232630943E+01	-5.84264899588E+00	-5.06003783068E-01
7.66018446494E+05	-1.07501994517E+01	1.77408138523E+02	1.17058323664E+01	1.77331256215E+02	-4.91445414314E+01	-8.96872121192E+01	-5.81883116249E+00	-4.97100870510E-01
7.88209801089E+05	-1.90869093992E+01	-1.64655472437E+02	1.17354609259E+01	1.77110042217E+02	-4.40784449405E+01	9.51484718787E+01	-5.82331890617E+00	-5.45309794162E-01
8.10401155684E+05	-1.33311795806E+01	-1.48903899634E+02	1.17487560783E+01	1.76629914576E+02	-4.53414027281E+01	1.16509384592E+02	-5.81810821501E+00	-5.97648976039E-01
8.32592510279E+05	-1.59807413175E+01	1.54164716649E+02	1.17492719494E+01	1.77029030057E+02	-4.19119665208E+01	-1.53765449294E+02	-5.81219395855E+00	-3.40425481065E-01
8.54783864874E+05	-1.95784328972E+01	-1.76776976141E+02	1.17415421284E+01	1.76544680413E+02	-4.62817675007E+01	1.51061341621E+01	-5.84647602698E+00	-4.99018898603E-01
8.76975219469E+05	-1.56682198269E+01	-1.72312937616E+02	1.17502433034E+01	1.76501506009E+02	-4.76924767460E+01	1.47201027345E+02	-5.82271987017E+00	-3.80369938251E-01
8.99166574064E+05	-2.00505336044E+01	-1.77887673262E+02	1.17676763581E+01	1.76357856628E+02	-4.09757231410E+01	-2.74140373605E+01	-5.84978071503E+00	-4.90674574099E-01
9.21357928659E+05	-1.24568774517E+01	-1.79979936717E+02	1.17363770465E+01	1.76053874425E+02	-3.80092127819E+01	-8.40119155872E+01	-5.86852535414E+00	-4.45487859942E-01
9.43549283254E+05	-1.86318325630E+01	1.44567035480E+02	1.17542003209E+01	1.76028815313E+02	-4.26179314640E+01	1.38254897337E+02	-5.81810293923E+00	-4.74566626965E-01
9.65740637849E+05	-1.84692144440E+01	-1.67743558847E+02	1.17337882548E+01	1.75843572772E+02	-4.36211742781E+01	2.44259922308E+01	-5.86373349197E+00	-5.18382447222E-01
9.87931992444E+05	-1.88783918569E+01	1.61229621922E+02	1.17555060103E+01	1.75690842778E+02	-4.85283046923E+01	1.33355933733E+02	-5.83037197789E+00	-5.33219634318E-01
1.01012334704E+06	-2.12152878766E+01	-1.60192188076E+02	1.17618690431E+01	1.75538187603E+02	-5.20632137620E+01	4.12647622793E-01	-5.83927919489E+00	-5.39482456261E-01
1.03231470163E+06	-1.55819647204E+01	-1.77903355076E+02	1.17484551149E+01	1.75344191745E+02	-4.27213467865E+01	-1.63937694937E+02	-5.80203148407E+00	-5.59172686775E-01
1.05450605623E+06	-1.84602819110E+01	1.68700035658E+02	1.17338435826E+01	1.75396942830E+02	-5.22198345348E+01	1.63667309981E+02	-5.82493532976E+00	-7.71048265705E-01
1.07669741082E+06	-1.59085418794E+01	-1.58867132803E+02	1.18089088990E+01	1.74977768069E+02	-3.73581248911E+01	1.37964292280E+01	-5.84528055150E+00	-7.95280646476E-01
1.09888876542E+06	-1.97270925551E+01	1.45872253639E+02	1.17588210875E+01	1.74988678933E+02	-5.20522389559E+01	1.56134810013E+02	-5.83703948135E+00	-5.05634182265E-01
1.12108012001E+06	-1.99170798964E+01	-1.60020627706E+02	1.17554679111E+01	1.74801272696E+02	-4.33476498171E+01	-9.20917327515E+01	-5.85852021959E+00	-4.71068149678E-01
1.14327147461E+06	-2.23734911908E+01	1.50433614189E+02	1.17706782652E+01	1.74945618284E+02	-4.76680024566E+01	1.33840544516E+02	-5.83509456884E+00	-6.39419991479E-01
1.16546282920E+06	-1.43354284735E+01	-1.62753313809E+02	1.17290573372E+01	1.74345874059E+02	-4.83737529192E+01	1.38317778877E+02	-5.80786897035E+00	-6.92797997141E-01
1.18765418380E+06	-1.73182124068E+01	-1.59345286185E+02	1.17763606807E+01	1.74398005921E+02	-6.42966419646E+01	-5.48093501645E+01	-5.83404963402E+00	-6.74977804946E-01
1.20984553839E+06	-1.82040041913E+01	-1.56522057081E+02	1.17558263068E+01	1.73973849144E+02	-4.01369018178E+01	9.22666486319E+01	-5.80856939063E+00	-1.08134882469E+00
1.23203689299E+06	-1.63387980628E+01	-1.79573792225E+02	1.17262407173E+01	1.74016640804E+02	-3.82767171765E+01	2.75147688194E+01	-5.86076533492E+00	-4.69414391735E-01
1.25422824758E+06	-1.34563320221E+01	1.52605397049E+02	1.17244564705E+01	1.74119855114E+02	-3.94915517596E+01	5.49178223719E+01	-5.87050308387E+00	-1.00889123291E+00
1.27641960218E+06	-1.50036103184E+01	1.70839890417E+02	1.17153206827E+01	1.73933341401E+02	-5.10111916585E+01	-3.67631806388E+01	-5.84610551649E+00	-6.68319935798E-01
1.29861095677E+06	-2.53263479909E+01	-1.78898398937E+02	1.17840057059E+01	1.73956676296E+02	-6.00257754678E+01	-1.23963619916E+02	-5.84473711910E+00	-7.77039388349E-01
1.32080231137E+06	-1.57875630329E+01	-1.72985378116E+02	1.17486767910E+01	1.73286262094E+02	-4.57620782368E+01	-5.50968304149E+01	-5.84061102519E+00	-8.41156781096E-01
1.34299366596E+06	-1.55205101867E+01	1.48346896884E+02	1.17380404179E+01	1.73538956821E+02	-4.94461209445E+01	-3.08585375587E+01	-5.84893266843E+00	-8.40580291916E-01
1.36518502056E+06	-1.97444664077E+01	1.78228056081E+02	1.17721426483E+01	1.73283992953E+02	-3.84598415562E+01	-3.49941058788E+01	-5.89316163893E+00	-5.60610762632E-01
1.38737637515E+06	-1.70526001689E+01	-1.63805398169E+02	1.17470192124E+01	1.72907944496E+02	-3.76990396785E+01	-1.59050775090E+01	-5.85868535421E+00	-6.57776555351E-01
1.40956772975E+06	-1.57914389946E+01	4.55986759597E+01	1.17594203997E+01	1.73572118854E+02	-4.13891299832E+01	5.19708142653E+01	-5.82361411445E+00	-1.10260934439E+00
1.43175908434E+06	-1.75349424596E+01	1.79181012130E+02	1.17343126141E+01	1.72801049989E+02	-4.31469831529E+01	-2.26041695376E+01	-5.85775228297E+00	-6.10543248731E-01
1.45395043894E+06	-2.06919925339E+01	1.56127599067E+02	1.17672371494E+01	1.72835479648E+02	-4.47305979219E+01	-1.07006205126E+01	-5.85485308613E+00	-6.86586151893E-01
1.47614179353E+06	-1.57404898189E+01	1.62812648028E+02	1.17369937834E+01	1.72551100431E+02	-4.05221145455E+01	-1.70245549045E+02	-5.82684683212E+00	-7.05479114175E-01
1.49833314813E+06	-1.81404887147E+01	1.76368555137E+02	1.17581970019E+01	1.72323146653E+02	-5.02867314494E+01	-8.62064158583E+00	-5.84291978573E+00	-8.24674111231E-01
1.52052450272E+06	-1.69709299155E+01	1.60798139518E+02	1.17557849989E+01	1.72340436955E+02	-4.48509865664E+01	3.09474194274E+01	-5.84377788803E+00	-8.64085131958E-01
1.54271585732E+06	-2.12063287501E+01	1.18226294480E+02	1.17737539882E+01	1.72326099143E+02	-4.52807908427E+01	-4.38925607158E+01	-5.85734951181E+00	-7.97945136984E-01
1.56490721191E+06	-1.60105938879E+01	-1.05656344008E+02	1.18154921804E+01	1.71961718128E+02	-3.97174316544E+01	-9.74318839543E+01	-5.86143554978E+00	-4.99283582774E-01
1.58709856651E+06	-1.75878275676E+01	1.62456599553E+02	1.17556617526E+01	1.72030938108E+02	-4.22681893788E+01	-1.03813345691E+02	-5.85374695422E+00	-6.08997062619E-01
1.60928992110E+06	-2.09512817659E+01	-1.49642872051E+02	1.17588279642E+01	1.71899471916E+02	-4.99293480619E+01	-1.41725074705E+02	-5.81240441213E+00	-7.74600318697E-01
1.63148127570E+06	-1.79897495502E+01	1.65848776468E+02	1.17502698801E+01	1.71658466881E+02	-4.04037012218E+01	-1.41139247562E+02	-5.80969976532E+00	-5.35549232502E-01
1.65367263029E+06	-1.57414022690E+01	1.71535473438E+02	1.17343164790E+01	1.71566757464E+02	-5.42687065605E+01	9.85271688626E+01	-5.84759806292E+00	-8.62551690130E-01
1.67586398489E+06	-1.64480870326E+01	-1.79232521866E+02	1.17630641077E+01	1.71192127203E+02	-4.55849776958E+01	1.49168827283E+02	-5.84087138503E+00	-9.48379152217E-01
1.69805533948E+06	-2.04222343172E+01	1.52480335784E+02	1.17015125533E+01	1.71462852524E+02	-3.39751714435E+01	-6.21363634386E+01	-5.86559164176E+00	-7.01694258026E-01
1.72024669408E+06	-1.84135482653E+01	-1.27004518915E+02	1.17982668472E+01	1.71046717074E+02	-4.47657585623E+01	1.11245594655E+02	-5.82459846933E+00	-8.95585687711E-01
1.74243804867E+06	-1.86936312346E+01	1.74085657503E+02	1.17457457099E+01	1.71157813654E+02	-4.88212921156E+01	1.40591749825E+02	-5.85012456376E+00	-8.22660479325E-01
1.76462940327E+06	-1.97232301691E+01	1.79670354726E+02	1.17450329941E+01	1.70889415529E+02	-5.22222664424E+01	6.70243784983E+01	-5.84763885535E+00	-9.59427073791E-01
1.78682075786E+06	-1.55838777589E+01	-1.79841549999E+02	1.17367414624E+01	1.70598969893E+02	-4.38928855740E+01	3.73409136766E+01	-5.86474510511E+00	-9.85781773852E-01
1.80901211246E+06	-1.96139253235E+01	-1.79650873966E+02	1.17515943343E+01	1.70488735477E+02	-4.74756405837E+01	-1.30535386929E+02	-5.83329697383E+00	-8.75428035433E-01
1.83120346705E+06	-1.70341997233E+01	1.64080006878E+02	1.17580329549E+01	1.70622320588E+02	-4.44102736047E+01	-9.82297858345E+01	-5.84385870804E+00	-8.13422290125E-01
1.85339482165E+06	-1.68642866404E+01	-1.67263298986E+02	1.17521121445E+01	1.70101296838E+02	-3.54972677118E+01	1.45565810483E+02	-5.78778778911E+00	-8.19664306995E-01
1.87558617624E+06	-1.27598298711E+01	1.79027379548E+02	1.17257259105E+01	1.70034925323E+02	-4.89660194346E+01	4.64158572537E+01	-5.84320942205E+00	-1.04045331848E+00
1.89777753084E+06	-1.31782072297E+01	1.47905605504E+02	1.17113528607E+01	1.70090536740E+02	-4.19559967579E+01	-2.65161344079E+01	-5.86597509664E+00	-8.40940843665E-01
1.91996888543E+06	-1.89077332992E+01	1.57051493029E+02	1.17653341457E+01	1.70054129542E+02	-4.78593489332E+01	5.95701560706E+01	-5.83248407241E+00	-1.02846168419E+00
1.94216024003E+06	-1.88036572123E+01	-1.74111489446E+02	1.17625636862E+01	1.69556748362E+02	-5.35605954074E+01	8.35335576748E+01	-5.84908335352E+00	-1.02095550388E+00
1.96435159462E+06	-1.85413690984E+01	-1.45984320872E+02	1.17974915459E+01	1.69497352642E+02	-4.36732379292E+01	-1.08221054557E+02	-5.82474214885E+00	-8.02037876186E-01
1.98654294922E+06	-1.33637048344E+01	-1.78790005476E+02	1.17314866117E+01	1.69456672874E+02	-4.75714362815E+01	-1.24387529981E+02	-5.83007293905E+00	-8.95815452896E-01
2.00873430381E+06	-1.74323789507E+01	-1.47327041202E+02	1.17734779614E+01	1.69117074345E+02	-3.64364787829E+01	-1.56537982137E+02	-5.81008928845E+00	-8.87633711460E-01
2.03092565841E+06	-1.44667261750E+01	-1.35890663401E+02	1.17627964125E+01	1.68959591391E+02	-4.16184978377E+01	-5.42931770343E+01	-5.84708825964E+00	-9.26196908794E-01
2.05311701300E+06	-1.98899899658E+01	-1.51838243539E+02	1.17648074460E+01	1.69045355765E+02	-5.13630191228E+01	-8.78147438463E+01	-5.85690130706E+00	-9.97160874649E-01
2.07530836760E+06	-1.78366386998E+01	1.47896955373E+02	1.17365871220E+01	1.69075455671E+02	-4.63887015304E+01	-4.43110534376E+01	-5.83696162867E+00	-8.79905518656E-01
2.09749972219E+06	-1.33415421063E+01	1.60664001917E+02	1.17358055776E+01	1.69109673372E+02	-5.06263605986E+01	-1.37086130589E+02	-5.82600550223E+00	-1.01090050080E+00
2.11969107679E+06	-2.11314080077E+01	-1.46471578697E+02	1.17614860138E+01	1.68754996951E+02	-5.54172879168E+01	1.87012622160E+01	-5.84983919829E+00	-1.01365623866E+00
2.14188243138E+06	-1.53741735890E+01	-1.75543537970E+02	1.17597870771E+01	1.68639779458E+02	-4.46592097727E+01	4.79575513054E+00	-5.84014090282E+00	-1.20829721317E+00
2.16407378598E+06	-1.73328289411E+01	-1.45737683303E+02	1.17578583168E+01	1.68206202200E+02	-4.12846380470E+01	-4.77817747373E+01	-5.84029161207E+00	-1.12241484891E+00
2.18626514057E+06	-2.22189803022E+01	-1.71498393856E+02	1.17648541667E+01	1.68275153904E+02	-4.42762219836E+01	6.14611129992E+01	-5.82125131420E+00	-1.17935792803E+00
2.20845649517E+06	-1.59440584197E+01	1.69430189539E+02	1.17391427627E+01	1.68171448068E+02	-4.26600156690E+01	-5.68309155939E+01	-5.83719610111E+00	-9.49254148769E-01
2.23064784976E+06	-2.02121377981E+01	1.75759563409E+02	1.17748382715E+01	1.68103803987E+02	-5.07955118431E+01	-1.56590527283E+02	-5.84301359267E+00	-9.80494882071E-01
2.25283920436E+06	-1.73436863015E+01	-1.77573528366E+02	1.17740517415E+01	1.67838066718E+02	-5.72756651539E+01	2.46801314961E+01	-5.86136252437E+00	-1.24330857978E+00
2.27503055895E+06	-1.54778277416E+01	-1.62997404199E+02	1.17607538247E+01	1.67601163543E+02	-4.22327886937E+01	1.22650504140E+02	-5.81051227394E+00	-1.21128333897E+00
2.29722191355E+06	-1.54686195504E+01	1.74043158146E+02	1.17501041176E+01	1.67609436585E+02	-4.01598514446E+01	-1.61894214424E+02	-5.79771893685E+00	-1.01339540280E+00
2.31941326814E+06	-1.65714052136E+01	-1.79680988080E+02	1.17388850262E+01	1.67349080910E+02	-4.12087450098E+01	-1.41683228922E+02	-5.82825369364E+00	-9.49705406292E-01
2.34160462274E+06	-1.50943306317E+01	-5.71957155410E+01	1.18459411566E+01	1.67715507703E+02	-3.40480770189E+01	-9.11586907881E+01	-5.86451398117E+00	-8.55430103176E-01
2.36379597733E+06	-2.53039074023E+01	1.65446563711E+02	1.17881706457E+01	1.67517646942E+02	-5.25834588289E+01	-1.40872738748E+02	-5.82703436405E+00	-1.18933696536E+00
2.38598733193E+06	-2.27629940679E+01	1.74614248670E+02	1.17919511888E+01	1.67228198435E+02	-4.24829946426E+01	-8.77051723340E+01	-5.85030199442E+00	-1.11751233574E+00
2.40817868652E+06	-1.54294506836E+01	1.67262830424E+02	1.17478826317E+01	1.67163452812E+02	-5.02113308564E+01	-1.25112844189E+02	-5.82691163504E+00	-1.06076739079E+00
2.43037004112E+06	-1.38212069514E+01	1.76817419257E+02	1.17365893476E+01	1.66858865862E+02	-4.46796255434E+01	-3.87769978253E+01	-5.88643087442E+00	-1.62790846842E+00
2.45256139571E+06	-2.20561896077E+01	1.63075077236E+02	1.17647527979E+01	1.66772481038E+02	-4.68450446223E+01	1.36902137759E+02	-5.83131857159E+00	-1.28923679023E+00
2.47475275031E+06	-1.74783341029E+01	-1.70291550130E+02	1.17654365251E+01	1.66497955771E+02	-3.65912831579E+01	-1.45103695969E+00	-5.89312309533E+00	-1.44629796687E+00
2.49694410490E+06	-1.07747143568E+01	-1.25282679784E+02	1.18028257635E+01	1.66095801455E+02	-3.52203733144E+01	-1.49494492842E+02	-5.83480382435E+00	-1.03462824186E+00
2.51913545950E+06	-1.92981188605E+01	-1.74068538214E+02	1.17606932470E+01	1.66569418914E+02	-4.83763184813E+01	-1.18638524500E+02	-5.82820167589E+00	-9.77663768101E-01
2.54132681409E+06	-1.62157241541E+01	-1.76215312091E+02	1.17570550404E+01	1.66172548532E+02	-5.20291018955E+01	-1.50989920600E+02	-5.84205003358E+00	-1.24045192772E+00
2.56351816869E+06	-1.92620662477E+01	-1.79638061556E+02	1.17986919587E+01	1.66128619398E+02	-4.58012919864E+01	1.67446486635E+02	-5.82147779731E+00	-1.19399748844E+00
2.58570952328E+06	-2.13415627587E+01	-1.47361367695E+02	1.17968449196E+01	1.66042685791E+02	-3.85534674502E+01	1.57191510514E+02	-5.76785890950E+00	-1.30416295224E+00
2.60790087788E+06	-1.76802813029E+01	-1.61385830207E+02	1.17757157546E+01	1.65689378883E+02	-4.98212052582E+01	1.08345456017E+02	-5.83546053927E+00	-1.14592282241E+00
2.63009223247E+06	-1.66660419951E+01	-1.73741846553E+02	1.17581730159E+01	1.65624433203E+02	-3.58465963586E+01	1.08359493964E+01	-5.84640287013E+00	-1.26611267442E+00
2.65228358707E+06	-1.44202594281E+01	1.78733457953E+02	1.17761161874E+01	1.65501507137E+02	-3.23815483447E+01	1.58064517948E+02	-5.75301667990E+00	-1.02309905923E+00
2.67447494166E+06	-1.96434112168E+01	-1.45935301012E+02	1.17872174474E+01	1.65312846443E+02	-4.88321337442E+01	7.56818791403E+01	-5.84952371425E+00	-1.43037828786E+00
2.69666629626E+06	-1.60670857586E+01	-1.59302736344E+02	1.17641408784E+01	1.65220482615E+02	-4.10607942517E+01	-1.34969534324E+02	-5.83675090370E+00	-1.00339030716E+00
2.71885765085E+06	-2.33747328501E+01	-1.60133767758E+02	1.18118011922E+01	1.65214319817E+02	-5.60176957445E+01	-1.32514867438E+02	-5.84728119188E+00	-1.34912375229E+00
2.74104900545E+06	-1.48197363585E+01	-1.73786402649E+02	1.17342057732E+01	1.64823234049E+02	-5.40053906691E+01	1.24126420805E+02	-5.82401875163E+00	-1.27413399316E+00
2.76324036004E+06	-2.08025673714E+01	-1.75184863360E+02	1.18125006148E+01	1.64960572059E+02	-4.54821729244E+01	-1.33944298102E+02	-5.81264149970E+00	-1.39504124158E+00
2.78543171463E+06	-1.55362224713E+01	-1.55428376402E+02	1.17738605783E+01	1.64577729825E+02	-4.40460985912E+01	7.82225697632E+01	-5.82798971604E+00	-1.50539767132E+00
2.80762306923E+06	-1.81560399835E+01	1.43179297232E+02	1.17543574353E+01	1.64815064820E+02	-4.98951786851E+01	1.19101140323E+02	-5.83633790391E+00	-1.46998304732E+00
2.82981442382E+06	-2.10457557109E+01	1.61151312962E+02	1.17853241491E+01	1.64780341471E+02	-5.75529334221E+01	8.69345178008E+01	-5.81357762696E+00	-1.40710550860E+00
2.85200577842E+06	-1.49667454977E+01	-1.70081268281E+02	1.17673083271E+01	1.64203134167E+02	-4.83334503654E+01	-1.23231242528E+02	-5.84205979874E+00	-1.23394767123E+00
2.87419713301E+06	-2.09989718820E+01	-1.56318898787E+02	1.18157990866E+01	1.64267343442E+02	-4.97115361346E+01	1.19197656937E+02	-5.82236092537E+00	-1.45890731477E+00
