# Hz S DB R 50
! CMT, M5065, 19127446, 24.2.4/2
! Date: 11/8/2024 4:01:23 PM
! Data: Format (Calibration Info)
! Freq	S11:dB/Ang(F2)	S21:dB/Ang(F2)	S12:dB/Ang(F2)	S22:dB/Ang(F2)
3.00000000000E+05	-1.76954144725E+01	-1.79165852437E+02	9.49418159168E+00	-1.77287589188E+02	-4.68954317238E+01	4.77952919598E+01	-5.85300281523E+00	-2.19852863133E-01
3.22191354595E+05	-2.12182036191E+01	-1.74174765993E+02	9.52470289705E+00	-1.77898892858E+02	-4.90678702289E+01	-4.53257390127E+01	-5.83572818765E+00	-3.51595571176E-01
3.44382709190E+05	-2.98855473318E+01	1.75403711543E+02	9.56580950268E+00	-1.78357555300E+02	-4.27814043747E+01	1.69847503759E+02	-5.83394977720E+00	-3.74080157540E-01
3.66574063785E+05	-2.03771314350E+01	1.79388360771E+02	9.52846854076E+00	-1.78729784556E+02	-3.98729658851E+01	5.35369446357E+01	-5.85923722182E+00	-3.91402458936E-01
3.88765418380E+05	-1.94516455343E+01	-1.56188440053E+02	9.49097671459E+00	-1.79092104385E+02	-4.37498208694E+01	-1.79742417233E+01	-5.80695830367E+00	-8.93659692477E-02
4.10956772975E+05	-3.73560660521E+01	5.22499392766E+01	9.59229058962E+00	-1.79009961604E+02	-4.90382611501E+01	-8.09257508335E+01	-5.83329629355E+00	-2.84385828727E-01
4.33148127570E+05	-1.31613463350E+01	-1.63935759837E+02	9.51550781965E+00	-1.79329435214E+02	-4.30556938335E+01	3.52238785497E+00	-5.84802915238E+00	-3.75936961005E-01
4.55339482165E+05	-1.92138205845E+01	1.65398919415E+02	9.57019752028E+00	-1.79669201287E+02	-4.06795134236E+01	3.81950198609E+01	-5.84921753974E+00	-3.64111386606E-01
4.77530836760E+05	-1.74716544537E+01	-1.70526390907E+02	9.53404891838E+00	-1.79834390467E+02	-5.08894069418E+01	1.42731095690E+02	-5.81911519753E+00	-3.82216341050E-01
4.99722191355E+05	-1.64676848831E+01	-1.77206559467E+02	9.52456019690E+00	1.79752732884E+02	-5.53247763837E+01	1.55670437334E+02	-5.85484953515E+00	-3.14368407543E-01
5.21913545950E+05	-1.62562340445E+01	1.73177581321E+02	9.55761890370E+00	1.79609517430E+02	-5.08344647107E+01	-1.09932201162E+02	-5.85382471974E+00	-1.93362613811E-01
5.44104900545E+05	-2.20685385940E+01	1.63843271972E+02	9.56698135662E+00	1.79500632346E+02	-4.96738787352E+01	1.74119877769E+02	-5.81979416048E+00	-3.35722021880E-01
5.66296255139E+05	-1.75432677271E+01	-1.36348585376E+02	9.55311342683E+00	1.79313432791E+02	-4.85599717458E+01	1.74260592945E+01	-5.84390754770E+00	-3.28690014313E-01
5.88487609734E+05	-2.38934678661E+01	-1.16937962796E+02	9.55911966756E+00	1.78843646329E+02	-4.09146720279E+01	1.59146888717E+02	-5.82429712587E+00	-3.15776191754E-01
6.10678964329E+05	-1.72795153306E+01	-1.34830280269E+02	9.58573732480E+00	1.78690588290E+02	-4.48129246498E+01	1.15031280298E+02	-5.85018192123E+00	-3.36735437384E-03
6.32870318924E+05	-2.10959198862E+01	1.58757236963E+02	9.55644018439E+00	1.78856993070E+02	-4.16547840417E+01	-4.53856140906E+01	-5.85450727313E+00	-1.27992422523E-01
6.55061673519E+05	-1.46890441553E+01	-1.66519174119E+02	9.54602211458E+00	1.78085881112E+02	-4.48844310453E+01	-2.56130898446E+01	-5.85622470053E+00	-2.71210204113E-01
6.77253028114E+05	-2.47177295994E+01	1.78846965220E+02	9.58591526582E+00	1.78460059671E+02	-5.10568151897E+01	-1.34772335312E+02	-5.85577732214E+00	-7.45240324538E-01
6.99444382709E+05	-1.67983294471E+01	1.60404540265E+02	9.53113955552E+00	1.78461229624E+02	-4.84512027195E+01	-4.16904075611E+01	-5.87165629104E+00	-3.42745954882E-01
7.21635737304E+05	-1.80753584294E+01	-1.65320801801E+02	9.57038491916E+00	1.77886599637E+02	-4.88369785025E+01	7.15630849227E+01	-5.85324059806E+00	-5.09148756101E-01
7.43827091899E+05	-1.67219009056E+01	-1.29392016726E+02	9.55027299633E+00	1.77442458041E+02	-4.73526289950E+01	-6.71840065176E+01	-5.87052886039E+00	-4.47379380712E-01
7.66018446494E+05	-1.91957670240E+01	1.76226850271E+02	9.56007426569E+00	1.77769540467E+02	-4.06132256462E+01	-6.73920907439E+01	-5.82960378831E+00	-4.61401749587E-01
7.88209801089E+05	-1.70695417158E+01	1.76232955122E+02	9.53972299748E+00	1.77572506491E+02	-4.35088527111E+01	-1.52259485176E+02	-5.82260536583E+00	-3.20856384422E-01
8.10401155684E+05	-2.80544989485E+01	1.74148421828E+02	9.56515659090E+00	1.77304957895E+02	-5.01187635002E+01	-1.39149211535E+02	-5.82585894064E+00	-3.03234950373E-01
8.32592510279E+05	-1.73369521321E+01	-1.65973046663E+02	9.55954021194E+00	1.77276496295E+02	-4.56334768107E+01	-4.59776677156E+01	-5.85164317269E+00	-5.28871825078E-01
8.54783864874E+05	-1.35909718643E+01	-1.75959293894E+02	9.51979718494E+00	1.77066791072E+02	-4.83444080869E+01	1.20564430447E+02	-5.85920463191E+00	-5.59028461329E-01
8.76975219469E+05	-2.03194622219E+01	-1.66710638025E+02	9.57842042367E+00	1.76921447265E+02	-4.30877560486E+01	-4.07360275372E+01	-5.86052155007E+00	-3.71819824814E-01
8.99166574064E+05	-1.73821279737E+01	-1.33601524764E+02	9.59961738470E+00	1.76596622308E+02	-4.20161685517E+01	7.01078089029E+01	-5.85897245104E+00	-4.92374918670E-01
9.21357928659E+05	-1.33980498742E+01	-1.70822335986E+02	9.50060801292E+00	1.76491977011E+02	-4.88189282176E+01	-3.79771828983E+01	-5.84491505656E+00	-5.75009498209E-01
9.43549283254E+05	-1.69059888833E+01	1.64637956512E+02	9.54481692935E+00	1.76593972910E+02	-5.34435680749E+01	-1.53858851098E+02	-5.84794007529E+00	-5.51037650921E-01
9.65740637849E+05	-1.34182463426E+01	1.79215383244E+02	9.47912349460E+00	1.76489888842E+02	-4.31204888514E+01	-7.21675429709E+01	-5.84389713918E+00	-4.57978950916E-01
9.87931992444E+05	-1.57332481291E+01	-1.62130619533E+02	9.56404178214E+00	1.76096461000E+02	-4.54331347128E+01	7.27856498375E+01	-5.84223683778E+00	-7.21092704142E-01
1.01012334704E+06	-1.48954075311E+01	-1.78471984628E+02	9.53183007947E+00	1.76011744156E+02	-4.66962225765E+01	1.47727259414E+02	-5.82738955491E+00	-6.91360368554E-01
1.03231470163E+06	-1.88952251939E+01	1.58526210501E+02	9.58590267479E+00	1.76188220553E+02	-5.03361294692E+01	-1.74694224323E+02	-5.82993956862E+00	-5.06156649718E-01
1.05450605623E+06	-1.50870088551E+01	-1.74642749275E+02	9.54086533337E+00	1.75899267658E+02	-4.27305896281E+01	-9.50505150811E+01	-5.83409680873E+00	-3.46271699536E-01
1.07669741082E+06	-1.60774052017E+01	-1.34586812558E+02	9.56386210757E+00	1.75636727862E+02	-4.18064574934E+01	1.63171157483E+02	-5.84267333551E+00	-6.27462078615E-01
1.09888876542E+06	-1.67783416276E+01	1.71118152842E+02	9.55245398691E+00	1.75688995176E+02	-4.91060436832E+01	-7.25340858390E+00	-5.86563677871E+00	-5.72623814759E-01
1.12108012001E+06	-1.47265150666E+01	-1.77638350269E+02	9.53783224549E+00	1.75176890621E+02	-6.51792723266E+01	1.07180365655E+02	-5.83483546284E+00	-6.01550797305E-01
1.14327147461E+06	-1.74463247457E+01	-1.79610299856E+02	9.57497789754E+00	1.75189388896E+02	-4.18800153734E+01	1.57267708708E+02	-5.82651776432E+00	-6.06064089597E-01
1.16546282920E+06	-1.44643230836E+01	-1.79341341756E+02	9.56097055770E+00	1.75339743776E+02	-4.38447982392E+01	-1.05284047275E+02	-5.86072405479E+00	-4.81960803992E-01
1.18765418380E+06	-1.40972277427E+01	-1.16906001542E+02	9.57778618299E+00	1.74555019308E+02	-4.37638872751E+01	-1.75564374268E+02	-5.83393312037E+00	-4.99984360906E-01
1.20984553839E+06	-8.25350982158E+00	1.66205971941E+02	9.46907322514E+00	1.74991503775E+02	-4.83889813996E+01	-1.06943441303E+02	-5.83559777731E+00	-7.48710178621E-01
1.23203689299E+06	-1.76727318224E+01	-1.74492191641E+02	9.57630791132E+00	1.74802657621E+02	-4.94439034701E+01	-8.89393313538E+01	-5.85696903093E+00	-4.57706728899E-01
1.25422824758E+06	-1.57541163300E+01	-1.68020422168E+02	9.51901463459E+00	1.74491228444E+02	-4.76970236088E+01	1.46365824306E+02	-5.83708271002E+00	-5.67922980750E-01
1.27641960218E+06	-1.85752949669E+01	-1.53114735208E+02	9.57557642832E+00	1.74630580176E+02	-5.42595880299E+01	-1.46987355778E+02	-5.83727337807E+00	-5.57935548822E-01
1.29861095677E+06	-2.26742096083E+01	1.52365490579E+02	9.56154542387E+00	1.74572753585E+02	-5.30022584253E+01	-1.91964647885E+01	-5.86443637345E+00	-7.00935533678E-01
1.32080231137E+06	-1.73220516730E+01	-1.66053760500E+02	9.56309985794E+00	1.74325657007E+02	-5.90527148117E+01	-1.40746075067E+02	-5.84757162600E+00	-8.52963808670E-01
1.34299366596E+06	-2.17503157769E+01	-1.63710101785E+02	9.59435337615E+00	1.74260344310E+02	-4.91667342869E+01	-6.43091547771E+01	-5.84884665205E+00	-8.53416645620E-01
1.36518502056E+06	-2.04310252462E+01	-1.77171447568E+02	9.59085202638E+00	1.74045728043E+02	-5.11574779112E+01	-5.35816560639E+01	-5.84976365819E+00	-7.04255118329E-01
1.38737637515E+06	-1.87658769327E+01	-1.70647907224E+02	9.57929654686E+00	1.73730695515E+02	-4.82510587550E+01	-4.32403382526E+01	-5.84216368873E+00	-6.74568394337E-01
1.40956772975E+06	-1.64839630502E+01	-1.63630766743E+02	9.54484033484E+00	1.73799544266E+02	-5.13107106289E+01	1.28099246690E+02	-5.83829753871E+00	-7.21683959870E-01
1.43175908434E+06	-2.37709208920E+01	1.41070303576E+02	9.59831307560E+00	1.73837254403E+02	-4.86190799203E+01	9.83465925696E+01	-5.83506366473E+00	-8.18048757972E-01
1.45395043894E+06	-1.67644952484E+01	-1.74963191039E+02	9.55990123112E+00	1.73420763898E+02	-4.46055027197E+01	-1.10047391695E+01	-5.85136342767E+00	-6.49745926266E-01
1.47614179353E+06	-1.60050590702E+01	-1.77076447946E+02	9.53725896341E+00	1.73439236425E+02	-6.24145885717E+01	7.90095466966E+01	-5.83132987372E+00	-7.24109929603E-01
1.49833314813E+06	-1.16799699871E+01	1.65624884658E+02	9.48167523497E+00	1.73359604896E+02	-4.97714155338E+01	-1.20544007966E+02	-5.84502611399E+00	-6.27104988574E-01
1.52052450272E+06	-2.09965696762E+01	-1.59691487839E+02	9.54633672274E+00	1.73383904090E+02	-4.14761623018E+01	-4.11350858424E+01	-5.87891242733E+00	-8.07627982029E-01
1.54271585732E+06	-1.63019976548E+01	1.56559324563E+02	9.52863750525E+00	1.73105880592E+02	-4.48680535544E+01	-8.31406506694E+01	-5.84655821261E+00	-7.56768635547E-01
1.56490721191E+06	-2.42871065022E+01	-1.50908873197E+02	9.60753569048E+00	1.72862670613E+02	-4.18264635313E+01	6.21618445716E+00	-5.84966987804E+00	-8.31771608516E-01
1.58709856651E+06	-1.68966000888E+01	-1.73143284699E+02	9.56016588311E+00	1.72695669880E+02	-6.97870610015E+01	1.11720010657E+02	-5.84744616372E+00	-7.83606094560E-01
1.60928992110E+06	-1.56471660333E+01	1.78311158845E+02	9.53662568104E+00	1.72832511433E+02	-4.38492287408E+01	1.02773820250E+02	-5.83419814056E+00	-1.02063628807E+00
1.63148127570E+06	-1.99435253901E+01	-1.57366180848E+02	9.57814827187E+00	1.72879518755E+02	-4.39862789472E+01	-5.43570865268E+01	-5.86507843051E+00	-4.62236940164E-01
1.65367263029E+06	-1.44720654488E+01	-1.55503169305E+02	9.55287071725E+00	1.72207586933E+02	-5.02336171051E+01	-1.71914010936E+02	-5.86377090089E+00	-8.84104763495E-01
1.67586398489E+06	-3.04703097739E+01	7.33438752410E+01	9.54346767208E+00	1.72768406765E+02	-4.04940379379E+01	-6.23926194134E+00	-5.86902033662E+00	-1.04378614008E+00
1.69805533948E+06	-1.61154905764E+01	-1.64379122759E+02	9.57298730208E+00	1.72150435177E+02	-3.24338269016E+01	-1.43897681006E+02	-5.85100074586E+00	-5.60864622833E-01
1.72024669408E+06	-1.47439491738E+01	1.76165311618E+02	9.55913907919E+00	1.72174667600E+02	-4.18162594765E+01	-9.56136788879E+01	-5.83122931087E+00	-6.95852224574E-01
1.74243804867E+06	-1.40672563215E+01	-1.74514832982E+02	9.56138639195E+00	1.72034893193E+02	-5.29889031793E+01	-6.31308070194E+01	-5.83752172300E+00	-9.04145882391E-01
1.76462940327E+06	-1.85106139233E+01	-1.70706453912E+02	9.57590522395E+00	1.71936851488E+02	-3.88878460261E+01	-4.04098675806E+01	-5.87257622445E+00	-7.85139056927E-01
1.78682075786E+06	-1.67511947595E+01	-1.25149014447E+02	9.56768072125E+00	1.71567640654E+02	-5.26977182384E+01	6.08546364202E+01	-5.81668616267E+00	-8.62666705065E-01
1.80901211246E+06	-1.73029676876E+01	1.40869616319E+02	9.53099724912E+00	1.71912547909E+02	-3.97777598359E+01	-1.05053989561E+02	-5.82913999490E+00	-6.85392651190E-01
1.83120346705E+06	-1.94304764631E+01	-1.02209504001E+02	9.60885494192E+00	1.71648431515E+02	-4.93879577018E+01	-2.66664939570E+01	-5.85455674314E+00	-1.04964438056E+00
1.85339482165E+06	-1.45533480652E+01	1.78293859655E+02	9.53467953536E+00	1.71342537075E+02	-3.17161153427E+01	-6.02069583847E+01	-5.88634728382E+00	-9.11627036739E-01
1.87558617624E+06	-1.52269762955E+01	-1.79457640073E+02	9.53649982810E+00	1.71289983056E+02	-5.52505670335E+01	2.14180475103E+01	-5.84307638178E+00	-9.45300874402E-01
1.89777753084E+06	-1.77846778645E+01	1.73679929143E+02	9.56935092532E+00	1.71028806251E+02	-4.55887516978E+01	-8.31462421427E+01	-5.82616587200E+00	-8.70159349403E-01
1.91996888543E+06	-1.94265779754E+01	1.47585585001E+02	9.56602068433E+00	1.71352649866E+02	-3.66495841445E+01	-4.92835817442E+01	-5.86150262442E+00	-9.08968994604E-01
1.94216024003E+06	-1.84848632648E+01	-1.46171432059E+02	9.60065341127E+00	1.70956091994E+02	-4.31046379592E+01	1.70489784963E+02	-5.82702364973E+00	-9.34834613684E-01
1.96435159462E+06	-1.55940190037E+01	1.65317167341E+02	9.54294628300E+00	1.71031827395E+02	-4.89899192769E+01	1.32700231471E+02	-5.81479748312E+00	-9.08306105017E-01
1.98654294922E+06	-1.42596978987E+01	1.40848092041E+02	9.55624559723E+00	1.70929074128E+02	-5.24748404335E+01	-1.29657564793E+01	-5.84751567917E+00	-8.99012600782E-01
2.00873430381E+06	-2.36027006231E+01	1.64383161085E+02	9.58296543228E+00	1.70790391430E+02	-2.87880031246E+01	1.42763186029E+02	-5.76895704440E+00	-9.59416114078E-01
2.03092565841E+06	-2.51246245752E+01	1.76141315955E+02	9.61254533293E+00	1.70443616915E+02	-5.33033092940E+01	1.63893555083E+02	-5.84690026468E+00	-9.86078031488E-01
2.05311701300E+06	-1.79835560116E+01	-1.59152575755E+02	9.55333454486E+00	1.70433254702E+02	-4.17875153857E+01	-4.24157233292E+01	-5.86496319333E+00	-8.94895004121E-01
2.07530836760E+06	-2.10587938115E+01	1.63718814315E+02	9.56940783485E+00	1.70555503317E+02	-4.63570762523E+01	-1.55839728634E+02	-5.80980338222E+00	-1.07565197782E+00
2.09749972219E+06	-2.15845775439E+01	-1.76274412063E+02	9.60209013969E+00	1.70395969530E+02	-4.81931763251E+01	1.79936034666E+02	-5.82045614589E+00	-9.98532378409E-01
2.11969107679E+06	-1.76409787330E+01	1.54914008252E+02	9.54432453176E+00	1.70371263074E+02	-3.86895341543E+01	9.90111197111E+00	-5.86329820532E+00	-1.12056411785E+00
2.14188243138E+06	-1.43902234827E+01	-1.17464298367E+02	9.63134708749E+00	1.69847663207E+02	-3.66444303145E+01	-1.40133951446E+02	-5.81545098144E+00	-8.07708987126E-01
2.16407378598E+06	-1.75643131464E+01	-1.53131808569E+02	9.58681868998E+00	1.69937633747E+02	-3.90768478553E+01	-1.01744825662E+02	-5.85403400564E+00	-9.67576295093E-01
2.18626514057E+06	-1.48581469679E+01	-1.77536987234E+02	9.52840516640E+00	1.69693560889E+02	-3.81600541943E+01	1.67992020470E+02	-5.81435739631E+00	-9.96685199931E-01
2.20845649517E+06	-1.57365577951E+01	-1.53046257102E+02	9.58919887098E+00	1.69404848428E+02	-4.81502073433E+01	1.16965038808E+02	-5.82161962028E+00	-1.22780207404E+00
2.23064784976E+06	-1.95598628339E+01	1.65039299597E+02	9.55886756777E+00	1.69853029833E+02	-4.56042321993E+01	7.44984361564E+01	-5.83288937855E+00	-1.19884193576E+00
2.25283920436E+06	-1.62919433135E+01	-1.58979384915E+02	9.56730068112E+00	1.69362215072E+02	-6.09404430605E+01	-1.77903412421E+02	-5.86305220503E+00	-1.05154146570E+00
2.27503055895E+06	-1.99950722956E+01	-1.70013876942E+02	9.59379160201E+00	1.69292383522E+02	-4.10189809345E+01	-7.67063543258E+01	-5.82696649532E+00	-8.51108659940E-01
2.29722191355E+06	-2.39807579898E+01	-1.57787646206E+02	9.61714590258E+00	1.69430725117E+02	-4.02780744599E+01	5.92938991916E+01	-5.84745597587E+00	-1.22943379692E+00
2.31941326814E+06	-1.29325597230E+01	-1.65147343909E+02	9.56055187026E+00	1.68809134945E+02	-4.21893156225E+01	-7.02226910653E+01	-5.85114923105E+00	-1.11905539957E+00
2.34160462274E+06	-1.81684420965E+01	1.79666844911E+02	9.56770802570E+00	1.68848817382E+02	-4.12360102151E+01	1.76651836701E+02	-5.81617439851E+00	-1.11045839945E+00
2.36379597733E+06	-1.67351953485E+01	1.74156694032E+02	9.55625582083E+00	1.68759761022E+02	-5.56327255105E+01	1.56625699672E+02	-5.83660318410E+00	-1.33084691289E+00
2.38598733193E+06	-1.62745884473E+01	-1.76539851907E+02	9.56195099613E+00	1.68537349066E+02	-4.28750095237E+01	-7.36683519804E-01	-5.84452990482E+00	-1.40414547902E+00
2.40817868652E+06	-2.34827299727E+01	-1.76140156268E+02	9.56133777115E+00	1.68598025558E+02	-4.27467100693E+01	9.61008668493E+01	-5.83771097583E+00	-1.49019015963E+00
2.43037004112E+06	-1.53056859728E+01	-1.42478303715E+02	9.58963900262E+00	1.68307784224E+02	-4.73684053887E+01	1.00956782895E+02	-5.86121783409E+00	-1.56415292731E+00
2.45256139571E+06	-1.71056692108E+01	1.39920508459E+02	9.58519349679E+00	1.68517019654E+02	-4.87342675760E+01	-1.32800103484E+02	-5.85697373785E+00	-1.19732954523E+00
2.47475275031E+06	-2.53199732146E+01	1.17881127770E+02	9.57204605025E+00	1.68618024614E+02	-3.85211112907E+01	-6.22673801664E+01	-5.86746311338E+00	-1.09209897757E+00
2.49694410490E+06	-1.55070965952E+01	1.73671620283E+02	9.57999398030E+00	1.68080786545E+02	-3.26670032309E+01	-1.19567557600E+02	-5.86012800281E+00	-1.07538928893E+00
2.51913545950E+06	-1.82479537482E+01	-1.60714333477E+02	9.60285147374E+00	1.68229530147E+02	-5.02148294072E+01	-1.11588519066E+02	-5.84276259593E+00	-1.22578480610E+00
2.54132681409E+06	-2.20975862546E+01	1.72773475487E+02	9.61719393928E+00	1.68036412617E+02	-4.29121733886E+01	-4.63097731987E+01	-5.86549406767E+00	-1.26537778210E+00
2.56351816869E+06	-1.67785429136E+01	-1.49341594815E+02	9.58083279456E+00	1.67737341874E+02	-4.55727116008E+01	-1.13276667572E+02	-5.86499376293E+00	-1.18629403589E+00
2.58570952328E+06	-1.78440522762E+01	-1.53936264862E+02	9.56944766439E+00	1.67372374113E+02	-4.29762888339E+01	-1.31870962157E+01	-5.85832055595E+00	-1.23048119681E+00
2.60790087788E+06	-1.35793820915E+01	-1.49942589094E+02	9.59813430145E+00	1.67296165638E+02	-5.26415150981E+01	-6.14232937084E+01	-5.86268082485E+00	-1.19952700127E+00
2.63009223247E+06	-1.61123920783E+01	-1.05727517694E+02	9.63060337972E+00	1.67373913485E+02	-4.42938813348E+01	1.51635362314E+02	-5.86227969440E+00	-9.55770801342E-01
2.65228358707E+06	-2.08942148824E+01	1.36845707675E+02	9.57276915132E+00	1.67678351482E+02	-3.67209080353E+01	-7.44976918503E-01	-5.86721326752E+00	-1.41643343081E+00
2.67447494166E+06	-1.75562934952E+01	1.48146772329E+02	9.57278381579E+00	1.67536671792E+02	-5.22533465617E+01	-7.71736887225E+01	-5.85313224648E+00	-1.37799758828E+00
2.69666629626E+06	-1.60223099693E+01	1.75968586604E+02	9.52930934555E+00	1.67069369800E+02	-4.11541475162E+01	-1.30266476970E+02	-5.82633451126E+00	-1.19970892945E+00
2.71885765085E+06	-1.58094552202E+01	1.79575578781E+02	9.54052642097E+00	1.66962097298E+02	-5.28082914626E+01	-1.51458214486E+02	-5.83481499291E+00	-1.34304310021E+00
2.74104900545E+06	-1.42972959310E+01	1.50740533087E+02	9.54843686446E+00	1.66883705223E+02	-5.18806869728E+01	1.23217657226E+02	-5.83639947223E+00	-1.28294982869E+00
2.76324036004E+06	-1.57039906879E+01	-1.74543916707E+02	9.57059481763E+00	1.66607718420E+02	-5.17369806134E+01	1.58282591679E+02	-5.84310055965E+00	-1.33180565651E+00
2.78543171463E+06	-1.63411517538E+01	1.72181172239E+02	9.57739964387E+00	1.66572563460E+02	-4.21050531658E+01	1.13991056861E+02	-5.82691487796E+00	-1.45882487124E+00
2.80762306923E+06	-1.75934437715E+01	1.46656572155E+02	9.57707909662E+00	1.66693508151E+02	-3.52837477699E+01	-1.43686787785E+02	-5.83381709769E+00	-1.11596093493E+00
2.82981442382E+06	-1.62277744814E+01	-1.71627453245E+02	9.59199134683E+00	1.66330050216E+02	-4.50897466114E+01	1.76816304370E+02	-5.83779733562E+00	-1.41628684689E+00
2.85200577842E+06	-1.88340792630E+01	-1.56933031203E+02	9.60795621617E+00	1.66022263297E+02	-4.47455346713E+01	-1.11190226069E+02	-5.85090908748E+00	-1.47015194056E+00
2.87419713301E+06	-2.24796670619E+01	-1.67205650415E+02	9.61948036464E+00	1.66379372391E+02	-4.51522420595E+01	-1.37263462550E+02	-5.84353648717E+00	-1.48437253758E+00
