# Hz S DB R 50
! CMT, M5065, 19127446, 24.2.4/2
! Date: 11/8/2024 4:10:19 PM
! Data: Format (Calibration Info)
! Freq	S11:dB/Ang(F2)	S21:dB/Ang(F2)	S12:dB/Ang(F2)	S22:dB/Ang(F2)
3.00000000000E+05	-1.56675236166E+01	-1.77161508701E+02	1.40972627908E+01	-1.76965099694E+02	-4.55047266662E+01	4.74945744578E+01	-5.83613137249E+00	-3.71717967646E-01
3.22191354595E+05	-1.99025567882E+01	-1.57132831273E+02	1.41163209452E+01	-1.77524672641E+02	-4.61528106042E+01	9.67966901313E+00	-5.85992119310E+00	-3.10546727841E-01
3.44382709190E+05	-1.31552022703E+01	1.57658383864E+02	1.40685580162E+01	-1.77835220299E+02	-5.62718486469E+01	4.89462296415E+01	-5.84778370165E+00	-3.55181813257E-01
3.66574063785E+05	-1.50826950962E+01	-1.55720787301E+02	1.41072117878E+01	-1.78450763729E+02	-4.59015079915E+01	1.47096277032E+02	-5.81273859568E+00	-3.76837127456E-01
3.88765418380E+05	-1.44716314852E+01	1.55651599015E+02	1.41457915300E+01	-1.78314602102E+02	-4.59486649885E+01	1.06704966109E+02	-5.82525856119E+00	-4.54735843064E-01
4.10956772975E+05	-1.51859254003E+01	-1.76805756003E+02	1.41227242401E+01	-1.79161136305E+02	-4.08796732245E+01	-4.79411474834E+01	-5.87388516937E+00	-3.61516040105E-01
4.33148127570E+05	-1.53545190308E+01	1.66148836678E+02	1.41111194735E+01	-1.79407047852E+02	-5.07961811203E+01	9.85388445097E+01	-5.81882203385E+00	-2.50455288535E-01
4.55339482165E+05	-1.61945213995E+01	-1.72211882435E+02	1.41104150448E+01	-1.79658323069E+02	-4.42756179177E+01	-3.80669067344E+01	-5.86127567090E+00	-2.97820199258E-01
4.77530836760E+05	-1.53086370849E+01	1.59475078305E+02	1.41088602795E+01	1.79974849299E+02	-4.47260466715E+01	-8.68564884450E+01	-5.83250990886E+00	-1.89257108618E-01
4.99722191355E+05	-1.99212403418E+01	-1.72260938188E+02	1.41446345598E+01	1.79669004857E+02	-4.68925344720E+01	-1.17080721286E+02	-5.82563641542E+00	-2.13318662017E-01
5.21913545950E+05	-1.35225167985E+01	-1.63690785263E+02	1.41222817553E+01	1.79197525765E+02	-4.40160997925E+01	7.50119889964E+01	-5.83055934762E+00	-4.30895863780E-01
5.44104900545E+05	-1.54724249629E+01	-1.60263518008E+02	1.41081882842E+01	1.78727848231E+02	-4.21504850471E+01	1.35421752523E+02	-5.80501152967E+00	-6.29380761635E-01
5.66296255139E+05	-2.14757124081E+01	-1.46990365510E+02	1.41371422366E+01	1.78982334549E+02	-4.39173136839E+01	1.69150139933E+02	-5.80993934880E+00	-2.79938653306E-01
5.88487609734E+05	-1.49972019527E+01	-1.72368514604E+02	1.41031911401E+01	1.78505209372E+02	-3.81237376843E+01	-1.44715627051E+02	-5.80435032475E+00	-1.97712910914E-01
6.10678964329E+05	-1.83654009144E+01	1.64219307991E+02	1.41360096649E+01	1.78609090508E+02	-5.02853247679E+01	-7.79176395505E+01	-5.86599874576E+00	2.55853361600E-01
6.32870318924E+05	-1.40155219262E+01	1.77116817224E+02	1.40913711198E+01	1.78000975647E+02	-5.49844075042E+01	-3.59112782178E+01	-5.84690608583E+00	-1.36763654562E-01
6.55061673519E+05	-2.12708021979E+01	1.64899962186E+02	1.41183185347E+01	1.77786461490E+02	-4.35034642829E+01	1.19967364565E+02	-5.82507693409E+00	-4.18147011050E-01
6.77253028114E+05	-1.34325947750E+01	1.62524887175E+02	1.41213511354E+01	1.77836820326E+02	-6.02413779985E+01	-8.44948567697E+01	-5.82515182929E+00	-5.83771591875E-01
6.99444382709E+05	-1.61192091746E+01	-1.56579389118E+02	1.41323772500E+01	1.77293958553E+02	-4.22606247711E+01	-1.14206795039E+02	-5.83093936754E+00	-2.41376842525E-01
7.21635737304E+05	-2.01341393573E+01	-1.73418616084E+02	1.41602887657E+01	1.77177671416E+02	-4.80781838689E+01	-1.66451281904E+02	-5.81062107855E+00	-3.01337076319E-01
7.43827091899E+05	-2.37697428905E+01	8.66902139439E+01	1.41747604609E+01	1.77270171355E+02	-3.82901968822E+01	-2.98763057135E+01	-5.87663015781E+00	-4.28311493616E-01
7.66018446494E+05	-1.74512075936E+01	1.54379678165E+02	1.41187844587E+01	1.76899575867E+02	-4.14131484149E+01	-6.18755238942E+01	-5.84717987682E+00	-3.27240039420E-01
7.88209801089E+05	-1.31736575438E+01	1.76090795466E+02	1.40808813738E+01	1.76532302582E+02	-3.92051904076E+01	-2.51608444356E+01	-5.86029809929E+00	-2.59807615883E-01
8.10401155684E+05	-1.91160388572E+01	1.72116229920E+02	1.41456152653E+01	1.76405786727E+02	-4.84871653002E+01	1.86160084337E+01	-5.87684000855E+00	-4.63035055583E-01
8.32592510279E+05	-1.83212584110E+01	-1.38992813944E+02	1.41595671556E+01	1.75987476044E+02	-4.45695333463E+01	-1.24969171281E+02	-5.84682941815E+00	-3.46504252067E-01
8.54783864874E+05	-1.67508917428E+01	-1.76448367904E+02	1.41109479951E+01	1.75954695145E+02	-5.14903088000E+01	-4.22580881390E+01	-5.82810712867E+00	-3.84881974017E-01
8.76975219469E+05	-1.86749372538E+01	-1.46964889504E+02	1.41365894209E+01	1.75650757114E+02	-3.98907796458E+01	1.53492383040E+02	-5.79919419936E+00	-5.78123311842E-01
8.99166574064E+05	-1.76501340703E+01	-1.74390540090E+02	1.41118654724E+01	1.75514155225E+02	-4.02651010478E+01	1.32039108361E+02	-5.80019518207E+00	-5.58517850994E-01
9.21357928659E+05	-2.26772743485E+01	-1.58183541356E+02	1.41292629230E+01	1.75516884447E+02	-4.47334541419E+01	1.56080894101E+02	-5.83837245757E+00	-4.41234233651E-01
9.43549283254E+05	-1.72352401830E+01	1.53074577580E+02	1.41077074646E+01	1.75351150975E+02	-4.53256991878E+01	-9.33870119567E+01	-5.84110865253E+00	-5.10768012958E-01
9.65740637849E+05	-2.47611834087E+01	1.66371058612E+02	1.41362310776E+01	1.75141215949E+02	-4.47155875618E+01	-8.88233401032E+01	-5.82816375478E+00	-2.59346348029E-01
9.87931992444E+05	-1.07399105757E+01	1.63922471382E+02	1.40609617632E+01	1.75113084069E+02	-4.52012149724E+01	1.65844120477E+02	-5.81952114845E+00	-5.64640189656E-01
1.01012334704E+06	-1.61187430677E+01	1.53498016975E+02	1.40902725468E+01	1.74846908510E+02	-4.23069790196E+01	1.19569690395E+02	-5.80713593648E+00	-7.28047832283E-01
1.03231470163E+06	-1.80293373128E+01	1.78806206485E+02	1.41167954549E+01	1.74562284520E+02	-4.52493937634E+01	1.26074961330E+02	-5.83690915430E+00	-5.99957505009E-01
1.05450605623E+06	-1.52414095451E+01	-1.75936325611E+02	1.41081977963E+01	1.74414786825E+02	-4.04497491602E+01	-1.10048597107E+01	-5.88049858286E+00	-5.14154621883E-01
1.07669741082E+06	-1.58004730341E+01	-1.66177874087E+02	1.41099587875E+01	1.74068021245E+02	-4.50040098940E+01	-1.86976272559E+01	-5.76033796021E+00	-9.83990794368E-01
1.09888876542E+06	-1.88700696876E+01	1.69670147333E+02	1.41189697370E+01	1.74109857897E+02	-4.51400577133E+01	1.17864005453E+02	-5.82925302683E+00	-7.73045725334E-01
1.12108012001E+06	-2.27941226048E+01	1.78002674365E+02	1.41517827043E+01	1.73816835071E+02	-5.30017155549E+01	7.82421841036E+01	-5.82803844626E+00	-8.13434718965E-01
1.14327147461E+06	-1.34814437217E+01	1.28566383593E+02	1.40898723056E+01	1.73858656396E+02	-5.39418038744E+01	-1.27534588342E+02	-5.84512554309E+00	-6.85238932844E-01
1.16546282920E+06	-2.11856444140E+01	-1.66690492871E+02	1.41121180835E+01	1.73301957173E+02	-4.35123898980E+01	-7.46082019902E+01	-5.85954960638E+00	-6.91428486722E-01
1.18765418380E+06	-1.55877075901E+01	-1.64737996834E+02	1.40914574810E+01	1.73051963374E+02	-3.93324343003E+01	-1.21683829732E+01	-5.90601920294E+00	-6.08059377218E-01
1.20984553839E+06	-2.41780554967E+01	-1.67667314861E+02	1.41401216495E+01	1.73200557291E+02	-4.55174592234E+01	4.40074015179E+01	-5.85060517699E+00	-8.38204068438E-01
1.23203689299E+06	-1.55790093256E+01	-1.57183815357E+02	1.41170346270E+01	1.72787839873E+02	-4.52261472153E+01	2.80727172835E+01	-5.84789112752E+00	-6.16531230813E-01
1.25422824758E+06	-2.21233870433E+01	1.21863343304E+02	1.41399543812E+01	1.73020267528E+02	-4.26222921254E+01	1.33586007557E+01	-5.86934937896E+00	-8.44438228782E-01
1.27641960218E+06	-1.40333068167E+01	1.57164679639E+02	1.40931126143E+01	1.72818583026E+02	-4.22125898356E+01	-2.90208311058E+01	-5.88683363204E+00	-5.82370526078E-01
1.29861095677E+06	-1.46905334302E+01	-1.58826217553E+02	1.41092669840E+01	1.72351214830E+02	-4.72272988494E+01	2.46716364720E+01	-5.86821842754E+00	-5.42836927097E-01
1.32080231137E+06	-2.18588824154E+01	-1.67824620949E+02	1.41488208797E+01	1.72409428986E+02	-5.71757026310E+01	8.26254343270E+01	-5.83719678798E+00	-1.10799718953E+00
1.34299366596E+06	-1.97460419462E+01	-1.72262787928E+02	1.41359721410E+01	1.72173175297E+02	-5.53032750116E+01	-1.13627062175E+02	-5.84187742060E+00	-7.92905484426E-01
1.36518502056E+06	-1.72073299907E+01	1.61009615241E+02	1.41116822135E+01	1.72122033913E+02	-3.96255665722E+01	-2.13785639962E+01	-5.88216838827E+00	-7.21330247012E-01
1.38737637515E+06	-1.75763223681E+01	1.59530657542E+02	1.41084010317E+01	1.71963306510E+02	-4.56065806772E+01	1.18190007136E+02	-5.80590818123E+00	-9.63217095122E-01
1.40956772975E+06	-2.17091746834E+01	-1.76443870518E+02	1.41262322798E+01	1.71488257283E+02	-4.79469540308E+01	-1.39172126165E+02	-5.83388142525E+00	-6.28772588959E-01
1.43175908434E+06	-1.56213490636E+01	-1.58070136176E+02	1.41391393300E+01	1.71404369421E+02	-4.10332112894E+01	6.48401288766E-01	-5.86949524427E+00	-6.91789305694E-01
1.45395043894E+06	-1.31622518232E+01	-1.73059349948E+02	1.40829625104E+01	1.71318069910E+02	-5.25714205870E+01	-1.11380612879E+02	-5.84890854515E+00	-7.18393245029E-01
1.47614179353E+06	-2.40483744143E+01	3.47323133771E+01	1.41465634347E+01	1.71425181134E+02	-4.43142570920E+01	-1.12516433394E+02	-5.84027320623E+00	-4.81563055751E-01
1.49833314813E+06	-1.59547622015E+01	1.60860531513E+02	1.41205926632E+01	1.70993851036E+02	-5.63018579622E+01	-2.01817947421E+01	-5.81790036972E+00	-7.68501521685E-01
1.52052450272E+06	-1.92817672279E+01	1.47521319542E+02	1.41118339834E+01	1.71076238958E+02	-4.42611413657E+01	-4.39270915321E+01	-5.84569265424E+00	-6.48596955741E-01
1.54271585732E+06	-1.54297092951E+01	-1.67596810505E+02	1.41291574761E+01	1.70481674365E+02	-3.69128211834E+01	1.45450669123E+02	-5.78626903065E+00	-8.40183025315E-01
1.56490721191E+06	-1.76544139846E+01	-1.77825825608E+02	1.40997768245E+01	1.70559202737E+02	-5.30847416609E+01	7.78500135405E+01	-5.85071826876E+00	-9.62193769754E-01
1.58709856651E+06	-1.63399148522E+01	1.22157818678E+02	1.41178329826E+01	1.70760014519E+02	-4.16201646296E+01	1.31452544897E+02	-5.79301433080E+00	-8.99928258130E-01
1.60928992110E+06	-1.23561170741E+01	-1.76968852336E+02	1.40958819357E+01	1.70002827093E+02	-4.67079694626E+01	-1.00811962810E+02	-5.83104874141E+00	-6.93157977896E-01
1.63148127570E+06	-2.81534979613E+01	-1.60088013382E+01	1.41344045074E+01	1.70194223017E+02	-3.87712103972E+01	1.61506686448E+02	-5.78570324037E+00	-8.61345226689E-01
1.65367263029E+06	-1.85953363243E+01	-1.78697039090E+02	1.41239194676E+01	1.69929413148E+02	-4.28854673929E+01	-1.50087073716E+02	-5.82897733724E+00	-6.98940462614E-01
1.67586398489E+06	-1.72174174454E+01	1.59264915832E+02	1.41240905040E+01	1.69925615698E+02	-3.13691126062E+01	3.36259514184E+01	-5.88573167706E+00	-1.14948331724E+00
1.69805533948E+06	-1.47605629479E+01	-1.62960714839E+02	1.41036759863E+01	1.69434772775E+02	-5.33152030488E+01	1.51996535408E+02	-5.84407417318E+00	-9.68526186674E-01
1.72024669408E+06	-2.29004094200E+01	1.75123475183E+02	1.41339896257E+01	1.69629298293E+02	-4.05348234859E+01	-4.20401585054E+00	-5.86544080953E+00	-1.00551696057E+00
1.74243804867E+06	-1.74972039118E+01	-1.52546411126E+02	1.41379379459E+01	1.69148826666E+02	-4.31950576407E+01	6.59112201638E+01	-5.81465936685E+00	-1.00971827916E+00
1.76462940327E+06	-1.56514498981E+01	1.54337043536E+02	1.40832887318E+01	1.69080099755E+02	-4.63374360585E+01	-6.47336645765E+01	-5.85293820593E+00	-7.71575369092E-01
1.78682075786E+06	-1.77878190204E+01	1.44539525513E+02	1.40967034608E+01	1.69189365681E+02	-3.94428522513E+01	-1.30589789015E+02	-5.83264727968E+00	-7.25132553395E-01
1.80901211246E+06	-1.80825733671E+01	1.76991702582E+02	1.41124579588E+01	1.68859806149E+02	-4.27271158647E+01	4.83699697906E+01	-5.85541829857E+00	-8.97576106635E-01
1.83120346705E+06	-1.34763871249E+01	-1.60721099632E+02	1.40909273530E+01	1.68653757285E+02	-5.64379965511E+01	-2.75065544499E+01	-5.80698806003E+00	-8.05588876815E-01
1.85339482165E+06	-1.70420106531E+01	1.44673289516E+02	1.41094353267E+01	1.68839218716E+02	-3.82930983883E+01	1.40649043196E+02	-5.79482789046E+00	-9.21982423066E-01
1.87558617624E+06	-1.57740216212E+01	-1.65745920498E+02	1.41195028780E+01	1.68236417163E+02	-4.33371013328E+01	-7.04573532378E+01	-5.83755220902E+00	-8.75385921126E-01
1.89777753084E+06	-1.30412442457E+01	1.73496386546E+02	1.40876045908E+01	1.68249623503E+02	-5.15713185696E+01	8.68963014777E+01	-5.85247243659E+00	-9.17257626886E-01
1.91996888543E+06	-1.22494497128E+01	-1.64673625112E+02	1.41209361296E+01	1.67964386279E+02	-4.64886781016E+01	-1.20432710174E+02	-5.82641214260E+00	-7.91657234856E-01
1.94216024003E+06	-2.34884121446E+01	1.62034003088E+02	1.41421869533E+01	1.68156752408E+02	-4.52701323380E+01	1.30196831273E+02	-5.80896296350E+00	-9.92885833168E-01
1.96435159462E+06	-1.51800436134E+01	1.66445043704E+02	1.40913758257E+01	1.67894528794E+02	-4.66195721777E+01	-1.43258691623E+02	-5.81733136824E+00	-1.01760279763E+00
1.98654294922E+06	-1.72041932644E+01	1.62245619063E+02	1.41060470175E+01	1.67639455787E+02	-4.17958303040E+01	2.39680691269E+01	-5.87125289567E+00	-1.22965135423E+00
2.00873430381E+06	-1.86036850530E+01	-1.78456510573E+02	1.41166910958E+01	1.67326180072E+02	-3.58314264319E+01	-2.82250962442E+01	-5.87455860470E+00	-1.01793898856E+00
2.03092565841E+06	-2.20461573448E+01	-1.39529222747E+02	1.41432905623E+01	1.67278266827E+02	-4.61977205078E+01	-2.08927985735E+01	-5.84901347605E+00	-9.25812423842E-01
2.05311701300E+06	-1.79878698679E+01	-1.68877477383E+02	1.41130803197E+01	1.67118199712E+02	-4.20188577293E+01	1.68684685917E+02	-5.79669280121E+00	-1.07342818733E+00
2.07530836760E+06	-1.30210536785E+01	-1.72134390489E+02	1.41151201639E+01	1.66708010342E+02	-4.16516793322E+01	-3.25608602486E+01	-5.89224817383E+00	-9.51078951353E-01
2.09749972219E+06	-2.19347714025E+01	7.66654823241E+01	1.41431900310E+01	1.67039373510E+02	-4.53282697410E+01	1.40069481854E+02	-5.82095760685E+00	-1.07360298990E+00
2.11969107679E+06	-1.94350826808E+01	-1.73775084360E+02	1.41146193133E+01	1.66546113999E+02	-4.62262030145E+01	1.11105458497E+02	-5.83449902551E+00	-1.19969639249E+00
2.14188243138E+06	-1.69205129984E+01	1.66118943313E+02	1.41043232682E+01	1.66800720515E+02	-4.63710085568E+01	1.55983556056E+02	-5.84572828443E+00	-9.42979578370E-01
2.16407378598E+06	-2.28138498848E+01	-1.40284479549E+02	1.41761166259E+01	1.66269724898E+02	-2.72340896291E+01	8.68750670481E+01	-5.73300150105E+00	-1.68077173207E+00
2.18626514057E+06	-1.91464283468E+01	1.55253019289E+02	1.41139265684E+01	1.66255349012E+02	-4.60407917727E+01	8.79170146961E+01	-5.84498976278E+00	-1.15480463155E+00
2.20845649517E+06	-2.28685766637E+01	-1.60564164926E+02	1.41516230894E+01	1.66115810618E+02	-4.79420968801E+01	1.46524253365E+02	-5.82139361326E+00	-1.21001961103E+00
2.23064784976E+06	-1.65776191355E+01	1.41088311488E+02	1.41009043692E+01	1.66335296602E+02	-5.03833304478E+01	1.20194965670E+02	-5.81089871737E+00	-1.16864158092E+00
2.25283920436E+06	-1.95353754044E+01	-1.77943229386E+02	1.41222046085E+01	1.65750195417E+02	-4.16290409802E+01	-1.58384029589E+02	-5.81779237592E+00	-8.80605872086E-01
2.27503055895E+06	-1.50999880728E+01	1.66287375351E+02	1.40980354274E+01	1.65554504887E+02	-4.02502030458E+01	-9.73526394557E+01	-5.84412509136E+00	-1.03112411538E+00
2.29722191355E+06	-1.85429559488E+01	-1.34604382022E+02	1.41480983156E+01	1.65358219687E+02	-3.89462572225E+01	1.14054998426E+02	-5.80994275186E+00	-1.34647134337E+00
2.31941326814E+06	-2.00908978039E+01	-1.71866197457E+02	1.41513578995E+01	1.65255890109E+02	-3.77399466262E+01	1.21058763369E+02	-5.77956090425E+00	-1.39808833425E+00
2.34160462274E+06	-1.85384577721E+01	-1.79313832206E+02	1.41310653835E+01	1.65004618884E+02	-4.76313061846E+01	-3.67685338559E+01	-5.85412259891E+00	-1.14025484450E+00
2.36379597733E+06	-2.34671547828E+01	-1.63062644755E+02	1.41496339256E+01	1.65039662319E+02	-4.76649152396E+01	1.12372068937E+02	-5.84275398791E+00	-1.36133875260E+00
2.38598733193E+06	-1.33150400541E+01	-9.10019783004E+01	1.42205877848E+01	1.64685977729E+02	-4.64542211191E+01	-2.80016109234E+01	-5.87132235320E+00	-1.13062672647E+00
2.40817868652E+06	-1.63790972483E+01	1.58262223245E+02	1.41291978095E+01	1.64567691632E+02	-4.17708303976E+01	1.88737367489E+01	-5.86280578570E+00	-1.51637869174E+00
2.43037004112E+06	-2.28463995989E+01	1.52791088285E+02	1.41188276704E+01	1.64839657984E+02	-4.91406884349E+01	1.66691257190E+02	-5.83626828973E+00	-1.63245720387E+00
2.45256139571E+06	-1.35232375037E+01	-1.66801948339E+02	1.40995520680E+01	1.64197301530E+02	-4.92557609856E+01	1.59987015737E+02	-5.84536466338E+00	-1.30557047239E+00
2.47475275031E+06	-1.90821941131E+01	-1.73664762758E+02	1.41183558382E+01	1.64179045469E+02	-3.28805147557E+01	-7.81935689660E+01	-5.90084115568E+00	-1.08314407081E+00
2.49694410490E+06	-1.54918800976E+01	1.73512243970E+02	1.40916673710E+01	1.64035247729E+02	-6.03723705574E+01	4.58829961031E+01	-5.85104159649E+00	-1.37795721510E+00
2.51913545950E+06	-1.47228060789E+01	-1.78566139694E+02	1.41118061257E+01	1.63763210813E+02	-4.79627434573E+01	-6.30761300692E+01	-5.83772654459E+00	-1.08040450382E+00
2.54132681409E+06	-1.48125362461E+01	-1.68271490877E+02	1.41274378133E+01	1.63652867761E+02	-5.09373573338E+01	-4.27270520152E+01	-5.86104429462E+00	-1.12862152175E+00
2.56351816869E+06	-1.85711639507E+01	1.58349801320E+02	1.40876345473E+01	1.63797392314E+02	-4.29557443284E+01	-6.42557704141E+01	-5.87571617697E+00	-1.21954413923E+00
2.58570952328E+06	-1.54644259464E+01	1.51312009807E+02	1.40967249866E+01	1.63646797214E+02	-3.98068580487E+01	-1.65453136046E+02	-5.80496524844E+00	-1.04862832468E+00
2.60790087788E+06	-2.41050400294E+01	-1.66212810417E+02	1.41595632659E+01	1.63400662970E+02	-4.51396440746E+01	1.27393394755E+01	-5.88429547304E+00	-1.17048475781E+00
2.63009223247E+06	-1.80694411084E+01	-1.60343219631E+02	1.41169920906E+01	1.63028285837E+02	-4.30458536501E+01	-1.49791218182E+02	-5.83420305824E+00	-7.98481200414E-01
2.65228358707E+06	-1.46733524551E+01	-1.67848748544E+02	1.41170660454E+01	1.62894060866E+02	-5.16672663575E+01	-9.39472453582E+01	-5.85974698462E+00	-1.24939108819E+00
2.67447494166E+06	-1.52389026754E+01	-1.79163332413E+02	1.41012244586E+01	1.62791909905E+02	-4.64726462289E+01	5.92369680356E+01	-5.87185146206E+00	-1.51792346435E+00
2.69666629626E+06	-1.68504286182E+01	-1.61411884252E+02	1.41260102392E+01	1.62512559542E+02	-5.45952055366E+01	-1.39847235067E+02	-5.82645402651E+00	-1.53136951959E+00
2.71885765085E+06	-2.21198185570E+01	-1.05993529550E+02	1.41882486129E+01	1.62708122876E+02	-4.47347175452E+01	-3.91445006797E+01	-5.87143540019E+00	-1.26128341397E+00
2.74104900545E+06	-1.89407999730E+01	1.79435304696E+02	1.41483008200E+01	1.62547589968E+02	-4.04164316740E+01	-1.24506699470E+02	-5.81491678882E+00	-1.18537228875E+00
2.76324036004E+06	-1.74945691342E+01	-1.60452366278E+02	1.41573249919E+01	1.62241025569E+02	-4.32793107791E+01	-9.97362263892E+01	-5.85401577991E+00	-1.16978782818E+00
2.78543171463E+06	-1.57346424937E+01	-1.59205891402E+02	1.41317589024E+01	1.61853009910E+02	-3.71758284197E+01	7.80050885714E+01	-5.83423336111E+00	-1.74356654396E+00
2.80762306923E+06	-1.99209417016E+01	1.74845487001E+02	1.41296672938E+01	1.62011394954E+02	-5.47260484545E+01	1.55271834507E+02	-5.85299132207E+00	-1.25610692155E+00
2.82981442382E+06	-1.93075632929E+01	1.61293579456E+02	1.41063330695E+01	1.61976392290E+02	-4.64278331455E+01	1.26707286286E+02	-5.81026541402E+00	-1.59648426883E+00
2.85200577842E+06	-1.88137766328E+01	-1.66581067631E+02	1.41441560317E+01	1.61490643873E+02	-4.62895707977E+01	-6.12468684915E-01	-5.86224446687E+00	-1.45138968902E+00
2.87419713301E+06	-1.16338264234E+01	1.66241507293E+02	1.40839235080E+01	1.61462502797E+02	-4.85615033744E+01	-1.87592931138E+01	-5.83975351061E+00	-1.48648568605E+00
