# Hz S DB R 50
! CMT, M5065, 19127446, 24.2.4/2
! Date: 11/8/2024 4:10:51 PM
! Data: Format (Calibration Info)
! Freq	S11:dB/Ang(F2)	S21:dB/Ang(F2)	S12:dB/Ang(F2)	S22:dB/Ang(F2)
3.00000000000E+05	-2.50434733033E+01	1.65676105547E+02	1.46791589672E+01	-1.76742789691E+02	-5.21618426234E+01	-1.63249703134E+01	-5.86178232288E+00	-3.30341382225E-01
3.22191354595E+05	-1.64472975759E+01	-1.51671109568E+02	1.46850639192E+01	-1.77553232458E+02	-4.73982910918E+01	-1.63200285117E+02	-5.82612852088E+00	-3.62936524923E-01
3.44382709190E+05	-2.83934044288E+01	1.48068544039E+02	1.47129282297E+01	-1.77826168408E+02	-4.92175786485E+01	1.10449684756E+02	-5.81783454425E+00	-4.17172971567E-01
3.66574063785E+05	-1.58723864578E+01	-1.75393732331E+02	1.46488042429E+01	-1.78374704804E+02	-3.72676207744E+01	4.78484413055E+01	-5.85104832159E+00	-5.74492525411E-01
3.88765418380E+05	-2.29252926298E+01	-1.63416801574E+02	1.46721420916E+01	-1.78929383510E+02	-4.64242034611E+01	-9.03024174707E+01	-5.87043966866E+00	3.40088547018E-02
4.10956772975E+05	-1.89408891105E+01	-1.46462762178E+02	1.47213955268E+01	-1.79278792376E+02	-5.30512053630E+01	1.37737700693E+02	-5.81891237413E+00	-5.44062075382E-01
4.33148127570E+05	-1.48512904229E+01	-1.69669106740E+02	1.46482340907E+01	-1.79548235588E+02	-4.64920690207E+01	-1.24506833019E+02	-5.84457261956E+00	-1.21875276143E-01
4.55339482165E+05	-2.00366753352E+01	-1.49083746842E+02	1.46938569817E+01	1.79995922367E+02	-4.33134827377E+01	1.56525334597E+02	-5.81502049822E+00	-3.51349983035E-01
4.77530836760E+05	-1.86943956608E+01	-1.52211468318E+02	1.47137362253E+01	1.79871870607E+02	-5.65553387689E+01	1.01829742051E+02	-5.82401288707E+00	-3.98443056903E-01
4.99722191355E+05	-1.52106249705E+01	1.40888551165E+02	1.46761941595E+01	1.79750782957E+02	-5.31279491589E+01	1.34883333263E+02	-5.82934529333E+00	-3.28105832628E-01
5.21913545950E+05	-1.58562339098E+01	1.67297419870E+02	1.46654800631E+01	1.79254676541E+02	-3.29683447151E+01	7.71739333634E+01	-5.84659625616E+00	-9.46111383749E-01
5.44104900545E+05	-1.82886159963E+01	-1.59086149632E+02	1.47002918692E+01	1.78946217797E+02	-4.16591657914E+01	1.61994655510E+02	-5.79208758496E+00	-3.35960207127E-01
5.66296255139E+05	-1.85115936761E+01	-1.54823789354E+02	1.46782584064E+01	1.78798863619E+02	-4.26367740882E+01	2.22680446666E+01	-5.84484581544E+00	-3.64746600717E-01
5.88487609734E+05	-1.63600285498E+01	-1.60538439299E+02	1.46720535441E+01	1.78429402864E+02	-4.63321999794E+01	1.22794271689E+02	-5.81906690869E+00	-4.48002047775E-01
6.10678964329E+05	-1.92230213280E+01	1.52307027447E+02	1.47002419367E+01	1.78309534251E+02	-4.61540999368E+01	-4.63861053054E+01	-5.86822007486E+00	9.18224311265E-02
6.32870318924E+05	-1.37987069730E+01	-1.69700038879E+02	1.46516640158E+01	1.78006118479E+02	-4.60347511665E+01	1.13687219438E+02	-5.83225884495E+00	-2.96149558777E-01
6.55061673519E+05	-1.45090249522E+01	1.75431177153E+02	1.46652479662E+01	1.77727893479E+02	-4.23702408395E+01	8.28616413148E+01	-5.85320935877E+00	-4.99920124694E-01
6.77253028114E+05	-1.73493838425E+01	-1.69848580460E+02	1.46722299251E+01	1.77601471809E+02	-4.11632072140E+01	-1.52403707373E+02	-5.79371075514E+00	-6.16255380777E-01
6.99444382709E+05	-1.85105580001E+01	-1.77733156563E+02	1.46794778193E+01	1.77356940819E+02	-4.80875250621E+01	-1.46680314460E+02	-5.82116307196E+00	-2.81873996166E-01
7.21635737304E+05	-2.08546926255E+01	1.57022297118E+02	1.47045862856E+01	1.77082137981E+02	-4.89052045414E+01	-1.08901915951E+02	-5.82989919426E+00	-4.05323104282E-01
7.43827091899E+05	-1.30928547379E+01	-1.79033928218E+02	1.46373697711E+01	1.76882092854E+02	-4.04126970507E+01	-1.24280880338E+01	-5.86437874208E+00	-4.81446243576E-01
7.66018446494E+05	-2.53052199626E+01	-1.68134556913E+02	1.47083121336E+01	1.76540914217E+02	-4.87593345537E+01	-1.77341999883E+02	-5.83346233797E+00	-5.24343591767E-01
7.88209801089E+05	-1.64332573684E+01	-1.70819950094E+02	1.46679281343E+01	1.76370818153E+02	-4.61097594438E+01	-1.01229687348E+02	-5.84271555159E+00	-3.54220200789E-01
8.10401155684E+05	-2.72886956919E+01	-3.97511619563E+01	1.46907487543E+01	1.76407402419E+02	-4.12463738998E+01	-1.36037899844E+02	-5.80762503915E+00	-3.25703121258E-01
8.32592510279E+05	-1.76127203219E+01	1.47402914405E+02	1.46895383535E+01	1.76190766982E+02	-5.03899254026E+01	-3.81132529817E+01	-5.81531663243E+00	-5.51070217700E-01
8.54783864874E+05	-1.62348953127E+01	1.71231639257E+02	1.46735262984E+01	1.75924782459E+02	-4.11755813732E+01	1.04306351007E+01	-5.81507767719E+00	-5.72461142115E-01
8.76975219469E+05	-1.77583348117E+01	1.57660966688E+02	1.46716196316E+01	1.75815445189E+02	-4.79767540601E+01	-4.47375415877E+01	-5.83376155635E+00	-4.55773963629E-01
8.99166574064E+05	-1.47553154799E+01	-1.71976223141E+02	1.46787591557E+01	1.75218971302E+02	-5.08598236628E+01	2.35452248649E+01	-5.86516637691E+00	-7.36976595893E-01
9.21357928659E+05	-2.33892162388E+01	-1.64147834273E+02	1.46970311730E+01	1.75136557004E+02	-4.48346267489E+01	4.52330391392E+01	-5.88051982739E+00	-6.09561857295E-01
9.43549283254E+05	-1.38924109371E+01	1.72467304617E+02	1.46230467556E+01	1.74986925215E+02	-4.03538248455E+01	-8.78433947952E+01	-5.86680043139E+00	-2.67414351753E-01
9.65740637849E+05	-3.61238660591E+01	1.66201003187E+02	1.46990648341E+01	1.75138145010E+02	-5.78145354186E+01	-8.09264990915E+01	-5.83131563125E+00	-5.23220907930E-01
9.87931992444E+05	-1.66649613188E+01	-1.63411206633E+02	1.46748619097E+01	1.74640566768E+02	-4.90213555366E+01	-2.64017518021E+00	-5.85179657235E+00	-4.40838268729E-01
1.01012334704E+06	-1.91239317946E+01	-1.42036659941E+02	1.46842326750E+01	1.74541373668E+02	-4.54056310120E+01	1.08474068990E+02	-5.83512326382E+00	-7.13867157266E-01
1.03231470163E+06	-2.09045145583E+01	1.67894261193E+02	1.46874429942E+01	1.74507619279E+02	-4.22677038790E+01	-9.09853806042E+01	-5.85671971270E+00	-2.97245003238E-01
1.05450605623E+06	-2.00953424114E+01	-1.61560897235E+02	1.46864575986E+01	1.74144564886E+02	-5.72831454528E+01	1.31859819620E+02	-5.84422790933E+00	-4.51232039736E-01
1.07669741082E+06	-1.72656920819E+01	-1.75559921797E+02	1.46576002310E+01	1.73743004938E+02	-4.67134420880E+01	-7.22292408546E+01	-5.84174671941E+00	-4.68538699278E-01
1.09888876542E+06	-1.71271387452E+01	-1.65338163584E+02	1.46844426793E+01	1.73723439326E+02	-4.71648522084E+01	-1.11486973836E+01	-5.86522559272E+00	-7.31892440710E-01
1.12108012001E+06	-1.51310484069E+01	-1.38665233003E+02	1.46653431884E+01	1.73437954295E+02	-4.26321633144E+01	1.58282925961E+02	-5.80913948335E+00	-6.55191127551E-01
1.14327147461E+06	-1.74558377467E+01	-1.42384818752E+02	1.46744687392E+01	1.73228490641E+02	-4.98669324576E+01	-4.15004813305E+01	-5.83791053509E+00	-4.78517389632E-01
1.16546282920E+06	-2.11771469256E+01	1.79694768362E+02	1.47000250943E+01	1.73310628017E+02	-3.99658684271E+01	-1.51822067428E+02	-5.80402224914E+00	-4.90276142117E-01
1.18765418380E+06	-2.13284681247E+01	1.73107475978E+02	1.46833169041E+01	1.73085625909E+02	-4.24505454553E+01	-6.06694344444E+01	-5.86499434892E+00	-4.39905778965E-01
1.20984553839E+06	-1.33124482265E+01	-1.49080736803E+02	1.46584278547E+01	1.72501089513E+02	-5.54577504414E+01	-8.07721773763E+01	-5.83724563278E+00	-6.05297164213E-01
1.23203689299E+06	-1.72822388062E+01	1.56497338213E+02	1.46438711026E+01	1.72755046926E+02	-4.25801367927E+01	1.46106715637E+02	-5.80181916840E+00	-4.85699601840E-01
1.25422824758E+06	-1.52892741841E+01	-1.69436958549E+02	1.46393194864E+01	1.72297902447E+02	-3.82352659278E+01	4.67489844782E+01	-5.85591710324E+00	-1.10814480939E+00
1.27641960218E+06	-1.20022185662E+01	-1.64477481230E+02	1.46282155286E+01	1.72155601253E+02	-4.15608856054E+01	-9.59931914326E+01	-5.85106505398E+00	-5.39665616832E-01
1.29861095677E+06	-2.03748275096E+01	1.53249466242E+02	1.46747022436E+01	1.72210351628E+02	-4.20815487815E+01	4.38041715561E+01	-5.85449677573E+00	-7.81394188759E-01
1.32080231137E+06	-1.87102827509E+01	-1.60250503935E+02	1.46600918885E+01	1.72011538176E+02	-4.34799005418E+01	1.68206618268E+02	-5.82767188306E+00	-9.65973842037E-01
1.34299366596E+06	-1.93555437110E+01	-1.53477946066E+02	1.46902594765E+01	1.71742705870E+02	-4.89491534103E+01	-8.20617261207E+01	-5.83246938446E+00	-6.47417646221E-01
1.36518502056E+06	-1.50324095682E+01	1.57880697725E+02	1.46451794887E+01	1.71833108592E+02	-3.99660952814E+01	-6.67532121788E+01	-5.82991761457E+00	-5.15038088071E-01
1.38737637515E+06	-1.70695736314E+01	-1.51097983784E+02	1.46867560599E+01	1.71268673818E+02	-4.60334869255E+01	-1.67712134754E+02	-5.85067998228E+00	-6.87196417599E-01
1.40956772975E+06	-1.64663105745E+01	1.77351341803E+02	1.46459829943E+01	1.71376970834E+02	-5.24451430120E+01	-2.99940910258E+01	-5.82902919896E+00	-6.89145634778E-01
1.43175908434E+06	-2.59030190822E+01	1.90271811562E+01	1.47120716857E+01	1.71305031192E+02	-4.52005168999E+01	1.18954915829E+02	-5.79887462151E+00	-9.01843703308E-01
1.45395043894E+06	-2.06421200034E+01	1.65913135455E+02	1.46657359776E+01	1.71218931698E+02	-4.56470042017E+01	7.16968832813E+00	-5.85297185059E+00	-8.56814423978E-01
1.47614179353E+06	-1.87865548175E+01	-1.42841939754E+02	1.46805342491E+01	1.70856453404E+02	-4.65381159075E+01	4.07041862730E+00	-5.85175527817E+00	-9.98063170821E-01
1.49833314813E+06	-2.05572255682E+01	1.68640672893E+02	1.46720661881E+01	1.70815550376E+02	-4.48875118344E+01	7.78937105790E+00	-5.85517370853E+00	-8.54677903465E-01
1.52052450272E+06	-1.80556569978E+01	-1.65583689691E+02	1.46694529098E+01	1.70459764956E+02	-4.25108246740E+01	-1.40174559026E+02	-5.81705637837E+00	-5.56077004201E-01
1.54271585732E+06	-1.71123701536E+01	-1.66474281278E+02	1.46863778127E+01	1.70373547746E+02	-4.34202924112E+01	-8.16652667173E+01	-5.85422582383E+00	-6.75040096398E-01
1.56490721191E+06	-2.29056977142E+01	-1.43249753117E+02	1.46966129549E+01	1.70136680751E+02	-4.30252968218E+01	9.88306630440E+01	-5.81860526459E+00	-1.05084996476E+00
1.58709856651E+06	-1.56404317233E+01	-1.50023114332E+02	1.46905306035E+01	1.69946863200E+02	-4.48335160050E+01	1.98161487335E+01	-5.82985497222E+00	-9.40554357825E-01
1.60928992110E+06	-1.63362985388E+01	1.61577666825E+02	1.46466516812E+01	1.70029317995E+02	-4.94339268496E+01	-1.01953852040E+02	-5.82917320884E+00	-5.42903857662E-01
1.63148127570E+06	-2.27584073522E+01	1.68322755315E+02	1.46927100661E+01	1.69729996224E+02	-4.26154003572E+01	7.45459076957E+01	-5.83282735006E+00	-9.79908574177E-01
1.65367263029E+06	-1.48882055545E+01	1.66271339578E+02	1.46348190051E+01	1.69650010676E+02	-4.52189748795E+01	3.28314202374E+01	-5.84547060677E+00	-8.28984170248E-01
1.67586398489E+06	-1.58306579767E+01	1.72161654480E+02	1.46576981176E+01	1.69489424072E+02	-5.03720516014E+01	-1.24094781405E+02	-5.82716206803E+00	-6.80654502763E-01
1.69805533948E+06	-1.50970115691E+01	1.52313905067E+02	1.46437427219E+01	1.69480255245E+02	-4.71628275247E+01	-9.83708932539E+01	-5.82585162365E+00	-8.17576325463E-01
1.72024669408E+06	-1.68164656577E+01	1.73731049003E+02	1.46519770501E+01	1.69137678208E+02	-4.79733212937E+01	2.76874097354E+00	-5.86345702771E+00	-8.74889236843E-01
1.74243804867E+06	-1.89275008936E+01	1.70769625087E+02	1.46674563137E+01	1.68884025419E+02	-5.40328872233E+01	-1.30063038911E+02	-5.82419924824E+00	-1.04770372509E+00
1.76462940327E+06	-1.48736733855E+01	1.52041829050E+02	1.46378952254E+01	1.68634321880E+02	-4.21370168701E+01	1.55972003488E+02	-5.82628863014E+00	-1.03150959121E+00
1.78682075786E+06	-1.61111826842E+01	-1.73224167518E+02	1.46523487052E+01	1.68552618130E+02	-3.60098678233E+01	1.00828895348E+02	-5.78584412115E+00	-1.19671958866E+00
1.80901211246E+06	-1.79962124159E+01	-1.73578272659E+02	1.46728786015E+01	1.68324352158E+02	-4.45812860365E+01	1.44327275825E+02	-5.80988360119E+00	-1.04361688062E+00
1.83120346705E+06	-2.33101185944E+01	1.79216328540E+02	1.46824690376E+01	1.68222251903E+02	-4.46704631623E+01	-4.96886059381E+00	-5.84635441068E+00	-9.21014348895E-01
1.85339482165E+06	-1.80907934904E+01	-1.75099256277E+02	1.46582004599E+01	1.68113663605E+02	-4.92698080989E+01	-4.11084641925E+00	-5.84175580688E+00	-9.78142200528E-01
1.87558617624E+06	-1.91519537578E+01	-1.59921328528E+02	1.46870098275E+01	1.67827796681E+02	-4.93332111815E+01	3.53342726622E+01	-5.85465996488E+00	-1.15491874747E+00
1.89777753084E+06	-1.24274830437E+01	-1.75687072742E+02	1.46430569272E+01	1.67721461911E+02	-4.03308628042E+01	-3.60888414491E+01	-5.86157536945E+00	-8.69002221324E-01
1.91996888543E+06	-2.29168558949E+01	-1.99724573845E+01	1.47286253635E+01	1.67618480126E+02	-4.70975290593E+01	-2.72234408271E+01	-5.84504914134E+00	-1.04004256766E+00
1.94216024003E+06	-2.71742041205E+01	-1.71364278707E+02	1.46931409341E+01	1.67658825506E+02	-3.89794643902E+01	7.18180997028E+01	-5.85028108110E+00	-1.34050600238E+00
1.96435159462E+06	-1.70583685103E+01	1.58842217065E+02	1.46525923180E+01	1.67534449959E+02	-4.64242725608E+01	1.50965049749E+02	-5.79260829738E+00	-9.72054056410E-01
1.98654294922E+06	-1.39360894787E+01	1.74347032636E+02	1.46374249757E+01	1.67171039115E+02	-4.13978584315E+01	1.71304962511E+02	-5.79522115880E+00	-9.11933388915E-01
2.00873430381E+06	-1.84876962845E+01	1.61659617880E+02	1.46613753556E+01	1.67102578970E+02	-4.98374761821E+01	1.91617314808E+01	-5.86402816195E+00	-1.11397976613E+00
2.03092565841E+06	-1.97952903110E+01	-1.70924246334E+02	1.46678509457E+01	1.66934619415E+02	-4.73943103560E+01	5.56451457598E+01	-5.82705169366E+00	-9.70197022111E-01
2.05311701300E+06	-1.81224694944E+01	-8.63951981162E+01	1.47109591904E+01	1.66525528223E+02	-5.00902163686E+01	-3.54086847118E+01	-5.85362369633E+00	-1.05903922262E+00
2.07530836760E+06	-1.53572547398E+01	1.15831945128E+02	1.46457786215E+01	1.66840202503E+02	-4.89094805396E+01	4.09347089182E+01	-5.84786762765E+00	-1.11396918942E+00
2.09749972219E+06	-1.72182885416E+01	-1.73742516522E+02	1.46714005043E+01	1.66331576306E+02	-3.64044476012E+01	-5.76910263607E+01	-5.87531197412E+00	-9.02498025148E-01
2.11969107679E+06	-1.30931266681E+01	-1.68228306442E+02	1.46326738754E+01	1.66006292459E+02	-4.46425522313E+01	-7.99442936592E+01	-5.84041367615E+00	-9.59982109753E-01
2.14188243138E+06	-1.49631309774E+01	-1.60415399454E+02	1.46581213222E+01	1.65857837364E+02	-5.27596074664E+01	-4.18419435628E+01	-5.85740188639E+00	-9.97092233180E-01
2.16407378598E+06	-2.14106219471E+01	-1.66365308401E+02	1.46755472795E+01	1.65978826801E+02	-4.32981717866E+01	4.30837046469E+01	-5.85542405968E+00	-1.36865790457E+00
2.18626514057E+06	-1.85175652271E+01	-1.76491258416E+02	1.46652899317E+01	1.65943286522E+02	-4.89782809297E+01	-1.01429643745E+02	-5.85844445790E+00	-1.01195780075E+00
2.20845649517E+06	-1.61457401736E+01	-1.39961009984E+02	1.46814233958E+01	1.65398176738E+02	-5.03553287941E+01	-1.39908974090E+02	-5.83533890492E+00	-1.18208282202E+00
2.23064784976E+06	-1.19097522432E+01	-1.58199877085E+02	1.46643971214E+01	1.65096720784E+02	-5.02183325673E+01	-8.75593438411E+01	-5.83056208934E+00	-1.00235141022E+00
2.25283920436E+06	-2.26303004835E+01	-1.58988634269E+02	1.46812429516E+01	1.65185846366E+02	-5.68772249657E+01	-7.74531099206E+01	-5.85180521888E+00	-1.17834127648E+00
2.27503055895E+06	-2.43478145875E+01	1.30180945179E+02	1.46710452974E+01	1.65381148920E+02	-3.27197193115E+01	8.12714590122E+01	-5.81863719074E+00	-1.59977807807E+00
2.29722191355E+06	-1.86688827804E+01	-1.46347985205E+02	1.46841047732E+01	1.64825445756E+02	-4.39073066066E+01	-1.58062828720E+02	-5.81494588915E+00	-9.88155132735E-01
2.31941326814E+06	-1.64189111751E+01	1.79100683761E+02	1.46480509859E+01	1.64756921196E+02	-4.76802553169E+01	4.83258383041E+01	-5.85583107390E+00	-1.15325911085E+00
2.34160462274E+06	-1.76165395700E+01	1.62482791621E+02	1.46531462884E+01	1.64815873987E+02	-5.06104822028E+01	-1.04242704535E+02	-5.85805071135E+00	-1.13435343583E+00
2.36379597733E+06	-1.79782579668E+01	1.65149818234E+02	1.46508741528E+01	1.64475547651E+02	-4.72043594800E+01	-1.76132901869E+02	-5.81939234544E+00	-1.11932141317E+00
2.38598733193E+06	-1.01031690932E+01	1.61953149622E+02	1.46510473054E+01	1.64095148848E+02	-4.11995400076E+01	-1.68920532630E+02	-5.77025809374E+00	-1.13100882252E+00
2.40817868652E+06	-1.32744356227E+01	1.75244061964E+02	1.45945585363E+01	1.63934003482E+02	-4.00463211255E+01	-1.65560984182E+02	-5.82172025441E+00	-1.30966565390E+00
2.43037004112E+06	-1.56877243811E+01	1.67745333957E+02	1.46422270770E+01	1.64060413807E+02	-3.81737110542E+01	-1.07048187874E+02	-5.83928314208E+00	-1.36159540371E+00
2.45256139571E+06	-1.77393380380E+01	1.67771290006E+02	1.46448376254E+01	1.63863898322E+02	-4.36095423739E+01	2.89930563242E+01	-5.85858612563E+00	-1.43072619480E+00
2.47475275031E+06	-1.64544988650E+01	-1.65312901665E+02	1.46590474785E+01	1.63612623201E+02	-4.29452635668E+01	-1.68914184189E+02	-5.81884262226E+00	-1.14103416927E+00
2.49694410490E+06	-1.60641031171E+01	1.73378798734E+02	1.46541492957E+01	1.63453965927E+02	-4.23696722096E+01	1.38688910413E+02	-5.80445080837E+00	-1.20524257230E+00
2.51913545950E+06	-1.47876328744E+01	1.75204075849E+02	1.46465173204E+01	1.63349465070E+02	-4.28688316943E+01	2.97910304449E+01	-5.86391674656E+00	-1.30516927341E+00
2.54132681409E+06	-1.48299662081E+01	1.35984874720E+02	1.46593830120E+01	1.63370687124E+02	-4.81796298905E+01	-1.19749696509E+02	-5.86710148941E+00	-1.10665547570E+00
2.56351816869E+06	-1.87925639485E+01	-1.56599435584E+02	1.46740342472E+01	1.62942975151E+02	-4.39516264135E+01	-1.32074857921E+02	-5.85782429648E+00	-1.15334354564E+00
2.58570952328E+06	-1.58825589287E+01	-1.67364797065E+02	1.46565506275E+01	1.62776982541E+02	-3.98484965678E+01	9.29348965958E+01	-5.83473776248E+00	-1.58308130751E+00
2.60790087788E+06	-1.60252179518E+01	1.71206287986E+02	1.46525346880E+01	1.62797620481E+02	-4.67134241046E+01	-1.17491384252E+02	-5.84779694997E+00	-8.66922573631E-01
2.63009223247E+06	-2.33512533862E+01	-1.38813750286E+02	1.47032948272E+01	1.62764832741E+02	-5.14257278041E+01	-1.56270514156E+02	-5.84693858801E+00	-9.41245064481E-01
2.65228358707E+06	-1.46612066532E+01	-1.71570210693E+02	1.46516711669E+01	1.62269275218E+02	-5.44306082740E+01	-1.43223755231E+02	-5.82347942320E+00	-1.25512252373E+00
2.67447494166E+06	-1.40987350590E+01	-1.68667154188E+02	1.46532980262E+01	1.61998877285E+02	-4.60478984313E+01	-1.51843262493E+02	-5.82055271386E+00	-1.22841054709E+00
2.69666629626E+06	-1.36525475470E+01	1.47816765145E+02	1.45990471790E+01	1.62270981337E+02	-4.57784725010E+01	4.07834492032E+01	-5.85057964707E+00	-1.59765772811E+00
2.71885765085E+06	-1.69314024478E+01	-1.58849513420E+02	1.46745059956E+01	1.61756842356E+02	-4.78442378702E+01	-1.64049344095E+02	-5.80792021130E+00	-1.35586775636E+00
2.74104900545E+06	-1.93499367377E+01	-1.63735316122E+02	1.46865305718E+01	1.61822388856E+02	-4.27039022605E+01	-1.24936036648E+02	-5.84606178646E+00	-1.09576473717E+00
2.76324036004E+06	-1.63650355671E+01	1.58675788595E+02	1.46416332509E+01	1.61790776040E+02	-4.54442230592E+01	-7.68896470032E+01	-5.86185430867E+00	-1.20927306187E+00
2.78543171463E+06	-2.05187110915E+01	-1.70224178648E+02	1.46910397113E+01	1.61530660605E+02	-4.51988745431E+01	-5.29697085615E+00	-5.85925630696E+00	-1.49939415148E+00
2.80762306923E+06	-1.51257306797E+01	-1.65523107736E+02	1.46528963014E+01	1.61335661710E+02	-4.50849700884E+01	-3.28183133601E+01	-5.85439868818E+00	-1.43062456359E+00
2.82981442382E+06	-1.51801268858E+01	-1.51131011313E+02	1.46903943071E+01	1.60778767595E+02	-4.51988881269E+01	9.75004671741E+01	-5.82454980663E+00	-1.42799436179E+00
2.85200577842E+06	-1.35586531599E+01	-1.46497575568E+02	1.46922184043E+01	1.60573821236E+02	-4.70573566216E+01	-3.55280191586E+01	-5.83457177280E+00	-1.32244317442E+00
2.87419713301E+06	-1.54249121716E+01	-1.48852360479E+02	1.46560735020E+01	1.60581011290E+02	-3.87373599653E+01	-4.79520821812E+01	-5.88390274709E+00	-1.41622267283E+00
