# Hz S DB R 50
! CMT, M5065, 19127446, 24.2.4/2
! Date: 11/8/2024 4:21:44 PM
! Data: Format (Calibration Info)
! Freq	S11:dB/Ang(F2)	S21:dB/Ang(F2)	S12:dB/Ang(F2)	S22:dB/Ang(F2)
3.00000000000E+05	-1.84118386880E+01	1.64960625422E+02	3.78460493060E+01	1.79831448468E+02	-4.25587559673E+01	-3.58561093374E+01	-6.16633701004E+00	-2.21368320659E-01
3.22191354595E+05	-1.52330295026E+01	-1.58924224554E+02	3.77961613646E+01	1.75705874936E+02	-4.18160384865E+01	1.16993140202E+01	-6.18747271227E+00	-1.45767722025E+00
3.44382709190E+05	-2.06449426465E+01	-1.23532987360E+02	3.78365564650E+01	1.72097862909E+02	-4.43013824818E+01	-7.36948874974E+01	-5.72939911876E+00	7.25719758382E-01
3.66574063785E+05	-1.85656667711E+01	-1.77670112003E+02	3.77994020599E+01	1.69313345499E+02	-4.06204861479E+01	-1.42342533433E+02	-5.39091474941E+00	-8.29442324468E-03
3.88765418380E+05	-1.65451764721E+01	-1.24741758028E+02	3.77767377278E+01	1.65849054592E+02	-3.99566072173E+01	1.70488728513E+02	-5.63066802502E+00	-9.81890196951E-01
4.10956772975E+05	-1.49935313901E+01	-1.70120349927E+02	3.77078120953E+01	1.63640681873E+02	-4.39518106743E+01	9.23754461486E+01	-5.82269984571E+00	-3.99382365034E+00
4.33148127570E+05	-1.78194447283E+01	-1.51954046952E+02	3.76883019690E+01	1.61138633408E+02	-4.55351933433E+01	-1.18968660512E+02	-5.57445656987E+00	-4.34657199733E-02
4.55339482165E+05	-1.31255095293E+01	1.73960517393E+02	3.76160680931E+01	1.59061137789E+02	-3.82590669015E+01	-1.03758608930E+02	-5.54454251505E+00	1.76813724941E+00
4.77530836760E+05	-1.64190944956E+01	-1.78696291294E+02	3.76047796895E+01	1.56824115734E+02	-4.20799202358E+01	1.13936087505E+02	-5.71876425401E+00	-4.21581057122E+00
4.99722191355E+05	-1.81763739978E+01	-1.40509685817E+02	3.75630956183E+01	1.54572796391E+02	-5.96060505521E+01	-6.99263724025E+01	-5.83983377120E+00	2.23099904195E-02
5.21913545950E+05	-1.46111267414E+01	1.73210826025E+02	3.75104762918E+01	1.52839572614E+02	-5.22935932844E+01	1.51402511325E+02	-5.70183230097E+00	-2.13325935776E+00
5.44104900545E+05	-1.55718281726E+01	-1.66684794964E+02	3.74372771280E+01	1.50732857760E+02	-4.77357497889E+01	8.79114446320E+01	-5.99107822834E+00	-2.55793747127E+00
5.66296255139E+05	-1.87190635960E+01	-1.67322575395E+02	3.74287112238E+01	1.49171782484E+02	-4.63097506439E+01	9.42340822533E+01	-5.89251845357E+00	-2.56199466009E+00
5.88487609734E+05	-1.17960164720E+01	-1.72228227491E+02	3.73179397198E+01	1.47473133345E+02	-4.38553939145E+01	-1.26777440215E+02	-5.55407962121E+00	2.72927512626E-02
6.10678964329E+05	-1.70722876067E+01	-1.71128859456E+02	3.73160534364E+01	1.45921819881E+02	-4.77463390681E+01	1.40712713364E+02	-5.80104019919E+00	-1.91247729333E+00
6.32870318924E+05	-1.72100476029E+01	1.78205547825E+02	3.72319949739E+01	1.44533274396E+02	-4.30240165457E+01	-6.89397885101E+01	-5.88089653266E+00	2.43837699352E+00
6.55061673519E+05	-2.22418897400E+01	-1.77443423991E+02	3.71997758394E+01	1.42969938731E+02	-5.27285474010E+01	-8.03007621021E+01	-5.88268947239E+00	-1.67717759823E-01
6.77253028114E+05	-1.64747468993E+01	-1.72525780437E+02	3.71020578316E+01	1.41465014373E+02	-4.10757297395E+01	6.27681610808E+01	-6.20074530185E+00	-3.29944578056E+00
6.99444382709E+05	-1.86082530227E+01	-1.51520040863E+02	3.70533280109E+01	1.40012770554E+02	-4.28492101212E+01	-1.26734854397E+02	-5.57818997907E+00	7.27149012636E-03
7.21635737304E+05	-1.70992345097E+01	-1.45591475277E+02	3.69603296712E+01	1.38696406384E+02	-5.82308039407E+01	-1.00013025852E+02	-5.85843900328E+00	-1.05446672278E+00
7.43827091899E+05	-1.59185978905E+01	-1.54267343452E+02	3.68884703148E+01	1.37407703347E+02	-4.85436103928E+01	9.71544101950E+01	-5.84541374724E+00	-2.18357165622E+00
7.66018446494E+05	-1.48291467701E+01	-1.66231848107E+02	3.67756832387E+01	1.36360128831E+02	-3.79387355887E+01	-5.73393753303E+01	-5.80738217236E+00	3.56821237086E+00
7.88209801089E+05	-1.98411943754E+01	-1.65546308240E+02	3.67374521397E+01	1.35201038272E+02	-4.88329486393E+01	1.67067454576E+02	-5.66442205605E+00	-2.01322528543E+00
8.10401155684E+05	-1.41099575243E+01	1.62229807154E+02	3.66198278198E+01	1.34314818071E+02	-4.68299118314E+01	6.94565367188E+01	-6.02745173372E+00	-1.35397330617E+00
8.32592510279E+05	-1.64149839095E+01	-1.72350728750E+02	3.65450939322E+01	1.33082331367E+02	-5.31746808737E+01	-2.52933354175E+01	-5.93157963861E+00	1.40474013488E-02
8.54783864874E+05	-1.89770826665E+01	1.56796723879E+02	3.64570753357E+01	1.32189317224E+02	-4.73798662951E+01	-9.61778925702E+00	-6.03065505243E+00	2.73408978318E-01
8.76975219469E+05	-1.87187624328E+01	-1.75865283935E+02	3.63468866327E+01	1.30941921263E+02	-4.48588712882E+01	-7.86915217110E+01	-5.76133382437E+00	3.96828510133E-01
8.99166574064E+05	-1.79757372748E+01	1.79999624421E+02	3.62517236248E+01	1.30080800689E+02	-5.34739388076E+01	1.64369623959E+02	-5.85035103601E+00	-9.15911644513E-01
9.21357928659E+05	-1.37918375206E+01	-1.75541619174E+02	3.61219714607E+01	1.28976718431E+02	-3.37499750941E+01	1.26761204368E+02	-5.80648522591E+00	-6.92202769670E+00
9.43549283254E+05	-1.53741548786E+01	-1.62172113121E+02	3.60415792092E+01	1.27952032445E+02	-4.18187952168E+01	5.57249393035E+01	-6.18610931141E+00	-1.91048565477E+00
9.65740637849E+05	-3.01586684032E+01	-1.53746592428E+02	3.59732546562E+01	1.27188843226E+02	-4.43744520539E+01	1.72208275668E+02	-5.66387058876E+00	-1.56347867789E+00
9.87931992444E+05	-2.01078703882E+01	1.50940196171E+02	3.58558416272E+01	1.26545816371E+02	-4.14838309070E+01	-1.65974522617E+02	-5.53548542139E+00	-1.75073414502E+00
1.01012334704E+06	-1.83784211877E+01	1.45461026490E+02	3.57494814542E+01	1.25646039853E+02	-4.92728549023E+01	1.06924205424E+02	-5.93731973961E+00	-1.93126888176E+00
1.03231470163E+06	-1.88932274086E+01	-1.26081636372E+02	3.56465907130E+01	1.24513712318E+02	-4.30604024764E+01	-1.23395808933E+02	-5.53176924214E+00	-2.91066012662E-01
1.05450605623E+06	-2.23064019878E+01	-1.67199827218E+02	3.55237774944E+01	1.23885174171E+02	-4.25467159313E+01	-1.67540950402E+02	-5.52351605781E+00	-2.23199881983E+00
1.07669741082E+06	-1.49696628342E+01	-1.74988680996E+02	3.53929150445E+01	1.23067014695E+02	-5.34794819500E+01	-1.27707191866E+02	-5.48504921500E+00	9.30399423993E-02
1.09888876542E+06	-1.50952800319E+01	-1.69331329053E+02	3.52895644996E+01	1.22194566460E+02	-5.03955073101E+01	-2.33430046511E+01	-5.94042497034E+00	1.82517176551E-01
1.12108012001E+06	-1.53555618429E+01	-1.61552438005E+02	3.51729753616E+01	1.21441551367E+02	-4.15342946088E+01	1.21685920011E+02	-5.91995823847E+00	-3.20105519668E+00
1.14327147461E+06	-2.04490338039E+01	1.78326170786E+02	3.50572591241E+01	1.20956500189E+02	-4.27969996486E+01	7.66727128705E+01	-6.10586473167E+00	-2.05795902115E+00
1.16546282920E+06	-1.56093357213E+01	1.79953763791E+02	3.49155018804E+01	1.20177123766E+02	-4.97282175939E+01	1.75738136665E+02	-5.73817170256E+00	-1.60481673151E+00
1.18765418380E+06	-1.57507282820E+01	-1.61427252252E+02	3.48400227847E+01	1.19323239242E+02	-5.34491681568E+01	7.80843640988E+01	-5.96732890121E+00	-1.08113170974E+00
1.20984553839E+06	-1.62729128931E+01	-1.68386670074E+02	3.47066279796E+01	1.18609863263E+02	-4.32721079043E+01	1.25333678479E+02	-5.88176482428E+00	-2.73617310842E+00
1.23203689299E+06	-1.57433706322E+01	1.74431008387E+02	3.45759012649E+01	1.18017334093E+02	-4.22468639554E+01	5.99331808208E+01	-6.07122562865E+00	-6.97403772549E-01
1.25422824758E+06	-1.34518793005E+01	1.78529014557E+02	3.44413819070E+01	1.17476895329E+02	-4.55258541274E+01	3.45288950023E+01	-6.06558826975E+00	-3.04354919586E-01
1.27641960218E+06	-1.67859974873E+01	-1.57643304247E+02	3.43792120814E+01	1.16819200952E+02	-4.66389959501E+01	-1.24002146285E+02	-5.66673091639E+00	-5.84302878804E-01
1.29861095677E+06	-1.99888522775E+01	1.65820367679E+02	3.42669654617E+01	1.16409914377E+02	-5.02684886111E+01	-9.03904396752E+01	-5.78492553382E+00	-1.78512296151E-02
1.32080231137E+06	-3.20228712227E+01	-4.58735406812E+01	3.42066582684E+01	1.15712524280E+02	-4.12364856094E+01	-8.49402260983E+01	-5.66468035794E+00	7.26494132253E-01
1.34299366596E+06	-2.75367708138E+01	1.41572741427E+02	3.40525792382E+01	1.15215687767E+02	-5.33250106986E+01	-1.81224080795E+01	-5.94232905694E+00	-1.67902532305E-01
1.36518502056E+06	-1.71534575940E+01	1.77004226194E+02	3.39172441929E+01	1.14567269505E+02	-4.06755013747E+01	-5.05191780827E+01	-5.82116307341E+00	1.40251827991E+00
1.38737637515E+06	-1.18917836818E+01	-1.79686046889E+02	3.37753428676E+01	1.13803626501E+02	-3.99490443035E+01	-8.58227658978E+01	-5.60285467620E+00	9.41380820611E-01
1.40956772975E+06	-2.72699835662E+01	-1.74012513401E+02	3.37380706842E+01	1.13560642567E+02	-4.45276390149E+01	9.80060211129E+01	-5.94930925316E+00	-2.02465797620E+00
1.43175908434E+06	-1.81100694714E+01	1.67624145893E+02	3.35856553235E+01	1.12953440100E+02	-5.09410464637E+01	-5.03895722534E+01	-5.81622488359E+00	-8.65389791684E-02
1.45395043894E+06	-1.74563335390E+01	-1.70965414965E+02	3.34942146784E+01	1.12285575830E+02	-4.20956467644E+01	3.93481977791E+01	-6.18279095981E+00	-4.76194105696E-01
1.47614179353E+06	-1.66784118229E+01	-1.78578425779E+02	3.33568481832E+01	1.11747151243E+02	-4.89711182741E+01	8.74919783283E+01	-5.95157722103E+00	-1.29212867327E+00
1.49833314813E+06	-1.80401153914E+01	-1.54779117369E+02	3.32744009631E+01	1.11163518201E+02	-6.25884545609E+01	1.03547368251E+02	-5.83039182116E+00	-1.08310750005E+00
1.52052450272E+06	-1.64280089063E+01	1.55080760556E+02	3.31428170763E+01	1.10928219234E+02	-4.63199544731E+01	9.64099990295E+01	-5.94185816334E+00	-1.83847965420E+00
1.54271585732E+06	-2.31588147546E+01	-1.71839000593E+02	3.30660239354E+01	1.10458726190E+02	-4.02646369979E+01	1.54735742164E+02	-5.69721951098E+00	-3.18276226413E+00
1.56490721191E+06	-1.45309993733E+01	1.41925597984E+02	3.29168736447E+01	1.10078167192E+02	-4.96362813164E+01	-6.77639776240E+01	-5.75334588657E+00	-5.52782376206E-01
1.58709856651E+06	-1.45714958976E+01	1.70674845303E+02	3.28074650608E+01	1.09517131554E+02	-4.95792274922E+01	9.50616760174E+00	-5.94574452649E+00	-4.68275144032E-01
1.60928992110E+06	-1.65386146721E+01	1.62723340091E+02	3.27282788547E+01	1.09193764582E+02	-3.96895417232E+01	1.33477184834E+02	-5.84914638995E+00	-3.10845270721E+00
1.63148127570E+06	-1.13059115802E+01	-1.74656954842E+02	3.25822824475E+01	1.08374438172E+02	-4.96734097101E+01	1.74695378899E+02	-5.77098364799E+00	-1.61549445052E+00
1.65367263029E+06	-1.91677464958E+01	-1.61817314055E+02	3.25378211851E+01	1.07989055515E+02	-4.38084319125E+01	1.62788433333E+02	-5.72184680149E+00	-2.29288129515E+00
1.67586398489E+06	-1.86464928235E+01	-1.69201394997E+02	3.24219968416E+01	1.07702891233E+02	-5.57390755615E+01	-4.19481885269E+01	-5.83695443791E+00	-2.38589953627E-01
1.69805533948E+06	-1.57956172105E+01	-1.77922613459E+02	3.23138974682E+01	1.07214971557E+02	-3.49993073764E+01	4.56108815746E+01	-6.45842965696E+00	-1.68949105996E-01
1.72024669408E+06	-1.53121191220E+01	1.74480870642E+02	3.22088227888E+01	1.06971268485E+02	-3.38832705665E+01	3.74322782943E+01	-6.58008798927E+00	4.99728138407E-01
1.74243804867E+06	-1.56848457052E+01	-1.59065470369E+02	3.21387825459E+01	1.06259307426E+02	-4.20714192418E+01	-9.55074229997E+01	-5.49991369268E+00	6.31046668705E-01
1.76462940327E+06	-1.73147716759E+01	-1.79671704046E+02	3.20264728909E+01	1.06038846074E+02	-4.61457114328E+01	-1.31632786505E+02	-5.69910140582E+00	-9.74915792071E-01
1.78682075786E+06	-1.55656528672E+01	-1.17632819096E+02	3.19731290744E+01	1.05282104459E+02	-5.42590469114E+01	-7.97959458110E+01	-5.80422457092E+00	-5.83891087552E-01
1.80901211246E+06	-2.26890208286E+01	2.21212071541E+00	3.18995306956E+01	1.05479978412E+02	-4.43359082714E+01	-8.46110710602E+01	-5.69946013991E+00	1.95629965819E-01
1.83120346705E+06	-1.61324140627E+01	-1.56986819786E+02	3.16504478557E+01	1.04709350577E+02	-5.90084761193E+01	-1.21127044372E+02	-5.80537367374E+00	-8.78843518449E-01
1.85339482165E+06	-1.74252103642E+01	-1.78864778001E+02	3.16503345930E+01	1.04484638244E+02	-3.34189999645E+01	4.03659413326E+01	-6.44275141897E+00	1.01155831456E-01
1.87558617624E+06	-2.38424868308E+01	1.62462601054E+02	3.15708729216E+01	1.04317758399E+02	-3.36441439843E+01	-2.32025039884E+01	-5.96013245521E+00	3.62242625942E+00
1.89777753084E+06	-1.74276859079E+01	-1.76159586401E+02	3.14689972742E+01	1.03791104544E+02	-4.46984944391E+01	-4.31752429058E+01	-5.84623131266E+00	2.70011562110E-01
1.91996888543E+06	-1.37138847458E+01	-1.70346233331E+02	3.13481154951E+01	1.03207867767E+02	-5.12815675602E+01	-1.40143997133E+02	-5.79584080069E+00	-1.28003445913E+00
1.94216024003E+06	-1.35785386453E+01	-1.72782295040E+02	3.12580793264E+01	1.02867565676E+02	-4.66664182264E+01	5.89073447078E+01	-5.95243237713E+00	-1.33102459969E+00
1.96435159462E+06	-1.88277875440E+01	6.06469870566E+01	3.12465382116E+01	1.03274095875E+02	-5.87203894280E+01	-1.01500390199E+02	-5.80742766565E+00	-8.58350292638E-01
1.98654294922E+06	-1.49843951606E+01	-1.61447501999E+02	3.10981159828E+01	1.02235053527E+02	-4.56502485227E+01	-1.69478866570E+02	-5.71250153935E+00	-1.74160592512E+00
2.00873430381E+06	-1.53857405228E+01	-1.64469954460E+02	3.10055171809E+01	1.01816908103E+02	-3.18514286002E+01	1.74373847544E+02	-5.48748919030E+00	-5.42804661260E+00
2.03092565841E+06	-1.46349178834E+01	-1.72313245314E+02	3.08933027282E+01	1.01508936315E+02	-3.21201478248E+01	1.12612698600E+02	-6.12156066410E+00	-5.51942485105E+00
2.05311701300E+06	-1.97639160484E+01	1.78011791914E+02	3.08405793240E+01	1.01440799322E+02	-5.03373940991E+01	-5.24707235443E+01	-5.83605322817E+00	-4.14590680806E-01
2.07530836760E+06	-1.44692960044E+01	-1.55951889350E+02	3.07400712921E+01	1.00769432941E+02	-4.54102685678E+01	-1.84462112320E+01	-5.91444577265E+00	-5.35583571362E-02
2.09749972219E+06	-1.81857499189E+01	-1.75424016083E+02	3.06519726946E+01	1.00672039021E+02	-4.25862855040E+01	1.78627290294E+02	-5.68036915449E+00	-2.13631946409E+00
2.11969107679E+06	-1.32573407819E+01	1.71210928513E+02	3.05477611470E+01	1.00486986036E+02	-4.61619345758E+01	1.14910193853E+02	-5.89881579335E+00	-1.79864228111E+00
2.14188243138E+06	-1.79447576470E+01	1.59680156426E+02	3.04762463118E+01	1.00208484380E+02	-5.68200135546E+01	1.23649598347E+02	-5.85050270832E+00	-1.48174961807E+00
2.16407378598E+06	-1.97882687842E+01	1.78005892570E+02	3.04221310455E+01	9.98147024350E+01	-3.91773851930E+01	1.74773211098E+02	-5.69273968720E+00	-3.17719586371E+00
2.18626514057E+06	-1.71931613429E+01	-1.65703712832E+02	3.03328526427E+01	9.93258992218E+01	-3.24525546807E+01	-1.95535629269E+01	-5.88349757606E+00	3.34980962682E+00
2.20845649517E+06	-1.60612989427E+01	-1.78365340527E+02	3.02455294507E+01	9.91425109853E+01	-6.74840529396E+01	7.40657511999E+01	-5.85000080535E+00	-1.36653170353E+00
2.23064784976E+06	-1.51744752255E+01	-1.51433615099E+02	3.01895266711E+01	9.86105903016E+01	-5.36913164132E+01	5.84883753022E+00	-5.86797448813E+00	-9.49789376351E-01
2.25283920436E+06	-1.55766937062E+01	-1.39884599244E+02	3.01197101338E+01	9.83741832999E+01	-4.15553278333E+01	8.17862983784E+01	-6.03631406684E+00	-2.11890300566E+00
2.27503055895E+06	-2.02836910662E+01	1.73927400912E+02	3.00327019449E+01	9.83802765638E+01	-4.19998286467E+01	-9.50200708142E+01	-5.64481227084E+00	-4.13217220524E-01
2.29722191355E+06	-2.01955243917E+01	-1.37681701483E+02	2.99653368748E+01	9.78720915619E+01	-4.62986359940E+01	6.79108905139E+01	-5.96325192405E+00	-1.44549576109E+00
2.31941326814E+06	-1.48262705287E+01	-1.38320003198E+02	2.98638699621E+01	9.73715164458E+01	-4.19733618545E+01	1.55429225550E+00	-5.92954835416E+00	6.40322817765E-03
2.34160462274E+06	-1.67951682173E+01	1.55662256123E+02	2.97630480019E+01	9.75087724118E+01	-4.03597539388E+01	6.93265110701E+01	-6.09882785375E+00	-1.48861585892E+00
2.36379597733E+06	-1.58108396619E+01	-1.56840809640E+02	2.97120610303E+01	9.70895130386E+01	-4.18178439848E+01	1.76224482997E+02	-5.69340564866E+00	-2.42497518809E+00
2.38598733193E+06	-1.71960632322E+01	1.72369300817E+02	2.96011618530E+01	9.69735260707E+01	-4.29157300677E+01	-1.21778637447E+01	-5.90082112851E+00	-4.93264516734E-02
2.40817868652E+06	-2.21561636776E+01	1.66520036849E+02	2.95352235910E+01	9.69078416520E+01	-6.02961061707E+01	8.41114776450E+01	-5.84671915689E+00	-1.56349231832E+00
2.43037004112E+06	-1.13858699243E+01	-1.28502529614E+02	2.94924030470E+01	9.58637772636E+01	-4.50414544829E+01	-1.39841728516E+02	-5.68775817058E+00	-1.76474897286E+00
2.45256139571E+06	-2.12912749460E+01	1.71999339108E+02	2.93997496466E+01	9.62072232981E+01	-4.42122198504E+01	1.19139493958E+02	-5.88251786893E+00	-2.33721426331E+00
2.47475275031E+06	-1.80677523096E+01	1.79353305095E+02	2.93083973749E+01	9.59378370699E+01	-4.82047002338E+01	4.78017324673E-01	-5.87737713308E+00	-4.50356565000E-01
2.49694410490E+06	-1.57507679862E+01	-1.67914721833E+02	2.92397342194E+01	9.53991862212E+01	-2.94278045155E+01	-1.53221320134E+02	-5.04757911014E+00	-5.23137987973E+00
2.51913545950E+06	-1.60553545391E+01	-1.69516013721E+02	2.91712265790E+01	9.51445012655E+01	-4.82828530773E+01	-6.11592300434E+01	-5.78207738333E+00	-6.58791935691E-01
2.54132681409E+06	-2.00577887709E+01	-1.64084543439E+02	2.90891728928E+01	9.50564067647E+01	-4.00310125629E+01	-1.35337661601E+02	-5.57459762931E+00	-1.25024748011E+00
2.56351816869E+06	-2.21770563554E+01	1.57773570308E+02	2.90382620991E+01	9.49504557644E+01	-4.25492706365E+01	-7.07575693152E+00	-5.96129772101E+00	-2.15380232694E-01
2.58570952328E+06	-1.49636105842E+01	1.51996200824E+02	2.89133815169E+01	9.46899464504E+01	-4.13599301126E+01	-5.25794627015E+01	-5.77929964403E+00	2.30826591578E-01
2.60790087788E+06	-2.01165684545E+01	-1.68929192307E+02	2.88663454321E+01	9.41683273827E+01	-4.83970142103E+01	-1.13535406868E+02	-5.75316417976E+00	-1.23463528173E+00
2.63009223247E+06	-2.21573056386E+01	1.58514715161E+02	2.88211413038E+01	9.42672129538E+01	-4.68315730398E+01	-1.34318669602E+02	-5.74258628518E+00	-1.30065634832E+00
2.65228358707E+06	-2.28498362192E+01	1.49869056059E+02	2.87424166136E+01	9.39974563214E+01	-3.94005936073E+01	-4.33381497668E+01	-5.75779565718E+00	3.95949692252E-01
2.67447494166E+06	-1.82687892856E+01	-1.65106307509E+02	2.86966856903E+01	9.35995419028E+01	-4.99998134703E+01	2.94981522795E+00	-5.85928296432E+00	-1.29477588104E+00
2.69666629626E+06	-1.64346787167E+01	-1.79601628196E+02	2.85709564212E+01	9.31666114761E+01	-3.91658350984E+01	-2.99969968261E-01	-6.00455911305E+00	2.28832572367E-01
2.71885765085E+06	-1.76130160849E+01	-1.62796745934E+02	2.85101188432E+01	9.29948706999E+01	-4.18563484950E+01	-1.78487462203E+02	-5.71480104316E+00	-2.29841889587E+00
2.74104900545E+06	-1.75881496289E+01	-1.72139804897E+02	2.84495632528E+01	9.27608961947E+01	-4.42700998001E+01	3.75575145811E+01	-5.97622030933E+00	-1.18932020670E+00
2.76324036004E+06	-1.57340416349E+01	1.62767931536E+02	2.83572939104E+01	9.26151832803E+01	-4.75673534771E+01	-2.51689942042E+01	-5.85551141450E+00	-6.70162387814E-01
2.78543171463E+06	-1.48105275393E+01	1.77231620830E+02	2.83014570364E+01	9.22692169303E+01	-4.15485171424E+01	-9.29058208352E+00	-5.91471949078E+00	-2.31061335236E-01
2.80762306923E+06	-1.70696008985E+01	1.56677035485E+02	2.82435293459E+01	9.22824935604E+01	-4.37995404973E+01	8.11517474263E+01	-6.02220643675E+00	-1.88132289129E+00
2.82981442382E+06	-1.96113728007E+01	-1.69407794926E+02	2.82166520204E+01	9.20263272827E+01	-3.83137840214E+01	5.77803654785E+00	-6.06571346761E+00	8.38746147979E-02
2.85200577842E+06	-1.76697602808E+01	1.71134883672E+02	2.81086040028E+01	9.17851440034E+01	-5.76760160166E+01	-1.05169796788E+02	-5.81757299124E+00	-1.30724372445E+00
2.87419713301E+06	-1.62277561598E+01	-1.58542883372E+02	2.80655055229E+01	9.13612034345E+01	-5.84234991640E+01	6.80779119271E+01	-5.88215147723E+00	-1.61156260748E+00
2.89638848761E+06	-2.45719079041E+01	1.75472836676E+02	2.80133962563E+01	9.13721782983E+01	-5.49907427092E+01	-6.88612750787E+01	-5.80027401189E+00	-1.10332539128E+00
