# Hz S DB R 50
! CMT, M5065, 19127446, 24.2.4/2
! Date: 11/8/2024 3:45:31 PM
! Data: Format (Calibration Info)
! Freq	S11:dB/Ang(F2)	S21:dB/Ang(F2)	S12:dB/Ang(F2)	S22:dB/Ang(F2)
3.00000000000E+05	-1.42485736004E+01	1.68810597206E+02	4.74993997393E+00	-1.77834270570E+02	-3.54399130977E+01	1.20013760773E+02	-5.83875889554E+00	-2.43559073192E-01
3.22191354595E+05	-1.75370484604E+01	1.57954792325E+02	4.78454093507E+00	-1.77860199372E+02	-3.55043890848E+01	-6.38363474395E+01	-5.83802370779E+00	-3.80831681109E-01
3.44382709190E+05	-1.52816953469E+01	1.58150789640E+02	4.73828601417E+00	-1.78241596311E+02	-4.51152600178E+01	-1.38186221758E+02	-5.82764944384E+00	-2.99238942567E-01
3.66574063785E+05	-1.65721257658E+01	-1.67551780661E+02	4.72800320066E+00	-1.78883716258E+02	-3.94219643300E+01	-1.27837570946E+02	-5.84412447502E+00	-1.96338717408E-01
3.88765418380E+05	-1.40064581314E+01	1.65779677828E+02	4.72903915554E+00	-1.78575607275E+02	-4.68194204541E+01	-1.17505145363E+02	-5.81943878619E+00	-2.31013500576E-01
4.10956772975E+05	-1.60702534198E+01	1.70418607399E+02	4.74913209398E+00	-1.79203825014E+02	-4.43942710672E+01	-2.88446861480E+01	-5.85704806892E+00	-2.19353361047E-01
4.33148127570E+05	-1.53892052848E+01	1.58574076026E+02	4.82184883471E+00	-1.79096279642E+02	-4.00290169176E+01	-1.28731489861E+02	-5.83611212295E+00	-2.19584382548E-01
4.55339482165E+05	-2.02517798870E+01	-1.78721914001E+02	4.74534142700E+00	-1.79753401684E+02	-3.82303763547E+01	1.06101958835E+02	-5.82594319237E+00	-3.61828259038E-01
4.77530836760E+05	-2.28921835202E+01	1.73249895416E+02	4.77186823876E+00	-1.79801899751E+02	-3.37479533860E+01	-1.23734754310E+02	-5.84160976207E+00	-3.53495307747E-01
4.99722191355E+05	-1.64701005495E+01	-1.39538236945E+02	4.76379021460E+00	1.79815335244E+02	-5.00851011572E+01	7.24214379002E+01	-5.85984879489E+00	-2.06474845228E-01
5.21913545950E+05	-1.46031842763E+01	-1.65692789523E+02	4.75663800064E+00	1.79804239875E+02	-5.41494489653E+01	-1.56665262728E+02	-5.85143109785E+00	-4.06618956686E-01
5.44104900545E+05	-1.43518123451E+01	1.71751800928E+02	4.81061543011E+00	1.79771282183E+02	-3.97899473610E+01	1.63240540029E+02	-5.81808336350E+00	-3.66424556504E-01
5.66296255139E+05	-1.64651456153E+01	-1.71548040734E+02	4.77789538815E+00	1.79550864598E+02	-5.13265422824E+01	1.39455553863E+02	-5.83873393458E+00	-4.97510594765E-01
5.88487609734E+05	-1.49044620136E+01	-1.53057709162E+02	4.74758415403E+00	1.79353536222E+02	-4.55673542475E+01	5.16608663119E+01	-5.83313032703E+00	-4.19979631393E-01
6.10678964329E+05	-1.47754490450E+01	1.77403377777E+02	4.71862791506E+00	1.79572230137E+02	-3.81397374695E+01	5.78080202729E+01	-5.84522027179E+00	1.51934483161E-01
6.32870318924E+05	-2.10361827185E+01	-1.79230773763E+02	4.80116190475E+00	1.79123513187E+02	-5.34509798692E+01	1.58370400575E+02	-5.84193563941E+00	-2.20144960033E-01
6.55061673519E+05	-1.95315401759E+01	-1.27174328837E+02	4.79343840253E+00	1.78879409820E+02	-4.30358947734E+01	-1.40846584006E+02	-5.82550419472E+00	-3.79546926395E-01
6.77253028114E+05	-2.00947253137E+01	-1.59321121981E+02	4.80309026163E+00	1.78881439199E+02	-4.02822586814E+01	3.72175797855E+01	-5.84242876777E+00	-6.80149121031E-01
6.99444382709E+05	-1.93777338456E+01	1.26527728868E+02	4.79832214549E+00	1.78950960100E+02	-5.33112192099E+01	9.90057276700E+01	-5.83822528927E+00	-5.17149325961E-01
7.21635737304E+05	-1.82376459246E+01	-1.74721181805E+02	4.74719803236E+00	1.78739247662E+02	-4.48714373910E+01	-1.32668613276E+02	-5.85107638793E+00	-4.14797137775E-01
7.43827091899E+05	-2.10652356629E+01	-1.64304979131E+02	4.79477135550E+00	1.78425640635E+02	-5.13461480883E+01	-8.02966820144E+01	-5.84072272338E+00	-3.39264436364E-01
7.66018446494E+05	-1.80962350643E+01	1.66669298467E+02	4.78317977328E+00	1.78388220572E+02	-3.69967273825E+01	1.53307322980E+02	-5.81640936671E+00	-4.90536205507E-01
7.88209801089E+05	-1.73331761045E+01	-1.51412825050E+02	4.77319181935E+00	1.78093787084E+02	-4.36831574244E+01	-1.55402400230E+02	-5.84784574679E+00	-4.65612299875E-01
8.10401155684E+05	-1.49515160974E+01	-1.74664118107E+02	4.72322034423E+00	1.78216683727E+02	-4.39592670469E+01	6.20603420126E+01	-5.86272132077E+00	-5.39362953841E-01
8.32592510279E+05	-2.22717123557E+01	1.78226853016E+02	4.79040655373E+00	1.78026006418E+02	-4.20188076985E+01	5.98601298795E+01	-5.85459043578E+00	-4.04440569822E-01
8.54783864874E+05	-1.81089679092E+01	-1.62193045200E+02	4.79915537258E+00	1.78208230774E+02	-4.99059620489E+01	-4.50098867521E+01	-5.84783733765E+00	-4.78905688100E-01
8.76975219469E+05	-2.52887948093E+01	1.30998631194E+02	4.77795473481E+00	1.78143477155E+02	-4.83536121716E+01	-9.58553030658E+01	-5.83068640111E+00	-4.97925202611E-01
8.99166574064E+05	-1.63496281714E+01	1.73217496291E+02	4.78412895956E+00	1.77839926047E+02	-4.85026443233E+01	1.88648862099E+01	-5.84946602792E+00	-4.97587229400E-01
9.21357928659E+05	-2.13781538470E+01	1.78501228314E+02	4.77253304563E+00	1.77478231856E+02	-5.07664207993E+01	-1.15935295633E+02	-5.82802214155E+00	-5.38828919622E-01
9.43549283254E+05	-1.55642573092E+01	-1.75767653060E+02	4.71644325271E+00	1.77322746953E+02	-4.91857186467E+01	2.39187600387E+01	-5.84457716445E+00	-4.88074673930E-01
9.65740637849E+05	-1.72022842247E+01	1.68237182864E+02	4.78823067857E+00	1.77623001576E+02	-4.47026061210E+01	7.16250502024E+01	-5.84383575932E+00	-5.73253720838E-01
9.87931992444E+05	-1.72433892823E+01	-1.78622379441E+02	4.77966084423E+00	1.76899744831E+02	-4.49062152929E+01	-1.26697001248E+02	-5.83527858490E+00	-5.70628999048E-01
1.01012334704E+06	-1.37888583601E+01	-1.76552870964E+02	4.73726457882E+00	1.77006785836E+02	-4.56911910798E+01	-5.92603732908E+01	-5.84364203829E+00	-6.32919291868E-01
1.03231470163E+06	-1.67863745795E+01	-1.43287796304E+02	4.81370095232E+00	1.76601461492E+02	-4.68975275683E+01	1.34030028230E+02	-5.83872830517E+00	-4.65262620749E-01
1.05450605623E+06	-1.54838700661E+01	-1.36166252340E+02	4.79305375711E+00	1.76722875707E+02	-4.56733201206E+01	-1.09822587350E+02	-5.85036912988E+00	-6.83314673018E-01
1.07669741082E+06	-2.22468810188E+01	-1.72636140855E+02	4.80041548831E+00	1.76525558055E+02	-4.21847516235E+01	9.09838358834E+01	-5.84372722294E+00	-5.14784225501E-01
1.09888876542E+06	-1.39749078558E+01	1.76572108209E+02	4.77065907031E+00	1.76713178127E+02	-3.72543946039E+01	5.36214416983E+01	-5.85450584966E+00	-6.42315163109E-01
1.12108012001E+06	-1.56932946614E+01	1.75699549774E+02	4.76046662664E+00	1.76559543231E+02	-4.38860982444E+01	2.92120619488E+01	-5.86210319764E+00	-6.34500674407E-01
1.14327147461E+06	-2.09713869826E+01	1.70775925888E+02	4.81476826639E+00	1.76528018644E+02	-4.49911585435E+01	-3.94171909552E+01	-5.85342720679E+00	-5.93930509754E-01
1.16546282920E+06	-1.66647206249E+01	1.52602878219E+02	4.75246066741E+00	1.76399972814E+02	-4.85558858296E+01	-1.19706895314E+02	-5.84226802982E+00	-6.83284619378E-01
1.18765418380E+06	-1.44621940222E+01	-1.17096127589E+02	4.80629886474E+00	1.75702200930E+02	-4.28072054793E+01	-3.38510363146E+01	-5.84834169129E+00	-6.99264360609E-01
1.20984553839E+06	-2.09390233119E+01	1.40550438151E+02	4.78101633457E+00	1.76482110041E+02	-4.99743472446E+01	-1.26299938600E+02	-5.84177015523E+00	-7.19064357634E-01
1.23203689299E+06	-1.67845895455E+01	1.60759539364E+02	4.76687428377E+00	1.76291395917E+02	-4.15158177502E+01	1.09394835962E+02	-5.84628021026E+00	-4.21064246453E-01
1.25422824758E+06	-2.23230425719E+01	-1.13779622039E+02	4.81456781832E+00	1.76151896633E+02	-4.83076666285E+01	-1.04667414517E+02	-5.85139684674E+00	-6.01422945122E-01
1.27641960218E+06	-2.03503695953E+01	-1.61330764808E+02	4.79487392266E+00	1.75972299775E+02	-4.85009637437E+01	1.76419411324E+02	-5.84432437305E+00	-5.88194848109E-01
1.29861095677E+06	-1.75506983406E+01	1.63735221770E+02	4.76696672395E+00	1.75769226995E+02	-4.83237690674E+01	1.01751807630E+02	-5.85870677003E+00	-7.33998206308E-01
1.32080231137E+06	-2.17818951548E+01	-1.43457271394E+02	4.84163053788E+00	1.75634506176E+02	-4.45955305080E+01	1.36845570602E+02	-5.83820462402E+00	-1.08877539698E+00
1.34299366596E+06	-1.66093334162E+01	1.67342865819E+02	4.78899497583E+00	1.75474152169E+02	-4.90002892522E+01	1.11682484079E+02	-5.83921551237E+00	-6.40403167633E-01
1.36518502056E+06	-1.72833258073E+01	-1.72627116705E+02	4.70913521088E+00	1.75299847303E+02	-5.63632739933E+01	1.21507340869E+02	-5.81252702029E+00	-5.97694020777E-01
1.38737637515E+06	-1.76676262666E+01	1.70869570626E+02	4.81432334350E+00	1.75214679765E+02	-3.68208435003E+01	3.78844522503E+01	-5.87236414872E+00	-6.94184828382E-01
1.40956772975E+06	-1.47194795653E+01	-1.61092378197E+02	4.71763391324E+00	1.75277545756E+02	-4.19131269727E+01	6.49653618713E+01	-5.85772111178E+00	-7.61993535317E-01
1.43175908434E+06	-1.53025311544E+01	1.79836082561E+02	4.78935608912E+00	1.75239958633E+02	-4.67974131591E+01	-1.43056416077E+02	-5.85330565768E+00	-7.09482361521E-01
1.45395043894E+06	-1.64124182893E+01	-1.71754233447E+02	4.79832237853E+00	1.75056134963E+02	-3.93235641871E+01	-1.63314520077E+02	-5.82697360156E+00	-7.47381100777E-01
1.47614179353E+06	-1.87367963853E+01	-1.60770551127E+02	4.83232933720E+00	1.74960406802E+02	-5.01505629690E+01	-1.00440043016E+02	-5.84435934264E+00	-5.55786703454E-01
1.49833314813E+06	-3.09399125338E+01	1.78041096630E+02	4.80260778503E+00	1.75302621939E+02	-4.46217526042E+01	5.73720167838E+01	-5.82439150390E+00	-7.88530949014E-01
1.52052450272E+06	-1.60269717029E+01	-1.79569767805E+02	4.77680988094E+00	1.74602501807E+02	-4.01815855320E+01	9.72446489062E+01	-5.83357822121E+00	-8.74288741494E-01
1.54271585732E+06	-1.48564088074E+01	1.69733615336E+02	4.76038321652E+00	1.74540698200E+02	-4.40253327180E+01	1.21160873090E+02	-5.84735451512E+00	-7.88273269597E-01
1.56490721191E+06	-1.79826508463E+01	-1.43749058558E+02	4.78425422253E+00	1.74314570082E+02	-4.31113069707E+01	-6.20009967787E+01	-5.85443711747E+00	-7.76111145040E-01
1.58709856651E+06	-2.67797727919E+01	-1.73500622598E+02	4.78973007634E+00	1.74496004774E+02	-4.15773025161E+01	-6.88709315866E+01	-5.86217470599E+00	-6.63228155377E-01
1.60928992110E+06	-1.74438285473E+01	1.78023522951E+02	4.79900744000E+00	1.74642627970E+02	-4.05896657144E+01	7.05519126812E+01	-5.83189447122E+00	-8.87493075046E-01
1.63148127570E+06	-1.89740585811E+01	1.59933162060E+02	4.75022648756E+00	1.74588364150E+02	-4.57136671927E+01	1.19563475606E+02	-5.84713464548E+00	-9.24079306434E-01
1.65367263029E+06	-7.74168570528E+00	-1.78666978472E+02	4.66784291805E+00	1.73930477293E+02	-4.59237977192E+01	1.08761511056E+02	-5.81256336295E+00	-9.11244414588E-01
1.67586398489E+06	-1.67364188509E+01	1.38546227240E+02	4.76239852981E+00	1.74392165925E+02	-4.06500328556E+01	1.75845251416E+02	-5.84135532364E+00	-6.85805474000E-01
1.69805533948E+06	-1.44338573769E+01	-1.63101421308E+02	4.75565842142E+00	1.73773113866E+02	-4.78801368135E+01	-1.52391225472E+02	-5.85154559013E+00	-7.95885885058E-01
1.72024669408E+06	-1.84398476935E+01	1.75023813420E+02	4.80392044378E+00	1.74020687520E+02	-4.39812664152E+01	-1.64797793375E+02	-5.83184543677E+00	-8.48088147189E-01
1.74243804867E+06	-2.41780452060E+01	-1.59330266480E+02	4.79963690678E+00	1.73842293870E+02	-4.27892601491E+01	1.66898353268E+02	-5.81732071266E+00	-8.06169008219E-01
1.76462940327E+06	-2.02100978268E+01	-1.72981583867E+02	4.81415379225E+00	1.73726036861E+02	-3.96078954581E+01	1.32136212653E+02	-5.81993462905E+00	-1.14073123181E+00
1.78682075786E+06	-1.59291124425E+01	-1.66937733773E+02	4.79119573548E+00	1.73833996833E+02	-4.79740809928E+01	1.09919509040E+02	-5.85123810316E+00	-8.52308473625E-01
1.80901211246E+06	-1.45555593457E+01	1.70200639299E+02	4.75791749207E+00	1.73538566814E+02	-4.98048290760E+01	3.70758643605E+01	-5.84227397408E+00	-8.28341079642E-01
1.83120346705E+06	-2.35563954777E+01	1.70881116023E+02	4.78213825405E+00	1.73660904326E+02	-4.67112872900E+01	1.54110766104E+02	-5.85218924564E+00	-8.58252361097E-01
1.85339482165E+06	-2.62789361988E+01	-1.58175662449E+02	4.82550819356E+00	1.73710248807E+02	-4.72490360841E+01	1.38169217977E+02	-5.83949275347E+00	-8.34880125532E-01
1.87558617624E+06	-1.78536971671E+01	-1.62610743114E+02	4.77669865142E+00	1.73218898524E+02	-4.08560046753E+01	-1.53909510876E+02	-5.83724483385E+00	-9.92339257768E-01
1.89777753084E+06	-1.58702952150E+01	-1.77185189363E+02	4.80092332239E+00	1.73225622755E+02	-4.29230606383E+01	1.23536310244E+02	-5.85160210092E+00	-1.01850023742E+00
1.91996888543E+06	-1.83927716059E+01	-1.73342318348E+02	4.78449590413E+00	1.72983411405E+02	-4.65576574096E+01	9.69609920664E+01	-5.84096379250E+00	-1.09950743472E+00
1.94216024003E+06	-1.97012905148E+01	-1.78937002405E+02	4.80787438234E+00	1.73391733998E+02	-4.72956747381E+01	1.53576852000E+01	-5.84967198459E+00	-1.08138628382E+00
1.96435159462E+06	-3.21690278269E+01	1.07073711055E+01	4.79610995478E+00	1.73406967111E+02	-6.27766662604E+01	1.24088372168E+02	-5.85045474821E+00	-9.45988026476E-01
1.98654294922E+06	-2.31516474189E+01	-1.76842904733E+02	4.82342344673E+00	1.72815604010E+02	-4.05517482877E+01	1.85235336815E+01	-5.86711099432E+00	-9.39415888735E-01
2.00873430381E+06	-1.70354651841E+01	1.74815573998E+02	4.77680726519E+00	1.72574973244E+02	-4.84508559405E+01	5.96661194268E+00	-5.83571096463E+00	-9.92046694356E-01
2.03092565841E+06	-1.97145197464E+01	-1.79259776977E+02	4.82237098730E+00	1.72722804166E+02	-4.13998263524E+01	-1.46337947681E+02	-5.84495409961E+00	-9.86198385223E-01
2.05311701300E+06	-1.82315000604E+01	1.66129343393E+02	4.77576857167E+00	1.72742712297E+02	-4.05185470349E+01	1.42491954728E+02	-5.85614992995E+00	-9.81692748173E-01
2.07530836760E+06	-1.68938827698E+01	1.48444916563E+02	4.83288181756E+00	1.72867633396E+02	-4.92499964588E+01	6.20327174246E+01	-5.83527002776E+00	-1.09568153386E+00
2.09749972219E+06	-1.81873529028E+01	1.79633233046E+02	4.82285486044E+00	1.72292979406E+02	-5.00715430443E+01	1.06095944464E+02	-5.87121238487E+00	-1.08035437763E+00
2.11969107679E+06	-1.19362376774E+01	-1.58585635688E+02	4.75378166945E+00	1.71949451747E+02	-4.37619724114E+01	-1.89838241331E+01	-5.84139552556E+00	-9.95365849866E-01
2.14188243138E+06	-1.88836326077E+01	1.43170046148E+02	4.75460166537E+00	1.72333912901E+02	-4.64477603445E+01	-5.67023750435E+01	-5.84137969102E+00	-1.10413475356E+00
2.16407378598E+06	-1.60522781748E+01	-1.38675422264E+02	4.84492012576E+00	1.71913979097E+02	-4.11804991372E+01	3.45307432676E+01	-5.84253312406E+00	-1.12044885742E+00
2.18626514057E+06	-1.87455578277E+01	-1.42599001976E+02	4.84706269184E+00	1.71789147939E+02	-3.81100095601E+01	-1.03541205101E+02	-5.84127632745E+00	-9.28870112984E-01
2.20845649517E+06	-2.68071461110E+01	1.76364448428E+02	4.81690113943E+00	1.72125521241E+02	-4.27063502905E+01	-4.88165065080E+01	-5.85836216104E+00	-9.68208189157E-01
2.23064784976E+06	-2.25931916741E+01	1.69402800793E+02	4.76700492179E+00	1.71647033450E+02	-4.29301614895E+01	7.47330447146E+01	-5.81308433043E+00	-1.19836770754E+00
2.25283920436E+06	-1.82694546194E+01	-1.36769027930E+02	4.81523406912E+00	1.71822876296E+02	-4.50588166990E+01	-6.37554737691E+01	-5.84852517990E+00	-1.18263064631E+00
2.27503055895E+06	-1.66285037323E+01	-1.22272166769E+02	4.84510037174E+00	1.71574936946E+02	-4.29591852778E+01	-1.60633226569E+02	-5.84035327066E+00	-1.12783893298E+00
2.29722191355E+06	-1.87548491567E+01	1.66624147501E+02	4.81052819643E+00	1.71554559548E+02	-6.06517487797E+01	-1.76006924135E+02	-5.84516076252E+00	-1.09393738685E+00
2.31941326814E+06	-1.82672026417E+01	-1.72012905179E+02	4.76727373207E+00	1.71497810799E+02	-4.49096228768E+01	-3.08181170250E+01	-5.85780126509E+00	-1.15737646247E+00
2.34160462274E+06	-1.95868934282E+01	-1.49453827954E+02	4.83985950482E+00	1.71416417200E+02	-3.64590271056E+01	9.79163180594E+00	-5.85375905689E+00	-1.22871179789E+00
2.36379597733E+06	-1.54765874967E+01	-1.79126960283E+02	4.83646095840E+00	1.71374983637E+02	-4.54727314336E+01	-8.55709331243E+01	-5.84033232084E+00	-1.04720433839E+00
2.38598733193E+06	-2.01578781825E+01	-1.73210353459E+02	4.81758364978E+00	1.71186032405E+02	-4.35410703303E+01	-1.58661221908E+02	-5.83656192975E+00	-1.18049578246E+00
2.40817868652E+06	-2.31918477641E+01	1.36597759359E+02	4.79495190461E+00	1.71133005380E+02	-4.66664016847E+01	1.13744500648E+02	-5.83496535232E+00	-1.38019065226E+00
2.43037004112E+06	-1.18435897586E+01	1.44064605145E+02	4.74176872072E+00	1.70941719865E+02	-4.42404258928E+01	-1.00248011014E+02	-5.84668799405E+00	-1.48354423953E+00
2.45256139571E+06	-1.62769888285E+01	1.74072903500E+02	4.79282540706E+00	1.71110249921E+02	-4.22959664744E+01	1.57734999917E+01	-5.84831903170E+00	-1.28162976667E+00
2.47475275031E+06	-1.68806689348E+01	1.77555233003E+02	4.80158654234E+00	1.70842834932E+02	-4.75266587306E+01	1.20825757202E+02	-5.85125222548E+00	-1.24786652691E+00
2.49694410490E+06	-1.67122428239E+01	-1.63769598939E+02	4.79403139892E+00	1.70767568200E+02	-3.91603596580E+01	5.63064681566E+01	-5.85810607465E+00	-1.37744820305E+00
2.51913545950E+06	-1.30653542333E+01	-1.74195517048E+02	4.78878335918E+00	1.70280471364E+02	-5.37730516558E+01	9.62101748279E+01	-5.83983157623E+00	-1.14625861377E+00
2.54132681409E+06	-1.58702123253E+01	-1.72800248229E+02	4.80731730182E+00	1.70241968634E+02	-4.93522065040E+01	-2.51154773160E+01	-5.83961692838E+00	-1.25841464166E+00
2.56351816869E+06	-1.82183836445E+01	1.77587049497E+02	4.79260779891E+00	1.70170817014E+02	-4.87705543896E+01	-1.37377324722E+01	-5.85855355373E+00	-1.39955991761E+00
2.58570952328E+06	-1.30976179961E+01	-1.79513298408E+02	4.78841723495E+00	1.70003061529E+02	-5.56079916818E+01	-4.76317005209E+01	-5.86372748512E+00	-1.23645318155E+00
2.60790087788E+06	-2.07554359143E+01	-1.01133975857E+02	4.88698715064E+00	1.70208986316E+02	-4.76111684443E+01	6.38762219619E+01	-5.86837402305E+00	-1.39975130827E+00
2.63009223247E+06	-1.60495925809E+01	-1.78373397543E+02	4.79981019373E+00	1.70303753284E+02	-5.64548448395E+01	1.51936221874E+02	-5.83266187630E+00	-8.09156843977E-01
2.65228358707E+06	-1.81359920268E+01	-1.77658813138E+02	4.83808282606E+00	1.69953572575E+02	-4.74433762748E+01	6.23838876063E+01	-5.85201880600E+00	-1.26639863868E+00
2.67447494166E+06	-1.93166814600E+01	-1.72906565890E+02	4.86940393986E+00	1.70042304841E+02	-3.71472856731E+01	-2.69841409143E+01	-5.85320558236E+00	-1.29716831792E+00
2.69666629626E+06	-1.26067917067E+01	1.77792087338E+02	4.76825271476E+00	1.69670726513E+02	-4.29710719828E+01	-1.44153882087E+01	-5.86411717720E+00	-1.29544605349E+00
2.71885765085E+06	-1.66883555274E+01	-1.74305943123E+02	4.81038104891E+00	1.69760615206E+02	-5.22383315320E+01	-3.18162572526E+01	-5.84348245050E+00	-1.22749087788E+00
2.74104900545E+06	-2.35812906759E+01	-1.58614638036E+02	4.84477252525E+00	1.69762135463E+02	-3.80687558237E+01	-4.24563548365E+01	-5.88727997709E+00	-1.27508955166E+00
2.76324036004E+06	-1.91262476006E+01	1.67092397233E+02	4.85755568674E+00	1.69819709629E+02	-4.65468934647E+01	6.88349920094E+00	-5.85710307743E+00	-1.42667776393E+00
2.78543171463E+06	-1.53777825089E+01	1.66150910984E+02	4.74766685780E+00	1.69601773746E+02	-4.72095805048E+01	1.54844753185E+02	-5.84231144871E+00	-1.24573270629E+00
2.80762306923E+06	-1.93946623027E+01	-1.69967839345E+02	4.81164090128E+00	1.69565322443E+02	-4.93242866563E+01	-1.30076388746E+01	-5.85685691295E+00	-1.38760421667E+00
2.82981442382E+06	-1.56128425010E+01	-1.77345394625E+02	4.76505702951E+00	1.69232123468E+02	-3.80352283829E+01	8.83629260129E+01	-5.85264091177E+00	-1.36114195607E+00
2.85200577842E+06	-1.91560294416E+01	-1.48010322197E+02	4.79858697882E+00	1.69138482326E+02	-4.84993869871E+01	5.91951766553E+01	-5.84695345776E+00	-1.57754084566E+00
2.87419713301E+06	-1.53626781974E+01	1.75793451945E+02	4.79955539751E+00	1.69145929141E+02	-5.25450773551E+01	4.80188763761E+01	-5.83362310226E+00	-1.43802029950E+00
