# Hz S DB R 50
! CMT, M5065, 19127446, 24.2.4/2
! Date: 11/8/2024 3:47:06 PM
! Data: Format (Calibration Info)
! Freq	S11:dB/Ang(F2)	S21:dB/Ang(F2)	S12:dB/Ang(F2)	S22:dB/Ang(F2)
3.00000000000E+05	-1.78602669075E+01	-1.56570630432E+02	5.17114230255E+00	-1.77620636435E+02	-4.55278146873E+01	6.19132144692E+01	-5.84086991536E+00	-2.58941926414E-01
3.22191354595E+05	-1.80156046669E+01	-1.79776132644E+02	5.19211662654E+00	-1.77865779133E+02	-5.09505685009E+01	1.41881299335E+02	-5.83999064223E+00	-2.82518167160E-01
3.44382709190E+05	-2.22648319151E+01	1.49640497968E+02	5.22047389789E+00	-1.77929314643E+02	-5.28316073786E+01	1.16584948797E+02	-5.82012932265E+00	-3.12610273688E-01
3.66574063785E+05	-1.31445919131E+01	-1.69244943293E+02	5.13705107046E+00	-1.78696827836E+02	-4.96298305642E+01	1.33418610576E+02	-5.83477195657E+00	-2.88085662712E-01
3.88765418380E+05	-2.19648663822E+01	1.34708749905E+02	5.23404690353E+00	-1.78786196004E+02	-4.57772303847E+01	-1.37333057262E+02	-5.82802336721E+00	-4.57950500907E-01
4.10956772975E+05	-1.88916770639E+01	-1.60530568902E+02	5.21722067681E+00	-1.79240464473E+02	-5.34285536088E+01	8.16820614320E+01	-5.83548383317E+00	-2.65971950403E-01
4.33148127570E+05	-1.74915673582E+01	1.38076614108E+02	5.16151592179E+00	-1.79144669552E+02	-4.89367070867E+01	2.12247326285E+01	-5.83330393151E+00	-2.05350457259E-01
4.55339482165E+05	-1.73463973527E+01	-1.33909311628E+02	5.20438283554E+00	-1.79233588814E+02	-4.42670201708E+01	1.67659810271E+02	-5.82419761317E+00	-4.10218914633E-01
4.77530836760E+05	-1.41035342073E+01	1.70153822946E+02	5.22763467224E+00	-1.79804930839E+02	-4.83588846309E+01	3.41217493226E+01	-5.84615008765E+00	-3.59435287504E-01
4.99722191355E+05	-1.80551373612E+01	1.35992918899E+02	5.18877468431E+00	-1.79615061667E+02	-4.41479060836E+01	1.56706107099E+01	-5.83232274322E+00	-2.58938011516E-01
5.21913545950E+05	-1.73110501582E+01	-1.61684559587E+02	5.25376404197E+00	-1.79967037361E+02	-4.37716243077E+01	-1.62417126693E+02	-5.86486841221E+00	-4.44092271204E-01
5.44104900545E+05	-2.01182892985E+01	-1.77411807098E+02	5.19522027346E+00	1.79998337077E+02	-3.95821729174E+01	7.92637185919E+01	-5.82061331004E+00	-4.62113531963E-01
5.66296255139E+05	-1.61568287799E+01	-1.64179357884E+02	5.18782063193E+00	1.79500536516E+02	-5.40718337877E+01	1.61160291396E+02	-5.84735959965E+00	-4.56081328401E-01
5.88487609734E+05	-2.16678368453E+01	1.66725981052E+02	5.21580760806E+00	1.79665458071E+02	-4.31547332855E+01	1.43010558971E+02	-5.84500794925E+00	-6.04721176921E-01
6.10678964329E+05	-1.96162606047E+01	-1.62742638481E+02	5.21188447503E+00	1.79296215291E+02	-4.75875868210E+01	-1.41065794482E+02	-5.84232887721E+00	9.82254756159E-02
6.32870318924E+05	-1.83709529500E+01	1.55433696394E+02	5.23953438611E+00	1.79248996219E+02	-4.16284153097E+01	-1.16005419836E+02	-5.85337874996E+00	-3.55793063116E-03
6.55061673519E+05	-1.59196756142E+01	-1.77357542384E+02	5.23221487505E+00	1.79010344932E+02	-4.57622154291E+01	-3.75869918976E+01	-5.83658957334E+00	-2.23479460596E-01
6.77253028114E+05	-1.99077415889E+01	1.40053900676E+02	5.22473129074E+00	1.78903440181E+02	-5.00774135098E+01	2.40775837715E+01	-5.86087238883E+00	-5.73648986761E-01
6.99444382709E+05	-1.64146888409E+01	-1.53657427579E+02	5.23421157680E+00	1.78283290643E+02	-3.74537089285E+01	4.68872156367E+01	-5.86089588218E+00	-5.43332970439E-01
7.21635737304E+05	-1.35755298621E+01	-1.59519694744E+02	5.20519142586E+00	1.78136438866E+02	-4.41926055052E+01	1.47777718835E+02	-5.82735383778E+00	-3.26583625675E-01
7.43827091899E+05	-2.00242500195E+01	-1.63360116936E+02	5.21596196932E+00	1.78415551275E+02	-4.62441653669E+01	-1.38581707231E+02	-5.83357788670E+00	-5.62210707216E-01
7.66018446494E+05	-1.65784694721E+01	1.50632837220E+02	5.21878486967E+00	1.78366670517E+02	-5.07602147377E+01	1.21538275108E+02	-5.84400057177E+00	-4.22790463579E-01
7.88209801089E+05	-1.30991609423E+01	-1.60415854449E+02	5.23542588380E+00	1.78054209855E+02	-5.15101539523E+01	9.04690532670E+01	-5.84815231044E+00	-4.31958587009E-01
8.10401155684E+05	-1.50265390835E+01	1.65578199771E+02	5.22057117461E+00	1.78066329049E+02	-4.15308710671E+01	-1.11795055827E+02	-5.84534230647E+00	-3.47084435230E-01
8.32592510279E+05	-2.09389092522E+01	-1.70127869629E+02	5.23443283066E+00	1.78022568274E+02	-3.80094781938E+01	-3.70826247014E+01	-5.84461896006E+00	-3.32310170922E-01
8.54783864874E+05	-1.56951678674E+01	-1.56418417566E+02	5.20744925228E+00	1.77693822522E+02	-3.77103178608E+01	2.91719228024E+01	-5.85145973840E+00	-5.40584276631E-01
8.76975219469E+05	-1.92685864693E+01	1.78043663168E+02	5.19214160380E+00	1.77866387737E+02	-5.15808839764E+01	-2.76512014317E+01	-5.84249226679E+00	-3.95396721038E-01
8.99166574064E+05	-1.53203992064E+01	1.59522649722E+02	5.17573889345E+00	1.77594060033E+02	-4.02411221248E+01	-1.53554022894E+02	-5.83860196403E+00	-5.29564059814E-01
9.21357928659E+05	-1.40007284870E+01	1.77514005052E+02	5.18593860006E+00	1.77478022183E+02	-4.70286116516E+01	-3.85097854217E+01	-5.85661104390E+00	-6.62322587972E-01
9.43549283254E+05	-1.23639959101E+01	1.68202762279E+02	5.17848715698E+00	1.77210073937E+02	-4.90198755893E+01	2.48176809534E+00	-5.85305464274E+00	-3.15154512280E-01
9.65740637849E+05	-1.93594699357E+01	1.16703214609E+02	5.21869896746E+00	1.78066864794E+02	-4.72902730395E+01	1.14641109475E+02	-5.82765134625E+00	-5.02959944301E-01
9.87931992444E+05	-1.87777946474E+01	-1.33828499997E+02	5.20326221689E+00	1.77138774023E+02	-4.40459443270E+01	-1.28640169174E+02	-5.85363219464E+00	-5.02858759794E-01
1.01012334704E+06	-1.91433373120E+01	1.60657169953E+02	5.25893820345E+00	1.77194281503E+02	-3.88119501164E+01	-2.60592032274E+01	-5.87154818027E+00	-3.88468729926E-01
1.03231470163E+06	-1.97027661781E+01	-1.66988694084E+02	5.25692249492E+00	1.77056218025E+02	-4.59619770727E+01	-1.91181522333E+00	-5.85159214496E+00	-5.95425606939E-01
1.05450605623E+06	-1.48225054999E+01	-1.24627177338E+02	5.23029935512E+00	1.76907394374E+02	-4.07055764541E+01	1.26545212059E+02	-5.82780607675E+00	-6.62078295792E-01
1.07669741082E+06	-1.57395081934E+01	1.71030167369E+02	5.20202284327E+00	1.76698349434E+02	-4.57985271768E+01	-9.78183905094E+01	-5.84149411712E+00	-4.57383226296E-01
1.09888876542E+06	-1.20282350176E+01	-1.78860429051E+02	5.14539026736E+00	1.76554388859E+02	-4.14442760962E+01	-6.35641280466E+01	-5.83944867163E+00	-7.64744156506E-01
1.12108012001E+06	-1.22987411735E+01	1.72052380090E+02	5.16811264459E+00	1.76815281892E+02	-6.61616580062E+01	1.46642034276E+01	-5.83364303321E+00	-4.94823562627E-01
1.14327147461E+06	-1.94220180890E+01	1.68957849242E+02	5.20755745387E+00	1.76390760446E+02	-4.11061122163E+01	-1.03041983324E+02	-5.85464939544E+00	-6.70435605298E-01
1.16546282920E+06	-2.01282720247E+01	-1.18549104796E+02	5.21203530290E+00	1.76583219382E+02	-3.80825869612E+01	-3.33167092484E+01	-5.85058296430E+00	-5.37382519846E-01
1.18765418380E+06	-1.67542594327E+01	-1.69000559905E+02	5.22489617059E+00	1.76160424406E+02	-4.55517270712E+01	1.13917716189E+02	-5.84763788850E+00	-7.14583748775E-01
1.20984553839E+06	-1.70125122252E+01	-1.49290262803E+02	5.18125217232E+00	1.75891299869E+02	-5.66837425034E+01	7.64534853904E+01	-5.81945179357E+00	-7.64276180090E-01
1.23203689299E+06	-1.46260683055E+01	-1.79141167051E+02	5.19246168767E+00	1.76129722922E+02	-5.17775726405E+01	-1.30814997830E+02	-5.84442351947E+00	-4.26146790622E-01
1.25422824758E+06	-2.00079069687E+01	-1.76195412038E+02	5.22708898883E+00	1.75861975008E+02	-4.73852788758E+01	-7.27150588112E+01	-5.82730676778E+00	-5.99708354472E-01
1.27641960218E+06	-1.20647154908E+01	1.72682884504E+02	5.20425513260E+00	1.75902272779E+02	-4.10504231124E+01	-4.16754355840E+01	-5.85443867031E+00	-8.34583957763E-01
1.29861095677E+06	-2.09206209190E+01	1.63451094493E+02	5.22035603597E+00	1.75934058532E+02	-4.28815091321E+01	-3.12251428667E+01	-5.85479662058E+00	-7.84955971651E-01
1.32080231137E+06	-1.87586546246E+01	1.51875909103E+02	5.23994750731E+00	1.75472532103E+02	-4.18963720548E+01	-1.31369114473E+01	-5.87218869731E+00	-1.04877737603E+00
1.34299366596E+06	-2.14332186196E+01	-1.37126578674E+02	5.28156024138E+00	1.75626159884E+02	-4.32460548965E+01	-1.11866662357E+02	-5.85591184832E+00	-6.89686795824E-01
1.36518502056E+06	-1.79637823831E+01	1.69934474857E+02	5.22125235418E+00	1.75468842313E+02	-4.92938108051E+01	1.53911439209E+02	-5.82676305406E+00	-6.69362699415E-01
1.38737637515E+06	-1.47146047500E+01	1.78280163126E+02	5.21665760568E+00	1.75182616670E+02	-4.20759823814E+01	1.65862237235E+02	-5.83720560306E+00	-7.07384433821E-01
1.40956772975E+06	-1.50720548088E+01	-1.59424889029E+02	5.25815972035E+00	1.74976302948E+02	-4.20953641303E+01	-4.34530422052E+00	-5.83486137225E+00	-7.05000035606E-01
1.43175908434E+06	-1.31152209562E+01	1.58769738832E+02	5.21791937711E+00	1.75061435678E+02	-3.98005746769E+01	1.26625070648E+02	-5.85439563176E+00	-7.84009668137E-01
1.45395043894E+06	-1.86628519629E+01	-1.67339429111E+02	5.20354869216E+00	1.75134072659E+02	-4.49316517829E+01	1.69589220489E+02	-5.84545717688E+00	-6.53857026617E-01
1.47614179353E+06	-1.85558679465E+01	-1.72338401475E+02	5.21606362289E+00	1.75112724167E+02	-4.09771584755E+01	1.65863756430E+02	-5.84381160400E+00	-6.73703067144E-01
1.49833314813E+06	-1.86018116797E+01	1.78281606323E+02	5.22923433482E+00	1.74832084096E+02	-4.20269071009E+01	1.25343394039E+02	-5.83102182276E+00	-8.81359307932E-01
1.52052450272E+06	-1.72114539285E+01	1.75590191141E+02	5.21162804707E+00	1.74766005079E+02	-3.87392291446E+01	-6.86971709689E+01	-5.84806614806E+00	-7.06075811299E-01
1.54271585732E+06	-2.22341144755E+01	-1.56501196202E+02	5.29437764211E+00	1.74576631091E+02	-5.57028873708E+01	1.61004265723E+02	-5.85383414767E+00	-8.03917958311E-01
1.56490721191E+06	-1.92051868144E+01	-1.63289673851E+02	5.25492070054E+00	1.74240454748E+02	-4.86389422156E+01	-1.79220050940E+02	-5.82330380031E+00	-8.53882565235E-01
1.58709856651E+06	-1.81054250762E+01	-1.70214463809E+02	5.25072359966E+00	1.74358002754E+02	-5.21870281737E+01	1.17814357520E+02	-5.85370048285E+00	-7.69830166813E-01
1.60928992110E+06	-2.19970683053E+01	1.65360360426E+02	5.24926408552E+00	1.74669004078E+02	-4.87385859429E+01	-2.13515400491E+01	-5.86308733909E+00	-9.01021971514E-01
1.63148127570E+06	-1.94361616229E+01	-1.67542171001E+02	5.30279492012E+00	1.74102989849E+02	-3.85063128260E+01	6.04166646912E+01	-5.82263136716E+00	-9.61391431883E-01
1.65367263029E+06	-1.89248088322E+01	1.43393112236E+02	5.16619469453E+00	1.74294947332E+02	-5.24979413560E+01	-7.01148254437E+01	-5.87633243009E+00	-6.93927969941E-01
1.67586398489E+06	-2.11970399063E+01	-1.36318954371E+02	5.26896332192E+00	1.74122285838E+02	-4.52918665526E+01	4.60686861904E+01	-5.86595928804E+00	-7.73033099788E-01
1.69805533948E+06	-1.65384543723E+01	-1.71231104877E+02	5.24317057785E+00	1.73722609918E+02	-4.79339969011E+01	1.47595410522E+02	-5.82072101105E+00	-8.25616908104E-01
1.72024669408E+06	-1.38897903356E+01	-1.70312411280E+02	5.19183564731E+00	1.73869020251E+02	-4.32026327581E+01	-9.53681992827E+01	-5.84972731466E+00	-9.08958586416E-01
1.74243804867E+06	-1.77854934628E+01	1.47337524396E+02	5.25748752733E+00	1.73771658830E+02	-4.19016207008E+01	-9.98999633840E+01	-5.82533124108E+00	-7.51217660306E-01
1.76462940327E+06	-1.75818668278E+01	-1.58420885940E+02	5.23631084095E+00	1.73508289379E+02	-6.79827491304E+01	7.23458889382E+01	-5.86276813081E+00	-8.53618780739E-01
1.78682075786E+06	-2.08032762690E+01	1.73973994073E+02	5.28148828288E+00	1.73814416648E+02	-4.48443166436E+01	1.35575510135E+02	-5.83585441313E+00	-8.94837514705E-01
1.80901211246E+06	-1.42751946937E+01	-1.73075990357E+02	5.20389153395E+00	1.73677908560E+02	-4.00218425547E+01	9.78138829538E+00	-5.84193658236E+00	-1.03570864774E+00
1.83120346705E+06	-1.80292317311E+01	-1.34413537602E+02	5.26717071648E+00	1.72958710619E+02	-3.93781031530E+01	-1.42036397862E+02	-5.81495283990E+00	-8.43703365859E-01
1.85339482165E+06	-1.84589395751E+01	-1.51691415575E+02	5.22078899412E+00	1.73192233225E+02	-4.41424165175E+01	8.31312676265E+01	-5.84645267746E+00	-9.94306392685E-01
1.87558617624E+06	-1.48454029168E+01	-1.45927179597E+02	5.18439631567E+00	1.72826546214E+02	-5.12029241259E+01	3.68822856604E+01	-5.87087967905E+00	-1.01423254859E+00
1.89777753084E+06	-2.04556002086E+01	1.30121342455E+02	5.24490774264E+00	1.73224829380E+02	-4.30640833374E+01	-2.40571884222E+01	-5.85218711664E+00	-9.67397101522E-01
1.91996888543E+06	-1.42890728768E+01	1.78428829053E+02	5.17495556712E+00	1.73187998026E+02	-4.41577239006E+01	-1.61324739826E+02	-5.84177012693E+00	-7.40408883554E-01
1.94216024003E+06	-1.90891867955E+01	-1.56417384285E+02	5.26353241702E+00	1.72766739438E+02	-3.31351388524E+01	8.40484094660E+01	-5.82501729756E+00	-1.24654701773E+00
1.96435159462E+06	-1.88269483827E+01	-1.54055340114E+02	5.24157174386E+00	1.72598576318E+02	-3.70270826833E+01	7.09542712239E+01	-5.84874014363E+00	-1.07639187058E+00
1.98654294922E+06	-2.25010295417E+01	-1.60249887436E+02	5.21907199795E+00	1.72666176119E+02	-4.53187589184E+01	-1.05080219290E+02	-5.85835236523E+00	-1.15826882130E+00
2.00873430381E+06	-1.65511587032E+01	1.64183023579E+02	5.23988304562E+00	1.72780423864E+02	-4.47641685434E+01	1.43956495880E+02	-5.84184608180E+00	-9.71997075801E-01
2.03092565841E+06	-1.17435858816E+01	1.78137928658E+02	5.20777305152E+00	1.72272018912E+02	-4.35768941278E+01	7.62264657389E+01	-5.84611281247E+00	-1.13275262060E+00
2.05311701300E+06	-1.70850951462E+01	9.27097478914E+01	5.19940956147E+00	1.72997601815E+02	-4.54734927565E+01	1.72086593824E+02	-5.84887339850E+00	-9.66056593127E-01
2.07530836760E+06	-1.83436926676E+01	-1.61921957954E+02	5.25500945892E+00	1.72152703774E+02	-5.53004710641E+01	-1.00583249123E+02	-5.84643113257E+00	-9.56446566316E-01
2.09749972219E+06	-1.66079556243E+01	-1.59428749956E+02	5.22042721542E+00	1.72054987536E+02	-3.90721923718E+01	-1.66001839427E+02	-5.81568334101E+00	-1.04907804700E+00
2.11969107679E+06	-1.92697715039E+01	1.69692109868E+02	5.28756723503E+00	1.72150326223E+02	-3.55100265177E+01	1.24801299058E+02	-5.80804355604E+00	-1.08002956098E+00
2.14188243138E+06	-2.30769506407E+01	-1.16181218975E+02	5.31067066994E+00	1.71907578168E+02	-4.68986473392E+01	3.46366101806E+01	-5.84619200365E+00	-1.06565356226E+00
2.16407378598E+06	-1.56879236769E+01	-1.71175528621E+02	5.22695661392E+00	1.71758961036E+02	-4.75551708905E+01	7.98885398445E+01	-5.84033568269E+00	-1.09852962125E+00
2.18626514057E+06	-1.64616701319E+01	1.70711271898E+02	5.26719486557E+00	1.71838027978E+02	-5.19329777883E+01	-1.71348402719E+02	-5.84476472944E+00	-1.03111454211E+00
2.20845649517E+06	-1.41362432456E+01	-1.15632475293E+02	5.29860244640E+00	1.71532493049E+02	-6.10137536508E+01	-5.41468805526E+01	-5.84356172068E+00	-1.09601074605E+00
2.23064784976E+06	-1.29452142452E+01	1.26948984877E+02	5.20844291530E+00	1.72081776481E+02	-4.34606024473E+01	8.40015898197E+01	-5.84148535250E+00	-1.06198233533E+00
2.25283920436E+06	-1.48269989094E+01	-1.66566873458E+02	5.17656661264E+00	1.71486676084E+02	-4.57887030781E+01	1.46042468586E+02	-5.83255979862E+00	-1.03333733107E+00
2.27503055895E+06	-1.77268379251E+01	-1.79236799601E+02	5.25332479116E+00	1.71409324145E+02	-4.59726645034E+01	-5.50965746116E+00	-5.85570756797E+00	-1.19635590860E+00
2.29722191355E+06	-1.45004439963E+01	-1.52548875234E+02	5.26693901737E+00	1.70746712202E+02	-5.26320979026E+01	9.01985192514E+01	-5.81552840209E+00	-1.10977196715E+00
2.31941326814E+06	-1.62626797010E+01	-1.36428348675E+02	5.29027996072E+00	1.71086467970E+02	-4.29553442593E+01	-1.73950432323E+02	-5.84597460019E+00	-1.16588465582E+00
2.34160462274E+06	-1.76026150547E+01	-1.78541641602E+02	5.20777145961E+00	1.71120536992E+02	-4.78619418033E+01	5.34548603553E+01	-5.85042791898E+00	-1.19340416820E+00
2.36379597733E+06	-1.58519855536E+01	-1.67743225433E+02	5.21941833719E+00	1.70977875311E+02	-4.75498449739E+01	-1.62549518768E+02	-5.82079596070E+00	-1.14435840703E+00
2.38598733193E+06	-1.49055157721E+01	1.79799169670E+02	5.27763477724E+00	1.71098300046E+02	-4.74189988597E+01	1.49221255162E+02	-5.84790569560E+00	-1.17099587204E+00
2.40817868652E+06	-1.72971408669E+01	-1.79131477437E+02	5.27687096845E+00	1.70799458141E+02	-3.74986100559E+01	-4.33174180598E+01	-5.87635253984E+00	-1.22265259884E+00
2.43037004112E+06	-1.93724434544E+01	-1.34502386939E+02	5.33298857860E+00	1.70753558025E+02	-4.23228430362E+01	1.01851109981E+02	-5.81855491333E+00	-1.54879805313E+00
2.45256139571E+06	-1.63338628386E+01	1.66653327104E+02	5.22978978738E+00	1.70858148800E+02	-5.33160881877E+01	-1.59556989602E+02	-5.85226754311E+00	-1.17408229830E+00
2.47475275031E+06	-1.58608544627E+01	-1.53359618689E+02	5.24671109139E+00	1.70574690670E+02	-4.35138295913E+01	5.78327535101E+01	-5.86879326434E+00	-1.33014952014E+00
2.49694410490E+06	-1.79315163138E+01	1.71681461669E+02	5.27238034764E+00	1.70883138691E+02	-4.41781180832E+01	1.43543670869E+02	-5.82389895262E+00	-1.42831572700E+00
2.51913545950E+06	-1.04341380595E+01	1.68821826727E+02	5.15747789583E+00	1.69982597621E+02	-7.13908607067E+01	-5.84405941110E+01	-5.85563533009E+00	-1.22902678019E+00
2.54132681409E+06	-1.44888782591E+01	1.57675434846E+02	5.23029072595E+00	1.70737259220E+02	-4.89310904520E+01	1.15807480317E+02	-5.86139908176E+00	-1.18230082773E+00
2.56351816869E+06	-1.82615118793E+01	-1.77011186375E+02	5.22761276950E+00	1.70096058008E+02	-4.14461446289E+01	-3.59343886562E+01	-5.87253882734E+00	-1.20222530242E+00
2.58570952328E+06	-2.12869018787E+01	-1.71237016502E+02	5.27214521898E+00	1.70224219629E+02	-5.55973988947E+01	1.05603484613E+02	-5.83927631688E+00	-1.27190825874E+00
2.60790087788E+06	-1.85538400901E+01	1.76697155554E+02	5.29707058454E+00	1.70191770029E+02	-4.82347474904E+01	4.29611301437E+01	-5.85708695648E+00	-1.22433267071E+00
2.63009223247E+06	-1.78273180472E+01	1.70225998377E+02	5.21515075323E+00	1.70424244670E+02	-4.66853145672E+01	-1.46948846779E+02	-5.84914293390E+00	-7.65136436738E-01
2.65228358707E+06	-1.57106812935E+01	-1.76475444285E+02	5.26404515790E+00	1.69825838731E+02	-5.12603910149E+01	9.25940420642E-01	-5.85040962302E+00	-1.29680346902E+00
2.67447494166E+06	-1.99100146820E+01	1.41350124900E+02	5.22801736355E+00	1.69895098623E+02	-6.38774407229E+01	1.60236725746E+01	-5.83363945996E+00	-1.34488293181E+00
2.69666629626E+06	-2.41667971750E+01	7.75515784131E+01	5.25866156883E+00	1.69862208883E+02	-4.82625953880E+01	-3.53238823273E+01	-5.86070664396E+00	-1.50202861981E+00
2.71885765085E+06	-1.98656146040E+01	1.76922116295E+02	5.26008533333E+00	1.69660878999E+02	-4.69358156567E+01	-1.67496877913E+02	-5.84181561865E+00	-1.36187923021E+00
2.74104900545E+06	-1.58780541847E+01	1.69683596251E+02	5.27027955111E+00	1.69723490790E+02	-3.43963789245E+01	-8.42327914013E+01	-5.88351814716E+00	-1.08556168707E+00
2.76324036004E+06	-2.55866813477E+01	-1.79879984008E+02	5.27144802737E+00	1.69538327213E+02	-4.84509922737E+01	-8.23915866161E+01	-5.85020321646E+00	-1.28299532492E+00
2.78543171463E+06	-1.90718215724E+01	1.56292029859E+02	5.25519617298E+00	1.69464722319E+02	-4.33139837860E+01	4.79756844947E+01	-5.84734771887E+00	-1.30827290943E+00
2.80762306923E+06	-1.54385138177E+01	1.63497335212E+02	5.26420804917E+00	1.69383656310E+02	-4.13084154288E+01	7.37606141353E+01	-5.82263555493E+00	-1.34467620289E+00
2.82981442382E+06	-2.28181279692E+01	-1.68708780561E+02	5.27728077890E+00	1.69397879050E+02	-4.72070526911E+01	-2.38540154906E+01	-5.85421947554E+00	-1.45145271313E+00
2.85200577842E+06	-1.80146100068E+01	-1.73537567857E+02	5.27671419803E+00	1.68914493896E+02	-5.64576137114E+01	2.21312005954E+01	-5.84499496052E+00	-1.48146635401E+00
2.87419713301E+06	-2.07638775324E+01	-1.60998414426E+02	5.32573519106E+00	1.68997078428E+02	-5.80554528256E+01	-1.26266149242E+02	-5.85143275788E+00	-1.46630804555E+00
