# Hz S DB R 50
! CMT, M5065, 19127446, 24.2.4/2
! Date: 11/8/2024 4:03:02 PM
! Data: Format (Calibration Info)
! Freq	S11:dB/Ang(F2)	S21:dB/Ang(F2)	S12:dB/Ang(F2)	S22:dB/Ang(F2)
3.00000000000E+05	-1.43932406721E+01	1.73787074627E+02	1.01764449002E+01	-1.77460202636E+02	-4.32065965469E+01	-1.30641115054E+02	-5.81801205856E+00	-1.88847872795E-01
3.22191354595E+05	-2.52601534993E+01	1.57035057338E+02	1.02262293865E+01	-1.77709455696E+02	-4.47944568631E+01	-5.29538502461E+01	-5.84412976141E+00	-3.25337877041E-01
3.44382709190E+05	-1.83438122802E+01	1.42799551888E+02	1.02235971859E+01	-1.78208175776E+02	-5.31067514340E+01	-8.71335785982E+01	-5.83357408897E+00	-3.03666303155E-01
3.66574063785E+05	-1.56275538968E+01	-1.75333736908E+02	1.01953832268E+01	-1.78519015834E+02	-3.98892099568E+01	1.45386442904E+02	-5.82377025414E+00	-3.23265684209E-01
3.88765418380E+05	-2.38884810563E+01	-1.66825778832E+02	1.02416326700E+01	-1.77498668335E+02	-4.64500667409E+01	-1.58841492196E+02	-5.82336693853E+00	-3.69895597050E-01
4.10956772975E+05	-1.47862162480E+01	-1.63101254261E+02	1.02095593970E+01	-1.79291885889E+02	-4.40544873801E+01	-3.66465686830E+01	-5.86400927215E+00	-4.10344949048E-01
4.33148127570E+05	-1.46996945410E+01	-1.56133630236E+02	1.02051058692E+01	-1.79784829129E+02	-4.19094584782E+01	-9.80940531223E+00	-5.84731041521E+00	-3.54019632934E-01
4.55339482165E+05	-2.25770317391E+01	-1.41308919582E+02	1.02371538402E+01	-1.79833584827E+02	-5.31989443773E+01	-8.19881897312E+01	-5.86117328461E+00	-2.32089588403E-01
4.77530836760E+05	-1.17092616185E+01	-1.75485160594E+02	1.01640388439E+01	-1.79812829649E+02	-4.82587302314E+01	-8.44713456526E+01	-5.85704506986E+00	-3.21685730644E-01
4.99722191355E+05	-1.54603947115E+01	-1.70755715641E+02	1.02108190641E+01	1.79675071683E+02	-5.70771032315E+01	-1.05856739357E+02	-5.82612373104E+00	-2.92166399476E-01
5.21913545950E+05	-2.14398694860E+01	1.24751913227E+02	1.02428693660E+01	1.79913568687E+02	-4.76723915940E+01	-5.22710166838E+01	-5.84417607466E+00	-3.91863820433E-01
5.44104900545E+05	-1.54693762825E+01	-1.49834174647E+02	1.02182702555E+01	1.79297868593E+02	-4.17376507504E+01	-1.00830514924E+02	-5.85134439725E+00	-3.39514924119E-01
5.66296255139E+05	-1.61193536804E+01	-1.62199506753E+02	1.02237443423E+01	1.78982468994E+02	-5.33820266653E+01	1.68763997030E+02	-5.83842556927E+00	-4.16428651166E-01
5.88487609734E+05	-1.99399253618E+01	1.68970788560E+02	1.02504577828E+01	1.79075269499E+02	-4.95758446908E+01	-1.06801752348E+02	-5.84140415707E+00	-2.80203666195E-01
6.10678964329E+05	-1.88173912261E+01	-1.60113090816E+02	1.02589246531E+01	1.78789418930E+02	-4.64400747032E+01	-4.15324955476E+00	-5.84471678745E+00	4.55849995167E-02
6.32870318924E+05	-1.91156804176E+01	1.75511552493E+02	1.02380535571E+01	1.78668603807E+02	-4.91534148861E+01	-1.74870803825E+01	-5.84738179745E+00	-1.80893600006E-01
6.55061673519E+05	-1.65836500422E+01	-1.38307180900E+02	1.02215475846E+01	1.78118846122E+02	-4.69767642491E+01	1.28350775643E+02	-5.83780032196E+00	-3.45264305584E-01
6.77253028114E+05	-2.28232763242E+01	-1.65105769012E+02	1.02464956005E+01	1.78251710232E+02	-6.87777908783E+01	-1.04121028094E+01	-5.82141589661E+00	-7.11772586749E-01
6.99444382709E+05	-1.73561847606E+01	1.66729554926E+02	1.02292112327E+01	1.77796253168E+02	-4.78674212300E+01	-1.40773364526E+02	-5.82295896089E+00	-4.13450646125E-01
7.21635737304E+05	-2.11206051041E+01	-1.52192387168E+02	1.02616766675E+01	1.77837970576E+02	-4.81560394947E+01	-7.50764862825E+01	-5.85389977759E+00	-4.35373089139E-01
7.43827091899E+05	-2.13438791685E+01	-9.85546252208E+01	1.02407179264E+01	1.77660140801E+02	-3.37611686516E+01	8.07450938853E+01	-5.84107225663E+00	-5.62070761362E-01
7.66018446494E+05	-1.91293450666E+01	1.65300019987E+02	1.02169901356E+01	1.77546339017E+02	-4.58877751019E+01	-1.54213855562E+01	-5.84951467920E+00	-3.91440811123E-01
7.88209801089E+05	-2.73954454420E+01	-1.21844091778E+02	1.02435852281E+01	1.77619719883E+02	-3.94011502968E+01	1.09997443027E+02	-5.82033249105E+00	-4.97313362602E-01
8.10401155684E+05	-1.64947361884E+01	-1.74551442978E+02	1.02200114893E+01	1.77306432143E+02	-4.45183731595E+01	-1.59079469433E+02	-5.83358586802E+00	-3.20762163497E-01
8.32592510279E+05	-1.43125464691E+01	1.66653131553E+02	1.01907163164E+01	1.77088654475E+02	-4.18385257248E+01	-2.14064285213E+01	-5.84728829209E+00	-5.27467576218E-01
8.54783864874E+05	-1.80535281717E+01	-1.66789546200E+02	1.02253384008E+01	1.76936031734E+02	-3.98122589212E+01	-1.20898993208E+01	-5.86057788275E+00	-5.21564578324E-01
8.76975219469E+05	-1.99224332106E+01	-1.68385790000E+02	1.02614557996E+01	1.76736168616E+02	-5.13005700979E+01	-9.97359610825E+01	-5.82469141576E+00	-4.07583344319E-01
8.99166574064E+05	-1.80933270473E+01	-1.43681179379E+02	1.02388110572E+01	1.76418826740E+02	-4.19197500523E+01	9.31623050717E+01	-5.82711066759E+00	-5.70137876131E-01
9.21357928659E+05	-1.92926124896E+01	1.50875027617E+02	1.02362684886E+01	1.76573576831E+02	-4.80554847151E+01	-1.41589539204E+02	-5.81851006341E+00	-5.59423463770E-01
9.43549283254E+05	-1.71640923118E+01	1.56880587859E+02	1.01934181459E+01	1.76546615686E+02	-4.15294119542E+01	-1.95668102051E+01	-5.85861025292E+00	-6.36929607608E-01
9.65740637849E+05	-1.64321567222E+01	1.77145627086E+02	1.02082555823E+01	1.76203033144E+02	-4.52247929301E+01	9.61973987289E+01	-5.87528963792E+00	-5.35894799786E-01
9.87931992444E+05	-1.71496127005E+01	1.77715477394E+02	1.02314901662E+01	1.76089384206E+02	-4.74144029867E+01	-1.36438120651E+02	-5.81703771701E+00	-3.51055407440E-01
1.01012334704E+06	-1.71565068081E+01	-1.47682053716E+02	1.02167302012E+01	1.75806060416E+02	-4.89903829181E+01	1.76226913148E+01	-5.84799593790E+00	-7.11345011582E-01
1.03231470163E+06	-1.61608149560E+01	1.66792836059E+02	1.02155824041E+01	1.75773670318E+02	-4.12050050192E+01	-8.72249203632E+01	-5.82899814020E+00	-4.86489793489E-01
1.05450605623E+06	-1.79402121632E+01	-1.55071793557E+02	1.02266188434E+01	1.75545649948E+02	-4.54764075823E+01	-1.02201733728E+02	-5.84417589308E+00	-4.23089710349E-01
1.07669741082E+06	-1.24147906522E+01	1.49157112206E+02	1.00903434271E+01	1.76235273974E+02	-5.04942033045E+01	1.26684930775E+02	-5.87336750240E+00	-4.18440044510E-01
1.09888876542E+06	-2.29393848194E+01	-1.79321728850E+02	1.02301470621E+01	1.75263088099E+02	-4.55844819032E+01	-1.21691869059E+02	-5.82880984903E+00	-4.21635849490E-01
1.12108012001E+06	-1.79478134469E+01	1.60272143180E+02	1.02125708200E+01	1.75285291861E+02	-4.62291393766E+01	-1.48192239486E+01	-5.84852370803E+00	-5.20272729997E-01
1.14327147461E+06	-1.69238782972E+01	-1.71518962841E+02	1.02260612313E+01	1.75282899229E+02	-5.30523671206E+01	8.37720888450E+01	-5.84337285486E+00	-5.98345597232E-01
1.16546282920E+06	-1.83389124078E+01	1.61040986863E+02	1.02036509810E+01	1.75188433148E+02	-5.75409136067E+01	6.87710351331E+01	-5.85118932534E+00	-6.83573893003E-01
1.18765418380E+06	-2.45617315155E+01	1.70527980843E+02	1.02704079176E+01	1.74968630932E+02	-4.57329000950E+01	8.16101385979E+01	-5.83390192304E+00	-6.06413455280E-01
1.20984553839E+06	-1.97148741467E+01	-1.61429335809E+02	1.02420792440E+01	1.74504112842E+02	-4.51944389965E+01	5.51073643641E+01	-5.82902627961E+00	-7.92351039083E-01
1.23203689299E+06	-1.51783492395E+01	-1.68326307273E+02	1.02110200565E+01	1.74529006023E+02	-4.82646593668E+01	1.59186473847E+02	-5.83529306248E+00	-3.86688296729E-01
1.25422824758E+06	-1.78596048321E+01	-1.72235974686E+02	1.02543261564E+01	1.74452916832E+02	-4.56906413359E+01	1.39151908213E+02	-5.83906488263E+00	-6.42959178701E-01
1.27641960218E+06	-1.73005438147E+01	1.49677930760E+02	1.02328322124E+01	1.74544642856E+02	-4.21762278203E+01	-1.73463352567E+02	-5.80226434013E+00	-7.19921933345E-01
1.29861095677E+06	-1.34088658462E+01	-1.74964873237E+02	1.01990681443E+01	1.73979402991E+02	-4.26785191297E+01	1.66180009921E+02	-5.81208592800E+00	-6.78687931730E-01
1.32080231137E+06	-1.30187349755E+01	-1.60931968805E+02	1.02306058368E+01	1.73731859926E+02	-6.02039027393E+01	3.70084978932E+00	-5.85091505323E+00	-1.10747968702E+00
1.34299366596E+06	-1.37074311654E+01	1.57999371836E+02	1.01780449241E+01	1.74333248390E+02	-4.06590312201E+01	-1.19931675444E+02	-5.83785540161E+00	-6.36403667561E-01
1.36518502056E+06	-2.99112653156E+01	-1.62143440908E+02	1.02255334797E+01	1.73861593041E+02	-3.86490926447E+01	-1.21618638407E+01	-5.86105194023E+00	-9.18580786515E-01
1.38737637515E+06	-2.36336961902E+01	-1.26326708865E+02	1.02780213889E+01	1.73751944603E+02	-5.01855061600E+01	1.08958117578E+02	-5.84289814145E+00	-8.21031387371E-01
1.40956772975E+06	-1.64143566108E+01	-1.76930381965E+02	1.02339391365E+01	1.73607677398E+02	-4.68480883269E+01	1.78167666744E+02	-5.84009164286E+00	-7.62743830036E-01
1.43175908434E+06	-1.86166261691E+01	-1.62706851231E+02	1.02423898553E+01	1.73382785423E+02	-4.45600786337E+01	-1.47037786356E+02	-5.83763628840E+00	-6.54984794080E-01
1.45395043894E+06	-2.14789724287E+01	-1.70120305913E+02	1.02526283442E+01	1.73359210504E+02	-4.24809217150E+01	6.43497194098E+01	-5.83643743482E+00	-9.89443880785E-01
1.47614179353E+06	-1.65244242962E+01	1.76206905449E+02	1.02142135546E+01	1.73186136404E+02	-4.32267514114E+01	1.01090579831E+02	-5.84731155860E+00	-7.05882524616E-01
1.49833314813E+06	-2.06739181668E+01	1.54748254043E+02	1.02361760704E+01	1.72905289085E+02	-4.76666929394E+01	-1.64321186518E+02	-5.83467209869E+00	-6.26044938273E-01
1.52052450272E+06	-2.16645201400E+01	-1.74712569507E+02	1.02576320151E+01	1.72681694320E+02	-3.75327020390E+01	1.78668203073E+02	-5.81499054210E+00	-7.51243519759E-01
1.54271585732E+06	-1.47788719444E+01	-1.64263390457E+02	1.02630376373E+01	1.72647272503E+02	-6.74070797449E+01	-1.72936612854E+02	-5.82294370225E+00	-7.44422671513E-01
1.56490721191E+06	-1.78123193246E+01	1.63737822498E+02	1.02495315396E+01	1.72739886297E+02	-4.40659557910E+01	5.05761181125E+01	-5.86422297732E+00	-8.89393266261E-01
1.58709856651E+06	-2.09291418677E+01	-1.68948939580E+02	1.02659221768E+01	1.72568514930E+02	-4.91221564444E+01	5.64428554781E+01	-5.82392778026E+00	-9.40563598613E-01
1.60928992110E+06	-2.25866144942E+01	-1.65817731113E+02	1.02646693524E+01	1.72398582876E+02	-4.32843507489E+01	9.65308529160E+00	-5.85592907942E+00	-9.73485451499E-01
1.63148127570E+06	-1.64071873228E+01	1.64065833028E+02	1.02233267109E+01	1.72359156524E+02	-4.97703327724E+01	8.05073397981E+01	-5.84495327111E+00	-8.93092852855E-01
1.65367263029E+06	-1.46722724821E+01	1.42256955684E+02	1.02029264037E+01	1.72355562397E+02	-4.50586026595E+01	1.49086008878E+02	-5.85738796963E+00	-1.00319574286E+00
1.67586398489E+06	-1.82132512342E+01	1.72589679031E+02	1.02551328555E+01	1.72149971784E+02	-3.42185605917E+01	4.07019097017E+01	-5.84923857983E+00	-1.20097274667E+00
1.69805533948E+06	-2.45248977614E+01	1.60273875472E+02	1.02226216224E+01	1.72154658096E+02	-4.59961672791E+01	-1.31529563256E+02	-5.80705096728E+00	-7.08440026761E-01
1.72024669408E+06	-1.94858762322E+01	1.69319428575E+02	1.02381602101E+01	1.71720200931E+02	-4.13831127691E+01	8.19682609229E+01	-5.83983222522E+00	-1.02622120773E+00
1.74243804867E+06	-1.51083027507E+01	1.74321891321E+02	1.02364920846E+01	1.71732205979E+02	-5.95041716591E+01	-1.24161707366E+02	-5.82672316638E+00	-8.72518672329E-01
1.76462940327E+06	-1.97911346793E+01	1.68526878829E+02	1.02469586358E+01	1.71795446388E+02	-4.32568516184E+01	1.35530930339E+02	-5.83927683533E+00	-9.18874330470E-01
1.78682075786E+06	-2.55078251282E+01	1.68371313122E+02	1.02547643468E+01	1.71466026167E+02	-4.28903110921E+01	8.95986067610E+01	-5.84160059489E+00	-9.33212918553E-01
1.80901211246E+06	-1.73598489919E+01	1.51396601650E+02	1.02245686379E+01	1.71548460313E+02	-4.35851155917E+01	-1.69918298072E+01	-5.88653929489E+00	-8.52312102453E-01
1.83120346705E+06	-1.65659739370E+01	-1.69420199845E+02	1.02334869360E+01	1.71105862104E+02	-2.71375371167E+01	1.40374897929E+02	-5.73058892750E+00	-7.80860585924E-01
1.85339482165E+06	-1.22031264183E+01	1.52161880290E+02	1.01597519888E+01	1.70960098711E+02	-4.91201909269E+01	1.27499011178E+02	-5.83046868054E+00	-1.00109970700E+00
1.87558617624E+06	-9.23249268171E+00	-1.55700497055E+02	1.02428668553E+01	1.70487590568E+02	-4.80572878134E+01	-5.53241280090E+00	-5.86195353347E+00	-1.00575149214E+00
1.89777753084E+06	-1.92349186509E+01	1.42123414808E+02	1.02121977661E+01	1.71125609914E+02	-4.78746966870E+01	2.35868819624E+01	-5.87135121278E+00	-1.04039304801E+00
1.91996888543E+06	-1.55968828027E+01	-1.52587713382E+02	1.02641180316E+01	1.70509300733E+02	-4.61126660842E+01	1.14158560818E+02	-5.83570423888E+00	-9.42927029169E-01
1.94216024003E+06	-1.61785705615E+01	-1.73273019556E+02	1.02269613385E+01	1.70260102659E+02	-4.41569114342E+01	-7.98287666747E+01	-5.84355585156E+00	-9.90387520961E-01
1.96435159462E+06	-2.42203280120E+01	1.47350688464E+02	1.02639003979E+01	1.70800609767E+02	-4.20043961354E+01	-1.59178834775E+02	-5.84032055298E+00	-8.80881883151E-01
1.98654294922E+06	-2.29294968119E+01	1.32194504429E+02	1.02407993798E+01	1.70676405006E+02	-3.79743303056E+01	-9.68697838428E+01	-5.84607644635E+00	-8.62564880297E-01
2.00873430381E+06	-2.45367482087E+01	-1.44983552641E+02	1.02773927323E+01	1.70593589642E+02	-4.04002450247E+01	1.73821621797E+02	-5.81342880063E+00	-8.60210393698E-01
2.03092565841E+06	-1.74986601262E+01	4.17211110054E+01	1.02949186816E+01	1.70752399449E+02	-5.37444753259E+01	1.78823223119E+02	-5.84557438137E+00	-9.25979907694E-01
2.05311701300E+06	-2.12752928076E+01	-1.39659010549E+02	1.02759971047E+01	1.70035782051E+02	-4.82736021309E+01	-4.30536441609E+01	-5.85089694556E+00	-1.07684322200E+00
2.07530836760E+06	-2.18275800781E+01	1.55631404559E+02	1.02723960211E+01	1.70020731170E+02	-5.56534003643E+01	-1.37032184427E+02	-5.84600298736E+00	-1.01466278265E+00
2.09749972219E+06	-1.72196442622E+01	-1.44818033337E+02	1.02767918613E+01	1.69468071006E+02	-3.94467486899E+01	-8.68500783600E+01	-5.86680328275E+00	-8.67749502243E-01
2.11969107679E+06	-1.41413676277E+01	-1.76374212570E+02	1.02333378990E+01	1.69511910485E+02	-4.30515130355E+01	-1.61726301485E+02	-5.83324838139E+00	-1.00064722732E+00
2.14188243138E+06	-2.04546237830E+01	-1.60506813892E+02	1.02639630092E+01	1.69655149487E+02	-2.93349886698E+01	1.48591000223E+02	-5.78836142896E+00	-9.88442929578E-01
2.16407378598E+06	-2.28271973384E+01	1.13951584962E+02	1.02681951176E+01	1.69745884039E+02	-5.26068093640E+01	-1.16653198505E+02	-5.85783974582E+00	-1.01840179974E+00
2.18626514057E+06	-6.69937189820E+00	-1.16961706063E+02	1.03359268040E+01	1.68679653850E+02	-4.89976714312E+01	8.66934014473E+01	-5.82435498598E+00	-1.13912063643E+00
2.20845649517E+06	-1.68207401942E+01	-1.64417223779E+02	1.02482703979E+01	1.69004025370E+02	-4.63989630338E+01	-3.64834360060E+01	-5.84395882127E+00	-1.08808668320E+00
2.23064784976E+06	-1.61161848256E+01	1.52000810870E+02	1.02256859557E+01	1.69187765401E+02	-4.62014597998E+01	-1.41683539082E+02	-5.84886925788E+00	-1.16134122005E+00
2.25283920436E+06	-1.46205927991E+01	-1.65645176732E+02	1.02396592355E+01	1.68670665204E+02	-5.18328743044E+01	6.66260195367E+01	-5.82614000223E+00	-1.20099695059E+00
2.27503055895E+06	-2.50981196528E+01	-1.44054758187E+02	1.02853424125E+01	1.68983466737E+02	-5.13569328857E+01	1.77201474743E+02	-5.83387132951E+00	-1.15115462902E+00
2.29722191355E+06	-2.33100552865E+01	1.53844492764E+02	1.02710589908E+01	1.68822504559E+02	-4.03656834162E+01	-1.86995992399E+01	-5.86727985090E+00	-1.18390250908E+00
2.31941326814E+06	-2.11769405371E+01	1.78318054884E+02	1.02419431753E+01	1.68678008600E+02	-4.50363690459E+01	2.68532088098E+01	-5.84721329948E+00	-1.12137838121E+00
2.34160462274E+06	-1.26872360356E+01	1.41205974782E+02	1.01515867641E+01	1.68575753662E+02	-4.69907515350E+01	8.64377701312E+00	-5.86321227995E+00	-1.21775058948E+00
2.36379597733E+06	-1.92014573263E+01	-1.70776075396E+02	1.02580203198E+01	1.68450539247E+02	-4.99974948443E+01	1.25142485877E+02	-5.82654776377E+00	-1.33009993091E+00
2.38598733193E+06	-2.19574058012E+01	1.70130092167E+02	1.02800416083E+01	1.68452016209E+02	-4.34754871595E+01	-1.64857162707E+02	-5.81849881848E+00	-1.05044669846E+00
2.40817868652E+06	-2.10052120138E+01	1.69676377962E+02	1.02703179819E+01	1.68197780468E+02	-4.89915181105E+01	2.05030751248E+01	-5.85953426549E+00	-1.34125398675E+00
2.43037004112E+06	-2.12861762715E+01	-1.55289557450E+02	1.02802714901E+01	1.67982643723E+02	-4.40338685601E+01	8.84566015544E+01	-5.83477095901E+00	-1.86683762219E+00
2.45256139571E+06	-1.74653668067E+01	-1.52181856694E+02	1.02885171212E+01	1.67837440108E+02	-3.14390182509E+01	-3.55919338104E+01	-5.90176744945E+00	-1.32997486186E+00
2.47475275031E+06	-1.78457936382E+01	1.59843023894E+02	1.02743378962E+01	1.67927701574E+02	-4.23866960976E+01	1.29284427548E+02	-5.83340571927E+00	-1.23619872173E+00
2.49694410490E+06	-1.03503319739E+01	1.38895121626E+02	1.01896156400E+01	1.67760146475E+02	-5.02836016943E+01	-9.76311222337E+00	-5.83948910059E+00	-1.27468415973E+00
2.51913545950E+06	-1.71902078764E+01	-1.79192998747E+02	1.02666794849E+01	1.67384111567E+02	-5.28261291244E+01	4.26404957257E+01	-5.84013306017E+00	-1.26213298122E+00
2.54132681409E+06	-1.50402715339E+01	-1.74738106944E+02	1.02503766671E+01	1.67305152049E+02	-3.64461962964E+01	-3.57650757080E+01	-5.90364655744E+00	-1.22726419762E+00
2.56351816869E+06	-1.48733404960E+01	-1.44807882643E+02	1.02916382494E+01	1.66888688820E+02	-5.14521937281E+01	1.57963725351E+02	-5.84707052210E+00	-1.43259784990E+00
2.58570952328E+06	-2.99807564754E+01	1.66120184628E+02	1.02748096738E+01	1.67177264866E+02	-4.25816370823E+01	-1.10089821188E+02	-5.85445649239E+00	-1.09824275997E+00
2.60790087788E+06	-1.95172476583E+01	-1.63982663285E+02	1.02668404801E+01	1.67088618255E+02	-3.81568672683E+01	1.15064634987E+02	-5.81569038431E+00	-1.33567718136E+00
2.63009223247E+06	-2.00215695450E+01	1.75234331888E+02	1.02318248122E+01	1.67046916373E+02	-4.86536363450E+01	4.10842464626E+01	-5.83843689456E+00	-8.92312324070E-01
2.65228358707E+06	-1.93697322034E+01	-1.44278783748E+02	1.02756040249E+01	1.66780396123E+02	-4.84206745848E+01	-9.72230104044E+01	-5.84039723151E+00	-1.25415136094E+00
2.67447494166E+06	-1.67515142744E+01	-1.78869092075E+02	1.02644534022E+01	1.66653954686E+02	-4.93684662736E+01	5.24415036889E+01	-5.83616588653E+00	-1.39588115099E+00
2.69666629626E+06	-1.75465949901E+01	-1.51665560180E+02	1.02865173215E+01	1.66377985705E+02	-4.54626756424E+01	1.45029159231E+02	-5.83191553724E+00	-1.31428935464E+00
2.71885765085E+06	-1.68560434241E+01	-1.78801332818E+02	1.02690536375E+01	1.66159479102E+02	-4.58709466819E+01	-4.48812006256E+01	-5.85901649607E+00	-1.46780584720E+00
2.74104900545E+06	-1.71604159671E+01	1.76824481115E+02	1.02661765484E+01	1.66182464968E+02	-4.91626222219E+01	1.65833550982E+02	-5.81534866979E+00	-1.27726476149E+00
2.76324036004E+06	-1.51309271783E+01	-1.70302146476E+02	1.02740356132E+01	1.65971470631E+02	-4.99312722913E+01	-3.77030771175E+01	-5.85874838252E+00	-1.38771100430E+00
2.78543171463E+06	-2.23974884914E+01	-1.47313339718E+02	1.03134011838E+01	1.66254714077E+02	-3.91022782005E+01	6.98782399458E+01	-5.82371787643E+00	-1.62365823002E+00
2.80762306923E+06	-1.74659631721E+01	-1.59714435818E+02	1.02677105096E+01	1.65780219497E+02	-5.48309663962E+01	2.94376209623E+01	-5.85552088969E+00	-1.46049099817E+00
2.82981442382E+06	-1.66055561697E+01	-1.65742710253E+02	1.02634217620E+01	1.65771302989E+02	-4.38350182501E+01	-3.35197719670E+00	-5.85006318132E+00	-1.49784713803E+00
2.85200577842E+06	-1.96811817883E+01	-1.52392906135E+02	1.02791227123E+01	1.65659234549E+02	-5.08365345308E+01	3.89118902047E+01	-5.84787080932E+00	-1.38851841032E+00
2.87419713301E+06	-1.49313700230E+01	-1.69166404640E+02	1.02743498755E+01	1.65333234621E+02	-4.05403514636E+01	-4.84214356825E+01	-5.87627176565E+00	-1.39421511615E+00
