# Hz S DB R 50
! CMT, M5065, 19127446, 24.2.4/2
! Date: 11/8/2024 4:05:16 PM
! Data: Format (Calibration Info)
! Freq	S11:dB/Ang(F2)	S21:dB/Ang(F2)	S12:dB/Ang(F2)	S22:dB/Ang(F2)
3.00000000000E+05	-1.89671366604E+01	-1.40707596290E+02	1.13889241826E+01	-1.77468382415E+02	-5.01228359539E+01	2.30408582993E+01	-5.82170241912E+00	-4.63521834025E-01
3.22191354595E+05	-1.91050158604E+01	-1.73610097369E+02	1.13574648197E+01	-1.77876535237E+02	-3.95134887734E+01	1.99190619264E+01	-5.86496179779E+00	-3.76330577800E-01
3.44382709190E+05	-1.97618242529E+01	-1.08641334478E+02	1.13913758869E+01	-1.78280541945E+02	-4.96687853753E+01	5.32238153220E+01	-5.81868203517E+00	-4.10399960651E-01
3.66574063785E+05	-2.51636237815E+01	1.38102538251E+02	1.13776270864E+01	-1.78269538923E+02	-4.84044734052E+01	-7.33418076596E+01	-5.85361392267E+00	-2.21677202891E-01
3.88765418380E+05	-1.68280322418E+01	-1.71882882335E+02	1.13245867213E+01	-1.79535638387E+02	-6.11807146839E+01	1.14598112098E+02	-5.73203952463E+00	-6.78295132610E-01
4.10956772975E+05	-1.54609172781E+01	1.73393437688E+02	1.13389285683E+01	-1.79016789276E+02	-5.22724776776E+01	-1.66586962885E+02	-5.83268554689E+00	-3.13503128221E-01
4.33148127570E+05	-2.04340220565E+01	-1.70620599708E+02	1.13492478986E+01	-1.79384990623E+02	-4.31931544296E+01	-1.45625184582E+02	-5.84665131049E+00	-2.89545324512E-01
4.55339482165E+05	-1.99667448255E+01	-1.64862652277E+02	1.13530190357E+01	-1.79854953469E+02	-4.71512227910E+01	-1.63221486342E+01	-5.85311315225E+00	-3.75255031262E-01
4.77530836760E+05	-1.92306558566E+01	-1.55644299461E+02	1.13449300203E+01	-1.79901267293E+02	-4.26933668118E+01	4.65792489328E+01	-5.85734566936E+00	-4.34420822041E-01
4.99722191355E+05	-1.72123887154E+01	-1.49032280061E+02	1.13630479942E+01	1.79730661058E+02	-3.66855433525E+01	-8.28603756668E+01	-5.85102093118E+00	-3.51187615352E-01
5.21913545950E+05	-1.84731286838E+01	-1.68976035979E+02	1.13644801560E+01	1.79463166217E+02	-5.22665456386E+01	1.58249672076E+02	-5.82531174159E+00	-4.57553756756E-01
5.44104900545E+05	-1.85252014185E+01	1.74888585026E+02	1.13631622318E+01	1.79252081305E+02	-4.55653838077E+01	-1.35972246702E+02	-5.82548173671E+00	-3.29438988248E-01
5.66296255139E+05	-1.62195695940E+01	-1.77630327305E+02	1.13603200623E+01	1.79033357259E+02	-4.50970098099E+01	6.74645828194E+01	-5.83323308268E+00	-5.32434612682E-01
5.88487609734E+05	-1.82560235469E+01	-1.77014048840E+02	1.13525882689E+01	1.78743934824E+02	-4.62666409038E+01	4.15911548106E+01	-5.85485476594E+00	-5.34226003066E-01
6.10678964329E+05	-1.52348447467E+01	-1.52170028075E+02	1.13815830433E+01	1.78497096689E+02	-5.03057042966E+01	-2.07872296064E+01	-5.84723097416E+00	4.18514211711E-02
6.32870318924E+05	-1.64097379243E+01	1.73235087249E+02	1.13495735352E+01	1.78416533490E+02	-4.62690474214E+01	-1.64013317651E+02	-5.82048681468E+00	2.55899550575E-02
6.55061673519E+05	-1.76502760170E+01	1.73749630423E+02	1.13336100800E+01	1.77990821692E+02	-4.38730701078E+01	7.59655725701E+01	-5.83120631524E+00	-4.40660766235E-01
6.77253028114E+05	-1.86895239022E+01	1.70292062850E+02	1.13552027371E+01	1.78176249092E+02	-3.85640686937E+01	-1.39043811071E+02	-5.82062123832E+00	-5.87655429755E-01
6.99444382709E+05	-1.55616377863E+01	1.64684390016E+02	1.13327963754E+01	1.78048608294E+02	-5.07275951430E+01	-1.17722099006E+01	-5.83716563455E+00	-4.13094261864E-01
7.21635737304E+05	-1.51854858035E+01	1.60081962823E+02	1.13521975859E+01	1.77892350511E+02	-4.14239276656E+01	1.25115379925E+02	-5.84836057595E+00	-5.12795483281E-01
7.43827091899E+05	-2.10416265260E+01	1.69530132839E+02	1.13693189468E+01	1.77569465581E+02	-4.04862082028E+01	2.91624327877E+01	-5.85514507108E+00	-6.92083212431E-01
7.66018446494E+05	-1.49123623430E+01	1.65290909341E+02	1.13257530916E+01	1.77347296048E+02	-4.22886244552E+01	2.45752219029E+01	-5.86770865183E+00	-4.58404487889E-01
7.88209801089E+05	-2.00531747880E+01	1.64333441337E+02	1.13651912926E+01	1.77248257446E+02	-5.15792924521E+01	1.70902747985E+02	-5.83246310943E+00	-4.32024525162E-01
8.10401155684E+05	-2.25007731323E+01	1.36376640041E+02	1.13521031742E+01	1.77303234319E+02	-4.04351318811E+01	3.77775540635E+01	-5.84003289355E+00	-4.52201272789E-01
8.32592510279E+05	-1.64989689296E+01	-1.75617818218E+02	1.13569724607E+01	1.76838402547E+02	-4.71300056757E+01	6.65581920945E+01	-5.83559667612E+00	-6.13864176493E-01
8.54783864874E+05	-1.63998292320E+01	1.79336545358E+02	1.13419286248E+01	1.76773773479E+02	-4.54488842844E+01	1.18678888650E+02	-5.83329612417E+00	-4.62780977698E-01
8.76975219469E+05	-1.52764978350E+01	1.60893249026E+02	1.13462593039E+01	1.76589582017E+02	-4.80794517172E+01	9.99313931073E+01	-5.83896347536E+00	-6.13068097966E-01
8.99166574064E+05	-1.93194822319E+01	1.68998699314E+02	1.13373943190E+01	1.76425949137E+02	-4.40542726449E+01	7.10985539231E+01	-5.84769631486E+00	-6.89592416609E-01
9.21357928659E+05	-1.66903179886E+01	1.79376416760E+02	1.13353231568E+01	1.76270492079E+02	-4.29404717188E+01	-3.13421403860E+00	-5.86248256374E+00	-5.55784780024E-01
9.43549283254E+05	-1.81302847682E+01	-1.64095873031E+02	1.13682778561E+01	1.75921514298E+02	-6.19932070131E+01	-5.80483136338E+01	-5.84693699116E+00	-4.70425508126E-01
9.65740637849E+05	-1.49187977564E+01	1.69841406083E+02	1.13101750372E+01	1.76004060813E+02	-4.72946196872E+01	5.28538130175E+01	-5.85327054617E+00	-4.91003175902E-01
9.87931992444E+05	-1.32736044329E+01	-1.58521561126E+02	1.13439295122E+01	1.75663337676E+02	-5.07966009166E+01	-7.64665583589E+01	-5.83449511174E+00	-4.95804495847E-01
1.01012334704E+06	-1.62918285193E+01	1.65094579194E+02	1.13564836952E+01	1.75717556005E+02	-4.63447512063E+01	-1.18175869108E+02	-5.85347262676E+00	-3.01479648089E-01
1.03231470163E+06	-2.07440618344E+01	1.69602237653E+02	1.13500930649E+01	1.75368683449E+02	-4.40571316713E+01	4.69395372164E+01	-5.85230063078E+00	-5.89369393697E-01
1.05450605623E+06	-1.82942220971E+01	-1.40820629653E+02	1.13568966570E+01	1.75295766259E+02	-6.28500935014E+01	1.33669651064E+02	-5.83973589423E+00	-7.71801433675E-01
1.07669741082E+06	-1.57727650145E+01	1.50303054390E+02	1.14208276837E+01	1.75378378115E+02	-4.29248744013E+01	5.70709758511E+01	-5.84579467322E+00	-7.36327939057E-01
1.09888876542E+06	-1.91696021822E+01	1.42658810730E+02	1.13360666033E+01	1.75326373961E+02	-4.41909447791E+01	-1.21826692657E+02	-5.83745875210E+00	-5.19250114284E-01
1.12108012001E+06	-1.52461823125E+01	-1.69691665431E+02	1.13494490300E+01	1.74884575145E+02	-4.20677301869E+01	8.36799708717E+01	-5.83093073502E+00	-7.76574429966E-01
1.14327147461E+06	-1.88497113786E+01	-1.21782334458E+02	1.14163430329E+01	1.74632188073E+02	-5.00348400359E+01	6.35364947759E+01	-5.84649974029E+00	-7.13300732332E-01
1.16546282920E+06	-1.81877025868E+01	-1.59037614738E+02	1.13603824024E+01	1.74455351371E+02	-5.08830325737E+01	1.06269416064E+02	-5.83058807321E+00	-6.29057985720E-01
1.18765418380E+06	-2.16478655963E+01	-1.58175385992E+02	1.13657842785E+01	1.74379737515E+02	-5.71085705871E+01	-1.20547686967E+01	-5.83448633721E+00	-6.53054175553E-01
1.20984553839E+06	-1.75929271458E+01	-1.65689204223E+02	1.13620868321E+01	1.74219516098E+02	-4.77774799936E+01	1.44982814847E+02	-5.83549438704E+00	-8.47903716532E-01
1.23203689299E+06	-1.55535215035E+01	-1.72340119695E+02	1.13462108239E+01	1.74184858157E+02	-5.19426525946E+01	-1.61221438818E+02	-5.84536853560E+00	-3.39530648613E-01
1.25422824758E+06	-1.89646453523E+01	1.54948606099E+02	1.13475226590E+01	1.74262331624E+02	-3.63307388134E+01	8.96514803920E+01	-5.84038009067E+00	-7.66829341521E-01
1.27641960218E+06	-1.72722632191E+01	1.49517762653E+02	1.13408908799E+01	1.74140284725E+02	-4.09602297368E+01	-1.22464262574E+02	-5.84047952530E+00	-7.04985436348E-01
1.29861095677E+06	-1.39360558944E+01	1.69401217668E+02	1.13321307663E+01	1.73702797151E+02	-5.08646657191E+01	-3.87861505867E+01	-5.85885075902E+00	-7.64452132741E-01
1.32080231137E+06	-2.05224174614E+01	-1.44111605642E+02	1.13631426327E+01	1.73534842807E+02	-4.77915672834E+01	2.26260417772E+01	-5.82987031645E+00	-1.16568339344E+00
1.34299366596E+06	-1.77698886618E+01	1.57368521862E+02	1.13618920779E+01	1.73778235744E+02	-4.43949832656E+01	-1.18387520174E+02	-5.82756161949E+00	-7.24140268221E-01
1.36518502056E+06	-3.35963694587E+01	-8.78633006781E+01	1.14016552413E+01	1.73455849862E+02	-4.75737235859E+01	7.19766136351E+00	-5.85987856611E+00	-7.61235429814E-01
1.38737637515E+06	-1.69125606533E+01	1.66559569298E+02	1.13407064911E+01	1.73277353604E+02	-5.71651816215E+01	1.63192384943E+02	-5.82518509648E+00	-7.71488312183E-01
1.40956772975E+06	-1.85810091962E+01	-1.66945914396E+02	1.13807581874E+01	1.73141458925E+02	-5.02238560420E+01	-9.38149182451E+00	-5.82933761421E+00	-5.73809778795E-01
1.43175908434E+06	-1.76792958661E+01	1.75926497092E+02	1.13248806258E+01	1.72887135559E+02	-4.31211090629E+01	-8.78925584859E+01	-5.84477698015E+00	-5.12188850476E-01
1.45395043894E+06	-1.27457371816E+01	1.68331054259E+02	1.13235789353E+01	1.72779228803E+02	-3.99185663986E+01	-9.89953636698E+01	-5.82870554731E+00	-4.67204974817E-01
1.47614179353E+06	-2.26438228931E+01	1.78856158709E+02	1.13656339326E+01	1.72734085126E+02	-4.18854875074E+01	1.51619562647E+02	-5.81924468877E+00	-7.04612637572E-01
1.49833314813E+06	-1.83920928012E+01	1.75964973265E+02	1.13555168823E+01	1.72636631741E+02	-4.36228435191E+01	1.23250608057E+02	-5.84452685540E+00	-6.63776807212E-01
1.52052450272E+06	-1.40989708420E+01	1.78299733052E+02	1.13154458176E+01	1.72299801395E+02	-4.69263391167E+01	1.22584922184E+02	-5.84348269094E+00	-9.89775588741E-01
1.54271585732E+06	-2.15820200266E+01	1.78171593934E+02	1.13735252823E+01	1.72283212089E+02	-5.06638657724E+01	-1.64737091744E+02	-5.82000059546E+00	-7.15704816829E-01
1.56490721191E+06	-1.81500269255E+01	1.61411861518E+02	1.13443335990E+01	1.72244131021E+02	-4.37497861188E+01	9.15386576652E+01	-5.83371134955E+00	-8.13204505048E-01
1.58709856651E+06	-2.95295983740E+01	-9.92240721939E+01	1.13922804365E+01	1.72232826544E+02	-4.60149900669E+01	9.89144082676E+01	-5.82310301374E+00	-6.72970875154E-01
1.60928992110E+06	-1.93159159349E+01	-1.69111185174E+02	1.13558180366E+01	1.72003297261E+02	-3.64037758362E+01	-1.66121160056E+02	-5.81603365299E+00	-7.19336509456E-01
1.63148127570E+06	-1.74462728183E+01	-1.70588729766E+02	1.13431860538E+01	1.71622013725E+02	-5.03044383434E+01	3.28207796605E+01	-5.85223663226E+00	-7.38507705674E-01
1.65367263029E+06	-1.88772850851E+01	-1.52882833209E+02	1.13599181085E+01	1.71563920906E+02	-5.56997892092E+01	1.04177711341E+01	-5.83806409360E+00	-7.99359761724E-01
1.67586398489E+06	-1.69749520482E+01	1.57261694994E+02	1.13516511998E+01	1.71526528479E+02	-4.61266373990E+01	-7.35390747489E+01	-5.84302779634E+00	-8.09197864167E-01
1.69805533948E+06	-1.57941677692E+01	-1.54553763193E+02	1.13681163092E+01	1.71260059472E+02	-4.57407119163E+01	5.79249383695E+01	-5.86104358083E+00	-9.81948128014E-01
1.72024669408E+06	-1.47217957877E+01	-1.68419815641E+02	1.13714702613E+01	1.71188199362E+02	-4.53854786057E+01	9.51066011042E+01	-5.81659041115E+00	-1.00515648187E+00
1.74243804867E+06	-1.66139706572E+01	-1.57723249926E+02	1.13498216506E+01	1.71128834229E+02	-4.62556097724E+01	-8.54119248832E+01	-5.83256568733E+00	-8.19728771450E-01
1.76462940327E+06	-1.39159088472E+01	6.82364342187E+01	1.13348330146E+01	1.71516125086E+02	-4.24736771940E+01	1.73187075893E+02	-5.83680218027E+00	-8.12348013076E-01
1.78682075786E+06	-2.23361809559E+01	-1.67311777371E+02	1.13473561051E+01	1.70809394096E+02	-5.40251116884E+01	-9.20796510383E+01	-5.84545695497E+00	-8.90710090900E-01
1.80901211246E+06	-1.60092023897E+01	-1.66100443225E+02	1.13425449391E+01	1.70544842852E+02	-4.32330192035E+01	1.71221762535E+02	-5.80057994118E+00	-9.55676212045E-01
1.83120346705E+06	-2.15108768859E+01	-1.67097513245E+02	1.13535437386E+01	1.70409388106E+02	-4.23516225114E+01	1.18304511537E+02	-5.80573210774E+00	-8.16954167920E-01
1.85339482165E+06	-1.89243634482E+01	-1.59184873990E+02	1.13901377787E+01	1.70262902639E+02	-5.54172589649E+01	-9.33610827263E+01	-5.83085491503E+00	-1.04355204639E+00
1.87558617624E+06	-2.04273971924E+01	-1.70447761321E+02	1.13666075090E+01	1.70215422411E+02	-4.01991995604E+01	-1.29117940928E+02	-5.83243855413E+00	-8.30342560946E-01
1.89777753084E+06	-1.75796519473E+01	-1.79353181671E+02	1.13646712900E+01	1.70109589608E+02	-3.31425610366E+01	-3.50565282150E+01	-5.89015164711E+00	-9.16265908786E-01
1.91996888543E+06	-1.40930968101E+01	-6.99722213959E+01	1.14395995787E+01	1.70219957985E+02	-5.44396452670E+01	-4.76942359171E+01	-5.85368197402E+00	-8.10056113858E-01
1.94216024003E+06	-2.29274166263E+01	-1.73874437465E+02	1.13865482769E+01	1.69955007762E+02	-5.13040470828E+01	1.42377744013E+02	-5.81919092291E+00	-9.27907844937E-01
1.96435159462E+06	-1.68639843431E+01	-1.60683117934E+02	1.13633498867E+01	1.69741308215E+02	-4.73458953088E+01	1.48783278472E+02	-5.83797213837E+00	-9.93786204486E-01
1.98654294922E+06	-1.65532056118E+01	1.74450160086E+02	1.13083676524E+01	1.69652665472E+02	-4.37497462185E+01	1.72017961240E+02	-5.82317568946E+00	-1.04441460991E+00
2.00873430381E+06	-2.26563623542E+01	1.58542820839E+02	1.13919178251E+01	1.69580663926E+02	-5.15391336168E+01	8.03587713912E+01	-5.84161581521E+00	-1.06106250636E+00
2.03092565841E+06	-1.85965250172E+01	-1.64724255222E+02	1.13768134647E+01	1.69484025676E+02	-4.54174127554E+01	-1.46575456831E+02	-5.81723410086E+00	-1.06518203684E+00
2.05311701300E+06	-2.26335571250E+01	-1.47391240633E+02	1.13996557786E+01	1.69270142655E+02	-5.07524110094E+01	-1.02397519229E+02	-5.85235563365E+00	-1.00310716562E+00
2.07530836760E+06	-1.83298098859E+01	1.57892312828E+02	1.13165234669E+01	1.69324687017E+02	-3.73755116214E+01	8.22877474301E+01	-5.79879226716E+00	-1.16366025437E+00
2.09749972219E+06	-1.71540332185E+01	-1.51680400554E+02	1.13907044069E+01	1.68742166556E+02	-5.36991552922E+01	1.14296580998E+02	-5.85044510404E+00	-1.19470357816E+00
2.11969107679E+06	-1.72380508047E+01	1.60391700166E+02	1.13355337848E+01	1.69119999515E+02	-4.58244665591E+01	1.77982708461E+02	-5.82725474428E+00	-1.00619177731E+00
2.14188243138E+06	-1.46783988037E+01	-1.79695367132E+02	1.13500226032E+01	1.68635633974E+02	-4.57273221720E+01	3.28148546930E+01	-5.82734300501E+00	-1.16883067089E+00
2.16407378598E+06	-2.08811367081E+01	-1.66179994040E+02	1.13884176486E+01	1.68635726177E+02	-3.81634575629E+01	-3.54297041684E+01	-5.87042917733E+00	-9.97472709009E-01
2.18626514057E+06	-1.50443423334E+01	-1.78452420713E+02	1.13388441256E+01	1.68387774442E+02	-4.27761956550E+01	-6.31247011100E-01	-5.84095522535E+00	-1.25972570607E+00
2.20845649517E+06	-1.70347803573E+01	1.67676654895E+02	1.13639167825E+01	1.68488846613E+02	-4.47121316298E+01	-1.42323471409E+02	-5.85047347787E+00	-1.07758159312E+00
2.23064784976E+06	-2.08190267112E+01	1.57124196980E+02	1.13634579975E+01	1.68410868579E+02	-3.74498142438E+01	-1.66202313641E+02	-5.81452832280E+00	-9.40283796309E-01
2.25283920436E+06	-1.74420107712E+01	-1.66160250588E+02	1.13815605336E+01	1.68299664657E+02	-3.99836855960E+01	-1.45631418442E+02	-5.82860358508E+00	-9.58574897949E-01
2.27503055895E+06	-1.59750128084E+01	-1.60243292976E+02	1.13755287757E+01	1.67768654077E+02	-5.00470168923E+01	1.29038014589E+01	-5.83565136517E+00	-1.02242833169E+00
2.29722191355E+06	-1.56405946156E+01	-1.78118028974E+02	1.13431158942E+01	1.67770395894E+02	-4.67809389905E+01	-4.48193560418E+00	-5.84006253130E+00	-1.14529780127E+00
2.31941326814E+06	-1.71730294323E+01	-1.54771542683E+02	1.13868687344E+01	1.67601266862E+02	-4.37452611475E+01	2.76679949913E+01	-5.84325735041E+00	-1.21142807312E+00
2.34160462274E+06	-1.72380064035E+01	-1.76582112815E+02	1.13674826097E+01	1.67548677998E+02	-5.44504197802E+01	7.27095526437E+01	-5.81674826252E+00	-1.31124588286E+00
2.36379597733E+06	-2.09414628807E+01	-1.45766481992E+02	1.14048579224E+01	1.67638416769E+02	-4.05334938282E+01	1.58866166188E+02	-5.80216873420E+00	-1.18216377224E+00
2.38598733193E+06	-1.74546023207E+01	-1.73316634582E+02	1.13791662151E+01	1.67263411661E+02	-3.67502777205E+01	-1.67742048982E+02	-5.80718547663E+00	-9.01380656902E-01
2.40817868652E+06	-1.79191146205E+01	-1.53650832519E+02	1.13802813834E+01	1.67240149205E+02	-4.08625821502E+01	1.04486884998E+02	-5.81769426767E+00	-1.36188057386E+00
2.43037004112E+06	-1.91149550893E+01	-1.77168553979E+02	1.13685553647E+01	1.67153730852E+02	-4.37503039157E+01	1.18744442650E+02	-5.81100997028E+00	-1.82288231984E+00
2.45256139571E+06	-1.97156119241E+01	-1.54126953820E+02	1.13691718423E+01	1.66885573411E+02	-5.18931861228E+01	1.63081156428E+02	-5.82564911902E+00	-1.20146847836E+00
2.47475275031E+06	-1.37877393208E+01	-1.51518843065E+02	1.13738675090E+01	1.66689991428E+02	-4.57558059597E+01	-1.71346598814E+02	-5.83270936570E+00	-1.11572947455E+00
2.49694410490E+06	-2.04988774903E+01	-1.53864873465E+02	1.14196066857E+01	1.66759992143E+02	-4.60358758288E+01	1.11421897396E+02	-5.84357679473E+00	-1.24890892158E+00
2.51913545950E+06	-2.14424928731E+01	-1.50576148388E+02	1.14001502136E+01	1.66592056956E+02	-4.08129059935E+01	-1.09256699005E+01	-5.86785960746E+00	-1.21065980997E+00
2.54132681409E+06	-1.90476623970E+01	1.67372939964E+02	1.13796034132E+01	1.66625645684E+02	-3.66452634849E+01	7.37128413189E+01	-5.79559375238E+00	-1.46101494173E+00
2.56351816869E+06	-1.71582151498E+01	1.54195920275E+02	1.13569025722E+01	1.66521155524E+02	-4.51069874335E+01	3.32322434539E+01	-5.86858420416E+00	-1.40452469000E+00
2.58570952328E+06	-1.72005491922E+01	-1.70142883243E+02	1.13590076304E+01	1.66200324913E+02	-4.20595897260E+01	1.14268729080E+02	-5.81484702110E+00	-1.36224437352E+00
2.60790087788E+06	-1.81143259013E+01	1.72172763703E+02	1.13704163217E+01	1.66046143799E+02	-4.09553108100E+01	-6.31133725902E+01	-5.86321435864E+00	-9.38319155670E-01
2.63009223247E+06	-1.89608275836E+01	1.62526821284E+02	1.13752174703E+01	1.66085383464E+02	-4.61739616322E+01	1.20046238439E+02	-5.83472789040E+00	-9.37432547131E-01
2.65228358707E+06	-2.48008532840E+01	-1.49679356017E+02	1.13975253693E+01	1.66112992050E+02	-3.81662837224E+01	-1.35556296273E+01	-5.87569902418E+00	-1.28748418297E+00
2.67447494166E+06	-1.46953789828E+01	-1.55133485478E+02	1.13669396946E+01	1.65654331979E+02	-3.81827888582E+01	1.75719685465E+02	-5.80551397795E+00	-1.07186106469E+00
2.69666629626E+06	-1.53532427320E+01	-1.68551579798E+02	1.13605177297E+01	1.65462119724E+02	-5.07961391919E+01	-8.65174606953E+01	-5.86953165481E+00	-1.23049233283E+00
2.71885765085E+06	-1.75641745183E+01	-1.62933699985E+02	1.13859633515E+01	1.65185888731E+02	-5.93535366027E+01	-1.71382274871E+02	-5.82384856998E+00	-1.23950132738E+00
2.74104900545E+06	-1.88685218401E+01	-1.75308969633E+02	1.13992397777E+01	1.65386760741E+02	-4.33360832094E+01	8.20801773598E+01	-5.84474409373E+00	-1.38075554066E+00
2.76324036004E+06	-2.26576715891E+01	-1.69455920858E+02	1.14127629068E+01	1.65210726533E+02	-4.85506396408E+01	-1.38032261939E+02	-5.81899730092E+00	-1.18923028454E+00
2.78543171463E+06	-1.41797516566E+01	-1.64025427088E+02	1.13770549825E+01	1.64819031442E+02	-6.49137100977E+01	1.54513180086E+02	-5.83796146431E+00	-1.43477586971E+00
2.80762306923E+06	-1.60101040500E+01	1.60905149882E+02	1.13638305582E+01	1.65130722944E+02	-4.18393545688E+01	4.41789242860E+01	-5.82774948756E+00	-1.56123808380E+00
2.82981442382E+06	-2.24942881937E+01	1.51195993964E+02	1.14077771007E+01	1.65134664902E+02	-4.01790068570E+01	-1.36812099027E+02	-5.80511263854E+00	-1.35397403358E+00
2.85200577842E+06	-1.81952372620E+01	1.71302835947E+02	1.13629189301E+01	1.64854544891E+02	-3.35988078818E+01	3.50554242401E+01	-5.88200015191E+00	-1.84792471613E+00
2.87419713301E+06	-3.60293370730E+01	1.37934468807E+02	1.14117590523E+01	1.64722191053E+02	-4.62824330731E+01	5.28742359538E+01	-5.84118678109E+00	-1.56364969669E+00
