# Hz S DB R 50
! CMT, M5065, 19127446, 24.2.4/2
! Date: 11/8/2024 3:49:47 PM
! Data: Format (Calibration Info)
! Freq	S11:dB/Ang(F2)	S21:dB/Ang(F2)	S12:dB/Ang(F2)	S22:dB/Ang(F2)
3.00000000000E+05	-1.01638447042E+01	-1.76592985290E+02	5.76861991840E+00	-1.77678454599E+02	-4.15889529975E+01	-2.89264791013E+01	-5.85260420737E+00	-2.28090183016E-01
3.22191354595E+05	-1.37287047108E+01	-1.68742026123E+02	5.78071085192E+00	-1.77986830547E+02	-3.95671692456E+01	-1.33229993654E+01	-5.83044287253E+00	-2.41612026163E-01
3.44382709190E+05	-1.89361926916E+01	-1.65390346574E+02	5.79724272302E+00	-1.78635457821E+02	-4.52337486737E+01	-3.56840654636E+01	-5.84705315318E+00	-3.15941764515E-01
3.66574063785E+05	-2.84366432333E+01	-1.62624407619E+02	5.81527409179E+00	-1.78507069204E+02	-4.76568161016E+01	2.08093289117E+01	-5.85298417337E+00	-2.78627490699E-01
3.88765418380E+05	-1.48583385435E+01	1.70762731234E+02	5.76487450477E+00	-1.79175095849E+02	-5.44800227387E+01	4.53096003571E+01	-5.87110740823E+00	-3.84895416169E-01
4.10956772975E+05	-1.95043799547E+01	1.66288281062E+02	5.84615507925E+00	-1.79094664623E+02	-5.09262367713E+01	2.80965504637E+01	-5.85357624802E+00	-3.39074812626E-01
4.33148127570E+05	-2.17022676297E+01	1.44308361464E+02	5.80396824680E+00	-1.79236367173E+02	-4.38346670313E+01	-1.26367743363E+02	-5.84904901311E+00	-2.55183707876E-01
4.55339482165E+05	-1.41323009262E+01	1.32580881636E+02	5.76944422841E+00	-1.79305204160E+02	-4.03929790416E+01	3.80399740845E+01	-5.85088928724E+00	-3.02655595134E-01
4.77530836760E+05	-1.57018188300E+01	1.71987367517E+02	5.77627173480E+00	-1.79913247398E+02	-5.86867066295E+01	-1.10285458079E+02	-5.83138502040E+00	-4.62331843653E-01
4.99722191355E+05	-1.86288590156E+01	-1.71224571856E+02	5.87126984364E+00	-1.79916301492E+02	-4.39952696068E+01	1.41953985375E+02	-5.81717776987E+00	-4.09912490604E-01
5.21913545950E+05	-1.43674276889E+01	-1.78161670794E+02	5.78983824278E+00	1.79792834529E+02	-4.57985578077E+01	1.61950836785E+01	-5.84266141636E+00	-2.29390544185E-01
5.44104900545E+05	-1.58483196351E+01	1.67795598793E+02	5.83549730056E+00	1.79740757256E+02	-4.89150693188E+01	6.25535939930E+01	-5.84137548304E+00	-3.12365113845E-01
5.66296255139E+05	-1.80045979052E+01	-1.70522105466E+02	5.83623360166E+00	1.79721416114E+02	-3.44367849526E+01	-4.93753492659E+01	-5.84519244331E+00	-3.30758887889E-01
5.88487609734E+05	-1.95535557170E+01	1.59941927343E+02	5.84491692403E+00	1.79492672572E+02	-4.40174740707E+01	4.09039117787E+00	-5.84461669774E+00	-3.99287939330E-01
6.10678964329E+05	-2.62335133210E+01	-1.56676173150E+02	5.84469602483E+00	1.79316406278E+02	-5.02101686556E+01	-1.11015252364E+02	-5.82792644854E+00	8.87823226610E-03
6.32870318924E+05	-2.08796160732E+01	1.51004396938E+02	5.80894696039E+00	1.79113421696E+02	-4.79002226839E+01	5.62071547859E+01	-5.85895413775E+00	-2.42550294594E-01
6.55061673519E+05	-2.22246634964E+01	1.61136807561E+02	5.84094499748E+00	1.78887266371E+02	-4.85994020511E+01	1.72556221654E+02	-5.86165964808E+00	-3.63266316391E-01
6.77253028114E+05	-1.70008318769E+01	-1.62951859140E+02	5.79933176169E+00	1.78659852181E+02	-5.41276370907E+01	-6.51717368326E+01	-5.84435639495E+00	-5.77004789157E-01
6.99444382709E+05	-1.76894293537E+01	1.65903835681E+02	5.88875219727E+00	1.78419078101E+02	-4.21638701936E+01	1.13110278262E+02	-5.84109010138E+00	-4.91482119119E-01
7.21635737304E+05	-1.65904574747E+01	1.78835234017E+02	5.83326590643E+00	1.78353367698E+02	-4.36294845001E+01	7.56587615843E+01	-5.84697791985E+00	-4.10128585981E-01
7.43827091899E+05	-1.83532434237E+01	-1.77306805183E+02	5.82616146977E+00	1.78326391122E+02	-5.43831678184E+01	-2.79395137364E+01	-5.83645969930E+00	-4.31539158374E-01
7.66018446494E+05	-1.35040600591E+01	1.62646482501E+02	5.80615370173E+00	1.78327421365E+02	-4.01324187172E+01	-6.81186670427E+01	-5.86025304533E+00	-1.55782235203E-01
7.88209801089E+05	-1.65282693971E+01	1.67218742381E+02	5.78142632468E+00	1.77999678939E+02	-4.29178672140E+01	-1.61367793812E+02	-5.81436021204E+00	-3.92563107334E-01
8.10401155684E+05	-1.83109358808E+01	-1.79526605424E+02	5.81551834405E+00	1.77978826673E+02	-4.54375052917E+01	4.43451514466E+01	-5.84205009847E+00	-5.71844117320E-01
8.32592510279E+05	-1.98336692920E+01	-1.53164981443E+02	5.83965671978E+00	1.77306738997E+02	-5.49292941153E+01	1.60586209380E+01	-5.84592552773E+00	-6.31930893491E-01
8.54783864874E+05	-1.92926923157E+01	-1.68220333899E+02	5.81306120441E+00	1.77949822235E+02	-4.28475701157E+01	-5.85910839705E+01	-5.84790205434E+00	-5.28248725626E-01
8.76975219469E+05	-1.35723174061E+01	-1.67048370890E+02	5.80254353014E+00	1.77185914091E+02	-4.14558030701E+01	-1.05511901469E+02	-5.83083565076E+00	-3.85750714261E-01
8.99166574064E+05	-1.86064666318E+01	1.75332147896E+02	5.79751595951E+00	1.77452693566E+02	-4.13439828489E+01	-1.63866787003E+02	-5.80820379239E+00	-5.04331689551E-01
9.21357928659E+05	-2.43821339040E+01	1.59148373661E+02	5.83974305955E+00	1.77515292859E+02	-4.30611672437E+01	9.41224214906E+01	-5.82527379917E+00	-5.11321473488E-01
9.43549283254E+05	-1.64540834631E+01	1.69624849483E+02	5.89202299233E+00	1.76954628520E+02	-4.31862842074E+01	1.14766792861E+02	-5.84263848850E+00	-4.51057091353E-01
9.65740637849E+05	-1.73316040145E+01	-1.70762229849E+02	5.83781034708E+00	1.76947168983E+02	-4.75905939310E+01	-3.72439448603E+01	-5.85171840575E+00	-5.22121549276E-01
9.87931992444E+05	-1.71764827810E+01	-1.28445970038E+02	5.84602944581E+00	1.76878134739E+02	-4.49374624575E+01	8.77316563026E+01	-5.85254555546E+00	-5.85499897488E-01
1.01012334704E+06	-2.15141051244E+01	-1.36084665929E+02	5.84994288892E+00	1.76848072875E+02	-6.81270270774E+01	-1.52904914806E+02	-5.83527157366E+00	-5.08902274051E-01
1.03231470163E+06	-2.01810687829E+01	1.69217694760E+02	5.86476147520E+00	1.76999286980E+02	-4.60269015101E+01	-1.42228452803E+01	-5.82230471683E+00	-6.76460065167E-01
1.05450605623E+06	-1.72205147359E+01	1.76811074949E+02	5.82190125758E+00	1.77079799982E+02	-4.26725519750E+01	6.94221801240E+01	-5.81437851099E+00	-5.21759825761E-01
1.07669741082E+06	-1.73069217453E+01	-1.63754884509E+02	5.70367300893E+00	1.76986635518E+02	-5.29122013588E+01	4.87496127001E+01	-5.85144280184E+00	-5.39568657347E-01
1.09888876542E+06	-1.35214115145E+01	1.59599688170E+02	5.80917293317E+00	1.76273886600E+02	-4.85469493940E+01	-1.50720163083E+02	-5.84287233546E+00	-5.67224782877E-01
1.12108012001E+06	-2.28748380801E+01	-1.38113810285E+02	5.88987663233E+00	1.76329526804E+02	-4.14329590554E+01	1.42690117123E+02	-5.81688549211E+00	-6.26705109000E-01
1.14327147461E+06	-1.80618409070E+01	-1.40296865732E+02	5.84683746180E+00	1.76244537742E+02	-4.26341878461E+01	-1.58235890249E+02	-5.82324688626E+00	-5.79895488121E-01
1.16546282920E+06	-1.79879340776E+01	1.51566667020E+02	5.81748747217E+00	1.76024486758E+02	-4.92849090172E+01	-2.66544769618E+01	-5.84559786038E+00	-6.96225668915E-01
1.18765418380E+06	-1.69259569639E+01	1.78902447668E+02	5.80570659718E+00	1.76448784550E+02	-4.18824337862E+01	-1.34781907097E+02	-5.84219963598E+00	-4.13529137278E-01
1.20984553839E+06	-1.73402308330E+01	1.65325661646E+02	5.82818338157E+00	1.76094541207E+02	-4.22023777695E+01	-6.46420712986E+01	-5.86319807409E+00	-6.98159626387E-01
1.23203689299E+06	-2.58635381219E+01	1.55801738356E+02	5.83472270072E+00	1.75770132245E+02	-3.83898412618E+01	6.11659904974E+01	-5.85671761046E+00	-5.49144738665E-01
1.25422824758E+06	-1.56034761987E+01	1.62497273652E+02	5.78531334676E+00	1.75777210693E+02	-3.99492640837E+01	1.26810146034E+02	-5.83178714076E+00	-8.27043245214E-01
1.27641960218E+06	-2.01047137817E+01	-1.79411582067E+02	5.82910016911E+00	1.75748560272E+02	-4.23229163710E+01	-3.67585839778E+01	-5.86689802176E+00	-6.73799868396E-01
1.29861095677E+06	-1.58355754089E+01	1.75310587719E+02	5.82920901211E+00	1.75373317266E+02	-4.99307356344E+01	-3.08654100264E+01	-5.83431450322E+00	-7.34059083786E-01
1.32080231137E+06	-2.05986474132E+01	1.79173455384E+02	5.86147784263E+00	1.75381962352E+02	-4.45185805536E+01	-9.84276024962E+01	-5.85228200721E+00	-1.00774561076E+00
1.34299366596E+06	-1.67119202420E+01	1.55155156483E+02	5.82152885937E+00	1.75592075562E+02	-4.18688555179E+01	-1.65472048579E+02	-5.81782093835E+00	-8.22570267718E-01
1.36518502056E+06	-1.62493490523E+01	1.68181669872E+02	5.85018250342E+00	1.75278174155E+02	-4.61482269352E+01	1.35145487857E+02	-5.84403055198E+00	-7.22082094458E-01
1.38737637515E+06	-1.48201966850E+01	-1.71509287043E+02	5.83803235203E+00	1.74679289365E+02	-5.63233325309E+01	1.17480123195E+02	-5.82972716137E+00	-7.37822099767E-01
1.40956772975E+06	-1.63517198514E+01	-1.40183199135E+02	5.83233086008E+00	1.74846005732E+02	-4.67667243757E+01	5.88719716633E+01	-5.84690183071E+00	-7.19231467975E-01
1.43175908434E+06	-1.73225723344E+01	-1.63481990786E+02	5.86203014512E+00	1.74845961477E+02	-4.65479272308E+01	1.41551477528E+02	-5.85300176741E+00	-7.53555318417E-01
1.45395043894E+06	-1.68355513101E+01	-1.58392575578E+02	5.82581208874E+00	1.75015344413E+02	-4.08847103707E+01	9.20712392953E+00	-5.85364178982E+00	-7.34064341943E-01
1.47614179353E+06	-1.82035618966E+01	-1.50768727504E+02	5.84610058767E+00	1.74544425982E+02	-4.30572497684E+01	1.37703883258E+02	-5.83160100443E+00	-6.34065330839E-01
1.49833314813E+06	-1.88535987852E+01	1.72749797982E+02	5.79743952049E+00	1.74774183875E+02	-4.03467012304E+01	-1.53923590623E+02	-5.84383849947E+00	-6.70837897774E-01
1.52052450272E+06	-1.77658926303E+01	-1.77124237049E+02	5.84841710521E+00	1.74652507308E+02	-3.74498570356E+01	-1.40739476422E+02	-5.82324004132E+00	-5.87848169151E-01
1.54271585732E+06	-2.09962192413E+01	-1.53940550255E+02	5.84455876107E+00	1.74251757325E+02	-4.89243264500E+01	1.69695823788E+02	-5.83367508914E+00	-6.57547828416E-01
1.56490721191E+06	-1.49128007569E+01	-1.68670696372E+02	5.86420526288E+00	1.74270383160E+02	-4.83068602007E+01	9.59331540152E+01	-5.83933256529E+00	-7.57737708698E-01
1.58709856651E+06	-1.70852987376E+01	-1.63948721991E+02	5.86460488384E+00	1.73989734977E+02	-4.39071839826E+01	-1.37533343307E+02	-5.81901641762E+00	-7.08427168921E-01
1.60928992110E+06	-1.69915719217E+01	-1.71337558948E+02	5.81579902141E+00	1.74058691338E+02	-4.40459193271E+01	-1.63473110912E+02	-5.84472107478E+00	-8.38323962959E-01
1.63148127570E+06	-1.61154592974E+01	1.76047050401E+02	5.82878197598E+00	1.74179658627E+02	-4.64370131459E+01	-4.33903708256E+01	-5.85341186826E+00	-7.46164468045E-01
1.65367263029E+06	-1.71859992704E+01	-1.52054964908E+02	5.82366219900E+00	1.73596333690E+02	-3.58501693074E+01	-1.79390659455E+00	-5.84804355014E+00	-1.00201399839E+00
1.67586398489E+06	-1.78038776536E+01	-1.43717497504E+02	5.88571306602E+00	1.73746573776E+02	-3.95478773978E+01	-1.78168272102E+02	-5.81213160185E+00	-6.89728905337E-01
1.69805533948E+06	-9.35943381330E+00	1.79918576574E+02	5.79437649787E+00	1.73485187339E+02	-5.04552379491E+01	-1.79914547338E+02	-5.84588499678E+00	-8.01893722219E-01
1.72024669408E+06	-2.04722175377E+01	-1.03719824584E+02	5.84638134749E+00	1.73752291294E+02	-5.35572184680E+01	-4.86370513174E+01	-5.85875236203E+00	-9.41491810981E-01
1.74243804867E+06	-1.74631491433E+01	1.78191439694E+02	5.78935837643E+00	1.73443164514E+02	-4.83332221032E+01	-9.39399615961E+01	-5.86652297005E+00	-8.62792737098E-01
1.76462940327E+06	-1.72409462975E+01	1.70390222881E+02	5.85571287512E+00	1.73534703291E+02	-3.91094382953E+01	7.25013437257E+01	-5.86674570551E+00	-9.82327964170E-01
1.78682075786E+06	-2.12600508452E+01	-1.50675301238E+02	5.91433538668E+00	1.73333864564E+02	-4.25694986704E+01	-2.09759131358E+00	-5.84985999006E+00	-9.46024272392E-01
1.80901211246E+06	-1.58453355018E+01	-1.44354537563E+02	5.89561581161E+00	1.72921217097E+02	-3.80164666264E+01	-8.59318701296E+01	-5.85943014426E+00	-8.15192036389E-01
1.83120346705E+06	-1.71179706942E+01	-1.73543694000E+02	5.82028676834E+00	1.72908452409E+02	-4.11663035105E+01	1.15138402483E+02	-5.86299198600E+00	-9.01569938676E-01
1.85339482165E+06	-1.83769144132E+01	-1.46068184480E+02	5.87338363326E+00	1.72890319346E+02	-6.07202315500E+01	-1.61899969786E+02	-5.83878820829E+00	-9.01374062966E-01
1.87558617624E+06	-1.03194999501E+01	-6.08272395689E+01	5.98077034254E+00	1.73071395682E+02	-3.89120156443E+01	-6.23399391951E+01	-5.86922334355E+00	-9.08749268361E-01
1.89777753084E+06	-1.95889764873E+01	-1.45957325952E+02	5.89222442625E+00	1.72599753639E+02	-4.30052034047E+01	-1.17675510643E+02	-5.85056328687E+00	-7.29666964054E-01
1.91996888543E+06	-1.69153803679E+01	1.50726635180E+02	5.79858104830E+00	1.73280015231E+02	-5.12159558675E+01	8.04609182555E+01	-5.83955198275E+00	-9.19571470989E-01
1.94216024003E+06	-1.81649397491E+01	1.52824495483E+02	5.89164424120E+00	1.72702940787E+02	-4.50372142414E+01	-1.72970100264E+02	-5.83230397895E+00	-8.99722881812E-01
1.96435159462E+06	-1.66251726596E+01	-1.72748911111E+02	5.82713603588E+00	1.72241584476E+02	-3.97103944964E+01	9.46114938092E+01	-5.85747237754E+00	-9.75475031249E-01
1.98654294922E+06	-1.52154384027E+01	1.63717891487E+02	5.81866435146E+00	1.72708366804E+02	-3.62899699775E+01	1.58678254123E+02	-5.79017162092E+00	-8.62354132478E-01
2.00873430381E+06	-2.07574502971E+01	1.57187744148E+02	5.85991783736E+00	1.72291758336E+02	-5.79935685896E+01	1.73094115369E+02	-5.85149715313E+00	-1.01798661093E+00
2.03092565841E+06	-1.90052504200E+01	-8.91611677263E+01	5.87683541038E+00	1.72200121748E+02	-4.15424660046E+01	-1.76796086342E+02	-5.81407349403E+00	-1.04370368087E+00
2.05311701300E+06	-2.20210467526E+01	-1.43866630147E+02	5.89402626347E+00	1.72024609320E+02	-6.40723160496E+01	1.04516353852E+02	-5.83402325367E+00	-1.04170977258E+00
2.07530836760E+06	-1.40243453468E+01	-1.45167801166E+02	5.84460339048E+00	1.71701857840E+02	-4.85654242189E+01	1.67006796042E+02	-5.83813585850E+00	-1.08686400404E+00
2.09749972219E+06	-1.98800350921E+01	-1.58092998962E+02	5.84123132990E+00	1.71819152035E+02	-3.96640441754E+01	-1.62245587072E+02	-5.84799200141E+00	-1.06196296511E+00
2.11969107679E+06	-1.51841823922E+01	1.63261540500E+02	5.85082814507E+00	1.71752523372E+02	-3.22666229935E+01	2.47536507763E+01	-5.85838721670E+00	-1.27553976785E+00
2.14188243138E+06	-1.93528712996E+01	1.76480011041E+02	5.82477935148E+00	1.71654221697E+02	-3.25150942699E+01	-3.24295263501E+00	-5.88041442200E+00	-1.08475723700E+00
2.16407378598E+06	-1.54767815893E+01	-1.63666548241E+02	5.81118178403E+00	1.71465214258E+02	-5.49204961585E+01	4.28757106943E+01	-5.84248094643E+00	-1.09878402349E+00
2.18626514057E+06	-1.15801993441E+01	-1.19000642326E+02	5.95959453220E+00	1.71447518128E+02	-4.63501688177E+01	-1.35508773014E+02	-5.83400363369E+00	-1.07867621696E+00
2.20845649517E+06	-1.65477743184E+01	-1.57284950435E+02	5.87022911792E+00	1.71556579161E+02	-4.95130966809E+01	1.60408407889E+02	-5.84429078264E+00	-1.27132483016E+00
2.23064784976E+06	-2.27800940097E+01	1.59696265931E+02	5.86078554183E+00	1.71402456185E+02	-4.61392295748E+01	8.80362874786E+01	-5.85691614124E+00	-1.05383985631E+00
2.25283920436E+06	-1.34295761286E+01	-1.75735340178E+02	5.79315883391E+00	1.71117488617E+02	-5.80556867345E+01	-8.47415048290E+01	-5.83010784079E+00	-1.01774013222E+00
2.27503055895E+06	-2.11777202408E+01	-1.52673566078E+02	5.85258872009E+00	1.71323043376E+02	-4.48282590427E+01	-1.24005628749E+02	-5.85572010856E+00	-1.05703842737E+00
2.29722191355E+06	-1.55520466505E+01	1.73243460301E+02	5.83603509876E+00	1.71229973270E+02	-4.06854651521E+01	4.55948810269E+01	-5.83830044475E+00	-1.17741948070E+00
2.31941326814E+06	-2.27138122369E+01	1.63611558548E+02	5.86514523726E+00	1.71295298561E+02	-4.41967390223E+01	-7.53001964132E+01	-5.84177134982E+00	-1.15334499566E+00
2.34160462274E+06	-1.30751701761E+01	-1.78414299738E+02	5.82605959269E+00	1.70906147159E+02	-4.29744331402E+01	1.45227877801E+01	-5.84547867024E+00	-1.23017164376E+00
2.36379597733E+06	-1.63840241341E+01	1.49474818137E+02	5.80313190182E+00	1.71100849271E+02	-4.67798446216E+01	1.36424673165E+02	-5.84952950607E+00	-1.11716545506E+00
2.38598733193E+06	-1.66169249140E+01	1.78250475293E+02	5.82521703562E+00	1.70699413639E+02	-4.10183627767E+01	-3.07897610670E+01	-5.84810854512E+00	-1.13898778100E+00
2.40817868652E+06	-2.53587060324E+01	-1.44716203619E+02	5.87638217353E+00	1.70904096750E+02	-4.03274305825E+01	1.30463330596E+02	-5.82515237421E+00	-1.34733663608E+00
2.43037004112E+06	-1.50513936698E+01	-1.70713030245E+02	5.83271494760E+00	1.70342031531E+02	-3.71509369393E+01	2.67918550002E+00	-5.87039599954E+00	-1.81110050071E+00
2.45256139571E+06	-1.64724397597E+01	-1.55271599290E+02	5.85342534767E+00	1.70381428286E+02	-4.46116574701E+01	1.49463092253E+02	-5.82635604362E+00	-1.20151257272E+00
2.47475275031E+06	-1.89035656387E+01	-1.78535894005E+02	5.84143011390E+00	1.70429635687E+02	-4.93287155547E+01	-1.61786511207E+02	-5.83232034290E+00	-1.23609291397E+00
2.49694410490E+06	-1.40446117908E+01	1.36597970853E+02	5.78444766613E+00	1.70514666840E+02	-4.42931261241E+01	4.94524671609E+01	-5.85026856179E+00	-1.21675231334E+00
2.51913545950E+06	-1.45909671815E+01	-1.57148795138E+02	5.87848024584E+00	1.70158177171E+02	-4.41295286459E+01	4.18375863193E+01	-5.84188129531E+00	-1.20422015770E+00
2.54132681409E+06	-1.64720675718E+01	-1.60803030119E+02	5.88789184247E+00	1.70023473772E+02	-4.76343752804E+01	1.08308817669E+02	-5.83242203730E+00	-1.24189233249E+00
2.56351816869E+06	-1.58421107144E+01	-1.52079714046E+02	5.92524122767E+00	1.69651901885E+02	-4.45539556923E+01	-2.35978322959E+01	-5.86926067822E+00	-1.27923942531E+00
2.58570952328E+06	-2.06338888747E+01	1.61112039254E+02	5.85643108622E+00	1.69960622061E+02	-3.71307881483E+01	-1.21472677062E+02	-5.86503020222E+00	-1.00547566213E+00
2.60790087788E+06	-1.29423220360E+01	-1.70545566989E+02	5.85237834105E+00	1.69478573991E+02	-4.10011165870E+01	-9.87999117294E+01	-5.85546271474E+00	-1.16028283341E+00
2.63009223247E+06	-1.70981464679E+01	-1.48468464395E+02	5.90882030087E+00	1.69559372651E+02	-4.73930368318E+01	-8.62588818486E+00	-5.85671186300E+00	-7.45723047834E-01
2.65228358707E+06	-1.00638982454E+01	1.79128977276E+02	5.81242456676E+00	1.69148657346E+02	-5.34106424601E+01	-1.69285213979E+02	-5.83811121623E+00	-1.20096533276E+00
2.67447494166E+06	-1.77829739227E+01	-1.60464457767E+02	5.90465355097E+00	1.69312197671E+02	-3.85919797176E+01	-6.30497016007E+00	-5.86023212902E+00	-1.44896581963E+00
2.69666629626E+06	-1.79796731205E+01	1.59247981552E+02	5.85970330306E+00	1.69829503538E+02	-4.37002903148E+01	-6.00873409080E+01	-5.85334489135E+00	-1.33052732442E+00
2.71885765085E+06	-1.48294366068E+01	-1.64557520850E+02	5.86903349083E+00	1.69139614493E+02	-4.46711930236E+01	1.11046818190E+01	-5.85106174371E+00	-1.43559811268E+00
2.74104900545E+06	-2.08798841769E+01	1.72316637371E+02	5.86602845287E+00	1.69285825112E+02	-4.14750204424E+01	-1.13638494323E+02	-5.87099141425E+00	-1.34836681401E+00
2.76324036004E+06	-1.76440615778E+01	-1.77320336399E+02	5.86400949520E+00	1.69088891468E+02	-4.18687793409E+01	-1.25876009442E+02	-5.84702129613E+00	-1.19590174919E+00
2.78543171463E+06	-1.55248230340E+01	-1.77936542607E+02	5.85729968122E+00	1.68896430900E+02	-4.08167502720E+01	-1.67418750563E+01	-5.86413734219E+00	-1.34998299087E+00
2.80762306923E+06	-2.52430238099E+01	-1.29382674152E+02	5.90530867974E+00	1.69113025538E+02	-4.75550769712E+01	-6.07057047391E+01	-5.84842249986E+00	-1.35447901543E+00
2.82981442382E+06	-2.29439379683E+01	-1.61986109047E+02	5.88256569704E+00	1.68814761491E+02	-5.17114632127E+01	-1.69564052926E+02	-5.82439002140E+00	-1.52859711492E+00
2.85200577842E+06	-1.91143731754E+01	-1.71587283701E+02	5.84460646890E+00	1.68925072867E+02	-4.55826089826E+01	-7.78870035387E+01	-5.84662749171E+00	-1.23036292097E+00
2.87419713301E+06	-1.64647820042E+01	1.75043617479E+02	5.85534540834E+00	1.68856189154E+02	-3.80875723435E+01	-4.62091759051E+01	-5.89946488261E+00	-1.36890435859E+00
