# Hz S DB R 50
! CMT, M5065, 19127446, 24.2.4/2
! Date: 11/8/2024 3:46:34 PM
! Data: Format (Calibration Info)
! Freq	S11:dB/Ang(F2)	S21:dB/Ang(F2)	S12:dB/Ang(F2)	S22:dB/Ang(F2)
3.00000000000E+05	-2.46012214000E+01	1.66694078722E+02	5.10038554482E+00	-1.77434571184E+02	-3.93573428624E+01	9.16680104485E+00	-5.85938565256E+00	-4.06887556864E-01
3.22191354595E+05	-1.82490255490E+01	-1.37061285844E+02	5.11570771920E+00	-1.77770977826E+02	-4.03315860511E+01	9.76263601982E+01	-5.83849825814E+00	-1.83893648231E-01
3.44382709190E+05	-1.76706942525E+01	-1.53074064216E+02	5.04647459531E+00	-1.78047465692E+02	-3.91847714942E+01	-1.32158492748E+02	-5.83531354406E+00	-2.66964550023E-01
3.66574063785E+05	-1.17584618629E+01	-1.79844234203E+02	5.01092642027E+00	-1.78609283134E+02	-5.31101292080E+01	-1.73999367874E+02	-5.83797921846E+00	-3.84369657947E-01
3.88765418380E+05	-2.03549734838E+01	1.70438978861E+02	5.13547263909E+00	-1.78761113344E+02	-4.36784747130E+01	1.28698828080E+02	-5.80868856359E+00	-1.82531607486E-01
4.10956772975E+05	-1.60877457097E+01	1.74355030259E+02	5.04680375540E+00	-1.79076906170E+02	-4.57355504414E+01	-1.72133626803E+02	-5.83412903308E+00	-2.04374954647E-01
4.33148127570E+05	-1.54864834147E+01	-1.79983681875E+02	5.05744307123E+00	-1.79324800986E+02	-4.82617612156E+01	3.11922463387E+01	-5.83720355250E+00	-1.35684437762E-01
4.55339482165E+05	-1.60477217744E+01	1.58962512731E+02	5.03020304432E+00	-1.79421105388E+02	-4.16873517617E+01	-1.42043815812E+02	-5.83469869756E+00	-2.42790564660E-01
4.77530836760E+05	-2.17411201123E+01	-1.51632791075E+02	5.06812019335E+00	-1.79709601160E+02	-4.41205975279E+01	-1.43083604965E+02	-5.85436473800E+00	-1.78814026580E-01
4.99722191355E+05	-2.03215401424E+01	-1.72544259590E+02	5.07760272484E+00	-1.79752984572E+02	-4.07981070579E+01	-2.62734947140E+01	-5.84551027355E+00	-2.76383036817E-01
5.21913545950E+05	-1.62291763751E+01	-1.49158961560E+02	5.09077670855E+00	1.79760980822E+02	-4.52326521238E+01	-9.43630821028E+01	-5.82343971985E+00	-3.57049028449E-01
5.44104900545E+05	-2.27383605836E+01	-1.55192580076E+02	5.13908022970E+00	1.79362241485E+02	-4.10639351641E+01	1.54472149976E+02	-5.84370966691E+00	-1.43625015191E-01
5.66296255139E+05	-1.82170497592E+01	1.69818781028E+02	5.15091371228E+00	1.79498189721E+02	-5.29549503552E+01	1.29783880220E+02	-5.85474884797E+00	-3.28538868601E-01
5.88487609734E+05	-1.45116558769E+01	1.59905621718E+02	5.07923554816E+00	1.79910148886E+02	-5.13246406018E+01	1.48901005712E+02	-5.86475035833E+00	-3.38486823423E-01
6.10678964329E+05	-1.85591949886E+01	1.48569777373E+02	5.09947635946E+00	1.79569079718E+02	-4.61874674617E+01	6.20630668960E+01	-5.84932998821E+00	3.70704179392E-02
6.32870318924E+05	-1.75524777434E+01	1.52744449434E+02	5.11673727846E+00	1.79493926849E+02	-4.70947829499E+01	-1.03524930257E+02	-5.87185150393E+00	-1.55416958064E-01
6.55061673519E+05	-1.69262515233E+01	-1.66946680944E+02	5.11713932464E+00	1.79052621379E+02	-4.55485713735E+01	7.83202770256E+01	-5.86159351101E+00	-2.97674465440E-01
6.77253028114E+05	-1.69748732756E+01	1.74211475154E+02	5.06893105879E+00	1.78910048173E+02	-5.20326917279E+01	-1.00856607443E+01	-5.83761384501E+00	-5.72692917958E-01
6.99444382709E+05	-1.81672137097E+01	-1.77840098321E+02	5.08748834640E+00	1.78948591181E+02	-4.07925946507E+01	1.07834690526E+02	-5.85117792373E+00	-4.43882511605E-01
7.21635737304E+05	-1.97242268996E+01	-1.56611233723E+02	5.08311975491E+00	1.78519008915E+02	-4.52416695362E+01	-1.88107119766E+01	-5.85045933227E+00	-3.39662217430E-01
7.43827091899E+05	-1.77548447943E+01	1.79749466473E+02	5.08164245869E+00	1.78238129942E+02	-5.19636884779E+01	1.14079447931E+02	-5.83679404348E+00	-4.43018376165E-01
7.66018446494E+05	-2.08201692245E+01	-1.50862646097E+02	5.06677529957E+00	1.78448018844E+02	-5.94004599386E+01	1.18610801589E+02	-5.86104839298E+00	-3.63474837299E-01
7.88209801089E+05	-1.33718149826E+01	1.78248075924E+02	5.08950081956E+00	1.78310086036E+02	-4.32657480941E+01	5.97500799595E+01	-5.83709765946E+00	-3.57050218275E-01
8.10401155684E+05	-1.52736423923E+01	-1.78429179141E+02	5.12121069287E+00	1.78046184025E+02	-3.87005878593E+01	-4.82722135913E+01	-5.85273223161E+00	-4.06783809140E-01
8.32592510279E+05	-1.62650678356E+01	1.77925060125E+02	5.08764501210E+00	1.78075497559E+02	-5.37769408188E+01	1.30861962342E+00	-5.83771937291E+00	-4.27274525758E-01
8.54783864874E+05	-1.45519172836E+01	-1.79522017063E+02	5.05943672495E+00	1.77712555638E+02	-4.95343512150E+01	-1.53424316151E+01	-5.86238837143E+00	-4.80923734338E-01
8.76975219469E+05	-1.57501957314E+01	1.52502734653E+02	5.04857825605E+00	1.77755606307E+02	-5.64419163761E+01	-2.17616525293E+00	-5.84555041061E+00	-5.09569354913E-01
8.99166574064E+05	-1.98607578934E+01	-1.70519825134E+02	5.11851998634E+00	1.77650186193E+02	-5.59440757321E+01	1.00603688052E+01	-5.85330891852E+00	-4.68940549401E-01
9.21357928659E+05	-1.40650344347E+01	1.59014252631E+02	5.04790260118E+00	1.77681026741E+02	-4.41656490033E+01	1.10564673657E+02	-5.84050895579E+00	-5.56511396700E-01
9.43549283254E+05	-2.19350615249E+01	-1.59937682669E+02	5.11101941545E+00	1.77429504540E+02	-4.07194133178E+01	2.22870943230E+01	-5.85043211896E+00	-4.95683466458E-01
9.65740637849E+05	-1.53151288740E+01	-1.46740923505E+02	5.06226187082E+00	1.77006560529E+02	-4.51661739019E+01	-1.60893421695E+02	-5.83682685230E+00	-6.58367084284E-01
9.87931992444E+05	-1.69577609402E+01	1.66716641172E+02	5.05872226721E+00	1.77224823033E+02	-3.86995616058E+01	4.63770912904E+01	-5.82949693882E+00	-6.61057698846E-01
1.01012334704E+06	-1.93978291393E+01	1.61646652655E+02	5.06691743965E+00	1.76738129197E+02	-4.76467855209E+01	-5.12408680604E+01	-5.85054426070E+00	-6.19942822703E-01
1.03231470163E+06	-2.14114390756E+01	1.72940694733E+02	5.09316512937E+00	1.76882071040E+02	-4.91011007864E+01	-1.27567714780E+02	-5.84979360956E+00	-5.54898627547E-01
1.05450605623E+06	-1.61864798094E+01	1.54713108780E+02	5.08891455991E+00	1.77139294271E+02	-5.04136767469E+01	-1.19525732010E+02	-5.83772959372E+00	-6.10761125406E-01
1.07669741082E+06	-2.10591416822E+01	-1.64437988453E+02	5.12848298351E+00	1.76275169303E+02	-4.89290883496E+01	1.06955218172E+02	-5.84880689802E+00	-3.90372891731E-01
1.09888876542E+06	-1.52109526827E+01	-1.67785197005E+02	5.09743581644E+00	1.76671965440E+02	-4.37749427529E+01	-1.15375534484E+02	-5.84854604638E+00	-5.88197145314E-01
1.12108012001E+06	-1.77532788213E+01	-1.73388176418E+02	5.06313649316E+00	1.76915533087E+02	-4.25512460200E+01	8.31831312094E+01	-5.84984604870E+00	-5.45918372350E-01
1.14327147461E+06	-1.66228191655E+01	1.68328029071E+02	5.09882645487E+00	1.76553937816E+02	-5.02002136014E+01	-5.38996137258E+01	-5.85727904724E+00	-4.99605371039E-01
1.16546282920E+06	-1.69605846660E+01	1.44220725663E+02	5.05764743792E+00	1.76568298138E+02	-4.78051955440E+01	-1.68274218972E+02	-5.84795205599E+00	-6.15252601495E-01
1.18765418380E+06	-1.80363964784E+01	-1.41523952047E+02	5.10291147287E+00	1.76207215866E+02	-6.10942884737E+01	-1.22884494035E+02	-5.83198783330E+00	-5.84847338699E-01
1.20984553839E+06	-1.50686299249E+01	-1.77092775673E+02	5.09258492348E+00	1.75937882892E+02	-5.20001633780E+01	1.70216704976E+02	-5.82510486544E+00	-8.38032223289E-01
1.23203689299E+06	-1.78802866617E+01	-1.63189868034E+02	5.12123861092E+00	1.75740855965E+02	-4.95059623546E+01	1.43268028014E+02	-5.84870690217E+00	-4.07099246209E-01
1.25422824758E+06	-2.04502616210E+01	-1.79471407780E+02	5.06853761352E+00	1.75967906510E+02	-4.18357926070E+01	1.79215227769E+01	-5.87172077118E+00	-5.76967039810E-01
1.27641960218E+06	-1.90847423911E+01	-1.73298492805E+02	5.08137666851E+00	1.75582452451E+02	-4.62061034147E+01	1.73755375879E+02	-5.86648253467E+00	-4.77839597686E-01
1.29861095677E+06	-1.63932480626E+01	-1.50037676339E+02	5.10653011397E+00	1.75643877276E+02	-3.79895337796E+01	9.96977623801E+01	-5.83725146291E+00	-7.39368875032E-01
1.32080231137E+06	-1.68672919110E+01	1.50811314771E+02	5.08527308767E+00	1.75761893865E+02	-4.64682445761E+01	-5.47300748308E+01	-5.86158829950E+00	-9.77400554162E-01
1.34299366596E+06	-1.92565352180E+01	-1.69547269945E+02	5.09768758066E+00	1.75455644500E+02	-4.31080925491E+01	1.34426987392E+02	-5.83058430156E+00	-7.15153947461E-01
1.36518502056E+06	-2.06098648773E+01	-1.37321039386E+02	5.14388554310E+00	1.75434365034E+02	-4.30819375222E+01	-1.50156779036E+02	-5.81409451463E+00	-6.35761822634E-01
1.38737637515E+06	-1.62362260526E+01	1.73644652066E+02	5.08478239259E+00	1.75499455566E+02	-4.28815287042E+01	-1.16014256920E+02	-5.86511753441E+00	-6.97804669449E-01
1.40956772975E+06	-1.52626921233E+01	-1.43446917634E+02	5.05271428877E+00	1.75239256657E+02	-4.59872921022E+01	-8.31951639121E+01	-5.84498409296E+00	-7.36271339231E-01
1.43175908434E+06	-1.26666614449E+01	1.65652823352E+02	5.03642445322E+00	1.75159869903E+02	-3.14961192621E+01	-1.29782521053E+02	-5.82260660768E+00	-4.61730147071E-01
1.45395043894E+06	-1.83510509525E+01	1.56450102208E+02	5.08699791866E+00	1.75066655840E+02	-5.97670398754E+01	-1.41100171130E+02	-5.84314510764E+00	-6.71075660754E-01
1.47614179353E+06	-1.45582301614E+01	-1.60487392951E+02	5.11426024298E+00	1.74567816340E+02	-6.27928336849E+01	-1.81043264777E+00	-5.83268060960E+00	-8.35869451950E-01
1.49833314813E+06	-1.92225268101E+01	-1.34964740827E+02	5.13740617929E+00	1.74733053538E+02	-4.79530081112E+01	1.44679819248E+02	-5.85104385837E+00	-7.74511217144E-01
1.52052450272E+06	-2.13772986481E+01	-1.62304105901E+02	5.10514483818E+00	1.74765438925E+02	-3.71376359037E+01	1.27665535717E+02	-5.81486439216E+00	-7.78702259466E-01
1.54271585732E+06	-1.47993483431E+01	-1.56054108063E+02	5.05874632291E+00	1.74434869700E+02	-4.69720444091E+01	-1.70949106145E+02	-5.85081375250E+00	-7.80534790578E-01
1.56490721191E+06	-2.39367529631E+01	-1.71659192927E+02	5.10146382702E+00	1.74462527771E+02	-4.41335364338E+01	9.66147271550E+00	-5.83859205357E+00	-7.43830888041E-01
1.58709856651E+06	-1.46565714387E+01	1.53085011018E+02	5.06551259345E+00	1.74455532861E+02	-3.50351210201E+01	-5.42539210366E+00	-5.86996303841E+00	-6.83709813756E-01
1.60928992110E+06	-2.07871514171E+01	1.54614444045E+02	5.11287386893E+00	1.74533879487E+02	-5.71208389817E+01	1.76753784495E+02	-5.85744265805E+00	-7.89994843382E-01
1.63148127570E+06	-1.88455428298E+01	-1.68602094060E+02	5.11601621502E+00	1.73998977890E+02	-4.34106425582E+01	-1.57688923741E+02	-5.85982998214E+00	-7.32009038589E-01
1.65367263029E+06	-1.61312896697E+01	-1.78780613260E+02	5.10984135501E+00	1.73969039728E+02	-5.06043776021E+01	1.18157795189E+02	-5.81981896479E+00	-8.23067542058E-01
1.67586398489E+06	-1.83478776417E+01	-1.77341949834E+02	5.11263829376E+00	1.73985457054E+02	-4.96773952046E+01	-8.05910392363E+01	-5.83995401208E+00	-8.18404560312E-01
1.69805533948E+06	-1.54991269805E+01	-1.73367211844E+02	5.04113283160E+00	1.74076522386E+02	-4.52708809757E+01	1.26130478575E+02	-5.85461196969E+00	-7.84041053332E-01
1.72024669408E+06	-1.68044735762E+01	-1.47045505405E+02	5.15579619720E+00	1.73950365357E+02	-4.83778927322E+01	6.60152164706E+01	-5.84784936302E+00	-8.94127754639E-01
1.74243804867E+06	-1.50783056332E+01	1.43533115422E+02	5.05703687788E+00	1.73866835472E+02	-3.47964637749E+01	3.22547612351E+01	-5.86463904548E+00	-1.20047982513E+00
1.76462940327E+06	-1.33877909496E+01	-1.71650084436E+02	5.07004533218E+00	1.73621202843E+02	-4.52848093736E+01	-1.00457193836E+02	-5.85696409109E+00	-8.87302527518E-01
1.78682075786E+06	-1.62677494931E+01	1.71784959451E+02	5.10667413541E+00	1.73596427428E+02	-4.85684462116E+01	5.57954202800E+01	-5.85193760533E+00	-1.05739830505E+00
1.80901211246E+06	-1.39384553221E+01	1.76581124832E+02	5.05028431663E+00	1.73432281718E+02	-4.63983629168E+01	1.69190081634E+01	-5.85005004361E+00	-8.57544549143E-01
1.83120346705E+06	-1.82763630815E+01	-1.60318473865E+02	5.09417194537E+00	1.73339926139E+02	-3.87882487401E+01	-8.66043946092E+01	-5.85907617154E+00	-7.93843323190E-01
1.85339482165E+06	-1.38650039997E+01	-1.77436985182E+02	5.08141527372E+00	1.72901428770E+02	-4.87752170172E+01	-5.94528996191E+01	-5.86631239166E+00	-8.42523456190E-01
1.87558617624E+06	-2.25311860085E+01	1.40162265730E+02	5.07196561852E+00	1.73382551212E+02	-4.31897727155E+01	1.74787729934E+01	-5.86521965395E+00	-7.79890900072E-01
1.89777753084E+06	-2.81321881712E+01	-1.59995730755E+02	5.11303506508E+00	1.73227766817E+02	-4.81279910335E+01	-1.09121585587E+01	-5.83866503071E+00	-9.46863178216E-01
1.91996888543E+06	-1.47408865274E+01	-1.73561179333E+02	5.07741081103E+00	1.72950878752E+02	-4.89694166445E+01	7.43863038168E+01	-5.82644614035E+00	-1.15305932468E+00
1.94216024003E+06	-1.77537288793E+01	-1.48972353933E+02	5.09352128779E+00	1.72688517391E+02	-4.95182984506E+01	-1.44946598986E+02	-5.84109599932E+00	-8.86138425935E-01
1.96435159462E+06	-1.65308518153E+01	1.73566338845E+02	5.12202163792E+00	1.72678407267E+02	-4.20697807834E+01	-1.36211814492E+02	-5.83169882963E+00	-9.65927256499E-01
1.98654294922E+06	-1.87010148687E+01	-1.78465604558E+02	5.11618973254E+00	1.72929870944E+02	-4.48263118968E+01	-1.69286042687E+02	-5.84044863312E+00	-1.17113201866E+00
2.00873430381E+06	-1.56866697400E+01	-1.75019612957E+02	5.06445461437E+00	1.72292676124E+02	-4.71379352560E+01	-1.56494108112E+01	-5.84602096557E+00	-1.14012978405E+00
2.03092565841E+06	-3.17727458886E+01	9.16855449271E+00	5.15148667133E+00	1.72895289962E+02	-5.62418520228E+01	-2.05200333804E+00	-5.85065513943E+00	-9.58199734058E-01
2.05311701300E+06	-1.53755575450E+01	-1.64404643179E+02	5.10755053042E+00	1.72420775443E+02	-3.59689778707E+01	-2.35081721198E+01	-5.87501915938E+00	-1.10315682868E+00
2.07530836760E+06	-2.14127757864E+01	1.79323937903E+02	5.14636813750E+00	1.72467991520E+02	-5.43743559413E+01	-1.07933922123E+02	-5.85241359724E+00	-1.01984009359E+00
2.09749972219E+06	-1.64217196370E+01	1.73702834196E+02	5.14100967420E+00	1.72155555335E+02	-4.48102680073E+01	-3.39448995838E+01	-5.84651770427E+00	-1.16443437470E+00
2.11969107679E+06	-2.54138577494E+01	1.27925067776E+02	5.17725919560E+00	1.72307950363E+02	-5.09829849789E+01	-1.07069903810E+02	-5.84035539053E+00	-1.03408500136E+00
2.14188243138E+06	-1.46426463044E+01	1.69007654968E+02	5.04957877317E+00	1.72183676012E+02	-4.15267208480E+01	-1.23702494040E+02	-5.85192026253E+00	-1.06330756923E+00
2.16407378598E+06	-1.51968395813E+01	-1.38082440569E+02	5.10208808542E+00	1.71679113232E+02	-4.25627070927E+01	-5.88542526761E+01	-5.87107426182E+00	-1.04087804921E+00
2.18626514057E+06	-2.44339433546E+01	-1.29319057960E+02	5.13370014180E+00	1.71884711605E+02	-4.61551649216E+01	-7.96537379610E+01	-5.84466582193E+00	-9.40556301759E-01
2.20845649517E+06	-1.97822014110E+01	-1.78176710022E+02	5.10483666423E+00	1.71806753296E+02	-4.09498729308E+01	-4.22061811634E+01	-5.86632036299E+00	-1.14738002792E+00
2.23064784976E+06	-1.88249527657E+01	-1.72599727930E+02	5.11898858480E+00	1.71583489684E+02	-3.47778793039E+01	-8.18066338114E+01	-5.86493341607E+00	-9.33898658221E-01
2.25283920436E+06	-2.05168338891E+01	1.49744974981E+02	5.11407805574E+00	1.71637339915E+02	-4.68924525431E+01	-1.74808343868E+02	-5.84485766607E+00	-1.15900227252E+00
2.27503055895E+06	-1.78287350585E+01	-1.75536315522E+02	5.03833018618E+00	1.71758300953E+02	-5.32747230852E+01	-1.12839006353E+02	-5.85606443834E+00	-1.25883317532E+00
2.29722191355E+06	-1.88999311867E+01	1.54689392119E+02	5.11480777284E+00	1.71567005477E+02	-4.78668487718E+01	4.36934662981E+01	-5.83782506780E+00	-1.14307935163E+00
2.31941326814E+06	-1.61833571228E+01	-1.79108027853E+02	5.12561542274E+00	1.71257002929E+02	-4.17431941527E+01	-2.83310535701E+00	-5.81968884227E+00	-1.22667137742E+00
2.34160462274E+06	-1.93260197804E+01	1.64880868606E+02	5.12074536514E+00	1.71271327526E+02	-4.96557084676E+01	-1.25077138510E+02	-5.84069856786E+00	-1.12874332648E+00
2.36379597733E+06	-8.35791302252E+00	1.15346997052E+02	5.01693534130E+00	1.71630733437E+02	-4.11548264094E+01	-1.40784207187E+02	-5.84704974289E+00	-1.12730649929E+00
2.38598733193E+06	-1.62913057586E+01	-1.55225890772E+02	5.12134582824E+00	1.70766003948E+02	-6.02373733702E+01	1.14572617894E+02	-5.84772988015E+00	-1.13105555577E+00
2.40817868652E+06	-1.96000071449E+01	-1.73848881475E+02	5.13045546914E+00	1.70924143492E+02	-4.82225059375E+01	1.58169375288E+02	-5.85731047256E+00	-1.37204696770E+00
2.43037004112E+06	-1.76969345727E+01	-1.62874469333E+02	5.18088944153E+00	1.70637814676E+02	-5.40309330268E+01	-7.42199182530E+01	-5.82570631783E+00	-1.65498874152E+00
2.45256139571E+06	-2.14594227973E+01	1.76202354143E+02	5.15638226690E+00	1.70831716720E+02	-4.51546029177E+01	-1.74107935770E+02	-5.83746135197E+00	-1.18065819729E+00
2.47475275031E+06	-1.41282016337E+01	-1.65169856036E+02	5.15694887904E+00	1.70654006097E+02	-4.51960744448E+01	2.88179715297E+01	-5.86588243782E+00	-1.32808340828E+00
2.49694410490E+06	-1.50056409707E+01	1.67088983779E+02	5.06356290163E+00	1.70722596181E+02	-4.91551981784E+01	5.13920347409E+01	-5.86337121637E+00	-1.31763595650E+00
2.51913545950E+06	-2.08487249834E+01	-1.42924913843E+02	5.12011695822E+00	1.70767673369E+02	-5.88039864066E+01	1.10975617215E+02	-5.83625042656E+00	-1.39556707117E+00
2.54132681409E+06	-1.65035362274E+01	-1.45041464667E+02	5.14229292910E+00	1.70433654095E+02	-3.86611079331E+01	-1.67045951961E+02	-5.86334601180E+00	-1.13961718287E+00
2.56351816869E+06	-2.02075400878E+01	-1.41035991851E+02	5.12475648158E+00	1.70193057046E+02	-4.61798898577E+01	-4.11658947712E+01	-5.84680494263E+00	-1.21276917119E+00
2.58570952328E+06	-2.05342712357E+01	-1.61603020762E+02	5.17850434199E+00	1.70300000854E+02	-4.72273577851E+01	6.01088883780E+01	-5.86337882756E+00	-1.15193280654E+00
2.60790087788E+06	-1.59773602962E+01	1.77966910317E+02	5.13241631518E+00	1.69983629658E+02	-5.25653990043E+01	1.24595150553E+02	-5.84833954043E+00	-1.12030290856E+00
2.63009223247E+06	-1.90628254444E+01	1.30144600299E+02	5.09721419045E+00	1.70339539502E+02	-4.34886215608E+01	7.32472781296E+01	-5.86502025364E+00	-9.41203430655E-01
2.65228358707E+06	-1.67238672622E+01	1.67669275690E+02	5.12753809409E+00	1.70194286559E+02	-5.34609732307E+01	-1.07068439780E+02	-5.85163554855E+00	-1.23876763335E+00
2.67447494166E+06	-1.84719525260E+01	-1.44783198025E+02	5.14325842069E+00	1.69983965214E+02	-4.18538586707E+01	1.72622415769E+02	-5.82553056860E+00	-1.21515887668E+00
2.69666629626E+06	-2.35151787541E+01	1.53717493190E+02	5.13342115462E+00	1.69809700602E+02	-4.12549031736E+01	-1.50255008614E+02	-5.85534706662E+00	-1.31417199747E+00
2.71885765085E+06	-1.99278453540E+01	-1.78301493771E+02	5.14931351558E+00	1.69869760103E+02	-5.41081952068E+01	1.13859965853E+02	-5.85869495836E+00	-1.38749126576E+00
2.74104900545E+06	-1.56323626216E+01	-1.77008959602E+02	5.13117726917E+00	1.69293826446E+02	-5.12064918973E+01	1.03817747487E+02	-5.83230180511E+00	-1.36200053339E+00
2.76324036004E+06	-1.46953043825E+01	1.78105030089E+02	5.10400474131E+00	1.69394535536E+02	-5.13372158839E+01	-1.05434353895E+02	-5.83250216024E+00	-1.43206455913E+00
2.78543171463E+06	-1.75200706776E+01	-1.72655105938E+02	5.11214131153E+00	1.69363603142E+02	-5.19447433567E+01	2.34970224572E+01	-5.85050885139E+00	-1.34984384541E+00
2.80762306923E+06	-1.73089725406E+01	-1.55063246285E+02	5.13831478735E+00	1.69568093469E+02	-5.14453885501E+01	-1.17699181896E+02	-5.85679768367E+00	-1.31579740103E+00
2.82981442382E+06	-1.93336359592E+01	-1.63931624836E+02	5.17143503245E+00	1.69113454473E+02	-4.27236244493E+01	7.15560668547E+00	-5.85852800587E+00	-1.37513080935E+00
2.85200577842E+06	-1.46241869112E+01	-1.46492688664E+02	5.18184577162E+00	1.68662887682E+02	-4.20708422375E+01	-1.44964897974E+02	-5.84947412934E+00	-1.21922752849E+00
2.87419713301E+06	-1.65015586886E+01	-1.67711904683E+02	5.16764158062E+00	1.69107029710E+02	-4.39745503593E+01	-3.98178427275E+01	-5.87555981154E+00	-1.46411380445E+00
