# Hz S DB R 50
! CMT, M5065, 19127446, 24.2.4/2
! Date: 11/8/2024 4:04:40 PM
! Data: Format (Calibration Info)
! Freq	S11:dB/Ang(F2)	S21:dB/Ang(F2)	S12:dB/Ang(F2)	S22:dB/Ang(F2)
3.00000000000E+05	-2.71205229989E+01	-1.54510891342E+02	1.10909632273E+01	-1.77409635673E+02	-4.92652052859E+01	8.46629223723E+01	-5.83548111800E+00	-3.42034929025E-01
3.22191354595E+05	-1.62980454465E+01	-1.73864495578E+02	1.10502686741E+01	-1.77741565642E+02	-4.75689316055E+01	-1.06069993174E+01	-5.85730967576E+00	-2.61721586479E-01
3.44382709190E+05	-1.77934104618E+01	-1.52585325550E+02	1.11096519018E+01	-1.78153410609E+02	-4.27318863608E+01	-1.71623112767E+02	-5.82579934675E+00	-2.40840456859E-01
3.66574063785E+05	-1.49877528104E+01	1.66822061838E+02	1.10521697457E+01	-1.78541532254E+02	-4.26376956704E+01	-1.35454952680E+02	-5.85805401112E+00	-1.54696299678E-01
3.88765418380E+05	-2.02859602870E+01	1.58786699948E+02	1.10939930792E+01	-1.78657361533E+02	-3.94820740272E+01	1.21978988242E+02	-5.83829897004E+00	-3.87518785249E-01
4.10956772975E+05	-2.12157388508E+01	-1.33930774711E+02	1.11282128594E+01	-1.79298085018E+02	-3.27064490725E+01	1.20723252197E+02	-5.82905338501E+00	-6.44067563193E-01
4.33148127570E+05	-1.46858145393E+01	-1.62293006575E+02	1.10837649467E+01	-1.79371214167E+02	-4.33069729925E+01	-2.86977679633E+01	-5.81964228542E+00	-2.76301776773E-01
4.55339482165E+05	-2.50330686262E+01	1.33980331339E+02	1.11188603869E+01	-1.79554639177E+02	-4.74932405148E+01	1.32191832619E+02	-5.82888077066E+00	-5.93235940156E-01
4.77530836760E+05	-1.77575841222E+01	1.44732320831E+02	1.10774476984E+01	-1.79588538763E+02	-4.52852004010E+01	2.31481472189E+00	-5.84835010732E+00	-2.95207118270E-01
4.99722191355E+05	-1.90543264109E+01	1.66576598868E+02	1.11129140961E+01	1.79819599970E+02	-4.48074815004E+01	-1.26657530494E+02	-5.83265108975E+00	-1.23447960995E-01
5.21913545950E+05	-1.80493649746E+01	-1.44686774554E+02	1.11091606618E+01	1.79573500351E+02	-3.99937714700E+01	-1.63117981362E+02	-5.82092022146E+00	-5.11156615356E-02
5.44104900545E+05	-1.45669666199E+01	-1.60354022587E+02	1.10749753277E+01	1.79254945081E+02	-5.77909918764E+01	7.49427808734E+01	-5.85754561820E+00	-2.25612427839E-01
5.66296255139E+05	-1.97921700588E+01	1.43894468645E+02	1.11152187611E+01	1.79275359802E+02	-5.85503608792E+01	5.58263305466E+01	-5.83448248473E+00	-2.92215016199E-01
5.88487609734E+05	-1.32110932600E+01	1.67021227201E+02	1.10714102832E+01	1.78953817468E+02	-3.58163642076E+01	-1.33904070237E+02	-5.80313860359E+00	-1.82852776668E-01
6.10678964329E+05	-1.77865779565E+01	1.63453468397E+02	1.11057667186E+01	1.78820229186E+02	-4.85622425903E+01	-1.06543784119E+02	-5.82652031098E+00	1.04356675244E-01
6.32870318924E+05	-2.89700406078E+01	1.12859861761E+02	1.11039075928E+01	1.78518665456E+02	-5.04243915871E+01	-1.37191461551E+02	-5.83598814983E+00	-1.80714594452E-01
6.55061673519E+05	-1.93720970801E+01	-1.49869672855E+02	1.11025964109E+01	1.77977443375E+02	-4.26740394913E+01	2.07380141345E+01	-5.84996864937E+00	-3.90981679833E-01
6.77253028114E+05	-1.74852135428E+01	-1.65091384109E+02	1.11141703684E+01	1.78154258633E+02	-6.05941174113E+01	-3.12560981808E+00	-5.80754170962E+00	-6.87832816487E-01
6.99444382709E+05	-1.48913768890E+01	-1.78731944574E+02	1.10588822985E+01	1.77901012856E+02	-4.23415016353E+01	-2.69094914689E+01	-5.86178996198E+00	-3.31574443707E-01
7.21635737304E+05	-1.57434616219E+01	-1.71022734272E+02	1.10804301528E+01	1.77714591095E+02	-3.44640313518E+01	-5.90588359930E+01	-5.86516417874E+00	-3.30519087440E-01
7.43827091899E+05	-1.00629289392E+01	1.72150537593E+02	1.10436695926E+01	1.77653480448E+02	-3.78593224008E+01	-4.02824168023E+01	-5.86899533242E+00	-4.85663861543E-01
7.66018446494E+05	-1.58416746111E+01	-1.59320317136E+02	1.10452546979E+01	1.77269206128E+02	-4.68961054188E+01	1.62194362417E+02	-5.83430577861E+00	-5.69371014423E-01
7.88209801089E+05	-1.52847001525E+01	-1.54436050585E+02	1.10875419017E+01	1.77107306553E+02	-4.82332449670E+01	6.92439894512E+01	-5.83797567440E+00	-6.99896238144E-01
8.10401155684E+05	-1.37246277502E+01	1.52865920771E+02	1.10589628688E+01	1.77107341025E+02	-4.56032764202E+01	1.56954259381E+02	-5.82044381851E+00	-4.91978150483E-01
8.32592510279E+05	-1.72069382360E+01	1.79718472280E+02	1.10877012362E+01	1.76766721335E+02	-4.45082399168E+01	1.21534440199E+02	-5.83773994525E+00	-6.45512032056E-01
8.54783864874E+05	-1.88604880540E+01	1.73565090070E+02	1.10909135575E+01	1.77056981389E+02	-4.54913406763E+01	-9.25335425601E+00	-5.85759027226E+00	-5.01153147671E-01
8.76975219469E+05	-2.17045016838E+01	1.49682970564E+02	1.10881659968E+01	1.76703370086E+02	-4.48577898371E+01	1.67500492041E+02	-5.83595566930E+00	-4.81376507576E-01
8.99166574064E+05	-1.71194372878E+01	-1.70627493872E+02	1.11254542990E+01	1.76407236695E+02	-4.18630552137E+01	-1.06759320370E+02	-5.83073635188E+00	-3.90591476075E-01
9.21357928659E+05	-2.33069247598E+01	-1.62217047988E+02	1.11196100911E+01	1.76152179517E+02	-4.72373187708E+01	-9.51543050802E+01	-5.85703986206E+00	-4.07959241318E-01
9.43549283254E+05	-1.50371946145E+01	1.79171016902E+02	1.10588454463E+01	1.76208013932E+02	-4.52726814682E+01	1.30302542043E+02	-5.83896955616E+00	-4.73362486377E-01
9.65740637849E+05	-1.89538408041E+01	-1.44293824477E+02	1.11132911360E+01	1.75904767927E+02	-4.68611943760E+01	-6.00688800347E+01	-5.83150236188E+00	-4.09365923805E-01
9.87931992444E+05	-1.79453728584E+01	1.67896675312E+02	1.10871587041E+01	1.75705412490E+02	-4.05989572965E+01	7.23242489153E+00	-5.87158635857E+00	-5.86006608145E-01
1.01012334704E+06	-1.80813027147E+01	1.66969893057E+02	1.10929474354E+01	1.75627025099E+02	-3.97779906824E+01	1.41773102760E+02	-5.81059208860E+00	-5.22751149193E-01
1.03231470163E+06	-1.62719120496E+01	-1.27661202135E+02	1.10953430245E+01	1.75205311402E+02	-4.74597276685E+01	-1.61867514631E+02	-5.83002664377E+00	-5.08530357483E-01
1.05450605623E+06	-1.45419408806E+01	1.73294413927E+02	1.10649735845E+01	1.75506081384E+02	-5.13454482353E+01	-1.14883151029E+02	-5.84158927630E+00	-5.17491504010E-01
1.07669741082E+06	-1.80414524262E+01	-1.75085915803E+02	1.10579870125E+01	1.75101921602E+02	-4.41154942730E+01	1.17277065267E+02	-5.83948846815E+00	-7.31877808030E-01
1.09888876542E+06	-1.42565359168E+01	1.55871146321E+02	1.10551312535E+01	1.75214387738E+02	-4.76036039531E+01	1.77135887546E+02	-5.82969590828E+00	-5.50909837039E-01
1.12108012001E+06	-1.51322330485E+01	-1.70648850292E+02	1.11383758275E+01	1.74793367848E+02	-4.10218059468E+01	1.42152634988E+01	-5.84176012668E+00	-6.74902662131E-01
1.14327147461E+06	-2.04339098044E+01	1.42398387117E+02	1.10869694930E+01	1.74934961101E+02	-5.68815546615E+01	6.34444687582E+01	-5.83495044997E+00	-6.80383937513E-01
1.16546282920E+06	-1.48119890920E+01	-1.56977220043E+02	1.11043348682E+01	1.74597846634E+02	-4.80387908896E+01	-1.13657924211E+02	-5.84867395772E+00	-4.56206359598E-01
1.18765418380E+06	-1.93143787167E+01	-1.58989467914E+02	1.11011424750E+01	1.74533513735E+02	-4.58261034613E+01	-5.91129362281E+01	-5.85164806728E+00	-7.01935910934E-01
1.20984553839E+06	-1.82961654961E+01	1.41507802438E+02	1.10981315124E+01	1.74583677359E+02	-4.49806543631E+01	1.06988032627E+02	-5.83905759152E+00	-8.82969517321E-01
1.23203689299E+06	-1.59236145399E+01	1.63981982758E+02	1.10887839307E+01	1.74382456783E+02	-4.34683519888E+01	-1.74784216458E+02	-5.81122788523E+00	-5.52149608846E-01
1.25422824758E+06	-1.79508456550E+01	-1.66340865480E+02	1.10706078403E+01	1.74161872722E+02	-4.72674011051E+01	-1.01792905246E+02	-5.84563394721E+00	-4.91201362511E-01
1.27641960218E+06	-1.62142562870E+01	1.71583094853E+02	1.10692098214E+01	1.74165558284E+02	-3.97725085596E+01	1.67583739708E+02	-5.82375782682E+00	-7.12688458232E-01
1.29861095677E+06	-1.62273982655E+01	-1.74408636002E+02	1.10997567008E+01	1.73632041430E+02	-5.02016163308E+01	-3.78318989135E+01	-5.82448225504E+00	-6.89815864740E-01
1.32080231137E+06	-1.62963864228E+01	1.76840521541E+02	1.11032462567E+01	1.73788382526E+02	-4.76559024250E+01	-9.50408903926E+01	-5.87188811543E+00	-9.78472141747E-01
1.34299366596E+06	-1.49690125728E+01	1.73322949617E+02	1.10984282390E+01	1.73650738845E+02	-4.19580414870E+01	7.69219736917E+01	-5.84366222020E+00	-9.76701871621E-01
1.36518502056E+06	-4.29831541099E+01	1.19528978789E+02	1.11034184247E+01	1.73530102306E+02	-5.29755161703E+01	1.63628687179E+02	-5.84023096520E+00	-7.81204086409E-01
1.38737637515E+06	-3.01617878284E+01	1.48664987839E+02	1.11428105381E+01	1.73417629634E+02	-6.54279006652E+01	-1.65335304111E+02	-5.81260596673E+00	-8.30150015728E-01
1.40956772975E+06	-1.82046062928E+01	-1.72570803740E+02	1.10897560191E+01	1.73204792430E+02	-4.99377121693E+01	1.13252309870E+02	-5.83698899942E+00	-9.26803460566E-01
1.43175908434E+06	-1.68539638425E+01	-1.54860518155E+02	1.10918265226E+01	1.72901032451E+02	-4.20515342510E+01	2.38025336956E+01	-5.85297618321E+00	-7.37361758423E-01
1.45395043894E+06	-1.76727854900E+01	-1.60821306177E+02	1.11107399859E+01	1.72976628950E+02	-4.40228399996E+01	8.69498609854E+01	-5.84227857603E+00	-1.02927209997E+00
1.47614179353E+06	-1.34156880395E+01	1.54837522436E+02	1.10463436069E+01	1.73006324228E+02	-4.94824352394E+01	1.33981832359E+02	-5.81925377919E+00	-8.15555077384E-01
1.49833314813E+06	-1.98268068368E+01	1.49394157846E+02	1.10832133656E+01	1.72963786566E+02	-4.04780350042E+01	1.25734549358E+02	-5.81800919779E+00	-9.35757523565E-01
1.52052450272E+06	-1.29852472840E+01	-1.40441101396E+02	1.11223267962E+01	1.72447408201E+02	-4.31872803336E+01	-3.14123471425E+01	-5.83331159270E+00	-7.70440121035E-01
1.54271585732E+06	-1.20697552927E+01	-1.79145257274E+02	1.10513957694E+01	1.72196646398E+02	-4.92313664823E+01	-4.22876352422E+01	-5.83631137320E+00	-9.38160042459E-01
1.56490721191E+06	-1.64550516832E+01	-1.71013237434E+02	1.10771922456E+01	1.72193113584E+02	-4.25139372348E+01	-1.74289407053E+02	-5.81847234979E+00	-9.44518579662E-01
1.58709856651E+06	-2.30589475409E+01	1.51254850449E+02	1.11184662643E+01	1.72480707998E+02	-3.99729668431E+01	1.21497982296E+01	-5.85434058800E+00	-9.50163363168E-01
1.60928992110E+06	-1.64588225683E+01	-1.42389162457E+02	1.11148500124E+01	1.71824018447E+02	-6.02826047774E+01	-1.15700626646E+02	-5.82167008633E+00	-8.54383818081E-01
1.63148127570E+06	-1.37207466363E+01	1.51467205411E+02	1.10753301374E+01	1.72072729433E+02	-4.53191930939E+01	-1.61026811716E+02	-5.81989832923E+00	-7.23423011324E-01
1.65367263029E+06	-1.53026978486E+01	1.67814413432E+02	1.10803557429E+01	1.71971250948E+02	-4.47723610063E+01	8.27853366585E+01	-5.85361432281E+00	-8.42268039708E-01
1.67586398489E+06	-1.90315400157E+01	1.73511543127E+02	1.10897447122E+01	1.71821195795E+02	-3.58503878444E+01	-4.29207429515E+01	-5.88927817838E+00	-8.48747601896E-01
1.69805533948E+06	-1.84626997689E+01	-1.61949909209E+02	1.11304845918E+01	1.71659041766E+02	-5.52756741382E+01	1.78681290825E+02	-5.83051724031E+00	-9.10729358772E-01
1.72024669408E+06	-2.17304975711E+01	1.73752220741E+02	1.11115902272E+01	1.71219993845E+02	-5.01687368008E+01	-1.58211479375E+02	-5.83917986048E+00	-9.28947269685E-01
1.74243804867E+06	-1.99420201876E+01	1.76430136034E+02	1.10712610059E+01	1.71136324161E+02	-4.31251030451E+01	-7.30041633219E+00	-5.89176320089E+00	-9.51085493962E-01
1.76462940327E+06	-1.96542068206E+01	1.73086755960E+02	1.11000644327E+01	1.71100206466E+02	-5.69346969988E+01	1.72353079543E+02	-5.80304047481E+00	-8.52963086352E-01
1.78682075786E+06	-1.59944923054E+01	1.79219825494E+02	1.10766246588E+01	1.70857513008E+02	-4.27811627907E+01	-9.33349852012E+01	-5.85771182899E+00	-8.27319457005E-01
1.80901211246E+06	-2.15108906430E+01	-1.67696108067E+02	1.11046794651E+01	1.70986915524E+02	-4.63544990138E+01	-1.61586604697E+02	-5.84343058605E+00	-9.43323222859E-01
1.83120346705E+06	-1.84122666896E+01	-1.69506699651E+02	1.10967471332E+01	1.70689704953E+02	-3.97690834637E+01	-1.53499156867E+02	-5.83068309989E+00	-7.15054160590E-01
1.85339482165E+06	-4.07005138789E+01	-2.95406939297E+01	1.11198649374E+01	1.70777764627E+02	-5.45206606629E+01	-6.29652731027E+01	-5.84606134485E+00	-1.07723900002E+00
1.87558617624E+06	-1.96106868336E+01	1.76514608694E+02	1.11279727116E+01	1.70673360705E+02	-6.17455753592E+01	-1.02178077744E+01	-5.83759434236E+00	-1.02241328167E+00
1.89777753084E+06	-1.36137080782E+01	1.74033128501E+02	1.10829641877E+01	1.70444482743E+02	-4.56578064697E+01	1.42045194308E+02	-5.83449231988E+00	-9.32096913826E-01
1.91996888543E+06	-1.78055643204E+01	1.66485463036E+02	1.10859330786E+01	1.70495367805E+02	-4.46918488823E+01	-4.08405885547E+01	-5.84434881762E+00	-8.21047919607E-01
1.94216024003E+06	-1.92719336860E+01	-1.66390994933E+02	1.11135948776E+01	1.70124491841E+02	-4.39693058395E+01	5.34353257676E+01	-5.85551201880E+00	-1.19215567117E+00
1.96435159462E+06	-1.69026809532E+01	-1.56251814610E+02	1.11142929052E+01	1.69796624859E+02	-4.81463271077E+01	1.74911500194E+02	-5.85187781420E+00	-9.42950448721E-01
1.98654294922E+06	-8.72496137841E+00	-1.65850149096E+02	1.10911396256E+01	1.69392234618E+02	-3.15203887843E+01	-3.89182561487E+01	-5.89171695401E+00	-8.23541578424E-01
2.00873430381E+06	-1.34488828762E+01	-1.51319721533E+02	1.11117965316E+01	1.69373923659E+02	-4.35682316957E+01	3.17057074315E+01	-5.87053166619E+00	-1.14747353357E+00
2.03092565841E+06	-2.14765398249E+01	-1.46158698503E+02	1.11403529908E+01	1.69568311152E+02	-4.63318804307E+01	-1.58875817103E+02	-5.81570284974E+00	-9.03209842978E-01
2.05311701300E+06	-1.71747604234E+01	-1.76369627565E+02	1.10889130977E+01	1.69362981201E+02	-4.25623098697E+01	4.64712376153E+00	-5.87224515897E+00	-1.11581741253E+00
2.07530836760E+06	-1.61662358890E+01	-1.73754861387E+02	1.10853563088E+01	1.69263451966E+02	-5.09014888281E+01	4.30915261244E+01	-5.84008214182E+00	-1.13272859792E+00
2.09749972219E+06	-2.34680401450E+01	-1.77192808479E+02	1.11403034595E+01	1.69333787197E+02	-5.65824889514E+01	-9.89516572530E+01	-5.84527688196E+00	-1.04847372555E+00
2.11969107679E+06	-2.02266430582E+01	-1.63550371244E+02	1.11036994745E+01	1.69005583709E+02	-5.06513251998E+01	-4.63738261204E+01	-5.83620444659E+00	-1.03197772123E+00
2.14188243138E+06	-2.87131457639E+01	1.77798085840E+02	1.11200508311E+01	1.69050370163E+02	-2.54084005826E+01	1.71751675562E+02	-5.73449652965E+00	-6.85165565921E-01
2.16407378598E+06	-1.17234498761E+01	1.46400628962E+02	1.10426794696E+01	1.68854731326E+02	-4.69203785739E+01	-1.58315276973E+02	-5.83605604293E+00	-1.11681057489E+00
2.18626514057E+06	-2.16846252892E+01	-1.63956039139E+02	1.10948269702E+01	1.68778394513E+02	-4.53964079395E+01	2.92297782231E+01	-5.85671533958E+00	-1.17945617057E+00
2.20845649517E+06	-1.67850209496E+01	-1.67663456455E+02	1.11019536415E+01	1.68384951349E+02	-4.88953924542E+01	-1.10094462112E+02	-5.84019909339E+00	-1.06084916294E+00
2.23064784976E+06	-1.83151143054E+01	1.79352906883E+02	1.10929028814E+01	1.68449634892E+02	-4.57316700292E+01	1.76460741960E+02	-5.81980353717E+00	-1.21715233975E+00
2.25283920436E+06	-1.83043364281E+01	-1.65205970591E+02	1.11087219929E+01	1.68137195976E+02	-4.55692552090E+01	1.64477379025E+02	-5.81366778855E+00	-1.20291139728E+00
2.27503055895E+06	-1.46043224010E+01	-1.53763068851E+02	1.11145423069E+01	1.67970029684E+02	-4.12426161984E+01	-1.04288522359E+02	-5.83827956392E+00	-1.00590660114E+00
2.29722191355E+06	-1.88311063206E+01	-5.03855364766E+01	1.11812103100E+01	1.68294042330E+02	-4.83873675259E+01	-5.27421747438E+00	-5.84761383277E+00	-1.11153302669E+00
2.31941326814E+06	-1.53001596457E+01	-1.31761022626E+02	1.11720731028E+01	1.67861593386E+02	-4.55263408887E+01	7.48526949706E+01	-5.81682944302E+00	-1.33198892052E+00
2.34160462274E+06	-1.68949879441E+01	-1.71767977388E+02	1.11065818285E+01	1.67855951995E+02	-4.30538443569E+01	-1.71188285862E+02	-5.82595091006E+00	-1.35007610349E+00
2.36379597733E+06	-1.60454139891E+01	-1.52073125372E+02	1.11182347397E+01	1.67517202952E+02	-5.71051503170E+01	9.65269513750E+01	-5.83966116836E+00	-1.33133433699E+00
2.38598733193E+06	-2.04963923328E+01	1.73156416974E+02	1.11121087222E+01	1.67824968602E+02	-4.93086476647E+01	6.89888233896E+01	-5.83216588018E+00	-1.33448425039E+00
2.40817868652E+06	-1.44003240946E+01	-1.43969921807E+02	1.11211979077E+01	1.67205488049E+02	-5.69147788821E+01	6.65722644977E+01	-5.81721904849E+00	-1.28203534930E+00
2.43037004112E+06	-3.23119296070E+01	-1.28705522762E+02	1.11757356736E+01	1.67495189738E+02	-4.22320640606E+01	-7.47987872944E+01	-5.84540107243E+00	-1.52494144519E+00
2.45256139571E+06	-2.25037952335E+01	-1.73053934903E+02	1.11081334832E+01	1.67395778996E+02	-3.94039852694E+01	1.09039224750E+02	-5.81313271708E+00	-1.30900913022E+00
2.47475275031E+06	-2.15206887631E+01	-1.22408643340E+02	1.11539748887E+01	1.67028418677E+02	-3.90660023677E+01	-1.76559371719E+02	-5.81271096314E+00	-1.18822179051E+00
2.49694410490E+06	-1.79804059995E+01	-1.73937985116E+02	1.11456080321E+01	1.67016734659E+02	-4.15064566266E+01	-1.78803608717E+02	-5.81507473215E+00	-1.20623192911E+00
2.51913545950E+06	-1.69213492909E+01	-1.69629718586E+02	1.11194103849E+01	1.66744764201E+02	-4.97697498818E+01	-4.98544106376E+01	-5.87509600186E+00	-1.23231280450E+00
2.54132681409E+06	-1.78905792932E+01	-1.76899553124E+02	1.11257078074E+01	1.66741565080E+02	-4.33553505912E+01	1.60368057082E+02	-5.83290016062E+00	-1.39011319554E+00
2.56351816869E+06	-1.83439030806E+01	-1.72364862441E+02	1.11048802911E+01	1.66515141152E+02	-4.02111593469E+01	1.33269040328E+02	-5.81095601463E+00	-1.47439229728E+00
2.58570952328E+06	-1.85615344382E+01	1.50923378235E+02	1.11412755007E+01	1.66661246072E+02	-5.15871799252E+01	5.35122264918E+01	-5.85336408331E+00	-1.36672217689E+00
2.60790087788E+06	-1.66678683657E+01	9.96379399743E+01	1.11040158211E+01	1.66928002028E+02	-3.58242169854E+01	2.75428462814E+01	-5.86131018274E+00	-1.51032553997E+00
2.63009223247E+06	-1.70814155034E+01	-1.56247063423E+02	1.11509983605E+01	1.66218160897E+02	-3.93367243787E+01	1.34720503173E+01	-5.84933432319E+00	-9.73603135415E-01
2.65228358707E+06	-2.61530340320E+01	-1.38007613797E+02	1.11458213577E+01	1.66181097841E+02	-6.05784154142E+01	1.20537744833E+02	-5.84499131822E+00	-1.22931278853E+00
2.67447494166E+06	-1.67621779743E+01	-1.70150375569E+02	1.11262940956E+01	1.65909031929E+02	-4.25928972992E+01	1.87796492400E+01	-5.85819043752E+00	-1.45765016546E+00
2.69666629626E+06	-1.60460655135E+01	-1.71163484177E+02	1.11248923316E+01	1.65713299227E+02	-4.80940358154E+01	1.06437894503E+02	-5.82323697747E+00	-1.36253095801E+00
2.71885765085E+06	-1.65494879408E+01	-1.69186344540E+02	1.11286626597E+01	1.65479998733E+02	-4.89086555832E+01	7.83543880563E+01	-5.82954247257E+00	-1.45361956733E+00
2.74104900545E+06	-1.51659152272E+01	-1.20589377648E+02	1.11778286434E+01	1.65228353515E+02	-5.07814345462E+01	-5.44591380072E+01	-5.86524463387E+00	-1.35626754954E+00
2.76324036004E+06	-1.45586415610E+01	-1.67716387748E+02	1.11479080781E+01	1.65089041454E+02	-3.96409926213E+01	1.24406994565E+01	-5.85955891616E+00	-1.41178006871E+00
2.78543171463E+06	-1.46436111343E+01	1.58600053869E+02	1.10748405297E+01	1.65316312725E+02	-4.19658055949E+01	1.65409846408E+02	-5.82423205583E+00	-1.36391045787E+00
2.80762306923E+06	-1.52918726798E+01	1.48294696872E+02	1.10735488913E+01	1.65553626982E+02	-6.09312718764E+01	1.03499557986E+02	-5.85448686441E+00	-1.32907675639E+00
2.82981442382E+06	-1.64608952382E+01	1.79098859633E+02	1.11027952761E+01	1.65095876528E+02	-4.87930457234E+01	5.53641379915E+00	-5.86074928514E+00	-1.32743492929E+00
2.85200577842E+06	-1.64108113246E+01	-1.76698717040E+02	1.11002569798E+01	1.64908144070E+02	-4.19532611925E+01	7.92023103666E+01	-5.81378863813E+00	-1.60030566406E+00
2.87419713301E+06	-2.41509151168E+01	1.76698849433E+02	1.11426211996E+01	1.64936482729E+02	-5.26365459952E+01	9.00488871230E+01	-5.83664721547E+00	-1.41637452306E+00
