# Hz S DB R 50
! CMT, M5065, 19127446, 24.2.4/2
! Date: 11/8/2024 3:53:24 PM
! Data: Format (Calibration Info)
! Freq	S11:dB/Ang(F2)	S21:dB/Ang(F2)	S12:dB/Ang(F2)	S22:dB/Ang(F2)
3.00000000000E+05	-1.30508641352E+01	1.74211491570E+02	6.59245424309E+00	-1.77760878716E+02	-4.32257236488E+01	1.11684780776E+02	-5.84286394833E+00	-5.22635401358E-01
3.22191354595E+05	-1.54310251562E+01	-1.53551914404E+02	6.63746903617E+00	-1.77806586574E+02	-4.16549423315E+01	-3.20721575173E+00	-5.85785639653E+00	-3.41132336443E-01
3.44382709190E+05	-2.05471063196E+01	1.69096990344E+02	6.64840723314E+00	-1.78396119263E+02	-4.35428056826E+01	-4.78437840189E+01	-5.85277329372E+00	-2.32922653528E-01
3.66574063785E+05	-2.26054225211E+01	1.70513543976E+02	6.61310301268E+00	-1.78630940479E+02	-4.08119806374E+01	-1.71693925253E+02	-5.83492960509E+00	-2.44964045136E-01
3.88765418380E+05	-1.73656602415E+01	-1.53680180651E+02	6.59641578540E+00	-1.79080734450E+02	-4.04144110886E+01	-4.33811761390E+01	-5.84739634303E+00	-5.57156485254E-01
4.10956772975E+05	-1.81911805727E+01	-1.58132077709E+02	6.63796322184E+00	-1.79344402589E+02	-4.95212756316E+01	1.56432103245E+02	-5.84119388643E+00	-2.92646947037E-01
4.33148127570E+05	-1.86103913404E+01	1.77843043615E+02	6.62192988634E+00	-1.79257455168E+02	-4.92412928692E+01	-7.09611830616E+00	-5.86791043456E+00	-1.16599426729E-01
4.55339482165E+05	-1.68062872390E+01	-1.74636918831E+02	6.63089731444E+00	-1.79625049594E+02	-4.58407527655E+01	-4.99616567772E+01	-5.85701890329E+00	-1.64580580079E-01
4.77530836760E+05	-1.38305866742E+01	-1.54118403135E+02	6.59804925018E+00	-1.79944791970E+02	-5.02123638782E+01	-1.02917040832E+02	-5.85754929650E+00	-3.03184732203E-01
4.99722191355E+05	-1.59473386858E+01	-1.51465708023E+02	6.63152424795E+00	1.79539139883E+02	-4.24680357796E+01	9.83186715687E+01	-5.83423643513E+00	-3.76721715774E-01
5.21913545950E+05	-2.09138548139E+01	1.59018726836E+02	6.65840346269E+00	1.79665867596E+02	-6.05720931302E+01	-9.82203227157E+01	-5.82534517414E+00	-2.06415676344E-01
5.44104900545E+05	-1.81396539318E+01	1.78865355689E+02	6.64963474071E+00	1.79735342770E+02	-4.83370357751E+01	-2.68758761671E+01	-5.85840509636E+00	-2.40170960332E-01
5.66296255139E+05	-1.38115224245E+01	-1.78926411714E+02	6.60602675734E+00	1.79559321551E+02	-4.65328697595E+01	1.57467643605E+02	-5.83566230456E+00	-4.22219919256E-01
5.88487609734E+05	-1.68419784940E+01	1.59830916791E+02	6.63099599464E+00	1.79328648212E+02	-4.54342732054E+01	-1.25099090011E+02	-5.86782216673E+00	-2.97575743755E-01
6.10678964329E+05	-1.88507272452E+01	1.54710667026E+02	6.60628600197E+00	1.79251199835E+02	-4.53493017730E+01	2.69627250677E+01	-5.85245602805E+00	1.94635520937E-01
6.32870318924E+05	-1.17633041923E+01	-1.67026258224E+02	6.63452684136E+00	1.78583228597E+02	-4.14856367597E+01	1.81942383149E+01	-5.86336162663E+00	-9.19144957918E-02
6.55061673519E+05	-1.31198371884E+01	-1.67969344769E+02	6.58095324339E+00	1.78766055661E+02	-4.46872327823E+01	-5.73056516246E+01	-5.86775283911E+00	-3.34216325922E-01
6.77253028114E+05	-1.42787377239E+01	-1.47526854498E+02	6.63964380751E+00	1.78448394711E+02	-4.03927658745E+01	-7.52616703018E+01	-5.83889337665E+00	-5.82486304230E-01
6.99444382709E+05	-1.48789655430E+01	1.56283707825E+02	6.60909741502E+00	1.78574839260E+02	-4.20678990825E+01	1.23449705179E+02	-5.85539663467E+00	-4.39771779015E-01
7.21635737304E+05	-1.30849741754E+01	1.75956102679E+02	6.59984201927E+00	1.78555729342E+02	-3.83015169144E+01	8.16479858184E+01	-5.84135696061E+00	-5.64427433566E-01
7.43827091899E+05	-1.36311411611E+01	1.56533124729E+02	6.62526094570E+00	1.78270349230E+02	-4.96602457788E+01	6.77097993531E+01	-5.85084685381E+00	-5.40082764051E-01
7.66018446494E+05	-1.82272295294E+01	1.79610090420E+02	6.63699950515E+00	1.78274705138E+02	-4.40690208256E+01	9.29494538049E+01	-5.86524809840E+00	-4.04659116733E-01
7.88209801089E+05	-2.13859371672E+01	-1.42236018510E+02	6.67260299062E+00	1.77774605770E+02	-4.35512022947E+01	5.38753437382E+01	-5.85343617638E+00	-6.68073561090E-01
8.10401155684E+05	-1.94627935644E+01	-1.30827891972E+02	6.65767966780E+00	1.77900999527E+02	-3.73874566358E+01	-4.15771644527E+00	-5.85104789643E+00	-5.35827784100E-01
8.32592510279E+05	-2.26822608327E+01	1.60877907505E+02	6.66034836989E+00	1.77696603419E+02	-3.99240586370E+01	-8.29496334123E+01	-5.85762327133E+00	-3.04319341423E-01
8.54783864874E+05	-2.26180002789E+01	1.64453343028E+02	6.67057652367E+00	1.77564204453E+02	-4.55485721232E+01	6.33545013091E+01	-5.86030240787E+00	-5.11561430162E-01
8.76975219469E+05	-1.47334600103E+01	-1.39368550080E+02	6.66749789915E+00	1.77316430467E+02	-4.71827522697E+01	-3.04498857182E+01	-5.87119116697E+00	-4.54475581790E-01
8.99166574064E+05	-1.63910224046E+01	-1.75299007331E+02	6.62456087762E+00	1.77453393958E+02	-5.81469001808E+01	-4.94721191423E-01	-5.82368557141E+00	-3.81327991936E-01
9.21357928659E+05	-1.91518247929E+01	1.54802835542E+02	6.64531165714E+00	1.77511130911E+02	-4.23930480274E+01	1.32546606479E+02	-5.84639742901E+00	-5.53819617198E-01
9.43549283254E+05	-2.02200119616E+01	-1.65450534539E+02	6.63311138109E+00	1.77274181873E+02	-3.95367991002E+01	1.70945153830E+02	-5.81218932954E+00	-4.65433995460E-01
9.65740637849E+05	-1.25843050813E+01	1.74796767503E+02	6.58520142307E+00	1.77057427888E+02	-3.69914374434E+01	-4.65932591926E+01	-5.85008853552E+00	-4.96803612211E-01
9.87931992444E+05	-2.27414389567E+01	1.69664841711E+02	6.61792516431E+00	1.77084827357E+02	-4.44807177757E+01	6.98086837116E+01	-5.84867134450E+00	-6.46303757967E-01
1.01012334704E+06	-1.77747079190E+01	-1.74052579989E+02	6.64139197951E+00	1.76696205947E+02	-4.44543968036E+01	-1.35857551461E+02	-5.84056919532E+00	-3.99235087521E-01
1.03231470163E+06	-1.54103019364E+01	1.73806235963E+02	6.62080709420E+00	1.76785178961E+02	-5.01617793907E+01	-7.71643171434E+01	-5.85156319517E+00	-6.22822255721E-01
1.05450605623E+06	-1.72991323110E+01	1.79138950227E+02	6.64207090603E+00	1.76525176058E+02	-4.14763481303E+01	-2.00366396033E+01	-5.86060306165E+00	-5.88775345500E-01
1.07669741082E+06	-1.82850981077E+01	1.62294750964E+02	6.67915591502E+00	1.76562831378E+02	-3.81867124162E+01	1.18289880453E+02	-5.81581497613E+00	-8.21591078982E-01
1.09888876542E+06	-1.93463525295E+01	1.28835065173E+02	6.67563420011E+00	1.76554035412E+02	-4.31466146540E+01	-9.97613014133E+01	-5.80928687493E+00	-5.61541256324E-01
1.12108012001E+06	-1.52267984440E+01	1.51674227141E+02	6.63024846090E+00	1.76402224074E+02	-4.77480943343E+01	-2.58159760512E+01	-5.84535233351E+00	-4.64147840672E-01
1.14327147461E+06	-2.08536615249E+01	-1.51254487425E+02	6.67884052335E+00	1.75897543212E+02	-5.18445267969E+01	1.38718351589E+01	-5.84333476458E+00	-5.22670399655E-01
1.16546282920E+06	-1.48366399331E+01	1.58498287434E+02	6.63696615447E+00	1.75827267562E+02	-3.85028836540E+01	1.48883427370E+02	-5.82290172160E+00	-6.45656268397E-01
1.18765418380E+06	-1.84824721780E+01	1.78661994064E+02	6.65162032080E+00	1.75575042825E+02	-4.28640916241E+01	1.97442253724E+01	-5.85891002387E+00	-7.16286033074E-01
1.20984553839E+06	-1.52698524953E+01	1.79674593634E+02	6.63116112165E+00	1.75674608747E+02	-4.61771470954E+01	-1.06089842129E+02	-5.82560055127E+00	-6.99837030647E-01
1.23203689299E+06	-1.60585903748E+01	1.65106302454E+02	6.62891838567E+00	1.75830282028E+02	-5.32023417218E+01	-5.59703048822E+00	-5.84620316772E+00	-6.44631827527E-01
1.25422824758E+06	-1.49638505685E+01	1.63408155317E+02	6.61823523835E+00	1.75727175937E+02	-4.99406864493E+01	1.40995885667E+02	-5.82431536598E+00	-7.24702284446E-01
1.27641960218E+06	-1.55962184888E+01	-1.49878044265E+02	6.68633271072E+00	1.75227386455E+02	-4.91800769770E+01	-6.72263076266E+01	-5.85443475124E+00	-5.52985861441E-01
1.29861095677E+06	-1.57290717530E+01	1.65757290423E+02	6.63132041177E+00	1.75534679511E+02	-4.24693476946E+01	1.55281023747E+02	-5.82085574605E+00	-5.68975933814E-01
1.32080231137E+06	-1.78087703434E+01	-1.23917371231E+02	6.72051889411E+00	1.74936052267E+02	-4.78695906723E+01	1.45693461870E+02	-5.82665906878E+00	-1.03541449502E+00
1.34299366596E+06	-1.50348159132E+01	-1.66282806363E+02	6.65178181109E+00	1.75238691876E+02	-5.39187227481E+01	1.29341810052E+02	-5.84564903993E+00	-8.15628078777E-01
1.36518502056E+06	-1.59752924253E+01	-1.45168560924E+02	6.64420850400E+00	1.74537596975E+02	-4.73839086507E+01	-1.08394553329E+02	-5.85070273845E+00	-6.56548997605E-01
1.38737637515E+06	-2.10588485394E+01	1.55532999629E+02	6.65865048273E+00	1.74905838419E+02	-3.95932195111E+01	9.30367120997E+01	-5.84005149914E+00	-1.00933901489E+00
1.40956772975E+06	-1.36179945395E+01	1.73600256839E+02	6.61747719124E+00	1.74527265727E+02	-3.97859175176E+01	1.40424392523E+02	-5.82382431093E+00	-6.90668265064E-01
1.43175908434E+06	-1.22882915070E+01	-1.38370561982E+02	6.61750082271E+00	1.74390063125E+02	-4.56491080498E+01	-1.15630988799E+02	-5.84634057552E+00	-7.74352293654E-01
1.45395043894E+06	-1.51557459295E+01	-1.51119221109E+02	6.64843786713E+00	1.74120966451E+02	-4.47673662957E+01	-1.52590787981E+02	-5.82936493139E+00	-6.47139683419E-01
1.47614179353E+06	-2.17781628957E+01	1.61441886734E+02	6.64563654809E+00	1.74487479879E+02	-6.29747559204E+01	8.55711486459E+01	-5.82591807665E+00	-6.78054061140E-01
1.49833314813E+06	-1.32008196079E+01	1.71839194079E+02	6.61149110302E+00	1.74430110163E+02	-4.66851457373E+01	1.77959041105E+02	-5.82423396173E+00	-7.31471818084E-01
1.52052450272E+06	-1.47635299922E+01	-1.62234077275E+02	6.65764229867E+00	1.73876031725E+02	-4.58942370215E+01	2.46214185756E+00	-5.85869882767E+00	-9.24949010020E-01
1.54271585732E+06	-1.67579148906E+01	1.78108502901E+02	6.63382747901E+00	1.74149750320E+02	-5.63192242846E+01	1.39847480192E+02	-5.85109626387E+00	-7.09954669324E-01
1.56490721191E+06	-1.79935177126E+01	-1.59650108244E+02	6.68645724728E+00	1.73960686982E+02	-5.76613512644E+01	-1.15465251769E+02	-5.84932024649E+00	-6.86583976581E-01
1.58709856651E+06	-2.07890002840E+01	1.44944182899E+02	6.62634273872E+00	1.73964710947E+02	-6.01938328092E+01	-1.91768390318E+01	-5.84501298191E+00	-9.56030372167E-01
1.60928992110E+06	-2.26071480690E+01	1.32498398890E+02	6.67891758709E+00	1.74300779058E+02	-3.65789209903E+01	4.70342522728E+01	-5.84748738502E+00	-8.95880982118E-01
1.63148127570E+06	-2.04719450242E+01	-1.75864640828E+02	6.67156227614E+00	1.73751557274E+02	-4.94432897210E+01	-5.47871124444E+01	-5.84290156577E+00	-9.44471567196E-01
1.65367263029E+06	-1.90719344568E+01	-1.54908221981E+02	6.65236112047E+00	1.73605043083E+02	-4.88030872832E+01	1.38177934640E+02	-5.84602658268E+00	-9.83415091993E-01
1.67586398489E+06	-1.61166023272E+01	1.34596519382E+02	6.64693813723E+00	1.73580303294E+02	-5.13157503636E+01	9.26381337819E+01	-5.85841130566E+00	-1.00681753270E+00
1.69805533948E+06	-1.44866963311E+01	1.52387532901E+02	6.59577545460E+00	1.73434466409E+02	-6.71581849988E+01	-1.26701350455E+02	-5.84279957483E+00	-7.73315371024E-01
1.72024669408E+06	-1.28255025232E+01	1.79940703556E+02	6.62417965232E+00	1.73354525581E+02	-4.73280321796E+01	-1.44621355230E+02	-5.85692608723E+00	-7.61714723429E-01
1.74243804867E+06	-1.50370306249E+01	8.36118600884E+01	6.63747818488E+00	1.73781708517E+02	-5.57277970948E+01	4.74282846321E+01	-5.86650509111E+00	-7.88562579458E-01
1.76462940327E+06	-1.45916295734E+01	1.62997864049E+02	6.63628767031E+00	1.73327004689E+02	-3.56616032139E+01	4.59312289606E+01	-5.83970849935E+00	-1.12686295466E+00
1.78682075786E+06	-2.00664850891E+01	1.52099830055E+02	6.65137079424E+00	1.73219621745E+02	-4.73246313467E+01	-9.69365284398E+01	-5.85357128534E+00	-7.40214580375E-01
1.80901211246E+06	-1.88793935734E+01	1.79955141526E+02	6.65619850190E+00	1.72846520742E+02	-5.04100364870E+01	2.53004193331E+01	-5.82640686350E+00	-9.52388930756E-01
1.83120346705E+06	-2.01740914000E+01	-1.55351094328E+02	6.63952357574E+00	1.72473310063E+02	-4.50960652878E+01	-8.50911843083E+01	-5.87565261939E+00	-7.80002799029E-01
1.85339482165E+06	-1.54909453349E+01	-1.64258892888E+02	6.64005353587E+00	1.72735931425E+02	-4.16378128362E+01	1.79574418582E+02	-5.81808560435E+00	-8.62274172634E-01
1.87558617624E+06	-1.59040400767E+01	1.79991870404E+02	6.66297521088E+00	1.72481090934E+02	-5.18506343608E+01	6.57569464446E+01	-5.84624726648E+00	-1.05567209679E+00
1.89777753084E+06	-1.07305367699E+01	-1.72231319599E+02	6.61378548677E+00	1.72267065295E+02	-4.27227977128E+01	-7.18501316484E+01	-5.85468375460E+00	-9.26321806313E-01
1.91996888543E+06	-2.32633517670E+01	1.64733887431E+02	6.64938062416E+00	1.72594983351E+02	-3.24618070474E+01	1.03436181872E+02	-5.82408393737E+00	-1.04962810463E+00
1.94216024003E+06	-1.99870115018E+01	-1.78060925941E+02	6.66037825879E+00	1.72427593896E+02	-4.93669999944E+01	-1.69093640328E+02	-5.85008975435E+00	-1.07093103141E+00
1.96435159462E+06	-1.79315557269E+01	-1.59392934657E+02	6.65014605250E+00	1.72326731640E+02	-3.98152381650E+01	-9.90061288313E+01	-5.84404707158E+00	-8.44830640318E-01
1.98654294922E+06	-1.46245072129E+01	-1.76154351024E+02	6.65151982979E+00	1.72087452380E+02	-4.71171431930E+01	1.98547014710E+01	-5.87436865216E+00	-9.34163256264E-01
2.00873430381E+06	-1.90738939779E+01	-1.71150920413E+02	6.67258164010E+00	1.72083064647E+02	-5.31841165079E+01	-7.25604598089E+01	-5.84508115312E+00	-9.83613181209E-01
2.03092565841E+06	-1.35756947929E+01	-1.65562664752E+02	6.64432237059E+00	1.71630966486E+02	-4.01166102910E+01	9.16693480244E+01	-5.82823459422E+00	-1.08664068745E+00
2.05311701300E+06	-1.27641525475E+01	1.79473966725E+02	6.63864792579E+00	1.71472511359E+02	-4.49256693931E+01	-1.74612466613E+02	-5.82901787520E+00	-9.81139067477E-01
2.07530836760E+06	-1.41052928472E+01	-1.73362713222E+02	6.63589382893E+00	1.71701791116E+02	-3.37425052209E+01	1.75231721641E+02	-5.82027100276E+00	-9.80797035059E-01
2.09749972219E+06	-1.51569926025E+01	1.77776914093E+02	6.67609531319E+00	1.71571488427E+02	-3.89074411416E+01	6.23069178598E+01	-5.82454138789E+00	-1.07450936993E+00
2.11969107679E+06	-1.62990948717E+01	1.72331410942E+02	6.67290319981E+00	1.71421542820E+02	-4.20159643278E+01	-2.45734829169E+01	-5.86914814309E+00	-1.08817976764E+00
2.14188243138E+06	-1.87805217929E+01	-1.44457265245E+02	6.65020826743E+00	1.71310139019E+02	-4.32978139406E+01	-8.74357546808E+01	-5.83832341283E+00	-1.15572230244E+00
2.16407378598E+06	-1.64673404808E+01	-1.79775940416E+02	6.65923578591E+00	1.71268397230E+02	-4.37649389862E+01	-1.23402152563E+02	-5.85346723792E+00	-9.47010853863E-01
2.18626514057E+06	-2.15628540662E+01	-1.68783538370E+02	6.67682810267E+00	1.71021034952E+02	-4.75247787203E+01	-7.47836263547E+01	-5.83765571111E+00	-1.13336724850E+00
2.20845649517E+06	-1.34498102021E+01	-1.21955090991E+02	6.75570112504E+00	1.70884206646E+02	-5.14386943446E+01	-3.93702773182E+01	-5.85931701928E+00	-9.93419991359E-01
2.23064784976E+06	-1.60118377505E+01	-1.76981572437E+02	6.63265297601E+00	1.70957692432E+02	-3.11984948733E+01	4.17566888739E+01	-5.84757380475E+00	-1.32938021471E+00
2.25283920436E+06	-2.00862200322E+01	1.73200020684E+02	6.67331717368E+00	1.71079262434E+02	-4.40445667414E+01	-1.33047681504E+02	-5.83711918481E+00	-1.10340800261E+00
2.27503055895E+06	-2.15796520776E+01	-1.71027526037E+02	6.71082179429E+00	1.71188002110E+02	-4.60804616227E+01	-3.13716930974E+01	-5.84033302361E+00	-1.25607248155E+00
2.29722191355E+06	-1.60505264567E+01	1.64779018793E+02	6.66616868748E+00	1.70822236095E+02	-4.04777934875E+01	-1.56660465655E+02	-5.82212783539E+00	-1.05303474354E+00
2.31941326814E+06	-1.90387236616E+01	-1.75170878133E+02	6.70640211340E+00	1.70693440378E+02	-4.49179427853E+01	1.23857962837E+02	-5.82484002343E+00	-1.22637469843E+00
2.34160462274E+06	-1.86969800236E+01	1.61308802991E+02	6.67515082432E+00	1.70655064012E+02	-4.33328932480E+01	5.25949790184E+01	-5.85652212235E+00	-1.22138031830E+00
2.36379597733E+06	-1.74676035881E+01	-1.71589153285E+02	6.70901743949E+00	1.70508287513E+02	-4.45986001293E+01	-3.67984349499E+01	-5.86127453577E+00	-1.14591643252E+00
2.38598733193E+06	-1.28957875740E+01	1.68701883896E+02	6.66895619361E+00	1.70256825835E+02	-4.60294662187E+01	1.21457436166E+02	-5.84163943616E+00	-1.35700290733E+00
2.40817868652E+06	-1.41956086045E+01	-1.73150429873E+02	6.66300115341E+00	1.70029362631E+02	-4.78633912665E+01	7.59819619968E+01	-5.85644186999E+00	-1.34190258383E+00
2.43037004112E+06	-1.70193427170E+01	1.78582262826E+02	6.66637324743E+00	1.70259792160E+02	-4.59386052230E+01	-1.31475920404E+02	-5.84700287861E+00	-1.50454859447E+00
2.45256139571E+06	-1.76454285723E+01	-1.78406907269E+02	6.68000246184E+00	1.70244549521E+02	-4.05908119779E+01	9.20442068444E-01	-5.86815557911E+00	-1.20238880696E+00
2.47475275031E+06	-2.09121713748E+01	-1.53360215193E+02	6.67517478432E+00	1.70076544355E+02	-4.66236184449E+01	5.50661613849E+01	-5.83195134998E+00	-1.25920729257E+00
2.49694410490E+06	-1.85287078029E+01	-1.67681907095E+02	6.67614291780E+00	1.69934506867E+02	-4.25379512208E+01	1.35117125594E+02	-5.82914488013E+00	-1.11395342181E+00
2.51913545950E+06	-1.60146027028E+01	-1.76429154670E+02	6.68965702139E+00	1.69707853264E+02	-5.95975511366E+01	7.79740757922E+01	-5.86284886738E+00	-1.33574123338E+00
2.54132681409E+06	-1.52394098484E+01	1.76920749703E+02	6.63678098643E+00	1.69447885846E+02	-2.73755938664E+01	-8.83898108345E+01	-5.89513483798E+00	-9.62777498425E-01
2.56351816869E+06	-1.90528115129E+01	-1.61498789995E+02	6.66303503054E+00	1.69668545779E+02	-4.84342337847E+01	-1.00648770430E+02	-5.84955542195E+00	-1.18974054542E+00
2.58570952328E+06	-1.74837752078E+01	1.62051643988E+02	6.64828315081E+00	1.69719560561E+02	-4.14713949153E+01	1.37787948623E+02	-5.83689398116E+00	-1.21419882218E+00
2.60790087788E+06	-1.90388484138E+01	-1.71426776549E+02	6.67485199658E+00	1.69265714296E+02	-4.65394914841E+01	-8.31068396036E+01	-5.85241166718E+00	-1.11433839668E+00
2.63009223247E+06	-2.22621368909E+01	-1.51470747405E+02	6.74229747318E+00	1.69061950046E+02	-4.56125490532E+01	1.64789171025E+02	-5.85805915222E+00	-8.83888123350E-01
2.65228358707E+06	-1.88448294963E+01	1.78631877730E+02	6.69089619358E+00	1.68955238604E+02	-4.17881898712E+01	-1.06003129734E+02	-5.83614559590E+00	-1.17953585025E+00
2.67447494166E+06	-1.53179221255E+01	1.76362528792E+02	6.63091611185E+00	1.69051087366E+02	-4.29841426747E+01	8.63611592061E+01	-5.83851709799E+00	-1.41563192163E+00
2.69666629626E+06	-1.55732637224E+01	-1.64113852123E+02	6.67550936699E+00	1.68938118152E+02	-3.64131074142E+01	6.95847625407E+01	-5.84998001323E+00	-1.34226629141E+00
2.71885765085E+06	-1.42927049766E+01	1.73525121975E+02	6.65343659414E+00	1.68863757764E+02	-3.76591188497E+01	-1.69752861877E+02	-5.83153588933E+00	-1.14673097560E+00
2.74104900545E+06	-1.31997519989E+01	-1.68743940409E+02	6.61358733290E+00	1.68638247995E+02	-5.47284126693E+01	1.20409378111E+02	-5.82565486978E+00	-1.29479862027E+00
2.76324036004E+06	-1.84391492491E+01	1.69211688816E+02	6.63703039422E+00	1.68748289928E+02	-4.87869668165E+01	3.59568720471E+01	-5.83644055856E+00	-1.37018084493E+00
2.78543171463E+06	-1.62896689508E+01	1.74890837877E+02	6.67574325702E+00	1.68594520793E+02	-4.47540207017E+01	1.59841089554E+02	-5.84246666279E+00	-1.30285956670E+00
2.80762306923E+06	-1.71775796247E+01	1.79903026711E+02	6.67874343203E+00	1.68561563920E+02	-4.25570523206E+01	9.10749325844E+01	-5.84352861999E+00	-1.39485974168E+00
2.82981442382E+06	-1.75653246849E+01	-1.35736749565E+02	6.71127258258E+00	1.68182194504E+02	-4.32303604861E+01	1.33115464441E+02	-5.81743142601E+00	-1.25005420095E+00
2.85200577842E+06	-1.33794002905E+01	1.64259865004E+02	6.62401941910E+00	1.67787646894E+02	-4.26815805243E+01	9.84992790163E+00	-5.86193841271E+00	-1.47358380360E+00
2.87419713301E+06	-1.68989112141E+01	-1.71515795865E+02	6.71679617528E+00	1.68156403377E+02	-4.89758774140E+01	5.97671886847E+00	-5.83347246250E+00	-1.48052816156E+00
