# Hz S DB R 50
! CMT, M5065, 19127446, 24.2.4/2
! Date: 11/8/2024 4:20:36 PM
! Data: Format (Calibration Info)
! Freq	S11:dB/Ang(F2)	S21:dB/Ang(F2)	S12:dB/Ang(F2)	S22:dB/Ang(F2)
3.00000000000E+05	-1.79538724843E+01	1.73911041589E+02	3.15177453842E+01	-1.73167599028E+02	-5.44456420425E+01	1.07349431634E+02	-5.77328777606E+00	-1.15102780861E+00
3.22191354595E+05	-1.77674820490E+01	-1.69159664598E+02	3.15485984277E+01	-1.75295775677E+02	-4.13366723828E+01	-1.68243935693E+02	-5.64983352737E+00	-3.02833323515E-01
3.44382709190E+05	-2.14853982889E+01	-1.35554832241E+02	3.15879599716E+01	-1.76983308821E+02	-4.13991792476E+01	-9.53927754325E+00	-6.10138783969E+00	-3.76949359852E-01
3.66574063785E+05	-2.13285018167E+01	-1.58815379629E+02	3.15901683055E+01	-1.78476061770E+02	-4.09379398715E+01	-9.70594980903E+01	-5.80064405569E+00	1.01301463500E+00
3.88765418380E+05	-1.93936977337E+01	1.74473984867E+02	3.15769369280E+01	1.79866265304E+02	-4.22871320384E+01	-1.11779367515E+02	-5.97659355034E+00	2.12694148560E+00
4.10956772975E+05	-1.53313941780E+01	1.68808367846E+02	3.15586710763E+01	1.78443441694E+02	-4.76170595196E+01	-1.68756503311E+02	-5.72725038359E+00	-4.57738201809E-01
4.33148127570E+05	-1.45328623255E+01	1.73446983446E+02	3.15135407235E+01	1.76907686783E+02	-4.52449131447E+01	-1.65132428497E+02	-5.71434360889E+00	-2.63658055651E-01
4.55339482165E+05	-1.32449447971E+01	-1.63461792064E+02	3.15030742989E+01	1.75432405119E+02	-5.91316735920E+01	-1.28152685194E+02	-5.76529392785E+00	-1.44872851929E-01
4.77530836760E+05	-2.41465055700E+01	-1.54776525356E+02	3.15357095877E+01	1.74388845872E+02	-4.33098052939E+01	5.94814139281E+01	-5.94262782770E+00	-1.48817354553E+00
4.99722191355E+05	-1.64288686599E+01	1.74756654779E+02	3.14652070481E+01	1.73231382708E+02	-3.94724146031E+01	-8.73321211233E+01	-5.78913779984E+00	9.07407293962E-01
5.21913545950E+05	-1.62732203110E+01	1.77712306527E+02	3.14615730521E+01	1.72100019413E+02	-3.68656018550E+01	-1.53419851782E+02	-5.50654878983E+00	7.35171871827E-01
5.44104900545E+05	-1.81883864294E+01	-1.57263414825E+02	3.14654973151E+01	1.70831594017E+02	-4.34601668904E+01	4.40789117675E+01	-5.97343705803E+00	-1.23780313671E+00
5.66296255139E+05	-2.31879511709E+01	-1.78920245082E+02	3.14414748575E+01	1.69821346614E+02	-4.41814284955E+01	8.57518330648E+01	-5.87774259648E+00	-1.78544349227E+00
5.88487609734E+05	-1.47169593995E+01	-1.67296919431E+02	3.13592203352E+01	1.68846211452E+02	-4.35224656297E+01	7.64965512818E+01	-5.97171885307E+00	-1.51582141759E+00
6.10678964329E+05	-1.60306917933E+01	1.68642945620E+02	3.13707814585E+01	1.67869149005E+02	-5.17371359115E+01	1.29889608194E+02	-5.78326197235E+00	-5.35920827657E-01
6.32870318924E+05	-1.55362824630E+01	-1.68481205880E+02	3.13199266794E+01	1.66829265261E+02	-6.54453195659E+01	-6.39485156851E+01	-5.82249508290E+00	-2.71215943296E-01
6.55061673519E+05	-1.34615534011E+01	-1.61220301890E+02	3.12758006376E+01	1.65777463935E+02	-5.58646180635E+01	1.10128475315E+02	-5.77463909733E+00	-2.82677668867E-01
6.77253028114E+05	-1.96759921973E+01	1.76937239945E+02	3.12915017635E+01	1.65094141178E+02	-4.38245593942E+01	-1.40427599357E+02	-5.72656297526E+00	-3.15571890775E-01
6.99444382709E+05	-1.87654968423E+01	1.65002166910E+02	3.12700399409E+01	1.64290344802E+02	-3.72738013491E+01	-7.40038900761E+00	-6.20022698684E+00	-1.20288589733E-01
7.21635737304E+05	-1.93630993165E+01	-1.64782399888E+02	3.12364125299E+01	1.63142548925E+02	-4.23256163315E+01	1.63601151409E+01	-6.02505094107E+00	-9.20401859111E-01
7.43827091899E+05	-1.46441162150E+01	1.62326608370E+02	3.11709415050E+01	1.62531186824E+02	-5.26766145778E+01	-1.72677444711E+02	-5.77859141493E+00	-4.59575617334E-01
7.66018446494E+05	-2.13110419068E+01	-1.23009264506E+02	3.11671067813E+01	1.61290172036E+02	-4.05835445159E+01	7.01182689775E+01	-5.96584851996E+00	-2.16848383290E+00
7.88209801089E+05	-1.69963795148E+01	1.71882203321E+02	3.11025058001E+01	1.60819293370E+02	-4.19806864167E+01	-3.01507173424E+01	-6.01388344205E+00	2.92918856225E-01
8.10401155684E+05	-2.00246657724E+01	-1.51743165716E+02	3.10871180099E+01	1.59755195191E+02	-3.85239534740E+01	-1.41822437195E+02	-5.57341646652E+00	1.92495259110E-01
8.32592510279E+05	-1.28619598071E+01	-1.73258990985E+02	3.10143997411E+01	1.58938722594E+02	-3.70883596543E+01	-1.07579123532E+02	-5.67135794375E+00	1.32841708140E+00
8.54783864874E+05	-1.31646172208E+01	1.77751285436E+02	3.09689788862E+01	1.58327188083E+02	-4.12070755996E+01	1.30469800887E+02	-5.69302523278E+00	-1.87794038319E+00
8.76975219469E+05	-1.59344495554E+01	-1.57719064329E+02	3.09803379589E+01	1.57310315901E+02	-4.51134308474E+01	6.58846633655E+01	-5.92079039444E+00	-1.50329068669E+00
8.99166574064E+05	-2.05761836006E+01	-1.38583312818E+02	3.09586720758E+01	1.56750534649E+02	-4.60821476787E+01	1.17050065266E+02	-5.81932933536E+00	-1.69178753496E+00
9.21357928659E+05	-1.45742803327E+01	-1.78389984913E+02	3.08817801197E+01	1.56043759839E+02	-5.97189520468E+01	9.49046122468E+01	-5.82622034282E+00	-6.98583844260E-01
9.43549283254E+05	-1.60774834772E+01	-1.73946875196E+02	3.08411036557E+01	1.55259322807E+02	-4.52055480644E+01	-1.98536977869E+01	-5.94523089339E+00	-3.01311093386E-01
9.65740637849E+05	-1.46083828028E+01	1.72239856934E+02	3.07990563815E+01	1.54606903086E+02	-5.35180937423E+01	-3.43803248234E+01	-5.86067372179E+00	-3.78919440997E-01
9.87931992444E+05	-1.85354923962E+01	-1.50966153510E+02	3.08005612212E+01	1.53793405143E+02	-3.74442442735E+01	-5.99975123546E+01	-5.86898427966E+00	1.32663482499E+00
1.01012334704E+06	-1.84550895457E+01	-1.59220375669E+02	3.07603030421E+01	1.53113747631E+02	-4.65051824168E+01	-4.01317792613E+01	-5.92294522976E+00	-2.02915675801E-01
1.03231470163E+06	-1.41745889605E+01	1.73164366102E+02	3.06765760958E+01	1.52668113643E+02	-4.06102873035E+01	-3.21618744909E+01	-6.01314800730E+00	4.47663715218E-01
1.05450605623E+06	-1.86924506408E+01	1.53430187627E+02	3.06593733610E+01	1.51907002879E+02	-3.81137129544E+01	1.27806739788E+02	-5.68960807890E+00	-2.53604745433E+00
1.07669741082E+06	-1.32430082059E+01	-1.48523182724E+02	3.06141630987E+01	1.50788756087E+02	-4.97312501508E+01	-8.00974083178E+01	-5.92769197999E+00	-3.74725179543E+00
1.09888876542E+06	-1.67529249644E+01	-1.69011610891E+02	3.05702772778E+01	1.50299104052E+02	-4.27924064455E+01	7.95190805764E+01	-5.92679314618E+00	-1.70536940034E+00
1.12108012001E+06	-1.55748348943E+01	-1.56477789882E+02	3.05305635173E+01	1.49756281617E+02	-4.03981280881E+01	6.07272441991E+01	-5.98941630786E+00	-1.67215032537E+00
1.14327147461E+06	-1.99495611164E+01	-1.59254765166E+02	3.05140587766E+01	1.49162018307E+02	-4.28071827161E+01	-1.54095850255E+01	-6.00769710109E+00	-3.43591233172E-01
1.16546282920E+06	-1.76091427431E+01	-1.68160683789E+02	3.04663397240E+01	1.48473415308E+02	-4.77245259389E+01	6.51591088282E+01	-5.87985261012E+00	-1.31475932858E+00
1.18765418380E+06	-1.77090331535E+01	-1.78364540967E+02	3.04048398583E+01	1.47846787563E+02	-5.48434914803E+01	1.00135927969E+02	-5.85741265509E+00	-8.83660077295E-01
1.20984553839E+06	-2.01458166224E+01	-1.59590451133E+02	3.03752914825E+01	1.47126618466E+02	-4.96008429804E+01	4.78759780804E+01	-5.90300823587E+00	-1.08246537909E+00
1.23203689299E+06	-1.70501062441E+01	-1.56143606783E+02	3.03177267249E+01	1.46618742959E+02	-4.15016868550E+01	-3.96320304991E+01	-5.94659659553E+00	4.28986450216E-01
1.25422824758E+06	-1.51236711779E+01	1.64057717919E+02	3.02550157989E+01	1.46078506894E+02	-5.14824434218E+01	9.76381833201E+01	-5.81812029825E+00	-1.27320346974E+00
1.27641960218E+06	-1.44485877174E+01	1.65408214242E+02	3.02185748715E+01	1.45488015219E+02	-4.41270017771E+01	5.55784841901E+01	-5.93706305652E+00	-1.08874759356E+00
1.29861095677E+06	-2.00888313001E+01	-1.62794296350E+02	3.01915994649E+01	1.44691057071E+02	-4.08089387486E+01	-1.79063655203E+02	-5.65290931468E+00	-1.00631735024E+00
1.32080231137E+06	-1.65271163596E+01	-1.69853313229E+02	3.01411059230E+01	1.44085647258E+02	-4.74721193774E+01	1.08305425342E+02	-5.80677175693E+00	-1.56206268673E+00
1.34299366596E+06	-1.53076496317E+01	1.78069975045E+02	3.00881667963E+01	1.43744437472E+02	-4.50439494867E+01	-1.44679369216E+02	-5.69971904465E+00	-7.29966975617E-01
1.36518502056E+06	-1.91341485158E+01	-1.79154801271E+02	3.00652256197E+01	1.43131484682E+02	-3.77618528653E+01	-1.10622411242E+02	-5.64179619995E+00	8.39866864137E-01
1.38737637515E+06	-3.02650335386E+01	-9.39576453005E+01	3.00602406911E+01	1.42406376795E+02	-4.27010370134E+01	3.26847779799E+01	-6.02791842641E+00	-1.34541056632E+00
1.40956772975E+06	-1.69783580388E+01	-1.37671621044E+02	2.99804984725E+01	1.41672337041E+02	-5.28061889642E+01	-1.06551307035E+01	-5.89252923602E+00	-4.52657968355E-01
1.43175908434E+06	-1.68003270270E+01	1.79195403699E+02	2.99028883238E+01	1.41270708512E+02	-3.80107540768E+01	-1.66458701358E+02	-5.53676582103E+00	-1.00093766595E+00
1.45395043894E+06	-1.27751496043E+01	-1.66990204058E+02	2.98564029867E+01	1.40561201177E+02	-4.17380391231E+01	1.59692550965E+02	-5.61222775410E+00	-1.71368765058E+00
1.47614179353E+06	-1.57439649108E+01	1.66724965732E+02	2.98080086008E+01	1.40189998982E+02	-4.98412200685E+01	3.00570372460E+01	-5.90051423295E+00	-1.06797740872E+00
1.49833314813E+06	-1.88233815966E+01	1.54241421910E+02	2.97865467385E+01	1.39727489107E+02	-4.54647637999E+01	1.66106920400E+02	-5.76588201442E+00	-1.31478877757E+00
1.52052450272E+06	-1.72786492772E+01	-1.73886550523E+02	2.97551557157E+01	1.39126544036E+02	-4.18644242571E+01	-1.21669237371E+02	-5.70481376380E+00	1.39378306271E-01
1.54271585732E+06	-1.53952441599E+01	-1.68167501646E+02	2.96926543862E+01	1.38416571659E+02	-5.04736608086E+01	1.72901792263E+02	-5.78374570783E+00	-9.73078683079E-01
1.56490721191E+06	-1.32355797910E+01	1.77544545514E+02	2.96267743564E+01	1.37980198869E+02	-4.24381241650E+01	4.21584896372E+01	-6.01053928428E+00	-1.19561213835E+00
1.58709856651E+06	-1.71429476224E+01	-1.52780248758E+02	2.96230396891E+01	1.37285474881E+02	-4.51438831918E+01	-1.96199860997E+01	-5.93938160507E+00	-2.01138064015E-01
1.60928992110E+06	-1.70299675349E+01	-1.72911442683E+02	2.95739070795E+01	1.36967210659E+02	-3.74161132794E+01	-1.69597878355E+02	-5.50386674419E+00	-1.29427050810E+00
1.63148127570E+06	-1.80300406738E+01	-1.67018739867E+02	2.95184530902E+01	1.36374941588E+02	-5.01029051173E+01	-1.27093304922E+02	-5.76702719487E+00	-5.59429126683E-01
1.65367263029E+06	-1.82945980056E+01	1.72913360944E+02	2.94665331591E+01	1.35984272051E+02	-3.70693854534E+01	1.43938376306E+02	-5.59595156029E+00	-2.77970291633E+00
1.67586398489E+06	-1.90545802723E+01	-1.74598183596E+02	2.94444857229E+01	1.35385660742E+02	-4.72354026686E+01	-8.54074040595E+01	-5.83045931590E+00	-3.10230342965E-01
1.69805533948E+06	-1.07366366747E+01	1.65174563068E+02	2.93363067979E+01	1.35086830452E+02	-4.41343168127E+01	5.85774552574E+01	-5.94930881809E+00	-1.38102245731E+00
1.72024669408E+06	-1.98240690559E+01	-1.71539108524E+02	2.93329164908E+01	1.34478072429E+02	-4.69785742551E+01	-1.84916873407E+01	-5.90052255406E+00	-1.83237154589E-01
1.74243804867E+06	-1.46672128377E+01	1.67656574777E+02	2.92526389177E+01	1.34123796039E+02	-3.50592621868E+01	-1.32523675244E+02	-5.50420320490E+00	4.08329428274E-01
1.76462940327E+06	-1.91238293890E+01	-1.55912766072E+02	2.92594794079E+01	1.33393203579E+02	-3.69760711779E+01	-3.24095730637E+01	-5.91155442383E+00	8.24601431208E-01
1.78682075786E+06	-2.13044825859E+01	-1.50382367521E+02	2.92350980229E+01	1.32933871748E+02	-4.03764748477E+01	-1.61384369673E+02	-5.60987188136E+00	-8.07977866189E-01
1.80901211246E+06	-2.10908658521E+01	1.71553234624E+02	2.91327422384E+01	1.32666057508E+02	-4.77342990619E+01	1.75906847055E+02	-5.73992468435E+00	-1.07726436740E+00
1.83120346705E+06	-1.36247284602E+01	1.65343291550E+02	2.90608854967E+01	1.32067525958E+02	-4.09325891773E+01	2.82812134652E+01	-6.03598306277E+00	-1.19569206175E+00
1.85339482165E+06	-1.29848644298E+01	-1.58615403074E+02	2.90256495629E+01	1.31261706891E+02	-3.81757839079E+01	1.60325690202E+02	-5.62654470967E+00	-2.09260390736E+00
1.87558617624E+06	-1.57068481606E+01	1.77790383042E+02	2.89837056564E+01	1.30858852496E+02	-3.91992720797E+01	-1.37628583413E+02	-5.57775729434E+00	-5.37417308115E-01
1.89777753084E+06	-1.71656588552E+01	-1.74290825066E+02	2.89721658547E+01	1.30440771415E+02	-4.20003422898E+01	1.69064386030E+02	-5.71690672856E+00	-1.60379743774E+00
1.91996888543E+06	-1.59114786255E+01	-1.50724268746E+02	2.89220542306E+01	1.29851574796E+02	-3.75582092877E+01	1.33897024728E+02	-5.78232466991E+00	-2.89638575577E+00
1.94216024003E+06	-1.79211091146E+01	1.64015016352E+02	2.88578230150E+01	1.29690292414E+02	-3.70591439861E+01	-3.40502578074E+01	-5.99404016403E+00	8.27606826417E-01
1.96435159462E+06	-1.61316816570E+01	1.73412120738E+02	2.87963969964E+01	1.29278163937E+02	-3.94437958437E+01	-5.57044110821E+00	-6.03547106558E+00	-2.84146884454E-01
1.98654294922E+06	-2.05701299844E+01	-1.55121178983E+02	2.87958267163E+01	1.28715995394E+02	-4.31517492396E+01	6.28564778864E+01	-5.93841983466E+00	-2.08339338088E+00
2.00873430381E+06	-1.68290101017E+01	1.24923966363E+02	2.87120262922E+01	1.28593046893E+02	-4.47713737729E+01	1.16564045299E+02	-5.84728633973E+00	-1.88987163819E+00
2.03092565841E+06	-1.48799873635E+01	-1.65640208787E+02	2.86790864997E+01	1.27736766452E+02	-4.14410400886E+01	-1.07628335256E+02	-5.60894179742E+00	-3.40090643319E-01
2.05311701300E+06	-1.43999969821E+01	-1.64142597348E+02	2.86126109220E+01	1.27289660669E+02	-4.70792920192E+01	1.94574417742E-01	-5.89230727158E+00	-5.77288370202E-01
2.07530836760E+06	-1.90084206298E+01	-1.50252681824E+02	2.86017317494E+01	1.26920952798E+02	-3.41746476256E+01	8.95838673674E+01	-6.06140115511E+00	-3.33941958449E+00
2.09749972219E+06	-2.52727352703E+01	1.43890359904E+02	2.85567106516E+01	1.26744168493E+02	-4.56127045459E+01	8.37839601566E+01	-5.88664495955E+00	-1.64711267509E+00
2.11969107679E+06	-1.49646623351E+01	1.76590984204E+02	2.84704061364E+01	1.26129311719E+02	-4.22200172339E+01	-1.74657225165E+02	-5.64307002887E+00	-1.40945726161E+00
2.14188243138E+06	-2.04593507637E+01	1.64302846172E+02	2.84554835032E+01	1.25877401865E+02	-4.51977101726E+01	-7.34414796971E+01	-5.78211298613E+00	-1.95087273525E-01
2.16407378598E+06	-1.13150854393E+01	-1.26316963401E+02	2.84275960529E+01	1.24695411671E+02	-4.52760334912E+01	1.35157938256E+02	-5.77887943881E+00	-2.06670679364E+00
2.18626514057E+06	-1.01215057395E+01	1.67689346727E+02	2.82741341293E+01	1.24873069582E+02	-6.03821680861E+01	1.07537150439E+02	-5.86865459589E+00	-1.32987986624E+00
2.20845649517E+06	-1.72258883461E+01	-1.63171130827E+02	2.83129153938E+01	1.24428213314E+02	-3.78985942984E+01	-1.66528323971E+02	-5.59080725050E+00	-1.70069205286E+00
2.23064784976E+06	-2.06280688799E+01	1.53971912230E+02	2.82725935629E+01	1.24394656159E+02	-2.64169173207E+01	-1.61720561667E+02	-4.84986978399E+00	-3.09360891618E+00
2.25283920436E+06	-1.55220463131E+01	1.60593318515E+02	2.81931877665E+01	1.23752385121E+02	-4.66476812858E+01	-8.95423452853E+01	-5.82538097264E+00	-5.30710909969E-01
2.27503055895E+06	-1.87719585444E+01	1.68283886550E+02	2.81643868249E+01	1.23396847195E+02	-4.06932407729E+01	-2.12235480103E+01	-5.98118613663E+00	-2.70822138264E-01
2.29722191355E+06	-1.81588638920E+01	1.55945552769E+02	2.81044461171E+01	1.22979032584E+02	-4.55966186751E+01	-1.04564399506E+02	-5.76328595944E+00	-5.11882458589E-01
2.31941326814E+06	-1.14586048583E+01	-1.44829553866E+02	2.80617692157E+01	1.21916191816E+02	-4.88977642729E+01	-6.05182210781E+01	-5.80890218547E+00	-5.48475277225E-01
2.34160462274E+06	-1.28611219568E+01	-8.62861245248E+01	2.81222313013E+01	1.21371896874E+02	-5.47499052434E+01	-1.01488355004E+02	-5.79130011866E+00	-9.54985788802E-01
2.36379597733E+06	-1.79025930860E+01	-1.73972044193E+02	2.79663862460E+01	1.21589736612E+02	-3.65079528955E+01	-1.32414830348E+02	-5.57544494131E+00	-7.87408935651E-01
2.38598733193E+06	-2.02465402931E+01	1.39163113584E+02	2.79348365335E+01	1.21566062294E+02	-3.49991512506E+01	6.72265069773E+00	-6.10920731957E+00	4.19957850552E-01
2.40817868652E+06	-1.90222789336E+01	1.70613388468E+02	2.78939179904E+01	1.20935837796E+02	-4.78218177011E+01	1.31107541070E+01	-5.94843137420E+00	-1.09794042091E+00
2.43037004112E+06	-1.89801450007E+01	-1.60276798127E+02	2.78411526486E+01	1.20548462363E+02	-4.63937176670E+01	5.61735192617E+00	-5.94490007780E+00	-1.39582594094E+00
2.45256139571E+06	-2.64689730041E+01	-1.50946398073E+02	2.78372949416E+01	1.20122354690E+02	-5.67779908048E+01	-4.60568816487E+01	-5.83355486464E+00	-8.00198281979E-01
2.47475275031E+06	-1.53061590986E+01	-1.60109832486E+02	2.77353554447E+01	1.19492220250E+02	-4.34145020220E+01	-1.13224402881E+02	-5.71012203242E+00	-6.13833357132E-01
2.49694410490E+06	-1.36630084015E+01	1.42985879832E+02	2.76729464138E+01	1.19535186556E+02	-6.36277218490E+01	6.35293006721E+01	-5.85322782704E+00	-1.36245981913E+00
2.51913545950E+06	-2.47709662986E+01	-1.52924001742E+02	2.77169569531E+01	1.18985403929E+02	-4.47903688843E+01	-7.27490722963E+01	-5.77433227723E+00	-5.53797500775E-01
2.54132681409E+06	-1.46274295602E+01	1.78094968133E+02	2.75787750543E+01	1.18453171458E+02	-3.99063844430E+01	1.71791251782E+02	-5.73466585796E+00	-2.37736416243E+00
2.56351816869E+06	-1.66469832294E+01	1.75376712827E+02	2.75432796494E+01	1.18077866061E+02	-5.13259513802E+01	1.70160522017E+02	-5.73074610403E+00	-1.73007086551E+00
2.58570952328E+06	-2.30899813513E+01	-1.68426714992E+02	2.75194665943E+01	1.17930365232E+02	-4.29412286683E+01	2.88129190378E+01	-5.99181498779E+00	-1.23285648168E+00
2.60790087788E+06	-2.26115202914E+01	-1.28456474353E+02	2.75125321889E+01	1.17416138791E+02	-4.78653523253E+01	1.60515603828E+02	-5.78244538969E+00	-1.70163608922E+00
2.63009223247E+06	-1.79150721819E+01	1.78050989001E+02	2.74247692849E+01	1.17179383981E+02	-4.32354842500E+01	1.17434097033E+02	-5.85290182854E+00	-2.00363350400E+00
2.65228358707E+06	-1.40955547496E+01	1.61413096490E+02	2.73469320859E+01	1.16841149849E+02	-4.46479095341E+01	-3.91367983796E+01	-5.85569803079E+00	-7.79814871809E-01
2.67447494166E+06	-1.28845286979E+01	-1.75029647003E+02	2.72916025922E+01	1.16043832079E+02	-5.64018155873E+01	-1.20553372819E+02	-5.83989202481E+00	-1.32379919857E+00
2.69666629626E+06	-1.83643149214E+01	-1.65406286032E+02	2.72984781230E+01	1.15994706836E+02	-5.59634555427E+01	-1.21899762202E+02	-5.80933166570E+00	-1.30497754344E+00
2.71885765085E+06	-1.69651468267E+01	-1.55772663830E+02	2.72549558948E+01	1.15724849651E+02	-4.37032138470E+01	-4.49004643505E+01	-5.88338235979E+00	-4.40866077915E-01
2.74104900545E+06	-1.54993695622E+01	-1.51411067588E+02	2.72189780241E+01	1.15070983890E+02	-5.61578659630E+01	6.56577225195E+01	-5.88878651260E+00	-1.66730595582E+00
2.76324036004E+06	-2.18179005349E+01	1.75482571292E+02	2.71648433620E+01	1.15187097097E+02	-4.13956340879E+01	1.04032461746E+02	-5.86405283820E+00	-2.65252547542E+00
2.78543171463E+06	-1.61085016983E+01	1.77469192997E+02	2.70604796627E+01	1.14671425867E+02	-4.97930078092E+01	-1.03435436572E+01	-5.89218086081E+00	-1.22365156562E+00
2.80762306923E+06	-1.98494288964E+01	-1.55710954754E+02	2.70682843267E+01	1.14373657924E+02	-5.72432687274E+01	7.70121227266E+01	-5.84822207349E+00	-1.57819683101E+00
2.82981442382E+06	-1.67719907333E+01	-1.74219927405E+02	2.70212436725E+01	1.13974922656E+02	-4.45355467956E+01	1.27843945814E+02	-5.84268802577E+00	-2.26891683155E+00
2.85200577842E+06	-1.70851363776E+01	1.66454741875E+02	2.69611502871E+01	1.13727976639E+02	-4.26702529791E+01	-1.20553021002E+02	-5.79183206097E+00	-1.38705994883E+00
2.87419713301E+06	-2.01783271310E+01	-1.51511408081E+02	2.69629230179E+01	1.13250478742E+02	-4.15233856720E+01	-7.71086611997E+01	-5.79022009493E+00	-1.90875238572E-01
