# Hz S DB R 50
! CMT, M5065, 19127446, 24.2.4/2
! Date: 11/8/2024 4:16:45 PM
! Data: Format (Calibration Info)
! Freq	S11:dB/Ang(F2)	S21:dB/Ang(F2)	S12:dB/Ang(F2)	S22:dB/Ang(F2)
3.00000000000E+05	-1.55494150465E+01	-1.64661903700E+02	2.07012159593E+01	-1.75745237982E+02	-4.45031391913E+01	1.32854498725E+02	-5.77917005473E+00	-6.66491299655E-01
3.22191354595E+05	-1.65430035900E+01	-1.72079434882E+02	2.07094764820E+01	-1.76604603963E+02	-4.62269849517E+01	-2.20072034020E+01	-5.87233591396E+00	-3.02277083437E-01
3.44382709190E+05	-1.71418500353E+01	1.73301574578E+02	2.07169640920E+01	-1.77382071243E+02	-4.11630990176E+01	8.65228458839E+01	-5.83921349463E+00	-7.75382506876E-01
3.66574063785E+05	-1.60491154066E+01	-1.54296379838E+02	2.07350996113E+01	-1.78186185031E+02	-4.72550799946E+01	8.99510805074E+01	-5.82147266353E+00	-6.42000258563E-01
3.88765418380E+05	-1.82234214694E+01	1.66686468223E+02	2.07445989025E+01	-1.78359058076E+02	-4.20211170975E+01	-1.75864808087E+02	-5.76147274219E+00	-5.87125689114E-01
4.10956772975E+05	-1.75353815474E+01	1.78346184595E+02	2.07405125944E+01	-1.79108738256E+02	-4.34939083193E+01	-1.29455318974E+02	-5.80091557676E+00	-1.06013995962E-01
4.33148127570E+05	-1.49201289984E+01	1.66782316680E+02	2.07187483944E+01	-1.79615760604E+02	-3.95298904200E+01	-1.38139198917E+02	-5.76276665355E+00	-1.80919182537E-01
4.55339482165E+05	-3.14467546864E+01	3.38553545361E+01	2.07624540867E+01	-1.79993864573E+02	-4.93479005396E+01	-6.06006309413E+01	-5.82137324430E+00	-3.85267973906E-01
4.77530836760E+05	-1.72281582463E+01	-1.77200586575E+02	2.07075671236E+01	1.79278269040E+02	-4.38304330303E+01	5.72209721996E+01	-5.87381798404E+00	-6.61886605915E-01
4.99722191355E+05	-1.60225363265E+01	-1.77066955180E+02	2.07040274769E+01	1.78716870565E+02	-4.59376974859E+01	7.14107437542E+01	-5.82616220066E+00	-8.47480154399E-01
5.21913545950E+05	-1.69781603299E+01	-1.51372284170E+02	2.07249836266E+01	1.78238913218E+02	-4.34632159218E+01	5.17675285297E+01	-5.85569422213E+00	-6.68486897824E-01
5.44104900545E+05	-2.00708165456E+01	1.61004398144E+02	2.07363884048E+01	1.78079245752E+02	-4.89738678694E+01	-1.17527079935E+02	-5.85134459183E+00	-3.06882174298E-01
5.66296255139E+05	-1.52958536515E+01	1.78443245204E+02	2.07194598770E+01	1.77482891407E+02	-5.70867333442E+01	1.57680156144E+02	-5.81993394072E+00	-3.27796651573E-01
5.88487609734E+05	-2.67730137524E+01	-1.65555440886E+02	2.07511982668E+01	1.77158620029E+02	-5.04736754023E+01	1.26941461942E+02	-5.80416642811E+00	-3.37150406796E-01
6.10678964329E+05	-8.56229860239E+00	1.22475645866E+02	2.07050068640E+01	1.77041981390E+02	-4.51037148894E+01	5.98943652569E+01	-5.82032419544E+00	-1.03288650412E-01
6.32870318924E+05	-1.29045288371E+01	-1.73858255471E+02	2.06838811337E+01	1.76112633959E+02	-4.83583807987E+01	-5.87737835952E+01	-5.81775657213E+00	-4.84510629671E-02
6.55061673519E+05	-1.76534173304E+01	-1.78107286806E+02	2.07102028369E+01	1.75775757383E+02	-4.32378451332E+01	1.57429644321E+02	-5.76228005027E+00	-4.25693399644E-01
6.77253028114E+05	-1.92353893397E+01	-1.63618235643E+02	2.07203484499E+01	1.75410559974E+02	-5.38750947510E+01	-1.18166252507E+02	-5.83125943041E+00	-6.52808347503E-01
6.99444382709E+05	-2.24028087115E+01	1.73487646022E+02	2.07351119971E+01	1.75193606709E+02	-4.07732265535E+01	1.63546143982E+02	-5.76469625601E+00	-4.44898174419E-01
7.21635737304E+05	-1.35558176034E+01	1.67747257932E+02	2.06952216185E+01	1.74797923078E+02	-5.03990639914E+01	8.77889233788E+01	-5.82394694518E+00	-5.98786074462E-01
7.43827091899E+05	-1.50137041086E+01	1.75324080428E+02	2.06799343810E+01	1.74700108674E+02	-3.99440304951E+01	1.41270579470E+01	-5.90102064485E+00	-7.95912089619E-01
7.66018446494E+05	-1.19703041679E+01	1.69704948851E+02	2.06758537896E+01	1.74170614346E+02	-3.68054509158E+01	-4.71273046902E+01	-5.88450640135E+00	-2.55113007304E-01
7.88209801089E+05	-1.70164976725E+01	-1.78752754704E+02	2.07173804959E+01	1.73871840121E+02	-3.94855368280E+01	1.61515178115E+02	-5.75396474752E+00	-7.15986659156E-01
8.10401155684E+05	-2.72976257167E+01	-1.54496952550E+02	2.07169494986E+01	1.73552211725E+02	-4.43937335646E+01	-1.79869129093E+02	-5.80508639392E+00	-5.51907005082E-01
8.32592510279E+05	-1.46375498745E+01	1.58510936360E+02	2.06774371221E+01	1.73290888963E+02	-5.31678253595E+01	-1.24255242107E+02	-5.80199119829E+00	-3.80394510075E-01
8.54783864874E+05	-1.67696687395E+01	-1.79594154888E+02	2.06762149568E+01	1.72940260904E+02	-5.78400898210E+01	1.39238789942E+02	-5.81688115763E+00	-6.72829343907E-01
8.76975219469E+05	-1.63877375901E+01	1.67444955480E+02	2.06834062529E+01	1.72708112912E+02	-4.58112766349E+01	-1.69171689235E+02	-5.78788294938E+00	-4.34840066409E-01
8.99166574064E+05	-1.56207102514E+01	1.60675865037E+02	2.06626107489E+01	1.72388863125E+02	-4.06622580367E+01	3.92472958007E+01	-5.88489070688E+00	-6.62017120004E-01
9.21357928659E+05	-1.74384099998E+01	1.36596614576E+02	2.06951369049E+01	1.72045263913E+02	-4.27811628557E+01	-1.64068894592E+02	-5.77558833209E+00	-4.37206884740E-01
9.43549283254E+05	-1.48973949222E+01	-1.57566951660E+02	2.06815345230E+01	1.71325503779E+02	-4.30430396279E+01	-6.73428476076E+00	-5.90701151322E+00	-5.27117475587E-01
9.65740637849E+05	-1.54958985575E+01	-1.60743034990E+02	2.06703538470E+01	1.70937610870E+02	-4.80665219894E+01	1.38679422818E+02	-5.80130661478E+00	-5.03938159318E-01
9.87931992444E+05	-1.65884502328E+01	1.70800895222E+02	2.06790364786E+01	1.71010600903E+02	-4.04942708682E+01	1.19759710189E+02	-5.79536459503E+00	-1.09904631471E+00
1.01012334704E+06	-1.54041772255E+01	1.58941422131E+02	2.06618682035E+01	1.70831180469E+02	-4.80082017931E+01	-1.14024605323E+01	-5.85014626362E+00	-4.47045281860E-01
1.03231470163E+06	-2.51924704518E+01	-1.51127793200E+02	2.06908187947E+01	1.70525315133E+02	-4.39296139749E+01	-9.90384901822E+01	-5.83655631328E+00	-2.10998865133E-01
1.05450605623E+06	-2.28392140102E+01	-1.77214859424E+02	2.06879797298E+01	1.70146838502E+02	-4.44865298473E+01	-7.44021562212E+01	-5.82987373901E+00	-3.19064934256E-01
1.07669741082E+06	-1.33467402948E+01	-1.75505166018E+02	2.06808278487E+01	1.69570681448E+02	-5.56461338025E+01	-8.47533553174E+01	-5.76110671966E+00	-6.65543513387E-01
1.09888876542E+06	-1.50678745070E+01	1.43632728543E+02	2.06249965319E+01	1.69693880571E+02	-4.98390748842E+01	6.82401838868E+00	-5.87273561759E+00	-6.21351556700E-01
1.12108012001E+06	-2.16261400916E+01	1.72638545097E+02	2.06759191448E+01	1.69292372455E+02	-4.03964113335E+01	1.04928463213E+02	-5.80168287669E+00	-1.22559573680E+00
1.14327147461E+06	-1.57660128452E+01	1.74946664359E+02	2.06381400393E+01	1.69064647211E+02	-4.52958592975E+01	-1.47131083583E+02	-5.80051131354E+00	-5.80997521607E-01
1.16546282920E+06	-1.61644444679E+01	-1.71746930744E+02	2.06507483659E+01	1.68613255295E+02	-5.37446689081E+01	-4.27339930053E+01	-5.85541431587E+00	-5.73682096818E-01
1.18765418380E+06	-1.86971884379E+01	1.73242436475E+02	2.06515046837E+01	1.68560528746E+02	-4.42401812298E+01	-1.17727415269E+02	-5.81150640819E+00	-3.44914069338E-01
1.20984553839E+06	-1.56622210709E+01	1.74140926219E+02	2.06259300404E+01	1.68105065725E+02	-4.24736656554E+01	-8.88094619584E+01	-5.84812820996E+00	-5.07133618474E-01
1.23203689299E+06	-1.51183151065E+01	-1.23668209496E+02	2.06662254463E+01	1.67645088683E+02	-4.82534209825E+01	-1.42170500426E+02	-5.82498463311E+00	-3.28332505492E-01
1.25422824758E+06	-2.24652199053E+01	-1.53538036240E+02	2.06563872759E+01	1.67530202713E+02	-4.85029273695E+01	-4.93782621927E+01	-5.86657786125E+00	-5.60084381288E-01
1.27641960218E+06	-1.63630516402E+01	1.76802151742E+02	2.06223516096E+01	1.67383596620E+02	-5.01405974283E+01	1.50125499179E+02	-5.82015984022E+00	-6.30603868733E-01
1.29861095677E+06	-1.69099353953E+01	1.71415843860E+02	2.06200987999E+01	1.67123743203E+02	-5.05884847702E+01	1.27296209309E+02	-5.80698510364E+00	-7.66418901169E-01
1.32080231137E+06	-1.49138562651E+01	1.64310283043E+02	2.06112233822E+01	1.66939255660E+02	-4.90118471496E+01	5.47058548253E+01	-5.84943842046E+00	-1.24435591080E+00
1.34299366596E+06	-1.75684084501E+01	1.74493406943E+02	2.06304380642E+01	1.66566759988E+02	-4.44454889223E+01	-2.72561528890E+01	-5.87739523821E+00	-6.61302339179E-01
1.36518502056E+06	-1.48292152677E+01	1.72243854754E+02	2.06033569548E+01	1.66216328221E+02	-4.52257110522E+01	-7.87816616542E+01	-5.84195018360E+00	-4.47875077397E-01
1.38737637515E+06	-1.71667305810E+01	1.67429974821E+02	2.06095344719E+01	1.66070855050E+02	-4.19042912889E+01	-7.49446946514E+01	-5.86012893576E+00	-6.81328886595E-01
1.40956772975E+06	-1.23007912576E+01	-1.56068208065E+02	2.06088088928E+01	1.65468336927E+02	-4.41763953420E+01	-1.63263088834E+02	-5.77445977059E+00	-6.89618592338E-01
1.43175908434E+06	-1.86507979934E+01	-1.68686969446E+02	2.06171938714E+01	1.65399473084E+02	-4.06048518506E+01	-1.73922295090E+02	-5.76280473400E+00	-5.05365521816E-01
1.45395043894E+06	-1.78649498726E+01	-1.61383616218E+02	2.06218495520E+01	1.65093766108E+02	-4.04485500858E+01	7.57184182269E+01	-5.88413492365E+00	-1.46124059853E+00
1.47614179353E+06	-1.84730094102E+01	-1.51385825207E+02	2.06252211272E+01	1.64775786487E+02	-4.76346192982E+01	-1.09898014966E+02	-5.81113335631E+00	-6.54147112416E-01
1.49833314813E+06	-1.70805114503E+01	1.75748862638E+02	2.06014623945E+01	1.64689478892E+02	-4.84718256435E+01	8.68603876080E+01	-5.82908338198E+00	-9.70799545098E-01
1.52052450272E+06	-2.01475125838E+01	1.64820376127E+02	2.06249323444E+01	1.64491735303E+02	-3.88090110084E+01	1.17402494387E+02	-5.77020279863E+00	-1.30592810949E+00
1.54271585732E+06	-2.20348343013E+01	1.38678384889E+02	2.05997924021E+01	1.64361552360E+02	-5.15250687432E+01	2.10509674017E+01	-5.87749445422E+00	-1.02007061129E+00
1.56490721191E+06	-1.88863617730E+01	-1.74821069455E+02	2.06231248187E+01	1.63834679157E+02	-3.92224423417E+01	-4.15644540370E+01	-5.89921866711E+00	-5.13697804976E-01
1.58709856651E+06	-1.63641323155E+01	-1.73565780854E+02	2.05751980188E+01	1.63599185829E+02	-6.05132380148E+01	-1.39567544848E+02	-5.84855239731E+00	-7.86005960872E-01
1.60928992110E+06	-2.05178065040E+01	1.66512385370E+02	2.05830718839E+01	1.63380927655E+02	-4.59448134643E+01	1.07205341841E+01	-5.88099283769E+00	-1.05327765329E+00
1.63148127570E+06	-1.56016696244E+01	-1.64425086281E+02	2.05671046136E+01	1.62887642266E+02	-5.48652483493E+01	1.61067570233E+02	-5.83739328138E+00	-8.64384506441E-01
1.65367263029E+06	-1.86613550002E+01	1.78263386633E+02	2.05739986012E+01	1.62893880625E+02	-4.81106947678E+01	1.77263323854E+02	-5.82590066447E+00	-8.45286055821E-01
1.67586398489E+06	-1.84677147135E+01	1.48356991049E+02	2.05618220443E+01	1.62648948491E+02	-4.75929563834E+01	4.98030477809E+01	-5.84506702674E+00	-1.01815889649E+00
1.69805533948E+06	-1.73265050816E+01	1.43222395737E+02	2.05469510189E+01	1.62422042847E+02	-3.92901217922E+01	1.61526394080E+02	-5.79118850127E+00	-9.28915429920E-01
1.72024669408E+06	-1.54501490919E+01	-1.12571538485E+02	2.05762687192E+01	1.61850194104E+02	-4.17489302128E+01	-8.17288060986E+01	-5.85097683414E+00	-5.20366226715E-01
1.74243804867E+06	-1.86449813323E+01	1.60116001040E+02	2.05533755450E+01	1.61984895262E+02	-4.26261926390E+01	-1.72779194501E+02	-5.79652684023E+00	-5.33176459284E-01
1.76462940327E+06	-2.06476156464E+01	1.41210204954E+02	2.05609756753E+01	1.61786316442E+02	-5.85607277429E+01	7.94306303482E+01	-5.84054573671E+00	-1.05917199161E+00
1.78682075786E+06	-2.27369194047E+01	-1.74735973316E+02	2.05591473490E+01	1.61386555464E+02	-4.52239958175E+01	1.10778184230E+01	-5.87846665655E+00	-9.68387130601E-01
1.80901211246E+06	-1.73551816194E+01	1.45773197871E+02	2.05174098841E+01	1.61368529777E+02	-4.35516289207E+01	-7.47449576387E+01	-5.86466841299E+00	-4.68019686679E-01
1.83120346705E+06	-1.67862283225E+01	1.72279827022E+02	2.05179291375E+01	1.60889914337E+02	-4.71551339159E+01	1.46452305222E+01	-5.87186809431E+00	-7.97908097040E-01
1.85339482165E+06	-1.92549548024E+01	1.32016407093E+02	2.05339885829E+01	1.60631719592E+02	-3.76455615900E+01	2.01799098474E+01	-5.90484488606E+00	-1.39154692323E+00
1.87558617624E+06	-1.40461724794E+01	1.35323562282E+02	2.05036404604E+01	1.60460137173E+02	-3.50879759065E+01	1.66802747476E+02	-5.71316394914E+00	-1.11408172343E+00
1.89777753084E+06	-1.80052372897E+01	-1.29093391803E+02	2.05542844048E+01	1.59749729522E+02	-5.02626632823E+01	-1.10422844331E+02	-5.81855837799E+00	-8.31642141577E-01
1.91996888543E+06	-1.60141851869E+01	-1.73014866456E+02	2.05087612911E+01	1.59605380437E+02	-4.19024403520E+01	-1.10798900377E+02	-5.80817574547E+00	-5.63959346814E-01
1.94216024003E+06	-1.56895437133E+01	-1.51939573893E+02	2.05181951788E+01	1.59400182297E+02	-4.70433912952E+01	1.08119077935E+02	-5.80846320017E+00	-1.32010244467E+00
1.96435159462E+06	-1.38233828409E+01	-1.59957759243E+02	2.05048914663E+01	1.58903775904E+02	-5.25824005640E+01	-1.92713070096E+01	-5.84997495335E+00	-1.19669488110E+00
1.98654294922E+06	-2.24749502679E+01	-1.50455277672E+02	2.05317453771E+01	1.58996326132E+02	-4.04654286302E+01	-1.24457999909E+02	-5.77955881357E+00	-3.82139536911E-01
2.00873430381E+06	-2.30566530008E+01	1.56857051026E+02	2.05097658488E+01	1.58756606481E+02	-3.48187055582E+01	-1.27615433506E+02	-5.78292767772E+00	-4.04613864532E-01
2.03092565841E+06	-1.81900374387E+01	-1.60896350048E+02	2.05065711476E+01	1.58493140167E+02	-4.17055987271E+01	1.47475686813E+02	-5.73445687460E+00	-8.21778561703E-01
2.05311701300E+06	-1.72870186772E+01	1.76905798250E+02	2.04730749375E+01	1.58131923456E+02	-5.49860493942E+01	1.17490858766E+02	-5.81687078463E+00	-1.00566382275E+00
2.07530836760E+06	-1.62207648307E+01	-1.42506866208E+02	2.05011461496E+01	1.57724368310E+02	-5.05476813791E+01	6.03988488283E+01	-5.84953167107E+00	-1.23776515915E+00
2.09749972219E+06	-1.69152653761E+01	-1.63242825793E+02	2.05063080520E+01	1.57607842314E+02	-4.35301590705E+01	-1.08782150688E+02	-5.80231963013E+00	-5.25760604751E-01
2.11969107679E+06	-1.51137266677E+01	-1.72502757271E+02	2.04598210775E+01	1.57318446555E+02	-4.18584695346E+01	4.74304613833E+01	-5.86065493969E+00	-1.52749567455E+00
2.14188243138E+06	-1.72493616108E+01	1.78949919214E+02	2.04728146814E+01	1.57137662178E+02	-5.41302886889E+01	6.01132375864E+00	-5.84760373718E+00	-1.19694688556E+00
2.16407378598E+06	-2.83915798750E+01	-1.05436159200E+02	2.05139169441E+01	1.57138319161E+02	-3.59513543655E+01	1.26228314254E+02	-5.74424454077E+00	-1.66980914370E+00
2.18626514057E+06	-7.07393787746E+00	1.71710031353E+02	2.04032000309E+01	1.56351315190E+02	-4.32622062430E+01	-1.63850030845E+02	-5.75437177304E+00	-8.64162788122E-01
2.20845649517E+06	-2.00516711090E+01	1.67355282048E+02	2.04833405684E+01	1.56610267092E+02	-5.11193885366E+01	-7.12118107133E+00	-5.85275541806E+00	-1.17050470451E+00
2.23064784976E+06	-1.61887798672E+01	-1.69722869779E+02	2.04595542554E+01	1.56104491476E+02	-4.50487342753E+01	1.50116548057E+02	-5.78692772357E+00	-1.23548534468E+00
2.25283920436E+06	-1.89571583509E+01	-1.73726415142E+02	2.04643582067E+01	1.55983855507E+02	-4.40516149328E+01	1.09983643715E+01	-5.86825942880E+00	-1.33012856533E+00
2.27503055895E+06	-1.92084185441E+01	-1.65148535434E+02	2.04652903833E+01	1.55697244271E+02	-4.89416956564E+01	-1.67118000187E+02	-5.77849128472E+00	-1.16178986336E+00
2.29722191355E+06	-1.63473819273E+01	-1.67293155810E+02	2.04517585579E+01	1.55464743924E+02	-4.15262083930E+01	1.28970678135E+02	-5.77471183020E+00	-1.45003810885E+00
2.31941326814E+06	-2.31606684777E+01	1.17743138015E+02	2.04595449222E+01	1.55501346921E+02	-4.52141078613E+01	3.25207186046E+01	-5.82856866126E+00	-1.25550450664E+00
2.34160462274E+06	-1.80225145816E+01	1.70141024821E+02	2.04170798059E+01	1.55028138704E+02	-5.01390859916E+01	1.14181384537E+02	-5.83218932311E+00	-1.58321895922E+00
2.36379597733E+06	-1.42991500880E+01	-1.79210486428E+02	2.04048316081E+01	1.54736329375E+02	-4.21073961662E+01	4.24453313437E+01	-5.86021108054E+00	-1.48571686833E+00
2.38598733193E+06	-1.64093012907E+01	1.77619158314E+02	2.04101502545E+01	1.54405618602E+02	-4.67328253606E+01	-1.61943221235E+01	-5.88298274128E+00	-1.29211527706E+00
2.40817868652E+06	-1.53999922870E+01	-1.67690313757E+02	2.04173061263E+01	1.54105812456E+02	-4.10637490304E+01	-5.61094346085E+01	-5.87294682518E+00	-9.43807883065E-01
2.43037004112E+06	-2.08834019298E+01	-1.16240974057E+02	2.04576764200E+01	1.54041336992E+02	-4.20376397025E+01	1.15177908525E+02	-5.79044786254E+00	-1.99416555753E+00
2.45256139571E+06	-1.69693775940E+01	1.56348994115E+02	2.03841313203E+01	1.53810916981E+02	-4.27764244777E+01	1.67236507401E+02	-5.76472471710E+00	-1.13691261727E+00
2.47475275031E+06	-1.80384515424E+01	-1.47345489927E+02	2.04041095973E+01	1.53350404585E+02	-3.19564351736E+01	1.19136912509E+02	-5.70946952649E+00	-2.18550291252E+00
2.49694410490E+06	-7.45026815818E+00	-1.57137932485E+02	2.03507996993E+01	1.52735076103E+02	-3.67960706213E+01	-7.23273243343E+01	-5.86387904188E+00	-1.07387143030E+00
2.51913545950E+06	-1.70120884099E+01	-1.59866686255E+02	2.04020772620E+01	1.52874469890E+02	-5.22534235263E+01	-1.77130836225E+02	-5.79483603665E+00	-1.22119526775E+00
2.54132681409E+06	-1.56892382269E+01	1.64522576270E+02	2.03655563357E+01	1.52917948511E+02	-4.29103881504E+01	7.84385396967E+01	-5.83615717297E+00	-1.77905187587E+00
2.56351816869E+06	-1.89843238606E+01	-1.50240177038E+02	2.04115139168E+01	1.52322551746E+02	-5.31400694258E+01	1.16852327599E+02	-5.83339808685E+00	-1.34235820826E+00
2.58570952328E+06	-1.76729005895E+01	-1.74136743975E+02	2.03810159079E+01	1.52245565615E+02	-4.44076789700E+01	2.28058650392E+00	-5.89201855758E+00	-1.21596699184E+00
2.60790087788E+06	-1.48723346704E+01	-1.52666236747E+02	2.03815125569E+01	1.51736998461E+02	-4.62354128712E+01	-1.15513856109E+02	-5.83757735851E+00	-8.00065604989E-01
2.63009223247E+06	-1.52219916209E+01	1.72159699141E+02	2.03470993862E+01	1.51714302279E+02	-4.24458825313E+01	1.46538062466E+02	-5.79638266101E+00	-9.11420191790E-01
2.65228358707E+06	-1.90961966554E+01	-1.35843501874E+02	2.03894798953E+01	1.51405576144E+02	-3.73585342550E+01	7.75402804887E+01	-5.83552202357E+00	-2.10568568156E+00
2.67447494166E+06	-1.87317341372E+01	1.78829806257E+02	2.03471447889E+01	1.51212030029E+02	-4.25727182342E+01	9.15114790271E+01	-5.81616093927E+00	-1.91871956008E+00
2.69666629626E+06	-1.37974646094E+01	-1.70384860255E+02	2.03471099705E+01	1.50804758914E+02	-5.02523580281E+01	1.65118755337E+02	-5.80053493734E+00	-1.25572375590E+00
2.71885765085E+06	-1.57333293337E+01	-1.72199263277E+02	2.03229840354E+01	1.50718712276E+02	-4.14976706054E+01	1.92640898229E+01	-5.92417357343E+00	-1.39459441158E+00
2.74104900545E+06	-1.65172304387E+01	-1.57665288005E+02	2.03439817983E+01	1.50316100601E+02	-4.74152670400E+01	2.18490653314E+01	-5.86821179115E+00	-1.49606743754E+00
2.76324036004E+06	-2.78507058287E+01	-1.36011141075E+02	2.03753507516E+01	1.50426708851E+02	-5.03592868511E+01	4.33767977805E+01	-5.85459845152E+00	-1.65633527533E+00
2.78543171463E+06	-1.66024698927E+01	-1.51084299085E+02	2.03250855267E+01	1.49949784201E+02	-4.56732380141E+01	-1.36777111969E+02	-5.82526376013E+00	-1.28286855102E+00
2.80762306923E+06	-1.61644176426E+01	1.58058579835E+02	2.03320637617E+01	1.49795720087E+02	-3.92662414011E+01	1.69225012013E+02	-5.75218790851E+00	-1.24813230638E+00
2.82981442382E+06	-1.58782877490E+01	-1.78981898315E+02	2.03051337973E+01	1.49519423549E+02	-3.88208219856E+01	-1.00119823097E+02	-5.82839357147E+00	-5.55854287668E-01
2.85200577842E+06	-1.93642400886E+01	-1.72913638562E+02	2.03194845531E+01	1.49292128943E+02	-4.44352379799E+01	1.55721904737E+02	-5.77459671391E+00	-1.45872839364E+00
2.87419713301E+06	-1.73439934423E+01	-1.77287190233E+02	2.03052064821E+01	1.49072710086E+02	-4.65261732280E+01	-9.59473979499E+01	-5.84442676960E+00	-1.27273855777E+00
