# Hz S DB R 50
! CMT, M5065, 19127446, 24.2.4/2
! Date: 11/8/2024 4:08:37 PM
! Data: Format (Calibration Info)
! Freq	S11:dB/Ang(F2)	S21:dB/Ang(F2)	S12:dB/Ang(F2)	S22:dB/Ang(F2)
3.00000000000E+05	-2.59669168863E+01	-1.31958771902E+02	1.31070602750E+01	-1.77111534227E+02	-5.04873497282E+01	-7.83751457950E+01	-5.82793765733E+00	-2.57796270495E-01
3.22191354595E+05	-2.39552490485E+01	-1.34056253268E+02	1.31108875011E+01	-1.77588779350E+02	-4.49784249110E+01	-9.98135115088E+01	-5.82299497996E+00	-2.70632242195E-01
3.44382709190E+05	-1.40745799285E+01	-1.78709065231E+02	1.30633816759E+01	-1.78000201850E+02	-4.63624844375E+01	-1.63116921153E+02	-5.82168469422E+00	-2.81620548116E-01
3.66574063785E+05	-1.73194399024E+01	1.62990615190E+02	1.30770134436E+01	-1.78186936750E+02	-4.30358392458E+01	3.58542785877E+01	-5.86155007048E+00	-4.81917723301E-01
3.88765418380E+05	-2.02255882386E+01	1.59575548107E+02	1.30789810847E+01	-1.78752761591E+02	-4.09471233936E+01	-5.23781206037E+01	-5.83536916444E+00	-1.40270766066E-02
4.10956772975E+05	-1.51688887498E+01	1.77543116152E+02	1.30724188158E+01	-1.78912584554E+02	-4.68819871486E+01	1.71917019427E+01	-5.85712135055E+00	-4.67040802162E-01
4.33148127570E+05	-1.65325661785E+01	-1.73901192144E+02	1.30622473845E+01	-1.79478370186E+02	-4.93711300473E+01	-7.17953016457E+01	-5.84158266974E+00	-2.22788886715E-01
4.55339482165E+05	-1.52554312435E+01	-1.65008405552E+02	1.30811724726E+01	-1.79896853153E+02	-4.08750040599E+01	1.63858130164E+02	-5.81727886173E+00	-3.19531473170E-01
4.77530836760E+05	-2.61368646610E+01	-1.74401224259E+02	1.31203499280E+01	1.79940656407E+02	-4.00303832477E+01	8.45454072630E+01	-5.81048393503E+00	-5.90610085542E-01
4.99722191355E+05	-2.48165928459E+01	7.54529350701E+01	1.31048898555E+01	1.79720151344E+02	-4.58861251785E+01	-1.21503771771E+01	-5.83256254161E+00	-2.97075754892E-01
5.21913545950E+05	-1.66089678382E+01	-1.76101932192E+02	1.30787596227E+01	1.79361653909E+02	-3.96086357094E+01	-6.11345235686E+01	-5.85981090968E+00	-1.80248771580E-01
5.44104900545E+05	-2.07823342881E+01	-1.53465812968E+02	1.31144620120E+01	1.78979892512E+02	-5.02155498532E+01	-9.49690014307E+01	-5.84418165142E+00	-2.20036535741E-01
5.66296255139E+05	-1.55640159411E+01	1.57387469248E+02	1.30684232377E+01	1.78945638152E+02	-4.30353859202E+01	3.40415896116E+01	-5.83897015222E+00	-4.92155288046E-01
5.88487609734E+05	-1.83197652050E+01	-1.55402476412E+02	1.30839898607E+01	1.78586251358E+02	-4.33832863133E+01	4.56226732947E+01	-5.83770021725E+00	-4.57299476550E-01
6.10678964329E+05	-1.85603942050E+01	1.65151460675E+02	1.30789946381E+01	1.78463053492E+02	-5.44432309820E+01	1.53483168603E+02	-5.81100873006E+00	6.88188194946E-02
6.32870318924E+05	-1.58161338490E+01	-1.62588194613E+02	1.30748413035E+01	1.78100845436E+02	-4.67360054085E+01	1.69752538362E+02	-5.81552304727E+00	-2.25621605526E-01
6.55061673519E+05	-1.46818269284E+01	-1.52403499580E+02	1.30553001498E+01	1.77759092487E+02	-3.55067192333E+01	8.05675517681E+01	-5.83018854816E+00	-5.85592710751E-01
6.77253028114E+05	-1.68302908032E+01	1.72220135630E+02	1.30787346789E+01	1.77771146821E+02	-4.34034736217E+01	-1.54766443425E+02	-5.79895476793E+00	-5.60955833660E-01
6.99444382709E+05	-1.81978340279E+01	-1.75347846092E+02	1.31115657280E+01	1.77569690284E+02	-4.55887293226E+01	1.78358289593E+02	-5.83454772815E+00	-4.53115190874E-01
7.21635737304E+05	-1.60811375444E+01	1.68350512955E+02	1.30579546125E+01	1.77464654792E+02	-4.22595399060E+01	3.44777184811E+01	-5.83873690354E+00	-6.04609110870E-01
7.43827091899E+05	-1.32237893246E+01	1.79095908669E+02	1.30576010445E+01	1.77334463998E+02	-4.99511177398E+01	1.20340470045E+02	-5.82037001113E+00	-3.94666176042E-01
7.66018446494E+05	-1.69055257597E+01	1.67956408907E+02	1.30660791698E+01	1.77121380874E+02	-4.48087116619E+01	1.37424290166E+02	-5.81374974795E+00	-4.31771991155E-01
7.88209801089E+05	-2.71194305763E+01	-1.78001871394E+02	1.30994440414E+01	1.77017513131E+02	-4.09829416672E+01	1.17925046998E+02	-5.78150011215E+00	-7.25304791022E-01
8.10401155684E+05	-1.69930295043E+01	-1.69718805809E+02	1.30635705727E+01	1.76754717301E+02	-4.37826860674E+01	-1.37553149166E+02	-5.83513321254E+00	-2.71116988848E-01
8.32592510279E+05	-1.86011920398E+01	1.51552080704E+02	1.30661982051E+01	1.76652626121E+02	-3.95415135505E+01	-1.50638538720E+02	-5.81012954441E+00	-3.57265514200E-01
8.54783864874E+05	-2.01821458576E+01	1.74659757302E+02	1.30765030722E+01	1.76403396516E+02	-5.50477083736E+01	1.53328157241E+02	-5.84278105734E+00	-4.49052371173E-01
8.76975219469E+05	-2.69735497497E+01	1.60159381335E+02	1.31096843085E+01	1.76217242792E+02	-4.49610296357E+01	3.40694403994E-01	-5.84856182777E+00	-5.74423832883E-01
8.99166574064E+05	-2.30981290305E+01	1.42644103493E+02	1.31239503784E+01	1.76257742591E+02	-4.39675511258E+01	-1.26068824887E+02	-5.83214773525E+00	-3.72005415423E-01
9.21357928659E+05	-1.93756957470E+01	-1.49206213498E+02	1.31044645720E+01	1.75594752303E+02	-4.48759521547E+01	-1.67502071769E+02	-5.82613740847E+00	-6.64397437058E-01
9.43549283254E+05	-2.12083579803E+01	1.71868340344E+02	1.30906565255E+01	1.75582343407E+02	-4.02944426824E+01	6.59224545179E+01	-5.86862434558E+00	-7.00704288434E-01
9.65740637849E+05	-1.51095204957E+01	-1.60291503306E+02	1.30901766605E+01	1.75331624890E+02	-4.43724992180E+01	1.39207367262E+02	-5.82837627000E+00	-5.35235256052E-01
9.87931992444E+05	-1.56898348514E+01	-1.67036403131E+02	1.30821443573E+01	1.75042812656E+02	-3.94863602788E+01	-1.53494574703E+02	-5.83872182569E+00	-3.26765512599E-01
1.01012334704E+06	-2.27556125173E+01	1.71009854095E+02	1.31106807233E+01	1.75091900904E+02	-4.62769864587E+01	-1.73800960936E+02	-5.82127672473E+00	-4.40925393284E-01
1.03231470163E+06	-1.75726003496E+01	-1.58533675440E+02	1.31002787939E+01	1.74844194948E+02	-5.12850895877E+01	-1.66073404942E+02	-5.82177808931E+00	-3.85524671319E-01
1.05450605623E+06	-1.61005382771E+01	-1.67363023517E+02	1.30743638723E+01	1.74882212077E+02	-4.69570819296E+01	-3.63446886057E+01	-5.84042816836E+00	-5.46846706677E-01
1.07669741082E+06	-1.58819010334E+01	1.74193784305E+02	1.30772028609E+01	1.74164236030E+02	-4.04185023664E+01	-1.59629818773E+02	-5.82773148640E+00	-3.22773827442E-01
1.09888876542E+06	-1.68112357989E+01	1.60650225967E+02	1.30943070578E+01	1.74606108633E+02	-5.26414701071E+01	-1.04767566170E+02	-5.86588567875E+00	-5.75893218368E-01
1.12108012001E+06	-1.04344650167E+01	1.77084466158E+02	1.30245228150E+01	1.74264762352E+02	-3.74504031990E+01	6.72431026965E+01	-5.84116052254E+00	-8.19951438908E-01
1.14327147461E+06	-1.56272793150E+01	1.72390334176E+02	1.30574900227E+01	1.74238952399E+02	-4.30492836604E+01	3.59852078965E+00	-5.87156354239E+00	-6.46060768745E-01
1.16546282920E+06	-1.73012197909E+01	1.79857139156E+02	1.30607306252E+01	1.74193294405E+02	-4.96402349572E+01	-1.15847338401E+02	-5.83392601241E+00	-5.68377216803E-01
1.18765418380E+06	-2.36910224339E+01	1.41983641398E+02	1.30787742907E+01	1.73968294067E+02	-4.35335293774E+01	5.25507597482E+01	-5.85879482633E+00	-8.43874634361E-01
1.20984553839E+06	-1.46991742620E+01	1.72011803055E+02	1.30651051061E+01	1.73689875154E+02	-5.40373675185E+01	-1.64866273222E+02	-5.81677679624E+00	-8.10092527457E-01
1.23203689299E+06	-2.06148553309E+01	-1.42618947442E+02	1.30734465625E+01	1.73232415433E+02	-4.18489906281E+01	6.40781345683E+01	-5.83009667640E+00	-5.73494426993E-01
1.25422824758E+06	-1.85051836117E+01	-1.78156908970E+02	1.30584554817E+01	1.73468538951E+02	-4.28155042920E+01	1.50378810785E+02	-5.84172444065E+00	-6.01588114638E-01
1.27641960218E+06	-1.37551549579E+01	-1.74638556936E+02	1.30607679600E+01	1.73216030891E+02	-5.00613739463E+01	-2.01576658574E+01	-5.86119948381E+00	-6.48215424528E-01
1.29861095677E+06	-1.40195922373E+01	1.66592156661E+02	1.30396465930E+01	1.73307602414E+02	-4.55073745144E+01	-6.54955587245E+01	-5.83845131606E+00	-5.01166598712E-01
1.32080231137E+06	-1.57595313693E+01	1.75023732866E+02	1.30927662002E+01	1.72957030228E+02	-4.85073961952E+01	-3.37418979179E+01	-5.84433005110E+00	-9.69197428532E-01
1.34299366596E+06	-1.54147461869E+01	-1.59776624918E+02	1.30904123778E+01	1.72507739200E+02	-5.26517289363E+01	-6.91994570044E+01	-5.83740876231E+00	-6.89244396394E-01
1.36518502056E+06	-1.73947255851E+01	1.67242089019E+02	1.30958742209E+01	1.72604126551E+02	-6.39053569942E+01	5.65246104465E+01	-5.82998965784E+00	-7.47440218049E-01
1.38737637515E+06	-2.10843511006E+01	1.70173912139E+02	1.30873039339E+01	1.72472853582E+02	-5.94197425520E+01	6.26298515457E+01	-5.84849058357E+00	-8.86409718050E-01
1.40956772975E+06	-2.00991381138E+01	1.68412441611E+02	1.30917552542E+01	1.72327683036E+02	-5.22501127190E+01	1.55346347101E+02	-5.82549483011E+00	-6.57861659908E-01
1.43175908434E+06	-1.68369649896E+01	1.38660811608E+02	1.30719935194E+01	1.72251151885E+02	-4.49796664902E+01	1.37168550900E+02	-5.81339248473E+00	-6.03130935509E-01
1.45395043894E+06	-1.59418876225E+01	1.76252155851E+02	1.30486092159E+01	1.71919095489E+02	-3.52876475150E+01	-1.67569308858E+02	-5.80951198347E+00	-5.98246332074E-01
1.47614179353E+06	-1.59151454112E+01	1.63829562302E+02	1.30781282033E+01	1.71932758272E+02	-4.40986410623E+01	-9.67602825805E+01	-5.83565943177E+00	-7.41369989247E-01
1.49833314813E+06	-2.36576847081E+01	-1.59108473319E+02	1.30796306099E+01	1.71797692865E+02	-4.24828868363E+01	6.48479334599E+00	-5.87168201465E+00	-6.97786022091E-01
1.52052450272E+06	-1.67081219933E+01	1.53506953225E+02	1.30679233186E+01	1.71760188887E+02	-5.81228475011E+01	-1.30887514238E+02	-5.86067929746E+00	-8.45418357330E-01
1.54271585732E+06	-1.94857751251E+01	-1.26672499549E+02	1.31153347438E+01	1.71306854666E+02	-4.04925199830E+01	-1.32618755827E+02	-5.81412279884E+00	-3.59503743027E-01
1.56490721191E+06	-1.55597468904E+01	-1.77548755072E+02	1.30802772515E+01	1.71154894991E+02	-4.23164368039E+01	-4.12800460976E+01	-5.86655328747E+00	-6.35258689847E-01
1.58709856651E+06	-2.00757363328E+01	1.48588642046E+02	1.30906549081E+01	1.71262270233E+02	-4.69926495603E+01	3.46044949045E+01	-5.84416059699E+00	-7.71357955498E-01
1.60928992110E+06	-1.78836723578E+01	-1.60773241020E+02	1.30824354782E+01	1.70958324149E+02	-4.95393423103E+01	9.20240787327E+01	-5.82179326742E+00	-9.33942118706E-01
1.63148127570E+06	-1.85112789193E+01	-1.79244676322E+02	1.30690958649E+01	1.70881574589E+02	-5.82180433143E+01	-3.39306052539E+01	-5.81401281956E+00	-8.61592276070E-01
1.65367263029E+06	-1.93775088416E+01	1.57338317842E+02	1.30761267755E+01	1.70793875808E+02	-4.78999202169E+01	-6.41046228460E+01	-5.84111926975E+00	-8.47740722999E-01
1.67586398489E+06	-2.35055081097E+01	1.49425828686E+02	1.30995333769E+01	1.70789019219E+02	-4.78467121454E+01	1.37919495793E+02	-5.81762507266E+00	-9.60027508108E-01
1.69805533948E+06	-2.18197337738E+01	1.57715927666E+02	1.30873821180E+01	1.70379122381E+02	-4.34496628438E+01	-1.01853095892E+02	-5.85730400717E+00	-5.77388530075E-01
1.72024669408E+06	-1.46607354905E+01	-1.61677296698E+02	1.30873131902E+01	1.69880949560E+02	-5.00892012370E+01	-1.29931359932E+02	-5.82209529793E+00	-8.92316739568E-01
1.74243804867E+06	-2.28911963245E+01	1.50474247830E+02	1.31109784605E+01	1.70064992204E+02	-4.72597293028E+01	1.30358011618E+02	-5.82628072123E+00	-9.36272315018E-01
1.76462940327E+06	-2.43917193713E+01	1.30531424974E+02	1.31219357321E+01	1.70081060762E+02	-4.87939054417E+01	-1.41187658645E+02	-5.84186879482E+00	-7.90699901667E-01
1.78682075786E+06	-2.20689685507E+01	1.60732892725E+02	1.30811447623E+01	1.69867015013E+02	-4.84381558980E+01	1.15880836788E+02	-5.82552726928E+00	-9.98247924500E-01
1.80901211246E+06	-1.82809583102E+01	1.59344241018E+02	1.30578052282E+01	1.69769666619E+02	-5.53122352979E+01	-1.73542468926E+02	-5.84684282903E+00	-9.01367764679E-01
1.83120346705E+06	-1.83864821199E+01	1.51639314101E+02	1.30846308992E+01	1.69682660876E+02	-5.14388845181E+01	7.02950666325E+01	-5.83446770238E+00	-1.03106843531E+00
1.85339482165E+06	-2.88691956034E+01	-1.71115839011E+02	1.31035445348E+01	1.69517613248E+02	-3.86805275061E+01	-1.55692050318E+02	-5.79754858129E+00	-7.19502933800E-01
1.87558617624E+06	-1.48560945881E+01	1.66391735608E+02	1.30731482548E+01	1.69259014775E+02	-4.45921948016E+01	-7.37735190771E+01	-5.84492018090E+00	-8.65628499476E-01
1.89777753084E+06	-1.54578042682E+01	1.71647282942E+02	1.30566382666E+01	1.69071260330E+02	-4.11337224294E+01	-6.38833852417E+01	-5.87689721465E+00	-7.57129593715E-01
1.91996888543E+06	-1.15300528594E+01	1.75766723096E+02	1.30351470122E+01	1.68811630403E+02	-3.39882225136E+01	-2.26059527644E+01	-5.90494584662E+00	-9.92955553821E-01
1.94216024003E+06	-1.76918204240E+01	-1.63733936148E+02	1.30729692325E+01	1.68673875885E+02	-4.70987360379E+01	-5.64642249810E+01	-5.85497631763E+00	-9.96395303597E-01
1.96435159462E+06	-2.12580831774E+01	-1.39119372423E+02	1.31046825693E+01	1.68564980115E+02	-4.59296207346E+01	-5.97933919331E+01	-5.85244519809E+00	-8.41875449090E-01
1.98654294922E+06	-1.85196634302E+01	1.72234139800E+02	1.30800404980E+01	1.68567539895E+02	-4.27673056981E+01	-1.45905343174E+02	-5.81979268742E+00	-9.11645802871E-01
2.00873430381E+06	-1.89160810889E+01	-1.71514720253E+02	1.30935608144E+01	1.68428307312E+02	-4.50537204156E+01	-5.33629382346E+01	-5.87195068548E+00	-9.06825425385E-01
2.03092565841E+06	-1.59598730655E+01	1.73814666995E+02	1.30995505568E+01	1.68132891904E+02	-4.21128089063E+01	1.76202024993E+02	-5.78116396885E+00	-1.05009989846E+00
2.05311701300E+06	-7.60555923109E+00	1.72763475269E+02	1.30212778665E+01	1.67646233853E+02	-3.57741291629E+01	-3.78597442888E+01	-5.88143668219E+00	-9.33140674124E-01
2.07530836760E+06	-2.02534437642E+01	-6.22159425181E+01	1.31461178171E+01	1.68038682552E+02	-3.59014571779E+01	-7.94677789022E+01	-5.87067510468E+00	-8.82392455862E-01
2.09749972219E+06	-1.95539437068E+01	-1.43873132227E+02	1.31142435778E+01	1.67622765117E+02	-5.51099997802E+01	1.58426292501E+02	-5.84101174487E+00	-1.00278609135E+00
2.11969107679E+06	-1.66637974086E+01	-1.71662409847E+02	1.30823735210E+01	1.67564384917E+02	-5.42978055007E+01	1.59464907414E+02	-5.83888074680E+00	-1.08563139472E+00
2.14188243138E+06	-1.96307547579E+01	-1.57114126480E+02	1.30947841254E+01	1.67331268029E+02	-3.97335356956E+01	1.39127950892E+02	-5.78820178455E+00	-1.22021480487E+00
2.16407378598E+06	-1.42538830846E+01	-1.57796581307E+02	1.30698118531E+01	1.67060180568E+02	-4.37860181800E+01	2.86304439781E+01	-5.85016736423E+00	-1.23798160184E+00
2.18626514057E+06	-1.78449462423E+01	1.29887769269E+02	1.30688932990E+01	1.67521290639E+02	-4.92171716874E+01	7.36815524021E-01	-5.84696284616E+00	-1.04071618165E+00
2.20845649517E+06	-1.26598102982E+01	-1.56873084138E+02	1.30808678320E+01	1.66826781640E+02	-4.81990788826E+01	-3.99051760848E+01	-5.86344121272E+00	-1.09823591734E+00
2.23064784976E+06	-1.18558056687E+01	1.33799891652E+02	1.30412576987E+01	1.67058439721E+02	-2.78375708577E+01	1.55569207000E+02	-5.73292441909E+00	-7.39083014605E-01
2.25283920436E+06	-1.69025070399E+01	1.67063250713E+02	1.30818247569E+01	1.67022913716E+02	-4.19302828358E+01	1.22930012458E+02	-5.81334557957E+00	-1.17620410581E+00
2.27503055895E+06	-1.99426310907E+01	1.72167750487E+02	1.30945229947E+01	1.66704238936E+02	-4.85155733876E+01	-1.21189838956E+02	-5.82846817107E+00	-1.12700175733E+00
2.29722191355E+06	-1.74656675648E+01	1.60646781491E+02	1.30796628491E+01	1.66705331543E+02	-4.33360646183E+01	-1.05006940801E+02	-5.85842634161E+00	-9.47625066675E-01
2.31941326814E+06	-1.44657709504E+01	-1.69944216364E+02	1.30797993886E+01	1.66234331331E+02	-4.12639004260E+01	-8.48687589399E+01	-5.84199227510E+00	-9.48919062176E-01
2.34160462274E+06	-1.81098182721E+01	-1.50245022909E+02	1.31020495080E+01	1.65917237800E+02	-4.66057705547E+01	-1.33572111367E+02	-5.82052651716E+00	-9.89172386925E-01
2.36379597733E+06	-1.93493113342E+01	1.34970287647E+02	1.30704593732E+01	1.66434399993E+02	-3.77245271196E+01	-3.49115747358E+00	-5.87147548032E+00	-1.23600891342E+00
2.38598733193E+06	-1.13378947764E+01	6.28727570190E+01	1.30785013201E+01	1.66526180421E+02	-3.57050688594E+01	-3.12523162748E+01	-5.89756860078E+00	-1.26596849324E+00
2.40817868652E+06	-1.76905182897E+01	-1.57909050680E+02	1.31184824240E+01	1.65716779312E+02	-4.15550612547E+01	-8.62646669695E+01	-5.84233720959E+00	-1.09716476817E+00
2.43037004112E+06	-1.93552863748E+01	-1.25847405055E+02	1.31441506847E+01	1.65551501392E+02	-4.34884668101E+01	-1.07692299071E+02	-5.82352279646E+00	-1.26868176576E+00
2.45256139571E+06	-1.73881479289E+01	-1.68665238682E+02	1.30842900393E+01	1.65374423922E+02	-4.72207184951E+01	1.03078489313E+01	-5.85964575632E+00	-1.22314833744E+00
2.47475275031E+06	-1.89470349073E+01	1.48433070461E+02	1.30734272335E+01	1.65809959428E+02	-4.48351633319E+01	-3.73183343352E+01	-5.88155419368E+00	-1.29364173214E+00
2.49694410490E+06	-1.45688519981E+01	-1.75657421945E+02	1.30600527879E+01	1.65110899822E+02	-5.03799530623E+01	-1.00981913078E+01	-5.83243129917E+00	-1.27778311121E+00
2.51913545950E+06	-2.36042045649E+01	-1.20833591537E+02	1.31218496112E+01	1.65215603301E+02	-4.46438241817E+01	-3.00428938946E+01	-5.87693254909E+00	-1.19908713866E+00
2.54132681409E+06	-1.35793141713E+01	-9.48109133960E+01	1.31739476297E+01	1.64842369930E+02	-2.75541411796E+01	-1.69364506071E+02	-5.78459623234E+00	-6.72513728179E-01
2.56351816869E+06	-1.78254465444E+01	-1.61378572942E+02	1.30824372132E+01	1.64666373032E+02	-5.44508395346E+01	-8.08798442817E+01	-5.84860236992E+00	-1.17011776256E+00
2.58570952328E+06	-1.79566628197E+01	-1.62417043094E+02	1.30874291116E+01	1.64659659716E+02	-4.37037496238E+01	-2.81920410030E+00	-5.90880430653E+00	-1.31580253946E+00
2.60790087788E+06	-2.21742639051E+01	-1.43534858564E+02	1.31229438124E+01	1.64441402173E+02	-5.57472176386E+01	2.71963102942E+01	-5.85308291060E+00	-1.20573634943E+00
2.63009223247E+06	-1.57851765322E+01	-1.55019584341E+02	1.31065414710E+01	1.64189180028E+02	-5.17650014275E+01	-6.20341701751E+00	-5.84727681338E+00	-9.65227397660E-01
2.65228358707E+06	-1.71591834475E+01	-1.51013493775E+02	1.31120676881E+01	1.64164258398E+02	-4.51901098569E+01	1.51054300113E+02	-5.81735943359E+00	-1.43439248157E+00
2.67447494166E+06	-2.71850702858E+01	-3.47361366265E+01	1.31350705621E+01	1.64378780813E+02	-3.96965168094E+01	-1.12770328098E+02	-5.83186752762E+00	-1.26563884430E+00
2.69666629626E+06	-1.64028977907E+01	-1.73628189252E+02	1.31045242155E+01	1.63899235129E+02	-4.50685942799E+01	1.15701302208E+02	-5.82262292512E+00	-1.27786681156E+00
2.71885765085E+06	-2.10053464523E+01	-1.70351585507E+02	1.31115572371E+01	1.63773960831E+02	-4.63540741023E+01	8.11099179879E+01	-5.84720342876E+00	-1.44264614614E+00
2.74104900545E+06	-1.81295657738E+01	1.64350925311E+02	1.30962562498E+01	1.63604829351E+02	-4.17935955716E+01	1.91662578331E+01	-5.87698456108E+00	-1.52581964094E+00
2.76324036004E+06	-1.59071388293E+01	-1.73069665632E+02	1.30949824268E+01	1.63482320772E+02	-4.46310441262E+01	-1.56878340499E+02	-5.83103952648E+00	-1.24177238397E+00
2.78543171463E+06	-1.79316023540E+01	-1.63156917888E+02	1.31240308865E+01	1.63347158723E+02	-5.09195542644E+01	-5.06462207285E+01	-5.84389264491E+00	-1.41993530810E+00
2.80762306923E+06	-1.71788459100E+01	1.68417586851E+02	1.30850357374E+01	1.63395786470E+02	-3.82332899424E+01	-5.93520078025E+01	-5.88487194636E+00	-1.06693883240E+00
2.82981442382E+06	-1.99926194804E+01	-9.35005608025E+01	1.31697135650E+01	1.63092573700E+02	-5.48034182809E+01	1.32806965456E+02	-5.82395756498E+00	-1.47723163706E+00
2.85200577842E+06	-1.31382748326E+01	-1.72012795390E+02	1.30835841562E+01	1.62778633907E+02	-4.04788362268E+01	5.09929958190E+01	-5.84338031078E+00	-1.59314249717E+00
2.87419713301E+06	-1.91436730851E+01	-1.62682738356E+02	1.31402432657E+01	1.62757336617E+02	-4.21514569345E+01	-1.34148248534E+02	-5.82907133835E+00	-1.06236738038E+00
