# Hz S DB R 50
! CMT, M5065, 19127446, 24.2.4/2
! Date: 11/8/2024 4:06:22 PM
! Data: Format (Calibration Info)
! Freq	S11:dB/Ang(F2)	S21:dB/Ang(F2)	S12:dB/Ang(F2)	S22:dB/Ang(F2)
3.00000000000E+05	-1.68773271797E+01	1.79227221562E+02	1.19794699312E+01	-1.77342632266E+02	-4.17847113226E+01	1.09314559485E+02	-5.84171024582E+00	-3.10252046446E-01
3.22191354595E+05	-2.00830883900E+01	1.73130643177E+02	1.20430051487E+01	-1.77753821105E+02	-5.28567554688E+01	1.69786891676E+02	-5.81967962626E+00	-3.96488992337E-01
3.44382709190E+05	-1.64587682075E+01	-1.67313892664E+02	1.20286399986E+01	-1.78074303618E+02	-4.82733274669E+01	7.16766795119E+01	-5.83889861399E+00	-4.06906259743E-01
3.66574063785E+05	-2.06196155528E+01	-1.73296764070E+02	1.20063367935E+01	-1.78306127986E+02	-5.91699485470E+01	-1.34189653833E+02	-5.82840350831E+00	-3.21939944250E-01
3.88765418380E+05	-1.78696921091E+01	1.79700258877E+02	1.20192978050E+01	-1.78992184077E+02	-4.86341194323E+01	1.07501679140E+02	-5.83711076088E+00	-3.69723391914E-01
4.10956772975E+05	-1.58818365532E+01	-1.60863062034E+02	1.20197692343E+01	-1.79357050653E+02	-4.84888446248E+01	-8.31853811768E+01	-5.84693749251E+00	-1.87414719987E-01
4.33148127570E+05	-1.78923725163E+01	1.57081092355E+02	1.20052195760E+01	-1.79152454323E+02	-5.18414901362E+01	1.04017515636E+01	-5.83866342356E+00	-3.67093194204E-01
4.55339482165E+05	-2.19620172404E+01	-1.60700630628E+02	1.20502552918E+01	-1.79686980453E+02	-4.09008179710E+01	1.68770958814E+02	-5.80485785216E+00	-4.47611101644E-01
4.77530836760E+05	-1.63991708235E+01	1.65701231620E+02	1.20206348176E+01	-1.79883756487E+02	-4.53489827362E+01	1.73053581577E+02	-5.81964234067E+00	-3.25102024982E-01
4.99722191355E+05	-1.75478159679E+01	1.44416578211E+02	1.19891444361E+01	1.79929544284E+02	-4.27536995915E+01	-1.36099104638E+02	-5.83795255763E+00	-4.21132191151E-01
5.21913545950E+05	-1.40996650100E+01	-1.61887017424E+02	1.20012901546E+01	1.79577383833E+02	-3.78540448502E+01	-9.56711648249E+01	-5.84923091325E+00	-5.38471570234E-02
5.44104900545E+05	-1.78590793368E+01	-1.59236416998E+02	1.20250854050E+01	1.79070107403E+02	-4.31638916814E+01	4.38072922712E+00	-5.85342417159E+00	-2.98060343278E-01
5.66296255139E+05	-1.70953579764E+01	-1.77191398973E+02	1.20429899504E+01	1.78997175675E+02	-4.88868529812E+01	1.36477349058E+02	-5.83221870784E+00	-4.03770560662E-01
5.88487609734E+05	-2.11868189373E+01	-1.32105063119E+02	1.20634253419E+01	1.78619297158E+02	-4.92727657741E+01	1.56717833133E+02	-5.81501940427E+00	-5.02558984159E-01
6.10678964329E+05	-1.70571573345E+01	1.51622352909E+02	1.19975325371E+01	1.78694107465E+02	-3.94760133314E+01	1.73470960607E+02	-5.80754892675E+00	1.81604515285E-01
6.32870318924E+05	-1.73199419755E+01	1.65394651394E+02	1.20004131726E+01	1.78542795986E+02	-4.12409002109E+01	-6.36154623203E+01	-5.86400728502E+00	-1.00699401859E-02
6.55061673519E+05	-1.36909052979E+01	1.55956637371E+02	1.19967912608E+01	1.78329608726E+02	-4.15653652497E+01	-7.91024176987E+01	-5.85506985450E+00	-2.50375106558E-01
6.77253028114E+05	-2.49295906223E+01	1.64467131731E+02	1.20626168441E+01	1.77992023283E+02	-5.77125195659E+01	2.82616203910E+01	-5.83234015253E+00	-8.07296369775E-01
6.99444382709E+05	-1.59221072064E+01	1.74594764584E+02	1.20298188728E+01	1.77869323958E+02	-4.24843839224E+01	-4.57885993641E+01	-5.84874785169E+00	-3.53927270195E-01
7.21635737304E+05	-1.85749828902E+01	-1.75355177848E+02	1.20306427859E+01	1.77643298000E+02	-4.07745350513E+01	-1.34195956158E+02	-5.81711358642E+00	-2.40847759919E-01
7.43827091899E+05	-1.70116247602E+01	-1.72735960204E+02	1.20356039827E+01	1.77497609762E+02	-5.26211198478E+01	5.50848627522E+01	-5.82803733896E+00	-5.94482684602E-01
7.66018446494E+05	-1.57506025820E+01	-1.77525340049E+02	1.20058076896E+01	1.77186967532E+02	-4.16686987224E+01	-1.67337698335E+02	-5.84148808921E+00	-3.65920360226E-01
7.88209801089E+05	-1.71019506230E+01	-1.57051578110E+02	1.20380858360E+01	1.76789672309E+02	-4.46165997768E+01	-6.12360692120E+00	-5.84533186645E+00	-4.66455228306E-01
8.10401155684E+05	-1.41873124878E+01	1.75124835722E+02	1.20192718850E+01	1.76841147550E+02	-5.59649874034E+01	-3.09278040990E+01	-5.84689081128E+00	-5.15915984297E-01
8.32592510279E+05	-2.18569680708E+01	-1.60827615224E+02	1.20188936108E+01	1.76528267581E+02	-4.27966469982E+01	7.88197768286E+01	-5.82084360549E+00	-6.02441981742E-01
8.54783864874E+05	-2.18130941757E+01	1.75291849301E+02	1.20371197620E+01	1.76639390707E+02	-5.54932644243E+01	1.71045985934E+02	-5.83883569546E+00	-3.72442048664E-01
8.76975219469E+05	-1.30021456273E+01	1.52212021696E+02	1.19849793027E+01	1.76626675077E+02	-4.71164036516E+01	9.91872239137E+01	-5.82264851313E+00	-5.47625975066E-01
8.99166574064E+05	-1.55082576307E+01	-1.71288216768E+02	1.20122029321E+01	1.75962151593E+02	-4.83898779884E+01	-5.52837559114E+01	-5.85468198810E+00	-3.69244815763E-01
9.21357928659E+05	-1.47063534299E+01	-1.75041605444E+02	1.20159423007E+01	1.76167832065E+02	-4.87703796822E+01	-8.07418161633E+00	-5.86163688578E+00	-5.01848202298E-01
9.43549283254E+05	-1.66052328024E+01	-1.63736692673E+02	1.20066953175E+01	1.75777659795E+02	-4.76978553312E+01	-8.35684943266E+01	-5.82242193314E+00	-4.39893342350E-01
9.65740637849E+05	-2.03089395214E+01	-1.54790252016E+02	1.20698420276E+01	1.75606737904E+02	-4.08770086985E+01	-1.60979150878E+02	-5.81816272538E+00	-3.99116228052E-01
9.87931992444E+05	-1.88678489268E+01	-1.50971851914E+02	1.20662892001E+01	1.75598664254E+02	-3.65811530637E+01	5.14406473261E+01	-5.84816998161E+00	-9.20565136958E-01
1.01012334704E+06	-1.75956940885E+01	-1.70529644435E+02	1.20273779988E+01	1.75434663621E+02	-3.74434109171E+01	8.59951492348E+01	-5.82487809246E+00	-6.48327031322E-01
1.03231470163E+06	-1.92415207567E+01	-1.78484578472E+02	1.20349196688E+01	1.75365069245E+02	-3.92061340472E+01	-1.06448142731E+02	-5.84556245383E+00	-4.69572768484E-01
1.05450605623E+06	-1.92244482279E+01	-1.44423950007E+02	1.20551843944E+01	1.74992730794E+02	-4.25779159831E+01	8.64962270137E+01	-5.84210064263E+00	-7.46045375196E-01
1.07669741082E+06	-1.79538515070E+01	1.75355746603E+02	1.20410042475E+01	1.74987010371E+02	-4.97899753306E+01	3.31796808430E+00	-5.85467247526E+00	-5.80193709741E-01
1.09888876542E+06	-1.70338016529E+01	-1.75170350775E+02	1.20228341417E+01	1.74856248787E+02	-4.46961142716E+01	-3.37258790935E+01	-5.85061350767E+00	-5.76968024867E-01
1.12108012001E+06	-1.53489857276E+01	1.76515693549E+02	1.20117000392E+01	1.74640403686E+02	-4.64106809647E+01	-8.21765714528E+01	-5.85046425586E+00	-4.35877809743E-01
1.14327147461E+06	-2.16394735159E+01	-1.73018141252E+02	1.20292562797E+01	1.74537920065E+02	-3.82547772084E+01	4.07236963708E+01	-5.85609925601E+00	-8.19874714152E-01
1.16546282920E+06	-2.14702475704E+01	-1.78023357736E+02	1.20319093445E+01	1.74431996120E+02	-4.73009249319E+01	-4.72190973635E+01	-5.85093769562E+00	-6.13441568099E-01
1.18765418380E+06	-1.82407410167E+01	-1.68629308589E+02	1.20374137280E+01	1.74192391172E+02	-5.33776695686E+01	3.12190985738E+01	-5.86126089680E+00	-7.74521608490E-01
1.20984553839E+06	-1.37787320347E+01	-1.65653860943E+02	1.20239581368E+01	1.73787578847E+02	-4.60752414701E+01	5.56603389342E+00	-5.84358582675E+00	-8.68013374751E-01
1.23203689299E+06	-3.54706106216E+01	-4.02237063875E+01	1.20818129009E+01	1.73961616852E+02	-4.77811319974E+01	-8.61737650561E+01	-5.85713585796E+00	-4.16686036953E-01
1.25422824758E+06	-1.75136583288E+01	-1.36652927121E+02	1.20561753761E+01	1.73652071109E+02	-5.36093110276E+01	-3.23417775956E+01	-5.85507646452E+00	-6.51686315519E-01
1.27641960218E+06	-1.20510890785E+01	1.71724251136E+02	1.19746075489E+01	1.73546373363E+02	-4.66324693348E+01	-6.29163095979E+01	-5.86103816689E+00	-6.27480688929E-01
1.29861095677E+06	-1.54564192344E+01	-1.58628377191E+02	1.20144626838E+01	1.73436409983E+02	-4.62233058134E+01	8.37481050816E+01	-5.84023316078E+00	-6.30058330869E-01
1.32080231137E+06	-1.94093001958E+01	1.74695591545E+02	1.20298042817E+01	1.73348118674E+02	-3.20576200591E+01	1.50296552970E+02	-5.79173479024E+00	-1.08671215798E+00
1.34299366596E+06	-1.50466139359E+01	-1.79304417535E+02	1.20163051576E+01	1.73255734173E+02	-4.25294965718E+01	6.66571667720E+01	-5.83891305962E+00	-8.13816625711E-01
1.36518502056E+06	-2.53490013230E+01	-1.71446818664E+02	1.20317826146E+01	1.73021888517E+02	-5.25143363883E+01	-1.12392398578E+02	-5.84088547275E+00	-5.38040094258E-01
1.38737637515E+06	-1.46997815853E+01	1.71627613906E+02	1.19961294974E+01	1.72963945595E+02	-4.15965028874E+01	1.33862893237E+02	-5.81453107105E+00	-7.97947923083E-01
1.40956772975E+06	-1.49466671625E+01	-1.72925900766E+02	1.20405597106E+01	1.72889986577E+02	-4.73297207650E+01	1.09047479236E+02	-5.83050103360E+00	-7.84189686352E-01
1.43175908434E+06	-1.79056614135E+01	1.57644345426E+02	1.20173477217E+01	1.72734516222E+02	-4.44529089761E+01	-1.69468448916E+02	-5.82635430613E+00	-6.41861373830E-01
1.45395043894E+06	-1.60929961600E+01	1.73802156095E+02	1.19849378389E+01	1.72603756173E+02	-4.19374324773E+01	1.48106143810E+02	-5.80902895546E+00	-7.65934853658E-01
1.47614179353E+06	-1.70337000915E+01	-1.77827657079E+02	1.20366448312E+01	1.72284302983E+02	-3.85738202707E+01	1.39322646927E+02	-5.80807854446E+00	-9.20944658511E-01
1.49833314813E+06	-2.31110812948E+01	-1.48380386658E+02	1.20730701873E+01	1.72186839729E+02	-5.13759096559E+01	9.70217636340E+01	-5.82532664668E+00	-7.83108386361E-01
1.52052450272E+06	-1.72617454796E+01	-1.71049985743E+02	1.20228140197E+01	1.71921014052E+02	-4.57933022519E+01	-1.74122283757E+02	-5.82594112856E+00	-6.28216189983E-01
1.54271585732E+06	-1.64361528803E+01	1.67824837152E+02	1.20333249034E+01	1.71932628814E+02	-4.61914395599E+01	1.81098299046E+01	-5.85081715078E+00	-8.93053311731E-01
1.56490721191E+06	-2.18897037869E+01	-1.56314976468E+02	1.20484365797E+01	1.71764004977E+02	-4.61775993849E+01	1.58669319490E+02	-5.83496921326E+00	-8.06636072660E-01
1.58709856651E+06	-1.83472132553E+01	-1.53427851182E+02	1.20521394572E+01	1.71709381518E+02	-4.78986148022E+01	-1.83732671978E+01	-5.86131771820E+00	-8.50975822006E-01
1.60928992110E+06	-1.06831542107E+01	1.42259627612E+02	1.19654052321E+01	1.71864140084E+02	-5.14227317271E+01	-1.72434575182E+02	-5.82654049117E+00	-7.64274128273E-01
1.63148127570E+06	-2.47328903614E+01	1.53928265557E+02	1.20629067349E+01	1.71455844435E+02	-4.04135165325E+01	1.29345340904E+02	-5.82470675168E+00	-9.91556967770E-01
1.65367263029E+06	-1.62099968985E+01	1.79018190676E+02	1.20305923294E+01	1.71334186005E+02	-4.92523460621E+01	1.78196222297E+02	-5.83519580800E+00	-8.11124869912E-01
1.67586398489E+06	-1.63235286243E+01	1.79325942503E+02	1.20312128198E+01	1.71086059012E+02	-5.32524329136E+01	1.57784111917E+02	-5.84262809663E+00	-9.26445893992E-01
1.69805533948E+06	-1.49123064503E+01	-1.76658513114E+02	1.20256480164E+01	1.70836723160E+02	-4.71488309946E+01	2.12813787823E+01	-5.84362918081E+00	-8.11927920196E-01
1.72024669408E+06	-1.64477370753E+01	1.61268221563E+02	1.20267669665E+01	1.70977999693E+02	-4.02429075993E+01	5.45746996898E+01	-5.84848778579E+00	-1.09572123912E+00
1.74243804867E+06	-1.98092524907E+01	-1.29011238848E+02	1.20707774909E+01	1.70612866559E+02	-5.76340838007E+01	1.70124250534E+02	-5.80477609720E+00	-8.45639935857E-01
1.76462940327E+06	-1.27663608596E+01	1.62864080756E+02	1.19908624985E+01	1.70828033025E+02	-4.25379890158E+01	-1.14515689869E+02	-5.82233276078E+00	-7.94924025580E-01
1.78682075786E+06	-1.86165155835E+01	1.77878719678E+02	1.20400068603E+01	1.70563566950E+02	-3.51970701332E+01	6.46054177476E+00	-5.89585161769E+00	-1.13502818650E+00
1.80901211246E+06	-1.89987419466E+01	1.77614226035E+02	1.20394807594E+01	1.70306837111E+02	-3.67299005307E+01	1.68324295663E+02	-5.78269723032E+00	-8.15153833917E-01
1.83120346705E+06	-2.09249445988E+01	-1.48099536334E+02	1.20399149965E+01	1.70203570879E+02	-6.95961191761E+01	-7.48363928068E+01	-5.86333068168E+00	-9.67800582919E-01
1.85339482165E+06	-1.59275333644E+01	-1.62769993567E+02	1.20130679738E+01	1.70131694183E+02	-4.61500304722E+01	1.06888928611E+02	-5.83139011959E+00	-9.60362183356E-01
1.87558617624E+06	-1.74620024461E+01	-1.46817169556E+02	1.20609441747E+01	1.69766638702E+02	-4.12185095311E+01	-1.07100836355E+02	-5.84913633203E+00	-9.30303882360E-01
1.89777753084E+06	-1.20063101387E+01	-1.71115840708E+02	1.20329830917E+01	1.69509624826E+02	-4.32940377688E+01	1.37054079002E+02	-5.80004777908E+00	-1.06323928466E+00
1.91996888543E+06	-1.48086770514E+01	-1.27363841073E+02	1.20610210152E+01	1.69559193780E+02	-4.50090676845E+01	-1.18561836307E+02	-5.83763480867E+00	-8.84954668960E-01
1.94216024003E+06	-1.68919944015E+01	-1.75026125885E+02	1.20205354282E+01	1.69510257335E+02	-4.20178898660E+01	7.01390607268E+01	-5.78344892001E+00	-1.23022450082E+00
1.96435159462E+06	-1.72511681265E+01	1.48578840676E+02	1.20152370366E+01	1.69611425411E+02	-5.06988243964E+01	7.41351204558E+01	-5.85406064464E+00	-1.08718153490E+00
1.98654294922E+06	-2.00916313297E+01	-1.74547867888E+02	1.20548281385E+01	1.69304916808E+02	-3.96373711646E+01	1.32569276389E+02	-5.78959874281E+00	-1.10949915636E+00
2.00873430381E+06	-1.99644387861E+01	1.68649918783E+02	1.20298455011E+01	1.69220773983E+02	-4.11162808441E+01	3.96404318560E+01	-5.86516477859E+00	-1.11390447627E+00
2.03092565841E+06	-2.11321996212E+01	1.45734873009E+02	1.20302716129E+01	1.69126249136E+02	-5.85627268062E+01	3.45181146722E+01	-5.82604034564E+00	-9.90869768637E-01
2.05311701300E+06	-1.59842479730E+01	-1.58352184741E+02	1.20456257119E+01	1.68593745126E+02	-5.09889191056E+01	9.38250869130E+01	-5.82985682937E+00	-1.06830731808E+00
2.07530836760E+06	-1.90886399475E+01	1.56475764579E+02	1.20359405914E+01	1.68963434055E+02	-4.33754400645E+01	-1.34692163297E+02	-5.81067489543E+00	-8.11917637011E-01
2.09749972219E+06	-2.42596102446E+01	-1.74999922719E+02	1.20462284192E+01	1.68635013155E+02	-3.66177941572E+01	1.33070142348E+02	-5.79719681088E+00	-9.91424091872E-01
2.11969107679E+06	-2.00654285050E+01	-1.74767897894E+02	1.20660110294E+01	1.68491087161E+02	-4.40707824938E+01	-5.34323931167E+01	-5.84714146715E+00	-1.12397731487E+00
2.14188243138E+06	-1.60319258584E+01	-1.74709954572E+02	1.20345740253E+01	1.68206441737E+02	-3.96738160668E+01	-9.09809492014E+01	-5.82494624196E+00	-7.38881113296E-01
2.16407378598E+06	-2.11303297075E+01	1.71183778244E+02	1.20519030545E+01	1.68420733425E+02	-4.14996059006E+01	1.65267719420E+02	-5.79043889454E+00	-1.03572441296E+00
2.18626514057E+06	-1.61179797014E+01	-1.53476990603E+02	1.20319861251E+01	1.67925733333E+02	-4.14125492371E+01	8.47250309389E+01	-5.84685372730E+00	-1.24359026461E+00
2.20845649517E+06	-1.50139426833E+01	-1.37325322010E+02	1.20696171778E+01	1.67827032456E+02	-4.81504068141E+01	2.36329664289E+01	-5.86727329561E+00	-1.17759449264E+00
2.23064784976E+06	-1.11023208986E+01	1.64474662282E+02	1.19960191293E+01	1.67584545220E+02	-4.53581095144E+01	1.63799068768E+02	-5.80932668560E+00	-1.04746366563E+00
2.25283920436E+06	-1.84758339531E+01	-1.72040070273E+02	1.20684798503E+01	1.67663580478E+02	-4.25005472324E+01	-1.43519297880E+02	-5.82445335131E+00	-9.83071059374E-01
2.27503055895E+06	-2.16214240715E+01	1.56009152029E+02	1.20450604607E+01	1.67760356826E+02	-4.70919774571E+01	1.10642810143E+02	-5.83214406047E+00	-1.18611641462E+00
2.29722191355E+06	-1.71778960217E+01	1.67613812837E+02	1.20392732148E+01	1.67592983973E+02	-3.92011486747E+01	8.94091944414E+01	-5.84233948264E+00	-1.40630177470E+00
2.31941326814E+06	-2.25321469364E+01	-1.26171639158E+02	1.20681153091E+01	1.67134012226E+02	-4.57983034024E+01	-1.57355068567E+02	-5.82170955761E+00	-1.00634320250E+00
2.34160462274E+06	-1.51341196346E+01	1.75752775567E+02	1.19899553861E+01	1.67173816257E+02	-4.88864313730E+01	1.51397058819E+02	-5.82606926053E+00	-1.00102460716E+00
2.36379597733E+06	-2.89365452579E+01	1.37534875824E+02	1.20905297466E+01	1.67168258802E+02	-4.82083272515E+01	-1.59836927756E+02	-5.84153670494E+00	-1.14845237748E+00
2.38598733193E+06	-1.57113591342E+01	1.77801523100E+02	1.20501077836E+01	1.66811505636E+02	-4.38085960170E+01	7.19108529981E+01	-5.82277038410E+00	-1.41160255334E+00
2.40817868652E+06	-1.71799559769E+01	1.70172992527E+02	1.20254243045E+01	1.66821311280E+02	-4.45205828461E+01	7.69978497381E+01	-5.82668872412E+00	-1.19603912146E+00
2.43037004112E+06	-1.82794426388E+01	1.40557037704E+02	1.20399375919E+01	1.66838498854E+02	-4.64440884976E+01	5.51728142151E+01	-5.84209664414E+00	-1.81673537044E+00
2.45256139571E+06	-1.61898317993E+01	-1.69776978613E+02	1.20705179181E+01	1.66481980893E+02	-4.44437591862E+01	-5.90836577808E+01	-5.84164021711E+00	-1.06376113142E+00
2.47475275031E+06	-1.80094709885E+01	-1.40609182217E+02	1.20855380135E+01	1.66239340076E+02	-5.00591117084E+01	6.56575343850E+00	-5.84993901946E+00	-1.20144712786E+00
2.49694410490E+06	-1.83233245717E+01	1.71661006851E+02	1.20429102212E+01	1.66545380515E+02	-5.29683620442E+01	-9.39961760544E+00	-5.84977762292E+00	-1.20720182420E+00
2.51913545950E+06	-2.29782799707E+01	-1.62799576177E+02	1.20801681490E+01	1.66242104065E+02	-5.75601120282E+01	-1.15317848758E+02	-5.83436573323E+00	-1.18779214702E+00
2.54132681409E+06	-1.41386814073E+01	1.43846244229E+02	1.20162510755E+01	1.66069901890E+02	-3.95147710649E+01	5.59501339283E+01	-5.85214800899E+00	-1.46092375204E+00
2.56351816869E+06	-2.59667577335E+01	-1.77508044094E+02	1.20410156602E+01	1.65994577904E+02	-3.84532579359E+01	-7.39097453684E+01	-5.87424758321E+00	-1.19424992609E+00
2.58570952328E+06	-1.54389717350E+01	1.77976594540E+02	1.20316776644E+01	1.65680442425E+02	-4.45367356482E+01	1.78475987763E+02	-5.83495886082E+00	-1.06770063038E+00
2.60790087788E+06	-1.76807637200E+01	-1.65538714815E+02	1.20539119387E+01	1.65522796344E+02	-3.99496469564E+01	3.18518821651E+01	-5.87732913047E+00	-1.49093251314E+00
2.63009223247E+06	-1.94000224252E+01	-1.30402482105E+02	1.20954808698E+01	1.65217214694E+02	-5.26125404060E+01	-9.92207284460E+01	-5.82397824834E+00	-8.64037055939E-01
2.65228358707E+06	-1.98895436512E+01	-1.70434736224E+02	1.20707880620E+01	1.65335662064E+02	-3.74849794097E+01	-7.83644568883E+00	-5.87058760780E+00	-1.46907418572E+00
2.67447494166E+06	-1.52355946537E+01	1.61312540100E+02	1.20384254147E+01	1.65069565407E+02	-4.85138685979E+01	-1.60818278556E+02	-5.83278126385E+00	-1.33158421069E+00
2.69666629626E+06	-1.47017857223E+01	-1.75513018719E+02	1.20593468338E+01	1.64773982533E+02	-4.93545535568E+01	-5.61639101107E+01	-5.83576968821E+00	-1.38017635090E+00
2.71885765085E+06	-1.84488972694E+01	1.19344474673E+02	1.20096907882E+01	1.65242070246E+02	-3.46049958021E+01	-8.13162203469E+01	-5.89160443379E+00	-1.01136996824E+00
2.74104900545E+06	-2.16189696493E+01	1.74508711711E+02	1.20788373376E+01	1.64953160153E+02	-3.93992201417E+01	-5.94834883155E+01	-5.87200359712E+00	-1.37958258288E+00
2.76324036004E+06	-2.23815251152E+01	1.67848399663E+02	1.20568261166E+01	1.64797271466E+02	-4.67374805793E+01	1.26381519650E+00	-5.85844793743E+00	-1.35909522968E+00
2.78543171463E+06	-2.03777157640E+01	1.55304677498E+02	1.20778208310E+01	1.64747392957E+02	-5.59324086246E+01	-9.55900636656E+01	-5.84186821032E+00	-1.29619174746E+00
2.80762306923E+06	-1.78357711328E+01	-1.74529391557E+02	1.20441664717E+01	1.64373315958E+02	-4.72755167905E+01	6.99211069986E+01	-5.82819747485E+00	-1.54901342076E+00
2.82981442382E+06	-1.75140793180E+01	1.59702443260E+02	1.20349654527E+01	1.64434661474E+02	-4.56094316551E+01	-6.14382689409E+01	-5.83709819968E+00	-1.38538979993E+00
2.85200577842E+06	-2.80680317400E+01	1.54163417779E+02	1.20751636845E+01	1.64383267346E+02	-7.04536092807E+01	-4.56786046151E+01	-5.84365554574E+00	-1.29597172038E+00
2.87419713301E+06	-1.44152578835E+01	-1.71105649996E+02	1.20585497305E+01	1.63924887098E+02	-3.41581140372E+01	1.69815546361E+02	-5.78625218584E+00	-1.30656468107E+00
