# Hz S DB R 50
! CMT, M5065, 19127446, 24.2.4/2
! Date: 11/8/2024 4:12:35 PM
! Data: Format (Calibration Info)
! Freq	S11:dB/Ang(F2)	S21:dB/Ang(F2)	S12:dB/Ang(F2)	S22:dB/Ang(F2)
3.00000000000E+05	-2.17180060981E+01	-1.47401108015E+02	1.59655816182E+01	-1.76688102682E+02	-5.24773729216E+01	1.54369327596E+02	-5.80671984156E+00	-4.11330570618E-01
3.22191354595E+05	-1.79994516909E+01	1.70942329569E+02	1.59523641139E+01	-1.77334546113E+02	-4.14425796134E+01	-1.70484969772E+02	-5.80070307804E+00	-3.36659989582E-01
3.44382709190E+05	-1.82575100631E+01	-1.78791906449E+02	1.59439403546E+01	-1.77845727202E+02	-4.22723743925E+01	-1.63288404787E+02	-5.79532874302E+00	-3.86339825433E-01
3.66574063785E+05	-1.80643898911E+01	1.78982734651E+02	1.59612432437E+01	-1.78327605486E+02	-3.38398668926E+01	-1.52798444330E+02	-5.79039312655E+00	4.68878712141E-02
3.88765418380E+05	-1.13051587575E+01	-1.68900231279E+02	1.59251599965E+01	-1.79002370340E+02	-5.22265083173E+01	-1.19604068638E+02	-5.91228819612E+00	-2.61851065646E-01
4.10956772975E+05	-1.66252696837E+01	1.40147004086E+02	1.59582281038E+01	-1.78795249583E+02	-4.55657802593E+01	6.42629562066E+01	-5.81833530273E+00	-4.34039919952E-01
4.33148127570E+05	-1.77176993833E+01	1.55342198548E+02	1.59474845359E+01	-1.79370809532E+02	-4.11564721611E+01	-1.52568932173E+02	-5.80318233150E+00	-3.92888570579E-01
4.55339482165E+05	-1.83672422550E+01	-1.69468066044E+02	1.59814800619E+01	1.79900928596E+02	-3.87642727150E+01	1.53655303885E+02	-5.75350835418E+00	-4.58646559206E-01
4.77530836760E+05	-1.81095102703E+01	-1.63249271171E+02	1.59557891648E+01	1.79743652238E+02	-4.33283883429E+01	-1.39066186475E+02	-5.81628282671E+00	-2.94039789148E-01
4.99722191355E+05	-2.06048561742E+01	-1.79714292391E+02	1.59715394627E+01	1.79349002778E+02	-4.30795766826E+01	-7.40863177812E+01	-5.85814211341E+00	-2.20853082915E-01
5.21913545950E+05	-1.63121271615E+01	-1.32866594730E+02	1.59575440829E+01	1.78820929294E+02	-3.70405888931E+01	-1.55843464712E+02	-5.77332502103E+00	-9.62925881598E-02
5.44104900545E+05	-1.92175062479E+01	1.58735052498E+02	1.59735071540E+01	1.78977420875E+02	-5.60205655127E+01	-1.70060366140E+02	-5.81669294743E+00	-3.30717918776E-01
5.66296255139E+05	-1.47781607061E+01	-1.40147542011E+02	1.59303556018E+01	1.78261754051E+02	-5.06354697333E+01	1.37444213966E+02	-5.81718283974E+00	-4.28155970340E-01
5.88487609734E+05	-1.31803061512E+01	-1.67979727757E+02	1.59205602392E+01	1.78216202356E+02	-4.64523543534E+01	-3.77317590377E+01	-5.85003699742E+00	-5.72024735860E-01
6.10678964329E+05	-1.69217153270E+01	-1.60350712728E+02	1.59571286246E+01	1.77829074926E+02	-4.00222805520E+01	-5.26656587178E+01	-5.87681877251E+00	2.56884638570E-01
6.32870318924E+05	-1.72534341998E+01	1.48752138673E+02	1.59633277074E+01	1.78020064542E+02	-4.57088619580E+01	1.53033244462E+02	-5.81169021670E+00	-1.81627416654E-01
6.55061673519E+05	-1.85306206279E+01	-1.78104043635E+02	1.59530019114E+01	1.77516094994E+02	-5.81918589012E+01	1.23791502968E+02	-5.85450712587E+00	-2.40203488040E-01
6.77253028114E+05	-2.03770153129E+01	1.47919011106E+02	1.59742127648E+01	1.77352556822E+02	-3.97111908469E+01	8.20254613900E+01	-5.83694044077E+00	-7.96127741213E-01
6.99444382709E+05	-1.81321290968E+01	1.31363396454E+02	1.59543518390E+01	1.77076746507E+02	-4.74856077632E+01	1.19100093205E+01	-5.85685366364E+00	-3.89594415495E-01
7.21635737304E+05	-1.67891885672E+01	-1.48502837644E+02	1.59820582006E+01	1.76520774289E+02	-4.45436374641E+01	8.98571678256E+01	-5.82929857731E+00	-6.11394792819E-01
7.43827091899E+05	-1.52387846484E+01	1.72195527857E+02	1.59398380300E+01	1.76365506295E+02	-4.37165330390E+01	-1.00447811469E+02	-5.84389139642E+00	-2.17428541800E-01
7.66018446494E+05	-2.26934386509E+01	1.69835514962E+02	1.59658769004E+01	1.76367500870E+02	-6.12647097602E+01	-5.61043945936E+01	-5.82654976540E+00	-4.91930799319E-01
7.88209801089E+05	-1.40125088464E+01	-1.72440659902E+02	1.59215285043E+01	1.75937819385E+02	-4.59996066998E+01	1.04454747872E+02	-5.80905781071E+00	-6.76550663243E-01
8.10401155684E+05	-1.56454526029E+01	1.61531582184E+02	1.59350720298E+01	1.75914169841E+02	-4.82956504617E+01	6.85962907194E+01	-5.81028787917E+00	-6.68460604844E-01
8.32592510279E+05	-2.11932187389E+01	1.54948780660E+02	1.59644067360E+01	1.75725548545E+02	-4.30782831085E+01	-3.12304908561E+01	-5.86438009197E+00	-3.19789018174E-01
8.54783864874E+05	-1.93208348571E+01	1.74386661763E+02	1.59415390345E+01	1.75262402606E+02	-4.69044760877E+01	-4.31961085007E+01	-5.87208555213E+00	-4.03463782922E-01
8.76975219469E+05	-2.25480861640E+01	-1.48382173992E+02	1.59677862028E+01	1.75107522091E+02	-4.08707110393E+01	-1.64925477353E+02	-5.78105841406E+00	-4.60373441178E-01
8.99166574064E+05	-1.72434136751E+01	1.53049160908E+02	1.59562488758E+01	1.75029868691E+02	-5.18566239283E+01	1.46627185376E+02	-5.85227172565E+00	-5.60976668478E-01
9.21357928659E+05	-2.32652687060E+01	1.76859051787E+02	1.59677239654E+01	1.74652942165E+02	-4.63186355296E+01	-2.69768922261E+01	-5.87269271475E+00	-4.13647285570E-01
9.43549283254E+05	-1.90102481770E+01	-1.78996563236E+02	1.59453634517E+01	1.74545156502E+02	-5.88031458288E+01	1.08779650950E+02	-5.84567853427E+00	-6.19711690417E-01
9.65740637849E+05	-2.26813367406E+01	1.18272920218E+02	1.59749971646E+01	1.74617927795E+02	-5.32093049563E+01	1.32169072331E+02	-5.83724967892E+00	-5.33671058981E-01
9.87931992444E+05	-1.46732948400E+01	1.72588357232E+02	1.59215116979E+01	1.74089466844E+02	-3.66848968392E+01	1.79496612838E+02	-5.77140096009E+00	-4.12773152407E-01
1.01012334704E+06	-2.03858339319E+01	-1.34051046617E+02	1.59870440529E+01	1.73854627074E+02	-6.61405112548E+01	1.69751051347E+02	-5.84285530104E+00	-5.60555361091E-01
1.03231470163E+06	-1.70001128202E+01	-1.48015053517E+02	1.59484147451E+01	1.73616296617E+02	-5.69210109934E+01	8.11802166714E+01	-5.84842222404E+00	-7.11858870428E-01
1.05450605623E+06	-1.63987277548E+01	1.79443732307E+02	1.59067914672E+01	1.73579297197E+02	-3.94123552653E+01	2.90554677456E+01	-5.88016335107E+00	-7.56998546390E-01
1.07669741082E+06	-2.00732799904E+01	-1.61100789097E+02	1.59490329596E+01	1.73028517371E+02	-4.29456615408E+01	-4.88509816648E+01	-5.85449681839E+00	4.75710365316E-03
1.09888876542E+06	-1.69451129919E+01	-1.74743666180E+02	1.59419373917E+01	1.73088987928E+02	-5.20276389034E+01	-2.74527727599E+01	-5.84272793908E+00	-4.96504580687E-01
1.12108012001E+06	-2.22761587513E+01	-1.62778615012E+02	1.59588746209E+01	1.72846911954E+02	-4.14164671982E+01	2.02068770911E+01	-5.85269170880E+00	-6.63958226537E-01
1.14327147461E+06	-1.85070281700E+01	1.45503170401E+02	1.59478330012E+01	1.72821043740E+02	-3.97740304164E+01	4.09117042848E+01	-5.88483969241E+00	-7.64841773910E-01
1.16546282920E+06	-1.89864545067E+01	-1.41182171137E+02	1.59352609087E+01	1.72314333979E+02	-4.97563415241E+01	-1.27427078407E+02	-5.84572319455E+00	-4.73204930735E-01
1.18765418380E+06	-1.52621466643E+01	-1.78219051566E+02	1.59490410624E+01	1.72186123400E+02	-5.39459113328E+01	-1.50321285175E+02	-5.82670698806E+00	-5.48589263808E-01
1.20984553839E+06	-1.83263336656E+01	9.31785355771E+01	1.59352232350E+01	1.72411092574E+02	-4.11479467206E+01	4.44285619217E+01	-5.85118007786E+00	-1.23963707421E+00
1.23203689299E+06	-1.57215523043E+01	-1.74398660768E+02	1.59116079857E+01	1.71910030005E+02	-5.27498745676E+01	-1.60172588390E+02	-5.83801323532E+00	-3.49061520843E-01
1.25422824758E+06	-1.61845547592E+01	1.78852424434E+02	1.59286086437E+01	1.71676005309E+02	-4.27927076327E+01	7.09860564779E+01	-5.85068130867E+00	-8.17759023648E-01
1.27641960218E+06	-1.37362062134E+01	1.75425242396E+02	1.58983377094E+01	1.71475758930E+02	-4.11898010743E+01	1.43330323215E+02	-5.80080785861E+00	-7.83792099722E-01
1.29861095677E+06	-2.15862086869E+01	-1.56015838920E+02	1.59520553504E+01	1.71260234956E+02	-4.70728558320E+01	1.74976107356E+02	-5.80982133795E+00	-5.25433390139E-01
1.32080231137E+06	-1.95602696343E+01	-1.47519400183E+02	1.59650857224E+01	1.71108895367E+02	-3.71919052124E+01	3.99617713548E+01	-5.87509193315E+00	-1.40651357411E+00
1.34299366596E+06	-2.12444344958E+01	1.64728377699E+02	1.59424403736E+01	1.71025908758E+02	-5.76387563877E+01	-5.74372195355E+01	-5.83682172696E+00	-7.02024489102E-01
1.36518502056E+06	-1.71407496890E+01	-1.33156324982E+02	1.59743456847E+01	1.70499014507E+02	-4.62638550904E+01	-1.09868762397E+02	-5.82856001481E+00	-6.06874450304E-01
1.38737637515E+06	-1.51808303912E+01	-1.42933950409E+02	1.59464181422E+01	1.70248282011E+02	-4.26426734060E+01	-2.44547732694E+01	-5.87216792182E+00	-6.70379938636E-01
1.40956772975E+06	-1.91329743403E+01	-1.59479525452E+02	1.59443826531E+01	1.70297191946E+02	-4.23165610054E+01	-1.77122486041E+02	-5.80902336026E+00	-7.35106904637E-01
1.43175908434E+06	-1.42621742829E+01	1.71298882917E+02	1.58937047808E+01	1.70306329380E+02	-6.04161859687E+01	1.69954708511E+01	-5.84785539935E+00	-7.60695342354E-01
1.45395043894E+06	-1.42602166693E+01	1.75088104820E+02	1.58985121703E+01	1.70197900706E+02	-4.72379152183E+01	1.57757939602E+02	-5.81283193020E+00	-1.00914371566E+00
1.47614179353E+06	-1.61819153245E+01	1.76811364498E+02	1.59234700605E+01	1.69726778914E+02	-4.41011490818E+01	-1.68598384152E+01	-5.84655231701E+00	-7.58437552936E-01
1.49833314813E+06	-2.82862552611E+01	1.20691591695E+02	1.59500926572E+01	1.69819930050E+02	-4.78054158270E+01	1.71275727348E+01	-5.87123135907E+00	-9.09471447164E-01
1.52052450272E+06	-2.31018687449E+01	-1.43483947468E+02	1.59561129977E+01	1.69617590683E+02	-3.97893204197E+01	-5.11501735228E+01	-5.88516591546E+00	-5.63964349239E-01
1.54271585732E+06	-1.48125722095E+01	1.66555562337E+02	1.59106365011E+01	1.69178097294E+02	-3.92234875247E+01	-4.05232425995E+01	-5.88533024895E+00	-5.71753194898E-01
1.56490721191E+06	-1.98293379083E+01	1.62111454829E+02	1.59249997683E+01	1.69263509281E+02	-4.53265874835E+01	-1.47608241308E+02	-5.80153644382E+00	-6.02125603719E-01
1.58709856651E+06	-2.36774909030E+01	1.79140234355E+02	1.59628092370E+01	1.69163991864E+02	-4.69022805033E+01	-8.68240382676E+01	-5.86685172157E+00	-6.44837202622E-01
1.60928992110E+06	-1.87109124124E+01	1.77567845132E+02	1.59232198589E+01	1.68808556616E+02	-4.33425982566E+01	8.68233057518E+01	-5.83105733008E+00	-9.90872086242E-01
1.63148127570E+06	-1.77071969516E+01	1.73366989885E+02	1.59145587647E+01	1.68695062401E+02	-4.03119753938E+01	-1.22235143150E+02	-5.82356362109E+00	-6.41452163295E-01
1.65367263029E+06	-1.47096976335E+01	-1.76617394686E+02	1.59213446391E+01	1.68395958401E+02	-3.76139170973E+01	8.16325897416E+01	-5.81370642344E+00	-1.10396884818E+00
1.67586398489E+06	-8.06739793680E+00	-1.52746032072E+02	1.59051792877E+01	1.67459700779E+02	-4.17462025845E+01	-1.21204248574E+02	-5.81014655275E+00	-5.20277295090E-01
1.69805533948E+06	-2.05403125783E+01	1.67130938633E+02	1.59271247386E+01	1.68178552596E+02	-5.88812613646E+01	1.26288241389E+02	-5.83329909111E+00	-8.68693983460E-01
1.72024669408E+06	-1.26964378545E+01	1.64925183310E+02	1.58699404849E+01	1.67865396475E+02	-4.69820790481E+01	-1.50009532272E+02	-5.82714482142E+00	-7.96718145264E-01
1.74243804867E+06	-2.00108900943E+01	1.70337557730E+02	1.59367510139E+01	1.67831272759E+02	-4.43390275795E+01	1.75283357168E+02	-5.78876071316E+00	-8.61170256304E-01
1.76462940327E+06	-1.89802400454E+01	-1.63480863301E+02	1.59124698339E+01	1.67466608665E+02	-4.30518901160E+01	4.72053552846E+01	-5.86101756205E+00	-9.75096589634E-01
1.78682075786E+06	-1.54474721037E+01	1.67154489371E+02	1.59013443469E+01	1.67358452984E+02	-3.91685096693E+01	1.79433691676E+02	-5.78939412279E+00	-7.41188213513E-01
1.80901211246E+06	-1.76162027222E+01	1.78715263612E+02	1.59372901375E+01	1.67095621413E+02	-4.09176981596E+01	1.49437368530E+02	-5.75408955917E+00	-8.03848979379E-01
1.83120346705E+06	-1.99892119511E+01	7.79315964678E+01	1.59478564221E+01	1.67259224971E+02	-5.44629899841E+01	-7.86392419075E+01	-5.84891843656E+00	-8.32246378294E-01
1.85339482165E+06	-1.78749126390E+01	-1.62358985049E+02	1.59371117260E+01	1.66823713973E+02	-4.67800957132E+01	6.01467898786E+01	-5.85577310502E+00	-1.03899600169E+00
1.87558617624E+06	-1.69452773465E+01	-1.73342591238E+02	1.59094271026E+01	1.66643175848E+02	-4.48773559423E+01	-2.11536130192E+01	-5.84963184356E+00	-8.05570304964E-01
1.89777753084E+06	-1.84615211721E+01	-1.52756154345E+02	1.59225879592E+01	1.66314158344E+02	-4.27903030649E+01	1.56705219072E+01	-5.83658921647E+00	-1.08263575543E+00
1.91996888543E+06	-1.63414168826E+01	1.79400895869E+02	1.58902109614E+01	1.66467719921E+02	-4.90562466893E+01	-9.20290533169E+01	-5.85231258733E+00	-7.86661261917E-01
1.94216024003E+06	-1.70032828371E+01	-1.71536063061E+02	1.59203363322E+01	1.66153750017E+02	-3.52295226608E+01	7.01435527705E+01	-5.82865112117E+00	-1.22313062791E+00
1.96435159462E+06	-1.81226952869E+01	-1.64152594531E+02	1.59156725228E+01	1.65871073787E+02	-3.70526045751E+01	5.56015607033E+01	-5.82882132633E+00	-1.20614155173E+00
1.98654294922E+06	-1.52886078434E+01	-1.71003704814E+02	1.59477520986E+01	1.65741457962E+02	-4.49428633623E+01	-9.17766624078E+01	-5.85679642495E+00	-7.26080924110E-01
2.00873430381E+06	-1.99368166346E+01	-8.65295891802E+01	1.59711368845E+01	1.65509499103E+02	-5.59596041418E+01	-1.56094716573E+02	-5.83631958310E+00	-9.52202037270E-01
2.03092565841E+06	-1.94365995721E+01	-1.31509864146E+02	1.59536892720E+01	1.65218616022E+02	-5.91278428416E+01	5.91821926618E+01	-5.82121635527E+00	-1.09573186108E+00
2.05311701300E+06	-1.97505763252E+01	-1.58720297394E+02	1.59103056323E+01	1.65370627143E+02	-4.11474336365E+01	-1.13497993837E+02	-5.84307831476E+00	-6.96694750342E-01
2.07530836760E+06	-1.93672049177E+01	1.72744772974E+02	1.59114684710E+01	1.65138803815E+02	-4.55159473628E+01	1.64194228466E+01	-5.86647931477E+00	-1.09443584239E+00
2.09749972219E+06	-1.89840544943E+01	-1.71497563614E+02	1.59149870012E+01	1.64874338875E+02	-4.15543133776E+01	-1.19569940641E+02	-5.80790069164E+00	-8.12169188189E-01
2.11969107679E+06	-1.71569874077E+01	1.66716263242E+02	1.58868322663E+01	1.64793831773E+02	-3.81454524439E+01	2.39469773962E+01	-5.85900142892E+00	-1.43252575851E+00
2.14188243138E+06	-1.61038941818E+01	-1.67547059989E+02	1.59085598666E+01	1.64347498026E+02	-4.45516413527E+01	1.14561184089E+02	-5.81973179558E+00	-1.20858594400E+00
2.16407378598E+06	-1.81926549154E+01	-1.76978114384E+02	1.59232365423E+01	1.64259742832E+02	-4.72082387242E+01	1.48141298535E+01	-5.85917134741E+00	-1.09816080721E+00
2.18626514057E+06	-2.28361169709E+01	-1.68929695698E+02	1.59375014602E+01	1.64255597001E+02	-4.22301512871E+01	1.32203784413E+02	-5.78986774043E+00	-1.24057415241E+00
2.20845649517E+06	-1.75346043951E+01	1.74984679381E+02	1.59359137152E+01	1.64284146947E+02	-4.83019273209E+01	-1.38093951405E+02	-5.80829879697E+00	-9.44133613912E-01
2.23064784976E+06	-1.69907939289E+01	-1.66853043861E+02	1.59058922467E+01	1.63618689979E+02	-3.57786660972E+01	6.98976125749E+01	-5.82596022639E+00	-1.58486819597E+00
2.25283920436E+06	-1.86010079837E+01	1.72668110658E+02	1.59310199230E+01	1.63857086796E+02	-4.17039418576E+01	1.14534826012E+02	-5.80068245994E+00	-1.23474148429E+00
2.27503055895E+06	-1.75024702701E+01	-1.66508106950E+02	1.59129762595E+01	1.63390640748E+02	-3.96388867710E+01	-1.44391781595E+02	-5.81095589157E+00	-8.31141142428E-01
2.29722191355E+06	-9.20297307319E+00	-1.51574127302E+02	1.59088056721E+01	1.62752256793E+02	-4.27766404750E+01	-9.34087622891E+01	-5.84241567571E+00	-7.96528203932E-01
2.31941326814E+06	-1.59074184179E+01	-1.71113623941E+02	1.59157918574E+01	1.63093705316E+02	-4.46172172711E+01	1.31294301222E+02	-5.81288931851E+00	-1.25371515140E+00
2.34160462274E+06	-1.99623628073E+01	-1.55579656526E+02	1.59642505713E+01	1.62915730472E+02	-4.20555281834E+01	-2.75430351263E+01	-5.84546018970E+00	-1.27490684136E+00
2.36379597733E+06	-2.95112762912E+01	1.53085217688E+02	1.59533944694E+01	1.62950829411E+02	-4.28440276647E+01	7.88759705085E+01	-5.83728544132E+00	-1.37932030842E+00
2.38598733193E+06	-1.47232965062E+01	-1.73893259639E+02	1.58967266165E+01	1.62554278995E+02	-4.61860013666E+01	8.18265877404E+01	-5.83429240875E+00	-1.37038156255E+00
2.40817868652E+06	-2.09575829344E+01	1.44233952315E+02	1.59051209619E+01	1.62584984361E+02	-4.23465483394E+01	1.36670579736E+02	-5.82129228517E+00	-1.50892668159E+00
2.43037004112E+06	-1.63547977592E+01	-1.50956631199E+02	1.59173267745E+01	1.62057554571E+02	-5.59084190961E+01	5.59482946608E+01	-5.80209390238E+00	-1.69572590081E+00
2.45256139571E+06	-1.75597587545E+01	-1.25435152253E+02	1.59552104381E+01	1.61948387233E+02	-4.59171996043E+01	1.74558928422E+02	-5.81626129660E+00	-1.19378677683E+00
2.47475275031E+06	-1.41698193757E+01	-1.48674987270E+02	1.59111483745E+01	1.61739536627E+02	-5.57124985042E+01	2.55688471353E+01	-5.83885624239E+00	-1.33916753052E+00
2.49694410490E+06	-1.90237437297E+01	-1.54356430501E+02	1.59289176499E+01	1.61720733000E+02	-4.61062570810E+01	1.10352446885E+02	-5.82445461525E+00	-1.36126011094E+00
2.51913545950E+06	-1.31205018722E+01	-1.60198279827E+02	1.58909364550E+01	1.61278849608E+02	-4.61218654718E+01	3.29994205424E+01	-5.84990086059E+00	-1.39836695328E+00
2.54132681409E+06	-1.58704087460E+01	-1.68738744034E+02	1.59069050726E+01	1.61215136007E+02	-4.73732701778E+01	-1.10798129014E+02	-5.82444735075E+00	-1.14788642532E+00
2.56351816869E+06	-1.65407534518E+01	-1.66402865500E+02	1.59093638769E+01	1.61043994999E+02	-4.38596534173E+01	-1.46061570606E+02	-5.85666874518E+00	-1.07112169475E+00
2.58570952328E+06	-2.07042824713E+01	1.73520956850E+02	1.59250923815E+01	1.61228528863E+02	-3.48336806180E+01	-1.69463488517E+02	-5.76647711423E+00	-1.09035637679E+00
2.60790087788E+06	-1.40747259259E+01	-1.69448445973E+02	1.58906696985E+01	1.60764964480E+02	-4.86579778050E+01	1.54524860765E+02	-5.81788133660E+00	-1.24610110054E+00
2.63009223247E+06	-2.00052018619E+01	-1.44068458702E+02	1.59198556926E+01	1.60911342058E+02	-4.67218052280E+01	-1.58808476418E+02	-5.83994172596E+00	-6.40158679357E-01
2.65228358707E+06	-1.70090371058E+01	-1.31146526426E+02	1.59357150191E+01	1.60321467969E+02	-4.65189028096E+01	-1.68326314749E+02	-5.78574029786E+00	-1.29561700601E+00
2.67447494166E+06	-1.71914277290E+01	-1.59577082202E+02	1.59235145359E+01	1.60315155065E+02	-5.74527485963E+01	1.78308847030E+02	-5.82962366881E+00	-1.25989278476E+00
2.69666629626E+06	-1.58729340876E+01	1.52223207303E+02	1.58568165912E+01	1.60339715658E+02	-4.83153477588E+01	1.48198953452E+01	-5.84679560296E+00	-1.36197008663E+00
2.71885765085E+06	-1.94266812398E+01	-1.43147486200E+02	1.59256302037E+01	1.60044717469E+02	-4.76852546118E+01	-1.10345214776E+02	-5.83086517577E+00	-1.23755281076E+00
2.74104900545E+06	-1.87443512699E+01	1.68095348402E+02	1.58977230284E+01	1.59888757526E+02	-4.09392578641E+01	-1.73295339099E+02	-5.80255097834E+00	-1.22168249077E+00
2.76324036004E+06	-1.73210356648E+01	-1.52520226112E+02	1.59214532216E+01	1.59589120525E+02	-6.66068687284E+01	-7.71259737836E+01	-5.82656317974E+00	-1.34798397823E+00
2.78543171463E+06	-1.39152962413E+01	1.59246235815E+02	1.58654799135E+01	1.59330250340E+02	-4.83612325653E+01	-2.22176899791E+01	-5.84502748937E+00	-1.51716263808E+00
2.80762306923E+06	-2.03673459918E+01	1.63834871461E+02	1.59237020386E+01	1.59439999167E+02	-4.58756507001E+01	1.57639426474E+02	-5.81302397400E+00	-1.36019840322E+00
2.82981442382E+06	-1.81023386936E+01	1.65586879744E+02	1.58899614625E+01	1.59352519864E+02	-4.49773704554E+01	2.52438922056E+01	-5.86978353619E+00	-1.49318531779E+00
2.85200577842E+06	-1.82342826425E+01	1.78109879487E+02	1.59086767133E+01	1.59018042617E+02	-5.82163435727E+01	1.14875345372E+02	-5.83094654158E+00	-1.51219047308E+00
2.87419713301E+06	-1.82336991589E+01	-1.69907414384E+02	1.59009073232E+01	1.58870375216E+02	-5.04005717030E+01	1.16159153795E+02	-5.84689641346E+00	-1.35973690590E+00
