# Hz S DB R 50
! CMT, M5065, 19127446, 24.2.4/2
! Date: 11/8/2024 4:24:53 PM
! Data: Format (Calibration Info)
! Freq	S11:dB/Ang(F2)	S21:dB/Ang(F2)	S12:dB/Ang(F2)	S22:dB/Ang(F2)
3.00000000000E+05	-1.96499375706E+01	1.67297557450E+02	2.39056675995E+01	-1.74845889328E+02	-5.42724231677E+01	1.03598670041E+02	-5.83376177305E+00	-6.28630933404E-01
3.22191354595E+05	-2.14950679321E+01	-1.65184885162E+02	2.39376321255E+01	-1.76065121486E+02	-4.63867464464E+01	-2.54715381462E+00	-5.90594012761E+00	-2.90900475394E-01
3.44382709190E+05	-1.49548238898E+01	-1.74153927170E+02	2.38865778230E+01	-1.76917053671E+02	-4.48695324690E+01	-1.65035913435E+02	-5.76762139641E+00	-3.23582118200E-01
3.66574063785E+05	-1.57166432516E+01	-1.79988443784E+02	2.38921746175E+01	-1.77691511562E+02	-4.11684857981E+01	-1.23434058810E+02	-5.79005632151E+00	4.20103100813E-01
3.88765418380E+05	-1.67671916887E+01	1.77883190884E+02	2.39327673807E+01	-1.78504814785E+02	-4.84556901505E+01	1.13889046182E+02	-5.24808827381E+00	6.44725984593E-02
4.10956772975E+05	-1.55217276955E+01	1.70341736751E+02	2.38941513821E+01	-1.79223307421E+02	-5.20687178715E+01	7.56616597421E+01	-5.85068201592E+00	-5.90340765362E-01
4.33148127570E+05	-1.64038114436E+01	-1.44166810532E+02	2.39328922959E+01	1.79854225814E+02	-4.71593821362E+01	-1.26486552513E+01	-5.83643397529E+00	-4.10942783038E-01
4.55339482165E+05	-2.65120439947E+01	1.63539790386E+02	2.39046245765E+01	1.79310828159E+02	-4.35039272326E+01	8.20530322790E+01	-5.81105759651E+00	-5.72098143442E-01
4.77530836760E+05	-2.06982304162E+01	-1.35313071805E+02	2.39460068828E+01	1.78592537213E+02	-4.09832329202E+01	1.74043499043E+02	-5.75878461861E+00	-4.77562997845E-01
4.99722191355E+05	-2.03640481296E+01	1.33777625802E+02	2.39167471921E+01	1.78290821426E+02	-4.38222072927E+01	-9.10232767541E+01	-5.88856561138E+00	1.00254879184E-01
5.21913545950E+05	-1.46399923295E+01	-1.61416840036E+02	2.38939710213E+01	1.77390742702E+02	-5.10837841482E+01	-1.36879543976E+02	-5.82216569413E+00	-3.08537558164E-01
5.44104900545E+05	-1.44675640269E+01	-1.69348621406E+02	2.38789005205E+01	1.76860481995E+02	-4.86444703189E+01	9.75622479559E+01	-5.81253039723E+00	-8.80950826756E-01
5.66296255139E+05	-1.94374991067E+01	-1.79157775588E+02	2.39101563375E+01	1.76231465098E+02	-3.84091757987E+01	6.30633318294E+01	-5.89666510139E+00	-1.17190453040E+00
5.88487609734E+05	-2.76330877157E+01	-1.79277305824E+02	2.39264395300E+01	1.75899583921E+02	-4.26966744593E+01	-1.34347056896E+02	-5.79019824041E+00	-8.11028936159E-02
6.10678964329E+05	-1.26696143950E+01	1.51166571767E+02	2.38745656266E+01	1.75441575183E+02	-5.40981371425E+01	2.37971195566E+01	-5.83238719944E+00	-1.27459922979E-01
6.32870318924E+05	-1.42054731956E+01	1.70053878547E+02	2.38449269372E+01	1.74794892994E+02	-4.39767115021E+01	-1.72478172745E+02	-5.79323808344E+00	-2.78998365328E-01
6.55061673519E+05	-1.55766780766E+01	-1.76064360975E+02	2.38709030047E+01	1.74398129076E+02	-5.67465324711E+01	1.37837053290E+02	-5.82471441717E+00	-4.08637524315E-01
6.77253028114E+05	-1.69677915492E+01	-1.50220005728E+02	2.38908206769E+01	1.73619958318E+02	-4.28187252326E+01	7.91300405275E+01	-5.85251666738E+00	-1.29713920767E+00
6.99444382709E+05	-1.54845793002E+01	1.69544329651E+02	2.38383108257E+01	1.73421757740E+02	-4.44415393679E+01	-3.15316038233E+01	-5.87987912233E+00	-1.94398940232E-01
7.21635737304E+05	-1.81524249420E+01	-1.25514949044E+02	2.38821260253E+01	1.72625820099E+02	-4.39711792445E+01	1.00455485937E+02	-5.80389713643E+00	-1.02132955182E+00
7.43827091899E+05	-1.41466458457E+01	1.21743791290E+02	2.38729335214E+01	1.72688059049E+02	-4.63263137035E+01	1.21237582424E+02	-5.79430646399E+00	-7.66948515613E-01
7.66018446494E+05	-2.54838904902E+01	1.41075317764E+02	2.38756543122E+01	1.72119030520E+02	-4.24972957249E+01	-1.28423425617E+02	-5.79451021662E+00	-9.74820308174E-02
7.88209801089E+05	-1.66859877072E+01	1.55134475309E+02	2.38389466131E+01	1.71836237280E+02	-3.87178753382E+01	-4.42786500628E+01	-5.95037660295E+00	-2.37599132149E-01
8.10401155684E+05	-1.60432010287E+01	1.69191932910E+02	2.38351979060E+01	1.71279403334E+02	-5.43993181676E+01	-4.04614593099E+01	-5.83999895206E+00	-4.02151759290E-01
8.32592510279E+05	-1.99065050704E+01	-1.67754285687E+02	2.38428566237E+01	1.70671688739E+02	-4.59396048741E+01	1.05904966349E+02	-5.80611647082E+00	-9.48651451642E-01
8.54783864874E+05	-1.63256986490E+01	-1.52751185291E+02	2.38281435007E+01	1.70103934336E+02	-4.24601032054E+01	-1.20371509028E+02	-5.79183089078E+00	1.04412884608E-02
8.76975219469E+05	-1.86830716916E+01	-1.46615469401E+02	2.38361609111E+01	1.69626208061E+02	-4.99480150060E+01	-5.07301075824E+00	-5.84683241603E+00	-3.02171625418E-01
8.99166574064E+05	-1.48075773896E+01	1.75689967713E+02	2.38038127870E+01	1.69415884575E+02	-3.83908603517E+01	-4.67173493740E+01	-5.92973731971E+00	2.43841504985E-01
9.21357928659E+05	-1.72726546067E+01	1.72716497196E+02	2.37827218131E+01	1.69056741503E+02	-4.16852743659E+01	9.15106928267E+01	-5.86649308159E+00	-1.28576967061E+00
9.43549283254E+05	-1.92634580022E+01	-1.79200716513E+02	2.38030447800E+01	1.68697344781E+02	-4.58912154090E+01	1.02376571567E+02	-5.85929908730E+00	-1.00976422002E+00
9.65740637849E+05	-1.46605939678E+01	1.72406330638E+02	2.37619701815E+01	1.68296405896E+02	-5.48999420013E+01	-4.81241611915E+01	-5.85572318749E+00	-3.81429226287E-01
9.87931992444E+05	-1.60651794653E+01	-1.66361605528E+02	2.37798362117E+01	1.67821139794E+02	-4.12225384034E+01	4.89813321765E+01	-5.91953213745E+00	-1.09381977821E+00
1.01012334704E+06	-1.48161347656E+01	1.75968364137E+02	2.37537915681E+01	1.67375593283E+02	-4.81260507116E+01	-6.14061315909E+01	-5.88405440192E+00	-2.81950307589E-01
1.03231470163E+06	-1.53985202856E+01	1.50130011540E+02	2.37509665422E+01	1.67205213869E+02	-5.44578499902E+01	-1.30009064941E+02	-5.83283935463E+00	-4.57856290647E-01
1.05450605623E+06	-1.24506797645E+01	1.73291236402E+02	2.37448587639E+01	1.66657065620E+02	-4.40105420182E+01	-6.39728437265E+01	-5.83747032381E+00	-2.58120668427E-01
1.07669741082E+06	-1.66579348792E+01	1.76560085902E+02	2.37671394089E+01	1.66385579494E+02	-4.32788354270E+01	1.36159241077E+02	-5.81656837359E+00	-4.74161742970E-01
1.09888876542E+06	-1.70565028184E+01	-1.53844839870E+02	2.37365859450E+01	1.65883631188E+02	-4.62179957170E+01	8.79182866352E+01	-5.85797365728E+00	-1.02298900265E+00
1.12108012001E+06	-1.82875923501E+01	1.51746046878E+02	2.37475415010E+01	1.65695479296E+02	-5.21572386535E+01	-1.61321155494E+02	-5.79055401263E+00	-5.21155217238E-01
1.14327147461E+06	-1.55260693641E+01	1.78138617800E+02	2.37253651810E+01	1.65192686153E+02	-4.26245507065E+01	-8.68964626963E+01	-5.83477347014E+00	-1.66114639144E-01
1.16546282920E+06	-1.91278097389E+01	-1.64973440377E+02	2.37349244570E+01	1.64773372252E+02	-4.73180973830E+01	1.79184743780E+02	-5.78058068993E+00	-6.06445279744E-01
1.18765418380E+06	-1.67317489670E+01	1.72450224378E+02	2.37113659256E+01	1.64699045975E+02	-3.98090871114E+01	-1.07636473822E+01	-5.93618549725E+00	-5.50145860042E-01
1.20984553839E+06	-1.97247757320E+01	1.31581498429E+02	2.37346917002E+01	1.64347156984E+02	-4.58934423273E+01	-1.45502324323E+02	-5.79826628441E+00	-6.41467722309E-01
1.23203689299E+06	-1.28848100094E+01	-1.43373173720E+02	2.36847966439E+01	1.63414519896E+02	-3.97317526437E+01	-9.93932208387E+01	-5.82948741724E+00	8.27221428414E-02
1.25422824758E+06	-1.47737425119E+01	-1.75414611219E+02	2.36707691594E+01	1.63340731394E+02	-4.34282608692E+01	1.64543257992E+01	-5.91462160697E+00	-8.99776725389E-01
1.27641960218E+06	-1.48107471055E+01	-1.59439993704E+02	2.36765570008E+01	1.62777767260E+02	-4.92189765234E+01	-5.13324407975E+01	-5.86010063736E+00	-3.30057797192E-01
1.29861095677E+06	-1.78808615031E+01	1.63201287619E+02	2.36619394344E+01	1.62917211304E+02	-5.29306571030E+01	1.19421664567E+02	-5.80563818591E+00	-8.65897624001E-01
1.32080231137E+06	-1.67233751344E+01	-1.38125686049E+02	2.36920931632E+01	1.62075983371E+02	-5.60061677724E+01	-5.32225480429E+00	-5.86053609767E+00	-9.93208346936E-01
1.34299366596E+06	-1.74188542401E+01	-1.75268243811E+02	2.36568592234E+01	1.62074960035E+02	-5.08611054100E+01	-1.66669513413E+02	-5.80602779813E+00	-5.56837562697E-01
1.36518502056E+06	-2.46614807649E+01	1.71061287272E+02	2.36377750712E+01	1.61827422796E+02	-5.13948758542E+01	-1.00910658467E+02	-5.82873897873E+00	-5.68919691334E-01
1.38737637515E+06	-1.29482259144E+01	-1.76400208253E+02	2.36111125349E+01	1.61230998549E+02	-4.66678325897E+01	1.83073717296E+01	-5.88967277372E+00	-9.80995318064E-01
1.40956772975E+06	-1.35109493405E+01	1.66244277535E+02	2.36014876240E+01	1.60978778282E+02	-4.20204200059E+01	-1.28116892133E+02	-5.75695263267E+00	-4.37012895267E-01
1.43175908434E+06	-1.87726670247E+01	-1.70623909256E+02	2.36452560903E+01	1.60610522413E+02	-5.05278820646E+01	-2.37567842180E+01	-5.87715868565E+00	-7.81523703598E-01
1.45395043894E+06	-1.50576263245E+01	-1.74370367427E+02	2.35887232971E+01	1.60228953278E+02	-4.90733305860E+01	-1.36507383113E+02	-5.82734212210E+00	-3.14427950674E-01
1.47614179353E+06	-1.85631429489E+01	1.67974720021E+02	2.35912660661E+01	1.60082831685E+02	-4.92554425048E+01	6.26757331729E+01	-5.86534156953E+00	-1.02899987803E+00
1.49833314813E+06	-1.53182180483E+01	1.57163874230E+02	2.35897039460E+01	1.59690624345E+02	-5.52312267383E+01	-9.35279080774E+01	-5.82984453825E+00	-5.75356195202E-01
1.52052450272E+06	-1.70047516728E+01	1.43324504058E+02	2.35603659872E+01	1.59304906915E+02	-4.61436634687E+01	1.57160382939E+02	-5.76910479545E+00	-9.58868249721E-01
1.54271585732E+06	-1.30966039644E+01	-1.29950620114E+02	2.35948795948E+01	1.58584501436E+02	-4.04878182288E+01	-5.18744434355E+01	-5.92089575703E+00	-5.91349353221E-01
1.56490721191E+06	-1.70183888389E+01	-1.77384273759E+02	2.35886537790E+01	1.58523753770E+02	-3.07693119883E+01	1.22654071767E+02	-5.70938297865E+00	-2.16792741818E+00
1.58709856651E+06	-1.71909493536E+01	1.67654793085E+02	2.35604465142E+01	1.58246474553E+02	-4.74470842625E+01	1.35076710269E+02	-5.80259949771E+00	-9.91310028882E-01
1.60928992110E+06	-1.42916156989E+01	-1.70016095352E+02	2.35159864477E+01	1.57846730171E+02	-4.33806526684E+01	-1.42981619658E+01	-5.92529420213E+00	-7.66388433322E-01
1.63148127570E+06	-1.48713746995E+01	1.79022491117E+02	2.35182883366E+01	1.57455986328E+02	-4.44717907507E+01	-4.25996457633E+01	-5.88380316002E+00	-3.23424904760E-01
1.65367263029E+06	-1.82995372926E+01	1.73419061663E+02	2.35222827596E+01	1.57278610377E+02	-4.49547030703E+01	1.49193579278E+01	-5.88633435623E+00	-9.91366368941E-01
1.67586398489E+06	-1.59480069832E+01	-1.60520182057E+02	2.35338864239E+01	1.56712638738E+02	-4.35156549891E+01	-1.47474173067E+02	-5.76561020821E+00	-3.40464746084E-01
1.69805533948E+06	-1.56355096883E+01	1.13641080329E+02	2.35148072238E+01	1.56959168543E+02	-3.71002271104E+01	-1.04842672545E+02	-5.81680289416E+00	3.09350595944E-02
1.72024669408E+06	-1.93332762743E+01	-1.66487513242E+02	2.35162464358E+01	1.56291788622E+02	-4.44481685601E+01	1.21781745206E+02	-5.80627371437E+00	-1.63014666561E+00
1.74243804867E+06	-1.98426308123E+01	1.70479735138E+02	2.34913836554E+01	1.55914491307E+02	-4.82113673073E+01	1.72272184327E+02	-5.80474359234E+00	-8.97034977942E-01
1.76462940327E+06	-1.63136994139E+01	-1.68939392122E+02	2.34701597804E+01	1.55611335897E+02	-4.63006720722E+01	5.93336362812E+00	-5.88855479334E+00	-1.09773721381E+00
1.78682075786E+06	-1.61139732638E+01	-1.62792138851E+02	2.34663920190E+01	1.55267037868E+02	-4.09184564104E+01	-1.63461578329E+02	-5.74247821735E+00	-7.41201662887E-01
1.80901211246E+06	-1.60691430043E+01	1.58628327858E+02	2.34453744844E+01	1.54933025619E+02	-3.77437794896E+01	-1.53218637369E+01	-6.01092078373E+00	-5.84783244208E-01
1.83120346705E+06	-1.80328105937E+01	-1.58935817826E+02	2.34808972701E+01	1.54441114139E+02	-4.46765554733E+01	-1.24671551803E+02	-5.78210361965E+00	-6.83590013190E-01
1.85339482165E+06	-1.45359722290E+01	-1.35274186073E+02	2.34607757594E+01	1.53995910120E+02	-4.42148893056E+01	-6.94888914040E+01	-5.89991902306E+00	-7.35313199937E-01
1.87558617624E+06	-1.35618796647E+01	1.69943437472E+02	2.34063283837E+01	1.53946849675E+02	-4.42908066544E+01	-6.40898254350E+01	-5.83026775002E+00	-6.35727219104E-01
1.89777753084E+06	-1.82026706990E+01	1.75430919293E+02	2.34046123452E+01	1.53673057326E+02	-4.02577017517E+01	-1.72081175732E+02	-5.71732051758E+00	-7.93462485426E-01
1.91996888543E+06	-1.79029932776E+01	-1.75329349492E+02	2.34070844192E+01	1.53321065405E+02	-4.03210043285E+01	1.63010248145E+02	-5.71578884426E+00	-1.14107383059E+00
1.94216024003E+06	-1.88747218309E+01	-1.68146337009E+02	2.34246660642E+01	1.52880885472E+02	-5.13417694250E+01	-4.98479688489E+01	-5.86336482180E+00	-8.91535875498E-01
1.96435159462E+06	-1.78293216455E+01	-1.65333001984E+02	2.34024412343E+01	1.52507503461E+02	-4.28591465615E+01	-9.60804960953E+01	-5.83914245686E+00	-4.78451747649E-01
1.98654294922E+06	-1.86860287624E+01	-1.71172174515E+02	2.34001616419E+01	1.52238837600E+02	-4.29172932913E+01	3.08541527478E+01	-5.91828489784E+00	-1.34072528148E+00
2.00873430381E+06	-2.52008682084E+01	1.24174314834E+02	2.34021481846E+01	1.52217125987E+02	-3.72653018965E+01	1.23483969336E+02	-5.77023106456E+00	-1.80811254278E+00
2.03092565841E+06	-1.48734067150E+01	-1.75219784659E+02	2.33612479197E+01	1.51569403743E+02	-4.08514670438E+01	1.15936495081E+02	-5.77520294717E+00	-1.72998584257E+00
2.05311701300E+06	-2.18097378801E+01	-1.67829269536E+02	2.33669420595E+01	1.51489085968E+02	-4.39311378341E+01	1.29804873823E+02	-5.76593288065E+00	-1.46196550792E+00
2.07530836760E+06	-1.64513774941E+01	1.66407310271E+02	2.33255436074E+01	1.51173210388E+02	-4.73677365771E+01	1.29566027354E+01	-5.87878775191E+00	-1.08542382527E+00
2.09749972219E+06	-2.02164299511E+01	-1.58799608143E+02	2.33681903253E+01	1.50765203701E+02	-6.50889684067E+01	-1.70737504801E+01	-5.85562439287E+00	-1.12564475508E+00
2.11969107679E+06	-1.66403334940E+01	-1.77864602512E+02	2.33084395170E+01	1.50414592951E+02	-4.38840692030E+01	8.90879470078E+01	-5.84348866656E+00	-1.76814555157E+00
2.14188243138E+06	-1.86278148831E+01	1.42799787024E+02	2.33089909060E+01	1.50304664621E+02	-4.30613129972E+01	-9.05796429850E+01	-5.83023689213E+00	-3.79828866013E-01
2.16407378598E+06	-3.34961513006E+01	-5.71168275392E+01	2.33521693791E+01	1.49983966103E+02	-3.72074339943E+01	1.69566121307E+02	-5.67140672681E+00	-1.23489532640E+00
2.18626514057E+06	-1.61314386599E+01	1.71588585556E+02	2.32892740746E+01	1.49576876160E+02	-3.49943068619E+01	-1.58515911172E+02	-5.65533765656E+00	-9.87058069683E-01
2.20845649517E+06	-1.68128312680E+01	-1.52915618022E+02	2.32984468507E+01	1.49014529516E+02	-4.74919569247E+01	9.20535060309E+01	-5.84902184977E+00	-1.45813823820E+00
2.23064784976E+06	-1.67018021070E+01	-1.69520538460E+02	2.32465769154E+01	1.48741079281E+02	-4.85061992570E+01	-7.33760116623E+01	-5.83618006476E+00	-1.00313707316E+00
2.25283920436E+06	-1.44450638339E+01	1.75676785201E+02	2.32201814596E+01	1.48494885097E+02	-5.78869557447E+01	5.08470963018E+01	-5.84221607154E+00	-1.06874415316E+00
2.27503055895E+06	-1.75755519467E+01	-1.58210237133E+02	2.32578558835E+01	1.48049361691E+02	-4.63537053934E+01	1.65981093473E+02	-5.78245920256E+00	-1.29533014106E+00
2.29722191355E+06	-1.63689726209E+01	-1.70318220447E+02	2.32078317265E+01	1.47715811555E+02	-4.24465959527E+01	-6.67094100888E+01	-5.85939329104E+00	-5.07828465083E-01
2.31941326814E+06	-1.64715839962E+01	1.78042878146E+02	2.31843820984E+01	1.47732644725E+02	-4.60102254770E+01	8.85329859312E+01	-5.82448971637E+00	-1.79397314352E+00
2.34160462274E+06	-1.62750714300E+01	-1.70873187938E+02	2.31912829512E+01	1.47237637363E+02	-3.01564632279E+01	-8.97101819346E+01	-5.84705775537E+00	6.00386966275E-01
2.36379597733E+06	-1.79164829335E+01	-1.76598760354E+02	2.32018474969E+01	1.47116418161E+02	-4.22235935414E+01	9.30038976135E+01	-5.82475509151E+00	-1.79966431425E+00
2.38598733193E+06	-1.73103973783E+01	-1.74197054958E+02	2.31712889692E+01	1.46618329060E+02	-4.82004300090E+01	-1.22388796561E+02	-5.79031499610E+00	-9.59825713932E-01
2.40817868652E+06	-1.66116770745E+01	1.79032260267E+02	2.31582364119E+01	1.46344667908E+02	-4.69278635064E+01	1.49435358007E+02	-5.76200642498E+00	-1.58768121742E+00
2.43037004112E+06	-1.70556468160E+01	-1.70039523591E+02	2.31467808995E+01	1.45959539064E+02	-4.27595313261E+01	3.83280981915E+01	-5.90276905192E+00	-2.05051225751E+00
2.45256139571E+06	-1.63434299566E+01	-1.78095724878E+02	2.31458741625E+01	1.45721205213E+02	-5.18512326350E+01	6.28219333745E+01	-5.88845562444E+00	-1.30369660003E+00
2.47475275031E+06	-1.29579544466E+01	1.72964536286E+02	2.30948770187E+01	1.45561725177E+02	-6.09651087385E+01	8.14401293606E+01	-5.83724233046E+00	-1.24891355518E+00
2.49694410490E+06	-2.01832600289E+01	-1.71223576797E+02	2.31384763018E+01	1.45082092535E+02	-3.57811157837E+01	-7.55839298951E+01	-5.83525324266E+00	-1.12292801450E-01
2.51913545950E+06	-1.56703464876E+01	1.67509005163E+02	2.31007290463E+01	1.44879644694E+02	-5.33103999043E+01	1.48305836458E+02	-5.76832585611E+00	-1.16701106917E+00
2.54132681409E+06	-1.39260768541E+01	-1.75983270387E+02	2.30630552933E+01	1.44372596485E+02	-4.90447403010E+01	6.52265570719E+01	-5.84763324841E+00	-1.38624421097E+00
2.56351816869E+06	-1.54221924117E+01	1.78124603722E+02	2.30640704706E+01	1.44299343325E+02	-4.86472888853E+01	1.68664036825E+02	-5.80097906577E+00	-1.26957128880E+00
2.58570952328E+06	-1.76048994126E+01	1.57758991070E+02	2.30587479804E+01	1.44094988425E+02	-5.79931540364E+01	-1.69124063983E+02	-5.82746690675E+00	-1.38084864211E+00
2.60790087788E+06	-1.86376750844E+01	1.49021966700E+02	2.30382969834E+01	1.43874802259E+02	-4.41050072779E+01	1.75058216394E+02	-5.73955932540E+00	-1.34604023717E+00
2.63009223247E+06	-1.49878765201E+01	-1.74447370718E+02	2.30306415972E+01	1.43123728073E+02	-4.16448686748E+01	2.64284975690E+01	-5.93258870764E+00	-1.36803425748E+00
2.65228358707E+06	-1.63630580285E+01	1.76704424497E+02	2.30248970529E+01	1.43034319122E+02	-3.31238266931E+01	1.50885675667E+02	-5.67021286293E+00	-1.98383728379E+00
2.67447494166E+06	-1.61688463613E+01	1.69902668059E+02	2.30308977767E+01	1.42753745124E+02	-4.13093135221E+01	4.66922074747E+01	-5.91224760564E+00	-1.93638388342E+00
2.69666629626E+06	-1.65629936430E+01	-1.61849317632E+02	2.30308020640E+01	1.42258347637E+02	-4.49392203356E+01	1.36180503101E+02	-5.76513006406E+00	-1.64670090633E+00
2.71885765085E+06	-1.71746839911E+01	-1.69308465001E+02	2.30076374045E+01	1.41885495897E+02	-4.35561786005E+01	1.09874268391E+02	-5.78733944028E+00	-1.94562672209E+00
2.74104900545E+06	-1.68749965240E+01	-1.64734845458E+02	2.29711378014E+01	1.41601808003E+02	-5.31074034384E+01	6.72679406993E+01	-5.83024320745E+00	-1.46284148526E+00
2.76324036004E+06	-1.81960820010E+01	-1.63195758973E+02	2.29940373980E+01	1.41488528323E+02	-4.25844638583E+01	9.78536909396E+01	-5.83102289197E+00	-2.20331791818E+00
2.78543171463E+06	-1.10342475377E+01	-1.71539054378E+02	2.29446571963E+01	1.40793948474E+02	-4.09948489650E+01	1.71161187895E+02	-5.72980305049E+00	-1.34517296366E+00
2.80762306923E+06	-1.52438590563E+01	1.78940529875E+02	2.29225385910E+01	1.40910301007E+02	-4.56445664061E+01	6.62773447990E+01	-5.87000954169E+00	-1.79869979952E+00
2.82981442382E+06	-1.44348900199E+01	-1.78371314127E+02	2.28941303415E+01	1.40563456214E+02	-3.88058033964E+01	4.23567545068E+01	-5.95887558106E+00	-1.99611650921E+00
2.85200577842E+06	-1.50028716579E+01	-1.52546560967E+02	2.29322349182E+01	1.39995489882E+02	-4.40470868264E+01	-9.35672052203E+01	-5.82874644704E+00	-7.75839529038E-01
2.87419713301E+06	-1.63352564497E+01	-1.48640900688E+02	2.29235351056E+01	1.39712096922E+02	-4.16498758998E+01	1.59281708389E+02	-5.73161905217E+00	-1.67393254087E+00
