# Hz S DB R 50
! CMT, M5065, 19127446, 24.2.4/2
! Date: 11/8/2024 4:22:49 PM
! Data: Format (Calibration Info)
! Freq	S11:dB/Ang(F2)	S21:dB/Ang(F2)	S12:dB/Ang(F2)	S22:dB/Ang(F2)
3.00000000000E+05	-2.27385133394E+01	1.63512627577E+02	5.48467939545E+00	-1.77349337771E+02	-4.51457802926E+01	1.56863279395E+02	-5.82064770308E+00	-4.31782118719E-01
3.22191354595E+05	-1.78774924024E+01	1.62705828995E+02	5.46457369535E+00	-1.77845589917E+02	-3.88707577149E+01	1.14808755425E+02	-5.82201889617E+00	-3.60173879328E-01
3.44382709190E+05	-2.12661630955E+01	1.42333860371E+02	5.45176728817E+00	-1.77959924332E+02	-4.20024453357E+01	5.29842657574E+01	-5.82944757668E+00	-2.35057253860E-01
3.66574063785E+05	-1.65052606042E+01	1.65704170898E+02	5.43320022490E+00	-1.78525859537E+02	-4.48642374180E+01	2.81235443390E+01	-5.83312717126E+00	-2.84803469414E-01
3.88765418380E+05	-1.58176410902E+01	1.70730768263E+02	5.39378106762E+00	-1.78729267523E+02	-4.15653851332E+01	-1.19251761349E+02	-5.83710776857E+00	-1.89762197133E-01
4.10956772975E+05	-1.42023992813E+01	-1.79721964331E+02	5.40150366295E+00	-1.79000748321E+02	-4.37746032157E+01	-1.04331145821E+02	-5.83662331296E+00	-1.39193839879E-01
4.33148127570E+05	-1.90750511791E+01	1.73328930466E+02	5.43943600035E+00	-1.79224164600E+02	-4.11341771286E+01	-8.19268286410E+01	-5.83160999722E+00	-1.86429118781E-01
4.55339482165E+05	-1.59594126781E+01	-1.63608589434E+02	5.49375064949E+00	-1.79637969235E+02	-5.10187153506E+01	-1.72238167494E+02	-5.81239961395E+00	-4.64846308065E-01
4.77530836760E+05	-1.50285534265E+01	-1.57397301916E+02	5.48734087783E+00	-1.79605765436E+02	-5.07297084409E+01	-1.52732631813E+02	-5.83447526013E+00	-4.18766221727E-01
4.99722191355E+05	-1.69024239883E+01	-1.77924666993E+02	5.42593484559E+00	-1.79999231759E+02	-4.18733675290E+01	5.21324425211E+01	-5.84189059745E+00	-5.04790675873E-01
5.21913545950E+05	-1.88877205554E+01	-1.69750601677E+02	5.46752364196E+00	1.79862163285E+02	-3.79112823694E+01	1.59112103867E+02	-5.81968679977E+00	-3.52059006935E-01
5.44104900545E+05	-1.58018431573E+01	-1.74853878745E+02	5.46831703535E+00	1.79649314976E+02	-4.82106560454E+01	-3.05935006959E+01	-5.83973343975E+00	-3.34682182422E-01
5.66296255139E+05	-1.42322992490E+01	-1.79703833986E+02	5.47098889675E+00	1.79629876169E+02	-4.77281801401E+01	5.18263541170E+01	-5.82930290241E+00	-3.33417495141E-01
5.88487609734E+05	-2.22389410057E+01	-1.71255970788E+02	5.50843093871E+00	1.79296506114E+02	-3.90192274239E+01	3.02483339826E+01	-5.83368457084E+00	-3.75328109359E-01
6.10678964329E+05	-1.38956478921E+01	1.70698266941E+02	5.49058943557E+00	1.79545898443E+02	-5.86809415615E+01	-4.32211214305E+01	-5.83488520654E+00	1.79902174799E-01
6.32870318924E+05	-1.31415688860E+01	1.69635925057E+02	5.42626193071E+00	1.79356901784E+02	-5.18978234843E+01	6.85913725076E+01	-5.84691897654E+00	-1.82189842593E-01
6.55061673519E+05	-1.71160741627E+01	1.05942863986E+02	5.43457781608E+00	1.79365299401E+02	-4.63876829078E+01	-1.77296861975E+02	-5.82693944217E+00	-3.36359916861E-01
6.77253028114E+05	-1.76499869933E+01	-1.77957596618E+02	5.45427490755E+00	1.78965101568E+02	-4.27295866839E+01	-1.71760150319E+02	-5.84430293339E+00	-7.07296221795E-01
6.99444382709E+05	-1.50737388641E+01	1.71616477772E+02	5.46554204674E+00	1.78604922311E+02	-4.61763828546E+01	-1.73006389709E+02	-5.82902527034E+00	-3.67997405493E-01
7.21635737304E+05	-1.70527460120E+01	-1.65336819935E+02	5.47109079679E+00	1.78761620617E+02	-3.97471237530E+01	-8.49780367164E+01	-5.84436375036E+00	-3.95735949462E-01
7.43827091899E+05	-1.59646381583E+01	-1.64623815743E+02	5.45206704728E+00	1.78222677283E+02	-4.36779245131E+01	8.84697929311E+01	-5.83127034707E+00	-3.86605255466E-01
7.66018446494E+05	-1.92839901065E+01	-1.66768220577E+02	5.44078296384E+00	1.78042357648E+02	-4.13351607800E+01	-1.16597696432E+02	-5.83555874136E+00	-3.40022898957E-01
7.88209801089E+05	-2.18578549598E+01	-1.76209382337E+02	5.46890609981E+00	1.78066382127E+02	-4.50667747328E+01	-7.36017665660E+01	-5.84441995614E+00	-3.26035052029E-01
8.10401155684E+05	-1.96455063599E+01	1.46788123490E+02	5.48542588947E+00	1.77909552212E+02	-4.51922822982E+01	7.69539262679E+01	-5.83667106247E+00	-5.47875163672E-01
8.32592510279E+05	-1.64345575932E+01	1.73684203117E+02	5.46351095646E+00	1.77677168681E+02	-4.56817398842E+01	-3.95068769415E+01	-5.82098536544E+00	-4.84907834448E-01
8.54783864874E+05	-1.56586831969E+01	-1.77755694350E+02	5.42854272094E+00	1.77682285115E+02	-4.36703629663E+01	-1.68401925159E+02	-5.81785190349E+00	-4.96830025831E-01
8.76975219469E+05	-1.70338789064E+01	-1.79574493170E+02	5.42257848645E+00	1.77563680193E+02	-5.05158524940E+01	-1.29021133609E+02	-5.84552876948E+00	-3.91071772413E-01
8.99166574064E+05	-1.33149966925E+01	-1.74063510148E+02	5.37815914637E+00	1.77584378284E+02	-4.15780013491E+01	1.14725864630E+02	-5.83960184377E+00	-4.34698746330E-01
9.21357928659E+05	-1.56357898547E+01	-1.75466111483E+02	5.42852919044E+00	1.77454473465E+02	-5.65293514019E+01	-5.08171559535E+01	-5.82695785374E+00	-4.20776661434E-01
9.43549283254E+05	-2.30490166091E+01	-1.36899162819E+02	5.50810348708E+00	1.77314618959E+02	-5.46598631761E+01	4.09821238987E+01	-5.84466328573E+00	-5.96780566616E-01
9.65740637849E+05	-1.69590520357E+01	1.36645042341E+02	5.46399389026E+00	1.77330126565E+02	-4.73900383754E+01	-1.10938459954E+01	-5.84768160479E+00	-4.85001725352E-01
9.87931992444E+05	-1.85852282373E+01	-1.64865187626E+02	5.49462723622E+00	1.77187592857E+02	-5.19054599732E+01	-4.74535643176E+01	-5.83201373296E+00	-4.64357676022E-01
1.01012334704E+06	-1.85180617092E+01	1.51490159449E+02	5.44424517224E+00	1.77175205671E+02	-4.16751154746E+01	1.11838251158E+02	-5.82499062639E+00	-6.03633183653E-01
1.03231470163E+06	-2.01515937004E+01	-1.71447913346E+02	5.50183847678E+00	1.76615262892E+02	-4.97817459002E+01	-7.13430815608E+00	-5.83649677128E+00	-5.65531243683E-01
1.05450605623E+06	-1.60593230055E+01	-1.52632685251E+02	5.48791748233E+00	1.76688682186E+02	-4.33830714415E+01	1.48195734315E+01	-5.83991822143E+00	-5.67659143157E-01
1.07669741082E+06	-1.72949925321E+01	-1.66575234378E+02	5.47471621872E+00	1.76464837951E+02	-5.02437388894E+01	-7.88233135506E+01	-5.81699983112E+00	-5.67487056593E-01
1.09888876542E+06	-1.78331026243E+01	1.47547622862E+02	5.51471432954E+00	1.76700640140E+02	-4.05153472613E+01	-5.52103210785E+01	-5.85041847111E+00	-5.69847939561E-01
1.12108012001E+06	-2.60880017370E+01	-1.71301602248E+02	5.49512302288E+00	1.76386878959E+02	-4.36541538127E+01	8.08683736952E+01	-5.81499844158E+00	-5.80576603630E-01
1.14327147461E+06	-1.53454072790E+01	-1.73235876755E+02	5.48510710269E+00	1.76359369582E+02	-4.27919148673E+01	-1.73346479257E+02	-5.84416662711E+00	-6.41511884405E-01
1.16546282920E+06	-1.69953404606E+01	-1.77680384822E+02	5.46219838608E+00	1.76514830521E+02	-4.39528986832E+01	1.19164892486E+01	-5.84997905522E+00	-6.42804431585E-01
1.18765418380E+06	-2.17497955853E+01	1.51991038744E+02	5.46368659545E+00	1.76441344225E+02	-5.49648076210E+01	1.69477666034E+02	-5.83625232422E+00	-6.14827449764E-01
1.20984553839E+06	-2.43206774453E+01	1.76400652703E+02	5.48067298279E+00	1.75856203336E+02	-5.67640670062E+01	1.13305024105E+01	-5.84908659756E+00	-7.11689043978E-01
1.23203689299E+06	-1.82260170326E+01	-1.47285062519E+02	5.51243238309E+00	1.75957455437E+02	-3.97615601069E+01	9.00485045575E+01	-5.83967856738E+00	-4.88180873185E-01
1.25422824758E+06	-1.66776375184E+01	1.67005867502E+02	5.53448368869E+00	1.75718669894E+02	-4.98957803347E+01	1.65110326006E+01	-5.86837056231E+00	-5.80362980873E-01
1.27641960218E+06	-1.85922833502E+01	1.79193760034E+02	5.43509971277E+00	1.75587647951E+02	-4.18424908772E+01	-1.36263694241E+02	-5.84979183443E+00	-5.34452842530E-01
1.29861095677E+06	-2.10317697152E+01	1.56606706809E+02	5.51149273565E+00	1.75630799374E+02	-4.05072876618E+01	1.72435663637E+02	-5.81600568525E+00	-5.68450204027E-01
1.32080231137E+06	-1.77516466610E+01	-1.42108511069E+02	5.47272070365E+00	1.75534710490E+02	-4.41715556258E+01	-3.43649008377E+01	-5.84705813328E+00	-1.06809428118E+00
1.34299366596E+06	-1.82185839002E+01	-1.71713790033E+02	5.51963519763E+00	1.75289732960E+02	-6.71900046768E+01	6.02745166246E+01	-5.84978194564E+00	-6.64580061077E-01
1.36518502056E+06	-1.66128505084E+01	1.59033703980E+02	5.47166360721E+00	1.75486378246E+02	-4.80515786815E+01	3.94067354529E+01	-5.83420487590E+00	-5.86951930754E-01
1.38737637515E+06	-1.74896547102E+01	1.67566580974E+02	5.47487639152E+00	1.75065034092E+02	-3.85017182043E+01	1.47584994509E+02	-5.81868764103E+00	-6.64779288613E-01
1.40956772975E+06	-1.82378564498E+01	-1.52600790749E+02	5.50247863399E+00	1.74898168643E+02	-5.23904375900E+01	4.23448762455E+01	-5.82033080977E+00	-6.71698779169E-01
1.43175908434E+06	-9.28236264245E+00	1.79323747567E+02	5.45532913125E+00	1.74437475734E+02	-4.57580397617E+01	-1.23949514467E+02	-5.80984242216E+00	-5.95685928287E-01
1.45395043894E+06	-1.70334313186E+01	-1.54318828083E+02	5.47375523323E+00	1.75047334734E+02	-3.67426272986E+01	-1.71882084007E+02	-5.82379024610E+00	-6.48462274077E-01
1.47614179353E+06	-1.70063488216E+01	-1.75438430453E+02	5.53755638830E+00	1.74668412053E+02	-5.36034118830E+01	-4.85867157911E+01	-5.81558811936E+00	-8.39466227638E-01
1.49833314813E+06	-1.76580114923E+01	-1.68628035914E+02	5.49875677565E+00	1.74687869558E+02	-4.63728962382E+01	1.44255563148E+02	-5.84498648456E+00	-7.00346621539E-01
1.52052450272E+06	-1.56767643428E+01	-1.60664333500E+02	5.44880743129E+00	1.74454529687E+02	-4.46229312326E+01	-1.48408525011E+01	-5.82527878990E+00	-7.66078753042E-01
1.54271585732E+06	-1.27289412781E+01	1.56355217187E+02	5.40970228889E+00	1.74302842312E+02	-5.50871266110E+01	1.59255473992E+00	-5.84105495387E+00	-8.04961043546E-01
1.56490721191E+06	-2.02354182515E+01	-1.16513749245E+02	5.51363801315E+00	1.74329090392E+02	-4.53872058116E+01	1.18073902827E+02	-5.81849493310E+00	-8.89536287626E-01
1.58709856651E+06	-1.11110382646E+01	-1.77785015542E+02	5.51078438620E+00	1.74275552169E+02	-4.85174883948E+01	-6.85134986195E+00	-5.83357519246E+00	-8.85123169047E-01
1.60928992110E+06	-1.77804740661E+01	-1.71682620710E+02	5.45160743863E+00	1.74015436913E+02	-4.63545761121E+01	-7.74065393776E+01	-5.84328220540E+00	-6.78885368333E-01
1.63148127570E+06	-1.78845533113E+01	1.78117473826E+02	5.48749565118E+00	1.74026677826E+02	-5.83201508478E+01	-8.36169626383E+01	-5.84818962133E+00	-8.89690729157E-01
1.65367263029E+06	-1.41135416901E+01	1.65083570356E+02	5.48615990763E+00	1.73955885922E+02	-4.77912662160E+01	-1.78023508633E+02	-5.82883524452E+00	-8.51185192265E-01
1.67586398489E+06	-1.78261039956E+01	-1.64705629314E+02	5.50275930389E+00	1.73617928180E+02	-3.77778968300E+01	3.65363436380E+01	-5.84249728164E+00	-1.04926472530E+00
1.69805533948E+06	-1.51066307913E+01	1.79876164516E+02	5.44524692091E+00	1.73669921244E+02	-5.02695175914E+01	1.32454993928E+02	-5.83113439209E+00	-8.89888078600E-01
1.72024669408E+06	-1.94904035628E+01	-1.45419103521E+02	5.51138503443E+00	1.73339653867E+02	-5.05317056950E+01	-1.52311612110E+02	-5.82959966412E+00	-6.97710810051E-01
1.74243804867E+06	-1.75736153834E+01	-1.71558510979E+02	5.53546696315E+00	1.73593274211E+02	-4.19247145356E+01	9.06173477406E+01	-5.81125007842E+00	-8.56568997218E-01
1.76462940327E+06	-1.42307989585E+01	-1.74818531778E+02	5.47892480762E+00	1.73492308831E+02	-3.49051413700E+01	8.07466962299E+01	-5.81480834819E+00	-1.00769552394E+00
1.78682075786E+06	-2.14596693091E+01	-1.53979181523E+02	5.52301372466E+00	1.73481896349E+02	-4.29084633147E+01	-1.70100430834E+01	-5.85348949268E+00	-1.02606479864E+00
1.80901211246E+06	-1.86436257655E+01	1.62805063418E+02	5.47030213643E+00	1.73340593884E+02	-4.77779594806E+01	1.38344800769E+02	-5.83320012188E+00	-9.55568958001E-01
1.83120346705E+06	-1.61656304972E+01	-1.47721347296E+02	5.49375063143E+00	1.73089332340E+02	-5.33736203214E+01	1.42327136408E+02	-5.82764849978E+00	-8.15847644514E-01
1.85339482165E+06	-1.96221491777E+01	-1.74853852863E+02	5.55841407131E+00	1.73375091615E+02	-4.11925796313E+01	1.26231951137E+02	-5.80816393292E+00	-8.91643339778E-01
1.87558617624E+06	-1.61449691154E+01	-1.68973714767E+02	5.52693049979E+00	1.72825376640E+02	-5.03353939935E+01	-4.74848328913E+01	-5.82389160724E+00	-1.07112481203E+00
1.89777753084E+06	-1.48324015292E+01	1.66493044611E+02	5.42492791919E+00	1.72965130409E+02	-3.61648556304E+01	-1.36562163256E+02	-5.79793596658E+00	-7.95015884667E-01
1.91996888543E+06	-1.55744891816E+01	-1.53970089057E+02	5.51508682601E+00	1.72546019156E+02	-4.38312657873E+01	1.20823006554E+02	-5.82771189784E+00	-1.08487874167E+00
1.94216024003E+06	-1.71150598113E+01	1.77508971016E+02	5.47396529139E+00	1.72779313433E+02	-4.22122166511E+01	-3.40210011954E+01	-5.84887057213E+00	-1.15330857874E+00
1.96435159462E+06	-1.64275008992E+01	-1.74995359574E+02	5.47770675481E+00	1.72418176113E+02	-4.45941462435E+01	-1.61041999550E+01	-5.84214728243E+00	-1.10287637678E+00
1.98654294922E+06	-1.55580003974E+01	-1.62580070328E+02	5.46702932205E+00	1.72582669058E+02	-5.69857884948E+01	-1.70269648563E+02	-5.82122025092E+00	-1.00947439355E+00
2.00873430381E+06	-1.79873659846E+01	-1.26037995973E+02	5.54964592470E+00	1.72594243696E+02	-5.69521111367E+01	-3.78877267518E+01	-5.83218474025E+00	-9.51059762184E-01
2.03092565841E+06	-2.14487145209E+01	-1.53906220945E+02	5.48056957491E+00	1.72229416592E+02	-3.85477540179E+01	-4.90447844948E+00	-5.85298937363E+00	-1.11129925963E+00
2.05311701300E+06	-1.12700119548E+01	1.23273993417E+02	5.46025267703E+00	1.72631302021E+02	-3.85592804832E+01	7.80986343697E+01	-5.83398911088E+00	-1.22615736509E+00
2.07530836760E+06	-1.61013757268E+01	1.52814189045E+02	5.42075127687E+00	1.72332115615E+02	-3.65738383906E+01	5.27329465477E+01	-5.82246388975E+00	-1.06894767061E+00
2.09749972219E+06	-1.97721718638E+01	1.77787896084E+02	5.51066421642E+00	1.72017408436E+02	-4.67935897577E+01	1.41531931321E+01	-5.82508614688E+00	-1.09624631230E+00
2.11969107679E+06	-1.88329657480E+01	-1.79327407784E+02	5.47258479459E+00	1.71876017421E+02	-4.53685067479E+01	1.56353928367E+01	-5.83714894276E+00	-1.13007348166E+00
2.14188243138E+06	-1.77342548191E+01	-1.50155387370E+02	5.53049622134E+00	1.71481366421E+02	-4.54208866781E+01	-2.04275514847E+01	-5.84494235729E+00	-9.96947919597E-01
2.16407378598E+06	-1.42267222607E+01	-1.75114908366E+02	5.48503701364E+00	1.71742926949E+02	-4.83843407299E+01	1.75019937386E+02	-5.82724712794E+00	-1.04889542314E+00
2.18626514057E+06	-1.93966251766E+01	-1.74173392910E+02	5.53520932044E+00	1.71576149716E+02	-5.60915651063E+01	-1.25338636604E+02	-5.80415214001E+00	-1.05435679022E+00
2.20845649517E+06	-1.05701361477E+01	1.46034508082E+02	5.44644298155E+00	1.71471113433E+02	-4.26514018271E+01	-1.26945920341E+02	-5.82947417471E+00	-1.01515101405E+00
2.23064784976E+06	-1.71352974689E+01	-1.75752829193E+02	5.54591433500E+00	1.71314268570E+02	-3.77713957859E+01	-1.60965695855E+02	-5.80967273213E+00	-9.78907699458E-01
2.25283920436E+06	-2.06638172358E+01	-1.42585360344E+02	5.53929289124E+00	1.71203152266E+02	-4.69010871648E+01	-8.02129172138E+01	-5.82535584762E+00	-1.13324014614E+00
2.27503055895E+06	-1.64161817164E+01	-1.72882401301E+02	5.52647759473E+00	1.71413326968E+02	-4.87630855728E+01	-4.27653043466E+01	-5.83892023894E+00	-1.29972351318E+00
2.29722191355E+06	-1.56880917121E+01	1.69906476500E+02	5.42707035673E+00	1.71266946553E+02	-4.04387651310E+01	7.70061842615E+01	-5.82940649891E+00	-1.33464801833E+00
2.31941326814E+06	-1.76980891213E+01	1.77683246047E+02	5.51645535869E+00	1.70913986233E+02	-5.15930088164E+01	-7.96385785307E+01	-5.85204197910E+00	-1.22395883495E+00
2.34160462274E+06	-1.57242756009E+01	1.35564478888E+02	5.48763159496E+00	1.71357487384E+02	-4.48663615060E+01	7.91018364154E+01	-5.82659765700E+00	-1.15524888119E+00
2.36379597733E+06	-1.06137801677E+01	-1.73596985566E+02	5.45487282694E+00	1.70625365594E+02	-4.38453579126E+01	4.36832814581E+01	-5.85103223927E+00	-1.10209798494E+00
2.38598733193E+06	-1.35463809232E+01	-1.01143602937E+02	5.64197655335E+00	1.70549698827E+02	-3.54083508437E+01	-9.84553711809E+01	-5.83700358601E+00	-9.94125224813E-01
2.40817868652E+06	-1.43501598898E+01	1.78906575675E+02	5.49669015784E+00	1.70676729055E+02	-4.40568088998E+01	6.44099709651E+01	-5.81970846998E+00	-1.35750020846E+00
2.43037004112E+06	-2.03720564831E+01	-1.69936735660E+02	5.54048428586E+00	1.70402828194E+02	-4.29057695558E+01	2.02759238534E+01	-5.81475763001E+00	-1.71410212831E+00
2.45256139571E+06	-1.69563667539E+01	1.76135463247E+02	5.48474705197E+00	1.70516200748E+02	-5.15748102067E+01	-1.56444406800E+02	-5.84259244543E+00	-1.22494524368E+00
2.47475275031E+06	-1.67346938826E+01	-1.59647861133E+02	5.46404873003E+00	1.70502324595E+02	-4.55345110073E+01	-4.24009037386E+01	-5.83037898203E+00	-1.06890753521E+00
2.49694410490E+06	-1.30748255509E+01	-1.63890534843E+02	5.45814295203E+00	1.69844648664E+02	-4.03364875714E+01	-1.61783266277E+02	-5.81132312016E+00	-1.10178517495E+00
2.51913545950E+06	-1.89545331649E+01	1.73146614039E+02	5.49632777822E+00	1.70103171948E+02	-6.06501381170E+01	4.71437947284E+01	-5.87125857478E+00	-1.21876249829E+00
2.54132681409E+06	-1.09208619294E+01	-1.50357353387E+02	5.51650420528E+00	1.69625008646E+02	-4.04925046896E+01	1.36542067541E+02	-5.81984927995E+00	-1.12473798666E+00
2.56351816869E+06	-2.12442750424E+01	-1.40898426118E+02	5.54942507724E+00	1.70187610040E+02	-4.29979357322E+01	-7.71408258034E+01	-5.83817024580E+00	-1.16413998172E+00
2.58570952328E+06	-1.64916109676E+01	-1.64330792923E+02	5.48881989208E+00	1.69908650280E+02	-5.03209778522E+01	-1.58275623154E+02	-5.82709876736E+00	-1.18789756734E+00
2.60790087788E+06	-1.80664763048E+01	-1.65133458482E+02	5.50555314548E+00	1.69903665504E+02	-4.44429511978E+01	9.41830217146E+01	-5.82842883776E+00	-1.20372669942E+00
2.63009223247E+06	-1.69926145160E+01	-1.58800087453E+02	5.49167934820E+00	1.69513921832E+02	-4.28096163396E+01	-5.24352822822E+01	-5.82918501718E+00	-9.68135000947E-01
2.65228358707E+06	-2.12173967627E+01	-1.76705152299E+02	5.55533135948E+00	1.69688073278E+02	-4.75821710049E+01	-3.06669228980E+01	-5.83257404484E+00	-1.20992719079E+00
2.67447494166E+06	-1.55923255380E+01	-1.42584156334E+02	5.52203767109E+00	1.69385673664E+02	-4.22310332579E+01	7.56002122974E+00	-5.84648622795E+00	-1.32981326863E+00
2.69666629626E+06	-1.41045485731E+01	1.45492680364E+02	5.46394796775E+00	1.69424150729E+02	-3.40432935049E+01	9.43905420242E+01	-5.81753205358E+00	-1.37938047170E+00
2.71885765085E+06	-1.53464636250E+01	-1.79017861599E+02	5.52587856457E+00	1.69210356822E+02	-5.76350804498E+01	-2.87047594469E+01	-5.82432953988E+00	-1.41938283918E+00
2.74104900545E+06	-1.93151768008E+01	-1.34885529715E+02	5.57406471156E+00	1.69192752213E+02	-4.69841407038E+01	1.45707848894E+02	-5.81565669582E+00	-1.44469342152E+00
2.76324036004E+06	-2.56743796711E+01	-1.50601455327E+02	5.56132045494E+00	1.69178758481E+02	-4.90673736188E+01	-1.20752087289E+01	-5.84881257243E+00	-1.48682689565E+00
2.78543171463E+06	-1.91900732103E+01	1.61862989162E+02	5.52655962653E+00	1.69177755860E+02	-4.75067922217E+01	-1.17546525842E+02	-5.85200995418E+00	-1.28571423142E+00
2.80762306923E+06	-1.86287257437E+01	1.58773057095E+02	5.51543982422E+00	1.69095853160E+02	-4.58963108296E+01	8.68863600293E+01	-5.81961950191E+00	-1.50874003315E+00
2.82981442382E+06	-1.62928551086E+01	-1.75239904326E+02	5.45939090697E+00	1.68960895356E+02	-3.96509591120E+01	-7.47418920259E+01	-5.84919396580E+00	-1.24177563059E+00
2.85200577842E+06	-1.59639407664E+01	-1.78518866608E+02	5.51134452170E+00	1.68552135081E+02	-5.26168189320E+01	-1.62861812027E+02	-5.81293010510E+00	-1.40432173754E+00
2.87419713301E+06	-1.43925180948E+01	1.72470643420E+02	5.49606235788E+00	1.68803581848E+02	-4.46907047890E+01	-1.37215823401E+02	-5.84831367545E+00	-1.30185198311E+00
