# Hz S DB R 50
! CMT, M5065, 19127446, 24.2.4/2
! Date: 11/8/2024 4:20:04 PM
! Data: Format (Calibration Info)
! Freq	S11:dB/Ang(F2)	S21:dB/Ang(F2)	S12:dB/Ang(F2)	S22:dB/Ang(F2)
3.00000000000E+05	-1.69084230709E+01	-1.51328577672E+02	2.91790360608E+01	-1.73526888263E+02	-4.55212914423E+01	1.46148279338E+02	-5.69452307932E+00	-7.93659240431E-01
3.22191354595E+05	-1.41762238477E+01	-1.58383384194E+02	2.91937592888E+01	-1.75064184223E+02	-4.63522506998E+01	4.21618522579E+01	-5.88337306766E+00	-1.13973209275E+00
3.44382709190E+05	-1.51221733796E+01	1.39731522184E+02	2.91913577324E+01	-1.76307973632E+02	-4.27430193965E+01	-9.74167123181E+01	-5.84102357038E+00	4.74168697341E-01
3.66574063785E+05	-2.23377793494E+01	1.27938597670E+02	2.92584353536E+01	-1.77746167171E+02	-4.36969114509E+01	1.03290558472E+02	-5.74757621242E+00	-1.34360252711E+00
3.88765418380E+05	-1.90446142944E+01	-1.78393345706E+02	2.92101383026E+01	-1.79116695698E+02	-4.16526444759E+01	1.58437565864E+02	-5.59671075350E+00	-4.97177557485E-01
4.10956772975E+05	-1.82230314697E+01	-1.78218895939E+02	2.92414541404E+01	1.79575959001E+02	-4.18783025646E+01	-1.11577454568E+02	-5.79882594282E+00	6.20218232086E-01
4.33148127570E+05	-2.43606070143E+01	1.41544322990E+02	2.92457339290E+01	1.78567014428E+02	-5.42944998921E+01	-1.05124144218E+02	-5.84878869797E+00	-4.53452934965E-01
4.55339482165E+05	-1.23098781561E+01	-1.67726428051E+02	2.91931385104E+01	1.77398095857E+02	-4.07593167721E+01	2.11687212649E+01	-5.97733226344E+00	-1.06345320237E+00
4.77530836760E+05	-1.68744734386E+01	-1.77996817922E+02	2.91905141989E+01	1.76341471394E+02	-4.44393096818E+01	6.75170392867E+01	-5.86771705384E+00	-1.28190689391E+00
4.99722191355E+05	-1.61175130508E+01	1.41918437592E+02	2.91850337091E+01	1.75607748733E+02	-4.10723480559E+01	1.21934744055E+02	-5.73133889538E+00	-1.45211613913E+00
5.21913545950E+05	-2.26358321987E+01	-1.47735161813E+02	2.92083436558E+01	1.74385070099E+02	-4.03683708283E+01	8.54425400040E+01	-5.83791212189E+00	-1.98816020097E+00
5.44104900545E+05	-2.49395076788E+01	1.49975168384E+02	2.91861125600E+01	1.73585216686E+02	-4.43583103791E+01	-2.93156710643E+00	-5.90232480966E+00	-5.79697785902E-01
5.66296255139E+05	-1.68025733756E+01	1.74934577113E+02	2.91514738274E+01	1.72618703096E+02	-4.39843439919E+01	1.34248226353E+02	-5.66161016382E+00	-5.80692137507E-01
5.88487609734E+05	-1.38718153742E+01	-1.60030780643E+02	2.90997844269E+01	1.71746023999E+02	-4.23346535119E+01	-4.09534843998E+01	-5.98085947835E+00	1.29809750461E-01
6.10678964329E+05	-1.65903428222E+01	1.52764670929E+02	2.91086397736E+01	1.71111205323E+02	-4.66977178693E+01	1.08849475906E+02	-5.81446316631E+00	-8.94451065654E-01
6.32870318924E+05	-1.53641814590E+01	-1.58586362008E+02	2.90960241957E+01	1.70119533321E+02	-4.44814449881E+01	-8.37456923761E+01	-5.82568425401E+00	7.61545992246E-01
6.55061673519E+05	-1.53448742268E+01	1.58681697157E+02	2.90550409877E+01	1.69573535590E+02	-4.03795746168E+01	3.54658639727E+00	-6.04590592111E+00	-7.29676469789E-01
6.77253028114E+05	-1.98460002062E+01	-1.58344901893E+02	2.90858824301E+01	1.68617879726E+02	-4.76458624499E+01	-1.11093980006E+02	-5.78197591810E+00	-2.05747613987E-01
6.99444382709E+05	-1.68062593413E+01	-1.79925263165E+02	2.90440474139E+01	1.67979675133E+02	-3.91658491857E+01	-7.87516667695E+00	-6.07789674013E+00	-8.12684249672E-01
7.21635737304E+05	-1.65709276397E+01	-1.65806113824E+02	2.90349862115E+01	1.67190436406E+02	-3.98947866921E+01	-5.14578781922E+01	-5.91157317812E+00	3.38574808470E-01
7.43827091899E+05	-1.56968675124E+01	-1.65683475976E+02	2.90112876084E+01	1.66450201843E+02	-6.34566378983E+01	1.03647017978E+02	-5.83209565437E+00	-5.91701508662E-01
7.66018446494E+05	-1.81825915556E+01	-1.77432592901E+02	2.89866829143E+01	1.65757254947E+02	-4.70892901961E+01	1.79471108977E+02	-5.70956790017E+00	-7.99552631245E-01
7.88209801089E+05	-2.02679116706E+01	-1.42880920464E+02	2.89904868335E+01	1.65070777416E+02	-4.73268978204E+01	9.35716491423E+01	-5.81403020256E+00	-1.35855446275E+00
8.10401155684E+05	-1.98672301883E+01	-1.71722677657E+02	2.89386239746E+01	1.64411210040E+02	-4.29248870944E+01	-8.04683971710E+01	-5.86621387866E+00	4.41963946298E-01
8.32592510279E+05	-1.77579721876E+01	1.69934728770E+02	2.89207440355E+01	1.63865130882E+02	-4.47717679565E+01	1.53933817958E+02	-5.73692802598E+00	-9.74119167412E-01
8.54783864874E+05	-1.47527606799E+01	-1.47781612715E+02	2.89027075275E+01	1.62957509811E+02	-4.78034391017E+01	1.49444221731E+02	-5.76845400432E+00	-7.95941200751E-01
8.76975219469E+05	-1.80851237789E+01	1.49627521513E+02	2.88648980405E+01	1.62704411790E+02	-6.29764286225E+01	3.89308727875E+01	-5.82100362098E+00	-7.14583045646E-01
8.99166574064E+05	-1.77926493004E+01	1.67428267898E+02	2.88643933366E+01	1.61831675606E+02	-5.34840962534E+01	-6.68587288323E+01	-5.84833093753E+00	-2.70650786451E-01
9.21357928659E+05	-1.77967648604E+01	-1.46682777459E+02	2.88347405968E+01	1.60950092133E+02	-4.48577708780E+01	-1.38541057574E+02	-5.79108145008E+00	-3.20900324598E-01
9.43549283254E+05	-2.37950894420E+01	-1.23766191212E+02	2.88442528229E+01	1.60436918671E+02	-4.56964160277E+01	4.95882457411E+01	-5.88203332818E+00	-1.13488342802E+00
9.65740637849E+05	-2.02307568913E+01	-1.70465459853E+02	2.88166140885E+01	1.59949406943E+02	-4.67038106820E+01	1.14699373220E+02	-5.77910223806E+00	-1.24834936897E+00
9.87931992444E+05	-1.40288800691E+01	1.72594214936E+02	2.87200475325E+01	1.59390073727E+02	-4.61519804039E+01	3.73203330986E+01	-5.90349347526E+00	-9.32849076998E-01
1.01012334704E+06	-1.97034974067E+01	-1.42060225727E+02	2.87484650173E+01	1.58592187824E+02	-4.61424532286E+01	-4.62409349642E+01	-5.87589518414E+00	-2.35067263838E-01
1.03231470163E+06	-1.66722534725E+01	1.67363911496E+02	2.86981942696E+01	1.58226704614E+02	-3.68150098408E+01	-1.35528948207E+02	-5.70074025494E+00	2.74784190774E-01
1.05450605623E+06	-1.79445379666E+01	-1.67786178569E+02	2.86809337425E+01	1.57508371032E+02	-4.49356604802E+01	-1.27274223793E+02	-5.76029903508E+00	-2.06299200511E-01
1.07669741082E+06	-2.12937568995E+01	-1.27566711567E+02	2.86943230954E+01	1.56744644430E+02	-4.84464491424E+01	8.13354023369E+01	-5.79998070363E+00	-1.24203454319E+00
1.09888876542E+06	-1.86533172549E+01	1.65381807562E+02	2.86306264839E+01	1.56530074521E+02	-4.61702696470E+01	8.65130403047E+01	-5.87747941406E+00	-1.26563991105E+00
1.12108012001E+06	-1.43479440209E+01	1.61776711241E+02	2.85941541371E+01	1.56052063360E+02	-4.27031453545E+01	5.09554383075E+01	-5.95795049002E+00	-1.51816912605E+00
1.14327147461E+06	-2.23341296154E+01	-1.58288182649E+02	2.86172398930E+01	1.55294366994E+02	-4.61743834498E+01	-1.31751987522E+02	-5.79149430390E+00	4.35610586980E-02
1.16546282920E+06	-1.83312638069E+01	-1.77371540776E+02	2.85359693340E+01	1.54718002050E+02	-4.36942896341E+01	-7.42359509011E+01	-5.85078675503E+00	2.43275884831E-01
1.18765418380E+06	-1.48793504783E+01	1.67992078537E+02	2.84941277060E+01	1.54288161752E+02	-4.66416002136E+01	-8.49144224232E+01	-5.82598480848E+00	1.91372507013E-01
1.20984553839E+06	-1.69856196450E+01	1.42287034508E+02	2.84861568203E+01	1.53829511894E+02	-4.57121794018E+01	1.54034870501E+02	-5.73105442426E+00	-1.27946620617E+00
1.23203689299E+06	-2.14199395635E+01	-1.70495528460E+02	2.84851622762E+01	1.53240772849E+02	-4.13229492678E+01	7.65947230387E+01	-5.91829565709E+00	-1.61835705630E+00
1.25422824758E+06	-1.91246323468E+01	1.78210883753E+02	2.84490620961E+01	1.52656672263E+02	-4.85330179427E+01	-1.79340269511E+02	-5.76887901719E+00	-8.32554682848E-01
1.27641960218E+06	-1.56519822693E+01	1.75270326588E+02	2.84213707500E+01	1.52057605354E+02	-4.36750837009E+01	9.74970491932E+01	-5.86576851428E+00	-1.52766637524E+00
1.29861095677E+06	-1.89497686789E+01	-1.69758344517E+02	2.84036200584E+01	1.51600285437E+02	-4.99628197997E+01	8.56257675198E+01	-5.83435133049E+00	-1.19342470805E+00
1.32080231137E+06	-2.03340039231E+01	-1.50897182160E+02	2.83715856778E+01	1.50866128855E+02	-4.63151990949E+01	1.16683322803E+02	-5.81287009172E+00	-1.93250017406E+00
1.34299366596E+06	-1.65586380971E+01	1.56249510722E+02	2.83292634991E+01	1.50779666403E+02	-4.94239527312E+01	1.13517319256E+02	-5.71548249483E+00	-1.04621765307E+00
1.36518502056E+06	-2.16467555165E+01	-1.47077254472E+02	2.83265137405E+01	1.49948742057E+02	-4.97340506343E+01	-7.51127151583E+01	-5.83625162357E+00	-4.95757946441E-01
1.38737637515E+06	-1.56419204245E+01	1.14747347897E+02	2.82737280579E+01	1.49870433182E+02	-4.64163175909E+01	-1.71820421883E+02	-5.76676257224E+00	-8.15114282424E-01
1.40956772975E+06	-1.64189850966E+01	1.74108982150E+02	2.82241123516E+01	1.48941137445E+02	-4.60712509583E+01	-8.71983447026E+00	-5.93456948180E+00	-4.53994847653E-01
1.43175908434E+06	-2.37656551690E+01	-1.52953857248E+02	2.82407364685E+01	1.48459632808E+02	-4.34235994220E+01	1.07849605706E+02	-5.79079482089E+00	-1.71809526654E+00
1.45395043894E+06	-2.25743047034E+01	1.69623717362E+02	2.81918707789E+01	1.47900111658E+02	-4.29409629271E+01	-1.31159337307E+02	-5.72030290971E+00	-3.16215872014E-01
1.47614179353E+06	-2.50903110306E+01	1.73785517639E+02	2.81714919538E+01	1.47617762439E+02	-4.88361820942E+01	3.71343585002E+01	-5.89327399591E+00	-8.84276257152E-01
1.49833314813E+06	-2.16105049616E+01	-1.10764602737E+02	2.81754227779E+01	1.46818296802E+02	-4.18891869485E+01	-2.16539036490E+01	-5.93575336365E+00	-2.38851460674E-01
1.52052450272E+06	-1.46500285722E+01	-1.55317676276E+02	2.80949920462E+01	1.46174191368E+02	-4.51726261442E+01	-9.75993757880E+01	-5.84923211254E+00	-3.26474234146E-01
1.54271585732E+06	-2.25828595231E+01	-3.37310119687E+01	2.81383272089E+01	1.45997488590E+02	-5.18334458759E+01	6.44960170748E+01	-5.87589797811E+00	-1.15753054832E+00
1.56490721191E+06	-2.09127360304E+01	-1.71710006084E+02	2.80565407929E+01	1.45600937197E+02	-4.71612095180E+01	-1.12711607398E+02	-5.76944898602E+00	-2.34843040429E-01
1.58709856651E+06	-1.52087920096E+01	-1.67764240774E+02	2.79879909323E+01	1.44955379499E+02	-4.26164414787E+01	-6.53260167088E+01	-5.88142904636E+00	1.09474908826E-01
1.60928992110E+06	-1.98776609282E+01	-1.71452718956E+02	2.79756637667E+01	1.44554625566E+02	-3.97239206890E+01	8.23590493277E+01	-5.88133343281E+00	-2.15549561772E+00
1.63148127570E+06	-1.88597494246E+01	1.39000468297E+02	2.79599903440E+01	1.44281669073E+02	-5.53567107003E+01	3.48328470048E+01	-5.84126402830E+00	-8.53725252456E-01
1.65367263029E+06	-1.80658607201E+01	-1.59714657342E+02	2.79322622063E+01	1.43549446994E+02	-3.74261828976E+01	9.21320937928E+01	-5.88037264603E+00	-2.38900265420E+00
1.67586398489E+06	-1.81550885137E+01	-1.46032705230E+02	2.79078325962E+01	1.43038799084E+02	-3.91322122420E+01	-1.33795767547E+02	-5.68150688837E+00	-4.51346517613E-01
1.69805533948E+06	-1.68879644631E+01	-4.64283344521E+01	2.79280479066E+01	1.42544244189E+02	-6.23624449726E+01	9.28539676598E+01	-5.80400332010E+00	-1.00648479974E+00
1.72024669408E+06	-2.38241360646E+01	1.57546911990E+02	2.78400928033E+01	1.42440503162E+02	-4.47575733943E+01	1.72261578293E+02	-5.71363039780E+00	-1.20237135120E+00
1.74243804867E+06	-1.84698881789E+01	-1.61582736306E+02	2.77979145876E+01	1.41747619813E+02	-4.58318648381E+01	1.54858937830E+00	-5.98934590291E+00	-8.69725372032E-01
1.76462940327E+06	-2.00215828742E+01	1.61827864214E+02	2.77565811409E+01	1.41399209226E+02	-4.75407490058E+01	1.19217906622E+02	-5.82740989903E+00	-1.63353657119E+00
1.78682075786E+06	-1.49774058417E+01	1.74113804929E+02	2.76944752500E+01	1.40970134360E+02	-4.98606391727E+01	-1.26718724624E+02	-5.76671127944E+00	-6.49465409889E-01
1.80901211246E+06	-1.60683232855E+01	1.75279678014E+02	2.76690763943E+01	1.40396978318E+02	-4.31811846517E+01	1.18299830255E+02	-5.82909604475E+00	-1.73839485161E+00
1.83120346705E+06	-2.29001573837E+01	1.59893070496E+02	2.76840258032E+01	1.40082884492E+02	-3.59976122478E+01	-1.75621722967E+02	-5.53807871761E+00	-1.76611689557E+00
1.85339482165E+06	-1.84783387195E+01	2.64991218940E+01	2.77304463902E+01	1.39825919126E+02	-4.84469021291E+01	-7.88278192228E+01	-5.82259678536E+00	-5.80893197385E-01
1.87558617624E+06	-1.78987495717E+01	1.50017522613E+02	2.76033644176E+01	1.39263052003E+02	-4.91791068237E+01	1.18658311340E+02	-5.82164792349E+00	-1.34629024981E+00
1.89777753084E+06	-1.83869902174E+01	-1.78491367266E+02	2.75763131769E+01	1.38668447402E+02	-4.48313391303E+01	-4.58226756100E+00	-5.90272674425E+00	-6.08879163003E-01
1.91996888543E+06	-1.63192939109E+01	1.75466704008E+02	2.75298264427E+01	1.38263493273E+02	-5.21504107148E+01	1.47020079396E+02	-5.82048225720E+00	-9.19604424399E-01
1.94216024003E+06	-2.02826982588E+01	-1.69488261908E+02	2.75097577099E+01	1.37687539593E+02	-4.83677618676E+01	7.61605852928E+00	-5.93948950539E+00	-8.81772422961E-01
1.96435159462E+06	-1.77285948723E+01	1.78911765844E+02	2.74648081942E+01	1.37389060689E+02	-3.00218031881E+01	3.31760757288E+01	-6.39439695448E+00	-1.24679824988E+00
1.98654294922E+06	-1.59944096604E+01	1.73557939240E+02	2.74160916143E+01	1.36919391197E+02	-4.18768818229E+01	-1.55167119163E+02	-5.67343148015E+00	-1.05259944591E+00
2.00873430381E+06	-1.66965831328E+01	-9.65962837366E+01	2.74604645813E+01	1.36252008686E+02	-4.65013032734E+01	-1.49635161056E+02	-5.74213376123E+00	-6.95747252574E-01
2.03092565841E+06	-2.05554003730E+01	1.67979142675E+02	2.73702129446E+01	1.36161243388E+02	-5.17239753169E+01	6.71647225884E+01	-5.84992040246E+00	-1.70137982358E+00
2.05311701300E+06	-1.51524527386E+01	-1.54634698829E+02	2.73524812025E+01	1.35318030003E+02	-4.15177603932E+01	1.03270264054E+02	-5.82020415424E+00	-2.31875532614E+00
2.07530836760E+06	-1.72932095225E+01	-1.61281758743E+02	2.73104700427E+01	1.35067690116E+02	-4.88103466490E+01	1.74027052008E+02	-5.77939088258E+00	-1.25125426600E+00
2.09749972219E+06	-1.71698354208E+01	-1.60080910374E+02	2.72918865004E+01	1.34580217733E+02	-4.26479025789E+01	8.31434649304E+01	-5.87657518085E+00	-1.99216277335E+00
2.11969107679E+06	-1.67685094563E+01	-1.78026781994E+02	2.72404449633E+01	1.34403254487E+02	-4.23051858734E+01	-8.00686039206E+00	-5.93693276883E+00	-4.63991548800E-01
2.14188243138E+06	-1.66638976581E+01	1.62594686528E+02	2.71880195970E+01	1.33958032076E+02	-4.44733484612E+01	4.53250014456E+01	-5.91744984296E+00	-1.32312144125E+00
2.16407378598E+06	-1.29512125188E+01	-1.05340723422E+02	2.72048436649E+01	1.33097622200E+02	-4.79593349753E+01	-1.18513004438E+02	-5.77806691689E+00	-7.47017356816E-01
2.18626514057E+06	-1.25758292346E+01	-1.53068890548E+02	2.71058373823E+01	1.32814963769E+02	-4.15533148247E+01	-5.31831454389E+01	-5.88467877731E+00	5.15132134064E-02
2.20845649517E+06	-1.48062404755E+01	-1.77359309818E+02	2.70926474726E+01	1.32562155192E+02	-4.64841416989E+01	1.23596626838E+01	-5.91569555042E+00	-1.25936125701E+00
2.23064784976E+06	-1.82623703444E+01	-1.54953567125E+02	2.70755422164E+01	1.32330979693E+02	-4.53772825537E+01	1.62793272858E+02	-5.73182424725E+00	-1.47296109579E+00
2.25283920436E+06	-1.83571156151E+01	-1.68400986728E+02	2.70382555099E+01	1.31960222667E+02	-4.54594761600E+01	-6.32835407513E+01	-5.83737258097E+00	-3.23951149781E-01
2.27503055895E+06	-2.06128282611E+01	-1.43891316011E+02	2.70419655115E+01	1.31562936981E+02	-3.20801531079E+01	-1.05414009726E+02	-5.56284804485E+00	1.14828500622E+00
2.29722191355E+06	-2.14209834489E+01	1.54746061264E+02	2.69740262791E+01	1.31344059291E+02	-4.27603394092E+01	-1.66792485329E+02	-5.75565316659E+00	-1.45352717877E+00
2.31941326814E+06	-1.51974667903E+01	-1.56990712419E+02	2.69334249261E+01	1.30559961926E+02	-4.55432737360E+01	9.69697096662E+01	-5.84758388684E+00	-1.94944028975E+00
2.34160462274E+06	-1.21537538786E+01	-1.49830617585E+02	2.68899010378E+01	1.29888763107E+02	-4.09408719816E+01	-1.62467017660E+01	-5.98331523773E+00	-4.84506741705E-01
2.36379597733E+06	-1.82116274377E+01	-1.71626095693E+02	2.68764918183E+01	1.29989957129E+02	-4.60340445297E+01	-1.28677123543E+02	-5.76672590315E+00	-8.88491495865E-01
2.38598733193E+06	-1.77544262993E+01	-1.44587345856E+02	2.68711246717E+01	1.29468604535E+02	-4.30275311332E+01	-6.71737178647E+01	-5.84081969317E+00	-2.91005095571E-01
2.40817868652E+06	-1.68692530528E+01	-1.75911277686E+02	2.67760701242E+01	1.29188463242E+02	-5.27023812311E+01	-1.65447157328E+02	-5.81562788401E+00	-1.41635985357E+00
2.43037004112E+06	-1.68112010000E+01	-1.57601269771E+02	2.67789369808E+01	1.28655754024E+02	-4.00716245598E+01	1.33141368894E+02	-5.79428227328E+00	-2.98128724510E+00
2.45256139571E+06	-1.82852776338E+01	-1.73005147915E+02	2.67162129986E+01	1.28474738043E+02	-3.53583481414E+01	-6.96206752637E+01	-5.81272223920E+00	5.75062082670E-01
2.47475275031E+06	-1.55600310355E+01	-1.72191516160E+02	2.66841007223E+01	1.27855868076E+02	-5.09999032351E+01	-9.52728320134E+01	-5.83631956423E+00	-9.53431869805E-01
2.49694410490E+06	-1.61363115024E+01	-1.24677739196E+02	2.66795318017E+01	1.27378742662E+02	-4.97766443421E+01	-1.57687421012E+02	-5.77185434562E+00	-1.36540224830E+00
2.51913545950E+06	-1.88942691102E+01	1.64882837118E+02	2.66187327214E+01	1.27299586959E+02	-4.54390544464E+01	3.95731141687E+01	-5.98595830800E+00	-1.55434473919E+00
2.54132681409E+06	-1.38669968789E+01	1.75250470591E+02	2.65578635535E+01	1.26795414530E+02	-5.07460248670E+01	1.77635514389E+01	-5.89753904817E+00	-1.31341323180E+00
2.56351816869E+06	-1.74112328637E+01	-1.67347263036E+02	2.65565317241E+01	1.26401717263E+02	-4.64939045361E+01	-8.70597301249E+01	-5.81110803683E+00	-6.96093664505E-01
2.58570952328E+06	-1.39582940329E+01	-1.79699164094E+02	2.65020195030E+01	1.26028651354E+02	-3.71243669729E+01	8.09691931573E+01	-5.95198283702E+00	-2.73726395574E+00
2.60790087788E+06	-1.58265171141E+01	1.66003702475E+02	2.64528122119E+01	1.25901083889E+02	-4.08310095850E+01	-7.31167739825E+00	-5.98305286932E+00	-5.13293853166E-01
2.63009223247E+06	-1.13491057810E+01	1.61935694387E+02	2.63841925884E+01	1.25594754324E+02	-4.80564855875E+01	-1.05860269531E+02	-5.79907520573E+00	-4.68954983929E-01
2.65228358707E+06	-1.36544681994E+01	-1.62500683197E+02	2.64020052306E+01	1.24987427739E+02	-4.38889631477E+01	2.16555147843E+01	-5.97081922012E+00	-1.29493740016E+00
2.67447494166E+06	-1.87928892879E+01	-1.74670444436E+02	2.63888583191E+01	1.24665600543E+02	-4.92972088703E+01	-6.86597972303E+01	-5.83696242035E+00	-8.05002289423E-01
2.69666629626E+06	-2.04629073463E+01	-1.64155784460E+02	2.63600227249E+01	1.24252459438E+02	-4.36261214086E+01	-1.11607619452E+02	-5.75963588615E+00	-8.44352530824E-01
2.71885765085E+06	-1.81159490051E+01	-1.68876132971E+02	2.63207708492E+01	1.24023828109E+02	-4.32716429041E+01	9.50630615425E+01	-5.86007091386E+00	-2.25469779566E+00
2.74104900545E+06	-2.60464482041E+01	1.58590115093E+02	2.63068801959E+01	1.23902426373E+02	-3.71048008051E+01	9.13379548810E+01	-5.91658820955E+00	-2.87201221470E+00
2.76324036004E+06	-1.77480478322E+01	-1.58580021619E+02	2.62736082493E+01	1.23138334605E+02	-3.58078713074E+01	8.80208032168E+01	-6.01955779265E+00	-3.47399961189E+00
2.78543171463E+06	-2.10190281297E+01	1.67630899071E+02	2.62261106813E+01	1.23048515060E+02	-4.71791830807E+01	4.22338077482E+01	-5.92975355860E+00	-1.58505193724E+00
2.80762306923E+06	-1.94612771561E+01	1.55894240998E+02	2.61692452436E+01	1.22744058363E+02	-4.84656340527E+01	1.55862256826E+02	-5.74838609684E+00	-1.70011314359E+00
2.82981442382E+06	-1.47435703267E+01	1.72572840736E+02	2.61082134666E+01	1.22168385520E+02	-4.45537145874E+01	4.35347726921E+01	-5.96657877391E+00	-1.74519757095E+00
2.85200577842E+06	-1.93319386351E+01	-1.75995958566E+02	2.60937521760E+01	1.21858128666E+02	-4.54300831957E+01	-1.23624169987E+02	-5.76113645441E+00	-1.09346575552E+00
2.87419713301E+06	-1.94014354083E+01	-1.59164506022E+02	2.60804236190E+01	1.21503781946E+02	-5.13525880994E+01	1.63572205131E+02	-5.78608316499E+00	-1.68257250184E+00
