# Hz S DB R 50
! CMT, M5065, 19127446, 24.2.4/2
! Date: 11/8/2024 4:21:08 PM
! Data: Format (Calibration Info)
! Freq	S11:dB/Ang(F2)	S21:dB/Ang(F2)	S12:dB/Ang(F2)	S22:dB/Ang(F2)
3.00000000000E+05	-1.89696441804E+01	-1.57783977769E+02	3.48341950266E+01	-1.74741898549E+02	-5.36136692370E+01	-1.36582851622E+02	-5.76220498921E+00	-2.99519791396E-01
3.22191354595E+05	-1.86180476036E+01	-1.63843101425E+02	3.48463108622E+01	-1.77244075540E+02	-5.39363843185E+01	2.12436711987E+01	-5.90680465082E+00	-5.82125078800E-01
3.44382709190E+05	-1.18608360250E+01	-1.32383521001E+02	3.48420458479E+01	-1.79805898066E+02	-4.62271634300E+01	9.93683632829E+01	-5.70988143964E+00	-2.08203822458E+00
3.66574063785E+05	-2.59896045866E+01	-1.50589241107E+02	3.48768847953E+01	1.78266077856E+02	-4.59441471578E+01	-1.03084945313E+02	-5.77935473030E+00	9.64212736187E-01
3.88765418380E+05	-2.01383798391E+01	-1.73300804458E+02	3.48710566666E+01	1.76309630108E+02	-3.98760195074E+01	-1.57156003972E+02	-5.47146770512E+00	9.85953787993E-01
4.10956772975E+05	-1.51891154189E+01	1.76039973017E+02	3.48057923236E+01	1.74498739573E+02	-4.77533330859E+01	1.30273319236E+01	-5.95878716829E+00	-4.18814730038E-01
4.33148127570E+05	-1.71521543590E+01	1.52965401798E+02	3.48025506783E+01	1.72863820601E+02	-5.47733403177E+01	-3.09675170625E+01	-5.89102642467E+00	-1.70079862840E-01
4.55339482165E+05	-2.06609031661E+01	-1.78028716676E+02	3.47775554656E+01	1.70966578171E+02	-5.75983723368E+01	9.99414724440E+01	-5.79945415098E+00	-1.04065391948E+00
4.77530836760E+05	-1.74948702150E+01	1.79581386960E+02	3.47241814224E+01	1.69397718458E+02	-4.87148541752E+01	1.74269583497E+02	-5.60595660719E+00	-7.40698908228E-01
4.99722191355E+05	-1.26983333438E+01	1.60904221848E+02	3.46646979714E+01	1.68052832597E+02	-6.37841154888E+01	-1.54659466206E+02	-5.81178940119E+00	-7.12317097112E-01
5.21913545950E+05	-2.02766760872E+01	-1.61754854919E+02	3.46522714943E+01	1.66426596471E+02	-4.44221713316E+01	1.75332244160E+02	-5.63841941959E+00	-6.75189634378E-01
5.44104900545E+05	-1.47625975366E+01	1.73081237723E+02	3.45681088254E+01	1.64940760006E+02	-4.31998212495E+01	1.66553740485E+02	-5.55236870906E+00	-1.40426000596E+00
5.66296255139E+05	-2.03899605612E+01	-1.16949346057E+02	3.45743051335E+01	1.63490917650E+02	-3.62202580155E+01	1.30520432814E+02	-5.56382033065E+00	-3.20806766047E+00
5.88487609734E+05	-1.48667694317E+01	-1.76292328864E+02	3.44707714844E+01	1.62199062784E+02	-4.15888215604E+01	-5.92565619077E+01	-5.97801926012E+00	4.67324923428E-01
6.10678964329E+05	-1.43593582666E+01	-1.77390954400E+02	3.44220834733E+01	1.60892333806E+02	-4.08480628141E+01	-1.64501646083E+02	-5.50412803227E+00	1.17178760718E-01
6.32870318924E+05	-1.47100373275E+01	-1.71929321625E+02	3.43653619798E+01	1.59787207531E+02	-4.92103786934E+01	1.60699072885E+01	-5.92717472870E+00	-2.61719879074E-01
6.55061673519E+05	-1.38148922498E+01	-1.75155536115E+02	3.43112436365E+01	1.58407060801E+02	-4.98745731017E+01	-3.73237670967E+01	-5.95207606245E+00	1.02987088553E-01
6.77253028114E+05	-1.63091923292E+01	1.75208695357E+02	3.42552761212E+01	1.57426933009E+02	-4.64009729172E+01	-1.23136861545E+02	-5.79850517883E+00	1.00632606904E-01
6.99444382709E+05	-1.58078043335E+01	1.69832548230E+02	3.41847683605E+01	1.56411632881E+02	-5.12170865962E+01	-1.44623904175E+02	-5.72799571605E+00	-6.46091158093E-01
7.21635737304E+05	-1.99762789986E+01	-1.34934599641E+02	3.41690036964E+01	1.55041136480E+02	-3.86979980659E+01	1.09682689446E+02	-5.74658690459E+00	-3.32380352974E+00
7.43827091899E+05	-2.95433405915E+01	-1.61843428347E+02	3.41147326446E+01	1.54181733757E+02	-4.25944710065E+01	3.26777898900E+01	-6.05218175956E+00	-1.58354053459E+00
7.66018446494E+05	-1.55086213548E+01	1.59334765738E+02	3.40014416244E+01	1.53072351547E+02	-5.32597787208E+01	-4.23008044811E+01	-5.86872431475E+00	-2.88564413164E-01
7.88209801089E+05	-1.70971032848E+01	-1.63322555702E+02	3.39493078870E+01	1.51954018616E+02	-4.32443315180E+01	1.31764337702E+02	-5.76664859033E+00	-2.05861333107E+00
8.10401155684E+05	-1.21497074978E+01	1.66774134113E+02	3.38542058069E+01	1.51175346486E+02	-4.65158534388E+01	1.58361203066E+02	-5.67791354122E+00	-1.49920572663E+00
8.32592510279E+05	-1.60928080540E+01	-1.75570990429E+02	3.38236899968E+01	1.49970462851E+02	-4.42046083602E+01	3.16821828241E+00	-6.09853239895E+00	-1.50406458012E-01
8.54783864874E+05	-1.49987414915E+01	-1.76868563894E+02	3.37360614178E+01	1.49070979749E+02	-5.51343487164E+01	-2.38476879918E+01	-5.92842688128E+00	-2.39493368851E-01
8.76975219469E+05	-1.93968711761E+01	1.74914617200E+02	3.36956387030E+01	1.48296241593E+02	-4.56808778725E+01	-1.25556650723E+02	-5.66170912256E+00	3.01626928864E-01
8.99166574064E+05	-1.42960808590E+01	1.73650219064E+02	3.35886224573E+01	1.47216234642E+02	-3.70954404411E+01	-1.08453499915E+02	-5.49760969387E+00	1.18611691902E+00
9.21357928659E+05	-2.06660614563E+01	1.74525631240E+02	3.35589749412E+01	1.46441901493E+02	-5.36625958086E+01	-2.67891105354E+01	-5.90849318217E+00	-3.76322762012E-01
9.43549283254E+05	-1.30150723101E+01	1.76604164154E+02	3.34439970957E+01	1.45459609460E+02	-5.48935868112E+01	3.76407482907E+01	-5.87167326249E+00	-5.76865574862E-01
9.65740637849E+05	-2.60811321295E+01	-1.43947189772E+02	3.34400687352E+01	1.44588164801E+02	-4.43273997372E+01	-7.74723698318E+01	-5.77521934722E+00	7.37789534070E-01
9.87931992444E+05	-2.05295192247E+01	1.56698543731E+02	3.33398435494E+01	1.44083389644E+02	-4.85448282323E+01	5.52367598307E+01	-5.97396666970E+00	-1.13105282629E+00
1.01012334704E+06	-1.40365401734E+01	-1.58417342835E+02	3.32572521845E+01	1.42735423810E+02	-5.86869609705E+01	1.43237155875E+01	-5.86969521037E+00	-8.56794455929E-01
1.03231470163E+06	-1.40691073460E+01	1.49227142444E+02	3.31528301680E+01	1.42372091725E+02	-4.83238581439E+01	1.11375043689E+02	-5.79379249389E+00	-1.62702654776E+00
1.05450605623E+06	-1.67201606906E+01	-1.69403106928E+02	3.31179701548E+01	1.41338837031E+02	-6.24714106674E+01	-1.54506506533E+02	-5.77105017081E+00	-1.28276292011E+00
1.07669741082E+06	-1.87202274899E+01	-1.50020745026E+02	3.30861799536E+01	1.40571758146E+02	-4.38851123950E+01	-1.41899752169E+02	-5.63189902618E+00	-5.45985472674E-01
1.09888876542E+06	-2.03497255008E+01	1.63750719686E+02	3.29813757159E+01	1.39874196203E+02	-5.46680445363E+01	-1.61225479371E+02	-5.77044707342E+00	-1.14860658354E+00
1.12108012001E+06	-2.29316228624E+01	-1.68334677622E+02	3.29350082806E+01	1.39036842093E+02	-5.72905083855E+01	-1.70362332149E+01	-5.88734955510E+00	-6.03843481361E-01
1.14327147461E+06	-2.35683709211E+01	-1.50623599374E+02	3.28750248778E+01	1.38312796173E+02	-4.50272792040E+01	-8.63564042849E+01	-5.81931741048E+00	6.07791465626E-01
1.16546282920E+06	-1.43673699922E+01	-1.68700641537E+02	3.27725895974E+01	1.37449174883E+02	-4.09169862456E+01	-4.39884247682E+01	-5.95090568304E+00	1.28783777477E+00
1.18765418380E+06	-2.15263440331E+01	-1.56332331116E+02	3.27070343935E+01	1.36781981255E+02	-3.98704819612E+01	-4.35974810085E+01	-5.98888382486E+00	1.65614034925E+00
1.20984553839E+06	-1.87399081911E+01	1.51316376433E+02	3.26012445176E+01	1.36176830809E+02	-4.24380950690E+01	1.48206034589E+02	-5.71641263276E+00	-1.98883650731E+00
1.23203689299E+06	-1.84848273509E+01	-1.77998609962E+02	3.25506336669E+01	1.35558865951E+02	-4.13686576799E+01	-7.35591371399E+01	-5.81875506690E+00	1.26314646213E+00
1.25422824758E+06	-1.87349920576E+01	-1.64112167966E+02	3.24747364648E+01	1.34767549215E+02	-5.03140868158E+01	8.49885632248E+01	-5.91389704910E+00	-1.36484915211E+00
1.27641960218E+06	-1.10749722390E+01	-1.67247360033E+02	3.23369756565E+01	1.33935936094E+02	-4.91772348124E+01	-1.62755271994E+02	-5.75001261739E+00	-6.22989891987E-01
1.29861095677E+06	-1.56680496165E+01	-1.66054771320E+02	3.22995699035E+01	1.33292543727E+02	-5.25676340924E+01	1.14273924769E+01	-5.95209037338E+00	-8.42709452915E-01
1.32080231137E+06	-1.41210292253E+01	-1.77582329772E+02	3.22163571698E+01	1.32759817130E+02	-4.18337662689E+01	1.00743637632E+02	-5.89806426478E+00	-2.71627572798E+00
1.34299366596E+06	-1.48507780588E+01	1.73996146585E+02	3.21493824877E+01	1.32206604921E+02	-4.67481572180E+01	-1.30713291486E+02	-5.69982539926E+00	-4.26940745083E-01
1.36518502056E+06	-2.25509946836E+01	1.58128627493E+02	3.21065882790E+01	1.31523396002E+02	-3.95428874036E+01	2.16162421963E-01	-6.09777983903E+00	2.77721546874E-01
1.38737637515E+06	-1.42962637879E+01	1.77480991339E+02	3.20011622914E+01	1.30707952392E+02	-4.71638480093E+01	1.71862165926E+02	-5.71890568556E+00	-1.36040206144E+00
1.40956772975E+06	-1.63373748770E+01	1.79063952214E+02	3.19363236605E+01	1.30223047222E+02	-4.92700261863E+01	6.96729171717E+01	-5.92366443757E+00	-1.07387081034E+00
1.43175908434E+06	-1.65791613049E+01	1.64802753217E+02	3.18624711633E+01	1.29688075071E+02	-3.98994697018E+01	6.96162388516E+01	-6.06866177038E+00	-2.28636412439E+00
1.45395043894E+06	-1.45804341318E+01	-1.72512224839E+02	3.18017814178E+01	1.29088024708E+02	-4.31796749640E+01	9.78893220067E+01	-5.89597782444E+00	-2.09996453773E+00
1.47614179353E+06	-1.57593372178E+01	1.68584598947E+02	3.17191011108E+01	1.28618528471E+02	-5.41280993502E+01	1.48475803001E+01	-5.90610439757E+00	-4.25795974371E-01
1.49833314813E+06	-2.24830940038E+01	1.70823478178E+02	3.16849059285E+01	1.27902728391E+02	-5.69557881885E+01	-1.10369402850E+01	-5.85086407330E+00	-3.64207849809E-01
1.52052450272E+06	-1.74274194460E+01	-1.56917062486E+02	3.15891845707E+01	1.27294357556E+02	-3.64724794657E+01	5.44234464882E+01	-6.27222223735E+00	-1.61962558850E+00
1.54271585732E+06	-1.67010407937E+01	-1.44755069694E+02	3.15355568803E+01	1.26615438717E+02	-5.63966261501E+01	-1.34115159283E+02	-5.79434007713E+00	-8.50922664235E-01
1.56490721191E+06	-1.46382726548E+01	1.66203687125E+02	3.14066259277E+01	1.26105043518E+02	-4.90344229042E+01	1.03544843956E+02	-5.86568024388E+00	-1.58117621471E+00
1.58709856651E+06	-1.88273510212E+01	1.75509749552E+02	3.13828055032E+01	1.25688967370E+02	-4.11314918623E+01	6.45942402667E+01	-6.05263819815E+00	-1.72601020459E+00
1.60928992110E+06	-1.76502152187E+01	1.63345955188E+02	3.13157696673E+01	1.25287610672E+02	-4.39990884494E+01	2.38942705752E+01	-5.99665573306E+00	-7.19535323791E-01
1.63148127570E+06	-1.62579099556E+01	1.66750569105E+02	3.12020524566E+01	1.24640121527E+02	-4.83368962819E+01	2.43702463993E+01	-5.96176596637E+00	-6.96419871856E-01
1.65367263029E+06	-1.53836266485E+01	-1.34824976278E+02	3.11734762189E+01	1.23739424791E+02	-4.07328975339E+01	-6.59043228247E+01	-5.78260644957E+00	8.83495747903E-01
1.67586398489E+06	-1.95136198999E+01	1.61177854196E+02	3.11002423130E+01	1.23697038593E+02	-4.68400134333E+01	2.91332350748E+01	-5.94384633912E+00	-6.55785989339E-01
1.69805533948E+06	-1.62505346770E+01	-1.68743653099E+02	3.09920692697E+01	1.22900951203E+02	-4.34206895560E+01	4.33994799416E+01	-6.05650596656E+00	-1.11838271076E+00
1.72024669408E+06	-2.10270498849E+01	1.49623747514E+02	3.09443147083E+01	1.22675191114E+02	-5.21180994104E+01	5.65224114203E+01	-5.89200489684E+00	-9.35628481121E-01
1.74243804867E+06	-1.62220268547E+01	-3.85752702296E+01	3.09643167909E+01	1.22047980730E+02	-4.95608079284E+01	-1.78380853184E+02	-5.74623066897E+00	-9.12601060263E-01
1.76462940327E+06	-1.89952619415E+01	-1.67876071494E+02	3.08205379333E+01	1.21464466342E+02	-4.28204173715E+01	1.57631356663E+02	-5.70149270824E+00	-2.20555211237E+00
1.78682075786E+06	-1.98552299761E+01	-1.76349233917E+02	3.07352764704E+01	1.21045817342E+02	-4.56068456138E+01	-1.34201820196E+02	-5.68403753852E+00	-8.14212752004E-01
1.80901211246E+06	-1.48831878124E+01	-1.77310758848E+02	3.06380424281E+01	1.20591769915E+02	-4.81016425903E+01	4.34603602009E+00	-5.91871288308E+00	-8.72950382926E-01
1.83120346705E+06	-1.58039413424E+01	1.49144458821E+02	3.05723892922E+01	1.20387091070E+02	-2.59256888569E+01	-4.35038806345E+01	-5.78238992047E+00	8.45964874261E+00
1.85339482165E+06	-1.50041341978E+01	-1.66975108909E+02	3.05042812096E+01	1.19314620335E+02	-4.48065563249E+01	-1.51084426746E+02	-5.68526313390E+00	-1.30643808630E+00
1.87558617624E+06	-1.32057951573E+01	-1.71963330169E+02	3.04353335163E+01	1.18902386697E+02	-4.12472213639E+01	-1.77255302931E+02	-5.62117667517E+00	-1.86335581331E+00
1.89777753084E+06	-1.13640999519E+01	1.24055716669E+02	3.03256874483E+01	1.19313746758E+02	-4.93357472604E+01	1.36324254899E+02	-5.86713939600E+00	-1.54322070234E+00
1.91996888543E+06	-1.31092170101E+01	-1.53457673937E+02	3.02973557460E+01	1.17945718597E+02	-4.25814170826E+01	-2.69173795911E+01	-5.91120568148E+00	1.27955537961E-01
1.94216024003E+06	-1.97157479003E+01	1.63823932547E+02	3.02497774430E+01	1.17981058091E+02	-4.66823635127E+01	1.23217722096E+02	-5.83631058887E+00	-1.93862199296E+00
1.96435159462E+06	-1.69552013519E+01	-1.58897445000E+02	3.01659089924E+01	1.17240194262E+02	-4.88648531834E+01	-8.33066321513E+01	-5.79672167159E+00	-4.32503384076E-01
1.98654294922E+06	-2.05619515943E+01	-1.72247610033E+02	3.01167984253E+01	1.16865817113E+02	-5.16323984784E+01	9.62815896871E+01	-5.87332337677E+00	-1.26821000025E+00
2.00873430381E+06	-1.78411814266E+01	1.59393526367E+02	3.00335795163E+01	1.16523742854E+02	-4.12541723040E+01	-4.93358029011E+00	-5.99755128045E+00	-7.35194644384E-02
2.03092565841E+06	-1.64360290432E+01	1.71654550078E+02	2.99393825912E+01	1.15936184379E+02	-4.36424201373E+01	-1.28567056258E+02	-5.70504449703E+00	-3.50319542911E-01
2.05311701300E+06	-1.13405090008E+01	1.76439603935E+02	2.98401896217E+01	1.15558041567E+02	-4.40539742729E+01	3.27564718415E+01	-5.99450384874E+00	-1.02928508072E+00
2.07530836760E+06	-6.84102983338E+00	-1.35909804121E+02	2.98011882018E+01	1.14193461981E+02	-5.07289695772E+01	6.52143930486E+01	-5.90055876606E+00	-1.30990919558E+00
2.09749972219E+06	-1.66324765689E+01	-1.71871739332E+02	2.97833322629E+01	1.14677475771E+02	-4.81436924022E+01	-1.20800344101E+01	-5.90599072563E+00	-5.84000797578E-01
2.11969107679E+06	-1.64612396649E+01	1.59880233929E+02	2.96763153055E+01	1.14632856998E+02	-4.40848025143E+01	8.92002543582E+01	-5.88560339789E+00	-2.05917725403E+00
2.14188243138E+06	-1.82797282799E+01	1.56880652408E+02	2.96367086602E+01	1.14106775313E+02	-3.54491923166E+01	-9.61032108687E+01	-5.52957880079E+00	6.40535248031E-01
2.16407378598E+06	-1.94160405217E+01	-1.53566163892E+02	2.96021837961E+01	1.13559248160E+02	-4.72824651856E+01	-1.78407297095E+02	-5.75740690347E+00	-1.61325519196E+00
2.18626514057E+06	-1.50391988745E+01	-1.76881221293E+02	2.94785004354E+01	1.13155066815E+02	-4.31610284949E+01	1.23614324597E+02	-5.86581713142E+00	-2.73056692014E+00
2.20845649517E+06	-1.49462567083E+01	1.75858065328E+02	2.94418818051E+01	1.12900032311E+02	-4.74472277304E+01	-2.55655036231E+01	-5.91664674291E+00	-5.18428578494E-01
2.23064784976E+06	-1.63507868500E+01	-1.53904240255E+02	2.94037218386E+01	1.12319271076E+02	-5.33123580647E+01	-3.94448600460E+01	-5.82958552001E+00	-6.43839772001E-01
2.25283920436E+06	-1.63651994385E+01	-1.74177316526E+02	2.93092337448E+01	1.11977573591E+02	-5.13012905242E+01	-8.67398966933E+01	-5.81589004988E+00	-7.13625724001E-01
2.27503055895E+06	-1.61198438186E+01	-1.68205335956E+02	2.92330093542E+01	1.11492495081E+02	-4.67111458329E+01	-1.35448331996E+01	-5.92161561881E+00	-7.20851195898E-01
2.29722191355E+06	-2.05910732311E+01	-1.66939129079E+02	2.92157820419E+01	1.11257920723E+02	-3.84813283751E+01	-1.29403025410E+02	-5.61287622044E+00	-8.80902739201E-01
2.31941326814E+06	-1.90143112814E+01	-1.55301768056E+02	2.91349820587E+01	1.10838156247E+02	-3.71407294481E+01	6.50599067564E+01	-6.18224890476E+00	-1.96927710165E+00
2.34160462274E+06	-2.00446002570E+01	1.77677853884E+02	2.90780144149E+01	1.10650234164E+02	-4.51702858368E+01	-6.85813630556E+01	-5.75464400058E+00	-2.22606619539E-01
2.36379597733E+06	-1.79256787164E+01	1.10905993447E+02	2.89930055488E+01	1.10620447376E+02	-4.95539749953E+01	-7.53508608122E+01	-5.77510416746E+00	-6.87612758300E-01
2.38598733193E+06	-1.53170655433E+01	-1.64473860494E+02	2.89217837972E+01	1.09682684034E+02	-4.99942906118E+01	1.66379839671E+02	-5.78407965135E+00	-1.70630007384E+00
2.40817868652E+06	-1.80700867477E+01	-1.67036537843E+02	2.88821388476E+01	1.09493650948E+02	-5.70024103626E+01	-2.38926260085E+01	-5.85686047958E+00	-1.00302092327E+00
2.43037004112E+06	-1.85767338960E+01	1.55526881570E+02	2.88028511101E+01	1.09387886331E+02	-4.82317131004E+01	1.63679998097E+02	-5.78996436114E+00	-2.07792727372E+00
2.45256139571E+06	-1.36491647890E+01	-1.79013792800E+02	2.87245569271E+01	1.08813905603E+02	-3.92629918798E+01	3.80427924284E+01	-6.10249758174E+00	-1.19084881735E+00
2.47475275031E+06	-1.49619375166E+01	-1.64382108838E+02	2.86750944819E+01	1.08287925538E+02	-4.55520485375E+01	-4.00717214077E+01	-5.87262357463E+00	-3.06430361439E-01
2.49694410490E+06	-2.03722763241E+01	-1.68325519975E+02	2.86377145551E+01	1.08095303135E+02	-4.16774358324E+01	-3.57227079968E+01	-5.88206927585E+00	1.49491053811E-01
2.51913545950E+06	-1.83605994843E+01	1.51512508419E+02	2.85383883683E+01	1.08044740357E+02	-3.97594185677E+01	9.63054814276E+01	-5.96087136460E+00	-2.77788903243E+00
2.54132681409E+06	-1.23563043216E+01	6.32164451132E+01	2.85900230473E+01	1.08551023735E+02	-5.33550164719E+01	-2.92151564186E+01	-5.88547151669E+00	-9.67127558266E-01
2.56351816869E+06	-1.96012947856E+01	-1.71972567060E+02	2.84399464437E+01	1.07173807196E+02	-4.73070535585E+01	5.72943269827E+01	-5.92729493339E+00	-1.40857810391E+00
2.58570952328E+06	-1.87313808758E+01	-1.56221427696E+02	2.83929411514E+01	1.06710527665E+02	-4.95803068391E+01	-3.76132721771E-01	-5.88930909415E+00	-9.17467003623E-01
2.60790087788E+06	-2.24004271783E+01	1.63797879788E+02	2.83334810913E+01	1.06644972753E+02	-4.08104776640E+01	1.32464294415E+02	-5.90344899974E+00	-2.70935062518E+00
2.63009223247E+06	-1.79750493085E+01	-1.69245680785E+02	2.82798023991E+01	1.06051815187E+02	-3.67363746310E+01	-8.89423217575E+01	-5.57872582619E+00	8.03093531221E-01
2.65228358707E+06	-1.46136386840E+01	1.68613894240E+02	2.81889082736E+01	1.05713752865E+02	-4.49482204033E+01	-8.72917586999E+01	-5.73492056778E+00	-6.69539371199E-01
2.67447494166E+06	-1.73357324872E+01	-1.41433388619E+02	2.81542773804E+01	1.05340190584E+02	-4.60164538867E+01	1.03764967564E+01	-5.93261181946E+00	-9.87590791791E-01
2.69666629626E+06	-1.66133536576E+01	-9.05594540135E+01	2.81870978806E+01	1.04978928878E+02	-4.34802054725E+01	1.62212619391E+02	-5.73770290897E+00	-2.27929593790E+00
2.71885765085E+06	-1.70383847593E+01	-1.74367611773E+02	2.80289213281E+01	1.04674702541E+02	-5.09119417221E+01	-1.74827441260E+02	-5.78133395764E+00	-1.75340786279E+00
2.74104900545E+06	-1.61862619233E+01	1.78211232289E+02	2.79689539927E+01	1.04524941848E+02	-3.71788998364E+01	-1.75325813718E+02	-5.55487414820E+00	-2.55218387970E+00
2.76324036004E+06	-1.73492639519E+01	1.76112754661E+02	2.78965133178E+01	1.04213682019E+02	-3.32553841813E+01	9.70201114757E+01	-6.19147025586E+00	-4.05983381576E+00
2.78543171463E+06	-1.61408088064E+01	-1.42518220724E+02	2.78784417318E+01	1.03654680773E+02	-5.19600176204E+01	-5.81323028294E+01	-5.81454239857E+00	-1.05086660162E+00
2.80762306923E+06	-1.86686695245E+01	1.63393871685E+02	2.77897974701E+01	1.03736128307E+02	-5.94019012109E+01	9.38742385562E+01	-5.86529812365E+00	-1.69580730807E+00
2.82981442382E+06	-1.74652716700E+01	-1.37267824579E+02	2.77710925616E+01	1.03140816036E+02	-4.68423740163E+01	1.65628634039E+01	-5.93267050557E+00	-1.02592581882E+00
2.85200577842E+06	-1.48802841001E+01	1.38341170408E+02	2.76554273599E+01	1.03499227810E+02	-3.99497075986E+01	-1.43417589427E+02	-5.58192159210E+00	-1.47070916501E+00
2.87419713301E+06	-1.74430360200E+01	-1.70837047180E+02	2.76253591490E+01	1.02704028588E+02	-4.05259508686E+01	1.66365455102E+01	-6.03500484402E+00	-1.01692927326E+00
2.89638848761E+06	-2.02316931444E+01	1.77327646908E+02	2.75782706714E+01	1.02530088758E+02	-4.78014106210E+01	-8.83668337797E+01	-5.79669638280E+00	-9.02530342004E-01
