# Hz S DB R 50
! CMT, M5065, 19127446, 24.2.4/2
! Date: 11/8/2024 4:03:34 PM
! Data: Format (Calibration Info)
! Freq	S11:dB/Ang(F2)	S21:dB/Ang(F2)	S12:dB/Ang(F2)	S22:dB/Ang(F2)
3.00000000000E+05	-2.58444025523E+01	-1.27941079411E+02	1.06008258011E+01	-1.77375974847E+02	-4.84335755553E+01	-1.39374454355E+02	-5.83959220251E+00	-3.09319797524E-01
3.22191354595E+05	-1.73737067984E+01	-1.76461179743E+02	1.05251801364E+01	-1.77662801714E+02	-5.00425581076E+01	3.59204191434E+01	-5.82932617643E+00	-2.50654049025E-01
3.44382709190E+05	-1.80347077996E+01	-1.61318210105E+02	1.05645647718E+01	-1.78481069447E+02	-4.58207309441E+01	5.02621657679E+01	-5.83802760216E+00	-3.41082577262E-01
3.66574063785E+05	-2.64696450316E+01	-1.77266285140E+02	1.05918777985E+01	-1.78487164236E+02	-3.85158390899E+01	-8.25939754564E+01	-5.85865938737E+00	-1.05489102678E-01
3.88765418380E+05	-2.04365162805E+01	1.63588810895E+02	1.07148443741E+01	-1.77542301622E+02	-5.78760196278E+01	-4.45942686839E+01	-5.83357123941E+00	-2.69797627024E-01
4.10956772975E+05	-1.68701631694E+01	-1.62743444384E+02	1.05409914632E+01	-1.79345694632E+02	-4.58127086824E+01	-1.50077726728E+02	-5.81470094876E+00	-4.93452018251E-01
4.33148127570E+05	-1.88277176873E+01	-1.47487528012E+02	1.05864018601E+01	-1.79674946293E+02	-5.12413542158E+01	-1.61875552139E+01	-5.84313042702E+00	-3.36201884504E-01
4.55339482165E+05	-1.79204357078E+01	-1.62344913982E+02	1.05328615042E+01	-1.79824697637E+02	-4.09357905959E+01	-1.16119865834E+02	-5.82179801364E+00	-2.39950666706E-01
4.77530836760E+05	-2.22829303656E+01	-1.72803602344E+02	1.06186868916E+01	1.79880528262E+02	-4.96807758841E+01	5.10844193693E+01	-5.84338510092E+00	-3.11985362854E-01
4.99722191355E+05	-1.76707376982E+01	1.61189227973E+02	1.05639076914E+01	-1.79933765262E+02	-4.85995587846E+01	-1.45280232612E+02	-5.82310317201E+00	-3.81613260932E-01
5.21913545950E+05	-1.60027541120E+01	1.70637561420E+02	1.05428202202E+01	1.79769706186E+02	-4.79945869437E+01	1.13930075734E+02	-5.84247746203E+00	-1.90647590822E-01
5.44104900545E+05	-1.89168049904E+01	1.64443207627E+02	1.05981444825E+01	1.79343124673E+02	-6.19002311643E+01	-2.08016338217E+00	-5.82206082328E+00	-4.51662759625E-01
5.66296255139E+05	-1.80152953570E+01	-1.73319124961E+02	1.05900024693E+01	1.79062572328E+02	-6.65468896671E+01	4.94114574719E+01	-5.85104660575E+00	-3.46809298831E-01
5.88487609734E+05	-9.66735446321E+00	1.74574091598E+02	1.05275787723E+01	1.78851601405E+02	-4.34174872639E+01	-1.06223505377E+02	-5.83956956280E+00	-2.33999104513E-01
6.10678964329E+05	-2.13965893574E+01	-1.46246150513E+02	1.05991169911E+01	1.78790380262E+02	-3.88725619695E+01	1.21257733710E+02	-5.81355244891E+00	-2.80601028059E-01
6.32870318924E+05	-1.76901561963E+01	1.70140641978E+02	1.05979941048E+01	1.78645267795E+02	-4.11758609685E+01	-1.62642841006E+02	-5.79363153232E+00	-8.55571470244E-02
6.55061673519E+05	-1.95085965634E+01	-1.62385330064E+02	1.05874405356E+01	1.78301146315E+02	-4.29595558705E+01	1.43264918552E+02	-5.80726353184E+00	-3.58729893059E-01
6.77253028114E+05	-1.71249666262E+01	-1.67930674481E+02	1.05662727774E+01	1.77983709857E+02	-4.26135176654E+01	5.87032405984E+01	-5.83153214511E+00	-7.93077041981E-01
6.99444382709E+05	-1.49749712028E+01	-1.74731483358E+02	1.05784375644E+01	1.77919982901E+02	-3.89965917736E+01	-5.57877849125E+01	-5.83336035914E+00	-2.85580959207E-01
7.21635737304E+05	-1.55713648332E+01	1.56933060234E+02	1.05840632557E+01	1.77991202365E+02	-4.08252732766E+01	-1.98752434146E+01	-5.86962820194E+00	-4.16544287602E-01
7.43827091899E+05	-2.80674441418E+01	-1.04977898575E+02	1.06038042986E+01	1.77846112752E+02	-4.32641742450E+01	-4.94132230073E+01	-5.85613680756E+00	-2.88635971320E-01
7.66018446494E+05	-1.55995366361E+01	-1.48927195322E+02	1.05865127749E+01	1.77371048930E+02	-5.85005026008E+01	7.98275520506E+01	-5.83941708171E+00	-5.11089974890E-01
7.88209801089E+05	-1.38299744628E+01	-1.78800926979E+02	1.05512854485E+01	1.77318761356E+02	-4.55781667937E+01	9.46363782669E+01	-5.81711672623E+00	-4.12961558887E-01
8.10401155684E+05	-2.26314635642E+01	-1.48841482901E+02	1.06267997181E+01	1.77033796682E+02	-4.47540417278E+01	-1.65628901692E+02	-5.82476357302E+00	-4.12396744727E-01
8.32592510279E+05	-1.86141609049E+01	-1.65643863488E+02	1.05941299299E+01	1.77015971540E+02	-4.66564324538E+01	1.02790581431E+02	-5.81837007075E+00	-5.42959510472E-01
8.54783864874E+05	-1.77534075526E+01	-1.71947220470E+02	1.05726754172E+01	1.76762279033E+02	-4.06038816455E+01	5.32354782376E+01	-5.83285689721E+00	-5.59881183386E-01
8.76975219469E+05	-1.49857914737E+01	-1.72131266670E+02	1.05538450965E+01	1.76693532788E+02	-4.16605465643E+01	-5.74539469483E+01	-5.84575032322E+00	-4.39431487076E-01
8.99166574064E+05	-1.84825268361E+01	-1.51292663074E+02	1.05724037549E+01	1.76523471282E+02	-4.36901142688E+01	-1.63550890913E+02	-5.81868869882E+00	-4.44951047444E-01
9.21357928659E+05	-1.57964766264E+01	1.57915837001E+02	1.05801602843E+01	1.76533159315E+02	-3.88035800587E+01	-5.60092750692E+01	-5.87845703770E+00	-3.12428400525E-01
9.43549283254E+05	-1.68855112757E+01	-1.70225183777E+02	1.05738668943E+01	1.76164422062E+02	-4.30382942216E+01	1.39120424593E+02	-5.83090426325E+00	-3.78039357318E-01
9.65740637849E+05	-2.46608665003E+01	-1.61122062061E+02	1.05897402494E+01	1.76125584432E+02	-5.01604887300E+01	1.29411825281E+01	-5.85023826770E+00	-5.47912701935E-01
9.87931992444E+05	-2.60388238358E+01	1.63669915321E+02	1.06203469688E+01	1.76101630026E+02	-4.40538124584E+01	1.33279105204E+02	-5.83488240263E+00	-5.00388169696E-01
1.01012334704E+06	-2.02101658798E+01	1.53059451313E+02	1.05786616766E+01	1.75966969849E+02	-4.03033770643E+01	1.25241991685E+01	-5.84398036561E+00	-5.11899956172E-01
1.03231470163E+06	-2.15459108599E+01	1.77984835981E+02	1.05844236971E+01	1.75689211157E+02	-4.33930281834E+01	1.42070212170E+01	-5.86553899341E+00	-6.28107917737E-01
1.05450605623E+06	-1.12052263812E+01	-1.30378210456E+02	1.05812816035E+01	1.75140097740E+02	-4.18391733724E+01	5.29157192651E+01	-5.84855269022E+00	-8.24229172332E-01
1.07669741082E+06	-1.47603011535E+01	-1.76920762556E+02	1.05155058996E+01	1.75465111879E+02	-4.83253065629E+01	1.33951727075E+02	-5.81951450590E+00	-3.55709281125E-01
1.09888876542E+06	-1.68622541540E+01	-1.48057912745E+02	1.05711531964E+01	1.75062903524E+02	-4.87441945662E+01	5.54137395636E+00	-5.86310648861E+00	-7.06083001439E-01
1.12108012001E+06	-1.63467488399E+01	-1.71631487365E+02	1.05782145092E+01	1.75041131502E+02	-4.21518712531E+01	1.80250412509E+01	-5.84816171875E+00	-6.83687106763E-01
1.14327147461E+06	-2.68009592614E+01	1.61956302276E+02	1.06047781340E+01	1.74815143967E+02	-4.96178936988E+01	4.28774234087E+01	-5.85469109688E+00	-6.51307367547E-01
1.16546282920E+06	-1.84615002666E+01	-1.60183470411E+02	1.05691227322E+01	1.74730162615E+02	-3.50012027042E+01	-9.26874702847E+01	-5.82247978810E+00	-3.38890881505E-01
1.18765418380E+06	-1.88028893775E+01	1.59519248685E+02	1.05854245188E+01	1.75087556265E+02	-3.90619538897E+01	-1.10917758896E+02	-5.82092040219E+00	-3.58240279200E-01
1.20984553839E+06	-1.78792784745E+01	-1.70733146989E+02	1.05661950349E+01	1.74635000538E+02	-4.21792818051E+01	-3.19478724429E+01	-5.84609425360E+00	-6.92115899331E-01
1.23203689299E+06	-1.62097125986E+01	1.70882145477E+02	1.05533340399E+01	1.74599545644E+02	-4.71370324587E+01	-1.69607634283E+02	-5.83675649248E+00	-5.71555079618E-01
1.25422824758E+06	-1.67340648474E+01	1.74020591487E+02	1.05701117727E+01	1.74284584892E+02	-4.55750637450E+01	-1.21698752898E+02	-5.83673713747E+00	-6.44661113956E-01
1.27641960218E+06	-1.52055985588E+01	-1.65891249931E+02	1.05664110707E+01	1.74015652537E+02	-4.82052285703E+01	3.97024888962E+01	-5.84359210018E+00	-6.83753020416E-01
1.29861095677E+06	-1.86108919707E+01	-1.73332432597E+02	1.05922935878E+01	1.74038348147E+02	-5.09028767364E+01	1.27908422273E+02	-5.85322731637E+00	-5.40216333408E-01
1.32080231137E+06	-1.99207956972E+01	-1.38596885355E+02	1.06114727551E+01	1.73845224199E+02	-3.78987181132E+01	-4.53442070610E+01	-5.85187789665E+00	-8.68415655900E-01
1.34299366596E+06	-2.13057391745E+01	-1.64536162762E+02	1.05921312048E+01	1.73744135116E+02	-6.03597624514E+01	-6.10397558551E+01	-5.82420078899E+00	-6.90686716901E-01
1.36518502056E+06	-1.64081763120E+01	-1.64924562387E+02	1.05671968739E+01	1.73536668272E+02	-4.47212521067E+01	8.93857561543E+01	-5.85349329136E+00	-8.33393291255E-01
1.38737637515E+06	-1.20646864120E+01	-1.13967598134E+02	1.06071557068E+01	1.73299697317E+02	-5.42858229643E+01	-1.17125078650E+02	-5.84322468454E+00	-6.81859665262E-01
1.40956772975E+06	-1.87958719479E+01	1.62877385392E+02	1.05827260197E+01	1.73298733357E+02	-4.26413454673E+01	-1.65284502644E+02	-5.83839327929E+00	-6.56350308349E-01
1.43175908434E+06	-1.89975935512E+01	-1.76634185632E+02	1.06077307595E+01	1.73302233377E+02	-3.77055070761E+01	1.09239652505E+01	-5.86365397208E+00	-8.61491916987E-01
1.45395043894E+06	-1.69130786640E+01	-1.72937277090E+02	1.05507857214E+01	1.73000152795E+02	-5.18402262495E+01	-7.68513189301E+01	-5.83826109517E+00	-6.45126098474E-01
1.47614179353E+06	-1.72561827964E+01	1.40126308752E+02	1.05817348535E+01	1.73206121024E+02	-3.74251642327E+01	-5.24564430842E+01	-5.87095700882E+00	-5.79474743816E-01
1.49833314813E+06	-1.47393701893E+01	-1.66193000495E+02	1.05874811353E+01	1.72756561285E+02	-3.94268277129E+01	5.48495568659E+01	-5.83621580902E+00	-1.06869342664E+00
1.52052450272E+06	-1.39220953024E+01	1.72759123520E+02	1.05498088264E+01	1.72732723053E+02	-4.66567849977E+01	-1.27498057050E+02	-5.85425193236E+00	-7.29114037769E-01
1.54271585732E+06	-2.16480901306E+01	9.47878403650E+01	1.06458769529E+01	1.73103591375E+02	-5.29517953381E+01	1.47844587267E+02	-5.83754867324E+00	-8.03354788933E-01
1.56490721191E+06	-2.24003981851E+01	1.57769150287E+02	1.06043743205E+01	1.72471994319E+02	-4.22627861234E+01	1.49938467327E+02	-5.81692485826E+00	-8.35205625101E-01
1.58709856651E+06	-1.64901491188E+01	1.63289199742E+02	1.05863471522E+01	1.72465378462E+02	-4.13090424006E+01	4.55691877511E+01	-5.86220738758E+00	-1.02506146130E+00
1.60928992110E+06	-1.52079943117E+01	-1.57784124448E+02	1.05861136702E+01	1.72170335069E+02	-3.65261145553E+01	-9.71685958354E+01	-5.85380616850E+00	-6.74549003424E-01
1.63148127570E+06	-2.31619729299E+01	-1.67287780377E+02	1.05600492397E+01	1.71926599569E+02	-3.57354249108E+01	-1.34233667216E+02	-5.82827296608E+00	-6.67404365776E-01
1.65367263029E+06	-1.73413583768E+01	1.75253203401E+02	1.05892479130E+01	1.72104943622E+02	-4.91573953187E+01	-5.85249229398E+01	-5.86187731525E+00	-9.06773960406E-01
1.67586398489E+06	-1.63017704601E+01	-1.50134877244E+02	1.05908605406E+01	1.71767321882E+02	-4.31015084328E+01	-1.01614097601E+02	-5.82612931944E+00	-7.60523752846E-01
1.69805533948E+06	-1.24891259201E+01	3.95325535033E+01	1.06077648739E+01	1.72527622860E+02	-4.95453494225E+01	1.26437782777E+02	-5.84298807388E+00	-9.53179530329E-01
1.72024669408E+06	-2.39787491247E+01	-1.47326550505E+02	1.06271244698E+01	1.71499006795E+02	-5.02614138603E+01	-2.72356883043E+01	-5.84633435054E+00	-8.68163503258E-01
1.74243804867E+06	-2.21617357602E+01	1.61992951845E+02	1.06256117538E+01	1.71618094731E+02	-4.41269319768E+01	9.40355302269E+01	-5.83956601537E+00	-1.02157343856E+00
1.76462940327E+06	-1.97299165941E+01	-1.52818043555E+02	1.06113218697E+01	1.71428497295E+02	-4.75901223066E+01	7.23987767029E+01	-5.84278966734E+00	-1.14014616662E+00
1.78682075786E+06	-1.70288640336E+01	1.62765106132E+02	1.05744557603E+01	1.71446775084E+02	-3.54245910197E+01	-7.21890184152E+01	-5.86632957419E+00	-8.10178221433E-01
1.80901211246E+06	-2.05563088247E+01	1.78278402319E+02	1.06030776068E+01	1.71254078721E+02	-4.93930474927E+01	3.50607989634E+01	-5.85365739087E+00	-8.73566888959E-01
1.83120346705E+06	-2.07243861767E+01	-1.21759083106E+02	1.06056696824E+01	1.70841608522E+02	-4.66947885006E+01	-1.76510199132E+02	-5.81497608608E+00	-9.53797047617E-01
1.85339482165E+06	-9.30283825597E+00	-7.09560196505E+01	1.07011226918E+01	1.70951971204E+02	-5.74556703643E+01	-1.51612193043E+02	-5.84196407416E+00	-8.87760259231E-01
1.87558617624E+06	-1.73180574273E+01	1.38124720961E+02	1.05692517597E+01	1.71045981564E+02	-4.62009848980E+01	-6.80881329326E+01	-5.82046937604E+00	-7.59917268626E-01
1.89777753084E+06	-1.82047558702E+01	-1.72138928792E+02	1.05944539777E+01	1.70612082978E+02	-4.82392016931E+01	1.53283753363E+01	-5.83990105367E+00	-1.01878223192E+00
1.91996888543E+06	-2.06101339279E+01	1.79898142242E+02	1.06016635546E+01	1.70433678412E+02	-4.53012555727E+01	1.62030501911E+01	-5.83930935093E+00	-9.80457876072E-01
1.94216024003E+06	-1.91127220375E+01	-1.47544388032E+02	1.06504686478E+01	1.70183523578E+02	-3.47588406117E+01	7.26125279106E+01	-5.83395786467E+00	-1.01176182425E+00
1.96435159462E+06	-1.54207204549E+01	-1.63391922066E+02	1.05859054180E+01	1.70094408679E+02	-4.48737813422E+01	-1.02067978791E+02	-5.83815281888E+00	-8.82518753619E-01
1.98654294922E+06	-1.57762155214E+01	-1.66365687844E+02	1.05614056316E+01	1.70121990833E+02	-6.90193715325E+01	-9.91896326253E+01	-5.83223231517E+00	-1.09925727205E+00
2.00873430381E+06	-1.03170528082E+01	1.47396015718E+02	1.05740960801E+01	1.70097237771E+02	-4.58535586513E+01	2.98187376649E-02	-5.85247312727E+00	-1.07815818918E+00
2.03092565841E+06	-2.55078209981E+01	-1.14221274033E+02	1.06485920686E+01	1.70092992462E+02	-4.89753418750E+01	1.01054861149E+02	-5.82978614947E+00	-1.06900509101E+00
2.05311701300E+06	-2.35749237460E+01	1.63887182423E+02	1.06107666115E+01	1.69897745270E+02	-5.21090950587E+01	-8.21267999412E+01	-5.85809303853E+00	-8.45092612131E-01
2.07530836760E+06	-1.75717204494E+01	-1.61473313352E+02	1.05923492817E+01	1.69562141340E+02	-5.14920840908E+01	-4.96046907762E+01	-5.85745736696E+00	-9.18081660317E-01
2.09749972219E+06	-1.98758702285E+01	1.55303462581E+02	1.05901984576E+01	1.69708956081E+02	-3.10720645118E+01	-7.22601882083E+01	-5.88184464305E+00	-7.65522036378E-01
2.11969107679E+06	-2.22078632103E+01	-1.68837644604E+02	1.06144938292E+01	1.69687353734E+02	-5.00107453091E+01	6.15981383888E+01	-5.84172935281E+00	-1.16587830906E+00
2.14188243138E+06	-2.23803808468E+01	-1.24848156959E+02	1.06346430784E+01	1.69279456698E+02	-4.42802827804E+01	-1.38067600436E+02	-5.82971581318E+00	-9.68246159433E-01
2.16407378598E+06	-1.56520865639E+01	-3.99093001446E+01	1.06597800900E+01	1.69656363141E+02	-4.74680197069E+01	5.30615034486E+01	-5.83024796679E+00	-1.30723251029E+00
2.18626514057E+06	-1.73962777439E+01	-1.26260963350E+02	1.06475145646E+01	1.68950208356E+02	-4.58543773476E+01	1.12576522250E+02	-5.83170000836E+00	-1.20444521050E+00
2.20845649517E+06	-1.79535755367E+01	-1.57011993305E+02	1.06095172307E+01	1.68892814325E+02	-3.66853648179E+01	1.08437796919E+02	-5.82205815479E+00	-1.28454897342E+00
2.23064784976E+06	-2.02119826781E+01	-1.35937163781E+02	1.06215077055E+01	1.68599329307E+02	-5.03198318016E+01	7.11073260373E+01	-5.81947376985E+00	-1.24892541253E+00
2.25283920436E+06	-1.75470100395E+01	-1.58008982012E+02	1.06237449634E+01	1.68613052113E+02	-3.34051925641E+01	5.77481325794E+00	-5.86429499967E+00	-1.46655692346E+00
2.27503055895E+06	-1.90207012514E+01	-1.65712953060E+02	1.06269945930E+01	1.68544185156E+02	-4.24185997201E+01	1.12870191913E+02	-5.82504566103E+00	-1.24343340248E+00
2.29722191355E+06	-2.32245030488E+01	-1.61217799121E+02	1.06276144509E+01	1.68605743812E+02	-4.62779046556E+01	4.33206083614E+01	-5.85870002374E+00	-1.24246200813E+00
2.31941326814E+06	-1.31340090417E+01	1.78546016176E+02	1.05514332350E+01	1.68210137533E+02	-4.67712917759E+01	-1.13834507731E+02	-5.85257121018E+00	-1.08241378473E+00
2.34160462274E+06	-1.53128967082E+01	-1.57672387815E+02	1.06065016034E+01	1.67989186677E+02	-5.00856232022E+01	-1.45806083391E+02	-5.81656810357E+00	-1.15628141498E+00
2.36379597733E+06	-1.52664629928E+01	1.50257516389E+02	1.05717217047E+01	1.68364622615E+02	-4.14225326921E+01	5.90461935442E+00	-5.85149197168E+00	-1.28875109682E+00
2.38598733193E+06	-1.57987024539E+01	1.73412286282E+02	1.05782192759E+01	1.68061297043E+02	-4.40318733144E+01	-3.90744487850E+00	-5.86862710658E+00	-1.25184789106E+00
2.40817868652E+06	-2.15663519751E+01	-1.27532000930E+02	1.06299075952E+01	1.67941047869E+02	-3.09062030063E+01	4.72870180490E+01	-5.82951787395E+00	-1.69395371449E+00
2.43037004112E+06	-2.05269272211E+01	-1.70834021325E+02	1.06262551429E+01	1.67707497865E+02	-4.07364709104E+01	5.22798553439E+01	-5.85951747665E+00	-1.84857074397E+00
2.45256139571E+06	-1.91108823036E+01	1.73189302074E+02	1.06217557434E+01	1.67688924843E+02	-4.82385692407E+01	-1.75988153508E+02	-5.81505978713E+00	-1.27556865676E+00
2.47475275031E+06	-1.31564227590E+01	-1.78630281516E+02	1.05975411527E+01	1.67201560987E+02	-4.34439913135E+01	-1.42939635420E+02	-5.84632266651E+00	-1.01552414239E+00
2.49694410490E+06	-1.80837525945E+01	1.72699886812E+02	1.05990173054E+01	1.67433117313E+02	-4.11616191167E+01	4.61113221407E+01	-5.85505494334E+00	-1.44242018988E+00
2.51913545950E+06	-1.57484911334E+01	-1.37814187603E+02	1.06583456440E+01	1.66992422993E+02	-4.80585613542E+01	-4.99052442245E+01	-5.87362510331E+00	-1.21545044882E+00
2.54132681409E+06	-1.90239726800E+01	1.77971367899E+02	1.06218898599E+01	1.67140904354E+02	-4.49887680977E+01	-4.66434700785E+01	-5.85182292710E+00	-1.14152036418E+00
2.56351816869E+06	-1.85561540726E+01	-1.75993060017E+02	1.06311738209E+01	1.66894594955E+02	-3.21366781323E+01	-2.23993774497E+01	-5.90356216398E+00	-1.31059064936E+00
2.58570952328E+06	-1.66976649361E+01	1.60440297281E+02	1.05442095813E+01	1.67014795891E+02	-4.43463793269E+01	-1.36841189846E+02	-5.83791352485E+00	-1.09825687900E+00
2.60790087788E+06	-1.99511213221E+01	-1.78960299977E+02	1.06205788306E+01	1.66897957190E+02	-4.04829758804E+01	-1.11069482215E+02	-5.86853676146E+00	-1.02473001961E+00
2.63009223247E+06	-1.92587903315E+01	-1.22499316214E+02	1.06403658688E+01	1.66738743436E+02	-5.12944433121E+01	5.67060924575E+01	-5.86504491199E+00	-9.17765941082E-01
2.65228358707E+06	-1.90784043066E+01	1.71789219634E+02	1.05932771881E+01	1.66557724733E+02	-5.06806841477E+01	1.64450826672E+02	-5.83058894130E+00	-1.21918394333E+00
2.67447494166E+06	-1.49878789298E+01	-1.56622094142E+02	1.06033357856E+01	1.66205530873E+02	-4.22843191061E+01	6.10001703059E+01	-5.84526923398E+00	-1.55097116665E+00
2.69666629626E+06	-1.68332177085E+01	-1.67834662155E+02	1.06245228731E+01	1.66173826780E+02	-6.86109296566E+01	9.56067968398E+01	-5.83473646335E+00	-1.26143565675E+00
2.71885765085E+06	-1.81051814493E+01	1.67493964809E+02	1.06157043148E+01	1.66372140870E+02	-4.18135976768E+01	-9.42076839767E+01	-5.86249108154E+00	-1.18757957295E+00
2.74104900545E+06	-1.90336216036E+01	-1.71316919853E+02	1.06272598613E+01	1.66077061428E+02	-4.34178302290E+01	9.33918866951E+01	-5.82169612656E+00	-1.38556949775E+00
2.76324036004E+06	-1.50740383979E+01	-1.62557598527E+02	1.06103305288E+01	1.65790474240E+02	-5.66527449559E+01	1.79262606388E+02	-5.82465228113E+00	-1.43369164466E+00
2.78543171463E+06	-1.78792492597E+01	-1.72365650405E+02	1.06043869318E+01	1.65691243734E+02	-5.76608746601E+01	1.04822838242E+02	-5.84536209395E+00	-1.58656881320E+00
2.80762306923E+06	-1.73897342707E+01	-1.62392325865E+02	1.06112038290E+01	1.65593105178E+02	-4.29796845474E+01	-1.67006974530E+02	-5.85030883546E+00	-1.28694260104E+00
2.82981442382E+06	-1.95259247892E+01	-1.74016273873E+02	1.06507450720E+01	1.65670574811E+02	-5.41244383572E+01	7.64415510100E+01	-5.84985005609E+00	-1.36919252433E+00
2.85200577842E+06	-1.96701443662E+01	-1.61793222932E+02	1.06613126512E+01	1.65506776321E+02	-5.40238755613E+01	9.15385400058E+01	-5.84237317353E+00	-1.31499564462E+00
2.87419713301E+06	-1.52394245880E+01	-1.47416846342E+02	1.06429389858E+01	1.65129085259E+02	-3.48382755533E+01	-8.47638008212E+01	-5.86072871949E+00	-1.24950828348E+00
