# Hz S DB R 50
! CMT, M5065, 19127446, 24.2.4/2
! Date: 11/8/2024 3:47:39 PM
! Data: Format (Calibration Info)
! Freq	S11:dB/Ang(F2)	S21:dB/Ang(F2)	S12:dB/Ang(F2)	S22:dB/Ang(F2)
3.00000000000E+05	-1.38890731746E+01	-1.76980003852E+02	5.31097437398E+00	-1.77471083517E+02	-4.79793094799E+01	-1.23094356135E+02	-5.84152171531E+00	-1.58893204130E-01
3.22191354595E+05	-1.59114720613E+01	-1.75718330845E+02	5.30750712954E+00	-1.78057584066E+02	-4.31087406792E+01	1.42929875253E+02	-5.82074181420E+00	-2.25237730792E-01
3.44382709190E+05	-1.41898785170E+01	-1.68712918071E+02	5.31143270830E+00	-1.78270815881E+02	-4.44127987969E+01	-1.23365442965E+02	-5.86242655966E+00	-1.72223661082E-01
3.66574063785E+05	-2.18645164930E+01	1.57122206136E+02	5.36178287360E+00	-1.78713608959E+02	-4.78078873522E+01	1.13469301418E+02	-5.85938876050E+00	-3.14885767826E-01
3.88765418380E+05	-2.33884979861E+01	-1.36703931981E+02	5.28961534960E+00	-1.78805250708E+02	-5.13728807127E+01	-5.81387526983E+01	-5.85265680195E+00	-4.03033536941E-01
4.10956772975E+05	-1.52361496999E+01	1.67694940874E+02	5.34792335186E+00	-1.78724766031E+02	-3.68802207299E+01	-8.46571882551E+01	-5.83934047227E+00	-1.70332143199E-01
4.33148127570E+05	-1.43129966257E+01	-1.76184208392E+02	5.33053172333E+00	-1.79517650995E+02	-4.80886109893E+01	-1.12916505059E+02	-5.82971816002E+00	-2.62230142261E-01
4.55339482165E+05	-2.01994975394E+01	-1.54709190769E+02	5.37413471534E+00	-1.79632057119E+02	-5.64490978975E+01	5.91040109089E+01	-5.83602558365E+00	-3.45904564562E-01
4.77530836760E+05	-1.63135968910E+01	-1.75773572769E+02	5.35577537137E+00	-1.79517474823E+02	-3.81596296941E+01	-8.44745070634E+01	-5.84339118666E+00	-2.15160884698E-01
4.99722191355E+05	-1.30799076024E+01	1.67450191857E+02	5.30243700454E+00	-1.79954589733E+02	-4.28374653620E+01	-1.09438449306E+02	-5.82243103184E+00	-3.91964043770E-01
5.21913545950E+05	-1.64761644961E+01	-1.74443424511E+02	5.37664527997E+00	-1.79947459710E+02	-3.72832301412E+01	4.75804364631E+01	-5.84236006272E+00	-3.74485312959E-01
5.44104900545E+05	-2.05252318032E+01	-1.70627106411E+02	5.39460913947E+00	1.79936180214E+02	-5.46683272976E+01	-1.25783617907E+02	-5.84388801240E+00	-2.01679055307E-01
5.66296255139E+05	-1.78334617820E+01	1.37951146818E+02	5.34617626518E+00	1.79895514027E+02	-4.87145037001E+01	-1.30423082464E+02	-5.84225146292E+00	-3.90615874525E-01
5.88487609734E+05	-1.84224509661E+01	1.57957498918E+02	5.36014457828E+00	1.79779527424E+02	-5.76032722366E+01	1.62459511983E+02	-5.84355366890E+00	-3.19254400017E-01
6.10678964329E+05	-1.70626770917E+01	1.64263331887E+02	5.39278232917E+00	1.79390531803E+02	-4.81754607345E+01	9.29833499588E+01	-5.85771628986E+00	7.19741641867E-02
6.32870318924E+05	-1.66384554918E+01	-1.78862641393E+02	5.34443258547E+00	1.79387820298E+02	-4.51038199237E+01	6.27430588792E+01	-5.85735585801E+00	-1.73651033383E-01
6.55061673519E+05	-1.27497969986E+01	-1.69409001806E+02	5.31479170354E+00	1.78841246803E+02	-4.73246184140E+01	1.65472283644E+02	-5.83578378577E+00	-2.46039042121E-01
6.77253028114E+05	-2.10163660831E+01	-1.62376767084E+02	5.36835603961E+00	1.78983295904E+02	-3.70296639576E+01	-4.58311014786E+01	-5.82730433110E+00	-5.48100739076E-01
6.99444382709E+05	-1.86337424473E+01	-1.53134656964E+02	5.37109734716E+00	1.78623791425E+02	-5.28962432285E+01	-1.49854323748E+02	-5.84056582661E+00	-4.28260496695E-01
7.21635737304E+05	-2.08243218872E+01	1.63338669629E+02	5.32097046878E+00	1.78816708452E+02	-5.58374827498E+01	-1.62415571104E+02	-5.84994520141E+00	-3.79441737240E-01
7.43827091899E+05	-1.60061770816E+01	-1.61615571667E+02	5.39425865100E+00	1.78427143179E+02	-4.64386492515E+01	-9.48937387024E+01	-5.85343357452E+00	-5.62225557814E-01
7.66018446494E+05	-1.30539287965E+01	-1.78006126725E+02	5.34238701501E+00	1.78169257098E+02	-4.37080210102E+01	1.57743356480E+02	-5.82855201566E+00	-3.35105728244E-01
7.88209801089E+05	-2.55422334049E+01	1.39582961808E+02	5.41299385988E+00	1.78281014382E+02	-4.01076803337E+01	-5.34060937812E+01	-5.85305899791E+00	-3.94263009862E-01
8.10401155684E+05	-1.73209285471E+01	-1.71456781264E+02	5.34129706465E+00	1.77932708024E+02	-4.89042916242E+01	6.53677817828E+01	-5.83727763399E+00	-5.16187318374E-01
8.32592510279E+05	-1.81432068526E+01	1.58122794163E+02	5.39046414578E+00	1.78187624433E+02	-5.53703635490E+01	2.97387933046E+01	-5.84444702813E+00	-2.66429243936E-01
8.54783864874E+05	-1.57774054241E+01	-1.38031952631E+02	5.35370078247E+00	1.77554051526E+02	-5.55983146493E+01	8.67288703041E+01	-5.82244323364E+00	-4.39230464399E-01
8.76975219469E+05	-1.98650880455E+01	1.79492789000E+02	5.34045809945E+00	1.77620270679E+02	-5.25073922548E+01	-7.70661311196E+01	-5.85710544236E+00	-4.00824518785E-01
8.99166574064E+05	-1.67162868204E+01	-1.79687795623E+02	5.35872681732E+00	1.77442382671E+02	-4.59220087224E+01	9.73474830411E+01	-5.81897893754E+00	-6.23127701251E-01
9.21357928659E+05	-1.76271829876E+01	-1.44437572500E+02	5.36080131286E+00	1.77180338296E+02	-4.78964405558E+01	1.87978566245E+01	-5.83011178469E+00	-4.05237318709E-01
9.43549283254E+05	-1.72479713471E+01	-1.42229049805E+02	5.34278160999E+00	1.77248837995E+02	-4.41198406440E+01	8.55041884118E+01	-5.85708311010E+00	-5.90215576893E-01
9.65740637849E+05	-1.61164103595E+01	1.55534294804E+02	5.34792969062E+00	1.77684372676E+02	-4.35020430440E+01	-1.35830242445E+02	-5.81792990697E+00	-3.23439191947E-01
9.87931992444E+05	-1.80105282136E+01	-1.55562724257E+02	5.37946578398E+00	1.76921078150E+02	-3.88730092935E+01	1.66773847023E+02	-5.82700839416E+00	-5.76016360284E-01
1.01012334704E+06	-1.53594516820E+01	1.78892900766E+02	5.35711722755E+00	1.77033328985E+02	-4.40640746505E+01	-1.23003534629E+02	-5.84801015421E+00	-4.53227590749E-01
1.03231470163E+06	-1.86315798437E+01	-1.70125465828E+02	5.33184333943E+00	1.76838141364E+02	-4.58166922483E+01	-2.99307518469E+01	-5.86900474781E+00	-4.57478975921E-01
1.05450605623E+06	-2.59510838648E+01	-1.53905574837E+02	5.34771357817E+00	1.76683214974E+02	-4.35388970687E+01	2.76773848334E+01	-5.86462357445E+00	-5.58601088781E-01
1.07669741082E+06	-1.39264118443E+01	1.72937905666E+02	5.32146309817E+00	1.76578163169E+02	-4.77207923315E+01	3.01948118009E+01	-5.86817691405E+00	-6.15395486688E-01
1.09888876542E+06	-1.87159776736E+01	1.60281841449E+02	5.39224019003E+00	1.76560113247E+02	-4.06071460666E+01	-5.43360590077E+01	-5.87918383173E+00	-4.73409704496E-01
1.12108012001E+06	-1.64005759730E+01	1.71216558071E+02	5.35846867834E+00	1.76720473903E+02	-5.64593553545E+01	6.43932332734E+01	-5.86290555384E+00	-5.93302303663E-01
1.14327147461E+06	-2.04790535557E+01	1.69921607123E+02	5.38122040147E+00	1.76306667214E+02	-5.12644622905E+01	1.67223939437E+02	-5.84495634071E+00	-5.50672184885E-01
1.16546282920E+06	-3.40157193957E+01	-1.37758029280E+02	5.38889765367E+00	1.76208337839E+02	-5.47870559952E+01	6.71634002490E+01	-5.85223853147E+00	-6.71963793094E-01
1.18765418380E+06	-1.77510567047E+01	-1.45089653491E+02	5.42132830804E+00	1.76088655858E+02	-4.75202443200E+01	1.30164490122E+02	-5.83449204802E+00	-6.26248356285E-01
1.20984553839E+06	-1.42984884955E+01	1.60349452128E+02	5.30630538812E+00	1.76018919178E+02	-4.22225180106E+01	-1.48213133400E+02	-5.82710114818E+00	-5.54456136970E-01
1.23203689299E+06	-1.31961590836E+01	1.77013812988E+02	5.32545429695E+00	1.76101006615E+02	-4.21269387247E+01	-8.51426634683E+01	-5.85326308190E+00	-3.14716890749E-01
1.25422824758E+06	-1.73999627880E+01	1.79582046360E+02	5.36031503278E+00	1.75633039663E+02	-3.93763185624E+01	4.04492858565E+01	-5.83907838756E+00	-7.73723480229E-01
1.27641960218E+06	-2.01204542806E+01	-1.73322236408E+02	5.38234146317E+00	1.75908403215E+02	-4.68044824898E+01	1.30871064756E+02	-5.86030695942E+00	-5.92744745108E-01
1.29861095677E+06	-1.60395225971E+01	-1.65366037095E+02	5.37341057141E+00	1.75452921648E+02	-4.37576955942E+01	-5.18687659388E+01	-5.86080775132E+00	-5.74545583623E-01
1.32080231137E+06	-1.46742649675E+01	-1.64706461568E+02	5.34677691641E+00	1.75584869836E+02	-4.75555423403E+01	-1.43682185025E+02	-5.84936916456E+00	-1.02556182630E+00
1.34299366596E+06	-1.45928579038E+01	-1.72324545777E+02	5.33189072673E+00	1.75424814618E+02	-4.59482249035E+01	-1.06868232130E+02	-5.83533960379E+00	-7.53427215972E-01
1.36518502056E+06	-1.49182100944E+01	1.64262798121E+02	5.32373835862E+00	1.75335861124E+02	-4.15536060771E+01	-1.71058614044E+02	-5.83316718828E+00	-6.15740326417E-01
1.38737637515E+06	-1.78931177466E+01	1.60761637032E+02	5.38234109442E+00	1.75293190171E+02	-4.96099355360E+01	-4.14297870336E+01	-5.83916986378E+00	-7.08787840072E-01
1.40956772975E+06	-1.38202618142E+01	-1.62265821371E+02	5.36011370225E+00	1.75213013519E+02	-4.40588106338E+01	8.57890813544E+01	-5.85077380811E+00	-7.51102307847E-01
1.43175908434E+06	-1.65012996457E+01	1.66510688805E+02	5.33871887793E+00	1.75056459788E+02	-4.74890628889E+01	1.59367966571E+02	-5.87063728325E+00	-7.60957136315E-01
1.45395043894E+06	-1.87983481876E+01	-1.66377060065E+02	5.36301802558E+00	1.75007239678E+02	-4.22617858887E+01	1.54566380569E+02	-5.79497747758E+00	-7.83265120871E-01
1.47614179353E+06	-1.56434075452E+01	1.62659695217E+02	5.38541430329E+00	1.75070531790E+02	-4.71041266733E+01	-4.27840319029E+01	-5.85109847186E+00	-6.08799609278E-01
1.49833314813E+06	-2.10995752202E+01	1.42116669765E+02	5.37992656807E+00	1.74693828859E+02	-4.14055517062E+01	-3.61197012040E+01	-5.85963593579E+00	-7.42688617556E-01
1.52052450272E+06	-1.60269348803E+01	1.66197868686E+02	5.34822217476E+00	1.74638098337E+02	-5.06361294331E+01	1.08188608458E+02	-5.84316620580E+00	-8.19909297033E-01
1.54271585732E+06	-2.50592205848E+01	1.78683176009E+02	5.42031309690E+00	1.74826570695E+02	-4.36812926724E+01	7.41406424463E+01	-5.84407063530E+00	-7.57759583517E-01
1.56490721191E+06	-1.78220450443E+01	1.74008456959E+02	5.37319080380E+00	1.74368621388E+02	-4.66146552745E+01	-1.60932067367E+02	-5.85336887253E+00	-8.65110616095E-01
1.58709856651E+06	-1.72259119023E+01	-1.73147849750E+02	5.40759010363E+00	1.74492018192E+02	-4.48263232550E+01	-7.94064879581E+01	-5.84972938940E+00	-8.29578721616E-01
1.60928992110E+06	-2.03046998586E+01	-1.72444222565E+02	5.39582899755E+00	1.74097267319E+02	-3.69015104113E+01	1.44676129573E+02	-5.82536107865E+00	-7.54783133662E-01
1.63148127570E+06	-1.34626497832E+01	1.66464734950E+02	5.34117643414E+00	1.74271096938E+02	-4.03423425878E+01	-8.91021061085E+01	-5.83889320379E+00	-8.06793720828E-01
1.65367263029E+06	-1.81462067251E+01	-1.70478386811E+02	5.30051013409E+00	1.73886380834E+02	-4.97925396312E+01	6.03237812833E+01	-5.83907254706E+00	-9.69543362678E-01
1.67586398489E+06	-1.50504297682E+01	1.65953330681E+02	5.38382667566E+00	1.73896514009E+02	-4.84015356994E+01	1.49052641451E+02	-5.83872918175E+00	-7.57927774045E-01
1.69805533948E+06	-1.90672148765E+01	-1.63417804145E+02	5.36384334607E+00	1.74059999914E+02	-4.53637284305E+01	9.05981390283E+01	-5.82629685403E+00	-8.03455422674E-01
1.72024669408E+06	-1.64299742905E+01	-1.69772535832E+02	5.38339597060E+00	1.73585808959E+02	-3.78775547204E+01	-4.08123726133E+01	-5.87882124569E+00	-9.08958208537E-01
1.74243804867E+06	-2.24138045581E+01	1.70608548272E+02	5.39986423308E+00	1.74119951903E+02	-4.59235266872E+01	1.45957493876E+02	-5.83483217286E+00	-9.17936588267E-01
1.76462940327E+06	-1.72480475195E+01	-1.57825264451E+02	5.40152996904E+00	1.73173297046E+02	-4.22317786105E+01	1.63903999048E+02	-5.84216022074E+00	-8.80713611101E-01
1.78682075786E+06	-1.39968147551E+01	-1.64506457525E+02	5.34198130322E+00	1.73100128100E+02	-4.16174680410E+01	-5.69414082005E+01	-5.85488792342E+00	-1.01237066775E+00
1.80901211246E+06	-1.49315449941E+01	-1.57876817750E+02	5.40198038595E+00	1.73212922638E+02	-4.21953816905E+01	-1.38437680897E+02	-5.83463187695E+00	-8.24245661290E-01
1.83120346705E+06	-1.69344050217E+01	1.73229083706E+02	5.41968524130E+00	1.73124531873E+02	-4.56307546421E+01	-1.05795163987E+02	-5.84534033214E+00	-7.53880886487E-01
1.85339482165E+06	-2.17747459615E+01	-1.69187186033E+02	5.40752753564E+00	1.73380369470E+02	-5.54286021143E+01	1.57129104681E+02	-5.84963943487E+00	-8.45592344919E-01
1.87558617624E+06	-1.74151205083E+01	-1.57548737241E+02	5.40356547616E+00	1.73085319333E+02	-5.45526426757E+01	1.70984490128E+01	-5.83363398917E+00	-9.51800502803E-01
1.89777753084E+06	-1.53682800871E+01	-1.76159387248E+02	5.35339640103E+00	1.73137784339E+02	-4.53967100882E+01	-1.77541185980E+01	-5.87208449911E+00	-9.25820792503E-01
1.91996888543E+06	-1.42547643840E+01	-1.55142303609E+02	5.34760909150E+00	1.72714157609E+02	-3.95921484563E+01	-6.29218899318E+00	-5.85846034015E+00	-1.08148068576E+00
1.94216024003E+06	-1.68119037185E+01	1.56410276554E+02	5.33639754283E+00	1.72846413398E+02	-3.91619067262E+01	-4.38001183089E+01	-5.86862289188E+00	-1.14076798031E+00
1.96435159462E+06	-1.63233968410E+01	1.49070206565E+02	5.37223552112E+00	1.72978082422E+02	-5.02534599316E+01	-5.65121106679E+01	-5.84757564701E+00	-9.80804750746E-01
1.98654294922E+06	-1.72777381951E+01	1.57652734354E+02	5.38191523901E+00	1.72746366103E+02	-5.14102659558E+01	-7.99259588549E+01	-5.83664025916E+00	-9.19827427054E-01
2.00873430381E+06	-1.70756111031E+01	1.57759752576E+02	5.36451861450E+00	1.72604268545E+02	-4.23181716374E+01	-8.05320163963E+01	-5.86431571151E+00	-8.80279979659E-01
2.03092565841E+06	-1.95713188437E+01	-1.69505348921E+02	5.41288901521E+00	1.72682050024E+02	-5.15161657508E+01	1.09962185655E+02	-5.84252147997E+00	-1.04893477496E+00
2.05311701300E+06	-1.40392488133E+01	-1.68210976710E+02	5.36005665514E+00	1.72002297292E+02	-4.93008671664E+01	1.26649575121E+02	-5.84864682413E+00	-1.12596447913E+00
2.07530836760E+06	-1.71458369697E+01	1.79338876234E+02	5.37469701931E+00	1.72388234341E+02	-3.50173582207E+01	-1.76777262889E+01	-5.86014384574E+00	-1.13446478790E+00
2.09749972219E+06	-1.71630108024E+01	-1.03081637403E+02	5.43778734016E+00	1.72123147585E+02	-3.53750649568E+01	1.69729549280E+02	-5.80068930054E+00	-9.80882185248E-01
2.11969107679E+06	-1.77748078939E+01	1.64996132125E+02	5.36677672787E+00	1.71776607958E+02	-4.35058809258E+01	1.62636433978E+01	-5.83631442129E+00	-1.23400170870E+00
2.14188243138E+06	-1.80226276664E+01	-1.68170155296E+02	5.37794405382E+00	1.71753607698E+02	-4.88911445109E+01	1.36114167292E+02	-5.84305522206E+00	-1.04663540934E+00
2.16407378598E+06	-1.62591570494E+01	-1.68242001856E+02	5.36651615458E+00	1.71884325015E+02	-5.30398928078E+01	8.78359379079E+01	-5.82094044839E+00	-1.20290134489E+00
2.18626514057E+06	-1.64833808699E+01	-1.75177863541E+02	5.34785454512E+00	1.71786290188E+02	-4.54199795834E+01	-5.32117000472E+00	-5.85105925545E+00	-1.04433676566E+00
2.20845649517E+06	-1.60910554877E+01	1.55454314366E+02	5.33621726486E+00	1.71883763633E+02	-4.42348226157E+01	1.44398414248E+02	-5.83870325986E+00	-1.19805554760E+00
2.23064784976E+06	-1.70712849795E+01	-1.79342724973E+02	5.41915419612E+00	1.71616655295E+02	-4.44850095857E+01	4.19171868184E+01	-5.84840294948E+00	-1.20149964972E+00
2.25283920436E+06	-2.40141843365E+01	1.48305299365E+02	5.41023558337E+00	1.71702239142E+02	-4.30420985989E+01	-1.41059776647E+02	-5.84229424554E+00	-1.26444784446E+00
2.27503055895E+06	-1.05831795314E+01	-1.59283265402E+02	5.39724533969E+00	1.71042291256E+02	-4.43690911472E+01	-1.22521452237E+02	-5.85883671704E+00	-9.35561235711E-01
2.29722191355E+06	-1.42872762117E+01	-1.68862412524E+02	5.36387908594E+00	1.71299282773E+02	-3.82700650313E+01	-6.17039451766E+01	-5.86205365058E+00	-9.30042171736E-01
2.31941326814E+06	-1.98482928492E+01	-1.29400102979E+02	5.43776640102E+00	1.70987941818E+02	-5.30654388784E+01	-1.59454890152E+02	-5.84884006408E+00	-1.18451413616E+00
2.34160462274E+06	-1.74276962444E+01	1.79954500354E+02	5.40425639039E+00	1.70815110760E+02	-4.81618193957E+01	1.15301121364E+02	-5.85326453127E+00	-1.05893891856E+00
2.36379597733E+06	-1.50792622875E+01	-1.79321223831E+02	5.35771087394E+00	1.70797548682E+02	-4.54169577818E+01	-1.25251702790E+02	-5.84933177678E+00	-9.96583979112E-01
2.38598733193E+06	-1.66088554689E+01	1.75996854829E+02	5.39930109351E+00	1.71073929935E+02	-5.68785471438E+01	8.06331127304E+01	-5.85571723380E+00	-1.32642987172E+00
2.40817868652E+06	-2.31008172714E+01	-1.27211651821E+02	5.42454416213E+00	1.70973687150E+02	-3.46777916315E+01	-3.12740856037E+01	-5.88779049587E+00	-1.29822153609E+00
2.43037004112E+06	-1.57668125106E+01	1.43906185672E+02	5.33285449123E+00	1.70837299860E+02	-4.04832049572E+01	-1.37674060570E+02	-5.85112049702E+00	-1.46310429551E+00
2.45256139571E+06	-1.53151594503E+01	1.73723347149E+02	5.38219198871E+00	1.70778339590E+02	-4.60688965170E+01	1.77926107049E+02	-5.82875568922E+00	-1.21630988160E+00
2.47475275031E+06	-1.99086670708E+01	-1.36073957078E+02	5.44818559635E+00	1.70488323686E+02	-4.95774143040E+01	-1.17416425196E+02	-5.87933631085E+00	-1.18902546839E+00
2.49694410490E+06	-1.71380577249E+01	-1.50113564264E+02	5.43832606948E+00	1.70340279698E+02	-4.37338287498E+01	-1.62779948243E+02	-5.85516243668E+00	-1.37658177188E+00
2.51913545950E+06	-1.81613603320E+01	1.76638200395E+02	5.34644869856E+00	1.70431812661E+02	-4.60334253403E+01	1.51507162243E+02	-5.82611705159E+00	-1.30894796181E+00
2.54132681409E+06	-1.66008506124E+01	-1.70869024676E+02	5.39891363133E+00	1.70462406182E+02	-3.40685006268E+01	1.33488628116E+01	-5.85311876164E+00	-1.41576696557E+00
2.56351816869E+06	-2.11590449388E+01	-1.37311914636E+02	5.40042264912E+00	1.70285990036E+02	-3.38044022057E+01	-1.34633473328E+02	-5.85790885075E+00	-1.08429003137E+00
2.58570952328E+06	-1.37139385854E+01	-5.93704300496E+01	5.43156315386E+00	1.70236040370E+02	-4.43326168862E+01	3.50514134228E+01	-5.87044835857E+00	-1.35724565617E+00
2.60790087788E+06	-1.65101234224E+01	-1.45058240929E+02	5.41076675024E+00	1.69909513859E+02	-4.71979586658E+01	1.28582301013E+02	-5.83164568290E+00	-1.14875541957E+00
2.63009223247E+06	-2.18487652854E+01	1.52400314065E+02	5.44775631477E+00	1.70177513072E+02	-5.17194337685E+01	1.43130925083E+02	-5.84425536321E+00	-8.35795898969E-01
2.65228358707E+06	-1.97063297671E+01	1.69735889285E+02	5.36842112630E+00	1.69836655029E+02	-4.74938008028E+01	5.02374643050E+00	-5.85964404055E+00	-1.28406818861E+00
2.67447494166E+06	-2.03035309170E+01	-1.78346256129E+02	5.43606033781E+00	1.69858970874E+02	-4.12921108632E+01	-1.21830678200E+02	-5.83991653475E+00	-1.25425039905E+00
2.69666629626E+06	-1.92673881377E+01	-1.56377171660E+02	5.40896778274E+00	1.69642716371E+02	-4.05020179668E+01	-1.58435121338E+02	-5.83910096643E+00	-1.24212888563E+00
2.71885765085E+06	-1.68872798335E+01	-1.67378708603E+02	5.39104392802E+00	1.69429489696E+02	-4.04369647033E+01	-8.72416926467E+01	-5.86458215105E+00	-1.17213329068E+00
2.74104900545E+06	-2.10369446913E+01	1.72308771360E+02	5.43032813152E+00	1.69660969230E+02	-4.38321346180E+01	-1.09005755732E+02	-5.86365894944E+00	-1.34745323324E+00
2.76324036004E+06	-1.80922137404E+01	-1.78468148725E+02	5.41967483482E+00	1.69354789984E+02	-4.22963270146E+01	-1.28977332094E+02	-5.86837954662E+00	-1.28703719678E+00
2.78543171463E+06	-1.25526157338E+01	-1.76451494327E+02	5.37160118712E+00	1.69033298700E+02	-5.46394974451E+01	1.48332464804E+02	-5.83172232530E+00	-1.36611644452E+00
2.80762306923E+06	-2.19443851582E+01	-1.69059751722E+02	5.40394383626E+00	1.69346132626E+02	-5.02965251248E+01	-1.54108789851E+02	-5.85896375765E+00	-1.44568551615E+00
2.82981442382E+06	-2.45511800537E+01	-1.79244668208E+02	5.40423172021E+00	1.69125837445E+02	-4.41281210213E+01	6.96019909513E+01	-5.84544640481E+00	-1.54013422271E+00
2.85200577842E+06	-2.12032587276E+01	1.74599640657E+02	5.39290619452E+00	1.69170288136E+02	-4.91011314173E+01	1.66579905236E+02	-5.82918065700E+00	-1.37431970509E+00
2.87419713301E+06	-2.14469787163E+01	-1.58807635773E+02	5.45698021174E+00	1.68659527379E+02	-3.55068885789E+01	-8.29962793929E+01	-5.87371089276E+00	-1.34928947230E+00
