# Hz S DB R 50
! CMT, M5065, 19127446, 24.2.4/2
! Date: 11/8/2024 3:57:36 PM
! Data: Format (Calibration Info)
! Freq	S11:dB/Ang(F2)	S21:dB/Ang(F2)	S12:dB/Ang(F2)	S22:dB/Ang(F2)
3.00000000000E+05	-2.01873925016E+01	1.67642240756E+02	7.98890820227E+00	-1.77511171771E+02	-4.28881990148E+01	1.54466826608E+02	-5.86772682141E+00	-4.14341446963E-01
3.22191354595E+05	-1.75891495671E+01	-1.54880984113E+02	7.97693238906E+00	-1.78060560974E+02	-4.74379215109E+01	1.02464733436E+01	-5.83887854960E+00	-4.30895387719E-01
3.44382709190E+05	-1.67729285129E+01	-1.68847746864E+02	7.96489144374E+00	-1.78333984272E+02	-4.82316789730E+01	-1.18707871599E+01	-5.85994336921E+00	-2.29496311406E-01
3.66574063785E+05	-1.50442006704E+01	-1.53669681999E+02	7.97727639107E+00	-1.78737302394E+02	-4.29790870747E+01	-1.28409432191E+02	-5.82600701967E+00	-2.26320656789E-01
3.88765418380E+05	-2.13337573384E+01	1.61550484605E+02	7.91916422816E+00	-1.78823804521E+02	-3.78477550785E+01	-4.42126218105E+01	-5.83412386888E+00	-9.68844900819E-02
4.10956772975E+05	-1.45467805712E+01	1.54424050937E+02	7.94980062362E+00	-1.78937165800E+02	-4.38016393693E+01	-3.23780303098E+01	-5.84674379176E+00	-1.78090443507E-01
4.33148127570E+05	-1.69854437708E+01	1.73833537370E+02	7.95373508423E+00	-1.79285352561E+02	-4.73977379113E+01	-4.41799364871E+01	-5.85365039926E+00	-2.59060048449E-01
4.55339482165E+05	-1.99732495383E+01	-1.50978017902E+02	7.99970605430E+00	-1.79765041556E+02	-4.58732833083E+01	1.75699516407E+02	-5.84333545762E+00	-3.73129493915E-01
4.77530836760E+05	-1.77102711600E+01	1.61090061404E+02	7.98008829671E+00	-1.79528425930E+02	-4.59400348475E+01	-1.13605027204E+02	-5.84389110083E+00	-2.91460988187E-01
4.99722191355E+05	-1.61845101357E+01	1.57484757108E+02	7.97831875496E+00	-1.79859632024E+02	-4.29384087274E+01	-9.33541185103E+01	-5.84073559216E+00	-2.18325221319E-01
5.21913545950E+05	-2.55813200545E+01	-1.78746387602E+02	7.99747950898E+00	1.79852545701E+02	-4.58603039361E+01	-1.63034930907E+02	-5.85813136129E+00	-3.64876537330E-01
5.44104900545E+05	-1.49802155189E+01	1.78325889560E+02	7.96164791955E+00	1.79446933855E+02	-4.22855959373E+01	-7.69516943898E+01	-5.85221291551E+00	-1.67116892781E-01
5.66296255139E+05	-1.61413128725E+01	-1.42857670092E+02	7.98673633658E+00	1.79290444185E+02	-4.74020061003E+01	1.01014425402E+02	-5.85518304525E+00	-3.35533718897E-01
5.88487609734E+05	-2.01282067183E+01	1.72919919138E+02	8.00060638682E+00	1.79114969913E+02	-4.62978924385E+01	-3.30923829371E+01	-5.82877375145E+00	-3.39691574958E-01
6.10678964329E+05	-1.48983511443E+01	-1.63823861047E+02	7.95195176501E+00	1.78825499841E+02	-4.67759466190E+01	-7.04859345826E+01	-5.85116092826E+00	2.20193709115E-01
6.32870318924E+05	-1.48086289563E+01	-1.73013879713E+02	7.97671053810E+00	1.78934218769E+02	-5.78449601884E+01	-1.45134396950E+02	-5.83877707171E+00	-2.08037707363E-01
6.55061673519E+05	-1.60001097704E+01	1.76406113224E+02	7.98624503470E+00	1.78752932645E+02	-5.17336081305E+01	1.61287403197E+02	-5.84751443674E+00	-3.11016008202E-01
6.77253028114E+05	-1.76134668143E+01	1.32591729178E+02	8.03452281898E+00	1.78746430853E+02	-3.73844235555E+01	8.71209066635E+01	-5.85432164706E+00	-8.66807166989E-01
6.99444382709E+05	-1.76688157427E+01	-1.61591909457E+02	7.98717994893E+00	1.78404477600E+02	-3.74504944681E+01	1.96578949096E+01	-5.85600335301E+00	-4.73849100973E-01
7.21635737304E+05	-1.57456455931E+01	1.76856279221E+02	7.99139750526E+00	1.78204399334E+02	-4.58689944709E+01	1.21716515224E+02	-5.85408201073E+00	-5.39280467128E-01
7.43827091899E+05	-2.08421157015E+01	-1.71731542586E+02	7.96819846121E+00	1.78056958035E+02	-4.28162913811E+01	9.73709926737E+01	-5.84055354302E+00	-4.43428296433E-01
7.66018446494E+05	-1.77341088674E+01	-1.77015888106E+02	7.99167752138E+00	1.77777097667E+02	-4.46341877422E+01	-5.79742266844E+01	-5.85142659704E+00	-2.97951689111E-01
7.88209801089E+05	-1.64457595540E+01	1.54979152526E+02	7.96210812050E+00	1.77926922693E+02	-4.25430183241E+01	2.49512507273E+01	-5.87162081767E+00	-3.68494990379E-01
8.10401155684E+05	-2.25727709557E+01	1.68757341563E+02	8.00013374688E+00	1.77604607646E+02	-4.08225019847E+01	-5.53149413654E+01	-5.86291505063E+00	-3.75288864450E-01
8.32592510279E+05	-1.53102562375E+01	-1.27210108331E+02	7.98646283797E+00	1.77487650156E+02	-3.53650966224E+01	7.02330833228E-01	-5.86709747279E+00	-5.22168762180E-01
8.54783864874E+05	-1.30809215159E+01	1.52316398203E+02	7.96703882072E+00	1.77677886409E+02	-3.91064480115E+01	1.13682918569E+01	-5.84612079953E+00	-4.70875204924E-01
8.76975219469E+05	-1.33897677450E+01	1.60012980457E+02	7.94827382109E+00	1.77338956736E+02	-5.15401207438E+01	-1.59711385721E+02	-5.83317131167E+00	-6.10616644763E-01
8.99166574064E+05	-2.08183679214E+01	1.55694629961E+02	7.97974267572E+00	1.77082958983E+02	-4.46964308094E+01	4.08777498237E+01	-5.86953859088E+00	-5.59982000412E-01
9.21357928659E+05	-1.51568317026E+01	1.73247114302E+02	7.95045066382E+00	1.76969583585E+02	-4.20364359355E+01	-1.19408485225E+02	-5.83420986146E+00	-4.21569807457E-01
9.43549283254E+05	-2.37658419951E+01	1.79134756518E+02	8.03387618061E+00	1.77063417220E+02	-4.21410441628E+01	-1.28922690198E+02	-5.82391251622E+00	-4.79747336146E-01
9.65740637849E+05	-2.13936312136E+01	-1.49415808249E+02	8.00231455832E+00	1.76713256568E+02	-4.66267684291E+01	-1.59046141506E+02	-5.84335570647E+00	-6.05300370786E-01
9.87931992444E+05	-1.82821261345E+01	-1.69824168954E+02	8.01289307668E+00	1.76576788223E+02	-4.10510765645E+01	4.16296721309E+01	-5.83443052223E+00	-5.91023718198E-01
1.01012334704E+06	-1.29073404395E+01	-1.72144730240E+02	7.96314765075E+00	1.76291523681E+02	-3.81774750344E+01	-1.07277798070E+01	-5.86514802749E+00	-6.09480142091E-01
1.03231470163E+06	-1.60230403552E+01	1.59009323477E+02	7.97416832276E+00	1.76389847270E+02	-3.82635050772E+01	-1.34065756057E+02	-5.82225404167E+00	-4.07914032860E-01
1.05450605623E+06	-1.47366656265E+01	1.40843143338E+02	7.96655865885E+00	1.76331973105E+02	-7.00960494176E+01	-1.41767021219E+02	-5.84511991677E+00	-4.13464159997E-01
1.07669741082E+06	-1.58794580537E+01	1.68312585202E+02	7.94675563550E+00	1.76242724868E+02	-4.01970175921E+01	-3.60362294897E+01	-5.84703438880E+00	-7.18483517985E-01
1.09888876542E+06	-1.66209416905E+01	1.74981845598E+02	7.96398231965E+00	1.75945322645E+02	-4.54457048777E+01	6.62571430414E+01	-5.83862389643E+00	-5.63451950804E-01
1.12108012001E+06	-1.80583769066E+01	1.68242524405E+02	7.95774984613E+00	1.75899534019E+02	-4.78734867691E+01	1.23126360832E+02	-5.83650863370E+00	-6.72113051806E-01
1.14327147461E+06	-1.30659424482E+01	-1.72025182031E+02	7.99765086502E+00	1.75796293802E+02	-4.36866030813E+01	-1.16438321487E+02	-5.84747373912E+00	-4.87504902750E-01
1.16546282920E+06	-1.69213311502E+01	1.58129995789E+02	7.96263871484E+00	1.75787823483E+02	-3.77793080665E+01	1.02990460744E+02	-5.83634413827E+00	-6.48865788420E-01
1.18765418380E+06	-2.21808587577E+01	-1.55569057033E+02	8.00055658252E+00	1.75502781978E+02	-5.36815290999E+01	3.53195566212E+00	-5.84237486090E+00	-6.52216601845E-01
1.20984553839E+06	-1.76583298820E+01	-1.74915281616E+02	7.97753607978E+00	1.75355223994E+02	-5.39525437043E+01	5.19703206773E+00	-5.85608048115E+00	-9.00545775853E-01
1.23203689299E+06	-1.67400803084E+01	1.56920374025E+02	7.99037924741E+00	1.75173698847E+02	-4.55782434575E+01	1.51955626685E+02	-5.85664624625E+00	-6.51441730937E-01
1.25422824758E+06	-2.12978022344E+01	-1.21341389646E+02	8.01795285411E+00	1.75021081247E+02	-4.01647259969E+01	-1.02422143923E+02	-5.86630574012E+00	-4.37730948500E-01
1.27641960218E+06	-2.43867232217E+01	-1.45036504546E+02	8.01106336742E+00	1.74985881572E+02	-4.66344578897E+01	5.49497107526E+00	-5.85625930761E+00	-6.60877158380E-01
1.29861095677E+06	-2.23601024892E+01	-1.52446627120E+02	8.02365605822E+00	1.74749288896E+02	-4.15073275518E+01	1.12204112954E+02	-5.84855426853E+00	-7.73284903512E-01
1.32080231137E+06	-2.16345495723E+01	-1.45711190163E+02	8.01818719953E+00	1.74543294423E+02	-4.71159929052E+01	-2.45537896864E+01	-5.83488756775E+00	-9.54957462797E-01
1.34299366596E+06	-1.81782285774E+01	-1.77371651808E+02	7.98211897527E+00	1.74908014853E+02	-4.89772766810E+01	9.89688043736E+01	-5.83630869268E+00	-8.00364295544E-01
1.36518502056E+06	-1.53422234391E+01	-1.63558011310E+02	7.97089300134E+00	1.74618380439E+02	-5.59888001546E+01	-1.12774434555E+02	-5.85880115814E+00	-8.89634693167E-01
1.38737637515E+06	-1.63292729938E+01	-1.59546957171E+02	7.96944168802E+00	1.74562876803E+02	-4.87421609012E+01	-2.58533450498E+01	-5.83939048450E+00	-5.75732678443E-01
1.40956772975E+06	-2.02804454109E+01	-1.59021240070E+02	7.99188216333E+00	1.74256107317E+02	-5.27911906132E+01	1.27489909224E+02	-5.83666974958E+00	-6.99846030043E-01
1.43175908434E+06	-1.65504744643E+01	-1.71592743912E+02	7.95218723195E+00	1.74159435532E+02	-3.97117291590E+01	1.30394980359E+02	-5.82413977685E+00	-8.39753674330E-01
1.45395043894E+06	-1.45025275311E+01	-1.48073230906E+02	8.02420743224E+00	1.73947150806E+02	-4.14460726545E+01	-7.35788683919E+01	-5.87266270342E+00	-7.88463913393E-01
1.47614179353E+06	-2.82417800976E+01	1.72153098605E+02	8.01123566718E+00	1.74028920422E+02	-4.92291331578E+01	-7.87156921809E+01	-5.84390444027E+00	-6.76684213982E-01
1.49833314813E+06	-1.75044839332E+01	1.70451284929E+02	7.98515488454E+00	1.73831455425E+02	-4.15927197150E+01	-7.98316434242E+01	-5.86295117481E+00	-7.24251369237E-01
1.52052450272E+06	-2.17347858430E+01	1.47512414657E+02	8.01848971076E+00	1.74191485890E+02	-4.95889864325E+01	1.30559907990E+02	-5.83155683406E+00	-7.50586827798E-01
1.54271585732E+06	-1.57283043643E+01	-1.74354885405E+02	7.94266646396E+00	1.73880772441E+02	-5.29597122991E+01	-5.11933591731E+01	-5.85169482223E+00	-7.52186513120E-01
1.56490721191E+06	-1.58825015553E+01	-1.76665710989E+02	7.98782007475E+00	1.73720106514E+02	-4.51683974839E+01	1.36910464816E+02	-5.85151354079E+00	-7.85294653325E-01
1.58709856651E+06	-1.54926555113E+01	1.79156777532E+02	8.01053109672E+00	1.73675621548E+02	-4.00108466946E+01	-1.10277087596E+02	-5.85172636353E+00	-6.37722815622E-01
1.60928992110E+06	-1.49928506988E+01	1.45385165201E+02	7.96451443752E+00	1.73333363620E+02	-3.83123450397E+01	5.11461078204E+01	-5.85668795358E+00	-7.73125866456E-01
1.63148127570E+06	-1.37953250020E+01	-1.58536631760E+02	7.97741410889E+00	1.73134287947E+02	-4.03969783948E+01	3.48849469228E+00	-5.84974089337E+00	-8.97093935525E-01
1.65367263029E+06	-1.99550380963E+01	-1.50352446739E+02	7.99406219778E+00	1.73116602382E+02	-4.98038100945E+01	-4.96270463317E+01	-5.83499980724E+00	-8.06889225310E-01
1.67586398489E+06	-1.45283655237E+01	-1.73637807882E+02	8.00047779227E+00	1.73068900469E+02	-4.60609378168E+01	-1.66927703854E+02	-5.84338183611E+00	-6.96867544226E-01
1.69805533948E+06	-2.07392079976E+01	-1.60357040051E+02	8.01387897587E+00	1.72721489818E+02	-4.50039195077E+01	-2.92261260483E+01	-5.85045581845E+00	-8.54090043592E-01
1.72024669408E+06	-1.82437078594E+01	-1.76534692547E+02	8.01998466536E+00	1.72669051438E+02	-4.51822657784E+01	8.07937930294E+01	-5.85045860417E+00	-9.99953943225E-01
1.74243804867E+06	-1.40070225412E+01	-1.63047513799E+02	7.99098484393E+00	1.72272167872E+02	-4.60219721819E+01	1.75314976843E+02	-5.83010226122E+00	-7.91080130498E-01
1.76462940327E+06	-2.17163892902E+01	1.66121380100E+02	7.99484796565E+00	1.72678058453E+02	-4.88493864809E+01	1.44146503047E+02	-5.84412418131E+00	-9.12623144906E-01
1.78682075786E+06	-1.10610748769E+01	1.64785151643E+02	7.94633706282E+00	1.72117478041E+02	-3.55250278757E+01	2.63133380819E+01	-5.87849804964E+00	-1.06584060164E+00
1.80901211246E+06	-1.52563475844E+01	1.79477642111E+02	7.95357791740E+00	1.72256615191E+02	-5.30099777947E+01	-2.03446239083E+01	-5.85330113583E+00	-9.94921352786E-01
1.83120346705E+06	-1.69670124346E+01	1.64221348754E+02	8.01354977384E+00	1.72436083685E+02	-4.70769013201E+01	-1.63378399452E+02	-5.83521547468E+00	-9.16025738077E-01
1.85339482165E+06	-2.03385437613E+01	-1.56866368007E+02	8.02443224353E+00	1.72112993653E+02	-5.27230631242E+01	1.62573391462E+02	-5.82583385192E+00	-9.45758155116E-01
1.87558617624E+06	-1.32539490356E+01	-1.66155262423E+02	7.97814953384E+00	1.71821662210E+02	-5.00885529764E+01	-1.77957630560E+02	-5.83429309335E+00	-9.76289020951E-01
1.89777753084E+06	-1.68284626232E+01	-1.77256845238E+02	8.00059284024E+00	1.71895630563E+02	-4.01498707377E+01	1.18447654943E+02	-5.84666569240E+00	-9.80617643117E-01
1.91996888543E+06	-2.10618580353E+01	1.51436278022E+02	7.99791580020E+00	1.71966270216E+02	-4.22984131796E+01	-5.93118133304E+01	-5.83539749420E+00	-9.65727015473E-01
1.94216024003E+06	-2.27096491306E+01	1.62341675389E+02	7.99909510160E+00	1.71882353753E+02	-3.81004395659E+01	-1.60455998824E+02	-5.83297928118E+00	-7.94848243001E-01
1.96435159462E+06	-1.88613474323E+01	-1.73153217910E+02	7.99841664901E+00	1.71778130480E+02	-4.79201057778E+01	1.34823981651E+02	-5.84269682240E+00	-1.02112404494E+00
1.98654294922E+06	-1.53396573605E+01	1.61245303289E+02	7.98562650321E+00	1.71557177990E+02	-4.48377114527E+01	-1.63390415179E+02	-5.82490239488E+00	-9.48615044944E-01
2.00873430381E+06	-2.04885307726E+01	-1.59779726177E+02	8.03135667185E+00	1.71369115097E+02	-4.66267040408E+01	-4.49214756084E+01	-5.86403484623E+00	-8.64907565173E-01
2.03092565841E+06	-1.55709919142E+01	-1.53838307840E+02	8.01977834089E+00	1.71256931665E+02	-4.48617257874E+01	1.33261218261E+02	-5.84971662612E+00	-1.00404587698E+00
2.05311701300E+06	-1.52250228577E+01	1.45417823345E+02	7.96959737654E+00	1.71805482725E+02	-4.46678410957E+01	3.08472793728E+00	-5.88677897558E+00	-1.21133135215E+00
2.07530836760E+06	-2.24033011935E+01	1.53511886290E+02	8.00651778084E+00	1.71314219646E+02	-4.12114080314E+01	-1.65846182815E+02	-5.85496878969E+00	-8.24703802635E-01
2.09749972219E+06	-1.44108955333E+01	5.67429387158E+01	8.00467693219E+00	1.71651591835E+02	-3.64757752239E+01	-1.71653534195E+02	-5.81421771131E+00	-9.40848874303E-01
2.11969107679E+06	-2.04615236930E+01	-1.65096530611E+02	8.02510248471E+00	1.70780249363E+02	-6.90802397727E+01	-6.80579360786E+00	-5.84529178153E+00	-1.05622629692E+00
2.14188243138E+06	-1.52719555214E+01	-1.67563332092E+02	7.99985875075E+00	1.70834755981E+02	-5.51730722679E+01	-9.64747779402E+01	-5.84918593438E+00	-8.85242657665E-01
2.16407378598E+06	-2.12476095471E+01	-1.64108049923E+02	8.01501962009E+00	1.70512964476E+02	-3.85366787616E+01	1.03859434627E+02	-5.82442890594E+00	-1.31079751542E+00
2.18626514057E+06	-2.44345636062E+01	-1.66306450054E+02	8.03284452409E+00	1.70715603828E+02	-4.50870407785E+01	7.82383545810E+00	-5.84981516193E+00	-1.03379819245E+00
2.20845649517E+06	-1.50142484829E+01	1.45428586793E+02	7.99735885347E+00	1.70584875808E+02	-4.94175850753E+01	-9.97835107544E+00	-5.84850840117E+00	-1.15775439934E+00
2.23064784976E+06	-1.20980017618E+01	-1.79415457229E+02	8.00442790651E+00	1.70275403379E+02	-5.37484692393E+01	1.49595964368E+02	-5.85589076878E+00	-1.21805414405E+00
2.25283920436E+06	-2.11653602369E+01	-1.71982285101E+02	8.06042633705E+00	1.70330813011E+02	-3.33915723532E+01	-6.41436286586E+01	-5.88908970121E+00	-1.09476518439E+00
2.27503055895E+06	-1.73298357370E+01	1.72619186070E+02	7.98384599509E+00	1.70163065809E+02	-3.86456668389E+01	-1.61703168606E+02	-5.82154357222E+00	-1.02068067702E+00
2.29722191355E+06	-1.51308206858E+01	-1.74863752562E+02	7.97925624838E+00	1.69876134139E+02	-4.48282726430E+01	1.75737815233E+02	-5.84899612642E+00	-1.23090072828E+00
2.31941326814E+06	-1.59049978810E+01	1.65458009647E+02	8.00386370971E+00	1.70145470816E+02	-4.79157057548E+01	1.35640534779E+02	-5.83998770768E+00	-1.23681909537E+00
2.34160462274E+06	-1.92572514727E+01	1.76824671541E+02	8.01813217115E+00	1.69760755073E+02	-5.75690305971E+01	1.79980273967E+02	-5.83418003338E+00	-1.28181073510E+00
2.36379597733E+06	-1.80742263543E+01	-1.51605322173E+02	8.05053651604E+00	1.69695413140E+02	-4.23718919406E+01	5.91444153560E+00	-5.85423506257E+00	-1.14452402314E+00
2.38598733193E+06	-2.17366765583E+01	-1.69824471484E+02	8.04350313424E+00	1.69721301883E+02	-4.62609843038E+01	9.76036231551E+01	-5.83531911032E+00	-1.25657979129E+00
2.40817868652E+06	-1.52112685017E+01	8.58316261176E+01	8.00139613278E+00	1.70085527805E+02	-4.98361319661E+01	-8.35086047279E+01	-5.85530631338E+00	-1.25491817722E+00
2.43037004112E+06	-1.63634211288E+01	-1.53058332979E+02	8.02550444552E+00	1.69404747487E+02	-4.27521465454E+01	-1.31749035342E+02	-5.85515601248E+00	-1.55727261601E+00
2.45256139571E+06	-1.86471814679E+01	-1.50096764208E+02	8.05178091548E+00	1.69271504631E+02	-3.91646063616E+01	-1.69643385240E+02	-5.85011750204E+00	-1.25713955271E+00
2.47475275031E+06	-1.63016785545E+01	1.49129638084E+02	8.00171028073E+00	1.69385086860E+02	-5.62783431669E+01	-1.30555439468E+02	-5.86440456618E+00	-1.23494325697E+00
2.49694410490E+06	-2.23732854695E+01	1.60978490391E+02	8.04679800723E+00	1.69282095527E+02	-5.03134310031E+01	1.36414573048E+02	-5.86644599774E+00	-1.28493066891E+00
2.51913545950E+06	-1.57509103515E+01	-1.75499954459E+02	8.03667228091E+00	1.68825046221E+02	-4.26803679341E+01	-1.73320828136E+02	-5.83866452775E+00	-1.09458321331E+00
2.54132681409E+06	-1.81317997466E+01	-1.65118478636E+02	8.04386847567E+00	1.68946602302E+02	-4.15093819204E+01	1.16036122584E+02	-5.84360400704E+00	-1.55221755506E+00
2.56351816869E+06	-2.24330373480E+01	-8.84941662908E+01	8.05302320560E+00	1.69096045619E+02	-5.44117750373E+01	-1.47615214801E+01	-5.88393626888E+00	-1.27162076132E+00
2.58570952328E+06	-1.53745491912E+01	-1.66125446003E+02	7.98370194805E+00	1.68881602993E+02	-4.99033721750E+01	-1.17940105816E+02	-5.87009790409E+00	-1.30429315000E+00
2.60790087788E+06	-1.68733396881E+01	1.79302283447E+02	8.03252060680E+00	1.68731995440E+02	-4.89940000595E+01	4.13632758542E+01	-5.84415160921E+00	-9.96648243807E-01
2.63009223247E+06	-2.07115661995E+01	1.76018697874E+02	8.01453050984E+00	1.68832057667E+02	-4.36971032808E+01	1.59384363244E+02	-5.83447009676E+00	-9.22075769746E-01
2.65228358707E+06	-2.24656906967E+01	1.53100576027E+02	8.03225958413E+00	1.68646833449E+02	-4.50528825395E+01	1.21271048576E+02	-5.85364442190E+00	-1.31066092645E+00
2.67447494166E+06	-2.70124412300E+01	-1.01576314195E+02	8.09358989915E+00	1.68393094554E+02	-4.42495896514E+01	7.56100871884E+01	-5.85357863780E+00	-1.42161663885E+00
2.69666629626E+06	-2.00708907481E+01	1.43397500205E+02	8.01973545072E+00	1.68660861838E+02	-5.30729723623E+01	1.05271335709E+02	-5.83675270976E+00	-1.21219977353E+00
2.71885765085E+06	-2.54162114425E+01	-1.64363682386E+02	8.02154380502E+00	1.68257780582E+02	-5.78095273381E+01	1.46100849381E+02	-5.86905364947E+00	-1.24726069104E+00
2.74104900545E+06	-1.52727374854E+01	-1.58529304076E+02	8.02015700176E+00	1.67780759490E+02	-4.27026676569E+01	-1.64281085623E+02	-5.84503342568E+00	-1.23647275806E+00
2.76324036004E+06	-2.03642509590E+01	-1.63199510392E+02	8.06913846709E+00	1.67741407949E+02	-4.52213065682E+01	-8.50702531075E+01	-5.84640611588E+00	-1.19016344589E+00
2.78543171463E+06	-1.42416309385E+01	-1.74237528999E+02	7.98311744436E+00	1.67660811872E+02	-4.21415725902E+01	-7.82619944659E+01	-5.85393610671E+00	-1.37765469673E+00
2.80762306923E+06	-1.68756144427E+01	1.52937646132E+02	7.98971190738E+00	1.67856064990E+02	-4.91464656052E+01	-7.48128709475E+01	-5.86287944206E+00	-1.26679391137E+00
2.82981442382E+06	-1.32882728557E+01	-1.79244579926E+02	7.99594696070E+00	1.67372946155E+02	-4.10549290463E+01	-1.78713486054E+01	-5.88141792061E+00	-1.45961760912E+00
2.85200577842E+06	-2.09471620413E+01	1.70436434785E+02	8.05333689019E+00	1.67551369219E+02	-4.99339704499E+01	-7.66333583653E+01	-5.83862646711E+00	-1.37594617840E+00
2.87419713301E+06	-1.59631558440E+01	1.64772996546E+02	8.02284209216E+00	1.67480363416E+02	-4.06474483272E+01	-1.34957820072E+02	-5.83189332405E+00	-1.46799249187E+00
