# Hz S DB R 50
! CMT, M5065, 19127446, 24.2.4/2
! Date: 11/8/2024 3:52:50 PM
! Data: Format (Calibration Info)
! Freq	S11:dB/Ang(F2)	S21:dB/Ang(F2)	S12:dB/Ang(F2)	S22:dB/Ang(F2)
3.00000000000E+05	-1.40941723767E+01	1.75915093029E+02	6.39630699536E+00	-1.77330336575E+02	-4.53674239370E+01	1.59154538045E+01	-5.82623241131E+00	-3.32554900379E-01
3.22191354595E+05	-1.51851416324E+01	1.64137726260E+02	6.41246298608E+00	-1.77796778780E+02	-4.85967816461E+01	-9.14082425726E+01	-5.84353628995E+00	-2.16413095151E-01
3.44382709190E+05	-2.17256300105E+01	-1.59501978676E+02	6.46328729282E+00	-1.78495869327E+02	-4.18352381985E+01	1.26089588333E+02	-5.82592325567E+00	-4.11871783481E-01
3.66574063785E+05	-2.00849800805E+01	1.78241064403E+02	6.46684179209E+00	-1.78459693954E+02	-4.52471001781E+01	-9.88842900789E+01	-5.82256477591E+00	-1.75346471015E-01
3.88765418380E+05	-1.54900710564E+01	1.69470990642E+02	6.42985221032E+00	-1.78976972379E+02	-4.85404271537E+01	-1.00839819291E+02	-5.84764271999E+00	-3.85908086194E-01
4.10956772975E+05	-1.96683085367E+01	1.62457257099E+02	6.47793585521E+00	-1.79105278861E+02	-4.48588211307E+01	-1.47430228687E+02	-5.82674680402E+00	-2.77388058857E-01
4.33148127570E+05	-1.61354657360E+01	-1.48835148321E+02	6.48142095881E+00	-1.79501909481E+02	-4.65189653458E+01	-2.72497844572E+01	-5.85943651242E+00	-3.09640036724E-01
4.55339482165E+05	-1.43887563617E+01	-1.64183679845E+02	6.38216396945E+00	-1.79853613200E+02	-4.58535552471E+01	-1.53487835945E+02	-5.81919032462E+00	-2.58907195817E-01
4.77530836760E+05	-1.62071725335E+01	-1.71729052213E+02	6.44041109481E+00	-1.79762357184E+02	-5.29244274569E+01	-1.65739635379E+01	-5.83040133502E+00	-2.87095851062E-01
4.99722191355E+05	-2.12271673511E+01	-1.70688941732E+02	6.48889817379E+00	1.79999123811E+02	-4.29794325766E+01	-1.78133912237E+02	-5.83751053925E+00	-3.44373898499E-01
5.21913545950E+05	-1.64585585625E+01	1.53789657981E+02	6.43399750203E+00	1.79989478802E+02	-3.70865362026E+01	1.26162317939E+02	-5.83520316346E+00	-3.98730034260E-01
5.44104900545E+05	-1.58603701705E+01	-1.75356319647E+02	6.45729509764E+00	1.79659111442E+02	-4.70744915895E+01	-4.36753948608E+01	-5.84553393480E+00	-2.88121378984E-01
5.66296255139E+05	-1.63397103693E+01	1.50311137907E+02	6.47301553001E+00	1.79430834133E+02	-4.52722883680E+01	4.68938549573E+01	-5.86865574544E+00	-3.98312745318E-01
5.88487609734E+05	-1.60455026066E+01	-1.64821475808E+02	6.46484972909E+00	1.78939510850E+02	-4.03417216139E+01	-1.73274732814E+01	-5.84724465631E+00	-3.43815946620E-01
6.10678964329E+05	-2.03647762775E+01	1.48261141095E+02	6.47307456317E+00	1.79379737903E+02	-4.13556915471E+01	1.18530366353E+02	-5.84434068679E+00	1.00187343781E-01
6.32870318924E+05	-1.55692399294E+01	1.77644716798E+02	6.44231775471E+00	1.79292486607E+02	-4.20725093710E+01	1.51717992935E+02	-5.83459515190E+00	-1.50717915965E-01
6.55061673519E+05	-1.55610098912E+01	-1.48665599874E+02	6.49344559090E+00	1.78458739304E+02	-4.61454899146E+01	-1.42916190617E+02	-5.84017266562E+00	-3.26326879178E-01
6.77253028114E+05	-1.39087153221E+01	1.49818371141E+02	6.47423316412E+00	1.78758989596E+02	-5.29030058198E+01	-7.28479486837E+01	-5.83428009407E+00	-5.31948989034E-01
6.99444382709E+05	-1.89630375658E+01	-1.75175515805E+02	6.50144253012E+00	1.78771664494E+02	-4.54027791739E+01	-1.71969879705E+02	-5.83347478492E+00	-4.67353851353E-01
7.21635737304E+05	-1.86892419521E+01	-1.70722005782E+02	6.49518091714E+00	1.78430950529E+02	-4.53123528936E+01	-5.91801887074E+01	-5.83118994534E+00	-4.22710572715E-01
7.43827091899E+05	-1.73361735682E+01	-1.73826648496E+02	6.48487901142E+00	1.78242355873E+02	-4.95550874746E+01	9.89296982827E+01	-5.86287799044E+00	-5.33471226209E-01
7.66018446494E+05	-1.75392776892E+01	-1.39785804750E+02	6.46488872770E+00	1.77993793077E+02	-4.73338372535E+01	-4.72210852640E+01	-5.85499124985E+00	-4.94881561964E-01
7.88209801089E+05	-1.34708929436E+01	1.77689745960E+02	6.42841000605E+00	1.78080317175E+02	-4.29138665199E+01	-1.27892138288E+02	-5.85736992346E+00	-3.79510601746E-01
8.10401155684E+05	-2.08562168971E+01	1.76045235825E+02	6.49563485426E+00	1.77759336470E+02	-3.50328689442E+01	-1.24190386539E+02	-5.83987948179E+00	-2.97315005806E-01
8.32592510279E+05	-2.26133176530E+01	-1.33539764943E+02	6.50325750442E+00	1.77693794717E+02	-5.65250325491E+01	-3.23360446516E+01	-5.85018992357E+00	-4.70483529475E-01
8.54783864874E+05	-1.64318956589E+01	1.74405245911E+02	6.46783463918E+00	1.77692554803E+02	-4.66270106907E+01	1.02952098611E+02	-5.83137579414E+00	-6.18312519288E-01
8.76975219469E+05	-2.07024054438E+01	-1.68930018860E+02	6.48109776788E+00	1.77400475622E+02	-4.71344094846E+01	-4.30390694190E+01	-5.83754482214E+00	-4.42344709591E-01
8.99166574064E+05	-1.49756883548E+01	-1.66752698100E+02	6.45362065787E+00	1.77178961613E+02	-5.49839861509E+01	1.18474047012E+02	-5.84445332112E+00	-5.92144177311E-01
9.21357928659E+05	-1.81484863771E+01	1.44290583735E+02	6.50800276303E+00	1.77505117259E+02	-5.57306263703E+01	8.60385247904E+01	-5.86939715820E+00	-5.73163074419E-01
9.43549283254E+05	-1.81147303097E+01	-1.74689897415E+02	6.46457567800E+00	1.77285075806E+02	-4.14251427357E+01	-1.46578913059E+01	-5.84889772308E+00	-5.49025892121E-01
9.65740637849E+05	-1.34945067609E+01	1.60517647391E+02	6.48526771231E+00	1.77325305869E+02	-4.56864052677E+01	-5.14157470372E+00	-5.84967977466E+00	-6.07483854257E-01
9.87931992444E+05	-1.42581885877E+01	-1.58894438224E+02	6.44007136872E+00	1.76747767459E+02	-5.47477421851E+01	-3.13503819092E+01	-5.83293689155E+00	-5.61884015629E-01
1.01012334704E+06	-1.77976393832E+01	1.78721022391E+02	6.46970362748E+00	1.76778752566E+02	-4.95595819780E+01	-1.52921640659E+02	-5.84241113180E+00	-5.71516146645E-01
1.03231470163E+06	-1.75202390891E+01	1.67633347869E+02	6.42207918244E+00	1.76534174190E+02	-4.20657608884E+01	1.59243219415E+02	-5.83170829617E+00	-5.84490152991E-01
1.05450605623E+06	-1.48211918074E+01	-1.69006140509E+02	6.48812727475E+00	1.76614071270E+02	-5.41109540237E+01	1.16864147518E+02	-5.83632734700E+00	-7.33127158257E-01
1.07669741082E+06	-1.94921034902E+01	1.63299689640E+02	6.47099302751E+00	1.76400359783E+02	-5.45012456206E+01	-2.15135090229E+01	-5.87311286587E+00	-2.03831117812E-01
1.09888876542E+06	-1.66682951478E+01	1.51837614174E+02	6.45864114355E+00	1.76666240615E+02	-4.53401581603E+01	1.59003360273E+02	-5.84568668828E+00	-6.14601355031E-01
1.12108012001E+06	-1.57964469437E+01	-1.47772157565E+02	6.49854399970E+00	1.75797075707E+02	-3.83546347006E+01	6.47646269740E+01	-5.84347388444E+00	-7.31190852439E-01
1.14327147461E+06	-1.43451960364E+01	-1.60302992259E+02	6.45690403582E+00	1.75839244569E+02	-4.64062966471E+01	1.53691812958E+02	-5.83219674263E+00	-6.54879766557E-01
1.16546282920E+06	-1.72419260370E+01	1.69301165796E+02	6.51005670488E+00	1.75741653991E+02	-4.16636190293E+01	6.96625276456E+01	-5.84185538030E+00	-7.93672829545E-01
1.18765418380E+06	-2.13869193676E+01	1.37147518718E+02	6.49117326923E+00	1.76124936084E+02	-4.62282103778E+01	7.18046848707E+01	-5.83343991160E+00	-6.39000197898E-01
1.20984553839E+06	-1.80199170036E+01	1.66000782315E+02	6.46922723581E+00	1.75747033558E+02	-4.74181108305E+01	1.05625672824E+02	-5.83759195466E+00	-8.13090612536E-01
1.23203689299E+06	-1.95692485580E+01	1.67998530350E+02	6.49509512683E+00	1.75731579998E+02	-4.96737427436E+01	-1.72598652077E+02	-5.85173030765E+00	-3.09402513529E-01
1.25422824758E+06	-1.52717620406E+01	-1.62658454921E+02	6.48329750628E+00	1.75497819292E+02	-3.87510706022E+01	-1.12931652771E+02	-5.83745072550E+00	-5.51547428533E-01
1.27641960218E+06	-1.64312629160E+01	-1.54301604433E+02	6.48324323669E+00	1.75468074509E+02	-4.53419485684E+01	3.56071089008E+01	-5.86129416627E+00	-7.07663461893E-01
1.29861095677E+06	-1.81789623422E+01	-1.41741649313E+02	6.47755484115E+00	1.75531082649E+02	-4.50659580681E+01	1.14425090725E+02	-5.84597788084E+00	-7.19048098851E-01
1.32080231137E+06	-1.72577463587E+01	1.57415548606E+02	6.49561617866E+00	1.75293904661E+02	-4.33543427462E+01	-6.53190240802E+01	-5.84448808175E+00	-1.12750163624E+00
1.34299366596E+06	-1.57043758165E+01	-1.77122096985E+02	6.47413887347E+00	1.75074530525E+02	-5.33631374750E+01	1.31718548663E+02	-5.84531241331E+00	-7.87090684744E-01
1.36518502056E+06	-1.31116667774E+01	1.66474624097E+02	6.46159730012E+00	1.75092111513E+02	-4.61605248272E+01	1.48833894545E+02	-5.85445498730E+00	-6.75881903041E-01
1.38737637515E+06	-1.70501746078E+01	-1.73926800906E+02	6.49380403778E+00	1.75139943531E+02	-5.18065956987E+01	-4.37225301390E+01	-5.86496760175E+00	-7.53387294610E-01
1.40956772975E+06	-1.51216181947E+01	-1.59175240955E+02	6.50881628494E+00	1.74691069322E+02	-4.03525970982E+01	8.85814315153E+01	-5.83991646845E+00	-6.24423738782E-01
1.43175908434E+06	-1.71051248861E+01	-1.77700561726E+02	6.48549223506E+00	1.74555764701E+02	-3.41226699207E+01	-2.40863765481E+01	-5.87986336188E+00	-6.54087865140E-01
1.45395043894E+06	-1.84799450407E+01	-1.47026942423E+02	6.54512004411E+00	1.74649194954E+02	-4.49081131562E+01	-7.21203286955E+01	-5.85287495695E+00	-9.07098427261E-01
1.47614179353E+06	-2.06932880301E+01	1.72959918344E+02	6.49754054970E+00	1.74632798151E+02	-4.97353759512E+01	-1.57534492176E+02	-5.84339995793E+00	-7.27681706613E-01
1.49833314813E+06	-1.39455737970E+01	1.68388010605E+02	6.44051487922E+00	1.74239826232E+02	-4.63755238765E+01	6.95773764859E+01	-5.83573587725E+00	-7.20132851628E-01
1.52052450272E+06	-1.72209570517E+01	1.67545839305E+02	6.50174553589E+00	1.74223516909E+02	-3.73447907136E+01	-2.22544722169E+01	-5.85580786452E+00	-5.75402511915E-01
1.54271585732E+06	-1.70964063224E+01	-1.49079983608E+02	6.50236701040E+00	1.74070991801E+02	-4.17647730018E+01	-1.23937322003E+02	-5.83610166132E+00	-7.03943813835E-01
1.56490721191E+06	-1.64372017852E+01	1.77657702265E+02	6.44502512059E+00	1.74211419279E+02	-4.22098844167E+01	1.41186825301E+02	-5.83479900815E+00	-7.99915671911E-01
1.58709856651E+06	-1.89163564413E+01	1.71323390429E+02	6.51094204190E+00	1.74197323970E+02	-3.72492313688E+01	1.05930252526E+02	-5.82545182760E+00	-8.39204902178E-01
1.60928992110E+06	-2.06837917709E+01	-7.31703773113E+01	6.48924562271E+00	1.73922210590E+02	-6.14371291962E+01	1.40059677892E+02	-5.85258414950E+00	-9.56612159211E-01
1.63148127570E+06	-1.74709328331E+01	2.61903866046E+01	6.50797127334E+00	1.74306706752E+02	-4.92401686982E+01	1.51233896187E+02	-5.85022481259E+00	-7.92242232377E-01
1.65367263029E+06	-1.91790184459E+01	1.67881175736E+02	6.50940461770E+00	1.73920977662E+02	-3.81475577268E+01	1.59117251896E+02	-5.81897670010E+00	-8.49046405432E-01
1.67586398489E+06	-1.56039112280E+01	-1.75832912418E+02	6.46518150654E+00	1.73473376707E+02	-4.24975734875E+01	1.10503411410E+02	-5.84795711626E+00	-9.25881999217E-01
1.69805533948E+06	-1.80224705277E+01	-1.66849612574E+02	6.49008860555E+00	1.73373631675E+02	-4.73878820894E+01	-1.61049642940E+02	-5.84106316974E+00	-8.56814868738E-01
1.72024669408E+06	-1.85697109815E+01	-1.75856318268E+02	6.52665161778E+00	1.73546327565E+02	-3.65118891977E+01	1.09959073905E+02	-5.82946473663E+00	-9.12162184651E-01
1.74243804867E+06	-2.05248982098E+01	-1.18925068332E+02	6.51156203246E+00	1.73259375873E+02	-3.64706417854E+01	-8.17033468250E+01	-5.85654261369E+00	-7.63418932808E-01
1.76462940327E+06	-9.82292948804E+00	1.39321724522E+02	6.38513106434E+00	1.73251035665E+02	-4.17944674366E+01	-1.00278233048E+02	-5.84205530530E+00	-8.07451284712E-01
1.78682075786E+06	-4.01588716177E+01	1.32356657131E+02	6.52516311337E+00	1.73253147035E+02	-4.90392940954E+01	-1.14348530703E+01	-5.85661461193E+00	-9.32011081477E-01
1.80901211246E+06	-2.18178828270E+01	-1.68305271277E+02	6.54813113224E+00	1.72999731382E+02	-4.43806274776E+01	-7.38012810464E+01	-5.84634220504E+00	-8.72330760544E-01
1.83120346705E+06	-1.84478694834E+01	1.39001878243E+02	6.48809244506E+00	1.72958623263E+02	-3.99964801359E+01	-5.20082020250E+01	-5.86071698052E+00	-9.08546147482E-01
1.85339482165E+06	-1.67885039847E+01	1.53978325604E+02	6.45421671069E+00	1.72721424082E+02	-4.27875056990E+01	-3.34373884047E+01	-5.85932155241E+00	-7.57951505619E-01
1.87558617624E+06	-1.73958579271E+01	-1.70948268845E+02	6.52600782164E+00	1.72608522368E+02	-3.73518992664E+01	1.75584678120E+02	-5.82869706920E+00	-1.02119029030E+00
1.89777753084E+06	-1.51565932825E+01	1.67422098567E+02	6.44406984734E+00	1.72736537183E+02	-3.31614440964E+01	-1.58010485731E+02	-5.82520376117E+00	-8.60580545389E-01
1.91996888543E+06	-1.74083243929E+01	1.66130823839E+02	6.49505555969E+00	1.72484623358E+02	-6.05453094218E+01	-1.66849398456E+02	-5.84086582962E+00	-9.51785457930E-01
1.94216024003E+06	-2.65884644377E+01	-1.33041803825E+02	6.51998919872E+00	1.72376460326E+02	-5.60151732595E+01	-1.17217641897E+02	-5.85339499171E+00	-9.56332064082E-01
1.96435159462E+06	-1.53990302124E+01	1.69729458399E+02	6.50101717290E+00	1.72249118138E+02	-5.11816798852E+01	1.12359070757E+02	-5.84118139263E+00	-1.05131894979E+00
1.98654294922E+06	-2.04414603280E+01	-1.64960719774E+02	6.51856157753E+00	1.71934258060E+02	-6.13811290156E+01	3.16030851137E+01	-5.84103973515E+00	-9.43198908202E-01
2.00873430381E+06	-1.49955921359E+01	-1.66837218299E+02	6.48857997805E+00	1.72049477594E+02	-5.40730642506E+01	-6.42177982949E+01	-5.84898455309E+00	-9.51767656039E-01
2.03092565841E+06	-1.61849404604E+01	-1.62236734916E+02	6.49881780714E+00	1.71809458432E+02	-5.39353675287E+01	-7.88406425806E+01	-5.84182288513E+00	-9.97233702510E-01
2.05311701300E+06	-1.79901715344E+01	-1.50921884656E+02	6.53313688738E+00	1.72029694783E+02	-3.68665036246E+01	-1.84579328546E+01	-5.86103563042E+00	-1.05101857261E+00
2.07530836760E+06	-1.09171028678E+01	-1.66343810106E+02	6.44988232399E+00	1.71185680956E+02	-4.12054762812E+01	3.32378467559E+01	-5.85144343356E+00	-1.22972020522E+00
2.09749972219E+06	-1.56937112173E+01	1.32016838440E+02	6.51008716562E+00	1.71844949779E+02	-5.23963549189E+01	-5.98679312334E+01	-5.85440798139E+00	-9.66099037527E-01
2.11969107679E+06	-1.91543268372E+01	-1.65410238682E+02	6.53095309840E+00	1.71687461426E+02	-4.61790168048E+01	3.54738664068E+01	-5.81542432054E+00	-1.05096297005E+00
2.14188243138E+06	-1.27426310244E+01	1.77713853469E+02	6.46438831313E+00	1.71404074875E+02	-4.48738207772E+01	-6.33525631581E+01	-5.83940718371E+00	-1.01332018292E+00
2.16407378598E+06	-2.22447865686E+01	-1.79338395624E+02	6.53299602498E+00	1.71455602421E+02	-4.89010926923E+01	-9.35077340762E+01	-5.85950102011E+00	-1.00319131718E+00
2.18626514057E+06	-1.99408924652E+01	1.52971316691E+02	6.50427238516E+00	1.71425636682E+02	-4.54319099455E+01	2.59173344138E+01	-5.84199787704E+00	-1.22377144393E+00
2.20845649517E+06	-1.91425770048E+01	1.44873074101E+02	6.52078742012E+00	1.71467643257E+02	-3.98264694776E+01	-2.71287641134E+00	-5.86407978747E+00	-1.08722707205E+00
2.23064784976E+06	-2.10624224429E+01	-1.04996733765E+02	6.50196141474E+00	1.71168884832E+02	-4.53179518984E+01	-1.70801405996E+02	-5.83278661969E+00	-1.12016634978E+00
2.25283920436E+06	-1.54335595003E+01	1.03733785919E+02	6.47258713677E+00	1.71159447702E+02	-4.19174347470E+01	9.40164127929E+01	-5.85249977687E+00	-1.27162583965E+00
2.27503055895E+06	-1.78537068080E+01	-1.65172570017E+02	6.51872144504E+00	1.70920993184E+02	-4.89906556472E+01	6.09552082497E+01	-5.83734260752E+00	-1.27619410392E+00
2.29722191355E+06	-1.77541117203E+01	-1.78031528192E+02	6.50015373078E+00	1.70702675208E+02	-4.55814361546E+01	-1.47422193549E+02	-5.83673690880E+00	-1.15115345062E+00
2.31941326814E+06	-2.22373481245E+01	1.57517905584E+02	6.52576828250E+00	1.70538015205E+02	-4.37498578502E+01	1.36911598657E+02	-5.82853638274E+00	-1.28063446453E+00
2.34160462274E+06	-1.55470309956E+01	1.73369351655E+02	6.49431427790E+00	1.70493627785E+02	-5.91605747842E+01	-1.61268580537E+02	-5.86002545746E+00	-1.08187391868E+00
2.36379597733E+06	-1.49257042163E+01	1.65162166221E+02	6.48926673808E+00	1.70317365190E+02	-3.42564090172E+01	-1.47464364020E+02	-5.85461013980E+00	-9.50503455410E-01
2.38598733193E+06	-1.54864133978E+01	-1.46387653957E+02	6.52177605857E+00	1.70401888253E+02	-5.84399528742E+01	1.08734286345E+02	-5.83416608258E+00	-1.09175502101E+00
2.40817868652E+06	-1.92971392052E+01	-1.39750122564E+02	6.49200547537E+00	1.70375929795E+02	-5.41572003551E+01	6.88104075523E+01	-5.85440621169E+00	-1.16570122825E+00
2.43037004112E+06	-1.68416812051E+01	-1.75688441093E+02	6.52542865686E+00	1.70086935018E+02	-4.18052797709E+01	1.19610746408E+02	-5.83025245681E+00	-1.76511821966E+00
2.45256139571E+06	-1.49481569587E+01	1.75839543812E+02	6.45656749661E+00	1.70261939253E+02	-4.55441518906E+01	2.38379763651E+01	-5.84879659343E+00	-1.22965259123E+00
2.47475275031E+06	-1.90615921911E+01	1.62645996324E+02	6.52668310026E+00	1.70386218941E+02	-6.37110757443E+01	1.08909822630E+02	-5.84629093545E+00	-9.66326407031E-01
2.49694410490E+06	-1.34543939970E+01	1.64907046463E+02	6.43176040349E+00	1.69817417171E+02	-5.23577550110E+01	7.51676513924E+01	-5.83999323437E+00	-1.15850040912E+00
2.51913545950E+06	-2.50088927257E+01	-1.61521620009E+02	6.51083142915E+00	1.69930074871E+02	-3.53171852968E+01	-1.27651090102E+02	-5.85078207449E+00	-1.13308433088E+00
2.54132681409E+06	-2.37273944391E+01	-9.74960576498E+01	6.53390763640E+00	1.70089838506E+02	-4.71875603117E+01	3.81502650528E+01	-5.84916983275E+00	-1.32682947117E+00
2.56351816869E+06	-1.57123516888E+01	-4.27824954304E+01	6.59669777925E+00	1.70019676692E+02	-5.22697514512E+01	1.13336979331E+02	-5.84554875608E+00	-1.28193609855E+00
2.58570952328E+06	-1.90639872867E+01	-1.66852133413E+02	6.55732576467E+00	1.69530548817E+02	-5.21132717927E+01	1.79141064636E+02	-5.84110019313E+00	-1.26878328382E+00
2.60790087788E+06	-2.03426275335E+01	1.77899942561E+02	6.52659631450E+00	1.69527119133E+02	-4.40796897239E+01	-1.01420942362E+02	-5.84374029874E+00	-1.01387447773E+00
2.63009223247E+06	-1.92349163558E+01	1.74082394923E+02	6.54402247555E+00	1.69509012979E+02	-5.16970427846E+01	1.18357305467E+02	-5.86703061482E+00	-8.92861904691E-01
2.65228358707E+06	-1.86149236044E+01	1.68406853100E+02	6.50951105267E+00	1.69494501718E+02	-4.43330314583E+01	2.37581819598E+01	-5.83856466385E+00	-1.28433526193E+00
2.67447494166E+06	-2.02492858485E+01	-1.64681580323E+02	6.54324221360E+00	1.69276100782E+02	-4.43368778285E+01	-2.30817571613E+01	-5.85711583715E+00	-1.26501520191E+00
2.69666629626E+06	-1.60447303540E+01	-1.55289523605E+02	6.55235340491E+00	1.68695167982E+02	-4.69934752754E+01	3.81796021901E+01	-5.83237289698E+00	-1.50374373703E+00
2.71885765085E+06	-1.60594119023E+01	-1.57640719488E+02	6.51615966847E+00	1.68872665904E+02	-4.16928506529E+01	4.13150305603E+01	-5.85050557601E+00	-1.48502956692E+00
2.74104900545E+06	-1.56346015425E+01	-1.59303592103E+02	6.49551172115E+00	1.68645282904E+02	-5.68995661973E+01	-1.64032180992E+02	-5.83393005133E+00	-1.40572850647E+00
2.76324036004E+06	-3.64835512630E+01	-4.50117337018E+01	6.58988890944E+00	1.69177068438E+02	-4.34950466915E+01	1.28193140071E+02	-5.83970888521E+00	-1.32867980007E+00
2.78543171463E+06	-1.92164520722E+01	-1.44214897253E+02	6.56800633454E+00	1.68747947621E+02	-5.53033773667E+01	4.65856775994E+01	-5.85024273476E+00	-1.46441370577E+00
2.80762306923E+06	-1.58068872253E+01	-1.42673285513E+02	6.54036963577E+00	1.68414425505E+02	-4.86811295362E+01	-1.71996459964E+02	-5.82819605849E+00	-1.33846795234E+00
2.82981442382E+06	-2.46293660344E+01	-1.45453409608E+02	6.58545199031E+00	1.68526674400E+02	-3.49659528304E+01	-6.70811714481E+01	-5.86656925000E+00	-1.50301361897E+00
2.85200577842E+06	-1.57122318371E+01	-1.78335040302E+02	6.47922055431E+00	1.68191734895E+02	-4.01476468387E+01	1.72774399666E+02	-5.83481807414E+00	-1.16727515139E+00
2.87419713301E+06	-2.04582994515E+01	1.52640091663E+02	6.50016679990E+00	1.68393596442E+02	-3.97022833259E+01	3.32914569905E+01	-5.84325444326E+00	-1.61749380499E+00
