# Hz S DB R 50
! CMT, M5065, 19127446, 24.2.4/2
! Date: 11/8/2024 3:59:11 PM
! Data: Format (Calibration Info)
! Freq	S11:dB/Ang(F2)	S21:dB/Ang(F2)	S12:dB/Ang(F2)	S22:dB/Ang(F2)
3.00000000000E+05	-1.19814224285E+01	-1.74649718785E+02	8.55494024791E+00	-1.77768457442E+02	-4.44873551650E+01	-4.73313431902E+01	-5.82384336234E+00	-2.32180032233E-01
3.22191354595E+05	-1.56019570366E+01	-1.41146775501E+02	8.58694563849E+00	-1.78209392104E+02	-3.98679205053E+01	-5.75405036129E+01	-5.84613516290E+00	-1.33962794338E-01
3.44382709190E+05	-2.35452624627E+01	1.43745418977E+02	8.65298473495E+00	-1.78079759564E+02	-5.07048631422E+01	-2.40523850815E+01	-5.84111794503E+00	-3.02227490873E-01
3.66574063785E+05	-1.76560200449E+01	-1.75544531517E+02	8.61406764925E+00	-1.78428720990E+02	-4.98220475895E+01	-2.40046757129E+01	-5.85438058904E+00	-3.82010074417E-01
3.88765418380E+05	-1.48383386914E+01	1.72027442656E+02	8.64027639865E+00	-1.78494771555E+02	-4.55951972983E+01	-7.21065833309E+01	-5.85367153212E+00	-2.91460667690E-01
4.10956772975E+05	-1.97364853137E+01	1.44127378061E+02	8.64280340547E+00	-1.79087447939E+02	-4.81492040112E+01	7.52383671323E+01	-5.84679999391E+00	-2.40866457860E-01
4.33148127570E+05	-1.40215379923E+01	-1.79474746192E+02	8.59640413393E+00	-1.79480805095E+02	-5.52633768783E+01	-5.01198335784E+01	-5.85010168819E+00	-2.32141740995E-01
4.55339482165E+05	-1.44745641130E+01	-1.78256925130E+02	8.59776975571E+00	-1.79645624566E+02	-4.87695781598E+01	-5.85182821242E+01	-5.85187496435E+00	-3.51943156083E-01
4.77530836760E+05	-1.77800692790E+01	-1.72766265496E+02	8.63536072761E+00	-1.79622078601E+02	-4.52945828243E+01	5.26587730554E+00	-5.85730569965E+00	-3.52116460518E-01
4.99722191355E+05	-1.63383149294E+01	1.59440879214E+02	8.60486609032E+00	1.79983047419E+02	-4.68381184452E+01	-4.64033493446E+01	-5.84630247075E+00	-2.55811064714E-01
5.21913545950E+05	-1.88812514079E+01	1.59341351277E+02	8.59887085508E+00	1.79762458359E+02	-4.23518099283E+01	1.20835523208E+02	-5.83522758015E+00	-3.62585791935E-01
5.44104900545E+05	-1.91730819467E+01	1.67619107861E+02	8.66465529806E+00	1.79611922813E+02	-5.72759437181E+01	-1.50234381895E+02	-5.82161326196E+00	-3.43902303725E-01
5.66296255139E+05	-1.51562090319E+01	-1.68883014222E+02	8.63140022089E+00	1.79167355244E+02	-4.87312338868E+01	7.69795433072E+01	-5.81412547334E+00	-2.98849947949E-01
5.88487609734E+05	-2.59120560921E+01	-1.43174935006E+02	8.66049684781E+00	1.79270122104E+02	-4.49664523267E+01	-1.00665889408E+02	-5.82856595145E+00	-3.13542481413E-01
6.10678964329E+05	-1.60636048867E+01	1.62993170963E+02	8.63043581726E+00	1.79143230743E+02	-5.38594611743E+01	1.41515569520E+02	-5.84144129164E+00	1.46115654106E-01
6.32870318924E+05	-1.60205018031E+01	1.28407820703E+02	8.63969881268E+00	1.78939694404E+02	-5.94026964578E+01	-5.13226349314E+01	-5.86352510440E+00	-1.97774133182E-01
6.55061673519E+05	-1.86561476234E+01	1.73219242751E+02	8.63911260644E+00	1.78712975185E+02	-4.70975238274E+01	-8.15885421925E+01	-5.83284533165E+00	-2.69257229166E-01
6.77253028114E+05	-1.52134417876E+01	1.48756447295E+02	8.58993118587E+00	1.78753510905E+02	-4.89001531899E+01	3.35862831440E+01	-5.88128112224E+00	-8.78512386660E-01
6.99444382709E+05	-2.29545398132E+01	-1.68475422889E+02	8.64539250377E+00	1.78231157871E+02	-4.06041092182E+01	1.01626914922E+01	-5.87435560581E+00	-4.48414129607E-01
7.21635737304E+05	-1.39288473869E+01	-1.56429754536E+02	8.62058661528E+00	1.78079398690E+02	-4.47084049973E+01	9.73054679355E+00	-5.85666773399E+00	-3.17777288365E-01
7.43827091899E+05	-1.85314526841E+01	1.41237491014E+02	8.61130068893E+00	1.78069989988E+02	-4.16681381610E+01	-6.59252698499E+00	-5.83556560264E+00	-3.23511716210E-01
7.66018446494E+05	-1.98836091541E+01	1.15441931618E+02	8.60145721983E+00	1.78088952044E+02	-4.53865563103E+01	1.32198441018E+02	-5.82051209512E+00	-3.54045588530E-01
7.88209801089E+05	-1.51548253817E+01	1.54385658477E+02	8.61965847685E+00	1.77872165967E+02	-5.02943859546E+01	5.02264665944E+01	-5.84808224310E+00	-6.19287949736E-01
8.10401155684E+05	-1.62306665926E+01	-1.75793499115E+02	8.61061273428E+00	1.77467640800E+02	-4.86361947076E+01	-3.98098322996E-02	-5.84112003256E+00	-4.03171233934E-01
8.32592510279E+05	-2.18172160463E+01	-1.54185156340E+02	8.63696430041E+00	1.77382183993E+02	-3.83120581843E+01	1.37475491729E+02	-5.84957238238E+00	-6.21535557483E-01
8.54783864874E+05	-1.78679156954E+01	1.67334791215E+02	8.60228895600E+00	1.77299034360E+02	-3.81120384282E+01	9.44568248548E+01	-5.82982915654E+00	-6.10456257967E-01
8.76975219469E+05	-2.45113600356E+01	1.70459016691E+02	8.63319530046E+00	1.77213604376E+02	-4.06851932807E+01	1.42254241507E+02	-5.84518813207E+00	-5.73398601369E-01
8.99166574064E+05	-1.64724616122E+01	-1.78157051821E+02	8.63284980647E+00	1.77194637419E+02	-5.21761545850E+01	-1.70689793683E+02	-5.83813137846E+00	-4.46865633610E-01
9.21357928659E+05	-1.93115185309E+01	1.78253215684E+02	8.64288769377E+00	1.76988796719E+02	-5.03890201890E+01	1.48998988042E+02	-5.85101638333E+00	-4.67593485822E-01
9.43549283254E+05	-1.99999336081E+01	1.48929283263E+02	8.66273648736E+00	1.76899268816E+02	-4.96359112228E+01	-1.52986163812E+02	-5.83957941687E+00	-4.71562613932E-01
9.65740637849E+05	-1.96066810328E+01	-1.69514646478E+02	8.67739423929E+00	1.76496089822E+02	-3.93416219134E+01	1.35909237683E+02	-5.81227125031E+00	-6.04195667772E-01
9.87931992444E+05	-1.58391078182E+01	1.59357516315E+02	8.62009038202E+00	1.76544828041E+02	-4.24686211864E+01	-7.57554216062E+01	-5.83926527188E+00	-4.56038074686E-01
1.01012334704E+06	-1.54938623823E+01	1.57593951432E+02	8.60772620906E+00	1.76502628138E+02	-3.98502481945E+01	-8.21238095393E+01	-5.83935217473E+00	-3.84253898132E-01
1.03231470163E+06	-1.38054495695E+01	-1.69738636067E+02	8.61879695433E+00	1.76194148769E+02	-5.24244771333E+01	-2.84439777313E+01	-5.82554776260E+00	-4.79960547528E-01
1.05450605623E+06	-1.68837145633E+01	1.73067484395E+02	8.64293817654E+00	1.75866697967E+02	-4.21008275274E+01	-1.64550067433E+02	-5.83405368776E+00	-5.65814516115E-01
1.07669741082E+06	-3.39399193879E+01	-6.53692397740E+01	8.69020944838E+00	1.76442841220E+02	-4.84639151647E+01	9.17453126132E+01	-5.88518407442E+00	-7.49993902577E-01
1.09888876542E+06	-1.22022497854E+01	1.79918021965E+02	8.59645663023E+00	1.75816744759E+02	-4.64355198195E+01	1.45180922363E+02	-5.83547057564E+00	-5.98515109196E-01
1.12108012001E+06	-1.76648266971E+01	1.70461280915E+02	8.61991122760E+00	1.75561868697E+02	-4.90488103194E+01	2.94302872532E+01	-5.84192409253E+00	-8.46805889217E-01
1.14327147461E+06	-1.89832556868E+01	1.79323328637E+02	8.63794442228E+00	1.75894353151E+02	-5.44718307169E+01	-8.21607202977E+01	-5.83678780461E+00	-6.33617913384E-01
1.16546282920E+06	-1.79381851222E+01	-1.63155470791E+02	8.61402755694E+00	1.75452334514E+02	-4.46393640464E+01	7.28480206804E+01	-5.84942997204E+00	-6.98827747164E-01
1.18765418380E+06	-1.86687729977E+01	1.71498310750E+02	8.65872843525E+00	1.75198393835E+02	-5.12155429467E+01	7.47237804703E+01	-5.86970299808E+00	-6.17092672185E-01
1.20984553839E+06	-1.87252757651E+01	1.79117995565E+02	8.62522651893E+00	1.75361775157E+02	-4.82948007409E+01	-7.52819306255E+01	-5.85650042273E+00	-7.64706158683E-01
1.23203689299E+06	-2.27750387174E+01	1.57690658205E+02	8.65680106280E+00	1.75222661461E+02	-4.55259862815E+01	-6.37858825624E+01	-5.83349036936E+00	-4.50395307881E-01
1.25422824758E+06	-2.06747081077E+01	1.41657011201E+02	8.64119748394E+00	1.75154091368E+02	-4.29335930745E+01	-3.35235377359E+01	-5.87126448054E+00	-6.67762994843E-01
1.27641960218E+06	-1.84153292453E+01	1.74587502183E+02	8.65468144096E+00	1.74843601094E+02	-3.97029723458E+01	-7.10997423151E+01	-5.83546839434E+00	-6.32541919759E-01
1.29861095677E+06	-1.83786072763E+01	-1.61831471885E+02	8.63311665429E+00	1.74764330939E+02	-4.73782023090E+01	-1.44889157907E+02	-5.84327055914E+00	-7.52428411758E-01
1.32080231137E+06	-1.76673229170E+01	-1.68414641385E+02	8.63288048428E+00	1.74575451419E+02	-3.15784359607E+01	-1.08823407401E+02	-5.86327570402E+00	-7.56906504973E-01
1.34299366596E+06	-1.97867902177E+01	1.67845005927E+02	8.64134381847E+00	1.74582106977E+02	-4.82519802923E+01	-1.44550375791E+02	-5.84996311158E+00	-7.65363695273E-01
1.36518502056E+06	-1.72817094159E+01	-1.77926387260E+02	8.61546249763E+00	1.74205826704E+02	-4.56240064217E+01	5.66293939604E+01	-5.84392459286E+00	-6.84697612170E-01
1.38737637515E+06	-1.56281486873E+01	-1.67128750463E+02	8.62429979012E+00	1.74158969878E+02	-4.79857561225E+01	-2.08145291405E+01	-5.85462274503E+00	-7.26687296112E-01
1.40956772975E+06	-9.57945372466E+00	-1.41362833517E+02	8.65639078132E+00	1.73580405597E+02	-5.15344863370E+01	-2.57985161934E+01	-5.85152861290E+00	-7.70038701231E-01
1.43175908434E+06	-2.72910845579E+01	1.73431179495E+02	8.67894928352E+00	1.74209257339E+02	-5.81421995971E+01	-4.46644792224E+01	-5.85103619947E+00	-7.73883758230E-01
1.45395043894E+06	-1.73322749358E+01	-1.61409673132E+02	8.64607725273E+00	1.74073479580E+02	-4.44165215371E+01	1.36061784470E+01	-5.83829994562E+00	-8.68947315702E-01
1.47614179353E+06	-1.57923684374E+01	-1.46934270414E+02	8.62422767422E+00	1.73394527282E+02	-3.90311055977E+01	-1.79432662487E+02	-5.82173862160E+00	-7.34367854372E-01
1.49833314813E+06	-1.49811359890E+01	-1.68181849733E+02	8.59473804503E+00	1.73601806642E+02	-4.80495965664E+01	-9.94598030560E+01	-5.85261397503E+00	-7.33741722555E-01
1.52052450272E+06	-1.42543213380E+01	1.65542090142E+02	8.64901504963E+00	1.73740893585E+02	-4.19455297473E+01	-9.70232245238E-01	-5.84719734429E+00	-8.64711532026E-01
1.54271585732E+06	-1.61516533408E+01	-1.46528281197E+02	8.66506528489E+00	1.73321697282E+02	-4.78605965317E+01	4.11515228624E+00	-5.84583058133E+00	-9.62958697810E-01
1.56490721191E+06	-1.67009827336E+01	-1.67985223274E+02	8.65441984305E+00	1.73224674934E+02	-4.42450740000E+01	1.50966923937E+02	-5.82813141466E+00	-7.36090337719E-01
1.58709856651E+06	-1.90763235668E+01	1.71501532924E+02	8.65771547831E+00	1.73500379961E+02	-4.63959057023E+01	1.27063357375E+02	-5.81560399297E+00	-9.07022771427E-01
1.60928992110E+06	-2.08835495148E+01	-1.69003511114E+02	8.62798412717E+00	1.73166028393E+02	-5.42481921294E+01	-1.02116169369E+02	-5.83659678711E+00	-8.71673460896E-01
1.63148127570E+06	-2.19164252451E+01	1.62337132079E+02	8.64431075244E+00	1.73179830950E+02	-3.76655844470E+01	-5.32231179432E+01	-5.87846441851E+00	-7.97971562517E-01
1.65367263029E+06	-2.05077961364E+01	1.75979981072E+02	8.66957895523E+00	1.72943020483E+02	-4.00191256066E+01	-1.59275446008E+02	-5.83706544481E+00	-8.04119155586E-01
1.67586398489E+06	-3.45906337244E+01	8.08868609785E+01	8.69308903181E+00	1.72831831557E+02	-4.26065514625E+01	-7.22475435197E+01	-5.84034183407E+00	-7.78983786796E-01
1.69805533948E+06	-1.84615654215E+01	-1.69778440031E+02	8.65604551985E+00	1.72787867094E+02	-4.96791529852E+01	-1.59987499299E+02	-5.84524668636E+00	-8.71870683407E-01
1.72024669408E+06	-1.91095215514E+01	-1.37872100732E+02	8.67143363417E+00	1.72401934278E+02	-5.35775292395E+01	2.57265359533E+01	-5.86204901808E+00	-9.39866898233E-01
1.74243804867E+06	-1.63880277815E+01	-1.71568596643E+02	8.63081097442E+00	1.72339207742E+02	-5.55166813891E+01	-7.38151507375E+01	-5.86290831600E+00	-1.00990692662E+00
1.76462940327E+06	-1.71873173430E+01	-1.59621927953E+02	8.63237632240E+00	1.72345419323E+02	-4.84970901162E+01	-9.96675464857E+01	-5.85096612720E+00	-8.74318593976E-01
1.78682075786E+06	-1.63951089249E+01	1.77088027020E+02	8.64474894276E+00	1.72320357734E+02	-4.21819605565E+01	-3.82497950159E+01	-5.85227340341E+00	-9.36248672836E-01
1.80901211246E+06	-1.84548422689E+01	-1.65940953375E+02	8.66639499231E+00	1.72000601744E+02	-4.26216321481E+01	-8.62511684457E+01	-5.86037564499E+00	-7.36662944120E-01
1.83120346705E+06	-1.27306370182E+01	-1.72668455675E+02	8.61294317985E+00	1.71703621795E+02	-5.46493013541E+01	-8.57708417878E+01	-5.84888776313E+00	-8.81222213912E-01
1.85339482165E+06	-1.68894494317E+01	1.61921534495E+02	8.68490353190E+00	1.71924541286E+02	-4.19529498229E+01	-4.53660301078E+01	-5.87576936101E+00	-8.95490536403E-01
1.87558617624E+06	-1.07212835042E+01	-1.67634511866E+02	8.62366059543E+00	1.71652230272E+02	-4.44002669057E+01	7.48230714071E+01	-5.85858154995E+00	-1.14948194223E+00
1.89777753084E+06	-1.97901148156E+01	-1.70663000947E+02	8.66300701997E+00	1.71785772011E+02	-3.71099393243E+01	-1.38387888511E+02	-5.81913695882E+00	-7.77756503590E-01
1.91996888543E+06	-2.00871775695E+01	-1.66867604276E+02	8.65190900993E+00	1.71659626313E+02	-5.10352074397E+01	-1.21711646539E+02	-5.85400887679E+00	-7.46278675466E-01
1.94216024003E+06	-2.02745730973E+01	-1.47622465913E+02	8.66333556398E+00	1.71531608748E+02	-3.34609772744E+01	1.25539208032E+02	-5.80778223079E+00	-1.16331524097E+00
1.96435159462E+06	-1.54827237980E+01	-1.79985269456E+02	8.61078010328E+00	1.71373696558E+02	-4.84044225044E+01	-1.71677600685E+02	-5.80919600849E+00	-9.30792481308E-01
1.98654294922E+06	-2.01345217447E+01	1.77146784182E+02	8.65547578305E+00	1.70989933052E+02	-4.51053835785E+01	9.48485725809E+01	-5.83694358204E+00	-1.01008238527E+00
2.00873430381E+06	-1.49801507715E+01	1.72067354993E+02	8.60457923623E+00	1.71164190673E+02	-4.90046212648E+01	-1.20147348183E+02	-5.86507400398E+00	-8.90087447390E-01
2.03092565841E+06	-2.14890798066E+01	-1.56530830045E+02	8.65468039102E+00	1.71093730268E+02	-4.51787839301E+01	-1.52816122149E+02	-5.81492981865E+00	-9.17882836209E-01
2.05311701300E+06	-1.42809615009E+01	-1.74865678660E+02	8.61056457325E+00	1.70761499065E+02	-4.50689521373E+01	-1.21200446520E+01	-5.84763486050E+00	-1.00652767050E+00
2.07530836760E+06	-2.71753238374E+01	1.56297792147E+02	8.71143033844E+00	1.70994285413E+02	-4.46892287679E+01	6.93494412734E+01	-5.83451282725E+00	-1.03975299284E+00
2.09749972219E+06	-3.26114019053E+01	-1.40625775668E+02	8.67592120649E+00	1.70902626033E+02	-3.35998381089E+01	-1.20924689056E+02	-5.86848933730E+00	-7.46443186314E-01
2.11969107679E+06	-1.48697281024E+01	1.69372279382E+02	8.59992908629E+00	1.70895832709E+02	-3.75612122584E+01	-9.74537176528E+01	-5.87399752691E+00	-9.87946728037E-01
2.14188243138E+06	-1.76207897658E+01	1.74256077071E+02	8.64976457166E+00	1.70459098105E+02	-4.50730304714E+01	-1.59654451808E+02	-5.84089953597E+00	-8.83022045013E-01
2.16407378598E+06	-2.19156699035E+01	-1.74288185733E+02	8.66309461068E+00	1.70456133518E+02	-4.16325746920E+01	5.40381147795E+01	-5.85345050224E+00	-1.18849119119E+00
2.18626514057E+06	-1.17269236055E+01	-1.48012805365E+02	8.69983717560E+00	1.69888294800E+02	-3.77546345400E+01	6.59209447173E+01	-5.85725004472E+00	-1.25235463883E+00
2.20845649517E+06	-1.71612730569E+01	1.71528586475E+02	8.64905470454E+00	1.70328298276E+02	-4.03143123069E+01	-1.37136272528E+02	-5.83157195713E+00	-9.04385194201E-01
2.23064784976E+06	-2.10040947734E+01	1.67787874103E+02	8.65846720316E+00	1.70221681348E+02	-5.29684467306E+01	3.98339605049E+01	-5.82540298589E+00	-1.20409404943E+00
2.25283920436E+06	-2.11914946114E+01	1.31712764302E+02	8.69086778648E+00	1.70203679344E+02	-3.54908680759E+01	5.45874053120E+01	-5.81686378700E+00	-1.22862245868E+00
2.27503055895E+06	-1.39401407177E+01	1.67091871049E+02	8.61940239407E+00	1.69502724832E+02	-5.85953898054E+01	9.83970297336E+01	-5.83893958951E+00	-1.07944877755E+00
2.29722191355E+06	-1.85641731950E+01	-1.61625205057E+02	8.66217596046E+00	1.69824002316E+02	-5.07286757817E+01	2.94026407658E+01	-5.83288243392E+00	-1.10546560872E+00
2.31941326814E+06	-1.63128942790E+01	-1.64956529309E+02	8.65901585977E+00	1.69354389663E+02	-4.63575913402E+01	-1.47063964957E+02	-5.85295102385E+00	-1.04578730501E+00
2.34160462274E+06	-1.03947808829E+01	-1.68667200274E+02	8.64155944651E+00	1.69080904053E+02	-3.95260441101E+01	3.33165433084E+00	-5.86710197960E+00	-1.18201776269E+00
2.36379597733E+06	-1.47443250321E+01	1.71668742489E+02	8.65239011817E+00	1.69478970507E+02	-4.32843808417E+01	-9.90827790746E+01	-5.82005092396E+00	-1.12049652551E+00
2.38598733193E+06	-2.46716950392E+01	-1.74412650461E+02	8.66531411766E+00	1.69357919499E+02	-4.44817043986E+01	-4.03910554410E+01	-5.84984330882E+00	-1.03036591293E+00
2.40817868652E+06	-1.73636649775E+01	-1.72804366858E+02	8.66022811718E+00	1.69340032243E+02	-4.05726228597E+01	-5.77659119032E+01	-5.85893216323E+00	-1.32420434394E+00
2.43037004112E+06	-2.03726919569E+01	-1.69246026869E+02	8.66313329517E+00	1.69052591235E+02	-3.35651755433E+01	-6.15826042216E+01	-5.90440111801E+00	-1.55574263748E+00
2.45256139571E+06	-1.98936299069E+01	-1.50070825241E+02	8.65165014864E+00	1.68970700518E+02	-4.59956564397E+01	-6.05522725417E+01	-5.85650836500E+00	-1.07885894462E+00
2.47475275031E+06	-2.29666772034E+01	-1.30602972688E+02	8.70459955321E+00	1.68746606265E+02	-4.45507377102E+01	1.89617558877E+01	-5.85981283410E+00	-1.12341574445E+00
2.49694410490E+06	-1.54283813142E+01	1.04477158500E+02	8.61422470935E+00	1.69219183476E+02	-4.51963565026E+01	8.11144518802E+01	-5.84031232131E+00	-1.22861174839E+00
2.51913545950E+06	-2.01223815988E+01	1.72388219700E+02	8.68476537547E+00	1.68622275910E+02	-4.45224566775E+01	-9.37773853992E+01	-5.84291031233E+00	-1.17240900037E+00
2.54132681409E+06	-1.69822815810E+01	-1.72020478005E+02	8.66775915058E+00	1.68364177327E+02	-5.85846301286E+01	1.49241937989E+02	-5.85869856031E+00	-1.25021834613E+00
2.56351816869E+06	-1.65527383690E+01	-1.66146723409E+02	8.66840866053E+00	1.68295142185E+02	-5.21555116165E+01	-1.46368609004E+02	-5.84606884269E+00	-1.25377093035E+00
2.58570952328E+06	-1.93654090894E+01	-1.70234877215E+02	8.66316425093E+00	1.68192059444E+02	-4.07201312421E+01	5.90523366663E+01	-5.83629285300E+00	-1.41198610669E+00
2.60790087788E+06	-1.58900048560E+01	-1.54670518939E+02	8.68082407181E+00	1.68279315838E+02	-4.50603447772E+01	4.40537478268E+00	-5.85743101689E+00	-1.24740250127E+00
2.63009223247E+06	-1.90591505724E+01	1.69532138505E+02	8.66795365948E+00	1.68231961304E+02	-4.46327947558E+01	-1.74383628868E+02	-5.84800032446E+00	-7.97701157236E-01
2.65228358707E+06	-2.16976478282E+01	1.09383400105E+02	8.69906557785E+00	1.68188616483E+02	-4.60265473997E+01	-5.86220786959E+01	-5.85489128623E+00	-1.16391143768E+00
2.67447494166E+06	-1.73504540163E+01	-1.41474003757E+02	8.69510474598E+00	1.67499382446E+02	-4.59007024857E+01	1.25625595040E+02	-5.85003078388E+00	-1.26894939136E+00
2.69666629626E+06	-1.27096975771E+01	-1.73174699015E+02	8.63578100195E+00	1.67357647296E+02	-4.97180862075E+01	-5.81811457837E+01	-5.85548194750E+00	-1.39787959257E+00
2.71885765085E+06	-1.76981347296E+01	-1.55912742633E+02	8.67983450688E+00	1.67695052993E+02	-4.03795577079E+01	-8.50505814140E+01	-5.86413083179E+00	-1.07353257830E+00
2.74104900545E+06	-2.03972430494E+01	1.79647690204E+02	8.69148143301E+00	1.67751232540E+02	-4.92772720182E+01	7.46383482726E+01	-5.85481594318E+00	-1.37269304639E+00
2.76324036004E+06	-1.95763766602E+01	1.72525109001E+02	8.65710723276E+00	1.67595945702E+02	-4.58713276725E+01	1.53658053097E+02	-5.83293733369E+00	-1.46340883214E+00
2.78543171463E+06	-1.23385217962E+01	-1.64959209890E+02	8.64307901977E+00	1.66934816768E+02	-4.39762888789E+01	1.97778913281E+01	-5.87598394342E+00	-1.43585680803E+00
2.80762306923E+06	-1.76404764432E+01	-1.06518024428E+02	8.74785954646E+00	1.66970790426E+02	-5.13583851237E+01	-2.76945516269E+01	-5.84396234637E+00	-1.32766494782E+00
2.82981442382E+06	-2.66796969361E+01	-1.46501279090E+02	8.68036894571E+00	1.67178822107E+02	-4.27167978404E+01	1.63758645939E+02	-5.82518626754E+00	-1.33884411958E+00
2.85200577842E+06	-1.53627548192E+01	1.68458068924E+02	8.65312555351E+00	1.66950144363E+02	-5.08607645049E+01	1.20750833978E+02	-5.84345457112E+00	-1.35677225030E+00
2.87419713301E+06	-1.81141964907E+01	1.75545949878E+02	8.68293231097E+00	1.67227624106E+02	-3.97912752489E+01	1.76971522202E+02	-5.82048265780E+00	-1.33616640429E+00
