# Hz S DB R 50
! CMT, M5065, 19127446, 24.2.4/2
! Date: 11/8/2024 4:17:48 PM
! Data: Format (Calibration Info)
! Freq	S11:dB/Ang(F2)	S21:dB/Ang(F2)	S12:dB/Ang(F2)	S22:dB/Ang(F2)
3.00000000000E+05	-1.69375737242E+01	-1.74786151421E+02	2.28332374771E+01	-1.75157577136E+02	-3.79210263117E+01	-9.40840601189E+01	-5.83842006087E+00	3.15971377493E-01
3.22191354595E+05	-1.62038198787E+01	-1.64697745410E+02	2.28582388220E+01	-1.76223746592E+02	-5.23543662246E+01	-5.56872504841E+01	-5.81771884713E+00	-2.29938173432E-01
3.44382709190E+05	-2.15002772339E+01	-1.50925701040E+02	2.28630145775E+01	-1.77134771614E+02	-4.06704423908E+01	-1.42161934218E+02	-5.76609477336E+00	1.38858414267E-01
3.66574063785E+05	-2.19864931711E+01	-1.04685825858E+02	2.29020403601E+01	-1.77910441124E+02	-4.63191589215E+01	1.56971400806E+02	-5.76732387663E+00	-4.66336878214E-01
3.88765418380E+05	-1.65440347081E+01	-1.71488435883E+02	2.28307467957E+01	-1.78602775489E+02	-4.26190123037E+01	-1.55303607074E+02	-5.75515013318E+00	3.60008555877E-02
4.10956772975E+05	-1.26518127138E+01	1.42627173567E+02	2.28303591482E+01	-1.78885232496E+02	-5.65711297961E+01	1.11009376766E+02	-5.84500490195E+00	-3.67283189159E-01
4.33148127570E+05	-1.48745741709E+01	-1.75721738925E+02	2.28371710551E+01	-1.79936019987E+02	-5.63852377387E+01	-7.70265591393E+01	-5.80246705679E+00	-2.78698575929E-01
4.55339482165E+05	-1.48317958287E+01	1.76495024776E+02	2.28347025336E+01	1.79532096723E+02	-5.00160858179E+01	8.28756265562E+01	-5.82911650150E+00	-5.77345306936E-01
4.77530836760E+05	-1.86378821137E+01	1.41205157974E+02	2.28735109305E+01	1.79132274793E+02	-4.48885278962E+01	2.90016631927E+01	-5.84113799447E+00	-7.08776038991E-01
4.99722191355E+05	-1.85979054392E+01	-1.44771210261E+02	2.28505960210E+01	1.78223692894E+02	-6.08941706156E+01	1.64651215990E+02	-5.80374895921E+00	-4.32747325885E-01
5.21913545950E+05	-1.67541903592E+01	-1.71506340454E+02	2.28420846470E+01	1.77761926714E+02	-4.31281023838E+01	1.66530991178E+02	-5.74432593480E+00	-4.52344800894E-01
5.44104900545E+05	-2.10564891892E+01	-1.12696110155E+02	2.28721716085E+01	1.76964670942E+02	-5.13314103965E+01	1.13824012654E+02	-5.82435098124E+00	-3.51038941204E-01
5.66296255139E+05	-2.29289748473E+01	-9.42641567411E+01	2.28770532269E+01	1.76614869801E+02	-4.05935693332E+01	3.10855910825E+01	-5.90903130233E+00	-8.58336125362E-01
5.88487609734E+05	-1.68504645115E+01	1.72297722961E+02	2.28632278188E+01	1.76284665001E+02	-4.54531187819E+01	1.61792996278E+02	-5.80694074913E+00	-5.22344810271E-01
6.10678964329E+05	-1.87252566446E+01	1.71913277618E+02	2.28158978907E+01	1.75896707577E+02	-4.23223094118E+01	-5.67153458790E+01	-5.88531410030E+00	1.25895245970E-01
6.32870318924E+05	-2.39835141662E+01	1.55312044432E+02	2.28627286193E+01	1.75393176396E+02	-3.46885255368E+01	1.02220762229E+02	-5.83652582969E+00	-1.19357655641E+00
6.55061673519E+05	-1.44038779842E+01	1.45501099946E+02	2.28268367901E+01	1.75089000580E+02	-4.74743832294E+01	1.55956677948E+02	-5.79218224162E+00	-5.35324575110E-01
6.77253028114E+05	-1.68094361436E+01	1.76123026274E+02	2.28344346167E+01	1.74533548590E+02	-5.58814833589E+01	2.10048864449E+01	-5.83561860880E+00	-8.25704098749E-01
6.99444382709E+05	-2.34615654200E+01	1.19744050227E+02	2.28579318920E+01	1.74208459057E+02	-4.14397420183E+01	-6.36336870173E+01	-5.86962153482E+00	-4.12075156011E-03
7.21635737304E+05	-2.08002681823E+01	1.66938851904E+02	2.28370836931E+01	1.73594575138E+02	-4.77518568004E+01	-1.00453036101E+02	-5.83387793086E+00	-2.17935208608E-01
7.43827091899E+05	-1.40422896508E+01	1.70728081079E+02	2.28038624433E+01	1.73226580989E+02	-3.94650559456E+01	-1.29695638497E+02	-5.78289899709E+00	1.52110841286E-01
7.66018446494E+05	-1.70225853470E+01	1.54112688110E+02	2.28098326791E+01	1.73001748064E+02	-4.46953710186E+01	-1.72286033623E+02	-5.79143422039E+00	-5.21147943161E-01
7.88209801089E+05	-1.28226575979E+01	-1.77543617106E+02	2.27613283043E+01	1.72336078962E+02	-4.21682270347E+01	-7.32314305909E+01	-5.84941172763E+00	7.86307527938E-02
8.10401155684E+05	-1.49045976673E+01	-1.77907758884E+02	2.27960733087E+01	1.71988200719E+02	-5.05167138094E+01	-1.03787335244E+02	-5.79766177728E+00	-3.63737291135E-01
8.32592510279E+05	-1.69326699780E+01	-1.64597470747E+02	2.28033493666E+01	1.71546196208E+02	-4.36086810355E+01	-6.31057782259E+01	-5.84829536215E+00	-1.52073074472E-01
8.54783864874E+05	-1.88735100990E+01	1.23566863061E+02	2.28030298936E+01	1.71593592681E+02	-4.70367882606E+01	1.35984041640E+02	-5.79677869767E+00	-6.81803229924E-01
8.76975219469E+05	-8.84297031020E+00	-1.49950177739E+02	2.27622150040E+01	1.70574869989E+02	-3.79723628017E+01	-1.49454019779E+02	-5.72812051990E+00	2.42001096201E-02
8.99166574064E+05	-2.34128836296E+01	-1.59229971728E+02	2.28131430212E+01	1.70471185523E+02	-5.13879283925E+01	4.83757514817E+01	-5.85833877517E+00	-6.82996854219E-01
9.21357928659E+05	-1.54776184263E+01	-1.73105467600E+02	2.27526557404E+01	1.69955923475E+02	-4.41510530871E+01	1.03188045913E+02	-5.79760152004E+00	-1.12484465602E+00
9.43549283254E+05	-1.71016819460E+01	-1.44193067835E+02	2.27700476038E+01	1.69604533947E+02	-4.34926501835E+01	2.98970011603E+01	-5.85392152963E+00	-7.26083353477E-01
9.65740637849E+05	-1.88120951512E+01	1.66673537057E+02	2.27902240173E+01	1.69486679283E+02	-4.04382843141E+01	-1.57464405452E+02	-5.74931980233E+00	-4.08985875955E-01
9.87931992444E+05	-1.33773137286E+01	1.76764956540E+02	2.27476915719E+01	1.69028093768E+02	-4.35501283451E+01	1.79655452049E+02	-5.76143603760E+00	-6.76419509491E-01
1.01012334704E+06	-1.88766681569E+01	1.53369744900E+02	2.27613486753E+01	1.68952136656E+02	-7.20805580341E+01	1.66485429019E+02	-5.84588395177E+00	-6.93177337580E-01
1.03231470163E+06	-2.09040661675E+01	1.41942843184E+02	2.27595864883E+01	1.68538925986E+02	-4.47889113328E+01	-1.08854500440E+02	-5.79363365444E+00	-1.60152857713E-01
1.05450605623E+06	-2.14816259423E+01	-1.55420041117E+02	2.27532099458E+01	1.67967803807E+02	-4.41721556937E+01	1.17993086984E+02	-5.81459135977E+00	-9.21931647131E-01
1.07669741082E+06	-2.26488978780E+01	1.70657180596E+02	2.27669822906E+01	1.68000608455E+02	-4.20044780595E+01	-1.70538141674E+02	-5.61709055393E+00	2.64819206162E-01
1.09888876542E+06	-1.45357824113E+01	-1.64021245707E+02	2.27193434964E+01	1.67238241178E+02	-4.19185706874E+01	-1.84338149133E+01	-5.90429859324E+00	-6.04463312664E-01
1.12108012001E+06	-1.87285782683E+01	1.71278098710E+02	2.27265091321E+01	1.67137632315E+02	-4.68766682154E+01	-9.16064170859E+01	-5.81382736391E+00	-5.19969599351E-01
1.14327147461E+06	-1.78384532016E+01	1.73524501705E+02	2.27276605573E+01	1.66680792511E+02	-4.19739321854E+01	1.30975126990E+02	-5.76943881793E+00	-9.32600389221E-01
1.16546282920E+06	-2.51603696529E+01	3.05711815650E+01	2.27707533022E+01	1.66411091123E+02	-4.18894365393E+01	-9.04588847379E+01	-5.85377627175E+00	-1.61577547760E-02
1.18765418380E+06	-1.92514033545E+01	-1.13066440095E+02	2.27368954145E+01	1.65691103564E+02	-4.62279062312E+01	6.75496703150E+01	-5.85180405554E+00	-8.93404022408E-01
1.20984553839E+06	-1.49100908933E+01	1.73596744387E+02	2.26829844090E+01	1.65682261432E+02	-7.48341277180E+01	5.81603306875E+01	-5.82236655052E+00	-8.90298995793E-01
1.23203689299E+06	-1.59828468557E+01	-1.58773990295E+02	2.26972534697E+01	1.65149900093E+02	-4.06003368691E+01	1.70843173075E+02	-5.73836872338E+00	-3.03744871484E-01
1.25422824758E+06	-1.28272149461E+01	-1.62569458844E+02	2.26729228149E+01	1.64787605598E+02	-4.47270251664E+01	1.26471764796E+02	-5.83770034506E+00	-7.53027594683E-01
1.27641960218E+06	-1.86406867438E+01	-1.63173987919E+02	2.27072443226E+01	1.64622563924E+02	-3.56998430496E+01	-9.12780340138E+01	-5.84464942741E+00	3.07472275895E-01
1.29861095677E+06	-1.38123513860E+01	1.79602348172E+02	2.26617277797E+01	1.64238314032E+02	-4.38701297811E+01	-1.02028829311E+02	-5.83800514454E+00	-2.56068651018E-01
1.32080231137E+06	-2.82776348005E+01	1.49590985231E+02	2.26892181332E+01	1.64156519595E+02	-4.49256462108E+01	7.63770756550E+01	-5.86302462511E+00	-1.51955572012E+00
1.34299366596E+06	-2.30278866000E+01	1.15869804806E+02	2.27008268565E+01	1.63957912297E+02	-4.20681594867E+01	1.21222019478E+02	-5.78180963047E+00	-1.34691196308E+00
1.36518502056E+06	-1.70615852037E+01	-1.79333361293E+02	2.26413677760E+01	1.63470139845E+02	-4.43643643503E+01	1.75453566691E+02	-5.76156849974E+00	-5.51266537818E-01
1.38737637515E+06	-1.50707451813E+01	1.58867945860E+02	2.26330639900E+01	1.63207098826E+02	-5.25547223843E+01	5.03724613126E+01	-5.82669194045E+00	-1.03771842905E+00
1.40956772975E+06	-2.17259452175E+01	1.76195764226E+02	2.26690515173E+01	1.62798345847E+02	-4.73122581293E+01	1.79290632012E+02	-5.79186439869E+00	-7.62081037762E-01
1.43175908434E+06	-3.54333905624E+01	1.24722929968E+02	2.26825708927E+01	1.62566598329E+02	-3.43047589360E+01	-8.62391690944E+01	-5.84769419189E+00	4.85453796589E-01
1.45395043894E+06	-1.46563468800E+01	-1.75444662552E+02	2.26169746914E+01	1.61951033653E+02	-5.10759519243E+01	8.11961980877E+00	-5.86420622951E+00	-6.62201379733E-01
1.47614179353E+06	-1.40707489456E+01	-1.74968207704E+02	2.26134699153E+01	1.61658372330E+02	-5.42553771088E+01	7.49232176149E+01	-5.84168536261E+00	-8.18475775415E-01
1.49833314813E+06	-3.06417598762E+01	9.60039240141E+01	2.26493274980E+01	1.61612440436E+02	-4.63559903436E+01	4.13024672004E+01	-5.85109477482E+00	-8.32840897919E-01
1.52052450272E+06	-1.85567288950E+01	1.66292704321E+02	2.26010354376E+01	1.61332633155E+02	-4.78252821575E+01	2.39018293201E+01	-5.88531750219E+00	-9.05592629872E-01
1.54271585732E+06	-1.64033277226E+01	1.72773895848E+02	2.25816836490E+01	1.61000111280E+02	-4.04552413961E+01	1.03962916999E+02	-5.79875364154E+00	-1.32800848566E+00
1.56490721191E+06	-1.63134088335E+01	-1.33737385057E+02	2.26266857222E+01	1.60256581944E+02	-6.45892964728E+01	-1.02959253150E+02	-5.82295776797E+00	-8.41246128767E-01
1.58709856651E+06	-1.60494662587E+01	-1.65308088044E+02	2.26143844100E+01	1.60210783344E+02	-3.45557207329E+01	1.28849304602E+02	-5.71200565923E+00	-1.79520094985E+00
1.60928992110E+06	-2.10714365604E+01	1.67467198318E+02	2.25950949014E+01	1.60097261498E+02	-4.61286920029E+01	3.41032550054E+01	-5.87917157151E+00	-1.18411495442E+00
1.63148127570E+06	-1.52426444272E+01	1.33042108272E+02	2.25756273931E+01	1.59837357941E+02	-3.92465038199E+01	-1.24571140808E+02	-5.77396864218E+00	-1.04186676669E-01
1.65367263029E+06	-1.75858947060E+01	-7.12784585336E+00	2.26528358548E+01	1.59685642123E+02	-5.19940281297E+01	-5.59584488271E+01	-5.84464606664E+00	-8.09536985938E-01
1.67586398489E+06	-1.94086252086E+01	1.73223439612E+02	2.25675306880E+01	1.59056023719E+02	-4.76120817434E+01	-1.46601161232E+02	-5.80272992882E+00	-5.19136268969E-01
1.69805533948E+06	-1.90034292843E+01	-1.56104699317E+02	2.25681838777E+01	1.58743169822E+02	-4.66105016513E+01	-4.96723490744E+01	-5.87264445170E+00	-8.06224087876E-01
1.72024669408E+06	-2.35122056840E+01	1.42480916611E+02	2.25828966823E+01	1.58725742830E+02	-3.96883070788E+01	-1.48398012326E+02	-5.76093767869E+00	-4.14294837182E-01
1.74243804867E+06	-2.26014227845E+01	1.79013655133E+02	2.25596186536E+01	1.58202208800E+02	-3.62165087635E+01	-9.39807205497E+01	-5.82330737842E+00	5.47368171523E-02
1.76462940327E+06	-1.66720752000E+01	1.57095375635E+02	2.25177356425E+01	1.57910065393E+02	-4.81139953240E+01	-1.82144162001E+00	-5.87157655776E+00	-1.10717191897E+00
1.78682075786E+06	-1.48282804390E+01	1.75923623756E+02	2.25137570060E+01	1.57512657619E+02	-4.00445130504E+01	-1.39983248767E+02	-5.75015769997E+00	-1.74763189251E-01
1.80901211246E+06	-1.12496448170E+01	1.75516431082E+02	2.24715106094E+01	1.57135332319E+02	-3.95100496813E+01	2.43800241881E+01	-5.94575447199E+00	-1.37425383287E+00
1.83120346705E+06	-1.59315231162E+01	-1.60550754942E+02	2.25076534789E+01	1.56698575973E+02	-5.20832155041E+01	-6.07362393051E+01	-5.84786947716E+00	-7.06188243100E-01
1.85339482165E+06	-1.78430857438E+01	-1.78916639108E+02	2.25064405789E+01	1.56514147916E+02	-4.55264812958E+01	1.07687503403E+02	-5.80713179371E+00	-1.19684795188E+00
1.87558617624E+06	-1.48782089560E+01	-1.73445345035E+02	2.24780310341E+01	1.56020948606E+02	-3.64445872010E+01	-1.09333948667E+02	-5.80567228800E+00	-5.46843501691E-02
1.89777753084E+06	-2.79665860880E+01	-1.45939498086E+02	2.25222130343E+01	1.56018434917E+02	-4.16946156283E+01	-4.50774365242E+01	-5.84903572336E+00	-9.04672027170E-01
1.91996888543E+06	-1.77361193530E+01	-1.79220241610E+02	2.24708982941E+01	1.55684262941E+02	-4.52202610710E+01	4.26060284514E+01	-5.87693002272E+00	-1.32394887733E+00
1.94216024003E+06	-1.45279807375E+01	1.77054963870E+02	2.24560169265E+01	1.55374235905E+02	-4.72755265945E+01	-3.17912928718E+01	-5.85738680084E+00	-1.06973719553E+00
1.96435159462E+06	-3.19279562844E+01	1.82941152349E+01	2.24962897412E+01	1.55420463657E+02	-5.17688321249E+01	1.70997223538E+02	-5.82297968303E+00	-9.35511656660E-01
1.98654294922E+06	-1.69827006420E+01	-1.37559300555E+02	2.24605210338E+01	1.54619961105E+02	-4.03947717674E+01	2.86402116749E+01	-5.88369747220E+00	-1.46275686444E+00
2.00873430381E+06	-2.75621976366E+01	1.67736462074E+02	2.24586102095E+01	1.54626503164E+02	-5.25826627183E+01	1.54239124399E+02	-5.81517263706E+00	-1.10163640142E+00
2.03092565841E+06	-2.96451846073E+01	-1.48436622855E+02	2.24609947443E+01	1.54299866821E+02	-4.21812401071E+01	1.09570039153E+02	-5.78579668274E+00	-1.58654024375E+00
2.05311701300E+06	-1.81919499509E+01	-1.79931600626E+02	2.24454711009E+01	1.53861698584E+02	-3.13269617981E+01	6.14158578341E+01	-5.95894601331E+00	-2.37614388993E+00
2.07530836760E+06	-1.84221311872E+01	1.74376953504E+02	2.24128854661E+01	1.53690685933E+02	-4.37370349337E+01	-3.56249377601E+01	-5.91137044367E+00	-7.53923317812E-01
2.09749972219E+06	-2.83782701744E+01	-1.44942245651E+02	2.24571573413E+01	1.53292856825E+02	-4.90205579929E+01	-6.36823014755E+01	-5.86448633761E+00	-9.34727526284E-01
2.11969107679E+06	-1.31189733677E+01	-1.49550168045E+02	2.24184815785E+01	1.52903412215E+02	-4.34037372880E+01	-1.69173170819E+02	-5.74949594026E+00	-9.91839572461E-01
2.14188243138E+06	-1.92934088436E+01	1.75714251426E+02	2.24102080742E+01	1.52820385884E+02	-5.56614142799E+01	6.58709230475E+01	-5.80043684554E+00	-1.27597774912E+00
2.16407378598E+06	-1.85497658724E+01	-1.73584474098E+02	2.23943784239E+01	1.52587078527E+02	-4.15190006123E+01	1.08343029919E+02	-5.79361689798E+00	-1.76205170528E+00
2.18626514057E+06	-1.94392575442E+01	1.63782512673E+02	2.23823096363E+01	1.52274638197E+02	-4.45549290724E+01	2.83247019251E+01	-5.86045153813E+00	-1.35981540392E+00
2.20845649517E+06	-1.85844953376E+01	1.56177697475E+02	2.23670893214E+01	1.52059465329E+02	-3.76486128991E+01	-2.17960343495E+01	-5.90688901025E+00	-9.96822125275E-01
2.23064784976E+06	-2.25076032157E+01	-1.50126417325E+02	2.23764040065E+01	1.51458437177E+02	-4.00478521913E+01	-1.20808743489E+01	-5.94704525231E+00	-9.06244012968E-01
2.25283920436E+06	-1.66549473395E+01	-1.67770142590E+02	2.23445503450E+01	1.51116634126E+02	-4.17708310553E+01	-9.73164702766E+01	-5.82946396690E+00	-5.67570290642E-01
2.27503055895E+06	-8.51814944188E+00	1.55145166683E+02	2.22725524638E+01	1.51157068749E+02	-5.82351943757E+01	-5.56281757885E+01	-5.82843307935E+00	-1.11876087367E+00
2.29722191355E+06	-1.88787833620E+01	1.74300614647E+02	2.23513639452E+01	1.50889820467E+02	-6.55561202698E+01	1.66788038553E+02	-5.83584683603E+00	-1.30569747578E+00
2.31941326814E+06	-1.84116868081E+01	-1.63086994989E+02	2.23405108313E+01	1.50372416568E+02	-4.72829611591E+01	1.74080639835E+02	-5.80567840636E+00	-1.03137281456E+00
2.34160462274E+06	-1.33904934776E+01	1.78644211629E+02	2.22937968156E+01	1.50052347827E+02	-4.56420366932E+01	-1.00755331292E+02	-5.81427667636E+00	-6.50992867605E-01
2.36379597733E+06	-1.69087307114E+01	-1.55278189871E+02	2.23166039677E+01	1.49659402246E+02	-4.53621512808E+01	-1.44691518901E+02	-5.83254019517E+00	-1.13642925257E+00
2.38598733193E+06	-1.64405863164E+01	1.75642365628E+02	2.23049265230E+01	1.49449392470E+02	-4.36593910438E+01	1.79547820555E+02	-5.74320025835E+00	-1.03914353424E+00
2.40817868652E+06	-2.68609278813E+01	1.50647255288E+02	2.23186464527E+01	1.49510555809E+02	-4.24871522205E+01	-7.42564321034E+01	-5.87106015400E+00	-8.36471449095E-01
2.43037004112E+06	-1.90073099417E+01	-1.64160090356E+02	2.22932215294E+01	1.48871362061E+02	-4.15567422027E+01	3.14061048611E+01	-5.91500091579E+00	-1.95307652227E+00
2.45256139571E+06	-1.45849089680E+01	-1.54202869926E+02	2.22762940755E+01	1.48507624124E+02	-4.57235481658E+01	1.11741056031E+02	-5.81428112217E+00	-1.56680794099E+00
2.47475275031E+06	-1.54682759177E+01	-1.75678137321E+02	2.22583936631E+01	1.48302075973E+02	-4.77518357474E+01	-9.22160395355E+01	-5.81596438826E+00	-1.19582750408E+00
2.49694410490E+06	-1.67890396482E+01	-1.69170915201E+02	2.22624332470E+01	1.48087968051E+02	-4.22558444253E+01	7.36457181733E+01	-5.87074307532E+00	-1.66408163662E+00
2.51913545950E+06	-1.53897133387E+01	-1.64716860583E+02	2.22569578034E+01	1.47773012169E+02	-3.23756743676E+01	1.50216919850E+02	-5.67219335243E+00	-1.81430755309E+00
2.54132681409E+06	-1.82767085082E+01	1.73931431242E+02	2.22421090225E+01	1.47545489562E+02	-4.51127324279E+01	-8.85662332593E+01	-5.84826209287E+00	-8.72661714450E-01
2.56351816869E+06	-1.24529702985E+01	-1.60307631537E+02	2.22299037616E+01	1.46998593714E+02	-5.05215438312E+01	-1.11756315545E+02	-5.81251016576E+00	-9.40971195771E-01
2.58570952328E+06	-1.50813093485E+01	1.42730766525E+02	2.21788882282E+01	1.47309643425E+02	-4.57689205251E+01	2.68144073269E+01	-5.87467260065E+00	-1.60276450477E+00
2.60790087788E+06	-1.94893871013E+01	-1.71513824073E+02	2.22261749572E+01	1.46695036442E+02	-5.31579290881E+01	1.08552402710E+02	-5.83333668360E+00	-1.21017811480E+00
2.63009223247E+06	-1.78792920087E+01	1.75480175552E+02	2.21951549161E+01	1.46630622056E+02	-5.73649589561E+01	-1.16990047862E+02	-5.86168005539E+00	-9.79641024966E-01
2.65228358707E+06	-1.68230760776E+01	-1.70227060603E+02	2.21993049382E+01	1.46159802249E+02	-4.63843368648E+01	-1.09375753343E+01	-5.90476274060E+00	-1.15645042278E+00
2.67447494166E+06	-1.68588943241E+01	-1.52725659978E+02	2.21976111864E+01	1.45723834960E+02	-5.35358998526E+01	6.30060128002E+01	-5.84367165609E+00	-1.82466482426E+00
2.69666629626E+06	-2.41329208207E+01	1.48708170128E+02	2.21864605398E+01	1.45809540850E+02	-5.42547643766E+01	-1.97704091917E+01	-5.85554777415E+00	-1.26788244454E+00
2.71885765085E+06	-1.30806328762E+01	1.79970128884E+02	2.21298403595E+01	1.45142839675E+02	-4.56826433870E+01	1.16124046193E+02	-5.82714021775E+00	-1.65115441988E+00
2.74104900545E+06	-1.73391184463E+01	-1.59329270690E+02	2.21694104185E+01	1.44986207581E+02	-4.08443264398E+01	1.40044168543E+02	-5.75974678356E+00	-1.78701829590E+00
2.76324036004E+06	-2.06814941178E+01	-1.65359109487E+02	2.21426366417E+01	1.44661263835E+02	-4.50876713283E+01	1.36845376794E+02	-5.78064365716E+00	-1.67333803851E+00
2.78543171463E+06	-2.16652300629E+01	-1.73064885514E+02	2.21619560465E+01	1.44397236195E+02	-5.10169981387E+01	1.67143180718E+02	-5.79304336134E+00	-1.55337294780E+00
2.80762306923E+06	-1.91333169331E+01	-1.76102473389E+02	2.21151485101E+01	1.44278450007E+02	-6.18706229318E+01	5.82398485579E+01	-5.84274582927E+00	-1.48663668647E+00
2.82981442382E+06	-1.74690301906E+01	1.65269517402E+02	2.21010667254E+01	1.44026856659E+02	-3.70008783257E+01	1.12139067987E+02	-5.78479097463E+00	-2.18676131990E+00
2.85200577842E+06	-1.68696571585E+01	1.75796032111E+02	2.21124938781E+01	1.43584588450E+02	-5.41923181259E+01	-1.49411196907E+02	-5.81829694762E+00	-1.35828092360E+00
2.87419713301E+06	-1.38267118840E+01	-1.72023924772E+02	2.20601330967E+01	1.43261134850E+02	-5.32984695677E+01	-1.06928381674E+02	-5.81036753938E+00	-1.28310195392E+00
2.89638848761E+06	-1.65207318963E+01	-1.69604727528E+02	2.20817021265E+01	1.42983719375E+02	-5.10323341336E+01	-4.13910672832E+01	-5.88097742480E+00	-1.08210984688E+00
