# Hz S DB R 50
! CMT, M5065, 19127446, 24.2.4/2
! Date: 11/8/2024 3:44:59 PM
! Data: Format (Calibration Info)
! Freq	S11:dB/Ang(F2)	S21:dB/Ang(F2)	S12:dB/Ang(F2)	S22:dB/Ang(F2)
3.00000000000E+05	-2.47280750371E+01	-1.27439469874E+02	4.66460221369E+00	-1.77682793045E+02	-4.60205147463E+01	-5.27855821908E+01	-5.84938779680E+00	-3.61328285584E-01
3.22191354595E+05	-1.60767274264E+01	1.63221220682E+02	4.66575231371E+00	-1.77800272939E+02	-3.89047530775E+01	5.85052785364E+01	-5.85003053307E+00	-3.21110990785E-01
3.44382709190E+05	-1.49493690950E+01	-1.59354619907E+02	4.62702216415E+00	-1.78396834849E+02	-4.78301532207E+01	-3.54232463231E+01	-5.85747857252E+00	-4.90918559041E-01
3.66574063785E+05	-2.67504241972E+01	-1.66393973476E+02	4.70030039545E+00	-1.78613496615E+02	-3.90860533481E+01	1.27090338389E+02	-5.83805223269E+00	-3.82018652490E-01
3.88765418380E+05	-1.81229509287E+01	-1.59560760787E+02	4.65747354173E+00	-1.78622351279E+02	-4.27121668063E+01	-1.39301380167E+02	-5.91240777020E+00	-2.96768805562E-01
4.10956772975E+05	-2.07506039651E+01	1.54652544413E+02	4.61456811603E+00	-1.78993490139E+02	-4.57776214970E+01	1.17039308701E+02	-5.81501249825E+00	-3.85391286618E-01
4.33148127570E+05	-1.51267820789E+01	-1.69878677003E+02	4.60430711076E+00	-1.79287467113E+02	-3.60973204452E+01	1.14900893988E+02	-5.84506270762E+00	-4.60685443879E-01
4.55339482165E+05	-1.42180374308E+01	1.69551962993E+02	4.62349020122E+00	-1.79311505409E+02	-4.08865785077E+01	-1.26909350964E+02	-5.83063413931E+00	-2.16233943219E-01
4.77530836760E+05	-1.87862210577E+01	-1.47376162244E+02	4.63681168186E+00	-1.79785868323E+02	-3.94576184291E+01	-1.01186650651E+02	-5.82777647014E+00	-2.76069464562E-01
4.99722191355E+05	-1.58789148722E+01	-1.64598158719E+02	4.67611897860E+00	1.79933289430E+02	-4.79983484443E+01	-7.74618443416E+01	-5.84381107987E+00	-2.32299549820E-01
5.21913545950E+05	-1.30476251772E+01	-1.73489839469E+02	4.59428180649E+00	-1.79843026057E+02	-6.01144287971E+01	4.19030234733E+01	-5.81656232771E+00	-4.79856846242E-01
5.44104900545E+05	-1.35428228905E+01	-1.49282315534E+02	4.60720411257E+00	1.79699651021E+02	-4.43964442674E+01	-3.61619121451E+01	-5.83521603345E+00	-3.21681664418E-01
5.66296255139E+05	-1.58768498677E+01	1.56478008776E+02	4.64938051206E+00	1.79576019186E+02	-5.06218704258E+01	3.19057406875E+01	-5.85269734843E+00	-3.67409907279E-01
5.88487609734E+05	-2.13495010375E+01	1.77493192658E+02	4.65965325989E+00	1.79582212920E+02	-4.07230655622E+01	-1.38036918957E+02	-5.81410497921E+00	-2.17793890739E-01
6.10678964329E+05	-1.64384720582E+01	1.66587161609E+02	4.64284574899E+00	1.79646515034E+02	-4.97824612871E+01	-1.14891937907E+02	-5.85140371948E+00	2.02427120503E-01
6.32870318924E+05	-1.87541888803E+01	1.74946889025E+02	4.64219406882E+00	1.79484729544E+02	-4.90515683652E+01	1.38064209491E+02	-5.84429162342E+00	-2.62818129160E-01
6.55061673519E+05	-1.37153118302E+01	-1.75930331605E+02	4.68709949046E+00	1.79034520600E+02	-5.09667325965E+01	7.00913090701E+01	-5.84259034907E+00	-2.62206449220E-01
6.77253028114E+05	-1.56000201187E+01	1.59813198469E+02	4.66728356681E+00	1.79009680520E+02	-4.72947990512E+01	-5.32022910564E+01	-5.83834251844E+00	-6.42154196079E-01
6.99444382709E+05	-2.17084088482E+01	1.55115339343E+02	4.67592290866E+00	1.78727852934E+02	-4.36624326245E+01	3.46837844117E+00	-5.82503793620E+00	-3.00153354104E-01
7.21635737304E+05	-1.27466635771E+01	1.66688525013E+02	4.62406572486E+00	1.78592167289E+02	-4.60157578956E+01	7.78661405588E+01	-5.83771998468E+00	-5.34356317517E-01
7.43827091899E+05	-1.52962488280E+01	-1.58406967861E+02	4.70280635780E+00	1.78574558098E+02	-5.72262112502E+01	6.98958964478E+01	-5.82466905055E+00	-4.37302076630E-01
7.66018446494E+05	-1.64451414681E+01	1.67252149766E+02	4.64118850786E+00	1.78781324351E+02	-4.45332119837E+01	1.15143633944E+02	-5.82851065770E+00	-4.28779201093E-01
7.88209801089E+05	-1.93995847656E+01	1.75109779517E+02	4.64151593346E+00	1.78443997704E+02	-4.85157058382E+01	9.92212879842E-02	-5.84686847122E+00	-3.53801854768E-01
8.10401155684E+05	-2.14305683656E+01	-1.73908048901E+02	4.67221977318E+00	1.77956455736E+02	-5.03960246985E+01	-6.23704808015E+01	-5.85302761397E+00	-2.55405006264E-01
8.32592510279E+05	-1.45598810818E+01	1.57924562601E+02	4.59296743238E+00	1.78221549120E+02	-3.82812304713E+01	-5.19239823649E+00	-5.86489480540E+00	-5.07570972199E-01
8.54783864874E+05	-2.00457358878E+01	-1.39407723317E+02	4.68815484132E+00	1.78088209936E+02	-6.75610074246E+01	-1.01376788895E+01	-5.84287743440E+00	-5.78665289338E-01
8.76975219469E+05	-1.78055285860E+01	-9.54830673142E+01	4.63769196916E+00	1.77720612439E+02	-4.59207740899E+01	-3.36335373457E+01	-5.84794807579E+00	-3.84487101058E-01
8.99166574064E+05	-1.68936635127E+01	-1.70010991171E+02	4.61504578156E+00	1.77346044216E+02	-4.53516815683E+01	9.04948852497E+01	-5.84178826538E+00	-5.51340781115E-01
9.21357928659E+05	-2.03372986295E+01	-1.74544704789E+02	4.64574112166E+00	1.77674040602E+02	-5.29129747069E+01	-1.03717939886E+02	-5.84845920124E+00	-4.98837472374E-01
9.43549283254E+05	-3.02439010935E+01	1.29643827493E+02	4.67415867864E+00	1.77700499466E+02	-3.93949347762E+01	1.04335574148E+02	-5.82712877058E+00	-5.07763292402E-01
9.65740637849E+05	-1.56769466317E+01	-1.56408102311E+02	4.64978967236E+00	1.77000352956E+02	-4.46750937403E+01	-1.69709056366E+02	-5.83354719716E+00	-4.64464986434E-01
9.87931992444E+05	-1.60850945013E+01	-1.69732382336E+02	4.63759506672E+00	1.77214017007E+02	-4.00774471903E+01	4.19778845119E+01	-5.83032636427E+00	-6.36016087823E-01
1.01012334704E+06	-1.60590741916E+01	1.74467133207E+02	4.69381341142E+00	1.77269486527E+02	-4.63977352150E+01	6.12727595301E+00	-5.84250906441E+00	-5.89258202243E-01
1.03231470163E+06	-1.14814440343E+01	-1.76184494884E+02	4.62194976177E+00	1.76831078349E+02	-4.98621523942E+01	-1.35344384880E+02	-5.85845377059E+00	-4.77623234909E-01
1.05450605623E+06	-1.59010536371E+01	-1.79168798796E+02	4.63264147957E+00	1.77099104440E+02	-4.37050036827E+01	-1.70752493361E+02	-5.83267861074E+00	-5.66290722009E-01
1.07669741082E+06	-1.97338837941E+01	1.65047581341E+02	4.58737556177E+00	1.77196375254E+02	-5.37842929113E+01	-3.04510661827E+01	-5.86410665518E+00	-4.91378283995E-01
1.09888876542E+06	-1.94506037892E+01	-1.75467845905E+02	4.64448595925E+00	1.76707379392E+02	-5.45979934705E+01	-2.36309120144E+00	-5.83228951614E+00	-6.35924480603E-01
1.12108012001E+06	-1.89855248015E+01	1.70335527273E+02	4.63933432021E+00	1.76660730747E+02	-4.60705145803E+01	-7.37490062755E+01	-5.85172077850E+00	-5.17226327822E-01
1.14327147461E+06	-1.79575410086E+01	-1.78513701612E+02	4.65420256185E+00	1.76458377285E+02	-4.25719684292E+01	2.31006915578E+01	-5.83590025741E+00	-6.25474783393E-01
1.16546282920E+06	-2.32211468885E+01	1.30067974147E+02	4.69482308457E+00	1.76683328111E+02	-4.47631554500E+01	1.07916746597E+01	-5.86454604905E+00	-7.43468783898E-01
1.18765418380E+06	-1.73394190494E+01	1.44946491278E+02	4.61894672030E+00	1.76454457536E+02	-5.23394250012E+01	8.46925051909E+01	-5.85214580591E+00	-6.56713697133E-01
1.20984553839E+06	-1.94437081167E+01	1.76141359798E+02	4.64393971721E+00	1.76295569074E+02	-4.14092682257E+01	1.87914118156E+01	-5.85551714463E+00	-6.46031363003E-01
1.23203689299E+06	-1.83703813533E+01	1.70963256505E+02	4.62537314156E+00	1.76375303159E+02	-4.24318365640E+01	3.51999409810E+01	-5.84013959695E+00	-5.21976355074E-01
1.25422824758E+06	-2.19241088105E+01	-1.70294638715E+02	4.70999628192E+00	1.76102658114E+02	-4.80074387185E+01	-1.68745746153E+02	-5.84104703092E+00	-6.36894928118E-01
1.27641960218E+06	-1.80489495882E+01	-1.63310890916E+02	4.69273228157E+00	1.75868179329E+02	-4.84519481312E+01	-1.56169688695E+02	-5.84911454046E+00	-5.74661809184E-01
1.29861095677E+06	-1.53951903827E+01	1.73827591236E+02	4.65260053149E+00	1.75686491781E+02	-4.67321603920E+01	1.78203149546E+02	-5.83748645969E+00	-5.41267510670E-01
1.32080231137E+06	-2.31652326145E+01	-1.37042190963E+02	4.69998757554E+00	1.75650073182E+02	-4.42804334143E+01	5.37469058894E+01	-5.85386395085E+00	-9.66785859402E-01
1.34299366596E+06	-9.68657309418E+00	-1.66222143295E+02	4.68058675927E+00	1.75616840747E+02	-4.35634701639E+01	-7.84170372365E+01	-5.83031952190E+00	-6.57544833000E-01
1.36518502056E+06	-2.33030050830E+01	1.42654614239E+02	4.68228356941E+00	1.75273558524E+02	-4.81565718449E+01	-1.13549266444E+02	-5.85366610212E+00	-6.83293907080E-01
1.38737637515E+06	-1.35606529974E+01	1.63866436527E+02	4.64001483579E+00	1.75697184007E+02	-5.01281933791E+01	-5.96739839240E+01	-5.86983034147E+00	-4.89264509930E-01
1.40956772975E+06	-1.40807097918E+01	-1.74414074662E+02	4.64886290850E+00	1.74978306887E+02	-4.33818239696E+01	3.92077917565E+01	-5.85046076861E+00	-8.68160421056E-01
1.43175908434E+06	-1.67900021304E+01	-1.58815113702E+02	4.59852765495E+00	1.75380816275E+02	-4.64426161938E+01	-6.69858069583E+01	-5.85702118802E+00	-6.33816879430E-01
1.45395043894E+06	-2.09964355641E+01	1.47615181352E+02	4.67562480569E+00	1.75438054950E+02	-3.97681909784E+01	5.23126094732E+01	-5.86020316897E+00	-9.13218864140E-01
1.47614179353E+06	-1.40664188470E+01	1.67428998342E+02	4.62309832366E+00	1.75199174854E+02	-4.19194407388E+01	1.14100334256E+02	-5.83785401091E+00	-7.02001317283E-01
1.49833314813E+06	-1.70488812425E+01	1.67019142501E+02	4.62463307804E+00	1.74811033409E+02	-4.48158687621E+01	-1.54684564487E+02	-5.83524587970E+00	-6.15431129048E-01
1.52052450272E+06	-2.16854340141E+01	-1.36855927466E+02	4.67866660514E+00	1.75049103914E+02	-4.30163751115E+01	1.56960076413E+02	-5.81639513175E+00	-7.76271060004E-01
1.54271585732E+06	-1.74192423838E+01	-1.78325930013E+02	4.64149482300E+00	1.74752118793E+02	-5.00053668912E+01	-1.55315550198E+02	-5.84739654378E+00	-5.81251943296E-01
1.56490721191E+06	-1.97555545116E+01	1.46299906198E+02	4.66009003014E+00	1.75046243526E+02	-4.06308904634E+01	-1.71195568780E+02	-5.83445633225E+00	-8.67453971024E-01
1.58709856651E+06	-1.69854220251E+01	-1.52750632144E+02	4.62027050258E+00	1.74357007681E+02	-4.25486514665E+01	-3.66805201231E+01	-5.85682838971E+00	-7.69825028526E-01
1.60928992110E+06	-1.90200712472E+01	1.64832978677E+02	4.66451079224E+00	1.74342524371E+02	-3.95231499056E+01	-1.30731506591E+01	-5.85008763540E+00	-8.60927948513E-01
1.63148127570E+06	-2.05739428123E+01	1.60444879354E+02	4.68376732472E+00	1.74187288710E+02	-3.56303897345E+01	2.35284383405E+00	-5.87116777683E+00	-9.08121424865E-01
1.65367263029E+06	-1.15745019100E+01	1.50747258614E+02	4.61996299514E+00	1.74628901060E+02	-4.92781988763E+01	1.45782092431E+02	-5.83930552806E+00	-9.11384243259E-01
1.67586398489E+06	-2.21987891897E+01	1.67244264120E+02	4.65952359973E+00	1.74254031503E+02	-4.32648427554E+01	-9.17644005593E+01	-5.84309042754E+00	-8.83382100346E-01
1.69805533948E+06	-1.88545849350E+01	-1.69359963780E+02	4.63641811202E+00	1.74127321232E+02	-4.50520231747E+01	-5.32360081390E+01	-5.85386816737E+00	-8.09575652052E-01
1.72024669408E+06	-1.73482293132E+01	1.79808469940E+02	4.65080538195E+00	1.73996099087E+02	-4.94472727525E+01	-1.56720183139E+02	-5.82672002893E+00	-9.59778216484E-01
1.74243804867E+06	-2.02895934998E+01	1.67899907527E+02	4.67987830942E+00	1.74074018079E+02	-4.90137016106E+01	5.21820462353E+01	-5.83235510249E+00	-7.87532965129E-01
1.76462940327E+06	-1.86056318377E+01	-1.77213210799E+02	4.65535706842E+00	1.73578058740E+02	-4.16728576401E+01	-2.43323262545E+01	-5.84264173348E+00	-8.73424606906E-01
1.78682075786E+06	-1.67973648424E+01	-1.73358298268E+02	4.67830210550E+00	1.73508685482E+02	-4.26975542707E+01	-5.50939994396E+01	-5.83854153762E+00	-8.86841812574E-01
1.80901211246E+06	-1.65934557606E+01	1.63283242067E+02	4.61125275942E+00	1.73410761497E+02	-5.75861258059E+01	1.48477182646E+02	-5.83618260057E+00	-8.78953086483E-01
1.83120346705E+06	-1.15205871151E+01	1.43035574868E+02	4.66022587566E+00	1.73627397252E+02	-4.94662090560E+01	3.17003823126E+01	-5.85431745024E+00	-1.03000460781E+00
1.85339482165E+06	-2.22995648662E+01	-1.53533516782E+02	4.71647811491E+00	1.73331084342E+02	-4.64434979586E+01	-3.45326493658E+01	-5.87310316616E+00	-1.04730237054E+00
1.87558617624E+06	-1.97935639713E+01	-1.71074236816E+02	4.69928987116E+00	1.73361776731E+02	-4.60026334743E+01	-1.46921495717E+02	-5.85289636600E+00	-8.71358791666E-01
1.89777753084E+06	-1.91219099537E+01	-1.77069575576E+02	4.66335980938E+00	1.73136435132E+02	-4.85213071624E+01	1.63388897436E+02	-5.83848449718E+00	-9.28140829498E-01
1.91996888543E+06	-1.73100784178E+01	1.74147726171E+02	4.66260124812E+00	1.73303697677E+02	-4.00778475731E+01	-1.38305536330E+02	-5.82061877734E+00	-9.10223902002E-01
1.94216024003E+06	-1.79304688557E+01	-1.70815484936E+02	4.67501816423E+00	1.72777898814E+02	-3.77191266656E+01	-1.69269292725E+02	-5.84998294997E+00	-8.19202807515E-01
1.96435159462E+06	-2.40094471598E+01	1.61031185148E+02	4.65998328119E+00	1.73261110311E+02	-4.83274872605E+01	-8.74440235118E+01	-5.84266862051E+00	-8.94803507169E-01
1.98654294922E+06	-1.09781587037E+01	1.38114042654E+02	4.60269676395E+00	1.73018310735E+02	-4.78380899814E+01	-8.41462683338E+01	-5.84751502385E+00	-9.93830366289E-01
2.00873430381E+06	-1.96855372090E+01	-1.49436340244E+02	4.65010399925E+00	1.72761485758E+02	-4.11939322941E+01	2.86310117094E+01	-5.86232970395E+00	-1.06225884028E+00
2.03092565841E+06	-2.04272826332E+01	-1.64160365672E+02	4.67824397676E+00	1.72723984746E+02	-4.73260194060E+01	-4.88871206382E+01	-5.86053632049E+00	-1.09171855233E+00
2.05311701300E+06	-1.55740772633E+01	1.66563267887E+02	4.65822844400E+00	1.72460143126E+02	-4.29456994535E+01	1.08770394246E+02	-5.85002482078E+00	-1.09188745696E+00
2.07530836760E+06	-2.12964563391E+01	1.68507483638E+02	4.68131337740E+00	1.72294767397E+02	-4.14005337522E+01	1.54976430407E+02	-5.85570009798E+00	-9.76316973800E-01
2.09749972219E+06	-2.74760007190E+01	-1.74562313765E+02	4.68650657985E+00	1.72511601187E+02	-3.92758260720E+01	-1.66631645962E+02	-5.81670826957E+00	-1.02875698998E+00
2.11969107679E+06	-1.17586161626E+01	1.76057911524E+02	4.66391404339E+00	1.72023016993E+02	-3.87013999703E+01	-1.20959216114E+02	-5.84150318356E+00	-9.65347100058E-01
2.14188243138E+06	-5.53546889295E+00	-1.62486323569E+02	4.59371489880E+00	1.71244987674E+02	-5.02408079790E+01	-5.87917759090E+01	-5.84635740968E+00	-1.02619111621E+00
2.16407378598E+06	-1.86297353546E+01	-1.77554754727E+02	4.67311488717E+00	1.72383112599E+02	-4.34640268387E+01	-4.98583478677E+01	-5.84480525963E+00	-9.92601985671E-01
2.18626514057E+06	-2.23150771205E+01	1.33739334603E+02	4.67423866297E+00	1.72566346482E+02	-4.11049251308E+01	5.99886449352E+01	-5.83419978371E+00	-1.32860271648E+00
2.20845649517E+06	-1.39384911634E+01	-1.50618183891E+02	4.67614358999E+00	1.71508931798E+02	-4.92312373430E+01	6.88511588798E+01	-5.83099297998E+00	-1.05655560514E+00
2.23064784976E+06	-1.97480464776E+01	-1.70876569226E+02	4.71467080872E+00	1.71868010218E+02	-4.27991135327E+01	-1.91046993107E+01	-5.84550268627E+00	-1.08412889109E+00
2.25283920436E+06	-1.95107929637E+01	-1.57583481401E+02	4.71175430686E+00	1.71780479259E+02	-3.22864340263E+01	-1.41074500885E+02	-5.84508067692E+00	-7.96704610878E-01
2.27503055895E+06	-1.49217063475E+01	1.60560569826E+02	4.59681321423E+00	1.71759265800E+02	-5.08492309307E+01	-1.72684791191E+02	-5.82974237641E+00	-1.16050310875E+00
2.29722191355E+06	-2.73234077239E+01	-9.03528223909E+01	4.70065453153E+00	1.71666656568E+02	-4.68492610002E+01	-5.63772441949E+01	-5.83873952688E+00	-1.12034715972E+00
2.31941326814E+06	-1.79819721826E+01	-1.55565386455E+02	4.68928976171E+00	1.71536786850E+02	-4.71278047048E+01	-1.37520869733E+02	-5.85353503656E+00	-1.07188956071E+00
2.34160462274E+06	-1.83145310746E+01	-1.73759436198E+02	4.70775625815E+00	1.71338937937E+02	-4.26851993055E+01	3.47626778866E+01	-5.85946513610E+00	-1.09497824091E+00
2.36379597733E+06	-1.80970798111E+01	-1.64415573580E+02	4.68037969146E+00	1.71362658553E+02	-4.02569805471E+01	9.20810035183E+01	-5.82211858367E+00	-1.34558242279E+00
2.38598733193E+06	-1.74387661410E+01	1.58159823396E+02	4.64011255661E+00	1.71051052763E+02	-4.35191970371E+01	1.33285862144E+02	-5.86104634140E+00	-1.14434361609E+00
2.40817868652E+06	-1.79510790465E+01	-1.64722746409E+02	4.69977904375E+00	1.71080291147E+02	-3.52726428961E+01	1.43462209242E+02	-5.82289999247E+00	-1.12568903131E+00
2.43037004112E+06	-1.71108429315E+01	-1.56454342551E+02	4.67789615161E+00	1.70986875657E+02	-4.70976710084E+01	7.15725650872E+01	-5.85575367629E+00	-1.52098671723E+00
2.45256139571E+06	-9.30784722219E+00	-3.18309883938E+01	4.82665781019E+00	1.71999685499E+02	-4.63411223347E+01	1.16484132399E+02	-5.85872498255E+00	-1.33003731710E+00
2.47475275031E+06	-1.86501034300E+01	-1.65214965955E+02	4.68063975656E+00	1.70902463076E+02	-4.95348952700E+01	-1.30964535967E+02	-5.86010390659E+00	-1.03290250352E+00
2.49694410490E+06	-1.76462870677E+01	-1.41514322562E+02	4.74047027884E+00	1.70884400248E+02	-5.09928003105E+01	-5.73270388997E+01	-5.85949270781E+00	-1.31580471374E+00
2.51913545950E+06	-1.83104073252E+01	-1.78624844182E+02	4.69696813654E+00	1.70751553009E+02	-4.78634292837E+01	-6.03568577312E+01	-5.86064753356E+00	-1.13752326940E+00
2.54132681409E+06	-1.83816428440E+01	-1.51114461791E+02	4.68036094282E+00	1.70340626016E+02	-4.79744949496E+01	5.06926359203E+01	-5.84513382531E+00	-1.17934608780E+00
2.56351816869E+06	-1.55632355506E+01	-1.73511950612E+02	4.69719847204E+00	1.70357811219E+02	-3.70911140008E+01	1.59806081641E+02	-5.83940260540E+00	-1.06827512560E+00
2.58570952328E+06	-1.34595769591E+01	-1.48270252841E+02	4.67713850667E+00	1.70024969569E+02	-4.53482701177E+01	2.79180473936E+01	-5.84455771701E+00	-1.30399238382E+00
2.60790087788E+06	-8.73625555994E+00	-1.38280454853E+02	4.74150071812E+00	1.69828742429E+02	-4.66183033256E+01	1.43487960385E+02	-5.81634816386E+00	-1.30706536680E+00
2.63009223247E+06	-1.61443458312E+01	1.69516374553E+02	4.69834388708E+00	1.70243634693E+02	-5.02238975907E+01	1.10178224376E+02	-5.84182411131E+00	-9.85353915274E-01
2.65228358707E+06	-1.67644807683E+01	-1.60282174581E+02	4.68799458608E+00	1.70301692999E+02	-5.95156017876E+01	1.34709351322E+02	-5.84701575283E+00	-1.37170593655E+00
2.67447494166E+06	-2.10020017319E+01	-1.31646021353E+02	4.73492568723E+00	1.70123646050E+02	-4.66732734729E+01	-6.80219092281E+01	-5.84385701673E+00	-1.20911703021E+00
2.69666629626E+06	-2.00390813472E+01	-1.38480005822E+02	4.69447809298E+00	1.70173778686E+02	-4.33195686599E+01	1.16531788299E+02	-5.85251839134E+00	-1.32347667612E+00
2.71885765085E+06	-1.88159227945E+01	1.78689546236E+02	4.67326821239E+00	1.69912112622E+02	-3.97436168935E+01	-1.67120471823E+02	-5.83615434433E+00	-1.17200476106E+00
2.74104900545E+06	-1.65551243862E+01	-1.76336908999E+02	4.64790103671E+00	1.69757333103E+02	-4.52833736967E+01	-5.84172011939E+01	-5.82733569512E+00	-1.38002812845E+00
2.76324036004E+06	-1.20674873696E+01	-1.72884592903E+02	4.67478775829E+00	1.69240088320E+02	-4.32991867082E+01	-1.74330224816E+02	-5.83017339852E+00	-1.42785863114E+00
2.78543171463E+06	-1.70486214322E+01	1.72464940881E+02	4.72308210747E+00	1.69618063933E+02	-4.68439492478E+01	-1.15386372940E+01	-5.85318054347E+00	-1.22501766090E+00
2.80762306923E+06	-1.83581305171E+01	-1.55626803324E+02	4.72764986694E+00	1.69516221481E+02	-4.67558766652E+01	1.34258117767E+02	-5.82312853600E+00	-1.64485299314E+00
2.82981442382E+06	-1.65642547133E+01	1.79989107393E+02	4.68828377013E+00	1.69676269718E+02	-4.44848813040E+01	-7.51303942532E+01	-5.86590129846E+00	-1.34301077872E+00
2.85200577842E+06	-1.62934963208E+01	-1.71219590330E+02	4.70093930402E+00	1.69430149761E+02	-4.69805199871E+01	-1.48202838367E+02	-5.84364554062E+00	-1.22750196150E+00
2.87419713301E+06	-1.52157172735E+01	-1.75643405296E+02	4.65524090851E+00	1.69024761510E+02	-4.40442583211E+01	7.01995021137E+01	-5.84560387896E+00	-1.58677866431E+00
