# Hz S DB R 50
! CMT, M5065, 19127446, 24.2.4/2
! Date: 11/8/2024 3:54:00 PM
! Data: Format (Calibration Info)
! Freq	S11:dB/Ang(F2)	S21:dB/Ang(F2)	S12:dB/Ang(F2)	S22:dB/Ang(F2)
3.00000000000E+05	-1.73156473668E+01	-1.48339279008E+02	6.75644288602E+00	-1.77796980096E+02	-4.39136952842E+01	1.73327094771E+02	-5.85428323407E+00	-2.35465869086E-01
3.22191354595E+05	-3.11007846221E+01	1.47066486368E+02	6.82198285909E+00	-1.77798948960E+02	-4.00594903516E+01	-7.97242681091E+00	-5.85196064411E+00	-1.90962066814E-01
3.44382709190E+05	-1.74220065900E+01	1.56648881837E+02	6.76263241821E+00	-1.78156288617E+02	-4.00516139932E+01	5.88204527319E+01	-5.85435373963E+00	-4.63485263261E-01
3.66574063785E+05	-1.67029292467E+01	-1.58267086234E+02	6.78721292530E+00	-1.78547143923E+02	-4.56934343895E+01	-1.03389442338E+02	-5.84557938409E+00	-2.29355560848E-01
3.88765418380E+05	-1.52489380793E+01	1.73286201481E+02	6.75124579017E+00	-1.78989154631E+02	-4.34048671823E+01	4.62060896053E+01	-5.85292310523E+00	-4.01203479511E-01
4.10956772975E+05	-1.56032213922E+01	1.51555698036E+02	6.75190886506E+00	-1.78915174409E+02	-4.30406636123E+01	5.52024468488E+01	-5.82455894595E+00	-4.70434034085E-01
4.33148127570E+05	-1.99566597162E+01	-1.64126905482E+02	6.75408616979E+00	-1.79487139456E+02	-4.02314320883E+01	2.42750712129E+00	-5.85155812766E+00	-4.29188116879E-01
4.55339482165E+05	-2.07337258780E+01	1.52780496956E+02	6.81802839504E+00	-1.79363447393E+02	-4.48793644671E+01	-5.64789968873E+01	-5.85342698681E+00	-3.15173773051E-01
4.77530836760E+05	-1.76313787380E+01	1.68727819646E+02	6.73505455247E+00	-1.79731619090E+02	-4.33269509833E+01	-4.08623891215E+01	-5.83673621876E+00	-3.93052215008E-01
4.99722191355E+05	-2.21460838867E+01	1.71719395093E+02	6.82192705715E+00	-1.79919248698E+02	-4.27856560736E+01	-9.94208233788E+01	-5.83971552697E+00	-2.22818021651E-01
5.21913545950E+05	-1.23426526239E+01	-1.62546012048E+02	6.74602328798E+00	1.79639802555E+02	-4.97118956492E+01	-4.03835728315E+01	-5.84487448073E+00	-2.52140298021E-01
5.44104900545E+05	-1.58464457561E+01	-1.78557991209E+02	6.74651811388E+00	1.79558740056E+02	-4.04479980415E+01	7.70890132159E+01	-5.83891473040E+00	-6.03328514957E-01
5.66296255139E+05	-2.05968137854E+01	1.53689027303E+02	6.80936375991E+00	1.79898592363E+02	-4.93508299329E+01	8.20436226092E+01	-5.83813485965E+00	-3.62483988730E-01
5.88487609734E+05	-1.60981804399E+01	1.60462097736E+02	6.77841249249E+00	1.79456372659E+02	-2.90980994886E+01	-1.67692777213E+02	-5.81308868375E+00	-3.17379657781E-01
6.10678964329E+05	-1.30588328743E+01	1.41633665096E+02	6.77134814341E+00	1.79582141570E+02	-4.24521659942E+01	-1.76909405311E+02	-5.81849133461E+00	1.28746869841E-01
6.32870318924E+05	-1.37384397190E+01	-1.32332781150E+02	6.77846705912E+00	1.78693597408E+02	-4.27930382626E+01	-5.19390782975E+01	-5.86336433362E+00	-8.61194399450E-02
6.55061673519E+05	-1.49315895568E+01	1.49320645159E+02	6.82105739450E+00	1.79012349360E+02	-4.55444124841E+01	4.16247118756E+01	-5.84861759798E+00	-3.15227869557E-01
6.77253028114E+05	-1.46198287390E+01	-1.62947658155E+02	6.79729582038E+00	1.78502422923E+02	-4.25861081742E+01	-1.69415419487E+02	-5.82700788501E+00	-5.67297367233E-01
6.99444382709E+05	-1.63572834361E+01	-1.74247945743E+02	6.80408579968E+00	1.78446649721E+02	-4.88258850961E+01	-1.66928924708E+02	-5.83510228745E+00	-3.65017952254E-01
7.21635737304E+05	-1.68067026500E+01	-1.68600208799E+02	6.76883076054E+00	1.78398537771E+02	-5.44688505454E+01	-1.33794005468E+02	-5.85311661974E+00	-4.45596739199E-01
7.43827091899E+05	-1.76536290772E+01	1.69181236974E+02	6.80444759041E+00	1.78351354637E+02	-4.27482718511E+01	-1.53417786732E+02	-5.84955948067E+00	-4.50031276625E-01
7.66018446494E+05	-1.86083867074E+01	1.52451842607E+02	6.82187666568E+00	1.78217392783E+02	-4.75136326155E+01	-9.89999606600E+01	-5.83152782219E+00	-3.13578167442E-01
7.88209801089E+05	-1.12825750796E+01	-1.74614087200E+02	6.76597018093E+00	1.77965749275E+02	-4.92977245636E+01	1.60752472995E+02	-5.86340991484E+00	-5.27543743266E-01
8.10401155684E+05	-2.09719267243E+01	-1.77527428513E+02	6.81703148512E+00	1.77923937832E+02	-4.34382496985E+01	-1.84061432635E+01	-5.87245257728E+00	-5.50432044609E-01
8.32592510279E+05	-2.08059272664E+01	-1.65436502856E+02	6.84343282861E+00	1.77830041886E+02	-4.75390448324E+01	-8.19045563683E+01	-5.82851505024E+00	-4.93212417045E-01
8.54783864874E+05	-1.77484710830E+01	1.60686516829E+02	6.78727558499E+00	1.77722400375E+02	-3.86706290476E+01	-4.20477956196E+01	-5.86806185033E+00	-4.76294930025E-01
8.76975219469E+05	-1.74752892585E+01	1.78985664075E+02	6.82827169509E+00	1.77397246228E+02	-4.02767617237E+01	-3.14313489536E+01	-5.84877451129E+00	-4.29604384804E-01
8.99166574064E+05	-1.77038638657E+01	1.62629293947E+02	6.79773334764E+00	1.77389235686E+02	-4.04330742567E+01	-1.09760131476E+02	-5.84223548155E+00	-3.20252803110E-01
9.21357928659E+05	-1.32517541394E+01	1.71644866742E+02	6.78664212532E+00	1.77158944714E+02	-4.57812457307E+01	-3.50317554265E+01	-5.82733740521E+00	-4.35835938256E-01
9.43549283254E+05	-1.64955909660E+01	1.36367842314E+02	6.81515611082E+00	1.77166944177E+02	-5.29635932697E+01	1.36780904812E+02	-5.84435214599E+00	-5.82443413828E-01
9.65740637849E+05	-1.41172446416E+01	1.53579712377E+02	6.78427090300E+00	1.77199647824E+02	-5.83454494024E+01	-1.05297960655E+02	-5.83435379188E+00	-4.21341193077E-01
9.87931992444E+05	-1.75489932566E+01	1.76360173819E+02	6.82168775951E+00	1.76683985406E+02	-4.77996149780E+01	3.84133213365E+01	-5.88027440950E+00	-6.77423014570E-01
1.01012334704E+06	-1.71109343543E+01	-1.71060140132E+02	6.79842595427E+00	1.76782132020E+02	-4.57366619035E+01	1.44844203087E+02	-5.83421708021E+00	-5.44329738496E-01
1.03231470163E+06	-1.72565721658E+01	-1.61491916008E+02	6.83795872808E+00	1.76749073593E+02	-4.38402513580E+01	-7.79627714185E+00	-5.85730773396E+00	-6.23773117768E-01
1.05450605623E+06	-2.22187161008E+01	1.59936068780E+02	6.82595794709E+00	1.76837350603E+02	-4.91091687277E+01	-1.08092382680E+01	-5.83675590592E+00	-6.69963312773E-01
1.07669741082E+06	-1.92318327467E+01	1.24122784644E+02	6.81895939286E+00	1.76633016025E+02	-3.74109420085E+01	1.16302687030E+02	-5.82666506672E+00	-6.03736440178E-01
1.09888876542E+06	-2.06513421124E+01	-1.47156255382E+02	6.79247202434E+00	1.75996360290E+02	-4.34331720350E+01	-7.83072492470E+01	-5.83431600138E+00	-6.22312574725E-01
1.12108012001E+06	-1.35445017748E+01	1.73095370537E+02	6.76789020367E+00	1.76280239029E+02	-4.11474345723E+01	-1.66694165772E+02	-5.83096456367E+00	-6.09396581410E-01
1.14327147461E+06	-1.45548006418E+01	1.69693240225E+02	6.76399652991E+00	1.76093210436E+02	-4.94397115964E+01	-1.26050951594E+02	-5.82488319333E+00	-6.45297935915E-01
1.16546282920E+06	-1.61652729506E+01	-1.52778321572E+02	6.76511970825E+00	1.75677594482E+02	-4.95910109637E+01	-1.04901558223E+02	-5.83432382970E+00	-5.70187723767E-01
1.18765418380E+06	-1.57265665495E+01	1.67527667721E+02	6.79438004579E+00	1.75726769748E+02	-4.47777030870E+01	-1.07640215796E+02	-5.85827236414E+00	-5.02056046240E-01
1.20984553839E+06	-1.66334268148E+01	-1.78004706045E+02	6.75623240549E+00	1.75586448237E+02	-4.82262123170E+01	-1.26956749697E+02	-5.85785001990E+00	-7.22872465701E-01
1.23203689299E+06	-1.45213872573E+01	-1.78771897640E+02	6.80312167664E+00	1.75539828956E+02	-4.40720542789E+01	-1.07348807228E+02	-5.83968873220E+00	-4.00753654060E-01
1.25422824758E+06	-1.64788419788E+01	1.41237998607E+02	6.78500085765E+00	1.75862911417E+02	-4.27057701108E+01	1.68796495676E+02	-5.84014789910E+00	-5.83973579761E-01
1.27641960218E+06	-1.49592041627E+01	1.51979169090E+02	6.79065223609E+00	1.75484812228E+02	-4.09322605154E+01	5.79433628080E+01	-5.84588482877E+00	-7.73120763414E-01
1.29861095677E+06	-2.21516150090E+01	1.74508689748E+02	6.81921420786E+00	1.75400039865E+02	-4.81588449920E+01	6.18152268753E+01	-5.83657287214E+00	-7.36703242316E-01
1.32080231137E+06	-1.54577764995E+01	-1.52152294345E+02	6.79272890413E+00	1.74916466019E+02	-5.36873882506E+01	-1.33074702946E+02	-5.83539231717E+00	-1.05899327598E+00
1.34299366596E+06	-1.86046251750E+01	-1.68842142090E+02	6.83337130919E+00	1.74968848055E+02	-4.33876141832E+01	-1.43797302986E+02	-5.83710474434E+00	-6.04276743087E-01
1.36518502056E+06	-1.62198446538E+01	-1.52250462927E+02	6.78190335744E+00	1.74874844852E+02	-3.99261662752E+01	4.98246979514E+00	-5.87087635333E+00	-7.27248670136E-01
1.38737637515E+06	-1.31059201510E+01	-1.69879942487E+02	6.80301795800E+00	1.74560859458E+02	-4.65733750327E+01	1.16927079448E+02	-5.85283119445E+00	-6.89197352963E-01
1.40956772975E+06	-1.20550325832E+01	1.39304880392E+02	6.76726139695E+00	1.75094376014E+02	-5.56312564204E+01	1.26046328495E+02	-5.83836416841E+00	-8.05223592687E-01
1.43175908434E+06	-1.86522966219E+01	1.09088967827E+02	6.77489952217E+00	1.74957469440E+02	-5.07848286869E+01	-6.64606127154E+01	-5.85252804569E+00	-8.43927567082E-01
1.45395043894E+06	-1.45387785433E+01	1.71783365697E+02	6.77031888337E+00	1.74563072371E+02	-3.83809409052E+01	-6.72916913832E+01	-5.84315519538E+00	-4.69565829386E-01
1.47614179353E+06	-1.76501555003E+01	-1.72018260885E+02	6.82756728542E+00	1.74415166327E+02	-4.28996237721E+01	-1.27252602050E+02	-5.84060409863E+00	-6.38470303264E-01
1.49833314813E+06	-1.64236218664E+01	-1.39588374338E+02	6.81222745454E+00	1.74047881082E+02	-5.18929350484E+01	1.49299808037E+02	-5.83064443495E+00	-6.73994914625E-01
1.52052450272E+06	-1.70057258626E+01	-1.52409056144E+02	6.79522270882E+00	1.74182607577E+02	-4.41158864885E+01	-8.98872028552E+00	-5.85146443215E+00	-6.70350262039E-01
1.54271585732E+06	-1.84360502191E+01	-1.70610968271E+02	6.78687252664E+00	1.74002838101E+02	-4.01902700946E+01	3.50782152626E+01	-5.85711278029E+00	-8.33687765045E-01
1.56490721191E+06	-1.68855048122E+01	-1.79880343882E+02	6.79274880051E+00	1.73994444056E+02	-4.17304874947E+01	-7.93505919835E+01	-5.85213100306E+00	-8.00584937981E-01
1.58709856651E+06	-1.01168851065E+01	1.54457304343E+02	6.73879159510E+00	1.73812039296E+02	-4.87410592928E+01	7.36918886654E+01	-5.83771031133E+00	-9.22408249567E-01
1.60928992110E+06	-1.69107309167E+01	-1.76824010132E+02	6.81605898582E+00	1.73616598402E+02	-3.78100391298E+01	-1.06258827717E+02	-5.83853255272E+00	-6.68421053849E-01
1.63148127570E+06	-1.71500251031E+01	1.75000145881E+02	6.79546538954E+00	1.73928592996E+02	-5.69287178521E+01	1.06887790270E+02	-5.85322365115E+00	-7.36050715883E-01
1.65367263029E+06	-1.63834812521E+01	1.70383440442E+02	6.79015230241E+00	1.73873342508E+02	-4.49262946029E+01	-1.37264632764E+02	-5.83079919189E+00	-8.48235785459E-01
1.67586398489E+06	-1.53834144168E+01	-1.78482610413E+02	6.81085394545E+00	1.73552447562E+02	-3.92416590955E+01	-1.05317614113E+02	-5.85033342120E+00	-7.95235758827E-01
1.69805533948E+06	-1.41768478886E+01	1.58166016281E+02	6.77543054917E+00	1.73303242845E+02	-3.40369363863E+01	3.36141357134E+01	-5.82671250213E+00	-9.64701768460E-01
1.72024669408E+06	-1.30819614302E+01	-1.69215310664E+02	6.81904325392E+00	1.73133946796E+02	-4.51995247472E+01	-6.54571029080E+01	-5.85261964691E+00	-9.01385210018E-01
1.74243804867E+06	-7.28381543876E+00	1.73160996282E+02	6.73261157738E+00	1.72765619304E+02	-5.22490682135E+01	-8.09210607372E+01	-5.84983200589E+00	-8.64251543328E-01
1.76462940327E+06	-1.75070819176E+01	1.54603697353E+02	6.80908966821E+00	1.73271117381E+02	-5.68665767390E+01	-1.23433778929E+02	-5.82760244740E+00	-9.00938910493E-01
1.78682075786E+06	-1.88420753896E+01	-1.71546055558E+02	6.81679805853E+00	1.72878516807E+02	-4.80593048145E+01	2.65028600900E+01	-5.85395535135E+00	-9.94888229777E-01
1.80901211246E+06	-1.64606287135E+01	-1.79552332145E+02	6.80459878458E+00	1.72595773367E+02	-6.47309690488E+01	1.74771271213E+02	-5.82440968772E+00	-9.15085934925E-01
1.83120346705E+06	-2.41041681024E+01	-1.66233280193E+02	6.85982238287E+00	1.73064763897E+02	-3.65083208167E+01	1.09316976997E+02	-5.79986749873E+00	-9.98746701168E-01
1.85339482165E+06	-1.70412541211E+01	-1.71709806985E+02	6.86185821391E+00	1.72661808881E+02	-3.83247711420E+01	-7.96246208390E+01	-5.85228660424E+00	-8.99295072114E-01
1.87558617624E+06	-1.46006760907E+01	-9.40198522090E+01	6.83767040981E+00	1.72292286542E+02	-5.10730283573E+01	-1.61281908984E+02	-5.85672014897E+00	-9.17331689461E-01
1.89777753084E+06	-1.83679963251E+01	-1.15675016993E+02	6.83085512373E+00	1.72272252094E+02	-4.26749532498E+01	-8.76551324338E+01	-5.85217472472E+00	-8.89784376223E-01
1.91996888543E+06	-1.83520483981E+01	1.69683942761E+02	6.79581094667E+00	1.72628778539E+02	-4.41946600524E+01	9.79025407006E+01	-5.84158198551E+00	-9.25060989000E-01
1.94216024003E+06	-1.69395548982E+01	-1.75408057182E+02	6.79291398088E+00	1.72213808603E+02	-6.30802880956E+01	-2.40759655517E+01	-5.84795565529E+00	-9.83059134512E-01
1.96435159462E+06	-2.43453248601E+01	-1.36416399807E+02	6.85176365974E+00	1.71893818321E+02	-5.38197047720E+01	-1.16692414847E+01	-5.84434946917E+00	-9.52776384418E-01
1.98654294922E+06	-1.91546725459E+01	1.56952270360E+02	6.79278508282E+00	1.72091759311E+02	-3.80325580285E+01	-9.08233031180E+00	-5.83153974937E+00	-1.08592848842E+00
2.00873430381E+06	-1.51646562343E+01	-1.68624403906E+02	6.82339693011E+00	1.71937507557E+02	-3.66560489982E+01	-5.39763336602E+01	-5.88531385496E+00	-9.46136958272E-01
2.03092565841E+06	-1.77958142304E+01	1.29159612061E+02	6.83250867496E+00	1.72332204508E+02	-5.09963488523E+01	-3.99178077539E+01	-5.85250564110E+00	-9.92162624957E-01
2.05311701300E+06	-1.62878199756E+01	1.35502880392E+02	6.77034365447E+00	1.71809514890E+02	-5.59054602895E+01	4.44627104974E+01	-5.85405207438E+00	-1.14830037618E+00
2.07530836760E+06	-2.03162176023E+01	-1.32049705897E+02	6.83362029313E+00	1.71791355655E+02	-4.99841994061E+01	-3.09848314654E+01	-5.85148670873E+00	-1.08486161371E+00
2.09749972219E+06	-1.74904316437E+01	1.41618055614E+02	6.82844447358E+00	1.71691240033E+02	-4.08028045558E+01	1.23867198658E+02	-5.84900710784E+00	-1.06501874796E+00
2.11969107679E+06	-1.66934418757E+01	-1.56955921341E+02	6.82692106200E+00	1.71226517964E+02	-3.78915067471E+01	5.07229180695E+01	-5.84232825280E+00	-1.12312817443E+00
2.14188243138E+06	-2.13275731967E+01	-1.65813877002E+02	6.81851402991E+00	1.71145721499E+02	-3.96686532634E+01	-1.60413696927E+02	-5.82220231438E+00	-9.66900455654E-01
2.16407378598E+06	-1.81416709806E+01	-1.67126397062E+02	6.76736809138E+00	1.71098677824E+02	-3.40724587274E+01	-1.77166480787E+02	-5.83716634939E+00	-8.34090842411E-01
2.18626514057E+06	-1.78524497907E+01	-1.52412813852E+02	6.82911143791E+00	1.71222077727E+02	-4.41585575673E+01	1.02250912096E+02	-5.84351612926E+00	-1.21495555045E+00
2.20845649517E+06	-7.18298274273E+00	-1.79028420395E+02	6.80099192530E+00	1.70330108121E+02	-4.91057572413E+01	3.86426677737E+01	-5.87562369714E+00	-1.09925433705E+00
2.23064784976E+06	-1.82276566773E+01	-1.79455762005E+02	6.84654300324E+00	1.70895243576E+02	-4.69760584418E+01	1.29926550616E+02	-5.81440200486E+00	-1.20437545783E+00
2.25283920436E+06	-1.91734549114E+01	-1.65662362545E+02	6.81464248143E+00	1.70516198397E+02	-4.18944415491E+01	-1.40488480584E+02	-5.84323236174E+00	-1.09622958980E+00
2.27503055895E+06	-1.62068710482E+01	1.70498429812E+02	6.81538897100E+00	1.70766200976E+02	-4.72020091805E+01	-8.83211391022E+01	-5.83992436990E+00	-9.58546643036E-01
2.29722191355E+06	-1.57572007010E+01	1.65503905975E+02	6.80726010752E+00	1.70778151617E+02	-3.92549580954E+01	-7.84682853584E+01	-5.83737315840E+00	-7.66145684206E-01
2.31941326814E+06	-2.02965908348E+01	-1.60405605565E+02	6.82873160884E+00	1.70328757600E+02	-4.12409890438E+01	1.28285633024E+02	-5.85420427032E+00	-1.09332076298E+00
2.34160462274E+06	-2.05629423135E+01	-1.60908334590E+02	6.85012229121E+00	1.70689164611E+02	-4.24639639307E+01	7.05951206960E+01	-5.82866549463E+00	-1.31067041963E+00
2.36379597733E+06	-1.04306571618E+01	-1.52632430364E+02	6.85332958658E+00	1.69895545751E+02	-4.49232787341E+01	-1.64032686115E+02	-5.85318054279E+00	-1.11525553916E+00
2.38598733193E+06	-1.94825763880E+01	1.55396580093E+02	6.79538019149E+00	1.70289034620E+02	-4.96086611069E+01	2.25657218267E+01	-5.87039141886E+00	-1.30776799778E+00
2.40817868652E+06	-1.59045421910E+01	-1.42252290817E+02	6.81689360296E+00	1.70014787573E+02	-4.83264721576E+01	2.18197979989E+01	-5.84232742723E+00	-1.25740254771E+00
2.43037004112E+06	-1.76679136099E+01	-1.76122106058E+02	6.81478619591E+00	1.70084303424E+02	-5.24024667325E+01	-1.75078237939E+02	-5.84049311900E+00	-1.63180275541E+00
2.45256139571E+06	-2.19101211144E+01	-1.76584929519E+02	6.83953619163E+00	1.69976519742E+02	-4.47600145437E+01	-1.58665119456E+02	-5.84816260523E+00	-1.22931718013E+00
2.47475275031E+06	-1.68245224725E+01	1.76208534610E+02	6.80023615305E+00	1.70222909709E+02	-3.84522966772E+01	9.11973112222E+01	-5.81821426965E+00	-1.28122021574E+00
2.49694410490E+06	-1.42882441399E+01	1.75999444972E+02	6.81172994381E+00	1.69610875349E+02	-4.50253477453E+01	9.08416643537E+01	-5.84022046813E+00	-1.24259161076E+00
2.51913545950E+06	-1.24066276818E+01	-1.71359507564E+02	6.77629307734E+00	1.69422450782E+02	-4.53685393933E+01	-1.28465768153E+02	-5.84431794828E+00	-1.20837378983E+00
2.54132681409E+06	-1.76636046529E+01	-1.57682042099E+02	6.82752500334E+00	1.69573470147E+02	-4.82329495197E+01	-3.82265020132E+01	-5.85593738207E+00	-1.31007432782E+00
2.56351816869E+06	-2.37569549619E+01	-1.40063546304E+02	6.84270889497E+00	1.69601184931E+02	-4.76822495587E+01	7.29614705932E+01	-5.83673354417E+00	-1.20204734811E+00
2.58570952328E+06	-1.78940417796E+01	-1.76495064723E+02	6.88754545749E+00	1.69348172859E+02	-5.28302004352E+01	2.43641764426E+01	-5.85997099504E+00	-1.28071824025E+00
2.60790087788E+06	-1.67991160295E+01	1.76771992187E+02	6.79293145890E+00	1.69564411111E+02	-3.82242779438E+01	1.78204412971E+02	-5.82026158741E+00	-1.13646933256E+00
2.63009223247E+06	-2.02668404571E+01	-1.79175871860E+02	6.83177696339E+00	1.69081230258E+02	-3.91377834454E+01	1.22559356865E+02	-5.83155736370E+00	-7.21248515310E-01
2.65228358707E+06	-1.67418847812E+01	1.44242450129E+02	6.81484752235E+00	1.69477405027E+02	-4.49025997227E+01	-1.30646111397E+02	-5.84057794507E+00	-1.24492443682E+00
2.67447494166E+06	-9.93599558166E+00	1.55804622218E+02	6.75735670852E+00	1.68584675732E+02	-5.84795612247E+01	-1.64950845315E+02	-5.83169431717E+00	-1.19999565564E+00
2.69666629626E+06	-2.01810920940E+01	-1.35682288144E+02	6.91028605588E+00	1.68846696595E+02	-5.12818248283E+01	-1.32894276866E+02	-5.84837477297E+00	-1.41656774117E+00
2.71885765085E+06	-1.59953299123E+01	-1.62203689697E+02	6.85552621774E+00	1.68649730468E+02	-4.84960760021E+01	1.55511254689E+02	-5.83279450760E+00	-1.31182064415E+00
2.74104900545E+06	-1.14712079617E+01	-1.70739859784E+02	6.86018993422E+00	1.68579876295E+02	-5.40280677346E+01	8.97412352880E+01	-5.85443534647E+00	-1.37825878315E+00
2.76324036004E+06	-1.64644317269E+01	-1.41381058478E+02	6.91188850964E+00	1.68505675201E+02	-5.27528749778E+01	4.08652765221E+01	-5.84217445646E+00	-1.47041336929E+00
2.78543171463E+06	-2.04719143711E+01	1.71526591189E+02	6.86688227500E+00	1.68451356753E+02	-3.52005960281E+01	-1.28882134979E+02	-5.86915067828E+00	-1.22155642750E+00
2.80762306923E+06	-1.49292014625E+01	-1.39032894558E+02	6.85651471343E+00	1.68180934463E+02	-5.10431892117E+01	-1.07503062188E+02	-5.83957727034E+00	-1.36254022213E+00
2.82981442382E+06	-2.54579724216E+01	1.09156325341E+02	6.84379060931E+00	1.68796092069E+02	-5.18226963905E+01	-1.23642388579E+02	-5.84425598569E+00	-1.30893886319E+00
2.85200577842E+06	-2.03091974855E+01	-1.30169741844E+02	6.88604765510E+00	1.68229043496E+02	-4.43762585315E+01	1.09056623966E+02	-5.84143116749E+00	-1.40740548425E+00
2.87419713301E+06	-1.81198400255E+01	1.75233570418E+02	6.85715555880E+00	1.68213962694E+02	-4.43692009595E+01	-5.45705988832E+01	-5.86607199865E+00	-1.42364454887E+00
