# Hz S DB R 50
! CMT, M5065, 19127446, 24.2.4/2
! Date: 11/8/2024 4:09:09 PM
! Data: Format (Calibration Info)
! Freq	S11:dB/Ang(F2)	S21:dB/Ang(F2)	S12:dB/Ang(F2)	S22:dB/Ang(F2)
3.00000000000E+05	-1.45897233549E+01	-1.64786398628E+02	1.33551532771E+01	-1.77201868373E+02	-4.03339225314E+01	-1.49447546684E+02	-5.80961013245E+00	-1.26651973159E-01
3.22191354595E+05	-1.81295902133E+01	-1.78659976511E+02	1.34169895596E+01	-1.77700639121E+02	-5.61489346154E+01	-1.30562094359E+02	-5.84041872091E+00	-2.05393148967E-01
3.44382709190E+05	-2.41875604730E+01	-1.78424496738E+02	1.34043714842E+01	-1.78062420617E+02	-4.38862452573E+01	-3.75763407116E+00	-5.84848095259E+00	-3.91799913857E-01
3.66574063785E+05	-2.05879790151E+01	1.71701787735E+02	1.33871807665E+01	-1.78421883620E+02	-3.43300104664E+01	-7.44302751738E+01	-5.84621022130E+00	-7.01647815084E-02
3.88765418380E+05	-3.78704989033E+01	1.04061000092E+02	1.34235077307E+01	-1.78406556128E+02	-5.25820166377E+01	-1.42271314745E+02	-5.82050512795E+00	-1.75791709897E-01
4.10956772975E+05	-1.57902382812E+01	-1.53567634252E+02	1.33845532019E+01	-1.79365415388E+02	-4.69113951529E+01	-4.42728759058E+01	-5.85601796689E+00	-4.27754574637E-01
4.33148127570E+05	-2.41980937718E+01	-1.79582791320E+02	1.34433842975E+01	-1.79594746757E+02	-4.94121679471E+01	-1.46986993265E+02	-5.83714890981E+00	-2.26934650481E-01
4.55339482165E+05	-2.78920486877E+01	-1.63104546500E+02	1.34457255263E+01	-1.79879160817E+02	-4.78231477005E+01	1.44212795259E+02	-5.81397991928E+00	-4.35624024919E-01
4.77530836760E+05	-1.47734956959E+01	1.55745884739E+02	1.34325577727E+01	1.79973426305E+02	-3.84446418197E+01	6.07637028839E+01	-5.84851830389E+00	-6.43741761444E-01
4.99722191355E+05	-1.55058886785E+01	-1.77136995076E+02	1.33730380145E+01	1.79613950670E+02	-6.06614689359E+01	-5.43582874461E+01	-5.82932577260E+00	-3.89600397980E-01
5.21913545950E+05	-1.87519273972E+01	1.52465229691E+02	1.34148840034E+01	1.79571547895E+02	-3.74593706263E+01	1.69504503100E+02	-5.78571956797E+00	-5.24625181480E-01
5.44104900545E+05	-1.89173171757E+01	1.35608931896E+02	1.34073433363E+01	1.79135825326E+02	-4.70335564941E+01	-9.18602170351E+01	-5.84078146563E+00	-1.54112037647E-01
5.66296255139E+05	-1.61208035955E+01	1.67211291920E+02	1.33883228437E+01	1.79011399956E+02	-4.16876239254E+01	1.54958451903E+02	-5.82180305678E+00	-4.46470060961E-01
5.88487609734E+05	-1.76256498917E+01	-1.60150724239E+02	1.34193011186E+01	1.78679982398E+02	-4.38388594749E+01	2.57426925227E+01	-5.84931911984E+00	-6.14462497128E-01
6.10678964329E+05	-1.95368203067E+01	1.64109229618E+02	1.34266850754E+01	1.78304908832E+02	-4.80332433629E+01	5.33332509730E+01	-5.82028601940E+00	-1.08984587331E-01
6.32870318924E+05	-2.06704671399E+01	-1.52781322810E+02	1.33987988660E+01	1.78056488299E+02	-3.76573353887E+01	-9.07998651340E+01	-5.84405667439E+00	1.19733003037E-01
6.55061673519E+05	-1.59211337861E+01	-1.77300305851E+02	1.34144165222E+01	1.77929811231E+02	-5.42993014160E+01	-1.25997556566E+02	-5.83228102409E+00	-2.21643568489E-01
6.77253028114E+05	-1.56990793381E+01	1.71153274589E+02	1.33996907581E+01	1.77923368333E+02	-4.86306243454E+01	-1.29790775362E+02	-5.82674066081E+00	-5.86460638691E-01
6.99444382709E+05	-1.11619461976E+01	-1.56673697852E+02	1.33814941221E+01	1.77636974228E+02	-4.55075321872E+01	8.43000401616E+01	-5.83632426177E+00	-3.99892377139E-01
7.21635737304E+05	-1.66290021979E+01	-1.47990349024E+02	1.34236346041E+01	1.77199065748E+02	-4.56151222839E+01	-1.52360498241E+02	-5.82752946214E+00	-4.38840227466E-01
7.43827091899E+05	-2.24861418370E+01	1.29780982246E+02	1.34359923184E+01	1.77374442988E+02	-4.40361707125E+01	-5.20031227316E+00	-5.87307283197E+00	-4.56633366720E-01
7.66018446494E+05	-1.44736408147E+01	1.59408549470E+02	1.33850068539E+01	1.77015351392E+02	-4.48217511976E+01	-1.06270175100E+02	-5.84357953292E+00	-4.46921508060E-01
7.88209801089E+05	-1.93731215645E+01	1.18775136490E+02	1.34251723814E+01	1.77063275044E+02	-4.96064543832E+01	1.14831752151E+02	-5.82236769848E+00	-5.62018332531E-01
8.10401155684E+05	-1.51802849846E+01	1.57567153046E+02	1.33907304386E+01	1.76701888376E+02	-5.39763240268E+01	-3.75337075147E+01	-5.84880325184E+00	-4.80007850324E-01
8.32592510279E+05	-2.29694247896E+01	-1.19157090243E+02	1.34411850430E+01	1.76289128536E+02	-5.30895093012E+01	1.13668787160E+02	-5.80102890806E+00	-4.13297573291E-01
8.54783864874E+05	-1.64207233536E+01	-1.73652819287E+02	1.33785743005E+01	1.76226134599E+02	-4.36690579350E+01	-3.28103834972E+01	-5.85562521069E+00	-3.86395883231E-01
8.76975219469E+05	-1.55093886959E+01	1.58005976631E+02	1.34048907180E+01	1.76152975473E+02	-4.45228585578E+01	-5.73221920346E+01	-5.86596031149E+00	-3.58072227215E-01
8.99166574064E+05	-1.57330680185E+01	1.79043237666E+02	1.33665996547E+01	1.75863904170E+02	-4.24294664626E+01	1.73355005384E+02	-5.82947542104E+00	-6.42496902550E-01
9.21357928659E+05	-1.60629241744E+01	-1.56046591008E+02	1.34108482518E+01	1.75512334757E+02	-4.97373711470E+01	-8.03878122547E+01	-5.83636857102E+00	-5.35381269164E-01
9.43549283254E+05	-1.55515763742E+01	1.71244844212E+02	1.33863097389E+01	1.75544420228E+02	-4.71539330099E+01	9.09491680506E+01	-5.83264103271E+00	-6.32648959981E-01
9.65740637849E+05	-2.39760158132E+01	-1.40743832517E+02	1.34510657148E+01	1.75305291847E+02	-3.85988530661E+01	-1.54233145017E+01	-5.88502158846E+00	-5.11311955590E-01
9.87931992444E+05	-2.16516629006E+01	-1.66701414597E+02	1.34261356385E+01	1.75007112248E+02	-3.84452105408E+01	4.92829834154E+01	-5.83825702835E+00	-7.78692017445E-01
1.01012334704E+06	-1.30927287231E+01	1.78208665623E+02	1.33413262121E+01	1.74956027840E+02	-4.65578532036E+01	7.42038792054E+01	-5.85628139113E+00	-6.83352598472E-01
1.03231470163E+06	-2.07906633848E+01	1.50253181500E+02	1.34299667877E+01	1.74952580865E+02	-4.16707081393E+01	6.48612194640E+01	-5.83678072176E+00	-5.48246242576E-01
1.05450605623E+06	-1.71390915485E+01	-1.61855611381E+02	1.34073792784E+01	1.74528209149E+02	-4.70562597113E+01	-2.18667222805E+01	-5.83744973171E+00	-6.16811437332E-01
1.07669741082E+06	-2.14358619591E+01	1.71770247277E+02	1.34075488203E+01	1.74503658639E+02	-4.71347467321E+01	3.67225055875E+01	-5.82195124702E+00	-6.92698384696E-01
1.09888876542E+06	-1.62019697735E+01	-1.77192541941E+02	1.33852833300E+01	1.74204446359E+02	-4.81715824520E+01	6.30176171306E+01	-5.82941332536E+00	-6.05282643829E-01
1.12108012001E+06	-1.65991401236E+01	-1.79312856531E+02	1.33963236592E+01	1.74117302454E+02	-4.30088326471E+01	2.61759316578E+01	-5.86620625001E+00	-7.84778419155E-01
1.14327147461E+06	-1.39487018083E+01	1.63277042209E+02	1.33810093335E+01	1.74013046409E+02	-3.49220566148E+01	-1.62755326168E+02	-5.82274128263E+00	-4.44757472061E-01
1.16546282920E+06	-1.34448376986E+01	-1.52658659954E+02	1.33760407011E+01	1.73724204232E+02	-4.28302973478E+01	8.67999804561E+01	-5.80783504778E+00	-7.77683993012E-01
1.18765418380E+06	-1.29787010593E+01	-1.76821611226E+02	1.33781376456E+01	1.73519114365E+02	-4.72870571724E+01	-1.54375634662E+02	-5.82477562200E+00	-4.40662075382E-01
1.20984553839E+06	-1.58085949465E+01	1.73418000424E+02	1.33771100108E+01	1.73653119473E+02	-4.44527956962E+01	6.38868331252E+01	-5.84215896297E+00	-9.94644348590E-01
1.23203689299E+06	-2.03553056781E+01	1.76155016595E+02	1.34211682379E+01	1.73286245363E+02	-4.84690224346E+01	3.36885563559E+01	-5.84659065617E+00	-4.74702072408E-01
1.25422824758E+06	-1.97440554955E+01	-1.68520986090E+02	1.33944889862E+01	1.73301400513E+02	-4.74062235889E+01	-1.68555498152E+01	-5.84045087892E+00	-6.21651865295E-01
1.27641960218E+06	-1.45717724251E+01	1.77712331731E+02	1.33961556469E+01	1.72928193221E+02	-5.12446709610E+01	-1.66250010557E+02	-5.83237686262E+00	-6.89800213883E-01
1.29861095677E+06	-1.75931489568E+01	-1.73144202864E+02	1.34164136483E+01	1.72770415396E+02	-3.88745357146E+01	8.39331427496E+01	-5.83609337614E+00	-8.73740780995E-01
1.32080231137E+06	-1.48011905568E+01	-1.74887319774E+02	1.33923721904E+01	1.72622292236E+02	-3.82772372102E+01	-2.16836701076E+00	-5.85869885585E+00	-9.80887003317E-01
1.34299366596E+06	-1.50536538803E+01	1.73078527639E+02	1.33860618659E+01	1.72546601658E+02	-5.27093317018E+01	-6.98437558676E+01	-5.84175740750E+00	-6.26220379551E-01
1.36518502056E+06	-2.22893879875E+01	1.69393231693E+02	1.34301028454E+01	1.72726283648E+02	-4.70555320252E+01	-4.08629074526E+00	-5.85001749553E+00	-8.29406694751E-01
1.38737637515E+06	-1.77570528530E+01	-1.54328260570E+02	1.34080520683E+01	1.72261280310E+02	-4.46374957557E+01	-9.09614546735E+01	-5.82497485208E+00	-4.28214474543E-01
1.40956772975E+06	-1.87122132948E+01	-1.25369552002E+02	1.34453590720E+01	1.71948675446E+02	-4.96902149912E+01	8.54383941417E+01	-5.86226000573E+00	-8.64392182100E-01
1.43175908434E+06	-1.77235526336E+01	-1.75230369122E+02	1.34204211619E+01	1.71957967816E+02	-5.14470872216E+01	-9.19042895649E+01	-5.82845919596E+00	-6.15441847024E-01
1.45395043894E+06	-1.88779704428E+01	-1.70529477091E+02	1.33993687226E+01	1.71790855094E+02	-4.52832367694E+01	-1.48917917361E+02	-5.83503891802E+00	-8.24230098566E-01
1.47614179353E+06	-1.61574914258E+01	-1.37526299583E+02	1.34227642365E+01	1.71474826358E+02	-4.47357080404E+01	6.48715462305E+01	-5.81370839902E+00	-7.89673595256E-01
1.49833314813E+06	-1.90979228896E+01	-1.24852550841E+02	1.34219398054E+01	1.71416746312E+02	-4.34928072173E+01	-1.44199755053E+02	-5.80574506669E+00	-6.15733944562E-01
1.52052450272E+06	-1.89132210808E+01	-1.65850391418E+02	1.34335652295E+01	1.71412279069E+02	-4.68752625857E+01	1.68206494574E+02	-5.82124551529E+00	-8.93344656773E-01
1.54271585732E+06	-2.10489431996E+01	1.33407479757E+02	1.34425012949E+01	1.71474848118E+02	-5.94625941622E+01	-3.91575447022E+01	-5.83072228471E+00	-7.78418243084E-01
1.56490721191E+06	-1.95914074901E+01	-1.66515552859E+02	1.34182573602E+01	1.71042885118E+02	-4.13645033657E+01	1.41036210067E+02	-5.82979119605E+00	-9.17747495674E-01
1.58709856651E+06	-1.78533767495E+01	-1.53596362483E+02	1.34111398649E+01	1.70924150169E+02	-4.71782601462E+01	-1.29569491435E+02	-5.82376333692E+00	-6.86600263754E-01
1.60928992110E+06	-1.46272267582E+01	1.72450094243E+02	1.33704126343E+01	1.70810366714E+02	-3.71341162103E+01	-5.30785228831E+01	-5.84739410738E+00	-7.95558653304E-01
1.63148127570E+06	-1.48021986122E+01	1.36618859633E+02	1.33732201817E+01	1.70905406614E+02	-4.02757073528E+01	-2.19413778085E+01	-5.89453859729E+00	-7.83795788120E-01
1.65367263029E+06	-1.29895587894E+01	-1.58847733454E+02	1.34054357651E+01	1.70317812431E+02	-4.49896607878E+01	1.60400044337E+02	-5.80428221853E+00	-8.30840458716E-01
1.67586398489E+06	-2.08476738809E+01	1.73182108790E+02	1.34148355740E+01	1.70313424315E+02	-3.99077974974E+01	-5.96862832162E+01	-5.87692945250E+00	-7.36681910355E-01
1.69805533948E+06	-2.27174096890E+01	-1.77226759721E+02	1.34290047753E+01	1.70144167578E+02	-4.56438771544E+01	-7.83947280888E+01	-5.85370609697E+00	-6.40479360149E-01
1.72024669408E+06	-1.46657865255E+01	-1.49510523406E+02	1.34163681162E+01	1.69824887731E+02	-5.12288479875E+01	1.17624763860E+02	-5.80640150055E+00	-9.50752403797E-01
1.74243804867E+06	-1.86848149072E+01	-1.72018574928E+02	1.34138971885E+01	1.69783678079E+02	-3.98509289213E+01	1.38646558779E+01	-5.88086208573E+00	-1.07483989427E+00
1.76462940327E+06	-2.63455134541E+01	-1.41309621900E+02	1.34520420799E+01	1.69787460038E+02	-4.60189419281E+01	-1.67246035751E+02	-5.82157351288E+00	-7.74609637520E-01
1.78682075786E+06	-1.57034380755E+01	1.78389294303E+02	1.33799723113E+01	1.69533286370E+02	-4.07336709454E+01	-3.91798826004E+01	-5.87510013822E+00	-8.08570415605E-01
1.80901211246E+06	-1.64837897856E+01	-1.58211357854E+02	1.33802357134E+01	1.69295709909E+02	-4.66301560038E+01	-1.19364637602E+02	-5.81734064549E+00	-8.27213830524E-01
1.83120346705E+06	-1.52744718241E+01	1.75111951033E+02	1.33800711502E+01	1.69322696548E+02	-5.19412592193E+01	1.87784292762E+01	-5.83300892076E+00	-9.37825874817E-01
1.85339482165E+06	-1.65926896575E+01	1.71051077318E+02	1.34064569163E+01	1.69200536561E+02	-4.44785561151E+01	9.19594313839E+00	-5.84578695957E+00	-9.35342349770E-01
1.87558617624E+06	-1.74148762165E+01	-1.77807397195E+02	1.34148721400E+01	1.68909213791E+02	-4.62968205467E+01	-2.75215845353E+01	-5.86465551228E+00	-8.51354781029E-01
1.89777753084E+06	-2.31236083556E+01	-1.79160931678E+02	1.34461114604E+01	1.68709555194E+02	-4.22650685314E+01	2.19198354261E+01	-5.83541681542E+00	-9.63834140191E-01
1.91996888543E+06	-1.73969514586E+01	1.67885900383E+02	1.34170012707E+01	1.68834040827E+02	-3.46493006687E+01	-1.00275450933E+02	-5.86314025575E+00	-6.39000122199E-01
1.94216024003E+06	-1.85032406058E+01	-1.78710191575E+02	1.33925179566E+01	1.68642690807E+02	-3.72600283441E+01	-3.31804647046E+01	-5.87254651044E+00	-1.08262942955E+00
1.96435159462E+06	-2.32555698400E+01	1.54297130286E+02	1.34156890387E+01	1.68600421730E+02	-4.38045603221E+01	1.87892745206E+01	-5.85563840316E+00	-1.06579152186E+00
1.98654294922E+06	-2.33141296697E+01	-1.76496975221E+02	1.34180983580E+01	1.68338324300E+02	-5.12837432503E+01	1.60109442010E+02	-5.83956233071E+00	-9.26315822266E-01
2.00873430381E+06	-1.83010118944E+01	1.79892380474E+02	1.33966744930E+01	1.67971638447E+02	-4.11753841129E+01	-5.32424646397E+01	-5.85080708190E+00	-8.57658062493E-01
2.03092565841E+06	-1.61917489748E+01	-1.60931029812E+02	1.34264504693E+01	1.67932267636E+02	-6.17180017355E+01	3.83815729573E+01	-5.83698576931E+00	-8.43353974674E-01
2.05311701300E+06	-1.68014701197E+01	-1.54830568000E+02	1.34318336696E+01	1.67718316714E+02	-4.77980409518E+01	-1.49629933537E+02	-5.82773457718E+00	-7.43636976445E-01
2.07530836760E+06	-1.67236986590E+01	-1.75655280595E+02	1.34011606255E+01	1.67491127716E+02	-4.42678811568E+01	1.67241618425E+02	-5.82259630015E+00	-1.07646555415E+00
2.09749972219E+06	-9.55819476526E+00	-1.68416195778E+02	1.33786176549E+01	1.67045773871E+02	-3.13209027678E+01	-5.16282068367E+01	-5.92421433291E+00	-9.21777445620E-01
2.11969107679E+06	-1.16974437598E+01	1.56818428018E+02	1.33676812627E+01	1.67281780518E+02	-5.58248297841E+01	7.60510374216E+01	-5.82600664067E+00	-1.11867770543E+00
2.14188243138E+06	-1.72544043204E+01	-1.52361368055E+02	1.34218344620E+01	1.67285271696E+02	-6.55054456067E+01	1.70424826638E+02	-5.85261241780E+00	-9.35633815495E-01
2.16407378598E+06	-1.64697044510E+01	-1.74816145688E+02	1.34231084223E+01	1.66940682273E+02	-5.01076257645E+01	5.56989560732E+00	-5.85598433418E+00	-1.04817736792E+00
2.18626514057E+06	-1.94920484183E+01	-1.66588268788E+02	1.34283826418E+01	1.66940218636E+02	-3.72890469725E+01	7.25311596747E+01	-5.83653068831E+00	-1.43224928227E+00
2.20845649517E+06	-2.06672051787E+01	1.36072697004E+02	1.34001127791E+01	1.67130382684E+02	-4.96243351912E+01	1.77419846961E+02	-5.82739007882E+00	-1.12340328591E+00
2.23064784976E+06	-1.95087915510E+01	1.79425583265E+02	1.34206739254E+01	1.66714051140E+02	-4.32374140674E+01	-6.89276387683E+01	-5.85562241806E+00	-1.00610907132E+00
2.25283920436E+06	-1.58053364342E+01	-1.60956908720E+02	1.34442164957E+01	1.66482137824E+02	-3.38651516308E+01	-1.25147829619E+01	-5.86786286584E+00	-1.45666210061E+00
2.27503055895E+06	-1.42120138661E+01	-1.54164675890E+02	1.34322558963E+01	1.66203601157E+02	-4.29141880633E+01	-9.74715686916E+01	-5.83997768882E+00	-8.91930960020E-01
2.29722191355E+06	-1.73047188678E+01	1.75854781583E+02	1.33897821582E+01	1.66076165624E+02	-4.79916489590E+01	-2.77315479466E+01	-5.86535935892E+00	-1.05796341179E+00
2.31941326814E+06	-1.86499287920E+01	1.74232781785E+02	1.34065656686E+01	1.66191175967E+02	-4.14829413407E+01	7.28808518447E+01	-5.86555039778E+00	-1.45835637081E+00
2.34160462274E+06	-2.34514138222E+01	1.76352480019E+02	1.34271325699E+01	1.66138955430E+02	-4.60307861694E+01	-1.17729434511E+02	-5.85465183661E+00	-1.09176526922E+00
2.36379597733E+06	-1.71187851013E+01	1.69968372497E+02	1.34084388045E+01	1.65883206818E+02	-4.48456944713E+01	-1.65359608614E+02	-5.80715769927E+00	-1.05332476333E+00
2.38598733193E+06	-1.71260357944E+01	1.64819002451E+02	1.33752450298E+01	1.65936887692E+02	-5.05704723852E+01	1.72477452240E+02	-5.81688451016E+00	-1.38060715970E+00
2.40817868652E+06	-1.45812756733E+01	1.65883645155E+02	1.33602293895E+01	1.65625518443E+02	-4.02115759621E+01	1.66732329612E+02	-5.80782738187E+00	-1.23131934216E+00
2.43037004112E+06	-1.73776297032E+01	-1.42196645714E+02	1.34285553734E+01	1.65267846152E+02	-5.68901366410E+01	3.77528850326E+01	-5.85270493926E+00	-1.70406580583E+00
2.45256139571E+06	-2.17448723235E+01	-1.27373327243E+02	1.34456986463E+01	1.65115394745E+02	-5.12690286178E+01	-1.79627996030E+02	-5.81469084541E+00	-1.29969602204E+00
2.47475275031E+06	-1.66807079754E+01	-1.50586176298E+02	1.34311847095E+01	1.64887570001E+02	-4.29750507869E+01	-4.39324592464E+01	-5.88244434865E+00	-1.25759052491E+00
2.49694410490E+06	-2.04571730776E+01	-1.77099053226E+02	1.34214080348E+01	1.64925839635E+02	-4.31556661462E+01	-5.50128975188E+01	-5.86451069270E+00	-1.05325773097E+00
2.51913545950E+06	-1.92007743123E+01	-1.66929700201E+02	1.34249542566E+01	1.64745958285E+02	-5.25385485955E+01	-7.96515949595E+01	-5.84896468293E+00	-1.21460844465E+00
2.54132681409E+06	-1.80231714916E+01	-1.77652334389E+02	1.33961785979E+01	1.64709040922E+02	-4.69236672613E+01	-1.32187206670E+02	-5.85164116862E+00	-1.18599504253E+00
2.56351816869E+06	-1.84397937575E+01	1.48427578372E+02	1.34100926518E+01	1.64600139267E+02	-3.12907190796E+01	-2.22444518816E+01	-5.91413273601E+00	-1.25274579604E+00
2.58570952328E+06	-2.06794976012E+01	1.79259479596E+02	1.34274835158E+01	1.64512210991E+02	-6.49048374606E+01	-1.13372302878E+02	-5.84641949821E+00	-1.22962244910E+00
2.60790087788E+06	-1.85004978349E+01	-1.63120738707E+02	1.34359693041E+01	1.64121103805E+02	-4.96352154159E+01	-1.53311615450E+02	-5.83914757001E+00	-1.18105991636E+00
2.63009223247E+06	-1.92688747017E+01	-1.57658074551E+02	1.34538129191E+01	1.64013615985E+02	-5.53069152367E+01	1.34943342304E+02	-5.83015435005E+00	-8.36041439579E-01
2.65228358707E+06	-2.07017268288E+01	-1.40263155492E+02	1.34590277288E+01	1.63947328155E+02	-5.23800284061E+01	-1.63883385329E+02	-5.85125611640E+00	-1.21959649001E+00
2.67447494166E+06	-1.44216411000E+01	-1.60395864679E+02	1.33824203891E+01	1.63534882652E+02	-3.98628354081E+01	-3.86338507414E+01	-5.86155646437E+00	-1.23945149872E+00
2.69666629626E+06	-1.46060482994E+01	-1.59770874323E+02	1.33953772722E+01	1.63379610249E+02	-4.81542578368E+01	8.13224842875E+01	-5.83332698945E+00	-1.29587558161E+00
2.71885765085E+06	-1.78080974842E+01	1.59021531983E+02	1.34042998737E+01	1.63670307810E+02	-4.51540594586E+01	1.35302458546E+02	-5.80554154892E+00	-1.37279893460E+00
2.74104900545E+06	-2.53919501214E+01	-1.71279025365E+02	1.34484342597E+01	1.63198507513E+02	-4.50336147402E+01	8.54982686096E+01	-5.84092784980E+00	-1.55471668436E+00
2.76324036004E+06	-1.60257241518E+01	-1.66436191138E+02	1.34299877774E+01	1.62955675376E+02	-4.25558501581E+01	-1.49121097670E+02	-5.82287223435E+00	-1.24568088383E+00
2.78543171463E+06	-1.78677487649E+01	-1.75762046493E+02	1.34325096264E+01	1.62928767754E+02	-4.46052721349E+01	-6.14720871181E+01	-5.86323826513E+00	-1.23173133247E+00
2.80762306923E+06	-1.76977216056E+01	1.76560493581E+02	1.34218924217E+01	1.63008002337E+02	-5.70937615618E+01	-1.10431545525E+02	-5.86076477689E+00	-1.18461437777E+00
2.82981442382E+06	-1.28938436225E+01	-1.63294281229E+02	1.34044086948E+01	1.62492663472E+02	-5.06930528535E+01	4.65998159761E+01	-5.83060136452E+00	-1.46986518028E+00
2.85200577842E+06	-1.84445787982E+01	-1.63347779785E+02	1.34399904262E+01	1.62499288597E+02	-4.69135352380E+01	1.22998355292E+02	-5.80606255006E+00	-1.40642639744E+00
2.87419713301E+06	-2.28693259397E+01	-1.65521312359E+02	1.34296511307E+01	1.62483609804E+02	-3.92123686391E+01	7.27068396730E+01	-5.82347043600E+00	-1.56207300848E+00
