# Hz S DB R 50
! CMT, M5065, 19127446, 24.2.4/2
! Date: 11/8/2024 4:04:07 PM
! Data: Format (Calibration Info)
! Freq	S11:dB/Ang(F2)	S21:dB/Ang(F2)	S12:dB/Ang(F2)	S22:dB/Ang(F2)
3.00000000000E+05	-1.91389661323E+01	-1.52504810055E+02	1.08451409563E+01	-1.77306768482E+02	-5.11188681212E+01	-4.49436818866E+01	-5.85708475739E+00	-3.16103996223E-01
3.22191354595E+05	-2.01318372721E+01	1.44840399072E+02	1.08183040294E+01	-1.77731421958E+02	-4.29469641048E+01	1.27284587897E+02	-5.82233482745E+00	-4.18894769249E-01
3.44382709190E+05	-2.05925233973E+01	1.61861809280E+02	1.08180850328E+01	-1.78308150272E+02	-4.84202877882E+01	5.20671770559E+01	-5.84688332244E+00	-1.83363182065E-01
3.66574063785E+05	-1.55050956716E+01	1.76577314490E+02	1.08374181972E+01	-1.78405254426E+02	-4.96636733594E+01	-1.44137485625E+02	-5.81667835219E+00	-3.46986343670E-01
3.88765418380E+05	-1.79852362524E+01	-1.75294501841E+02	1.08384581785E+01	-1.79068050475E+02	-4.90499009263E+01	-2.65698765529E+01	-5.86308732377E+00	-2.74561346512E-01
4.10956772975E+05	-2.21196005540E+01	1.33089905961E+02	1.08233903527E+01	-1.79052642061E+02	-3.71161423467E+01	1.61664738750E+02	-5.78127422152E+00	-2.77514900864E-01
4.33148127570E+05	-2.27946593223E+01	-1.69746594953E+02	1.08602437910E+01	-1.79596773832E+02	-4.42758956814E+01	3.32218148958E+01	-5.86210104809E+00	-2.91162265064E-01
4.55339482165E+05	-1.97875245024E+01	-1.33359929965E+02	1.08475640525E+01	-1.79824626211E+02	-3.85727824172E+01	-1.46312485614E+02	-5.81682286274E+00	-1.61362913233E-01
4.77530836760E+05	-1.67013341676E+01	1.62695257094E+02	1.08001480438E+01	-1.79754397669E+02	-4.61891146918E+01	1.44826868852E+02	-5.83173505243E+00	-3.36423751410E-01
4.99722191355E+05	-1.98563304509E+01	1.32076956564E+02	1.08178995255E+01	1.79903032930E+02	-5.16775366008E+01	-1.52682556272E+02	-5.82929644206E+00	-2.98402061649E-01
5.21913545950E+05	-1.92906942948E+01	-1.72784301665E+02	1.08295527472E+01	1.79350515167E+02	-4.84867951661E+01	-1.51032863422E+01	-5.85118878859E+00	-4.97493857628E-01
5.44104900545E+05	-1.65917401808E+01	-1.53570189938E+02	1.08364879180E+01	1.79233992151E+02	-4.87978652050E+01	-1.40524095440E+02	-5.84193240070E+00	-4.26389390025E-01
5.66296255139E+05	-2.26547193671E+01	-1.40447754043E+02	1.08409498310E+01	1.79024282364E+02	-4.91616841271E+01	-1.00326588449E+02	-5.84161156371E+00	-3.68372542720E-01
5.88487609734E+05	-3.44947058822E+01	1.08955428321E+02	1.08414162554E+01	1.79081261925E+02	-5.01989382847E+01	1.79600949029E+02	-5.80383790725E+00	-5.22612589216E-01
6.10678964329E+05	-1.64722217268E+01	-1.42305746540E+02	1.08254266957E+01	1.78654678098E+02	-5.01302465385E+01	-2.40848438108E+01	-5.84332489082E+00	2.43887475484E-03
6.32870318924E+05	-1.82357523157E+01	1.75016861620E+02	1.08363557965E+01	1.78550488557E+02	-4.36684779564E+01	-1.40544838945E+02	-5.83211653691E+00	-1.21922248363E-01
6.55061673519E+05	-2.03867264654E+01	-1.70925337676E+02	1.08255162327E+01	1.78338674909E+02	-4.16804464037E+01	-1.45970936145E+02	-5.83314483334E+00	-3.59016757943E-01
6.77253028114E+05	-1.69082981105E+01	1.61113306968E+02	1.08069426581E+01	1.78373671618E+02	-4.41557948848E+01	-1.79867155608E+02	-5.80634681807E+00	-4.54314441245E-01
6.99444382709E+05	-2.51048127316E+01	-1.77160597285E+02	1.08591130338E+01	1.77862523871E+02	-3.85162274258E+01	-4.22087717667E+01	-5.88187362586E+00	-3.42691740011E-01
7.21635737304E+05	-1.94358977916E+01	1.39145161068E+02	1.08576205032E+01	1.77913083566E+02	-3.77476122785E+01	9.26073249899E+01	-5.85007278910E+00	-5.94443691304E-01
7.43827091899E+05	-1.30599527809E+01	1.52502404856E+02	1.08240624256E+01	1.77977501172E+02	-4.28075695590E+01	-7.41033738363E+01	-5.84462151461E+00	-2.55528964293E-01
7.66018446494E+05	-1.96007110942E+01	1.51231259212E+02	1.08261405761E+01	1.77713065786E+02	-4.21226659726E+01	1.24431420820E+02	-5.81867238955E+00	-6.21658555039E-01
7.88209801089E+05	-2.36586204096E+01	-1.46615406738E+02	1.08643236359E+01	1.77495264031E+02	-4.55517689091E+01	1.54149930606E+02	-5.81619901575E+00	-3.28583104390E-01
8.10401155684E+05	-1.92732849610E+01	-1.76774564043E+02	1.08376632188E+01	1.77053800488E+02	-5.89134564243E+01	7.95599944184E+01	-5.84614860552E+00	-3.63425737315E-01
8.32592510279E+05	-2.34658058718E+01	-1.76729785078E+02	1.08165772745E+01	1.77002407136E+02	-4.64782836156E+01	8.79584627657E+01	-5.83124632956E+00	-6.12422372585E-01
8.54783864874E+05	-1.77068983660E+01	1.63555998731E+02	1.08162830752E+01	1.76849012294E+02	-4.24076500759E+01	3.81765863277E+00	-5.87336679050E+00	-4.01131570522E-01
8.76975219469E+05	-2.25762669898E+01	-1.79529286101E+02	1.08368750299E+01	1.76722445051E+02	-3.37408889430E+01	4.67366615984E+01	-5.85925945223E+00	-7.18881399719E-01
8.99166574064E+05	-1.38164906101E+01	1.58244849022E+02	1.07919250925E+01	1.76601532747E+02	-4.57822815968E+01	3.16740775480E+01	-5.85688417486E+00	-4.92636134299E-01
9.21357928659E+05	-2.09416790532E+01	-1.55299581607E+02	1.08568434114E+01	1.76368317179E+02	-4.92177057079E+01	9.45073467153E+01	-5.82536754461E+00	-5.24415539366E-01
9.43549283254E+05	-1.55872457736E+01	1.76123481875E+02	1.07993846799E+01	1.76113259710E+02	-4.89575279424E+01	4.24910646420E+01	-5.85769026937E+00	-7.24880764637E-01
9.65740637849E+05	-1.96431620416E+01	1.44720556116E+02	1.08440895635E+01	1.76303776366E+02	-4.55285851282E+01	-4.96805094780E+01	-5.84029155588E+00	-5.32713922383E-01
9.87931992444E+05	-1.75008805279E+01	1.76787002628E+02	1.08234687823E+01	1.75956707649E+02	-4.24270543108E+01	-7.53238845138E+01	-5.85951114481E+00	-3.61699450045E-01
1.01012334704E+06	-2.05808697161E+01	-1.62760697693E+02	1.08329431986E+01	1.75740146431E+02	-4.23913578032E+01	-1.00361652635E+02	-5.86967376981E+00	-3.27350771382E-01
1.03231470163E+06	-1.65489210807E+01	1.77194786161E+02	1.08289778778E+01	1.75771503872E+02	-4.27221724163E+01	-6.84601738478E+00	-5.84443718694E+00	-6.61899821374E-01
1.05450605623E+06	-1.63955656001E+01	-1.74705928689E+02	1.08007936087E+01	1.75305624460E+02	-4.67910679302E+01	9.64582711926E+01	-5.83268041641E+00	-5.69611576085E-01
1.07669741082E+06	-1.72616321535E+01	-1.33839214323E+02	1.10043969489E+01	1.75919411421E+02	-5.13926677348E+01	1.57514658886E+02	-5.83208090254E+00	-7.92813750449E-01
1.09888876542E+06	-1.84093637523E+01	1.74586670519E+02	1.08237469820E+01	1.75057521749E+02	-3.97559921620E+01	1.01089538755E+02	-5.81851896117E+00	-8.33136440228E-01
1.12108012001E+06	-1.80592065444E+01	-1.70011971526E+02	1.08184084821E+01	1.74840322132E+02	-4.89913960025E+01	1.22321368871E+02	-5.83491554072E+00	-5.45619455900E-01
1.14327147461E+06	-1.64487280683E+01	-1.60476236577E+02	1.08019007261E+01	1.74892258206E+02	-4.55841997451E+01	1.14100978202E+02	-5.83575627393E+00	-6.32006583161E-01
1.16546282920E+06	-1.77344927345E+01	-1.79927500088E+02	1.08445828891E+01	1.74949655179E+02	-4.85745191085E+01	-1.10960711217E+01	-5.86999736347E+00	-6.78794361239E-01
1.18765418380E+06	-2.09922141988E+01	-1.72259076144E+02	1.08447185465E+01	1.74709923978E+02	-4.66758380744E+01	1.24692121243E+02	-5.83248535946E+00	-7.70774544062E-01
1.20984553839E+06	-2.15273688318E+01	-1.60969581806E+02	1.08299048210E+01	1.74630358632E+02	-4.80748014184E+01	-1.05958920204E+02	-5.83328111045E+00	-5.52676019925E-01
1.23203689299E+06	-1.50161379786E+01	-1.79552290858E+02	1.08044403992E+01	1.74461215837E+02	-4.16678768677E+01	-1.76154002492E+02	-5.82922432867E+00	-3.65376454940E-01
1.25422824758E+06	-1.66039284725E+01	-1.79505863983E+02	1.07961471161E+01	1.74231374852E+02	-5.59721871504E+01	1.35387156622E+00	-5.87148636721E+00	-5.28389730387E-01
1.27641960218E+06	-1.59212195171E+01	1.61337431121E+02	1.08016929411E+01	1.74220949107E+02	-4.55499200731E+01	-2.62526081994E+01	-5.85502393236E+00	-6.43550804682E-01
1.29861095677E+06	-1.93745576226E+01	-1.26289256296E+02	1.08719428649E+01	1.73819832965E+02	-5.82185538395E+01	-1.35990114358E+02	-5.85132357798E+00	-7.56739613033E-01
1.32080231137E+06	-1.99086501623E+01	-1.78759105279E+02	1.08442265083E+01	1.73878868233E+02	-4.57236755474E+01	2.83202150409E+01	-5.85509117197E+00	-1.11910769911E+00
1.34299366596E+06	-1.81198853292E+01	1.72331108312E+02	1.08080248997E+01	1.73869119194E+02	-4.41126575096E+01	1.59587259149E+02	-5.81987158498E+00	-6.28266949193E-01
1.36518502056E+06	-1.88124575689E+01	-1.04206383020E+02	1.08820041882E+01	1.73600326431E+02	-3.74421477013E+01	-1.55671636841E+02	-5.82613074379E+00	-4.70812139575E-01
1.38737637515E+06	-2.29928307826E+01	1.69886219850E+02	1.08640372413E+01	1.73609040676E+02	-5.21150211363E+01	1.42490662961E+02	-5.84050425018E+00	-7.21042096295E-01
1.40956772975E+06	-1.67575717815E+01	-1.79903386126E+02	1.08155808300E+01	1.73418520992E+02	-4.30922373618E+01	-1.06167833381E+02	-5.84083927533E+00	-7.13054950885E-01
1.43175908434E+06	-1.26882050671E+01	-1.75327556638E+02	1.08183171700E+01	1.73138095842E+02	-5.60137241713E+01	6.88393679819E+01	-5.83131910524E+00	-6.89773624729E-01
1.45395043894E+06	-1.61336008849E+01	-1.77883397735E+02	1.08322033846E+01	1.73094993722E+02	-3.99928614060E+01	1.96195367574E+01	-5.87631050025E+00	-8.82682129005E-01
1.47614179353E+06	-1.84971395828E+01	1.65362823041E+02	1.08364615928E+01	1.72808346559E+02	-4.00776698170E+01	-1.31982941692E+02	-5.80863654741E+00	-5.24987644511E-01
1.49833314813E+06	-1.63396700850E+01	1.79153650972E+02	1.08087578504E+01	1.72820771669E+02	-4.49817082745E+01	-6.62456739949E+01	-5.85041345767E+00	-7.59799849739E-01
1.52052450272E+06	-1.82178139967E+01	1.58899659495E+02	1.08419519186E+01	1.72608356064E+02	-5.00203421670E+01	-1.64275869650E+02	-5.82888575140E+00	-7.97133143447E-01
1.54271585732E+06	-1.25837646976E+01	1.38905969567E+02	1.07801523118E+01	1.72619821974E+02	-3.90319366292E+01	1.26455756376E+02	-5.81698128457E+00	-8.54357164812E-01
1.56490721191E+06	-1.88868896559E+01	-1.71338420496E+02	1.08498066460E+01	1.72265693536E+02	-4.22055977893E+01	4.15267755321E+01	-5.83518241831E+00	-9.83998041564E-01
1.58709856651E+06	-2.07755967890E+01	-1.69729362486E+02	1.08481285350E+01	1.72137983739E+02	-5.40953483067E+01	3.96540130372E+01	-5.85001149380E+00	-7.95971345710E-01
1.60928992110E+06	-1.83641226073E+01	1.70089526569E+02	1.08346454295E+01	1.72170039570E+02	-4.83786548584E+01	1.53318837993E+02	-5.84921684586E+00	-9.58886576760E-01
1.63148127570E+06	-1.87489001417E+01	1.57746864659E+02	1.08247847500E+01	1.72161399685E+02	-3.85310824788E+01	-1.42600027036E+02	-5.83286237575E+00	-7.10883177310E-01
1.65367263029E+06	-1.75051440998E+01	-1.57953606363E+02	1.08685640477E+01	1.71852804707E+02	-3.48020227201E+01	8.14494412650E+01	-5.80998277529E+00	-1.17215463380E+00
1.67586398489E+06	-1.80861246559E+01	1.66962943287E+02	1.08124591118E+01	1.72030667082E+02	-3.65827868994E+01	1.83529768150E+01	-5.83532736171E+00	-1.04305391684E+00
1.69805533948E+06	-2.39106367344E+01	1.56337245137E+02	1.08512883745E+01	1.71749807183E+02	-4.91983412219E+01	-5.07274644686E+01	-5.82434602612E+00	-8.64389563337E-01
1.72024669408E+06	-2.01237663336E+01	-1.59645729332E+02	1.08360890811E+01	1.71559604374E+02	-5.45077254802E+01	1.49117809364E+02	-5.82389079984E+00	-8.32005531277E-01
1.74243804867E+06	-1.72513124745E+01	1.74575179298E+02	1.08152891741E+01	1.71376076854E+02	-6.44856087240E+01	-3.03508768064E+01	-5.82142230800E+00	-8.90827293500E-01
1.76462940327E+06	-2.05078221659E+01	1.73685311855E+02	1.08615695118E+01	1.71301992936E+02	-4.91707466863E+01	-2.97738911300E+01	-5.83370211504E+00	-8.11534170442E-01
1.78682075786E+06	-1.61807449274E+01	1.64248459747E+02	1.08221341846E+01	1.71359819286E+02	-4.08022516569E+01	1.40220064776E+02	-5.81564291278E+00	-9.13610688727E-01
1.80901211246E+06	-1.62366391506E+01	1.69489555766E+02	1.08223203834E+01	1.71098728178E+02	-3.70958355101E+01	7.27157228183E+01	-5.82050104999E+00	-1.00401135184E+00
1.83120346705E+06	-2.58733751628E+01	1.48665189646E+02	1.08655656960E+01	1.71019771391E+02	-3.07995047013E+01	1.19344077063E+02	-5.77723207074E+00	-1.15569532872E+00
1.85339482165E+06	-1.69784680466E+01	-1.56563725954E+02	1.08509425509E+01	1.70756453560E+02	-5.24660021480E+01	1.42939650552E+02	-5.84319103379E+00	-9.74609605965E-01
1.87558617624E+06	-1.61041201404E+01	1.68732941410E+02	1.08035018851E+01	1.70623055145E+02	-3.96843216700E+01	1.39450223383E+02	-5.83204953857E+00	-9.89623128351E-01
1.89777753084E+06	-1.44496663113E+01	-1.75863684161E+02	1.07966034893E+01	1.70230801083E+02	-4.72892655850E+01	-5.01055039686E+01	-5.86009956760E+00	-9.90509252785E-01
1.91996888543E+06	-1.40243056573E+01	-1.78198314819E+02	1.08134413961E+01	1.70135884523E+02	-3.99967662147E+01	-9.80101561281E+01	-5.85869299145E+00	-7.63885821915E-01
1.94216024003E+06	-2.03924780521E+01	1.09603707302E+02	1.08398700308E+01	1.70487530639E+02	-4.63937087287E+01	-1.01032760945E+02	-5.83938486553E+00	-8.05153736194E-01
1.96435159462E+06	-1.52184768749E+01	1.66599522405E+02	1.08238813061E+01	1.70187400291E+02	-3.79509823443E+01	-8.14884039349E+01	-5.84423771149E+00	-7.18931186199E-01
1.98654294922E+06	-1.57997639019E+01	1.39668633801E+02	1.08126336099E+01	1.70212914167E+02	-4.21860082758E+01	3.03511266021E+01	-5.84351029283E+00	-1.13482082152E+00
2.00873430381E+06	-1.88694200030E+01	-9.48954797914E+01	1.08962592273E+01	1.69869443568E+02	-5.14258540684E+01	5.80348510132E+01	-5.83747738213E+00	-1.10689126486E+00
2.03092565841E+06	-1.62361575934E+01	1.79979873405E+02	1.08121009331E+01	1.69863331875E+02	-4.58751969917E+01	-1.78264263361E+02	-5.82398892332E+00	-9.83204468596E-01
2.05311701300E+06	-1.87049739556E+01	1.79795514003E+02	1.08296654796E+01	1.69568161105E+02	-3.87150132759E+01	-1.69288834356E+02	-5.82366181329E+00	-1.00014068269E+00
2.07530836760E+06	-2.33982516559E+01	1.76716468139E+02	1.08686714819E+01	1.69673873071E+02	-4.08413824632E+01	-1.20100786457E+02	-5.85398230135E+00	-7.71326237951E-01
2.09749972219E+06	-1.73061980020E+01	-1.55870690965E+02	1.08590309935E+01	1.69122780502E+02	-4.21987283227E+01	1.28820588749E+02	-5.81311765980E+00	-9.97356821902E-01
2.11969107679E+06	-1.82086584290E+01	-1.76701721004E+02	1.08580703624E+01	1.69263414846E+02	-4.89183881243E+01	-1.98677294614E+01	-5.85593945251E+00	-1.00493099408E+00
2.14188243138E+06	-1.65849643791E+01	-1.63125853401E+02	1.08305156787E+01	1.69242324015E+02	-2.84706010536E+01	1.07868314814E+02	-5.78497261233E+00	-1.44797439853E+00
2.16407378598E+06	-1.92969510472E+01	-1.33366039804E+02	1.08873665688E+01	1.69048006190E+02	-5.01807573998E+01	4.07572716198E+01	-5.85778959751E+00	-1.12250770764E+00
2.18626514057E+06	-2.21071846673E+01	1.57030868735E+02	1.08803874781E+01	1.69058969177E+02	-3.91705115484E+01	-8.45718829525E+01	-5.87511149077E+00	-9.96871637679E-01
2.20845649517E+06	-1.70607254977E+01	-1.43369227885E+02	1.08900931067E+01	1.68747466419E+02	-4.10721029403E+01	6.56002389348E+01	-5.83275245663E+00	-1.23849309012E+00
2.23064784976E+06	-1.53211138970E+01	1.61723095104E+02	1.08587375866E+01	1.68707688083E+02	-4.06213656051E+01	8.99570435390E+01	-5.83261945368E+00	-1.38566665967E+00
2.25283920436E+06	-2.02291658061E+01	1.67021473158E+02	1.08511791162E+01	1.68796292431E+02	-4.66188941025E+01	-6.72968875165E+01	-5.84807896025E+00	-1.09335678545E+00
2.27503055895E+06	-1.85301135809E+01	1.56857288516E+02	1.08551343202E+01	1.68761724078E+02	-4.38976286892E+01	-1.20066241232E+02	-5.84106093844E+00	-1.04027310657E+00
2.29722191355E+06	-2.10975879982E+01	-1.64334011607E+02	1.08429236774E+01	1.68432021265E+02	-2.35931274282E+01	3.27863690144E+01	-5.84162772774E+00	-2.14941732671E+00
2.31941326814E+06	-1.45191022483E+01	-1.27598501598E+02	1.08812284595E+01	1.67757021418E+02	-4.40594370436E+01	1.44287332629E+02	-5.82439892521E+00	-1.17824128645E+00
2.34160462274E+06	-1.31654452645E+01	-1.79439799823E+02	1.07957635511E+01	1.67883740697E+02	-4.67798558791E+01	-3.02509056600E+01	-5.85181777385E+00	-1.10758462308E+00
2.36379597733E+06	-1.96454568164E+01	1.70275116725E+02	1.08464039795E+01	1.68041735606E+02	-4.24665072184E+01	7.63949644301E+01	-5.81337520168E+00	-1.33911511075E+00
2.38598733193E+06	-1.59459608094E+01	1.73838042175E+02	1.08238123222E+01	1.67856146190E+02	-4.18303973986E+01	1.03915362969E+02	-5.82157951008E+00	-1.22978751040E+00
2.40817868652E+06	-1.95911488612E+01	1.54402645579E+02	1.08575696628E+01	1.67980278058E+02	-5.67314566669E+01	-1.31740785102E+02	-5.82706949309E+00	-1.30977727041E+00
2.43037004112E+06	-1.96798197198E+01	-1.51021247643E+02	1.08648490790E+01	1.67677627003E+02	-4.79932222113E+01	-4.92820130872E+01	-5.82838032284E+00	-1.62181004832E+00
2.45256139571E+06	-2.50326076944E+01	-1.41697880888E+02	1.08904512907E+01	1.67586888597E+02	-3.34827366019E+01	-1.71403547351E+02	-5.81789638337E+00	-9.77972599834E-01
2.47475275031E+06	-3.36788460229E+01	2.40154033764E+01	1.09107578368E+01	1.67510391412E+02	-4.33408107569E+01	-1.74212381286E+02	-5.81915487760E+00	-1.14151130289E+00
2.49694410490E+06	-2.11636165607E+01	-1.45685717852E+02	1.08643866531E+01	1.67164339669E+02	-4.27189234633E+01	1.08763747243E+02	-5.84740518278E+00	-1.36664616947E+00
2.51913545950E+06	-2.10270346670E+01	-1.74446001456E+02	1.08715682106E+01	1.67243660709E+02	-4.64583256284E+01	1.36409705370E+02	-5.83327958086E+00	-1.32876599670E+00
2.54132681409E+06	-1.85121783800E+01	-1.74679682488E+02	1.08505786194E+01	1.67078369861E+02	-4.97965147077E+01	-5.58097754446E+00	-5.85180362510E+00	-1.27077744769E+00
2.56351816869E+06	-1.81457877148E+01	1.71089913880E+02	1.08302816873E+01	1.66838638050E+02	-4.36918820985E+01	1.38577347324E+02	-5.82969375398E+00	-1.25421127639E+00
2.58570952328E+06	-1.75294110790E+01	-1.79320947781E+02	1.08500464085E+01	1.66569577773E+02	-4.20694395052E+01	8.13322515866E+01	-5.81072622916E+00	-1.46709615791E+00
2.60790087788E+06	-1.70264349501E+01	-1.74958425584E+02	1.08553397860E+01	1.66499556961E+02	-3.20703329334E+01	-6.70121302795E+01	-5.89361943827E+00	-1.09256277493E+00
2.63009223247E+06	-2.07269014947E+01	1.56164077597E+02	1.08525648563E+01	1.66424291525E+02	-5.27705813429E+01	6.24933155076E+01	-5.83550265661E+00	-9.67950736197E-01
2.65228358707E+06	-1.68439054774E+01	1.49177950569E+02	1.08377126005E+01	1.66537129561E+02	-5.65585244758E+01	-2.79443655728E+01	-5.81177362695E+00	-1.31748348469E+00
2.67447494166E+06	-1.79861218322E+01	1.73757976208E+02	1.08264314979E+01	1.66194713970E+02	-5.18047600353E+01	-1.57865845328E+02	-5.83122112697E+00	-1.29489569041E+00
2.69666629626E+06	-1.67202055553E+01	-1.53420830301E+02	1.08604081244E+01	1.66052297059E+02	-4.42068553461E+01	6.50636710279E+01	-5.83062004026E+00	-1.44274507831E+00
2.71885765085E+06	-1.94863836239E+01	-1.70114316910E+02	1.08607431867E+01	1.65987931000E+02	-5.18237122064E+01	1.71478865020E+02	-5.81692130348E+00	-1.22393435305E+00
2.74104900545E+06	-2.00352373789E+01	1.74366227633E+02	1.08634556138E+01	1.65805300318E+02	-5.04023226045E+01	1.67306690523E+01	-5.86127489877E+00	-1.40564045583E+00
2.76324036004E+06	-1.68364930946E+01	-1.74904830658E+02	1.08597421406E+01	1.65763366321E+02	-2.88074987077E+01	1.00123725574E+02	-5.75538283693E+00	-1.69371139104E+00
2.78543171463E+06	-9.82107165232E+00	1.55448042705E+02	1.08096236516E+01	1.65402678580E+02	-5.67122026480E+01	1.78280377898E+02	-5.84237055711E+00	-1.37555863232E+00
2.80762306923E+06	-1.48058181137E+01	-1.56637804127E+02	1.08683216245E+01	1.65142825620E+02	-4.47902602838E+01	-9.97611940315E+01	-5.84738319492E+00	-1.27717087531E+00
2.82981442382E+06	-1.49856571961E+01	-1.74057368992E+02	1.08576713336E+01	1.65212149698E+02	-4.77560411053E+01	4.24146879363E+01	-5.86584555791E+00	-1.58289453319E+00
2.85200577842E+06	-1.77052743605E+01	-1.62482768605E+02	1.08536115864E+01	1.65161271815E+02	-3.91720296052E+01	1.03406504392E+02	-5.81329654227E+00	-1.62380995953E+00
2.87419713301E+06	-1.50560079111E+01	-1.71177533732E+02	1.08396039579E+01	1.64936731806E+02	-4.35147095960E+01	-1.73255319079E+02	-5.80877568528E+00	-1.37035323652E+00
