# Hz S DB R 50
! CMT, M5065, 19127446, 24.2.4/2
! Date: 11/8/2024 3:58:07 PM
! Data: Format (Calibration Info)
! Freq	S11:dB/Ang(F2)	S21:dB/Ang(F2)	S12:dB/Ang(F2)	S22:dB/Ang(F2)
3.00000000000E+05	-2.78916283469E+01	-1.42827510997E+02	8.13832014595E+00	-1.77596428390E+02	-4.71428446617E+01	-1.97122632921E+01	-5.83005952214E+00	-9.28564463857E-02
3.22191354595E+05	-1.60661720360E+01	-1.71973361635E+02	8.13860755224E+00	-1.77909768608E+02	-4.10314403308E+01	1.53201441340E+02	-5.84345312194E+00	-3.93412812638E-01
3.44382709190E+05	-1.70470977911E+01	1.60667032145E+02	8.11499887856E+00	-1.78332494191E+02	-5.19310107253E+01	3.55303941396E+01	-5.82572969380E+00	-2.42518673518E-01
3.66574063785E+05	-1.62841233861E+01	1.72610675620E+02	8.12468728466E+00	-1.78491664064E+02	-5.38161614181E+01	-5.75955704816E+01	-5.84383982085E+00	-3.31386307878E-01
3.88765418380E+05	-1.41191625353E+01	1.64860672759E+02	8.13666853315E+00	-1.78741327957E+02	-3.92452823740E+01	1.50640856766E+02	-5.82741951757E+00	-3.84101913978E-01
4.10956772975E+05	-1.75238153183E+01	1.60898919474E+02	8.14630542643E+00	-1.79150359427E+02	-6.69928880487E+01	-2.93005586863E+01	-5.82770234524E+00	-3.25298595941E-01
4.33148127570E+05	-1.98646618134E+01	-1.68903792195E+02	8.15194546592E+00	-1.79194238884E+02	-5.36175882895E+01	1.05304198016E+02	-5.85518452597E+00	-4.72872943381E-01
4.55339482165E+05	-2.18860374527E+01	-1.43315417348E+02	8.15811413361E+00	-1.79678438234E+02	-4.35168267365E+01	-1.28946938542E+02	-5.85929540258E+00	-2.59836325743E-01
4.77530836760E+05	-1.55581017047E+01	-1.44353631727E+02	8.18005224911E+00	-1.79952406608E+02	-4.55989103780E+01	-1.46042492364E+02	-5.82536406372E+00	-2.81083763739E-01
4.99722191355E+05	-1.80925192809E+01	1.35285565741E+02	8.16168967681E+00	-1.79847585497E+02	-4.33113857419E+01	2.49465857449E+01	-5.85374696997E+00	-3.93354530088E-01
5.21913545950E+05	-1.55202898460E+01	1.71467898583E+02	8.15252062226E+00	1.79863659829E+02	-3.84893816816E+01	-4.73108317810E+01	-5.85807389386E+00	-2.90668604068E-01
5.44104900545E+05	-1.37289993640E+01	1.68063667043E+02	8.15310195656E+00	1.79674869498E+02	-4.33132251152E+01	7.18629002593E+01	-5.83672926639E+00	-3.45113710368E-01
5.66296255139E+05	-1.52431118075E+01	-1.47470627083E+02	8.17263935874E+00	1.79283103522E+02	-4.16756191569E+01	1.37989872584E+02	-5.82853289232E+00	-4.91989505347E-01
5.88487609734E+05	-1.80406455994E+01	-1.35579425703E+02	8.16756219487E+00	1.78928072588E+02	-4.43026773857E+01	-5.17695026320E+01	-5.84692596627E+00	-2.90564122893E-01
6.10678964329E+05	-1.95312563611E+01	1.41487859756E+02	8.19276469517E+00	1.79190691037E+02	-4.43795007989E+01	1.23061793243E+02	-5.84444942145E+00	7.92156595936E-02
6.32870318924E+05	-1.61816981803E+01	-1.59191324084E+02	8.18740578998E+00	1.78589631798E+02	-4.60937585033E+01	-1.47943722903E+02	-5.82260949191E+00	-2.09710151714E-01
6.55061673519E+05	-1.47566705380E+01	1.73430649592E+02	8.15581698707E+00	1.78694039176E+02	-4.15902521592E+01	1.22525903473E+02	-5.83480039327E+00	-3.34732929185E-01
6.77253028114E+05	-1.66049230871E+01	1.76191853062E+02	8.17145169534E+00	1.78351660145E+02	-4.30620301861E+01	4.96879078019E+01	-5.84937249465E+00	-8.24834531277E-01
6.99444382709E+05	-1.76090119198E+01	1.42939743907E+02	8.18977297261E+00	1.78343653773E+02	-4.24057896464E+01	1.92376469185E+01	-5.85007215033E+00	-4.55610359030E-01
7.21635737304E+05	-1.34522924253E+01	-1.60633967618E+02	8.13030240791E+00	1.78053586747E+02	-3.76243914040E+01	-9.97472252890E+01	-5.84961198409E+00	-2.84852164456E-01
7.43827091899E+05	-2.29266794332E+01	1.09604387095E+02	8.17729837319E+00	1.78273171557E+02	-4.33135279333E+01	9.52328108308E+01	-5.84110679046E+00	-4.08923391350E-01
7.66018446494E+05	-1.87691497314E+01	-1.54768591895E+02	8.21007980516E+00	1.77908492813E+02	-5.48477977963E+01	-6.48552207621E+01	-5.84317513868E+00	-4.46717011193E-01
7.88209801089E+05	-1.66527451697E+01	-1.76798469857E+02	8.12453781817E+00	1.77888962828E+02	-5.13461519606E+01	-5.97528629530E+01	-5.82624401641E+00	-3.39336401939E-01
8.10401155684E+05	-2.16577111602E+01	-1.51681044874E+02	8.20033790196E+00	1.77773329671E+02	-4.09364504079E+01	-1.12933538926E+02	-5.84395226400E+00	-4.69134364027E-01
8.32592510279E+05	-1.86207052263E+01	1.69375531845E+02	8.18995661103E+00	1.77518026179E+02	-4.94479434877E+01	-7.24070877771E+01	-5.86117581814E+00	-4.02054018624E-01
8.54783864874E+05	-1.66808420072E+01	1.65880755879E+02	8.17626773060E+00	1.77373259287E+02	-4.32496337172E+01	-7.47910885652E+01	-5.84352668076E+00	-5.31258285479E-01
8.76975219469E+05	-1.78581758599E+01	-1.76638306719E+02	8.14364053460E+00	1.77077707402E+02	-4.60182645349E+01	3.64295107609E+01	-5.85739262721E+00	-5.54730865871E-01
8.99166574064E+05	-1.62398904890E+01	-1.44896371275E+02	8.17210289951E+00	1.76868389041E+02	-4.48940872522E+01	-7.32652015045E+01	-5.83611145939E+00	-4.78159636867E-01
9.21357928659E+05	-1.70153832422E+01	1.70735925779E+02	8.16886411195E+00	1.77178070533E+02	-4.68286177910E+01	7.06792202491E+01	-5.85455450927E+00	-5.26765717497E-01
9.43549283254E+05	-1.59744315619E+01	-1.78145949451E+02	8.18427052372E+00	1.76892849544E+02	-5.38528034492E+01	1.53716596224E+02	-5.85368828621E+00	-4.43000807907E-01
9.65740637849E+05	-1.59057947211E+01	-1.53928228808E+02	8.17121752603E+00	1.76771995413E+02	-4.52207312515E+01	1.13577499541E+02	-5.84745999560E+00	-5.67902226040E-01
9.87931992444E+05	-1.73568558152E+01	1.55421757757E+02	8.20198349124E+00	1.76623339965E+02	-4.72545237179E+01	-1.08046993007E+02	-5.81070438100E+00	-3.89787365306E-01
1.01012334704E+06	-1.79887326628E+01	1.70420926092E+02	8.21347139645E+00	1.76305628738E+02	-4.74134765694E+01	1.23428077185E+01	-5.83874835130E+00	-5.73519868677E-01
1.03231470163E+06	-2.39939059562E+01	1.49524833099E+02	8.18131287296E+00	1.76318718930E+02	-4.38678968036E+01	-2.44351480188E+01	-5.86415110097E+00	-6.73021220731E-01
1.05450605623E+06	-1.92703883112E+01	1.79891820578E+02	8.16756568918E+00	1.76186675619E+02	-4.72942568753E+01	-1.66618780141E+02	-5.82782078847E+00	-5.09665138443E-01
1.07669741082E+06	-1.83266906700E+01	-1.73403269113E+02	8.16548957039E+00	1.75975714527E+02	-4.59883339607E+01	3.08848659450E+01	-5.86611930096E+00	-5.29062548360E-01
1.09888876542E+06	-1.33230489153E+01	1.75907266075E+02	8.15911035768E+00	1.75878644804E+02	-5.01748180360E+01	9.39436858794E+01	-5.86701704514E+00	-6.20149346908E-01
1.12108012001E+06	-1.55527144626E+01	-1.59694854957E+02	8.18439911564E+00	1.75719674244E+02	-4.76780808497E+01	-9.47316306470E+01	-5.84125642611E+00	-4.49905533576E-01
1.14327147461E+06	-2.15075527181E+01	1.61225047502E+02	8.19477441404E+00	1.75643357665E+02	-4.84514314760E+01	3.73727211986E+01	-5.84435649447E+00	-5.57540039555E-01
1.16546282920E+06	-1.40432715103E+01	-1.77417767124E+02	8.16813441601E+00	1.75243441635E+02	-3.85369799474E+01	-2.95589115491E+01	-5.83500965583E+00	-5.70558920999E-01
1.18765418380E+06	-1.51992114555E+01	-1.58511973351E+02	8.17285930817E+00	1.75189467030E+02	-4.98735654897E+01	-8.15377944857E+01	-5.86160506213E+00	-5.80221286938E-01
1.20984553839E+06	-1.54289845371E+01	-1.51403623662E+02	8.16179543832E+00	1.75344441817E+02	-4.24455584665E+01	-1.92348236934E+01	-5.85850166524E+00	-7.44971880927E-01
1.23203689299E+06	-2.00777565573E+01	1.63678703759E+02	8.20415609476E+00	1.75316246414E+02	-4.72265000373E+01	9.24847164904E+01	-5.86614098853E+00	-4.61912883907E-01
1.25422824758E+06	-1.65514293367E+01	-1.53884597738E+02	8.18783813017E+00	1.74711365489E+02	-5.76780431995E+01	-5.25749126163E+01	-5.84990824191E+00	-6.17008184120E-01
1.27641960218E+06	-1.59970329595E+01	-1.73388094318E+02	8.16327983936E+00	1.74763701050E+02	-4.26535520820E+01	6.60524565362E+01	-5.84334716403E+00	-6.47132402706E-01
1.29861095677E+06	-1.51039038639E+01	-1.72354600361E+02	8.16683906296E+00	1.74761914225E+02	-4.49828531795E+01	-1.01211746324E+02	-5.85106327790E+00	-6.91404031690E-01
1.32080231137E+06	-2.28242642381E+01	1.66576013366E+02	8.18620851947E+00	1.74869847164E+02	-4.68105229819E+01	7.69411036084E+01	-5.83910244275E+00	-1.20232286935E+00
1.34299366596E+06	-1.74657005327E+01	-1.67686753186E+02	8.14906018969E+00	1.74503286211E+02	-4.65832259099E+01	-3.24067929454E+01	-5.84241067940E+00	-8.13898732914E-01
1.36518502056E+06	-2.20402841745E+01	-1.71602169242E+02	8.19735155698E+00	1.74656676870E+02	-4.27094196619E+01	-9.73694508826E+01	-5.82770335900E+00	-4.97795239327E-01
1.38737637515E+06	-1.57526139927E+01	-1.62562973155E+02	8.16856947169E+00	1.74414845365E+02	-5.31880059553E+01	5.25934461412E+01	-5.84503976980E+00	-7.17788112786E-01
1.40956772975E+06	-2.60394638054E+01	1.76160436832E+02	8.21904624641E+00	1.74284769728E+02	-5.00024748205E+01	-9.93958845634E+01	-5.83828477859E+00	-7.19365332861E-01
1.43175908434E+06	-1.82492987413E+01	-1.62704846186E+02	8.15294512888E+00	1.74104183070E+02	-4.11086998780E+01	-1.55860692395E+02	-5.82580588231E+00	-7.77820991159E-01
1.45395043894E+06	-2.14898892083E+01	1.55646125413E+02	8.23943469926E+00	1.74211001734E+02	-5.06569864909E+01	1.29568933761E+02	-5.84876669658E+00	-7.09976144646E-01
1.47614179353E+06	-2.34016910793E+01	-1.51838263638E+02	8.20593327665E+00	1.73794168700E+02	-3.87125681930E+01	1.45960410627E+02	-5.83818708448E+00	-7.75328132703E-01
1.49833314813E+06	-1.45255627091E+01	-1.72106483242E+02	8.16313996880E+00	1.73846359892E+02	-3.97315410730E+01	-1.10973356084E+02	-5.83914776689E+00	-6.24038872618E-01
1.52052450272E+06	-1.74635788392E+01	1.75408805451E+02	8.20334467524E+00	1.73681668213E+02	-5.14004936900E+01	-1.85837623959E+01	-5.84715269832E+00	-7.29389132698E-01
1.54271585732E+06	-2.37824824890E+01	1.62735797243E+02	8.21611439543E+00	1.73803569615E+02	-4.88394333265E+01	6.32282897432E+00	-5.84946689905E+00	-8.03289585121E-01
1.56490721191E+06	-1.80652521440E+01	-1.73774477271E+02	8.19230552507E+00	1.73337863496E+02	-4.54074392540E+01	1.43272789440E+02	-5.84702671884E+00	-9.48497484716E-01
1.58709856651E+06	-1.81836214834E+01	-1.58743595155E+02	8.16102773323E+00	1.73531028960E+02	-4.13927560615E+01	2.85782081181E+01	-5.83957977523E+00	-7.80763444165E-01
1.60928992110E+06	-2.02988805900E+01	-1.59976042784E+02	8.16700512874E+00	1.73391971120E+02	-3.98130148446E+01	-1.97382278340E+01	-5.86107125352E+00	-9.08869090107E-01
1.63148127570E+06	-1.59830874980E+01	-1.74607646853E+02	8.14417601055E+00	1.72907764108E+02	-3.69627342758E+01	1.71833584762E+02	-5.81560862408E+00	-8.95613976993E-01
1.65367263029E+06	-1.53822426796E+01	1.76933126080E+02	8.19821130295E+00	1.73106722748E+02	-5.62428705897E+01	-4.42766835947E+00	-5.85822378220E+00	-8.00764595991E-01
1.67586398489E+06	-1.63527978576E+01	1.27560880344E+02	8.15022572759E+00	1.73211734694E+02	-5.01285944828E+01	9.41652594874E+01	-5.83825787279E+00	-9.61285881819E-01
1.69805533948E+06	-1.40471489833E+01	1.63259847606E+02	8.17981577726E+00	1.72788020932E+02	-4.92802348400E+01	-1.34627730550E+02	-5.84356719573E+00	-7.16982057304E-01
1.72024669408E+06	-1.62685928683E+01	-1.67885575393E+02	8.18856590880E+00	1.72697574260E+02	-4.89221567986E+01	8.07554738366E+01	-5.84265248408E+00	-9.76193684856E-01
1.74243804867E+06	-1.67536884677E+01	-1.57720996058E+02	8.17756430131E+00	1.72553808155E+02	-4.46580413600E+01	-6.42814037137E+01	-5.84491271375E+00	-8.96384014356E-01
1.76462940327E+06	-2.07324486928E+01	-1.79448220723E+02	8.21310441048E+00	1.72656479882E+02	-4.38109090945E+01	-1.45811942337E+02	-5.81594223936E+00	-9.35521768905E-01
1.78682075786E+06	-1.89244839940E+01	-1.42132598561E+02	8.21278620057E+00	1.72145081450E+02	-4.24298169049E+01	-1.76620086477E+02	-5.80652506070E+00	-8.71696173378E-01
1.80901211246E+06	-2.03154201110E+01	1.79898819404E+02	8.18251510336E+00	1.72454983476E+02	-3.09528382045E+01	-2.80495204358E+01	-5.88777861091E+00	-9.75191557027E-01
1.83120346705E+06	-1.48773292207E+01	-6.23845337692E+01	8.28500796528E+00	1.72710044632E+02	-7.03112030454E+01	4.72389889508E+01	-5.83465046662E+00	-9.57676309535E-01
1.85339482165E+06	-1.85736431856E+01	1.43384811392E+02	8.18147157134E+00	1.72185662868E+02	-4.85016202883E+01	-3.46057329353E-01	-5.83774475488E+00	-1.09530202744E+00
1.87558617624E+06	-1.39536048762E+01	-1.70491074220E+02	8.16224605271E+00	1.71861201327E+02	-4.59172237072E+01	-1.74792555438E+01	-5.83805449970E+00	-8.54011721445E-01
1.89777753084E+06	-1.34816229483E+01	-1.68547166654E+02	8.15533011165E+00	1.71798763293E+02	-4.06582023171E+01	-2.78973232211E+01	-5.85479360144E+00	-9.59160740372E-01
1.91996888543E+06	-1.64515640247E+01	-1.56296542871E+02	8.21654205386E+00	1.71664914403E+02	-4.46072519981E+01	2.64922083130E+01	-5.84271134601E+00	-1.08170379307E+00
1.94216024003E+06	-1.49755718455E+01	1.62930832643E+02	8.18545057403E+00	1.71499137437E+02	-3.93684115699E+01	-7.19909939109E+01	-5.86436034023E+00	-9.06852916648E-01
1.96435159462E+06	-1.49551878439E+01	-1.54115045412E+02	8.18232567136E+00	1.71599108114E+02	-3.95380574433E+01	-8.36519201760E+01	-5.86786138067E+00	-8.45152293801E-01
1.98654294922E+06	-9.92950954231E+00	-1.64536419317E+02	8.16589356244E+00	1.71209080817E+02	-5.23073352443E+01	-4.99756642149E+01	-5.84792684827E+00	-9.85022084914E-01
2.00873430381E+06	-1.99696121284E+01	-1.76122797334E+02	8.18977321645E+00	1.71381133791E+02	-4.73846929706E+01	-4.95574485313E+01	-5.84911762245E+00	-8.68998130118E-01
2.03092565841E+06	-1.46605467346E+01	1.71742556493E+02	8.14421723039E+00	1.70991577178E+02	-4.35007347898E+01	1.50234916712E+02	-5.82436710062E+00	-9.96646251466E-01
2.05311701300E+06	-1.62429593634E+01	-1.70941728655E+02	8.18764641973E+00	1.71051629197E+02	-4.62145186988E+01	4.62400626884E+01	-5.83546828760E+00	-1.07402886957E+00
2.07530836760E+06	-1.60661632760E+01	-1.62880557089E+02	8.18497961413E+00	1.70896779185E+02	-5.03761535386E+01	1.68722772057E+02	-5.85429488701E+00	-1.05079817895E+00
2.09749972219E+06	-1.58436041695E+01	1.79444982494E+02	8.16183594718E+00	1.70699699408E+02	-4.18889523471E+01	7.26857948651E+01	-5.84365716695E+00	-1.05640440387E+00
2.11969107679E+06	-2.15166584180E+01	1.64852647260E+02	8.18950898659E+00	1.70928492284E+02	-3.40396874066E+01	1.04343657346E+02	-5.81264276940E+00	-1.33311262682E+00
2.14188243138E+06	-1.62883356663E+01	-1.50302025757E+02	8.25489697736E+00	1.70788230242E+02	-4.25168169364E+01	1.02338012534E+02	-5.83688637971E+00	-1.13109592194E+00
2.16407378598E+06	-9.43191399093E+00	-1.77592063330E+02	8.12221747226E+00	1.70061586361E+02	-4.42168071998E+01	-7.19858675696E+01	-5.85672485371E+00	-1.09094823368E+00
2.18626514057E+06	-1.54246992578E+01	1.69217382064E+02	8.15492337352E+00	1.70610754902E+02	-4.24783928608E+01	5.39859906862E+01	-5.84251213598E+00	-1.27326514675E+00
2.20845649517E+06	-2.02378447176E+01	-1.53908010488E+02	8.23410321106E+00	1.70268232588E+02	-4.86951388844E+01	6.91127641278E+01	-5.84530015988E+00	-1.08069313787E+00
2.23064784976E+06	-2.02416186655E+01	1.79122047909E+02	8.22010929824E+00	1.70361741361E+02	-4.52246508268E+01	1.28123886794E+02	-5.80038851206E+00	-1.21289284151E+00
2.25283920436E+06	-1.80620105253E+01	1.67194367942E+02	8.20493970628E+00	1.70315647603E+02	-4.69916550082E+01	1.23470763809E+01	-5.84252397678E+00	-1.10666715709E+00
2.27503055895E+06	-1.49259578904E+01	1.71803476224E+02	8.18487960505E+00	1.70000426642E+02	-3.47483239832E+01	1.79635202976E+02	-5.81359126965E+00	-9.84987476008E-01
2.29722191355E+06	-1.81469733737E+01	1.77587301028E+02	8.20633886930E+00	1.70172006903E+02	-5.24190734139E+01	1.54585091657E+02	-5.84048553259E+00	-1.05296942998E+00
2.31941326814E+06	-1.83217333344E+01	1.40990235545E+02	8.17734020438E+00	1.69903119641E+02	-4.83780125677E+01	-6.80698089644E+01	-5.84778871659E+00	-1.15624820817E+00
2.34160462274E+06	-1.93120109164E+01	-1.73435481167E+02	8.21404106181E+00	1.69767708478E+02	-4.28444422112E+01	9.62919473640E+01	-5.83676022392E+00	-1.27684985016E+00
2.36379597733E+06	-1.92801865000E+01	1.49727625988E+02	8.19421432056E+00	1.69721447949E+02	-5.39392124669E+01	7.91710068955E+01	-5.85639402856E+00	-1.29361558203E+00
2.38598733193E+06	-2.02952399769E+01	1.74735668553E+02	8.21374094237E+00	1.69448612362E+02	-4.08781636187E+01	1.28175105447E+02	-5.83791798295E+00	-1.20044806232E+00
2.40817868652E+06	-1.93940345626E+01	1.69248693171E+02	8.20286467959E+00	1.69311188358E+02	-3.97445428084E+01	2.36065526909E+01	-5.85915486353E+00	-1.48664715992E+00
2.43037004112E+06	-1.40239738481E+01	1.77991098586E+02	8.16355270218E+00	1.69205610144E+02	-4.01784633029E+01	-1.36482955304E+02	-5.85021213693E+00	-1.37244667301E+00
2.45256139571E+06	-1.76904352757E+01	-1.13704035644E+02	8.27850244161E+00	1.69232360617E+02	-4.44723683063E+01	-1.36852154129E+02	-5.85532676013E+00	-1.08320664348E+00
2.47475275031E+06	-1.43186904740E+01	-1.78749281401E+02	8.19258367119E+00	1.69259797522E+02	-5.78038925445E+01	-6.74501650232E+01	-5.84362374049E+00	-1.27502133379E+00
2.49694410490E+06	-1.70169756415E+01	-1.76008510155E+02	8.19978630312E+00	1.69067577155E+02	-4.52475585770E+01	-7.71965585303E+01	-5.84192932239E+00	-1.01533403376E+00
2.51913545950E+06	-1.73228460253E+01	-1.50850006204E+02	8.23497585221E+00	1.68708351357E+02	-5.84885244794E+01	2.21755326967E+01	-5.85814782414E+00	-1.36005323712E+00
2.54132681409E+06	-2.06394090514E+01	1.60297996101E+02	8.25265673537E+00	1.68785630883E+02	-4.89013185115E+01	1.65586709885E+02	-5.84104776050E+00	-1.29534700072E+00
2.56351816869E+06	-1.60781195310E+01	-1.56649356718E+02	8.24400816195E+00	1.68674433784E+02	-4.60064955010E+01	-1.20842147717E+02	-5.84206101866E+00	-1.13374644707E+00
2.58570952328E+06	-1.64553646564E+01	-1.62547722020E+02	8.20388342820E+00	1.68340479597E+02	-3.06081294310E+01	-4.96570484353E+01	-5.88391926466E+00	-1.22189130387E+00
2.60790087788E+06	-1.28030682283E+01	1.64806883493E+02	8.14883363405E+00	1.68256712374E+02	-4.12140089090E+01	1.30518642626E+02	-5.85383432712E+00	-1.23571920164E+00
2.63009223247E+06	-1.23795871673E+01	1.37924038878E+02	8.13936933440E+00	1.68484193596E+02	-4.68537403710E+01	-6.75252839907E+01	-5.86057693401E+00	-8.64151099938E-01
2.65228358707E+06	-1.41618844162E+01	1.79376249748E+02	8.18938204248E+00	1.68343464253E+02	-4.31838338793E+01	6.03428531112E+01	-5.85084424393E+00	-1.41528593603E+00
2.67447494166E+06	-2.08043191809E+01	1.43520277008E+02	8.22821610809E+00	1.68497225752E+02	-5.30213629328E+01	-7.82514168486E+01	-5.85426573935E+00	-1.30672884809E+00
2.69666629626E+06	-2.10860516528E+01	-1.53401774277E+02	8.24910570285E+00	1.67810313391E+02	-3.86281913148E+01	5.94763764537E+01	-5.85692455799E+00	-1.46975986005E+00
2.71885765085E+06	-1.65255525885E+01	1.79880090931E+02	8.20452149367E+00	1.67776113000E+02	-4.64774923072E+01	6.32171926085E+01	-5.85939690258E+00	-1.55093800444E+00
2.74104900545E+06	-2.15401743906E+01	1.76118381093E+02	8.24401554321E+00	1.67948881193E+02	-4.46246029524E+01	-1.14016372173E+02	-5.85634930868E+00	-1.44762165255E+00
2.76324036004E+06	-1.73748412716E+01	1.56655048803E+02	8.19800856357E+00	1.67927273841E+02	-5.14912760609E+01	1.47183972156E+01	-5.82598939224E+00	-1.34283019039E+00
2.78543171463E+06	-2.23359605366E+01	-1.64900636854E+02	8.21716561369E+00	1.67767379744E+02	-5.93889151993E+01	-1.21387647561E+02	-5.85914104510E+00	-1.35982393912E+00
2.80762306923E+06	-2.16963065581E+01	-1.70348121921E+02	8.22635258234E+00	1.67652895229E+02	-4.30080432346E+01	7.13433700921E+01	-5.84428567903E+00	-1.50560697333E+00
2.82981442382E+06	-1.89292894572E+01	1.75617925707E+02	8.22248878141E+00	1.67295678703E+02	-5.37878303941E+01	1.33482598982E+02	-5.82674500988E+00	-1.43926416401E+00
2.85200577842E+06	-1.67676512718E+01	1.70626504689E+02	8.19374091908E+00	1.67578135343E+02	-4.26054040850E+01	1.13897195901E+02	-5.83566405202E+00	-1.55232741721E+00
2.87419713301E+06	-1.69890600119E+01	-1.35468569994E+02	8.25660017268E+00	1.67154321923E+02	-4.80733178588E+01	1.10768851477E+02	-5.83861433059E+00	-1.44827365966E+00
