# Hz S DB R 50
! CMT, M5065, 19127446, 24.2.4/2
! Date: 11/8/2024 3:57:03 PM
! Data: Format (Calibration Info)
! Freq	S11:dB/Ang(F2)	S21:dB/Ang(F2)	S12:dB/Ang(F2)	S22:dB/Ang(F2)
3.00000000000E+05	-2.08234813589E+01	1.57114458216E+02	7.82200812282E+00	-1.77408251860E+02	-4.05162941352E+01	6.48307273999E+01	-5.84904359055E+00	-4.75223157532E-01
3.22191354595E+05	-1.63219664748E+01	1.78315567361E+02	7.75822629257E+00	-1.77864350344E+02	-4.06009999110E+01	5.32322661935E+01	-5.83660333844E+00	-3.14451434102E-01
3.44382709190E+05	-1.67950763078E+01	-1.14564389035E+02	7.79449989765E+00	-1.78643312180E+02	-4.52010791888E+01	8.48611028412E+01	-5.84378617933E+00	-3.20794882008E-01
3.66574063785E+05	-1.76164620485E+01	1.77460053224E+02	7.78325807735E+00	-1.78722634954E+02	-4.43520186914E+01	1.58010843845E+02	-5.85883279624E+00	-2.96251991119E-01
3.88765418380E+05	-2.02722861383E+01	-1.72207491133E+02	7.78699865789E+00	-1.79206791975E+02	-4.41755074793E+01	-6.58422616969E+01	-5.87856439546E+00	-4.02839782671E-02
4.10956772975E+05	-2.13184551904E+01	-1.49930246269E+02	7.80599765219E+00	-1.79170728740E+02	-4.87018821881E+01	-3.17299558113E+01	-5.84130844977E+00	-3.33400043411E-01
4.33148127570E+05	-1.65443290272E+01	-1.76061644396E+02	7.77909543098E+00	-1.79389549903E+02	-4.75503653645E+01	-4.62574884051E+00	-5.85133651716E+00	-1.95666030216E-01
4.55339482165E+05	-2.34674978933E+01	-1.63168573036E+02	7.85497277056E+00	-1.79731237814E+02	-4.08725778512E+01	-7.20747305181E+01	-5.83825220859E+00	-3.82362544744E-01
4.77530836760E+05	-2.69710924177E+01	1.63701073956E+02	7.84184958150E+00	-1.79818353773E+02	-4.33540163968E+01	-4.73188507543E+01	-5.84419320089E+00	-2.19501085162E-01
4.99722191355E+05	-1.77722218334E+01	1.48000936234E+02	7.79770034653E+00	-1.79990225151E+02	-3.90046579635E+01	3.45213829693E+01	-5.86438385322E+00	-5.64903113928E-01
5.21913545950E+05	-1.94812542152E+01	-1.52022031986E+02	7.80761858277E+00	1.79816054099E+02	-4.87090448667E+01	-7.38752239783E+01	-5.85930729256E+00	-2.57456306730E-01
5.44104900545E+05	-1.57824386509E+01	1.76670563394E+02	7.78502865042E+00	1.79729569519E+02	-4.86910698524E+01	-1.11876663237E+01	-5.83910007393E+00	-4.12220328888E-01
5.66296255139E+05	-1.61218418569E+01	1.51759924784E+02	7.78559133393E+00	1.79592687765E+02	-4.68886808885E+01	1.00213079697E+02	-5.83913655815E+00	-3.11121530451E-01
5.88487609734E+05	-2.09952138960E+01	-1.71133268541E+02	7.85259636123E+00	1.79276789102E+02	-5.15026597190E+01	1.43419168545E+02	-5.84441639489E+00	-3.52170961438E-01
6.10678964329E+05	-1.48441734948E+01	1.64976669039E+02	7.80051181433E+00	1.79143705047E+02	-4.86551914084E+01	-1.62801079233E+01	-5.83635972532E+00	2.69768226314E-01
6.32870318924E+05	-1.57881048895E+01	1.50436319311E+02	7.81027567347E+00	1.78970949410E+02	-4.52516790313E+01	-1.50308254613E+02	-5.83988092038E+00	-2.43502983642E-01
6.55061673519E+05	-1.66850959777E+01	-1.33804898220E+02	7.82701327294E+00	1.78623435855E+02	-3.83509721773E+01	-8.24299056112E+01	-5.85520052160E+00	-2.31137854642E-01
6.77253028114E+05	-1.72019317367E+01	-1.74584315725E+02	7.79638259905E+00	1.78686404929E+02	-4.19365553926E+01	-3.77939885552E+01	-5.87285156037E+00	-6.87003034616E-01
6.99444382709E+05	-1.68908705299E+01	1.51737849744E+02	7.79475004161E+00	1.78780319005E+02	-4.43065099624E+01	1.53940476915E+02	-5.82774705655E+00	-4.91262011920E-01
7.21635737304E+05	-1.71124569856E+01	1.66634400123E+02	7.80121366829E+00	1.78214034383E+02	-4.49732479561E+01	1.93995105959E+01	-5.84270777554E+00	-3.05578567579E-01
7.43827091899E+05	-1.86663492430E+01	-1.70665173802E+02	7.78737707711E+00	1.78122461544E+02	-4.59973798403E+01	-1.25875498013E+02	-5.84753224220E+00	-3.32403292064E-01
7.66018446494E+05	-1.97846987994E+01	-1.57682911469E+02	7.85847509352E+00	1.77933911444E+02	-5.95310777238E+01	-7.53920561726E+01	-5.84755850246E+00	-4.81458006002E-01
7.88209801089E+05	-1.52774435412E+01	1.48647055676E+02	7.81234653070E+00	1.78078976405E+02	-4.75107563627E+01	-1.35794725668E+02	-5.84070616215E+00	-2.96089860919E-01
8.10401155684E+05	-2.00180545003E+01	-1.60982051314E+02	7.82945714239E+00	1.77531272626E+02	-3.79990054005E+01	-8.65061034816E+01	-5.84597138625E+00	-2.69543567877E-01
8.32592510279E+05	-1.90693351126E+01	1.69345796338E+02	7.82187798911E+00	1.77680921969E+02	-4.61699202101E+01	1.13492250263E+02	-5.83047336924E+00	-5.71063996379E-01
8.54783864874E+05	-1.67935271357E+01	1.79216812515E+02	7.83436247431E+00	1.77392265503E+02	-4.59402218241E+01	-1.45716675402E+02	-5.84542400244E+00	-5.35641625273E-01
8.76975219469E+05	-1.67895780467E+01	1.48606759164E+02	7.75455888933E+00	1.77619758529E+02	-3.86829460804E+01	5.92761777381E+00	-5.90061449330E+00	-5.02835904529E-01
8.99166574064E+05	-1.84059986233E+01	1.78416810785E+02	7.82365531323E+00	1.76906181746E+02	-4.53543524840E+01	7.62536366368E+01	-5.84859299949E+00	-5.04982119991E-01
9.21357928659E+05	-1.46477408322E+01	1.79380010457E+02	7.83120536883E+00	1.76784593691E+02	-4.28782432389E+01	-5.00948656911E+01	-5.86747207333E+00	-5.38111959415E-01
9.43549283254E+05	-1.63084532157E+01	1.71243271517E+02	7.77858181747E+00	1.76845142850E+02	-3.59473595675E+01	1.70033567855E+02	-5.81992358412E+00	-4.92040515805E-01
9.65740637849E+05	-1.56629611214E+01	1.79165009821E+02	7.81747364415E+00	1.76692914573E+02	-4.50150382777E+01	8.31828119554E+01	-5.81370626192E+00	-6.22402851828E-01
9.87931992444E+05	-1.58226908045E+01	-1.71616177058E+02	7.80046505638E+00	1.76407035475E+02	-4.98775352979E+01	-6.17527040370E+01	-5.86056277435E+00	-6.61744741007E-01
1.01012334704E+06	-1.72297983694E+01	-1.49195961055E+02	7.81341627683E+00	1.76208392057E+02	-4.72847612349E+01	-5.69294165137E+01	-5.85072623689E+00	-4.41253165626E-01
1.03231470163E+06	-1.47484518541E+01	1.72729686443E+02	7.77983835194E+00	1.76475253183E+02	-4.74841435562E+01	-1.76505735099E+02	-5.83683097608E+00	-5.48033358908E-01
1.05450605623E+06	-1.83267153716E+01	1.48639161018E+02	7.80800525220E+00	1.76370996861E+02	-3.99209393242E+01	1.46929504390E+02	-5.81990447361E+00	-4.55417359976E-01
1.07669741082E+06	-1.50831469869E+01	1.66420794049E+02	7.77204132580E+00	1.76494035304E+02	-4.60433594635E+01	2.18401387349E+01	-5.84320165183E+00	-6.55837092782E-01
1.09888876542E+06	-1.83408365390E+01	-1.12413326373E+02	7.84435044696E+00	1.75886718775E+02	-4.04078266921E+01	3.95531852231E+01	-5.85204685566E+00	-5.19641848299E-01
1.12108012001E+06	-1.46279714505E+01	1.50683870646E+02	7.77980542394E+00	1.76176821704E+02	-5.47216228348E+01	2.32512595567E+00	-5.84757241822E+00	-6.83212982065E-01
1.14327147461E+06	-1.72978110923E+01	-1.65565677780E+02	7.80957547137E+00	1.75680531132E+02	-4.36024497631E+01	1.33687634957E+02	-5.84149130448E+00	-5.88652237963E-01
1.16546282920E+06	-1.96884943659E+01	1.74075345041E+02	7.83688694079E+00	1.75793691700E+02	-4.99142093258E+01	-7.09775975949E+00	-5.84249677342E+00	-6.12506205547E-01
1.18765418380E+06	-1.73183054053E+01	-1.57488966750E+02	7.84812921026E+00	1.75506146046E+02	-4.30744675798E+01	-5.01560806164E+01	-5.85190764571E+00	-4.83800268093E-01
1.20984553839E+06	-1.60301959614E+01	-1.43373184235E+02	7.80374372690E+00	1.75253199258E+02	-4.43848139627E+01	7.85672643702E+01	-5.85199497585E+00	-9.65158858390E-01
1.23203689299E+06	-1.47539359804E+01	-1.59633953862E+02	7.78853052554E+00	1.75225823102E+02	-4.92126051955E+01	-3.57030179508E-01	-5.86081688874E+00	-3.77369273655E-01
1.25422824758E+06	-1.89186432126E+01	-1.60532622330E+02	7.83805971274E+00	1.75066674878E+02	-4.57159417460E+01	1.60395691114E+02	-5.82081856517E+00	-6.81246940072E-01
1.27641960218E+06	-2.09653245755E+01	-1.78973358917E+02	7.81297796912E+00	1.75249427221E+02	-5.19267078461E+01	-5.48140871021E+01	-5.85213569556E+00	-6.02819556091E-01
1.29861095677E+06	-1.55203281814E+01	1.61139078238E+02	7.81837918617E+00	1.74918356045E+02	-5.38624442734E+01	3.08549647224E+01	-5.85448563984E+00	-7.47962749564E-01
1.32080231137E+06	-1.72176856742E+01	1.65785033651E+02	7.80701538981E+00	1.74893264774E+02	-4.51017713788E+01	1.01335268638E+02	-5.83449375412E+00	-9.57512133839E-01
1.34299366596E+06	-1.94511837571E+01	-1.58248307341E+02	7.84059126635E+00	1.74602329262E+02	-4.54760246277E+01	-1.20944691439E+02	-5.84595713675E+00	-7.77313324222E-01
1.36518502056E+06	-1.63948446360E+01	-1.78362931054E+02	7.79134468117E+00	1.74681072943E+02	-4.65883799237E+01	6.04589382941E+01	-5.84934541974E+00	-8.90815751811E-01
1.38737637515E+06	-1.41879601755E+01	-1.76920989208E+02	7.77141395432E+00	1.74529427756E+02	-4.70100508262E+01	-1.27317494762E+01	-5.85701803562E+00	-6.48619254092E-01
1.40956772975E+06	-1.73905995075E+01	1.50208292830E+02	7.82423838705E+00	1.74468407222E+02	-3.86928717862E+01	6.90879684818E+01	-5.83363810982E+00	-8.66811006015E-01
1.43175908434E+06	-1.15325502259E+01	1.40530955087E+02	7.73250428460E+00	1.74525644326E+02	-3.21400918736E+01	1.42789126208E+02	-5.82234649166E+00	-6.68953418372E-01
1.45395043894E+06	-2.07960746586E+01	1.70521464557E+02	7.82742620425E+00	1.74362422151E+02	-4.54858719827E+01	8.03462708204E+01	-5.85500953877E+00	-8.80839410116E-01
1.47614179353E+06	-1.93892650327E+01	-1.44935894703E+02	7.83756060549E+00	1.73791644309E+02	-5.09849428147E+01	-9.60631626082E+00	-5.84353466864E+00	-7.77672673964E-01
1.49833314813E+06	-1.66098061972E+01	1.65778192394E+02	7.81032184815E+00	1.74053086916E+02	-4.15076019968E+01	-1.13683967604E+02	-5.84494229920E+00	-5.03586101673E-01
1.52052450272E+06	-1.91820764413E+01	-1.67972196419E+02	7.82727448940E+00	1.73825096147E+02	-5.23593189093E+01	-1.06494222875E+02	-5.84428786592E+00	-6.67905484901E-01
1.54271585732E+06	-1.50809240953E+01	-1.56388392141E+02	7.80401739573E+00	1.73365013217E+02	-4.05562199346E+01	1.77999532496E+02	-5.83940254114E+00	-8.15811492536E-01
1.56490721191E+06	-1.68409136380E+01	-1.34497948354E+02	7.85356547156E+00	1.73547062034E+02	-4.22498353035E+01	7.15448867766E+01	-5.84994601279E+00	-7.95653704697E-01
1.58709856651E+06	-1.78694925418E+01	1.40661886610E+02	7.81806134358E+00	1.74016128839E+02	-4.17981275966E+01	-1.62582639032E+02	-5.83864785867E+00	-6.25640071654E-01
1.60928992110E+06	-1.61803508470E+01	1.75991667443E+02	7.82754930009E+00	1.73520543876E+02	-4.65024605410E+01	-3.88778445943E+01	-5.86934547022E+00	-8.11670815984E-01
1.63148127570E+06	-1.44745900469E+01	-1.51507831091E+02	7.80706889626E+00	1.73027398919E+02	-3.80302600076E+01	-1.44541204968E+02	-5.82509924574E+00	-7.07386315675E-01
1.65367263029E+06	-1.22405607549E+01	-1.71491124908E+02	7.80622166922E+00	1.73333516978E+02	-5.56673167659E+01	-8.03559935059E+01	-5.83821793660E+00	-1.10068592612E+00
1.67586398489E+06	-1.55863091222E+01	-1.73934998154E+02	7.82773386682E+00	1.73029914370E+02	-4.65327818311E+01	9.00902261414E+01	-5.85161434684E+00	-8.78328690307E-01
1.69805533948E+06	-1.53435128692E+01	-1.69497801236E+02	7.78652556997E+00	1.72853804305E+02	-4.15372010338E+01	1.18416655451E+02	-5.82226526997E+00	-8.84526917708E-01
1.72024669408E+06	-1.40946057579E+01	-1.53231874406E+02	7.83974716859E+00	1.72689323993E+02	-3.80201767828E+01	5.86364092670E+01	-5.82481662526E+00	-1.07503652958E+00
1.74243804867E+06	-2.57572383538E+01	1.03222226205E+02	7.82656465915E+00	1.72971059312E+02	-3.51106669111E+01	1.72094734216E+02	-5.81050363012E+00	-8.66469957926E-01
1.76462940327E+06	-1.32249938302E+01	-1.75439467472E+02	7.82221018024E+00	1.72711940754E+02	-4.62445500138E+01	-1.21129223560E+02	-5.82812684025E+00	-7.57519593682E-01
1.78682075786E+06	-1.97644977017E+01	1.64122908636E+02	7.79998642192E+00	1.72637265534E+02	-4.15667213607E+01	6.11679164790E+01	-5.85127236061E+00	-9.22280988093E-01
1.80901211246E+06	-1.70742631070E+01	-1.74895164579E+02	7.82048652996E+00	1.72484277271E+02	-3.98074922198E+01	-1.16115557601E+01	-5.88380757619E+00	-8.92729610608E-01
1.83120346705E+06	-1.49181264796E+01	-1.66223512882E+02	7.80560263381E+00	1.72242856062E+02	-5.13306607644E+01	-1.05645784591E+02	-5.83553677585E+00	-8.32450885698E-01
1.85339482165E+06	-2.32477378660E+01	-1.39908994334E+02	7.86356537258E+00	1.72271236191E+02	-5.15731104341E+01	7.75180069251E+01	-5.83650842688E+00	-9.53966705597E-01
1.87558617624E+06	-1.68093654668E+01	1.75077232259E+02	7.81025794641E+00	1.72196839196E+02	-4.07751854470E+01	-7.06980614075E+01	-5.83664213178E+00	-8.53631781986E-01
1.89777753084E+06	-2.31188026365E+01	-1.47400269985E+02	7.85894404114E+00	1.71991913128E+02	-3.35700813379E+01	1.15946112335E+02	-5.81928502445E+00	-1.02091545374E+00
1.91996888543E+06	-2.68730995665E+01	-1.25103871919E+02	7.86992911685E+00	1.71928347298E+02	-4.78005643109E+01	-1.66627330213E-01	-5.84072440655E+00	-9.92757874062E-01
1.94216024003E+06	-1.98114831361E+01	-1.67703086795E+02	7.80629317120E+00	1.71808170768E+02	-5.56058601007E+01	1.25614481623E+02	-5.83266491898E+00	-1.05584619127E+00
1.96435159462E+06	-1.94859958807E+01	1.47151349216E+02	7.84052411498E+00	1.72117468342E+02	-4.29781991965E+01	1.48422182097E+02	-5.84808353812E+00	-9.38135844828E-01
1.98654294922E+06	-1.79736846165E+01	-1.79382078850E+02	7.80965551180E+00	1.71661903712E+02	-4.01958493724E+01	-8.07335896120E+01	-5.87398698027E+00	-9.60071226057E-01
2.00873430381E+06	-1.88351371463E+01	-1.52149405459E+02	7.87229054710E+00	1.71508628836E+02	-3.93153915635E+01	1.06495163206E+02	-5.83976321401E+00	-1.15571928368E+00
2.03092565841E+06	-1.50366578492E+01	-1.69975268320E+02	7.81378593335E+00	1.71092807469E+02	-4.53361287875E+01	-7.08972977584E+01	-5.85441440828E+00	-8.24678600611E-01
2.05311701300E+06	-2.41977917419E+01	-1.56570650399E+02	7.85570672833E+00	1.71172093973E+02	-3.94464886267E+01	-1.50893411907E+02	-5.83127951801E+00	-1.15086785680E+00
2.07530836760E+06	-2.17123277530E+01	-2.85603763392E+01	7.85128572281E+00	1.71470686715E+02	-5.26726242083E+01	-2.38077845261E+01	-5.84902525684E+00	-1.01802351994E+00
2.09749972219E+06	-1.87850682710E+01	1.78129700341E+02	7.83381316787E+00	1.71169736754E+02	-5.53954394992E+01	1.00993360301E+02	-5.83881858101E+00	-1.10850024463E+00
2.11969107679E+06	-1.44015736934E+01	-1.68627277564E+02	7.80839003888E+00	1.70787752151E+02	-4.36191659527E+01	-1.04149535109E+02	-5.84780141807E+00	-9.12170985378E-01
2.14188243138E+06	-1.70825936061E+01	-1.57235792353E+02	7.82686503928E+00	1.70903341438E+02	-4.23191119255E+01	-4.33034867235E+01	-5.87686233409E+00	-9.96260239063E-01
2.16407378598E+06	-1.80958646280E+01	-1.68750753426E+02	7.85301912713E+00	1.70492659818E+02	-4.17100881494E+01	-9.23221025432E+01	-5.83065518067E+00	-9.60173085162E-01
2.18626514057E+06	-2.02426370976E+01	-1.54944650612E+02	7.80504602728E+00	1.70718088257E+02	-3.91503166397E+01	-7.09198036570E+01	-5.85396395487E+00	-1.03980759225E+00
2.20845649517E+06	-1.24112772893E+01	1.65481606002E+02	7.77876663878E+00	1.70590162448E+02	-4.09451535262E+01	-1.16238373221E+02	-5.85351432630E+00	-9.52788740760E-01
2.23064784976E+06	-1.66915812546E+01	-1.62813729802E+02	7.82950738426E+00	1.70422988830E+02	-5.32845860444E+01	-1.07271583414E+02	-5.85778862064E+00	-1.10278232526E+00
2.25283920436E+06	-1.54803807833E+01	-1.60136669207E+02	7.84562095022E+00	1.70036634573E+02	-4.47853912934E+01	-1.14806395322E+02	-5.85841411095E+00	-1.19698722899E+00
2.27503055895E+06	-1.65938634724E+01	-1.77443267145E+02	7.81918681061E+00	1.70454032956E+02	-4.43068830178E+01	-5.42512133765E+01	-5.83898726865E+00	-1.04928239777E+00
2.29722191355E+06	-1.78605840854E+01	-1.55092630282E+02	7.86836041363E+00	1.70110167163E+02	-4.84624605010E+01	-9.87286272837E+01	-5.84347272466E+00	-1.18623309545E+00
2.31941326814E+06	-1.55984570377E+01	-1.77731462087E+02	7.85255323635E+00	1.69795308387E+02	-4.25410434263E+01	5.28421405391E+01	-5.85207740744E+00	-1.24237843344E+00
2.34160462274E+06	-1.92138526641E+01	1.50727948100E+02	7.84000731377E+00	1.70158352504E+02	-5.00499060783E+01	4.06441816024E+01	-5.83948723769E+00	-1.15704217446E+00
2.36379597733E+06	-1.25934613220E+01	-1.49432697322E+02	7.82921379849E+00	1.69413087321E+02	-3.27379845055E+01	8.84863037651E+01	-5.82564170937E+00	-1.30928222321E+00
2.38598733193E+06	-1.26487342229E+01	-1.44466179294E+02	7.87981310376E+00	1.69418376186E+02	-4.92057436205E+01	-1.10527396322E+02	-5.84379292124E+00	-1.11459057674E+00
2.40817868652E+06	-1.39493617770E+01	-1.66792178205E+02	7.84715841676E+00	1.69388962676E+02	-4.96906980461E+01	1.19851194272E+02	-5.85021785993E+00	-1.32144783556E+00
2.43037004112E+06	-1.69036131648E+01	-1.58897235511E+02	7.82382327397E+00	1.69384273711E+02	-4.89402822752E+01	1.49256464774E+02	-5.83913634698E+00	-1.70236389505E+00
2.45256139571E+06	-1.64735796388E+01	1.55875310611E+02	7.83835016966E+00	1.69829641558E+02	-5.62081142458E+01	1.06770493251E+02	-5.84286670342E+00	-1.18570749872E+00
2.47475275031E+06	-1.74278880974E+01	1.78807471768E+02	7.84563023704E+00	1.69383311333E+02	-4.31343486010E+01	-2.10001127220E+01	-5.84647211931E+00	-1.24571847868E+00
2.49694410490E+06	-2.00823300022E+01	-1.71494992236E+02	7.83310841388E+00	1.69462387927E+02	-4.64322412404E+01	-9.36784445864E+01	-5.86294172744E+00	-1.20706810147E+00
2.51913545950E+06	-1.87925709846E+01	-1.55862722620E+02	7.85942660776E+00	1.69065755783E+02	-2.98155217691E+01	9.87180907049E+01	-5.80211405087E+00	-1.44994318182E+00
2.54132681409E+06	-1.18863773015E+01	1.39900507607E+02	7.77640037920E+00	1.69448351966E+02	-3.77210736985E+01	-1.70790816476E+02	-5.82599254373E+00	-1.03356373443E+00
2.56351816869E+06	-1.56466448805E+01	-1.71305201467E+02	7.84300192862E+00	1.68895988610E+02	-5.43301307222E+01	1.72975465087E+02	-5.84080651624E+00	-1.27536784589E+00
2.58570952328E+06	-1.54488883823E+01	1.76695035898E+02	7.80639477322E+00	1.68697660130E+02	-4.68558650572E+01	2.15339943156E+01	-5.85350502149E+00	-1.32941080146E+00
2.60790087788E+06	-1.71170442724E+01	-1.73852544160E+02	7.83744740182E+00	1.68629383508E+02	-5.16035224139E+01	-9.85144910154E+01	-5.86517640567E+00	-1.11324483437E+00
2.63009223247E+06	-1.58650035650E+01	1.67076088618E+02	7.84329926361E+00	1.68813017380E+02	-5.45493886355E+01	1.50762388887E+02	-5.84044045139E+00	-8.94393226755E-01
2.65228358707E+06	-1.72767960968E+01	-1.39618858060E+02	7.91324888396E+00	1.68341553886E+02	-4.50379634361E+01	-1.62740660985E+02	-5.83153504915E+00	-1.30342196647E+00
2.67447494166E+06	-2.70234329680E+01	1.53394909726E+02	7.88566505972E+00	1.68655609483E+02	-3.96713273056E+01	1.78618900001E+02	-5.83577020636E+00	-1.22912163046E+00
2.69666629626E+06	-1.69357589019E+01	1.23136122814E+02	7.78949602678E+00	1.68647281258E+02	-4.47801704254E+01	1.32123727613E+02	-5.83411489160E+00	-1.40522449600E+00
2.71885765085E+06	-1.70826504666E+01	-1.56853968687E+02	7.86251592546E+00	1.68170517008E+02	-5.40482687220E+01	-2.15562856699E+01	-5.84247327171E+00	-1.38854753111E+00
2.74104900545E+06	-2.10085955649E+01	1.71006725553E+02	7.88811508814E+00	1.68242532805E+02	-5.72923981233E+01	7.66454069311E+00	-5.82436789162E+00	-1.32962936050E+00
2.76324036004E+06	-2.12971321710E+01	1.46318564397E+02	7.84106589030E+00	1.67990612682E+02	-4.59587527772E+01	4.03275657802E+01	-5.85460935077E+00	-1.47421927341E+00
2.78543171463E+06	-1.55456438696E+01	-1.44189774313E+02	7.89459829414E+00	1.67533987070E+02	-4.58662796022E+01	-4.62028852346E+01	-5.84837946325E+00	-1.39281687601E+00
2.80762306923E+06	-1.56850719557E+01	-1.55041720868E+02	7.88819398427E+00	1.67681156333E+02	-5.89472944580E+01	1.25638350121E+02	-5.85680265048E+00	-1.35092144174E+00
2.82981442382E+06	-2.08744717664E+01	1.54632938402E+02	7.83601173916E+00	1.67838692956E+02	-3.88825242134E+01	6.18021742853E+01	-5.83910060408E+00	-1.48793925621E+00
2.85200577842E+06	-1.39657851318E+01	1.69370030173E+02	7.81395978033E+00	1.67777343071E+02	-5.37032763362E+01	9.64020761515E+00	-5.85346630918E+00	-1.46637635952E+00
2.87419713301E+06	-1.72341114193E+01	-1.67376835332E+02	7.84089058270E+00	1.67338061806E+02	-5.02824718285E+01	-1.30312412250E+02	-5.84625240247E+00	-1.30974689252E+00
