# Hz S DB R 50
! CMT, M5065, 19127446, 24.2.4/2
! Date: 11/8/2024 4:16:06 PM
! Data: Format (Calibration Info)
! Freq	S11:dB/Ang(F2)	S21:dB/Ang(F2)	S12:dB/Ang(F2)	S22:dB/Ang(F2)
3.00000000000E+05	-2.49510782661E+01	8.02429587655E+01	1.99588286420E+01	-1.75754479823E+02	-5.93895321824E+01	1.46363767169E+02	-5.82459587048E+00	-3.66374032615E-01
3.22191354595E+05	-1.38292499478E+01	1.56776496125E+02	1.98916323625E+01	-1.76320252348E+02	-4.05660541401E+01	-8.43879329496E+00	-5.93844123003E+00	-4.32277250433E-01
3.44382709190E+05	-1.50700515753E+01	1.59610038842E+02	1.99208610252E+01	-1.77163061421E+02	-3.98415419480E+01	1.66724351244E+02	-5.76904817751E+00	-5.50177002195E-01
3.66574063785E+05	-2.05652559249E+01	1.49215705806E+02	1.99453700227E+01	-1.77908920887E+02	-5.11685973076E+01	-1.63338577231E+02	-5.82170728430E+00	-3.21301730277E-01
3.88765418380E+05	-1.71733302906E+01	1.79861908651E+02	1.99426575220E+01	-1.78457489543E+02	-4.74416837404E+01	-2.54149989520E+01	-5.85037097344E+00	-6.76253323849E-01
4.10956772975E+05	-1.51995518152E+01	1.64782196832E+02	1.99339636997E+01	-1.78998883357E+02	-4.04973156486E+01	1.25641378039E+02	-5.78252011106E+00	-6.41272576567E-01
4.33148127570E+05	-1.95173544855E+01	-1.63080065507E+02	1.99445163280E+01	-1.79711544869E+02	-4.21201171252E+01	1.35626583727E+02	-5.79662530886E+00	-4.91241075503E-01
4.55339482165E+05	-1.45080496378E+01	-8.33215132146E+01	1.99841231222E+01	1.79737492745E+02	-3.84299345703E+01	8.58435841084E+01	-5.84542084061E+00	-8.57162640565E-01
4.77530836760E+05	-1.97400140632E+01	1.77846945015E+02	1.99423557494E+01	1.79346374816E+02	-4.83029478080E+01	-1.17551548877E+02	-5.83853004921E+00	-3.81893979423E-01
4.99722191355E+05	-1.21745475768E+01	-1.78102207814E+02	1.99053895132E+01	1.78980575141E+02	-5.26506917977E+01	-9.14583599248E+01	-5.83470347356E+00	-2.60895882631E-01
5.21913545950E+05	-1.37949500716E+01	1.60851554300E+02	1.99048691505E+01	1.78716209584E+02	-4.63242772466E+01	-1.49167251903E+02	-5.79786069147E+00	-1.79846991734E-01
5.44104900545E+05	-1.51536687533E+01	-1.62886803886E+02	1.99337355714E+01	1.78024507066E+02	-4.00740871033E+01	-5.86780395414E+01	-5.86865913959E+00	-2.82335085423E-03
5.66296255139E+05	-1.81260854488E+01	-1.51515532375E+02	1.99624127667E+01	1.77443050892E+02	-3.84673859247E+01	5.70526778590E+00	-5.86990736618E+00	-4.40251534099E-01
5.88487609734E+05	-1.54556432432E+01	9.97214022505E+01	1.99578739120E+01	1.77712746672E+02	-4.13021921248E+01	-1.97518324120E+01	-5.87231765621E+00	-2.84175580269E-01
6.10678964329E+05	-1.56702194209E+01	1.00737435636E+02	1.99567651190E+01	1.77449922431E+02	-4.56064111564E+01	9.85588696448E+01	-5.81119386672E+00	-1.25040076938E-01
6.32870318924E+05	-1.60183866240E+01	1.61367074821E+02	1.99187802701E+01	1.76580734606E+02	-4.00939127566E+01	-9.47843879756E+00	-5.90874142468E+00	-5.55016331539E-02
6.55061673519E+05	-2.09413199495E+01	1.53171902887E+02	1.99591432722E+01	1.76439464950E+02	-4.59521465206E+01	-2.86440463234E+01	-5.88321078916E+00	-3.93328280393E-01
6.77253028114E+05	-1.74926787901E+01	-1.75053251524E+02	1.99201396604E+01	1.75936959243E+02	-4.71373932304E+01	2.88130099244E+01	-5.86153436112E+00	-8.05737908035E-01
6.99444382709E+05	-1.46472130912E+01	-1.74482955654E+02	1.99233486487E+01	1.75616227311E+02	-4.78677698967E+01	6.62760310168E+01	-5.84527120281E+00	-7.53414063060E-01
7.21635737304E+05	-1.74946786717E+01	1.76532209194E+02	1.99308587059E+01	1.75252084972E+02	-4.10835032158E+01	-1.68755181574E+02	-5.78155725690E+00	-4.28015635520E-01
7.43827091899E+05	-1.64620598120E+01	-1.57509593408E+02	1.99310590054E+01	1.74710030564E+02	-4.25392971830E+01	1.02934096135E+01	-5.89208453126E+00	-7.25135374459E-01
7.66018446494E+05	-1.80335368129E+01	1.40672497961E+02	1.99314759133E+01	1.74689815115E+02	-4.98862715201E+01	-8.84125702977E+01	-5.86196977365E+00	-3.94509112292E-01
7.88209801089E+05	-1.74626500790E+01	-1.67611839841E+02	1.99220610538E+01	1.74181114566E+02	-4.41124326128E+01	1.91976466650E+01	-5.88043214966E+00	-6.72896695035E-01
8.10401155684E+05	-1.55100182311E+01	-1.52250051611E+02	1.98939200927E+01	1.74012190383E+02	-4.49742099330E+01	-2.75580664195E+01	-5.86972423399E+00	-2.08094869059E-01
8.32592510279E+05	-1.42521870021E+01	1.65340831484E+02	1.98883273234E+01	1.73711808673E+02	-4.86341097064E+01	-3.05536335641E+01	-5.84446462515E+00	-4.19924160323E-01
8.54783864874E+05	-1.70443074056E+01	-1.65337737391E+02	1.99153718258E+01	1.73251008325E+02	-4.86411646840E+01	-1.01342047249E+02	-5.82086944295E+00	-3.43605597976E-01
8.76975219469E+05	-1.62954462928E+01	-1.69047493757E+02	1.98923903495E+01	1.73003509048E+02	-4.22513310839E+01	-3.83024064090E+01	-5.86622768266E+00	-4.51725095163E-01
8.99166574064E+05	-1.51718880156E+01	-1.60182404365E+02	1.99173341793E+01	1.72600336885E+02	-4.81720728444E+01	-1.49430192287E+02	-5.84148651164E+00	-4.16027892459E-01
9.21357928659E+05	-1.75873732545E+01	1.78660323422E+02	1.99182622226E+01	1.72565031646E+02	-4.11987843440E+01	1.34275493445E+02	-5.76440716913E+00	-8.35937973179E-01
9.43549283254E+05	-1.73002771113E+01	-1.73744416531E+02	1.99305640670E+01	1.72172295032E+02	-4.60510200578E+01	-1.97275019814E+01	-5.87514380688E+00	-5.21982253239E-01
9.65740637849E+05	-1.70823381965E+01	1.54015486248E+02	1.98771565818E+01	1.72088710543E+02	-5.57359474530E+01	-1.27020819566E+02	-5.84461865623E+00	-4.04812308380E-01
9.87931992444E+05	-1.54618885708E+01	-1.68733831726E+02	1.99059041692E+01	1.71522419065E+02	-4.36794635933E+01	-1.66917170998E+02	-5.77348409252E+00	-4.36906456052E-01
1.01012334704E+06	-2.61171048533E+01	1.75634684741E+02	1.99105143520E+01	1.71430319087E+02	-4.36811179570E+01	1.56164246176E+02	-5.77534579979E+00	-7.81680327868E-01
1.03231470163E+06	-1.60544150587E+01	1.76540737456E+02	1.98769241091E+01	1.71065838807E+02	-4.19640334505E+01	-2.78610263250E+01	-5.87518820071E+00	-4.58818524669E-01
1.05450605623E+06	-1.81714185793E+01	-1.76497266398E+02	1.98907322739E+01	1.70933498745E+02	-4.41521571869E+01	-1.01291020478E+02	-5.86021515974E+00	-3.08033043554E-01
1.07669741082E+06	-1.74114325734E+01	1.60922445785E+02	1.98804816555E+01	1.70698572040E+02	-3.96656062429E+01	-1.32195971839E+02	-5.77118805229E+00	-1.93309689742E-01
1.09888876542E+06	-1.53489401162E+01	-1.56239951813E+02	1.98797578797E+01	1.70066800630E+02	-4.84484805615E+01	-9.02115638744E+00	-5.87859191002E+00	-6.14581669128E-01
1.12108012001E+06	-1.61527919029E+01	-1.67007872521E+02	1.98748189767E+01	1.69979456911E+02	-4.96259289592E+01	4.17722012029E+01	-5.85140341908E+00	-7.57416633791E-01
1.14327147461E+06	-1.84953300538E+01	-1.73236653232E+02	1.98916443967E+01	1.69734812424E+02	-5.49089888205E+01	-6.38130242052E+01	-5.84140713648E+00	-6.54108279713E-01
1.16546282920E+06	-1.81827015065E+01	1.70923871223E+02	1.98731290147E+01	1.69494298234E+02	-4.69983631295E+01	-1.69992435506E+02	-5.79129954353E+00	-5.84202807229E-01
1.18765418380E+06	-1.95633847848E+01	-1.67655565620E+02	1.98727815126E+01	1.69291869295E+02	-4.84343661995E+01	-4.61993144825E+01	-5.85585225579E+00	-7.67623702096E-01
1.20984553839E+06	-2.23103465390E+01	1.54756781328E+02	1.99088301093E+01	1.69140001103E+02	-4.27332047481E+01	1.15579055823E+02	-5.78561591621E+00	-1.25777569114E+00
1.23203689299E+06	-2.54883852031E+01	1.78421012294E+02	1.99159284512E+01	1.68964401063E+02	-4.19030732497E+01	-1.24035841018E+02	-5.81476692856E+00	1.01316239526E-01
1.25422824758E+06	-2.01044478020E+01	-1.52564299456E+02	1.98880288088E+01	1.68244094485E+02	-4.75224847731E+01	-1.26869550774E+02	-5.83324975349E+00	-6.29577965398E-01
1.27641960218E+06	-1.55897791300E+01	1.58860862846E+02	1.98648251108E+01	1.68384631756E+02	-4.34788818437E+01	1.20009864510E+02	-5.79491029476E+00	-9.78554484821E-01
1.29861095677E+06	-1.83676563915E+01	-1.76370000934E+02	1.98647041317E+01	1.67979671114E+02	-5.33586259798E+01	7.85398961028E+01	-5.83331215650E+00	-8.31556600991E-01
1.32080231137E+06	-1.67372381984E+01	-1.60628788945E+02	1.98605689616E+01	1.67581606224E+02	-3.86378009672E+01	1.47809877095E+02	-5.73851054958E+00	-1.30048137793E+00
1.34299366596E+06	-1.60219650094E+01	1.62996891490E+02	1.98441063276E+01	1.67554452240E+02	-4.21064493665E+01	1.79904853486E+01	-5.89627854328E+00	-9.20296693891E-01
1.36518502056E+06	-1.87888327564E+01	-1.61070300655E+02	1.98589089965E+01	1.67146021639E+02	-3.65054964635E+01	-1.26408469967E+01	-5.90173432064E+00	-6.43844262719E-01
1.38737637515E+06	-1.68884509729E+01	1.68193120362E+02	1.98395400456E+01	1.67049936277E+02	-4.19593780500E+01	-6.10931386765E+01	-5.87545894880E+00	-3.57313920310E-01
1.40956772975E+06	-2.32574710059E+01	1.34045108324E+02	1.98779619420E+01	1.66858322999E+02	-6.38269118862E+01	1.92194390421E+01	-5.84471682067E+00	-8.47000226141E-01
1.43175908434E+06	-2.24376771053E+01	1.49871388311E+02	1.98838135011E+01	1.66590265347E+02	-4.80014879925E+01	-1.41787274644E+02	-5.79129612790E+00	-6.29519499271E-01
1.45395043894E+06	-1.43854957167E+01	-1.58028395779E+02	1.98637519213E+01	1.66067986430E+02	-4.21084204827E+01	-7.27273535593E+00	-5.89465656262E+00	-8.38100921149E-01
1.47614179353E+06	-2.57721731691E+01	-1.52626725128E+02	1.98740223372E+01	1.66004401043E+02	-4.70517487439E+01	4.67447600840E+01	-5.85461055609E+00	-9.36741683259E-01
1.49833314813E+06	-2.38725894535E+01	-1.71688218099E+02	1.98708581238E+01	1.65760850956E+02	-5.66455409612E+01	-1.75082308900E+02	-5.79238563696E+00	-7.43350481194E-01
1.52052450272E+06	-1.65139004776E+01	-1.47263484816E+02	1.98447724661E+01	1.65257422549E+02	-3.37697402139E+01	1.26058176210E+02	-5.76182275315E+00	-1.14379517117E+00
1.54271585732E+06	-2.50646628012E+01	9.59639436750E+01	1.98550309913E+01	1.65465131800E+02	-5.03398616170E+01	-7.89659688576E+01	-5.83640334183E+00	-7.85405601834E-01
1.56490721191E+06	-1.46409439156E+01	1.63101196387E+02	1.98244580620E+01	1.65032754228E+02	-4.75641883856E+01	-6.42149357801E+01	-5.85338577113E+00	-7.41050227151E-01
1.58709856651E+06	-1.86062506792E+01	-1.66975591513E+02	1.98419799937E+01	1.64787717706E+02	-4.09674587677E+01	-1.40770801581E+02	-5.79021851737E+00	-4.54391342888E-01
1.60928992110E+06	-1.86405495972E+01	-1.52082966485E+02	1.98669769652E+01	1.64457838304E+02	-4.02264863233E+01	1.60256872159E+02	-5.76637627275E+00	-8.83562261763E-01
1.63148127570E+06	-1.50451675973E+01	-1.69675315449E+02	1.98062029948E+01	1.64051999807E+02	-4.02048282237E+01	-5.75637837651E+01	-5.88859541969E+00	-3.84239776714E-01
1.65367263029E+06	-1.61223370320E+01	-1.50260440507E+02	1.98214501410E+01	1.63899056986E+02	-5.32234379216E+01	-7.01794278657E+01	-5.85766003942E+00	-5.14219213505E-01
1.67586398489E+06	-1.73907163698E+01	1.73022607007E+02	1.97910491914E+01	1.63809258685E+02	-4.36606426015E+01	1.73410994915E+02	-5.79580581912E+00	-7.54734537938E-01
1.69805533948E+06	-2.37491637731E+01	-1.30569637124E+02	1.98380325050E+01	1.63445495258E+02	-4.59895367075E+01	1.75212969548E+02	-5.81639143953E+00	-8.15047230307E-01
1.72024669408E+06	-1.46178634177E+01	1.52582727862E+02	1.97777335899E+01	1.63474067247E+02	-4.84991146572E+01	7.04015146842E+01	-5.85247600002E+00	-1.21907245199E+00
1.74243804867E+06	-1.81311518738E+01	-1.66594517577E+02	1.97855391115E+01	1.63097781520E+02	-5.65875644746E+01	-1.64775047866E+02	-5.77788874722E+00	-9.24354665979E-01
1.76462940327E+06	-2.19567484036E+01	1.61741640655E+02	1.98149473019E+01	1.62939746686E+02	-4.03158768087E+01	5.38671725389E+01	-5.84348386547E+00	-1.42144280176E+00
1.78682075786E+06	-2.60263441377E+01	-1.77657188801E+02	1.98330287540E+01	1.62654502209E+02	-4.92293018433E+01	-6.69042626213E+00	-5.85685607207E+00	-1.08306076555E+00
1.80901211246E+06	-1.52439585860E+01	-1.61833721979E+02	1.98083480697E+01	1.62205767453E+02	-4.71027216412E+01	6.83143872345E+01	-5.82677448972E+00	-9.89755458087E-01
1.83120346705E+06	-2.04592263437E+01	-1.68991378344E+02	1.98029875921E+01	1.62032325264E+02	-4.48136299029E+01	-5.85915123498E+01	-5.84612902080E+00	-7.63009531201E-01
1.85339482165E+06	-1.81120473113E+01	-1.62537807512E+02	1.97901002153E+01	1.61898925348E+02	-5.50908730853E+01	1.00204111886E+02	-5.83949297916E+00	-9.23240465090E-01
1.87558617624E+06	-1.65980334906E+01	1.67582841701E+02	1.97719025071E+01	1.61536856863E+02	-4.86639644100E+01	1.76359744876E+02	-5.80701094240E+00	-9.13591661978E-01
1.89777753084E+06	-1.48140163259E+01	-1.64220736579E+02	1.97720234692E+01	1.61202227280E+02	-4.82328203840E+01	1.19500999052E+02	-5.81383740349E+00	-1.00519503971E+00
1.91996888543E+06	-1.69625220214E+01	1.40584528570E+02	1.97652175507E+01	1.61343957347E+02	-4.49532330323E+01	-2.00022284963E+01	-5.87851118009E+00	-1.02486816167E+00
1.94216024003E+06	-1.61279607501E+01	1.68200946053E+02	1.97701327315E+01	1.60997537821E+02	-5.19387992575E+01	-1.38634114938E+02	-5.81795594488E+00	-9.79795625511E-01
1.96435159462E+06	-2.04866407321E+01	-1.58072715065E+02	1.97907081133E+01	1.60678646430E+02	-4.05361148088E+01	8.55252226321E+01	-5.82734889128E+00	-1.47149183756E+00
1.98654294922E+06	-1.70196446147E+01	-1.58752165516E+02	1.97605168045E+01	1.60275644174E+02	-3.97515391739E+01	-1.01059869453E+02	-5.85051221291E+00	-5.38387397295E-01
2.00873430381E+06	-1.56197190097E+01	-1.67066165367E+02	1.97664560355E+01	1.59973068796E+02	-4.45103623622E+01	-2.89510776104E+01	-5.88220215448E+00	-9.34341764619E-01
2.03092565841E+06	-1.22356119222E+01	-9.84121854908E+01	1.98220877949E+01	1.59538647412E+02	-4.29585868948E+01	-5.38388108686E+01	-5.87015212289E+00	-4.93191362743E-01
2.05311701300E+06	-2.05210192482E+01	-1.50654767604E+02	1.97935686870E+01	1.59663760173E+02	-4.52671830987E+01	1.35600453362E+02	-5.79393968027E+00	-1.19231302798E+00
2.07530836760E+06	-1.78291951358E+01	1.68331955123E+02	1.97485762296E+01	1.59576331361E+02	-5.65343093005E+01	-2.40304675522E+01	-5.87281705329E+00	-9.66558211098E-01
2.09749972219E+06	-2.05607251535E+01	1.72506880145E+02	1.97826415427E+01	1.59231498323E+02	-4.29093849471E+01	-1.06553545479E+00	-5.90335201258E+00	-1.17678692403E+00
2.11969107679E+06	-1.80487618794E+01	1.64712033470E+02	1.97590342337E+01	1.59124055876E+02	-4.41426121328E+01	1.71279427207E+02	-5.77594697971E+00	-9.35292831532E-01
2.14188243138E+06	-1.74417973688E+01	1.74965420985E+02	1.97176231841E+01	1.58863480600E+02	-3.61950473026E+01	1.59496547621E+02	-5.77221394729E+00	-9.25310275429E-01
2.16407378598E+06	-1.56293375857E+01	-1.64932261524E+02	1.97298302633E+01	1.58517592336E+02	-4.85604252471E+01	-2.34880161652E+01	-5.84544904627E+00	-1.07589538173E+00
2.18626514057E+06	-1.75943202059E+01	1.66630305259E+02	1.97315746824E+01	1.58422775526E+02	-4.92057596981E+01	-1.19056917769E+02	-5.83325152419E+00	-1.02140976873E+00
2.20845649517E+06	-1.86764883988E+01	1.59395296987E+02	1.97489128558E+01	1.58145937308E+02	-4.28779632852E+01	-1.60871544844E+02	-5.78333777109E+00	-9.90793927907E-01
2.23064784976E+06	-1.51152001980E+01	-1.68656128405E+02	1.97345901173E+01	1.57740410314E+02	-4.06688940197E+01	-1.72662199478E+02	-5.73803452499E+00	-9.78296050877E-01
2.25283920436E+06	-1.93253373671E+01	-1.68100688674E+02	1.97558446953E+01	1.57572024282E+02	-4.07491858451E+01	3.89393429171E+01	-5.88584106449E+00	-1.41973592572E+00
2.27503055895E+06	-1.70867915889E+01	-1.71234889253E+02	1.97249247097E+01	1.57255572850E+02	-4.57484797827E+01	7.88935351393E+01	-5.82216784589E+00	-1.39032238635E+00
2.29722191355E+06	-1.37542034071E+01	1.65613552830E+02	1.96776239339E+01	1.57232539085E+02	-3.40073058046E+01	-6.90417347909E+01	-5.92057328308E+00	-4.22002329075E-01
2.31941326814E+06	-1.58775335447E+01	-1.50386313703E+02	1.97326560934E+01	1.56662853529E+02	-4.38334711422E+01	4.81206993132E+01	-5.89860546281E+00	-1.46549069836E+00
2.34160462274E+06	-1.73506486772E+01	-1.95789552909E+01	1.97731742273E+01	1.57027089794E+02	-4.86420815546E+01	3.68344488890E+01	-5.85273298542E+00	-1.32238959218E+00
2.36379597733E+06	-1.62925105810E+01	1.70646201862E+02	1.97086053751E+01	1.56382673407E+02	-4.57621413437E+01	-7.33980238975E+01	-5.86154262567E+00	-8.99962860330E-01
2.38598733193E+06	-1.83827136457E+01	1.68943589243E+02	1.97231953541E+01	1.56313726175E+02	-4.95371882304E+01	9.95823717699E+01	-5.82005328336E+00	-1.46468732894E+00
2.40817868652E+06	-1.99516144595E+01	-1.35980807732E+02	1.97396426936E+01	1.56074356204E+02	-4.29816857780E+01	7.15070918009E+01	-5.85118179360E+00	-1.74716595337E+00
2.43037004112E+06	-1.64089984828E+01	-1.37041164522E+02	1.97297225834E+01	1.55496194465E+02	-5.00032573190E+01	1.34754524057E+02	-5.82305433420E+00	-1.68318482829E+00
2.45256139571E+06	-1.63108249973E+01	-1.67281592381E+02	1.96801376791E+01	1.55491225579E+02	-4.17303077471E+01	-1.52588162894E+01	-5.88270134730E+00	-1.29148780677E+00
2.47475275031E+06	-1.80706423596E+01	1.22572796100E+02	1.96881666576E+01	1.55620041494E+02	-4.31035269184E+01	5.86513715124E+01	-5.86254426082E+00	-1.43500162413E+00
2.49694410490E+06	-2.37807749807E+01	1.66253149646E+02	1.96913610015E+01	1.55179594251E+02	-4.84446205760E+01	1.64756574538E+01	-5.85761670944E+00	-1.22807705476E+00
2.51913545950E+06	-1.63523101019E+01	-1.70452716123E+02	1.96707380794E+01	1.54795439248E+02	-4.16887990255E+01	-4.81876133819E+01	-5.91401157670E+00	-7.28319692773E-01
2.54132681409E+06	-1.87107176529E+01	-1.76486286647E+02	1.96902732973E+01	1.54672558429E+02	-5.40331513690E+01	-2.02410172076E+01	-5.85793954852E+00	-1.23851798552E+00
2.56351816869E+06	-1.94373699594E+01	-1.71983802674E+02	1.97073558820E+01	1.54312045079E+02	-5.04485656114E+01	-6.40664142584E+01	-5.84496136197E+00	-1.15136396080E+00
2.58570952328E+06	-1.45919190607E+01	-1.70846301835E+02	1.96474795042E+01	1.54067294346E+02	-4.75496885243E+01	-9.68654653268E+01	-5.85465673373E+00	-1.18460042876E+00
2.60790087788E+06	-2.16224445041E+01	-1.64500051251E+02	1.97079031574E+01	1.54022939315E+02	-3.99923244264E+01	3.38108672267E+01	-5.86438399839E+00	-1.46612184225E+00
2.63009223247E+06	-2.23561095333E+01	-1.64171881332E+02	1.96877598741E+01	1.53695896640E+02	-3.23821097120E+01	1.21918277244E+02	-5.71068258916E+00	-1.69379701509E+00
2.65228358707E+06	-3.75661019586E+01	-1.72991848149E+02	1.96924546125E+01	1.53474846777E+02	-5.08640592488E+01	-6.50486416338E+01	-5.85127682448E+00	-1.21957577859E+00
2.67447494166E+06	-1.56847232456E+01	-1.60737599328E+02	1.96598595499E+01	1.52890914398E+02	-5.21108119053E+01	9.87807776459E+01	-5.82305313124E+00	-1.45304507007E+00
2.69666629626E+06	-1.55007789304E+01	1.65419749144E+02	1.96224266487E+01	1.53045182506E+02	-4.77183143430E+01	1.71489791333E+02	-5.79060188007E+00	-1.26526930795E+00
2.71885765085E+06	-1.79109456245E+01	-1.42281627838E+02	1.96716139088E+01	1.52512322715E+02	-4.60490242472E+01	-3.54459837324E+01	-5.86686551561E+00	-1.38889661587E+00
2.74104900545E+06	-1.94813319116E+01	1.66930014639E+02	1.96450232545E+01	1.52709559936E+02	-4.22718780555E+01	5.11689970032E+01	-5.88144234872E+00	-1.87928456965E+00
2.76324036004E+06	-1.98443947183E+01	-1.79281638849E+02	1.96566623165E+01	1.52347226381E+02	-5.14312410225E+01	2.92200238333E+00	-5.85512720583E+00	-1.42167566862E+00
2.78543171463E+06	-1.44889586995E+01	-1.69553764535E+02	1.96192708938E+01	1.51815610959E+02	-4.67054411255E+01	-9.93378343095E+01	-5.85188384711E+00	-1.17979486835E+00
2.80762306923E+06	-1.22305317898E+01	-1.63567330043E+02	1.96240346921E+01	1.51512086175E+02	-4.67406106883E+01	8.72284731455E+01	-5.81048806107E+00	-1.64136111401E+00
2.82981442382E+06	-1.63528819398E+01	-1.64394195848E+02	1.96179147233E+01	1.51527624555E+02	-5.01210689799E+01	9.66862591292E+01	-5.85759477619E+00	-1.59424637381E+00
2.85200577842E+06	-1.94077978668E+01	-1.60727192349E+02	1.96498433004E+01	1.51385907603E+02	-5.41402082320E+01	-1.30184232653E+02	-5.84045546871E+00	-1.33210889274E+00
2.87419713301E+06	-1.98687215173E+01	-1.65085370689E+02	1.96438359099E+01	1.51073792990E+02	-6.60534838063E+01	1.76526448953E+02	-5.83332266841E+00	-1.46134060569E+00
