# Hz S DB R 50
! CMT, M5065, 19127446, 24.2.4/2
! Date: 11/8/2024 4:17:16 PM
! Data: Format (Calibration Info)
! Freq	S11:dB/Ang(F2)	S21:dB/Ang(F2)	S12:dB/Ang(F2)	S22:dB/Ang(F2)
3.00000000000E+05	-1.77897220948E+01	1.44960752060E+02	2.15097734940E+01	-1.75480241960E+02	-4.25839794060E+01	-1.47207676971E+02	-5.78874341028E+00	-2.72426686171E-01
3.22191354595E+05	-1.42832761691E+01	-1.70155289963E+02	2.15211251195E+01	-1.76457339567E+02	-4.29063238485E+01	-8.97997404367E+01	-5.83431379019E+00	-1.28286057825E-01
3.44382709190E+05	-1.72979671133E+01	-1.68578334203E+02	2.15253181741E+01	-1.77208718465E+02	-4.65233573390E+01	-2.20812216122E-01	-5.84149962863E+00	-4.97977530679E-01
3.66574063785E+05	-2.30350600146E+01	-1.29526810242E+02	2.15720590069E+01	-1.77997692407E+02	-4.05695292137E+01	1.24495699524E+02	-5.76957405380E+00	-7.07014800496E-01
3.88765418380E+05	-1.82855288778E+01	1.69563173279E+02	2.15531267473E+01	-1.78546327686E+02	-4.01196094166E+01	1.77763741677E+02	-5.74747582193E+00	-2.53146171676E-01
4.10956772975E+05	-1.78182498961E+01	-1.79146482922E+02	2.15640260499E+01	-1.79170374035E+02	-3.83312333941E+01	1.62567663717E+00	-5.92458970874E+00	-4.09762368677E-01
4.33148127570E+05	-1.46501689312E+01	1.77767402044E+02	2.15504401374E+01	-1.79766191608E+02	-4.88778254970E+01	1.74548968183E+02	-5.80601296434E+00	-4.61344674694E-01
4.55339482165E+05	-1.27188533022E+01	1.49550421841E+02	2.15270092175E+01	1.79818576946E+02	-3.83882866970E+01	-4.24098623006E+01	-5.93294921687E+00	-1.44335239895E-01
4.77530836760E+05	-1.73379117891E+01	-1.62333578409E+02	2.15536648029E+01	1.78943131127E+02	-4.54703880579E+01	1.17755565078E+02	-5.80871403016E+00	-5.90667763283E-01
4.99722191355E+05	-1.83355196268E+01	1.47555320408E+02	2.15415190910E+01	1.78770470453E+02	-3.77980137759E+01	-1.13204111336E+02	-5.81558980033E+00	-3.82710708658E-02
5.21913545950E+05	-1.92332143098E+01	-1.52132081965E+02	2.15560750164E+01	1.78042122112E+02	-5.51191698517E+01	-8.20939077896E+01	-5.80895486535E+00	-2.18484356649E-01
5.44104900545E+05	-1.99284204674E+01	1.66558408691E+02	2.15547811295E+01	1.77760654268E+02	-5.17644601387E+01	-4.64411897503E+01	-5.85536064479E+00	-3.64545021556E-01
5.66296255139E+05	-2.11334861665E+01	-1.54383330926E+02	2.15850143859E+01	1.77173982985E+02	-4.34780455472E+01	-3.46815216871E+01	-5.90538779641E+00	-1.36946639273E-01
5.88487609734E+05	-1.39738779260E+01	1.75160379282E+02	2.15224222141E+01	1.76903697265E+02	-4.07956696086E+01	-4.44484318128E+01	-5.92841346981E+00	-1.17838445529E-01
6.10678964329E+05	-1.06209296370E+01	1.48093355185E+02	2.14963571061E+01	1.76560132483E+02	-5.08508753428E+01	-7.57080054026E+01	-5.86284038464E+00	3.90807722229E-01
6.32870318924E+05	-1.58034537542E+01	-1.67176955977E+02	2.15040120679E+01	1.75825362491E+02	-3.99446015931E+01	-1.09623129543E+02	-5.77261664162E+00	3.97346420253E-01
6.55061673519E+05	-1.97264971619E+01	1.68881343386E+02	2.15342944873E+01	1.75633866886E+02	-4.22360032761E+01	9.41184035153E+00	-5.88901111808E+00	-4.91107242564E-01
6.77253028114E+05	-1.79499408569E+01	-1.52734613072E+02	2.15547765887E+01	1.75241488650E+02	-4.87068602075E+01	-1.42465903129E+02	-5.80952908140E+00	-7.01437552258E-01
6.99444382709E+05	-2.34613709892E+01	1.74367815657E+02	2.15474268477E+01	1.74767090697E+02	-3.93362371404E+01	-8.29167198094E+01	-5.82899474253E+00	1.20944898432E-01
7.21635737304E+05	-2.28210749943E+01	1.68412322231E+02	2.15469765572E+01	1.74508542375E+02	-5.14560308747E+01	1.24477422659E+02	-5.82419504622E+00	-6.07181097359E-01
7.43827091899E+05	-1.93958229884E+01	-1.71712865406E+02	2.15419016248E+01	1.73924665812E+02	-4.54053677446E+01	-5.73367633740E+01	-5.86885957761E+00	-1.23971379417E-01
7.66018446494E+05	-1.54773773328E+01	-1.23161627410E+02	2.15355254616E+01	1.73429849773E+02	-3.60481254160E+01	-4.38883049270E+01	-5.94446682113E+00	2.45896152837E-01
7.88209801089E+05	-2.24554756696E+01	1.39717873766E+02	2.15307584954E+01	1.73481610667E+02	-5.19149543394E+01	-4.47247706427E+01	-5.82720483146E+00	-2.76139258619E-01
8.10401155684E+05	-1.58679821317E+01	1.75967835232E+02	2.15041699985E+01	1.72916181588E+02	-3.69333538420E+01	-1.77888811111E+02	-5.77797763984E+00	-7.11899313302E-01
8.32592510279E+05	-2.13322749961E+01	-1.52904710742E+02	2.15321733961E+01	1.72533163800E+02	-3.79429300644E+01	-9.11754959995E+00	-5.91950512276E+00	-4.38120206736E-01
8.54783864874E+05	-2.09458597844E+01	-1.61198161866E+02	2.15288801941E+01	1.72322611344E+02	-4.40644238993E+01	1.31271130911E+02	-5.78065679130E+00	-7.93820183435E-01
8.76975219469E+05	-3.32633633690E+01	5.65746500828E+01	2.15496328552E+01	1.71988025372E+02	-5.10066059741E+01	-2.08873205804E+01	-5.82893086246E+00	-4.25061754581E-01
8.99166574064E+05	-2.72272887422E+01	1.78743976420E+02	2.15245098037E+01	1.71549364695E+02	-4.26246130217E+01	-1.04865618775E+02	-5.85167777668E+00	-2.19282212177E-01
9.21357928659E+05	-1.99617252897E+01	-1.34908952633E+02	2.15073699842E+01	1.71183704730E+02	-4.25879110573E+01	-1.10944120104E+02	-5.80131856009E+00	-8.44346473485E-02
9.43549283254E+05	-2.38597117509E+01	-1.79410370653E+02	2.15132985086E+01	1.70898874787E+02	-5.11265700712E+01	-8.20540155392E+01	-5.84361262796E+00	-4.85947328382E-01
9.65740637849E+05	-2.14457445997E+01	-1.69987217835E+02	2.14851874366E+01	1.70637575849E+02	-3.96132944410E+01	-1.47786122042E+02	-5.79214852835E+00	-2.42246748699E-01
9.87931992444E+05	-1.49501630390E+01	-1.75823301646E+02	2.14596870740E+01	1.70330303352E+02	-4.59613700930E+01	1.11859493679E+02	-5.82481456420E+00	-8.56537534408E-01
1.01012334704E+06	-1.76532506952E+01	1.64361264565E+02	2.14764597413E+01	1.70095844092E+02	-5.05838819281E+01	-8.99197604049E+01	-5.82187152984E+00	-3.56510191688E-01
1.03231470163E+06	-1.92318166870E+01	-1.58913090745E+02	2.14602833046E+01	1.69401098430E+02	-4.01236190538E+01	1.08106326013E+02	-5.79934933413E+00	-1.27788824515E+00
1.05450605623E+06	-2.07232658794E+01	-1.58934433199E+02	2.14876985645E+01	1.69368145228E+02	-5.29053665731E+01	1.70024100083E+02	-5.80662955750E+00	-4.55934122560E-01
1.07669741082E+06	-1.76133958970E+01	-9.75624729551E+01	2.15444818134E+01	1.68977041274E+02	-3.87816282654E+01	-1.20135626177E+01	-5.91426059089E+00	-7.50002566974E-01
1.09888876542E+06	-1.88095076292E+01	-1.78507565198E+02	2.14808469109E+01	1.68831630984E+02	-5.07792531375E+01	-1.18302455193E+02	-5.83551787002E+00	-5.28251729234E-01
1.12108012001E+06	-1.78978446035E+01	-1.53051560354E+02	2.14579384448E+01	1.68283324158E+02	-3.73486129922E+01	-8.99674628530E+01	-5.84759238083E+00	-1.06162990673E-01
1.14327147461E+06	-2.12351683849E+01	-1.68219330184E+02	2.14764317507E+01	1.68116977350E+02	-3.68816224082E+01	1.69721548393E+01	-5.91117281221E+00	-6.08594943924E-01
1.16546282920E+06	-1.57857857094E+01	-1.62995560298E+02	2.14494759819E+01	1.67670587935E+02	-4.12275883104E+01	6.43583911932E+01	-5.87719101378E+00	-1.16201131531E+00
1.18765418380E+06	-1.80652312254E+01	-1.42826128329E+02	2.14555822127E+01	1.67283613605E+02	-4.72385523199E+01	-1.79298613865E+02	-5.81007760137E+00	-4.20761500477E-01
1.20984553839E+06	-1.05520376710E+01	1.70865334081E+02	2.13749725958E+01	1.67139702043E+02	-4.19477701988E+01	4.70203050364E+01	-5.89087004222E+00	-1.37727612008E+00
1.23203689299E+06	-1.91253237759E+01	1.58881051113E+02	2.14462547514E+01	1.67042719517E+02	-5.30214712096E+01	1.45119599650E+02	-5.81332854622E+00	-3.73882983567E-01
1.25422824758E+06	-1.71104004646E+01	1.62820670312E+02	2.14250748120E+01	1.66754544353E+02	-4.49943209697E+01	1.46941987934E+02	-5.77469122053E+00	-7.41005315744E-01
1.27641960218E+06	-1.81383675677E+01	-1.73515385835E+02	2.14412861099E+01	1.66323950489E+02	-4.39154048100E+01	1.72867904214E+02	-5.81729847491E+00	-7.05562737227E-01
1.29861095677E+06	-1.65321640033E+01	-1.72264517212E+02	2.14219427702E+01	1.66056357766E+02	-4.25384343609E+01	1.05232766160E+01	-5.88614404039E+00	-6.93126896850E-01
1.32080231137E+06	-1.72899675107E+01	1.67604227377E+02	2.14173223573E+01	1.65798339385E+02	-4.83408751291E+01	6.28609951055E+01	-5.83274458722E+00	-1.20436766785E+00
1.34299366596E+06	-1.93812293374E+01	-1.23625725803E+02	2.14575784813E+01	1.65335360545E+02	-4.56945358297E+01	-6.05344685205E+01	-5.87266473239E+00	-4.45746771908E-01
1.36518502056E+06	-1.94668680598E+01	-1.64344305225E+02	2.14188788917E+01	1.65117650804E+02	-4.86413394146E+01	1.09302378719E+02	-5.84328952391E+00	-9.37182266943E-01
1.38737637515E+06	-1.33325561389E+01	-1.47580555488E+02	2.13966422236E+01	1.64641230756E+02	-4.13837716617E+01	-1.32618392598E+02	-5.79834960329E+00	-2.72307085766E-01
1.40956772975E+06	-2.21247829778E+01	-1.49784560034E+02	2.14174725371E+01	1.64588679777E+02	-4.91633773076E+01	7.55052043192E+01	-5.86877122986E+00	-9.33745442066E-01
1.43175908434E+06	-1.90989471582E+01	-1.61319917854E+02	2.13961296571E+01	1.64216897575E+02	-4.02789579385E+01	2.11521727378E+01	-5.91036618238E+00	-9.05672087958E-01
1.45395043894E+06	-1.84304902106E+01	-1.50469234057E+02	2.14113474365E+01	1.63974282950E+02	-3.73646443758E+01	1.68504082089E+02	-5.77544517136E+00	-9.00784852919E-01
1.47614179353E+06	-2.23453235950E+01	1.75563683812E+02	2.13870435385E+01	1.63811160987E+02	-4.51008211164E+01	-1.74443404445E+02	-5.77868982075E+00	-9.56208853300E-01
1.49833314813E+06	-1.35369553575E+01	1.41168665741E+02	2.13575845718E+01	1.63728548079E+02	-5.11359502748E+01	-7.72234780320E+01	-5.85873161074E+00	-6.15752436847E-01
1.52052450272E+06	-1.77758195074E+01	1.53847355401E+02	2.13791114917E+01	1.63255872757E+02	-4.38328418851E+01	-7.99677649021E-01	-5.90492847738E+00	-1.09165086517E+00
1.54271585732E+06	-1.98218395095E+01	1.40690891562E+02	2.13766131956E+01	1.62980044789E+02	-4.22660313919E+01	-2.79656984077E+01	-5.89679414007E+00	-6.87122466566E-01
1.56490721191E+06	-2.15889820151E+01	-1.75867906837E+02	2.13693355748E+01	1.62611975885E+02	-5.00538372396E+01	9.22410965045E+01	-5.80213772653E+00	-8.67246194663E-01
1.58709856651E+06	-1.45108525998E+01	-1.60547227009E+02	2.13510939915E+01	1.62178592739E+02	-4.68532473869E+01	1.06580945852E+02	-5.82770815617E+00	-1.02220617567E+00
1.60928992110E+06	-1.84176265684E+01	-1.44396171420E+02	2.13645018605E+01	1.61941979679E+02	-4.33766447591E+01	-1.17372572666E+02	-5.78278057925E+00	-6.72361628042E-01
1.63148127570E+06	-1.42190077538E+01	-1.57315602550E+02	2.13522781938E+01	1.61645325326E+02	-5.27871692941E+01	-6.12040080641E+01	-5.83264529322E+00	-7.62683384656E-01
1.65367263029E+06	-1.83942537363E+01	1.55517794022E+02	2.13361264318E+01	1.61561327183E+02	-4.45545023215E+01	-5.86794198210E+01	-5.86585716625E+00	-6.82278538274E-01
1.67586398489E+06	-2.05325111476E+01	-1.56522781183E+02	2.13559261108E+01	1.61176317377E+02	-5.15145929828E+01	-1.44249214327E+02	-5.81945948014E+00	-8.11348852354E-01
1.69805533948E+06	-1.60269011342E+01	1.58205063275E+02	2.13408865475E+01	1.60927857465E+02	-5.20686960670E+01	1.51427775955E+02	-5.77228404448E+00	-9.24978138249E-01
1.72024669408E+06	-1.69322751598E+01	1.65096030023E+02	2.13204970418E+01	1.60843791933E+02	-4.22310514549E+01	-7.43547336568E+01	-5.85608034096E+00	-5.30336295980E-01
1.74243804867E+06	-1.86221045090E+01	1.74869931884E+02	2.13208328127E+01	1.60457054802E+02	-4.31753314670E+01	-1.28500118537E+02	-5.79143176204E+00	-4.22605645769E-01
1.76462940327E+06	-1.65297773070E+01	-1.69390363387E+02	2.13100992772E+01	1.60036386826E+02	-4.17875379738E+01	1.18445722291E+02	-5.79446493844E+00	-9.53908235816E-01
1.78682075786E+06	-1.58734207389E+01	-1.71072142577E+02	2.13136662350E+01	1.59859723778E+02	-5.10723600469E+01	5.98047929723E+00	-5.85993158123E+00	-1.19038990893E+00
1.80901211246E+06	-1.40612613566E+01	-1.56926709285E+02	2.13013576591E+01	1.59334370195E+02	-7.69928433016E+01	-3.87006975043E+01	-5.84649805035E+00	-8.68451698353E-01
1.83120346705E+06	-1.60321390471E+01	1.74737684669E+02	2.12847520112E+01	1.59222229522E+02	-3.98402092061E+01	-1.07128972676E+02	-5.80450167603E+00	-4.34742842460E-01
1.85339482165E+06	-2.10542907604E+01	-1.06985640009E+02	2.12848305430E+01	1.59252012270E+02	-5.36759518206E+01	-3.59225455684E+01	-5.85350514614E+00	-9.33683846089E-01
1.87558617624E+06	-1.08844438565E+01	1.64492818003E+02	2.12367277065E+01	1.58762287095E+02	-3.90318922582E+01	-1.38221961117E+02	-5.77262336849E+00	-4.46570407723E-01
1.89777753084E+06	-1.96864178470E+01	1.66675981423E+02	2.13017104692E+01	1.58608763303E+02	-4.50157080424E+01	-4.93074220951E+00	-5.89155650191E+00	-9.43227204975E-01
1.91996888543E+06	-1.64880759296E+01	1.50455727973E+02	2.12638814763E+01	1.58467669077E+02	-3.57160662740E+01	-4.98168548927E+01	-5.91307462149E+00	-5.05719897460E-01
1.94216024003E+06	-1.67111441280E+01	-1.63672049541E+02	2.12785799356E+01	1.57874465485E+02	-4.37261479475E+01	6.21856482448E+01	-5.86506261873E+00	-1.31343969331E+00
1.96435159462E+06	-1.50882401233E+01	-1.79961436366E+02	2.12768443449E+01	1.57644056925E+02	-5.36919004243E+01	-1.17344188946E+02	-5.83934652399E+00	-1.03588059438E+00
1.98654294922E+06	-1.56518006472E+01	-1.77191154918E+02	2.12394436046E+01	1.57347257256E+02	-4.75537907194E+01	-5.36847239696E+01	-5.88486647557E+00	-8.66065108137E-01
2.00873430381E+06	-1.43220687830E+01	-1.00709260685E+02	2.13126061187E+01	1.56923533342E+02	-4.37831180978E+01	-1.58352853177E+02	-5.77770517830E+00	-7.99760583207E-01
2.03092565841E+06	-8.94789173165E+00	1.72436570109E+02	2.11796701916E+01	1.56748259932E+02	-4.82941393750E+01	-4.73539313441E+01	-5.91052856029E+00	-7.52007691008E-01
2.05311701300E+06	-1.46098388736E+01	-1.60584454329E+02	2.12239495983E+01	1.56445233921E+02	-4.71636626598E+01	3.69256747648E+01	-5.84291065597E+00	-1.27843741619E+00
2.07530836760E+06	-1.60902438338E+01	-1.75420432557E+02	2.12358206830E+01	1.56167108684E+02	-3.19204129429E+01	6.22151818728E+01	-5.88391131961E+00	-2.28292555264E+00
2.09749972219E+06	-1.68325553716E+01	-1.64761854908E+02	2.12366153937E+01	1.56026996951E+02	-3.96184546547E+01	4.61610319749E+01	-5.91816862072E+00	-1.87675038746E+00
2.11969107679E+06	-1.63364448598E+01	-1.43821988512E+02	2.12570216623E+01	1.55549484195E+02	-4.96012330587E+01	-1.62367948816E+02	-5.82289301995E+00	-9.92822309163E-01
2.14188243138E+06	-1.87890226254E+01	1.79824689423E+02	2.12246282380E+01	1.55493211024E+02	-6.23522054825E+01	1.56262598017E+01	-5.84484321902E+00	-1.15719298650E+00
2.16407378598E+06	-1.54538957946E+01	-1.45738679756E+02	2.12303595673E+01	1.55025995710E+02	-5.23754673534E+01	-1.38277497886E+02	-5.83685016929E+00	-8.49834756359E-01
2.18626514057E+06	-9.29856130546E+00	-1.04811614386E+02	2.12760253477E+01	1.54526160524E+02	-4.24900923577E+01	4.50249820941E+01	-5.86667390374E+00	-1.56845961147E+00
2.20845649517E+06	-2.02205894447E+01	1.78474628919E+02	2.12158123802E+01	1.54706301305E+02	-3.93684602493E+01	-5.90331187215E+01	-5.92659908919E+00	-6.41796240269E-01
2.23064784976E+06	-1.65762664773E+01	1.75999483743E+02	2.11958028038E+01	1.54572750513E+02	-2.78263003023E+01	3.96806726672E+01	-6.02775588962E+00	-2.53078810385E+00
2.25283920436E+06	-2.36476207467E+01	1.05250745050E+02	2.12093504681E+01	1.54580337888E+02	-5.14801484592E+01	5.77650880193E+01	-5.84218761496E+00	-1.30032520675E+00
2.27503055895E+06	-1.35117564853E+01	-1.72941101909E+02	2.11600415569E+01	1.53708511806E+02	-4.74213945022E+01	-1.18743483145E+02	-5.82133152358E+00	-9.48555912515E-01
2.29722191355E+06	-1.82413884317E+01	-1.54762984272E+02	2.12004646750E+01	1.53641036260E+02	-4.86641117265E+01	1.42870319049E+02	-5.78953577279E+00	-1.43667878374E+00
2.31941326814E+06	-7.52650395112E+00	-1.73923720297E+02	2.11118560896E+01	1.53001044672E+02	-4.16079997981E+01	-8.96084759032E+01	-5.84907727571E+00	-7.89123503246E-01
2.34160462274E+06	-1.01046009626E+01	-1.29489782404E+02	2.12116071180E+01	1.52705377800E+02	-4.01239825521E+01	-4.92724292442E+01	-5.92765539977E+00	-7.63643700590E-01
2.36379597733E+06	-1.80428255739E+01	1.62316574498E+02	2.11694095605E+01	1.52989610354E+02	-4.48365333033E+01	-1.14856772195E+02	-5.79930199098E+00	-1.01524432694E+00
2.38598733193E+06	-2.82603107150E+01	-1.28120463696E+02	2.11987675022E+01	1.52717412955E+02	-4.06094327238E+01	-1.08791980923E+02	-5.80150166796E+00	-8.20224122746E-01
2.40817868652E+06	-1.89384131817E+01	-1.65962742681E+02	2.11718520313E+01	1.52423258699E+02	-4.16626601201E+01	-1.16590121020E+02	-5.79215485353E+00	-8.48949680844E-01
2.43037004112E+06	-1.46350588672E+01	-1.62973075299E+02	2.11428112749E+01	1.51971657612E+02	-4.23212161104E+01	2.70665602537E+00	-5.91200577648E+00	-1.75459925186E+00
2.45256139571E+06	-2.13223602618E+01	1.71670461427E+02	2.11445569245E+01	1.52068347079E+02	-4.24230679902E+01	1.31556497503E+02	-5.76974892315E+00	-1.62680880754E+00
2.47475275031E+06	-1.61180690481E+01	1.45295102126E+02	2.11062910968E+01	1.51889012279E+02	-5.17922947740E+01	-1.80637261879E+01	-5.88164117217E+00	-1.21224096815E+00
2.49694410490E+06	-9.00136276693E+00	-1.69038764419E+02	2.10803585505E+01	1.50977710348E+02	-4.85116942749E+01	-2.05040624617E+01	-5.87670818782E+00	-1.31179371746E+00
2.51913545950E+06	-1.53831237155E+01	1.58449164370E+02	2.10870412831E+01	1.51114486593E+02	-4.27073135251E+01	-3.14183020511E+01	-5.88563784676E+00	-9.78046263623E-01
2.54132681409E+06	-1.42612940515E+01	-1.32084660700E+02	2.11407653489E+01	1.50529448882E+02	-3.34897633677E+01	1.02909753175E+02	-5.79336197784E+00	-2.09815227868E+00
2.56351816869E+06	-1.76310707983E+01	-1.70396562185E+02	2.10936741226E+01	1.50495807694E+02	-5.21334913821E+01	-3.19226322498E+01	-5.85125543669E+00	-1.30150236124E+00
2.58570952328E+06	-1.28891815502E+01	-1.73039752158E+02	2.10620291615E+01	1.49940954289E+02	-4.93378240758E+01	-1.43116594893E+01	-5.87092334496E+00	-1.13957009661E+00
2.60790087788E+06	-1.50878192636E+01	-1.47832729403E+02	2.10828380570E+01	1.49827070220E+02	-6.06015101355E+01	-7.83367182773E+01	-5.84084998712E+00	-1.17540883043E+00
2.63009223247E+06	-1.49552032368E+01	-1.67326524298E+02	2.10696330786E+01	1.49659488813E+02	-4.87883889540E+01	-4.85837724570E+01	-5.86760011344E+00	-8.67966670656E-01
2.65228358707E+06	-1.74675831198E+01	1.61882673240E+02	2.10665784157E+01	1.49591001055E+02	-4.37969295644E+01	8.43533296230E+01	-5.86015729618E+00	-1.70000505970E+00
2.67447494166E+06	-1.72560370564E+01	-1.42166825595E+02	2.10857064260E+01	1.49062598903E+02	-5.52374499772E+01	-1.38947168751E+02	-5.85113980605E+00	-1.25476200521E+00
2.69666629626E+06	-1.89065890659E+01	-1.68646735491E+02	2.10846019097E+01	1.48944115545E+02	-3.62781823197E+01	-1.10885152542E+02	-5.78007509098E+00	-8.22849932613E-01
2.71885765085E+06	-1.56720197050E+01	-1.60085369655E+02	2.10630836211E+01	1.48567768902E+02	-4.52664687375E+01	-1.06873788198E+01	-5.91626772344E+00	-1.21225720055E+00
2.74104900545E+06	-1.68322567863E+01	-1.67556451673E+02	2.10673306659E+01	1.48320991333E+02	-4.87723690510E+01	4.04031174850E+01	-5.86699433903E+00	-1.43829767577E+00
2.76324036004E+06	-1.65465439846E+01	-1.69733328842E+02	2.10214087745E+01	1.48042487259E+02	-4.14115670851E+01	6.54861093467E+01	-5.87097871180E+00	-1.88524872437E+00
2.78543171463E+06	-1.81955989717E+01	-1.52167155539E+02	2.10583953500E+01	1.47889062242E+02	-5.49242413959E+01	-6.84007727019E+01	-5.82829033113E+00	-1.24633991403E+00
2.80762306923E+06	-2.19572639183E+01	-1.76036313119E+02	2.10401723090E+01	1.47569039281E+02	-4.72930751994E+01	1.08549038764E+02	-5.83648990873E+00	-1.64052770521E+00
2.82981442382E+06	-1.67654490550E+01	-1.65026584574E+02	2.10410897618E+01	1.47314362897E+02	-4.35861626405E+01	3.14951041371E+01	-5.87979845515E+00	-1.61294806758E+00
2.85200577842E+06	-1.86772595776E+01	-1.50075769769E+02	2.10451491109E+01	1.47065528513E+02	-5.07146515592E+01	-1.72863058180E+02	-5.81671253077E+00	-1.36983893302E+00
2.87419713301E+06	-2.59029671771E+01	-1.63934415421E+02	2.10274971642E+01	1.46997083305E+02	-4.81181204680E+01	1.27587027668E+02	-5.81446682468E+00	-1.64480497794E+00
