# Hz S DB R 50
! CMT, M5065, 19127446, 24.2.4/2
! Date: 11/8/2024 3:55:43 PM
! Data: Format (Calibration Info)
! Freq	S11:dB/Ang(F2)	S21:dB/Ang(F2)	S12:dB/Ang(F2)	S22:dB/Ang(F2)
3.00000000000E+05	-1.61870651643E+01	-1.62201924601E+02	7.32251784524E+00	-1.77694854084E+02	-3.88623017665E+01	-1.37013353522E+02	-5.85221859978E+00	-1.48754656298E-01
3.22191354595E+05	-1.62898806111E+01	-1.55189142355E+02	7.35626071676E+00	-1.78308068847E+02	-4.54755909317E+01	-7.02351049604E+01	-5.88058078093E+00	-1.87269352864E-01
3.44382709190E+05	-1.68165775132E+01	1.69748220093E+02	7.33088278354E+00	-1.78389001610E+02	-4.52755329187E+01	-1.12974598974E+02	-5.83729980090E+00	-2.48772087722E-01
3.66574063785E+05	-2.29323080703E+01	1.49366176697E+02	7.35786220335E+00	-1.78369100935E+02	-4.39920536864E+01	1.07699209397E+02	-5.85081284819E+00	-3.64308838172E-01
3.88765418380E+05	-1.92931294509E+01	1.50750905368E+02	7.34933106612E+00	-1.78050374431E+02	-3.87516041256E+01	2.50520794255E+01	-5.87191456522E+00	-3.76282144409E-01
4.10956772975E+05	-1.63822330782E+01	1.78059384443E+02	7.37158325989E+00	-1.79030261283E+02	-4.69001048324E+01	-3.46244386277E+01	-5.82591856744E+00	-2.82573418820E-01
4.33148127570E+05	-1.46794022840E+01	1.66059577551E+02	7.36136632733E+00	-1.79238811415E+02	-4.95522357192E+01	-2.14496913081E+01	-5.85415334138E+00	-2.71819758942E-01
4.55339482165E+05	-2.10330094550E+01	-1.58116329736E+02	7.35189983006E+00	-1.79516303447E+02	-5.02632625931E+01	8.22287512951E+01	-5.86898166429E+00	-3.12055746272E-01
4.77530836760E+05	-1.81960524076E+01	-1.66917270832E+02	7.39196467332E+00	-1.79764981823E+02	-5.20097194761E+01	1.62463809664E+02	-5.82810908841E+00	-2.13586758865E-01
4.99722191355E+05	-1.87982323907E+01	1.54899526438E+02	7.40045340302E+00	1.79959884294E+02	-3.93219738825E+01	-3.26237281775E+01	-5.87047622514E+00	-3.40722933857E-01
5.21913545950E+05	-1.85891282031E+01	1.75053797665E+02	7.37739181354E+00	1.79989405666E+02	-4.84287848163E+01	4.06618652817E+01	-5.85302721709E+00	-3.91996574971E-01
5.44104900545E+05	-2.25052360830E+01	9.99467815115E+01	7.43796550446E+00	1.79627419620E+02	-4.28792959733E+01	-5.66306557622E+01	-5.84937715453E+00	-3.27436172554E-01
5.66296255139E+05	-2.43629478274E+01	-1.75831216689E+02	7.39277229417E+00	1.79527882433E+02	-4.38886423643E+01	1.23923720305E+02	-5.83733067997E+00	-5.04253013624E-01
5.88487609734E+05	-1.32257597970E+01	-1.75051510007E+02	7.35932327116E+00	1.79048458944E+02	-4.14403403755E+01	-1.14283864185E+02	-5.83573282579E+00	-2.58381100635E-01
6.10678964329E+05	-2.01369968901E+01	-1.68123698886E+02	7.37539854924E+00	1.79061383452E+02	-4.95418251635E+01	9.23197927407E+01	-5.83752991208E+00	7.94512843364E-02
6.32870318924E+05	-2.09795678094E+01	-1.61518395011E+02	7.39001512416E+00	1.79045188841E+02	-4.93520460305E+01	1.35077730962E+02	-5.85625527713E+00	-9.73396973251E-02
6.55061673519E+05	-1.44405605847E+01	-1.73834286403E+02	7.32635255654E+00	1.78450948379E+02	-7.23811015016E+01	-1.44039221107E+02	-5.84751119726E+00	-3.18560244498E-01
6.77253028114E+05	-1.55617267357E+01	-1.38168980091E+02	7.42605984368E+00	1.78488521550E+02	-5.56396403456E+01	1.40301112153E+02	-5.83547889457E+00	-7.05091371473E-01
6.99444382709E+05	-1.83158848802E+01	-1.45459310611E+02	7.41024163150E+00	1.78417830274E+02	-4.34529056023E+01	1.38587873697E+02	-5.84791969783E+00	-4.45929392992E-01
7.21635737304E+05	-1.96750529530E+01	1.60221651955E+02	7.38056902343E+00	1.78437783610E+02	-4.61213594367E+01	1.38340329995E+00	-5.83702062797E+00	-4.60238123104E-01
7.43827091899E+05	-1.87551415555E+01	-1.68654984640E+02	7.35926660357E+00	1.78099207392E+02	-4.13956849755E+01	-5.06537530667E+01	-5.84278710105E+00	-3.94281791296E-01
7.66018446494E+05	-1.59521287149E+01	-1.71509531158E+02	7.39122662188E+00	1.77828083794E+02	-4.70860647372E+01	2.13178839177E+01	-5.84784629114E+00	-4.23868107500E-01
7.88209801089E+05	-1.65413462678E+01	1.78269612812E+02	7.37233414131E+00	1.77870597706E+02	-4.09073569519E+01	-7.97648242258E+01	-5.85105447538E+00	-4.50044960781E-01
8.10401155684E+05	-1.91799302704E+01	1.55456042317E+02	7.40351195777E+00	1.77833805638E+02	-4.53952451888E+01	1.69275393184E+01	-5.84964853040E+00	-4.51404478981E-01
8.32592510279E+05	-1.66509505011E+01	-1.39635933244E+02	7.37231476735E+00	1.77577813488E+02	-5.73684231867E+01	9.75243550087E+01	-5.86010017133E+00	-4.78206202860E-01
8.54783864874E+05	-1.53833555401E+01	-1.57707876270E+02	7.38845335900E+00	1.77371920772E+02	-5.01165214500E+01	-8.24980454590E+00	-5.85439641159E+00	-4.14895684633E-01
8.76975219469E+05	-1.72212784996E+01	1.68826324129E+02	7.39430757344E+00	1.77455784605E+02	-4.29703944682E+01	-1.66243460568E+02	-5.81403297934E+00	-5.26332739943E-01
8.99166574064E+05	-1.59316767528E+01	-1.67636981347E+02	7.39889968799E+00	1.77361268417E+02	-4.29688214536E+01	8.36636620670E+01	-5.85809588382E+00	-5.37678254222E-01
9.21357928659E+05	-1.43054486078E+01	1.61845837639E+02	7.36475670783E+00	1.77044868942E+02	-4.72195958959E+01	9.24478068093E+01	-5.85668868502E+00	-5.74138355019E-01
9.43549283254E+05	-2.44626731910E+01	1.61909487099E+02	7.43168041859E+00	1.77100580701E+02	-4.01574871239E+01	2.00330852927E+01	-5.85734495889E+00	-5.41987954825E-01
9.65740637849E+05	-1.33642709934E+01	-1.75200867961E+02	7.34483488006E+00	1.76794137667E+02	-4.85318805671E+01	1.68995928700E+02	-5.82448190616E+00	-5.25936884102E-01
9.87931992444E+05	-2.65037194773E+01	-1.26766187673E+02	7.40490734780E+00	1.76793269822E+02	-4.68103260194E+01	-7.25253235789E+00	-5.84675555204E+00	-5.32935649668E-01
1.01012334704E+06	-1.73043436198E+01	-1.67872493477E+02	7.40602651503E+00	1.76668297457E+02	-5.11776078087E+01	1.04185226511E+02	-5.85031789004E+00	-5.34666315440E-01
1.03231470163E+06	-1.89984194669E+01	-1.69373345802E+02	7.40431304669E+00	1.76460616454E+02	-5.04825809971E+01	8.36148892187E+01	-5.85324211030E+00	-6.61353807068E-01
1.05450605623E+06	-1.77269734123E+01	-1.76247866240E+02	7.38560746120E+00	1.76482611273E+02	-3.72046453996E+01	1.08555712218E+02	-5.83549547246E+00	-5.73587238741E-01
1.07669741082E+06	-1.98349118986E+01	-1.47588898545E+02	7.42193008905E+00	1.76198677505E+02	-4.22320914313E+01	-1.52000171823E+02	-5.86662261619E+00	-2.03008976195E-01
1.09888876542E+06	-1.73927870803E+01	-1.75019355336E+02	7.41427814418E+00	1.75913839819E+02	-4.34638153862E+01	-3.88497803210E+01	-5.84104541776E+00	-4.42980738206E-01
1.12108012001E+06	-3.21689308396E+01	-9.68513375699E+01	7.42643088301E+00	1.76070016143E+02	-4.50315353615E+01	1.30374106848E+02	-5.84244092695E+00	-5.51646557905E-01
1.14327147461E+06	-1.53740206548E+01	-1.58823925965E+02	7.40065380203E+00	1.75680930635E+02	-3.81352874660E+01	2.22691003127E+01	-5.86308211839E+00	-4.92514720564E-01
1.16546282920E+06	-2.51218159334E+01	1.72934005831E+02	7.40356816414E+00	1.76195333385E+02	-4.18623038230E+01	-1.71806172665E+02	-5.83505108035E+00	-5.97579228070E-01
1.18765418380E+06	-1.62470335683E+01	-1.57359043204E+02	7.38824416473E+00	1.75700073483E+02	-4.57764644669E+01	1.87701939023E+01	-5.84840840556E+00	-6.78980885396E-01
1.20984553839E+06	-1.70080440848E+01	1.65753149335E+02	7.36894751880E+00	1.75566833086E+02	-4.30094526468E+01	1.45777368415E+02	-5.83324181259E+00	-7.33771075958E-01
1.23203689299E+06	-1.58780515249E+01	-1.75395799353E+02	7.35837422023E+00	1.75272033837E+02	-4.10222407358E+01	1.52641743382E+02	-5.82384657236E+00	-4.64635987375E-01
1.25422824758E+06	-1.90354259549E+01	-1.64845884692E+02	7.43086066595E+00	1.75070376312E+02	-4.49262384860E+01	1.14274966844E+02	-5.84197519742E+00	-6.72513583449E-01
1.27641960218E+06	-1.51250825911E+01	-1.75023196139E+02	7.36684255670E+00	1.74897912145E+02	-4.13782960181E+01	-1.55493113524E+02	-5.84361269522E+00	-5.77731091129E-01
1.29861095677E+06	-1.53821536014E+01	1.54768427295E+02	7.37321744109E+00	1.75276211172E+02	-4.35287449231E+01	-5.05539982669E+01	-5.85892856633E+00	-6.20543459602E-01
1.32080231137E+06	-2.35836734319E+01	1.62441489066E+02	7.42377578955E+00	1.75040366196E+02	-4.41492601911E+01	6.83638037996E+01	-5.86427908674E+00	-1.09423344092E+00
1.34299366596E+06	-1.72119928865E+01	-1.57463954941E+02	7.35425340946E+00	1.74812017102E+02	-4.44280428738E+01	-9.91782232423E+00	-5.88107251647E+00	-6.91597228894E-01
1.36518502056E+06	-1.74426182460E+01	1.61654566981E+02	7.40068112190E+00	1.74991896936E+02	-4.55409524021E+01	1.55951894527E+02	-5.85247284716E+00	-6.30428465552E-01
1.38737637515E+06	-1.70416875863E+01	-1.68465119147E+02	7.42158926745E+00	1.74443991313E+02	-3.82795923680E+01	-8.32177518421E+01	-5.85771304736E+00	-7.22883989140E-01
1.40956772975E+06	-1.69230883805E+01	1.54650244882E+02	7.39891752644E+00	1.74778065471E+02	-4.31972381237E+01	-4.22733347904E+00	-5.86323870884E+00	-7.81340126680E-01
1.43175908434E+06	-1.15201328896E+01	1.72797801909E+02	7.35065285855E+00	1.74472575832E+02	-5.21322866518E+01	-1.76072578271E+02	-5.83972075276E+00	-8.37584096917E-01
1.45395043894E+06	-1.10160115790E+01	-1.59029192045E+02	7.37133352046E+00	1.74167792602E+02	-6.21428433070E+01	1.39252578606E+02	-5.85418932168E+00	-7.47993530768E-01
1.47614179353E+06	-2.27961551116E+01	1.68209163545E+02	7.41151584330E+00	1.74169158769E+02	-5.75779013307E+01	8.16355791176E+01	-5.84965104369E+00	-7.26203703809E-01
1.49833314813E+06	-1.56339352051E+01	-1.73666208962E+02	7.37180073065E+00	1.74019800437E+02	-4.94362519439E+01	3.98093085563E+01	-5.85159154721E+00	-8.69133626482E-01
1.52052450272E+06	-1.60075833319E+01	-1.64161002439E+02	7.34590085893E+00	1.74145566841E+02	-3.62748246479E+01	-1.44175682040E+02	-5.82697127215E+00	-6.52887994661E-01
1.54271585732E+06	-2.03728864256E+01	1.59358758777E+02	7.38869602219E+00	1.73890062975E+02	-4.58268825735E+01	1.61140865455E+02	-5.81420858844E+00	-6.79725838333E-01
1.56490721191E+06	-1.97691167544E+01	1.68367035007E+02	7.43633287320E+00	1.73869747389E+02	-4.18012825392E+01	-1.54511030732E+02	-5.83160081610E+00	-7.46780505975E-01
1.58709856651E+06	-1.81242683159E+01	-1.78116672377E+02	7.38728655929E+00	1.73624323928E+02	-4.09408769469E+01	9.37689093544E+01	-5.82438761938E+00	-9.44451819246E-01
1.60928992110E+06	-2.65514680812E+01	1.58997162161E+02	7.38648312681E+00	1.73725439255E+02	-6.46938419079E+01	-8.55226538397E+01	-5.84939354288E+00	-7.00695066803E-01
1.63148127570E+06	-2.20694717159E+01	-1.35814573354E+02	7.41231402663E+00	1.73353204936E+02	-5.00197025031E+01	1.62673232141E+02	-5.82249434565E+00	-6.62848662952E-01
1.65367263029E+06	-1.82597171646E+01	-1.58729454309E+02	7.38117655949E+00	1.73106305342E+02	-3.77623765392E+01	3.03326397307E+01	-5.85319425819E+00	-8.97230141049E-01
1.67586398489E+06	-1.70329284550E+01	1.78841737927E+02	7.40485672127E+00	1.73332568820E+02	-3.89763040466E+01	1.39408681760E+02	-5.80738662599E+00	-8.11306597283E-01
1.69805533948E+06	-2.04400982706E+01	1.58133112902E+02	7.36153965485E+00	1.73296117065E+02	-4.22045805182E+01	-8.79745723314E+01	-5.87350271489E+00	-8.27851854757E-01
1.72024669408E+06	-1.83529142411E+01	-1.54049494170E+02	7.43213707723E+00	1.72888566403E+02	-3.93820803502E+01	-1.74844529149E+02	-5.83820665181E+00	-7.96144183473E-01
1.74243804867E+06	-1.71012564416E+01	1.71256558343E+02	7.41671524094E+00	1.73140805702E+02	-4.51604166412E+01	2.54342765937E+01	-5.86564081861E+00	-7.69441801242E-01
1.76462940327E+06	-1.52076838093E+01	-1.79732782328E+02	7.39158752628E+00	1.72656571005E+02	-3.96108139591E+01	1.45084385770E+02	-5.82398852715E+00	-8.93075270361E-01
1.78682075786E+06	-1.24555330240E+01	-1.66817509737E+02	7.40861988100E+00	1.72579479143E+02	-4.89451277977E+01	1.70934394298E+02	-5.83733520797E+00	-9.08102592486E-01
1.80901211246E+06	-1.82077846884E+01	-1.59802013398E+02	7.45011798283E+00	1.72709476156E+02	-4.46879201104E+01	1.19816326065E+02	-5.84017670190E+00	-8.77478112397E-01
1.83120346705E+06	-1.64340413730E+01	-1.55638187208E+02	7.40225775134E+00	1.72095539695E+02	-4.62340237510E+01	9.72588811397E+01	-5.86601748516E+00	-7.54345918457E-01
1.85339482165E+06	-1.86521097440E+01	-1.55661062984E+02	7.40312471072E+00	1.72144351018E+02	-4.87792078774E+01	-2.93313667733E+01	-5.85928726809E+00	-1.01162044443E+00
1.87558617624E+06	-1.49665002375E+01	-1.63261080764E+02	7.40575398950E+00	1.72340586099E+02	-5.04711116801E+01	1.25559954301E+02	-5.84475034941E+00	-8.76256902670E-01
1.89777753084E+06	-1.87540322459E+01	-1.58937632596E+02	7.41292970407E+00	1.72164072163E+02	-4.76575132782E+01	-9.96269165806E+01	-5.84579601805E+00	-8.95888517400E-01
1.91996888543E+06	-1.88683627388E+01	1.79642795469E+02	7.42248818641E+00	1.71922749364E+02	-4.88651500530E+01	1.65507279734E+02	-5.84447952952E+00	-7.21972707356E-01
1.94216024003E+06	-8.48068233350E+00	-1.66609446296E+02	7.39064052070E+00	1.71658007486E+02	-5.02590365042E+01	3.30897797729E+01	-5.84913090168E+00	-1.03402844049E+00
1.96435159462E+06	-1.62318560875E+01	1.66451442227E+02	7.34214582023E+00	1.72069970583E+02	-5.50784997470E+01	1.66397539245E+02	-5.83946437956E+00	-8.92291516146E-01
1.98654294922E+06	-1.80262910090E+01	1.79938552156E+02	7.39026282882E+00	1.72030379274E+02	-3.80252344522E+01	-1.40077687589E+02	-5.83870905845E+00	-7.78342111810E-01
2.00873430381E+06	-1.57159921545E+01	1.68508206827E+02	7.37691081853E+00	1.71814666631E+02	-3.24990836096E+01	-1.69942374218E+02	-5.83038067288E+00	-8.15014075057E-01
2.03092565841E+06	-1.68010164039E+01	-1.59576282102E+02	7.45910373695E+00	1.71608688806E+02	-4.57390198891E+01	-2.74188880929E+01	-5.85323865318E+00	-1.00622247127E+00
2.05311701300E+06	-1.73683327679E+01	-1.47803789706E+02	7.41564039945E+00	1.71385617332E+02	-4.51256648351E+01	-2.82044102260E+01	-5.87244268776E+00	-1.05407733799E+00
2.07530836760E+06	-1.34075985507E+01	1.69967628107E+02	7.37372122182E+00	1.70946709630E+02	-4.88823812900E+01	5.61836112294E+01	-5.85992699856E+00	-1.21042677872E+00
2.09749972219E+06	-1.07665692676E+01	-6.97018912928E+01	7.49809254684E+00	1.71275571577E+02	-4.68363259135E+01	1.91774009864E+01	-5.82873630263E+00	-1.10354836762E+00
2.11969107679E+06	-2.20463733841E+01	-1.54997725148E+02	7.41627804305E+00	1.71019883829E+02	-4.87710582022E+01	-7.53746944022E+01	-5.86987544525E+00	-1.02785289766E+00
2.14188243138E+06	-1.73112107508E+01	-1.52720000430E+02	7.42942208041E+00	1.71137425945E+02	-4.32141022623E+01	1.64805788273E+02	-5.83523792894E+00	-1.07350796789E+00
2.16407378598E+06	-1.77320919527E+01	-1.66003657622E+02	7.40960930506E+00	1.70670763965E+02	-3.40241275129E+01	7.87525846659E+01	-5.83772606245E+00	-1.23024118626E+00
2.18626514057E+06	-1.65529138503E+01	1.67269703976E+02	7.38332914178E+00	1.70969460906E+02	-4.70117420905E+01	5.35705808545E+01	-5.86112058577E+00	-1.18654605125E+00
2.20845649517E+06	-1.64585545237E+01	1.72882798292E+02	7.38418769986E+00	1.70636151266E+02	-4.26535804279E+01	1.46245413843E+02	-5.81393439368E+00	-1.16588810246E+00
2.23064784976E+06	-1.58715017149E+01	1.61590021658E+02	7.38742792302E+00	1.70716093915E+02	-4.66978832298E+01	5.71700031212E+01	-5.85259377117E+00	-1.16104004617E+00
2.25283920436E+06	-7.35780733822E+00	-1.47371326477E+02	7.42857757215E+00	1.69768364824E+02	-4.02964104317E+01	-8.64566354505E+01	-5.86801798236E+00	-1.01902371393E+00
2.27503055895E+06	-2.12940185171E+01	-1.44355586287E+02	7.41901449729E+00	1.70480942037E+02	-5.15290612207E+01	-1.03749322297E+02	-5.84427996499E+00	-1.04914489004E+00
2.29722191355E+06	-1.48097672011E+01	-1.76783665315E+02	7.40066253814E+00	1.70531255705E+02	-4.54346103908E+01	5.48531962483E+00	-5.84499108403E+00	-1.24756944013E+00
2.31941326814E+06	-1.67464533353E+01	-1.62359926705E+02	7.41599546467E+00	1.69922399962E+02	-3.04085238768E+01	-2.30890784891E+01	-5.89402577739E+00	-1.21241167430E+00
2.34160462274E+06	-2.00021991926E+01	-1.56188793608E+02	7.47061612435E+00	1.70070387163E+02	-4.54382396721E+01	-4.28913606282E+01	-5.85996059476E+00	-1.10725300233E+00
2.36379597733E+06	-1.44312104769E+01	-1.74338809505E+02	7.42358153537E+00	1.69986220539E+02	-3.92987683165E+01	1.05959907086E+01	-5.86315880208E+00	-1.33172265869E+00
2.38598733193E+06	-1.17914961869E+01	-1.77327196652E+02	7.39253156521E+00	1.69617441521E+02	-5.10801520804E+01	7.35750862829E+00	-5.84534216221E+00	-1.12396799840E+00
2.40817868652E+06	-1.15847074047E+01	-1.73305642528E+02	7.35951094810E+00	1.69621595899E+02	-4.03419141121E+01	-1.81725722503E+01	-5.85198119613E+00	-1.32298586284E+00
2.43037004112E+06	-1.87189750201E+01	1.48745758049E+02	7.42159238258E+00	1.70137329805E+02	-3.77571205057E+01	3.07172623877E+01	-5.86157089359E+00	-1.67795774876E+00
2.45256139571E+06	-1.49887514280E+01	-1.71217746172E+02	7.42148630874E+00	1.69383088160E+02	-4.29395833313E+01	6.10203853417E+01	-5.84064827130E+00	-1.33947588626E+00
2.47475275031E+06	-1.76044672158E+01	-1.79910981436E+02	7.45565947483E+00	1.69636381048E+02	-3.66667004891E+01	-7.26940129805E+01	-5.85352759816E+00	-1.24424633859E+00
2.49694410490E+06	-1.58572974331E+01	-1.67946931779E+02	7.40141272358E+00	1.69314542025E+02	-4.26348350213E+01	8.92900767732E+01	-5.85772014033E+00	-1.28591164483E+00
2.51913545950E+06	-1.42634905172E+01	1.79310130913E+02	7.39453387333E+00	1.69496173095E+02	-6.39408255450E+01	1.17964872861E+02	-5.86916986618E+00	-1.17903433224E+00
2.54132681409E+06	-1.95850259806E+01	1.73392639874E+02	7.41866870986E+00	1.69414548490E+02	-4.18072791611E+01	6.91796917016E+01	-5.85099508883E+00	-1.39670238955E+00
2.56351816869E+06	-1.49415533587E+01	-6.95511593166E+01	7.51421476491E+00	1.69353043093E+02	-4.01314488450E+01	-1.47603014714E+02	-5.84684536118E+00	-1.05445105386E+00
2.58570952328E+06	-2.04184230591E+01	-1.60259831901E+02	7.40762613599E+00	1.69027582256E+02	-4.52191750682E+01	1.46348850770E+02	-5.84420171319E+00	-1.36794247234E+00
2.60790087788E+06	-2.13200393732E+01	-1.53635520144E+02	7.44007392681E+00	1.68997443164E+02	-4.06535600733E+01	1.71533994804E+02	-5.84771058602E+00	-1.06433194014E+00
2.63009223247E+06	-1.93999851997E+01	-1.79713584466E+02	7.42615562071E+00	1.68859459641E+02	-3.31873137390E+01	-1.63503195528E+02	-5.83940191933E+00	-7.54929002943E-01
2.65228358707E+06	-1.48728527365E+01	-1.60956394315E+02	7.42677977707E+00	1.68472605473E+02	-4.53035108391E+01	5.59042482403E+01	-5.84718398351E+00	-1.40002513223E+00
2.67447494166E+06	-2.14922785871E+01	-1.75282679000E+02	7.43042857187E+00	1.68787155930E+02	-7.05854306632E+01	-1.21582195101E+02	-5.85683376623E+00	-1.42611033358E+00
2.69666629626E+06	-1.93288218506E+01	-1.58354234336E+02	7.40903644202E+00	1.68610880029E+02	-4.08961806025E+01	-9.63345697269E+01	-5.88216188916E+00	-1.23789998537E+00
2.71885765085E+06	-1.49714199371E+01	1.55949120461E+02	7.37191428639E+00	1.68537447026E+02	-4.03258730961E+01	1.72710938724E+02	-5.83967387782E+00	-1.21186217551E+00
2.74104900545E+06	-2.21951182287E+01	1.71392450581E+02	7.44519446003E+00	1.68547217819E+02	-4.61434834218E+01	-6.39917218239E+01	-5.85786109661E+00	-1.21140123006E+00
2.76324036004E+06	-2.00610685279E+01	-1.61914556473E+02	7.42790616255E+00	1.68315233629E+02	-4.50636598146E+01	1.10910983274E+02	-5.85945025431E+00	-1.48450871247E+00
2.78543171463E+06	-1.80339307269E+01	-1.43617944446E+02	7.43854937945E+00	1.67853199116E+02	-3.85323608798E+01	-9.66416613409E+01	-5.83402209069E+00	-1.27818203011E+00
2.80762306923E+06	-1.77331263816E+01	-1.62748293125E+02	7.45704054313E+00	1.67945108696E+02	-4.20497790692E+01	1.73479060446E+02	-5.81031375724E+00	-1.41419688596E+00
2.82981442382E+06	-2.09566284697E+01	-1.07558939304E+02	7.46479342298E+00	1.67863217721E+02	-4.27568885023E+01	-1.12456147675E+02	-5.85245245145E+00	-1.27814609327E+00
2.85200577842E+06	-1.45323577652E+01	-1.77122317548E+02	7.43179590667E+00	1.67807079456E+02	-4.85134914116E+01	-9.29699370049E+01	-5.85217578462E+00	-1.32988782990E+00
2.87419713301E+06	-1.38708702022E+01	1.71735372573E+02	7.39176135027E+00	1.67583039073E+02	-4.48067503914E+01	2.45118758954E+01	-5.86403215901E+00	-1.61938050303E+00
