# Hz S DB R 50
! CMT, M5065, 19127446, 24.2.4/2
! Date: 11/8/2024 4:23:48 PM
! Data: Format (Calibration Info)
! Freq	S11:dB/Ang(F2)	S21:dB/Ang(F2)	S12:dB/Ang(F2)	S22:dB/Ang(F2)
3.00000000000E+05	-1.05891691745E+01	1.71964538160E+02	8.74874845633E+00	-1.77516885015E+02	-4.37071808137E+01	2.77621985926E+01	-5.83604597779E+00	-4.47866572294E-01
3.22191354595E+05	-1.70848811964E+01	-1.66074037822E+02	8.78947915238E+00	-1.78051564431E+02	-4.74771432540E+01	2.63288867881E+01	-5.85676819284E+00	-4.27649929934E-01
3.44382709190E+05	-1.63600643466E+01	1.47868006235E+02	8.84106353355E+00	-1.78086317654E+02	-4.89835968871E+01	-9.41627561590E+01	-5.84915636951E+00	-3.00322462011E-01
3.66574063785E+05	-1.54956920339E+01	-1.56848751897E+02	8.77199174840E+00	-1.78866710983E+02	-4.90973701022E+01	1.54458542375E+02	-5.82826188900E+00	-3.30877888187E-01
3.88765418380E+05	-1.40305931813E+01	1.75882037821E+02	8.76506336076E+00	-1.78828985497E+02	-5.42237297196E+01	-7.74120899563E+01	-5.84329928789E+00	-2.09410654868E-01
4.10956772975E+05	-2.44559254098E+01	1.78618450529E+02	8.79598285610E+00	-1.79298869566E+02	-3.80502263716E+01	-7.86135522432E+01	-5.81595342088E+00	-3.21896586868E-01
4.33148127570E+05	-1.89892639840E+01	1.77834986883E+02	8.83163183309E+00	-1.79213803208E+02	-3.74543084957E+01	1.64516315088E+02	-5.78268412897E+00	-2.66174445123E-01
4.55339482165E+05	-2.59969091603E+01	1.74242268564E+02	8.82977959223E+00	-1.79680057502E+02	-4.13250227490E+01	1.19396303029E+02	-5.80683056106E+00	-4.08780936948E-01
4.77530836760E+05	-1.72087192961E+01	1.72822101590E+02	8.78982489336E+00	-1.79836324452E+02	-4.55897860904E+01	-1.77475531760E+02	-5.80743676214E+00	-4.77609724374E-01
4.99722191355E+05	-1.65275684363E+01	1.54281601131E+02	8.80068358057E+00	-1.79687921206E+02	-4.64476958280E+01	-1.68398677625E+02	-5.84359572973E+00	-2.70914915706E-01
5.21913545950E+05	-1.76678013690E+01	1.63322574047E+02	8.75335730278E+00	1.79616283466E+02	-3.92237834949E+01	9.88259663496E+01	-5.80734848369E+00	-5.71331473133E-01
5.44104900545E+05	-1.73453233792E+01	1.78999429572E+02	8.78386239308E+00	1.79491964885E+02	-4.97949261523E+01	-3.40249372536E+01	-5.83801055076E+00	-1.96650399569E-01
5.66296255139E+05	-1.58139614641E+01	1.75838219127E+02	8.76208495827E+00	1.79213377921E+02	-3.50717003963E+01	8.32216753357E+01	-5.83388527930E+00	-4.57988868888E-01
5.88487609734E+05	-1.54234009790E+01	-1.53819268773E+02	8.75361158592E+00	1.78575849273E+02	-4.37309240000E+01	-3.10226823301E+01	-5.82334284814E+00	-4.97519639719E-01
6.10678964329E+05	-1.45670360761E+01	1.73082948458E+02	8.81407213316E+00	1.78806112643E+02	-5.99115689325E+01	3.55403453468E+01	-5.84870821719E+00	1.12380725692E-01
6.32870318924E+05	-1.52986510360E+01	-1.72893870505E+02	8.79195880350E+00	1.78754836725E+02	-6.67619926845E+01	-6.85397800417E+01	-5.82613178643E+00	-3.24093886496E-01
6.55061673519E+05	-1.63656809874E+01	1.66853841051E+02	8.81371858652E+00	1.78535353855E+02	-4.07090721359E+01	-3.06033161383E+01	-5.87624851795E+00	-3.14942080210E-01
6.77253028114E+05	-2.01801454128E+01	1.79618417376E+02	8.80473082655E+00	1.78440060463E+02	-3.91932079488E+01	7.99859065608E+01	-5.81795387832E+00	-7.88752118589E-01
6.99444382709E+05	-1.64073735750E+01	1.42824427088E+02	8.82269482413E+00	1.78484907924E+02	-4.17235334354E+01	1.33521095914E+02	-5.82588487261E+00	-5.62564213478E-01
7.21635737304E+05	-1.75443228639E+01	1.62598026291E+02	8.78592464518E+00	1.78208389348E+02	-3.90795369075E+01	-3.44165889465E+01	-5.86736654841E+00	-5.10744045642E-01
7.43827091899E+05	-1.42972509336E+01	-1.72274188784E+02	8.80322753607E+00	1.77905517416E+02	-3.97945175814E+01	-1.59104093106E+02	-5.83094195765E+00	-3.16869468426E-01
7.66018446494E+05	-1.17823693720E+01	1.79612710775E+02	8.77204163124E+00	1.77797258715E+02	-5.66237429383E+01	1.02144616275E+02	-5.84015973518E+00	-4.53150047294E-01
7.88209801089E+05	-1.87176923249E+01	-1.64692926469E+02	8.84769265122E+00	1.77497051488E+02	-5.12148962408E+01	-1.65571933183E+02	-5.83138153076E+00	-5.54208422577E-01
8.10401155684E+05	-2.24932888330E+01	1.69156441350E+02	8.81189354618E+00	1.77409147218E+02	-5.26555823116E+01	-6.73601821476E+00	-5.84006939328E+00	-5.72827677003E-01
8.32592510279E+05	-1.68929758258E+01	1.54042792086E+02	8.78917190668E+00	1.77840275991E+02	-4.34481185070E+01	6.10139702317E+01	-5.84804688115E+00	-5.87954004251E-01
8.54783864874E+05	-1.60248661515E+01	1.78264933044E+02	8.78281194510E+00	1.77481057912E+02	-4.62700640677E+01	-2.06027953029E+01	-5.84147290909E+00	-3.65125564176E-01
8.76975219469E+05	-1.82908945509E+01	-1.68612705812E+02	8.82196781309E+00	1.77095612910E+02	-5.60560066320E+01	8.31061266486E+01	-5.85236106384E+00	-4.05502175500E-01
8.99166574064E+05	-1.75286318306E+01	-1.69806699421E+02	8.81682257006E+00	1.77102682285E+02	-4.07086522855E+01	3.43012067573E+01	-5.82930520948E+00	-6.10711974663E-01
9.21357928659E+05	-1.61109430542E+01	-1.70106234820E+02	8.82094446790E+00	1.76700422173E+02	-4.15815442811E+01	6.17835940734E+01	-5.85025355824E+00	-7.56434021451E-01
9.43549283254E+05	-1.49969585436E+01	-1.50918607379E+02	8.78586974239E+00	1.76238015644E+02	-4.81849763340E+01	-1.83772911817E+01	-5.84053948499E+00	-4.66743488767E-01
9.65740637849E+05	-1.80445642893E+01	-1.54669427104E+02	8.82808181616E+00	1.76480173423E+02	-4.52229215743E+01	1.56323707696E+02	-5.83262910626E+00	-4.19548457827E-01
9.87931992444E+05	-1.80889844851E+01	1.53952852208E+02	8.81665064593E+00	1.76466197002E+02	-4.05228469477E+01	1.32602081737E+02	-5.81719882177E+00	-5.98333825428E-01
1.01012334704E+06	-1.63732253314E+01	-1.69961349674E+02	8.79328035153E+00	1.76178942505E+02	-4.35289526865E+01	-1.21186207636E+02	-5.82436764950E+00	-2.80275728090E-01
1.03231470163E+06	-1.58782445344E+01	-1.72157378894E+02	8.77185624182E+00	1.75972402075E+02	-5.00926748622E+01	-1.43667489020E+02	-5.82135426357E+00	-5.94508513551E-01
1.05450605623E+06	-1.23303709712E+01	1.58115552272E+02	8.75428240363E+00	1.76153784351E+02	-4.36101729686E+01	-2.34327745520E+01	-5.81846217847E+00	-5.62272404752E-01
1.07669741082E+06	-1.42476211005E+01	1.77468191710E+02	8.77737638712E+00	1.75664079127E+02	-5.77525008761E+01	-8.20488340356E+01	-5.83423891938E+00	-5.58618145566E-01
1.09888876542E+06	-1.82151097164E+01	-1.60274641373E+02	8.82304309273E+00	1.75730417867E+02	-4.00631847413E+01	5.64857906766E+01	-5.84073593405E+00	-7.28106556674E-01
1.12108012001E+06	-1.60374983658E+01	1.58548697129E+02	8.77289441904E+00	1.75858511480E+02	-4.58215590341E+01	1.49369745936E+02	-5.82360671796E+00	-6.13133214988E-01
1.14327147461E+06	-2.77819677540E+01	1.41206608506E+02	8.84978388902E+00	1.75818838714E+02	-4.30641733053E+01	-1.12123837250E+02	-5.83359048485E+00	-4.98317472670E-01
1.16546282920E+06	-1.69237716849E+01	-1.77684944074E+02	8.81398648155E+00	1.75501377619E+02	-5.45868037295E+01	1.22578688868E+02	-5.84044658056E+00	-6.65573665485E-01
1.18765418380E+06	-1.72307401115E+01	-1.64074870821E+02	8.79311535417E+00	1.75322340427E+02	-4.74231892944E+01	-8.33548404552E+01	-5.82328312876E+00	-5.46339254136E-01
1.20984553839E+06	-1.62041697217E+01	-1.78567703038E+02	8.79235477438E+00	1.75003983790E+02	-4.43415562846E+01	1.09762972655E+02	-5.82400596626E+00	-7.75084287860E-01
1.23203689299E+06	-2.68610730674E+01	1.61764772489E+02	8.80419787648E+00	1.74958951664E+02	-4.67123937785E+01	-1.64480391261E+02	-5.83715719003E+00	-4.68088852324E-01
1.25422824758E+06	-1.34028526572E+01	-1.78655860384E+02	8.78685434345E+00	1.74746627470E+02	-4.43523696823E+01	-3.01560019756E+01	-5.86282572578E+00	-6.71487650945E-01
1.27641960218E+06	-1.44201622286E+01	-1.55765633729E+02	8.80549114346E+00	1.74888008450E+02	-5.75699991580E+01	1.59533018791E+02	-5.82890586756E+00	-5.65906597440E-01
1.29861095677E+06	-1.27209939091E+01	1.63044029893E+02	8.76857095799E+00	1.74778619118E+02	-4.92422374151E+01	1.39833815901E+02	-5.83872628446E+00	-7.24453691620E-01
1.32080231137E+06	-1.80637420125E+01	-1.62638891191E+02	8.80473990270E+00	1.74633862672E+02	-4.01222170768E+01	-1.04531149071E+02	-5.81218302059E+00	-9.27463004900E-01
1.34299366596E+06	-1.69312694175E+01	1.57404333644E+02	8.79485034908E+00	1.74573399748E+02	-4.40056018645E+01	-6.95740309044E+01	-5.83531388927E+00	-7.38385515834E-01
1.36518502056E+06	-1.34834309869E+01	1.66643166483E+02	8.77679364355E+00	1.74332353917E+02	-3.93851075989E+01	5.40578737249E+01	-5.80110246957E+00	-8.39999932969E-01
1.38737637515E+06	-1.67223034664E+01	-1.50104624455E+02	8.82210916541E+00	1.74083589824E+02	-5.74730706910E+01	-3.91689037536E+01	-5.83847515764E+00	-7.17457595143E-01
1.40956772975E+06	-2.03035940067E+01	1.58530434769E+02	8.80611134655E+00	1.74299272922E+02	-5.30277970441E+01	-1.68644757326E+02	-5.85021649539E+00	-6.36831957229E-01
1.43175908434E+06	-2.23558772050E+01	-1.48328113961E+02	8.85375818053E+00	1.73878477318E+02	-5.05231491284E+01	-1.71012500229E+02	-5.82495514315E+00	-7.12388304083E-01
1.45395043894E+06	-1.46687845488E+01	-1.58582925823E+02	8.78161861991E+00	1.73820555541E+02	-4.84180407209E+01	4.20390181712E+01	-5.83891515819E+00	-7.41179937539E-01
1.47614179353E+06	-2.05964878526E+01	1.75140479912E+02	8.78951146429E+00	1.73805081194E+02	-4.42358754574E+01	9.53292482814E+01	-5.83861983246E+00	-7.90946815932E-01
1.49833314813E+06	-1.70824024605E+01	-1.64617166626E+02	8.82231989165E+00	1.73342162190E+02	-4.70888850030E+01	1.19432653548E+02	-5.82905379478E+00	-7.50162029937E-01
1.52052450272E+06	-1.30388964849E+01	1.73752068449E+02	8.79068189604E+00	1.73070210812E+02	-3.66548622159E+01	-1.32010381482E+02	-5.80978625952E+00	-7.19160654831E-01
1.54271585732E+06	-1.54943523032E+01	-1.28173470799E+02	8.86192648871E+00	1.73151889951E+02	-4.81738613848E+01	7.09061046700E+00	-5.84769912386E+00	-9.03285740916E-01
1.56490721191E+06	-1.14972629424E+01	1.79678252664E+02	8.76806411385E+00	1.73064324517E+02	-4.69175478849E+01	-5.79534331563E+01	-5.83846222571E+00	-7.79924530901E-01
1.58709856651E+06	-1.91175706309E+01	-1.69661132491E+02	8.82849168995E+00	1.73312791067E+02	-5.16524068693E+01	2.69404312566E+01	-5.84191689440E+00	-8.69864795897E-01
1.60928992110E+06	-1.66434853124E+01	1.67118027141E+02	8.81489962609E+00	1.73121356474E+02	-4.88286772266E+01	8.04109104903E+01	-5.82814144934E+00	-8.49968181037E-01
1.63148127570E+06	-1.70242699951E+01	1.76299585875E+02	8.83606484215E+00	1.72950129608E+02	-4.63341909445E+01	-1.78022186280E+02	-5.83512153017E+00	-8.73185753445E-01
1.65367263029E+06	-2.25978826780E+01	-1.77558547333E+02	8.88057654411E+00	1.73033168879E+02	-5.63421851208E+01	-5.95673522250E+01	-5.82823360720E+00	-8.42695214417E-01
1.67586398489E+06	-2.09237649693E+01	1.73615717063E+02	8.83972350576E+00	1.72693875397E+02	-3.50347388968E+01	1.28775300209E+02	-5.80873066846E+00	-9.36293392265E-01
1.69805533948E+06	-1.62199425554E+01	1.45093977267E+02	8.78429568911E+00	1.72829723134E+02	-4.13856298565E+01	-1.22970107598E+01	-5.84714740521E+00	-9.15025215567E-01
1.72024669408E+06	-1.71258946050E+01	-7.04766779361E+01	8.86070708253E+00	1.72586351028E+02	-3.92111227539E+01	-7.62331074995E+01	-5.84186049503E+00	-7.26493494292E-01
1.74243804867E+06	-1.58689047025E+01	1.55700276287E+02	8.83137764257E+00	1.72469441674E+02	-4.52189899286E+01	2.51133591567E+01	-5.82932005508E+00	-8.28355588161E-01
1.76462940327E+06	-1.24962881581E+01	-1.53236141775E+02	8.81594277285E+00	1.72031290654E+02	-4.49397406466E+01	4.30617298255E+01	-5.81957060880E+00	-7.89382634774E-01
1.78682075786E+06	-2.04430271196E+01	-1.46442726706E+02	8.82858672112E+00	1.72108098677E+02	-4.81035309040E+01	3.68726037286E+01	-5.83164503992E+00	-1.01755014350E+00
1.80901211246E+06	-1.69364563706E+01	1.77860405362E+02	8.83433495057E+00	1.72084314890E+02	-6.44074093974E+01	1.79308789644E+02	-5.83538383784E+00	-8.61828015996E-01
1.83120346705E+06	-1.38964999408E+01	1.69659910506E+02	8.79690854698E+00	1.71625284653E+02	-3.37796313782E+01	1.79043229741E+02	-5.80911382401E+00	-7.37865445359E-01
1.85339482165E+06	-1.69477172035E+01	-1.78320889382E+02	8.80396906289E+00	1.71398666622E+02	-3.27500473577E+01	-5.64910185411E+01	-5.87422690490E+00	-7.95940071727E-01
1.87558617624E+06	-1.38642661440E+01	-8.59561001320E+01	8.92648550166E+00	1.71462141943E+02	-4.40292756449E+01	7.59023240373E+01	-5.83833256351E+00	-1.14488378713E+00
1.89777753084E+06	-1.93847873803E+01	1.32604339606E+02	8.81810054710E+00	1.71812849540E+02	-4.01597655754E+01	-1.39257110823E+02	-5.82574933010E+00	-7.36829634849E-01
1.91996888543E+06	-1.72798196060E+01	1.76933852662E+02	8.83456252751E+00	1.71286014776E+02	-4.08837058371E+01	-1.67495753607E+01	-5.85397297689E+00	-1.09827119998E+00
1.94216024003E+06	-1.58981443538E+01	-1.59572372983E+02	8.78042986255E+00	1.71246309418E+02	-4.74173485239E+01	-6.01531122261E+01	-5.83650718933E+00	-9.28148654218E-01
1.96435159462E+06	-1.36118589925E+01	-1.79493150674E+02	8.80970839626E+00	1.71176933895E+02	-4.29398923445E+01	-1.77091560850E+02	-5.82180100060E+00	-9.07783756750E-01
1.98654294922E+06	-1.61854538956E+01	-1.57555476545E+02	8.82286132695E+00	1.70946884754E+02	-4.03044113147E+01	1.15330423005E+02	-5.82393430207E+00	-1.20697620860E+00
2.00873430381E+06	-1.23533879808E+01	-1.57804494013E+02	8.81557609091E+00	1.70711338133E+02	-5.01906090187E+01	1.66992760623E+02	-5.83734429514E+00	-1.01302886362E+00
2.03092565841E+06	-1.19533723037E+01	-1.08101344302E+02	8.89677338044E+00	1.70771634108E+02	-5.50566133102E+01	1.46870004122E+02	-5.82902485458E+00	-1.02095956250E+00
2.05311701300E+06	-1.93024783477E+01	1.73411820908E+02	8.81315746713E+00	1.70917758856E+02	-3.93640493265E+01	1.03186148302E+02	-5.81548307660E+00	-1.16980665320E+00
2.07530836760E+06	-1.67465361025E+01	1.65185996144E+02	8.82345205049E+00	1.70613734504E+02	-4.50582256882E+01	-1.33958229815E+02	-5.82252080547E+00	-9.44679132318E-01
2.09749972219E+06	-1.56948375655E+01	-1.70946399431E+02	8.79797839496E+00	1.70427217420E+02	-4.20906290120E+01	8.38817867585E+01	-5.82103192475E+00	-1.09017497913E+00
2.11969107679E+06	-2.11115723813E+01	1.52381817916E+02	8.84635626366E+00	1.70591989845E+02	-5.20621725098E+01	7.69712314642E+00	-5.84135131426E+00	-1.08163763008E+00
2.14188243138E+06	-1.70950371410E+01	-1.56937982996E+02	8.84364757717E+00	1.70205964523E+02	-4.97750025035E+01	-1.09730166080E+02	-5.83042870072E+00	-1.00725536494E+00
2.16407378598E+06	-1.98275670260E+01	-1.64583090632E+02	8.84139737676E+00	1.70226415385E+02	-3.73091176617E+01	1.45950204727E+02	-5.79728785562E+00	-1.28534512102E+00
2.18626514057E+06	-1.60802501062E+01	-1.66337633387E+02	8.81896346382E+00	1.70014196998E+02	-4.96767595314E+01	-7.16643149320E+00	-5.82488253102E+00	-1.14646062122E+00
2.20845649517E+06	-1.68206611404E+01	-1.61642121597E+02	8.83325598391E+00	1.69709374623E+02	-4.95749810365E+01	-6.88337615713E+01	-5.84558467067E+00	-1.10376626865E+00
2.23064784976E+06	-1.36420537447E+01	-1.76956171166E+02	8.81385349328E+00	1.69703470244E+02	-4.80479362071E+01	6.36949031415E+01	-5.83042585424E+00	-1.16596252644E+00
2.25283920436E+06	-1.67722622638E+01	1.69422567206E+02	8.83444574191E+00	1.69842372230E+02	-4.66700980943E+01	-4.40226787132E+01	-5.83110604834E+00	-1.13319985433E+00
2.27503055895E+06	-1.76228480156E+01	-1.66920371751E+02	8.84322156732E+00	1.69514101468E+02	-5.59384059183E+01	1.47960541164E+02	-5.84975703726E+00	-1.12671040790E+00
2.29722191355E+06	-1.58292493509E+01	-1.78430886033E+02	8.83612063137E+00	1.69510337681E+02	-4.30229505330E+01	-3.35915067207E+01	-5.83928998691E+00	-1.05494694703E+00
2.31941326814E+06	-1.26117199453E+01	-1.69919621317E+02	8.81320588164E+00	1.69052961095E+02	-3.28694742684E+01	1.35227640247E+02	-5.80194767752E+00	-1.38725469462E+00
2.34160462274E+06	-1.41413522557E+01	-1.58446655444E+02	8.82672483259E+00	1.69393353477E+02	-4.04957446463E+01	-1.24416911205E+02	-5.84561637160E+00	-1.02227662608E+00
2.36379597733E+06	-1.73354110870E+01	-1.76913255653E+02	8.82364044426E+00	1.69154209078E+02	-5.30897026400E+01	-1.36054835301E+02	-5.83533856619E+00	-1.10846693009E+00
2.38598733193E+06	-1.76439909316E+01	1.60074921213E+02	8.84152426763E+00	1.69280708388E+02	-4.28849498223E+01	-1.24141449821E+02	-5.82547033964E+00	-1.04718223945E+00
2.40817868652E+06	-1.40653683251E+01	-1.68154423346E+02	8.79325825254E+00	1.68777744738E+02	-4.86074043610E+01	7.84394805423E+01	-5.81258136304E+00	-1.30842325781E+00
2.43037004112E+06	-1.47387474727E+01	1.76720709896E+02	8.82903712033E+00	1.68899506998E+02	-4.67514266508E+01	5.26674055917E+01	-5.83297406405E+00	-1.67426004081E+00
2.45256139571E+06	-1.83557639167E+01	-1.63586880608E+02	8.81297449072E+00	1.68904734725E+02	-3.68902308333E+01	3.37948554760E+01	-5.85757834882E+00	-1.16765227680E+00
2.47475275031E+06	-1.91992599338E+01	-1.76427421665E+02	8.85679822169E+00	1.68865207870E+02	-3.47897295849E+01	1.10914308509E+02	-5.79528952640E+00	-1.43048849229E+00
2.49694410490E+06	-1.53408907424E+01	-1.71637528615E+02	8.83079944310E+00	1.68448009321E+02	-5.10486147095E+01	1.11861545154E+02	-5.83064938853E+00	-1.17063910899E+00
2.51913545950E+06	-1.90530449447E+01	1.62388095725E+02	8.84101136362E+00	1.68721567580E+02	-4.48261847345E+01	-3.43223076898E+01	-5.86816546141E+00	-1.23574230727E+00
2.54132681409E+06	-1.95653182584E+01	1.67346370982E+02	8.83748178826E+00	1.68335218508E+02	-4.41234629626E+01	-3.38690301587E+01	-5.83481141371E+00	-1.37151486051E+00
2.56351816869E+06	-1.65815828487E+01	-1.78951047789E+02	8.83806302501E+00	1.68220225997E+02	-5.13804636379E+01	3.39173869452E+01	-5.83692213339E+00	-1.43567404834E+00
2.58570952328E+06	-1.55085950933E+01	-1.64684849791E+02	8.82957107137E+00	1.68184176144E+02	-4.16063718333E+01	-3.43631849463E+01	-5.83166943667E+00	-1.18086930955E+00
2.60790087788E+06	-1.76122934419E+01	-1.55208995144E+02	8.87667333709E+00	1.68037056491E+02	-4.86952267255E+01	1.23578214665E+02	-5.84573631131E+00	-1.19646724101E+00
2.63009223247E+06	-1.47743184331E+01	1.79154025785E+02	8.82314014934E+00	1.68000126319E+02	-3.86000596632E+01	1.44517038741E+02	-5.83775262541E+00	-9.84006473034E-01
2.65228358707E+06	-2.57859296338E+01	-1.79149774978E+02	8.89632997115E+00	1.67775114144E+02	-4.00777836981E+01	-1.08735203816E+02	-5.82814456454E+00	-1.14121496477E+00
2.67447494166E+06	-1.56009673542E+01	1.58470673759E+02	8.81246754314E+00	1.67841435732E+02	-4.94699852164E+01	-8.89032884085E+01	-5.85518216569E+00	-1.26965230758E+00
2.69666629626E+06	-2.12933197770E+01	-1.48595102993E+02	8.88429074829E+00	1.67659503551E+02	-4.30316464302E+01	-9.20408056500E+01	-5.81824029957E+00	-1.21359576943E+00
2.71885765085E+06	-1.90762764831E+01	1.72927407254E+02	8.85513067192E+00	1.67580874476E+02	-4.42659382472E+01	7.52619072409E+01	-5.84177462290E+00	-1.41194614194E+00
2.74104900545E+06	-1.50914761107E+01	-1.68203938614E+02	8.84222798374E+00	1.67254271673E+02	-5.04724678027E+01	-1.70586280196E+02	-5.83387774913E+00	-1.17843064358E+00
2.76324036004E+06	-1.76534480222E+01	1.75142811056E+02	8.83464064419E+00	1.67216652803E+02	-3.88643524001E+01	1.13064666507E+02	-5.83333424849E+00	-1.56803564609E+00
2.78543171463E+06	-2.31773936406E+01	-1.79905184237E+02	8.85549924704E+00	1.67257858815E+02	-4.17408979385E+01	7.65077385903E+01	-5.83010684988E+00	-1.34807147539E+00
2.80762306923E+06	-1.32175408701E+01	-1.77200123379E+02	8.84344776105E+00	1.66674829812E+02	-4.23883808935E+01	-1.24689502289E+02	-5.81264745746E+00	-1.31140832866E+00
2.82981442382E+06	-1.68377168114E+01	-1.37615205407E+02	8.90227737833E+00	1.66567815186E+02	-6.13206374590E+01	1.65340506991E+02	-5.84397670241E+00	-1.27765396399E+00
2.85200577842E+06	-1.52618374466E+01	1.62973141795E+02	8.81171639454E+00	1.66963151656E+02	-4.43005945244E+01	-5.65140373520E+01	-5.84016000755E+00	-1.39698366137E+00
2.87419713301E+06	-1.66620424854E+01	1.53842565197E+02	8.84773830815E+00	1.66821229254E+02	-4.92976490426E+01	-6.56803111160E+01	-5.86626848782E+00	-1.37241071473E+00
