# Hz S DB R 50
! CMT, M5065, 19127446, 24.2.4/2
! Date: 11/8/2024 4:19:31 PM
! Data: Format (Calibration Info)
! Freq	S11:dB/Ang(F2)	S21:dB/Ang(F2)	S12:dB/Ang(F2)	S22:dB/Ang(F2)
3.00000000000E+05	-1.69392800072E+01	1.73784669806E+02	2.65797384911E+01	-1.73831762578E+02	-4.83279230768E+01	1.16672929561E+02	-5.81096705332E+00	-5.87494643359E-01
3.22191354595E+05	-1.74841241550E+01	-1.64896784759E+02	2.65993566088E+01	-1.75605282683E+02	-3.76144990627E+01	-1.34283051803E+01	-5.94259544258E+00	-7.17701313109E-01
3.44382709190E+05	-1.40346762946E+01	1.77046446088E+02	2.65817024473E+01	-1.76478018251E+02	-5.21728621989E+01	-1.36712780033E+02	-5.76766312511E+00	-1.15191181664E-01
3.66574063785E+05	-1.86810296146E+01	-1.69582073424E+02	2.66186941047E+01	-1.77711590440E+02	-4.42217263555E+01	7.24982687645E+01	-5.83880024296E+00	-9.02063553731E-01
3.88765418380E+05	-1.45130638043E+01	1.59322529026E+02	2.65893628305E+01	-1.78390590560E+02	-3.91368180195E+01	9.30156801177E+01	-5.82861500338E+00	-1.42061853652E+00
4.10956772975E+05	-2.06602722439E+01	-1.71310848543E+02	2.66331027765E+01	-1.79688221592E+02	-4.40953390531E+01	4.34363762026E+01	-5.88518041100E+00	-9.09494422682E-01
4.33148127570E+05	-1.67032894085E+01	-1.55107212735E+02	2.66053482431E+01	1.79290467046E+02	-4.74540558758E+01	-3.62515082545E+00	-5.90291904325E+00	-5.54984913837E-01
4.55339482165E+05	-1.33852358775E+01	1.75921526482E+02	2.65593957657E+01	1.78518616046E+02	-4.58328652257E+01	-1.12535647124E+02	-5.80121080393E+00	9.44943982517E-02
4.77530836760E+05	-1.72169657017E+01	-1.63746430160E+02	2.66055972109E+01	1.77639188181E+02	-4.33645234841E+01	-2.56280084985E+01	-5.92809257816E+00	-3.38082875676E-02
4.99722191355E+05	-1.68240430786E+01	-1.72772831558E+02	2.66046669427E+01	1.77042154079E+02	-3.59784784132E+01	1.68095543519E+01	-6.04545834630E+00	-1.03647922878E+00
5.21913545950E+05	-1.85317310850E+01	1.62728255058E+02	2.65987324805E+01	1.76298328505E+02	-4.60893653497E+01	1.02289845429E+02	-5.81576462515E+00	-1.10247275274E+00
5.44104900545E+05	-1.69571987678E+01	1.69922858434E+02	2.65635855730E+01	1.75541373850E+02	-4.15863198396E+01	1.18915002437E+02	-5.74529465438E+00	-1.26501826089E+00
5.66296255139E+05	-2.14146821657E+01	-1.76726451297E+02	2.65984161726E+01	1.74886181177E+02	-5.01674363883E+01	-1.27073579899E+02	-5.79842677566E+00	-1.09797160027E-01
5.88487609734E+05	-1.80534154686E+01	-1.45040403954E+02	2.65746910246E+01	1.74025304442E+02	-4.65362562765E+01	-9.79532952284E+01	-5.80861477864E+00	-2.28692504279E-01
6.10678964329E+05	-3.35764364314E+01	-1.75278374121E+02	2.65866086708E+01	1.73610285262E+02	-3.98190332450E+01	1.32391988396E+02	-5.70912085033E+00	-8.00889025194E-01
6.32870318924E+05	-1.76242893294E+01	1.65295009426E+02	2.65458968694E+01	1.72810649090E+02	-4.51230142347E+01	1.66324070733E+02	-5.78180120377E+00	-4.91161121031E-01
6.55061673519E+05	-1.37588269306E+01	-1.63183390238E+02	2.65126841084E+01	1.72067458386E+02	-5.19061722156E+01	-1.31880612931E+02	-5.83150639649E+00	-1.88861944889E-01
6.77253028114E+05	-1.73634008210E+01	1.78025485509E+02	2.65305499622E+01	1.71610142544E+02	-5.06181609181E+01	1.37361850425E+02	-5.83685194931E+00	-8.85759518611E-01
6.99444382709E+05	-1.71625709635E+01	1.65901647012E+02	2.65234273239E+01	1.70915491329E+02	-4.73335567910E+01	1.67108319831E+02	-5.74368703347E+00	-5.93894192378E-01
7.21635737304E+05	-1.63409236547E+01	1.56418802364E+02	2.65118947950E+01	1.70599458920E+02	-4.06748813780E+01	-9.84116528591E+01	-5.78662229633E+00	2.25615365285E-01
7.43827091899E+05	-2.39342287834E+01	1.50694720730E+02	2.65140764985E+01	1.69933350706E+02	-5.07390748004E+01	8.38293193929E+01	-5.84733257754E+00	-7.80697557225E-01
7.66018446494E+05	-1.47835135922E+01	1.36120621263E+02	2.64943748839E+01	1.69396036065E+02	-3.65141255966E+01	-1.51135088866E+02	-5.61414188714E+00	2.36807758364E-01
7.88209801089E+05	-2.01799356304E+01	-1.79255817023E+02	2.64811717127E+01	1.68680433120E+02	-5.68814701107E+01	1.73129299928E+02	-5.81671394836E+00	-5.30619294554E-01
8.10401155684E+05	-1.81607393225E+01	1.65426694443E+02	2.64694361550E+01	1.68240150126E+02	-3.51448624185E+01	2.18691403559E+01	-6.08755891196E+00	-1.15441301258E+00
8.32592510279E+05	-1.63469914423E+01	-1.57980188903E+02	2.64513470404E+01	1.67512999584E+02	-4.85670118889E+01	-8.86765362946E+01	-5.84871665093E+00	-2.50773314643E-01
8.54783864874E+05	-1.71395945251E+01	1.65226827588E+02	2.64272040432E+01	1.67171383701E+02	-4.76348672286E+01	-9.03172003551E+01	-5.84167275270E+00	-1.51238044453E-01
8.76975219469E+05	-1.79150305525E+01	1.64252690478E+02	2.64280621236E+01	1.66658139473E+02	-4.43381669882E+01	8.64823731051E+01	-5.82502509437E+00	-1.12814909077E+00
8.99166574064E+05	-1.84581908353E+01	1.72026862050E+02	2.64315393988E+01	1.66004495915E+02	-4.30734592141E+01	-1.61760176967E+02	-5.73158717886E+00	-3.14488669739E-01
9.21357928659E+05	-1.58433288206E+01	-1.44269415484E+02	2.63958058896E+01	1.65285543259E+02	-4.14608112234E+01	1.64712371336E+02	-5.70244390056E+00	-7.64541875899E-01
9.43549283254E+05	-1.86791849733E+01	-1.53733004792E+02	2.63993106307E+01	1.64928186371E+02	-5.39298650133E+01	-8.21305597885E+01	-5.84248092603E+00	-4.83790761224E-01
9.65740637849E+05	-1.67308409459E+01	-1.69236103644E+02	2.63767245811E+01	1.64421824794E+02	-4.89144677227E+01	6.34844374802E+01	-5.82443713970E+00	-6.71555699345E-01
9.87931992444E+05	-2.03634538161E+01	1.69504781211E+02	2.63806149281E+01	1.64181379573E+02	-4.52149980252E+01	1.53653277040E+02	-5.73378273385E+00	-9.51583778338E-01
1.01012334704E+06	-1.55047919247E+01	-1.70395808732E+02	2.63237898054E+01	1.63494229852E+02	-4.05899098069E+01	-1.18204003049E+02	-5.77089775972E+00	1.35506434936E-01
1.03231470163E+06	-2.39410277976E+01	-1.75029949137E+02	2.63509154765E+01	1.63225193020E+02	-4.71688799387E+01	1.27930108140E+02	-5.78537632252E+00	-1.13883088259E+00
1.05450605623E+06	-1.71140549564E+01	-1.74202820542E+02	2.63173219475E+01	1.62503534174E+02	-4.93658745182E+01	4.14280627461E+01	-5.88729374638E+00	-9.62345867512E-01
1.07669741082E+06	-1.51359820959E+01	1.67355902395E+02	2.63213352546E+01	1.61728558301E+02	-4.14019974310E+01	6.75644878156E+01	-5.86628223107E+00	-1.19809088401E+00
1.09888876542E+06	-1.86277636828E+01	-1.39301004424E+02	2.63145728327E+01	1.61560454600E+02	-4.39197640030E+01	1.91842697419E+01	-5.93836075164E+00	-8.38086248048E-01
1.12108012001E+06	-2.23820780620E+01	-1.36062343616E+02	2.62881249139E+01	1.61151541095E+02	-4.39494753043E+01	-6.45491067192E+01	-5.83602731846E+00	-1.47187633734E-01
1.14327147461E+06	-2.24749773988E+01	-1.59200554718E+02	2.62878385906E+01	1.60676782769E+02	-4.60730419387E+01	-1.11634680196E+02	-5.82172546588E+00	-1.31966632015E-01
1.16546282920E+06	-1.67872938417E+01	-1.79478979053E+02	2.62377165050E+01	1.60221702365E+02	-4.50167934007E+01	2.75654648022E+01	-5.93857347385E+00	-8.24355497096E-01
1.18765418380E+06	-1.58503104969E+01	1.64921288497E+02	2.62127384690E+01	1.59842145521E+02	-4.26653114744E+01	3.09995925238E+01	-5.91397550199E+00	-9.81384072797E-01
1.20984553839E+06	-1.47782737640E+01	-1.72313652061E+02	2.61870847074E+01	1.59283818431E+02	-4.61408458634E+01	-2.39599558656E+01	-5.87233897104E+00	-5.72453552362E-01
1.23203689299E+06	-1.88380854028E+01	-1.53843403615E+02	2.62046125303E+01	1.58819656418E+02	-5.73869699022E+01	-1.48534965346E+02	-5.83085456598E+00	-3.81531382146E-01
1.25422824758E+06	-1.72947198438E+01	-1.44983313017E+02	2.62098431272E+01	1.58210398720E+02	-4.28812490017E+01	1.03131371240E+02	-5.82741915180E+00	-1.38073465353E+00
1.27641960218E+06	-2.21732280547E+01	-1.56246243246E+02	2.61919966064E+01	1.57975416918E+02	-4.36294477730E+01	1.69284046042E+02	-5.76139722417E+00	-6.80868880667E-01
1.29861095677E+06	-1.88751458074E+01	-1.72597239248E+02	2.61693717050E+01	1.57554341433E+02	-4.39433293985E+01	-6.92805849868E+01	-5.88626943192E+00	5.50790007285E-02
1.32080231137E+06	-2.19944161982E+01	1.70777750060E+02	2.61338030060E+01	1.57259376227E+02	-5.28661436094E+01	1.11576566763E+02	-5.82249931751E+00	-9.28838254955E-01
1.34299366596E+06	-1.65879475020E+01	-1.74540133901E+02	2.61146311575E+01	1.56708357550E+02	-4.59790557488E+01	-4.22076295180E+01	-5.88066399141E+00	-4.55075406937E-01
1.36518502056E+06	-1.83505420651E+01	-1.62662874629E+02	2.61195530355E+01	1.56256914442E+02	-4.54827425362E+01	-7.48571176280E+01	-5.86691315476E+00	-1.09898566704E-01
1.38737637515E+06	-1.14128980031E+01	1.38058184189E+02	2.60593039494E+01	1.55996985887E+02	-4.04654505691E+01	2.11079941583E+01	-5.99240162857E+00	-1.10238261337E+00
1.40956772975E+06	-1.64597882796E+01	1.64600969915E+02	2.60569230997E+01	1.55655122650E+02	-3.78952705529E+01	-8.47994129683E+01	-5.87029451671E+00	5.61902784743E-01
1.43175908434E+06	-1.69920488841E+01	-1.65182033130E+02	2.60424453397E+01	1.54849818477E+02	-4.00666421120E+01	1.78266294048E+02	-5.71757923778E+00	-6.68293888985E-01
1.45395043894E+06	-1.69803629421E+01	-1.69896446037E+02	2.60228864188E+01	1.54541426706E+02	-4.59601196025E+01	-1.48578772390E+02	-5.78530632756E+00	-6.76148329419E-01
1.47614179353E+06	-1.65841828246E+01	-1.61062302410E+02	2.60022183203E+01	1.53997461806E+02	-4.58193039143E+01	-1.49959497326E+02	-5.77873447558E+00	-6.28191739698E-01
1.49833314813E+06	-2.26016138830E+01	1.54166622527E+02	2.60090061341E+01	1.53843088955E+02	-5.60623656395E+01	1.32152179699E+02	-5.81926875417E+00	-8.67820133290E-01
1.52052450272E+06	-2.05303900876E+01	1.72978805258E+02	2.59917212178E+01	1.53428454773E+02	-5.08037905404E+01	-1.32633674425E+02	-5.79546909946E+00	-6.10529071292E-01
1.54271585732E+06	-1.63758915561E+01	-1.38261748933E+02	2.59916510664E+01	1.52733477330E+02	-5.37757741187E+01	1.61095992665E+02	-5.80901991432E+00	-8.61850386819E-01
1.56490721191E+06	-1.78198069510E+01	-1.65656531068E+02	2.59485651430E+01	1.52308206784E+02	-4.84663783246E+01	-1.10354159752E+02	-5.80913934599E+00	-4.85165981231E-01
1.58709856651E+06	-2.28325725595E+01	-1.56884719060E+02	2.59363315991E+01	1.52047959639E+02	-3.21732058619E+01	4.67224476808E+01	-6.10691204879E+00	-2.40888168957E+00
1.60928992110E+06	-1.55600119000E+01	-1.75444093770E+02	2.58887625393E+01	1.51523951281E+02	-5.09471255890E+01	3.69720443184E+01	-5.83933677168E+00	-1.01772270604E+00
1.63148127570E+06	-1.48903318597E+01	1.71735975591E+02	2.58610859839E+01	1.51129166699E+02	-4.05251130835E+01	1.00361651765E+02	-5.78106535088E+00	-1.78236303199E+00
1.65367263029E+06	-1.24563864275E+01	1.78160893740E+02	2.58390446927E+01	1.50767840793E+02	-4.07336651166E+01	-8.41695518772E+01	-5.83273481800E+00	-4.11595152636E-04
1.67586398489E+06	-1.48965598090E+01	1.78553172660E+02	2.58279799784E+01	1.50422220880E+02	-4.86578478935E+01	-1.08056420599E+02	-5.83111844458E+00	-3.95710131110E-01
1.69805533948E+06	-1.50983824863E+01	-1.08734582032E+02	2.58642800488E+01	1.49784545476E+02	-5.57052703752E+01	1.60787696967E+02	-5.80246569517E+00	-1.03959503512E+00
1.72024669408E+06	-2.36199221610E+01	1.38387892587E+02	2.58447778853E+01	1.49815644749E+02	-4.56275560575E+01	-1.31236088591E+02	-5.77727611888E+00	-3.85679243663E-01
1.74243804867E+06	-1.60025538143E+01	-1.62759737049E+02	2.57814169405E+01	1.48921523045E+02	-4.34580136522E+01	1.64164317803E+02	-5.72914742558E+00	-1.48038314760E+00
1.76462940327E+06	-1.74941530951E+01	1.69270465214E+02	2.57873408426E+01	1.48887406805E+02	-3.75897460142E+01	6.97744138805E+01	-5.89408594142E+00	-1.93494903235E+00
1.78682075786E+06	-1.85562274075E+01	-1.65654637771E+02	2.57792814895E+01	1.48362358826E+02	-5.44982918254E+01	1.09831839436E+02	-5.83690829200E+00	-1.27324173146E+00
1.80901211246E+06	-1.43269976657E+01	1.50371439195E+02	2.57082093365E+01	1.48210966673E+02	-4.15015769033E+01	-4.63036272087E+01	-5.93257738789E+00	-2.82003405275E-01
1.83120346705E+06	-3.28561536890E+01	1.57112598375E+02	2.57702552510E+01	1.47945911130E+02	-6.30033713560E+01	1.40087145936E+02	-5.83191931831E+00	-1.12798381674E+00
1.85339482165E+06	-1.48774963475E+01	-1.76363482544E+02	2.56800132179E+01	1.47209727758E+02	-4.57089791696E+01	1.67594625725E+02	-5.73652034655E+00	-1.15004906593E+00
1.87558617624E+06	-1.92877625599E+01	1.43826603320E+02	2.56778386731E+01	1.47076218904E+02	-4.74842920442E+01	-1.43040872952E+02	-5.75836071353E+00	-6.87099434028E-01
1.89777753084E+06	-1.68895821443E+01	1.66862257189E+02	2.56439149642E+01	1.46501458103E+02	-3.77240008161E+01	-4.33020328608E+00	-5.99922585313E+00	-6.78465166604E-01
1.91996888543E+06	-1.94308776332E+01	-1.70827032002E+02	2.56450254190E+01	1.46158063972E+02	-3.13220605909E+01	-1.62914840531E+02	-5.47456102919E+00	-1.19941030062E+00
1.94216024003E+06	-1.83905082923E+01	1.67022039383E+02	2.55985926441E+01	1.45716009726E+02	-4.15091374138E+01	-1.73923254336E+02	-5.69623925959E+00	-8.38423144496E-01
1.96435159462E+06	-1.43196449528E+01	-1.71449095776E+02	2.55796218371E+01	1.45300784399E+02	-7.79928209242E+01	-1.04309687557E+01	-5.85501377679E+00	-1.13173503073E+00
1.98654294922E+06	-1.32109705688E+01	1.79778484547E+02	2.55469893850E+01	1.44934185928E+02	-4.58439121865E+01	-1.73769518981E+02	-5.74496499460E+00	-1.00010495447E+00
2.00873430381E+06	-1.06601523922E+01	-1.71552176476E+02	2.55077522980E+01	1.44288805999E+02	-5.11678291670E+01	-1.68470034228E+02	-5.78116678779E+00	-8.59952025908E-01
2.03092565841E+06	-1.99108954556E+01	-1.76209796341E+02	2.55426360074E+01	1.44171235036E+02	-4.86137794269E+01	3.23627545564E+01	-5.85484189749E+00	-1.48229616298E+00
2.05311701300E+06	-1.78212342923E+01	1.65512304448E+02	2.55243862413E+01	1.43913286582E+02	-4.16477989912E+01	7.23391040268E+01	-5.90024803791E+00	-1.61990530587E+00
2.07530836760E+06	-1.48891673673E+01	-1.64987129357E+02	2.54879130867E+01	1.43143724528E+02	-2.92623391343E+01	-1.69588782162E+02	-5.40084131471E+00	-9.77416338790E-01
2.09749972219E+06	-1.52403732281E+01	-1.29913246248E+02	2.55158853800E+01	1.42758658210E+02	-3.93270857596E+01	-1.24197750440E+02	-5.71095145214E+00	-2.24472574879E-01
2.11969107679E+06	-1.45227662786E+01	1.72779691372E+02	2.54181573885E+01	1.42687587012E+02	-5.65088476171E+01	1.34783112395E+02	-5.80091605459E+00	-1.25067575065E+00
2.14188243138E+06	-1.56680056239E+01	-1.75449675526E+02	2.54003773470E+01	1.42187483353E+02	-4.71760692547E+01	-8.01732283104E+01	-5.82867715280E+00	-5.52565315639E-01
2.16407378598E+06	-1.72118234855E+01	-1.58494048639E+02	2.54225444881E+01	1.41871754550E+02	-4.87888632055E+01	3.13787229519E+01	-5.90274216139E+00	-1.10906906983E+00
2.18626514057E+06	-3.32666828573E+01	3.35571276928E+01	2.54250247128E+01	1.41757836057E+02	-5.13561010796E+01	1.21908486883E+02	-5.78962110430E+00	-1.37491943127E+00
2.20845649517E+06	-1.62997648698E+01	1.35161100259E+02	2.53509825932E+01	1.41443434371E+02	-4.13699007497E+01	-1.55566284639E+02	-5.75054440349E+00	-1.32500817266E+00
2.23064784976E+06	-1.91894924230E+01	-1.42575463122E+02	2.53754921144E+01	1.40730317830E+02	-5.16108750866E+01	8.41707265960E+01	-5.88002335996E+00	-1.18547198727E+00
2.25283920436E+06	-2.29589085528E+01	-1.61579979304E+02	2.53406874722E+01	1.40487095217E+02	-4.26043505405E+01	1.06287198430E+01	-5.95264303427E+00	-1.19376759387E+00
2.27503055895E+06	-1.99684793823E+01	-1.75228120746E+02	2.53094616385E+01	1.40190316678E+02	-5.03353046936E+01	2.93485801610E+01	-5.85443103953E+00	-1.31276607289E+00
2.29722191355E+06	-1.64468529622E+01	-1.45702923417E+02	2.52896047829E+01	1.39582252318E+02	-4.85861743747E+01	7.31158369419E+01	-5.85362484196E+00	-1.54111193024E+00
2.31941326814E+06	-1.37387261204E+01	-1.77962979986E+02	2.52354561772E+01	1.39323030643E+02	-4.75249611252E+01	1.49014401489E+02	-5.78650574230E+00	-1.53703268064E+00
2.34160462274E+06	-1.92510270527E+01	-7.26195162843E+01	2.53131356687E+01	1.38745519523E+02	-4.25292889464E+01	6.84782946431E+01	-5.92464895326E+00	-1.81018239031E+00
2.36379597733E+06	-2.02795515874E+01	1.70448317477E+02	2.52165337728E+01	1.38800680596E+02	-3.75379090909E+01	-6.18570319895E+01	-5.90727413711E+00	-9.16521680136E-02
2.38598733193E+06	-1.75780376110E+01	-1.55328946222E+02	2.52097222157E+01	1.38164427601E+02	-4.04669974351E+01	1.55620507354E+02	-5.75491818142E+00	-1.85177076812E+00
2.40817868652E+06	-1.91008669347E+01	-1.79238037612E+02	2.51741137466E+01	1.37941634994E+02	-4.23727450335E+01	2.20220942393E+00	-5.98689773520E+00	-1.36741639515E+00
2.43037004112E+06	-1.63118872988E+01	-1.52596774240E+02	2.51573542265E+01	1.37444859987E+02	-5.08094157887E+01	3.60356619025E+01	-5.87927200678E+00	-1.80784345145E+00
2.45256139571E+06	-1.48855235217E+01	1.67352616326E+02	2.50899511523E+01	1.37377667740E+02	-4.66171189371E+01	8.48257093058E+01	-5.84570452793E+00	-1.66367260783E+00
2.47475275031E+06	-1.22476931118E+01	-1.57907647882E+02	2.50842412176E+01	1.36457720224E+02	-4.27523347322E+01	-2.41528757919E+01	-5.93248702196E+00	-9.11616277499E-01
2.49694410490E+06	-1.74599674020E+01	-1.47725001799E+02	2.51013019942E+01	1.36461062578E+02	-5.75722106071E+01	-1.57924254361E+02	-5.80861112522E+00	-1.25586823477E+00
2.51913545950E+06	-1.59505428523E+01	-1.72891681624E+02	2.50568251899E+01	1.36105825318E+02	-3.91847008263E+01	-1.28051826984E+02	-5.69384709960E+00	-8.29388865859E-01
2.54132681409E+06	-1.55894338059E+01	-1.58198272015E+02	2.50575728965E+01	1.35681513404E+02	-3.55282672468E+01	1.75406671493E+02	-5.60580825225E+00	-1.91530860836E+00
2.56351816869E+06	-1.73209723007E+01	1.68644372602E+02	2.49994584558E+01	1.35462621698E+02	-5.16481742801E+01	3.49370727366E+01	-5.88526621807E+00	-1.37951888354E+00
2.58570952328E+06	-1.55852933575E+01	1.77135375154E+02	2.49766258691E+01	1.35192402289E+02	-5.14723976740E+01	1.05898831459E+02	-5.82475572016E+00	-1.63422721674E+00
2.60790087788E+06	-1.42656226959E+01	1.79942823391E+02	2.49549688245E+01	1.34634942204E+02	-4.67605840468E+01	1.20675613698E+02	-5.78872702054E+00	-1.59695502488E+00
2.63009223247E+06	-1.17516096347E+01	1.75754033440E+02	2.49100613766E+01	1.34322656253E+02	-4.63040624540E+01	1.56241244354E+01	-5.90236333373E+00	-8.89062928243E-01
2.65228358707E+06	-9.72686014339E+00	-1.73880141435E+02	2.48616403240E+01	1.33806912809E+02	-4.43484121464E+01	-3.48305337774E+00	-5.95906138589E+00	-1.41638130993E+00
2.67447494166E+06	-1.81081777490E+01	-1.55782251951E+02	2.49256466780E+01	1.33678693175E+02	-5.25270035080E+01	-1.31763346620E+02	-5.79221958145E+00	-1.31314305748E+00
2.69666629626E+06	-1.86323273297E+01	-1.54624991269E+02	2.48972057647E+01	1.33344049055E+02	-3.90256846788E+01	-9.35395029044E+01	-5.80055128270E+00	-4.41250260115E-01
2.71885765085E+06	-1.63022914698E+01	-1.50654986869E+02	2.48640784577E+01	1.32836402964E+02	-4.28344756746E+01	1.54318356197E+02	-5.76544115248E+00	-1.93015953626E+00
2.74104900545E+06	-2.03612698945E+01	-1.37115147120E+02	2.48637741012E+01	1.32632988968E+02	-4.03929262482E+01	1.13597751088E+02	-5.79173330442E+00	-2.42281552177E+00
2.76324036004E+06	-1.41862453876E+01	-1.57901901658E+02	2.48243233525E+01	1.32169005231E+02	-3.95274543859E+01	-8.45653485676E+01	-5.80622728278E+00	-7.76082114687E-03
2.78543171463E+06	-2.08181958758E+01	-1.14421380869E+02	2.48456995767E+01	1.31883909340E+02	-4.21074715391E+01	5.05330963124E+01	-5.96667605131E+00	-2.01721073014E+00
2.80762306923E+06	-3.04003116078E+01	-1.25850017707E+02	2.48064340381E+01	1.31740538319E+02	-4.50760325757E+01	-4.35685007747E+01	-5.89347293758E+00	-7.13436836354E-01
2.82981442382E+06	-1.75894866748E+01	1.71667124343E+02	2.47396487442E+01	1.31336169728E+02	-4.07601038937E+01	8.11799706174E+01	-5.88447025215E+00	-1.91797339706E+00
2.85200577842E+06	-1.71135551604E+01	1.78044596285E+02	2.47001914944E+01	1.31072957167E+02	-3.58951472481E+01	-1.29118140272E+01	-6.00009127061E+00	-7.36656721453E-01
2.87419713301E+06	-1.80664308131E+01	-1.48741643633E+02	2.47336917778E+01	1.30656096668E+02	-5.06839465350E+01	1.26416566780E+02	-5.80965139092E+00	-1.62052003814E+00
