# Hz S DB R 50
! CMT, M5065, 19127446, 24.2.4/2
! Date: 11/8/2024 4:18:55 PM
! Data: Format (Calibration Info)
! Freq	S11:dB/Ang(F2)	S21:dB/Ang(F2)	S12:dB/Ang(F2)	S22:dB/Ang(F2)
3.00000000000E+05	-1.64265650307E+01	1.64751712098E+02	2.51567688721E+01	-1.74459245353E+02	-4.88535311199E+01	1.60164913391E+02	-5.81916963743E+00	-2.15268727912E-01
3.22191354595E+05	-1.77756970697E+01	1.65096300462E+02	2.51773038837E+01	-1.75566946706E+02	-4.02055764368E+01	1.03336102621E+02	-5.78144174101E+00	-1.19037925958E+00
3.44382709190E+05	-1.95506420112E+01	1.79245973581E+02	2.52084875288E+01	-1.76677196123E+02	-5.44862050661E+01	-4.72106713217E+01	-5.81949680318E+00	-1.15728417387E-01
3.66574063785E+05	-2.08194265787E+01	-1.43111389012E+02	2.51994622425E+01	-1.77669534186E+02	-4.29735038399E+01	-3.07990788550E+00	-5.89931038111E+00	-5.80757140864E-01
3.88765418380E+05	-1.62611097809E+01	1.62855582709E+02	2.51970891189E+01	-1.78618355326E+02	-4.38762990850E+01	-1.13752426244E+02	-5.71974315915E+00	5.58131538910E-01
4.10956772975E+05	-1.64381832467E+01	-1.66469266119E+02	2.52069656491E+01	-1.79576065570E+02	-4.44453421194E+01	1.10611783800E+02	-5.74209324457E+00	-1.00734739240E+00
4.33148127570E+05	-1.75699778384E+01	-1.41099004770E+02	2.51925567101E+01	1.79472125134E+02	-4.81428629197E+01	-1.36988640627E+02	-5.73851391461E+00	-9.14314739411E-02
4.55339482165E+05	-1.97520563140E+01	-1.38584629757E+02	2.52205494455E+01	1.78838931055E+02	-4.66418229831E+01	-2.56141328673E+01	-5.86743413927E+00	-2.59383341989E-01
4.77530836760E+05	-1.45521273874E+01	-1.72937688470E+02	2.51873173777E+01	1.78189342856E+02	-4.91991908726E+01	-1.05570866919E+02	-5.78937614651E+00	6.13918724027E-02
4.99722191355E+05	-2.19917926636E+01	-1.66822369057E+02	2.52183875001E+01	1.77576200445E+02	-4.34446016841E+01	-1.33753197991E+02	-5.76773978706E+00	7.19342897548E-02
5.21913545950E+05	-1.56651066159E+01	1.70188823494E+02	2.51812828523E+01	1.76921141936E+02	-5.46263601130E+01	1.09044320391E+02	-5.83243450073E+00	-5.90327716711E-01
5.44104900545E+05	-1.81691675905E+01	-1.69806397521E+02	2.52005477650E+01	1.76187852339E+02	-4.47093357568E+01	1.15427942355E+02	-5.81864839396E+00	-9.72510610631E-01
5.66296255139E+05	-1.61040703901E+01	1.76554204912E+02	2.51581957909E+01	1.75623840582E+02	-5.13048652930E+01	1.19605441140E+02	-5.81766251750E+00	-8.52925193820E-01
5.88487609734E+05	-2.04800072674E+01	-1.57800245338E+02	2.51707479461E+01	1.74941147340E+02	-5.09698881525E+01	1.54789483603E+02	-5.77533065667E+00	-6.30768669302E-01
6.10678964329E+05	-1.99642157686E+01	-1.62198431783E+02	2.51604624789E+01	1.74530438891E+02	-3.93173869926E+01	1.42930886634E+02	-5.74254244306E+00	-5.06891560319E-01
6.32870318924E+05	-1.95232748024E+01	1.76593309108E+02	2.51566574196E+01	1.73895787765E+02	-4.03922623192E+01	-4.28887579787E+01	-5.92062563359E+00	7.72803068736E-02
6.55061673519E+05	-2.25226347846E+01	1.45774694164E+02	2.51516267470E+01	1.73504369183E+02	-4.11320389138E+01	1.72366116458E+02	-5.71221104502E+00	-3.93998596490E-01
6.77253028114E+05	-1.46517300478E+01	-1.78600210992E+02	2.51354181465E+01	1.72757742022E+02	-4.95507060182E+01	-2.79515372309E+01	-5.86878634445E+00	-6.52188102753E-01
6.99444382709E+05	-1.94109853423E+01	-1.78354242767E+02	2.51402796098E+01	1.72355863469E+02	-4.19742556762E+01	1.70502693303E+01	-5.93724857124E+00	-8.26018271460E-01
7.21635737304E+05	-1.76705974567E+01	-1.58109662066E+02	2.51299858532E+01	1.71742539798E+02	-5.25756683371E+01	-1.32635983852E+02	-5.80106950894E+00	-2.04954903079E-01
7.43827091899E+05	-2.24142561325E+01	1.68059774072E+02	2.51503026325E+01	1.71316200824E+02	-4.97066725756E+01	6.82157990399E+01	-5.83213807868E+00	-6.48489843687E-01
7.66018446494E+05	-2.02845983768E+01	-1.55078130593E+02	2.51276112021E+01	1.70507740308E+02	-4.03095808119E+01	-1.51614830979E+02	-5.76576429417E+00	-4.72350547579E-01
7.88209801089E+05	-1.90064012186E+01	-1.73746569852E+02	2.51155693356E+01	1.70177847177E+02	-3.87567345469E+01	-3.70071682757E+01	-5.93410026563E+00	-6.71643787975E-02
8.10401155684E+05	-1.28588293567E+01	1.76342680564E+02	2.50577692070E+01	1.69703821216E+02	-4.52666385193E+01	8.73458996788E+01	-5.83983749278E+00	-1.07266517532E+00
8.32592510279E+05	-1.24242967210E+01	-1.66106553376E+02	2.50709043474E+01	1.69228786096E+02	-4.45679724847E+01	-2.33117435987E+01	-5.87140532561E+00	-3.26385509626E-01
8.54783864874E+05	-2.22362546694E+01	-1.48824788634E+02	2.50810785344E+01	1.68863700893E+02	-4.75924492184E+01	2.16582729583E+01	-5.88248769493E+00	-7.41544096924E-01
8.76975219469E+05	-1.76818027874E+01	-1.67862813656E+02	2.50671305174E+01	1.68362533336E+02	-5.35188010756E+01	-3.60542661711E+01	-5.84976163782E+00	-5.32485933767E-01
8.99166574064E+05	-1.81778770413E+01	1.59606226526E+02	2.50751691093E+01	1.68004570105E+02	-5.12058020165E+01	1.62764287353E+02	-5.83286613288E+00	-6.11571200503E-01
9.21357928659E+05	-1.67556216247E+01	-1.74760801930E+02	2.50204141954E+01	1.67341640762E+02	-4.17189167627E+01	-2.55836768577E+01	-5.92584665447E+00	-4.96912892421E-01
9.43549283254E+05	-1.61109712539E+01	-1.44710539346E+02	2.50654374040E+01	1.66864189726E+02	-4.40985465793E+01	-1.13280325520E+02	-5.78607948236E+00	-1.47532879399E-01
9.65740637849E+05	-2.03488908893E+01	-1.70714031116E+02	2.50526890202E+01	1.66538603312E+02	-4.33963983849E+01	1.04020557752E+02	-5.80628951398E+00	-1.32901831037E+00
9.87931992444E+05	-1.91112660612E+01	-1.36081738987E+02	2.50443258686E+01	1.65963042125E+02	-4.56779089306E+01	1.69848007779E+02	-5.76095321754E+00	-8.74549141536E-01
1.01012334704E+06	-1.95410395557E+01	1.56281828245E+02	2.50260214217E+01	1.65821401523E+02	-4.93483178977E+01	1.95121035265E+00	-5.90021524404E+00	-6.59612207144E-01
1.03231470163E+06	-1.25758284744E+01	1.63210341023E+02	2.49677540264E+01	1.65504661954E+02	-3.88945063002E+01	1.39808115781E+02	-5.70699790411E+00	-1.24474669048E+00
1.05450605623E+06	-1.50982491749E+01	1.76157702747E+02	2.49583692147E+01	1.64807143755E+02	-4.31346721996E+01	-1.47071295652E+02	-5.74268825124E+00	-4.14442365563E-01
1.07669741082E+06	-1.57525382579E+01	1.77339889511E+02	2.51598999796E+01	1.64796724949E+02	-4.89303837553E+01	-6.68310815696E+01	-5.87312343343E+00	-3.90263818354E-01
1.09888876542E+06	-1.44184009241E+01	1.68261708351E+02	2.49584568338E+01	1.64145636364E+02	-3.63496949198E+01	2.46078208113E+01	-5.97968440605E+00	-9.98886691759E-01
1.12108012001E+06	-1.98264318847E+01	-1.76339008655E+02	2.49660900919E+01	1.63617790192E+02	-4.25143505974E+01	-1.34774927655E+02	-5.78269809961E+00	2.21846995639E-02
1.14327147461E+06	-1.08554079079E+01	1.45230607975E+02	2.49449354654E+01	1.63566842901E+02	-4.21166184417E+01	1.40781357537E+02	-5.76128348881E+00	-1.05043006466E+00
1.16546282920E+06	-1.89087273563E+01	1.78746280223E+02	2.49637768415E+01	1.62838132444E+02	-4.58791506555E+01	-9.63005909421E+01	-5.83854290829E+00	-1.81615733758E-01
1.18765418380E+06	-1.80406573646E+01	-1.68093224143E+02	2.49251449677E+01	1.62298288308E+02	-5.52255811949E+01	1.12890880071E+02	-5.81408873615E+00	-7.97365661312E-01
1.20984553839E+06	-1.79797560713E+01	1.79308866130E+02	2.49127035772E+01	1.62072545042E+02	-4.93482695740E+01	-5.94263423221E+01	-5.86430299900E+00	-6.08401462717E-01
1.23203689299E+06	-2.00780799765E+01	-1.61111577340E+02	2.48994660059E+01	1.61526665683E+02	-5.20982712125E+01	1.62809140538E+02	-5.81264322641E+00	-5.98959339422E-01
1.25422824758E+06	-1.43965539505E+01	-1.61519524894E+02	2.48755373050E+01	1.61173871603E+02	-5.08298809384E+01	1.22922783605E+02	-5.82866806950E+00	-1.02442785772E+00
1.27641960218E+06	-1.88948161558E+01	-1.48163971544E+02	2.49074736044E+01	1.60772954156E+02	-4.62349657792E+01	-7.67005715820E+01	-5.84985546355E+00	-3.47886715960E-01
1.29861095677E+06	-1.63676201562E+01	-1.71931291265E+02	2.48821480768E+01	1.60326560936E+02	-4.21088400858E+01	-1.55257287240E+02	-5.72017475401E+00	-3.59653093241E-01
1.32080231137E+06	-1.72822431315E+01	-1.46519084799E+02	2.48656231392E+01	1.59854286302E+02	-6.26006188085E+01	1.15103967968E+02	-5.79469582427E+00	-9.79714095651E-01
1.34299366596E+06	-1.78710898915E+01	-1.69049159594E+02	2.48387349639E+01	1.59651226272E+02	-4.13056830828E+01	9.42772489434E+01	-5.80278495026E+00	-1.69837781408E+00
1.36518502056E+06	-1.49434836064E+01	-1.59709661611E+02	2.48144374656E+01	1.59061747262E+02	-5.20907479682E+01	-7.00333586489E+01	-5.86235921236E+00	-6.42620594541E-01
1.38737637515E+06	-1.95596411192E+01	1.75581654036E+02	2.48330635266E+01	1.58893866790E+02	-4.55519413512E+01	7.69512046500E+01	-5.85499866527E+00	-1.22645308627E+00
1.40956772975E+06	-1.77534866522E+01	-1.64196868760E+02	2.48287914197E+01	1.58478145264E+02	-2.97591584785E+01	-3.84604112895E+01	-6.08460917355E+00	4.39555720726E-01
1.43175908434E+06	-2.04086371617E+01	1.73068810736E+02	2.48116163274E+01	1.57987804451E+02	-5.19118128185E+01	1.18722703902E+02	-5.81599966912E+00	-8.12316062557E-01
1.45395043894E+06	-1.71634207951E+01	-1.22758648041E+02	2.48208525273E+01	1.57366874685E+02	-6.40831636179E+01	-1.43951136762E+02	-5.84411546460E+00	-6.59535628703E-01
1.47614179353E+06	-1.21648919126E+01	1.53499814585E+02	2.47344116555E+01	1.57485615287E+02	-6.11650555955E+01	1.48931060991E+02	-5.85665309893E+00	-8.55522047966E-01
1.49833314813E+06	-1.85646567915E+01	1.65937819707E+02	2.47530636350E+01	1.56868594278E+02	-4.56585334070E+01	-1.08061727098E+02	-5.84753213579E+00	-4.49601234961E-01
1.52052450272E+06	-1.90440935146E+01	-1.69533699514E+02	2.47730650332E+01	1.56534837390E+02	-4.37586964762E+01	-4.10888009048E+01	-5.88550089270E+00	-2.53484488644E-01
1.54271585732E+06	-1.77862765107E+01	1.42874222190E+02	2.47358703626E+01	1.56427223924E+02	-3.99831658930E+01	1.54266663393E+02	-5.75696898897E+00	-1.32174919414E+00
1.56490721191E+06	-2.24728687296E+01	1.67464404259E+02	2.47404329429E+01	1.55965875612E+02	-4.80072785871E+01	-5.36872142427E+01	-5.83100862450E+00	-6.87774674834E-01
1.58709856651E+06	-1.60821817582E+01	-1.76964337156E+02	2.47027064330E+01	1.55383559795E+02	-5.25364883352E+01	-4.47357017156E+01	-5.85097100068E+00	-8.42571751190E-01
1.60928992110E+06	-1.85356062107E+01	-1.69048789082E+02	2.46945641456E+01	1.55001681110E+02	-4.80450469996E+01	1.69666506987E+01	-5.89410439007E+00	-9.06175795199E-01
1.63148127570E+06	-1.76234163668E+01	-1.68352029759E+02	2.46992618214E+01	1.54632408537E+02	-4.04708241814E+01	7.47504109424E+01	-5.87700617134E+00	-1.63077282859E+00
1.65367263029E+06	-1.55970462078E+01	1.69486680453E+02	2.46548579330E+01	1.54328589262E+02	-4.69439745235E+01	-3.46897453885E+01	-5.88732357682E+00	-5.60795314754E-01
1.67586398489E+06	-1.65004399648E+01	-1.55717173499E+02	2.46547523225E+01	1.53800689688E+02	-4.08887852525E+01	-1.64971365051E+02	-5.74269966194E+00	-7.92943973082E-01
1.69805533948E+06	-1.93446981126E+01	-1.61037929604E+02	2.46514385056E+01	1.53590106618E+02	-3.71620110494E+01	-1.65039712505E+02	-5.71159280910E+00	-7.46690839877E-01
1.72024669408E+06	-1.65494080558E+01	1.74950355581E+02	2.46057713150E+01	1.53297917802E+02	-3.92741404187E+01	-1.09627410662E+02	-5.80972845364E+00	5.11051543014E-02
1.74243804867E+06	-1.50293171090E+01	-1.63862696182E+02	2.46315058137E+01	1.52624813868E+02	-5.19558732752E+01	1.43312524754E+02	-5.77738567664E+00	-1.22173391695E+00
1.76462940327E+06	-1.29813999013E+01	1.78628273185E+02	2.45693747404E+01	1.52445521126E+02	-5.09640848629E+01	8.85128242130E+01	-5.83713824030E+00	-1.19581030596E+00
1.78682075786E+06	-1.79916537603E+01	1.63595335386E+02	2.45720255749E+01	1.52229821961E+02	-3.95778613234E+01	-1.30954531318E+02	-5.74847206486E+00	-2.69902776862E-01
1.80901211246E+06	-2.23264915343E+01	-1.65822429341E+02	2.46081182873E+01	1.51890620257E+02	-5.56284371239E+01	3.91608574332E+00	-5.88192196461E+00	-8.86355862354E-01
1.83120346705E+06	-1.60269792338E+01	-1.47197299209E+02	2.45848271464E+01	1.51232477559E+02	-4.36608805286E+01	1.66193555618E+02	-5.74130610332E+00	-9.77730727481E-01
1.85339482165E+06	-1.75687489888E+01	1.75472679028E+02	2.45274654177E+01	1.51056489641E+02	-4.05128704586E+01	-8.73236992309E+01	-5.87530482092E+00	-1.42081633980E-01
1.87558617624E+06	-2.41858623193E+01	-1.59801570564E+02	2.45702408185E+01	1.50765640474E+02	-4.34854135435E+01	-1.73784004032E+02	-5.77238053580E+00	-1.17636353917E+00
1.89777753084E+06	-1.72587208071E+01	-1.38651270806E+02	2.45306267198E+01	1.50312846779E+02	-4.40322757163E+01	-2.35981676705E+01	-5.90399484643E+00	-7.63310412307E-01
1.91996888543E+06	-1.58299970426E+01	1.43430808732E+02	2.44876249458E+01	1.50209136994E+02	-5.06885980628E+01	-7.95013343088E+00	-5.87075786635E+00	-8.80437871967E-01
1.94216024003E+06	-1.12153484770E+01	-1.77606940615E+02	2.44476852219E+01	1.49649105526E+02	-4.55973102226E+01	-1.60370256911E+02	-5.75857659863E+00	-8.56749335009E-01
1.96435159462E+06	-1.95050691648E+01	-1.56029134014E+02	2.44864568256E+01	1.49148454697E+02	-4.27125305074E+01	-1.07953089541E+02	-5.81877144192E+00	-3.85875418239E-01
1.98654294922E+06	-1.63045937450E+01	1.73784775415E+02	2.44555404607E+01	1.48868617925E+02	-4.14492583322E+01	5.92705454464E+01	-5.89859086720E+00	-1.71155323510E+00
2.00873430381E+06	-1.81388305268E+01	-1.73947905407E+02	2.44691604418E+01	1.48606697471E+02	-5.40169968008E+01	-2.87666348114E+01	-5.82763788929E+00	-7.52371403217E-01
2.03092565841E+06	-1.58396421845E+01	-1.54234506588E+02	2.44406583914E+01	1.48113527382E+02	-4.07926018032E+01	-1.78591526823E+02	-5.68116674212E+00	-8.31479710762E-01
2.05311701300E+06	-1.64639415772E+01	-1.68559553019E+02	2.44141549731E+01	1.47744080400E+02	-5.58598265821E+01	4.16170998167E+01	-5.84166212413E+00	-1.27861436285E+00
2.07530836760E+06	-1.30878427795E+01	-1.66969982318E+02	2.43941606219E+01	1.47371172724E+02	-5.03000346718E+01	1.04498336017E+01	-5.85971378204E+00	-1.12006068413E+00
2.09749972219E+06	-2.00998814138E+01	1.56487524354E+02	2.43844369023E+01	1.47429848919E+02	-5.15251515144E+01	5.93144215404E+01	-5.87437209572E+00	-1.13489095232E+00
2.11969107679E+06	-1.84358110222E+01	-1.70515890404E+02	2.43669478398E+01	1.46860099010E+02	-4.19512208799E+01	-3.55275361048E+01	-5.91952940760E+00	-6.05993780034E-01
2.14188243138E+06	-1.58934916250E+01	1.72880145782E+02	2.43180866405E+01	1.46604887434E+02	-4.48813264886E+01	-1.38485263416E+02	-5.74245899652E+00	-8.45629751380E-01
2.16407378598E+06	-1.87454346675E+01	-1.70446758468E+02	2.43438123284E+01	1.46083274460E+02	-4.64155369724E+01	8.94572728233E+01	-5.81211484028E+00	-1.46621044487E+00
2.18626514057E+06	-1.88869845370E+01	1.77121186474E+02	2.43322306947E+01	1.45890515091E+02	-2.94726927227E+01	-5.35808705166E+01	-5.99678718406E+00	1.03606012609E+00
2.20845649517E+06	-1.78195198045E+01	-1.77117131762E+02	2.43066768996E+01	1.45457799964E+02	-4.62613592340E+01	7.88984373856E+01	-5.83838158736E+00	-1.50634126428E+00
2.23064784976E+06	-1.09217804959E+01	-1.23103573286E+02	2.43255535247E+01	1.44689564544E+02	-5.58243767513E+01	-4.22989845642E+01	-5.81450718345E+00	-8.21878009495E-01
2.25283920436E+06	-1.76959584530E+01	8.71514977545E+01	2.42980950215E+01	1.45006024971E+02	-4.32472722643E+01	-2.35919129298E+00	-5.95443627948E+00	-9.68297222497E-01
2.27503055895E+06	-1.31321470980E+01	1.76295828461E+02	2.42191221995E+01	1.44392384801E+02	-4.08196890962E+01	5.60496752329E+01	-5.91642200039E+00	-1.74513739756E+00
2.29722191355E+06	-1.72600274393E+01	1.71973149473E+02	2.42485056591E+01	1.44279669933E+02	-5.56435949678E+01	-2.31965014261E+01	-5.84748347721E+00	-1.10484165359E+00
2.31941326814E+06	-1.68382301860E+01	-1.46424198862E+02	2.42596423073E+01	1.43615338396E+02	-5.01166007410E+01	1.12194887939E+02	-5.82591751307E+00	-1.43138185745E+00
2.34160462274E+06	-2.12058805637E+01	-1.69566026495E+02	2.42219510534E+01	1.43615826371E+02	-3.30627090478E+01	-8.84034849775E+01	-5.80579129831E+00	3.52317363062E-01
2.36379597733E+06	-1.46802135003E+01	-1.71703848259E+02	2.41823256319E+01	1.42988558412E+02	-4.63176628011E+01	-3.60533870825E+01	-5.86678922516E+00	-9.17936810109E-01
2.38598733193E+06	-1.15378358375E+01	-1.73457942692E+02	2.41383555514E+01	1.42569002990E+02	-4.22574985784E+01	-1.53338326292E+02	-5.72904213596E+00	-9.44284378393E-01
2.40817868652E+06	-1.86803929204E+01	-1.40472120962E+02	2.41882287573E+01	1.42409319482E+02	-4.39441928287E+01	-9.70431599991E+01	-5.81643315652E+00	-7.53100651727E-01
2.43037004112E+06	-1.59910649909E+01	-1.56260992250E+02	2.41769851568E+01	1.41950053968E+02	-4.95594990286E+01	1.33638888202E+02	-5.77920216450E+00	-2.08496892870E+00
2.45256139571E+06	-1.81752448890E+01	1.68908506764E+02	2.41230770430E+01	1.42018813917E+02	-5.17263409322E+01	1.22683754062E+02	-5.82719246187E+00	-1.58003301540E+00
2.47475275031E+06	-1.61591167813E+01	-1.40262541393E+02	2.41251020113E+01	1.41224494509E+02	-4.83823108189E+01	7.93122737804E+01	-5.81874806389E+00	-1.56130635036E+00
2.49694410490E+06	-1.65575520553E+01	1.74695867417E+02	2.40783877450E+01	1.41207687310E+02	-4.15015138145E+01	-4.99400870970E+01	-5.89482312386E+00	-9.84580685595E-01
2.51913545950E+06	-1.63269194823E+01	-1.77168989963E+02	2.40496257190E+01	1.40782822491E+02	-4.49100596513E+01	-6.36699767876E+01	-5.83095400008E+00	-8.30796315709E-01
2.54132681409E+06	-1.60273422404E+01	1.70741476887E+02	2.40477993123E+01	1.40632204164E+02	-5.71476125579E+01	-1.39634072181E+02	-5.80766533064E+00	-1.32010200615E+00
2.56351816869E+06	-2.27686998422E+01	9.26073941355E+01	2.40576213359E+01	1.40520884638E+02	-5.36526980567E+01	-1.40871026635E+02	-5.84434010105E+00	-1.20890594563E+00
2.58570952328E+06	-1.64214634496E+01	-1.79471238186E+02	2.40042815884E+01	1.39896374903E+02	-5.77431074560E+01	1.31570300732E+02	-5.80838896745E+00	-1.32388542521E+00
2.60790087788E+06	-1.83814053956E+01	1.77068309096E+02	2.39954305940E+01	1.39585699563E+02	-4.98056903442E+01	7.73532141983E+01	-5.87436422871E+00	-1.50758206149E+00
2.63009223247E+06	-1.96794189410E+01	1.75567616845E+02	2.39908715264E+01	1.39285921054E+02	-4.49983051429E+01	1.23770636873E+02	-5.81302278858E+00	-1.51634503831E+00
2.65228358707E+06	-1.76230240726E+01	-1.48150480337E+02	2.39888365802E+01	1.38703688486E+02	-4.17088036542E+01	4.95697514166E+01	-5.92175041792E+00	-1.99739384750E+00
2.67447494166E+06	-1.65592669541E+01	1.66342537165E+02	2.39552085954E+01	1.38644842747E+02	-4.70061312730E+01	1.13750354159E+02	-5.81616649471E+00	-1.87577033554E+00
2.69666629626E+06	-1.97194270373E+01	-1.56137468367E+02	2.39563903254E+01	1.38161332719E+02	-4.63010295635E+01	1.42736244327E+02	-5.75045451922E+00	-1.64320116329E+00
2.71885765085E+06	-2.38315178284E+01	-1.75635676801E+02	2.39407019273E+01	1.38080973224E+02	-4.53414413878E+01	8.39497038150E+01	-5.87168480814E+00	-2.02411170175E+00
2.74104900545E+06	-1.94652794299E+01	-1.72091571688E+02	2.39223135079E+01	1.37524598069E+02	-3.82822615486E+01	-2.81855891303E+01	-5.99190954628E+00	-7.66467525417E-01
2.76324036004E+06	-1.56469367691E+01	-1.68845574638E+02	2.38764201023E+01	1.37136780977E+02	-4.47553088842E+01	1.53878179364E+02	-5.76209918155E+00	-1.55921498564E+00
2.78543171463E+06	-1.54461657094E+01	-1.71933395073E+02	2.38531576757E+01	1.36719851218E+02	-4.73281438450E+01	1.17460332245E+02	-5.80289141719E+00	-1.80330125810E+00
2.80762306923E+06	-1.84610116593E+01	1.59502643022E+02	2.38362000803E+01	1.36737641090E+02	-5.31250697181E+01	-6.11098791999E+01	-5.85779013582E+00	-1.08830663173E+00
2.82981442382E+06	-1.36324151011E+01	-1.61205175001E+02	2.38289561827E+01	1.35974369380E+02	-5.02225429441E+01	-1.79541491609E+02	-5.78460674740E+00	-1.22976502732E+00
2.85200577842E+06	-1.54668195449E+01	-1.58896255474E+02	2.38349539754E+01	1.35800394252E+02	-4.68239403997E+01	-2.72705802003E+00	-5.88714560938E+00	-1.27671897685E+00
2.87419713301E+06	-1.04956529826E+01	-1.64916132478E+02	2.37505284125E+01	1.35317199180E+02	-5.74975135095E+01	1.30470828356E+02	-5.81210608182E+00	-1.61525080940E+00
