# Hz S DB R 50
! CMT, M5065, 19127446, 24.2.4/2
! Date: 11/8/2024 3:46:02 PM
! Data: Format (Calibration Info)
! Freq	S11:dB/Ang(F2)	S21:dB/Ang(F2)	S12:dB/Ang(F2)	S22:dB/Ang(F2)
3.00000000000E+05	-1.35174403837E+01	-1.78785483979E+02	4.82351133876E+00	-1.77576609938E+02	-4.21699494381E+01	-1.38891021439E+02	-5.84160110190E+00	-3.14353664838E-01
3.22191354595E+05	-2.03537982944E+01	1.31037607173E+02	4.87418199432E+00	-1.77540082938E+02	-4.88043449172E+01	-1.31702658162E+01	-5.83144453980E+00	-2.80008113913E-01
3.44382709190E+05	-1.41344679158E+01	-1.72798675274E+02	4.87920030532E+00	-1.78295058725E+02	-4.11422866189E+01	1.43808474839E+02	-5.82974949320E+00	-4.61171508518E-01
3.66574063785E+05	-1.59800159443E+01	1.79270406658E+02	4.90748557590E+00	-1.78609620799E+02	-4.46729854862E+01	3.81574931823E+01	-5.86812700015E+00	-2.89526580916E-01
3.88765418380E+05	-2.22954538819E+01	1.22069073519E+02	4.91321445635E+00	-1.78104085203E+02	-4.87322020388E+01	1.49545759549E+01	-5.83511697940E+00	-3.97233022836E-01
4.10956772975E+05	-3.43991843546E+01	1.70465407287E+02	4.91818107012E+00	-1.78967908369E+02	-4.71541207447E+01	-5.89730404627E+01	-5.85323875713E+00	-1.27377544901E-01
4.33148127570E+05	-1.37069756733E+01	-1.55143835756E+02	4.88649956266E+00	-1.79328584013E+02	-4.26484171918E+01	-8.29268934637E+01	-5.83562909420E+00	-2.44325371712E-01
4.55339482165E+05	-1.50765709866E+01	1.57196552814E+02	4.90128741817E+00	-1.79050413684E+02	-3.83524523876E+01	-1.43980655296E+02	-5.82792765979E+00	-1.59103273646E-01
4.77530836760E+05	-1.40486393174E+01	-1.67855213364E+02	4.90557809789E+00	1.79861577813E+02	-4.04469050806E+01	-5.09133686819E+00	-5.85975735782E+00	-2.32115153264E-01
4.99722191355E+05	-2.26571029004E+01	-1.48987145373E+02	4.94203173480E+00	-1.79856683154E+02	-4.76381989004E+01	-1.06394874480E+02	-5.82689943273E+00	-1.34458743270E-01
5.21913545950E+05	-1.29996092029E+01	-1.64286574532E+02	4.86746536987E+00	1.79994031836E+02	-4.14472997141E+01	1.30947395439E+02	-5.82391487889E+00	-3.80089490650E-01
5.44104900545E+05	-2.43968609072E+01	-1.55911654969E+02	4.91600776091E+00	1.79884424324E+02	-5.41059185204E+01	1.05995225366E+00	-5.86638704688E+00	-2.33933606971E-01
5.66296255139E+05	-1.65244446227E+01	1.66855145671E+02	4.86577468406E+00	1.79737109575E+02	-4.56577902493E+01	1.51092140071E+01	-5.84724063755E+00	-4.16951208807E-01
5.88487609734E+05	-1.42127751692E+01	1.66377158385E+02	4.85191025499E+00	1.79321691591E+02	-5.01999301757E+01	-2.18717251697E+01	-5.84465257864E+00	-4.50255985949E-01
6.10678964329E+05	-1.96913697212E+01	-5.96208194747E+01	4.95354915392E+00	1.79141992038E+02	-4.91237384390E+01	1.74464809683E+02	-5.84826546027E+00	4.07567040414E-03
6.32870318924E+05	-1.19051367344E+01	1.67674661928E+02	4.85791549662E+00	1.79209696025E+02	-4.07526774298E+01	1.02790442490E+02	-5.84450308596E+00	-2.46608686153E-01
6.55061673519E+05	-1.60123420129E+01	-1.73262945005E+02	4.89433090405E+00	1.79175535746E+02	-3.56044117772E+01	-1.39535355002E+02	-5.82722357900E+00	-1.15809839809E-01
6.77253028114E+05	-1.38531010521E+01	1.79429530656E+02	4.92576979946E+00	1.78966392368E+02	-4.35900012170E+01	-1.64127217053E+02	-5.83662754151E+00	-6.47761520982E-01
6.99444382709E+05	-1.93422897618E+01	1.61409255645E+02	4.92212427841E+00	1.79047109946E+02	-5.16236427478E+01	-6.03199130697E+01	-5.85351729041E+00	-4.57577190417E-01
7.21635737304E+05	-1.30511045862E+01	1.75222167385E+02	4.89124077356E+00	1.78851120177E+02	-4.48093525580E+01	-1.70187763313E+02	-5.85824869428E+00	-2.65716056821E-01
7.43827091899E+05	-1.82407408366E+01	-1.53347116329E+02	4.91553101293E+00	1.78286305593E+02	-3.99460844011E+01	8.47008841618E+01	-5.84515335163E+00	-4.82614583889E-01
7.66018446494E+05	-1.88536309040E+01	1.60070565868E+02	4.86558774575E+00	1.78592134428E+02	-4.39062010226E+01	1.54378312736E+02	-5.81582749920E+00	-3.85574889165E-01
7.88209801089E+05	-1.52391422124E+01	1.51467947164E+02	4.86761248552E+00	1.78408516450E+02	-4.65043410842E+01	-6.29102987492E+01	-5.84569593296E+00	-3.24046893293E-01
8.10401155684E+05	-2.63774569547E+01	1.68854072201E+02	4.91083519060E+00	1.78052869710E+02	-4.34157234308E+01	-1.02947267996E+02	-5.82989007484E+00	-4.35920808473E-01
8.32592510279E+05	-1.86321191386E+01	1.52855885544E+02	4.90937392149E+00	1.78107061118E+02	-4.09840587662E+01	9.57554443605E+01	-5.83976834960E+00	-4.59723845051E-01
8.54783864874E+05	-2.13117761351E+01	-1.73683053084E+02	4.88881984090E+00	1.77741929193E+02	-4.12226638352E+01	-6.34231895476E+01	-5.86362710046E+00	-4.34188429748E-01
8.76975219469E+05	-1.63201308850E+01	1.69816704836E+02	4.92517373157E+00	1.77996889056E+02	-4.23479937512E+01	1.05375628496E+02	-5.83076594688E+00	-7.36012742879E-01
8.99166574064E+05	-1.94995024281E+01	-1.39753942134E+02	4.95943808308E+00	1.77397616180E+02	-4.87762914941E+01	8.67851676079E+00	-5.83541366780E+00	-4.15722855654E-01
9.21357928659E+05	-2.12564862523E+01	1.56743139879E+02	4.92174189329E+00	1.77751162764E+02	-4.68035684312E+01	-7.86398647509E+01	-5.84585106594E+00	-4.31222292370E-01
9.43549283254E+05	-1.90928303080E+01	1.55069399387E+02	4.88708265370E+00	1.77424319310E+02	-3.95419958618E+01	-9.56605970191E+01	-5.82060837143E+00	-2.51446835796E-01
9.65740637849E+05	-1.64722666273E+01	1.48758274238E+02	4.83649535394E+00	1.77303910431E+02	-4.36825997731E+01	-6.26955330316E+01	-5.84342954146E+00	-4.68143330366E-01
9.87931992444E+05	-1.84787041713E+01	1.70493455731E+02	4.92243812347E+00	1.77640153496E+02	-3.93262772345E+01	-1.27528053133E+02	-5.82919605951E+00	-4.15199235993E-01
1.01012334704E+06	-1.86370276034E+01	1.79307160553E+02	4.89595460971E+00	1.76943552563E+02	-4.58733152912E+01	2.32001176104E+01	-5.86384947105E+00	-4.09099617985E-01
1.03231470163E+06	-1.78704595238E+01	1.52604382294E+02	4.89609385855E+00	1.76948499326E+02	-4.79353856808E+01	-1.22226941661E+02	-5.84133145933E+00	-6.55407548034E-01
1.05450605623E+06	-1.55994586176E+01	-1.49560374129E+02	4.88407688656E+00	1.76905269323E+02	-4.36137528825E+01	-3.65175993454E+01	-5.85031627505E+00	-5.95653300091E-01
1.07669741082E+06	-2.01622626587E+01	-1.63940114543E+02	4.93426535586E+00	1.76915236692E+02	-4.60393338524E+01	-8.87943533622E+01	-5.83846947972E+00	-5.23866229000E-01
1.09888876542E+06	-1.83057997512E+01	-1.76056530916E+02	4.89407702552E+00	1.76553309569E+02	-4.16182603487E+01	5.18392799382E+01	-5.83982888582E+00	-6.84170725655E-01
1.12108012001E+06	-2.11582219989E+01	-1.69361860840E+02	4.90813562841E+00	1.76286207105E+02	-4.66187617414E+01	-8.90557654639E+01	-5.86627686804E+00	-5.42658345891E-01
1.14327147461E+06	-2.15773054958E+01	-1.73664399033E+02	4.88515667376E+00	1.76629324023E+02	-4.58106539248E+01	-1.15912680111E+02	-5.84947258640E+00	-5.30097668424E-01
1.16546282920E+06	-1.42398133547E+01	1.71362387845E+02	4.87813954112E+00	1.76256630330E+02	-5.21295168621E+01	-6.32131273926E+01	-5.84712623214E+00	-4.51523965174E-01
1.18765418380E+06	-1.61189191425E+01	1.72346178849E+02	4.92065497313E+00	1.76277814509E+02	-5.42510824094E+01	8.55831612360E+01	-5.84235283583E+00	-5.61575745671E-01
1.20984553839E+06	-2.01520298984E+01	1.78099265821E+02	4.94323625418E+00	1.76235965562E+02	-4.27794976712E+01	-9.67905574541E+01	-5.86621366256E+00	-7.41705368100E-01
1.23203689299E+06	-1.61189745669E+01	1.50883984572E+02	4.87918988354E+00	1.75982819444E+02	-4.95062191321E+01	-7.96813076424E+01	-5.84587976422E+00	-3.55837857901E-01
1.25422824758E+06	-1.40015667247E+01	1.76337164480E+02	4.89333744505E+00	1.76085416786E+02	-5.71633909469E+01	4.64865770413E+01	-5.84498104476E+00	-7.17324960232E-01
1.27641960218E+06	-1.59898964860E+01	-1.70679503819E+02	4.91320263846E+00	1.75768185159E+02	-5.12601423645E+01	1.54232283851E+02	-5.85693828716E+00	-5.61895653530E-01
1.29861095677E+06	-1.55375070084E+01	1.77022411374E+02	4.87546786235E+00	1.75951434943E+02	-5.55789003876E+01	1.31671830564E+02	-5.86497071732E+00	-7.17896105247E-01
1.32080231137E+06	-1.53773062108E+01	1.68827534155E+02	4.89877533280E+00	1.75675686587E+02	-4.38508953744E+01	1.40070115623E+01	-5.86081663643E+00	-1.04522630797E+00
1.34299366596E+06	-1.86616807798E+01	-1.47483469519E+02	4.91219344582E+00	1.75275061800E+02	-4.69405088570E+01	-6.13987092611E+01	-5.86811528037E+00	-6.40976553307E-01
1.36518502056E+06	-1.67285387942E+01	1.37142731238E+02	4.88858553297E+00	1.75861435835E+02	-4.06885812729E+01	1.48132354878E+02	-5.81673822961E+00	-7.41533580943E-01
1.38737637515E+06	-1.87645250840E+01	1.71586731997E+02	4.91283591610E+00	1.75783931594E+02	-3.90394348863E+01	3.79077687263E+01	-5.85345376578E+00	-6.96267413624E-01
1.40956772975E+06	-1.70460782102E+01	-1.75320864725E+02	4.95835017401E+00	1.75114721169E+02	-4.32957701649E+01	1.10559570142E-01	-5.84748590819E+00	-7.10214775789E-01
1.43175908434E+06	-2.15409740031E+01	-1.73110677696E+02	4.96011642408E+00	1.75178060261E+02	-4.46841560306E+01	1.96647023143E+00	-5.84031375715E+00	-7.61668916170E-01
1.45395043894E+06	-1.53258686102E+01	1.74765397307E+02	4.90268892547E+00	1.75128684326E+02	-3.96853755786E+01	-1.54913441647E+02	-5.82001825105E+00	-6.61271595824E-01
1.47614179353E+06	-1.43486647608E+01	-1.50705178657E+02	4.91108519150E+00	1.74597560025E+02	-4.17905511154E+01	1.59954892572E+01	-5.84431022572E+00	-7.42081638672E-01
1.49833314813E+06	-1.63211599621E+01	1.52405180793E+02	4.90909705898E+00	1.75061647270E+02	-4.06993268482E+01	3.60918704431E+01	-5.84717278112E+00	-8.25319067716E-01
1.52052450272E+06	-1.70595012046E+01	1.63592420604E+02	4.91618595928E+00	1.74922452561E+02	-4.88798073839E+01	-9.43937937498E+01	-5.85144095602E+00	-7.32822666545E-01
1.54271585732E+06	-1.46958674067E+01	1.74951336605E+02	4.88732222505E+00	1.74769506893E+02	-5.06045449636E+01	1.22385824782E+02	-5.85217422987E+00	-7.47010055938E-01
1.56490721191E+06	-1.34119695257E+01	-1.69457104244E+02	4.87994881371E+00	1.74376377779E+02	-4.26052826072E+01	-1.03933393201E+01	-5.83397227707E+00	-7.77722207271E-01
1.58709856651E+06	-1.82537562633E+01	1.73319714526E+02	4.94713232187E+00	1.74672255794E+02	-4.65102228404E+01	1.48369011887E+02	-5.85265448912E+00	-7.18398168558E-01
1.60928992110E+06	-2.29931354319E+01	-1.31097811712E+02	4.92819642396E+00	1.74316237807E+02	-3.61121907955E+01	3.91182891060E+01	-5.85134035118E+00	-1.00965473271E+00
1.63148127570E+06	-1.65662495966E+01	-1.78514070524E+02	4.89573977848E+00	1.74588613947E+02	-5.74345539544E+01	-1.27499094035E+02	-5.83326505528E+00	-7.74018939141E-01
1.65367263029E+06	-1.69881250361E+01	-1.78441245974E+02	4.90224422439E+00	1.74214690948E+02	-5.60618599286E+01	-1.50919892258E+02	-5.84845802071E+00	-7.52044658230E-01
1.67586398489E+06	-1.56305859301E+01	-1.73762305577E+02	4.88849200498E+00	1.73948704100E+02	-5.78719255649E+01	-6.12906158712E+01	-5.85745245679E+00	-8.82051922287E-01
1.69805533948E+06	-1.63386664000E+01	-1.61660828282E+02	4.86606307348E+00	1.73828582541E+02	-5.27283743948E+01	-3.77116437927E+01	-5.85107342959E+00	-9.26726092993E-01
1.72024669408E+06	-1.91278200566E+01	-1.02124869446E+02	4.98161437554E+00	1.73926296060E+02	-4.61385018573E+01	8.29009064144E+01	-5.85307128352E+00	-9.95232149784E-01
1.74243804867E+06	-1.91954381990E+01	1.71802810481E+02	4.86983121426E+00	1.73647496427E+02	-3.36633148483E+01	-7.74613883050E+01	-5.87847381313E+00	-8.05595693199E-01
1.76462940327E+06	-1.51926913786E+01	1.64150115926E+02	4.88295813251E+00	1.73887888552E+02	-4.11051850410E+01	-9.44802949171E+01	-5.84525910378E+00	-7.78169593624E-01
1.78682075786E+06	-1.76205053642E+01	-1.72237052168E+02	4.92460340139E+00	1.73726304750E+02	-5.58187898195E+01	-1.74975266075E+02	-5.82032924892E+00	-9.41998264025E-01
1.80901211246E+06	-1.75776858019E+01	1.73975058405E+02	4.92013840068E+00	1.73111550002E+02	-4.76533844251E+01	-2.55373816231E+01	-5.84647020908E+00	-9.56000324140E-01
1.83120346705E+06	-1.78765441839E+01	1.70613767431E+02	4.88286325498E+00	1.73596193737E+02	-4.51809663702E+01	2.89193460523E+01	-5.85213350374E+00	-1.01020266905E+00
1.85339482165E+06	-1.69720096880E+01	1.78053484379E+02	4.92405331588E+00	1.73235414474E+02	-4.55762176280E+01	1.07282216501E+02	-5.82126936259E+00	-8.85912038870E-01
1.87558617624E+06	-3.12921019458E+01	-1.57563677944E+02	4.92683634975E+00	1.73244857933E+02	-5.61751747239E+01	4.93875867080E+01	-5.85327872243E+00	-1.04514472287E+00
1.89777753084E+06	-2.07401362652E+01	8.19433937845E+01	4.89999650909E+00	1.73445189564E+02	-4.40640921804E+01	-5.25915608615E+01	-5.83698964421E+00	-8.37624350051E-01
1.91996888543E+06	-1.85316697334E+01	-1.57686982884E+02	4.90698632604E+00	1.72992490403E+02	-3.70775990791E+01	1.61253718229E+02	-5.81898360064E+00	-8.67472007729E-01
1.94216024003E+06	-1.39918981928E+01	-1.70491780316E+02	4.88209569121E+00	1.72668881022E+02	-4.91438199888E+01	-4.49660360899E+00	-5.84579247237E+00	-9.75676373690E-01
1.96435159462E+06	-1.79105364258E+01	-1.43414580425E+02	4.92102123442E+00	1.72859081333E+02	-4.63855735006E+01	-4.72150858410E+01	-5.84471383496E+00	-8.51499384319E-01
1.98654294922E+06	-1.34973500346E+01	-1.79703467758E+02	4.88546656867E+00	1.72688639999E+02	-4.69090039796E+01	-6.29413307482E+00	-5.86328296882E+00	-9.68148362848E-01
2.00873430381E+06	-1.58531943746E+01	-1.62668918495E+02	4.95637708979E+00	1.72866048668E+02	-5.00653377184E+01	1.07005732797E+02	-5.83179117646E+00	-1.02706793234E+00
2.03092565841E+06	-1.56522443460E+01	-1.64176454665E+02	4.97607438106E+00	1.72483721133E+02	-6.81096743792E+01	3.33585192654E+01	-5.86008631989E+00	-1.12911558492E+00
2.05311701300E+06	-1.45597600099E+01	1.73141900250E+02	4.90927737696E+00	1.72288792064E+02	-3.60755833615E+01	-2.52090659366E+00	-5.84966712688E+00	-9.87001273468E-01
2.07530836760E+06	-1.80419123354E+01	-1.66365269905E+02	4.95738582421E+00	1.72369598306E+02	-4.26808125470E+01	1.46486604550E+02	-5.82979946366E+00	-9.95298172029E-01
2.09749972219E+06	-1.48834706897E+01	-1.78661833730E+02	4.91172743268E+00	1.72118551427E+02	-4.95743703287E+01	1.70648672079E+02	-5.84025006730E+00	-1.13141891258E+00
2.11969107679E+06	-1.48328001991E+01	-1.45409381572E+02	4.92004774741E+00	1.71911932351E+02	-4.15129564784E+01	1.75259675931E+02	-5.81802499016E+00	-1.03473916094E+00
2.14188243138E+06	-1.37832733637E+01	-1.79581846702E+02	4.87852554975E+00	1.72190516735E+02	-4.24078257323E+01	8.66218049320E+01	-5.84455586081E+00	-1.19615718290E+00
2.16407378598E+06	-1.74059046935E+01	-1.62027348518E+02	4.97361293647E+00	1.72196991675E+02	-5.21787708865E+01	-1.43950772084E+02	-5.84198559759E+00	-1.11998952648E+00
2.18626514057E+06	-1.05274677351E+01	-1.43802253827E+02	4.96851731641E+00	1.71327667003E+02	-3.98615343785E+01	1.66596978365E+02	-5.82528885918E+00	-1.16901961545E+00
2.20845649517E+06	-1.14166484418E+01	-1.50171561536E+02	4.94800861172E+00	1.71254305821E+02	-5.09727074655E+01	8.13811554410E+01	-5.84592320821E+00	-1.11576031801E+00
2.23064784976E+06	-1.63266243056E+01	-1.71686870370E+02	4.93008459159E+00	1.71809203020E+02	-3.52161958929E+01	1.23566477232E+00	-5.84841779356E+00	-1.12834117493E+00
2.25283920436E+06	-1.78042928183E+01	-1.52357542914E+02	4.97589603589E+00	1.71642260919E+02	-5.14312936078E+01	-1.31275604820E+02	-5.83262721012E+00	-1.11370376936E+00
2.27503055895E+06	-2.46638561908E+01	-1.07385698408E+02	4.96906058611E+00	1.71708420773E+02	-5.20081056354E+01	1.23918839542E+02	-5.83996116586E+00	-1.24424228191E+00
2.29722191355E+06	-1.87184227007E+01	-1.66296146571E+02	4.93716823062E+00	1.71423476681E+02	-6.24648957491E+01	1.51884796087E+02	-5.84545204951E+00	-1.18542877178E+00
2.31941326814E+06	-1.81549714553E+01	-1.59801720460E+02	4.91985241850E+00	1.71102862549E+02	-5.06872078077E+01	-2.74083448733E+01	-5.85212113297E+00	-1.19009429167E+00
2.34160462274E+06	-9.95784817371E+00	-1.52599604892E+02	4.93458441612E+00	1.70912395121E+02	-4.43863827949E+01	3.41387916938E+01	-5.86266141010E+00	-1.20447124437E+00
2.36379597733E+06	-1.48528209472E+01	1.66324718175E+02	4.87937732142E+00	1.71173666970E+02	-4.45871203154E+01	5.14013029576E+01	-5.82185188548E+00	-1.39514269316E+00
2.38598733193E+06	-1.75645840513E+01	-1.75851028562E+02	4.90217448485E+00	1.71115021466E+02	-3.38759177457E+01	-2.86590214098E+01	-5.84630131306E+00	-1.24014004525E+00
2.40817868652E+06	-1.88261527388E+01	-1.62288455826E+02	4.97461831501E+00	1.71232762851E+02	-4.58142551225E+01	-6.73364630571E+01	-5.84214231833E+00	-1.19710702485E+00
2.43037004112E+06	-2.22023321763E+01	-1.29058842621E+02	5.03071326507E+00	1.71036444432E+02	-4.53146328933E+01	-5.76228090597E+01	-5.86095713847E+00	-1.57025599897E+00
2.45256139571E+06	-1.60865053260E+01	1.78807087503E+02	4.90918332873E+00	1.70802041785E+02	-4.41459021797E+01	-1.29466317599E+01	-5.86799484524E+00	-1.19112471847E+00
2.47475275031E+06	-1.75517790252E+01	-1.56129886790E+02	4.96084186574E+00	1.70520895129E+02	-3.92070669821E+01	-3.69012957322E+01	-5.87322606927E+00	-1.16394136529E+00
2.49694410490E+06	-1.51740685308E+01	1.53178630194E+02	4.89154880359E+00	1.70503352272E+02	-4.09509441050E+01	-9.13901500496E+01	-5.85861839968E+00	-1.07287418275E+00
2.51913545950E+06	-7.14174948532E+00	1.14824030730E+02	4.77494160535E+00	1.71117765642E+02	-4.56043158120E+01	1.19930965554E+02	-5.84398947679E+00	-1.43172503063E+00
2.54132681409E+06	-1.56063224938E+01	-1.47636427529E+02	4.93770629394E+00	1.70313032365E+02	-6.20062768438E+01	-1.47569038622E+02	-5.81856903143E+00	-1.34524645323E+00
2.56351816869E+06	-2.17661617676E+01	1.52895644066E+02	4.96543263888E+00	1.70703527744E+02	-5.44773813780E+01	-1.44074148872E+02	-5.88098147411E+00	-1.26099484957E+00
2.58570952328E+06	-1.38272170217E+01	-1.79239369109E+02	4.93725642727E+00	1.69928940110E+02	-4.36111001499E+01	1.53503035961E+02	-5.83168272253E+00	-1.22630064308E+00
2.60790087788E+06	-1.62985871253E+01	1.76011151683E+02	4.90357667208E+00	1.70169973847E+02	-4.97530123773E+01	1.34270376772E+02	-5.84717732244E+00	-1.12311571273E+00
2.63009223247E+06	-1.53203064292E+01	-1.37122993068E+02	4.92828267330E+00	1.69916144718E+02	-4.81924095628E+01	-1.08215992066E+02	-5.84093640169E+00	-7.80276975880E-01
2.65228358707E+06	-1.70162153530E+01	-1.60658324535E+02	4.96439189043E+00	1.69646521859E+02	-4.61975471120E+01	-8.89817730658E+01	-5.83960610412E+00	-1.23822645500E+00
2.67447494166E+06	-1.17475151396E+01	-1.48477076181E+02	4.97885824649E+00	1.69469505352E+02	-4.01210695328E+01	-4.71512773650E+01	-5.85715132515E+00	-1.32342269794E+00
2.69666629626E+06	-1.91140843992E+01	-1.37463394594E+02	4.99211157788E+00	1.69729185432E+02	-3.67762872335E+01	4.81123059472E+01	-5.83947817310E+00	-1.56925138269E+00
2.71885765085E+06	-1.43576268831E+01	-1.68287966494E+02	4.93000659672E+00	1.69592580668E+02	-4.51681783713E+01	1.48244585531E+02	-5.83986243530E+00	-1.30973336051E+00
2.74104900545E+06	-1.75006866398E+01	-1.58232804339E+02	4.96839250033E+00	1.69514057353E+02	-4.13168068863E+01	1.05692385311E+02	-5.81486764613E+00	-1.33274105602E+00
2.76324036004E+06	-1.64042360777E+01	-1.52682938922E+02	5.01303362237E+00	1.69472684674E+02	-4.02777991215E+01	6.47922237705E+01	-5.83672673957E+00	-1.46656709124E+00
2.78543171463E+06	-1.56940255510E+01	-1.39596789836E+02	5.00131131924E+00	1.69218509985E+02	-4.33198938321E+01	1.27371842244E+01	-5.85905527616E+00	-1.32683155145E+00
2.80762306923E+06	-1.78212703971E+01	-1.79237393057E+02	4.90825917811E+00	1.69537462809E+02	-4.81082295414E+01	7.60827547796E+01	-5.83083025553E+00	-1.55311272537E+00
2.82981442382E+06	-2.28679556521E+01	-1.53241374679E+02	4.93263044713E+00	1.69144476084E+02	-4.74707314072E+01	1.78449089735E+02	-5.84933306355E+00	-1.36691124930E+00
2.85200577842E+06	-1.65921392558E+01	-1.49394222241E+02	4.96295537569E+00	1.68935478183E+02	-6.08462758304E+01	6.55827775091E+01	-5.81858228316E+00	-1.33666911697E+00
2.87419713301E+06	-1.63093190784E+01	-1.58516245678E+02	4.94098142237E+00	1.69012616647E+02	-5.33317702039E+01	1.70812703564E+02	-5.83258448748E+00	-1.50821802700E+00
