# Hz S DB R 50
! CMT, M5065, 19127446, 24.2.4/2
! Date: 11/8/2024 3:50:44 PM
! Data: Format (Calibration Info)
! Freq	S11:dB/Ang(F2)	S21:dB/Ang(F2)	S12:dB/Ang(F2)	S22:dB/Ang(F2)
3.00000000000E+05	-1.22624465426E+01	-1.67706426395E+02	5.94143127179E+00	-1.77822474457E+02	-5.97930127916E+01	1.26432458666E+02	-5.82703035105E+00	-2.69761653965E-01
3.22191354595E+05	-2.01904938721E+01	1.60132409869E+02	5.95991977058E+00	-1.78201721700E+02	-4.75760089471E+01	-1.68070459190E+02	-5.82454686042E+00	-4.42794280918E-01
3.44382709190E+05	-1.67474030807E+01	1.77949627850E+02	5.93919253052E+00	-1.78304027873E+02	-3.27689036696E+01	-1.02323249314E+02	-5.83408042278E+00	-2.64119580556E-01
3.66574063785E+05	-1.80094985382E+01	1.65041595855E+02	5.95299395801E+00	-1.78504096035E+02	-4.64738916976E+01	-1.26327397980E+02	-5.83641624500E+00	-2.58325724299E-01
3.88765418380E+05	-2.01553942931E+01	1.74495219517E+02	5.98404588293E+00	-1.78799877371E+02	-4.43624152425E+01	-9.69442223067E+01	-5.84966870180E+00	-4.43682128742E-01
4.10956772975E+05	-1.20849129022E+01	1.76231214856E+02	5.95717350638E+00	-1.79161103502E+02	-4.32589212790E+01	4.57239507394E+01	-5.84632782098E+00	-3.46109247077E-01
4.33148127570E+05	-1.58529482709E+01	1.54192112678E+02	5.92293915892E+00	-1.79170073305E+02	-4.17729301811E+01	1.07929394484E+02	-5.82318806227E+00	-3.22271421612E-01
4.55339482165E+05	-1.49494211289E+01	-1.33262627303E+02	5.97289535482E+00	-1.79868604657E+02	-4.67319727033E+01	1.01579500829E+02	-5.84622225259E+00	-4.48577518700E-01
4.77530836760E+05	-1.67341537292E+01	1.65038876710E+02	5.98326742780E+00	-1.79732906344E+02	-3.80848879681E+01	9.85660141383E+01	-5.83082003267E+00	-4.24679637782E-01
4.99722191355E+05	-2.21037624398E+01	-1.62554958618E+02	6.02339246896E+00	-1.79770979145E+02	-4.71477152011E+01	-1.70439659301E+02	-5.83442913598E+00	-3.68122671559E-01
5.21913545950E+05	-1.43271140397E+01	-1.42830280442E+02	5.95256013973E+00	1.79568653755E+02	-4.32642952186E+01	8.78805793605E+00	-5.83809689617E+00	-3.85662681459E-01
5.44104900545E+05	-1.66841291276E+01	-1.79520779646E+02	5.96246687436E+00	1.79789145543E+02	-4.17563107357E+01	1.60989901392E+02	-5.81667207969E+00	-2.48375222595E-01
5.66296255139E+05	-1.66597818687E+01	1.62006996795E+02	5.93969760742E+00	1.79871738345E+02	-4.45000861234E+01	3.08204366942E+01	-5.83682722295E+00	-3.25424787766E-01
5.88487609734E+05	-1.91345836414E+01	1.27220268313E+02	6.00699600355E+00	1.79321383327E+02	-5.56640732459E+01	1.11753930679E+02	-5.84639568493E+00	-3.05317116374E-01
6.10678964329E+05	-9.64394921194E+00	-1.32747384480E+02	5.94501456857E+00	1.78974728201E+02	-4.67890804713E+01	-9.27095125309E+01	-5.86706112476E+00	9.09895025202E-02
6.32870318924E+05	-1.71082053262E+01	-1.78398690063E+02	5.95705905279E+00	1.79086050503E+02	-3.54064456994E+01	-9.98987285717E+01	-5.82544401080E+00	-1.93639899931E-02
6.55061673519E+05	-2.02042109018E+01	1.66430151520E+02	5.97050201871E+00	1.78963783147E+02	-4.33566404872E+01	1.89777063568E+01	-5.84824790851E+00	-3.46535453284E-01
6.77253028114E+05	-1.37533402754E+01	1.73113855734E+02	5.95412334914E+00	1.78749684627E+02	-3.99570371704E+01	-1.05384325203E+02	-5.82323597562E+00	-5.93252074775E-01
6.99444382709E+05	-1.78129288819E+01	-1.60366318813E+02	5.99191293291E+00	1.78641245296E+02	-4.76927677225E+01	1.15791498569E+02	-5.84290481802E+00	-3.57553888288E-01
7.21635737304E+05	-1.63481838516E+01	1.56381197065E+02	5.90603144051E+00	1.78740490970E+02	-4.41098644660E+01	2.63379973446E+01	-5.81971276767E+00	-2.40725629647E-01
7.43827091899E+05	-1.26916099263E+01	1.75056459107E+02	5.92614906492E+00	1.78594749818E+02	-5.34428834506E+01	-1.57829009213E+02	-5.86215800199E+00	-3.45295151438E-01
7.66018446494E+05	-2.45320799770E+01	-6.60004873012E+01	5.97238812800E+00	1.78221327698E+02	-4.11617816123E+01	-1.17611378305E+02	-5.84187831605E+00	-3.95780251908E-01
7.88209801089E+05	-1.54275896501E+01	1.74652708302E+02	5.98173761652E+00	1.78200482732E+02	-4.32381143884E+01	2.39473432839E+01	-5.84917751497E+00	-4.79962803948E-01
8.10401155684E+05	-1.55061795887E+01	1.78236619491E+02	5.94426036190E+00	1.77830099925E+02	-4.53230852285E+01	2.41679619258E+01	-5.84292527289E+00	-4.43580812913E-01
8.32592510279E+05	-1.69281615611E+01	1.67560558145E+02	5.97153588418E+00	1.77914523294E+02	-4.31340153788E+01	-7.25775761596E+01	-5.82207261584E+00	-4.48389968121E-01
8.54783864874E+05	-1.68772647187E+01	1.26478988089E+02	5.97363674804E+00	1.77730342842E+02	-5.14606044414E+01	-1.75772457385E+02	-5.87103393651E+00	-4.81236715880E-01
8.76975219469E+05	-1.83297683347E+01	1.19539235198E+02	5.95647381191E+00	1.77744293909E+02	-4.25131167841E+01	3.45560264542E+00	-5.84528981657E+00	-5.99352179762E-01
8.99166574064E+05	-1.87285826100E+01	-1.67835479211E+02	5.95044098060E+00	1.77441633966E+02	-4.72263737004E+01	-3.80303918634E+01	-5.83473756746E+00	-4.11166598062E-01
9.21357928659E+05	-1.73532017689E+01	-1.19056090256E+02	6.03059960992E+00	1.77287131940E+02	-3.99988671449E+01	7.96357084489E+01	-5.82966755685E+00	-5.22082946737E-01
9.43549283254E+05	-1.56089542642E+01	-1.74282908148E+02	5.97333508177E+00	1.77093331817E+02	-4.88611455560E+01	2.27908696502E+01	-5.83680649756E+00	-4.82456184231E-01
9.65740637849E+05	-1.78486259105E+01	-1.62120290786E+02	5.99023364848E+00	1.76860019047E+02	-3.97371814899E+01	5.42176440855E+01	-5.86329386636E+00	-5.70827951149E-01
9.87931992444E+05	-1.88479920277E+01	1.38487826354E+02	5.98108432544E+00	1.77099589334E+02	-4.21481611227E+01	-1.23982845602E+02	-5.86838556768E+00	-5.88175115254E-01
1.01012334704E+06	-1.56656039424E+01	-1.75892770587E+02	5.99812436856E+00	1.77048899061E+02	-4.69632559963E+01	5.23979581646E+01	-5.85194258332E+00	-4.81763211719E-01
1.03231470163E+06	-1.59834044511E+01	1.59221947210E+02	5.97729566787E+00	1.76715468608E+02	-4.30056856785E+01	-1.55634557345E+02	-5.83468086568E+00	-4.37996597185E-01
1.05450605623E+06	-1.29003376926E+01	-1.75123828528E+02	5.92972549338E+00	1.76791953811E+02	-4.54660235751E+01	2.77380975753E+01	-5.83201098313E+00	-6.12745983873E-01
1.07669741082E+06	-1.54869886397E+01	1.74517661226E+02	5.97186261362E+00	1.76721250755E+02	-3.92607270582E+01	8.09035580899E+01	-5.85712900513E+00	-7.39180560358E-01
1.09888876542E+06	-1.84537119191E+01	1.56769215064E+02	5.96260561146E+00	1.76614383471E+02	-5.95570235680E+01	1.34265723624E+01	-5.87012031235E+00	-6.91933390412E-01
1.12108012001E+06	-1.78863635796E+01	-1.61137691057E+02	5.96324030983E+00	1.76388505934E+02	-3.82752997739E+01	-5.76176491654E+01	-5.85362655691E+00	-3.83133547106E-01
1.14327147461E+06	-1.37533413327E+01	-1.63800677832E+02	5.95478890679E+00	1.75851486164E+02	-3.29654261948E+01	-1.63338163431E+02	-5.84564757639E+00	-4.90559220576E-01
1.16546282920E+06	-1.76052792330E+01	-1.66964795556E+02	5.97482090793E+00	1.76125379467E+02	-4.43151276990E+01	-8.06437846281E+01	-5.87628201193E+00	-5.05297876792E-01
1.18765418380E+06	-2.00785921598E+01	1.40577862352E+02	5.96679558062E+00	1.76057216454E+02	-4.74189995356E+01	-1.24315464833E+02	-5.83399572560E+00	-5.14224121374E-01
1.20984553839E+06	-1.33859012962E+01	1.66728065664E+02	5.95587268525E+00	1.76011751272E+02	-4.91068220349E+01	-6.59923441416E+01	-5.86213509037E+00	-8.36079425837E-01
1.23203689299E+06	-1.13749694166E+01	-1.35769007236E+02	6.00132695969E+00	1.75559137314E+02	-5.37634168686E+01	-5.31832635622E+01	-5.84601020905E+00	-5.45184599479E-01
1.25422824758E+06	-1.60327655055E+01	-1.69595371655E+02	5.97762386481E+00	1.75515024586E+02	-4.75238295019E+01	9.27161143390E+01	-5.83582373726E+00	-8.06500632554E-01
1.27641960218E+06	-1.72646512919E+01	1.52060977151E+02	5.98655567077E+00	1.75688209234E+02	-4.04008853194E+01	1.18530910445E+02	-5.84390791843E+00	-7.18037323572E-01
1.29861095677E+06	-1.55279197307E+01	-1.76732208527E+02	5.97515810568E+00	1.75365420376E+02	-3.85692965134E+01	-1.10239186374E+02	-5.83369580205E+00	-6.31179105788E-01
1.32080231137E+06	-1.57025454557E+01	-1.71772353970E+02	5.96916528376E+00	1.75552349805E+02	-5.03639697182E+01	-5.43480984458E+01	-5.83158057170E+00	-9.31769582130E-01
1.34299366596E+06	-1.46531427612E+01	1.63405577037E+02	5.94028591862E+00	1.75250960431E+02	-4.58698297785E+01	-4.57388416983E+01	-5.86231814020E+00	-8.09175117253E-01
1.36518502056E+06	-1.62946850221E+01	1.77884302237E+02	5.93122481364E+00	1.75181586420E+02	-5.98965923899E+01	1.75940081727E+02	-5.85552545512E+00	-5.93939551653E-01
1.38737637515E+06	-1.35406334372E+01	1.71186617495E+02	5.94254003040E+00	1.74859175110E+02	-4.67607010820E+01	-2.58224569424E+01	-5.85115217688E+00	-5.61065474629E-01
1.40956772975E+06	-2.19095319773E+01	-1.47546529435E+02	6.02495216772E+00	1.74971985934E+02	-4.21225157126E+01	3.24988377422E+01	-5.81931189540E+00	-9.42446398285E-01
1.43175908434E+06	-1.69950837809E+01	-1.73730195135E+02	5.96119270590E+00	1.74936121948E+02	-4.42302238046E+01	-1.70780576503E+02	-5.80795863028E+00	-6.44802815605E-01
1.45395043894E+06	-1.64419637478E+01	-1.65693703707E+02	5.96191978092E+00	1.74604727357E+02	-4.38288370070E+01	-1.50139325417E+02	-5.83759278912E+00	-5.51503949765E-01
1.47614179353E+06	-1.61064044640E+01	-1.77274104378E+02	5.95742305030E+00	1.74346628236E+02	-4.21725918562E+01	-7.07785824298E+01	-5.85756171458E+00	-7.98142436136E-01
1.49833314813E+06	-2.15730000777E+01	-1.70315860893E+02	5.97631334637E+00	1.74709521769E+02	-4.82195272358E+01	-1.09959927297E+02	-5.84250255013E+00	-7.57283294235E-01
1.52052450272E+06	-2.45439997596E+01	-1.24702756969E+02	6.01305067243E+00	1.74429677556E+02	-4.77483625591E+01	4.20622000442E+01	-5.84944780129E+00	-6.66721080162E-01
1.54271585732E+06	-2.25296213980E+01	-1.47233911584E+02	6.00807377064E+00	1.74279643793E+02	-5.04381414668E+01	-1.54705817406E+02	-5.84351997172E+00	-6.81178585230E-01
1.56490721191E+06	-2.24327691124E+01	1.71886231214E+02	6.03718048258E+00	1.74339989217E+02	-4.89814157603E+01	3.04168214017E+01	-5.88323142071E+00	-8.03028120517E-01
1.58709856651E+06	-1.68494311710E+01	-1.63042336872E+02	5.96921028784E+00	1.74088522256E+02	-3.88328175154E+01	-9.72788473410E+01	-5.85041232680E+00	-7.69392039760E-01
1.60928992110E+06	-1.56385847977E+01	1.79059805258E+02	5.94591473463E+00	1.74240565112E+02	-3.45453363379E+01	1.07552873548E+02	-5.82537063110E+00	-8.11528310960E-01
1.63148127570E+06	-1.47982885655E+01	-1.63726400876E+02	5.97690055395E+00	1.73878786014E+02	-5.47609412632E+01	1.21764249022E+02	-5.85177897886E+00	-7.24138878265E-01
1.65367263029E+06	-1.50383780409E+01	-1.59880732828E+02	5.97067223779E+00	1.73468571187E+02	-4.62011137485E+01	-3.32064265353E+01	-5.86286280501E+00	-7.92130466145E-01
1.67586398489E+06	-2.32172324696E+01	1.78278504904E+02	5.98587771004E+00	1.73658416031E+02	-4.01994728874E+01	-2.25322573125E+01	-5.85488725638E+00	-6.80713180678E-01
1.69805533948E+06	-1.99185331640E+01	-5.57301877031E+01	6.03910430367E+00	1.74062978273E+02	-5.81024442152E+01	8.04017980576E+01	-5.83758481698E+00	-8.91355448621E-01
1.72024669408E+06	-2.23705639484E+01	1.67513739973E+02	5.98551211592E+00	1.73853485131E+02	-5.60543825733E+01	7.18589276445E+01	-5.83535549742E+00	-8.57528145640E-01
1.74243804867E+06	-1.34507473934E+01	-1.67908686289E+02	5.96724779135E+00	1.73312176180E+02	-4.75178713635E+01	9.72577618740E+00	-5.83802277559E+00	-9.11942563639E-01
1.76462940327E+06	-1.88086575631E+01	1.75879001191E+02	5.99164777654E+00	1.73693385085E+02	-3.58845656994E+01	1.16247791214E+01	-5.85753539064E+00	-1.08274250496E+00
1.78682075786E+06	-1.36429935845E+01	1.69102289227E+02	5.94447686662E+00	1.73595996147E+02	-4.79148555283E+01	1.14330567410E+02	-5.83493754587E+00	-8.92791002334E-01
1.80901211246E+06	-1.70074170443E+01	-1.75978075165E+02	5.95803992849E+00	1.73066241527E+02	-4.70081422027E+01	-1.55892356735E+02	-5.84465038366E+00	-9.06451145606E-01
1.83120346705E+06	-1.80743452089E+01	-1.76660337089E+02	5.98327988093E+00	1.73103143021E+02	-5.32188918442E+01	-6.93380398065E+01	-5.83838250066E+00	-1.05180969995E+00
1.85339482165E+06	-1.20691186576E+01	-1.54862323001E+02	5.99878470752E+00	1.72661461226E+02	-5.09985440647E+01	-9.26103473213E+01	-5.86020938961E+00	-9.75702542072E-01
1.87558617624E+06	-1.60010971881E+01	1.59496743858E+02	5.97564559105E+00	1.72878491509E+02	-4.96391631858E+01	-1.60104234138E+02	-5.84371817954E+00	-9.04780535268E-01
1.89777753084E+06	-1.65299735356E+01	-1.79021340871E+02	5.98155473670E+00	1.72673123704E+02	-4.38844630485E+01	1.63439144537E+02	-5.84075099890E+00	-9.97786008658E-01
1.91996888543E+06	-1.41707884568E+01	1.78521201307E+02	5.97460419162E+00	1.72446412280E+02	-4.51508891430E+01	-1.72954064534E+02	-5.84318148627E+00	-8.49534259799E-01
1.94216024003E+06	-1.40255029011E+01	1.55391346862E+02	5.93503622735E+00	1.72855450715E+02	-5.19854453654E+01	-1.61340423843E+01	-5.83810116526E+00	-8.97812546934E-01
1.96435159462E+06	-1.57541139097E+01	1.66541285110E+02	5.98303954102E+00	1.72417784587E+02	-4.46742676101E+01	1.37466823264E+02	-5.83266963400E+00	-1.02277050282E+00
1.98654294922E+06	-1.53806817881E+01	-1.77722755268E+02	5.98317539468E+00	1.72086480578E+02	-4.81323244422E+01	-4.06611028345E+01	-5.84107545192E+00	-9.41422225536E-01
2.00873430381E+06	-2.00943132629E+01	-2.19162341929E+01	6.07489308321E+00	1.72756861500E+02	-4.58051749327E+01	-1.03298273738E+02	-5.85958417759E+00	-1.15349774077E+00
2.03092565841E+06	-1.64842128564E+01	1.76380150098E+02	5.99559549890E+00	1.72076485952E+02	-6.01560374730E+01	-1.65269086973E+02	-5.84148302463E+00	-9.62517127295E-01
2.05311701300E+06	-1.79584001837E+01	1.51232879793E+02	5.97601271880E+00	1.72169225885E+02	-3.92658110705E+01	1.69369292218E+02	-5.81791614478E+00	-1.09954320825E+00
2.07530836760E+06	-2.24220936405E+01	-1.66282826392E+02	6.00221002820E+00	1.72289003383E+02	-3.40529081007E+01	7.21809723276E+01	-5.83963226942E+00	-1.26101720599E+00
2.09749972219E+06	-2.17039741112E+01	-1.75716966051E+02	6.00355868992E+00	1.72048834371E+02	-4.25607806624E+01	-1.22500134447E+02	-5.83359974141E+00	-8.78464625257E-01
2.11969107679E+06	-1.43826105382E+01	1.76551124431E+02	5.97482270964E+00	1.71632396751E+02	-4.88736069829E+01	6.26182942189E+01	-5.84641734691E+00	-1.06154025187E+00
2.14188243138E+06	-1.37711382897E+01	1.67468014743E+02	5.96191241122E+00	1.71736408544E+02	-4.37947659401E+01	1.03935409852E+02	-5.83054501881E+00	-1.05079157686E+00
2.16407378598E+06	-1.22779476087E+01	-1.04322622019E+02	6.06241605562E+00	1.71502292074E+02	-4.88022595323E+01	3.96506444392E+01	-5.81093453860E+00	-1.20053556700E+00
2.18626514057E+06	-1.55382043247E+01	1.52085534086E+02	5.98740150259E+00	1.71641404119E+02	-4.47264142977E+01	6.15341126533E+01	-5.83789884322E+00	-1.22706430612E+00
2.20845649517E+06	-2.42264600997E+01	-1.45482384070E+02	6.09786018431E+00	1.71268607873E+02	-4.47452433616E+01	5.39717686268E+01	-5.85182689531E+00	-1.14260235720E+00
2.23064784976E+06	-1.94433705941E+01	1.65369921891E+02	5.96160134694E+00	1.71381588245E+02	-4.08490085620E+01	-1.38594766199E+02	-5.84044923589E+00	-1.01265095142E+00
2.25283920436E+06	-1.77986188996E+01	1.73527702203E+02	5.98763811212E+00	1.71265822405E+02	-4.90886202405E+01	-4.47391639532E+01	-5.86562278643E+00	-1.17980697607E+00
2.27503055895E+06	-1.91077258640E+01	-1.62700281418E+02	6.00553478255E+00	1.71015550961E+02	-4.66427168310E+01	1.63841940857E+02	-5.84588382194E+00	-1.12200592652E+00
2.29722191355E+06	-1.50565283953E+01	1.65513439413E+02	5.96305504529E+00	1.71088812630E+02	-5.43076497331E+01	1.25620751744E+02	-5.84077148527E+00	-1.22138905391E+00
2.31941326814E+06	-1.71558350028E+01	1.46085682159E+02	5.94525378465E+00	1.71024178377E+02	-4.50575732439E+01	-7.59942280178E+00	-5.82881230482E+00	-1.10567105173E+00
2.34160462274E+06	-1.48537384881E+01	-1.37803592972E+02	6.03324500153E+00	1.70937780664E+02	-5.82153099558E+01	6.24058174306E+01	-5.83699140683E+00	-1.14746498561E+00
2.36379597733E+06	-2.36430379126E+01	1.74577973782E+02	5.98860987816E+00	1.70751109322E+02	-3.56750549715E+01	-1.38521497207E+02	-5.82780080802E+00	-1.03292811079E+00
2.38598733193E+06	-1.73027738197E+01	-1.76595018112E+02	6.02659014475E+00	1.70796025824E+02	-3.02704454157E+01	-8.71223232030E+01	-5.89463644850E+00	-1.23430064998E+00
2.40817868652E+06	-1.63384435336E+01	-1.77375623170E+02	5.95783209255E+00	1.70561702515E+02	-5.11581467989E+01	3.57134756115E+01	-5.84685797500E+00	-1.37606202646E+00
2.43037004112E+06	-1.80175284169E+01	-1.55793222628E+02	6.00295427198E+00	1.70208631260E+02	-4.91281990237E+01	-7.07829834932E+01	-5.83655164578E+00	-1.47651496337E+00
2.45256139571E+06	-1.68919060916E+01	1.70457853844E+02	5.97068456428E+00	1.70437562750E+02	-4.50340400029E+01	1.99329729417E+01	-5.86655326538E+00	-1.29856993206E+00
2.47475275031E+06	-1.38572218141E+01	1.53811351284E+02	5.95137939226E+00	1.70057587836E+02	-5.27422902621E+01	7.42870109088E+01	-5.84065627254E+00	-1.14356830919E+00
2.49694410490E+06	-8.29338361403E+00	1.10149304759E+02	5.86621272795E+00	1.70568297964E+02	-4.43064182874E+01	-1.05745439025E+02	-5.85309615058E+00	-1.11645577068E+00
2.51913545950E+06	-1.43718966810E+01	-1.37793731649E+02	6.04316600831E+00	1.69949567079E+02	-4.51678664650E+01	1.08666032653E+02	-5.84660549612E+00	-1.22668154374E+00
2.54132681409E+06	-2.10730066137E+01	1.71173750008E+02	6.00337304184E+00	1.70043857127E+02	-3.29941782640E+01	1.39093520391E+02	-5.81139594435E+00	-1.07939912271E+00
2.56351816869E+06	-1.94304848221E+01	1.71086993037E+02	6.00496963875E+00	1.70278507653E+02	-4.83467431432E+01	1.47749129364E+02	-5.83684676163E+00	-1.23060251882E+00
2.58570952328E+06	-2.00952530160E+01	1.79147900091E+02	6.03084730828E+00	1.69818992235E+02	-4.91206593232E+01	1.01129604747E+02	-5.81697517172E+00	-1.25189805686E+00
2.60790087788E+06	-2.16898754277E+01	-1.44089978250E+02	6.05390223124E+00	1.69549681024E+02	-4.66098036453E+01	4.12381868108E+01	-5.86293626827E+00	-1.30453543670E+00
2.63009223247E+06	-1.27776142434E+01	-1.79800075983E+02	5.97669370160E+00	1.69642495604E+02	-5.35102577806E+01	-5.90278190625E+01	-5.84755963913E+00	-9.48538036327E-01
2.65228358707E+06	-1.54059925266E+01	-1.72669639920E+02	6.01080185970E+00	1.69295909011E+02	-4.20053198150E+01	-1.78682993256E+02	-5.84709960444E+00	-1.18180591577E+00
2.67447494166E+06	-1.94274283299E+01	1.60240651579E+02	5.98119025224E+00	1.69746734112E+02	-4.54654970475E+01	1.20345603714E+02	-5.84038474639E+00	-1.35463448776E+00
2.69666629626E+06	-1.72522178389E+01	-1.35234526344E+02	6.05438943623E+00	1.69037545212E+02	-3.75922279064E+01	1.14547723493E+02	-5.82289475331E+00	-1.36392204202E+00
2.71885765085E+06	-1.66101182388E+01	1.75928959261E+02	5.97816503784E+00	1.69113107210E+02	-4.09016932738E+01	4.74615257998E+01	-5.82526878534E+00	-1.55508567230E+00
2.74104900545E+06	-1.58083771602E+01	-1.69881045341E+02	6.02438763959E+00	1.69135882622E+02	-4.14520678891E+01	1.07318826103E+02	-5.82180247562E+00	-1.53610519795E+00
2.76324036004E+06	-2.23836532880E+01	-1.79932170220E+02	6.00433600691E+00	1.69227523419E+02	-4.14628299242E+01	1.25259742874E+02	-5.82310261995E+00	-1.36491030843E+00
2.78543171463E+06	-1.63990909604E+01	-1.58659923730E+02	6.00394575356E+00	1.68798746229E+02	-6.13636865601E+01	-1.69674048153E+02	-5.82491930479E+00	-1.35533734035E+00
2.80762306923E+06	-1.83984824834E+01	1.13963336974E+02	5.98671079883E+00	1.69257412679E+02	-4.15068127625E+01	-1.62022971437E+01	-5.86403771251E+00	-1.37222243511E+00
2.82981442382E+06	-1.59309436600E+01	-1.63902913612E+02	6.03875607349E+00	1.68411654294E+02	-4.69972674796E+01	-1.77182897558E+01	-5.85913681314E+00	-1.46909666042E+00
2.85200577842E+06	-1.64053564827E+01	-1.79550853493E+02	6.02995112985E+00	1.68631696851E+02	-4.41059211712E+01	-1.14463113719E+02	-5.86023694746E+00	-1.44347275504E+00
2.87419713301E+06	-1.71268555443E+01	-1.32264142460E+02	6.06708116508E+00	1.68304448939E+02	-4.84384786163E+01	-3.44993993189E+01	-5.85880441313E+00	-1.38661793717E+00
