# Hz S DB R 50
! CMT, M5065, 19127446, 24.2.4/2
! Date: 11/8/2024 4:02:31 PM
! Data: Format (Calibration Info)
! Freq	S11:dB/Ang(F2)	S21:dB/Ang(F2)	S12:dB/Ang(F2)	S22:dB/Ang(F2)
3.00000000000E+05	-1.97911315381E+01	1.74838283593E+02	9.98809124934E+00	-1.77538638716E+02	-3.42796711555E+01	-7.81470038532E+01	-5.85313349171E+00	-7.63752694654E-02
3.22191354595E+05	-1.78604087182E+01	-1.39180952978E+02	9.99281182965E+00	-1.78203089503E+02	-4.13694407782E+01	1.20183491987E+02	-5.83901678871E+00	-2.94856784366E-01
3.44382709190E+05	-2.07926786747E+01	-1.73387575596E+02	9.97323548000E+00	-1.78148786441E+02	-4.70558447261E+01	-1.72023931445E+02	-5.82872085750E+00	-2.21709001242E-01
3.66574063785E+05	-1.86023423525E+01	-1.43154926775E+02	9.97950425971E+00	-1.78780448943E+02	-4.29949742680E+01	-3.39377192775E+01	-5.86331782337E+00	-2.62280201776E-01
3.88765418380E+05	-1.90906268623E+01	1.72760063438E+02	9.99696662705E+00	-1.78868472970E+02	-4.82368560444E+01	-4.28873402575E+01	-5.85320747288E+00	-1.15674610952E-01
4.10956772975E+05	-1.46057628015E+01	1.41821646812E+02	9.96256603036E+00	-1.78841835698E+02	-4.83536270780E+01	-1.22642638045E+02	-5.83450115625E+00	-3.43995779080E-01
4.33148127570E+05	-1.38005000419E+01	-1.59762432620E+02	9.97009277861E+00	-1.79813967641E+02	-4.92445743020E+01	-2.15105402864E+01	-5.83601363297E+00	-1.60420570651E-01
4.55339482165E+05	-1.86107226542E+01	-1.70455190751E+02	9.99491813510E+00	-1.79641216017E+02	-3.47571493109E+01	1.56064822960E+02	-5.80311293241E+00	-3.54162995735E-01
4.77530836760E+05	-1.65150905808E+01	-1.73297754189E+02	9.99603163881E+00	1.79863990834E+02	-5.60593188482E+01	-1.60406331652E+02	-5.82652017746E+00	-2.15380252380E-01
4.99722191355E+05	-1.68842572781E+01	-1.48911834808E+02	9.99656264952E+00	1.79873807739E+02	-4.23302176314E+01	-1.03253318996E+02	-5.83238044062E+00	-1.76028425624E-01
5.21913545950E+05	-1.91506403315E+01	1.45795188921E+02	1.00014565110E+01	1.79714543359E+02	-4.77409883779E+01	-1.69338693977E+02	-5.80213527557E+00	-4.28131324991E-01
5.44104900545E+05	-1.60346409031E+01	-1.37292323199E+02	1.00170497522E+01	1.79155313925E+02	-4.12062712364E+01	-4.26502335559E+01	-5.84624092848E+00	-2.58455187272E-01
5.66296255139E+05	-1.73831775562E+01	-1.77800859447E+02	1.00155170476E+01	1.79117515520E+02	-5.58521515789E+01	1.25753804787E+01	-5.82591178340E+00	-4.93290886884E-01
5.88487609734E+05	-1.61413088513E+01	1.65724611739E+02	9.96803365968E+00	1.79203596434E+02	-4.01051963177E+01	-1.39301481720E+02	-5.82623793580E+00	-2.68549467804E-01
6.10678964329E+05	-1.66616623526E+01	1.62720766813E+02	9.99034593301E+00	1.78946642228E+02	-6.58792524420E+01	7.33027892823E+01	-5.83674725942E+00	8.00416071062E-02
6.32870318924E+05	-1.78592017172E+01	1.58090207815E+02	1.00127246837E+01	1.78732031923E+02	-4.50026468279E+01	-5.79145088929E+01	-5.84722349157E+00	-1.54129111175E-01
6.55061673519E+05	-2.10177910140E+01	1.63599776063E+02	1.00029798141E+01	1.78516910559E+02	-4.52534742303E+01	5.03440908270E+01	-5.82700626229E+00	-4.10815250395E-01
6.77253028114E+05	-1.76610399095E+01	-1.76998784627E+02	1.00065177301E+01	1.78293770574E+02	-4.30752031004E+01	-8.31748885856E+01	-5.83422900829E+00	-5.13610763579E-01
6.99444382709E+05	-1.79119745944E+01	-1.57675739196E+02	1.00152859211E+01	1.78194567382E+02	-4.41031179770E+01	6.38333736041E+01	-5.82061968755E+00	-4.70647335473E-01
7.21635737304E+05	-1.25466296182E+01	1.24570722641E+02	9.96227308497E+00	1.78334217262E+02	-4.10419221578E+01	1.14734248567E+02	-5.83358019553E+00	-5.95104457570E-01
7.43827091899E+05	-1.54891386859E+01	-1.62299179142E+02	9.99742335792E+00	1.77421978705E+02	-4.36763662844E+01	-2.54880536900E+01	-5.83404586362E+00	-4.30316057828E-01
7.66018446494E+05	-1.41758166137E+01	1.74970330367E+02	9.95988840165E+00	1.77576199756E+02	-4.05896654515E+01	-1.13549871187E+02	-5.83731963499E+00	-2.42785252183E-01
7.88209801089E+05	-1.64890181644E+01	1.77787383690E+02	9.98415026401E+00	1.77353923669E+02	-4.56562757016E+01	-3.82502353580E+01	-5.85619269229E+00	-3.23477641084E-01
8.10401155684E+05	-2.22882696414E+01	-1.73740668922E+02	1.00390896814E+01	1.77289183227E+02	-4.45048593858E+01	1.60279609231E+02	-5.82858254521E+00	-4.98375355259E-01
8.32592510279E+05	-2.05009583510E+01	1.61831833266E+02	9.99655696111E+00	1.77301415432E+02	-4.91244151813E+01	8.53583164793E+01	-5.85329426428E+00	-4.89775026905E-01
8.54783864874E+05	-1.46350060552E+01	1.67486005500E+02	9.98550208619E+00	1.76991581029E+02	-4.66482074142E+01	-6.27493958442E+01	-5.86588549439E+00	-5.47863647131E-01
8.76975219469E+05	-1.82639147471E+01	-1.79382669212E+02	9.97711188186E+00	1.76813264613E+02	-4.82416767003E+01	-8.44717137131E+01	-5.82642704593E+00	-2.85172615672E-01
8.99166574064E+05	-1.16433263060E+01	1.32239986996E+02	9.97210410927E+00	1.76977150321E+02	-4.36015278764E+01	1.35804832606E+02	-5.84659279478E+00	-5.13162718532E-01
9.21357928659E+05	-2.17937375946E+01	1.60367019777E+02	1.00202029221E+01	1.76591880125E+02	-4.20426535545E+01	-1.41345958432E+02	-5.81083123684E+00	-5.06907373626E-01
9.43549283254E+05	-2.09644434169E+01	-1.61043274456E+02	1.00150118436E+01	1.76309789457E+02	-4.88721837588E+01	1.00872063007E+02	-5.83663644056E+00	-6.39724432386E-01
9.65740637849E+05	-1.63394314986E+01	-1.64945125137E+02	1.00007438344E+01	1.76048906490E+02	-5.16593152070E+01	8.72380046151E+01	-5.84846977857E+00	-6.57888688422E-01
9.87931992444E+05	-2.19777067318E+01	-1.75526384920E+02	1.00007724300E+01	1.76289752751E+02	-4.48070261291E+01	1.05398490036E+02	-5.82276969431E+00	-6.32307344532E-01
1.01012334704E+06	-2.97451195285E+01	1.62132159196E+02	1.00318823771E+01	1.76092491886E+02	-5.20771905919E+01	3.82753867172E+01	-5.83976433637E+00	-6.08530948587E-01
1.03231470163E+06	-1.35677748949E+01	1.74111625711E+02	9.94926595250E+00	1.75702875968E+02	-5.26917571782E+01	1.15078736649E+02	-5.83123228129E+00	-6.11318281521E-01
1.05450605623E+06	-2.04086643156E+01	1.30941741569E+02	9.99495597683E+00	1.76015535141E+02	-4.74089034346E+01	-9.99091641480E+01	-5.83689344208E+00	-5.16472962330E-01
1.07669741082E+06	-2.07833407506E+01	-1.61397394519E+02	1.00141408335E+01	1.75448784418E+02	-4.16887612042E+01	8.45005560902E+01	-5.84974494849E+00	-5.46744073586E-01
1.09888876542E+06	-1.65740995304E+01	-1.54714036932E+02	1.00161371470E+01	1.75263170708E+02	-4.78335366408E+01	-7.32667107420E+00	-5.85823658259E+00	-5.62319099612E-01
1.12108012001E+06	-2.73755974745E+01	-1.41937878842E+02	1.00228526285E+01	1.75301651852E+02	-5.01666397340E+01	-1.01575862586E+02	-5.85640710266E+00	-6.06915245791E-01
1.14327147461E+06	-1.71679369553E+01	-1.75648389330E+02	1.00067707258E+01	1.75287665147E+02	-5.56319336146E+01	8.89765726915E+01	-5.83894850986E+00	-6.37446251247E-01
1.16546282920E+06	-1.92027658685E+01	1.65857960041E+02	1.00283695897E+01	1.75214098717E+02	-4.47551077480E+01	1.25360817821E+02	-5.82659266025E+00	-6.27811254547E-01
1.18765418380E+06	-2.21668867018E+01	-1.43292174567E+02	1.00201980807E+01	1.74937186292E+02	-4.48164780382E+01	-6.91867967796E+01	-5.84527346691E+00	-6.69495799088E-01
1.20984553839E+06	-1.48619101409E+01	1.55220638936E+02	9.96351726078E+00	1.74836567734E+02	-4.06114910152E+01	9.47567595732E+00	-5.86286397237E+00	-9.25876909409E-01
1.23203689299E+06	-1.94913555914E+01	1.78673618678E+02	9.99317289585E+00	1.74632300397E+02	-4.56405965000E+01	-1.16620192094E+02	-5.83634499799E+00	-3.43042360672E-01
1.25422824758E+06	-1.66146337128E+01	1.65967915907E+02	9.99974309796E+00	1.74657657618E+02	-4.06382590962E+01	6.09265189934E+01	-5.84966639657E+00	-7.71209697555E-01
1.27641960218E+06	-1.52332452724E+01	1.78859156094E+02	9.98810511387E+00	1.74568084913E+02	-5.15724710139E+01	-6.58011640000E+01	-5.83820453427E+00	-6.02637900007E-01
1.29861095677E+06	-1.79261612925E+01	1.75572267074E+02	1.00109060534E+01	1.74280231417E+02	-5.29883825078E+01	2.13102970746E+01	-5.82980184681E+00	-6.51215029856E-01
1.32080231137E+06	-1.59873212649E+01	-1.67825525067E+02	1.00215476764E+01	1.74138626604E+02	-5.83003049352E+01	-1.71990892567E+02	-5.81505973473E+00	-1.05868659316E+00
1.34299366596E+06	-2.59876957191E+01	-8.52700271305E+01	1.00931491818E+01	1.74126069173E+02	-4.78329607616E+01	1.23849503155E+02	-5.82010408173E+00	-7.42254145856E-01
1.36518502056E+06	-2.19628537711E+01	1.48007555749E+02	1.00085738364E+01	1.73958575832E+02	-4.37881347881E+01	-1.48775434966E+02	-5.82342155746E+00	-5.22355852550E-01
1.38737637515E+06	-1.85494225527E+01	1.68393739385E+02	1.00017510158E+01	1.73775303792E+02	-3.71992051366E+01	1.74017066383E+02	-5.79003308525E+00	-6.08666851056E-01
1.40956772975E+06	-2.07371720059E+01	-1.57990258359E+02	1.00298388773E+01	1.73672145437E+02	-3.39140462920E+01	8.56284386496E+01	-5.81074182976E+00	-1.00056122687E+00
1.43175908434E+06	-1.71141066398E+01	1.57812959743E+02	9.97778802829E+00	1.73531188620E+02	-4.14548046031E+01	-8.69884311936E+01	-5.84958274809E+00	-5.47450441507E-01
1.45395043894E+06	-1.44184723281E+01	-1.75111327713E+02	9.96744400476E+00	1.73401658468E+02	-4.61193986110E+01	-1.70322942858E+02	-5.83347352335E+00	-5.78628232394E-01
1.47614179353E+06	-1.81794520208E+01	1.68977215685E+02	1.00050380192E+01	1.73134678161E+02	-4.48899900063E+01	-1.21733028463E+02	-5.84542417837E+00	-6.34392520875E-01
1.49833314813E+06	-1.59511565919E+01	-1.30889895144E+02	1.00531688895E+01	1.72672548280E+02	-3.92112874941E+01	8.98713254771E+01	-5.84892698900E+00	-9.61207396068E-01
1.52052450272E+06	-8.39919085891E+00	-1.70794385488E+02	9.96406718534E+00	1.72689218077E+02	-4.34451175703E+01	9.13937267483E+01	-5.84668950187E+00	-7.79310277066E-01
1.54271585732E+06	-1.58134367539E+01	1.57630059875E+02	1.00191786217E+01	1.72931921758E+02	-3.96043906408E+01	9.51408072265E+01	-5.81908740280E+00	-9.42922665529E-01
1.56490721191E+06	-1.91855240717E+01	1.69517819385E+02	1.00221162731E+01	1.72803985063E+02	-3.21292728416E+01	-5.49737101523E+01	-5.88497724724E+00	-6.37135867939E-01
1.58709856651E+06	-1.63983468298E+01	1.78083677874E+02	1.00174695815E+01	1.72594080221E+02	-4.26957242412E+01	1.59608377800E+02	-5.80135331148E+00	-8.94613993633E-01
1.60928992110E+06	-1.92074266439E+01	-1.64113217495E+02	1.00442647578E+01	1.72515972786E+02	-4.48209933096E+01	1.52828975402E+02	-5.83726116141E+00	-8.48605401555E-01
1.63148127570E+06	-1.65997885576E+01	-1.62410455379E+02	1.00259239280E+01	1.72585809594E+02	-4.89118028750E+01	-3.90215877084E+01	-5.86616465332E+00	-8.94181009583E-01
1.65367263029E+06	-1.90105433513E+01	-1.44776520548E+02	1.00302379253E+01	1.72244663889E+02	-4.30197941496E+01	4.54727059691E+01	-5.82174417573E+00	-9.88068690835E-01
1.67586398489E+06	-1.06094983431E+01	1.76303108160E+02	9.94782669447E+00	1.72034796543E+02	-5.12543959721E+01	2.26376866370E+01	-5.81807620680E+00	-1.00635794939E+00
1.69805533948E+06	-2.15027506276E+01	1.71658421361E+02	1.00068880124E+01	1.72155813495E+02	-4.13304152774E+01	-1.68907858681E+02	-5.83394771129E+00	-8.19702179258E-01
1.72024669408E+06	-1.94220152494E+01	-1.48341089868E+02	1.00136955065E+01	1.71937695701E+02	-3.29038488399E+01	-1.78390061734E+02	-5.81947559856E+00	-5.52521481681E-01
1.74243804867E+06	-1.53937874091E+01	-1.52447224106E+02	1.00119701889E+01	1.71694744587E+02	-5.29367971185E+01	-2.10729200884E+01	-5.85478860154E+00	-9.00068741919E-01
1.76462940327E+06	-2.02723977941E+01	-1.49119054652E+02	1.00322337347E+01	1.71634245045E+02	-4.49889973803E+01	8.83189507767E+01	-5.84626527088E+00	-1.12410961687E+00
1.78682075786E+06	-1.68111818064E+01	-1.57183354277E+02	9.98413442198E+00	1.71287697852E+02	-3.91717008338E+01	7.57670320060E+01	-5.83864901420E+00	-1.09283955152E+00
1.80901211246E+06	-1.58331249629E+01	-1.41286498601E+02	1.00217359355E+01	1.71253412510E+02	-5.71540049564E+01	-1.63629793505E+02	-5.81377832987E+00	-8.90605345548E-01
1.83120346705E+06	-1.25039470999E+01	1.25760244222E+02	9.96385959399E+00	1.71421341920E+02	-4.41902394214E+01	5.82086237742E+01	-5.85318934463E+00	-9.98643312937E-01
1.85339482165E+06	-1.65515500909E+01	-1.43879600650E+02	1.00455112598E+01	1.70770612082E+02	-4.06615555276E+01	1.72785347963E+02	-5.83058286056E+00	-9.08421925603E-01
1.87558617624E+06	-1.73774597104E+01	-1.78561370811E+02	1.00312334397E+01	1.71067910870E+02	-3.44616101851E+01	8.91301748778E+01	-5.81641086502E+00	-1.05534355156E+00
1.89777753084E+06	-1.64578904891E+01	-1.73833159924E+02	1.00062001380E+01	1.70833145345E+02	-4.16330151369E+01	1.44699289076E+02	-5.81498828917E+00	-8.78545533310E-01
1.91996888543E+06	-2.28548811737E+01	-1.74359358439E+02	1.00270971704E+01	1.70878805083E+02	-4.10059925908E+01	-1.18654127776E+02	-5.85193313579E+00	-7.95058160291E-01
1.94216024003E+06	-2.35799395899E+01	-1.71778367826E+02	1.00235297636E+01	1.70743669874E+02	-4.38543119415E+01	9.43506559800E+01	-5.87541061842E+00	-1.20663730428E+00
1.96435159462E+06	-1.97669535399E+01	1.10206665630E+02	9.99081913169E+00	1.70903183331E+02	-3.97363924242E+01	-5.06166582886E+01	-5.85070280338E+00	-1.03157291565E+00
1.98654294922E+06	-1.72855887025E+01	-1.27871248215E+02	1.00675518646E+01	1.70137575664E+02	-4.60820362021E+01	4.01148848985E+01	-5.84083267638E+00	-9.89054168118E-01
2.00873430381E+06	-2.36941345703E+01	1.65961409513E+02	1.00484634082E+01	1.70566966198E+02	-5.23710988556E+01	3.83397149900E+01	-5.83709641807E+00	-9.61146321930E-01
2.03092565841E+06	-2.11750758238E+01	1.76860968456E+02	1.00182756249E+01	1.70216888272E+02	-4.14169541703E+01	1.01040017789E+02	-5.83907195334E+00	-1.02937102126E+00
2.05311701300E+06	-1.80615472296E+01	-1.51992665751E+02	1.00413465254E+01	1.69946859315E+02	-5.01451612763E+01	1.49993604588E+02	-5.83030321277E+00	-1.07349130079E+00
2.07530836760E+06	-1.85721738113E+01	-1.73500673130E+02	1.00403699038E+01	1.69946089533E+02	-4.65099519272E+01	9.77166017127E+01	-5.82201476435E+00	-1.15302916673E+00
2.09749972219E+06	-1.96869260020E+01	-1.77933452055E+02	1.00044960474E+01	1.69979450877E+02	-4.65543166471E+01	-1.71323112818E+02	-5.81598591296E+00	-1.02385154925E+00
2.11969107679E+06	-2.03681399547E+01	-1.54470705895E+02	1.00684850154E+01	1.69854620789E+02	-5.16154656864E+01	1.42495817978E+02	-5.84981017962E+00	-9.55096693739E-01
2.14188243138E+06	-1.83902795825E+01	1.52466069653E+02	1.00038758937E+01	1.69725968482E+02	-4.58456121979E+01	5.53438404472E+00	-5.84512466865E+00	-1.04704060192E+00
2.16407378598E+06	-1.76430146505E+01	1.57461285074E+02	9.99630034813E+00	1.69723091349E+02	-4.87362277794E+01	1.67452881587E+02	-5.83230118665E+00	-1.07758682253E+00
2.18626514057E+06	-1.64327074314E+01	1.54668504063E+02	1.00135978422E+01	1.69451357271E+02	-3.90369252530E+01	5.15537430751E+01	-5.85228025980E+00	-1.28313534382E+00
2.20845649517E+06	-1.91192138386E+01	-1.74539753995E+02	1.00191306138E+01	1.69428669681E+02	-5.34619300005E+01	-3.30334591885E+01	-5.85084972177E+00	-9.16548535066E-01
2.23064784976E+06	-2.06941443366E+01	-1.55895131291E+02	1.00504778345E+01	1.69142057467E+02	-6.30168539954E+01	-8.08937543868E+01	-5.83962036958E+00	-1.02635810400E+00
2.25283920436E+06	-2.01999101212E+01	-1.75209231112E+02	1.00526231512E+01	1.69045221012E+02	-4.76740045402E+01	3.69433912925E+01	-5.84425110042E+00	-1.19340870864E+00
2.27503055895E+06	-2.08764420852E+01	1.60890609265E+02	1.00441512900E+01	1.69013998315E+02	-4.34801560692E+01	8.23536103537E+01	-5.84465421853E+00	-1.18842540320E+00
2.29722191355E+06	-1.85374744292E+01	1.35972690482E+02	9.99897435101E+00	1.69048165827E+02	-4.33591757467E+01	3.47694004984E+01	-5.86760364298E+00	-1.23663977679E+00
2.31941326814E+06	-1.56616220403E+01	-1.73172049919E+02	1.00146038056E+01	1.68474059807E+02	-4.22014163132E+01	-8.16635295891E+01	-5.84780571843E+00	-1.12213776327E+00
2.34160462274E+06	-2.20772971360E+01	-1.39624000713E+02	1.00754015924E+01	1.68687312606E+02	-4.22316665729E+01	-1.32812244441E+02	-5.85257353450E+00	-1.25382035041E+00
2.36379597733E+06	-1.37710567161E+01	-1.61819897604E+02	1.00280856060E+01	1.68289457473E+02	-3.89558195092E+01	-2.44438578549E+01	-5.86488981537E+00	-1.13907319343E+00
2.38598733193E+06	-1.49634333635E+01	-1.73588533814E+02	1.00103959378E+01	1.68238066800E+02	-4.79750939675E+01	1.29129965822E+02	-5.83868712482E+00	-1.27460724360E+00
2.40817868652E+06	-1.76113447482E+01	1.39727045253E+02	1.00071601024E+01	1.68605812931E+02	-4.36382990853E+01	-4.72094670094E+01	-5.83448632241E+00	-1.33716979804E+00
2.43037004112E+06	-1.49226393330E+01	1.79121835944E+02	1.00192611642E+01	1.68153746781E+02	-4.91859412828E+01	9.41790756704E+01	-5.85020400218E+00	-1.63089946891E+00
2.45256139571E+06	-6.09340731851E+00	-1.73181176775E+02	9.97639184759E+00	1.67234014847E+02	-5.04992468700E+01	-1.04098460935E+02	-5.84565851046E+00	-1.08603406547E+00
2.47475275031E+06	-1.74916871699E+01	-1.65226050678E+02	1.00445836095E+01	1.67985145238E+02	-3.92024101981E+01	1.21721069132E+02	-5.82252642591E+00	-1.37851620370E+00
2.49694410490E+06	-1.37059705077E+01	1.73839145595E+02	1.00052213535E+01	1.67933402910E+02	-3.95616267466E+01	5.78005297591E+01	-5.84003654154E+00	-1.47054850998E+00
2.51913545950E+06	-1.80975275569E+01	1.65579077048E+02	1.00093801190E+01	1.67801901865E+02	-4.02751023018E+01	-2.67150932105E+01	-5.86459585504E+00	-1.25634345115E+00
2.54132681409E+06	-1.88313757189E+01	-1.72975346458E+02	1.00355163061E+01	1.67641165502E+02	-5.84346358035E+01	1.66776658847E+02	-5.84223226389E+00	-1.28885154011E+00
2.56351816869E+06	-2.02390868097E+01	1.78919344345E+02	1.00456856634E+01	1.67443409433E+02	-5.93705628048E+01	-2.46770832436E+01	-5.85413770759E+00	-1.24500472542E+00
2.58570952328E+06	-1.94308432166E+01	-1.53438006792E+02	1.00530003282E+01	1.67220511757E+02	-4.76686146485E+01	-1.65279522274E+02	-5.83136953520E+00	-1.28894404211E+00
2.60790087788E+06	-1.42528766463E+01	-1.41054464013E+02	1.00641560807E+01	1.66995546365E+02	-4.70479948180E+01	5.13708784896E+01	-5.87286480156E+00	-1.25992189394E+00
2.63009223247E+06	-1.63021367793E+01	-1.66472318489E+02	1.00395286609E+01	1.67060923816E+02	-3.94327369417E+01	9.61383881827E+01	-5.82316359722E+00	-9.71728009986E-01
2.65228358707E+06	-2.38843839302E+01	-1.35838301336E+02	1.00683775282E+01	1.67065245896E+02	-3.97576071249E+01	-1.63486778031E+02	-5.83481094163E+00	-1.12673674295E+00
2.67447494166E+06	-2.07021353060E+01	1.57675901584E+02	1.00484202025E+01	1.67035465801E+02	-4.31739984154E+01	-3.82793802950E+01	-5.86520511818E+00	-1.29509047055E+00
2.69666629626E+06	-1.85883837583E+01	1.33805711738E+02	1.00256310938E+01	1.67018366725E+02	-5.33352081237E+01	1.00195480021E+02	-5.84876856924E+00	-1.33809099624E+00
2.71885765085E+06	-1.62343036737E+01	-1.69078862971E+02	1.00574943462E+01	1.66438866782E+02	-4.06937575653E+01	4.13296315715E+00	-5.86980008799E+00	-1.41811068171E+00
2.74104900545E+06	-2.03474296325E+01	-1.53828973954E+02	1.00785791400E+01	1.66437697836E+02	-4.31000196120E+01	-2.51604301442E+00	-5.86011292000E+00	-1.44105650076E+00
2.76324036004E+06	-1.46146523889E+01	-1.38242596686E+02	1.00748126280E+01	1.66085252081E+02	-5.19629444117E+01	9.22185183821E+01	-5.83408323119E+00	-1.32426424602E+00
2.78543171463E+06	-1.32065904843E+01	1.72252686616E+02	9.97135281544E+00	1.66055877531E+02	-6.10936699258E+01	-5.32503439343E+01	-5.83828943244E+00	-1.37721748772E+00
2.80762306923E+06	-1.66097444454E+01	-1.62301628392E+02	1.00221959671E+01	1.66018698023E+02	-7.22516526135E+01	-9.70395005666E+01	-5.85021994288E+00	-1.41322543219E+00
2.82981442382E+06	-1.70310917035E+01	-1.67290433120E+02	1.00283964701E+01	1.65966618570E+02	-5.25263290116E+01	1.23520840814E+01	-5.84501112292E+00	-1.27862667336E+00
2.85200577842E+06	-1.52485747437E+01	-1.46842152229E+02	1.00508699158E+01	1.65817386647E+02	-4.56725506768E+01	-1.62785540619E+02	-5.83501542250E+00	-1.23028394697E+00
2.87419713301E+06	-1.61576858118E+01	-1.50440071308E+02	1.00579709021E+01	1.65730150438E+02	-4.42869075112E+01	-1.48358814198E+02	-5.83650822140E+00	-1.25158068641E+00
