# Hz S DB R 50
! CMT, M5065, 19127446, 24.2.4/2
! Date: 11/8/2024 4:14:49 PM
! Data: Format (Calibration Info)
! Freq	S11:dB/Ang(F2)	S21:dB/Ang(F2)	S12:dB/Ang(F2)	S22:dB/Ang(F2)
3.00000000000E+05	-1.66462436041E+01	1.61937189121E+02	1.83417066105E+01	-1.76062733163E+02	-4.87602811282E+01	1.38755878832E+02	-5.80420977624E+00	-5.40339521765E-01
3.22191354595E+05	-1.75363551603E+01	-1.74673594211E+02	1.83310039677E+01	-1.76933196885E+02	-4.89562710061E+01	-9.80418168376E+01	-5.81849963604E+00	2.31303524879E-02
3.44382709190E+05	-1.76644877503E+01	1.76246673137E+02	1.83373979447E+01	-1.77631022059E+02	-4.75024230873E+01	2.31292512226E+01	-5.81669740785E+00	-3.49585497311E-01
3.66574063785E+05	-2.18747771404E+01	1.61363010633E+02	1.83525035164E+01	-1.78123000778E+02	-4.19198042774E+01	-8.05597717583E+01	-5.84815259599E+00	-1.72897615907E-01
3.88765418380E+05	-1.70250322481E+01	1.55468323957E+02	1.83398701533E+01	-1.78395234744E+02	-4.55690959589E+01	1.15370105631E+02	-5.78493270020E+00	-1.25628834527E+00
4.10956772975E+05	-1.79912741416E+01	1.76062195774E+02	1.83287906563E+01	-1.79206585191E+02	-4.55982793416E+01	-7.80047132996E+01	-5.84459432222E+00	-1.47080445950E-01
4.33148127570E+05	-2.07199448727E+01	1.76924815985E+02	1.83425996844E+01	-1.79573005334E+02	-4.27491364612E+01	1.46761117805E+01	-5.90737250660E+00	-5.88657048359E-01
4.55339482165E+05	-1.53793645325E+01	1.78782682190E+02	1.83402330617E+01	1.79853633581E+02	-4.55659713018E+01	-4.62949159102E+01	-5.84918266467E+00	-1.51435409707E-01
4.77530836760E+05	-1.29236688997E+01	1.60792848328E+02	1.83161046584E+01	1.79636441305E+02	-4.16813048079E+01	-1.30156085517E+01	-5.86221624685E+00	-2.93098593590E-01
4.99722191355E+05	-1.60661102712E+01	1.73701571017E+02	1.83171920759E+01	1.79247675562E+02	-4.62849853021E+01	1.22396160501E+02	-5.83458710275E+00	-6.24567448097E-01
5.21913545950E+05	-1.86164848421E+01	-1.67202757994E+02	1.83415607594E+01	1.78774982111E+02	-3.83224604790E+01	1.27321777742E+02	-5.78742183037E+00	-8.02008530674E-01
5.44104900545E+05	-1.71894481093E+01	1.77241720095E+02	1.83127673788E+01	1.78508557418E+02	-5.26460558603E+01	-5.77969538349E+01	-5.85280968457E+00	-3.28184833638E-01
5.66296255139E+05	-1.69311271010E+01	1.68610793954E+02	1.83590138898E+01	1.78147834114E+02	-5.19769555983E+01	-1.58119399848E+00	-5.83481630249E+00	-3.76709701931E-01
5.88487609734E+05	-1.69015653932E+01	1.76197429578E+02	1.83366556194E+01	1.77777765336E+02	-4.55710820215E+01	1.40811543213E+01	-5.82723249628E+00	-4.09053395279E-01
6.10678964329E+05	-1.75549984089E+01	1.73209959861E+02	1.83267892071E+01	1.77504451608E+02	-4.73777098424E+01	3.09459039626E+01	-5.87304071338E+00	-7.07089234336E-02
6.32870318924E+05	-2.22739879025E+01	1.54360900196E+02	1.83520470436E+01	1.77138544716E+02	-6.81429654885E+01	1.43934227443E+02	-5.83799743126E+00	-2.25648962090E-01
6.55061673519E+05	-1.95668073010E+01	-1.76703734035E+02	1.83436326708E+01	1.76687275981E+02	-4.79876029515E+01	9.59432114885E+01	-5.83204173886E+00	-5.55884763943E-01
6.77253028114E+05	-1.95980736833E+01	1.47291658052E+02	1.83327877341E+01	1.76575143756E+02	-4.10421176954E+01	-9.77227822779E-01	-5.88772744632E+00	-7.36152976364E-01
6.99444382709E+05	-2.11003710185E+01	1.67512237696E+02	1.83375018046E+01	1.76187040549E+02	-3.98360485808E+01	1.09643709881E+01	-5.89340019467E+00	-5.07816476366E-01
7.21635737304E+05	-1.64029022439E+01	1.68217198524E+02	1.83311906061E+01	1.75947378591E+02	-4.96358559905E+01	1.19546221420E+02	-5.80289680171E+00	-5.37878559124E-01
7.43827091899E+05	-1.52021781575E+01	1.61873044416E+02	1.83149082647E+01	1.75681213235E+02	-4.60823801210E+01	1.62179190695E+02	-5.81155310871E+00	-3.88326389825E-01
7.66018446494E+05	-2.95219748414E+01	-1.25595135567E+01	1.83732589885E+01	1.75338579262E+02	-4.57333077935E+01	-8.91330038946E+00	-5.85257709245E+00	-5.57358481249E-01
7.88209801089E+05	-1.14760162521E+01	1.68420544907E+02	1.83082967071E+01	1.75061144216E+02	-5.51554258216E+01	1.59803656252E+02	-5.82406952911E+00	-4.61610703884E-01
8.10401155684E+05	-1.88128264079E+01	1.68551193663E+02	1.83344315141E+01	1.74765844282E+02	-4.76119983729E+01	-1.41519028808E+02	-5.82904455258E+00	-4.89567086381E-01
8.32592510279E+05	-1.48511832614E+01	1.79973407385E+02	1.83179457495E+01	1.74417971858E+02	-3.45568054163E+01	-1.37087410779E+02	-5.81758572340E+00	-4.09972823868E-02
8.54783864874E+05	-1.72010880686E+01	-1.70017148877E+02	1.83261977469E+01	1.74159101914E+02	-7.29362702215E+01	3.63306336469E+01	-5.83752777247E+00	-5.43509301650E-01
8.76975219469E+05	-1.52779945633E+01	1.52533967307E+02	1.83206344712E+01	1.74167093460E+02	-4.82263863208E+01	6.78363452487E+01	-5.85834010325E+00	-5.82696875169E-01
8.99166574064E+05	-1.72459832430E+01	1.64717591498E+02	1.83256083930E+01	1.73764980045E+02	-5.24509117764E+01	1.54131286337E+02	-5.81700815770E+00	-6.08455858483E-01
9.21357928659E+05	-2.09115726746E+01	-1.55369861638E+02	1.83501064748E+01	1.73386647734E+02	-4.68351909146E+01	5.57967798724E+01	-5.87315992742E+00	-6.61037859754E-01
9.43549283254E+05	-1.51950188779E+01	-1.76754977163E+02	1.83084310650E+01	1.73107596995E+02	-3.92688948316E+01	4.43736758687E+01	-5.87490909410E+00	-9.17220818476E-01
9.65740637849E+05	-1.43102899655E+01	-1.51042906342E+02	1.83060040079E+01	1.72705767590E+02	-4.20829817509E+01	7.43151298118E+01	-5.82126914716E+00	-8.22339743751E-01
9.87931992444E+05	-1.98970088280E+01	-1.71478309393E+02	1.83380626722E+01	1.72718011740E+02	-4.23181913858E+01	1.16324115422E+02	-5.80794513821E+00	-5.69670444050E-01
1.01012334704E+06	-1.55923993780E+01	-1.74637794620E+02	1.83284919191E+01	1.72388330019E+02	-4.30562223694E+01	1.38370312258E+02	-5.81591147161E+00	-6.57513375391E-01
1.03231470163E+06	-2.14217425249E+01	1.69816471569E+02	1.83163798908E+01	1.72326438268E+02	-4.96450155249E+01	8.97417260828E+01	-5.83520695521E+00	-6.49011885681E-01
1.05450605623E+06	-1.74784469646E+01	1.73017796546E+02	1.83293087144E+01	1.72061627347E+02	-4.87671782158E+01	6.27937799521E+01	-5.84651090250E+00	-8.28152972647E-01
1.07669741082E+06	-1.29991911585E+01	-1.56010125776E+02	1.83728737211E+01	1.71564124306E+02	-4.51937315169E+01	1.57960322879E+02	-5.83427866885E+00	-6.02278886652E-01
1.09888876542E+06	-1.52070124797E+01	1.78761986368E+02	1.82904587913E+01	1.71372792126E+02	-4.25992007295E+01	-1.77226522557E+02	-5.79180913036E+00	-5.40958422094E-01
1.12108012001E+06	-1.61584370062E+01	-1.79048250002E+02	1.83005997698E+01	1.71240191553E+02	-3.73699475827E+01	7.89333704573E+00	-5.89635726851E+00	-8.24078791573E-01
1.14327147461E+06	-1.78786293931E+01	1.79353473284E+02	1.83244713679E+01	1.70978698897E+02	-4.10154923903E+01	4.03200341861E+01	-5.84737954670E+00	-8.41539470392E-01
1.16546282920E+06	-1.35834912361E+01	-1.62753950434E+02	1.82763491021E+01	1.70718323061E+02	-3.98376090877E+01	-9.81811268780E+01	-5.85418092160E+00	-1.94255520002E-01
1.18765418380E+06	-1.71517139656E+01	-1.71825538719E+02	1.83052683957E+01	1.70441708522E+02	-3.95582229077E+01	-6.31429066372E+01	-5.84119887129E+00	-2.52666702386E-01
1.20984553839E+06	-1.77865348786E+01	1.59594149198E+02	1.82923436624E+01	1.70526823224E+02	-4.97476513124E+01	-6.31513338103E+01	-5.84753321369E+00	-7.50468043908E-01
1.23203689299E+06	-1.96168551382E+01	-1.52982528744E+02	1.82984771601E+01	1.70024272509E+02	-5.38709903547E+01	8.91377228819E+01	-5.82911899498E+00	-6.08804762826E-01
1.25422824758E+06	-2.06073004421E+01	-1.78224983187E+02	1.83190719839E+01	1.69999546764E+02	-5.09340403555E+01	-5.38587112805E+01	-5.84756977820E+00	-4.84495219825E-01
1.27641960218E+06	-1.59855454283E+01	1.64111611561E+02	1.82659276501E+01	1.69875168567E+02	-3.82359495717E+01	1.61263780673E+02	-5.76205331239E+00	-5.73196428667E-01
1.29861095677E+06	-1.76473186994E+01	-1.79877676534E+02	1.82884323835E+01	1.69601890025E+02	-4.50518826969E+01	1.36439723104E+02	-5.81908975115E+00	-6.62809556502E-01
1.32080231137E+06	-1.68469589576E+01	-1.22704358491E+02	1.83397599132E+01	1.69026022691E+02	-4.11212700715E+01	-8.72654953212E+01	-5.85257145076E+00	-7.20901931303E-01
1.34299366596E+06	-1.92710907051E+01	1.76797645770E+02	1.82997619256E+01	1.69145276315E+02	-4.15817216633E+01	5.25542344927E+01	-5.86277753970E+00	-1.10952312725E+00
1.36518502056E+06	-1.68848910967E+01	-1.45350016224E+02	1.83184416068E+01	1.68623541157E+02	-4.33883076209E+01	1.18701102569E+02	-5.81629477858E+00	-1.13475133514E+00
1.38737637515E+06	-1.59089407356E+01	-1.58761624293E+02	1.82928971898E+01	1.68517415412E+02	-4.50303843471E+01	-3.60841736886E+01	-5.86726534122E+00	-5.49146581463E-01
1.40956772975E+06	-2.75187243492E+01	1.50864310568E+02	1.83074129604E+01	1.68496413290E+02	-3.93285125959E+01	-3.87700365607E+01	-5.88089192729E+00	-6.36478450406E-01
1.43175908434E+06	-1.59282946600E+01	1.47105024933E+02	1.82558450584E+01	1.68335643089E+02	-4.44582022981E+01	8.77342190513E+01	-5.85490213496E+00	-9.36789546157E-01
1.45395043894E+06	-1.49466887912E+01	1.72690056208E+02	1.82484067862E+01	1.67897615678E+02	-4.48095003606E+01	-1.35837518862E+02	-5.84336479499E+00	-5.31121170389E-01
1.47614179353E+06	-1.68337960952E+01	-1.71895320549E+02	1.82720926336E+01	1.67748839747E+02	-4.14925697615E+01	1.28618245757E+02	-5.78178315305E+00	-1.03738202679E+00
1.49833314813E+06	-1.59186567968E+01	1.62814544676E+02	1.82593733940E+01	1.67512219150E+02	-4.47232854712E+01	1.44392456476E+02	-5.78769934080E+00	-9.62685288162E-01
1.52052450272E+06	-1.93690275759E+01	-1.68975083441E+02	1.82641089989E+01	1.67277394236E+02	-6.37446717119E+01	-1.57911572735E+01	-5.84208823593E+00	-6.54967164097E-01
1.54271585732E+06	-1.11291651230E+01	1.24966682350E+02	1.82087758203E+01	1.67311865109E+02	-4.65367823622E+01	5.97391036069E+01	-5.83850818516E+00	-1.07361401971E+00
1.56490721191E+06	-1.81191083063E+01	1.38445551358E+02	1.82529342396E+01	1.66897184887E+02	-4.59693747672E+01	-5.89163500719E+01	-5.86083501142E+00	-5.71769419300E-01
1.58709856651E+06	-1.72694102358E+01	-1.78744663372E+02	1.82643854279E+01	1.66608250020E+02	-3.86644672955E+01	-4.43043729406E+01	-5.89738520269E+00	-5.67852707384E-01
1.60928992110E+06	-1.94007581184E+01	-1.57364553810E+02	1.82761567843E+01	1.66311829299E+02	-4.68742233310E+01	1.72327892278E+02	-5.79242757584E+00	-6.95794943818E-01
1.63148127570E+06	-1.70854337667E+01	-1.60464018295E+02	1.82688107789E+01	1.66050920229E+02	-4.80630720024E+01	-1.69639432142E+02	-5.82944970571E+00	-8.18896248914E-01
1.65367263029E+06	-1.39496559609E+01	-1.55817314772E+02	1.82634795787E+01	1.65734193453E+02	-4.18876168240E+01	-2.57362833573E+01	-5.88356864386E+00	-7.64870777867E-01
1.67586398489E+06	-1.78954587962E+01	1.65731364618E+02	1.82404840844E+01	1.65827618092E+02	-4.73069485575E+01	-5.04066793404E+01	-5.85852271833E+00	-8.60385517833E-01
1.69805533948E+06	-1.23509463799E+01	1.37679852503E+02	1.82167507907E+01	1.65722716081E+02	-4.95503055109E+01	1.65450379271E+02	-5.80231035256E+00	-9.64170668247E-01
1.72024669408E+06	-1.33460778122E+01	-1.49735620029E+02	1.82583415654E+01	1.65244746851E+02	-4.24816658498E+01	2.39649189003E+01	-5.90084657976E+00	-9.26194978430E-01
1.74243804867E+06	-1.31518983566E+01	-1.78987176441E+02	1.82144180495E+01	1.64998920621E+02	-4.53488337874E+01	-7.58383118821E+01	-5.83582618681E+00	-7.46528434629E-01
1.76462940327E+06	-1.76394101951E+01	-1.69312170974E+02	1.82479274621E+01	1.64733003087E+02	-3.76693518696E+01	-1.06729281798E+01	-5.90876197923E+00	-1.16517478778E+00
1.78682075786E+06	-1.53609796433E+01	-1.65670920680E+02	1.82324519719E+01	1.64505685176E+02	-3.96308860502E+01	-1.62222644980E+02	-5.80794917038E+00	-6.22401534142E-01
1.80901211246E+06	-2.18332518711E+01	-1.38575773890E+02	1.82799569435E+01	1.64542888760E+02	-4.23629384908E+01	-7.79431808371E+01	-5.86781862058E+00	-5.06277587621E-01
1.83120346705E+06	-1.86556961188E+01	1.78766888514E+02	1.82544579972E+01	1.64247606037E+02	-5.04206028162E+01	1.72131331111E+02	-5.81656605956E+00	-9.79509385892E-01
1.85339482165E+06	-1.26222864820E+01	1.75619081791E+02	1.82298337426E+01	1.63954153444E+02	-4.25425355295E+01	3.33914566442E+01	-5.84867489428E+00	-1.15247256222E+00
1.87558617624E+06	-2.32936711812E+01	-1.65900787515E+02	1.82535395007E+01	1.63841772724E+02	-5.75151728962E+01	-1.40247528113E+02	-5.85460062391E+00	-9.87072842127E-01
1.89777753084E+06	-1.91923552416E+01	-1.78446657525E+02	1.82490797420E+01	1.63564063949E+02	-4.96792472876E+01	7.11094063242E+00	-5.85281108648E+00	-1.14469120346E+00
1.91996888543E+06	-1.95467606822E+01	1.56718869159E+02	1.82412108359E+01	1.63456680964E+02	-5.60962049038E+01	-9.03145193955E+01	-5.85002314093E+00	-1.05774229038E+00
1.94216024003E+06	-1.65888085027E+01	1.77386000647E+02	1.82314173335E+01	1.63274701945E+02	-3.75774359061E+01	-2.98345515453E+01	-5.86702043645E+00	-9.44526154705E-01
1.96435159462E+06	-1.87652143251E+01	1.49433565117E+02	1.82481473970E+01	1.63135279536E+02	-4.63141717848E+01	5.71074120159E+01	-5.86004452020E+00	-1.12506108100E+00
1.98654294922E+06	-1.72716914037E+01	-1.73307685659E+02	1.82418814739E+01	1.62842059625E+02	-4.41136850079E+01	1.55730840584E+02	-5.79030214491E+00	-1.08106927641E+00
2.00873430381E+06	-1.44722998415E+01	1.71549383685E+02	1.82318481653E+01	1.62470245241E+02	-4.51594286685E+01	3.86285524984E+01	-5.86232259320E+00	-1.13616635190E+00
2.03092565841E+06	-1.51549407973E+01	-1.13819956744E+02	1.82878553685E+01	1.62227005706E+02	-4.28845651829E+01	2.52875654923E+00	-5.88435553436E+00	-1.05948022084E+00
2.05311701300E+06	-2.82986676620E+01	1.58818802995E+02	1.82556112355E+01	1.62291852061E+02	-4.50834595562E+01	-4.21451195096E+01	-5.86477314042E+00	-8.22503502467E-01
2.07530836760E+06	-1.72171718264E+01	1.73864448387E+02	1.82237671868E+01	1.61933912884E+02	-3.83565144216E+01	1.91856522847E+01	-5.87655109331E+00	-1.24272772319E+00
2.09749972219E+06	-1.84630993910E+01	-1.47389035413E+02	1.82420304215E+01	1.61566437607E+02	-4.86080701794E+01	-1.65455305463E+02	-5.78689320607E+00	-7.91622903994E-01
2.11969107679E+06	-1.81117923676E+01	1.37053522361E+02	1.82198319679E+01	1.61740109415E+02	-4.31425741071E+01	1.81169842236E+00	-5.87506424789E+00	-9.90602369208E-01
2.14188243138E+06	-1.83127813808E+01	1.77682836835E+02	1.82269314452E+01	1.61394836013E+02	-4.55738695353E+01	1.04412499789E+02	-5.82910710032E+00	-1.41420849340E+00
2.16407378598E+06	-1.63224301073E+01	-1.38227305679E+02	1.82480792592E+01	1.60843000550E+02	-4.12492562431E+01	4.76145601016E+01	-5.88233729701E+00	-1.38910666739E+00
2.18626514057E+06	-1.70027917521E+01	1.73152789059E+02	1.82133792163E+01	1.60911639601E+02	-3.78704148844E+01	1.44688972184E+02	-5.74418687177E+00	-1.50359410378E+00
2.20845649517E+06	-1.87656474219E+01	-1.56801272324E+02	1.82524731865E+01	1.60692575301E+02	-4.80291200796E+01	2.01338411892E+00	-5.86194045742E+00	-1.34898890143E+00
2.23064784976E+06	-1.74044025891E+01	-1.66098633518E+02	1.82321896392E+01	1.60315971774E+02	-4.35466939235E+01	1.11421246237E+01	-5.85737847588E+00	-1.39446578962E+00
2.25283920436E+06	-2.20853794053E+01	-1.51934599923E+02	1.82535411117E+01	1.60162678095E+02	-3.97630445814E+01	-6.20027871596E+01	-5.88015836738E+00	-9.95399374024E-01
2.27503055895E+06	-2.93096271042E+01	-1.62318889654E+02	1.82409689378E+01	1.60231617447E+02	-5.02418686675E+01	-7.03206549589E+01	-5.85534612357E+00	-1.01986451501E+00
2.29722191355E+06	-1.56643784849E+01	-1.77140985066E+02	1.82046520108E+01	1.59900320022E+02	-4.77219232611E+01	-8.47270014095E+01	-5.83366549456E+00	-1.15459881810E+00
2.31941326814E+06	-1.87240907805E+01	1.65640260025E+02	1.81975731926E+01	1.59588389130E+02	-4.72646618452E+01	5.42645823364E+01	-5.82571450831E+00	-1.24815721184E+00
2.34160462274E+06	-2.24514487131E+01	1.68332647143E+02	1.82087168425E+01	1.59450905605E+02	-4.73256026339E+01	-9.21680019152E+01	-5.85610579267E+00	-1.18073896026E+00
2.36379597733E+06	-1.84496828097E+01	1.52485871744E+02	1.82017608638E+01	1.59366904178E+02	-3.86707744018E+01	-1.56969096977E+02	-5.76218683017E+00	-7.58826377590E-01
2.38598733193E+06	-1.71448840158E+01	-1.71729391234E+02	1.82064909950E+01	1.58879629195E+02	-4.37578484018E+01	-1.00556085771E+02	-5.81892020562E+00	-1.08642473843E+00
2.40817868652E+06	-1.95274470399E+01	1.67501578747E+02	1.81965033869E+01	1.59132900794E+02	-4.31537966061E+01	1.08272901044E+02	-5.82470540578E+00	-1.36901176346E+00
2.43037004112E+06	-1.59130082267E+01	1.75533230495E+02	1.81780810089E+01	1.58612428778E+02	-4.86268409695E+01	7.52234901978E+01	-5.81056097351E+00	-1.84197532953E+00
2.45256139571E+06	-1.63067637554E+01	-1.77696485138E+02	1.81891910244E+01	1.58394365533E+02	-6.31755478853E+01	-2.59217471783E+01	-5.85424613309E+00	-1.16770486758E+00
2.47475275031E+06	-1.92275064665E+01	-1.32296505784E+02	1.82332160449E+01	1.58237876484E+02	-6.31027843560E+01	-9.80978868223E+01	-5.84335119852E+00	-1.22178347130E+00
2.49694410490E+06	-1.71276255705E+01	-1.65270678944E+02	1.82156453629E+01	1.57995006970E+02	-4.24235849987E+01	-3.87392210439E+01	-5.88952682214E+00	-1.13254568323E+00
2.51913545950E+06	-2.17511559335E+01	1.78892843855E+02	1.82079759367E+01	1.57760839915E+02	-4.47533708712E+01	-1.17054011104E+02	-5.79291267998E+00	-1.06006337916E+00
2.54132681409E+06	-1.61089024307E+01	1.73664053343E+02	1.81743438842E+01	1.57624829883E+02	-4.59019985295E+01	-6.48565733319E+01	-5.86472852959E+00	-1.14873631810E+00
2.56351816869E+06	-1.31118490706E+01	-1.74536220232E+02	1.81713773165E+01	1.57069754254E+02	-3.14145999630E+01	6.07502474068E+01	-5.85472149503E+00	-2.24985285573E+00
2.58570952328E+06	-2.46028234618E+01	-1.30026897305E+02	1.82154303854E+01	1.57115041704E+02	-6.15536472986E+01	4.31963326197E+00	-5.85201043450E+00	-1.13373919276E+00
2.60790087788E+06	-2.16498941026E+01	1.68100263730E+02	1.81937117138E+01	1.57129335390E+02	-4.42799346840E+01	-5.36123092353E+00	-5.87591120492E+00	-1.21323839684E+00
2.63009223247E+06	-1.67486474202E+01	1.70916915860E+02	1.81688931755E+01	1.56795185881E+02	-6.50186598239E+01	-3.23446524024E+01	-5.85339424538E+00	-9.02524213747E-01
2.65228358707E+06	-1.33388032546E+01	-1.57918112951E+02	1.81906159393E+01	1.56376661841E+02	-4.87683034041E+01	-9.06217251821E+01	-5.81655306981E+00	-1.17531344372E+00
2.67447494166E+06	-1.68905927999E+01	-1.75846378223E+02	1.81750655691E+01	1.56444988027E+02	-5.01349783426E+01	1.38530683122E+02	-5.81904002081E+00	-1.40296535324E+00
2.69666629626E+06	-2.07439035683E+01	1.70005736687E+02	1.81782104515E+01	1.56126210687E+02	-4.54550026823E+01	2.52425649341E+01	-5.87823047372E+00	-1.61018618734E+00
2.71885765085E+06	-1.73923798383E+01	1.79429425215E+02	1.81608892625E+01	1.56068160446E+02	-3.69622207954E+01	1.69374346016E+02	-5.75340630019E+00	-1.33404435832E+00
2.74104900545E+06	-1.96816554567E+01	-1.46146905173E+02	1.81991444594E+01	1.55837379750E+02	-5.19128735125E+01	1.21035454607E+02	-5.78034857801E+00	-1.35524983164E+00
2.76324036004E+06	-1.70513068691E+01	-1.71528392117E+02	1.81633472442E+01	1.55474369541E+02	-4.23878024638E+01	1.22147801399E+01	-5.89754399454E+00	-1.65283119784E+00
2.78543171463E+06	-1.52015107545E+01	1.78574412578E+02	1.81563490354E+01	1.55247540386E+02	-5.49722931100E+01	4.96447642558E+01	-5.84207701142E+00	-1.26491874203E+00
2.80762306923E+06	-1.80054315135E+01	2.31532577992E+01	1.82133691871E+01	1.55714328770E+02	-4.58469068261E+01	1.44726149333E+02	-5.78458524776E+00	-1.46282268378E+00
2.82981442382E+06	-1.68543148850E+01	-1.60230948211E+02	1.81718470395E+01	1.54660474195E+02	-5.03574532323E+01	9.08718078453E+01	-5.83893250559E+00	-1.63141847802E+00
2.85200577842E+06	-2.17873352950E+01	-1.54205157355E+02	1.81906329297E+01	1.54633891611E+02	-4.51305929849E+01	-1.50836165049E+02	-5.83435568516E+00	-1.09100237411E+00
2.87419713301E+06	-1.98617471279E+01	1.74165186066E+02	1.81822047212E+01	1.54493635882E+02	-4.23256646836E+01	1.60035478262E+02	-5.77930849840E+00	-1.54526064015E+00
2.89638848761E+06	-1.83994788748E+01	1.47018313335E+02	1.81333634275E+01	1.54355783796E+02	-4.42221179969E+01	-1.13771038037E+02	-5.83628747416E+00	-1.13828072560E+00
