# Hz S DB R 50
! CMT, M5065, 19127446, 24.2.4/2
! Date: 10/29/2024 1:10:02 PM
! Data: Format (Calibration Info)
! Freq	S11:dB/Ang(F2)	S21:dB/Ang(F2)	S12:dB/Ang(F2)	S22:dB/Ang(F2)
3.00000000000E+05	-1.10929004958E+01	-1.73889002830E+02	6.95863285196E+00	-1.77774193474E+02	-3.42066257400E+01	-4.87171329715E+01	-6.02494692901E+00	-4.01661076000E-01
3.22191354595E+05	-1.39085579152E+01	1.53241145997E+02	6.99486204010E+00	-1.78284105930E+02	-4.38031211107E+01	2.88554233851E+01	-6.06042450923E+00	-1.74691051729E-01
3.44382709190E+05	-9.19587363552E+00	-1.58238638685E+02	7.00876976730E+00	-1.78261951574E+02	-4.72052940551E+01	1.52560449594E+01	-6.02900322807E+00	-2.00021219228E-01
3.66574063785E+05	-1.28979037837E+01	1.56575923517E+02	7.06490175968E+00	-1.78684306782E+02	-3.70125304448E+01	-5.09869901733E+01	-5.98430708248E+00	-1.33540175884E-01
3.88765418380E+05	-1.26121493680E+01	1.68766898197E+02	7.01556824723E+00	-1.79074302530E+02	-3.52705511812E+01	-1.70468488755E+02	-6.00192163074E+00	-3.73619766868E-01
4.10956772975E+05	-9.23322046463E+00	-1.79006973660E+02	7.14674754429E+00	-1.79218456855E+02	-3.91387715857E+01	9.61213605716E+01	-6.01263780564E+00	-3.37200013449E-01
4.33148127570E+05	-9.74631362962E+00	-1.74236024529E+02	7.05324382000E+00	-1.79993933381E+02	-4.03357938016E+01	-1.16131471525E+01	-6.04581431189E+00	-2.67704267594E-01
4.55339482165E+05	-9.32244137674E+00	1.65196862599E+02	7.06713615062E+00	1.79865281414E+02	-3.60889434858E+01	9.88213168858E+01	-6.03588312303E+00	-5.57965043141E-01
4.77530836760E+05	-1.05792630553E+01	-1.73910939307E+02	7.02771313814E+00	-1.79876885755E+02	-3.23342825431E+01	-5.81590748989E+01	-6.05094320847E+00	-1.89494197525E-01
4.99722191355E+05	-1.02354537702E+01	1.79113764639E+02	6.95349648011E+00	1.79951418903E+02	-4.45192608377E+01	1.52341627401E+01	-6.00807770094E+00	-5.09259911300E-01
5.21913545950E+05	-8.28945085305E+00	-1.76599971687E+02	7.08175686083E+00	1.79705692385E+02	-3.95664123915E+01	-4.83544746514E+01	-6.00507174546E+00	-3.27346787961E-01
5.44104900545E+05	-1.10025771528E+01	-1.42273649074E+02	6.99038024476E+00	1.79393897125E+02	-3.90018935532E+01	1.71993623647E+02	-5.99570279566E+00	-2.68195909919E-01
5.66296255139E+05	-1.03906546235E+01	-1.67245120957E+02	7.03925424989E+00	1.79340030362E+02	-4.36085858076E+01	9.52926450580E+01	-6.05716130628E+00	-4.09674282229E-01
5.88487609734E+05	-1.14546459456E+01	-1.71849692329E+02	7.04506241070E+00	1.79093129439E+02	-4.72045495252E+01	1.46485721611E+02	-6.02586988289E+00	-3.46844367956E-01
6.10678964329E+05	-8.64419486982E+00	1.79343614906E+02	7.08192049163E+00	1.78987967574E+02	-3.90369430263E+01	1.03346655480E+02	-6.06061518570E+00	-4.55752688704E-01
6.32870318924E+05	-9.94777985422E+00	1.62546960535E+02	7.04110770991E+00	1.78473531489E+02	-4.30974384009E+01	-1.25201944272E+02	-5.98067495866E+00	-3.86627758400E-01
6.55061673519E+05	-1.18588331711E+01	1.64361833744E+02	7.00517271783E+00	1.78577532288E+02	-3.58202547599E+01	-7.18311264114E+01	-6.01258867740E+00	-8.96889201701E-02
6.77253028114E+05	-9.14245095513E+00	-1.78623088622E+02	6.99718646976E+00	1.78238731025E+02	-4.20068874448E+01	2.11464536768E+01	-6.04625997490E+00	-6.51765566526E-01
6.99444382709E+05	-8.77944139025E+00	1.73710221505E+02	7.01032172625E+00	1.78419540007E+02	-3.86634863179E+01	-1.51243364797E+02	-6.00982499290E+00	-3.84356753891E-01
7.21635737304E+05	-1.34240185037E+01	1.68776291330E+02	6.98463710830E+00	1.78129485679E+02	-4.05784945095E+01	8.38308851435E+01	-6.02734419708E+00	-4.53425238903E-01
7.43827091899E+05	-8.98962311205E+00	-1.59757139242E+02	7.03421432547E+00	1.77922911020E+02	-4.02330576225E+01	-9.35354100628E+01	-6.03083814667E+00	-4.17824238285E-01
7.66018446494E+05	-1.54026159591E+01	-1.78421476906E+02	7.01179614771E+00	1.77400484724E+02	-4.33863201678E+01	9.25068963939E+01	-6.02097065499E+00	-6.04595957335E-01
7.88209801089E+05	-1.15030830331E+01	1.62762297114E+02	7.03048002279E+00	1.77627240759E+02	-4.54246792704E+01	-1.15063593984E+02	-5.99451807000E+00	-6.07820149614E-01
8.10401155684E+05	-7.65898457576E+00	-1.61404272188E+02	7.05323977213E+00	1.77493625927E+02	-3.99489494436E+01	8.56602800484E+01	-6.05147036422E+00	-5.04884389497E-01
8.32592510279E+05	-1.19391883675E+01	-1.55827112501E+02	7.09162682150E+00	1.77858303594E+02	-3.83360424018E+01	6.92970608327E+01	-6.06138575773E+00	-3.49770981657E-01
8.54783864874E+05	-1.03117112311E+01	1.47949721717E+02	7.09415911949E+00	1.76830973291E+02	-4.06165837922E+01	1.41618282536E+02	-5.99966069768E+00	-7.27502514343E-01
8.76975219469E+05	-9.26186137246E+00	-1.73259598565E+02	7.07756464201E+00	1.76863513209E+02	-3.63377794536E+01	-8.34803515543E+01	-6.01569932476E+00	-5.33879867060E-01
8.99166574064E+05	-8.98010426248E+00	-1.62595951569E+02	7.04222033331E+00	1.77078569965E+02	-3.94430822598E+01	5.20821094446E+01	-5.99020013873E+00	-6.21920396123E-01
9.21357928659E+05	-7.99358673452E+00	1.71520900709E+02	7.09454853281E+00	1.75984836117E+02	-4.23359487076E+01	-1.38691571482E+02	-6.02035826376E+00	-7.25640145372E-01
9.43549283254E+05	-9.51034570239E+00	-1.78559550047E+02	7.02581010731E+00	1.76632500634E+02	-4.46690774569E+01	1.33649331837E+02	-6.02570919402E+00	-4.60975374162E-01
9.65740637849E+05	-1.03117311092E+01	1.73032253106E+02	7.06240081103E+00	1.76467920845E+02	-4.93493743590E+01	-5.52517392663E+01	-6.05988213179E+00	-6.48774983129E-01
9.87931992444E+05	-8.07322281089E+00	1.63773949569E+02	7.05283795632E+00	1.76463234820E+02	-3.91492019095E+01	-5.27920241651E+01	-6.01021052257E+00	-5.17539852947E-01
1.01012334704E+06	-1.19793950687E+01	-1.62741816585E+02	7.02600125558E+00	1.76182501656E+02	-3.84938669411E+01	1.58693134019E+02	-6.03766503643E+00	-4.83976864527E-01
1.03231470163E+06	-1.02497914313E+01	1.76660289308E+02	7.04875402908E+00	1.75628594536E+02	-3.59401906372E+01	1.07774687228E+02	-5.96837299360E+00	-5.35614707075E-01
1.05450605623E+06	-1.04093237901E+01	-1.75139562282E+02	7.07657508472E+00	1.76067346690E+02	-4.28768920212E+01	1.71237773990E+02	-6.05573474288E+00	-3.70694109690E-01
1.07669741082E+06	-8.02846029314E+00	1.74241664825E+02	7.02232090197E+00	1.75659687159E+02	-4.47321237215E+01	-1.79972849448E+01	-6.02647562146E+00	-4.67407481850E-01
1.09888876542E+06	-9.71546774965E+00	-1.51039344745E+02	7.08118992258E+00	1.76434215275E+02	-4.85126622389E+01	6.25511940544E+01	-6.00194886634E+00	-4.56372228933E-01
1.12108012001E+06	-1.19760680598E+01	-1.46720019629E+02	6.97133981960E+00	1.75799470681E+02	-5.46817922083E+01	1.10799397537E+02	-6.03330130321E+00	-6.73881078498E-01
1.14327147461E+06	-1.07031864468E+01	1.47455113395E+02	7.03505618603E+00	1.75721912058E+02	-4.74139847826E+01	1.70523351486E+02	-6.00346442224E+00	-5.18749459979E-01
1.16546282920E+06	-1.65030278917E+01	-1.64821977740E+02	7.10526693640E+00	1.75277277133E+02	-4.70651669408E+01	1.06852635758E+02	-6.04693392695E+00	-5.05415744637E-01
1.18765418380E+06	-1.02217559126E+01	-1.70460910470E+02	7.00742198816E+00	1.75219091703E+02	-4.70314344541E+01	-1.65498523979E+02	-5.97512836792E+00	-5.96849080539E-01
1.20984553839E+06	-9.91627340777E+00	-1.75584578664E+02	7.04660545788E+00	1.75108906616E+02	-3.82280797461E+01	1.67838085447E+02	-6.01448905735E+00	-9.89001433529E-01
1.23203689299E+06	-1.01232341320E+01	-1.71124898709E+02	7.02676760386E+00	1.75382401445E+02	-3.62279343907E+01	-4.66075003500E+01	-6.04695172503E+00	-7.52458867000E-01
1.25422824758E+06	-8.53961777837E+00	-1.73892712273E+02	7.04195416930E+00	1.75571558146E+02	-4.10172976670E+01	-1.03735007667E+02	-6.04557678646E+00	-6.32476848351E-01
1.27641960218E+06	-9.57447418585E+00	-1.75784532036E+02	7.03884434849E+00	1.74810489516E+02	-4.27141093252E+01	6.12485743882E+01	-6.01725959057E+00	-4.55567630801E-01
1.29861095677E+06	-7.96461898168E+00	1.69321121567E+02	7.12250847686E+00	1.74197932464E+02	-3.79118883300E+01	-9.90157365996E+01	-6.04974152999E+00	-6.96671831938E-01
1.32080231137E+06	-8.35028369652E+00	1.74148910797E+02	7.08179746992E+00	1.74601176984E+02	-3.60482008915E+01	4.62743619030E+01	-5.97638590426E+00	-9.58036798475E-01
1.34299366596E+06	-7.57136144730E+00	1.70611417386E+02	7.08654348066E+00	1.73943989644E+02	-3.84580085806E+01	-1.46369827418E+02	-6.03672989677E+00	-8.46486919455E-01
1.36518502056E+06	-1.27377952449E+01	-1.73564345163E+02	7.00640713863E+00	1.74587020477E+02	-4.04281896761E+01	-5.47959159060E+01	-6.03253976440E+00	-7.06807754520E-01
1.38737637515E+06	-7.84265884105E+00	-1.66007358253E+02	7.10561688541E+00	1.73753046460E+02	-4.85514431059E+01	-1.70712889172E+02	-6.04873938815E+00	-6.42966429221E-01
1.40956772975E+06	-8.90613770119E+00	1.70531329098E+02	6.99549612329E+00	1.74061132059E+02	-3.68242253066E+01	2.52831078798E+01	-5.97958531043E+00	-6.79735678770E-01
1.43175908434E+06	-1.31118660902E+01	1.57890022252E+02	7.08868430415E+00	1.73798872112E+02	-3.62943126444E+01	-1.14882910963E+02	-6.07764203850E+00	-7.49618752209E-01
1.45395043894E+06	-8.04027381608E+00	-1.76215932098E+02	7.08265012656E+00	1.73728828767E+02	-3.58469784060E+01	9.15154463522E+01	-6.01525443630E+00	-6.05187303771E-01
1.47614179353E+06	-1.04220794527E+01	1.68493987597E+02	7.01173583559E+00	1.73547091755E+02	-3.36301860660E+01	-4.86928156565E+01	-6.02924486647E+00	-8.00489357808E-01
1.49833314813E+06	-1.44073115459E+01	1.70532561597E+02	7.04965519698E+00	1.73239343984E+02	-4.77612984182E+01	-5.10435694028E+01	-6.01257815126E+00	-9.28392869110E-01
1.52052450272E+06	-9.91744976475E+00	-1.67361594879E+02	7.06948927587E+00	1.73365203688E+02	-3.84039992713E+01	-6.15617813286E+01	-6.01937134722E+00	-8.06447774719E-01
1.54271585732E+06	-1.18286580481E+01	1.71554716809E+02	7.06459021039E+00	1.73059178703E+02	-4.11951478164E+01	2.61757650003E+01	-6.00147463477E+00	-9.79431224635E-01
1.56490721191E+06	-9.63168738995E+00	1.62616104048E+02	7.04355758396E+00	1.73054158597E+02	-3.63635716901E+01	-8.98408129233E+01	-6.03219425942E+00	-9.25789706978E-01
1.58709856651E+06	-1.05154775894E+01	-1.76167214719E+02	7.02055631489E+00	1.73131092539E+02	-3.40282130135E+01	1.35997461912E+02	-6.01519962687E+00	-9.80923349178E-01
1.60928992110E+06	-1.01680981993E+01	1.74519050732E+02	6.99886048765E+00	1.72790319309E+02	-3.57494719417E+01	-4.56508877007E+01	-6.03423660088E+00	-7.25101854432E-01
1.63148127570E+06	-9.86468240928E+00	-1.67499949333E+02	6.97501930354E+00	1.73157786261E+02	-4.41571328911E+01	1.52632262731E+02	-6.04236781046E+00	-1.08986741199E+00
1.65367263029E+06	-1.25845686456E+01	1.77477125074E+02	7.05609976284E+00	1.72757967272E+02	-5.82841295177E+01	-1.28714920443E+02	-6.00633182249E+00	-7.22103125850E-01
1.67586398489E+06	-1.15283031118E+01	1.68229564584E+02	7.14350195584E+00	1.72930169734E+02	-3.99528020445E+01	7.70681827648E+01	-5.98448701299E+00	-6.90343425185E-01
1.69805533948E+06	-1.21054282898E+01	-1.66927105951E+02	7.06061858711E+00	1.72531479580E+02	-4.89041320598E+01	-3.81979934177E+01	-6.00331218101E+00	-9.28813841290E-01
1.72024669408E+06	-8.31788006800E+00	-1.74697462132E+02	7.06316466522E+00	1.72602810136E+02	-4.18362725916E+01	-1.19057895483E+01	-6.01241024585E+00	-8.05894734724E-01
1.74243804867E+06	-1.45258020153E+01	1.75990213349E+02	7.09312055754E+00	1.72389274702E+02	-4.12758212035E+01	7.62593624445E+01	-6.01706250488E+00	-6.62895993296E-01
1.76462940327E+06	-2.08708783455E+01	1.63852023973E+02	6.94509422043E+00	1.72615724304E+02	-3.88564479114E+01	-3.94249599130E+01	-6.03142136594E+00	-9.99912706655E-01
1.78682075786E+06	-1.91473101508E+01	-1.71868413691E+02	7.05120648473E+00	1.71978443246E+02	-3.76252940792E+01	1.78627131111E+02	-5.97882967960E+00	-8.30531725505E-01
1.80901211246E+06	-9.89650097248E+00	1.65377226332E+02	6.99654369022E+00	1.72230917353E+02	-3.31389780700E+01	8.20951520857E+01	-5.97244175311E+00	-1.02332359498E+00
1.83120346705E+06	-1.17633943794E+01	1.74099700356E+02	7.03988121978E+00	1.71917425618E+02	-3.51739687167E+01	2.79670574120E+01	-6.01723554982E+00	-1.10963917503E+00
1.85339482165E+06	-1.21419659247E+01	1.55878337377E+02	7.05536922373E+00	1.71643508272E+02	-4.57747853219E+01	-1.99874808836E+01	-6.02975448972E+00	-8.55612553271E-01
1.87558617624E+06	-1.00592615847E+01	-1.79194217804E+02	7.02390033715E+00	1.71396708495E+02	-4.05252662711E+01	1.64588287194E+01	-6.07379254780E+00	-9.05600576788E-01
1.89777753084E+06	-1.22858104893E+01	1.74517652185E+02	7.02057167307E+00	1.71583183076E+02	-4.54809193300E+01	-7.76312733605E+01	-6.01282505305E+00	-8.48458061450E-01
1.91996888543E+06	-1.07423897548E+01	-1.68244159138E+02	7.00963175304E+00	1.71710676465E+02	-4.44591324437E+01	4.29310191210E+01	-6.03642992809E+00	-1.03224411477E+00
1.94216024003E+06	-9.35090965601E+00	1.79322869834E+02	7.03856949844E+00	1.71735083014E+02	-5.73667668848E+01	-1.20853071191E+02	-6.01491158407E+00	-1.04952002398E+00
1.96435159462E+06	-7.91220594665E+00	1.73592226017E+02	7.02735181234E+00	1.71667563440E+02	-3.59207888944E+01	-8.15341280889E+01	-5.97257394403E+00	-1.24049839438E+00
1.98654294922E+06	-9.74170205233E+00	1.78178147720E+02	7.08344720761E+00	1.71211620356E+02	-4.15872025411E+01	1.66966651565E+02	-6.03214947122E+00	-9.45571699356E-01
2.00873430381E+06	-8.66641456449E+00	1.65201551376E+02	7.00208611321E+00	1.70881292086E+02	-3.46292007064E+01	1.00417253282E+02	-6.04732574350E+00	-7.80035369165E-01
2.03092565841E+06	-8.97874362910E+00	1.66771811065E+02	7.01127372638E+00	1.71123933011E+02	-3.85078259888E+01	1.59239465423E+02	-6.06337456026E+00	-9.43883830181E-01
2.05311701300E+06	-1.06282772039E+01	1.78132840696E+02	7.08094539499E+00	1.70686568112E+02	-3.51249924317E+01	-1.26749527742E+02	-6.04666328663E+00	-1.22327406285E+00
2.07530836760E+06	-9.64763859630E+00	-1.54018964006E+02	7.15413970881E+00	1.71101969239E+02	-3.96460988913E+01	-5.11246586862E+00	-6.04484633161E+00	-5.55979868107E-01
2.09749972219E+06	-9.16124954751E+00	-1.79097198229E+02	7.04253902492E+00	1.70788728511E+02	-4.25346200085E+01	8.88159311224E+01	-6.01983464344E+00	-1.18426914019E+00
2.11969107679E+06	-1.28819765422E+01	1.67161767052E+02	7.03017875697E+00	1.70619641416E+02	-4.20708189026E+01	1.06865716255E+02	-5.96966855671E+00	-1.19795871469E+00
2.14188243138E+06	-1.17508143058E+01	1.69647474728E+02	7.04751831011E+00	1.70028018241E+02	-3.93743460186E+01	-6.47104337959E+01	-6.06963971894E+00	-1.18038009930E+00
2.16407378598E+06	-1.02584859029E+01	1.64130663302E+02	6.99520011342E+00	1.70470335395E+02	-4.35707237177E+01	1.39084965192E+02	-6.05555975649E+00	-8.71630594822E-01
2.18626514057E+06	-9.02037451576E+00	-1.76488694254E+02	6.99330788844E+00	1.70387006239E+02	-4.27005679595E+01	-1.55385277081E+02	-6.00182451313E+00	-9.76575481913E-01
2.20845649517E+06	-9.84266659885E+00	1.74231818636E+02	7.10776992242E+00	1.70336469652E+02	-4.88695124808E+01	7.39033238053E+01	-5.99585631597E+00	-1.22076293089E+00
2.23064784976E+06	-7.90969886860E+00	-1.58209203894E+02	7.07237942640E+00	1.70651580447E+02	-3.61080946052E+01	6.20123638552E+01	-5.93603019371E+00	-7.78714468300E-01
2.25283920436E+06	-9.25763933633E+00	-1.74591146514E+02	7.08739196922E+00	1.69795575143E+02	-3.92289318993E+01	1.10287142941E+02	-5.98651873144E+00	-1.03413222988E+00
2.27503055895E+06	-9.68447576085E+00	-1.79429941652E+02	7.01882544637E+00	1.69789995075E+02	-4.64173719645E+01	-3.55806464344E+01	-6.04230525173E+00	-1.20076519252E+00
2.29722191355E+06	-1.49800880897E+01	-1.76516270829E+02	6.99663863508E+00	1.68985443924E+02	-4.31001533954E+01	1.06056998982E+02	-6.01079890636E+00	-7.98664690528E-01
2.31941326814E+06	-1.45420567530E+01	1.69570368423E+02	7.10112941933E+00	1.69692111425E+02	-3.84438588766E+01	4.64669418623E+01	-6.03280222417E+00	-9.03343951188E-01
2.34160462274E+06	-9.67138760290E+00	1.64949118052E+02	6.98631364673E+00	1.69395861087E+02	-4.43076187487E+01	5.93548617624E+01	-6.00932381249E+00	-1.10119691049E+00
2.36379597733E+06	-1.00270346381E+01	1.79417459868E+02	7.03024433884E+00	1.69458947820E+02	-4.16242189934E+01	3.36205714970E+01	-6.03213493696E+00	-1.15792396487E+00
2.38598733193E+06	-1.12942793618E+01	-1.56562194145E+02	7.08776152065E+00	1.69091959231E+02	-4.03243792193E+01	-1.25501421708E+02	-6.02079389324E+00	-1.01750065859E+00
2.40817868652E+06	-9.44940156109E+00	1.79136833273E+02	7.02922483611E+00	1.69022848359E+02	-3.98347372095E+01	9.35356435302E+01	-6.04960193248E+00	-1.07655282346E+00
2.43037004112E+06	-1.05607851831E+01	1.69779914212E+02	7.00458809785E+00	1.69248467276E+02	-4.08666036356E+01	-1.65512614339E+02	-6.06043313616E+00	-1.19223419687E+00
2.45256139571E+06	-1.19183594520E+01	-1.69733761088E+02	7.08272622743E+00	1.68829216166E+02	-4.30225542348E+01	4.30382289605E+01	-6.06078154205E+00	-1.15815221409E+00
2.47475275031E+06	-9.85246978093E+00	-1.74567294310E+02	7.04247908566E+00	1.68775935168E+02	-5.53739523471E+01	-6.88455526829E+01	-6.01853818775E+00	-1.07130911999E+00
2.49694410490E+06	-6.84054701550E+00	-1.77371294007E+02	7.04891726807E+00	1.68832011203E+02	-4.61571095823E+01	6.75349377428E+01	-6.03790603219E+00	-1.22420191616E+00
2.51913545950E+06	-8.84887106076E+00	1.66550968140E+02	7.07016876718E+00	1.68554398773E+02	-4.10009771404E+01	-2.39560289476E+01	-6.00462886516E+00	-1.18299803249E+00
2.54132681409E+06	-7.70343039631E+00	-1.74497170019E+02	7.03087156019E+00	1.68498626363E+02	-4.61677232033E+01	-1.25974010675E+02	-6.09552547064E+00	-1.03265242081E+00
2.56351816869E+06	-1.10198670688E+01	1.74401188550E+02	7.13096560719E+00	1.68234122498E+02	-4.44496076812E+01	4.05577581891E+01	-6.05229433830E+00	-1.23619560088E+00
2.58570952328E+06	-1.06253369752E+01	-1.73593164742E+02	7.06595604374E+00	1.68217306583E+02	-3.98056936811E+01	-6.00920455951E+01	-6.05690906147E+00	-1.35869110856E+00
2.60790087788E+06	-1.30013154856E+01	1.74806241219E+02	7.00903862419E+00	1.68016898190E+02	-4.09960438036E+01	-1.65049775280E+02	-6.01044030899E+00	-1.36806648443E+00
2.63009223247E+06	-1.00009579802E+01	-1.58836078258E+02	7.08174187077E+00	1.68078542815E+02	-3.57583578969E+01	-9.69006190916E+01	-5.98682399754E+00	-1.26363763420E+00
2.65228358707E+06	-9.78216826873E+00	1.69251551850E+02	7.03637496119E+00	1.67653311898E+02	-4.79122441404E+01	-9.95008189159E+01	-6.02093585355E+00	-1.78940881141E+00
2.67447494166E+06	-1.22376371779E+01	1.60616009486E+02	7.06838080422E+00	1.68073726447E+02	-4.60242564159E+01	-1.66432557038E+02	-5.96581083703E+00	-1.17430754592E+00
2.69666629626E+06	-1.01643887384E+01	1.64695635484E+02	7.04858247478E+00	1.67764891376E+02	-4.09404276709E+01	-3.89047475740E+00	-6.01615783234E+00	-1.20137151892E+00
2.71885765085E+06	-1.13201852154E+01	-1.52732166007E+02	7.12501769034E+00	1.68085020050E+02	-5.29590880993E+01	-1.19705716947E+02	-6.04936208098E+00	-1.39633799278E+00
2.74104900545E+06	-1.33601271932E+01	-1.78306704354E+02	6.99754985271E+00	1.67125961343E+02	-5.30770340240E+01	1.17848734121E+02	-6.01521671288E+00	-1.06870973364E+00
2.76324036004E+06	-1.06034861838E+01	1.67484365383E+02	7.00185266554E+00	1.67510060682E+02	-4.56356257117E+01	-9.24153688289E+01	-6.04766336627E+00	-1.11610483995E+00
2.78543171463E+06	-1.06391218620E+01	1.79219509545E+02	6.98400487004E+00	1.67173489565E+02	-3.46652943440E+01	1.76426053346E+01	-6.00802534020E+00	-1.38296867447E+00
2.80762306923E+06	-1.40943541677E+01	1.70503385546E+02	7.03610623115E+00	1.67280226171E+02	-3.80251441282E+01	1.42711357932E+02	-5.98969897706E+00	-1.21529849467E+00
2.82981442382E+06	-1.12677328309E+01	1.74390417148E+02	6.97875362034E+00	1.67323603299E+02	-3.65421267263E+01	-8.26683455936E+01	-6.00511092808E+00	-1.27056612782E+00
2.85200577842E+06	-1.02991664856E+01	1.48759883646E+02	7.09308315840E+00	1.66909767157E+02	-3.87919412316E+01	3.79720153293E+01	-5.96384951340E+00	-1.55733955217E+00
2.87419713301E+06	-8.36293449537E+00	1.79107916899E+02	7.09271218050E+00	1.66831624646E+02	-3.84682984084E+01	-1.18470369675E+02	-6.02243708283E+00	-1.39750370214E+00
