# Hz S DB R 50
! CMT, M5065, 19127446, 24.2.4/2
! Date: 10/29/2024 1:05:33 PM
! Data: Format (Calibration Info)
! Freq	S11:dB/Ang(F2)	S21:dB/Ang(F2)	S12:dB/Ang(F2)	S22:dB/Ang(F2)
3.00000000000E+05	-1.01949570832E+01	-1.67767370624E+02	5.71220645469E+00	-1.77904594098E+02	-3.67561795554E+01	-7.79615061554E+01	-6.01734197635E+00	-2.27314689098E-01
3.22191354595E+05	-6.63898351132E+00	1.59984234211E+02	5.81445838969E+00	-1.78760883136E+02	-3.53848495168E+01	-1.16032627294E+02	-6.00917226790E+00	-2.58813121377E-01
3.44382709190E+05	-9.96644754039E+00	1.60994908522E+02	5.67281478728E+00	-1.78723253390E+02	-4.30745959719E+01	1.45409831406E+02	-6.05108037886E+00	-3.35813243367E-01
3.66574063785E+05	-1.22854653356E+01	1.50606429383E+02	5.71916241419E+00	-1.79169146780E+02	-4.06692090038E+01	1.21833893872E+02	-5.97947425729E+00	-2.10974039746E-01
3.88765418380E+05	-1.15917476591E+01	1.79351230307E+02	5.70089178110E+00	-1.78365685258E+02	-3.68080045148E+01	7.79264593373E+01	-6.06675572147E+00	-3.21048313580E-01
4.10956772975E+05	-9.59868285943E+00	-1.73156211445E+02	5.75643480802E+00	-1.78593953075E+02	-6.68122513545E+01	7.20675165013E+01	-6.01135679058E+00	-3.18734732214E-02
4.33148127570E+05	-1.13717883965E+01	-1.76521445452E+02	5.70393302680E+00	-1.79645195815E+02	-4.17989075312E+01	-4.06421461061E+01	-5.99747603649E+00	-4.40882237336E-01
4.55339482165E+05	-8.20209843805E+00	-1.69678083926E+02	5.79550925859E+00	-1.79890832818E+02	-3.83174786671E+01	1.05105812732E+01	-6.01490542575E+00	-3.69240371467E-01
4.77530836760E+05	-1.16562364625E+01	1.53016438427E+02	5.82737582019E+00	1.79927395928E+02	-4.66230586429E+01	-1.17978690813E+02	-6.03513336783E+00	-6.12158819220E-01
4.99722191355E+05	-8.79590213698E+00	-1.68861108778E+02	5.78893051283E+00	-1.79729039376E+02	-4.06218734361E+01	1.38303944245E+02	-6.02567918587E+00	-2.30076831663E-01
5.21913545950E+05	-9.08948267839E+00	-1.77052237563E+02	5.72737026825E+00	1.79481441812E+02	-3.79573095245E+01	1.59775916511E+02	-6.02058775450E+00	-3.52291704317E-01
5.44104900545E+05	-1.29855439518E+01	1.65861386858E+02	5.67486935712E+00	1.79315946540E+02	-3.89708782161E+01	1.27296920734E+02	-6.03704446417E+00	-1.39253051061E-01
5.66296255139E+05	-1.02159530248E+01	1.62978107801E+02	5.67607226295E+00	1.79424500102E+02	-3.67901511774E+01	-1.33108739888E+02	-6.02631101753E+00	-3.96491664563E-01
5.88487609734E+05	-8.49351064115E+00	-1.62911710074E+02	5.69641932044E+00	1.78971462882E+02	-3.47795586781E+01	5.35155700735E+01	-6.06208772181E+00	-6.99619835028E-01
6.10678964329E+05	-9.11640169522E+00	-1.66249799349E+02	5.61455843213E+00	1.79310347544E+02	-4.28732973294E+01	5.97738113957E+01	-6.00268442557E+00	-4.84005702957E-01
6.32870318924E+05	-6.96642348067E+00	1.76264434613E+02	5.76237370938E+00	1.78505428386E+02	-4.02610591968E+01	-1.68871237745E+02	-6.00478922042E+00	-3.72806697859E-01
6.55061673519E+05	-9.66572537190E+00	1.70771532741E+02	5.75995538999E+00	1.78168318635E+02	-4.04934293334E+01	-4.73753539659E+01	-6.05634941365E+00	-2.47618653272E-01
6.77253028114E+05	-9.93368192830E+00	1.74394814857E+02	5.75699269218E+00	1.78650600522E+02	-3.96483868370E+01	-4.56439778687E+01	-6.02936801103E+00	-5.78732663179E-01
6.99444382709E+05	-8.50075605662E+00	-1.75080717253E+02	5.76444916792E+00	1.78510385690E+02	-4.81915161716E+01	1.32526898715E+02	-6.04940828714E+00	-3.53188279629E-01
7.21635737304E+05	-1.29195355995E+01	1.72223286624E+02	5.67767101155E+00	1.78142138390E+02	-4.21898040009E+01	-6.23722381424E+01	-6.00729812312E+00	-5.28408014054E-01
7.43827091899E+05	-1.54405846547E+01	-1.75909052207E+02	5.66734851271E+00	1.78299261362E+02	-3.43260572882E+01	-1.04626658446E+02	-6.00682086635E+00	-5.37861385917E-01
7.66018446494E+05	-1.46112761076E+01	-1.69128457625E+02	5.66206080006E+00	1.78381096446E+02	-5.52815419665E+01	1.74538408243E+02	-6.00244505859E+00	-4.95482274278E-01
7.88209801089E+05	-1.14814332852E+01	1.77163274588E+02	5.75819406976E+00	1.77794174311E+02	-4.12961240025E+01	-5.55378312851E+01	-6.02096674289E+00	-6.05612187125E-01
8.10401155684E+05	-7.36106069685E+00	1.75989194732E+02	5.73494743966E+00	1.77865533829E+02	-4.97798653644E+01	-1.38794569483E+02	-6.00797567420E+00	-5.40854825023E-01
8.32592510279E+05	-1.27975830508E+01	1.44599369616E+02	5.70678865875E+00	1.77419741015E+02	-3.22243773902E+01	7.25853791570E+01	-6.03572821485E+00	-3.63405441744E-01
8.54783864874E+05	-1.27126031994E+01	-1.52849664948E+02	5.74957490117E+00	1.77648016652E+02	-3.98929290647E+01	-2.18552466023E+01	-5.98106221123E+00	-6.34510549712E-01
8.76975219469E+05	-7.54711592521E+00	1.75635008258E+02	5.72068681795E+00	1.77624224446E+02	-5.93406336474E+01	5.82006963720E+01	-6.02660383942E+00	-7.85101111045E-01
8.99166574064E+05	-1.02601363196E+01	1.77175898929E+02	5.75465012493E+00	1.76646847965E+02	-4.55271010892E+01	5.57503729594E+01	-6.03268261540E+00	-5.88451198006E-01
9.21357928659E+05	-1.01521216728E+01	1.52768922318E+02	5.72208910435E+00	1.76727723572E+02	-4.17838754448E+01	-9.04058444810E+01	-6.00985141456E+00	-5.68884359662E-01
9.43549283254E+05	-7.68922543977E+00	1.75559045429E+02	5.72471570069E+00	1.77266199675E+02	-4.61031434227E+01	1.14462757118E+02	-6.01248914699E+00	-6.30576459335E-01
9.65740637849E+05	-8.36812006165E+00	-1.60619345903E+02	5.79583631056E+00	1.76494705734E+02	-4.14307419725E+01	1.25703307480E+01	-6.00765246033E+00	-6.37190670806E-01
9.87931992444E+05	-1.13372202691E+01	-1.67448337978E+02	5.73480472328E+00	1.76587839579E+02	-4.10336228992E+01	1.31795066118E+02	-5.99631643562E+00	-5.10738981148E-01
1.01012334704E+06	-9.29924510733E+00	1.70647582360E+02	5.77452630176E+00	1.76414010031E+02	-4.30919516850E+01	-1.51814490531E+02	-6.00493784349E+00	-5.10822316411E-01
1.03231470163E+06	-6.70926249569E+00	-1.63796196652E+02	5.73859310036E+00	1.76566201130E+02	-3.66219442109E+01	-1.55990954812E+01	-6.03365078723E+00	-8.59229128445E-01
1.05450605623E+06	-9.43467723411E+00	1.72562507900E+02	5.80900652012E+00	1.75824737347E+02	-3.48981530027E+01	-1.36566304337E+02	-6.01478520071E+00	-4.86518931783E-01
1.07669741082E+06	-1.11141764325E+01	-1.66785807785E+02	5.68003651024E+00	1.76224281892E+02	-4.92531713172E+01	-2.31460383957E+01	-6.02007873753E+00	-4.41004419367E-01
1.09888876542E+06	-9.62687635534E+00	-1.78754013320E+02	5.68015813689E+00	1.76501193918E+02	-4.17475033994E+01	8.20599324768E+01	-5.98288391471E+00	-6.07147565437E-01
1.12108012001E+06	-9.36625285934E+00	1.67302167189E+02	5.69350649366E+00	1.75634661566E+02	-5.34353503395E+01	1.07495294475E+02	-5.99428839810E+00	-5.33338332700E-01
1.14327147461E+06	-1.03523987392E+01	1.79231741569E+02	5.76597151272E+00	1.75793536383E+02	-4.28348525161E+01	-7.19325106627E+01	-6.02134307787E+00	-6.02525734037E-01
1.16546282920E+06	-1.07565329393E+01	1.74761468211E+02	5.74017188239E+00	1.75898238202E+02	-4.60189499179E+01	9.94037011408E+01	-5.97237243000E+00	-8.37091226531E-01
1.18765418380E+06	-1.18067645170E+01	-1.70166957716E+02	5.65131049135E+00	1.75572577219E+02	-3.90489343597E+01	1.11800008586E+02	-5.99571824834E+00	-6.14987980528E-01
1.20984553839E+06	-1.15749999271E+01	1.67563215290E+02	5.69297457947E+00	1.75671107238E+02	-5.24347183507E+01	-7.46455528567E+00	-6.02636288061E+00	-7.61646947426E-01
1.23203689299E+06	-9.35940716449E+00	1.73712024493E+02	5.70855574968E+00	1.75314810364E+02	-5.05776464909E+01	1.37999788051E+02	-6.05582476322E+00	-4.23253735577E-01
1.25422824758E+06	-1.15146497768E+01	-1.79796657258E+02	5.80029969090E+00	1.75253408311E+02	-4.58714895513E+01	-2.48728243086E+01	-6.02059048836E+00	-7.66315060609E-01
1.27641960218E+06	-1.00289038793E+01	-1.70582814625E+02	5.72966852315E+00	1.74673339118E+02	-3.78485769578E+01	-2.32166413818E+01	-5.99858029158E+00	-6.76820451159E-01
1.29861095677E+06	-1.07828458940E+01	1.76403394942E+02	5.73760943295E+00	1.75187972697E+02	-4.16031738848E+01	1.33051016416E+02	-6.04925030422E+00	-5.33111753829E-01
1.32080231137E+06	-1.19339630352E+01	1.60897813913E+02	5.71262601438E+00	1.74663693782E+02	-4.00178539228E+01	-3.18697082682E+01	-6.02896963913E+00	-1.34320168184E+00
1.34299366596E+06	-9.72215150094E+00	1.65651117548E+02	5.79181170126E+00	1.74360566573E+02	-4.60620425926E+01	7.87656030441E+01	-6.03976963038E+00	-9.63173953727E-01
1.36518502056E+06	-1.05032319176E+01	1.50145372022E+02	5.71982796471E+00	1.74713459664E+02	-3.68771682017E+01	-1.74055341090E+02	-5.98463342036E+00	-7.37390944095E-01
1.38737637515E+06	-1.02523752472E+01	1.54074101564E+02	5.75823475770E+00	1.74622607305E+02	-4.23315882090E+01	-3.20491667512E+01	-6.03355875127E+00	-6.49427854844E-01
1.40956772975E+06	-9.66148888388E+00	-1.60295008244E+02	5.67786720003E+00	1.74503562918E+02	-5.79610398464E+01	1.49869309049E+02	-6.03443774963E+00	-7.91977196354E-01
1.43175908434E+06	-1.70075455163E+01	1.35195451596E+02	5.74036887908E+00	1.74532775955E+02	-3.94906464116E+01	1.71162996892E+02	-6.03342355007E+00	-6.85513372209E-01
1.45395043894E+06	-8.89997274444E+00	-1.78431903015E+02	5.65098286534E+00	1.74565792310E+02	-4.81567881617E+01	9.08840123307E+01	-6.05444131098E+00	-7.27999834535E-01
1.47614179353E+06	-8.39018325258E+00	1.77754157459E+02	5.74535708493E+00	1.74196090078E+02	-3.81957572433E+01	-8.17666104692E+01	-6.01215999552E+00	-7.28520885294E-01
1.49833314813E+06	-9.92230799265E+00	1.66105944332E+02	5.83716214418E+00	1.73655665094E+02	-4.77352272870E+01	-1.43856834589E+02	-6.01083692301E+00	-7.97083540829E-01
1.52052450272E+06	-1.19921862793E+01	1.46075556996E+02	5.77017418828E+00	1.73926394378E+02	-4.15399812330E+01	-4.57132304666E+01	-6.02104565791E+00	-8.93929138521E-01
1.54271585732E+06	-8.72730122284E+00	1.76628725858E+02	5.76077108405E+00	1.74017698964E+02	-4.18566795016E+01	1.60095699431E+02	-6.04092374602E+00	-7.71174102263E-01
1.56490721191E+06	-9.00349924344E+00	1.56281593362E+02	5.73506898742E+00	1.73719033367E+02	-4.18062111860E+01	-1.33149125959E+02	-6.01260596821E+00	-6.97123404882E-01
1.58709856651E+06	-1.27713224650E+01	1.71117716502E+02	5.75642350771E+00	1.73125229639E+02	-3.65766299481E+01	-3.68275662202E+01	-6.03860698811E+00	-8.25137277819E-01
1.60928992110E+06	-8.53644403828E+00	-1.74751090213E+02	5.78796100134E+00	1.73451458823E+02	-4.42046774680E+01	1.12009524945E+02	-6.03095557807E+00	-8.33719696792E-01
1.63148127570E+06	-1.11082555408E+01	1.70760276851E+02	5.74962798944E+00	1.73019658432E+02	-3.92584852779E+01	-3.40407137380E+01	-5.99656040395E+00	-8.79969524412E-01
1.65367263029E+06	-1.02425915911E+01	1.66038793104E+02	5.72578529857E+00	1.73440844080E+02	-4.15932510326E+01	-1.15792793160E+02	-6.00776459871E+00	-9.35438967055E-01
1.67586398489E+06	-1.11510641788E+01	1.75555874862E+02	5.70744275536E+00	1.72943356396E+02	-3.78099078656E+01	-1.16878394292E+02	-5.97457392649E+00	-1.11959907191E+00
1.69805533948E+06	-1.71426222781E+01	1.56566805450E+02	5.74075865438E+00	1.73148734285E+02	-4.12719359977E+01	1.37437678339E+02	-6.02933801757E+00	-6.96937210837E-01
1.72024669408E+06	-1.19401031951E+01	1.66937545148E+02	5.74548380203E+00	1.73213132723E+02	-3.84728525555E+01	-1.73146855852E+02	-6.02661159174E+00	-9.49290267577E-01
1.74243804867E+06	-8.20433169136E+00	-1.36141164363E+02	5.83600287937E+00	1.73462059468E+02	-3.55269835627E+01	1.25374722943E+02	-5.99573456360E+00	-9.32954662088E-01
1.76462940327E+06	-1.10793862132E+01	1.42496946526E+02	5.78646885522E+00	1.72328740533E+02	-3.96394760963E+01	6.80186421034E+01	-5.99592477823E+00	-7.73619490067E-01
1.78682075786E+06	-1.05535808429E+01	1.49099851471E+02	5.73202032522E+00	1.72174178242E+02	-4.05094030021E+01	4.36181958815E+01	-6.03710755377E+00	-6.79305398375E-01
1.80901211246E+06	-1.04698388437E+01	1.74382553111E+02	5.71977344571E+00	1.72427585493E+02	-4.75040502294E+01	-1.67414885474E+02	-5.99755626443E+00	-8.06431061943E-01
1.83120346705E+06	-1.16153175549E+01	1.57618200632E+02	5.73725824566E+00	1.72588959676E+02	-3.70963149493E+01	-5.78488499815E+01	-6.02542179867E+00	-8.56074393844E-01
1.85339482165E+06	-9.72292395635E+00	1.64062912503E+02	5.73855939266E+00	1.72407860888E+02	-4.40782385392E+01	-1.04955445757E+02	-5.99312462726E+00	-1.09927034455E+00
1.87558617624E+06	-9.43093280215E+00	1.79200997087E+02	5.63549344429E+00	1.72112655068E+02	-4.66888959246E+01	1.58838521751E+02	-6.01394136303E+00	-7.45168605536E-01
1.89777753084E+06	-7.89738349852E+00	1.74717817637E+02	5.78590680593E+00	1.72280672337E+02	-3.39537640623E+01	-1.70469381828E+02	-6.01228120246E+00	-9.73135835970E-01
1.91996888543E+06	-1.23133386628E+01	1.72349814406E+02	5.72803812926E+00	1.71694246745E+02	-4.20485605857E+01	1.01137925252E+02	-6.00668694014E+00	-9.07674138955E-01
1.94216024003E+06	-1.09962150020E+01	1.75563233342E+02	5.69072144257E+00	1.71791788581E+02	-3.72666797651E+01	7.98097371634E+01	-5.97396699928E+00	-7.65279254701E-01
1.96435159462E+06	-8.04305645001E+00	-1.73211098832E+02	5.79185278803E+00	1.71858606231E+02	-4.76034165315E+01	-1.03848629458E+02	-6.01434501170E+00	-1.08234724454E+00
1.98654294922E+06	-1.02096624652E+01	-1.71008441596E+02	5.72983994479E+00	1.71351237867E+02	-3.58905893626E+01	-1.51425037269E+02	-6.07437599063E+00	-1.07371154736E+00
2.00873430381E+06	-1.04521916963E+01	-1.69855382804E+02	5.74584483477E+00	1.72006454496E+02	-3.79189066703E+01	-1.10122383015E+02	-5.98351655108E+00	-9.86441206102E-01
2.03092565841E+06	-7.88339969005E+00	1.66439165210E+02	5.70004440096E+00	1.71786510771E+02	-4.04795649167E+01	9.96022863548E+01	-6.01321244310E+00	-1.14989219648E+00
2.05311701300E+06	-5.84704860977E+00	1.68915696399E+02	5.85411170344E+00	1.71492228596E+02	-3.98756202121E+01	7.15494504976E+00	-6.02487397300E+00	-1.08956009395E+00
2.07530836760E+06	-1.03006386028E+01	1.57819210430E+02	5.70909541796E+00	1.71170514550E+02	-4.52668069280E+01	7.69110440938E+01	-6.02924478002E+00	-1.28180472482E+00
2.09749972219E+06	-1.05536482663E+01	1.49557849348E+02	5.74328463455E+00	1.71185786191E+02	-4.35850232202E+01	-1.11125724409E+02	-6.02024512323E+00	-1.20101051418E+00
2.11969107679E+06	-1.37097023535E+01	1.78738501455E+02	5.74049694240E+00	1.71119187438E+02	-3.83297224540E+01	1.68011825396E+02	-6.02812490936E+00	-1.08890353188E+00
2.14188243138E+06	-8.69533243885E+00	-1.72507340097E+02	5.69517812581E+00	1.71397745672E+02	-3.74045465364E+01	1.52139067997E+02	-6.00222993129E+00	-1.01795310414E+00
2.16407378598E+06	-6.29964772678E+00	1.72140737749E+02	5.75935087043E+00	1.71206561806E+02	-3.49640071263E+01	8.96504331943E+01	-6.02521219154E+00	-1.11992372998E+00
2.18626514057E+06	-1.10169881770E+01	1.79970488074E+02	5.80240930724E+00	1.71203603106E+02	-6.21576568647E+01	7.48114286804E+01	-6.01505757080E+00	-9.93428651960E-01
2.20845649517E+06	-1.33289037067E+01	1.77948874147E+02	5.75555139575E+00	1.71161878315E+02	-3.81952505557E+01	6.33811746843E+00	-6.03343438680E+00	-9.69902050327E-01
2.23064784976E+06	-1.03557711350E+01	-1.76705933309E+02	5.79235028129E+00	1.70863819027E+02	-4.46392287555E+01	1.05493737471E+02	-6.01795446145E+00	-1.45768977652E+00
2.25283920436E+06	-9.54235275527E+00	1.72758489395E+02	5.67880035514E+00	1.70003326939E+02	-4.30452364846E+01	-1.33177303287E+02	-6.01979892661E+00	-9.59451333191E-01
2.27503055895E+06	-1.21419406150E+01	-1.73266257045E+02	5.74714127207E+00	1.70287818789E+02	-5.76249743807E+01	-1.71184483166E+02	-6.04129738585E+00	-9.09755057848E-01
2.29722191355E+06	-8.64717221511E+00	1.68292452202E+02	5.69280940246E+00	1.70305511758E+02	-3.88137301371E+01	1.69077379575E+02	-6.02566651966E+00	-1.18149365164E+00
2.31941326814E+06	-9.43026035636E+00	1.56531722177E+02	5.66948478808E+00	1.69907030785E+02	-4.24682150785E+01	-1.62530251607E+02	-6.04199294113E+00	-1.03197472317E+00
2.34160462274E+06	-9.42817187643E+00	-1.66995568678E+02	5.70658163762E+00	1.70307002948E+02	-5.36631475501E+01	5.64950907724E+01	-6.05459274322E+00	-1.00782735706E+00
2.36379597733E+06	-9.86133112360E+00	1.73514924960E+02	5.72257743472E+00	1.70595998899E+02	-4.30000991982E+01	3.87328137346E+01	-6.00953350130E+00	-1.15173014551E+00
2.38598733193E+06	-9.13255769852E+00	1.75393681302E+02	5.68582829387E+00	1.69789578159E+02	-4.15962417989E+01	-3.10840777337E+01	-6.00028702155E+00	-1.33929415329E+00
2.40817868652E+06	-7.73061948645E+00	1.70656933692E+02	5.71885862333E+00	1.69819641054E+02	-4.57071852421E+01	-7.65276823750E+00	-5.98688944747E+00	-1.19455616374E+00
2.43037004112E+06	-8.93093845620E+00	-1.66003126357E+02	5.68199543629E+00	1.69537827368E+02	-4.58055542068E+01	1.22559868001E+02	-6.03239571919E+00	-1.47930029082E+00
2.45256139571E+06	-9.19008278867E+00	-1.79028353615E+02	5.75776516254E+00	1.69528683336E+02	-4.73926176675E+01	1.54630309078E+02	-6.01871288043E+00	-9.95607410819E-01
2.47475275031E+06	-9.84006813077E+00	1.73997189284E+02	5.79285223349E+00	1.69029931958E+02	-4.62385057742E+01	3.15262570611E+01	-6.03366838203E+00	-1.32026423152E+00
2.49694410490E+06	-1.33943550571E+01	1.79816341686E+02	5.73510537531E+00	1.69428150914E+02	-4.35333003356E+01	-6.02813672665E+01	-5.98781322346E+00	-1.35229250392E+00
2.51913545950E+06	-8.59551379211E+00	-1.69150301099E+02	5.80351707302E+00	1.69539545587E+02	-3.89531775974E+01	-1.15640587518E+02	-6.03147188273E+00	-1.25850250679E+00
2.54132681409E+06	-1.08036289416E+01	1.64461858310E+02	5.78591261715E+00	1.69442293097E+02	-3.87935339820E+01	-3.80158536291E+01	-6.00687209182E+00	-1.27064692800E+00
2.56351816869E+06	-1.19690212815E+01	-1.77214919094E+02	5.78793403420E+00	1.69230046818E+02	-3.51798038385E+01	7.72108201657E+01	-5.98829996063E+00	-1.18965595290E+00
2.58570952328E+06	-8.41180570667E+00	1.73782877754E+02	5.72272904034E+00	1.68788214456E+02	-3.91408860311E+01	-1.43281139946E+02	-6.04723782500E+00	-1.22564706287E+00
2.60790087788E+06	-1.12065521126E+01	1.56312347547E+02	5.72075248324E+00	1.68616178473E+02	-4.23266051136E+01	2.23981704026E+01	-6.05508142319E+00	-1.18638228083E+00
2.63009223247E+06	-1.49541258589E+01	-1.74659803469E+02	5.67260426098E+00	1.69073810630E+02	-3.31780250015E+01	6.57022995235E+01	-6.02527767295E+00	-1.12749182808E+00
2.65228358707E+06	-1.01100683634E+01	1.72536164387E+02	5.74846665709E+00	1.68412112994E+02	-4.39889197430E+01	-6.28136625651E+01	-6.01156953137E+00	-1.59434436968E+00
2.67447494166E+06	-1.13261429072E+01	1.75446566088E+02	5.76490230825E+00	1.68490402176E+02	-4.33892411657E+01	9.38066932271E+01	-6.03036227240E+00	-1.60509505638E+00
2.69666629626E+06	-1.23829260370E+01	1.68727453244E+02	5.74823000410E+00	1.68258546514E+02	-3.84636774349E+01	1.09280642336E+02	-6.01227126480E+00	-1.24217628561E+00
2.71885765085E+06	-1.00453164573E+01	1.57796364765E+02	5.78000681992E+00	1.67987598545E+02	-3.26847850160E+01	2.23258268098E+01	-5.98954028328E+00	-1.25879711246E+00
2.74104900545E+06	-9.18644243357E+00	1.76768085367E+02	5.71738172590E+00	1.68479087169E+02	-4.15835629443E+01	-7.61938877279E+00	-6.02618909527E+00	-1.38002327441E+00
2.76324036004E+06	-1.03176510811E+01	1.56419904985E+02	5.71474487492E+00	1.68264414076E+02	-3.59779999347E+01	1.93411225130E+01	-6.04751019574E+00	-1.30036447133E+00
2.78543171463E+06	-1.17270622653E+01	1.52585149580E+02	5.69600360282E+00	1.68370920074E+02	-3.98513390348E+01	-1.42401109320E+02	-6.01978000056E+00	-1.38762053712E+00
2.80762306923E+06	-1.09431852264E+01	1.57973247503E+02	5.76400171323E+00	1.67959746453E+02	-3.64722686272E+01	-7.49559535840E+01	-5.99751098903E+00	-1.18795700270E+00
2.82981442382E+06	-8.82969797640E+00	1.77066579403E+02	5.74903327619E+00	1.67950102978E+02	-4.57229615672E+01	-6.90063243417E+01	-5.98306930606E+00	-1.50992591215E+00
2.85200577842E+06	-1.11480912528E+01	1.72741490566E+02	5.74301279941E+00	1.67764511652E+02	-4.73456827187E+01	-1.57636476231E+02	-6.02014377563E+00	-1.27567991652E+00
2.87419713301E+06	-7.90374266425E+00	1.75637558223E+02	5.71058220167E+00	1.67776391285E+02	-4.25831420723E+01	-1.02182421467E+02	-6.01524376228E+00	-1.18882389671E+00
2.89638848761E+06	-9.95712772336E+00	-1.66476549872E+02	5.75578180111E+00	1.67689838420E+02	-5.64652781364E+01	-1.21763557930E+02	-6.01594328369E+00	-1.38485830112E+00
