# Hz S DB R 50
! CMT, M5065, 19127446, 24.2.4/2
! Date: 10/29/2024 1:11:00 PM
! Data: Format (Calibration Info)
! Freq	S11:dB/Ang(F2)	S21:dB/Ang(F2)	S12:dB/Ang(F2)	S22:dB/Ang(F2)
3.00000000000E+05	-1.12380106147E+01	1.79026755018E+02	7.31389014558E+00	-1.77887524450E+02	-3.88222070352E+01	-1.73016172881E+02	-6.05107014507E+00	-1.46102655449E-01
3.22191354595E+05	-1.36363857840E+01	1.56998243985E+02	7.28970811535E+00	-1.78791636750E+02	-3.71226582290E+01	-4.89715155744E+01	-6.03998563102E+00	-2.34323044429E-01
3.44382709190E+05	-8.37666071994E+00	-1.75476069205E+02	7.30374775706E+00	-1.78356858868E+02	-4.49819747661E+01	1.26957415014E+01	-5.97171252562E+00	-3.36764805817E-01
3.66574063785E+05	-7.82792197817E+00	-1.66068781168E+02	7.19382216093E+00	-1.78732022144E+02	-4.33174622404E+01	2.21348469408E+01	-6.03553070037E+00	-2.19742780138E-01
3.88765418380E+05	-6.89231888822E+00	1.74355945095E+02	7.34022221425E+00	-1.79072691266E+02	-3.83489892110E+01	-1.19561341044E+02	-6.03883238074E+00	-2.00930519855E-01
4.10956772975E+05	-7.46458466131E+00	-1.71343770042E+02	7.26083755941E+00	-1.79037074938E+02	-4.37862699703E+01	5.68700642917E+01	-6.02800462375E+00	-3.47219391559E-01
4.33148127570E+05	-1.21470825989E+01	-1.61544643705E+02	7.23627079904E+00	-1.79990280095E+02	-3.90277419583E+01	1.58998560635E+02	-6.04590168718E+00	-3.43274426254E-01
4.55339482165E+05	-1.10760559450E+01	1.73676317126E+02	7.24737138531E+00	-1.79846431617E+02	-3.91200615321E+01	1.24969928579E+02	-6.02243493836E+00	-3.72226107611E-01
4.77530836760E+05	-8.58857422856E+00	1.79771579089E+02	7.28599266991E+00	-1.79727776538E+02	-4.50086284905E+01	-2.09013154041E+01	-6.02403051381E+00	-9.50649579165E-02
4.99722191355E+05	-8.78335103023E+00	-1.71987456298E+02	7.32908240405E+00	-1.79717723928E+02	-3.89046724231E+01	1.78656176150E+02	-6.01565054117E+00	-7.36935259990E-01
5.21913545950E+05	-8.53065135106E+00	-1.56395440777E+02	7.36418521218E+00	1.79619205577E+02	-5.79957927104E+01	-1.22160374228E+01	-5.98975510650E+00	-3.95590703357E-01
5.44104900545E+05	-1.74547914183E+01	-1.74067139046E+02	7.24842922340E+00	1.79965306002E+02	-3.77487115104E+01	-9.25747866352E+01	-6.02948551632E+00	-7.25288955782E-01
5.66296255139E+05	-1.28366532797E+01	1.60906435573E+02	7.33674840301E+00	1.79549271801E+02	-3.93231533940E+01	-1.77328406990E+02	-6.02867440388E+00	-2.78428703169E-01
5.88487609734E+05	-1.21862364660E+01	1.73799986359E+02	7.33067146116E+00	1.78701046610E+02	-4.58904698734E+01	-1.26874346495E+02	-5.96865879288E+00	-3.89763298014E-01
6.10678964329E+05	-1.12554596389E+01	-1.77962139573E+02	7.27186954475E+00	1.78847985993E+02	-4.79050619820E+01	9.16678404265E+01	-6.01027638108E+00	-5.41152438663E-02
6.32870318924E+05	-8.77108923113E+00	-1.70677147390E+02	7.28051269777E+00	1.78929876183E+02	-3.61220424469E+01	5.36709050935E+01	-6.02706156226E+00	-3.35252957147E-01
6.55061673519E+05	-1.19566785377E+01	-1.70949352359E+02	7.31993130412E+00	1.78818558538E+02	-4.19691224754E+01	1.38077845044E+02	-6.04379215714E+00	-3.26024419676E-01
6.77253028114E+05	-1.24743947424E+01	-1.69445160737E+02	7.25935140135E+00	1.78345433806E+02	-4.45023406480E+01	1.59129796761E+02	-6.00741238106E+00	-4.27665302856E-01
6.99444382709E+05	-1.27310049359E+01	1.77107379030E+02	7.28500556601E+00	1.78070702431E+02	-3.96166182304E+01	-1.68466107237E+02	-6.05848594690E+00	-5.01331357692E-01
7.21635737304E+05	-9.30325415926E+00	-1.72574215300E+02	7.27588641414E+00	1.78470125250E+02	-3.76361316931E+01	1.03651323139E+02	-6.01961622102E+00	-5.40767940607E-01
7.43827091899E+05	-9.11504646906E+00	-1.65476332678E+02	7.30008241256E+00	1.77907724546E+02	-4.29811667486E+01	1.13328385904E+02	-6.03188094766E+00	-3.37063329519E-01
7.66018446494E+05	-1.00365642237E+01	-1.72596409975E+02	7.37594284032E+00	1.77874480839E+02	-3.32608845331E+01	-3.62695984987E+01	-5.98638789212E+00	-7.02147192599E-01
7.88209801089E+05	-1.11603993764E+01	1.48368846937E+02	7.34740555548E+00	1.78165207941E+02	-3.94948983951E+01	-1.18738700775E+02	-6.00844958327E+00	-7.25366106810E-01
8.10401155684E+05	-1.09183898258E+01	1.76202499963E+02	7.38232537691E+00	1.77435146055E+02	-3.77340759032E+01	1.70631883054E+02	-6.08962070348E+00	-4.40395283361E-01
8.32592510279E+05	-1.31782036551E+01	-1.72908327624E+02	7.29614656387E+00	1.77722467527E+02	-3.60119998802E+01	1.63765476216E+02	-6.02841082307E+00	-3.27197892893E-01
8.54783864874E+05	-1.32949832052E+01	1.58202413601E+02	7.28323180016E+00	1.77336135456E+02	-4.09862901790E+01	-4.55769673324E+01	-5.95758396048E+00	-4.83614154875E-01
8.76975219469E+05	-1.11425105164E+01	-1.62645998073E+02	7.25039410171E+00	1.77615722970E+02	-4.20230177715E+01	-8.16297574704E+01	-6.05500972699E+00	-3.98895430703E-01
8.99166574064E+05	-9.96655668814E+00	1.79616581497E+02	7.28646521146E+00	1.77349365341E+02	-3.54749262526E+01	8.52091769700E+01	-6.03024495866E+00	-5.72518928322E-01
9.21357928659E+05	-9.53804409997E+00	1.66806900658E+02	7.33787168586E+00	1.76460248360E+02	-4.26150962152E+01	-1.53882835685E+02	-6.01468379012E+00	-4.97580163379E-01
9.43549283254E+05	-1.11125429477E+01	1.68339587137E+02	7.26186344840E+00	1.76701503521E+02	-3.44345901559E+01	1.39050774957E+01	-6.03716779739E+00	-5.12848697016E-01
9.65740637849E+05	-1.11510873092E+01	-1.72330147055E+02	7.29544585812E+00	1.76516880036E+02	-3.48631800647E+01	-9.61368287835E+01	-6.02792135175E+00	-3.14207701105E-01
9.87931992444E+05	-7.07227195018E+00	-1.58245428206E+02	7.33044219311E+00	1.76371772380E+02	-4.43877704455E+01	7.48192802987E+01	-6.02791245487E+00	-5.13334237513E-01
1.01012334704E+06	-1.26057786973E+01	1.75047366838E+02	7.30006984470E+00	1.76526323014E+02	-3.79989945963E+01	-1.56911042552E+02	-6.02282887728E+00	-6.58868274837E-01
1.03231470163E+06	-1.04413623473E+01	-1.72506384659E+02	7.30757754088E+00	1.76610174941E+02	-3.73497087593E+01	-5.75156169736E+01	-6.01729700794E+00	-6.23423307780E-01
1.05450605623E+06	-7.05633349944E+00	1.68089965122E+02	7.36142509592E+00	1.76258770295E+02	-4.28925800847E+01	4.28784531341E+01	-6.00681344185E+00	-4.47190889748E-01
1.07669741082E+06	-9.98781678106E+00	-1.79845065932E+02	7.37619620847E+00	1.75842126803E+02	-4.28532946298E+01	-1.43031516080E+02	-6.03333987016E+00	-5.37162138569E-01
1.09888876542E+06	-1.13157202615E+01	-1.69411229581E+02	7.29928414530E+00	1.75550495893E+02	-5.24516329128E+01	-1.30504244404E+02	-6.05342051019E+00	-3.18213765863E-01
1.12108012001E+06	-1.69509334601E+01	1.44247259041E+02	7.27562039424E+00	1.76050444212E+02	-4.85104173049E+01	6.56212590397E+01	-6.02583104470E+00	-5.41216490711E-01
1.14327147461E+06	-1.03963844597E+01	1.77905361892E+02	7.32930723772E+00	1.75253995509E+02	-5.57359626425E+01	1.65122535493E+02	-6.00826399423E+00	-5.28162094749E-01
1.16546282920E+06	-1.62705321241E+01	1.47416540254E+02	7.33148946748E+00	1.75203123776E+02	-3.73247790240E+01	-6.89986609228E+01	-6.03610276355E+00	-5.92396334281E-01
1.18765418380E+06	-1.03324264091E+01	1.59003299612E+02	7.25218867411E+00	1.74954080838E+02	-5.26285429805E+01	-1.09302792317E+02	-6.04080245927E+00	-8.17903423929E-01
1.20984553839E+06	-1.06324161883E+01	1.54229987398E+02	7.29619568991E+00	1.74948154644E+02	-3.57372322431E+01	1.01470930539E+02	-6.03732737439E+00	-9.21512320140E-01
1.23203689299E+06	-1.04195777848E+01	-1.67642373792E+02	7.28868768051E+00	1.75251727029E+02	-3.91234395669E+01	1.33139891156E+02	-6.05075669509E+00	-6.17963228537E-01
1.25422824758E+06	-1.08825496473E+01	1.65780736280E+02	7.33698649485E+00	1.74545026478E+02	-4.03978938245E+01	-4.24846616617E+01	-6.01990757849E+00	-4.45885671193E-01
1.27641960218E+06	-8.51484097607E+00	-1.50682345607E+02	7.26037954911E+00	1.75179828700E+02	-4.40610209074E+01	-9.42940892201E+01	-6.03762868414E+00	-6.71181227843E-01
1.29861095677E+06	-7.28790620861E+00	1.76681620343E+02	7.34263716548E+00	1.74445872650E+02	-4.69623606089E+01	-1.58857566120E+02	-6.05093717010E+00	-5.65487682692E-01
1.32080231137E+06	-1.61521200678E+01	1.70923093717E+02	7.30872041019E+00	1.74282589180E+02	-5.30277137850E+01	9.47540975659E+01	-6.04894462593E+00	-8.50058135853E-01
1.34299366596E+06	-1.65863794480E+01	1.71556048327E+02	7.24118855197E+00	1.74187093638E+02	-4.57306009347E+01	-1.07749326622E+02	-6.01802333475E+00	-6.08166312688E-01
1.36518502056E+06	-9.28376113019E+00	-1.64229864973E+02	7.25825971283E+00	1.74710783300E+02	-5.52305000888E+01	1.05216397749E+02	-6.01248996688E+00	-7.66024014924E-01
1.38737637515E+06	-1.19133634838E+01	-1.72796860098E+02	7.27095748541E+00	1.74298586465E+02	-4.41377851774E+01	-1.57596004264E+02	-6.02067379094E+00	-1.00567403561E+00
1.40956772975E+06	-7.00121479950E+00	-1.74356990633E+02	7.35957041102E+00	1.74125662341E+02	-3.60609321148E+01	7.37323550098E+01	-5.98359314769E+00	-6.32931879333E-01
1.43175908434E+06	-1.14116911752E+01	1.71214809219E+02	7.30261524835E+00	1.73572591273E+02	-3.38316199379E+01	1.45530288859E+02	-6.04332732776E+00	-7.94840154734E-01
1.45395043894E+06	-1.03934419914E+01	1.78055290645E+02	7.29226862603E+00	1.73989995938E+02	-3.97476587733E+01	5.48602954014E+01	-6.02430025631E+00	-6.75888129625E-01
1.47614179353E+06	-9.11265321585E+00	1.72134028772E+02	7.35348672813E+00	1.73414807546E+02	-4.87409546378E+01	-3.13180873604E+01	-6.08756733894E+00	-6.64667573462E-01
1.49833314813E+06	-8.81627763536E+00	1.60847137825E+02	7.30715604181E+00	1.73423839714E+02	-4.08415801747E+01	-9.50855329364E+01	-6.02276909852E+00	-8.48414623796E-01
1.52052450272E+06	-1.58965886351E+01	1.66480233360E+02	7.33227269468E+00	1.73275199023E+02	-4.18176908155E+01	9.77521668194E+01	-6.04238751880E+00	-7.22212192051E-01
1.54271585732E+06	-7.83487810545E+00	-1.79852981193E+02	7.32417433565E+00	1.73225776115E+02	-4.44190620330E+01	9.99830222560E+01	-6.03566658212E+00	-7.92308038885E-01
1.56490721191E+06	-1.22209473947E+01	1.75373477085E+02	7.28116702328E+00	1.73022935019E+02	-5.10942171514E+01	-1.32119122512E+02	-6.00552352595E+00	-7.20831425341E-01
1.58709856651E+06	-1.30188336241E+01	1.36725427406E+02	7.24505548876E+00	1.73107432532E+02	-4.02128260805E+01	9.68643207416E+00	-6.02093738656E+00	-9.45404397562E-01
1.60928992110E+06	-1.07361449258E+01	-1.60133521010E+02	7.30845462918E+00	1.73189197814E+02	-3.84270351481E+01	1.44914159401E+02	-6.02678196699E+00	-7.53455784231E-01
1.63148127570E+06	-9.49096549903E+00	1.77334607663E+02	7.32611592431E+00	1.72719815002E+02	-3.76323187945E+01	-1.02097608542E+02	-6.04139147155E+00	-9.01699900679E-01
1.65367263029E+06	-1.05689471173E+01	-1.66184303043E+02	7.26198646341E+00	1.72983925975E+02	-3.62532978140E+01	-1.12128306812E+01	-6.04682895006E+00	-8.90023411266E-01
1.67586398489E+06	-1.33616018679E+01	-1.47138242426E+02	7.23806127893E+00	1.72794811168E+02	-3.94782697759E+01	1.08698013993E+02	-6.00707569393E+00	-9.16088113336E-01
1.69805533948E+06	-1.07880840906E+01	-1.53256286698E+02	7.29525899014E+00	1.72592393612E+02	-5.00552686033E+01	1.73492444751E+02	-6.00693856932E+00	-8.22644655346E-01
1.72024669408E+06	-1.06145177632E+01	1.67675372539E+02	7.29487164046E+00	1.72880160593E+02	-3.23276441694E+01	6.95997118740E+01	-6.00545577255E+00	-7.26544022542E-01
1.74243804867E+06	-1.07920533047E+01	1.45490721327E+02	7.37984127404E+00	1.72318547766E+02	-3.86567918576E+01	-1.55033175370E+02	-5.99891989192E+00	-7.91605020890E-01
1.76462940327E+06	-8.47436619240E+00	1.71597106172E+02	7.30862952332E+00	1.72089236640E+02	-3.74737888975E+01	-1.17453324525E+02	-6.03932462505E+00	-8.22354070974E-01
1.78682075786E+06	-1.14299817299E+01	-1.75131039802E+02	7.28658421183E+00	1.72098563525E+02	-4.16615686011E+01	7.49044487764E+01	-6.04349665554E+00	-9.63188146259E-01
1.80901211246E+06	-9.59415715688E+00	1.71687917128E+02	7.29129459294E+00	1.71632947573E+02	-4.18477589190E+01	1.09348203764E+02	-6.00677370561E+00	-8.79841097879E-01
1.83120346705E+06	-8.89047315065E+00	1.63658537916E+02	7.24181919981E+00	1.71783469565E+02	-3.84187217786E+01	7.69399309395E+01	-5.96010970677E+00	-8.90521432629E-01
1.85339482165E+06	-1.02600282148E+01	1.79876215446E+02	7.26422223266E+00	1.71474138552E+02	-3.62201701964E+01	-1.44501850578E+02	-6.02471528706E+00	-1.00999847007E+00
1.87558617624E+06	-1.06708575723E+01	1.69703325151E+02	7.29588646621E+00	1.71348552577E+02	-3.57223347800E+01	-1.21733272150E+02	-6.04573990099E+00	-1.06252232987E+00
1.89777753084E+06	-7.61107134057E+00	1.51221145359E+02	7.23872085630E+00	1.71689991800E+02	-4.41021921141E+01	-1.72794527875E+02	-6.02737703167E+00	-1.08705478099E+00
1.91996888543E+06	-1.05344359463E+01	-1.65292892939E+02	7.27862203041E+00	1.71760413331E+02	-3.85271876245E+01	6.38852857413E+01	-5.99981807961E+00	-1.25874231525E+00
1.94216024003E+06	-9.85300551547E+00	1.61111187918E+02	7.27272600112E+00	1.71028871398E+02	-4.17400471177E+01	-9.28469432918E+01	-6.03214855722E+00	-8.93602439806E-01
1.96435159462E+06	-8.57152132873E+00	-1.65429543342E+02	7.33833929801E+00	1.71022461695E+02	-3.66830014043E+01	1.70981708308E+02	-6.01984306511E+00	-1.00823952576E+00
1.98654294922E+06	-1.16030830879E+01	-1.79001835193E+02	7.27191323122E+00	1.71159732203E+02	-4.08164966198E+01	1.61750731123E+02	-6.01268343562E+00	-1.01619285359E+00
2.00873430381E+06	-1.02624452905E+01	1.64626006328E+02	7.35305352967E+00	1.71309776103E+02	-4.30493002746E+01	1.62612296216E+02	-6.02634698632E+00	-1.01153170354E+00
2.03092565841E+06	-1.05570411276E+01	1.68561995171E+02	7.26886244905E+00	1.70642353059E+02	-4.60188062948E+01	1.15174936480E+01	-6.05980603325E+00	-1.27824598194E+00
2.05311701300E+06	-1.24044161691E+01	-1.62767329076E+02	7.20019008821E+00	1.70849432346E+02	-3.93096575713E+01	-3.00197783423E+01	-6.00636535072E+00	-1.34829694581E+00
2.07530836760E+06	-9.94416397778E+00	-1.78566876611E+02	7.28869949999E+00	1.70524266724E+02	-4.52467805524E+01	8.02545382044E+01	-6.04162324921E+00	-1.06902689427E+00
2.09749972219E+06	-8.36886510390E+00	1.66090792206E+02	7.27078128083E+00	1.70310828229E+02	-3.56468941723E+01	-6.01368288044E+01	-6.03655606787E+00	-1.18664651249E+00
2.11969107679E+06	-1.01782071879E+01	1.69591165616E+02	7.27670548371E+00	1.70703735310E+02	-4.71466996994E+01	-8.80097801028E+01	-6.02312309502E+00	-1.09585903993E+00
2.14188243138E+06	-8.05728192131E+00	1.55499996360E+02	7.22358243126E+00	1.70130127320E+02	-3.60956815676E+01	1.16697865173E+02	-5.98510610327E+00	-1.05606417473E+00
2.16407378598E+06	-8.09853832272E+00	1.63993138867E+02	7.30916299642E+00	1.69858437645E+02	-4.67508251921E+01	1.88821886924E+01	-6.01168857142E+00	-1.08671899635E+00
2.18626514057E+06	-1.00458057232E+01	1.49628855829E+02	7.30894167985E+00	1.70134830434E+02	-4.20345182499E+01	8.01939186688E+01	-6.00035740107E+00	-9.55433257236E-01
2.20845649517E+06	-9.56583443380E+00	1.70622547749E+02	7.28775096985E+00	1.70055779725E+02	-7.06278436308E+01	-1.62197286219E+02	-6.02664224982E+00	-1.16953059296E+00
2.23064784976E+06	-1.43034320110E+01	-1.67758249286E+02	7.26449360448E+00	1.69955856195E+02	-3.71759760369E+01	-1.05029517332E+02	-5.95943220126E+00	-1.01465329128E+00
2.25283920436E+06	-1.03689785598E+01	-1.74403984056E+02	7.26685805115E+00	1.70143365947E+02	-4.28650981959E+01	1.32110847838E+02	-6.01552033393E+00	-1.05262188069E+00
2.27503055895E+06	-1.21156817142E+01	1.55813259586E+02	7.22962146515E+00	1.69914423323E+02	-5.45785220141E+01	4.13759770829E+01	-6.02157879089E+00	-1.12914084521E+00
2.29722191355E+06	-1.04167463551E+01	-1.79610715249E+02	7.22114342907E+00	1.69793795092E+02	-5.55826810348E+01	8.37668429402E+01	-6.02337382774E+00	-9.80390880339E-01
2.31941326814E+06	-1.17521404505E+01	1.47883791249E+02	7.28699557324E+00	1.69639165074E+02	-4.00738933624E+01	-7.65870435194E+01	-6.02644997768E+00	-1.31002458299E+00
2.34160462274E+06	-9.03564739832E+00	-1.46913369118E+02	7.26502168868E+00	1.69388640613E+02	-3.40592259901E+01	1.37825345474E+02	-6.04561839646E+00	-7.77406205235E-01
2.36379597733E+06	-1.07975607779E+01	-1.76726323436E+02	7.33632716814E+00	1.69506231351E+02	-4.09513935128E+01	2.38459976156E+01	-6.01279416391E+00	-9.13289223563E-01
2.38598733193E+06	-7.19772605690E+00	1.72760148133E+02	7.29337608212E+00	1.69242740494E+02	-4.07392807408E+01	7.83160925825E+00	-6.00289280740E+00	-1.07226267304E+00
2.40817868652E+06	-8.40157460987E+00	1.55524060914E+02	7.30757884585E+00	1.68658703065E+02	-4.43074095120E+01	1.29462572759E+02	-6.01317867514E+00	-1.26356878237E+00
2.43037004112E+06	-1.64449274285E+01	-1.70932793547E+02	7.32597499063E+00	1.69392542139E+02	-4.24928232699E+01	-2.25543299569E+01	-6.02530616704E+00	-1.28186993102E+00
2.45256139571E+06	-1.25035074370E+01	-1.70245991833E+02	7.35134056469E+00	1.68846607860E+02	-4.62580319057E+01	-5.95268167340E+00	-6.04014447862E+00	-1.01229060530E+00
2.47475275031E+06	-1.07822811558E+01	-1.76657012274E+02	7.26543800594E+00	1.68865342371E+02	-4.09800230083E+01	-1.81149827788E+01	-6.04623104088E+00	-1.28308358910E+00
2.49694410490E+06	-1.01417143324E+01	-1.73896128529E+02	7.30237834989E+00	1.68862355812E+02	-3.50569885727E+01	-1.38301389691E+02	-6.08538013396E+00	-8.78781338876E-01
2.51913545950E+06	-8.83545200246E+00	1.72486099502E+02	7.27221067999E+00	1.68758383132E+02	-4.07718730601E+01	3.54541691499E+01	-6.00300178049E+00	-1.19291237225E+00
2.54132681409E+06	-1.21587243851E+01	1.70185190988E+02	7.22058383200E+00	1.68268309751E+02	-4.22198651328E+01	-1.04638489682E+02	-6.01215971849E+00	-1.16586348561E+00
2.56351816869E+06	-6.69124714957E+00	1.69698483645E+02	7.29056772602E+00	1.68650593409E+02	-3.79943480109E+01	-6.47990893927E+01	-6.01228746965E+00	-1.22605425015E+00
2.58570952328E+06	-1.24557439809E+01	1.61119091660E+02	7.24487408006E+00	1.67996412678E+02	-3.56141039447E+01	1.70488643465E+01	-6.04626248762E+00	-1.17976435042E+00
2.60790087788E+06	-9.04449855893E+00	-1.70846008403E+02	7.36265487353E+00	1.68646555677E+02	-3.99638400391E+01	-6.24142679864E+01	-6.05925848269E+00	-1.23248316415E+00
2.63009223247E+06	-7.79361812254E+00	1.60194924595E+02	7.25979432184E+00	1.67923345437E+02	-3.90822147752E+01	-1.24488816302E+02	-6.02947158940E+00	-1.20540433404E+00
2.65228358707E+06	-1.22477742988E+01	-1.77227141440E+02	7.28467624622E+00	1.67811524467E+02	-3.99881208182E+01	1.63557762450E+02	-6.01670276459E+00	-1.46010878259E+00
2.67447494166E+06	-1.07539296455E+01	1.61380258746E+02	7.31613952503E+00	1.67851946885E+02	-3.77552886348E+01	5.69836073277E+00	-6.00245359058E+00	-1.51470077286E+00
2.69666629626E+06	-8.78288742343E+00	1.66294567394E+02	7.26979695217E+00	1.67800902180E+02	-4.51420967689E+01	3.00537889050E+01	-5.98434644913E+00	-1.20891480503E+00
2.71885765085E+06	-1.30848589526E+01	1.49558762906E+02	7.28213414759E+00	1.67409498482E+02	-4.79179483367E+01	-1.64706494648E+02	-5.99470740341E+00	-1.33295116102E+00
2.74104900545E+06	-9.02761938685E+00	-1.69818784116E+02	7.33355630277E+00	1.67209566580E+02	-3.58354853651E+01	1.41615068264E+02	-6.01225242580E+00	-1.06738551489E+00
2.76324036004E+06	-9.64275897423E+00	1.71928214833E+02	7.31175038412E+00	1.67131818392E+02	-4.14326067449E+01	-3.86961950656E+01	-6.02896890011E+00	-1.24895250861E+00
2.78543171463E+06	-1.38393388725E+01	-1.79013558561E+02	7.27272780995E+00	1.67341180284E+02	-4.55950926934E+01	4.14753501392E+01	-6.02927681742E+00	-1.37330834061E+00
2.80762306923E+06	-8.73179294200E+00	1.70340032986E+02	7.23120872982E+00	1.66789785340E+02	-3.63811634471E+01	-4.74703884533E+01	-6.00886770158E+00	-1.43414026669E+00
2.82981442382E+06	-8.93530280525E+00	-1.70246213701E+02	7.32155924663E+00	1.67053727388E+02	-4.45250131857E+01	-6.77879046768E+01	-6.02759051086E+00	-1.67543383506E+00
2.85200577842E+06	-1.32147775171E+01	1.37625423168E+02	7.28565143761E+00	1.67069121259E+02	-3.74116728202E+01	-6.81679572910E+00	-6.04191279814E+00	-1.51183399628E+00
2.87419713301E+06	-1.19779167992E+01	-1.77979370435E+02	7.27472270985E+00	1.66541053622E+02	-4.31856633743E+01	1.37358701866E+02	-6.06681658113E+00	-1.35406486173E+00
