# Hz S DB R 50
! CMT, M5065, 19127446, 24.2.4/2
! Date: 10/29/2024 1:13:17 PM
! Data: Format (Calibration Info)
! Freq	S11:dB/Ang(F2)	S21:dB/Ang(F2)	S12:dB/Ang(F2)	S22:dB/Ang(F2)
3.00000000000E+05	-1.11835094131E+01	-1.62125902707E+02	7.97793272851E+00	-1.77892937160E+02	-4.94429173065E+01	5.80123804725E+01	-6.01336293164E+00	-3.98570270122E-04
3.22191354595E+05	-1.21130912890E+01	-1.75077469785E+02	8.07551743461E+00	-1.78035520235E+02	-4.91569275282E+01	6.58436339014E+01	-6.02128089529E+00	-1.71565901258E-01
3.44382709190E+05	-9.06369546907E+00	-1.68094447643E+02	8.04968783978E+00	-1.78891592084E+02	-4.15041101849E+01	1.59697469488E+02	-5.97026545839E+00	-2.34583679032E-01
3.66574063785E+05	-1.25538393178E+01	-1.76141221694E+02	7.99791281293E+00	-1.78974688746E+02	-3.92766065152E+01	-1.51827038191E+02	-6.07710142097E+00	-2.80213628309E-01
3.88765418380E+05	-1.19538944650E+01	1.72570205586E+02	8.06801345042E+00	-1.79675266018E+02	-3.69273228471E+01	-1.04213395487E+02	-6.04580300133E+00	-1.66200623707E-01
4.10956772975E+05	-1.01130734209E+01	1.78610488364E+02	8.01899852293E+00	-1.79356968382E+02	-4.09312508716E+01	-1.28051935021E+02	-6.03427429194E+00	-2.95894194004E-01
4.33148127570E+05	-7.76034694341E+00	-1.62456167748E+02	8.07051540698E+00	-1.79995787029E+02	-4.32589693005E+01	-1.35576147328E+02	-6.02455845278E+00	-2.76448236974E-01
4.55339482165E+05	-1.63842703878E+01	-1.34049004777E+02	8.14685741983E+00	-1.79704257476E+02	-3.80499448157E+01	-1.25812819111E+01	-6.00142324563E+00	-2.31894844311E-01
4.77530836760E+05	-1.30929009823E+01	1.79074742058E+02	8.10187703140E+00	-1.79841588147E+02	-4.08137210961E+01	-8.58607705890E+01	-6.02982265608E+00	-4.02127506135E-01
4.99722191355E+05	-8.85982320371E+00	1.79412746169E+02	8.04504945015E+00	1.79843950996E+02	-4.05899557215E+01	-7.47864212101E+01	-6.00512821433E+00	-5.14400932897E-01
5.21913545950E+05	-1.25511995917E+01	-1.60560153602E+02	8.05661881704E+00	1.79396406768E+02	-4.94783454638E+01	1.79424881230E+02	-6.05685292613E+00	-5.68985774784E-01
5.44104900545E+05	-6.99858943483E+00	-1.72290843674E+02	8.08159209847E+00	1.79420163258E+02	-3.95841389532E+01	-1.26298625242E+01	-6.00328786857E+00	-3.89055158363E-01
5.66296255139E+05	-1.18534700227E+01	-1.69165356694E+02	8.06128269491E+00	1.78981006497E+02	-3.94901915960E+01	-1.20657246629E+02	-6.03470414354E+00	-9.70623081733E-01
5.88487609734E+05	-1.20447286026E+01	-1.69987598193E+02	8.08181667382E+00	1.79355862412E+02	-3.37834638902E+01	-6.58771029915E+01	-6.04813415093E+00	-7.46355389035E-01
6.10678964329E+05	-1.08592065424E+01	1.79599271203E+02	8.04012422771E+00	1.79004176811E+02	-4.81460063670E+01	-1.26216063301E+01	-6.04168129454E+00	-1.72838810966E-01
6.32870318924E+05	-1.17517262795E+01	-1.75916943576E+02	8.06352233459E+00	1.78921200962E+02	-3.93877713278E+01	-6.34742242289E+01	-6.03293520509E+00	-3.98700913018E-01
6.55061673519E+05	-1.20772866276E+01	-1.78293760677E+02	7.99636994242E+00	1.78372118245E+02	-4.89452108929E+01	-1.26199455103E+02	-6.02987821439E+00	-1.01954930080E-02
6.77253028114E+05	-7.35856586439E+00	-1.73297011266E+02	8.05470241238E+00	1.78236067632E+02	-4.07682761864E+01	4.20049003370E+01	-6.00742112320E+00	-4.60932820249E-01
6.99444382709E+05	-9.34114476082E+00	1.65890480781E+02	8.06433443964E+00	1.78259428563E+02	-4.42996061566E+01	-1.37695483988E+02	-6.02133001443E+00	-7.38851745403E-01
7.21635737304E+05	-1.15177680174E+01	1.75390595952E+02	8.06032385204E+00	1.78278848828E+02	-4.47680255941E+01	-1.07793190435E+02	-6.00805396478E+00	-3.93521831395E-01
7.43827091899E+05	-1.29479094704E+01	-1.52900823484E+02	8.02088533182E+00	1.77432109671E+02	-4.77341611412E+01	-1.35649627340E+02	-6.04331926421E+00	-4.11497429846E-01
7.66018446494E+05	-7.52535377385E+00	-1.79110434534E+02	8.07255278773E+00	1.77656296241E+02	-4.63452453855E+01	1.44000733034E+02	-6.03471971961E+00	-4.91204515943E-01
7.88209801089E+05	-1.19076739098E+01	1.71819577149E+02	8.06436070998E+00	1.77895017934E+02	-3.83971743279E+01	-2.07839881628E+01	-6.03807721795E+00	-5.29533030463E-01
8.10401155684E+05	-5.79233382596E+00	-1.66499026142E+02	8.02717169982E+00	1.77318115502E+02	-4.22952851616E+01	-1.08123508514E+02	-6.01242918938E+00	-4.23116242636E-01
8.32592510279E+05	-1.47447385739E+01	1.74289203471E+02	8.07463658933E+00	1.77032163203E+02	-4.79453567536E+01	-5.09800990360E+01	-6.00964207276E+00	-5.08601239058E-01
8.54783864874E+05	-1.21244972936E+01	-1.69943525424E+02	7.98836875091E+00	1.77183096598E+02	-3.98802126361E+01	1.35869211383E+02	-6.06745565638E+00	-3.55241211835E-01
8.76975219469E+05	-8.65242411092E+00	-1.74953192586E+02	8.02818915848E+00	1.77294375592E+02	-3.73245724438E+01	-3.93857101412E+01	-6.03435248226E+00	-8.24403553647E-01
8.99166574064E+05	-7.61153497031E+00	1.65963407587E+02	8.04931918780E+00	1.76792120504E+02	-4.03907877367E+01	3.83104552291E+01	-6.02538674447E+00	-5.82626439692E-01
9.21357928659E+05	-8.79546068626E+00	1.55686679681E+02	8.04912016607E+00	1.76587964178E+02	-4.21690970135E+01	1.09576862604E+02	-6.04617113497E+00	-6.72486968570E-01
9.43549283254E+05	-1.14523629669E+01	-1.44336478342E+02	8.02507573269E+00	1.76364942762E+02	-3.74310156663E+01	-1.32927562251E+02	-5.95428945087E+00	-6.27509107479E-01
9.65740637849E+05	-1.25517975443E+01	1.71280144177E+02	8.06487898247E+00	1.76386620791E+02	-4.54130159475E+01	-1.36360756399E+02	-6.04988979050E+00	-6.53171933247E-01
9.87931992444E+05	-8.45490728677E+00	1.51162715287E+02	8.06359296423E+00	1.76182388961E+02	-3.90856195182E+01	1.80985714195E+01	-6.03970556784E+00	-6.02505959360E-01
1.01012334704E+06	-8.86229150518E+00	-1.71712685051E+02	8.07105396162E+00	1.76403985032E+02	-4.11209597893E+01	8.82298576201E+01	-6.01824947845E+00	-4.73655813358E-01
1.03231470163E+06	-9.62052253188E+00	-1.79370718599E+02	8.06553344661E+00	1.75777795512E+02	-4.35616744846E+01	-5.22235187981E+00	-6.01976007388E+00	-4.94791516623E-01
1.05450605623E+06	-7.24973666084E+00	1.70247281740E+02	8.02593333654E+00	1.76270375870E+02	-4.22734296919E+01	-5.71213881439E+01	-6.00147775599E+00	-4.67007501504E-01
1.07669741082E+06	-9.97444898722E+00	1.69196098544E+02	8.12369627041E+00	1.75272982000E+02	-3.56054075725E+01	6.59846916939E+00	-6.04440775641E+00	-3.73065563240E-01
1.09888876542E+06	-9.74489578436E+00	-1.73025544593E+02	8.03994161977E+00	1.75407682166E+02	-4.36940247738E+01	6.93731491243E+01	-5.97863456671E+00	-4.01718953867E-01
1.12108012001E+06	-1.18359728711E+01	1.64981134871E+02	8.08994796400E+00	1.75459137166E+02	-4.13479671833E+01	1.92130678055E+01	-6.01574304101E+00	-6.59341994662E-01
1.14327147461E+06	-8.26293144918E+00	-1.67461205144E+02	8.04815691539E+00	1.75766170069E+02	-5.49933836807E+01	1.43639022382E+02	-6.04215268307E+00	-6.96341016022E-01
1.16546282920E+06	-9.43092097123E+00	1.73191832282E+02	7.98775448495E+00	1.75234866381E+02	-4.10569405374E+01	-3.41661905501E+01	-5.99061260990E+00	-9.43218922483E-01
1.18765418380E+06	-1.09155926553E+01	-1.54453897911E+02	8.12826751390E+00	1.74934618628E+02	-4.87188325948E+01	1.38553404447E+02	-6.03140823897E+00	-5.81093605693E-01
1.20984553839E+06	-1.12300620571E+01	1.76444209323E+02	8.11665818686E+00	1.74560452681E+02	-3.84927899475E+01	-1.61403257541E+02	-6.04489667926E+00	-8.90052474486E-01
1.23203689299E+06	-1.20817398542E+01	1.67112491729E+02	8.09602613489E+00	1.74787526346E+02	-4.81619829066E+01	-1.68249218339E+02	-6.06933718522E+00	-4.41206528330E-01
1.25422824758E+06	-9.66414922988E+00	1.58338388799E+02	8.01073022607E+00	1.74734037857E+02	-4.33731338140E+01	-1.64860609174E+02	-6.01539810403E+00	-9.46348799789E-01
1.27641960218E+06	-8.51512684064E+00	-1.69004328768E+02	8.02141152056E+00	1.74790819858E+02	-4.92683083349E+01	1.27172915951E+02	-6.01521643002E+00	-4.99701145715E-01
1.29861095677E+06	-1.03522680701E+01	1.59586815551E+02	8.07437653772E+00	1.74178932018E+02	-3.57544904021E+01	1.11635651514E+02	-6.02792046978E+00	-5.77613046614E-01
1.32080231137E+06	-1.35479975814E+01	-1.47453186755E+02	8.07197020236E+00	1.74242789693E+02	-3.49929604403E+01	1.41298778525E+02	-6.02406866622E+00	-8.34699471844E-01
1.34299366596E+06	-1.35218281318E+01	1.62785940481E+02	8.09912563439E+00	1.74500448983E+02	-3.82959324402E+01	-1.31635434139E+02	-6.02889564006E+00	-7.73833363320E-01
1.36518502056E+06	-8.80091404006E+00	-1.69121372661E+02	8.06320421150E+00	1.74216925152E+02	-4.73160750693E+01	1.32408117358E+02	-6.01134062834E+00	-5.49501177963E-01
1.38737637515E+06	-1.27724385716E+01	-1.62393497671E+02	8.05551859524E+00	1.73702992764E+02	-4.35240621005E+01	-3.96162665352E+01	-5.99662283365E+00	-7.61309849601E-01
1.40956772975E+06	-1.04721431398E+01	-1.79727833278E+02	8.09514668614E+00	1.73836682265E+02	-5.25454589017E+01	1.77775174874E+02	-6.03153572097E+00	-9.05721018019E-01
1.43175908434E+06	-7.31262372177E+00	1.77313416605E+02	8.05858827966E+00	1.73353502754E+02	-5.01174555463E+01	-7.41144814390E+01	-6.01506544446E+00	-4.64870090523E-01
1.45395043894E+06	-1.19921050567E+01	1.63414487514E+02	8.02007156211E+00	1.73819347962E+02	-4.40783701951E+01	1.34022283661E+02	-5.99910578063E+00	-4.68018448683E-01
1.47614179353E+06	-8.22668721842E+00	1.50050415600E+02	8.03814396684E+00	1.73527676898E+02	-3.58212935022E+01	-1.58478160631E+02	-6.00071198185E+00	-7.53097365686E-01
1.49833314813E+06	-1.42634873728E+01	-1.79114512688E+02	8.08771432058E+00	1.73304839885E+02	-3.97250395386E+01	1.62344251874E+02	-6.02055328224E+00	-7.55206445787E-01
1.52052450272E+06	-1.22064167718E+01	1.68508279721E+02	8.04313536160E+00	1.72988512618E+02	-4.59953007134E+01	-1.34861647518E+02	-6.02418853378E+00	-7.58525955944E-01
1.54271585732E+06	-9.00590187663E+00	1.73949846363E+02	8.03808606318E+00	1.73245961100E+02	-3.46223911369E+01	-3.61589134627E+00	-6.02074995758E+00	-6.46759270804E-01
1.56490721191E+06	-8.65465533481E+00	-1.78407520273E+02	8.08702636058E+00	1.72892744238E+02	-4.46257312761E+01	9.26179179601E+01	-6.05463035073E+00	-4.78507705765E-01
1.58709856651E+06	-1.26819063156E+01	-1.77811912372E+02	8.11182399870E+00	1.73013388690E+02	-4.35995550510E+01	3.47260424884E+01	-5.98971224097E+00	-5.14887278102E-01
1.60928992110E+06	-1.00651613808E+01	1.70916413208E+02	8.06111991412E+00	1.72429724256E+02	-5.46210759702E+01	-6.22601773594E+01	-6.01839780119E+00	-1.06165800337E+00
1.63148127570E+06	-1.40370093900E+01	-1.79374730147E+02	8.07811734018E+00	1.72593232360E+02	-3.87426137636E+01	6.69846568182E+01	-6.01329439363E+00	-9.42043885061E-01
1.65367263029E+06	-1.09253138175E+01	1.56804919315E+02	8.03411095121E+00	1.72388915182E+02	-5.84798417278E+01	-9.45161421424E+01	-6.04016039806E+00	-8.86750717000E-01
1.67586398489E+06	-1.07907118531E+01	1.71158866886E+02	8.07782905134E+00	1.72777360225E+02	-3.58108617174E+01	-9.43991962663E+01	-6.01519425022E+00	-7.96166257529E-01
1.69805533948E+06	-7.87728225322E+00	1.72428282765E+02	8.06069578244E+00	1.72465086962E+02	-5.35886185344E+01	-1.77574390591E+02	-6.04638225564E+00	-8.79683251680E-01
1.72024669408E+06	-1.29516918716E+01	-1.52436205904E+02	8.10480870761E+00	1.72908351365E+02	-4.70732950293E+01	-1.63719679148E+02	-6.02411056130E+00	-1.05260398787E+00
1.74243804867E+06	-1.87955260998E+01	1.37217357558E+02	8.01824143237E+00	1.72762756725E+02	-4.03559714674E+01	1.58865472446E+02	-6.02999903458E+00	-5.56743665089E-01
1.76462940327E+06	-1.01089693046E+01	-1.63143135509E+02	8.03970376408E+00	1.71749587631E+02	-5.15261908962E+01	-1.21680321954E+02	-6.05768079863E+00	-1.01112626025E+00
1.78682075786E+06	-1.11123972916E+01	-1.66285304829E+02	8.07107379847E+00	1.71894576768E+02	-4.32785394627E+01	4.53133581066E+01	-6.02453482209E+00	-9.21551390904E-01
1.80901211246E+06	-1.31679403547E+01	1.74372906107E+02	8.01595414950E+00	1.71702204853E+02	-4.50265600072E+01	6.27903649233E+01	-6.00743633671E+00	-9.57832809684E-01
1.83120346705E+06	-1.12941891140E+01	1.61518843555E+02	8.03043573759E+00	1.71518591509E+02	-4.62089534432E+01	1.37793852224E+02	-6.01672875899E+00	-7.59329374290E-01
1.85339482165E+06	-1.06532690921E+01	-1.74573321095E+02	8.09305329848E+00	1.71382812494E+02	-4.41168999369E+01	-1.40451213080E+01	-6.03666619351E+00	-8.47989109138E-01
1.87558617624E+06	-9.67575211174E+00	1.78947639659E+02	8.04212269703E+00	1.71146737294E+02	-3.69222633265E+01	1.47946443291E+02	-6.04478411833E+00	-8.90284587428E-01
1.89777753084E+06	-8.95055290130E+00	1.69890007818E+02	8.00778533857E+00	1.70753234352E+02	-3.98205407292E+01	-1.54640369528E+02	-6.00366428579E+00	-6.78655147085E-01
1.91996888543E+06	-1.12383293340E+01	1.59243817403E+02	8.00855803738E+00	1.71038848983E+02	-4.52549698394E+01	1.57817953066E+02	-6.06162716055E+00	-8.96042476019E-01
1.94216024003E+06	-8.25503949267E+00	-1.69781727726E+02	8.04829412228E+00	1.70806565143E+02	-5.07342741503E+01	-1.79958971575E+02	-6.01694621623E+00	-9.53903598276E-01
1.96435159462E+06	-8.63963405943E+00	-1.63363507344E+02	8.07292096312E+00	1.71140065099E+02	-3.92502631773E+01	-1.55963908538E+02	-6.02687399654E+00	-9.86956629178E-01
1.98654294922E+06	-1.02089606488E+01	1.53040799528E+02	8.09327391958E+00	1.70243922049E+02	-3.50922679102E+01	1.17339850621E+01	-6.01238462461E+00	-1.04117718181E+00
2.00873430381E+06	-1.02745362504E+01	1.55795912506E+02	7.98769485781E+00	1.70616301146E+02	-4.27183384694E+01	1.06156842139E+02	-6.04225754044E+00	-1.02009637991E+00
2.03092565841E+06	-9.94745251691E+00	1.59473517633E+02	8.06785351678E+00	1.70620836234E+02	-4.13608941775E+01	1.13883486627E+02	-6.02230808189E+00	-1.11470522662E+00
2.05311701300E+06	-1.11496420803E+01	-1.74889751618E+02	8.12558195598E+00	1.70342842153E+02	-4.11632820441E+01	-9.55050647949E+01	-6.05637472207E+00	-1.04042884401E+00
2.07530836760E+06	-9.33714796084E+00	1.72954741360E+02	8.07348154446E+00	1.70203512128E+02	-3.43913552814E+01	5.82153682270E+01	-6.00513194595E+00	-1.09239830262E+00
2.09749972219E+06	-9.71447951562E+00	1.75909376082E+02	8.03658744142E+00	1.70444279657E+02	-3.63789157798E+01	1.16671637279E+02	-6.02323023300E+00	-8.74688763032E-01
2.11969107679E+06	-1.39287837671E+01	1.56058999047E+02	8.06016314272E+00	1.70123076990E+02	-6.19555704915E+01	9.75447798661E+01	-6.02225070295E+00	-1.03830445195E+00
2.14188243138E+06	-8.89397462513E+00	1.58399183853E+02	8.03164145767E+00	1.70067094390E+02	-4.36271906344E+01	-1.61676956055E+02	-6.02263970438E+00	-1.40706472944E+00
2.16407378598E+06	-1.14651702933E+01	-1.49299922999E+02	8.10586414444E+00	1.69906565916E+02	-4.05574131851E+01	4.15908644523E+01	-6.03961060605E+00	-9.23320118834E-01
2.18626514057E+06	-8.67293787473E+00	1.73840081640E+02	8.01684635925E+00	1.69819543919E+02	-4.82800698083E+01	5.96052163662E+01	-5.97575602145E+00	-1.06990981960E+00
2.20845649517E+06	-6.79844993194E+00	-1.75705948998E+02	8.10073153018E+00	1.69629840175E+02	-3.65684850278E+01	1.27280809168E+02	-5.98568690010E+00	-1.08473993954E+00
2.23064784976E+06	-1.14367008428E+01	1.61638330019E+02	8.09564814899E+00	1.69446536406E+02	-5.95266761280E+01	-1.73751078920E+02	-6.00812381185E+00	-1.22882690516E+00
2.25283920436E+06	-1.34362287848E+01	1.66327550522E+02	8.02863051844E+00	1.69204436961E+02	-4.55410899410E+01	1.30315236302E+02	-6.01452791050E+00	-1.06091458426E+00
2.27503055895E+06	-8.87803231630E+00	1.75388269247E+02	8.03880307019E+00	1.69129410897E+02	-3.79479353681E+01	-6.22348905021E+01	-5.99053406741E+00	-1.43007583133E+00
2.29722191355E+06	-9.68674899555E+00	-1.52771529660E+02	7.99347079259E+00	1.69017018700E+02	-3.80911079975E+01	1.28972243945E+02	-6.02942095421E+00	-1.05513254639E+00
2.31941326814E+06	-1.21390192030E+01	-1.79505806102E+02	8.07137521517E+00	1.69225962037E+02	-5.58381154366E+01	9.27050379049E+01	-6.05755237259E+00	-1.08297839777E+00
2.34160462274E+06	-1.01186372920E+01	1.74420037455E+02	8.07030277108E+00	1.69291689890E+02	-4.60277934934E+01	-8.88561843399E+01	-6.03412178581E+00	-1.16774376199E+00
2.36379597733E+06	-9.92195524085E+00	-1.57156932657E+02	8.06298181750E+00	1.69006584506E+02	-4.38705462231E+01	-9.11496020972E+01	-6.03509346976E+00	-1.05135234825E+00
2.38598733193E+06	-7.10022301898E+00	1.69482756272E+02	8.04940105427E+00	1.68961400517E+02	-5.95892947683E+01	6.20270382535E+01	-6.00085234832E+00	-9.49614708144E-01
2.40817868652E+06	-8.96695190022E+00	1.74590480599E+02	8.04431745150E+00	1.68807159921E+02	-3.96161662413E+01	-1.55511218818E+02	-6.03210200714E+00	-1.10397793444E+00
2.43037004112E+06	-1.36591880720E+01	1.52532537897E+02	8.07215188174E+00	1.68560833139E+02	-4.74104704883E+01	-9.60217032977E+01	-6.00823453902E+00	-1.56679539613E+00
2.45256139571E+06	-9.56128120097E+00	-1.74145731980E+02	8.05089236196E+00	1.68452138921E+02	-3.69369693479E+01	-1.57134152140E+02	-6.07105781524E+00	-9.86224939851E-01
2.47475275031E+06	-1.09772054502E+01	1.76650362375E+02	7.99319045761E+00	1.68186411957E+02	-4.16826761439E+01	8.88797882043E+01	-6.03157262076E+00	-1.07052453747E+00
2.49694410490E+06	-9.13500693965E+00	1.61212716115E+02	8.07663608260E+00	1.68043380657E+02	-3.89601998221E+01	-3.56047616123E+00	-6.00844566426E+00	-1.39121353613E+00
2.51913545950E+06	-1.11812402253E+01	1.79676033084E+02	8.05737488820E+00	1.67962431072E+02	-4.61064048819E+01	-1.36830272853E+02	-6.03068237851E+00	-1.28068285939E+00
2.54132681409E+06	-1.22416387267E+01	1.53434568887E+02	8.07088435575E+00	1.68272141475E+02	-4.35949406848E+01	-1.16588778556E+02	-6.11146071759E+00	-1.49035674619E+00
2.56351816869E+06	-1.38829792274E+01	1.79869928161E+02	8.04870512347E+00	1.67801242283E+02	-3.74218052016E+01	-2.84310806555E+01	-6.02623420971E+00	-1.28346439958E+00
2.58570952328E+06	-8.89056695215E+00	1.64838570024E+02	8.05641434509E+00	1.67938536717E+02	-4.19221291309E+01	-1.14609943900E+02	-6.01791704042E+00	-1.25102767328E+00
2.60790087788E+06	-9.84782534379E+00	-1.77979064198E+02	8.12497416443E+00	1.67630644243E+02	-4.76056280070E+01	1.14317349544E+02	-6.01511136944E+00	-1.19621855215E+00
2.63009223247E+06	-1.06627788417E+01	1.69984480165E+02	8.02186336768E+00	1.67681754131E+02	-3.55714008992E+01	-6.28595542958E+01	-6.04605727217E+00	-1.25448447445E+00
2.65228358707E+06	-1.17195791857E+01	1.77095921931E+02	8.01595768525E+00	1.67620414970E+02	-4.24001974774E+01	-8.62859561710E+01	-5.97212350287E+00	-1.31151456180E+00
2.67447494166E+06	-8.43240009262E+00	1.68256682320E+02	7.95910713444E+00	1.67658999327E+02	-4.81272416425E+01	5.97386000099E+01	-5.98914101477E+00	-1.13132232080E+00
2.69666629626E+06	-1.17045663944E+01	1.44066446335E+02	8.05634560931E+00	1.67051108139E+02	-4.35167590922E+01	-1.00049509601E+02	-6.05479620796E+00	-1.26611541573E+00
2.71885765085E+06	-8.82272694143E+00	1.69135882831E+02	8.05505828701E+00	1.66822882819E+02	-3.71822397148E+01	9.02898017337E+01	-6.02776048529E+00	-1.25198759244E+00
2.74104900545E+06	-8.93955710152E+00	1.79466637842E+02	8.06993402900E+00	1.66921762170E+02	-4.01012020438E+01	-1.17000733379E+02	-6.01675010267E+00	-1.21654432665E+00
2.76324036004E+06	-9.73210510563E+00	1.38795832079E+02	7.99754452129E+00	1.67074442222E+02	-4.12226880070E+01	-6.19646513307E+01	-6.02134150409E+00	-1.27955024360E+00
2.78543171463E+06	-1.33278190324E+01	-1.77625737813E+02	8.08630894536E+00	1.66634478772E+02	-4.34563912968E+01	1.29150071478E+02	-6.02973681680E+00	-1.25752174174E+00
2.80762306923E+06	-9.42088120964E+00	1.77958860027E+02	8.02600721916E+00	1.66536177830E+02	-4.78141870406E+01	1.08412543991E+02	-6.00654221647E+00	-1.31416457743E+00
2.82981442382E+06	-1.07942872700E+01	1.68698020060E+02	8.00851221896E+00	1.66434148425E+02	-4.45815523484E+01	1.77705262054E+02	-6.04597724792E+00	-1.22418792253E+00
2.85200577842E+06	-8.07152472045E+00	1.78118681386E+02	8.06647245113E+00	1.66283161094E+02	-3.44416442724E+01	-1.73872696017E+02	-6.01693671504E+00	-1.03290258775E+00
2.87419713301E+06	-9.74528316379E+00	1.63307919145E+02	8.05518797763E+00	1.66159139394E+02	-4.84686335935E+01	-2.01336703906E+01	-6.03839089579E+00	-1.28208203338E+00
