# Hz S DB R 50
! CMT, M5065, 19127446, 24.2.4/2
! Date: 10/29/2024 1:04:24 PM
! Data: Format (Calibration Info)
! Freq	S11:dB/Ang(F2)	S21:dB/Ang(F2)	S12:dB/Ang(F2)	S22:dB/Ang(F2)
3.00000000000E+05	-7.27948045569E+00	1.79386347651E+02	5.46135742066E+00	-1.78118942935E+02	-4.86692789491E+01	-6.86406128211E+01	-6.03293902959E+00	-3.37004277733E-01
3.22191354595E+05	-1.58890157259E+01	1.71074147817E+02	5.45180382980E+00	-1.78448646989E+02	-3.95944982973E+01	-6.30913630912E+01	-6.01633186354E+00	-2.32986553784E-02
3.44382709190E+05	-9.02369934866E+00	1.77548746319E+02	5.48880743198E+00	-1.78706245432E+02	-3.49925076936E+01	-7.81910452069E+01	-6.06036774103E+00	-5.56293490441E-01
3.66574063785E+05	-1.04342138134E+01	1.72643384202E+02	5.39168772707E+00	-1.78830333887E+02	-3.74110120331E+01	-1.09123917304E+02	-6.04358275507E+00	-1.94094723737E-01
3.88765418380E+05	-1.07805500630E+01	-1.77111545874E+02	5.42938003247E+00	-1.79231219128E+02	-5.10581565080E+01	-1.25958329467E+02	-6.01626455884E+00	-3.23655639107E-01
4.10956772975E+05	-9.09988646326E+00	1.72731886052E+02	5.48650401984E+00	-1.79797487475E+02	-4.23992607799E+01	-1.78031577047E+02	-6.02660372053E+00	-4.29538326958E-01
4.33148127570E+05	-1.26232584567E+01	1.78002054652E+02	5.42793862621E+00	-1.79367525227E+02	-4.35861113454E+01	2.63349010127E+01	-6.01737873488E+00	-3.77278429290E-01
4.55339482165E+05	-1.01282234734E+01	-1.72571236827E+02	5.40354224805E+00	1.79907269982E+02	-3.74501519077E+01	3.24591289156E+01	-5.98012951412E+00	-3.16453341496E-01
4.77530836760E+05	-8.84297842906E+00	-1.78915484834E+02	5.44565745631E+00	-1.79709747905E+02	-4.59046958540E+01	-6.07754487606E+01	-6.04703095542E+00	-7.19215981720E-01
4.99722191355E+05	-1.18234214150E+01	1.65406578602E+02	5.47294908510E+00	-1.79974015074E+02	-3.35487295675E+01	1.24508105806E+02	-6.01287889744E+00	-2.74583962165E-01
5.21913545950E+05	-9.17856331763E+00	-1.75536507800E+02	5.42539461897E+00	-1.79625083138E+02	-4.29253461718E+01	-1.10444693549E+02	-6.04082009826E+00	-1.39838102418E-01
5.44104900545E+05	-9.27252763041E+00	1.73589449415E+02	5.44524514484E+00	1.79377962311E+02	-3.88906099980E+01	-6.51833760193E+01	-6.01069185622E+00	-3.76025321703E-01
5.66296255139E+05	-1.26496234772E+01	1.77931806683E+02	5.48518912155E+00	1.79521989476E+02	-4.35078363553E+01	-1.10495785004E+01	-6.03521030431E+00	-2.80763822385E-01
5.88487609734E+05	-1.03229720275E+01	-1.79033860079E+02	5.49025337170E+00	1.78728119910E+02	-5.35125587809E+01	1.73364969807E+02	-6.01372333019E+00	-3.00207526019E-01
6.10678964329E+05	-1.17003838993E+01	-1.53182385533E+02	5.34375088115E+00	1.78819547794E+02	-3.87678249522E+01	-1.64638895856E+02	-6.06149550616E+00	-1.06952597047E-01
6.32870318924E+05	-9.40826614227E+00	1.76953153973E+02	5.44948572268E+00	1.79295276626E+02	-3.59850154118E+01	-1.50399072519E+02	-6.02771144164E+00	-3.12260513394E-01
6.55061673519E+05	-1.10375373406E+01	-1.71021746648E+02	5.50398319061E+00	1.78483358489E+02	-3.76245402261E+01	6.85162752653E+01	-5.99586912282E+00	-2.09051128724E-01
6.77253028114E+05	-9.18441003107E+00	1.70372397230E+02	5.45347221693E+00	1.77950763895E+02	-3.93699717179E+01	-3.67742454961E+01	-6.05194463752E+00	-8.09712624590E-01
6.99444382709E+05	-1.28962835387E+01	1.78731635102E+02	5.41525866418E+00	1.77599784940E+02	-4.63404462636E+01	-1.45599740523E+02	-5.98497464111E+00	-5.04181672175E-01
7.21635737304E+05	-7.42975990027E+00	1.53318962678E+02	5.49935884373E+00	1.78558429043E+02	-4.03766222419E+01	1.80354661907E+01	-6.01320658669E+00	-8.01802870344E-01
7.43827091899E+05	-1.42299061874E+01	1.63229153941E+02	5.55681730280E+00	1.78905900138E+02	-4.29699190706E+01	5.76938641299E+01	-6.04590348535E+00	-4.44609260921E-01
7.66018446494E+05	-1.06983541503E+01	-1.70805719161E+02	5.50691622046E+00	1.78322474388E+02	-4.19888731701E+01	-6.78918113110E+01	-6.01119133584E+00	-5.78554624805E-01
7.88209801089E+05	-6.90444231296E+00	1.76265305708E+02	5.43691869439E+00	1.77551836533E+02	-4.32826187181E+01	3.68350422356E+01	-6.07431874896E+00	-4.59010690153E-01
8.10401155684E+05	-1.13423576334E+01	-1.53285795686E+02	5.40692468942E+00	1.77723957857E+02	-4.29660479430E+01	2.20097135823E+01	-6.02173377384E+00	-2.45982083985E-01
8.32592510279E+05	-1.09394647476E+01	-1.45378138799E+02	5.42939565158E+00	1.77757425875E+02	-4.40521876922E+01	7.28500076929E+01	-6.04095443168E+00	-2.72810072436E-01
8.54783864874E+05	-9.52841280405E+00	1.60309598289E+02	5.51750385913E+00	1.77231157442E+02	-3.72630645729E+01	-1.47801329260E+01	-6.05626452588E+00	-4.29112283503E-01
8.76975219469E+05	-1.25408414496E+01	1.67803088080E+02	5.42990974985E+00	1.77461406267E+02	-4.73335974511E+01	4.60969063611E+01	-6.00743634941E+00	-4.04173127549E-01
8.99166574064E+05	-7.64732553995E+00	-1.75650721446E+02	5.48962150851E+00	1.77409435171E+02	-4.22733389978E+01	-3.21929828341E+01	-6.02598132618E+00	-4.22728934850E-01
9.21357928659E+05	-8.65298887284E+00	1.77099268893E+02	5.42962530019E+00	1.77476394827E+02	-4.66834008003E+01	-1.56487291433E+02	-6.05399571574E+00	-5.96086794205E-01
9.43549283254E+05	-1.14453089884E+01	1.50285060546E+02	5.41672829927E+00	1.76736535266E+02	-4.13546109271E+01	-3.03408855583E+01	-6.03523754639E+00	-4.83787828969E-01
9.65740637849E+05	-1.22409722306E+01	-1.74574914464E+02	5.52319199157E+00	1.76856952871E+02	-4.74912040186E+01	-1.54362856588E+02	-6.01594525212E+00	-2.40385362858E-01
9.87931992444E+05	-1.05527521517E+01	-1.69345900690E+02	5.43236844342E+00	1.76800877363E+02	-4.78389830613E+01	1.16070615809E+01	-6.02043805994E+00	-4.14772326210E-01
1.01012334704E+06	-9.60870574054E+00	1.77452471311E+02	5.47670285397E+00	1.76918588244E+02	-3.84848051329E+01	-8.04326608429E+01	-6.02322602842E+00	-6.80003427780E-01
1.03231470163E+06	-1.25928711581E+01	-1.71899378725E+02	5.49469215705E+00	1.76669102162E+02	-5.02003518658E+01	-4.52881816973E+01	-6.04178857405E+00	-5.99744401341E-01
1.05450605623E+06	-7.75821217470E+00	1.44504573537E+02	5.40933792021E+00	1.76223376390E+02	-4.26595821475E+01	1.40015827265E+02	-6.01055941618E+00	-3.53271485412E-01
1.07669741082E+06	-7.78648412576E+00	1.71401509998E+02	5.45039033592E+00	1.76186172448E+02	-5.36521846211E+01	-6.12458967986E+01	-5.98979374627E+00	-4.55617621293E-01
1.09888876542E+06	-1.05394755922E+01	1.63154997298E+02	5.46851601159E+00	1.76092283253E+02	-4.42477883295E+01	-6.42170767840E+01	-5.98796249023E+00	-5.74393810043E-01
1.12108012001E+06	-1.30716435668E+01	1.72689195206E+02	5.49330486782E+00	1.75973018571E+02	-4.73167367866E+01	4.71233591910E+01	-6.03389819139E+00	-8.27757608273E-01
1.14327147461E+06	-7.96644932775E+00	1.69839195815E+02	5.50497198347E+00	1.76179810534E+02	-4.47191528251E+01	-8.49035688722E+01	-5.99909413453E+00	-6.54127054858E-01
1.16546282920E+06	-8.11161897756E+00	-1.77381784040E+02	5.48107816229E+00	1.75798893723E+02	-4.53583173386E+01	-1.45291876497E+02	-6.01573222088E+00	-7.19622781156E-01
1.18765418380E+06	-9.20000942089E+00	1.71701755148E+02	5.46892760162E+00	1.75661193155E+02	-3.40816581679E+01	1.78778584628E+02	-6.03225598196E+00	-7.99469580357E-01
1.20984553839E+06	-8.66646421643E+00	-1.77107612783E+02	5.46258023274E+00	1.75916513043E+02	-3.76279689060E+01	1.64033163202E+02	-5.99514655644E+00	-6.57374713885E-01
1.23203689299E+06	-8.49903421087E+00	1.72871827807E+02	5.45967656681E+00	1.75140039536E+02	-4.20934079509E+01	-5.40733758044E+01	-6.00198810988E+00	-3.30027179578E-01
1.25422824758E+06	-1.10367092701E+01	-1.72184312897E+02	5.45237608482E+00	1.75512857291E+02	-4.58400101669E+01	1.52379336885E+01	-6.01491421777E+00	-8.77646375067E-01
1.27641960218E+06	-1.12144176311E+01	-1.75445431529E+02	5.41879865893E+00	1.75471490012E+02	-4.12832149968E+01	7.88291564166E+01	-6.00874640916E+00	-5.08903487100E-01
1.29861095677E+06	-7.11566193320E+00	1.74544458200E+02	5.50289850445E+00	1.75239432681E+02	-4.40485371265E+01	-7.66462688788E+01	-6.00281118314E+00	-6.28110268938E-01
1.32080231137E+06	-9.88390870447E+00	1.79765065225E+02	5.45252020153E+00	1.74782836469E+02	-4.01466192572E+01	1.04714802885E+02	-6.03405335848E+00	-1.07084056684E+00
1.34299366596E+06	-1.24538600453E+01	1.56558160027E+02	5.40638017528E+00	1.75251411683E+02	-4.72471260482E+01	2.39083792653E+01	-6.01197546641E+00	-5.08145040154E-01
1.36518502056E+06	-1.30142201641E+01	-1.52462931017E+02	5.46377705083E+00	1.74846548760E+02	-4.04005580744E+01	1.36077123386E+02	-6.07964361776E+00	-6.49199209539E-01
1.38737637515E+06	-7.04907701617E+00	1.76672092389E+02	5.40398469807E+00	1.74741648605E+02	-5.34030153970E+01	-1.01147211022E+02	-6.01281717468E+00	-6.19340636235E-01
1.40956772975E+06	-1.28641023067E+01	-1.70762048285E+02	5.49688109918E+00	1.74040504670E+02	-3.44354468932E+01	-8.24782749831E+01	-6.02489957858E+00	-5.53721675405E-01
1.43175908434E+06	-1.08058660458E+01	1.78833020158E+02	5.43575691296E+00	1.74728227125E+02	-3.64188876526E+01	8.68530155964E+00	-6.00874106881E+00	-5.59037404661E-01
1.45395043894E+06	-8.34692695201E+00	-1.74716424192E+02	5.53051601295E+00	1.74438448170E+02	-3.74008281273E+01	1.03176280356E+02	-6.00489590360E+00	-6.52603061360E-01
1.47614179353E+06	-8.82585013691E+00	-1.73054592589E+02	5.42316026572E+00	1.74310997061E+02	-4.58875595273E+01	-2.60896908176E+01	-5.99296342801E+00	-3.74815906460E-01
1.49833314813E+06	-1.01341619210E+01	1.65014803155E+02	5.40225863797E+00	1.74744847239E+02	-4.57524546962E+01	-3.25781399822E+01	-5.99160661165E+00	-9.04192421295E-01
1.52052450272E+06	-9.09964434425E+00	-1.59476969427E+02	5.44562015809E+00	1.73838903277E+02	-5.39646696325E+01	1.38198833926E+02	-6.01480216663E+00	-5.97341675346E-01
1.54271585732E+06	-8.74973424806E+00	-1.74672357572E+02	5.51315407360E+00	1.73743113728E+02	-5.48333576901E+01	-4.48323210226E+01	-6.05338103258E+00	-5.88931271229E-01
1.56490721191E+06	-9.26960409055E+00	-1.68912982287E+02	5.52070267074E+00	1.73732814808E+02	-3.63081819884E+01	9.76328244147E+01	-6.02293066023E+00	-1.14347265457E+00
1.58709856651E+06	-9.96821657911E+00	1.67921887613E+02	5.47695009334E+00	1.73551447228E+02	-4.03552086053E+01	-5.31807504502E+01	-5.96539750459E+00	-9.73614964136E-01
1.60928992110E+06	-1.01323488200E+01	1.74369538219E+02	5.48103500989E+00	1.72925321295E+02	-4.18357091571E+01	-5.64578812158E+00	-6.00698284030E+00	-8.80714397643E-01
1.63148127570E+06	-1.07683052339E+01	1.69524628047E+02	5.42646048122E+00	1.73648857355E+02	-4.83826617851E+01	7.47403040334E+00	-5.96628566357E+00	-1.13129656777E+00
1.65367263029E+06	-1.29466592366E+01	1.55694688336E+02	5.43685640597E+00	1.73419263056E+02	-4.18324104237E+01	-1.01745862728E+02	-6.00171474893E+00	-6.95153177511E-01
1.67586398489E+06	-1.37385590173E+01	1.59421047468E+02	5.44940213663E+00	1.73617852590E+02	-3.90094666696E+01	-6.94119663156E+01	-6.02079720123E+00	-8.41530849108E-01
1.69805533948E+06	-1.08461750460E+01	1.70989007293E+02	5.47903026300E+00	1.73130335721E+02	-3.71160055696E+01	-1.29413917681E+02	-6.05826606077E+00	-9.45612697081E-01
1.72024669408E+06	-7.38271285240E+00	1.61336673716E+02	5.43565009954E+00	1.73587294147E+02	-4.39508327722E+01	2.26464537895E+01	-6.01413761681E+00	-1.00818325304E+00
1.74243804867E+06	-9.93094346258E+00	1.77405005784E+02	5.44279360315E+00	1.73211536885E+02	-3.26129572761E+01	9.65544801131E+01	-5.98256574767E+00	-9.20567794564E-01
1.76462940327E+06	-1.02376964577E+01	1.70084048248E+02	5.47432519371E+00	1.72336987185E+02	-3.47584990080E+01	1.80952782408E+01	-5.98958683087E+00	-1.01504325056E+00
1.78682075786E+06	-1.25826124326E+01	-1.59752068617E+02	5.41529601299E+00	1.72664019912E+02	-4.35467623137E+01	-1.79718664228E+02	-6.03320176313E+00	-8.35063320600E-01
1.80901211246E+06	-1.13270010104E+01	-1.57127926765E+02	5.50498342229E+00	1.72674296043E+02	-4.68543106234E+01	1.37661070857E+02	-6.02441340831E+00	-8.92265330768E-01
1.83120346705E+06	-8.35789531713E+00	1.78041252712E+02	5.43616607700E+00	1.72468735253E+02	-3.57243603866E+01	1.29524768589E+02	-6.02929783383E+00	-8.14179110926E-01
1.85339482165E+06	-1.05424739305E+01	-1.70363824138E+02	5.54254862787E+00	1.72057789481E+02	-4.28548838888E+01	1.23126167057E+02	-6.00848902329E+00	-7.29042097325E-01
1.87558617624E+06	-1.47516054025E+01	-1.77919566129E+02	5.47133375008E+00	1.72370474536E+02	-3.33320627509E+01	-1.47281906090E+02	-6.04054916785E+00	-1.08558558595E+00
1.89777753084E+06	-1.23718087563E+01	-1.66636566087E+02	5.37834453767E+00	1.72231168841E+02	-4.10567833064E+01	9.12720937005E+00	-6.04838901816E+00	-1.01853307461E+00
1.91996888543E+06	-8.67649192206E+00	1.72811012855E+02	5.45434027905E+00	1.71936000368E+02	-4.01157385752E+01	2.07825592091E+01	-6.01541293342E+00	-7.91166030899E-01
1.94216024003E+06	-1.13851146058E+01	1.79595985429E+02	5.45017198603E+00	1.71814174203E+02	-3.92810143463E+01	2.34283404061E+01	-6.00884995782E+00	-9.83722734370E-01
1.96435159462E+06	-8.65737597836E+00	1.76203387732E+02	5.42081447706E+00	1.71933023422E+02	-3.77711295483E+01	-1.23654739231E+02	-6.02754720548E+00	-9.01342670480E-01
1.98654294922E+06	-9.65327189826E+00	1.48313023275E+02	5.40423954243E+00	1.71849704653E+02	-3.38838410326E+01	-6.97812853765E+01	-6.00447150512E+00	-1.13079783509E+00
2.00873430381E+06	-1.37689517678E+01	1.60350464283E+02	5.50371762360E+00	1.71565092203E+02	-3.53803334557E+01	3.32069005598E+01	-6.01644872535E+00	-9.35567377972E-01
2.03092565841E+06	-1.00258391002E+01	-1.75970902500E+02	5.43051025955E+00	1.71298159020E+02	-4.05698082469E+01	3.02734491338E+01	-6.01838414359E+00	-9.37493804169E-01
2.05311701300E+06	-9.95362391891E+00	1.66988927341E+02	5.39221826038E+00	1.71639423234E+02	-3.80791532657E+01	1.63088173424E+02	-6.02214239568E+00	-1.01092041074E+00
2.07530836760E+06	-1.17243593256E+01	1.51579903701E+02	5.47113570357E+00	1.71127135996E+02	-4.00876124265E+01	-9.33234654167E+01	-6.02963489850E+00	-1.14209955282E+00
2.09749972219E+06	-1.05426189562E+01	1.69007437956E+02	5.47087890087E+00	1.71489677990E+02	-4.82026180894E+01	-8.23193919184E+01	-6.03217780119E+00	-1.27809188388E+00
2.11969107679E+06	-1.26365872073E+01	1.74589738338E+02	5.43488577876E+00	1.71836883532E+02	-3.98228434795E+01	-3.79432953247E+00	-5.99436201751E+00	-1.15782485295E+00
2.14188243138E+06	-1.27530005402E+01	1.78307395918E+02	5.49247863667E+00	1.71013319339E+02	-4.94300547117E+01	-1.24172483665E+02	-5.98095072999E+00	-1.11683748443E+00
2.16407378598E+06	-8.88017878960E+00	-1.75520717868E+02	5.44459921910E+00	1.70900591212E+02	-3.64147040715E+01	1.14206124741E+02	-6.00180829550E+00	-8.60550123253E-01
2.18626514057E+06	-8.16746075666E+00	1.73307170936E+02	5.38671612003E+00	1.70476314571E+02	-4.56184829202E+01	-3.45741275674E-01	-6.03024487847E+00	-1.12062199291E+00
2.20845649517E+06	-1.03303439480E+01	-1.76509510065E+02	5.33762581924E+00	1.70637773040E+02	-4.01770855381E+01	-1.05412787890E+02	-5.98266109650E+00	-1.16216621063E+00
2.23064784976E+06	-1.10630009819E+01	1.47177036440E+02	5.42467417037E+00	1.70709873530E+02	-4.85416175015E+01	-7.30000046927E+01	-6.04392650520E+00	-1.08774069959E+00
2.25283920436E+06	-1.17833455437E+01	-1.65445107354E+02	5.45256608389E+00	1.70300378116E+02	-3.69500042103E+01	1.29773112104E+02	-6.01138154113E+00	-9.17756410623E-01
2.27503055895E+06	-1.03877394041E+01	1.73281228232E+02	5.46900345606E+00	1.70443547867E+02	-5.00609939405E+01	1.48241708735E+02	-6.03461883856E+00	-9.12355909898E-01
2.29722191355E+06	-1.20003064176E+01	-1.64819790811E+02	5.43523756166E+00	1.70024205274E+02	-3.56797594391E+01	-1.37822637658E+02	-6.04113172271E+00	-1.02492945183E+00
2.31941326814E+06	-1.30311158239E+01	1.71861194214E+02	5.49540846746E+00	1.70017385191E+02	-4.41835681309E+01	-7.06112800218E+01	-6.04512594253E+00	-8.81578700200E-01
2.34160462274E+06	-1.34981385091E+01	1.64269130903E+02	5.42208462431E+00	1.70266451922E+02	-5.33112753644E+01	1.29391485350E+02	-6.01673297484E+00	-1.20732646835E+00
2.36379597733E+06	-8.06346360541E+00	1.78305673744E+02	5.49760787309E+00	1.69685883856E+02	-4.90321802325E+01	-9.18241834693E+01	-6.00832711797E+00	-1.01116039161E+00
2.38598733193E+06	-1.77977268880E+01	1.51119760513E+02	5.45967313798E+00	1.69627000137E+02	-4.63132299442E+01	-1.37598289567E+02	-6.06892870081E+00	-1.30545712563E+00
2.40817868652E+06	-1.06043784894E+01	1.58596810167E+02	5.37929786890E+00	1.69894348308E+02	-4.21789171338E+01	1.38663658657E+02	-5.98275313644E+00	-1.19046916510E+00
2.43037004112E+06	-8.96222413440E+00	1.72301685881E+02	5.44336883744E+00	1.70055264044E+02	-5.23462791139E+01	1.19339406425E+02	-6.01601245937E+00	-1.21933155272E+00
2.45256139571E+06	-9.87988320856E+00	1.69828593400E+02	5.44390394512E+00	1.69733912767E+02	-5.11507299899E+01	6.23896719907E+01	-5.98955626541E+00	-8.31435181278E-01
2.47475275031E+06	-1.09320922844E+01	1.79242299249E+02	5.44597701602E+00	1.69847009338E+02	-4.48950425391E+01	1.41500390662E+02	-6.04602176037E+00	-9.28641867587E-01
2.49694410490E+06	-1.14669213866E+01	-1.71555101181E+02	5.45021594892E+00	1.69613347543E+02	-3.85678379079E+01	1.07776645558E+02	-6.02747732691E+00	-1.24215924674E+00
2.51913545950E+06	-8.75522746395E+00	1.78451704699E+02	5.42401703655E+00	1.69148060961E+02	-4.19737507578E+01	-9.72602924563E+01	-6.01408776506E+00	-1.11962018246E+00
2.54132681409E+06	-1.03463056004E+01	1.65245114574E+02	5.44868964640E+00	1.68968578371E+02	-4.28974805271E+01	-7.23552925729E+01	-6.04657289405E+00	-1.15148050471E+00
2.56351816869E+06	-1.02798327229E+01	-1.72777455248E+02	5.46260629190E+00	1.68977362826E+02	-5.05639352111E+01	9.50508489287E+01	-6.03306041680E+00	-1.28780473217E+00
2.58570952328E+06	-1.08225759003E+01	-1.78078591972E+02	5.50081998459E+00	1.69969796618E+02	-3.96780118733E+01	-1.23120411414E+02	-6.02408584259E+00	-1.26377305355E+00
2.60790087788E+06	-1.44891801634E+01	1.63221000833E+02	5.45519180054E+00	1.69070809954E+02	-4.14764693076E+01	-8.84536782308E+01	-6.05873700669E+00	-1.09157283889E+00
2.63009223247E+06	-1.52597012310E+01	-1.73257621558E+02	5.46188731417E+00	1.69024446520E+02	-5.07993399585E+01	-9.04126295643E+00	-6.00236261805E+00	-1.25454977012E+00
2.65228358707E+06	-1.46920958091E+01	-1.76905740054E+02	5.49046090238E+00	1.69097956806E+02	-5.10659011972E+01	-7.63424741789E+01	-6.05472358699E+00	-1.66136126540E+00
2.67447494166E+06	-1.15811243488E+01	-1.64591798520E+02	5.49868827072E+00	1.68514808274E+02	-3.45242154286E+01	-1.24728843020E+02	-6.04269370137E+00	-1.74080833155E+00
2.69666629626E+06	-9.75086976213E+00	1.68173873061E+02	5.48375957836E+00	1.68216712056E+02	-4.59077335133E+01	1.04960785814E+02	-6.05060126855E+00	-1.20442559873E+00
2.71885765085E+06	-1.31238311258E+01	1.63897467183E+02	5.39508650484E+00	1.68418472426E+02	-3.53463805269E+01	-8.91698785331E+01	-5.98648681580E+00	-1.08684772700E+00
2.74104900545E+06	-1.01101964275E+01	1.75150639586E+02	5.45703156984E+00	1.68420161859E+02	-4.79645325055E+01	1.17381788931E+02	-6.04261056337E+00	-1.24259170367E+00
2.76324036004E+06	-8.19606555570E+00	1.79655022945E+02	5.44113459510E+00	1.68755023945E+02	-3.93251835122E+01	-8.88702824971E+01	-6.01771512101E+00	-1.25561493813E+00
2.78543171463E+06	-8.74517850519E+00	1.55241332788E+02	5.38723988087E+00	1.68285266583E+02	-3.87545729191E+01	1.28409067532E+02	-6.00224917898E+00	-1.38750161732E+00
2.80762306923E+06	-1.33410420816E+01	1.62910645025E+02	5.43477132759E+00	1.68218113319E+02	-4.06104391205E+01	1.13997672465E+02	-6.02050630669E+00	-1.06957901364E+00
2.82981442382E+06	-1.20193720685E+01	-1.74898471780E+02	5.51307853832E+00	1.68006674512E+02	-4.00549210854E+01	1.57503769465E+02	-6.02156745003E+00	-1.54320995753E+00
2.85200577842E+06	-7.82287492648E+00	1.60022846109E+02	5.46331046353E+00	1.67734221057E+02	-3.90199581190E+01	1.26369661216E+02	-5.99123854730E+00	-1.34371106218E+00
2.87419713301E+06	-1.23307157626E+01	-1.61572568324E+02	5.48098333748E+00	1.67242910601E+02	-4.11877578572E+01	1.20926932868E+02	-6.01385645380E+00	-1.17541036845E+00
