# Hz S DB R 50
! CMT, M5065, 19127446, 24.2.4/2
! Date: 10/29/2024 1:16:47 PM
! Data: Format (Calibration Info)
! Freq	S11:dB/Ang(F2)	S21:dB/Ang(F2)	S12:dB/Ang(F2)	S22:dB/Ang(F2)
3.00000000000E+05	-5.98442995629E+00	-1.69403711505E+02	9.22633141929E+00	-1.77912198931E+02	-4.42058288622E+01	7.80098644174E+01	-6.05001450774E+00	-3.46249009413E-01
3.22191354595E+05	-7.96703138758E+00	1.66578999517E+02	9.22706307634E+00	-1.78573096101E+02	-4.32832270532E+01	7.33879943379E+01	-6.01175387335E+00	-3.18662032142E-01
3.44382709190E+05	-8.04760861077E+00	1.76300760626E+02	9.29449695472E+00	-1.78491111718E+02	-3.37011828459E+01	1.77655655886E+02	-5.99004861894E+00	-5.58277153458E-01
3.66574063785E+05	-1.03768304731E+01	-1.62784053301E+02	9.30196925348E+00	-1.78968460469E+02	-4.00599897934E+01	1.22614215079E+02	-6.03063279606E+00	-2.26150428735E-01
3.88765418380E+05	-1.14819525756E+01	-1.69783399954E+02	9.24616811216E+00	-1.79586109281E+02	-4.23315846223E+01	-1.70802589194E+02	-6.00240501725E+00	-5.11181920238E-01
4.10956772975E+05	-9.07149695233E+00	-1.54472016502E+02	9.30864106412E+00	-1.79096298452E+02	-3.96072725729E+01	3.89091335004E+01	-6.00049798172E+00	-3.43613683007E-01
4.33148127570E+05	-1.04993942332E+01	-1.68063980331E+02	9.26000920826E+00	-1.79607244808E+02	-4.45145950438E+01	1.97432420523E+01	-6.03083677005E+00	-3.16580473800E-01
4.55339482165E+05	-1.19904466969E+01	1.78689251821E+02	9.27042792903E+00	1.79815691371E+02	-4.34096251499E+01	-1.48913783985E+02	-6.05164374952E+00	-4.31147456978E-01
4.77530836760E+05	-1.23248253452E+01	1.79176124427E+02	9.30288392372E+00	1.79560336085E+02	-5.12144983753E+01	6.28961530500E+01	-6.01883889891E+00	-1.45159116871E-01
4.99722191355E+05	-1.22504590795E+01	-1.55906859553E+02	9.28294901751E+00	1.79808096377E+02	-4.56050517414E+01	1.78291356266E+02	-6.04454889502E+00	-4.70848333258E-01
5.21913545950E+05	-1.30398377765E+01	1.78781221816E+02	9.30411601715E+00	1.79550299891E+02	-4.40775300228E+01	-5.50520236451E+00	-6.07591660773E+00	-5.42877972401E-01
5.44104900545E+05	-7.50035144662E+00	1.78727098623E+02	9.26360923302E+00	1.79263807196E+02	-3.69953053200E+01	-8.29247065422E+00	-6.01387769780E+00	-5.10236073434E-01
5.66296255139E+05	-1.19833052474E+01	-1.76957598299E+02	9.23809763409E+00	1.78963007314E+02	-4.17118132624E+01	-1.40108406894E+02	-6.02342236892E+00	-3.82874365529E-01
5.88487609734E+05	-8.14681362009E+00	-1.68284809079E+02	9.25519902810E+00	1.78432766074E+02	-4.11083843251E+01	5.17602156071E+01	-6.03761659249E+00	-6.17078061916E-01
6.10678964329E+05	-8.29934376951E+00	1.76714846941E+02	9.29517240191E+00	1.78203246971E+02	-5.08867149477E+01	6.90103615339E+01	-6.03307145555E+00	8.51126003156E-03
6.32870318924E+05	-1.00764327923E+01	1.73690449758E+02	9.28601122445E+00	1.78371943214E+02	-4.85924695654E+01	3.04516324846E+01	-6.02590506392E+00	-1.08434970529E-01
6.55061673519E+05	-1.13975230567E+01	-1.73042682216E+02	9.27614558889E+00	1.78308865973E+02	-4.15667975025E+01	-1.71254667502E+02	-6.03776342103E+00	-1.47900000343E-01
6.77253028114E+05	-7.57132230931E+00	-1.70522009863E+02	9.30533940884E+00	1.77863135336E+02	-3.48343328848E+01	-4.33593091058E+01	-6.00134928220E+00	-7.80872093686E-01
6.99444382709E+05	-1.23611563682E+01	1.63432119036E+02	9.24013992228E+00	1.77973843660E+02	-3.93236480202E+01	-7.66711389147E+01	-6.04507639281E+00	-4.87557192553E-01
7.21635737304E+05	-1.09109169725E+01	-1.72119800674E+02	9.28642367358E+00	1.77620471046E+02	-4.03690577402E+01	-1.68474951932E+02	-6.00589778125E+00	-6.07699856028E-01
7.43827091899E+05	-1.04153570000E+01	-1.63248528993E+02	9.20000618937E+00	1.77545014281E+02	-3.79753179337E+01	2.40160849915E+00	-6.00729989871E+00	-5.41358649941E-01
7.66018446494E+05	-1.12753302463E+01	-1.66026371328E+02	9.31862658513E+00	1.77849657075E+02	-4.40982468008E+01	1.45368978222E+02	-6.03515447384E+00	-7.96562268028E-01
7.88209801089E+05	-1.41849385357E+01	-1.69623909753E+02	9.30364655960E+00	1.77344856178E+02	-4.27943071016E+01	7.37637575860E+01	-6.03005449106E+00	-2.58726769104E-01
8.10401155684E+05	-7.42068749267E+00	1.75640897796E+02	9.31870406809E+00	1.77420677568E+02	-3.83362760232E+01	-1.45423864913E+02	-5.96895908187E+00	-4.89095028669E-01
8.32592510279E+05	-9.97424980942E+00	1.64220846408E+02	9.27214921776E+00	1.76897682325E+02	-4.55184967395E+01	-1.57733138843E+02	-5.98432057357E+00	-5.16477767096E-01
8.54783864874E+05	-9.79630122257E+00	-1.59471932682E+02	9.26800407925E+00	1.77083342974E+02	-4.23864991937E+01	1.55978964413E+02	-6.05026181762E+00	-4.52851632736E-01
8.76975219469E+05	-7.73801799012E+00	-1.75696795634E+02	9.31156278405E+00	1.76644158711E+02	-3.33117677570E+01	-1.50052429589E-01	-6.01165854036E+00	-7.97032813874E-01
8.99166574064E+05	-1.24189367426E+01	1.74363162554E+02	9.27310951822E+00	1.76588739058E+02	-4.53647861594E+01	-1.24887493690E+02	-6.00576354049E+00	-4.23178444338E-01
9.21357928659E+05	-7.91558387209E+00	-1.71006484076E+02	9.30757641264E+00	1.76132464261E+02	-4.45516017342E+01	1.23407522674E+02	-6.00983060434E+00	-5.77368611422E-01
9.43549283254E+05	-8.51190878790E+00	1.78594853711E+02	9.28599365855E+00	1.76275420419E+02	-4.32605667777E+01	-2.81203050043E+01	-6.00532628712E+00	-5.66517483294E-01
9.65740637849E+05	-1.53804886273E+01	1.52659469064E+02	9.24853412866E+00	1.75882696122E+02	-4.52880642307E+01	-9.22959857321E+01	-6.01818750350E+00	-6.61431297456E-01
9.87931992444E+05	-1.00808593981E+01	-1.72634169858E+02	9.27474044788E+00	1.75823137576E+02	-3.81933268991E+01	1.95430032627E+01	-6.02688924128E+00	-4.84090605376E-01
1.01012334704E+06	-9.67517985379E+00	-1.44194974723E+02	9.24091356420E+00	1.75666103168E+02	-4.32627426046E+01	3.97349654698E+01	-6.01401006462E+00	-5.07593739666E-01
1.03231470163E+06	-7.00134978978E+00	1.75794339864E+02	9.28305520237E+00	1.75553556510E+02	-3.31859854273E+01	1.08654459815E+01	-6.02825913601E+00	-5.32940373836E-01
1.05450605623E+06	-1.19074009825E+01	-1.57580768415E+02	9.28926009966E+00	1.75259575429E+02	-3.76317857771E+01	1.14942806019E+02	-6.04310645556E+00	-7.39803192144E-01
1.07669741082E+06	-8.51641774465E+00	1.66361968328E+02	9.25767787999E+00	1.75268758170E+02	-3.96961214299E+01	4.00756409610E+01	-6.04402991478E+00	-4.10295876577E-01
1.09888876542E+06	-1.38756398595E+01	1.53480923388E+02	9.27288238098E+00	1.74959414215E+02	-3.81002395357E+01	-1.17599551230E+02	-5.99006027758E+00	-7.31001190112E-01
1.12108012001E+06	-8.83337231573E+00	1.76923830454E+02	9.28578278451E+00	1.75197325231E+02	-3.87941226230E+01	4.96549800248E+01	-6.02994912271E+00	-6.04734671219E-01
1.14327147461E+06	-1.06525755809E+01	-1.72714359486E+02	9.28274629429E+00	1.74972740601E+02	-4.36367930845E+01	-7.39579576832E+01	-6.01304988711E+00	-5.19060044498E-01
1.16546282920E+06	-9.14927884855E+00	-1.73781986798E+02	9.32902977815E+00	1.74783533089E+02	-3.66107132909E+01	-5.44707543909E+01	-6.01231403887E+00	-7.94644257569E-01
1.18765418380E+06	-1.00089093013E+01	1.64533769339E+02	9.29731653427E+00	1.75148709298E+02	-3.71021074378E+01	-2.64124327772E+01	-6.03382938650E+00	-5.40615886010E-01
1.20984553839E+06	-9.31481111512E+00	1.78062076506E+02	9.26475427159E+00	1.74495927669E+02	-4.59047913583E+01	7.00963866254E+01	-5.99740972014E+00	-7.81712137730E-01
1.23203689299E+06	-1.71692662556E+01	-1.52597830551E+02	9.31330332247E+00	1.74179108021E+02	-5.11799655684E+01	1.25018694433E+02	-5.99058722682E+00	-5.50913214304E-01
1.25422824758E+06	-1.09663790501E+01	-1.76681286900E+02	9.32603175114E+00	1.74091806968E+02	-4.02211746770E+01	1.20581763651E+02	-6.04078435667E+00	-5.36758867941E-01
1.27641960218E+06	-9.76006071455E+00	1.76447186496E+02	9.24177534186E+00	1.74120932389E+02	-4.45015643386E+01	-2.79712516310E+01	-6.03645316901E+00	-8.54899511915E-01
1.29861095677E+06	-1.14996819201E+01	-1.76829929513E+02	9.24487620030E+00	1.74300406233E+02	-4.98310039542E+01	-1.76222817604E+02	-6.05486749937E+00	-7.39576236371E-01
1.32080231137E+06	-1.04977626379E+01	1.78861522633E+02	9.30078969216E+00	1.74393717834E+02	-4.17014167728E+01	-1.32676803637E+02	-6.01514790915E+00	-7.79251705428E-01
1.34299366596E+06	-1.04180169868E+01	-1.72760294712E+02	9.30070346318E+00	1.73777715364E+02	-3.82019266899E+01	-1.27877755379E+02	-6.03855358440E+00	-8.82798966225E-01
1.36518502056E+06	-1.30884911309E+01	-1.70857580011E+02	9.27402251897E+00	1.73573118381E+02	-3.92694647646E+01	8.51957812470E+01	-6.04680894508E+00	-7.49829595943E-01
1.38737637515E+06	-1.06947401734E+01	1.77227138621E+02	9.30877472039E+00	1.73613017879E+02	-3.60464801214E+01	-1.44799495480E+02	-6.00997362282E+00	-8.75527501801E-01
1.40956772975E+06	-1.23328791758E+01	1.73608795737E+02	9.21556848458E+00	1.73714898793E+02	-3.10157032895E+01	-1.03097960072E+02	-5.97949613817E+00	-7.72341094519E-01
1.43175908434E+06	-1.09821638423E+01	1.72242706875E+02	9.28068772110E+00	1.73113538113E+02	-3.80584344500E+01	1.41177284838E+02	-6.01002996899E+00	-7.08328429905E-01
1.45395043894E+06	-1.23041437718E+01	-1.79292027197E+02	9.30075007150E+00	1.73032132970E+02	-4.15441696130E+01	-3.12877322895E+01	-6.01522837431E+00	-3.56933133251E-01
1.47614179353E+06	-1.10361677110E+01	1.64074478967E+02	9.35281546656E+00	1.73206990578E+02	-4.05838964528E+01	1.60366045954E+02	-6.01993661717E+00	-1.00436090677E+00
1.49833314813E+06	-9.53810387942E+00	1.68442353239E+02	9.22879480972E+00	1.72445559016E+02	-3.37256802903E+01	1.55728704653E+02	-6.03456253888E+00	-5.53637944757E-01
1.52052450272E+06	-8.64719071606E+00	1.79988223116E+02	9.25423355686E+00	1.72567901937E+02	-3.74193858394E+01	-1.34279043058E+02	-6.02504124761E+00	-7.42917438831E-01
1.54271585732E+06	-1.12187733399E+01	1.71433696412E+02	9.31169541225E+00	1.72573807235E+02	-4.37033307386E+01	-4.49237155003E+00	-6.03162132686E+00	-7.62850160972E-01
1.56490721191E+06	-8.91963856982E+00	-1.70728824928E+02	9.27930439751E+00	1.72643371530E+02	-4.28417200964E+01	4.40515044820E+01	-6.00382933213E+00	-7.03948554068E-01
1.58709856651E+06	-9.86935530492E+00	1.72199133567E+02	9.27864594598E+00	1.72327163986E+02	-4.40086646095E+01	-6.70627097894E+01	-6.00986824651E+00	-8.93832796726E-01
1.60928992110E+06	-9.15775435474E+00	1.51228853570E+02	9.37163257340E+00	1.72260391496E+02	-3.73110686977E+01	-8.53162361769E+00	-6.00176640003E+00	-8.79659691529E-01
1.63148127570E+06	-1.09475143762E+01	1.72621485894E+02	9.22651713298E+00	1.72225263142E+02	-4.27466229142E+01	1.46855565820E+02	-6.00131906776E+00	-9.64279624587E-01
1.65367263029E+06	-7.41164817991E+00	-1.64217114719E+02	9.28046241373E+00	1.72367075494E+02	-3.55163512971E+01	9.65946907365E+01	-5.99748579304E+00	-6.80059022327E-01
1.67586398489E+06	-8.81732671398E+00	1.66751810956E+02	9.34361371512E+00	1.71824566605E+02	-5.02042842441E+01	-1.60806614486E+02	-6.02619371343E+00	-9.53994977710E-01
1.69805533948E+06	-1.21793037318E+01	1.79636086525E+02	9.32591521479E+00	1.71750134967E+02	-5.31407208969E+01	5.49268382969E+01	-6.03721277846E+00	-8.92708906337E-01
1.72024669408E+06	-1.12116546981E+01	-1.68080606890E+02	9.19462335989E+00	1.72055015243E+02	-4.62932761347E+01	5.91049482255E+01	-6.04288044198E+00	-8.11815766222E-01
1.74243804867E+06	-8.70207394482E+00	1.75642461655E+02	9.30960221304E+00	1.71057410408E+02	-3.75000562528E+01	5.39184286102E+00	-6.03209353609E+00	-7.97479351726E-01
1.76462940327E+06	-9.55422457190E+00	1.61865419135E+02	9.29028594282E+00	1.71368146529E+02	-4.85556003253E+01	-1.09668364396E+02	-6.04991186531E+00	-8.63067896723E-01
1.78682075786E+06	-7.96292976659E+00	-1.62566762727E+02	9.30435024391E+00	1.71062460768E+02	-3.61987735255E+01	-2.14714255652E+01	-6.00872240156E+00	-1.37495943591E+00
1.80901211246E+06	-1.29543728294E+01	-1.73671626604E+02	9.30457463746E+00	1.70932762722E+02	-3.61359290044E+01	-1.48282479929E+02	-6.00555290540E+00	-9.69420730018E-01
1.83120346705E+06	-9.41057720222E+00	1.67740426240E+02	9.27549864566E+00	1.70427166744E+02	-4.80496240191E+01	-3.87485937861E+00	-6.04992538825E+00	-1.15686943066E+00
1.85339482165E+06	-8.56843209515E+00	1.78210092615E+02	9.25691281680E+00	1.70705039873E+02	-4.48288878302E+01	1.28970829931E+02	-5.99732517818E+00	-8.63704824636E-01
1.87558617624E+06	-8.42455940968E+00	-1.72107896468E+02	9.28049373248E+00	1.70931555265E+02	-4.18991520628E+01	4.18876770947E+01	-6.03747535490E+00	-1.12234999573E+00
1.89777753084E+06	-6.18371847014E+00	-1.65686064860E+02	9.29003409945E+00	1.70681842643E+02	-4.18981279417E+01	7.62265104605E+01	-6.00578051029E+00	-1.09952542399E+00
1.91996888543E+06	-1.14711832626E+01	-1.64843193084E+02	9.29784181612E+00	1.70585739474E+02	-3.72629729073E+01	-1.95575568566E+01	-6.01181252429E+00	-7.83263987634E-01
1.94216024003E+06	-1.20753447584E+01	-1.60676645481E+02	9.24826975057E+00	1.70494958454E+02	-4.06422120150E+01	8.57564545554E+01	-6.02051676359E+00	-9.16873000074E-01
1.96435159462E+06	-1.17885626289E+01	1.72813393992E+02	9.30365390793E+00	1.70310652346E+02	-3.77518122007E+01	7.13692603578E+01	-6.01878652494E+00	-9.90557329634E-01
1.98654294922E+06	-1.05126648498E+01	1.78030392105E+02	9.24080943471E+00	1.69964389904E+02	-3.75654226245E+01	-2.25453642490E+01	-6.01850444337E+00	-9.84678292223E-01
2.00873430381E+06	-9.08253062577E+00	1.69519499226E+02	9.19959837827E+00	1.69985682398E+02	-5.77148003696E+01	-1.40922262313E+01	-6.06188315635E+00	-9.21677695396E-01
2.03092565841E+06	-1.12477856113E+01	1.59544891045E+02	9.32267074404E+00	1.69949294187E+02	-4.06223853649E+01	-1.49373145022E+02	-6.00675774185E+00	-9.70288877072E-01
2.05311701300E+06	-1.18177102105E+01	-1.57498129625E+02	9.25875178261E+00	1.69764542810E+02	-3.99792554531E+01	-2.84296937682E+01	-6.01530924032E+00	-1.15674515840E+00
2.07530836760E+06	-9.90949820555E+00	1.54514810888E+02	9.25584205641E+00	1.69288785034E+02	-3.66090507513E+01	-8.15537958912E+01	-5.99976461691E+00	-8.76608408156E-01
2.09749972219E+06	-9.40545408893E+00	1.64912752241E+02	9.34012791879E+00	1.69770867021E+02	-3.44280282272E+01	-5.55963362535E+01	-6.01050077943E+00	-1.27071072031E+00
2.11969107679E+06	-8.49410224740E+00	-1.74522186116E+02	9.32675357981E+00	1.69577226461E+02	-3.90004155070E+01	6.60685527117E+01	-6.00303858550E+00	-1.03602482963E+00
2.14188243138E+06	-1.15257036253E+01	1.38220247852E+02	9.25578317474E+00	1.69404880136E+02	-4.17919007550E+01	6.25700263342E+01	-6.03154781669E+00	-9.30618838330E-01
2.16407378598E+06	-9.70135601831E+00	1.50190132699E+02	9.15114277091E+00	1.68563350028E+02	-3.74383261818E+01	-1.58938684382E+02	-6.01329850112E+00	-8.51352395629E-01
2.18626514057E+06	-8.39528151368E+00	1.75069109853E+02	9.26990257871E+00	1.69358350662E+02	-5.26261744493E+01	1.64587792279E+02	-6.03499843035E+00	-1.06075322336E+00
2.20845649517E+06	-9.47979507346E+00	1.79321543846E+02	9.28143768605E+00	1.68969335327E+02	-4.21971775703E+01	-1.45574555932E+02	-6.00710034186E+00	-9.53464604383E-01
2.23064784976E+06	-6.88278068543E+00	-1.68290317974E+02	9.22271522008E+00	1.68909103195E+02	-3.78098253073E+01	-1.08843728053E+02	-6.01139147339E+00	-9.94665005167E-01
2.25283920436E+06	-9.80399373594E+00	-1.79840379783E+02	9.29215967473E+00	1.68638034077E+02	-3.82073524293E+01	4.75364996466E+01	-5.92260114746E+00	-1.22954960456E+00
2.27503055895E+06	-8.32255431413E+00	1.60684293330E+02	9.32654317146E+00	1.68757784418E+02	-3.94680891716E+01	6.92193345444E+00	-6.03327378666E+00	-1.43100299732E+00
2.29722191355E+06	-8.16847838590E+00	-1.78863043637E+02	9.28560029351E+00	1.68115285654E+02	-3.73316352384E+01	1.64119576511E+02	-6.02407855721E+00	-1.19265916161E+00
2.31941326814E+06	-8.83127173906E+00	1.74799741030E+02	9.24396651126E+00	1.68378257505E+02	-3.72885713394E+01	1.70532089696E+02	-5.99128187070E+00	-8.98918167195E-01
2.34160462274E+06	-1.46616247749E+01	-1.77634310685E+02	9.21065301807E+00	1.67958604368E+02	-4.37158187880E+01	-4.96082038233E+01	-6.00846570886E+00	-1.24248028701E+00
2.36379597733E+06	-1.14946838177E+01	1.64301397384E+02	9.26217173350E+00	1.68227366781E+02	-5.31052543918E+01	2.40690956853E+01	-5.98679416347E+00	-1.16671063709E+00
2.38598733193E+06	-9.54799082315E+00	-1.79237757739E+02	9.27286706007E+00	1.68250639907E+02	-4.03799781179E+01	1.17840570098E+01	-5.97542304882E+00	-1.07741933459E+00
2.40817868652E+06	-9.48386196942E+00	1.70016524711E+02	9.30358408182E+00	1.67654617117E+02	-4.15153233191E+01	2.07371132643E+01	-5.99759516121E+00	-1.65382787999E+00
2.43037004112E+06	-1.17154265016E+01	1.65489742847E+02	9.37848320525E+00	1.67507862893E+02	-4.16409222481E+01	-2.70198031903E+01	-6.03041056961E+00	-1.00031525982E+00
2.45256139571E+06	-1.21683353273E+01	-1.75365885446E+02	9.29253128116E+00	1.67562601784E+02	-4.48131438319E+01	1.28690551629E+02	-6.05859398474E+00	-9.64524331026E-01
2.47475275031E+06	-9.36948655932E+00	1.65818313245E+02	9.30234835373E+00	1.67399163578E+02	-3.35584990958E+01	1.31049310200E+02	-6.05037976192E+00	-1.03800430721E+00
2.49694410490E+06	-8.57356599879E+00	1.69926933067E+02	9.31404842930E+00	1.67099997663E+02	-4.01970069132E+01	6.84124985053E+01	-6.02692532207E+00	-1.22658775934E+00
2.51913545950E+06	-8.96197243927E+00	-1.72548458233E+02	9.27715147051E+00	1.67441607952E+02	-3.94836140934E+01	8.37354380165E+01	-6.03964432245E+00	-1.37390700081E+00
2.54132681409E+06	-1.11796791664E+01	-1.75728237943E+02	9.24523940395E+00	1.67237910395E+02	-4.02087329478E+01	-1.34546116210E+02	-6.03791751999E+00	-1.11024378671E+00
2.56351816869E+06	-9.78089978218E+00	1.73368519037E+02	9.28211957533E+00	1.67148863865E+02	-3.30005276841E+01	-7.54417156899E+01	-6.06329682974E+00	-1.16272977947E+00
2.58570952328E+06	-8.63887801738E+00	1.58505077355E+02	9.31013595590E+00	1.66760052047E+02	-3.76462420688E+01	8.16971819904E+01	-6.01045998940E+00	-1.21890510440E+00
2.60790087788E+06	-1.07768875618E+01	1.68414372698E+02	9.26787348806E+00	1.66721198523E+02	-3.81401032299E+01	1.41956387139E+02	-6.01059616706E+00	-1.14238980377E+00
2.63009223247E+06	-9.55118142343E+00	1.74880857758E+02	9.33687157299E+00	1.66857075514E+02	-4.00011527679E+01	7.91969851727E+01	-6.00194238230E+00	-1.33161488881E+00
2.65228358707E+06	-1.12195960488E+01	-1.71283905052E+02	9.28961577450E+00	1.66978074335E+02	-4.09223949884E+01	1.11363243805E+02	-5.98988902101E+00	-1.76598333368E+00
2.67447494166E+06	-6.96942514395E+00	-1.58462407873E+02	9.29498301565E+00	1.66421481189E+02	-3.76336978464E+01	-1.13132085122E+02	-6.03460604204E+00	-1.31731465580E+00
2.69666629626E+06	-1.34149384406E+01	1.58386451007E+02	9.28158240252E+00	1.66677953840E+02	-4.52850389517E+01	-1.36860032932E+02	-6.00145238296E+00	-1.41684794483E+00
2.71885765085E+06	-7.98928746153E+00	-1.79364864299E+02	9.25131586481E+00	1.66038618239E+02	-4.48636998465E+01	2.26908633721E+01	-5.98996054187E+00	-1.57087623189E+00
2.74104900545E+06	-9.65867595441E+00	1.72624058788E+02	9.28049812519E+00	1.65956205670E+02	-5.16821285798E+01	2.29050042446E+01	-6.04355351802E+00	-1.29554741665E+00
2.76324036004E+06	-8.39484903804E+00	-1.67068610984E+02	9.28040275343E+00	1.65816682325E+02	-4.17726438081E+01	1.28515519982E+02	-6.02952017349E+00	-1.14395409461E+00
2.78543171463E+06	-1.05938618697E+01	1.77434896806E+02	9.30312710582E+00	1.65676373768E+02	-5.38192347308E+01	-1.75961029364E+02	-6.04358654401E+00	-1.38454147530E+00
2.80762306923E+06	-1.24139179534E+01	1.75874566151E+02	9.25841179947E+00	1.65829325668E+02	-4.09997731018E+01	-9.97851142191E+00	-6.01908111473E+00	-1.24081547779E+00
2.82981442382E+06	-9.28105000209E+00	-1.77894291110E+02	9.26459825156E+00	1.65876604433E+02	-4.74652927085E+01	-1.49479289425E+02	-6.03196578071E+00	-1.10972619853E+00
2.85200577842E+06	-1.23504503299E+01	1.70560909204E+02	9.32452236827E+00	1.65972374616E+02	-3.93073755118E+01	-1.40181212910E+02	-6.00159575779E+00	-1.36258729871E+00
2.87419713301E+06	-1.80687320664E+01	1.55254939053E+02	9.26676222877E+00	1.65614134465E+02	-3.88261300938E+01	-2.98952739944E+01	-5.97917135314E+00	-1.35055492551E+00
