# Hz S DB R 50
! CMT, M5065, 19127446, 24.2.4/2
! Date: 10/29/2024 1:08:54 PM
! Data: Format (Calibration Info)
! Freq	S11:dB/Ang(F2)	S21:dB/Ang(F2)	S12:dB/Ang(F2)	S22:dB/Ang(F2)
3.00000000000E+05	-1.07633910727E+01	1.74406855859E+02	6.71027471524E+00	-1.77915108743E+02	-3.51770083895E+01	-1.43753113238E+02	-6.04448797432E+00	-2.90969319789E-04
3.22191354595E+05	-9.33978049595E+00	-1.68193618745E+02	6.67286909052E+00	-1.78069964811E+02	-4.65029510493E+01	-1.15104510976E+01	-6.01403340093E+00	-1.20822131553E-01
3.44382709190E+05	-7.89396226855E+00	-1.77416633454E+02	6.72890255852E+00	-1.79126344302E+02	-4.48791055760E+01	1.75059345210E+02	-6.03116624611E+00	-2.84797789930E-01
3.66574063785E+05	-9.80807663482E+00	-1.71204468075E+02	6.73953965484E+00	-1.78842470097E+02	-4.19723976324E+01	-1.52578630507E+02	-6.05831339670E+00	-2.90536681165E-01
3.88765418380E+05	-1.09834294405E+01	1.78381418365E+02	6.75921576002E+00	-1.79113558897E+02	-3.84195841304E+01	1.99099171673E+01	-6.04833724621E+00	-1.63924710226E-01
4.10956772975E+05	-8.45485230004E+00	-1.78143192397E+02	6.75516202008E+00	-1.79463976198E+02	-3.89400953012E+01	7.78346236014E+01	-6.04269479473E+00	-3.19379620706E-01
4.33148127570E+05	-1.07248366760E+01	-1.70981760668E+02	6.73442786049E+00	-1.79983856356E+02	-3.83727402178E+01	1.06103850509E+02	-6.04976175657E+00	-3.25902374935E-01
4.55339482165E+05	-8.14673256172E+00	1.78582988383E+02	6.72633566909E+00	-1.79736196113E+02	-4.33681120437E+01	3.92998136499E+01	-6.01475982994E+00	-2.81452700298E-01
4.77530836760E+05	-8.43248904351E+00	-1.72136224922E+02	6.71410582466E+00	1.79952573453E+02	-4.16839944744E+01	-1.61209664642E+02	-6.03312122985E+00	-2.57842457854E-01
4.99722191355E+05	-9.21514962989E+00	1.68018159514E+02	6.75887564903E+00	1.79410574257E+02	-5.31325846722E+01	1.32972789683E+02	-6.02189811194E+00	-1.47731596022E-01
5.21913545950E+05	-1.13301807682E+01	-1.57463687518E+02	6.75483318315E+00	1.79572537153E+02	-3.79160993700E+01	9.49357524599E+01	-6.05332287128E+00	-4.01225643751E-01
5.44104900545E+05	-1.43713245574E+01	1.65033047731E+02	6.78282631055E+00	1.79450581522E+02	-3.73926970510E+01	1.21668728434E+02	-6.06154239090E+00	-3.98435143841E-01
5.66296255139E+05	-9.27132541401E+00	1.74386825252E+02	6.77499306874E+00	1.79501217282E+02	-4.06212765560E+01	-1.90423015085E+01	-5.98239792362E+00	-4.74810817784E-01
5.88487609734E+05	-1.08058553589E+01	-1.61057601436E+02	6.70771528335E+00	1.79326130957E+02	-4.99597986399E+01	5.20839092066E+01	-6.05503730929E+00	-4.50943490540E-01
6.10678964329E+05	-1.29797203322E+01	-1.74047326843E+02	6.74103089686E+00	1.78705963138E+02	-4.26741067449E+01	1.79203363248E+02	-6.05480744883E+00	-1.54250217177E-01
6.32870318924E+05	-1.56551235541E+01	-1.72961742983E+02	6.69744364608E+00	1.78676344112E+02	-4.35710534757E+01	4.06289737459E+01	-6.00143548814E+00	-1.15351270958E-01
6.55061673519E+05	-8.93748482055E+00	-1.65760653006E+02	6.68311068317E+00	1.78353061494E+02	-4.12927246162E+01	-4.43439009054E+01	-6.01395173812E+00	8.58098428093E-03
6.77253028114E+05	-1.21448920585E+01	1.75730255365E+02	6.73621803506E+00	1.78733584302E+02	-4.15620123740E+01	5.62504901266E+01	-6.01546935761E+00	-5.49817452666E-01
6.99444382709E+05	-7.12686531418E+00	1.79672542906E+02	6.76594042468E+00	1.77860762993E+02	-3.50022312683E+01	1.24983420755E+02	-6.08440295439E+00	-4.67163032396E-01
7.21635737304E+05	-9.32816622209E+00	-1.75827719342E+02	6.74154619833E+00	1.78418701340E+02	-3.84659852295E+01	-1.11593807822E+02	-6.02943702071E+00	-3.76076932489E-01
7.43827091899E+05	-1.26962112205E+01	1.53673587978E+02	6.71189274621E+00	1.77665313899E+02	-3.89836426297E+01	-1.83391617054E+01	-6.02112343797E+00	-7.77735318708E-01
7.66018446494E+05	-1.01888410837E+01	-1.77354923944E+02	6.69904237989E+00	1.77659246759E+02	-4.90097858089E+01	1.60532178402E+02	-6.01456585180E+00	-7.04267215171E-01
7.88209801089E+05	-1.02160084363E+01	1.70087646860E+02	6.76400087281E+00	1.77736786905E+02	-3.94076059878E+01	9.33733508816E+01	-5.98451521492E+00	-5.66679259507E-01
8.10401155684E+05	-8.60561270802E+00	-1.71639983202E+02	6.76520554998E+00	1.77044649361E+02	-4.23279237031E+01	1.19839396059E+02	-5.99929777020E+00	-7.15606098137E-01
8.32592510279E+05	-8.37976465538E+00	1.77715691242E+02	6.78379821883E+00	1.77645054483E+02	-4.06733159679E+01	-2.71288612988E+01	-6.06467494901E+00	-4.23600286891E-01
8.54783864874E+05	-7.72496296118E+00	1.73801610532E+02	6.70422631048E+00	1.77580454198E+02	-3.71109784423E+01	-1.26267821770E+01	-6.04039872114E+00	-6.29097404353E-01
8.76975219469E+05	-1.22655936979E+01	-1.74516161139E+02	6.71723586604E+00	1.76839148482E+02	-4.02913100691E+01	5.29009830570E+01	-6.02297599804E+00	-7.03396904524E-01
8.99166574064E+05	-8.62163940939E+00	1.69357192210E+02	6.75738330581E+00	1.77113139989E+02	-3.78848439400E+01	-1.33225029890E+01	-6.05389582073E+00	-4.75988036610E-01
9.21357928659E+05	-1.01311991688E+01	-1.61461133533E+02	6.71952614696E+00	1.76979481100E+02	-3.69308933649E+01	-1.79232439693E+02	-6.03056195468E+00	-6.83821989836E-01
9.43549283254E+05	-1.03977792303E+01	1.63288044764E+02	6.78015015198E+00	1.76513432401E+02	-4.26294988106E+01	-1.45141842729E+02	-6.04270969923E+00	-6.71352840417E-01
9.65740637849E+05	-1.08245755069E+01	-1.68977714774E+02	6.78769603369E+00	1.76774163242E+02	-3.67032804482E+01	8.59224267671E+01	-6.00368057055E+00	-6.41211402497E-01
9.87931992444E+05	-1.06661595772E+01	-1.67681202466E+02	6.68966203394E+00	1.76673828632E+02	-4.52792457398E+01	-8.52805215745E+01	-5.99531477061E+00	-3.19412845596E-01
1.01012334704E+06	-8.10664159493E+00	1.67808548102E+02	6.70800740123E+00	1.76116799644E+02	-3.86652832364E+01	-3.80761676849E+01	-6.01797024610E+00	-6.93980126879E-01
1.03231470163E+06	-8.03941526266E+00	-1.60948473015E+02	6.70570603317E+00	1.76532932283E+02	-4.48401362554E+01	1.50446854752E+02	-6.00952743675E+00	-5.01674103540E-01
1.05450605623E+06	-9.37681437087E+00	-1.76334959536E+02	6.76984510963E+00	1.76221612513E+02	-5.11704044489E+01	1.57106443092E+02	-6.05166166889E+00	-5.48783081271E-01
1.07669741082E+06	-9.14028629525E+00	1.68018708614E+02	6.74092525945E+00	1.76073050687E+02	-4.51927914792E+01	9.38127213102E+01	-6.04319508463E+00	-6.34884793576E-01
1.09888876542E+06	-1.52261144253E+01	-1.72047781822E+02	6.70703566002E+00	1.75827000190E+02	-4.70728198512E+01	-1.48096215792E+02	-5.98434246157E+00	-7.59298306810E-01
1.12108012001E+06	-1.25048645036E+01	1.79815503960E+02	6.70654855565E+00	1.75268857052E+02	-4.32171507402E+01	6.61940688141E+00	-6.00533214004E+00	-9.01803072504E-01
1.14327147461E+06	-9.14102713093E+00	-1.57923256856E+02	6.70004194211E+00	1.75451451731E+02	-3.90896404746E+01	1.77431193668E+02	-6.03401399032E+00	-6.26314976240E-01
1.16546282920E+06	-1.08775208215E+01	-1.73871252572E+02	6.78910589812E+00	1.76104393898E+02	-4.55065370913E+01	-6.78623616195E+01	-5.99477319772E+00	-5.37439838976E-01
1.18765418380E+06	-1.26216739358E+01	1.71045049627E+02	6.68480056135E+00	1.75275133147E+02	-4.06755955068E+01	5.35002899871E+01	-6.02936091325E+00	-7.06937689182E-01
1.20984553839E+06	-9.30594682024E+00	-1.72679406234E+02	6.77214002945E+00	1.75424902561E+02	-3.93906895618E+01	-7.06403953030E+01	-6.03736431968E+00	-6.96160148930E-01
1.23203689299E+06	-1.55204596199E+01	-1.68470896141E+02	6.70899895292E+00	1.75084600610E+02	-4.05180048274E+01	-1.69963633778E+01	-6.01878565751E+00	-4.59715383608E-01
1.25422824758E+06	-9.07382926949E+00	-1.77305667860E+02	6.76242260327E+00	1.74981232054E+02	-4.01231109194E+01	-1.60006437567E+02	-6.04170491564E+00	-9.20335340928E-01
1.27641960218E+06	-1.18950888561E+01	-1.67136684024E+02	6.73553130649E+00	1.75321712747E+02	-5.08955178695E+01	-7.30874695545E+01	-6.03143928272E+00	-5.07066937202E-01
1.29861095677E+06	-9.72113697736E+00	-1.79108061746E+02	6.73356257353E+00	1.75010401186E+02	-4.58270551769E+01	3.96749872186E+01	-6.00862462451E+00	-7.89918204325E-01
1.32080231137E+06	-1.14121208919E+01	1.77936299178E+02	6.77174422220E+00	1.74499525525E+02	-4.39817164848E+01	1.25107624100E+01	-6.03557147430E+00	-1.07375593324E+00
1.34299366596E+06	-1.07181054159E+01	1.73658785083E+02	6.76122519655E+00	1.74312253340E+02	-4.24218267724E+01	-5.16113665361E+00	-6.03861816023E+00	-9.52937311526E-01
1.36518502056E+06	-7.80142560100E+00	1.76882097573E+02	6.80635999774E+00	1.74398349577E+02	-4.78220866414E+01	7.16333730009E+01	-6.06513495999E+00	-6.40502179286E-01
1.38737637515E+06	-1.62085127226E+01	-1.65579834020E+02	6.68766921911E+00	1.73927574256E+02	-3.57161738640E+01	1.66396420033E+02	-6.02319166893E+00	-7.59714843621E-01
1.40956772975E+06	-9.16912941636E+00	-1.57098076356E+02	6.68182283499E+00	1.74008770806E+02	-3.75303911352E+01	-1.10430006068E+02	-6.03730302168E+00	-7.82639146027E-01
1.43175908434E+06	-1.09348397279E+01	1.66431991852E+02	6.76885635676E+00	1.73937874301E+02	-3.80455997032E+01	1.29045648141E+02	-6.01174737022E+00	-6.79849750776E-01
1.45395043894E+06	-9.48877265076E+00	1.70344655518E+02	6.73237487232E+00	1.74394635393E+02	-4.03407065248E+01	-6.68147142185E+01	-6.01306349652E+00	-9.21426353562E-01
1.47614179353E+06	-9.22354086119E+00	-1.63870562988E+02	6.76504900010E+00	1.73529010009E+02	-4.40158078212E+01	1.02130902582E+02	-6.01609271344E+00	-7.82046882879E-01
1.49833314813E+06	-7.48555480056E+00	1.67558496172E+02	6.66801272716E+00	1.73327975611E+02	-4.24667501469E+01	5.63902615890E+01	-6.05039222121E+00	-7.22650233174E-01
1.52052450272E+06	-9.22752919791E+00	-1.76742832434E+02	6.71349243354E+00	1.73830328462E+02	-3.73523294385E+01	7.28482186385E+01	-6.05822626942E+00	-9.57514175091E-01
1.54271585732E+06	-1.21147298619E+01	1.78393855639E+02	6.79004775557E+00	1.74062271956E+02	-3.82335948550E+01	7.82174878033E+01	-6.00324279758E+00	-8.55608736179E-01
1.56490721191E+06	-1.64560940833E+01	-1.68550049512E+02	6.73909968297E+00	1.73530474357E+02	-4.86517047125E+01	1.50662425890E+02	-6.00779098469E+00	-9.38600281634E-01
1.58709856651E+06	-1.28053372542E+01	-1.74142353239E+02	6.71297368468E+00	1.73305494059E+02	-3.92143004829E+01	1.45509855233E+02	-6.02503606053E+00	-1.05199984315E+00
1.60928992110E+06	-1.23509760084E+01	-1.74586040526E+02	6.69606042896E+00	1.73236379383E+02	-4.21379351438E+01	1.65640418589E+02	-6.01123398532E+00	-8.49168227769E-01
1.63148127570E+06	-7.82009625919E+00	-1.79182794395E+02	6.71541932246E+00	1.73092034229E+02	-4.02521602680E+01	-5.42821703261E+01	-6.01956241669E+00	-9.52826048134E-01
1.65367263029E+06	-1.18230538437E+01	-1.69921464094E+02	6.64462657919E+00	1.72285492638E+02	-4.31222667270E+01	1.59977595939E+02	-6.04282662643E+00	-8.28885248614E-01
1.67586398489E+06	-8.80115362890E+00	-1.71531308138E+02	6.73155381915E+00	1.72568087221E+02	-4.81839774142E+01	-1.66460027572E+02	-6.00881539420E+00	-6.60078387875E-01
1.69805533948E+06	-7.57915681166E+00	1.68448043230E+02	6.70556846404E+00	1.72150872078E+02	-4.45618564586E+01	-1.10274415938E+02	-6.01407536340E+00	-7.66659491520E-01
1.72024669408E+06	-8.85339639460E+00	1.43189464017E+02	6.62767010961E+00	1.72487449202E+02	-4.26954231945E+01	-5.77433787778E+01	-6.01700271679E+00	-7.88480621557E-01
1.74243804867E+06	-9.03514790341E+00	1.47732641811E+02	6.69194443747E+00	1.72583063715E+02	-3.73640577335E+01	5.72198996341E+01	-5.98403742186E+00	-9.67318800364E-01
1.76462940327E+06	-7.08532083987E+00	1.72892554963E+02	6.71984479680E+00	1.72522643879E+02	-3.63655500138E+01	1.79793465697E+02	-5.99280685015E+00	-7.50194092284E-01
1.78682075786E+06	-7.52995584510E+00	1.77469553884E+02	6.68499904925E+00	1.72090129118E+02	-4.20947658633E+01	-1.68750630951E+02	-6.03253535241E+00	-8.29657785478E-01
1.80901211246E+06	-9.51447953991E+00	-1.74543486982E+02	6.74205523641E+00	1.72503415018E+02	-4.35495834449E+01	8.81684667691E+01	-6.00196498474E+00	-8.39297163224E-01
1.83120346705E+06	-9.97183027255E+00	-1.77995752296E+02	6.68724296945E+00	1.72493169393E+02	-3.69912966791E+01	-1.32857214066E+02	-6.07589264653E+00	-1.05251320159E+00
1.85339482165E+06	-1.22914981395E+01	1.64029789868E+02	6.73112407172E+00	1.71661510414E+02	-4.08342904678E+01	-2.91014045996E+01	-5.99032408647E+00	-1.28593432883E+00
1.87558617624E+06	-1.64145471815E+01	1.73982378835E+02	6.72715646793E+00	1.72286151536E+02	-4.06497849225E+01	3.88622492269E+01	-6.00664217758E+00	-9.56599197113E-01
1.89777753084E+06	-1.29402104819E+01	-1.70900234306E+02	6.72757877916E+00	1.71799771550E+02	-4.84286547598E+01	5.12959492217E+01	-6.01905340505E+00	-9.97285145075E-01
1.91996888543E+06	-1.16624549540E+01	1.71352451664E+02	6.75380453192E+00	1.71414960083E+02	-5.90295843305E+01	2.57846578571E+01	-6.03440748103E+00	-7.91598757908E-01
1.94216024003E+06	-1.15409049844E+01	1.74835826099E+02	6.74477930664E+00	1.71243213251E+02	-4.73726888150E+01	-1.42663407744E+02	-6.03234937928E+00	-1.02465299013E+00
1.96435159462E+06	-8.47975252271E+00	-1.68881779100E+02	6.79258822649E+00	1.71386961055E+02	-4.24566052110E+01	-1.47120009569E+02	-6.01407094692E+00	-9.76339521775E-01
1.98654294922E+06	-1.37076194651E+01	1.71128088204E+02	6.70125647709E+00	1.71324705774E+02	-3.96164267843E+01	-1.27366361055E+01	-6.01531244417E+00	-1.10355456677E+00
2.00873430381E+06	-9.28559972327E+00	-1.65084665343E+02	6.72913512859E+00	1.71284391455E+02	-4.87904235170E+01	-7.25693361518E+00	-6.00750162437E+00	-9.96316105715E-01
2.03092565841E+06	-1.44461118559E+01	-1.75452976961E+02	6.71070656976E+00	1.71043042921E+02	-4.61373332777E+01	6.11484588968E+01	-6.03896716543E+00	-9.69725999857E-01
2.05311701300E+06	-1.00724958557E+01	1.63925261829E+02	6.74187473079E+00	1.70932300354E+02	-5.09028130524E+01	-5.56088995073E+01	-6.03615003172E+00	-9.70860697322E-01
2.07530836760E+06	-9.46382271982E+00	-1.70414362012E+02	6.75035132209E+00	1.70984865364E+02	-4.34144169864E+01	-1.48256124713E+01	-6.03460553787E+00	-9.42293001647E-01
2.09749972219E+06	-1.25470424701E+01	1.77733965786E+02	6.69376712490E+00	1.70666934444E+02	-3.78212489582E+01	-8.91491093729E+01	-6.01760872549E+00	-8.08727778462E-01
2.11969107679E+06	-8.38554993775E+00	-1.73844810671E+02	6.70760456864E+00	1.70619006843E+02	-3.83995854287E+01	2.03117924682E+01	-6.03947237628E+00	-1.03802323139E+00
2.14188243138E+06	-1.08359674828E+01	1.70764518347E+02	6.76166580973E+00	1.70575806417E+02	-3.79340572484E+01	-2.81253990265E+01	-5.99806470976E+00	-1.16096678110E+00
2.16407378598E+06	-1.13564823419E+01	1.78704259010E+02	6.68234123303E+00	1.71267255154E+02	-3.91490329155E+01	-1.99693204345E+01	-5.94774684238E+00	-9.62230449229E-01
2.18626514057E+06	-7.34781864670E+00	-1.58387844642E+02	6.70737613009E+00	1.70723028080E+02	-3.75472825364E+01	1.89807622799E+01	-6.01319990304E+00	-1.09142243677E+00
2.20845649517E+06	-1.24627170831E+01	1.68499260885E+02	6.75402925933E+00	1.70338572174E+02	-3.71741545400E+01	-6.17658680778E+01	-6.00833918162E+00	-1.33382085467E+00
2.23064784976E+06	-1.27039179641E+01	-1.56650219625E+02	6.73001231142E+00	1.70005188605E+02	-4.19478091485E+01	1.33676035959E+02	-6.01021904210E+00	-1.03705622501E+00
2.25283920436E+06	-1.08109394831E+01	1.68173129095E+02	6.73504879881E+00	1.69953537451E+02	-3.59832898703E+01	1.00447444255E+02	-6.03990619354E+00	-1.11775381383E+00
2.27503055895E+06	-9.86980998062E+00	1.75974903845E+02	6.70189809496E+00	1.70077546212E+02	-3.63595392245E+01	-1.72624529389E+02	-6.01568137113E+00	-9.08351644336E-01
2.29722191355E+06	-9.13930605888E+00	1.74034693107E+02	6.75721853281E+00	1.70072461684E+02	-4.39218813379E+01	1.29819637107E+02	-5.99674848062E+00	-1.06102281967E+00
2.31941326814E+06	-1.08376633561E+01	1.74023686792E+02	6.70976986310E+00	1.70359528257E+02	-3.51366226010E+01	1.45663720541E+02	-6.03465644409E+00	-9.42905863386E-01
2.34160462274E+06	-8.81731297707E+00	-1.59668204785E+02	6.72234774132E+00	1.70122926014E+02	-4.35155276140E+01	-1.68019771875E+02	-6.02703702587E+00	-1.10552479458E+00
2.36379597733E+06	-1.30125185093E+01	-1.73813519522E+02	6.71771421402E+00	1.68876073201E+02	-4.55673037697E+01	6.02160269277E+01	-6.03488095276E+00	-1.09518542070E+00
2.38598733193E+06	-8.60239539793E+00	1.64114434181E+02	6.72656885030E+00	1.69077726827E+02	-3.88201289838E+01	-8.44551881263E+01	-5.99891061532E+00	-1.22078756542E+00
2.40817868652E+06	-1.23989757483E+01	-1.66120137999E+02	6.72872104523E+00	1.69695386099E+02	-3.64458263505E+01	-1.49873031346E+02	-5.98914308419E+00	-1.04382098520E+00
2.43037004112E+06	-8.99825679153E+00	-1.73239210951E+02	6.75239238028E+00	1.69468713276E+02	-4.75361106709E+01	-5.55252577855E+01	-6.03025845454E+00	-1.25219563396E+00
2.45256139571E+06	-1.20311684600E+01	1.77161780063E+02	6.74437767626E+00	1.68997861209E+02	-5.02545646047E+01	1.29181990563E+02	-6.01288971844E+00	-1.06073372661E+00
2.47475275031E+06	-1.18811913566E+01	1.56850664691E+02	6.64151895981E+00	1.69138494525E+02	-4.07532623024E+01	-1.24856319369E+02	-6.03595241644E+00	-1.30277936846E+00
2.49694410490E+06	-1.06870906384E+01	1.63419350875E+02	6.81060236465E+00	1.69013367849E+02	-4.17611424330E+01	3.37098209745E+01	-6.01063560391E+00	-1.09768065682E+00
2.51913545950E+06	-9.66962606932E+00	-1.72486871189E+02	6.77381348317E+00	1.68721269247E+02	-4.26782113731E+01	6.53024932466E+01	-6.05227344358E+00	-1.22333563024E+00
2.54132681409E+06	-1.10546501184E+01	1.64424062040E+02	6.74390178737E+00	1.68573430558E+02	-4.24730301353E+01	1.60799294592E+02	-6.00986401309E+00	-1.26435875927E+00
2.56351816869E+06	-9.55420535746E+00	1.68709159157E+02	6.73138670957E+00	1.68678529804E+02	-4.19995702983E+01	-4.64240938736E+01	-6.04633842834E+00	-1.09126373232E+00
2.58570952328E+06	-1.04449899238E+01	-1.76915006394E+02	6.71913879045E+00	1.68529631797E+02	-4.20184530379E+01	1.37175958010E+02	-6.03730611939E+00	-1.15454092107E+00
2.60790087788E+06	-5.55424463323E+00	-1.74636432746E+02	6.71754633463E+00	1.68282484564E+02	-3.58753986584E+01	6.40122262564E+01	-6.05026397804E+00	-1.14870658043E+00
2.63009223247E+06	-1.24800128328E+01	-1.70502246151E+02	6.67992724851E+00	1.68624525857E+02	-3.90622930767E+01	-1.03435013233E+02	-6.01008918102E+00	-1.33201767730E+00
2.65228358707E+06	-7.86365721069E+00	1.65555801924E+02	6.67049350375E+00	1.67886197862E+02	-4.34539227779E+01	2.33526027225E+01	-5.97565047985E+00	-1.63077655820E+00
2.67447494166E+06	-1.40279468698E+01	-1.51860179342E+02	6.77303010862E+00	1.68553111137E+02	-3.80073176857E+01	4.11782490858E+01	-6.02339403969E+00	-1.23903602356E+00
2.69666629626E+06	-5.84727677981E+00	-1.79000015457E+02	6.77447443294E+00	1.68155702736E+02	-4.79381723013E+01	2.96161378080E+01	-6.01058984746E+00	-1.26318087121E+00
2.71885765085E+06	-1.09711624487E+01	-1.65204669458E+02	6.77319352776E+00	1.67847248465E+02	-4.08529087392E+01	-6.22037703173E+01	-6.00213923935E+00	-1.32831949903E+00
2.74104900545E+06	-9.81719516291E+00	-1.73644627192E+02	6.74220803667E+00	1.67751837387E+02	-4.31543995658E+01	6.56098015963E+01	-6.04332392478E+00	-1.27957136594E+00
2.76324036004E+06	-1.26300231959E+01	1.79392558847E+02	6.70429597929E+00	1.67735728157E+02	-5.33420770055E+01	-1.07639237365E+02	-6.00405224750E+00	-1.15433531601E+00
2.78543171463E+06	-1.45575526095E+01	1.76790501423E+02	6.74148126585E+00	1.67209462289E+02	-6.83636774697E+01	-1.69376614785E+02	-6.03772200038E+00	-1.18378627235E+00
2.80762306923E+06	-1.35734765004E+01	1.60445680775E+02	6.73317743643E+00	1.67677761605E+02	-4.55705311628E+01	1.89050796018E+01	-6.03359808995E+00	-1.33989031242E+00
2.82981442382E+06	-1.17361952450E+01	-1.65504452505E+02	6.69457930129E+00	1.67427703414E+02	-3.31485193535E+01	8.82883384532E+01	-6.02106261999E+00	-1.49372726364E+00
2.85200577842E+06	-1.40828271124E+01	1.69682210158E+02	6.71891434208E+00	1.67077525591E+02	-4.28970633193E+01	-4.29431282777E+00	-5.97616878363E+00	-1.33242736627E+00
2.87419713301E+06	-1.02003309214E+01	-1.72215222375E+02	6.76469886853E+00	1.67069264457E+02	-4.08901232109E+01	1.15916439401E+02	-5.99355923724E+00	-1.32893480120E+00
