# Hz S DB R 50
! CMT, M5065, 19127446, 24.2.4/2
! Date: 10/29/2024 1:02:32 PM
! Data: Format (Calibration Info)
! Freq	S11:dB/Ang(F2)	S21:dB/Ang(F2)	S12:dB/Ang(F2)	S22:dB/Ang(F2)
3.00000000000E+05	-1.25675368353E+01	1.62899404676E+02	5.02192076400E+00	-1.78691555823E+02	-4.24178847597E+01	8.81329763294E+01	-6.01151380568E+00	1.78288257824E-01
3.22191354595E+05	-1.11370012052E+01	1.63504495692E+02	4.96623800199E+00	-1.78043481933E+02	-3.76788408484E+01	-7.91412942178E+01	-6.04139441169E+00	-4.43411115742E-01
3.44382709190E+05	-9.52338563932E+00	-1.79466562506E+02	5.00049672083E+00	-1.78155284535E+02	-4.01676628489E+01	7.04907318402E+01	-6.03387614781E+00	-2.22485831916E-01
3.66574063785E+05	-7.88318378085E+00	-1.73874746754E+02	5.03779449204E+00	-1.78725241048E+02	-3.99455857449E+01	-7.02748930811E+01	-6.00575330436E+00	-2.67857092341E-01
3.88765418380E+05	-1.21641266726E+01	-1.56651916930E+02	5.08573958575E+00	-1.79164404745E+02	-4.59644065386E+01	-1.55644797061E+02	-6.00990041704E+00	-1.79068005170E-01
4.10956772975E+05	-1.21400543956E+01	-1.45539761434E+02	5.07675804678E+00	-1.79608948389E+02	-4.63944162212E+01	-6.23044803493E+01	-6.00727593602E+00	-4.46903265349E-01
4.33148127570E+05	-1.26618137866E+01	-1.68263453178E+02	4.99567864312E+00	1.79998186033E+02	-3.80527415976E+01	-6.03242293250E+01	-6.02869661982E+00	-2.45364673485E-01
4.55339482165E+05	-9.55217193256E+00	1.72215942126E+02	4.96313049803E+00	-1.79849889837E+02	-4.41585672272E+01	-1.48937228537E+02	-6.01900539043E+00	-2.89068161673E-01
4.77530836760E+05	-1.27167042739E+01	-1.69356923421E+02	5.02502802547E+00	-1.78909899331E+02	-5.03795938515E+01	2.28333712800E+01	-6.01880133274E+00	-3.97631058163E-01
4.99722191355E+05	-1.29639525189E+01	1.55998217965E+02	4.98844865832E+00	1.79687599984E+02	-4.74440758854E+01	1.08710703138E+02	-6.04076701383E+00	-2.35943101550E-01
5.21913545950E+05	-1.23178966085E+01	-1.70003970610E+02	5.06111067914E+00	1.79588654079E+02	-3.86653920985E+01	7.48272788177E+00	-6.03940116506E+00	-2.60892476798E-01
5.44104900545E+05	-1.01070885976E+01	-1.70858747761E+02	5.02996661936E+00	1.79746140948E+02	-4.99460285202E+01	1.12169033317E+02	-6.01736102784E+00	-3.34090329422E-01
5.66296255139E+05	-1.31244728602E+01	-1.57639129802E+02	5.01793581727E+00	1.79435908801E+02	-4.48721722238E+01	9.26836544004E+01	-6.02369877732E+00	-4.81147347359E-01
5.88487609734E+05	-9.75337024688E+00	-1.64834970907E+02	5.00820525858E+00	1.79307007801E+02	-3.56238161127E+01	-1.29669504251E+02	-6.05803551957E+00	-4.77451793159E-01
6.10678964329E+05	-1.03965666551E+01	1.66493274615E+02	5.08145898290E+00	1.78403479382E+02	-3.80039198255E+01	-4.40352827090E+01	-6.03126422693E+00	-2.53272651707E-01
6.32870318924E+05	-9.54539142648E+00	-1.79318326969E+02	4.97803834040E+00	1.79013972564E+02	-3.91823227467E+01	-1.64169106346E+02	-6.02325573346E+00	-6.65831107180E-01
6.55061673519E+05	-8.24702253399E+00	-1.68218803099E+02	4.95851980830E+00	1.78933089338E+02	-4.43855247688E+01	-1.58841360563E+01	-6.01432972289E+00	-1.27520647775E-02
6.77253028114E+05	-1.13874428651E+01	-1.74790265979E+02	5.08320448088E+00	1.78437363544E+02	-4.45893378059E+01	1.00491442777E+02	-6.05101695610E+00	-6.43033914711E-01
6.99444382709E+05	-8.78371070128E+00	-1.59330591116E+02	5.08238303058E+00	1.78285684063E+02	-3.58518339394E+01	1.12424592649E+02	-6.00592263751E+00	-2.80449632764E-01
7.21635737304E+05	-1.08760710610E+01	-1.48755135415E+02	4.97025114657E+00	1.78251281541E+02	-3.64584736465E+01	1.35237065386E+02	-6.01343244590E+00	-6.33286743470E-01
7.43827091899E+05	-1.01901231798E+01	-1.72898984821E+02	5.12376161323E+00	1.77734658583E+02	-4.15903218260E+01	1.63820312869E+02	-6.00886342457E+00	-3.45413023401E-01
7.66018446494E+05	-1.17788560894E+01	-1.79600101018E+02	4.92183196825E+00	1.77939963500E+02	-3.81947075441E+01	-8.30817299519E+01	-5.99940272469E+00	-5.27663430210E-01
7.88209801089E+05	-1.03220203948E+01	1.75090257217E+02	5.06350234752E+00	1.78140501060E+02	-4.37719309422E+01	4.72492081584E+01	-6.03588614899E+00	-3.54549718530E-01
8.10401155684E+05	-1.49099134978E+01	-1.71383482797E+02	5.06577849127E+00	1.78297295725E+02	-4.52010078943E+01	-5.40538555965E+01	-6.04145055057E+00	-4.34283046392E-01
8.32592510279E+05	-7.62285280144E+00	1.77752496207E+02	4.99276064282E+00	1.77661606519E+02	-3.73741688185E+01	-1.53383657307E+02	-6.05346748488E+00	-6.16261847235E-01
8.54783864874E+05	-1.00761135870E+01	-1.77333055445E+02	4.97890439114E+00	1.77586229872E+02	-5.56894188276E+01	1.47724831003E+02	-6.05686187342E+00	-5.86976584913E-01
8.76975219469E+05	-9.65113968800E+00	-1.36997489048E+02	5.00556244885E+00	1.77844357775E+02	-4.33170699451E+01	8.45931650656E+01	-6.01672175036E+00	-5.27663210087E-01
8.99166574064E+05	-1.43993216217E+01	-1.75499733738E+02	4.91797656386E+00	1.77873864105E+02	-4.24753682311E+01	-1.52260905558E+02	-5.98906264972E+00	-7.31582922736E-01
9.21357928659E+05	-1.23700683038E+01	-1.51465591535E+02	4.95849540693E+00	1.76790894670E+02	-3.85166828361E+01	6.95751253795E+01	-6.01817638059E+00	-4.80926844405E-01
9.43549283254E+05	-1.19705717448E+01	-1.49898642231E+02	5.03339742675E+00	1.76868305871E+02	-3.63220876217E+01	-7.22993901840E+01	-6.00966208412E+00	-3.61278347903E-01
9.65740637849E+05	-8.67159419311E+00	1.48722531761E+02	5.00075694756E+00	1.77193264806E+02	-4.24918957624E+01	-8.10408683560E+01	-6.00586528286E+00	-5.23417847828E-01
9.87931992444E+05	-1.04846381023E+01	1.78654926383E+02	5.05772709705E+00	1.76559730937E+02	-3.63524153189E+01	4.20186376814E+01	-6.03324951115E+00	-3.41652403364E-01
1.01012334704E+06	-1.15373961706E+01	1.74640538133E+02	5.00982125308E+00	1.76376532105E+02	-3.98374667412E+01	1.72501974470E+02	-6.02090185485E+00	-8.07320671576E-01
1.03231470163E+06	-1.15166515176E+01	-1.72342991306E+02	5.05175497204E+00	1.76143930806E+02	-4.46816599051E+01	8.58374957629E+01	-6.01515693119E+00	-5.19886656263E-01
1.05450605623E+06	-9.44607912970E+00	-1.57354377974E+02	5.02138064818E+00	1.76408331573E+02	-4.22982123079E+01	1.09286918579E+01	-6.02512910989E+00	-7.08355147877E-01
1.07669741082E+06	-1.73812764391E+01	1.65127211628E+02	5.06520249079E+00	1.76503098875E+02	-4.32783428277E+01	8.58398938258E+01	-6.02510816023E+00	-3.38612635973E-01
1.09888876542E+06	-1.03582586450E+01	-1.68913310032E+02	5.07020891756E+00	1.76185015191E+02	-3.90363737924E+01	-1.20003219638E+01	-6.01758443651E+00	-5.77166173525E-01
1.12108012001E+06	-9.53682306798E+00	1.75942789241E+02	5.04388006509E+00	1.75562062870E+02	-4.14860092229E+01	-1.20530613245E+02	-6.06076027003E+00	-6.64881355445E-01
1.14327147461E+06	-1.31139940757E+01	-1.68512823949E+02	5.04316188275E+00	1.75668640293E+02	-4.89846102494E+01	-7.85978374130E+00	-6.02214096170E+00	-3.77367670752E-01
1.16546282920E+06	-9.94614346581E+00	-1.69610526877E+02	4.93476257899E+00	1.75771157387E+02	-3.84844216090E+01	-3.71323281937E+01	-6.05222706350E+00	-8.57993092179E-01
1.18765418380E+06	-8.53246684921E+00	1.55755748392E+02	5.10620037618E+00	1.75217992387E+02	-4.55234209100E+01	1.12318146968E+02	-6.01071129619E+00	-6.57412581010E-01
1.20984553839E+06	-9.35596117917E+00	1.79393862640E+02	5.00169248785E+00	1.75475811501E+02	-4.33549467129E+01	1.00318736070E+02	-6.02541123360E+00	-6.75229597607E-01
1.23203689299E+06	-9.01880288459E+00	1.63333695856E+02	5.13781968162E+00	1.74739413003E+02	-4.71830754875E+01	-1.21529479009E+02	-6.04160872593E+00	-3.05466478040E-01
1.25422824758E+06	-9.59618880913E+00	1.63181240537E+02	5.07112743373E+00	1.75460511201E+02	-4.73687327354E+01	1.68860395208E+02	-6.04139040782E+00	-8.03446222409E-01
1.27641960218E+06	-9.13183531148E+00	-1.66580414882E+02	5.09891789081E+00	1.75708163528E+02	-4.34412670349E+01	1.04281502425E+02	-6.01963535575E+00	-8.44949532527E-01
1.29861095677E+06	-8.82009915973E+00	1.64934624704E+02	5.06605834414E+00	1.75082417890E+02	-3.73413310610E+01	-1.56351439024E+01	-6.05879532956E+00	-7.83446144100E-01
1.32080231137E+06	-1.19198207026E+01	1.76847643536E+02	5.07098663452E+00	1.75342790528E+02	-3.84448309539E+01	-1.51005493481E+01	-6.02831512244E+00	-1.22164695940E+00
1.34299366596E+06	-1.27626194428E+01	-1.78782344859E+02	5.06103128766E+00	1.74987459434E+02	-4.27422765232E+01	-3.27961213350E+00	-5.99251321972E+00	-8.53158477248E-01
1.36518502056E+06	-1.25796901120E+01	1.70330803353E+02	5.03734441383E+00	1.75149764603E+02	-5.70301751343E+01	-3.03230991805E+01	-6.02806202648E+00	-6.51253638223E-01
1.38737637515E+06	-5.63454686709E+00	-1.76759142067E+02	5.02563334302E+00	1.74140592026E+02	-3.80667449824E+01	-1.57861576046E+02	-6.00857630083E+00	-7.20923865758E-01
1.40956772975E+06	-1.07414242997E+01	-1.61770203227E+02	5.02215069295E+00	1.74922744235E+02	-4.42849590815E+01	-8.98987411042E+01	-6.04478290308E+00	-7.16534749346E-01
1.43175908434E+06	-1.27936514576E+01	-1.77571865285E+02	5.02148822978E+00	1.74766317098E+02	-3.41054590009E+01	-1.61896491657E+02	-6.05915535539E+00	-9.82818078108E-01
1.45395043894E+06	-8.89841652594E+00	1.61943545174E+02	5.00939722851E+00	1.74089659686E+02	-4.17946520009E+01	5.78888103337E+01	-6.05933561507E+00	-5.13841045352E-01
1.47614179353E+06	-1.35243524526E+01	-1.62219551861E+02	5.02175827204E+00	1.74403236828E+02	-3.59073619730E+01	1.54019755190E+02	-6.02089432808E+00	-6.59188334542E-01
1.49833314813E+06	-9.15661462569E+00	-1.64624571803E+02	5.05060205391E+00	1.73895567833E+02	-4.02897464250E+01	4.76813821385E+01	-6.02678785012E+00	-8.89903569493E-01
1.52052450272E+06	-1.08623478194E+01	-1.78561347261E+02	5.07172218946E+00	1.74182645404E+02	-4.24442287553E+01	-1.50753977337E+02	-6.01262996367E+00	-6.62950919320E-01
1.54271585732E+06	-1.18695436029E+01	-1.63847123116E+02	5.00325280344E+00	1.73721402315E+02	-3.72144568088E+01	1.03640313231E+02	-6.04454822118E+00	-6.04995592901E-01
1.56490721191E+06	-1.04542078836E+01	1.72471547161E+02	5.00293733972E+00	1.73920849960E+02	-4.03748090374E+01	-8.89400676906E+01	-6.04770556164E+00	-1.04883000279E+00
1.58709856651E+06	-9.08636481375E+00	1.74535156947E+02	5.04042698487E+00	1.73049330730E+02	-4.98998023532E+01	2.09926240414E+01	-5.98527853388E+00	-6.40382802612E-01
1.60928992110E+06	-1.07926345684E+01	1.51595663369E+02	5.05037112833E+00	1.73283632282E+02	-3.94826245084E+01	-9.67612108850E+00	-6.00480734820E+00	-8.15829704569E-01
1.63148127570E+06	-9.70175366212E+00	1.77161745173E+02	5.00869881518E+00	1.73671020978E+02	-4.41110052006E+01	-1.52688988216E+02	-5.98716514963E+00	-5.90572513799E-01
1.65367263029E+06	-7.45108275577E+00	-1.75358361359E+02	5.07275714376E+00	1.73160499793E+02	-4.32244820976E+01	1.70463972233E+02	-6.01108885467E+00	-9.20657904405E-01
1.67586398489E+06	-1.08364422452E+01	1.77877621798E+02	5.04248268743E+00	1.73183035168E+02	-4.17387497408E+01	6.95966245325E+01	-6.02344102886E+00	-7.48284854501E-01
1.69805533948E+06	-8.61079154739E+00	-1.76657063614E+02	5.11886060904E+00	1.73525508456E+02	-4.08421727295E+01	1.14647200995E+02	-6.00546948756E+00	-9.36388258279E-01
1.72024669408E+06	-8.88664354164E+00	1.72381866530E+02	5.03516199130E+00	1.73431960517E+02	-4.99783057364E+01	6.13395324476E+00	-6.02402006227E+00	-9.01862890495E-01
1.74243804867E+06	-9.05195286828E+00	-1.69195175618E+02	5.05901783452E+00	1.72816748425E+02	-4.06715647624E+01	-1.40888513284E+02	-5.99613186225E+00	-6.07256572614E-01
1.76462940327E+06	-9.47139230933E+00	1.78365565667E+02	5.03289680387E+00	1.73117966126E+02	-4.30300363179E+01	2.22565065771E+01	-6.03566256683E+00	-7.80740755263E-01
1.78682075786E+06	-8.69532338889E+00	1.52339557557E+02	5.02047840275E+00	1.72837522700E+02	-4.10307049351E+01	6.88762772496E+01	-6.02193483434E+00	-5.62087772411E-01
1.80901211246E+06	-9.56819214017E+00	-1.72224224724E+02	4.95689692542E+00	1.72473754319E+02	-4.03157770687E+01	1.65534370566E+01	-6.00970323867E+00	-9.82060682700E-01
1.83120346705E+06	-1.16974194117E+01	-1.77788836552E+02	5.01265552139E+00	1.72677838179E+02	-4.00545921543E+01	4.91458712305E+00	-5.99575079969E+00	-9.08207007871E-01
1.85339482165E+06	-7.00676627975E+00	1.79347014184E+02	5.00303635089E+00	1.72309660824E+02	-3.96405214977E+01	-8.87028526646E+01	-5.99337995582E+00	-8.79459935344E-01
1.87558617624E+06	-1.27494922324E+01	-1.79258246439E+02	5.01782256564E+00	1.72326074648E+02	-4.09400406782E+01	7.19971702240E+01	-5.98309477830E+00	-8.03648010147E-01
1.89777753084E+06	-8.64269747847E+00	1.78684292162E+02	5.07835424676E+00	1.72358332820E+02	-4.59034160896E+01	-8.05640888632E+01	-6.04388847030E+00	-9.97546143667E-01
1.91996888543E+06	-8.25714062442E+00	1.57646059049E+02	5.03844510091E+00	1.72116159070E+02	-4.26513473098E+01	-1.29416108716E+02	-6.00076424854E+00	-8.61571073915E-01
1.94216024003E+06	-1.30007875886E+01	-1.69923008894E+02	4.97721036432E+00	1.72524471311E+02	-3.18375321646E+01	-1.22204151186E+02	-6.05265635412E+00	-7.19991199327E-01
1.96435159462E+06	-9.18955837860E+00	1.72787918377E+02	5.05210182126E+00	1.72524280717E+02	-3.58793370634E+01	1.31853756772E+02	-5.99995109729E+00	-8.76160547395E-01
1.98654294922E+06	-9.80338464376E+00	1.73114898244E+02	5.03181260440E+00	1.71647199155E+02	-3.80753267859E+01	4.37311845040E+01	-6.02636264393E+00	-9.13307175526E-01
2.00873430381E+06	-1.10220699397E+01	1.62896538373E+02	5.00606937438E+00	1.72106642035E+02	-3.85870978981E+01	-1.08002374470E+01	-5.98799711057E+00	-1.30451404980E+00
2.03092565841E+06	-8.69535563562E+00	-1.64223485980E+02	5.03653277861E+00	1.72086904937E+02	-3.89353236770E+01	1.99962372662E+01	-6.00701704113E+00	-9.41610418042E-01
2.05311701300E+06	-1.32840974627E+01	1.44181884074E+02	5.05923083729E+00	1.71465167083E+02	-4.56971694798E+01	9.87619551729E+01	-6.05697889425E+00	-1.14571865140E+00
2.07530836760E+06	-1.23783004760E+01	-1.74220045792E+02	4.94500016683E+00	1.71355982286E+02	-4.88095220240E+01	7.45591521873E+01	-6.04246934766E+00	-1.08977137482E+00
2.09749972219E+06	-8.63224507987E+00	1.67289833965E+02	5.02345322595E+00	1.71734201947E+02	-3.29211348790E+01	-1.55320257128E+02	-6.03616376905E+00	-9.97126581670E-01
2.11969107679E+06	-8.40399945853E+00	1.49360475418E+02	4.99391477918E+00	1.71351373624E+02	-4.36877011467E+01	5.75791427154E+01	-6.02685259532E+00	-8.77480073356E-01
2.14188243138E+06	-8.56040731988E+00	-1.67400485170E+02	5.06543066446E+00	1.71035018815E+02	-4.55927975175E+01	1.04918711867E+02	-5.98629200302E+00	-1.13583841959E+00
2.16407378598E+06	-9.44903032850E+00	1.74912902481E+02	4.96902263641E+00	1.70789006180E+02	-4.38069760951E+01	1.39087583969E+02	-6.02451713108E+00	-8.65922977460E-01
2.18626514057E+06	-1.09133923376E+01	1.75590922864E+02	4.99092420843E+00	1.70691814268E+02	-6.45651283502E+01	-4.83256746562E+01	-5.97812482406E+00	-9.45172211612E-01
2.20845649517E+06	-1.16482204931E+01	1.73775137369E+02	5.05736460547E+00	1.70973698786E+02	-4.59211235151E+01	2.57215300346E+01	-6.03682633144E+00	-1.01214882016E+00
2.23064784976E+06	-1.16887351215E+01	-1.77093296999E+02	5.11325467265E+00	1.71201575277E+02	-3.78343716228E+01	-3.83172304447E+01	-6.01174014824E+00	-1.12413504347E+00
2.25283920436E+06	-8.02045987414E+00	1.70485455249E+02	5.04831345382E+00	1.70837690467E+02	-4.01135406570E+01	-1.26124799888E+02	-6.03624741547E+00	-1.06283990281E+00
2.27503055895E+06	-1.03971182283E+01	1.68792627762E+02	4.98508870850E+00	1.70560018873E+02	-4.84398756264E+01	-1.42837320633E+02	-5.97734405608E+00	-8.65806766497E-01
2.29722191355E+06	-1.05205118771E+01	1.76333450503E+02	4.97900703688E+00	1.70274940040E+02	-5.25595275936E+01	7.92468016465E+01	-6.02378959649E+00	-1.29702783859E+00
2.31941326814E+06	-5.63088292526E+00	1.78535945218E+02	5.04509858854E+00	1.70200667600E+02	-4.58152352127E+01	-6.38107418919E+01	-6.01542669473E+00	-1.04599399745E+00
2.34160462274E+06	-8.85735650026E+00	-1.65861764855E+02	5.03962106397E+00	1.70376059983E+02	-3.96321111866E+01	1.34091630360E+02	-5.99320046861E+00	-1.28822270860E+00
2.36379597733E+06	-7.99676313201E+00	1.78262810043E+02	4.95795398586E+00	1.69816938311E+02	-4.72343851978E+01	-8.84523082375E+00	-6.01057219857E+00	-1.27752137937E+00
2.38598733193E+06	-1.33239185172E+01	-1.71461141228E+02	5.04578067414E+00	1.70187805322E+02	-3.61769249740E+01	-1.49012937911E+02	-5.96917771602E+00	-1.24194892460E+00
2.40817868652E+06	-1.12881584417E+01	1.70705979160E+02	5.00201867011E+00	1.69882399259E+02	-3.75913229502E+01	1.20363796616E+02	-5.99623010591E+00	-9.35916879227E-01
2.43037004112E+06	-1.14696616907E+01	-1.68211299896E+02	5.00087980264E+00	1.70186747386E+02	-4.03386004499E+01	-7.04701092675E+01	-6.01628764131E+00	-1.51545900053E+00
2.45256139571E+06	-9.98350734983E+00	1.76332239622E+02	5.09131355814E+00	1.69918400222E+02	-3.73442620153E+01	-9.61183094635E+01	-6.04009346242E+00	-9.97488232594E-01
2.47475275031E+06	-1.06578913318E+01	-1.60541881610E+02	5.06406540369E+00	1.70339606879E+02	-5.54764674394E+01	-1.42497882582E+02	-6.01835284094E+00	-1.13300350749E+00
2.49694410490E+06	-8.57721601680E+00	1.74510293021E+02	4.99073381091E+00	1.69395896893E+02	-4.56466088759E+01	4.33371281529E+01	-6.04008756136E+00	-1.03457670622E+00
2.51913545950E+06	-8.51666202935E+00	1.71274645198E+02	5.01945822180E+00	1.69792080754E+02	-4.56525664561E+01	-2.29087478745E+00	-6.02376956411E+00	-1.29049873382E+00
2.54132681409E+06	-7.80954519708E+00	-1.64454710872E+02	4.99832063008E+00	1.69422569631E+02	-4.07197525655E+01	-1.43267861496E+02	-6.00244642215E+00	-1.30959310500E+00
2.56351816869E+06	-9.61345186735E+00	1.72393471292E+02	5.00488280462E+00	1.69245658247E+02	-3.53730521758E+01	-8.51390436049E+01	-6.06124808102E+00	-1.63463515130E+00
2.58570952328E+06	-1.35779038391E+01	-1.61130924913E+02	5.00729820388E+00	1.69393607547E+02	-4.95874743719E+01	7.85994246145E+01	-6.01923104856E+00	-1.57661245010E+00
2.60790087788E+06	-9.23730934928E+00	1.78356253763E+02	4.99658714868E+00	1.69172019962E+02	-4.57407472559E+01	8.03745504377E+01	-6.03970551801E+00	-1.37829080033E+00
2.63009223247E+06	-1.08943717673E+01	-1.62151610298E+02	5.01150759372E+00	1.69276363758E+02	-3.95940916046E+01	6.41067293190E+01	-6.00572650919E+00	-1.33731345210E+00
2.65228358707E+06	-1.07030934099E+01	1.54844082933E+02	5.03894127340E+00	1.68455846050E+02	-3.72120930277E+01	-1.06099030227E+02	-6.03112888062E+00	-1.42835140510E+00
2.67447494166E+06	-7.22633409126E+00	1.73050809181E+02	4.97249682251E+00	1.68608845921E+02	-4.06990929989E+01	-1.27576186879E+01	-5.97826185763E+00	-1.31745168000E+00
2.69666629626E+06	-1.11493468933E+01	1.62999625390E+02	5.02281337874E+00	1.68299435017E+02	-4.14393622660E+01	6.38445652470E+01	-6.04552798761E+00	-1.31580215685E+00
2.71885765085E+06	-8.31894629959E+00	-1.77693209030E+02	5.07416788135E+00	1.68750245057E+02	-3.61742152645E+01	1.09218740017E+02	-5.99675605490E+00	-1.15476851121E+00
2.74104900545E+06	-7.99553414266E+00	-1.78928816764E+02	5.04210336932E+00	1.67911831522E+02	-5.24212815104E+01	-1.59386224878E+02	-6.05411657161E+00	-1.35765415553E+00
2.76324036004E+06	-1.11420691755E+01	1.65733558186E+02	5.02494944679E+00	1.69078248576E+02	-4.33069888398E+01	5.95256874698E+01	-5.99188401727E+00	-1.21339844449E+00
2.78543171463E+06	-1.17987676637E+01	-1.64239986792E+02	5.01150780964E+00	1.68802715699E+02	-4.13327660007E+01	3.95785483666E+01	-6.01925581928E+00	-1.17805794041E+00
2.80762306923E+06	-1.21925240664E+01	1.78657213699E+02	5.00026623498E+00	1.68307437212E+02	-3.95167497096E+01	1.58630091338E+02	-6.01824937266E+00	-1.26738936588E+00
2.82981442382E+06	-1.07564842245E+01	-1.73351138145E+02	4.92157865027E+00	1.67820474927E+02	-3.63444745215E+01	7.48659239344E+01	-6.00451717953E+00	-1.38303038623E+00
2.85200577842E+06	-8.99809856302E+00	1.68121898220E+02	5.04564987631E+00	1.68116204478E+02	-3.87632916369E+01	-8.74286684677E+01	-5.99887903390E+00	-1.23328102710E+00
2.87419713301E+06	-7.84904193734E+00	-1.74868528208E+02	4.99324970951E+00	1.67762426637E+02	-4.19426944232E+01	3.68562954947E+01	-6.06386717983E+00	-1.36233268310E+00
