# Hz S DB R 50
! CMT, M5065, 19127446, 24.2.4/2
! Date: 10/29/2024 1:18:17 PM
! Data: Format (Calibration Info)
! Freq	S11:dB/Ang(F2)	S21:dB/Ang(F2)	S12:dB/Ang(F2)	S22:dB/Ang(F2)
3.00000000000E+05	-6.86692565847E+00	1.77283820609E+02	9.96509308145E+00	-1.78240194541E+02	-5.72329025305E+01	-7.36870164043E+01	-6.04520416808E+00	1.37238372249E-01
3.22191354595E+05	-1.24230037501E+01	1.63045067922E+02	9.97186522974E+00	-1.78673865220E+02	-3.59535140285E+01	1.61539588557E+02	-5.97889517546E+00	7.55728838084E-02
3.44382709190E+05	-1.21629651055E+01	1.75766270401E+02	1.00458467116E+01	-1.78809607637E+02	-4.11841954590E+01	5.74898085332E+01	-6.06112311717E+00	-4.37244440063E-01
3.66574063785E+05	-1.24531575433E+01	-1.66372252666E+02	9.94002213407E+00	-1.78733605931E+02	-3.91960749277E+01	-3.95174500256E+01	-6.01404108635E+00	-2.23626723056E-01
3.88765418380E+05	-1.38528562375E+01	-1.65842404852E+02	1.00064605361E+01	-1.78933708411E+02	-3.44604429431E+01	-4.75144422297E+01	-6.00213955942E+00	-3.04968149454E-01
4.10956772975E+05	-1.46381526334E+01	-1.77683805628E+02	9.94216092119E+00	-1.79475900460E+02	-3.84927041848E+01	-8.14503701167E+01	-6.02825065017E+00	-4.29903358956E-01
4.33148127570E+05	-1.09566790536E+01	-1.69373511326E+02	1.00154032370E+01	-1.79932538922E+02	-3.80899573571E+01	1.04537509628E+02	-5.99609421839E+00	-3.92369749796E-01
4.55339482165E+05	-1.31751172356E+01	-1.52027395046E+02	1.00120317912E+01	1.79850646068E+02	-3.61383417257E+01	1.06678609090E+02	-6.06776918230E+00	-3.92477446967E-01
4.77530836760E+05	-1.50627007698E+01	-1.48423337571E+02	1.00238735155E+01	-1.79973040777E+02	-4.38086026370E+01	8.63082474744E+01	-6.02183156489E+00	-2.72371674929E-01
4.99722191355E+05	-1.16815330156E+01	-1.78628052657E+02	1.00371402860E+01	1.79473250144E+02	-4.35973590216E+01	7.58196121222E+01	-6.04418175577E+00	-2.71917627577E-01
5.21913545950E+05	-1.11238798266E+01	-1.56885350643E+02	9.95326945594E+00	1.79080614386E+02	-3.71251825430E+01	-1.27194723012E+02	-6.02469477469E+00	-4.82333100385E-01
5.44104900545E+05	-1.08726229560E+01	1.71722705237E+02	1.00374426505E+01	1.78632776084E+02	-3.78139928453E+01	8.63410259897E+01	-6.01609164284E+00	-5.70663049539E-01
5.66296255139E+05	-1.26262754551E+01	1.78905579987E+02	1.00607503234E+01	1.78985213120E+02	-3.70475922236E+01	1.64259455752E+02	-6.03030237229E+00	-2.01893764807E-01
5.88487609734E+05	-7.57576398876E+00	-1.74774528029E+02	9.98430565019E+00	1.78493932251E+02	-3.85261404189E+01	-1.71385199453E+02	-6.08820022981E+00	-7.04283420183E-01
6.10678964329E+05	-1.19372314348E+01	1.53154883296E+02	1.00363358733E+01	1.78387328050E+02	-4.58428880123E+01	-8.84163392022E+01	-6.05899135111E+00	-2.28394813088E-01
6.32870318924E+05	-1.16502819178E+01	1.71895830874E+02	1.00124033767E+01	1.77903388849E+02	-4.45334538875E+01	1.62725952395E+02	-5.99303689600E+00	-3.21376985394E-01
6.55061673519E+05	-8.70406617896E+00	-1.60347842984E+02	1.00076695319E+01	1.78574829176E+02	-3.55805803127E+01	1.20803793349E+01	-5.97749438256E+00	-2.09372817063E-02
6.77253028114E+05	-1.17305515872E+01	1.65578774545E+02	1.00247051360E+01	1.77608111436E+02	-3.84776813481E+01	-1.22995502460E+02	-6.04893314167E+00	-4.43969414717E-01
6.99444382709E+05	-1.12563046371E+01	-1.67921693452E+02	1.00584126613E+01	1.77803368027E+02	-4.72119945772E+01	1.71782950802E+01	-6.04651597657E+00	-1.71827242314E-01
7.21635737304E+05	-8.77730839730E+00	-1.79754600579E+02	1.00162761148E+01	1.77726776269E+02	-4.75204096234E+01	6.31239346047E+00	-6.03612981532E+00	-2.66035504467E-01
7.43827091899E+05	-8.02942478548E+00	-1.69892995491E+02	1.00518055697E+01	1.77328448576E+02	-5.00636805913E+01	1.15723649420E+02	-6.06366969731E+00	-6.83568047239E-01
7.66018446494E+05	-1.10755816730E+01	-1.76016890818E+02	1.00202845849E+01	1.77535985616E+02	-4.36553785646E+01	-8.76108330014E+01	-6.00049708186E+00	-6.45705771492E-01
7.88209801089E+05	-6.53421284106E+00	1.54782949287E+02	9.92668772377E+00	1.77253333756E+02	-4.99567188517E+01	1.61316018768E+02	-6.07269429344E+00	-5.53554757234E-01
8.10401155684E+05	-5.86677999355E+00	1.66138754379E+02	9.97602238722E+00	1.76986182975E+02	-4.89101111460E+01	1.14453420522E+02	-6.04417908911E+00	-7.50483979233E-01
8.32592510279E+05	-1.11686663664E+01	1.63756538354E+02	1.00125457357E+01	1.76791140512E+02	-4.52650731982E+01	1.03836339485E+02	-6.02365654156E+00	-7.02296467947E-01
8.54783864874E+05	-1.40155268981E+01	-1.43692786066E+02	1.00268494167E+01	1.76856825712E+02	-4.30014500927E+01	-7.64270928919E+01	-6.04179989497E+00	-6.10376223172E-01
8.76975219469E+05	-8.63507993038E+00	1.75552994451E+02	9.99532024337E+00	1.76440397141E+02	-4.45099880091E+01	1.37337795213E+02	-6.03059528614E+00	-5.59015692500E-01
8.99166574064E+05	-1.12911494298E+01	1.66534766110E+02	1.00228702304E+01	1.76270961514E+02	-3.78849484279E+01	-1.18953014974E+02	-6.04201780307E+00	-6.03468027482E-01
9.21357928659E+05	-8.63430595555E+00	1.69391982033E+02	1.00315063760E+01	1.76365860681E+02	-3.88564328564E+01	4.52090406249E+01	-6.03864475622E+00	-4.33954751223E-01
9.43549283254E+05	-1.30437978055E+01	1.46380043832E+02	1.00393063426E+01	1.76124239013E+02	-4.01095570710E+01	5.61519948413E+01	-6.01236065712E+00	-6.26206952137E-01
9.65740637849E+05	-1.06364310615E+01	1.62879238142E+02	1.00077766984E+01	1.76150366160E+02	-4.93382727451E+01	-7.99255912661E+01	-6.02882135567E+00	-4.98609458034E-01
9.87931992444E+05	-1.28481350615E+01	1.57810889143E+02	1.00329102626E+01	1.75764809556E+02	-5.27046330489E+01	7.05154651478E+01	-6.04740113027E+00	-4.81860609123E-01
1.01012334704E+06	-1.01236762093E+01	-1.76655284410E+02	1.00697295778E+01	1.75825230455E+02	-3.83240185352E+01	-1.36177019068E+02	-6.01050775267E+00	-7.46724143923E-01
1.03231470163E+06	-1.25364839972E+01	1.70271345725E+02	1.00079150290E+01	1.75354696519E+02	-4.00831868660E+01	-3.58473253250E+01	-6.06090636114E+00	-7.21326990480E-01
1.05450605623E+06	-1.21628163180E+01	-1.60869184639E+02	1.00398907895E+01	1.75555397119E+02	-4.69406809583E+01	3.43348245952E+01	-6.05535861856E+00	-7.39626485133E-01
1.07669741082E+06	-9.23725226931E+00	-1.64808727944E+02	9.96898778755E+00	1.75187472601E+02	-3.95376707629E+01	7.08600961996E+00	-6.02894493964E+00	-8.39342531732E-01
1.09888876542E+06	-1.00925466026E+01	1.66922576670E+02	9.99689808432E+00	1.75077614374E+02	-4.20068780434E+01	-8.77466841850E+01	-6.04957420045E+00	-5.42436279174E-01
1.12108012001E+06	-5.68303610663E+00	-1.79471069467E+02	1.00473797099E+01	1.74735716529E+02	-3.68335305022E+01	-1.28155614910E+02	-6.00623339140E+00	-7.08582802802E-01
1.14327147461E+06	-1.00998139913E+01	-1.71261062997E+02	1.00018443830E+01	1.74686306681E+02	-3.58094806437E+01	-6.42254433173E+01	-6.01214356290E+00	-4.07532255026E-01
1.16546282920E+06	-1.51216416177E+01	1.33976283284E+02	1.00838214589E+01	1.74450826552E+02	-4.43898635216E+01	7.65502648115E+01	-5.99207619902E+00	-6.26964945584E-01
1.18765418380E+06	-1.49297224122E+01	1.60917540698E+02	1.00215073498E+01	1.74658566681E+02	-4.98712396632E+01	-1.60522387300E+02	-6.02263321348E+00	-6.74683229714E-01
1.20984553839E+06	-1.24938533208E+01	1.74132784864E+02	1.00281994627E+01	1.74344892437E+02	-3.90284407418E+01	1.37268963218E+02	-6.07715753261E+00	-1.04591095048E+00
1.23203689299E+06	-9.83462410674E+00	1.68435653607E+02	1.00063556763E+01	1.74010949286E+02	-4.94722626886E+01	-1.21518790799E+02	-6.00472959907E+00	-6.55597267158E-01
1.25422824758E+06	-9.24879748737E+00	-1.63655276115E+02	1.00485570686E+01	1.74513864643E+02	-4.08541533763E+01	-2.41099836342E+01	-6.03133355390E+00	-6.87635155529E-01
1.27641960218E+06	-8.66317481704E+00	1.70768476790E+02	1.00249157827E+01	1.73763819948E+02	-6.91248993665E+01	1.34433078635E+02	-6.00637258513E+00	-8.05522483146E-01
1.29861095677E+06	-1.15946382619E+01	1.59224511365E+02	1.00012442995E+01	1.73813036904E+02	-3.73463579782E+01	-1.18517248651E+02	-6.02033496998E+00	-6.50552092044E-01
1.32080231137E+06	-8.76182327868E+00	-1.62572255232E+02	1.00596203984E+01	1.73570438366E+02	-3.94975292593E+01	9.41033842252E+01	-6.02032794569E+00	-1.08752548943E+00
1.34299366596E+06	-1.02752192569E+01	1.39378584127E+02	9.99463698364E+00	1.73663651304E+02	-4.23583402926E+01	1.67147382085E+01	-6.02723917593E+00	-7.88470019828E-01
1.36518502056E+06	-1.12691956442E+01	1.79393792984E+02	1.00587929843E+01	1.73661798238E+02	-4.26956017271E+01	-5.78669908190E+01	-6.08000120676E+00	-8.38503378566E-01
1.38737637515E+06	-9.75855952616E+00	-1.77649563978E+02	9.98141062648E+00	1.73473098589E+02	-4.14204846425E+01	1.16639408536E+02	-6.01083336011E+00	-7.95164675585E-01
1.40956772975E+06	-7.74104333556E+00	1.69418208936E+02	1.00024364822E+01	1.72713306599E+02	-4.66972621609E+01	-2.07053650915E+01	-6.02657886869E+00	-7.49152815139E-01
1.43175908434E+06	-2.06425153479E+01	1.68553713786E+02	1.00756032664E+01	1.73100952831E+02	-4.31705125848E+01	9.44647509838E+01	-6.03890599476E+00	-6.39823850059E-01
1.45395043894E+06	-1.36788565971E+01	1.70410456233E+02	1.00840641434E+01	1.73088582689E+02	-3.97885989401E+01	-1.15290466304E+02	-6.02306978040E+00	-9.25961314306E-01
1.47614179353E+06	-1.10101714890E+01	1.70401118294E+02	9.99508226313E+00	1.72583191089E+02	-4.09696184378E+01	-1.29876418116E+02	-5.99987387470E+00	-7.60101805059E-01
1.49833314813E+06	-9.20160366683E+00	1.60922131679E+02	1.00191913469E+01	1.72645837850E+02	-3.99170746669E+01	1.22662537065E+02	-6.03957300982E+00	-9.34899525618E-01
1.52052450272E+06	-8.73708343464E+00	1.77016996953E+02	1.00081594851E+01	1.72694207857E+02	-3.83323261695E+01	8.69773496329E+01	-6.05730789856E+00	-7.98521020567E-01
1.54271585732E+06	-8.24590930516E+00	1.65876744769E+02	1.00423567250E+01	1.72027717048E+02	-3.81083351387E+01	9.31774225963E+01	-5.98158686745E+00	-7.50215241520E-01
1.56490721191E+06	-8.33385756627E+00	-1.79381474780E+02	1.00962759079E+01	1.72110776773E+02	-3.49885417037E+01	-8.59680201352E+01	-6.02642678557E+00	-7.28669228029E-01
1.58709856651E+06	-1.10921838998E+01	-1.79353073471E+02	9.95634357763E+00	1.72248491550E+02	-4.53848555800E+01	-2.73077439963E+01	-6.01777524271E+00	-8.21779933815E-01
1.60928992110E+06	-1.83896592721E+01	1.58848935581E+02	9.96908344546E+00	1.72369309130E+02	-4.17455948711E+01	1.62306320541E+01	-6.03922176868E+00	-8.71204669942E-01
1.63148127570E+06	-1.24865216696E+01	1.63643653109E+02	1.00193472837E+01	1.71387574021E+02	-5.43792021133E+01	-1.62253599130E+02	-6.03261286422E+00	-6.38125809230E-01
1.65367263029E+06	-6.79370568207E+00	1.63624185879E+02	1.00015923632E+01	1.71440689653E+02	-6.23369401467E+01	3.41590500036E+01	-6.00978482464E+00	-6.68922910129E-01
1.67586398489E+06	-5.23946172860E+00	-1.77504700422E+02	1.00070278347E+01	1.71455720763E+02	-4.18350967464E+01	2.75132673476E+01	-6.10124044844E+00	-8.82266469248E-01
1.69805533948E+06	-9.72825339401E+00	1.39271320189E+02	1.00153234866E+01	1.71581671134E+02	-4.96273455417E+01	4.79145654571E+01	-5.99490173609E+00	-1.06188265466E+00
1.72024669408E+06	-1.41923490074E+01	-1.59222953989E+02	9.93095670024E+00	1.71473447336E+02	-4.20034845956E+01	-9.68337348755E+01	-5.96530940098E+00	-7.08812810580E-01
1.74243804867E+06	-8.72110611459E+00	1.59828385969E+02	9.95767887223E+00	1.71237361143E+02	-4.41233410009E+01	9.46354275920E+01	-6.04207160655E+00	-9.15011417564E-01
1.76462940327E+06	-1.09511497720E+01	1.78253866163E+02	9.99275508412E+00	1.71099402990E+02	-4.20431100697E+01	1.05156403982E+02	-6.04155228415E+00	-7.24640953496E-01
1.78682075786E+06	-8.17206701748E+00	1.69819740981E+02	1.00260696739E+01	1.71094383763E+02	-3.86342779278E+01	-1.77377629060E+02	-6.00000041360E+00	-1.03765598568E+00
1.80901211246E+06	-9.86239300960E+00	1.73112061675E+02	1.00324479116E+01	1.70930216843E+02	-3.48603333823E+01	-8.86827260663E+01	-6.04055578786E+00	-1.21419057695E+00
1.83120346705E+06	-9.97680671014E+00	1.79747469383E+02	1.00617962990E+01	1.70438724268E+02	-3.47501998914E+01	1.18203634158E+02	-6.04501346406E+00	-7.70847976607E-01
1.85339482165E+06	-1.03884063772E+01	1.58284074369E+02	1.00205177352E+01	1.70458084792E+02	-4.23944867414E+01	-4.17073359905E+01	-6.00940202906E+00	-1.13351643966E+00
1.87558617624E+06	-9.55354604394E+00	1.65600062291E+02	9.98410652773E+00	1.70327405278E+02	-3.42329634192E+01	-2.72155885625E+01	-5.99807631850E+00	-8.85048533594E-01
1.89777753084E+06	-1.03058836892E+01	-1.70137693893E+02	1.00466076305E+01	1.70414044112E+02	-4.05712098330E+01	-6.28783907625E+01	-6.00545502217E+00	-8.02120895068E-01
1.91996888543E+06	-1.16724129889E+01	-1.75057817920E+02	1.00536716931E+01	1.70212254241E+02	-3.85571115923E+01	-1.02337725618E+02	-6.03334511415E+00	-8.78201231518E-01
1.94216024003E+06	-1.18429627058E+01	1.44105066346E+02	9.99520495469E+00	1.70020270316E+02	-4.80608952110E+01	8.61092132293E+01	-6.03044347694E+00	-1.17442901928E+00
1.96435159462E+06	-1.00824961410E+01	-1.79187879397E+02	1.00797606939E+01	1.70031233544E+02	-4.55742117637E+01	6.57259332538E+01	-6.03666012435E+00	-1.12765469407E+00
1.98654294922E+06	-1.39303585741E+01	-1.51755995076E+02	1.00427629994E+01	1.69716744483E+02	-4.00690947286E+01	1.05647001055E+02	-5.97383814476E+00	-7.01990989040E-01
2.00873430381E+06	-9.25353923964E+00	-1.79353378495E+02	9.97420212436E+00	1.69630960187E+02	-4.33269190132E+01	1.42015707812E+02	-6.03739894923E+00	-1.15686107998E+00
2.03092565841E+06	-8.58993233371E+00	-1.78547030119E+02	1.00909819265E+01	1.69808893696E+02	-5.26086345403E+01	7.63933674852E+01	-6.04136280751E+00	-1.01104948346E+00
2.05311701300E+06	-7.59241639278E+00	-1.67713755642E+02	1.01211116628E+01	1.69174052122E+02	-3.59409704584E+01	8.78341274896E+01	-6.00653810417E+00	-9.54654459787E-01
2.07530836760E+06	-1.06212584260E+01	1.51533020751E+02	1.00010040582E+01	1.69609539382E+02	-3.95384298007E+01	2.40674774782E+01	-6.06191116318E+00	-8.52611122785E-01
2.09749972219E+06	-1.58020138021E+01	1.77062420524E+02	1.00090045469E+01	1.69148642815E+02	-3.93891539270E+01	-1.77902387367E+02	-5.99533951533E+00	-1.12885666741E+00
2.11969107679E+06	-1.09286018716E+01	1.68217054105E+02	1.00356836131E+01	1.68632572306E+02	-3.90808200081E+01	3.79941545435E+01	-6.02440690104E+00	-1.00593394555E+00
2.14188243138E+06	-9.01486427748E+00	1.63167527560E+02	9.96242932543E+00	1.69050834142E+02	-4.32401924638E+01	1.46111946271E+02	-6.04246288677E+00	-9.69244328079E-01
2.16407378598E+06	-1.10300864954E+01	1.71221260517E+02	9.97594554014E+00	1.68625730932E+02	-3.89737793579E+01	1.59920107581E+02	-5.98721223614E+00	-7.37027783231E-01
2.18626514057E+06	-9.85392109497E+00	1.65462413472E+02	1.00253538189E+01	1.69248346176E+02	-3.93621117942E+01	-1.70689064344E+02	-6.02551693360E+00	-1.14731319467E+00
2.20845649517E+06	-9.76003550857E+00	-1.63473047259E+02	9.93509498866E+00	1.69139263934E+02	-3.56015313054E+01	-9.52107079657E+01	-6.04784144237E+00	-1.20699569523E+00
2.23064784976E+06	-1.05302403213E+01	1.77517345041E+02	1.00362355035E+01	1.68465899654E+02	-3.96436090204E+01	1.13427725846E+02	-5.99297134252E+00	-1.25362242281E+00
2.25283920436E+06	-9.96779733565E+00	1.58357539965E+02	9.99383406124E+00	1.68323411656E+02	-3.79473840208E+01	-2.05220802003E+00	-6.01106613343E+00	-9.81501102337E-01
2.27503055895E+06	-1.67377577229E+01	1.58954469928E+02	1.00337793196E+01	1.68193345729E+02	-3.74692435195E+01	-7.38442110312E+01	-6.03095399058E+00	-1.09818135298E+00
2.29722191355E+06	-1.31629520440E+01	1.64710692414E+02	9.98912359397E+00	1.67959661135E+02	-4.72345119833E+01	6.65738007323E+01	-6.01066037646E+00	-1.39909886729E+00
2.31941326814E+06	-9.68246499931E+00	1.66953285609E+02	1.00217383017E+01	1.67894251619E+02	-4.06078807265E+01	1.78501395828E+02	-6.02480249460E+00	-1.21359561712E+00
2.34160462274E+06	-9.60022976548E+00	1.78662824677E+02	1.00544738588E+01	1.67939245584E+02	-4.78024641829E+01	1.61010680321E+02	-6.02622547076E+00	-1.08625352762E+00
2.36379597733E+06	-1.28935950403E+01	1.59540760810E+02	9.90750468343E+00	1.68117702330E+02	-4.18609128893E+01	-7.53207522157E+01	-6.04035164561E+00	-1.05376886747E+00
2.38598733193E+06	-1.08374546271E+01	1.47329054375E+02	1.00358840081E+01	1.67772005219E+02	-4.15354360862E+01	-1.11996934060E+00	-6.01870343442E+00	-1.31908917002E+00
2.40817868652E+06	-1.12548074329E+01	1.64613821137E+02	9.99037878291E+00	1.67269707010E+02	-4.05140478019E+01	8.76724124078E+01	-6.01815496238E+00	-1.18149989994E+00
2.43037004112E+06	-9.45839403797E+00	1.55581350555E+02	9.96909868630E+00	1.67422447133E+02	-3.75267410976E+01	3.23171521492E+01	-5.97841382074E+00	-1.41791424804E+00
2.45256139571E+06	-1.32061680187E+01	-1.70853751235E+02	9.97887211743E+00	1.67175754331E+02	-5.88050982469E+01	8.42131971968E+01	-6.03689189638E+00	-1.21115301351E+00
2.47475275031E+06	-1.09326112104E+01	1.79522556908E+02	1.00254151564E+01	1.67034959056E+02	-3.53193969985E+01	-1.32147785815E+02	-6.02006281671E+00	-1.42610059683E+00
2.49694410490E+06	-1.16165780095E+01	1.57292955716E+02	1.00387054790E+01	1.66915945881E+02	-4.04712312107E+01	2.00120883915E+01	-6.02951810225E+00	-8.75255551778E-01
2.51913545950E+06	-1.12121198628E+01	1.78198296844E+02	9.99983016210E+00	1.67078845670E+02	-4.48451737477E+01	-1.50977690962E+02	-6.00311552577E+00	-1.14821181900E+00
2.54132681409E+06	-1.01215103374E+01	-1.65566534030E+02	1.00138610780E+01	1.66691460473E+02	-3.55006935751E+01	-3.29956418223E+01	-6.02991994863E+00	-1.12693514201E+00
2.56351816869E+06	-9.34606048713E+00	-1.75414529262E+02	1.00040312498E+01	1.66473461926E+02	-4.53710720240E+01	-1.29208582720E+02	-6.05440742469E+00	-1.07154514641E+00
2.58570952328E+06	-8.89251405596E+00	1.75212833163E+02	1.00238150208E+01	1.66379894108E+02	-5.17374005571E+01	4.01564036817E+01	-6.03863388919E+00	-1.00935094915E+00
2.60790087788E+06	-9.57805959310E+00	1.71472919497E+02	9.98311479325E+00	1.66212168678E+02	-3.42976637561E+01	-1.14144183429E+02	-6.06759209569E+00	-1.15685909164E+00
2.63009223247E+06	-1.17284578760E+01	-1.58642942779E+02	1.00156011313E+01	1.66498051437E+02	-3.90103616034E+01	1.61395330868E+02	-6.05616861008E+00	-1.22896307537E+00
2.65228358707E+06	-1.72978620556E+01	1.73982715363E+02	9.93982683084E+00	1.66209000499E+02	-4.02430690361E+01	1.38542283385E+01	-6.01806999661E+00	-2.03466200261E+00
2.67447494166E+06	-7.13340280852E+00	1.61558913029E+02	1.00006682042E+01	1.65635999493E+02	-3.22056444960E+01	-1.27859434807E+02	-6.01725833371E+00	-1.47535176850E+00
2.69666629626E+06	-1.37973295173E+01	-1.74289661712E+02	1.00755498781E+01	1.66100193262E+02	-4.42839573727E+01	-6.02130939520E+01	-6.02107448179E+00	-1.26156631045E+00
2.71885765085E+06	-8.47031347749E+00	1.65894224752E+02	9.98500080377E+00	1.65466075629E+02	-4.41270663566E+01	-1.50313647950E+02	-5.97216779751E+00	-1.33097398020E+00
2.74104900545E+06	-1.29424481600E+01	1.78898721116E+02	1.00192315083E+01	1.65456809963E+02	-5.11745703125E+01	-1.14969778500E+02	-6.06188891709E+00	-1.18455512880E+00
2.76324036004E+06	-9.84911724509E+00	-1.76450798983E+02	1.00047366206E+01	1.65620833734E+02	-4.39029854631E+01	-1.45596440912E+02	-6.02652287904E+00	-1.58755257232E+00
2.78543171463E+06	-1.05199734301E+01	-1.62898595148E+02	1.00325756001E+01	1.65352140546E+02	-4.05907303810E+01	-6.39071162254E+01	-5.97222399156E+00	-1.25155366810E+00
2.80762306923E+06	-1.31952210099E+01	-1.76598826314E+02	9.97510154954E+00	1.65503215805E+02	-3.73931725135E+01	-1.33669625706E+02	-6.05800930006E+00	-1.37660087431E+00
2.82981442382E+06	-1.03464011198E+01	-1.70509395072E+02	1.00417605336E+01	1.65187657976E+02	-3.54529895133E+01	-1.11688760548E+01	-6.01814441147E+00	-1.45228323031E+00
2.85200577842E+06	-9.08709340494E+00	1.64214594637E+02	1.00334032970E+01	1.65299217474E+02	-4.90406396888E+01	-1.25681136190E+02	-6.02724242822E+00	-1.21587608412E+00
2.87419713301E+06	-1.09993072725E+01	1.57349450428E+02	1.00389793449E+01	1.65072687620E+02	-4.08963137769E+01	-5.26052032978E+01	-6.00054485724E+00	-1.20369456046E+00
2.89638848761E+06	-9.95023205478E+00	1.40279886150E+02	1.00166356922E+01	1.64749713901E+02	-3.95892282915E+01	-1.19408905657E+02	-6.07024602771E+00	-1.24948799799E+00
