# Hz S DB R 50
! CMT, M5065, 19127446, 24.2.4/2
! Date: 10/29/2024 1:01:55 PM
! Data: Format (Calibration Info)
! Freq	S11:dB/Ang(F2)	S21:dB/Ang(F2)	S12:dB/Ang(F2)	S22:dB/Ang(F2)
3.00000000000E+05	-1.41702288112E+01	-1.66239439302E+02	4.86491403280E+00	-1.77521872902E+02	-3.82592429299E+01	3.35199320827E+00	-6.01901928879E+00	-4.70048432109E-01
3.22191354595E+05	-1.33548907798E+01	-1.70688614399E+02	4.82693181739E+00	-1.78322679554E+02	-4.26151736205E+01	-7.24049210859E+01	-6.05171197284E+00	-3.96693137258E-01
3.44382709190E+05	-1.54190629274E+01	-1.65811158606E+02	4.86154272508E+00	-1.78572738780E+02	-4.73820398665E+01	-8.38209305218E+01	-6.04975782018E+00	-3.35444917107E-01
3.66574063785E+05	-1.06945625823E+01	1.56445506705E+02	4.79997467198E+00	-1.78353464249E+02	-4.16770527315E+01	-1.29182363524E+01	-6.00002955498E+00	-3.39312388234E-01
3.88765418380E+05	-1.48735052758E+01	-1.71468997522E+02	4.87971672692E+00	-1.79085767813E+02	-4.13509472564E+01	7.87550418495E+01	-6.03963412437E+00	-4.52993177320E-01
4.10956772975E+05	-9.02244872043E+00	-1.78272901317E+02	4.91604152320E+00	-1.79764395351E+02	-4.62116858298E+01	6.34412742029E+01	-6.01635260655E+00	-3.21434563060E-01
4.33148127570E+05	-7.20750855501E+00	1.77285025277E+02	4.87701229058E+00	-1.79501991099E+02	-5.76200636636E+01	-1.18286801772E+02	-6.05399566730E+00	-2.68493167524E-01
4.55339482165E+05	-9.29140024126E+00	-1.58517280317E+02	4.93269855939E+00	1.79935514014E+02	-3.84072144906E+01	-5.67530502947E+01	-6.03832811027E+00	-6.14919696885E-01
4.77530836760E+05	-1.41596983422E+01	-1.49182587298E+02	4.91343516383E+00	1.79841084322E+02	-4.35625705000E+01	1.09319693285E+02	-5.99341833601E+00	-4.17054368728E-01
4.99722191355E+05	-1.53021311685E+01	1.54735493201E+02	4.87700930769E+00	1.79964664507E+02	-3.93228626737E+01	5.81659320158E+00	-6.05076761607E+00	-6.88366628542E-01
5.21913545950E+05	-7.60503582376E+00	-1.66455636976E+02	4.83818621410E+00	-1.79922697589E+02	-3.89803982068E+01	7.57265990226E+01	-6.05366083730E+00	-6.36588879860E-01
5.44104900545E+05	-1.30954117811E+01	1.48200925637E+02	4.88102084106E+00	1.79490413257E+02	-3.75741928732E+01	7.84299496740E+00	-6.02709293054E+00	-7.47323362506E-01
5.66296255139E+05	-1.28285142674E+01	-1.59482912576E+02	4.93062548193E+00	1.79360241930E+02	-4.12680388169E+01	1.18003745517E+02	-6.02625505778E+00	-3.31250401333E-01
5.88487609734E+05	-1.07880665923E+01	1.78901713493E+02	4.88447487210E+00	1.79033493379E+02	-4.25685650177E+01	1.49353272744E+01	-6.00836679076E+00	-3.79540280141E-01
6.10678964329E+05	-9.18782653361E+00	-1.76200953431E+02	4.83485956139E+00	1.79357029372E+02	-4.45761851895E+01	-8.64573704742E+00	-6.01669542116E+00	-3.63788954421E-01
6.32870318924E+05	-1.12847939717E+01	-1.63421218468E+02	4.83387888856E+00	1.78228690824E+02	-3.65086972474E+01	1.75761381783E+02	-6.00593978906E+00	-5.21624573109E-01
6.55061673519E+05	-1.36357585328E+01	1.60143936324E+02	4.91198727912E+00	1.78542854294E+02	-3.41470421964E+01	1.01137611871E+02	-6.02859687026E+00	-1.36718758919E-01
6.77253028114E+05	-7.87957532603E+00	-1.71868721905E+02	4.91131168119E+00	1.78635206872E+02	-4.21517996161E+01	7.95543291627E+01	-6.00109306327E+00	-6.35513816681E-01
6.99444382709E+05	-6.08115336246E+00	1.65341760987E+02	4.99521383039E+00	1.78197173137E+02	-4.34081933386E+01	-1.57475499201E+02	-6.04501261362E+00	-6.21810361308E-01
7.21635737304E+05	-8.32684045632E+00	-1.72079616054E+02	4.94235823018E+00	1.78267432926E+02	-3.97445900707E+01	-1.68913354995E+02	-5.97372402879E+00	-2.89483391225E-01
7.43827091899E+05	-9.72163359163E+00	-1.77802264070E+02	4.81264875250E+00	1.78221757140E+02	-4.35659821770E+01	-1.48224916709E+02	-5.97726890310E+00	-4.07510718732E-01
7.66018446494E+05	-1.19495137753E+01	-1.70256502732E+02	4.91512695018E+00	1.78173035684E+02	-4.00363436081E+01	3.85157158678E+01	-6.05131709190E+00	-5.40589217034E-01
7.88209801089E+05	-1.13184932914E+01	-1.67445713393E+02	4.78944136909E+00	1.78372049606E+02	-4.17440373783E+01	-1.21616475951E+02	-6.00380835648E+00	-3.78072855802E-01
8.10401155684E+05	-1.03379831480E+01	1.60596274824E+02	4.90538315948E+00	1.77523261494E+02	-3.63269585434E+01	1.21641155242E+02	-6.03032471358E+00	-6.86692403920E-01
8.32592510279E+05	-1.11676264760E+01	-1.47247565681E+02	4.87406967966E+00	1.78102784790E+02	-4.75213274841E+01	-2.60617421148E+00	-6.01322016360E+00	-6.38449993170E-01
8.54783864874E+05	-1.16163367314E+01	1.78088348406E+02	4.85395212448E+00	1.77989376227E+02	-5.59875080312E+01	1.32629181534E+02	-6.03433817376E+00	-5.57541478360E-01
8.76975219469E+05	-9.02916822886E+00	-1.76257472396E+02	4.92860609817E+00	1.76810101274E+02	-4.18151947931E+01	-3.73414637491E+01	-6.03075352118E+00	-6.80387526280E-01
8.99166574064E+05	-1.05205227231E+01	-1.68353444994E+02	4.88142079762E+00	1.77269178013E+02	-3.85491701524E+01	8.38650715483E+01	-6.04239166210E+00	-6.38497879971E-01
9.21357928659E+05	-1.00333231134E+01	-1.75148611496E+02	4.84184519049E+00	1.77279243588E+02	-3.70667658771E+01	-2.06450782894E+00	-6.03448325486E+00	-5.85530965051E-01
9.43549283254E+05	-1.08002013927E+01	-1.73157988980E+02	4.97971809261E+00	1.77131364582E+02	-3.94446968372E+01	8.79485994464E+01	-6.08464157855E+00	-8.20899119616E-01
9.65740637849E+05	-1.04610712573E+01	-1.72006754403E+02	4.89335668407E+00	1.77222433672E+02	-3.54697420075E+01	-6.33689487872E+01	-6.03297047490E+00	-6.97108747133E-01
9.87931992444E+05	-8.77707488256E+00	-1.74721443851E+02	4.88337878979E+00	1.76616881395E+02	-3.54317682163E+01	-1.24419862734E+01	-6.04764244116E+00	-5.35311644922E-01
1.01012334704E+06	-1.30148483588E+01	-1.76644288173E+02	4.81144390970E+00	1.76597424064E+02	-4.94232298384E+01	-1.40553246955E+02	-6.03486824937E+00	-5.68952741826E-01
1.03231470163E+06	-7.32609602131E+00	1.68746276126E+02	4.96745964577E+00	1.76420099704E+02	-5.00766944162E+01	-1.41030633222E+02	-5.99686132851E+00	-5.84979244298E-01
1.05450605623E+06	-1.12926282054E+01	1.76060836659E+02	4.92677420791E+00	1.76597109910E+02	-3.73387778236E+01	1.13883866359E+02	-6.00299666674E+00	-5.32363408267E-01
1.07669741082E+06	-1.21239439915E+01	-1.71468038483E+02	4.92886821142E+00	1.76573490877E+02	-3.76618761995E+01	-5.98693278966E+00	-5.99399230067E+00	-6.03232447499E-01
1.09888876542E+06	-1.27431103720E+01	-1.58491797001E+02	4.88515727197E+00	1.76710484534E+02	-4.11319031931E+01	1.00123929156E+01	-6.02337853159E+00	-5.13123153687E-01
1.12108012001E+06	-9.82300229392E+00	-1.75397472491E+02	4.92526482398E+00	1.76524367406E+02	-4.11837764222E+01	1.18124718308E+02	-6.01280229278E+00	-7.83449442365E-01
1.14327147461E+06	-9.30143946029E+00	-1.70690193526E+02	4.86676837069E+00	1.76444214072E+02	-4.77908304983E+01	-1.70541510479E+02	-6.03902897141E+00	-7.83471056655E-01
1.16546282920E+06	-1.12730446833E+01	1.72094948961E+02	4.82808734769E+00	1.76204752179E+02	-3.63464860353E+01	-1.42531091949E+02	-5.98551671867E+00	-6.97410374186E-01
1.18765418380E+06	-8.16740692438E+00	1.64390083268E+02	4.88859991749E+00	1.75860584299E+02	-3.87853387087E+01	-1.13916042653E+02	-6.03730789294E+00	-5.95112690949E-01
1.20984553839E+06	-8.30044762528E+00	1.70160882506E+02	4.88749019390E+00	1.75545795284E+02	-4.55145777000E+01	-4.77676554229E+01	-6.01900092903E+00	-6.44702882117E-01
1.23203689299E+06	-1.00979023731E+01	1.71968770442E+02	4.88934190434E+00	1.75706390905E+02	-5.01561475399E+01	-1.16734857673E+02	-6.03814742027E+00	-6.02804433453E-01
1.25422824758E+06	-9.67734183061E+00	1.79884128117E+02	4.90081170592E+00	1.74964007568E+02	-5.12629670367E+01	3.67534564710E+01	-6.01714002430E+00	-7.67904784770E-01
1.27641960218E+06	-8.84695168184E+00	1.67373047060E+02	4.88665721906E+00	1.75010811131E+02	-3.29877788860E+01	1.60840227236E+02	-6.04149059108E+00	-6.66597372811E-01
1.29861095677E+06	-9.17096868529E+00	1.71742587044E+02	4.95213159587E+00	1.75824809618E+02	-3.49468545061E+01	1.70485806937E+02	-6.01478637290E+00	-7.13890865649E-01
1.32080231137E+06	-9.07375195957E+00	1.72800072351E+02	4.88853347504E+00	1.75222340639E+02	-3.54283732070E+01	-1.06326528768E+02	-5.99337130565E+00	-1.35837187727E+00
1.34299366596E+06	-9.73797406775E+00	-1.44368391699E+02	4.95075021851E+00	1.74669031725E+02	-3.47331676962E+01	-1.28554449544E+02	-6.04755295298E+00	-6.84140296627E-01
1.36518502056E+06	-1.14889164956E+01	-1.74117481239E+02	4.84942861404E+00	1.75126102213E+02	-4.99863392772E+01	1.36263009286E+02	-6.02595696450E+00	-6.90704142032E-01
1.38737637515E+06	-1.04137448456E+01	-1.70314863448E+02	4.87397526780E+00	1.75011672750E+02	-3.17496954867E+01	1.21912207859E+02	-6.01848848087E+00	-7.34688982392E-01
1.40956772975E+06	-1.16213174296E+01	-1.73278070877E+02	4.82750939171E+00	1.74573630050E+02	-4.02531163925E+01	-9.46508969008E+01	-6.00046623037E+00	-6.13685715724E-01
1.43175908434E+06	-9.97657174424E+00	-1.76901234034E+02	4.93414135863E+00	1.74329386975E+02	-4.78521332093E+01	1.00267694758E+01	-6.03022536020E+00	-5.90908206011E-01
1.45395043894E+06	-1.26092518785E+01	-1.74376016270E+02	4.87503865256E+00	1.73948445645E+02	-3.36473418508E+01	-1.39945320236E+02	-6.08085470077E+00	-7.32541542068E-01
1.47614179353E+06	-8.15960218090E+00	-1.51698871646E+02	4.89288786929E+00	1.74610490214E+02	-5.13734044683E+01	-4.78286468713E+01	-6.05253543091E+00	-7.32007689365E-01
1.49833314813E+06	-9.19057535710E+00	1.62647575589E+02	4.89535558961E+00	1.74078535577E+02	-4.09851902877E+01	8.57388831890E+01	-6.03850924058E+00	-7.59060046705E-01
1.52052450272E+06	-1.60325582113E+01	1.78803349783E+02	4.89231753648E+00	1.74191044603E+02	-3.77993584776E+01	4.21922146862E+01	-6.09531655369E+00	-8.80730915576E-01
1.54271585732E+06	-1.52469723453E+01	-1.76237611848E+02	4.91753015089E+00	1.74235419115E+02	-4.07739109317E+01	1.19338887384E+02	-6.02206407357E+00	-4.15884127895E-01
1.56490721191E+06	-1.02005506370E+01	1.71780393790E+02	4.89604587127E+00	1.73646380417E+02	-4.45782783584E+01	1.55995956990E+01	-5.99828789421E+00	-1.05791265415E+00
1.58709856651E+06	-1.34743289848E+01	1.52402197909E+02	4.84153305308E+00	1.74249145164E+02	-3.87775958835E+01	1.50082451264E+02	-6.01182057749E+00	-7.19084227001E-01
1.60928992110E+06	-7.74267713662E+00	1.71262969246E+02	4.84782708035E+00	1.73567837925E+02	-4.21321451204E+01	-2.81762615314E+01	-6.03932781295E+00	-8.31720388182E-01
1.63148127570E+06	-1.24820831033E+01	1.75766216669E+02	4.83997963249E+00	1.73730698541E+02	-3.96926475973E+01	1.26383564958E+02	-6.00749535956E+00	-1.06504929000E+00
1.65367263029E+06	-1.01367845905E+01	1.63623923624E+02	4.83828324391E+00	1.73400894961E+02	-3.99110985195E+01	-6.87310550274E+01	-6.01059991787E+00	-9.33817332295E-01
1.67586398489E+06	-1.25106122721E+01	1.58380864263E+02	4.89231506438E+00	1.74031318774E+02	-4.70338040770E+01	-9.72003689310E+01	-6.00375842554E+00	-9.40320025044E-01
1.69805533948E+06	-9.86925527613E+00	-1.64809332462E+02	4.92076104455E+00	1.73536035279E+02	-3.65602571346E+01	1.20338659066E+02	-6.05460347612E+00	-9.98911219074E-01
1.72024669408E+06	-8.76870879817E+00	-1.70047646657E+02	4.88246164071E+00	1.73445661073E+02	-3.57285520098E+01	-2.50307926344E+01	-6.02685541958E+00	-9.87127210403E-01
1.74243804867E+06	-8.89089611464E+00	-1.65504054185E+02	4.92584886761E+00	1.73252433976E+02	-4.61345327192E+01	1.14599580115E+01	-6.03377583242E+00	-9.54155351050E-01
1.76462940327E+06	-1.03006184845E+01	-1.74842365781E+02	4.86417512747E+00	1.72600779079E+02	-4.33286105963E+01	-1.41235781277E+02	-6.02557165370E+00	-8.89082807519E-01
1.78682075786E+06	-7.73319511235E+00	-1.70531725012E+02	4.86943922959E+00	1.72453985644E+02	-4.28458498894E+01	3.15211968899E+01	-6.01798418716E+00	-7.87665076675E-01
1.80901211246E+06	-1.10300575457E+01	1.55308061769E+02	4.84736414047E+00	1.72668693222E+02	-3.24069483665E+01	-1.44141100712E+02	-6.02721123926E+00	-7.04826890784E-01
1.83120346705E+06	-8.08353266773E+00	-1.64981691296E+02	4.92831998588E+00	1.72701760204E+02	-3.84684670908E+01	-1.29988460387E+02	-6.01790833613E+00	-1.18458186129E+00
1.85339482165E+06	-8.29636517191E+00	-1.79615453318E+02	4.86172188551E+00	1.72134853781E+02	-3.34907407139E+01	-1.32514600873E+02	-6.05089416795E+00	-9.43200570107E-01
1.87558617624E+06	-7.67280256861E+00	-1.70065588851E+02	4.89517751221E+00	1.72433797249E+02	-3.47454083161E+01	5.83055094593E+01	-5.99226546435E+00	-1.02238689578E+00
1.89777753084E+06	-1.24314748539E+01	-1.77593220135E+02	4.94180481806E+00	1.72661299346E+02	-3.54909300310E+01	1.40056027176E+02	-5.96959157595E+00	-9.90010114353E-01
1.91996888543E+06	-1.03974537015E+01	1.56962370675E+02	4.89643267107E+00	1.72240535373E+02	-4.00155781743E+01	1.68873913255E+02	-6.00148113882E+00	-8.12380766648E-01
1.94216024003E+06	-1.15013575183E+01	1.65721615127E+02	4.79890712455E+00	1.71970867594E+02	-3.98280595269E+01	4.49769020753E+01	-5.99297980125E+00	-9.58036266574E-01
1.96435159462E+06	-8.67272894790E+00	1.68565977163E+02	4.95766053196E+00	1.71851461153E+02	-6.06903363418E+01	-1.09629948808E+02	-6.03468431794E+00	-9.40292086963E-01
1.98654294922E+06	-7.95760883685E+00	-1.79529005312E+02	4.88998293868E+00	1.71799055916E+02	-4.51855168205E+01	1.14157157659E+02	-6.03914271073E+00	-7.11085321805E-01
2.00873430381E+06	-1.02400464132E+01	-1.67256837291E+02	4.90351296393E+00	1.71571736126E+02	-3.36293828453E+01	-7.81761765888E+01	-6.00313823311E+00	-1.08358707755E+00
2.03092565841E+06	-1.23982313106E+01	1.77162153427E+02	4.84857786992E+00	1.71329235022E+02	-3.94276929612E+01	-1.24815116480E+01	-6.00147200192E+00	-8.78669073884E-01
2.05311701300E+06	-9.80326009406E+00	1.74232652533E+02	4.93059355316E+00	1.71189817938E+02	-4.24491378159E+01	1.69400241891E+02	-5.98506877558E+00	-1.22490850431E+00
2.07530836760E+06	-1.17861838703E+01	-1.41392726472E+02	4.83802978328E+00	1.71759649100E+02	-3.59115233065E+01	-8.96811927746E+01	-6.00247647748E+00	-1.10582924635E+00
2.09749972219E+06	-8.82516164844E+00	-1.66529527721E+02	4.85882489255E+00	1.71576470698E+02	-5.50994433381E+01	1.31330923716E+02	-6.02238564742E+00	-1.08886464114E+00
2.11969107679E+06	-1.03049168649E+01	1.79945990748E+02	4.87770492336E+00	1.71878654648E+02	-4.16914952204E+01	-1.08657013085E+02	-6.05179348051E+00	-1.08456663261E+00
2.14188243138E+06	-8.44906547893E+00	1.50438020451E+02	4.87122224027E+00	1.71214929267E+02	-3.65925789118E+01	-1.64888784294E+02	-6.01412826250E+00	-1.14682865564E+00
2.16407378598E+06	-1.35764246466E+01	1.79943266047E+02	4.85386294780E+00	1.71395536080E+02	-3.65540972691E+01	-1.73827028563E+02	-6.02789819978E+00	-1.18998563770E+00
2.18626514057E+06	-9.09906351699E+00	1.69250095340E+02	5.00084616871E+00	1.70856114028E+02	-4.72032599422E+01	-3.41106903187E+01	-6.01384867684E+00	-1.07960408878E+00
2.20845649517E+06	-7.82230205503E+00	1.63086365987E+02	5.00288884782E+00	1.70739034794E+02	-3.74484284663E+01	1.48556619414E+01	-6.01850274106E+00	-1.29949833489E+00
2.23064784976E+06	-9.61237689819E+00	1.63955513334E+02	4.90899144219E+00	1.70530510883E+02	-6.29543655174E+01	-4.53931285881E+01	-6.01289856349E+00	-9.83790915417E-01
2.25283920436E+06	-9.03356908265E+00	-1.64067522036E+02	4.87701666560E+00	1.70731635331E+02	-4.49464349504E+01	-7.83033824994E-01	-5.99569524159E+00	-1.20742724389E+00
2.27503055895E+06	-1.16434643773E+01	-1.68460226578E+02	4.91504888678E+00	1.70274580714E+02	-3.61264278316E+01	-1.11996001352E+02	-5.97480162215E+00	-8.37246564059E-01
2.29722191355E+06	-1.03011486137E+01	-1.49720421476E+02	4.81983622345E+00	1.70644531102E+02	-3.76118619782E+01	-1.32623595008E+02	-6.03676087843E+00	-1.16889594247E+00
2.31941326814E+06	-9.26553298394E+00	-1.76901441304E+02	4.94536104314E+00	1.70699692295E+02	-4.44713583695E+01	2.39759322424E+01	-6.00655816400E+00	-1.29111641532E+00
2.34160462274E+06	-9.84484715812E+00	1.43751155395E+02	4.89578044194E+00	1.70657771521E+02	-3.85215456254E+01	1.67922989745E+02	-5.98936385428E+00	-1.23486461259E+00
2.36379597733E+06	-8.47344656720E+00	1.55112281018E+02	4.86241727071E+00	1.69855633507E+02	-3.84011197649E+01	2.48847837082E+01	-6.00378666009E+00	-9.45938108103E-01
2.38598733193E+06	-1.28327396182E+01	1.67722846449E+02	4.93842865675E+00	1.70314516672E+02	-3.71749786767E+01	2.26057319174E+01	-6.03242297072E+00	-1.15683764349E+00
2.40817868652E+06	-9.02156870683E+00	1.73915117718E+02	4.93010930488E+00	1.70155160013E+02	-4.66970181503E+01	-2.19510287068E+01	-6.01878431416E+00	-1.29334510118E+00
2.43037004112E+06	-1.08158044476E+01	-1.71632951402E+02	4.86263696494E+00	1.69928444353E+02	-4.44008869462E+01	-7.26428937955E+01	-6.04797817308E+00	-1.45992745334E+00
2.45256139571E+06	-1.02891285163E+01	1.74921159614E+02	4.86791622265E+00	1.69927612543E+02	-4.24839721976E+01	9.41258559511E+00	-6.00608265199E+00	-1.10183572106E+00
2.47475275031E+06	-1.02218966353E+01	1.72255336595E+02	4.92783435245E+00	1.69607794254E+02	-4.04505687300E+01	-3.83959579206E+01	-6.03027995913E+00	-1.12966157789E+00
2.49694410490E+06	-1.16771756333E+01	-1.67368344767E+02	4.86523517238E+00	1.70229580404E+02	-5.49311960669E+01	3.11445460757E+01	-6.01859333241E+00	-1.32461786956E+00
2.51913545950E+06	-1.30426911782E+01	1.71231981536E+02	4.75287497938E+00	1.69964836083E+02	-4.99426937443E+01	-8.97452668845E+01	-6.01387743034E+00	-1.00949755525E+00
2.54132681409E+06	-1.05431413457E+01	1.71364661662E+02	4.97192039203E+00	1.69002621589E+02	-3.57106070845E+01	-1.23978649543E+02	-6.04734989778E+00	-1.19864180793E+00
2.56351816869E+06	-8.10350294752E+00	1.36923086916E+02	4.87013719747E+00	1.69262434751E+02	-4.86398826368E+01	1.47357802819E+02	-6.02961301723E+00	-1.21745879980E+00
2.58570952328E+06	-1.01238290890E+01	1.68940676350E+02	4.92669367626E+00	1.69385199385E+02	-4.74330817141E+01	-1.11091773849E+02	-6.04212127531E+00	-1.14451660402E+00
2.60790087788E+06	-1.07015867746E+01	1.59928269644E+02	4.89614230948E+00	1.68945293883E+02	-3.43717051866E+01	-9.43488047390E+01	-6.03394336650E+00	-1.11241266001E+00
2.63009223247E+06	-9.02732687072E+00	1.67929385076E+02	4.90868814809E+00	1.69260832246E+02	-4.38905547181E+01	3.65295747490E+01	-6.01365677167E+00	-1.02850469632E+00
2.65228358707E+06	-7.92164572076E+00	-1.63922407541E+02	4.84928729748E+00	1.68746191618E+02	-4.11397419463E+01	-1.20725471226E+01	-6.02501851243E+00	-1.58344728143E+00
2.67447494166E+06	-1.32007418135E+01	-1.72519489839E+02	4.87836286514E+00	1.69058664267E+02	-3.94120528212E+01	-1.25805892021E+01	-6.01904473863E+00	-1.19963929763E+00
2.69666629626E+06	-1.11612472776E+01	1.47314639859E+02	4.83227859310E+00	1.69070376534E+02	-3.68744567231E+01	1.60672690405E+02	-6.02461805969E+00	-1.07281706954E+00
2.71885765085E+06	-9.56221009614E+00	1.64995562054E+02	4.81393142535E+00	1.68695500159E+02	-3.83972706398E+01	3.61356264002E+01	-6.01300374985E+00	-1.47090992002E+00
2.74104900545E+06	-1.34202986299E+01	-1.74192267005E+02	4.82916291593E+00	1.68456240919E+02	-4.63539639615E+01	1.42515445888E+02	-5.98828754815E+00	-1.26356897084E+00
2.76324036004E+06	-9.60776641510E+00	1.65765002277E+02	4.81897806172E+00	1.68395339568E+02	-4.81902608558E+01	-6.79939899838E+01	-6.01908407109E+00	-1.19505743531E+00
2.78543171463E+06	-9.47640453615E+00	-1.79468093122E+02	4.90929189582E+00	1.68387771043E+02	-3.91707092648E+01	1.03881079054E+02	-5.96915991886E+00	-9.95303936829E-01
2.80762306923E+06	-1.11427405824E+01	-1.78863490784E+02	4.82672146804E+00	1.68223036741E+02	-4.19491256188E+01	1.76408482075E+02	-6.04673664916E+00	-1.19160563471E+00
2.82981442382E+06	-1.20411857483E+01	-1.63108105515E+02	4.92647349164E+00	1.68751154019E+02	-4.90580684664E+01	2.34167921976E+00	-6.00805446542E+00	-1.12414003927E+00
2.85200577842E+06	-1.33544698994E+01	1.51422055261E+02	4.97683132106E+00	1.68116039975E+02	-3.90360524146E+01	1.68131224867E+02	-6.03411894044E+00	-1.34006177273E+00
2.87419713301E+06	-1.02891798414E+01	1.60181848860E+02	4.89141326963E+00	1.68224295718E+02	-4.66561888309E+01	-1.60260510941E+02	-6.01220328367E+00	-1.40249410672E+00
