# Hz S DB R 50
! CMT, M5065, 19127446, 24.2.4/2
! Date: 10/29/2024 1:17:20 PM
! Data: Format (Calibration Info)
! Freq	S11:dB/Ang(F2)	S21:dB/Ang(F2)	S12:dB/Ang(F2)	S22:dB/Ang(F2)
3.00000000000E+05	-1.11175908355E+01	-1.73659393485E+02	9.39343363075E+00	-1.78092473586E+02	-4.17990841592E+01	1.31170827376E+00	-6.04440707716E+00	-2.52917709070E-01
3.22191354595E+05	-8.44529802825E+00	-1.67368630680E+02	9.44950981386E+00	-1.78356829847E+02	-4.23746812999E+01	1.54940267207E+02	-6.03174586717E+00	-2.30361307140E-01
3.44382709190E+05	-1.09967209800E+01	1.42726620924E+02	9.53799647040E+00	-1.78420967946E+02	-4.15716817767E+01	8.02509173668E+00	-6.02008805134E+00	-2.80716377698E-01
3.66574063785E+05	-1.31635415721E+01	-1.73501209410E+02	9.47915620909E+00	-1.79120143468E+02	-3.83031799597E+01	-1.65526783631E+02	-6.04813208879E+00	-2.40661486437E-01
3.88765418380E+05	-9.85450563668E+00	-1.68571458315E+02	9.41297966531E+00	-1.79385323150E+02	-3.88978360923E+01	-9.45371951347E+01	-5.99383279705E+00	-3.12933707085E-01
4.10956772975E+05	-1.40924941084E+01	-1.54491720532E+02	9.44211184142E+00	-1.79567301826E+02	-4.11091059117E+01	5.33574276902E+01	-6.03974185265E+00	-2.49473406546E-01
4.33148127570E+05	-8.75136844714E+00	-1.54312964600E+02	9.43824830386E+00	-1.79690569898E+02	-4.02265777465E+01	-1.08464056381E+02	-6.00212970915E+00	-3.92617708786E-01
4.55339482165E+05	-9.21369008791E+00	-1.71795365050E+02	9.48586519075E+00	1.79544005299E+02	-4.51336514860E+01	-1.55056187223E+01	-6.03883238874E+00	-1.67733679357E-01
4.77530836760E+05	-7.85336523623E+00	-1.76696447737E+02	9.52214626992E+00	1.79749814210E+02	-4.21709254432E+01	1.34885940511E+02	-6.05411210954E+00	-4.97613213745E-01
4.99722191355E+05	-1.08461311743E+01	1.69522085984E+02	9.50765793088E+00	1.79577908803E+02	-4.53283989068E+01	-7.78356107097E-01	-6.04552378341E+00	1.00907421205E-02
5.21913545950E+05	-7.63275046291E+00	-1.75186629521E+02	9.51949948746E+00	1.79466883384E+02	-4.92880605918E+01	-9.41291263799E+01	-6.04214667576E+00	-3.70141789611E-01
5.44104900545E+05	-9.03382984962E+00	-1.75370434053E+02	9.47953776392E+00	1.78959319662E+02	-3.96331098168E+01	-6.66634491081E-01	-6.01215032383E+00	-4.00691617681E-01
5.66296255139E+05	-1.05231661275E+01	-1.78936341654E+02	9.50709384798E+00	1.79146853279E+02	-4.84464106376E+01	5.27327493690E+01	-6.03786821831E+00	-2.82015364613E-01
5.88487609734E+05	-8.08529707051E+00	-1.63040138835E+02	9.51307186063E+00	1.78459746135E+02	-4.24694863358E+01	1.61785133262E+02	-6.02926120409E+00	-4.10275048815E-01
6.10678964329E+05	-1.09913397940E+01	-1.66256664675E+02	9.48436273028E+00	1.78563131568E+02	-3.84226533817E+01	1.62596121275E+02	-6.02782728987E+00	-1.65197957464E-01
6.32870318924E+05	-1.21708199927E+01	-1.78411981350E+02	9.44105463908E+00	1.78158114914E+02	-3.81627595526E+01	1.29891912834E+02	-6.04470907903E+00	-5.52437747207E-01
6.55061673519E+05	-9.74733781834E+00	1.77079644505E+02	9.48881524698E+00	1.78272617007E+02	-4.01442126804E+01	-9.15465531874E+01	-6.01358820535E+00	-2.49230674165E-01
6.77253028114E+05	-1.33015258306E+01	1.78700941586E+02	9.54083983324E+00	1.77674618561E+02	-3.44722564220E+01	-5.59001144927E+01	-6.01693927239E+00	-7.77692527636E-01
6.99444382709E+05	-7.86538178318E+00	1.72884702913E+02	9.55215644235E+00	1.78128339531E+02	-3.91036437499E+01	-1.12388295727E+02	-6.00663235216E+00	-4.13878242740E-01
7.21635737304E+05	-8.71522295590E+00	1.59169826140E+02	9.46477772234E+00	1.77661572707E+02	-3.65171681081E+01	-6.86313320304E+01	-6.00531954844E+00	-7.61880341357E-01
7.43827091899E+05	-7.67057387827E+00	-1.75059128809E+02	9.49547879122E+00	1.77757252780E+02	-4.11504766326E+01	-1.43195551636E+02	-6.05452419443E+00	-5.92058446696E-01
7.66018446494E+05	-6.57586660893E+00	1.46555273418E+02	9.50816953157E+00	1.77314831074E+02	-4.29018983589E+01	-1.42542931555E+02	-6.04308306111E+00	-2.94729141927E-01
7.88209801089E+05	-1.52664768777E+01	1.68263271899E+02	9.46770435433E+00	1.77481467040E+02	-4.68519294609E+01	-4.57399700454E+01	-6.02361123592E+00	-4.09255615823E-01
8.10401155684E+05	-1.09196748964E+01	1.77291788302E+02	9.51062439248E+00	1.77265675639E+02	-3.86864079947E+01	1.48394796389E+02	-6.02836836585E+00	-4.51951151647E-01
8.32592510279E+05	-1.16329921043E+01	-1.71499031976E+02	9.46744742906E+00	1.77243718637E+02	-3.67185475493E+01	1.78272570492E+02	-6.01468688234E+00	-4.14380589857E-01
8.54783864874E+05	-9.69193826838E+00	-1.79631595106E+02	9.46187779639E+00	1.77024325330E+02	-3.99236906254E+01	1.44400208696E+02	-5.99316333146E+00	-4.58201593205E-01
8.76975219469E+05	-1.16139017807E+01	1.66439706567E+02	9.48576310513E+00	1.76598423316E+02	-4.50036735050E+01	-1.68393869476E+02	-6.07101215617E+00	-7.10525959719E-01
8.99166574064E+05	-9.14957889478E+00	1.54219881453E+02	9.52351275338E+00	1.76472257540E+02	-3.91177141799E+01	5.53540783057E+01	-5.96041160206E+00	-6.37340945073E-01
9.21357928659E+05	-8.99576981321E+00	1.76091856839E+02	9.51596374194E+00	1.76372915042E+02	-3.29893985614E+01	9.77092830976E+01	-6.02785397680E+00	-8.38824358298E-01
9.43549283254E+05	-1.11426182784E+01	-1.57263301875E+02	9.53697862485E+00	1.76527906201E+02	-4.64883836304E+01	4.22056645465E+01	-6.03164369190E+00	-4.24177093863E-01
9.65740637849E+05	-9.69572313025E+00	1.62686951022E+02	9.51570037010E+00	1.75783883958E+02	-3.69969490167E+01	1.14996536727E+02	-5.98189053576E+00	-5.28369276032E-01
9.87931992444E+05	-9.68224636952E+00	1.62395802467E+02	9.53479164699E+00	1.75699847021E+02	-4.07184294058E+01	1.36185293096E+02	-6.00841919039E+00	-4.68546928303E-01
1.01012334704E+06	-9.89249854878E+00	-1.53462239197E+02	9.49447525593E+00	1.75956140312E+02	-3.85419768898E+01	1.09089281975E+02	-5.99640379335E+00	-5.92637971946E-01
1.03231470163E+06	-1.00071588239E+01	1.74641427737E+02	9.48094360234E+00	1.75269005241E+02	-4.32761324831E+01	1.78604842892E+02	-6.00332332825E+00	-3.77960679040E-01
1.05450605623E+06	-9.30780698691E+00	1.56642892207E+02	9.52230654652E+00	1.75618124409E+02	-3.40618231671E+01	1.75120343498E+02	-6.06368909436E+00	-5.30958662817E-01
1.07669741082E+06	-8.18114958338E+00	-1.68443166123E+02	9.50113495750E+00	1.75255707253E+02	-4.18218153097E+01	-1.46935402282E+02	-6.01324433477E+00	-6.84052634469E-01
1.09888876542E+06	-9.67411833986E+00	1.69996803801E+02	9.45822087352E+00	1.75311239664E+02	-4.21374548107E+01	9.10198425280E+01	-6.03750948174E+00	-6.56242840962E-01
1.12108012001E+06	-7.54839057259E+00	1.72254524357E+02	9.48561831514E+00	1.74809788197E+02	-4.07554673918E+01	-5.81893065147E+01	-5.98765394380E+00	-7.19672004367E-01
1.14327147461E+06	-1.11366763784E+01	-1.71196996034E+02	9.49343138254E+00	1.74718026286E+02	-4.05060015558E+01	-1.27729267705E+02	-6.03877222437E+00	-5.76619490514E-01
1.16546282920E+06	-1.07459608956E+01	1.50556246927E+02	9.48795373202E+00	1.74573833527E+02	-3.89726168334E+01	1.54894637048E+01	-6.01380516618E+00	-5.99629970829E-01
1.18765418380E+06	-1.26681767549E+01	1.54604563226E+02	9.46138394236E+00	1.74687754416E+02	-3.92534927930E+01	-1.02416788989E+02	-6.06192136596E+00	-6.46446136462E-01
1.20984553839E+06	-1.20153885635E+01	1.46414439959E+02	9.50918482140E+00	1.74313824397E+02	-3.51668252554E+01	1.65370702201E+02	-6.02222856694E+00	-8.10496060411E-01
1.23203689299E+06	-1.22128033087E+01	1.72077512973E+02	9.46437208060E+00	1.74493063273E+02	-3.98290965277E+01	-1.56656457992E+02	-6.00592947771E+00	-5.55988440856E-01
1.25422824758E+06	-1.08604397798E+01	1.68276775292E+02	9.47544306005E+00	1.74021556000E+02	-3.89178597375E+01	-9.75894191538E+01	-6.03096005787E+00	-6.46332529988E-01
1.27641960218E+06	-8.50803110268E+00	1.62632182415E+02	9.46298082998E+00	1.74241986393E+02	-4.12209594537E+01	1.14154213392E+02	-6.02427157431E+00	-5.84316411007E-01
1.29861095677E+06	-9.41181130103E+00	1.71595572648E+02	9.45023017705E+00	1.73978279829E+02	-4.53986577551E+01	-4.18950921741E+01	-6.08676893081E+00	-6.15957590568E-01
1.32080231137E+06	-1.04082196567E+01	-1.78214492258E+02	9.42186082286E+00	1.73763706860E+02	-3.87850790175E+01	7.55808418408E+01	-5.97656419551E+00	-9.78600928741E-01
1.34299366596E+06	-1.03797930581E+01	1.78977069430E+02	9.55385274513E+00	1.73756654939E+02	-3.54913098265E+01	1.38441240951E+02	-6.03335867268E+00	-7.84777085152E-01
1.36518502056E+06	-1.17640636992E+01	1.54190225126E+02	9.48898999264E+00	1.73656826812E+02	-3.58708740387E+01	-3.25349241067E+01	-6.01542206096E+00	-8.27474610245E-01
1.38737637515E+06	-1.21989014973E+01	-1.75547925013E+02	9.49116120082E+00	1.73744399503E+02	-3.94493712628E+01	-1.49090450248E+02	-6.03583349614E+00	-7.91261779732E-01
1.40956772975E+06	-8.54493546576E+00	-1.73322242082E+02	9.46871789043E+00	1.73417757886E+02	-3.89123549125E+01	1.23108479276E+01	-6.03734760079E+00	-8.03814013247E-01
1.43175908434E+06	-1.00612460467E+01	1.49947654519E+02	9.47526608047E+00	1.73386265751E+02	-4.81314802907E+01	6.99512300269E+01	-6.00197811438E+00	-1.01049787829E+00
1.45395043894E+06	-1.08987521118E+01	1.53721684265E+02	9.50446996823E+00	1.73048223172E+02	-3.58418419192E+01	6.70723966331E+01	-6.03207055772E+00	-8.59801574676E-01
1.47614179353E+06	-8.67558852809E+00	-1.74611485579E+02	9.56858827414E+00	1.72988423497E+02	-4.54411975369E+01	3.68254411046E+01	-6.04055025211E+00	-7.97692503742E-01
1.49833314813E+06	-9.03181786146E+00	1.78158557939E+02	9.45310504669E+00	1.72635969736E+02	-3.99449962459E+01	-2.96908722297E+01	-6.04353597803E+00	-9.67848408635E-01
1.52052450272E+06	-8.55451765114E+00	1.79083109783E+02	9.45931899801E+00	1.72715804412E+02	-3.85725536072E+01	-6.80202562681E+01	-5.97069627481E+00	-9.88053756013E-01
1.54271585732E+06	-1.10063489043E+01	1.79509296886E+02	9.42839089452E+00	1.72459532458E+02	-3.65730919033E+01	-7.19594463531E+01	-6.01815320209E+00	-9.84900352977E-01
1.56490721191E+06	-1.09390680648E+01	1.78635904630E+02	9.49797574205E+00	1.72464737863E+02	-4.18208857833E+01	3.98732480634E+01	-6.00495639007E+00	-7.96509278376E-01
1.58709856651E+06	-8.53108675895E+00	-1.61692110616E+02	9.52366554578E+00	1.72438712005E+02	-3.93275545178E+01	1.40566819922E+02	-6.01474006880E+00	-7.97498795892E-01
1.60928992110E+06	-8.43176514027E+00	1.70786310988E+02	9.51585435638E+00	1.72095410588E+02	-4.03504041531E+01	-1.48530067231E+02	-6.01753823403E+00	-6.71966736191E-01
1.63148127570E+06	-1.32478030743E+01	1.52290706890E+02	9.49184467074E+00	1.71732838315E+02	-4.15555207934E+01	-5.88752630098E+01	-6.02417327298E+00	-9.22779872903E-01
1.65367263029E+06	-7.26857929012E+00	1.70981146021E+02	9.49671671220E+00	1.71660082165E+02	-3.47891991477E+01	-1.44289226986E+02	-6.03304558243E+00	-1.03653682192E+00
1.67586398489E+06	-1.16791577621E+01	1.74937993065E+02	9.53274167938E+00	1.71767740332E+02	-3.78718976184E+01	1.02864157099E+02	-5.99861983038E+00	-9.00927658863E-01
1.69805533948E+06	-1.15210025486E+01	1.63659092550E+02	9.46938108965E+00	1.72036524670E+02	-4.04393899188E+01	-1.12386273270E+02	-6.02880996581E+00	-7.36181888901E-01
1.72024669408E+06	-8.12205879124E+00	1.71259184764E+02	9.49509389992E+00	1.71753822166E+02	-4.49108590946E+01	-1.62167893566E+02	-6.03216038813E+00	-9.15224499748E-01
1.74243804867E+06	-9.02548240674E+00	1.78552610701E+02	9.40650423478E+00	1.71595126099E+02	-4.49080664508E+01	-1.61807983180E+02	-6.05315937673E+00	-8.04997328515E-01
1.76462940327E+06	-1.73589949437E+01	-1.76690033163E+02	9.48651640283E+00	1.71116184506E+02	-3.86022528370E+01	-9.51549128513E+01	-6.03240558137E+00	-7.35241470033E-01
1.78682075786E+06	-8.21886492126E+00	-1.79831522836E+02	9.51074722118E+00	1.70948614221E+02	-5.09232008269E+01	1.60688961465E+02	-5.99623373096E+00	-9.49413071208E-01
1.80901211246E+06	-7.39585349886E+00	1.63116633227E+02	9.55153215650E+00	1.71003413789E+02	-4.50580165358E+01	5.48207324781E+01	-5.99508946204E+00	-1.00738779707E+00
1.83120346705E+06	-8.13376512819E+00	-1.70885726001E+02	9.45953330903E+00	1.71047659125E+02	-4.01329024952E+01	-3.23733693746E+01	-6.05417662988E+00	-8.99014620871E-01
1.85339482165E+06	-1.14788681355E+01	-1.78243261427E+02	9.47624927410E+00	1.70725146873E+02	-3.49333161799E+01	-5.75720238901E+01	-6.00092446461E+00	-6.40143785568E-01
1.87558617624E+06	-1.15302702806E+01	-1.71680011864E+02	9.53040621546E+00	1.70643614367E+02	-4.77049080690E+01	1.62608240261E+02	-6.01727238943E+00	-9.90011192708E-01
1.89777753084E+06	-1.03631472677E+01	1.67190576182E+02	9.48622649499E+00	1.70482925659E+02	-5.14619929371E+01	-1.24015446692E+01	-6.02955154008E+00	-6.68302973520E-01
1.91996888543E+06	-1.19628641810E+01	1.62328907986E+02	9.49481848287E+00	1.70466116667E+02	-4.19290603892E+01	8.13502268996E+01	-5.99678401988E+00	-1.35866086122E+00
1.94216024003E+06	-1.62950539139E+01	1.42007112533E+02	9.29781198887E+00	1.70510987437E+02	-3.69785034132E+01	-1.18810295486E+02	-6.05883310926E+00	-9.12194222428E-01
1.96435159462E+06	-7.62634985021E+00	-1.79641858415E+02	9.47696589704E+00	1.69997792667E+02	-3.96067978417E+01	-1.31585819718E+02	-5.97900327847E+00	-9.96589787949E-01
1.98654294922E+06	-8.94761868566E+00	1.62120604303E+02	9.46752173506E+00	1.70104908497E+02	-3.96955153394E+01	-8.97649227826E+01	-6.00692701684E+00	-1.26324774380E+00
2.00873430381E+06	-9.96689549140E+00	-1.79048227680E+02	9.50827774297E+00	1.70201203111E+02	-4.01954130718E+01	9.94179329622E+01	-6.00857845781E+00	-1.09112132480E+00
2.03092565841E+06	-1.30225676683E+01	1.67981934467E+02	9.50018678710E+00	1.69368203336E+02	-3.91175956857E+01	1.60968633156E+02	-6.02995229639E+00	-8.78955721105E-01
2.05311701300E+06	-1.25279052325E+01	-1.70646053298E+02	9.49215023031E+00	1.69862405074E+02	-3.79463388038E+01	1.44029152410E+02	-6.00925095805E+00	-1.11132720166E+00
2.07530836760E+06	-9.22095510482E+00	-1.62572821669E+02	9.44600499989E+00	1.69966026945E+02	-4.64569364255E+01	1.72204269810E+02	-6.04360756278E+00	-8.64577321451E-01
2.09749972219E+06	-1.05145450716E+01	1.61261430433E+02	9.46119019362E+00	1.69668138449E+02	-4.20192805728E+01	-1.12449359875E+02	-6.05802562606E+00	-8.21259502467E-01
2.11969107679E+06	-7.67240392445E+00	1.73547748276E+02	9.50316872015E+00	1.69372877579E+02	-3.88324649193E+01	1.29628352456E+02	-6.00890271254E+00	-8.12635140089E-01
2.14188243138E+06	-1.39011498816E+01	-1.64490615314E+02	9.46999754157E+00	1.69172506440E+02	-3.70690012654E+01	6.64344666213E+01	-5.96450314742E+00	-1.21419804303E+00
2.16407378598E+06	-9.09392638083E+00	1.75789809234E+02	9.50109517147E+00	1.69414889218E+02	-4.42044688253E+01	-1.17895448963E+02	-6.01031117643E+00	-1.01525941888E+00
2.18626514057E+06	-1.03438755853E+01	-1.78781970717E+02	9.46000807902E+00	1.68984378845E+02	-3.74548235485E+01	6.81176186672E+01	-6.00934171082E+00	-1.18038286721E+00
2.20845649517E+06	-8.91651622817E+00	1.68371209639E+02	9.45020117428E+00	1.68794724144E+02	-3.75954579084E+01	-1.52630851003E+02	-6.02779100761E+00	-9.33043306442E-01
2.23064784976E+06	-1.15397652077E+01	1.65404017254E+02	9.52638663462E+00	1.69038419757E+02	-5.34392538592E+01	-5.95710472451E+00	-6.04218123277E+00	-1.05894113742E+00
2.25283920436E+06	-9.82869851021E+00	1.60169831418E+02	9.52877954768E+00	1.68606144164E+02	-3.75126527362E+01	-7.70748596821E+01	-5.99585524266E+00	-1.24966319335E+00
2.27503055895E+06	-1.04943314763E+01	1.74361427575E+02	9.47737725638E+00	1.68796838420E+02	-3.88658350695E+01	-1.51118751010E+02	-5.97074525836E+00	-1.13030019528E+00
2.29722191355E+06	-7.71865004252E+00	1.64753270955E+02	9.46386378154E+00	1.68646451541E+02	-4.13067620532E+01	1.18079493135E+02	-6.03667199153E+00	-1.22648526991E+00
2.31941326814E+06	-9.79936447813E+00	-1.61672086906E+02	9.39827374086E+00	1.68285671678E+02	-3.75293143066E+01	5.62705683158E+01	-6.00448871417E+00	-1.22101089003E+00
2.34160462274E+06	-1.12755438607E+01	1.70651883605E+02	9.47778868922E+00	1.68484984428E+02	-3.70728660116E+01	1.26327399320E+02	-6.02485155525E+00	-1.03924924610E+00
2.36379597733E+06	-1.25275044650E+01	1.69708810033E+02	9.48722017953E+00	1.67824520217E+02	-4.79156539189E+01	8.09836261013E+01	-6.02532733122E+00	-1.14497222179E+00
2.38598733193E+06	-1.22261709029E+01	-1.71402366342E+02	9.52066732045E+00	1.68027366224E+02	-4.32803297647E+01	-8.67333233267E+01	-6.02338908359E+00	-1.24581043568E+00
2.40817868652E+06	-1.13493331587E+01	-1.61878341217E+02	9.46782647487E+00	1.68736590596E+02	-3.76862470959E+01	-1.44627016349E+01	-5.99948551054E+00	-1.14059916236E+00
2.43037004112E+06	-1.14268670285E+01	1.79629816112E+02	9.44629847110E+00	1.68036496692E+02	-4.29557207212E+01	1.04481009871E+01	-6.02447143929E+00	-1.34526416091E+00
2.45256139571E+06	-9.09163463101E+00	-1.73002602053E+02	9.47850517011E+00	1.67223049779E+02	-4.17381500470E+01	7.53996742158E+01	-5.97916625468E+00	-9.57702747002E-01
2.47475275031E+06	-1.27494932725E+01	1.69830691006E+02	9.48242449307E+00	1.67276155773E+02	-4.15470140918E+01	8.07500451261E+01	-5.99676973448E+00	-1.13492033251E+00
2.49694410490E+06	-1.02511402315E+01	1.50451526399E+02	9.44716862109E+00	1.67189574743E+02	-4.60562762057E+01	-1.27106141182E+02	-5.99850536296E+00	-1.01282585405E+00
2.51913545950E+06	-1.43068973865E+01	-1.71511906606E+02	9.45870626927E+00	1.67035295187E+02	-3.84987892464E+01	-4.23100631990E+01	-6.02052014994E+00	-1.35334370887E+00
2.54132681409E+06	-9.28031246341E+00	1.57878575454E+02	9.44040553215E+00	1.67322501699E+02	-3.87999047126E+01	1.73159375080E+02	-6.03031460533E+00	-1.13292845563E+00
2.56351816869E+06	-1.09087270032E+01	1.63911892257E+02	9.54457316587E+00	1.66560115824E+02	-3.79396739531E+01	-2.04727977691E+01	-6.02870187394E+00	-1.37094405733E+00
2.58570952328E+06	-1.00620621463E+01	-1.73257745021E+02	9.47723569779E+00	1.66971630062E+02	-3.93798268758E+01	8.75431782154E+01	-6.01383961289E+00	-1.28981535053E+00
2.60790087788E+06	-1.17931174253E+01	-1.78475606238E+02	9.52259302937E+00	1.66941878890E+02	-4.12672496556E+01	1.08902282076E+02	-6.02484951751E+00	-1.20514414141E+00
2.63009223247E+06	-1.39644528777E+01	-1.77328580154E+02	9.51631233200E+00	1.66540296121E+02	-4.27889468191E+01	5.82718557137E+01	-6.01254758846E+00	-1.17465424446E+00
2.65228358707E+06	-1.29634367496E+01	-1.48881722801E+02	9.44086637059E+00	1.66469895237E+02	-4.31657494982E+01	-1.80343514185E+01	-6.00083143366E+00	-1.44780200561E+00
2.67447494166E+06	-1.01481600188E+01	1.69262792703E+02	9.46797404716E+00	1.66376269729E+02	-3.47654882368E+01	-9.90566117121E+01	-6.05168173461E+00	-1.29601758584E+00
2.69666629626E+06	-1.34506967652E+01	-1.77754529579E+02	9.48499842167E+00	1.65929676645E+02	-3.41535408940E+01	-7.59518619055E+01	-6.03140222086E+00	-1.30325097925E+00
2.71885765085E+06	-1.17040035129E+01	1.56972865391E+02	9.47221981920E+00	1.66026533732E+02	-4.24316035462E+01	-1.19854800423E+02	-5.98782416131E+00	-9.42230734151E-01
2.74104900545E+06	-8.26268528439E+00	1.75845718964E+02	9.51338280150E+00	1.65840762800E+02	-3.49459507959E+01	9.06701837795E+01	-6.00076414298E+00	-1.55931703968E+00
2.76324036004E+06	-1.09810314903E+01	-1.76059423552E+02	9.46620713692E+00	1.65977977751E+02	-4.82302575722E+01	-1.76492167431E+02	-5.98634378516E+00	-1.30005163321E+00
2.78543171463E+06	-9.33566111392E+00	-1.56919657684E+02	9.44648079130E+00	1.65862812762E+02	-3.69773383822E+01	-8.94262175623E+01	-5.99719209626E+00	-1.51395691924E+00
2.80762306923E+06	-1.06676606920E+01	1.66544363633E+02	9.47748369097E+00	1.65354609960E+02	-4.67099116475E+01	1.31461440057E+02	-5.97805166443E+00	-1.26857138882E+00
2.82981442382E+06	-9.33901202089E+00	1.74504811670E+02	9.49871589333E+00	1.65559214167E+02	-4.51947186374E+01	-2.23689501645E+01	-5.99640514768E+00	-1.54329939787E+00
2.85200577842E+06	-1.07799487736E+01	-1.78418156323E+02	9.48031538773E+00	1.65410217047E+02	-4.16090027508E+01	-7.41207331525E+01	-6.01399550330E+00	-1.51428363152E+00
2.87419713301E+06	-1.39751053634E+01	-1.78618092828E+02	9.51449956466E+00	1.65448806863E+02	-4.07856634641E+01	1.73194512494E+02	-6.03819692522E+00	-1.40345894093E+00
