# Hz S DB R 50
! CMT, M5065, 19127446, 24.2.4/2
! Date: 10/29/2024 1:13:50 PM
! Data: Format (Calibration Info)
! Freq	S11:dB/Ang(F2)	S21:dB/Ang(F2)	S12:dB/Ang(F2)	S22:dB/Ang(F2)
3.00000000000E+05	-1.21864390513E+01	-1.46398943796E+02	8.19990410188E+00	-1.77640155006E+02	-3.73089159972E+01	-1.05049964462E+02	-6.01940320242E+00	-2.68589545534E-01
3.22191354595E+05	-8.53945518510E+00	-1.75668617926E+02	8.22569493311E+00	-1.78366296142E+02	-3.45652921234E+01	1.07715196705E+02	-6.00147522179E+00	-1.61601826001E-01
3.44382709190E+05	-2.25358652661E+01	-1.42958799621E+02	8.19915804373E+00	-1.78446313634E+02	-3.80089267761E+01	-2.05048044311E+00	-6.03219744337E+00	-2.92744766041E-01
3.66574063785E+05	-1.13974339699E+01	-1.62856519221E+02	8.24680276072E+00	-1.78699053082E+02	-3.79004514064E+01	-9.41985457532E+01	-6.06419469196E+00	-3.06979718256E-01
3.88765418380E+05	-1.53944052527E+01	-1.60276292629E+02	8.16785179991E+00	-1.79649996461E+02	-3.81246073628E+01	1.23113104633E+02	-5.98922317068E+00	-4.75039260017E-01
4.10956772975E+05	-6.88060608710E+00	-1.59546082698E+02	8.27814756848E+00	-1.79367199053E+02	-4.21725181421E+01	-5.65194461750E+01	-6.02541117995E+00	-1.64360417625E-01
4.33148127570E+05	-1.30957678812E+01	1.67937802284E+02	8.25816236774E+00	-1.79788466225E+02	-4.22034820483E+01	1.78770716581E+02	-6.06176761064E+00	-3.80602375814E-01
4.55339482165E+05	-1.06565284947E+01	-1.73985236718E+02	8.24222506181E+00	1.79985373235E+02	-4.38504226831E+01	-5.04586005536E+01	-6.02105206498E+00	-5.68720995373E-01
4.77530836760E+05	-9.34712924379E+00	-1.77509194033E+02	8.18515764127E+00	1.79801728642E+02	-4.33078710466E+01	-1.76960982492E+02	-6.04186268246E+00	-4.03750873068E-01
4.99722191355E+05	-1.30826394930E+01	1.76648777240E+02	8.19121956013E+00	1.79866740223E+02	-4.82438900907E+01	1.29423652457E+02	-6.00412394061E+00	-3.06821771553E-01
5.21913545950E+05	-1.14008137342E+01	-1.69699812916E+02	8.17859206056E+00	1.79151223965E+02	-4.16080898176E+01	1.18754919877E+02	-6.06916333505E+00	-8.72345369586E-02
5.44104900545E+05	-1.00407640154E+01	1.59076168999E+02	8.21013729617E+00	1.78988191325E+02	-4.55082299020E+01	1.31498049567E+01	-6.05477111039E+00	-5.25107035063E-01
5.66296255139E+05	-7.66655817425E+00	-1.65667817832E+02	8.26863518418E+00	1.79272048723E+02	-4.84370333644E+01	-8.33158633546E+01	-6.00309989278E+00	-4.28246051673E-01
5.88487609734E+05	-1.15234741841E+01	-1.73577716167E+02	8.28071762189E+00	1.78933937175E+02	-3.77607844302E+01	-9.40296292656E+01	-6.02754853810E+00	-4.52324700851E-01
6.10678964329E+05	-5.89417000942E+00	-1.74297282194E+02	8.17600212379E+00	1.79071192156E+02	-4.34310717368E+01	1.13352951763E+02	-6.05885137185E+00	-1.51375874198E-02
6.32870318924E+05	-1.59724045113E+01	-1.66920509965E+02	8.23605959206E+00	1.78482343654E+02	-4.59019229424E+01	-5.68802970496E+01	-6.04914982212E+00	-2.60515189654E-01
6.55061673519E+05	-9.94536102485E+00	1.78677831927E+02	8.19894339722E+00	1.78298295387E+02	-4.46907750361E+01	-3.74568854190E+01	-5.97250453226E+00	-5.72742401367E-02
6.77253028114E+05	-1.34159492488E+01	1.61020255337E+02	8.22772938709E+00	1.78197564002E+02	-3.53944423705E+01	1.04588398588E+02	-6.02566191473E+00	-5.58137819239E-01
6.99444382709E+05	-8.77960271564E+00	1.70799978336E+02	8.26436002459E+00	1.77709715108E+02	-3.25138948977E+01	-1.52202587051E+02	-6.03009988751E+00	-6.30118925647E-01
7.21635737304E+05	-7.78158769555E+00	1.68321833352E+02	8.27794107625E+00	1.77956821114E+02	-5.65719024189E+01	-5.73602286217E+01	-6.00914481373E+00	-3.01856623942E-01
7.43827091899E+05	-1.32789103796E+01	-1.74155771983E+02	8.24436217203E+00	1.78045886992E+02	-4.31168647132E+01	-7.41477561508E+01	-6.04500949408E+00	-3.18784892397E-01
7.66018446494E+05	-8.48366753311E+00	1.71197943229E+02	8.19489317076E+00	1.77538615063E+02	-3.82602324459E+01	-1.12931925687E+02	-6.03310726833E+00	-4.22732354403E-01
7.88209801089E+05	-1.21576567716E+01	-1.71301883002E+02	8.22025848748E+00	1.77303364548E+02	-5.25484080441E+01	7.69988008973E+01	-6.05256098927E+00	-4.28375396110E-01
8.10401155684E+05	-8.76793499394E+00	1.77801018129E+02	8.23072439181E+00	1.77159992599E+02	-3.91195280660E+01	-1.16512306515E+02	-6.03101168126E+00	-6.62499357799E-01
8.32592510279E+05	-9.96782193765E+00	-1.56327909213E+02	8.24579264980E+00	1.77372633287E+02	-3.98381313531E+01	5.02708724438E+01	-5.98811747399E+00	-6.27391119924E-01
8.54783864874E+05	-1.18215614166E+01	-1.61005857719E+02	8.24576944049E+00	1.76752123904E+02	-4.37569572458E+01	-1.40716000173E+02	-6.01736225600E+00	-5.44357682203E-01
8.76975219469E+05	-1.13212514174E+01	1.73216881393E+02	8.18872524594E+00	1.76730417828E+02	-3.64574920615E+01	9.29291220384E+01	-5.99439149213E+00	-4.36151538914E-01
8.99166574064E+05	-1.16479883493E+01	-1.70083733438E+02	8.22519447835E+00	1.76538922557E+02	-3.90721358718E+01	-3.83663287875E+01	-6.01601543704E+00	-4.84734722019E-01
9.21357928659E+05	-1.06357954324E+01	-1.67388495824E+02	8.21671268579E+00	1.76782714289E+02	-4.29469371794E+01	-1.00913264277E+02	-6.01568489275E+00	-6.07657506557E-01
9.43549283254E+05	-1.07882398458E+01	-1.59272862636E+02	8.26139386660E+00	1.76251479477E+02	-5.01305325970E+01	3.58701231353E+01	-6.00898710955E+00	-5.73586983697E-01
9.65740637849E+05	-8.87848756480E+00	1.70256381464E+02	8.18618775018E+00	1.76365320508E+02	-4.53828034190E+01	5.70554036027E+01	-6.04214514505E+00	-6.53107652433E-01
9.87931992444E+05	-1.09870042046E+01	-1.79538344019E+02	8.27171292588E+00	1.76217090009E+02	-3.50910380860E+01	1.25597462308E+01	-6.02066509825E+00	-5.25642470274E-01
1.01012334704E+06	-1.13810000241E+01	-1.78998239331E+02	8.20953305340E+00	1.76039681640E+02	-4.21258429332E+01	-2.49763903651E+00	-6.05959114315E+00	-4.15116050585E-01
1.03231470163E+06	-9.65713961068E+00	1.60878416246E+02	8.19252269173E+00	1.75971854250E+02	-3.97422261525E+01	1.43380864489E+01	-6.03500303658E+00	-8.19914467561E-01
1.05450605623E+06	-1.04501696643E+01	-1.64701325108E+02	8.18766274950E+00	1.75461730666E+02	-4.11393015327E+01	-1.13661900070E+02	-6.05780474641E+00	-7.22503678269E-01
1.07669741082E+06	-8.73124222785E+00	1.74358306744E+02	8.21607574327E+00	1.75589496942E+02	-4.45340369171E+01	4.96819835479E+01	-6.00725102739E+00	-7.53332419224E-01
1.09888876542E+06	-8.95886514452E+00	1.70212467319E+02	8.25721888461E+00	1.75523489571E+02	-4.15326716553E+01	-9.23844698539E+01	-6.00985639456E+00	-6.89928786629E-01
1.12108012001E+06	-1.17043797668E+01	1.69062164013E+02	8.25937890085E+00	1.75355683836E+02	-5.12228289292E+01	8.25066209787E+01	-5.98825582806E+00	-6.94962919692E-01
1.14327147461E+06	-9.69090517595E+00	1.65812350960E+02	8.18118183959E+00	1.75826847376E+02	-4.35885562361E+01	1.15490520565E+02	-6.01890046659E+00	-6.89180980408E-01
1.16546282920E+06	-1.13259724983E+01	-1.76348575202E+02	8.25324604806E+00	1.75511108009E+02	-4.11681193618E+01	3.23554612404E+01	-6.02369718800E+00	-7.78273883355E-01
1.18765418380E+06	-9.20126884064E+00	1.77360451441E+02	8.20059274415E+00	1.75628867731E+02	-3.55606958487E+01	3.88945362120E+01	-6.00117176647E+00	-6.90737866363E-01
1.20984553839E+06	-1.37275543076E+01	-1.72237101249E+02	8.23913730336E+00	1.74976612758E+02	-4.78417048041E+01	-1.00319079022E+02	-6.00814296225E+00	-8.29840208658E-01
1.23203689299E+06	-1.67185515731E+01	1.54368259965E+02	8.25530108797E+00	1.74647459848E+02	-4.64913328149E+01	9.45207029054E+01	-5.99643524722E+00	-8.89659300511E-01
1.25422824758E+06	-9.19616592477E+00	-1.78892604781E+02	8.26405648469E+00	1.74524687296E+02	-3.87161871092E+01	-3.49636646458E+01	-6.02994774018E+00	-6.67381761852E-01
1.27641960218E+06	-9.20625028345E+00	1.68937765840E+02	8.27577721745E+00	1.74501684768E+02	-4.08189416941E+01	1.49313773703E+02	-5.99831463403E+00	-6.90739766432E-01
1.29861095677E+06	-9.74412261684E+00	1.74271484216E+02	8.27720908238E+00	1.74588195310E+02	-3.54453738683E+01	1.73121071145E+02	-6.05251836676E+00	-6.52078150961E-01
1.32080231137E+06	-1.04747571192E+01	1.68365844353E+02	8.28548334094E+00	1.74042736725E+02	-4.17052700163E+01	1.11840052507E+02	-5.98507724785E+00	-1.05642913831E+00
1.34299366596E+06	-1.11723591024E+01	1.76773246766E+02	8.26193804657E+00	1.74103954085E+02	-4.82510457919E+01	1.01504221502E+02	-6.03895072727E+00	-8.64909528854E-01
1.36518502056E+06	-8.64430226859E+00	1.66667658833E+02	8.24265788766E+00	1.74094293323E+02	-3.69930202590E+01	-1.27528232755E+02	-6.05576442013E+00	-5.94884078226E-01
1.38737637515E+06	-6.36717607969E+00	1.56637949678E+02	8.17981904607E+00	1.73428510005E+02	-4.06722503161E+01	1.16524294475E+02	-6.01428355853E+00	-7.05170010252E-01
1.40956772975E+06	-1.26265955823E+01	-1.57448730259E+02	8.20139836717E+00	1.73803924879E+02	-5.11079335941E+01	-2.80062987423E+01	-6.02003234585E+00	-8.45878779256E-01
1.43175908434E+06	-1.01159674313E+01	-1.71675055726E+02	8.23736767091E+00	1.73767330565E+02	-3.71704860879E+01	8.87031247458E+01	-6.02513809856E+00	-6.64442539338E-01
1.45395043894E+06	-9.94586536899E+00	1.76894494699E+02	8.22732739230E+00	1.73641754402E+02	-4.11180358225E+01	-7.72172403979E+01	-5.99319920762E+00	-7.49770794978E-01
1.47614179353E+06	-1.66227630549E+01	-1.67390274881E+02	8.25639302343E+00	1.73417914012E+02	-4.27670052468E+01	1.45505121996E+02	-6.02456909109E+00	-6.48284593353E-01
1.49833314813E+06	-1.20128621049E+01	1.69046943867E+02	8.25392250290E+00	1.73060548348E+02	-3.36552755735E+01	-6.65028744493E+01	-6.00491490888E+00	-8.34387973613E-01
1.52052450272E+06	-9.74577732669E+00	-1.70087018029E+02	8.18723004925E+00	1.73096921185E+02	-4.91103671607E+01	-2.77567035474E+01	-6.02731395132E+00	-9.63280039152E-01
1.54271585732E+06	-1.28998380593E+01	-1.66851869899E+02	8.21610850648E+00	1.73308501353E+02	-3.93306778421E+01	-1.53965232997E+02	-6.02416233657E+00	-9.58782235033E-01
1.56490721191E+06	-1.02354354254E+01	-1.77063531050E+02	8.20339777884E+00	1.72695001514E+02	-3.62925268538E+01	1.34189626997E+02	-6.03556155548E+00	-1.06425170848E+00
1.58709856651E+06	-1.14533494810E+01	-1.78113260703E+02	8.29469663686E+00	1.73146064601E+02	-5.65937410499E+01	1.28517348455E+02	-6.06749459265E+00	-7.61648991316E-01
1.60928992110E+06	-1.12969830841E+01	-1.77967876995E+02	8.28082580725E+00	1.72935069811E+02	-4.37737290388E+01	4.27182365806E+00	-5.98033081214E+00	-9.59375499562E-01
1.63148127570E+06	-1.06948289878E+01	-1.79671693165E+02	8.27024082015E+00	1.72585528547E+02	-4.72006356335E+01	1.42989056566E+02	-6.03973689473E+00	-8.60058580879E-01
1.65367263029E+06	-7.89684782946E+00	-1.76283235561E+02	8.26981951293E+00	1.72774759938E+02	-5.58158773313E+01	2.23582634231E+01	-6.04875216133E+00	-6.76963577604E-01
1.67586398489E+06	-1.04122106081E+01	-1.76456011412E+02	8.21132056266E+00	1.72458105364E+02	-4.63653122416E+01	1.09836909981E+02	-6.01353471109E+00	-8.78511394660E-01
1.69805533948E+06	-1.21807934101E+01	-1.73406937975E+02	8.24453664831E+00	1.72228161592E+02	-4.29491339668E+01	-1.60622740253E+01	-6.07008765498E+00	-8.51770907840E-01
1.72024669408E+06	-1.31147327986E+01	1.74197613503E+02	8.16370119561E+00	1.71673794054E+02	-5.20493460568E+01	-5.12044479192E+01	-6.03071769217E+00	-1.12060375700E+00
1.74243804867E+06	-1.07545429800E+01	1.55567042202E+02	8.29498362988E+00	1.72032676743E+02	-3.51948357372E+01	1.04967216339E+02	-6.02537947455E+00	-1.00616605439E+00
1.76462940327E+06	-1.13879152967E+01	-1.59856927350E+02	8.17864400534E+00	1.72010398201E+02	-3.60193172928E+01	5.93772649793E+01	-5.97332775232E+00	-8.84897437426E-01
1.78682075786E+06	-8.07750996830E+00	-1.69241894309E+02	8.18813091785E+00	1.72096365824E+02	-3.69688743372E+01	1.47474623078E+01	-5.98748311649E+00	-8.78387144663E-01
1.80901211246E+06	-9.46189554211E+00	1.66030745008E+02	8.18366649788E+00	1.71481998492E+02	-4.29956285235E+01	1.74120460594E+02	-6.01340254018E+00	-9.36164813400E-01
1.83120346705E+06	-7.89919885161E+00	-1.76302660262E+02	8.22872280380E+00	1.71526899618E+02	-4.69126567115E+01	-1.59979622148E+01	-6.06184072563E+00	-8.73914793457E-01
1.85339482165E+06	-9.10046552994E+00	-1.79622707928E+02	8.22722604955E+00	1.71354467220E+02	-4.13712945081E+01	5.06456539237E+01	-6.04935562682E+00	-6.18511009232E-01
1.87558617624E+06	-9.67679431420E+00	1.64846241982E+02	8.22820473899E+00	1.71523493018E+02	-3.97154256209E+01	1.05166218027E+02	-5.97352892831E+00	-7.23002283399E-01
1.89777753084E+06	-1.27470578419E+01	1.77102842639E+02	8.20586188634E+00	1.71202921216E+02	-3.59050788726E+01	1.61670290566E+00	-5.99679062696E+00	-1.01201287579E+00
1.91996888543E+06	-9.75050408361E+00	-1.76390454509E+02	8.18513699470E+00	1.70944381660E+02	-3.98821055144E+01	1.77087560938E+02	-6.03816520996E+00	-9.49154294043E-01
1.94216024003E+06	-8.96587929663E+00	1.71039608374E+02	8.23511067604E+00	1.71124534837E+02	-3.91010520509E+01	-5.42048137731E+00	-5.98588185900E+00	-1.45552620828E+00
1.96435159462E+06	-7.74696994198E+00	-1.73634490817E+02	8.29803491243E+00	1.70712237382E+02	-4.54628003319E+01	1.00337493258E+02	-6.00306524880E+00	-9.97317829776E-01
1.98654294922E+06	-1.29401157371E+01	-1.72257410748E+02	8.22367216924E+00	1.70632899864E+02	-3.75693774419E+01	4.39555922266E+01	-6.00644389423E+00	-8.54040998485E-01
2.00873430381E+06	-1.41881224139E+01	-1.54919800830E+02	8.18298681587E+00	1.70850089718E+02	-3.95233563240E+01	9.66259624524E+01	-6.03178178616E+00	-8.33504253243E-01
2.03092565841E+06	-7.45691830541E+00	-1.77235274079E+02	8.26064032691E+00	1.70456637991E+02	-3.73669771186E+01	1.24272621393E+02	-6.00657640379E+00	-7.38257154172E-01
2.05311701300E+06	-1.04813570165E+01	1.71237170184E+02	8.28336779213E+00	1.70377246900E+02	-5.17194524348E+01	-5.20202476298E+01	-6.03541493253E+00	-1.29221866494E+00
2.07530836760E+06	-8.90834033504E+00	1.64800448857E+02	8.23139887396E+00	1.70028989917E+02	-3.93671580252E+01	3.74293395471E+01	-5.99075466585E+00	-8.59412893638E-01
2.09749972219E+06	-9.69264358767E+00	1.71993261784E+02	8.24022607270E+00	1.69692756893E+02	-3.62623616013E+01	1.02034922069E+02	-5.98911692925E+00	-8.25565256600E-01
2.11969107679E+06	-1.75505872557E+01	1.77195229138E+02	8.16433643621E+00	1.70617041367E+02	-4.25407291095E+01	6.31445240358E+01	-6.03599430912E+00	-7.46367184242E-01
2.14188243138E+06	-1.23510396432E+01	-1.69024145689E+02	8.19741629739E+00	1.70013022451E+02	-3.56006214213E+01	1.10107974739E+02	-6.02103199121E+00	-8.46760406111E-01
2.16407378598E+06	-1.50441576819E+01	1.49537465201E+02	8.25406128814E+00	1.69841431153E+02	-4.13210314589E+01	7.84897598449E+01	-6.00433385374E+00	-8.38515330338E-01
2.18626514057E+06	-9.35425144926E+00	-1.75809373251E+02	8.25857475553E+00	1.69701893961E+02	-4.38751952804E+01	1.34522816416E+02	-5.98027526567E+00	-1.18346039522E+00
2.20845649517E+06	-7.59633036958E+00	1.59527801367E+02	8.19118773033E+00	1.69249245878E+02	-3.91439889208E+01	-1.33092662696E+02	-6.03806514504E+00	-1.13698078118E+00
2.23064784976E+06	-1.04887236442E+01	-1.65199540366E+02	8.23165296905E+00	1.69356348372E+02	-4.38598337639E+01	2.16728929076E+01	-6.01423517021E+00	-1.12170555547E+00
2.25283920436E+06	-8.76258679002E+00	-1.75625565707E+02	8.20690509269E+00	1.69240242176E+02	-3.78458661885E+01	-9.61597039456E+01	-6.00166987919E+00	-1.43645521602E+00
2.27503055895E+06	-9.75255861255E+00	1.70575168345E+02	8.30015486674E+00	1.68991178993E+02	-4.34685108863E+01	1.21346460633E+02	-6.01172649665E+00	-1.08471101344E+00
2.29722191355E+06	-8.01789417621E+00	1.79836688026E+02	8.19108922864E+00	1.69149220224E+02	-3.76097181865E+01	-7.60946030665E+01	-6.03609950074E+00	-1.02432266324E+00
2.31941326814E+06	-1.62520430549E+01	-1.58349435893E+02	8.17775241986E+00	1.69048698758E+02	-4.40441041769E+01	1.52826165997E+02	-6.01078614842E+00	-1.20895963558E+00
2.34160462274E+06	-9.38741773723E+00	1.74304793199E+02	8.18355033285E+00	1.68802186822E+02	-3.97024643098E+01	2.50565980398E+01	-6.01466725264E+00	-1.25339866496E+00
2.36379597733E+06	-9.20912101014E+00	-1.79238627833E+02	8.29123772574E+00	1.68372053585E+02	-5.76895830654E+01	1.31934591350E+02	-6.03240651033E+00	-1.22412854029E+00
2.38598733193E+06	-1.00772633197E+01	-1.76857285332E+02	8.25792724434E+00	1.68118482245E+02	-3.94479567413E+01	-1.28886197672E+02	-5.99184203644E+00	-1.23005575687E+00
2.40817868652E+06	-8.09415515328E+00	-1.79321457618E+02	8.24710515966E+00	1.68687851311E+02	-3.89834288338E+01	5.27470459351E+01	-6.00656638686E+00	-1.06679220530E+00
2.43037004112E+06	-1.13627078732E+01	1.65694371149E+02	8.21128194786E+00	1.67610690578E+02	-5.24362932225E+01	1.12137423368E+02	-6.02551583073E+00	-1.40799260276E+00
2.45256139571E+06	-1.20654741099E+01	1.78841983814E+02	8.24826736189E+00	1.68323146130E+02	-4.81036551547E+01	-2.13388147137E+01	-6.00582564159E+00	-1.17207529767E+00
2.47475275031E+06	-1.07324604863E+01	-1.55917391929E+02	8.23713851154E+00	1.68612245717E+02	-3.81677985738E+01	-6.05611232828E+01	-6.00960911981E+00	-1.15231036105E+00
2.49694410490E+06	-7.94538809225E+00	-1.76186740572E+02	8.23630772994E+00	1.67950168160E+02	-4.41463689675E+01	-1.32659474041E+02	-6.01788779273E+00	-1.03809692083E+00
2.51913545950E+06	-1.04768101513E+01	1.65553870662E+02	8.19227362177E+00	1.68003068879E+02	-4.66306933523E+01	6.95080793533E+01	-6.05069036467E+00	-1.06286646747E+00
2.54132681409E+06	-1.16876786255E+01	1.54814474753E+02	8.25220971885E+00	1.67697906188E+02	-3.87530020526E+01	9.59996569027E+01	-6.05434704812E+00	-1.06015979957E+00
2.56351816869E+06	-1.03155780240E+01	1.67626839649E+02	8.22350167327E+00	1.67517881988E+02	-3.74682933104E+01	-1.09111679996E+02	-6.11644377832E+00	-1.40587311987E+00
2.58570952328E+06	-7.75699442075E+00	1.59572428726E+02	8.22846991385E+00	1.67473725719E+02	-3.98639862997E+01	1.39397936520E+02	-6.02487730519E+00	-1.19252929475E+00
2.60790087788E+06	-8.05386140638E+00	1.74030877056E+02	8.28337405290E+00	1.67586834408E+02	-4.45174455821E+01	-2.91248966908E+01	-6.00053555242E+00	-1.20297941403E+00
2.63009223247E+06	-1.00732577620E+01	1.67104177072E+02	8.19169926724E+00	1.67255649622E+02	-3.93798685248E+01	6.27063700052E+01	-6.02615040598E+00	-1.38423890352E+00
2.65228358707E+06	-1.07462821108E+01	-1.64072635551E+02	8.28858023479E+00	1.67584578241E+02	-3.78483645767E+01	-1.18924996570E+01	-6.04647489022E+00	-1.34374241417E+00
2.67447494166E+06	-1.35631053201E+01	1.72159642124E+02	8.19654844596E+00	1.67432617408E+02	-4.00078328280E+01	-1.40144132638E+02	-6.03259763481E+00	-1.52211986435E+00
2.69666629626E+06	-1.37603742320E+01	1.65934492585E+02	8.18721755989E+00	1.66986403981E+02	-4.69705513168E+01	6.66463557953E+01	-6.05712614526E+00	-1.36507219744E+00
2.71885765085E+06	-9.47050494529E+00	1.74967914105E+02	8.18859033469E+00	1.66804010364E+02	-4.04522342705E+01	-9.88681876774E+01	-6.03741544635E+00	-1.46192422963E+00
2.74104900545E+06	-1.18123244870E+01	1.66794673480E+02	8.23540403901E+00	1.66544859936E+02	-3.82171367745E+01	1.23039382492E+01	-6.02141786692E+00	-1.56008847951E+00
2.76324036004E+06	-1.20938202990E+01	-1.67072263991E+02	8.28763989611E+00	1.67085118661E+02	-4.08552323044E+01	-1.68926753334E+02	-6.03626248993E+00	-1.56078586436E+00
2.78543171463E+06	-1.12705301569E+01	-1.77606637467E+02	8.22909227057E+00	1.66576049254E+02	-3.58760768351E+01	1.30570010412E+02	-6.02420242937E+00	-1.22649051917E+00
2.80762306923E+06	-9.46211571297E+00	1.77831464934E+02	8.14803236596E+00	1.66229952540E+02	-4.42834811886E+01	-1.07957346361E+02	-5.99112897737E+00	-1.49493311435E+00
2.82981442382E+06	-9.44574863176E+00	1.74414415871E+02	8.26415970306E+00	1.66387135859E+02	-3.91995319887E+01	3.11904551521E+01	-5.99139552078E+00	-1.14777536598E+00
2.85200577842E+06	-1.22987987711E+01	-1.70731678022E+02	8.22353033940E+00	1.66730284024E+02	-4.46293690836E+01	-1.60194824489E+02	-6.01648435900E+00	-1.59156557934E+00
2.87419713301E+06	-1.12010039726E+01	1.66695423298E+02	8.20071723694E+00	1.66119860955E+02	-4.20221700042E+01	3.28399643231E+01	-6.00611673663E+00	-1.51671359917E+00
