# Hz S DB R 50
! CMT, M5065, 19127446, 24.2.4/2
! Date: 10/29/2024 1:15:38 PM
! Data: Format (Calibration Info)
! Freq	S11:dB/Ang(F2)	S21:dB/Ang(F2)	S12:dB/Ang(F2)	S22:dB/Ang(F2)
3.00000000000E+05	-9.56161421984E+00	-1.64780265774E+02	8.88401906910E+00	-1.77922600759E+02	-3.82018257858E+01	-1.78345094536E+02	-6.02353763470E+00	-9.11191156494E-02
3.22191354595E+05	-1.11118724594E+01	-1.44591668386E+02	8.83170495789E+00	-1.78205225313E+02	-4.54416093230E+01	6.66576033283E+01	-6.00735010114E+00	-1.93383910688E-01
3.44382709190E+05	-1.57327747561E+01	-1.70004631544E+02	8.83356764863E+00	-1.78513827386E+02	-4.45772600886E+01	-7.99243508575E+01	-6.05997244305E+00	-3.79357737997E-01
3.66574063785E+05	-1.38490237063E+01	-1.48745138400E+02	8.83818312686E+00	-1.78726714717E+02	-4.23212415333E+01	-1.23729685975E+02	-6.05523784918E+00	-4.37345258316E-01
3.88765418380E+05	-1.03617761705E+01	-1.66939183767E+02	8.93402021443E+00	-1.79077445721E+02	-3.95285350336E+01	-3.83865056146E+01	-6.03505450854E+00	-2.40247497322E-01
4.10956772975E+05	-7.25656506058E+00	-1.64435768732E+02	8.84728207327E+00	-1.79378671079E+02	-4.19481446098E+01	8.61932173841E+00	-5.97843325102E+00	-4.95028808809E-01
4.33148127570E+05	-1.00042672656E+01	1.68895701684E+02	8.86183422912E+00	-1.79696266916E+02	-3.77679513913E+01	4.25926411003E+01	-5.98324231349E+00	-1.37111744367E-01
4.55339482165E+05	-1.16747104633E+01	-1.62798515638E+02	8.87142884228E+00	-1.79835374555E+02	-4.33718229544E+01	7.92925642626E+01	-6.01593585823E+00	-4.40329800452E-01
4.77530836760E+05	-1.21244815924E+01	1.68617166800E+02	8.85732288173E+00	1.79550436958E+02	-5.87297277830E+01	-3.04025717657E+01	-6.03192004241E+00	-3.26906735431E-01
4.99722191355E+05	-9.41035766468E+00	-1.61374726446E+02	8.87100382056E+00	1.79765497110E+02	-4.50384439560E+01	-1.70209346428E+02	-6.04115337313E+00	-6.00811581067E-01
5.21913545950E+05	-8.56594625011E+00	-1.67232646825E+02	8.90844666406E+00	1.79661115852E+02	-4.76678937660E+01	-1.78729380507E+02	-6.02993973500E+00	-2.71376216068E-01
5.44104900545E+05	-1.54136528759E+01	-1.77847214131E+02	8.85984224597E+00	1.79065804984E+02	-4.04830359548E+01	1.57747847746E+02	-6.02650441492E+00	-2.03846365496E-01
5.66296255139E+05	-1.44241393160E+01	-1.70943141534E+02	8.89657067145E+00	1.79246067787E+02	-4.48229584912E+01	-1.13761140460E+02	-6.01716104076E+00	-4.60631280794E-01
5.88487609734E+05	-8.55054468859E+00	1.78447582896E+02	8.89496448230E+00	1.78812210167E+02	-4.32725203585E+01	1.44862886119E+01	-5.98929281195E+00	-6.47126643166E-01
6.10678964329E+05	-7.18659482691E+00	1.69577335220E+02	8.89823607877E+00	1.78571689665E+02	-4.21746595319E+01	-1.32271310254E+02	-6.05334777312E+00	-1.74047240470E-01
6.32870318924E+05	-1.04591774369E+01	-1.64463944979E+02	8.92095256315E+00	1.78680861390E+02	-5.10058890530E+01	-1.75066186442E+02	-6.02670805241E+00	-4.52098737627E-01
6.55061673519E+05	-8.13873237162E+00	-1.77180219379E+02	8.91939939486E+00	1.78385484991E+02	-3.71359326027E+01	-7.16528948224E+01	-6.05852309553E+00	-3.90916655688E-01
6.77253028114E+05	-1.14650613300E+01	-1.61620521958E+02	8.86021144563E+00	1.78038161145E+02	-4.18104226715E+01	-8.85990036199E+01	-6.03938345605E+00	-7.79152549919E-01
6.99444382709E+05	-1.22404718946E+01	-1.68752847999E+02	8.89087569593E+00	1.77638560462E+02	-4.64072263482E+01	-1.42670464442E+02	-6.00946917814E+00	-5.02760794711E-01
7.21635737304E+05	-1.02253509903E+01	-1.72820934210E+02	8.84918232372E+00	1.77951874105E+02	-4.02110413104E+01	-1.51863808534E+02	-6.02141532233E+00	-5.90586161440E-01
7.43827091899E+05	-9.97112860785E+00	-1.71982536215E+02	8.87710557863E+00	1.77625045117E+02	-3.61640465743E+01	1.15882039049E+02	-6.02397999471E+00	-3.59674197838E-01
7.66018446494E+05	-1.22643864757E+01	1.71189168633E+02	8.87498901986E+00	1.77795786940E+02	-4.19694866544E+01	-1.42594255409E+02	-6.01969095548E+00	-6.85915666602E-01
7.88209801089E+05	-8.56992461457E+00	-1.61659360482E+02	8.87944283611E+00	1.77334647126E+02	-4.26074632179E+01	-5.84070065645E+01	-6.02625294470E+00	-4.35977012540E-01
8.10401155684E+05	-9.55901987143E+00	1.62815284962E+02	8.80621314150E+00	1.77290695144E+02	-5.01462627869E+01	-8.43416816409E+01	-6.01712007149E+00	-4.49821986012E-01
8.32592510279E+05	-1.23063888289E+01	1.68060868727E+02	8.82795723307E+00	1.76748459013E+02	-4.84788041183E+01	5.59741549798E+01	-6.03164048534E+00	-4.43801533629E-01
8.54783864874E+05	-8.88994429158E+00	-1.62530216405E+02	8.97883340318E+00	1.77030429158E+02	-4.53960423897E+01	1.44023253933E+02	-6.05064394931E+00	-7.95093059195E-01
8.76975219469E+05	-8.68181443401E+00	1.78077950300E+02	8.90027366028E+00	1.76523925345E+02	-4.47771609406E+01	-8.31933480789E+01	-6.00869622279E+00	-5.76388023092E-01
8.99166574064E+05	-1.80227052137E+01	1.69599119575E+02	8.87708296803E+00	1.76823312504E+02	-3.44432019721E+01	-1.08274822405E+01	-6.02145653563E+00	-7.09349331235E-01
9.21357928659E+05	-1.00903675816E+01	1.63387731727E+02	8.88329506250E+00	1.76250636733E+02	-3.45548674662E+01	-1.00387712180E+02	-6.04669391233E+00	-4.15586623136E-01
9.43549283254E+05	-1.07173495239E+01	1.52787882327E+02	8.87756722668E+00	1.76448519131E+02	-4.89770541068E+01	-7.69295333493E+01	-6.00789682051E+00	-4.48562681736E-01
9.65740637849E+05	-1.10591145174E+01	1.52318187745E+02	8.85708426959E+00	1.75880581661E+02	-3.80246674085E+01	-8.30694556082E+01	-6.03083309267E+00	-7.93973511683E-01
9.87931992444E+05	-1.34776450673E+01	-1.78468594502E+02	8.87254397933E+00	1.76078070648E+02	-4.20223646121E+01	1.33770460317E+02	-6.02560411061E+00	-5.96715498500E-01
1.01012334704E+06	-1.04536662449E+01	1.75294501851E+02	8.90141353854E+00	1.75996275047E+02	-4.27837444079E+01	5.26562590276E+01	-6.02319120314E+00	-6.86368271052E-01
1.03231470163E+06	-1.18070019037E+01	-1.79334273566E+02	8.86959871558E+00	1.75882531080E+02	-4.93756532841E+01	1.17857745103E+02	-6.01550776442E+00	-8.50199863350E-01
1.05450605623E+06	-1.12383129914E+01	-1.76956086791E+02	8.89949755211E+00	1.75612467780E+02	-4.04830358945E+01	1.77306108270E+02	-6.04320103088E+00	-6.42548307635E-01
1.07669741082E+06	-1.11394174987E+01	1.63006696005E+02	8.86854826004E+00	1.75619291018E+02	-4.43678117360E+01	1.12225444366E+02	-6.03274762903E+00	-5.11709974869E-01
1.09888876542E+06	-7.02738280036E+00	1.78269457526E+02	8.93412944349E+00	1.74973290796E+02	-4.12141340192E+01	-7.26548679695E+01	-6.00677171852E+00	-4.65803807439E-01
1.12108012001E+06	-9.42087807133E+00	1.74357518987E+02	8.85011097831E+00	1.75184938285E+02	-4.68784127876E+01	-3.64633296268E+01	-6.04500119164E+00	-4.79333603834E-01
1.14327147461E+06	-9.20895580689E+00	1.66288520883E+02	8.87090233215E+00	1.74925453510E+02	-4.03602221236E+01	-1.12558007661E+02	-6.05346069261E+00	-7.48171471117E-01
1.16546282920E+06	-8.26399634008E+00	-1.50257672115E+02	8.94435815719E+00	1.75245928681E+02	-3.75265675468E+01	-1.16838403552E+02	-6.02863342088E+00	-3.63207632685E-01
1.18765418380E+06	-8.25901403353E+00	1.75253704762E+02	8.89146702279E+00	1.74823514481E+02	-4.90721560657E+01	2.11454669028E+01	-6.00096413723E+00	-7.66123612884E-01
1.20984553839E+06	-6.52016677636E+00	-1.75959762577E+02	8.90451321834E+00	1.74447346150E+02	-4.42217867895E+01	1.02977496207E+02	-6.00652610522E+00	-6.22862031152E-01
1.23203689299E+06	-1.12823209198E+01	1.73396259379E+02	8.84370789000E+00	1.74582149303E+02	-4.45534789520E+01	5.42507989473E+01	-6.03698623627E+00	-5.55862025503E-01
1.25422824758E+06	-9.94431998669E+00	-1.76557863667E+02	8.86429364945E+00	1.74713285934E+02	-4.10666571213E+01	-2.38174657158E+01	-6.02225286860E+00	-6.61912338588E-01
1.27641960218E+06	-9.15144782769E+00	-1.75721871408E+02	8.88291731655E+00	1.74362819422E+02	-4.28713810955E+01	1.71640279129E+02	-6.01547934095E+00	-4.82651748726E-01
1.29861095677E+06	-1.33420769550E+01	-1.69090385140E+02	8.85939818037E+00	1.74110986776E+02	-3.77349460961E+01	1.70899567507E+01	-6.02171917476E+00	-6.62201737148E-01
1.32080231137E+06	-8.20067819906E+00	-1.70453504265E+02	8.82838148180E+00	1.73958402769E+02	-4.49217439813E+01	7.95945720387E+01	-6.01190312956E+00	-1.34222394235E+00
1.34299366596E+06	-7.54253337715E+00	1.57630785239E+02	8.83829560529E+00	1.73756074409E+02	-4.17464608819E+01	-7.51215367169E+00	-6.00296858829E+00	-1.16035407698E+00
1.36518502056E+06	-1.10764317582E+01	1.69090562065E+02	8.89803728509E+00	1.73688123258E+02	-4.43108779627E+01	9.85040989801E+01	-6.05929935481E+00	-8.61454436152E-01
1.38737637515E+06	-8.11291833791E+00	-1.61595896784E+02	8.90572797387E+00	1.73395603789E+02	-3.53959792525E+01	8.51454441254E+01	-6.02231212118E+00	-1.03155394777E+00
1.40956772975E+06	-1.22668931346E+01	1.49757617167E+02	8.86351608023E+00	1.73848085344E+02	-4.33488018317E+01	-1.36860402607E+02	-6.00987010868E+00	-8.52176200699E-01
1.43175908434E+06	-1.03476083827E+01	1.76067055110E+02	8.88653775247E+00	1.73087748028E+02	-4.10478990790E+01	1.38344441101E+02	-6.07933712616E+00	-6.79085374601E-01
1.45395043894E+06	-1.25739904364E+01	-1.77543085441E+02	8.82674577697E+00	1.73116777435E+02	-4.93037240134E+01	-1.28774673279E+02	-6.01799566415E+00	-8.90242016872E-01
1.47614179353E+06	-6.76612555413E+00	1.76024815939E+02	8.91145454092E+00	1.73318817695E+02	-4.39227117585E+01	-4.40370248524E+01	-6.01449501012E+00	-9.51259108975E-01
1.49833314813E+06	-1.10690628337E+01	1.69430067890E+02	8.82074202123E+00	1.72994753013E+02	-4.80314238923E+01	6.70114395706E+01	-6.02060808670E+00	-8.23686695018E-01
1.52052450272E+06	-8.64758222244E+00	1.76925344109E+02	8.92721710201E+00	1.72538584518E+02	-5.79874406053E+01	-1.11428063415E+02	-6.06749207260E+00	-1.00214852125E+00
1.54271585732E+06	-9.97072364988E+00	-1.75051527360E+02	8.89038816684E+00	1.72316046281E+02	-3.97982473571E+01	-1.75755971210E+02	-6.02540602017E+00	-6.71653355025E-01
1.56490721191E+06	-9.77728083855E+00	-1.57335022934E+02	8.89889396346E+00	1.72473902180E+02	-4.16485163128E+01	-1.77416752394E+02	-6.00470901964E+00	-6.02246199779E-01
1.58709856651E+06	-8.23006920042E+00	-1.69525681595E+02	8.87308451697E+00	1.72052484726E+02	-3.81524663486E+01	-1.00775900497E+02	-6.04927097760E+00	-8.15397450564E-01
1.60928992110E+06	-8.81038660990E+00	-1.64029256267E+02	8.92158070782E+00	1.71898107168E+02	-3.99871502799E+01	1.15321702342E+02	-6.02133227981E+00	-4.40940468562E-01
1.63148127570E+06	-1.24663834659E+01	-1.75787209943E+02	8.90447068325E+00	1.72290653117E+02	-5.43255190350E+01	-3.31104903232E+01	-6.02762289240E+00	-1.15745776363E+00
1.65367263029E+06	-1.13114929038E+01	1.70806357312E+02	8.89023111678E+00	1.72051229558E+02	-4.36698802489E+01	-1.57648817462E+02	-6.02251936538E+00	-8.90800562056E-01
1.67586398489E+06	-1.18178897166E+01	-1.77263147376E+02	8.88955168759E+00	1.72270449922E+02	-5.06335285995E+01	-6.96503280688E+01	-6.04126713376E+00	-8.82745458197E-01
1.69805533948E+06	-8.40541500401E+00	-1.68942485394E+02	8.86676524784E+00	1.71852503041E+02	-4.11158760358E+01	-1.26282753054E+02	-6.00727238353E+00	-7.03010372836E-01
1.72024669408E+06	-1.00950832399E+01	1.54658411647E+02	8.82867442650E+00	1.71565156960E+02	-4.23822816768E+01	6.70812562522E+01	-6.02439229974E+00	-1.04887006104E+00
1.74243804867E+06	-1.41509535108E+01	1.47612890319E+02	8.89314008434E+00	1.71719749466E+02	-3.72054086723E+01	1.56675415377E+02	-6.04793683085E+00	-5.98340682689E-01
1.76462940327E+06	-1.04394891171E+01	-1.73781565650E+02	8.87768878715E+00	1.71681532400E+02	-4.14791028781E+01	-4.64826864295E+01	-6.01412248892E+00	-9.56123916177E-01
1.78682075786E+06	-9.46176460997E+00	1.68574271509E+02	8.87246333177E+00	1.71733585424E+02	-3.35219084552E+01	-2.31079881332E+01	-6.01274063437E+00	-9.92948609349E-01
1.80901211246E+06	-1.42316879399E+01	1.60173158032E+02	8.88032217606E+00	1.71288694444E+02	-4.18239988938E+01	1.01488527420E+02	-6.03607880954E+00	-8.26269377929E-01
1.83120346705E+06	-1.04560981093E+01	1.53879393600E+02	8.88522623828E+00	1.71412144050E+02	-3.76450576932E+01	-1.62791859624E+02	-6.04681539545E+00	-9.22558817592E-01
1.85339482165E+06	-1.02147427520E+01	1.68917539917E+02	8.85244187525E+00	1.71032903270E+02	-4.24029665864E+01	1.27460188600E+02	-6.05074284326E+00	-1.04954048555E+00
1.87558617624E+06	-1.41579040528E+01	-1.78803659862E+02	8.91101407112E+00	1.71133568504E+02	-4.42393611356E+01	5.52616585867E+01	-6.02620941960E+00	-7.78134239064E-01
1.89777753084E+06	-1.06668328870E+01	1.79414811747E+02	8.85307223647E+00	1.69565905465E+02	-4.46186192207E+01	2.34007129720E+01	-6.02371608313E+00	-9.10662696641E-01
1.91996888543E+06	-1.53947460637E+01	1.67608663945E+02	8.85748927951E+00	1.70694797188E+02	-3.95899219026E+01	-4.87426857592E+01	-6.04891998200E+00	-1.02067656143E+00
1.94216024003E+06	-1.10174564375E+01	1.63056586711E+02	8.87031179427E+00	1.70940438239E+02	-3.51892447044E+01	1.02283619818E+02	-6.04261200889E+00	-7.73957588587E-01
1.96435159462E+06	-1.26520273444E+01	1.55914290829E+02	8.89904434988E+00	1.70800315647E+02	-5.49082137233E+01	-1.21568224538E+02	-6.01548299589E+00	-1.28511041773E+00
1.98654294922E+06	-8.40520979835E+00	1.53239370523E+02	8.87025070705E+00	1.70727320792E+02	-3.57006709967E+01	2.09349250383E+01	-6.00649485838E+00	-1.14545143106E+00
2.00873430381E+06	-1.26809645327E+01	-1.60848778470E+02	8.85165214169E+00	1.69959510859E+02	-3.63387305671E+01	1.72137802176E+02	-6.02185447661E+00	-1.17955057453E+00
2.03092565841E+06	-1.00438483163E+01	1.73318716976E+02	8.89846079711E+00	1.70514627997E+02	-4.33226104296E+01	-1.49823504312E+02	-6.02336928241E+00	-9.05896898067E-01
2.05311701300E+06	-1.77157477829E+01	-1.63876205734E+02	8.66162679659E+00	1.71157614170E+02	-3.81743797464E+01	1.12511812900E+02	-6.03911719348E+00	-9.71271284216E-01
2.07530836760E+06	-1.10902849983E+01	1.72512169831E+02	8.83720308051E+00	1.70193826887E+02	-4.18161894259E+01	6.89152770254E+01	-6.02909862094E+00	-9.27149708557E-01
2.09749972219E+06	-8.56273761185E+00	-1.74851406008E+02	8.85986913849E+00	1.69811955682E+02	-4.49194124787E+01	-9.04935083234E+01	-6.00555824909E+00	-1.08366689847E+00
2.11969107679E+06	-9.09779704060E+00	1.67095045668E+02	8.92822290830E+00	1.69617380160E+02	-4.15912255056E+01	-4.10364565534E+01	-6.04636881866E+00	-1.11281935479E+00
2.14188243138E+06	-7.04314037102E+00	1.72282162004E+02	8.87164001112E+00	1.69536401050E+02	-4.84378855568E+01	-1.00639446692E+02	-6.01457883116E+00	-1.13863516063E+00
2.16407378598E+06	-9.39703608038E+00	1.78188120415E+02	8.91765571733E+00	1.69076149111E+02	-3.97663154441E+01	3.82659338123E+01	-5.89728617907E+00	-1.17516406427E+00
2.18626514057E+06	-1.07814108634E+01	-1.77729212344E+02	8.79986627746E+00	1.69498427380E+02	-3.91724704615E+01	6.39046566712E+01	-6.00565307059E+00	-1.33297705885E+00
2.20845649517E+06	-1.27222761289E+01	1.56821659797E+02	8.86974873887E+00	1.70181495786E+02	-4.36339565953E+01	-1.31494001195E+02	-6.03258227964E+00	-1.06878067834E+00
2.23064784976E+06	-7.87935933919E+00	1.68337032083E+02	8.90236094415E+00	1.69037297257E+02	-3.88942797869E+01	1.75590503503E+01	-5.99935312562E+00	-8.94138910964E-01
2.25283920436E+06	-7.97770005227E+00	1.70142420909E+02	8.85889185585E+00	1.68964027490E+02	-3.79587600611E+01	-5.51551828934E+01	-5.99742953410E+00	-1.29315281792E+00
2.27503055895E+06	-7.50822432820E+00	1.64444100045E+02	8.87284172941E+00	1.68618405863E+02	-4.20491479641E+01	-1.69203093143E+02	-6.02097935362E+00	-1.13136124561E+00
2.29722191355E+06	-1.19445621379E+01	-1.64540931431E+02	8.87061027766E+00	1.68673173977E+02	-3.78859293607E+01	5.66997544620E+01	-6.05286347346E+00	-1.16344995426E+00
2.31941326814E+06	-1.09693229688E+01	1.61612628683E+02	8.83702218074E+00	1.68740410394E+02	-3.88378471766E+01	-1.70743334572E+02	-6.03482258074E+00	-1.39835752131E+00
2.34160462274E+06	-1.03867848821E+01	-1.79609657540E+02	8.85356475985E+00	1.68359855427E+02	-3.19138307316E+01	1.06499471660E+02	-6.01213828834E+00	-1.34331338123E+00
2.36379597733E+06	-8.40973106989E+00	-1.71873988675E+02	8.84034656149E+00	1.68306992415E+02	-4.64243771422E+01	-6.64749814838E+01	-6.01611716211E+00	-1.17957665402E+00
2.38598733193E+06	-1.05556360972E+01	-1.77400268064E+02	8.90237238158E+00	1.68566813659E+02	-4.91833333461E+01	-6.39786599732E+01	-6.04727011878E+00	-1.15125978184E+00
2.40817868652E+06	-8.29680873504E+00	1.65683963817E+02	8.87853841356E+00	1.68309200908E+02	-4.09490013305E+01	-4.69151598658E+01	-6.03889117706E+00	-1.19207214357E+00
2.43037004112E+06	-9.24286040209E+00	1.73357328768E+02	8.89061250893E+00	1.68107021302E+02	-3.80543322683E+01	-1.65655985989E+02	-6.03906416065E+00	-1.51064958912E+00
2.45256139571E+06	-1.00931149627E+01	1.75033871110E+02	8.86996750380E+00	1.67874146349E+02	-3.90695544670E+01	-1.10344282629E+02	-6.04857136232E+00	-1.01926108248E+00
2.47475275031E+06	-1.21677909548E+01	1.62739474597E+02	8.92583243222E+00	1.67567248773E+02	-3.88703695135E+01	-1.42021791187E+01	-6.05815600289E+00	-1.20651083749E+00
2.49694410490E+06	-8.41792236570E+00	-1.77911369955E+02	8.89350056491E+00	1.67529173469E+02	-4.70905103391E+01	-1.08368256242E+02	-6.01880311046E+00	-1.32635556502E+00
2.51913545950E+06	-6.76418813397E+00	-1.70085391006E+02	8.96959577588E+00	1.68062936691E+02	-4.03648728808E+01	-3.26989541762E+01	-6.04278286153E+00	-1.23158922120E+00
2.54132681409E+06	-1.17546554706E+01	1.58993753458E+02	8.87761015823E+00	1.67885504910E+02	-4.60451351566E+01	-1.70424622437E+02	-6.02731256942E+00	-1.10039710867E+00
2.56351816869E+06	-8.61943023416E+00	1.74343312425E+02	8.83723715000E+00	1.67326699661E+02	-4.66177504062E+01	-1.25616298458E+00	-6.08186736376E+00	-1.09984757821E+00
2.58570952328E+06	-1.53580127503E+01	-1.64860383816E+02	8.89131788910E+00	1.67528522213E+02	-3.66798131118E+01	1.73032644787E+01	-6.02184555525E+00	-1.21093880163E+00
2.60790087788E+06	-1.45009060537E+01	1.75816826594E+02	8.88432318356E+00	1.67246796521E+02	-3.60273114808E+01	-1.15521552747E+02	-6.03026349386E+00	-1.27402511337E+00
2.63009223247E+06	-1.22078715900E+01	1.68594819191E+02	8.88160195167E+00	1.67102807988E+02	-3.45976652109E+01	-6.08815862273E+01	-6.02380056112E+00	-1.64095566751E+00
2.65228358707E+06	-1.19642577376E+01	1.68610588766E+02	8.88849830472E+00	1.67086546426E+02	-4.26259770793E+01	-3.60063024020E+01	-5.99328772101E+00	-1.45147007258E+00
2.67447494166E+06	-1.20072961085E+01	1.60890248442E+02	8.86355190622E+00	1.66939772513E+02	-3.45783839154E+01	1.68294436151E+02	-5.99063485720E+00	-1.59866811479E+00
2.69666629626E+06	-1.05171015894E+01	1.76450932925E+02	8.84810270416E+00	1.66748350609E+02	-4.12548895149E+01	-9.49610665591E+01	-6.00615880432E+00	-1.27869705480E+00
2.71885765085E+06	-1.14731642972E+01	-1.51485330968E+02	8.94565257777E+00	1.66506814129E+02	-3.69608414487E+01	-1.13676532794E+02	-6.01961264531E+00	-1.40257829265E+00
2.74104900545E+06	-1.19577792152E+01	-1.72900283443E+02	8.86520202962E+00	1.66596761104E+02	-4.27446340152E+01	1.74948468344E+02	-6.00030681583E+00	-1.33300204653E+00
2.76324036004E+06	-1.16868926399E+01	1.60354833506E+02	8.89082300606E+00	1.66618532930E+02	-5.07013701227E+01	1.73907494154E+02	-5.97190952842E+00	-1.20681573971E+00
2.78543171463E+06	-9.12073499002E+00	-1.57031107162E+02	8.91778902372E+00	1.66061702238E+02	-4.70923416264E+01	1.74302921361E+02	-5.99398677782E+00	-1.47466323104E+00
2.80762306923E+06	-9.81419536866E+00	-1.76872764006E+02	8.86871578009E+00	1.66065559299E+02	-3.72815780031E+01	-4.54757116174E+01	-6.07839767201E+00	-1.25687879568E+00
2.82981442382E+06	-1.10458401730E+01	1.76459529504E+02	8.85411076933E+00	1.65897878862E+02	-3.75466896806E+01	-1.14884252944E+02	-6.00746371084E+00	-1.53296907403E+00
2.85200577842E+06	-1.37894848497E+01	1.72654979238E+02	8.85707508617E+00	1.65928599348E+02	-3.61814524973E+01	7.90739031351E-01	-5.99326624640E+00	-1.57825312527E+00
2.87419713301E+06	-1.18026553316E+01	-1.76198916719E+02	8.83831769451E+00	1.65588796186E+02	-3.40621322637E+01	-1.58756105206E+02	-6.03230012592E+00	-1.27889377102E+00
