# Hz S DB R 50
! CMT, M5065, 19127446, 24.2.4/2
! Date: 10/29/2024 1:19:28 PM
! Data: Format (Calibration Info)
! Freq	S11:dB/Ang(F2)	S21:dB/Ang(F2)	S12:dB/Ang(F2)	S22:dB/Ang(F2)
3.00000000000E+05	-9.52989402722E+00	1.74479725627E+02	1.04190717933E+01	-1.77841466092E+02	-4.11711108376E+01	1.60337364107E+02	-6.07133391193E+00	-2.49881200362E-01
3.22191354595E+05	-1.11932270594E+01	-1.79302797949E+02	1.04730755014E+01	-1.78515981479E+02	-4.87448232969E+01	-1.12548050446E+02	-6.02473412481E+00	-2.49175967636E-01
3.44382709190E+05	-9.21337638161E+00	1.77231455483E+02	1.04939871092E+01	-1.78730808053E+02	-3.89932106300E+01	-1.10792855930E+02	-6.03188154454E+00	-1.34466713284E-01
3.66574063785E+05	-1.15119970313E+01	1.75746572654E+02	1.04467924696E+01	-1.78862832533E+02	-3.55365940862E+01	1.16926905682E+02	-6.03009421512E+00	-3.97192423485E-01
3.88765418380E+05	-1.07609567468E+01	1.47124141975E+02	1.04757190391E+01	-1.79097772785E+02	-4.40968062761E+01	1.39030466410E+02	-6.03546386080E+00	1.50111933067E-03
4.10956772975E+05	-9.07453546324E+00	-1.69842221226E+02	1.04643397299E+01	-1.79246178891E+02	-4.16216653329E+01	-1.19837461275E+02	-6.03763648088E+00	-1.19014234177E-01
4.33148127570E+05	-7.18565908050E+00	-1.62234232375E+02	1.04734674045E+01	-1.79784871943E+02	-3.62009024408E+01	-1.38561925414E+02	-6.03683708543E+00	-2.72809809839E-01
4.55339482165E+05	-7.42318416050E+00	1.75180353675E+02	1.04716004323E+01	1.79906600407E+02	-5.01251480293E+01	5.05335590791E+01	-5.98897359184E+00	-4.74054220071E-01
4.77530836760E+05	-8.36531956378E+00	-1.68003618776E+02	1.04445384147E+01	1.79769190382E+02	-3.98718644519E+01	-4.03857221903E+01	-5.97876496834E+00	-3.20811573905E-01
4.99722191355E+05	-1.16400190415E+01	1.76625557159E+02	1.04864301769E+01	1.79385384469E+02	-3.72265933858E+01	1.22364067411E+02	-6.03309122464E+00	-5.42663307059E-01
5.21913545950E+05	-1.12188663369E+01	-1.59790705324E+02	1.04533217237E+01	1.79360977151E+02	-4.50977848859E+01	1.54273494314E+02	-6.03197341244E+00	-1.82204783523E-01
5.44104900545E+05	-1.07339440100E+01	-1.67834530796E+02	1.04554855742E+01	1.79189955761E+02	-3.52369352056E+01	-1.58279192438E+02	-6.03661898634E+00	-3.68233104213E-01
5.66296255139E+05	-6.31517192949E+00	-1.63911087227E+02	1.05135734540E+01	1.79006636294E+02	-3.60124364498E+01	6.57474195435E+01	-6.05304082327E+00	-2.90486354181E-01
5.88487609734E+05	-7.21875181615E+00	-1.62359112349E+02	1.04862958853E+01	1.79015486265E+02	-3.90683787774E+01	-1.55277569978E+02	-6.04708406806E+00	-7.77076438576E-01
6.10678964329E+05	-1.19111738340E+01	1.61996811018E+02	1.05378699096E+01	1.78452147678E+02	-3.91352273850E+01	1.64177670860E+02	-6.04968052545E+00	-1.00204884403E-01
6.32870318924E+05	-8.90064764208E+00	-1.64485352300E+02	1.04962754109E+01	1.78357706071E+02	-5.33643732584E+01	-7.18479934448E+01	-6.03557831455E+00	-5.94089000284E-01
6.55061673519E+05	-8.22503621203E+00	1.68044719707E+02	1.04567335471E+01	1.77965024656E+02	-4.56618920216E+01	1.73668332023E+02	-5.97607832334E+00	-2.69467988678E-01
6.77253028114E+05	-9.37195131768E+00	1.61244952819E+02	1.04689601963E+01	1.77683242094E+02	-4.53786334153E+01	-1.16289468980E+02	-6.01535532065E+00	-9.78832630957E-01
6.99444382709E+05	-1.19370834303E+01	-1.61314684379E+02	1.04955093206E+01	1.78276015664E+02	-4.03372641149E+01	3.17578609118E+01	-6.04321086827E+00	-5.42645103314E-01
7.21635737304E+05	-7.56671069462E+00	1.63803770116E+02	1.05061015506E+01	1.77302297505E+02	-4.60237091775E+01	1.30748817418E+02	-6.01648471681E+00	-5.66251949660E-01
7.43827091899E+05	-1.24497115093E+01	-1.66534491575E+02	1.04938161340E+01	1.77268985518E+02	-3.87644262327E+01	-8.87477093780E+01	-6.01815601708E+00	-4.01428142136E-01
7.66018446494E+05	-8.76904775727E+00	1.77605477526E+02	1.05108731990E+01	1.76972490551E+02	-4.13833056009E+01	1.15182985382E+02	-6.03042001818E+00	-4.91945109849E-01
7.88209801089E+05	-1.27227791264E+01	1.65721224516E+02	1.04833987889E+01	1.77080976406E+02	-3.31739788217E+01	-2.29864294444E+01	-6.00546553695E+00	-6.67325302505E-01
8.10401155684E+05	-1.09378483999E+01	-1.72096207336E+02	1.05039242336E+01	1.77114097907E+02	-4.90797332369E+01	1.74646360790E+02	-5.98503554134E+00	-4.48621510337E-01
8.32592510279E+05	-1.39094867091E+01	1.57448842178E+02	1.04916574554E+01	1.76656386941E+02	-3.82697459510E+01	-1.63281634993E+02	-6.02451521373E+00	-6.67475329017E-01
8.54783864874E+05	-8.78237681262E+00	1.77396421425E+02	1.04767328953E+01	1.76764619412E+02	-4.22244646573E+01	1.09142227305E+02	-6.01305947726E+00	-4.88416478776E-01
8.76975219469E+05	-8.19932629115E+00	-1.68233574711E+02	1.04662854703E+01	1.76438220540E+02	-4.08797813505E+01	-5.19417513610E+01	-5.98298149458E+00	-5.83706288344E-01
8.99166574064E+05	-8.22988586084E+00	1.67817379680E+02	1.04724392136E+01	1.76497896547E+02	-3.69842988621E+01	-1.13141981573E+02	-6.02048219095E+00	-4.57460241529E-01
9.21357928659E+05	-6.06720222355E+00	1.73138442257E+02	1.05281514156E+01	1.76067074243E+02	-4.36657241956E+01	1.32645372527E+02	-6.03032591357E+00	-6.57985575902E-01
9.43549283254E+05	-7.32259412451E+00	1.67270649036E+02	1.05096647676E+01	1.76184201028E+02	-4.03938883241E+01	1.40205924870E+02	-6.01343148472E+00	-3.87315668334E-01
9.65740637849E+05	-7.62686661182E+00	1.53695475292E+02	1.05073419171E+01	1.75744057745E+02	-3.99225967003E+01	-1.38645789429E+02	-6.02776706783E+00	-7.96653886212E-01
9.87931992444E+05	-1.01582492659E+01	1.69658513423E+02	1.05180596218E+01	1.76121686518E+02	-5.00509158535E+01	1.24652796989E+01	-5.99703343346E+00	-6.95526063649E-01
1.01012334704E+06	-1.00786054586E+01	-1.76259808938E+02	1.05063569827E+01	1.75363709487E+02	-4.85101330077E+01	1.00919811340E+02	-5.99430006130E+00	-6.63344435870E-01
1.03231470163E+06	-7.27921867741E+00	-1.63885378851E+02	1.05054547568E+01	1.75378232788E+02	-3.46299706014E+01	-2.32630103941E+01	-6.03351805364E+00	-6.42870001768E-01
1.05450605623E+06	-1.82393275216E+01	1.72626120278E+02	1.04687660324E+01	1.75422307232E+02	-3.37460871544E+01	-1.70455633940E+02	-6.03267928928E+00	-7.92469585398E-01
1.07669741082E+06	-1.10706664797E+01	1.45050208487E+02	1.05508110194E+01	1.75141862089E+02	-3.80921839621E+01	-7.20016715124E+01	-6.02409800252E+00	-5.26123624441E-01
1.09888876542E+06	-1.40488798936E+01	1.65766085422E+02	1.04847596630E+01	1.75020735843E+02	-4.58365913044E+01	1.04368161706E+02	-6.04332051355E+00	-7.06201145317E-01
1.12108012001E+06	-1.21793185708E+01	-1.72493156269E+02	1.05232835298E+01	1.75081370234E+02	-5.06397474909E+01	8.18026045151E+01	-6.04285156175E+00	-6.25372389345E-01
1.14327147461E+06	-7.67173969232E+00	1.77404123269E+02	1.04801508596E+01	1.74799701159E+02	-3.59928569269E+01	9.59602371796E+01	-6.02445608627E+00	-6.53840086854E-01
1.16546282920E+06	-1.11449312093E+01	1.77317930075E+02	1.04851044048E+01	1.74491871165E+02	-3.96307155923E+01	-1.87794933393E+01	-5.97893998260E+00	-5.98777707167E-01
1.18765418380E+06	-1.08849744530E+01	1.63426791742E+02	1.04860472027E+01	1.74381090080E+02	-4.25962592112E+01	-4.79323660751E+01	-6.01130193769E+00	-5.55490169192E-01
1.20984553839E+06	-9.41007155830E+00	-1.70326447852E+02	1.05092165065E+01	1.74278727216E+02	-4.08878046273E+01	1.26334566505E+02	-5.99276171224E+00	-7.74317309729E-01
1.23203689299E+06	-1.24428778807E+01	1.71813063015E+02	1.05071080907E+01	1.74027470311E+02	-4.44711343717E+01	-1.50676359458E+02	-6.00126851574E+00	-7.60021528564E-01
1.25422824758E+06	-8.50982974924E+00	-1.77005496341E+02	1.04365656237E+01	1.73767212950E+02	-4.56491844386E+01	-1.14697261342E+02	-6.03070982902E+00	-4.93503351822E-01
1.27641960218E+06	-1.16991391322E+01	1.76834169479E+02	1.04520577519E+01	1.73770811679E+02	-3.56791539001E+01	1.69811570560E+02	-6.01783523173E+00	-6.27616895475E-01
1.29861095677E+06	-1.01220326609E+01	1.77413986547E+02	1.05213413962E+01	1.73812717532E+02	-4.15500984695E+01	-1.68042048246E+02	-6.03761981804E+00	-6.20146991129E-01
1.32080231137E+06	-9.66081689969E+00	-1.63913991498E+02	1.04801476138E+01	1.73489612997E+02	-3.64434732361E+01	-9.28591817681E+01	-6.01415092401E+00	-1.08667168120E+00
1.34299366596E+06	-8.82690526254E+00	1.55453737857E+02	1.04377889770E+01	1.73313427694E+02	-4.14750316396E+01	1.77595089225E+01	-6.05751743078E+00	-1.09520349558E+00
1.36518502056E+06	-9.45885683548E+00	-1.73921833575E+02	1.05213429375E+01	1.73656481067E+02	-4.78870465561E+01	1.21365390738E+02	-5.99102075817E+00	-3.90659221504E-01
1.38737637515E+06	-1.30757793427E+01	1.73250119161E+02	1.04743947188E+01	1.73097851029E+02	-3.98846689061E+01	-1.27469037388E+02	-6.02924120631E+00	-4.69996931195E-01
1.40956772975E+06	-7.42851257299E+00	1.68329069383E+02	1.05197891813E+01	1.72551301833E+02	-4.06186997776E+01	8.06253883460E+01	-6.03450928866E+00	-7.09169511856E-01
1.43175908434E+06	-1.03736632758E+01	1.71100365266E+02	1.04439573004E+01	1.73024999409E+02	-4.72786591655E+01	-1.89601544624E+01	-5.96871714649E+00	-7.23495855136E-01
1.45395043894E+06	-9.35078280866E+00	1.68056753697E+02	1.05069229220E+01	1.72444396739E+02	-5.17235060135E+01	1.15568443236E+02	-6.01181451484E+00	-1.20242668064E+00
1.47614179353E+06	-1.06722518415E+01	-1.75088663874E+02	1.05101339089E+01	1.72267366455E+02	-3.52315901440E+01	7.10697767204E+01	-6.00111870046E+00	-5.78804833426E-01
1.49833314813E+06	-1.17439954670E+01	1.46112701836E+02	1.04764299352E+01	1.72270294987E+02	-5.50089476270E+01	-8.21290343690E+01	-6.02292176132E+00	-7.31405862444E-01
1.52052450272E+06	-9.81711597477E+00	-1.76421533552E+02	1.04796713000E+01	1.72221680608E+02	-4.58104466152E+01	7.42778047740E+01	-6.04399666630E+00	-7.29828275181E-01
1.54271585732E+06	-1.46457056585E+01	1.67430097669E+02	1.04797853284E+01	1.72538044357E+02	-4.03170928223E+01	6.04814908086E+01	-6.01414803010E+00	-8.21347896537E-01
1.56490721191E+06	-1.20826596320E+01	1.69055438804E+02	1.04426122687E+01	1.71846854715E+02	-4.31666965553E+01	1.40821924538E+02	-6.03461130879E+00	-1.03555653422E+00
1.58709856651E+06	-1.15015432008E+01	1.58238218922E+02	1.05220424933E+01	1.71520434059E+02	-4.51980677393E+01	3.44032431912E+01	-6.01491187277E+00	-8.48769145352E-01
1.60928992110E+06	-9.17044579312E+00	1.70824340415E+02	1.05025969265E+01	1.71626150063E+02	-4.40407728301E+01	-2.99097434269E+01	-5.98374960150E+00	-1.12631815725E+00
1.63148127570E+06	-9.74228106291E+00	1.60518073457E+02	1.05217978184E+01	1.71710588104E+02	-6.51547142757E+01	-1.74526330163E+02	-5.99024001397E+00	-1.00582052500E+00
1.65367263029E+06	-8.80996508263E+00	-1.73073457665E+02	1.04947261421E+01	1.70950899610E+02	-3.77857181222E+01	-1.55519110714E+02	-6.01046567684E+00	-8.62692985702E-01
1.67586398489E+06	-1.28395345648E+01	-1.45893383486E+02	1.04272095210E+01	1.71290841733E+02	-3.76125871164E+01	1.73429848407E+02	-6.03086509247E+00	-1.04562559382E+00
1.69805533948E+06	-8.60929648424E+00	1.78124539322E+02	1.05100730635E+01	1.70852770487E+02	-3.35101089035E+01	1.67170808161E+02	-6.03528093429E+00	-9.73116464605E-01
1.72024669408E+06	-7.69718087053E+00	1.75561071496E+02	1.05382891002E+01	1.70773498409E+02	-4.46527052917E+01	1.29106280330E+02	-6.02485330904E+00	-1.10851802871E+00
1.74243804867E+06	-7.85268022281E+00	-1.64169482417E+02	1.05443218859E+01	1.70736461912E+02	-4.84609427232E+01	-1.23225737585E+02	-6.02676012941E+00	-7.36139432064E-01
1.76462940327E+06	-1.05289391863E+01	-1.77573676073E+02	1.04971533589E+01	1.70511262885E+02	-4.47555207272E+01	9.42401477731E+01	-6.00451573173E+00	-8.86126380357E-01
1.78682075786E+06	-1.05508234989E+01	-1.76060255890E+02	1.04947591417E+01	1.70891331780E+02	-4.22821529723E+01	-1.44873196085E+02	-6.12489633272E+00	-1.09746170379E+00
1.80901211246E+06	-9.51530274564E+00	-1.79702189446E+02	1.04866243528E+01	1.70517574254E+02	-3.74647026566E+01	1.12839328277E+02	-6.02525534925E+00	-9.60937684010E-01
1.83120346705E+06	-1.05993267845E+01	1.73889290996E+02	1.04995319517E+01	1.70317981471E+02	-4.69106530985E+01	2.51343389123E+01	-6.01265321314E+00	-9.56623215322E-01
1.85339482165E+06	-9.62204345375E+00	1.61207628172E+02	1.04312541390E+01	1.70328414033E+02	-4.22636662264E+01	-1.34907190772E+02	-5.99301608827E+00	-7.44395246886E-01
1.87558617624E+06	-1.53196229370E+01	1.76561059771E+02	1.04894608182E+01	1.70150436069E+02	-4.01858557867E+01	-1.46259732749E+02	-6.03560230095E+00	-9.50578195860E-01
1.89777753084E+06	-9.77238789166E+00	1.72344705623E+02	1.04829415835E+01	1.70290243328E+02	-3.72253806502E+01	1.07956544404E+02	-6.02025201464E+00	-1.00695557460E+00
1.91996888543E+06	-9.54777582716E+00	1.58512119477E+02	1.04788425168E+01	1.69497584757E+02	-4.24157661121E+01	1.56640579646E+02	-6.04336447322E+00	-1.08955253348E+00
1.94216024003E+06	-8.21252892390E+00	1.72489830846E+02	1.04829330789E+01	1.69788543297E+02	-3.10927865929E+01	8.77861776345E+01	-5.94758898382E+00	-4.93850930374E-01
1.96435159462E+06	-8.94167865297E+00	1.71082560629E+02	1.04986977870E+01	1.69404841125E+02	-4.05580211209E+01	-3.28894019888E+00	-6.01137338551E+00	-1.04548300544E+00
1.98654294922E+06	-9.80919969941E+00	-1.61496638244E+02	1.04447940302E+01	1.69789960700E+02	-4.46706683637E+01	1.59347735624E+02	-6.00770102447E+00	-8.22554755709E-01
2.00873430381E+06	-1.13258420360E+01	-1.78939265819E+02	1.04640224882E+01	1.68716355112E+02	-3.84887595174E+01	1.75739221586E+02	-5.99603251566E+00	-7.22333165780E-01
2.03092565841E+06	-1.46543170892E+01	1.71449656593E+02	1.04916296812E+01	1.69404162501E+02	-4.25585154923E+01	1.07728169207E+02	-6.02341141557E+00	-7.06393932911E-01
2.05311701300E+06	-9.78545713771E+00	1.79883624708E+02	1.04430102776E+01	1.69062388021E+02	-4.12016001021E+01	-4.65564517355E+01	-6.02028885733E+00	-8.14969808197E-01
2.07530836760E+06	-7.67090054660E+00	1.76830671522E+02	1.04984697863E+01	1.69120895181E+02	-4.96942355033E+01	1.16799001721E+02	-6.06206328478E+00	-1.01183498533E+00
2.09749972219E+06	-1.14275386445E+01	1.70300922493E+02	1.04623057076E+01	1.68697595552E+02	-3.49741916906E+01	4.86054331675E+01	-5.98164198646E+00	-7.30303590147E-01
2.11969107679E+06	-1.94924448762E+01	1.45727607175E+02	1.04911861344E+01	1.68671625706E+02	-3.90843430164E+01	-1.77215308469E+02	-6.01624199392E+00	-9.58265198054E-01
2.14188243138E+06	-1.08881834569E+01	-1.62528831527E+02	1.04573873447E+01	1.68758357600E+02	-4.47686382038E+01	-1.10772195200E+02	-5.97722280640E+00	-1.16467879906E+00
2.16407378598E+06	-7.32312248286E+00	-1.72402640005E+02	1.06022077997E+01	1.68477847104E+02	-3.83096611502E+01	-1.47321264543E+02	-6.02182975068E+00	-9.60635699394E-01
2.18626514057E+06	-1.12364486253E+01	1.68906018810E+02	1.04889215189E+01	1.68446666174E+02	-9.17635200141E+01	2.88840036384E+01	-6.02217341583E+00	-8.58109814003E-01
2.20845649517E+06	-1.00188516781E+01	-1.74004336808E+02	1.04744897219E+01	1.68213881437E+02	-4.29728384303E+01	-1.54401262945E+02	-6.03278348997E+00	-1.09490479652E+00
2.23064784976E+06	-9.37731398745E+00	-1.60385221930E+02	1.04589300319E+01	1.68173941649E+02	-3.50797351499E+01	-1.77870388365E+01	-6.07522644290E+00	-1.03504944401E+00
2.25283920436E+06	-1.05958573213E+01	1.58909232847E+02	1.04952782171E+01	1.68021148107E+02	-3.84657797091E+01	4.11000947376E+01	-6.00532057251E+00	-1.22858598914E+00
2.27503055895E+06	-1.22316443303E+01	1.76470854666E+02	1.04464467388E+01	1.68052942815E+02	-4.01398831685E+01	8.50584765535E+01	-6.04344029881E+00	-1.03279984275E+00
2.29722191355E+06	-1.24190962550E+01	1.65527119450E+02	1.04550353180E+01	1.67529218279E+02	-4.32521702075E+01	1.60802051305E+02	-6.00421841729E+00	-1.07460805358E+00
2.31941326814E+06	-1.16039819358E+01	-1.56753801446E+02	1.05490016573E+01	1.68238506565E+02	-4.79803328016E+01	1.61957447644E+02	-6.00819066985E+00	-1.02966699210E+00
2.34160462274E+06	-7.66198690699E+00	1.72627769028E+02	1.04719542122E+01	1.67542564661E+02	-3.56250194403E+01	1.66912078762E+02	-6.05772273431E+00	-9.66056154679E-01
2.36379597733E+06	-1.37974120999E+01	1.70359862292E+02	1.05105123617E+01	1.67705481041E+02	-3.92609792049E+01	-1.05015908827E+02	-6.03851367083E+00	-1.06469673928E+00
2.38598733193E+06	-8.95072100145E+00	1.56083184220E+02	1.04898230483E+01	1.66861250272E+02	-3.86893869071E+01	-1.67872728240E+02	-6.00899326396E+00	-1.11566304334E+00
2.40817868652E+06	-1.13487586232E+01	-1.57515723988E+02	1.04924579196E+01	1.67191290522E+02	-3.97701603044E+01	1.11907566353E+02	-6.03439211824E+00	-1.34280910086E+00
2.43037004112E+06	-1.29331255662E+01	-1.70671692371E+02	1.04775570655E+01	1.66865435188E+02	-4.68316155058E+01	-1.07714232428E+02	-5.98861210161E+00	-1.72294351023E+00
2.45256139571E+06	-1.04784078561E+01	-1.55154051868E+02	1.05039736657E+01	1.66830477095E+02	-3.92327110567E+01	-7.47372223536E+01	-6.03571921579E+00	-9.94891473461E-01
2.47475275031E+06	-1.19771680833E+01	1.66863525393E+02	1.04530560995E+01	1.66857477224E+02	-4.87863188974E+01	-6.63977540989E+01	-6.04285525827E+00	-1.03258980054E+00
2.49694410490E+06	-1.19698654674E+01	1.62909995578E+02	1.04354063489E+01	1.66705456282E+02	-4.16056492099E+01	1.33652910602E+02	-6.06615705078E+00	-1.29120353404E+00
2.51913545950E+06	-8.03764291269E+00	-1.79154431067E+02	1.04571828572E+01	1.66545311905E+02	-4.33456198791E+01	3.60284968005E+01	-6.07165843048E+00	-1.02306436122E+00
2.54132681409E+06	-1.29830029714E+01	1.63540683119E+02	1.04886349550E+01	1.66367296787E+02	-4.39320523674E+01	-1.53125449701E+02	-6.02210451858E+00	-1.03318040511E+00
2.56351816869E+06	-9.33752792724E+00	1.73190894562E+02	1.05123622632E+01	1.66221599793E+02	-3.77065287031E+01	-2.77311933671E+01	-5.97159579556E+00	-1.39700926576E+00
2.58570952328E+06	-1.03551398423E+01	-1.74228456343E+02	1.04461351340E+01	1.66110437896E+02	-3.79704260483E+01	4.50800702377E+01	-6.04145184628E+00	-1.30653330789E+00
2.60790087788E+06	-9.79273550263E+00	-1.77030102036E+02	1.05109200859E+01	1.65772110166E+02	-4.28941284427E+01	-1.24732075268E+02	-6.09831694795E+00	-1.13070741727E+00
2.63009223247E+06	-1.07055071656E+01	1.68322817081E+02	1.04343698851E+01	1.66147965546E+02	-4.44731413269E+01	1.62152328704E+00	-6.00809988769E+00	-1.30003129262E+00
2.65228358707E+06	-8.96263221062E+00	1.63459338602E+02	1.04356126439E+01	1.65417344088E+02	-4.47976797391E+01	1.72182783992E+02	-5.96905213654E+00	-1.55430066520E+00
2.67447494166E+06	-1.12081494898E+01	-1.63433088113E+02	1.04744684400E+01	1.65304811597E+02	-4.34976689592E+01	7.06462758664E+01	-6.01324710533E+00	-1.37404722318E+00
2.69666629626E+06	-1.03529178229E+01	1.74312269944E+02	1.04697537178E+01	1.65658643038E+02	-3.45153908732E+01	-6.24474308225E+01	-6.07440379558E+00	-1.59167439351E+00
2.71885765085E+06	-1.12266333018E+01	-1.78732943167E+02	1.04720000680E+01	1.65252764206E+02	-4.06513462287E+01	-1.49449916849E+02	-5.96790844347E+00	-1.23008330794E+00
2.74104900545E+06	-1.10805949748E+01	-1.77630874732E+02	1.04869015834E+01	1.65345081320E+02	-4.34326595865E+01	-5.54942981629E+01	-6.07326996599E+00	-1.35975832236E+00
2.76324036004E+06	-1.11138834743E+01	1.71410684412E+02	1.05109406465E+01	1.64911590449E+02	-3.54819444122E+01	1.75985277700E+02	-6.02098475653E+00	-1.24079898820E+00
2.78543171463E+06	-1.10549667526E+01	-1.46503899546E+02	1.04879024966E+01	1.65139995013E+02	-3.93582472449E+01	4.59661821852E+01	-6.02733251635E+00	-1.23935050731E+00
2.80762306923E+06	-9.66727011861E+00	1.72526368509E+02	1.04286564560E+01	1.64620732923E+02	-3.87222287444E+01	-1.09300392041E+02	-5.97016170130E+00	-1.20821933531E+00
2.82981442382E+06	-1.01409722838E+01	-1.66812711423E+02	1.04803456412E+01	1.64849478891E+02	-4.29661141347E+01	-1.49815046916E+02	-6.02291972659E+00	-1.38083313883E+00
2.85200577842E+06	-1.27103208366E+01	1.61711375486E+02	1.04793584449E+01	1.64338694976E+02	-3.70771895186E+01	3.08095459846E+01	-6.00573312548E+00	-1.21821073323E+00
2.87419713301E+06	-8.52491717922E+00	1.51137404932E+02	1.04981980344E+01	1.64248686019E+02	-3.67766790303E+01	1.75371736073E+02	-6.06837315840E+00	-1.40019362017E+00
2.89638848761E+06	-9.59416624134E+00	1.58459544716E+02	1.05236970566E+01	1.64255449824E+02	-4.04810268383E+01	1.13393550103E+02	-6.01124742744E+00	-1.58944748810E+00
