# Hz S DB R 50
! CMT, M5065, 19127446, 24.2.4/2
! Date: 10/29/2024 1:03:08 PM
! Data: Format (Calibration Info)
! Freq	S11:dB/Ang(F2)	S21:dB/Ang(F2)	S12:dB/Ang(F2)	S22:dB/Ang(F2)
3.00000000000E+05	-6.78933737120E+00	-1.78977194815E+02	5.11048525762E+00	-1.77842562622E+02	-4.84824981068E+01	-1.08798615288E+02	-6.02503618912E+00	-1.31694592459E-01
3.22191354595E+05	-1.38334685813E+01	-1.73330731038E+02	5.15831833540E+00	-1.78066539747E+02	-3.97534995190E+01	5.09555376732E+01	-6.02641553839E+00	-3.63082938980E-01
3.44382709190E+05	-1.12722714982E+01	1.73705688579E+02	5.15937041773E+00	-1.79037333540E+02	-3.82895785179E+01	7.28667712471E+01	-5.99305923218E+00	-3.13641368840E-01
3.66574063785E+05	-8.57927868211E+00	-1.70437194210E+02	5.04719635459E+00	-1.78630911831E+02	-5.14677810585E+01	-1.66623144868E+02	-5.98166622284E+00	3.07023808408E-02
3.88765418380E+05	-1.59075254821E+01	-1.33011877121E+02	4.95321739514E+00	-1.77373300546E+02	-4.31268077877E+01	-1.08379910710E+02	-6.04193279442E+00	-2.96879027743E-01
4.10956772975E+05	-1.11164323927E+01	-1.71733657619E+02	5.17047370026E+00	-1.79061664401E+02	-4.21305568062E+01	7.48535069656E+01	-6.03368730553E+00	-1.13951468139E-01
4.33148127570E+05	-1.19356947117E+01	-1.70354303761E+02	5.05607442260E+00	-1.79976902339E+02	-4.88318661882E+01	4.83303215903E+01	-6.01242373049E+00	-1.72391699164E-01
4.55339482165E+05	-1.07390019151E+01	-1.44212984657E+02	5.14676285154E+00	-1.79814077283E+02	-5.12742019663E+01	-1.23406349933E+02	-6.03246589356E+00	-5.49344685146E-01
4.77530836760E+05	-9.06237129945E+00	-1.77843821117E+02	5.17129726583E+00	-1.79508453858E+02	-3.95668101525E+01	1.24457208193E+02	-6.01844079566E+00	-4.56130544729E-01
4.99722191355E+05	-1.26107009819E+01	-1.64719268357E+02	5.18728782220E+00	-1.79978416892E+02	-4.03247461213E+01	1.49083770242E+01	-6.01194665348E+00	-5.42392533044E-01
5.21913545950E+05	-9.63098039763E+00	1.62843952498E+02	5.05870823729E+00	1.79693725160E+02	-3.42090874144E+01	9.93598369651E+01	-6.05304532636E+00	-4.32957183274E-01
5.44104900545E+05	-9.29778170242E+00	-1.77212472707E+02	5.16354478331E+00	1.79212209086E+02	-4.59301425618E+01	-5.67805029253E+00	-6.05269900044E+00	-3.34910163115E-01
5.66296255139E+05	-6.65140258340E+00	1.79274828973E+02	5.06304898799E+00	1.78758657581E+02	-5.07188745977E+01	7.00434255205E+01	-6.05140118636E+00	-4.42651899852E-01
5.88487609734E+05	-1.25085426806E+01	1.48372577165E+02	5.12692051384E+00	1.79098855797E+02	-5.02714982811E+01	1.77932963546E+02	-6.03507769298E+00	-6.80227697847E-01
6.10678964329E+05	-1.02684341627E+01	1.77531858394E+02	5.11489049681E+00	1.79156798583E+02	-4.31045562719E+01	3.23113245188E+01	-6.01548051660E+00	-1.60018920024E-01
6.32870318924E+05	-1.18226359438E+01	1.60043367923E+02	5.11059172491E+00	1.78616655300E+02	-4.01773361794E+01	-1.55412436565E+02	-6.06104530278E+00	-3.33390247641E-01
6.55061673519E+05	-1.04695847797E+01	1.65314614206E+02	5.21957215377E+00	1.78632928534E+02	-3.87241155481E+01	1.30371584788E+02	-6.05426496931E+00	-1.53237823286E-01
6.77253028114E+05	-1.03581256945E+01	-1.61544088337E+02	5.20020204263E+00	1.78390907037E+02	-4.97797062131E+01	5.18876202746E+01	-5.98213359570E+00	-5.54665792461E-01
6.99444382709E+05	-1.15278135849E+01	1.70326636307E+02	5.20226071301E+00	1.78560115189E+02	-4.51264737444E+01	-3.67488990624E+01	-6.01707598489E+00	-5.58560403910E-01
7.21635737304E+05	-9.88016433467E+00	-1.65034189326E+02	5.14937728797E+00	1.78648554554E+02	-4.43340113927E+01	-1.10009331011E+02	-6.01741778561E+00	-4.17359345877E-01
7.43827091899E+05	-6.69992924879E+00	1.65472777581E+02	5.13177084546E+00	1.78498281162E+02	-3.76922086231E+01	1.15203475879E+02	-6.02260310823E+00	-3.30437327098E-01
7.66018446494E+05	-1.16953578555E+01	-1.79501622697E+02	5.12782151770E+00	1.78001498174E+02	-3.97243712188E+01	3.70816964627E+01	-6.02830310728E+00	-5.69797757353E-01
7.88209801089E+05	-7.31381869386E+00	1.75193543774E+02	5.14652084609E+00	1.78277279493E+02	-3.88254354702E+01	1.18133745649E+02	-6.04211621009E+00	-5.64252731982E-01
8.10401155684E+05	-1.05485036560E+01	-1.77941356546E+02	5.12085879545E+00	1.77559033461E+02	-3.81034427679E+01	2.13869068945E+00	-5.96558647246E+00	-2.59274884955E-01
8.32592510279E+05	-1.11375189822E+01	1.74400090041E+02	5.11732337339E+00	1.78010930855E+02	-4.91254013035E+01	4.63880383426E+01	-6.05082545500E+00	-4.72822276952E-01
8.54783864874E+05	-8.29903528449E+00	-1.59672958342E+02	5.17814013456E+00	1.77680837851E+02	-3.79172762992E+01	3.04051421035E+01	-6.02597711056E+00	-7.13439562891E-01
8.76975219469E+05	-1.23687286651E+01	1.73446018146E+02	5.13942651836E+00	1.77408440746E+02	-4.35876214736E+01	5.96986263940E+01	-6.04998202899E+00	-5.68474023168E-01
8.99166574064E+05	-9.18701047322E+00	1.60655516215E+02	5.12851903073E+00	1.77225615144E+02	-4.88852031011E+01	6.09935738762E+01	-6.04465520146E+00	-4.21922103428E-01
9.21357928659E+05	-1.08784576629E+01	1.70354301601E+02	5.14726838261E+00	1.76933751094E+02	-4.07234648296E+01	1.28472232883E+02	-6.00322756876E+00	-5.45003583133E-01
9.43549283254E+05	-9.85157481317E+00	-1.77201074571E+02	5.08899379071E+00	1.77179188314E+02	-4.72264193842E+01	8.13804832466E+00	-5.97128976247E+00	-5.21840713673E-01
9.65740637849E+05	-1.06208395404E+01	-1.77337801640E+02	5.17492917288E+00	1.76785905476E+02	-3.40966559324E+01	-1.42255995072E+02	-6.00202859296E+00	-3.21721588532E-01
9.87931992444E+05	-1.04024978786E+01	1.74734230556E+02	5.16369093404E+00	1.76753280145E+02	-3.68924720451E+01	1.37674431228E+02	-6.01476842414E+00	-9.37516877263E-01
1.01012334704E+06	-1.20248532092E+01	-1.59905109622E+02	5.20237379177E+00	1.76803561550E+02	-4.13792904760E+01	-1.32149330033E+02	-5.98842918838E+00	-6.78732683828E-01
1.03231470163E+06	-1.01851663644E+01	-1.78516110524E+02	5.22611040585E+00	1.76490178857E+02	-5.04460901037E+01	-1.52496346898E+02	-6.02174876166E+00	-5.28220506861E-01
1.05450605623E+06	-1.01031859185E+01	-1.69014435043E+02	5.16562971743E+00	1.76460304978E+02	-3.80909272044E+01	4.88132098616E+01	-5.99907159606E+00	-4.04175675748E-01
1.07669741082E+06	-9.14363728150E+00	-1.74616488400E+02	5.09283691465E+00	1.76276992351E+02	-4.25244140010E+01	-8.48809563203E+01	-6.03251202529E+00	-8.08755471259E-01
1.09888876542E+06	-1.04851520265E+01	-1.69464116672E+02	5.16727533602E+00	1.76138227966E+02	-3.43333719234E+01	-1.24369599988E+02	-6.00876059326E+00	-6.86950158882E-01
1.12108012001E+06	-9.04629309217E+00	1.79799347931E+02	5.10779728798E+00	1.76332909488E+02	-4.35962219799E+01	8.22571863264E+01	-6.00514560402E+00	-6.64503155478E-01
1.14327147461E+06	-1.20484217751E+01	1.64170296596E+02	5.17189904962E+00	1.75827085033E+02	-3.96327857132E+01	-1.09618477881E+01	-6.00221916275E+00	-8.24153379898E-01
1.16546282920E+06	-1.17774032724E+01	-1.59942475243E+02	5.15307925862E+00	1.76135846754E+02	-3.80511507690E+01	6.19508945012E+01	-5.98693450163E+00	-6.84173137456E-01
1.18765418380E+06	-9.84246916320E+00	-1.77382168254E+02	5.14101646713E+00	1.76312702347E+02	-4.30842309442E+01	6.69193416849E+01	-5.99191066735E+00	-5.70866004548E-01
1.20984553839E+06	-8.51000359981E+00	1.75896068849E+02	5.13955651160E+00	1.75678515130E+02	-3.96086663526E+01	-2.30256917103E+01	-5.99649280808E+00	-8.34683298309E-01
1.23203689299E+06	-1.10594935532E+01	1.60702066037E+02	5.13031392555E+00	1.75184452252E+02	-6.75646507163E+01	1.44252639551E+02	-5.99398342862E+00	-6.03186089515E-01
1.25422824758E+06	-6.69407480910E+00	1.58394210837E+02	5.16608249464E+00	1.75533285347E+02	-4.91979239704E+01	1.28664442632E+02	-6.04145876436E+00	-6.29740985635E-01
1.27641960218E+06	-1.19322849874E+01	1.76061025764E+02	5.17693342004E+00	1.75475884708E+02	-3.81117679854E+01	-1.50273971161E+02	-6.06211503129E+00	-7.71792404105E-01
1.29861095677E+06	-8.89741826826E+00	-1.70888685892E+02	5.14805661197E+00	1.75281016077E+02	-3.92479766563E+01	1.26259968255E+02	-5.99788430919E+00	-6.00090386451E-01
1.32080231137E+06	-1.29047498403E+01	-1.55393282478E+02	5.14418235449E+00	1.75240665137E+02	-3.90308561977E+01	1.23946814874E+02	-6.05381052310E+00	-1.01884843389E+00
1.34299366596E+06	-7.91219647763E+00	1.62658799053E+02	5.20148952041E+00	1.74719480666E+02	-4.89803701535E+01	-3.74945247873E+01	-6.02328847867E+00	-7.51337967685E-01
1.36518502056E+06	-1.01472871919E+01	1.66697263748E+02	5.13801544964E+00	1.75155037071E+02	-4.11985831069E+01	2.88239209429E+01	-6.01774635240E+00	-6.32074064859E-01
1.38737637515E+06	-1.11070937076E+01	-1.54368515607E+02	5.06619550592E+00	1.74360629814E+02	-3.82854071693E+01	7.20648037939E+01	-6.06567682223E+00	-8.59492089592E-01
1.40956772975E+06	-1.06032314473E+01	-1.58069452655E+02	5.13241357555E+00	1.74826660410E+02	-3.69481288776E+01	-3.20168719833E+01	-6.02254223934E+00	-7.72320491513E-01
1.43175908434E+06	-1.35837543491E+01	-1.58785562785E+02	5.06365430608E+00	1.74786488643E+02	-3.59780981156E+01	5.49321452104E+01	-6.03183942303E+00	-5.49318771120E-01
1.45395043894E+06	-1.13355737555E+01	1.65990033262E+02	5.13870845725E+00	1.74564205657E+02	-3.64236332861E+01	-3.25241505050E+00	-6.02563933610E+00	-9.34780169804E-01
1.47614179353E+06	-7.50099392749E+00	1.59054297944E+02	5.08945989338E+00	1.74138921001E+02	-5.03873362666E+01	8.04149590922E+01	-5.99905423649E+00	-6.54550864304E-01
1.49833314813E+06	-9.39122303374E+00	1.72271131328E+02	5.10336319003E+00	1.74061907985E+02	-4.50292554078E+01	-6.11671147726E+01	-5.99939144230E+00	-7.12533903396E-01
1.52052450272E+06	-8.52717796684E+00	-1.55602190077E+02	5.15221413629E+00	1.73935208489E+02	-4.75210370015E+01	-5.85469505874E+01	-6.03041514362E+00	-7.38588983003E-01
1.54271585732E+06	-9.18066124589E+00	1.77500660698E+02	5.06783814778E+00	1.73864144047E+02	-3.92666663122E+01	-2.96959843706E+01	-6.03006005646E+00	-8.65686363934E-01
1.56490721191E+06	-1.39683471259E+01	1.60165610785E+02	5.09866261379E+00	1.73780655180E+02	-3.53518696556E+01	-9.24304070146E+01	-6.01697763431E+00	-8.17566392650E-01
1.58709856651E+06	-1.39783376097E+01	1.45443729758E+02	5.14240400713E+00	1.73303019914E+02	-4.01512536866E+01	-7.21756668235E+01	-6.03535440790E+00	-6.53004291263E-01
1.60928992110E+06	-7.23862059661E+00	1.78149957481E+02	5.17095216432E+00	1.73113678726E+02	-3.97914995616E+01	7.28710900927E+01	-6.00948584813E+00	-4.65187334930E-01
1.63148127570E+06	-9.04387205427E+00	1.64799055296E+02	5.09528998511E+00	1.73353896234E+02	-3.68071985367E+01	2.84928635149E+01	-5.99780017869E+00	-9.26437464216E-01
1.65367263029E+06	-1.05202116828E+01	1.72086846346E+02	5.09837666010E+00	1.73543138653E+02	-3.87447867833E+01	1.10431590037E+02	-6.01912121298E+00	-8.77900649240E-01
1.67586398489E+06	-7.37596935505E+00	1.74800029569E+02	5.19628924731E+00	1.73276590282E+02	-4.42733066679E+01	1.07033302956E+02	-6.03355021754E+00	-5.73869971477E-01
1.69805533948E+06	-6.87796502486E+00	1.75464358733E+02	5.17575976951E+00	1.73702194242E+02	-4.11574356519E+01	2.64970915023E+01	-6.02899332481E+00	-7.80479183206E-01
1.72024669408E+06	-8.96504078061E+00	1.56768774709E+02	5.20396570633E+00	1.71765035344E+02	-4.09379532774E+01	4.84568345992E+01	-6.04005787572E+00	-8.98513687463E-01
1.74243804867E+06	-9.21495485552E+00	1.70089041433E+02	5.11923999832E+00	1.72279221153E+02	-4.57860188176E+01	-7.64839892647E+01	-5.98769307007E+00	-1.01752295741E+00
1.76462940327E+06	-8.68184771616E+00	1.77115637589E+02	5.16360881008E+00	1.72755766039E+02	-4.33202381600E+01	-4.44066814419E+01	-6.06459105965E+00	-1.02380253121E+00
1.78682075786E+06	-1.15456710788E+01	-1.67620819430E+02	5.10771238911E+00	1.73103196286E+02	-3.53345473039E+01	8.39106092642E+01	-6.01867229319E+00	-9.20396720076E-01
1.80901211246E+06	-9.92925671104E+00	1.66046069394E+02	5.13500748479E+00	1.73203594771E+02	-4.92055880513E+01	1.34925020464E+01	-6.07296018758E+00	-9.20752144594E-01
1.83120346705E+06	-9.16077477890E+00	-1.63401548498E+02	5.16913991611E+00	1.72615938072E+02	-3.30825468190E+01	-1.46567662344E+02	-6.00581654851E+00	-1.08906289640E+00
1.85339482165E+06	-1.04305169385E+01	1.62322882613E+02	5.12831286930E+00	1.72299264239E+02	-3.77973853025E+01	9.45520858023E+01	-6.04379749830E+00	-6.05324748045E-01
1.87558617624E+06	-1.51326457553E+01	-1.75264676685E+02	5.11881390461E+00	1.72972742261E+02	-5.03637551394E+01	-1.58282564386E+02	-6.04751867083E+00	-6.90409682595E-01
1.89777753084E+06	-7.20540632228E+00	-1.67864851418E+02	5.21620425552E+00	1.72492923408E+02	-4.77527374838E+01	-1.67330995848E+02	-6.01302522771E+00	-7.74911303447E-01
1.91996888543E+06	-9.85065267385E+00	1.61551043248E+02	5.20918430534E+00	1.72009990783E+02	-3.98824168870E+01	3.10391985392E+01	-6.00138295186E+00	-6.70673961184E-01
1.94216024003E+06	-1.09393609810E+01	1.79759397971E+02	5.13297941040E+00	1.72346331467E+02	-4.07597082269E+01	-1.11507909362E+02	-6.03439660697E+00	-9.53694307139E-01
1.96435159462E+06	-9.60156754309E+00	-1.77404202789E+02	5.15864632985E+00	1.72247334602E+02	-3.96604466234E+01	1.47759374242E+02	-6.00740634872E+00	-8.01218558932E-01
1.98654294922E+06	-7.75345161180E+00	-1.74112444891E+02	5.13074619031E+00	1.71670698941E+02	-4.50290174311E+01	-1.04816863581E+02	-6.02924841390E+00	-1.08803694916E+00
2.00873430381E+06	-1.23455056898E+01	1.52333815693E+02	5.09212236419E+00	1.72198231635E+02	-6.37930157562E+01	8.09808954504E+01	-6.02272410311E+00	-9.59469092609E-01
2.03092565841E+06	-8.60373016874E+00	-1.65377117700E+02	5.17606364286E+00	1.72276372475E+02	-4.16155801583E+01	-1.55463443495E+02	-6.03121325530E+00	-1.06821808427E+00
2.05311701300E+06	-1.24511657936E+01	-1.73735421316E+02	5.08541776560E+00	1.72033908994E+02	-4.17253655373E+01	3.59274588033E+01	-6.02254784107E+00	-1.32290727252E+00
2.07530836760E+06	-1.13040894760E+01	-1.73135640096E+02	5.14929478779E+00	1.71144926705E+02	-3.78646365499E+01	7.49733141013E+01	-5.99396636400E+00	-9.83119850612E-01
2.09749972219E+06	-1.02041384596E+01	-1.64711982652E+02	5.15903379146E+00	1.72058334068E+02	-3.94039594062E+01	1.43459024056E+02	-5.99529327075E+00	-7.97140607713E-01
2.11969107679E+06	-1.42988451173E+01	1.74226091279E+02	5.19204801460E+00	1.71040196352E+02	-4.29787735792E+01	9.74280434832E+01	-6.03791011911E+00	-1.29279100838E+00
2.14188243138E+06	-1.24426541203E+01	1.62315162241E+02	5.14140817851E+00	1.70824099768E+02	-3.89803471706E+01	8.32840144974E+01	-5.99581983180E+00	-1.16110361393E+00
2.16407378598E+06	-9.26575415477E+00	-1.79720269941E+02	5.18118898389E+00	1.70959241078E+02	-3.85577322315E+01	6.43795651086E+00	-6.01608050185E+00	-1.19520688766E+00
2.18626514057E+06	-1.11991269317E+01	1.78014339822E+02	5.08728691895E+00	1.71694108916E+02	-4.77286926679E+01	-1.73505768352E+02	-6.00136454481E+00	-9.11143792912E-01
2.20845649517E+06	-9.22132311564E+00	1.69523177594E+02	5.17308826545E+00	1.70532851230E+02	-3.77690263287E+01	1.32629794621E+02	-5.99272911769E+00	-1.12985325295E+00
2.23064784976E+06	-1.27438769460E+01	-1.72389542086E+02	5.21786347756E+00	1.70758352572E+02	-5.32761701769E+01	-1.77420685966E+02	-5.99513711622E+00	-1.15951854290E+00
2.25283920436E+06	-9.31506025071E+00	1.39973065527E+02	5.16109011082E+00	1.70279676356E+02	-4.45483007322E+01	-1.05424777657E+02	-6.02623248201E+00	-8.04385831977E-01
2.27503055895E+06	-7.85816283160E+00	1.79007826732E+02	5.15384448343E+00	1.70660639144E+02	-3.35488163270E+01	-5.61697100068E+00	-5.97437641411E+00	-9.15487461703E-01
2.29722191355E+06	-8.99998861721E+00	1.75817832516E+02	5.18002471422E+00	1.70729120463E+02	-4.16926599107E+01	3.86527211798E+01	-6.00257978911E+00	-9.72490418688E-01
2.31941326814E+06	-1.05554544798E+01	1.61505188074E+02	5.17966687517E+00	1.70494662097E+02	-3.72690281586E+01	-8.84505808017E+01	-6.02242862202E+00	-1.09235022663E+00
2.34160462274E+06	-1.12617704871E+01	-1.79613244401E+02	5.11299742620E+00	1.70334502122E+02	-5.05761323734E+01	5.38585664066E+01	-6.00771401995E+00	-1.25894167108E+00
2.36379597733E+06	-9.64321190766E+00	1.62057238507E+02	5.20569326948E+00	1.70463644395E+02	-4.66527202585E+01	-1.02433544760E+01	-6.06765860288E+00	-1.50419084983E+00
2.38598733193E+06	-1.14800873264E+01	-1.46927105153E+02	5.19474839947E+00	1.69828961814E+02	-3.14834315456E+01	1.59981838445E+02	-6.08764468411E+00	-1.15278629257E+00
2.40817868652E+06	-1.31401278379E+01	-1.65138723444E+02	5.10324030526E+00	1.70438407327E+02	-3.74712582128E+01	-5.21308355910E+01	-6.00609865477E+00	-1.22337075636E+00
2.43037004112E+06	-1.07908021482E+01	-1.66242615264E+02	5.14357597555E+00	1.69915439113E+02	-5.05127330868E+01	-1.32304356638E+02	-6.01013227939E+00	-1.41240418068E+00
2.45256139571E+06	-1.12239137382E+01	-1.70889558229E+02	5.16522708133E+00	1.69528606812E+02	-4.09511131781E+01	1.98752124823E+01	-5.98480878571E+00	-1.19884971004E+00
2.47475275031E+06	-1.21075345408E+01	1.48891894986E+02	5.10865486750E+00	1.69160279880E+02	-5.38387063573E+01	-9.61955976790E+00	-6.01735281182E+00	-1.12986741676E+00
2.49694410490E+06	-9.67663874668E+00	-1.79845792849E+02	5.15073101488E+00	1.69474145023E+02	-4.98832578072E+01	3.56557883315E+01	-6.03598700364E+00	-1.36068083156E+00
2.51913545950E+06	-8.45388825681E+00	1.49468094039E+02	5.17133485136E+00	1.68630046685E+02	-5.40708611414E+01	-3.22860619655E+01	-6.02602045926E+00	-1.03725748014E+00
2.54132681409E+06	-9.09822386403E+00	-1.77116367751E+02	5.09279906112E+00	1.69491858722E+02	-3.36838897670E+01	8.52504871124E+01	-6.00648813513E+00	-1.11307841142E+00
2.56351816869E+06	-1.08778224769E+01	-1.68884239024E+02	5.12385569369E+00	1.68814850376E+02	-4.08995239741E+01	1.54761011543E+02	-6.03006195722E+00	-1.08223352983E+00
2.58570952328E+06	-1.06027499180E+01	-1.76145325507E+02	5.08687779713E+00	1.69209697657E+02	-3.59408764349E+01	1.72053503073E+01	-6.02653998987E+00	-1.29996120163E+00
2.60790087788E+06	-9.49016202297E+00	1.59524962594E+02	5.13117904561E+00	1.69108436743E+02	-3.33912967947E+01	-1.15087294406E+02	-6.02162203071E+00	-1.10036859137E+00
2.63009223247E+06	-9.95158811320E+00	-1.71558527847E+02	5.14301045135E+00	1.68426783299E+02	-4.93597688139E+01	9.48783116418E+01	-6.02131403857E+00	-1.31325981008E+00
2.65228358707E+06	-8.77980695346E+00	-1.65507619675E+02	5.06850434358E+00	1.68781944680E+02	-3.49440324309E+01	-2.83603195491E+01	-6.03028037888E+00	-2.02441871468E+00
2.67447494166E+06	-7.76749600270E+00	-1.74768760268E+02	5.14047999941E+00	1.68918205368E+02	-4.55601465720E+01	-1.25209732358E+02	-6.04130456546E+00	-1.68330283553E+00
2.69666629626E+06	-1.01521540410E+01	1.79821464305E+02	5.10449046450E+00	1.68969763284E+02	-4.05379248052E+01	9.19575557477E+00	-6.03316778910E+00	-1.27359750418E+00
2.71885765085E+06	-9.75214423538E+00	-1.63827744882E+02	5.16266875991E+00	1.69011427665E+02	-3.77053891697E+01	-5.04111016172E+01	-5.98212596666E+00	-1.31764581382E+00
2.74104900545E+06	-1.17916506876E+01	1.65017780872E+02	5.08017284649E+00	1.68678634294E+02	-5.56813918264E+01	-2.01957451775E+01	-5.97089728366E+00	-1.30334723775E+00
2.76324036004E+06	-9.51077431007E+00	1.67366047198E+02	5.10259905545E+00	1.68753796730E+02	-4.75125801219E+01	-1.00755239059E+02	-6.00196339041E+00	-1.50087790832E+00
2.78543171463E+06	-9.49017607961E+00	1.40241509573E+02	5.16070341029E+00	1.68251735716E+02	-3.37221082702E+01	-1.09155489102E+02	-6.02290069520E+00	-1.16486521659E+00
2.80762306923E+06	-8.30780673762E+00	1.58391579911E+02	5.11672810251E+00	1.68038533984E+02	-4.01827472811E+01	-5.98056015402E+01	-6.01220561122E+00	-1.52716230518E+00
2.82981442382E+06	-1.07577294629E+01	-1.58069076718E+02	5.07142978564E+00	1.68389905004E+02	-4.49882855790E+01	2.86404603754E+01	-6.02015404632E+00	-1.11921094148E+00
2.85200577842E+06	-1.17796685931E+01	1.66916822275E+02	5.12577294273E+00	1.68285738718E+02	-4.26666753396E+01	5.28314994221E+01	-6.03459717141E+00	-1.33410466505E+00
2.87419713301E+06	-8.56467264429E+00	1.79311273456E+02	5.15497047467E+00	1.67836157726E+02	-4.41950162642E+01	1.14439061351E+02	-5.99316464964E+00	-1.39619833082E+00
