# Hz S DB R 50
! CMT, M5065, 19127446, 24.2.4/2
! Date: 10/29/2024 1:16:13 PM
! Data: Format (Calibration Info)
! Freq	S11:dB/Ang(F2)	S21:dB/Ang(F2)	S12:dB/Ang(F2)	S22:dB/Ang(F2)
3.00000000000E+05	-1.05568229222E+01	-1.58897813749E+02	9.08928847337E+00	-1.77578185780E+02	-4.01123989739E+01	1.58371523730E+02	-6.02671633694E+00	-3.52956843577E-01
3.22191354595E+05	-6.95738935696E+00	-1.66262256418E+02	9.09534678072E+00	-1.78479887286E+02	-4.04201963252E+01	2.26229759521E+01	-5.98479689040E+00	-1.63982653898E-01
3.44382709190E+05	-9.10468079355E+00	-1.57399706118E+02	9.04553373567E+00	-1.78535131988E+02	-3.86934053723E+01	-1.11019609420E+02	-6.01523654900E+00	-3.14450669122E-01
3.66574063785E+05	-9.83100774953E+00	-1.73923032037E+02	9.06411102399E+00	-1.79285210999E+02	-3.74881441670E+01	1.41764302772E+01	-6.03058511561E+00	-6.71551270868E-01
3.88765418380E+05	-8.36044610323E+00	-1.70021244968E+02	9.02573323254E+00	-1.78651891730E+02	-4.02870862353E+01	1.66802452945E+01	-6.09926980773E+00	-3.88045638688E-01
4.10956772975E+05	-8.58420574682E+00	-1.61431738585E+02	9.10480344165E+00	-1.79429073299E+02	-6.21485355276E+01	-1.52812960443E+02	-6.02348525668E+00	-5.22890916048E-01
4.33148127570E+05	-1.01923534983E+01	-1.77975254714E+02	9.09683764952E+00	-1.79697023766E+02	-4.07096635429E+01	1.54140893398E+02	-6.03320251326E+00	-5.17565106985E-01
4.55339482165E+05	-1.10623672687E+01	1.72864299719E+02	9.03471802104E+00	1.79751371171E+02	-4.42437659173E+01	-2.20751936416E+01	-6.09253499414E+00	-1.92239449718E-01
4.77530836760E+05	-1.33889785289E+01	1.61251277146E+02	9.06580070624E+00	1.79782037906E+02	-5.08285576359E+01	-7.25874233713E+01	-6.02920584580E+00	-6.19125467991E-01
4.99722191355E+05	-1.00733421210E+01	1.50819225810E+02	9.14431838286E+00	1.79654753054E+02	-4.50372784598E+01	4.80694241577E+01	-6.00131899503E+00	-3.53517592623E-01
5.21913545950E+05	-1.29058485919E+01	-1.56960906556E+02	9.02049742657E+00	1.79703776073E+02	-5.20341084422E+01	1.30492246270E+02	-6.02135415243E+00	-4.70083484000E-01
5.44104900545E+05	-8.84000046522E+00	1.78871577505E+02	9.05858691737E+00	1.79316746470E+02	-3.45622536500E+01	1.57492160335E+02	-6.05098178857E+00	-4.97770959897E-01
5.66296255139E+05	-8.98374066982E+00	-1.64282667823E+02	9.10580005544E+00	1.78839709634E+02	-3.57208304913E+01	-5.55927811829E-01	-6.01963017364E+00	-3.76514344629E-01
5.88487609734E+05	-1.08406731899E+01	1.73281371848E+02	8.99528564056E+00	1.78873832336E+02	-3.59887831367E+01	-9.83809198995E+01	-6.00926222770E+00	-5.99034796572E-01
6.10678964329E+05	-1.03826284962E+01	1.75416201504E+02	9.09845914777E+00	1.78655938996E+02	-4.13690930507E+01	-7.72713455772E+01	-6.01537276698E+00	-4.49724597083E-02
6.32870318924E+05	-1.58021113520E+01	-1.63027448734E+02	9.04541615296E+00	1.78798883202E+02	-4.33170926016E+01	4.59533983411E+01	-6.01871282471E+00	-5.66963508773E-01
6.55061673519E+05	-1.07891637130E+01	1.76312920972E+02	9.11251415480E+00	1.78117266175E+02	-3.77019031592E+01	-7.84830190548E+01	-6.02642951238E+00	-8.37017698978E-02
6.77253028114E+05	-6.12527135172E+00	-1.67070770983E+02	9.09568189372E+00	1.78288493290E+02	-4.45474908876E+01	-1.35810763029E+02	-6.03565114734E+00	-6.04689477944E-01
6.99444382709E+05	-1.43231349267E+01	1.64468288431E+02	9.07403813637E+00	1.77864610586E+02	-3.09182179413E+01	-1.18022071927E+02	-6.03342240460E+00	-4.58917970146E-01
7.21635737304E+05	-9.12113681209E+00	1.60871650425E+02	9.06719583089E+00	1.77345268118E+02	-4.58756438379E+01	-1.43757011299E+02	-6.02178861671E+00	-7.12578970155E-01
7.43827091899E+05	-9.46571285536E+00	-1.59285193839E+02	9.05175780021E+00	1.77756340468E+02	-3.82840695376E+01	-6.10453332734E+01	-5.98320188146E+00	-5.04952328996E-01
7.66018446494E+05	-1.18225812600E+01	1.74096993376E+02	9.16843588936E+00	1.77031721189E+02	-3.69809277004E+01	1.08880582784E+02	-6.01003295575E+00	-6.83050573261E-01
7.88209801089E+05	-8.14675107232E+00	1.77910777991E+02	9.07614653625E+00	1.77267490401E+02	-4.30544589112E+01	1.01133693144E+02	-6.00642018553E+00	-5.02791387259E-01
8.10401155684E+05	-9.28911475970E+00	1.72212759638E+02	9.09138857762E+00	1.77109111855E+02	-5.00320834046E+01	-1.48166740330E+02	-6.03292117279E+00	-4.10431290403E-01
8.32592510279E+05	-1.28146895743E+01	1.53499781463E+02	9.08884408451E+00	1.77289834259E+02	-4.95269181110E+01	1.40698717881E+02	-6.00391685224E+00	-5.20316233228E-01
8.54783864874E+05	-9.60732373969E+00	1.62323317017E+02	9.05759631308E+00	1.77094311388E+02	-3.62407354213E+01	-1.00052839025E+02	-6.04564616369E+00	-6.04394407590E-01
8.76975219469E+05	-1.20943211696E+01	1.78419315260E+02	9.06136347794E+00	1.76664259516E+02	-4.26286611586E+01	1.61815120776E+02	-5.95753861441E+00	-6.80099410932E-01
8.99166574064E+05	-9.96598997160E+00	-1.57489308534E+02	9.10713725321E+00	1.76604147164E+02	-4.27567762180E+01	-7.83009829636E+01	-6.00067319271E+00	-3.13246462411E-01
9.21357928659E+05	-1.05284227805E+01	-1.69754356007E+02	9.12094380809E+00	1.76009335548E+02	-5.03199473200E+01	-7.97805761745E+01	-6.01697225100E+00	-4.83554438067E-01
9.43549283254E+05	-9.92719636074E+00	1.74613974275E+02	9.09245826776E+00	1.76103760060E+02	-4.63892885313E+01	-1.78441813597E+02	-6.02551884717E+00	-7.87424516440E-01
9.65740637849E+05	-1.19287955767E+01	1.77273126338E+02	9.05924497130E+00	1.76191149279E+02	-4.32934783977E+01	-2.14097993116E+01	-6.01932766373E+00	-6.71046349836E-01
9.87931992444E+05	-9.49879893196E+00	1.62934500727E+02	9.07085148810E+00	1.75817635401E+02	-4.84757277989E+01	1.75817471489E+02	-6.00297968665E+00	-8.44046423539E-01
1.01012334704E+06	-8.10108137356E+00	1.78526322505E+02	9.06591581869E+00	1.75773299436E+02	-3.80928840504E+01	3.48735251617E+01	-6.04409590000E+00	-4.37955983123E-01
1.03231470163E+06	-1.07848231351E+01	1.50425409382E+02	9.06702034431E+00	1.75466606410E+02	-3.81932377721E+01	4.83055044329E+01	-6.01319261817E+00	-7.39771755346E-01
1.05450605623E+06	-1.15715911784E+01	-1.69305561701E+02	9.06273648707E+00	1.75481623303E+02	-3.90736320030E+01	-1.05970323230E+02	-6.05694991042E+00	-4.71915862773E-01
1.07669741082E+06	-1.03636937397E+01	1.55261688395E+02	9.06921163756E+00	1.75399756071E+02	-4.11120642185E+01	-8.80767112092E+01	-6.06010504811E+00	-9.51680155791E-01
1.09888876542E+06	-8.06024811045E+00	-1.69897917199E+02	9.11310262053E+00	1.75315625342E+02	-4.19741721387E+01	2.10727083947E-01	-6.06742254286E+00	-6.46635976362E-01
1.12108012001E+06	-1.44070969899E+01	-1.62418164486E+02	9.06068453757E+00	1.75375656555E+02	-4.26236570679E+01	9.58587379460E+01	-6.04661157660E+00	-7.95882845479E-01
1.14327147461E+06	-1.00900947728E+01	1.65021216714E+02	9.08217093552E+00	1.74915184091E+02	-4.08236062621E+01	1.20791599770E+02	-6.01627386890E+00	-8.36984024526E-01
1.16546282920E+06	-1.06512088492E+01	-1.47632559842E+02	9.10265522646E+00	1.74931191323E+02	-3.83230894412E+01	1.92933637367E+01	-6.01573267670E+00	-1.01661295985E+00
1.18765418380E+06	-9.36491087518E+00	-1.76449707365E+02	9.07298712042E+00	1.74488888887E+02	-3.28003476015E+01	-3.90313316076E+01	-6.00132446347E+00	-9.37583275668E-01
1.20984553839E+06	-9.52972288191E+00	-1.78262368541E+02	9.07364217484E+00	1.74893253451E+02	-4.43308671332E+01	1.63433371061E+02	-6.02105568960E+00	-9.13287337001E-01
1.23203689299E+06	-1.33183268928E+01	-1.77585988681E+02	9.09075798792E+00	1.74399908641E+02	-3.55111360884E+01	1.77655621714E+02	-6.02830013863E+00	-6.80962097489E-01
1.25422824758E+06	-1.23824437027E+01	-1.77449050009E+02	9.06046400987E+00	1.74467706210E+02	-3.54308814168E+01	5.89951590223E+01	-6.00681914354E+00	-6.03981559311E-01
1.27641960218E+06	-8.47074056185E+00	-1.55692116485E+02	9.05322702627E+00	1.74220163513E+02	-4.35719658520E+01	7.42839028347E+01	-6.03366187702E+00	-6.35499561042E-01
1.29861095677E+06	-1.00065744205E+01	1.70494475322E+02	9.09722090301E+00	1.73976933283E+02	-3.36130870847E+01	-3.46949813379E+01	-6.05400066992E+00	-7.90725409437E-01
1.32080231137E+06	-1.26932772703E+01	1.47785524317E+02	9.07123881158E+00	1.74009992594E+02	-3.86566853553E+01	1.61850802506E+02	-6.03301493316E+00	-1.08990186853E+00
1.34299366596E+06	-1.37338102497E+01	1.45604087555E+02	9.10871133282E+00	1.73767068307E+02	-3.83464798725E+01	-1.58290527793E+02	-5.98973209508E+00	-1.02648466520E+00
1.36518502056E+06	-8.88546859558E+00	-1.59960110751E+02	9.02710572915E+00	1.73633780676E+02	-4.17963832322E+01	-1.28900008922E+02	-6.02597523679E+00	-6.58482032852E-01
1.38737637515E+06	-9.36623061097E+00	1.77413759601E+02	9.01525992310E+00	1.72794132763E+02	-3.63677437425E+01	-3.07700713931E+01	-6.03031635028E+00	-8.64537504758E-01
1.40956772975E+06	-1.31460047773E+01	1.51670081391E+02	9.08881081920E+00	1.73650132985E+02	-3.79023290925E+01	4.03993418012E+01	-6.04251680852E+00	-8.50290465772E-01
1.43175908434E+06	-9.92027146366E+00	1.70486393163E+02	8.99831062664E+00	1.72887309892E+02	-4.74623571291E+01	-6.87171728288E+01	-6.02484775219E+00	-6.95929040469E-01
1.45395043894E+06	-1.23985284712E+01	-1.71706652089E+02	9.11579565089E+00	1.73472068861E+02	-3.60776941522E+01	-1.61274529109E+02	-6.01545811563E+00	-7.61453460314E-01
1.47614179353E+06	-8.07470242614E+00	1.75186481888E+02	9.10641298059E+00	1.73145766691E+02	-5.57627641293E+01	-8.93907702523E+01	-6.06623318708E+00	-8.63751930793E-01
1.49833314813E+06	-8.05922258595E+00	-1.68199101881E+02	9.10900150942E+00	1.73417320891E+02	-3.57920590655E+01	2.31518155015E+01	-6.01559502437E+00	-8.72641439424E-01
1.52052450272E+06	-1.12287477234E+01	-1.75191259887E+02	9.10361243056E+00	1.72821910361E+02	-4.58155645968E+01	-1.19928784415E+02	-6.02892645129E+00	-9.20351344770E-01
1.54271585732E+06	-1.25413974469E+01	-1.70717726336E+02	9.02073256154E+00	1.73019297582E+02	-4.11415020200E+01	-1.75414505721E+02	-6.02233560337E+00	-8.38281614612E-01
1.56490721191E+06	-1.21660362048E+01	1.50840276934E+02	9.08909503238E+00	1.72364601000E+02	-3.55282898902E+01	1.13274846251E+02	-6.00640804500E+00	-1.06463477141E+00
1.58709856651E+06	-7.25212366977E+00	-1.77454371609E+02	9.14237800107E+00	1.72235351815E+02	-3.40338090416E+01	6.10160528078E+01	-6.00767023474E+00	-8.34353062434E-01
1.60928992110E+06	-1.68961170569E+01	-1.76658019581E+02	9.12842995854E+00	1.72298276361E+02	-3.99359607134E+01	3.41336533977E+01	-6.03839277748E+00	-7.77242411851E-01
1.63148127570E+06	-1.02168835345E+01	1.62621458413E+02	9.03403688518E+00	1.72215590444E+02	-3.97808506260E+01	4.17319583892E+01	-6.02000963662E+00	-5.38881911840E-01
1.65367263029E+06	-1.30298135956E+01	1.58319887109E+02	9.06732683113E+00	1.71907921030E+02	-5.57778618710E+01	8.90976343106E+01	-6.05883804098E+00	-8.99599969371E-01
1.67586398489E+06	-1.04530579434E+01	-1.72285290952E+02	9.02239377441E+00	1.72141349914E+02	-4.41713393498E+01	3.47006354323E+01	-6.07626026582E+00	-9.90659167104E-01
1.69805533948E+06	-1.02208714804E+01	1.52160622025E+02	9.02290245481E+00	1.72012707895E+02	-4.89910777949E+01	-1.58376066044E+02	-6.02738158534E+00	-1.26505556159E+00
1.72024669408E+06	-9.77933605312E+00	1.79780741221E+02	9.07231069844E+00	1.71787900634E+02	-3.90936592634E+01	-1.20341852290E+00	-6.03443941822E+00	-7.61385584333E-01
1.74243804867E+06	-9.77673435047E+00	-1.69575761952E+02	9.10956712835E+00	1.71829904167E+02	-4.27380278526E+01	-1.16368351938E+01	-6.00947620456E+00	-7.52417543816E-01
1.76462940327E+06	-1.37791116007E+01	-1.57024560836E+02	9.07010568099E+00	1.71140620791E+02	-5.25760399928E+01	-1.16539812507E+02	-6.02345275472E+00	-8.30168970546E-01
1.78682075786E+06	-1.15535145086E+01	1.76668239345E+02	9.08030982018E+00	1.71530299894E+02	-4.11200761596E+01	1.26864967421E+02	-6.05207740207E+00	-8.25709376045E-01
1.80901211246E+06	-9.60676391118E+00	1.48410998812E+02	9.08268038985E+00	1.71119471212E+02	-3.52455848123E+01	3.89071047856E+00	-6.01426117532E+00	-8.10329887716E-01
1.83120346705E+06	-9.39198780551E+00	-1.66726718944E+02	9.02048276278E+00	1.71092269529E+02	-4.00627229947E+01	-1.70769846990E+02	-5.99303135988E+00	-9.60619464935E-01
1.85339482165E+06	-1.31859109513E+01	1.28469381197E+02	9.00998410132E+00	1.71176205527E+02	-4.22543341443E+01	3.74867977197E+01	-6.01258386972E+00	-9.44856980886E-01
1.87558617624E+06	-8.07972787799E+00	1.73453312732E+02	9.10515567049E+00	1.70956764623E+02	-4.08041295940E+01	-2.03817358173E+00	-6.02617676457E+00	-1.07608811131E+00
1.89777753084E+06	-1.11976922542E+01	-1.42063608699E+02	9.05927350417E+00	1.70614106396E+02	-4.28145295462E+01	8.68234346307E+01	-6.02931191013E+00	-1.11625964304E+00
1.91996888543E+06	-9.21290145370E+00	-1.74446548789E+02	9.03623900331E+00	1.70852461099E+02	-4.47607583951E+01	3.09137390173E+01	-6.04093707633E+00	-1.26246080983E+00
1.94216024003E+06	-1.07223123277E+01	1.73451337685E+02	9.07256709233E+00	1.70508730442E+02	-4.26782132203E+01	1.02056316865E+02	-6.01201067272E+00	-1.08051095982E+00
1.96435159462E+06	-9.39474867454E+00	1.44199737776E+02	9.07877809319E+00	1.70665077872E+02	-3.89211661176E+01	-9.58439303333E+01	-6.05747924523E+00	-1.11655405544E+00
1.98654294922E+06	-1.06143761129E+01	-1.79524246770E+02	9.07212524808E+00	1.70202150109E+02	-4.56543471711E+01	3.76916210672E+01	-6.02214831322E+00	-1.02200730038E+00
2.00873430381E+06	-1.09833744259E+01	1.74672919394E+02	9.11306794273E+00	1.70291487314E+02	-4.00397556234E+01	-1.32229752158E+02	-6.01031673420E+00	-9.89803145360E-01
2.03092565841E+06	-8.17778941204E+00	1.67769151475E+02	9.04640261061E+00	1.70249628127E+02	-3.59612756579E+01	1.16608129323E+01	-6.04166494516E+00	-1.10150442277E+00
2.05311701300E+06	-1.28406469175E+01	1.74219781549E+02	9.08575278902E+00	1.69867196607E+02	-4.17581729328E+01	-1.44837534555E+02	-6.02333013436E+00	-1.11892249922E+00
2.07530836760E+06	-1.04947957267E+01	1.75582198842E+02	9.14529982247E+00	1.69851064609E+02	-3.42415428072E+01	-3.82600674388E+01	-6.02035122722E+00	-1.22973460262E+00
2.09749972219E+06	-1.18505381787E+01	1.59715600949E+02	9.03292541831E+00	1.70079648908E+02	-4.51241169248E+01	1.74791808411E+02	-6.02165547620E+00	-8.95344637443E-01
2.11969107679E+06	-1.29724034703E+01	1.76475598572E+02	9.04635024168E+00	1.69358827739E+02	-4.53379897669E+01	1.38543537392E+02	-6.04848428070E+00	-8.85029771928E-01
2.14188243138E+06	-7.61614395603E+00	1.79752071266E+02	9.08402003372E+00	1.69304980172E+02	-3.73223925980E+01	5.01384879637E+01	-6.02304188578E+00	-9.89676382143E-01
2.16407378598E+06	-1.04737923720E+01	1.55528907933E+02	9.05878592782E+00	1.69903690723E+02	-3.72265879497E+01	5.71225834655E+01	-6.01291799539E+00	-9.72265330090E-01
2.18626514057E+06	-1.41738967632E+01	1.64529649613E+02	8.98595788589E+00	1.69096306142E+02	-3.71587216409E+01	1.36716464963E+02	-5.99961761738E+00	-9.84000457275E-01
2.20845649517E+06	-1.25613294756E+01	1.63893821346E+02	9.05492880431E+00	1.68734484938E+02	-3.58951983933E+01	-1.28064391497E+02	-6.00593828041E+00	-9.67175877949E-01
2.23064784976E+06	-6.97169704197E+00	-1.79090250595E+02	9.09014070223E+00	1.68943092714E+02	-3.77272210683E+01	-8.48148704401E+01	-6.02437957296E+00	-1.34937937204E+00
2.25283920436E+06	-8.69034693312E+00	1.62083240648E+02	9.12712076100E+00	1.69161061679E+02	-4.13389121349E+01	-1.45924065630E+01	-6.03046001814E+00	-1.23034261223E+00
2.27503055895E+06	-1.03589158026E+01	-1.72389696144E+02	9.03405268329E+00	1.69099786873E+02	-4.24286129575E+01	-1.46946464323E+02	-6.00502654347E+00	-1.39076227878E+00
2.29722191355E+06	-1.21155813306E+01	1.71924702730E+02	9.02974132509E+00	1.68617695808E+02	-4.07741362060E+01	1.30540362302E+02	-6.02194943414E+00	-1.06857348818E+00
2.31941326814E+06	-1.13570481318E+01	-1.77438752807E+02	8.97562059788E+00	1.68448137935E+02	-4.85192120081E+01	-8.89975622015E+01	-5.98148089895E+00	-1.20726626334E+00
2.34160462274E+06	-1.51876971766E+01	1.75830503535E+02	9.04350560819E+00	1.68835545813E+02	-3.89171386326E+01	7.56203547218E+01	-6.02686395471E+00	-1.29010822952E+00
2.36379597733E+06	-7.80634877540E+00	1.75482303262E+02	9.09279907162E+00	1.68192444658E+02	-5.34173769021E+01	-6.08140464768E+01	-6.02420347926E+00	-1.09254811076E+00
2.38598733193E+06	-1.35319496551E+01	1.57561487024E+02	9.06821276675E+00	1.67990701549E+02	-4.28789947428E+01	5.77717441872E+01	-6.02269955164E+00	-1.31094777256E+00
2.40817868652E+06	-8.86343196978E+00	1.76109231781E+02	9.03726678837E+00	1.68110376377E+02	-4.94385927060E+01	5.64474291235E+01	-6.02211514551E+00	-1.46835679775E+00
2.43037004112E+06	-1.33841587691E+01	-1.77570292354E+02	9.08836270983E+00	1.68128541991E+02	-4.69230454462E+01	8.86188880948E+01	-6.05590583132E+00	-1.10500721832E+00
2.45256139571E+06	-1.55418868841E+01	-1.48129754610E+02	9.08053693544E+00	1.67900539301E+02	-3.76277190083E+01	4.65941190964E+00	-5.95327970399E+00	-1.38396171608E+00
2.47475275031E+06	-7.47297483824E+00	-1.78852418008E+02	9.12943210271E+00	1.67561090028E+02	-4.13250011101E+01	-7.75715171982E+01	-6.03410773097E+00	-1.16273649717E+00
2.49694410490E+06	-1.35111950713E+01	-1.77662042361E+02	9.01386280973E+00	1.67930021134E+02	-3.61730962917E+01	-1.38790168656E+02	-6.02683788565E+00	-9.89998243148E-01
2.51913545950E+06	-1.05236684052E+01	-1.75806247082E+02	9.08441955458E+00	1.67318144247E+02	-3.97886103502E+01	-1.89157049946E+00	-6.04716635494E+00	-1.24911332771E+00
2.54132681409E+06	-1.00098054002E+01	-1.75052006739E+02	9.08407294710E+00	1.67220485898E+02	-3.61407126567E+01	-8.03204944609E+01	-6.07382879842E+00	-1.15508861423E+00
2.56351816869E+06	-1.13908998327E+01	1.64320796862E+02	9.06732989218E+00	1.67123136601E+02	-4.58853091004E+01	1.22016853785E+02	-6.00504789668E+00	-1.18923968384E+00
2.58570952328E+06	-1.41084126491E+01	-1.71172636980E+02	9.10173772179E+00	1.67027706758E+02	-3.06007883720E+01	-1.25858735063E+02	-6.06500820578E+00	-1.26868595582E+00
2.60790087788E+06	-9.37026617079E+00	-1.76838975779E+02	9.10675356711E+00	1.66827043806E+02	-3.74299937305E+01	5.11234828222E+01	-6.02155628826E+00	-1.14640660675E+00
2.63009223247E+06	-9.81002843074E+00	1.64995275745E+02	9.12630440786E+00	1.66703047621E+02	-4.89414222697E+01	1.66805189636E+02	-6.06086767700E+00	-1.07838708961E+00
2.65228358707E+06	-1.08734491900E+01	-1.75846891731E+02	9.10769627760E+00	1.66777687981E+02	-3.56703977894E+01	-2.00855230725E+00	-5.99285572216E+00	-1.65699707335E+00
2.67447494166E+06	-8.88389555757E+00	1.75255007766E+02	9.06534392106E+00	1.66729763545E+02	-4.57000139526E+01	-2.36907859487E+01	-6.00233639866E+00	-1.21614651051E+00
2.69666629626E+06	-9.24074449904E+00	1.72920246528E+02	9.02710295414E+00	1.66819971969E+02	-4.50526315916E+01	-1.68717108362E+02	-5.99230087015E+00	-1.38446750320E+00
2.71885765085E+06	-1.10020273284E+01	1.71666425826E+02	9.09783685835E+00	1.66468370329E+02	-5.11806169386E+01	1.79880348376E+02	-5.98062485607E+00	-1.29478796524E+00
2.74104900545E+06	-1.31333640493E+01	1.75249702040E+02	9.14812166065E+00	1.66577939033E+02	-3.87263438170E+01	-6.90385337474E+01	-6.03262054946E+00	-1.23363557512E+00
2.76324036004E+06	-1.03134762597E+01	1.74723645641E+02	9.05499497839E+00	1.66058786772E+02	-4.55461291275E+01	1.33670824383E+01	-5.96468931537E+00	-1.46385265231E+00
2.78543171463E+06	-1.16775225344E+01	-1.61254963539E+02	9.08439117168E+00	1.65715443810E+02	-4.62332087519E+01	1.61116517116E+02	-6.04916280190E+00	-1.60516883225E+00
2.80762306923E+06	-1.15013311985E+01	1.68163095819E+02	9.05268579192E+00	1.66082834778E+02	-5.25938895747E+01	-1.61725651381E+02	-5.99089652059E+00	-1.56948420734E+00
2.82981442382E+06	-1.25228495137E+01	1.63990818681E+02	9.10433188698E+00	1.65744387257E+02	-3.77277315621E+01	9.70844150932E+01	-6.02068063801E+00	-1.45949996256E+00
2.85200577842E+06	-1.11051276786E+01	1.55229448848E+02	9.04698511849E+00	1.65628025275E+02	-4.86723004312E+01	1.64222228015E+02	-6.02573867330E+00	-1.37818526452E+00
2.87419713301E+06	-1.09459187657E+01	1.65797516940E+02	9.08983850041E+00	1.65020338215E+02	-4.00885425711E+01	-9.44123410780E+01	-6.01501410039E+00	-1.52642829615E+00
