# Hz S DB R 50
! CMT, M5065, 19127446, 24.2.4/2
! Date: 10/29/2024 1:18:51 PM
! Data: Format (Calibration Info)
! Freq	S11:dB/Ang(F2)	S21:dB/Ang(F2)	S12:dB/Ang(F2)	S22:dB/Ang(F2)
3.00000000000E+05	-1.31462432861E+01	1.69125362570E+02	1.02210058850E+01	-1.77924603540E+02	-4.65710812205E+01	-1.01176348350E+02	-6.03599762100E+00	-4.47757279311E-01
3.22191354595E+05	-1.09096220651E+01	-1.77440968948E+02	1.02019896230E+01	-1.78203263856E+02	-3.43362502951E+01	-9.44326745793E+01	-6.03548450808E+00	-7.79955863317E-02
3.44382709190E+05	-1.21783756816E+01	-1.59976760879E+02	1.02847269600E+01	-1.78715730281E+02	-3.62917966311E+01	1.10318247003E+02	-6.00272844883E+00	-1.67703335369E-01
3.66574063785E+05	-1.12015961814E+01	-1.77219301400E+02	1.02279955899E+01	-1.78574994012E+02	-3.84209329593E+01	4.31972425327E+01	-5.97583015320E+00	-2.06843945593E-01
3.88765418380E+05	-1.16245593270E+01	-1.74615734516E+02	1.02245196785E+01	-1.78804250901E+02	-4.56017234001E+01	-4.62106709975E+00	-6.04479046260E+00	-1.17735654577E-01
4.10956772975E+05	-1.14223244644E+01	-1.63796544948E+02	1.02541256864E+01	-1.79321101684E+02	-4.59626376077E+01	-9.32523155546E+01	-6.02199227487E+00	-3.39594650863E-01
4.33148127570E+05	-1.01037582516E+01	-1.56658854041E+02	1.02253346649E+01	-1.79580454100E+02	-5.16910237630E+01	-9.23065276666E+01	-6.05250902146E+00	-6.40471556256E-01
4.55339482165E+05	-1.14617041617E+01	1.73437638462E+02	1.02960959678E+01	1.79907089334E+02	-4.31787714180E+01	-1.07807053981E+02	-5.99726692185E+00	-4.10603892288E-01
4.77530836760E+05	-1.12926192091E+01	-1.53324133014E+02	1.02188495636E+01	1.79854692612E+02	-3.98730354916E+01	-1.51791397500E+02	-6.04306940333E+00	-4.06553314393E-01
4.99722191355E+05	-9.20448010502E+00	-1.64031881426E+02	1.03057033410E+01	1.79556211734E+02	-3.86544232961E+01	1.71928873108E+01	-5.99357349110E+00	-1.62741027604E-01
5.21913545950E+05	-1.29866064036E+01	1.73178280004E+02	1.03029477027E+01	1.79301412745E+02	-4.05887699872E+01	-1.74079127870E+02	-6.02440016766E+00	-3.72221573789E-01
5.44104900545E+05	-9.17330532954E+00	-1.74118070169E+02	1.03145907476E+01	1.79118832181E+02	-5.21502220633E+01	-1.06889878465E+02	-6.05838038110E+00	-4.51541428581E-01
5.66296255139E+05	-1.26814560403E+01	-1.77255022902E+02	1.02770064964E+01	1.79096123163E+02	-4.00623029487E+01	4.93646752451E+01	-6.01679047699E+00	-4.68802586050E-01
5.88487609734E+05	-1.02310898608E+01	-1.73080723401E+02	1.03060646658E+01	1.78948057845E+02	-5.11797925280E+01	3.98895345756E+01	-5.99510299315E+00	-7.45552256571E-01
6.10678964329E+05	-9.96902844627E+00	-1.74328393184E+02	1.02203679985E+01	1.78580289720E+02	-6.00119852375E+01	1.77083606901E+02	-6.03179069206E+00	-5.25476196824E-01
6.32870318924E+05	-1.36116157311E+01	1.75852906696E+02	1.02862856174E+01	1.78501275953E+02	-4.89836563153E+01	1.57430207299E+00	-6.04864417560E+00	-3.74219567551E-01
6.55061673519E+05	-1.34274303090E+01	-1.66669518828E+02	1.02511788586E+01	1.77944092755E+02	-5.05775794141E+01	1.63913758721E+02	-6.03114328853E+00	-2.41375349092E-01
6.77253028114E+05	-1.10606410195E+01	-1.62870321925E+02	1.02587727863E+01	1.77951533367E+02	-3.30471189697E+01	9.65755634015E+01	-6.02389412423E+00	-4.80612664535E-01
6.99444382709E+05	-1.34805554363E+01	1.62824573977E+02	1.02210805131E+01	1.77785765283E+02	-3.92960155382E+01	-1.23575799043E+02	-6.03313447201E+00	-6.70005373200E-01
7.21635737304E+05	-1.27560533766E+01	-1.42133087633E+02	1.02517810961E+01	1.77698861284E+02	-4.44945113775E+01	9.22451550476E+01	-6.01988743772E+00	-5.86983386107E-01
7.43827091899E+05	-1.46487204651E+01	-1.66365995504E+02	1.02381075398E+01	1.77632663741E+02	-3.84668218867E+01	-4.16625612352E+01	-6.02328802666E+00	-7.60641537963E-01
7.66018446494E+05	-8.26860726486E+00	-1.77913878870E+02	1.02474754117E+01	1.77273487287E+02	-3.71067936272E+01	1.42788939576E+02	-6.01404081453E+00	-7.32875652469E-01
7.88209801089E+05	-1.09326935839E+01	-1.56248409286E+02	1.02623529354E+01	1.77533634219E+02	-4.34511746944E+01	1.46026538518E+02	-5.98864529890E+00	-6.28376005425E-01
8.10401155684E+05	-1.26390167034E+01	1.73042742174E+02	1.02588710614E+01	1.77124457642E+02	-3.75544021086E+01	-1.20195550247E+02	-6.03959729737E+00	-3.72927389108E-01
8.32592510279E+05	-9.94656869798E+00	-1.78462266851E+02	1.02478912496E+01	1.76938131415E+02	-3.51712705024E+01	1.49870824810E+02	-6.04570262160E+00	-5.57158815774E-01
8.54783864874E+05	-1.42778091445E+01	1.67243741718E+02	1.02272260735E+01	1.76892691056E+02	-5.63900773197E+01	1.32018990734E+02	-6.01282798682E+00	-3.80734166984E-01
8.76975219469E+05	-9.11183898386E+00	1.69491609232E+02	1.02198742928E+01	1.76925614752E+02	-4.06740732193E+01	-1.79361597630E+02	-6.03771702760E+00	-5.11627108279E-01
8.99166574064E+05	-9.15668284124E+00	-1.70901259160E+02	1.02776016105E+01	1.76376312834E+02	-3.67521378265E+01	-7.22911973947E+01	-6.01420389514E+00	-3.09962660835E-01
9.21357928659E+05	-8.67514106392E+00	1.62908439683E+02	1.02602368543E+01	1.76268867981E+02	-3.82955858515E+01	-1.43611355826E+02	-5.98419104087E+00	-3.90832000943E-01
9.43549283254E+05	-1.23022201328E+01	-1.71621679721E+02	1.02590752189E+01	1.76088713054E+02	-3.77810263369E+01	1.14178126166E+02	-6.02278921435E+00	-4.69846331891E-01
9.65740637849E+05	-1.13675421130E+01	1.59321535180E+02	1.02402843074E+01	1.75816443873E+02	-5.48842228977E+01	-1.44837079450E+02	-6.00361402145E+00	-5.28280111919E-01
9.87931992444E+05	-9.22075701119E+00	-1.78682919755E+02	1.02683458079E+01	1.75742841144E+02	-3.71539753932E+01	8.82996589695E+01	-5.98038795487E+00	-4.61976505031E-01
1.01012334704E+06	-1.20550900614E+01	1.62500695480E+02	1.02751192413E+01	1.75399436758E+02	-4.00198295531E+01	-1.30415083407E+02	-5.99918984612E+00	-5.94603847880E-01
1.03231470163E+06	-1.11762036824E+01	1.67256001926E+02	1.02496011904E+01	1.75278312948E+02	-4.50608062069E+01	1.62739142201E+02	-6.01815584819E+00	-4.23520916284E-01
1.05450605623E+06	-1.10761008492E+01	1.67655259607E+02	1.02513797865E+01	1.75310167449E+02	-3.88241818584E+01	1.12218546323E+02	-6.02330865521E+00	-1.55134447585E-01
1.07669741082E+06	-9.01035910840E+00	-1.77621774548E+02	1.02660531661E+01	1.75155738635E+02	-3.51339848761E+01	-1.85637386494E+01	-5.99158965314E+00	-4.99604571763E-01
1.09888876542E+06	-1.34623190145E+01	1.74130128173E+02	1.02847673632E+01	1.74951208954E+02	-3.65040890474E+01	-1.62031919426E+02	-6.04064815292E+00	-6.59271438687E-01
1.12108012001E+06	-9.47504519369E+00	-1.73247774654E+02	1.02165933356E+01	1.74570562070E+02	-4.94573850542E+01	-1.63553487564E+02	-6.06576018916E+00	-6.12816638940E-01
1.14327147461E+06	-1.09914503913E+01	1.73911970329E+02	1.02864132048E+01	1.74736588346E+02	-4.47927363037E+01	1.53766271249E+02	-6.06097607828E+00	-6.28342704934E-01
1.16546282920E+06	-7.98449148546E+00	1.59455854928E+02	1.02756703568E+01	1.74801485383E+02	-3.83380358833E+01	1.42491896817E+02	-6.01561943596E+00	-5.85704997842E-01
1.18765418380E+06	-8.40125268569E+00	1.50145650158E+02	1.02441794702E+01	1.74075380377E+02	-4.04472007933E+01	4.21835118254E+01	-5.99621603448E+00	-7.42095009218E-01
1.20984553839E+06	-1.23544000764E+01	-1.61083202801E+02	1.02868503599E+01	1.74074181272E+02	-4.32775648657E+01	-1.01927147560E+02	-6.03688508455E+00	-9.47208228002E-01
1.23203689299E+06	-1.23476956306E+01	1.76114368820E+02	1.03145879060E+01	1.74240959891E+02	-3.85064440042E+01	1.45610222697E+02	-6.04628120312E+00	-1.64203723261E-01
1.25422824758E+06	-8.52770684080E+00	-1.71402141730E+02	1.02526109078E+01	1.74219786967E+02	-4.26791549035E+01	2.61499374557E+01	-6.02491202600E+00	-6.18681407130E-01
1.27641960218E+06	-1.30378235092E+01	1.70379966655E+02	1.02506755367E+01	1.74184948474E+02	-4.28200202025E+01	-8.63282191506E+01	-6.01533875691E+00	-5.21542148384E-01
1.29861095677E+06	-8.08756086575E+00	-1.75192141825E+02	1.02164980089E+01	1.73816187441E+02	-4.03549022194E+01	1.46595130419E+02	-6.05667143618E+00	-6.83632933974E-01
1.32080231137E+06	-8.59442164883E+00	1.72146523043E+02	1.02547970344E+01	1.73403863762E+02	-4.35511438898E+01	-1.11299365694E+02	-6.01936833757E+00	-1.03332804435E+00
1.34299366596E+06	-1.00032219202E+01	1.59035464068E+02	1.02202409049E+01	1.73608566710E+02	-4.10661517062E+01	6.27057093927E+01	-6.01686519625E+00	-9.96539072349E-01
1.36518502056E+06	-1.04721595170E+01	1.73773810895E+02	1.02810914988E+01	1.73026471519E+02	-4.04164901446E+01	1.54766468675E+02	-6.06622815447E+00	-7.52732816491E-01
1.38737637515E+06	-9.11937924547E+00	1.67655087298E+02	1.02146538044E+01	1.73241189543E+02	-4.26398589349E+01	7.39752351802E+01	-6.06675729275E+00	-5.67280527631E-01
1.40956772975E+06	-1.09271362167E+01	1.77497331765E+02	1.02552859487E+01	1.73043453961E+02	-4.57411196736E+01	-2.15352628874E+01	-6.01262826412E+00	-7.10875773846E-01
1.43175908434E+06	-1.14827609694E+01	1.57954428126E+02	1.02171673955E+01	1.72876393101E+02	-4.63195832159E+01	1.00430449155E+02	-6.04891586192E+00	-6.90554903934E-01
1.45395043894E+06	-1.07176782919E+01	-1.73829419099E+02	1.02447990177E+01	1.72557195342E+02	-4.98094075057E+01	5.74701134232E+01	-5.99258749013E+00	-4.23251941902E-01
1.47614179353E+06	-1.23624357104E+01	-1.73018782658E+02	1.02430274623E+01	1.72567157172E+02	-3.51816706454E+01	5.11821532502E+01	-6.01536045217E+00	-7.09997287713E-01
1.49833314813E+06	-1.32460517614E+01	-1.76159542146E+02	1.02250000917E+01	1.72236433235E+02	-4.46852604415E+01	8.82262700337E+01	-6.04241958891E+00	-9.22019594942E-01
1.52052450272E+06	-8.16684588211E+00	1.78218851881E+02	1.02415195407E+01	1.71991928378E+02	-4.70147171434E+01	-1.74409968475E+02	-6.02869551507E+00	-9.55193448180E-01
1.54271585732E+06	-8.31913213452E+00	-1.73776458772E+02	1.02645078486E+01	1.72081577724E+02	-3.83548491011E+01	6.51606169469E+01	-6.06358680647E+00	-1.01387295972E+00
1.56490721191E+06	-7.62225983954E+00	1.75963295311E+02	1.02834428386E+01	1.71748704391E+02	-4.63786278818E+01	6.83631528878E+01	-6.06230207025E+00	-7.67343120184E-01
1.58709856651E+06	-7.44005885146E+00	-1.76310237575E+02	1.02604636532E+01	1.72024614628E+02	-4.22724658731E+01	1.09132422440E+02	-6.00439919648E+00	-5.33106997117E-01
1.60928992110E+06	-1.05604172818E+01	-1.66444052440E+02	1.02811834976E+01	1.71624794223E+02	-5.17803700794E+01	-7.26922000258E+01	-6.04993963885E+00	-7.99588503429E-01
1.63148127570E+06	-9.69387804862E+00	1.60989344547E+02	1.02278136055E+01	1.71890527382E+02	-4.21208861687E+01	1.27251277018E+02	-6.01982862179E+00	-6.68371393932E-01
1.65367263029E+06	-1.50313649315E+01	1.74077197731E+02	1.02214665779E+01	1.71455873139E+02	-4.40929743053E+01	5.47090143528E+01	-6.05145660925E+00	-7.29184501814E-01
1.67586398489E+06	-9.62303242300E+00	1.77520201839E+02	1.02629443647E+01	1.71498103518E+02	-3.99844019279E+01	-1.84084594880E+00	-6.02456092047E+00	-7.42017811158E-01
1.69805533948E+06	-1.35521080682E+01	-1.75283767513E+02	1.02671893534E+01	1.71108877533E+02	-3.96702957993E+01	-6.12344402610E+01	-5.99725562997E+00	-8.64181365227E-01
1.72024669408E+06	-7.59042749569E+00	1.66529254111E+02	1.02881447536E+01	1.70758245867E+02	-4.20246398516E+01	-6.03292969000E+01	-6.07173486114E+00	-7.72507905225E-01
1.74243804867E+06	-9.73040400917E+00	1.74054375576E+02	1.03021809431E+01	1.70898463264E+02	-3.76846940300E+01	-7.27323090967E+01	-6.01336444173E+00	-1.02615419951E+00
1.76462940327E+06	-1.14427035498E+01	-1.60356048395E+02	1.02320139901E+01	1.70916652540E+02	-4.41459895437E+01	1.03642997568E+02	-5.99980821677E+00	-1.06036531123E+00
1.78682075786E+06	-1.21641253666E+01	-1.78826672266E+02	1.02873504862E+01	1.70514318366E+02	-3.97306270482E+01	-1.54583372453E+02	-6.03589135466E+00	-1.16645373188E+00
1.80901211246E+06	-1.07383433355E+01	1.79608540039E+02	1.02134945716E+01	1.70603503664E+02	-4.42307580097E+01	8.38189148836E+01	-6.01667952817E+00	-8.47892378467E-01
1.83120346705E+06	-8.67100374969E+00	1.65144976712E+02	1.02600824646E+01	1.70577751197E+02	-5.05757609962E+01	-1.36793618741E+02	-6.01882906420E+00	-9.32971126452E-01
1.85339482165E+06	-9.93910031114E+00	-1.38469202975E+02	1.02709543124E+01	1.71029134799E+02	-4.03149758578E+01	-6.19303963432E+01	-5.99111015830E+00	-1.24607618562E+00
1.87558617624E+06	-8.94541465424E+00	1.72798609406E+02	1.02557064094E+01	1.70178098132E+02	-5.28361793337E+01	1.68219646572E+02	-6.05393461969E+00	-1.04788513640E+00
1.89777753084E+06	-1.04374773842E+01	1.64710427481E+02	1.02612044312E+01	1.69917907769E+02	-3.88474034409E+01	-3.09419650776E+01	-6.03062685119E+00	-8.60689787998E-01
1.91996888543E+06	-1.01154588021E+01	-1.54804203971E+02	1.02286966302E+01	1.70042682160E+02	-5.75444320626E+01	8.55065414724E+01	-6.03897430710E+00	-8.93636188607E-01
1.94216024003E+06	-7.07565121707E+00	-1.70628905230E+02	1.02928644191E+01	1.69702971196E+02	-3.95066178060E+01	2.08973572485E-01	-6.01886235454E+00	-8.30398396489E-01
1.96435159462E+06	-1.10849210718E+01	1.65981826363E+02	1.02371572729E+01	1.69694273950E+02	-3.87824272481E+01	-1.58465497954E+02	-6.02070478016E+00	-8.84711913486E-01
1.98654294922E+06	-8.85317262523E+00	1.76732947074E+02	1.02256960149E+01	1.69561460929E+02	-4.21209362449E+01	9.67992288807E+01	-6.05208432735E+00	-9.78819346861E-01
2.00873430381E+06	-8.73959072899E+00	1.56433309907E+02	1.02033959836E+01	1.69631256982E+02	-4.85340533573E+01	-5.67077823703E+01	-6.02699594480E+00	-7.83971896177E-01
2.03092565841E+06	-8.37970071612E+00	-1.49881213021E+02	1.02406480651E+01	1.69424058311E+02	-4.18454720230E+01	-8.57695298570E+01	-5.98421214778E+00	-8.38920165099E-01
2.05311701300E+06	-1.20100669128E+01	-1.62635907536E+02	1.02452919677E+01	1.69283517832E+02	-3.96629488524E+01	-9.86743059608E+01	-6.03807531834E+00	-8.82558979285E-01
2.07530836760E+06	-1.18865515625E+01	1.62648123382E+02	1.02494058832E+01	1.69026001224E+02	-6.63260548861E+01	-7.01926601337E+01	-6.06848351893E+00	-1.13331837215E+00
2.09749972219E+06	-1.22375542363E+01	1.78558409010E+02	1.02598239528E+01	1.68636682960E+02	-5.05895392350E+01	-1.23580631988E+02	-5.98809618117E+00	-1.16384609643E+00
2.11969107679E+06	-9.68566063235E+00	1.73824632247E+02	1.02197002748E+01	1.68978878364E+02	-5.01398295114E+01	1.52207841839E+02	-6.02488338129E+00	-1.11856143023E+00
2.14188243138E+06	-9.85126843541E+00	1.71719440482E+02	1.02381186597E+01	1.68430619524E+02	-4.03421563005E+01	-1.27383226285E+02	-6.02438986566E+00	-9.13341576061E-01
2.16407378598E+06	-9.89657066088E+00	1.78268529333E+02	1.02893650700E+01	1.68731451782E+02	-4.29047095047E+01	-1.53932882344E+02	-6.01029038830E+00	-1.34972750936E+00
2.18626514057E+06	-9.40116383823E+00	1.59579712364E+02	1.01980200477E+01	1.68696981309E+02	-4.06065698497E+01	-1.12240510991E+02	-6.01527003489E+00	-1.08625428854E+00
2.20845649517E+06	-9.47127975496E+00	1.66783739186E+02	1.02750192918E+01	1.68342933361E+02	-4.28117541671E+01	7.62542589844E+01	-6.03007621334E+00	-1.30035104335E+00
2.23064784976E+06	-1.05529227527E+01	-1.79252518296E+02	1.02027978570E+01	1.68209510068E+02	-4.22257277092E+01	1.34667897125E+02	-6.02515957424E+00	-1.14829857283E+00
2.25283920436E+06	-1.00333151249E+01	-1.59589930132E+02	1.02057232624E+01	1.68074001850E+02	-4.21751060086E+01	2.60948414924E+01	-6.01587162617E+00	-1.13238543441E+00
2.27503055895E+06	-9.88966365824E+00	1.66428653016E+02	1.01150074494E+01	1.67795042871E+02	-3.68867585726E+01	6.65597004744E+01	-6.02820604534E+00	-1.25802115648E+00
2.29722191355E+06	-9.95128576712E+00	-1.79310722659E+02	1.02982295721E+01	1.67851181211E+02	-3.68975067303E+01	1.53811419328E+02	-6.04457175751E+00	-1.11823682574E+00
2.31941326814E+06	-8.17313989528E+00	1.77362377543E+02	1.02469461322E+01	1.67660311342E+02	-4.59631073223E+01	-1.26398919033E+02	-5.98932281349E+00	-9.87800980258E-01
2.34160462274E+06	-6.48865849561E+00	1.72182171865E+02	1.02725402109E+01	1.67868621881E+02	-3.99539060195E+01	1.45081304504E+02	-5.99574575174E+00	-1.15884936327E+00
2.36379597733E+06	-1.14343886144E+01	1.74322454849E+02	1.02620033931E+01	1.67130602901E+02	-4.60000096144E+01	-8.86006285056E+01	-6.06366363111E+00	-1.02038164372E+00
2.38598733193E+06	-9.72776544014E+00	1.66548536772E+02	1.02371078046E+01	1.66943530260E+02	-4.80078792262E+01	-1.54093604082E+02	-6.04790668609E+00	-1.01538129245E+00
2.40817868652E+06	-8.76665592354E+00	1.60974531911E+02	1.02182935779E+01	1.67384737726E+02	-3.14924743037E+01	6.97708024280E-01	-6.03095120783E+00	-1.11133382943E+00
2.43037004112E+06	-9.11080035952E+00	-1.74920625677E+02	1.02558903955E+01	1.67238333474E+02	-4.37270445522E+01	6.07683928038E+01	-5.99587586504E+00	-1.41713851314E+00
2.45256139571E+06	-1.13033058666E+01	-1.51300819768E+02	1.02020886671E+01	1.67561940087E+02	-4.05733782865E+01	-1.49478871161E+01	-6.02788758492E+00	-8.21045268009E-01
2.47475275031E+06	-8.51054817509E+00	1.77766560268E+02	1.02454699110E+01	1.67022781012E+02	-3.61412341216E+01	7.43098798748E+01	-6.00134818936E+00	-1.04383522745E+00
2.49694410490E+06	-1.54496705978E+01	-1.68753030953E+02	1.02167931542E+01	1.66754533793E+02	-5.05882224378E+01	7.88717528676E+01	-6.04816346338E+00	-9.87993589699E-01
2.51913545950E+06	-9.14309876233E+00	-1.62076116212E+02	1.02163045789E+01	1.66640829573E+02	-3.64077797097E+01	5.08514320300E+01	-6.07293545727E+00	-1.23547802764E+00
2.54132681409E+06	-9.29778931034E+00	-1.74342981145E+02	1.02299366287E+01	1.66593904545E+02	-4.33427915051E+01	-1.10714317010E+02	-6.07229852213E+00	-1.17137960487E+00
2.56351816869E+06	-8.81298106109E+00	1.67576282066E+02	1.02441310062E+01	1.66101592876E+02	-4.01177624315E+01	1.45294006322E+02	-6.04580116007E+00	-9.56514163390E-01
2.58570952328E+06	-9.55216243212E+00	-1.63192452365E+02	1.02962274272E+01	1.66231408089E+02	-4.85982028161E+01	-1.66676369910E+02	-6.02291683201E+00	-1.28749763700E+00
2.60790087788E+06	-1.04050815231E+01	1.67918235753E+02	1.02481678042E+01	1.66136893481E+02	-5.03386670638E+01	3.93567093779E+01	-6.03396021424E+00	-9.86176876736E-01
2.63009223247E+06	-1.01873110375E+01	1.76530528185E+02	1.03175829393E+01	1.65946174440E+02	-3.55906044685E+01	8.41253336580E+00	-5.97994704518E+00	-1.49603012282E+00
2.65228358707E+06	-1.20484211416E+01	1.63337575308E+02	1.02712259077E+01	1.66014199586E+02	-4.14429254287E+01	-1.53518198667E+02	-6.01140377529E+00	-1.39148866470E+00
2.67447494166E+06	-1.03481121046E+01	1.79140853064E+02	1.02605446958E+01	1.65711879432E+02	-3.31212659508E+01	-1.79636667252E+01	-5.99963795786E+00	-1.50737535977E+00
2.69666629626E+06	-7.06845824484E+00	-1.74480673753E+02	1.02297863437E+01	1.65843789714E+02	-4.47608859502E+01	7.08289374814E+01	-5.99643459284E+00	-1.27970936123E+00
2.71885765085E+06	-9.41103399102E+00	-1.72121794879E+02	1.02812377094E+01	1.65747629386E+02	-5.14240625715E+01	-4.16945215737E+00	-6.05070764369E+00	-1.40489693454E+00
2.74104900545E+06	-8.16316011321E+00	1.67696050860E+02	1.02458942740E+01	1.64871678359E+02	-4.15141369710E+01	-7.95554288057E+01	-6.00125939778E+00	-9.65474248084E-01
2.76324036004E+06	-7.55803202490E+00	-1.71833248866E+02	1.02147481197E+01	1.65249102958E+02	-4.59218498400E+01	1.18633888169E+02	-6.00152240072E+00	-1.40493142679E+00
2.78543171463E+06	-8.74325665425E+00	1.69434277444E+02	1.02124950548E+01	1.65146270872E+02	-4.06043009057E+01	6.74488953673E+01	-5.98865129437E+00	-1.26080653296E+00
2.80762306923E+06	-1.18525060262E+01	1.68471684171E+02	1.02595419860E+01	1.65060303598E+02	-4.63732660944E+01	-7.54486585152E+01	-6.01988547376E+00	-1.03304355187E+00
2.82981442382E+06	-9.90985298504E+00	1.65279616136E+02	1.02599418553E+01	1.65045121188E+02	-3.82536224262E+01	-1.30137178797E+02	-5.99218486127E+00	-1.18050955688E+00
2.85200577842E+06	-1.35795470413E+01	-1.69143998344E+02	1.02856153796E+01	1.65094318239E+02	-4.53590579951E+01	-1.39968991506E+02	-6.01576770548E+00	-1.44965883273E+00
2.87419713301E+06	-1.05217183388E+01	-1.73795211596E+02	1.02251544268E+01	1.64862116719E+02	-4.55013105865E+01	-1.05802566990E+02	-5.97438752350E+00	-1.45620823083E+00
