# Hz S DB R 50
! CMT, M5065, 19127446, 24.2.4/2
! Date: 10/29/2024 1:08:21 PM
! Data: Format (Calibration Info)
! Freq	S11:dB/Ang(F2)	S21:dB/Ang(F2)	S12:dB/Ang(F2)	S22:dB/Ang(F2)
3.00000000000E+05	-9.47118760194E+00	1.52855478473E+02	6.49128552696E+00	-1.78088423081E+02	-4.28154342134E+01	1.44775915863E+01	-6.03247507177E+00	-1.58708654129E-01
3.22191354595E+05	-6.40125386640E+00	-1.71855241231E+02	6.60923900052E+00	-1.78243116725E+02	-4.65844682826E+01	-4.84924762080E+01	-6.01867450728E+00	-1.80378376125E-01
3.44382709190E+05	-7.23647794302E+00	-1.73629119761E+02	6.56795237624E+00	-1.78603752738E+02	-3.42831025650E+01	-3.47181236907E+01	-6.03928103326E+00	-2.19311860266E-01
3.66574063785E+05	-9.63138297545E+00	-1.51625554034E+02	6.50568136547E+00	-1.78741963584E+02	-3.47826855102E+01	-9.76042381006E+01	-6.03541440259E+00	-3.40361962289E-01
3.88765418380E+05	-8.50792009930E+00	-1.79051250535E+02	6.59699633452E+00	-1.78760318068E+02	-4.33443266054E+01	5.69172594508E+01	-6.06817535174E+00	-4.67166925171E-01
4.10956772975E+05	-9.78227247184E+00	-1.78182610493E+02	6.55634203418E+00	-1.79772563574E+02	-4.45788493380E+01	4.65027438661E+01	-6.05385664023E+00	-2.60152176377E-01
4.33148127570E+05	-7.19524864576E+00	-1.75932382155E+02	6.57693798315E+00	-1.79490560214E+02	-4.44107372664E+01	5.50627827812E+01	-6.05325822549E+00	-2.72772282103E-01
4.55339482165E+05	-9.40865210573E+00	-1.65122056300E+02	6.54040025239E+00	1.79940500372E+02	-4.26501582002E+01	-1.51263944488E+02	-6.04637088871E+00	-4.60861181652E-01
4.77530836760E+05	-8.26393265087E+00	1.56546122264E+02	6.53496505836E+00	-1.79853279415E+02	-4.54018278197E+01	-1.60223415517E+01	-5.99998415764E+00	-4.24209108071E-01
4.99722191355E+05	-9.02901309690E+00	-1.63239914603E+02	6.61667281005E+00	1.79364269466E+02	-4.20091323575E+01	-9.30561679127E+01	-6.01174178298E+00	-2.73612357706E-01
5.21913545950E+05	-9.30309038473E+00	-1.58995924214E+02	6.52829295765E+00	1.79527644452E+02	-4.91400300162E+01	-3.88981531943E+00	-6.03926183748E+00	-2.82425492987E-01
5.44104900545E+05	-9.09930704001E+00	-1.74590757649E+02	6.51199810850E+00	1.79120778524E+02	-3.37049574497E+01	-1.47049460851E+01	-6.03603712841E+00	-2.62625131709E-01
5.66296255139E+05	-7.00831721416E+00	-1.74719133553E+02	6.58550801406E+00	1.79957887490E+02	-4.23574369035E+01	1.11078625124E+02	-6.06050462814E+00	-1.81188768079E-01
5.88487609734E+05	-9.95791404698E+00	-1.57672420758E+02	6.61289146118E+00	1.78788343851E+02	-5.23412049359E+01	1.76763530123E+02	-6.00341840585E+00	-4.04325974511E-01
6.10678964329E+05	-1.11822601721E+01	-1.52847566576E+02	6.56643175962E+00	1.78863942125E+02	-3.29747429238E+01	4.46719328212E+01	-6.00644200815E+00	6.77943767447E-03
6.32870318924E+05	-1.13822478835E+01	1.63041364682E+02	6.61262883601E+00	1.78385967156E+02	-3.98315950839E+01	1.56639900574E+02	-6.03746838816E+00	-3.33198276566E-01
6.55061673519E+05	-1.40271902003E+01	1.73537986637E+02	6.70667007919E+00	1.78244090275E+02	-5.02359142479E+01	-5.69906145601E+00	-6.04822018185E+00	-3.35020995765E-01
6.77253028114E+05	-1.71883864918E+01	-1.66913133362E+02	6.55050255237E+00	1.78928079394E+02	-3.69518165477E+01	8.79169505753E+01	-6.02225201590E+00	-7.47632919552E-01
6.99444382709E+05	-9.52707727235E+00	-1.76174864496E+02	6.65264891578E+00	1.78633076981E+02	-3.99732012472E+01	-5.15458072695E+01	-5.99158112450E+00	-3.26983586571E-01
7.21635737304E+05	-1.74810232235E+01	1.56996615066E+02	6.61643317547E+00	1.78063377648E+02	-3.91379425013E+01	8.62512531844E+00	-6.00284847048E+00	-4.88588522053E-01
7.43827091899E+05	-1.00081445630E+01	-1.61092811288E+02	6.63157048979E+00	1.77588509947E+02	-3.84332029851E+01	1.65078487356E+02	-6.05379180202E+00	-3.76711716073E-01
7.66018446494E+05	-1.55488798468E+01	1.73893646161E+02	6.53914915023E+00	1.78140627156E+02	-4.61908117655E+01	-9.18648647383E+01	-6.04144477329E+00	-5.59360881659E-01
7.88209801089E+05	-1.03699381868E+01	-1.79952874387E+02	6.61548743313E+00	1.77811756355E+02	-3.63571704291E+01	-1.36653161253E+02	-6.04007996264E+00	-6.62189105510E-01
8.10401155684E+05	-8.47057646542E+00	-1.76244276644E+02	6.63437625059E+00	1.77525283450E+02	-3.94374424359E+01	1.11190577942E+02	-6.01615899436E+00	-4.82806541269E-01
8.32592510279E+05	-7.17424487396E+00	1.73158729418E+02	6.61381365971E+00	1.76993670926E+02	-3.88997301996E+01	-1.77548108352E+00	-6.04885958189E+00	-3.50361558847E-01
8.54783864874E+05	-1.11440598489E+01	1.56016606409E+02	6.51416240766E+00	1.77689811933E+02	-3.95320394976E+01	1.77669507062E+02	-6.00580287628E+00	-5.78742495845E-01
8.76975219469E+05	-9.61262544894E+00	1.61802561033E+02	6.54866902539E+00	1.77388175891E+02	-4.40268712229E+01	1.46870184284E+02	-6.07516239355E+00	-6.10853175804E-01
8.99166574064E+05	-7.79147741706E+00	1.57351535396E+02	6.59169659692E+00	1.77277626799E+02	-3.65271906034E+01	6.62000468684E+00	-5.99258958413E+00	-5.88393948341E-01
9.21357928659E+05	-1.11466524435E+01	1.63881755050E+02	6.61165329580E+00	1.77009108678E+02	-4.21749983419E+01	5.42666535464E+01	-6.05032701145E+00	-6.42802910192E-01
9.43549283254E+05	-1.26449251049E+01	-1.44414377752E+02	6.57931802278E+00	1.77034522460E+02	-4.02710306759E+01	-1.04815765091E+02	-6.06314370770E+00	-4.40438869885E-01
9.65740637849E+05	-9.08430803497E+00	1.48718398950E+02	6.61099810426E+00	1.76443640697E+02	-4.58418952060E+01	1.08264603213E+02	-6.04243936127E+00	-5.56122000241E-01
9.87931992444E+05	-9.35019964053E+00	-1.72691079498E+02	6.62426649342E+00	1.76715692587E+02	-3.73540156127E+01	-1.17504994510E+02	-6.01291773933E+00	-5.59340649842E-01
1.01012334704E+06	-1.09147379989E+01	-1.68599554123E+02	6.62989464257E+00	1.75755987514E+02	-3.59830082763E+01	1.16836694966E+02	-6.03935027987E+00	-4.97861518622E-01
1.03231470163E+06	-1.19210177724E+01	-1.67441357815E+02	6.57078056168E+00	1.76366983888E+02	-3.95121650525E+01	-1.47413861125E+02	-6.05229205397E+00	-6.03965755539E-01
1.05450605623E+06	-9.84740327009E+00	-1.56779646037E+02	6.55541479439E+00	1.75957200168E+02	-3.84212655752E+01	1.50061241379E+01	-6.02272782938E+00	-4.47922618414E-01
1.07669741082E+06	-9.01285094710E+00	-1.56531459593E+02	6.56451799790E+00	1.76097382292E+02	-4.81322924059E+01	8.18381539841E+01	-6.02356973492E+00	-5.18165558676E-01
1.09888876542E+06	-1.32264393153E+01	1.73383265384E+02	6.55545990073E+00	1.76021003288E+02	-3.62364209929E+01	7.01163131480E+01	-6.06290629607E+00	-6.15327800500E-01
1.12108012001E+06	-7.54536745036E+00	-1.78520777468E+02	6.65851652594E+00	1.75397026587E+02	-4.62649292526E+01	5.98165657371E+01	-6.02058144031E+00	-7.43051154549E-01
1.14327147461E+06	-7.48685900839E+00	1.71287742489E+02	6.58456127770E+00	1.75340789536E+02	-4.42976183063E+01	3.58824360714E+00	-6.03822955448E+00	-7.73931055290E-01
1.16546282920E+06	-1.23301245941E+01	1.72445188552E+02	6.54809097324E+00	1.75824573055E+02	-4.16499634148E+01	-5.11031573799E+01	-6.00025509310E+00	-6.91140059267E-01
1.18765418380E+06	-7.53971772953E+00	1.73827611365E+02	6.59215142486E+00	1.75304282800E+02	-3.81999656673E+01	-1.13096200735E+02	-6.06879658443E+00	-8.71759448414E-01
1.20984553839E+06	-1.00641627712E+01	1.72499388805E+02	6.62418936016E+00	1.75123835890E+02	-3.66167690073E+01	5.18068201864E+01	-6.04245276130E+00	-9.71405631655E-01
1.23203689299E+06	-1.05882323020E+01	-1.58138587243E+02	6.60429680306E+00	1.75152898613E+02	-4.02734121855E+01	9.34400477374E+01	-5.98521018480E+00	-5.88669563415E-01
1.25422824758E+06	-1.17141148803E+01	1.74846157806E+02	6.57368065103E+00	1.75304852044E+02	-4.53535365313E+01	1.30665301545E+02	-6.00295334978E+00	-9.03862365763E-01
1.27641960218E+06	-1.34246661790E+01	-1.77224630053E+02	6.58681834050E+00	1.75407903306E+02	-4.17584964397E+01	1.38617456625E+01	-6.01273876363E+00	-6.31866784949E-01
1.29861095677E+06	-1.07622326100E+01	1.65022295430E+02	6.52907718661E+00	1.74729801197E+02	-4.02492100115E+01	-1.13476943577E+01	-6.04450973241E+00	-7.79537457311E-01
1.32080231137E+06	-7.95678727541E+00	1.63649999561E+02	6.67394502406E+00	1.74082772968E+02	-4.75005375952E+01	1.33951761146E+02	-6.02249261204E+00	-8.57565348527E-01
1.34299366596E+06	-1.10291531501E+01	-1.73015996126E+02	6.55833788675E+00	1.74727040715E+02	-4.51596091422E+01	1.06796900598E+02	-6.03819845660E+00	-8.83796506059E-01
1.36518502056E+06	-1.00918501337E+01	-1.58569831101E+02	6.56893180089E+00	1.74253743712E+02	-3.88700069410E+01	-1.79891351798E+02	-6.05327198317E+00	-6.31982455603E-01
1.38737637515E+06	-7.39255677684E+00	-1.77081529868E+02	6.62219901166E+00	1.74549814840E+02	-4.06735154350E+01	1.94610123923E+01	-6.04098033316E+00	-9.11115578070E-01
1.40956772975E+06	-1.06554692758E+01	-1.64747369182E+02	6.53848535731E+00	1.74441993842E+02	-4.37414357505E+01	7.59960117438E+01	-6.04541270484E+00	-8.75498876256E-01
1.43175908434E+06	-9.03190693139E+00	-1.71522148521E+02	6.58554688729E+00	1.74013994983E+02	-4.53455443157E+01	-1.63853964929E+02	-6.05085399833E+00	-7.74045150712E-01
1.45395043894E+06	-9.49986201223E+00	1.79958641033E+02	6.60560719468E+00	1.73880946300E+02	-3.72434584130E+01	-1.69834486889E+02	-6.08279365318E+00	-6.97398197610E-01
1.47614179353E+06	-1.00332215930E+01	1.73135849492E+02	6.56314208583E+00	1.73995876403E+02	-4.54116740750E+01	-1.05763313579E+01	-6.01682444571E+00	-5.59119851135E-01
1.49833314813E+06	-1.02488776114E+01	1.69358104164E+02	6.60014433068E+00	1.74053589480E+02	-4.40452598810E+01	-6.92913449946E+01	-6.01992728375E+00	-7.41237315104E-01
1.52052450272E+06	-8.61098312225E+00	1.70600560655E+02	6.57561429148E+00	1.73966290770E+02	-4.32209272999E+01	2.61097195743E+01	-6.01472957460E+00	-1.12412073482E+00
1.54271585732E+06	-1.07095788359E+01	1.62509622349E+02	6.55572197946E+00	1.73450320912E+02	-3.66010828163E+01	5.83643567229E+01	-6.01232530753E+00	-9.89344757349E-01
1.56490721191E+06	-1.05004336713E+01	1.67444589963E+02	6.59040285261E+00	1.73665615812E+02	-4.27637778249E+01	9.14805004925E+01	-5.99265629044E+00	-5.71691954212E-01
1.58709856651E+06	-1.14550468468E+01	-1.54020585681E+02	6.58623204727E+00	1.73485954773E+02	-3.69438182248E+01	9.42492510967E+01	-6.03893790420E+00	-1.06146040803E+00
1.60928992110E+06	-9.73541678105E+00	1.76174901991E+02	6.54883515490E+00	1.73243928599E+02	-4.12163057594E+01	3.72065897845E+01	-5.99725842981E+00	-1.06028744442E+00
1.63148127570E+06	-1.29677767471E+01	1.46436502428E+02	6.60385819248E+00	1.73497143187E+02	-3.93483553189E+01	-4.04792814316E+01	-6.04418323331E+00	-1.14186724949E+00
1.65367263029E+06	-1.05889115943E+01	-1.75335903957E+02	6.52582501339E+00	1.72901519545E+02	-3.72519400956E+01	6.11582820595E+01	-6.03046046091E+00	-7.87534703893E-01
1.67586398489E+06	-7.66161404127E+00	-1.70600215188E+02	6.66127749438E+00	1.72831616661E+02	-3.81087745198E+01	-4.42509868954E+01	-6.02438656539E+00	-9.47333574523E-01
1.69805533948E+06	-1.10542723799E+01	1.79505376567E+02	6.52640524140E+00	1.72741405667E+02	-4.85287637687E+01	9.65214515491E+01	-6.00133043755E+00	-1.08322935475E+00
1.72024669408E+06	-9.60838047969E+00	1.72598541179E+02	6.52898542421E+00	1.72400323412E+02	-3.71181613589E+01	-8.57100076368E+01	-6.03176368314E+00	-6.41177976378E-01
1.74243804867E+06	-7.48935748471E+00	-1.73795946059E+02	6.59168069184E+00	1.72684809918E+02	-3.78480711853E+01	1.54431516652E+02	-6.03749596045E+00	-7.72594867079E-01
1.76462940327E+06	-1.09394602734E+01	1.76915101767E+02	6.55152006080E+00	1.71952903490E+02	-4.34527335432E+01	1.79922466454E+02	-6.00926763623E+00	-8.55051046273E-01
1.78682075786E+06	-1.41413842192E+01	1.72156606936E+02	6.59571598231E+00	1.72238352294E+02	-4.39945256311E+01	-6.79422754010E+01	-6.01727938943E+00	-9.49755056832E-01
1.80901211246E+06	-1.11647314807E+01	1.55644176786E+02	6.56235120724E+00	1.72696061452E+02	-3.85459369262E+01	4.09471631274E+01	-6.04001369866E+00	-1.05951969482E+00
1.83120346705E+06	-1.20694589171E+01	-1.79413243449E+02	6.60844945543E+00	1.72395724729E+02	-4.31294218750E+01	-7.82294481690E+01	-6.05534164912E+00	-9.76703315512E-01
1.85339482165E+06	-1.16560925594E+01	1.61301072377E+02	6.54918815958E+00	1.71921805221E+02	-3.39218053731E+01	3.34153987728E+01	-6.03328420841E+00	-8.17108357094E-01
1.87558617624E+06	-6.70337554766E+00	1.62020391980E+02	6.62888477133E+00	1.71891776448E+02	-5.36938391560E+01	-1.20332265074E+02	-6.02491202248E+00	-9.46358382122E-01
1.89777753084E+06	-8.21240269322E+00	1.72720383725E+02	6.52458863642E+00	1.72284995702E+02	-4.71613658195E+01	3.50281233581E+01	-6.01565131577E+00	-1.06062330092E+00
1.91996888543E+06	-9.23199519840E+00	1.54369784540E+02	6.59936866982E+00	1.71545846084E+02	-3.90723130528E+01	1.77788161424E+02	-6.06170100993E+00	-9.84575628935E-01
1.94216024003E+06	-1.01934941152E+01	-1.72537332198E+02	6.58666004818E+00	1.71704565720E+02	-3.87716754448E+01	1.54235827424E+02	-5.98615569065E+00	-1.02460740069E+00
1.96435159462E+06	-6.50879220040E+00	-1.76721003448E+02	6.52999258890E+00	1.71539585327E+02	-3.92173065117E+01	-1.68336804705E+02	-6.00023490557E+00	-1.10592675568E+00
1.98654294922E+06	-7.94740568575E+00	1.75300375655E+02	6.52442946827E+00	1.71249850237E+02	-3.82157764808E+01	3.84953872223E+01	-6.01937908902E+00	-1.08310009269E+00
2.00873430381E+06	-7.76791671071E+00	-1.54876580353E+02	6.53702007350E+00	1.70916448374E+02	-4.69012621035E+01	-3.48515409469E+01	-6.03573194439E+00	-9.07704681760E-01
2.03092565841E+06	-1.07909732113E+01	1.79276991038E+02	6.54777769172E+00	1.71668444830E+02	-4.98282846741E+01	-1.25417497755E+01	-5.99930699123E+00	-9.48228681174E-01
2.05311701300E+06	-8.72027226931E+00	-1.72722630965E+02	6.48019450245E+00	1.71527323281E+02	-5.66068296259E+01	5.82769422923E+01	-6.01252944563E+00	-1.07139393959E+00
2.07530836760E+06	-9.81675566735E+00	-1.63097798327E+02	6.65871417072E+00	1.70602826523E+02	-3.75249063197E+01	-5.78458683316E+01	-6.00888450664E+00	-1.22363111272E+00
2.09749972219E+06	-1.07200140237E+01	-1.61973689540E+02	6.56728655472E+00	1.70729865156E+02	-3.64015916530E+01	1.43208768289E+01	-6.00870266148E+00	-8.67434354497E-01
2.11969107679E+06	-8.22041033119E+00	1.74468471104E+02	6.59148157122E+00	1.71075570076E+02	-3.97336101672E+01	-2.06267406653E+01	-6.01624189034E+00	-1.07574620940E+00
2.14188243138E+06	-1.15063545991E+01	1.77664385981E+02	6.60418490639E+00	1.70070746368E+02	-4.26197432470E+01	5.23901318290E+01	-6.00718300149E+00	-8.98629368276E-01
2.16407378598E+06	-1.14867844665E+01	-1.69727501495E+02	6.54313953131E+00	1.70813681556E+02	-4.83740612056E+01	1.29041438562E+02	-6.01294752906E+00	-9.08264055262E-01
2.18626514057E+06	-1.06003240948E+01	-1.77989056512E+02	6.52104558468E+00	1.70729523717E+02	-3.61758590592E+01	-6.97271804720E+01	-5.98817136733E+00	-9.94214637535E-01
2.20845649517E+06	-1.37659250974E+01	1.63067844423E+02	6.59342822422E+00	1.70056147123E+02	-4.77340383692E+01	4.73042710176E+01	-6.01475675480E+00	-1.06846107897E+00
2.23064784976E+06	-1.02990300562E+01	1.75154594664E+02	6.59643884607E+00	1.70105110024E+02	-3.37700370746E+01	-1.14935464574E+02	-6.02676874906E+00	-1.18495060340E+00
2.25283920436E+06	-1.11941130388E+01	1.60943316411E+02	6.54190707353E+00	1.70270317605E+02	-4.42240909121E+01	-1.42171254409E+02	-6.02024722547E+00	-9.19778312571E-01
2.27503055895E+06	-8.46645986003E+00	1.72389808312E+02	6.58926965275E+00	1.70235595951E+02	-3.74245934672E+01	1.18714055060E+02	-6.01420138565E+00	-1.30103582725E+00
2.29722191355E+06	-1.04080813329E+01	-1.76201233201E+02	6.60180331283E+00	1.69706932144E+02	-4.13072381451E+01	5.60491055275E+01	-6.02887025000E+00	-1.17769868035E+00
2.31941326814E+06	-9.66654682956E+00	1.68130000203E+02	6.56636960366E+00	1.69509185338E+02	-4.30978270731E+01	-6.35673922492E+01	-6.00714975264E+00	-1.23705773089E+00
2.34160462274E+06	-1.32390175438E+01	-1.77984061298E+02	6.62873182926E+00	1.69549416589E+02	-4.43785208291E+01	1.21857280032E+02	-6.02473258610E+00	-1.18437679057E+00
2.36379597733E+06	-9.40078572135E+00	-1.61100554985E+02	6.57265311092E+00	1.69546393779E+02	-3.37630020861E+01	-1.66578185493E+02	-6.06345766336E+00	-9.11315188638E-01
2.38598733193E+06	-1.16149247963E+01	-1.69562121428E+02	6.54765446527E+00	1.70331310825E+02	-3.59286206379E+01	4.78713485915E+01	-5.98313274782E+00	-1.72296997947E+00
2.40817868652E+06	-1.07052174138E+01	-1.77535249890E+02	6.55146578182E+00	1.69316132264E+02	-4.17883983776E+01	8.86801095961E+01	-6.05131739773E+00	-1.25890413265E+00
2.43037004112E+06	-1.33587911195E+01	-1.79317467209E+02	6.56542882485E+00	1.69369781149E+02	-4.31940325006E+01	1.68610684794E+02	-6.02972103692E+00	-1.38989210876E+00
2.45256139571E+06	-9.93425610843E+00	-1.74038703118E+02	6.55650452581E+00	1.68979698885E+02	-4.63694670070E+01	7.57251491828E+01	-5.98401628678E+00	-7.04401947569E-01
2.47475275031E+06	-1.29190660549E+01	1.58397228095E+02	6.54715906500E+00	1.69112367376E+02	-4.63426273364E+01	-1.79257162452E+02	-6.02517988729E+00	-9.03808572317E-01
2.49694410490E+06	-8.78288553869E+00	1.79248847859E+02	6.57009973270E+00	1.68911166022E+02	-3.85523225300E+01	1.50066308474E+02	-6.04615832137E+00	-1.09234611254E+00
2.51913545950E+06	-9.83021204546E+00	-1.76171949178E+02	6.67007406930E+00	1.68531907226E+02	-4.69624777468E+01	-1.61653686727E+02	-6.06908324651E+00	-1.20579934653E+00
2.54132681409E+06	-1.43685866507E+01	-1.74228946357E+02	6.56237936411E+00	1.68515123543E+02	-3.65192521298E+01	9.72704171125E+01	-6.03530654085E+00	-1.10013646563E+00
2.56351816869E+06	-1.28908030666E+01	-1.78329095719E+02	6.66402446250E+00	1.69009722759E+02	-4.22384927439E+01	-1.00164170940E+02	-6.00924160461E+00	-1.22277606076E+00
2.58570952328E+06	-7.44445433282E+00	-1.60455961614E+02	6.54896225681E+00	1.68772776153E+02	-4.06742228717E+01	6.63695007367E+01	-6.06315465530E+00	-1.25549041238E+00
2.60790087788E+06	-1.17609486532E+01	1.55385607818E+02	6.56259977906E+00	1.68560671595E+02	-3.92414653733E+01	-6.43798886090E+01	-6.03351198819E+00	-1.36775327101E+00
2.63009223247E+06	-1.09691175487E+01	1.74082726358E+02	6.52731789282E+00	1.68230215179E+02	-4.99952945109E+01	4.95324642790E+01	-6.03983713447E+00	-1.26230168586E+00
2.65228358707E+06	-1.08955329236E+01	1.62614954344E+02	6.65448686385E+00	1.68140870201E+02	-3.53980200428E+01	1.60239532180E+02	-6.01064218007E+00	-1.59044941460E+00
2.67447494166E+06	-7.33667895001E+00	-1.74582761330E+02	6.61072444475E+00	1.68119895747E+02	-3.73524396952E+01	1.71818332962E+02	-6.06105057376E+00	-1.66757791469E+00
2.69666629626E+06	-1.52075731592E+01	1.79294971778E+02	6.53919020894E+00	1.68355329643E+02	-5.77740252273E+01	7.17889988082E+01	-6.03074000810E+00	-1.44407247223E+00
2.71885765085E+06	-1.13575310627E+01	1.71087497482E+02	6.52714867519E+00	1.68017391781E+02	-3.71252942568E+01	-4.66167009148E+01	-6.04970064599E+00	-1.34706519465E+00
2.74104900545E+06	-1.10258737785E+01	-1.76640130942E+02	6.51975221108E+00	1.67788397552E+02	-4.29089464664E+01	-9.45483065987E+01	-6.00356597905E+00	-1.24449638812E+00
2.76324036004E+06	-9.00311122996E+00	-1.61258549528E+02	6.58288650060E+00	1.67961437966E+02	-4.13269244492E+01	1.60022925039E+02	-5.98630194638E+00	-1.34761075585E+00
2.78543171463E+06	-9.98948376323E+00	1.72818973892E+02	6.59107141185E+00	1.67195925636E+02	-3.83248326856E+01	6.29215215531E+01	-6.03273825481E+00	-1.43782429102E+00
2.80762306923E+06	-9.77014712563E+00	-1.61420646370E+02	6.55328461188E+00	1.67629642474E+02	-3.91015227284E+01	-3.45743429842E+01	-6.05164381946E+00	-1.52715109923E+00
2.82981442382E+06	-1.39900367244E+01	-1.66219014428E+02	6.61926902890E+00	1.67122595775E+02	-3.79597072864E+01	5.10870809555E+01	-6.01935664805E+00	-1.20045658908E+00
2.85200577842E+06	-8.46209689826E+00	1.47014818094E+02	6.56488686969E+00	1.67449940012E+02	-3.86749023171E+01	-8.09242539023E+01	-6.00914088941E+00	-1.48838026624E+00
2.87419713301E+06	-1.09929354976E+01	-1.72386682595E+02	6.56539497202E+00	1.67015025642E+02	-5.20273695505E+01	3.94985822811E+01	-6.03139350505E+00	-1.50119607749E+00
