# Hz S DB R 50
! CMT, M5065, 19127446, 24.2.4/2
! Date: 11/8/2024 5:11:30 PM
! Data: Format (Calibration Info)
! Freq	S11:dB/Ang(F2)	S21:dB/Ang(F2)	S12:dB/Ang(F2)	S22:dB/Ang(F2)
3.00000000000E+05	-1.42881596958E+01	-1.78712393202E+02	1.02235616704E+01	-1.77159572336E+02	-3.84908855174E+01	5.82738719371E+01	-5.87778676159E+00	-4.80998024787E-01
3.22191354595E+05	-1.31836881948E+01	-1.67427477319E+02	1.02343961995E+01	-1.77945113669E+02	-4.21158588881E+01	-1.07441726880E+02	-5.87517646364E+00	-4.68503099124E-01
3.44382709190E+05	-1.37722131603E+01	-1.74402803607E+02	1.02294576616E+01	-1.78174548879E+02	-5.23743133351E+01	-1.58638888476E+00	-5.85208458437E+00	-3.26731944871E-01
3.66574063785E+05	-1.31294456007E+01	1.71879812812E+02	1.02159818699E+01	-1.78384783195E+02	-5.01224827309E+01	-1.01831575323E+02	-5.84584525435E+00	-3.09496948940E-01
3.88765418380E+05	-1.36086685436E+01	-1.65323831637E+02	1.01994817806E+01	-1.78967827193E+02	-4.47179005742E+01	9.72040698546E+01	-5.87821569829E+00	-6.25829015222E-01
4.10956772975E+05	-1.18419894066E+01	1.79196192168E+02	1.02025321120E+01	-1.79183906266E+02	-4.39482968493E+01	1.60948562804E+02	-5.87943740669E+00	-3.85138368786E-01
4.33148127570E+05	-1.07209353484E+01	-1.76613733651E+02	1.02018952134E+01	-1.79573467261E+02	-4.64105917904E+01	-1.76700397547E+02	-5.87945412939E+00	-3.67287871069E-01
4.55339482165E+05	-1.09545522132E+01	-1.77481145910E+02	1.02308191960E+01	-1.79825298820E+02	-4.32804250126E+01	2.47127057878E+01	-5.86269097605E+00	-3.36966137283E-01
4.77530836760E+05	-1.46999043413E+01	-1.74351440520E+02	1.02503717474E+01	-1.79660682438E+02	-4.88544440821E+01	-1.08164055640E+02	-5.89276006930E+00	-2.71709867530E-01
4.99722191355E+05	-1.09841222891E+01	-1.73446729955E+02	1.02083164817E+01	1.79755533600E+02	-4.33535032345E+01	-1.21239585205E+02	-5.85041271644E+00	-2.56261109378E-01
5.21913545950E+05	-2.21524179703E+01	1.79128850598E+02	1.02775790510E+01	1.79724001830E+02	-4.48592019179E+01	-8.24009349835E+01	-5.89427596188E+00	-6.26010322666E-02
5.44104900545E+05	-1.32952975408E+01	1.70784601596E+02	1.02392609380E+01	1.79490935472E+02	-4.59456793564E+01	-1.55793901701E+02	-5.85172257416E+00	-3.53996136627E-01
5.66296255139E+05	-1.31928035335E+01	1.73471961265E+02	1.02331692176E+01	1.79390127111E+02	-4.96774378415E+01	1.19452238146E+02	-5.85047166950E+00	-4.61003484190E-01
5.88487609734E+05	-1.52282042858E+01	1.78027294810E+02	1.02536345388E+01	1.79059577070E+02	-4.52526358414E+01	-9.10983470516E+01	-5.86596184221E+00	-2.85753357728E-01
6.10678964329E+05	-1.23386664899E+01	1.61996305051E+02	1.02123901767E+01	1.79208461408E+02	-4.51820877195E+01	1.59713834347E+02	-5.88051447663E+00	1.94651970381E-02
6.32870318924E+05	-1.33289502817E+01	1.69633415643E+02	1.02317198277E+01	1.78730724270E+02	-5.77760519375E+01	1.08806331853E+02	-5.86765498341E+00	-1.99867831672E-01
6.55061673519E+05	-1.54712828880E+01	-1.79894084947E+02	1.02304602580E+01	1.78403878690E+02	-4.47699686565E+01	2.34186714928E+01	-5.89811198606E+00	-4.39359419329E-01
6.77253028114E+05	-1.07240862457E+01	-1.75331455538E+02	1.02253693720E+01	1.78180351915E+02	-5.51446094994E+01	-1.54016068069E+02	-5.84797619314E+00	-6.71471822471E-01
6.99444382709E+05	-1.69695146765E+01	-1.78788477492E+02	1.02903465837E+01	1.78059410330E+02	-4.90915348927E+01	-8.29563459975E+01	-5.87970965188E+00	-3.67160723641E-01
7.21635737304E+05	-1.23650298830E+01	1.64307625717E+02	1.02423551307E+01	1.78180311168E+02	-4.46032041167E+01	1.17117314899E+01	-5.86336122382E+00	-4.02685028737E-01
7.43827091899E+05	-1.58939859391E+01	-1.70023250534E+02	1.02883272038E+01	1.77691228191E+02	-5.26827401971E+01	1.10857888260E+02	-5.87653671515E+00	-4.79889210742E-01
7.66018446494E+05	-1.21782320850E+01	1.62558551453E+02	1.02410084095E+01	1.77700274404E+02	-3.53787560504E+01	2.46251420318E+01	-5.86983926506E+00	-7.56708044490E-01
7.88209801089E+05	-1.14626840371E+01	-1.74678340221E+02	1.02077870742E+01	1.77142302982E+02	-3.76416359548E+01	4.72478594775E+01	-5.90218536806E+00	-5.88871128021E-01
8.10401155684E+05	-1.05982279008E+01	-1.61557127449E+02	1.02419755048E+01	1.77105015085E+02	-5.09760185120E+01	-1.47289342029E+02	-5.87865778020E+00	-4.34980339903E-01
8.32592510279E+05	-1.08768124477E+01	-1.57248399865E+02	1.02264720612E+01	1.77103938041E+02	-4.68142192713E+01	-9.98092691317E+00	-5.90080614597E+00	-5.20431205282E-01
8.54783864874E+05	-1.34254804840E+01	-1.72522948663E+02	1.02497561260E+01	1.76880439925E+02	-5.28562781563E+01	-6.76162254839E+01	-5.88789535316E+00	-5.31956984432E-01
8.76975219469E+05	-1.64003140201E+01	-1.74571572617E+02	1.02552267116E+01	1.77054248330E+02	-4.69505225450E+01	1.00796355644E+02	-5.86416313917E+00	-5.79917564156E-01
8.99166574064E+05	-1.13092099446E+01	-1.68098835666E+02	1.02390445416E+01	1.76539580640E+02	-5.76961774191E+01	-3.69814840499E+01	-5.89268704700E+00	-5.54789922764E-01
9.21357928659E+05	-1.23376069934E+01	-1.65527972357E+02	1.02102588105E+01	1.76360169084E+02	-5.43547763583E+01	1.18136563233E+02	-5.87474310538E+00	-5.66735372087E-01
9.43549283254E+05	-1.26044446111E+01	-1.71420671657E+02	1.02299012201E+01	1.76277023520E+02	-4.19149106853E+01	1.26652551119E+02	-5.86461935827E+00	-6.95653096483E-01
9.65740637849E+05	-1.94957912153E+01	-1.72186955122E+02	1.02777240445E+01	1.76148045439E+02	-4.74312123267E+01	2.01700155905E+01	-5.91265324030E+00	-5.75003873022E-01
9.87931992444E+05	-1.20810690236E+01	-1.78284659561E+02	1.02296364419E+01	1.76314394013E+02	-3.98676433403E+01	1.71411930599E+01	-5.89815280806E+00	-6.74789784353E-01
1.01012334704E+06	-1.41817506075E+01	-1.51114189350E+02	1.02631551041E+01	1.75929750024E+02	-4.42819120510E+01	-1.30585340836E+01	-5.88982285471E+00	-5.35463597224E-01
1.03231470163E+06	-1.10926404693E+01	-1.52584187978E+02	1.02646718174E+01	1.75462815289E+02	-5.40727264728E+01	-7.46154437416E+01	-5.87331298742E+00	-5.28092334496E-01
1.05450605623E+06	-1.51239653893E+01	-1.56550446857E+02	1.02492803930E+01	1.75875497269E+02	-5.19712542445E+01	1.57853802742E+02	-5.86625169941E+00	-6.04528079788E-01
1.07669741082E+06	-1.20213632946E+01	-1.78904789534E+02	1.02191589009E+01	1.75603514127E+02	-3.93027891542E+01	9.62866901896E+01	-5.89375788434E+00	-5.14374221412E-01
1.09888876542E+06	-1.55223602057E+01	1.74369776667E+02	1.02558132424E+01	1.75661229913E+02	-3.98793693487E+01	-2.48199321070E+01	-5.88643822485E+00	-6.76867704563E-01
1.12108012001E+06	-1.44803221954E+01	-1.69065771282E+02	1.02305181995E+01	1.75506491464E+02	-4.39328285463E+01	7.94928569278E+01	-5.86964290084E+00	-6.29321568069E-01
1.14327147461E+06	-1.12586730992E+01	-1.73184480127E+02	1.02328124514E+01	1.75161066075E+02	-4.94260490083E+01	1.01423780848E+02	-5.86437634255E+00	-7.72194415807E-01
1.16546282920E+06	-1.37313538796E+01	-1.44600499750E+02	1.02446239874E+01	1.74768509144E+02	-4.79358653947E+01	1.58990765489E+02	-5.86344185384E+00	-6.58725959228E-01
1.18765418380E+06	-1.09748388173E+01	-1.65156615540E+02	1.02048868474E+01	1.74709375999E+02	-4.14191313024E+01	-1.22009969499E+02	-5.85785821204E+00	-4.88058270204E-01
1.20984553839E+06	-1.59567568428E+01	-1.66132806705E+02	1.02673716558E+01	1.74804488229E+02	-4.10241705423E+01	5.17390597849E+01	-5.86794629528E+00	-8.85248754772E-01
1.23203689299E+06	-1.06321166211E+01	-1.78301367035E+02	1.01950484021E+01	1.74738764215E+02	-4.11614869608E+01	-3.92813016284E+01	-5.90770162869E+00	-2.61235440680E-01
1.25422824758E+06	-1.30379013819E+01	-1.74684083716E+02	1.02428944877E+01	1.74465553860E+02	-5.12147031316E+01	-4.93743481152E+01	-5.87882977026E+00	-5.66708366285E-01
1.27641960218E+06	-1.30191835983E+01	1.71894246534E+02	1.02255268208E+01	1.74701726845E+02	-4.47095602723E+01	-1.16673706655E+02	-5.88908049341E+00	-5.17720924861E-01
1.29861095677E+06	-1.24395039559E+01	1.76497905313E+02	1.02304470979E+01	1.74431328812E+02	-4.98926850506E+01	-1.19504869900E+02	-5.86891013449E+00	-6.02728543456E-01
1.32080231137E+06	-1.37298784217E+01	-1.55405775084E+02	1.02583001722E+01	1.74257659606E+02	-4.18745594294E+01	-9.95143491308E+01	-5.86347701331E+00	-9.80959691861E-01
1.34299366596E+06	-1.38980070298E+01	-1.76875301962E+02	1.02460925653E+01	1.74152680200E+02	-4.29649372093E+01	7.70704062322E+01	-5.86745118226E+00	-8.26750659267E-01
1.36518502056E+06	-1.50283691640E+01	-1.69131058646E+02	1.02611310170E+01	1.74024722095E+02	-4.92431786464E+01	-1.45868016922E+02	-5.86841737257E+00	-6.96163480173E-01
1.38737637515E+06	-1.58172433884E+01	-1.68749282027E+02	1.02654442182E+01	1.73965329778E+02	-6.30868277323E+01	6.02971819854E+01	-5.89009235672E+00	-7.71602572112E-01
1.40956772975E+06	-1.34906601024E+01	-1.75589515889E+02	1.02360260381E+01	1.73896550613E+02	-4.14909637027E+01	9.79693654765E+01	-5.87975554019E+00	-8.91677535720E-01
1.43175908434E+06	-1.26889166466E+01	1.79430610674E+02	1.02328563325E+01	1.73403536233E+02	-6.20228022126E+01	8.78126746713E+01	-5.87715055165E+00	-7.66769677722E-01
1.45395043894E+06	-1.22868881871E+01	-1.58360076075E+02	1.02626127962E+01	1.73543655112E+02	-5.27256584738E+01	4.55129897357E+01	-5.87086727466E+00	-8.50021403854E-01
1.47614179353E+06	-1.56266186220E+01	1.69346292716E+02	1.02389434465E+01	1.73464851761E+02	-4.27342692068E+01	9.34725685237E+01	-5.85805388405E+00	-8.49743638337E-01
1.49833314813E+06	-1.29079504234E+01	-1.68989808373E+02	1.02428931730E+01	1.73300765641E+02	-5.63988821729E+01	7.55090768124E+01	-5.87982727326E+00	-8.49146198086E-01
1.52052450272E+06	-1.21054703729E+01	1.76536396341E+02	1.02000461798E+01	1.73193606116E+02	-4.64630936454E+01	6.29971989038E+01	-5.88770548186E+00	-7.74236084711E-01
1.54271585732E+06	-1.42251258176E+01	-1.59850898096E+02	1.02503472219E+01	1.72881526367E+02	-4.98130566423E+01	-7.22134730487E+00	-5.88824426902E+00	-7.98713360015E-01
1.56490721191E+06	-1.22324078722E+01	-1.75364497324E+02	1.02564735376E+01	1.72819777261E+02	-3.92852891028E+01	1.34777410042E+02	-5.87799847681E+00	-7.77758364279E-01
1.58709856651E+06	-8.94295360154E+00	-1.67571076332E+02	1.02368608681E+01	1.72706172485E+02	-4.52316133245E+01	1.06483774367E+02	-5.87713501733E+00	-7.59521340807E-01
1.60928992110E+06	-1.44136421500E+01	-1.52849662858E+02	1.02481419420E+01	1.72458746078E+02	-4.75478058512E+01	1.46081451356E+02	-5.86559876097E+00	-6.99859427176E-01
1.63148127570E+06	-1.45028354928E+01	1.70642615375E+02	1.02363628038E+01	1.72583877248E+02	-4.32366374868E+01	9.17214338699E+01	-5.85934536749E+00	-1.16232015737E+00
1.65367263029E+06	-1.41327603272E+01	-1.68531411101E+02	1.02434081323E+01	1.72310628418E+02	-5.33175165919E+01	1.63076616269E+02	-5.87387331641E+00	-8.89824048699E-01
1.67586398489E+06	-1.10449495431E+01	-1.78109994508E+02	1.02187594015E+01	1.72141131724E+02	-3.95222236422E+01	6.86546168164E+00	-5.90437877425E+00	-1.04671941202E+00
1.69805533948E+06	-1.20645954041E+01	-1.38646246656E+02	1.02789943766E+01	1.71756745654E+02	-4.51007833232E+01	9.69713989370E+01	-5.87708796816E+00	-1.01990140514E+00
1.72024669408E+06	-1.32092392986E+01	-1.78261628178E+02	1.02534110565E+01	1.71973072049E+02	-4.94589293926E+01	-1.57059524186E+02	-5.86662264924E+00	-8.29082628089E-01
1.74243804867E+06	-1.21950706291E+01	-1.66406977702E+02	1.02476277312E+01	1.71716050445E+02	-4.18334523354E+01	-1.00441352942E+02	-5.89136523386E+00	-7.97253660958E-01
1.76462940327E+06	-1.24575728725E+01	-1.46688796178E+02	1.02889926848E+01	1.71684730979E+02	-4.64174008547E+01	8.44037166610E+01	-5.86690879526E+00	-9.99713621229E-01
1.78682075786E+06	-1.42514622308E+01	-1.54193166605E+02	1.02745818064E+01	1.71464389089E+02	-5.14801327152E+01	1.25897163640E+02	-5.85477112764E+00	-9.46683367278E-01
1.80901211246E+06	-1.24493860712E+01	-1.69025731240E+02	1.02637655764E+01	1.71547382503E+02	-4.64303896969E+01	2.54968441554E+01	-5.86452850860E+00	-1.12066133194E+00
1.83120346705E+06	-1.26533159279E+01	-1.58835489358E+02	1.02598841242E+01	1.71312305524E+02	-5.76471731094E+01	1.51247964856E+02	-5.88353583381E+00	-8.88326375836E-01
1.85339482165E+06	-1.72248054757E+01	1.64011956560E+02	1.02575918522E+01	1.71618070431E+02	-4.86763998863E+01	-4.67737688497E+01	-5.86712759598E+00	-8.81166566152E-01
1.87558617624E+06	-1.31245977021E+01	-1.67367133873E+02	1.02490219742E+01	1.71106420951E+02	-4.47131689893E+01	1.40670435213E+02	-5.85274621045E+00	-1.08720456519E+00
1.89777753084E+06	-1.22294740818E+01	1.77426727238E+02	1.02330230501E+01	1.71246557746E+02	-4.32772383014E+01	9.77217499520E+01	-5.86683001646E+00	-1.06038972678E+00
1.91996888543E+06	-2.01331384527E+01	-1.69111980957E+02	1.02739903459E+01	1.71404359430E+02	-4.53498739423E+01	-5.07490695575E+00	-5.88688256237E+00	-9.92780232498E-01
1.94216024003E+06	-1.20164844031E+01	-1.68078390111E+02	1.02331177732E+01	1.70791878972E+02	-4.55106531891E+01	9.53954758802E+01	-5.85390189178E+00	-1.17334709373E+00
1.96435159462E+06	-1.52289428697E+01	-1.61430979876E+02	1.02843983542E+01	1.70759411849E+02	-5.41811202019E+01	6.06047383560E+01	-5.87125890923E+00	-1.14404946634E+00
1.98654294922E+06	-1.36128356941E+01	-1.70208038311E+02	1.02514591053E+01	1.70588098953E+02	-4.28890685514E+01	-1.96640858475E+01	-5.88288333731E+00	-1.06573194785E+00
2.00873430381E+06	-1.27243356537E+01	1.77948124162E+02	1.02302068679E+01	1.70418351096E+02	-4.56976693751E+01	1.34924255502E+02	-5.87460363916E+00	-9.17983763743E-01
2.03092565841E+06	-1.30534338194E+01	-1.63452410837E+02	1.02378696232E+01	1.70498159213E+02	-5.41291438933E+01	3.67778118365E+01	-5.88423141120E+00	-1.21843442875E+00
2.05311701300E+06	-1.32574131494E+01	-1.79314294545E+02	1.02494516104E+01	1.70253095501E+02	-4.32674960030E+01	1.76232212878E+02	-5.86853246049E+00	-8.39878824469E-01
2.07530836760E+06	-1.41023251025E+01	1.64975724089E+02	1.02131615963E+01	1.70350166544E+02	-5.58416489881E+01	-1.22846537446E+02	-5.87894296968E+00	-1.08131774305E+00
2.09749972219E+06	-1.12355357006E+01	-1.66575931713E+02	1.02674227866E+01	1.70029310716E+02	-4.43652455334E+01	-1.17029850614E+02	-5.86522182883E+00	-1.05129739282E+00
2.11969107679E+06	-1.19841909325E+01	-1.63373805727E+02	1.02427095670E+01	1.69702394724E+02	-4.35612508021E+01	-5.99089991342E+01	-5.88753901823E+00	-1.10559162705E+00
2.14188243138E+06	-1.20559095674E+01	-1.77520329058E+02	1.02523259879E+01	1.69727609949E+02	-4.92876010983E+01	-1.43482460776E+01	-5.89253782761E+00	-1.04192968767E+00
2.16407378598E+06	-1.25460718423E+01	-1.48397167302E+02	1.02825055953E+01	1.69391130029E+02	-5.01005600026E+01	-1.74489210474E+02	-5.88267688840E+00	-1.14683753635E+00
2.18626514057E+06	-1.38718830592E+01	-1.58123009861E+02	1.02911838617E+01	1.69589281453E+02	-4.04896748120E+01	9.22130744995E+01	-5.84414848057E+00	-1.27825445325E+00
2.20845649517E+06	-1.31448535034E+01	1.74002524481E+02	1.02492501543E+01	1.69539260331E+02	-3.97583265734E+01	1.66856141764E+02	-5.84186415222E+00	-1.10550098414E+00
2.23064784976E+06	-1.49646025880E+01	1.48139049062E+02	1.02374161146E+01	1.69604906973E+02	-3.97303366665E+01	-1.46969055434E+02	-5.84780408967E+00	-1.06330234759E+00
2.25283920436E+06	-1.38963804015E+01	-1.57425443755E+02	1.02856573937E+01	1.69089015596E+02	-4.95680184737E+01	-3.35402402649E+01	-5.89202461311E+00	-1.16420557244E+00
2.27503055895E+06	-1.22924739201E+01	-1.67625134173E+02	1.02456089253E+01	1.69063128492E+02	-4.83489024644E+01	-1.43781419467E+02	-5.88114245960E+00	-1.20587831991E+00
2.29722191355E+06	-1.36247794696E+01	1.78074611844E+02	1.02680358574E+01	1.69228024253E+02	-4.82146495288E+01	1.47418247171E+02	-5.86721316649E+00	-1.15626823883E+00
2.31941326814E+06	-1.30415840290E+01	-1.50129846164E+02	1.02975639913E+01	1.68824583180E+02	-5.55871454580E+01	2.11116611714E+01	-5.86963128697E+00	-1.09832914935E+00
2.34160462274E+06	-1.16481396893E+01	1.73021929251E+02	1.02667059209E+01	1.69164292065E+02	-4.48039300094E+01	-4.86835847772E+01	-5.87202623205E+00	-1.19364675831E+00
2.36379597733E+06	-1.42044948050E+01	-1.67753783340E+02	1.02810516450E+01	1.68785484604E+02	-3.74291557416E+01	-1.62856575908E+02	-5.87132592121E+00	-1.08133336666E+00
2.38598733193E+06	-1.42632058582E+01	1.63158036609E+02	1.02713869089E+01	1.68641319054E+02	-4.44641945512E+01	-1.60643673370E+02	-5.87400609237E+00	-1.09916522516E+00
2.40817868652E+06	-1.66653259029E+01	-1.66740552209E+02	1.03170087445E+01	1.68711507617E+02	-4.29268281285E+01	8.72059564398E+01	-5.88342708532E+00	-1.49202006101E+00
2.43037004112E+06	-1.36947742866E+01	-1.57512098234E+02	1.03273295310E+01	1.68290377503E+02	-4.90641276674E+01	-2.01518638247E+01	-5.88686664587E+00	-1.72737434157E+00
2.45256139571E+06	-1.46619364686E+01	-1.52943419220E+02	1.02781266616E+01	1.68353763586E+02	-3.80642367579E+01	-1.41070326154E+02	-5.85092854586E+00	-1.12817461520E+00
2.47475275031E+06	-1.25112492073E+01	-1.41709438327E+02	1.02961334759E+01	1.67918345907E+02	-4.43616735360E+01	6.27712213989E+01	-5.88060621090E+00	-1.28092333236E+00
2.49694410490E+06	-1.54222499299E+01	-1.68112589744E+02	1.02829155547E+01	1.68108452672E+02	-3.77709708174E+01	6.66686976433E+01	-5.85555996900E+00	-1.59385018767E+00
2.51913545950E+06	-1.43413509900E+01	-1.77713241013E+02	1.02814070371E+01	1.67987109783E+02	-4.81559944369E+01	3.69798206880E+01	-5.87316397533E+00	-1.27550502766E+00
2.54132681409E+06	-1.23134015398E+01	1.37792485444E+02	1.02286823351E+01	1.67884679299E+02	-4.43457006206E+01	-1.58895031961E+01	-5.89863425426E+00	-1.17017212417E+00
2.56351816869E+06	-1.43197368861E+01	-1.37116191014E+02	1.03250035515E+01	1.67723331769E+02	-4.44580438384E+01	-1.38256018157E+02	-5.90030263146E+00	-1.22391537630E+00
2.58570952328E+06	-1.25999836731E+01	-1.45368998581E+02	1.03256809387E+01	1.67500640351E+02	-4.97428284258E+01	4.17373146436E+01	-5.86309099816E+00	-1.33744758697E+00
2.60790087788E+06	-1.47579549499E+01	-1.66635998684E+02	1.02915831570E+01	1.67424875283E+02	-4.83245964810E+01	3.71002338114E+01	-5.89986314763E+00	-1.19982384366E+00
2.63009223247E+06	-1.59221265431E+01	-1.62112044547E+02	1.03043248285E+01	1.67591070294E+02	-3.96500150363E+01	6.69561832360E+01	-5.90076883593E+00	-1.19426484586E+00
2.65228358707E+06	-1.50808805553E+01	-1.73459047041E+02	1.03134526624E+01	1.67248908239E+02	-4.18612064069E+01	1.09845211110E+02	-5.85802379300E+00	-1.37774180397E+00
2.67447494166E+06	-1.42397791128E+01	-1.61148649795E+02	1.02958660142E+01	1.67199673224E+02	-4.74710995358E+01	-1.29110795349E+02	-5.90404751689E+00	-1.30716334456E+00
2.69666629626E+06	-1.15186804922E+01	-1.49758278510E+02	1.03336737276E+01	1.66795381945E+02	-4.39355611764E+01	-2.66029992478E+01	-5.90185221779E+00	-1.35751027946E+00
2.71885765085E+06	-9.40843420263E+00	-1.70642806285E+02	1.02601750153E+01	1.66445138342E+02	-5.90516253129E+01	-5.30289072628E+01	-5.89400351160E+00	-1.34454308595E+00
2.74104900545E+06	-1.26804055350E+01	-1.69080310873E+02	1.02764509369E+01	1.66500558138E+02	-4.21762416783E+01	9.49368103822E+01	-5.87286489767E+00	-1.47170226759E+00
2.76324036004E+06	-1.33994457855E+01	-1.54800553597E+02	1.03302226810E+01	1.66534689467E+02	-5.70554024321E+01	-2.27101000289E+01	-5.87995828833E+00	-1.37077546255E+00
2.78543171463E+06	-1.47712377360E+01	-1.62096800901E+02	1.02921054391E+01	1.66595587965E+02	-4.72026636798E+01	5.03543896494E+01	-5.85767065022E+00	-1.65532658264E+00
2.80762306923E+06	-1.34859010437E+01	-1.62902637250E+02	1.03065302432E+01	1.66291982667E+02	-4.18897443351E+01	8.73689089786E+01	-5.87194213971E+00	-1.64627910835E+00
2.82981442382E+06	-1.32170061068E+01	-1.60223708249E+02	1.03102644583E+01	1.66255926915E+02	-4.00355714558E+01	-6.73216981976E+01	-5.89569798320E+00	-1.43100974117E+00
2.85200577842E+06	-1.08461992154E+01	-1.46064648292E+02	1.03167064578E+01	1.65838753796E+02	-4.37641358915E+01	5.07769874046E+01	-5.86834120614E+00	-1.56073784806E+00
2.87419713301E+06	-1.26693331723E+01	-1.64476175884E+02	1.02858348088E+01	1.66069792481E+02	-4.57824204219E+01	1.25757484060E+02	-5.88328286087E+00	-1.34430058725E+00
