# Hz S DB R 50
! CMT, M5065, 19127446, 24.2.4/2
! Date: 11/8/2024 5:35:53 PM
! Data: Format (Calibration Info)
! Freq	S11:dB/Ang(F2)	S21:dB/Ang(F2)	S12:dB/Ang(F2)	S22:dB/Ang(F2)
3.00000000000E+05	-1.49663831534E+01	-1.50202070424E+02	2.93002177021E+01	-1.75101045592E+02	-4.13504446439E+01	1.36567014642E+01	-5.99478977792E+00	-1.24802765085E+00
3.22191354595E+05	-1.36658682933E+01	-1.64680545073E+02	2.92891946871E+01	-1.76475642956E+02	-3.95336997261E+01	1.60816875490E+02	-5.64214635492E+00	-1.17470191301E+00
3.44382709190E+05	-1.59823862013E+01	-1.51721216033E+02	2.93056460737E+01	-1.78013122120E+02	-4.55294052845E+01	3.64102666643E+01	-5.91421269584E+00	-1.12261776240E+00
3.66574063785E+05	-1.46518201360E+01	-1.61932731737E+02	2.92994686620E+01	-1.79301229359E+02	-3.88781143463E+01	1.05408522737E+02	-5.77953152202E+00	-1.68757984524E+00
3.88765418380E+05	-1.62187710830E+01	1.58354501124E+02	2.93083222400E+01	1.79738011685E+02	-5.00524665810E+01	-8.12101118960E+01	-6.10417572955E+00	8.84502004951E-01
4.10956772975E+05	-1.20202634691E+01	-1.78850615373E+02	2.92714301042E+01	1.78571572413E+02	-4.09966080742E+01	-9.13969783904E+01	-5.86579289530E+00	8.16520055295E-01
4.33148127570E+05	-1.22130888159E+01	-1.75926713297E+02	2.92532227055E+01	1.77377600565E+02	-6.02830603601E+01	-1.28677901837E+01	-5.83702362188E+00	-4.86826446902E-01
4.55339482165E+05	-1.41667323125E+01	-1.42023326508E+02	2.92809092655E+01	1.76173896554E+02	-4.61340893215E+01	-1.42050601660E+02	-5.75330249976E+00	-2.68864985175E-01
4.77530836760E+05	-1.37509356179E+01	-1.62796155108E+02	2.92293150645E+01	1.75311596315E+02	-4.57856807631E+01	1.39840445756E+02	-5.74108501511E+00	-1.04194943048E+00
4.99722191355E+05	-1.44630159192E+01	-1.69232289464E+02	2.92341738155E+01	1.74348477503E+02	-4.05630727651E+01	1.51141271316E+02	-5.72360792227E+00	-1.37200483656E+00
5.21913545950E+05	-1.25201688740E+01	-1.61531410631E+02	2.91972623516E+01	1.73528395330E+02	-5.41204897835E+01	1.00333892068E+01	-5.92482625868E+00	-4.06278087296E-01
5.44104900545E+05	-1.17521912127E+01	-1.75795717335E+02	2.91779622513E+01	1.72673762442E+02	-4.52519671310E+01	6.91655493702E+01	-5.93497428160E+00	-1.26431977757E+00
5.66296255139E+05	-1.38845927547E+01	-1.65198234911E+02	2.92116891411E+01	1.71605355884E+02	-4.37656595445E+01	2.49998562765E+01	-6.01664241435E+00	-1.02389235541E+00
5.88487609734E+05	-1.05828668327E+01	-1.76848549715E+02	2.91381034123E+01	1.70952524034E+02	-5.55665965603E+01	-6.03539918062E+01	-5.89460944232E+00	-3.88060395346E-01
6.10678964329E+05	-1.31242383359E+01	-1.70418667631E+02	2.91470980322E+01	1.70246397611E+02	-5.06689118089E+01	-7.63551453291E+01	-5.84134033096E+00	3.12662549975E-01
6.32870318924E+05	-1.16973412912E+01	-1.74596428263E+02	2.90981490442E+01	1.69504371557E+02	-5.52210578814E+01	1.01678254847E+01	-5.88161581095E+00	-2.95338119706E-01
6.55061673519E+05	-1.18060074025E+01	-1.56992410719E+02	2.90910606410E+01	1.68637492918E+02	-4.38309042297E+01	7.04932675472E+00	-5.94729588065E+00	-4.98356591842E-01
6.77253028114E+05	-1.16921865320E+01	-1.66914612355E+02	2.90605955253E+01	1.67905288080E+02	-4.29511177384E+01	-7.38866618895E+01	-5.87559220998E+00	-2.86931277391E-01
6.99444382709E+05	-1.29169685457E+01	-1.73047244263E+02	2.90569525921E+01	1.67187147114E+02	-5.58758311495E+01	-1.13098904480E+02	-5.84325416263E+00	-2.77581702058E-01
7.21635737304E+05	-1.72324174927E+01	-1.66397356220E+02	2.90713071332E+01	1.66699832450E+02	-4.15683003525E+01	-7.12910972185E+01	-5.90738026408E+00	6.49200043811E-01
7.43827091899E+05	-1.55315828355E+01	1.77678931726E+02	2.90450115034E+01	1.66052887783E+02	-4.03434094712E+01	1.43897913650E+02	-5.77010783167E+00	-1.41345340216E+00
7.66018446494E+05	-1.31853947141E+01	-1.79899167460E+02	2.89956872284E+01	1.65262836323E+02	-4.85800463553E+01	-1.00887563277E+01	-5.94260911264E+00	-6.18149033961E-01
7.88209801089E+05	-1.69731740973E+01	-1.69091460036E+02	2.89927005338E+01	1.64621357986E+02	-4.08135348827E+01	-7.00135554144E+01	-5.93373823474E+00	6.42776696859E-01
8.10401155684E+05	-1.73970988576E+01	1.77708736917E+02	2.89976845459E+01	1.64011222723E+02	-3.79875393556E+01	-2.06938114685E+00	-6.13840412046E+00	-5.41468849387E-01
8.32592510279E+05	-1.48275324390E+01	1.42549117063E+02	2.89576741509E+01	1.63609325456E+02	-4.94832780860E+01	-1.05057539399E+02	-5.83702409493E+00	-4.13535836629E-01
8.54783864874E+05	-1.70372045735E+01	-1.63930888091E+02	2.89402958703E+01	1.62673178453E+02	-4.89292426939E+01	-1.70840420570E+02	-5.81890714120E+00	-5.63520273005E-01
8.76975219469E+05	-1.26211615811E+01	1.76943103861E+02	2.88669518636E+01	1.62129223226E+02	-4.79127039154E+01	3.01270523579E+01	-5.94921170944E+00	-9.94692726388E-01
8.99166574064E+05	-1.22191752734E+01	-1.66810339390E+02	2.88533963468E+01	1.61333165524E+02	-5.18388040350E+01	6.13844217596E+01	-5.92214580838E+00	-1.00414796122E+00
9.21357928659E+05	-1.62784903102E+01	-1.76266075862E+02	2.88690744464E+01	1.60923534211E+02	-3.87701321067E+01	3.83583425283E+01	-6.09662476682E+00	-1.38048791052E+00
9.43549283254E+05	-1.24512399839E+01	1.78321594700E+02	2.88059643129E+01	1.60279387842E+02	-4.51506916126E+01	-5.67641762254E+01	-5.90921915356E+00	-2.01881159493E-01
9.65740637849E+05	-1.19668269782E+01	-1.63970214183E+02	2.87925584105E+01	1.59376640389E+02	-4.87787080256E+01	-1.01176191934E+02	-5.83199638128E+00	-1.30924217591E-01
9.87931992444E+05	-1.22589390164E+01	1.72655978393E+02	2.87511193767E+01	1.59128152221E+02	-4.66573101204E+01	-1.57214478388E+02	-5.78210435524E+00	-5.97207922671E-01
1.01012334704E+06	-1.23463276115E+01	-1.72274120674E+02	2.87251998550E+01	1.58401807443E+02	-4.94754693872E+01	1.44474161590E+02	-5.83651001971E+00	-1.11667608631E+00
1.03231470163E+06	-1.20640250312E+01	-1.73508462051E+02	2.86921694356E+01	1.57900514057E+02	-5.61532589026E+01	-6.66233046789E+01	-5.86552543011E+00	-4.85747479451E-01
1.05450605623E+06	-1.14228083321E+01	-1.76114849123E+02	2.86809840384E+01	1.57349514907E+02	-4.68592396818E+01	-1.90604996954E+01	-6.00125772180E+00	-4.27194550276E-01
1.07669741082E+06	-1.14744497925E+01	-1.71539084367E+02	2.86038913823E+01	1.56242907837E+02	-3.72979833020E+01	-7.29319789362E+01	-5.93943035474E+00	2.80096865312E-03
1.09888876542E+06	-1.61107998893E+01	-1.76801373847E+02	2.86437125531E+01	1.56094289172E+02	-4.86380477482E+01	1.46113015533E+02	-5.83978482053E+00	-8.13204695198E-01
1.12108012001E+06	-1.42875272074E+01	1.50864456335E+02	2.86216777427E+01	1.55952623912E+02	-4.41811049709E+01	1.36502004962E+02	-5.80328094974E+00	-1.30927731729E+00
1.14327147461E+06	-1.32691621930E+01	-1.62043509948E+02	2.86006910256E+01	1.54921223845E+02	-4.83069974265E+01	1.38669114564E+02	-5.85995028302E+00	-1.33822545678E+00
1.16546282920E+06	-1.47130357535E+01	-1.71884928934E+02	2.85775740206E+01	1.54543169661E+02	-4.53238844441E+01	-8.45888052599E+01	-5.84424554730E+00	-9.39856377926E-03
1.18765418380E+06	-1.24988152910E+01	1.78709993461E+02	2.85175357446E+01	1.54120258061E+02	-4.27920873944E+01	5.36420443235E+01	-5.99967015876E+00	-1.56590484746E+00
1.20984553839E+06	-1.16729692847E+01	-1.76362159829E+02	2.84938100034E+01	1.53481918277E+02	-5.47359171419E+01	-8.66758144123E+01	-5.87241804648E+00	-7.55348646444E-01
1.23203689299E+06	-1.05482429995E+01	-1.78067597237E+02	2.84565950082E+01	1.52873221384E+02	-5.49829630350E+01	-8.57267216081E+01	-5.88409710551E+00	-6.01900842928E-01
1.25422824758E+06	-1.88517247484E+01	-1.74475992440E+02	2.84957211755E+01	1.52452384517E+02	-4.66281681201E+01	-1.03690912642E+01	-5.92780805569E+00	-5.59777122597E-01
1.27641960218E+06	-1.17703595937E+01	-1.70734569388E+02	2.83894448881E+01	1.51904669650E+02	-4.44415526106E+01	-1.43985131867E+02	-5.75061212504E+00	-6.36460176872E-01
1.29861095677E+06	-1.36789749464E+01	-1.67935840138E+02	2.83936596023E+01	1.51354493330E+02	-3.78341937264E+01	-1.47839254562E+02	-5.73456217786E+00	-1.58337254855E-02
1.32080231137E+06	-1.58868668307E+01	1.77095476351E+02	2.83849915610E+01	1.50987317877E+02	-4.02154333634E+01	1.26078839270E+02	-5.75311423339E+00	-2.35597731074E+00
1.34299366596E+06	-1.12684435153E+01	-1.56145373969E+02	2.83543652018E+01	1.50032044167E+02	-4.16063740266E+01	9.62463811177E+01	-5.91196011264E+00	-1.96780010559E+00
1.36518502056E+06	-1.01279516899E+01	-1.61998786526E+02	2.83054934979E+01	1.49695918435E+02	-4.74941292186E+01	7.72628008899E+01	-5.93484912630E+00	-1.33452121913E+00
1.38737637515E+06	-1.07905296784E+01	-1.71173516702E+02	2.82494140927E+01	1.49325597363E+02	-4.70198317465E+01	-4.62427839313E+01	-5.94552478826E+00	-3.72366696800E-01
1.40956772975E+06	-1.21937643357E+01	-1.70346850034E+02	2.82583938882E+01	1.48795026944E+02	-4.23804779167E+01	4.69307883074E+01	-5.99599899243E+00	-1.50425730416E+00
1.43175908434E+06	-1.80249006798E+01	1.67001671109E+02	2.82583649705E+01	1.48576637258E+02	-4.50039003182E+01	-1.72319440051E+02	-5.78645781415E+00	-9.86303940132E-01
1.45395043894E+06	-1.01750632121E+01	-1.73703686249E+02	2.81682782040E+01	1.47747626743E+02	-4.54180692616E+01	2.81713670660E+01	-5.97406291375E+00	-1.12067429356E+00
1.47614179353E+06	-1.10752635876E+01	-1.75366654440E+02	2.81605561048E+01	1.47317246455E+02	-4.34416526664E+01	-1.53014546123E+01	-5.96466896996E+00	-5.79230083356E-01
1.49833314813E+06	-1.30198041779E+01	-1.59993584631E+02	2.81583304311E+01	1.46843334038E+02	-4.73513704012E+01	-5.64673182877E+01	-5.90200426824E+00	-4.38122719702E-01
1.52052450272E+06	-1.09309597249E+01	-1.67732221004E+02	2.80953309641E+01	1.46243053751E+02	-4.69869265214E+01	-1.55092285371E+02	-5.81061873337E+00	-6.60043960927E-01
1.54271585732E+06	-1.66421608114E+01	-1.66581351446E+02	2.81097099148E+01	1.45978095790E+02	-4.25519655379E+01	-9.22170237118E+01	-5.83388887059E+00	1.23433450863E-01
1.56490721191E+06	-1.51576581534E+01	-1.65048347223E+02	2.80570780527E+01	1.45547331252E+02	-3.98342261326E+01	-8.52126786632E+01	-5.89596169040E+00	2.04297458661E-01
1.58709856651E+06	-1.32175027526E+01	-1.77336899948E+02	2.80182336716E+01	1.44957182230E+02	-4.72160348782E+01	1.55436615040E+02	-5.81168921147E+00	-1.23850132827E+00
1.60928992110E+06	-1.35254282250E+01	-1.64246548130E+02	2.80111869332E+01	1.44528486470E+02	-4.51612021548E+01	-5.76020430587E+01	-5.88536540814E+00	-1.67862986661E-01
1.63148127570E+06	-1.29825511969E+01	-1.69085354720E+02	2.79740841177E+01	1.44028714199E+02	-5.10256034724E+01	9.89987638346E+00	-5.92100084310E+00	-7.20528510694E-01
1.65367263029E+06	-1.69848357900E+01	-1.68047591497E+02	2.79848614286E+01	1.43822451824E+02	-4.70733125018E+01	-4.11370948539E+01	-5.94463377816E+00	-4.85454352969E-01
1.67586398489E+06	-1.27905157534E+01	-1.69556143613E+02	2.79020730025E+01	1.43275419431E+02	-4.84187391392E+01	7.70482585249E+01	-5.91578324418E+00	-1.38939103479E+00
1.69805533948E+06	-1.55504789823E+01	1.77744741906E+02	2.78868717516E+01	1.42933973715E+02	-5.04614382143E+01	1.35138319549E+02	-5.86329352123E+00	-1.26104439197E+00
1.72024669408E+06	-1.97489814849E+01	1.71415206550E+02	2.78596376432E+01	1.42533023004E+02	-4.52937478866E+01	-3.44795614532E+01	-5.97208242773E+00	-4.89455379128E-01
1.74243804867E+06	-1.10550616703E+01	-1.66416385702E+02	2.77907601179E+01	1.41704940010E+02	-4.51254534375E+01	2.74263010038E+01	-6.02103370500E+00	-1.47536561852E+00
1.76462940327E+06	-1.07123357422E+01	1.76837229388E+02	2.77416992613E+01	1.41418768339E+02	-3.57787411457E+01	3.87125820140E+01	-6.15107201375E+00	-8.79430031657E-01
1.78682075786E+06	-1.33396653233E+01	-1.65711293239E+02	2.77491711335E+01	1.40877494916E+02	-4.16099850156E+01	7.59953509764E+01	-5.92781719185E+00	-1.62912586250E+00
1.80901211246E+06	-1.31231659696E+01	-1.55390328552E+02	2.77297556542E+01	1.40467412407E+02	-5.08010945160E+01	6.14784169539E+01	-5.93203384684E+00	-1.46454928008E+00
1.83120346705E+06	-1.17953240214E+01	-1.68699389612E+02	2.76747205151E+01	1.40126204984E+02	-5.81100216277E+01	-1.49793662815E+02	-5.88283705032E+00	-1.02455060304E+00
1.85339482165E+06	-1.63095852042E+01	-1.42847739317E+02	2.77034707899E+01	1.39619124848E+02	-4.01553037182E+01	1.79821083172E+02	-5.64894561521E+00	-1.45851740827E+00
1.87558617624E+06	-1.44030345029E+01	-1.63990818194E+02	2.76455038676E+01	1.39053942973E+02	-4.46238631854E+01	1.48291864060E+02	-5.80599327129E+00	-1.65921612333E+00
1.89777753084E+06	-1.35254784654E+01	-1.27535728287E+02	2.76349187709E+01	1.38454070040E+02	-4.19095718951E+01	1.24393521744E+02	-5.82804999518E+00	-2.16820267449E+00
1.91996888543E+06	-1.29456379842E+01	-1.56292228694E+02	2.75748550356E+01	1.38144199707E+02	-4.21519668343E+01	1.54624179775E+02	-5.82058408535E+00	-1.43775956371E+00
1.94216024003E+06	-1.11817566659E+01	-1.66106294683E+02	2.75287330167E+01	1.37798917126E+02	-4.29400961925E+01	-1.06501986753E+02	-5.80067141369E+00	-2.97945071725E-01
1.96435159462E+06	-1.26350001082E+01	1.62017903007E+02	2.74561952200E+01	1.37834858499E+02	-4.27314710481E+01	8.51586667894E+01	-5.94858658892E+00	-2.00817434863E+00
1.98654294922E+06	-1.13642806206E+01	-1.61226525557E+02	2.74638234629E+01	1.36867644544E+02	-3.94836772234E+01	1.13786174736E+02	-5.83301334948E+00	-2.47777648607E+00
2.00873430381E+06	-1.41183875376E+01	-1.59527583794E+02	2.74573726265E+01	1.36556569669E+02	-4.22624456088E+01	-5.32857249035E+01	-5.94881004180E+00	2.69881700374E-02
2.03092565841E+06	-1.23218030170E+01	-1.53308064635E+02	2.73881042280E+01	1.36086699935E+02	-4.39718799759E+01	4.08334549630E+01	-6.03227397716E+00	-1.38295427775E+00
2.05311701300E+06	-8.19287947516E+00	-1.70537132845E+02	2.73398910810E+01	1.35574143829E+02	-4.11071768426E+01	-1.35608714533E+02	-5.74249723910E+00	-7.04570247798E-01
2.07530836760E+06	-1.00870144375E+01	-1.70932533015E+02	2.72981948908E+01	1.35218532614E+02	-4.59304393115E+01	-1.38740880567E+02	-5.77990774388E+00	-1.41891883379E+00
2.09749972219E+06	-1.14982813552E+01	-1.64203784189E+02	2.72775783136E+01	1.34771041833E+02	-3.73932062629E+01	3.94475553510E+01	-6.12941229956E+00	-1.17041687868E+00
2.11969107679E+06	-1.40337752533E+01	1.66870740629E+02	2.72464778323E+01	1.34787527742E+02	-4.35311090982E+01	-6.84840269229E+01	-5.90507849530E+00	-2.54904202160E-01
2.14188243138E+06	-1.49425646450E+01	-1.66284408658E+02	2.72480121471E+01	1.34326567355E+02	-4.33654610275E+01	8.90602920594E+01	-5.91230934464E+00	-1.98910347946E+00
2.16407378598E+06	-1.17878333610E+01	-1.70683528034E+02	2.71821946741E+01	1.33751628141E+02	-3.91028455756E+01	-1.64922181444E+02	-5.63863891977E+00	-1.40229027993E+00
2.18626514057E+06	-1.32593956450E+01	-1.44491127005E+02	2.71908209912E+01	1.32979679490E+02	-5.41891514242E+01	6.02696610944E+01	-5.93985048323E+00	-1.34750772745E+00
2.20845649517E+06	-1.54055000630E+01	1.61161391034E+02	2.71472912867E+01	1.33214094474E+02	-5.43227184279E+01	1.14233612549E+01	-5.88770328512E+00	-1.20398733972E+00
2.23064784976E+06	-1.45399613637E+01	-1.58921770994E+02	2.71288465508E+01	1.32432576180E+02	-3.77828141320E+01	1.71312119112E+02	-5.73406501739E+00	-1.87547305200E+00
2.25283920436E+06	-1.58288200718E+01	-1.70364806740E+02	2.70866792414E+01	1.32278067224E+02	-3.81931705461E+01	1.06531906344E+02	-5.91981178313E+00	-2.72759576457E+00
2.27503055895E+06	-1.52468661754E+01	1.78382372378E+02	2.70463076185E+01	1.31857251720E+02	-8.15898436018E+01	-1.46294780043E+02	-5.87972211814E+00	-1.23660903281E+00
2.29722191355E+06	-1.26754220636E+01	-1.45066342602E+02	2.70579437194E+01	1.31224855913E+02	-4.74172672223E+01	-1.43715507003E+01	-5.93947159159E+00	-8.39902426706E-01
2.31941326814E+06	-1.12382152707E+01	-1.55196540184E+02	2.69840083574E+01	1.30763242377E+02	-5.83837972348E+01	-1.12794273499E+01	-5.90983465943E+00	-1.04280487293E+00
2.34160462274E+06	-1.24587376973E+01	-1.55569839167E+02	2.69376056153E+01	1.30482358465E+02	-4.57345723268E+01	8.39603281321E+01	-5.91597055060E+00	-1.82790975564E+00
2.36379597733E+06	-1.50400077996E+01	-1.51060197920E+02	2.69281096709E+01	1.30193292992E+02	-4.37531638504E+01	1.51134131709E+01	-6.05830207798E+00	-1.10293353645E+00
2.38598733193E+06	-1.11234146079E+01	-1.63103205745E+02	2.68520307114E+01	1.29683706086E+02	-4.41879910673E+01	1.77649232342E+02	-5.75858545756E+00	-1.53304055345E+00
2.40817868652E+06	-1.04891394753E+01	-1.52019661999E+02	2.68413215921E+01	1.29100121736E+02	-4.16469886407E+01	1.29000023101E+02	-5.81657772090E+00	-2.55070671954E+00
2.43037004112E+06	-1.11530242309E+01	-1.79938156164E+02	2.67588347496E+01	1.29151276015E+02	-4.53512298725E+01	-1.89766984504E+01	-5.98098161970E+00	-1.36926396587E+00
2.45256139571E+06	-1.37506453364E+01	-1.54881151894E+02	2.68069697864E+01	1.28716752005E+02	-4.49773018820E+01	-2.93986451138E+01	-5.97866812898E+00	-8.62681608141E-01
2.47475275031E+06	-1.35223409600E+01	-1.52942589361E+02	2.67734352147E+01	1.28224275470E+02	-4.27474955303E+01	-1.49857275611E+02	-5.75516580440E+00	-1.11988361800E+00
2.49694410490E+06	-1.15710543434E+01	-1.76753866422E+02	2.66702944756E+01	1.27938354404E+02	-4.42906406661E+01	-1.16911937400E+02	-5.84548706330E+00	-8.12841432270E-01
2.51913545950E+06	-1.40363434956E+01	-1.37205959645E+02	2.67181369388E+01	1.27286946111E+02	-4.56662024949E+01	1.07460852464E+01	-5.99610062600E+00	-1.44779170430E+00
2.54132681409E+06	-1.06076768644E+01	-1.68269930193E+02	2.65998328124E+01	1.27009030547E+02	-5.15782493808E+01	-3.21522024114E+01	-5.86853197039E+00	-1.04115007263E+00
2.56351816869E+06	-1.22806108550E+01	-1.61381777319E+02	2.65991272687E+01	1.26717766519E+02	-3.64951549826E+01	1.32091340594E+02	-5.84904245999E+00	-2.79036528897E+00
2.58570952328E+06	-1.60343811500E+01	-1.79241107549E+02	2.65770612198E+01	1.26688867754E+02	-4.58136091207E+01	-6.06225465380E+01	-5.90570791051E+00	-7.94788339402E-01
2.60790087788E+06	-1.33335056019E+01	-1.69601383467E+02	2.65375212983E+01	1.26201640044E+02	-4.38953514339E+01	8.07172661470E+01	-5.94013045766E+00	-2.26917767460E+00
2.63009223247E+06	-1.41773432728E+01	-1.55935666043E+02	2.65095743150E+01	1.25791139502E+02	-4.67364344406E+01	1.35562875965E+02	-5.85172759747E+00	-1.69410977173E+00
2.65228358707E+06	-1.11296666987E+01	-1.57316729279E+02	2.64672192191E+01	1.25047624737E+02	-4.44756407711E+01	-1.67480236747E+02	-5.75160898349E+00	-1.57714977718E+00
2.67447494166E+06	-1.20293327905E+01	-1.59844491398E+02	2.64347475472E+01	1.24896992128E+02	-4.62153846726E+01	1.80174978802E+01	-5.98333430861E+00	-1.48155212065E+00
2.69666629626E+06	-1.32294360476E+01	-1.48309524926E+02	2.64225625472E+01	1.24584008744E+02	-4.50933490947E+01	1.27002273370E+01	-6.01923293325E+00	-1.37434694008E+00
2.71885765085E+06	-1.26323553261E+01	-1.53959122352E+02	2.63915654919E+01	1.24212993595E+02	-3.98712054469E+01	1.71999453028E+02	-5.73308557557E+00	-2.00361433076E+00
2.74104900545E+06	-1.38050006163E+01	-1.62027962159E+02	2.63418763026E+01	1.23937729363E+02	-5.60003386766E+01	-1.78393028547E+02	-5.85193868260E+00	-1.53960886166E+00
2.76324036004E+06	-1.23338626855E+01	-1.58206659813E+02	2.63145406366E+01	1.23422058689E+02	-4.26055937326E+01	-1.48860609383E+02	-5.72301695116E+00	-1.19815994781E+00
2.78543171463E+06	-1.19138037490E+01	-1.72505811598E+02	2.62590783436E+01	1.23154967961E+02	-4.59680602065E+01	-6.56229443123E+01	-5.88906976776E+00	-9.58169847078E-01
2.80762306923E+06	-1.46717244302E+01	-1.67206770201E+02	2.62459130649E+01	1.22924850602E+02	-5.47575727778E+01	4.21765411305E+01	-5.88991817216E+00	-1.49451998372E+00
2.82981442382E+06	-1.42940302507E+01	-1.54375540850E+02	2.62445507072E+01	1.22457705886E+02	-5.46326060639E+01	6.77533054773E+01	-5.89734605682E+00	-1.72033508482E+00
2.85200577842E+06	-1.33960088823E+01	-1.73124112276E+02	2.61571571858E+01	1.22310422718E+02	-6.49332078459E+01	-1.61417513816E+02	-5.89092564289E+00	-1.82672466562E+00
2.87419713301E+06	-1.13967790059E+01	-1.56443512403E+02	2.61375483416E+01	1.21686677978E+02	-4.67858119447E+01	-1.43172809861E+02	-5.80457325384E+00	-1.42785349309E+00
