# Hz S DB R 50
! CMT, M5065, 19127446, 24.2.4/2
! Date: 11/8/2024 4:49:20 PM
! Data: Format (Calibration Info)
! Freq	S11:dB/Ang(F2)	S21:dB/Ang(F2)	S12:dB/Ang(F2)	S22:dB/Ang(F2)
3.00000000000E+05	-1.24654373303E+01	-1.64505538020E+02	4.73066038691E+00	-1.77713993496E+02	-4.54670924415E+01	-7.46438760465E+01	-5.88558414656E+00	-3.32274366867E-01
3.22191354595E+05	-1.63513720840E+01	1.76634539692E+02	4.79003428186E+00	-1.77812476188E+02	-4.02563811353E+01	5.93413939389E-01	-5.91011159900E+00	-3.93387564386E-01
3.44382709190E+05	-1.78629763754E+01	-1.69644458920E+02	4.76704103252E+00	-1.78454836574E+02	-3.79294288126E+01	1.76032808647E+02	-5.86497240619E+00	-2.66148957924E-01
3.66574063785E+05	-1.56050068687E+01	-1.57502325295E+02	4.73419235388E+00	-1.78226681455E+02	-4.57833544934E+01	9.22652375323E+01	-5.88416769787E+00	-3.70060747427E-01
3.88765418380E+05	-1.24026245235E+01	-1.78472023386E+02	4.73623698259E+00	-1.78770616204E+02	-5.34082406608E+01	-3.51056251536E+00	-5.86569086558E+00	-2.36097283261E-01
4.10956772975E+05	-1.54344728377E+01	-1.74390213433E+02	4.76680532881E+00	-1.79210608066E+02	-4.74127690823E+01	-1.20311773129E+02	-5.88137044051E+00	-3.29155329688E-01
4.33148127570E+05	-1.45801215098E+01	-1.72306252751E+02	4.82797753278E+00	-1.79068856588E+02	-4.61738338868E+01	-9.04420952530E+01	-5.86616892875E+00	-1.60098520037E-01
4.55339482165E+05	-1.42990299454E+01	-1.54080151697E+02	4.81403380924E+00	-1.79458974585E+02	-4.38913110335E+01	1.37684192951E+02	-5.86734740662E+00	-3.65429838677E-01
4.77530836760E+05	-1.31978001856E+01	1.62145676253E+02	4.74857314704E+00	-1.79623131518E+02	-4.22695331388E+01	1.53265550827E+02	-5.85592172885E+00	-3.82213704810E-01
4.99722191355E+05	-1.12538620832E+01	-1.62268293775E+02	4.76055693974E+00	-1.79811659055E+02	-5.47995484713E+01	-1.44846574373E+02	-5.86948738953E+00	-3.29273609396E-01
5.21913545950E+05	-1.61960484543E+01	1.72133582797E+02	4.82423127490E+00	-1.79981359741E+02	-5.36752702305E+01	2.77763533391E+01	-5.87692242769E+00	-1.77571835952E-01
5.44104900545E+05	-1.38522685816E+01	1.78271501890E+02	4.79537148668E+00	-1.79908568763E+02	-4.27586103523E+01	-1.27273810187E+02	-5.88036051524E+00	-1.86092850372E-01
5.66296255139E+05	-1.12067448253E+01	-1.55279403363E+02	4.78883199703E+00	-1.79978220850E+02	-4.69821586362E+01	-2.71533552482E+01	-5.86581545266E+00	-2.16381015770E-01
5.88487609734E+05	-1.54179305649E+01	-1.54510909634E+02	4.82035538970E+00	1.79415633415E+02	-4.88780772292E+01	-2.09326549736E+00	-5.88265452873E+00	-3.46123625095E-01
6.10678964329E+05	-1.68094641846E+01	1.76307521983E+02	4.77021730564E+00	1.79463895064E+02	-4.91793937862E+01	5.87569330230E+01	-5.88340440348E+00	1.51190928695E-01
6.32870318924E+05	-1.46229945959E+01	-1.79497020455E+02	4.79094030762E+00	1.79499174591E+02	-5.46865407756E+01	1.62321455846E+02	-5.86345463850E+00	-2.41651246999E-02
6.55061673519E+05	-1.13212734995E+01	1.78640902268E+02	4.74704319859E+00	1.78880108493E+02	-4.35302868688E+01	-1.00072010639E+01	-5.88163817694E+00	-2.96420640468E-01
6.77253028114E+05	-1.22676047348E+01	-1.64350203348E+02	4.79503158204E+00	1.78915789631E+02	-5.81727812738E+01	8.40166010060E+01	-5.87349543401E+00	-7.59980861724E-01
6.99444382709E+05	-1.49831644379E+01	-1.50228531038E+02	4.81309167527E+00	1.78665138929E+02	-5.01476791258E+01	1.54172115449E+02	-5.85238068478E+00	-3.91732339157E-01
7.21635737304E+05	-1.14178803306E+01	-1.25021335200E+02	4.78942177075E+00	1.79066029062E+02	-3.85095571180E+01	-9.05486103850E+01	-5.86967868983E+00	-4.02573600794E-01
7.43827091899E+05	-1.52119599845E+01	-1.72460127115E+02	4.79311049531E+00	1.78665142959E+02	-4.51262694127E+01	-4.17461976884E+01	-5.86401362154E+00	-3.99412190595E-01
7.66018446494E+05	-1.43784317602E+01	-1.61419923990E+02	4.79505058932E+00	1.78586835469E+02	-4.31280242218E+01	6.58684039287E+01	-5.88178218291E+00	-5.98117196215E-01
7.88209801089E+05	-1.49215855786E+01	1.66415788562E+02	4.77256053491E+00	1.78796016943E+02	-4.22170619075E+01	1.09565341146E+01	-5.88382510829E+00	-4.76160983302E-01
8.10401155684E+05	-1.51794259189E+01	-1.54641963434E+02	4.82041339754E+00	1.77885506054E+02	-4.38979353117E+01	-1.17154566375E+02	-5.84961888607E+00	-5.40122688438E-01
8.32592510279E+05	-1.48240543089E+01	-1.73398888916E+02	4.74968424418E+00	1.78148319288E+02	-4.69718744958E+01	2.86445364682E+01	-5.87459123166E+00	-5.53801763515E-01
8.54783864874E+05	-1.51017013421E+01	-1.65545854939E+02	4.79367070371E+00	1.77851171337E+02	-5.46799092854E+01	1.32378785645E+02	-5.84249145863E+00	-4.83523851344E-01
8.76975219469E+05	-1.23039988557E+01	1.64587732461E+02	4.73416495335E+00	1.78275075668E+02	-3.82357881465E+01	1.00843536883E+02	-5.85577715764E+00	-4.89270524309E-01
8.99166574064E+05	-1.47691576899E+01	1.79665066429E+02	4.78928253465E+00	1.77956651024E+02	-4.52428718696E+01	-1.34886423670E+02	-5.87390524090E+00	-3.55186235417E-01
9.21357928659E+05	-1.43810494543E+01	1.79143815923E+02	4.75108215224E+00	1.77761918078E+02	-5.16178601150E+01	-6.68786713970E+01	-5.86853816436E+00	-4.11562733853E-01
9.43549283254E+05	-1.25776010913E+01	-1.64323564211E+02	4.76198018404E+00	1.77307675776E+02	-4.20686436131E+01	1.99988328700E+01	-5.87027935229E+00	-5.33217822288E-01
9.65740637849E+05	-1.06877081377E+01	-1.73549421188E+02	4.70467654302E+00	1.77207738609E+02	-3.95691796292E+01	1.39452623467E+02	-5.87504184004E+00	-5.18459969110E-01
9.87931992444E+05	-1.25602251381E+01	1.72458133873E+02	4.78896670992E+00	1.77517707106E+02	-4.35665560633E+01	-1.46834208928E+02	-5.86201333337E+00	-5.27040317224E-01
1.01012334704E+06	-1.61739716828E+01	-1.75842678530E+02	4.81507406924E+00	1.77103048068E+02	-4.46163347102E+01	-6.09646009153E+01	-5.87641948309E+00	-4.29069235138E-01
1.03231470163E+06	-1.08194206115E+01	1.76923792098E+02	4.72716286569E+00	1.77103586076E+02	-4.46034452903E+01	1.60368781404E+02	-5.86376031436E+00	-4.04343328592E-01
1.05450605623E+06	-1.38096086587E+01	-1.50068955206E+02	4.73146075376E+00	1.76871338726E+02	-4.79143199965E+01	1.63900371418E+02	-5.87895116758E+00	-7.72137416628E-01
1.07669741082E+06	-1.28260490575E+01	1.62545622715E+02	4.68484984146E+00	1.77426635419E+02	-5.90529662990E+01	-1.14499346055E+02	-5.85695720037E+00	-4.68136604508E-01
1.09888876542E+06	-1.32739426932E+01	-1.65387913631E+02	4.77706364439E+00	1.77049237417E+02	-5.60408025742E+01	-6.83516586468E+01	-5.86164619000E+00	-5.00206812238E-01
1.12108012001E+06	-1.09599519711E+01	1.78602047327E+02	4.73630552830E+00	1.76390984903E+02	-4.60275964547E+01	-1.35307367954E+02	-5.86237083558E+00	-5.19161092647E-01
1.14327147461E+06	-1.20057538638E+01	-1.54599090126E+02	4.75169882739E+00	1.76350991299E+02	-4.87572526554E+01	-1.79312087107E+02	-5.88435731136E+00	-6.52335126039E-01
1.16546282920E+06	-1.37582163928E+01	-1.73268966942E+02	4.78846498571E+00	1.76476855817E+02	-4.54541986200E+01	-2.66962115235E+01	-5.86952194492E+00	-5.32761089177E-01
1.18765418380E+06	-1.88066761308E+01	1.73950128999E+02	4.80437941508E+00	1.76630989549E+02	-3.61113316778E+01	8.39251452995E+00	-5.87092114013E+00	-6.17439949124E-01
1.20984553839E+06	-1.66960816562E+01	-1.53042108638E+02	4.79548405007E+00	1.76328676054E+02	-4.38423956306E+01	2.52825301804E+01	-5.87762365678E+00	-8.96263289919E-01
1.23203689299E+06	-1.69379389940E+01	-1.62538935785E+02	4.84540440061E+00	1.76227833933E+02	-4.13449980952E+01	1.25845002254E+01	-5.88615606122E+00	-3.86563605173E-01
1.25422824758E+06	-1.26029403520E+01	-1.55106540399E+02	4.81231505067E+00	1.75989652058E+02	-4.06661149253E+01	1.04252306093E+02	-5.85739451790E+00	-7.30247732106E-01
1.27641960218E+06	-1.42053861355E+01	-1.58464680950E+02	4.79942003827E+00	1.75883491663E+02	-4.37461178080E+01	1.48716036045E+02	-5.87652338460E+00	-5.23134234102E-01
1.29861095677E+06	-1.19611786634E+01	-1.47398667381E+02	4.80322120035E+00	1.75452262325E+02	-6.32085353372E+01	-1.05279247109E+02	-5.87271402393E+00	-7.08626103911E-01
1.32080231137E+06	-1.42142817962E+01	-1.51158485502E+02	4.82640055556E+00	1.75666280098E+02	-4.09852370235E+01	9.92336127266E+01	-5.88351386238E+00	-1.19317275222E+00
1.34299366596E+06	-1.44571954471E+01	-1.58277684312E+02	4.80764583058E+00	1.75750394497E+02	-3.33509372169E+01	-1.21041643717E+02	-5.85518831685E+00	-5.66419279883E-01
1.36518502056E+06	-1.60083419889E+01	-1.59378757976E+02	4.76547633131E+00	1.75886773740E+02	-4.64259887861E+01	-1.57905651658E+02	-5.89092618639E+00	-8.15332559560E-01
1.38737637515E+06	-1.34545465593E+01	-1.74393529372E+02	4.84935700848E+00	1.75566349679E+02	-6.04411877032E+01	8.29305125958E+01	-5.88556652466E+00	-7.57748171064E-01
1.40956772975E+06	-1.09088303540E+01	1.76060305664E+02	4.74534538133E+00	1.75566913508E+02	-4.85314183444E+01	-1.01329849894E+02	-5.86265358892E+00	-7.63327844141E-01
1.43175908434E+06	-1.29877238701E+01	1.65683442243E+02	4.73950424205E+00	1.75767634903E+02	-5.24148341717E+01	1.63660871661E+02	-5.86004776190E+00	-6.79408765058E-01
1.45395043894E+06	-1.57188909275E+01	1.78505196730E+02	4.77923466353E+00	1.75615551017E+02	-5.85807675547E+01	4.79119974024E+01	-5.88095327114E+00	-6.34533346011E-01
1.47614179353E+06	-1.23341328986E+01	1.63332761458E+02	4.78860571159E+00	1.75578770962E+02	-4.95141936836E+01	-3.31609402907E+01	-5.86997590967E+00	-8.07841951325E-01
1.49833314813E+06	-1.29895092286E+01	-1.53717769718E+02	4.79546956100E+00	1.75085963723E+02	-3.97146044953E+01	9.83829655944E+01	-5.85237169381E+00	-8.23744394881E-01
1.52052450272E+06	-1.19879934444E+01	-1.66996110329E+02	4.76694783625E+00	1.74868182293E+02	-4.24798628939E+01	-1.16390005274E+02	-5.87502559576E+00	-8.10743185852E-01
1.54271585732E+06	-1.46177345181E+01	1.79484781406E+02	4.77851664599E+00	1.74906495625E+02	-4.52711354832E+01	1.02215045426E+02	-5.87896655402E+00	-7.53113283055E-01
1.56490721191E+06	-1.57069636659E+01	-1.60435487033E+02	4.84708917968E+00	1.75170799599E+02	-4.55723055695E+01	1.48315617517E+02	-5.87475644946E+00	-8.18838923285E-01
1.58709856651E+06	-1.49054094411E+01	-1.77927672780E+02	4.73673796893E+00	1.74913914021E+02	-4.63561502970E+01	1.51832745549E+02	-5.87258336419E+00	-7.47710351859E-01
1.60928992110E+06	-1.22334957848E+01	-1.63810854384E+02	4.82303349517E+00	1.74635122037E+02	-4.57018209747E+01	-6.47748797414E+01	-5.87121729619E+00	-8.00150188057E-01
1.63148127570E+06	-1.57499888482E+01	-1.59625304985E+02	4.76950431408E+00	1.74458399792E+02	-4.54420844056E+01	-2.45064177978E+01	-5.87188688639E+00	-8.24267053841E-01
1.65367263029E+06	-3.77792596706E+01	7.15839986597E+01	4.85453150454E+00	1.74455361068E+02	-5.02718448715E+01	1.07071832371E+02	-5.85103018893E+00	-9.15010481081E-01
1.67586398489E+06	-1.67427057176E+01	-1.65652135412E+02	4.77547823056E+00	1.74429590853E+02	-3.81552403030E+01	-1.09491161595E+02	-5.84215088240E+00	-7.71735354631E-01
1.69805533948E+06	-1.38159852417E+01	-1.47702283246E+02	4.82657374877E+00	1.74070485921E+02	-4.71052868430E+01	-1.74206309998E+02	-5.85787526129E+00	-8.05622416930E-01
1.72024669408E+06	-1.22938498593E+01	1.77438696930E+02	4.73964027113E+00	1.73992963328E+02	-5.05933817178E+01	-2.52782654795E+01	-5.90387164951E+00	-8.24081604466E-01
1.74243804867E+06	-1.31590765080E+01	-1.45360344982E+02	4.81998867240E+00	1.74086253929E+02	-4.18222950328E+01	1.54132096855E+01	-5.88144871258E+00	-8.41533011000E-01
1.76462940327E+06	-1.58839089421E+01	-1.51921567196E+02	4.80920296313E+00	1.73943062565E+02	-5.36641565796E+01	-3.61040219567E+01	-5.85455318374E+00	-9.40777399847E-01
1.78682075786E+06	-1.73545621143E+01	-1.76089524540E+02	4.81902834065E+00	1.74004134887E+02	-4.41745083696E+01	1.08858511481E+02	-5.87042885415E+00	-9.53548937211E-01
1.80901211246E+06	-1.35171389437E+01	-1.30745700337E+02	4.83773555425E+00	1.73726839825E+02	-4.34210437259E+01	-1.39301200921E+01	-5.89115144160E+00	-8.76293790515E-01
1.83120346705E+06	-1.00435245255E+01	1.69121168594E+02	4.74352860663E+00	1.73647237560E+02	-4.05962586518E+01	-1.15768619756E+02	-5.87116155410E+00	-8.56862939617E-01
1.85339482165E+06	-1.25986699208E+01	-1.59973486768E+02	4.77286992084E+00	1.73594953463E+02	-4.61141084225E+01	-1.79622520721E+02	-5.82811607276E+00	-1.13130090942E+00
1.87558617624E+06	-1.24545878545E+01	-1.65647298898E+02	4.75922470765E+00	1.73715103290E+02	-5.85400911006E+01	-9.23903365922E+00	-5.87997397588E+00	-9.92618937160E-01
1.89777753084E+06	-1.39609136025E+01	-1.77551633804E+02	4.78674083157E+00	1.73527444440E+02	-4.53188118441E+01	-6.18554901198E+01	-5.86191713687E+00	-9.18520135335E-01
1.91996888543E+06	-1.48915123741E+01	-1.78790977858E+02	4.79748288772E+00	1.73404195805E+02	-4.27028469445E+01	-8.65924511687E+01	-5.87402600210E+00	-1.04803501036E+00
1.94216024003E+06	-1.52420699571E+01	-1.45211774953E+02	4.85851054820E+00	1.73425556174E+02	-4.33557463644E+01	3.62924736191E+01	-5.87482661123E+00	-1.04631112080E+00
1.96435159462E+06	-1.62953946317E+01	-1.46073101600E+02	4.87479656226E+00	1.73598347496E+02	-4.24236622298E+01	1.33648951397E+02	-5.86796561800E+00	-9.07933412058E-01
1.98654294922E+06	-1.04988842214E+01	-1.56788323124E+02	4.81641304267E+00	1.73020215920E+02	-3.25005364871E+01	-8.62766811169E+01	-5.89835453017E+00	-7.70441120203E-01
2.00873430381E+06	-1.51017558914E+01	-1.67853559875E+02	4.80762129241E+00	1.72792248823E+02	-4.40012582250E+01	1.55151266898E+02	-5.83964666998E+00	-1.03832552182E+00
2.03092565841E+06	-1.22022946793E+01	1.70727154893E+02	4.76789383524E+00	1.73288658409E+02	-4.43311293884E+01	-1.69130081685E+02	-5.85216314776E+00	-1.06279831013E+00
2.05311701300E+06	-1.70433283683E+01	-1.66935913175E+02	4.81648352414E+00	1.72922172813E+02	-5.68134335310E+01	3.55033063828E+01	-5.87537681054E+00	-1.09176044365E+00
2.07530836760E+06	-1.22599338970E+01	-1.74829886052E+02	4.77935742503E+00	1.72385741067E+02	-5.05583890024E+01	-1.49836345157E+02	-5.87912490926E+00	-9.44564400082E-01
2.09749972219E+06	-1.24656645366E+01	-1.69296542619E+02	4.78194050204E+00	1.72543009946E+02	-4.12279843428E+01	-1.27680754421E+01	-5.86243008946E+00	-9.61093411530E-01
2.11969107679E+06	-1.97133744753E+01	-1.45903799424E+02	4.82120344106E+00	1.72746137981E+02	-3.32223268500E+01	-1.49114854321E+02	-5.87078747775E+00	-9.81192734471E-01
2.14188243138E+06	-8.72292218061E+00	-1.33344878281E+02	4.85873355158E+00	1.72273964483E+02	-3.23183971016E+01	-1.06208792213E+02	-5.89353174251E+00	-1.07273002689E+00
2.16407378598E+06	-1.36309596770E+01	-1.52800552209E+02	4.81060133635E+00	1.72436281344E+02	-5.29523848611E+01	1.59012718605E+01	-5.85458264257E+00	-1.18457832416E+00
2.18626514057E+06	-1.38968349051E+01	-1.77273949412E+02	4.79658209904E+00	1.72560702702E+02	-4.91052943435E+01	-6.12140740052E+01	-5.85987267171E+00	-1.09913881046E+00
2.20845649517E+06	-1.22942806260E+01	-1.72967890532E+02	4.78984895151E+00	1.72052058180E+02	-3.93686074930E+01	-4.81877813306E+01	-5.90270327205E+00	-1.12681850171E+00
2.23064784976E+06	-1.47416586291E+01	-1.65794521086E+02	4.81710497156E+00	1.72020097737E+02	-4.50948985914E+01	1.15873205548E+02	-5.87400529948E+00	-1.00698420695E+00
2.25283920436E+06	-1.33415755261E+01	-1.59251623662E+02	4.78623997989E+00	1.71823163520E+02	-5.08952686695E+01	7.37952224074E+01	-5.87826847562E+00	-1.30199077298E+00
2.27503055895E+06	-1.20970364304E+01	-1.48995044541E+02	4.81765225454E+00	1.71855039096E+02	-4.72923531646E+01	9.20048274554E+00	-5.85627891169E+00	-1.16183662719E+00
2.29722191355E+06	-1.19390751557E+01	1.34809858505E+02	4.72073848814E+00	1.72233699336E+02	-3.80238553032E+01	-1.09997959156E+02	-5.89138141634E+00	-1.03789207989E+00
2.31941326814E+06	-1.59082889107E+01	-1.76069697765E+02	4.79862987080E+00	1.72077778862E+02	-4.84711603818E+01	-1.21287795423E+02	-5.85605564165E+00	-1.34396344570E+00
2.34160462274E+06	-1.45459806248E+01	-1.62508633942E+02	4.79865931764E+00	1.71866189047E+02	-4.64475066774E+01	4.69025210511E+01	-5.87425518040E+00	-1.14597819165E+00
2.36379597733E+06	-1.57454319291E+01	-1.68462719334E+02	4.82863999580E+00	1.71652511263E+02	-4.57878671314E+01	3.96445820970E+01	-5.88471306243E+00	-1.08878665706E+00
2.38598733193E+06	-1.29267994269E+01	-1.71073577986E+02	4.79696414706E+00	1.71661986741E+02	-5.26547473213E+01	9.59119015758E+01	-5.86861464744E+00	-1.35177134376E+00
2.40817868652E+06	-1.63171759931E+01	-1.56969057093E+02	4.88120778565E+00	1.71694074448E+02	-4.09459829966E+01	1.31007439183E+02	-5.83985231585E+00	-1.40187353372E+00
2.43037004112E+06	-1.65092320999E+01	-1.77031825411E+02	4.85171360293E+00	1.71595920407E+02	-5.17988965987E+01	-8.48974925783E+01	-5.89123406097E+00	-1.49665876209E+00
2.45256139571E+06	-9.03009986469E+00	-1.31704060841E+02	4.90439400435E+00	1.70890540162E+02	-3.29355376044E+01	5.18294977908E+00	-5.86950516289E+00	-1.49777512732E+00
2.47475275031E+06	-1.19558442039E+01	-1.70332026661E+02	4.82409065834E+00	1.71228292419E+02	-4.29468107524E+01	-7.77754394720E+01	-5.90730364896E+00	-1.09920360567E+00
2.49694410490E+06	-1.39181767709E+01	-1.65369045329E+02	4.85108597930E+00	1.70934416615E+02	-5.47008786527E+01	-3.67599881214E+00	-5.88773721712E+00	-1.14899041466E+00
2.51913545950E+06	-1.28596630673E+01	-1.67006250529E+02	4.79319323638E+00	1.71043052729E+02	-4.66282589713E+01	-1.30169198549E+02	-5.88426983810E+00	-1.17066932087E+00
2.54132681409E+06	-1.37469864826E+01	-1.65378920669E+02	4.83459823747E+00	1.70842567449E+02	-4.81848657337E+01	6.77522401802E+01	-5.87872685881E+00	-1.34570801682E+00
2.56351816869E+06	-1.52017126437E+01	-1.50688359089E+02	4.81101132641E+00	1.70478510083E+02	-4.47020378724E+01	-8.08770605804E+00	-5.87784312117E+00	-1.30282509104E+00
2.58570952328E+06	-1.29497409954E+01	-1.64031071163E+02	4.81057693350E+00	1.70542572533E+02	-5.15046556304E+01	2.54234166634E+01	-5.87339424805E+00	-1.39121185389E+00
2.60790087788E+06	-1.22695925821E+01	1.63782651469E+02	4.74055925694E+00	1.70693939198E+02	-3.72577538915E+01	1.18479159587E+02	-5.84548093673E+00	-1.15768317713E+00
2.63009223247E+06	-1.49305516592E+01	-1.36928058897E+02	4.88722529323E+00	1.70253561012E+02	-5.14655113934E+01	-8.66357900163E+01	-5.87903138617E+00	-8.84215391264E-01
2.65228358707E+06	-1.20655939346E+01	-1.74482757568E+02	4.81284036141E+00	1.70300755826E+02	-4.74610755048E+01	-1.65995284156E+02	-5.88616169658E+00	-1.27875316504E+00
2.67447494166E+06	-1.47871286671E+01	-1.79325368302E+02	4.79328728152E+00	1.70611130652E+02	-4.20108753262E+01	2.50789995747E+01	-5.85847375479E+00	-1.40438877590E+00
2.69666629626E+06	-1.52705985920E+01	-1.67526323065E+02	4.87497604900E+00	1.70233540785E+02	-4.85305144631E+01	2.14363635207E+00	-5.89895107938E+00	-1.30921757581E+00
2.71885765085E+06	-1.41969565743E+01	-1.71256190508E+02	4.80351979947E+00	1.70348672010E+02	-5.12724144420E+01	1.33620627950E+02	-5.86626266745E+00	-1.25521993555E+00
2.74104900545E+06	-1.40977291159E+01	-1.47420705684E+02	4.89800975291E+00	1.70306175267E+02	-5.49813311992E+01	-1.09293086721E+02	-5.86659564322E+00	-1.22555627783E+00
2.76324036004E+06	-1.29510024584E+01	1.76274086110E+02	4.77533780434E+00	1.69980814581E+02	-5.51800180790E+01	-1.15842336433E+02	-5.86919905966E+00	-1.42515264227E+00
2.78543171463E+06	-1.84662367522E+01	1.71020537649E+02	4.80580867874E+00	1.70539698611E+02	-4.30333773777E+01	9.46676332862E+01	-5.86454046355E+00	-1.51902943052E+00
2.80762306923E+06	-1.25981977082E+01	-1.57582536127E+02	4.87841154862E+00	1.69646271531E+02	-4.82733007398E+01	-1.66607021158E+02	-5.87768833267E+00	-1.49744494114E+00
2.82981442382E+06	-1.29625140285E+01	-1.67582715343E+02	4.83945573077E+00	1.69840017257E+02	-5.29831661693E+01	9.50163250251E+01	-5.86566745607E+00	-1.40602501740E+00
2.85200577842E+06	-1.18485882568E+01	-1.62526690756E+02	4.77752913062E+00	1.69593997373E+02	-4.51329049103E+01	3.57073385636E+01	-5.88147482464E+00	-1.43352021348E+00
2.87419713301E+06	-1.60133784221E+01	-1.49267320343E+02	4.93249484274E+00	1.69784684032E+02	-5.47638252083E+01	-1.60654537268E+01	-5.85448199355E+00	-1.55359418955E+00
