# Hz S DB R 50
! CMT, M5065, 19127446, 24.2.4/2
! Date: 11/8/2024 4:49:53 PM
! Data: Format (Calibration Info)
! Freq	S11:dB/Ang(F2)	S21:dB/Ang(F2)	S12:dB/Ang(F2)	S22:dB/Ang(F2)
3.00000000000E+05	-1.79978495569E+01	1.74014370180E+02	4.93987267896E+00	-1.77260333352E+02	-4.48530315286E+01	1.03635372293E+02	-5.87310045777E+00	-3.05324404561E-01
3.22191354595E+05	-1.68713105083E+01	-1.69822008144E+02	4.89285015529E+00	-1.77747829636E+02	-6.40852580810E+01	7.25039136491E+01	-5.88112005873E+00	-1.00855024034E-01
3.44382709190E+05	-1.25426004993E+01	-1.66117001221E+02	4.87499638398E+00	-1.78371298657E+02	-5.05854522330E+01	1.38386437340E+02	-5.86578564554E+00	-4.30896637654E-01
3.66574063785E+05	-1.83954103302E+01	1.74771619338E+02	4.92258398158E+00	-1.78305266761E+02	-3.88457327447E+01	-3.77405540260E+01	-5.88556001381E+00	-3.37528657021E-01
3.88765418380E+05	-1.33469702741E+01	-1.64078291272E+02	4.89672304850E+00	-1.77894014797E+02	-4.13138703066E+01	1.27483941438E+02	-5.85784527146E+00	-2.05150117711E-01
4.10956772975E+05	-1.53099532871E+01	-1.70756680350E+02	4.90133925490E+00	-1.79377251318E+02	-4.48980735031E+01	7.46004745119E+01	-5.87152336358E+00	-3.44514633695E-01
4.33148127570E+05	-1.28882155147E+01	-1.55164891574E+02	4.89674354496E+00	-1.79399055402E+02	-4.35300819520E+01	1.66515200298E+02	-5.84701007625E+00	-3.33636485826E-01
4.55339482165E+05	-1.44724175619E+01	-1.69760483762E+02	4.87973002171E+00	-1.79002712900E+02	-5.29719727184E+01	1.68689263312E+02	-5.86857329717E+00	-3.87747649121E-01
4.77530836760E+05	-1.50524363356E+01	-1.52932775015E+02	4.90470284082E+00	-1.79817509308E+02	-4.80886156189E+01	7.77141189778E+01	-5.84251781657E+00	-3.88345336883E-01
4.99722191355E+05	-1.14381632019E+01	-1.73784399230E+02	4.89800791502E+00	-1.79954410658E+02	-4.28564869747E+01	-1.43799264349E+02	-5.85082644278E+00	-3.83455319204E-01
5.21913545950E+05	-1.66397323082E+01	-1.60112505976E+02	4.90972536337E+00	1.79801789936E+02	-5.08882414543E+01	-1.23873454151E+02	-5.88447523098E+00	-4.22428350463E-01
5.44104900545E+05	-1.04971191200E+01	1.66858481697E+02	4.89304066862E+00	-1.79839462917E+02	-4.87119356829E+01	1.21590690727E+02	-5.85014278936E+00	-3.11362494354E-01
5.66296255139E+05	-1.20933349208E+01	-1.67357912317E+02	4.87183284608E+00	-1.79888800730E+02	-3.79094806634E+01	-1.72517732062E+02	-5.86479293815E+00	-4.84854817179E-01
5.88487609734E+05	-1.36158094178E+01	-1.56180456908E+02	4.90242749208E+00	1.79258790720E+02	-4.55403859200E+01	3.64258877656E+01	-5.87751533559E+00	-2.83798714189E-01
6.10678964329E+05	-1.31561511885E+01	-1.69981270552E+02	4.88402508288E+00	1.79289557000E+02	-4.11292006504E+01	8.42745276972E+01	-5.88444527614E+00	1.04561399167E-01
6.32870318924E+05	-1.04881394977E+01	-1.54804542060E+02	4.89006672521E+00	1.79119217073E+02	-5.44113995123E+01	-5.52828395184E+01	-5.88246536472E+00	-1.10708630582E-01
6.55061673519E+05	-1.37383976843E+01	-1.45692519335E+02	4.91656297709E+00	1.78907989255E+02	-5.01897889619E+01	-1.54250038148E+02	-5.86641976895E+00	-2.02344747816E-01
6.77253028114E+05	-1.60340343464E+01	1.48157534669E+02	4.92720246652E+00	1.79407278517E+02	-4.98990415538E+01	-1.61106644463E+02	-5.86089657920E+00	-6.69460106370E-01
6.99444382709E+05	-1.61461531812E+01	-1.73715983870E+02	4.89432702728E+00	1.78842231238E+02	-4.42904165839E+01	4.84225195417E+01	-5.85568655532E+00	-4.26821967925E-01
7.21635737304E+05	-1.80594711665E+01	-1.78329215093E+02	4.96501087332E+00	1.78820433462E+02	-4.93195534886E+01	-3.45372736247E+01	-5.87802953729E+00	-3.12680537232E-01
7.43827091899E+05	-1.94120849278E+01	1.71439985603E+02	4.95281185953E+00	1.78973107781E+02	-5.68022994260E+01	1.34627049240E+01	-5.86394381253E+00	-5.67545594857E-01
7.66018446494E+05	-1.64341745681E+01	1.66956599682E+02	4.92718439751E+00	1.78791036013E+02	-4.34028686355E+01	9.28017729086E+01	-5.86544702324E+00	-5.08621971146E-01
7.88209801089E+05	-1.40656669151E+01	-1.75843540045E+02	4.93217775274E+00	1.77878173943E+02	-6.03866908211E+01	2.24434346145E+00	-5.87829089698E+00	-2.88090809457E-01
8.10401155684E+05	-1.14174159961E+01	-1.70320873539E+02	4.84835508517E+00	1.78332294829E+02	-6.47890719483E+01	9.33003879188E+01	-5.85188889724E+00	-5.10067307101E-01
8.32592510279E+05	-1.61310957165E+01	-1.71779982027E+02	4.95084857549E+00	1.77944872123E+02	-5.43999565779E+01	1.77839178996E+00	-5.85505253548E+00	-4.20957540249E-01
8.54783864874E+05	-1.19298163689E+01	-1.68151847968E+02	4.89110659059E+00	1.77764526388E+02	-4.45647437407E+01	1.74275152951E+02	-5.87804432466E+00	-4.62463866976E-01
8.76975219469E+05	-1.36634458156E+01	1.79265001327E+02	4.89168711300E+00	1.78120744109E+02	-4.26325381046E+01	-5.47016831726E+01	-5.88329962722E+00	-4.75361236273E-01
8.99166574064E+05	-1.69730347799E+01	-1.78865352359E+02	4.91573417026E+00	1.77835656131E+02	-4.90110389373E+01	-1.59872073304E+02	-5.86476275902E+00	-3.92293242530E-01
9.21357928659E+05	-1.26887038865E+01	1.78800600544E+02	4.88030589373E+00	1.77862453388E+02	-4.59014149731E+01	-1.10227958339E+02	-5.87339702763E+00	-4.37781690042E-01
9.43549283254E+05	-1.40264834319E+01	1.63440986291E+02	4.92754215504E+00	1.77887971637E+02	-4.63896532017E+01	-4.09121658701E+01	-5.88702922027E+00	-4.87385002564E-01
9.65740637849E+05	-1.29503324970E+01	1.66948244335E+02	4.90688562076E+00	1.77399938308E+02	-5.38969925459E+01	-4.17870517938E+01	-5.86583643166E+00	-4.77490152445E-01
9.87931992444E+05	-1.45168286402E+01	-1.71350334055E+02	4.92989828452E+00	1.77536901125E+02	-5.68925896212E+01	-7.28269906139E+01	-5.89126136030E+00	-6.55466459020E-01
1.01012334704E+06	-1.18242973184E+01	-1.71706515327E+02	4.91641984536E+00	1.77060513015E+02	-4.08921105429E+01	-1.52420489313E+02	-5.84030522193E+00	-4.36261921909E-01
1.03231470163E+06	-1.34078737653E+01	-1.72677249215E+02	4.85254650253E+00	1.77513617704E+02	-4.16656769166E+01	1.04076162200E+02	-5.86968175637E+00	-4.93947214063E-01
1.05450605623E+06	-1.49707413427E+01	1.74009792573E+02	4.90140903473E+00	1.77020476351E+02	-4.34502125957E+01	-4.25862961876E+01	-5.86461064491E+00	-5.81199469245E-01
1.07669741082E+06	-1.38676614581E+01	-1.68581419934E+02	4.87315605653E+00	1.76886297076E+02	-4.84333434723E+01	4.34852945969E+01	-5.87262970023E+00	-4.95416134290E-01
1.09888876542E+06	-1.46031173402E+01	-1.67732412006E+02	4.95742543096E+00	1.77035012249E+02	-4.97501734376E+01	5.72856413919E+01	-5.86204964549E+00	-6.29440950480E-01
1.12108012001E+06	-1.29510382114E+01	-1.65301877046E+02	4.92170348104E+00	1.76503260526E+02	-4.60674001212E+01	4.78244556669E+01	-5.87691897299E+00	-6.19100620892E-01
1.14327147461E+06	-1.12066982210E+01	-1.50097743844E+02	4.91637610470E+00	1.76183977095E+02	-5.03231442036E+01	-1.14704760284E+02	-5.85833846323E+00	-5.47452768671E-01
1.16546282920E+06	-1.35399487108E+01	1.74719967504E+02	4.89353018725E+00	1.76474757933E+02	-3.69530972205E+01	-1.59212553282E+02	-5.84842517536E+00	-5.38995719879E-01
1.18765418380E+06	-1.33435004067E+01	-1.57201472439E+02	4.91971329066E+00	1.76343221903E+02	-4.75280210070E+01	1.45778844042E+02	-5.86293447292E+00	-5.64487652308E-01
1.20984553839E+06	-1.22366592599E+01	-1.49042984350E+02	4.90872436610E+00	1.76066169004E+02	-4.10631816662E+01	-9.10109400340E+01	-5.88558408361E+00	-6.23281991458E-01
1.23203689299E+06	-1.26400838862E+01	-1.76073215017E+02	4.92746978178E+00	1.76300710350E+02	-4.34909103516E+01	-4.68236142854E+01	-5.86618925905E+00	-4.60317114860E-01
1.25422824758E+06	-1.60262210261E+01	-1.47059402883E+02	4.95458961792E+00	1.76123529695E+02	-6.18744115977E+01	1.06808204243E+02	-5.87122504136E+00	-5.17948668978E-01
1.27641960218E+06	-1.25227761643E+01	-1.62814629410E+02	4.91929468214E+00	1.75696901721E+02	-5.27122532042E+01	9.23008013034E+01	-5.87683957950E+00	-7.10366396541E-01
1.29861095677E+06	-1.10981463781E+01	1.58991678610E+02	4.86774284361E+00	1.76153637461E+02	-3.92841984026E+01	-1.58081960716E+02	-5.86612606760E+00	-7.23249067624E-01
1.32080231137E+06	-1.41767992086E+01	-1.55974964490E+02	4.95147455991E+00	1.75726407881E+02	-5.04949743657E+01	-8.23180554978E+01	-5.86628697696E+00	-1.08847763131E+00
1.34299366596E+06	-1.51186111148E+01	1.69830641971E+02	4.91694082072E+00	1.75567515297E+02	-4.59739972140E+01	2.90635853774E+01	-5.86806659662E+00	-6.73692658540E-01
1.36518502056E+06	-1.84290561054E+01	-1.56081854292E+02	4.97801295853E+00	1.75758991386E+02	-4.53697677558E+01	1.35251940862E+02	-5.88733124580E+00	-7.89469384983E-01
1.38737637515E+06	-1.26798553286E+01	-1.64507543841E+02	4.90674862931E+00	1.75378736900E+02	-5.27314120532E+01	1.09007853116E+02	-5.87214763611E+00	-6.95848520650E-01
1.40956772975E+06	-1.63451907594E+01	1.72469312832E+02	4.92845475268E+00	1.75698026293E+02	-4.86884985912E+01	1.56446994112E+02	-5.86359982179E+00	-6.85222650993E-01
1.43175908434E+06	-1.40490102880E+01	-1.66996601378E+02	4.94845438021E+00	1.75371887362E+02	-4.65674647614E+01	-1.52846503537E+02	-5.85208826696E+00	-8.29960085053E-01
1.45395043894E+06	-1.05255600582E+01	-1.75141211384E+02	4.88812328533E+00	1.75000545179E+02	-5.05548231524E+01	-2.89962047573E+01	-5.88099294566E+00	-7.86784958075E-01
1.47614179353E+06	-1.42953809349E+01	-1.74928257628E+02	4.93811895296E+00	1.74810897942E+02	-4.83995877893E+01	1.12604908578E+02	-5.85754447923E+00	-7.39176009702E-01
1.49833314813E+06	-2.23679529344E+01	-1.55595084708E+02	4.93957925022E+00	1.75054101039E+02	-4.07319936357E+01	-6.75399163234E+01	-5.90225643363E+00	-7.79871349560E-01
1.52052450272E+06	-1.20710697960E+01	-1.69158449464E+02	4.86733561310E+00	1.74881746297E+02	-4.60937069016E+01	-8.73965509908E+01	-5.87260682170E+00	-7.42073044257E-01
1.54271585732E+06	-1.08130231011E+01	1.68328136885E+02	4.88204438926E+00	1.74829277348E+02	-4.50661851397E+01	-1.38631913811E+02	-5.86058057902E+00	-8.03585060921E-01
1.56490721191E+06	-1.17621140303E+01	1.69912920566E+02	4.88532161447E+00	1.75161047327E+02	-4.73372252065E+01	-1.41447536500E+02	-5.86293861445E+00	-8.34498152028E-01
1.58709856651E+06	-1.42079960561E+01	-1.74686433475E+02	4.98840264430E+00	1.74858754467E+02	-6.69444999290E+01	9.04564523379E+01	-5.85934836590E+00	-9.15808296074E-01
1.60928992110E+06	-1.52666226875E+01	-1.74965382478E+02	4.94983244935E+00	1.74673366455E+02	-4.93397503600E+01	-3.31500919665E+01	-5.86502969389E+00	-7.84749920045E-01
1.63148127570E+06	-2.72668679200E+01	1.70890072490E+02	4.92580436851E+00	1.75013734343E+02	-4.20794503235E+01	1.70013625056E+02	-5.87402212636E+00	-7.73669053485E-01
1.65367263029E+06	-1.31177465626E+01	-1.61406885110E+02	4.88368855306E+00	1.74410440335E+02	-4.13823094020E+01	-1.29580739728E+02	-5.86473365569E+00	-8.69634324395E-01
1.67586398489E+06	-1.49535729628E+01	-1.60184027843E+02	4.99586036589E+00	1.74392397034E+02	-5.33601093327E+01	-1.69657304818E+02	-5.87437180001E+00	-8.45478579002E-01
1.69805533948E+06	-1.22923356761E+01	-1.76872160010E+02	4.89778889101E+00	1.74551613662E+02	-5.15672807912E+01	5.04574400780E+01	-5.89056922241E+00	-1.00935506434E+00
1.72024669408E+06	-1.20357220763E+01	-1.57965408165E+02	4.93153261097E+00	1.73981267724E+02	-4.57715053483E+01	2.06161999361E+01	-5.86750594150E+00	-8.76786457495E-01
1.74243804867E+06	-1.50256537137E+01	1.68185863544E+02	4.89239024575E+00	1.74431199543E+02	-5.46858293412E+01	4.81734127450E+00	-5.88169617104E+00	-8.76572786652E-01
1.76462940327E+06	-1.31620467679E+01	-1.42734996770E+02	4.96879952702E+00	1.74091639450E+02	-5.55819086688E+01	1.56561917396E+02	-5.86605078052E+00	-9.47950095571E-01
1.78682075786E+06	-1.45452074141E+01	1.48145975680E+02	4.88562532915E+00	1.74338601800E+02	-4.94640317373E+01	-1.41237128473E+02	-5.87373701339E+00	-8.77203488952E-01
1.80901211246E+06	-1.32922756939E+01	-1.71256906850E+02	4.89974804438E+00	1.73603672565E+02	-4.52018144068E+01	1.50795677173E+02	-5.84355891516E+00	-9.76865775606E-01
1.83120346705E+06	-1.46590136568E+01	-1.61053032044E+02	4.93281130734E+00	1.73722669331E+02	-4.28490677061E+01	4.96168699375E+01	-5.87219027730E+00	-1.04106386807E+00
1.85339482165E+06	-1.27472503837E+01	1.72724704443E+02	4.90964301274E+00	1.73650330065E+02	-5.14217954399E+01	6.89952400477E+01	-5.87115315896E+00	-1.05355731134E+00
1.87558617624E+06	-1.32733054571E+01	-1.69537471413E+02	4.90030574957E+00	1.73692484090E+02	-4.26752492564E+01	1.76188055101E+02	-5.85979912732E+00	-9.37534371457E-01
1.89777753084E+06	-1.20833085264E+01	-1.62711363555E+02	4.90020548505E+00	1.73165825933E+02	-4.79664136215E+01	1.73074107881E+01	-5.88222785323E+00	-9.80677394007E-01
1.91996888543E+06	-1.05461425712E+01	-1.30931218290E+02	4.95451935518E+00	1.72804893259E+02	-4.44929090017E+01	-1.61577420118E+02	-5.87527332514E+00	-1.02287920042E+00
1.94216024003E+06	-1.06340781228E+01	1.79462486264E+02	4.85944413221E+00	1.72944711326E+02	-3.25626617748E+01	-1.37284112013E+02	-5.88062212152E+00	-8.25840872587E-01
1.96435159462E+06	-1.64112560745E+01	-1.68345276382E+02	4.93269673748E+00	1.73137017312E+02	-3.60280142850E+01	-1.67186706073E+02	-5.86528894899E+00	-9.13584122884E-01
1.98654294922E+06	-1.18074899845E+01	-1.65945611344E+02	4.92860562944E+00	1.72807840960E+02	-4.85187957476E+01	1.46633043177E+01	-5.86357895444E+00	-1.04318156465E+00
2.00873430381E+06	-1.39690333744E+01	-1.76425230507E+02	4.95332920883E+00	1.73072770090E+02	-5.67643613431E+01	1.32584340456E+02	-5.87421370873E+00	-1.00124823916E+00
2.03092565841E+06	-1.35702298207E+01	-1.64392460629E+02	4.95697775419E+00	1.72693236623E+02	-4.15829876155E+01	-5.55851544955E+01	-5.90325962023E+00	-8.94045415396E-01
2.05311701300E+06	-1.53583738093E+01	-1.62700751171E+02	4.91995333368E+00	1.73027201778E+02	-4.96116716559E+01	2.69954845713E+01	-5.85332675873E+00	-1.14474046037E+00
2.07530836760E+06	-1.12945646114E+01	-1.60074616295E+02	4.96314537831E+00	1.72612126438E+02	-4.76159788967E+01	-7.66410624283E+01	-5.87128799625E+00	-9.93444708378E-01
2.09749972219E+06	-9.55751351085E+00	1.41690040456E+02	4.84863618745E+00	1.72697465640E+02	-3.74948028519E+01	1.41055585557E+02	-5.86195938566E+00	-1.06951872568E+00
2.11969107679E+06	-1.43605482708E+01	-1.37925264672E+02	5.00983053986E+00	1.72130298432E+02	-3.51852079101E+01	7.56436855915E+01	-5.87134353792E+00	-1.11524036708E+00
2.14188243138E+06	-1.70963319313E+01	1.75517891133E+02	4.93120715862E+00	1.72727342384E+02	-4.75122517219E+01	1.68750417931E+02	-5.86603255438E+00	-1.05928886701E+00
2.16407378598E+06	-1.61152048259E+01	-1.70386580380E+02	4.92280909154E+00	1.72348781834E+02	-4.50270006624E+01	-2.43971432123E+01	-5.87684765479E+00	-1.17057168761E+00
2.18626514057E+06	-1.47898428769E+01	-1.61997273481E+02	4.96916158739E+00	1.72098820139E+02	-4.62382276187E+01	-1.53344884935E+02	-5.86683047615E+00	-1.16130577353E+00
2.20845649517E+06	-1.50870412316E+01	-1.62448999526E+02	4.93240618828E+00	1.72631556012E+02	-4.25015177712E+01	-8.23803641350E+01	-5.89197763240E+00	-1.11595577737E+00
2.23064784976E+06	-1.36368034924E+01	-1.54822566171E+02	4.96554808714E+00	1.71748179575E+02	-4.82562491356E+01	-6.50553015178E+01	-5.86253829014E+00	-1.05403242412E+00
2.25283920436E+06	-1.17403955203E+01	-1.54839246540E+02	5.00516488977E+00	1.71818710550E+02	-3.55736928087E+01	-1.54927560540E+02	-5.87731752350E+00	-9.65170735458E-01
2.27503055895E+06	-1.24570867389E+01	-1.76431385059E+02	4.90261903301E+00	1.72003389842E+02	-3.79018301606E+01	-5.97242451355E+01	-5.88798383945E+00	-1.06144355281E+00
2.29722191355E+06	-1.50967194809E+01	-1.53602861783E+02	4.96879391712E+00	1.71898863393E+02	-4.95145562373E+01	-6.82712680341E+01	-5.86968842628E+00	-1.09322790628E+00
2.31941326814E+06	-1.31781071225E+01	-1.79369909693E+02	4.91881852764E+00	1.71775173561E+02	-4.56061179459E+01	-1.19523323400E+02	-5.86435069659E+00	-1.05997496106E+00
2.34160462274E+06	-1.28029133681E+01	-1.63590046372E+02	4.98395370128E+00	1.71765074469E+02	-4.21281591407E+01	-1.71085296569E+02	-5.84431820111E+00	-1.07659135479E+00
2.36379597733E+06	-1.01890557810E+01	-1.67486932864E+02	4.93667782272E+00	1.71563675160E+02	-4.86254907296E+01	-9.23100249993E+01	-5.87830931820E+00	-1.30068828969E+00
2.38598733193E+06	-1.39482141418E+01	-1.73622674010E+02	4.94599024911E+00	1.71624161745E+02	-4.79019403615E+01	-1.53946526560E+02	-5.86922228372E+00	-1.20238639428E+00
2.40817868652E+06	-1.26672419005E+01	-1.66777749000E+02	5.00859623259E+00	1.71626072889E+02	-3.39060253749E+01	-9.78132781462E+01	-5.88470428334E+00	-1.12603052123E+00
2.43037004112E+06	-1.40420530510E+01	1.71820587057E+02	4.94056648568E+00	1.71532932904E+02	-3.04201649615E+01	6.01262131986E+01	-5.84182450998E+00	-1.88026356993E+00
2.45256139571E+06	-1.38607180205E+01	-1.51924362219E+02	4.96085059916E+00	1.71171679828E+02	-4.27234420979E+01	-7.28254945815E+01	-5.89464870921E+00	-1.04819810760E+00
2.47475275031E+06	-1.36669965613E+01	-1.39919365355E+02	4.96732580329E+00	1.71267174869E+02	-4.79356777354E+01	-2.47492529684E+01	-5.86541812769E+00	-1.26677801515E+00
2.49694410490E+06	-1.40601314573E+01	-1.66036682295E+02	4.94193187636E+00	1.71080387773E+02	-4.82444549068E+01	1.16211320856E+02	-5.86571859254E+00	-1.20894206157E+00
2.51913545950E+06	-1.43991506065E+01	1.77479654678E+02	4.93485580444E+00	1.71261871224E+02	-4.56836063799E+01	-2.86336156242E+01	-5.87366045624E+00	-1.26841190027E+00
2.54132681409E+06	-1.23436965764E+01	-1.68546239952E+02	4.94839554007E+00	1.70819261100E+02	-5.66204924758E+01	-3.16795861412E+01	-5.87528575768E+00	-1.30871346703E+00
2.56351816869E+06	-1.35426907736E+01	-1.45416402134E+02	4.99089153016E+00	1.70866499879E+02	-4.90088743499E+01	-4.41082824772E+01	-5.88945580015E+00	-1.20003324770E+00
2.58570952328E+06	-1.72693910879E+01	-1.74247341690E+02	4.98980581951E+00	1.70887237368E+02	-3.80672671130E+01	1.99924748940E+01	-5.87203567192E+00	-1.42141810732E+00
2.60790087788E+06	-1.34052003237E+01	-1.61341136448E+02	4.94875707119E+00	1.70747840653E+02	-6.44914745573E+01	-9.53329036515E+01	-5.88014916781E+00	-1.12120620081E+00
2.63009223247E+06	-1.40212257081E+01	-1.70305421726E+02	4.96108249653E+00	1.70519913809E+02	-4.90807304358E+01	-1.60865650017E+02	-5.87658351646E+00	-7.69571732752E-01
2.65228358707E+06	-1.16838017633E+01	-1.67306713411E+02	4.95648970820E+00	1.70332679492E+02	-5.02862066977E+01	7.05231196197E+01	-5.87742942948E+00	-1.31682377469E+00
2.67447494166E+06	-1.46692856289E+01	-1.40199621697E+02	5.02772297619E+00	1.70245014538E+02	-4.72023028942E+01	3.45245150483E+01	-5.88553481724E+00	-1.45758652762E+00
2.69666629626E+06	-1.40612330123E+01	-1.71025638960E+02	4.92652939284E+00	1.70570504526E+02	-4.60232731669E+01	1.63779402445E+02	-5.86877340542E+00	-1.32750277788E+00
2.71885765085E+06	-1.66076027812E+01	1.77105584261E+02	4.97859626057E+00	1.70480869647E+02	-4.62430267500E+01	-4.21639469831E+01	-5.86747030304E+00	-1.43128691250E+00
2.74104900545E+06	-1.07764812353E+01	-1.67289953179E+02	4.93768699333E+00	1.69855308779E+02	-4.13546568768E+01	1.59605458497E+02	-5.86310194159E+00	-1.29904595306E+00
2.76324036004E+06	-1.24790228323E+01	-1.71343213554E+02	4.91705807212E+00	1.70205715601E+02	-3.70945309063E+01	-7.04782906095E+01	-5.88420923256E+00	-1.22552587583E+00
2.78543171463E+06	-1.63818889601E+01	-1.56548974114E+02	5.02158927918E+00	1.69630932301E+02	-5.43223653545E+01	-6.17886577098E+01	-5.88067243599E+00	-1.37765635129E+00
2.80762306923E+06	-1.37600178821E+01	-1.58537805578E+02	4.97467980880E+00	1.69864319195E+02	-4.29872288412E+01	1.45445299048E+02	-5.87740225002E+00	-1.41255346929E+00
2.82981442382E+06	-1.44969272677E+01	-1.59978031352E+02	4.99683893505E+00	1.69531885379E+02	-4.53059631890E+01	-2.30603910652E+01	-5.86479504038E+00	-1.52085729467E+00
2.85200577842E+06	-1.35179429047E+01	-1.61294485703E+02	4.97975795074E+00	1.69768387833E+02	-4.95530435303E+01	3.24475065392E+01	-5.86510380464E+00	-1.48763619740E+00
2.87419713301E+06	-1.49191494242E+01	-1.16829222730E+02	5.06176735488E+00	1.69563028238E+02	-5.12954756581E+01	1.24758868109E+02	-5.87703241201E+00	-1.51611977337E+00
