# Hz S DB R 50
! CMT, M5065, 19127446, 24.2.4/2
! Date: 11/8/2024 4:53:13 PM
! Data: Format (Calibration Info)
! Freq	S11:dB/Ang(F2)	S21:dB/Ang(F2)	S12:dB/Ang(F2)	S22:dB/Ang(F2)
3.00000000000E+05	-1.14587253798E+01	-1.79896940207E+02	5.73555720712E+00	-1.77427663593E+02	-4.05701675825E+01	-1.99581702485E+01	-5.87874043014E+00	-3.37473711999E-01
3.22191354595E+05	-1.46229492100E+01	1.70848888951E+02	5.83383201518E+00	-1.77832352754E+02	-3.58561215043E+01	6.58680730609E+01	-5.85958118040E+00	-3.20970354855E-01
3.44382709190E+05	-1.09947744901E+01	1.77231579386E+02	5.81482495833E+00	-1.78339062274E+02	-4.51897113382E+01	-1.06205286861E+02	-5.85111107262E+00	-3.32947716849E-01
3.66574063785E+05	-1.26174558188E+01	1.72208778795E+02	5.80362723945E+00	-1.78529853641E+02	-4.90955480960E+01	1.56682831825E+01	-5.87494788889E+00	-2.03369132925E-01
3.88765418380E+05	-1.89897994649E+01	-1.59361640647E+02	5.85008587784E+00	-1.78248284284E+02	-4.71095620673E+01	-1.12918391954E+02	-5.87557749003E+00	-1.47950730188E-03
4.10956772975E+05	-1.44260744857E+01	-1.61497730389E+02	5.80129234966E+00	-1.79247067591E+02	-3.80820709091E+01	-8.47432860735E+01	-5.86299032279E+00	-7.65723976697E-02
4.33148127570E+05	-1.38888884964E+01	-1.69519815004E+02	5.81787617216E+00	-1.78967422573E+02	-4.74408000966E+01	1.63800571681E+02	-5.85059055402E+00	-3.39370034700E-01
4.55339482165E+05	-1.12906233826E+01	-1.74274407564E+02	5.81834733646E+00	-1.79425654260E+02	-4.73216842650E+01	1.14962337144E+02	-5.87150873542E+00	-4.12295450630E-01
4.77530836760E+05	-1.36040040855E+01	-1.68605610863E+02	5.81707206436E+00	-1.79746389840E+02	-4.10439483917E+01	-1.64931263518E+02	-5.83992755736E+00	-3.32481285769E-01
4.99722191355E+05	-1.27304934195E+01	-1.73326827693E+02	5.82276609504E+00	-1.79829454534E+02	-4.74361322298E+01	-2.78156189161E+01	-5.87855312365E+00	-2.67276078276E-01
5.21913545950E+05	-1.80659632919E+01	-1.64006448275E+02	5.83126702792E+00	1.79785736889E+02	-4.46372316460E+01	-3.62280461056E+01	-5.87088499292E+00	-2.38489108370E-01
5.44104900545E+05	-1.47501064717E+01	-1.52454591457E+02	5.82693191568E+00	1.79873461144E+02	-4.30463995556E+01	-5.60999228383E+01	-5.88010680402E+00	-1.75396613617E-01
5.66296255139E+05	-1.43056179352E+01	1.73887357700E+02	5.80363850585E+00	1.79721157981E+02	-4.40808795273E+01	-1.40719563253E+02	-5.86491320648E+00	-2.11328918433E-01
5.88487609734E+05	-1.43556595637E+01	-1.61156763424E+02	5.82676916446E+00	1.79444251931E+02	-4.99736160321E+01	-1.31250061524E+02	-5.87765070183E+00	-4.91133363182E-01
6.10678964329E+05	-1.41692274114E+01	-1.70209662126E+02	5.81035102834E+00	1.79183708503E+02	-5.45656994483E+01	1.07762139671E+00	-5.88236469880E+00	1.91311182084E-01
6.32870318924E+05	-1.24114503446E+01	-1.54414344049E+02	5.83399595758E+00	1.79131643744E+02	-3.70042028236E+01	1.08464251424E+02	-5.86994290985E+00	-1.87497468108E-01
6.55061673519E+05	-1.47782995887E+01	-1.61885544278E+02	5.80081192541E+00	1.78834068152E+02	-4.15013713735E+01	1.51785619958E+02	-5.84668574953E+00	-3.24451615538E-01
6.77253028114E+05	-1.26897878840E+01	-1.59592349818E+02	5.82034500557E+00	1.78719172196E+02	-4.92753360227E+01	1.69717843041E+02	-5.86298311830E+00	-6.42556266792E-01
6.99444382709E+05	-1.43738239053E+01	-1.48738527487E+02	5.88963570298E+00	1.78554274576E+02	-4.76324087656E+01	1.34775009113E+02	-5.85974510814E+00	-5.07602601729E-01
7.21635737304E+05	-1.45955513385E+01	-1.67610188228E+02	5.81616731507E+00	1.78896727512E+02	-5.06175393424E+01	-6.65354393436E+01	-5.87929796358E+00	-4.47279574360E-01
7.43827091899E+05	-1.36828276510E+01	-1.74225674441E+02	5.82932115151E+00	1.78655891252E+02	-4.64289731749E+01	8.81168747584E+00	-5.86943878049E+00	-3.64316607904E-01
7.66018446494E+05	-1.44272523092E+01	-1.79767665339E+02	5.82264123360E+00	1.78321072649E+02	-4.90015235728E+01	-1.69997441735E+02	-5.86078033519E+00	-3.88041692920E-01
7.88209801089E+05	-2.08653728662E+01	-1.74096079459E+02	5.83722806220E+00	1.78253072793E+02	-3.95283460573E+01	-9.48678141350E+01	-5.85225251826E+00	-5.34650367388E-01
8.10401155684E+05	-1.69604597613E+01	-1.06619476959E+02	5.89950479037E+00	1.77930134944E+02	-3.74196191400E+01	-1.39380565904E+02	-5.86904974454E+00	-3.41866444812E-01
8.32592510279E+05	-1.30361937451E+01	1.71651220661E+02	5.81321563414E+00	1.78145971240E+02	-5.52444204569E+01	-1.59742654098E+02	-5.85677906900E+00	-4.51690464579E-01
8.54783864874E+05	-1.61510552015E+01	-1.78968358173E+02	5.88599860924E+00	1.78015719881E+02	-4.20885410351E+01	-5.41730942028E+01	-5.90132499016E+00	-3.11647601619E-01
8.76975219469E+05	-1.15603284303E+01	-1.73509765098E+02	5.80463424547E+00	1.77875967438E+02	-4.63860978737E+01	-2.89688026621E+00	-5.88633803768E+00	-5.16157681010E-01
8.99166574064E+05	-1.63431400128E+01	1.69810223480E+02	5.84055893351E+00	1.78026417179E+02	-4.63418392336E+01	-9.72337392167E+01	-5.86188970369E+00	-5.32546014206E-01
9.21357928659E+05	-1.19235913213E+01	1.78923651633E+02	5.82342083609E+00	1.77660770579E+02	-5.49646228509E+01	1.79171561307E+02	-5.86374981883E+00	-5.11028618347E-01
9.43549283254E+05	-1.85389327342E+01	-1.58363030432E+02	5.90059031336E+00	1.77508001694E+02	-3.92228309889E+01	-1.39124788026E+02	-5.86085948786E+00	-4.32111835271E-01
9.65740637849E+05	-1.52817556368E+01	1.67786332381E+02	5.81424891361E+00	1.77184896361E+02	-3.96602579424E+01	7.43060299383E+01	-5.84208543599E+00	-6.32119803518E-01
9.87931992444E+05	-1.28857289639E+01	-1.66216163175E+02	5.81129330786E+00	1.77087880889E+02	-4.51314896508E+01	-1.85098676861E+01	-5.88288245751E+00	-5.06375333267E-01
1.01012334704E+06	-1.28076701065E+01	-1.79232159264E+02	5.80600190908E+00	1.76922998115E+02	-4.99557405502E+01	6.02261973097E+00	-5.87693939029E+00	-6.30915654340E-01
1.03231470163E+06	-1.61297424624E+01	1.70632879162E+02	5.81986608521E+00	1.77295400645E+02	-4.21377959718E+01	-2.85193773846E+01	-5.86414328396E+00	-5.18720580846E-01
1.05450605623E+06	-1.45161153956E+01	-1.72773046606E+02	5.85080501329E+00	1.76793819340E+02	-4.67818571196E+01	1.40977422547E+02	-5.85430251517E+00	-5.62799900800E-01
1.07669741082E+06	-1.56399279334E+01	-1.65108356667E+02	5.83841720404E+00	1.76910174167E+02	-4.54935573869E+01	-2.82954286479E+01	-5.86729540903E+00	-5.33971775788E-01
1.09888876542E+06	-1.34170711722E+01	1.52741304300E+02	5.85104605834E+00	1.77336605197E+02	-4.23658905931E+01	7.62649869266E+01	-5.85459243121E+00	-5.87781708487E-01
1.12108012001E+06	-1.51312820961E+01	-1.70891517264E+02	5.86955745974E+00	1.76398817276E+02	-4.12277495997E+01	1.49837238258E+02	-5.86085403462E+00	-5.52038910733E-01
1.14327147461E+06	-1.24703483900E+01	-1.70821165135E+02	5.82581890599E+00	1.76472034136E+02	-4.30293915201E+01	1.00928202111E+02	-5.86106377219E+00	-7.97757631128E-01
1.16546282920E+06	-1.67196034364E+01	-1.66547432751E+02	5.85327378774E+00	1.76424932594E+02	-5.50615960386E+01	8.40083662229E+01	-5.86985691251E+00	-5.67167724300E-01
1.18765418380E+06	-1.30607529426E+01	-1.71881263428E+02	5.81048212825E+00	1.76002254841E+02	-4.86497013556E+01	-1.43093659128E+02	-5.85447319574E+00	-4.78714941172E-01
1.20984553839E+06	-1.62306287750E+01	-1.60152491586E+02	5.86376357205E+00	1.76231855795E+02	-4.93113450678E+01	-1.76165996732E+02	-5.85519800649E+00	-8.41358939020E-01
1.23203689299E+06	-1.47585665395E+01	-1.71887908727E+02	5.83078251760E+00	1.76177968935E+02	-5.20800507364E+01	1.46110357951E+02	-5.87221310820E+00	-4.27710692752E-01
1.25422824758E+06	-1.34171860184E+01	-1.76484231950E+02	5.82538477092E+00	1.76235624481E+02	-4.05605745323E+01	1.42021767937E+02	-5.88194215663E+00	-7.16635116352E-01
1.27641960218E+06	-1.16193614873E+01	-1.72090862851E+02	5.83352359553E+00	1.75723538779E+02	-3.96064533244E+01	7.00422862265E+01	-5.86536872951E+00	-7.36455241592E-01
1.29861095677E+06	-1.09468896384E+01	-1.74502343556E+02	5.80326989905E+00	1.75703933688E+02	-4.50920890874E+01	-1.18153373940E+02	-5.89447405334E+00	-7.06026611106E-01
1.32080231137E+06	-1.38067133911E+01	-1.73994419698E+02	5.81968682721E+00	1.75491401240E+02	-4.30648526900E+01	-1.19583715230E+02	-5.87441372448E+00	-8.58359163135E-01
1.34299366596E+06	-1.43086222117E+01	-1.49695872439E+02	5.81211802678E+00	1.75315897335E+02	-4.83158215527E+01	-1.17599753809E+02	-5.86007017612E+00	-7.75425295333E-01
1.36518502056E+06	-1.71201463424E+01	-1.71843998458E+02	5.80957039241E+00	1.75550227080E+02	-4.73911217827E+01	-8.35386191714E+01	-5.86056385003E+00	-7.02971982622E-01
1.38737637515E+06	-1.72286440267E+01	-1.62714591198E+02	5.86585234532E+00	1.75283007079E+02	-5.08033100056E+01	-9.85231602934E+01	-5.88638187226E+00	-6.91283412580E-01
1.40956772975E+06	-1.35546906371E+01	-1.61665805837E+02	5.85398071747E+00	1.75077509669E+02	-4.58411729133E+01	-1.36432248536E+02	-5.86081877510E+00	-6.08891871328E-01
1.43175908434E+06	-1.66810699224E+01	-1.79534242763E+02	5.86821507300E+00	1.75257682137E+02	-4.77842404119E+01	2.40450424656E+01	-5.87410102916E+00	-8.99077216324E-01
1.45395043894E+06	-1.39396573372E+01	1.48619298531E+02	5.81070526894E+00	1.75318906048E+02	-4.17987489579E+01	-7.97125992876E+01	-5.87493030888E+00	-8.27346674600E-01
1.47614179353E+06	-1.21219714064E+01	1.73315720893E+02	5.84529593029E+00	1.74873845384E+02	-4.20514328021E+01	1.21792837150E+02	-5.84047954549E+00	-7.65528459417E-01
1.49833314813E+06	-1.40497077164E+01	-1.55929861104E+02	5.84104527835E+00	1.74670857402E+02	-5.14487515509E+01	1.61879674106E+02	-5.85628553223E+00	-8.33972826113E-01
1.52052450272E+06	-1.36809497764E+01	-1.61580745655E+02	5.85328896454E+00	1.74449045931E+02	-4.86027429725E+01	1.35305155006E+02	-5.87648054543E+00	-8.93668180155E-01
1.54271585732E+06	-1.39706402839E+01	-1.62736015090E+02	5.86615765525E+00	1.74705470964E+02	-4.59124929444E+01	2.18630311073E+01	-5.87337309028E+00	-8.07460493540E-01
1.56490721191E+06	-1.41249724203E+01	-1.75828976997E+02	5.84232437859E+00	1.74558277122E+02	-4.76251106553E+01	-2.86262013955E+01	-5.85728992437E+00	-7.23754794134E-01
1.58709856651E+06	-1.13227158076E+01	-1.53167379185E+02	5.84445936790E+00	1.74227640097E+02	-4.38278004056E+01	1.53165753916E+02	-5.86930008331E+00	-8.59227430484E-01
1.60928992110E+06	-1.22670477664E+01	-1.77813254825E+02	5.81773822755E+00	1.74334394769E+02	-4.17724615032E+01	-1.74894144069E+02	-5.85532350404E+00	-9.35188970329E-01
1.63148127570E+06	-1.46232517699E+01	-1.60755108544E+02	5.86839947196E+00	1.74224345637E+02	-4.35084703126E+01	-4.85796029174E+01	-5.89974581401E+00	-7.68535839466E-01
1.65367263029E+06	-1.33289908050E+01	1.78075126706E+02	5.84364767499E+00	1.74497411005E+02	-4.86516709467E+01	4.69086081104E+01	-5.88245817482E+00	-7.65590977345E-01
1.67586398489E+06	-1.46442164133E+01	1.77846679546E+02	5.82503905355E+00	1.74203550242E+02	-5.18716822546E+01	-1.09867743283E+02	-5.88975175606E+00	-7.27447588721E-01
1.69805533948E+06	-1.72537142888E+01	-1.65089357941E+02	5.85726704269E+00	1.74067563282E+02	-4.01634901410E+01	1.62699570614E+02	-5.87230438700E+00	-8.42250160313E-01
1.72024669408E+06	-1.24531175984E+01	-1.50646829071E+02	5.84772748188E+00	1.73694472938E+02	-4.29092027074E+01	6.40360512938E+01	-5.85914555629E+00	-9.23567610146E-01
1.74243804867E+06	-1.24507466857E+01	1.68225168065E+02	5.84993575253E+00	1.73963331378E+02	-4.23184396862E+01	-1.37671122155E+02	-5.84748049453E+00	-9.17628235632E-01
1.76462940327E+06	-1.58278989284E+01	-1.65730995675E+02	5.83337971717E+00	1.74094247034E+02	-5.45284797470E+01	1.26313313353E+02	-5.86934051900E+00	-9.54152331733E-01
1.78682075786E+06	-1.49248004758E+01	1.77154630866E+02	5.85289114530E+00	1.73563476019E+02	-5.28836168869E+01	2.42061610512E+00	-5.87250637323E+00	-8.27878494394E-01
1.80901211246E+06	-1.39152726626E+01	-1.71234667316E+02	5.88199291695E+00	1.73714994295E+02	-5.19512048909E+01	4.83835083231E+01	-5.86865109303E+00	-8.87769079070E-01
1.83120346705E+06	-1.84205135950E+01	-1.64960855232E+02	5.89430321109E+00	1.73989985330E+02	-4.21156726791E+01	-1.42271447225E+02	-5.85322430753E+00	-9.21305529522E-01
1.85339482165E+06	-1.11261423940E+01	-1.68334733283E+02	5.81886252578E+00	1.73140602313E+02	-4.58691532398E+01	-4.61049479898E+01	-5.88091607592E+00	-9.11598648987E-01
1.87558617624E+06	-1.42582718175E+01	1.78630709962E+02	5.84006028733E+00	1.73400886576E+02	-4.53809508762E+01	-1.15238036886E+02	-5.85848373571E+00	-8.82472315568E-01
1.89777753084E+06	-9.23310748319E+00	-1.53738292640E+02	5.83059698250E+00	1.72858237342E+02	-3.75571055724E+01	-1.71887815478E+02	-5.86058147145E+00	-9.35856884590E-01
1.91996888543E+06	-1.94702339844E+01	-1.26493188777E+02	5.92101824321E+00	1.73318784850E+02	-5.41195032410E+01	1.49701766829E+02	-5.87160090211E+00	-9.74787063230E-01
1.94216024003E+06	-1.25094192003E+01	-1.49169725152E+02	5.87960742133E+00	1.72691915004E+02	-4.46577679331E+01	1.01294122240E+02	-5.87782868056E+00	-1.02458954952E+00
1.96435159462E+06	-1.34815921783E+01	-1.68620738630E+02	5.87630008203E+00	1.72777768063E+02	-4.51991725043E+01	-6.64368114506E-01	-5.87025653511E+00	-9.76658173810E-01
1.98654294922E+06	-1.46000871384E+01	-1.58854587171E+02	5.86373437800E+00	1.72667939135E+02	-5.13212918087E+01	1.50638268232E+02	-5.86205384736E+00	-1.03284503018E+00
2.00873430381E+06	-1.37663147930E+01	-1.50964747422E+02	5.89371738133E+00	1.72448070869E+02	-4.56854155596E+01	-4.97117899756E+01	-5.86716473347E+00	-1.02184751954E+00
2.03092565841E+06	-1.40478480363E+01	-1.56389211242E+02	5.86905131404E+00	1.72386759359E+02	-3.96611013770E+01	-4.45112864485E+01	-5.88417364096E+00	-9.71047652342E-01
2.05311701300E+06	-1.57299811437E+01	1.71428578060E+02	5.85533688902E+00	1.72589737412E+02	-3.50035417813E+01	-1.77301137785E+02	-5.86261209134E+00	-7.94966519645E-01
2.07530836760E+06	-1.79889690993E+01	-1.53764697022E+02	5.88534675360E+00	1.72564129778E+02	-4.19485220056E+01	7.66183708295E+01	-5.85610628103E+00	-1.14257181685E+00
2.09749972219E+06	-1.60791448624E+01	-1.72918196478E+02	5.92529794327E+00	1.72572407727E+02	-4.49520126721E+01	-9.03225275570E+01	-5.90192352112E+00	-1.04715726180E+00
2.11969107679E+06	-1.25637927411E+01	-1.63003081435E+02	5.85117848022E+00	1.72011216259E+02	-5.00955301672E+01	1.01295867145E+02	-5.85311968953E+00	-1.02845350911E+00
2.14188243138E+06	-1.40004230902E+01	-1.64513035058E+02	5.85000583276E+00	1.71708548785E+02	-4.42688741686E+01	-6.62983378254E+01	-5.88467129615E+00	-1.09305849058E+00
2.16407378598E+06	-1.80039804723E+01	-1.67070579982E+02	5.91705756352E+00	1.72414188943E+02	-5.02660311889E+01	-1.19537527399E+02	-5.87224503738E+00	-1.09714917564E+00
2.18626514057E+06	-1.30918764801E+01	-1.67939705153E+02	5.85070956779E+00	1.71790377053E+02	-5.88509100749E+01	2.61349447226E+00	-5.86924513551E+00	-1.22693297498E+00
2.20845649517E+06	-1.00433284542E+01	-1.73823177160E+02	5.82868189116E+00	1.71712133458E+02	-3.37773720615E+01	-4.56347753080E+01	-5.92704746784E+00	-1.22378488835E+00
2.23064784976E+06	-1.91670934329E+01	-1.74335315362E+02	5.87922325872E+00	1.72082450849E+02	-3.68776769511E+01	-6.55090336386E+01	-5.87569512618E+00	-1.08951726774E+00
2.25283920436E+06	-1.52255792444E+01	-1.74068758757E+02	5.87948701241E+00	1.71790562026E+02	-4.55696228941E+01	7.97432642001E+00	-5.88241486864E+00	-1.14872063996E+00
2.27503055895E+06	-1.51922207273E+01	-1.63162127758E+02	5.86383508316E+00	1.71489122992E+02	-4.65417445157E+01	1.73538373189E+02	-5.88906132113E+00	-1.08158908897E+00
2.29722191355E+06	-1.27175934213E+01	-1.71880311069E+02	5.87912012328E+00	1.71494799465E+02	-4.50132173442E+01	-1.28350476805E+02	-5.87935882558E+00	-1.21129580242E+00
2.31941326814E+06	-1.17724789359E+01	-1.56136005598E+02	5.86861654209E+00	1.70932933620E+02	-4.40104001421E+01	3.66172739215E+01	-5.87446110642E+00	-1.43611698441E+00
2.34160462274E+06	-1.41421146105E+01	-1.42358828434E+02	5.84011017039E+00	1.71255364676E+02	-5.49858136719E+01	2.76938785372E+01	-5.87078300133E+00	-1.13955274355E+00
2.36379597733E+06	-1.26513509274E+01	-1.59804751075E+02	5.85079475380E+00	1.71032210569E+02	-3.79043169172E+01	-1.24522733122E+02	-5.86256141072E+00	-1.11567040995E+00
2.38598733193E+06	-1.14782492074E+01	1.56850000598E+02	5.88401689666E+00	1.71587054593E+02	-5.55889540314E+01	-5.71279232679E+01	-5.85893520802E+00	-1.06785240026E+00
2.40817868652E+06	-1.20950871533E+01	-1.51994508413E+02	5.87478674093E+00	1.70958161017E+02	-4.66475660942E+01	-2.28043276306E+01	-5.87651700857E+00	-1.38349224068E+00
2.43037004112E+06	-1.29480427241E+01	-1.78867879909E+02	5.85306542362E+00	1.70679092588E+02	-4.64869819486E+01	-1.14520409224E+02	-5.88985333276E+00	-1.68167359866E+00
2.45256139571E+06	-1.53299581571E+01	-1.68672687738E+02	5.89953050500E+00	1.71079443641E+02	-4.54313508850E+01	-1.71758888463E+02	-5.84204677512E+00	-1.06530884299E+00
2.47475275031E+06	-1.44769465645E+01	-1.78110803195E+02	5.88207372829E+00	1.70773885248E+02	-5.51726672404E+01	1.76018973919E+02	-5.88313521112E+00	-1.27634908096E+00
2.49694410490E+06	-1.12565307155E+01	-1.72358252085E+02	5.82899484597E+00	1.70839183971E+02	-4.25075341540E+01	1.74410195907E+02	-5.86786793768E+00	-1.20797646786E+00
2.51913545950E+06	-1.47381181485E+01	-1.53288884510E+02	5.88696723777E+00	1.70488859355E+02	-3.65501222293E+01	-1.98969794612E+01	-5.91059188747E+00	-1.39077846801E+00
2.54132681409E+06	-9.49631872081E+00	-1.64041692167E+02	5.90068439426E+00	1.70014765383E+02	-3.96977841238E+01	-1.67064339372E+02	-5.87430801260E+00	-1.20593957177E+00
2.56351816869E+06	-1.32291858863E+01	-1.64699068055E+02	5.87562903150E+00	1.70377835069E+02	-4.43338827295E+01	4.90842208202E+01	-5.88265185676E+00	-1.42137583335E+00
2.58570952328E+06	-1.65136377838E+01	-1.52841696056E+02	5.90079307199E+00	1.70424767605E+02	-4.12985820586E+01	-1.29220593850E+02	-5.88430695767E+00	-1.02587318023E+00
2.60790087788E+06	-1.81939848567E+01	1.67943650021E+02	5.88990043485E+00	1.70446236844E+02	-4.22288289326E+01	1.66494756469E+01	-5.89471231627E+00	-1.31071120202E+00
2.63009223247E+06	-1.37241982496E+01	-1.35565382743E+02	5.90581947266E+00	1.69803584744E+02	-4.23190431920E+01	-1.28110081721E+02	-5.88388920338E+00	-8.20533859330E-01
2.65228358707E+06	-1.32418776375E+01	-1.52960191653E+02	5.88672733472E+00	1.69538884467E+02	-4.94579974760E+01	-9.99562131653E+01	-5.87288553763E+00	-1.37393756814E+00
2.67447494166E+06	-1.31946252472E+01	-1.54433171009E+02	5.89706411378E+00	1.69682660157E+02	-4.81568236289E+01	-1.01236061717E+02	-5.88227737413E+00	-1.43807194182E+00
2.69666629626E+06	-1.16960703529E+01	-1.71392628960E+02	5.86416904402E+00	1.69882101917E+02	-3.81441148113E+01	1.14074654657E+01	-5.84793778038E+00	-1.49104445756E+00
2.71885765085E+06	-1.23180033087E+01	-1.53130513558E+02	5.88515108671E+00	1.69482047207E+02	-4.58159062319E+01	-1.02597127390E+01	-5.89282924741E+00	-1.49579379065E+00
2.74104900545E+06	-1.71753026369E+01	-1.66123405430E+02	5.98241982838E+00	1.69464280644E+02	-4.93404579828E+01	1.50674622452E+02	-5.84943227328E+00	-1.37937417787E+00
2.76324036004E+06	-1.57465567826E+01	-1.60195967420E+02	5.91697984168E+00	1.69534226909E+02	-4.21709242496E+01	1.16671083977E+02	-5.86374876868E+00	-1.36452387159E+00
2.78543171463E+06	-1.37781107887E+01	-1.50301311302E+02	5.89787457507E+00	1.69515300388E+02	-4.97965473346E+01	-1.48554681927E+02	-5.88773143108E+00	-1.18520066750E+00
2.80762306923E+06	-1.34233782259E+01	-1.62922093847E+02	5.86889646324E+00	1.69201556183E+02	-4.30366833869E+01	-3.03185488921E+01	-5.88813588517E+00	-1.58308559157E+00
2.82981442382E+06	-1.41347103116E+01	-1.62768947001E+02	5.87845609844E+00	1.69222277418E+02	-3.84173430745E+01	-3.13502307975E+01	-5.90079688767E+00	-1.47139879844E+00
2.85200577842E+06	-9.05386444652E+00	-1.51771940877E+02	5.89594004723E+00	1.68898570500E+02	-4.44044951501E+01	4.12772456108E+01	-5.87556563489E+00	-1.46122459899E+00
2.87419713301E+06	-1.47141458298E+01	-1.64363594374E+02	5.90929061871E+00	1.69110421580E+02	-5.90255104959E+01	9.77764030175E+01	-5.89156375903E+00	-1.46757385392E+00
