# Hz S DB R 50
! CMT, M5065, 19127446, 24.2.4/2
! Date: 11/8/2024 5:14:11 PM
! Data: Format (Calibration Info)
! Freq	S11:dB/Ang(F2)	S21:dB/Ang(F2)	S12:dB/Ang(F2)	S22:dB/Ang(F2)
3.00000000000E+05	-1.19492535442E+01	-1.67817482247E+02	1.17256609598E+01	-1.77186977725E+02	-4.34767925036E+01	-6.03253831110E+01	-5.87999006342E+00	-2.05109532782E-01
3.22191354595E+05	-1.23259745248E+01	1.70026373579E+02	1.17587238301E+01	-1.77479550251E+02	-4.64618917931E+01	-6.62848892823E+01	-5.86829620088E+00	-2.48439822128E-01
3.44382709190E+05	-1.25112909201E+01	-1.58890249988E+02	1.17396427485E+01	-1.78223738613E+02	-5.47220616042E+01	-1.10914653665E+02	-5.87634344694E+00	-1.99393190413E-01
3.66574063785E+05	-1.30364366227E+01	-1.77176954472E+02	1.17498991361E+01	-1.78362210933E+02	-5.54881602094E+01	1.07295230695E+02	-5.86025272931E+00	-2.16238338234E-01
3.88765418380E+05	-1.39386129858E+01	-1.77434783984E+02	1.18099646085E+01	-1.79112120243E+02	-4.32505319286E+01	-1.51448873552E+02	-5.84547386998E+00	-2.22488034767E+00
4.10956772975E+05	-9.92705420372E+00	-1.58546622238E+02	1.17718807338E+01	-1.79375750737E+02	-4.83108151476E+01	-1.69127880969E+02	-5.86783018803E+00	-3.14786727551E-01
4.33148127570E+05	-1.07520500319E+01	-1.73106299159E+02	1.17319504230E+01	-1.79433244438E+02	-4.07598595044E+01	6.95067255210E+01	-5.88532411228E+00	-5.44151702887E-01
4.55339482165E+05	-1.20473257034E+01	-1.58280734877E+02	1.17325491913E+01	-1.79974950833E+02	-4.40616115975E+01	-2.46641946192E+01	-5.90214193351E+00	-3.40270736541E-01
4.77530836760E+05	-1.09911516951E+01	1.62861400949E+02	1.17330785583E+01	-1.79654833164E+02	-4.93433396968E+01	6.28300447336E+01	-5.87896352653E+00	-3.99531528126E-01
4.99722191355E+05	-1.18424557728E+01	-1.68656882165E+02	1.17147093105E+01	1.79806969267E+02	-4.99384759917E+01	-1.30984519511E+02	-5.84932609751E+00	-4.08588279911E-01
5.21913545950E+05	-1.28945593229E+01	-1.53721119670E+02	1.17614105839E+01	1.79336582878E+02	-4.31937946270E+01	-1.38617554276E+02	-5.87524268599E+00	-2.75198538932E-01
5.44104900545E+05	-1.14655472350E+01	-1.53290975972E+02	1.17540435405E+01	1.79235530577E+02	-3.96429105617E+01	-8.72919017265E+01	-5.89000997619E+00	-2.76302482646E-01
5.66296255139E+05	-1.06665540560E+01	-1.64962246330E+02	1.18008165271E+01	1.79122817619E+02	-5.52520601189E+01	1.79993329069E+02	-5.88180590588E+00	-3.13261840776E-01
5.88487609734E+05	-1.44151873925E+01	-1.67582819943E+02	1.17753749320E+01	1.78692146655E+02	-4.34990809498E+01	1.34691034972E+02	-5.84786687558E+00	-5.21347995210E-01
6.10678964329E+05	-1.42744155640E+01	1.70382238331E+02	1.17581209284E+01	1.79008694394E+02	-5.49755664633E+01	-8.22609961122E+01	-5.87483017711E+00	7.82022855977E-02
6.32870318924E+05	-1.46711052764E+01	1.75814137055E+02	1.17780378092E+01	1.78633786573E+02	-4.36123996684E+01	2.89606541229E+01	-5.88384915795E+00	-2.29182122134E-01
6.55061673519E+05	-1.21442803162E+01	-1.75528945442E+02	1.17532194706E+01	1.78383697119E+02	-6.43192764102E+01	1.23644061504E+02	-5.88493837077E+00	-4.21698884243E-01
6.77253028114E+05	-1.51545243174E+01	-1.55382267791E+02	1.18022988314E+01	1.78125945229E+02	-4.49791545942E+01	1.58275594428E+02	-5.84030095286E+00	-8.22915788939E-01
6.99444382709E+05	-1.14438523536E+01	-1.63878879239E+02	1.17870009268E+01	1.77631319932E+02	-4.55729712308E+01	1.62217132322E+02	-5.86232890545E+00	-4.54420695395E-01
7.21635737304E+05	-1.18981078207E+01	1.67427116031E+02	1.17515170831E+01	1.77948230494E+02	-6.98355137792E+01	5.33666762656E+01	-5.87605044711E+00	-3.50151048514E-01
7.43827091899E+05	-1.34973888280E+01	-1.61509215002E+02	1.17793082142E+01	1.77510921508E+02	-4.05801317866E+01	-7.60425147815E+01	-5.87525721084E+00	-3.27603124542E-01
7.66018446494E+05	-1.41291892824E+01	1.60191838876E+02	1.17565403954E+01	1.77743781497E+02	-5.01328988858E+01	6.82871695399E+00	-5.89011228241E+00	-4.59405061335E-01
7.88209801089E+05	-1.30213137958E+01	-1.70196052392E+02	1.17475251819E+01	1.77115480851E+02	-4.01888209863E+01	-1.71530080581E+02	-5.84314655699E+00	-3.88415121305E-01
8.10401155684E+05	-1.37758038360E+01	-1.69289672322E+02	1.17571964851E+01	1.76979753667E+02	-4.65145764222E+01	1.50038203787E+02	-5.88635309994E+00	-6.03391968293E-01
8.32592510279E+05	-1.45626246413E+01	1.78365035295E+02	1.17568072912E+01	1.76953073408E+02	-4.26110542949E+01	6.23475645145E+00	-5.90495971630E+00	-3.56839290513E-01
8.54783864874E+05	-1.20964030541E+01	1.71564368715E+02	1.17293050841E+01	1.76916313928E+02	-3.97232367848E+01	1.68284947240E+02	-5.84794580043E+00	-6.66053359124E-01
8.76975219469E+05	-1.18958390318E+01	1.79964308665E+02	1.17498747228E+01	1.76569354414E+02	-4.28466219379E+01	-4.06521014782E+01	-5.89329875407E+00	-4.91155626261E-01
8.99166574064E+05	-1.24416329547E+01	-1.55214518623E+02	1.17839990978E+01	1.76360730486E+02	-4.48320135777E+01	1.54582011016E+02	-5.87302481333E+00	-4.74404448129E-01
9.21357928659E+05	-1.15135614385E+01	-1.74343646575E+02	1.17602916535E+01	1.76310885814E+02	-4.23258094361E+01	1.32658630360E+02	-5.84163733730E+00	-5.60019423028E-01
9.43549283254E+05	-1.40867962813E+01	-1.54753369959E+02	1.17640807793E+01	1.76100812565E+02	-4.91659015799E+01	1.31791412140E+02	-5.84301714567E+00	-5.48584113100E-01
9.65740637849E+05	-1.63432796048E+01	-1.68841645978E+02	1.17857658784E+01	1.75984488834E+02	-6.60384862433E+01	-6.37409524130E+01	-5.88183069760E+00	-6.60775569890E-01
9.87931992444E+05	-1.45123466212E+01	-1.78844034066E+02	1.17548873739E+01	1.75820153286E+02	-4.54193152136E+01	1.34691316230E+01	-5.89155431465E+00	-5.32482632973E-01
1.01012334704E+06	-1.30351675474E+01	1.52885406887E+02	1.17486771934E+01	1.75983895118E+02	-4.40548926570E+01	-8.78618326438E+01	-5.85422000501E+00	-6.59307105101E-01
1.03231470163E+06	-1.36143196570E+01	-1.78914084471E+02	1.17669904939E+01	1.75553618796E+02	-4.20332168261E+01	1.39955732347E+02	-5.86941508288E+00	-5.93192910609E-01
1.05450605623E+06	-1.06629166941E+01	-1.63483596647E+02	1.17227267018E+01	1.74921916590E+02	-4.72501719703E+01	-1.56217574747E+02	-5.87826214961E+00	-5.79339467157E-01
1.07669741082E+06	-1.42731688669E+01	-1.60875948709E+02	1.17556743470E+01	1.75005326578E+02	-4.66635211486E+01	1.79666064306E+02	-5.87369268295E+00	-7.81197841581E-01
1.09888876542E+06	-1.44520963942E+01	-1.63418397541E+02	1.17739260017E+01	1.74810607737E+02	-5.53142624053E+01	7.94333497096E+01	-5.87951410388E+00	-5.46588230981E-01
1.12108012001E+06	-1.49999052604E+01	1.79146095562E+02	1.17939944101E+01	1.74955607322E+02	-4.44289630823E+01	-7.76548379139E+01	-5.85612506780E+00	-4.68418694996E-01
1.14327147461E+06	-1.36004137550E+01	1.70961010514E+02	1.17869666400E+01	1.74877240128E+02	-5.32977194330E+01	-6.27001496582E+01	-5.87044089790E+00	-5.69643783131E-01
1.16546282920E+06	-1.66247730740E+01	1.75648093236E+02	1.17887346013E+01	1.74646570756E+02	-4.07680279093E+01	-4.18789295862E+01	-5.89788823244E+00	-5.27930032245E-01
1.18765418380E+06	-1.66542215544E+01	1.70015512421E+02	1.17806208058E+01	1.74763074282E+02	-5.37025041896E+01	-1.27493673772E+02	-5.88422886446E+00	-5.64633545650E-01
1.20984553839E+06	-1.37482331717E+01	-1.58559531630E+02	1.17720310699E+01	1.74403044286E+02	-4.46636972140E+01	1.29687285742E+02	-5.85703579777E+00	-7.10768169407E-01
1.23203689299E+06	-1.41348658116E+01	1.79410154530E+02	1.17631665754E+01	1.74188371004E+02	-3.69962311862E+01	1.63447619890E+02	-5.83717802221E+00	-4.79979663206E-01
1.25422824758E+06	-1.51070359048E+01	1.79224669775E+02	1.17562928577E+01	1.74220802028E+02	-6.17669072516E+01	-1.40573195657E+02	-5.88067828513E+00	-6.60898790303E-01
1.27641960218E+06	-1.35152728010E+01	-1.59920842847E+02	1.17960313202E+01	1.73896067477E+02	-4.38567797744E+01	9.02728623972E+01	-5.87408532666E+00	-7.95735783293E-01
1.29861095677E+06	-1.27682426166E+01	1.74940819431E+02	1.17666926033E+01	1.73845100676E+02	-4.88368541184E+01	-7.81311911362E+01	-5.87560644873E+00	-7.20953270467E-01
1.32080231137E+06	-1.37616730389E+01	-1.46819089259E+02	1.18109276924E+01	1.73424447484E+02	-4.38102862129E+01	1.20110722503E+02	-5.83490519006E+00	-1.09466284686E+00
1.34299366596E+06	-1.18874289047E+01	1.79665714219E+02	1.17360144863E+01	1.73521816065E+02	-4.03670474334E+01	-1.76137629325E+02	-5.85235631188E+00	-6.65942029952E-01
1.36518502056E+06	-1.25487631879E+01	1.77527637636E+02	1.17685889186E+01	1.73301828955E+02	-4.23586441768E+01	-5.79633977479E+01	-5.87622984445E+00	-5.70509389793E-01
1.38737637515E+06	-1.41942005738E+01	-1.66471369599E+02	1.17645483422E+01	1.73033960487E+02	-5.12956266413E+01	-1.24534930027E+02	-5.87979925191E+00	-7.29794260937E-01
1.40956772975E+06	-1.28594091782E+01	-1.69381890427E+02	1.17706592563E+01	1.73047983600E+02	-4.92503288985E+01	1.50584799905E+02	-5.87270217175E+00	-6.70689579631E-01
1.43175908434E+06	-1.46852644096E+01	-1.52265943128E+02	1.17894308044E+01	1.72932270441E+02	-4.76111200834E+01	-6.68445256462E+01	-5.88571494088E+00	-5.60331597509E-01
1.45395043894E+06	-1.36975057898E+01	-1.71447973752E+02	1.17854140468E+01	1.72919114732E+02	-5.00783026346E+01	-8.05219021264E+00	-5.88090139386E+00	-6.58871043890E-01
1.47614179353E+06	-1.36181106726E+01	1.74213169923E+02	1.17471866491E+01	1.72927949485E+02	-4.62359681750E+01	-1.67078809399E+02	-5.84425785728E+00	-7.33894822554E-01
1.49833314813E+06	-1.38414438004E+01	1.72926537491E+02	1.17586580203E+01	1.72428141400E+02	-4.11462210696E+01	-2.51762769908E+01	-5.90354809259E+00	-7.59281753020E-01
1.52052450272E+06	-1.29608188641E+01	1.59132301160E+02	1.17608745412E+01	1.72570394347E+02	-4.61825337440E+01	1.41440303344E+02	-5.87804321523E+00	-8.17605167079E-01
1.54271585732E+06	-1.36150842543E+01	1.67959120632E+02	1.17255662409E+01	1.72445429996E+02	-4.09348634716E+01	-8.07507193439E+01	-5.90515940779E+00	-6.62665066988E-01
1.56490721191E+06	-1.21320425482E+01	-1.63874093784E+02	1.17373685430E+01	1.72184163965E+02	-4.53763411694E+01	-7.67834120576E+01	-5.88903649259E+00	-7.99213857250E-01
1.58709856651E+06	-1.10076208964E+01	-1.73185733116E+02	1.17476326248E+01	1.71989595845E+02	-5.05099960601E+01	-7.55648270459E+01	-5.87106758589E+00	-8.10435881073E-01
1.60928992110E+06	-1.37127480466E+01	-1.55070605058E+02	1.17891231234E+01	1.71868864229E+02	-6.09433585093E+01	2.00994058824E+01	-5.90030780081E+00	-7.18590544162E-01
1.63148127570E+06	-1.30840277972E+01	-1.68861239981E+02	1.17847985784E+01	1.71826107409E+02	-4.37828489904E+01	8.07195398643E+00	-5.89049825583E+00	-9.73152660573E-01
1.65367263029E+06	-1.24565031679E+01	1.67326213880E+02	1.17304422692E+01	1.71623538231E+02	-7.24222504725E+01	1.99101840403E+00	-5.87372723629E+00	-8.32033208854E-01
1.67586398489E+06	-1.06719451161E+01	-1.61288006159E+02	1.17422098778E+01	1.71372120268E+02	-4.65429360098E+01	-5.34917735048E+01	-5.91230765769E+00	-7.81840436687E-01
1.69805533948E+06	-1.24921497347E+01	-1.75175601655E+02	1.17344948334E+01	1.71347624340E+02	-4.86716081026E+01	-5.78647217895E+01	-5.87836784783E+00	-7.98644143930E-01
1.72024669408E+06	-1.24410998702E+01	-1.70717224740E+02	1.17557214542E+01	1.71286638213E+02	-6.13562564040E+01	6.42987828484E+01	-5.87230664343E+00	-1.15757329594E+00
1.74243804867E+06	-1.22035040560E+01	-1.70387267750E+02	1.17815022865E+01	1.71149892495E+02	-4.88525114638E+01	-6.07060280318E+01	-5.90089868960E+00	-8.74786390202E-01
1.76462940327E+06	-1.05960335607E+01	-1.79569413288E+02	1.17155858000E+01	1.70979667419E+02	-4.75862999964E+01	1.16286061634E+02	-5.86112904419E+00	-8.82029947595E-01
1.78682075786E+06	-1.28813981551E+01	-1.61167125924E+02	1.17475720128E+01	1.70698088081E+02	-6.18527079773E+01	7.49997409845E+01	-5.88453823160E+00	-1.04974016786E+00
1.80901211246E+06	-1.43681611616E+01	-1.60742396421E+02	1.17819896086E+01	1.70721762017E+02	-4.13475908178E+01	2.73060276269E+01	-5.88251085911E+00	-9.99766171427E-01
1.83120346705E+06	-1.46801477430E+01	1.58398107136E+02	1.17407083506E+01	1.70581001270E+02	-5.93398616239E+01	1.29274236077E+02	-5.87337869357E+00	-8.85311547603E-01
1.85339482165E+06	-1.10754109934E+01	1.77675508872E+02	1.17447572009E+01	1.70414013435E+02	-6.08165526802E+01	-3.64050326257E+00	-5.89761074786E+00	-9.47753270608E-01
1.87558617624E+06	-1.56734058218E+01	-1.65571084077E+02	1.17908045062E+01	1.70291897327E+02	-4.23176479231E+01	-1.68313581288E+02	-5.84491152207E+00	-8.88777709369E-01
1.89777753084E+06	-1.47857295890E+01	-1.68160940313E+02	1.17835249344E+01	1.70259276967E+02	-4.88974844964E+01	1.14450400941E+02	-5.89138779900E+00	-1.14613725166E+00
1.91996888543E+06	-1.27043727425E+01	-1.66978548001E+02	1.17609894670E+01	1.69988978278E+02	-5.06821501297E+01	-1.05368016274E+02	-5.85713472080E+00	-1.04302235598E+00
1.94216024003E+06	-1.14150378710E+01	-1.74299253010E+02	1.17768225952E+01	1.70029001729E+02	-4.73736248593E+01	-4.72839271968E+01	-5.90675808272E+00	-1.04945698589E+00
1.96435159462E+06	-1.70910699930E+01	-1.55271821456E+02	1.18019604783E+01	1.69788770826E+02	-3.95426531520E+01	8.32197935332E+01	-5.88419350024E+00	-1.11136264940E+00
1.98654294922E+06	-1.83159882876E+01	1.54505203160E+02	1.17622858840E+01	1.70130934194E+02	-4.85519114286E+01	-7.93164853554E+01	-5.88407159267E+00	-8.91996636445E-01
2.00873430381E+06	-1.62864634803E+01	-1.76452423752E+02	1.18165351074E+01	1.69916478245E+02	-4.47377741719E+01	-1.70984031906E+02	-5.84640831212E+00	-9.52581872955E-01
2.03092565841E+06	-1.30001897373E+01	-1.77916895992E+02	1.17937871099E+01	1.69294934898E+02	-4.42629675285E+01	-1.37695078027E+02	-5.89141471248E+00	-9.04703786717E-01
2.05311701300E+06	-1.18265595138E+01	-1.61620133143E+02	1.17687407090E+01	1.69315551191E+02	-4.54715974174E+01	-1.75090100591E+02	-5.86029652258E+00	-9.62871903737E-01
2.07530836760E+06	-1.42424251243E+01	-1.76561274507E+02	1.17733585756E+01	1.69205250899E+02	-4.37586217881E+01	1.16219130643E+02	-5.85519943105E+00	-1.13044484850E+00
2.09749972219E+06	-1.35278619531E+01	-1.70478325852E+02	1.17917552291E+01	1.69214215903E+02	-3.47004318825E+01	-7.20016630680E+01	-5.93905545850E+00	-8.65326147172E-01
2.11969107679E+06	-1.16420638291E+01	1.72081571480E+02	1.17662269017E+01	1.68956870952E+02	-3.85773309120E+01	-4.42089206632E+01	-5.90543847812E+00	-1.22687105362E+00
2.14188243138E+06	-1.49108232462E+01	-1.70963800394E+02	1.17834944415E+01	1.68952438459E+02	-6.89467401235E+01	1.01343342734E+02	-5.88087660969E+00	-1.14097666869E+00
2.16407378598E+06	-1.39600732518E+01	-1.76472356847E+02	1.17861417690E+01	1.68814655781E+02	-4.74654476795E+01	1.75639617501E+02	-5.87028321352E+00	-1.06208602572E+00
2.18626514057E+06	-1.57248502303E+01	-1.70935971377E+02	1.18137148738E+01	1.68644707061E+02	-4.44289618139E+01	1.59012890714E+02	-5.87152873387E+00	-1.13601695941E+00
2.20845649517E+06	-1.30285607882E+01	-1.69840747427E+02	1.18014140870E+01	1.68390153827E+02	-4.26041027661E+01	4.71882308070E+01	-5.88662893655E+00	-1.25947829522E+00
2.23064784976E+06	-1.30934313506E+01	-1.72968581007E+02	1.18011176679E+01	1.68340641385E+02	-4.56036504949E+01	-1.54316541323E+01	-5.88950868483E+00	-1.24032040916E+00
2.25283920436E+06	-9.98427346736E+00	-1.69731809825E+02	1.17720964656E+01	1.67946942635E+02	-4.00500876441E+01	1.55823198840E+02	-5.83198976723E+00	-1.19068683719E+00
2.27503055895E+06	-1.06666840208E+01	-1.54411789615E+02	1.17928907379E+01	1.67842012524E+02	-4.56035820874E+01	7.82821849496E+00	-5.84845012348E+00	-1.28841671953E+00
2.29722191355E+06	-1.00120128705E+01	-1.56109266583E+02	1.18040497867E+01	1.67698755717E+02	-4.24469061694E+01	1.71626993749E+02	-5.84591172506E+00	-1.21590788065E+00
2.31941326814E+06	-1.14721284597E+01	-1.67207798312E+02	1.17753116274E+01	1.68084595387E+02	-4.02792911020E+01	1.22902361323E+02	-5.84410181431E+00	-1.32975995517E+00
2.34160462274E+06	-1.35088138296E+01	-1.49668904592E+02	1.18048230825E+01	1.67467977189E+02	-4.85653951392E+01	7.30811677500E+01	-5.87840755683E+00	-1.26717585877E+00
2.36379597733E+06	-1.11869655823E+01	-1.53463512323E+02	1.18016571545E+01	1.67331031162E+02	-4.80402130146E+01	1.43529568447E+02	-5.86275776503E+00	-1.30039765351E+00
2.38598733193E+06	-1.26000327349E+01	-1.65255800275E+02	1.17660457697E+01	1.67463254269E+02	-4.10993069119E+01	-1.17189664712E+02	-5.89912942864E+00	-1.11830122463E+00
2.40817868652E+06	-1.38845888453E+01	1.75383296754E+02	1.17937400906E+01	1.67546132215E+02	-5.30352268347E+01	7.09422435622E+01	-5.85898834941E+00	-1.48995882714E+00
2.43037004112E+06	-1.28959920277E+01	-1.44133259755E+02	1.18167443887E+01	1.67066759118E+02	-3.86150842556E+01	-1.22088716036E+02	-5.90280806554E+00	-1.45187595731E+00
2.45256139571E+06	-1.00366469664E+01	-1.50320598643E+02	1.18633810401E+01	1.66951437171E+02	-4.56851341499E+01	-9.76973377162E+01	-5.86643867649E+00	-1.12518322048E+00
2.47475275031E+06	-1.14124018936E+01	-1.60431938736E+02	1.18068170543E+01	1.67000980137E+02	-5.14188583784E+01	2.68331117267E+01	-5.89358216233E+00	-1.32332096664E+00
2.49694410490E+06	-1.20118698601E+01	-1.68924336651E+02	1.18036801791E+01	1.66778715672E+02	-4.30629300248E+01	1.69072157861E+02	-5.86423815058E+00	-1.19667877783E+00
2.51913545950E+06	-1.58895454907E+01	-1.56356238395E+02	1.18211015779E+01	1.66813989195E+02	-5.19941794509E+01	1.38523421014E+02	-5.88921274689E+00	-1.33849627854E+00
2.54132681409E+06	-1.12171222120E+01	-1.66134671265E+02	1.17799736288E+01	1.66536484550E+02	-4.41590922736E+01	-7.07732875645E+00	-5.88450656307E+00	-1.17663385343E+00
2.56351816869E+06	-1.18418577828E+01	-1.71855763523E+02	1.17714812317E+01	1.66344733588E+02	-4.84432063219E+01	-4.47130535180E+01	-5.87683441684E+00	-1.17952151209E+00
2.58570952328E+06	-1.00861112677E+01	-1.64097743163E+02	1.17596926607E+01	1.66159629649E+02	-7.04067199494E+01	1.17303629461E+02	-5.86647991775E+00	-1.42057376658E+00
2.60790087788E+06	-1.22558118314E+01	1.79447905341E+02	1.17683642382E+01	1.66100435978E+02	-5.51264535528E+01	-1.58312950420E+02	-5.87337266913E+00	-1.28755444305E+00
2.63009223247E+06	-1.24691759227E+01	-1.73312531842E+02	1.17924535772E+01	1.66057398298E+02	-4.30287660933E+01	-1.38772708660E+01	-5.91171982947E+00	-9.72382872795E-01
2.65228358707E+06	-1.19594066397E+01	1.79356718126E+02	1.17756179576E+01	1.65862720535E+02	-4.48916470468E+01	1.43514161244E+02	-5.86375909289E+00	-1.33821584882E+00
2.67447494166E+06	-1.33047660314E+01	-1.50643888459E+02	1.18489684397E+01	1.65592658285E+02	-5.17033438683E+01	3.58832849330E+01	-5.88240846095E+00	-1.44691398519E+00
2.69666629626E+06	-1.64843252032E+01	-1.75865949617E+02	1.18204280929E+01	1.65926004130E+02	-5.02476996485E+01	1.62056702101E+02	-5.86656414016E+00	-1.39348638800E+00
2.71885765085E+06	-1.15844119583E+01	-1.63865669232E+02	1.17863141858E+01	1.65542625366E+02	-4.89988580980E+01	1.28488660778E+02	-5.84755779070E+00	-1.28163231354E+00
2.74104900545E+06	-1.11098518655E+01	-1.66168919465E+02	1.17784681037E+01	1.65229442470E+02	-3.96492539940E+01	1.30829510901E+02	-5.86738607749E+00	-1.32802090817E+00
2.76324036004E+06	-2.12322601426E+01	-1.54400651183E+02	1.17979210808E+01	1.65452589056E+02	-4.55421671389E+01	-1.19720079906E+02	-5.88804220167E+00	-1.30222778516E+00
2.78543171463E+06	-1.25039462208E+01	-1.68640183636E+02	1.17885413928E+01	1.65203023666E+02	-4.30233142297E+01	-1.44865508132E+02	-5.87096337045E+00	-1.18518936419E+00
2.80762306923E+06	-1.32985148715E+01	-1.66187906579E+02	1.18114158817E+01	1.65043967530E+02	-4.65581589955E+01	1.25071472576E+02	-5.85466887639E+00	-1.46255128511E+00
2.82981442382E+06	-1.32938998899E+01	-1.68057141990E+02	1.18319974956E+01	1.64950460166E+02	-4.66740371534E+01	-1.40885431317E+02	-5.87301257357E+00	-1.41094773148E+00
2.85200577842E+06	-1.52442562898E+01	-1.62517869159E+02	1.18352332758E+01	1.64901113307E+02	-4.39262779242E+01	7.78803036047E+01	-5.87012291476E+00	-1.53879346686E+00
2.87419713301E+06	-1.24673565121E+01	-1.69724299213E+02	1.18046922031E+01	1.64781839633E+02	-4.34934897215E+01	-2.97159861585E+01	-5.88603017169E+00	-1.59895918055E+00
