# Hz S DB R 50
! CMT, M5065, 19127446, 24.2.4/2
! Date: 11/8/2024 4:52:02 PM
! Data: Format (Calibration Info)
! Freq	S11:dB/Ang(F2)	S21:dB/Ang(F2)	S12:dB/Ang(F2)	S22:dB/Ang(F2)
3.00000000000E+05	-1.41339939575E+01	1.70794229574E+02	5.48433484912E+00	-1.77610253631E+02	-4.91874676192E+01	-4.33483996015E+01	-5.85513327486E+00	-2.44735365741E-01
3.22191354595E+05	-2.07994968694E+01	1.58652873444E+02	5.52302275004E+00	-1.77740243039E+02	-4.73726844004E+01	1.28976568160E+02	-5.88961074654E+00	-2.54267954325E-01
3.44382709190E+05	-1.97565431590E+01	-1.61477384055E+02	5.49172124026E+00	-1.78183354152E+02	-5.54459411582E+01	-4.50058249096E+01	-5.88423335016E+00	-3.97553792272E-01
3.66574063785E+05	-1.95888539439E+01	-1.55087643869E+02	5.52714620917E+00	-1.78381040855E+02	-4.86213409732E+01	-9.53159320614E+01	-5.86284271652E+00	-3.48949410086E-01
3.88765418380E+05	-1.32141657076E+01	-1.64418940534E+02	5.36855403582E+00	-1.78218281639E+02	-4.54700025701E+01	-1.45269951538E+02	-5.86132902719E+00	-4.46128306321E-01
4.10956772975E+05	-1.57586750185E+01	1.70071527120E+02	5.50501254093E+00	-1.78653286744E+02	-5.03716699079E+01	-1.22127666439E+02	-5.86159968702E+00	-2.94233254256E-01
4.33148127570E+05	-1.42654963736E+01	1.75665603915E+02	5.50676814043E+00	-1.78998063637E+02	-6.03381047159E+01	-1.08251112659E+02	-5.86285967635E+00	-1.13449701773E-01
4.55339482165E+05	-1.46041765620E+01	-1.65216515223E+02	5.51047915811E+00	-1.79450598521E+02	-4.98151703083E+01	-1.53634743829E+02	-5.85805076353E+00	-2.87010397327E-01
4.77530836760E+05	-1.14342759520E+01	1.77850055271E+02	5.42939575070E+00	-1.79582846614E+02	-4.34921339089E+01	8.41611394945E+01	-5.89092733573E+00	-5.33734312372E-01
4.99722191355E+05	-1.24800432232E+01	-1.51878298947E+02	5.47167260368E+00	-1.79788030994E+02	-4.00336423621E+01	9.24424036141E+00	-5.87758669286E+00	-3.80946357043E-01
5.21913545950E+05	-1.51257722954E+01	-1.78283339101E+02	5.50374549356E+00	-1.79807379024E+02	-4.87807772087E+01	-3.90550971515E+01	-5.90022529706E+00	-2.72858955827E-01
5.44104900545E+05	-1.78249362356E+01	1.77131959747E+02	5.47702665269E+00	1.79619935301E+02	-4.52977949524E+01	-5.55563435401E+00	-5.88183497589E+00	-3.54448774538E-01
5.66296255139E+05	-1.43119968205E+01	1.76511302595E+02	5.50042840700E+00	1.79965359392E+02	-4.47193398747E+01	1.11500326287E+02	-5.87419940221E+00	-4.32874381128E-01
5.88487609734E+05	-1.24798977452E+01	-1.68517512875E+02	5.50430830134E+00	1.79468264787E+02	-4.29492610737E+01	7.40261632179E+01	-5.86155278820E+00	-3.96907473161E-01
6.10678964329E+05	-2.38834104740E+01	-1.77442617174E+02	5.52296282934E+00	1.79201784669E+02	-5.82633594772E+01	1.22514113052E+02	-5.87761157760E+00	1.74149543428E-01
6.32870318924E+05	-1.26545512536E+01	-1.79870697544E+02	5.46550239000E+00	1.79382322700E+02	-4.23584460588E+01	1.35685270714E+02	-5.86824032906E+00	-1.57951138746E-01
6.55061673519E+05	-1.32324019665E+01	-1.57294548635E+02	5.48620059645E+00	1.78887002980E+02	-4.25160070469E+01	-1.47838156213E+01	-5.86834461363E+00	-1.98633197846E-01
6.77253028114E+05	-1.34915328011E+01	-1.73171962969E+02	5.49036898402E+00	1.79226057018E+02	-4.33246180885E+01	9.99114446920E+01	-5.87286755975E+00	-6.78137587405E-01
6.99444382709E+05	-1.53465288165E+01	1.75485085275E+02	5.46451813218E+00	1.78892957469E+02	-4.43234515526E+01	1.61802129580E+02	-5.86275918490E+00	-3.20347624026E-01
7.21635737304E+05	-1.41148334034E+01	-1.54677900677E+02	5.46748029753E+00	1.78545214719E+02	-4.73769370600E+01	-8.36507547358E+00	-5.86494886882E+00	-3.07607697329E-01
7.43827091899E+05	-1.03133855240E+01	-1.68783734370E+02	5.45953048766E+00	1.78628516088E+02	-4.69301018931E+01	-7.34317411235E+01	-5.86459827310E+00	-4.86117135133E-01
7.66018446494E+05	-1.24133241343E+01	-1.72736434833E+02	5.52693252726E+00	1.78513312705E+02	-4.07188871001E+01	-2.07430581658E+01	-5.86879637118E+00	-4.34659831324E-01
7.88209801089E+05	-1.38560132086E+01	-1.71897489300E+02	5.48367336490E+00	1.78425067290E+02	-4.99036184438E+01	-6.80071813780E+00	-5.87948901457E+00	-4.47967046453E-01
8.10401155684E+05	-1.65946532325E+01	1.76840647375E+02	5.48806841111E+00	1.78174900578E+02	-4.94303905415E+01	1.18364510852E+02	-5.86258320779E+00	-4.05369608855E-01
8.32592510279E+05	-1.21601839819E+01	-1.78621901296E+02	5.49084783787E+00	1.78400639269E+02	-4.11510149829E+01	-1.60037990032E+02	-5.85208576062E+00	-4.59185762909E-01
8.54783864874E+05	-1.64826120346E+01	-1.49768872338E+02	5.53394467043E+00	1.77717034350E+02	-5.04425803800E+01	-3.11891582343E+01	-5.86961340839E+00	-4.76753075742E-01
8.76975219469E+05	-1.80216794844E+01	-1.77729401397E+02	5.51773144687E+00	1.77679197412E+02	-4.02936486882E+01	4.79841443805E+01	-5.88196634235E+00	-6.09513725221E-01
8.99166574064E+05	-1.22386891813E+01	1.71116456893E+02	5.49719917192E+00	1.78104252441E+02	-4.52324399264E+01	1.28583592660E+02	-5.86871442773E+00	-6.39956262706E-01
9.21357928659E+05	-1.57169591924E+01	-1.65127671939E+02	5.53065889084E+00	1.77645231571E+02	-4.60369169699E+01	2.05858449640E+01	-5.86551927369E+00	-5.13689678763E-01
9.43549283254E+05	-1.43904675988E+01	-1.73040046384E+02	5.49763249778E+00	1.77652493427E+02	-4.18229473861E+01	-1.10516025731E+02	-5.85361891996E+00	-4.52185041140E-01
9.65740637849E+05	-1.62589400419E+01	-1.62144308731E+02	5.52169116409E+00	1.77091689866E+02	-4.74044604263E+01	1.58092469072E+02	-5.85917770832E+00	-5.44040706831E-01
9.87931992444E+05	-1.16825906657E+01	-1.64420777738E+02	5.46274194113E+00	1.77054712823E+02	-5.43667078029E+01	4.18494448984E+00	-5.89103189909E+00	-6.09440975016E-01
1.01012334704E+06	-1.13989735243E+01	-1.79464443738E+02	5.45564258968E+00	1.76972831739E+02	-4.62988405223E+01	-1.10746277301E+02	-5.87205809571E+00	-5.62824527251E-01
1.03231470163E+06	-1.37772511640E+01	1.79536821195E+02	5.50814466734E+00	1.77294491006E+02	-6.15413943709E+01	-2.80335125452E+01	-5.87995376808E+00	-6.38153354768E-01
1.05450605623E+06	-1.42353246860E+01	-1.75102199846E+02	5.49432275183E+00	1.77074670039E+02	-4.41926285544E+01	1.09800067194E+02	-5.86427492762E+00	-6.13864029490E-01
1.07669741082E+06	-2.12540304783E+01	1.51714520742E+02	5.58778377964E+00	1.76881754767E+02	-4.72555330310E+01	6.87792182828E+01	-5.86017490466E+00	-6.42619651060E-01
1.09888876542E+06	-1.80000111527E+01	-1.72781584184E+02	5.50283059924E+00	1.76673587076E+02	-5.49233926918E+01	1.43151903434E+02	-5.87053387227E+00	-4.94310312164E-01
1.12108012001E+06	-1.30905848457E+01	-1.67401612678E+02	5.47449422154E+00	1.76538843683E+02	-4.30426691976E+01	-1.58096851874E+00	-5.89339038067E+00	-6.30902748035E-01
1.14327147461E+06	-1.51406984035E+01	-1.56701464366E+02	5.49323979651E+00	1.76419856001E+02	-4.16079218543E+01	1.23692304655E+02	-5.86337619593E+00	-5.84321326835E-01
1.16546282920E+06	-1.11670571965E+01	-1.73365108113E+02	5.47841187638E+00	1.76721093910E+02	-5.00751456028E+01	8.41640558562E+01	-5.86071075339E+00	-7.23101250561E-01
1.18765418380E+06	-1.33730399261E+01	-1.58638254734E+02	5.51873141243E+00	1.76157426927E+02	-3.88737585237E+01	1.24679621050E+02	-5.85207490962E+00	-6.69411324863E-01
1.20984553839E+06	-1.47100271828E+01	-1.75929768123E+02	5.45780477939E+00	1.76161372369E+02	-4.71590261397E+01	2.48310557300E+01	-5.87861516333E+00	-7.22444528259E-01
1.23203689299E+06	-1.41964721960E+01	-1.76962868716E+02	5.48972406458E+00	1.76174243660E+02	-4.98107687364E+01	-1.51167416879E+02	-5.85807396008E+00	-4.02787658204E-01
1.25422824758E+06	-1.59456297233E+01	-1.74079775586E+02	5.50202335725E+00	1.76100735764E+02	-5.02564597381E+01	5.14046653756E+01	-5.87349701850E+00	-5.02601689541E-01
1.27641960218E+06	-1.34916494166E+01	-1.58395747416E+02	5.51620991420E+00	1.75817510527E+02	-4.57475552555E+01	2.26701805135E+01	-5.89589489669E+00	-6.19839846451E-01
1.29861095677E+06	-1.27927574875E+01	1.77022434245E+02	5.47040342988E+00	1.75986179858E+02	-3.99997109783E+01	-3.19475968272E+00	-5.88472776520E+00	-6.34325030991E-01
1.32080231137E+06	-1.30132464045E+01	-1.65246596416E+02	5.50604297068E+00	1.75799183454E+02	-4.46510413188E+01	-1.49248676095E+02	-5.86257244801E+00	-1.09712916137E+00
1.34299366596E+06	-1.37720362125E+01	-1.79040864738E+02	5.48943295730E+00	1.75875975747E+02	-4.04592433640E+01	9.75441253053E+00	-5.88487455286E+00	-7.96259490630E-01
1.36518502056E+06	-1.19842447461E+01	-1.51090284279E+02	5.56490530041E+00	1.75053687383E+02	-4.48865941170E+01	1.64935130535E+02	-5.87084610810E+00	-6.90451710625E-01
1.38737637515E+06	-1.60630288513E+01	1.42588571642E+02	5.44414933967E+00	1.75681263141E+02	-3.98959556243E+01	8.75228907418E+01	-5.84790760848E+00	-8.14140898161E-01
1.40956772975E+06	-1.24023411621E+01	-1.54849866709E+02	5.53460909443E+00	1.74969256558E+02	-4.46925060139E+01	5.88960832072E+01	-5.87570487694E+00	-7.97938050487E-01
1.43175908434E+06	-1.50560976758E+01	1.77073704392E+02	5.50987433612E+00	1.75467399361E+02	-3.87509358323E+01	-1.61105471265E+02	-5.86327596180E+00	-7.42191456771E-01
1.45395043894E+06	-1.42240807420E+01	-1.78820409126E+02	5.50177819755E+00	1.74973226775E+02	-4.25032379296E+01	-9.73356347084E+01	-5.88226126058E+00	-7.44715891645E-01
1.47614179353E+06	-1.04822892424E+01	-1.73598848160E+02	5.48944477802E+00	1.75036705534E+02	-4.64212190626E+01	5.29021660781E+01	-5.88834523731E+00	-8.37876017745E-01
1.49833314813E+06	-1.72508497048E+01	-1.70173586040E+02	5.54366381214E+00	1.74980946614E+02	-4.07983812078E+01	4.68703250861E+01	-5.88419568487E+00	-7.93102930735E-01
1.52052450272E+06	-1.37480630158E+01	-1.62942705159E+02	5.53620829071E+00	1.74701622445E+02	-3.94211736522E+01	5.14807278226E+01	-5.88673298459E+00	-9.51606745066E-01
1.54271585732E+06	-1.23167201571E+01	1.66803971680E+02	5.44555030243E+00	1.74566434751E+02	-4.65789429444E+01	5.23049184478E+01	-5.86415942147E+00	-8.06389997338E-01
1.56490721191E+06	-1.42202039127E+01	1.77334886040E+02	5.51537204919E+00	1.74630543520E+02	-4.36406392869E+01	-1.32727916287E+02	-5.84236466962E+00	-7.20603245223E-01
1.58709856651E+06	-2.05823157484E+01	-1.60500556856E+02	5.57876298346E+00	1.74705700304E+02	-4.78837346414E+01	-1.75608760737E+02	-5.87822696258E+00	-8.09850195619E-01
1.60928992110E+06	-1.05379549256E+01	-1.62028682593E+02	5.51341284342E+00	1.73863234987E+02	-4.74298014630E+01	1.11258134741E+02	-5.86733989701E+00	-6.97892990110E-01
1.63148127570E+06	-1.45989960777E+01	1.71723127273E+02	5.54390704698E+00	1.74313314314E+02	-4.38965157111E+01	2.16818250056E+01	-5.87951984386E+00	-8.98205143540E-01
1.65367263029E+06	-1.31758919487E+01	-1.63764667973E+02	5.51090465059E+00	1.73988300332E+02	-5.47964724749E+01	-8.59737916717E+01	-5.86299212919E+00	-1.00241694187E+00
1.67586398489E+06	-1.42995541135E+01	-1.67372808521E+02	5.51555762490E+00	1.74238537013E+02	-4.23526059536E+01	1.02139370101E+02	-5.87743412484E+00	-9.96315843021E-01
1.69805533948E+06	-1.52656797192E+01	-1.56956549368E+02	5.53068650064E+00	1.73963886228E+02	-6.12515946405E+01	2.05410494961E+01	-5.88329179989E+00	-9.65044622962E-01
1.72024669408E+06	-1.39907015101E+01	-1.78380189604E+02	5.51162521016E+00	1.74237750756E+02	-4.89974603980E+01	-7.74419837621E+01	-5.87673312206E+00	-8.74572069427E-01
1.74243804867E+06	-1.45033361688E+01	-1.65641414154E+02	5.53785238806E+00	1.73615775062E+02	-4.09974177695E+01	-1.58133975050E+02	-5.84545219716E+00	-7.45379235133E-01
1.76462940327E+06	-1.17706124510E+01	-1.52906287676E+02	5.49188233403E+00	1.73372550849E+02	-3.51750371431E+01	-1.09306197412E+02	-5.89199094027E+00	-7.36970049901E-01
1.78682075786E+06	-1.30165883924E+01	-1.67529264353E+02	5.55656980541E+00	1.73691775324E+02	-4.38387832352E+01	-1.46525211617E+02	-5.86165744190E+00	-9.23154997682E-01
1.80901211246E+06	-1.25008522033E+01	-1.76224892474E+02	5.46677381312E+00	1.73649830277E+02	-4.40241660390E+01	-8.19484617278E+01	-5.91867003962E+00	-9.84840125860E-01
1.83120346705E+06	-1.66438319465E+01	-1.60586092368E+02	5.49644952890E+00	1.73609719325E+02	-4.34655836246E+01	-1.20803696250E+02	-5.84795637244E+00	-9.58668853423E-01
1.85339482165E+06	-2.34842519859E+01	-1.32947510840E+02	5.52667653489E+00	1.73613384007E+02	-4.23089224055E+01	-7.48346799699E+01	-5.85701165469E+00	-8.64572424106E-01
1.87558617624E+06	-1.28069222314E+01	-1.59863167953E+02	5.50923272399E+00	1.73168184736E+02	-4.48885545645E+01	-1.24036979123E+02	-5.86737942193E+00	-9.15047637647E-01
1.89777753084E+06	-1.46135983028E+01	-1.51004693461E+02	5.51048391303E+00	1.73139022724E+02	-4.02607166618E+01	-1.31915971123E+02	-5.88103120043E+00	-7.96546035368E-01
1.91996888543E+06	-1.37023729381E+01	-1.76444396583E+02	5.51657027230E+00	1.73140228422E+02	-3.34674111632E+01	1.44541090338E+02	-5.85663091702E+00	-9.64262319825E-01
1.94216024003E+06	-1.12731362903E+01	-1.48398955491E+02	5.50449736782E+00	1.72706772759E+02	-4.32984354319E+01	1.49935794621E+02	-5.86009086825E+00	-1.00067231984E+00
1.96435159462E+06	-1.46372479593E+01	-1.65128918944E+02	5.56383014897E+00	1.72630801944E+02	-4.61050250872E+01	2.10846163231E+01	-5.87190066082E+00	-9.58127951959E-01
1.98654294922E+06	-1.43844724983E+01	-1.61607585874E+02	5.54539512010E+00	1.72595829059E+02	-6.01165784756E+01	4.33883781281E+01	-5.85942931064E+00	-9.61831580027E-01
2.00873430381E+06	-1.32260977938E+01	1.42783379322E+02	5.50642959489E+00	1.73059751747E+02	-4.21297126793E+01	-2.44463754711E+01	-5.88220107010E+00	-1.04280821995E+00
2.03092565841E+06	-1.33262944985E+01	-1.51442037430E+02	5.50075183460E+00	1.72496589977E+02	-4.46170237122E+01	5.81733193966E+00	-5.88451192513E+00	-1.05491898695E+00
2.05311701300E+06	-1.60992368717E+01	1.79039246172E+02	5.52842707156E+00	1.72655183201E+02	-4.79440613666E+01	1.38485548932E+02	-5.88947824941E+00	-8.52190245286E-01
2.07530836760E+06	-1.31744318978E+01	-1.55925214803E+02	5.53437374715E+00	1.72232510940E+02	-3.24114910709E+01	3.53479668138E+01	-5.88623204770E+00	-1.37871241349E+00
2.09749972219E+06	-1.31428519567E+01	1.76232944286E+02	5.48256331281E+00	1.72553391811E+02	-4.19225826002E+01	-1.02980045502E+02	-5.86961771978E+00	-9.33246623790E-01
2.11969107679E+06	-1.23602414267E+01	-1.48759669993E+02	5.52576603096E+00	1.72194410084E+02	-4.69785855496E+01	-1.73534895136E+02	-5.89794083549E+00	-1.05708076960E+00
2.14188243138E+06	-1.41968525547E+01	-1.71330574622E+02	5.47790641482E+00	1.72458630224E+02	-4.66191749492E+01	1.63740681928E+02	-5.83861722851E+00	-1.13735647319E+00
2.16407378598E+06	-1.45304563914E+01	-8.29325272255E+01	5.63130556073E+00	1.72479867266E+02	-5.58517785363E+01	-1.00070871339E+02	-5.87140678089E+00	-1.04678285256E+00
2.18626514057E+06	-1.03498408314E+01	-1.77652327166E+02	5.50386826633E+00	1.72179486777E+02	-4.01765407685E+01	3.26152356624E+01	-5.89338432067E+00	-1.32670321009E+00
2.20845649517E+06	-1.46034888736E+01	-1.67012889026E+02	5.48788123485E+00	1.71947398081E+02	-4.21913210956E+01	2.57910762728E+01	-5.86556482218E+00	-1.20823132639E+00
2.23064784976E+06	-1.28578280957E+01	1.72543711828E+02	5.50251900047E+00	1.71656371469E+02	-4.22964015123E+01	-1.43824158198E+02	-5.89362504592E+00	-1.06061483476E+00
2.25283920436E+06	-1.45522676763E+01	-1.74779049554E+02	5.55349565174E+00	1.71917964834E+02	-5.06657290968E+01	-3.63869359773E+01	-5.87202523340E+00	-1.16744855677E+00
2.27503055895E+06	-1.76420832621E+01	-1.48251208230E+02	5.52050068931E+00	1.71804553420E+02	-4.20991200669E+01	-1.15214174148E+02	-5.89242588502E+00	-1.14858407317E+00
2.29722191355E+06	-1.28789980146E+01	1.77460127807E+02	5.48074966733E+00	1.71399302714E+02	-4.13996466992E+01	3.55314859980E+00	-5.87661037908E+00	-1.24522612260E+00
2.31941326814E+06	-2.09098520741E+01	9.98761517326E+01	5.53236251889E+00	1.72190710809E+02	-5.18814296562E+01	-7.51722432110E+01	-5.88166172034E+00	-1.10457402837E+00
2.34160462274E+06	-1.39771863446E+01	1.65357328929E+02	5.53550940357E+00	1.71308748137E+02	-4.19479206814E+01	-1.59905933116E+02	-5.86838041657E+00	-1.08925011371E+00
2.36379597733E+06	-1.58121048726E+01	-1.57419104691E+02	5.53883138939E+00	1.71028325392E+02	-4.42776409012E+01	1.21336462788E+02	-5.88074363970E+00	-1.20424616399E+00
2.38598733193E+06	-1.41508328542E+01	-1.75648949633E+02	5.52223719830E+00	1.71450391302E+02	-4.54157954327E+01	-1.54906015695E+02	-5.87469489090E+00	-1.16864186098E+00
2.40817868652E+06	-1.18110470259E+01	1.78499095209E+02	5.52986938227E+00	1.71341910741E+02	-3.85667222975E+01	1.54031129264E+02	-5.85819951179E+00	-1.38513198795E+00
2.43037004112E+06	-1.55632320064E+01	-1.74822801928E+02	5.58497025287E+00	1.71044418778E+02	-4.43187101960E+01	-8.93283369707E+01	-5.85310234442E+00	-1.50919441855E+00
2.45256139571E+06	-1.18725730003E+01	-1.62771506761E+02	5.52088445360E+00	1.70877462933E+02	-4.79753879103E+01	1.42647335148E+02	-5.87651491387E+00	-1.33699504836E+00
2.47475275031E+06	-1.35006826065E+01	-1.45241222910E+02	5.54665405270E+00	1.70592972934E+02	-4.72343229097E+01	1.58652790445E+02	-5.86397510378E+00	-1.10943454053E+00
2.49694410490E+06	-1.47570689774E+01	1.74539455681E+02	5.50591196488E+00	1.70749365983E+02	-4.01728094933E+01	-8.31823491919E+01	-5.87296157489E+00	-1.23655574183E+00
2.51913545950E+06	-1.94324776955E+01	1.61681019106E+02	5.57538384125E+00	1.71049549051E+02	-4.52518093006E+01	1.81077068739E+01	-5.85079577066E+00	-1.21913686801E+00
2.54132681409E+06	-1.18993596741E+01	-1.73087013246E+02	5.50066271375E+00	1.70579776550E+02	-4.94509993936E+01	1.77058192823E+02	-5.87805649079E+00	-1.29365805891E+00
2.56351816869E+06	-1.35526084987E+01	-1.69369733469E+02	5.54530294230E+00	1.70517566950E+02	-4.20003494446E+01	-6.39242093014E+01	-5.88987601463E+00	-1.31072436111E+00
2.58570952328E+06	-1.44493218168E+01	-1.77835139906E+02	5.57431722038E+00	1.70607099804E+02	-5.18549078094E+01	1.53809550444E+01	-5.87652163768E+00	-1.30921011507E+00
2.60790087788E+06	-1.33449428127E+01	-1.63281055824E+02	5.54968378578E+00	1.70212487952E+02	-5.26841536577E+01	-9.11259773508E+01	-5.88258530978E+00	-1.15742651601E+00
2.63009223247E+06	-1.25308438367E+01	-1.73537992122E+02	5.54351257306E+00	1.70145619005E+02	-4.34399771379E+01	-1.34608347449E+02	-5.88145059888E+00	-8.51116334118E-01
2.65228358707E+06	-9.79738803539E+00	1.67133674052E+02	5.50158432628E+00	1.69967477993E+02	-5.41164028533E+01	7.61195042178E+01	-5.87375394042E+00	-1.30747907214E+00
2.67447494166E+06	-1.43895218382E+01	-1.62923206865E+02	5.56254589511E+00	1.70139957333E+02	-4.17368570077E+01	-1.43430932328E+02	-5.87395644297E+00	-1.19936704349E+00
2.69666629626E+06	-1.16401425445E+01	-1.50472153804E+02	5.52730855529E+00	1.69858149563E+02	-3.61218358234E+01	5.62936712697E+01	-5.86259170470E+00	-1.39255011034E+00
2.71885765085E+06	-1.14406844705E+01	-1.66535553096E+02	5.54978787610E+00	1.69616392743E+02	-4.58834155832E+01	-1.44502835063E+01	-5.88535996565E+00	-1.43139786286E+00
2.74104900545E+06	-1.44828797969E+01	-1.74420028933E+02	5.55967222947E+00	1.69734673803E+02	-4.60272900444E+01	5.03767207444E+01	-5.87730929658E+00	-1.49697001096E+00
2.76324036004E+06	-1.22850792508E+01	-1.47683257742E+02	5.58385765175E+00	1.69682507011E+02	-4.73331218132E+01	1.98389231948E+01	-5.87483952883E+00	-1.38944991935E+00
2.78543171463E+06	-1.32536623252E+01	-1.48945170649E+02	5.55967460208E+00	1.69142930141E+02	-5.59813179325E+01	-1.01842079747E+02	-5.87363805838E+00	-1.34653760986E+00
2.80762306923E+06	-1.51989642514E+01	-1.77373174045E+02	5.53193469286E+00	1.69231343290E+02	-5.13086090981E+01	4.85067138796E+01	-5.88288318620E+00	-1.49183592585E+00
2.82981442382E+06	-1.48704446254E+01	-1.79330377034E+02	5.55042736821E+00	1.69713304611E+02	-4.66580200883E+01	-1.49295417564E+02	-5.87222328907E+00	-1.47953127811E+00
2.85200577842E+06	-1.14496549198E+01	-1.62861589680E+02	5.53913796946E+00	1.68884950435E+02	-3.97946092125E+01	-2.25747900493E+00	-5.88898737941E+00	-1.65680283461E+00
2.87419713301E+06	-1.63261600041E+01	-1.64914477935E+02	5.61182944661E+00	1.69210046909E+02	-5.52340394852E+01	5.74412166507E+01	-5.85645029071E+00	-1.46966860954E+00
