# Hz S DB R 50
! CMT, M5065, 19127446, 24.2.4/2
! Date: 11/8/2024 5:07:37 PM
! Data: Format (Calibration Info)
! Freq	S11:dB/Ang(F2)	S21:dB/Ang(F2)	S12:dB/Ang(F2)	S22:dB/Ang(F2)
3.00000000000E+05	-1.10780006369E+01	-1.74547534692E+02	8.56010100869E+00	-1.77547413307E+02	-4.03113154651E+01	1.95729695809E+01	-5.88502624682E+00	-2.18592632484E-01
3.22191354595E+05	-1.42466475790E+01	-1.44084842420E+02	8.63210904522E+00	-1.78031499239E+02	-5.76899594587E+01	-1.74837762305E+02	-5.87775308048E+00	-2.20257491031E-01
3.44382709190E+05	-1.60586255328E+01	1.64644649142E+02	8.66342883615E+00	-1.78114239873E+02	-7.46502713719E+01	7.17759861293E+01	-5.87478182056E+00	-1.73212611464E-01
3.66574063785E+05	-1.28413275440E+01	-1.70821575627E+02	8.61002340047E+00	-1.78614176465E+02	-4.57909939434E+01	-2.05214900260E+01	-5.88881721778E+00	-4.47926797415E-01
3.88765418380E+05	-1.24942670791E+01	-1.79855379111E+02	8.70543281963E+00	-1.78870147555E+02	-4.90841520077E+01	5.85608495961E+01	-5.86332439649E+00	-5.40115945729E-01
4.10956772975E+05	-1.21772722272E+01	-1.77294680588E+02	8.58856512731E+00	-1.79231299515E+02	-4.44262268606E+01	-1.31550153700E+02	-5.86687015367E+00	-3.10241050265E-01
4.33148127570E+05	-1.51209063316E+01	1.75996442437E+02	8.64031605719E+00	-1.79146269553E+02	-4.55268480999E+01	-1.31214614970E+02	-5.86127614539E+00	-2.75050419706E-01
4.55339482165E+05	-1.40093049536E+01	1.72175837813E+02	8.65869710153E+00	-1.79323501123E+02	-4.41557916105E+01	-4.87233611515E+01	-5.87970662911E+00	-3.32464677928E-01
4.77530836760E+05	-1.60318212985E+01	-1.69315403247E+02	8.63693204830E+00	-1.79774440122E+02	-4.64024696226E+01	6.50936752083E+01	-5.86499098173E+00	-2.10540453473E-01
4.99722191355E+05	-1.55869540111E+01	-1.60187023110E+02	8.66567814364E+00	-1.79960364127E+02	-4.91714914756E+01	-1.02286677332E+02	-5.86698300230E+00	-3.03985254937E-01
5.21913545950E+05	-1.51513472743E+01	1.79686444828E+02	8.60816826592E+00	1.79723502874E+02	-4.89792174631E+01	-1.68357880782E+02	-5.87567209986E+00	-5.71408154985E-01
5.44104900545E+05	-1.38958768844E+01	1.79515158532E+02	8.64630764582E+00	1.79494687992E+02	-4.28674754094E+01	-2.61246545452E+01	-5.86937786184E+00	-2.90749364215E-01
5.66296255139E+05	-1.66061630604E+01	-1.50771471207E+02	8.68766339759E+00	1.79301123336E+02	-5.24113656944E+01	1.79483262855E+02	-5.84221905067E+00	-2.71107038037E-01
5.88487609734E+05	-1.22108894252E+01	-1.61751073289E+02	8.60074341040E+00	1.79189398139E+02	-5.04287516930E+01	-1.65075457009E+02	-5.84626972911E+00	-3.76835189134E-01
6.10678964329E+05	-1.17573167218E+01	1.73805738668E+02	8.63471122353E+00	1.79117864520E+02	-4.36334484827E+01	-1.00425306755E+01	-5.87925583102E+00	1.34685482341E-01
6.32870318924E+05	-1.05666981643E+01	-1.78495997488E+02	8.62437155872E+00	1.78832762243E+02	-4.64280109708E+01	1.74227768378E+02	-5.86420450801E+00	-6.65722582322E-02
6.55061673519E+05	-1.51041236651E+01	-1.63282376619E+02	8.63623655707E+00	1.78490354517E+02	-4.99953474946E+01	-9.27620868678E+01	-5.87815419056E+00	-2.18808396495E-01
6.77253028114E+05	-1.37997364096E+01	-1.62026417080E+02	8.68919233474E+00	1.78577986045E+02	-4.80294301407E+01	1.58161355578E+02	-5.86809820760E+00	-7.01668675603E-01
6.99444382709E+05	-1.50496359188E+01	1.78633594611E+02	8.64718056708E+00	1.78398368874E+02	-4.92645391804E+01	-1.17106793601E+02	-5.87524102618E+00	-4.03336258227E-01
7.21635737304E+05	-1.70480694765E+01	1.79832545697E+02	8.65720594167E+00	1.78488579907E+02	-4.87235640911E+01	1.71987036595E+02	-5.86532836720E+00	-5.45793681817E-01
7.43827091899E+05	-1.31749140956E+01	-1.78548366596E+02	8.64608890860E+00	1.78138331413E+02	-4.17201333433E+01	9.64177620412E+01	-5.88212423213E+00	-5.86462526966E-01
7.66018446494E+05	-1.46295434754E+01	1.70418369732E+02	8.63991473400E+00	1.78094635389E+02	-3.59978794869E+01	8.89993511096E+01	-5.86956748108E+00	-7.04644389299E-01
7.88209801089E+05	-1.70628257510E+01	-1.71270287441E+02	8.66158185342E+00	1.77877095139E+02	-4.42715063359E+01	7.32893251984E+01	-5.86153809355E+00	-5.38532291355E-01
8.10401155684E+05	-1.23603716934E+01	-1.73673036771E+02	8.59211185503E+00	1.77542426558E+02	-4.90927090121E+01	-6.37144285048E+01	-5.86952000256E+00	-4.01616383674E-01
8.32592510279E+05	-1.45537983513E+01	-1.66308404470E+02	8.66760776586E+00	1.77524490923E+02	-4.48624416243E+01	1.44370690893E+02	-5.86361639739E+00	-5.39626651142E-01
8.54783864874E+05	-1.62493382090E+01	-1.52942610501E+02	8.63269513810E+00	1.77231805881E+02	-4.29677427752E+01	-1.68238103207E+02	-5.85401513511E+00	-5.32047164209E-01
8.76975219469E+05	-1.04758648110E+01	1.78747309746E+02	8.60528601368E+00	1.77207576984E+02	-4.52555731380E+01	-5.34077748882E+01	-5.87326307122E+00	-4.98690113428E-01
8.99166574064E+05	-1.69486239695E+01	-1.64965092169E+02	8.66952327862E+00	1.77275315862E+02	-4.39643561229E+01	-1.45648693823E+02	-5.87117285716E+00	-3.82597905673E-01
9.21357928659E+05	-1.35548735119E+01	1.76890959036E+02	8.62935511953E+00	1.76728951588E+02	-4.60792268346E+01	-1.22612096191E+01	-5.85462491236E+00	-5.75296861354E-01
9.43549283254E+05	-1.16505302755E+01	-1.72970803880E+02	8.66723913552E+00	1.76775809193E+02	-4.42875245069E+01	-1.54148587265E+02	-5.85954980166E+00	-3.89248242389E-01
9.65740637849E+05	-1.29078873590E+01	-1.69308426396E+02	8.62125132843E+00	1.76592748627E+02	-5.28618923089E+01	-1.07236930495E+02	-5.86681575047E+00	-5.32062796226E-01
9.87931992444E+05	-1.77611184981E+01	-1.67655756932E+02	8.67710051030E+00	1.76433818572E+02	-4.99530749717E+01	1.16733563274E+02	-5.83803675491E+00	-4.66038315083E-01
1.01012334704E+06	-1.27254653304E+01	-1.74491267454E+02	8.64161575609E+00	1.76425761349E+02	-4.59683951003E+01	3.27568871966E+01	-5.87900800279E+00	-6.50757030745E-01
1.03231470163E+06	-1.63522402365E+01	-1.31578133290E+02	8.68516444757E+00	1.76138943648E+02	-4.77383349833E+01	8.17746657477E+01	-5.88595962823E+00	-5.62134278319E-01
1.05450605623E+06	-1.06931070950E+01	1.78391814900E+02	8.59805042617E+00	1.76180968418E+02	-5.14889010364E+01	1.55696649481E+02	-5.86343734433E+00	-6.49312615862E-01
1.07669741082E+06	-1.30900744062E+01	-1.60524444239E+02	8.68249553412E+00	1.75548624015E+02	-3.86166197057E+01	-1.64735066712E+02	-5.83442903308E+00	-4.89966780324E-01
1.09888876542E+06	-1.46097215065E+01	-1.52372366628E+02	8.66807578963E+00	1.75782486747E+02	-4.19344521830E+01	8.50318583965E+01	-5.88942166528E+00	-6.31272686278E-01
1.12108012001E+06	-1.27457278184E+01	-1.53011792991E+02	8.65359455914E+00	1.75743143532E+02	-5.18135685996E+01	1.37791753300E+02	-5.85767908565E+00	-6.63385314789E-01
1.14327147461E+06	-1.38646986913E+01	-1.78458290821E+02	8.64237689815E+00	1.75644896558E+02	-5.66843204650E+01	-1.34902704160E+02	-5.88896177464E+00	-4.56117028861E-01
1.16546282920E+06	-1.62648627549E+01	-1.59420338883E+02	8.67688258846E+00	1.75725518162E+02	-4.51401902371E+01	-1.32083206291E+02	-5.86355892685E+00	-6.16750953804E-01
1.18765418380E+06	-1.68063778583E+01	-1.67295259236E+02	8.66210119542E+00	1.75522941346E+02	-5.01904260214E+01	-1.08051639746E+02	-5.89297507372E+00	-5.72523176710E-01
1.20984553839E+06	-1.50346923981E+01	-1.69254147754E+02	8.64411637200E+00	1.75370710228E+02	-4.29550777671E+01	-1.25730054601E+02	-5.84702692498E+00	-6.73308124167E-01
1.23203689299E+06	-1.23788686987E+01	1.74202919643E+02	8.63216280187E+00	1.75258900982E+02	-5.26470765926E+01	7.64841973990E+01	-5.89300322636E+00	-5.50237828361E-01
1.25422824758E+06	-1.59821504023E+01	-1.72417714319E+02	8.62598652375E+00	1.75133813776E+02	-5.07459315364E+01	9.88562038617E+01	-5.88321382168E+00	-7.64778326941E-01
1.27641960218E+06	-1.64960493709E+01	-1.72890608128E+02	8.65983747092E+00	1.75157799013E+02	-3.69111746600E+01	1.07747455428E+02	-5.82961148917E+00	-8.02162688208E-01
1.29861095677E+06	-1.30001392135E+01	-1.62852297228E+02	8.64515527674E+00	1.74867754748E+02	-4.56123093198E+01	-8.43271600029E+00	-5.87726481976E+00	-7.32816988612E-01
1.32080231137E+06	-1.48954728402E+01	-1.78997526568E+02	8.63901349032E+00	1.75135740783E+02	-4.42415081372E+01	-7.41658819523E+01	-5.87645572802E+00	-1.03536501744E+00
1.34299366596E+06	-1.32428376090E+01	-1.58696571611E+02	8.64409172960E+00	1.74423850381E+02	-4.98080819753E+01	-8.44118228793E+01	-5.87812812960E+00	-7.63229311618E-01
1.36518502056E+06	-1.61439749989E+01	-1.62619852217E+02	8.67828827043E+00	1.74544923615E+02	-5.26516549439E+01	7.68963721167E+01	-5.87591804525E+00	-8.21131197033E-01
1.38737637515E+06	-1.64431432940E+01	-1.60044784804E+02	8.63745504540E+00	1.74416043726E+02	-3.63269099470E+01	4.00497480410E+01	-5.86604476873E+00	-8.94551609273E-01
1.40956772975E+06	-1.57551600271E+01	-1.63528073423E+02	8.64911667625E+00	1.74405800242E+02	-5.05765953198E+01	9.88398737783E+01	-5.86247871489E+00	-8.10010968985E-01
1.43175908434E+06	-1.43988237958E+01	-1.78734720186E+02	8.65563927913E+00	1.74216073236E+02	-5.12264392264E+01	1.46510538421E+01	-5.87375378352E+00	-8.30690689775E-01
1.45395043894E+06	-1.28781662571E+01	-1.66982440533E+02	8.63696930726E+00	1.74100054165E+02	-5.89819617987E+01	1.49426579147E+02	-5.85392391149E+00	-6.96384834539E-01
1.47614179353E+06	-1.35652737939E+01	-1.61600307706E+02	8.64889708364E+00	1.73897147009E+02	-4.71985483658E+01	-1.12407437512E+02	-5.86839867760E+00	-8.01987979244E-01
1.49833314813E+06	-1.07790382062E+01	-1.69129888282E+02	8.63807392399E+00	1.73643724078E+02	-4.81403167878E+01	-1.06423850950E+02	-5.88122724126E+00	-8.08564247725E-01
1.52052450272E+06	-1.47333536055E+01	1.79920477771E+02	8.61078398897E+00	1.73916261630E+02	-4.99288604010E+01	4.16752298896E+01	-5.86122102794E+00	-8.85675180410E-01
1.54271585732E+06	-1.44722160998E+01	-1.73762063578E+02	8.66069489421E+00	1.73628244531E+02	-3.79791562789E+01	2.92944876773E+01	-5.87807639320E+00	-9.20721550260E-01
1.56490721191E+06	-2.01143235198E+01	-1.55475379542E+02	8.65350858923E+00	1.73738628294E+02	-4.69613581374E+01	-5.34546495082E+01	-5.87001100403E+00	-8.31638595539E-01
1.58709856651E+06	-1.55829524199E+01	-1.76322699198E+02	8.65245463909E+00	1.73538094797E+02	-3.73547599495E+01	-1.20842934853E+02	-5.88437532902E+00	-6.00926443455E-01
1.60928992110E+06	-2.14976431632E+01	-1.63098187144E+02	8.68185879210E+00	1.73563006110E+02	-4.52268137617E+01	-1.45978444765E+02	-5.87434694633E+00	-7.84679642761E-01
1.63148127570E+06	-1.53451073012E+01	-1.66291509393E+02	8.66185088930E+00	1.73276458676E+02	-4.83373181534E+01	-3.45132417444E+01	-5.87859305875E+00	-7.98844731418E-01
1.65367263029E+06	-1.27467623663E+01	-1.65071253896E+02	8.63392446536E+00	1.73002668696E+02	-4.08773892440E+01	1.22765779440E+02	-5.86610277434E+00	-8.40361961424E-01
1.67586398489E+06	-1.57798198824E+01	-1.59777166395E+02	8.65389776051E+00	1.72959715721E+02	-4.19788640542E+01	-4.83485038205E+01	-5.88259689050E+00	-8.37310472278E-01
1.69805533948E+06	-1.28122430752E+01	-1.66510398232E+02	8.65542475146E+00	1.72948761492E+02	-3.71083974646E+01	-4.65252618441E+01	-5.87267398909E+00	-8.08266421392E-01
1.72024669408E+06	-1.49138710545E+01	1.19445698902E+02	8.61186593248E+00	1.73209800800E+02	-4.21684468441E+01	9.86407379235E+01	-5.87049111250E+00	-1.10163231106E+00
1.74243804867E+06	-1.41280380180E+01	1.65655927078E+02	8.65182342956E+00	1.73143985172E+02	-5.02886797057E+01	-1.52155018054E+02	-5.87981116871E+00	-9.69720479273E-01
1.76462940327E+06	-1.47257948871E+01	-1.73765656532E+02	8.63639498719E+00	1.72617367459E+02	-4.90883530026E+01	5.56263479484E+01	-5.87723691023E+00	-8.79228862394E-01
1.78682075786E+06	-1.33436309466E+01	-1.40447167863E+02	8.69128457855E+00	1.72386225843E+02	-4.80325499363E+01	8.51563506212E+01	-5.86523210169E+00	-1.08333862650E+00
1.80901211246E+06	-1.33604047922E+01	-1.73361731807E+02	8.68044194448E+00	1.72235044893E+02	-4.15808419686E+01	4.78807186534E+00	-5.89307607359E+00	-1.07108190566E+00
1.83120346705E+06	-1.18432456191E+01	-1.63534102523E+02	8.63134306723E+00	1.71959412376E+02	-4.58308267955E+01	-1.22554826991E+02	-5.87119313585E+00	-1.02393984046E+00
1.85339482165E+06	-1.43295933565E+01	-1.69195979480E+02	8.67698146347E+00	1.72293928981E+02	-5.70652185430E+01	-5.89776431535E+01	-5.89301859386E+00	-8.92902981609E-01
1.87558617624E+06	-6.37482245268E+00	-1.64520347171E+02	8.62239428001E+00	1.71530332728E+02	-4.03807285702E+01	-7.11472522583E+01	-5.92657537011E+00	-9.55368187536E-01
1.89777753084E+06	-1.48623018628E+01	-1.57165427383E+02	8.67139014602E+00	1.72227073895E+02	-3.51079757698E+01	6.26517831911E+01	-5.86720280090E+00	-1.21246253114E+00
1.91996888543E+06	-1.60216992579E+01	-1.51113779363E+02	8.73481385719E+00	1.71781159843E+02	-4.99616665307E+01	-1.52812982425E+02	-5.86630963659E+00	-8.62319615685E-01
1.94216024003E+06	-1.58515776598E+01	-1.48833358507E+02	8.68334338074E+00	1.71848721592E+02	-5.24911495610E+01	2.74840439056E+01	-5.87744953837E+00	-1.10723540705E+00
1.96435159462E+06	-1.20304322014E+01	-1.60779127228E+02	8.63742750540E+00	1.71488805139E+02	-4.84161052312E+01	-1.61353587796E+01	-5.88118834139E+00	-1.00956649691E+00
1.98654294922E+06	-1.31801237206E+01	-1.59421281162E+02	8.68539580093E+00	1.71445584726E+02	-4.18522348424E+01	-6.82280762272E+01	-5.88137374617E+00	-9.49988599337E-01
2.00873430381E+06	-1.27192180135E+01	1.73354354421E+02	8.63838871949E+00	1.71553164591E+02	-4.33464011352E+01	6.57211842994E+01	-5.89983803946E+00	-1.14974888085E+00
2.03092565841E+06	-1.26007415108E+01	-1.37731798302E+02	8.71749998499E+00	1.71229948095E+02	-3.45343672059E+01	-1.41676508567E+02	-5.86187458792E+00	-8.27984094573E-01
2.05311701300E+06	-1.74266696110E+01	-1.67163105832E+02	8.65446859526E+00	1.71327361984E+02	-5.43262643569E+01	-6.66813282447E+01	-5.87805537840E+00	-1.17105557692E+00
2.07530836760E+06	-1.72628373880E+01	-1.53286365029E+02	8.73148257969E+00	1.71110198033E+02	-4.62202187263E+01	-1.38952879386E+02	-5.85822409255E+00	-1.01721135024E+00
2.09749972219E+06	-1.64859417535E+01	-1.61982740998E+02	8.67316545645E+00	1.70860766573E+02	-4.94869359564E+01	-5.68050670960E+01	-5.87685827656E+00	-1.16285047027E+00
2.11969107679E+06	-1.55857866046E+01	-1.60920114201E+02	8.67608937859E+00	1.71088190773E+02	-4.36242419466E+01	9.16117687950E+01	-5.88339693812E+00	-1.32124747705E+00
2.14188243138E+06	-1.20652740672E+01	-1.39561693837E+02	8.71345829221E+00	1.70194503871E+02	-5.99726001343E+01	1.57274283141E+02	-5.87285211140E+00	-1.24963398241E+00
2.16407378598E+06	-1.44827438456E+01	-1.58375922293E+02	8.69296817533E+00	1.70586352487E+02	-4.66006053583E+01	-1.06753873866E+01	-5.88161257229E+00	-1.17021156143E+00
2.18626514057E+06	-1.68122145774E+01	1.74212079188E+02	8.68478826144E+00	1.70661536910E+02	-3.47372569229E+01	-1.23398735546E+02	-5.85381906882E+00	-7.97859138648E-01
2.20845649517E+06	-1.71737751949E+01	-1.78949333934E+02	8.70197279029E+00	1.70582283110E+02	-4.58417961462E+01	9.33390342479E+01	-5.86756664980E+00	-1.29545126496E+00
2.23064784976E+06	-1.19021796240E+01	-1.70167417257E+02	8.63581465765E+00	1.70425291244E+02	-4.74235061522E+01	1.69480981921E+00	-5.88581086828E+00	-1.09556309318E+00
2.25283920436E+06	-1.42563134098E+01	-1.44359692681E+02	8.70130843047E+00	1.70225041695E+02	-4.96388892578E+01	-1.50140636835E+02	-5.87636686859E+00	-1.14765284790E+00
2.27503055895E+06	-1.46128588194E+01	-1.67208961821E+02	8.67212887167E+00	1.70386283838E+02	-5.22243140212E+01	1.57924642635E+02	-5.84750550887E+00	-1.20334616849E+00
2.29722191355E+06	-1.63833944958E+01	-1.69042546357E+02	8.68150500340E+00	1.70323337873E+02	-5.11437212110E+01	-4.21814122924E+01	-5.89066198116E+00	-1.04010942999E+00
2.31941326814E+06	-1.27431586743E+01	-1.46498340256E+02	8.66302713000E+00	1.69658746133E+02	-4.22948851941E+01	1.75120969969E+02	-5.86030986228E+00	-1.12131404544E+00
2.34160462274E+06	-9.93683090097E+00	-1.65250449900E+02	8.66594129085E+00	1.69471287945E+02	-4.03013435241E+01	1.03967468448E+02	-5.85214684043E+00	-1.22262169708E+00
2.36379597733E+06	-1.12442710608E+01	-1.48474127069E+02	8.70639579968E+00	1.69298614612E+02	-4.69646255098E+01	5.45693465472E+00	-5.89467477575E+00	-1.31404485978E+00
2.38598733193E+06	-1.30573332915E+01	-1.73990838753E+02	8.66482476009E+00	1.69450161844E+02	-5.71029081930E+01	1.01411636330E+02	-5.87181326095E+00	-1.24656719342E+00
2.40817868652E+06	-1.32601711361E+01	-1.65163167901E+02	8.66397988142E+00	1.69388881780E+02	-4.28472151035E+01	9.90469186348E+01	-5.87130249062E+00	-1.47034431660E+00
2.43037004112E+06	-1.57965919362E+01	-1.66025243956E+02	8.70817410629E+00	1.69808579354E+02	-5.51783772787E+01	5.16849120800E+01	-5.89295111990E+00	-1.67355409783E+00
2.45256139571E+06	-1.46418356391E+01	-1.53185493401E+02	8.69167206420E+00	1.69099903513E+02	-3.87207765506E+01	1.08497411755E+02	-5.86984220297E+00	-1.27859836981E+00
2.47475275031E+06	-1.36694637964E+01	1.76799559481E+02	8.66124554464E+00	1.69742644067E+02	-4.56559156534E+01	-1.50136079280E+02	-5.89056180033E+00	-1.15641438191E+00
2.49694410490E+06	-1.29913491620E+01	-1.78561750590E+02	8.64930853711E+00	1.69192384289E+02	-4.23144656614E+01	8.95309831811E+01	-5.85732679640E+00	-1.39648342558E+00
2.51913545950E+06	-1.08279914290E+01	-1.62561430905E+02	8.65387453265E+00	1.68686676323E+02	-4.43830512208E+01	-1.63302175887E+02	-5.87441753607E+00	-1.14750763576E+00
2.54132681409E+06	-1.42407182419E+01	-1.57020195744E+02	8.72533267026E+00	1.68802388842E+02	-4.57908925786E+01	-7.63160138440E+01	-5.89124122485E+00	-1.09962532573E+00
2.56351816869E+06	-1.33940075169E+01	-1.58682033818E+02	8.70840650317E+00	1.68724913852E+02	-4.66438911880E+01	-7.07263670282E+01	-5.87663581915E+00	-1.25886859971E+00
2.58570952328E+06	-1.31829838510E+01	-1.49134136998E+02	8.68934555751E+00	1.68551916123E+02	-4.69004943824E+01	1.08982407055E+02	-5.85550901303E+00	-1.42674595116E+00
2.60790087788E+06	-1.32473869533E+01	-1.65565187457E+02	8.69601200538E+00	1.68429238444E+02	-4.61261817411E+01	-1.07464814115E+02	-5.89816215369E+00	-1.24801471220E+00
2.63009223247E+06	-1.50822662535E+01	-1.66399746786E+02	8.70165799935E+00	1.68437694446E+02	-4.58786184951E+01	1.75884364262E+02	-5.87654381577E+00	-8.71164484926E-01
2.65228358707E+06	-1.14072279500E+01	-1.58853629595E+02	8.72044098060E+00	1.68150928834E+02	-4.48457811523E+01	1.70058898232E+02	-5.85763936709E+00	-1.46662004837E+00
2.67447494166E+06	-1.61940654510E+01	-1.04388403620E+02	8.73376886959E+00	1.68405449654E+02	-4.69271573780E+01	-1.48932622003E+01	-5.89061870723E+00	-1.21648057610E+00
2.69666629626E+06	-1.44510965153E+01	-1.76484186536E+02	8.71175254629E+00	1.68228542683E+02	-4.67610454278E+01	-2.80875279295E+01	-5.90101724942E+00	-1.56889521004E+00
2.71885765085E+06	-1.23887716065E+01	-1.50482964705E+02	8.72440475186E+00	1.67870378492E+02	-4.28239131428E+01	1.07526111292E+02	-5.85303052888E+00	-1.55012992125E+00
2.74104900545E+06	-1.18185164071E+01	-1.54839817350E+02	8.68403301450E+00	1.67765766495E+02	-4.29416572592E+01	-8.78882138822E+01	-5.88168819361E+00	-1.13331123985E+00
2.76324036004E+06	-1.37535903261E+01	1.77326424548E+02	8.65983708626E+00	1.68058597593E+02	-3.83035096266E+01	6.21927187239E+01	-5.88446488858E+00	-1.51157830438E+00
2.78543171463E+06	-1.22158955389E+01	-1.48698893402E+02	8.71161980306E+00	1.67565042945E+02	-3.92815747768E+01	-1.75219615892E+02	-5.86236756387E+00	-1.33369326983E+00
2.80762306923E+06	-1.79139534389E+01	-1.57126188315E+02	8.71257220240E+00	1.67866666146E+02	-3.91452710831E+01	1.36536831313E+02	-5.84664554861E+00	-1.53941838243E+00
2.82981442382E+06	-1.46699690524E+01	-1.78953753650E+02	8.67737757934E+00	1.67599589120E+02	-4.56556437169E+01	2.44369173751E+01	-5.84410637228E+00	-1.60223913465E+00
2.85200577842E+06	-1.25041023878E+01	-1.61085873642E+02	8.67013224447E+00	1.67270211646E+02	-5.20627489345E+01	-7.49212642671E+01	-5.87449583447E+00	-1.41385288753E+00
2.87419713301E+06	-1.34224535448E+01	-1.63969960069E+02	8.69457145620E+00	1.67465364798E+02	-3.84568697200E+01	-7.83624973750E+01	-5.90410790041E+00	-1.12030979112E+00
