# Hz S DB R 50
! CMT, M5065, 19127446, 24.2.4/2
! Date: 11/8/2024 5:40:51 PM
! Data: Format (Calibration Info)
! Freq	S11:dB/Ang(F2)	S21:dB/Ang(F2)	S12:dB/Ang(F2)	S22:dB/Ang(F2)
3.00000000000E+05	-1.24796666996E+01	-1.47009012310E+02	7.35732631870E+00	-1.77643573611E+02	-4.92963482249E+01	1.61135896045E+02	-5.85453846549E+00	-2.02984257826E-01
3.22191354595E+05	-1.44989932094E+01	-1.72047646367E+02	7.36377931882E+00	-1.77853523712E+02	-4.13472337707E+01	1.61435405077E+02	-5.84520783563E+00	-3.52163812182E-01
3.44382709190E+05	-1.50106928134E+01	-1.71068896578E+02	7.35970426772E+00	-1.78239981143E+02	-3.89590952465E+01	-1.48488295740E+02	-5.85468041043E+00	-6.47748127532E-02
3.66574063785E+05	-1.57613240500E+01	1.75163454204E+02	7.33933685579E+00	-1.78319364282E+02	-4.48070930305E+01	-1.18176448717E+02	-5.86826845231E+00	-2.74943000297E-01
3.88765418380E+05	-1.56033310585E+01	-1.59952677769E+02	7.33168080873E+00	-1.78963559992E+02	-4.95683100911E+01	1.22136235265E+02	-5.85885427747E+00	-3.15514472288E-01
4.10956772975E+05	-1.24288106163E+01	-1.61847235920E+02	7.35228623202E+00	-1.79285318404E+02	-4.31538553511E+01	1.29290424509E+02	-5.86351133200E+00	-4.45526012555E-01
4.33148127570E+05	-1.48008391874E+01	1.79688487828E+02	7.36485594670E+00	-1.79361347378E+02	-4.22517194667E+01	-5.54838108249E+01	-5.87038405564E+00	-3.40620477485E-01
4.55339482165E+05	-1.12521948459E+01	1.69966757154E+02	7.36412554141E+00	-1.79392803298E+02	-4.90276317698E+01	-1.12243282707E+02	-5.86472421600E+00	-3.27374028448E-01
4.77530836760E+05	-1.27810039466E+01	-1.71245735674E+02	7.39444154704E+00	-1.79668661835E+02	-6.02920097083E+01	-8.34166817614E+01	-5.87487876367E+00	-3.71534276306E-01
4.99722191355E+05	-1.14842662926E+01	-1.70862570924E+02	7.37879539772E+00	1.79914140600E+02	-4.78392753899E+01	-7.33980774567E+01	-5.87202958606E+00	-3.08822549806E-01
5.21913545950E+05	-1.25394122573E+01	-1.76661311869E+02	7.38178955355E+00	1.79872247759E+02	-4.01214678324E+01	-9.90449310033E+01	-5.84635921806E+00	-3.44093647387E-01
5.44104900545E+05	-1.00560744060E+01	-1.77154712945E+02	7.36518185341E+00	1.79486229769E+02	-5.82876120548E+01	1.97686246909E+01	-5.85124211384E+00	-3.82440691564E-01
5.66296255139E+05	-1.19096713240E+01	1.65036432158E+02	7.32199951600E+00	1.79727157087E+02	-4.33035246535E+01	1.72471075378E+02	-5.86862115343E+00	-3.22655433154E-01
5.88487609734E+05	-1.35996787431E+01	-1.76194410598E+02	7.38931200124E+00	1.79426014444E+02	-3.87986394059E+01	-1.04534956706E+02	-5.84557820932E+00	-2.71230458954E-01
6.10678964329E+05	-1.06132032126E+01	-1.53359349286E+02	7.40443526047E+00	1.79254126797E+02	-5.65620838770E+01	1.57036316605E+02	-5.85926844486E+00	-2.04070794468E-03
6.32870318924E+05	-1.38891556960E+01	-1.79356628138E+02	7.33405513636E+00	1.78980792384E+02	-5.72773240422E+01	1.71107191756E+02	-5.86869727827E+00	-1.99626213211E-01
6.55061673519E+05	-1.08395943886E+01	-1.66053701149E+02	7.39380456217E+00	1.78565527940E+02	-5.89100853533E+01	-1.73603811180E+02	-5.86384871827E+00	-2.94356124118E-01
6.77253028114E+05	-1.17911161838E+01	-1.55992176059E+02	7.37822019738E+00	1.78598219311E+02	-6.06615698285E+01	-1.05289564060E+02	-5.86660564290E+00	-7.18058878586E-01
6.99444382709E+05	-1.12650181744E+01	-1.56874088676E+02	7.34755198214E+00	1.78315443639E+02	-3.70675819491E+01	1.73342830949E+01	-5.88156111176E+00	-5.71570853406E-01
7.21635737304E+05	-1.19629692411E+01	-1.71595663123E+02	7.37906160376E+00	1.78331170812E+02	-4.47365751474E+01	-8.05996853024E+01	-5.85423071285E+00	-2.99066620509E-01
7.43827091899E+05	-1.18613467207E+01	-1.53502706637E+02	7.43287543349E+00	1.78452896595E+02	-5.70774185469E+01	4.73500211395E+01	-5.84510183601E+00	-4.93428886691E-01
7.66018446494E+05	-1.03778993518E+01	1.76756886931E+02	7.34056449746E+00	1.78065245508E+02	-4.67401208749E+01	-2.20940722602E+01	-5.89000410995E+00	-3.98666909214E-01
7.88209801089E+05	-1.16793883806E+01	-1.75304686210E+02	7.39646146413E+00	1.78142893880E+02	-4.18113721770E+01	-4.81281150074E+01	-5.88137503099E+00	-3.49002873137E-01
8.10401155684E+05	-1.27534109276E+01	-1.67937774101E+02	7.38183839425E+00	1.77603479778E+02	-4.26583037036E+01	-7.57742916477E+01	-5.84750318963E+00	-3.94632658282E-01
8.32592510279E+05	-1.44011742006E+01	1.75033415332E+02	7.41702975383E+00	1.77753904488E+02	-5.98152679588E+01	4.01874138627E+01	-5.88034839023E+00	-4.89333596218E-01
8.54783864874E+05	-1.67664138368E+01	-1.72658165799E+02	7.43268120880E+00	1.77482634185E+02	-5.28183760618E+01	6.08960142109E+01	-5.86586939408E+00	-4.39678595450E-01
8.76975219469E+05	-1.08597304408E+01	1.64371042625E+02	7.34226227517E+00	1.77706403967E+02	-4.51664265744E+01	1.02553605431E+02	-5.84309205274E+00	-6.59422255577E-01
8.99166574064E+05	-1.65232829156E+01	-1.76948318700E+02	7.41187441609E+00	1.77679890726E+02	-4.89476894924E+01	1.30814461265E+02	-5.85717129744E+00	-5.34522556364E-01
9.21357928659E+05	-1.30328150612E+01	-1.76073605359E+02	7.39757167709E+00	1.77116004482E+02	-4.80987529012E+01	-7.02050626005E+01	-5.85854410830E+00	-3.10923226096E-01
9.43549283254E+05	-1.97084101503E+01	-1.65500405064E+02	7.42546231534E+00	1.77077416923E+02	-4.37548762425E+01	-5.26129382852E+01	-5.88061219600E+00	-3.92848116017E-01
9.65740637849E+05	-1.18241166074E+01	-1.66595347486E+02	7.41796457772E+00	1.76703413989E+02	-4.73253031545E+01	1.06130669415E+02	-5.85074880489E+00	-5.32979800656E-01
9.87931992444E+05	-1.32238996095E+01	-1.64424835409E+02	7.40581328842E+00	1.76706334009E+02	-4.87675395909E+01	1.75721401334E+02	-5.87520581473E+00	-5.53535586475E-01
1.01012334704E+06	-1.27062159550E+01	-1.62380313025E+02	7.39914466281E+00	1.76419907933E+02	-3.38715655428E+01	-1.53898583631E+01	-5.90677234374E+00	-5.98671297400E-01
1.03231470163E+06	-1.40085768929E+01	-1.73419925544E+02	7.36730325118E+00	1.76603378056E+02	-5.17046215044E+01	1.28774615466E+02	-5.86903551829E+00	-6.82718127896E-01
1.05450605623E+06	-1.30884434496E+01	-1.68341454595E+02	7.37511934133E+00	1.76590234697E+02	-4.51936319996E+01	1.13130807986E+02	-5.83911443814E+00	-5.54549631659E-01
1.07669741082E+06	-1.52633987988E+01	-1.56099035994E+02	7.43196731982E+00	1.76417091904E+02	-4.39586464036E+01	-1.21606198913E+02	-5.89136048577E+00	-8.06305644834E-01
1.09888876542E+06	-1.16405337185E+01	-1.75023719264E+02	7.36619775560E+00	1.76128388022E+02	-4.40051173029E+01	-7.78460212078E+01	-5.89400234548E+00	-4.45947620511E-01
1.12108012001E+06	-1.08617452470E+01	-1.74452951037E+02	7.38360945040E+00	1.76183393729E+02	-6.09101392800E+01	-1.36903868925E+02	-5.86276182950E+00	-6.12062135918E-01
1.14327147461E+06	-1.29658474559E+01	-1.76254913925E+02	7.37667840844E+00	1.76171270101E+02	-5.04640086899E+01	1.23148910259E+02	-5.84873989510E+00	-6.00351272102E-01
1.16546282920E+06	-1.38986283306E+01	1.73168302924E+02	7.38960799600E+00	1.75895175905E+02	-4.61917655220E+01	-1.06550625549E+02	-5.86889273190E+00	-6.45065517414E-01
1.18765418380E+06	-1.32927698067E+01	-1.58865364762E+02	7.37899218318E+00	1.75798214218E+02	-3.89380258914E+01	-1.31889185802E+02	-5.83745376757E+00	-5.83627009059E-01
1.20984553839E+06	-1.25992777404E+01	-1.69249683879E+02	7.41324687623E+00	1.75585101947E+02	-4.19982689699E+01	2.79674209002E+01	-5.87100256454E+00	-9.24703116059E-01
1.23203689299E+06	-1.38776681032E+01	-1.31227473487E+02	7.42285319013E+00	1.75336696343E+02	-4.84429120345E+01	1.09156210135E+02	-5.85624145090E+00	-5.54009913401E-01
1.25422824758E+06	-1.22240540372E+01	-1.76257329035E+02	7.39220830329E+00	1.75715913378E+02	-5.48097395186E+01	3.55934805065E+01	-5.88009746297E+00	-6.66381422877E-01
1.27641960218E+06	-1.25296709011E+01	-1.66542430778E+02	7.39075499715E+00	1.75311376230E+02	-4.44125859986E+01	-3.71993805364E+00	-5.89065088619E+00	-7.41861973958E-01
1.29861095677E+06	-1.20791030284E+01	-1.65772504043E+02	7.37811604215E+00	1.75149009402E+02	-3.89944809865E+01	4.32272333466E+01	-5.87496718441E+00	-8.38822059228E-01
1.32080231137E+06	-1.29878496396E+01	-1.55192638314E+02	7.41825712370E+00	1.75129464512E+02	-4.03314621402E+01	8.53138249874E+01	-5.87551585036E+00	-1.24023074022E+00
1.34299366596E+06	-1.63591171508E+01	-1.58999924002E+02	7.45258386703E+00	1.75263486811E+02	-4.37164700949E+01	1.19748882724E+02	-5.84691984496E+00	-8.41612776748E-01
1.36518502056E+06	-1.31012164494E+01	1.78654042449E+02	7.34049402091E+00	1.74821162148E+02	-4.25317263810E+01	6.22336411898E+01	-5.87553351889E+00	-9.31365681225E-01
1.38737637515E+06	-1.38565403162E+01	1.51433596372E+02	7.37425803434E+00	1.74957875108E+02	-4.68553702602E+01	1.93320514362E+01	-5.87934673560E+00	-7.72679185568E-01
1.40956772975E+06	-1.57957686471E+01	-1.67462288010E+02	7.36317107941E+00	1.74875151263E+02	-3.97641243661E+01	-1.04666260605E+02	-5.88404246325E+00	-7.41797213241E-01
1.43175908434E+06	-1.48059872424E+01	-1.62835260333E+02	7.42661595786E+00	1.74594556374E+02	-3.91332094173E+01	1.01506603537E+01	-5.89628783429E+00	-8.93252416979E-01
1.45395043894E+06	-1.23441817012E+01	-1.61853053056E+02	7.40329194279E+00	1.74371043382E+02	-4.61376502958E+01	-2.07668189416E+01	-5.88201021780E+00	-8.12878501502E-01
1.47614179353E+06	-1.37915752683E+01	1.74485010891E+02	7.39823709894E+00	1.74311733859E+02	-4.00771413221E+01	9.23864649280E+01	-5.87105684607E+00	-6.28643490705E-01
1.49833314813E+06	-1.22065929092E+01	-1.64351879864E+02	7.37663211621E+00	1.74360847016E+02	-4.16508209541E+01	-1.37228084922E+02	-5.87219416414E+00	-8.25105221983E-01
1.52052450272E+06	-1.11318618992E+01	-1.77293190972E+02	7.38075786160E+00	1.74151860617E+02	-4.88710613252E+01	1.57667624541E+01	-5.86337022349E+00	-8.69150458742E-01
1.54271585732E+06	-1.09846314033E+01	-1.79897243632E+02	7.40581370191E+00	1.73865846957E+02	-5.09379839432E+01	-1.76894058242E+02	-5.86013101434E+00	-7.11701205398E-01
1.56490721191E+06	-1.82714491530E+01	-1.62455931949E+02	7.43040048086E+00	1.74044799238E+02	-4.15975363985E+01	-1.58827179415E+02	-5.85644536908E+00	-8.07122447324E-01
1.58709856651E+06	-1.18115958009E+01	-1.75704736241E+02	7.38476523940E+00	1.73901625429E+02	-4.41336685640E+01	-1.57986582635E+02	-5.88241828550E+00	-7.58437906483E-01
1.60928992110E+06	-1.37849085700E+01	-1.72933645141E+02	7.40173772629E+00	1.73793892421E+02	-4.86326946482E+01	-1.61032038148E+01	-5.89115197483E+00	-9.21389703703E-01
1.63148127570E+06	-1.48713178289E+01	-1.58996811222E+02	7.39676420108E+00	1.73639962810E+02	-4.28942445990E+01	1.31803251069E+02	-5.87537928096E+00	-7.81054445252E-01
1.65367263029E+06	-1.24386896319E+01	-1.58797532273E+02	7.41111745668E+00	1.73365338349E+02	-6.44065797108E+01	1.96058832277E+01	-5.87362363170E+00	-7.70381320795E-01
1.67586398489E+06	-1.44318080969E+01	1.75978927884E+02	7.44411592954E+00	1.73790795993E+02	-5.89698686073E+01	-1.01651338000E+02	-5.88422794776E+00	-8.49832838613E-01
1.69805533948E+06	-1.58869980308E+01	-1.30715419438E+02	7.47581349903E+00	1.73796038746E+02	-5.09436345789E+01	9.90054002929E+01	-5.86679822756E+00	-1.02482343531E+00
1.72024669408E+06	-1.51354916968E+01	-1.48260303876E+02	7.44515369636E+00	1.73247650283E+02	-5.19952615439E+01	-5.95612954905E+01	-5.86800935895E+00	-8.85304027321E-01
1.74243804867E+06	-1.25154666119E+01	-1.69104985559E+02	7.37903649357E+00	1.73134261234E+02	-4.23571768125E+01	-1.12136969148E+00	-5.87950166093E+00	-1.01582234765E+00
1.76462940327E+06	-1.72629651630E+01	-1.62179634732E+02	7.42017256289E+00	1.73247652735E+02	-4.80610973540E+01	5.88236449707E+01	-5.86636230392E+00	-9.42707306476E-01
1.78682075786E+06	-1.18354732733E+01	-1.65888259181E+02	7.41406887751E+00	1.72782465945E+02	-3.73682433517E+01	1.37811399473E+02	-5.83623661726E+00	-1.03235283008E+00
1.80901211246E+06	-1.25062153131E+01	-1.56820354160E+02	7.40941154488E+00	1.72771398754E+02	-4.74148092071E+01	-1.14567677173E+02	-5.87434279753E+00	-8.24357909066E-01
1.83120346705E+06	-1.35369929576E+01	1.71814736443E+02	7.38786226680E+00	1.72693959176E+02	-4.45151717512E+01	-1.43757786724E+01	-5.87141412767E+00	-9.26099676988E-01
1.85339482165E+06	-9.66473505597E+00	-1.51462275362E+02	7.41776996916E+00	1.72462070446E+02	-4.64888605709E+01	1.69625434569E+02	-5.85184900444E+00	-9.77290995666E-01
1.87558617624E+06	-1.27949709184E+01	-1.65135840788E+02	7.39578403554E+00	1.72261650073E+02	-4.82643680396E+01	4.11910198111E+01	-5.88223218539E+00	-1.01005812140E+00
1.89777753084E+06	-1.23921121277E+01	-1.68615412687E+02	7.40057316212E+00	1.72446834266E+02	-5.39578160043E+01	-6.82826933886E+01	-5.87202227762E+00	-9.21822417076E-01
1.91996888543E+06	-1.12252219592E+01	-1.66315478379E+02	7.39071261676E+00	1.72398143992E+02	-5.20907822647E+01	4.86766881326E+01	-5.84721340382E+00	-1.02574027054E+00
1.94216024003E+06	-1.35358258886E+01	-1.73520553127E+02	7.37312221541E+00	1.72518623796E+02	-3.27496810296E+01	4.74543990067E+01	-5.87226992638E+00	-1.27982201058E+00
1.96435159462E+06	-1.25275463618E+01	-1.54449716001E+02	7.41151723455E+00	1.72215565485E+02	-4.61446384354E+01	-2.50380501593E+01	-5.88046870425E+00	-9.89094033125E-01
1.98654294922E+06	-1.14427251098E+01	-1.52519343104E+02	7.44532164171E+00	1.71511017337E+02	-5.14972674748E+01	-1.45216016325E+02	-5.85967004313E+00	-8.25947645634E-01
2.00873430381E+06	-1.00927854168E+01	-1.59222376847E+02	7.39378660866E+00	1.71766152986E+02	-4.49163133979E+01	1.13861307100E+02	-5.86081973727E+00	-1.16825733953E+00
2.03092565841E+06	-1.52069774700E+01	-1.79430797957E+02	7.39668069474E+00	1.71906151169E+02	-4.76752276784E+01	1.75676401464E+01	-5.88181349349E+00	-1.02604453979E+00
2.05311701300E+06	-1.48305448175E+01	1.77874592002E+02	7.43182064444E+00	1.71841247005E+02	-6.08599626520E+01	-1.57160626184E+02	-5.86894617218E+00	-1.18059323645E+00
2.07530836760E+06	-1.23734542790E+01	-1.61192112153E+02	7.46104642303E+00	1.71666685726E+02	-5.27203989356E+01	9.07031890374E+01	-5.85625444226E+00	-1.16238676199E+00
2.09749972219E+06	-1.33133639686E+01	-1.69635806215E+02	7.41553418867E+00	1.71595625963E+02	-3.55675170406E+01	-6.49374701389E+01	-5.87821440741E+00	-9.71607510673E-01
2.11969107679E+06	-1.54855896077E+01	-1.59876585223E+02	7.46846083871E+00	1.71404514868E+02	-4.33276239840E+01	-5.68545398097E+01	-5.88332542327E+00	-1.08512821352E+00
2.14188243138E+06	-1.15242731759E+01	-1.48973298904E+02	7.40706431475E+00	1.70851210947E+02	-4.34188546269E+01	1.72569830329E+02	-5.85571269811E+00	-1.25047848753E+00
2.16407378598E+06	-1.29901275364E+01	1.64137728870E+02	7.38749988334E+00	1.71478668219E+02	-4.54326944801E+01	-7.70241951931E+01	-5.87258286253E+00	-9.39785579540E-01
2.18626514057E+06	-1.24721109121E+01	-1.58210742835E+02	7.43644569615E+00	1.71020752100E+02	-4.68938452876E+01	1.01419282743E+02	-5.87237770358E+00	-1.34304497043E+00
2.20845649517E+06	-1.13756117123E+01	-1.65231221321E+02	7.39457779559E+00	1.70821004719E+02	-5.95893862381E+01	4.22853895191E+00	-5.87279404450E+00	-1.23861284414E+00
2.23064784976E+06	-1.43901089185E+01	-1.53228582012E+02	7.46150391938E+00	1.70912900425E+02	-4.66535011004E+01	-8.37287030475E+01	-5.88246666959E+00	-1.07465274125E+00
2.25283920436E+06	-1.01915475613E+01	1.72634495435E+02	7.37856343124E+00	1.70952675541E+02	-3.76162102461E+01	-1.28485247921E+02	-5.89287445632E+00	-8.71846285404E-01
2.27503055895E+06	-1.15935192193E+01	-1.61362956741E+02	7.44969558263E+00	1.70516608533E+02	-3.92482165629E+01	-1.12626696160E+02	-5.86210329096E+00	-1.09416409149E+00
2.29722191355E+06	-1.43881141116E+01	-1.60210486172E+02	7.43312335197E+00	1.70720401308E+02	-4.32734116746E+01	1.05186033467E+02	-5.83900554765E+00	-1.27176164864E+00
2.31941326814E+06	-6.46347681576E+00	-1.65144007700E+02	7.37717591273E+00	1.69649700999E+02	-3.86374963746E+01	8.28911888139E+00	-5.89494211074E+00	-1.31339811472E+00
2.34160462274E+06	-1.05727143966E+01	-1.75609782913E+02	7.38227804040E+00	1.70406827215E+02	-4.35830441622E+01	-2.92224164402E+01	-5.87101673129E+00	-1.24442173074E+00
2.36379597733E+06	-1.34074702827E+01	-1.62470877491E+02	7.44434912256E+00	1.70120788055E+02	-4.42634523387E+01	5.84243481636E+01	-5.87770351309E+00	-1.31126019249E+00
2.38598733193E+06	-1.21516874544E+01	1.78051912968E+02	7.39577158287E+00	1.70454763177E+02	-4.24454654058E+01	1.09870829557E+02	-5.84112315473E+00	-1.33669385435E+00
2.40817868652E+06	-1.16517086321E+01	-1.76304122486E+02	7.42640210813E+00	1.70081027581E+02	-4.21390470240E+01	-7.96779718542E+01	-5.93282011346E+00	-1.35825003510E+00
2.43037004112E+06	-1.17623001805E+01	-1.60823273608E+02	7.38781723354E+00	1.70137040043E+02	-4.53495153105E+01	8.09892454386E+01	-5.87844461599E+00	-1.66697137455E+00
2.45256139571E+06	-1.31530306886E+01	-1.79085300307E+02	7.40517023459E+00	1.70145266926E+02	-5.11036674730E+01	-1.07811043321E+02	-5.88256517430E+00	-1.16442714392E+00
2.47475275031E+06	-1.60495105969E+01	1.16118619793E+02	7.34642032628E+00	1.70162629127E+02	-6.26706223709E+01	-9.83402618405E+01	-5.86144526325E+00	-1.31872789379E+00
2.49694410490E+06	-1.21869728265E+01	-1.63309719781E+02	7.45113352202E+00	1.69633916298E+02	-5.24276930531E+01	1.50891939004E+01	-5.87239630218E+00	-1.38389565773E+00
2.51913545950E+06	-1.21733360088E+01	1.78115094864E+02	7.43212938041E+00	1.69703959889E+02	-5.61332500879E+01	-1.70947242441E+00	-5.87628185284E+00	-1.42973452538E+00
2.54132681409E+06	-1.25905796901E+01	-1.52456915291E+02	7.46942827356E+00	1.69378737513E+02	-5.03817750507E+01	1.76346844211E+02	-5.87801696514E+00	-1.24065855660E+00
2.56351816869E+06	-1.32206825248E+01	-1.68359271287E+02	7.40459872705E+00	1.69433300124E+02	-4.57919461375E+01	-1.15682044207E+02	-5.89936568272E+00	-1.30436098620E+00
2.58570952328E+06	-1.47686294456E+01	-1.54544513699E+02	7.46471941696E+00	1.69384711728E+02	-4.64227245229E+01	5.05098556395E+01	-5.86304746582E+00	-1.45130654795E+00
2.60790087788E+06	-1.11738046284E+01	-1.64885164796E+02	7.44075077547E+00	1.69005323558E+02	-4.93333081080E+01	9.41977888973E+01	-5.87251835986E+00	-1.31378196642E+00
2.63009223247E+06	-1.04735075541E+01	-1.50482408072E+02	7.44167780539E+00	1.68674471193E+02	-4.16162794180E+01	-7.63113244834E+01	-5.87810517872E+00	-9.39564790772E-01
2.65228358707E+06	-1.20787425124E+01	1.79166825395E+02	7.39721927560E+00	1.69164232452E+02	-4.45556793944E+01	-3.07168944534E+01	-5.87857830673E+00	-1.26684839076E+00
2.67447494166E+06	-1.43024351746E+01	-1.65085567697E+02	7.46843495291E+00	1.68845040710E+02	-5.39446517217E+01	-5.25777124283E+01	-5.87583336872E+00	-1.21869279607E+00
2.69666629626E+06	-9.56766834922E+00	-1.61123347278E+02	7.41919519136E+00	1.68432057095E+02	-4.75743513654E+01	1.57243188938E+02	-5.87852567563E+00	-1.40854354825E+00
2.71885765085E+06	-1.15520876263E+01	-1.56697718328E+02	7.42372777419E+00	1.68335984265E+02	-3.43426323617E+01	9.92236352100E+01	-5.83516086590E+00	-1.57184536987E+00
2.74104900545E+06	-1.49005022857E+01	-1.59719082666E+02	7.43920637194E+00	1.68769185352E+02	-4.12563425440E+01	-8.94797775535E+01	-5.89914243743E+00	-1.37832497813E+00
2.76324036004E+06	-1.37860524180E+01	-1.54488321931E+02	7.46651917368E+00	1.68595027087E+02	-4.87027218249E+01	-1.33558799607E+02	-5.87163342546E+00	-1.46522036590E+00
2.78543171463E+06	-2.16527392045E+01	-1.62276786027E+02	7.42647615621E+00	1.68873244939E+02	-4.57213998415E+01	-5.65945692538E+01	-5.87943249066E+00	-1.46594948728E+00
2.80762306923E+06	-1.19542360754E+01	-1.71561856754E+02	7.44241172394E+00	1.68341965298E+02	-4.83553218346E+01	6.80562657935E+01	-5.87730564728E+00	-1.44924165321E+00
2.82981442382E+06	-1.28973065781E+01	-1.44243941916E+02	7.45623222735E+00	1.68134701470E+02	-4.37004271784E+01	-1.13264865776E+02	-5.88718691634E+00	-1.42717980639E+00
2.85200577842E+06	-1.19381773360E+01	-1.73582357922E+02	7.44143929003E+00	1.68217476528E+02	-4.27158277875E+01	1.09536564092E+02	-5.87110185559E+00	-1.63732960297E+00
2.87419713301E+06	-1.31413904794E+01	-1.58621595179E+02	7.45931695573E+00	1.67834460298E+02	-4.50158670079E+01	-1.19283372861E+02	-5.85458470601E+00	-1.40064073061E+00
