# Hz S DB R 50
! CMT, M5065, 19127446, 24.2.4/2
! Date: 11/8/2024 4:48:29 PM
! Data: Format (Calibration Info)
! Freq	S11:dB/Ang(F2)	S21:dB/Ang(F2)	S12:dB/Ang(F2)	S22:dB/Ang(F2)
3.00000000000E+05	-1.41925469709E+01	-1.66883338054E+02	4.59073234731E+00	-1.77386025660E+02	-4.75789074749E+01	-2.24403284259E+01	-5.86677735439E+00	-2.88433576677E-01
3.22191354595E+05	-1.87898804389E+01	-1.70199176352E+02	4.67885492827E+00	-1.77741864018E+02	-4.66001517785E+01	7.77838716636E+01	-5.85850850824E+00	-3.77198487776E-01
3.44382709190E+05	-1.33987786549E+01	-1.49478380913E+02	4.66522257045E+00	-1.78508156195E+02	-4.36341379467E+01	-6.75765517598E+01	-5.88708558333E+00	-3.09826172748E-01
3.66574063785E+05	-1.38742317301E+01	-1.64741296034E+02	4.60868452402E+00	-1.78418736831E+02	-4.26683481395E+01	1.74283555284E+02	-5.86178990463E+00	-2.17641394752E-01
3.88765418380E+05	-1.06429519837E+01	1.79945330321E+02	4.85082760481E+00	-1.76810785572E+02	-5.67840680139E+01	1.10391562553E+02	-5.87189956296E+00	-3.88551636457E-01
4.10956772975E+05	-1.21529802818E+01	-1.51660230383E+02	4.62745435318E+00	-1.79236587274E+02	-3.81736041425E+01	1.92395421460E+01	-5.88409958496E+00	-3.43303935216E-01
4.33148127570E+05	-1.39248404057E+01	-1.67706693352E+02	4.65464007646E+00	-1.79524767783E+02	-3.62124427514E+01	-4.89437447968E+01	-5.89178675056E+00	-3.64901994189E-01
4.55339482165E+05	-1.98236236694E+01	-1.66572910089E+02	4.64567420573E+00	-1.79377971118E+02	-4.28564226754E+01	1.66841492153E+02	-5.87015562343E+00	-4.29199641700E-01
4.77530836760E+05	-1.08804058179E+01	-1.60164847666E+02	4.60829088156E+00	-1.79712682251E+02	-4.30590388889E+01	-1.37099365713E+02	-5.87099193416E+00	-4.74688242089E-01
4.99722191355E+05	-1.36324289595E+01	-1.70011245902E+02	4.64395673011E+00	-1.79672128260E+02	-4.63257656511E+01	1.50423131888E+02	-5.84545573776E+00	-2.70209099501E-01
5.21913545950E+05	-1.18806055419E+01	-1.61665843711E+02	4.65262981014E+00	1.79716200129E+02	-5.24183249432E+01	6.77057592034E+01	-5.87125436611E+00	-3.15895070639E-01
5.44104900545E+05	-1.37855976165E+01	-1.68946171319E+02	4.62948990305E+00	1.79981346252E+02	-4.25604679049E+01	1.72930876588E+01	-5.88071145369E+00	-3.51401385336E-01
5.66296255139E+05	-1.42990936077E+01	1.62697344738E+02	4.63069928395E+00	-1.79969701143E+02	-4.12437154185E+01	-1.11870132288E+02	-5.86007311364E+00	-3.38724574095E-01
5.88487609734E+05	-1.33259975000E+01	1.78037206565E+02	4.65379879513E+00	1.79614579214E+02	-4.43016515400E+01	-3.44919124006E+01	-5.90429026225E+00	-1.95002531248E-01
6.10678964329E+05	-1.24351254471E+01	1.76378710570E+02	4.66149123500E+00	1.79848610052E+02	-5.22080903027E+01	3.11765887424E+01	-5.87007354012E+00	1.43314884136E-01
6.32870318924E+05	-1.09025198632E+01	-1.76693776021E+02	4.63311451232E+00	1.79082115502E+02	-4.51092394746E+01	-1.00604668759E+02	-5.85810965215E+00	-8.44505518855E-02
6.55061673519E+05	-1.66012568041E+01	1.60240747012E+02	4.71142018350E+00	1.79316715292E+02	-5.49136400456E+01	2.84497792748E-01	-5.86051329117E+00	-2.48658778551E-01
6.77253028114E+05	-1.50534866081E+01	1.73816791870E+02	4.68605399075E+00	1.79111969167E+02	-5.07946470446E+01	1.23622241980E+02	-5.84809739277E+00	-8.67705771363E-01
6.99444382709E+05	-1.42745677668E+01	1.78919541482E+02	4.66514316306E+00	1.79065345997E+02	-5.55324481522E+01	-3.24791353555E+01	-5.86050900164E+00	-2.95470650483E-01
7.21635737304E+05	-1.48982621990E+01	-1.79942802392E+02	4.67662346125E+00	1.78510641023E+02	-6.22449998682E+01	-7.32371461914E+01	-5.85206462334E+00	-4.32294475792E-01
7.43827091899E+05	-1.61543906125E+01	-1.53292691029E+02	4.64681339132E+00	1.78478961031E+02	-4.84299135380E+01	3.83124768638E+01	-5.86162766004E+00	-3.23718171117E-01
7.66018446494E+05	-1.55907013869E+01	1.73048979317E+02	4.67688427856E+00	1.78419142296E+02	-4.58282601848E+01	-1.38848664103E+01	-5.87173137928E+00	-4.12407110221E-01
7.88209801089E+05	-1.07157221045E+01	1.72104444110E+02	4.60785025720E+00	1.78433836244E+02	-5.07835038539E+01	-1.24873270788E+02	-5.87860620196E+00	-3.55729956091E-01
8.10401155684E+05	-9.48516885938E+00	-1.54396160412E+02	4.61916473627E+00	1.78158006555E+02	-4.23196229682E+01	1.04513786403E+02	-5.88181125470E+00	-5.81807191519E-01
8.32592510279E+05	-1.48767608034E+01	1.73953046741E+02	4.62869699160E+00	1.78061804305E+02	-4.67376436453E+01	-6.04720016340E+01	-5.87546338440E+00	-5.66606004912E-01
8.54783864874E+05	-1.26085956010E+01	-1.72523832971E+02	4.65850902082E+00	1.78143578709E+02	-4.59756236969E+01	4.44263637222E+01	-5.89174311673E+00	-5.39490123779E-01
8.76975219469E+05	-1.77870141877E+01	-1.75146349000E+02	4.63528175397E+00	1.77867169064E+02	-4.41285282978E+01	-4.99049473846E+01	-5.89176163393E+00	-5.70277672362E-01
8.99166574064E+05	-1.33341586770E+01	-1.69630430862E+02	4.63355706729E+00	1.78005848408E+02	-4.53863433036E+01	1.70673245048E+02	-5.85391850232E+00	-4.28392213883E-01
9.21357928659E+05	-1.72655373803E+01	-1.69800140495E+02	4.67954191134E+00	1.77879052804E+02	-4.24023949122E+01	5.36630976571E+01	-5.86398641625E+00	-4.83310938790E-01
9.43549283254E+05	-1.32743570714E+01	-1.76984515806E+02	4.63380579743E+00	1.77502805909E+02	-5.66411623919E+01	5.51903995902E+01	-5.85726838555E+00	-7.16409703416E-01
9.65740637849E+05	-1.59899200160E+01	1.59793760473E+02	4.67859388291E+00	1.77839421455E+02	-4.66424293244E+01	3.82161697472E+01	-5.86836494796E+00	-4.88823517880E-01
9.87931992444E+05	-1.27481526234E+01	-1.55581436419E+02	4.65670148958E+00	1.77657312042E+02	-4.30121953085E+01	-1.54476167661E+02	-5.86687186410E+00	-5.49484524471E-01
1.01012334704E+06	-1.27537311038E+01	-1.60073341791E+02	4.66052378191E+00	1.77332836368E+02	-4.16498960227E+01	1.06076328391E+02	-5.87341552283E+00	-6.41440665812E-01
1.03231470163E+06	-1.78258219402E+01	-1.67408720579E+02	4.63733464034E+00	1.77521364509E+02	-5.56913296022E+01	-6.38578813508E+01	-5.83631331667E+00	-5.94261520920E-01
1.05450605623E+06	-1.22502602709E+01	1.69481713720E+02	4.67799712584E+00	1.76922352184E+02	-3.95675125044E+01	1.47200286025E+02	-5.85663305976E+00	-7.23738370544E-01
1.07669741082E+06	-1.30906354815E+01	-1.59808322156E+02	4.74612577821E+00	1.77520573206E+02	-4.70012969578E+01	-3.31937404273E+00	-5.87593905182E+00	-4.48460526132E-01
1.09888876542E+06	-1.29760848942E+01	-1.67377516693E+02	4.58988172946E+00	1.76691765547E+02	-4.45401344258E+01	2.47307392981E+01	-5.87356839271E+00	-5.58724761409E-01
1.12108012001E+06	-1.43846261359E+01	-1.59195108980E+02	4.71486358764E+00	1.76758118845E+02	-4.11386690208E+01	1.04471241976E+02	-5.84897955179E+00	-7.11044734592E-01
1.14327147461E+06	-1.56998747131E+01	-1.75801295405E+02	4.66224592194E+00	1.76912528778E+02	-4.93097730251E+01	1.55912902890E+02	-5.86360895056E+00	-4.69394053390E-01
1.16546282920E+06	-1.52380361991E+01	-1.54154268695E+02	4.68268094668E+00	1.76576937410E+02	-4.44319573363E+01	-1.64787400112E+02	-5.86927037473E+00	-7.04172264741E-01
1.18765418380E+06	-1.55561080080E+01	-1.67625122463E+02	4.67570119606E+00	1.76406165016E+02	-3.97816170210E+01	7.03589825698E+01	-5.85790490111E+00	-7.96030037315E-01
1.20984553839E+06	-1.31067322152E+01	-1.79427996114E+02	4.66554654101E+00	1.76366903124E+02	-4.18263049634E+01	1.04886235884E+02	-5.84557263158E+00	-7.45195685526E-01
1.23203689299E+06	-1.36999966285E+01	-1.73336642499E+02	4.62368895288E+00	1.76106899270E+02	-5.71958775739E+01	1.37027174217E+02	-5.86716822981E+00	-4.48144822643E-01
1.25422824758E+06	-1.16028435757E+01	1.78163119744E+02	4.61344402182E+00	1.76074751521E+02	-5.50910016990E+01	-1.22802231466E+02	-5.88936219266E+00	-5.72816285463E-01
1.27641960218E+06	-1.43332559933E+01	1.72829635940E+02	4.61567842092E+00	1.76081967567E+02	-4.70683657793E+01	-1.71928205352E+02	-5.87056680233E+00	-7.19947853994E-01
1.29861095677E+06	-1.65177384881E+01	1.74033726718E+02	4.68735199177E+00	1.76250605111E+02	-4.37379665997E+01	-1.69655988225E+02	-5.87605118208E+00	-6.89382246402E-01
1.32080231137E+06	-1.39339387830E+01	-1.76073841018E+02	4.67103685257E+00	1.76004108209E+02	-4.82084418987E+01	-7.33962172592E+01	-5.85815316730E+00	-1.11504984138E+00
1.34299366596E+06	-1.36582287763E+01	1.78240375626E+02	4.64359281676E+00	1.76047857011E+02	-4.95057712338E+01	1.17134194469E+02	-5.86375219894E+00	-8.87070874912E-01
1.36518502056E+06	-1.40942686119E+01	-1.74424482239E+02	4.64088312125E+00	1.75567600412E+02	-5.73341629191E+01	2.49984960994E+01	-5.84771979229E+00	-6.81459232310E-01
1.38737637515E+06	-1.50765971621E+01	-1.69799339403E+02	4.64267577771E+00	1.75580368813E+02	-4.57542342684E+01	-5.91943516632E+01	-5.86436381851E+00	-5.37543135905E-01
1.40956772975E+06	-1.96763959918E+01	-1.25481554342E+02	4.72201375289E+00	1.75503620907E+02	-4.13200703570E+01	-1.63666570789E+02	-5.85367560081E+00	-7.42429094278E-01
1.43175908434E+06	-1.00631505119E+01	1.76594922072E+02	4.63953330272E+00	1.75332078124E+02	-4.81701199025E+01	4.00024125660E+01	-5.86837670412E+00	-7.85454138663E-01
1.45395043894E+06	-1.26475168798E+01	1.77768081964E+02	4.65203040197E+00	1.75069321504E+02	-4.76361051791E+01	-1.20338143800E+02	-5.88214690355E+00	-7.20617911425E-01
1.47614179353E+06	-1.55516977504E+01	-1.67773030446E+02	4.70038229198E+00	1.75281089425E+02	-4.01692534624E+01	-7.62020429871E+01	-5.86139417843E+00	-7.47149190695E-01
1.49833314813E+06	-1.57092509910E+01	1.77301914976E+02	4.66479383884E+00	1.75188446905E+02	-3.95514156302E+01	-1.44763245758E+02	-5.87698401655E+00	-7.47616048624E-01
1.52052450272E+06	-1.56106791412E+01	1.79648861267E+02	4.62688665192E+00	1.75066100807E+02	-4.67913988570E+01	1.44934748053E+02	-5.87951228296E+00	-6.09392856342E-01
1.54271585732E+06	-1.73664903728E+01	-1.68903926794E+02	4.66882539109E+00	1.75207520330E+02	-4.12365123799E+01	-1.67661726941E+02	-5.85975655078E+00	-6.64545414615E-01
1.56490721191E+06	-1.72725590327E+01	1.54654196453E+02	4.67848164856E+00	1.75023328426E+02	-4.46646969712E+01	-1.34111322154E+02	-5.86217723284E+00	-7.17435339232E-01
1.58709856651E+06	-1.87345559450E+01	-1.66798534172E+02	4.66763556608E+00	1.75051061935E+02	-5.53080615692E+01	1.71401702302E+02	-5.86963002216E+00	-7.44930857656E-01
1.60928992110E+06	-1.10043475491E+01	-1.53202898494E+02	4.65442278300E+00	1.74179214363E+02	-4.41534146367E+01	1.11225153201E+02	-5.84188171168E+00	-1.01382011140E+00
1.63148127570E+06	-1.22160885374E+01	1.78574393299E+02	4.65979684658E+00	1.74631003294E+02	-4.73628206428E+01	-1.85042664641E+01	-5.87168611044E+00	-9.48654899217E-01
1.65367263029E+06	-1.39534443973E+01	1.72382176499E+02	4.65298139035E+00	1.74265718006E+02	-4.73316388462E+01	-1.31304102040E+02	-5.86257370701E+00	-6.98543875002E-01
1.67586398489E+06	-1.42559856149E+01	-1.58434992369E+02	4.67265188279E+00	1.74642028850E+02	-4.16047106448E+01	1.68717640464E+02	-5.86490108585E+00	-8.08782229133E-01
1.69805533948E+06	-1.03832576971E+01	-1.59862371437E+02	4.64299912833E+00	1.73936038991E+02	-3.87670637132E+01	1.30811846369E+02	-5.86189486187E+00	-7.96447433100E-01
1.72024669408E+06	-1.40139341057E+01	-1.68170462716E+02	4.68429075498E+00	1.74081482627E+02	-4.83657089916E+01	8.94713548461E+01	-5.85662371132E+00	-8.92480896666E-01
1.74243804867E+06	-1.93354367110E+01	1.53578807731E+02	4.66122024116E+00	1.74578225416E+02	-4.89839726711E+01	-9.94075032298E+01	-5.86674063095E+00	-8.16766922108E-01
1.76462940327E+06	-1.75575992249E+01	-1.67319582057E+02	4.71789918638E+00	1.74113565727E+02	-3.90894831619E+01	-1.12450803242E+02	-5.86445943420E+00	-8.44221888296E-01
1.78682075786E+06	-1.34172064134E+01	-1.59487211100E+02	4.68544890464E+00	1.73981050052E+02	-4.19726473098E+01	1.23567891564E+02	-5.85199443055E+00	-1.05776852386E+00
1.80901211246E+06	-1.68001642049E+01	1.70560238484E+02	4.70467926801E+00	1.74213493894E+02	-4.17316795426E+01	1.48744826246E+02	-5.85293091155E+00	-8.93391406406E-01
1.83120346705E+06	-1.59139024160E+01	-1.72462069335E+02	4.70379953362E+00	1.74088459410E+02	-4.77698602602E+01	-2.09793294737E+01	-5.87757512125E+00	-9.57846556888E-01
1.85339482165E+06	-1.44107598388E+01	-1.45388110290E+02	4.69394274681E+00	1.73572934156E+02	-4.20671361547E+01	4.51260227365E+01	-5.86694456995E+00	-1.04841446485E+00
1.87558617624E+06	-1.56679688750E+01	-1.49240936570E+02	4.73520935303E+00	1.73507706351E+02	-4.23101360845E+01	8.57109425888E+01	-5.85613136760E+00	-1.07823600762E+00
1.89777753084E+06	-1.66808806796E+01	-1.50817783311E+02	4.71526581109E+00	1.73723033690E+02	-4.28322592085E+01	8.01349351674E+01	-5.86054318549E+00	-9.87125182103E-01
1.91996888543E+06	-1.45589411388E+01	-1.70280826856E+02	4.69524330955E+00	1.73636957895E+02	-4.63650274984E+01	4.93069918058E+01	-5.85346749337E+00	-1.16293017779E+00
1.94216024003E+06	-1.27804242392E+01	-1.64096628393E+02	4.67306525175E+00	1.73309951715E+02	-4.07524114980E+01	-8.58821084171E+01	-5.86750747614E+00	-9.21074117472E-01
1.96435159462E+06	-1.07265657551E+01	-1.65794312135E+02	4.63419487349E+00	1.72860026362E+02	-4.19941877569E+01	-7.90143076747E+01	-5.88947201262E+00	-1.02327220170E+00
1.98654294922E+06	-1.23759549570E+01	-1.79629072979E+02	4.65851429397E+00	1.73230311519E+02	-4.57002697894E+01	-8.15796136265E+01	-5.86845438158E+00	-9.08223868941E-01
2.00873430381E+06	-1.27349486313E+01	-1.63222383754E+02	4.65867858131E+00	1.73132670882E+02	-3.89178859840E+01	2.00492245149E+01	-5.89545334503E+00	-1.11233461650E+00
2.03092565841E+06	-1.43897151434E+01	-1.77222185800E+02	4.71673954032E+00	1.72876447823E+02	-4.01553527209E+01	2.64748479071E+01	-5.85937322385E+00	-1.12273067255E+00
2.05311701300E+06	-1.98900564462E+01	-7.72214586119E+01	4.73959179659E+00	1.73434043500E+02	-4.57281508239E+01	-3.48893359178E+01	-5.88272607490E+00	-1.01650684284E+00
2.07530836760E+06	-1.18544691922E+01	-1.72868976750E+02	4.61979259910E+00	1.72366830913E+02	-5.69309972792E+01	2.04331452960E+01	-5.89178792789E+00	-1.00780676925E+00
2.09749972219E+06	-1.35508517046E+01	-1.61615638222E+02	4.63799525680E+00	1.72597714803E+02	-4.31962653781E+01	-8.00572741206E+00	-5.87548023719E+00	-1.08059724326E+00
2.11969107679E+06	-1.32329609138E+01	-1.72087785923E+02	4.68054316196E+00	1.72789968551E+02	-4.71061085388E+01	-2.46765021367E+01	-5.90404274588E+00	-1.14882322202E+00
2.14188243138E+06	-1.43634791263E+01	-1.66242782159E+02	4.65123809684E+00	1.72499686679E+02	-4.55116139307E+01	-3.17267189158E+01	-5.84083789306E+00	-1.02580645519E+00
2.16407378598E+06	-1.18007515091E+01	-1.73170134570E+02	4.69739456751E+00	1.72602018279E+02	-4.56682093872E+01	1.20164574622E+02	-5.85713707355E+00	-1.29270960196E+00
2.18626514057E+06	-1.56786166137E+01	1.74127636695E+02	4.62744233141E+00	1.72361864320E+02	-5.17685258790E+01	-1.79139352719E+02	-5.87151894453E+00	-1.17308957398E+00
2.20845649517E+06	-1.17468894488E+01	-1.23950781042E+02	4.75980320627E+00	1.72439603907E+02	-4.39206582883E+01	9.45015724983E+01	-5.86509701671E+00	-1.11814090530E+00
2.23064784976E+06	-2.57626177851E+01	-1.31853853588E+02	4.73223485666E+00	1.72350404197E+02	-5.21254966830E+01	-1.03930865523E+02	-5.86985880948E+00	-1.18992101807E+00
2.25283920436E+06	-1.24586675564E+01	-1.60315137737E+02	4.71239212631E+00	1.72043515411E+02	-5.38444074554E+01	8.36918400350E+01	-5.86937081853E+00	-1.13654404471E+00
2.27503055895E+06	-1.23042463420E+01	-1.51347520095E+02	4.68592176301E+00	1.71601400017E+02	-4.73432740382E+01	1.90172534018E+01	-5.86626149635E+00	-1.23378756030E+00
2.29722191355E+06	-1.27968377970E+01	-1.57846420988E+02	4.66351247863E+00	1.71662936174E+02	-4.83066232106E+01	-1.91767911639E+01	-5.87470839266E+00	-1.26342397683E+00
2.31941326814E+06	-1.77014625601E+01	-1.78625381025E+02	4.71667912615E+00	1.72082892084E+02	-3.80695696057E+01	2.54592443533E+01	-5.85236678446E+00	-1.22431406660E+00
2.34160462274E+06	-1.41305960364E+01	-1.69441519154E+02	4.72635968823E+00	1.71653166032E+02	-4.40980205137E+01	1.34620749319E+02	-5.85081755725E+00	-1.15908981831E+00
2.36379597733E+06	-1.12014412879E+01	1.73847490542E+02	4.64944262603E+00	1.71478053535E+02	-4.47206567054E+01	1.30506481125E+02	-5.86297243856E+00	-1.14156135005E+00
2.38598733193E+06	-8.06625516378E+00	-1.45824689818E+02	4.73436302279E+00	1.71114995718E+02	-4.50761059647E+01	2.63785311126E+01	-5.88027103377E+00	-1.32905174053E+00
2.40817868652E+06	-1.67848758625E+01	-1.70406566620E+02	4.70935041578E+00	1.71710718527E+02	-4.33393503641E+01	-7.80658193492E+01	-5.90379883114E+00	-1.26945632299E+00
2.43037004112E+06	-1.57582226582E+01	-1.66080062733E+02	4.71286694543E+00	1.71434009963E+02	-4.02614628427E+01	8.42509812554E+01	-5.87225931173E+00	-1.65083112429E+00
2.45256139571E+06	-1.36999687648E+01	-1.63932133194E+02	4.70816131212E+00	1.71173148333E+02	-4.47434936879E+01	-2.20470165649E+01	-5.88162723683E+00	-1.24717860737E+00
2.47475275031E+06	-1.62123405921E+01	-1.78988247515E+02	4.68706131772E+00	1.71309973684E+02	-3.35205049863E+01	1.79488462415E+02	-5.85850085148E+00	-1.17496446191E+00
2.49694410490E+06	-1.39760201967E+01	-1.44848850487E+02	4.76976143038E+00	1.71144248956E+02	-3.71117695054E+01	-1.75496682621E+01	-5.88333149497E+00	-1.19982090021E+00
2.51913545950E+06	-1.47595796559E+01	-1.55778772907E+02	4.73470516820E+00	1.70946926341E+02	-4.78556397047E+01	-1.66130707001E+02	-5.87223273227E+00	-1.13135021432E+00
2.54132681409E+06	-1.23096093066E+01	-1.48683270253E+02	4.67920825971E+00	1.70916631363E+02	-4.49447551560E+01	-1.13174485679E+02	-5.86584056504E+00	-1.33955549439E+00
2.56351816869E+06	-1.75594162762E+01	-1.61659447731E+02	4.69594191696E+00	1.70949183751E+02	-4.13499267703E+01	-1.06655353359E+02	-5.88762699745E+00	-1.17520161020E+00
2.58570952328E+06	-1.24506037510E+01	-1.61711139790E+02	4.71408427453E+00	1.70625884962E+02	-5.00859422121E+01	9.91269067817E+01	-5.87279816847E+00	-1.08552530195E+00
2.60790087788E+06	-1.89518684506E+01	-1.68869915814E+02	4.68614595065E+00	1.70841623834E+02	-4.86160540196E+01	1.76073479634E+02	-5.87416692055E+00	-1.08533282504E+00
2.63009223247E+06	-1.33812546551E+01	-1.65318590489E+02	4.71439801590E+00	1.70527270178E+02	-3.43919260116E+01	4.58805772110E+01	-5.87839805735E+00	-1.14015705692E+00
2.65228358707E+06	-1.67142274010E+01	-1.66975909968E+02	4.68895708102E+00	1.70413407135E+02	-4.41812119169E+01	-2.38646083778E+01	-5.88988755306E+00	-1.47479031646E+00
2.67447494166E+06	-9.79765105940E+00	-1.66569411346E+02	4.68105790401E+00	1.70099790934E+02	-6.52209664489E+01	-3.02381672793E+01	-5.85852923929E+00	-1.34654569652E+00
2.69666629626E+06	-1.36996555621E+01	-1.72664727401E+02	4.68649458665E+00	1.70302088505E+02	-4.70883612453E+01	1.04361423374E+02	-5.86023946949E+00	-1.28292745879E+00
2.71885765085E+06	-1.43850583396E+01	-1.65979288984E+02	4.70088782925E+00	1.70123380950E+02	-4.22650511242E+01	1.05927145780E+02	-5.86002225358E+00	-1.38559773986E+00
2.74104900545E+06	-1.37123787984E+01	-1.34084271887E+02	4.74145875159E+00	1.69880294707E+02	-4.84900061920E+01	-3.78543979257E+01	-5.87542410499E+00	-1.40788187562E+00
2.76324036004E+06	-1.42779667420E+01	-1.67862918260E+02	4.71723050244E+00	1.70024386808E+02	-4.74835428832E+01	-7.37477717015E+01	-5.87064973860E+00	-1.25462540259E+00
2.78543171463E+06	-1.50662094455E+01	-1.48303140635E+02	4.74821772491E+00	1.69855304121E+02	-4.33198851579E+01	-2.12614129111E+01	-5.87695664087E+00	-1.37306323243E+00
2.80762306923E+06	-1.29376403113E+01	-1.70643681023E+02	4.70723225931E+00	1.69945487854E+02	-4.20870867952E+01	7.65209153017E+01	-5.88872120410E+00	-1.55590422091E+00
2.82981442382E+06	-1.41553994139E+01	-1.35171021673E+02	4.72695200496E+00	1.69816524420E+02	-6.10149943983E+01	1.49873575570E+02	-5.87412205194E+00	-1.47047373108E+00
2.85200577842E+06	-2.62152004608E+01	-1.43034106000E+02	4.74428705093E+00	1.70383941730E+02	-4.51134094075E+01	5.19189576335E+00	-5.89044888566E+00	-1.39773383406E+00
2.87419713301E+06	-1.37937360666E+01	-1.64677351148E+02	4.73916861831E+00	1.69829417990E+02	-4.92696719624E+01	4.82836693213E+01	-5.88874249205E+00	-1.56108179255E+00
