# Hz S DB R 50
! CMT, M5065, 19127446, 24.2.4/2
! Date: 11/8/2024 4:57:34 PM
! Data: Format (Calibration Info)
! Freq	S11:dB/Ang(F2)	S21:dB/Ang(F2)	S12:dB/Ang(F2)	S22:dB/Ang(F2)
3.00000000000E+05	-1.76672144735E+01	-1.49193179490E+02	7.06435565314E+00	-1.77462047991E+02	-4.54754811814E+01	3.45510735101E+01	-5.88946395382E+00	-1.49590938538E-01
3.22191354595E+05	-1.98720014486E+01	-1.34488940568E+02	7.08040833993E+00	-1.78245792319E+02	-4.77183376790E+01	5.53847584442E+01	-5.87720035961E+00	-2.50687279507E-01
3.44382709190E+05	-1.33151982210E+01	-1.37265630453E+02	7.05597548348E+00	-1.78475271647E+02	-5.05879168442E+01	-1.41545290358E+02	-5.86721768139E+00	-1.83780825052E-01
3.66574063785E+05	-1.65343200967E+01	1.79617368950E+02	7.02797676909E+00	-1.78511276318E+02	-5.38453869929E+01	5.93385668095E+01	-5.87016014095E+00	-3.41848634719E-01
3.88765418380E+05	-1.40737426357E+01	1.48487266194E+02	7.26278235210E+00	-1.79067565958E+02	-4.28900222324E+01	1.22564100664E+02	-5.86598452554E+00	-1.88037964534E-01
4.10956772975E+05	-1.25333598673E+01	-1.69107489753E+02	7.00301722628E+00	-1.79046218745E+02	-4.90977157677E+01	-1.59353769275E+01	-5.86879066720E+00	-2.07839861180E-01
4.33148127570E+05	-1.45851159966E+01	-1.63738530354E+02	7.05335206546E+00	-1.79385172951E+02	-4.01174108487E+01	7.37693632175E+01	-5.87224025973E+00	-3.30166809967E-01
4.55339482165E+05	-1.23089002937E+01	-1.66530707743E+02	7.01692635140E+00	-1.79701866685E+02	-5.27843858085E+01	1.66486096678E+02	-5.86718545488E+00	-4.28146409443E-01
4.77530836760E+05	-1.18226888071E+01	-1.67993942411E+02	7.03176926143E+00	1.79862783630E+02	-4.63301417899E+01	-1.04561419206E+02	-5.85362186811E+00	-1.74838127515E-01
4.99722191355E+05	-1.74708542185E+01	-1.75157572746E+02	7.04394112380E+00	-1.79990007625E+02	-4.32202320054E+01	-1.38090766636E+02	-5.86985542215E+00	-2.96723495499E-01
5.21913545950E+05	-1.85763536250E+01	-1.64474403240E+02	7.09067042793E+00	-1.79992369310E+02	-5.30949903827E+01	-1.06989168165E+02	-5.87004210319E+00	-3.84526599919E-01
5.44104900545E+05	-1.44176518940E+01	-1.68307690877E+02	7.04925550059E+00	1.79795085986E+02	-4.96448867245E+01	-1.75929299323E+02	-5.86430397019E+00	-3.13801834341E-01
5.66296255139E+05	-1.17789221239E+01	-1.68548987777E+02	7.03174416389E+00	1.79575297028E+02	-4.98458386996E+01	2.22561629336E+01	-5.86876577227E+00	-4.97874461747E-01
5.88487609734E+05	-1.26436196121E+01	1.53734597687E+02	7.04809556210E+00	1.79797873811E+02	-4.45753004933E+01	5.57327908149E+01	-5.89157049216E+00	-3.40763013784E-01
6.10678964329E+05	-1.57721911127E+01	-1.70392721818E+02	7.08545151226E+00	1.79246959491E+02	-4.40146844661E+01	-6.97604755475E+01	-5.86485823482E+00	6.17183601036E-02
6.32870318924E+05	-1.34471628310E+01	-1.72320034436E+02	7.09491067881E+00	1.79002035377E+02	-5.33496504791E+01	-1.64475101120E+01	-5.88102700959E+00	-1.20847432704E-01
6.55061673519E+05	-1.39559463857E+01	1.54658251682E+02	7.05607418603E+00	1.79316721443E+02	-5.88606838815E+01	-7.06632293287E+01	-5.85976424489E+00	-1.82000792588E-01
6.77253028114E+05	-1.25408927137E+01	-1.60550766765E+02	7.05677700457E+00	1.78514596446E+02	-3.98287954576E+01	2.47575222322E+01	-5.90362474509E+00	-6.87095726307E-01
6.99444382709E+05	-1.26255496223E+01	-1.77296052753E+02	7.04970075171E+00	1.78454438061E+02	-4.28568781887E+01	-1.72947225052E+02	-5.85749522457E+00	-4.88714097506E-01
7.21635737304E+05	-1.34451492640E+01	1.74507989687E+02	7.06830421766E+00	1.78672783011E+02	-5.47027999924E+01	1.31348707934E+02	-5.86147914625E+00	-4.88633785739E-01
7.43827091899E+05	-1.51124714068E+01	1.70953352092E+02	7.02706743369E+00	1.78417226567E+02	-3.97709638910E+01	-1.58972516012E+02	-5.87110720119E+00	-3.24306911865E-01
7.66018446494E+05	-1.23112992876E+01	-1.64060943223E+02	7.04564345026E+00	1.78198973063E+02	-4.22133437153E+01	-8.99731939066E+01	-5.87501655037E+00	-4.15020902464E-01
7.88209801089E+05	-1.25342144386E+01	-1.59352157520E+02	7.05059734707E+00	1.77882540359E+02	-4.29233219486E+01	-2.70603360120E+01	-5.90288377976E+00	-3.68112218122E-01
8.10401155684E+05	-1.25821303900E+01	-1.62531919824E+02	7.03669332137E+00	1.77510310124E+02	-4.07218585898E+01	1.55946324707E+02	-5.84862847922E+00	-5.04290613949E-01
8.32592510279E+05	-1.70552576417E+01	-1.30217435411E+02	7.09389053535E+00	1.78049944792E+02	-4.30353826854E+01	-1.11508547322E+01	-5.88619493915E+00	-5.63788292429E-01
8.54783864874E+05	-1.84828273297E+01	-1.69400453915E+02	7.06996253705E+00	1.77621345093E+02	-4.33234758988E+01	8.21648403451E+01	-5.87048889504E+00	-4.82078375571E-01
8.76975219469E+05	-1.46454298762E+01	-1.74604060034E+02	7.03386433570E+00	1.77736625704E+02	-4.70070534034E+01	-1.34913929058E+02	-5.89639947671E+00	-4.65972881603E-01
8.99166574064E+05	-1.89684764423E+01	-1.47722177254E+02	7.08577896261E+00	1.77496761071E+02	-4.52012521374E+01	1.19037038397E+02	-5.87023686708E+00	-5.90383014995E-01
9.21357928659E+05	-1.37424304707E+01	-1.57300987722E+02	7.05364303622E+00	1.77035815543E+02	-4.57030212251E+01	1.69041605836E+02	-5.87860840237E+00	-4.64881286143E-01
9.43549283254E+05	-1.73632427133E+01	1.61532379473E+02	7.09217803983E+00	1.77435071009E+02	-4.78437575898E+01	1.35754801270E+02	-5.82648120680E+00	-4.94762467617E-01
9.65740637849E+05	-1.13302493909E+01	-1.74494867226E+02	7.04374022014E+00	1.76889622914E+02	-4.51548185459E+01	-1.05676040951E+02	-5.87763342670E+00	-4.73014335643E-01
9.87931992444E+05	-1.50472565583E+01	1.76032242573E+02	7.08315082940E+00	1.76927770238E+02	-4.57191335099E+01	9.73908038984E+01	-5.87858333504E+00	-5.76824855285E-01
1.01012334704E+06	-1.17920395495E+01	-1.65601652884E+02	7.04550532455E+00	1.76545650247E+02	-4.79906750647E+01	3.49414031060E+01	-5.86491205367E+00	-6.58599059098E-01
1.03231470163E+06	-1.63118268063E+01	-1.43377076251E+02	7.07863685371E+00	1.76410714056E+02	-4.65079383501E+01	-1.30329680204E+00	-5.87532402498E+00	-7.42750193682E-01
1.05450605623E+06	-1.57367105248E+01	-1.60000334252E+02	7.09239148848E+00	1.76372453882E+02	-4.19590802246E+01	1.41052857601E+02	-5.86558104199E+00	-6.92561964935E-01
1.07669741082E+06	-1.64824011932E+01	-1.62517325298E+02	6.96800621235E+00	1.76549721432E+02	-3.32227602235E+01	1.48108064681E+02	-5.84964679510E+00	-6.08442127779E-01
1.09888876542E+06	-1.32609629699E+01	-1.72783377652E+02	7.04099537529E+00	1.76373333334E+02	-5.26582485321E+01	-1.11167828096E+02	-5.87791916003E+00	-5.23970126696E-01
1.12108012001E+06	-1.35855730286E+01	-1.70022916367E+02	7.05111813815E+00	1.76280177711E+02	-5.10739550041E+01	1.66332001560E+00	-5.88763651744E+00	-4.96878324952E-01
1.14327147461E+06	-1.64239784833E+01	-1.69364767665E+02	7.07181543733E+00	1.76284328902E+02	-3.82708516986E+01	-1.31767390767E+02	-5.86622793342E+00	-5.37092970558E-01
1.16546282920E+06	-1.73374488677E+01	-1.76390744704E+02	7.06443466250E+00	1.76221829774E+02	-4.59654655069E+01	-1.54822890659E+02	-5.86912574117E+00	-4.39884852174E-01
1.18765418380E+06	-1.65171442426E+01	-1.64703205636E+02	7.08012429703E+00	1.75858422081E+02	-5.58169866320E+01	-4.81359871065E+01	-5.86373605215E+00	-5.90181566857E-01
1.20984553839E+06	-1.53843474497E+01	-1.40170257388E+02	7.10337553036E+00	1.75799876334E+02	-3.91007081806E+01	-1.60305884016E+02	-5.86465806071E+00	-6.70259243359E-01
1.23203689299E+06	-1.35961968698E+01	-1.72989055773E+02	7.03433122569E+00	1.75646067826E+02	-4.43603293385E+01	-1.18436598635E+02	-5.87367307941E+00	-3.05599832762E-01
1.25422824758E+06	-1.52361888388E+01	-1.58047536994E+02	7.09102007932E+00	1.75741674568E+02	-4.48105115952E+01	-7.97826769753E+01	-5.87012125533E+00	-5.21057870804E-01
1.27641960218E+06	-1.42542862676E+01	-1.77731920814E+02	7.03350709040E+00	1.75385725933E+02	-4.63544726233E+01	5.09799527659E+01	-5.87182079400E+00	-9.08037268292E-01
1.29861095677E+06	-1.34090713326E+01	1.78732467671E+02	7.06978753608E+00	1.75227946492E+02	-4.13771102240E+01	-1.62671892408E+00	-5.88620365739E+00	-6.49217497884E-01
1.32080231137E+06	-1.38471638374E+01	-1.69487690673E+02	7.05294900649E+00	1.75217425938E+02	-4.88561032430E+01	-1.36258817894E+02	-5.87658578887E+00	-1.18250607248E+00
1.34299366596E+06	-1.62798074195E+01	-1.76173105536E+02	7.07815948048E+00	1.75317949528E+02	-4.97254440374E+01	-1.27735004828E+02	-5.87720596843E+00	-7.63887309653E-01
1.36518502056E+06	-1.56685918478E+01	-1.59619920840E+02	7.09590977061E+00	1.75251063948E+02	-5.47805212277E+01	3.53472934809E+01	-5.85979196710E+00	-7.05400040625E-01
1.38737637515E+06	-1.30349573364E+01	-1.64110097338E+02	7.06711840945E+00	1.74933463609E+02	-4.34000865761E+01	1.64035682382E+01	-5.88020004397E+00	-7.92231865952E-01
1.40956772975E+06	-1.29002092829E+01	1.68236351317E+02	7.00766218635E+00	1.74911729449E+02	-6.04955399154E+01	5.88571884687E+01	-5.87217026704E+00	-7.77066457256E-01
1.43175908434E+06	-1.25704591630E+01	-1.00135358109E+02	7.10407469846E+00	1.74857748506E+02	-5.36368895152E+01	1.22829315210E+02	-5.87204034242E+00	-7.85708017585E-01
1.45395043894E+06	-1.36147505217E+01	1.78649295936E+02	7.02710712091E+00	1.74369203477E+02	-5.88590111520E+01	-1.55647159832E+02	-5.87438219044E+00	-9.76820486050E-01
1.47614179353E+06	-1.45467959282E+01	1.74249209165E+02	7.04465415733E+00	1.74754750690E+02	-4.19879204171E+01	-6.18247483581E+01	-5.89534529931E+00	-7.22500702152E-01
1.49833314813E+06	-1.51931393779E+01	1.72946702010E+02	7.08652891048E+00	1.74536990121E+02	-4.31740606285E+01	5.98545219645E+01	-5.87188235928E+00	-8.69435102769E-01
1.52052450272E+06	-1.46917232162E+01	-1.57113592405E+02	7.06530353437E+00	1.74280775746E+02	-4.10622175341E+01	-3.71143851398E+01	-5.87287710438E+00	-7.36658955225E-01
1.54271585732E+06	-1.52793524802E+01	-1.78218746542E+02	7.09247657047E+00	1.74610962083E+02	-4.06381112951E+01	-1.44726083861E+02	-5.87294346942E+00	-8.21627840644E-01
1.56490721191E+06	-1.63839022556E+01	-1.72807872334E+02	7.06329636383E+00	1.74252858606E+02	-5.34383488991E+01	6.74281955063E+01	-5.87736272339E+00	-8.60293149850E-01
1.58709856651E+06	-1.46160883860E+01	1.75107780318E+02	7.06096610890E+00	1.74364531121E+02	-5.33192661935E+01	-9.52598606003E+01	-5.86102596891E+00	-8.10363369842E-01
1.60928992110E+06	-1.23320516916E+01	-1.71159314122E+02	7.07520423464E+00	1.74144646082E+02	-4.33530206834E+01	-1.06827579345E+02	-5.88257921856E+00	-7.81168678299E-01
1.63148127570E+06	-1.22690288392E+01	-1.71051145687E+02	7.05231225223E+00	1.73794423640E+02	-4.21690651651E+01	1.74912271374E+02	-5.86263068440E+00	-8.83446336624E-01
1.65367263029E+06	-1.53290754955E+01	-1.69707849392E+02	7.06896976387E+00	1.73779693400E+02	-4.50014355382E+01	-1.16835854981E+01	-5.87790998643E+00	-8.53423337367E-01
1.67586398489E+06	-1.39257985989E+01	-1.70304830038E+02	7.08555050522E+00	1.73809517307E+02	-4.80588616530E+01	7.35304425378E+00	-5.88581821912E+00	-9.62672906127E-01
1.69805533948E+06	-1.47019123137E+01	1.78175730738E+02	7.09361624595E+00	1.73552328245E+02	-5.40764690969E+01	-1.53781442967E+02	-5.85578078877E+00	-9.12738900450E-01
1.72024669408E+06	-1.39868829820E+01	-1.74787511029E+02	7.06999659127E+00	1.73572310253E+02	-4.85648777028E+01	1.51788251243E+02	-5.86150283921E+00	-9.68405162340E-01
1.74243804867E+06	-1.39786477001E+01	1.79374113983E+02	7.06282315546E+00	1.73308903729E+02	-6.31062680421E+01	1.31437847429E+02	-5.85733826053E+00	-8.19035951796E-01
1.76462940327E+06	-1.20463040644E+01	-1.62484560223E+02	7.08099285397E+00	1.73095371976E+02	-4.44203590601E+01	-1.51972738152E+02	-5.86424304655E+00	-7.85407522102E-01
1.78682075786E+06	-1.68941779947E+01	-1.70062981401E+02	7.10546919791E+00	1.73251696365E+02	-4.40663673641E+01	1.39336865282E+02	-5.85365230834E+00	-9.08800112538E-01
1.80901211246E+06	-1.68676895269E+01	1.78087238010E+02	7.09753061970E+00	1.73263342389E+02	-5.02825776094E+01	1.89419921527E+01	-5.90202168819E+00	-9.24088820347E-01
1.83120346705E+06	-1.53635552374E+01	-1.70194098656E+02	7.07991115589E+00	1.73047222458E+02	-5.25775434224E+01	-1.71934467063E+02	-5.85770872516E+00	-8.83771491844E-01
1.85339482165E+06	-1.53260670594E+01	1.63754283884E+02	7.05690444531E+00	1.73122437701E+02	-4.56804827806E+01	-1.68817689844E+02	-5.87389134510E+00	-8.08983426870E-01
1.87558617624E+06	-1.36143584029E+01	-1.65738438974E+02	7.06332013178E+00	1.72760214382E+02	-4.25218197297E+01	-1.27285348758E+02	-5.86486415253E+00	-8.27413201645E-01
1.89777753084E+06	-1.74846253099E+01	-1.49239231598E+02	7.12886558839E+00	1.72823334082E+02	-4.90853821368E+01	-9.00195906704E+01	-5.86540125028E+00	-1.16729724937E+00
1.91996888543E+06	-1.52383711108E+01	-1.56028812738E+02	7.09063084868E+00	1.72485954678E+02	-4.67694493448E+01	4.33512949208E+01	-5.86705531087E+00	-9.14300078589E-01
1.94216024003E+06	-1.14973124320E+01	-1.71661475711E+02	7.05669068958E+00	1.72622151705E+02	-4.15521406094E+01	1.02370438402E+01	-5.88115595778E+00	-1.15600703969E+00
1.96435159462E+06	-1.91442634297E+01	-1.32721313940E+02	7.14015307545E+00	1.72265539435E+02	-4.84377607211E+01	5.21530801170E+01	-5.87496749988E+00	-1.19037471384E+00
1.98654294922E+06	-1.22924543858E+01	-1.44076750810E+02	7.13533388002E+00	1.72245431893E+02	-3.97331636371E+01	3.81572210292E+01	-5.86968379480E+00	-1.14490684178E+00
2.00873430381E+06	-1.29713738389E+01	-1.71406779036E+02	7.04370055746E+00	1.72081367260E+02	-3.77225995736E+01	-1.45980920631E+02	-5.87096177744E+00	-9.39887152594E-01
2.03092565841E+06	-1.43066080394E+01	-1.51454230298E+02	7.10036143688E+00	1.72047009108E+02	-5.15600178033E+01	1.21763261608E+02	-5.84364405129E+00	-1.17524590817E+00
2.05311701300E+06	-1.54482307023E+01	-1.36338489923E+02	7.10678541299E+00	1.72110392851E+02	-4.08811344298E+01	-1.48254034335E+02	-5.86754718540E+00	-8.85451365078E-01
2.07530836760E+06	-1.16745236928E+01	-1.79684260934E+02	7.06057277884E+00	1.71918644735E+02	-5.61871658667E+01	1.06931743133E+02	-5.85965252817E+00	-1.06254050116E+00
2.09749972219E+06	-1.36145648667E+01	-1.52491790968E+02	7.11629373861E+00	1.71535454514E+02	-5.16137147228E+01	-1.28643955724E+02	-5.86382303132E+00	-9.85019709156E-01
2.11969107679E+06	-1.51713548761E+01	-1.67608239095E+02	7.09732925934E+00	1.71945601200E+02	-4.81765051685E+01	-4.45442722180E+01	-5.86432044007E+00	-1.03661603337E+00
2.14188243138E+06	-1.41127602958E+01	1.77476772693E+02	7.06427633249E+00	1.71511555598E+02	-4.11205753509E+01	1.28591789184E+02	-5.86288389806E+00	-1.02230076613E+00
2.16407378598E+06	-1.11185695730E+01	-1.60331503612E+02	7.07366742066E+00	1.71332270348E+02	-4.37212711541E+01	6.03477906736E+01	-5.88143672311E+00	-1.36055329848E+00
2.18626514057E+06	-1.44649406698E+01	-1.76815967294E+02	7.10120912599E+00	1.71494355144E+02	-4.73708952691E+01	1.32217041223E+02	-5.86988063127E+00	-1.04797775794E+00
2.20845649517E+06	-1.17149856617E+01	-7.05165813076E+01	7.17856891602E+00	1.71926240233E+02	-4.23873783557E+01	3.40482404568E+01	-5.87906474396E+00	-1.32078183578E+00
2.23064784976E+06	-1.10096580203E+01	-1.62576647302E+02	7.09869230303E+00	1.71250848184E+02	-5.13185877269E+01	1.71731335706E+02	-5.86449282172E+00	-1.16552497651E+00
2.25283920436E+06	-1.14752195715E+01	-1.63828419518E+02	7.09002904850E+00	1.71022296643E+02	-4.31232790575E+01	-1.14456180861E+01	-5.89871506695E+00	-1.21580607326E+00
2.27503055895E+06	-1.61058442257E+01	-1.61859498386E+02	7.12013590284E+00	1.70952119731E+02	-4.48772615073E+01	-8.30045615940E+01	-5.85489507738E+00	-1.14882704027E+00
2.29722191355E+06	-1.31221099486E+01	-1.54237720926E+02	7.10281261474E+00	1.70676252298E+02	-6.07314966243E+01	-4.13266142011E-01	-5.84798197120E+00	-1.01160532323E+00
2.31941326814E+06	-1.62153100043E+01	-1.66360952439E+02	7.06494713410E+00	1.70734709051E+02	-4.99509744771E+01	6.53933066144E+01	-5.85250133672E+00	-1.12418128400E+00
2.34160462274E+06	-1.64692545180E+01	-1.50629967010E+02	7.12188923488E+00	1.70734023266E+02	-4.63121826545E+01	2.34618336370E+01	-5.88825741253E+00	-1.30445121872E+00
2.36379597733E+06	-1.63131613717E+01	1.60774795502E+02	7.05600775746E+00	1.70659752655E+02	-4.92388112013E+01	-5.72072303102E+01	-5.86004623563E+00	-1.10193972314E+00
2.38598733193E+06	-1.00706450086E+01	-1.57623157166E+02	7.07989382354E+00	1.70504836315E+02	-4.13643150269E+01	1.29461758937E+02	-5.87779294032E+00	-1.30323203178E+00
2.40817868652E+06	-1.28426797741E+01	1.79228865897E+02	7.09695181213E+00	1.70395639885E+02	-5.46838883137E+01	-9.93720771592E+01	-5.85885104431E+00	-1.19575354007E+00
2.43037004112E+06	-1.51933331116E+01	-1.64919648731E+02	7.15700419515E+00	1.70504128835E+02	-5.28015557698E+01	8.48624588540E+01	-5.85615555889E+00	-1.62135123212E+00
2.45256139571E+06	-1.21507831838E+01	-1.66767244930E+02	7.04881710787E+00	1.70117903422E+02	-3.71062879557E+01	1.89424462276E+01	-5.89054226029E+00	-1.37702201952E+00
2.47475275031E+06	-1.80108337546E+01	-1.44913741398E+02	7.15535380135E+00	1.70277557021E+02	-4.38548315878E+01	1.07955359290E+02	-5.86140308839E+00	-1.16597544258E+00
2.49694410490E+06	-1.35489035242E+01	-1.54858166354E+02	7.13899063677E+00	1.69988532698E+02	-4.22921088338E+01	1.01259376219E+02	-5.88163914812E+00	-1.27488752564E+00
2.51913545950E+06	-1.22489702559E+01	-1.65544057049E+02	7.09338800099E+00	1.69945781706E+02	-4.50392657787E+01	-1.43892850939E+02	-5.87461267645E+00	-1.20027789945E+00
2.54132681409E+06	-1.52361162720E+01	-1.49189961695E+02	7.10129890941E+00	1.69486450368E+02	-4.34021603798E+01	3.26328133157E+00	-5.86892179217E+00	-1.32285424228E+00
2.56351816869E+06	-1.38078218228E+01	-1.51231268867E+02	7.14393336506E+00	1.69564879018E+02	-4.99593718970E+01	-3.04413128412E-01	-5.88409512670E+00	-1.31627599220E+00
2.58570952328E+06	-1.49394319420E+01	-1.50666181204E+02	7.10346224846E+00	1.69716637322E+02	-5.04448827078E+01	7.31151513664E+01	-5.86190494964E+00	-1.17850787107E+00
2.60790087788E+06	-1.25257286020E+01	-1.50157763483E+02	7.11046124771E+00	1.69445298371E+02	-4.32168159844E+01	9.42169893172E+01	-5.85124399522E+00	-1.15955029868E+00
2.63009223247E+06	-1.26494510986E+01	-1.64988414957E+02	7.09246491436E+00	1.69264362443E+02	-3.91830024578E+01	9.94261645669E+01	-5.84709246446E+00	-9.39223461592E-01
2.65228358707E+06	-1.49183066719E+01	-1.64915358289E+02	7.08758987517E+00	1.69349002073E+02	-4.69861094833E+01	7.56634996887E+01	-5.87631989864E+00	-1.59047969775E+00
2.67447494166E+06	-1.54166783355E+01	-1.64453430554E+02	7.10586609755E+00	1.69408757706E+02	-4.40276219556E+01	1.09007227160E+02	-5.87504053947E+00	-1.35723862984E+00
2.69666629626E+06	-1.29815314038E+01	-1.78278255056E+02	7.07114914335E+00	1.69174379928E+02	-4.53750914675E+01	-8.43504794772E+01	-5.87576018111E+00	-1.47055423708E+00
2.71885765085E+06	-1.52896939402E+01	1.73585273249E+02	7.11091871703E+00	1.69237242520E+02	-3.86955211477E+01	3.58997130134E+01	-5.88026506842E+00	-1.48466632496E+00
2.74104900545E+06	-1.09121808732E+01	-1.68619994718E+02	7.09511823777E+00	1.68743316584E+02	-4.35940691865E+01	1.86352202398E+01	-5.86326015177E+00	-1.41220157755E+00
2.76324036004E+06	-1.43814862784E+01	-1.49846088376E+02	7.10875504291E+00	1.68771914036E+02	-4.13551786888E+01	-1.62595974248E+02	-5.88501318176E+00	-1.29899547842E+00
2.78543171463E+06	-1.16882849367E+01	-1.63594467231E+02	7.11262888536E+00	1.68356226811E+02	-4.27627772856E+01	8.09935099169E+00	-5.86829727735E+00	-1.42756986827E+00
2.80762306923E+06	-1.24125598903E+01	-1.70462375419E+02	7.08751318634E+00	1.68486310388E+02	-4.54694159362E+01	3.20304779207E+01	-5.88514013451E+00	-1.55152538305E+00
2.82981442382E+06	-1.23192219575E+01	1.78056226406E+02	7.13097903818E+00	1.68644106374E+02	-4.52841908549E+01	1.75129306651E+02	-5.85483806534E+00	-1.36431769973E+00
2.85200577842E+06	-1.05623285790E+01	-1.75020763315E+02	7.09636582756E+00	1.68258145291E+02	-5.53727951936E+01	2.59179951550E+01	-5.87962684641E+00	-1.43734587962E+00
2.87419713301E+06	-1.58520699364E+01	-1.43340610450E+02	7.15777375614E+00	1.68178732118E+02	-5.29847255924E+01	-7.34078499673E+01	-5.88925688109E+00	-1.39490481184E+00
