# Hz S DB R 50
! CMT, M5065, 19127446, 24.2.4/2
! Date: 11/8/2024 5:20:48 PM
! Data: Format (Calibration Info)
! Freq	S11:dB/Ang(F2)	S21:dB/Ang(F2)	S12:dB/Ang(F2)	S22:dB/Ang(F2)
3.00000000000E+05	-1.22596447578E+01	-1.58678771436E+02	1.59720850727E+01	-1.77098130786E+02	-4.13138086469E+01	7.41037474217E+01	-5.87114771179E+00	-5.17904861417E-01
3.22191354595E+05	-1.41922826466E+01	-1.65309269042E+02	1.59811896731E+01	-1.77511502741E+02	-4.76786807863E+01	-1.17382576249E+02	-5.86194631786E+00	-3.03649574041E-01
3.44382709190E+05	-1.60051390317E+01	-1.62885584196E+02	1.59971325767E+01	-1.77985193944E+02	-4.15281218470E+01	-6.41104309736E+01	-5.89618220273E+00	-1.77880301127E-01
3.66574063785E+05	-1.38288102592E+01	1.73412565270E+02	1.59921686016E+01	-1.78206262493E+02	-4.37141822791E+01	-1.56644257144E+02	-5.83504066090E+00	-2.35805609644E-01
3.88765418380E+05	-1.59365630272E+01	1.76221439837E+02	1.60427806558E+01	-1.79006654711E+02	-4.32013194037E+01	3.94677349237E+01	-5.93234351620E+00	-4.63923459904E-01
4.10956772975E+05	-1.39504190380E+01	1.73760211762E+02	1.59898723297E+01	-1.79126455794E+02	-4.35277192407E+01	-9.99373679113E+01	-5.86816452446E+00	7.34988918920E-02
4.33148127570E+05	-1.30097729330E+01	-1.66059484448E+02	1.59936164501E+01	-1.79710875290E+02	-4.61329062970E+01	-1.19447592309E+01	-5.88761982901E+00	-3.45667465878E-01
4.55339482165E+05	-1.33347453841E+01	1.74980055159E+02	1.59765608205E+01	-1.79960709582E+02	-4.69565620359E+01	-8.78329108955E+01	-5.89457511429E+00	-2.45054371734E-01
4.77530836760E+05	-1.23745798223E+01	-1.40199611916E+02	1.60119255640E+01	1.79335691211E+02	-5.07650705959E+01	-1.00936543988E+02	-5.86838195993E+00	-3.21351374974E-01
4.99722191355E+05	-1.17419096284E+01	-1.68854384177E+02	1.59679054957E+01	1.79334822405E+02	-4.57510389724E+01	9.56895798669E+01	-5.86062347630E+00	-6.16883861803E-01
5.21913545950E+05	-1.34567142518E+01	-1.64644427476E+02	1.59848480605E+01	1.78869040315E+02	-5.00439228894E+01	-1.55897377292E+02	-5.83885191164E+00	-3.04502785624E-01
5.44104900545E+05	-1.63894291845E+01	1.76438142595E+02	1.59905873354E+01	1.78765237096E+02	-4.74934038432E+01	-1.68580820522E+02	-5.86137886275E+00	-4.13284154892E-01
5.66296255139E+05	-1.41029404456E+01	1.71283858818E+02	1.59923985335E+01	1.78447797902E+02	-4.98655681820E+01	-6.72836808349E+01	-5.90308184866E+00	-2.07860778381E-01
5.88487609734E+05	-1.27838930101E+01	-1.72346247011E+02	1.59753550529E+01	1.78201574167E+02	-4.20213954126E+01	7.19250888848E+01	-5.88820397844E+00	-7.14806866794E-01
6.10678964329E+05	-1.27357377028E+01	-1.74522144958E+02	1.59704498782E+01	1.77986239982E+02	-4.65803701808E+01	-1.22537467236E+02	-5.86813521500E+00	2.31614154436E-01
6.32870318924E+05	-1.42550523831E+01	-1.52214593612E+02	1.59493000698E+01	1.77480183052E+02	-5.17073560956E+01	-3.63837377757E+00	-5.87231027538E+00	-1.98460510402E-01
6.55061673519E+05	-1.64375499219E+01	-1.61672307455E+02	1.60122803454E+01	1.77464134608E+02	-4.76486470617E+01	-6.57111157405E+01	-5.88826450499E+00	-3.59341483634E-01
6.77253028114E+05	-1.20888317879E+01	-1.66019391743E+02	1.59672429937E+01	1.77165981106E+02	-3.95686334950E+01	6.99523846326E+01	-5.88201415842E+00	-9.67666758714E-01
6.99444382709E+05	-1.15410671739E+01	-1.76335217888E+02	1.59506667609E+01	1.76863560196E+02	-4.46000339768E+01	-1.62520008230E+02	-5.83506046300E+00	-3.47348178703E-01
7.21635737304E+05	-1.33618447807E+01	-1.46070921650E+02	1.59956665550E+01	1.76552714227E+02	-6.62836855808E+01	-9.02916703445E+01	-5.89269349102E+00	-5.39012289227E-01
7.43827091899E+05	-1.42743835848E+01	-1.45111357631E+02	1.59941498215E+01	1.76174513701E+02	-4.66108964445E+01	-8.42358219530E+00	-5.88527688116E+00	-5.18784111773E-01
7.66018446494E+05	-1.20848792051E+01	-1.68985217740E+02	1.59874029733E+01	1.76142812730E+02	-4.66859068823E+01	1.57616741769E+02	-5.84865401513E+00	-4.37769239178E-01
7.88209801089E+05	-1.76330263353E+01	-1.58974261787E+02	1.59677014535E+01	1.76130215579E+02	-4.74344988257E+01	1.23876272173E+02	-5.85673567027E+00	-5.11040047320E-01
8.10401155684E+05	-1.23677672541E+01	-1.72097534599E+02	1.59626467908E+01	1.75629985474E+02	-4.31922010075E+01	2.84761929434E+01	-5.89485676279E+00	-6.09652903893E-01
8.32592510279E+05	-1.26026867685E+01	-1.66923500026E+02	1.59583643456E+01	1.75601486001E+02	-6.29374698806E+01	1.40226857539E+02	-5.86098447306E+00	-5.45790079570E-01
8.54783864874E+05	-1.32658647907E+01	-1.70893722146E+02	1.59385028305E+01	1.75301204727E+02	-4.93952715090E+01	1.24320741998E+02	-5.87334194993E+00	-5.90658588350E-01
8.76975219469E+05	-1.07977980742E+01	1.75207264901E+02	1.59190346082E+01	1.75219154298E+02	-4.02673467503E+01	7.90897601472E+00	-5.91035960867E+00	-5.80109613984E-01
8.99166574064E+05	-1.39719615724E+01	-1.78105273457E+02	1.59538449084E+01	1.74990710409E+02	-4.68281152074E+01	1.12812737846E+02	-5.87711891636E+00	-6.85476165115E-01
9.21357928659E+05	-1.33946513132E+01	-1.77771943978E+02	1.59733613807E+01	1.74890681184E+02	-5.66173553123E+01	-3.64016373027E+01	-5.88950934253E+00	-4.55057153120E-01
9.43549283254E+05	-1.44397142292E+01	-1.68473625345E+02	1.59745969992E+01	1.74444749400E+02	-4.55729921623E+01	9.51842276595E+01	-5.88852012576E+00	-6.92173621397E-01
9.65740637849E+05	-1.44724873271E+01	-1.49830201997E+02	1.59761456509E+01	1.74165954909E+02	-4.97070620478E+01	1.60963772607E+02	-5.83292726930E+00	-4.10414038009E-01
9.87931992444E+05	-1.12172280949E+01	1.79688351510E+02	1.59464246656E+01	1.74182992861E+02	-4.31964144490E+01	-5.89453580155E+00	-5.91033749928E+00	-6.07800058798E-01
1.01012334704E+06	-1.39902612155E+01	-1.52922054965E+02	1.59594148109E+01	1.73965303733E+02	-4.85879035934E+01	8.65312826513E+01	-5.87303264982E+00	-6.26112073902E-01
1.03231470163E+06	-1.12427850599E+01	1.75373789182E+02	1.59228612284E+01	1.73826655999E+02	-4.12818310803E+01	1.93317612279E+01	-5.89258780722E+00	-7.17396568949E-01
1.05450605623E+06	-1.18378752309E+01	-1.67852113927E+02	1.59413607362E+01	1.73532386471E+02	-4.66339608995E+01	4.30761460716E+01	-5.90862201834E+00	-8.85242507137E-01
1.07669741082E+06	-1.35989538990E+01	-1.75591230243E+02	1.59843200844E+01	1.73386340061E+02	-3.84279569112E+01	6.91833023088E+01	-5.81074942992E+00	-8.57752047561E-01
1.09888876542E+06	-1.43115056984E+01	1.79520229662E+02	1.59612512597E+01	1.73183586844E+02	-5.70766331393E+01	-1.86833396657E+00	-5.87801548357E+00	-6.24022800073E-01
1.12108012001E+06	-1.28961424844E+01	-1.77493758054E+02	1.59508851842E+01	1.72935420306E+02	-4.59394632426E+01	-1.68391443000E+02	-5.86506283052E+00	-5.12614992663E-01
1.14327147461E+06	-1.31767674650E+01	-1.79458772686E+02	1.59820409129E+01	1.72805877312E+02	-4.09084076335E+01	1.52874932331E+02	-5.83150665389E+00	-8.06283086032E-01
1.16546282920E+06	-1.40443137935E+01	-1.70505067180E+02	1.59658694726E+01	1.72664046937E+02	-4.26480228404E+01	1.34658956874E+01	-5.86849556690E+00	-8.32747845724E-01
1.18765418380E+06	-1.27373688544E+01	-1.77823239922E+02	1.59511404824E+01	1.72329971614E+02	-5.24473624937E+01	9.15535119726E+01	-5.86639413102E+00	-7.37944894310E-01
1.20984553839E+06	-1.32572877932E+01	-1.71166490620E+02	1.59621540255E+01	1.72214434831E+02	-4.75911472388E+01	1.06135766307E+02	-5.87446932981E+00	-9.97413316505E-01
1.23203689299E+06	-1.52587898288E+01	-1.58212960459E+02	1.59737807934E+01	1.72025932770E+02	-4.32811853780E+01	-1.21748760475E+02	-5.85447485072E+00	-3.12749129585E-01
1.25422824758E+06	-1.34598637972E+01	1.72562242186E+02	1.59656733781E+01	1.71939978444E+02	-5.71496247185E+01	-4.68131156898E+01	-5.86715729772E+00	-4.70679114364E-01
1.27641960218E+06	-1.22168825573E+01	-1.68619524119E+02	1.59547809480E+01	1.71659356238E+02	-4.30921399482E+01	-1.98259112789E+01	-5.89897164183E+00	-7.86576711696E-01
1.29861095677E+06	-1.32144031341E+01	1.69242002666E+02	1.59500663857E+01	1.71673855645E+02	-3.78922821597E+01	-3.20955291150E+01	-5.92421173807E+00	-5.87414631206E-01
1.32080231137E+06	-1.28233912945E+01	1.76134596644E+02	1.59423658974E+01	1.71436846723E+02	-4.28702713127E+01	4.09638907752E+01	-5.88638181516E+00	-1.32518271566E+00
1.34299366596E+06	-1.43977170827E+01	-1.72466151668E+02	1.59693590897E+01	1.71275919059E+02	-5.12241145637E+01	2.48942311354E+01	-5.89582110247E+00	-9.06164581795E-01
1.36518502056E+06	-1.72937431212E+01	-1.62261463847E+02	1.59965812880E+01	1.71079599675E+02	-5.12964081858E+01	-1.41056824815E+02	-5.87734673490E+00	-6.31852994318E-01
1.38737637515E+06	-1.19605599308E+01	-1.72286692628E+02	1.59346774741E+01	1.70668268265E+02	-4.70025045739E+01	1.27755777011E+02	-5.85887759953E+00	-8.28100299209E-01
1.40956772975E+06	-9.59740301159E+00	1.78693891800E+02	1.59322232466E+01	1.70425432265E+02	-4.33087710426E+01	1.75457581627E+02	-5.82149284691E+00	-6.85511960341E-01
1.43175908434E+06	-1.20178874047E+01	-1.44133797291E+02	1.59721453541E+01	1.70242014114E+02	-5.08366257542E+01	5.12481099652E+01	-5.88443167085E+00	-8.75206177910E-01
1.45395043894E+06	-1.36748343219E+01	-1.54811915218E+02	1.59753373763E+01	1.70109859185E+02	-4.20071714938E+01	-1.42730084964E+02	-5.86768360762E+00	-6.95585335705E-01
1.47614179353E+06	-1.42236382159E+01	-1.60028049971E+02	1.59707940370E+01	1.70100975724E+02	-3.97888004493E+01	7.82752533017E+01	-5.89850095859E+00	-1.12952946743E+00
1.49833314813E+06	-1.28493930324E+01	-1.59907884676E+02	1.59524584981E+01	1.69897585418E+02	-3.31704192531E+01	-1.67941115019E+02	-5.80827134586E+00	-5.31016678517E-01
1.52052450272E+06	-1.08091439650E+01	1.61351668380E+02	1.59086269310E+01	1.69933156557E+02	-5.52111665948E+01	-1.09134681181E+02	-5.88096371172E+00	-8.09414065505E-01
1.54271585732E+06	-1.31913302516E+01	-1.55364919033E+02	1.59792915255E+01	1.69236754860E+02	-4.75153433454E+01	1.32590122450E+02	-5.86413774876E+00	-8.27660751419E-01
1.56490721191E+06	-1.51932411174E+01	-1.63136515532E+02	1.59806438661E+01	1.69433526537E+02	-4.87366165795E+01	5.86336165246E-02	-5.89464717211E+00	-8.64278568622E-01
1.58709856651E+06	-1.22823543391E+01	1.73183509689E+02	1.59173691883E+01	1.69152317676E+02	-4.98361444771E+01	3.16031377559E+01	-5.88183036526E+00	-1.12664393002E+00
1.60928992110E+06	-1.21572104780E+01	-1.66333136683E+02	1.59430608690E+01	1.68929325026E+02	-5.01934774797E+01	-4.34490644573E+01	-5.87075838606E+00	-9.20037915971E-01
1.63148127570E+06	-1.21141932482E+01	-1.78332771741E+02	1.59513831478E+01	1.68755419593E+02	-4.60090555901E+01	1.02144563478E+02	-5.86677615460E+00	-1.03723838334E+00
1.65367263029E+06	-1.06158232311E+01	-1.74472469509E+02	1.59222114086E+01	1.68618371487E+02	-3.37863387676E+01	-3.81568398097E+01	-5.96790992778E+00	-7.79860440933E-01
1.67586398489E+06	-2.00970408430E+01	-1.69595300408E+02	1.59889820166E+01	1.68592707198E+02	-4.01977918534E+01	-7.03039753690E+01	-5.90338867974E+00	-5.92471838220E-01
1.69805533948E+06	-1.18556236739E+01	-1.69959525006E+02	1.59334521461E+01	1.68135612638E+02	-4.08693018306E+01	3.35850988863E+01	-5.91719778264E+00	-1.25710666563E+00
1.72024669408E+06	-2.04337910550E+01	1.78087148320E+02	1.59444832862E+01	1.68201002410E+02	-4.83973226492E+01	-4.60002687138E-01	-5.89174125737E+00	-9.22029399040E-01
1.74243804867E+06	-1.02447276407E+01	-1.60483786836E+02	1.59700032515E+01	1.67615739822E+02	-4.67894511936E+01	-1.69677288316E+02	-5.88071523029E+00	-8.27317831634E-01
1.76462940327E+06	-1.39452853595E+01	-1.45289145151E+02	1.59736299983E+01	1.67582289708E+02	-4.13025350555E+01	1.43140526989E+02	-5.83955040285E+00	-9.88631240186E-01
1.78682075786E+06	-1.17480157792E+01	-1.66639283729E+02	1.59364316779E+01	1.67415777265E+02	-6.26485840351E+01	6.88498127001E+01	-5.88223789852E+00	-8.74252331729E-01
1.80901211246E+06	-1.61782793774E+01	-1.62484464047E+02	1.59585655572E+01	1.67650326029E+02	-4.30336857747E+01	-1.18758696760E+02	-5.90498127171E+00	-8.48531641058E-01
1.83120346705E+06	-1.66713191542E+01	-1.74599455475E+02	1.59700869235E+01	1.67442406949E+02	-5.05998234508E+01	-1.23284767289E+02	-5.86635084188E+00	-9.03146624913E-01
1.85339482165E+06	-1.39187586011E+01	-1.69741748351E+02	1.59582292408E+01	1.67006078149E+02	-4.57389209051E+01	1.60416780603E+02	-5.83936758299E+00	-9.65745700042E-01
1.87558617624E+06	-1.77553428441E+01	-1.44249767866E+02	1.59508128721E+01	1.67009602081E+02	-6.55756572010E+01	-2.19700658242E+00	-5.87044008170E+00	-9.24023757933E-01
1.89777753084E+06	-1.29639482563E+01	-1.41713781589E+02	1.59700963750E+01	1.66565339757E+02	-5.11609778952E+01	1.46215183081E+02	-5.85830510554E+00	-9.28590747069E-01
1.91996888543E+06	-1.14200896461E+01	-1.67860583597E+02	1.59515946354E+01	1.66540774501E+02	-4.97776122069E+01	2.39547511874E+00	-5.88657223723E+00	-7.59474124361E-01
1.94216024003E+06	-1.58726710390E+01	-1.55545898112E+02	1.59712859993E+01	1.66484229354E+02	-3.95163802151E+01	4.10280924697E+01	-5.90505664621E+00	-1.24156887672E+00
1.96435159462E+06	-1.28272219537E+01	-1.55275016632E+02	1.59410069896E+01	1.66156558647E+02	-3.74486007813E+01	1.41747418423E+02	-5.81489091278E+00	-9.03601392124E-01
1.98654294922E+06	-1.48694152913E+01	-1.65235638894E+02	1.59336100835E+01	1.66000374276E+02	-4.71055997552E+01	6.67277377701E+01	-5.86866083014E+00	-1.37169272723E+00
2.00873430381E+06	-1.31016489017E+01	-1.63679038016E+02	1.59612064551E+01	1.65805228666E+02	-4.75771424992E+01	-1.46691620650E+02	-5.86394769672E+00	-8.33322991048E-01
2.03092565841E+06	-1.33494339192E+01	-1.44436203550E+02	1.59507787968E+01	1.65634623336E+02	-5.48903275056E+01	4.79747644965E+01	-5.89724932407E+00	-1.32026577888E+00
2.05311701300E+06	-9.69022500412E+00	-1.51394961464E+02	1.59341884967E+01	1.65329945727E+02	-3.97261627769E+01	2.27483571976E+01	-5.90340163517E+00	-1.35610584847E+00
2.07530836760E+06	-1.17267383004E+01	-1.69770797269E+02	1.59481468389E+01	1.65168316600E+02	-4.79247626987E+01	-1.39181886743E+02	-5.84441304356E+00	-9.94339422356E-01
2.09749972219E+06	-1.78744340166E+01	1.58649647296E+02	1.59484946905E+01	1.65503309922E+02	-5.32399950701E+01	-1.11559272504E+02	-5.87744973150E+00	-1.04126239362E+00
2.11969107679E+06	-1.41994294819E+01	1.78999326059E+02	1.59343618541E+01	1.65073684789E+02	-3.99633927221E+01	-1.04095963353E+02	-5.87194622067E+00	-1.07160978578E+00
2.14188243138E+06	-1.22458058509E+01	1.78502140090E+02	1.59096724222E+01	1.64916523272E+02	-4.69458426964E+01	-1.20852204614E+02	-5.87063951191E+00	-1.15390208013E+00
2.16407378598E+06	-1.17163321046E+01	-1.73174517510E+02	1.59244544055E+01	1.64601798452E+02	-4.97560067874E+01	-1.31575368562E+01	-5.89804956442E+00	-1.15632063647E+00
2.18626514057E+06	-1.05569568375E+01	-1.52353590537E+02	1.59648439497E+01	1.64072082558E+02	-4.29152784338E+01	-1.57896488588E+02	-5.86411359369E+00	-1.05081708221E+00
2.20845649517E+06	-8.98503464135E+00	-1.73635116362E+02	1.59227947579E+01	1.63896889671E+02	-4.15445962409E+01	1.29580599022E+02	-5.80971505585E+00	-1.42199703466E+00
2.23064784976E+06	-1.86157716302E+01	-1.50829348764E+02	1.59745115661E+01	1.64306741279E+02	-4.99308529309E+01	-2.82772109728E+01	-5.90962691528E+00	-1.19455433405E+00
2.25283920436E+06	-1.22160939184E+01	-1.46931623206E+02	1.59744740727E+01	1.63838685336E+02	-4.71631039284E+01	-2.71919817364E+01	-5.89936733610E+00	-1.22545640539E+00
2.27503055895E+06	-1.24297287304E+01	-1.56444907565E+02	1.59558618749E+01	1.63665259436E+02	-4.05538897749E+01	7.80386933205E+01	-5.83945042527E+00	-1.31399265753E+00
2.29722191355E+06	-1.41977423088E+01	-1.63958375250E+02	1.59602920066E+01	1.63629805482E+02	-5.27250959532E+01	3.00363348682E+01	-5.90088657457E+00	-1.17607513151E+00
2.31941326814E+06	-1.14874652331E+01	-1.62689203527E+02	1.59365547755E+01	1.63279538825E+02	-4.72694462012E+01	-3.53453733380E+01	-5.89240354736E+00	-1.23365322362E+00
2.34160462274E+06	-1.10836961669E+01	-1.76896278257E+02	1.59077764918E+01	1.63233837070E+02	-4.66933371242E+01	1.12135423418E+02	-5.84481664574E+00	-1.28226424917E+00
2.36379597733E+06	-1.52850275673E+01	-1.75151638880E+02	1.59381869286E+01	1.63147592676E+02	-3.99634785843E+01	3.40111796352E+01	-5.92397748924E+00	-1.40089044984E+00
2.38598733193E+06	-1.30348592407E+01	-1.71929092988E+02	1.59418840891E+01	1.63021608192E+02	-4.85045089986E+01	-4.31813016837E+01	-5.91020869148E+00	-1.22366827140E+00
2.40817868652E+06	-1.07870632116E+01	-1.58911580936E+02	1.59134344663E+01	1.62551524883E+02	-4.74031870876E+01	-1.32682522852E+02	-5.86761648650E+00	-1.41190732068E+00
2.43037004112E+06	-1.16054169254E+01	-1.59099059755E+02	1.59441443790E+01	1.62614028975E+02	-4.25767342901E+01	8.01960619452E+01	-5.85968699214E+00	-1.79036265191E+00
2.45256139571E+06	-1.24929934034E+01	-1.66391898104E+02	1.59332453585E+01	1.62496323322E+02	-4.63315773251E+01	-1.61600393331E+02	-5.89767100909E+00	-1.10874887856E+00
2.47475275031E+06	-1.28640606192E+01	-1.71413134151E+02	1.58986271539E+01	1.62320786169E+02	-4.39032093967E+01	-1.61288084459E+02	-5.84727104162E+00	-1.14540960277E+00
2.49694410490E+06	-1.28842212687E+01	-1.56519658916E+02	1.59343999239E+01	1.62112125487E+02	-4.22151663066E+01	1.35552956291E+02	-5.87033308715E+00	-1.63682558920E+00
2.51913545950E+06	-7.36895087559E+00	-1.63165294717E+02	1.59360413574E+01	1.61745783138E+02	-5.09083625660E+01	8.99013458979E+01	-5.87601477150E+00	-1.49575117232E+00
2.54132681409E+06	-1.17134401402E+01	-1.73193474875E+02	1.59143701243E+01	1.61950088383E+02	-3.88504754307E+01	3.12615193281E+01	-5.92459688313E+00	-1.73100875078E+00
2.56351816869E+06	-1.35902224838E+01	-1.76476241496E+02	1.59244391745E+01	1.61648620382E+02	-4.98669208010E+01	-2.60546663254E+01	-5.88986941373E+00	-1.28816773986E+00
2.58570952328E+06	-1.10810357531E+01	-1.73683808674E+02	1.58969613794E+01	1.61403568331E+02	-4.58231656629E+01	-6.62507863528E+01	-5.89324930583E+00	-1.18082143773E+00
2.60790087788E+06	-1.44801268828E+01	-1.78511182673E+02	1.59221518695E+01	1.61442243986E+02	-5.02147505124E+01	2.01342120640E+01	-5.89665745496E+00	-1.26106136523E+00
2.63009223247E+06	-1.30536952855E+01	-1.66329106879E+02	1.59267322291E+01	1.61110307780E+02	-4.67365280825E+01	2.46876667405E+01	-5.91746174463E+00	-1.20711082291E+00
2.65228358707E+06	-1.43592569132E+01	-1.51594105387E+02	1.59745566001E+01	1.60942683669E+02	-4.93662659931E+01	-1.00552265525E+02	-5.87302745553E+00	-1.08174134688E+00
2.67447494166E+06	-6.50744187606E+00	-1.71450423051E+02	1.59133976325E+01	1.60187921221E+02	-5.27415029036E+01	5.43194433892E+01	-5.89002298658E+00	-1.52099900188E+00
2.69666629626E+06	-1.38779418205E+01	-1.63539382182E+02	1.59307723979E+01	1.60533164961E+02	-5.17347505387E+01	1.22723077239E+02	-5.87412730452E+00	-1.32702117633E+00
2.71885765085E+06	-1.51491839125E+01	-1.64201744548E+02	1.59681134570E+01	1.60449450039E+02	-5.36146152620E+01	-6.10492048173E+01	-5.89184815726E+00	-1.33619174094E+00
2.74104900545E+06	-1.18022653642E+01	-1.74010120020E+02	1.59142280116E+01	1.60163117427E+02	-4.26047671046E+01	1.47843501392E+01	-5.89292273940E+00	-1.81312162136E+00
2.76324036004E+06	-1.37758707068E+01	-1.57748586448E+02	1.59422370088E+01	1.60051612025E+02	-3.55710662965E+01	-1.33120189132E+02	-5.89691975592E+00	-9.87431564535E-01
2.78543171463E+06	-1.24581410898E+01	-1.68047657998E+02	1.59217811899E+01	1.59902971268E+02	-4.59703952442E+01	-2.84185158442E+01	-5.91664225080E+00	-1.50159012963E+00
2.80762306923E+06	-1.33587234987E+01	-1.75240248835E+02	1.59156825908E+01	1.59894082905E+02	-4.04585614508E+01	1.58203454429E+02	-5.83144637072E+00	-1.62719533743E+00
2.82981442382E+06	-1.44386462720E+01	-1.34463551132E+02	1.59436607687E+01	1.59480421257E+02	-4.87262895176E+01	2.20516548988E+01	-5.89132139906E+00	-1.62558181530E+00
2.85200577842E+06	-1.19176574253E+01	-1.60801529248E+02	1.59392700039E+01	1.59275899456E+02	-5.22997762253E+01	1.46629235261E+02	-5.85768117555E+00	-1.41956966437E+00
2.87419713301E+06	-1.23198998900E+01	-1.66184208447E+02	1.59318667140E+01	1.59138452778E+02	-4.19789269309E+01	-8.01175903144E+00	-5.91331387405E+00	-1.48214917203E+00
