# Hz S DB R 50
! CMT, M5065, 19127446, 24.2.4/2
! Date: 11/8/2024 5:43:34 PM
! Data: Format (Calibration Info)
! Freq	S11:dB/Ang(F2)	S21:dB/Ang(F2)	S12:dB/Ang(F2)	S22:dB/Ang(F2)
3.00000000000E+05	-1.50587551634E+01	1.75278825347E+02	1.41533601258E+01	-1.76900716697E+02	-4.08437672979E+01	1.76889969650E+02	-5.87018952119E+00	-3.51598373916E-01
3.22191354595E+05	-1.39579212994E+01	1.78034076671E+02	1.41482306172E+01	-1.77486483737E+02	-5.18155518576E+01	-3.17191299364E+00	-5.86593204953E+00	-4.19602728991E-01
3.44382709190E+05	-1.53824635118E+01	-1.69238120920E+02	1.41778694788E+01	-1.77846769715E+02	-5.05896609901E+01	-1.26511513720E+01	-5.87878826786E+00	-3.42259405800E-01
3.66574063785E+05	-1.36650907981E+01	-1.73887627197E+02	1.41466402550E+01	-1.78522810029E+02	-5.88843095474E+01	-1.73185278978E+02	-5.83113660375E+00	-3.22417226437E-01
3.88765418380E+05	-1.13322611408E+01	-1.78135725857E+02	1.42122582227E+01	-1.78993686075E+02	-3.98317023090E+01	5.22135133538E+01	-6.08004878940E+00	1.94061584983E+00
4.10956772975E+05	-1.15337362416E+01	1.66182945114E+02	1.41169479162E+01	-1.79027682494E+02	-4.20378815476E+01	5.63324903876E+01	-5.88490626580E+00	-5.31944134733E-01
4.33148127570E+05	-1.86446455461E+01	-1.72641379010E+02	1.41608066853E+01	-1.79629657278E+02	-3.99874355682E+01	1.00744579952E+02	-5.85423313856E+00	-7.15513666674E-01
4.55339482165E+05	-1.20315591601E+01	-1.78450440411E+02	1.41453244631E+01	-1.79788007832E+02	-4.30805656950E+01	1.68663583524E+02	-5.84955826202E+00	-2.74976209370E-01
4.77530836760E+05	-1.16327381796E+01	-1.56111825286E+02	1.41294630043E+01	1.79612773751E+02	-4.78273077539E+01	1.20397047939E+01	-5.87440931726E+00	-4.72255078175E-01
4.99722191355E+05	-1.45780472443E+01	-1.73109186173E+02	1.41554896414E+01	1.79583621428E+02	-5.65766442508E+01	1.75946786000E+02	-5.85094797452E+00	-3.41815722377E-01
5.21913545950E+05	-1.48432143167E+01	1.75016595328E+02	1.41712415895E+01	1.79559087309E+02	-5.40841908597E+01	-5.20736286092E+01	-5.87419540856E+00	-4.06553160071E-01
5.44104900545E+05	-1.17031747517E+01	-1.78620668156E+02	1.41255192501E+01	1.79083147683E+02	-4.78404247554E+01	-4.60799201157E+01	-5.85153482792E+00	-3.64976824800E-01
5.66296255139E+05	-1.13223896317E+01	-1.67352077464E+02	1.41656276530E+01	1.78703023514E+02	-4.21377048559E+01	-5.56746127046E+01	-5.88449099145E+00	-2.36456401932E-01
5.88487609734E+05	-1.22297920482E+01	-1.75307201918E+02	1.41641069018E+01	1.78665126712E+02	-5.25936139357E+01	-4.13811651292E+01	-5.85915100745E+00	-3.10993763108E-01
6.10678964329E+05	-1.15913265396E+01	-1.75152138542E+02	1.41228120357E+01	1.78297595615E+02	-4.57997462518E+01	1.11465738382E+02	-5.86681434961E+00	9.82780312308E-02
6.32870318924E+05	-1.35917992778E+01	-1.66578253830E+02	1.41534258975E+01	1.78111557318E+02	-5.84619123980E+01	4.21771138389E-01	-5.85539781993E+00	-2.10643538890E-01
6.55061673519E+05	-1.15828927551E+01	-1.71365598253E+02	1.41321657984E+01	1.77816190893E+02	-4.85424587987E+01	-1.40520132827E+02	-5.88068324866E+00	-2.77173840264E-01
6.77253028114E+05	-1.30359435192E+01	-1.71835791644E+02	1.41320117295E+01	1.77573335504E+02	-5.29187499698E+01	2.47572630961E+01	-5.87109721690E+00	-7.21270458773E-01
6.99444382709E+05	-1.45697897950E+01	1.75007423634E+02	1.41600825055E+01	1.77554422666E+02	-5.04183102221E+01	-6.84409194615E+01	-5.87588825581E+00	-2.77374695452E-01
7.21635737304E+05	-1.57003354753E+01	-1.56929208689E+02	1.41667628974E+01	1.77328767839E+02	-4.44236071318E+01	-5.19755117300E+01	-5.88456799153E+00	-4.12674464892E-01
7.43827091899E+05	-1.28805780525E+01	1.71698461356E+02	1.41479266191E+01	1.77043976712E+02	-5.25377459029E+01	1.12174553492E+02	-5.87101802534E+00	-4.64190478318E-01
7.66018446494E+05	-1.11162616721E+01	-1.78304450041E+02	1.41092865582E+01	1.76832875464E+02	-3.54815720630E+01	1.34250828632E+02	-5.83737368309E+00	-5.55377872526E-01
7.88209801089E+05	-1.60625423663E+01	1.64049379555E+02	1.41479273641E+01	1.76908205310E+02	-4.33440630062E+01	-1.24606813113E+02	-5.86917532479E+00	-4.09788415950E-01
8.10401155684E+05	-1.02161897819E+01	-1.78789438545E+02	1.41150424655E+01	1.76442821857E+02	-5.98033033956E+01	-1.06306012282E+00	-5.89145747644E+00	-5.16310731102E-01
8.32592510279E+05	-1.17572208142E+01	1.59882786698E+02	1.41128349154E+01	1.76483303228E+02	-4.25110925296E+01	1.17783023679E+02	-5.85662912230E+00	-6.93653447513E-01
8.54783864874E+05	-1.68962931678E+01	-1.66675508484E+02	1.41800900054E+01	1.76106794886E+02	-4.64008157394E+01	-8.80033135897E+00	-5.87636115582E+00	-6.31789002172E-01
8.76975219469E+05	-1.24707782526E+01	1.75579874431E+02	1.41533046004E+01	1.75760124839E+02	-4.27714468498E+01	5.93126029422E+01	-5.86895531856E+00	-8.50355045186E-01
8.99166574064E+05	-1.43705420335E+01	1.66291351499E+02	1.41225749174E+01	1.75759571879E+02	-4.59840051251E+01	1.15039282052E+02	-5.85472670064E+00	-7.03782950408E-01
9.21357928659E+05	-1.34308603972E+01	-1.61557133903E+02	1.41506017434E+01	1.75242996685E+02	-4.38469600906E+01	-4.61656618452E+00	-5.89864104698E+00	-6.72599151460E-01
9.43549283254E+05	-1.19986270238E+01	-1.69191592825E+02	1.41360051216E+01	1.75331184630E+02	-4.22186628979E+01	4.79611634891E+01	-5.86640774794E+00	-6.36211634124E-01
9.65740637849E+05	-1.38336667762E+01	-1.79949190847E+02	1.41678756262E+01	1.75041550844E+02	-5.73987223248E+01	-1.05845474593E+02	-5.87316247855E+00	-5.10556996140E-01
9.87931992444E+05	-1.15613960403E+01	-1.79694036793E+02	1.40971730896E+01	1.74821620162E+02	-4.83881475023E+01	1.83497640567E+01	-5.88467563743E+00	-5.94549015854E-01
1.01012334704E+06	-9.75210070650E+00	-1.69690104393E+02	1.41203631179E+01	1.74627043963E+02	-4.20902733875E+01	1.30972175039E+02	-5.86369888343E+00	-8.70675861058E-01
1.03231470163E+06	-1.71276716476E+01	-1.47521743969E+02	1.41734114977E+01	1.74907049242E+02	-4.11744080087E+01	3.25488468012E+01	-5.88678773892E+00	-7.86776717690E-01
1.05450605623E+06	-1.20850749135E+01	-1.58990260485E+02	1.41469102891E+01	1.74294009105E+02	-4.27324647181E+01	9.42750207129E+01	-5.88721021209E+00	-8.74211519655E-01
1.07669741082E+06	-1.20674236180E+01	-1.76125233151E+02	1.40989829246E+01	1.74386225872E+02	-5.03970207437E+01	2.55415943098E+01	-5.89153715119E+00	-7.78206275768E-01
1.09888876542E+06	-1.27572583514E+01	-1.71526159595E+02	1.41372884414E+01	1.74090535924E+02	-4.52290747424E+01	-1.53721535099E+02	-5.83950810471E+00	-6.12096194162E-01
1.12108012001E+06	-1.13792008024E+01	-1.68710947237E+02	1.41013870718E+01	1.73736891071E+02	-5.73301996825E+01	-1.25330953818E+02	-5.87941507336E+00	-7.04297727080E-01
1.14327147461E+06	-1.45612205717E+01	-1.73433290471E+02	1.41285304828E+01	1.73734094663E+02	-4.44297213049E+01	1.68461079271E+02	-5.82707914211E+00	-5.92876307863E-01
1.16546282920E+06	-1.64219362015E+01	-1.62453028921E+02	1.41574643979E+01	1.73568619712E+02	-4.09745368317E+01	-1.53686512970E+02	-5.85337077123E+00	-5.81202804874E-01
1.18765418380E+06	-1.80661740244E+01	-1.65588887101E+02	1.41624961629E+01	1.73360437577E+02	-4.11878883972E+01	5.76831193042E+01	-5.87365115348E+00	-9.92494986883E-01
1.20984553839E+06	-1.65225240462E+01	1.64145143613E+02	1.41481012737E+01	1.73455972680E+02	-4.05024416189E+01	-1.59728326318E+02	-5.85094263377E+00	-6.62093554527E-01
1.23203689299E+06	-1.14561699620E+01	-1.66778912576E+02	1.41116395581E+01	1.73042456378E+02	-4.18312470038E+01	6.91523040923E+01	-5.87077630043E+00	-8.15238974720E-01
1.25422824758E+06	-1.31749600111E+01	-1.53834984689E+02	1.41519706075E+01	1.72846477163E+02	-3.95868156140E+01	1.02073937645E+02	-5.86105077562E+00	-1.00004302374E+00
1.27641960218E+06	-1.37816864909E+01	-1.74944048018E+02	1.41211474393E+01	1.72813485209E+02	-4.89951660519E+01	-8.02975565237E+01	-5.90831002158E+00	-5.61306544149E-01
1.29861095677E+06	-1.26186158065E+01	-1.61444403533E+02	1.41230798661E+01	1.72584545999E+02	-4.82463955970E+01	7.94989631510E+01	-5.88788278780E+00	-9.45721502114E-01
1.32080231137E+06	-1.21404389831E+01	1.71332264343E+02	1.41217962872E+01	1.72498181609E+02	-4.52645896818E+01	-1.09651380202E+02	-5.86907047462E+00	-9.17657274310E-01
1.34299366596E+06	-1.24443938503E+01	1.79002434686E+02	1.41069645568E+01	1.72185272654E+02	-4.30285135768E+01	8.80970673567E+01	-5.87658832333E+00	-1.07408679367E+00
1.36518502056E+06	-1.18366006017E+01	-1.77064248920E+02	1.41057707058E+01	1.72144353750E+02	-4.70313029303E+01	2.70320047434E+01	-5.90057194156E+00	-8.91076395013E-01
1.38737637515E+06	-1.44812323420E+01	-1.58655995229E+02	1.41708249770E+01	1.72072097396E+02	-5.04139265299E+01	1.34875366753E+02	-5.86173424736E+00	-6.67815174374E-01
1.40956772975E+06	-1.25955861231E+01	-1.66071112524E+02	1.41190820577E+01	1.71781237835E+02	-4.30292266466E+01	1.68703466210E+01	-5.90613075780E+00	-9.05325683988E-01
1.43175908434E+06	-1.15189621571E+01	-1.73282749633E+02	1.41045334613E+01	1.71522759230E+02	-4.09915716037E+01	1.29422040542E+02	-5.85953816103E+00	-9.46977260923E-01
1.45395043894E+06	-1.53407937546E+01	-1.63029321409E+02	1.41574743043E+01	1.71396795941E+02	-5.14722409074E+01	1.33849257110E+02	-5.89384894690E+00	-9.04160417090E-01
1.47614179353E+06	-1.08132221327E+01	-1.50850419459E+02	1.41389496692E+01	1.71127206833E+02	-4.23740895411E+01	1.76567857712E+02	-5.82864056737E+00	-7.48693328262E-01
1.49833314813E+06	-1.72291734707E+01	-1.78589162865E+02	1.41263991360E+01	1.71220816817E+02	-5.18768229531E+01	-1.42001821406E+02	-5.85026725206E+00	-7.73866010210E-01
1.52052450272E+06	-1.24987476246E+01	-1.76644528083E+02	1.41249452695E+01	1.71002115381E+02	-4.80703283940E+01	8.12160881100E+01	-5.86321146790E+00	-9.50752805203E-01
1.54271585732E+06	-1.15550038508E+01	1.72390174550E+02	1.40988721453E+01	1.70915629442E+02	-4.51689190474E+01	6.32017620942E+01	-5.85053579806E+00	-1.01341675336E+00
1.56490721191E+06	-1.66469411696E+01	1.79307877175E+02	1.41592427005E+01	1.70848947734E+02	-4.76996337664E+01	1.24762419998E+02	-5.86523615042E+00	-7.29571126837E-01
1.58709856651E+06	-1.28807283318E+01	1.79465377212E+02	1.41293226536E+01	1.70573269516E+02	-6.11608973886E+01	1.37361776965E+02	-5.86199371716E+00	-9.85495406776E-01
1.60928992110E+06	-1.23236636137E+01	-1.54700254225E+02	1.41606650140E+01	1.70226088354E+02	-4.57392468513E+01	-2.41558796231E+01	-5.88886374576E+00	-8.33433215462E-01
1.63148127570E+06	-1.26113321183E+01	-1.71243806380E+02	1.41400190063E+01	1.70111390431E+02	-4.68850546875E+01	-5.72170044151E+01	-5.89653277580E+00	-8.97238171468E-01
1.65367263029E+06	-1.39104668405E+01	1.79198717119E+02	1.41241695857E+01	1.70110650315E+02	-4.82861957068E+01	1.14797646649E+02	-5.86788332898E+00	-9.72572020753E-01
1.67586398489E+06	-1.41741121662E+01	1.71372021396E+02	1.41346684102E+01	1.70197173685E+02	-4.35535389606E+01	-6.77407577862E+00	-5.89633769087E+00	-9.03257510116E-01
1.69805533948E+06	-1.28475939903E+01	-1.58602541482E+02	1.41460164359E+01	1.69761053828E+02	-4.47466112198E+01	-4.64940262966E+01	-5.87063196089E+00	-8.98465128992E-01
1.72024669408E+06	-1.25923948527E+01	-1.74068410548E+02	1.41277954415E+01	1.69863191370E+02	-4.15670837832E+01	-1.15199862243E+02	-5.88965521986E+00	-8.12756776050E-01
1.74243804867E+06	-1.58815768276E+01	-1.70290136201E+02	1.41518883222E+01	1.69461590428E+02	-4.36311273734E+01	1.00097509105E+02	-5.83121016631E+00	-1.22186773376E+00
1.76462940327E+06	-1.25763309678E+01	-1.75206744845E+02	1.41371700209E+01	1.69424875477E+02	-4.91743044057E+01	1.65403718700E+02	-5.85898900563E+00	-9.63513755241E-01
1.78682075786E+06	-1.31232885282E+01	1.79496022679E+02	1.41166095894E+01	1.69278702065E+02	-4.06315935852E+01	-2.59284220285E+01	-5.90182229417E+00	-8.26762766472E-01
1.80901211246E+06	-1.28288557863E+01	-1.53717179839E+02	1.41496907480E+01	1.69017134240E+02	-4.83752518366E+01	-6.92600675939E+00	-5.84972237364E+00	-9.40773464873E-01
1.83120346705E+06	-1.16229908949E+01	-1.62090121197E+02	1.41192944986E+01	1.68714115478E+02	-4.60227935432E+01	-1.71096627868E+02	-5.84631192934E+00	-9.61516498545E-01
1.85339482165E+06	-1.12342607986E+01	-1.71757097852E+02	1.41107518583E+01	1.68472331755E+02	-4.34588838284E+01	9.48442331983E+00	-5.89002272893E+00	-9.94196306902E-01
1.87558617624E+06	-1.44288307960E+01	-1.76642228415E+02	1.41550344386E+01	1.68677675307E+02	-3.67695517453E+01	4.39495490825E+01	-5.86685755895E+00	-1.19096253642E+00
1.89777753084E+06	-1.28668968031E+01	-1.60755027050E+02	1.41196196938E+01	1.68302660879E+02	-4.41036941271E+01	-1.19751966779E+02	-5.87767801291E+00	-6.89188445751E-01
1.91996888543E+06	-1.05005639463E+01	-1.70770556346E+02	1.40726491848E+01	1.68127020310E+02	-4.64410169072E+01	-4.33846636954E+00	-5.89849542561E+00	-9.50419576957E-01
1.94216024003E+06	-1.26984272150E+01	-1.60399543943E+02	1.41541308088E+01	1.67884343240E+02	-4.43444538710E+01	-1.75412679961E+02	-5.83416130714E+00	-1.07633941646E+00
1.96435159462E+06	-1.46427587996E+01	-1.31665926403E+02	1.41856854964E+01	1.67893572838E+02	-3.89355941939E+01	1.08682079218E+02	-5.83337405281E+00	-1.25461566064E+00
1.98654294922E+06	-1.05394408529E+01	-1.67429623097E+02	1.41294847527E+01	1.67726668797E+02	-4.60534258531E+01	-1.83966813435E+00	-5.90150221581E+00	-9.60786437711E-01
2.00873430381E+06	-1.30028067816E+01	-1.79571497437E+02	1.41488768041E+01	1.67810947906E+02	-4.39750827590E+01	-1.28696497471E+01	-5.86986691733E+00	-9.71555404960E-01
2.03092565841E+06	-1.08145392013E+01	-1.68804402067E+02	1.41321372078E+01	1.67369313856E+02	-3.32863689450E+01	1.07374734828E+02	-5.78600695573E+00	-1.29338078196E+00
2.05311701300E+06	-1.26516100559E+01	-1.69693893003E+02	1.41243072937E+01	1.67236635824E+02	-5.06402111162E+01	-1.37333722963E+02	-5.86224294812E+00	-9.01868389105E-01
2.07530836760E+06	-1.22629279723E+01	-1.67580083981E+02	1.41115040257E+01	1.67230502355E+02	-5.86728670575E+01	-9.94052328209E+01	-5.87510610082E+00	-1.14048454237E+00
2.09749972219E+06	-1.36697132011E+01	1.78617862650E+02	1.41366780763E+01	1.67199796413E+02	-5.82011522549E+01	-5.24432778985E+01	-5.87866229289E+00	-1.05396374343E+00
2.11969107679E+06	-1.17853009573E+01	-1.55981230828E+02	1.41430302526E+01	1.66687862110E+02	-4.55975834724E+01	5.62211321091E+01	-5.87829392487E+00	-1.30067081053E+00
2.14188243138E+06	-1.30329962916E+01	-1.72985746492E+02	1.41223732056E+01	1.66923856845E+02	-4.56592448751E+01	2.56798501823E+01	-5.86522707697E+00	-1.36864398025E+00
2.16407378598E+06	-1.29143398483E+01	1.71182420434E+02	1.41025347646E+01	1.66855270526E+02	-4.13026395568E+01	1.10296269610E+01	-5.92114676375E+00	-1.43471252251E+00
2.18626514057E+06	-1.35699378910E+01	-1.75685179957E+02	1.41593947368E+01	1.66627865824E+02	-3.50556089908E+01	-4.82651462045E+01	-5.90529120999E+00	-1.37723091622E+00
2.20845649517E+06	-1.30791672414E+01	-1.68890850874E+02	1.41504672643E+01	1.66452194699E+02	-4.80366770368E+01	-1.07286997347E+01	-5.89599851036E+00	-1.24138584282E+00
2.23064784976E+06	-1.01829106872E+01	-1.65367250884E+02	1.41380714333E+01	1.66152839320E+02	-4.67634675016E+01	-2.23134474250E+01	-5.90868696009E+00	-1.13141019316E+00
2.25283920436E+06	-1.12732884801E+01	-1.52498721507E+02	1.41144270477E+01	1.65877980997E+02	-3.90170261521E+01	-9.71990548829E+00	-5.89780021992E+00	-1.28687529367E+00
2.27503055895E+06	-8.31397495738E+00	-1.49453139123E+02	1.41801684884E+01	1.65296126902E+02	-4.43707562691E+01	-2.72634846861E-01	-5.90690231037E+00	-1.16938464535E+00
2.29722191355E+06	-1.32345445707E+01	1.70689267574E+02	1.41225856221E+01	1.65857713676E+02	-4.06691072843E+01	-1.60020394571E+02	-5.84025992271E+00	-9.28991976791E-01
2.31941326814E+06	-1.57252194109E+01	-1.64926312922E+02	1.41590209666E+01	1.65748456478E+02	-4.89623940391E+01	-6.17582660455E+01	-5.88962242445E+00	-1.21979594775E+00
2.34160462274E+06	-1.02023113592E+01	-1.51233103892E+02	1.41335376986E+01	1.65020413013E+02	-3.41613803993E+01	-1.28210212150E+02	-5.90810638868E+00	-1.15448602052E+00
2.36379597733E+06	-1.25403446228E+01	-1.66558615142E+02	1.41421923533E+01	1.65267188009E+02	-5.05347355062E+01	-1.10071850593E+02	-5.87571843180E+00	-1.09270471781E+00
2.38598733193E+06	-1.27709987531E+01	1.76729501955E+02	1.41058116333E+01	1.65095852087E+02	-4.65231804617E+01	1.50834900980E+02	-5.88145470928E+00	-1.38885236850E+00
2.40817868652E+06	-1.08603416853E+01	-1.42095428003E+02	1.41763487382E+01	1.64586456821E+02	-4.55036386663E+01	-1.22136919429E+02	-5.88787074988E+00	-1.25690383216E+00
2.43037004112E+06	-1.55786758619E+01	-1.49235445939E+02	1.41611414428E+01	1.64800323959E+02	-4.39675405884E+01	-1.33763165099E+02	-5.87050479692E+00	-1.58377734260E+00
2.45256139571E+06	-1.16306510772E+01	-1.77375479980E+02	1.41017437250E+01	1.64643018181E+02	-7.45906531032E+01	-8.93615727482E+01	-5.89637434445E+00	-1.37074476527E+00
2.47475275031E+06	-1.29453960545E+01	-1.72948419971E+02	1.41551850815E+01	1.64759896054E+02	-4.99042441189E+01	-1.28664772121E+02	-5.87718238854E+00	-1.12643056252E+00
2.49694410490E+06	-1.05733155589E+01	-1.56715794260E+02	1.41510965290E+01	1.64193707408E+02	-4.03349287027E+01	-1.64790657518E+02	-5.88530761605E+00	-1.04909504671E+00
2.51913545950E+06	-1.12362510740E+01	-1.51238829035E+02	1.41579950046E+01	1.63979559314E+02	-4.88556597012E+01	9.21813475280E+01	-5.87022300283E+00	-1.52805699209E+00
2.54132681409E+06	-1.41226200588E+01	-1.64867959992E+02	1.41497760569E+01	1.64339338885E+02	-5.49907267839E+01	-4.96395015758E+01	-5.88320450840E+00	-1.30144051680E+00
2.56351816869E+06	-1.33482533058E+01	-1.68109401792E+02	1.41577630474E+01	1.63981298137E+02	-4.54574626365E+01	-1.15357139429E+02	-5.88477355626E+00	-1.16413293283E+00
2.58570952328E+06	-1.37747080531E+01	-1.22508026694E+02	1.41718989082E+01	1.63806931501E+02	-4.73332969805E+01	1.77992871193E+02	-5.85219749465E+00	-1.31345751551E+00
2.60790087788E+06	-1.30012771279E+01	-1.63351252118E+02	1.41195584609E+01	1.63869174773E+02	-4.05899072740E+01	-3.14619582373E+01	-5.93417832386E+00	-1.16570193144E+00
2.63009223247E+06	-1.20419648684E+01	-1.70624705490E+02	1.41565204273E+01	1.63417183123E+02	-3.88661741345E+01	-1.53244633481E+02	-5.84295334067E+00	-6.18016626319E-01
2.65228358707E+06	-1.20033770867E+01	-1.50292699292E+02	1.41884184674E+01	1.63233542121E+02	-4.29129359847E+01	8.91276956944E+01	-5.86099271126E+00	-1.50407272393E+00
2.67447494166E+06	-1.35935364301E+01	-1.64142111702E+02	1.41343406731E+01	1.63289454091E+02	-3.91575860107E+01	7.36129344988E+01	-5.88778747919E+00	-1.87901237525E+00
2.69666629626E+06	-1.40965310891E+01	-1.63314436274E+02	1.41656527581E+01	1.63089341344E+02	-3.96347921219E+01	-1.23702086973E+02	-5.84238437385E+00	-1.18684139248E+00
2.71885765085E+06	-1.38168041976E+01	-1.45394843129E+02	1.41710205217E+01	1.62782794756E+02	-4.02426575657E+01	-1.25049551950E+02	-5.83692545789E+00	-1.19489699206E+00
2.74104900545E+06	-1.15971966159E+01	-1.64812240542E+02	1.41413070809E+01	1.62704022553E+02	-4.33447793819E+01	1.40421258832E+02	-5.81547690836E+00	-1.56767675513E+00
2.76324036004E+06	-9.69338801637E+00	-1.69263940743E+02	1.41367265717E+01	1.62460885018E+02	-4.15615974146E+01	-1.00851305231E+02	-5.88512830455E+00	-1.07191282631E+00
2.78543171463E+06	-1.23335285482E+01	-1.63223409517E+02	1.41392919775E+01	1.62510602804E+02	-4.36674555733E+01	-1.68808704508E+02	-5.84499852968E+00	-1.42158431940E+00
2.80762306923E+06	-1.19548258819E+01	-1.45609799276E+02	1.41636153390E+01	1.62070978214E+02	-4.48211094906E+01	-1.12279532166E+02	-5.87534986883E+00	-1.27855766548E+00
2.82981442382E+06	-1.42402880811E+01	-1.38015194285E+02	1.42322256553E+01	1.62075215297E+02	-4.60136212547E+01	-9.80149678287E+01	-5.87222234892E+00	-1.27797963982E+00
2.85200577842E+06	-1.52580347705E+01	-1.72052495887E+02	1.41712248049E+01	1.62247668522E+02	-4.89509691276E+01	-2.27110155224E+01	-5.88337688490E+00	-1.65606995401E+00
2.87419713301E+06	-1.43572369979E+01	-1.71542977610E+02	1.41552438307E+01	1.61933780546E+02	-3.98633833052E+01	1.28967643863E+02	-5.80528339778E+00	-1.71032680562E+00
