# Hz S DB R 50
! CMT, M5065, 19127446, 24.2.4/2
! Date: 11/8/2024 5:12:34 PM
! Data: Format (Calibration Info)
! Freq	S11:dB/Ang(F2)	S21:dB/Ang(F2)	S12:dB/Ang(F2)	S22:dB/Ang(F2)
3.00000000000E+05	-1.06091200683E+01	-1.69372191938E+02	1.07822695973E+01	-1.77417969199E+02	-6.23521535651E+01	5.44330358835E+01	-5.85752271734E+00	-4.88686587774E-01
3.22191354595E+05	-1.19259011362E+01	1.76262954027E+02	1.07960421740E+01	-1.77843331293E+02	-4.11307191274E+01	1.71764861670E+02	-5.84037980085E+00	-2.38061617981E-01
3.44382709190E+05	-1.23826084272E+01	-1.72201181616E+02	1.08243027388E+01	-1.78250959703E+02	-4.32654273555E+01	-1.53207129788E+02	-5.85454814032E+00	-3.90139359258E-01
3.66574063785E+05	-1.32898442387E+01	-1.66348371246E+02	1.08226689209E+01	-1.78729722804E+02	-4.32697951910E+01	6.18114286955E+01	-5.88732730349E+00	-3.81549871754E-01
3.88765418380E+05	-1.26705787071E+01	-1.78634909036E+02	1.08475878672E+01	-1.79177341285E+02	-5.02053104568E+01	1.17969921537E+02	-5.88761272696E+00	-6.68290123563E-01
4.10956772975E+05	-1.48506069528E+01	1.67768509994E+02	1.08596043521E+01	-1.79055975761E+02	-3.86324203176E+01	1.04784394578E+01	-5.88797167755E+00	-2.98609573113E-01
4.33148127570E+05	-1.36303899888E+01	1.79228874675E+02	1.08210902880E+01	-1.79433086684E+02	-4.89860452819E+01	-1.69591858381E+02	-5.89990457848E+00	-2.36204090209E-01
4.55339482165E+05	-1.64457150602E+01	-1.79857084873E+02	1.08725948904E+01	-1.79627756672E+02	-3.81801712402E+01	8.18324948890E+01	-5.86379738849E+00	-3.96316764822E-01
4.77530836760E+05	-1.58546643434E+01	-1.74746958515E+02	1.08611486413E+01	-1.79944186241E+02	-4.93636921256E+01	-1.59325875241E+02	-5.86524347273E+00	-3.61690416819E-01
4.99722191355E+05	-1.29837136351E+01	1.72167687893E+02	1.08569852204E+01	1.79941422611E+02	-5.21587659647E+01	-1.11635071471E+02	-5.86118162800E+00	-3.85932682799E-01
5.21913545950E+05	-1.02594025946E+01	-1.72018596258E+02	1.08028704703E+01	1.79473163306E+02	-4.37536426571E+01	-1.58109423652E+02	-5.83970424556E+00	-1.28149385705E-01
5.44104900545E+05	-1.35495190554E+01	-1.70944050631E+02	1.08143955090E+01	1.79309707681E+02	-4.11127401201E+01	9.50994862270E+01	-5.84880869404E+00	-6.06652264620E-01
5.66296255139E+05	-1.41266683828E+01	-1.65245462307E+02	1.08517366299E+01	1.79038176181E+02	-3.82627756385E+01	8.27963196165E+00	-5.90301017894E+00	-3.63624780115E-01
5.88487609734E+05	-1.10500097650E+01	1.75181996103E+02	1.08124671091E+01	1.79108026590E+02	-4.02794842183E+01	-1.19784374207E+02	-5.84039985123E+00	-9.36895641147E-02
6.10678964329E+05	-7.27729776054E+00	-1.79093968038E+02	1.07674147435E+01	1.78774538421E+02	-5.14914690391E+01	-9.06570898945E+01	-5.85794663446E+00	1.56438216009E-01
6.32870318924E+05	-1.47664639323E+01	-1.73237253788E+02	1.08394292429E+01	1.78526741265E+02	-4.30513392837E+01	-4.15886683527E+01	-5.91388580112E+00	3.35510863500E-02
6.55061673519E+05	-1.44318901164E+01	-1.66723172809E+02	1.08739216864E+01	1.78196934820E+02	-6.92536294537E+01	-1.01216980206E+02	-5.89092397483E+00	-3.64227880753E-01
6.77253028114E+05	-1.82859519945E+01	-1.49027694913E+02	1.08944020285E+01	1.78231244941E+02	-4.33277480001E+01	6.37108716046E+01	-5.86046957976E+00	-8.37666069000E-01
6.99444382709E+05	-1.44405266610E+01	-1.78900246835E+02	1.08447090542E+01	1.78167043093E+02	-4.85635530091E+01	5.91463244994E+00	-5.86321573592E+00	-4.28715988369E-01
7.21635737304E+05	-1.22576578693E+01	-1.63435444812E+02	1.08434479788E+01	1.77826603201E+02	-4.05577566998E+01	-4.47827486727E+01	-5.88172080195E+00	-4.59148099570E-01
7.43827091899E+05	-1.44479768763E+01	-1.77824429293E+02	1.08672863820E+01	1.77599694025E+02	-4.60200327583E+01	5.48819191461E+01	-5.88063133340E+00	-5.80076132103E-01
7.66018446494E+05	-1.49323088914E+01	-1.67989599944E+02	1.08519835234E+01	1.77517836302E+02	-5.02099608223E+01	1.18754272759E+00	-5.86280664305E+00	-3.79820219096E-01
7.88209801089E+05	-1.20765102939E+01	1.74252828465E+02	1.08261999552E+01	1.77278208426E+02	-4.56049973319E+01	-8.24684202543E+01	-5.87837514318E+00	-3.71748227716E-01
8.10401155684E+05	-1.27447771655E+01	1.76019236485E+02	1.08284194428E+01	1.77265770862E+02	-4.96865805703E+01	-3.80926380784E+01	-5.87204585865E+00	-3.42639670724E-01
8.32592510279E+05	-1.28097662431E+01	-1.78392821339E+02	1.08582714462E+01	1.77036001658E+02	-4.88840232380E+01	7.97874585193E+01	-5.85335608655E+00	-5.53373103590E-01
8.54783864874E+05	-1.18060973830E+01	-1.55174674738E+02	1.08506734003E+01	1.76414379592E+02	-4.67046037662E+01	-4.85469668021E+01	-5.87009833719E+00	-4.80789045040E-01
8.76975219469E+05	-1.32782678016E+01	-1.73476723312E+02	1.08306929717E+01	1.76903303684E+02	-4.31794867726E+01	9.49352655196E+01	-5.86749435119E+00	-5.16393637427E-01
8.99166574064E+05	-1.07015314709E+01	-1.64708337251E+02	1.08087069874E+01	1.76649839199E+02	-5.03600812007E+01	6.28622169129E+01	-5.84921375541E+00	-6.94203990382E-01
9.21357928659E+05	-1.19738333227E+01	1.68371835311E+02	1.08380420014E+01	1.76363993888E+02	-6.21643252812E+01	1.26802016308E+02	-5.87898953880E+00	-5.43807032102E-01
9.43549283254E+05	-1.25611969223E+01	-1.50391728660E+02	1.08372283747E+01	1.76128237815E+02	-5.15120905692E+01	-7.92181543545E+01	-5.86180604344E+00	-4.35820897705E-01
9.65740637849E+05	-1.40773661770E+01	-1.78479807381E+02	1.08329246608E+01	1.76307295979E+02	-3.98199744012E+01	1.57010676554E+02	-5.83532213597E+00	-6.09150058140E-01
9.87931992444E+05	-1.45170119124E+01	-1.73743270325E+02	1.08616279963E+01	1.75872110665E+02	-4.33289548684E+01	9.27995035172E+01	-5.88007323536E+00	-5.66796631470E-01
1.01012334704E+06	-1.29478408497E+01	-1.70492735071E+02	1.08288199886E+01	1.75844526615E+02	-4.41964754542E+01	-5.03300877024E+01	-5.87114762188E+00	-4.91901279369E-01
1.03231470163E+06	-1.25091427824E+01	-1.65786745142E+02	1.08567433711E+01	1.75649840146E+02	-3.88182336804E+01	-2.95443680465E+01	-5.87789529637E+00	-6.29284238102E-01
1.05450605623E+06	-1.53358504629E+01	-1.57933572459E+02	1.08657246724E+01	1.75670027331E+02	-4.86397950570E+01	-1.52862297956E+02	-5.86285940921E+00	-6.08202618737E-01
1.07669741082E+06	-1.11013459027E+01	-1.71720167325E+02	1.07982272725E+01	1.75261699921E+02	-4.15943387564E+01	-3.12914777724E+01	-5.84668409841E+00	-4.00078149473E-01
1.09888876542E+06	-1.55825727721E+01	1.74059789511E+02	1.08522142597E+01	1.75618266420E+02	-4.58041935140E+01	-1.35748382199E+02	-5.85831596700E+00	-5.33398404070E-01
1.12108012001E+06	-1.29014945652E+01	-1.65598213611E+02	1.08463790503E+01	1.75090620700E+02	-5.39339915727E+01	-9.93561259765E+01	-5.87609981824E+00	-5.53700939369E-01
1.14327147461E+06	-1.36336864103E+01	-1.52958920135E+02	1.08801344413E+01	1.74862132023E+02	-5.03278899154E+01	1.39535837386E+02	-5.87882337676E+00	-5.77595663681E-01
1.16546282920E+06	-1.20084980289E+01	-1.74238298896E+02	1.08319144692E+01	1.74845235433E+02	-4.86582822321E+01	-8.47893111053E+01	-5.88332382234E+00	-4.92133248234E-01
1.18765418380E+06	-1.29816092746E+01	-1.69451533736E+02	1.08574619675E+01	1.74790142475E+02	-3.90774924684E+01	-1.21794944729E+02	-5.87417962890E+00	-5.33052590765E-01
1.20984553839E+06	-1.08010399559E+01	1.79782268553E+02	1.08043816706E+01	1.74697662027E+02	-4.18015406893E+01	1.23938296555E+02	-5.85657273519E+00	-7.62604043634E-01
1.23203689299E+06	-1.83728316440E+01	1.49928591087E+02	1.08681046799E+01	1.74896664024E+02	-5.96803327864E+01	-9.08570380315E+01	-5.86979964557E+00	-4.97740533548E-01
1.25422824758E+06	-1.17009818419E+01	-1.55297407946E+02	1.08429820664E+01	1.74244716624E+02	-4.96764847068E+01	5.90543566116E+01	-5.88990524877E+00	-7.74770353848E-01
1.27641960218E+06	-1.29952975991E+01	1.75876187894E+02	1.08298138298E+01	1.74441343520E+02	-4.77703788953E+01	5.22116613112E+01	-5.90024918240E+00	-6.75504116110E-01
1.29861095677E+06	-1.70748280609E+01	-1.45144616513E+02	1.08770548113E+01	1.73962507954E+02	-4.39525923449E+01	3.71043575059E+01	-5.88623737678E+00	-8.49950034125E-01
1.32080231137E+06	-1.18630426370E+01	1.66915444963E+02	1.08189714317E+01	1.74034098083E+02	-4.43309302780E+01	5.49724322265E+01	-5.85718930181E+00	-1.17531148324E+00
1.34299366596E+06	-1.44120186333E+01	-1.67365296798E+02	1.08360833118E+01	1.73682177351E+02	-5.31521855103E+01	6.42301048808E+01	-5.89808072639E+00	-8.68810871949E-01
1.36518502056E+06	-1.37744890113E+01	-1.75393831211E+02	1.08342771755E+01	1.73711001197E+02	-3.58201627106E+01	-3.83089023257E+01	-5.90592977284E+00	-7.28669466990E-01
1.38737637515E+06	-1.04212057902E+01	1.75963586596E+02	1.08122756546E+01	1.73495278485E+02	-4.32897562421E+01	8.52732476540E+01	-5.85690717783E+00	-8.28106553523E-01
1.40956772975E+06	-1.36994217862E+01	1.76865400326E+02	1.08482487530E+01	1.73695685975E+02	-4.39104353450E+01	1.41265677807E+02	-5.84403808078E+00	-9.00784165368E-01
1.43175908434E+06	-1.32016353698E+01	1.78692470820E+02	1.08357432247E+01	1.73488843809E+02	-4.07970546462E+01	5.22325878267E+01	-5.89304992415E+00	-7.98988280127E-01
1.45395043894E+06	-1.29021163955E+01	-1.66346158198E+02	1.08350810562E+01	1.73171142356E+02	-6.91758482371E+01	1.06771834248E+02	-5.87437238825E+00	-8.30741700234E-01
1.47614179353E+06	-1.20975185907E+01	-1.76315125920E+02	1.08470193795E+01	1.73169151636E+02	-4.06338828954E+01	-3.56375383154E+01	-5.88806395057E+00	-6.55445097075E-01
1.49833314813E+06	-1.22303102046E+01	-1.60073493853E+02	1.08359606884E+01	1.72884583821E+02	-4.44411520784E+01	1.16795006571E+02	-5.88438056986E+00	-1.00378584780E+00
1.52052450272E+06	-1.26282515040E+01	1.76534741734E+02	1.08220642637E+01	1.72936311232E+02	-4.73725666585E+01	-1.44620596150E+02	-5.87658794914E+00	-8.44492281691E-01
1.54271585732E+06	-1.40131410849E+01	1.79655988475E+02	1.08435554024E+01	1.72817377675E+02	-4.59099327376E+01	-6.50414474988E+01	-5.88378701836E+00	-7.61914915379E-01
1.56490721191E+06	-1.32027698313E+01	-1.65841222439E+02	1.08260813739E+01	1.72591589454E+02	-4.79968997978E+01	-1.09700778137E+02	-5.86632166821E+00	-8.03772907611E-01
1.58709856651E+06	-1.17914146109E+01	-1.67800504035E+02	1.08354176366E+01	1.72330852097E+02	-4.26738587810E+01	3.09573858768E+01	-5.89650081064E+00	-9.92669010268E-01
1.60928992110E+06	-1.63436056995E+01	-1.71288578197E+02	1.08479929236E+01	1.72598624521E+02	-4.79217238938E+01	-8.07190489880E+01	-5.88443771369E+00	-7.65235997430E-01
1.63148127570E+06	-1.21535378118E+01	-1.67616128546E+02	1.08589801085E+01	1.72120442246E+02	-4.96447325066E+01	-4.14150693647E+01	-5.86800510668E+00	-8.94970955479E-01
1.65367263029E+06	-1.29399531816E+01	-1.77668149169E+02	1.08283440074E+01	1.72081228087E+02	-4.74714557380E+01	-1.14652779557E+02	-5.87192765517E+00	-8.69143644725E-01
1.67586398489E+06	-1.10478035666E+01	-1.76769321199E+02	1.08115466162E+01	1.72064856429E+02	-5.27772376940E+01	1.76476783070E+02	-5.87530890338E+00	-9.31085608034E-01
1.69805533948E+06	-1.05155776347E+01	-1.38786901483E+02	1.08670125068E+01	1.71605249795E+02	-5.14861483392E+01	1.47014253104E+02	-5.87783362346E+00	-8.31824133584E-01
1.72024669408E+06	-1.19645942352E+01	1.75259207621E+02	1.08244585807E+01	1.71754335419E+02	-4.16572167687E+01	1.07486464806E+02	-5.85383402458E+00	-9.97664383216E-01
1.74243804867E+06	-1.20591317806E+01	-1.76413140774E+02	1.08135424158E+01	1.71764974736E+02	-4.46752586593E+01	1.63648714918E+02	-5.86816032365E+00	-9.81493819431E-01
1.76462940327E+06	-1.09342896937E+01	-1.70401179689E+02	1.08425034070E+01	1.71562558897E+02	-5.59564086054E+01	-1.62935218733E+01	-5.88542744964E+00	-8.23179124833E-01
1.78682075786E+06	-1.40160253739E+01	-1.59879049694E+02	1.08532379975E+01	1.71333114810E+02	-4.44768586713E+01	1.89242653893E+01	-5.88706584240E+00	-1.12565649082E+00
1.80901211246E+06	-1.42583866575E+01	-1.60039464694E+02	1.08734543691E+01	1.71246501658E+02	-4.02877924318E+01	3.73259166138E+01	-5.87197614469E+00	-1.11550492115E+00
1.83120346705E+06	-1.30192758228E+01	-1.75441149631E+02	1.08509219563E+01	1.71079268808E+02	-5.23496973594E+01	-5.33664057175E+01	-5.87963925189E+00	-1.06194335181E+00
1.85339482165E+06	-8.06598873837E+00	-1.73618178029E+02	1.08451973055E+01	1.70671548742E+02	-4.43929770687E+01	1.35568878960E+02	-5.87561975289E+00	-9.33164187383E-01
1.87558617624E+06	-1.02299276603E+01	1.57171084762E+02	1.07917049547E+01	1.70939219817E+02	-4.83444708170E+01	1.70341155158E+02	-5.85358917275E+00	-1.06762850426E+00
1.89777753084E+06	-1.37898120507E+01	-1.69970691811E+02	1.08441771843E+01	1.70620470588E+02	-4.45158261342E+01	2.78522213359E+01	-5.87062410824E+00	-1.13165365306E+00
1.91996888543E+06	-1.46048005651E+01	-1.57798258222E+02	1.08752183420E+01	1.70574076896E+02	-4.22837360373E+01	-3.63733261815E+01	-5.91151378329E+00	-1.07541260815E+00
1.94216024003E+06	-1.34942625631E+01	-1.60051419142E+02	1.08466538680E+01	1.70417191366E+02	-4.63787871442E+01	6.86939202636E+01	-5.87052594122E+00	-1.00211214175E+00
1.96435159462E+06	-1.11972150394E+01	-1.59136352680E+02	1.08293625264E+01	1.70241240311E+02	-4.00208480499E+01	-9.04877324412E+01	-5.88865090321E+00	-8.22669201923E-01
1.98654294922E+06	-1.09332683809E+01	-1.59763007225E+02	1.08514095127E+01	1.70058560011E+02	-2.91770466111E+01	-8.08658756543E+01	-5.94798672817E+00	-8.25491330353E-01
2.00873430381E+06	-1.44642472384E+01	1.51957811736E+02	1.08453296795E+01	1.70421741107E+02	-4.04255631947E+01	-4.39691164992E+01	-5.89978026570E+00	-9.51372046605E-01
2.03092565841E+06	-1.28448429609E+01	1.78712693311E+02	1.08383849949E+01	1.70213510353E+02	-5.65572680429E+01	6.34034921688E+01	-5.86991651985E+00	-1.08523878824E+00
2.05311701300E+06	-1.32483659801E+01	-1.69643975537E+02	1.08439244768E+01	1.69980425955E+02	-5.74972588070E+01	-2.90437810362E+01	-5.87259248361E+00	-1.05590992938E+00
2.07530836760E+06	-1.50105699961E+01	-1.57662547699E+02	1.09233892194E+01	1.69857312704E+02	-4.11060366455E+01	-3.30771705598E+01	-5.90283408111E+00	-1.07753842263E+00
2.09749972219E+06	-1.02566672662E+01	-1.68977898723E+02	1.08314385033E+01	1.69570218941E+02	-4.05063296001E+01	2.96866930024E+01	-5.90136363842E+00	-1.25160411762E+00
2.11969107679E+06	-1.43854552638E+01	-1.71522216164E+02	1.08415658892E+01	1.69605973651E+02	-4.35265362352E+01	1.08817373436E+02	-5.85403527029E+00	-1.25887679859E+00
2.14188243138E+06	-1.26774757208E+01	1.79001290030E+02	1.08557335209E+01	1.69513670538E+02	-4.56583185088E+01	1.57083782611E+02	-5.87704349421E+00	-9.63844341182E-01
2.16407378598E+06	-1.15352115190E+01	-1.74469854650E+02	1.08310136963E+01	1.69208542340E+02	-4.26536862155E+01	-2.45396423062E+01	-5.89924582549E+00	-1.01221178339E+00
2.18626514057E+06	-1.47813119974E+01	-1.73150699350E+02	1.09047392162E+01	1.68953349403E+02	-4.57768113821E+01	1.56237309197E+02	-5.86718867112E+00	-1.15627135263E+00
2.20845649517E+06	-1.30277929667E+01	1.73520120053E+02	1.08494342198E+01	1.69230391127E+02	-4.25947760780E+01	-1.68855172156E+01	-5.88897825943E+00	-1.34239900816E+00
2.23064784976E+06	-1.18253702154E+01	1.79607205571E+02	1.08411067618E+01	1.68963886163E+02	-4.83120063543E+01	-1.75722333229E+02	-5.89248358317E+00	-1.03149549591E+00
2.25283920436E+06	-1.63490206892E+01	-1.45578841021E+02	1.08806016285E+01	1.68898572055E+02	-3.98151626284E+01	-1.65394850727E+02	-5.85376755488E+00	-9.91145017486E-01
2.27503055895E+06	-1.19471916969E+01	-1.73030507839E+02	1.08355254143E+01	1.68914942804E+02	-3.73584164789E+01	-1.60335246843E+02	-5.87465867128E+00	-9.65513285210E-01
2.29722191355E+06	-1.23889363033E+01	-1.57836210646E+02	1.09224717215E+01	1.68470173819E+02	-3.26754298187E+01	-1.11500218222E+02	-5.91505732041E+00	-9.19785685864E-01
2.31941326814E+06	-1.28880203294E+01	-1.68556829621E+02	1.08553181487E+01	1.68469506554E+02	-5.18052420093E+01	-6.72487511942E+01	-5.86787259511E+00	-1.23876489061E+00
2.34160462274E+06	-8.94290179557E+00	-1.56977736554E+02	1.08872904841E+01	1.68271561079E+02	-4.53351534786E+01	-6.49618211061E+01	-5.88843799514E+00	-1.08621152583E+00
2.36379597733E+06	-1.21078013817E+01	-1.79504897628E+02	1.08287057179E+01	1.68281201621E+02	-4.52650132483E+01	-1.08697099696E+00	-5.87787024909E+00	-1.18407323590E+00
2.38598733193E+06	-1.36547704524E+01	-1.72045829058E+02	1.08590473139E+01	1.68219807157E+02	-3.76795188063E+01	8.00700921155E+01	-5.85565999407E+00	-1.38850274960E+00
2.40817868652E+06	-1.48865424479E+01	1.74403368274E+02	1.08712927448E+01	1.68123122137E+02	-4.17155866465E+01	-1.14783902792E+00	-5.89381418038E+00	-1.50622398062E+00
2.43037004112E+06	-1.30133941350E+01	-1.51222163086E+02	1.09114974220E+01	1.67584264776E+02	-3.59338446071E+01	1.53167325961E+02	-5.83613631980E+00	-1.64107979721E+00
2.45256139571E+06	-1.38443583516E+01	1.73084743847E+02	1.08757037648E+01	1.68077607926E+02	-3.05004604770E+01	1.48065881238E+02	-5.79700723856E+00	-9.89350452652E-01
2.47475275031E+06	-1.03924038711E+01	-1.69483409701E+02	1.08429824984E+01	1.67541400352E+02	-4.19047146581E+01	-1.99681222576E+00	-5.90231317784E+00	-1.17496603152E+00
2.49694410490E+06	-6.78223000323E+00	1.70138606944E+02	1.07901270236E+01	1.67181192261E+02	-5.59217801398E+01	3.64067637534E+01	-5.90956815108E+00	-1.38716257137E+00
2.51913545950E+06	-1.30990954059E+01	-1.47075205108E+02	1.08886690519E+01	1.67286092805E+02	-5.34117518773E+01	-7.34594972520E-01	-5.90352073180E+00	-1.35640140665E+00
2.54132681409E+06	-1.33321422824E+01	1.77655059835E+02	1.08426320674E+01	1.67451073713E+02	-3.97704335263E+01	1.36813898952E+02	-5.83452421603E+00	-1.30142647475E+00
2.56351816869E+06	-1.36644492645E+01	-1.70890230390E+02	1.08593714435E+01	1.67225786897E+02	-4.10245905863E+01	8.46449021882E+01	-5.87900813942E+00	-1.40259969016E+00
2.58570952328E+06	-1.21450069145E+01	-1.63332327517E+02	1.08729447325E+01	1.66964242380E+02	-4.66970014173E+01	-1.74155223924E+02	-5.88401656861E+00	-1.29407123636E+00
2.60790087788E+06	-1.37931946414E+01	-1.55864919762E+02	1.09092338238E+01	1.66825174228E+02	-3.55348138162E+01	7.80673826350E+01	-5.85394078573E+00	-1.41022524447E+00
2.63009223247E+06	-1.18352164680E+01	1.66819292298E+02	1.08198212861E+01	1.67036719332E+02	-4.78191998342E+01	1.67038906381E+02	-5.85637396719E+00	-1.01369826166E+00
2.65228358707E+06	-7.97545464695E+00	-1.61218623084E+02	1.09098806829E+01	1.66170488016E+02	-4.68528446561E+01	-1.40795420951E+02	-5.88940550779E+00	-1.29015155568E+00
2.67447494166E+06	-1.39760499568E+01	-1.58856334439E+02	1.09119691484E+01	1.66818474812E+02	-4.41394139921E+01	-4.13780204181E+01	-5.88258505913E+00	-1.33002165001E+00
2.69666629626E+06	-1.42393307887E+01	-1.44613690199E+02	1.09173758324E+01	1.66378509509E+02	-3.86444666417E+01	-2.95394717230E+01	-5.91656404724E+00	-1.56951375574E+00
2.71885765085E+06	-1.36427814101E+01	-1.52463411587E+02	1.09076842377E+01	1.66339255811E+02	-4.89583431033E+01	5.39145476468E+01	-5.88086920150E+00	-1.55483849344E+00
2.74104900545E+06	-1.30054007975E+01	-1.45040390317E+02	1.09275032045E+01	1.66236934662E+02	-3.98392895211E+01	1.60025081762E+02	-5.83612900336E+00	-1.20307458548E+00
2.76324036004E+06	-1.17213595314E+01	1.78045010870E+02	1.08553085075E+01	1.66259266907E+02	-4.72854653537E+01	-6.19764904841E+01	-5.88098095319E+00	-1.26332375808E+00
2.78543171463E+06	-1.15271989572E+01	-1.74282350330E+02	1.08726797800E+01	1.66032047237E+02	-4.80055713450E+01	1.39647490195E+01	-5.87956647374E+00	-1.49661925139E+00
2.80762306923E+06	-1.21619404254E+01	-1.72064557997E+02	1.08690778452E+01	1.65857745029E+02	-4.63837245106E+01	1.46163865709E+02	-5.88510770737E+00	-1.44831095444E+00
2.82981442382E+06	-1.17817254499E+01	-1.65425362699E+02	1.08783761170E+01	1.65850249863E+02	-4.44258391811E+01	1.07940138085E+02	-5.87465433500E+00	-1.54270417713E+00
2.85200577842E+06	-1.26354576647E+01	-1.66794253365E+02	1.08977618421E+01	1.65598539808E+02	-4.16278158706E+01	4.96909376897E+01	-5.90162958555E+00	-1.69552945370E+00
2.87419713301E+06	-1.32833612073E+01	-1.49376544891E+02	1.09018233508E+01	1.65455008608E+02	-5.28076329702E+01	-1.07441345455E+02	-5.89255017944E+00	-1.51986146571E+00
