# Hz S DB R 50
! CMT, M5065, 19127446, 24.2.4/2
! Date: 11/8/2024 4:54:46 PM
! Data: Format (Calibration Info)
! Freq	S11:dB/Ang(F2)	S21:dB/Ang(F2)	S12:dB/Ang(F2)	S22:dB/Ang(F2)
3.00000000000E+05	-1.43707479346E+01	-1.65096714523E+02	6.06862050938E+00	-1.77432257188E+02	-3.89162614505E+01	-1.08886342015E+02	-5.86657829944E+00	-2.30978389008E-01
3.22191354595E+05	-1.40513072274E+01	1.50642254521E+02	6.09014245454E+00	-1.77845945663E+02	-4.26451159942E+01	8.79610927266E+01	-5.84728051201E+00	-3.54101281344E-01
3.44382709190E+05	-1.27461307686E+01	-1.52434905006E+02	6.10409034019E+00	-1.78214419710E+02	-4.38949516515E+01	-4.76716379402E+01	-5.88757605048E+00	-3.65445169313E-01
3.66574063785E+05	-1.54717682855E+01	-1.74161656796E+02	6.08334490181E+00	-1.78469273860E+02	-4.50012165547E+01	-5.69266802455E+01	-5.87945575591E+00	-3.84938212418E-01
3.88765418380E+05	-1.72814666063E+01	1.72131324046E+02	6.18807980208E+00	-1.79397406324E+02	-4.31168929317E+01	1.22688976854E+01	-5.91678847051E+00	-4.57648271935E-01
4.10956772975E+05	-1.80335163844E+01	-1.79803605096E+02	6.12971437039E+00	-1.78819922355E+02	-4.53150357613E+01	1.44188312571E+02	-5.86593652946E+00	-3.89036765505E-01
4.33148127570E+05	-1.46953050632E+01	-1.62610304847E+02	6.12754123811E+00	-1.79185559933E+02	-4.04327451976E+01	1.71210846475E+02	-5.84793235200E+00	-2.51197626337E-01
4.55339482165E+05	-1.89559188874E+01	1.78605306461E+02	6.10228028963E+00	-1.79514309620E+02	-4.52919233475E+01	-3.51213279373E+01	-5.87012788692E+00	-2.84022917020E-01
4.77530836760E+05	-1.73757246755E+01	1.64425833594E+02	6.12250968262E+00	-1.79573722139E+02	-4.63277232239E+01	-6.85310622941E+01	-5.88045328827E+00	-2.13006092518E-01
4.99722191355E+05	-1.25700784203E+01	-1.71535971304E+02	6.13999494429E+00	-1.79843751688E+02	-4.65677878822E+01	-5.03158487940E+00	-5.87310099172E+00	-3.91032146749E-01
5.21913545950E+05	-1.27131213278E+01	-1.52807376747E+02	6.12235148158E+00	1.79909886801E+02	-4.11352855024E+01	6.60680931333E+01	-5.86963261673E+00	-4.45825611885E-01
5.44104900545E+05	-1.76158967824E+01	-1.48065196743E+02	6.12459640383E+00	1.79797173392E+02	-3.76548168366E+01	-7.28305114544E+01	-5.87966241318E+00	-2.61164203853E-01
5.66296255139E+05	-1.23805528089E+01	-1.61308265955E+02	6.08556036487E+00	1.79473744216E+02	-4.52142745858E+01	1.69498858989E+02	-5.87397199551E+00	-2.19636606359E-01
5.88487609734E+05	-1.48987743069E+01	1.79473991983E+02	6.11508107759E+00	1.79475974247E+02	-5.58161742873E+01	1.40289435519E+02	-5.87297268904E+00	-4.14476813322E-01
6.10678964329E+05	-1.52416628304E+01	1.78662133851E+02	6.18028833725E+00	1.79329897379E+02	-4.35976658337E+01	-9.80270604293E+01	-5.83701700788E+00	2.20792075320E-01
6.32870318924E+05	-1.50751258974E+01	-1.77534950645E+02	6.10002953317E+00	1.79070496625E+02	-4.32754829753E+01	1.16220849830E+02	-5.85637819676E+00	-2.03465455258E-01
6.55061673519E+05	-1.52594994762E+01	1.79392624853E+02	6.10083871706E+00	1.78704819924E+02	-4.41540177663E+01	-3.21223972866E+01	-5.87225731921E+00	-2.68580834885E-01
6.77253028114E+05	-1.39010174560E+01	1.68159268312E+02	6.12193106661E+00	1.78861133762E+02	-5.48266695876E+01	6.23266521901E+01	-5.86688972078E+00	-7.01158953126E-01
6.99444382709E+05	-1.04163910876E+01	-1.65171022485E+02	6.04891987167E+00	1.78403694328E+02	-3.90091102046E+01	-9.04445480270E+01	-5.85743498316E+00	-2.89329810860E-01
7.21635737304E+05	-1.51286306886E+01	1.62527662503E+02	6.14130518152E+00	1.78826615384E+02	-4.42688558760E+01	1.74486709949E+02	-5.85703907325E+00	-4.42488061216E-01
7.43827091899E+05	-1.29745813605E+01	-1.77529098050E+02	6.11785966594E+00	1.78536423407E+02	-4.62076888644E+01	7.49238855437E+00	-5.87547218505E+00	-2.13790935220E-01
7.66018446494E+05	-1.45461361663E+01	-1.64925170881E+02	6.14235993800E+00	1.78308088820E+02	-4.34113331704E+01	-4.18108696585E+01	-5.87363869501E+00	-4.88917069528E-01
7.88209801089E+05	-1.48724859894E+01	-1.78257171919E+02	6.16344541844E+00	1.78193653466E+02	-4.79556518313E+01	1.50228653442E+02	-5.83840086392E+00	-6.12771186074E-01
8.10401155684E+05	-1.35520364990E+01	-1.61663863668E+02	6.09335084503E+00	1.77820814184E+02	-4.17452009520E+01	-7.28292648751E+01	-5.90114632822E+00	-2.70013583108E-01
8.32592510279E+05	-1.28737092531E+01	1.73053160739E+02	6.09603931388E+00	1.78181859464E+02	-5.31707243445E+01	1.77127709918E+02	-5.85511798431E+00	-5.19320742020E-01
8.54783864874E+05	-9.79259382064E+00	-1.58899917316E+02	6.07188254042E+00	1.77687736101E+02	-4.76604140811E+01	-9.26239259004E+01	-5.88587948921E+00	-3.41281354599E-01
8.76975219469E+05	-1.10973905449E+01	-1.74738929579E+02	6.08966915102E+00	1.77486606008E+02	-5.53163787406E+01	8.91508975885E+01	-5.86123424804E+00	-4.74625319601E-01
8.99166574064E+05	-1.76689465375E+01	-1.70640614194E+02	6.13669473664E+00	1.78005708642E+02	-4.02801152647E+01	1.31218242176E+02	-5.86282594075E+00	-4.90272397769E-01
9.21357928659E+05	-1.30771378663E+01	-1.64082708984E+02	6.12574652849E+00	1.77142568560E+02	-4.55012584245E+01	-9.06397457464E+01	-5.86735867325E+00	-4.28718064117E-01
9.43549283254E+05	-1.61187511307E+01	-1.70756951624E+02	6.18247655210E+00	1.77214087082E+02	-5.24564020417E+01	4.11506371272E+01	-5.86327947220E+00	-4.09150061208E-01
9.65740637849E+05	-1.48279154554E+01	-1.73204224603E+02	6.14323394355E+00	1.77148537023E+02	-5.78097789104E+01	-7.11026919330E+01	-5.87246536990E+00	-5.56965750715E-01
9.87931992444E+05	-1.31324284691E+01	-1.72929017896E+02	6.09618056055E+00	1.77084119319E+02	-4.18146031278E+01	2.05783208558E+01	-5.88127448237E+00	-5.43704931495E-01
1.01012334704E+06	-1.89933122670E+01	-1.51416014201E+02	6.11343402812E+00	1.76913168154E+02	-4.49018665443E+01	-5.57037619561E+01	-5.87953115271E+00	-4.28325811325E-01
1.03231470163E+06	-1.35170082386E+01	-1.66071009014E+02	6.10131690165E+00	1.76925393926E+02	-4.05018634090E+01	1.98709386305E+01	-5.87317722411E+00	-6.00308358679E-01
1.05450605623E+06	-1.42088608060E+01	-1.56684702767E+02	6.10238209530E+00	1.76844984305E+02	-4.22272792518E+01	6.18831976886E+01	-5.86833298318E+00	-6.86807705717E-01
1.07669741082E+06	-1.38549310743E+01	1.70394826720E+02	6.09783650254E+00	1.76545890724E+02	-5.53107666480E+01	-6.88441879822E+01	-5.86029279286E+00	-5.97988114779E-01
1.09888876542E+06	-1.15403169293E+01	-1.69324559221E+02	6.12631027986E+00	1.76778725196E+02	-4.95348778650E+01	-1.44648368498E+02	-5.87652606247E+00	-5.90489214546E-01
1.12108012001E+06	-1.31874171464E+01	-1.73894754286E+02	6.08379676245E+00	1.76383347175E+02	-5.36184398548E+01	1.40325121570E+02	-5.86808715412E+00	-5.61985462128E-01
1.14327147461E+06	-2.14283354613E+01	1.66473126138E+02	6.18868686052E+00	1.76382122124E+02	-4.53931083663E+01	-7.30451398909E+01	-5.87817187504E+00	-5.56202500285E-01
1.16546282920E+06	-1.37746961279E+01	-1.61813674904E+02	6.14728488888E+00	1.76449140688E+02	-4.00484320015E+01	-1.68784368237E+02	-5.84341938348E+00	-6.25978066127E-01
1.18765418380E+06	-1.37248623862E+01	-1.68931252702E+02	6.15663620624E+00	1.76190276862E+02	-4.45447373414E+01	8.67771077327E+01	-5.85604478027E+00	-7.98291828561E-01
1.20984553839E+06	-1.15015562816E+01	-1.69676871016E+02	6.09897712276E+00	1.75660047648E+02	-5.32479713900E+01	-1.24779196972E+01	-5.87285571151E+00	-8.44363849893E-01
1.23203689299E+06	-1.36202499456E+01	-1.65985401080E+02	6.10418464826E+00	1.75929989502E+02	-4.00880791620E+01	-1.16287451159E+02	-5.86636785007E+00	-3.27790233688E-01
1.25422824758E+06	-1.17715388064E+01	-1.67692968745E+02	6.11354238928E+00	1.75580430401E+02	-4.56778725250E+01	-1.71854527173E+02	-5.88084838651E+00	-5.20973241925E-01
1.27641960218E+06	-1.71085436215E+01	-1.71474989938E+02	6.12451864818E+00	1.75797161812E+02	-4.72201064369E+01	1.15206643335E+02	-5.86769423235E+00	-7.44187416063E-01
1.29861095677E+06	-1.34048396568E+01	-1.64131514293E+02	6.10830033347E+00	1.75577138554E+02	-4.97364920245E+01	1.40437032249E+02	-5.89873273011E+00	-7.58040356089E-01
1.32080231137E+06	-2.16589321577E+01	1.25149792333E+02	6.11678894424E+00	1.75920032514E+02	-4.74217814337E+01	-1.34630433124E+02	-5.85659663747E+00	-1.00948969256E+00
1.34299366596E+06	-1.72326304052E+01	-1.78015213711E+02	6.13480644771E+00	1.75523291440E+02	-4.50856622230E+01	-1.68275124727E+02	-5.85907911165E+00	-8.25516496197E-01
1.36518502056E+06	-1.33821188338E+01	1.78586900653E+02	6.14023631087E+00	1.75682709639E+02	-5.35505411167E+01	7.07060920144E+01	-5.87586493982E+00	-7.66424322620E-01
1.38737637515E+06	-1.36309122461E+01	-1.64144493449E+02	6.13385823526E+00	1.75318395543E+02	-6.43781101924E+01	1.04538680146E+02	-5.87011758656E+00	-7.22637151271E-01
1.40956772975E+06	-1.39640219082E+01	-1.48093889107E+02	6.13272158919E+00	1.74918922327E+02	-5.66761243799E+01	1.06549860523E+02	-5.88572263983E+00	-7.66947189766E-01
1.43175908434E+06	-1.34885379494E+01	-1.61515221020E+02	6.14106210402E+00	1.74979687484E+02	-4.00976600773E+01	1.40000743585E+02	-5.87965158317E+00	-8.11814474032E-01
1.45395043894E+06	-1.30164864142E+01	1.72266357682E+02	6.10295106831E+00	1.74931336950E+02	-4.17121874562E+01	-1.58177627701E+01	-5.88646455050E+00	-8.13760718553E-01
1.47614179353E+06	-1.20154217562E+01	1.63657088368E+02	6.08132285648E+00	1.74868689819E+02	-4.30719063830E+01	-1.53287375270E+02	-5.86981858759E+00	-5.80570139650E-01
1.49833314813E+06	-1.32169842222E+01	-1.70702926711E+02	6.12184373421E+00	1.74802369925E+02	-4.69686852214E+01	-1.23458676911E+02	-5.86338262995E+00	-7.98215178752E-01
1.52052450272E+06	-1.53113320609E+01	-1.39630936873E+02	6.22031956721E+00	1.74690398516E+02	-4.02316370059E+01	1.67096948656E+02	-5.85392823430E+00	-6.91521308271E-01
1.54271585732E+06	-1.25064000040E+01	-1.66940543845E+02	6.15181608705E+00	1.74382504246E+02	-4.86523975126E+01	-1.09325275454E+02	-5.85874689603E+00	-7.10901793428E-01
1.56490721191E+06	-1.55567640898E+01	-1.43833705735E+02	6.19421064732E+00	1.74201380820E+02	-4.24073251306E+01	3.70127565605E+00	-5.89272792886E+00	-8.81729219472E-01
1.58709856651E+06	-1.32867098837E+01	-1.76935771771E+02	6.13112964654E+00	1.74438894089E+02	-4.97728071012E+01	1.71421230420E+02	-5.86417062687E+00	-9.08475803746E-01
1.60928992110E+06	-1.21214552925E+01	-1.63924529246E+02	6.12976132125E+00	1.74178525197E+02	-4.44159602529E+01	-6.57320754856E+01	-5.84470435034E+00	-7.93611631510E-01
1.63148127570E+06	-1.23117741781E+01	1.71126302450E+02	6.14354527216E+00	1.74380654742E+02	-3.52648013811E+01	-6.13243782308E+01	-5.87651663999E+00	-9.10556918697E-01
1.65367263029E+06	-1.32220776331E+01	-1.63784336264E+02	6.09971877829E+00	1.74039636395E+02	-3.81375229612E+01	1.46281844758E+02	-5.84408544020E+00	-8.12230952798E-01
1.67586398489E+06	-1.60200524023E+01	-1.57072525763E+02	6.13978225381E+00	1.73867845238E+02	-4.54038316648E+01	-2.71795354677E+01	-5.86422163685E+00	-9.81021298753E-01
1.69805533948E+06	-1.61160638937E+01	-1.79862365342E+02	6.11954199460E+00	1.73955410736E+02	-5.11937499308E+01	-5.60050854260E+01	-5.85228949490E+00	-8.22090085430E-01
1.72024669408E+06	-1.41385445988E+01	-1.76603469712E+02	6.14742375262E+00	1.73724524702E+02	-4.44512087285E+01	1.56746832218E+01	-5.86975544838E+00	-8.92585687230E-01
1.74243804867E+06	-1.33629821412E+01	-1.69068031178E+02	6.14331891908E+00	1.73664085246E+02	-5.29456999684E+01	-9.58181649354E+00	-5.86994344538E+00	-1.01306915871E+00
1.76462940327E+06	-1.44023952801E+01	-1.62219694905E+02	6.16366404196E+00	1.73466621324E+02	-3.79833186099E+01	-1.54134451111E+02	-5.84922490165E+00	-8.17666619518E-01
1.78682075786E+06	-7.85280220073E+00	-1.47401384898E+02	6.18121892414E+00	1.72845496650E+02	-4.63896698851E+01	-1.54691299892E+02	-5.87504777790E+00	-1.10345803025E+00
1.80901211246E+06	-1.63621459523E+01	-1.42758848404E+02	6.16400855306E+00	1.73124565835E+02	-3.74944572914E+01	-1.36881348134E+02	-5.86861399030E+00	-8.22104495658E-01
1.83120346705E+06	-1.52228548235E+01	-1.66829142603E+02	6.16030675460E+00	1.73378110263E+02	-5.83285885883E+01	-1.68192305429E+02	-5.86316680793E+00	-8.84317504869E-01
1.85339482165E+06	-1.49679001321E+01	-1.67698982394E+02	6.13779058573E+00	1.73184732951E+02	-4.34711934595E+01	-1.54146604861E+02	-5.87064140048E+00	-1.03050662685E+00
1.87558617624E+06	-1.43691135808E+01	-1.65904660169E+02	6.11165233825E+00	1.73210786478E+02	-4.64522594490E+01	-1.59460607246E+02	-5.86413001244E+00	-9.90454975820E-01
1.89777753084E+06	-1.58277567525E+01	-1.69641545639E+02	6.13821959997E+00	1.73233984810E+02	-5.35087505868E+01	1.54458550004E+02	-5.86732282366E+00	-8.98091331707E-01
1.91996888543E+06	-1.48983250729E+01	-1.76965165488E+02	6.14110664339E+00	1.72970341928E+02	-4.15554388590E+01	1.79365918404E+02	-5.88114460833E+00	-9.33327182191E-01
1.94216024003E+06	-1.81188652079E+01	-1.66584477640E+02	6.14971551147E+00	1.72839163755E+02	-3.27646878374E+01	3.46375761530E+01	-5.89394718621E+00	-1.12873211319E+00
1.96435159462E+06	-2.01936667980E+01	1.72266176393E+02	6.17590110961E+00	1.72694907655E+02	-4.36522932361E+01	-1.72986385549E+02	-5.87145838824E+00	-8.82423912638E-01
1.98654294922E+06	-1.10842131686E+01	-1.74195507391E+02	6.13060301153E+00	1.72596937733E+02	-4.87163238436E+01	8.25473291684E+01	-5.87746044786E+00	-1.08692199980E+00
2.00873430381E+06	-1.45771708718E+01	-1.66544574374E+02	6.19200057850E+00	1.72624042991E+02	-4.33380194045E+01	9.32881179469E+01	-5.87871272421E+00	-1.20503564828E+00
2.03092565841E+06	-1.55445719499E+01	-1.78695501167E+02	6.18055226905E+00	1.72486887060E+02	-4.33448309479E+01	8.40328998608E+01	-5.85902261709E+00	-1.03101959835E+00
2.05311701300E+06	-1.28071509888E+01	-1.58235923837E+02	6.12866754454E+00	1.71842392313E+02	-4.40138029673E+01	-1.08624246395E+02	-5.85830277537E+00	-9.53224174027E-01
2.07530836760E+06	-1.48574158304E+01	-1.54630162561E+02	6.12024786178E+00	1.72210407745E+02	-4.09673741180E+01	8.61001279988E+01	-5.87693053114E+00	-1.18889166741E+00
2.09749972219E+06	-1.42234341654E+01	-1.47833725392E+02	6.17659419742E+00	1.72326092971E+02	-4.20715015973E+01	1.18268791550E+02	-5.84456499359E+00	-1.05920030104E+00
2.11969107679E+06	-1.51147053064E+01	-1.66514009116E+02	6.15979526517E+00	1.72062090556E+02	-4.41268062915E+01	-3.07892757273E+01	-5.86088784270E+00	-1.01815341762E+00
2.14188243138E+06	-1.33051094837E+01	-1.57077838945E+02	6.15319863600E+00	1.71668509862E+02	-5.15697971067E+01	4.97611222048E+01	-5.87376844647E+00	-1.00598418583E+00
2.16407378598E+06	-1.32850432073E+01	-1.65695139330E+02	6.12799037560E+00	1.71822576925E+02	-4.70922942094E+01	9.71760163173E+01	-5.88299007641E+00	-1.16861776119E+00
2.18626514057E+06	-1.26424332741E+01	-1.78492463284E+02	6.16212483627E+00	1.71666602604E+02	-5.81407220380E+01	-9.40402386821E+01	-5.85253385766E+00	-1.10302923513E+00
2.20845649517E+06	-1.17846391477E+01	-1.67293357508E+02	6.12897259170E+00	1.71528348957E+02	-4.96818633020E+01	1.36099136050E+02	-5.85734343336E+00	-1.17335422848E+00
2.23064784976E+06	-1.79437064290E+01	-1.60886674683E+02	6.19735038275E+00	1.71475537477E+02	-5.26329344582E+01	-2.09808137322E+01	-5.88380778806E+00	-1.08912178185E+00
2.25283920436E+06	-9.74173226754E+00	-1.39806390611E+02	6.23836543839E+00	1.71528050165E+02	-3.79460117531E+01	3.56264682369E+01	-5.89010396724E+00	-1.33817734781E+00
2.27503055895E+06	-1.64187809759E+01	-1.18711957856E+02	6.20130952989E+00	1.71486125478E+02	-3.67422994428E+01	2.36722984682E+01	-5.83657485902E+00	-1.27868484792E+00
2.29722191355E+06	-1.33531727715E+01	-1.73712595489E+02	6.16214244384E+00	1.71612192122E+02	-4.84386759123E+01	1.07236138849E+02	-5.84009435372E+00	-1.24339886547E+00
2.31941326814E+06	-1.35167097672E+01	-1.61131886194E+02	6.18146090815E+00	1.71416198435E+02	-4.54268779405E+01	7.43574792633E+01	-5.86743020291E+00	-1.33799897951E+00
2.34160462274E+06	-1.43202657675E+01	1.72305616836E+02	6.15954723804E+00	1.71113812715E+02	-6.40901321025E+01	1.46894110267E+02	-5.86195911227E+00	-1.19737775550E+00
2.36379597733E+06	-1.55594361825E+01	-1.47498336729E+02	6.17785902407E+00	1.71173716229E+02	-4.74607111234E+01	-5.05635241622E+00	-5.86210500676E+00	-1.20152897531E+00
2.38598733193E+06	-1.27143020754E+01	-1.66633061476E+02	6.18746084856E+00	1.70945948242E+02	-5.97570388432E+01	-3.43876433267E+01	-5.87886840908E+00	-1.18953129786E+00
2.40817868652E+06	-1.61164157892E+01	-1.68639291287E+02	6.15569816413E+00	1.71170099626E+02	-4.43301914401E+01	-1.52022076431E+02	-5.87505498114E+00	-1.13679593667E+00
2.43037004112E+06	-1.01665848885E+01	-1.31248752629E+02	6.22679270589E+00	1.70632934375E+02	-3.07978781600E+01	-8.25737580528E+01	-5.90885568516E+00	-1.50375419039E+00
2.45256139571E+06	-1.35019831415E+01	-1.71680725740E+02	6.17503268465E+00	1.70854242837E+02	-4.95481157085E+01	-1.00661411901E+02	-5.87034558098E+00	-1.33430594154E+00
2.47475275031E+06	-1.58147174872E+01	-1.68220578309E+02	6.18048384050E+00	1.70589922187E+02	-4.28593524145E+01	-5.68372922192E+01	-5.89369136448E+00	-1.19616210064E+00
2.49694410490E+06	-1.29812614777E+01	-1.78502919017E+02	6.12144503486E+00	1.70403539920E+02	-4.67867753844E+01	7.20734297238E+01	-5.87854612436E+00	-1.32645292879E+00
2.51913545950E+06	-1.28698165987E+01	-1.65694567494E+02	6.13405408813E+00	1.70386805501E+02	-4.88150564688E+01	1.18377197033E+02	-5.87122461596E+00	-1.12604449366E+00
2.54132681409E+06	-1.54074583247E+01	-1.50988661157E+02	6.17967763999E+00	1.70424857398E+02	-5.83173684854E+01	7.81579082765E+01	-5.87819296266E+00	-1.17440258543E+00
2.56351816869E+06	-1.15805960485E+01	-1.56000167371E+02	6.15617691981E+00	1.69919665210E+02	-4.02117635858E+01	-6.69615508204E+01	-5.88827229192E+00	-1.19836221667E+00
2.58570952328E+06	-1.50609708100E+01	1.73824471508E+02	6.16819227327E+00	1.70255194226E+02	-3.84707015523E+01	-9.55107312726E+01	-5.88291865378E+00	-1.28057514307E+00
2.60790087788E+06	-1.43548914770E+01	-1.66381307991E+02	6.19886372241E+00	1.70043559761E+02	-4.92382166678E+01	1.50988129144E+02	-5.88097551925E+00	-1.11539419427E+00
2.63009223247E+06	-1.22124280428E+01	-1.55514286005E+02	6.15360287828E+00	1.69800807373E+02	-5.50774258516E+01	1.39256404469E+02	-5.87919083661E+00	-8.93328120984E-01
2.65228358707E+06	-1.23046480914E+01	-1.66073089218E+02	6.14318778695E+00	1.69803859691E+02	-5.71273312243E+01	1.56649276270E+02	-5.89361851094E+00	-1.30739244366E+00
2.67447494166E+06	-1.35853201234E+01	-1.69426621135E+02	6.14424936644E+00	1.69859695026E+02	-5.56803317195E+01	6.11608058014E+00	-5.87882681113E+00	-1.35337477741E+00
2.69666629626E+06	-1.45622435192E+01	-1.34074555589E+02	6.22564856991E+00	1.69774098010E+02	-4.08287301045E+01	4.57900251217E+01	-5.88287321184E+00	-1.48899663717E+00
2.71885765085E+06	-1.09066237851E+01	-1.65709295934E+02	6.14967023351E+00	1.69543521344E+02	-4.08774634713E+01	-1.51061599420E+02	-5.86082334834E+00	-1.41670219392E+00
2.74104900545E+06	-8.64705786755E+00	-1.73236712594E+02	6.09907389844E+00	1.68957747673E+02	-3.81752407754E+01	-1.41912308448E+02	-5.85635751087E+00	-1.31555757712E+00
2.76324036004E+06	-1.88981403132E+01	1.76120650797E+02	6.13901397412E+00	1.69638648686E+02	-5.19542345604E+01	-1.60016818471E+02	-5.89156971308E+00	-1.37682053049E+00
2.78543171463E+06	-1.34980551961E+01	1.75871631611E+02	6.15077834878E+00	1.69540875511E+02	-4.75032204341E+01	-9.36202226910E+01	-5.88500049872E+00	-1.31334678020E+00
2.80762306923E+06	-1.24813074433E+01	-1.73215952700E+02	6.17233010888E+00	1.69147815684E+02	-4.99566391215E+01	-1.24552467314E+02	-5.85724682168E+00	-1.44187166829E+00
2.82981442382E+06	-1.44049273669E+01	-1.63269080733E+02	6.17429445430E+00	1.69041187069E+02	-5.63334143431E+01	-4.20436440289E+01	-5.87657810315E+00	-1.48759814027E+00
2.85200577842E+06	-1.50937396949E+01	-1.37698126040E+02	6.22319055974E+00	1.69094123873E+02	-4.63011404850E+01	-1.55149030910E+02	-5.86585357121E+00	-1.49286973289E+00
2.87419713301E+06	-1.19482941702E+01	-1.71715769405E+02	6.18379753594E+00	1.68668496344E+02	-4.33164746353E+01	-1.78087788419E+02	-5.85787612855E+00	-1.56001376538E+00
