# Hz S DB R 50
! CMT, M5065, 19127446, 24.2.4/2
! Date: 11/8/2024 5:17:15 PM
! Data: Format (Calibration Info)
! Freq	S11:dB/Ang(F2)	S21:dB/Ang(F2)	S12:dB/Ang(F2)	S22:dB/Ang(F2)
3.00000000000E+05	-1.10987292829E+01	1.78184690760E+02	1.33892661314E+01	-1.76948920797E+02	-4.04629660247E+01	-1.01796195546E+02	-5.87447027981E+00	-1.53015611440E-01
3.22191354595E+05	-1.68416909011E+01	-1.78377327777E+02	1.34474667311E+01	-1.77583570946E+02	-4.53749926100E+01	-1.11826463585E+02	-5.86622109827E+00	-9.00811801401E-02
3.44382709190E+05	-1.38601038038E+01	-1.73207338030E+02	1.34273525289E+01	-1.77994945487E+02	-4.56012653912E+01	8.84983589526E+01	-5.88478711568E+00	-3.96014581203E-01
3.66574063785E+05	-1.40520238040E+01	-1.68884282860E+02	1.34412328857E+01	-1.78541938535E+02	-4.41039999049E+01	-3.68808201798E+01	-5.89421033053E+00	-3.52711291287E-01
3.88765418380E+05	-1.49048941472E+01	-1.57579540840E+02	1.34410060945E+01	-1.79086962041E+02	-3.99259707180E+01	-1.68357927011E+02	-5.86971062250E+00	-1.25165244416E+00
4.10956772975E+05	-1.86255339374E+01	-1.73286543654E+02	1.34682964872E+01	-1.79027060986E+02	-4.39375522948E+01	-1.33759291065E+01	-5.87716245997E+00	-2.10944573958E-01
4.33148127570E+05	-1.21597160976E+01	-1.53599171938E+02	1.34378514228E+01	-1.79770572739E+02	-4.19319677560E+01	4.50705979274E+01	-5.89270870032E+00	-5.15931031570E-01
4.55339482165E+05	-1.32332574840E+01	1.75180468232E+02	1.34427380923E+01	-1.79921713769E+02	-4.16596795953E+01	7.98107830179E+01	-5.88277042346E+00	-5.66511260713E-01
4.77530836760E+05	-1.22758923743E+01	-1.70074533031E+02	1.34214478365E+01	1.79989056578E+02	-4.98391378594E+01	1.53967440035E+02	-5.85472647055E+00	-4.29783592865E-01
4.99722191355E+05	-1.17324757776E+01	-1.75694759567E+02	1.34055291837E+01	1.79783014494E+02	-4.74301536060E+01	3.29849805402E+01	-5.88750510905E+00	-5.74764486837E-01
5.21913545950E+05	-1.52281916372E+01	-1.67367579982E+02	1.34391200667E+01	1.79424776854E+02	-4.59697873699E+01	1.15988452835E+01	-5.88482713505E+00	-4.18128412070E-01
5.44104900545E+05	-1.47813721725E+01	1.76411583126E+02	1.34383891777E+01	1.79191234536E+02	-3.75236370944E+01	-1.75113610912E+02	-5.86509752167E+00	-1.24522932485E-01
5.66296255139E+05	-1.50438910857E+01	-1.29709605464E+02	1.34631539727E+01	1.78715314494E+02	-3.85984388557E+01	-1.36868576821E+01	-5.91618389709E+00	-4.15092967502E-01
5.88487609734E+05	-1.25491963060E+01	-1.78532011691E+02	1.34392102581E+01	1.78812738204E+02	-6.15375326463E+01	-3.19858871957E+01	-5.86559820986E+00	-3.08439761277E-01
6.10678964329E+05	-1.32567482208E+01	1.67051297202E+02	1.34405417219E+01	1.78706465977E+02	-5.36264440788E+01	-3.99826541654E+01	-5.89206733271E+00	1.04523721695E-01
6.32870318924E+05	-1.23170298516E+01	1.76663781355E+02	1.34186997280E+01	1.78396473500E+02	-5.00837358805E+01	-1.39974979977E+02	-5.88781923576E+00	-1.46833196814E-01
6.55061673519E+05	-1.45679932242E+01	-1.69405120591E+02	1.34460575287E+01	1.77999313024E+02	-3.96489683491E+01	1.11065794444E+01	-5.88028046069E+00	-5.39420290536E-01
6.77253028114E+05	-1.06435191969E+01	-1.77836249633E+02	1.33857191028E+01	1.77618199563E+02	-4.49247311723E+01	-1.24548807034E+02	-5.84633238616E+00	-5.49728700693E-01
6.99444382709E+05	-1.44371830321E+01	-1.54562718082E+02	1.34635276875E+01	1.77714472873E+02	-4.29474623702E+01	-3.70823963312E+01	-5.89610063993E+00	-4.01580050595E-01
7.21635737304E+05	-1.67728548637E+01	-1.53792871070E+02	1.34478056138E+01	1.77394526880E+02	-4.67013793240E+01	8.91794034871E+01	-5.89655750611E+00	-4.78002130579E-01
7.43827091899E+05	-1.33724902413E+01	1.78300462284E+02	1.34476748813E+01	1.77263304257E+02	-4.73814286560E+01	-7.57344954708E+01	-5.86891653271E+00	-2.84841465233E-01
7.66018446494E+05	-1.67522174120E+01	-1.66321320102E+02	1.34721495464E+01	1.76976661904E+02	-4.44201140476E+01	1.38822644244E+02	-5.84893898789E+00	-5.23243180493E-01
7.88209801089E+05	-1.53008117234E+01	1.71921748581E+02	1.34461693608E+01	1.77005592150E+02	-4.34879646815E+01	-1.43210962727E+02	-5.86334027179E+00	-5.53494736560E-01
8.10401155684E+05	-1.33828213703E+01	-1.77971735708E+02	1.34210048826E+01	1.76551839064E+02	-4.31313137445E+01	-1.00981649622E+02	-5.86706180645E+00	-3.68812240703E-01
8.32592510279E+05	-1.11711690277E+01	-1.70979040811E+02	1.34086761393E+01	1.76313080257E+02	-4.26201804720E+01	1.66436319821E+02	-5.84692921539E+00	-4.87499455523E-01
8.54783864874E+05	-1.15598340640E+01	-1.68592700538E+02	1.34375984199E+01	1.76188602956E+02	-4.19279367855E+01	-2.50635964828E+01	-5.90462570956E+00	-3.39327098818E-01
8.76975219469E+05	-1.27765336240E+01	-1.75583689921E+02	1.34172362326E+01	1.76037535862E+02	-4.04666090511E+01	-1.06765469441E+02	-5.87877311508E+00	-3.30476878410E-01
8.99166574064E+05	-1.41592344548E+01	1.74522484154E+02	1.34199569455E+01	1.76173937849E+02	-4.80554203876E+01	-4.15141475568E+01	-5.90234389527E+00	-4.57970289312E-01
9.21357928659E+05	-1.20724432879E+01	-1.63676349838E+02	1.34108135025E+01	1.75538235208E+02	-5.16139626581E+01	1.56511581035E+02	-5.87606727218E+00	-6.27558970700E-01
9.43549283254E+05	-1.11919915853E+01	-1.67960300407E+02	1.34037788792E+01	1.75576864996E+02	-5.17599576529E+01	-1.12540047256E+02	-5.86478837941E+00	-4.61957352637E-01
9.65740637849E+05	-1.14261296871E+01	-1.73345238772E+02	1.34065465000E+01	1.75176266420E+02	-4.72229018003E+01	8.23903514706E+01	-5.85222657724E+00	-7.12530613063E-01
9.87931992444E+05	-1.28759432725E+01	1.76307027729E+02	1.34187367579E+01	1.75311348395E+02	-5.48084773693E+01	8.40727772526E+01	-5.87627556279E+00	-5.47380373896E-01
1.01012334704E+06	-1.01109571365E+01	-1.67261941560E+02	1.34013859942E+01	1.74865549275E+02	-4.44636618323E+01	2.42601394144E+01	-5.87253142715E+00	-5.73435656051E-01
1.03231470163E+06	-1.00582445192E+01	-1.64304058557E+02	1.33983685188E+01	1.74747296196E+02	-5.31254757969E+01	-3.78869052209E+01	-5.88961311130E+00	-4.95336603206E-01
1.05450605623E+06	-1.28361538018E+01	-1.66478471635E+02	1.34345819569E+01	1.74839222829E+02	-4.77498334622E+01	-5.78979374134E+01	-5.87411227929E+00	-4.13141938807E-01
1.07669741082E+06	-1.11016045528E+01	-1.71666712990E+02	1.33711679830E+01	1.74453148823E+02	-4.65148449360E+01	-4.14215105145E+01	-5.75402675674E+00	-4.43308923362E-01
1.09888876542E+06	-1.25082060466E+01	1.78566493782E+02	1.34273841268E+01	1.74438473194E+02	-6.08079391491E+01	-8.44860173985E+01	-5.85574994435E+00	-5.56534317002E-01
1.12108012001E+06	-1.52452473318E+01	-1.67881513185E+02	1.34399072475E+01	1.74277821652E+02	-4.17890519008E+01	-1.29697904401E+01	-5.90483765801E+00	-6.66359597824E-01
1.14327147461E+06	-1.30799580895E+01	-1.65785867450E+02	1.34281795935E+01	1.74068478090E+02	-4.80812896942E+01	-1.33678241315E+01	-5.89327968579E+00	-6.69203975228E-01
1.16546282920E+06	-1.45702812239E+01	1.74836402688E+02	1.34297707507E+01	1.74066629435E+02	-4.68637400012E+01	-1.48063347036E+02	-5.85665263020E+00	-6.87226343562E-01
1.18765418380E+06	-1.66236186287E+01	1.62891574276E+02	1.34308753681E+01	1.73850089851E+02	-3.81981044983E+01	-2.75981809863E+01	-5.90773607716E+00	-7.48220528942E-01
1.20984553839E+06	-1.19691191366E+01	-1.56325384990E+02	1.34330058013E+01	1.73394958376E+02	-4.71422649606E+01	3.71953880486E+01	-5.88139944638E+00	-8.23441842494E-01
1.23203689299E+06	-1.16412032086E+01	-1.79900528826E+02	1.34196595022E+01	1.73614571143E+02	-4.87898076283E+01	-8.54238053050E+01	-5.89662152346E+00	-4.11703471115E-01
1.25422824758E+06	-1.45415563642E+01	-1.75350928095E+02	1.34496126141E+01	1.73279747771E+02	-5.47328705534E+01	3.01998993071E+01	-5.87745684180E+00	-7.00385547459E-01
1.27641960218E+06	-1.26744145317E+01	-1.76083740975E+02	1.34120063578E+01	1.73151659244E+02	-4.04442523265E+01	-9.84788104250E+01	-5.85456025027E+00	-3.70324212709E-01
1.29861095677E+06	-1.38998156382E+01	1.77256176085E+02	1.34029986889E+01	1.73122803181E+02	-4.35871924751E+01	1.74115190054E+02	-5.86595282298E+00	-8.33896636045E-01
1.32080231137E+06	-1.59429352605E+01	-1.46822673086E+02	1.34432010564E+01	1.72777134949E+02	-3.97539766435E+01	-1.22362237837E+02	-5.86388360904E+00	-9.35339128434E-01
1.34299366596E+06	-1.57051061291E+01	1.74752200662E+02	1.34332578898E+01	1.72882799792E+02	-3.93965304311E+01	1.28744517224E+02	-5.85529870221E+00	-9.16255954577E-01
1.36518502056E+06	-1.26635918443E+01	1.75679873565E+02	1.33919863167E+01	1.72556569799E+02	-4.02002018492E+01	-7.19535931711E+01	-5.90561110664E+00	-5.01012091111E-01
1.38737637515E+06	-1.37267587583E+01	-1.67705945944E+02	1.34259695924E+01	1.72487659341E+02	-5.89215199077E+01	9.28793100551E+01	-5.85613275634E+00	-7.87879816242E-01
1.40956772975E+06	-1.42138094251E+01	-1.64595009309E+02	1.34518147332E+01	1.72190797500E+02	-4.59731277720E+01	4.70928570360E+01	-5.88030895292E+00	-1.00368370711E+00
1.43175908434E+06	-1.34797953812E+01	-1.49239013738E+02	1.34531948689E+01	1.72074019394E+02	-4.56607245931E+01	-6.25706315609E+01	-5.89390337527E+00	-7.83720298890E-01
1.45395043894E+06	-1.45742153986E+01	-1.75677669561E+02	1.34020056322E+01	1.72228934104E+02	-4.76983191378E+01	-1.48967745155E+01	-5.89554055674E+00	-6.95141902841E-01
1.47614179353E+06	-1.42743388221E+01	-1.67887324595E+02	1.34247423076E+01	1.71771824330E+02	-4.43518735984E+01	-1.26085959090E+02	-5.88158696093E+00	-6.92172012145E-01
1.49833314813E+06	-1.08312152002E+01	-1.69609359254E+02	1.33930041172E+01	1.71503781570E+02	-4.75097449892E+01	9.51522587148E+00	-5.89097934040E+00	-8.11627342878E-01
1.52052450272E+06	-1.23117961327E+01	1.78900292247E+02	1.34040887692E+01	1.71727695294E+02	-4.32961325845E+01	-1.63843243293E+02	-5.86734593373E+00	-5.83734582085E-01
1.54271585732E+06	-1.29520684145E+01	-1.62500165457E+02	1.34326993775E+01	1.71181833378E+02	-4.90626026892E+01	1.44977020209E+02	-5.86211386419E+00	-8.83227604560E-01
1.56490721191E+06	-1.60603995224E+01	-1.75041258970E+02	1.34461697109E+01	1.71347898878E+02	-4.12637863357E+01	1.08164817654E+02	-5.86120138964E+00	-1.02316775379E+00
1.58709856651E+06	-1.58808066359E+01	-1.74177197787E+02	1.34462666735E+01	1.71199972739E+02	-5.46210136067E+01	1.93099599150E+01	-5.85448388821E+00	-5.71083378520E-01
1.60928992110E+06	-1.18942489394E+01	1.66863002200E+02	1.34006510400E+01	1.71116906430E+02	-4.58859377200E+01	1.20676507899E+02	-5.85881036026E+00	-9.24705128823E-01
1.63148127570E+06	-1.39329264976E+01	-1.71889595077E+02	1.34340358311E+01	1.70978505521E+02	-4.82414603780E+01	1.50633437981E+02	-5.86488616994E+00	-8.39941460251E-01
1.65367263029E+06	-1.23503530654E+01	-1.58269118559E+02	1.34090384873E+01	1.70624035429E+02	-3.56496816007E+01	7.60759937888E+01	-5.84256743601E+00	-1.07238204984E+00
1.67586398489E+06	-2.05101889950E+01	-1.13156507115E+02	1.35135513177E+01	1.70522983104E+02	-3.99293364456E+01	-5.73655245884E+01	-5.89597978553E+00	-9.19709484011E-01
1.69805533948E+06	-1.58310212821E+01	-1.62941052496E+02	1.34350471096E+01	1.70385365936E+02	-4.46507140541E+01	-1.20008930364E+02	-5.85698772690E+00	-7.24258842185E-01
1.72024669408E+06	-1.25098740743E+01	-1.76821213785E+02	1.34115930368E+01	1.70222318311E+02	-4.49977813032E+01	7.16332278488E+01	-5.87173097288E+00	-1.09351326567E+00
1.74243804867E+06	-1.48334384710E+01	-1.63230539576E+02	1.34549454056E+01	1.70037668000E+02	-4.28557202734E+01	-1.47814599171E+02	-5.88329610910E+00	-7.00987896728E-01
1.76462940327E+06	-1.42222124954E+01	1.75406906104E+02	1.34405747193E+01	1.70008232415E+02	-4.95788541945E+01	1.53046025356E+02	-5.86145707618E+00	-8.62377488232E-01
1.78682075786E+06	-1.38996562606E+01	-1.67219791843E+02	1.34676650371E+01	1.69825723472E+02	-4.22341613273E+01	2.35724112847E+01	-5.87918197191E+00	-1.08331624022E+00
1.80901211246E+06	-7.57987416859E+00	1.70513280653E+02	1.33361859716E+01	1.69493730790E+02	-6.13862115492E+01	-1.77674256039E+02	-5.89047021074E+00	-1.08715259105E+00
1.83120346705E+06	-1.56150999612E+01	-1.53313571579E+02	1.34326683578E+01	1.69676466483E+02	-4.31526782789E+01	-6.17953476136E+01	-5.89776759533E+00	-8.16835391698E-01
1.85339482165E+06	-1.44107141659E+01	-1.71315015905E+02	1.34506336519E+01	1.69271321688E+02	-4.70413269855E+01	1.27106443339E+01	-5.89618916994E+00	-8.13257156753E-01
1.87558617624E+06	-1.39707684482E+01	1.78473033873E+02	1.34494679763E+01	1.69409186438E+02	-6.07549671825E+01	5.76260860297E+01	-5.87942287064E+00	-9.63095916709E-01
1.89777753084E+06	-1.16184588693E+01	-1.67255988983E+02	1.34364082474E+01	1.69004871554E+02	-4.88224513665E+01	-1.67411026542E+02	-5.88844761923E+00	-9.31135887574E-01
1.91996888543E+06	-1.94720799954E+01	1.72770899004E+02	1.34631838875E+01	1.69159393594E+02	-4.16210192256E+01	1.47320807548E+02	-5.85523393156E+00	-1.13491050108E+00
1.94216024003E+06	-1.41539806686E+01	-1.55204462362E+02	1.34477311185E+01	1.68858620274E+02	-4.39101041053E+01	1.26312498758E+02	-5.85853486454E+00	-1.09947432275E+00
1.96435159462E+06	-1.18448328619E+01	1.76280060089E+02	1.33841755495E+01	1.68748349584E+02	-3.49146918208E+01	-1.46998384666E+02	-5.85891303782E+00	-8.53969752536E-01
1.98654294922E+06	-1.00895381661E+01	-1.68120354569E+02	1.34188339325E+01	1.68469396875E+02	-4.92063037271E+01	7.20168933895E+01	-5.87708092524E+00	-1.07922357174E+00
2.00873430381E+06	-1.45996983361E+01	-1.67671871484E+02	1.34378073829E+01	1.68317881313E+02	-6.19306986561E+01	-1.01943418354E+02	-5.87310044904E+00	-1.13657757031E+00
2.03092565841E+06	-1.23797355847E+01	1.77939156618E+02	1.34027902371E+01	1.68201432486E+02	-4.28430158262E+01	-6.45428561337E+01	-5.90189712171E+00	-9.73296503750E-01
2.05311701300E+06	-1.34838267281E+01	-1.55894354242E+02	1.34540601067E+01	1.68021002201E+02	-4.70473829249E+01	8.11372467135E+01	-5.86970346420E+00	-1.20583574674E+00
2.07530836760E+06	-1.55844347101E+01	-1.71391621090E+02	1.34456002980E+01	1.68064967287E+02	-4.17682103595E+01	-4.67811182842E+01	-5.91576303368E+00	-9.88743043056E-01
2.09749972219E+06	-1.36751450282E+01	-1.72493447295E+02	1.34263023084E+01	1.67935905163E+02	-4.29840342533E+01	1.21630341444E+02	-5.87602132845E+00	-1.30021815397E+00
2.11969107679E+06	-1.47769465001E+01	1.71650331145E+02	1.34134266193E+01	1.67898310428E+02	-3.93491571843E+01	2.34558945511E+01	-5.87844052592E+00	-1.35178532715E+00
2.14188243138E+06	-1.33307840678E+01	-1.77028466925E+02	1.34387394618E+01	1.67536024780E+02	-5.24944132596E+01	1.74134010811E+02	-5.86154922318E+00	-1.26261270572E+00
2.16407378598E+06	-1.23189370515E+01	1.79843290668E+02	1.34320307889E+01	1.67351990780E+02	-5.09493071280E+01	1.25484032898E+02	-5.85453199209E+00	-1.12605659192E+00
2.18626514057E+06	-1.28370463690E+01	-1.71464800414E+02	1.34047694509E+01	1.67365247039E+02	-5.16170726622E+01	1.39897597259E+02	-5.86790761961E+00	-1.06092334641E+00
2.20845649517E+06	-1.35787096419E+01	-1.65519045015E+02	1.34597571775E+01	1.67087434673E+02	-4.80167885842E+01	1.16244244517E+01	-5.88999751622E+00	-1.27255441977E+00
2.23064784976E+06	-1.34165042912E+01	1.66793143004E+02	1.34409360031E+01	1.67256533051E+02	-5.09698414857E+01	-1.36664834642E+02	-5.86546252425E+00	-1.27544931934E+00
2.25283920436E+06	-1.32392114240E+01	-1.55441870697E+02	1.34594232323E+01	1.66716611734E+02	-4.71778220014E+01	1.21129196855E+02	-5.87628189827E+00	-1.18670065239E+00
2.27503055895E+06	-1.01807925650E+01	-1.68553936791E+02	1.34400731520E+01	1.66463659804E+02	-3.89080550677E+01	5.59838360985E+01	-5.85687614544E+00	-1.23040918361E+00
2.29722191355E+06	-8.27996734589E+00	-1.59901922753E+02	1.34377685968E+01	1.66281218076E+02	-4.08187823908E+01	1.49536004531E+02	-5.81960199881E+00	-1.25729166304E+00
2.31941326814E+06	-1.51045595492E+01	-1.59249470536E+02	1.34615763598E+01	1.66577737397E+02	-4.82354969590E+01	7.27845280557E+01	-5.89386933697E+00	-1.40140309532E+00
2.34160462274E+06	-1.20289941273E+01	-1.67203696860E+02	1.34268047439E+01	1.66123075416E+02	-5.70464975726E+01	6.42510270225E+01	-5.88141598612E+00	-1.19605639872E+00
2.36379597733E+06	-1.33789152422E+01	-1.49452151949E+02	1.34812451290E+01	1.65968909732E+02	-4.42847558739E+01	-1.61764565437E+02	-5.85171047838E+00	-1.19008020025E+00
2.38598733193E+06	-1.11199857642E+01	-1.76634287615E+02	1.34162721612E+01	1.65923956131E+02	-4.63411535908E+01	-8.91468531582E+01	-5.88507075411E+00	-1.23812364959E+00
2.40817868652E+06	-1.07234185074E+01	-1.59073278844E+02	1.34363276726E+01	1.65639929546E+02	-4.05001936111E+01	1.55549457924E+02	-5.85252720955E+00	-1.33505810902E+00
2.43037004112E+06	-1.47912760633E+01	-1.66617943693E+02	1.34603760634E+01	1.65819069504E+02	-3.88279262937E+01	-8.83870984106E+01	-5.89486624853E+00	-1.42694209471E+00
2.45256139571E+06	-1.56044780740E+01	1.79085248320E+02	1.34536066243E+01	1.65695187320E+02	-4.99945596456E+01	-1.72231727093E+02	-5.87137974802E+00	-1.26794551381E+00
2.47475275031E+06	-1.51499615444E+01	-1.57644851682E+02	1.34732704709E+01	1.65641912865E+02	-4.33411194571E+01	1.24779460139E+01	-5.91565306782E+00	-1.48374432467E+00
2.49694410490E+06	-1.44206207081E+01	-1.50509708901E+02	1.34837091276E+01	1.65384423887E+02	-5.57199801649E+01	1.60238714129E+01	-5.88743675273E+00	-1.35768098764E+00
2.51913545950E+06	-1.35203937797E+01	-1.68875396282E+02	1.34473444291E+01	1.65401411601E+02	-4.99028037950E+01	1.72049437291E+02	-5.86586802367E+00	-1.17819211461E+00
2.54132681409E+06	-1.32483676179E+01	-1.64884780530E+02	1.34578887998E+01	1.64969125818E+02	-4.33794558057E+01	-1.76454559346E+02	-5.85076033941E+00	-1.10098134386E+00
2.56351816869E+06	-1.17981090726E+01	-1.49785674704E+02	1.34647830607E+01	1.64723583375E+02	-4.48673492150E+01	1.53167062026E+02	-5.85602577820E+00	-1.48423157297E+00
2.58570952328E+06	-1.24873085556E+01	-1.70034495682E+02	1.34316742256E+01	1.64888511400E+02	-4.87524826710E+01	1.69328601390E+02	-5.86030847496E+00	-1.45649559761E+00
2.60790087788E+06	-1.23333146978E+01	-1.60368061409E+02	1.34345163040E+01	1.64526960916E+02	-4.60598693868E+01	9.89270187804E+01	-5.87109038072E+00	-1.30523858639E+00
2.63009223247E+06	-1.15658129022E+01	-1.78847449360E+02	1.34113687956E+01	1.64383869646E+02	-4.93490048904E+01	-8.96533992642E+01	-5.89248903691E+00	-8.76631570566E-01
2.65228358707E+06	-1.16083572105E+01	-1.63858789774E+02	1.34424774388E+01	1.64093016077E+02	-4.49744740623E+01	-1.15777848444E+02	-5.87321830386E+00	-1.30228793428E+00
2.67447494166E+06	-1.61854839607E+01	-1.60965749915E+02	1.34714017386E+01	1.64314975913E+02	-5.99561614264E+01	6.68013801203E+00	-5.88830889483E+00	-1.49730257109E+00
2.69666629626E+06	-9.59793932040E+00	-1.59637998392E+02	1.34181017117E+01	1.63695928807E+02	-4.77174328067E+01	1.16402107672E+02	-5.85832713093E+00	-1.43806133692E+00
2.71885765085E+06	-1.36811841031E+01	-1.60282216262E+02	1.34547122782E+01	1.63763641241E+02	-5.19654777037E+01	-1.48399951935E+02	-5.90240649816E+00	-1.39801082030E+00
2.74104900545E+06	-1.35566215456E+01	1.79355452281E+02	1.34491019638E+01	1.63876634319E+02	-4.11218894359E+01	-4.15918972973E+01	-5.92714114551E+00	-1.46573048354E+00
2.76324036004E+06	-7.35699578751E+00	-1.35460786435E+02	1.35247864238E+01	1.62988474991E+02	-4.35317900641E+01	1.04719499728E+02	-5.84171428350E+00	-1.54190581258E+00
2.78543171463E+06	-1.40117015466E+01	-1.69223555701E+02	1.34491285028E+01	1.63568918299E+02	-4.64675784260E+01	-1.72481324757E+02	-5.85269786708E+00	-1.34171707392E+00
2.80762306923E+06	-1.15513770635E+01	-1.58114917363E+02	1.34621076920E+01	1.63168955783E+02	-4.78990268018E+01	7.37436364173E+01	-5.86623316792E+00	-1.67692731683E+00
2.82981442382E+06	-1.29425332223E+01	-1.70888712539E+02	1.34587944514E+01	1.63124575932E+02	-4.74326483512E+01	1.31316438870E+02	-5.85907552674E+00	-1.57220072681E+00
2.85200577842E+06	-1.46710571932E+01	1.65632978642E+02	1.34303317681E+01	1.63415043065E+02	-4.39232897289E+01	-9.74676468140E+01	-5.87873087113E+00	-1.23730370247E+00
2.87419713301E+06	-1.41176207444E+01	-1.78115286370E+02	1.34444505836E+01	1.62953269293E+02	-4.81131306811E+01	-1.58115013321E+02	-5.86758007402E+00	-1.35399579159E+00
