# Hz S DB R 50
! CMT, M5065, 19127446, 24.2.4/2
! Date: 11/8/2024 5:34:48 PM
! Data: Format (Calibration Info)
! Freq	S11:dB/Ang(F2)	S21:dB/Ang(F2)	S12:dB/Ang(F2)	S22:dB/Ang(F2)
3.00000000000E+05	-1.10548290878E+01	-1.66416334361E+02	2.51839994513E+01	-1.75482194873E+02	-4.02456169809E+01	1.20204327894E+02	-5.76188891139E+00	-1.14394269288E+00
3.22191354595E+05	-1.18458414203E+01	-1.71853094183E+02	2.52239905569E+01	-1.76433772757E+02	-4.54781081734E+01	-7.90024206586E+01	-5.86061487500E+00	-1.75257172537E-02
3.44382709190E+05	-1.39278386232E+01	-1.34024915593E+02	2.52785866446E+01	-1.77670139644E+02	-4.41205163560E+01	-1.26684739243E+02	-5.78384808227E+00	-1.25543503680E-01
3.66574063785E+05	-1.40941542337E+01	1.74378961051E+02	2.52383590765E+01	-1.78359928980E+02	-4.78656047263E+01	-6.41614072808E+01	-5.87593309651E+00	1.66106209384E-02
3.88765418380E+05	-1.37309841546E+01	-1.67138042128E+02	2.52617010920E+01	-1.79584662799E+02	-5.17814818900E+01	-4.01606851048E+01	-5.94239926015E+00	-1.74192487715E+00
4.10956772975E+05	-1.58303286996E+01	1.59014728790E+02	2.52701999598E+01	1.79989404249E+02	-3.59710067820E+01	-3.20420075784E+01	-6.04836503760E+00	8.89221081703E-02
4.33148127570E+05	-1.26903345885E+01	-1.53525596892E+02	2.52390587189E+01	1.78968259619E+02	-4.08672144180E+01	1.76328611984E+02	-5.76619671537E+00	-3.99706175971E-01
4.55339482165E+05	-1.43552466663E+01	-1.72872557825E+02	2.52384020793E+01	1.78457086878E+02	-4.57172462571E+01	1.00626409885E+02	-5.80841638188E+00	-9.14659158885E-01
4.77530836760E+05	-1.40301670560E+01	-1.65516870696E+02	2.52397715821E+01	1.77595579355E+02	-6.32156747353E+01	-1.41950110487E+02	-5.86313472264E+00	-7.52662435906E-01
4.99722191355E+05	-1.28672753060E+01	-1.53061561994E+02	2.52215636603E+01	1.76843829907E+02	-5.10341857883E+01	6.08532806290E+01	-5.90643698751E+00	-6.63824852538E-01
5.21913545950E+05	-1.31716802012E+01	-1.72780346868E+02	2.52273182053E+01	1.76306924766E+02	-4.82630403941E+01	-9.66865959139E+01	-5.83593967288E+00	-1.57740364929E-02
5.44104900545E+05	-1.41151844456E+01	1.62369450351E+02	2.52123758751E+01	1.76044686766E+02	-4.68884369003E+01	-1.08200257993E+02	-5.84417396024E+00	-3.45632296866E-01
5.66296255139E+05	-1.21031894982E+01	-1.60750178867E+02	2.52062317132E+01	1.74960762358E+02	-5.19623276374E+01	1.03328877851E+02	-5.86229965855E+00	-5.81536915180E-01
5.88487609734E+05	-1.50589483231E+01	-1.72750836965E+02	2.52206321083E+01	1.74572179296E+02	-4.30773121412E+01	1.78090814394E+02	-5.77744526070E+00	-5.99347766569E-01
6.10678964329E+05	-1.19333984118E+01	-1.74591298342E+02	2.51711031564E+01	1.74057316861E+02	-6.76034927473E+01	-1.30104551532E+02	-5.83335993894E+00	8.09191420685E-02
6.32870318924E+05	-1.37942034999E+01	-1.78177642297E+02	2.52007389083E+01	1.73545066650E+02	-3.96130096101E+01	5.24155430563E+01	-5.92724378981E+00	-7.08531721003E-01
6.55061673519E+05	-1.26261597738E+01	-1.67660112437E+02	2.51458099220E+01	1.72881277684E+02	-4.36794551381E+01	3.66173862846E+01	-5.96949789746E+00	-7.90856556290E-01
6.77253028114E+05	-1.41240477238E+01	-1.67672559905E+02	2.51771903190E+01	1.72366683833E+02	-4.67017605162E+01	6.77985495251E+01	-5.86915225166E+00	-1.26755897908E+00
6.99444382709E+05	-1.47956332594E+01	1.78739091036E+02	2.51767851028E+01	1.71879759120E+02	-4.24146199126E+01	3.22749561058E+01	-5.94471883013E+00	-1.06801075473E+00
7.21635737304E+05	-1.26210195645E+01	1.75233151156E+02	2.51478346122E+01	1.71424520148E+02	-4.92665873386E+01	-8.44451608911E+01	-5.88283896366E+00	-2.78636848429E-01
7.43827091899E+05	-1.92835704581E+01	-1.62459372255E+02	2.51878860600E+01	1.70940346285E+02	-4.67836673915E+01	1.77697396311E+02	-5.82362413017E+00	-5.17444860699E-01
7.66018446494E+05	-1.45538426953E+01	1.66810102127E+02	2.51425846423E+01	1.70608948406E+02	-4.68481655017E+01	6.37692855075E+01	-5.88079199353E+00	-9.16781641446E-01
7.88209801089E+05	-1.32067456464E+01	-1.58679273237E+02	2.51375467909E+01	1.69849949021E+02	-3.60408511388E+01	-6.12258863699E+01	-5.95651495051E+00	2.36225492403E-01
8.10401155684E+05	-1.02094898973E+01	-1.61878711095E+02	2.51142425874E+01	1.69353738163E+02	-4.48337938131E+01	1.69758146756E+02	-5.79371629602E+00	-7.55538363337E-01
8.32592510279E+05	-1.22012563376E+01	-1.74388022976E+02	2.50785696128E+01	1.68926506455E+02	-4.98137511997E+01	-9.14629739182E+01	-5.88085196011E+00	-2.63954050932E-01
8.54783864874E+05	-1.45780069827E+01	1.79803503207E+02	2.51057966956E+01	1.68751460656E+02	-5.30375762018E+01	-1.20788180607E+02	-5.89951712158E+00	-4.50844480882E-01
8.76975219469E+05	-1.27554235737E+01	-1.65585639794E+02	2.50818661360E+01	1.68128178397E+02	-5.16067877388E+01	-3.10502544175E+00	-5.91277129216E+00	-5.05407053324E-01
8.99166574064E+05	-1.40373184937E+01	-1.64755901935E+02	2.50788996832E+01	1.67494491715E+02	-4.67164065990E+01	3.71825148620E+01	-5.92023549601E+00	-9.03991685676E-01
9.21357928659E+05	-1.55211643252E+01	-1.59964083825E+02	2.50688936050E+01	1.67058770376E+02	-4.28855602968E+01	3.78496320965E+01	-5.95714575726E+00	-8.47601647148E-01
9.43549283254E+05	-1.54594796488E+01	1.68777351302E+02	2.50751458048E+01	1.66949692128E+02	-5.09522054681E+01	-1.01971780059E+02	-5.85861891243E+00	-4.15743861830E-01
9.65740637849E+05	-1.17687337441E+01	-1.65481281970E+02	2.50479303707E+01	1.66365084550E+02	-5.14406646316E+01	-1.09917711512E+01	-5.89491518338E+00	-6.16861819295E-01
9.87931992444E+05	-1.20541197902E+01	-1.57962895827E+02	2.50363645713E+01	1.65730827391E+02	-4.26966485940E+01	-6.94732636438E+01	-5.91253372955E+00	-1.19957449183E-01
1.01012334704E+06	-1.23144917769E+01	-1.78620506127E+02	2.50114261248E+01	1.65633400028E+02	-5.17495746933E+01	-4.99708390114E+00	-5.91602406794E+00	-6.69871387359E-01
1.03231470163E+06	-1.12400596415E+01	-1.71502813307E+02	2.49915954605E+01	1.65093966943E+02	-4.49708154073E+01	1.34482132224E+01	-5.97355420133E+00	-8.03180273263E-01
1.05450605623E+06	-1.46123319629E+01	-1.77002078690E+02	2.50173823256E+01	1.64788665374E+02	-4.81587170520E+01	-2.85665239035E+01	-5.94080567478E+00	-6.57169403270E-01
1.07669741082E+06	-1.52737910675E+01	-1.55183025198E+02	2.50494047734E+01	1.63160978008E+02	-4.06652343207E+01	1.47777641536E+02	-5.52708361132E+00	-1.60958124883E+00
1.09888876542E+06	-1.60368457651E+01	-1.75771052413E+02	2.50095151295E+01	1.63995745296E+02	-3.97320351741E+01	-1.19722708467E+02	-5.76920032187E+00	-1.14920501299E-01
1.12108012001E+06	-1.31565482999E+01	-1.45894376186E+02	2.49717217214E+01	1.63348602885E+02	-4.74308049857E+01	-1.01662763373E+02	-5.86227539439E+00	-2.54103289907E-01
1.14327147461E+06	-1.28468349411E+01	1.75806520102E+02	2.49597384014E+01	1.63037516568E+02	-4.73691731081E+01	-1.11070729119E+02	-5.84994137443E+00	-3.27882295726E-01
1.16546282920E+06	-1.45836095021E+01	-1.67341395265E+02	2.49698708208E+01	1.62602902324E+02	-4.41747133874E+01	6.05722559434E+01	-5.91488924834E+00	-1.15394644659E+00
1.18765418380E+06	-1.18783608645E+01	1.76530238497E+02	2.49107424018E+01	1.62253126058E+02	-4.44391823493E+01	1.03957230312E+02	-5.84503323164E+00	-1.12966330114E+00
1.20984553839E+06	-1.44004307814E+01	1.58698231460E+02	2.49324235648E+01	1.62201482202E+02	-5.24749044985E+01	-3.19286100324E+01	-5.90007602089E+00	-5.77143180382E-01
1.23203689299E+06	-1.56053639847E+01	-1.62114216004E+02	2.49185130471E+01	1.61525038342E+02	-4.45507976764E+01	1.71412238723E+02	-5.79546870988E+00	-5.12210698085E-01
1.25422824758E+06	-1.29418283534E+01	1.74550477327E+02	2.48931940300E+01	1.61235190234E+02	-4.12107591461E+01	9.18805225430E+01	-5.86705404150E+00	-1.59071743973E+00
1.27641960218E+06	-1.42001788742E+01	-1.76320641109E+02	2.48981701482E+01	1.60758850555E+02	-4.75783543529E+01	-1.01242746976E+02	-5.87805894273E+00	-5.75788365066E-01
1.29861095677E+06	-1.01294331421E+01	-1.68989027823E+02	2.48639213926E+01	1.60254642407E+02	-4.41393793357E+01	-5.40147845854E+01	-5.92177998487E+00	-3.37828596677E-01
1.32080231137E+06	-1.44761513996E+01	-1.62498469468E+02	2.48877599684E+01	1.60009530483E+02	-4.50022898872E+01	1.31236334114E+02	-5.82771993235E+00	-1.59702313943E+00
1.34299366596E+06	-1.22393675365E+01	1.73061662768E+02	2.48463376461E+01	1.59733281568E+02	-4.84333355966E+01	-2.27077696752E+01	-5.90933445173E+00	-7.17827574040E-01
1.36518502056E+06	-1.15393751052E+01	-1.79878440814E+02	2.48130423595E+01	1.59189965017E+02	-4.53257356643E+01	1.09594813189E+02	-5.87081596266E+00	-1.23281569333E+00
1.38737637515E+06	-1.02349770518E+01	1.75300129072E+02	2.47942013140E+01	1.58777088842E+02	-5.34348595804E+01	-3.41707415762E+01	-5.91937947216E+00	-9.00911722684E-01
1.40956772975E+06	-1.13333435190E+01	-1.74085734512E+02	2.48065127879E+01	1.58380775052E+02	-3.54656189856E+01	-1.46467397816E+02	-5.70345430283E+00	-1.96404615584E-01
1.43175908434E+06	-1.36382458404E+01	1.67720955282E+02	2.48011873784E+01	1.58174987609E+02	-4.24509415748E+01	-9.89019704996E+01	-5.86794787403E+00	-5.54460878999E-01
1.45395043894E+06	-1.50056542620E+01	-1.65981558378E+02	2.48137400667E+01	1.57806130975E+02	-4.30613400024E+01	5.17365165439E+01	-5.94264067912E+00	-1.26903641802E+00
1.47614179353E+06	-1.11069669749E+01	-1.71732636588E+02	2.47602638000E+01	1.57324660499E+02	-4.56663927485E+01	2.17356443393E+01	-5.94820039452E+00	-9.92056131722E-01
1.49833314813E+06	-1.18636165257E+01	1.74949628961E+02	2.47537850212E+01	1.57101407869E+02	-4.75999300509E+01	5.77630542050E+01	-5.91052304450E+00	-1.04083496231E+00
1.52052450272E+06	-1.46190137109E+01	1.76425100588E+02	2.47830423710E+01	1.56774382545E+02	-5.36257713541E+01	-8.18606319536E+01	-5.85429469461E+00	-6.63903328678E-01
1.54271585732E+06	-1.08027536957E+01	-1.59477431512E+02	2.47563160816E+01	1.55910327348E+02	-5.52961626328E+01	1.71474232558E+02	-5.86348815823E+00	-8.77895258762E-01
1.56490721191E+06	-1.25478823136E+01	-1.77639395212E+02	2.47175665528E+01	1.55968666028E+02	-4.56989890352E+01	7.29256601715E+00	-5.95550698256E+00	-6.62437692709E-01
1.58709856651E+06	-1.30805016565E+01	-1.57432670893E+02	2.47315796174E+01	1.55464169910E+02	-3.91162883979E+01	-1.44884411717E+01	-5.98366120149E+00	-1.06224819271E+00
1.60928992110E+06	-1.30316987731E+01	1.69144450190E+02	2.47073179675E+01	1.55259014966E+02	-4.26422217929E+01	-7.71312306417E+01	-5.90968840371E+00	-2.42954401409E-01
1.63148127570E+06	-1.45888227241E+01	-1.76452686496E+02	2.47083678437E+01	1.54804904756E+02	-4.24940425912E+01	-2.10115926051E+01	-5.99577985627E+00	-4.36252681123E-01
1.65367263029E+06	-1.38618169180E+01	-1.65026413351E+02	2.46664651851E+01	1.54362544936E+02	-4.29729382909E+01	-1.58427046014E+02	-5.77627616246E+00	-8.59109792214E-01
1.67586398489E+06	-1.23559001260E+01	-1.57932658626E+02	2.46677140589E+01	1.53883328472E+02	-4.72525780896E+01	1.46322512788E+02	-5.84637791156E+00	-1.26782720860E+00
1.69805533948E+06	-1.40934148904E+01	-1.52972620368E+02	2.46796237285E+01	1.53534291535E+02	-4.54861300403E+01	9.83168171704E+01	-5.87736427910E+00	-1.35412386854E+00
1.72024669408E+06	-1.10932535141E+01	-1.72427103243E+02	2.46013662505E+01	1.53265119844E+02	-4.48128768135E+01	-8.05643966036E+01	-5.88745510914E+00	-4.73499702500E-01
1.74243804867E+06	-1.28293532668E+01	-1.49365420160E+02	2.46729258825E+01	1.52899700180E+02	-3.90477047625E+01	9.11389327580E+01	-5.85158440236E+00	-1.96714199762E+00
1.76462940327E+06	-1.13396187785E+01	1.38331585251E+02	2.45994625357E+01	1.52815814452E+02	-4.32526778920E+01	-7.43921153439E+01	-5.88608665096E+00	-2.53475973683E-01
1.78682075786E+06	-1.58305881655E+01	1.76760292779E+02	2.46070437976E+01	1.52453842597E+02	-5.40825571987E+01	4.30775542167E+01	-5.90369954305E+00	-1.24593535156E+00
1.80901211246E+06	-1.29019762785E+01	-1.69069887633E+02	2.46124893040E+01	1.51924291381E+02	-4.93509307941E+01	1.08733806354E+02	-5.85754525248E+00	-1.27311198774E+00
1.83120346705E+06	-1.26958591970E+01	-1.76468981991E+02	2.45738546556E+01	1.51598223625E+02	-4.03915851452E+01	1.75165229635E+02	-5.73936474028E+00	-1.27817407645E+00
1.85339482165E+06	-1.32311528812E+01	-1.72192334055E+02	2.45717083761E+01	1.51214569194E+02	-4.59388351114E+01	1.19111285742E+02	-5.86644156316E+00	-1.52621614105E+00
1.87558617624E+06	-1.39164598648E+01	-1.79944331917E+02	2.45423459017E+01	1.50829755957E+02	-3.89232970297E+01	-2.48326324897E+00	-5.98240440848E+00	-1.00621890220E+00
1.89777753084E+06	-1.28090635518E+01	-1.78662414543E+02	2.45189419526E+01	1.50509093575E+02	-3.88362120833E+01	-3.94867914620E+01	-5.93525090821E+00	-2.46569742106E-01
1.91996888543E+06	-1.04296160955E+01	1.58122335145E+02	2.45059386216E+01	1.50371870282E+02	-3.73936293900E+01	8.16643883188E+01	-5.88964493407E+00	-2.50072043798E+00
1.94216024003E+06	-1.23698406493E+01	-1.67620717267E+02	2.45224230627E+01	1.49809799151E+02	-5.41530262683E+01	-2.66718403138E+01	-5.87203973408E+00	-1.08026045599E+00
1.96435159462E+06	-1.34997553286E+01	-1.63157485039E+02	2.45145883193E+01	1.49457091661E+02	-4.20310761547E+01	5.92020341254E+01	-5.92589398283E+00	-1.78357760191E+00
1.98654294922E+06	-1.23589697195E+01	-1.73861820465E+02	2.44568981689E+01	1.49148223023E+02	-5.02246135780E+01	-1.54479409196E+02	-5.82121806881E+00	-9.84762981556E-01
2.00873430381E+06	-1.16186604424E+01	-1.71845832065E+02	2.44493767997E+01	1.48713353460E+02	-4.44962123885E+01	3.51515980715E+01	-5.95448631434E+00	-1.46857296705E+00
2.03092565841E+06	-1.23011166960E+01	-1.71985142348E+02	2.44374997109E+01	1.48396336916E+02	-4.62679871089E+01	1.53957678376E+02	-5.80803672413E+00	-1.26925425905E+00
2.05311701300E+06	-1.11110128411E+01	-1.71409335795E+02	2.44394720761E+01	1.48143285754E+02	-4.93179601876E+01	4.48426891696E+01	-5.88162106037E+00	-1.08356158325E+00
2.07530836760E+06	-1.59681832662E+01	-1.45291388748E+02	2.44553515664E+01	1.47587612035E+02	-5.02620865482E+01	1.10729552526E+02	-5.86888554785E+00	-1.44640091441E+00
2.09749972219E+06	-1.22237896079E+01	-1.78083215843E+02	2.43802055791E+01	1.47586678571E+02	-4.17683817420E+01	1.56626793077E+02	-5.76039931383E+00	-1.44675811443E+00
2.11969107679E+06	-1.21209605813E+01	-1.55528906719E+02	2.43973449988E+01	1.46981133351E+02	-4.74884278496E+01	-5.12749773219E+01	-5.88609514963E+00	-5.95736266062E-01
2.14188243138E+06	-1.06151820587E+01	-1.57803803681E+02	2.43661565318E+01	1.46527355309E+02	-5.60117555352E+01	-9.73423804678E+01	-5.84580274453E+00	-1.14120206372E+00
2.16407378598E+06	-1.20048778433E+01	-1.63498392851E+02	2.43531251947E+01	1.46417262180E+02	-4.32756284134E+01	1.30876322708E+01	-5.97775274649E+00	-1.44958491696E+00
2.18626514057E+06	-1.33552351202E+01	-1.58850377221E+02	2.43729486490E+01	1.45980056339E+02	-4.85124822612E+01	9.67261137763E+01	-5.88572852921E+00	-1.53653969091E+00
2.20845649517E+06	-1.17031499905E+01	-1.66977315804E+02	2.43249137691E+01	1.45671525285E+02	-3.82358064273E+01	-1.74043625383E+02	-5.77380753241E+00	-1.32043525201E+00
2.23064784976E+06	-1.54973347885E+01	1.64359226876E+02	2.43101471189E+01	1.45563611042E+02	-4.44998212775E+01	-1.13607899359E+02	-5.84783907064E+00	-6.90798810145E-01
2.25283920436E+06	-1.38348279049E+01	-1.50140720729E+02	2.43496744364E+01	1.44987870486E+02	-5.01113483037E+01	1.42359181334E+02	-5.85821866134E+00	-1.52503274779E+00
2.27503055895E+06	-1.28734519034E+01	1.79553179274E+02	2.42811006182E+01	1.44898252538E+02	-4.59861789416E+01	7.13750240844E+01	-5.90349536938E+00	-1.79805724871E+00
2.29722191355E+06	-1.17600357879E+01	-1.64038591303E+02	2.42636470921E+01	1.44144082384E+02	-4.20144464492E+01	8.46491694225E+00	-6.00529785298E+00	-1.60135843148E+00
2.31941326814E+06	-1.16095013135E+01	-1.76823885929E+02	2.42450695166E+01	1.44210581955E+02	-4.31595282820E+01	1.18433676927E+02	-5.83989017567E+00	-1.84659878802E+00
2.34160462274E+06	-1.06811856343E+01	-1.57656663571E+02	2.42419469736E+01	1.43505611926E+02	-4.99437586048E+01	-9.46731802363E+01	-5.85154224121E+00	-1.21264534906E+00
2.36379597733E+06	-1.06112702153E+01	-1.60988692522E+02	2.42192165926E+01	1.43255155658E+02	-3.49938465958E+01	8.51552211932E+01	-6.02288087067E+00	-2.12954458824E+00
2.38598733193E+06	-1.84687566070E+01	-1.51211186599E+02	2.42314543365E+01	1.43268662884E+02	-3.99699661032E+01	1.48479949122E+02	-5.75446093864E+00	-1.78014362302E+00
2.40817868652E+06	-1.36292508508E+01	-1.48682543961E+02	2.42194704575E+01	1.42577786112E+02	-4.32524046736E+01	9.57367970768E+01	-5.83914239787E+00	-1.94715522368E+00
2.43037004112E+06	-1.08765682633E+01	-1.59328150744E+02	2.41675968926E+01	1.42288001639E+02	-4.78386376844E+01	5.75704708119E+01	-5.90277785411E+00	-2.01555565994E+00
2.45256139571E+06	-1.29301580977E+01	-1.61440621126E+02	2.41654056720E+01	1.41986535653E+02	-5.71220598130E+01	-4.41252364973E+01	-5.90207650986E+00	-1.08122922580E+00
2.47475275031E+06	-1.43014777648E+01	-1.64677032372E+02	2.41514084497E+01	1.41836078470E+02	-4.49540417322E+01	-1.10305878608E+02	-5.85653483906E+00	-7.67371955062E-01
2.49694410490E+06	-1.52117463785E+01	-1.57126939296E+02	2.41458147374E+01	1.41466595604E+02	-5.61924105277E+01	-1.70920498073E+02	-5.87836179074E+00	-1.76578215155E+00
2.51913545950E+06	-1.30293862642E+01	-1.40616007972E+02	2.41665734242E+01	1.41085626740E+02	-5.64631088258E+01	3.56560368472E+01	-5.90636557120E+00	-1.54942303989E+00
2.54132681409E+06	-1.19427963516E+01	-1.62017883696E+02	2.40998931929E+01	1.40567177031E+02	-5.15148138901E+01	-1.67416122967E+02	-5.83942206522E+00	-1.21599690871E+00
2.56351816869E+06	-9.19064598327E+00	-1.70410190878E+02	2.40454642383E+01	1.40268615972E+02	-5.59016346476E+01	-1.42694263761E+02	-5.87130095033E+00	-1.19150365290E+00
2.58570952328E+06	-9.84921164727E+00	-1.67611273118E+02	2.40213968894E+01	1.39866971466E+02	-4.85987989921E+01	1.09348247564E+02	-5.86634546337E+00	-1.66531060333E+00
2.60790087788E+06	-1.25510833269E+01	-1.75194513493E+02	2.40331457470E+01	1.39774600404E+02	-5.30966220937E+01	-1.09628534106E+02	-5.89093849177E+00	-1.07797182008E+00
2.63009223247E+06	-1.45808546967E+01	1.75794593556E+02	2.40254897011E+01	1.39839359373E+02	-4.53116024244E+01	-6.40075832685E+00	-5.96410121473E+00	-1.22669007807E+00
2.65228358707E+06	-1.04911093645E+01	-1.55757736427E+02	2.40072108437E+01	1.38967170511E+02	-4.28879958931E+01	6.76068972536E+01	-5.96877150526E+00	-2.05433335189E+00
2.67447494166E+06	-1.14138954086E+01	-1.49639769068E+02	2.40244937027E+01	1.38660088320E+02	-4.15084682899E+01	-4.72081006423E+01	-5.98089135818E+00	-9.28929354122E-01
2.69666629626E+06	-1.35653024784E+01	-1.57329567568E+02	2.40117801252E+01	1.38472279101E+02	-4.29640759011E+01	8.05924503101E+01	-5.89487624763E+00	-2.05001814255E+00
2.71885765085E+06	-1.58272275955E+01	-1.66283702508E+02	2.39908291667E+01	1.38263236272E+02	-4.31386778987E+01	7.16408257629E+01	-5.93929235051E+00	-2.05524175711E+00
2.74104900545E+06	-1.47393814898E+01	-1.50499451029E+02	2.39603998390E+01	1.37980255613E+02	-5.45235974093E+01	8.12273945073E+01	-5.85993578734E+00	-1.56808253506E+00
2.76324036004E+06	-1.33618340039E+01	-1.70029662490E+02	2.39148794571E+01	1.37720036679E+02	-4.72694809689E+01	2.32330343411E+01	-5.94671820434E+00	-1.60822650305E+00
2.78543171463E+06	-1.24470061083E+01	-1.71688989304E+02	2.39078500216E+01	1.37295218727E+02	-6.11976218568E+01	-7.24776975003E+01	-5.90229034614E+00	-1.41616284788E+00
2.80762306923E+06	-1.00399220563E+01	-1.67917384488E+02	2.38555296415E+01	1.36751204923E+02	-4.56843165996E+01	5.88075092269E+01	-5.92587504402E+00	-1.97241166117E+00
2.82981442382E+06	-1.28741316952E+01	-1.56261807497E+02	2.38697420083E+01	1.36568089755E+02	-4.28418318085E+01	1.25721135870E+02	-5.85579022359E+00	-1.98134352733E+00
2.85200577842E+06	-1.02427633602E+01	-1.59717788552E+02	2.38424786615E+01	1.36100765477E+02	-4.27646340561E+01	-8.88564272128E+01	-5.87947627250E+00	-8.16193252290E-01
2.87419713301E+06	-1.19171515313E+01	-1.59466163704E+02	2.38325454577E+01	1.35879535911E+02	-5.05241271694E+01	-1.33607899268E+02	-5.83264426288E+00	-1.46739526061E+00
