# Hz S DB R 50
! CMT, M5065, 19127446, 24.2.4/2
! Date: 11/8/2024 5:24:35 PM
! Data: Format (Calibration Info)
! Freq	S11:dB/Ang(F2)	S21:dB/Ang(F2)	S12:dB/Ang(F2)	S22:dB/Ang(F2)
3.00000000000E+05	-1.16434244406E+01	-1.72324955765E+02	2.07403665703E+01	-1.76357614824E+02	-4.59509059704E+01	7.36872067782E+01	-5.85976858999E+00	-7.17359293781E-01
3.22191354595E+05	-1.42014731502E+01	1.67686539175E+02	2.07647140686E+01	-1.77032653636E+02	-4.62357332520E+01	-1.79504905877E+02	-5.82889685207E+00	-2.14459855375E-01
3.44382709190E+05	-1.12858747768E+01	-1.69070257212E+02	2.07407527121E+01	-1.77793454353E+02	-4.80955210105E+01	-1.62386551151E+02	-5.86029010189E+00	-4.85436419675E-01
3.66574063785E+05	-1.56700288494E+01	-1.71496251182E+02	2.07855149270E+01	-1.78419878514E+02	-4.44477212485E+01	5.00695407588E+01	-5.88824005733E+00	-8.66605470449E-01
3.88765418380E+05	-1.62604883081E+01	-1.78939097728E+02	2.10563285999E+01	1.78804873455E+02	-4.54106719454E+01	1.02575569434E+02	-5.88417769428E+00	-1.58091426613E+00
4.10956772975E+05	-1.37579949270E+01	-1.71964436709E+02	2.07581582014E+01	-1.79450537213E+02	-5.04751297734E+01	1.66444103200E+02	-5.85340288503E+00	-5.11947486044E-01
4.33148127570E+05	-1.13679729440E+01	1.77144212802E+02	2.07523577391E+01	-1.79914239594E+02	-3.98285748905E+01	-9.59566033098E+01	-5.87838297313E+00	2.59543222250E-02
4.55339482165E+05	-1.12237194698E+01	-1.68425118073E+02	2.07493201555E+01	1.79399998956E+02	-4.74247512370E+01	-9.60554662188E+01	-5.90119576199E+00	-2.41412477506E-01
4.77530836760E+05	-1.39220166327E+01	-1.64351198089E+02	2.07682104305E+01	1.78981798526E+02	-4.50239732665E+01	-2.70991734239E+01	-5.90178640406E+00	-4.09647962663E-01
4.99722191355E+05	-1.22967075943E+01	-1.70039269389E+02	2.07517290085E+01	1.78469653364E+02	-4.50609860548E+01	-1.93631732383E+01	-5.90896815158E+00	-2.82247471929E-01
5.21913545950E+05	-1.19451328378E+01	1.72468052455E+02	2.07563271049E+01	1.78245751729E+02	-5.59689709414E+01	1.49767764889E+01	-5.87645781749E+00	-3.86163403431E-01
5.44104900545E+05	-1.11138867494E+01	1.79051185517E+02	2.07270362470E+01	1.77891936044E+02	-4.55161452767E+01	-9.85576429659E+01	-5.86546529877E+00	-1.80305905243E-01
5.66296255139E+05	-9.67283092144E+00	1.67817821053E+02	2.07101646029E+01	1.77390264832E+02	-4.47611603534E+01	-1.25206968583E+02	-5.85590762670E+00	-2.87776331229E-01
5.88487609734E+05	-1.30211992987E+01	-1.71404526841E+02	2.07496333329E+01	1.76951184711E+02	-4.16837215584E+01	1.63841021622E+01	-5.88768366557E+00	-8.76180843229E-01
6.10678964329E+05	-1.34056630554E+01	-1.67074879996E+02	2.07684261589E+01	1.76471905830E+02	-4.45767925847E+01	-9.45409301626E+01	-5.88668220301E+00	2.87234732987E-01
6.32870318924E+05	-1.12640908958E+01	-1.78946314539E+02	2.07317959594E+01	1.76054141901E+02	-3.88563050071E+01	-1.66317914905E+02	-5.80914586516E+00	-3.53260302353E-02
6.55061673519E+05	-1.52527714504E+01	-1.77190559198E+02	2.07580925373E+01	1.75864959906E+02	-5.00803134164E+01	-1.94686440149E+01	-5.87429741127E+00	-2.98808915838E-01
6.77253028114E+05	-1.19036903938E+01	-1.70857093709E+02	2.07437194002E+01	1.75527112963E+02	-5.18526159415E+01	9.55712313789E+01	-5.87311246164E+00	-8.27154623889E-01
6.99444382709E+05	-1.41731578522E+01	1.71393149723E+02	2.07616492646E+01	1.75215243592E+02	-5.04838334340E+01	-1.73628175270E+02	-5.86477016028E+00	-4.67172767862E-01
7.21635737304E+05	-1.74176934984E+01	1.78877053279E+02	2.07470540319E+01	1.74843684810E+02	-5.19775154223E+01	1.26489817159E+02	-5.84672273246E+00	-6.76532146345E-01
7.43827091899E+05	-1.33010264740E+01	-1.73799877224E+02	2.07337540257E+01	1.74322966983E+02	-4.19678469497E+01	9.51086283795E-01	-5.88676935030E+00	-6.43327287695E-01
7.66018446494E+05	-1.47593749562E+01	-1.60675120433E+02	2.07775492888E+01	1.73877499945E+02	-4.78790377351E+01	1.73456585116E+02	-5.84210547870E+00	-6.32823786448E-01
7.88209801089E+05	-2.15235225125E+01	-1.65084272688E+02	2.07599937811E+01	1.73825647836E+02	-4.50396743984E+01	-1.76915229524E+02	-5.81456622426E+00	-5.60718491784E-01
8.10401155684E+05	-1.28349551256E+01	-1.73591273044E+02	2.07141233618E+01	1.73370148281E+02	-4.42636589569E+01	-3.40418787644E+01	-5.91296265592E+00	-3.90151460385E-01
8.32592510279E+05	-1.25277334776E+01	-1.60708281404E+02	2.07175613090E+01	1.73001729349E+02	-5.31157085071E+01	1.35663172205E+02	-5.85000965123E+00	-6.55092632743E-01
8.54783864874E+05	-1.40292743654E+01	1.63152668106E+02	2.07162357625E+01	1.72964112579E+02	-4.68418682505E+01	-1.27545854582E+01	-5.89267197909E+00	-6.43357802869E-01
8.76975219469E+05	-1.34779118107E+01	-1.66383356178E+02	2.07259078127E+01	1.72338826529E+02	-4.23622144551E+01	1.64973985384E+02	-5.82666468321E+00	-5.64730389940E-01
8.99166574064E+05	-1.01691389446E+01	1.79598767984E+02	2.06763500855E+01	1.72194836694E+02	-3.98485166424E+01	1.16573912213E+02	-5.84122112003E+00	-7.64604769922E-01
9.21357928659E+05	-1.44982657664E+01	1.67286174666E+02	2.07171639530E+01	1.71962770096E+02	-4.08499794269E+01	6.46061110830E+01	-5.90819802592E+00	-9.97763415438E-01
9.43549283254E+05	-8.38276751405E+00	-1.59924663559E+02	2.06686103699E+01	1.71267929846E+02	-4.70884968385E+01	-2.50915948268E+01	-5.89929709868E+00	-5.83451716469E-01
9.65740637849E+05	-1.33857778480E+01	-1.65222128744E+02	2.07144632641E+01	1.71183038672E+02	-5.29688786256E+01	-1.11613185810E+02	-5.87864169282E+00	-4.72024180328E-01
9.87931992444E+05	-1.28346632827E+01	-1.63910866094E+02	2.07099490062E+01	1.70883118846E+02	-4.53881039957E+01	1.74956147923E+01	-5.90727154020E+00	-6.39903007032E-01
1.01012334704E+06	-1.18889292295E+01	-1.67070009479E+02	2.06899278672E+01	1.70456132299E+02	-5.59208457019E+01	-7.51837008044E+01	-5.88049382375E+00	-5.10296181288E-01
1.03231470163E+06	-1.35764300524E+01	-1.74033157681E+02	2.06713673235E+01	1.70335237381E+02	-6.02326090420E+01	3.97231783401E+01	-5.86000706868E+00	-6.87151907900E-01
1.05450605623E+06	-9.95771529965E+00	-1.73437956045E+02	2.06584910438E+01	1.70078259443E+02	-4.40177285808E+01	-1.45132315398E+02	-5.84608766333E+00	-5.45671918675E-01
1.07669741082E+06	-1.44427527627E+01	1.70258073509E+02	2.06646547085E+01	1.70076223191E+02	-5.03246469856E+01	1.51863808997E+02	-5.84375118726E+00	-1.23640375945E+00
1.09888876542E+06	-1.19063451276E+01	-1.67756754385E+02	2.06715495540E+01	1.69437099745E+02	-4.76449898728E+01	-1.56757852056E+02	-5.83029517745E+00	-5.53470718003E-01
1.12108012001E+06	-1.38515885961E+01	-1.74575493679E+02	2.06889543429E+01	1.69321343339E+02	-4.07515685367E+01	-8.41177351596E+01	-5.89460574486E+00	-9.18854250219E-02
1.14327147461E+06	-1.41968965738E+01	-1.55229371327E+02	2.07096051928E+01	1.68902752943E+02	-4.27269317631E+01	1.09649475246E+02	-5.83340787332E+00	-8.47439783867E-01
1.16546282920E+06	-1.48071778101E+01	-1.57334394838E+02	2.06998730211E+01	1.68659726739E+02	-3.85241710741E+01	1.32962618982E+02	-5.81607217917E+00	-1.16178941617E+00
1.18765418380E+06	-1.50146437942E+01	1.63571745040E+02	2.06508209257E+01	1.68636187757E+02	-4.86282812504E+01	-1.47873837267E+02	-5.87994333592E+00	-6.79907363060E-01
1.20984553839E+06	-1.32780750475E+01	-1.41391978837E+02	2.06827632017E+01	1.68011947833E+02	-4.37436718320E+01	-4.80814375948E+01	-5.91622554653E+00	-9.77878427723E-01
1.23203689299E+06	-1.43235115506E+01	-1.74974099761E+02	2.06628112862E+01	1.67943380176E+02	-4.28910132569E+01	1.61911510572E+02	-5.84670101097E+00	-4.81328230532E-01
1.25422824758E+06	-1.16074435100E+01	1.77558142223E+02	2.06434013344E+01	1.67718041869E+02	-5.40203499174E+01	-1.47059881216E+02	-5.84995643571E+00	-6.60092059120E-01
1.27641960218E+06	-1.29179125444E+01	-1.75497244674E+02	2.06501637199E+01	1.67348409112E+02	-4.14556067522E+01	-1.29464003423E+01	-5.94229557302E+00	-7.90512355883E-01
1.29861095677E+06	-1.35983625116E+01	1.68544259297E+02	2.06372704974E+01	1.67303599460E+02	-4.29063875609E+01	-4.09866671031E+01	-5.91645726631E+00	-4.04362765383E-01
1.32080231137E+06	-1.28737390476E+01	-1.69041438350E+02	2.06567374906E+01	1.66812836384E+02	-4.27991360148E+01	-2.94702625469E+01	-5.90405025132E+00	-8.61371441535E-01
1.34299366596E+06	-1.14815821329E+01	-1.67242340548E+02	2.06523395311E+01	1.66525263366E+02	-3.94717089481E+01	-1.59677387656E+02	-5.76521671949E+00	-6.08692334735E-01
1.36518502056E+06	-1.20762882036E+01	-1.64376418906E+02	2.06477796593E+01	1.66181054859E+02	-4.84183311491E+01	1.58025903888E+02	-5.86049304174E+00	-6.73283140443E-01
1.38737637515E+06	-1.22332329885E+01	-1.78577550777E+02	2.06100900300E+01	1.65999050206E+02	-4.16935900746E+01	1.79072513787E+02	-5.83879188115E+00	-5.32934615444E-01
1.40956772975E+06	-1.92846113394E+01	1.50281383735E+02	2.06286909520E+01	1.66019721416E+02	-4.61528405426E+01	-6.23127924599E+01	-5.89517734264E+00	-6.85764126952E-01
1.43175908434E+06	-1.44821373675E+01	1.60971876786E+02	2.06301865837E+01	1.65769477598E+02	-4.25594381080E+01	-5.43440330191E-01	-5.93494464089E+00	-9.65066941544E-01
1.45395043894E+06	-1.23558653096E+01	1.78803535425E+02	2.06219440190E+01	1.65405665099E+02	-3.93610270093E+01	3.97093165391E+01	-5.94499135158E+00	-1.27884610194E+00
1.47614179353E+06	-1.37520674957E+01	1.76926731304E+02	2.06157231529E+01	1.65272001506E+02	-4.54943145374E+01	-1.16813915504E+02	-5.84042483439E+00	-4.54164734176E-01
1.49833314813E+06	-1.50081291191E+01	1.78988043560E+02	2.06280667469E+01	1.64897948400E+02	-4.36628740764E+01	1.50912032931E+02	-5.82064577037E+00	-9.43284703995E-01
1.52052450272E+06	-1.22690158797E+01	-1.64160981072E+02	2.06126511282E+01	1.64424972916E+02	-4.41494562614E+01	-3.15697630729E+01	-5.88127877074E+00	-8.64166364387E-01
1.54271585732E+06	-1.14163909934E+01	-1.65231833625E+02	2.06089749863E+01	1.64199736370E+02	-5.22482503829E+01	-6.72026203297E+01	-5.89286406089E+00	-8.56032949274E-01
1.56490721191E+06	-1.21679200191E+01	-1.67074678116E+02	2.06155608582E+01	1.63975828273E+02	-5.39904697102E+01	-6.11433722131E+01	-5.87033933080E+00	-8.67016200554E-01
1.58709856651E+06	-1.23573716455E+01	-1.77756139154E+02	2.05962967464E+01	1.63869045266E+02	-4.49272313558E+01	9.78977582009E+00	-5.90954807091E+00	-7.81372896608E-01
1.60928992110E+06	-1.31584258346E+01	-1.64620582836E+02	2.06129689739E+01	1.63512533985E+02	-4.84855964272E+01	1.51825317918E+02	-5.81497682725E+00	-9.35383503815E-01
1.63148127570E+06	-1.27166971162E+01	-1.58252250794E+02	2.06201947274E+01	1.62997606181E+02	-3.92669176308E+01	-6.88318776254E+01	-5.92503235706E+00	-4.81666843156E-01
1.65367263029E+06	-1.16435506044E+01	-1.56092453754E+02	2.05847051899E+01	1.62840808168E+02	-4.36986128912E+01	7.64657474666E+00	-5.92797932127E+00	-1.11326867533E+00
1.67586398489E+06	-1.58257085831E+01	1.79267653502E+02	2.05971832050E+01	1.62997750721E+02	-4.56841854646E+01	-7.49176792619E+01	-5.85676352195E+00	-4.12307162625E-01
1.69805533948E+06	-1.34237201692E+01	1.72933136343E+02	2.05721885012E+01	1.62672293397E+02	-3.97519697058E+01	1.42115666199E+02	-5.80437450839E+00	-8.31597012770E-01
1.72024669408E+06	-2.02157177593E+01	1.76258567896E+02	2.05953856604E+01	1.62414680302E+02	-4.39542703182E+01	1.12310740888E+02	-5.84063066640E+00	-1.14862662662E+00
1.74243804867E+06	-1.51100800363E+01	1.79392252958E+02	2.05893559095E+01	1.62016171075E+02	-4.78644788054E+01	1.27361458406E+02	-5.83799490657E+00	-1.19969072381E+00
1.76462940327E+06	-1.64776728419E+01	-1.79277276055E+02	2.05815160539E+01	1.61722778936E+02	-4.92317467492E+01	-5.86870201729E+01	-5.91544470830E+00	-8.99191332321E-01
1.78682075786E+06	-1.35238099192E+01	1.78558091063E+02	2.05579027530E+01	1.61773787269E+02	-4.26685392748E+01	-6.52326836988E+01	-5.89524265055E+00	-7.41709242296E-01
1.80901211246E+06	-1.51225247484E+01	-1.62580657690E+02	2.05774537339E+01	1.61277563573E+02	-4.09233549184E+01	-1.75933323584E+02	-5.78633806464E+00	-9.33835278459E-01
1.83120346705E+06	-1.61914272336E+01	-1.66134044075E+02	2.05799326223E+01	1.61050460516E+02	-3.91734925362E+01	8.65816850557E+01	-5.86670529009E+00	-1.20689258313E+00
1.85339482165E+06	-1.08357425265E+01	-1.77438903794E+02	2.05343678976E+01	1.60829476154E+02	-4.20342222558E+01	7.88545853774E+01	-5.83264404171E+00	-1.38599919079E+00
1.87558617624E+06	-9.85470849620E+00	-1.61190257104E+02	2.05457378214E+01	1.60291884422E+02	-4.16016941129E+01	-8.50399982615E+01	-5.87833493272E+00	-4.92606447395E-01
1.89777753084E+06	-1.29669697713E+01	-1.63033462297E+02	2.05505174504E+01	1.60205081958E+02	-5.22262107806E+01	4.78815510721E+01	-5.90731142943E+00	-1.26395886976E+00
1.91996888543E+06	-1.34428177528E+01	-1.53262534491E+02	2.05682183449E+01	1.59821389295E+02	-5.53626857058E+01	6.67941459424E+01	-5.86492205812E+00	-1.13582323038E+00
1.94216024003E+06	-1.42017605758E+01	-1.57116035526E+02	2.05635265043E+01	1.59646946866E+02	-4.60725283155E+01	-2.09897079978E+00	-5.91019757168E+00	-1.08445001226E+00
1.96435159462E+06	-1.13094228683E+01	-1.71179164564E+02	2.05347064628E+01	1.59398587951E+02	-4.37575404880E+01	-2.99735970751E+01	-5.91830924982E+00	-8.85537241212E-01
1.98654294922E+06	-1.20176959550E+01	1.72734690162E+02	2.04999030315E+01	1.59405562181E+02	-3.66532750529E+01	-1.43732198088E+02	-5.80859151040E+00	-3.80559193012E-01
2.00873430381E+06	-1.12899773842E+01	-1.59733471821E+02	2.05214204878E+01	1.58740589317E+02	-4.49467870361E+01	-9.47359220511E+01	-5.85800953920E+00	-9.13083592885E-01
2.03092565841E+06	-9.51714768665E+00	-1.42606468307E+02	2.05228206054E+01	1.58478877089E+02	-4.96148502382E+01	-7.67710557831E+01	-5.87545586442E+00	-9.77797611125E-01
2.05311701300E+06	-1.02120316581E+01	-1.74302999055E+02	2.04884074226E+01	1.58483326253E+02	-4.97757299813E+01	1.67468657892E+02	-5.85756614036E+00	-1.12418977411E+00
2.07530836760E+06	-1.44065656071E+01	-1.53078957061E+02	2.05453795042E+01	1.58263336153E+02	-5.17058412759E+01	9.61544014680E+01	-5.85758266789E+00	-1.15247904846E+00
2.09749972219E+06	-1.37860868451E+01	-1.59511731079E+02	2.05219071275E+01	1.57910841617E+02	-5.34913435198E+01	9.67466251736E+01	-5.86910658554E+00	-1.22038079711E+00
2.11969107679E+06	-1.16213200272E+01	-1.68679625916E+02	2.04954179338E+01	1.57620628024E+02	-3.87119210237E+01	9.53358667864E+01	-5.81550271119E+00	-1.72789339406E+00
2.14188243138E+06	-1.53908119780E+01	-1.34498086093E+02	2.05549858711E+01	1.57390889752E+02	-4.45229187303E+01	3.83485669725E+01	-5.90867766730E+00	-1.33537146488E+00
2.16407378598E+06	-1.40063493588E+01	-1.71231062441E+02	2.05016392503E+01	1.57333586045E+02	-3.76543114966E+01	-1.51515570358E+02	-5.84323815190E+00	-7.27762573439E-01
2.18626514057E+06	-8.81325993815E+00	-1.65411525730E+02	2.04817178969E+01	1.56887247248E+02	-4.14738190136E+01	-3.79175292590E+01	-5.93647875791E+00	-8.87532087859E-01
2.20845649517E+06	-1.36692483977E+01	-1.49903934327E+02	2.05318921444E+01	1.56687132214E+02	-4.41510704237E+01	-6.79076666151E+01	-5.88847503086E+00	-9.14540846124E-01
2.23064784976E+06	-1.41013649687E+01	-1.71088936058E+02	2.04997848334E+01	1.56637342808E+02	-4.36506911502E+01	-7.31343954390E+01	-5.90745879062E+00	-9.16917234145E-01
2.25283920436E+06	-1.08523222416E+01	-1.59835795915E+02	2.04807155963E+01	1.56076744501E+02	-3.94876151941E+01	-1.35509961586E+02	-5.83421777252E+00	-8.54537185999E-01
2.27503055895E+06	-1.13360007818E+01	-1.58164423983E+02	2.04667554947E+01	1.55898814165E+02	-5.22223672170E+01	-4.05528392631E+00	-5.88909489806E+00	-1.24723325054E+00
2.29722191355E+06	-1.34378087447E+01	-1.70487500233E+02	2.04639851434E+01	1.55883897520E+02	-4.74046125808E+01	7.93618743375E+01	-5.91420792829E+00	-1.57728016338E+00
2.31941326814E+06	-1.11779952848E+01	-1.63380645033E+02	2.04625915515E+01	1.55426301830E+02	-3.90392836107E+01	-1.00754885546E+02	-5.94920243865E+00	-8.75495142509E-01
2.34160462274E+06	-1.51148706362E+01	1.50202979312E+02	2.04618159787E+01	1.55567608294E+02	-5.27551877966E+01	-7.41122392546E+01	-5.90712121644E+00	-1.13390628389E+00
2.36379597733E+06	-6.96410289150E+00	1.54334191180E+02	2.03927893340E+01	1.55192662808E+02	-6.23586915718E+01	-4.24514180008E+01	-5.90275908536E+00	-1.42055337561E+00
2.38598733193E+06	-1.32882009673E+01	-1.63271847425E+02	2.04510601067E+01	1.54838018900E+02	-4.30074962045E+01	1.12383429721E+01	-5.93621202822E+00	-1.46370619503E+00
2.40817868652E+06	-1.34223925694E+01	1.74598004660E+02	2.04324579822E+01	1.54839524753E+02	-4.76731253989E+01	3.57904875094E+01	-5.90938646233E+00	-1.45334248667E+00
2.43037004112E+06	-1.23300517090E+01	-1.67886001115E+02	2.04289201991E+01	1.54274721836E+02	-5.11894385021E+01	-1.10208512227E+02	-5.88266704425E+00	-1.63408867921E+00
2.45256139571E+06	-1.17540659181E+01	-1.65096254003E+02	2.04187524010E+01	1.53961924337E+02	-4.08625383520E+01	-5.70876877863E+01	-5.90860942835E+00	-9.37722658943E-01
2.47475275031E+06	-1.13553345842E+01	-1.73591967553E+02	2.04114788065E+01	1.53874497515E+02	-3.36522511230E+01	-9.44871110385E+01	-5.91008409672E+00	-6.69973845258E-01
2.49694410490E+06	-1.40696745840E+01	-1.77552593187E+02	2.04292316317E+01	1.53643030843E+02	-4.58496749648E+01	1.04341177133E+02	-5.86796556684E+00	-1.61241814181E+00
2.51913545950E+06	-1.08634697003E+01	-1.72680454530E+02	2.04141251785E+01	1.53277084106E+02	-4.71334313251E+01	1.93328366322E+01	-5.91157905003E+00	-1.45234382781E+00
2.54132681409E+06	-1.45847706351E+01	-1.69614380471E+02	2.04285681064E+01	1.53325345198E+02	-4.57971988824E+01	1.19036213773E+02	-5.83175357749E+00	-1.58277435433E+00
2.56351816869E+06	-1.47905130992E+01	-1.71367334174E+02	2.04162903824E+01	1.53027819984E+02	-5.19848106542E+01	5.56543504748E+01	-5.86850786485E+00	-1.30652351643E+00
2.58570952328E+06	-1.36061620965E+01	-1.77166859825E+02	2.04108407415E+01	1.52740498070E+02	-4.30686329310E+01	1.00822003931E+02	-5.85590286772E+00	-1.81039689197E+00
2.60790087788E+06	-1.38846635304E+01	-1.55586823359E+02	2.04190693932E+01	1.52401416954E+02	-4.50855893398E+01	-1.75941743975E+02	-5.81519558809E+00	-1.13817507313E+00
2.63009223247E+06	-1.27316327366E+01	1.73958394072E+02	2.03833043824E+01	1.52348134860E+02	-4.39485256452E+01	-5.32835207920E+01	-5.90173808463E+00	-8.49823335728E-01
2.65228358707E+06	-1.66417442431E+01	1.63628168377E+02	2.04115379836E+01	1.52178927442E+02	-4.08734473375E+01	-9.08746341278E+01	-5.88682525384E+00	-8.74444169690E-01
2.67447494166E+06	-1.39468998262E+01	-1.61737546171E+02	2.04151590519E+01	1.51741603949E+02	-5.11592064009E+01	-1.29840767035E+02	-5.86806635739E+00	-1.30875315852E+00
2.69666629626E+06	-1.27422239641E+01	-1.56132260233E+02	2.04066025668E+01	1.51238666756E+02	-4.33720651581E+01	5.07938303353E+01	-5.89828129532E+00	-1.62685327723E+00
2.71885765085E+06	-1.20135148487E+01	-1.60135947137E+02	2.03877674269E+01	1.51142427867E+02	-4.59632303240E+01	-1.26471234945E+02	-5.85645833035E+00	-1.29386346403E+00
2.74104900545E+06	-1.13074035866E+01	-1.70848055517E+02	2.03477602611E+01	1.50864445111E+02	-5.13499642591E+01	-1.50419417273E+02	-5.85907381878E+00	-1.53055899041E+00
2.76324036004E+06	-1.44052097454E+01	-1.66955535378E+02	2.03958476248E+01	1.50875774927E+02	-4.99886663533E+01	-1.43799255281E+02	-5.86607436601E+00	-1.16146590866E+00
2.78543171463E+06	-1.11766316753E+01	-1.67032767866E+02	2.03482140364E+01	1.50445285428E+02	-4.48916200338E+01	1.33461694444E+02	-5.84312728312E+00	-1.39950063621E+00
2.80762306923E+06	-1.33063172609E+01	-1.68367667555E+02	2.03763309766E+01	1.50301651020E+02	-4.68301260768E+01	1.64977996662E+02	-5.81633885530E+00	-1.72665540263E+00
2.82981442382E+06	-1.22458162488E+01	-1.69061656490E+02	2.03352383981E+01	1.50041613080E+02	-4.61231513552E+01	-3.50090162000E+01	-5.92268700978E+00	-1.47142254715E+00
2.85200577842E+06	-1.13111180021E+01	-1.61063925614E+02	2.03442943615E+01	1.49595295941E+02	-5.42076740223E+01	-1.54310690351E+02	-5.87577956936E+00	-1.36766677855E+00
2.87419713301E+06	-1.02693409932E+01	-1.63302399937E+02	2.03185968447E+01	1.49260179571E+02	-4.26448257570E+01	-1.51655006252E+01	-5.94655695554E+00	-1.43121712240E+00
