# Hz S DB R 50
! CMT, M5065, 19127446, 24.2.4/2
! Date: 11/8/2024 5:22:26 PM
! Data: Format (Calibration Info)
! Freq	S11:dB/Ang(F2)	S21:dB/Ang(F2)	S12:dB/Ang(F2)	S22:dB/Ang(F2)
3.00000000000E+05	-1.22022432712E+01	-1.66776136965E+02	1.77903793917E+01	-1.76650824126E+02	-4.31870776752E+01	3.01667151101E+01	-5.87896023905E+00	-2.83567278371E-01
3.22191354595E+05	-1.68315668681E+01	1.72314366858E+02	1.78255739936E+01	-1.77275476332E+02	-3.91221653730E+01	-1.41449418136E+02	-5.80414060629E+00	-9.96363617110E-03
3.44382709190E+05	-1.05894755487E+01	-1.59016124543E+02	1.77824844960E+01	-1.78101148515E+02	-4.42864006088E+01	9.19642000083E+01	-5.88704695478E+00	-6.91273385539E-01
3.66574063785E+05	-1.25242979712E+01	-1.56756068172E+02	1.78039418984E+01	-1.78507553291E+02	-5.78390249195E+01	-1.65864654409E+02	-5.87310597412E+00	-2.92107936358E-01
3.88765418380E+05	-1.34854332840E+01	-1.75462025007E+02	1.78748094835E+01	-1.78963074987E+02	-4.73018466121E+01	4.94765367938E+01	-5.66863140786E+00	-5.31133897972E-01
4.10956772975E+05	-1.13845418366E+01	-1.62632526724E+02	1.77750319483E+01	-1.79440525276E+02	-4.38172608325E+01	1.48891905054E+02	-5.82740279649E+00	-3.77227185407E-01
4.33148127570E+05	-1.60419543304E+01	1.77678067477E+02	1.78226130700E+01	-1.79785926641E+02	-4.21973933379E+01	-5.97976902907E+01	-5.91584404698E+00	-1.58095958999E-01
4.55339482165E+05	-1.41772855523E+01	-1.78856811848E+02	1.78050601346E+01	1.79891369881E+02	-4.87512737915E+01	-1.53828832063E+02	-5.84257403337E+00	-4.67535427860E-01
4.77530836760E+05	-1.49054497214E+01	-1.61161711174E+02	1.78113226441E+01	1.79412985108E+02	-4.43651736834E+01	9.53873317236E+01	-5.87641320585E+00	-6.86409801773E-01
4.99722191355E+05	-1.45342454421E+01	-1.69554704780E+02	1.77974865023E+01	1.78901730898E+02	-4.21937143160E+01	-1.27983683354E+02	-5.83768943303E+00	-1.95019295777E-01
5.21913545950E+05	-1.38893778257E+01	-1.67617533815E+02	1.78071451029E+01	1.78619453669E+02	-4.86526131326E+01	-2.11979737122E+01	-5.88819610860E+00	-2.78456818485E-01
5.44104900545E+05	-1.29005448561E+01	1.72632696254E+02	1.77996582162E+01	1.78652953078E+02	-4.20110811000E+01	1.45534250777E+02	-5.85140040040E+00	-6.09982686497E-01
5.66296255139E+05	-1.13964177614E+01	-1.66091748559E+02	1.77933076819E+01	1.77905865109E+02	-4.22401713676E+01	1.41328368126E+02	-5.83778792875E+00	-4.92658291899E-01
5.88487609734E+05	-1.38285928956E+01	-1.54669635251E+02	1.78361918756E+01	1.77537822279E+02	-5.33359314904E+01	-1.34089338146E+02	-5.85748305752E+00	-4.23862849793E-01
6.10678964329E+05	-1.24161395011E+01	-1.76303194291E+02	1.77999881563E+01	1.77545495389E+02	-4.48161932367E+01	8.16287600627E+01	-5.88459184774E+00	-1.25504679784E-01
6.32870318924E+05	-1.37990283626E+01	-1.75639921385E+02	1.77990351616E+01	1.77277157495E+02	-4.46229674769E+01	-1.40106568674E+02	-5.83016951520E+00	-2.92748075068E-02
6.55061673519E+05	-1.29669361424E+01	-1.67979204761E+02	1.77775974832E+01	1.76932562537E+02	-3.68000082056E+01	8.63124454463E+01	-5.85358850804E+00	-5.83922164898E-01
6.77253028114E+05	-1.70708056805E+01	-1.75060186088E+02	1.78211061410E+01	1.76665664900E+02	-5.03686053437E+01	-7.22642875160E+00	-5.87243728819E+00	-7.35666866770E-01
6.99444382709E+05	-1.27175877482E+01	-1.70071246829E+02	1.78097443038E+01	1.76223295451E+02	-3.93048795407E+01	-6.23758579843E+01	-5.89202479920E+00	9.50619917760E-03
7.21635737304E+05	-1.16345319285E+01	-1.68234423027E+02	1.77854954766E+01	1.75997200237E+02	-4.73255457161E+01	-5.67447272420E+01	-5.87939215569E+00	-5.66652858236E-01
7.43827091899E+05	-1.73707464311E+01	1.77743957848E+02	1.78110505745E+01	1.75890181997E+02	-4.66167919665E+01	-3.10852018666E+01	-5.89996251286E+00	-3.57459687471E-01
7.66018446494E+05	-1.07591313020E+01	1.73169710403E+02	1.77581673686E+01	1.75455968340E+02	-4.30683150012E+01	-7.28207598598E+01	-5.87953008601E+00	-1.46967859743E-01
7.88209801089E+05	-1.23819279890E+01	-1.75413115289E+02	1.77676662221E+01	1.75301940695E+02	-4.15599496428E+01	-1.49515336974E+02	-5.83749033855E+00	-1.42309654761E-01
8.10401155684E+05	-1.59071754361E+01	1.72628494538E+02	1.78027066928E+01	1.74982477064E+02	-3.63024077665E+01	-4.56885751124E+01	-5.94336051027E+00	-1.17839125024E-01
8.32592510279E+05	-1.27591750042E+01	-1.68477313046E+02	1.77941856512E+01	1.74775233023E+02	-4.42443728503E+01	-8.41935871785E+01	-5.86584978024E+00	-5.85531300218E-01
8.54783864874E+05	-1.26109788744E+01	-1.67691168354E+02	1.77821447062E+01	1.74283837908E+02	-3.84694014345E+01	-1.13583776794E+02	-5.84297804441E+00	-9.14962681918E-02
8.76975219469E+05	-1.20558064422E+01	-1.59378078533E+02	1.77710435004E+01	1.74215792850E+02	-4.21773908221E+01	7.36042549483E+01	-5.87763052142E+00	-8.22727900302E-01
8.99166574064E+05	-1.54385737264E+01	-1.73300660436E+02	1.78015355919E+01	1.74085076319E+02	-4.52204595564E+01	1.57870433318E+02	-5.86503277859E+00	-5.27137241377E-01
9.21357928659E+05	-1.47322689619E+01	1.73280784777E+02	1.77831130742E+01	1.73745223283E+02	-4.80894670745E+01	-1.57233010105E+02	-5.84279198563E+00	-4.90976619004E-01
9.43549283254E+05	-1.33063426391E+01	-1.64269063800E+02	1.77899833580E+01	1.73494322314E+02	-5.01501047518E+01	7.63153161148E+01	-5.85640401198E+00	-7.25937191914E-01
9.65740637849E+05	-1.41456062822E+01	-1.72679740320E+02	1.77690093673E+01	1.73524046720E+02	-5.61983613254E+01	1.68844742204E+02	-5.83294711711E+00	-5.88897195743E-01
9.87931992444E+05	-1.78128603081E+01	-1.65827053374E+02	1.78037850368E+01	1.73144242940E+02	-5.07421120957E+01	-5.89735968408E+01	-5.90801001167E+00	-7.14209412355E-01
1.01012334704E+06	-1.54443126340E+01	1.67256077611E+02	1.77892624078E+01	1.72938736069E+02	-4.51108206348E+01	-1.78997051450E+02	-5.86441670322E+00	-5.10181008031E-01
1.03231470163E+06	-1.20855157183E+01	-1.78507865582E+02	1.77601543914E+01	1.72727605916E+02	-4.30552489498E+01	4.12951490363E+01	-5.89036683783E+00	-9.11372997599E-01
1.05450605623E+06	-1.65647258435E+01	-1.62247865198E+02	1.77887435636E+01	1.72267217830E+02	-4.14836949207E+01	-9.24731519809E+01	-5.88534351338E+00	-2.14887860982E-01
1.07669741082E+06	-1.12436131785E+01	-1.48139409321E+02	1.78097834691E+01	1.71989398955E+02	-4.30236657017E+01	-1.75899623156E+02	-5.81153702001E+00	-6.56806042419E-01
1.09888876542E+06	-1.21869179340E+01	-1.78837234508E+02	1.77569097917E+01	1.71947764925E+02	-4.80376942763E+01	-9.54817465330E+00	-5.90144946367E+00	-6.36080363158E-01
1.12108012001E+06	-1.31535401410E+01	-1.66408923312E+02	1.77719984873E+01	1.71614746830E+02	-4.02599785442E+01	8.21232695801E+01	-5.87626191136E+00	-9.58863806595E-01
1.14327147461E+06	-1.26543599406E+01	1.79013660944E+02	1.77714998350E+01	1.71612587214E+02	-4.27648407041E+01	-4.26228444512E+01	-5.91869296036E+00	-5.31345014917E-01
1.16546282920E+06	-1.32693514590E+01	-1.53601859165E+02	1.77830108069E+01	1.71325452003E+02	-4.30946957367E+01	-3.96300850213E+01	-5.91887496817E+00	-6.49389382671E-01
1.18765418380E+06	-1.11483741745E+01	-1.72740616761E+02	1.77424333015E+01	1.71083762251E+02	-4.91924246086E+01	-8.44240744919E+01	-5.87676370865E+00	-5.33191657167E-01
1.20984553839E+06	-1.46745551876E+01	-1.77094506431E+02	1.77618981493E+01	1.70974585451E+02	-4.79587532116E+01	1.28559779589E+01	-5.88310827397E+00	-8.46106536516E-01
1.23203689299E+06	-1.08048989637E+01	-1.74142028313E+02	1.77351135706E+01	1.70719452634E+02	-4.41860942212E+01	-1.42211602007E+02	-5.87565888801E+00	-3.53206879008E-01
1.25422824758E+06	-1.13826519800E+01	-1.79212059691E+02	1.77477330515E+01	1.70408607391E+02	-4.09213048526E+01	-1.73226715654E+02	-5.81147636857E+00	-6.23322719625E-01
1.27641960218E+06	-1.18623354049E+01	-1.68942284095E+02	1.77419794466E+01	1.70202394296E+02	-4.33971789770E+01	-7.99196383621E+01	-5.89947336224E+00	-2.33653871036E-01
1.29861095677E+06	-1.83004399187E+01	-1.66833436390E+02	1.77791655271E+01	1.70165648992E+02	-4.66865480342E+01	-1.05966190038E+02	-5.88553718830E+00	-6.48344310428E-01
1.32080231137E+06	-1.32901544645E+01	-1.71343956645E+02	1.77604496599E+01	1.69765939571E+02	-4.43076025641E+01	6.23441719816E+01	-5.86905105686E+00	-1.19540642355E+00
1.34299366596E+06	-1.28473321876E+01	-1.52215581204E+02	1.77656094840E+01	1.69582224562E+02	-5.55265826491E+01	-1.67514619429E+02	-5.86579676422E+00	-7.41714503466E-01
1.36518502056E+06	-1.10842382458E+01	-1.78119457700E+02	1.77217874612E+01	1.69357111103E+02	-4.43675745703E+01	1.85657470858E+01	-5.89764093234E+00	-8.89333214054E-01
1.38737637515E+06	-1.33214272585E+01	-1.78652562789E+02	1.77420201033E+01	1.69317108376E+02	-4.94907215373E+01	1.00709487511E+02	-5.85773736268E+00	-9.87971788268E-01
1.40956772975E+06	-1.26492268288E+01	-1.70921850882E+02	1.77299612243E+01	1.68951717901E+02	-4.04201936676E+01	1.49244824708E+02	-5.83376299104E+00	-9.17831160347E-01
1.43175908434E+06	-1.34047029316E+01	-1.65185703794E+02	1.77523061296E+01	1.68828208248E+02	-4.00693467600E+01	-8.80920265067E+01	-5.88604160136E+00	-6.16697529896E-01
1.45395043894E+06	-1.04719076414E+01	-1.72554111690E+02	1.77026046083E+01	1.68597641299E+02	-5.35667501159E+01	-1.56741281321E+02	-5.89758185526E+00	-7.48997192039E-01
1.47614179353E+06	-1.55497347633E+01	-1.69144825744E+02	1.77496882737E+01	1.68480333519E+02	-5.70247603492E+01	1.02225076446E+02	-5.86183492837E+00	-9.51154347464E-01
1.49833314813E+06	-1.37121112195E+01	-1.68025305183E+02	1.77416116196E+01	1.68230387354E+02	-4.78210929951E+01	3.92643855349E+01	-5.89741787311E+00	-1.09075930898E+00
1.52052450272E+06	-1.34694971256E+01	1.74444428026E+02	1.77438435995E+01	1.68083455377E+02	-4.27229853672E+01	1.48673808440E+02	-5.82977182394E+00	-9.56460867192E-01
1.54271585732E+06	-1.30327938624E+01	-1.49000237360E+02	1.77257043423E+01	1.67634623657E+02	-4.72779084086E+01	2.98235570441E+01	-5.91755084214E+00	-1.01919105796E+00
1.56490721191E+06	-1.35582016716E+01	-1.65902577518E+02	1.77522990376E+01	1.67383540763E+02	-4.59808897469E+01	1.44853508090E+02	-5.85835703354E+00	-8.75023207042E-01
1.58709856651E+06	-1.54813627982E+01	1.75208388656E+02	1.77591586076E+01	1.67689618168E+02	-3.86840083064E+01	-1.22919408115E+02	-5.85394582322E+00	-3.18812904382E-01
1.60928992110E+06	-1.31139098271E+01	1.65991672567E+02	1.77156282100E+01	1.67385568944E+02	-3.74139096938E+01	-6.66171668841E+01	-5.89609004195E+00	-4.64493337918E-01
1.63148127570E+06	-1.12513703645E+01	1.63004472773E+02	1.77106216587E+01	1.67166587053E+02	-4.97639946280E+01	2.19058859884E+01	-5.88982637146E+00	-9.44292101920E-01
1.65367263029E+06	-1.23792314205E+01	-1.70956292176E+02	1.77128951120E+01	1.66673243959E+02	-4.44453660839E+01	-8.88753525187E+01	-5.87870578544E+00	-7.02553514878E-01
1.67586398489E+06	-1.21440723903E+01	1.75174795221E+02	1.77151432200E+01	1.66657443454E+02	-5.56170923087E+01	-1.16725203324E+02	-5.89768440912E+00	-1.03131410356E+00
1.69805533948E+06	-1.26255252154E+01	-1.67214735281E+02	1.77515502593E+01	1.66524625902E+02	-4.91176608557E+01	-2.26671035117E+01	-5.90464220709E+00	-9.39909522450E-01
1.72024669408E+06	-1.23104302562E+01	-1.33393589834E+02	1.77635855728E+01	1.66107002264E+02	-5.47630185626E+01	-7.15180046185E+01	-5.89221974255E+00	-9.14074243875E-01
1.74243804867E+06	-1.35036530893E+01	1.76810898070E+02	1.77300437010E+01	1.66167653016E+02	-4.84290958002E+01	-7.97177642184E+01	-5.90472502066E+00	-9.34611397167E-01
1.76462940327E+06	-1.15320511000E+01	-1.77239483710E+02	1.76951041554E+01	1.65818357328E+02	-4.70605677555E+01	3.35215279215E+00	-5.87739193113E+00	-7.74019412818E-01
1.78682075786E+06	-1.35786013213E+01	-1.78603411284E+02	1.77336320360E+01	1.65521224448E+02	-6.19972453508E+01	-8.61551769006E+01	-5.88383014868E+00	-1.05612615893E+00
1.80901211246E+06	-1.53970506009E+01	-1.78468442302E+02	1.77062246099E+01	1.65533087961E+02	-4.03642965368E+01	-1.51128115629E+02	-5.84177214245E+00	-6.00569866504E-01
1.83120346705E+06	-1.20996580855E+01	1.76618472538E+02	1.77183649083E+01	1.65375713139E+02	-4.43245063826E+01	1.49472146678E+02	-5.83323751709E+00	-1.09220362610E+00
1.85339482165E+06	-1.69476087966E+01	-1.67870563177E+02	1.77521440204E+01	1.65119143409E+02	-5.39775983432E+01	9.76271141123E+01	-5.86917020841E+00	-1.07633953553E+00
1.87558617624E+06	-1.13553800866E+01	-1.64212798999E+02	1.77135900373E+01	1.64699918871E+02	-4.77783793182E+01	-1.58883829087E+02	-5.85090931629E+00	-9.07960695975E-01
1.89777753084E+06	-1.40089931108E+01	-1.57696969140E+02	1.77273804687E+01	1.64609441460E+02	-5.43402167965E+01	-9.87709229566E+01	-5.86650388890E+00	-9.01863906323E-01
1.91996888543E+06	-1.40354592457E+01	-1.64518632382E+02	1.77400721715E+01	1.64362227573E+02	-4.53237746940E+01	-3.44587323348E+01	-5.92705548809E+00	-1.04257488844E+00
1.94216024003E+06	-1.18680478808E+01	-1.76069030639E+02	1.76859582974E+01	1.64236699366E+02	-4.50678520831E+01	-1.66500725409E+02	-5.84254173882E+00	-7.51597541315E-01
1.96435159462E+06	-1.23886195371E+01	-1.71790436463E+02	1.77071635348E+01	1.64010249677E+02	-4.76077674889E+01	-3.40622307507E+00	-5.90896870909E+00	-1.00892569274E+00
1.98654294922E+06	-1.33277887098E+01	-1.55252529762E+02	1.77466434552E+01	1.63771272459E+02	-4.76317237159E+01	8.06343225358E+01	-5.87738741444E+00	-1.24382422469E+00
2.00873430381E+06	-8.32873815206E+00	-1.65179731523E+02	1.76933273589E+01	1.63357204558E+02	-4.44233796689E+01	-4.44555853308E+01	-5.90683763595E+00	-8.25965267040E-01
2.03092565841E+06	-8.76830457506E+00	-1.71090448591E+02	1.76881585433E+01	1.63147452039E+02	-4.09481081444E+01	-1.49072285136E+02	-5.84266199445E+00	-9.39259496198E-01
2.05311701300E+06	-1.58163427745E+01	1.78181195248E+02	1.77291849740E+01	1.63392935934E+02	-4.15158586491E+01	1.40345044566E+02	-5.83636558505E+00	-1.44093781813E+00
2.07530836760E+06	-1.22944840533E+01	1.76608964339E+02	1.76670916161E+01	1.63085941163E+02	-2.92253102400E+01	2.69677325786E+01	-5.94654955513E+00	-1.90544399720E+00
2.09749972219E+06	-1.19393994791E+01	-1.68123477752E+02	1.77187552479E+01	1.62958799441E+02	-5.06544854207E+01	4.99998683569E+01	-5.87813163741E+00	-1.42591981033E+00
2.11969107679E+06	-1.38398304605E+01	-1.47319985537E+02	1.77159415738E+01	1.62695768538E+02	-4.66280627349E+01	7.97472998968E+00	-5.89207105059E+00	-1.23526114486E+00
2.14188243138E+06	-1.60806557050E+01	-1.62226903711E+02	1.77325369313E+01	1.62626145056E+02	-4.00215127543E+01	-5.39272324652E+01	-5.91991743169E+00	-9.30261496731E-01
2.16407378598E+06	-1.41166517918E+01	1.72017397112E+02	1.76936899100E+01	1.62433593274E+02	-4.27019246883E+01	8.71771536756E+01	-5.88771624306E+00	-1.62956519679E+00
2.18626514057E+06	-1.36340810422E+01	-1.57083563906E+02	1.77172184751E+01	1.62035058891E+02	-3.98384349491E+01	1.07334878568E+02	-5.84119238641E+00	-1.52286303961E+00
2.20845649517E+06	-1.36232253130E+01	-1.58636282389E+02	1.77206026404E+01	1.61940168249E+02	-4.97196961413E+01	8.40511353435E+01	-5.85871501882E+00	-1.30209163493E+00
2.23064784976E+06	-1.29036135243E+01	-1.73536803686E+02	1.76886978095E+01	1.61825698297E+02	-3.41695679438E+01	-1.25121093600E+02	-5.87075954179E+00	-4.46908354716E-01
2.25283920436E+06	-1.35368293603E+01	-1.62377461419E+02	1.77029094388E+01	1.61506260694E+02	-4.01427686790E+01	1.30158903858E+02	-5.82157470663E+00	-1.39615043669E+00
2.27503055895E+06	-1.53021998723E+01	-1.74033496761E+02	1.77116121918E+01	1.61522289912E+02	-4.22554478264E+01	-1.20587647864E+02	-5.85284952532E+00	-8.18776046640E-01
2.29722191355E+06	-1.62294728337E+01	-1.79410743371E+02	1.77182299767E+01	1.61394408073E+02	-5.94548413683E+01	-5.29383112828E+01	-5.88069551832E+00	-1.28920620939E+00
2.31941326814E+06	-1.69096866115E+01	-1.45347618569E+02	1.76974312184E+01	1.61144860348E+02	-4.12210415677E+01	-1.32793458495E+02	-5.86689946851E+00	-8.39217509687E-01
2.34160462274E+06	-1.32917292115E+01	-1.05643029645E+02	1.77588524455E+01	1.60670641418E+02	-4.18253588040E+01	1.35440426829E+02	-5.82129016437E+00	-1.20114988845E+00
2.36379597733E+06	-1.42858641000E+01	-1.63260565976E+02	1.77148839222E+01	1.60659102495E+02	-4.58243236439E+01	3.81604697638E+01	-5.89174527170E+00	-1.34577004740E+00
2.38598733193E+06	-1.37122852505E+01	-1.63584642525E+02	1.77135122298E+01	1.60384080364E+02	-3.45392603011E+01	-2.86764669496E-01	-5.93760310079E+00	-1.55760921509E+00
2.40817868652E+06	-1.28988316485E+01	-1.77583005422E+02	1.76917775230E+01	1.60258387258E+02	-5.02783082662E+01	1.70603283013E+02	-5.85428264349E+00	-1.47190297332E+00
2.43037004112E+06	-1.26827031968E+01	-1.62972523886E+02	1.76994280415E+01	1.59921554338E+02	-4.29611940901E+01	-1.23897118051E+02	-5.85943271381E+00	-1.28208410656E+00
2.45256139571E+06	-1.23530684507E+01	-1.67104892586E+02	1.76995425732E+01	1.59743513055E+02	-4.53504237911E+01	-1.64452734676E+02	-5.84447849702E+00	-1.13203338397E+00
2.47475275031E+06	-1.40082352005E+01	1.69945306358E+02	1.76560633016E+01	1.59712290311E+02	-4.88264103634E+01	-1.00404501959E+02	-5.87893516849E+00	-1.01812579297E+00
2.49694410490E+06	-5.97113270641E+00	-1.47210172037E+02	1.77056820030E+01	1.58977895720E+02	-4.11764518856E+01	1.20405276347E+02	-5.82783343561E+00	-1.57632797856E+00
2.51913545950E+06	-1.38686613742E+01	1.78624176793E+02	1.76641281127E+01	1.59289057481E+02	-4.13481954390E+01	-8.14985739258E+01	-5.91390566567E+00	-1.00630513282E+00
2.54132681409E+06	-1.30007734768E+01	-1.66043461778E+02	1.76847049401E+01	1.59046148347E+02	-3.62992281599E+01	4.37808318147E+01	-5.87348405181E+00	-1.84400474431E+00
2.56351816869E+06	-1.49998973831E+01	-1.76572460341E+02	1.76864776867E+01	1.58937838037E+02	-3.97647834739E+01	1.04656301308E+02	-5.83343829250E+00	-1.65268162163E+00
2.58570952328E+06	-1.29229949386E+01	-1.50849203267E+02	1.77060782694E+01	1.58492114360E+02	-4.90005454266E+01	-1.27704298592E+02	-5.88066794142E+00	-1.27159757619E+00
2.60790087788E+06	-1.21559231547E+01	-1.53688485576E+02	1.76994564504E+01	1.58346809036E+02	-4.92021420681E+01	1.64288508481E+02	-5.86424242190E+00	-1.42523005795E+00
2.63009223247E+06	-8.69031041696E+00	-1.74620045248E+02	1.76318557932E+01	1.57869007977E+02	-4.85396817945E+01	-1.35279758017E+02	-5.87798849978E+00	-8.42519571175E-01
2.65228358707E+06	-1.04879977370E+01	-1.67630254176E+02	1.76717482807E+01	1.57812436069E+02	-4.57385523024E+01	1.88912959676E+01	-5.87923080032E+00	-1.41137244229E+00
2.67447494166E+06	-1.16737745438E+01	-1.61118387108E+02	1.76587233356E+01	1.57705257787E+02	-4.89238390085E+01	-9.14758021265E+01	-5.90131360355E+00	-1.13867470862E+00
2.69666629626E+06	-1.28200590219E+01	-1.49397379990E+02	1.76841106597E+01	1.57491996815E+02	-5.20799870613E+01	-1.16300047819E+02	-5.87099580885E+00	-1.18450270478E+00
2.71885765085E+06	-1.25154862461E+01	-1.61237600595E+02	1.76655201343E+01	1.57338267613E+02	-4.35151165652E+01	1.54126142943E+01	-5.96049531390E+00	-1.69174348534E+00
2.74104900545E+06	-1.22075049584E+01	-1.54483513567E+02	1.76986317587E+01	1.57002706923E+02	-5.04968230884E+01	-1.30854688523E+02	-5.86771532445E+00	-1.32594434712E+00
2.76324036004E+06	-1.18825538850E+01	-1.65815698070E+02	1.76703927496E+01	1.56860014372E+02	-4.26733404029E+01	1.16885110016E+02	-5.84078343904E+00	-1.70570587054E+00
2.78543171463E+06	-1.25397504743E+01	-1.47454059530E+02	1.76948056559E+01	1.56607605923E+02	-4.80263244838E+01	2.63327112871E+01	-5.89401058387E+00	-1.51792486849E+00
2.80762306923E+06	-1.31471566125E+01	-1.49498735209E+02	1.77170211429E+01	1.56473574140E+02	-4.57195873965E+01	-3.23144178010E+01	-5.91983451440E+00	-1.40891099506E+00
2.82981442382E+06	-1.26943167619E+01	-1.69551228513E+02	1.76615689455E+01	1.56497896852E+02	-5.09105996397E+01	1.23680746934E+02	-5.86591459167E+00	-1.45033181622E+00
2.85200577842E+06	-1.30157647453E+01	-1.42740248753E+02	1.77055276454E+01	1.56068586762E+02	-4.47641855827E+01	-1.15408359087E+01	-5.90200825354E+00	-1.50016162197E+00
2.87419713301E+06	-1.17146078263E+01	-1.72526947744E+02	1.76343688523E+01	1.55975087014E+02	-4.77658631911E+01	-6.25801813588E+01	-5.92203853229E+00	-1.54391788731E+00
