# Hz S DB R 50
! CMT, M5065, 19127446, 24.2.4/2
! Date: 11/8/2024 5:19:54 PM
! Data: Format (Calibration Info)
! Freq	S11:dB/Ang(F2)	S21:dB/Ang(F2)	S12:dB/Ang(F2)	S22:dB/Ang(F2)
3.00000000000E+05	-1.48916233635E+01	-1.77811298841E+02	1.55261339548E+01	-1.76703611383E+02	-4.76704145526E+01	1.67858103906E+02	-5.84825700048E+00	-3.62775967568E-01
3.22191354595E+05	-1.18333912342E+01	-1.63459138352E+02	1.55379243161E+01	-1.77615573987E+02	-5.20894187485E+01	1.20240348708E+02	-5.85634383839E+00	-4.05982638730E-01
3.44382709190E+05	-1.15704702732E+01	-1.65492670575E+02	1.55358239653E+01	-1.78209926298E+02	-4.60323119373E+01	1.71857451525E+02	-5.85062059911E+00	-2.90498721393E-01
3.66574063785E+05	-1.56519360604E+01	1.69066574270E+02	1.55683032567E+01	-1.78161096195E+02	-4.89740555535E+01	-1.50972846799E+02	-5.87529962337E+00	-1.79556666843E-01
3.88765418380E+05	-1.43481421077E+01	1.67638153770E+02	1.55742001058E+01	-1.78544349208E+02	-4.17051916973E+01	-1.53081334547E+02	-5.63375850520E+00	-1.48688141037E-01
4.10956772975E+05	-1.33864785849E+01	-1.61944615704E+02	1.55351191921E+01	-1.79256695750E+02	-5.35267155342E+01	-2.35700983965E+01	-5.88560608863E+00	-4.42731443869E-01
4.33148127570E+05	-1.27283371589E+01	-1.65785157036E+02	1.55400789625E+01	-1.79793767853E+02	-4.47057315600E+01	5.19584333608E+01	-5.88236345853E+00	-3.22253862842E-01
4.55339482165E+05	-1.01049964065E+01	-1.65347102169E+02	1.54966426514E+01	1.79979409000E+02	-4.02213477374E+01	5.44509892106E+00	-5.90835308599E+00	-4.72583924394E-01
4.77530836760E+05	-1.06966988008E+01	1.74547083449E+02	1.55295631900E+01	1.79788559852E+02	-4.25142652107E+01	-1.38143917963E+02	-5.83930819006E+00	-2.07416439721E-01
4.99722191355E+05	-1.50047760463E+01	-1.74153325327E+02	1.55367477982E+01	1.79476379269E+02	-4.28771054800E+01	1.15324755057E+02	-5.82153408688E+00	-4.13703270369E-01
5.21913545950E+05	-1.22669319862E+01	-1.77387190792E+02	1.55367157204E+01	1.79029947585E+02	-4.71739035942E+01	7.59142767813E+01	-5.87815857120E+00	-3.41927131668E-01
5.44104900545E+05	-1.31699514048E+01	1.63836765073E+02	1.55380954361E+01	1.79018400986E+02	-5.11251311717E+01	-1.00407714654E+02	-5.88646939695E+00	-3.17920054386E-01
5.66296255139E+05	-1.19359017671E+01	-1.60891594078E+02	1.55095435463E+01	1.78507773406E+02	-4.87813445781E+01	8.19890192603E+01	-5.88490111451E+00	-4.64379822784E-01
5.88487609734E+05	-1.30077733631E+01	1.75346620590E+02	1.55344444781E+01	1.78549789267E+02	-4.99454085822E+01	-7.28027691319E+01	-5.93728982605E+00	-4.75859561743E-01
6.10678964329E+05	-1.22188848558E+01	-1.53116041088E+02	1.55399064070E+01	1.77950663944E+02	-3.88259470161E+01	1.19399353846E+02	-5.85166705341E+00	1.05617347673E-02
6.32870318924E+05	-1.05002845115E+01	1.61333702808E+02	1.54996056006E+01	1.77930481769E+02	-4.02188172970E+01	3.34252206145E+00	-5.89753879767E+00	-1.95365123334E-01
6.55061673519E+05	-1.43557181783E+01	1.73946429403E+02	1.55515919255E+01	1.77581426461E+02	-4.60207252135E+01	-1.83150278441E+01	-5.89234687386E+00	-2.21909253991E-01
6.77253028114E+05	-1.57354625275E+01	1.78688393943E+02	1.55782821924E+01	1.77236774247E+02	-5.06312394186E+01	-5.04827538217E+01	-5.89005470630E+00	-7.88104854496E-01
6.99444382709E+05	-1.29680821159E+01	1.64928163503E+02	1.55341720485E+01	1.77145529243E+02	-4.11029344978E+01	1.55941863379E+02	-5.82968927052E+00	-6.43259980387E-01
7.21635737304E+05	-1.15887896704E+01	-1.68517051668E+02	1.55323136707E+01	1.76887212616E+02	-5.41487129637E+01	1.11343633009E+02	-5.86364184496E+00	-5.42145332183E-01
7.43827091899E+05	-1.03470286996E+01	1.78879019041E+02	1.55156996743E+01	1.76567414288E+02	-6.68188357459E+01	-1.51540443925E+02	-5.85816308473E+00	-4.85638409739E-01
7.66018446494E+05	-1.33824235673E+01	-1.77346739302E+02	1.55443214552E+01	1.76472178809E+02	-4.05334549820E+01	9.54875696857E+01	-5.85789708151E+00	-6.43397339311E-01
7.88209801089E+05	-1.25403083869E+01	-1.69110588676E+02	1.55380251303E+01	1.76203289807E+02	-4.91068026313E+01	-1.50853333588E+02	-5.88890724230E+00	-4.55029015205E-01
8.10401155684E+05	-1.15837686696E+01	-1.77702902620E+02	1.55125744357E+01	1.75910065945E+02	-4.74602436992E+01	-6.42185381815E+01	-5.88633417195E+00	-4.91706098577E-01
8.32592510279E+05	-1.31744250243E+01	-1.56514607962E+02	1.55247960134E+01	1.75636643240E+02	-4.68692278756E+01	1.82070295720E+01	-5.88203981023E+00	-6.54041736183E-01
8.54783864874E+05	-1.42880960299E+01	-1.77400743513E+02	1.55429122505E+01	1.75616383955E+02	-4.69227284968E+01	7.45538086290E+01	-5.87264560049E+00	-4.33502365665E-01
8.76975219469E+05	-1.29120310728E+01	1.66801602994E+02	1.55204473199E+01	1.75519065431E+02	-5.54601764806E+01	8.73905702381E+01	-5.89979832178E+00	-5.50732227853E-01
8.99166574064E+05	-1.34093708299E+01	-1.55157390794E+02	1.55463786273E+01	1.74950445909E+02	-4.55664499568E+01	6.72663336881E+00	-5.92037718937E+00	-5.70888086692E-01
9.21357928659E+05	-1.18918903450E+01	-1.65091609760E+02	1.55311135619E+01	1.74769470461E+02	-4.60101803977E+01	1.06906342616E+02	-5.86098929248E+00	-7.24294492140E-01
9.43549283254E+05	-1.63954626934E+01	-1.78849850022E+02	1.55491358383E+01	1.74901820055E+02	-6.12889111535E+01	1.68148367520E+02	-5.88218465715E+00	-7.35165229070E-01
9.65740637849E+05	-1.10716404306E+01	-1.65446155794E+02	1.55052845439E+01	1.74325247888E+02	-4.26545323581E+01	-3.26847180514E+01	-5.91780110406E+00	-2.84605246481E-01
9.87931992444E+05	-1.15372432979E+01	-1.77269658308E+02	1.55115676062E+01	1.74451785624E+02	-4.26191677457E+01	-1.79058030142E+00	-5.89798288242E+00	-5.97658729668E-01
1.01012334704E+06	-1.13259012931E+01	-1.78265462886E+02	1.54964589327E+01	1.74094909224E+02	-4.91744605623E+01	5.72806503497E+01	-5.87570141718E+00	-7.25094438578E-01
1.03231470163E+06	-1.09739045869E+01	-1.63462863882E+02	1.55197553429E+01	1.73743891749E+02	-4.88541980232E+01	6.69122356284E+00	-5.89598148106E+00	-6.28028066013E-01
1.05450605623E+06	-1.39165597840E+01	-1.76116104207E+02	1.55310630553E+01	1.73822567418E+02	-4.27055462350E+01	-3.22893558458E+01	-5.91225275866E+00	-5.19174567151E-01
1.07669741082E+06	-1.28641838933E+01	-1.69465027886E+02	1.55356726026E+01	1.73484191111E+02	-4.37062983010E+01	-1.51504014603E+02	-5.79478033095E+00	-4.73817740343E-01
1.09888876542E+06	-2.02544801854E+01	-1.73527553485E+02	1.55553592538E+01	1.73519883482E+02	-4.34164107744E+01	1.09345722606E+02	-5.84962831822E+00	-8.07954129953E-01
1.12108012001E+06	-1.29074048942E+01	-1.67746243170E+02	1.55258662989E+01	1.73217706799E+02	-4.96807455420E+01	-8.01015814212E+01	-5.89162016916E+00	-4.30071351667E-01
1.14327147461E+06	-1.46400428011E+01	-1.69025494843E+02	1.55269948386E+01	1.73067561303E+02	-5.54381643672E+01	-6.48645959745E+01	-5.86295032501E+00	-5.71227458336E-01
1.16546282920E+06	-1.22549572412E+01	-1.69244555908E+02	1.54976812854E+01	1.72801992895E+02	-4.67213419776E+01	9.55252646818E+01	-5.86516549621E+00	-7.60316464899E-01
1.18765418380E+06	-1.37544723961E+01	-1.61508056854E+02	1.55186243911E+01	1.72678459925E+02	-4.38900122895E+01	1.60303511399E+02	-5.82642858823E+00	-5.99512398440E-01
1.20984553839E+06	-1.06379417357E+01	1.73791693541E+02	1.54841884873E+01	1.72519964377E+02	-3.96399743668E+01	-1.60742223190E+00	-5.92915447585E+00	-5.88767141207E-01
1.23203689299E+06	-1.53559718672E+01	1.79532782747E+02	1.55408529334E+01	1.72514095556E+02	-4.59294974678E+01	-8.70520857303E+01	-5.90392164288E+00	-3.68555367744E-01
1.25422824758E+06	-1.34114780159E+01	-1.75638282986E+02	1.55283819821E+01	1.72269367718E+02	-4.12423342106E+01	-1.50470484158E+02	-5.86845790244E+00	-6.81357062947E-01
1.27641960218E+06	-1.88181844551E+01	1.72618953380E+02	1.55330703042E+01	1.72050162667E+02	-3.90082987723E+01	1.54850370734E+02	-5.81687978393E+00	-7.32913521698E-01
1.29861095677E+06	-1.76009293767E+01	1.72890892450E+02	1.55451867621E+01	1.71988437677E+02	-5.45134395997E+01	6.51433068895E+01	-5.87156537122E+00	-7.98342533891E-01
1.32080231137E+06	-1.45442124296E+01	-1.77654273167E+02	1.55274501993E+01	1.71778423732E+02	-5.30924205195E+01	-1.25621665733E+02	-5.86081040686E+00	-9.63742171661E-01
1.34299366596E+06	-1.15774184533E+01	1.70593034369E+02	1.54910845423E+01	1.71401393514E+02	-4.57850941476E+01	-4.38107649413E+01	-5.88682083734E+00	-7.90728610775E-01
1.36518502056E+06	-1.26584693243E+01	-1.60960950815E+02	1.55156685190E+01	1.71094347594E+02	-5.16788782853E+01	1.45508828020E+02	-5.88599486635E+00	-6.39309288031E-01
1.38737637515E+06	-1.21087878275E+01	-1.54346490659E+02	1.55341088146E+01	1.70928727529E+02	-3.56427792512E+01	2.38144334027E+01	-5.88707590403E+00	-1.08016017216E+00
1.40956772975E+06	-1.23841492993E+01	1.71456516569E+02	1.55036088408E+01	1.71047941095E+02	-3.68851464402E+01	-2.95479010426E+01	-5.91729418967E+00	-7.33482615245E-01
1.43175908434E+06	-1.41383823543E+01	-1.67578402326E+02	1.55331240082E+01	1.70792626065E+02	-4.78099019651E+01	1.36884997051E+02	-5.84985221829E+00	-8.82643879524E-01
1.45395043894E+06	-1.21295190730E+01	-1.60318008749E+02	1.55212826141E+01	1.70509477163E+02	-4.23134090681E+01	-3.82587579768E+01	-5.92252577566E+00	-6.59229559029E-01
1.47614179353E+06	-1.13616359391E+01	-1.61597311819E+02	1.55130969372E+01	1.70369643180E+02	-6.88818710023E+01	1.00987638300E+02	-5.87502078429E+00	-9.27960091717E-01
1.49833314813E+06	-1.19117304482E+01	-1.71395599443E+02	1.55041214530E+01	1.70182776701E+02	-5.55253189735E+01	-5.80986976675E+00	-5.88792834072E+00	-7.36589199537E-01
1.52052450272E+06	-1.18544978544E+01	-1.76583539325E+02	1.55028593805E+01	1.69929671540E+02	-4.51860624548E+01	-4.51540020767E+01	-5.89448020252E+00	-7.33679541392E-01
1.54271585732E+06	-1.28720523195E+01	-1.77873066614E+02	1.54994067713E+01	1.70071988495E+02	-4.45853857503E+01	-2.65153342274E+01	-5.90257536259E+00	-7.91880710307E-01
1.56490721191E+06	-1.10890969163E+01	-1.67166291842E+02	1.55003050708E+01	1.69489207227E+02	-3.56684048157E+01	-1.67102300622E+02	-5.86617123559E+00	-8.29386071097E-01
1.58709856651E+06	-1.19367928298E+01	-1.60174972662E+02	1.55231420530E+01	1.69325084734E+02	-5.31304902373E+01	7.07636773811E+01	-5.89500605296E+00	-9.01760651584E-01
1.60928992110E+06	-1.24711479513E+01	-1.49261476842E+02	1.55295554549E+01	1.69078015981E+02	-5.76092200809E+01	-7.37639002677E+00	-5.86954435779E+00	-8.66317411881E-01
1.63148127570E+06	-1.11736627960E+01	1.74667384704E+02	1.54777810542E+01	1.69237406432E+02	-4.40267934865E+01	1.67609073216E+02	-5.84849740238E+00	-8.37891955783E-01
1.65367263029E+06	-1.30904572274E+01	-1.71368878794E+02	1.55108806409E+01	1.69024447396E+02	-5.46500496121E+01	6.45615392651E+01	-5.85768443302E+00	-9.31422908714E-01
1.67586398489E+06	-1.25977703058E+01	-1.62602386309E+02	1.55080659216E+01	1.68608507155E+02	-5.05399779738E+01	-1.03938288647E+01	-5.90471119386E+00	-8.97247191968E-01
1.69805533948E+06	-1.65950918802E+01	-1.65083918675E+02	1.55285408259E+01	1.68953637473E+02	-4.71386549447E+01	-1.72178091184E+02	-5.88421764608E+00	-7.87664443084E-01
1.72024669408E+06	-1.09766495196E+01	-1.74800518771E+02	1.54963290277E+01	1.68521831663E+02	-4.24166454349E+01	-7.33509390504E+01	-5.88482141326E+00	-1.04477573037E+00
1.74243804867E+06	-1.27317575694E+01	-1.63402966389E+02	1.55275015605E+01	1.68301386717E+02	-4.44132423993E+01	1.65560012732E+02	-5.84016641246E+00	-9.44148868810E-01
1.76462940327E+06	-1.48742899576E+01	-1.67489510294E+02	1.55287093466E+01	1.68195528957E+02	-4.47126915487E+01	1.38638036154E+02	-5.84409298868E+00	-1.02617730743E+00
1.78682075786E+06	-1.18081499224E+01	-1.77131169293E+02	1.55019457284E+01	1.68059876114E+02	-4.27423749846E+01	-1.25179535364E+02	-5.85155003409E+00	-7.13820316840E-01
1.80901211246E+06	-1.26066639596E+01	-1.69435267234E+02	1.55125443933E+01	1.67866753604E+02	-5.70473187431E+01	9.17587966330E+00	-5.88844381253E+00	-8.54065411487E-01
1.83120346705E+06	-1.34414581080E+01	1.70526546324E+02	1.54937030489E+01	1.67880556573E+02	-4.79912249230E+01	-9.43341071982E+01	-5.87338616440E+00	-9.62127234840E-01
1.85339482165E+06	-1.63629741099E+01	-1.46361312999E+02	1.55302244105E+01	1.67577822901E+02	-3.94810603960E+01	5.36077100629E+01	-5.88751621857E+00	-1.21331930251E+00
1.87558617624E+06	-1.22241261183E+01	-1.61766468752E+02	1.55345136685E+01	1.67204037625E+02	-3.82121672579E+01	-1.65452813112E+02	-5.83698641407E+00	-8.29010704285E-01
1.89777753084E+06	-9.80601416834E+00	-1.77887806548E+02	1.54626116214E+01	1.67136822198E+02	-4.74251318864E+01	-3.03310771041E+00	-5.88774442356E+00	-9.17752394125E-01
1.91996888543E+06	-1.09802893272E+01	-1.79941927202E+02	1.54739254857E+01	1.67020915277E+02	-4.92484857861E+01	-6.18849384068E+01	-5.88304348135E+00	-9.12119181371E-01
1.94216024003E+06	-1.17875286996E+01	-1.79508847872E+02	1.54840244642E+01	1.66910292491E+02	-4.96495088512E+01	-5.22458146021E+01	-5.89848265850E+00	-9.29746157313E-01
1.96435159462E+06	-1.20157849737E+01	-1.61488494033E+02	1.55166683402E+01	1.66557493681E+02	-4.37822860032E+01	1.12380529198E+02	-5.85910131304E+00	-1.26334695220E+00
1.98654294922E+06	-1.36436018810E+01	-1.70694330514E+02	1.55309346521E+01	1.66583572764E+02	-6.15413857464E+01	-1.27211976051E+02	-5.84374131073E+00	-1.10544233243E+00
2.00873430381E+06	-1.11382872758E+01	1.77768437261E+02	1.54729156231E+01	1.66326119347E+02	-4.38588443494E+01	9.79796840156E+01	-5.83508292122E+00	-1.12199622599E+00
2.03092565841E+06	-8.90680333776E+00	1.75555418811E+02	1.54874733806E+01	1.66007980929E+02	-4.35363806028E+01	-3.15211833199E+01	-5.89328324270E+00	-8.09726569008E-01
2.05311701300E+06	-1.27164184589E+01	-1.74537695023E+02	1.55054983551E+01	1.65816215671E+02	-4.66983923780E+01	7.06035291089E+01	-5.88545498178E+00	-1.20488251023E+00
2.07530836760E+06	-1.45169698404E+01	-1.71585969411E+02	1.55140641901E+01	1.65933247068E+02	-5.36962320195E+01	-8.14418111869E+01	-5.87457462684E+00	-1.04295336840E+00
2.09749972219E+06	-1.12983986680E+01	-1.69999433847E+02	1.54857046408E+01	1.65627482270E+02	-5.02971260076E+01	-4.82408416474E+01	-5.89999969308E+00	-1.18899936424E+00
2.11969107679E+06	-1.18233744836E+01	-1.63696264725E+02	1.55027870613E+01	1.65510878689E+02	-4.83861699627E+01	6.34622197507E+01	-5.87868502749E+00	-1.35659490242E+00
2.14188243138E+06	-1.17353368279E+01	-1.60147973806E+02	1.54950149814E+01	1.65351164664E+02	-5.45407617740E+01	1.09254543684E+02	-5.88470302071E+00	-1.22914820249E+00
2.16407378598E+06	-1.32866281706E+01	1.77958831889E+02	1.55156647673E+01	1.65273617132E+02	-4.70485573965E+01	1.28718089221E+02	-5.86427292118E+00	-1.13586117604E+00
2.18626514057E+06	-1.61103287192E+01	1.42102019015E+02	1.55110463652E+01	1.65243420399E+02	-4.56896572985E+01	1.47094548636E+02	-5.84923456670E+00	-1.11545654426E+00
2.20845649517E+06	-1.24793228256E+01	-1.59460974736E+02	1.55550907687E+01	1.64653125925E+02	-5.02532263337E+01	1.31067685711E+02	-5.88212619219E+00	-1.11545671361E+00
2.23064784976E+06	-1.51595872051E+01	-1.70285485032E+02	1.55113929214E+01	1.64808411204E+02	-3.62347977660E+01	-1.17445065221E+02	-5.87162720288E+00	-6.39929262470E-01
2.25283920436E+06	-1.64284096940E+01	1.74059275514E+02	1.55164760096E+01	1.64800443226E+02	-5.61432575686E+01	-1.77812462214E+02	-5.86692142536E+00	-1.02264727968E+00
2.27503055895E+06	-1.17231207844E+01	-1.72399884092E+02	1.54976743257E+01	1.64356088975E+02	-5.15659230803E+01	1.12501612610E+02	-5.84781718460E+00	-1.23896316299E+00
2.29722191355E+06	-1.12966044730E+01	-1.70719593161E+02	1.54756757119E+01	1.63999175386E+02	-4.97557796011E+01	1.00754800253E+02	-5.83942034731E+00	-1.39937302256E+00
2.31941326814E+06	-1.41098528460E+01	-1.68461708175E+02	1.55119929281E+01	1.64093966951E+02	-4.29448627256E+01	1.60925224272E+02	-5.82587079023E+00	-1.04712456654E+00
2.34160462274E+06	-1.15990736852E+01	-1.66174317411E+02	1.55297016431E+01	1.63823146380E+02	-3.28372620327E+01	1.53825663655E+02	-5.78657201953E+00	-9.98000652947E-01
2.36379597733E+06	-1.26665447923E+01	-1.76340865584E+02	1.54868467877E+01	1.63749456330E+02	-5.01099906966E+01	-4.26259122291E+01	-5.88699379168E+00	-1.17630155601E+00
2.38598733193E+06	-1.15138178804E+01	-1.63070270581E+02	1.55202429266E+01	1.63483279006E+02	-4.60125133091E+01	-5.98880660181E+00	-5.88831911394E+00	-1.20290741326E+00
2.40817868652E+06	-1.22157205438E+01	-1.77369358203E+02	1.54972659467E+01	1.63403157811E+02	-4.05707533880E+01	7.83808275037E+00	-5.90754888063E+00	-1.48558448484E+00
2.43037004112E+06	-1.08275436348E+01	-1.61002830951E+02	1.55246535111E+01	1.62986072876E+02	-4.60120432474E+01	-3.33867968537E+01	-5.91260985727E+00	-1.61368890880E+00
2.45256139571E+06	-1.10424493164E+01	-1.54665508369E+02	1.55089446692E+01	1.62881368661E+02	-4.29116387229E+01	9.25779855863E+01	-5.85301453624E+00	-1.56111557707E+00
2.47475275031E+06	-1.80913566119E+01	-1.53735346152E+02	1.55532111054E+01	1.63240359695E+02	-5.42454940678E+01	1.28665034557E+02	-5.87451730780E+00	-1.12581116712E+00
2.49694410490E+06	-1.33550883486E+01	1.76156828881E+02	1.54847392456E+01	1.62853841553E+02	-4.37136814341E+01	1.61633062146E+02	-5.86977692851E+00	-1.23536363534E+00
2.51913545950E+06	-1.19142871116E+01	-1.46102299581E+02	1.55462759011E+01	1.62419656344E+02	-4.43008633822E+01	-1.38141362465E+02	-5.84900449816E+00	-1.13861678596E+00
2.54132681409E+06	-1.60247720448E+01	-1.75034131038E+02	1.55166293917E+01	1.62547703666E+02	-4.83763020620E+01	9.10384198737E+01	-5.87089932460E+00	-1.44402123978E+00
2.56351816869E+06	-1.39854179223E+01	-1.58091392616E+02	1.55338025334E+01	1.62310196500E+02	-4.09602953400E+01	-8.50083231149E+01	-5.91664690064E+00	-1.10521885972E+00
2.58570952328E+06	-1.47792840333E+01	1.78672008873E+02	1.55133979939E+01	1.62257637390E+02	-4.68822742516E+01	5.87262187223E+01	-5.87626563381E+00	-1.54179897876E+00
2.60790087788E+06	-1.24452480139E+01	-1.50305022843E+02	1.55291883243E+01	1.61800235212E+02	-4.25765634383E+01	-3.08050353864E+01	-5.91206037045E+00	-1.08318989802E+00
2.63009223247E+06	-1.23304429541E+01	-1.67003791149E+02	1.55021304194E+01	1.61889035193E+02	-4.17007053685E+01	1.11995808614E+02	-5.87115069968E+00	-1.13148451980E+00
2.65228358707E+06	-1.27854269535E+01	-1.54136359671E+02	1.55091227643E+01	1.61560524915E+02	-3.45915217848E+01	-1.76995471700E+02	-5.85180946691E+00	-1.10797090033E+00
2.67447494166E+06	-1.28956386584E+01	-1.70668203239E+02	1.54997276549E+01	1.61537123333E+02	-4.32819179477E+01	1.22766266412E+02	-5.84524201702E+00	-1.57056700263E+00
2.69666629626E+06	-1.38239457012E+01	-1.75192529154E+02	1.55229272654E+01	1.61351611309E+02	-4.84200137154E+01	-8.92807195431E+01	-5.88447179907E+00	-1.16442599107E+00
2.71885765085E+06	-1.04096404723E+01	-1.62532620122E+02	1.54944497087E+01	1.60870014122E+02	-4.86292770915E+01	-1.35977220969E+02	-5.88175061658E+00	-1.29417547692E+00
2.74104900545E+06	-1.35054016415E+01	-1.61292938608E+02	1.55184293487E+01	1.61054851706E+02	-4.21954793343E+01	-6.75534430950E+01	-5.91935151794E+00	-1.27952210834E+00
2.76324036004E+06	-1.44651496210E+01	-1.76500791649E+02	1.55071704272E+01	1.60951034937E+02	-4.73578614364E+01	-1.15573850630E+01	-5.90682478796E+00	-1.48323099769E+00
2.78543171463E+06	-1.28709815152E+01	-1.51949823821E+02	1.55539567281E+01	1.60460671111E+02	-5.73042514568E+01	-4.72984199948E+01	-5.88891268119E+00	-1.34463937027E+00
2.80762306923E+06	-1.36090223181E+01	-1.61791972864E+02	1.55243084878E+01	1.60383480617E+02	-3.56251171431E+01	1.23442764142E+02	-5.84083476230E+00	-1.52069757488E+00
2.82981442382E+06	-1.34787541449E+01	-1.78519365257E+02	1.54724969237E+01	1.60413989724E+02	-5.40778471884E+01	-1.32145418244E+02	-5.89019443128E+00	-1.37191514972E+00
2.85200577842E+06	-1.22142579707E+01	-1.55967211162E+02	1.55143106921E+01	1.59982051827E+02	-5.31198451732E+01	9.06271806707E+01	-5.87368757031E+00	-1.49202646523E+00
2.87419713301E+06	-1.27907909435E+01	-1.67388146187E+02	1.55149485691E+01	1.60040671329E+02	-6.73758244434E+01	2.86974253137E+01	-5.87562234418E+00	-1.41335909257E+00
