# Hz S DB R 50
! CMT, M5065, 19127446, 24.2.4/2
! Date: 11/8/2024 4:56:25 PM
! Data: Format (Calibration Info)
! Freq	S11:dB/Ang(F2)	S21:dB/Ang(F2)	S12:dB/Ang(F2)	S22:dB/Ang(F2)
3.00000000000E+05	-1.55313800950E+01	1.73770544162E+02	6.62056354470E+00	-1.77601597706E+02	-6.19907671106E+01	1.14016150941E+02	-5.86774627042E+00	-4.24212639286E-01
3.22191354595E+05	-1.97820613160E+01	-1.79840313789E+02	6.63181369066E+00	-1.78089179184E+02	-4.36642423864E+01	-1.40969610845E+02	-5.85698360452E+00	-2.74198620939E-01
3.44382709190E+05	-1.56184611894E+01	-1.76306795672E+02	6.63182759359E+00	-1.78003534268E+02	-3.87256859870E+01	-1.29836334524E+02	-5.86910703745E+00	-2.03016023079E-01
3.66574063785E+05	-1.34985593892E+01	-1.70633539581E+02	6.59221455641E+00	-1.78418037272E+02	-4.78737660575E+01	1.41857460413E+02	-5.86249676538E+00	-1.69034156375E-01
3.88765418380E+05	-1.32631084786E+01	-1.75825220808E+02	6.54952302498E+00	-1.78860208986E+02	-4.67397247607E+01	-6.52031586063E+01	-5.88511171951E+00	-2.27042267456E-01
4.10956772975E+05	-1.47079776614E+01	-1.49845786410E+02	6.64828760330E+00	-1.79176022010E+02	-4.06484132209E+01	9.76970855075E+01	-5.86822567152E+00	-2.08452188307E-01
4.33148127570E+05	-1.44038022973E+01	1.65647299516E+02	6.66553998899E+00	-1.79281339340E+02	-4.75897174806E+01	-2.38015080397E+01	-5.87870762046E+00	-3.02764258673E-01
4.55339482165E+05	-1.34544718154E+01	1.78530764612E+02	6.62149930671E+00	-1.79298749481E+02	-5.29551405980E+01	-9.00322244629E+01	-5.86494581228E+00	-4.34292432106E-01
4.77530836760E+05	-1.51645156980E+01	1.78427467981E+02	6.63885231783E+00	-1.79521743987E+02	-3.91121737434E+01	-3.85958583439E+01	-5.87326464477E+00	-2.24151182269E-01
4.99722191355E+05	-1.57888783910E+01	-1.73804607361E+02	6.62055064278E+00	-1.79907481847E+02	-4.77660982469E+01	-4.80188444414E+01	-5.87861972377E+00	-3.88561041819E-01
5.21913545950E+05	-1.28974738165E+01	1.61781398467E+02	6.61995593169E+00	-1.79656213357E+02	-5.12396267876E+01	-1.32050454819E+02	-5.85752513109E+00	-2.66646974565E-01
5.44104900545E+05	-1.33300352571E+01	-1.49388474344E+02	6.65253078500E+00	1.79541032743E+02	-4.29975247854E+01	1.13318064827E+02	-5.87730262937E+00	-5.08001822926E-01
5.66296255139E+05	-1.28511753922E+01	1.74566574449E+02	6.64645154917E+00	1.79730697284E+02	-4.55821048306E+01	1.14487469491E+02	-5.85194818979E+00	-3.45777120257E-01
5.88487609734E+05	-1.43425691164E+01	1.79008868919E+02	6.62701507296E+00	1.79659699261E+02	-4.79733671696E+01	1.43003879026E+01	-5.89910074617E+00	-3.64098933113E-01
6.10678964329E+05	-1.27943414736E+01	1.76062043427E+02	6.60536145690E+00	1.79390597005E+02	-4.44019260543E+01	1.23394168963E+02	-5.84641214947E+00	1.34916531505E-01
6.32870318924E+05	-1.38028914785E+01	1.75125902612E+02	6.62966526947E+00	1.79240484746E+02	-5.45388871752E+01	1.50431606409E+02	-5.85028470003E+00	-2.32884456266E-01
6.55061673519E+05	-1.43203117099E+01	-1.57067561177E+02	6.64480218825E+00	1.78785912579E+02	-4.59341397897E+01	7.22587615773E+01	-5.86630714946E+00	-3.72490032424E-01
6.77253028114E+05	-1.39930545179E+01	-1.67316695304E+02	6.63149207576E+00	1.78952988638E+02	-3.76848550732E+01	9.15347353478E+01	-5.86809922093E+00	-8.96549886701E-01
6.99444382709E+05	-1.37304906240E+01	-1.65843588492E+02	6.67197460976E+00	1.78442121872E+02	-3.90615841825E+01	2.56619526957E+01	-5.87615633269E+00	-5.44256694983E-01
7.21635737304E+05	-1.45131191951E+01	-1.56319220756E+02	6.68037781137E+00	1.78088802693E+02	-4.08352522487E+01	1.43084979352E+02	-5.85909507878E+00	-4.84096420311E-01
7.43827091899E+05	-1.40597971777E+01	-1.73370267639E+02	6.68318989079E+00	1.78413223826E+02	-4.98561431768E+01	-1.08052125282E+02	-5.84919940749E+00	-4.10434440748E-01
7.66018446494E+05	-1.48164485265E+01	-1.66534132155E+02	6.66163851134E+00	1.78111781054E+02	-5.25398822194E+01	-7.76323113270E+01	-5.86654715873E+00	-2.81988685715E-01
7.88209801089E+05	-1.37789911891E+01	-1.65165930409E+02	6.64212592760E+00	1.78005526104E+02	-4.39391118458E+01	1.66360962614E+02	-5.84000058706E+00	-4.25053384716E-01
8.10401155684E+05	-1.51289047122E+01	-1.78618568550E+02	6.64463097052E+00	1.77795340248E+02	-4.67892814257E+01	1.81906834347E+01	-5.85708065915E+00	-5.97021773032E-01
8.32592510279E+05	-1.38791846044E+01	-1.55501579634E+02	6.62413696875E+00	1.77732363633E+02	-4.97739667532E+01	5.13051081079E+01	-5.87494936075E+00	-4.05279107647E-01
8.54783864874E+05	-1.46567647638E+01	-1.59143212720E+02	6.65472512006E+00	1.77768681450E+02	-4.68529582741E+01	6.63427355486E+01	-5.86667754432E+00	-4.29443007961E-01
8.76975219469E+05	-1.36959844624E+01	1.76963963868E+02	6.65385311435E+00	1.77717719819E+02	-3.50691694472E+01	-1.23861477138E+02	-5.88087019947E+00	-3.02116139094E-01
8.99166574064E+05	-1.58972460808E+01	-1.74645786501E+02	6.66395875751E+00	1.77354621768E+02	-4.51731308361E+01	-1.16383594464E+02	-5.85167615710E+00	-4.03439298444E-01
9.21357928659E+05	-1.25753092193E+01	1.73235063380E+02	6.61471853281E+00	1.77411544016E+02	-5.39838375536E+01	6.89649434657E+00	-5.88387862498E+00	-4.74939843156E-01
9.43549283254E+05	-1.49609553648E+01	-1.73222531946E+02	6.62913907187E+00	1.77100480644E+02	-4.52108266786E+01	-7.98890903494E+01	-5.86941236960E+00	-5.04288765300E-01
9.65740637849E+05	-1.68537216676E+01	-1.60692383835E+02	6.67604572688E+00	1.77159798983E+02	-4.83448924945E+01	6.98347220505E+01	-5.86961261605E+00	-5.34352799711E-01
9.87931992444E+05	-1.52747190801E+01	1.75430092772E+02	6.65377923144E+00	1.77242465971E+02	-5.32198123941E+01	-1.62964539467E+02	-5.87296425702E+00	-3.18031314415E-01
1.01012334704E+06	-1.53568743981E+01	-1.25602972346E+02	6.70084651810E+00	1.76878266597E+02	-4.51154121920E+01	8.97114053624E+01	-5.88415957391E+00	-5.42467107474E-01
1.03231470163E+06	-1.56890163807E+01	1.64055918971E+02	6.64058857974E+00	1.76909243457E+02	-4.84880657295E+01	1.27567779761E+02	-5.86175598544E+00	-5.73474797994E-01
1.05450605623E+06	-1.25678448266E+01	-1.60350379126E+02	6.59302498562E+00	1.76319785299E+02	-4.49328588531E+01	-1.70935055885E+02	-5.85778399559E+00	-3.75109211910E-01
1.07669741082E+06	-1.56359562966E+01	-1.79631163294E+02	6.58679779839E+00	1.76656097516E+02	-4.40879637386E+01	1.55315920537E+01	-5.87424219067E+00	-6.90701298063E-01
1.09888876542E+06	-1.33288370269E+01	-1.74336003578E+02	6.62687913135E+00	1.76456181794E+02	-5.00651161851E+01	-1.76079689855E+02	-5.88551933496E+00	-5.75488215272E-01
1.12108012001E+06	-1.68551400135E+01	-1.58906987771E+02	6.68579257277E+00	1.76319100832E+02	-4.80627035310E+01	6.83017695264E+01	-5.85180956213E+00	-6.42342181318E-01
1.14327147461E+06	-1.58547294641E+01	-1.60902062706E+02	6.65164929808E+00	1.76169285439E+02	-4.65509944775E+01	-1.70052749893E+02	-5.84941324949E+00	-6.51434413791E-01
1.16546282920E+06	-1.30840365074E+01	1.64105872221E+02	6.62324550492E+00	1.76588531872E+02	-4.77379044232E+01	3.64767740930E+01	-5.87216944784E+00	-6.56142956543E-01
1.18765418380E+06	-1.25098315884E+01	-1.78602376119E+02	6.64384970544E+00	1.75989968878E+02	-4.46281507253E+01	2.71437190554E+00	-5.85448483146E+00	-7.03815817031E-01
1.20984553839E+06	-1.40896104771E+01	1.77651208370E+02	6.63502725058E+00	1.76145525880E+02	-4.07162793378E+01	-8.61835184395E+01	-5.85670489522E+00	-7.76251336176E-01
1.23203689299E+06	-1.35535224798E+01	-1.60322578741E+02	6.66219936444E+00	1.75755253524E+02	-5.18776632022E+01	-7.13156317966E+01	-5.87880187024E+00	-5.92633807972E-01
1.25422824758E+06	-1.49388887187E+01	-1.61999024293E+02	6.63607205057E+00	1.75930111748E+02	-4.60842057963E+01	9.41937325151E+01	-5.85706108639E+00	-6.75198064762E-01
1.27641960218E+06	-1.27570689324E+01	-1.72777134546E+02	6.59467071078E+00	1.75581694440E+02	-4.72762736662E+01	-9.39337445273E+01	-5.87618234203E+00	-8.12951106746E-01
1.29861095677E+06	-1.48924171681E+01	-1.70296258854E+02	6.67312753849E+00	1.75271672543E+02	-5.36344775322E+01	-1.17612122795E+02	-5.87680133433E+00	-7.06246408207E-01
1.32080231137E+06	-1.60165999482E+01	-1.71497890078E+02	6.68201195148E+00	1.75436188688E+02	-4.53328214067E+01	1.06947878247E+01	-5.85331536483E+00	-1.08746737509E+00
1.34299366596E+06	-1.20521442123E+01	1.79838615508E+02	6.63486069055E+00	1.75240374931E+02	-4.63777610867E+01	1.95253387462E+01	-5.87200987832E+00	-5.92865445205E-01
1.36518502056E+06	-1.33404646350E+01	-1.66105398073E+02	6.63756837970E+00	1.75114270543E+02	-4.96678751556E+01	-1.33268544714E+02	-5.87245419178E+00	-7.38659520633E-01
1.38737637515E+06	-1.56691033213E+01	1.78167466134E+02	6.64330371324E+00	1.75071667598E+02	-3.85719248099E+01	2.99984337378E+01	-5.85692232840E+00	-9.26080025022E-01
1.40956772975E+06	-1.57861450920E+01	1.75170571766E+02	6.64636132923E+00	1.75232353312E+02	-4.37145639105E+01	5.36362093788E+01	-5.87277453124E+00	-8.86416048120E-01
1.43175908434E+06	-1.51260302643E+01	-1.76107121497E+02	6.69270528011E+00	1.74985837440E+02	-4.53284313122E+01	-1.33423121864E+02	-5.86911136060E+00	-6.34931574816E-01
1.45395043894E+06	-1.72137414589E+01	-1.73927672365E+02	6.69372847601E+00	1.74708610428E+02	-5.38114518739E+01	5.35782571497E+01	-5.84903547351E+00	-7.40847538237E-01
1.47614179353E+06	-2.18184935405E+01	-1.36040330962E+02	6.74197181255E+00	1.74992910933E+02	-4.32077177046E+01	8.66962076991E+01	-5.86464349599E+00	-8.43219877896E-01
1.49833314813E+06	-1.38287719218E+01	1.41762025863E+02	6.65018150616E+00	1.74916650149E+02	-4.28981156460E+01	-1.49379582923E+02	-5.88779104964E+00	-7.82641688528E-01
1.52052450272E+06	-2.09370549003E+01	1.68661208796E+02	6.69989388596E+00	1.74803182740E+02	-4.85890075983E+01	-1.44965241794E+02	-5.87683399886E+00	-7.09986169463E-01
1.54271585732E+06	-1.26465752467E+01	-1.72336496054E+02	6.68377100899E+00	1.74265666703E+02	-5.26990748210E+01	3.58757610655E+01	-5.87732613844E+00	-8.08136977339E-01
1.56490721191E+06	-1.27416049475E+01	-1.68678304693E+02	6.61078404257E+00	1.74375300647E+02	-4.68862073931E+01	-2.12288754160E+01	-5.87420443036E+00	-7.92773646949E-01
1.58709856651E+06	-1.55046972629E+01	-1.60869625020E+02	6.69224130258E+00	1.74100571792E+02	-3.97121950536E+01	1.78237502574E+02	-5.86488311955E+00	-8.57480311290E-01
1.60928992110E+06	-1.13300742681E+01	-1.71356943119E+02	6.62869413584E+00	1.73830111423E+02	-4.36080275295E+01	1.64176205133E+02	-5.87862625874E+00	-9.25177933341E-01
1.63148127570E+06	-1.36464992479E+01	-1.52293374412E+02	6.66748058804E+00	1.73747299825E+02	-4.28606044743E+01	-2.54404899108E+01	-5.88720597577E+00	-7.87862179624E-01
1.65367263029E+06	-1.90705624139E+01	1.74152861950E+02	6.70476587177E+00	1.73815424923E+02	-5.97892377740E+01	-9.70241214431E+01	-5.87057437332E+00	-9.82702051228E-01
1.67586398489E+06	-1.54873409310E+01	-1.68696956477E+02	6.69199524466E+00	1.73903103252E+02	-3.64439653812E+01	1.48384073883E+02	-5.86197655894E+00	-9.12960907278E-01
1.69805533948E+06	-1.50228462533E+01	-1.42336056343E+02	6.68712875931E+00	1.73430884768E+02	-5.26869323646E+01	1.24574047772E+02	-5.86873232501E+00	-8.22169231909E-01
1.72024669408E+06	-1.28831191464E+01	1.79668370173E+02	6.65688017668E+00	1.73696626799E+02	-4.57881530662E+01	6.45070145457E+01	-5.86617551133E+00	-9.64931756265E-01
1.74243804867E+06	-1.52957516805E+01	-1.68522574297E+02	6.67545368534E+00	1.73372507477E+02	-4.38546798133E+01	1.46339659852E+02	-5.86564111481E+00	-1.04783181568E+00
1.76462940327E+06	-1.23863210534E+01	-1.73507676688E+02	6.64156925627E+00	1.73532422747E+02	-5.24114029275E+01	-1.29093118891E+02	-5.88013017982E+00	-8.60041365982E-01
1.78682075786E+06	-1.31218554500E+01	-1.63916501711E+02	6.66505763539E+00	1.73217870386E+02	-3.93758579345E+01	1.38526200406E+02	-5.86601429336E+00	-9.02728583855E-01
1.80901211246E+06	-1.09295876221E+01	-1.58127210171E+02	6.66921366961E+00	1.72839771819E+02	-4.66634923321E+01	-5.52915100029E+01	-5.86473541158E+00	-8.89992035584E-01
1.83120346705E+06	-1.48890633787E+01	-1.64119309824E+02	6.71665552368E+00	1.73131810562E+02	-3.05988988761E+01	1.41335525816E+02	-5.82673440879E+00	-8.30053896486E-01
1.85339482165E+06	-1.41003683333E+01	-1.76290806411E+02	6.66136847818E+00	1.72988408837E+02	-5.46170665981E+01	1.55142429056E+02	-5.86298301044E+00	-9.35700572987E-01
1.87558617624E+06	-1.53317483271E+01	-1.65720365773E+02	6.63584876827E+00	1.72534064139E+02	-5.06727209066E+01	-8.12331455975E+01	-5.88298097506E+00	-8.54216541649E-01
1.89777753084E+06	-1.55959740648E+01	-1.71516375193E+02	6.67459952369E+00	1.72802827982E+02	-4.39090644097E+01	1.47264889158E+01	-5.88320395292E+00	-9.48762245806E-01
1.91996888543E+06	-1.67878564579E+01	1.65212437157E+02	6.66569828325E+00	1.73042575108E+02	-4.17657815421E+01	-7.02709500644E+01	-5.88870262632E+00	-1.02240023246E+00
1.94216024003E+06	-1.07143098205E+01	-1.72538143900E+02	6.60583461481E+00	1.72555932439E+02	-5.28365111882E+01	1.65634492889E+02	-5.86449885205E+00	-9.81520561827E-01
1.96435159462E+06	-1.57437580044E+01	-1.78462659370E+02	6.67630716965E+00	1.72742742891E+02	-5.10626171303E+01	-6.42227413913E+01	-5.88959431880E+00	-9.52055845870E-01
1.98654294922E+06	-1.13024787967E+01	-1.77777130145E+02	6.65385281166E+00	1.72260889913E+02	-3.48491659656E+01	-4.86972091876E+01	-5.88901618980E+00	-9.19625026482E-01
2.00873430381E+06	-1.13366410060E+01	-1.66611913491E+02	6.66713026586E+00	1.72514236032E+02	-3.92283907571E+01	-1.02173226923E+02	-5.88280026174E+00	-1.02132988070E+00
2.03092565841E+06	-1.06308096880E+01	-1.40836062769E+02	6.69381312601E+00	1.71974451290E+02	-4.53649861909E+01	-4.51896926010E+01	-5.89765700709E+00	-9.80803368414E-01
2.05311701300E+06	-1.01421901575E+01	-1.65245070799E+02	6.65115788524E+00	1.71869045946E+02	-5.16389748234E+01	1.05913879317E+01	-5.88243826164E+00	-1.06614463944E+00
2.07530836760E+06	-1.34924649102E+01	-1.65394653029E+02	6.68562898155E+00	1.71819390314E+02	-4.61598207052E+01	1.00258711053E+02	-5.86413531661E+00	-1.12443385050E+00
2.09749972219E+06	-1.41172253250E+01	-1.59294716941E+02	6.70691961241E+00	1.71869629461E+02	-5.05772899366E+01	2.30817241086E+00	-5.89418385395E+00	-1.17326593886E+00
2.11969107679E+06	-1.29914895880E+01	-1.72873555772E+02	6.64938749954E+00	1.72016152119E+02	-4.44082956828E+01	-1.65699217580E+02	-5.86403172415E+00	-1.07295908042E+00
2.14188243138E+06	-1.37748019071E+01	-1.68937942072E+02	6.67944816826E+00	1.71622033349E+02	-5.03877334708E+01	-1.17554864554E+02	-5.90549852228E+00	-1.14741949810E+00
2.16407378598E+06	-1.45373345285E+01	-1.42426198015E+02	6.68435386180E+00	1.71500558088E+02	-4.44750217539E+01	2.91367688907E+01	-5.88169794011E+00	-1.26216265628E+00
2.18626514057E+06	-1.52525920995E+01	-1.49566039732E+02	6.68778220261E+00	1.71377286179E+02	-4.59425252311E+01	-1.08599357918E+02	-5.86567424073E+00	-1.04346900552E+00
2.20845649517E+06	-1.65045457130E+01	-1.58690232715E+02	6.70340787843E+00	1.71355751083E+02	-4.81458634070E+01	9.16151286900E+01	-5.86421527128E+00	-1.17055619267E+00
2.23064784976E+06	-1.20437608658E+01	-1.56604161626E+02	6.68028492431E+00	1.71219029471E+02	-4.73966820343E+01	-4.27971163755E+01	-5.88690540557E+00	-1.09015919322E+00
2.25283920436E+06	-1.83485736157E+01	-1.20230902274E+02	6.72327346977E+00	1.71511766153E+02	-4.33219838195E+01	-1.67703455790E+02	-5.88345888165E+00	-1.23699358211E+00
2.27503055895E+06	-1.61700250175E+01	-1.43125106983E+02	6.70693815773E+00	1.71157659037E+02	-4.85740506570E+01	-2.69146269765E+01	-5.88905870114E+00	-1.14489974097E+00
2.29722191355E+06	-1.34065785079E+01	1.65056528106E+02	6.65771184851E+00	1.71019193252E+02	-4.07793746869E+01	9.88888412981E+01	-5.87032322934E+00	-1.28674117624E+00
2.31941326814E+06	-1.46021977928E+01	1.78572294245E+02	6.65063919234E+00	1.71170118306E+02	-4.39932930112E+01	-1.09537931473E+02	-5.87398381964E+00	-1.29129866925E+00
2.34160462274E+06	-1.11196346045E+01	-1.78287079533E+02	6.63092958011E+00	1.70738435193E+02	-4.80247825998E+01	1.67495607899E+02	-5.87479088548E+00	-1.18883426085E+00
2.36379597733E+06	-1.34286424732E+01	-1.71602543993E+02	6.67181852592E+00	1.70645125461E+02	-4.56446447581E+01	3.98685875858E+01	-5.88712668968E+00	-1.30757471211E+00
2.38598733193E+06	-1.06879074518E+01	-1.63297204720E+02	6.66464974993E+00	1.70375095373E+02	-4.82259890080E+01	1.40748482869E+02	-5.86156223481E+00	-1.23156995384E+00
2.40817868652E+06	-1.75876630795E+01	-1.55411982502E+02	6.67745497007E+00	1.70703102568E+02	-5.31345724148E+01	1.36862630175E+02	-5.87781370321E+00	-1.48643258709E+00
2.43037004112E+06	-1.09187756794E+01	-1.43465867924E+02	6.72627446922E+00	1.70356000941E+02	-4.44084386782E+01	-4.51656160617E+01	-5.88589589674E+00	-1.59643791038E+00
2.45256139571E+06	-1.65645843622E+01	-1.42614180303E+02	6.73552156376E+00	1.70541453684E+02	-4.06587441132E+01	-2.55903935097E+01	-5.87147948169E+00	-1.28186001817E+00
2.47475275031E+06	-1.14985082477E+01	-1.73249728784E+02	6.65350335548E+00	1.70400345317E+02	-4.48573696859E+01	1.89801306857E+01	-5.86092597483E+00	-1.32431683511E+00
2.49694410490E+06	-1.21819913036E+01	-1.55448363743E+02	6.71721979830E+00	1.69881361419E+02	-4.65566091981E+01	-7.58464277092E+01	-5.87792098377E+00	-1.27945580320E+00
2.51913545950E+06	-1.24366221657E+01	-1.62128597408E+02	6.70602404750E+00	1.70108591274E+02	-4.87734719161E+01	1.52818692286E+02	-5.85871020464E+00	-1.28233476864E+00
2.54132681409E+06	-1.31318596513E+01	-1.57605953003E+02	6.70191230034E+00	1.70014913768E+02	-3.79596121472E+01	8.82342764257E+00	-5.87247697565E+00	-1.36977086713E+00
2.56351816869E+06	-1.43365965930E+01	-1.70897917281E+02	6.69288235228E+00	1.69838705316E+02	-5.25807081821E+01	-1.10200769584E+02	-5.87822923512E+00	-1.12960301977E+00
2.58570952328E+06	-1.18375402910E+01	-1.70074709820E+02	6.69371290335E+00	1.69560819088E+02	-5.80199117235E+01	-1.36259888873E+02	-5.89256907488E+00	-1.19163271734E+00
2.60790087788E+06	-1.32753305519E+01	-1.55257230160E+02	6.69188859579E+00	1.69732939096E+02	-3.19879518623E+01	-2.81026288528E+01	-5.92321901689E+00	-1.30787078117E+00
2.63009223247E+06	-1.43718855439E+01	-1.63827924291E+02	6.70240574722E+00	1.69926201662E+02	-5.07761775070E+01	-1.32330715040E+02	-5.88046848633E+00	-6.87479529707E-01
2.65228358707E+06	-1.24817702364E+01	-1.59449575852E+02	6.68377281511E+00	1.69414414984E+02	-4.47880758067E+01	1.54313692215E+01	-5.87242940357E+00	-1.31310541419E+00
2.67447494166E+06	-1.17665495790E+01	-1.58469893755E+02	6.70330027830E+00	1.69068981678E+02	-4.44702523031E+01	1.39420154528E+02	-5.88745712575E+00	-1.36112196885E+00
2.69666629626E+06	-1.36387465851E+01	-1.68610028260E+02	6.72931861647E+00	1.69314698794E+02	-4.58886234075E+01	1.71252407213E+02	-5.86752161597E+00	-1.44043711342E+00
2.71885765085E+06	-1.21463309020E+01	-1.74070123148E+02	6.67913931348E+00	1.69095333937E+02	-5.03081338684E+01	9.50206405711E+01	-5.86330951118E+00	-1.53730120773E+00
2.74104900545E+06	-1.01985208097E+01	1.73603968022E+02	6.66522750872E+00	1.69159108854E+02	-4.31766087795E+01	1.11247609735E+02	-5.88502094083E+00	-1.46951997832E+00
2.76324036004E+06	-1.31240148160E+01	-1.43049165945E+02	6.73202050959E+00	1.68840188998E+02	-4.08780832634E+01	-5.56950311006E+01	-5.88727977256E+00	-1.34906249253E+00
2.78543171463E+06	-1.22488936949E+01	-1.64857177438E+02	6.71921998558E+00	1.68773665439E+02	-5.84573908830E+01	1.40745820546E+02	-5.87081561137E+00	-1.41623928357E+00
2.80762306923E+06	-1.34312782915E+01	-1.46101223687E+02	6.72008965588E+00	1.68575807444E+02	-4.44516999455E+01	-5.18186685167E+01	-5.86852388624E+00	-1.44300811426E+00
2.82981442382E+06	-1.54888926971E+01	-1.45350443038E+02	6.75080078692E+00	1.68799598729E+02	-4.89646347218E+01	-1.25453702396E+02	-5.87599356048E+00	-1.33498675549E+00
2.85200577842E+06	-1.34591215471E+01	1.79884024319E+02	6.67147036462E+00	1.68723504122E+02	-5.38551836314E+01	1.45060436840E+02	-5.88503505313E+00	-1.57478873652E+00
2.87419713301E+06	-1.18842686846E+01	-1.65463917933E+02	6.67591811035E+00	1.68449461160E+02	-5.52923813633E+01	1.00326588847E+02	-5.87594938615E+00	-1.50732347481E+00
