# Hz S DB R 50
! CMT, M5065, 19127446, 24.2.4/2
! Date: 11/8/2024 5:10:58 PM
! Data: Format (Calibration Info)
! Freq	S11:dB/Ang(F2)	S21:dB/Ang(F2)	S12:dB/Ang(F2)	S22:dB/Ang(F2)
3.00000000000E+05	-1.41543956619E+01	-1.71752392554E+02	1.00191482677E+01	-1.77413262042E+02	-4.83686521039E+01	1.59710036697E+02	-5.88034574454E+00	-2.07568693093E-01
3.22191354595E+05	-1.38496187582E+01	-1.65633185800E+02	1.00106178223E+01	-1.77715765790E+02	-3.90297483893E+01	-1.69119556276E+02	-5.85657321012E+00	-1.62222453127E-01
3.44382709190E+05	-1.44130908541E+01	1.73291494390E+02	1.00012866828E+01	-1.78116497746E+02	-4.14914106977E+01	-4.23123359768E+01	-5.88757426951E+00	-2.73189338835E-01
3.66574063785E+05	-1.60848552544E+01	1.50774932650E+02	1.00072258780E+01	-1.78269741455E+02	-4.52507049260E+01	1.07007418466E+01	-5.87281221019E+00	-3.59763185753E-01
3.88765418380E+05	-1.29708501878E+01	-1.61488976377E+02	9.97470741325E+00	-1.78834387942E+02	-4.76085475436E+01	1.40966335258E+02	-5.91271702772E+00	-1.36734649562E+00
4.10956772975E+05	-1.48832402732E+01	-1.63603312737E+02	1.00225681895E+01	-1.79119983960E+02	-4.34300564465E+01	-8.67483229907E+01	-5.86469954746E+00	-1.77425036766E-01
4.33148127570E+05	-1.39491946592E+01	-1.61945166675E+02	1.00248922161E+01	-1.79351833733E+02	-3.58985908231E+01	1.75394573998E+01	-5.90831482447E+00	-4.14191310806E-01
4.55339482165E+05	-1.42012391267E+01	1.66740284572E+02	1.00238952888E+01	-1.79481127858E+02	-4.36183945945E+01	-7.22669620265E+00	-5.88862754556E+00	-3.53359099879E-01
4.77530836760E+05	-1.16786924698E+01	-1.73741438171E+02	9.97797165636E+00	-1.79858457034E+02	-4.92840026137E+01	-4.20161034239E+01	-5.87302285860E+00	-3.88487364279E-01
4.99722191355E+05	-1.26571824618E+01	-1.75260405507E+02	9.97405641113E+00	1.79845640665E+02	-4.38795569612E+01	1.19733327511E+02	-5.86447124120E+00	-3.24389331562E-01
5.21913545950E+05	-1.21027533008E+01	-1.74007726795E+02	9.97573370692E+00	1.79743226322E+02	-3.99704014998E+01	1.78781215812E+02	-5.83927570198E+00	-3.22478733421E-01
5.44104900545E+05	-1.37830183555E+01	-1.66196088979E+02	1.00116978776E+01	1.79515331723E+02	-4.69725864609E+01	5.43055046027E+01	-5.86472599706E+00	-4.73996022903E-01
5.66296255139E+05	-1.79191043121E+01	-1.64298785528E+02	1.00927705788E+01	1.79234364559E+02	-6.01858031301E+01	1.06613408116E+02	-5.86124543890E+00	-4.17729680873E-01
5.88487609734E+05	-6.72739015616E+00	1.59040600229E+02	9.99879088102E+00	1.79414781702E+02	-4.46719814144E+01	1.36754210844E+02	-5.85738747144E+00	-5.64571935124E-01
6.10678964329E+05	-1.60093131510E+01	-1.50608421728E+02	1.00519798045E+01	1.78694042064E+02	-4.89176502519E+01	-8.27410225070E+01	-5.87957009210E+00	3.07933734933E-01
6.32870318924E+05	-1.61819730601E+01	1.76029154284E+02	1.00064540387E+01	1.78687775437E+02	-4.49778211199E+01	1.42965416692E+02	-5.86760688608E+00	-2.23843823043E-01
6.55061673519E+05	-1.19437915560E+01	1.74332146010E+02	1.00093230661E+01	1.78717511336E+02	-4.61597779988E+01	8.86223269708E+01	-5.85418959206E+00	-3.91550690184E-01
6.77253028114E+05	-1.51138271005E+01	1.78954418413E+02	1.00341385958E+01	1.78379596459E+02	-4.68598640664E+01	2.37282448155E+01	-5.89089784941E+00	-7.74925601779E-01
6.99444382709E+05	-1.55760387030E+01	1.68837623918E+02	1.00476104398E+01	1.78245642829E+02	-6.25916824051E+01	-1.39451426608E+02	-5.84916045372E+00	-3.60510284074E-01
7.21635737304E+05	-1.40898030132E+01	1.79340801897E+02	1.00218952838E+01	1.77997026981E+02	-3.66401287850E+01	1.78085337154E+02	-5.83701387732E+00	-5.41149735169E-01
7.43827091899E+05	-1.32208004294E+01	-1.50583959659E+02	9.99430986703E+00	1.77541016343E+02	-4.61197981027E+01	3.00978085108E+00	-5.88747230447E+00	-5.08473602631E-01
7.66018446494E+05	-1.23416910701E+01	-1.66096374916E+02	9.99276055805E+00	1.77345123775E+02	-4.58226981978E+01	1.23093741294E+02	-5.87962245653E+00	-5.10572471614E-01
7.88209801089E+05	-1.28559043768E+01	-1.73812279898E+02	1.00098308324E+01	1.77594647247E+02	-4.59925310409E+01	1.16982145980E+02	-5.87955588378E+00	-4.50208706461E-01
8.10401155684E+05	-1.48414121310E+01	1.73910661960E+02	1.00041770342E+01	1.77541295065E+02	-4.19303214886E+01	1.00420913497E+02	-5.87266647037E+00	-5.20542666161E-01
8.32592510279E+05	-1.08350063096E+01	-1.53630682640E+02	1.00198845069E+01	1.77041751529E+02	-4.93834418866E+01	-6.28787700723E+01	-5.88451829845E+00	-3.45189114672E-01
8.54783864874E+05	-1.29393656451E+01	-1.57849099397E+02	1.00251986656E+01	1.76917208871E+02	-5.47690814817E+01	3.81400480445E+01	-5.86128335377E+00	-4.48167950555E-01
8.76975219469E+05	-1.34077005932E+01	-1.60002675822E+02	9.99589653387E+00	1.76832682523E+02	-4.21523141730E+01	-5.49608018444E+01	-5.88690616135E+00	-4.35695355640E-01
8.99166574064E+05	-1.54531947626E+01	-1.67329453541E+02	1.00558362530E+01	1.76693384271E+02	-4.68128261798E+01	-8.24333505511E+01	-5.86753876900E+00	-3.20789984585E-01
9.21357928659E+05	-1.64553675123E+01	1.75195141719E+02	1.00274992268E+01	1.76611108189E+02	-4.34071416639E+01	-1.64847437562E+02	-5.86061551864E+00	-4.68808088838E-01
9.43549283254E+05	-1.27659666184E+01	-1.68075117569E+02	1.00017130444E+01	1.76286562672E+02	-4.73326961238E+01	6.33133565602E+01	-5.88563375389E+00	-6.97279875771E-01
9.65740637849E+05	-1.28019204433E+01	-1.62817119018E+02	1.00161225512E+01	1.76185572005E+02	-4.42769977043E+01	1.50109850842E+02	-5.85071074883E+00	-5.94539241008E-01
9.87931992444E+05	-1.41037981095E+01	-1.63398655328E+02	9.99861975863E+00	1.76379218583E+02	-5.39926147551E+01	-1.79487166280E+02	-5.86601092149E+00	-4.64064503022E-01
1.01012334704E+06	-1.55295198929E+01	-1.63810822122E+02	1.00459003975E+01	1.75893435648E+02	-5.39142669659E+01	1.02625245282E+01	-5.87814702339E+00	-6.56622997145E-01
1.03231470163E+06	-1.18492260996E+01	-1.63589102599E+02	9.99434664606E+00	1.75747630241E+02	-4.26789196951E+01	-1.94486022845E+01	-5.88684334910E+00	-6.36781535018E-01
1.05450605623E+06	-1.47866757941E+01	-1.69688803899E+02	1.00075386292E+01	1.75878457996E+02	-4.83151132077E+01	-3.86316287358E+01	-5.86732381498E+00	-6.05723847435E-01
1.07669741082E+06	-1.16384820055E+01	-1.65833682796E+02	1.00906616462E+01	1.75334400818E+02	-5.91240504690E+01	5.50510325968E+01	-5.84115481452E+00	-3.44110997975E-01
1.09888876542E+06	-1.47203140312E+01	-1.54837798494E+02	1.00472730624E+01	1.75428447099E+02	-4.38042481732E+01	1.23132419267E+02	-5.85796822876E+00	-7.43270271669E-01
1.12108012001E+06	-1.64252823350E+01	-1.68485539584E+02	1.00302429561E+01	1.75521360761E+02	-5.67245979511E+01	-9.88932467223E+01	-5.89663462072E+00	-5.71725840858E-01
1.14327147461E+06	-1.55257119045E+01	-1.67838597387E+02	1.00488240612E+01	1.75253606153E+02	-4.80099384785E+01	-6.47338276847E+01	-5.87626027357E+00	-6.82080372073E-01
1.16546282920E+06	-1.20737166306E+01	-1.61882686348E+02	9.99867769520E+00	1.74987677378E+02	-4.46593470048E+01	1.30224152568E+02	-5.88358289489E+00	-7.65166660158E-01
1.18765418380E+06	-1.49742321200E+01	-1.74050078708E+02	1.00265385302E+01	1.75145138464E+02	-5.86293053702E+01	1.66725498949E+02	-5.86488832792E+00	-7.18029153324E-01
1.20984553839E+06	-1.13929597478E+01	-1.43987212113E+02	1.00474400439E+01	1.74764449110E+02	-5.50657431286E+01	-1.47573424355E+02	-5.86404329871E+00	-7.58129987285E-01
1.23203689299E+06	-1.08822436148E+01	1.75397692103E+02	9.95216744550E+00	1.75031216407E+02	-4.95194836515E+01	1.45005891786E+02	-5.87006890056E+00	-3.68597413407E-01
1.25422824758E+06	-1.02427426392E+01	-1.50707240128E+02	1.00345729251E+01	1.74541614168E+02	-4.41330148697E+01	1.64017797321E+02	-5.81972562979E+00	-6.31363760920E-01
1.27641960218E+06	-1.44074380878E+01	-1.71174671979E+02	9.99905113074E+00	1.74548474645E+02	-6.81290548061E+01	-3.09117009947E+01	-5.88429687186E+00	-6.29107259377E-01
1.29861095677E+06	-1.44014964033E+01	-1.70063403630E+02	1.00087064958E+01	1.74381978174E+02	-4.34355326601E+01	1.77285697537E+02	-5.82566101715E+00	-5.32055337941E-01
1.32080231137E+06	-1.62890592476E+01	-1.75333587302E+02	1.00154604275E+01	1.74317249506E+02	-4.91988724326E+01	5.04517078009E+01	-5.86900778481E+00	-1.05223988923E+00
1.34299366596E+06	-1.12055843539E+01	-1.79072482949E+02	9.99307754707E+00	1.74098209469E+02	-4.49489119561E+01	-1.35232878896E+02	-5.83937042769E+00	-7.49021933848E-01
1.36518502056E+06	-1.59550763266E+01	1.60617620747E+02	9.99733493199E+00	1.74137960191E+02	-6.00249976072E+01	9.95282619289E+00	-5.86147617788E+00	-8.61157237404E-01
1.38737637515E+06	-1.03352097835E+01	-1.64588038882E+02	1.00202072426E+01	1.73559054594E+02	-5.82253989332E+01	-1.24651481445E+02	-5.87741568657E+00	-7.13027557616E-01
1.40956772975E+06	-1.41095154902E+01	-1.54698646306E+02	1.00620488148E+01	1.73422071386E+02	-4.67056226204E+01	-8.52885014409E+01	-5.88014510251E+00	-5.97971433490E-01
1.43175908434E+06	-1.32741471789E+01	-1.56881789099E+02	1.00485625103E+01	1.73605638731E+02	-3.30640932515E+01	1.21108365462E+02	-5.84543179191E+00	-8.67525090975E-01
1.45395043894E+06	-1.50713839896E+01	-1.59727729721E+02	1.00218839932E+01	1.73474619263E+02	-4.78589142322E+01	-9.50901572349E+01	-5.86384095532E+00	-7.10211554657E-01
1.47614179353E+06	-1.38473759310E+01	1.62379945436E+02	9.97423646013E+00	1.73791755737E+02	-4.14871081087E+01	-7.36677708571E+01	-5.88631161658E+00	-7.34420158027E-01
1.49833314813E+06	-1.33579820841E+01	-1.73801519552E+02	1.00103936047E+01	1.73240954947E+02	-4.74940747915E+01	9.15627650397E+01	-5.87074632916E+00	-8.91126962850E-01
1.52052450272E+06	-1.31297943976E+01	-1.77632602007E+02	1.00111330210E+01	1.73073306705E+02	-5.48133491392E+01	5.64200380932E+01	-5.85062376462E+00	-7.61135233309E-01
1.54271585732E+06	-1.25974470551E+01	1.72450728533E+02	1.00126096433E+01	1.73346372368E+02	-3.98508408138E+01	1.53548695753E+02	-5.83861404975E+00	-7.98342548667E-01
1.56490721191E+06	-1.46030620018E+01	-1.52797873224E+02	1.00226169483E+01	1.72913550452E+02	-4.65651839755E+01	-7.79761370324E+01	-5.86718840915E+00	-7.52577046698E-01
1.58709856651E+06	-1.03685921298E+01	-1.69460621414E+02	1.00003125334E+01	1.73019200695E+02	-3.99564342399E+01	7.40126736801E+01	-5.83673995406E+00	-9.40929251120E-01
1.60928992110E+06	-1.22154413345E+01	-1.79309183769E+02	9.98972946850E+00	1.72665125043E+02	-5.13832527318E+01	-1.19583324943E+02	-5.87420029438E+00	-8.65022452954E-01
1.63148127570E+06	-1.65201648322E+01	1.69318900537E+02	1.00180125756E+01	1.72749319554E+02	-4.77726800058E+01	1.59722288653E+02	-5.84653015869E+00	-8.94067196021E-01
1.65367263029E+06	-1.36346056238E+01	-1.59825012090E+02	1.00170688711E+01	1.72416807342E+02	-5.03095291287E+01	3.47386527536E+01	-5.87243718539E+00	-1.02715636234E+00
1.67586398489E+06	-1.36650570953E+01	-1.56332558159E+02	1.00328201837E+01	1.72297296665E+02	-4.27529154261E+01	-9.06162241991E+01	-5.86064522729E+00	-7.18758906798E-01
1.69805533948E+06	-1.13614569578E+01	-1.77499422099E+02	9.99793583782E+00	1.72177461925E+02	-4.43534282726E+01	1.12410207714E+02	-5.85726015393E+00	-9.88875496472E-01
1.72024669408E+06	-1.16781078417E+01	-1.62851694894E+02	1.00206619192E+01	1.72041822851E+02	-4.49941503245E+01	-1.65534576000E+02	-5.87138257175E+00	-8.34162492448E-01
1.74243804867E+06	-1.10603162069E+01	-1.69831052952E+02	1.00127581554E+01	1.71970246324E+02	-3.77941598877E+01	-4.09316346631E-01	-5.92442627191E+00	-9.45264589929E-01
1.76462940327E+06	-1.19187325820E+01	-1.65517457825E+02	1.00103679961E+01	1.71714603411E+02	-4.43494725144E+01	8.95558255152E+01	-5.86333805946E+00	-9.97030999717E-01
1.78682075786E+06	-1.26451017787E+01	-1.73461152682E+02	1.00260301650E+01	1.71677479804E+02	-5.42438039910E+01	-1.44302105660E+02	-5.88120208927E+00	-1.06959402092E+00
1.80901211246E+06	-1.37254359256E+01	-1.75030721375E+02	1.00067728410E+01	1.71650039270E+02	-4.20757217512E+01	-2.56626933317E+01	-5.88761146722E+00	-8.23268541028E-01
1.83120346705E+06	-1.28803611464E+01	-1.72133546857E+02	1.00252130016E+01	1.71556069558E+02	-4.75421002474E+01	-1.60900736166E+02	-5.86414711159E+00	-8.42521386798E-01
1.85339482165E+06	-1.18277406959E+01	1.74110533269E+02	9.96152215387E+00	1.71357300997E+02	-6.06399157095E+01	1.31827101885E+02	-5.86624665783E+00	-9.78721967179E-01
1.87558617624E+06	-1.29023871483E+01	-1.65843388521E+02	1.00008154606E+01	1.71326203964E+02	-5.97086803277E+01	-1.75488217168E+02	-5.86895786250E+00	-9.42418656182E-01
1.89777753084E+06	-1.52439714366E+01	1.79343822080E+02	1.00402987852E+01	1.71197117751E+02	-6.10822067248E+01	-5.05629574385E+01	-5.86140513366E+00	-9.55631428831E-01
1.91996888543E+06	-1.36272416850E+01	-1.72068961034E+02	1.00288820076E+01	1.71107518725E+02	-5.83215913322E+01	-7.56437166584E+01	-5.90215264583E+00	-1.05336950326E+00
1.94216024003E+06	-1.07335618938E+01	-1.59183736468E+02	1.00033173663E+01	1.70716035084E+02	-4.36982916565E+01	1.23244813045E+02	-5.87014107340E+00	-1.05917934942E+00
1.96435159462E+06	-1.32177700146E+01	-1.50901426992E+02	1.00411091956E+01	1.70858297247E+02	-4.67368123289E+01	-8.97704209538E+01	-5.89040359270E+00	-9.64219214746E-01
1.98654294922E+06	-1.23668197938E+01	-1.68207371194E+02	1.00253600034E+01	1.70620586647E+02	-4.24236652033E+01	1.05380370731E+02	-5.86221068357E+00	-1.21400609304E+00
2.00873430381E+06	-1.87252482986E+01	1.37991824836E+02	1.00087818319E+01	1.70841906193E+02	-4.50993948496E+01	-4.05938412834E-02	-5.90295470409E+00	-1.12395428691E+00
2.03092565841E+06	-1.69716996806E+01	-1.63297611511E+02	1.00458656750E+01	1.70897400554E+02	-7.75259380508E+01	1.32506710397E+01	-5.88337847377E+00	-9.39652737500E-01
2.05311701300E+06	-1.19139770902E+01	-1.68051895672E+02	1.00013687643E+01	1.70259033302E+02	-4.16316655360E+01	-8.88467789381E+01	-5.89062975502E+00	-9.66504325600E-01
2.07530836760E+06	-1.26368278440E+01	-1.78535806747E+02	1.00361663709E+01	1.70421906014E+02	-5.68629123251E+01	-1.25146369291E+02	-5.88466492194E+00	-1.20826173810E+00
2.09749972219E+06	-1.46373401877E+01	-1.69524659845E+02	1.00328086244E+01	1.70223625501E+02	-4.13347168614E+01	5.05431197328E+01	-5.87093704594E+00	-1.28552085132E+00
2.11969107679E+06	-1.24590081157E+01	-1.70327336906E+02	1.00466610104E+01	1.70138129361E+02	-4.98902385721E+01	1.13584686489E+02	-5.85381636327E+00	-1.11487944583E+00
2.14188243138E+06	-1.22227273315E+01	-1.79679941868E+02	1.00058250551E+01	1.69867523444E+02	-4.24567990374E+01	-1.58582798947E+02	-5.84689369200E+00	-1.02945035138E+00
2.16407378598E+06	-9.81971903232E+00	1.67256557290E+02	1.00012083136E+01	1.69729197767E+02	-4.71122243053E+01	-2.48335753870E+01	-5.88130866308E+00	-1.20253183704E+00
2.18626514057E+06	-1.10481158442E+01	-1.68928177027E+02	1.00402068088E+01	1.69585214203E+02	-4.46331350190E+01	4.12431416675E+01	-5.85924428160E+00	-1.19473361179E+00
2.20845649517E+06	-1.54843370644E+01	-1.57203491253E+02	1.00410585621E+01	1.69651015506E+02	-3.96265433984E+01	-1.72535250485E+02	-5.85073512930E+00	-1.09946271132E+00
2.23064784976E+06	-1.34398779956E+01	-1.77395999728E+02	1.00318765541E+01	1.69776342021E+02	-5.96987563231E+01	1.05694950933E+02	-5.88792878396E+00	-1.03373615670E+00
2.25283920436E+06	-1.25336938355E+01	-1.62341134328E+02	1.00622550675E+01	1.69380991895E+02	-4.71065265562E+01	-9.55276357567E+01	-5.88066439245E+00	-1.13031808011E+00
2.27503055895E+06	-1.24238000344E+01	-1.67756415889E+02	1.00444351168E+01	1.69266752195E+02	-4.21395890825E+01	-1.45037324582E+02	-5.84918008730E+00	-1.01731303801E+00
2.29722191355E+06	-1.21741146049E+01	-1.52380619404E+02	1.00417362077E+01	1.69090816778E+02	-4.81451558680E+01	9.77796466358E+01	-5.86876870032E+00	-1.22307487729E+00
2.31941326814E+06	-7.03666456154E+00	-1.31503354965E+02	1.01350604774E+01	1.68217453259E+02	-4.17822845533E+01	1.39461049003E+02	-5.83760021951E+00	-1.35184456983E+00
2.34160462274E+06	-1.43404768998E+01	1.64842634739E+02	1.00246283590E+01	1.69251913997E+02	-4.74081199776E+01	-1.69014674314E+02	-5.86944333180E+00	-1.28753228657E+00
2.36379597733E+06	-1.43444691609E+01	-1.59558679376E+02	1.00596246483E+01	1.68867916911E+02	-4.21882859687E+01	-7.33193314213E+01	-5.87733194438E+00	-1.07638899782E+00
2.38598733193E+06	-1.27808495496E+01	-1.52880979619E+02	1.00585095071E+01	1.68608887706E+02	-5.15940180553E+01	-7.94164935383E+01	-5.88195589039E+00	-1.10290728404E+00
2.40817868652E+06	-1.13622436820E+01	-1.59182727643E+02	1.00497023831E+01	1.68476975277E+02	-4.54400677981E+01	1.63452015385E+02	-5.87485028767E+00	-1.29777184747E+00
2.43037004112E+06	-1.60784236033E+01	-1.73587042683E+02	1.01040117001E+01	1.68532970606E+02	-4.68499534082E+01	-2.89852748942E+01	-5.89930062856E+00	-1.59774301780E+00
2.45256139571E+06	-1.04415369069E+01	-1.56005234756E+02	1.00217462941E+01	1.68236126020E+02	-4.87255689329E+01	1.15556090936E+02	-5.86398106593E+00	-1.18398813219E+00
2.47475275031E+06	-1.22020216968E+01	1.58845306663E+02	1.00100737688E+01	1.68527965039E+02	-7.08473986294E+01	-7.46549996194E+00	-5.87478657335E+00	-1.23336358447E+00
2.49694410490E+06	-1.31210673936E+01	-1.53816197469E+02	1.00785685257E+01	1.68038182792E+02	-4.21947762281E+01	1.06509798351E+02	-5.84957800706E+00	-1.36035066080E+00
2.51913545950E+06	-1.26767200073E+01	-1.62594251554E+02	1.00345122755E+01	1.67876254874E+02	-4.52216038895E+01	1.64850651079E+02	-5.84744996622E+00	-1.30773915289E+00
2.54132681409E+06	-1.38462575345E+01	-1.65606528989E+02	1.00682563600E+01	1.67835280535E+02	-4.99987637951E+01	1.76448706141E+02	-5.88800377423E+00	-1.31730346693E+00
2.56351816869E+06	-1.09582167240E+01	-1.58894592183E+02	1.00370998973E+01	1.67508531551E+02	-5.27825754861E+01	1.32203633024E+02	-5.87522195666E+00	-1.34926617779E+00
2.58570952328E+06	-1.23156250962E+01	-1.67093159994E+02	1.00477513032E+01	1.67714815665E+02	-4.78243164161E+01	5.64928710448E+01	-5.90484524197E+00	-1.43140790705E+00
2.60790087788E+06	-1.27659927244E+01	-1.65474854785E+02	1.00757858511E+01	1.67536841285E+02	-4.92279347937E+01	6.42831300601E+01	-5.86358920204E+00	-1.25314184684E+00
2.63009223247E+06	-1.86836058942E+01	1.75311518259E+02	1.00431733538E+01	1.67970295203E+02	-4.05417060163E+01	1.05295824173E+02	-5.87430398914E+00	-9.53968604321E-01
2.65228358707E+06	-1.22736827993E+01	-1.73187169769E+02	1.00453496799E+01	1.67312248051E+02	-4.47031499129E+01	1.71045367888E+02	-5.86637305704E+00	-1.29246709486E+00
2.67447494166E+06	-1.32007634630E+01	-1.72777800586E+02	1.00628775412E+01	1.67265154173E+02	-4.22438881084E+01	5.43035268817E+01	-5.88728945945E+00	-1.40240191699E+00
2.69666629626E+06	-1.58761996383E+01	-1.77255402187E+02	1.00567971581E+01	1.67227083065E+02	-6.83861549601E+01	-4.77218235387E+01	-5.88949414994E+00	-1.44135717614E+00
2.71885765085E+06	-1.32127119734E+01	1.77164292886E+02	1.00392774283E+01	1.67152368259E+02	-5.60793771005E+01	-1.72880660533E+02	-5.86871166568E+00	-1.32129768123E+00
2.74104900545E+06	-1.16400832198E+01	-1.54672789538E+02	1.00399180238E+01	1.66684795659E+02	-4.31925009325E+01	4.62150766563E+01	-5.86067660842E+00	-1.53227410980E+00
2.76324036004E+06	-1.34099618876E+01	-1.49421179554E+02	1.00561269847E+01	1.66648912515E+02	-4.44133305460E+01	-1.04283554760E+02	-5.86790362552E+00	-1.24044467110E+00
2.78543171463E+06	-1.02206506549E+01	-1.63475823298E+02	1.00547562807E+01	1.66396289677E+02	-4.48611857470E+01	-6.57180492574E+01	-5.88115051831E+00	-1.29826185927E+00
2.80762306923E+06	-1.46863638808E+01	-1.68307086075E+02	1.00888509275E+01	1.66495526693E+02	-4.32203726504E+01	7.30588653317E+01	-5.88279941824E+00	-1.73177477342E+00
2.82981442382E+06	-1.58162999382E+01	-1.71233095757E+02	1.00425475860E+01	1.66583973275E+02	-5.88907300857E+01	5.03632061171E+01	-5.86660296852E+00	-1.53739294430E+00
2.85200577842E+06	-1.17144514624E+01	-1.61532670079E+02	1.00759630441E+01	1.66075197616E+02	-5.30066280933E+01	1.21144070809E+02	-5.87768436871E+00	-1.37965853883E+00
2.87419713301E+06	-1.48029203092E+01	-1.57033828583E+02	1.00897719145E+01	1.66089789106E+02	-5.06600658640E+01	-5.09356033876E+01	-5.89453394261E+00	-1.37267447214E+00
