# Hz S DB R 50
! CMT, M5065, 19127446, 24.2.4/2
! Date: 11/8/2024 5:21:21 PM
! Data: Format (Calibration Info)
! Freq	S11:dB/Ang(F2)	S21:dB/Ang(F2)	S12:dB/Ang(F2)	S22:dB/Ang(F2)
3.00000000000E+05	-1.40781703571E+01	-1.73514630827E+02	1.67229242114E+01	-1.76774244674E+02	-4.45507920643E+01	1.11636364284E+02	-5.86469114362E+00	-4.57152956616E-01
3.22191354595E+05	-1.54473498747E+01	1.76183926357E+02	1.67349409543E+01	-1.77310740469E+02	-4.93603995715E+01	7.36260069084E+01	-5.87231054447E+00	-3.73457140327E-01
3.44382709190E+05	-1.51136904236E+01	1.74579191835E+02	1.67603953410E+01	-1.77805160313E+02	-4.43163803199E+01	-8.70378798218E+01	-5.87897178077E+00	-1.98110318551E-01
3.66574063785E+05	-1.31626464835E+01	-1.60575737281E+02	1.67210944523E+01	-1.78415165547E+02	-4.70349256298E+01	-1.33829742436E+01	-5.88992206652E+00	-2.93670827229E-01
3.88765418380E+05	-1.12250073202E+01	1.75474145435E+02	1.66919074606E+01	-1.78762650660E+02	-4.03939604119E+01	-1.21923839058E+02	-5.93850675622E+00	-2.07701805607E-01
4.10956772975E+05	-1.16351664853E+01	1.74131044699E+02	1.67007981123E+01	-1.79151132629E+02	-5.22814267346E+01	-2.32366995914E+01	-5.86860717094E+00	-3.50394283415E-01
4.33148127570E+05	-1.27008028822E+01	-1.53699718938E+02	1.67173621782E+01	-1.79726462281E+02	-4.56380836427E+01	-1.54777264513E+02	-5.85853195396E+00	-3.69028899610E-01
4.55339482165E+05	-1.22388423327E+01	-1.79117666748E+02	1.67276084374E+01	-1.79886920152E+02	-4.24803003558E+01	-9.85555764167E+01	-5.84472686115E+00	-1.29338315431E-01
4.77530836760E+05	-1.66260247335E+01	-1.58866312565E+02	1.67554376835E+01	1.79592703680E+02	-5.06263783779E+01	-1.73344174595E+02	-5.86476762513E+00	-3.36365103554E-01
4.99722191355E+05	-1.56374084167E+01	-1.77890830068E+02	1.67461052865E+01	1.79325795601E+02	-4.46332431085E+01	-1.10387327085E+02	-5.84416654870E+00	-2.43828882556E-01
5.21913545950E+05	-1.16821024338E+01	-1.59384440820E+02	1.67262986140E+01	1.78757291578E+02	-4.76924732397E+01	1.25387117253E+02	-5.85347504131E+00	-5.04564730852E-01
5.44104900545E+05	-1.39352901797E+01	1.66822830534E+02	1.67342420467E+01	1.78838238597E+02	-4.01254961662E+01	7.58272719322E+01	-5.86572082986E+00	-8.29827152129E-01
5.66296255139E+05	-1.21305906757E+01	1.73380619620E+02	1.67118239664E+01	1.78588614649E+02	-6.25130221900E+01	1.24668631488E+02	-5.86475730118E+00	-1.96333251462E-01
5.88487609734E+05	-1.45842070419E+01	-1.72019528864E+02	1.67326389190E+01	1.78047272813E+02	-4.73984495928E+01	1.34034209208E+02	-5.84884688205E+00	-6.47093919773E-01
6.10678964329E+05	-1.23341172408E+01	1.68688592581E+02	1.67009978146E+01	1.77859310713E+02	-3.96857407140E+01	1.71358873744E+02	-5.83068588738E+00	-8.94202120064E-03
6.32870318924E+05	-1.60398846167E+01	1.75811343076E+02	1.67201550868E+01	1.77608615540E+02	-4.53112128480E+01	1.67064366113E+02	-5.85332482929E+00	-2.77634031126E-01
6.55061673519E+05	-1.68029489284E+01	-1.63225973590E+02	1.67648995062E+01	1.77175439220E+02	-4.95868122306E+01	1.56369827343E+02	-5.85706172362E+00	-3.55936834501E-01
6.77253028114E+05	-1.29053930529E+01	1.67205987219E+02	1.67265138741E+01	1.77039443156E+02	-4.95329521722E+01	9.19659875806E+01	-5.88045742062E+00	-6.53585283572E-01
6.99444382709E+05	-1.24051943315E+01	-1.62001516539E+02	1.67205722869E+01	1.76433108948E+02	-3.56439259996E+01	4.55075122613E+01	-5.92391374755E+00	-8.09078238752E-01
7.21635737304E+05	-1.16307363169E+01	-1.78533622940E+02	1.67243742134E+01	1.76655701101E+02	-5.79492563456E+01	-1.43303536139E+02	-5.87126467724E+00	-4.16076058830E-01
7.43827091899E+05	-1.46182490974E+01	-1.68112296917E+02	1.67408190942E+01	1.76197308985E+02	-5.46568915656E+01	-1.65559248534E+02	-5.86559556067E+00	-3.94600037903E-01
7.66018446494E+05	-1.53956108250E+01	-1.78198165683E+02	1.67344978550E+01	1.75935948655E+02	-4.85159639171E+01	-3.23862544696E+01	-5.90037170625E+00	-3.59661927546E-01
7.88209801089E+05	-1.16539034410E+01	1.77309622486E+02	1.67031552733E+01	1.75792894167E+02	-5.15277167433E+01	-1.22292638980E+02	-5.87743243939E+00	-3.29595232259E-01
8.10401155684E+05	-1.29435710055E+01	-1.78291376626E+02	1.67401811144E+01	1.75499334898E+02	-4.25736752406E+01	-1.11129140600E+02	-5.87042810129E+00	-9.04145975365E-02
8.32592510279E+05	-1.42771822005E+01	-1.39946546027E+02	1.67601090624E+01	1.74990239614E+02	-4.49857166273E+01	-1.29587047055E+02	-5.86503676483E+00	-3.84106646089E-01
8.54783864874E+05	-1.11143541490E+01	-1.62811432514E+02	1.67201783515E+01	1.74775659582E+02	-4.70740257169E+01	7.08907688694E+01	-5.88598699172E+00	-7.20805536741E-01
8.76975219469E+05	-1.35444088979E+01	1.76715167888E+02	1.67045069600E+01	1.74926256273E+02	-4.36860473936E+01	-1.59244780381E+02	-5.81672742925E+00	-3.33787573063E-01
8.99166574064E+05	-1.12744028424E+01	-1.69370442512E+02	1.66919310201E+01	1.74396177128E+02	-4.94248182184E+01	7.27384577014E+01	-5.88823136047E+00	-6.28994922898E-01
9.21357928659E+05	-1.34213578317E+01	1.67102327961E+02	1.66884485339E+01	1.74659576397E+02	-4.43296112871E+01	-1.59625480210E+01	-5.89640239076E+00	-5.05532701571E-01
9.43549283254E+05	-1.11738214367E+01	-1.64133694028E+02	1.66972174961E+01	1.73987292118E+02	-6.78123709974E+01	1.17195783448E+02	-5.88089351088E+00	-6.03821497276E-01
9.65740637849E+05	-1.28101250814E+01	-1.65840997348E+02	1.67013025530E+01	1.73919833393E+02	-4.41715962902E+01	1.53161120847E+02	-5.85037813511E+00	-6.70493886724E-01
9.87931992444E+05	-1.14796619571E+01	-1.65338635260E+02	1.66990642578E+01	1.73663987216E+02	-4.18085458629E+01	-1.50563424378E+02	-5.83661225834E+00	-3.65212113200E-01
1.01012334704E+06	-1.46749136182E+01	-1.37788643930E+02	1.67209561979E+01	1.73592683556E+02	-4.94007278232E+01	-8.56912059833E+01	-5.85453679700E+00	-4.68634438176E-01
1.03231470163E+06	-1.41834480088E+01	-1.75748070068E+02	1.66926285175E+01	1.73396596198E+02	-4.85235803873E+01	-9.33075758504E+00	-5.90550883335E+00	-5.37991751254E-01
1.05450605623E+06	-1.19332330751E+01	-1.75368096871E+02	1.66961967251E+01	1.73127116982E+02	-4.26534215861E+01	9.24256785508E+01	-5.87532711373E+00	-8.99552858790E-01
1.07669741082E+06	-1.46688091192E+01	-1.58015900190E+02	1.67255829055E+01	1.72450470303E+02	-4.13029073518E+01	-1.57540549101E+02	-5.64760118210E+00	-1.90231082213E+00
1.09888876542E+06	-1.44965701532E+01	-1.77414056006E+02	1.67148630153E+01	1.72687591059E+02	-5.64652768496E+01	-5.61472072858E+01	-5.84968685102E+00	-6.35431660489E-01
1.12108012001E+06	-1.21552911395E+01	-1.77572400206E+02	1.66866854619E+01	1.72596752263E+02	-4.17835380569E+01	-3.75958132662E+01	-5.93577524407E+00	-4.53403844317E-01
1.14327147461E+06	-1.36693930127E+01	-1.57264333356E+02	1.67317766150E+01	1.72318005355E+02	-4.74723055230E+01	-9.63363875355E+01	-5.87655669983E+00	-6.11248640867E-01
1.16546282920E+06	-1.19058976958E+01	-1.58188461088E+02	1.67185939667E+01	1.71960753249E+02	-4.76095220354E+01	-2.02964677542E+01	-5.86669400782E+00	-4.62786141103E-01
1.18765418380E+06	-1.19920219571E+01	-1.60514095305E+02	1.66898237905E+01	1.71835234641E+02	-4.14043149969E+01	4.30621457456E+01	-5.87284902721E+00	-8.08126320249E-01
1.20984553839E+06	-1.29826219172E+01	1.70198921119E+02	1.66894864641E+01	1.71998136500E+02	-4.71371468799E+01	2.83948024815E-01	-5.89426650254E+00	-7.25944583153E-01
1.23203689299E+06	-1.29614773397E+01	-1.69200941332E+02	1.66791618364E+01	1.71494910553E+02	-4.47849602979E+01	4.95272608157E+01	-5.87959023605E+00	-9.03700344565E-01
1.25422824758E+06	-1.48793875829E+01	1.74875392723E+02	1.67086290457E+01	1.71407989941E+02	-4.06056217645E+01	-4.71812281414E+01	-5.92845835325E+00	-5.67372003629E-01
1.27641960218E+06	-1.24067892718E+01	-1.68658727435E+02	1.66737725165E+01	1.71013520414E+02	-4.24179285195E+01	1.56825146309E+02	-5.83736010843E+00	-7.32645751161E-01
1.29861095677E+06	-1.15788823104E+01	-1.73640934471E+02	1.66799289522E+01	1.70812714030E+02	-5.21836674121E+01	9.61597442002E+01	-5.87916486088E+00	-6.87522245755E-01
1.32080231137E+06	-1.10007569266E+01	-1.44450614762E+02	1.67393702268E+01	1.70765239052E+02	-4.87569325358E+01	1.59586266774E+02	-5.89233709087E+00	-9.25219102005E-01
1.34299366596E+06	-1.38916910061E+01	-1.63634545668E+02	1.66923194384E+01	1.70535337025E+02	-4.77298802950E+01	3.06006333478E+01	-5.88329792549E+00	-8.61072622158E-01
1.36518502056E+06	-1.51433542453E+01	-1.68261582413E+02	1.67205009434E+01	1.70329887658E+02	-4.11412111257E+01	-1.24054523521E+02	-5.81581886967E+00	-5.57250454497E-01
1.38737637515E+06	-1.29685103291E+01	-1.65374943382E+02	1.67129062078E+01	1.70107497162E+02	-4.22969398464E+01	-6.44621786132E+01	-5.88981942072E+00	-5.83929683585E-01
1.40956772975E+06	-1.46796746295E+01	-1.71382034228E+02	1.67083748696E+01	1.70221526344E+02	-4.39878958324E+01	-1.73945719389E+02	-5.83968872889E+00	-5.86166320518E-01
1.43175908434E+06	-1.18223804726E+01	-1.72269298528E+02	1.66753557517E+01	1.69838661747E+02	-4.41965143873E+01	1.69352479070E+02	-5.81895815500E+00	-7.07001784564E-01
1.45395043894E+06	-1.29595046025E+01	-1.43308426968E+02	1.67302597094E+01	1.69686735821E+02	-5.01159147076E+01	-1.35830134407E+02	-5.84633011521E+00	-7.24860675792E-01
1.47614179353E+06	-1.40112712225E+01	-1.76772188964E+02	1.67120601792E+01	1.69507532079E+02	-5.21338485404E+01	-9.76990112199E+01	-5.88297981580E+00	-7.41450109273E-01
1.49833314813E+06	-1.26166730184E+01	-1.74750328167E+02	1.66741429359E+01	1.69164559370E+02	-4.24252557386E+01	-6.28187858578E+01	-5.88824036195E+00	-8.38638978769E-01
1.52052450272E+06	-1.19459335760E+01	-1.58323246168E+02	1.66921308998E+01	1.68869023280E+02	-4.99086302134E+01	1.34388427664E+02	-5.85683684708E+00	-9.83542731890E-01
1.54271585732E+06	-1.31073868677E+01	-1.49550758514E+02	1.67247717657E+01	1.68763127960E+02	-4.94636942293E+01	1.36894835352E+02	-5.85906412316E+00	-8.96924809105E-01
1.56490721191E+06	-1.27703503078E+01	1.79846905027E+02	1.66990267815E+01	1.68818040804E+02	-4.24595543874E+01	-9.33755845195E+00	-5.94691771549E+00	-9.59034043382E-01
1.58709856651E+06	-1.03402656349E+01	1.71821685198E+02	1.66535125464E+01	1.68581575204E+02	-4.38118933243E+01	1.48222578844E+02	-5.85147455058E+00	-8.99114796141E-01
1.60928992110E+06	-1.54778649461E+01	-1.70313885782E+02	1.66991174583E+01	1.68432461812E+02	-5.48369602360E+01	7.23476244668E+01	-5.88123033250E+00	-8.58479150910E-01
1.63148127570E+06	-1.25106403749E+01	1.71885048554E+02	1.66904573952E+01	1.68405597767E+02	-4.23871395672E+01	4.16529455615E+01	-5.88767423327E+00	-1.24072641173E+00
1.65367263029E+06	-1.28634513308E+01	-1.64641656908E+02	1.66664119550E+01	1.67866656006E+02	-6.64959115270E+01	-1.34572917962E+01	-5.87023974952E+00	-7.78117620611E-01
1.67586398489E+06	-1.23190880385E+01	-1.57568315408E+02	1.67023650707E+01	1.67596258690E+02	-4.50283398611E+01	1.50331536129E+02	-5.84475297861E+00	-1.22617256986E+00
1.69805533948E+06	-1.37190930925E+01	-1.69496848335E+02	1.66856352069E+01	1.67541422686E+02	-6.24281728580E+01	2.75473420181E+01	-5.89999985700E+00	-8.35990048080E-01
1.72024669408E+06	-1.28476544936E+01	-1.64654852454E+02	1.66758506948E+01	1.67455813977E+02	-4.98434408616E+01	1.25848423089E+02	-5.85937224403E+00	-9.57623889645E-01
1.74243804867E+06	-1.15375458835E+01	-1.54028353055E+02	1.66866273247E+01	1.67136917543E+02	-3.96620320516E+01	-1.21431545923E+02	-5.83720202447E+00	-5.90877808721E-01
1.76462940327E+06	-9.94354425420E+00	1.79063443679E+02	1.66433486364E+01	1.67198609737E+02	-4.91089198663E+01	1.59484604843E+02	-5.82783602825E+00	-1.08574766373E+00
1.78682075786E+06	-1.59165298434E+01	-1.71026751269E+02	1.66970254666E+01	1.67162743299E+02	-3.84017763299E+01	2.58396742354E+01	-5.93465396360E+00	-1.12661441347E+00
1.80901211246E+06	-1.18448741193E+01	1.74881993912E+02	1.66597967919E+01	1.66786759722E+02	-4.57010153840E+01	1.34920959391E+02	-5.83670681665E+00	-9.05684391972E-01
1.83120346705E+06	-1.03051807791E+01	-1.73929223598E+02	1.66444542680E+01	1.66419466281E+02	-5.36092539042E+01	3.49765180636E-01	-5.88324072730E+00	-1.26659418168E+00
1.85339482165E+06	-1.37172215541E+01	-1.75509803883E+02	1.66736379394E+01	1.66476138089E+02	-5.72829695634E+01	2.19347452417E+01	-5.89623732546E+00	-9.87481693477E-01
1.87558617624E+06	-1.15704168727E+01	-1.55607223197E+02	1.66738746634E+01	1.65999455711E+02	-4.20967670112E+01	-1.05130818982E+02	-5.88630961497E+00	-6.39136436917E-01
1.89777753084E+06	-1.51241386103E+01	-1.62705003548E+02	1.66970797648E+01	1.65959847718E+02	-4.76884468849E+01	-1.05652831147E+02	-5.88894508333E+00	-9.40134020643E-01
1.91996888543E+06	-1.01833349654E+01	-1.69258276552E+02	1.66343933206E+01	1.65702071779E+02	-4.52093743913E+01	1.17898340421E+02	-5.85065046404E+00	-1.09225730106E+00
1.94216024003E+06	-1.47023500158E+01	-1.78968104728E+02	1.67029664645E+01	1.65771029700E+02	-4.26980082407E+01	1.49529680498E+02	-5.83371197405E+00	-1.03308219405E+00
1.96435159462E+06	-1.65511857693E+01	1.78907056544E+02	1.67030810125E+01	1.65511640639E+02	-4.79791701464E+01	1.39010001889E+02	-5.90254062175E+00	-1.00605211623E+00
1.98654294922E+06	-1.41102840294E+01	-1.78928562876E+02	1.66840623993E+01	1.65289578185E+02	-4.25296855986E+01	2.58033311965E+01	-5.92394398516E+00	-1.18914465619E+00
2.00873430381E+06	-9.87476948399E+00	-1.77878254083E+02	1.66133611855E+01	1.64949216903E+02	-4.02872611740E+01	9.10705206204E+01	-5.85943457831E+00	-1.49676290593E+00
2.03092565841E+06	-1.20567867724E+01	1.77073159162E+02	1.66457256527E+01	1.65094830012E+02	-3.89939172339E+01	-4.84115790342E+01	-5.93044257521E+00	-7.66442690577E-01
2.05311701300E+06	-1.21433316303E+01	-1.58964067385E+02	1.66960043254E+01	1.64562939889E+02	-4.88067805577E+01	-3.63625761777E+01	-5.88288151677E+00	-1.18309486497E+00
2.07530836760E+06	-1.28381749271E+01	-1.66194081356E+02	1.66865442878E+01	1.64529458798E+02	-4.09484233191E+01	3.28762970416E+01	-5.90991393246E+00	-1.45817208755E+00
2.09749972219E+06	-9.85299525549E+00	-1.51940977187E+02	1.66455601386E+01	1.64047977298E+02	-3.93737368290E+01	1.70048026958E+02	-5.86668560361E+00	-1.19962400692E+00
2.11969107679E+06	-1.07265177611E+01	-1.51669949103E+02	1.66852711434E+01	1.63969729758E+02	-3.47786736175E+01	1.45066587683E+02	-5.80364985085E+00	-1.31882075614E+00
2.14188243138E+06	-1.38583818623E+01	-1.71699825779E+02	1.66781963954E+01	1.64176991873E+02	-4.38692323113E+01	1.63557676767E+02	-5.84126048836E+00	-1.14889154504E+00
2.16407378598E+06	-1.12837665866E+01	-1.52777972091E+02	1.66792576177E+01	1.63595027800E+02	-4.39836138828E+01	4.39900640216E+01	-5.90175403079E+00	-1.41886164534E+00
2.18626514057E+06	-1.54774413716E+01	-1.71522452022E+02	1.66875046526E+01	1.63577868067E+02	-5.87103920235E+01	-1.37765477008E+02	-5.85517877770E+00	-1.09172827349E+00
2.20845649517E+06	-1.38983515545E+01	-1.79276521662E+02	1.66502812954E+01	1.63569945860E+02	-4.99575009017E+01	3.04140996898E+01	-5.85237647607E+00	-1.21799256990E+00
2.23064784976E+06	-1.02171826006E+01	-1.68976557305E+02	1.66456225041E+01	1.63103807593E+02	-4.83815172403E+01	-3.07965312244E+01	-5.88150072538E+00	-1.22233934361E+00
2.25283920436E+06	-8.28654602266E+00	-1.65182772492E+02	1.66446980958E+01	1.62748156927E+02	-3.95374178106E+01	-5.24677418256E+01	-5.92375740613E+00	-1.15920686768E+00
2.27503055895E+06	-1.20448886104E+01	1.15463527570E+02	1.65962318645E+01	1.63187124277E+02	-4.12759260376E+01	9.20795456434E+01	-5.85176617321E+00	-1.27778320606E+00
2.29722191355E+06	-1.53360512905E+01	-1.61996501442E+02	1.66925349340E+01	1.62680385638E+02	-5.15907716493E+01	4.31235213707E+01	-5.86279673209E+00	-1.32634429932E+00
2.31941326814E+06	-1.29851033333E+01	-1.66952469707E+02	1.66588811084E+01	1.62435013354E+02	-4.76956223196E+01	1.62257647172E+02	-5.83705571694E+00	-1.16389842772E+00
2.34160462274E+06	-1.45138518448E+01	-1.61442857198E+02	1.66548450182E+01	1.62373371371E+02	-5.06633143914E+01	1.33108925528E+02	-5.86836800846E+00	-1.20006173072E+00
2.36379597733E+06	-1.29700183554E+01	-1.54815678253E+02	1.66719402814E+01	1.62048979186E+02	-4.27315752005E+01	3.01344183294E+01	-5.89451791555E+00	-1.35538532815E+00
2.38598733193E+06	-1.62347400717E+01	-1.46066397600E+02	1.67104618317E+01	1.62006596035E+02	-5.07318559014E+01	-1.62090258527E+02	-5.86402356609E+00	-1.24588000897E+00
2.40817868652E+06	-1.40603124206E+01	-1.79986967949E+02	1.66404266855E+01	1.61945797529E+02	-3.67579882913E+01	-1.48098365785E+02	-5.86144528812E+00	-9.07506356199E-01
2.43037004112E+06	-1.05938784849E+01	-1.51263612442E+02	1.66910087714E+01	1.61619139831E+02	-3.48483913818E+01	-2.23624891013E+01	-5.93294896223E+00	-1.70631627106E+00
2.45256139571E+06	-1.39516143115E+01	-1.60663040005E+02	1.66768076845E+01	1.61524465716E+02	-4.49064723544E+01	7.71661651503E+01	-5.86096945620E+00	-1.57158691799E+00
2.47475275031E+06	-1.55203610599E+01	1.76953237190E+02	1.66673061713E+01	1.61721799475E+02	-4.37109659288E+01	8.31084801167E+01	-5.89006609990E+00	-1.49887517770E+00
2.49694410490E+06	-1.30444184514E+01	-1.74090745680E+02	1.66542061087E+01	1.61262783891E+02	-5.47981657271E+01	1.26129155386E+02	-5.86772588659E+00	-1.25225323731E+00
2.51913545950E+06	-1.40462848172E+01	-1.75005443669E+02	1.66467983550E+01	1.60991680278E+02	-5.21043250327E+01	-8.15009915107E+01	-5.90140323503E+00	-1.25440398820E+00
2.54132681409E+06	-1.43810980028E+01	-1.55224697867E+02	1.66960549618E+01	1.60743559623E+02	-5.50787501510E+01	-3.76384854278E+01	-5.89028637194E+00	-1.34719142638E+00
2.56351816869E+06	-1.13838067257E+01	-1.61843141284E+02	1.66784910979E+01	1.60537304828E+02	-3.83063489634E+01	3.64797828572E+01	-5.91329594610E+00	-1.56644360637E+00
2.58570952328E+06	-9.77597580766E+00	-1.73045235135E+02	1.66351825811E+01	1.60332621784E+02	-3.25825768092E+01	5.53019702979E+01	-5.83788676508E+00	-1.84904098947E+00
2.60790087788E+06	-1.13726021375E+01	-1.74967309944E+02	1.66180689365E+01	1.60334312355E+02	-4.94552905031E+01	3.43534602020E+01	-5.89489553161E+00	-1.50302645978E+00
2.63009223247E+06	-1.21313201574E+01	-1.77368516294E+02	1.66417086909E+01	1.60121267571E+02	-3.98080505568E+01	-1.36552520972E+02	-5.84721611443E+00	-6.87867623207E-01
2.65228358707E+06	-1.35707905682E+01	-1.59192187440E+02	1.66742288474E+01	1.59854859998E+02	-4.54294285357E+01	7.79593646036E+00	-5.90181969163E+00	-1.47902240853E+00
2.67447494166E+06	-1.16158105170E+01	-1.58449402569E+02	1.66761983703E+01	1.59515083945E+02	-3.85611355328E+01	-7.06428491562E+01	-5.95041193305E+00	-1.15803850697E+00
2.69666629626E+06	-1.30101844154E+01	-1.68899741375E+02	1.66693757261E+01	1.59413944730E+02	-5.02260685738E+01	-8.59606169916E+01	-5.87949967862E+00	-1.25170006731E+00
2.71885765085E+06	-1.28921970227E+01	-1.62276142220E+02	1.66693712586E+01	1.59280314324E+02	-4.48364422077E+01	1.39083551431E+02	-5.87547865765E+00	-1.37730905944E+00
2.74104900545E+06	-1.63671474579E+01	1.79162371636E+02	1.66661716745E+01	1.59320069760E+02	-4.24449638854E+01	9.79562646064E+01	-5.84375927799E+00	-1.39334452239E+00
2.76324036004E+06	-1.21985363322E+01	-1.56659069238E+02	1.66682711117E+01	1.58806503990E+02	-4.13610198508E+01	-3.95716337775E+01	-5.92914811182E+00	-1.48192668573E+00
2.78543171463E+06	-1.12906120479E+01	-1.61656856427E+02	1.66428225484E+01	1.58529995487E+02	-4.41123773842E+01	-9.49475989252E+01	-5.88735951853E+00	-1.23558897541E+00
2.80762306923E+06	-1.26385007051E+01	-1.60967306996E+02	1.66593177197E+01	1.58669567326E+02	-4.36168608624E+01	-1.67022687100E+02	-5.83337425562E+00	-1.36225110617E+00
2.82981442382E+06	-1.14567368388E+01	-1.75261773352E+02	1.66386954662E+01	1.58431001105E+02	-4.75729217940E+01	1.12502579666E+02	-5.87158270743E+00	-1.66200564321E+00
2.85200577842E+06	-1.27546437200E+01	-1.72154363001E+02	1.66762306134E+01	1.58275259348E+02	-5.07178296361E+01	-6.32475029231E+01	-5.90381278760E+00	-1.30438875812E+00
2.87419713301E+06	-1.39346024013E+01	-1.67405903664E+02	1.66430785703E+01	1.58040499988E+02	-5.40375167275E+01	-3.21886363485E+01	-5.88371190206E+00	-1.49341848584E+00
