# Hz S DB R 50
! CMT, M5065, 19127446, 24.2.4/2
! Date: 11/8/2024 5:10:27 PM
! Data: Format (Calibration Info)
! Freq	S11:dB/Ang(F2)	S21:dB/Ang(F2)	S12:dB/Ang(F2)	S22:dB/Ang(F2)
3.00000000000E+05	-1.52030916803E+01	-1.63839882798E+02	9.73609910504E+00	-1.77408931515E+02	-4.53837903439E+01	1.29342616526E+02	-5.85935069179E+00	-4.66008568262E-01
3.22191354595E+05	-1.56558590482E+01	1.75338535136E+02	9.74656217192E+00	-1.77719998390E+02	-4.31830548124E+01	-2.59845105125E+01	-5.88423230097E+00	-3.70528308204E-01
3.44382709190E+05	-1.71677793903E+01	-1.62293611090E+02	9.75762128292E+00	-1.78216002612E+02	-4.12547167368E+01	-7.00493448907E+01	-5.85938263951E+00	-2.36844532817E-01
3.66574063785E+05	-1.76281208043E+01	-1.69581831251E+02	9.79383484747E+00	-1.78831838930E+02	-4.57087333196E+01	-1.31771778692E+02	-5.87458968930E+00	-2.03772007414E-01
3.88765418380E+05	-1.31653607720E+01	-1.68941342094E+02	1.01025365526E+01	-1.78760720537E+02	-4.95699887102E+01	1.22590884586E+02	-5.88695730386E+00	-7.00122663335E-01
4.10956772975E+05	-1.28839092281E+01	1.51861560514E+02	9.77700418381E+00	-1.78836098206E+02	-4.54160865112E+01	2.51643196336E+01	-5.88750663765E+00	-4.35069690799E-01
4.33148127570E+05	-1.41520011592E+01	-1.72863477632E+02	9.75228937557E+00	-1.79542416142E+02	-4.85349567960E+01	-1.04591519304E+02	-5.89645059065E+00	-2.50741999883E-01
4.55339482165E+05	-1.24945650003E+01	-1.62236243357E+02	9.78063253815E+00	-1.79736601456E+02	-4.43126251364E+01	-2.86095416036E+01	-5.88192896710E+00	-2.30180736986E-01
4.77530836760E+05	-1.16847357630E+01	-1.57792414341E+02	9.78031163646E+00	-1.79912457335E+02	-4.02262648829E+01	-1.70260079418E+02	-5.83047573602E+00	-2.36390710524E-01
4.99722191355E+05	-1.29814667726E+01	-1.74571814443E+02	9.75587697643E+00	1.79670828307E+02	-4.32467448492E+01	-3.64306060852E+01	-5.89481573934E+00	-3.78841870423E-01
5.21913545950E+05	-1.27119351901E+01	-1.65293491477E+02	9.77713378301E+00	1.79628830884E+02	-4.19511587149E+01	-5.95634822676E+01	-5.87053241752E+00	-2.11965278016E-01
5.44104900545E+05	-1.44533702998E+01	1.78301819853E+02	9.74967958540E+00	1.79659934157E+02	-4.26526159968E+01	-9.78015464443E+01	-5.87077357868E+00	-1.81255322329E-01
5.66296255139E+05	-1.42904126011E+01	-1.54670044121E+02	9.78948791109E+00	1.79130375179E+02	-4.69287299488E+01	-9.23441176336E+01	-5.85506678941E+00	-2.11694311638E-01
5.88487609734E+05	-1.04601132244E+01	-1.69502887456E+02	9.76148335907E+00	1.78913817903E+02	-4.59434876261E+01	1.27877318533E+02	-5.87105354882E+00	-4.80555538575E-01
6.10678964329E+05	-1.33415926544E+01	-1.71217831858E+02	9.77679433500E+00	1.78921966142E+02	-4.74514860123E+01	-1.73577837032E+02	-5.86413720019E+00	2.83940790383E-01
6.32870318924E+05	-1.65892905911E+01	1.70672624055E+02	9.79008187290E+00	1.78834657498E+02	-5.81927111751E+01	3.85053559150E+01	-5.84685614152E+00	-2.73561818045E-01
6.55061673519E+05	-1.09512232019E+01	-1.68132498947E+02	9.76544115781E+00	1.78674404747E+02	-5.39936810045E+01	1.45457894938E+02	-5.86901063595E+00	-3.80434298624E-01
6.77253028114E+05	-1.35301814123E+01	-1.78142289210E+02	9.77170845882E+00	1.78475811940E+02	-4.59073499584E+01	8.67020982303E+01	-5.88705673409E+00	-6.78758251771E-01
6.99444382709E+05	-1.40706046329E+01	-1.77281445541E+02	9.77219406309E+00	1.78087920815E+02	-3.90306991696E+01	1.44706002411E+02	-5.86689700661E+00	-5.41942228273E-01
7.21635737304E+05	-1.24456484732E+01	-1.75097311801E+02	9.75998049890E+00	1.78080948456E+02	-3.33785008107E+01	1.28110377078E+02	-5.86539225709E+00	-6.92890171641E-01
7.43827091899E+05	-1.30627845480E+01	-1.64417617892E+02	9.76947235694E+00	1.77603059549E+02	-4.97423169226E+01	1.49696979127E+02	-5.84489687541E+00	-3.36895576697E-01
7.66018446494E+05	-1.15976760345E+01	1.76358055314E+02	9.74744912689E+00	1.77669806696E+02	-3.63162612294E+01	-1.52007270538E+02	-5.83889271917E+00	-3.22037470517E-01
7.88209801089E+05	-1.04065912560E+01	-1.71108376400E+02	9.75038885500E+00	1.77533462716E+02	-6.24158601964E+01	-1.35602308233E+02	-5.84659331180E+00	-3.70861978786E-01
8.10401155684E+05	-1.41647358798E+01	1.77540001499E+02	9.76734957524E+00	1.77534717184E+02	-4.65056814519E+01	-5.42313712023E+01	-5.88861093461E+00	-4.92370801091E-01
8.32592510279E+05	-1.11968037092E+01	-1.73045612345E+02	9.77367023637E+00	1.77216411799E+02	-4.87470121951E+01	1.25143318438E+02	-5.86031433974E+00	-6.27989049026E-01
8.54783864874E+05	-1.50132701416E+01	-1.73300189318E+02	9.77854434280E+00	1.77198899231E+02	-5.31444302358E+01	6.56801356535E+01	-5.88743030869E+00	-6.66984468798E-01
8.76975219469E+05	-1.22692431242E+01	1.62366546863E+02	9.76651985297E+00	1.77132278883E+02	-4.84093484378E+01	1.01614112807E+00	-5.86684165352E+00	-4.11339535406E-01
8.99166574064E+05	-1.55844340816E+01	-1.70920912396E+02	9.75864598274E+00	1.76767445160E+02	-4.49321272366E+01	6.20526284624E+01	-5.88029993145E+00	-5.52190802909E-01
9.21357928659E+05	-1.34171211577E+01	-1.70402962869E+02	9.79217591171E+00	1.76982862539E+02	-5.07255760322E+01	1.01290473302E+01	-5.89273887661E+00	-4.61662016695E-01
9.43549283254E+05	-1.59083981616E+01	-1.56518452459E+02	9.78655559156E+00	1.76615218056E+02	-4.79610856547E+01	8.26087193255E+01	-5.88791511495E+00	-5.99381068479E-01
9.65740637849E+05	-1.28013139115E+01	-1.70317915308E+02	9.77192499610E+00	1.76220458859E+02	-5.42872072104E+01	9.34991100115E+01	-5.86489230493E+00	-4.65904062687E-01
9.87931992444E+05	-1.23278444138E+01	1.79146507445E+02	9.74555867129E+00	1.76347794325E+02	-4.40427094803E+01	1.10771075247E+02	-5.87581737380E+00	-6.71652042966E-01
1.01012334704E+06	-9.61395324595E+00	-1.63043756805E+02	9.74890773580E+00	1.75950302203E+02	-5.77568989550E+01	2.69307097242E+01	-5.85386330922E+00	-7.39867645530E-01
1.03231470163E+06	-1.32181809539E+01	-1.69883643353E+02	9.77378995390E+00	1.76154170533E+02	-4.24584882854E+01	1.54311505962E+01	-5.89197116797E+00	-6.47799515199E-01
1.05450605623E+06	-1.41437252032E+01	-1.61764779239E+02	9.78663649958E+00	1.75796106479E+02	-4.62900858417E+01	-1.30954939892E+02	-5.87039300569E+00	-6.35684233540E-01
1.07669741082E+06	-1.72826451786E+01	-1.76528187835E+02	9.77973469742E+00	1.75856058031E+02	-4.62575345872E+01	-7.54643408789E-01	-5.90811442644E+00	-6.39961871696E-01
1.09888876542E+06	-1.34493785670E+01	-1.47803528059E+02	9.82321414508E+00	1.75507126437E+02	-3.77805271430E+01	-1.65075342164E+02	-5.87446831287E+00	-4.11985956920E-01
1.12108012001E+06	-1.35105386270E+01	1.78743087170E+02	9.78131673343E+00	1.75634969563E+02	-4.20775796742E+01	-1.08029405370E+02	-5.88131218147E+00	-3.90683059212E-01
1.14327147461E+06	-1.36242469061E+01	-1.71367075120E+02	9.77982921062E+00	1.75390244702E+02	-4.42670972158E+01	1.51039421191E+02	-5.85724668383E+00	-6.81726148465E-01
1.16546282920E+06	-1.59677333259E+01	1.72888308755E+02	9.81446225343E+00	1.75447767681E+02	-4.17192367381E+01	1.03313531679E+02	-5.86474384875E+00	-6.92593263970E-01
1.18765418380E+06	-1.26557116348E+01	-1.67783652935E+02	9.81437699726E+00	1.75001415160E+02	-4.03854203627E+01	7.98995079609E+01	-5.87402298726E+00	-8.67528974132E-01
1.20984553839E+06	-1.14624311386E+01	-1.74006418416E+02	9.76991655103E+00	1.75106661410E+02	-4.94045024536E+01	1.51924316710E+02	-5.86609752089E+00	-7.74469901612E-01
1.23203689299E+06	-1.60793937519E+01	-1.69220692388E+02	9.78549243514E+00	1.75014328093E+02	-5.38818885929E+01	-1.25854412725E+02	-5.88143458204E+00	-3.86398505978E-01
1.25422824758E+06	-1.45481616865E+01	-1.70204072011E+02	9.78664665997E+00	1.74784162591E+02	-4.33633775221E+01	-1.59717623963E+02	-5.86061039604E+00	-6.94250256533E-01
1.27641960218E+06	-1.67585552523E+01	-1.74601772654E+02	9.79307330112E+00	1.74440314628E+02	-4.28581853018E+01	3.25247628811E+01	-5.88433744182E+00	-7.43586880151E-01
1.29861095677E+06	-1.63457839449E+01	1.70886921809E+02	9.78194386001E+00	1.74766230430E+02	-4.08193026744E+01	-1.72662066964E+02	-5.86074536683E+00	-6.39786619491E-01
1.32080231137E+06	-1.05977723606E+01	-1.60424340814E+02	9.75009114186E+00	1.74298798649E+02	-4.70056468877E+01	-1.39189831907E+02	-5.86397958010E+00	-1.04059013946E+00
1.34299366596E+06	-1.32837698598E+01	1.71911692193E+02	9.77785660421E+00	1.74537493758E+02	-4.65630811024E+01	-1.13805218243E+02	-5.89277543964E+00	-7.80031547612E-01
1.36518502056E+06	-1.15853898274E+01	-1.57107098346E+02	9.81829483243E+00	1.74068368723E+02	-5.17815583428E+01	-1.54292359627E+02	-5.88615443432E+00	-7.15846538660E-01
1.38737637515E+06	-1.28314111584E+01	1.72719973470E+02	9.76979286639E+00	1.74132576685E+02	-4.84877395522E+01	1.73461155269E+02	-5.87068321984E+00	-7.56649184928E-01
1.40956772975E+06	-9.89359326257E+00	1.75940322573E+02	9.75449102682E+00	1.73973833540E+02	-4.35716493486E+01	-1.71211564356E+02	-5.85318076714E+00	-6.81364836215E-01
1.43175908434E+06	-1.57347065461E+01	-1.31029227132E+02	9.81570188131E+00	1.73937187256E+02	-4.87593186621E+01	-1.08995174626E+02	-5.86023303225E+00	-6.14766008489E-01
1.45395043894E+06	-1.34693944187E+01	-1.79279351941E+02	9.77487574395E+00	1.73765601492E+02	-5.50261990862E+01	-1.49205517501E+02	-5.87041556658E+00	-7.63797457936E-01
1.47614179353E+06	-1.52531899277E+01	1.54084117153E+02	9.79691161176E+00	1.73911251489E+02	-4.94500710685E+01	-2.62972808340E+01	-5.90125714551E+00	-7.64956935533E-01
1.49833314813E+06	-1.57991376188E+01	1.68407306421E+02	9.80192927749E+00	1.73783601398E+02	-4.09702519223E+01	8.02263820756E+01	-5.87414018920E+00	-9.43395111957E-01
1.52052450272E+06	-1.18097179419E+01	-1.70993929455E+02	9.78041670610E+00	1.73171720461E+02	-5.84896343709E+01	4.63967267378E+01	-5.88677433484E+00	-6.87626630614E-01
1.54271585732E+06	-1.47857422132E+01	-1.65273971983E+02	9.78350595872E+00	1.73616095019E+02	-4.30588570164E+01	3.28026634218E+01	-5.87541172013E+00	-1.05206481606E+00
1.56490721191E+06	-9.15569933388E+00	-1.53478714110E+02	9.78080884059E+00	1.72945133628E+02	-5.50819585751E+01	-3.14858781247E+01	-5.88180442087E+00	-8.35684848100E-01
1.58709856651E+06	-1.17976254621E+01	-1.66043960645E+02	9.79249323453E+00	1.72924841571E+02	-4.80679186209E+01	6.83499560792E+00	-5.86464986557E+00	-9.29366733016E-01
1.60928992110E+06	-1.56009957613E+01	-1.65130604557E+02	9.79879448108E+00	1.72813255230E+02	-5.98040455061E+01	-2.82465395949E+01	-5.86557420513E+00	-9.06475126384E-01
1.63148127570E+06	-1.41763710675E+01	-1.50558391162E+02	9.83648538049E+00	1.72422924870E+02	-4.31082899537E+01	-2.06001044268E+01	-5.87492876318E+00	-9.04194833452E-01
1.65367263029E+06	-1.81210073842E+01	-1.37991157294E+02	9.83143118096E+00	1.72672401220E+02	-4.20202515977E+01	6.81066499917E+01	-5.87081843122E+00	-8.77278777755E-01
1.67586398489E+06	-1.29570197948E+01	-1.71122515272E+02	9.80497702457E+00	1.72673449615E+02	-5.15510845786E+01	1.36859911387E+02	-5.84879854550E+00	-8.78110693520E-01
1.69805533948E+06	-1.18222059863E+01	-1.58848301613E+02	9.80404693792E+00	1.72170517837E+02	-4.66851893094E+01	-6.77702937000E+01	-5.86652600549E+00	-8.99099087462E-01
1.72024669408E+06	-1.81020853008E+01	-1.56126786976E+02	9.82377937248E+00	1.72507964271E+02	-4.60753556430E+01	3.65595593542E+01	-5.87711067347E+00	-9.92178933798E-01
1.74243804867E+06	-1.17612644516E+01	1.55172182889E+02	9.75082800172E+00	1.72262046169E+02	-4.05072728204E+01	1.37844785334E+02	-5.84744153072E+00	-1.02449292588E+00
1.76462940327E+06	-1.57915011689E+01	1.72229164667E+02	9.79695950603E+00	1.72228941108E+02	-4.63747437861E+01	1.57348613839E+02	-5.83961649042E+00	-9.61831197183E-01
1.78682075786E+06	-1.50934846480E+01	-1.69308102905E+02	9.78957541545E+00	1.71969108385E+02	-4.45888135213E+01	3.02223108002E+01	-5.86838214275E+00	-8.85143774148E-01
1.80901211246E+06	-1.41277750200E+01	1.72103910603E+02	9.79576520581E+00	1.72014765636E+02	-3.49531445370E+01	1.39908337971E+02	-5.82579087546E+00	-6.76118294119E-01
1.83120346705E+06	-1.32293671911E+01	-1.72490520585E+02	9.77866480225E+00	1.71664443524E+02	-5.07428409988E+01	8.85930551372E+01	-5.89110521119E+00	-1.12441149544E+00
1.85339482165E+06	-1.42690094674E+01	-1.54025151633E+02	9.81111362470E+00	1.71478596670E+02	-4.20351478755E+01	2.74893719668E+01	-5.89226955819E+00	-1.06693909147E+00
1.87558617624E+06	-1.31953263849E+01	-1.57089949013E+02	9.80959004067E+00	1.71405326426E+02	-5.45759603747E+01	-2.69232337995E+01	-5.88332757141E+00	-8.78027773289E-01
1.89777753084E+06	-1.02501353246E+01	-1.37191021123E+02	9.81789569939E+00	1.71034942967E+02	-4.24687008155E+01	1.29975495865E+02	-5.87065557750E+00	-1.03990257307E+00
1.91996888543E+06	-1.81343848372E+01	-1.60337803524E+02	9.82189617654E+00	1.71405711652E+02	-4.65431128213E+01	9.07614566155E+01	-5.86725483826E+00	-1.05392398087E+00
1.94216024003E+06	-1.50514911396E+01	-1.66506067189E+02	9.81210194034E+00	1.71261494028E+02	-4.67851372715E+01	-1.24069821170E+02	-5.87058622810E+00	-1.01138177433E+00
1.96435159462E+06	-1.17820312192E+01	-1.47593990559E+02	9.84354261935E+00	1.70916220186E+02	-3.36494688999E+01	-7.36534160850E+01	-5.89835487944E+00	-1.05679793271E+00
1.98654294922E+06	-1.38455580033E+01	-1.55861121717E+02	9.82139209927E+00	1.70891474418E+02	-4.26189336462E+01	-7.93693705333E+01	-5.89704485976E+00	-8.95010279853E-01
2.00873430381E+06	-1.40573498892E+01	-1.70281325627E+02	9.83179924896E+00	1.70786815599E+02	-4.19323797159E+01	8.61498791475E+01	-5.85750801080E+00	-1.13128920964E+00
2.03092565841E+06	-1.04792023358E+01	-1.79841286232E+02	9.77298751481E+00	1.70522129950E+02	-4.53657143704E+01	-1.52557908064E+02	-5.86713748608E+00	-9.51214890537E-01
2.05311701300E+06	-1.95431821002E+01	-1.40792713541E+02	9.81928294744E+00	1.70783972521E+02	-4.40447460143E+01	-4.31661996312E+01	-5.90320558587E+00	-9.43667134061E-01
2.07530836760E+06	-1.27383480913E+01	-1.71869709237E+02	9.79394521399E+00	1.70525280479E+02	-4.71656043827E+01	-4.04173087369E+01	-5.88154041653E+00	-1.06773241868E+00
2.09749972219E+06	-1.24725428517E+01	-1.68431052028E+02	9.78135478160E+00	1.70265415273E+02	-4.70980544696E+01	1.08976216233E+02	-5.86469209894E+00	-9.36983458619E-01
2.11969107679E+06	-1.37403933409E+01	-1.64918111509E+02	9.79992234760E+00	1.70151694029E+02	-4.56575063507E+01	-9.12922984928E+01	-5.87421986504E+00	-1.07878667611E+00
2.14188243138E+06	-1.27041079314E+01	-1.55334610370E+02	9.80296254240E+00	1.69961647258E+02	-4.95173876585E+01	1.77716693153E+02	-5.87370437968E+00	-1.17123088154E+00
2.16407378598E+06	-1.37570187482E+01	-1.73139840122E+02	9.80511559179E+00	1.70127115348E+02	-3.97838620040E+01	-7.02138937463E+00	-5.90461072957E+00	-1.02420623605E+00
2.18626514057E+06	-1.25893128390E+01	-1.65264552304E+02	9.81603876750E+00	1.69730265088E+02	-4.21006689494E+01	-2.68052754481E+01	-5.88985572994E+00	-1.08190927538E+00
2.20845649517E+06	-1.35782715795E+01	-1.70962168825E+02	9.83040158628E+00	1.69824774788E+02	-5.52386956980E+01	-1.08837255545E+02	-5.87538725627E+00	-1.00903658202E+00
2.23064784976E+06	-1.61055223772E+01	1.77644595306E+02	9.82581620393E+00	1.69868490798E+02	-4.11847259874E+01	5.19295638778E+01	-5.89078082259E+00	-1.33981377674E+00
2.25283920436E+06	-1.08475336128E+01	-1.65854931846E+02	9.80719652865E+00	1.69489997412E+02	-4.15737520363E+01	-7.33812466903E+01	-5.87855880554E+00	-1.18927105893E+00
2.27503055895E+06	-1.15782443675E+01	-1.46959718545E+02	9.81940913924E+00	1.69192724176E+02	-4.06351813776E+01	1.28074307214E+02	-5.84939820062E+00	-1.01351400879E+00
2.29722191355E+06	-1.46667732896E+01	-1.64924808908E+02	9.83766270265E+00	1.69379555682E+02	-3.94089880939E+01	-1.20229291857E+02	-5.87593136067E+00	-7.88964501731E-01
2.31941326814E+06	-1.68800917275E+01	-1.55570902376E+02	9.84351492291E+00	1.69420442610E+02	-4.11254565756E+01	-1.22863590229E+02	-5.88473953866E+00	-1.22506870561E+00
2.34160462274E+06	-1.33403078583E+01	1.79501566662E+02	9.80753651439E+00	1.69188301105E+02	-5.14139617417E+01	-1.79607753665E+02	-5.87494870132E+00	-1.33589596075E+00
2.36379597733E+06	-1.31188252570E+01	-1.08725936760E+02	9.88063609262E+00	1.69262485990E+02	-5.16175284415E+01	5.16307261097E+00	-5.87690007116E+00	-1.19408552062E+00
2.38598733193E+06	-1.01121373286E+01	-1.66858375123E+02	9.78677739654E+00	1.68860376984E+02	-4.86354703180E+01	-1.51774229059E+02	-5.85151558914E+00	-1.27340341496E+00
2.40817868652E+06	-1.43354719201E+01	-1.78938473921E+02	9.80394971042E+00	1.68871607828E+02	-4.96530828223E+01	-1.52135142714E+01	-5.87258224706E+00	-1.29213076145E+00
2.43037004112E+06	-1.14875916411E+01	-1.74326252386E+02	9.83112509442E+00	1.68564229496E+02	-5.21048314205E+01	2.08468793606E+01	-5.86504127314E+00	-1.75015679083E+00
2.45256139571E+06	-1.39559474007E+01	-1.66844415877E+02	9.81858883131E+00	1.68493895343E+02	-4.02830648949E+01	7.59064384768E+00	-5.89283556829E+00	-1.50063402948E+00
2.47475275031E+06	-1.36154995604E+01	-1.59450219772E+02	9.84655431341E+00	1.68343012097E+02	-4.36413065438E+01	7.02076546836E+01	-5.88907545944E+00	-1.26363927675E+00
2.49694410490E+06	-1.29351491745E+01	-1.78357591630E+02	9.79271455693E+00	1.68270265106E+02	-4.22073181910E+01	1.01456362580E+02	-5.88161036313E+00	-1.48522566199E+00
2.51913545950E+06	-1.38749843307E+01	-1.46149811847E+02	9.83418049337E+00	1.68313263490E+02	-4.94857451270E+01	1.31377515813E+02	-5.86265888698E+00	-1.30164677736E+00
2.54132681409E+06	-1.30498622352E+01	-1.58336030209E+02	9.84624162322E+00	1.68087396590E+02	-4.86913656828E+01	1.60167691110E+02	-5.87803800948E+00	-1.30495221960E+00
2.56351816869E+06	-1.25290815585E+01	-1.62843083466E+02	9.81824534117E+00	1.68030348012E+02	-4.46559910417E+01	1.78517153950E+02	-5.87786948510E+00	-1.34664419783E+00
2.58570952328E+06	-1.24075175348E+01	-1.66823248539E+02	9.80176638207E+00	1.67941993694E+02	-4.74660151010E+01	-2.80172883201E+01	-5.91143153434E+00	-1.21633707363E+00
2.60790087788E+06	-1.21534621274E+01	-1.68420205864E+02	9.82632579367E+00	1.67713185885E+02	-3.86562444700E+01	1.78059165877E+02	-5.83983499229E+00	-1.01729259404E+00
2.63009223247E+06	-1.12692194906E+01	-1.71604229286E+02	9.78284172689E+00	1.67548223455E+02	-4.28030069042E+01	1.52245486843E+02	-5.85101142392E+00	-9.71083899215E-01
2.65228358707E+06	-1.18925815656E+01	-1.62508346285E+02	9.80330591467E+00	1.67552132883E+02	-4.07452900308E+01	2.33493941892E+01	-5.89765067640E+00	-1.71363845806E+00
2.67447494166E+06	-1.17023434984E+01	-1.77309742090E+02	9.83565195231E+00	1.67826537238E+02	-4.42651344256E+01	1.03596764589E+02	-5.87531646804E+00	-1.43655937086E+00
2.69666629626E+06	-1.20037488674E+01	-1.67250239389E+02	9.83501691101E+00	1.67195462048E+02	-5.00630195690E+01	-3.58571278895E+01	-5.89134407661E+00	-1.32894306775E+00
2.71885765085E+06	-1.16704409932E+01	-1.47173108906E+02	9.81381396416E+00	1.67040666001E+02	-4.81175169055E+01	4.42371406077E+00	-5.88725362717E+00	-1.51418316567E+00
2.74104900545E+06	-1.45392174792E+01	-1.65530766753E+02	9.82421952185E+00	1.67114572476E+02	-3.66068880076E+01	8.85786522980E+00	-5.90284165043E+00	-1.57903610548E+00
2.76324036004E+06	-1.15128725811E+01	-1.50768065310E+02	9.84645906884E+00	1.66732588330E+02	-3.99091114021E+01	4.17025730627E+00	-5.89269326360E+00	-1.37105740656E+00
2.78543171463E+06	-1.54191476051E+01	-1.51394662947E+02	9.82610943775E+00	1.66846573128E+02	-5.06423784187E+01	-1.62049645004E+02	-5.87863728594E+00	-1.43989040757E+00
2.80762306923E+06	-1.24550022452E+01	-1.58468512882E+02	9.80530127101E+00	1.66719153356E+02	-4.65411810694E+01	1.43140526851E+01	-5.89765970543E+00	-1.49024164823E+00
2.82981442382E+06	-1.15812171504E+01	-1.62893585364E+02	9.84054219013E+00	1.66685456948E+02	-5.81888078675E+01	6.72325492919E+00	-5.87431405727E+00	-1.48420301384E+00
2.85200577842E+06	-1.66681698924E+01	-1.71549950167E+02	9.81501974116E+00	1.66933481580E+02	-4.26911405578E+01	7.77359797550E+01	-5.87787250537E+00	-1.54566516382E+00
2.87419713301E+06	-1.03902262269E+01	-1.58224074750E+02	9.81816413146E+00	1.66170970607E+02	-3.93613542229E+01	-9.57823076771E+01	-5.88036702622E+00	-1.32159461057E+00
