# Hz S DB R 50
! CMT, M5065, 19127446, 24.2.4/2
! Date: 11/8/2024 5:19:21 PM
! Data: Format (Calibration Info)
! Freq	S11:dB/Ang(F2)	S21:dB/Ang(F2)	S12:dB/Ang(F2)	S22:dB/Ang(F2)
3.00000000000E+05	-1.31655673165E+01	-1.79234089171E+02	1.50650948571E+01	-1.76976575755E+02	-4.41942063367E+01	5.72976962967E+01	-5.87320933866E+00	-6.08582970485E-01
3.22191354595E+05	-1.38163070066E+01	-1.66822677467E+02	1.50805388563E+01	-1.77460291574E+02	-4.76713575485E+01	-1.35607252716E+02	-5.86177689717E+00	-2.16792314838E-01
3.44382709190E+05	-1.26146784495E+01	1.79575146886E+02	1.50768421539E+01	-1.77939158203E+02	-3.75788638211E+01	-3.69183569099E+01	-5.88335975235E+00	-4.40105938774E-01
3.66574063785E+05	-1.03584821361E+01	-1.58882470107E+02	1.50656796444E+01	-1.78762644576E+02	-4.71758278328E+01	-1.02846445933E+02	-5.85434613186E+00	-6.12058476992E-02
3.88765418380E+05	-1.30585918034E+01	-1.69068742211E+02	1.51157556608E+01	-1.78933155790E+02	-4.73427210605E+01	5.63640598606E+01	-6.12559950455E+00	1.09648483118E+00
4.10956772975E+05	-1.70688960939E+01	-1.77137042778E+02	1.51373086874E+01	-1.79020366389E+02	-3.91253196727E+01	1.65965861885E+02	-5.80932576414E+00	-3.83218379997E-01
4.33148127570E+05	-1.45233245115E+01	-1.68806832802E+02	1.51286656212E+01	-1.79545265724E+02	-4.42795197911E+01	-1.77036289112E+02	-5.85595200751E+00	-3.58867011025E-01
4.55339482165E+05	-1.36374995786E+01	1.61605976002E+02	1.51075461784E+01	-1.79750079263E+02	-3.95855845708E+01	1.67529660459E+02	-5.81021177164E+00	-3.07647598556E-01
4.77530836760E+05	-1.34591579545E+01	-1.63337568543E+02	1.51034383269E+01	1.79632056362E+02	-4.41060981347E+01	1.33832474887E+02	-5.84505003528E+00	-4.69619403945E-01
4.99722191355E+05	-1.38577437536E+01	-1.78353676806E+02	1.50835383462E+01	1.79516265747E+02	-4.83520891723E+01	6.80335272380E+01	-5.86370021722E+00	-3.14059015504E-01
5.21913545950E+05	-1.48793426665E+01	-1.77692829082E+02	1.51064843758E+01	1.79061097300E+02	-4.96635628424E+01	-8.70889008918E+01	-5.86339415322E+00	-2.07695906933E-01
5.44104900545E+05	-1.44677896348E+01	-1.75208239882E+02	1.51250173791E+01	1.78993120164E+02	-4.65070210123E+01	1.14814540516E+01	-5.91556537498E+00	-4.77399151009E-01
5.66296255139E+05	-1.33297656956E+01	-1.71795245453E+02	1.51172810638E+01	1.78793618805E+02	-5.52796427174E+01	1.15087316613E+02	-5.87181993190E+00	-4.53721533877E-01
5.88487609734E+05	-1.24452583131E+01	-1.73888890933E+02	1.50828502783E+01	1.78443976287E+02	-5.08117777826E+01	-1.14357556762E+02	-5.85438413364E+00	-2.57157161060E-01
6.10678964329E+05	-1.40686489556E+01	-1.57266563282E+02	1.51267586937E+01	1.77972139999E+02	-4.53046445965E+01	-1.13021871017E+02	-5.84939313421E+00	2.45454342832E-01
6.32870318924E+05	-1.45768761785E+01	-1.71017470946E+02	1.51284146729E+01	1.77848099314E+02	-4.10307579869E+01	-8.37549614477E+01	-5.88570046811E+00	1.88075347852E-04
6.55061673519E+05	-1.26424286190E+01	-1.59791751767E+02	1.50958492521E+01	1.77615001422E+02	-5.01240146386E+01	-5.93616681079E+01	-5.91121849268E+00	-4.51114791631E-01
6.77253028114E+05	-1.35635058522E+01	-1.65150062145E+02	1.51017150511E+01	1.77472338061E+02	-4.55381608931E+01	-1.19121141607E+01	-5.90580104645E+00	-7.91589141677E-01
6.99444382709E+05	-1.45841277340E+01	-1.57407130355E+02	1.51248032661E+01	1.77149938620E+02	-5.54925567891E+01	1.29388645444E+02	-5.85687484923E+00	-4.97657785221E-01
7.21635737304E+05	-1.25803993653E+01	-1.61398205681E+02	1.51145852363E+01	1.77018735847E+02	-4.31861493104E+01	-1.23217501592E+02	-5.86005060083E+00	-4.01608856326E-01
7.43827091899E+05	-1.68106870411E+01	-1.73635493118E+02	1.51026652260E+01	1.76834735810E+02	-4.65052431381E+01	-1.66262452020E+02	-5.84072780565E+00	-5.45419176894E-01
7.66018446494E+05	-1.66568386979E+01	-1.61165695790E+02	1.51297536903E+01	1.76668024681E+02	-4.44246891163E+01	8.07681953999E+00	-5.88572850223E+00	-3.49420368981E-01
7.88209801089E+05	-1.28832155857E+01	-1.78290126625E+02	1.50968351766E+01	1.76520176205E+02	-4.12286547095E+01	-8.09886217004E+01	-5.85804806930E+00	-4.39719294427E-01
8.10401155684E+05	-1.72338842096E+01	-1.65643509928E+02	1.51316216022E+01	1.76197751352E+02	-3.87553002711E+01	1.63105941836E+02	-5.86117878097E+00	-4.66121170211E-01
8.32592510279E+05	-1.28865707849E+01	1.76214891473E+02	1.50874192131E+01	1.75920872043E+02	-6.07244271043E+01	-1.54794062327E+02	-5.87493379454E+00	-5.49776242229E-01
8.54783864874E+05	-1.41060793685E+01	-1.70274202617E+02	1.50902684898E+01	1.75774190422E+02	-4.67109447679E+01	1.14554195475E+02	-5.85891688198E+00	-6.14898012496E-01
8.76975219469E+05	-1.36083588212E+01	-1.59145631196E+02	1.51022943049E+01	1.75583379192E+02	-4.89530380483E+01	-1.60340782709E+02	-5.86275629419E+00	-4.29983174033E-01
8.99166574064E+05	-1.25909251204E+01	1.67010423465E+02	1.51049380716E+01	1.75332531227E+02	-4.72364951363E+01	1.17134286307E+02	-5.86148135778E+00	-7.10802167815E-01
9.21357928659E+05	-1.01892676903E+01	-1.72309936368E+02	1.50483066086E+01	1.74856392755E+02	-3.93137562011E+01	1.73292993797E+00	-5.90985229314E+00	-4.67198580601E-01
9.43549283254E+05	-1.37460324812E+01	-1.70217125431E+02	1.51003644552E+01	1.74965036840E+02	-5.01122885955E+01	1.43238384089E+02	-5.84009920763E+00	-5.44647837439E-01
9.65740637849E+05	-1.06947057228E+01	-1.72612928939E+02	1.50471299626E+01	1.74592499647E+02	-4.36979975786E+01	-7.33927607451E+01	-5.87242376059E+00	-4.40157297736E-01
9.87931992444E+05	-1.09220486783E+01	-1.73055382819E+02	1.50540905475E+01	1.74636259002E+02	-3.98024127122E+01	-8.01148190194E+01	-5.88006966539E+00	-1.62598963043E-01
1.01012334704E+06	-1.54104758405E+01	-1.75022980831E+02	1.50964883622E+01	1.74533437709E+02	-5.22424893301E+01	-7.98055774489E+01	-5.86327339187E+00	-4.45719586951E-01
1.03231470163E+06	-1.20862198572E+01	1.75378696663E+02	1.50740816149E+01	1.74118775021E+02	-4.46936075287E+01	4.27107283931E+01	-5.87591241004E+00	-8.04674369504E-01
1.05450605623E+06	-1.32030879917E+01	1.59070362641E+02	1.50412792430E+01	1.74290152014E+02	-4.92126410454E+01	1.78949012385E+02	-5.85241479727E+00	-7.60241095848E-01
1.07669741082E+06	-1.26698096671E+01	-1.72256696813E+02	1.50753285469E+01	1.73929105166E+02	-4.65392067072E+01	-3.17136037733E+00	-5.81383122411E+00	-2.45950697181E+00
1.09888876542E+06	-1.27437536924E+01	-1.47987575026E+02	1.51073726355E+01	1.73371873602E+02	-4.19282673584E+01	-1.29108538979E+02	-5.85643285211E+00	-3.86015531537E-01
1.12108012001E+06	-1.64267521374E+01	1.72644711467E+02	1.51245457112E+01	1.73673608288E+02	-3.76220498949E+01	1.28412482881E+02	-5.84793247033E+00	-8.68568154911E-01
1.14327147461E+06	-1.15450839382E+01	1.73794863959E+02	1.50569256998E+01	1.73462089338E+02	-4.00448385553E+01	-3.61933824518E+01	-5.89518845348E+00	-5.21789877231E-01
1.16546282920E+06	-1.49363824746E+01	1.76144086152E+02	1.50918738469E+01	1.73290295109E+02	-5.11333240704E+01	5.87135470289E+01	-5.91712779994E+00	-6.22315938464E-01
1.18765418380E+06	-1.61757201032E+01	-1.74002093767E+02	1.50840782174E+01	1.73023614311E+02	-4.70653270495E+01	-5.74394096610E+01	-5.89810007083E+00	-5.86839204457E-01
1.20984553839E+06	-1.44018299404E+01	-1.31834141660E+02	1.51452469302E+01	1.72823855567E+02	-4.34193759302E+01	4.35533489480E+01	-5.90102520019E+00	-1.10937385564E+00
1.23203689299E+06	-1.34448716661E+01	1.62559251400E+02	1.50717299106E+01	1.72833470215E+02	-5.02604339077E+01	-4.92541465317E+00	-5.89819822872E+00	-6.08411093289E-01
1.25422824758E+06	-1.22908689513E+01	-1.70363794066E+02	1.50676622640E+01	1.72320379569E+02	-4.33907568690E+01	-3.43363986608E+01	-5.90895681096E+00	-6.45224209245E-01
1.27641960218E+06	-1.16612077034E+01	-1.65718324664E+02	1.50689164477E+01	1.72162977505E+02	-4.43620864843E+01	-1.06523761583E+02	-5.88223407463E+00	-6.51430190149E-01
1.29861095677E+06	-1.38672561864E+01	1.72932952528E+02	1.50738517714E+01	1.72433194268E+02	-3.86237278363E+01	-1.15782061733E+02	-5.87688344286E+00	-4.28046115191E-01
1.32080231137E+06	-1.23375104528E+01	-1.67479812161E+02	1.50615178067E+01	1.71925329484E+02	-4.97051642307E+01	-6.86265846212E+01	-5.89495018721E+00	-8.36519919763E-01
1.34299366596E+06	-1.47027490735E+01	-1.76155524964E+02	1.51049727177E+01	1.71795081281E+02	-4.13511638355E+01	-5.72346285462E+01	-5.89299368021E+00	-6.96687886823E-01
1.36518502056E+06	-1.39820454233E+01	1.52576741372E+02	1.50509351431E+01	1.71871736135E+02	-4.09774491437E+01	-9.52084587796E+01	-5.89118165872E+00	-5.43733695850E-01
1.38737637515E+06	-1.20233070858E+01	-1.69943731454E+02	1.50695165666E+01	1.71454665606E+02	-5.06429235203E+01	-9.61750879917E+01	-5.86183192291E+00	-6.54863239149E-01
1.40956772975E+06	-1.63160382853E+01	-1.63272983866E+02	1.50989764947E+01	1.71223075972E+02	-4.22508383975E+01	-1.15984167623E+02	-5.86306897925E+00	-5.95800333698E-01
1.43175908434E+06	-1.49422609870E+01	-1.65764146143E+02	1.50872678859E+01	1.71194183363E+02	-4.11774395956E+01	4.77985723202E+01	-5.91753500688E+00	-7.07055633645E-01
1.45395043894E+06	-1.30971448226E+01	-1.78341954215E+02	1.50630600310E+01	1.71037227811E+02	-4.75441785223E+01	1.12902819522E+02	-5.86102416082E+00	-9.05115478031E-01
1.47614179353E+06	-1.17497658357E+01	-1.67395288680E+02	1.50973837544E+01	1.70792553071E+02	-4.82388961815E+01	1.10876630378E+02	-5.86715701774E+00	-8.37309421458E-01
1.49833314813E+06	-1.40610089070E+01	-1.76761292922E+02	1.50801184907E+01	1.70582182852E+02	-4.17247196495E+01	-1.60220775896E+02	-5.82261406364E+00	-6.59350184750E-01
1.52052450272E+06	-1.31708544459E+01	-1.74185316580E+02	1.50708939670E+01	1.70274892114E+02	-4.83981738551E+01	6.06621390148E+00	-5.88833385785E+00	-7.95485494668E-01
1.54271585732E+06	-1.35646804252E+01	-1.68054633303E+02	1.51103001110E+01	1.70120378612E+02	-4.52175668591E+01	6.46280548792E+01	-5.91460534040E+00	-9.36391206702E-01
1.56490721191E+06	-1.28527209221E+01	-1.60864720714E+02	1.51028063000E+01	1.70035532548E+02	-4.88747126840E+01	-8.90202196787E+01	-5.87682095391E+00	-8.64629352323E-01
1.58709856651E+06	-1.13381702888E+01	-1.57905291444E+02	1.50790501729E+01	1.69746282005E+02	-4.03818230803E+01	-5.19379830177E+01	-5.92236873672E+00	-8.10669771305E-01
1.60928992110E+06	-1.24008851682E+01	1.77722255296E+02	1.50758725795E+01	1.69779659780E+02	-4.53497449328E+01	-6.12468383473E+01	-5.89657929283E+00	-7.82583250039E-01
1.63148127570E+06	-1.41359899894E+01	-1.44058685604E+02	1.51193612524E+01	1.69415006092E+02	-4.49712053351E+01	1.12943382121E+02	-5.87893771449E+00	-1.06475977456E+00
1.65367263029E+06	-1.21277167915E+01	-1.75454371233E+02	1.50661447617E+01	1.69438437463E+02	-4.70882737597E+01	-1.08289640710E+02	-5.85357570120E+00	-8.57339950535E-01
1.67586398489E+06	-1.23947094416E+01	1.76909057762E+02	1.50495655931E+01	1.69286329174E+02	-5.51120799865E+01	-6.58939617461E+01	-5.89044212592E+00	-8.92878954545E-01
1.69805533948E+06	-1.31183939070E+01	-1.71936575748E+02	1.50740388750E+01	1.69131154137E+02	-4.70336801423E+01	4.59461368237E+01	-5.88359228047E+00	-9.89655489169E-01
1.72024669408E+06	-1.42962557067E+01	-1.63227265668E+02	1.50785042733E+01	1.68964472807E+02	-4.97018917531E+01	5.00585959977E+01	-5.89112632666E+00	-8.98236463763E-01
1.74243804867E+06	-1.48291921268E+01	-1.79448652759E+02	1.50887451678E+01	1.68945549101E+02	-4.02699318622E+01	-9.57458214099E+01	-5.89149253813E+00	-4.31168865063E-01
1.76462940327E+06	-1.31475506999E+01	-1.59006759502E+02	1.50798372310E+01	1.68494732225E+02	-4.50190822415E+01	1.12778580118E+02	-5.85540016065E+00	-8.54094249114E-01
1.78682075786E+06	-1.19035630866E+01	-1.72438757220E+02	1.50602475449E+01	1.68377673631E+02	-4.52973733115E+01	-1.71560945668E+02	-5.87579869448E+00	-7.12749624268E-01
1.80901211246E+06	-1.22389227894E+01	-1.65023098811E+02	1.50681131806E+01	1.68269262282E+02	-4.40168147908E+01	-1.74222088802E+02	-5.85045495920E+00	-9.00052745576E-01
1.83120346705E+06	-9.36471894876E+00	-1.63771718066E+02	1.50880343182E+01	1.67977747183E+02	-3.96669485127E+01	5.03213585255E+01	-5.89583907871E+00	-1.20412494018E+00
1.85339482165E+06	-1.05037303930E+01	-1.73414867356E+02	1.50634550673E+01	1.67807280100E+02	-4.90130302615E+01	-3.96506483471E+01	-5.89592704250E+00	-1.10381146808E+00
1.87558617624E+06	-1.30600956434E+01	-1.60306975751E+02	1.50751656570E+01	1.67672651417E+02	-3.96343626264E+01	-1.13961595241E+02	-5.86500776563E+00	-7.59350322705E-01
1.89777753084E+06	-1.28148854397E+01	-1.52366374677E+02	1.50786907716E+01	1.67482933990E+02	-4.56107953806E+01	-1.54934636824E+02	-5.83627736072E+00	-7.90911339087E-01
1.91996888543E+06	-1.28530458394E+01	-1.62777995923E+02	1.50993201375E+01	1.67380393664E+02	-4.39025456163E+01	-6.15769942415E+01	-5.89111668641E+00	-8.95008023364E-01
1.94216024003E+06	-1.25833603297E+01	-1.74215753462E+02	1.50802104922E+01	1.67347809075E+02	-4.81914887036E+01	1.53573039591E+02	-5.86471840760E+00	-1.06816135878E+00
1.96435159462E+06	-1.14864820324E+01	-1.77038868262E+02	1.50543665658E+01	1.67214035083E+02	-4.59210915899E+01	1.02398997241E+02	-5.87149381737E+00	-1.29282050101E+00
1.98654294922E+06	-1.79971174561E+01	-1.42033104884E+02	1.51212644301E+01	1.67115313936E+02	-5.54595788277E+01	-1.02981697080E+02	-5.88436009824E+00	-9.66022259281E-01
2.00873430381E+06	-1.69287260456E+01	1.73338116437E+02	1.50902831635E+01	1.67066222054E+02	-4.41092415274E+01	1.52320848696E+02	-5.85306730050E+00	-1.09127348183E+00
2.03092565841E+06	-1.13697630299E+01	-1.57229056026E+02	1.50880906749E+01	1.66498349324E+02	-4.47233780751E+01	1.17440665121E+02	-5.82823906231E+00	-1.44210404119E+00
2.05311701300E+06	-1.40384263638E+01	-1.65246400655E+02	1.51026392335E+01	1.66545054703E+02	-3.85014281062E+01	-3.84416352156E+01	-5.91716428731E+00	-8.75151969192E-01
2.07530836760E+06	-1.39685035425E+01	1.77380342313E+02	1.50748426760E+01	1.66486356925E+02	-3.74500021201E+01	2.04374995612E+01	-5.91898252663E+00	-1.12997971623E+00
2.09749972219E+06	-1.22152672189E+01	-1.61915591044E+02	1.50948238405E+01	1.66258165869E+02	-4.30296387819E+01	2.93298741184E+01	-5.93946957286E+00	-1.36321046178E+00
2.11969107679E+06	-1.43873508777E+01	-1.51628907043E+02	1.50972782057E+01	1.66031004318E+02	-4.65344263473E+01	-6.49549696878E+00	-5.91141516017E+00	-1.25354777398E+00
2.14188243138E+06	-1.52016973682E+01	-1.24941842632E+02	1.51315444932E+01	1.66047029574E+02	-5.41903723825E+01	6.48826422682E+01	-5.90333058527E+00	-1.15694547679E+00
2.16407378598E+06	-1.12841051429E+01	1.76684498547E+02	1.50828474933E+01	1.65797385875E+02	-5.27056573686E+01	1.43572931358E+02	-5.84787046337E+00	-1.06639707810E+00
2.18626514057E+06	-1.38864473885E+01	-1.72065580712E+02	1.51097788087E+01	1.65637682588E+02	-4.74903792828E+01	8.94417693161E+01	-5.85198405314E+00	-1.20646288694E+00
2.20845649517E+06	-1.19059370962E+01	1.72454160350E+02	1.50585788520E+01	1.65629160005E+02	-3.93777596563E+01	-5.35838815788E+01	-5.90915049641E+00	-1.14699174979E+00
2.23064784976E+06	-1.41517200314E+01	-1.62599128025E+02	1.51053958580E+01	1.65285136954E+02	-3.80173363762E+01	2.04329591739E+01	-5.90573232888E+00	-1.55862649037E+00
2.25283920436E+06	-1.47510078739E+01	-1.79549376880E+02	1.50905312699E+01	1.65347990635E+02	-3.80056723735E+01	-7.98839177771E+01	-5.88428923444E+00	-1.02226869284E+00
2.27503055895E+06	-1.17449739030E+01	1.79286984325E+02	1.50684535090E+01	1.64901453702E+02	-4.84992388920E+01	-9.81722615625E+01	-5.88073818499E+00	-1.05746489335E+00
2.29722191355E+06	-1.03344626396E+01	1.72948411373E+02	1.50135311192E+01	1.64792089797E+02	-4.78721900820E+01	-2.43711348147E+01	-5.87876086872E+00	-1.21905167270E+00
2.31941326814E+06	-1.32655240692E+01	-1.61330634651E+02	1.51028501871E+01	1.64606514326E+02	-4.97284328485E+01	-7.49754827249E+01	-5.86544400075E+00	-1.12960347096E+00
2.34160462274E+06	-1.24756468366E+01	-1.76223339392E+02	1.50748607864E+01	1.64543996036E+02	-4.04266376891E+01	-1.30888135648E+01	-5.93098786397E+00	-1.26333966807E+00
2.36379597733E+06	-9.82737574442E+00	-1.71745937615E+02	1.50431124067E+01	1.64043785096E+02	-4.28227094252E+01	-1.31142767419E+02	-5.90258405449E+00	-1.10146842855E+00
2.38598733193E+06	-1.40437959571E+01	-1.63793208925E+02	1.50836425695E+01	1.64193288770E+02	-3.92080690795E+01	-1.44883198814E+00	-5.91656610897E+00	-1.52436054776E+00
2.40817868652E+06	-1.27832417389E+01	-1.67604195307E+02	1.50870778390E+01	1.64044212964E+02	-4.71439557038E+01	-6.56191385659E+01	-5.91040330023E+00	-1.25244381499E+00
2.43037004112E+06	-1.31938437351E+01	-1.72704191614E+02	1.50869662504E+01	1.63834372518E+02	-5.44114323998E+01	-1.78698642123E+02	-5.84746515108E+00	-1.64149413139E+00
2.45256139571E+06	-1.20993447799E+01	-1.51310171597E+02	1.51079102760E+01	1.63523160255E+02	-5.39186660838E+01	1.30627730494E+02	-5.87722034542E+00	-1.22538745066E+00
2.47475275031E+06	-1.25539332330E+01	1.37881043954E+02	1.50328046781E+01	1.63840098592E+02	-6.70380760605E+01	1.12790027677E+02	-5.86714936968E+00	-1.29329839510E+00
2.49694410490E+06	-1.50238312439E+01	-1.72502024702E+02	1.50756764792E+01	1.63586752055E+02	-4.78605190572E+01	-1.35598175668E+02	-5.87309651134E+00	-1.10568016881E+00
2.51913545950E+06	-1.20504152309E+01	-1.64782912715E+02	1.50710076025E+01	1.63155114867E+02	-3.86261939215E+01	1.42576520297E+02	-5.81425427736E+00	-1.34965838154E+00
2.54132681409E+06	-1.46630448147E+01	-1.45248343517E+02	1.51247153685E+01	1.63043877569E+02	-3.63785535832E+01	1.72877398425E+02	-5.82891650265E+00	-1.36442839951E+00
2.56351816869E+06	-1.34677390802E+01	-1.65502379024E+02	1.50934419714E+01	1.62900136711E+02	-5.11841031809E+01	1.66789373931E+02	-5.85119810189E+00	-1.33158321157E+00
2.58570952328E+06	-1.23768825121E+01	-1.69908882963E+02	1.50761423419E+01	1.62736121081E+02	-4.81552865160E+01	9.62676520304E+00	-5.88983493984E+00	-1.40072061807E+00
2.60790087788E+06	-1.17486877522E+01	-1.56509692654E+02	1.50972278727E+01	1.62565545117E+02	-5.21938632928E+01	-6.33995385824E+01	-5.90070538078E+00	-1.13022892022E+00
2.63009223247E+06	-1.71301132884E+01	-1.43381407082E+02	1.51161586730E+01	1.62400277722E+02	-4.31403366447E+01	1.60716666681E+02	-5.84705794830E+00	-1.05638218973E+00
2.65228358707E+06	-1.31302259528E+01	-1.79810021035E+02	1.50723366675E+01	1.62438786350E+02	-4.81303220141E+01	-1.14017946894E+02	-5.85510798206E+00	-1.33805074623E+00
2.67447494166E+06	-1.25557334588E+01	-1.62618965322E+02	1.50990539784E+01	1.62048047739E+02	-4.87491081297E+01	-9.10634998946E+01	-5.88988731346E+00	-1.25563593275E+00
2.69666629626E+06	-1.20953323998E+01	-1.62436221343E+02	1.50948804467E+01	1.61861867562E+02	-4.16822580146E+01	-1.71859438988E+02	-5.84161441056E+00	-1.30795729631E+00
2.71885765085E+06	-1.27285876504E+01	-1.59610103477E+02	1.51001980854E+01	1.61639700501E+02	-4.34082087122E+01	1.03264366641E+01	-5.91880762266E+00	-1.50952196516E+00
2.74104900545E+06	-1.14587161960E+01	-1.77431158602E+02	1.50576014533E+01	1.61620628345E+02	-5.44124815142E+01	3.61061870480E+01	-5.87167120431E+00	-1.50241085365E+00
2.76324036004E+06	-1.71225705888E+01	1.73183561248E+02	1.50800931892E+01	1.61740942087E+02	-4.28448607272E+01	1.75972230671E+02	-5.82927290426E+00	-1.31675617742E+00
2.78543171463E+06	-1.34129019927E+01	-1.75202343515E+02	1.50863291689E+01	1.61342154527E+02	-4.24044527497E+01	1.71797284400E+02	-5.85183657557E+00	-1.39552617977E+00
2.80762306923E+06	-1.02698638592E+01	-1.66872736857E+02	1.50687516682E+01	1.61014410120E+02	-4.99910180743E+01	1.08039567670E+02	-5.87056057513E+00	-1.53187437160E+00
2.82981442382E+06	-1.40191965811E+01	1.74563725458E+02	1.50622834782E+01	1.61242346319E+02	-4.19069539837E+01	1.38930428722E+02	-5.85360744012E+00	-1.61056601913E+00
2.85200577842E+06	-1.24470773477E+01	-1.58035459499E+02	1.51097713273E+01	1.60606659739E+02	-4.66070928492E+01	1.46452491338E+02	-5.85590549695E+00	-1.46980739684E+00
2.87419713301E+06	-1.33282377453E+01	-1.69379271914E+02	1.51073321900E+01	1.60742060272E+02	-4.16130177845E+01	-2.55041200536E+01	-5.89895675740E+00	-1.58747183261E+00
