# Hz S DB R 50
! CMT, M5065, 19127446, 24.2.4/2
! Date: 11/8/2024 5:35:20 PM
! Data: Format (Calibration Info)
! Freq	S11:dB/Ang(F2)	S21:dB/Ang(F2)	S12:dB/Ang(F2)	S22:dB/Ang(F2)
3.00000000000E+05	-1.17499873629E+01	-1.72923092041E+02	2.66182810311E+01	-1.75401905458E+02	-3.98772957838E+01	-1.34348293612E+02	-5.77445700496E+00	4.30341837904E-01
3.22191354595E+05	-1.54304552566E+01	-1.64265169071E+02	2.66582957224E+01	-1.76506131529E+02	-4.52745994378E+01	-7.79684900029E+01	-5.88736679579E+00	5.55955572370E-02
3.44382709190E+05	-1.02911041744E+01	-1.76104737706E+02	2.66310482280E+01	-1.77656522203E+02	-4.76575564039E+01	-5.99543881610E+01	-5.87307490541E+00	-2.72582718381E-01
3.66574063785E+05	-1.20783797161E+01	-1.63351444465E+02	2.66528241164E+01	-1.78751255680E+02	-4.57645269326E+01	8.21978448125E+01	-5.88716202569E+00	-1.12122332471E+00
3.88765418380E+05	-1.64116170098E+01	-1.49503831816E+02	2.67136999389E+01	-1.79627959057E+02	-3.83046227335E+01	-1.68314883567E+02	-5.68253619773E+00	-2.82896700091E-01
4.10956772975E+05	-1.30510986201E+01	1.66907021957E+02	2.66495802135E+01	1.79678424629E+02	-4.56408284363E+01	-1.39240755234E+01	-5.91812637222E+00	-4.80485138171E-01
4.33148127570E+05	-1.48575439764E+01	-1.73131924905E+02	2.66760299496E+01	1.78617450347E+02	-4.98652652296E+01	-2.65834826506E+01	-5.90163137869E+00	-4.01299269962E-01
4.55339482165E+05	-1.21367520024E+01	-1.69161870844E+02	2.66531482626E+01	1.77865233301E+02	-3.91951582105E+01	-6.76244373690E+01	-5.90556580791E+00	3.24870245359E-01
4.77530836760E+05	-1.48179985765E+01	1.79986707906E+02	2.66483817721E+01	1.77115430877E+02	-4.56352588420E+01	-1.68616458295E+02	-5.79061955120E+00	-3.75397362410E-01
4.99722191355E+05	-1.26717776717E+01	-1.51067956611E+02	2.66251165469E+01	1.76069271964E+02	-3.80515547571E+01	-1.79221901126E+02	-5.68317965832E+00	-4.19790521486E-01
5.21913545950E+05	-1.10158304531E+01	-1.63770685681E+02	2.66050637386E+01	1.75423210114E+02	-4.43002239303E+01	-1.66342124791E+02	-5.80229769211E+00	-3.59583450461E-01
5.44104900545E+05	-1.16321902783E+01	-1.66743818566E+02	2.65986639442E+01	1.74680406127E+02	-5.84055542336E+01	-8.75477451861E+01	-5.86717553375E+00	-2.24964245128E-01
5.66296255139E+05	-1.17103200798E+01	-1.51791174808E+02	2.65966754751E+01	1.73842335898E+02	-5.49661994330E+01	-2.29790934783E+01	-5.89941941760E+00	-4.40215898731E-01
5.88487609734E+05	-1.05160613142E+01	1.76532578356E+02	2.65295278395E+01	1.73543891815E+02	-4.73115502840E+01	1.13965354328E+02	-5.84564548843E+00	-8.31938712179E-01
6.10678964329E+05	-1.34378900623E+01	1.73182325614E+02	2.65898241569E+01	1.73065210741E+02	-4.00752279580E+01	-9.60588052049E+01	-5.88292881532E+00	1.12258802619E+00
6.32870318924E+05	-1.21964082359E+01	-1.74168144484E+02	2.65563918858E+01	1.72274388950E+02	-4.96221228378E+01	-1.70666039308E+01	-5.91489908312E+00	-8.04665907336E-02
6.55061673519E+05	-1.46506677059E+01	-1.57731805593E+02	2.65684355383E+01	1.71617791667E+02	-6.23236454795E+01	-1.01525180555E+02	-5.81112511417E+00	-2.09957306024E-01
6.77253028114E+05	-1.38555273492E+01	-1.74651524896E+02	2.65622064077E+01	1.71040517474E+02	-4.46968988451E+01	1.04830859934E+02	-5.82027059544E+00	-1.28402555739E+00
6.99444382709E+05	-1.18725449586E+01	-1.69086562857E+02	2.65445056600E+01	1.70378732890E+02	-4.05824885878E+01	4.67539943104E+01	-5.95841424436E+00	-1.17423127482E+00
7.21635737304E+05	-1.29472472923E+01	-1.75017242396E+02	2.65303568242E+01	1.69917928605E+02	-3.97162668903E+01	-9.29299971762E+01	-5.84508903570E+00	4.52779599103E-01
7.43827091899E+05	-1.11530483151E+01	-1.65069041985E+02	2.65106267528E+01	1.69264487692E+02	-4.81526033111E+01	-1.68629096179E+02	-5.82118837574E+00	-6.27913103013E-01
7.66018446494E+05	-1.17743839845E+01	1.77175500982E+02	2.64902892442E+01	1.68947461778E+02	-3.98504883748E+01	-1.73701260608E+02	-5.71834704218E+00	-5.25714911104E-01
7.88209801089E+05	-1.36760247017E+01	-1.69144602222E+02	2.64980031552E+01	1.68369588553E+02	-3.99979083003E+01	1.56885878915E+02	-5.74667650355E+00	-9.32150973758E-01
8.10401155684E+05	-1.65338778711E+01	-1.68063965634E+02	2.65148491997E+01	1.67713227517E+02	-4.32606790930E+01	9.11012688026E+01	-5.88565105931E+00	-1.31078619494E+00
8.32592510279E+05	-1.39863382506E+01	1.72577681002E+02	2.64603583610E+01	1.67451491219E+02	-4.85276917411E+01	3.79407420834E+01	-5.89661936801E+00	-8.19078621393E-01
8.54783864874E+05	-1.24758398849E+01	1.67171115760E+02	2.64408808839E+01	1.66978808245E+02	-5.10646210975E+01	-2.80503241916E+01	-5.93953440145E+00	-6.20131149654E-01
8.76975219469E+05	-1.40367469457E+01	-1.70094681656E+02	2.64308184171E+01	1.66197412478E+02	-4.24605274588E+01	-9.19938988582E+01	-5.86597609250E+00	-3.56036329985E-02
8.99166574064E+05	-1.32373982745E+01	-1.76745537736E+02	2.64101344263E+01	1.65731065284E+02	-6.32258836084E+01	2.73300526986E+01	-5.87624831843E+00	-6.71589647215E-01
9.21357928659E+05	-1.33211007699E+01	-1.67828604253E+02	2.63890614129E+01	1.65128383002E+02	-4.83373326903E+01	-7.98609517138E+01	-5.85634525783E+00	-1.96245777132E-01
9.43549283254E+05	-1.65876816328E+01	-1.73029793345E+02	2.64150089624E+01	1.64837658124E+02	-3.88763439223E+01	4.18267629277E+01	-5.98543792157E+00	-1.51617255663E+00
9.65740637849E+05	-1.03955424752E+01	-1.59785561054E+02	2.63639465997E+01	1.64046526201E+02	-4.28979551284E+01	-1.33858505571E+02	-5.78245564896E+00	-2.08651637734E-01
9.87931992444E+05	-1.59812110720E+01	1.74671727071E+02	2.63866321413E+01	1.63895732143E+02	-4.10252875702E+01	-1.32171876333E+02	-5.79284867600E+00	-1.25028954024E-01
1.01012334704E+06	-1.31758048335E+01	-1.68334057012E+02	2.63489546943E+01	1.63286532714E+02	-5.32428502269E+01	6.39690519452E+01	-5.89322174053E+00	-9.57625295061E-01
1.03231470163E+06	-1.31636909312E+01	-1.78939904966E+02	2.63350305135E+01	1.62825914855E+02	-5.20496128881E+01	9.76406447388E+01	-5.83794271571E+00	-1.00624949778E+00
1.05450605623E+06	-1.26917330120E+01	-1.72335947669E+02	2.63313273466E+01	1.62453977907E+02	-4.33973348616E+01	1.43386853234E+02	-5.79662351663E+00	-9.99182591000E-01
1.07669741082E+06	-1.20279035483E+01	-1.76459797975E+02	2.63175144088E+01	1.61740644236E+02	-4.16378587430E+01	-1.02077637825E+02	-5.64055895077E+00	-1.06790458707E+00
1.09888876542E+06	-1.28150614846E+01	-1.54673513203E+02	2.63178635823E+01	1.61286792108E+02	-5.09939761870E+01	-1.40790730845E+02	-5.83702185431E+00	-7.86298412272E-01
1.12108012001E+06	-1.30288512841E+01	-1.70783505661E+02	2.62782607993E+01	1.60979954173E+02	-4.61210552005E+01	-1.22456170433E+02	-5.81832968491E+00	-3.52133292047E-01
1.14327147461E+06	-1.56112382144E+01	-1.61490605883E+02	2.62932563616E+01	1.60525441507E+02	-4.45440598392E+01	4.66743864616E+01	-5.93369864361E+00	-1.33487656195E+00
1.16546282920E+06	-1.38614407099E+01	-1.67515600184E+02	2.62485110183E+01	1.60177348037E+02	-4.08888151954E+01	-1.73895268351E+02	-5.73948710252E+00	-6.12650169832E-01
1.18765418380E+06	-1.02983797334E+01	-1.78485210433E+02	2.61994789829E+01	1.59613436488E+02	-4.39834663615E+01	3.50228538716E+01	-5.93548545250E+00	-1.01983660824E+00
1.20984553839E+06	-1.33268214587E+01	-1.62369430132E+02	2.62356039337E+01	1.59053060902E+02	-4.66855763252E+01	-7.57025311819E+01	-5.87545073168E+00	-3.11763990696E-01
1.23203689299E+06	-1.40029647441E+01	-1.63950179209E+02	2.62079659861E+01	1.58830845093E+02	-5.37998663175E+01	1.19660551542E+02	-5.86883765669E+00	-9.07988203751E-01
1.25422824758E+06	-1.30962887289E+01	-1.60376226881E+02	2.61986584927E+01	1.58201278253E+02	-4.68144045969E+01	9.47163999645E+01	-5.86305692035E+00	-1.09925870552E+00
1.27641960218E+06	-1.22713329067E+01	-1.63026408503E+02	2.61744020253E+01	1.57855301110E+02	-5.84099130324E+01	1.58095944379E+02	-5.86508723492E+00	-7.82970723219E-01
1.29861095677E+06	-1.89507646948E+01	-1.62639852212E+02	2.61935524279E+01	1.57684950339E+02	-4.65569924176E+01	-4.96584635768E+01	-5.92993253159E+00	-1.49312454945E-01
1.32080231137E+06	-1.23307647075E+01	-1.63198482273E+02	2.61449524474E+01	1.57012576284E+02	-3.92894981995E+01	6.26395839663E+01	-5.97718995521E+00	-2.14911021161E+00
1.34299366596E+06	-1.28257964921E+01	-1.79320794073E+02	2.60881823562E+01	1.56684579451E+02	-3.91100522537E+01	8.47574140694E+01	-5.91696191246E+00	-2.14767108367E+00
1.36518502056E+06	-1.10258731157E+01	-1.69863153513E+02	2.61035724632E+01	1.56136700157E+02	-5.64994662423E+01	-9.13700415357E+01	-5.84399966110E+00	-4.87214254073E-01
1.38737637515E+06	-1.50234807333E+01	-1.54812615764E+02	2.61128080055E+01	1.55694447223E+02	-3.82302628121E+01	1.10457991255E+02	-5.83578415556E+00	-1.55917560028E+00
1.40956772975E+06	-1.22046814073E+01	-1.68771580943E+02	2.60602243737E+01	1.55272189560E+02	-4.18658991202E+01	1.54604934437E+02	-5.76937736532E+00	-1.51768571307E+00
1.43175908434E+06	-9.63608705059E+00	-1.78470664665E+02	2.60282198969E+01	1.55031514889E+02	-3.87170114296E+01	-6.04243499149E+01	-5.95612530592E+00	2.46211870340E-01
1.45395043894E+06	-1.37036966413E+01	-1.73884528181E+02	2.60457374252E+01	1.54630047211E+02	-4.31646924966E+01	1.34287154555E+02	-5.77233027712E+00	-1.45340746438E+00
1.47614179353E+06	-1.26304870512E+01	-1.75514091136E+02	2.60035483989E+01	1.54181192604E+02	-4.22561469040E+01	1.48252468393E+02	-5.76205011732E+00	-1.46385275756E+00
1.49833314813E+06	-1.20079203083E+01	-1.76065971931E+02	2.59916552980E+01	1.53701282527E+02	-3.92893886914E+01	1.03282174530E+02	-5.83988409206E+00	-1.99728504121E+00
1.52052450272E+06	-1.21176317736E+01	-1.53161351397E+02	2.60061826855E+01	1.53065752297E+02	-4.69258862882E+01	-8.71348554313E+01	-5.88067168040E+00	-4.00775810317E-01
1.54271585732E+06	-1.53295724031E+01	-1.61271037246E+02	2.59918597360E+01	1.52997134752E+02	-4.16642147266E+01	4.29887519070E+01	-5.96410920762E+00	-1.58724964851E+00
1.56490721191E+06	-1.12059244582E+01	-1.54024435656E+02	2.59603716869E+01	1.52360477734E+02	-3.92653207759E+01	-1.13870323061E+02	-5.79868600634E+00	-6.50718708525E-01
1.58709856651E+06	-1.49533599167E+01	-1.58127444549E+02	2.59525299133E+01	1.51890332581E+02	-4.87086925821E+01	3.19380747043E+01	-5.90391989239E+00	-1.10568011143E+00
1.60928992110E+06	-1.16618525927E+01	-1.75895094036E+02	2.58960461777E+01	1.51620694671E+02	-5.15947539510E+01	1.52583599673E+02	-5.83212534306E+00	-9.24652106319E-01
1.63148127570E+06	-1.06786741891E+01	-1.68892131700E+02	2.58768094077E+01	1.51159984303E+02	-4.56857217837E+01	4.04222230853E+01	-5.94973186821E+00	-1.23840599456E+00
1.65367263029E+06	-1.28535968103E+01	-1.71166605530E+02	2.58804001768E+01	1.50856649541E+02	-4.35084593613E+01	1.71674967673E+02	-5.76852044333E+00	-1.14602680797E+00
1.67586398489E+06	-1.38903415594E+01	-1.52854799304E+02	2.59057178367E+01	1.50271102305E+02	-4.98062454723E+01	-1.60215585644E+01	-5.93815649639E+00	-9.13855933750E-01
1.69805533948E+06	-1.36126644101E+01	-1.45641834220E+02	2.58820803860E+01	1.50059745743E+02	-5.10058530206E+01	1.20893618667E+02	-5.82502892738E+00	-1.09209171419E+00
1.72024669408E+06	-1.18928136998E+01	-1.66041147527E+02	2.58062401310E+01	1.49577660723E+02	-3.34759575287E+01	-1.51851463260E+02	-5.65258165259E+00	-8.41263922865E-01
1.74243804867E+06	-1.35824257296E+01	-1.74034067383E+02	2.58234988385E+01	1.49488254859E+02	-4.31380929672E+01	1.55554503827E+02	-5.78904253531E+00	-1.33991617618E+00
1.76462940327E+06	-9.31987441533E+00	-1.68369260327E+02	2.57508102447E+01	1.48724429911E+02	-4.98529443228E+01	-6.01616764344E+01	-5.89892661599E+00	-6.31993875363E-01
1.78682075786E+06	-1.11706553887E+01	-1.73854374028E+02	2.57383537786E+01	1.48397968098E+02	-5.12158099497E+01	1.23523162748E+02	-5.85270362974E+00	-1.23982208919E+00
1.80901211246E+06	-1.42493517521E+01	-1.71879328735E+02	2.57591513370E+01	1.48226663444E+02	-4.73069317058E+01	-1.48623464964E+02	-5.78937138208E+00	-6.15581478342E-01
1.83120346705E+06	-1.16492949855E+01	-1.66585030901E+02	2.57220917867E+01	1.47531212502E+02	-4.63742818653E+01	-1.07318893484E+02	-5.85415705869E+00	-8.71476404256E-01
1.85339482165E+06	-1.21771159835E+01	-1.53815680343E+02	2.57316401846E+01	1.47174458437E+02	-3.18740813110E+01	1.54210998967E+02	-5.62199885976E+00	-1.82896989752E+00
1.87558617624E+06	-1.49982392977E+01	1.79897174581E+02	2.56975560454E+01	1.47157080503E+02	-7.94656190513E+01	1.21445511899E+01	-5.83429287353E+00	-1.28926103914E+00
1.89777753084E+06	-1.43560412713E+01	1.78020055864E+02	2.56676462842E+01	1.46625541592E+02	-4.66287275174E+01	1.27794827641E+02	-5.81918757664E+00	-1.76393707891E+00
1.91996888543E+06	-1.32864773674E+01	-1.69852909814E+02	2.56514667619E+01	1.46291616158E+02	-5.11090618408E+01	-1.23575240533E+02	-5.84906564741E+00	-7.76330760929E-01
1.94216024003E+06	-1.41995693834E+01	-1.70978907600E+02	2.56397747905E+01	1.45927661362E+02	-4.80791574366E+01	5.90301608180E+01	-5.89752041799E+00	-1.33724661977E+00
1.96435159462E+06	-1.14621432988E+01	-1.58207352571E+02	2.56224680050E+01	1.45220264478E+02	-4.35160495780E+01	-6.71436880226E+01	-5.90547783672E+00	-3.70221569501E-01
1.98654294922E+06	-1.26674044039E+01	1.77555638246E+02	2.55687698111E+01	1.45235127594E+02	-4.79348995851E+01	1.30075206680E+02	-5.84123793092E+00	-1.55377703721E+00
2.00873430381E+06	-1.24198595850E+01	-1.57458178413E+02	2.55989448022E+01	1.44622643683E+02	-4.24513725812E+01	1.76103163467E+01	-5.94454644044E+00	-1.10493326418E+00
2.03092565841E+06	-1.17554802899E+01	-1.51930446246E+02	2.55639597264E+01	1.44287902227E+02	-4.62109638978E+01	6.48245339796E+01	-5.85695927966E+00	-1.49500682206E+00
2.05311701300E+06	-1.60861666073E+01	-1.70019712349E+02	2.55640108761E+01	1.43997396770E+02	-4.50836593627E+01	-5.59683726417E+01	-5.92832284471E+00	-6.75314955504E-01
2.07530836760E+06	-1.65347494309E+01	-1.77717573223E+02	2.55633011961E+01	1.43787359810E+02	-4.53433788194E+01	1.36427652741E+02	-5.78515611925E+00	-1.53696808492E+00
2.09749972219E+06	-1.23926111136E+01	-1.69836433624E+02	2.54890995582E+01	1.43245299682E+02	-4.12197397631E+01	-1.49582327286E+01	-6.01146257480E+00	-8.73944703844E-01
2.11969107679E+06	-1.26403819566E+01	-1.73998411836E+02	2.54641853487E+01	1.42927604066E+02	-5.11078462608E+01	5.77636778020E+01	-5.92202177703E+00	-1.26714155384E+00
2.14188243138E+06	-1.44052520633E+01	-1.34972254257E+02	2.54941331941E+01	1.42398220926E+02	-4.22983736306E+01	-9.31692547040E+01	-5.85326601624E+00	-3.30365999167E-01
2.16407378598E+06	-1.21131709761E+01	-1.54922260634E+02	2.54353294610E+01	1.42013979471E+02	-4.65941972641E+01	-9.84386332724E+01	-5.86320029060E+00	-6.68922115278E-01
2.18626514057E+06	-9.92877715199E+00	-1.66676471320E+02	2.53757200225E+01	1.41627134502E+02	-4.44317237428E+01	1.69073336202E+02	-5.80438599269E+00	-1.22629737045E+00
2.20845649517E+06	-1.27472429021E+01	-1.71480248786E+02	2.53959318242E+01	1.41438254763E+02	-5.26523387365E+01	-2.96617338163E+01	-5.92171460287E+00	-1.15972180287E+00
2.23064784976E+06	-1.21024646451E+01	-1.77623268265E+02	2.53542253979E+01	1.41218761551E+02	-4.51455803278E+01	8.49354059034E+01	-5.90373356527E+00	-1.78735670767E+00
2.25283920436E+06	-1.32091157384E+01	-1.51845542423E+02	2.53912291955E+01	1.40548931359E+02	-4.83949966946E+01	5.77285354171E+01	-5.92000720492E+00	-1.52104830546E+00
2.27503055895E+06	-1.12431683293E+01	-1.62720423847E+02	2.53198045533E+01	1.40269050071E+02	-4.69289226635E+01	-7.34792424022E+00	-5.93345214675E+00	-1.07684343347E+00
2.29722191355E+06	-1.50062818219E+01	-1.66051029483E+02	2.53292520402E+01	1.40063677889E+02	-3.73713830923E+01	-4.25485106928E+01	-5.99510943453E+00	-1.64651448357E-01
2.31941326814E+06	-1.02272774651E+01	-1.68874516193E+02	2.52518079957E+01	1.39413226664E+02	-5.34610946133E+01	-5.61269292310E+01	-5.87210339385E+00	-1.14589894783E+00
2.34160462274E+06	-1.32115389947E+01	-1.68806855968E+02	2.52812826119E+01	1.39370393669E+02	-4.44523962812E+01	-7.69962427781E+01	-5.81425772334E+00	-5.92465886421E-01
2.36379597733E+06	-1.05785071897E+01	-1.76584667293E+02	2.52314699707E+01	1.38916299274E+02	-4.62676817723E+01	-8.57543134081E+01	-5.90266805599E+00	-9.52305290469E-01
2.38598733193E+06	-1.13737044698E+01	-1.53676617908E+02	2.52312422852E+01	1.38481088002E+02	-4.47129684198E+01	-1.62084499816E+02	-5.79173117653E+00	-1.20725730226E+00
2.40817868652E+06	-1.21737203054E+01	-1.53119331781E+02	2.52344836110E+01	1.38080487745E+02	-4.70397533675E+01	2.97526737646E+00	-5.95185495667E+00	-1.39625044755E+00
2.43037004112E+06	-1.59702303635E+01	-1.62698074738E+02	2.52067398882E+01	1.37950568193E+02	-4.01292030416E+01	1.56723775890E+02	-5.73923015479E+00	-2.27110670906E+00
2.45256139571E+06	-1.31254821347E+01	-1.63051921108E+02	2.51515808393E+01	1.37577550355E+02	-4.88617800321E+01	1.50283276235E+02	-5.82857590655E+00	-1.87285276444E+00
2.47475275031E+06	-1.16888041075E+01	-1.69129450785E+02	2.51238571308E+01	1.37138959255E+02	-7.32529028431E+01	-1.15277170740E+02	-5.85123740923E+00	-1.43151311781E+00
2.49694410490E+06	-1.25067670951E+01	-1.67623720929E+02	2.51202606592E+01	1.36877304013E+02	-3.85457199698E+01	1.63173587825E+02	-5.74389801106E+00	-2.17709194170E+00
2.51913545950E+06	-1.18992568360E+01	-1.74588530879E+02	2.50855122527E+01	1.36501931357E+02	-5.00294592868E+01	-1.06703988347E+02	-5.87502352102E+00	-1.00287455782E+00
2.54132681409E+06	-8.97068665104E+00	1.72147926403E+02	2.50389255738E+01	1.36168677288E+02	-4.36118315812E+01	-3.24772822320E+01	-5.97142281139E+00	-7.89652762166E-01
2.56351816869E+06	-1.32262105647E+01	-1.64087444704E+02	2.50594683783E+01	1.35795970983E+02	-5.06619589700E+01	-1.73285280671E+02	-5.82896774888E+00	-1.37771785923E+00
2.58570952328E+06	-1.34665999207E+01	-1.74704005161E+02	2.50322759751E+01	1.35648482155E+02	-4.34275149937E+01	1.21585329448E+02	-5.85195063025E+00	-2.24813093407E+00
2.60790087788E+06	-1.29290089725E+01	-1.52813801112E+02	2.50402659428E+01	1.35051519575E+02	-4.82268552087E+01	1.45345307923E+02	-5.81032375936E+00	-1.59910195692E+00
2.63009223247E+06	-1.23368362766E+01	-1.51616895901E+02	2.50104739732E+01	1.34743098976E+02	-5.02533331391E+01	-5.13769547575E+01	-5.89505919616E+00	-4.82087593124E-01
2.65228358707E+06	-1.38850533289E+01	-1.69016022212E+02	2.49617706514E+01	1.34551426824E+02	-4.31727802813E+01	-6.16178852584E+01	-5.88572785374E+00	-6.80927829026E-01
2.67447494166E+06	-1.32175082308E+01	-1.51915288671E+02	2.49753204092E+01	1.34058634410E+02	-5.19209449163E+01	1.14240339761E+02	-5.84654410090E+00	-1.76461628038E+00
2.69666629626E+06	-1.33634789038E+01	-1.60479188319E+02	2.49277946633E+01	1.33735334281E+02	-5.38009193627E+01	-5.20467342496E+01	-5.91334802555E+00	-1.06718955422E+00
2.71885765085E+06	-1.56519725411E+01	-1.63545755649E+02	2.49156116065E+01	1.33574341412E+02	-5.26834941387E+01	3.42661127750E+01	-5.93593137480E+00	-1.31410680611E+00
2.74104900545E+06	-1.34795364570E+01	-1.57157614096E+02	2.49031092444E+01	1.33266631112E+02	-5.88467195787E+01	-1.22158938134E+02	-5.85634296088E+00	-1.45858939526E+00
2.76324036004E+06	-1.24917874370E+01	-1.67366465777E+02	2.48319049156E+01	1.32681311896E+02	-5.28692347338E+01	-5.00665209408E+01	-5.88304064710E+00	-1.39158992436E+00
2.78543171463E+06	-1.49004749387E+01	-1.71052026188E+02	2.48481524428E+01	1.32558955748E+02	-5.71172152234E+01	9.90888999740E+01	-5.85854770473E+00	-1.90889812074E+00
2.80762306923E+06	-1.21852828555E+01	-1.56198303770E+02	2.48114238607E+01	1.31830044541E+02	-4.10356777178E+01	6.69046950153E+01	-6.00482216366E+00	-1.79324490434E+00
2.82981442382E+06	-1.26876528787E+01	-1.79401258257E+02	2.47739825477E+01	1.31840803705E+02	-4.74466427844E+01	4.08726739349E+00	-5.93746880377E+00	-1.53358579769E+00
2.85200577842E+06	-1.33037424427E+01	-1.79144673740E+02	2.47466091916E+01	1.31459014085E+02	-5.25868776382E+01	4.80646718375E+01	-5.95220868502E+00	-1.73136841444E+00
2.87419713301E+06	-1.25426472089E+01	-1.65768996643E+02	2.47446959647E+01	1.31187922615E+02	-5.01602546917E+01	1.79002068668E+02	-5.84664175179E+00	-1.64190479375E+00
