# Hz S DB R 50
! CMT, M5065, 19127446, 24.2.4/2
! Date: 11/8/2024 5:09:55 PM
! Data: Format (Calibration Info)
! Freq	S11:dB/Ang(F2)	S21:dB/Ang(F2)	S12:dB/Ang(F2)	S22:dB/Ang(F2)
3.00000000000E+05	-1.24256909727E+01	1.65211721100E+02	9.52138198878E+00	-1.77308869693E+02	-4.33134500124E+01	5.25395819196E+01	-5.86070981645E+00	-3.25037118125E-01
3.22191354595E+05	-1.05635591254E+01	-1.61383714345E+02	9.50477596460E+00	-1.78052468002E+02	-4.33896755490E+01	-1.54143213817E+02	-5.82250637466E+00	-3.95969338160E-01
3.44382709190E+05	-1.59027323742E+01	-1.76762917192E+02	9.56223614467E+00	-1.78032806645E+02	-4.30015775381E+01	1.25992025080E+02	-5.85999820194E+00	-2.44249031944E-01
3.66574063785E+05	-1.29004655945E+01	-1.70619953966E+02	9.49693613161E+00	-1.78480761125E+02	-4.29847341944E+01	1.38128472383E+02	-5.87710389783E+00	-4.76301366904E-01
3.88765418380E+05	-1.50721951745E+01	-1.73741927163E+02	9.51983484854E+00	-1.78603625910E+02	-7.06666110683E+01	-8.41876048261E+01	-5.90146561452E+00	-4.64210023324E-01
4.10956772975E+05	-1.39023658213E+01	-1.74265009777E+02	9.56190713418E+00	-1.79007888632E+02	-4.16589350176E+01	-1.26921308389E+02	-5.86481127477E+00	-1.88013142577E-01
4.33148127570E+05	-1.63464757857E+01	-1.73568236180E+02	9.55916163955E+00	-1.79441577313E+02	-5.57831461877E+01	1.74823907784E+01	-5.85283035260E+00	-4.01731867546E-01
4.55339482165E+05	-1.54287808541E+01	-1.72408016600E+02	9.55647867270E+00	-1.79602997803E+02	-4.83677537310E+01	1.78657239645E+02	-5.87431518526E+00	-2.97919104108E-01
4.77530836760E+05	-9.97858157203E+00	1.72791870486E+02	9.50877803045E+00	-1.79992468421E+02	-4.36251661782E+01	-3.46569645659E+01	-5.85815707012E+00	-4.55605733606E-01
4.99722191355E+05	-1.33969837547E+01	1.73181799538E+02	9.54347879134E+00	1.79976471996E+02	-6.09956503857E+01	-1.76206645982E+02	-5.85119253277E+00	-5.31296694254E-01
5.21913545950E+05	-1.14870422993E+01	1.66577878729E+02	9.52816962183E+00	1.79901885937E+02	-4.16011016163E+01	2.06244541765E+01	-5.86973606207E+00	-3.53492947342E-01
5.44104900545E+05	-1.44115868254E+01	1.63868492701E+02	9.54689600043E+00	1.79763924628E+02	-4.79342003889E+01	-7.25029102289E+01	-5.86286354048E+00	-3.07965919576E-01
5.66296255139E+05	-1.42018027635E+01	1.76243455185E+02	9.54456850856E+00	1.79378897896E+02	-4.27632128649E+01	-6.95675190976E+01	-5.86650890267E+00	-1.24008069401E-01
5.88487609734E+05	-1.23502215030E+01	-1.74440132326E+02	9.56653854431E+00	1.79147787702E+02	-4.62008352327E+01	3.56395780325E+01	-5.85483046742E+00	-5.68577156080E-01
6.10678964329E+05	-1.32034185869E+01	1.77972426037E+02	9.54931751034E+00	1.79036086674E+02	-4.62008538468E+01	4.88171555231E+01	-5.87756459362E+00	1.59486777276E-01
6.32870318924E+05	-1.62681082572E+01	1.47332492172E+02	9.56490647182E+00	1.79051902125E+02	-4.55785423192E+01	-9.37370470910E+00	-5.88424138463E+00	-2.20146578245E-01
6.55061673519E+05	-1.21094218646E+01	-1.75432869073E+02	9.56380592751E+00	1.78697612173E+02	-4.36147822210E+01	-4.20107775531E+01	-5.87969315450E+00	-2.92724054448E-01
6.77253028114E+05	-1.29490672318E+01	1.73844770278E+02	9.57952833875E+00	1.78632889819E+02	-3.86862342077E+01	1.26413025683E+02	-5.84659741221E+00	-6.37895095824E-01
6.99444382709E+05	-1.75533221184E+01	-1.78945821319E+02	9.63192971191E+00	1.78349319910E+02	-4.43420890573E+01	-1.73675451026E+01	-5.89126892170E+00	-4.36203354984E-01
7.21635737304E+05	-1.60756411063E+01	-1.79724748544E+02	9.57835536592E+00	1.78260721745E+02	-4.12782461453E+01	1.55390487362E+02	-5.86732399042E+00	-3.38272540118E-01
7.43827091899E+05	-1.38174690392E+01	1.78981816640E+02	9.53575966040E+00	1.78030128980E+02	-5.05395681243E+01	1.02339367548E+02	-5.86492006151E+00	-3.26700057552E-01
7.66018446494E+05	-1.19969191848E+01	-1.69600188433E+02	9.53822233080E+00	1.77579793138E+02	-4.89609109802E+01	1.68897592690E+02	-5.84679792687E+00	-4.35820229836E-01
7.88209801089E+05	-1.35163599057E+01	-1.70677167853E+02	9.56647688871E+00	1.77665444371E+02	-3.64484104712E+01	7.78540798739E+01	-5.85487197511E+00	-6.43981453511E-01
8.10401155684E+05	-1.54124668467E+01	-1.59662892623E+02	9.57272435128E+00	1.77683616324E+02	-4.43555168058E+01	-1.24783449032E+02	-5.87749353243E+00	-3.20808412322E-01
8.32592510279E+05	-1.65143584656E+01	-1.58464775351E+02	9.59038384949E+00	1.77249920715E+02	-5.03431139100E+01	1.38189136160E+02	-5.86429360718E+00	-4.75832301674E-01
8.54783864874E+05	-1.33294649205E+01	-1.79779941361E+02	9.55732908802E+00	1.77397635558E+02	-4.53143820729E+01	1.07743339811E+02	-5.86011584623E+00	-6.37822111993E-01
8.76975219469E+05	-1.49607066256E+01	-1.61709998214E+02	9.57709925486E+00	1.77231214437E+02	-4.01345474876E+01	-1.18041558755E+01	-5.91499578996E+00	-4.10549244488E-01
8.99166574064E+05	-1.59770614218E+01	1.74388563490E+02	9.54639217515E+00	1.77195816323E+02	-4.62867916750E+01	8.65883212810E+01	-5.88056830746E+00	-5.74394264370E-01
9.21357928659E+05	-1.06842880160E+01	-1.69609216876E+02	9.53343615876E+00	1.76536785209E+02	-4.28251665719E+01	-9.02545914378E+01	-5.86708863302E+00	-4.30878720608E-01
9.43549283254E+05	-1.29325889238E+01	-1.66843842278E+02	9.54182026756E+00	1.76558048136E+02	-5.58791493353E+01	1.09779817846E+02	-5.90659949046E+00	-6.38379163760E-01
9.65740637849E+05	-1.66835662187E+01	-1.69472930069E+02	9.53912457729E+00	1.76698818611E+02	-4.15111459414E+01	-3.83358990340E+01	-5.88489744526E+00	-6.21521995514E-01
9.87931992444E+05	-1.36863188521E+01	-1.70695595928E+02	9.55001721717E+00	1.76477856104E+02	-4.10733442017E+01	9.35660650571E+01	-5.85610856427E+00	-5.79538230863E-01
1.01012334704E+06	-1.06363462591E+01	-1.67170119726E+02	9.54326630364E+00	1.75845183898E+02	-4.39118771704E+01	1.53770571770E+02	-5.87304095375E+00	-6.68157434762E-01
1.03231470163E+06	-1.40728962367E+01	-1.74144837354E+02	9.54809792752E+00	1.76134502233E+02	-4.43916420134E+01	-1.77430070242E+01	-5.88821759749E+00	-4.93521349095E-01
1.05450605623E+06	-1.37537822046E+01	-1.79586661348E+02	9.54624901496E+00	1.75900349230E+02	-6.01196761377E+01	-1.91006489830E+01	-5.87753286590E+00	-6.41426257158E-01
1.07669741082E+06	-1.24999436568E+01	-1.58030918177E+02	9.73826986472E+00	1.75516155549E+02	-4.16426567496E+01	1.09498649294E+02	-5.88981946850E+00	-7.20986419887E-01
1.09888876542E+06	-1.46292246258E+01	-1.74271441478E+02	9.59901325195E+00	1.75858727820E+02	-4.45953110134E+01	1.66432380172E+02	-5.87224279171E+00	-5.76558866186E-01
1.12108012001E+06	-1.30826841683E+01	1.73653974586E+02	9.57397022971E+00	1.75726430815E+02	-4.61381764583E+01	-1.21981849288E+02	-5.85827008960E+00	-6.44767797964E-01
1.14327147461E+06	-1.42037296237E+01	-1.52908017034E+02	9.61254419142E+00	1.75199222496E+02	-3.84155862417E+01	1.79495565643E+02	-5.85631082795E+00	-5.55087601362E-01
1.16546282920E+06	-1.39662672514E+01	1.62007641753E+02	9.56279132389E+00	1.75712057061E+02	-4.29842402098E+01	-1.16154700594E+02	-5.85936784708E+00	-5.28035200258E-01
1.18765418380E+06	-1.22538775851E+01	1.75522219309E+02	9.48743857913E+00	1.75402020162E+02	-5.45451263553E+01	-6.70881795421E+01	-5.88163598442E+00	-4.79101283705E-01
1.20984553839E+06	-1.67773888985E+01	-1.77568087765E+02	9.59758835132E+00	1.75230099092E+02	-4.00431557102E+01	2.80414527877E+01	-5.88090377729E+00	-9.20979131643E-01
1.23203689299E+06	-1.63437689965E+01	-1.60800052330E+02	9.57691052904E+00	1.74902428784E+02	-5.44060816228E+01	-1.41635895455E+02	-5.86454297591E+00	-4.07140785293E-01
1.25422824758E+06	-1.18069061451E+01	-1.72552616977E+02	9.57192957222E+00	1.74798870288E+02	-4.48262417220E+01	-2.79715883793E+01	-5.86579371159E+00	-7.29926955896E-01
1.27641960218E+06	-1.71112274836E+01	-1.60994361100E+02	9.56352556789E+00	1.74745333127E+02	-4.94543893173E+01	-1.25960505631E+02	-5.85234386044E+00	-5.58436914384E-01
1.29861095677E+06	-1.43342837332E+01	-1.75959207957E+02	9.57914011830E+00	1.74719297229E+02	-5.83070371288E+01	1.23029303000E+02	-5.87281421896E+00	-6.12409985883E-01
1.32080231137E+06	-1.68211624755E+01	1.78689950469E+02	9.58378645829E+00	1.74484088676E+02	-3.80270623492E+01	-9.40396910207E+01	-5.89292255438E+00	-7.52257066748E-01
1.34299366596E+06	-1.82871596941E+01	-1.70402124115E+02	9.58006770451E+00	1.74334297844E+02	-3.91868943410E+01	7.47037358562E+01	-5.88857480784E+00	-8.58146844309E-01
1.36518502056E+06	-1.21561154079E+01	1.68141933534E+02	9.54597092845E+00	1.74367668854E+02	-4.55827085499E+01	8.83887755353E+01	-5.86375740507E+00	-7.95921273597E-01
1.38737637515E+06	-1.13962685788E+01	1.72159217733E+02	9.56096818692E+00	1.74047356551E+02	-4.77593818850E+01	-4.82110727185E+01	-5.88632662064E+00	-6.24586750113E-01
1.40956772975E+06	-8.99504941505E+00	-1.59418614291E+02	9.55635967383E+00	1.73939453447E+02	-4.89611326198E+01	3.87038506850E+01	-5.88460851071E+00	-8.04404462278E-01
1.43175908434E+06	-1.21067243406E+01	-1.74795032054E+02	9.52987627854E+00	1.73597856835E+02	-4.52847193482E+01	-3.25632315863E+00	-5.88407475900E+00	-7.91667980301E-01
1.45395043894E+06	-1.31043880888E+01	1.69162256675E+02	9.54471853385E+00	1.73994775344E+02	-3.85848411658E+01	-3.87897355756E+01	-5.90418876977E+00	-7.80260681789E-01
1.47614179353E+06	-1.24769759054E+01	-1.45025198653E+02	9.58179137884E+00	1.73370933536E+02	-3.83847117643E+01	-8.26168445802E+01	-5.89888664895E+00	-7.41595339439E-01
1.49833314813E+06	-1.27136237833E+01	-1.50505610007E+02	9.57763803245E+00	1.73399774545E+02	-5.60214058589E+01	1.83069734549E+00	-5.89305444185E+00	-8.37148653992E-01
1.52052450272E+06	-1.07255951035E+01	-1.47091730518E+02	9.61053475812E+00	1.73009989555E+02	-4.50518726990E+01	8.57041675712E+01	-5.89602798532E+00	-8.78714469296E-01
1.54271585732E+06	-1.05068413601E+01	-1.65135211392E+02	9.54555695397E+00	1.73174790986E+02	-3.91747693661E+01	1.46971869098E+02	-5.85003309954E+00	-9.98630558907E-01
1.56490721191E+06	-1.35701501676E+01	-1.64080834499E+02	9.57931782721E+00	1.72956055179E+02	-5.37353039526E+01	-1.41371790291E+02	-5.88358609942E+00	-8.93358827338E-01
1.58709856651E+06	-1.68033568658E+01	1.71702946654E+02	9.56858239553E+00	1.73317151296E+02	-6.20458442151E+01	-1.76964292579E+02	-5.86156807819E+00	-7.59674880706E-01
1.60928992110E+06	-1.71685018011E+01	-1.63054549202E+02	9.58620056640E+00	1.73096830474E+02	-3.89493626872E+01	-4.81791681029E+01	-5.91878502470E+00	-8.74167391303E-01
1.63148127570E+06	-1.23185147781E+01	-1.63608774114E+02	9.54082437450E+00	1.72693401292E+02	-6.14847334726E+01	6.99847137382E+01	-5.87833801922E+00	-8.54966012390E-01
1.65367263029E+06	-1.32790727866E+01	-1.58512060185E+02	9.61820603554E+00	1.72351750939E+02	-4.66299811739E+01	-1.63902175169E+02	-5.86447438901E+00	-8.03363982881E-01
1.67586398489E+06	-1.42588069396E+01	-1.76313476713E+02	9.56807657898E+00	1.72804505535E+02	-3.92637371811E+01	3.66542953785E+01	-5.88892806553E+00	-8.85148937467E-01
1.69805533948E+06	-1.51020758116E+01	1.77928953067E+02	9.59707254107E+00	1.72740235644E+02	-4.55834026677E+01	-6.17339033894E+01	-5.89545992504E+00	-8.85997911472E-01
1.72024669408E+06	-2.03205857515E+01	-1.52361618482E+02	9.62014104017E+00	1.72448047616E+02	-4.38492755577E+01	1.22979119864E+02	-5.85037473707E+00	-9.97501103070E-01
1.74243804867E+06	-1.13288383126E+01	-1.72037847908E+02	9.56545325266E+00	1.72193353457E+02	-4.55096155007E+01	-1.19663535622E+02	-5.86136474195E+00	-8.43275047033E-01
1.76462940327E+06	-1.26580053405E+01	-1.60547696563E+02	9.57145773605E+00	1.71972924772E+02	-5.82482599528E+01	-1.21461737658E+02	-5.86927259428E+00	-9.09074572255E-01
1.78682075786E+06	-1.40379192884E+01	-1.66962097200E+02	9.58003188045E+00	1.72063231584E+02	-3.83488982946E+01	-1.93834283152E+01	-5.89096509137E+00	-1.09265751786E+00
1.80901211246E+06	-1.04928928570E+01	-1.75858567982E+02	9.53209139653E+00	1.71935111425E+02	-5.07712751476E+01	7.51135237003E+01	-5.86814161563E+00	-9.03432573377E-01
1.83120346705E+06	-1.52814854078E+01	1.59080068681E+02	9.56944917895E+00	1.72156392002E+02	-4.66989670930E+01	-8.47888742264E+00	-5.89058780522E+00	-1.08824085498E+00
1.85339482165E+06	-1.31376749304E+01	-1.73450763089E+02	9.56848238976E+00	1.71758397595E+02	-4.30541841829E+01	1.21108995370E+02	-5.86002687199E+00	-9.40348183276E-01
1.87558617624E+06	-1.76643591013E+01	-1.46238310269E+02	9.63851447813E+00	1.71670521664E+02	-4.05347946381E+01	1.22724803803E+02	-5.86271661992E+00	-1.01653835569E+00
1.89777753084E+06	-1.28121707916E+01	-1.70793758962E+02	9.53891445814E+00	1.71300025500E+02	-4.96513852943E+01	4.16882672160E+01	-5.87295889044E+00	-9.04283424085E-01
1.91996888543E+06	-1.44158951076E+01	1.69433880159E+02	9.56888637612E+00	1.71636491919E+02	-4.06709503557E+01	8.49200220982E+01	-5.87031387911E+00	-1.14556266993E+00
1.94216024003E+06	-1.33274209057E+01	-1.58398329044E+02	9.58591091749E+00	1.71128433192E+02	-4.63653613117E+01	1.69245092383E+01	-5.87022024021E+00	-9.06232778859E-01
1.96435159462E+06	-1.23288242968E+01	-1.65949337434E+02	9.54894914045E+00	1.71275121064E+02	-5.94803116331E+01	-1.05891797901E+02	-5.88375512151E+00	-9.24995626313E-01
1.98654294922E+06	-1.34290213947E+01	-1.74682646640E+02	9.56642864004E+00	1.70818456907E+02	-4.21871636895E+01	-3.89838257084E+00	-5.87703799149E+00	-9.59034650090E-01
2.00873430381E+06	-1.42552715952E+01	-1.70086386357E+02	9.57932180294E+00	1.71158991875E+02	-4.57350491979E+01	-9.11477240851E+01	-5.88983150296E+00	-1.06583404231E+00
2.03092565841E+06	-1.31414388497E+01	1.66087658625E+02	9.55495662588E+00	1.70950263130E+02	-4.77098999384E+01	-1.35921715355E+02	-5.87926024659E+00	-8.11288226413E-01
2.05311701300E+06	-9.60291939025E+00	-1.74992408608E+02	9.57474337695E+00	1.70438185347E+02	-4.23493580568E+01	-1.13990872782E+02	-5.86965594827E+00	-1.01987289342E+00
2.07530836760E+06	-1.58739501699E+01	-1.76408255058E+02	9.60909438382E+00	1.70812871786E+02	-3.96210153857E+01	1.52699211457E+01	-5.89731845996E+00	-1.32336984239E+00
2.09749972219E+06	-1.42866676226E+01	-1.69097804038E+02	9.59581218861E+00	1.70630813326E+02	-4.30292283198E+01	1.44173214273E+02	-5.85478979096E+00	-1.16769876997E+00
2.11969107679E+06	-1.54631889861E+01	-1.57635434205E+02	9.61090208507E+00	1.70636545434E+02	-4.61225204311E+01	-1.05670015782E+02	-5.87933006916E+00	-1.00343270333E+00
2.14188243138E+06	-1.51738139854E+01	-1.50389709070E+02	9.60465655472E+00	1.70090633150E+02	-5.58563766279E+01	7.83050784633E-01	-5.89201448710E+00	-1.14992829775E+00
2.16407378598E+06	-1.38176153356E+01	-1.67328073432E+02	9.58363294398E+00	1.70048835741E+02	-4.45645074136E+01	3.34667034201E+01	-5.88298517598E+00	-1.27112757436E+00
2.18626514057E+06	-1.12124404156E+01	1.41245426480E+02	9.54302558042E+00	1.70294832930E+02	-4.89703310141E+01	-1.36728431498E+02	-5.88411781188E+00	-1.07683935255E+00
2.20845649517E+06	-1.17863651332E+01	-1.66307239439E+02	9.57922970482E+00	1.69842038965E+02	-4.10614301848E+01	-6.77065592555E+01	-5.89301743046E+00	-9.98530141287E-01
2.23064784976E+06	-1.29346006113E+01	-1.60926024619E+02	9.59633725535E+00	1.69726378940E+02	-3.98769218344E+01	2.89400603488E+00	-5.90034780874E+00	-1.30988593730E+00
2.25283920436E+06	-1.14579275205E+01	-1.54601416150E+02	9.57951978895E+00	1.69481700428E+02	-3.47396506064E+01	1.00482035254E+02	-5.81209752074E+00	-1.37177432969E+00
2.27503055895E+06	-1.47182324623E+01	1.74681822599E+02	9.60129370437E+00	1.69757454562E+02	-3.92452840454E+01	1.48268011484E+02	-5.83867431116E+00	-1.22859059944E+00
2.29722191355E+06	-1.30521263946E+01	-1.65378065020E+02	9.59867173558E+00	1.69332999444E+02	-5.44016855967E+01	1.12674192664E+02	-5.87935222010E+00	-1.24249699953E+00
2.31941326814E+06	-1.36768512623E+01	1.78933382357E+02	9.60979695858E+00	1.69506035640E+02	-5.06010965969E+01	1.57389825269E+02	-5.86722428588E+00	-1.19083689565E+00
2.34160462274E+06	-1.29719937335E+01	1.73423846852E+02	9.56558852582E+00	1.69268060090E+02	-4.78361569823E+01	-1.45339062515E+01	-5.87055053220E+00	-1.16296187029E+00
2.36379597733E+06	-1.77606003846E+01	1.65017536588E+02	9.55806545667E+00	1.69423226448E+02	-4.36158028304E+01	7.21605728821E+01	-5.89627372659E+00	-1.25587941437E+00
2.38598733193E+06	-1.23937631755E+01	-1.42320882178E+02	9.63111330913E+00	1.68860522426E+02	-5.97697328284E+01	5.17866522533E+01	-5.88189500032E+00	-1.30378395281E+00
2.40817868652E+06	-1.40600467817E+01	-1.69448828498E+02	9.60398590111E+00	1.68877118104E+02	-3.69217369866E+01	-1.17959506132E+02	-5.88473738249E+00	-1.17183979639E+00
2.43037004112E+06	-1.35140374223E+01	-1.75349669681E+02	9.58819713733E+00	1.68806621473E+02	-4.99017675642E+01	-4.53263863068E+01	-5.87521977860E+00	-1.48757080504E+00
2.45256139571E+06	-1.52202770006E+01	-1.74550906639E+02	9.58339889385E+00	1.68928071472E+02	-4.72698864062E+01	-8.15947941409E+01	-5.89084608290E+00	-1.22551786308E+00
2.47475275031E+06	-1.86937288431E+01	-1.50945557881E+02	9.67694957230E+00	1.68604872973E+02	-4.47348578987E+01	-9.16338278763E+01	-5.87864627836E+00	-1.07317386874E+00
2.49694410490E+06	-1.45799387588E+01	-1.64185889159E+02	9.60448905130E+00	1.68538096657E+02	-6.03392175248E+01	-1.39533310319E+02	-5.86506305986E+00	-1.19824543269E+00
2.51913545950E+06	-1.02886155254E+01	-1.71532964133E+02	9.57936435333E+00	1.68532548165E+02	-5.14211662620E+01	-8.17377073774E+01	-5.88692985257E+00	-1.17706154953E+00
2.54132681409E+06	-1.40014365229E+01	-1.58497952765E+02	9.63945019698E+00	1.68332778258E+02	-4.60430360359E+01	-3.09803234460E+01	-5.88318768137E+00	-1.17969325369E+00
2.56351816869E+06	-1.26127088924E+01	-1.78938284514E+02	9.58426618905E+00	1.68171011967E+02	-3.54827538723E+01	8.53980011855E+01	-5.87925768583E+00	-1.48517272062E+00
2.58570952328E+06	-1.20345506241E+01	-1.55780639647E+02	9.61142662173E+00	1.67946249369E+02	-4.05222094874E+01	8.21606252613E+01	-5.87466505711E+00	-1.38131572394E+00
2.60790087788E+06	-1.38949069303E+01	-1.62166167312E+02	9.59537005719E+00	1.67904488455E+02	-4.96841775932E+01	-1.41631033781E+02	-5.90348524585E+00	-1.10996733397E+00
2.63009223247E+06	-1.46878415619E+01	-1.58927546068E+02	9.62103513862E+00	1.67853677792E+02	-4.94387620140E+01	4.05450727831E+01	-5.87209076170E+00	-1.13155673106E+00
2.65228358707E+06	-1.16459569206E+01	-1.63606320585E+02	9.63063005726E+00	1.67641371966E+02	-6.54042111322E+01	-1.06247037835E+02	-5.87979845631E+00	-1.18324429986E+00
2.67447494166E+06	-1.45989483502E+01	-1.65830681533E+02	9.62159612691E+00	1.67736234526E+02	-4.44971123076E+01	-7.38675025019E+01	-5.88331512200E+00	-1.24426108615E+00
2.69666629626E+06	-1.15721398932E+01	-1.51448571307E+02	9.64869156117E+00	1.67194450037E+02	-4.95898689294E+01	-1.04369405806E+02	-5.87432353335E+00	-1.33641286116E+00
2.71885765085E+06	-1.22526107304E+01	-1.74641888329E+02	9.57185967714E+00	1.67249683814E+02	-3.88353009107E+01	-2.60099377447E+01	-5.88105125255E+00	-1.53920285939E+00
2.74104900545E+06	-1.09612257163E+01	-1.72813496956E+02	9.59091119935E+00	1.67241330337E+02	-4.96303471476E+01	-1.55473349549E+02	-5.88221433602E+00	-1.15713632306E+00
2.76324036004E+06	-1.25368360116E+01	-1.62220608059E+02	9.62709133648E+00	1.67071428694E+02	-4.54081870093E+01	9.06789346805E+01	-5.87638207109E+00	-1.63344493627E+00
2.78543171463E+06	-1.04518772468E+01	-1.69198119783E+02	9.58778600862E+00	1.66922733417E+02	-4.14053877963E+01	1.16972361371E+02	-5.86229301482E+00	-1.51269258121E+00
2.80762306923E+06	-1.49532848006E+01	-1.74497609210E+02	9.61119915443E+00	1.67013048107E+02	-4.61042149123E+01	9.14096082506E+01	-5.89439307372E+00	-1.43031766192E+00
2.82981442382E+06	-1.18340950793E+01	-1.71807313654E+02	9.62327216497E+00	1.66592268708E+02	-4.50815362737E+01	-1.70689964064E+02	-5.87310777949E+00	-1.23394981379E+00
2.85200577842E+06	-1.33433388810E+01	-1.52543792504E+02	9.66775139850E+00	1.66652280625E+02	-4.02361657649E+01	-1.79372550672E+02	-5.85281351882E+00	-1.38120235804E+00
2.87419713301E+06	-1.31722357350E+01	-1.59864022024E+02	9.64361399777E+00	1.66478365224E+02	-5.45822148310E+01	-6.95987673598E+01	-5.86073361771E+00	-1.51988454818E+00
