# Hz S DB R 50
! CMT, M5065, 19127446, 24.2.4/2
! Date: 11/8/2024 4:53:52 PM
! Data: Format (Calibration Info)
! Freq	S11:dB/Ang(F2)	S21:dB/Ang(F2)	S12:dB/Ang(F2)	S22:dB/Ang(F2)
3.00000000000E+05	-1.15225861083E+01	-1.61784024724E+02	5.93702063503E+00	-1.77794953258E+02	-4.00315934865E+01	-7.16597512998E+01	-5.89261617174E+00	-2.29503055661E-01
3.22191354595E+05	-1.69794307724E+01	-1.77885702393E+02	6.00219312577E+00	-1.77760768025E+02	-4.37650803274E+01	1.12255623944E+02	-5.85898582184E+00	-4.45765748163E-01
3.44382709190E+05	-1.49263415566E+01	1.48996620260E+02	6.00012982436E+00	-1.77877292910E+02	-4.01994091535E+01	5.93333613193E+01	-5.87812599554E+00	-1.65460197769E-01
3.66574063785E+05	-1.35598340912E+01	-1.62027010563E+02	5.98365679496E+00	-1.78442024934E+02	-5.42591839909E+01	1.46696910223E+02	-5.88003299838E+00	-1.65513906882E-01
3.88765418380E+05	-1.37252219655E+01	-1.75055566478E+02	5.92765459021E+00	-1.78176886875E+02	-4.45843973761E+01	-1.28187578072E+02	-5.91587585346E+00	-3.00676126306E-01
4.10956772975E+05	-1.28593930616E+01	-1.78736373210E+02	5.94131870739E+00	-1.79082572774E+02	-5.31737260897E+01	6.10467340622E+01	-5.87192092888E+00	-2.79327733141E-01
4.33148127570E+05	-1.48155730915E+01	-1.53507575912E+02	5.97528748490E+00	-1.79239878577E+02	-5.06986816583E+01	-3.43455537318E+01	-5.85638070067E+00	-2.96554214318E-01
4.55339482165E+05	-1.09371694219E+01	-1.69183757178E+02	5.94088745663E+00	-1.79443654509E+02	-4.62278950322E+01	1.60983939548E+02	-5.86850628242E+00	-4.32194994867E-01
4.77530836760E+05	-1.19681114659E+01	-1.60610886538E+02	5.99617532465E+00	-1.79740998218E+02	-3.73939132860E+01	6.42295704636E+01	-5.85764650274E+00	-4.41798602947E-01
4.99722191355E+05	-1.23496758033E+01	-1.72904655599E+02	5.96718631012E+00	-1.79912123967E+02	-4.33895681053E+01	-7.86709665766E+01	-5.86099785697E+00	-2.30660837862E-01
5.21913545950E+05	-1.44452470605E+01	-1.74755117442E+02	5.96128084592E+00	1.79844850083E+02	-4.94078534001E+01	1.58699769966E+02	-5.86600605381E+00	-4.53357088462E-01
5.44104900545E+05	-1.39608968877E+01	-1.73606185038E+02	5.93565538143E+00	1.79964618014E+02	-5.16018228365E+01	-9.02375192611E+01	-5.86713861509E+00	-3.19668503708E-01
5.66296255139E+05	-1.42492227189E+01	-1.62727126353E+02	5.94397376528E+00	1.79672606560E+02	-4.40381038918E+01	-8.50064962496E+01	-5.89164873618E+00	-3.53943746563E-01
5.88487609734E+05	-1.39598460111E+01	-1.57139463095E+02	6.02281163281E+00	1.79434246370E+02	-4.59625696404E+01	1.67397927197E+02	-5.87298300922E+00	-5.36722238804E-01
6.10678964329E+05	-1.23483791713E+01	1.68891366822E+02	5.96969825081E+00	1.79454863678E+02	-4.90086082735E+01	1.00357011883E+02	-5.87269104770E+00	6.90679344726E-02
6.32870318924E+05	-1.44577968602E+01	-1.66413211457E+02	5.97576672864E+00	1.79136736994E+02	-3.81874746234E+01	3.67240249738E+01	-5.88316220870E+00	-2.55380005086E-01
6.55061673519E+05	-1.24423637496E+01	-1.75990303467E+02	5.97879468597E+00	1.79092029117E+02	-5.10095284685E+01	1.72257172191E+01	-5.87039487621E+00	-3.88007486213E-01
6.77253028114E+05	-1.25024114886E+01	-1.54840402286E+02	5.96620110276E+00	1.78795565996E+02	-4.20266026401E+01	2.71882138738E+01	-5.88092112878E+00	-7.90731133539E-01
6.99444382709E+05	-1.46648590163E+01	-1.60387639208E+02	6.00239111488E+00	1.78642403881E+02	-4.71220612754E+01	1.46991232983E+02	-5.84632861685E+00	-5.19980636073E-01
7.21635737304E+05	-1.64246159419E+01	1.70765760358E+02	5.97578082257E+00	1.78592997343E+02	-3.84883709067E+01	1.11278180567E+02	-5.85420618515E+00	-5.22087440049E-01
7.43827091899E+05	-1.52425820470E+01	-1.73584544056E+02	5.96469737676E+00	1.78684901478E+02	-5.10483261828E+01	-1.73107566325E+02	-5.86315555210E+00	-4.40969789184E-01
7.66018446494E+05	-1.37552675196E+01	-1.45386141348E+02	5.99763068564E+00	1.78448831367E+02	-4.69945928061E+01	-1.33442311440E+02	-5.87598437098E+00	-3.03917633186E-01
7.88209801089E+05	-1.17592203342E+01	-1.74745780062E+02	5.93061729396E+00	1.77967109089E+02	-4.16696793952E+01	-9.41311840010E+01	-5.87648847059E+00	-4.22000713910E-01
8.10401155684E+05	-1.28081711544E+01	1.78090293588E+02	5.92954513639E+00	1.77886517669E+02	-3.93077099873E+01	-1.16374266652E+02	-5.86298516778E+00	-3.61201121532E-01
8.32592510279E+05	-1.35316614125E+01	-1.73317731711E+02	5.96424638201E+00	1.77908576890E+02	-5.18753500914E+01	8.64427336998E+01	-5.89361289716E+00	-5.15792416085E-01
8.54783864874E+05	-1.19879488426E+01	-1.60864255173E+02	5.99041898584E+00	1.77589092470E+02	-5.09828694565E+01	2.62484013481E+01	-5.86506321832E+00	-4.91355571683E-01
8.76975219469E+05	-1.29845611327E+01	-1.65514738456E+02	5.98970966942E+00	1.77483763291E+02	-4.54427537315E+01	5.77589607249E+01	-5.85729808459E+00	-4.01433297415E-01
8.99166574064E+05	-1.54982456852E+01	-1.78670228728E+02	6.00233772551E+00	1.77590244182E+02	-5.09202229813E+01	-1.56622546349E+02	-5.86226720012E+00	-4.31600569395E-01
9.21357928659E+05	-1.23407975703E+01	-1.52167592839E+02	5.98775141585E+00	1.77420385189E+02	-4.14476164927E+01	-5.00847013197E+01	-5.89212743498E+00	-4.20969479747E-01
9.43549283254E+05	-1.93118567109E+01	1.60946353567E+02	6.01498759033E+00	1.77572571792E+02	-4.40865923113E+01	1.28626754463E+01	-5.88006705824E+00	-6.16421899322E-01
9.65740637849E+05	-1.59001833056E+01	1.64751576501E+02	5.99842217938E+00	1.77729144005E+02	-4.45620863945E+01	-3.48455235756E+01	-5.86730204211E+00	-4.98476504064E-01
9.87931992444E+05	-1.60746494813E+01	-1.74968834688E+02	5.99979762858E+00	1.77178214495E+02	-4.31545429621E+01	8.72899592112E+01	-5.87710566252E+00	-5.50215097588E-01
1.01012334704E+06	-1.16292267867E+01	1.51305207018E+02	5.96201463635E+00	1.77250756399E+02	-5.01604956916E+01	-7.11365698645E+01	-5.85526147304E+00	-5.61781648019E-01
1.03231470163E+06	-1.66246259723E+01	1.77898363518E+02	5.96738716587E+00	1.77066069136E+02	-4.00105491039E+01	-7.82508762998E+01	-5.85683090062E+00	-4.68482657651E-01
1.05450605623E+06	-1.50847452852E+01	1.79590958675E+02	5.98455859748E+00	1.76865532024E+02	-4.06825992358E+01	8.25394390219E+00	-5.88590221689E+00	-6.05012845403E-01
1.07669741082E+06	-1.10207610854E+01	-1.51286539340E+02	5.97469603843E+00	1.76586579387E+02	-4.53845237520E+01	-5.85443011876E+01	-5.86781754994E+00	-5.37813067458E-01
1.09888876542E+06	-1.20932783779E+01	-1.72167967412E+02	5.94808189289E+00	1.76575858078E+02	-5.08876024158E+01	-9.98477675468E+01	-5.87885974219E+00	-6.18958541002E-01
1.12108012001E+06	-1.51439854010E+01	-1.42944835063E+02	6.04183771790E+00	1.76356681097E+02	-4.40914949511E+01	-8.46717352762E+01	-5.89124194659E+00	-5.16395024601E-01
1.14327147461E+06	-1.79284776532E+01	-1.66207705882E+02	6.00426827541E+00	1.76369799425E+02	-4.55550340965E+01	-3.19171598963E+01	-5.87781524012E+00	-6.01277690261E-01
1.16546282920E+06	-1.56688756753E+01	-1.77181923445E+02	5.96471973439E+00	1.76580158365E+02	-3.92470795679E+01	3.42224566663E+01	-5.86228739069E+00	-6.90568844036E-01
1.18765418380E+06	-1.26274373270E+01	-1.61036672527E+02	5.99169047896E+00	1.76120865186E+02	-4.38082582980E+01	1.34089063254E+02	-5.86844434064E+00	-6.65081397079E-01
1.20984553839E+06	-1.20543200430E+01	-1.69561015547E+02	5.96958218998E+00	1.76050692154E+02	-5.15363047667E+01	3.98263672819E+01	-5.89099387758E+00	-8.46555417644E-01
1.23203689299E+06	-1.48694761717E+01	-1.71028699466E+02	5.98937582954E+00	1.75931082346E+02	-5.35939009385E+01	6.40173977950E+00	-5.87405494079E+00	-3.52582215042E-01
1.25422824758E+06	-1.64495266341E+01	-1.67570792032E+02	6.01553794473E+00	1.75979533824E+02	-4.25840862582E+01	-3.20235754673E+01	-5.89936189491E+00	-6.73244196846E-01
1.27641960218E+06	-1.19971767939E+01	-1.64309352898E+02	5.93891896535E+00	1.75651875262E+02	-5.43813304708E+01	6.97411982187E+00	-5.87722918254E+00	-5.61720758577E-01
1.29861095677E+06	-1.34855646089E+01	-1.71747281429E+02	5.93278301933E+00	1.75600085174E+02	-4.85514501470E+01	-4.52808577437E+01	-5.86942351414E+00	-5.69774623282E-01
1.32080231137E+06	-1.89137619793E+01	-1.60062875519E+02	6.01276867570E+00	1.75873262367E+02	-4.36165600920E+01	1.71780619092E+02	-5.84980003322E+00	-9.75955863098E-01
1.34299366596E+06	-1.25647910365E+01	-1.77660761995E+02	5.92388254214E+00	1.75630044062E+02	-5.28294278365E+01	1.69898753900E+01	-5.85186608901E+00	-7.52916668652E-01
1.36518502056E+06	-1.58925448505E+01	-1.79195747272E+02	5.99430830665E+00	1.75599747162E+02	-4.38924260943E+01	-9.84371879655E+01	-5.89409272640E+00	-6.41404907091E-01
1.38737637515E+06	-1.82616350067E+01	-1.51221318943E+02	6.03850669568E+00	1.75271436946E+02	-4.55216111175E+01	-4.97773077118E+01	-5.87676145935E+00	-6.47919182491E-01
1.40956772975E+06	-2.78310830025E+01	1.59346404861E+02	6.00070705420E+00	1.75702312540E+02	-4.34039192500E+01	-1.80889834787E+01	-5.88688254840E+00	-6.64089479220E-01
1.43175908434E+06	-1.40763105998E+01	1.74636422357E+02	5.97383906279E+00	1.75320197284E+02	-5.16889510700E+01	-8.86473326178E+01	-5.87980432889E+00	-7.40195668919E-01
1.45395043894E+06	-1.35793583787E+01	-1.72305509877E+02	5.98778061079E+00	1.75005262098E+02	-4.99572699451E+01	-7.82015471485E+01	-5.87300565217E+00	-7.50371043988E-01
1.47614179353E+06	-1.47745621550E+01	-1.64263774110E+02	5.97597493478E+00	1.74738251467E+02	-5.06459847664E+01	2.45959923594E+01	-5.86624543280E+00	-8.36077197681E-01
1.49833314813E+06	-1.65235799238E+01	-1.54153100442E+02	6.03428288162E+00	1.74855029114E+02	-4.13681012400E+01	-1.70509576770E+02	-5.88207312138E+00	-8.06669814718E-01
1.52052450272E+06	-1.53699164357E+01	-1.74184801767E+02	5.95647696747E+00	1.74971175832E+02	-5.93523378653E+01	1.79778846284E+02	-5.85419835854E+00	-8.14726422260E-01
1.54271585732E+06	-1.31335092630E+01	-1.72274382443E+02	5.97685221836E+00	1.74490799720E+02	-3.77543659741E+01	-5.20219948348E+01	-5.89204804214E+00	-7.58001070845E-01
1.56490721191E+06	-1.16043274276E+01	-1.42918161262E+02	6.00804089596E+00	1.74276039441E+02	-3.97852573633E+01	-4.16732363591E+01	-5.89034079710E+00	-7.67503811515E-01
1.58709856651E+06	-1.61451633738E+01	-1.72906630239E+02	5.98209092244E+00	1.74460294672E+02	-3.86924816535E+01	3.69971554555E+01	-5.87020262749E+00	-8.66055810486E-01
1.60928992110E+06	-1.36453480691E+01	-1.71530024823E+02	5.95913066442E+00	1.74130675895E+02	-5.13099479581E+01	-1.67865979089E+02	-5.87371833540E+00	-8.56057133521E-01
1.63148127570E+06	-1.06608263645E+01	-1.53762426912E+02	6.04935773665E+00	1.73796948990E+02	-4.85769421148E+01	-6.26151507984E+01	-5.87530009917E+00	-7.49783793870E-01
1.65367263029E+06	-1.78660079076E+01	1.60666079288E+02	6.01111487836E+00	1.74329252038E+02	-4.85882240853E+01	9.97275519026E+01	-5.89706921123E+00	-8.45550398964E-01
1.67586398489E+06	-1.48465718283E+01	1.74552020837E+02	5.99597407343E+00	1.74010461073E+02	-4.30303505661E+01	-1.01205014593E+02	-5.86399916958E+00	-8.08830879434E-01
1.69805533948E+06	-1.33460279904E+01	1.79605558273E+02	5.99432705488E+00	1.74010357682E+02	-4.50884054048E+01	1.21002774929E+02	-5.87637229951E+00	-8.23606374418E-01
1.72024669408E+06	-1.02408734844E+01	-1.60528451768E+02	6.01564449628E+00	1.73618690892E+02	-5.13198199287E+01	5.60802989069E+01	-5.86553356550E+00	-9.32429241422E-01
1.74243804867E+06	-1.57342428950E+01	1.79997455876E+02	6.01456209862E+00	1.73857730144E+02	-3.49970888552E+01	-1.56982467581E+02	-5.86228245947E+00	-7.08238069803E-01
1.76462940327E+06	-1.59244090776E+01	1.68845462566E+02	5.97779943694E+00	1.73820769850E+02	-4.75743570504E+01	-6.92859231934E+01	-5.87516188943E+00	-9.83178744990E-01
1.78682075786E+06	-1.56820224025E+01	-1.63430589285E+02	6.01806835168E+00	1.73644633127E+02	-4.11437372845E+01	-1.27028204006E+02	-5.85058524610E+00	-8.79970837944E-01
1.80901211246E+06	-1.62098159749E+01	-1.59671888308E+02	6.02214231027E+00	1.73633465165E+02	-5.04928000908E+01	-8.95399829715E+01	-5.88532390164E+00	-8.23609946272E-01
1.83120346705E+06	-1.38521461006E+01	-1.63163783241E+02	5.98951273020E+00	1.73149508368E+02	-4.78847136225E+01	-1.04248408321E+02	-5.86824270177E+00	-9.51788634020E-01
1.85339482165E+06	-1.31976602038E+01	-1.44804300745E+02	6.01743803029E+00	1.73148337235E+02	-4.60574710354E+01	-3.17429435157E+00	-5.89999616660E+00	-8.73365978377E-01
1.87558617624E+06	-1.63057900091E+01	-1.49456894802E+02	5.98414784066E+00	1.73426534536E+02	-5.39779393232E+01	-1.70524425569E+02	-5.85317213995E+00	-1.00859043477E+00
1.89777753084E+06	-1.28727235466E+01	1.79016993686E+02	5.96702622912E+00	1.73021465022E+02	-4.09010671241E+01	8.82987271853E+01	-5.88003377856E+00	-9.93685675575E-01
1.91996888543E+06	-1.83735071016E+01	-1.69175910071E+02	6.02013367704E+00	1.72923376938E+02	-4.86459815927E+01	1.31266401944E+02	-5.86567021022E+00	-1.03609211909E+00
1.94216024003E+06	-1.49231865191E+01	1.73842169431E+02	6.00801480010E+00	1.73431397660E+02	-4.88896851355E+01	-1.20579591684E+02	-5.84591685113E+00	-1.02089542977E+00
1.96435159462E+06	-1.48975524514E+01	-1.76550680985E+02	6.01224005114E+00	1.73048973242E+02	-5.01317909773E+01	-3.79919630480E+01	-5.87751585303E+00	-1.04585184078E+00
1.98654294922E+06	-2.06729426839E+01	1.74666529935E+02	6.03622848909E+00	1.73176310999E+02	-5.22930526260E+01	-9.51765346877E+01	-5.87115423162E+00	-1.03735093445E+00
2.00873430381E+06	-1.92887550991E+01	1.58608698246E+02	5.97438715305E+00	1.72903596897E+02	-4.42847265302E+01	-1.61639213934E+01	-5.89580957816E+00	-9.06817746140E-01
2.03092565841E+06	-3.19324931203E+01	3.39334360414E+01	6.03166566144E+00	1.72825870865E+02	-3.78012292381E+01	2.29819462416E+01	-5.88737466830E+00	-1.10359638466E+00
2.05311701300E+06	-1.30597273213E+01	1.73429588176E+02	5.96834146796E+00	1.72707776848E+02	-4.37317220531E+01	-1.15527611285E+02	-5.86639755822E+00	-9.69023174823E-01
2.07530836760E+06	-1.56427168232E+01	-1.79907501237E+02	6.02338268219E+00	1.72636865855E+02	-4.69586434576E+01	-5.64691720933E+01	-5.88508518245E+00	-1.08795175880E+00
2.09749972219E+06	-1.36593161126E+01	-1.73113128686E+02	5.99137587376E+00	1.72553105584E+02	-4.15320742903E+01	-1.01200434566E+02	-5.86677558797E+00	-8.70985215219E-01
2.11969107679E+06	-1.52257998741E+01	-1.61060230762E+02	6.04673095475E+00	1.72125397172E+02	-3.86858267290E+01	1.62935275555E+02	-5.85843096022E+00	-1.25959974086E+00
2.14188243138E+06	-1.48013517983E+01	-1.77929897458E+02	5.98976446159E+00	1.72339488291E+02	-5.14689712277E+01	-1.56260380104E+02	-5.84771724737E+00	-1.08966802780E+00
2.16407378598E+06	-1.76407887988E+01	1.64692947212E+02	5.99221920156E+00	1.72096643660E+02	-4.77065940478E+01	5.73164111243E+01	-5.87277032851E+00	-1.10846059711E+00
2.18626514057E+06	-9.28347348788E+00	-1.68428753450E+02	5.99650721629E+00	1.71570747842E+02	-3.82396062825E+01	6.62908490596E+01	-5.89239619890E+00	-1.18927599398E+00
2.20845649517E+06	-1.42802220876E+01	-1.58129195630E+02	6.02354180373E+00	1.71823770399E+02	-4.90780112347E+01	-5.40436336887E+01	-5.89048326876E+00	-1.11051314442E+00
2.23064784976E+06	-1.40482914341E+01	-1.53591687035E+02	6.06562054609E+00	1.71702636300E+02	-4.68394733222E+01	1.74536287788E+02	-5.86687870331E+00	-1.03317563305E+00
2.25283920436E+06	-1.30058009548E+01	-1.69037445342E+02	6.02388021335E+00	1.71614494176E+02	-5.38438010636E+01	9.79163487994E+01	-5.87848311655E+00	-1.11833019401E+00
2.27503055895E+06	-1.45019749428E+01	-1.67492549579E+02	6.02380327276E+00	1.71296598482E+02	-5.06276800587E+01	8.55291101057E+00	-5.87535588579E+00	-1.08573322741E+00
2.29722191355E+06	-1.55946615359E+01	-1.63459659770E+02	6.03537136400E+00	1.71393918308E+02	-4.97293143702E+01	-7.12624446260E+01	-5.89218707501E+00	-1.26509662699E+00
2.31941326814E+06	-1.37174705143E+01	1.76352008270E+02	5.98317157250E+00	1.71249501740E+02	-5.07268762334E+01	1.03954862357E+02	-5.87476119821E+00	-1.23837517417E+00
2.34160462274E+06	-1.45263730857E+01	-1.47271364658E+02	6.04970309656E+00	1.71182779347E+02	-5.11024432307E+01	-1.58400144363E+02	-5.84839086762E+00	-1.09607429546E+00
2.36379597733E+06	-1.63010800723E+01	1.74149467360E+02	6.02076939583E+00	1.71220727337E+02	-3.16875926972E+01	-8.08785716599E+01	-5.90136004666E+00	-9.64242277780E-01
2.38598733193E+06	-1.12437005759E+01	-1.56089934237E+02	5.96474253081E+00	1.70756789753E+02	-4.51484805325E+01	-5.08426805163E+01	-5.89540411785E+00	-1.15823360690E+00
2.40817868652E+06	-1.09267344765E+01	-1.53968316340E+02	5.97175049591E+00	1.70657219155E+02	-5.48113436382E+01	-9.14719791546E+01	-5.87334863038E+00	-1.40620443512E+00
2.43037004112E+06	-1.28420431703E+01	-1.50846710955E+02	6.03402964110E+00	1.70943669550E+02	-4.75957234742E+01	1.29447656934E+02	-5.87412429791E+00	-1.74674066366E+00
2.45256139571E+06	-1.43622205495E+01	-1.61749810112E+02	6.03614981144E+00	1.70538811640E+02	-5.15563003262E+01	-1.11921560329E+02	-5.89296234150E+00	-1.11324278024E+00
2.47475275031E+06	-1.20049190032E+01	-1.67071021056E+02	6.04365788896E+00	1.70655910295E+02	-4.41255716108E+01	-1.29673197953E+02	-5.86494162483E+00	-1.16384670997E+00
2.49694410490E+06	-1.99585679848E+01	1.53292748413E+02	5.98444568708E+00	1.71089224451E+02	-4.05759718156E+01	-8.36444130163E+00	-5.88186538461E+00	-1.35499573263E+00
2.51913545950E+06	-1.30551276305E+01	-1.70164442809E+02	5.97483840452E+00	1.70232684316E+02	-3.65723035296E+01	1.76502891216E+02	-5.87042722805E+00	-1.20505637607E+00
2.54132681409E+06	-1.68710162871E+01	-1.65137221546E+02	6.05356097764E+00	1.70560148181E+02	-4.62714189250E+01	-1.40780192789E+02	-5.85703007383E+00	-1.21634157629E+00
2.56351816869E+06	-1.33583189306E+01	-1.48419743455E+02	6.03267442366E+00	1.70116975646E+02	-4.35846974193E+01	-8.96655424772E+01	-5.86783159362E+00	-1.23601833024E+00
2.58570952328E+06	-1.33148568833E+01	-1.71586562479E+02	6.00743578340E+00	1.70291990196E+02	-4.06595299692E+01	3.18368776110E+01	-5.89330473299E+00	-1.40904734859E+00
2.60790087788E+06	-1.43387051672E+01	-1.67193542303E+02	6.02842284505E+00	1.70067686050E+02	-4.35253446615E+01	5.73459885439E+01	-5.88877453892E+00	-1.35481686073E+00
2.63009223247E+06	-1.53537758128E+01	-1.78826778302E+02	6.01831110652E+00	1.70190078663E+02	-5.26739745258E+01	1.74785223422E+02	-5.88427195341E+00	-9.35050265282E-01
2.65228358707E+06	-1.94610730769E+01	-1.37381973966E+02	6.04073750510E+00	1.70005395796E+02	-4.28998618959E+01	-1.55419736290E+02	-5.87789264110E+00	-1.33365781374E+00
2.67447494166E+06	-1.40418561285E+01	-1.62532375433E+02	6.02102839860E+00	1.69838095747E+02	-5.30484858167E+01	1.43111577235E+02	-5.84092971801E+00	-1.38119758153E+00
2.69666629626E+06	-1.31110686921E+01	-1.77670968716E+02	6.03908364208E+00	1.70018304572E+02	-5.07963471736E+01	1.08029204261E+02	-5.85447770316E+00	-1.34833501909E+00
2.71885765085E+06	-1.05576495449E+01	-1.79505246545E+02	6.03260283683E+00	1.69475440971E+02	-4.93562611623E+01	3.92456672593E+01	-5.86347607240E+00	-1.47425556360E+00
2.74104900545E+06	-1.50928737469E+01	-1.64722096569E+02	6.05403289396E+00	1.69738972344E+02	-4.36240808524E+01	1.19733744465E+02	-5.87374375633E+00	-1.38766880447E+00
2.76324036004E+06	-1.58459920175E+01	1.64608786762E+02	6.00473945063E+00	1.69786737380E+02	-4.79445304544E+01	1.80463724318E+01	-5.87130396825E+00	-1.51322147632E+00
2.78543171463E+06	-1.42356635272E+01	-1.50142297404E+02	6.04528478934E+00	1.69573976497E+02	-4.04406507354E+01	-6.18925977679E+01	-5.89278974578E+00	-1.35538954862E+00
2.80762306923E+06	-8.70385044517E+00	-1.69367009798E+02	6.02351269299E+00	1.68918248398E+02	-4.76893204975E+01	-9.31588681129E+01	-5.88239482678E+00	-1.44612992082E+00
2.82981442382E+06	-1.96911307672E+01	-1.71037117943E+02	6.10638423088E+00	1.69579355364E+02	-4.47334521672E+01	1.64683765441E+02	-5.86194448659E+00	-1.45084481080E+00
2.85200577842E+06	-1.57269406093E+01	-1.55791986578E+02	6.06227187504E+00	1.69037830512E+02	-4.01992794773E+01	-1.49510793650E+02	-5.88734832107E+00	-1.24889657919E+00
2.87419713301E+06	-1.09053909752E+01	-1.48600396901E+02	6.06289832243E+00	1.68326453033E+02	-5.13448379804E+01	5.47307675114E+01	-5.87823966325E+00	-1.43558976398E+00
