# Hz S DB R 50
! CMT, M5065, 19127446, 24.2.4/2
! Date: 11/8/2024 5:07:03 PM
! Data: Format (Calibration Info)
! Freq	S11:dB/Ang(F2)	S21:dB/Ang(F2)	S12:dB/Ang(F2)	S22:dB/Ang(F2)
3.00000000000E+05	-1.76770440075E+01	-1.63031933524E+02	8.39240246616E+00	-1.77458843289E+02	-4.56223675179E+01	-8.19059471723E+01	-5.89128407648E+00	-2.57312450962E-01
3.22191354595E+05	-1.32750273128E+01	-1.71640033173E+02	8.36474759675E+00	-1.77782328236E+02	-3.95405568895E+01	1.65412670953E+02	-5.85731075460E+00	-3.34237781925E-01
3.44382709190E+05	-1.71014675632E+01	-1.33727304672E+02	8.37746780910E+00	-1.78451585144E+02	-4.70147144382E+01	3.31441273971E+01	-5.87960935601E+00	-2.35442065012E-01
3.66574063785E+05	-1.34864545235E+01	1.79048113040E+02	8.34146347122E+00	-1.78390705686E+02	-4.84759186958E+01	-1.33781972803E+02	-5.84562587532E+00	-2.11205833459E-01
3.88765418380E+05	-1.64777857490E+01	-1.54164221014E+02	8.35982671984E+00	-1.78667797335E+02	-4.30559754232E+01	3.35585387547E+01	-5.88267638106E+00	-9.20593473924E-02
4.10956772975E+05	-1.54239959887E+01	1.58529230309E+02	8.36999960459E+00	-1.79128071023E+02	-4.34935312370E+01	-4.96741683803E+01	-5.90926604787E+00	-2.77905801923E-01
4.33148127570E+05	-2.31796846262E+01	-1.72236054527E+02	8.36102240061E+00	-1.79275569954E+02	-4.67288373006E+01	8.94780280182E+00	-5.86907946518E+00	-4.42420556471E-01
4.55339482165E+05	-1.27776245425E+01	-1.76596159995E+02	8.34560310844E+00	-1.79637352463E+02	-4.47558455690E+01	2.84913156574E+01	-5.85039792476E+00	-3.34975530999E-01
4.77530836760E+05	-1.38172558735E+01	-1.53159502437E+02	8.38786421355E+00	-1.79918923173E+02	-3.72248686465E+01	-3.67939350719E+01	-5.87272205560E+00	-2.47615156868E-01
4.99722191355E+05	-1.41456632177E+01	-1.73694976455E+02	8.33121796104E+00	-1.79881110437E+02	-4.89185977830E+01	-2.50407964106E+01	-5.86219146601E+00	-3.23370218982E-01
5.21913545950E+05	-1.36754098833E+01	1.74826238433E+02	8.33111796571E+00	1.79962294967E+02	-4.29491203686E+01	-8.98451068998E+01	-5.88477734423E+00	-2.51152296185E-01
5.44104900545E+05	-1.73521784032E+01	1.73460275278E+02	8.38158790957E+00	1.79811394810E+02	-4.71399176369E+01	-5.61185296750E+01	-5.86347857843E+00	-2.94628785337E-01
5.66296255139E+05	-1.62035472588E+01	-1.64479009197E+02	8.39302647042E+00	1.79315954434E+02	-4.66558282294E+01	1.43465069718E+02	-5.84247486837E+00	-4.26772444776E-01
5.88487609734E+05	-1.09523308160E+01	-1.60257490037E+02	8.32670805540E+00	1.79005662029E+02	-5.06871729125E+01	-3.49758131412E+01	-5.89567271934E+00	-3.05045270148E-01
6.10678964329E+05	-1.62329040825E+01	1.68558827548E+02	8.37903534487E+00	1.79181682981E+02	-4.15643832208E+01	3.92227779817E+01	-5.90866550186E+00	7.02971389450E-02
6.32870318924E+05	-1.38664454334E+01	-1.74409688544E+02	8.38011501395E+00	1.79131210507E+02	-4.41124958352E+01	-1.72972965534E+02	-5.86731302032E+00	-5.30149216079E-02
6.55061673519E+05	-1.06055445620E+01	1.71951086028E+02	8.34311721773E+00	1.78673779538E+02	-5.78117852476E+01	1.19866338954E+02	-5.87861424155E+00	-3.90887985316E-01
6.77253028114E+05	-1.32946991182E+01	-1.63123065860E+02	8.39007353451E+00	1.78558690405E+02	-6.04258570493E+01	-2.34597119910E+01	-5.87380583869E+00	-7.18791206044E-01
6.99444382709E+05	-1.28254511694E+01	-1.57283606131E+02	8.36830430068E+00	1.78278480616E+02	-4.48628983029E+01	1.21424032284E+02	-5.88849530325E+00	-5.44722105506E-01
7.21635737304E+05	-1.41405855187E+01	1.78342046414E+02	8.35208240688E+00	1.78333725430E+02	-5.00618351946E+01	2.59988900094E+01	-5.86164318501E+00	-5.56826094047E-01
7.43827091899E+05	-1.64239488293E+01	-1.49363389522E+02	8.35682017377E+00	1.78048595924E+02	-5.14800902881E+01	-1.61032075718E+02	-5.88025458723E+00	-4.44174137395E-01
7.66018446494E+05	-1.26753230565E+01	-1.51388889359E+02	8.40917910295E+00	1.77892796888E+02	-5.93382967539E+01	-3.88978633253E+01	-5.87167059780E+00	-4.00936470103E-01
7.88209801089E+05	-2.06221832199E+01	-1.55547873952E+02	8.42007438603E+00	1.77906973944E+02	-3.73851499207E+01	-5.76718457178E-01	-5.89265564181E+00	-4.83220767254E-01
8.10401155684E+05	-1.26384194205E+01	-1.68052212024E+02	8.31774107260E+00	1.77556352078E+02	-3.94191683152E+01	-7.54724575040E+01	-5.88728333378E+00	-4.73954861967E-01
8.32592510279E+05	-1.50326480808E+01	1.70456439693E+02	8.38851742657E+00	1.77657427603E+02	-4.26584986780E+01	-1.53700492172E+02	-5.85366267254E+00	-2.92191021960E-01
8.54783864874E+05	-1.38260652521E+01	-1.78087518975E+02	8.36119294602E+00	1.77409926667E+02	-4.43693771137E+01	-1.14093226302E+02	-5.87210745021E+00	-4.92930078575E-01
8.76975219469E+05	-1.77812179610E+01	-1.67043821377E+02	8.36167343052E+00	1.77369278473E+02	-3.90487984887E+01	1.79564624454E+02	-5.85131099568E+00	-4.54494422227E-01
8.99166574064E+05	-1.23331310718E+01	-1.48283946641E+02	8.39168190244E+00	1.76928265907E+02	-4.64641216299E+01	-9.24272315966E+01	-5.87888684163E+00	-5.00489782801E-01
9.21357928659E+05	-1.09211471935E+01	-1.66554730640E+02	8.34310764856E+00	1.76632440608E+02	-4.50928378509E+01	-1.76201098217E+02	-5.85208644606E+00	-5.68879831514E-01
9.43549283254E+05	-1.38418360424E+01	-1.48184599748E+02	8.38625529781E+00	1.76707459462E+02	-4.80040349792E+01	3.85150885979E+01	-5.90314377190E+00	-5.36249725455E-01
9.65740637849E+05	-1.36017506563E+01	-1.65994936489E+02	8.36747613261E+00	1.76720044861E+02	-3.73185880154E+01	-1.72653160422E+01	-5.89631580970E+00	-5.19243455285E-01
9.87931992444E+05	-1.19806935641E+01	-1.72810188498E+02	8.36316069970E+00	1.76921760427E+02	-4.27157541744E+01	-1.02867193953E+02	-5.86747752240E+00	-4.88519117136E-01
1.01012334704E+06	-1.71863432943E+01	-1.44066261151E+02	8.42774891080E+00	1.76410407172E+02	-4.54333032519E+01	8.18448335881E+01	-5.88443285809E+00	-5.77427130210E-01
1.03231470163E+06	-1.67371947034E+01	-1.48506489577E+02	8.37120605488E+00	1.76545054995E+02	-4.51037473297E+01	-5.45022567385E+01	-5.90255710795E+00	-6.07487299716E-01
1.05450605623E+06	-1.54218772462E+01	-1.65062304985E+02	8.37789087818E+00	1.76372073124E+02	-5.38589249148E+01	1.64255895337E+01	-5.86473529734E+00	-6.81129424176E-01
1.07669741082E+06	-1.38970282315E+01	-1.58610446151E+02	8.37508965688E+00	1.76113421079E+02	-4.63372441182E+01	2.06327016575E+01	-5.86625229184E+00	-5.34292956447E-01
1.09888876542E+06	-1.63048641211E+01	-1.52815372299E+02	8.43163371125E+00	1.76096113775E+02	-3.74346787947E+01	-2.24958188308E+01	-5.89495436037E+00	-5.85481700630E-01
1.12108012001E+06	-1.63855165404E+01	-1.73976172100E+02	8.38390706965E+00	1.76155340883E+02	-4.61405893375E+01	-9.80733438111E+01	-5.85202624646E+00	-5.73413417720E-01
1.14327147461E+06	-1.49361064337E+01	-1.58972020931E+02	8.38917363293E+00	1.76056823677E+02	-4.14163845752E+01	-1.49564100292E+02	-5.85843660150E+00	-5.27927749685E-01
1.16546282920E+06	-1.11317717010E+01	-1.65077437549E+02	8.34593365580E+00	1.75682776554E+02	-3.88782231925E+01	9.68837642516E+01	-5.87484454638E+00	-7.03137419365E-01
1.18765418380E+06	-1.54459716777E+01	1.69285258532E+02	8.36248765261E+00	1.75734512316E+02	-4.47926265090E+01	-7.92227137469E+01	-5.86311408384E+00	-5.54560193045E-01
1.20984553839E+06	-1.48585846025E+01	1.75025208252E+02	8.36541817892E+00	1.75652356527E+02	-4.73669078638E+01	-8.19194730673E+01	-5.88267255455E+00	-7.71353049044E-01
1.23203689299E+06	-1.27779138192E+01	-1.63871789622E+02	8.37514212492E+00	1.75219920609E+02	-5.27766781453E+01	-3.24520363672E+01	-5.90098550823E+00	-3.90966688520E-01
1.25422824758E+06	-1.52027828798E+01	1.66339529977E+02	8.38058160463E+00	1.75577732567E+02	-4.75220219661E+01	9.82916418934E+01	-5.88458968524E+00	-6.57590550548E-01
1.27641960218E+06	-1.17897416657E+01	-1.67863136198E+02	8.35198866686E+00	1.74830596550E+02	-6.50410684228E+01	3.01948488099E+01	-5.87455053554E+00	-6.27768135455E-01
1.29861095677E+06	-1.43479252240E+01	-1.72325260502E+02	8.37668229737E+00	1.75037733986E+02	-4.12150609508E+01	-4.99628925807E+01	-5.86424289340E+00	-5.20345031335E-01
1.32080231137E+06	-1.42590359556E+01	-1.74312775344E+02	8.36263794678E+00	1.74867751216E+02	-4.18075059189E+01	1.71052658327E+02	-5.85022071584E+00	-9.18681051831E-01
1.34299366596E+06	-1.33211286419E+01	-1.78207364953E+02	8.36252905973E+00	1.74765815714E+02	-4.48008175219E+01	1.03783963260E+02	-5.87263752982E+00	-9.41637786665E-01
1.36518502056E+06	-1.50316911255E+01	-1.65169148298E+02	8.38408054024E+00	1.74735694022E+02	-4.85948051888E+01	4.59207440442E+01	-5.90053611151E+00	-6.52220785281E-01
1.38737637515E+06	-1.57419218449E+01	1.76623149255E+02	8.40453356414E+00	1.74621066217E+02	-4.19378593285E+01	1.03191229504E+02	-5.86453187702E+00	-7.71327497396E-01
1.40956772975E+06	-1.60470567226E+01	1.73558099388E+02	8.37692698905E+00	1.74722568127E+02	-4.59626010598E+01	1.01037329084E+02	-5.84012416896E+00	-8.19647595194E-01
1.43175908434E+06	-1.41826028183E+01	-1.53439848066E+02	8.39134874726E+00	1.74365422591E+02	-4.22410785157E+01	4.18986621548E+01	-5.88276653921E+00	-7.00895858722E-01
1.45395043894E+06	-1.44996063752E+01	-1.56775370745E+02	8.41043590070E+00	1.74126716316E+02	-4.00815586382E+01	-2.53953269651E+01	-5.90788623496E+00	-8.44186686377E-01
1.47614179353E+06	-1.52252952260E+01	-1.57634295840E+02	8.39110625178E+00	1.73963626663E+02	-4.12093692202E+01	1.18949372526E+02	-5.86379673969E+00	-7.68294849224E-01
1.49833314813E+06	-1.51058179002E+01	-1.56629918166E+02	8.40524554429E+00	1.73642518429E+02	-6.36029156261E+01	2.79430558965E+01	-5.85382209281E+00	-9.37196646020E-01
1.52052450272E+06	-1.23296924883E+01	-1.52228891184E+02	8.43139595114E+00	1.73753919113E+02	-4.74698984094E+01	8.79255894879E+01	-5.85984646064E+00	-8.46498645529E-01
1.54271585732E+06	-1.36881445361E+01	-1.70580413097E+02	8.34591839233E+00	1.73618563078E+02	-4.98107242638E+01	1.34047491492E+02	-5.87053062090E+00	-6.74000620636E-01
1.56490721191E+06	-1.24069439295E+01	-1.69015821260E+02	8.36234832679E+00	1.73640234670E+02	-3.90043062785E+01	-4.28020508397E+01	-5.90860943018E+00	-8.58198843273E-01
1.58709856651E+06	-1.04581274332E+01	-1.76856066608E+02	8.33244937796E+00	1.73619129300E+02	-4.47478181014E+01	-1.12465354808E+02	-5.85883736435E+00	-8.05395840102E-01
1.60928992110E+06	-1.21306604825E+01	-1.76032865642E+02	8.36764530945E+00	1.73459399263E+02	-5.26470952173E+01	-1.65881002015E+02	-5.87198594681E+00	-8.24239109587E-01
1.63148127570E+06	-1.84837869127E+01	-1.52992317341E+02	8.41369779494E+00	1.73272684828E+02	-6.06036097621E+01	-4.82659925144E+01	-5.88915377973E+00	-8.77852050956E-01
1.65367263029E+06	-1.78032269429E+01	-1.62808296298E+02	8.42868637525E+00	1.73389396113E+02	-5.22489947058E+01	1.25350446347E+02	-5.87724293778E+00	-8.44169253674E-01
1.67586398489E+06	-1.13983094945E+01	-1.70244083206E+02	8.37768744355E+00	1.72987910330E+02	-5.28282027000E+01	1.15310630252E+02	-5.86982730103E+00	-9.69118121102E-01
1.69805533948E+06	-1.13120986658E+01	1.57638685967E+02	8.30706142105E+00	1.73034273795E+02	-4.29805640196E+01	-4.94639806110E+01	-5.88431465915E+00	-8.13083788600E-01
1.72024669408E+06	-1.32810230410E+01	1.76978678275E+02	8.33579142039E+00	1.73044786220E+02	-4.19271280373E+01	-4.17896083479E+01	-5.87081760855E+00	-9.50510279745E-01
1.74243804867E+06	-1.30632152095E+01	1.71686372325E+02	8.33576420079E+00	1.73074735597E+02	-4.46583749204E+01	8.67399426966E+01	-5.86166454699E+00	-9.14864160041E-01
1.76462940327E+06	-1.60423931015E+01	-1.65124876339E+02	8.40991808810E+00	1.72916262907E+02	-4.63366108390E+01	8.57294426173E+01	-5.88191864757E+00	-1.08592105846E+00
1.78682075786E+06	-1.46997100371E+01	-1.62817782663E+02	8.37796911405E+00	1.72550286446E+02	-4.04459933544E+01	-2.46914411655E+01	-5.89130260675E+00	-1.10967762406E+00
1.80901211246E+06	-1.32070018413E+01	-1.71322677267E+02	8.35994341109E+00	1.72486593123E+02	-4.57996823694E+01	-1.67293470776E+01	-5.88015807679E+00	-9.55977106940E-01
1.83120346705E+06	-1.28968866147E+01	1.68568496028E+02	8.33257518829E+00	1.72099084340E+02	-4.09477174380E+01	3.62517364151E+01	-5.88434518518E+00	-9.72585487562E-01
1.85339482165E+06	-1.61551207506E+01	-1.76918277884E+02	8.39680539601E+00	1.72320082517E+02	-4.34728778481E+01	2.52049089481E+01	-5.85709970397E+00	-1.08528483457E+00
1.87558617624E+06	-1.44685026871E+01	1.76922456167E+02	8.39812764074E+00	1.72140813872E+02	-3.51079090656E+01	1.06418162855E+02	-5.82414982515E+00	-9.66528712641E-01
1.89777753084E+06	-1.36629635720E+01	-1.71527852199E+02	8.37940755221E+00	1.71910936046E+02	-4.44673155042E+01	1.74691108561E+02	-5.86461912454E+00	-1.11281308337E+00
1.91996888543E+06	-1.16862958222E+01	-1.58782527209E+02	8.35965804660E+00	1.71992586387E+02	-4.53396360928E+01	-1.51386008782E+02	-5.86382675991E+00	-9.90148487516E-01
1.94216024003E+06	-1.41449839466E+01	-1.68562881599E+02	8.36875152671E+00	1.72036011478E+02	-3.97226365370E+01	-1.65840461919E+02	-5.87510570275E+00	-8.48426110838E-01
1.96435159462E+06	-1.27962565764E+01	-1.56065783021E+02	8.37990276796E+00	1.71534712175E+02	-4.88594471614E+01	-1.78566983956E+02	-5.88539465424E+00	-9.40928162229E-01
1.98654294922E+06	-1.13652608851E+01	-1.31315986185E+02	8.39326219925E+00	1.71474662033E+02	-4.71666768322E+01	2.62944061521E+01	-5.88333230030E+00	-1.07186383880E+00
2.00873430381E+06	-9.71165166745E+00	-1.69188547602E+02	8.35183379927E+00	1.71213336940E+02	-4.26008259001E+01	1.32762066586E+02	-5.84724382795E+00	-1.11208402611E+00
2.03092565841E+06	-1.62549965246E+01	-1.75915166908E+02	8.41015979262E+00	1.71476065198E+02	-5.02436972461E+01	-1.16335285939E+02	-5.86835470894E+00	-9.54614573097E-01
2.05311701300E+06	-1.32143910116E+01	-1.78656071912E+02	8.39799612325E+00	1.71166758687E+02	-3.26603788105E+01	2.92179079055E+01	-5.89685247750E+00	-1.39376095808E+00
2.07530836760E+06	-1.57863162779E+01	1.72246650795E+02	8.38807557419E+00	1.71321944528E+02	-4.10938677495E+01	5.37598059855E+01	-5.88446311216E+00	-1.25433834222E+00
2.09749972219E+06	-1.47564926009E+01	-1.64332548086E+02	8.36470371044E+00	1.71147315523E+02	-4.62680002488E+01	8.54527002377E+01	-5.85795781288E+00	-1.21912198501E+00
2.11969107679E+06	-1.24934271879E+01	-1.61732553388E+02	8.40666612263E+00	1.70972389895E+02	-4.79066537076E+01	1.69498751123E+02	-5.87116271374E+00	-9.57051501306E-01
2.14188243138E+06	-1.28855046750E+01	1.70959434810E+02	8.35725728557E+00	1.71084399464E+02	-4.43414433581E+01	-1.09858615188E+02	-5.86474040686E+00	-1.00588817887E+00
2.16407378598E+06	-1.53335691863E+01	-1.27135201581E+02	8.46656787590E+00	1.71119641263E+02	-3.95194785450E+01	-2.03202696602E+01	-5.88571341588E+00	-1.16984831145E+00
2.18626514057E+06	-1.25593704934E+01	1.71583064533E+02	8.36057352463E+00	1.70806668792E+02	-3.95832106610E+01	1.41362509798E+02	-5.84209160695E+00	-1.08914870041E+00
2.20845649517E+06	-1.31191300226E+01	-1.68328686519E+02	8.39227000243E+00	1.70481170020E+02	-4.06111376877E+01	1.33815844584E+02	-5.85683418808E+00	-1.16131862389E+00
2.23064784976E+06	-1.49162218434E+01	-1.67289337112E+02	8.41116938652E+00	1.70389744823E+02	-4.86200716489E+01	4.44361173554E+00	-5.88227456422E+00	-1.28324928024E+00
2.25283920436E+06	-1.31346124904E+01	-1.62312259167E+02	8.42611006974E+00	1.70133243608E+02	-5.09094367259E+01	7.19236199224E+01	-5.85089286353E+00	-1.14961707336E+00
2.27503055895E+06	-1.75613754693E+01	-1.71036171888E+02	8.41134392847E+00	1.70414450902E+02	-4.05006456376E+01	7.65637773216E+01	-5.86260798606E+00	-1.40483976667E+00
2.29722191355E+06	-1.24018630767E+01	-1.44957317826E+02	8.44404975290E+00	1.70097214740E+02	-4.32977559922E+01	-7.37616270666E+01	-5.87351631284E+00	-1.15361005272E+00
2.31941326814E+06	-1.28028045045E+01	1.65538339290E+02	8.34982720624E+00	1.70315575051E+02	-4.53803612212E+01	1.29409884432E+02	-5.86017912196E+00	-1.15709415075E+00
2.34160462274E+06	-1.31437132346E+01	-1.78313922867E+02	8.38229913088E+00	1.70262587009E+02	-4.69074708610E+01	-4.69305919789E+01	-5.89851744784E+00	-1.23175639520E+00
2.36379597733E+06	-1.24736139886E+01	-1.61796797403E+02	8.38583949280E+00	1.69811144182E+02	-5.77179120624E+01	-1.46325125781E+02	-5.88249217609E+00	-1.08886886121E+00
2.38598733193E+06	-1.53681518202E+01	-1.57401874789E+02	8.40211254454E+00	1.69890993094E+02	-4.81342647950E+01	1.60464636854E+02	-5.88678297704E+00	-1.20785331227E+00
2.40817868652E+06	-1.38612607279E+01	-1.53206186911E+02	8.43458678825E+00	1.69593779310E+02	-4.33941952498E+01	-1.76099297761E+02	-5.84547834985E+00	-1.32608168314E+00
2.43037004112E+06	-1.19787790114E+01	-1.59924237025E+02	8.39144790197E+00	1.69378565279E+02	-4.62559428229E+01	-5.66005428236E+01	-5.87933429360E+00	-1.64525623167E+00
2.45256139571E+06	-1.27560285644E+01	1.78471453908E+02	8.37240179830E+00	1.69284524978E+02	-4.99494544305E+01	-9.17389446892E+01	-5.86849666945E+00	-1.24522889656E+00
2.47475275031E+06	-5.99294825733E+00	-8.30213570975E+01	8.60578886980E+00	1.69422653733E+02	-4.62131350237E+01	7.13456322392E+01	-5.85933674895E+00	-1.39707326699E+00
2.49694410490E+06	-1.44572891889E+01	-1.53893687069E+02	8.43438994619E+00	1.69322135600E+02	-4.92541040966E+01	3.56342589521E+01	-5.87189249236E+00	-1.45095296833E+00
2.51913545950E+06	-1.53608494037E+01	-1.61101114614E+02	8.41755927473E+00	1.69261640612E+02	-4.46192557322E+01	-1.09982220567E+02	-5.92088474300E+00	-1.31409719028E+00
2.54132681409E+06	-9.91347379980E+00	-1.52241771548E+02	8.44664202991E+00	1.68602001089E+02	-4.99510213735E+01	-1.67018079744E+01	-5.89947917761E+00	-1.35214934376E+00
2.56351816869E+06	-1.46771059933E+01	-1.72856822437E+02	8.40747873192E+00	1.68947430999E+02	-4.91949488544E+01	-6.22593791243E+00	-5.88964274596E+00	-1.31915631639E+00
2.58570952328E+06	-1.39994471445E+01	-1.51512701884E+02	8.43655939696E+00	1.68629665343E+02	-4.57215141373E+01	-6.98656157947E+01	-5.90391994696E+00	-1.16021062207E+00
2.60790087788E+06	-1.63936528775E+01	-1.64304666425E+02	8.42298755782E+00	1.68839813106E+02	-3.98093242611E+01	5.46367597175E+01	-5.86791251354E+00	-1.46117161454E+00
2.63009223247E+06	-1.24834151244E+01	-1.79487022940E+02	8.38888319483E+00	1.68758107295E+02	-5.42026519425E+01	-1.55374890701E+02	-5.88573933408E+00	-8.48485979758E-01
2.65228358707E+06	-1.66407324164E+01	-1.55554121729E+02	8.40745903281E+00	1.68486384569E+02	-4.93689800341E+01	1.07992224383E+02	-5.85117531350E+00	-1.65514087002E+00
2.67447494166E+06	-1.64994646729E+01	-1.63097428009E+02	8.42863388697E+00	1.68327049854E+02	-3.64624223390E+01	-3.48959460185E+01	-5.88561004948E+00	-1.40514530492E+00
2.69666629626E+06	-1.12608268935E+01	-1.58423757806E+02	8.43089646851E+00	1.68309971442E+02	-4.81370700682E+01	-2.84852533899E+01	-5.87757061378E+00	-1.29994632251E+00
2.71885765085E+06	-1.49848102399E+01	-1.58816533892E+02	8.47198445199E+00	1.68238622343E+02	-4.10122525341E+01	-1.07307178335E+01	-5.90357395216E+00	-1.44635665339E+00
2.74104900545E+06	-1.31237613403E+01	-1.56800242093E+02	8.43817163482E+00	1.68005391652E+02	-4.64933237064E+01	-1.56323989272E+02	-5.86986354228E+00	-1.44715402139E+00
2.76324036004E+06	-1.43690368462E+01	-1.65677355932E+02	8.42287808097E+00	1.68111649997E+02	-4.33115988060E+01	-4.13309237232E+01	-5.90704392896E+00	-1.34660745377E+00
2.78543171463E+06	-1.10741577162E+01	-1.79785349976E+02	8.37875269292E+00	1.67609609720E+02	-4.69809290451E+01	-1.22470672403E+02	-5.86392441842E+00	-1.32500887399E+00
2.80762306923E+06	-1.20222675023E+01	-1.66432789506E+02	8.41235426103E+00	1.67604434761E+02	-4.51833900476E+01	-1.74768816630E+02	-5.85867854090E+00	-1.33769651753E+00
2.82981442382E+06	-1.42773139142E+01	-1.66972309333E+02	8.42682941061E+00	1.67714389044E+02	-3.39331237595E+01	1.49059027423E+02	-5.83882931324E+00	-1.40945755494E+00
2.85200577842E+06	-1.37571370994E+01	-1.67138689581E+02	8.40225897941E+00	1.67564016667E+02	-3.98010803653E+01	-3.59534475781E+01	-5.91318466380E+00	-1.41300091058E+00
2.87419713301E+06	-1.25327918215E+01	-1.66947187012E+02	8.40754677859E+00	1.67367871949E+02	-4.84453571140E+01	1.53411773787E+02	-5.87028438099E+00	-1.59447694052E+00
