# Hz S DB R 50
! CMT, M5065, 19127446, 24.2.4/2
! Date: 11/8/2024 5:15:56 PM
! Data: Format (Calibration Info)
! Freq	S11:dB/Ang(F2)	S21:dB/Ang(F2)	S12:dB/Ang(F2)	S22:dB/Ang(F2)
3.00000000000E+05	-1.26182949788E+01	1.57447315133E+02	1.26227563461E+01	-1.77023358042E+02	-4.59971169182E+01	1.79294599570E+02	-5.86219489301E+00	-3.47471921129E-01
3.22191354595E+05	-1.23150404612E+01	-1.69883791466E+02	1.26508802666E+01	-1.77709719118E+02	-4.59557416944E+01	1.70560454673E+02	-5.85920713772E+00	-1.97659837779E-01
3.44382709190E+05	-1.28562200423E+01	-1.51115913101E+02	1.26618783109E+01	-1.78181671233E+02	-4.97227425213E+01	-1.01417637793E+02	-5.87462702005E+00	-1.75184377917E-01
3.66574063785E+05	-1.25201495660E+01	-1.64917148367E+02	1.26334304771E+01	-1.78687124684E+02	-5.49964497353E+01	-1.69675284521E+01	-5.88964689160E+00	-3.33756240141E-01
3.88765418380E+05	-1.19718928932E+01	-1.50828783470E+02	1.27313084091E+01	-1.79225044748E+02	-4.90401139330E+01	4.20038196729E+01	-5.86615268300E+00	-2.51398018839E-01
4.10956772975E+05	-1.26611530468E+01	-1.72194642144E+02	1.26341963996E+01	-1.79163697911E+02	-4.20658817092E+01	-1.45913583944E+02	-5.85319374938E+00	-3.40998003108E-01
4.33148127570E+05	-1.73149912165E+01	-1.71104868031E+02	1.26843037409E+01	-1.79558484267E+02	-4.37913979663E+01	-1.00827674759E+02	-5.85692664618E+00	-1.16837800614E-01
4.55339482165E+05	-1.27511983254E+01	-1.60852616855E+02	1.26613603801E+01	-1.79884574636E+02	-5.13059721446E+01	-9.31103222031E+01	-5.84753128232E+00	-3.33400095078E-01
4.77530836760E+05	-1.10918355515E+01	1.79943545324E+02	1.26019480938E+01	1.79939636602E+02	-4.44810839072E+01	-1.37610898830E+02	-5.85632595633E+00	-1.93383723228E-01
4.99722191355E+05	-1.59385020278E+01	1.74601023244E+02	1.26558946333E+01	1.79869123726E+02	-4.62028739775E+01	1.02034786493E+02	-5.87071867616E+00	-5.31083585305E-01
5.21913545950E+05	-1.65565624570E+01	-1.67031652547E+02	1.26905053694E+01	1.79457155015E+02	-4.47566366738E+01	1.44575239092E+02	-5.84745616363E+00	-4.10680590171E-01
5.44104900545E+05	-1.39292010835E+01	-1.78647071119E+02	1.26468047348E+01	1.79463609454E+02	-4.73763963984E+01	1.46600822158E+02	-5.88673324069E+00	-4.30058585135E-01
5.66296255139E+05	-1.15814540616E+01	1.79684883002E+02	1.26097217470E+01	1.79132183320E+02	-4.20540456952E+01	1.66008007891E+02	-5.84365550095E+00	-6.47342002716E-01
5.88487609734E+05	-1.31281905339E+01	1.76161019239E+02	1.26638537176E+01	1.78874770259E+02	-2.79875946766E+01	-7.21816753373E+01	-5.88476958213E+00	6.22627130792E-02
6.10678964329E+05	-1.35063408699E+01	-1.73276513063E+02	1.26350040200E+01	1.78455421261E+02	-4.25367428519E+01	1.05796581325E+02	-5.86155568536E+00	-3.76977035051E-02
6.32870318924E+05	-1.65034208989E+01	-1.63416068218E+02	1.26816250875E+01	1.78371021125E+02	-4.71206488688E+01	2.06300307400E+01	-5.89791082389E+00	-2.01094759242E-01
6.55061673519E+05	-1.45913983965E+01	1.70594196996E+02	1.26634470945E+01	1.78224855668E+02	-4.12874630449E+01	-9.11379509424E+01	-5.87441408455E+00	-2.04717500691E-01
6.77253028114E+05	-1.56807926985E+01	-1.72946605725E+02	1.26760479169E+01	1.77934250882E+02	-4.52362512535E+01	1.79107496890E+02	-5.86318167425E+00	-6.87627009003E-01
6.99444382709E+05	-1.22368147310E+01	1.79473410153E+02	1.26509678576E+01	1.77727776546E+02	-5.90670369946E+01	-1.57908570499E+02	-5.87224740747E+00	-3.73552487663E-01
7.21635737304E+05	-1.12242222784E+01	-1.65196186609E+02	1.26487047353E+01	1.77429878830E+02	-5.03831771021E+01	1.78656931600E+02	-5.86922962509E+00	-3.70638962427E-01
7.43827091899E+05	-1.16525273962E+01	1.75877951038E+02	1.26193570383E+01	1.77465630674E+02	-3.82067552864E+01	1.38807929134E+02	-5.85589397327E+00	-4.37764059821E-01
7.66018446494E+05	-1.24643461973E+01	-1.73426000071E+02	1.26700718967E+01	1.77257269856E+02	-3.98728117014E+01	-1.39955869118E+02	-5.85954184289E+00	-3.48056294192E-01
7.88209801089E+05	-1.47035124892E+01	-1.73312096707E+02	1.26745121360E+01	1.77060120671E+02	-4.57899007467E+01	-1.15555735619E+02	-5.87902038579E+00	-4.10358292696E-01
8.10401155684E+05	-1.57914802515E+01	-1.66383847216E+02	1.26548316344E+01	1.76835023448E+02	-4.66256266016E+01	1.09211331830E+02	-5.90147524049E+00	-5.57501012770E-01
8.32592510279E+05	-1.39058962975E+01	1.74486360699E+02	1.26629613665E+01	1.76567341711E+02	-4.37618660603E+01	-9.31062501771E+01	-5.89148058437E+00	-3.74800806411E-01
8.54783864874E+05	-1.51480732246E+01	1.79684204880E+02	1.26484643147E+01	1.76402010036E+02	-4.90371364560E+01	1.01764392877E+01	-5.85804902460E+00	-5.14330006580E-01
8.76975219469E+05	-1.28601595303E+01	1.64265740779E+02	1.26112134803E+01	1.76467504686E+02	-3.67802888297E+01	4.55487855985E+01	-5.89269801547E+00	-7.46813769596E-01
8.99166574064E+05	-1.47019240738E+01	-1.71331503717E+02	1.26787400666E+01	1.76245360031E+02	-4.15918345803E+01	-6.53504763651E+01	-5.87545614111E+00	-2.77078262037E-01
9.21357928659E+05	-1.33174019673E+01	-1.68440555822E+02	1.26465545211E+01	1.75978968030E+02	-4.48224782142E+01	7.20032924262E+01	-5.87343671114E+00	-6.05020473091E-01
9.43549283254E+05	-1.66429122279E+01	-1.79775796721E+02	1.26576967221E+01	1.75694046572E+02	-4.17594406144E+01	1.67098782503E+02	-5.85819765511E+00	-6.88206393446E-01
9.65740637849E+05	-1.86435274901E+01	1.62208057811E+02	1.26823783262E+01	1.75991677927E+02	-4.57549630503E+01	-7.67455805843E+01	-5.89416290665E+00	-4.12775316491E-01
9.87931992444E+05	-1.35004481541E+01	-1.75853445709E+02	1.26527785515E+01	1.75292555188E+02	-5.49335739344E+01	-1.49756205006E+02	-5.87743778937E+00	-5.74573264460E-01
1.01012334704E+06	-1.37920367084E+01	1.61330455384E+02	1.26761954714E+01	1.75654321358E+02	-3.94959677146E+01	-1.83414614426E+01	-5.90615297040E+00	-3.78418987043E-01
1.03231470163E+06	-1.22156971997E+01	-1.73355585294E+02	1.26431422555E+01	1.75128961340E+02	-4.64891721087E+01	1.33177192472E+02	-5.86321156515E+00	-7.67452110890E-01
1.05450605623E+06	-1.24429259650E+01	-1.53484945182E+02	1.26670306938E+01	1.74872423260E+02	-4.16953393621E+01	1.70073529981E+02	-5.84572163583E+00	-5.61855642908E-01
1.07669741082E+06	-1.06282074877E+01	-1.68708914047E+02	1.26049276859E+01	1.74585845097E+02	-3.66583449510E+01	1.58543855693E+02	-5.84138125623E+00	-6.25780489466E-01
1.09888876542E+06	-1.35078020485E+01	-1.69427626083E+02	1.26543796668E+01	1.74740957956E+02	-3.93348562797E+01	-7.07239731639E+01	-5.87771434350E+00	-3.49954346317E-01
1.12108012001E+06	-1.34787457349E+01	-1.75917304289E+02	1.26420331576E+01	1.74744082759E+02	-4.11670669990E+01	-5.40240781180E+01	-5.90714740149E+00	-5.37428857184E-01
1.14327147461E+06	-1.44730607043E+01	-1.58953253679E+02	1.26633768320E+01	1.74375303955E+02	-4.23861030732E+01	6.38034178726E+01	-5.88894206162E+00	-6.30155656356E-01
1.16546282920E+06	-1.33671670504E+01	-1.79069676292E+02	1.26551154953E+01	1.74232490010E+02	-3.93524051167E+01	-7.06376921660E+01	-5.88555590466E+00	-3.12006876549E-01
1.18765418380E+06	-1.43433957291E+01	1.71134439750E+02	1.26267563532E+01	1.74320972754E+02	-4.37976884708E+01	5.14117102698E+01	-5.88106757930E+00	-7.13257652580E-01
1.20984553839E+06	-1.59882965424E+01	-1.64183725848E+02	1.26657841928E+01	1.73839555841E+02	-3.40145756796E+01	1.39497855344E+02	-5.83068572289E+00	-7.19843695502E-01
1.23203689299E+06	-1.17786426115E+01	-1.69965978855E+02	1.26263776912E+01	1.73968592516E+02	-4.17780142016E+01	-1.13768662978E+02	-5.88929202106E+00	-2.75003687551E-01
1.25422824758E+06	-1.42058348071E+01	-1.74483271260E+02	1.26435044568E+01	1.73746943531E+02	-4.44098186494E+01	1.79065232157E+02	-5.87925918927E+00	-6.44277809689E-01
1.27641960218E+06	-9.27211157801E+00	-1.63846293273E+02	1.26462018336E+01	1.73168638686E+02	-5.94832639233E+01	2.22897018593E+01	-5.88161012226E+00	-5.82786944747E-01
1.29861095677E+06	-1.73035882273E+01	1.73878291310E+02	1.26741355716E+01	1.73564171808E+02	-4.71059137450E+01	-1.71955519654E+02	-5.86638580680E+00	-7.05829573571E-01
1.32080231137E+06	-1.32076591895E+01	-1.64031508255E+02	1.26518048971E+01	1.73181316403E+02	-4.41698634678E+01	7.91472251728E+01	-5.86243107827E+00	-1.18242393566E+00
1.34299366596E+06	-1.22392442957E+01	-1.57830710616E+02	1.26811111136E+01	1.72976846463E+02	-4.46671695144E+01	-1.75739819347E+02	-5.84816071547E+00	-6.76884743226E-01
1.36518502056E+06	-1.39851003572E+01	-1.55353389808E+02	1.26637860888E+01	1.72935454175E+02	-4.87039948141E+01	-2.45229731069E+01	-5.90004914282E+00	-8.01071669791E-01
1.38737637515E+06	-1.51854174021E+01	-1.63553273747E+02	1.26835475676E+01	1.72796937970E+02	-4.71843563175E+01	-2.39074271364E+01	-5.88636016814E+00	-6.60261343384E-01
1.40956772975E+06	-1.30662290221E+01	-1.68927718113E+02	1.26169726658E+01	1.72688320691E+02	-4.65342011840E+01	1.78063081685E+02	-5.85730106423E+00	-6.22528384864E-01
1.43175908434E+06	-1.33463489614E+01	-1.74816491464E+02	1.26654722908E+01	1.72503711354E+02	-4.34134083205E+01	4.33966365572E+01	-5.87820111049E+00	-9.56420501547E-01
1.45395043894E+06	-1.42195990846E+01	1.56788775154E+02	1.25983019340E+01	1.72582467907E+02	-4.84742357606E+01	-7.35540270720E+01	-5.86898304066E+00	-6.57811203070E-01
1.47614179353E+06	-1.08222588916E+01	-1.73719892845E+02	1.26217608614E+01	1.72162516592E+02	-4.27738248944E+01	1.33299383723E+02	-5.86385940436E+00	-9.65311608385E-01
1.49833314813E+06	-1.27188175907E+01	-1.75821086456E+02	1.26424148382E+01	1.72154819297E+02	-3.96337556462E+01	5.00940422273E+01	-5.88045266096E+00	-1.03774394896E+00
1.52052450272E+06	-1.55183110161E+01	-1.47165643196E+02	1.26827235779E+01	1.71883000866E+02	-4.14454779356E+01	-1.12391618537E+01	-5.90919573557E+00	-9.74053295719E-01
1.54271585732E+06	-1.41889607367E+01	-1.73769434796E+02	1.26541207910E+01	1.71886411860E+02	-3.90791897981E+01	-9.06260679257E+01	-5.91620638189E+00	-9.26186263360E-01
1.56490721191E+06	-1.24276877626E+01	1.75304906203E+02	1.26413847458E+01	1.71863713139E+02	-4.36350052090E+01	1.40235730176E+02	-5.84969962457E+00	-9.54711571526E-01
1.58709856651E+06	-1.18817882233E+01	-1.55316012109E+02	1.26548808640E+01	1.71504157000E+02	-4.76082711006E+01	1.71575696999E+02	-5.86289302821E+00	-8.77839269526E-01
1.60928992110E+06	-9.83518861557E+00	-1.66807882905E+02	1.26294743054E+01	1.71244430171E+02	-5.51322805646E+01	1.79346161561E+02	-5.86400585877E+00	-8.55392798850E-01
1.63148127570E+06	-1.38251056212E+01	-1.68438167141E+02	1.26281911858E+01	1.71302716445E+02	-4.64245193852E+01	-5.94099865685E+01	-5.90187460206E+00	-8.28699383142E-01
1.65367263029E+06	-1.21868903510E+01	1.79418874019E+02	1.26075285649E+01	1.71211169709E+02	-4.24397955085E+01	-1.59687454849E+02	-5.86342044970E+00	-9.04312517238E-01
1.67586398489E+06	-1.32385868129E+01	-1.51151806203E+02	1.26619211678E+01	1.70789748451E+02	-4.44336587082E+01	7.49653897108E+01	-5.87108776359E+00	-9.92661553716E-01
1.69805533948E+06	-1.46674459793E+01	-1.75319812035E+02	1.26680656542E+01	1.70879855049E+02	-4.07821370316E+01	-1.63476271000E+02	-5.84496800017E+00	-8.90989581671E-01
1.72024669408E+06	-1.11465454887E+01	-1.66882251373E+02	1.26330120307E+01	1.70462664832E+02	-5.48579200823E+01	-9.19190102886E+01	-5.88391595847E+00	-9.24278629522E-01
1.74243804867E+06	-1.19367253171E+01	-1.71352110531E+02	1.26803371567E+01	1.70654240854E+02	-5.33733957671E+01	-1.39481960056E+02	-5.88365932976E+00	-7.52531083322E-01
1.76462940327E+06	-1.30891828416E+01	1.73248539242E+02	1.26412614016E+01	1.70567614544E+02	-4.58452403708E+01	-8.88777134745E+00	-5.88713528692E+00	-9.27696984355E-01
1.78682075786E+06	-1.27597077153E+01	-1.68943787848E+02	1.26347414425E+01	1.70326035532E+02	-5.10607428106E+01	-7.67688839374E+01	-5.87105840488E+00	-9.83247619185E-01
1.80901211246E+06	-1.22194788189E+01	-1.64207012232E+02	1.26603397712E+01	1.70072366503E+02	-5.03053512292E+01	-1.37895317682E+02	-5.86752639645E+00	-7.50272383896E-01
1.83120346705E+06	-1.18969312955E+01	1.69157652812E+02	1.25955109775E+01	1.70271748011E+02	-5.33528497411E+01	7.04240189208E+01	-5.86205985396E+00	-1.06371232317E+00
1.85339482165E+06	-1.26401037225E+01	-1.69198093670E+02	1.26377297582E+01	1.69675339687E+02	-4.05174955819E+01	-1.67736387628E+02	-5.81652683319E+00	-8.26712102243E-01
1.87558617624E+06	-1.05021710583E+01	1.74714677054E+02	1.26242700035E+01	1.69717863265E+02	-4.50546285712E+01	1.59938231805E+02	-5.85900339876E+00	-9.52968784850E-01
1.89777753084E+06	-1.28357064167E+01	-1.59775052117E+02	1.26394690063E+01	1.69475990858E+02	-5.53320368854E+01	-1.54240235884E+02	-5.84097248412E+00	-9.43936461681E-01
1.91996888543E+06	-1.62885649420E+01	-1.79041170824E+02	1.26744849923E+01	1.69645343408E+02	-4.13085245182E+01	-1.29947518689E+02	-5.89322335292E+00	-8.78151263360E-01
1.94216024003E+06	-1.36126522168E+01	-1.56141967331E+02	1.26998226349E+01	1.69220736228E+02	-4.52665894642E+01	4.39108225287E+01	-5.87892389612E+00	-1.28144778914E+00
1.96435159462E+06	-1.40448756328E+01	-1.58986991496E+02	1.26731545050E+01	1.69245710543E+02	-5.03613551261E+01	-4.04897497840E+01	-5.90073576704E+00	-1.05194070902E+00
1.98654294922E+06	-1.38427458506E+01	-1.60915364344E+02	1.26707716071E+01	1.69035001818E+02	-5.19010543171E+01	1.60338401550E+02	-5.84156079350E+00	-1.05966044459E+00
2.00873430381E+06	-1.31210755682E+01	1.73072230456E+02	1.26271501944E+01	1.69105258670E+02	-3.62425639290E+01	6.48853216875E+01	-5.86738755423E+00	-1.18451778250E+00
2.03092565841E+06	-1.26459143916E+01	-1.73930364120E+02	1.26648847709E+01	1.68916366223E+02	-4.14687152767E+01	1.61359283408E+02	-5.83349290699E+00	-9.92603360257E-01
2.05311701300E+06	-1.28116400911E+01	-1.61752171607E+02	1.26655222838E+01	1.68703853855E+02	-4.96804576928E+01	-9.18336499739E+01	-5.89218391813E+00	-1.02426827975E+00
2.07530836760E+06	-1.31205482549E+01	-1.68866472582E+02	1.26830421525E+01	1.68524388844E+02	-4.64081121741E+01	-3.13375339016E+01	-5.91311371030E+00	-1.03258722296E+00
2.09749972219E+06	-1.28855067389E+01	-1.68824443344E+02	1.26567328206E+01	1.68399747620E+02	-4.24096180115E+01	-5.87166380468E+01	-5.90890188318E+00	-8.70056715091E-01
2.11969107679E+06	-1.38869075751E+01	-1.62101982574E+02	1.26840114948E+01	1.68210543078E+02	-4.48004737271E+01	-1.04609981081E+02	-5.85450839531E+00	-1.00565322782E+00
2.14188243138E+06	-1.19814083253E+01	-1.60573967730E+02	1.26733328112E+01	1.67947861357E+02	-4.38275296112E+01	-1.06889450011E+02	-5.88725013474E+00	-9.27174403315E-01
2.16407378598E+06	-1.18131493140E+01	-1.66669412599E+02	1.26565126493E+01	1.67954973704E+02	-4.63781552983E+01	-6.55392688113E+01	-5.90770650687E+00	-1.08614646643E+00
2.18626514057E+06	-1.24944470288E+01	-1.61339952539E+02	1.26660511075E+01	1.67757457433E+02	-4.73529539571E+01	1.00878167063E+02	-5.85336628876E+00	-1.15594618911E+00
2.20845649517E+06	-1.38721161433E+01	-1.66047891125E+02	1.26760335035E+01	1.67797605528E+02	-5.54237313789E+01	1.65125214612E+02	-5.88343260601E+00	-1.13516285807E+00
2.23064784976E+06	-1.18933929680E+01	-1.48297948118E+02	1.26688449982E+01	1.67422083367E+02	-5.01747140951E+01	1.68163344270E+02	-5.90103831320E+00	-1.11710265704E+00
2.25283920436E+06	-1.21377756799E+01	-1.74419889314E+02	1.26676034782E+01	1.67385190746E+02	-4.23974557525E+01	1.54822811812E+02	-5.85774282658E+00	-1.17936522493E+00
2.27503055895E+06	-1.27132615372E+01	-1.55584774003E+02	1.26891215006E+01	1.67255300335E+02	-3.61759652625E+01	-2.66441465129E+01	-5.91744591021E+00	-1.23436820894E+00
2.29722191355E+06	-1.27964402364E+01	-1.78401005195E+02	1.26667980662E+01	1.67319868689E+02	-4.94916127635E+01	-5.22983654068E+01	-5.89858862321E+00	-1.15412373491E+00
2.31941326814E+06	-1.31016182964E+01	-1.77433246335E+02	1.26630693276E+01	1.66894093829E+02	-3.84079600823E+01	1.13719039348E+02	-5.82582066058E+00	-1.27473579166E+00
2.34160462274E+06	-1.34886817903E+01	-1.70248659871E+02	1.26881727768E+01	1.66752712835E+02	-4.66923690941E+01	1.60465918381E+02	-5.84906130821E+00	-1.34653627383E+00
2.36379597733E+06	-1.31111276797E+01	-1.75292848367E+02	1.26687740010E+01	1.66825173368E+02	-4.41224461551E+01	-3.37907364903E+01	-5.90755090038E+00	-1.06800628315E+00
2.38598733193E+06	-7.52143755172E+00	-1.68902576036E+02	1.26746876761E+01	1.66029917500E+02	-4.90990440771E+01	-9.02039855805E+01	-5.87308005198E+00	-1.16748768159E+00
2.40817868652E+06	-1.29662787690E+01	1.66635384593E+02	1.26540445756E+01	1.66849422859E+02	-5.63844350260E+01	5.81499589806E+01	-5.89009843562E+00	-1.33750863775E+00
2.43037004112E+06	-1.24317257396E+01	-1.57657034567E+02	1.26992830946E+01	1.66257776078E+02	-4.61176791658E+01	-3.78782678091E+00	-5.90446909139E+00	-1.67461125508E+00
2.45256139571E+06	-1.06202635618E+01	-1.72963603089E+02	1.26487299312E+01	1.66295322020E+02	-5.68994237961E+01	7.70415304147E+01	-5.88463127983E+00	-1.27997732410E+00
2.47475275031E+06	-1.24078981767E+01	-1.54347787960E+02	1.26929314144E+01	1.65929289324E+02	-5.39527210559E+01	-1.15072788287E+02	-5.85304405167E+00	-1.09793142798E+00
2.49694410490E+06	-1.45623014540E+01	1.75974677522E+02	1.26567051546E+01	1.66199546584E+02	-4.45916627461E+01	1.32857097855E+02	-5.85338633441E+00	-1.34785353501E+00
2.51913545950E+06	-1.20947028963E+01	-1.50814548356E+02	1.26939007645E+01	1.65762472339E+02	-5.01173630072E+01	1.39178178981E+02	-5.86261727183E+00	-1.36176942791E+00
2.54132681409E+06	-1.48384512786E+01	-1.71275800150E+02	1.26725464128E+01	1.65796415808E+02	-4.46615514679E+01	1.87792555302E+01	-5.90719268474E+00	-1.50790594021E+00
2.56351816869E+06	-1.34619029496E+01	-1.61717674980E+02	1.27200008221E+01	1.65494283331E+02	-4.43738863176E+01	-1.62458987562E+02	-5.85650034265E+00	-1.17643864342E+00
2.58570952328E+06	-1.23305571820E+01	-1.58439225663E+02	1.26815538545E+01	1.65342683954E+02	-4.38448205509E+01	1.56222238795E+02	-5.84937416452E+00	-1.29610059332E+00
2.60790087788E+06	-1.17339663315E+01	-1.68993536887E+02	1.26658713265E+01	1.65177645113E+02	-4.10222087048E+01	2.64784905838E+01	-5.88398031272E+00	-1.44183691857E+00
2.63009223247E+06	-1.21644619417E+01	-1.63241927731E+02	1.26947382394E+01	1.65195665338E+02	-4.09386360511E+01	6.75071754915E+01	-5.85692855450E+00	-1.19986554195E+00
2.65228358707E+06	-1.70989911768E+01	-1.58943419927E+02	1.27009227564E+01	1.65265042228E+02	-4.19468506586E+01	7.92965434937E+01	-5.88079736355E+00	-1.44923888943E+00
2.67447494166E+06	-1.30723273292E+01	-1.63442375596E+02	1.26926515473E+01	1.64905595750E+02	-4.61960474169E+01	1.78212129097E+02	-5.86332104824E+00	-1.38633383649E+00
2.69666629626E+06	-9.01664290331E+00	-1.77744983184E+02	1.26479147847E+01	1.64654317679E+02	-5.05470301812E+01	-1.67364642895E+02	-5.89085014011E+00	-1.46831829439E+00
2.71885765085E+06	-1.68464616342E+01	-1.42039131208E+02	1.27153424958E+01	1.64872285567E+02	-4.86314970895E+01	5.32293809927E+01	-5.88100212358E+00	-1.65201400074E+00
2.74104900545E+06	-1.26047546436E+01	-1.67879160562E+02	1.26867014375E+01	1.64543754181E+02	-4.02322419741E+01	1.57921552526E+02	-5.83957223999E+00	-1.35787652814E+00
2.76324036004E+06	-1.19645921898E+01	-1.64976333834E+02	1.27086513696E+01	1.64238404761E+02	-4.54841817263E+01	-8.96193503880E+01	-5.90214914281E+00	-1.38931843515E+00
2.78543171463E+06	-1.52900000244E+01	-1.60360305792E+02	1.27166588999E+01	1.64218219237E+02	-4.20678007338E+01	1.53265130282E+02	-5.85098327773E+00	-1.66084998161E+00
2.80762306923E+06	-1.36345465429E+01	-1.78199397911E+02	1.26779192045E+01	1.64157605893E+02	-3.96084373321E+01	-6.32595312858E+01	-5.90578944288E+00	-1.34654785287E+00
2.82981442382E+06	-1.26307315984E+01	-1.55270749430E+02	1.26776788312E+01	1.63868636362E+02	-4.79007414340E+01	2.67520154651E+01	-5.90784867705E+00	-1.68586768397E+00
2.85200577842E+06	-9.83167099395E+00	-1.70091275999E+02	1.26526383324E+01	1.63298779355E+02	-5.24409300666E+01	-1.52141503935E+02	-5.87142742637E+00	-1.48238555134E+00
2.87419713301E+06	-1.36550514451E+01	1.79494376035E+02	1.26581125413E+01	1.63696765584E+02	-5.40156263022E+01	-1.25690654436E+02	-5.88852496304E+00	-1.42744679521E+00
