# Hz S DB R 50
! CMT, M5065, 19127446, 24.2.4/2
! Date: 11/8/2024 5:18:50 PM
! Data: Format (Calibration Info)
! Freq	S11:dB/Ang(F2)	S21:dB/Ang(F2)	S12:dB/Ang(F2)	S22:dB/Ang(F2)
3.00000000000E+05	-1.36175598442E+01	-1.67607591781E+02	1.47040275700E+01	-1.76932363554E+02	-6.30062842259E+01	-1.04478461727E+02	-5.87139678518E+00	-2.92469042576E-01
3.22191354595E+05	-1.17130866208E+01	1.77773768649E+02	1.46895415644E+01	-1.77345376051E+02	-4.94653175089E+01	-1.54904829591E+02	-5.84952446692E+00	-3.23681516751E-01
3.44382709190E+05	-1.37506967968E+01	-1.63774911390E+02	1.47187269601E+01	-1.78082662106E+02	-5.25575651192E+01	-2.81986003423E+01	-5.87957051378E+00	-2.65264424023E-01
3.66574063785E+05	-1.50235867745E+01	-1.65046847533E+02	1.47226863755E+01	-1.78509800966E+02	-4.78986608784E+01	3.46980731395E+01	-5.85120270897E+00	-4.17946349699E-01
3.88765418380E+05	-1.51087440374E+01	1.79750006801E+02	1.45701770840E+01	1.78944181025E+02	-5.85252816024E+01	-4.12101594760E+01	-6.00235497442E+00	-3.30716569718E-01
4.10956772975E+05	-1.58719745077E+01	1.74025436411E+02	1.47360521285E+01	-1.79147494297E+02	-4.19806343051E+01	-1.74287394417E+02	-5.85406366674E+00	-4.52695197346E-01
4.33148127570E+05	-1.33815464262E+01	-1.62115076632E+02	1.46960857949E+01	-1.79697261492E+02	-4.18423922968E+01	-3.86088093597E+01	-5.87658875571E+00	-2.97811758938E-01
4.55339482165E+05	-1.21479331767E+01	-1.63258302471E+02	1.47144401489E+01	-1.79942704507E+02	-4.98817705410E+01	-1.15789884037E+02	-5.86503122016E+00	-3.00127852093E-01
4.77530836760E+05	-1.50654540729E+01	-1.70703271008E+02	1.47207731390E+01	1.79750320770E+02	-5.03956140227E+01	-2.26683338020E+01	-5.88234498234E+00	-4.77526534071E-01
4.99722191355E+05	-1.30739414089E+01	-1.45533052281E+02	1.47071443719E+01	1.79311068400E+02	-4.12145452755E+01	-1.31574602797E+02	-5.85542560792E+00	-2.29645745084E-01
5.21913545950E+05	-1.22881572990E+01	-1.63611400423E+02	1.46916782171E+01	1.78932399982E+02	-4.06386809331E+01	-1.48307279274E+02	-5.82649208312E+00	-2.88761194099E-01
5.44104900545E+05	-1.13284199082E+01	1.67581887901E+02	1.46712004078E+01	1.79180741354E+02	-5.09127955651E+01	-1.23907477412E+02	-5.86815615826E+00	-3.66834961030E-01
5.66296255139E+05	-1.36133222490E+01	-1.72123126443E+02	1.47106101293E+01	1.78737493361E+02	-4.08935210606E+01	-1.43507385194E+02	-5.85052912057E+00	-2.22770886911E-01
5.88487609734E+05	-1.27379478246E+01	-1.66604236261E+02	1.47165710693E+01	1.78274840829E+02	-4.47924945257E+01	7.28158737903E+01	-5.87486083913E+00	-5.85108306699E-01
6.10678964329E+05	-1.54681778830E+01	-1.51613785122E+02	1.47181060158E+01	1.78182205740E+02	-4.44977323528E+01	1.41578675387E+02	-5.85654885768E+00	-2.71877494165E-02
6.32870318924E+05	-1.57983953768E+01	-1.61597999639E+02	1.47137258620E+01	1.77879204030E+02	-4.99038831595E+01	1.53715351399E+02	-5.84938818858E+00	-2.71653383389E-01
6.55061673519E+05	-1.27052329769E+01	-1.48280389332E+02	1.46991777665E+01	1.77625554267E+02	-4.81659125644E+01	-1.03378100169E+02	-5.86842578184E+00	-2.14806922066E-01
6.77253028114E+05	-1.18031974544E+01	1.74349890173E+02	1.46676513384E+01	1.77534787094E+02	-3.86147385435E+01	1.04682255705E+02	-5.83701938385E+00	-8.98960770074E-01
6.99444382709E+05	-1.22307210771E+01	-1.73970696859E+02	1.47032648492E+01	1.77249441266E+02	-5.33734378031E+01	-1.93072802841E+01	-5.91084826798E+00	-4.87518611375E-01
7.21635737304E+05	-1.21825688252E+01	1.79623128946E+02	1.47111037381E+01	1.76981938682E+02	-3.93849345472E+01	1.58063014472E+02	-5.83325128189E+00	-3.82507536759E-01
7.43827091899E+05	-1.22926904931E+01	1.61854137078E+02	1.47047793764E+01	1.77016611422E+02	-4.58266461170E+01	8.68909452853E+01	-5.88134989509E+00	-7.17979704476E-01
7.66018446494E+05	-1.35660703045E+01	-1.77902765057E+02	1.47171169884E+01	1.76864819915E+02	-4.18167474023E+01	-1.10207241184E+02	-5.88431932464E+00	-3.30334843101E-01
7.88209801089E+05	-1.19178181210E+01	-1.74804376592E+02	1.47005012931E+01	1.76539011683E+02	-5.02787213816E+01	1.38132645965E+01	-5.88931603865E+00	-4.42661994102E-01
8.10401155684E+05	-1.40252532112E+01	-1.77005510571E+02	1.47008363982E+01	1.76307396840E+02	-5.64865249287E+01	-7.01555471627E+01	-5.87157231847E+00	-4.66762721220E-01
8.32592510279E+05	-1.17906183663E+01	-1.75599942790E+02	1.46531784238E+01	1.76059764403E+02	-4.49935390696E+01	1.07408312709E+02	-5.87611010414E+00	-5.60507518544E-01
8.54783864874E+05	-1.83160149451E+01	-1.72770539327E+02	1.47442146816E+01	1.75948588538E+02	-4.22023945785E+01	1.24181876604E+02	-5.84395110166E+00	-6.81562442390E-01
8.76975219469E+05	-1.20013769525E+01	1.63696036329E+02	1.46745016026E+01	1.75679368902E+02	-4.16183467468E+01	8.44891662597E+00	-5.90171663396E+00	-6.29079517249E-01
8.99166574064E+05	-1.15282496512E+01	-1.72280670093E+02	1.46844065123E+01	1.75502576529E+02	-3.98632877264E+01	1.23076176849E+02	-5.84146771863E+00	-6.33653958791E-01
9.21357928659E+05	-1.32307476334E+01	-1.73026794595E+02	1.46941006068E+01	1.75288682398E+02	-4.27876603015E+01	-5.65690607292E+01	-5.89498585567E+00	-3.42369228881E-01
9.43549283254E+05	-1.32415356593E+01	-1.73159001810E+02	1.46883264210E+01	1.75146820487E+02	-5.51722401922E+01	1.28051561311E+02	-5.86217252701E+00	-5.79481925488E-01
9.65740637849E+05	-1.28999960017E+01	-1.70976155393E+02	1.47025900265E+01	1.74705445237E+02	-4.61050871156E+01	1.75549688869E+02	-5.85797022022E+00	-5.55844753706E-01
9.87931992444E+05	-1.19985736386E+01	-1.76542793057E+02	1.46791255457E+01	1.74736452341E+02	-4.47469228803E+01	7.82100533478E+01	-5.88367439461E+00	-5.53393006633E-01
1.01012334704E+06	-1.43575368578E+01	-1.76174956464E+02	1.46849465369E+01	1.74596881040E+02	-5.53323636078E+01	1.25020161257E+02	-5.87925814241E+00	-4.11087736103E-01
1.03231470163E+06	-1.15316337379E+01	-1.73041629027E+02	1.46917947690E+01	1.74353776416E+02	-4.35045697028E+01	-8.19316715259E+01	-5.88397971481E+00	-5.36187213583E-01
1.05450605623E+06	-1.49165079316E+01	-1.79381423724E+02	1.47032598877E+01	1.74263115694E+02	-5.34219599735E+01	-6.86457454587E+01	-5.90186001511E+00	-4.91602267285E-01
1.07669741082E+06	-1.38583312764E+01	-1.63248232433E+02	1.46865946905E+01	1.74147907208E+02	-4.61436158288E+01	1.33019645657E+02	-5.82315515266E+00	-1.07752163302E-01
1.09888876542E+06	-1.10609038750E+01	-1.70435877212E+02	1.46716414281E+01	1.73648837914E+02	-4.34220561179E+01	1.26661374344E+02	-5.85854727104E+00	-7.84541686709E-01
1.12108012001E+06	-1.40649031258E+01	-1.69117727390E+02	1.46819862948E+01	1.73829650776E+02	-5.46129385442E+01	7.84543361364E+01	-5.86826529448E+00	-7.03484214694E-01
1.14327147461E+06	-1.44741169888E+01	-1.71655735913E+02	1.47170588780E+01	1.73549864614E+02	-5.30511520965E+01	-1.72790059875E+02	-5.87291758119E+00	-6.04977650994E-01
1.16546282920E+06	-1.39923182162E+01	-1.64736092894E+02	1.47385809680E+01	1.73385417827E+02	-5.70800552665E+01	1.50729790621E+02	-5.89055370640E+00	-6.71453227264E-01
1.18765418380E+06	-1.36057681749E+01	-1.68985494385E+02	1.46914076995E+01	1.73213913046E+02	-3.69026230698E+01	1.20815980833E+02	-5.83259494492E+00	-6.69726958883E-01
1.20984553839E+06	-1.65436580887E+01	1.68128015886E+02	1.46806039782E+01	1.73186573325E+02	-4.06750442039E+01	8.13033203223E+01	-5.86604768493E+00	-8.51618362939E-01
1.23203689299E+06	-1.03150472200E+01	-1.71152000701E+02	1.46790879870E+01	1.72747560981E+02	-5.08145977298E+01	1.76940184114E+02	-5.86047129317E+00	-4.20439468215E-01
1.25422824758E+06	-1.40614350519E+01	-1.63212505421E+02	1.46908743515E+01	1.72548122056E+02	-4.79780359450E+01	1.35358112390E+02	-5.86717849926E+00	-8.29888921160E-01
1.27641960218E+06	-1.16871738317E+01	-1.60812261302E+02	1.46972995403E+01	1.72309984451E+02	-5.20718497907E+01	1.11798458699E+02	-5.88673030680E+00	-8.26811142070E-01
1.29861095677E+06	-1.12271684846E+01	-1.65141243607E+02	1.46907088237E+01	1.72197798477E+02	-4.40558342796E+01	-8.69731524747E+01	-5.86959392009E+00	-5.50373888944E-01
1.32080231137E+06	-1.11950472723E+01	-1.73319089424E+02	1.46705916288E+01	1.72119236580E+02	-4.38630592984E+01	-1.66742443739E+02	-5.86316967362E+00	-8.87984982556E-01
1.34299366596E+06	-1.58932329055E+01	-1.67304132908E+02	1.46935932497E+01	1.72101481357E+02	-4.05716079347E+01	1.58502482319E+02	-5.83771909912E+00	-7.80449969062E-01
1.36518502056E+06	-1.60535049270E+01	-1.45789215429E+02	1.47029918979E+01	1.71912030493E+02	-5.54335128979E+01	8.85647562486E+01	-5.89658208174E+00	-5.84857043415E-01
1.38737637515E+06	-1.03337049677E+01	-1.73439628528E+02	1.46771617311E+01	1.71390618170E+02	-5.09002264251E+01	1.64082262117E+02	-5.87989002778E+00	-7.41291196634E-01
1.40956772975E+06	-1.26761503715E+01	-1.75742945327E+02	1.46972480983E+01	1.71415591352E+02	-4.60557895621E+01	3.49220777809E+01	-5.89653275150E+00	-1.01081589573E+00
1.43175908434E+06	-1.25050525846E+01	1.77705460359E+02	1.46730545054E+01	1.71371155097E+02	-4.40712658966E+01	1.11128924917E+02	-5.83710681374E+00	-9.81060882560E-01
1.45395043894E+06	-1.28874714321E+01	-1.65271558028E+02	1.47142895111E+01	1.71206026604E+02	-4.45717238806E+01	-3.44861113628E+01	-5.90537708414E+00	-6.64001778263E-01
1.47614179353E+06	-1.29325663034E+01	1.68845008478E+02	1.46908598099E+01	1.71289285184E+02	-4.28555304798E+01	4.45330063733E+01	-5.89217516754E+00	-9.86623747603E-01
1.49833314813E+06	-1.22297993489E+01	-1.58076851957E+02	1.46863959056E+01	1.70589480204E+02	-4.81361143648E+01	-6.13737792800E+01	-5.87259377415E+00	-6.63846059135E-01
1.52052450272E+06	-1.15319195262E+01	-1.72716603618E+02	1.47092581828E+01	1.70592319529E+02	-4.05222045117E+01	1.48377173919E+02	-5.81489248558E+00	-6.82456892105E-01
1.54271585732E+06	-1.51053805492E+01	1.67206487206E+02	1.46973186508E+01	1.70716242838E+02	-5.47630567535E+01	1.81698868566E+01	-5.88244831701E+00	-8.27899024133E-01
1.56490721191E+06	-1.20323215773E+01	-1.58404662740E+02	1.46848456667E+01	1.70216582650E+02	-5.22161773351E+01	-7.27212664961E+01	-5.87990684755E+00	-7.61502876055E-01
1.58709856651E+06	-1.55897725447E+01	-1.73703606907E+02	1.46840229097E+01	1.70327729242E+02	-4.60601452984E+01	1.39099567488E+02	-5.85786703093E+00	-8.63926484253E-01
1.60928992110E+06	-1.14930891104E+01	-1.67172760856E+02	1.46703806791E+01	1.69944311412E+02	-4.47407515072E+01	7.64189576273E+01	-5.88595893652E+00	-1.13450711206E+00
1.63148127570E+06	-1.11577395968E+01	-1.65505787397E+02	1.46682280015E+01	1.69827243543E+02	-4.58548080638E+01	3.23741993995E+01	-5.87275525927E+00	-1.02896789227E+00
1.65367263029E+06	-1.21604124987E+01	-1.77259260589E+02	1.46856899087E+01	1.69810801898E+02	-4.32842590551E+01	-8.98279064211E+01	-5.89642791742E+00	-7.69801979469E-01
1.67586398489E+06	-1.24102699258E+01	-1.74894051269E+02	1.46682781733E+01	1.69735642394E+02	-5.03196082483E+01	6.60779460977E+01	-5.89253152983E+00	-7.51761030307E-01
1.69805533948E+06	-1.21407522769E+01	-1.55066518451E+02	1.46981018609E+01	1.69306156938E+02	-3.94892461584E+01	-1.07001888978E+01	-5.93577081123E+00	-9.85092335211E-01
1.72024669408E+06	-1.27641247207E+01	-1.79064815239E+02	1.46708103881E+01	1.69480218968E+02	-4.55519570255E+01	1.01292195580E+02	-5.86721292624E+00	-1.14594264994E+00
1.74243804867E+06	-1.17225054544E+01	-1.60002584096E+02	1.46918858272E+01	1.68877023670E+02	-4.48581286652E+01	6.83067741378E+01	-5.86782684186E+00	-1.16123917918E+00
1.76462940327E+06	-1.22376172770E+01	-1.68290327932E+02	1.46676101292E+01	1.68993461741E+02	-5.03337161935E+01	-1.74007974974E+02	-5.83319704718E+00	-8.82720192536E-01
1.78682075786E+06	-1.25823980618E+01	-1.75048481206E+02	1.47065797541E+01	1.68764300991E+02	-5.27264642870E+01	2.15161344795E+01	-5.87954472667E+00	-1.01103826343E+00
1.80901211246E+06	-1.33231415422E+01	-1.77924448467E+02	1.46824034376E+01	1.68566555521E+02	-5.15961012382E+01	1.06770966328E+02	-5.86407336220E+00	-1.18627160768E+00
1.83120346705E+06	-1.55524318601E+01	-1.76005012586E+02	1.46908025329E+01	1.68489165043E+02	-3.51559317010E+01	4.94150417985E+01	-5.88043534585E+00	-1.33015778369E+00
1.85339482165E+06	-1.24288565849E+01	-1.63014642980E+02	1.46896255146E+01	1.68322950507E+02	-5.30124764193E+01	-1.67395601341E+02	-5.88791878008E+00	-1.00558500015E+00
1.87558617624E+06	-1.03967770042E+01	-1.68218972278E+02	1.46607555206E+01	1.68099150153E+02	-4.64364010893E+01	-1.01438030476E+02	-5.88053944559E+00	-9.69790713038E-01
1.89777753084E+06	-1.23046013063E+01	-1.61235549881E+02	1.46827225309E+01	1.67920710356E+02	-4.77351385896E+01	9.77384942169E+01	-5.86002650569E+00	-1.26054227765E+00
1.91996888543E+06	-1.59437252670E+01	1.78606263043E+02	1.47144220822E+01	1.68020176193E+02	-4.58120964093E+01	-1.44902324974E+02	-5.84848108459E+00	-8.38478030048E-01
1.94216024003E+06	-1.23659852119E+01	-1.78747793538E+02	1.46924350720E+01	1.67745097901E+02	-4.41619085891E+01	1.25422906773E+02	-5.86191247049E+00	-1.07097892916E+00
1.96435159462E+06	-1.61853662774E+01	-1.77976092802E+02	1.47050001364E+01	1.67682431050E+02	-5.09656341818E+01	2.01108989487E+01	-5.88200679242E+00	-1.07219707634E+00
1.98654294922E+06	-1.20348744446E+01	-1.75086692911E+02	1.46965728949E+01	1.67330692352E+02	-3.85523579591E+01	9.92949672971E+01	-5.83649038261E+00	-1.29773003237E+00
2.00873430381E+06	-1.86591177696E+01	-1.75961165856E+02	1.47210655692E+01	1.67429611399E+02	-4.77339093431E+01	1.23126116155E+02	-5.85810038578E+00	-1.12127744109E+00
2.03092565841E+06	-1.51356454776E+01	-1.55042946754E+02	1.47318168524E+01	1.67045599992E+02	-4.72238293163E+01	1.17177341085E+02	-5.85050215948E+00	-1.13591357986E+00
2.05311701300E+06	-1.30176320527E+01	1.75892047182E+02	1.46730363327E+01	1.67098911696E+02	-4.22778629152E+01	1.51896487937E+02	-5.85340511675E+00	-1.18022187706E+00
2.07530836760E+06	-1.15748276120E+01	1.72638624722E+02	1.46660359589E+01	1.66831804092E+02	-5.30349705000E+01	2.80951617389E+01	-5.86828647700E+00	-1.14492372056E+00
2.09749972219E+06	-1.20105532541E+01	-1.71898708565E+02	1.46699026316E+01	1.66704585384E+02	-5.31531022028E+01	1.51550635405E+02	-5.85863190772E+00	-1.01981228112E+00
2.11969107679E+06	-1.41622245802E+01	-1.68376103782E+02	1.47180535452E+01	1.66543083108E+02	-5.14411790998E+01	-2.01582612706E+01	-5.88932673858E+00	-1.19616047466E+00
2.14188243138E+06	-9.41444347318E+00	-1.52568484552E+02	1.46980064402E+01	1.65792521046E+02	-3.72908561481E+01	1.08229521741E+00	-5.90560530671E+00	-1.35203116277E+00
2.16407378598E+06	-1.71994399017E+01	-1.19992101977E+02	1.47611968306E+01	1.66265768490E+02	-4.13007607526E+01	1.13150568144E+02	-5.84795646463E+00	-1.38750804348E+00
2.18626514057E+06	-1.16003268992E+01	-1.75231976493E+02	1.46540395180E+01	1.65958166857E+02	-4.48116672130E+01	-1.82240166755E+01	-5.88774850000E+00	-1.15477365357E+00
2.20845649517E+06	-1.33366892093E+01	-1.56181116763E+02	1.47115416670E+01	1.65918879834E+02	-5.19342170530E+01	1.08704820077E+02	-5.85791062032E+00	-1.50119404640E+00
2.23064784976E+06	-1.56363777487E+01	-1.77846749480E+02	1.46978611112E+01	1.65913208587E+02	-3.96817891498E+01	-3.67076865755E+01	-5.92009965888E+00	-1.23900865998E+00
2.25283920436E+06	-1.51926060047E+01	-1.65592378960E+02	1.47038213539E+01	1.65660421664E+02	-4.52465414442E+01	-7.16012227445E+01	-5.88661935716E+00	-1.06999382206E+00
2.27503055895E+06	-1.35873186071E+01	-1.77067288023E+02	1.47003784458E+01	1.65426161566E+02	-4.78714520432E+01	1.43574388203E+01	-5.88902767450E+00	-1.15007963930E+00
2.29722191355E+06	-1.50959533338E+01	-1.54402033908E+02	1.47001687546E+01	1.65223535012E+02	-3.90697455857E+01	-1.55582600409E+02	-5.84289291554E+00	-1.05054356506E+00
2.31941326814E+06	-1.62621846656E+01	1.67239486163E+02	1.46897874927E+01	1.65178603050E+02	-5.14020149293E+01	8.65820926207E+01	-5.85969492659E+00	-1.29233819477E+00
2.34160462274E+06	-1.24718129199E+01	-1.73056903036E+02	1.46831118773E+01	1.64967641999E+02	-4.56436757689E+01	1.47295665439E+02	-5.84500192157E+00	-1.19568231446E+00
2.36379597733E+06	-1.34087666934E+01	-1.65493853050E+02	1.46970730861E+01	1.64773131312E+02	-4.67513596570E+01	3.93189478542E+01	-5.88886106606E+00	-1.47700938470E+00
2.38598733193E+06	-1.27119152175E+01	-1.66141410244E+02	1.46898351592E+01	1.64720686102E+02	-3.98315792762E+01	-1.03274320459E+02	-5.88088788561E+00	-9.00183330896E-01
2.40817868652E+06	-1.19929601487E+01	-1.55001384677E+02	1.47107649032E+01	1.64445791120E+02	-4.32917299151E+01	-8.83608103750E+01	-5.91289460682E+00	-1.19411235430E+00
2.43037004112E+06	-1.43977215246E+01	-1.65925656031E+02	1.47100524253E+01	1.64185519986E+02	-4.32380215805E+01	-1.13063152287E+02	-5.86649291401E+00	-1.45368543925E+00
2.45256139571E+06	-1.04204789493E+01	-1.33978443942E+02	1.47566824253E+01	1.64215354633E+02	-3.09705443595E+01	7.32868962691E+01	-5.79971544905E+00	-1.72492258257E+00
2.47475275031E+06	-1.10312284833E+01	1.55178748931E+02	1.46649933955E+01	1.64219367324E+02	-4.23154271360E+01	-1.48013554875E+02	-5.86020593045E+00	-1.15937961573E+00
2.49694410490E+06	-1.11495237771E+01	-1.66037254385E+02	1.46955234506E+01	1.63736966555E+02	-4.41649707056E+01	-3.97018210693E+01	-5.91553877114E+00	-1.31076172178E+00
2.51913545950E+06	-1.42256452775E+01	-1.35683210635E+02	1.47495095132E+01	1.63616700064E+02	-4.32415196783E+01	5.64956672902E+01	-5.90008349527E+00	-1.46503132279E+00
2.54132681409E+06	-1.19800564979E+01	-1.70059740732E+02	1.46931481872E+01	1.63483078493E+02	-4.33883388150E+01	-7.83896895101E+01	-5.90446553610E+00	-1.04036334327E+00
2.56351816869E+06	-1.31115974497E+01	-1.75742727679E+02	1.46804441607E+01	1.63539162045E+02	-4.37068679013E+01	7.63062456295E+00	-5.89246530961E+00	-1.32981332423E+00
2.58570952328E+06	-1.27392150879E+01	-1.79053845333E+02	1.46977425288E+01	1.63342412336E+02	-4.23260566483E+01	-1.74872514048E+02	-5.87401580887E+00	-1.15883846857E+00
2.60790087788E+06	-9.34976529056E+00	-1.49698053141E+02	1.47173167759E+01	1.62898544412E+02	-3.95620665738E+01	4.48808200554E+01	-5.91097998391E+00	-1.42602494859E+00
2.63009223247E+06	-1.13987229309E+01	-1.52109700206E+02	1.47060957239E+01	1.62771240193E+02	-6.27885724551E+01	2.96411178563E+01	-5.87759928512E+00	-1.04980738563E+00
2.65228358707E+06	-1.23137020164E+01	-1.63844697533E+02	1.46765657499E+01	1.62693549756E+02	-4.47002599806E+01	6.14063199295E+00	-5.92843500616E+00	-1.40001987851E+00
2.67447494166E+06	-1.17497638390E+01	-1.75698557411E+02	1.46873020537E+01	1.62648084023E+02	-4.82023069810E+01	-7.45661823955E+01	-5.87992541474E+00	-1.24787290546E+00
2.69666629626E+06	-1.19288690788E+01	-1.65795914569E+02	1.47051933085E+01	1.62435751974E+02	-4.80154414315E+01	-9.85046497538E+01	-5.87714695760E+00	-1.19986959528E+00
2.71885765085E+06	-9.33724011731E+00	-1.65287393938E+02	1.46664025961E+01	1.61997276039E+02	-5.08914995027E+01	7.19794352125E+01	-5.89171881624E+00	-1.61739815621E+00
2.74104900545E+06	-1.18867052032E+01	-1.66827416748E+02	1.46844736115E+01	1.62128823964E+02	-4.52117677467E+01	6.75381734409E+01	-5.88685180735E+00	-1.48105595688E+00
2.76324036004E+06	-1.54937346200E+01	-1.67838837361E+02	1.47083188455E+01	1.62043878231E+02	-3.83684826040E+01	4.48371181891E+01	-5.92096969461E+00	-1.80758212850E+00
2.78543171463E+06	-9.73996748875E+00	-1.68867114163E+02	1.46984719038E+01	1.61711968741E+02	-4.99066640787E+01	-1.09706677190E+02	-5.87127439553E+00	-1.40322823166E+00
2.80762306923E+06	-1.39399563000E+01	-1.63657955844E+02	1.46989194599E+01	1.61624033003E+02	-5.15500603527E+01	-3.85808386489E+01	-5.87941122709E+00	-1.42449148989E+00
2.82981442382E+06	-1.55251070296E+01	1.79973311314E+02	1.46982861863E+01	1.61633497273E+02	-4.21361845236E+01	-1.35404086848E+02	-5.86651559555E+00	-1.19195600298E+00
2.85200577842E+06	-1.32037775119E+01	-1.75459271425E+02	1.47102152991E+01	1.61573835970E+02	-4.76218006421E+01	9.06285418772E+01	-5.86943136401E+00	-1.79686916589E+00
2.87419713301E+06	-1.24278181686E+01	1.75745280670E+02	1.46695558081E+01	1.61264426081E+02	-4.59296683818E+01	-8.34840497751E+01	-5.89025389316E+00	-1.43168015886E+00
