# Hz S DB R 50
! CMT, M5065, 19127446, 24.2.4/2
! Date: 11/8/2024 5:24:02 PM
! Data: Format (Calibration Info)
! Freq	S11:dB/Ang(F2)	S21:dB/Ang(F2)	S12:dB/Ang(F2)	S22:dB/Ang(F2)
3.00000000000E+05	-1.52220106034E+01	-1.47614998483E+02	1.99801964807E+01	-1.76424711322E+02	-4.95892853129E+01	1.26937677120E+02	-5.87437847425E+00	-6.93079539688E-01
3.22191354595E+05	-1.47059730571E+01	-1.61537539753E+02	1.99733795189E+01	-1.77201408954E+02	-4.16482452567E+01	-1.52053943935E+00	-5.92777294163E+00	-3.36310910113E-01
3.44382709190E+05	-1.23785580334E+01	-1.64685059433E+02	1.99710845749E+01	-1.77862566225E+02	-4.93114145215E+01	-1.40626985667E+02	-5.83857735195E+00	-1.59592281684E-01
3.66574063785E+05	-1.03293608198E+01	-1.77156922189E+02	1.99366601790E+01	-1.78324918710E+02	-4.79723481472E+01	1.37299025285E+02	-5.83093199317E+00	-4.17883823002E-01
3.88765418380E+05	-1.47531091113E+01	-1.70924165641E+02	2.01058102942E+01	-1.78953818436E+02	-4.22354979832E+01	1.07434229573E+02	-5.88093346342E+00	-6.90137650933E-01
4.10956772975E+05	-1.55078711770E+01	-1.67192714858E+02	1.99928096905E+01	-1.79401000800E+02	-4.44240370472E+01	6.11707704109E+01	-5.89704184402E+00	-6.93523308528E-01
4.33148127570E+05	-1.27205721255E+01	1.76824340730E+02	1.99605342443E+01	-1.79765301917E+02	-3.86265552319E+01	-1.64148608152E+02	-5.78107685746E+00	-2.13786733687E-01
4.55339482165E+05	-1.57775407600E+01	1.75666256452E+02	2.00076049800E+01	1.79691224623E+02	-4.29261857473E+01	-1.70358178963E+02	-5.82230986634E+00	-5.15535767284E-01
4.77530836760E+05	-1.43268680106E+01	-1.73804623197E+02	1.99758158274E+01	1.79205642502E+02	-4.47767594100E+01	-1.61815629449E+02	-5.82408523813E+00	-3.84357410781E-01
4.99722191355E+05	-1.31606981509E+01	-1.42128709922E+02	1.99802013611E+01	1.78422869762E+02	-5.66583067940E+01	1.44753825404E+02	-5.87017735505E+00	-4.47887938682E-01
5.21913545950E+05	-1.30444348010E+01	-1.60169835235E+02	1.99784181426E+01	1.78086850764E+02	-4.70738878482E+01	-1.46858722851E+02	-5.83758761195E+00	-2.76367332195E-01
5.44104900545E+05	-1.04027989239E+01	-1.68282118568E+02	1.99433225489E+01	1.77751734894E+02	-4.15169258468E+01	-7.33637921731E+01	-5.89106893504E+00	-1.53824035485E-01
5.66296255139E+05	-1.35488217241E+01	-1.70065618000E+02	1.99793850169E+01	1.77490266212E+02	-4.46449420018E+01	-1.27699862358E+02	-5.87064999708E+00	-2.27346359550E-01
5.88487609734E+05	-1.26622993348E+01	1.67677513596E+02	1.99840968936E+01	1.77281005754E+02	-4.61541871492E+01	4.36515983892E+01	-5.89170923252E+00	-5.84437212326E-01
6.10678964329E+05	-1.30725331718E+01	-1.72124370616E+02	1.99653850500E+01	1.76788221092E+02	-4.82687918496E+01	1.07322574826E+02	-5.85645022083E+00	1.70145497721E-03
6.32870318924E+05	-9.31760870117E+00	-1.72336929658E+02	1.99156285085E+01	1.76329651694E+02	-4.36973761002E+01	1.24472923512E+02	-5.83150442991E+00	-4.43101855487E-01
6.55061673519E+05	-1.15916373339E+01	1.78757615850E+02	1.99542177581E+01	1.76296791356E+02	-4.53837910530E+01	6.70588245544E+01	-5.91159149823E+00	-6.52273049241E-01
6.77253028114E+05	-1.65123798116E+01	-1.65174580447E+02	1.99723035301E+01	1.75799089948E+02	-4.90891130973E+01	1.27028457685E+02	-5.88042593340E+00	-8.36936877305E-01
6.99444382709E+05	-1.07748630678E+01	-1.74604829825E+02	1.99050774582E+01	1.75471216173E+02	-3.65304401026E+01	-1.35395665444E+02	-5.84249477028E+00	-1.89084113885E-01
7.21635737304E+05	-1.56617248658E+01	1.77049992016E+02	1.99536297655E+01	1.75183272323E+02	-4.61450403486E+01	-2.16800505141E+01	-5.89513839591E+00	-3.24752309372E-01
7.43827091899E+05	-1.55216750224E+01	-1.70840795874E+02	1.99811850523E+01	1.74795183963E+02	-3.92701571341E+01	1.29260961287E+01	-5.95580877506E+00	-7.39204781002E-01
7.66018446494E+05	-1.29975969071E+01	-1.70474226651E+02	1.99606344096E+01	1.74477245806E+02	-6.46895059500E+01	1.43839619482E+02	-5.85570962490E+00	-6.27184820500E-01
7.88209801089E+05	-1.64663975203E+01	1.72281266825E+02	1.99763091599E+01	1.74271662183E+02	-4.60464093520E+01	1.13805936615E+02	-5.86453436085E+00	-6.19416428584E-01
8.10401155684E+05	-1.27904543748E+01	1.78948332939E+02	1.99358775944E+01	1.73937629903E+02	-4.55733761233E+01	-1.61960469815E+02	-5.86566582686E+00	-4.66164183458E-01
8.32592510279E+05	-1.20508996588E+01	1.78472122533E+02	1.99294103207E+01	1.73766007270E+02	-4.24461224858E+01	-6.83429020176E+01	-5.88996387789E+00	-3.17883004874E-01
8.54783864874E+05	-1.29423518624E+01	-1.49220571625E+02	1.99353014103E+01	1.73155796861E+02	-3.98512448323E+01	-7.66852545708E+01	-5.88031556908E+00	-1.60672984071E-01
8.76975219469E+05	-1.32829058567E+01	1.70423090599E+02	1.99320204612E+01	1.73300399086E+02	-4.36364519766E+01	1.39933376962E+02	-5.83397716135E+00	-6.81820391287E-01
8.99166574064E+05	-1.10766642791E+01	1.79932121118E+02	1.98956000212E+01	1.72803646303E+02	-4.50641858657E+01	8.27143073865E+01	-5.86400062071E+00	-8.01424349256E-01
9.21357928659E+05	-1.26787982736E+01	-1.56914885133E+02	1.99507598730E+01	1.72317701610E+02	-5.08055438882E+01	3.37282997775E+01	-5.88610348954E+00	-4.96408662040E-01
9.43549283254E+05	-1.23587960687E+01	-1.78525652301E+02	1.99195201157E+01	1.72348849235E+02	-4.68677077065E+01	-1.08745423270E+01	-5.87910834015E+00	-5.82230016165E-01
9.65740637849E+05	-1.18595502664E+01	-1.58872470083E+02	1.99372634813E+01	1.71787200712E+02	-5.28592254034E+01	-1.74611739487E+02	-5.84941226385E+00	-6.57702785933E-01
9.87931992444E+05	-1.27095354167E+01	-1.65611460309E+02	1.99326183130E+01	1.71616663313E+02	-4.81840471122E+01	7.34838083878E+01	-5.88556849689E+00	-7.36842708115E-01
1.01012334704E+06	-9.24403842790E+00	-1.56636740278E+02	1.99046044968E+01	1.71242164752E+02	-4.11259211167E+01	1.23330865888E+02	-5.82330021829E+00	-7.42455755583E-01
1.03231470163E+06	-1.40818567770E+01	-1.62408072001E+02	1.99364651191E+01	1.71065590681E+02	-4.36683844973E+01	-1.19829941355E+02	-5.83442734481E+00	-2.11694885692E-01
1.05450605623E+06	-1.30228448972E+01	-1.77308095105E+02	1.99024369010E+01	1.70902727120E+02	-4.17926280588E+01	-1.11183176593E+02	-5.85163320733E+00	-3.00468693346E-01
1.07669741082E+06	-1.40815655792E+01	-1.70222023545E+02	2.00132878301E+01	1.70555396448E+02	-4.62627249120E+01	-1.46505927482E+02	-5.85726336169E+00	-2.05724719550E-01
1.09888876542E+06	-1.20890704292E+01	-1.72787263313E+02	1.98982797752E+01	1.70176787661E+02	-4.18193304808E+01	2.84696286820E+01	-5.91850481538E+00	-8.55236989105E-01
1.12108012001E+06	-1.26607180088E+01	1.78958681725E+02	1.98935563646E+01	1.70238219403E+02	-4.93545413506E+01	7.09189345179E+01	-5.87815636912E+00	-6.53799763651E-01
1.14327147461E+06	-1.37599138575E+01	-1.76181854784E+02	1.99137123625E+01	1.69879000259E+02	-4.36199808490E+01	1.25976792171E+02	-5.80155757350E+00	-8.90849947923E-01
1.16546282920E+06	-1.24759445735E+01	1.73653909421E+02	1.99092155774E+01	1.69642426004E+02	-4.43981401693E+01	-9.10641407568E+01	-5.87059620762E+00	-3.25233086159E-01
1.18765418380E+06	-1.42044967881E+01	-1.68741502930E+02	1.99158131018E+01	1.69334850030E+02	-4.21899895492E+01	-8.87078874970E+01	-5.88998255810E+00	-3.22503225377E-01
1.20984553839E+06	-1.27054489499E+01	1.78594103042E+02	1.98898708493E+01	1.69147354115E+02	-5.61890658795E+01	5.30815222323E+01	-5.87826005669E+00	-1.00859562159E+00
1.23203689299E+06	-1.20179625330E+01	-1.75104934874E+02	1.98849888880E+01	1.68723464997E+02	-4.48230035831E+01	1.05714317313E+02	-5.86232327345E+00	-8.44766805460E-01
1.25422824758E+06	-1.17415775899E+01	-1.66859843296E+02	1.98705985576E+01	1.68639565791E+02	-4.84719759997E+01	-5.89202384864E+01	-5.91980652411E+00	-6.74615629041E-01
1.27641960218E+06	-1.21735691151E+01	-1.60129931968E+02	1.98882831291E+01	1.68269591773E+02	-4.25225023929E+01	7.63647067584E+01	-5.89137476245E+00	-1.11575428478E+00
1.29861095677E+06	-1.26272822808E+01	-1.60825093771E+02	1.98939154634E+01	1.67840961654E+02	-4.01793942497E+01	1.67484251604E+02	-5.79043076363E+00	-7.45952881524E-01
1.32080231137E+06	-1.26075803566E+01	1.74639208755E+02	1.98844050734E+01	1.67842906454E+02	-3.90641105915E+01	-2.40486267889E+00	-5.93010021138E+00	-1.41919009901E+00
1.34299366596E+06	-1.26821700696E+01	-1.67581371567E+02	1.98434688173E+01	1.67536786911E+02	-4.22838544104E+01	-2.55277259469E+01	-5.91889255804E+00	-6.43229885139E-01
1.36518502056E+06	-1.48959332404E+01	1.66214540443E+02	1.98959269941E+01	1.67627225290E+02	-4.74003780057E+01	1.20070243416E+00	-5.94617528741E+00	-7.85604095738E-01
1.38737637515E+06	-1.43510472029E+01	-1.77064441139E+02	1.98613796619E+01	1.67038885367E+02	-5.06718596633E+01	8.04181806415E+01	-5.88580067681E+00	-8.89861140282E-01
1.40956772975E+06	-1.45349864072E+01	-1.71001746359E+02	1.98783768776E+01	1.66843908874E+02	-4.03320028911E+01	-1.28646216039E+02	-5.85911103782E+00	-3.61146429540E-01
1.43175908434E+06	-1.80190411904E+01	-1.52064565778E+02	1.99115469612E+01	1.66510301006E+02	-5.08344338484E+01	1.65083968686E+01	-5.89911198925E+00	-6.88160785064E-01
1.45395043894E+06	-1.45258545225E+01	1.79218849241E+02	1.98638724080E+01	1.66469928859E+02	-4.13023073998E+01	1.74704321908E+02	-5.76923400919E+00	-6.92521829735E-01
1.47614179353E+06	-1.11774248380E+01	-1.65078014333E+02	1.98834251948E+01	1.65983932226E+02	-3.72960022530E+01	-5.43449165761E+01	-5.97124398733E+00	-6.01176936479E-01
1.49833314813E+06	-1.35485109535E+01	-1.60430220209E+02	1.98695881975E+01	1.65770437799E+02	-5.61446898978E+01	4.47627088589E+01	-5.87957056783E+00	-1.00908772132E+00
1.52052450272E+06	-1.35923335450E+01	-1.65391931326E+02	1.98754634969E+01	1.65542895423E+02	-5.09273474310E+01	1.24257795971E+02	-5.86232351178E+00	-9.23866266762E-01
1.54271585732E+06	-1.22334673788E+01	-1.74114075813E+02	1.98770279086E+01	1.65380599266E+02	-4.88845472857E+01	7.74652902247E+01	-5.85372819560E+00	-8.84840465007E-01
1.56490721191E+06	-1.41039869297E+01	-1.60073811366E+02	1.98710865050E+01	1.65002803586E+02	-4.88995780928E+01	1.36972837429E+02	-5.84447195678E+00	-1.00519678765E+00
1.58709856651E+06	-1.33545739847E+01	1.74450755665E+02	1.98564011920E+01	1.64933333275E+02	-4.20742777843E+01	6.93849561924E+01	-5.88456721152E+00	-1.08578815543E+00
1.60928992110E+06	-1.26764570802E+01	-1.79679873409E+02	1.98516226730E+01	1.64654037528E+02	-4.23500049355E+01	4.11407386719E+01	-5.92443994086E+00	-1.35783192110E+00
1.63148127570E+06	-1.27606347931E+01	-1.61180317025E+02	1.98544467865E+01	1.64461401816E+02	-4.43476762944E+01	2.24217963764E+01	-5.86445588944E+00	-1.30787872821E+00
1.65367263029E+06	-1.19132313290E+01	1.59358251901E+02	1.98195350694E+01	1.64223120870E+02	-5.40392122900E+01	-1.28000307539E+02	-5.85345573211E+00	-6.76991356404E-01
1.67586398489E+06	-1.27228992792E+01	-1.69906055016E+02	1.98485906022E+01	1.63915727196E+02	-4.37797007230E+01	3.56562441930E+01	-5.90386557963E+00	-1.12318492842E+00
1.69805533948E+06	-1.54203876147E+01	-1.71174234457E+02	1.98459313621E+01	1.63799807805E+02	-4.36514953868E+01	-9.24736594935E+01	-5.87658823537E+00	-6.52428474458E-01
1.72024669408E+06	-1.07278569323E+01	1.75406156159E+02	1.97849465434E+01	1.63480720047E+02	-5.06266403732E+01	7.64304319748E+00	-5.89599300782E+00	-1.07575021750E+00
1.74243804867E+06	-1.39433418039E+01	-1.60142557404E+02	1.98441450037E+01	1.63339347525E+02	-4.34717879560E+01	1.69108127029E+02	-5.81629686225E+00	-8.45181592824E-01
1.76462940327E+06	-1.32734199604E+01	-1.73013529062E+02	1.98171415391E+01	1.63035830545E+02	-4.53615677643E+01	-1.19223320337E+02	-5.87977260458E+00	-7.71743394426E-01
1.78682075786E+06	-1.38466189886E+01	-1.40445609510E+02	1.98432746219E+01	1.62648889888E+02	-2.94190443127E+01	7.88008858245E+01	-5.83956182024E+00	-2.19861776628E+00
1.80901211246E+06	-1.00972904296E+01	-1.50309174335E+02	1.98407146386E+01	1.62415682757E+02	-4.20543526843E+01	3.48067113286E+01	-5.89758502914E+00	-1.06806198420E+00
1.83120346705E+06	-1.14863988196E+01	1.76076013872E+02	1.98015298936E+01	1.62355166709E+02	-4.60135588989E+01	1.46637786617E+02	-5.84203456916E+00	-1.22422786567E+00
1.85339482165E+06	-1.57982383926E+01	1.78025225277E+02	1.98275072476E+01	1.62189191304E+02	-4.34466836839E+01	-9.01371941082E+01	-5.87209384562E+00	-6.25625250572E-01
1.87558617624E+06	-1.25103057567E+01	-1.67187236292E+02	1.98065510624E+01	1.61831925398E+02	-4.55393884568E+01	1.75050662012E+02	-5.83335385400E+00	-9.41843302285E-01
1.89777753084E+06	-1.28441889522E+01	-1.54993578011E+02	1.98296850313E+01	1.61531730184E+02	-4.70767154694E+01	-4.68676726951E+01	-5.91690663495E+00	-8.64489215229E-01
1.91996888543E+06	-1.26186328960E+01	-1.49860490573E+02	1.98211114136E+01	1.61163744470E+02	-4.68611113504E+01	-3.29020872602E+01	-5.91401047004E+00	-1.11369054941E+00
1.94216024003E+06	-7.06767865108E+00	1.67217223446E+02	1.97562429936E+01	1.60914681097E+02	-3.14967947444E+01	1.65424192990E+02	-5.74128553849E+00	-6.94924497202E-01
1.96435159462E+06	-1.12298379206E+01	-1.72921785570E+02	1.97725279646E+01	1.60856796251E+02	-4.15313575405E+01	-2.90877975514E+01	-5.94353460182E+00	-1.14567462712E+00
1.98654294922E+06	-1.17498148015E+01	-1.53879110237E+02	1.98001398042E+01	1.60570549602E+02	-5.19705676661E+01	-3.98711526492E+01	-5.89564442213E+00	-9.35526181830E-01
2.00873430381E+06	-1.30231757255E+01	-1.64951725470E+02	1.98012266402E+01	1.60389324373E+02	-4.19125987793E+01	1.02980038228E+02	-5.85102764291E+00	-1.57165959111E+00
2.03092565841E+06	-1.40945144711E+01	-1.75580033815E+02	1.97771996153E+01	1.60212554100E+02	-6.56790515121E+01	-1.43712667924E+02	-5.87438086538E+00	-1.06425475894E+00
2.05311701300E+06	-1.27120927122E+01	-1.77481917939E+02	1.97947402531E+01	1.60086129082E+02	-3.94739848320E+01	1.39017420511E+02	-5.77671444496E+00	-1.35088856771E+00
2.07530836760E+06	-1.19070201123E+01	-1.70898471714E+02	1.97712428391E+01	1.59778599570E+02	-4.82002090567E+01	-1.51991317883E+02	-5.84940881635E+00	-1.04010615709E+00
2.09749972219E+06	-9.62196807809E+00	-1.40134543399E+02	1.98211244837E+01	1.59274285004E+02	-4.10567834465E+01	1.72827690922E+02	-5.83452939005E+00	-9.37911776130E-01
2.11969107679E+06	-1.32415333711E+01	1.67637254746E+02	1.97381822154E+01	1.59370096889E+02	-4.67400209843E+01	3.22642141828E+01	-5.93825117801E+00	-1.19330507556E+00
2.14188243138E+06	-1.19118599792E+01	1.75691055662E+02	1.97402156702E+01	1.59211165119E+02	-5.11481469841E+01	-6.14910774476E+01	-5.89155648674E+00	-1.06033767873E+00
2.16407378598E+06	-1.24601021539E+01	-1.67563814321E+02	1.97613766222E+01	1.58914724957E+02	-5.33816166549E+01	-1.69985910444E+02	-5.85917305973E+00	-1.23186312344E+00
2.18626514057E+06	-1.21572529076E+01	-1.73511684686E+02	1.97553255971E+01	1.58588319642E+02	-4.40188577768E+01	9.91907249387E+01	-5.84561657936E+00	-1.41935353433E+00
2.20845649517E+06	-1.06819701114E+01	-1.65728023424E+02	1.97471139715E+01	1.58209430588E+02	-4.94593655748E+01	1.51943362983E+02	-5.85294127439E+00	-1.11279198464E+00
2.23064784976E+06	-1.45444930869E+01	-1.54174886863E+02	1.98119093255E+01	1.58106523350E+02	-4.75874246581E+01	-2.23701089690E+01	-5.92322465374E+00	-1.16917454258E+00
2.25283920436E+06	-1.22459312781E+01	-1.60115192409E+02	1.97875643639E+01	1.57901506364E+02	-3.97891349074E+01	1.18661722066E+02	-5.80917241690E+00	-1.26175082416E+00
2.27503055895E+06	-1.19094664323E+01	1.75621415650E+02	1.97366844848E+01	1.57711858529E+02	-4.10800804837E+01	-1.20947455900E+02	-5.91413668427E+00	-7.93440951589E-01
2.29722191355E+06	-1.02706658315E+01	-1.75361881153E+02	1.96982368836E+01	1.57414425639E+02	-5.50632134784E+01	-8.87445165632E+01	-5.87284511203E+00	-1.19309935871E+00
2.31941326814E+06	-1.30132169598E+01	-1.65914792605E+02	1.97585712402E+01	1.57245755550E+02	-4.24371315615E+01	7.04913704288E+01	-5.90081560195E+00	-1.83432978063E+00
2.34160462274E+06	-1.23585632226E+01	-1.68737019375E+02	1.97401942759E+01	1.57062191556E+02	-4.32454441101E+01	2.61009440749E+01	-5.90919810397E+00	-1.47173952056E+00
2.36379597733E+06	-1.28379876737E+01	-1.48228076306E+02	1.97726624062E+01	1.56556526252E+02	-4.03347552083E+01	4.67867791648E+01	-5.92634769137E+00	-1.64735196545E+00
2.38598733193E+06	-1.09132796337E+01	-1.69915360211E+02	1.97344151087E+01	1.56459305960E+02	-4.53035725016E+01	1.05296552332E+02	-5.88038864373E+00	-1.47902678772E+00
2.40817868652E+06	-1.10285196163E+01	-1.71444578793E+02	1.97372495652E+01	1.56184174356E+02	-3.80194491109E+01	3.41844694994E+01	-5.91484459774E+00	-1.75931024376E+00
2.43037004112E+06	-1.15204054630E+01	-1.76661172478E+02	1.97194139610E+01	1.55999955608E+02	-4.78775835729E+01	-1.74377480613E+02	-5.87459592093E+00	-1.74602183369E+00
2.45256139571E+06	-1.17069451522E+01	-1.57805349837E+02	1.97353412730E+01	1.55824666319E+02	-4.14765249391E+01	-9.46548397734E+01	-5.89620359171E+00	-7.41273282747E-01
2.47475275031E+06	-1.29263217482E+01	-1.52970503587E+02	1.97624933622E+01	1.55573853207E+02	-4.49440372932E+01	-1.16090346948E+02	-5.86851953042E+00	-9.33268980603E-01
2.49694410490E+06	-1.44774909110E+01	-1.69495347743E+02	1.97401402218E+01	1.55544229704E+02	-5.09080252346E+01	2.82819630379E+01	-5.90789202174E+00	-1.42178038399E+00
2.51913545950E+06	-1.40219914642E+01	1.77890237196E+02	1.97278942670E+01	1.55334678599E+02	-4.85737187919E+01	1.11677676457E+02	-5.85761169390E+00	-1.55424312483E+00
2.54132681409E+06	-1.35757661350E+01	-1.55220249153E+02	1.97201868567E+01	1.54924430679E+02	-4.97282703685E+01	-1.69001565189E+01	-5.91381634254E+00	-1.35620554462E+00
2.56351816869E+06	-1.37997861485E+01	-1.68747224833E+02	1.97046144227E+01	1.54815656857E+02	-4.74299120275E+01	-1.71726294625E+02	-5.88369447262E+00	-1.36445630483E+00
2.58570952328E+06	-1.00764795163E+01	-1.71382407100E+02	1.96786520500E+01	1.54322980903E+02	-3.56449271993E+01	1.58320057655E+02	-5.80910212126E+00	-1.52803205153E+00
2.60790087788E+06	-1.70581609744E+01	-1.59901320391E+02	1.97447608951E+01	1.54553882813E+02	-5.39514708217E+01	-8.16753174649E+01	-5.87676419166E+00	-1.19565599290E+00
2.63009223247E+06	-1.27699215421E+01	-1.69733423942E+02	1.96990714924E+01	1.54072621853E+02	-5.90984493372E+01	-1.79933748023E+01	-5.88803886620E+00	-8.90019065887E-01
2.65228358707E+06	-1.12881592823E+01	-1.76306125461E+02	1.96834352564E+01	1.53815793960E+02	-5.11090811246E+01	-5.50041456738E+01	-5.88415601073E+00	-1.49218425268E+00
2.67447494166E+06	-1.09143470922E+01	-1.64230179881E+02	1.96843345077E+01	1.53324470839E+02	-4.07446910861E+01	-1.48367640321E+02	-5.81729262793E+00	-1.13989201408E+00
2.69666629626E+06	-1.22211174228E+01	1.79734919663E+02	1.96671439443E+01	1.53426902358E+02	-4.59919040996E+01	5.22194123450E+01	-5.91224386807E+00	-1.61324388645E+00
2.71885765085E+06	-1.26089027719E+01	-1.61515609434E+02	1.97077180626E+01	1.53114743310E+02	-4.23215228822E+01	-1.69516695881E+02	-5.82658514287E+00	-1.23179144623E+00
2.74104900545E+06	-1.41091704851E+01	-1.52648040281E+02	1.97012311949E+01	1.52927818915E+02	-5.12909574593E+01	-7.41433287367E+01	-5.90315147533E+00	-1.29137110812E+00
2.76324036004E+06	-1.42131874169E+01	-1.62926273470E+02	1.96933600619E+01	1.52682666001E+02	-4.32573220086E+01	-1.71646374046E+02	-5.81441476742E+00	-1.52483375161E+00
2.78543171463E+06	-1.29041900782E+01	-1.74267425117E+02	1.96567046454E+01	1.52583245687E+02	-5.59468191577E+01	-6.02134503610E+01	-5.89442665245E+00	-1.35163204456E+00
2.80762306923E+06	-1.12309978504E+01	-1.61631581763E+02	1.96621417161E+01	1.52093738758E+02	-6.17305544814E+01	1.01787359382E+01	-5.87932551724E+00	-1.57776944941E+00
2.82981442382E+06	-1.62276087512E+01	-1.76215002528E+02	1.96809996522E+01	1.52161189084E+02	-4.10060335656E+01	1.59185782930E+02	-5.81636595126E+00	-1.42185676855E+00
2.85200577842E+06	-1.50905970851E+01	-1.41632156565E+02	1.97049430031E+01	1.51832031578E+02	-4.36476824688E+01	-3.26818530874E+01	-5.94698048614E+00	-1.36583600670E+00
2.87419713301E+06	-1.33835660606E+01	1.61402494260E+02	1.96550957236E+01	1.51738560907E+02	-4.07827196393E+01	9.25774990063E+01	-5.87472157455E+00	-1.90484110375E+00
