# Hz S DB R 50
! CMT, M5065, 19127446, 24.2.4/2
! Date: 11/8/2024 5:36:25 PM
! Data: Format (Calibration Info)
! Freq	S11:dB/Ang(F2)	S21:dB/Ang(F2)	S12:dB/Ang(F2)	S22:dB/Ang(F2)
3.00000000000E+05	-1.46201073105E+01	-1.64992356538E+02	3.16105508326E+01	-1.75273303410E+02	-5.11952038577E+01	1.42923391365E+02	-5.84381459802E+00	-1.05548675534E+00
3.22191354595E+05	-1.37113998909E+01	-1.64429784637E+02	3.16290030272E+01	-1.77267822498E+02	-4.33238440757E+01	-4.82694269816E+01	-5.99102901235E+00	-3.57283668781E-02
3.44382709190E+05	-1.29243324058E+01	-1.74047606459E+02	3.16149376857E+01	-1.78769823103E+02	-4.96263515504E+01	-5.56340744194E+01	-5.87818243471E+00	2.06858543735E-01
3.66574063785E+05	-1.52446576573E+01	-1.38570113325E+02	3.16560679633E+01	1.79513273678E+02	-3.95736377760E+01	-1.54131247496E+02	-5.66036524921E+00	5.23347762490E-01
3.88765418380E+05	-1.20881290863E+01	1.75626169493E+02	3.20254251619E+01	1.76870731679E+02	-5.18371137104E+01	1.69359916439E-01	-6.78143745354E+00	2.33177172713E+00
4.10956772975E+05	-1.24260612769E+01	-1.78291610178E+02	3.15838994225E+01	1.76850852092E+02	-4.10267865280E+01	1.60141054873E+02	-5.61136288358E+00	-8.78714480331E-01
4.33148127570E+05	-9.71571881885E+00	-1.71297079160E+02	3.15424896734E+01	1.75404898068E+02	-4.58972530912E+01	1.33379404044E+02	-5.76104061369E+00	-1.39297343992E+00
4.55339482165E+05	-1.36772197959E+01	-1.77064673666E+02	3.15777535888E+01	1.74290340503E+02	-5.00589212945E+01	1.24770064678E+02	-5.77943472150E+00	-9.80366947319E-01
4.77530836760E+05	-1.88576592210E+01	-1.69848072838E+02	3.15710675069E+01	1.73118163090E+02	-4.22224018511E+01	-9.20143909599E+01	-5.85670578219E+00	9.02184908435E-01
4.99722191355E+05	-1.15023080045E+01	1.69063260246E+02	3.14718313374E+01	1.72121786004E+02	-4.50833862447E+01	-7.62471602014E+01	-5.83951612938E+00	7.87304036895E-02
5.21913545950E+05	-1.30512960518E+01	1.78026902563E+02	3.14695825873E+01	1.70854225967E+02	-3.59149475810E+01	-8.49194016154E+01	-5.89665966577E+00	2.31398845589E+00
5.44104900545E+05	-1.17495432558E+01	-1.61817059442E+02	3.14574166509E+01	1.69691735632E+02	-5.20506618809E+01	1.45746235657E+02	-5.82852961073E+00	-1.15827993815E+00
5.66296255139E+05	-1.48884515579E+01	-1.52920902469E+02	3.14629246121E+01	1.68591422941E+02	-4.73134915920E+01	-8.25859044141E+01	-5.89963524594E+00	7.41550225434E-02
5.88487609734E+05	-1.51403433440E+01	-1.74243867027E+02	3.14278024965E+01	1.67757657133E+02	-4.51184696045E+01	9.46067100268E+01	-5.84247074967E+00	-1.25608629113E+00
6.10678964329E+05	-1.17028862508E+01	-1.79210053295E+02	3.13636904459E+01	1.67021256564E+02	-4.55203272262E+01	1.77901416163E+02	-5.73832313410E+00	-5.46127638258E-01
6.32870318924E+05	-1.24721039111E+01	-1.70848806989E+02	3.13381675100E+01	1.65988025014E+02	-4.69040811446E+01	-1.55393749840E+02	-5.72157521449E+00	-2.25166928697E-01
6.55061673519E+05	-1.22140665196E+01	-1.71340203295E+02	3.12938987235E+01	1.64919891479E+02	-3.85631226866E+01	1.08780624158E+02	-5.84898253679E+00	-2.50766642754E+00
6.77253028114E+05	-1.42056820453E+01	-1.70475321663E+02	3.12856733287E+01	1.64094705504E+02	-4.96677203114E+01	8.32952650782E+01	-5.88803122287E+00	-1.45387346759E+00
6.99444382709E+05	-1.35828197019E+01	-1.47465548332E+02	3.12619356522E+01	1.63162315055E+02	-4.74222432316E+01	1.18767709305E+02	-5.84167696399E+00	-1.21981881835E+00
7.21635737304E+05	-1.38672849987E+01	-1.76847589065E+02	3.12224947611E+01	1.62621641764E+02	-4.74051847415E+01	3.13970749514E+01	-5.98281010177E+00	-8.48741642868E-01
7.43827091899E+05	-1.41983448834E+01	-1.52808968750E+02	3.11814410799E+01	1.61556550381E+02	-5.83824923910E+01	-1.68990528839E+02	-5.86173003082E+00	-4.28267199564E-01
7.66018446494E+05	-1.25706670313E+01	1.70317340667E+02	3.11126634661E+01	1.61011462898E+02	-4.97033023609E+01	-8.07423105076E+01	-5.90532455231E+00	-2.30191346590E-01
7.88209801089E+05	-1.27187560713E+01	-1.65756626440E+02	3.11086500479E+01	1.59969774686E+02	-4.16204795762E+01	3.23656068702E+01	-6.04620653166E+00	-1.46683691236E+00
8.10401155684E+05	-1.20760285008E+01	-1.77228874117E+02	3.10554017848E+01	1.59335460239E+02	-3.77513247750E+01	-1.24395263539E+01	-6.12938142791E+00	-1.34665021905E-01
8.32592510279E+05	-1.17008019558E+01	-1.74509318975E+02	3.10265353335E+01	1.58476731996E+02	-4.46038050189E+01	5.63023808098E+01	-6.00605103671E+00	-1.47018247444E+00
8.54783864874E+05	-1.39798648377E+01	-1.78090778132E+02	3.09888024857E+01	1.57821391900E+02	-4.10246728782E+01	1.26483847537E+02	-5.74766751371E+00	-2.20987603468E+00
8.76975219469E+05	-1.34261504510E+01	-1.74253728558E+02	3.09739504500E+01	1.57008965863E+02	-4.58266004757E+01	-1.58622785775E+02	-5.78337449357E+00	-4.99680039336E-01
8.99166574064E+05	-1.48512342870E+01	1.76934459028E+02	3.09413535006E+01	1.56514187245E+02	-4.55653483988E+01	-1.40531235325E+02	-5.75309036975E+00	-9.51252199736E-02
9.21357928659E+05	-1.28655515120E+01	-1.67264259703E+02	3.08914263497E+01	1.55458483544E+02	-4.05681656105E+01	1.49100542004E+02	-5.67178448097E+00	-1.56730073349E+00
9.43549283254E+05	-1.32014302191E+01	1.76019078938E+02	3.08345217124E+01	1.54978354550E+02	-4.81917959926E+01	-7.94732182691E+01	-5.87587761897E+00	1.09611605035E-02
9.65740637849E+05	-1.57987269288E+01	1.76477432240E+02	3.08143510735E+01	1.54231535874E+02	-3.74079457383E+01	-7.34989340258E+01	-5.86229241895E+00	9.69946815615E-01
9.87931992444E+05	-1.37118280968E+01	1.53787082598E+02	3.07747994440E+01	1.53733238281E+02	-4.06895516024E+01	-5.41616697405E+01	-5.97109712941E+00	8.54130359212E-01
1.01012334704E+06	-1.08771301545E+01	-1.66888701118E+02	3.07432758796E+01	1.52658132400E+02	-4.63515253072E+01	4.75418440811E+01	-5.97124064795E+00	-1.10896234178E+00
1.03231470163E+06	-1.15820733314E+01	-1.68557303408E+02	3.06835383757E+01	1.51921142214E+02	-4.05578806201E+01	1.66046782382E+02	-5.64073200898E+00	-1.62116875856E+00
1.05450605623E+06	-1.58827016748E+01	-1.68867467953E+02	3.06848885190E+01	1.51542209864E+02	-4.34341248225E+01	-1.10900627938E+02	-5.77552054992E+00	8.91312143548E-02
1.07669741082E+06	-1.24798566414E+01	-1.77310288560E+02	3.06320307489E+01	1.50699263875E+02	-4.47960848281E+01	6.23511081904E+01	-6.10679298924E+00	-1.73024105474E+00
1.09888876542E+06	-1.09522408651E+01	-1.59182160468E+02	3.05693796197E+01	1.49808307124E+02	-5.14186192346E+01	-1.51563157847E+01	-5.92877499080E+00	-5.41900473480E-01
1.12108012001E+06	-1.21618185575E+01	-1.79227964484E+02	3.05058294107E+01	1.49663901026E+02	-3.88278813253E+01	-1.37353453429E+01	-6.12977030345E+00	9.90367305989E-03
1.14327147461E+06	-1.10592007203E+01	-1.46316720691E+02	3.05114135575E+01	1.48589842079E+02	-4.09979962849E+01	-8.01549777197E+01	-5.83284732069E+00	7.76765525838E-01
1.16546282920E+06	-1.31741655143E+01	-1.70972888311E+02	3.04565156329E+01	1.48156639416E+02	-3.95371813151E+01	-2.96330235140E+01	-6.06662302424E+00	4.50286604346E-01
1.18765418380E+06	-1.15061378321E+01	-1.61971250651E+02	3.03961464655E+01	1.47499445397E+02	-4.59970194312E+01	-1.65149602296E+02	-5.73315109432E+00	-5.16442902964E-01
1.20984553839E+06	-9.79677861662E+00	-1.77647461075E+02	3.03228635870E+01	1.46936127690E+02	-4.01980752573E+01	4.48370992416E+01	-6.08603605017E+00	-1.67186263055E+00
1.23203689299E+06	-1.10056103510E+01	-1.67067573774E+02	3.03077557203E+01	1.46273092122E+02	-4.44278805737E+01	4.88874918070E+01	-6.05396240483E+00	-1.22124573368E+00
1.25422824758E+06	-1.18491972329E+01	-1.59018174294E+02	3.02957190465E+01	1.45621926453E+02	-4.17686829745E+01	-5.59333410792E+01	-5.95126514987E+00	4.21718082402E-01
1.27641960218E+06	-1.61263917829E+01	-1.65516396069E+02	3.01677340947E+01	1.45254704461E+02	-3.95374037543E+01	-7.76812651372E+01	-5.82105043690E+00	1.28572037855E-01
1.29861095677E+06	-1.28011715377E+01	-1.77354052994E+02	3.01941963625E+01	1.44783391113E+02	-4.58765569285E+01	6.76184564890E+01	-5.97684264475E+00	-1.52452663282E+00
1.32080231137E+06	-1.39079860666E+01	-1.60634501696E+02	3.01753314431E+01	1.44087444344E+02	-3.95903347923E+01	-1.80082711551E+00	-6.14148725729E+00	-4.23052499129E-01
1.34299366596E+06	-1.33953206193E+01	1.73411407770E+02	3.00994009283E+01	1.43614731795E+02	-4.39121124544E+01	-1.00255503690E+02	-5.85584865582E+00	1.87877709443E-01
1.36518502056E+06	-1.75201023757E+01	-1.63795470809E+02	3.01054347824E+01	1.42996095480E+02	-5.74260920053E+01	-2.91832349695E+01	-5.97858439082E+00	-5.72097583933E-01
1.38737637515E+06	-1.25667480211E+01	-1.64437100257E+02	3.00221667391E+01	1.42172566646E+02	-4.87683343132E+01	8.19581604682E+01	-5.91338990932E+00	-1.31121375094E+00
1.40956772975E+06	-1.46924380955E+01	-1.66173746547E+02	3.00005074328E+01	1.41825080500E+02	-5.24246267620E+01	4.59287366782E+01	-5.95723947199E+00	-1.13392167806E+00
1.43175908434E+06	-1.64110756555E+01	-1.71099044498E+02	2.99413327880E+01	1.41353060051E+02	-4.34089181892E+01	-1.12013221592E+02	-5.79607108384E+00	-2.08502281367E-01
1.45395043894E+06	-1.29410781223E+01	-1.67318888710E+02	2.98745728045E+01	1.40557642535E+02	-4.71950250953E+01	-1.65959564590E+02	-5.75171376308E+00	-1.23910337041E+00
1.47614179353E+06	-1.36922567747E+01	-1.68783157038E+02	2.98498349544E+01	1.40242220055E+02	-4.59167066827E+01	8.44595827987E+01	-5.91341411333E+00	-1.71143452332E+00
1.49833314813E+06	-1.16656905386E+01	-1.73830254017E+02	2.97729272487E+01	1.39536589707E+02	-4.91663530722E+01	1.44464954044E+01	-5.99968150913E+00	-7.46967944833E-01
1.52052450272E+06	-1.19583573325E+01	-1.43250455071E+02	2.97684504460E+01	1.38927582236E+02	-4.51502522171E+01	-9.83427304404E+00	-6.02845355377E+00	-3.62345021317E-01
1.54271585732E+06	-1.50050020172E+01	-1.63123853264E+02	2.97102255556E+01	1.38648746712E+02	-4.68929441456E+01	-1.40298669887E+02	-5.81189915946E+00	-7.27236591873E-01
1.56490721191E+06	-1.42042807913E+01	-1.75886320608E+02	2.96273047070E+01	1.38061828698E+02	-5.13689520764E+01	-5.32287885584E+01	-5.92115054352E+00	-3.50818493137E-01
1.58709856651E+06	-1.31759450991E+01	-1.66098189091E+02	2.96260568286E+01	1.37513367848E+02	-4.85392826362E+01	1.75485924932E+02	-5.87389655656E+00	-1.29717223818E+00
1.60928992110E+06	-1.08508030071E+01	-1.64466442656E+02	2.95520637030E+01	1.36848157574E+02	-3.86566819926E+01	-4.82967658429E+01	-5.94724703470E+00	9.14097371260E-01
1.63148127570E+06	-1.26150365415E+01	1.61870806665E+02	2.95065880106E+01	1.36782178727E+02	-4.53943465366E+01	-8.97675279233E+01	-5.84140473898E+00	-1.77678509096E-01
1.65367263029E+06	-1.29987934846E+01	-1.57193797173E+02	2.94888004819E+01	1.35861748371E+02	-5.31485732364E+01	6.70536239339E+01	-5.92089198195E+00	-1.08249148549E+00
1.67586398489E+06	-9.02085590162E+00	-1.79961438310E+02	2.93894619817E+01	1.35528607732E+02	-6.42590310110E+01	1.07197317369E+02	-5.89615662989E+00	-1.25055864937E+00
1.69805533948E+06	-1.14251628696E+01	-1.70920846583E+02	2.93806783004E+01	1.34980438549E+02	-4.77190089250E+01	1.61007986305E+02	-5.81134637670E+00	-1.59835072972E+00
1.72024669408E+06	-1.59107190569E+01	-1.71303206755E+02	2.93588168217E+01	1.34615196727E+02	-4.72809770090E+01	-1.03512631626E+02	-5.83550700118E+00	-4.67673482305E-01
1.74243804867E+06	-9.79453365218E+00	-1.70582047682E+02	2.92723374822E+01	1.33913789122E+02	-3.42741444304E+01	1.58786806416E+01	-6.17213795580E+00	-2.96069535496E-01
1.76462940327E+06	-1.17988447111E+01	1.77864447870E+02	2.92319214199E+01	1.33561106019E+02	-5.32787726444E+01	-2.83181855351E+01	-5.89057635020E+00	-6.41829000596E-01
1.78682075786E+06	-1.33938965257E+01	-1.72903702968E+02	2.92177027224E+01	1.33024881332E+02	-4.65887965438E+01	5.32609543700E+01	-6.00089927755E+00	-1.53279810072E+00
1.80901211246E+06	-1.55908729166E+01	-1.57455033560E+02	2.91793653772E+01	1.32592459387E+02	-5.17580500304E+01	1.10922908893E+02	-5.88403441545E+00	-1.18851770699E+00
1.83120346705E+06	-1.31055313385E+01	1.74337889077E+02	2.91186329940E+01	1.32217468857E+02	-6.38799476776E+01	-1.61068188306E+02	-5.86604620174E+00	-1.09198436591E+00
1.85339482165E+06	-1.69661523275E+01	1.79886612442E+02	2.91030130312E+01	1.31735859914E+02	-5.32194117114E+01	-1.37917393652E+02	-5.83258961967E+00	-1.06657907886E+00
1.87558617624E+06	-1.48509381376E+01	-1.65192710912E+02	2.90301941751E+01	1.31176535946E+02	-4.30276378625E+01	1.50739015748E+02	-5.78490194830E+00	-1.93484335678E+00
1.89777753084E+06	-1.45292599973E+01	-1.65217496511E+02	2.89876901527E+01	1.30693098795E+02	-3.63891143926E+01	-1.20476193733E+02	-5.58255246685E+00	-2.43764802810E-01
1.91996888543E+06	-1.21612331124E+01	1.75635991940E+02	2.89050632608E+01	1.30342733843E+02	-3.77708927245E+01	1.13505173769E+01	-6.14057788674E+00	-5.88778954275E-01
1.94216024003E+06	-1.16245122567E+01	-1.63588784273E+02	2.88841188334E+01	1.29779296613E+02	-5.15786802764E+01	-3.72640388925E+01	-5.92945755585E+00	-6.66972674209E-01
1.96435159462E+06	-1.16083120297E+01	-1.74068397655E+02	2.88185264487E+01	1.29360268385E+02	-4.82884608278E+01	8.16513898648E+01	-5.91086052255E+00	-1.69674605721E+00
1.98654294922E+06	-1.20010788771E+01	-1.57845733764E+02	2.88027452364E+01	1.28783357091E+02	-4.31726167418E+01	1.36535213290E+02	-5.83560603708E+00	-1.81332004780E+00
2.00873430381E+06	-1.12507871171E+01	-1.66805827021E+02	2.87471237226E+01	1.28427606736E+02	-5.75972327042E+01	-1.06158385775E+02	-5.86884570137E+00	-1.00421399581E+00
2.03092565841E+06	-1.18969183008E+01	-1.66524342506E+02	2.86839767866E+01	1.27962044029E+02	-4.71092676774E+01	-1.19001624124E-01	-5.96205386614E+00	-9.38009734272E-01
2.05311701300E+06	-1.24121871213E+01	-1.65141431411E+02	2.86477402866E+01	1.27508423386E+02	-3.47407893984E+01	-1.53090322753E+02	-5.47659603287E+00	-1.61576086291E+00
2.07530836760E+06	-1.30355704043E+01	-1.62562512560E+02	2.86164466564E+01	1.27298589634E+02	-3.96997766004E+01	1.71245983746E+02	-5.76544462298E+00	-1.81105638854E+00
2.09749972219E+06	-1.42227855958E+01	-1.63467238584E+02	2.85810496215E+01	1.26864188642E+02	-4.36378102505E+01	1.23927478199E+02	-5.83998928607E+00	-1.96989626588E+00
2.11969107679E+06	-1.39673439111E+01	-1.68131108077E+02	2.85261349576E+01	1.26354788312E+02	-6.01139678121E+01	-5.21434879364E+01	-5.89179241204E+00	-9.03143809525E-01
2.14188243138E+06	-1.63836820275E+01	-1.76593266945E+02	2.84766177452E+01	1.26113066896E+02	-4.81023179049E+01	-4.96994011392E+01	-5.89506306795E+00	-5.23358801060E-01
2.16407378598E+06	-9.22805944543E+00	1.79804383315E+02	2.83859656378E+01	1.25482739567E+02	-4.35066263668E+01	-7.25441093644E+01	-5.86622147723E+00	-2.11512318973E-01
2.18626514057E+06	-1.36137633261E+01	1.79987378276E+02	2.83942450501E+01	1.25319835281E+02	-4.20903431504E+01	1.62728403891E+02	-5.73035999147E+00	-2.26373004903E+00
2.20845649517E+06	-1.15856926195E+01	-1.68078222817E+02	2.83204400721E+01	1.24542889108E+02	-3.60748181526E+01	-3.12927054978E+01	-6.03513384314E+00	1.05280438133E+00
2.23064784976E+06	-1.45350471388E+01	1.73624252227E+02	2.82789214016E+01	1.24404270920E+02	-3.90849528158E+01	-6.96602035422E+01	-5.84969898353E+00	-2.61017139665E-01
2.25283920436E+06	-1.28064761708E+01	-1.49984423604E+02	2.82521892716E+01	1.23760596366E+02	-4.37503902518E+01	-1.35820630388E+02	-5.73904445167E+00	-1.08884261927E+00
2.27503055895E+06	-1.12686732043E+01	-1.68578354924E+02	2.81971788881E+01	1.23432123925E+02	-5.03381781478E+01	-1.36459278015E+02	-5.83023709748E+00	-1.07968041930E+00
2.29722191355E+06	-1.42655794653E+01	1.66951950978E+02	2.81532519554E+01	1.23202017722E+02	-5.49600488345E+01	1.73113928626E+01	-5.91912657858E+00	-1.34642819461E+00
2.31941326814E+06	-1.39580638460E+01	-1.52933893985E+02	2.81073980889E+01	1.22684182967E+02	-4.58196279274E+01	1.14035974855E+02	-5.90645733131E+00	-2.02093607889E+00
2.34160462274E+06	-1.14461041213E+01	-1.72027030006E+02	2.80541375531E+01	1.22306493930E+02	-4.43699658597E+01	-2.63771223625E+01	-5.96414145598E+00	-5.19442666222E-01
2.36379597733E+06	-1.22486296995E+01	-1.75925187448E+02	2.79996920943E+01	1.21923929498E+02	-3.53128220935E+01	1.73560479245E+02	-5.62351185771E+00	-2.64566307534E+00
2.38598733193E+06	-1.61425138465E+01	-1.71169727789E+02	2.79865798460E+01	1.21637701809E+02	-3.58652755252E+01	1.38638035769E+02	-5.80768766000E+00	-3.45868585067E+00
2.40817868652E+06	-1.14120661895E+01	-1.67595121054E+02	2.79036633736E+01	1.20976286058E+02	-4.62486306882E+01	1.55296397226E+02	-5.79261353977E+00	-2.10327286315E+00
2.43037004112E+06	-1.38226143443E+01	-1.55950836040E+02	2.78911297338E+01	1.20626996959E+02	-4.67066519420E+01	1.30126559789E+01	-5.97070546065E+00	-1.53352460984E+00
2.45256139571E+06	-1.24116889136E+01	1.60531381341E+02	2.77911314107E+01	1.20908619802E+02	-4.51221264355E+01	7.69335199855E+01	-5.97612955311E+00	-1.91560609203E+00
2.47475275031E+06	-9.73827500656E+00	-1.54663398473E+02	2.77694687293E+01	1.19789442293E+02	-4.82039435698E+01	1.62316830453E+02	-5.84628739650E+00	-1.73601507010E+00
2.49694410490E+06	-1.20206606678E+01	-1.44097005013E+02	2.77582190036E+01	1.19402320867E+02	-4.26251131232E+01	1.61585053496E+02	-5.77959457412E+00	-2.16818829494E+00
2.51913545950E+06	-1.44391205043E+01	1.79530968447E+02	2.76814174386E+01	1.19405987853E+02	-3.38763542539E+01	8.61462403167E+01	-6.13696950228E+00	-2.97513899593E+00
2.54132681409E+06	-1.32541185137E+01	-1.47441733419E+02	2.76472804687E+01	1.18772968557E+02	-4.04908665509E+01	-1.96027497378E+01	-5.99902980042E+00	-6.70080496903E-02
2.56351816869E+06	-1.33997027098E+01	1.76457366150E+02	2.75642753821E+01	1.18695436990E+02	-4.38314835099E+01	-8.01404667993E+01	-5.85578027101E+00	-6.00327451758E-01
2.58570952328E+06	-1.07300515511E+01	-1.69878817970E+02	2.75207650489E+01	1.18001755696E+02	-4.08146952115E+01	1.02373756071E+02	-5.96796356338E+00	-2.61791345105E+00
2.60790087788E+06	-1.50693253000E+01	1.65746710266E+02	2.75091494578E+01	1.18178665393E+02	-4.26208610239E+01	6.62012696721E+01	-6.02574959853E+00	-2.06498992964E+00
2.63009223247E+06	-8.09461724755E+00	-1.51805394714E+02	2.74371605930E+01	1.16957366410E+02	-4.19793841524E+01	1.55960219389E+02	-5.76185803314E+00	-1.60112007247E+00
2.65228358707E+06	-1.50372767082E+01	-1.72702091848E+02	2.74435525642E+01	1.17292046388E+02	-4.23226472430E+01	-6.71004746510E+01	-5.86781488598E+00	-1.50326088437E-01
2.67447494166E+06	-1.17282665096E+01	-1.75183308024E+02	2.73462458345E+01	1.16681244009E+02	-4.49064541067E+01	-1.74683070219E+02	-5.85509529501E+00	-2.09389107924E+00
2.69666629626E+06	-1.20149741542E+01	-1.65501202143E+02	2.73172011284E+01	1.16297280997E+02	-4.49324252772E+01	7.33167511014E+01	-5.96706005654E+00	-1.86219110613E+00
2.71885765085E+06	-1.21143462095E+01	-1.71272593900E+02	2.72927666441E+01	1.16034676515E+02	-4.68823886496E+01	4.41272968897E+01	-6.02589093100E+00	-1.76791831011E+00
2.74104900545E+06	-1.24089075867E+01	-1.58024976202E+02	2.72259862977E+01	1.15523144292E+02	-4.75728844666E+01	1.70593736777E+02	-5.81867289173E+00	-1.94223567881E+00
2.76324036004E+06	-1.32663552281E+01	1.73628168251E+02	2.71869898393E+01	1.15508980777E+02	-4.25873075554E+01	-8.19106517231E+00	-5.99911343851E+00	-1.02841712414E+00
2.78543171463E+06	-1.29586428973E+01	-1.14959786676E+02	2.72365510517E+01	1.14703176475E+02	-4.78231461057E+01	-1.29144730524E+02	-5.83935934172E+00	-1.43182032459E+00
2.80762306923E+06	-1.23827564464E+01	-1.65576220705E+02	2.71088545925E+01	1.14577073355E+02	-4.51424997805E+01	-1.13593861926E+02	-5.81302245165E+00	-9.47711644923E-01
2.82981442382E+06	-1.04563532853E+01	-1.61605407924E+02	2.70622386089E+01	1.14259961301E+02	-5.40623003610E+01	1.16289005530E+02	-5.98190353630E+00	-2.11530795153E+00
2.85200577842E+06	-1.30251993399E+01	-1.63743349043E+02	2.70213941001E+01	1.14027207424E+02	-4.94479884320E+01	-1.20761746927E+02	-5.85373702632E+00	-1.42139554379E+00
2.87419713301E+06	-1.29647304750E+01	-1.39741723185E+02	2.70359917724E+01	1.13489092450E+02	-4.60423755362E+01	-2.45234821790E+01	-5.98802942789E+00	-1.01514765769E+00
