# Hz S DB R 50
! CMT, M5065, 19127446, 24.2.4/2
! Date: 11/8/2024 5:23:00 PM
! Data: Format (Calibration Info)
! Freq	S11:dB/Ang(F2)	S21:dB/Ang(F2)	S12:dB/Ang(F2)	S22:dB/Ang(F2)
3.00000000000E+05	-1.30974802860E+01	-1.70878208931E+02	1.83412024081E+01	-1.76668515638E+02	-4.91445907793E+01	-9.05334090979E+01	-5.87975845112E+00	-5.52089660776E-01
3.22191354595E+05	-1.18707610197E+01	-1.72694122452E+02	1.83179776693E+01	-1.77161330782E+02	-4.38036012558E+01	-1.25338085840E+02	-5.84241825041E+00	-1.86321498204E-01
3.44382709190E+05	-1.31037556241E+01	-1.63794519855E+02	1.83629072689E+01	-1.77947295646E+02	-4.06280688831E+01	-1.70877684988E+02	-5.81148987579E+00	-2.44053129753E-01
3.66574063785E+05	-1.55592116460E+01	1.74691707935E+02	1.83687312136E+01	-1.78172635406E+02	-4.72032484714E+01	8.92242699957E+01	-5.88117545673E+00	-5.08222116360E-01
3.88765418380E+05	-1.19847226237E+01	1.75037719542E+02	1.82700828734E+01	-1.78479612721E+02	-5.02719811754E+01	-1.77156943441E+02	-6.18982937075E+00	-3.49858531058E-01
4.10956772975E+05	-1.50648854803E+01	-1.50421171281E+02	1.83918621575E+01	-1.79416834330E+02	-4.08493148649E+01	-1.11357060125E+02	-5.84259525447E+00	-2.36980827602E-01
4.33148127570E+05	-1.38622128575E+01	-1.65116312591E+02	1.83841752119E+01	-1.79916615103E+02	-4.45836261096E+01	7.98226169189E+01	-5.86086969901E+00	-5.48779800025E-01
4.55339482165E+05	-1.47153071339E+01	-1.67788802715E+02	1.83735465993E+01	1.79715771886E+02	-4.93342459179E+01	4.27602734241E+01	-5.90251407465E+00	-4.97757311397E-01
4.77530836760E+05	-1.30451420576E+01	-1.57125531927E+02	1.83716254687E+01	1.79161029450E+02	-5.25246644980E+01	-1.22221806091E+02	-5.85568643138E+00	-4.82018547906E-01
4.99722191355E+05	-1.46827580490E+01	-1.62033954373E+02	1.83917177960E+01	1.78945822259E+02	-4.79394370230E+01	1.38572808959E+02	-5.83762861471E+00	-5.85508916859E-01
5.21913545950E+05	-1.13784180207E+01	1.68231971705E+02	1.83398998287E+01	1.78809072563E+02	-5.27646508929E+01	-1.40353327523E+02	-5.86116331975E+00	-1.61515923859E-01
5.44104900545E+05	-1.40825747008E+01	-1.55150320015E+02	1.84015705317E+01	1.78113609914E+02	-5.16611463579E+01	3.27561796485E+01	-5.85300096152E+00	-5.02074626999E-01
5.66296255139E+05	-1.20722754896E+01	-1.58620274536E+02	1.83743027366E+01	1.77814425680E+02	-4.16829134520E+01	-1.57706814120E+02	-5.84438729100E+00	-3.46988912497E-01
5.88487609734E+05	-1.64882988021E+01	-1.46793371362E+02	1.83938550669E+01	1.77562485447E+02	-4.95372564282E+01	-2.07281838733E+01	-5.88289934547E+00	-2.53644395367E-01
6.10678964329E+05	-1.23706585842E+01	-1.79072463239E+02	1.83368083904E+01	1.77326776683E+02	-6.62553467756E+01	-1.41023144398E+02	-5.89761832258E+00	2.02826273940E-01
6.32870318924E+05	-1.46288844237E+01	-1.74181453184E+02	1.83933731877E+01	1.76960957636E+02	-3.65484411362E+01	7.71286110645E+01	-5.87967091985E+00	-5.99448807176E-01
6.55061673519E+05	-1.79796796378E+01	-1.75611971801E+02	1.84111277548E+01	1.76731039433E+02	-4.29706065270E+01	1.05512232804E+02	-5.85413866673E+00	-8.30530571723E-01
6.77253028114E+05	-1.26111817543E+01	-1.63605019485E+02	1.83549409160E+01	1.76347712912E+02	-4.72404770709E+01	-3.01380807192E+00	-5.88023263324E+00	-7.03734454708E-01
6.99444382709E+05	-1.50032306903E+01	-1.63331317363E+02	1.83736914560E+01	1.76064822908E+02	-3.92083732613E+01	-1.55521548186E+02	-5.81340489826E+00	-2.21367939102E-01
7.21635737304E+05	-1.45826319449E+01	-1.53344386208E+02	1.83702771754E+01	1.75736535099E+02	-4.51865708584E+01	-4.59931658164E+00	-5.90518838852E+00	-4.77404214310E-01
7.43827091899E+05	-1.22743776792E+01	-1.66973797663E+02	1.83481025215E+01	1.75454356460E+02	-3.77908661649E+01	1.75937263936E+02	-5.78995482556E+00	-4.72314619792E-01
7.66018446494E+05	-1.46832581267E+01	-1.72157230121E+02	1.83576735027E+01	1.75283506909E+02	-4.21833756492E+01	-3.10017070982E+01	-5.92915450616E+00	-3.85154233136E-01
7.88209801089E+05	-1.21202156639E+01	-1.73490647815E+02	1.83276992376E+01	1.74962208598E+02	-4.01189057995E+01	-5.64286205709E+00	-5.88769498949E+00	-5.48560233802E-01
8.10401155684E+05	-1.37562775522E+01	-1.75157180883E+02	1.83602122262E+01	1.74677134777E+02	-4.49409482182E+01	-1.40699698669E+02	-5.85486122379E+00	-2.97537011283E-01
8.32592510279E+05	-1.25484725441E+01	-1.60665095393E+02	1.83244361414E+01	1.74300661318E+02	-4.64112089097E+01	-2.93159133165E+01	-5.90946438063E+00	-4.88599214946E-01
8.54783864874E+05	-1.48088934916E+01	-1.74120750136E+02	1.83689840648E+01	1.74223485306E+02	-4.16832620028E+01	-4.30183265522E+01	-5.92561553513E+00	-3.61776487181E-01
8.76975219469E+05	-1.44015346059E+01	-1.54349339806E+02	1.83795341412E+01	1.73822054196E+02	-5.11298679174E+01	3.92698559291E+01	-5.86311204736E+00	-6.78052541028E-01
8.99166574064E+05	-1.30529009789E+01	1.75663580030E+02	1.83651588826E+01	1.73836508366E+02	-4.67731315053E+01	1.64858654951E+02	-5.82589350360E+00	-6.44457984876E-01
9.21357928659E+05	-1.63431179441E+01	-1.76969402608E+02	1.83623144003E+01	1.73452626680E+02	-4.49849687235E+01	-1.62182989196E+02	-5.85227716458E+00	-4.48606737171E-01
9.43549283254E+05	-1.13030209865E+01	-1.75628985552E+02	1.83138335966E+01	1.73185471798E+02	-4.34582460375E+01	-2.75876839930E+01	-5.91151085371E+00	-5.42047999770E-01
9.65740637849E+05	-1.42433338097E+01	-1.68836277709E+02	1.83440093252E+01	1.73020155350E+02	-4.31323630188E+01	-4.81575681243E+01	-5.90435312256E+00	-3.26024820160E-01
9.87931992444E+05	-1.22443295233E+01	-1.69086548488E+02	1.83259544543E+01	1.72576257760E+02	-4.09327816747E+01	8.92382899578E+00	-5.94534510013E+00	-7.76977240870E-01
1.01012334704E+06	-9.71293526751E+00	-1.76688927954E+02	1.83125608043E+01	1.72480726597E+02	-4.34147196829E+01	7.42273928034E+01	-5.88194943896E+00	-8.20459755802E-01
1.03231470163E+06	-1.31514615699E+01	-1.52473237441E+02	1.83560814863E+01	1.72108708957E+02	-4.56055741477E+01	-7.04983412342E+01	-5.88429633225E+00	-3.55235373760E-01
1.05450605623E+06	-1.64302183504E+01	-1.55333556871E+02	1.83411080396E+01	1.72057103906E+02	-4.72806613385E+01	-1.54736436813E+02	-5.83471369876E+00	-5.15728602887E-01
1.07669741082E+06	-1.45805439469E+01	-1.63587845595E+02	1.84120918420E+01	1.71961627825E+02	-5.59911116843E+01	-8.20085869948E+01	-5.89893466298E+00	-7.63273659822E-01
1.09888876542E+06	-1.65652101225E+01	-1.78149899499E+02	1.83451478484E+01	1.71520766196E+02	-4.92426120646E+01	1.92694309148E+01	-5.90778715327E+00	-3.51648157627E-01
1.12108012001E+06	-1.91525390590E+01	-1.78221071008E+02	1.83522974916E+01	1.71484905051E+02	-5.48391073426E+01	-3.49005220566E+01	-5.88070264554E+00	-6.91062771016E-01
1.14327147461E+06	-1.35787051309E+01	1.72850344712E+02	1.83235053351E+01	1.71232794066E+02	-4.41126299909E+01	-1.05846451574E+02	-5.87469606267E+00	-4.24885317143E-01
1.16546282920E+06	-1.62889644885E+01	1.75637643708E+02	1.83449507574E+01	1.71147105537E+02	-4.96328954020E+01	1.45168334123E+02	-5.84723573053E+00	-7.78497553432E-01
1.18765418380E+06	-1.83394026173E+01	1.66218955667E+02	1.83668806417E+01	1.70788154166E+02	-4.69147086148E+01	-2.16971504776E+01	-5.90216424620E+00	-5.69726488146E-01
1.20984553839E+06	-1.37225108122E+01	-1.31892057528E+02	1.83565770633E+01	1.70287918546E+02	-4.82168117173E+01	-6.97684151087E+01	-5.91497155521E+00	-6.98318994308E-01
1.23203689299E+06	-1.83133182885E+01	-1.70883643845E+02	1.83424186098E+01	1.70348416464E+02	-4.61108557711E+01	1.64696882438E+02	-5.86367795212E+00	-6.21745352603E-01
1.25422824758E+06	-1.38669496383E+01	-1.65602327652E+02	1.83399165897E+01	1.69999834560E+02	-3.89296998479E+01	-9.76012366803E+01	-5.89735012253E+00	-5.57779371463E-01
1.27641960218E+06	-1.28480358434E+01	-1.74176863817E+02	1.83028854062E+01	1.69816520945E+02	-5.24479950074E+01	-1.60560074418E+02	-5.85397626591E+00	-6.83162854650E-01
1.29861095677E+06	-1.26899963315E+01	-1.67600038730E+02	1.83084066194E+01	1.69581831559E+02	-4.85398492806E+01	-5.42647501661E+01	-5.88176296339E+00	-6.41129057165E-01
1.32080231137E+06	-1.40493454752E+01	-1.77134011096E+02	1.83282557269E+01	1.69474725091E+02	-5.13699883400E+01	-8.13503134721E+01	-5.88029649055E+00	-1.02547828368E+00
1.34299366596E+06	-8.78801162786E+00	-1.73746419712E+02	1.82823363843E+01	1.68934538907E+02	-4.67076160757E+01	1.34185567935E+02	-5.84748856524E+00	-9.85503032202E-01
1.36518502056E+06	-1.25284324101E+01	-1.74511085780E+02	1.82919567538E+01	1.68818562219E+02	-5.03027754244E+01	-1.42489047423E+02	-5.85239575961E+00	-6.32079575015E-01
1.38737637515E+06	-1.37774207394E+01	-1.75591090132E+02	1.83197135463E+01	1.68787782668E+02	-3.90683375790E+01	8.86609502722E+01	-5.85219353230E+00	-1.31548022074E+00
1.40956772975E+06	-1.36100296111E+01	-1.59419106768E+02	1.83189652159E+01	1.68476507851E+02	-4.76960514880E+01	-1.73910162306E+02	-5.86187212493E+00	-7.04101117304E-01
1.43175908434E+06	-1.04590738406E+01	-1.65863390899E+02	1.82735752007E+01	1.68160143391E+02	-4.40485766543E+01	-8.16514658888E+01	-5.88876248758E+00	-6.33168528414E-01
1.45395043894E+06	-1.25750552909E+01	-1.73629417832E+02	1.82857677855E+01	1.68008106720E+02	-4.62785915807E+01	-1.20634382793E+02	-5.86778637897E+00	-6.47778007113E-01
1.47614179353E+06	-1.40394673062E+01	-1.44727164300E+02	1.83315936176E+01	1.67798251614E+02	-4.31115049735E+01	1.41951148222E+02	-5.84216497806E+00	-8.60664568143E-01
1.49833314813E+06	-1.35924818154E+01	-1.61322021563E+02	1.83180102570E+01	1.67688698254E+02	-5.44123053564E+01	-1.39697550392E+02	-5.86890820540E+00	-8.47852551613E-01
1.52052450272E+06	-1.18609420353E+01	-1.51678073910E+02	1.83118317178E+01	1.67146009199E+02	-4.12886847162E+01	7.80457540177E+01	-5.86123721117E+00	-1.13534989892E+00
1.54271585732E+06	-1.40283735011E+01	-1.73106898389E+02	1.83074813790E+01	1.67158744562E+02	-5.12819584285E+01	1.48125544349E+02	-5.86849263505E+00	-8.92208323027E-01
1.56490721191E+06	-1.44352943061E+01	1.71636064595E+02	1.82952028273E+01	1.67132387959E+02	-4.33697782146E+01	-2.09897850485E+01	-5.89602571047E+00	-7.47106087126E-01
1.58709856651E+06	-1.52553842402E+01	-1.73172350808E+02	1.82991429232E+01	1.66887749335E+02	-4.56141524227E+01	1.42142250013E+02	-5.84395429162E+00	-9.40865843692E-01
1.60928992110E+06	-1.18514954336E+01	-1.68876471673E+02	1.82906344967E+01	1.66509338794E+02	-4.69094745917E+01	1.48370197654E+02	-5.84744880082E+00	-9.41375232809E-01
1.63148127570E+06	-1.44821753450E+01	-1.57000890055E+02	1.83001933658E+01	1.66286404028E+02	-4.82359660657E+01	-1.34290294585E+02	-5.87249389391E+00	-8.00494505880E-01
1.65367263029E+06	-1.20011656044E+01	-1.50211500280E+02	1.83157173548E+01	1.66124813483E+02	-4.31502040824E+01	7.20826997814E+01	-5.88486694066E+00	-1.22862129616E+00
1.67586398489E+06	-9.94931220247E+00	1.60192510446E+02	1.82535116836E+01	1.66185202350E+02	-5.17383919575E+01	7.89351607819E+01	-5.87388353407E+00	-8.48187577161E-01
1.69805533948E+06	-1.12399718760E+01	-1.74904261730E+02	1.82628441027E+01	1.65833479535E+02	-4.60969472099E+01	4.50080820898E+00	-5.90393117053E+00	-9.97626929677E-01
1.72024669408E+06	-1.51805165163E+01	-1.63627461785E+02	1.83020902793E+01	1.65433030740E+02	-4.08088983532E+01	4.58512308616E-01	-5.94491410545E+00	-1.22043205413E+00
1.74243804867E+06	-1.27652776208E+01	-1.56285665540E+02	1.83065335402E+01	1.65181981898E+02	-5.13000913763E+01	6.11396427362E+01	-5.87273896206E+00	-1.04570662815E+00
1.76462940327E+06	-1.28845042423E+01	1.73428591897E+02	1.82681090841E+01	1.65460550451E+02	-4.75287475029E+01	-3.12144690723E+01	-5.92049735037E+00	-9.90163129765E-01
1.78682075786E+06	-1.20286596060E+01	-1.65349893700E+02	1.82565054636E+01	1.64769342060E+02	-5.05810847506E+01	5.05490901881E+01	-5.87226008684E+00	-1.10546071002E+00
1.80901211246E+06	-1.42151120822E+01	-1.46785324291E+02	1.83055674747E+01	1.64790558281E+02	-4.35808058672E+01	-4.64799101509E+01	-5.91635667643E+00	-9.17106377677E-01
1.83120346705E+06	-1.09925810393E+01	1.74924865748E+02	1.82589770597E+01	1.64402875743E+02	-5.58824581107E+01	-1.60411755798E+02	-5.86512050489E+00	-8.24083928113E-01
1.85339482165E+06	-1.20614113271E+01	-1.55630768676E+02	1.82734812937E+01	1.64081022483E+02	-3.84314453126E+01	-8.59624330444E+01	-5.90197645146E+00	-4.13555956538E-01
1.87558617624E+06	-1.35721743852E+01	-1.71904209460E+02	1.82878736042E+01	1.64095297091E+02	-3.65532429415E+01	2.51432370076E+01	-5.90521045624E+00	-1.18913874142E+00
1.89777753084E+06	-1.37176061896E+01	-1.72344181189E+02	1.82740486139E+01	1.63909991040E+02	-4.02344227340E+01	1.10770500209E+02	-5.87724030710E+00	-1.32568857965E+00
1.91996888543E+06	-1.52044516977E+01	-1.53789123509E+02	1.83041886528E+01	1.63748695799E+02	-4.69624491788E+01	-2.53570502091E+01	-5.91438273202E+00	-8.73840271826E-01
1.94216024003E+06	-1.25123666114E+01	-1.72762371967E+02	1.82637199497E+01	1.63427000908E+02	-4.77040427299E+01	8.28153312148E+00	-5.89398334184E+00	-1.08212481386E+00
1.96435159462E+06	-9.91445702021E+00	-1.56500200541E+02	1.82812603316E+01	1.63024236324E+02	-4.91052669931E+01	-9.74585908435E+01	-5.86064421099E+00	-8.92194548923E-01
1.98654294922E+06	-1.20229898353E+01	-1.48725297952E+02	1.82569038473E+01	1.62925046937E+02	-4.74464421172E+01	-1.40251992129E+01	-5.92033367679E+00	-1.11614879785E+00
2.00873430381E+06	-1.30396051126E+01	-1.64471767658E+02	1.82789113186E+01	1.62696533638E+02	-4.26851449904E+01	-1.65079207990E+02	-5.81699895431E+00	-8.91919035923E-01
2.03092565841E+06	-1.39363743768E+01	-1.49960758701E+02	1.82983438364E+01	1.62518209977E+02	-3.89726428793E+01	1.51391307201E+02	-5.87786590786E+00	-8.38092842835E-01
2.05311701300E+06	-1.25615024655E+01	-1.73668811297E+02	1.82328742444E+01	1.62357668332E+02	-4.40454458775E+01	-8.75032397214E+00	-5.88313534498E+00	-1.06438895571E+00
2.07530836760E+06	-1.45554585368E+01	-1.71721912060E+02	1.82610858243E+01	1.62226809037E+02	-5.68989243202E+01	2.30301793503E+00	-5.88963354981E+00	-1.09793795025E+00
2.09749972219E+06	-2.28798771003E+01	-1.58855225148E+02	1.83041065242E+01	1.62352044438E+02	-5.38221118277E+01	2.20432213265E+01	-5.86140904969E+00	-1.22417105633E+00
2.11969107679E+06	-1.17982053379E+01	-1.79083292429E+02	1.82237624098E+01	1.61908756553E+02	-4.59971929913E+01	6.01096068270E+01	-5.91242623663E+00	-1.43369835885E+00
2.14188243138E+06	-2.10887260976E+01	-2.73413389236E-01	1.82801611529E+01	1.62150163872E+02	-4.99044904506E+01	1.19510199875E+02	-5.85744700543E+00	-1.16314068864E+00
2.16407378598E+06	-1.26484183755E+01	-1.73090454195E+02	1.82403652793E+01	1.61504790704E+02	-4.16032782016E+01	1.04721831652E+01	-5.92152415341E+00	-1.25336641530E+00
2.18626514057E+06	-1.32620742138E+01	-1.55823618438E+02	1.82742808216E+01	1.61137914654E+02	-4.22503373305E+01	1.79959454336E+02	-5.82623749725E+00	-9.43769556316E-01
2.20845649517E+06	-1.42618928163E+01	-1.67453296170E+02	1.82603060749E+01	1.61092979685E+02	-4.06925808652E+01	-2.98500198809E+01	-5.94824375570E+00	-1.03522207681E+00
2.23064784976E+06	-1.28108055706E+01	-1.69437395531E+02	1.82359470128E+01	1.60763760180E+02	-4.60529869112E+01	1.39063636707E+02	-5.83417024362E+00	-1.18156753208E+00
2.25283920436E+06	-1.11949851307E+01	-1.75325672162E+02	1.82230511263E+01	1.60589577063E+02	-4.44310211060E+01	-9.44660810522E+01	-5.87966899549E+00	-9.46489582930E-01
2.27503055895E+06	-1.57285619456E+01	-1.74499371129E+02	1.82705127151E+01	1.60639851153E+02	-4.78222150486E+01	5.98829162512E+00	-5.92156902347E+00	-1.24106753696E+00
2.29722191355E+06	-1.41531091130E+01	1.74673981670E+02	1.82167260077E+01	1.60272989526E+02	-4.36616417734E+01	-1.43105652563E+01	-5.94245072243E+00	-1.28377645814E+00
2.31941326814E+06	-1.26875599143E+01	-1.63949393449E+02	1.82685976795E+01	1.60046427481E+02	-4.00587227728E+01	-1.05577788633E+01	-5.93711967560E+00	-1.00944911940E+00
2.34160462274E+06	-1.53003538583E+01	-1.66906465645E+02	1.82588014008E+01	1.59830377587E+02	-3.61211922037E+01	1.17708162711E+02	-5.83969934992E+00	-1.30212405658E+00
2.36379597733E+06	-1.57221145442E+01	-1.76662442868E+02	1.82547753688E+01	1.59869479763E+02	-5.76582656354E+01	-6.28176190199E+01	-5.89546122806E+00	-1.29634590253E+00
2.38598733193E+06	-1.27324064457E+01	-1.72236226730E+02	1.82406702326E+01	1.59402971295E+02	-5.02103695007E+01	-1.64818028986E+02	-5.84464747870E+00	-1.07251468153E+00
2.40817868652E+06	-1.11415337845E+01	-1.62048815366E+02	1.82303361376E+01	1.59170855226E+02	-6.51168243856E+01	1.20814597683E+02	-5.86170681783E+00	-1.31209781656E+00
2.43037004112E+06	-1.23704074864E+01	-1.67369710463E+02	1.82373346539E+01	1.59024222832E+02	-4.55576784525E+01	1.72036122347E+01	-5.90854820825E+00	-1.95755262834E+00
2.45256139571E+06	-1.13957088558E+01	-1.66038019736E+02	1.82140260074E+01	1.58590388085E+02	-5.30707388703E+01	1.70866770930E+02	-5.87655290164E+00	-1.30972022989E+00
2.47475275031E+06	-1.45597198287E+01	-1.65229771887E+02	1.82445187447E+01	1.58563117749E+02	-4.72823660460E+01	-8.04851402655E+01	-5.91604235106E+00	-1.06556655020E+00
2.49694410490E+06	-1.27522538263E+01	-1.70071887097E+02	1.82266458094E+01	1.58504644367E+02	-3.06232491566E+01	-1.13543747214E+02	-5.92405913356E+00	-1.69501104592E-01
2.51913545950E+06	-1.20155611467E+01	-1.64515626741E+02	1.82324616965E+01	1.58087739160E+02	-4.35530282436E+01	1.06753280315E+02	-5.86312535826E+00	-1.62238404381E+00
2.54132681409E+06	-1.20808780705E+01	-1.66628890313E+02	1.82082373659E+01	1.57857975533E+02	-3.97770598069E+01	-7.15802669534E+01	-5.92969969051E+00	-9.78245013189E-01
2.56351816869E+06	-1.31744883192E+01	-1.65939050640E+02	1.82086567814E+01	1.57696220232E+02	-4.74147991915E+01	4.81128758428E+01	-5.89548442118E+00	-1.54824956692E+00
2.58570952328E+06	-1.20040678237E+01	-1.67668637114E+02	1.82019699553E+01	1.57517920013E+02	-4.22699152809E+01	4.42731752903E+00	-5.93879330716E+00	-1.41521383125E+00
2.60790087788E+06	-1.05367510008E+01	-1.46790178817E+02	1.82590454085E+01	1.57373492842E+02	-4.59595511571E+01	3.17423928616E+01	-5.90971852999E+00	-1.43557986301E+00
2.63009223247E+06	-1.16827504362E+01	-1.59171476502E+02	1.82205229981E+01	1.56868885702E+02	-5.59842952034E+01	-1.14115554798E+02	-5.90910445795E+00	-9.11775498550E-01
2.65228358707E+06	-1.13782632981E+01	-1.70087075332E+02	1.82085770565E+01	1.56728481005E+02	-3.98005791199E+01	1.02221727406E+01	-5.89249009229E+00	-1.81532684840E+00
2.67447494166E+06	-1.32706648606E+01	-1.54075066439E+02	1.82208773250E+01	1.56664761460E+02	-4.53034705601E+01	-4.12183147092E+00	-5.92651022761E+00	-1.45129041616E+00
2.69666629626E+06	-1.10698062616E+01	-1.62716391890E+02	1.81966690648E+01	1.56302527272E+02	-4.65707819123E+01	-1.39217724185E+02	-5.88475096800E+00	-1.45115769440E+00
2.71885765085E+06	-1.36303079688E+01	-1.49976500534E+02	1.82397971912E+01	1.56206538684E+02	-5.32576736306E+01	-1.46510575957E+02	-5.90214770166E+00	-1.34151389024E+00
2.74104900545E+06	-1.11101727564E+01	-1.69716552083E+02	1.81647869230E+01	1.55839603743E+02	-4.70079720324E+01	1.06639975533E+01	-5.89761953078E+00	-1.45412338015E+00
2.76324036004E+06	-1.43441719344E+01	-1.52360931164E+02	1.82248338572E+01	1.55917739181E+02	-5.05647501188E+01	-2.19217489148E+01	-5.90050037594E+00	-1.36770970483E+00
2.78543171463E+06	-1.44369545677E+01	-1.67773058028E+02	1.81996179541E+01	1.55978905745E+02	-4.49831690588E+01	-1.25984054840E+01	-5.92352368424E+00	-1.37837627070E+00
2.80762306923E+06	-1.14605085320E+01	-1.54113323604E+02	1.81992135761E+01	1.55217846807E+02	-3.66783874292E+01	5.04038687972E+01	-5.90592537234E+00	-1.82909474316E+00
2.82981442382E+06	-1.24002438393E+01	-1.62547244252E+02	1.82180349711E+01	1.55415149604E+02	-4.94709118868E+01	1.20932255755E+02	-5.87317335759E+00	-1.54085124275E+00
2.85200577842E+06	-1.25088611861E+01	-1.51453012082E+02	1.82202970030E+01	1.55082821001E+02	-4.14768986090E+01	-1.80886966898E+01	-5.94929035915E+00	-1.46927980122E+00
2.87419713301E+06	-1.37690642941E+01	-1.56462832621E+02	1.82174457050E+01	1.54835295392E+02	-4.93122943802E+01	3.33538581769E+01	-5.90890144550E+00	-1.53699694448E+00
