# Hz S DB R 50
! CMT, M5065, 19127446, 24.2.4/2
! Date: 11/8/2024 4:57:00 PM
! Data: Format (Calibration Info)
! Freq	S11:dB/Ang(F2)	S21:dB/Ang(F2)	S12:dB/Ang(F2)	S22:dB/Ang(F2)
3.00000000000E+05	-1.37521095078E+01	1.64167951316E+02	6.77117091745E+00	-1.77288535752E+02	-5.50539230758E+01	-7.09619045697E+01	-5.84744674021E+00	-4.17199036581E-01
3.22191354595E+05	-1.23892902481E+01	-1.73457160663E+02	6.78183942671E+00	-1.78088767917E+02	-3.88740724619E+01	2.17857998901E+01	-5.85604429972E+00	-3.76642634421E-01
3.44382709190E+05	-1.37896640049E+01	1.59274896883E+02	6.77291290899E+00	-1.78045459639E+02	-4.44270875313E+01	-5.93015792678E+01	-5.86675909874E+00	-2.61009033784E-01
3.66574063785E+05	-1.43684831120E+01	-1.79822229128E+02	6.78003426406E+00	-1.78375629504E+02	-5.72929264088E+01	-1.17551737397E+01	-5.86460268458E+00	-2.06238380241E-01
3.88765418380E+05	-1.42689896199E+01	1.70118161955E+02	7.06151310769E+00	-1.78223947225E+02	-5.07329551764E+01	-5.98477928222E+01	-5.88221401541E+00	-2.64938275688E-01
4.10956772975E+05	-1.33743155505E+01	-1.69653106272E+02	6.81285093039E+00	-1.79012632488E+02	-5.48889912706E+01	1.18532264344E+02	-5.85940387244E+00	-2.90854396347E-01
4.33148127570E+05	-1.48056919754E+01	-1.51569430879E+02	6.77430972997E+00	-1.79311927808E+02	-4.14090299523E+01	-1.21449234704E+01	-5.87248785731E+00	-2.31895233154E-01
4.55339482165E+05	-1.05671110828E+01	-1.75875964693E+02	6.71932508183E+00	-1.79496039898E+02	-3.89493805231E+01	-8.17463995058E+01	-5.88038734778E+00	-1.49139423094E-01
4.77530836760E+05	-1.26424425640E+01	-1.63968130891E+02	6.77665795564E+00	-1.79644293599E+02	-4.66974286948E+01	-4.57843000879E+01	-5.87801979597E+00	-2.08177912475E-01
4.99722191355E+05	-2.14846595842E+01	-1.50896651219E+02	6.81948579708E+00	-1.79791367771E+02	-4.43790966403E+01	-1.20612621215E+02	-5.85809712068E+00	-1.97470493175E-01
5.21913545950E+05	-1.61882407951E+01	1.66232468542E+02	6.83808485523E+00	-1.79714324592E+02	-4.10859051554E+01	-2.50744944609E+01	-5.87212951159E+00	-4.38045581725E-01
5.44104900545E+05	-1.46677280387E+01	-1.77008125973E+02	6.80623302476E+00	1.79931745289E+02	-4.75553092835E+01	-1.72634575731E+02	-5.87376942492E+00	-3.53749903212E-01
5.66296255139E+05	-1.51027545791E+01	1.78071496383E+02	6.83186021987E+00	1.79853027587E+02	-5.25746304542E+01	-1.53153826728E+02	-5.87191279508E+00	-3.91145574088E-01
5.88487609734E+05	-1.38232183658E+01	-1.67051886259E+02	6.78880991879E+00	1.79124530750E+02	-4.78491538216E+01	-2.14633864975E+01	-5.87172841206E+00	-3.27665073411E-01
6.10678964329E+05	-1.16071087885E+01	1.68084772278E+02	6.77438550539E+00	1.79592244275E+02	-5.07923511278E+01	2.34602027563E+01	-5.88727383375E+00	1.05813822888E-01
6.32870318924E+05	-1.39148577245E+01	-1.69436723973E+02	6.79958063131E+00	1.79288500799E+02	-4.21360560669E+01	-2.96572381088E+01	-5.85205985589E+00	-7.70672675885E-02
6.55061673519E+05	-1.41706450198E+01	-1.61409905499E+02	6.82476421914E+00	1.78937228415E+02	-3.68369322561E+01	1.09767528726E+02	-5.84481770875E+00	-3.98044666316E-01
6.77253028114E+05	-1.35401582462E+01	-1.64334164985E+02	6.79236797360E+00	1.78758530160E+02	-5.70247963354E+01	-8.11926522590E+01	-5.85891304236E+00	-5.18056537591E-01
6.99444382709E+05	-1.65310265795E+01	-1.69621436847E+02	6.81648836243E+00	1.78626343493E+02	-4.59242776773E+01	9.79901859722E+01	-5.86689560642E+00	-4.99720437974E-01
7.21635737304E+05	-1.17644730620E+01	-1.65209244738E+02	6.77348195045E+00	1.78560954171E+02	-5.15454346907E+01	4.36398612399E+01	-5.89097686410E+00	-3.80881233812E-01
7.43827091899E+05	-1.35897425050E+01	-1.77871245356E+02	6.83524252464E+00	1.78631084830E+02	-5.32003739516E+01	2.79674857269E+01	-5.88079065937E+00	-5.58054206529E-01
7.66018446494E+05	-1.08779954523E+01	-1.73289844629E+02	6.79629101435E+00	1.78665860181E+02	-3.87727608812E+01	-1.52449613475E+02	-5.84633624069E+00	-4.49978308465E-01
7.88209801089E+05	-1.52755441539E+01	-1.71278644087E+02	6.84526874141E+00	1.78314363968E+02	-4.66172975232E+01	-1.31607534230E+02	-5.87115961134E+00	-4.82780357742E-01
8.10401155684E+05	-1.36381853928E+01	-1.73864714049E+02	6.75820116399E+00	1.78064016132E+02	-3.96452468332E+01	-7.96146691976E+01	-5.86673175312E+00	-4.32927495629E-01
8.32592510279E+05	-1.31499510270E+01	-1.57265382264E+02	6.79618162868E+00	1.77814682105E+02	-4.37863172634E+01	-9.31935596275E+00	-5.87993127581E+00	-2.68020447595E-01
8.54783864874E+05	-1.38266643027E+01	-1.53904804716E+02	6.81111898202E+00	1.77592308138E+02	-4.71784968686E+01	1.22767666354E+02	-5.86792246275E+00	-5.59969578678E-01
8.76975219469E+05	-1.39222473636E+01	-1.68298151241E+02	6.81825921014E+00	1.77715144580E+02	-5.35717551402E+01	3.68705089048E+01	-5.90118519671E+00	-4.97351726327E-01
8.99166574064E+05	-1.29815563307E+01	-1.79771065762E+02	6.82063878076E+00	1.77393228771E+02	-4.85104298478E+01	-6.13742323025E+01	-5.85898520540E+00	-5.18272699966E-01
9.21357928659E+05	-1.14708334169E+01	-1.75953294849E+02	6.75788272652E+00	1.77104229991E+02	-4.25917446662E+01	1.58443905870E+02	-5.86675620898E+00	-4.57222155722E-01
9.43549283254E+05	-1.62814210061E+01	1.70103344377E+02	6.77774309524E+00	1.77279052382E+02	-4.10145603609E+01	-1.44039179401E+02	-5.84275757973E+00	-3.77103843284E-01
9.65740637849E+05	-1.48875547668E+01	-1.75855739696E+02	6.81988694996E+00	1.77226006899E+02	-4.29401643813E+01	-1.40949797232E+02	-5.86929854902E+00	-4.94013464179E-01
9.87931992444E+05	-1.64632546285E+01	-1.31620069526E+02	6.89710089258E+00	1.76781507363E+02	-4.24346342695E+01	1.53565334987E+02	-5.85848348913E+00	-4.63537075618E-01
1.01012334704E+06	-1.27112069897E+01	-1.59118851436E+02	6.78578951482E+00	1.76706557377E+02	-4.64887974326E+01	1.32466520024E+02	-5.86478427083E+00	-6.47953045334E-01
1.03231470163E+06	-1.36093475061E+01	1.73777804034E+02	6.75846932533E+00	1.76957262822E+02	-4.47852239608E+01	-1.52124744715E+02	-5.85995459936E+00	-6.42171620692E-01
1.05450605623E+06	-1.43077571587E+01	-1.79526508707E+02	6.80587045866E+00	1.76834841493E+02	-5.12108325207E+01	-1.67378347877E+02	-5.87689758650E+00	-6.62505904805E-01
1.07669741082E+06	-1.71328017549E+01	-1.62445512347E+02	6.86701433519E+00	1.76680870298E+02	-4.39596416933E+01	-1.72145129855E+02	-5.85948607129E+00	-5.41721828293E-01
1.09888876542E+06	-1.63918363308E+01	-1.61327256789E+02	6.80870983602E+00	1.76519392096E+02	-4.06666451630E+01	1.06101284607E+02	-5.86301939837E+00	-7.34311034766E-01
1.12108012001E+06	-1.38419140358E+01	-1.49289088839E+02	6.81566656948E+00	1.76164815802E+02	-4.49318162815E+01	7.24842417471E+01	-5.86399910765E+00	-7.36799273785E-01
1.14327147461E+06	-1.32027906308E+01	-1.70500999632E+02	6.76277006297E+00	1.76258322030E+02	-5.05035989777E+01	4.35255809958E+01	-5.88782661956E+00	-5.70309719578E-01
1.16546282920E+06	-1.37329638579E+01	1.76355670702E+02	6.78814571234E+00	1.76273502017E+02	-4.28721532436E+01	1.56008821177E+02	-5.84406845216E+00	-6.36780342690E-01
1.18765418380E+06	-1.51309931162E+01	-1.69314976645E+02	6.83093284137E+00	1.75915956267E+02	-4.47376219876E+01	-1.77747895985E+02	-5.86876839252E+00	-5.97623082611E-01
1.20984553839E+06	-1.64093510884E+01	-1.75678353740E+02	6.79859469958E+00	1.75916664737E+02	-4.66499692154E+01	-3.10829837104E+01	-5.87784424269E+00	-6.74091385374E-01
1.23203689299E+06	-1.58334989792E+01	1.72062608031E+02	6.78735074553E+00	1.75847047131E+02	-3.97063155060E+01	-2.48130882692E+01	-5.88276741364E+00	-3.16168071368E-01
1.25422824758E+06	-1.36987537955E+01	-1.76318827873E+02	6.82060117520E+00	1.75816831606E+02	-4.89891703418E+01	1.75149278434E+02	-5.87404775765E+00	-5.70706140078E-01
1.27641960218E+06	-1.20474700391E+01	1.79222955022E+02	6.78898866384E+00	1.75583591852E+02	-4.27591520015E+01	-9.76596106677E+01	-5.87019408273E+00	-5.28522687887E-01
1.29861095677E+06	-1.41304590521E+01	-1.60789535084E+02	6.81959428048E+00	1.75369456660E+02	-5.08800987706E+01	-8.43828762404E+01	-5.86245241140E+00	-6.48982544572E-01
1.32080231137E+06	-1.42546938190E+01	-1.52007377898E+02	6.81221971188E+00	1.75213743235E+02	-4.16339504353E+01	1.71520035032E+02	-5.86113917621E+00	-1.08617869858E+00
1.34299366596E+06	-1.46062017077E+01	-1.71737311988E+02	6.80337606465E+00	1.75357349129E+02	-4.88378838535E+01	-2.66702383903E+01	-5.87612557045E+00	-8.57345105802E-01
1.36518502056E+06	-1.31254925878E+01	-1.62217628145E+02	6.83871238698E+00	1.74991637947E+02	-4.67639880921E+01	1.19538917831E+02	-5.85323530721E+00	-8.73144506790E-01
1.38737637515E+06	-1.40781604663E+01	1.78274021874E+02	6.82029013247E+00	1.75127044236E+02	-4.83886505380E+01	1.53710363093E+02	-5.85544437990E+00	-7.27690218500E-01
1.40956772975E+06	-1.65411336914E+01	1.67331752947E+02	6.79224916899E+00	1.75325585903E+02	-5.66264091273E+01	1.32795498695E+02	-5.84198838442E+00	-7.10813436199E-01
1.43175908434E+06	-1.11332992826E+01	-1.76814690732E+02	6.75065229227E+00	1.74752847690E+02	-3.93320776292E+01	-2.17832116311E+00	-5.88153121362E+00	-8.28989371172E-01
1.45395043894E+06	-1.31528675665E+01	-1.75453475488E+02	6.77653813544E+00	1.74744348120E+02	-3.90976559222E+01	3.60647231014E+01	-5.87635868177E+00	-8.16001257085E-01
1.47614179353E+06	-1.56326075519E+01	1.71203058971E+02	6.82224175666E+00	1.74967961668E+02	-4.22551066818E+01	1.28215906591E+02	-5.85225640456E+00	-8.49734229828E-01
1.49833314813E+06	-1.38023632163E+01	-1.63209719042E+02	6.78300485771E+00	1.74407649899E+02	-4.65139311587E+01	-7.89526377697E+01	-5.87629774420E+00	-7.04834472115E-01
1.52052450272E+06	-1.38265655029E+01	1.77658212999E+02	6.80245229329E+00	1.74448247485E+02	-4.89336734536E+01	-1.33293698569E+02	-5.84713943123E+00	-6.90396927226E-01
1.54271585732E+06	-1.40843532150E+01	-1.66654754748E+02	6.82049829435E+00	1.74045033224E+02	-4.81439024911E+01	2.78268244310E+01	-5.86794592884E+00	-6.79220656389E-01
1.56490721191E+06	-1.13497344555E+01	-1.77434208237E+02	6.79403532528E+00	1.74145097907E+02	-4.10456777850E+01	1.31805959783E+02	-5.83429881240E+00	-9.47403041509E-01
1.58709856651E+06	-1.26509836800E+01	-1.58102342735E+02	6.80291861075E+00	1.73839520282E+02	-4.78701644642E+01	8.84617167501E+01	-5.87414757073E+00	-9.02943222974E-01
1.60928992110E+06	-1.39021959729E+01	-1.73851174060E+02	6.79090654676E+00	1.74196896932E+02	-3.53945065951E+01	1.29275781818E+02	-5.84419777187E+00	-8.47972818365E-01
1.63148127570E+06	-1.41542764461E+01	1.75839417163E+02	6.82245235032E+00	1.73956974793E+02	-5.04266389650E+01	-1.56866774098E+02	-5.86504185540E+00	-8.27062269543E-01
1.65367263029E+06	-1.31754978152E+01	-1.74231408753E+02	6.81063842590E+00	1.73810458505E+02	-4.81297600976E+01	6.59923840577E+01	-5.88069170256E+00	-7.99787773754E-01
1.67586398489E+06	-1.46997725183E+01	-1.74763851869E+02	6.82318311992E+00	1.73734265694E+02	-4.46880594533E+01	4.42424190232E+01	-5.88715783115E+00	-9.91306849375E-01
1.69805533948E+06	-1.71082527915E+01	-1.40941034433E+02	6.84872869530E+00	1.73711067396E+02	-4.13716632346E+01	3.02362769309E+01	-5.87775031856E+00	-9.01878341350E-01
1.72024669408E+06	-1.38825326264E+01	1.63444370589E+02	6.78428400473E+00	1.73615965174E+02	-4.64884087823E+01	2.89566354790E+01	-5.88290179799E+00	-1.03725194262E+00
1.74243804867E+06	-1.28441817688E+01	-1.57315784352E+02	6.83661415085E+00	1.73267059542E+02	-4.00714169943E+01	-1.92313700863E+01	-5.87377324277E+00	-9.97140347830E-01
1.76462940327E+06	-1.39263767882E+01	-1.66065245942E+02	6.81134039889E+00	1.73381956737E+02	-3.71177861089E+01	-1.58125543272E+02	-5.85261524559E+00	-9.56070899811E-01
1.78682075786E+06	-1.44995989371E+01	1.76894106740E+02	6.82148329043E+00	1.73266602011E+02	-4.99315409675E+01	3.28362457621E+00	-5.86487071154E+00	-8.84803744351E-01
1.80901211246E+06	-1.55318981581E+01	-1.67839071500E+02	6.83528353086E+00	1.73299365798E+02	-4.52331511757E+01	8.42214888488E+01	-5.85191038721E+00	-8.58983986915E-01
1.83120346705E+06	-1.59764281583E+01	1.59150849691E+02	6.82837168620E+00	1.73275282141E+02	-5.03980250945E+01	2.52203768650E+01	-5.87254748557E+00	-1.04726378840E+00
1.85339482165E+06	-6.53769741726E+00	-1.60926890122E+02	6.78780637012E+00	1.72232389015E+02	-3.79942857535E+01	1.26452038827E+02	-5.83968060388E+00	-9.94252920581E-01
1.87558617624E+06	-1.46024389001E+01	-1.35283776520E+02	6.87174447945E+00	1.72684619016E+02	-4.06893860543E+01	1.26897472114E+02	-5.83411122965E+00	-1.07113638540E+00
1.89777753084E+06	-1.56258977673E+01	-1.61734694684E+02	6.83185351037E+00	1.72926266917E+02	-4.14060827638E+01	-1.18259565755E+02	-5.84920353483E+00	-8.74636590050E-01
1.91996888543E+06	-1.39706088852E+01	1.76934959135E+02	6.81441492689E+00	1.72644302111E+02	-4.15585394330E+01	-1.75162939705E+02	-5.85388506692E+00	-1.02759469238E+00
1.94216024003E+06	-1.57050258722E+01	-1.61155780597E+02	6.84136522440E+00	1.72602779570E+02	-4.88209177258E+01	1.21475004858E+02	-5.87274169255E+00	-9.65575804353E-01
1.96435159462E+06	-1.70441666486E+01	-1.54191229657E+02	6.86262834313E+00	1.72363337030E+02	-4.40576554793E+01	4.71379712263E+01	-5.85631643450E+00	-1.07140989556E+00
1.98654294922E+06	-1.23046407058E+01	-1.74668369476E+02	6.79238489178E+00	1.72587719740E+02	-5.53548396318E+01	-1.45251320154E+01	-5.87401414414E+00	-1.10127285753E+00
2.00873430381E+06	-1.53847896731E+01	1.74997122657E+02	6.85846680748E+00	1.72348417993E+02	-5.07961490708E+01	1.78689800812E+02	-5.88174085503E+00	-9.96789817461E-01
2.03092565841E+06	-9.35827283699E+00	1.71984221337E+02	6.78557495459E+00	1.71938984396E+02	-4.51022479794E+01	9.24821025385E+01	-5.86300172995E+00	-1.02783404290E+00
2.05311701300E+06	-1.36889676540E+01	-1.68979536406E+02	6.82228385908E+00	1.72132808805E+02	-3.40383181806E+01	1.51784775782E+02	-5.82527945715E+00	-9.39877574928E-01
2.07530836760E+06	-1.21994244121E+01	-1.65692322882E+02	6.80029461202E+00	1.71871428970E+02	-4.01542561195E+01	1.11787779559E+02	-5.86053434681E+00	-1.29267538862E+00
2.09749972219E+06	-1.58624275050E+01	-1.68744084840E+02	6.84509704528E+00	1.72025419833E+02	-4.51695394055E+01	2.58199834208E+01	-5.88476891275E+00	-1.26374727368E+00
2.11969107679E+06	-1.60950660053E+01	-1.71916741420E+02	6.84302929794E+00	1.72051456630E+02	-4.63828013026E+01	-4.17462274733E+01	-5.88145135360E+00	-9.97025397705E-01
2.14188243138E+06	-1.43776366591E+01	1.78475513641E+02	6.78666696082E+00	1.71877755313E+02	-4.82732507796E+01	1.76875238097E+02	-5.87307452612E+00	-1.15968338389E+00
2.16407378598E+06	-1.35692896847E+01	-1.61158473324E+02	6.83073192916E+00	1.71322504447E+02	-4.70491933697E+01	3.44560125121E+01	-5.88401324330E+00	-1.24202094487E+00
2.18626514057E+06	-9.77457464992E+00	-1.43254058772E+02	6.87247198972E+00	1.71225103268E+02	-4.95835994090E+01	-1.29898675067E+02	-5.85557461030E+00	-1.19285406913E+00
2.20845649517E+06	-1.27742353629E+01	-1.58031310632E+02	6.83852234031E+00	1.71144260245E+02	-4.06641814151E+01	7.17421019015E+01	-5.83176383363E+00	-1.21807400985E+00
2.23064784976E+06	-1.37464447240E+01	-1.61132676880E+02	6.84948883672E+00	1.71141623510E+02	-3.21844363981E+01	1.46367075671E+02	-5.83537267196E+00	-1.14654757776E+00
2.25283920436E+06	-1.38639335663E+01	-1.58022107723E+02	6.84382979908E+00	1.71081873227E+02	-4.69606816630E+01	1.01318104012E+02	-5.84277758216E+00	-1.10783346487E+00
2.27503055895E+06	-1.20044334110E+01	-1.73627488569E+02	6.76333327184E+00	1.71195581360E+02	-4.95813840610E+01	-1.12484891741E+02	-5.86092431210E+00	-1.08321799069E+00
2.29722191355E+06	-1.25459113855E+01	-1.75566772895E+02	6.81428510982E+00	1.70865306709E+02	-5.38806201034E+01	-2.75171912800E+01	-5.87226402001E+00	-1.22783471392E+00
2.31941326814E+06	-1.64039568093E+01	1.68044429649E+02	6.80761541957E+00	1.71212522767E+02	-5.47331356879E+01	1.11713173414E+02	-5.86595657606E+00	-1.24012550801E+00
2.34160462274E+06	-1.58706155161E+01	-1.53721978000E+02	6.86726034693E+00	1.70883126415E+02	-4.49872609472E+01	-1.60765983817E+02	-5.86540302103E+00	-1.25789968346E+00
2.36379597733E+06	-1.23696334207E+01	-1.45471208679E+02	6.87402115194E+00	1.70415795614E+02	-3.71953418649E+01	8.87651072848E+01	-5.84264910190E+00	-1.47618372622E+00
2.38598733193E+06	-1.40699788292E+01	-1.53403897587E+02	6.81618051449E+00	1.70612699735E+02	-3.19597927627E+01	-4.99522196054E+01	-5.90519523213E+00	-1.27453956124E+00
2.40817868652E+06	-1.36584607005E+01	-1.59402276929E+02	6.82719747040E+00	1.70394034180E+02	-3.70962777898E+01	-8.26159727995E+01	-5.88656041134E+00	-1.24565995772E+00
2.43037004112E+06	-1.47500566023E+01	-1.61559409771E+02	6.88107963811E+00	1.70392711197E+02	-4.38054412306E+01	-7.43036897537E+01	-5.88760120925E+00	-1.58362608451E+00
2.45256139571E+06	-1.72700400270E+01	-1.62456602473E+02	6.87117167755E+00	1.70588859813E+02	-4.07801435298E+01	-8.62089964960E+01	-5.87443715521E+00	-1.23404986489E+00
2.47475275031E+06	-1.02456940567E+01	1.75249129699E+02	6.81421160323E+00	1.70104918095E+02	-4.85482532606E+01	-1.49869939179E+02	-5.87494659008E+00	-1.18545310078E+00
2.49694410490E+06	-2.67637327046E+01	-1.41130289292E+02	6.85588123724E+00	1.70548035284E+02	-4.91587342487E+01	5.04253648889E+01	-5.85918354986E+00	-1.26957531961E+00
2.51913545950E+06	-1.39429228212E+01	-1.58325948328E+02	6.86335435329E+00	1.70110586736E+02	-5.52034907795E+01	1.79473284163E+02	-5.88414020680E+00	-1.37209955580E+00
2.54132681409E+06	-1.69225090210E+01	-1.67890097965E+02	6.86251560189E+00	1.70184276604E+02	-3.33378857940E+01	-6.05765841821E+01	-5.90232048466E+00	-1.22089959255E+00
2.56351816869E+06	-1.49207899379E+01	-1.47631118521E+02	6.87592034029E+00	1.69720124875E+02	-4.30921929852E+01	-1.38769879901E+02	-5.86302219947E+00	-1.17665546316E+00
2.58570952328E+06	-1.42270643348E+01	-1.63662801460E+02	6.84855297504E+00	1.69805652231E+02	-5.28273059962E+01	-1.12111581731E+02	-5.87886965538E+00	-1.25368494076E+00
2.60790087788E+06	-1.17300553441E+01	-1.70224932314E+02	6.82868864316E+00	1.69481277379E+02	-4.98098936626E+01	1.76630474631E+02	-5.87345272309E+00	-1.17558822748E+00
2.63009223247E+06	-1.72044857404E+01	-1.37665432816E+02	6.88872722018E+00	1.69749790889E+02	-4.98177157929E+01	4.70967433543E+01	-5.87623313749E+00	-1.20161876246E+00
2.65228358707E+06	-1.10929103731E+01	-1.42930110582E+02	6.90119966768E+00	1.69133262979E+02	-5.43700480610E+01	5.46912636969E+01	-5.88468103373E+00	-1.28962412155E+00
2.67447494166E+06	-1.36906586583E+01	-1.54931619795E+02	6.88147339803E+00	1.69241026587E+02	-3.87939056231E+01	6.45146274112E+01	-5.87375168495E+00	-1.56423054013E+00
2.69666629626E+06	-1.63800678472E+01	-1.68974285759E+02	6.86443670385E+00	1.69461847198E+02	-3.07784751904E+01	-6.54524631883E+01	-5.91390862632E+00	-1.30886208253E+00
2.71885765085E+06	-1.55415500490E+01	-1.58700444445E+02	6.81940223057E+00	1.69287486306E+02	-4.54112019064E+01	-1.49114819950E+02	-5.88084998355E+00	-1.24465821903E+00
2.74104900545E+06	-1.62935949038E+01	-1.65571344414E+02	6.86213808345E+00	1.69202843695E+02	-5.25407714736E+01	-1.66538062731E+02	-5.85212921443E+00	-1.30231683484E+00
2.76324036004E+06	-1.75359573745E+01	-1.62983291160E+02	6.89073163170E+00	1.69092502031E+02	-4.17848360889E+01	6.62069335182E+01	-5.86744575374E+00	-1.50622571958E+00
2.78543171463E+06	-1.39978375615E+01	-1.55711658487E+02	6.84970283047E+00	1.69060715991E+02	-5.20304595906E+01	-6.60417374453E+01	-5.87250832032E+00	-1.53346568524E+00
2.80762306923E+06	-1.16848848898E+01	1.61265156596E+02	6.77545815828E+00	1.69249509792E+02	-4.32200760158E+01	-9.87431473656E+00	-5.87324705778E+00	-1.50108795553E+00
2.82981442382E+06	-1.15563836417E+01	-1.77173580204E+02	6.81585348927E+00	1.68364099264E+02	-5.22979478075E+01	2.48933310904E+01	-5.88319175212E+00	-1.49894370009E+00
2.85200577842E+06	-1.27754324430E+01	-1.47343069353E+02	6.87401610327E+00	1.68409391416E+02	-4.91139413057E+01	4.09614527059E+01	-5.87663064116E+00	-1.50912828494E+00
2.87419713301E+06	-1.18140734728E+01	-1.37233183605E+02	6.91970122413E+00	1.67821757698E+02	-4.98744411626E+01	-8.27834183562E+01	-5.88869044418E+00	-1.33981318456E+00
