# Hz S DB R 50
! CMT, M5065, 19127446, 24.2.4/2
! Date: 11/8/2024 4:52:34 PM
! Data: Format (Calibration Info)
! Freq	S11:dB/Ang(F2)	S21:dB/Ang(F2)	S12:dB/Ang(F2)	S22:dB/Ang(F2)
3.00000000000E+05	-1.82610139361E+01	-1.65674008199E+02	5.69967851415E+00	-1.77626963138E+02	-4.33098998342E+01	3.12298175536E+00	-5.88181374654E+00	-1.72735212266E-01
3.22191354595E+05	-1.17904046701E+01	-1.73889467324E+02	5.64649819732E+00	-1.77881468532E+02	-4.31621785614E+01	-8.07590741840E+01	-5.85204583925E+00	-2.02455109456E-01
3.44382709190E+05	-1.64119331400E+01	1.79348578842E+02	5.74937897490E+00	-1.77863705953E+02	-4.50809818684E+01	1.12127359502E+02	-5.86510169760E+00	-4.15693670216E-01
3.66574063785E+05	-1.52236916876E+01	-1.68940980480E+02	5.68429487460E+00	-1.78451211609E+02	-4.25255820354E+01	-1.09499209414E+02	-5.87077195254E+00	-1.77726147832E-01
3.88765418380E+05	-1.78487713555E+01	-1.69118856269E+02	5.67585358056E+00	-1.78082180277E+02	-4.05900845567E+01	-5.28698066552E+01	-5.84426178610E+00	-3.63168621635E-01
4.10956772975E+05	-1.60944096330E+01	1.69014361064E+02	5.65939245535E+00	-1.78765294879E+02	-4.29376537056E+01	-1.72210502816E+01	-5.88697005505E+00	-4.32035330704E-01
4.33148127570E+05	-1.04533780798E+01	-1.78234364217E+02	5.63472915382E+00	-1.79197817068E+02	-4.82134913091E+01	-7.17854289806E+01	-5.88672849196E+00	-3.18780614465E-01
4.55339482165E+05	-1.42717855029E+01	-1.53909516056E+02	5.67772952195E+00	-1.79775431108E+02	-5.76532921545E+01	1.10706328862E+02	-5.86340098171E+00	-4.97228909959E-01
4.77530836760E+05	-1.27703943585E+01	-1.60257233173E+02	5.73956540930E+00	1.79991281604E+02	-6.59158491073E+01	9.44202963129E+00	-5.89124857043E+00	-3.67921009315E-01
4.99722191355E+05	-1.46113863017E+01	1.65241662957E+02	5.71038197927E+00	-1.79673827257E+02	-5.25733555880E+01	2.71744794787E+01	-5.88367741113E+00	-3.55532593384E-01
5.21913545950E+05	-1.28739057141E+01	-1.55721465584E+02	5.66543564386E+00	1.79705197258E+02	-4.21081959050E+01	7.86083871740E+01	-5.87149880869E+00	-4.37159856183E-01
5.44104900545E+05	-1.52243964301E+01	-1.68215556676E+02	5.64095872826E+00	1.79674932848E+02	-4.12899070563E+01	-9.37039111461E+01	-5.87102421517E+00	-2.24190092400E-01
5.66296255139E+05	-1.41399967340E+01	1.75100688458E+02	5.66202258318E+00	1.79607549230E+02	-4.89801409759E+01	-8.90840587971E+01	-5.85630369665E+00	-3.71173893803E-01
5.88487609734E+05	-1.41542280866E+01	1.52007571006E+02	5.67722969267E+00	1.79894247242E+02	-4.06402308368E+01	4.21141916892E+01	-5.89662682153E+00	-3.99895636813E-01
6.10678964329E+05	-1.40092480126E+01	-1.79638992191E+02	5.69258302871E+00	1.79261406858E+02	-4.81179849191E+01	1.15772154730E+02	-5.86195778219E+00	5.88622877203E-02
6.32870318924E+05	-2.05353000832E+01	1.67035780435E+02	5.71471624813E+00	1.79259453716E+02	-4.26749464562E+01	5.15651625722E-02	-5.85164725503E+00	-1.31558950493E-01
6.55061673519E+05	-1.51801914881E+01	-1.51473367437E+02	5.71949204372E+00	1.78832258398E+02	-5.10033217631E+01	1.12206060773E+02	-5.87968118622E+00	-3.53665252160E-01
6.77253028114E+05	-1.32574791974E+01	-1.65191346007E+02	5.71362862901E+00	1.78530718010E+02	-4.70354916349E+01	1.02429650868E+02	-5.87553743076E+00	-6.88887466988E-01
6.99444382709E+05	-2.11131201451E+01	-1.41652328117E+02	5.73114223249E+00	1.78920072082E+02	-4.56362549344E+01	-7.23806451320E+00	-5.89630989306E+00	-4.87522042384E-01
7.21635737304E+05	-1.91981886434E+01	1.67674355161E+02	5.70838332766E+00	1.78937139164E+02	-3.87033025280E+01	1.79424247009E+02	-5.89369569673E+00	-4.50471996312E-01
7.43827091899E+05	-1.13633504172E+01	1.64435864132E+02	5.66012775853E+00	1.79157611527E+02	-4.81110837865E+01	-5.08369859882E+01	-5.85694750742E+00	-4.75676345023E-01
7.66018446494E+05	-1.35545689485E+01	-1.58725703991E+02	5.70199170771E+00	1.78446524787E+02	-4.14652322264E+01	1.07806403075E+02	-5.87653039364E+00	-4.63357314475E-01
7.88209801089E+05	-1.96735981691E+01	-1.59507357654E+02	5.70915775933E+00	1.78352286687E+02	-4.44724994448E+01	1.65250332501E+02	-5.84524316236E+00	-3.42553247558E-01
8.10401155684E+05	-1.34874631531E+01	1.78501805196E+02	5.72189371704E+00	1.77952500917E+02	-4.77822544607E+01	-1.04120610260E+02	-5.87197086077E+00	-4.17426844357E-01
8.32592510279E+05	-1.50985926310E+01	-1.71899953761E+02	5.69922677091E+00	1.78069271561E+02	-4.45250957184E+01	-2.96622742174E+01	-5.89704136057E+00	-4.80851928631E-01
8.54783864874E+05	-1.24674118308E+01	-1.60145107913E+02	5.63675143514E+00	1.77400913667E+02	-5.64980140772E+01	1.53794218942E+02	-5.86339825366E+00	-4.81645180505E-01
8.76975219469E+05	-1.14701032650E+01	-1.75222950801E+02	5.64861895171E+00	1.77943896083E+02	-3.82847930492E+01	5.15372963348E+01	-5.87713284448E+00	-6.68200232154E-01
8.99166574064E+05	-1.44334427712E+01	-1.67838126511E+02	5.70218704381E+00	1.77713909378E+02	-3.77406498089E+01	-1.40815174612E+02	-5.85369174439E+00	-4.83067023225E-01
9.21357928659E+05	-1.01287260657E+01	-1.72644641618E+02	5.65197189647E+00	1.77448491608E+02	-4.34876208347E+01	1.14777955557E+01	-5.89187307713E+00	-4.60770824875E-01
9.43549283254E+05	-1.53448550151E+01	1.78615132931E+02	5.68717378847E+00	1.77486239284E+02	-4.75576887740E+01	-2.06037080127E+01	-5.86266686145E+00	-4.63677331077E-01
9.65740637849E+05	-1.39282938149E+01	-1.76071246988E+02	5.71366044305E+00	1.77163393196E+02	-4.24974601492E+01	8.04168828801E+01	-5.87985424609E+00	-4.73371504986E-01
9.87931992444E+05	-1.45616789261E+01	-1.61112925045E+02	5.71970811727E+00	1.77266776576E+02	-4.50873486901E+01	-1.69139370682E+02	-5.84764373916E+00	-5.79454424206E-01
1.01012334704E+06	-1.42853642983E+01	1.79700474317E+02	5.70173456448E+00	1.77322347308E+02	-5.14959262129E+01	-5.83894482955E+01	-5.85829004053E+00	-5.37660480109E-01
1.03231470163E+06	-1.42145233338E+01	1.76394926098E+02	5.64171230338E+00	1.77038509640E+02	-4.17118890070E+01	1.30226771240E+02	-5.84041271709E+00	-5.67106780424E-01
1.05450605623E+06	-1.46499877082E+01	1.69923796936E+02	5.71236613529E+00	1.77277953823E+02	-4.68380083810E+01	-1.70862598538E+02	-5.85888964267E+00	-5.52916900570E-01
1.07669741082E+06	-1.45685304532E+01	-1.58552446879E+02	5.71622588159E+00	1.76987512293E+02	-5.11697850430E+01	-1.19752743286E+02	-5.86770967896E+00	-7.49157237734E-01
1.09888876542E+06	-1.36445156740E+01	-1.62121481493E+02	5.66621669478E+00	1.76711720256E+02	-4.03536140953E+01	2.49900292931E+01	-5.87978349391E+00	-6.36160380727E-01
1.12108012001E+06	-1.17614815149E+01	-1.70934448561E+02	5.68273218365E+00	1.76434880311E+02	-3.97408072620E+01	-1.02350461019E+02	-5.87188588142E+00	-5.67775376614E-01
1.14327147461E+06	-1.89045409619E+01	-1.75077471742E+02	5.74776665243E+00	1.76521774020E+02	-4.24189928946E+01	-9.28969845881E+01	-5.88718799036E+00	-5.81512123421E-01
1.16546282920E+06	-1.46037509494E+01	-1.66399601202E+02	5.73566999963E+00	1.76205616330E+02	-4.97528098304E+01	-3.46280858738E+01	-5.87042832134E+00	-5.69461595934E-01
1.18765418380E+06	-1.38859085053E+01	1.73239173566E+02	5.73721985125E+00	1.76317683287E+02	-3.73629461445E+01	-9.59493002270E+01	-5.87367166740E+00	-7.80225436113E-01
1.20984553839E+06	-1.30079125071E+01	-1.68433821049E+02	5.68063328013E+00	1.76171057589E+02	-3.92253017337E+01	-1.29750844005E+02	-5.84951905540E+00	-7.70213624408E-01
1.23203689299E+06	-1.29816442577E+01	-1.74864083790E+02	5.62947369205E+00	1.75898088865E+02	-4.51369164432E+01	5.98887630264E+01	-5.86727098162E+00	-4.15298811992E-01
1.25422824758E+06	-1.26844384471E+01	1.65239421376E+02	5.65177199444E+00	1.76193951061E+02	-4.01003054549E+01	-1.06169449289E+01	-5.87798485571E+00	-6.75602112490E-01
1.27641960218E+06	-1.59479667954E+01	-1.73669817619E+02	5.73635259082E+00	1.75922486150E+02	-4.44766156598E+01	-2.91579185320E+01	-5.89361490490E+00	-6.39561550063E-01
1.29861095677E+06	-1.53670741946E+01	-1.78101527521E+02	5.70439803741E+00	1.75949511656E+02	-4.94810074812E+01	1.05207577156E+02	-5.86598400497E+00	-6.77662889699E-01
1.32080231137E+06	-1.52240893795E+01	-1.45762571838E+02	5.71577474406E+00	1.75540045784E+02	-4.68034756332E+01	-1.68947912837E+02	-5.87862021225E+00	-9.00868161832E-01
1.34299366596E+06	-1.24333500864E+01	-1.73905822972E+02	5.68241852898E+00	1.75744164352E+02	-3.41909901536E+01	-2.53554499118E+01	-5.90025073559E+00	-7.43068006196E-01
1.36518502056E+06	-1.39979305741E+01	-1.58104767938E+02	5.74213265949E+00	1.75434882702E+02	-5.06906433807E+01	1.51693010509E+02	-5.85915416264E+00	-6.24325815469E-01
1.38737637515E+06	-1.47815911367E+01	-1.77707702504E+02	5.70674475388E+00	1.75360137765E+02	-4.13040968430E+01	-1.40432773607E+02	-5.87281643529E+00	-6.31605480628E-01
1.40956772975E+06	-1.47319843232E+01	-1.56590976613E+02	5.69689183485E+00	1.75065174355E+02	-6.35935933471E+01	3.02441767624E+01	-5.86085836340E+00	-9.33299714326E-01
1.43175908434E+06	-1.41952031694E+01	-1.63344608554E+02	5.72776862652E+00	1.75142239009E+02	-5.21114234760E+01	-3.10814739929E+01	-5.87436761318E+00	-6.50786067783E-01
1.45395043894E+06	-1.59129814419E+01	-1.58793449423E+02	5.69661948287E+00	1.75123751111E+02	-4.69819283584E+01	-8.52313765235E+01	-5.86888759083E+00	-7.61797174392E-01
1.47614179353E+06	-1.56198299861E+01	-1.75803009200E+02	5.68111438163E+00	1.75004136218E+02	-4.77005860220E+01	1.77095933940E+02	-5.85679501682E+00	-7.34319701883E-01
1.49833314813E+06	-1.00645390719E+01	-1.65873208702E+02	5.69518327052E+00	1.74556479215E+02	-3.61126658627E+01	1.49537923067E+02	-5.84821388352E+00	-7.78872402828E-01
1.52052450272E+06	-1.09309079390E+01	1.74775765073E+02	5.66531985665E+00	1.74439243534E+02	-4.55764844842E+01	-7.85528235214E+01	-5.87770321939E+00	-8.40485131404E-01
1.54271585732E+06	-1.59369167980E+01	1.77184994458E+02	5.68268594431E+00	1.74685773863E+02	-4.18327080825E+01	-8.07432621131E+01	-5.88138925370E+00	-7.51643252675E-01
1.56490721191E+06	-1.38739082662E+01	-1.53400296010E+02	5.72168468692E+00	1.74290175200E+02	-4.03689967223E+01	-9.17572623619E+01	-5.87570525519E+00	-6.40044988450E-01
1.58709856651E+06	-1.35088490601E+01	-1.60177076368E+02	5.73205893052E+00	1.74408836221E+02	-3.85348878944E+01	-1.72572432754E+02	-5.85460038053E+00	-8.19196067776E-01
1.60928992110E+06	-1.43681991781E+01	-1.77596686502E+02	5.67428187663E+00	1.74438423669E+02	-5.80828048946E+01	1.40685551255E+02	-5.87177898524E+00	-8.78277702603E-01
1.63148127570E+06	-1.21614043711E+01	1.52746872186E+02	5.69011558093E+00	1.74531213110E+02	-5.19608457242E+01	1.31964226888E+02	-5.86018660917E+00	-8.67238132255E-01
1.65367263029E+06	-1.91901361010E+01	1.66036146573E+02	5.70654031419E+00	1.74549043782E+02	-3.93833053003E+01	-9.21098493431E+01	-5.90257431825E+00	-7.60538536846E-01
1.67586398489E+06	-1.39526957261E+01	-1.73537017480E+02	5.70291493297E+00	1.74111875012E+02	-4.23226068695E+01	4.34723135630E+01	-5.86172703960E+00	-8.90166074767E-01
1.69805533948E+06	-1.36281687624E+01	-1.63877728372E+02	5.72968408617E+00	1.74118682029E+02	-4.70772492894E+01	1.60529795311E+02	-5.85848423212E+00	-8.12439243141E-01
1.72024669408E+06	-1.29538610205E+01	-1.66797115917E+02	5.70421262586E+00	1.73987445639E+02	-4.05420802983E+01	-1.49504320934E+02	-5.87625504274E+00	-8.07210564256E-01
1.74243804867E+06	-1.44003390857E+01	-1.66097317319E+02	5.73720928788E+00	1.73741968393E+02	-4.55435224829E+01	5.16148592520E+01	-5.86316976764E+00	-9.13653838185E-01
1.76462940327E+06	-1.19210977498E+01	-1.61505342433E+02	5.69502193123E+00	1.73853233936E+02	-5.14174767451E+01	-1.53036554181E+02	-5.85017554113E+00	-9.13057508990E-01
1.78682075786E+06	-1.80515906296E+01	-1.64658675377E+02	5.73584135113E+00	1.73508567736E+02	-5.14509262892E+01	-2.15475613218E+01	-5.88105087434E+00	-9.08788333691E-01
1.80901211246E+06	-1.39799752557E+01	-1.63936902392E+02	5.72388348729E+00	1.73617562584E+02	-5.19273704056E+01	1.19746911161E+02	-5.85349696849E+00	-8.44545906344E-01
1.83120346705E+06	-1.30269499583E+01	1.73387234640E+02	5.73883019948E+00	1.73472711612E+02	-4.64420039722E+01	1.36586522974E+02	-5.86254198868E+00	-9.97535231536E-01
1.85339482165E+06	-1.36529602165E+01	-1.75954828543E+02	5.72007087957E+00	1.73415550847E+02	-4.86684615368E+01	7.01589063262E+01	-5.86316934989E+00	-9.33457086343E-01
1.87558617624E+06	-1.44597116410E+01	-1.71127305548E+02	5.68197953056E+00	1.73114345796E+02	-4.16385980751E+01	-6.68036256368E+01	-5.88313816112E+00	-9.81472126482E-01
1.89777753084E+06	-1.17876537014E+01	-1.69908290582E+02	5.68111303884E+00	1.72929899683E+02	-4.84797979312E+01	-1.52563150650E+02	-5.85496069945E+00	-9.15318389336E-01
1.91996888543E+06	-1.34499918039E+01	-1.70146292551E+02	5.73139949169E+00	1.73107722671E+02	-4.76164424885E+01	-5.12710396217E+01	-5.88003175015E+00	-9.55613890570E-01
1.94216024003E+06	-1.49095309377E+01	-1.64928448359E+02	5.77968154026E+00	1.73048453761E+02	-4.49230982878E+01	1.11049970261E+02	-5.85182439366E+00	-1.17712412707E+00
1.96435159462E+06	-1.17517703252E+01	-1.47070680717E+02	5.76023899274E+00	1.72980987743E+02	-3.41508768879E+01	-1.06949011132E+02	-5.89402040806E+00	-9.27945100566E-01
1.98654294922E+06	-1.45313190390E+01	-1.61847192841E+02	5.75801680956E+00	1.72809960032E+02	-4.66561639943E+01	1.60157089214E+02	-5.86848759192E+00	-1.04130695773E+00
2.00873430381E+06	-1.25567589932E+01	-1.65705412432E+02	5.71266375644E+00	1.72554959648E+02	-5.80621374791E+01	9.23783734447E+01	-5.86439817109E+00	-1.04572576598E+00
2.03092565841E+06	-1.47169393454E+01	-1.77458977776E+02	5.73761477146E+00	1.72571261229E+02	-4.48619602355E+01	-6.43409118811E+01	-5.85431305765E+00	-8.86617938276E-01
2.05311701300E+06	-1.51320386912E+01	-1.54800702137E+02	5.79099463784E+00	1.72587242099E+02	-4.78350664754E+01	1.63553200708E+01	-5.87299284253E+00	-1.11928975514E+00
2.07530836760E+06	-1.43702440202E+01	-1.77224598596E+02	5.69193732919E+00	1.72413261728E+02	-4.89862582402E+01	-1.35101106383E+02	-5.87772711860E+00	-1.07330464601E+00
2.09749972219E+06	-1.36188242923E+01	-1.69734576136E+02	5.77643199237E+00	1.72435151484E+02	-4.05495079252E+01	1.74699260696E+02	-5.86100001974E+00	-1.02762448659E+00
2.11969107679E+06	-1.44438997384E+01	-1.60027498002E+02	5.73631308000E+00	1.72635873069E+02	-4.65232291766E+01	1.56670011282E+02	-5.85440761505E+00	-1.10283851550E+00
2.14188243138E+06	-1.75793278179E+01	1.64541205644E+02	5.72603569001E+00	1.72370063134E+02	-4.50222264936E+01	-1.16347409566E+02	-5.90029198199E+00	-9.70588741549E-01
2.16407378598E+06	-1.11019509526E+01	-1.57832120101E+02	5.69116183089E+00	1.71596070039E+02	-4.72012271657E+01	-1.75587710927E+02	-5.86193801897E+00	-1.00254557793E+00
2.18626514057E+06	-2.04176487676E+01	1.70374313049E+02	5.72738497280E+00	1.72399210879E+02	-4.11374953046E+01	-1.20340578015E+02	-5.87323906568E+00	-1.10084887146E+00
2.20845649517E+06	-1.26759664060E+01	-1.72367143672E+02	5.71572975838E+00	1.71892974552E+02	-4.30015185488E+01	3.98170558846E+01	-5.88167691694E+00	-1.06739003334E+00
2.23064784976E+06	-1.39849440024E+01	1.79214138356E+02	5.71065447299E+00	1.71840744069E+02	-4.42479244482E+01	8.47633965915E+01	-5.85754768074E+00	-1.18814405094E+00
2.25283920436E+06	-1.41576093314E+01	-1.65955548917E+02	5.72223477880E+00	1.71724474597E+02	-4.21414168246E+01	-1.74032650909E+02	-5.84462927736E+00	-1.22540277661E+00
2.27503055895E+06	-1.48436210781E+01	-1.35801205852E+02	5.73212183993E+00	1.71833031093E+02	-4.04251741395E+01	-4.43767357018E+01	-5.87981057727E+00	-1.17810221336E+00
2.29722191355E+06	-1.49268707425E+01	-1.45460281047E+02	5.73156576922E+00	1.71751171849E+02	-3.70209166015E+01	8.47106741519E+01	-5.84748423316E+00	-1.34124415332E+00
2.31941326814E+06	-1.33120898764E+01	-1.60315645043E+02	5.73614379502E+00	1.71529936989E+02	-4.96948278303E+01	-8.39804623646E+00	-5.86647004871E+00	-1.16583147549E+00
2.34160462274E+06	-1.30751011826E+01	-1.79131409359E+02	5.73615614024E+00	1.71522696760E+02	-4.57426432685E+01	7.69762685185E+00	-5.88797846145E+00	-1.28966619593E+00
2.36379597733E+06	-1.16292987286E+01	-1.58845644649E+02	5.70524569279E+00	1.70899577032E+02	-4.05328014011E+01	-8.09820713030E+01	-5.87949008531E+00	-1.13245447729E+00
2.38598733193E+06	-1.07511186926E+01	-1.57619214683E+02	5.74991994251E+00	1.70601902415E+02	-4.44193740409E+01	-1.36623215905E+02	-5.88345415356E+00	-1.21330655216E+00
2.40817868652E+06	-1.44499737322E+01	-1.61003122459E+02	5.71900828148E+00	1.71215149580E+02	-4.40244157014E+01	1.49164109556E+02	-5.84490752915E+00	-1.34970387737E+00
2.43037004112E+06	-1.09231118541E+01	1.77142698466E+02	5.72942724858E+00	1.71108295541E+02	-3.64502183600E+01	-1.67670940148E+02	-5.85025193377E+00	-1.59407275416E+00
2.45256139571E+06	-1.02260409390E+01	-1.32851036122E+02	5.80265011896E+00	1.70818783681E+02	-4.72752882308E+01	-1.39628699274E+01	-5.87995077174E+00	-1.29807362725E+00
2.47475275031E+06	-1.59131958044E+01	-1.51677332398E+02	5.75906963415E+00	1.70928913364E+02	-6.11293106916E+01	7.72495898972E+01	-5.86633924174E+00	-1.27153447835E+00
2.49694410490E+06	-1.34354832397E+01	-1.75029662107E+02	5.70945952654E+00	1.70481964697E+02	-4.19545722227E+01	-6.79359118015E+01	-5.88725151998E+00	-1.05798888533E+00
2.51913545950E+06	-1.55405777396E+01	-1.64121810184E+02	5.71229260444E+00	1.70694971983E+02	-4.44383004592E+01	1.18121382936E+01	-5.88656556714E+00	-1.26681888199E+00
2.54132681409E+06	-1.33289618553E+01	-1.56618952741E+02	5.77876282024E+00	1.70619284544E+02	-4.31240853134E+01	1.77642121363E+02	-5.86628134936E+00	-1.23487351650E+00
2.56351816869E+06	-1.12115693643E+01	-1.47933571341E+02	5.76091114225E+00	1.70173300585E+02	-4.87312717298E+01	-4.39537999391E+01	-5.86949012719E+00	-1.21008610840E+00
2.58570952328E+06	-1.26470271526E+01	-1.41990877260E+02	5.75147886919E+00	1.70109037802E+02	-3.80019241942E+01	1.48923321462E+02	-5.85939734498E+00	-1.25790054406E+00
2.60790087788E+06	-1.23221796578E+01	-1.33542378570E+02	5.74969795662E+00	1.70002049450E+02	-3.81671988992E+01	2.29462432704E+01	-5.89494228743E+00	-1.39825230715E+00
2.63009223247E+06	-1.27989626130E+01	-1.48965955713E+02	5.74090386549E+00	1.70048899446E+02	-4.15331573108E+01	-5.08455537260E+01	-5.90506617359E+00	-7.91246906178E-01
2.65228358707E+06	-1.33462988360E+01	-1.59615368141E+02	5.72773608111E+00	1.69834101513E+02	-4.62339578386E+01	-8.09867140386E+01	-5.88594836317E+00	-1.26347405115E+00
2.67447494166E+06	-1.44621966728E+01	-1.69455843711E+02	5.71458323188E+00	1.69988067172E+02	-4.97616592942E+01	1.59116572694E+02	-5.86496431215E+00	-1.16018145566E+00
2.69666629626E+06	-1.64871875832E+01	-1.49457378784E+02	5.80128718384E+00	1.70271111083E+02	-5.13672926158E+01	1.84000956302E+01	-5.88013505271E+00	-1.61254503936E+00
2.71885765085E+06	-1.31705918533E+01	-1.65651481972E+02	5.75244985644E+00	1.69669403820E+02	-3.85185158767E+01	6.48739171282E+01	-5.86101335486E+00	-1.58546017412E+00
2.74104900545E+06	-1.08987318515E+01	-1.67298127907E+02	5.72469292697E+00	1.69278555442E+02	-4.91340315242E+01	-1.28266856379E+02	-5.89239487192E+00	-1.31015074991E+00
2.76324036004E+06	-1.31460307640E+01	1.73890667756E+02	5.73119092753E+00	1.69799586067E+02	-3.69298474666E+01	3.85393590225E+01	-5.87614519939E+00	-1.62519635332E+00
2.78543171463E+06	-1.61505288777E+01	-1.68897507358E+02	5.76609844145E+00	1.69670719367E+02	-5.22119757312E+01	6.96202357571E+01	-5.89480165630E+00	-1.44836139157E+00
2.80762306923E+06	-1.43746787053E+01	-1.56648600908E+02	5.77179274316E+00	1.69379797140E+02	-4.82619703834E+01	1.70917648093E+02	-5.87259554626E+00	-1.42283090926E+00
2.82981442382E+06	-1.23452509414E+01	-1.65947057908E+02	5.73839768372E+00	1.69227922185E+02	-5.15771961410E+01	-8.83848267700E+01	-5.86655316362E+00	-1.42790236892E+00
2.85200577842E+06	-1.14133363174E+01	-1.69766017535E+02	5.76512725219E+00	1.69043601287E+02	-4.11703771577E+01	-2.20666394749E+01	-5.89302242228E+00	-1.44896332031E+00
2.87419713301E+06	-1.22224983705E+01	-1.57302858933E+02	5.77277393923E+00	1.69227372393E+02	-4.41267048462E+01	-1.49444846530E+02	-5.86747439442E+00	-1.40981404545E+00
