# Hz S DB R 50
! CMT, M5065, 19127446, 24.2.4/2
! Date: 11/8/2024 5:25:07 PM
! Data: Format (Calibration Info)
! Freq	S11:dB/Ang(F2)	S21:dB/Ang(F2)	S12:dB/Ang(F2)	S22:dB/Ang(F2)
3.00000000000E+05	-1.22694675788E+01	-1.77889839015E+02	2.15554901652E+01	-1.75827852268E+02	-5.14466410750E+01	1.77183419139E+02	-5.82950244724E+00	-3.89211951653E-01
3.22191354595E+05	-1.59392421757E+01	-1.53967238536E+02	2.16091362646E+01	-1.77039383090E+02	-4.34737592126E+01	-9.31744589231E+00	-5.91402355183E+00	-4.89519442974E-01
3.44382709190E+05	-1.45131881410E+01	-1.63340512528E+02	2.15995361231E+01	-1.77590518855E+02	-4.94077566448E+01	3.31770418802E+00	-5.91156312011E+00	-3.69894906396E-01
3.66574063785E+05	-1.31979072553E+01	-1.63244890543E+02	2.15936697799E+01	-1.78472735453E+02	-3.95003076801E+01	-1.07336208799E+01	-5.91163891479E+00	-4.23482340098E-01
3.88765418380E+05	-1.27186689544E+01	-1.67300688627E+02	2.15856755357E+01	-1.79174251786E+02	-5.88392345394E+01	1.46132120432E+02	-5.64192873194E+00	-4.79480899137E-01
4.10956772975E+05	-1.26943147196E+01	1.76572233138E+02	2.15744503345E+01	-1.79443529155E+02	-4.14509915555E+01	-7.61123553496E+01	-5.88162309857E+00	1.07005727250E-01
4.33148127570E+05	-1.57246126666E+01	-1.72184827758E+02	2.16128449218E+01	1.79989775487E+02	-4.17568466040E+01	1.07028814968E+02	-5.82379970022E+00	-7.24535278004E-01
4.55339482165E+05	-1.20236851723E+01	1.79257209962E+02	2.15760608798E+01	1.79319340785E+02	-5.18842323281E+01	1.21393264732E+02	-5.85840881888E+00	-6.31752469176E-01
4.77530836760E+05	-1.23435112621E+01	-1.64404408255E+02	2.15807051775E+01	1.78785802288E+02	-4.24041943005E+01	6.03576766899E+01	-5.87752213407E+00	-7.25244424138E-01
4.99722191355E+05	-1.06528831522E+01	-1.71924465982E+02	2.15746878669E+01	1.78356859588E+02	-4.49799718891E+01	1.13033073262E+02	-5.81267841215E+00	-6.27397802537E-01
5.21913545950E+05	-1.44275470268E+01	-1.58238524583E+02	2.15882619321E+01	1.77682462818E+02	-5.17300079128E+01	1.31236895336E+02	-5.91254918583E+00	-4.14890883043E-01
5.44104900545E+05	-1.17520304581E+01	-1.70635616798E+02	2.15767759842E+01	1.77281967941E+02	-4.11183989881E+01	1.75426176281E+01	-5.96437321140E+00	-8.65809149681E-01
5.66296255139E+05	-1.50033006534E+01	-1.41533052272E+02	2.15903734735E+01	1.76832051223E+02	-4.13647395131E+01	9.29244933116E+01	-5.87613967154E+00	-9.75393000009E-01
5.88487609734E+05	-1.36703093580E+01	1.72259971358E+02	2.15645488477E+01	1.76550811750E+02	-3.81656655762E+01	-4.47336268632E+01	-5.95000008082E+00	-1.48060382396E-01
6.10678964329E+05	-1.35153111281E+01	-1.57432093671E+02	2.15784260360E+01	1.76056245156E+02	-4.39893518719E+01	-1.33708882029E+02	-5.83037418013E+00	4.60698474462E-01
6.32870318924E+05	-1.24372120104E+01	-1.73638253228E+02	2.15523312648E+01	1.75666976684E+02	-5.11860512796E+01	1.26423861768E+02	-5.84993150795E+00	-2.91765865963E-01
6.55061673519E+05	-1.40578918231E+01	1.66519224152E+02	2.15557976954E+01	1.75498479629E+02	-3.93333103565E+01	8.50891752050E+01	-5.87984062569E+00	-1.10715392505E+00
6.77253028114E+05	-1.38797072590E+01	-1.72649336611E+02	2.15645491893E+01	1.75021986440E+02	-4.03000360142E+01	-5.78366590684E+01	-5.95522253167E+00	-3.83357501158E-01
6.99444382709E+05	-1.58807729367E+01	-1.76741649976E+02	2.15739429869E+01	1.74664296165E+02	-4.89199457664E+01	1.42410109109E+02	-5.86169295861E+00	-5.16317813039E-01
7.21635737304E+05	-1.09723340707E+01	-1.54461413254E+02	2.15407513881E+01	1.74009910509E+02	-4.99395936186E+01	-6.91100243810E+01	-5.88102460144E+00	-1.45937730622E-01
7.43827091899E+05	-1.39459937571E+01	-1.76548586194E+02	2.15336312308E+01	1.73879384949E+02	-4.81200147824E+01	9.55624572955E+00	-5.91502104873E+00	-6.64291396422E-01
7.66018446494E+05	-1.32364563163E+01	-1.78483821208E+02	2.15291330404E+01	1.73474091144E+02	-5.86560653453E+01	6.89925929429E+01	-5.87916273948E+00	-5.64373086242E-01
7.88209801089E+05	-1.29813551532E+01	-1.65185316912E+02	2.15417828140E+01	1.73222722278E+02	-3.73456179018E+01	6.24500665964E+01	-5.93809066408E+00	-1.18738099388E+00
8.10401155684E+05	-1.38654139701E+01	1.75141491113E+02	2.15454405442E+01	1.72875276235E+02	-4.60975880643E+01	1.58165856870E+02	-5.80860195161E+00	-5.85989688984E-01
8.32592510279E+05	-1.36206541535E+01	1.79633789796E+02	2.15415109056E+01	1.72558592413E+02	-4.88795770556E+01	1.48171154002E+02	-5.83430787047E+00	-7.66088702810E-01
8.54783864874E+05	-1.28477237765E+01	-1.59986775570E+02	2.15080813511E+01	1.71953405306E+02	-6.11781403115E+01	-3.94390684911E+01	-5.86492203002E+00	-7.85330598962E-01
8.76975219469E+05	-1.39608786275E+01	1.63821571305E+02	2.15002274315E+01	1.72079045087E+02	-5.43598682598E+01	7.66481719862E+01	-5.88242820877E+00	-5.13249381426E-01
8.99166574064E+05	-1.37966838446E+01	-1.73649678629E+02	2.15017693619E+01	1.71639479396E+02	-4.27970828973E+01	-1.61475733442E+02	-5.81676550140E+00	-3.94537293781E-01
9.21357928659E+05	-1.05765839045E+01	-1.71502229363E+02	2.14814527440E+01	1.71011543616E+02	-4.76751395716E+01	-7.99955089446E+01	-5.90594330585E+00	-4.19870358210E-01
9.43549283254E+05	-1.56294143090E+01	1.75139150346E+02	2.15208341114E+01	1.71023426129E+02	-4.30296477064E+01	1.06462295822E+01	-5.93260534802E+00	-7.71087120692E-01
9.65740637849E+05	-1.27324929115E+01	-1.76786748585E+02	2.14961968815E+01	1.70531941641E+02	-4.37545896257E+01	1.28319793004E+02	-5.82890160683E+00	-1.01404967969E+00
9.87931992444E+05	-1.25040847972E+01	-1.71539808236E+02	2.14932538762E+01	1.70143177302E+02	-4.09858373019E+01	-8.20646485086E+01	-5.89152037189E+00	-1.93772550921E-01
1.01012334704E+06	-1.32014373593E+01	1.74291472215E+02	2.14786843022E+01	1.70014594748E+02	-4.06084169608E+01	-3.91272274260E+01	-5.92575002967E+00	-6.47309465338E-01
1.03231470163E+06	-1.91356581642E+01	-1.67579138399E+02	2.15168318508E+01	1.69688174566E+02	-4.70973480727E+01	1.24574453636E+02	-5.84597253365E+00	-9.64974241429E-01
1.05450605623E+06	-1.27541467070E+01	1.72575063686E+02	2.14649829822E+01	1.69435947410E+02	-5.79965272551E+01	-1.30477049135E+02	-5.88835919233E+00	-4.73556360891E-01
1.07669741082E+06	-1.49816487264E+01	-1.76811461378E+02	2.14701565860E+01	1.69066450265E+02	-3.83923530171E+01	-2.14113452007E+01	-5.97444156151E+00	-2.01080273078E-01
1.09888876542E+06	-1.38388209915E+01	-1.71749576181E+02	2.14690677183E+01	1.68672223540E+02	-4.08288848759E+01	1.29616133678E+02	-5.80940846611E+00	-1.08807330830E+00
1.12108012001E+06	-1.81608806616E+01	1.79285741823E+02	2.15100639811E+01	1.68557200879E+02	-4.66445804265E+01	-8.08653889942E+01	-5.89474565298E+00	-5.58777952490E-01
1.14327147461E+06	-1.16538848417E+01	-1.78587245444E+02	2.14332059874E+01	1.68121641911E+02	-3.76369198694E+01	2.47738115044E+01	-5.94922715529E+00	-1.19894675354E+00
1.16546282920E+06	-1.32851679386E+01	1.78357980321E+02	2.14674716043E+01	1.67961819248E+02	-4.01301236451E+01	-7.68422240672E+01	-5.90581349819E+00	-1.32121612468E-01
1.18765418380E+06	-1.19979139801E+01	-1.71627363730E+02	2.14344768385E+01	1.67521092226E+02	-5.10294653940E+01	-5.90654273418E+01	-5.90256218321E+00	-7.71813160971E-01
1.20984553839E+06	-1.18938567175E+01	-1.58046943294E+02	2.14460246121E+01	1.67166468375E+02	-4.13786748345E+01	1.46841326487E+02	-5.78634569539E+00	-1.07447911789E+00
1.23203689299E+06	-1.28313722099E+01	-1.67884469474E+02	2.14339359855E+01	1.66997391805E+02	-5.86670510583E+01	-1.39517173215E+02	-5.87930083875E+00	-4.17693922770E-01
1.25422824758E+06	-1.51629866530E+01	-1.47069441746E+02	2.14752501395E+01	1.66605021589E+02	-5.58067888778E+01	2.73844952902E+01	-5.87562547650E+00	-7.60350063095E-01
1.27641960218E+06	-1.34405574048E+01	-1.65433725559E+02	2.14466267647E+01	1.66303477586E+02	-4.84517021185E+01	1.66666191469E+02	-5.86656088041E+00	-7.08901066862E-01
1.29861095677E+06	-1.23313711598E+01	-1.63461805175E+02	2.14484696467E+01	1.66064306173E+02	-4.77253090035E+01	1.21741267616E+02	-5.86465245327E+00	-7.22370837853E-01
1.32080231137E+06	-1.47015123102E+01	-1.60651701123E+02	2.14515492034E+01	1.65913911906E+02	-4.15976270461E+01	-1.75845159015E+02	-5.81217462815E+00	-8.36120977890E-01
1.34299366596E+06	-1.16354522763E+01	-1.47799213620E+02	2.14300171199E+01	1.65434623954E+02	-4.12624960205E+01	-2.13137448251E+01	-5.98061482745E+00	-6.38440665312E-01
1.36518502056E+06	-1.37759329341E+01	1.68219160175E+02	2.13977907553E+01	1.65375228919E+02	-4.17627768815E+01	-1.21004591545E+02	-5.82410546669E+00	-4.38832029205E-01
1.38737637515E+06	-1.38216282136E+01	-1.68241747302E+02	2.14205300737E+01	1.64912415527E+02	-4.22581054000E+01	1.51216835372E+02	-5.81878625785E+00	-1.04908417519E+00
1.40956772975E+06	-1.42143593868E+01	-1.71146585997E+02	2.14296870723E+01	1.64815281261E+02	-6.20673192578E+01	4.71374283751E+01	-5.89361229568E+00	-8.89252189789E-01
1.43175908434E+06	-1.08267280949E+01	-1.65458065547E+02	2.13890644370E+01	1.64262435474E+02	-5.65465370413E+01	1.31136165029E+02	-5.87645593133E+00	-7.80057877652E-01
1.45395043894E+06	-1.35271768512E+01	-1.69265228695E+02	2.14073397761E+01	1.64193950225E+02	-4.04701784180E+01	1.08399444593E+02	-5.83270566323E+00	-1.07742863055E+00
1.47614179353E+06	-8.78582043262E+00	-1.58259245243E+02	2.13917717280E+01	1.63464639130E+02	-4.56715094950E+01	-1.32328793151E+02	-5.84808605115E+00	-6.96751746945E-01
1.49833314813E+06	-1.56943358215E+01	1.59587211680E+02	2.13823021527E+01	1.63768666266E+02	-5.42774479485E+01	6.81822292540E+01	-5.86527945282E+00	-9.10394542691E-01
1.52052450272E+06	-1.08590578262E+01	-1.73629408288E+02	2.14142776595E+01	1.63238276312E+02	-5.42186917135E+01	-1.64278591464E+01	-5.89933375835E+00	-6.76290795762E-01
1.54271585732E+06	-1.09178892060E+01	-1.69448561131E+02	2.13700909855E+01	1.62927021268E+02	-3.87090220218E+01	8.04398906844E+01	-5.87190933822E+00	-1.59980871167E+00
1.56490721191E+06	-1.12077079913E+01	1.73295863044E+02	2.13653887625E+01	1.62952234482E+02	-3.97413122214E+01	4.16913384839E+01	-5.90745533440E+00	-1.40798405850E+00
1.58709856651E+06	-1.52026015593E+01	-1.45366493954E+02	2.14152786831E+01	1.62418418414E+02	-5.43585304013E+01	1.24708244958E+00	-5.89129942169E+00	-8.02052634332E-01
1.60928992110E+06	-1.25865409886E+01	-1.60401710848E+02	2.13766751531E+01	1.62035340027E+02	-4.39536304691E+01	-1.20989654753E+02	-5.85518365028E+00	-6.31541319010E-01
1.63148127570E+06	-1.31487846499E+01	-1.59283641571E+02	2.13774889484E+01	1.61825698026E+02	-4.51360199376E+01	7.15910929664E+01	-5.86284519328E+00	-1.30155687043E+00
1.65367263029E+06	-1.12606571147E+01	1.59651037489E+02	2.13259421627E+01	1.61883216864E+02	-4.39267954611E+01	4.83340514531E+01	-5.93385247613E+00	-1.31017976721E+00
1.67586398489E+06	-1.23697744512E+01	-1.32385263309E+02	2.14020983934E+01	1.61412608560E+02	-4.36453890551E+01	-1.71707589007E+02	-5.80765682911E+00	-8.33166310723E-01
1.69805533948E+06	-1.24980535940E+01	-1.72775152667E+02	2.13473550841E+01	1.61186107205E+02	-4.10514374051E+01	1.62154795909E+02	-5.79415565220E+00	-1.18842885387E+00
1.72024669408E+06	-1.02012238092E+01	-1.69808550743E+02	2.13267462293E+01	1.60830953509E+02	-5.29879378145E+01	-5.58059549474E+01	-5.89639686425E+00	-9.29981167322E-01
1.74243804867E+06	-1.39362610668E+01	-1.63898686233E+02	2.13538710256E+01	1.60615641018E+02	-4.27655091202E+01	-3.72941004727E+01	-5.93410617116E+00	-9.94650601990E-01
1.76462940327E+06	-1.28316614170E+01	1.73737907751E+02	2.13095052109E+01	1.60498695044E+02	-5.57781564589E+01	-4.33698320635E+01	-5.87904144348E+00	-7.27539920207E-01
1.78682075786E+06	-1.25858920901E+01	1.75477436619E+02	2.13103801928E+01	1.60098210093E+02	-3.30797903408E+01	-1.17095205787E+02	-5.86806360640E+00	-4.08771341201E-01
1.80901211246E+06	-1.32833013484E+01	-1.69473066934E+02	2.13121626308E+01	1.59840721137E+02	-3.86182705407E+01	-8.60011873181E+01	-5.89681535909E+00	-2.28447530721E-01
1.83120346705E+06	-1.05334465218E+01	-1.78014397124E+02	2.13167740247E+01	1.59504897680E+02	-4.66998708034E+01	4.36739435127E+01	-5.91890192276E+00	-1.33823058040E+00
1.85339482165E+06	-1.21870620264E+01	1.76999001617E+02	2.12915144772E+01	1.59337870085E+02	-4.50206984289E+01	6.31723334101E-02	-5.94712056263E+00	-8.80931782970E-01
1.87558617624E+06	-1.01613151508E+01	-1.75692370927E+02	2.12620718315E+01	1.58901855979E+02	-4.47846321121E+01	-1.00596424724E+02	-5.86012312699E+00	-8.64024034304E-01
1.89777753084E+06	-1.18512403290E+01	-1.50281238238E+02	2.13064846199E+01	1.58446293781E+02	-4.96019917380E+01	9.03163992010E+01	-5.84055690429E+00	-1.27684350920E+00
1.91996888543E+06	-1.27671622876E+01	-1.66056753640E+02	2.12774392529E+01	1.58472267138E+02	-5.15166701771E+01	-8.65721283655E+01	-5.88004856375E+00	-8.35970972796E-01
1.94216024003E+06	-1.33000597896E+01	-1.73538659919E+02	2.12888474098E+01	1.58096413452E+02	-3.09955672424E+01	-5.68627050565E+01	-5.96248912132E+00	-4.66263180582E-01
1.96435159462E+06	-1.38572936540E+01	-1.77955526669E+02	2.12657213515E+01	1.58110356888E+02	-6.41817813168E+01	-3.64352486012E+01	-5.88644457379E+00	-1.06841203357E+00
1.98654294922E+06	-1.38745061242E+01	-1.50304034326E+02	2.13134747665E+01	1.57602196452E+02	-4.74732801280E+01	1.32279708907E+01	-5.89709640708E+00	-1.07924142059E+00
2.00873430381E+06	-1.27190765815E+01	-1.74955430295E+02	2.12662826063E+01	1.57429450454E+02	-4.39123179903E+01	4.63624008995E+01	-5.88164094755E+00	-1.56569380787E+00
2.03092565841E+06	-1.19326992661E+01	1.75979786626E+02	2.12458130038E+01	1.57249031296E+02	-4.66654777410E+01	1.07233307926E+02	-5.86798676686E+00	-1.35783351794E+00
2.05311701300E+06	-1.09556724880E+01	-1.61917166732E+02	2.12494402135E+01	1.56760146109E+02	-4.31824874891E+01	1.37885404271E+02	-5.83021164084E+00	-1.41368292014E+00
2.07530836760E+06	-1.53356059133E+01	-1.76511114864E+02	2.12751252441E+01	1.56736223311E+02	-6.20243721245E+01	-1.66588061822E+02	-5.86187634650E+00	-1.27332329252E+00
2.09749972219E+06	-1.21922171152E+01	-1.53477670152E+02	2.12749795955E+01	1.56150768604E+02	-3.23158206434E+01	-9.25466793580E+01	-5.89437777426E+00	-5.48833340903E-01
2.11969107679E+06	-1.07909019127E+01	-1.74994901584E+02	2.12324437882E+01	1.56064744033E+02	-4.30514436818E+01	-4.81084431861E+01	-5.91994404495E+00	-9.27833801263E-01
2.14188243138E+06	-1.34671967382E+01	1.41390839757E+02	2.12388187670E+01	1.56278561733E+02	-4.57673087894E+01	7.44861533260E+01	-5.87104042130E+00	-1.36982080738E+00
2.16407378598E+06	-1.58266680789E+01	-1.65837702873E+02	2.12567385228E+01	1.55546544476E+02	-5.67617608711E+01	-1.51005488921E+02	-5.84379350612E+00	-1.07260862475E+00
2.18626514057E+06	-1.42397480967E+01	1.77153759226E+02	2.12429288090E+01	1.55380622108E+02	-5.29423845628E+01	7.46269189374E+01	-5.88867410033E+00	-1.34549061661E+00
2.20845649517E+06	-1.28241851314E+01	-1.69071801307E+02	2.12260840269E+01	1.55139080011E+02	-4.92782133012E+01	5.57581554922E+01	-5.90233548071E+00	-1.38696363693E+00
2.23064784976E+06	-1.28846815290E+01	-1.61586402498E+02	2.12571229267E+01	1.54702692709E+02	-5.36745148788E+01	8.69213217364E+01	-5.88112718832E+00	-1.24300587804E+00
2.25283920436E+06	-2.16858210596E+01	-1.79050238684E+02	2.12627532341E+01	1.54813883171E+02	-4.14368534864E+01	-1.74439899654E+02	-5.79557604275E+00	-8.96254537696E-01
2.27503055895E+06	-1.45736605114E+01	-1.66793246026E+02	2.12347899389E+01	1.54367150198E+02	-5.45452339917E+01	-2.85646444824E+01	-5.87724174048E+00	-1.16290308659E+00
2.29722191355E+06	-9.19472669646E+00	-1.63139119008E+02	2.11809916033E+01	1.53937088356E+02	-4.50029070356E+01	-8.24411630086E+01	-5.90211335597E+00	-6.56381296682E-01
2.31941326814E+06	-1.45855318463E+01	-1.49783644513E+02	2.12339690181E+01	1.53655145353E+02	-3.96374970493E+01	1.09884123011E+02	-5.83809417611E+00	-1.82606960624E+00
2.34160462274E+06	-1.58962459834E+01	1.70149698106E+02	2.11977677059E+01	1.53819973099E+02	-4.06423037100E+01	-9.38264091650E+01	-5.89304969219E+00	-6.37258524223E-01
2.36379597733E+06	-1.44308736982E+01	-1.71372583327E+02	2.12004738498E+01	1.53339433447E+02	-4.60308694357E+01	-8.75796392371E+01	-5.87594544547E+00	-1.02321210153E+00
2.38598733193E+06	-1.08213625585E+01	-1.70736764041E+02	2.11463151429E+01	1.52860540742E+02	-4.47836393394E+01	-3.97441077503E+01	-5.90733219661E+00	-1.31504065667E+00
2.40817868652E+06	-1.37977072371E+01	-1.65936657836E+02	2.11843121916E+01	1.52805163712E+02	-3.29974792883E+01	1.60751134017E+02	-5.73463609605E+00	-1.24796035955E+00
2.43037004112E+06	-1.35817439681E+01	-1.59891376149E+02	2.11966526169E+01	1.52464849436E+02	-4.72766380338E+01	7.81533313911E+01	-5.90027685872E+00	-2.08306820926E+00
2.45256139571E+06	-1.33591223742E+01	-1.22963420600E+02	2.11964515850E+01	1.52174021850E+02	-5.07798779756E+01	1.62763349280E+02	-5.85563143931E+00	-1.29222556823E+00
2.47475275031E+06	-1.37059412790E+01	-1.71973847950E+02	2.11761722860E+01	1.52029889332E+02	-3.92069902957E+01	-2.42579729278E+01	-5.97538534587E+00	-1.04183100470E+00
2.49694410490E+06	-1.28158938822E+01	-1.73770222280E+02	2.11465078968E+01	1.51801013495E+02	-4.59161596505E+01	1.61511307097E+02	-5.83248335395E+00	-1.40775702417E+00
2.51913545950E+06	-1.36923343858E+01	-1.69566603441E+02	2.11599119857E+01	1.51604187878E+02	-4.66174513207E+01	1.47978740961E+02	-5.85872285200E+00	-1.63189545194E+00
2.54132681409E+06	-1.09578061739E+01	-1.72489228867E+02	2.11348859988E+01	1.51101105415E+02	-4.46535060546E+01	8.06812284205E+01	-5.87741406186E+00	-1.76218178499E+00
2.56351816869E+06	-1.23576025916E+01	-1.67505115447E+02	2.11355596227E+01	1.50955105256E+02	-3.19893724913E+01	1.60409360413E+02	-5.70168221264E+00	-1.45209737235E+00
2.58570952328E+06	-1.17166996628E+01	-1.45587387956E+02	2.11388021138E+01	1.50512375521E+02	-5.25062476374E+01	3.77378289887E+01	-5.92796196219E+00	-1.50893514328E+00
2.60790087788E+06	-1.39076194001E+01	1.62790033680E+02	2.10995203328E+01	1.50738009017E+02	-4.85678837507E+01	1.41929923877E+02	-5.82768832151E+00	-1.31201831452E+00
2.63009223247E+06	-1.61464991901E+01	-1.61398285562E+02	2.11459014688E+01	1.50337122444E+02	-4.81277345067E+01	1.03386674480E+01	-5.93995448550E+00	-1.08019529162E+00
2.65228358707E+06	-9.66407379493E+00	-1.69639288355E+02	2.10633537815E+01	1.49702908441E+02	-4.37114984067E+01	8.34624033776E+01	-5.87863055683E+00	-1.96989079998E+00
2.67447494166E+06	-1.34141444062E+01	-1.74016240578E+02	2.11005184689E+01	1.49820273264E+02	-4.68230720182E+01	-4.46729934226E+01	-5.90499263163E+00	-1.26732970031E+00
2.69666629626E+06	-1.14650462192E+01	-1.61271482170E+02	2.10958857620E+01	1.49221607006E+02	-4.95019369994E+01	1.33271137763E+02	-5.85186916309E+00	-1.56285042950E+00
2.71885765085E+06	-1.14998568561E+01	-1.69032139589E+02	2.10700552715E+01	1.48982474675E+02	-5.19664512998E+01	1.24422141471E+02	-5.89091697575E+00	-1.44040911870E+00
2.74104900545E+06	-1.41297903817E+01	1.72695113193E+02	2.10797781880E+01	1.49098403948E+02	-4.17210679900E+01	-1.42212689328E+02	-5.83184499915E+00	-9.48454022504E-01
2.76324036004E+06	-1.72403466344E+01	1.32556968578E+02	2.10735796759E+01	1.49057333729E+02	-4.83966368030E+01	7.63632134776E+01	-5.87404449168E+00	-1.70689270413E+00
2.78543171463E+06	-1.35607436891E+01	-1.63014105361E+02	2.10820895477E+01	1.48409873892E+02	-5.00474767499E+01	-3.87349161123E+01	-5.89788894699E+00	-1.30892649201E+00
2.80762306923E+06	-1.27371962847E+01	-1.68054377996E+02	2.10509367232E+01	1.47982404934E+02	-5.10588780763E+01	-6.48660969377E+01	-5.86033188196E+00	-1.24229690003E+00
2.82981442382E+06	-1.17897350527E+01	-1.54454330498E+02	2.10802967059E+01	1.47681707717E+02	-4.76033770404E+01	-1.13647615848E+02	-5.88267442302E+00	-1.17722546254E+00
2.85200577842E+06	-1.13900975115E+01	-1.65072186921E+02	2.10186339544E+01	1.47430288366E+02	-4.35247306845E+01	-1.09794556014E+02	-5.85781789866E+00	-9.08168827494E-01
2.87419713301E+06	-1.07260646588E+01	-1.61237690199E+02	2.10184189278E+01	1.47093851222E+02	-4.25089094066E+01	-3.87831131038E+01	-5.94551885575E+00	-1.46933361256E+00
