# Hz S DB R 50
! CMT, M5065, 19127446, 24.2.4/2
! Date: 11/8/2024 5:34:15 PM
! Data: Format (Calibration Info)
! Freq	S11:dB/Ang(F2)	S21:dB/Ang(F2)	S12:dB/Ang(F2)	S22:dB/Ang(F2)
3.00000000000E+05	-1.16869918682E+01	-1.70150078411E+02	2.39190694712E+01	-1.75641983022E+02	-5.40817658256E+01	-2.01108861155E+01	-5.88894404386E+00	-1.91189376560E-01
3.22191354595E+05	-1.17546067397E+01	-1.56358763196E+02	2.39597617585E+01	-1.76851657111E+02	-3.68400156969E+01	1.08346975479E+01	-5.97971944528E+00	-3.76036332513E-01
3.44382709190E+05	-1.20483438704E+01	1.43097395866E+02	2.39589509511E+01	-1.77482009873E+02	-4.35971095225E+01	1.69344782859E+02	-5.80732864211E+00	-3.27804123669E-01
3.66574063785E+05	-1.47991236641E+01	1.77628941197E+02	2.39699125235E+01	-1.78204987516E+02	-4.39175401257E+01	7.99770084921E+01	-5.84326191371E+00	-6.33692007151E-01
3.88765418380E+05	-1.21171919618E+01	-1.66682195959E+02	2.39555953873E+01	-1.79768020169E+02	-4.62384113850E+01	-1.65844636433E+02	-5.66873210708E+00	6.51683125434E-01
4.10956772975E+05	-1.25929744243E+01	-1.73365905966E+02	2.39662995487E+01	-1.79853969314E+02	-5.06129511435E+01	6.95201095153E+01	-5.87159031710E+00	-6.19529692333E-01
4.33148127570E+05	-1.62939232415E+01	-1.55495606993E+02	2.39904693842E+01	1.79390897306E+02	-4.40646044847E+01	8.13708173453E+01	-5.89765654484E+00	-8.64189229318E-01
4.55339482165E+05	-1.35496368874E+01	1.79550156846E+02	2.39493938231E+01	1.78887258787E+02	-4.79798998868E+01	-1.02402382656E+02	-5.84275695435E+00	1.36092287112E-01
4.77530836760E+05	-1.42367504189E+01	-1.62898165877E+02	2.39541871410E+01	1.78092837760E+02	-4.78121260089E+01	-1.15882333067E+02	-5.85344940146E+00	-3.69184124624E-01
4.99722191355E+05	-1.21251552554E+01	1.77045262587E+02	2.39277057807E+01	1.77570742441E+02	-5.66237947717E+01	1.46456656569E+02	-5.82234742712E+00	-5.07665359024E-01
5.21913545950E+05	-1.26855611888E+01	-1.64078922728E+02	2.39334011826E+01	1.76884293405E+02	-3.92080751804E+01	6.79027054569E+01	-5.86827451092E+00	-6.54709309422E-01
5.44104900545E+05	-1.33805202749E+01	-1.68102337882E+02	2.39645752060E+01	1.76354833969E+02	-4.45660741073E+01	1.51506356350E+02	-5.78187788073E+00	-5.69235949251E-01
5.66296255139E+05	-1.23451695063E+01	1.75067869297E+02	2.39432156659E+01	1.75951898270E+02	-4.51972549104E+01	-8.53792426189E+01	-5.86326016373E+00	1.18034425455E-02
5.88487609734E+05	-1.13882966553E+01	1.78250092120E+02	2.38866194707E+01	1.75451997222E+02	-5.12962516891E+01	-1.00705562192E+02	-5.87391261575E+00	-2.68859247087E-01
6.10678964329E+05	-1.21247646468E+01	-1.63676135058E+02	2.39144266670E+01	1.74631999606E+02	-5.04792794231E+01	-8.76818897843E+01	-5.88621448397E+00	2.12138002893E-01
6.32870318924E+05	-1.02726041727E+01	-1.74765404721E+02	2.38787113989E+01	1.74456400713E+02	-5.34835988128E+01	-1.45500802120E+02	-5.83397158502E+00	-1.20069334317E-01
6.55061673519E+05	-1.57780957707E+01	-1.63121033314E+02	2.39323459285E+01	1.73861209320E+02	-5.07617923801E+01	-1.72437309147E+02	-5.82144509823E+00	-2.42580933964E-01
6.77253028114E+05	-1.57374889198E+01	1.74673396800E+02	2.39353036602E+01	1.73650706893E+02	-4.07980129228E+01	-6.63281186455E+01	-5.92930840869E+00	-1.50253428041E-01
6.99444382709E+05	-1.32504956762E+01	-1.79966555351E+02	2.39057230761E+01	1.73151173302E+02	-4.27081002892E+01	5.33776377895E+01	-5.94275333297E+00	-1.08133219329E+00
7.21635737304E+05	-1.74022124787E+01	-1.54590839058E+02	2.39474798253E+01	1.72481488895E+02	-5.81993083914E+01	-9.31343749531E+01	-5.86745590025E+00	-4.00461885713E-01
7.43827091899E+05	-1.55853548143E+01	-1.57095806779E+02	2.39058187543E+01	1.72119845021E+02	-5.52068385662E+01	7.44912223614E+01	-5.87835458094E+00	-8.61812736136E-01
7.66018446494E+05	-1.03143567553E+01	-1.65435629912E+02	2.38559697665E+01	1.71543531141E+02	-3.90370366399E+01	5.65762206520E+01	-5.91288581935E+00	-1.28736186177E+00
7.88209801089E+05	-1.23113078594E+01	-1.77778929595E+02	2.38625193330E+01	1.71192851959E+02	-4.43678692220E+01	-1.55910654808E+02	-5.78645354762E+00	-2.04106426362E-01
8.10401155684E+05	-1.24639989570E+01	-1.79226805729E+02	2.38530839342E+01	1.70995614356E+02	-4.11115201946E+01	-7.27272609833E+00	-5.95844565077E+00	-4.74154879730E-01
8.32592510279E+05	-1.35698862806E+01	-1.59718575841E+02	2.38790140983E+01	1.70372937212E+02	-3.88013345973E+01	-3.00500245228E+01	-5.96920866530E+00	-1.22932392061E-01
8.54783864874E+05	-1.25719143740E+01	-1.76439471758E+02	2.38562768303E+01	1.69971308268E+02	-3.96967284304E+01	-1.54491350288E+02	-5.75790534003E+00	-1.89356691292E-01
8.76975219469E+05	-1.22477420594E+01	-1.73911428339E+02	2.38265082910E+01	1.69609436871E+02	-4.99921095749E+01	-1.55054225776E+02	-5.82526656364E+00	-6.36767795131E-01
8.99166574064E+05	-1.13770601350E+01	1.79278268485E+02	2.38201785991E+01	1.69216705388E+02	-4.22710238620E+01	6.48671686407E+01	-5.87970176206E+00	-1.15767028802E+00
9.21357928659E+05	-1.27315262816E+01	-1.69699695478E+02	2.38234694685E+01	1.68681251364E+02	-4.73259999642E+01	3.82895502333E+01	-5.90061011877E+00	-7.84584521445E-01
9.43549283254E+05	-1.35358561340E+01	-1.74391741377E+02	2.38269207312E+01	1.68356582411E+02	-5.79251628469E+01	4.09627178432E+01	-5.87729727739E+00	-6.02049734490E-01
9.65740637849E+05	-1.64738086945E+01	1.75516342280E+02	2.38127414177E+01	1.68251369292E+02	-5.77256634670E+01	-9.82847595165E+01	-5.86067914902E+00	-4.43813253594E-01
9.87931992444E+05	-1.16571713376E+01	-1.70676284724E+02	2.37904993774E+01	1.67599725531E+02	-4.10059721382E+01	-4.71721299153E+01	-5.94294624988E+00	-3.84261865125E-01
1.01012334704E+06	-1.57088925717E+01	-1.65974868145E+02	2.38169526513E+01	1.67332163182E+02	-4.30131626257E+01	-1.13697949736E+02	-5.85918658909E+00	7.44817941155E-02
1.03231470163E+06	-1.05317135023E+01	-1.78809965183E+02	2.37596766070E+01	1.67064897149E+02	-4.33279884864E+01	-6.88976458008E+01	-5.90978602661E+00	-8.74753303643E-02
1.05450605623E+06	-1.19938989688E+01	1.74567782032E+02	2.37739051351E+01	1.66717685773E+02	-4.97511522830E+01	-1.03317639966E+02	-5.84725773219E+00	-2.69472606980E-01
1.07669741082E+06	-1.10271923102E+01	1.74597484173E+02	2.37429023717E+01	1.66492451886E+02	-3.99390688513E+01	1.14757445120E+02	-5.81283242366E+00	-1.10373359251E+00
1.09888876542E+06	-1.16698440266E+01	-1.45520724046E+02	2.37837602168E+01	1.65725926930E+02	-5.68863140717E+01	-7.79633838255E+01	-5.87480999376E+00	-7.50720330445E-01
1.12108012001E+06	-1.12486072237E+01	-1.64748875218E+02	2.37454176917E+01	1.65417552694E+02	-4.27679613433E+01	-4.89626087839E+01	-5.93122577890E+00	-1.97161031824E-01
1.14327147461E+06	-1.63495658464E+01	-1.59239915313E+02	2.37619673599E+01	1.65127672872E+02	-4.97717008481E+01	-3.27340752846E+00	-5.94293358195E+00	-7.04330540185E-01
1.16546282920E+06	-1.07136461787E+01	-1.70159029653E+02	2.37274195241E+01	1.64644712063E+02	-4.82559448075E+01	-8.75028070519E+01	-5.86856747612E+00	-4.49557430515E-01
1.18765418380E+06	-1.28665647355E+01	-1.78088654328E+02	2.37326141861E+01	1.64386072285E+02	-4.71853063254E+01	-1.34875612999E+02	-5.84699797891E+00	-3.20490720202E-01
1.20984553839E+06	-1.21264229549E+01	-1.73689217881E+02	2.37385000206E+01	1.64058941877E+02	-4.52231059837E+01	-5.09085080194E+01	-5.92778871795E+00	-3.69550194163E-01
1.23203689299E+06	-1.12219675218E+01	-1.68860243253E+02	2.36934061643E+01	1.63744475477E+02	-4.90259418079E+01	1.24893117353E+02	-5.84572019006E+00	-8.64945056905E-01
1.25422824758E+06	-1.09496117712E+01	-1.56742263877E+02	2.37082938331E+01	1.63162104259E+02	-4.75134986789E+01	-1.45055082091E+02	-5.84036152599E+00	-4.63914837992E-01
1.27641960218E+06	-1.39877324323E+01	-1.77831391211E+02	2.37120262072E+01	1.63020725888E+02	-4.44027241671E+01	1.23938840928E+02	-5.81852028597E+00	-1.15223459016E+00
1.29861095677E+06	-1.43688128446E+01	-1.72194145431E+02	2.37113248994E+01	1.62695778163E+02	-4.07321407973E+01	-8.09154700250E+01	-5.87898037170E+00	-3.17772966806E-01
1.32080231137E+06	-1.13264025160E+01	-1.73405117203E+02	2.36583735724E+01	1.62192298558E+02	-4.40157077530E+01	-1.05970817415E+02	-5.89441861290E+00	-9.33851174378E-01
1.34299366596E+06	-1.58607469773E+01	-1.69448474175E+02	2.37035160831E+01	1.62137626639E+02	-4.52564140077E+01	1.67270822832E+02	-5.82585114325E+00	-9.70948782201E-01
1.36518502056E+06	-1.30016220777E+01	-1.64251268891E+02	2.36713785544E+01	1.61378275176E+02	-4.65688456487E+01	-7.21273341005E+01	-5.89532565678E+00	-2.45437255263E-01
1.38737637515E+06	-1.44985463843E+01	-1.56012451803E+02	2.36944892347E+01	1.61353829428E+02	-5.36791965211E+01	3.41293633618E+01	-5.87455825425E+00	-6.33701914338E-01
1.40956772975E+06	-1.27057495888E+01	1.68476204562E+02	2.36351948219E+01	1.61165624180E+02	-5.90198921225E+01	-4.15375823334E+01	-5.87579866893E+00	-8.15858967948E-01
1.43175908434E+06	-1.55010145391E+01	-1.61069590475E+02	2.36448012212E+01	1.60658135398E+02	-4.55103750927E+01	1.28970866302E+02	-5.83234790558E+00	-9.50669401506E-01
1.45395043894E+06	-9.26042937036E+00	-1.44981554379E+02	2.36335573540E+01	1.59984100329E+02	-3.82388350984E+01	-1.47012580399E+02	-5.78210720659E+00	-6.09686179392E-01
1.47614179353E+06	-1.50216448045E+01	-1.50368702429E+02	2.36659077135E+01	1.59903782861E+02	-4.32699633931E+01	-1.68603448417E+02	-5.86264666593E+00	-9.55661598294E-01
1.49833314813E+06	-1.30840879830E+01	1.73575076794E+02	2.36174495137E+01	1.59912233869E+02	-4.31771918955E+01	-4.80507620046E+00	-5.95389134120E+00	-8.07900874274E-01
1.52052450272E+06	-1.54161122381E+01	-1.69813219835E+02	2.36400842988E+01	1.59335331452E+02	-4.16357003198E+01	-1.64212933593E+02	-5.77854271793E+00	-5.20251361406E-01
1.54271585732E+06	-1.57548926329E+01	-1.55776265157E+02	2.36313559395E+01	1.58954146958E+02	-4.31607167508E+01	-3.26763924591E+01	-5.94265876900E+00	-5.24687087518E-01
1.56490721191E+06	-1.32501647025E+01	-1.64528239265E+02	2.36019229772E+01	1.58647937723E+02	-4.74331727568E+01	-9.19924917056E+01	-5.86609446601E+00	-5.88781743103E-01
1.58709856651E+06	-1.23885072995E+01	-1.77126891972E+02	2.35893317585E+01	1.58298436900E+02	-4.23597272720E+01	-1.70670407873E+02	-5.78677028105E+00	-6.54974600861E-01
1.60928992110E+06	-1.45269698170E+01	1.75604984718E+02	2.35810393296E+01	1.58193748634E+02	-4.36313233770E+01	-7.63252900338E+01	-5.87535894022E+00	-2.26617497222E-01
1.63148127570E+06	-1.17473244698E+01	-1.72972140397E+02	2.35549071038E+01	1.57570523775E+02	-6.27266084270E+01	-1.20093976600E+02	-5.78420696846E+00	-1.05117944495E+00
1.65367263029E+06	-1.45539216564E+01	-1.77420131461E+02	2.35605719971E+01	1.57411690096E+02	-4.69055030669E+01	1.14191887645E+02	-5.85613933991E+00	-1.28007346396E+00
1.67586398489E+06	-1.30062288239E+01	-1.54556359935E+02	2.35583773841E+01	1.56951544371E+02	-4.06066369947E+01	1.59313051899E+02	-5.76630852614E+00	-1.19945744715E+00
1.69805533948E+06	-1.15745316774E+01	-1.42022894017E+02	2.35594543601E+01	1.56362610567E+02	-4.08310648173E+01	-1.21586768178E+02	-5.80537004659E+00	-2.87841875964E-01
1.72024669408E+06	-1.22298473796E+01	-1.56111564918E+02	2.35366346213E+01	1.56353181986E+02	-4.83365233516E+01	1.05252547447E+02	-5.87690138757E+00	-1.23528393597E+00
1.74243804867E+06	-1.56093458863E+01	-1.78219060091E+02	2.35152510999E+01	1.56286261699E+02	-4.90493418056E+01	6.90199087430E+01	-5.90898507223E+00	-1.06455310208E+00
1.76462940327E+06	-1.27315143985E+01	-1.52292894958E+02	2.35245819132E+01	1.55425709332E+02	-3.84880762366E+01	4.66695091951E+01	-5.92404146871E+00	-1.59735208022E+00
1.78682075786E+06	-1.51726374303E+01	-1.66197519858E+02	2.35146934116E+01	1.55497744680E+02	-4.39248162600E+01	7.29176112575E+01	-5.85667624744E+00	-1.00021488271E+00
1.80901211246E+06	-1.40890419894E+01	1.79339498590E+02	2.35043911830E+01	1.55348751599E+02	-3.98404353889E+01	1.36288603128E+02	-5.76429239930E+00	-1.41505147564E+00
1.83120346705E+06	-1.32774855644E+01	1.70028691115E+02	2.34786945060E+01	1.54985097337E+02	-4.93533546491E+01	-7.10251283728E+01	-5.90416338528E+00	-7.76828998542E-01
1.85339482165E+06	-1.19023971212E+01	1.71160274933E+02	2.34625720943E+01	1.54574715901E+02	-3.82962597788E+01	-1.67101747003E+02	-5.70380289294E+00	-8.94202481941E-01
1.87558617624E+06	-1.54475283079E+01	-1.62813279778E+02	2.34800284498E+01	1.54152878469E+02	-4.16592419703E+01	-4.75254702762E+00	-5.96980010934E+00	-8.54136115702E-01
1.89777753084E+06	-1.47746034086E+01	1.79708861673E+02	2.34525123973E+01	1.53932634861E+02	-4.05621767021E+01	1.89013236251E+01	-5.98356177613E+00	-1.32298690490E+00
1.91996888543E+06	-1.17690754441E+01	1.68651676709E+02	2.34202469057E+01	1.53473350267E+02	-3.82467520093E+01	1.35578602566E+02	-5.79241622691E+00	-1.65247720278E+00
1.94216024003E+06	-1.30203180550E+01	-1.62103725955E+02	2.34363136498E+01	1.53127741350E+02	-3.80198937283E+01	-5.11486144826E+01	-5.91997524830E+00	-3.50358607479E-01
1.96435159462E+06	-1.26952046217E+01	-1.70202630041E+02	2.34115002920E+01	1.52733038067E+02	-4.44531249996E+01	1.03585040252E+00	-5.96322915867E+00	-1.04276049492E+00
1.98654294922E+06	-1.63601124411E+01	-1.68892106370E+02	2.34440811764E+01	1.52499309650E+02	-4.19548441696E+01	3.29424061362E+01	-5.95901535146E+00	-1.52822695007E+00
2.00873430381E+06	-1.40523912914E+01	-1.61173867452E+02	2.34056513921E+01	1.52083548496E+02	-5.04844021223E+01	-1.38983995009E+02	-5.84069803419E+00	-7.97496029846E-01
2.03092565841E+06	-1.25767593538E+01	-1.57637158399E+02	2.34080580065E+01	1.51839218923E+02	-5.67771500171E+01	-1.37571103750E+02	-5.84577847795E+00	-9.61022676932E-01
2.05311701300E+06	-1.47720724852E+01	-1.68305035683E+02	2.33950495113E+01	1.51404415689E+02	-4.47549163976E+01	-1.75328316944E+01	-5.93028097441E+00	-1.07445802406E+00
2.07530836760E+06	-2.48722436676E+01	-1.04099554955E+02	2.34209066127E+01	1.51462733511E+02	-4.11253743494E+01	-2.26318286658E+01	-5.92828892699E+00	-1.25452675820E+00
2.09749972219E+06	-1.02768044842E+01	-1.68619454096E+02	2.33409289473E+01	1.50668468979E+02	-3.83147944004E+01	-1.16922645131E+02	-5.83845441658E+00	-7.03507438863E-01
2.11969107679E+06	-1.28965697429E+01	-1.66362444058E+02	2.33546405134E+01	1.50695829526E+02	-4.42069842760E+01	-1.33703312353E+02	-5.82039004769E+00	-7.80232610619E-01
2.14188243138E+06	-1.13773899285E+01	-1.61787596206E+02	2.33099786231E+01	1.50196127723E+02	-4.05526955837E+01	1.14174563604E+01	-5.97870561432E+00	-1.19843554958E+00
2.16407378598E+06	-1.56509564304E+01	-1.45775446475E+02	2.33691633084E+01	1.49979303390E+02	-4.17707970009E+01	-8.59263829951E+01	-5.88014979934E+00	-4.07469008411E-01
2.18626514057E+06	-1.22041739230E+01	-1.57668034869E+02	2.33347780611E+01	1.49747014847E+02	-4.37982615581E+01	-5.91152047028E+01	-5.92835059189E+00	-8.01541630205E-01
2.20845649517E+06	-1.14431058353E+01	-1.61095468794E+02	2.33184155686E+01	1.49269333973E+02	-4.15957445981E+01	4.59408994090E+01	-5.91898760223E+00	-1.71788332630E+00
2.23064784976E+06	-1.96313164498E+01	9.86282446905E+01	2.33062184748E+01	1.49421816367E+02	-4.93713652874E+01	2.22619898299E+01	-5.91380908587E+00	-1.24714417207E+00
2.25283920436E+06	-1.18039803267E+01	-1.60563946849E+02	2.32914095469E+01	1.48632300690E+02	-3.95353681872E+01	-8.30087516431E+01	-5.84076626720E+00	-1.04545151646E+00
2.27503055895E+06	-1.15745245139E+01	-1.75144290269E+02	2.32600881808E+01	1.48441726384E+02	-4.58152801491E+01	-1.35001475894E+02	-5.83703808597E+00	-8.79281924544E-01
2.29722191355E+06	-1.19168387620E+01	-1.71353894050E+02	2.32445505157E+01	1.48199211735E+02	-3.94984190419E+01	-6.37572415599E+01	-5.95589497114E+00	-3.82409263949E-01
2.31941326814E+06	-1.30440275798E+01	-1.71373628852E+02	2.32406141695E+01	1.47958280849E+02	-5.60447122455E+01	-1.61460440745E+02	-5.82229156281E+00	-1.25211782020E+00
2.34160462274E+06	-1.05114386226E+01	-1.70684889070E+02	2.32088731973E+01	1.47508625998E+02	-4.73268318240E+01	1.47460764984E+02	-5.80246863478E+00	-1.51673790749E+00
2.36379597733E+06	-1.28839565522E+01	-1.79727416930E+02	2.32170544756E+01	1.47365938082E+02	-4.64439755804E+01	4.12716752165E-01	-5.93799204273E+00	-1.22460779421E+00
2.38598733193E+06	-2.14683153820E+01	1.47425304335E+02	2.32349685591E+01	1.47384929996E+02	-4.52866734714E+01	-1.23646800460E+02	-5.88180381057E+00	-7.20645426638E-01
2.40817868652E+06	-1.28084569187E+01	-1.72424617064E+02	2.32070087122E+01	1.46823774959E+02	-4.18185957797E+01	2.18574823949E+01	-5.95153684951E+00	-1.47369492832E+00
2.43037004112E+06	-1.26103386113E+01	-1.63124358980E+02	2.31931750785E+01	1.46461611543E+02	-5.14640454844E+01	-1.23710806643E+01	-5.88349780882E+00	-1.47227959698E+00
2.45256139571E+06	-1.35404004252E+01	-1.63633110949E+02	2.31934026633E+01	1.46265204981E+02	-5.70575290439E+01	-4.66290899665E+01	-5.90907441211E+00	-1.38435611212E+00
2.47475275031E+06	-1.26447406489E+01	-1.51309760571E+02	2.32172588889E+01	1.45709849311E+02	-4.89796851435E+01	1.02783192089E+02	-5.86325781865E+00	-1.68594999703E+00
2.49694410490E+06	-1.28730109399E+01	-1.69792072380E+02	2.31607962752E+01	1.45425303156E+02	-6.70314409202E+01	-4.97256722932E+01	-5.87438997209E+00	-1.28542937677E+00
2.51913545950E+06	-1.63029357163E+01	-1.55887908894E+02	2.31865943713E+01	1.45202070670E+02	-4.22961560277E+01	8.43088226157E+01	-5.88462944320E+00	-1.82659435540E+00
2.54132681409E+06	-9.10072746868E+00	-1.67327899080E+02	2.31171007228E+01	1.44737647901E+02	-4.42726562616E+01	-1.45671120527E+02	-5.80487194328E+00	-1.11314357447E+00
2.56351816869E+06	-1.18047553843E+01	-1.64520080747E+02	2.31215858427E+01	1.44524380885E+02	-3.41536895067E+01	1.55131837606E+02	-5.76284056047E+00	-2.34615457378E+00
2.58570952328E+06	-1.23699164014E+01	-1.65818863279E+02	2.31031266837E+01	1.44358100573E+02	-5.11327791775E+01	2.35286407874E+01	-5.91096539680E+00	-1.65925486161E+00
2.60790087788E+06	-1.09608128365E+01	-1.55067921861E+02	2.30954649358E+01	1.43695687571E+02	-5.47674600725E+01	-2.73295440335E+01	-5.87416011375E+00	-1.20381547195E+00
2.63009223247E+06	-1.27575622271E+01	-1.73133757817E+02	2.30595054898E+01	1.43660925914E+02	-4.21896184821E+01	6.98600384885E+01	-5.90760029669E+00	-1.48967416577E+00
2.65228358707E+06	-1.17949725568E+01	-1.76058612839E+02	2.30351805577E+01	1.43270146015E+02	-4.92275747477E+01	5.61081216258E+01	-5.91498786080E+00	-1.69712500428E+00
2.67447494166E+06	-1.49591568065E+01	-1.72365017487E+02	2.30670009412E+01	1.43204411192E+02	-3.97915845097E+01	5.69843959054E+00	-6.03539784148E+00	-1.73494133964E+00
2.69666629626E+06	-1.29280314204E+01	-1.28473527232E+02	2.30945866748E+01	1.42616569154E+02	-4.53208765676E+01	-4.13193470898E+01	-5.94361620952E+00	-1.16966515765E+00
2.71885765085E+06	-1.27256563916E+01	-1.62708584173E+02	2.30395502209E+01	1.42460451290E+02	-3.66220343107E+01	7.76547832951E+01	-5.91299597066E+00	-2.16057710302E+00
2.74104900545E+06	-1.34142931125E+01	1.75477748413E+02	2.30080290918E+01	1.42383424524E+02	-5.45050436747E+01	8.06083045376E+01	-5.84502014294E+00	-1.78189969948E+00
2.76324036004E+06	-1.30276216222E+01	-1.69438610249E+02	2.30144094230E+01	1.41853005701E+02	-5.24139365697E+01	4.94077707287E+01	-5.88880350786E+00	-1.61262010920E+00
2.78543171463E+06	-1.39677485107E+01	-1.74196135568E+02	2.29834813621E+01	1.41690977843E+02	-5.77292931267E+01	3.63982193760E+01	-5.89497816692E+00	-1.58090401883E+00
2.80762306923E+06	-1.16361754257E+01	-1.66423002189E+02	2.29797768772E+01	1.41033993496E+02	-5.47452247560E+01	-1.24388926556E+02	-5.86269616042E+00	-1.30733822063E+00
2.82981442382E+06	-1.14255123390E+01	-1.73419502803E+02	2.29309485205E+01	1.40945508118E+02	-4.79746667357E+01	2.87999056058E+01	-5.88559944820E+00	-1.58919237792E+00
2.85200577842E+06	-1.43781835939E+01	-1.67168689930E+02	2.29628924515E+01	1.40667293885E+02	-4.59238031134E+01	4.99812349267E+01	-5.90613266052E+00	-1.99350485800E+00
2.87419713301E+06	-1.30236441202E+01	-1.59904834383E+02	2.29648062238E+01	1.40419147381E+02	-4.30043233291E+01	-6.63583237083E+01	-5.91121574212E+00	-9.10100073029E-01
