# Hz S DB R 50
! CMT, M5065, 19127446, 24.2.4/2
! Date: 11/8/2024 4:51:30 PM
! Data: Format (Calibration Info)
! Freq	S11:dB/Ang(F2)	S21:dB/Ang(F2)	S12:dB/Ang(F2)	S22:dB/Ang(F2)
3.00000000000E+05	-1.46745149971E+01	-1.63419169076E+02	5.31220689922E+00	-1.77187523118E+02	-5.26745146218E+01	-1.71048303475E+02	-5.85037776090E+00	-1.20632890745E-01
3.22191354595E+05	-1.33239878803E+01	-1.52022597137E+02	5.40057008988E+00	-1.78295169931E+02	-5.50077269397E+01	2.29144432595E+01	-5.87910439631E+00	-3.66904349730E-01
3.44382709190E+05	-1.61073558460E+01	-1.54309912838E+02	5.35750106689E+00	-1.78189190371E+02	-4.44879800671E+01	-1.18218936750E+01	-5.88321351244E+00	-1.97912243645E-01
3.66574063785E+05	-1.32403142726E+01	-1.69624250524E+02	5.33642882176E+00	-1.78444697434E+02	-4.03126022641E+01	-1.73958580614E+02	-5.87536100076E+00	-3.32722513918E-01
3.88765418380E+05	-1.99837121302E+01	1.29617794485E+02	5.49830413474E+00	-1.78747720666E+02	-3.83735942309E+01	-1.46893220713E+02	-5.84791998674E+00	-4.18786654870E-01
4.10956772975E+05	-1.29574841581E+01	-1.61137711414E+02	5.33687368347E+00	-1.79449061107E+02	-4.11308345541E+01	-1.42103140692E+01	-5.86757874227E+00	-3.89008031331E-01
4.33148127570E+05	-1.50009522440E+01	-1.25284548580E+02	5.40243729927E+00	-1.79264957183E+02	-4.75799304916E+01	-2.85873169890E+01	-5.86967179999E+00	-2.12258631605E-01
4.55339482165E+05	-1.35321459517E+01	-1.71219707206E+02	5.34969404014E+00	-1.79779278965E+02	-4.51663179442E+01	-1.04276204717E+02	-5.87904772752E+00	-2.37244343533E-01
4.77530836760E+05	-1.38189001703E+01	-1.68204934462E+02	5.35181147358E+00	-1.79375997928E+02	-4.20158700350E+01	1.70483907259E+02	-5.87570605846E+00	-3.08069107984E-01
4.99722191355E+05	-1.25020163818E+01	-1.74306340333E+02	5.33613389532E+00	-1.79733423239E+02	-4.13014703582E+01	-1.52876623317E+02	-5.85401149349E+00	-2.98445549428E-01
5.21913545950E+05	-1.49390734029E+01	1.72045671286E+02	5.33718291248E+00	-1.79776381372E+02	-4.71792924980E+01	-1.41076955321E+02	-5.86603109155E+00	-4.23825539021E-01
5.44104900545E+05	-1.41154251159E+01	1.62772294082E+02	5.34242322994E+00	-1.79878517477E+02	-4.21491234974E+01	7.47767332168E+01	-5.85518991711E+00	-3.57707935258E-01
5.66296255139E+05	-1.80471296473E+01	-1.63581425494E+02	5.36104968413E+00	1.79657635177E+02	-4.52211958417E+01	-1.31061318182E+02	-5.87594116961E+00	-3.40834208125E-01
5.88487609734E+05	-1.32602746330E+01	-1.63761469242E+02	5.36969652196E+00	1.79354365741E+02	-4.19453513414E+01	9.98930108190E+01	-5.85699779174E+00	-5.96786050960E-01
6.10678964329E+05	-1.69651669557E+01	1.57972362065E+02	5.37010097196E+00	1.79600130874E+02	-4.43039594494E+01	8.55220408588E+01	-5.87893239338E+00	1.59425948498E-01
6.32870318924E+05	-1.65813378357E+01	-1.60098229683E+02	5.33223718754E+00	1.79255822521E+02	-4.73014609715E+01	-2.15065190698E+01	-5.86324673072E+00	-2.39931530741E-01
6.55061673519E+05	-1.65565748065E+01	-1.61694864541E+02	5.37404852137E+00	1.79359743823E+02	-4.60289285810E+01	-1.57053470076E+02	-5.85795962269E+00	-2.59512107322E-01
6.77253028114E+05	-1.02776387525E+01	-1.69825704474E+02	5.33526243733E+00	1.79051215754E+02	-5.03451588671E+01	3.42228466953E+01	-5.87907917202E+00	-7.01314703979E-01
6.99444382709E+05	-1.39934860988E+01	1.75827114645E+02	5.34908055577E+00	1.79151295136E+02	-4.67413740762E+01	-1.38826995062E+02	-5.86993398630E+00	-4.99977054505E-01
7.21635737304E+05	-1.68818736562E+01	-1.72522201542E+02	5.41125372351E+00	1.78747796584E+02	-4.22179761401E+01	-4.34418259275E+01	-5.87064312627E+00	-4.00804739394E-01
7.43827091899E+05	-1.17442042475E+01	1.54203356402E+02	5.32012892220E+00	1.78729616320E+02	-5.43826977109E+01	1.35994310640E+02	-5.86318813147E+00	-2.88955785974E-01
7.66018446494E+05	-1.46443420623E+01	-1.51466585790E+02	5.37790310480E+00	1.78306049633E+02	-4.69402490260E+01	-1.62917221787E+02	-5.86531362136E+00	-3.68571437015E-01
7.88209801089E+05	-1.39482860044E+01	-1.76475108372E+02	5.37230364336E+00	1.78528796850E+02	-4.28791533027E+01	6.94198251619E+01	-5.86544106119E+00	-4.98423717747E-01
8.10401155684E+05	-1.53066774889E+01	1.74585765260E+02	5.36491175581E+00	1.78054391787E+02	-5.49153164236E+01	-1.12919866091E+02	-5.88445772072E+00	-4.40027579769E-01
8.32592510279E+05	-1.22822766691E+01	-1.56896761616E+02	5.38199858815E+00	1.77850989396E+02	-5.19276868046E+01	1.62533719453E+02	-5.86767238299E+00	-4.64928400497E-01
8.54783864874E+05	-1.65948355839E+01	1.76039642242E+02	5.38822526653E+00	1.77884024418E+02	-3.68375571849E+01	9.57726432489E+01	-5.86450373644E+00	-4.64300057035E-01
8.76975219469E+05	-1.65093878354E+01	-1.67571427834E+02	5.34947697109E+00	1.77470841808E+02	-4.25649839142E+01	-1.15819285132E+02	-5.83889266817E+00	-2.79277115140E-01
8.99166574064E+05	-1.28652880110E+01	-1.66461484380E+02	5.34240834761E+00	1.77438207156E+02	-4.47776781421E+01	1.72788229719E+02	-5.85712825183E+00	-5.21640609068E-01
9.21357928659E+05	-1.52740932866E+01	-1.73016805036E+02	5.38733519242E+00	1.77906071705E+02	-5.15964845605E+01	-8.07512526420E+01	-5.85488523816E+00	-4.62902815310E-01
9.43549283254E+05	-1.44304370359E+01	-1.49506396993E+02	5.39768960887E+00	1.77415587887E+02	-4.24779828644E+01	1.54494977364E+02	-5.86009028013E+00	-6.17413302376E-01
9.65740637849E+05	-1.46343354673E+01	1.69033889306E+02	5.35958553844E+00	1.77864033910E+02	-4.79715335207E+01	-1.41543826732E+02	-5.87006053689E+00	-4.39047671590E-01
9.87931992444E+05	-1.26897639272E+01	1.76861144230E+02	5.33176338746E+00	1.77139921739E+02	-4.63547736234E+01	1.64941170387E+02	-5.86735513384E+00	-3.25318157743E-01
1.01012334704E+06	-1.37668330858E+01	1.77670105593E+02	5.36927901112E+00	1.77200248938E+02	-4.17121967302E+01	-4.45216222102E-01	-5.86730099939E+00	-7.27298822647E-01
1.03231470163E+06	-1.33344067377E+01	-1.63193109920E+02	5.37128254192E+00	1.76855245353E+02	-3.98318810675E+01	5.09890163432E+01	-5.87400973334E+00	-7.56659778318E-01
1.05450605623E+06	-1.73691259845E+01	-1.67790381282E+02	5.38572550896E+00	1.76759913140E+02	-4.98889330689E+01	2.09479151421E+01	-5.86730899550E+00	-4.55001856678E-01
1.07669741082E+06	-1.26598626400E+01	-1.71899517147E+02	5.34351137910E+00	1.76666151765E+02	-4.58090911002E+01	-1.56671294549E+02	-5.85637766876E+00	-4.06932813412E-01
1.09888876542E+06	-1.17996343857E+01	1.76059872079E+02	5.36730851476E+00	1.76869915029E+02	-4.31248507049E+01	-9.95296099178E+01	-5.88132755689E+00	-5.60526677799E-01
1.12108012001E+06	-1.52123735466E+01	1.77186749466E+02	5.34803801041E+00	1.76735417130E+02	-5.15539196356E+01	-7.09299372667E+01	-5.87132986924E+00	-5.02593886650E-01
1.14327147461E+06	-1.39269371266E+01	1.77834384069E+02	5.42389841416E+00	1.76400974332E+02	-3.87669427830E+01	4.04628243727E+01	-5.86488259758E+00	-7.59897255796E-01
1.16546282920E+06	-1.64615873638E+01	-1.63994424614E+02	5.35271652424E+00	1.76226373510E+02	-4.23042814522E+01	1.16560829636E+02	-5.86119673902E+00	-8.16870831543E-01
1.18765418380E+06	-1.17377277273E+01	-1.68882403806E+02	5.35043069520E+00	1.76320894867E+02	-5.29694532467E+01	-7.01166389182E+01	-5.87701225185E+00	-5.48186593252E-01
1.20984553839E+06	-1.66678766098E+01	1.64374977168E+02	5.36174723327E+00	1.76582243357E+02	-5.83642321414E+01	-1.01561653883E+02	-5.87604791955E+00	-7.50267403616E-01
1.23203689299E+06	-1.20347557357E+01	-1.48402135273E+02	5.40441835441E+00	1.75762897475E+02	-4.69457884612E+01	-1.39541987773E+02	-5.87190489610E+00	-3.36384243407E-01
1.25422824758E+06	-1.65445612781E+01	-1.72087440228E+02	5.36041450720E+00	1.76298940796E+02	-5.14806716479E+01	1.10755809737E+02	-5.86431572191E+00	-7.40467378822E-01
1.27641960218E+06	-1.30306624914E+01	-1.78226513300E+02	5.32562040994E+00	1.75927673908E+02	-4.92924183240E+01	1.00624003142E+02	-5.85716404190E+00	-5.23008932273E-01
1.29861095677E+06	-1.24595262377E+01	-1.48598529472E+02	5.35668965658E+00	1.75584293482E+02	-4.32883559889E+01	9.00596590335E+01	-5.87985724102E+00	-7.73055576336E-01
1.32080231137E+06	-1.47567175971E+01	-1.73918542970E+02	5.37421687334E+00	1.75597265864E+02	-3.76291998028E+01	1.39434512010E+02	-5.86319862552E+00	-9.38330767485E-01
1.34299366596E+06	-1.40930715184E+01	-1.74339731198E+02	5.36472338081E+00	1.75434521860E+02	-4.30866609205E+01	1.23146571022E+02	-5.85447896023E+00	-8.15024666372E-01
1.36518502056E+06	-1.81011002161E+01	-1.48959367409E+02	5.37269296410E+00	1.75623186889E+02	-4.73504624491E+01	-1.53091481389E+02	-5.83915966454E+00	-7.60304061222E-01
1.38737637515E+06	-1.56170636505E+01	1.66848212961E+02	5.37800807925E+00	1.75618040644E+02	-3.90722671654E+01	-1.41525233241E+02	-5.86946878448E+00	-6.87475018851E-01
1.40956772975E+06	-1.59713157258E+01	1.79960718066E+02	5.44627631599E+00	1.75739791037E+02	-5.67331178809E+01	6.85565715694E+01	-5.87410202207E+00	-7.54116255050E-01
1.43175908434E+06	-1.32910730269E+01	-1.62423127223E+02	5.37615336746E+00	1.75237330133E+02	-4.36561855443E+01	-5.35448582276E+01	-5.86071623637E+00	-7.63858516045E-01
1.45395043894E+06	-1.95650889415E+01	-1.58191773584E+02	5.42530804307E+00	1.75222048495E+02	-5.63346580099E+01	6.18696175018E+01	-5.86442335711E+00	-7.59413527874E-01
1.47614179353E+06	-2.24581109362E+01	-1.76677503271E+02	5.42960243928E+00	1.75327489910E+02	-3.60859907673E+01	2.74347529573E+01	-5.90277966532E+00	-8.91636336857E-01
1.49833314813E+06	-1.34244236337E+01	-1.54706991337E+02	5.36249243521E+00	1.74725074939E+02	-4.41889275412E+01	1.77515492584E+02	-5.85321058188E+00	-5.95736975834E-01
1.52052450272E+06	-1.30237909727E+01	-1.54536646109E+02	5.37182048350E+00	1.74968188158E+02	-4.22581137825E+01	-1.74235896357E+02	-5.85763382119E+00	-8.01623553347E-01
1.54271585732E+06	-1.76523630324E+01	1.77213886120E+02	5.39183516467E+00	1.75167755949E+02	-4.76417615354E+01	-5.94750574570E+01	-5.85722383211E+00	-7.58171617299E-01
1.56490721191E+06	-1.17563231624E+01	-1.59940616316E+02	5.39863472995E+00	1.74448983933E+02	-3.77383076253E+01	1.12680879857E+02	-5.86248269874E+00	-8.71880248151E-01
1.58709856651E+06	-1.66682515424E+01	-1.60192905180E+02	5.35984476213E+00	1.74468705493E+02	-5.21851938471E+01	2.61763917041E+01	-5.87288751734E+00	-7.62607323984E-01
1.60928992110E+06	-1.51315961635E+01	-1.71976388333E+02	5.41970200717E+00	1.74412459868E+02	-5.26862244670E+01	-4.10741023638E+01	-5.87483760388E+00	-9.37784553898E-01
1.63148127570E+06	-1.85550193462E+01	1.72611334235E+02	5.39223363976E+00	1.74945594360E+02	-6.02812502857E+01	-4.14744331044E+01	-5.88486457897E+00	-8.91262838488E-01
1.65367263029E+06	-1.53856922890E+01	-1.54486069237E+02	5.38111265826E+00	1.74406362232E+02	-4.28383914074E+01	-1.66608502846E+02	-5.86065380700E+00	-7.45130511524E-01
1.67586398489E+06	-2.02504304031E+01	-1.56004107243E+02	5.45032459269E+00	1.74426263044E+02	-4.71661075886E+01	-9.82611919796E+01	-5.87788456063E+00	-7.71047089637E-01
1.69805533948E+06	-1.24570754357E+01	-1.48696395849E+02	5.41758748645E+00	1.73980715001E+02	-4.21648765757E+01	1.29761068555E+02	-5.85423763636E+00	-9.23266996796E-01
1.72024669408E+06	-1.62555744751E+01	-1.56953885460E+02	5.40770997045E+00	1.74208485796E+02	-5.43705362992E+01	1.59467333802E+02	-5.86843037924E+00	-8.05923034010E-01
1.74243804867E+06	-1.48170469385E+01	-1.63670088327E+02	5.41732423129E+00	1.74051985464E+02	-4.69233500745E+01	-6.12059445671E+01	-5.87467823599E+00	-9.07876528759E-01
1.76462940327E+06	-1.04476934944E+01	-1.63923221121E+02	5.36519122030E+00	1.73628342002E+02	-4.47184683225E+01	1.66386234498E+01	-5.87857517534E+00	-8.95169319978E-01
1.78682075786E+06	-1.74982541466E+01	1.68792043261E+02	5.42698832643E+00	1.74124549840E+02	-4.64810874157E+01	-5.90390434565E+01	-5.88537261305E+00	-8.89667798548E-01
1.80901211246E+06	-1.28813929998E+01	1.67549024919E+02	5.36190029712E+00	1.73923539830E+02	-4.44402995059E+01	1.57491363000E+02	-5.86491725667E+00	-7.86273211292E-01
1.83120346705E+06	-1.51422230275E+01	-1.78999057440E+02	5.42168135288E+00	1.73570703793E+02	-4.94349254883E+01	1.43579584945E+02	-5.86868362673E+00	-8.75234137820E-01
1.85339482165E+06	-2.76186358395E+01	9.57240881732E+01	5.39736526601E+00	1.74132178738E+02	-5.14331466142E+01	-1.87109404466E+01	-5.88175916146E+00	-9.28093260475E-01
1.87558617624E+06	-1.51472350080E+01	-1.66319339418E+02	5.41256473291E+00	1.73367348173E+02	-5.74129877521E+01	-1.23552387886E+02	-5.86030368673E+00	-9.75578086225E-01
1.89777753084E+06	-1.46802923311E+01	1.74773629086E+02	5.36508306652E+00	1.73240357291E+02	-4.27579894189E+01	-4.44657248934E+01	-5.87802817327E+00	-8.70063215698E-01
1.91996888543E+06	-1.20165423794E+01	-1.75908334269E+02	5.34147871374E+00	1.73160758452E+02	-4.74715171098E+01	8.24790920517E+01	-5.86821811425E+00	-8.76216823880E-01
1.94216024003E+06	-1.50387384825E+01	-1.61082058046E+02	5.39927124379E+00	1.73188549860E+02	-3.95984166950E+01	1.22803171120E+01	-5.90043592793E+00	-9.88933696442E-01
1.96435159462E+06	-1.51844557343E+01	-1.76202018801E+02	5.38804957405E+00	1.73036658905E+02	-3.95568368944E+01	3.62800063971E+01	-5.88090557365E+00	-1.04291155418E+00
1.98654294922E+06	-1.66886307567E+01	-1.79423424847E+02	5.39067420456E+00	1.73041103107E+02	-4.58729222710E+01	-1.73078126414E+02	-5.85495544218E+00	-1.04726782475E+00
2.00873430381E+06	-1.44184677445E+01	-1.08248756819E+02	5.44529774327E+00	1.73083262039E+02	-4.67885426052E+01	-3.19096805030E+01	-5.88459447314E+00	-1.00713569485E+00
2.03092565841E+06	-1.39497821933E+01	1.74213871872E+02	5.39222240093E+00	1.72838575459E+02	-4.92232324384E+01	-1.14743325217E+01	-5.89401301482E+00	-9.35891445698E-01
2.05311701300E+06	-1.45843123447E+01	1.78363766918E+02	5.38632990906E+00	1.72852875244E+02	-4.81449970196E+01	9.72167904141E+01	-5.87190340426E+00	-8.98646158749E-01
2.07530836760E+06	-1.22533691174E+01	1.75574641514E+02	5.33061023032E+00	1.72453709203E+02	-4.64077446664E+01	-1.02107098676E+02	-5.87972004128E+00	-1.07080474044E+00
2.09749972219E+06	-1.24650164580E+01	-1.70616992427E+02	5.38083504689E+00	1.72390548104E+02	-3.23005456905E+01	-6.34779634646E+01	-5.87884999797E+00	-1.00375814552E+00
2.11969107679E+06	-1.21737897407E+01	-1.62210303732E+02	5.38606720210E+00	1.71962153992E+02	-4.17216451353E+01	-6.09051064426E+01	-5.87104209177E+00	-1.04082477476E+00
2.14188243138E+06	-1.37299075692E+01	1.74094253665E+02	5.40116112966E+00	1.72334538914E+02	-4.67690735306E+01	-1.36843894909E+02	-5.87930402980E+00	-1.05430678096E+00
2.16407378598E+06	-8.61929061480E+00	-1.54074949989E+02	5.40793389198E+00	1.71551461762E+02	-4.17540435820E+01	-8.41847386955E+01	-5.88084018799E+00	-9.44071864168E-01
2.18626514057E+06	-9.15245108601E+00	-1.69880498940E+02	5.36183691671E+00	1.71694578264E+02	-5.63543624962E+01	-4.98328086123E+01	-5.86846122511E+00	-9.63186860051E-01
2.20845649517E+06	-1.24044248722E+01	-1.48059222413E+02	5.44322167435E+00	1.71862647045E+02	-4.77012399721E+01	-1.71444251726E+02	-5.87222134340E+00	-9.43560468833E-01
2.23064784976E+06	-1.21915303181E+01	-1.52607219774E+02	5.38885849154E+00	1.71792755419E+02	-4.76161651107E+01	-8.04097082758E+01	-5.87741267101E+00	-1.01156091864E+00
2.25283920436E+06	-1.57618934304E+01	-1.73470560852E+02	5.39032708071E+00	1.71793104186E+02	-3.30184623690E+01	1.60204777476E+02	-5.83801213795E+00	-1.08605000094E+00
2.27503055895E+06	-1.35802108935E+01	-1.79821981385E+02	5.40596133881E+00	1.71607810576E+02	-4.26756733759E+01	-6.12597848021E+01	-5.86509078369E+00	-1.25889546469E+00
2.29722191355E+06	-1.41618693780E+01	-1.61526195702E+02	5.41672208551E+00	1.71454581880E+02	-4.62193270555E+01	4.12322560604E+01	-5.87552191202E+00	-1.31017737505E+00
2.31941326814E+06	-8.90351862493E+00	-1.40186458022E+02	5.47349704647E+00	1.71457125719E+02	-4.30395452017E+01	2.36678733214E+01	-5.87367890913E+00	-1.26873904835E+00
2.34160462274E+06	-1.50218382272E+01	-1.52228997074E+02	5.43403785747E+00	1.71542568648E+02	-4.57276878161E+01	-5.23855998416E+01	-5.87215499435E+00	-1.25350375969E+00
2.36379597733E+06	-1.43747422445E+01	-1.46832031127E+02	5.42736021066E+00	1.71457016175E+02	-4.36310866001E+01	-6.50561703485E+00	-5.90703682601E+00	-1.38078568965E+00
2.38598733193E+06	-1.23163236313E+01	-1.48920284149E+02	5.42160772419E+00	1.71003336717E+02	-4.64750587975E+01	3.84580746662E+01	-5.85618099682E+00	-1.21387215534E+00
2.40817868652E+06	-1.51401760676E+01	1.69796838330E+02	5.39456726495E+00	1.71258299981E+02	-4.09609259050E+01	8.41268816573E+01	-5.87831597646E+00	-1.45843970491E+00
2.43037004112E+06	-1.23399626484E+01	-1.73994613053E+02	5.36794136342E+00	1.71163744395E+02	-4.94506048175E+01	1.04124194019E+02	-5.86758152163E+00	-1.66377865015E+00
2.45256139571E+06	-1.52092358779E+01	-1.74375282823E+02	5.40814958676E+00	1.71308092816E+02	-5.62861371565E+01	9.59790793834E+01	-5.86112721204E+00	-1.32702764206E+00
2.47475275031E+06	-1.23461038600E+01	1.67213380681E+02	5.40666928009E+00	1.70934257875E+02	-4.18271128979E+01	-1.23517358847E+02	-5.87271728786E+00	-1.08345101357E+00
2.49694410490E+06	-1.41119151966E+01	1.75008648744E+02	5.37065943888E+00	1.70960386736E+02	-5.59667367073E+01	7.89301597859E-01	-5.89501884097E+00	-1.25781395777E+00
2.51913545950E+06	-9.46947692949E+00	-1.66891313316E+02	5.35430003212E+00	1.70402449141E+02	-4.56408934011E+01	-9.34156852750E+01	-5.85994450807E+00	-1.16404020375E+00
2.54132681409E+06	-1.25330385763E+01	-1.72652036691E+02	5.36840608151E+00	1.70533211017E+02	-4.56191513820E+01	-7.92236218972E+01	-5.88630485683E+00	-1.32075084845E+00
2.56351816869E+06	-1.61191960275E+01	-1.53880895708E+02	5.46234073711E+00	1.70494811605E+02	-3.86461334406E+01	-1.05316664567E+02	-5.88657880698E+00	-1.16381506367E+00
2.58570952328E+06	-1.61727565968E+01	-1.44812469147E+02	5.44325025421E+00	1.70364187124E+02	-4.36424918875E+01	-8.11798040107E+00	-5.86531530280E+00	-1.33277558853E+00
2.60790087788E+06	-1.58470343729E+01	-1.55910885014E+02	5.42302237572E+00	1.70455063561E+02	-4.90717332108E+01	3.99243962422E+01	-5.89743275039E+00	-1.19663009899E+00
2.63009223247E+06	-1.81966292958E+01	-1.36609854593E+02	5.45308923028E+00	1.70148094252E+02	-4.29926300862E+01	-8.28183593490E+01	-5.87081249995E+00	-9.02079281449E-01
2.65228358707E+06	-1.20537135757E+01	-1.58212455337E+02	5.36446740456E+00	1.70008138931E+02	-4.69189432245E+01	-4.46015409621E+01	-5.84807548598E+00	-1.21800918832E+00
2.67447494166E+06	-1.79853098909E+01	1.76429958615E+02	5.43619815292E+00	1.70136642837E+02	-4.93406917604E+01	1.95203554775E+01	-5.88279700590E+00	-1.29569708806E+00
2.69666629626E+06	-1.53996061367E+01	-1.61835822835E+02	5.39921174965E+00	1.70225575052E+02	-4.80549110695E+01	7.41023860080E+01	-5.87455128681E+00	-1.32074846421E+00
2.71885765085E+06	-1.62347867887E+01	-1.70332749341E+02	5.46479906252E+00	1.70055132491E+02	-4.15644109967E+01	2.77466637538E+01	-5.85797871488E+00	-1.40231204037E+00
2.74104900545E+06	-1.80487542967E+01	1.59082250832E+02	5.48178770507E+00	1.70204706133E+02	-4.34766717194E+01	3.41704201109E+01	-5.87824403953E+00	-1.31437922004E+00
2.76324036004E+06	-1.52655927694E+01	-1.67142801988E+02	5.41561915004E+00	1.70069150527E+02	-5.97759115939E+01	-1.09150897923E+02	-5.85503557899E+00	-1.36535018745E+00
2.78543171463E+06	-1.20239694132E+01	1.78173956548E+02	5.38918317357E+00	1.69956802534E+02	-4.85210152655E+01	1.11607931441E+02	-5.87834482739E+00	-1.47825021757E+00
2.80762306923E+06	-1.52289915571E+01	-1.20457941618E+02	5.46387244239E+00	1.69793544413E+02	-5.24588452325E+01	2.01418253268E+01	-5.88923473705E+00	-1.42864530480E+00
2.82981442382E+06	-1.30453465372E+01	-1.79417698072E+02	5.40975854111E+00	1.69428600248E+02	-5.06077973654E+01	3.72243710654E+01	-5.87451293508E+00	-1.42149564067E+00
2.85200577842E+06	-1.21718334632E+01	-1.64893899160E+02	5.39096675800E+00	1.69410296357E+02	-4.12701733064E+01	-1.10051660863E+02	-5.87088474482E+00	-1.36052377765E+00
2.87419713301E+06	-1.37300236696E+01	-1.57927950278E+02	5.40649825542E+00	1.69388827055E+02	-4.97518464555E+01	7.47179525574E+01	-5.86359652528E+00	-1.51878805689E+00
