# Hz S DB R 50
! CMT, M5065, 19127446, 24.2.4/2
! Date: 11/8/2024 5:41:56 PM
! Data: Format (Calibration Info)
! Freq	S11:dB/Ang(F2)	S21:dB/Ang(F2)	S12:dB/Ang(F2)	S22:dB/Ang(F2)
3.00000000000E+05	-1.42692049717E+01	1.70892518003E+02	7.79006957597E+00	-1.77475403591E+02	-4.34643728617E+01	1.43875294180E+02	-5.87098894581E+00	-2.87987828344E-01
3.22191354595E+05	-1.23258067036E+01	1.67586535942E+02	7.79894301397E+00	-1.77553421938E+02	-4.51415687688E+01	-1.31079521146E+02	-5.86269866388E+00	-4.41046228487E-01
3.44382709190E+05	-1.36827035589E+01	-1.56338117088E+02	7.84607940315E+00	-1.78299019541E+02	-4.71041561783E+01	-4.06275711079E+01	-5.86683949689E+00	-3.27431846623E-01
3.66574063785E+05	-1.77741466108E+01	-1.79094952694E+02	7.79828675086E+00	-1.78557404087E+02	-4.05095303021E+01	-4.15976570352E+01	-5.88147331510E+00	-2.43330789514E-01
3.88765418380E+05	-1.16676887154E+01	1.76513055682E+02	7.71641068576E+00	-1.78544672897E+02	-4.59397108566E+01	-2.67470705086E+01	-5.79921297590E+00	8.73952849943E-01
4.10956772975E+05	-1.48170319480E+01	-1.74150027435E+02	7.80574938089E+00	-1.79018928372E+02	-5.35900269389E+01	1.28754465952E+02	-5.86873756183E+00	-3.84983292449E-01
4.33148127570E+05	-1.11442849920E+01	1.67409391436E+02	7.79379956556E+00	-1.79126786784E+02	-4.37811244884E+01	1.06787214581E+02	-5.86146962373E+00	-3.07821332870E-01
4.55339482165E+05	-1.40878168583E+01	-1.65390402613E+02	7.81042066902E+00	-1.79630866278E+02	-3.64952565435E+01	-1.34837722094E+02	-5.84458976492E+00	-2.00547511357E-01
4.77530836760E+05	-1.65355040649E+01	1.78697767457E+02	7.84085434462E+00	-1.79895153698E+02	-5.19553370135E+01	-2.71243523116E+01	-5.87162316017E+00	-3.97411969988E-01
4.99722191355E+05	-1.21353965705E+01	1.78281129437E+02	7.79055836579E+00	-1.79824245324E+02	-4.61567110443E+01	-1.54855568528E+02	-5.84540234518E+00	-3.52267196726E-01
5.21913545950E+05	-1.58462219512E+01	-1.60044161590E+02	7.84619739389E+00	1.79742876303E+02	-3.87844313457E+01	1.58292214919E+02	-5.83276457595E+00	-4.44825502105E-01
5.44104900545E+05	-1.27027156457E+01	-1.76041618681E+02	7.80683915794E+00	1.79761918340E+02	-4.68318335374E+01	3.62130044470E+01	-5.87182536611E+00	-5.27997817839E-01
5.66296255139E+05	-1.46230649674E+01	-1.58012651644E+02	7.85152603326E+00	1.79496960602E+02	-5.26196916644E+01	1.23680969637E+02	-5.85964350293E+00	-3.46372315859E-01
5.88487609734E+05	-1.16609582302E+01	-1.66844553949E+02	7.78857878638E+00	1.79220961429E+02	-4.35351445061E+01	1.77566101329E+02	-5.83824432587E+00	-5.40812570127E-01
6.10678964329E+05	-1.65289224125E+01	-1.78885638225E+02	7.82807399144E+00	1.79282321890E+02	-3.94390185307E+01	2.29076393680E+00	-5.87663747224E+00	8.24549060291E-03
6.32870318924E+05	-1.41787425763E+01	-1.76188007815E+02	7.79382820818E+00	1.79348534859E+02	-4.90724558364E+01	1.77009490361E+02	-5.87439518850E+00	-2.67280042961E-01
6.55061673519E+05	-1.19387454349E+01	-1.71120535455E+02	7.81773868278E+00	1.78704063630E+02	-4.97144010242E+01	-5.05888962553E+01	-5.84674807237E+00	-3.54159975244E-01
6.77253028114E+05	-1.60881227998E+01	1.79119955104E+02	7.78966691105E+00	1.78623072574E+02	-4.92458329915E+01	-1.78538368112E+02	-5.86287073245E+00	-7.36085020546E-01
6.99444382709E+05	-1.34466219306E+01	-1.68877157639E+02	7.77902240129E+00	1.78226112445E+02	-4.15981465126E+01	1.47348236246E+02	-5.87049473792E+00	-4.60563897528E-01
7.21635737304E+05	-1.35188503605E+01	-1.67667736436E+02	7.82144204126E+00	1.78266597423E+02	-4.66484749742E+01	4.61699836650E+01	-5.86190493490E+00	-3.41735542591E-01
7.43827091899E+05	-1.12051842889E+01	-1.60179681352E+02	7.80930996926E+00	1.77903243056E+02	-4.93332506919E+01	1.49648696058E+02	-5.85804553449E+00	-3.77039760492E-01
7.66018446494E+05	-1.22690667950E+01	-1.72973942288E+02	7.78949012157E+00	1.78123770021E+02	-3.80159762774E+01	-9.48722047083E+01	-5.85590424225E+00	-3.06373677730E-01
7.88209801089E+05	-1.36263879350E+01	-1.75599547090E+02	7.78201187138E+00	1.77988713633E+02	-4.35892221750E+01	1.06871876784E+02	-5.83586303342E+00	-6.46645571901E-01
8.10401155684E+05	-1.12534070047E+01	-1.68602657744E+02	7.76925245375E+00	1.77539621494E+02	-4.51184260386E+01	-7.86840765900E+01	-5.85814529944E+00	-4.53952831811E-01
8.32592510279E+05	-1.18529338193E+01	-1.79323475183E+02	7.75458954772E+00	1.77598221842E+02	-4.79620038022E+01	1.62315395625E+00	-5.90227569094E+00	-4.78995943784E-01
8.54783864874E+05	-1.39594597578E+01	-1.69350931842E+02	7.81915389675E+00	1.77495302387E+02	-4.63236905163E+01	9.12116686501E+01	-5.88627103286E+00	-5.27836144265E-01
8.76975219469E+05	-1.53273353738E+01	-1.74418214884E+02	7.79909095703E+00	1.77545871444E+02	-3.88612029181E+01	-3.14173761497E+01	-5.88486372426E+00	-5.57556543518E-01
8.99166574064E+05	-1.47913753823E+01	-1.74940191214E+02	7.83113871152E+00	1.77316652065E+02	-4.82137016942E+01	-4.27028177146E+01	-5.86436912341E+00	-4.60273522949E-01
9.21357928659E+05	-1.19022317423E+01	-1.77308001395E+02	7.79255459615E+00	1.76937707840E+02	-4.61000119760E+01	1.42546214912E+02	-5.84790358166E+00	-6.56571627456E-01
9.43549283254E+05	-1.16063096968E+01	-1.68854691777E+02	7.81694534671E+00	1.76751407013E+02	-4.81723499584E+01	-6.39433733995E+01	-5.86126194549E+00	-5.95559230680E-01
9.65740637849E+05	-1.39339071585E+01	-1.71191536215E+02	7.78341562574E+00	1.77018924289E+02	-4.38794156094E+01	1.78268590624E+02	-5.84658957048E+00	-6.23619878086E-01
9.87931992444E+05	-1.22118687068E+01	-1.77815925020E+02	7.81214151589E+00	1.76823521600E+02	-5.49074999146E+01	3.30358786940E+01	-5.86131514556E+00	-5.49185446122E-01
1.01012334704E+06	-1.28246410889E+01	-1.66388130639E+02	7.80781527365E+00	1.76614164855E+02	-4.72114564435E+01	1.47608676403E+02	-5.84037910156E+00	-7.94619449804E-01
1.03231470163E+06	-1.35622560576E+01	-1.50549501834E+02	7.82908805687E+00	1.76236614440E+02	-4.56624068484E+01	1.19320464311E+01	-5.86908088759E+00	-6.01513517989E-01
1.05450605623E+06	-1.47601733712E+01	-1.74172415178E+02	7.84709266954E+00	1.76303046922E+02	-3.86502105595E+01	1.56418814791E+02	-5.83229485158E+00	-6.74499971799E-01
1.07669741082E+06	-1.21753640703E+01	-1.72987127478E+02	7.77343736459E+00	1.76567854525E+02	-4.65282953491E+01	1.27745806495E+02	-5.85010081768E+00	-4.26037039438E-01
1.09888876542E+06	-1.20741961506E+01	-1.56148290969E+02	7.82121567082E+00	1.75961535537E+02	-4.14498659610E+01	3.15737692934E+01	-5.86347088019E+00	-6.52618432613E-01
1.12108012001E+06	-1.70219002390E+01	-1.72866782046E+02	7.81154453397E+00	1.76388751413E+02	-6.19576378750E+01	-7.23439268182E+01	-5.86056913355E+00	-5.96841377252E-01
1.14327147461E+06	-1.47206096859E+01	-1.79609367360E+02	7.82659741438E+00	1.75967571744E+02	-4.74013214090E+01	-1.44957744069E+02	-5.86213811784E+00	-7.04580497818E-01
1.16546282920E+06	-1.32199645562E+01	-1.67239690420E+02	7.82653583353E+00	1.75833724028E+02	-4.63261816516E+01	8.97657433246E+01	-5.85732420143E+00	-6.92391490597E-01
1.18765418380E+06	-1.24961413663E+01	-1.56321279617E+02	7.82062512840E+00	1.75500574455E+02	-4.28835247405E+01	-1.07505705600E+02	-5.87323680735E+00	-6.62242297918E-01
1.20984553839E+06	-1.37918392296E+01	-1.71272372772E+02	7.80136406695E+00	1.75740026264E+02	-4.25778490951E+01	-2.13463553415E+01	-5.88727763890E+00	-8.53499018937E-01
1.23203689299E+06	-1.26742807778E+01	-1.71217574452E+02	7.83343835472E+00	1.75150888725E+02	-3.99807283176E+01	2.22186083653E-01	-5.88802743757E+00	-4.12800534261E-01
1.25422824758E+06	-1.20290953086E+01	-1.79373239879E+02	7.78959957973E+00	1.75531802415E+02	-4.74242921971E+01	-5.55600230036E+01	-5.87899018485E+00	-6.77165189408E-01
1.27641960218E+06	-1.54808971926E+01	1.79573680702E+02	7.79682423351E+00	1.75293239656E+02	-3.89872107448E+01	-3.32785774998E+00	-5.89791146376E+00	-7.82822585104E-01
1.29861095677E+06	-1.13554796863E+01	-1.60846642385E+02	7.80805118954E+00	1.75048464807E+02	-4.31581815783E+01	-3.21351371822E+01	-5.86887263873E+00	-7.63103278394E-01
1.32080231137E+06	-1.21069098563E+01	-1.70111487297E+02	7.80942240783E+00	1.75040385416E+02	-4.43765528401E+01	4.81581955686E+01	-5.86557719621E+00	-1.14332120864E+00
1.34299366596E+06	-1.12552712450E+01	-1.76441685628E+02	7.83801479982E+00	1.75000092299E+02	-4.66827247959E+01	-7.08583177873E+01	-5.88834848159E+00	-6.91568397035E-01
1.36518502056E+06	-1.44869089242E+01	-1.68570435595E+02	7.79369760926E+00	1.74670879806E+02	-4.47336410450E+01	-1.35922645166E+02	-5.87371820852E+00	-6.77833995404E-01
1.38737637515E+06	-1.39923380210E+01	-1.70899086986E+02	7.81636792851E+00	1.74530148180E+02	-4.01273823478E+01	-6.64213622805E+01	-5.86432573526E+00	-7.80997906777E-01
1.40956772975E+06	-1.38038281661E+01	1.74094730875E+02	7.82678012973E+00	1.74799671771E+02	-4.32131851268E+01	1.45153990225E+02	-5.87495778078E+00	-7.24478398040E-01
1.43175908434E+06	-1.25421480368E+01	-1.56025915336E+02	7.82919745150E+00	1.74355552926E+02	-4.09089223817E+01	5.46023799425E+01	-5.86662360497E+00	-9.57936524273E-01
1.45395043894E+06	-1.39136792741E+01	-1.63236500155E+02	7.83203472099E+00	1.74436817996E+02	-4.94219566937E+01	-7.72044788259E+01	-5.85495952637E+00	-7.54615290034E-01
1.47614179353E+06	-1.47387685276E+01	-1.19883780426E+02	7.89878935856E+00	1.74168879952E+02	-5.64859420097E+01	-1.47144749964E+02	-5.87543687116E+00	-9.23766282679E-01
1.49833314813E+06	-1.32727303286E+01	-1.78773114873E+02	7.79104013298E+00	1.74251437626E+02	-4.99058494410E+01	1.67946545220E+02	-5.86976967515E+00	-8.22800646296E-01
1.52052450272E+06	-1.09146203982E+01	-1.64963784393E+02	7.79832932094E+00	1.73955656402E+02	-4.41270953550E+01	-1.38150518146E+02	-5.83863187845E+00	-7.02189892858E-01
1.54271585732E+06	-1.11897110151E+01	-1.59073339707E+02	7.84331258789E+00	1.73616120815E+02	-3.89319280234E+01	-1.38028319664E+02	-5.86558351962E+00	-6.06401313567E-01
1.56490721191E+06	-1.37207342859E+01	-1.50344579948E+02	7.85025161436E+00	1.73809332721E+02	-4.06801794104E+01	-7.45758555368E+01	-5.87800939936E+00	-9.75964656082E-01
1.58709856651E+06	-1.78025601834E+01	-1.56565583804E+02	7.89051990811E+00	1.73751639939E+02	-4.72647257614E+01	1.26120769968E+02	-5.88784259713E+00	-7.53879047271E-01
1.60928992110E+06	-1.49968267283E+01	1.54855637289E+02	7.82728728055E+00	1.74122376325E+02	-4.47114927285E+01	1.36105528271E+02	-5.84763630426E+00	-8.61285336056E-01
1.63148127570E+06	-1.20991117787E+01	-7.64156419315E+01	7.92469584248E+00	1.74162195084E+02	-4.35486780884E+01	-1.49835205566E+02	-5.87229302868E+00	-7.79942176222E-01
1.65367263029E+06	-1.02522341175E+01	-1.65573640091E+02	7.80983178725E+00	1.73455719859E+02	-5.08794271212E+01	4.58222406345E+01	-5.87635271939E+00	-9.36691584882E-01
1.67586398489E+06	-1.50962145909E+01	-1.66136033324E+02	7.81059897940E+00	1.73387436680E+02	-4.29415163525E+01	-5.77948090322E+01	-5.87102841281E+00	-1.01234935840E+00
1.69805533948E+06	-1.20738842498E+01	-1.65016777212E+02	7.82049935972E+00	1.73192522581E+02	-3.38825856650E+01	5.68452330478E+01	-5.87172908303E+00	-1.01860941028E+00
1.72024669408E+06	-9.95954624788E+00	-1.67228516622E+02	7.75180932788E+00	1.72896440171E+02	-4.43187581572E+01	1.22099850810E+02	-5.85034973091E+00	-9.25920519674E-01
1.74243804867E+06	-1.17934746596E+01	-1.65042790836E+02	7.82514825927E+00	1.72996487070E+02	-4.50940130867E+01	1.58592300062E+02	-5.85009943582E+00	-9.89138803081E-01
1.76462940327E+06	-1.13946352646E+01	1.78907870899E+02	7.79635507507E+00	1.72966941831E+02	-4.73095582499E+01	-1.61175379377E+02	-5.86162889240E+00	-9.02033038379E-01
1.78682075786E+06	-7.52288240930E+00	-1.79415532257E+02	7.74831967822E+00	1.72187966186E+02	-4.92595169967E+01	9.44919975387E+00	-5.88055491083E+00	-1.05902324657E+00
1.80901211246E+06	-1.13169906610E+01	-1.68518508589E+02	7.82171013533E+00	1.72602166796E+02	-4.53425047282E+01	9.41128261903E+01	-5.86456151819E+00	-8.98017245516E-01
1.83120346705E+06	-1.18134588558E+01	-1.66793578367E+02	7.78254688318E+00	1.72450417626E+02	-5.02441541143E+01	1.08308788856E+02	-5.87635240576E+00	-8.84252232616E-01
1.85339482165E+06	-1.54074035599E+01	-1.74997173447E+02	7.81069588628E+00	1.72644133667E+02	-4.31065147284E+01	-9.35992496067E+01	-5.88534286749E+00	-1.00327651238E+00
1.87558617624E+06	-1.23816012325E+01	-1.79365508877E+02	7.79244087622E+00	1.72367033810E+02	-3.11167604853E+01	-1.40460658900E+02	-5.86650268183E+00	-6.65909127535E-01
1.89777753084E+06	-1.21062748904E+01	-1.60794861315E+02	7.82676290176E+00	1.72305480994E+02	-4.60999581198E+01	-1.36691632372E+02	-5.87151003457E+00	-9.60757115262E-01
1.91996888543E+06	-1.61179662191E+01	-1.60422683880E+02	7.84349700008E+00	1.72187570272E+02	-4.90100361219E+01	-5.37465764360E+01	-5.86611135760E+00	-9.58307909747E-01
1.94216024003E+06	-1.05625266215E+01	-1.78791824848E+02	7.76418865489E+00	1.71994183041E+02	-5.13221585639E+01	9.28447061821E+01	-5.86285288684E+00	-1.21329071832E+00
1.96435159462E+06	-1.38850242243E+01	-1.65745637399E+02	7.81444935535E+00	1.71959979837E+02	-4.82318973679E+01	-9.12722356981E+01	-5.88121582880E+00	-9.15211910432E-01
1.98654294922E+06	-1.26004389642E+01	-1.73634738139E+02	7.78963494083E+00	1.71784835371E+02	-3.97643172260E+01	1.00797669263E+02	-5.84752884138E+00	-1.11005427357E+00
2.00873430381E+06	-1.33060124918E+01	-1.71373790766E+02	7.82591110602E+00	1.71847369586E+02	-4.10078741358E+01	-4.94714387952E+01	-5.88222367038E+00	-9.65743169609E-01
2.03092565841E+06	-1.63405040093E+01	-1.78410218332E+02	7.85557106784E+00	1.71943772325E+02	-3.99209084026E+01	9.15564628049E+01	-5.85717318239E+00	-1.01041176083E+00
2.05311701300E+06	-1.31261113128E+01	-1.73250347878E+02	7.80493939264E+00	1.71399577977E+02	-4.36759906973E+01	3.90238412783E+01	-5.86399770041E+00	-1.27126653436E+00
2.07530836760E+06	-1.04441635992E+01	-1.71458152034E+02	7.83304249499E+00	1.71199981886E+02	-4.21965972084E+01	5.78720324479E+01	-5.88921828149E+00	-1.15832991380E+00
2.09749972219E+06	-1.06129137394E+01	-1.66734458860E+02	7.83720365844E+00	1.71112517482E+02	-5.04517883244E+01	-1.32774759088E+02	-5.87780325746E+00	-1.11883286455E+00
2.11969107679E+06	-1.37830123317E+01	-1.63772589077E+02	7.86736090623E+00	1.71354080536E+02	-5.26744521260E+01	-2.11672942378E+01	-5.85413291809E+00	-1.19063969590E+00
2.14188243138E+06	-1.24802056640E+01	-1.63056551404E+02	7.83354539858E+00	1.70954434825E+02	-4.47417449177E+01	3.60162635782E+01	-5.86051123240E+00	-1.32150968365E+00
2.16407378598E+06	-1.45062520193E+01	-1.49869153136E+02	7.86779711754E+00	1.70974341787E+02	-4.65005370586E+01	-1.89776479632E+01	-5.89918260463E+00	-1.10062388548E+00
2.18626514057E+06	-1.11813254378E+01	-1.75019073583E+02	7.84380099891E+00	1.70624199229E+02	-3.25035565902E+01	-6.98087860381E+01	-5.90129144421E+00	-1.12876432621E+00
2.20845649517E+06	-1.44452925080E+01	-1.68446944457E+02	7.87327828004E+00	1.70806129261E+02	-4.73128411077E+01	-4.60718892485E+01	-5.87051977659E+00	-1.17549544021E+00
2.23064784976E+06	-1.09680929979E+01	-1.57571065062E+02	7.83808079751E+00	1.70581670202E+02	-4.42953440603E+01	-2.37308702298E+01	-5.88152808630E+00	-1.15556028873E+00
2.25283920436E+06	-9.05047785259E+00	-1.53454747450E+02	7.87213431346E+00	1.70084358486E+02	-4.18637026862E+01	-1.51387809877E+02	-5.86086431960E+00	-1.16003091890E+00
2.27503055895E+06	-1.18736530869E+01	-1.53768276877E+02	7.83684290193E+00	1.70377076704E+02	-5.18647706202E+01	-5.21838139395E+01	-5.86538450526E+00	-1.10801568203E+00
2.29722191355E+06	-1.16256691108E+01	-1.73942209849E+02	7.77330431872E+00	1.70471579127E+02	-4.48259790480E+01	1.41846676784E+02	-5.85975904223E+00	-1.38551826697E+00
2.31941326814E+06	-1.20181245546E+01	-1.79982109368E+02	7.79305961367E+00	1.70496598759E+02	-4.50278045446E+01	-4.72588820248E+01	-5.86371066679E+00	-1.22174414957E+00
2.34160462274E+06	-1.24832260786E+01	-1.78220273984E+02	7.85349306472E+00	1.70266442662E+02	-3.33365850640E+01	1.41439558599E+02	-5.82019563251E+00	-1.04835876011E+00
2.36379597733E+06	-1.07116901202E+01	-1.58168872788E+02	7.82329206245E+00	1.69831705422E+02	-4.24847050739E+01	-7.53378850441E+01	-5.87475836116E+00	-1.09689016798E+00
2.38598733193E+06	-1.30661665848E+01	1.70627004056E+02	7.79768463667E+00	1.70528155011E+02	-5.09786673704E+01	-3.85142376223E+01	-5.88131076183E+00	-1.17234572496E+00
2.40817868652E+06	-1.62872910230E+01	1.58417702541E+02	7.86109491565E+00	1.70147103663E+02	-4.64693659798E+01	1.13007330358E+02	-5.85639311700E+00	-1.41102672595E+00
2.43037004112E+06	-1.17958025525E+01	-1.65083816228E+02	7.87725691072E+00	1.69551635009E+02	-4.41798254652E+01	-1.40668285450E+02	-5.86777794943E+00	-1.61937338627E+00
2.45256139571E+06	-1.17428367884E+01	-1.65507052670E+02	7.86380409970E+00	1.69573163485E+02	-4.23193257445E+01	2.64141471469E+01	-5.89455482726E+00	-1.24348268399E+00
2.47475275031E+06	-1.29206115740E+01	1.78689564231E+02	7.82485386287E+00	1.69735926489E+02	-4.24819877229E+01	-1.04341327690E+02	-5.91490689453E+00	-1.16177831719E+00
2.49694410490E+06	-1.28660003372E+01	-1.59373540295E+02	7.85154019791E+00	1.69544706298E+02	-4.03081613720E+01	9.30795381829E+01	-5.84983481249E+00	-1.23729643645E+00
2.51913545950E+06	-1.39570805429E+01	-1.65046220721E+02	7.86297811560E+00	1.69459163705E+02	-4.17747640443E+01	6.93957810041E+01	-5.87673892696E+00	-1.41861416615E+00
2.54132681409E+06	-1.18007795882E+01	-1.76474785507E+02	7.81921016983E+00	1.69356532321E+02	-4.20099786171E+01	-1.67132411389E+02	-5.85233452676E+00	-1.11054819597E+00
2.56351816869E+06	-1.81490160024E+01	-1.75632413201E+02	7.83996021326E+00	1.69816036030E+02	-3.82914023028E+01	7.24212080271E+01	-5.87690184192E+00	-1.63879231651E+00
2.58570952328E+06	-1.19755110837E+01	-1.59525345848E+02	7.87297475641E+00	1.69063864426E+02	-5.31175381472E+01	1.43669957820E+02	-5.88345736219E+00	-1.28197827291E+00
2.60790087788E+06	-1.02198909643E+01	-1.60114304395E+02	7.88992113024E+00	1.68814230798E+02	-4.76229841731E+01	-1.42541676764E+02	-5.87940111598E+00	-1.08828105864E+00
2.63009223247E+06	-1.24574875427E+01	-1.63464677613E+02	7.85668236695E+00	1.68945852370E+02	-4.13059986044E+01	-2.48982947974E+01	-5.91204037992E+00	-1.02268993488E+00
2.65228358707E+06	-1.27509123510E+01	-1.60237141907E+02	7.88149747768E+00	1.68790122699E+02	-4.18366570126E+01	1.38471599498E+02	-5.85214383690E+00	-1.29869892967E+00
2.67447494166E+06	-1.25396226607E+01	-1.59528945330E+02	7.84966158307E+00	1.68618973664E+02	-4.16760132314E+01	-1.72179299686E+02	-5.86369539084E+00	-1.29887527556E+00
2.69666629626E+06	-1.13751873055E+01	-1.54744267653E+02	7.85564668606E+00	1.68632413935E+02	-4.53053478891E+01	-3.17736737033E+01	-5.89059029541E+00	-1.44703396414E+00
2.71885765085E+06	-1.12752006682E+01	-1.78193258785E+02	7.88343221862E+00	1.68385993559E+02	-4.22220229100E+01	-2.52262384909E+01	-5.86879921142E+00	-1.53782621313E+00
2.74104900545E+06	-1.21382465610E+01	-1.72630703090E+02	7.81196100698E+00	1.68528416278E+02	-6.84793665162E+01	2.16707103011E+01	-5.87247039769E+00	-1.47260094303E+00
2.76324036004E+06	-1.22759321673E+01	-1.52114079848E+02	7.88135118545E+00	1.68203863763E+02	-3.92873638958E+01	-8.88218454862E+01	-5.88541210639E+00	-1.31934787799E+00
2.78543171463E+06	-1.21366357948E+01	-1.61906602308E+02	7.88364706219E+00	1.68097103126E+02	-4.31798500841E+01	2.27512873002E+01	-5.90210311378E+00	-1.56106916022E+00
2.80762306923E+06	-1.37958570785E+01	-1.60752897808E+02	7.87612548529E+00	1.68036112309E+02	-4.47649768207E+01	-9.37457963072E+01	-5.89162330320E+00	-1.47362239376E+00
2.82981442382E+06	-1.33062347936E+01	-1.64347759257E+02	7.87252421703E+00	1.67932417507E+02	-5.31718856412E+01	-1.21366723154E+02	-5.89727616378E+00	-1.27138699863E+00
2.85200577842E+06	-1.53891263908E+01	-1.55628058722E+02	7.87743451495E+00	1.68133204423E+02	-5.42984544692E+01	-4.43986826027E+01	-5.89170756531E+00	-1.48049288983E+00
2.87419713301E+06	-1.40110168813E+01	-1.54802807767E+02	7.86863090905E+00	1.67837031419E+02	-4.78400534963E+01	-1.66480060782E+01	-5.89887462445E+00	-1.49171252377E+00
