# Hz S DB R 50
! CMT, M5065, 19127446, 24.2.4/2
! Date: 11/8/2024 5:17:45 PM
! Data: Format (Calibration Info)
! Freq	S11:dB/Ang(F2)	S21:dB/Ang(F2)	S12:dB/Ang(F2)	S22:dB/Ang(F2)
3.00000000000E+05	-1.43447530898E+01	-1.46245938560E+02	1.38230881448E+01	-1.77388082856E+02	-5.40521480990E+01	-2.82192907285E+01	-5.89314129511E+00	-3.30399863861E-01
3.22191354595E+05	-1.56687956160E+01	1.75192569683E+02	1.37821247933E+01	-1.77338036669E+02	-5.23446559886E+01	1.76612722899E+02	-5.83871948710E+00	-2.87234042434E-01
3.44382709190E+05	-1.19067646021E+01	1.78665542284E+02	1.37704109072E+01	-1.78072221498E+02	-4.01551778368E+01	-3.78093296786E+01	-5.86722432432E+00	-3.62922556602E-01
3.66574063785E+05	-1.50548958942E+01	-1.78976510272E+02	1.37844769218E+01	-1.78483393312E+02	-4.39225440063E+01	1.63220563445E+02	-5.85272154483E+00	-2.79713159647E-01
3.88765418380E+05	-1.82732077009E+01	-1.59896178038E+02	1.37195142981E+01	-1.79507320660E+02	-4.81627791571E+01	-1.64857368892E+02	-5.69541533112E+00	-2.93858543864E-02
4.10956772975E+05	-1.40044747293E+01	-1.54569503399E+02	1.37974792594E+01	-1.79370653970E+02	-4.93700569591E+01	1.23723725419E+02	-5.83802691545E+00	-4.22020770016E-01
4.33148127570E+05	-1.14032600651E+01	-1.66071951795E+02	1.37777517216E+01	-1.79646305939E+02	-3.93600443227E+01	1.28897747075E+02	-5.84786637609E+00	-5.31770996176E-01
4.55339482165E+05	-1.17360457968E+01	-1.68784425215E+02	1.37789592043E+01	-1.79999929484E+02	-4.47351486372E+01	3.07510434282E+00	-5.89860283795E+00	-3.81353479128E-01
4.77530836760E+05	-1.46507968453E+01	-1.67155718599E+02	1.37950246130E+01	1.79919249312E+02	-4.45917788385E+01	-4.16489685304E+01	-5.89220002242E+00	-3.45709919093E-01
4.99722191355E+05	-1.36486143818E+01	-1.56569521145E+02	1.37971747976E+01	1.79393448843E+02	-4.06271428190E+01	1.29271095579E+02	-5.85595989475E+00	-3.54273490501E-01
5.21913545950E+05	-1.19030131148E+01	-1.57701548112E+02	1.37841924500E+01	1.79193505005E+02	-4.37437758322E+01	1.07609070236E+02	-5.82657027603E+00	-3.91830984639E-01
5.44104900545E+05	-1.66019826200E+01	-1.39467678847E+02	1.38397933982E+01	1.78944479122E+02	-4.55132285597E+01	4.13070661869E+00	-5.89269146774E+00	-3.15419357640E-01
5.66296255139E+05	-1.27369518664E+01	1.78736022570E+02	1.37795919865E+01	1.78883373637E+02	-4.66994941988E+01	8.34542618346E+01	-5.87569563210E+00	-5.89116953597E-01
5.88487609734E+05	-1.41077964622E+01	-1.71449468192E+02	1.38119203942E+01	1.78715113064E+02	-3.97158950092E+01	-1.09658056251E+02	-5.83358634160E+00	-7.75136081681E-02
6.10678964329E+05	-1.37051132547E+01	1.77315243171E+02	1.38115480679E+01	1.78624872933E+02	-4.58415356866E+01	-6.56300989583E+01	-5.88443834842E+00	4.10122241193E-02
6.32870318924E+05	-1.65981146743E+01	-1.73642790417E+02	1.38113685570E+01	1.78175983754E+02	-4.16302467232E+01	9.55030018607E+01	-5.86518879554E+00	-2.30753147714E-01
6.55061673519E+05	-1.20096427360E+01	-1.39583747357E+02	1.38194740755E+01	1.77719017723E+02	-4.21612553444E+01	1.57818480111E+02	-5.83347854195E+00	-5.11693142780E-01
6.77253028114E+05	-1.38612126883E+01	1.75502802424E+02	1.37992529799E+01	1.77876861371E+02	-4.34442778288E+01	3.67268659895E+01	-5.87883138472E+00	-7.16218483877E-01
6.99444382709E+05	-1.35693590062E+01	-1.70270771769E+02	1.37949589044E+01	1.77436668248E+02	-4.32216491887E+01	-9.17837726482E+01	-5.87191786025E+00	-2.92551233757E-01
7.21635737304E+05	-1.40287063038E+01	-1.53407287362E+02	1.38172103146E+01	1.77278755746E+02	-4.10790476385E+01	-1.06741014537E+02	-5.84810433607E+00	-2.20407496014E-01
7.43827091899E+05	-1.63699184448E+01	-1.63517221304E+02	1.38033986665E+01	1.77106908328E+02	-4.51941545105E+01	-1.17432620182E+02	-5.88126853435E+00	-2.31360961099E-01
7.66018446494E+05	-1.30255484945E+01	-1.70101375879E+02	1.37865367776E+01	1.76967761397E+02	-5.28872191688E+01	-4.23297125094E+01	-5.87814101139E+00	-4.07344857975E-01
7.88209801089E+05	-1.15712248341E+01	-1.79267605125E+02	1.37884990706E+01	1.76870815618E+02	-4.03611724623E+01	-6.63826091538E+01	-5.87207259890E+00	-2.57996550612E-01
8.10401155684E+05	-1.23790838160E+01	1.79776322398E+02	1.37830481525E+01	1.76564559397E+02	-3.65969498864E+01	-8.20447812390E+01	-5.89820779685E+00	-1.56022347857E-01
8.32592510279E+05	-1.12792142003E+01	1.67755101974E+02	1.37806690402E+01	1.76660407948E+02	-5.11068476987E+01	-5.39141876399E+01	-5.87056205445E+00	-4.71371727563E-01
8.54783864874E+05	-1.30690530719E+01	-1.65834675778E+02	1.38094544472E+01	1.76052872482E+02	-4.22341941747E+01	-1.55902055207E+02	-5.84344232185E+00	-4.33778119344E-01
8.76975219469E+05	-1.38523665900E+01	-1.66643044265E+02	1.38035738880E+01	1.75861654708E+02	-4.42210367160E+01	1.05219587954E+01	-5.88893187103E+00	-5.54378612879E-01
8.99166574064E+05	-1.40378827362E+01	-1.74198724037E+02	1.37993098486E+01	1.75867041984E+02	-6.91931507821E+01	-3.64088080780E+00	-5.87092757610E+00	-4.91692523615E-01
9.21357928659E+05	-1.52657349445E+01	1.66925378687E+02	1.38210124510E+01	1.75654005520E+02	-5.40737380405E+01	-1.33655163364E+02	-5.87854595374E+00	-4.90167539288E-01
9.43549283254E+05	-1.35409386837E+01	-1.73728324830E+02	1.37972890175E+01	1.75343430310E+02	-6.67845978626E+01	-1.01293986876E+02	-5.87633676341E+00	-5.01878562673E-01
9.65740637849E+05	-1.26667413992E+01	-1.73885472679E+02	1.37885382848E+01	1.75138813748E+02	-4.93441063914E+01	-1.82790069412E+01	-5.89621365749E+00	-6.55430227526E-01
9.87931992444E+05	-1.27096134787E+01	-1.55783109763E+02	1.38162132619E+01	1.75069067941E+02	-3.99658363607E+01	-4.83081563670E+00	-5.88598702297E+00	-8.25908373066E-01
1.01012334704E+06	-1.39125869552E+01	1.67647393841E+02	1.37889946070E+01	1.75036260880E+02	-4.69243808293E+01	-1.25655163233E+02	-5.85368715705E+00	-4.31083446985E-01
1.03231470163E+06	-1.63347900812E+01	-1.55800741728E+02	1.37992013039E+01	1.74839301111E+02	-4.33930267886E+01	-1.56170857436E+02	-5.87022637070E+00	-5.94590798417E-01
1.05450605623E+06	-1.25182454744E+01	-1.74775157407E+02	1.37689395774E+01	1.74724980698E+02	-4.14884721606E+01	-9.37376732757E+01	-5.86884383531E+00	-3.22250263320E-01
1.07669741082E+06	-1.04972190323E+01	1.78888551978E+02	1.37409991714E+01	1.74413549983E+02	-5.25818507538E+01	1.36761371483E+02	-5.88852664128E+00	-1.68922085015E+00
1.09888876542E+06	-1.68143168867E+01	-1.79857990561E+02	1.37949416756E+01	1.74478122086E+02	-4.36122876654E+01	-1.67291468131E+02	-5.83905691502E+00	-5.24002312609E-01
1.12108012001E+06	-1.64247952751E+01	-1.49738165221E+02	1.38081511339E+01	1.73955364243E+02	-4.14887613036E+01	-3.47315627721E+01	-5.91600389762E+00	-5.41802852510E-01
1.14327147461E+06	-1.11371124701E+01	1.67469940532E+02	1.37889308104E+01	1.74062428025E+02	-4.36907592623E+01	5.94817858418E+01	-5.87268377787E+00	-7.78009149962E-01
1.16546282920E+06	-1.23290904156E+01	-1.55504037265E+02	1.37882275906E+01	1.73474543090E+02	-4.51369390026E+01	-1.65305326128E+02	-5.86979266426E+00	-4.06405415740E-01
1.18765418380E+06	-1.20653915412E+01	-1.55060434942E+02	1.37909629811E+01	1.73315044341E+02	-4.48104435482E+01	-5.00490232771E+01	-5.87115447454E+00	-5.22936976480E-01
1.20984553839E+06	-1.57755519379E+01	-1.70630048899E+02	1.38045961754E+01	1.73560572529E+02	-4.47519245157E+01	-1.17936523376E+02	-5.85813269845E+00	-6.92168925609E-01
1.23203689299E+06	-1.61249378299E+01	1.72228283242E+02	1.37866420917E+01	1.73459609677E+02	-4.54787314930E+01	1.08803882537E+02	-5.85693840864E+00	-4.54764086282E-01
1.25422824758E+06	-1.32695377602E+01	-1.66321223786E+02	1.37890717298E+01	1.73104810307E+02	-3.97958638821E+01	-1.02831696952E+02	-5.88399700824E+00	-5.16678405545E-01
1.27641960218E+06	-1.40505898040E+01	1.79928580690E+02	1.37773993677E+01	1.72937717559E+02	-3.97528892808E+01	-1.05046206247E+02	-5.85642073910E+00	-5.37258398890E-01
1.29861095677E+06	-1.33670910133E+01	-1.74634088413E+02	1.38026459857E+01	1.72902256330E+02	-5.35984731586E+01	9.44881914375E+01	-5.88845599269E+00	-6.55656256789E-01
1.32080231137E+06	-1.53938259143E+01	-1.54689261439E+02	1.38099576684E+01	1.72486759448E+02	-5.23057406552E+01	-7.59417169363E+01	-5.88126691932E+00	-9.82749237173E-01
1.34299366596E+06	-1.33968159227E+01	-1.76963082427E+02	1.37948829867E+01	1.72510047940E+02	-4.60527122034E+01	-1.31707424030E+02	-5.87549576017E+00	-7.11978612367E-01
1.36518502056E+06	-1.34187590767E+01	-1.77919217454E+02	1.37687855054E+01	1.72390799696E+02	-4.39148851108E+01	-1.04045566094E+02	-5.87612720800E+00	-4.01484681239E-01
1.38737637515E+06	-1.22728100083E+01	-1.68758182919E+02	1.37657180930E+01	1.71965864460E+02	-4.46467333065E+01	-8.56211237284E+01	-5.87976531464E+00	-6.70064190174E-01
1.40956772975E+06	-1.26956683730E+01	-1.68907305508E+02	1.37849818466E+01	1.71989784208E+02	-4.14737829966E+01	-1.52122783944E+02	-5.85464914397E+00	-5.85219608954E-01
1.43175908434E+06	-1.32084294478E+01	-1.45935607263E+02	1.38076460364E+01	1.71994308953E+02	-4.37904792328E+01	-1.35484757524E+02	-5.85605310448E+00	-7.63552209696E-01
1.45395043894E+06	-9.21445256798E+00	-1.62083182166E+02	1.37938169583E+01	1.71353928168E+02	-4.62432121445E+01	-6.62945104026E+01	-5.87981760169E+00	-6.02984289001E-01
1.47614179353E+06	-1.28128342565E+01	-1.71390262856E+02	1.37957025849E+01	1.71687747006E+02	-5.12409498756E+01	-1.71814907153E+02	-5.87707903241E+00	-9.22301256130E-01
1.49833314813E+06	-1.34084676937E+01	-1.70698692780E+02	1.37730061455E+01	1.71491183357E+02	-4.29326810178E+01	-1.59612483572E+02	-5.85749012859E+00	-7.78624331451E-01
1.52052450272E+06	-1.35810712297E+01	-1.61710840093E+02	1.37961386832E+01	1.71214985505E+02	-4.43147050977E+01	-1.19244082318E+02	-5.87378124799E+00	-6.60778565011E-01
1.54271585732E+06	-1.21851711185E+01	-1.79274655875E+02	1.37643061886E+01	1.71113514380E+02	-4.13448417311E+01	-1.61696357798E+02	-5.86416430991E+00	-8.44005390032E-01
1.56490721191E+06	-1.13374364696E+01	-1.56270509749E+02	1.37661915955E+01	1.70718746998E+02	-5.24351039803E+01	1.31611563930E+02	-5.86719296658E+00	-7.49178049880E-01
1.58709856651E+06	-1.13225015928E+01	1.51991837563E+02	1.37383127798E+01	1.70955677004E+02	-5.41298353225E+01	3.28761998910E+01	-5.87139768733E+00	-9.15501939189E-01
1.60928992110E+06	-8.13462029924E+00	-1.54424190675E+02	1.37826438303E+01	1.70236407973E+02	-3.26121498863E+01	2.49127100267E-01	-5.92166036276E+00	-1.10100820280E+00
1.63148127570E+06	-1.74641334398E+01	-1.74853528699E+02	1.38286043755E+01	1.70628949076E+02	-4.07172758490E+01	-6.55322968270E+01	-5.87531649051E+00	-5.93711405902E-01
1.65367263029E+06	-1.29615997911E+01	-1.71651650238E+02	1.37812065026E+01	1.70401559304E+02	-4.65169562542E+01	9.67585600116E+01	-5.87501869444E+00	-9.62270881556E-01
1.67586398489E+06	-1.39198205355E+01	-1.74626622930E+02	1.38028456951E+01	1.70165937199E+02	-4.03030002676E+01	-9.35578747271E+01	-5.88307669448E+00	-5.68489982539E-01
1.69805533948E+06	-1.18283088669E+01	1.77823401072E+02	1.37627417109E+01	1.70132262903E+02	-5.50643439681E+01	-1.19664589775E+02	-5.87200896206E+00	-6.94009476691E-01
1.72024669408E+06	-1.33407516419E+01	-1.73562470439E+02	1.37895094908E+01	1.69846736754E+02	-4.56871529727E+01	9.68589993397E+01	-5.86553595773E+00	-9.00924070818E-01
1.74243804867E+06	-1.04357760177E+01	-1.76858931609E+02	1.37759154539E+01	1.69647999889E+02	-5.70158534992E+01	1.00071972373E+02	-5.86289618546E+00	-1.08466045807E+00
1.76462940327E+06	-1.52429718626E+01	1.76119440450E+02	1.37769951943E+01	1.69839590961E+02	-4.27748133594E+01	-5.27824976329E+01	-5.89443841767E+00	-9.66051172032E-01
1.78682075786E+06	-1.34604614892E+01	-1.54690645136E+02	1.38228925068E+01	1.69361418071E+02	-4.11323965075E+01	-7.65630694553E+01	-5.86793936258E+00	-7.70990719218E-01
1.80901211246E+06	-1.54125349768E+01	1.76469490988E+02	1.37903633019E+01	1.69600009789E+02	-5.24248614414E+01	-4.06144320899E+01	-5.89365025970E+00	-9.02758329378E-01
1.83120346705E+06	-1.37666448973E+01	-1.48300125619E+02	1.38350694265E+01	1.68991936557E+02	-5.25062086663E+01	-6.81722855007E+01	-5.87848342378E+00	-1.04407265686E+00
1.85339482165E+06	-1.18602527234E+01	-1.54220746324E+02	1.37911490026E+01	1.68765061548E+02	-4.09967010117E+01	-1.26557309271E+02	-5.86519328987E+00	-8.29105168421E-01
1.87558617624E+06	-1.38954212190E+01	-1.53215381582E+02	1.37966121258E+01	1.68732740762E+02	-4.36758087333E+01	5.31239579113E+00	-5.88274497232E+00	-1.13668478046E+00
1.89777753084E+06	-1.25743364744E+01	1.78749761401E+02	1.37679592123E+01	1.68619218838E+02	-4.70289074482E+01	6.74801243581E+01	-5.88045934970E+00	-1.12849861086E+00
1.91996888543E+06	-1.31136749518E+01	-1.73154631340E+02	1.37807219848E+01	1.68617771979E+02	-3.41238780384E+01	1.68915805032E+02	-5.84420395135E+00	-5.75332581511E-01
1.94216024003E+06	-1.17107432443E+01	-1.73924802272E+02	1.37689544357E+01	1.68404626586E+02	-5.28096460441E+01	-1.56399768955E+02	-5.87998550607E+00	-1.03325989507E+00
1.96435159462E+06	-1.11147712998E+01	-1.70103239248E+02	1.37743269238E+01	1.68288539882E+02	-4.39361145841E+01	-5.36094069459E+01	-5.90981997873E+00	-8.98522180097E-01
1.98654294922E+06	-1.13962257886E+01	1.67304157122E+02	1.37433652894E+01	1.68234236939E+02	-4.95239958439E+01	-9.73836908986E+00	-5.87580022083E+00	-8.94072273991E-01
2.00873430381E+06	-1.34987873893E+01	-1.53777959075E+02	1.38225552420E+01	1.67863310415E+02	-4.38124822958E+01	1.64318354131E+00	-5.92283028379E+00	-1.03135058692E+00
2.03092565841E+06	-1.27725858298E+01	1.78666843475E+02	1.37674738841E+01	1.67879505508E+02	-6.13931443639E+01	1.23136408851E+02	-5.87660808010E+00	-1.08764552029E+00
2.05311701300E+06	-1.09483192252E+01	1.76003132658E+02	1.37816726121E+01	1.67673892890E+02	-3.96776357766E+01	8.49416369517E+01	-5.88187809673E+00	-1.37783520032E+00
2.07530836760E+06	-9.22144068793E+00	1.78734445355E+02	1.37446244450E+01	1.67474838373E+02	-4.61245034669E+01	-1.73796627915E+02	-5.87701020994E+00	-1.12280762585E+00
2.09749972219E+06	-1.21560518342E+01	-1.56860038239E+02	1.37990571628E+01	1.67245290489E+02	-4.47933116191E+01	6.21426048481E+01	-5.88603462171E+00	-1.28969123455E+00
2.11969107679E+06	-1.35545262557E+01	-1.67778672618E+02	1.38209857928E+01	1.67291662321E+02	-4.46505557496E+01	-4.71402813508E+01	-5.88392439015E+00	-1.07290235717E+00
2.14188243138E+06	-1.49609453414E+01	-1.41227398462E+02	1.38538661870E+01	1.67102723422E+02	-4.04078773154E+01	1.54635311498E+02	-5.85199832767E+00	-1.14075364304E+00
2.16407378598E+06	-1.20665450028E+01	-1.68648955718E+02	1.37699649666E+01	1.66945875704E+02	-4.07802840166E+01	-1.36180365816E+02	-5.85230700926E+00	-9.13480094565E-01
2.18626514057E+06	-1.35888609301E+01	-1.66922154590E+02	1.37949193356E+01	1.66878566516E+02	-4.70748510581E+01	-3.67436024081E+01	-5.88256045802E+00	-9.97718171688E-01
2.20845649517E+06	-1.18352304734E+01	-1.75969015140E+02	1.37854245456E+01	1.66608187994E+02	-5.27196479171E+01	-2.91591421469E+01	-5.86873908442E+00	-1.29213602769E+00
2.23064784976E+06	-3.00117747207E+01	2.47284275210E+01	1.38381609043E+01	1.66933071173E+02	-3.68723623432E+01	-1.13704138749E+02	-5.88950987510E+00	-1.07868535237E+00
2.25283920436E+06	-1.66667171004E+01	-1.79306334161E+02	1.38346436057E+01	1.66470880816E+02	-4.50726639855E+01	1.61945446307E+02	-5.85749941828E+00	-1.19596063414E+00
2.27503055895E+06	-1.33017364615E+01	-1.62425149372E+02	1.38088136224E+01	1.66118506405E+02	-4.87678848245E+01	1.24833259909E+01	-5.91561670355E+00	-1.23653285814E+00
2.29722191355E+06	-1.35291352558E+01	-1.75736891982E+02	1.37708121076E+01	1.66177674044E+02	-4.91335531709E+01	-7.12460416203E+01	-5.85794583824E+00	-1.12658097114E+00
2.31941326814E+06	-1.51708455414E+01	-1.68204893788E+02	1.38112651334E+01	1.66047488693E+02	-3.85900953994E+01	1.19969548920E+02	-5.81952908170E+00	-1.40087935583E+00
2.34160462274E+06	-1.38118180693E+01	-1.50508346275E+02	1.37993465943E+01	1.65737645520E+02	-5.60071744198E+01	-1.34375500933E+02	-5.87942360764E+00	-9.95881491580E-01
2.36379597733E+06	-1.08485143041E+01	-1.59319195680E+02	1.37761386781E+01	1.65337899427E+02	-3.69012479250E+01	1.04588770537E+02	-5.85149247808E+00	-1.48283770496E+00
2.38598733193E+06	-1.26052142105E+01	-1.62685135979E+02	1.37875963402E+01	1.65491114053E+02	-3.51670850331E+01	-1.44266904358E+02	-5.84453105816E+00	-7.33261624994E-01
2.40817868652E+06	-1.29096914657E+01	-1.63183694999E+02	1.38236335347E+01	1.65454701522E+02	-4.26487820179E+01	-1.61516284188E+02	-5.82541606970E+00	-1.17873901711E+00
2.43037004112E+06	-1.34590757733E+01	-1.72579591625E+02	1.38034806230E+01	1.65308673759E+02	-4.03838607314E+01	-6.77394072487E+01	-5.90429471013E+00	-1.44935481335E+00
2.45256139571E+06	-1.38607514728E+01	-1.74840471925E+02	1.38132660187E+01	1.65288753646E+02	-5.09333544791E+01	4.31694140138E+01	-5.88307293241E+00	-1.46197188670E+00
2.47475275031E+06	-1.46065478688E+01	-1.45564848441E+02	1.38497094250E+01	1.65003991953E+02	-3.86524093466E+01	-1.52314566155E+01	-5.92338842345E+00	-1.44596448840E+00
2.49694410490E+06	-1.41737420546E+01	-1.55469105959E+02	1.38043491589E+01	1.64837487427E+02	-4.56806518070E+01	1.44914240414E+02	-5.84210840785E+00	-1.13111098943E+00
2.51913545950E+06	-1.39727467413E+01	-1.56457297281E+02	1.38113401819E+01	1.64441695528E+02	-4.95781806283E+01	-1.36214066829E+02	-5.87043324588E+00	-1.16468138089E+00
2.54132681409E+06	-1.27376477023E+01	-1.55318525936E+02	1.38127925185E+01	1.64401793430E+02	-3.28616250546E+01	1.12968446048E+02	-5.81177742046E+00	-1.28802476851E+00
2.56351816869E+06	-1.12793008351E+01	-1.65554529104E+02	1.37698961968E+01	1.64380529079E+02	-5.00457016247E+01	-1.07820495185E+02	-5.87570227566E+00	-1.33127184191E+00
2.58570952328E+06	-1.25734218901E+01	-1.57287176427E+02	1.38242263637E+01	1.64282908824E+02	-4.81137899718E+01	-1.77119403818E+02	-5.86361354293E+00	-1.42336415327E+00
2.60790087788E+06	-1.23286292361E+01	1.70791474116E+02	1.37422540135E+01	1.64318052197E+02	-4.42044615817E+01	-1.56071146155E+02	-5.86344030093E+00	-9.08031286401E-01
2.63009223247E+06	-1.37179364013E+01	-1.73748777703E+02	1.37883381813E+01	1.63964311436E+02	-4.13003238626E+01	1.59294993631E+02	-5.85583683296E+00	-9.32353032316E-01
2.65228358707E+06	-1.31964757735E+01	-1.73587162126E+02	1.38081328116E+01	1.63734371651E+02	-4.33276190164E+01	-7.31064467737E+01	-5.88701659759E+00	-1.10292125581E+00
2.67447494166E+06	-1.62569152971E+01	-1.68200731791E+02	1.38373237454E+01	1.63808991832E+02	-4.29772127902E+01	-1.43370736694E+02	-5.88432303807E+00	-1.24235115272E+00
2.69666629626E+06	-1.04036972388E+01	-1.79163927302E+02	1.37614179388E+01	1.63261254683E+02	-4.23179368291E+01	-1.39439486975E+02	-5.89721986456E+00	-1.21860541452E+00
2.71885765085E+06	-1.52366545706E+01	-1.56965229856E+02	1.38445925972E+01	1.63317303438E+02	-4.89505443113E+01	9.57865837857E+01	-5.84661579593E+00	-1.51249993488E+00
2.74104900545E+06	-1.12019461934E+01	-1.63751321396E+02	1.38005729422E+01	1.63191001566E+02	-4.63099488971E+01	-1.79885457940E+02	-5.87485154421E+00	-1.46111233342E+00
2.76324036004E+06	-1.28276441794E+01	-1.54684190986E+02	1.38321881306E+01	1.63027243088E+02	-4.94515110405E+01	-6.02207315701E+01	-5.88494480779E+00	-1.26990129221E+00
2.78543171463E+06	-1.27089434555E+01	-1.63381334983E+02	1.38161296382E+01	1.62832991675E+02	-4.50525767607E+01	-3.41650532658E+01	-5.90141055361E+00	-1.30039669099E+00
2.80762306923E+06	-1.18977853568E+01	-1.64477986742E+02	1.38028037115E+01	1.62865611500E+02	-4.04029521941E+01	6.71121963349E+01	-5.85371782829E+00	-1.91216638473E+00
2.82981442382E+06	-1.30292249725E+01	-1.55773555703E+02	1.38345869988E+01	1.62495323895E+02	-4.07158330771E+01	5.52250578858E+01	-5.91126244475E+00	-1.62805598669E+00
2.85200577842E+06	-1.09040479253E+01	-1.60478608437E+02	1.38197973712E+01	1.62352941189E+02	-4.03674744618E+01	6.02001423272E+01	-5.86648659783E+00	-1.71956247573E+00
2.87419713301E+06	-1.20957208550E+01	-1.79851378214E+02	1.37973943849E+01	1.62449679128E+02	-4.40309742711E+01	-6.95241320754E+01	-5.89823584009E+00	-1.34016218521E+00
