# Hz S DB R 50
! CMT, M5065, 19127446, 24.2.4/2
! Date: 11/8/2024 5:16:30 PM
! Data: Format (Calibration Info)
! Freq	S11:dB/Ang(F2)	S21:dB/Ang(F2)	S12:dB/Ang(F2)	S22:dB/Ang(F2)
3.00000000000E+05	-1.28571953978E+01	-1.73711059190E+02	1.30655622150E+01	-1.77123449209E+02	-4.90952200292E+01	6.80252600504E+01	-5.84521143998E+00	-5.13685289020E-01
3.22191354595E+05	-1.42481145268E+01	-1.76667115887E+02	1.30895888828E+01	-1.77603354220E+02	-4.11200670417E+01	-1.46877624057E+02	-5.82589875984E+00	-1.06167371062E-01
3.44382709190E+05	-1.12432034971E+01	-1.74050280864E+02	1.30601715356E+01	-1.78053608344E+02	-4.31104334110E+01	-1.63745477856E+02	-5.81003891086E+00	-2.16229530846E-01
3.66574063785E+05	-1.47674337638E+01	1.75136737382E+02	1.30984505798E+01	-1.78254645031E+02	-4.21204024279E+01	1.41456756759E+02	-5.87989454467E+00	-5.22900819346E-01
3.88765418380E+05	-1.09366492896E+01	1.77050094741E+02	1.31479020687E+01	-1.78452770171E+02	-4.03514634787E+01	4.06604446156E+01	-5.78330369945E+00	-9.06223953013E-01
4.10956772975E+05	-1.39861406170E+01	1.68170194504E+02	1.30995521674E+01	-1.79014670140E+02	-4.83209303559E+01	9.24220507093E+01	-5.85676619089E+00	-4.81794407335E-01
4.33148127570E+05	-1.67072365512E+01	-1.74347428714E+02	1.31294982535E+01	-1.79427322908E+02	-5.11903831476E+01	-2.08889133570E+01	-5.86583181207E+00	-3.26926989548E-01
4.55339482165E+05	-1.26402916594E+01	-1.73933258899E+02	1.30841047682E+01	-1.79734725480E+02	-5.18731847041E+01	-3.44110965460E+01	-5.87794501813E+00	-3.47437025373E-01
4.77530836760E+05	-1.62007949510E+01	-1.61671289599E+02	1.31281740110E+01	1.79939313701E+02	-6.89436779551E+01	1.73999597024E+02	-5.86703300249E+00	-3.18791371483E-01
4.99722191355E+05	-1.67523908390E+01	-1.66488109473E+02	1.31232099845E+01	1.79629420184E+02	-4.73821848425E+01	-1.20943602314E+02	-5.85551678149E+00	-3.24567516096E-01
5.21913545950E+05	-1.16451770598E+01	1.79586372396E+02	1.30771892269E+01	1.79327792508E+02	-5.91394913857E+01	-3.19314170816E+00	-5.86081378928E+00	-3.23283408490E-01
5.44104900545E+05	-1.46718777159E+01	-1.76404578226E+02	1.31130329889E+01	1.79209977071E+02	-5.01910813066E+01	-4.11282377438E+01	-5.86978355233E+00	-2.03363731435E-01
5.66296255139E+05	-1.24450330835E+01	-1.70852646333E+02	1.31091752357E+01	1.78940678717E+02	-4.74425659176E+01	1.72672359934E+02	-5.85931154445E+00	-3.35719559418E-01
5.88487609734E+05	-1.37183248104E+01	-1.69914491829E+02	1.31053620722E+01	1.78728449292E+02	-4.82943181726E+01	-1.74006958039E+02	-5.87394572145E+00	-2.92282148319E-01
6.10678964329E+05	-1.39520515040E+01	1.77863182174E+02	1.31263961149E+01	1.78566921805E+02	-4.46735869263E+01	-3.01583004609E+01	-5.89432978474E+00	1.77972385557E-01
6.32870318924E+05	-1.38372368047E+01	-1.75250724893E+02	1.31276510973E+01	1.78222330404E+02	-5.19888844378E+01	9.29256385617E+01	-5.88649932355E+00	-2.28593657136E-01
6.55061673519E+05	-1.32201778350E+01	-1.77364334885E+02	1.30932489828E+01	1.78142525532E+02	-5.24483010388E+01	8.06853668290E+01	-5.89166144883E+00	-3.77461551451E-01
6.77253028114E+05	-1.46889911658E+01	1.74922934643E+02	1.30978872551E+01	1.77919115697E+02	-4.50405552824E+01	-1.57648148451E+02	-5.86563470147E+00	-7.35411527910E-01
6.99444382709E+05	-1.17352835055E+01	-1.64046390206E+02	1.30973106720E+01	1.77777643473E+02	-3.99326745075E+01	5.00098189459E+01	-5.87671454100E+00	-6.57417112396E-01
7.21635737304E+05	-1.92377546082E+01	-1.48420004236E+02	1.31161050581E+01	1.77499726648E+02	-4.05099225375E+01	-7.48731255692E+00	-5.90951902414E+00	-3.23485984439E-01
7.43827091899E+05	-1.62876278366E+01	-1.66791869777E+02	1.31167956263E+01	1.77311747713E+02	-4.96391957236E+01	-1.57896930905E+02	-5.88204444007E+00	-3.77578646602E-01
7.66018446494E+05	-1.20986830908E+01	1.74313380804E+02	1.30812237036E+01	1.77239420465E+02	-4.61707257108E+01	1.65009864912E+02	-5.86117024731E+00	-4.91263107299E-01
7.88209801089E+05	-1.58467093161E+01	1.79583156168E+02	1.30923225249E+01	1.77110690333E+02	-4.38599144508E+01	-1.55212536343E+01	-5.87396104099E+00	-4.34811465754E-01
8.10401155684E+05	-1.45000954825E+01	-1.70697769905E+02	1.31328592451E+01	1.76698019113E+02	-4.29763209113E+01	-1.41198933295E+02	-5.84854871169E+00	-4.30083413083E-01
8.32592510279E+05	-1.35210474477E+01	-1.69601567656E+02	1.30939820513E+01	1.76475109667E+02	-4.37592888843E+01	3.14352825394E+01	-5.87788936801E+00	-6.91596811200E-01
8.54783864874E+05	-1.03702320588E+01	1.72252276662E+02	1.30619018864E+01	1.76461987580E+02	-5.01685175242E+01	5.37476601668E+01	-5.89715686575E+00	-4.98307422230E-01
8.76975219469E+05	-1.66710465059E+01	1.77601149883E+02	1.31061505559E+01	1.76257104497E+02	-5.59911383244E+01	-8.48996777904E+01	-5.84759484481E+00	-3.97263566024E-01
8.99166574064E+05	-1.21901036975E+01	1.72063922479E+02	1.30654473115E+01	1.76120364839E+02	-4.30034890191E+01	1.32929982872E+02	-5.82884866541E+00	-6.52826716543E-01
9.21357928659E+05	-1.48411506685E+01	-1.65980683140E+02	1.31176412665E+01	1.75985177291E+02	-5.55076260917E+01	-5.39940162651E+01	-5.86721058369E+00	-6.66919332479E-01
9.43549283254E+05	-1.42347643556E+01	1.74736115046E+02	1.31129055125E+01	1.75846331908E+02	-4.73325435240E+01	-1.45944910604E+02	-5.85252363288E+00	-2.79354878493E-01
9.65740637849E+05	-9.86711545001E+00	-1.67837974705E+02	1.30963161638E+01	1.75184861706E+02	-4.57771441449E+01	-6.94412063830E+01	-5.87408194107E+00	-3.84628980768E-01
9.87931992444E+05	-1.17083345739E+01	-1.76507596081E+02	1.30881936720E+01	1.75393452632E+02	-4.37706578637E+01	-2.90981849223E+01	-5.89194009137E+00	-4.36869572500E-01
1.01012334704E+06	-1.30051669127E+01	-1.70976290757E+02	1.30801353569E+01	1.75244722213E+02	-4.25004319064E+01	-5.76155008689E+01	-5.90062743389E+00	-4.69566760911E-01
1.03231470163E+06	-1.49366981369E+01	1.79445543704E+02	1.31233055692E+01	1.75004190858E+02	-4.40442427022E+01	1.74657857763E+02	-5.87358147931E+00	-5.48281067173E-01
1.05450605623E+06	-1.22268700871E+01	-1.64851664581E+02	1.30640595638E+01	1.74980184641E+02	-4.12395784373E+01	9.60780430356E+01	-5.87457378653E+00	-9.58186321399E-01
1.07669741082E+06	-1.41350487363E+01	-1.59713030727E+02	1.31432877859E+01	1.74764047698E+02	-4.62423029559E+01	-1.09265266447E+02	-5.73716131038E+00	-7.73240898153E-01
1.09888876542E+06	-1.62324353317E+01	-1.65939319186E+02	1.31204041375E+01	1.74764877718E+02	-4.31462965465E+01	-1.26967083689E+02	-5.84123270243E+00	-4.91400122448E-01
1.12108012001E+06	-1.50782788840E+01	-1.67513301542E+02	1.31307552063E+01	1.74499790423E+02	-5.26228729424E+01	-7.47367266714E+01	-5.89179380168E+00	-4.88753379351E-01
1.14327147461E+06	-1.19002902587E+01	-1.72432651293E+02	1.31000393064E+01	1.74312225861E+02	-4.09316292370E+01	-9.42981695253E+01	-5.89634433302E+00	-3.90543813576E-01
1.16546282920E+06	-1.23084861679E+01	-1.64680452559E+02	1.31080419078E+01	1.74202048910E+02	-4.81607162341E+01	4.06428651882E+01	-5.88138269898E+00	-7.13073088795E-01
1.18765418380E+06	-1.24606305505E+01	-1.43227174823E+02	1.31248069702E+01	1.73480033994E+02	-3.93711488568E+01	1.67924961686E+02	-5.82257226512E+00	-5.23381973598E-01
1.20984553839E+06	-1.20928472863E+01	-1.68392986048E+02	1.30997019103E+01	1.73541063710E+02	-5.04335638060E+01	8.75317475695E+01	-5.88718688022E+00	-8.47321040990E-01
1.23203689299E+06	-1.35426768884E+01	-1.56592438756E+02	1.31403674256E+01	1.73539741796E+02	-4.28139276962E+01	3.58836861894E-01	-5.92166111934E+00	-4.09131283651E-01
1.25422824758E+06	-1.55844653020E+01	-1.77032810554E+02	1.31140625224E+01	1.73593030649E+02	-5.11678545898E+01	1.00355054104E+02	-5.86041473171E+00	-6.18382927582E-01
1.27641960218E+06	-1.35205909992E+01	-1.65346139927E+02	1.31010431161E+01	1.73256233800E+02	-4.16548998745E+01	-2.30000769608E+01	-5.91791518163E+00	-6.13570564635E-01
1.29861095677E+06	-1.19484342285E+01	-1.75632052247E+02	1.30893468185E+01	1.73120215208E+02	-5.84435524844E+01	1.10231280716E+02	-5.88773374171E+00	-7.91165039423E-01
1.32080231137E+06	-8.85259669520E+00	-1.54512837026E+02	1.30817501121E+01	1.72796710021E+02	-4.43151870473E+01	3.84075181928E+00	-5.86717960497E+00	-1.07459303852E+00
1.34299366596E+06	-1.20362851461E+01	1.68991160478E+02	1.30875879816E+01	1.73139442528E+02	-4.44607898978E+01	-1.06735031817E+01	-5.90415065876E+00	-9.66298157681E-01
1.36518502056E+06	-1.57135076230E+01	-1.56441055596E+02	1.31008670761E+01	1.72661399142E+02	-4.04859367389E+01	1.79369770776E+02	-5.84031769191E+00	-6.57569603952E-01
1.38737637515E+06	-1.19080205270E+01	-1.53718323263E+02	1.31103421162E+01	1.72386011062E+02	-4.33799967802E+01	-1.84784258937E+01	-5.88670188792E+00	-7.47857675722E-01
1.40956772975E+06	-1.51223520026E+01	-1.63246489993E+02	1.31224435578E+01	1.72604433845E+02	-4.40368701222E+01	-4.12418403128E+01	-5.89033682278E+00	-8.28648466535E-01
1.43175908434E+06	-1.28739358831E+01	1.72866616827E+02	1.30802450952E+01	1.72528246679E+02	-4.62099553306E+01	-1.37356153479E+00	-5.88555484615E+00	-7.27407559806E-01
1.45395043894E+06	-1.60548521213E+01	-1.71809023769E+02	1.31248847324E+01	1.72293099228E+02	-6.32519346738E+01	-8.44887979603E-01	-5.86197072975E+00	-7.75225362459E-01
1.47614179353E+06	-8.40683529318E+00	-1.55328817423E+02	1.30874095148E+01	1.71680201150E+02	-3.94067468721E+01	6.25721370612E+01	-5.86122808040E+00	-9.13673016560E-01
1.49833314813E+06	-1.35717614403E+01	-1.64368656315E+02	1.30771627254E+01	1.71921196712E+02	-4.16513163473E+01	-1.78156174386E+02	-5.84442929544E+00	-5.58750169332E-01
1.52052450272E+06	-1.37400806301E+01	1.77931043416E+02	1.30959368246E+01	1.71891884685E+02	-4.10729443226E+01	4.07645966115E+01	-5.89930198977E+00	-9.32561447920E-01
1.54271585732E+06	-1.31703638870E+01	-1.61516351295E+02	1.31282083698E+01	1.71501172808E+02	-4.84938898120E+01	6.28669970336E+01	-5.86523425738E+00	-9.60978143963E-01
1.56490721191E+06	-1.44278370155E+01	-1.72704707920E+02	1.31049164321E+01	1.71519354735E+02	-4.17175741637E+01	2.47326319077E+00	-5.91249169435E+00	-7.19467920633E-01
1.58709856651E+06	-1.22917854527E+01	-1.76614266176E+02	1.30978426598E+01	1.71247291761E+02	-5.19611192783E+01	-1.18626109122E+01	-5.87453881075E+00	-7.55364593708E-01
1.60928992110E+06	-1.35948190444E+01	-1.58294130451E+02	1.31371648251E+01	1.71180380208E+02	-4.14901789220E+01	4.77664318226E+01	-5.86398917348E+00	-1.13158389465E+00
1.63148127570E+06	-2.18003506892E+01	-1.45243797696E+02	1.31290212916E+01	1.71330864636E+02	-4.19106563059E+01	-1.16266344844E+02	-5.86508096946E+00	-6.67961442134E-01
1.65367263029E+06	-2.59718046512E+01	6.99621818157E+01	1.31454688009E+01	1.71331487336E+02	-3.86990889517E+01	-5.29044890068E+01	-5.92621920229E+00	-7.99005502829E-01
1.67586398489E+06	-1.44052532382E+01	-1.69497699053E+02	1.31065876576E+01	1.70682098345E+02	-4.53262489215E+01	-1.50230064982E+02	-5.84908530906E+00	-8.95754579169E-01
1.69805533948E+06	-1.64106703874E+01	-1.64818704043E+02	1.31429232438E+01	1.70814345739E+02	-4.98080234541E+01	-1.26181584637E+02	-5.87259593424E+00	-8.95532382282E-01
1.72024669408E+06	-1.49806320832E+01	-1.54109073839E+02	1.31242335960E+01	1.70321822923E+02	-4.14682181358E+01	8.49824359300E+01	-5.87166144335E+00	-1.14752519056E+00
1.74243804867E+06	-1.49917322573E+01	-1.51025900602E+02	1.31507308141E+01	1.70385250735E+02	-5.73738173749E+01	-5.91877725628E+01	-5.87199059257E+00	-1.02528112882E+00
1.76462940327E+06	-1.39692000571E+01	-1.72353396208E+02	1.31073696277E+01	1.70169284431E+02	-5.75186673283E+01	4.00685871648E+01	-5.88147346787E+00	-8.49919194560E-01
1.78682075786E+06	-1.24709310840E+01	-1.76200647842E+02	1.30632836528E+01	1.70170736474E+02	-4.78366180374E+01	-4.29228703955E+01	-5.89111805514E+00	-8.50699051868E-01
1.80901211246E+06	-9.88791336473E+00	-1.79312673807E+02	1.31172606689E+01	1.69638088120E+02	-3.97078415863E+01	-6.90105055150E+01	-5.91373898219E+00	-7.49535225915E-01
1.83120346705E+06	-1.26924758829E+01	-1.69368345081E+02	1.31046121661E+01	1.69859125220E+02	-4.26845999634E+01	4.96987760320E+00	-5.89887859053E+00	-1.11246401467E+00
1.85339482165E+06	-1.55325694858E+01	1.75865936489E+02	1.31318496763E+01	1.69802297666E+02	-4.68383319848E+01	1.69770546863E+02	-5.85463907781E+00	-1.02931108748E+00
1.87558617624E+06	-1.22097854221E+01	-1.55129243653E+02	1.31004706785E+01	1.69228881440E+02	-5.42028716231E+01	-9.69164354346E+01	-5.87283454587E+00	-8.49829560779E-01
1.89777753084E+06	-1.26664868370E+01	-1.75272591148E+02	1.31006512668E+01	1.69418086974E+02	-4.18134352950E+01	-3.70758189538E+01	-5.92100937272E+00	-1.12456719262E+00
1.91996888543E+06	-1.46068006696E+01	-1.59436508317E+02	1.31098299923E+01	1.69168978915E+02	-4.81803516153E+01	2.11981852390E+01	-5.89320586367E+00	-1.09558697382E+00
1.94216024003E+06	-1.27890613149E+01	-1.69318573503E+02	1.31096476364E+01	1.69060438927E+02	-4.71900430328E+01	4.95572073978E+01	-5.88991489617E+00	-1.29361393597E+00
1.96435159462E+06	-1.10232788140E+01	-1.58693671126E+02	1.31238500011E+01	1.68662808706E+02	-4.57128829914E+01	2.84003110940E+01	-5.88962414991E+00	-1.09548198797E+00
1.98654294922E+06	-1.38825534924E+01	-1.57404464490E+02	1.31467966347E+01	1.68689349027E+02	-3.54832374539E+01	1.13338529638E+02	-5.83347441046E+00	-1.05596445712E+00
2.00873430381E+06	-1.35164774118E+01	-1.60731314421E+02	1.31393162838E+01	1.68542431607E+02	-4.70202527599E+01	-1.49160110607E+02	-5.87089515642E+00	-9.05763485270E-01
2.03092565841E+06	-1.42510628280E+01	-1.62772198782E+02	1.31367002954E+01	1.68434628577E+02	-6.47042409836E+01	-1.14181515091E+02	-5.91229982767E+00	-8.80593371420E-01
2.05311701300E+06	-1.35698574632E+01	-1.68568092306E+02	1.31318656412E+01	1.68213681635E+02	-4.88432935772E+01	2.69520159698E+01	-5.89707103244E+00	-1.05412692309E+00
2.07530836760E+06	-1.07322090735E+01	-1.55327855597E+02	1.31205741357E+01	1.67863099478E+02	-4.68525045171E+01	-3.23734520510E+01	-5.88187543847E+00	-1.12474963286E+00
2.09749972219E+06	-1.53348480170E+01	-1.68531234501E+02	1.31162888842E+01	1.68193482551E+02	-5.17786498268E+01	-1.22266461113E+02	-5.85529038731E+00	-1.02564314397E+00
2.11969107679E+06	-1.43289570819E+01	-1.56597634695E+02	1.31384719900E+01	1.67882407782E+02	-4.34663099105E+01	6.78273706768E+01	-5.85793530008E+00	-1.18675372266E+00
2.14188243138E+06	-1.27362787381E+01	1.79580801101E+02	1.30909612732E+01	1.68018561411E+02	-3.87256395516E+01	-2.72665591676E+01	-5.91546841744E+00	-1.23979871501E+00
2.16407378598E+06	-1.19333366326E+01	-1.67809231984E+02	1.30774850944E+01	1.67747122444E+02	-3.95618332560E+01	-1.08678465200E+02	-5.88890531077E+00	-8.08342862828E-01
2.18626514057E+06	-1.28631713851E+01	-1.70653940613E+02	1.31155018764E+01	1.67515410919E+02	-4.92197706736E+01	-1.26709379862E+02	-5.87033161545E+00	-1.27755617251E+00
2.20845649517E+06	-1.06401111217E+01	-1.69024391282E+02	1.30793003047E+01	1.67475583247E+02	-4.11618696090E+01	1.51482615207E+02	-5.84532136600E+00	-1.17938738286E+00
2.23064784976E+06	-1.09518183874E+01	-1.73107635925E+02	1.30999247636E+01	1.67288397105E+02	-4.39990639109E+01	-6.84460660780E+01	-5.91420014732E+00	-1.09433318895E+00
2.25283920436E+06	-1.47874691375E+01	-1.60435565231E+02	1.31239950524E+01	1.67140921571E+02	-4.89973088135E+01	3.15882953491E+01	-5.88424618146E+00	-1.27586626989E+00
2.27503055895E+06	-1.62110666491E+01	-1.66662661562E+02	1.31155954928E+01	1.66979191988E+02	-4.19656516042E+01	2.92282892417E+01	-5.89778694377E+00	-1.26018368041E+00
2.29722191355E+06	-1.31063194193E+01	-1.65832798844E+02	1.31190099005E+01	1.66710574461E+02	-3.57065701637E+01	1.03325197482E+02	-5.85252154637E+00	-1.42839746767E+00
2.31941326814E+06	-1.29861275048E+01	-1.73329145448E+02	1.30943594851E+01	1.66770698177E+02	-4.33217891647E+01	-1.29144407090E+02	-5.83889164001E+00	-8.92801238263E-01
2.34160462274E+06	-1.33115997699E+01	-1.77725426239E+02	1.31012378018E+01	1.66461760838E+02	-4.89580940610E+01	7.08460681845E+01	-5.86042958132E+00	-1.32809347831E+00
2.36379597733E+06	-1.31522088967E+01	-1.79243152586E+02	1.30882753066E+01	1.66686849973E+02	-4.17382692333E+01	-3.73892286896E+01	-5.90611470965E+00	-1.32619568781E+00
2.38598733193E+06	-1.11317966845E+01	-1.77841329173E+02	1.30741515976E+01	1.66158973625E+02	-5.28217729227E+01	5.38782931982E+01	-5.87555765878E+00	-1.37231450756E+00
2.40817868652E+06	-1.45786559014E+01	-1.72291992699E+02	1.31058495136E+01	1.66523958022E+02	-5.14156922276E+01	1.77720857264E+02	-5.86799837483E+00	-1.30721440238E+00
2.43037004112E+06	-2.74340527206E+01	4.30092692082E+01	1.31181394413E+01	1.66848567912E+02	-4.41489423544E+01	-4.05056485215E+01	-5.88800730563E+00	-1.53133353587E+00
2.45256139571E+06	-1.49573278322E+01	-1.70557147311E+02	1.31098925583E+01	1.65893183201E+02	-4.69234657652E+01	8.07716969431E+00	-5.91538621343E+00	-1.46466790495E+00
2.47475275031E+06	-1.13326073645E+01	1.79437486969E+02	1.30858088282E+01	1.65771508680E+02	-4.72659949701E+01	5.88571767246E+01	-5.88153745400E+00	-1.36855374801E+00
2.49694410490E+06	-1.26774861482E+01	-1.79064580056E+02	1.31047910064E+01	1.65783964784E+02	-4.75192874451E+01	1.65807918408E+02	-5.85613456325E+00	-1.45196859544E+00
2.51913545950E+06	-1.58737560156E+01	1.74184021876E+02	1.31341168647E+01	1.65782848109E+02	-5.09573505694E+01	-1.11197757912E+02	-5.88220001571E+00	-1.17337736069E+00
2.54132681409E+06	-1.34690121375E+01	-1.51995055929E+02	1.31468407161E+01	1.65322031454E+02	-4.72790537200E+01	5.49669779280E+01	-5.90223415343E+00	-1.35241972683E+00
2.56351816869E+06	-1.33738047275E+01	-1.73002106892E+02	1.31075279982E+01	1.65528084146E+02	-4.58813897600E+01	4.67999312575E+01	-5.88799119467E+00	-1.42714947839E+00
2.58570952328E+06	-1.03012698400E+01	-1.75915122074E+02	1.30978438258E+01	1.64778660510E+02	-4.02054948154E+01	1.50473327782E+02	-5.85027037773E+00	-1.23169452120E+00
2.60790087788E+06	-1.12952018011E+01	-1.61714247189E+02	1.31041448464E+01	1.64870795416E+02	-3.54197524725E+01	8.04795908300E+01	-5.84780158024E+00	-1.41755847346E+00
2.63009223247E+06	-1.25182845694E+01	-1.51669143787E+02	1.31222136348E+01	1.64630571194E+02	-4.58302236319E+01	1.24178300325E+02	-5.85933242051E+00	-1.00479866860E+00
2.65228358707E+06	-1.36421344653E+01	-1.42923745613E+02	1.31861522570E+01	1.64481362776E+02	-5.32341972944E+01	-1.06505952161E+02	-5.88091920544E+00	-1.40018850367E+00
2.67447494166E+06	-1.56980682450E+01	-1.60334277648E+02	1.31753037544E+01	1.64729703583E+02	-4.62889058267E+01	7.56266595407E+01	-5.89163518598E+00	-1.49225530592E+00
2.69666629626E+06	-1.32254830974E+01	-1.62321758536E+02	1.31140234305E+01	1.64471799906E+02	-6.05997462979E+01	-2.57858600067E+01	-5.88276938493E+00	-1.23971241726E+00
2.71885765085E+06	-1.20031382592E+01	-1.62649250824E+02	1.31151883528E+01	1.64143454290E+02	-5.04458297207E+01	-3.32978979615E+01	-5.89798193369E+00	-1.47238967367E+00
2.74104900545E+06	-1.65038389178E+01	-1.44589339319E+02	1.31473221517E+01	1.64254475787E+02	-4.25939842231E+01	-1.48920367105E+02	-5.87326990968E+00	-1.48957697386E+00
2.76324036004E+06	-1.09223720543E+01	-1.61905745884E+02	1.31191925857E+01	1.63708791868E+02	-4.44677322175E+01	-1.00017775277E+02	-5.86608355040E+00	-1.35886071018E+00
2.78543171463E+06	-1.42362701202E+01	1.74145809967E+02	1.31242096862E+01	1.64109457170E+02	-5.26315392241E+01	-1.67665579044E+01	-5.89747557607E+00	-1.33713515567E+00
2.80762306923E+06	-1.23029096177E+01	-1.60718706525E+02	1.31329270909E+01	1.63568500280E+02	-3.82499999708E+01	5.42033789859E+00	-5.94126051790E+00	-1.63385598938E+00
2.82981442382E+06	-1.15990134405E+01	-1.59209352823E+02	1.31334964252E+01	1.63450859451E+02	-4.85974562958E+01	6.87593774467E+00	-5.88571014542E+00	-1.38487385967E+00
2.85200577842E+06	-1.30891157897E+01	-1.65841407656E+02	1.31284276944E+01	1.63390937346E+02	-5.83666179619E+01	-1.13839095094E+02	-5.88706066202E+00	-1.34513442346E+00
2.87419713301E+06	-1.29626943218E+01	-1.79926410332E+02	1.31182548152E+01	1.63475104031E+02	-4.60379685726E+01	1.99831006115E+01	-5.90316715433E+00	-1.55320618206E+00
