# Hz S DB R 50
! CMT, M5065, 19127446, 24.2.4/2
! Date: 11/8/2024 4:55:54 PM
! Data: Format (Calibration Info)
! Freq	S11:dB/Ang(F2)	S21:dB/Ang(F2)	S12:dB/Ang(F2)	S22:dB/Ang(F2)
3.00000000000E+05	-1.69413857842E+01	1.47744806881E+02	6.45374798761E+00	-1.77367207699E+02	-4.92821245653E+01	3.19941547319E+01	-5.85533662696E+00	-2.33779265986E-01
3.22191354595E+05	-1.80304068343E+01	-1.75785179391E+02	6.45576774227E+00	-1.77922783836E+02	-4.22628370060E+01	-1.64773382247E+02	-5.87681433507E+00	-2.51133466919E-01
3.44382709190E+05	-1.08977168906E+01	-1.68036923977E+02	6.42416167027E+00	-1.78246111862E+02	-4.73064942957E+01	1.51693392267E+02	-5.87497054707E+00	-1.68116382070E-01
3.66574063785E+05	-1.19648889531E+01	1.79585125988E+02	6.44084261401E+00	-1.78262801729E+02	-4.10275598727E+01	-1.58712949359E+02	-5.85727463447E+00	-3.01192027985E-01
3.88765418380E+05	-1.76198027675E+01	-1.67083735629E+02	6.54517341331E+00	-1.78747229181E+02	-4.50757616662E+01	1.41986060126E+01	-5.89465468890E+00	-4.00174045773E-01
4.10956772975E+05	-1.19354345214E+01	1.57700374328E+02	6.43437891009E+00	-1.78594588876E+02	-6.42930843108E+01	-8.98393389984E+01	-5.86007512885E+00	-2.98521078790E-01
4.33148127570E+05	-1.97732078260E+01	-1.72240070659E+02	6.47424165448E+00	-1.79274870290E+02	-5.16324067576E+01	-2.46120251129E+01	-5.89084401849E+00	-4.52294417092E-01
4.55339482165E+05	-1.69330770313E+01	-1.73128275877E+02	6.48718590001E+00	-1.79185451069E+02	-4.16777725854E+01	4.50303778796E+00	-5.85003570027E+00	-3.38272049930E-01
4.77530836760E+05	-1.45304099157E+01	1.74192509828E+02	6.45633181540E+00	-1.79469336646E+02	-5.20674647480E+01	8.93688255090E+01	-5.88039598713E+00	-2.52319098015E-01
4.99722191355E+05	-1.69122549812E+01	-1.69203837246E+02	6.46680023784E+00	1.79944756364E+02	-3.88464845890E+01	1.07688303213E+02	-5.86779935215E+00	-3.89248545810E-01
5.21913545950E+05	-1.38422594661E+01	-1.47491707085E+02	6.46759783453E+00	1.79673739171E+02	-4.63970090719E+01	8.40093294723E+01	-5.86401730043E+00	-3.68012121106E-01
5.44104900545E+05	-1.45777761276E+01	1.77020122316E+02	6.50561819573E+00	1.79928010814E+02	-4.81677754462E+01	7.25993853613E+01	-5.85924423838E+00	-2.96951343467E-01
5.66296255139E+05	-1.36932346730E+01	1.65536472186E+02	6.48151123955E+00	1.79790911905E+02	-5.00357681054E+01	8.04165132656E+01	-5.84772856484E+00	-4.53231120939E-01
5.88487609734E+05	-1.53832850806E+01	-1.77158772398E+02	6.49244371118E+00	1.79695051534E+02	-4.08913223879E+01	9.66400400013E+01	-5.85119769189E+00	-3.98736534019E-01
6.10678964329E+05	-1.49121295940E+01	-1.57515443281E+02	6.50453933449E+00	1.79155849923E+02	-4.39899903761E+01	1.53848423947E+02	-5.87595615266E+00	2.30121282727E-01
6.32870318924E+05	-2.45037823911E+01	1.23044961950E+02	6.51702855910E+00	1.79122141911E+02	-5.04332736243E+01	3.64002033658E+01	-5.87520628142E+00	-2.50478004098E-01
6.55061673519E+05	-1.46098388288E+01	-1.77052089897E+02	6.50007515447E+00	1.78982745472E+02	-5.98397547679E+01	-7.18811576910E+00	-5.88102297183E+00	-2.82775154685E-01
6.77253028114E+05	-1.81402083628E+01	-1.62980984587E+02	6.54525765806E+00	1.78786986522E+02	-4.63758814834E+01	2.71695156695E+01	-5.86611735482E+00	-6.64230034316E-01
6.99444382709E+05	-1.40340042802E+01	-1.69944707817E+02	6.53518452818E+00	1.78760350166E+02	-6.00918786379E+01	-1.08486214365E+02	-5.87529421837E+00	-4.14240695930E-01
7.21635737304E+05	-1.31240206997E+01	-1.76444051950E+02	6.44703656975E+00	1.78584960402E+02	-4.56710093419E+01	7.77330733680E+01	-5.84932803276E+00	-5.52446684673E-01
7.43827091899E+05	-1.42162659689E+01	-1.76518273317E+02	6.48797777602E+00	1.78535623807E+02	-5.12180386494E+01	8.15039005681E+01	-5.87698495994E+00	-4.25371742859E-01
7.66018446494E+05	-1.68976593328E+01	-1.38306448179E+02	6.50476599575E+00	1.77926829108E+02	-4.58320022633E+01	1.63763818941E+02	-5.85040363689E+00	-4.48927596797E-01
7.88209801089E+05	-1.97549419176E+01	1.64522992455E+02	6.49269294444E+00	1.78471284512E+02	-4.56259090655E+01	-1.49630144666E+02	-5.88668017422E+00	-3.51492462476E-01
8.10401155684E+05	-1.53688145222E+01	-1.69703807669E+02	6.47721387037E+00	1.77872601822E+02	-4.92727271407E+01	-1.20772830923E+02	-5.86403470800E+00	-5.12952840352E-01
8.32592510279E+05	-1.44663306702E+01	-1.74652326437E+02	6.47837138847E+00	1.78054487816E+02	-5.04029223365E+01	-6.18470768331E+01	-5.87277583769E+00	-5.38534850803E-01
8.54783864874E+05	-1.64836907619E+01	-1.75106523315E+02	6.48737295157E+00	1.77902106425E+02	-4.58879364351E+01	1.63755378542E+02	-5.85129473872E+00	-5.27368027799E-01
8.76975219469E+05	-1.33321173111E+01	-1.78376238564E+02	6.48358919339E+00	1.77582869244E+02	-4.16767082207E+01	9.56945701265E+00	-5.87744394529E+00	-4.11175785593E-01
8.99166574064E+05	-1.67912238541E+01	-1.73276338937E+02	6.46728615340E+00	1.77538096612E+02	-4.17354444650E+01	1.05643382305E+02	-5.86015799566E+00	-5.92072894353E-01
9.21357928659E+05	-1.60130676193E+01	-1.71223122433E+02	6.50522052594E+00	1.77342665401E+02	-3.84203429526E+01	-1.55501175374E+02	-5.85543150550E+00	-4.68390849960E-01
9.43549283254E+05	-1.49967454435E+01	-1.66774633263E+02	6.47168400974E+00	1.77318788645E+02	-4.85746323931E+01	1.20574320936E+02	-5.87203997266E+00	-4.61899324118E-01
9.65740637849E+05	-1.38758500821E+01	-1.67535596937E+02	6.50856186700E+00	1.77025733435E+02	-5.33625524370E+01	1.03195239588E+02	-5.86524589500E+00	-5.25871838817E-01
9.87931992444E+05	-1.32739675448E+01	1.77768933000E+02	6.46246349241E+00	1.77185051721E+02	-4.33013640904E+01	6.02123470995E+01	-5.90569919384E+00	-5.17606937776E-01
1.01012334704E+06	-1.60112549538E+01	-1.79192657724E+02	6.50919446450E+00	1.76757215062E+02	-4.61151370814E+01	-1.80394409293E+01	-5.90045370781E+00	-5.94747623425E-01
1.03231470163E+06	-1.31130615115E+01	-1.66663695099E+02	6.49980577206E+00	1.76806807821E+02	-5.27897448109E+01	1.21376481700E+02	-5.86106556925E+00	-6.12221349537E-01
1.05450605623E+06	-1.36013152275E+01	-1.68576263653E+02	6.47434645487E+00	1.76697886126E+02	-4.68413409821E+01	3.66229425383E+01	-5.87625875590E+00	-5.55843722129E-01
1.07669741082E+06	-1.21355833570E+01	-1.62373473819E+02	6.41424706900E+00	1.76294006153E+02	-4.54280221930E+01	-1.60046259911E+01	-5.87083824400E+00	-6.67349748320E-01
1.09888876542E+06	-1.50128857166E+01	-1.60498842710E+02	6.51663231304E+00	1.76256492902E+02	-4.27595303635E+01	7.14184618626E+01	-5.86512934350E+00	-7.07038865004E-01
1.12108012001E+06	-1.14527943430E+01	-1.45023689990E+02	6.48643101596E+00	1.76034357397E+02	-3.89990448027E+01	-2.97629448931E+01	-5.86228074029E+00	-4.33604087453E-01
1.14327147461E+06	-1.60623682146E+01	-1.66737209367E+02	6.54200677132E+00	1.76136114859E+02	-3.64486545411E+01	-1.49998789597E+02	-5.83401090533E+00	-4.72120545508E-01
1.16546282920E+06	-1.58832947892E+01	-1.71149583875E+02	6.47551535498E+00	1.76202310942E+02	-4.32961430879E+01	1.40967389739E+02	-5.87066379628E+00	-5.63515826314E-01
1.18765418380E+06	-1.76110977387E+01	-1.46089047894E+02	6.54770430162E+00	1.76205489403E+02	-4.28190672013E+01	1.68546340185E+02	-5.87821512104E+00	-5.81481580366E-01
1.20984553839E+06	-1.47723673026E+01	-1.77613778705E+02	6.49228462916E+00	1.76048100576E+02	-4.88455904535E+01	-1.80051510014E+01	-5.87883090629E+00	-6.95409052473E-01
1.23203689299E+06	-1.55996889859E+01	-1.54705453199E+02	6.53462178510E+00	1.75687593791E+02	-6.14950861831E+01	-1.70935888182E+02	-5.88014688623E+00	-4.80168707137E-01
1.25422824758E+06	-1.17869496110E+01	-1.61181063595E+02	6.49069998484E+00	1.75510399572E+02	-4.79068451049E+01	-3.60178395478E+01	-5.89014778202E+00	-5.81190700935E-01
1.27641960218E+06	-1.48007375547E+01	-1.54130600060E+02	6.48777966368E+00	1.75533923074E+02	-5.09775222514E+01	8.75093050161E+01	-5.87750586833E+00	-6.74616290864E-01
1.29861095677E+06	-1.43128434322E+01	1.46976586973E+02	6.51740024267E+00	1.75900147114E+02	-4.21860199760E+01	-8.66765422818E+01	-5.86748867310E+00	-5.85624275964E-01
1.32080231137E+06	-1.55090806558E+01	-1.50287342598E+02	6.55038102789E+00	1.75521931415E+02	-4.95073648324E+01	1.77400821131E+01	-5.89336087710E+00	-1.19163694059E+00
1.34299366596E+06	-1.23327868521E+01	-1.70267859811E+02	6.47808813556E+00	1.75633794946E+02	-5.28580916613E+01	-1.55085781697E+02	-5.86016477415E+00	-8.20560605826E-01
1.36518502056E+06	-1.57232846885E+01	-1.70742780120E+02	6.53111558024E+00	1.75185222458E+02	-4.85179141106E+01	-1.39589696841E+02	-5.86398924419E+00	-7.56943861220E-01
1.38737637515E+06	-1.52540397701E+01	-1.42014766237E+02	6.53208129603E+00	1.74934746001E+02	-4.76642399820E+01	1.68464144855E+02	-5.86952758472E+00	-5.96744964083E-01
1.40956772975E+06	-1.39396145934E+01	-1.62458655661E+02	6.49341217043E+00	1.75093586353E+02	-4.11269456150E+01	1.16288797509E+01	-5.87627558238E+00	-8.20652258903E-01
1.43175908434E+06	-1.40392165692E+01	1.68751536312E+02	6.48548261978E+00	1.74851672321E+02	-4.57897670961E+01	5.28792172413E+01	-5.87758050915E+00	-8.11096131565E-01
1.45395043894E+06	-1.54660853921E+01	-1.59411121401E+02	6.49500630183E+00	1.74944125202E+02	-4.39753945214E+01	-1.05313168065E+02	-5.88819561149E+00	-6.20364393551E-01
1.47614179353E+06	-1.44824015310E+01	-1.76464545426E+02	6.49580395951E+00	1.74831513721E+02	-4.61040388916E+01	1.00934968221E+01	-5.90456974757E+00	-7.16441760947E-01
1.49833314813E+06	-1.52000722291E+01	-1.61370809314E+02	6.53486991577E+00	1.74809911990E+02	-4.51872575500E+01	-7.35515099362E+01	-5.88121347430E+00	-7.48769000815E-01
1.52052450272E+06	-1.70932146681E+01	-1.43975947124E+02	6.54457282624E+00	1.74506444447E+02	-4.06322728915E+01	-1.93794710232E+01	-5.88232878703E+00	-7.18190425051E-01
1.54271585732E+06	-1.22413036792E+01	1.79664534649E+02	6.45021012174E+00	1.74396104587E+02	-5.52868586486E+01	1.85892449257E+01	-5.87775756511E+00	-9.58087505191E-01
1.56490721191E+06	-1.48966253214E+01	-1.18090768454E+02	6.60205680081E+00	1.74213623945E+02	-3.83238898169E+01	1.72391557482E+02	-5.84361262455E+00	-8.17576481888E-01
1.58709856651E+06	-1.40232134575E+01	-1.56753991581E+02	6.50978122709E+00	1.74155524754E+02	-4.64545079126E+01	-7.09058359503E+01	-5.87137558716E+00	-8.22308449413E-01
1.60928992110E+06	-1.50802122734E+01	-1.70771834436E+02	6.52555887200E+00	1.74210164207E+02	-5.38404231930E+01	-6.13101425412E+01	-5.86377360946E+00	-8.82302678752E-01
1.63148127570E+06	-1.40826686396E+01	-1.53036999813E+02	6.52806729531E+00	1.73872958470E+02	-4.22717387376E+01	1.77916888398E+02	-5.88374496253E+00	-8.49188260762E-01
1.65367263029E+06	-1.36860370924E+01	-1.57319408516E+02	6.53510333514E+00	1.73804783109E+02	-4.26509483157E+01	1.74267030104E+02	-5.86548878703E+00	-9.51301266823E-01
1.67586398489E+06	-1.63330173168E+01	-1.61789180388E+02	6.48774091680E+00	1.73818781123E+02	-5.07104257365E+01	9.30557338574E+00	-5.88247186335E+00	-8.80157474673E-01
1.69805533948E+06	-1.23868683989E+01	-1.48694186293E+02	6.49481297152E+00	1.73604163428E+02	-4.57183350269E+01	-5.70165115711E+01	-5.88224412775E+00	-9.52278480608E-01
1.72024669408E+06	-9.81515792451E+00	-1.18662033244E+02	6.56584571234E+00	1.73214097907E+02	-5.47115528403E+01	-9.96561403285E+01	-5.85675140015E+00	-9.45453961461E-01
1.74243804867E+06	-1.34230980797E+01	-1.67439119748E+02	6.50215569937E+00	1.73811858738E+02	-5.30946506329E+01	4.30298870660E+01	-5.87150262689E+00	-9.61867263221E-01
1.76462940327E+06	-1.69375546271E+01	-1.60710850407E+02	6.49565695542E+00	1.73583384753E+02	-4.69600581784E+01	7.73223338491E+01	-5.85824835613E+00	-1.05977972750E+00
1.78682075786E+06	-1.35199586184E+01	-1.73340088592E+02	6.53121970922E+00	1.73183389697E+02	-4.78148875924E+01	7.40522738353E+01	-5.86833333346E+00	-1.17541433515E+00
1.80901211246E+06	-1.26277239580E+01	-1.41967727048E+02	6.52677520738E+00	1.72932213627E+02	-4.89151055843E+01	1.09565128601E+02	-5.87040695268E+00	-9.08410488628E-01
1.83120346705E+06	-1.25124697282E+01	-1.56203755233E+02	6.52865022620E+00	1.73165622848E+02	-5.40627481742E+01	1.38646226102E+01	-5.87539395025E+00	-9.96217071278E-01
1.85339482165E+06	-2.00208275523E+01	-1.33585051398E+02	6.57605000158E+00	1.73192378743E+02	-4.57006623825E+01	1.39161474497E+02	-5.87401072822E+00	-1.12353968631E+00
1.87558617624E+06	-1.18709494094E+01	1.49499881940E+02	6.44851961587E+00	1.73144492858E+02	-5.87011139397E+01	5.23864481514E+01	-5.87887775267E+00	-9.68427228815E-01
1.89777753084E+06	-1.48962266426E+01	-1.65292721155E+02	6.51093452141E+00	1.72947632163E+02	-5.91059728248E+01	1.70120992931E+02	-5.86671264760E+00	-8.92873192580E-01
1.91996888543E+06	-1.20738793536E+01	-1.49754966073E+02	6.53248601231E+00	1.72534489251E+02	-4.17317369977E+01	9.33888328622E+01	-5.86452043234E+00	-1.02211977816E+00
1.94216024003E+06	-1.26007127011E+01	-1.70808003484E+02	6.45923124545E+00	1.72643165018E+02	-6.21975395930E+01	1.08056087204E+02	-5.87155887552E+00	-8.51086931705E-01
1.96435159462E+06	-1.71372377426E+01	1.75906962348E+02	6.57824153529E+00	1.72811774449E+02	-4.56848473312E+01	-6.43102463188E+01	-5.87290143898E+00	-1.00492465107E+00
1.98654294922E+06	-1.52924170279E+01	-1.51381649262E+02	6.52793785306E+00	1.72392865453E+02	-4.23970563266E+01	-2.04277947833E-01	-5.88733005100E+00	-9.75147760036E-01
2.00873430381E+06	-1.50802312480E+01	-1.79595298677E+02	6.50167775166E+00	1.72360811770E+02	-4.24862678908E+01	3.48640730188E+01	-5.86688703972E+00	-1.13104410226E+00
2.03092565841E+06	-1.43209743476E+01	-1.31141006218E+02	6.55966367250E+00	1.71852227322E+02	-5.36739004101E+01	-3.80975946016E+01	-5.89283376535E+00	-1.08791082004E+00
2.05311701300E+06	-1.35764691010E+01	-1.74393110031E+02	6.50061599264E+00	1.71817889278E+02	-4.53170623275E+01	2.31269753454E+01	-5.86980871833E+00	-1.08898818542E+00
2.07530836760E+06	-1.41048046658E+01	-1.79165489261E+02	6.50812438582E+00	1.72381771859E+02	-4.00779766307E+01	1.34043164333E+02	-5.83122353749E+00	-1.14272772017E+00
2.09749972219E+06	-1.15744783173E+01	-1.57626650377E+02	6.50287980749E+00	1.71965737069E+02	-4.48079887917E+01	-2.01704988480E+01	-5.88127341346E+00	-1.11537816785E+00
2.11969107679E+06	-1.10785733322E+01	-1.34643266838E+02	6.53111939088E+00	1.71828845978E+02	-4.88709522384E+01	3.47762147748E+01	-5.87592208324E+00	-1.13092269800E+00
2.14188243138E+06	-1.49625124683E+01	-1.69581143433E+02	6.51780071984E+00	1.71870596756E+02	-4.17316156268E+01	2.80957226559E+01	-5.89816978986E+00	-1.19593588258E+00
2.16407378598E+06	-1.35715503212E+01	1.77948238354E+02	6.51413136434E+00	1.71981594377E+02	-4.69154215510E+01	1.38144745721E+02	-5.84937679660E+00	-1.19509178984E+00
2.18626514057E+06	-1.41798699024E+01	-9.16543027093E+01	6.63002629620E+00	1.71843810016E+02	-4.03739568401E+01	1.46593373941E+02	-5.85021525849E+00	-1.08821030298E+00
2.20845649517E+06	-1.17269458249E+01	-1.46668305591E+02	6.55261806646E+00	1.71408103572E+02	-4.57005965840E+01	-9.32939167830E+01	-5.87335593362E+00	-1.15664702575E+00
2.23064784976E+06	-1.45307218703E+01	-1.59435051180E+02	6.49295315408E+00	1.71338054658E+02	-3.90366201450E+01	1.16008760426E+02	-5.85836977680E+00	-1.14138163040E+00
2.25283920436E+06	-1.76715404978E+01	-1.58282358929E+02	6.48548547114E+00	1.71619205522E+02	-5.15203104184E+01	1.00558786975E+02	-5.87824196701E+00	-1.33423723217E+00
2.27503055895E+06	-1.40193482457E+01	-1.56624976993E+02	6.49516823667E+00	1.71270286097E+02	-4.78328365687E+01	1.46060012643E+02	-5.85508186934E+00	-1.29059547661E+00
2.29722191355E+06	-1.41147838548E+01	-1.67425246571E+02	6.52682175839E+00	1.71432321759E+02	-3.87937222990E+01	7.41376727630E+01	-5.87884375126E+00	-1.31207252919E+00
2.31941326814E+06	-1.29630357244E+01	-1.54141357981E+02	6.54739048810E+00	1.71194702263E+02	-4.71049042772E+01	9.56540794509E+01	-5.88615034349E+00	-1.27327814850E+00
2.34160462274E+06	-1.60517278956E+01	-1.45793075637E+02	6.52239323207E+00	1.70866283688E+02	-4.37236530284E+01	6.77375322443E+01	-5.88141633820E+00	-1.34401859479E+00
2.36379597733E+06	-1.29887836767E+01	-1.64435046430E+02	6.57158629000E+00	1.70921615446E+02	-4.55807344084E+01	7.16604774330E+01	-5.86988710494E+00	-1.29979190250E+00
2.38598733193E+06	-1.19008117613E+01	-1.48500165581E+02	6.51821611979E+00	1.70671671279E+02	-2.85486375956E+01	-8.84254062352E+01	-5.90520846845E+00	-9.17248578521E-01
2.40817868652E+06	-1.33795033174E+01	-1.51250364303E+02	6.52776039753E+00	1.70560758968E+02	-5.12685167170E+01	7.75212209735E+01	-5.89288332737E+00	-1.49128527871E+00
2.43037004112E+06	-1.31729771036E+01	-1.68737094587E+02	6.53883321096E+00	1.70748792867E+02	-4.13597920137E+01	1.21252316781E+02	-5.84949235712E+00	-1.64067736769E+00
2.45256139571E+06	-1.24693945148E+01	-1.79429527133E+02	6.53793041641E+00	1.70494056118E+02	-4.38642024857E+01	-7.61871554368E+01	-5.87337034122E+00	-1.01998396880E+00
2.47475275031E+06	-1.52447318524E+01	-1.57720500780E+02	6.52612016021E+00	1.70363936114E+02	-4.52558114038E+01	1.94993651433E-01	-5.89258177093E+00	-1.13068515446E+00
2.49694410490E+06	-1.76453156169E+01	-1.51022459492E+02	6.53027486995E+00	1.70480560203E+02	-4.76683574605E+01	-3.78185384718E+01	-5.87415843975E+00	-1.29197719537E+00
2.51913545950E+06	-1.45250753249E+01	-1.63630890406E+02	6.49360397172E+00	1.70566891805E+02	-4.28051705998E+01	1.78320779689E+02	-5.87375428305E+00	-1.25198168896E+00
2.54132681409E+06	-1.44106085112E+01	-1.68124724120E+02	6.55030649598E+00	1.70098674430E+02	-3.83193393002E+01	4.51538024611E+01	-5.87477423452E+00	-1.34754923852E+00
2.56351816869E+06	-1.64476834002E+01	-1.56507521974E+02	6.55643758670E+00	1.70001129019E+02	-4.50860148902E+01	1.09247983961E+02	-5.86190522302E+00	-1.36457400494E+00
2.58570952328E+06	-1.31410257758E+01	-1.44379391757E+02	6.55603202611E+00	1.69732865170E+02	-4.22024112717E+01	1.71094437039E+02	-5.84556654609E+00	-1.34613402444E+00
2.60790087788E+06	-1.20166565305E+01	-1.60901487762E+02	6.53974351887E+00	1.69828985600E+02	-4.76782804728E+01	6.30587078264E+01	-5.87218657973E+00	-1.28908816363E+00
2.63009223247E+06	-1.40274749419E+01	-1.51683323561E+02	6.51268216580E+00	1.69853399259E+02	-4.78409655216E+01	-2.28250204568E+01	-5.85266816379E+00	-1.07460803485E+00
2.65228358707E+06	-1.43686993176E+01	-1.75001714316E+02	6.53556429532E+00	1.69503995125E+02	-4.21767217119E+01	1.41548734213E+02	-5.87356969637E+00	-1.25675331837E+00
2.67447494166E+06	-1.11761191590E+01	-1.49114512061E+02	6.56027572371E+00	1.69380879616E+02	-4.81463632862E+01	-9.39729337246E+01	-5.89439860554E+00	-1.33676907489E+00
2.69666629626E+06	-1.35673491663E+01	-1.57523356111E+02	6.56643214131E+00	1.69429347092E+02	-4.53147498717E+01	-3.32210147012E+01	-5.87916292863E+00	-1.39114592254E+00
2.71885765085E+06	-1.20139917014E+01	-1.50192783630E+02	6.57108614905E+00	1.69155682895E+02	-4.05281215757E+01	1.57825175994E+02	-5.87274295193E+00	-1.40512487682E+00
2.74104900545E+06	-1.48131237740E+01	-1.48083810381E+02	6.57982090981E+00	1.69414778603E+02	-4.20013976797E+01	7.63378802719E+01	-5.88793456164E+00	-1.41926202912E+00
2.76324036004E+06	-1.43680624142E+01	-1.68966589700E+02	6.53925504442E+00	1.69470576241E+02	-4.92313641988E+01	-1.08317986665E+02	-5.88942999677E+00	-1.36440126783E+00
2.78543171463E+06	-1.63445453830E+01	-1.62898815397E+02	6.51861011621E+00	1.69324261475E+02	-4.05346862010E+01	-1.97511554198E+01	-5.89092599987E+00	-1.40485026723E+00
2.80762306923E+06	-1.18615588532E+01	-1.67601100715E+02	6.54103055002E+00	1.69056268912E+02	-4.38556108316E+01	-1.02597210178E+02	-5.86134101435E+00	-1.38700716414E+00
2.82981442382E+06	-1.08247140695E+01	1.65526555812E+02	6.46302080160E+00	1.68881432409E+02	-4.16454412642E+01	7.88554006985E+01	-5.86166346570E+00	-1.53341254132E+00
2.85200577842E+06	-1.36298256233E+01	-1.72991001595E+02	6.52127685034E+00	1.68960539437E+02	-4.43577745671E+01	-9.30354043541E+01	-5.86916566597E+00	-1.26178788624E+00
2.87419713301E+06	-1.48601983601E+01	-1.54542772842E+02	6.57539230082E+00	1.69075128445E+02	-4.77601267432E+01	-1.50911686569E+00	-5.86657366061E+00	-1.53308969918E+00
