# Hz S DB R 50
! CMT, M5065, 19127446, 24.2.4/2
! Date: 11/8/2024 5:14:44 PM
! Data: Format (Calibration Info)
! Freq	S11:dB/Ang(F2)	S21:dB/Ang(F2)	S12:dB/Ang(F2)	S22:dB/Ang(F2)
3.00000000000E+05	-1.44290501836E+01	-1.76620698646E+02	1.20194169691E+01	-1.77091936688E+02	-5.00362845781E+01	1.67000685382E+02	-5.87502341214E+00	-3.90186214558E-01
3.22191354595E+05	-1.54519515775E+01	-1.70273188702E+02	1.20344694800E+01	-1.77822739636E+02	-3.94816990658E+01	-1.00428738688E+01	-5.88258490396E+00	-3.64259692374E-01
3.44382709190E+05	-1.32107939037E+01	1.77242724739E+02	1.20158349705E+01	-1.77917192462E+02	-4.32105954378E+01	-3.21543688766E+01	-5.88834583525E+00	-2.17734007286E-01
3.66574063785E+05	-1.26244945968E+01	-1.54989899882E+02	1.20321120224E+01	-1.78638147798E+02	-4.55873681118E+01	-9.20928140169E+01	-5.87075023284E+00	-2.83508496647E-01
3.88765418380E+05	-1.12197042458E+01	-1.63154504169E+02	1.18984414837E+01	-1.79424533135E+02	-4.25496379682E+01	-8.00579158194E+01	-5.88957132129E+00	-6.67535169706E-02
4.10956772975E+05	-1.26729714289E+01	-1.55306535942E+02	1.20119756989E+01	-1.79385082869E+02	-3.97074699786E+01	5.04721158658E+01	-5.88244427879E+00	-4.15000480837E-01
4.33148127570E+05	-1.43448989181E+01	1.75470579671E+02	1.20271265016E+01	-1.79465211136E+02	-4.77438541224E+01	-8.95747272827E+00	-5.86293326955E+00	-3.06389489677E-01
4.55339482165E+05	-1.29785757539E+01	-1.74432433559E+02	1.20508687831E+01	-1.79409304575E+02	-4.33353932274E+01	2.22594556583E+01	-5.87022100054E+00	-4.28988434767E-01
4.77530836760E+05	-1.49953357389E+01	-1.73485085559E+02	1.20533644870E+01	-1.79956174120E+02	-4.50314887574E+01	-1.36950797822E+02	-5.85438478014E+00	-4.57827487500E-01
4.99722191355E+05	-1.47470420459E+01	-1.75594079935E+02	1.20273237368E+01	1.79772151305E+02	-4.22182384728E+01	-1.51148610758E+02	-5.85507376435E+00	-3.82253765005E-01
5.21913545950E+05	-1.33137545200E+01	-1.57573663469E+02	1.20276757267E+01	1.79513304552E+02	-5.68765987482E+01	-6.79924018992E+01	-5.88753723973E+00	-3.71901007359E-01
5.44104900545E+05	-1.43096215595E+01	-1.73229905976E+02	1.20471547467E+01	1.79263144702E+02	-4.82983358642E+01	-1.79179426316E+02	-5.85204422868E+00	-5.05634631063E-01
5.66296255139E+05	-1.47309892218E+01	1.70667439778E+02	1.20491623638E+01	1.79213041718E+02	-4.54549783489E+01	-1.59317118719E+02	-5.85745228836E+00	-4.72799869816E-01
5.88487609734E+05	-1.38775355831E+01	-1.56067659322E+02	1.20389419120E+01	1.78641586763E+02	-5.19591451785E+01	-7.44608663608E+01	-5.85532618047E+00	-3.33483242184E-01
6.10678964329E+05	-1.29402816677E+01	-1.67575674844E+02	1.20537851301E+01	1.78639817843E+02	-5.52991282605E+01	-1.94962601600E+01	-5.87053790659E+00	6.14873962303E-02
6.32870318924E+05	-1.09873276372E+01	1.73261319690E+02	1.20081134130E+01	1.78544589709E+02	-4.61374397056E+01	1.11257186055E+02	-5.84928649986E+00	-3.71215653434E-01
6.55061673519E+05	-1.34142803210E+01	1.79192515814E+02	1.20391016183E+01	1.78258023368E+02	-3.92612050631E+01	6.40319610172E+01	-5.89044690524E+00	-4.91094714174E-01
6.77253028114E+05	-1.09475109353E+01	1.72975929157E+02	1.20235921908E+01	1.78176529421E+02	-4.49199278333E+01	-1.39890444739E+02	-5.85521799846E+00	-5.77987903251E-01
6.99444382709E+05	-9.34956308286E+00	-1.59566836655E+02	1.20180537214E+01	1.77702801924E+02	-5.05000327164E+01	-1.04351496229E+02	-5.86604110990E+00	-4.86016645054E-01
7.21635737304E+05	-1.40628041326E+01	-1.67956605353E+02	1.20682757670E+01	1.77695940768E+02	-4.04442579445E+01	4.98637605360E+00	-5.89044433687E+00	-5.33885351014E-01
7.43827091899E+05	-1.42005815220E+01	1.73240234618E+02	1.20613294056E+01	1.77556324758E+02	-4.45787152132E+01	1.66479353740E+02	-5.85101994155E+00	-3.70444600127E-01
7.66018446494E+05	-1.18903997209E+01	1.76595281843E+02	1.20355351135E+01	1.77443501502E+02	-6.37888029430E+01	1.73174934943E+02	-5.86791951652E+00	-4.18784282906E-01
7.88209801089E+05	-1.23389780841E+01	-1.73253526486E+02	1.20461722604E+01	1.77272479410E+02	-4.64781507697E+01	-1.39386518272E+02	-5.86971172394E+00	-5.52490699621E-01
8.10401155684E+05	-1.21051942007E+01	-1.50905008016E+02	1.20455204811E+01	1.76820555682E+02	-3.53260584306E+01	-3.34741982381E+01	-5.91185148023E+00	-3.38445606746E-01
8.32592510279E+05	-1.99904883215E+01	1.24098136642E+02	1.20710078765E+01	1.77096393232E+02	-4.19990051089E+01	-2.51045167213E+01	-5.90130619751E+00	-4.51546700559E-01
8.54783864874E+05	-1.58744830249E+01	-1.68904116685E+02	1.20858345240E+01	1.76774156743E+02	-5.66470461539E+01	-2.17237384187E+01	-5.89678218668E+00	-5.36562721475E-01
8.76975219469E+05	-1.19225469566E+01	-1.52230194055E+02	1.20356226596E+01	1.76196246959E+02	-4.71716496918E+01	-9.47404961855E+01	-5.89831075581E+00	-5.80754932524E-01
8.99166574064E+05	-1.39187458385E+01	1.75375320381E+02	1.20261472407E+01	1.76319956133E+02	-5.06288450915E+01	1.91595383072E+01	-5.87441775224E+00	-5.88088248323E-01
9.21357928659E+05	-1.41225416857E+01	1.69604869615E+02	1.20517882321E+01	1.76371888261E+02	-5.78876178052E+01	-3.98366411552E+01	-5.87793797217E+00	-4.16039521649E-01
9.43549283254E+05	-1.32234202794E+01	-1.60211975972E+02	1.20691517665E+01	1.75865608764E+02	-4.10002888999E+01	1.61030618069E+02	-5.84894790784E+00	-6.71922976399E-01
9.65740637849E+05	-1.62450619413E+01	1.70589591128E+02	1.20932882034E+01	1.75846168549E+02	-5.16222762263E+01	6.55549325286E+01	-5.89247426378E+00	-5.58318967612E-01
9.87931992444E+05	-1.35179703641E+01	-1.65120415256E+02	1.20429458068E+01	1.75548854762E+02	-4.55244131666E+01	-6.85163402465E+01	-5.88802671160E+00	-3.91550245868E-01
1.01012334704E+06	-1.25526012308E+01	-1.77295352841E+02	1.20385999018E+01	1.75561479119E+02	-4.76025835317E+01	4.39574416462E+01	-5.86765451897E+00	-7.90983217226E-01
1.03231470163E+06	-1.52955241961E+01	1.75450838512E+02	1.20537090025E+01	1.75562349129E+02	-4.27028510754E+01	4.32165336266E+00	-5.87685588432E+00	-5.76442285329E-01
1.05450605623E+06	-1.46533726223E+01	-1.79103582790E+02	1.20347651425E+01	1.75312511621E+02	-4.78215695970E+01	1.53824351820E+02	-5.84630103149E+00	-6.37393910201E-01
1.07669741082E+06	-1.27056110407E+01	-1.75948333594E+02	1.20341844700E+01	1.75348282787E+02	-4.29133743633E+01	1.11362402761E+02	-5.83628091268E+00	-5.85995584080E-01
1.09888876542E+06	-1.17665201073E+01	1.74166602655E+02	1.20339219667E+01	1.74957423564E+02	-3.94863064442E+01	-4.92436617634E+01	-5.89135086176E+00	-4.65744827276E-01
1.12108012001E+06	-1.19271154882E+01	-1.71873175419E+02	1.20502441719E+01	1.74875278703E+02	-3.94896435100E+01	2.86323384036E+01	-5.87546580710E+00	-8.54189298235E-01
1.14327147461E+06	-1.70745942788E+01	-1.48260505085E+02	1.20777675864E+01	1.74676714127E+02	-4.84932614945E+01	6.23548506332E+01	-5.85657188342E+00	-7.00002758001E-01
1.16546282920E+06	-1.10367278937E+01	-1.76569722205E+02	1.20316561012E+01	1.74417011468E+02	-5.30448101788E+01	1.73009024464E+01	-5.89627031464E+00	-8.23798970962E-01
1.18765418380E+06	-1.50803093999E+01	1.61088462998E+02	1.20673558732E+01	1.74658850364E+02	-4.68292703051E+01	1.66342929898E+02	-5.87398425359E+00	-6.83253077581E-01
1.20984553839E+06	-1.39823883312E+01	-1.44187672149E+02	1.20913215389E+01	1.74004819207E+02	-4.00000186680E+01	-1.75714270552E+02	-5.84584212535E+00	-6.39586624093E-01
1.23203689299E+06	-1.08753588581E+01	1.74900540943E+02	1.20265832476E+01	1.74126495532E+02	-5.63214635829E+01	8.81203210845E+00	-5.87106453536E+00	-6.39197354848E-01
1.25422824758E+06	-1.26347004339E+01	-1.70479616277E+02	1.20238485253E+01	1.73889232751E+02	-4.81588926321E+01	-5.87968154567E+01	-5.87853473804E+00	-4.38830703189E-01
1.27641960218E+06	-1.21707855245E+01	1.78919073060E+02	1.20326708241E+01	1.73878615459E+02	-4.71963294322E+01	1.68974949963E+01	-5.88744834344E+00	-7.32661368383E-01
1.29861095677E+06	-1.21490271714E+01	-1.66640829375E+02	1.20310376128E+01	1.73720482825E+02	-5.30511404160E+01	3.82858859243E+01	-5.87796438559E+00	-5.75530694645E-01
1.32080231137E+06	-1.30549564947E+01	-1.59910741074E+02	1.20788537986E+01	1.73518186081E+02	-5.07582515824E+01	-3.57914178719E+01	-5.88713001640E+00	-1.12056442151E+00
1.34299366596E+06	-1.52361930011E+01	-1.77166430852E+02	1.20345366846E+01	1.73650207176E+02	-5.50987324380E+01	-1.60906184608E+02	-5.86031049735E+00	-8.47562031482E-01
1.36518502056E+06	-1.07020136670E+01	-1.62785778915E+02	1.20451662349E+01	1.73037367432E+02	-5.36567333894E+01	2.19433419045E+01	-5.86686040936E+00	-7.44879809204E-01
1.38737637515E+06	-1.05194947054E+01	-1.57328572009E+02	1.20070959289E+01	1.72902107421E+02	-4.52864276550E+01	1.69291932577E+02	-5.85537478139E+00	-8.48160617698E-01
1.40956772975E+06	-1.22752941321E+01	-1.65583413236E+02	1.20599200132E+01	1.72986445695E+02	-4.58011216603E+01	2.34891184226E+01	-5.89073950102E+00	-8.02825187397E-01
1.43175908434E+06	-1.27611158114E+01	-1.71762520201E+02	1.20389787842E+01	1.72746076859E+02	-3.63736885936E+01	1.23886067900E+02	-5.86576922799E+00	-7.64636835558E-01
1.45395043894E+06	-1.14672564016E+01	1.72506253844E+02	1.20278852669E+01	1.72648289620E+02	-5.72942767551E+01	-1.23382707594E+02	-5.87132271593E+00	-8.13558403555E-01
1.47614179353E+06	-1.28637988079E+01	-1.67786710368E+02	1.20297615243E+01	1.72418232727E+02	-4.38015593448E+01	-1.52618570565E+02	-5.85472607778E+00	-6.56814168515E-01
1.49833314813E+06	-1.10177254499E+01	-1.69736857570E+02	1.20687447389E+01	1.72212449158E+02	-5.15798335438E+01	-1.04203093633E+02	-5.88269772626E+00	-7.27550971624E-01
1.52052450272E+06	-1.29459265332E+01	-1.72142239157E+02	1.20360199274E+01	1.72399240655E+02	-5.22544010033E+01	3.35186997919E+01	-5.87047293108E+00	-8.97048396031E-01
1.54271585732E+06	-1.59537193520E+01	-1.73424395038E+02	1.20610972400E+01	1.72291258154E+02	-4.89525271204E+01	-4.89369141467E+01	-5.88283173431E+00	-8.92959074230E-01
1.56490721191E+06	-1.22978880559E+01	1.69905534669E+02	1.20160233241E+01	1.72126705124E+02	-4.22891434703E+01	1.36320618846E+02	-5.87015973705E+00	-9.14563148855E-01
1.58709856651E+06	-1.31420636525E+01	-1.77051059811E+02	1.20567365949E+01	1.71867815073E+02	-3.57948076726E+01	1.38351864476E+02	-5.82917311605E+00	-8.29143493790E-01
1.60928992110E+06	-1.16512759686E+01	-1.79235519052E+02	1.20047068688E+01	1.71999678659E+02	-4.96568779695E+01	1.45601267732E+02	-5.87943508580E+00	-8.18315900515E-01
1.63148127570E+06	-1.78074590755E+01	1.60935372689E+02	1.20461022496E+01	1.71662854081E+02	-4.10872197011E+01	-9.19513533377E+01	-5.87437063965E+00	-7.57481430901E-01
1.65367263029E+06	-1.48174912631E+01	-1.52232924990E+02	1.20911417740E+01	1.71480113939E+02	-4.70435645097E+01	-1.02773490002E+02	-5.87165486848E+00	-8.47403191072E-01
1.67586398489E+06	-1.10788763238E+01	-1.56158109113E+02	1.20627943236E+01	1.71190554815E+02	-4.52760063060E+01	-1.61902904134E+02	-5.84230126302E+00	-7.59778343535E-01
1.69805533948E+06	-1.45188968046E+01	-1.65321829459E+02	1.20667175385E+01	1.71157853311E+02	-3.90752638572E+01	2.61087979195E+01	-5.88464115895E+00	-1.15898931342E+00
1.72024669408E+06	-1.48039632676E+01	-1.58535505024E+02	1.20682896164E+01	1.70987822584E+02	-3.85740389092E+01	-1.05972192651E+02	-5.87538059796E+00	-6.87703307992E-01
1.74243804867E+06	-1.25951896008E+01	-1.66685373882E+02	1.20347015071E+01	1.70998099997E+02	-3.52729233169E+01	1.09296159098E+02	-5.82918891881E+00	-9.61886569271E-01
1.76462940327E+06	-2.08635375925E+01	-1.55313421153E+02	1.21131128345E+01	1.71112499393E+02	-4.45941806481E+01	-4.56606810228E+00	-5.89668960160E+00	-1.03833536688E+00
1.78682075786E+06	-1.19119170947E+01	1.64734413640E+02	1.20311625097E+01	1.71063101493E+02	-4.41282878773E+01	1.02925485829E+02	-5.87209701793E+00	-9.87903777852E-01
1.80901211246E+06	-1.56293603599E+01	1.57479652651E+02	1.20203962983E+01	1.70913095531E+02	-5.61566550768E+01	1.41438751392E+02	-5.86364802062E+00	-1.04300445376E+00
1.83120346705E+06	-1.25434345262E+01	-1.62419081415E+02	1.20670010386E+01	1.70380141062E+02	-4.70053199130E+01	-3.27377919900E+01	-5.88255284912E+00	-8.72184159109E-01
1.85339482165E+06	-1.08491701173E+01	-1.76948851299E+02	1.20243425380E+01	1.70154559470E+02	-4.93866666698E+01	-3.63830466236E+01	-5.88776410811E+00	-9.63497453244E-01
1.87558617624E+06	-1.25362542297E+01	-1.51499527388E+02	1.20715760134E+01	1.69899155404E+02	-4.49351662692E+01	-3.22518215389E+01	-5.89744151681E+00	-8.76611498486E-01
1.89777753084E+06	-1.25887043495E+01	-1.78126048690E+02	1.20369091721E+01	1.70033134232E+02	-3.81628931707E+01	4.73387018565E+00	-5.90032294892E+00	-1.07613335819E+00
1.91996888543E+06	-1.36649148735E+01	-1.46186805724E+02	1.20859312593E+01	1.69960674701E+02	-4.96429161885E+01	-5.00885061122E+01	-5.88525488311E+00	-9.57843293094E-01
1.94216024003E+06	-1.10305835965E+01	-1.78805458182E+02	1.20292120277E+01	1.69517119304E+02	-8.15143956535E+01	1.07047859258E+02	-5.86558892457E+00	-9.98914564527E-01
1.96435159462E+06	-1.38283123978E+01	-1.77875692362E+02	1.20268254757E+01	1.69820777067E+02	-4.06516698767E+01	-9.38777094077E+01	-5.87930139376E+00	-8.87322036021E-01
1.98654294922E+06	-1.14137952084E+01	1.78657537945E+02	1.19993387121E+01	1.69531922511E+02	-5.07426337885E+01	-1.18580642125E+02	-5.86473413188E+00	-9.66779689069E-01
2.00873430381E+06	-1.33149661934E+01	-1.78840129071E+02	1.20414139188E+01	1.69468022967E+02	-4.79866621425E+01	1.24014606116E+02	-5.84301634193E+00	-9.74485492237E-01
2.03092565841E+06	-1.42532344654E+01	-1.69029826104E+02	1.20677700377E+01	1.69382611126E+02	-5.34333597758E+01	1.10619073705E+02	-5.84143734573E+00	-1.20092750453E+00
2.05311701300E+06	-1.34711152913E+01	-1.79376339859E+02	1.20421093699E+01	1.69263303325E+02	-3.64279067382E+01	-1.77251954028E+02	-5.84685218227E+00	-9.34405962039E-01
2.07530836760E+06	-1.22908682477E+01	-1.72393102969E+02	1.20325466230E+01	1.69027874746E+02	-4.28876636456E+01	-1.77999752301E+02	-5.84980247416E+00	-1.01536487132E+00
2.09749972219E+06	-1.57035758141E+01	-1.72026313526E+02	1.20555855708E+01	1.69087630500E+02	-4.31247112630E+01	-1.78784037366E+02	-5.85495250390E+00	-9.19677121427E-01
2.11969107679E+06	-1.28025746100E+01	-1.70646738070E+02	1.20546943982E+01	1.68583058735E+02	-4.87413139962E+01	-1.71999070583E+02	-5.85863994193E+00	-1.22612202434E+00
2.14188243138E+06	-1.21988930428E+01	-1.60339651894E+02	1.20690955804E+01	1.68582689457E+02	-4.44136899943E+01	-2.78060760354E+01	-5.87875025272E+00	-1.17731130056E+00
2.16407378598E+06	-1.21318553449E+01	1.73817122515E+02	1.20253891030E+01	1.68582950797E+02	-4.74535310536E+01	-5.53174450456E+01	-5.87650785492E+00	-1.15141770468E+00
2.18626514057E+06	-1.10295368528E+01	-1.73485489690E+02	1.20283206429E+01	1.68270027193E+02	-4.60903567886E+01	-4.94948655858E+01	-5.89067707839E+00	-1.05042683869E+00
2.20845649517E+06	-1.39830280251E+01	-1.61094764750E+02	1.20834974897E+01	1.68037057780E+02	-3.51117289119E+01	1.12726472149E+02	-5.83383217144E+00	-1.31488258487E+00
2.23064784976E+06	-1.17130032482E+01	-1.51122562609E+02	1.20976076067E+01	1.67872336971E+02	-4.20224051591E+01	-6.17227766081E+01	-5.90208137367E+00	-1.17276852771E+00
2.25283920436E+06	-1.13051004607E+01	-1.58931316124E+02	1.20761869577E+01	1.67803210420E+02	-5.33650117177E+01	1.43011424559E+02	-5.87371745009E+00	-1.13408850429E+00
2.27503055895E+06	-1.70189978699E+01	-1.71534417696E+02	1.20929419095E+01	1.67912596553E+02	-4.85964511722E+01	-2.24308230448E+01	-5.89263356549E+00	-1.09595215145E+00
2.29722191355E+06	-1.23880730530E+01	-1.56858473609E+02	1.21011253227E+01	1.67537540385E+02	-4.48503658121E+01	1.68522443460E+02	-5.85575238334E+00	-1.13782224388E+00
2.31941326814E+06	-1.34157365071E+01	-1.62364455088E+02	1.20786886440E+01	1.67661401191E+02	-4.69708877691E+01	-1.65590505361E+01	-5.88639034474E+00	-1.27022690364E+00
2.34160462274E+06	-1.21013602245E+01	-1.68388117614E+02	1.20354312534E+01	1.67365911368E+02	-4.27783609461E+01	1.42452324895E+02	-5.84160068493E+00	-1.37964832721E+00
2.36379597733E+06	-1.01725253096E+01	-1.55028456178E+02	1.20795330067E+01	1.66893180638E+02	-3.50706413882E+01	5.94185430748E+01	-5.83428881023E+00	-1.52482548469E+00
2.38598733193E+06	-1.40948540881E+01	-1.57147669784E+02	1.20649451951E+01	1.67271247250E+02	-4.24832430559E+01	-1.12284332872E+02	-5.87660542769E+00	-9.16890972332E-01
2.40817868652E+06	-1.18073817303E+01	-1.71774012504E+02	1.20542484783E+01	1.67070939338E+02	-5.46273839343E+01	-1.41379818048E+02	-5.87900652268E+00	-1.45508733234E+00
2.43037004112E+06	-1.14960309808E+01	-1.69330291802E+02	1.20414245102E+01	1.67095161658E+02	-5.84097302671E+01	1.25499343028E+02	-5.86863703679E+00	-1.59271989844E+00
2.45256139571E+06	-1.29970512245E+01	-1.71383865028E+02	1.20520916663E+01	1.66882242384E+02	-5.36488972736E+01	-5.86148350406E+01	-5.88441173774E+00	-9.68888869082E-01
2.47475275031E+06	-1.37049068244E+01	-1.47054405614E+02	1.20830511475E+01	1.66598163807E+02	-4.00260034660E+01	-1.79847983220E+02	-5.86345200955E+00	-1.19248247978E+00
2.49694410490E+06	-1.37325854226E+01	-1.77083429973E+02	1.20729917532E+01	1.66660098268E+02	-4.60293919873E+01	3.53792341478E+01	-5.89928726592E+00	-1.23751632300E+00
2.51913545950E+06	-1.29582702610E+01	-1.69421129824E+02	1.20442624941E+01	1.66387511939E+02	-4.31449918792E+01	-2.50883635400E+01	-5.93077470396E+00	-1.23193184765E+00
2.54132681409E+06	-1.31456960631E+01	-1.63013667618E+02	1.20748060787E+01	1.66399047010E+02	-4.50370969827E+01	5.97689507281E+01	-5.90680043809E+00	-1.63342238983E+00
2.56351816869E+06	-1.34761369764E+01	-1.60296637597E+02	1.20744546171E+01	1.66111648660E+02	-4.58248000207E+01	-6.81814667513E+00	-5.89146000935E+00	-1.33555935598E+00
2.58570952328E+06	-1.00689190078E+01	-1.76234426903E+02	1.20272514028E+01	1.65836456748E+02	-4.88580217618E+01	8.43873529724E+01	-5.86833838084E+00	-1.39630872078E+00
2.60790087788E+06	-1.04010318973E+01	-1.68381747288E+02	1.20304420036E+01	1.65857706323E+02	-4.91513289384E+01	9.43341406023E+01	-5.86563054410E+00	-1.48884065724E+00
2.63009223247E+06	-1.49702596421E+01	-1.54823256303E+02	1.21090188130E+01	1.65915217528E+02	-5.24227772046E+01	1.12555187411E+01	-5.86844232698E+00	-1.04402602481E+00
2.65228358707E+06	-1.24401387826E+01	-1.69329266781E+02	1.20579899246E+01	1.65676681024E+02	-5.63707197432E+01	1.39510272315E+02	-5.89121179680E+00	-1.37449820321E+00
2.67447494166E+06	-1.21592347700E+01	-1.52307195111E+02	1.20817373244E+01	1.65263300606E+02	-3.88536137511E+01	-9.54038910496E+01	-5.90773027924E+00	-1.20678640901E+00
2.69666629626E+06	-1.14398716967E+01	-1.61980234404E+02	1.20543509185E+01	1.65152062322E+02	-5.94358974121E+01	-8.38890178981E+01	-5.86806032822E+00	-1.44679062733E+00
2.71885765085E+06	-1.47201437160E+01	-1.70581189696E+02	1.20938782845E+01	1.65591751104E+02	-4.36244242409E+01	1.52108481395E+02	-5.82718392214E+00	-1.33801332900E+00
2.74104900545E+06	-1.87824415115E+01	-1.73589627007E+02	1.21140159112E+01	1.65290101886E+02	-4.78096591850E+01	-7.11442923128E+01	-5.89544120468E+00	-1.20797023175E+00
2.76324036004E+06	-1.26709735104E+01	1.77927922647E+02	1.20626317244E+01	1.65130783369E+02	-4.48212404733E+01	-1.70011159996E+02	-5.86132238707E+00	-1.34930227197E+00
2.78543171463E+06	-1.10438610255E+01	-1.73751821266E+02	1.20551179087E+01	1.64803790189E+02	-4.22584248309E+01	-7.38019806053E+01	-5.89945992828E+00	-1.48568906608E+00
2.80762306923E+06	-1.20132624244E+01	-1.78495765705E+02	1.20788958005E+01	1.64932108628E+02	-5.47988102526E+01	-3.80289206602E+01	-5.88859860098E+00	-1.45767973100E+00
2.82981442382E+06	-1.27512924800E+01	-1.60913902174E+02	1.20853950537E+01	1.64591193584E+02	-5.15761039537E+01	1.13371759314E+02	-5.84766070905E+00	-1.34844277678E+00
2.85200577842E+06	-1.09396495658E+01	-1.66771636228E+02	1.20795120796E+01	1.64210460992E+02	-5.81151901021E+01	4.74608342485E+01	-5.86903696646E+00	-1.40990987573E+00
2.87419713301E+06	-1.19638026460E+01	1.78385168776E+02	1.20609531193E+01	1.64537455969E+02	-3.99311466134E+01	1.00560174305E+02	-5.85290970046E+00	-1.65285977692E+00
