# Hz S DB R 50
! CMT, M5065, 19127446, 24.2.4/2
! Date: 11/8/2024 5:23:31 PM
! Data: Format (Calibration Info)
! Freq	S11:dB/Ang(F2)	S21:dB/Ang(F2)	S12:dB/Ang(F2)	S22:dB/Ang(F2)
3.00000000000E+05	-1.46216169562E+01	1.59774803201E+02	1.92674625941E+01	-1.76006567596E+02	-5.41763314666E+01	-1.41125102438E+02	-5.89483515742E+00	-2.39743812708E-01
3.22191354595E+05	-1.22676441537E+01	-1.71991517644E+02	1.92702713171E+01	-1.77246356265E+02	-5.11567378429E+01	1.08828158429E+01	-5.87396126257E+00	-4.70295948669E-01
3.44382709190E+05	-1.53208985764E+01	1.67522421541E+02	1.93118376478E+01	-1.77664345958E+02	-4.40804369770E+01	-1.11871983197E+02	-5.87099455571E+00	-2.51504523961E-01
3.66574063785E+05	-1.39609212165E+01	-1.65445572863E+02	1.92939336107E+01	-1.78542396569E+02	-5.24327547366E+01	1.52573665237E+02	-5.85415146256E+00	-5.06585790302E-01
3.88765418380E+05	-1.90776199881E+01	-1.75240716758E+02	1.92566032141E+01	1.79615954390E+02	-4.18991547360E+01	1.12684036765E+02	-5.79190150371E+00	-1.24527685352E-01
4.10956772975E+05	-1.91281143762E+01	-1.74262208231E+02	1.93307188614E+01	-1.79258929063E+02	-4.73473676858E+01	6.92315966623E+01	-5.88822772096E+00	-4.92925609910E-01
4.33148127570E+05	-1.00365949590E+01	-1.51104591930E+02	1.92841348218E+01	1.79995407870E+02	-4.11638107559E+01	-1.68111229006E+02	-5.83053399731E+00	-2.15236463818E-01
4.55339482165E+05	-1.34974800567E+01	1.79334521808E+02	1.92762390495E+01	1.79761006759E+02	-5.18320021539E+01	1.12388715062E+02	-5.84185588781E+00	-3.20313725690E-01
4.77530836760E+05	-1.58793987696E+01	-1.62671841829E+02	1.93234439292E+01	1.79222389816E+02	-3.70196043998E+01	1.78166428874E+02	-5.78413487756E+00	-3.38246011827E-01
4.99722191355E+05	-1.48029062388E+01	1.77381899555E+02	1.92964351405E+01	1.78982113597E+02	-4.52742561037E+01	1.37179934841E+02	-5.82627065726E+00	-5.60665372449E-01
5.21913545950E+05	-1.21664201892E+01	-1.79978807899E+02	1.92631129384E+01	1.78397762210E+02	-3.99937751275E+01	9.03645641959E+01	-5.84049270267E+00	-7.70531356064E-01
5.44104900545E+05	-1.35996468548E+01	1.71112245396E+02	1.92907448145E+01	1.78121951047E+02	-4.96671265697E+01	1.73903299569E+01	-5.89766025098E+00	-5.83454009682E-01
5.66296255139E+05	-1.40300624331E+01	-1.67453471865E+02	1.93189433879E+01	1.77777411825E+02	-4.50120569917E+01	1.65226974061E+02	-5.81893590543E+00	-6.66347100393E-01
5.88487609734E+05	-1.44053573486E+01	1.02190566045E+02	1.93553980837E+01	1.77685903335E+02	-4.11265519772E+01	2.95896985583E+01	-5.92522377578E+00	-6.81941951250E-01
6.10678964329E+05	-1.42074498581E+01	1.72622893334E+02	1.93014349993E+01	1.77233594174E+02	-3.59962915247E+01	-9.94910743720E+01	-5.83505843437E+00	8.09913736911E-01
6.32870318924E+05	-1.30512974059E+01	-1.69808507963E+02	1.92649597038E+01	1.76719258313E+02	-3.59576768871E+01	-2.92938309047E+01	-5.95149332440E+00	-1.90031179454E-01
6.55061673519E+05	-1.62954654418E+01	-1.56447616962E+02	1.93206048529E+01	1.76304051037E+02	-3.60103945140E+01	7.30203307139E+01	-5.87102485889E+00	-9.99609393704E-01
6.77253028114E+05	-1.38952207449E+01	-1.77341524123E+02	1.92845553871E+01	1.76049433535E+02	-6.51718664958E+01	-1.51135123084E+01	-5.86554203850E+00	-8.05874334752E-01
6.99444382709E+05	-1.54751156548E+01	-1.57744280955E+02	1.92955347315E+01	1.75686654268E+02	-4.92728624896E+01	1.53418351658E+01	-5.90575589823E+00	-3.69567014569E-01
7.21635737304E+05	-1.27964355003E+01	-1.78481805809E+02	1.92675897263E+01	1.75533928482E+02	-5.17556781747E+01	7.09791626929E+00	-5.90192475922E+00	-6.44898294570E-01
7.43827091899E+05	-1.41318628277E+01	1.74562813489E+02	1.92766615038E+01	1.75312208749E+02	-5.38306992567E+01	1.10937522559E+02	-5.88605942770E+00	-5.22994189235E-01
7.66018446494E+05	-1.40722099468E+01	-1.72991984234E+02	1.92845164131E+01	1.74764652525E+02	-5.35897020691E+01	-9.87013585323E+00	-5.87767606412E+00	-6.38136963128E-01
7.88209801089E+05	-1.32395614706E+01	-1.30943607694E+02	1.93108707905E+01	1.74224445080E+02	-4.15285965146E+01	-1.36621315141E+02	-5.85586372486E+00	-2.74290577214E-01
8.10401155684E+05	-1.20495345286E+01	1.73790816751E+02	1.92427127393E+01	1.74429614429E+02	-5.01080631281E+01	1.21162528321E+02	-5.86633129841E+00	-5.62371996777E-01
8.32592510279E+05	-1.31791236860E+01	1.69968139042E+02	1.92618540233E+01	1.74127269672E+02	-4.31866956728E+01	-1.25971656923E+02	-5.84247095752E+00	-2.79181149042E-01
8.54783864874E+05	-1.75133697560E+01	-1.64737876862E+02	1.92965359460E+01	1.73622181152E+02	-5.73038333206E+01	6.25716996324E+01	-5.87233788450E+00	-7.68623384895E-01
8.76975219469E+05	-1.16794671209E+01	-1.59388502895E+02	1.92585858590E+01	1.73285351292E+02	-4.69671812252E+01	4.61633164232E+01	-5.87030851820E+00	-8.83540186047E-01
8.99166574064E+05	-1.26997407246E+01	1.72520190073E+02	1.92360744060E+01	1.73330110306E+02	-4.31527134384E+01	5.32798856963E+01	-5.86404387748E+00	-8.94390825954E-01
9.21357928659E+05	-1.39937027590E+01	-1.76278638122E+02	1.92524092315E+01	1.72991703881E+02	-4.58799343589E+01	1.78447618428E+02	-5.85392569667E+00	-4.29862595163E-01
9.43549283254E+05	-1.37682499716E+01	1.79720111473E+02	1.92651650345E+01	1.72670681667E+02	-3.77959759593E+01	-1.41352581652E+02	-5.84033909647E+00	-3.42181015180E-01
9.65740637849E+05	-1.18464961420E+01	1.77788236244E+02	1.92347867000E+01	1.72565223887E+02	-5.12901252992E+01	2.64171912861E+01	-5.90863551895E+00	-6.86604012724E-01
9.87931992444E+05	-1.44271917306E+01	-1.49345798694E+02	1.92662810535E+01	1.71929152571E+02	-4.19639372202E+01	-3.61768605565E+01	-5.90796279018E+00	-2.83181055185E-01
1.01012334704E+06	-1.45520225242E+01	-1.69739054659E+02	1.92651906720E+01	1.71881373265E+02	-5.37623289344E+01	-1.64599043804E+02	-5.88415966448E+00	-5.34670108591E-01
1.03231470163E+06	-1.65659467359E+01	-1.69879986538E+02	1.92521016966E+01	1.71672075540E+02	-4.72070471792E+01	-1.14831931035E+02	-5.88751077525E+00	-3.89395536561E-01
1.05450605623E+06	-1.43152344913E+01	-1.69068092293E+02	1.92403510854E+01	1.71594411098E+02	-4.31642104717E+01	-1.76271824782E+02	-5.82252756766E+00	-5.30371514709E-01
1.07669741082E+06	-1.14175003938E+01	-1.64989031174E+02	1.92172561463E+01	1.71235720507E+02	-4.81790485711E+01	-1.34103688368E+02	-5.89848434952E+00	-1.23053689240E+00
1.09888876542E+06	-1.47164324395E+01	-1.78016190943E+02	1.92529462135E+01	1.70970716583E+02	-3.92812062209E+01	-9.77718242364E+01	-5.89274019153E+00	-2.36355223857E-01
1.12108012001E+06	-1.18668535654E+01	-1.59327384229E+02	1.92245435725E+01	1.70472310998E+02	-4.76250968776E+01	9.48974609056E+01	-5.87568107647E+00	-9.90187998944E-01
1.14327147461E+06	-1.37331378654E+01	1.75672180417E+02	1.92494080222E+01	1.70499384651E+02	-4.54070342261E+01	7.47341892458E+01	-5.88792883560E+00	-9.84996375205E-01
1.16546282920E+06	-1.18911880847E+01	-1.55926394594E+02	1.92533479341E+01	1.70074871674E+02	-5.12642227376E+01	8.71917692545E+01	-5.87156302835E+00	-7.04397596151E-01
1.18765418380E+06	-1.14611788172E+01	-1.67199591620E+02	1.92141746465E+01	1.69974916160E+02	-6.11831855810E+01	1.72506604264E+01	-5.84803782676E+00	-7.13207340229E-01
1.20984553839E+06	-1.21355840926E+01	1.76742114963E+02	1.92014953220E+01	1.69538591257E+02	-4.47681109936E+01	-2.23452850739E+01	-5.91421480806E+00	-8.23388858823E-01
1.23203689299E+06	-1.28594563280E+01	-1.70448031301E+02	1.92285063027E+01	1.69609001339E+02	-4.34658180110E+01	8.78645844080E+01	-5.87437290233E+00	-8.37342656427E-01
1.25422824758E+06	-1.58968914961E+01	-1.69290084691E+02	1.92536695758E+01	1.69388437169E+02	-3.99769170963E+01	1.16492597612E+02	-5.84076139500E+00	-9.12133286093E-01
1.27641960218E+06	-1.17355789498E+01	-1.77384865065E+02	1.91856204589E+01	1.69041682400E+02	-4.44009273341E+01	-1.10098354919E+02	-5.90050637751E+00	-4.51428965803E-01
1.29861095677E+06	-1.19277150767E+01	-1.61407289051E+02	1.92162806059E+01	1.68499954383E+02	-4.33934783603E+01	-2.25984183517E+01	-5.93802606051E+00	-6.44665209861E-01
1.32080231137E+06	-1.42166006941E+01	-1.57388483712E+02	1.92344055684E+01	1.68514712476E+02	-4.60909841932E+01	9.58517540004E+01	-5.86483664188E+00	-1.40657129907E+00
1.34299366596E+06	-1.42994912056E+01	-1.59600053952E+02	1.92296840993E+01	1.68338989049E+02	-4.63071505974E+01	1.79937727810E+02	-5.83549333129E+00	-7.75762322193E-01
1.36518502056E+06	-1.47752818923E+01	-1.40642512693E+02	1.92279102652E+01	1.67970922049E+02	-5.02493923684E+01	-1.68169427879E+02	-5.83923094535E+00	-5.98818677907E-01
1.38737637515E+06	-1.52533089274E+01	-1.65789904858E+02	1.92358190159E+01	1.67946659799E+02	-4.47126537309E+01	-1.98973506319E+01	-5.94098831416E+00	-7.52014006209E-01
1.40956772975E+06	-1.30813450878E+01	1.77360016566E+02	1.91859298606E+01	1.67591775129E+02	-4.48283789970E+01	1.26452403482E+02	-5.83826367493E+00	-8.30176835121E-01
1.43175908434E+06	-1.53413446135E+01	-1.71259040387E+02	1.92058172881E+01	1.67511141854E+02	-3.61539023044E+01	3.72688473570E+01	-5.96222887651E+00	-1.22122525281E+00
1.45395043894E+06	-1.37331007979E+01	-1.68974676899E+02	1.92171171265E+01	1.67098459298E+02	-4.54379520367E+01	-9.83369156889E+01	-5.88231187798E+00	-5.41671119184E-01
1.47614179353E+06	-1.33868513686E+01	1.79592653616E+02	1.92136202181E+01	1.66961266920E+02	-3.94986401516E+01	-9.29261216249E+01	-5.87347610846E+00	-3.33153873228E-01
1.49833314813E+06	-1.49644606306E+01	-1.72317336051E+02	1.92215384359E+01	1.66806246935E+02	-4.80927860114E+01	1.44054967498E+02	-5.83891921006E+00	-9.71716238448E-01
1.52052450272E+06	-1.03518781513E+01	-1.75477688460E+02	1.91771865632E+01	1.66563501282E+02	-4.34740632741E+01	-6.08392429119E+01	-5.90821013237E+00	-7.07744879572E-01
1.54271585732E+06	-1.14493588970E+01	-1.62542400894E+02	1.92074403472E+01	1.66148033211E+02	-5.00530474427E+01	-3.35419001806E+01	-5.89471562201E+00	-8.44783302421E-01
1.56490721191E+06	-1.29889840545E+01	1.68581122058E+02	1.91860180167E+01	1.66034707923E+02	-4.18100204575E+01	-6.71318667959E+01	-5.91379158097E+00	-8.15314796800E-01
1.58709856651E+06	-1.19753303902E+01	-1.66067383784E+02	1.91858492003E+01	1.65804820861E+02	-4.66114886665E+01	-1.76727518152E+02	-5.85715644806E+00	-6.19066626993E-01
1.60928992110E+06	-1.40102922814E+01	-1.72505984505E+02	1.91793028213E+01	1.65684647892E+02	-5.22902282894E+01	9.72096727041E+01	-5.87626632650E+00	-1.18667188053E+00
1.63148127570E+06	-1.48537672826E+01	-1.47843782032E+02	1.92208293802E+01	1.65343051030E+02	-4.34348946855E+01	1.45694419402E+02	-5.82807605070E+00	-8.35293471216E-01
1.65367263029E+06	-1.16821493037E+01	-1.64857059809E+02	1.91838464897E+01	1.64887489436E+02	-5.77364981910E+01	1.30018804757E+02	-5.86601002259E+00	-9.55253585091E-01
1.67586398489E+06	-9.42129435432E+00	-1.72089884318E+02	1.91708254090E+01	1.64697594706E+02	-3.77691722223E+01	7.04957384920E+01	-5.90155589814E+00	-1.51484200325E+00
1.69805533948E+06	-1.21593464764E+01	1.78858888199E+02	1.91556686844E+01	1.64688235047E+02	-4.37886748012E+01	-3.55963800900E+00	-5.91110236499E+00	-1.05604342804E+00
1.72024669408E+06	-1.36376399734E+01	-1.75323636619E+02	1.91968758030E+01	1.64514953781E+02	-4.54783034112E+01	1.90822997641E+01	-5.89871492609E+00	-1.05297107769E+00
1.74243804867E+06	-1.04201453428E+01	-1.66645811589E+02	1.91317254752E+01	1.64048164013E+02	-4.42286844104E+01	1.74767052861E+02	-5.86057731882E+00	-6.23129246361E-01
1.76462940327E+06	-1.49908902427E+01	1.67986028385E+02	1.91786895784E+01	1.64120597782E+02	-4.87237469246E+01	4.82824671290E+01	-5.88132026621E+00	-1.09751627265E+00
1.78682075786E+06	-9.60783468565E+00	-1.56999718852E+02	1.91548872075E+01	1.63363411377E+02	-4.02674942160E+01	-2.15628866546E+01	-5.94450031692E+00	-8.70620655892E-01
1.80901211246E+06	-1.14865629238E+01	1.76259659780E+02	1.91235874883E+01	1.63574640210E+02	-4.55853024499E+01	-2.44649629976E+01	-5.89924993811E+00	-1.07159612750E+00
1.83120346705E+06	-1.39153794813E+01	-1.62340027186E+02	1.91537177450E+01	1.63317264484E+02	-4.21870714835E+01	1.26532138611E+02	-5.82452422142E+00	-1.31305386219E+00
1.85339482165E+06	-1.34790761342E+01	1.76585432380E+02	1.91385218655E+01	1.63245963273E+02	-5.02431172148E+01	-1.99238822023E+00	-5.88940378347E+00	-9.68925942646E-01
1.87558617624E+06	-1.47155015955E+01	-1.73359459912E+02	1.91767233017E+01	1.62899214413E+02	-4.11002249599E+01	3.03696352416E+01	-5.90587606722E+00	-1.50402870793E+00
1.89777753084E+06	-1.38313003654E+01	-1.61903657401E+02	1.91671635130E+01	1.62693321944E+02	-3.62052430526E+01	1.09229717650E+02	-5.81791946820E+00	-1.24717807467E+00
1.91996888543E+06	-1.21547240106E+01	1.79362861336E+02	1.91462987291E+01	1.62580148628E+02	-4.58992501884E+01	5.21735683248E+01	-5.89093140577E+00	-1.20553523157E+00
1.94216024003E+06	-1.28027498840E+01	1.76842838529E+02	1.91404834053E+01	1.62363373903E+02	-5.64937278744E+01	1.30906868735E+02	-5.85200897138E+00	-1.10834820988E+00
1.96435159462E+06	-1.33571575564E+01	-1.79514192464E+02	1.91522651021E+01	1.62033403229E+02	-4.39956255235E+01	-5.02305813332E+01	-5.90438754738E+00	-8.24992475547E-01
1.98654294922E+06	-1.10318765910E+01	1.75517382189E+02	1.91362167067E+01	1.61734496850E+02	-3.60247042025E+01	1.08732783132E+02	-5.79112566041E+00	-1.84745068274E+00
2.00873430381E+06	-1.52323504178E+01	-1.38536328539E+02	1.91847613269E+01	1.61538756165E+02	-5.14886833100E+01	-2.84045717906E+01	-5.89255098423E+00	-1.07040387812E+00
2.03092565841E+06	-1.55079929826E+01	-1.69748124186E+02	1.91584016267E+01	1.61460906175E+02	-6.71615930380E+01	1.33723797845E+02	-5.88348535941E+00	-1.03353159142E+00
2.05311701300E+06	-1.33464283065E+01	-1.74537423304E+02	1.91451388420E+01	1.61181083452E+02	-3.10046285638E+01	-3.76194119336E+01	-6.00943104635E+00	-8.14111855038E-01
2.07530836760E+06	-1.05473937954E+01	-1.75618068259E+02	1.91088069114E+01	1.60932943240E+02	-4.85103135524E+01	2.31739612766E+01	-5.92199342542E+00	-1.26897918155E+00
2.09749972219E+06	-1.05770345234E+01	-1.76867027166E+02	1.91223219968E+01	1.60675022969E+02	-5.45018746644E+01	4.17031400834E+01	-5.87814547015E+00	-1.14058108735E+00
2.11969107679E+06	-1.08893952032E+01	-1.70794162260E+02	1.91171578310E+01	1.60450456748E+02	-5.68009223993E+01	-6.11400727216E+01	-5.90903951665E+00	-1.19454919398E+00
2.14188243138E+06	-1.61173840291E+01	1.78884426380E+02	1.91099070114E+01	1.60394434546E+02	-4.61069489648E+01	-1.14136842120E+01	-5.91596159548E+00	-1.14733700730E+00
2.16407378598E+06	-1.77731417890E+01	-1.57342327534E+02	1.91664381324E+01	1.60016505914E+02	-4.18020167660E+01	1.78634427311E+02	-5.84450128003E+00	-1.14401066812E+00
2.18626514057E+06	-1.30261110137E+01	-1.68111220416E+02	1.91475454844E+01	1.59910216253E+02	-5.25689886127E+01	1.72252902363E+02	-5.85576993649E+00	-1.39563394896E+00
2.20845649517E+06	-1.23417192818E+01	-1.73013092956E+02	1.91168234998E+01	1.59690332065E+02	-4.86719049750E+01	-1.65426753328E+02	-5.88580499147E+00	-1.07513989310E+00
2.23064784976E+06	-1.21812608574E+01	-1.62004360172E+02	1.91318790059E+01	1.59209814636E+02	-4.16362153413E+01	-1.37245946804E+02	-5.85853921884E+00	-9.58721382551E-01
2.25283920436E+06	-1.42317386336E+01	-1.67159096935E+02	1.91563339032E+01	1.59164981281E+02	-4.17991570603E+01	3.27212578355E+01	-5.91517312189E+00	-1.54172722271E+00
2.27503055895E+06	-1.30972477109E+01	1.73720712007E+02	1.91023105835E+01	1.59120151664E+02	-4.85178743197E+01	-3.14097674356E+01	-5.88851573404E+00	-1.18522247552E+00
2.29722191355E+06	-1.18254238791E+01	-1.59542904858E+02	1.91255570178E+01	1.58719881758E+02	-4.10062662548E+01	1.60848322117E+02	-5.80651430848E+00	-1.35665300539E+00
2.31941326814E+06	-1.28299136050E+01	1.72429154211E+02	1.91046096157E+01	1.58481846437E+02	-4.67151202267E+01	-6.52104491781E+01	-5.87357864256E+00	-1.16194722073E+00
2.34160462274E+06	-1.68002958320E+01	-1.57078305878E+02	1.91378845315E+01	1.58433694260E+02	-4.69136183869E+01	-1.78754216233E+02	-5.87226368943E+00	-1.36788245363E+00
2.36379597733E+06	-1.27711881562E+01	-1.75600583374E+02	1.91103982599E+01	1.58167763424E+02	-4.05143290466E+01	1.73158490712E+02	-5.83969681481E+00	-1.14582655089E+00
2.38598733193E+06	-1.23421196892E+01	-1.64119195354E+02	1.91327110590E+01	1.57847804253E+02	-5.48269068171E+01	3.31127196997E+01	-5.89502195310E+00	-1.30275142407E+00
2.40817868652E+06	-1.16387375571E+01	-1.51827314768E+02	1.91215036793E+01	1.57477929984E+02	-4.99478136224E+01	-1.58949546020E+01	-5.90027013063E+00	-1.32726913399E+00
2.43037004112E+06	-1.40951852502E+01	-1.79565099631E+02	1.90927774274E+01	1.57628672631E+02	-5.23722978282E+01	1.70754551418E+02	-5.86173067963E+00	-1.70924931853E+00
2.45256139571E+06	-1.37388975196E+01	-1.53568504189E+02	1.91057400985E+01	1.57210084373E+02	-3.77964028225E+01	-1.26399829745E+02	-5.83783642593E+00	-6.11857710587E-01
2.47475275031E+06	-1.79065119657E+01	1.54458492493E+02	1.91011767968E+01	1.57356213405E+02	-4.19736012471E+01	6.46130621514E+01	-5.90024660271E+00	-1.68650762582E+00
2.49694410490E+06	-1.22864535028E+01	-1.79208843326E+02	1.90601629345E+01	1.56853428837E+02	-3.82074097892E+01	-1.04087224494E+02	-5.87161736563E+00	-8.51822930200E-01
2.51913545950E+06	-1.42871289362E+01	1.75521625295E+02	1.90807371657E+01	1.56916734652E+02	-3.74835961219E+01	-2.22495078855E+01	-5.93744571727E+00	-1.56182139356E+00
2.54132681409E+06	-1.40239069564E+01	-1.70986403553E+02	1.91054107727E+01	1.56422447195E+02	-5.39813637746E+01	9.82228004678E+01	-5.87761196422E+00	-1.49692433352E+00
2.56351816869E+06	-1.68858552121E+01	-1.74810732780E+02	1.91200192195E+01	1.56449945509E+02	-4.36287990902E+01	-1.27000953540E+01	-5.94281612463E+00	-1.41209371921E+00
2.58570952328E+06	-1.25863077117E+01	-1.72425769798E+02	1.90767645441E+01	1.56106840812E+02	-4.71576274706E+01	-1.59896309650E+02	-5.84466390888E+00	-1.24732345427E+00
2.60790087788E+06	-1.15059460448E+01	-1.68857501631E+02	1.90401558915E+01	1.55577977722E+02	-4.74856943757E+01	-6.45085231587E+01	-5.91176379404E+00	-1.06172760341E+00
2.63009223247E+06	-1.16707454256E+01	-1.13716569554E+02	1.91213640624E+01	1.55420930778E+02	-5.27698249806E+01	-1.57065520186E+02	-5.88231109095E+00	-9.32009710486E-01
2.65228358707E+06	-1.40733337018E+01	-1.54174323422E+02	1.90920687781E+01	1.55115010489E+02	-4.19362094129E+01	-1.19899085477E+02	-5.84894855540E+00	-9.42600348186E-01
2.67447494166E+06	-1.31306095815E+01	-1.71383066726E+02	1.90848988403E+01	1.55118999183E+02	-3.58816730062E+01	1.64367184775E+02	-5.76673638258E+00	-1.42636420526E+00
2.69666629626E+06	-1.42043658344E+01	-1.76050778553E+02	1.90747894116E+01	1.55099571423E+02	-4.96023135785E+01	-9.60090111322E+01	-5.88534742392E+00	-1.14398212570E+00
2.71885765085E+06	-1.28985220725E+01	-1.73982552774E+02	1.90427063656E+01	1.54670636709E+02	-4.62834192727E+01	5.05029934561E+01	-5.91162402928E+00	-1.82208614519E+00
2.74104900545E+06	-1.39108674359E+01	-1.72993638002E+02	1.90813962373E+01	1.54525273102E+02	-4.27665903382E+01	-1.75681875124E+02	-5.80859656444E+00	-1.34659036794E+00
2.76324036004E+06	-1.37294765570E+01	-1.56362007973E+02	1.90902155461E+01	1.54221908463E+02	-4.61318521449E+01	-1.50222379725E+02	-5.86289491487E+00	-1.22673912031E+00
2.78543171463E+06	-1.16259888889E+01	-1.77201637206E+02	1.90417162779E+01	1.54097116592E+02	-4.21120673700E+01	-1.16063571954E+02	-5.87686066663E+00	-9.94746857083E-01
2.80762306923E+06	-1.35369616547E+01	-1.67985253107E+02	1.90734187958E+01	1.53725565083E+02	-3.72871301126E+01	-1.31649683615E+02	-5.83962221263E+00	-8.46242213924E-01
2.82981442382E+06	-1.36741162027E+01	1.76774647182E+02	1.90444141084E+01	1.53557713977E+02	-4.41305016999E+01	-4.77706273835E+01	-5.93747041975E+00	-1.44160053463E+00
2.85200577842E+06	-1.04253738234E+01	-1.68090006247E+02	1.90283272523E+01	1.53125225855E+02	-4.61075949771E+01	5.86576348626E+00	-5.94499096433E+00	-1.37233845271E+00
2.87419713301E+06	-1.38714107449E+01	-1.68079318730E+02	1.90569343583E+01	1.53315875619E+02	-5.21449369224E+01	1.30206663280E+02	-5.85870549504E+00	-1.64399834884E+00
