# Hz S DB R 50
! CMT, M5065, 19127446, 24.2.4/2
! Date: 11/8/2024 4:55:21 PM
! Data: Format (Calibration Info)
! Freq	S11:dB/Ang(F2)	S21:dB/Ang(F2)	S12:dB/Ang(F2)	S22:dB/Ang(F2)
3.00000000000E+05	-1.43505762616E+01	1.65040827773E+02	6.34167156025E+00	-1.77345710023E+02	-4.10717552593E+01	-1.00263993543E+02	-5.85083197830E+00	-1.52735780717E-01
3.22191354595E+05	-1.40304417324E+01	1.49453818206E+02	6.31965629835E+00	-1.77529153170E+02	-4.47500305365E+01	-1.64467747407E+02	-5.86581447905E+00	-2.41055863968E-01
3.44382709190E+05	-1.57348502526E+01	-1.65891758911E+02	6.31332119787E+00	-1.78189701062E+02	-3.66158831001E+01	-7.72521788857E+01	-5.87897924896E+00	-2.82427615815E-01
3.66574063785E+05	-1.34822840906E+01	-1.64217133334E+02	6.34581027398E+00	-1.78375286648E+02	-4.83186294402E+01	-6.82640892914E+01	-5.87520369209E+00	-2.76946450125E-01
3.88765418380E+05	-1.53805082820E+01	-1.51279216192E+02	6.26817847886E+00	-1.79140386631E+02	-4.00871698423E+01	-1.56604712911E+02	-5.83925495737E+00	-1.93910363326E-01
4.10956772975E+05	-1.68527786986E+01	-1.73157600133E+02	6.34713859828E+00	-1.78757271307E+02	-4.59413629131E+01	-8.79877173004E+00	-5.86802843063E+00	-3.69381640666E-01
4.33148127570E+05	-1.35698464718E+01	1.79274629706E+02	6.32068901595E+00	-1.79148441483E+02	-3.96551702992E+01	-1.22231300449E+02	-5.85632783048E+00	-2.86443457256E-01
4.55339482165E+05	-1.18959112129E+01	-1.67445748728E+02	6.28349161114E+00	-1.79454726652E+02	-3.53679819281E+01	2.62378065128E+01	-5.89669432970E+00	-1.51156666994E-01
4.77530836760E+05	-1.45408437576E+01	1.61256542319E+02	6.35072338850E+00	-1.79486097351E+02	-4.38658779422E+01	-1.38330014214E+02	-5.86756329631E+00	-3.11773010228E-01
4.99722191355E+05	-1.58126105835E+01	-1.70385236256E+02	6.38067713576E+00	-1.79804067021E+02	-4.32201676978E+01	-5.11577292953E+01	-5.86241255814E+00	-3.88018251165E-01
5.21913545950E+05	-1.56209011995E+01	1.74938455566E+02	6.32471434481E+00	-1.79802663821E+02	-4.57782199320E+01	1.04630857681E+02	-5.86854528478E+00	-4.97454648077E-01
5.44104900545E+05	-1.14761206723E+01	-1.77609889979E+02	6.28381756325E+00	1.79807272156E+02	-4.74109234579E+01	-9.34955784087E+01	-5.88755539540E+00	-2.39874393569E-01
5.66296255139E+05	-1.64577036016E+01	-1.64395247351E+02	6.34365441265E+00	1.79706389160E+02	-5.14943249558E+01	5.82818614986E+01	-5.87246288472E+00	-3.79123975072E-01
5.88487609734E+05	-1.63662601554E+01	-1.51584175301E+02	6.33587504629E+00	1.79268637191E+02	-3.28836219824E+01	-4.15885702823E+01	-5.86990249018E+00	-2.65040047903E-01
6.10678964329E+05	-1.10742050238E+01	-1.76450434261E+02	6.31079817610E+00	1.79286607457E+02	-4.04588401280E+01	1.53367814218E+02	-5.85859842460E+00	4.02468870558E-03
6.32870318924E+05	-1.28782047477E+01	-1.51560019687E+02	6.34531876669E+00	1.78734472006E+02	-4.02257215036E+01	1.25839105969E+02	-5.85163337257E+00	-1.46340648227E-01
6.55061673519E+05	-1.13216253748E+01	-1.66152250702E+02	6.38053445566E+00	1.79196825084E+02	-4.45535612682E+01	1.44154493030E+02	-5.85468994507E+00	-4.08182393283E-01
6.77253028114E+05	-1.32833514259E+01	-1.71354936309E+02	6.32199181425E+00	1.78563916618E+02	-4.24660236393E+01	-1.70450939183E+02	-5.86512230664E+00	-6.85984105286E-01
6.99444382709E+05	-1.53381231407E+01	-1.71658108245E+02	6.35970864973E+00	1.78710684684E+02	-5.09281994581E+01	-6.91374885138E+01	-5.85774141267E+00	-4.34589065485E-01
7.21635737304E+05	-1.49106319147E+01	-1.74623032757E+02	6.34904591011E+00	1.78429422417E+02	-5.82561123550E+01	1.01702522059E+02	-5.86072421507E+00	-4.49823959018E-01
7.43827091899E+05	-1.47905618507E+01	-1.65963419857E+02	6.33817899866E+00	1.78328496549E+02	-4.97168778428E+01	-1.49799162220E+02	-5.87423754655E+00	-2.96169702592E-01
7.66018446494E+05	-1.51028339087E+01	-1.71158562452E+02	6.33587642236E+00	1.78355651182E+02	-5.22010660663E+01	8.59403489859E+01	-5.90046057435E+00	-3.65742652650E-01
7.88209801089E+05	-1.41378346331E+01	-1.75638170931E+02	6.29566066695E+00	1.78208538802E+02	-4.43483286799E+01	8.38160231424E+01	-5.88044408822E+00	-5.55869637208E-01
8.10401155684E+05	-1.37289354568E+01	-1.58731231127E+02	6.37248669263E+00	1.77997611944E+02	-4.10121929143E+01	6.64578111237E+01	-5.86634481632E+00	-5.82817689291E-01
8.32592510279E+05	-1.29113394052E+01	-1.53488187852E+02	6.30851418570E+00	1.77711499086E+02	-5.55831010286E+01	1.06368861904E+01	-5.86410767625E+00	-4.45571017878E-01
8.54783864874E+05	-1.51311730653E+01	1.77709890429E+02	6.31008047788E+00	1.77830749086E+02	-5.35622014548E+01	1.50067478792E+02	-5.86134180555E+00	-5.14115260599E-01
8.76975219469E+05	-1.30922691696E+01	-1.72712446960E+02	6.32999961779E+00	1.77669928248E+02	-5.80162095786E+01	-4.15743859654E+01	-5.87263783159E+00	-4.80904796029E-01
8.99166574064E+05	-1.71537774318E+01	1.68242793881E+02	6.38005379198E+00	1.77893611266E+02	-5.09324919280E+01	1.17918681767E+01	-5.85931351348E+00	-5.67135020803E-01
9.21357928659E+05	-1.39978316494E+01	-1.73980148005E+02	6.32218761003E+00	1.77390110213E+02	-5.20470190066E+01	5.53396606367E+00	-5.86545894310E+00	-5.77432066176E-01
9.43549283254E+05	-1.71357427477E+01	1.67481565429E+02	6.31368294737E+00	1.77449317326E+02	-5.14241689591E+01	-1.78991825477E+02	-5.86636119802E+00	-5.12339852788E-01
9.65740637849E+05	-1.40434407705E+01	-1.68662207000E+02	6.34787146560E+00	1.77123967959E+02	-4.42984516288E+01	-8.00853705084E+01	-5.87976290821E+00	-5.53973938727E-01
9.87931992444E+05	-1.28726078988E+01	1.77941959550E+02	6.34679600371E+00	1.76984527331E+02	-5.04016275265E+01	-5.89614384791E+01	-5.88276641087E+00	-3.62183736032E-01
1.01012334704E+06	-1.57119088412E+01	1.79921326567E+02	6.36158575994E+00	1.77086234474E+02	-4.31316084228E+01	9.82540899661E+01	-5.86764583111E+00	-5.08145821438E-01
1.03231470163E+06	-1.53327316223E+01	-1.71512780123E+02	6.37732257859E+00	1.77008988183E+02	-5.30805188319E+01	8.91847193227E+01	-5.86429255621E+00	-5.88043016920E-01
1.05450605623E+06	-1.63214460009E+01	-1.75624194134E+02	6.37006199585E+00	1.76617923010E+02	-4.87087698840E+01	1.27337715629E+01	-5.88527125128E+00	-5.96291736855E-01
1.07669741082E+06	-1.46650188456E+01	-1.66592919688E+02	6.31685142430E+00	1.76961984289E+02	-6.00368648657E+01	1.09922092953E+02	-5.85422097059E+00	-7.79930442281E-01
1.09888876542E+06	-1.27750616060E+01	-1.65318589025E+02	6.35127556592E+00	1.76348536516E+02	-5.65950031652E+01	-2.56277390806E+01	-5.85299010421E+00	-6.74835110328E-01
1.12108012001E+06	-1.31522919388E+01	-1.61697612713E+02	6.37650569672E+00	1.76461818810E+02	-4.68955866856E+01	-4.49362934118E+01	-5.85815045927E+00	-5.07690394986E-01
1.14327147461E+06	-1.42096939598E+01	1.69922956611E+02	6.30615463392E+00	1.76490376206E+02	-4.37417724790E+01	-6.98738647805E+01	-5.89179238663E+00	-6.65700116469E-01
1.16546282920E+06	-1.57516082078E+01	-1.67129901780E+02	6.33718394775E+00	1.76354708958E+02	-4.30370289710E+01	-1.77405767865E+02	-5.86031174876E+00	-6.07263651195E-01
1.18765418380E+06	-1.31967479061E+01	-1.50640976504E+02	6.36532306559E+00	1.76095451530E+02	-4.95141051878E+01	8.77831051610E+01	-5.85843860979E+00	-7.05156998150E-01
1.20984553839E+06	-1.67221365846E+01	1.78851038331E+02	6.34656941423E+00	1.75924793016E+02	-3.96430605939E+01	8.51153926133E-01	-5.89190543438E+00	-9.38242591816E-01
1.23203689299E+06	-1.22113002652E+01	-1.67980970624E+02	6.29976677153E+00	1.75678941527E+02	-4.24406590400E+01	-9.64899425525E+01	-5.87246209033E+00	-4.24932083973E-01
1.25422824758E+06	-1.18386215966E+01	-1.65685628562E+02	6.35383189806E+00	1.75655462579E+02	-4.60301031323E+01	1.28373691124E+02	-5.84952803150E+00	-7.54072684963E-01
1.27641960218E+06	-1.33735321338E+01	1.76669509701E+02	6.35019096550E+00	1.75716836420E+02	-4.61290795165E+01	1.61370446214E+02	-5.86702335231E+00	-5.41511085927E-01
1.29861095677E+06	-1.86963715414E+01	1.59434248562E+02	6.34893943095E+00	1.75468078404E+02	-4.75148774410E+01	1.75572222967E+02	-5.88708828822E+00	-5.88009744716E-01
1.32080231137E+06	-1.25241840393E+01	-1.72780635150E+02	6.32864339858E+00	1.75469961058E+02	-4.86690565449E+01	7.81307198199E+01	-5.85689797805E+00	-1.07623754208E+00
1.34299366596E+06	-1.52728171132E+01	-1.67069273086E+02	6.33240730635E+00	1.75127432782E+02	-4.25948908199E+01	1.03185267767E+02	-5.86872941882E+00	-9.59654508819E-01
1.36518502056E+06	-1.66836933438E+01	-1.79675461887E+02	6.36748945045E+00	1.75416701316E+02	-3.55936348781E+01	-8.00506690193E+01	-5.86834688057E+00	-6.19616393330E-01
1.38737637515E+06	-1.32552472869E+01	-1.77239121155E+02	6.37037889543E+00	1.75331258633E+02	-3.79599142045E+01	5.31122854150E-02	-5.88282479883E+00	-8.02032697354E-01
1.40956772975E+06	-1.35807572356E+01	-1.62236300270E+02	6.32094934488E+00	1.75071067218E+02	-4.61807739573E+01	-3.58355560544E+01	-5.86629838191E+00	-6.88306891417E-01
1.43175908434E+06	-1.39349127304E+01	1.76579714399E+02	6.35006988665E+00	1.75239503333E+02	-4.26841130514E+01	-1.61012562005E+02	-5.85490209728E+00	-5.35078178790E-01
1.45395043894E+06	-1.68337576101E+01	-1.78104828025E+02	6.34030769884E+00	1.75209816725E+02	-4.60133876838E+01	3.37173873334E+01	-5.89276604268E+00	-8.60080216985E-01
1.47614179353E+06	-1.15622009753E+01	-1.59441972086E+02	6.35390040230E+00	1.74502266667E+02	-4.14273868259E+01	-8.01877113479E+00	-5.88580126538E+00	-8.11286436515E-01
1.49833314813E+06	-1.21125460963E+01	-1.47436792480E+02	6.40921183595E+00	1.74382628382E+02	-4.56452093048E+01	-1.68635160762E+02	-5.86417266170E+00	-7.19212261185E-01
1.52052450272E+06	-1.18017884936E+01	-1.65422873587E+02	6.35787644896E+00	1.74628801132E+02	-3.53849916200E+01	7.30579130123E+01	-5.83886667267E+00	-9.98373003119E-01
1.54271585732E+06	-1.76476630321E+01	-1.69822888843E+02	6.38916420901E+00	1.74659075845E+02	-4.62548814970E+01	2.37801166268E+01	-5.84587726395E+00	-8.31424717843E-01
1.56490721191E+06	-1.46247648809E+01	-1.73546918863E+02	6.33265476413E+00	1.74332126212E+02	-4.43092317080E+01	-1.08717333878E+02	-5.90128326501E+00	-7.15960567315E-01
1.58709856651E+06	-1.17864940076E+01	-1.70716938754E+02	6.30061540320E+00	1.74079262937E+02	-6.33242818999E+01	-4.06083745685E+01	-5.86964538088E+00	-8.25706476302E-01
1.60928992110E+06	-1.46545521936E+01	1.74090376233E+02	6.31011923047E+00	1.74442535411E+02	-5.49862567676E+01	1.21853955944E+02	-5.87381260296E+00	-9.34060492274E-01
1.63148127570E+06	-1.26272575218E+01	-1.64286544468E+02	6.30209579828E+00	1.74018013315E+02	-4.04982180772E+01	-6.40282964212E+01	-5.90575978180E+00	-8.12384829219E-01
1.65367263029E+06	-1.54069857783E+01	-1.64886715447E+02	6.37716945321E+00	1.73924579429E+02	-6.09363135803E+01	9.27635222632E+01	-5.87369613521E+00	-7.59603548586E-01
1.67586398489E+06	-1.70587820127E+01	-1.79894900585E+02	6.37051720418E+00	1.73872324105E+02	-4.43635994897E+01	-9.70271164676E+01	-5.87750106892E+00	-7.43806968200E-01
1.69805533948E+06	-1.08384680410E+01	-1.61063385561E+02	6.33793776908E+00	1.73475194460E+02	-4.33656331397E+01	-8.04563783806E+01	-5.89822940298E+00	-7.26321603859E-01
1.72024669408E+06	-1.39113124631E+01	-1.61479438017E+02	6.36194446030E+00	1.73625336913E+02	-4.84572182263E+01	8.36000409943E+01	-5.87172405003E+00	-9.57974101519E-01
1.74243804867E+06	-1.62246000715E+01	-1.55123217408E+02	6.35755760425E+00	1.73537895751E+02	-6.36633939482E+01	1.28713134281E+01	-5.86481905453E+00	-1.01124181118E+00
1.76462940327E+06	-1.08634973894E+01	-1.49454557855E+02	6.40295653995E+00	1.73318486001E+02	-5.22041553148E+01	4.87257860818E+01	-5.88043614031E+00	-9.51973470936E-01
1.78682075786E+06	-1.53687042451E+01	1.79051721378E+02	6.33227620326E+00	1.73542999356E+02	-4.40015762778E+01	7.66291015157E+01	-5.86867846608E+00	-1.13460436702E+00
1.80901211246E+06	-1.18027592866E+01	-1.63525621299E+02	6.33402757163E+00	1.73055374935E+02	-5.05024782922E+01	5.60354946708E+01	-5.86342745730E+00	-1.13393399053E+00
1.83120346705E+06	-1.30004558729E+01	-1.64995603664E+02	6.35452866461E+00	1.73080721525E+02	-4.47385912009E+01	1.48969854946E+02	-5.88080522982E+00	-8.65429042992E-01
1.85339482165E+06	-1.57683766337E+01	-1.67145436393E+02	6.40745653083E+00	1.73077007911E+02	-3.25877243272E+01	4.40453365144E+01	-5.86869694843E+00	-1.13647788916E+00
1.87558617624E+06	-1.47706512705E+01	-1.79364375720E+02	6.34521182866E+00	1.73077173175E+02	-4.29496899408E+01	-8.40621126209E+01	-5.86888029582E+00	-9.33589759711E-01
1.89777753084E+06	-1.16249650910E+01	-1.65164714672E+02	6.37658869647E+00	1.72701341991E+02	-4.33572047625E+01	1.18080683420E+02	-5.86657478540E+00	-9.94506640520E-01
1.91996888543E+06	-1.00558939848E+01	-1.36494138326E+02	6.38823881639E+00	1.72639658130E+02	-4.70878718596E+01	1.41714420706E+02	-5.86085832881E+00	-1.00979276122E+00
1.94216024003E+06	-1.32240375471E+01	-1.78979557081E+02	6.33489560812E+00	1.72837479181E+02	-3.92351542370E+01	8.33474580234E+01	-5.84417923258E+00	-1.08598218270E+00
1.96435159462E+06	-1.51479532622E+01	-1.61651773123E+02	6.35602714064E+00	1.72374640401E+02	-3.97291638242E+01	-1.12698856063E+02	-5.86091869238E+00	-8.36367472831E-01
1.98654294922E+06	-1.33887925889E+01	1.77975343380E+02	6.32894940417E+00	1.72695030118E+02	-4.63738716205E+01	-4.95502579226E+01	-5.86508155685E+00	-9.91373543580E-01
2.00873430381E+06	-1.37031228346E+01	-1.47116201926E+02	6.33325783743E+00	1.72507484569E+02	-3.54124918987E+01	-1.07289314401E+02	-5.90600667253E+00	-9.35607710924E-01
2.03092565841E+06	-1.35982133896E+01	-1.51117964978E+02	6.38803098235E+00	1.72437296829E+02	-5.23091537996E+01	6.58732688499E+00	-5.85619630214E+00	-9.67462713057E-01
2.05311701300E+06	-1.45226558456E+01	-1.55403055577E+02	6.39514174479E+00	1.72231829068E+02	-5.85417537351E+01	-1.67137824566E+02	-5.86957702724E+00	-1.10677521134E+00
2.07530836760E+06	-1.66797833255E+01	-1.33908992364E+02	6.37620282454E+00	1.72388264722E+02	-5.03829394627E+01	-4.31835978341E+01	-5.88788377493E+00	-1.05039640030E+00
2.09749972219E+06	-1.42066961107E+01	1.76077547306E+02	6.34734085047E+00	1.72016403678E+02	-3.96040797977E+01	1.73801397576E+01	-5.91470153597E+00	-1.23385567054E+00
2.11969107679E+06	-1.36957196128E+01	-1.59265746536E+02	6.39263103324E+00	1.71883368117E+02	-4.77563140483E+01	7.70434494533E+01	-5.86251858753E+00	-1.03289807078E+00
2.14188243138E+06	-1.64468844729E+01	1.68541255722E+02	6.40287973717E+00	1.72356889325E+02	-4.65032758932E+01	-7.38177821333E+01	-5.88278674177E+00	-1.03263256527E+00
2.16407378598E+06	-1.54212167377E+01	-1.41213220233E+02	6.41827912115E+00	1.71722550655E+02	-5.25161593119E+01	1.46895494682E+02	-5.84708908118E+00	-1.11600696917E+00
2.18626514057E+06	-1.43765854690E+01	-1.60977372990E+02	6.34488087003E+00	1.71933658208E+02	-4.16117493077E+01	-2.76191952608E+01	-5.87951690242E+00	-1.28406506276E+00
2.20845649517E+06	-1.23737563291E+01	-1.56626773710E+02	6.35944650685E+00	1.71432959011E+02	-5.71107867335E+01	-1.53081502871E+02	-5.86620645145E+00	-1.19198151027E+00
2.23064784976E+06	-1.49142068807E+01	1.74659819414E+02	6.37201478078E+00	1.71381413808E+02	-4.48872915844E+01	-9.57913520252E+01	-5.87249856812E+00	-9.38965448557E-01
2.25283920436E+06	-1.03833462147E+01	-1.68071728754E+02	6.34902610315E+00	1.71152815562E+02	-4.68398001168E+01	1.69200315060E+02	-5.88035329573E+00	-1.20419200720E+00
2.27503055895E+06	-1.59850871253E+01	1.66098975134E+02	6.36272395816E+00	1.71394818492E+02	-4.54900797137E+01	-9.00431278905E+01	-5.86563553325E+00	-1.10763288142E+00
2.29722191355E+06	-1.46580550741E+01	-1.70251175690E+02	6.38005957532E+00	1.71187054642E+02	-3.77493084331E+01	-1.68106822833E+02	-5.87978525560E+00	-1.07274096052E+00
2.31941326814E+06	-1.44190624172E+01	-1.70515611769E+02	6.38308779157E+00	1.70974676888E+02	-4.35916618424E+01	-8.48618840027E+01	-5.88203413624E+00	-1.14280048085E+00
2.34160462274E+06	-1.75276009249E+01	-1.57887034343E+02	6.44259195139E+00	1.71248982387E+02	-4.88984267127E+01	3.70396523923E-01	-5.87607896353E+00	-1.18181171004E+00
2.36379597733E+06	-1.45888490076E+01	-1.71508851206E+02	6.35558329708E+00	1.71172343089E+02	-4.64098385721E+01	-5.56774907808E+01	-5.86709922170E+00	-1.07345713714E+00
2.38598733193E+06	-1.39342554756E+01	-1.64481342990E+02	6.35612179309E+00	1.70696566455E+02	-4.77505398846E+01	-1.02870464021E+02	-5.87117319866E+00	-1.27996179934E+00
2.40817868652E+06	-1.47505242401E+01	1.71211930604E+02	6.35531575525E+00	1.70943886200E+02	-4.30186628975E+01	-9.47980509942E+01	-5.86673180325E+00	-1.29213784638E+00
2.43037004112E+06	-1.49959029711E+01	-1.58029795154E+02	6.41375993474E+00	1.70768167116E+02	-4.19823553793E+01	1.61190326313E+02	-5.85864042061E+00	-1.58995751720E+00
2.45256139571E+06	-1.51984358114E+01	-1.75323776664E+02	6.37670720387E+00	1.70730798817E+02	-5.08992114580E+01	8.42518015849E+00	-5.87433708927E+00	-1.23665899451E+00
2.47475275031E+06	-1.55594553773E+01	-1.61631833590E+02	6.40661214016E+00	1.70509499998E+02	-3.00214803306E+01	-1.01387212136E+02	-5.92321826991E+00	-9.96028019883E-01
2.49694410490E+06	-1.41018001858E+01	-1.50235507274E+02	6.42197329386E+00	1.70526182332E+02	-4.63714587193E+01	-8.75783866451E+01	-5.87529188768E+00	-1.16145678959E+00
2.51913545950E+06	-1.79017793780E+01	-1.46070022368E+02	6.39408907553E+00	1.70423206617E+02	-5.39375233137E+01	7.27355690395E+01	-5.87644546955E+00	-1.34273652530E+00
2.54132681409E+06	-2.21901491550E+01	1.72558856798E+02	6.39873172993E+00	1.70377390377E+02	-4.47991211570E+01	2.54301342559E+01	-5.89412869281E+00	-1.31785087539E+00
2.56351816869E+06	-1.35940372791E+01	-1.72658420715E+02	6.40606082308E+00	1.70074065821E+02	-5.13233921926E+01	-3.94690373691E+01	-5.87065596928E+00	-1.30987206705E+00
2.58570952328E+06	-1.41672141725E+01	-1.68234407643E+02	6.38320536097E+00	1.70139486721E+02	-5.56952004752E+01	-1.18122367348E+02	-5.89049838401E+00	-1.18800986169E+00
2.60790087788E+06	-1.43784869341E+01	-1.59699311469E+02	6.36171766143E+00	1.70131869437E+02	-3.85873358749E+01	-1.15508838776E+02	-5.88242846898E+00	-1.13437859671E+00
2.63009223247E+06	-1.23478714751E+01	-1.57924405032E+02	6.38778423858E+00	1.69584287268E+02	-3.14538770952E+01	-1.43368827356E+02	-5.88634239819E+00	-7.26537644512E-01
2.65228358707E+06	-1.34246276328E+01	-1.51130893393E+02	6.39503892642E+00	1.69718920662E+02	-4.29753021968E+01	5.28439889348E+00	-5.88807081106E+00	-1.51542626146E+00
2.67447494166E+06	-1.29397719758E+01	-1.71292691999E+02	6.36290236851E+00	1.69557198203E+02	-4.81989349383E+01	8.84593475117E+01	-5.86853985553E+00	-1.47529724746E+00
2.69666629626E+06	-1.55047290620E+01	1.67427389018E+02	6.33897408652E+00	1.69822694325E+02	-4.25500382984E+01	9.03431858740E+01	-5.88590311350E+00	-1.47153447381E+00
2.71885765085E+06	-1.14366026445E+01	-1.73156239894E+02	6.39594719293E+00	1.69762164397E+02	-4.73221139565E+01	-5.67808745945E+00	-5.89154057515E+00	-1.46110821567E+00
2.74104900545E+06	-1.36874196260E+01	-1.76285017256E+02	6.38506977826E+00	1.69655498776E+02	-4.60355030525E+01	1.47375658960E+02	-5.88127168420E+00	-1.52023832557E+00
2.76324036004E+06	-1.36856807339E+01	-1.66667561728E+02	6.37129507449E+00	1.69587847477E+02	-4.65126062514E+01	-1.56267168156E+02	-5.86954854043E+00	-1.40110622498E+00
2.78543171463E+06	-1.81378311613E+01	-1.46794132576E+02	6.42497590549E+00	1.69168954073E+02	-4.60273203559E+01	1.72698724641E+01	-5.89161417786E+00	-1.32785911008E+00
2.80762306923E+06	-1.42769271362E+01	1.75316723588E+02	6.36297924990E+00	1.69343357018E+02	-5.00379215540E+01	-9.03799845512E+01	-5.88103106545E+00	-1.26175054547E+00
2.82981442382E+06	-1.27206287818E+01	1.66932217856E+02	6.35813811700E+00	1.69140574960E+02	-4.31939218405E+01	-8.58297357962E+01	-5.89760745616E+00	-1.39337413156E+00
2.85200577842E+06	-8.99604558470E+00	-1.67656818370E+02	6.34614672100E+00	1.68561554716E+02	-4.67073834119E+01	-3.95240576643E+01	-5.87763496796E+00	-1.41610320400E+00
2.87419713301E+06	-1.22635694926E+01	-1.48020102735E+02	6.37597230826E+00	1.68597247068E+02	-5.21325758294E+01	-1.70470396864E+02	-5.85122913309E+00	-1.53130763039E+00
