# Hz S DB R 50
! CMT, M5065, 19127446, 24.2.4/2
! Date: 11/8/2024 5:13:39 PM
! Data: Format (Calibration Info)
! Freq	S11:dB/Ang(F2)	S21:dB/Ang(F2)	S12:dB/Ang(F2)	S22:dB/Ang(F2)
3.00000000000E+05	-1.22237981636E+01	-1.63920569362E+02	1.13047225820E+01	-1.77557208504E+02	-4.71815265682E+01	-8.67424769439E-01	-5.88478525437E+00	-3.20587969132E-01
3.22191354595E+05	-1.23448065170E+01	-1.72642268609E+02	1.13601810599E+01	-1.77605753040E+02	-4.04552877218E+01	1.45550814332E+02	-5.84345272111E+00	-4.41406428295E-01
3.44382709190E+05	-1.16225239044E+01	-1.69743164918E+02	1.13630928298E+01	-1.78505401282E+02	-4.57638046083E+01	-1.71028523966E+02	-5.84207095043E+00	-2.51729135181E-01
3.66574063785E+05	-1.79076887768E+01	1.79012965375E+02	1.13390817048E+01	-1.78256899313E+02	-4.17508094675E+01	-1.74995739464E+02	-5.85464346969E+00	-2.67179991319E-01
3.88765418380E+05	-1.17166197789E+01	-1.68759420769E+02	1.14148098072E+01	-1.79249090383E+02	-4.28008685997E+01	1.12439410162E+01	-5.84798231185E+00	-6.61539298450E-01
4.10956772975E+05	-1.21860861366E+01	1.71979910033E+02	1.13527473509E+01	-1.79048714658E+02	-4.60259034618E+01	6.59661288133E+01	-5.87836446655E+00	-4.70743976124E-01
4.33148127570E+05	-1.19824656531E+01	1.76120001528E+02	1.13448088914E+01	-1.79510567745E+02	-4.19240851428E+01	-2.18638839261E+01	-5.88577756512E+00	-2.84419592715E-01
4.55339482165E+05	-1.26916398185E+01	-1.65773028033E+02	1.13505492215E+01	-1.79691269226E+02	-5.52640882757E+01	1.47490944486E+02	-5.87830494334E+00	-3.45542754728E-01
4.77530836760E+05	-1.20040587039E+01	-1.64983015347E+02	1.13190008290E+01	1.79982054071E+02	-5.27400038070E+01	7.90529736001E+01	-5.87111946792E+00	-5.89272522829E-01
4.99722191355E+05	-1.34720885375E+01	-1.70940982042E+02	1.13550729281E+01	1.79675140051E+02	-4.20174082071E+01	-9.27799417901E+01	-5.88148397586E+00	-1.04812601504E-01
5.21913545950E+05	-1.54713857392E+01	-1.63948111270E+02	1.14064340055E+01	1.79492915335E+02	-3.96749378369E+01	1.39374815562E+02	-5.84405980791E+00	-4.34206571212E-01
5.44104900545E+05	-1.62898444359E+01	-1.60693678245E+02	1.13552387387E+01	1.79512643582E+02	-4.96452059479E+01	1.53915342459E+02	-5.84141531670E+00	-4.16914205365E-01
5.66296255139E+05	-1.60847026955E+01	-1.61849145037E+02	1.13811245626E+01	1.79051333303E+02	-4.83190673903E+01	2.79893154460E+01	-5.87580851865E+00	-4.79978831840E-01
5.88487609734E+05	-1.30436920505E+01	-1.72971690198E+02	1.13367317714E+01	1.78863592340E+02	-4.60160479407E+01	-6.82752027547E+01	-5.85364790075E+00	-1.93203638393E-01
6.10678964329E+05	-1.28176724104E+01	-1.70426844656E+02	1.13445671982E+01	1.78731346804E+02	-4.43608692629E+01	-1.13703550506E+02	-5.86532251405E+00	1.27107495358E-02
6.32870318924E+05	-1.38514416622E+01	-1.77475085792E+02	1.13720091216E+01	1.78633557499E+02	-4.50374144318E+01	-1.03837190193E+02	-5.86249274942E+00	-1.74033544024E-01
6.55061673519E+05	-1.32869209577E+01	-1.64998007355E+02	1.13674024570E+01	1.78129394669E+02	-3.54230610378E+01	9.09202641209E+00	-5.91672968823E+00	-3.61030661732E-01
6.77253028114E+05	-1.21507259294E+01	1.71776191715E+02	1.13302213680E+01	1.78180298264E+02	-4.33468949040E+01	-4.66573903515E+01	-5.86881060367E+00	-7.20651080173E-01
6.99444382709E+05	-1.33828938707E+01	-1.70630236457E+02	1.13631770415E+01	1.77788267232E+02	-5.55466899493E+01	1.12920872949E+01	-5.86594783983E+00	-3.64158663343E-01
7.21635737304E+05	-1.39460633576E+01	1.59242404028E+02	1.13715222313E+01	1.77889788662E+02	-4.30792999586E+01	-1.77196025083E+02	-5.84893126212E+00	-5.14476533396E-01
7.43827091899E+05	-1.20438008531E+01	-1.74442631570E+02	1.13632666155E+01	1.77562597787E+02	-4.51438888465E+01	-2.86294096607E+01	-5.88750029433E+00	-4.12407925444E-01
7.66018446494E+05	-1.35220431419E+01	-1.58502376911E+02	1.13658738226E+01	1.77436406696E+02	-5.34290099185E+01	-1.16638072199E+02	-5.87671979798E+00	-5.05983559313E-01
7.88209801089E+05	-1.30523316762E+01	1.69120611887E+02	1.13707329502E+01	1.77513354250E+02	-4.21533230673E+01	-7.53148890718E+01	-5.87753955212E+00	-4.70873001309E-01
8.10401155684E+05	-1.31692027226E+01	-1.45059960835E+02	1.13991221642E+01	1.76949961153E+02	-4.77775444925E+01	-7.64446762148E+01	-5.84708750227E+00	-4.75018275666E-01
8.32592510279E+05	-1.18380383734E+01	-1.59790846905E+02	1.13710973983E+01	1.76932892232E+02	-3.99338113537E+01	-2.00256547310E+01	-5.89303634593E+00	-5.78013772949E-01
8.54783864874E+05	-1.70831375545E+01	1.78549705443E+02	1.13982309360E+01	1.76805907578E+02	-4.79410918366E+01	-3.63725733025E+01	-5.88578732845E+00	-5.26336386302E-01
8.76975219469E+05	-1.28296872871E+01	-1.77096694136E+02	1.13745980410E+01	1.76394639279E+02	-4.18469070536E+01	-2.28082087218E+01	-5.91628753617E+00	-3.31825797540E-01
8.99166574064E+05	-1.15494927149E+01	-1.75976157661E+02	1.13203964372E+01	1.76402608063E+02	-5.70304383093E+01	8.44256110214E+01	-5.90171214688E+00	-6.03060308643E-01
9.21357928659E+05	-1.47957330235E+01	-1.72028405308E+02	1.13950437011E+01	1.76369555673E+02	-4.39993639730E+01	-1.62755693316E+02	-5.86621254610E+00	-3.51208033941E-01
9.43549283254E+05	-1.34591262939E+01	-1.78384258988E+02	1.13695360821E+01	1.76212481145E+02	-3.98296537316E+01	5.16147414866E+00	-5.89890381940E+00	-5.73137363438E-01
9.65740637849E+05	-1.12625107749E+01	-1.65137589120E+02	1.13218726322E+01	1.75836965973E+02	-4.54319484436E+01	1.69024650245E+01	-5.89246590905E+00	-6.05488759582E-01
9.87931992444E+05	-1.21404243620E+01	-1.43214545540E+02	1.13778544188E+01	1.75634823471E+02	-4.74137162332E+01	1.01787536783E+02	-5.87043603446E+00	-6.96794160686E-01
1.01012334704E+06	-1.24391507184E+01	-1.62082428226E+02	1.13516974929E+01	1.75700487803E+02	-4.67705348297E+01	1.35933436140E+02	-5.85067415778E+00	-5.20671809850E-01
1.03231470163E+06	-1.28188751831E+01	-1.74554018645E+02	1.13540907465E+01	1.75758446298E+02	-4.42821985985E+01	-1.36868469855E+02	-5.85460198468E+00	-5.94055459147E-01
1.05450605623E+06	-1.29769056554E+01	-1.73491771194E+02	1.13598294246E+01	1.75290578790E+02	-5.29472141269E+01	1.01689152223E+02	-5.87314017255E+00	-6.54423258085E-01
1.07669741082E+06	-1.20472546852E+01	-1.74861159946E+02	1.13589879650E+01	1.75226291550E+02	-4.05423603421E+01	1.05601573675E+02	-5.82416006970E+00	-8.84964445712E-01
1.09888876542E+06	-1.12533807691E+01	-1.56549451097E+02	1.13602078273E+01	1.74902661169E+02	-4.48714114154E+01	-4.97425867737E+01	-5.88950530532E+00	-5.42780459935E-01
1.12108012001E+06	-1.32497855933E+01	1.74557991050E+02	1.13822786146E+01	1.75303465780E+02	-4.26508363896E+01	1.30121829943E+01	-5.87387942193E+00	-7.61118789080E-01
1.14327147461E+06	-1.74556104547E+01	-1.66405225370E+02	1.14111025555E+01	1.74949434539E+02	-4.67606926468E+01	9.92189074830E+01	-5.86571688599E+00	-6.28492545495E-01
1.16546282920E+06	-1.65802498627E+01	1.70366858142E+02	1.13420677549E+01	1.74819445514E+02	-6.22124889379E+01	-1.08709819761E+02	-5.86204005606E+00	-5.88603611026E-01
1.18765418380E+06	-1.28584483939E+01	-1.76798138227E+02	1.13608776921E+01	1.74645501162E+02	-4.25931787384E+01	-6.66318710068E+01	-5.89595279253E+00	-6.15940765334E-01
1.20984553839E+06	-1.20367037958E+01	-1.61854836881E+02	1.13521783318E+01	1.74407322978E+02	-4.59519124678E+01	-1.68599733948E+02	-5.86295828669E+00	-7.19768814747E-01
1.23203689299E+06	-1.33383546793E+01	-1.66499604297E+02	1.13447566959E+01	1.74127211392E+02	-4.51743004095E+01	1.43882209874E+02	-5.87546484179E+00	-3.65296518733E-01
1.25422824758E+06	-2.03654288039E+01	1.70251015245E+02	1.13924950050E+01	1.74256639257E+02	-5.04226614259E+01	-4.96687130922E+01	-5.88705888873E+00	-5.82858854536E-01
1.27641960218E+06	-1.60178951965E+01	-1.38387385634E+02	1.14138035396E+01	1.73990711999E+02	-4.11977956468E+01	-5.23905230077E+01	-5.90117581470E+00	-7.99983676660E-01
1.29861095677E+06	-1.32421968274E+01	-1.74168105876E+02	1.13786578771E+01	1.74097765825E+02	-4.74072395556E+01	-1.77490194412E+02	-5.87838216890E+00	-8.50665429264E-01
1.32080231137E+06	-2.71888743974E+01	-1.64099525826E+02	1.13988270672E+01	1.74320395785E+02	-5.02656011621E+01	1.13326794220E+01	-5.87121604607E+00	-1.04443833214E+00
1.34299366596E+06	-1.31509801635E+01	-1.58799687352E+02	1.13762430147E+01	1.73551769177E+02	-6.20728889745E+01	2.84185544189E+01	-5.88339911294E+00	-8.36597510122E-01
1.36518502056E+06	-1.15135204920E+01	-1.73925099475E+02	1.13698432842E+01	1.73627398372E+02	-4.14414242969E+01	-5.85723734059E+01	-5.89126939503E+00	-4.30525942889E-01
1.38737637515E+06	-1.44320842858E+01	1.79208126863E+02	1.13765184543E+01	1.73612227228E+02	-4.56652699824E+01	-4.98534159226E+01	-5.86872454964E+00	-6.57780117735E-01
1.40956772975E+06	-1.38920032628E+01	-1.52634274188E+02	1.13768931248E+01	1.73222451218E+02	-4.29456562144E+01	1.43773800945E+02	-5.84502067326E+00	-8.31248529329E-01
1.43175908434E+06	-1.21668479739E+01	-1.69450233198E+02	1.13731307509E+01	1.73055685118E+02	-3.23436792678E+01	-1.77079782637E+02	-5.82671076303E+00	-5.28912014110E-01
1.45395043894E+06	-1.63758151836E+01	1.67844068341E+02	1.13899877160E+01	1.73225619225E+02	-4.55897445499E+01	4.74300571999E+01	-5.86698225456E+00	-8.98056813009E-01
1.47614179353E+06	-1.02969956724E+01	-1.13271625681E+02	1.14786480386E+01	1.72797266406E+02	-5.86182774798E+01	-6.08819745779E+00	-5.88824905100E+00	-7.62713570496E-01
1.49833314813E+06	-1.54583768676E+01	-1.73971094803E+02	1.13913866720E+01	1.72858283754E+02	-4.06868756946E+01	1.53326144543E+00	-5.91756414376E+00	-9.01953606957E-01
1.52052450272E+06	-1.17408079282E+01	-1.56793026684E+02	1.13815255235E+01	1.72437060760E+02	-4.15509592527E+01	7.37219872896E+01	-5.86293192398E+00	-9.37674452486E-01
1.54271585732E+06	-1.30050901027E+01	1.78198728949E+02	1.13310175453E+01	1.72517135223E+02	-4.53368418899E+01	-1.11491825959E+02	-5.89862918674E+00	-6.94607730652E-01
1.56490721191E+06	-1.39259464179E+01	-1.60785801623E+02	1.14253234907E+01	1.72267388332E+02	-5.29382731795E+01	-7.80414371669E+01	-5.86918051022E+00	-7.31336137988E-01
1.58709856651E+06	-1.27009412662E+01	-1.72295537017E+02	1.13521059010E+01	1.72288284853E+02	-3.60089671100E+01	5.63851935809E+01	-5.85952196463E+00	-1.00948867706E+00
1.60928992110E+06	-1.19554910079E+01	-1.50373144084E+02	1.13836422907E+01	1.71902900115E+02	-4.41785418375E+01	1.07511006327E+02	-5.85588214609E+00	-9.63950979166E-01
1.63148127570E+06	-9.19177335216E+00	1.57444651429E+02	1.13228342292E+01	1.72087450411E+02	-5.32471800303E+01	1.26824158997E+02	-5.88179390695E+00	-8.35427378025E-01
1.65367263029E+06	-1.21856773654E+01	-1.78263249093E+02	1.13633217820E+01	1.71788564738E+02	-5.26820348939E+01	-4.81977707112E+00	-5.86825051522E+00	-9.62639496262E-01
1.67586398489E+06	-1.43909553578E+01	-1.68266002493E+02	1.14029444691E+01	1.71736794476E+02	-4.01601303771E+01	-7.10766864784E+01	-5.87233779623E+00	-6.86878145587E-01
1.69805533948E+06	-1.63093214584E+01	-1.68388729031E+02	1.14061853477E+01	1.71672955501E+02	-4.27674195490E+01	-9.31483258108E+01	-5.87713451587E+00	-8.43023682940E-01
1.72024669408E+06	-1.24959954956E+01	-1.65738759716E+02	1.13316520906E+01	1.71425124450E+02	-4.72244662358E+01	-7.83314424170E+01	-5.86422284941E+00	-7.51836293580E-01
1.74243804867E+06	-1.23929720841E+01	-1.64309375825E+02	1.13973386367E+01	1.71221988170E+02	-4.85249894640E+01	7.71864537489E+01	-5.85219774312E+00	-1.03370382036E+00
1.76462940327E+06	-1.59980990048E+01	-1.60886831822E+02	1.13982029613E+01	1.71265786743E+02	-4.48628153398E+01	-7.08534394726E+01	-5.87615404682E+00	-8.56763570951E-01
1.78682075786E+06	-1.25872671728E+01	-1.00027108441E+02	1.14532022844E+01	1.71223965035E+02	-4.71513056482E+01	8.32487542966E+01	-5.88218523343E+00	-9.40365710003E-01
1.80901211246E+06	-1.24661462789E+01	-1.75785613761E+02	1.13710750586E+01	1.71284202816E+02	-4.58762702104E+01	1.67542294509E+02	-5.85959723554E+00	-8.13356337891E-01
1.83120346705E+06	-1.39196149252E+01	-1.46980496208E+02	1.14019964551E+01	1.70718428351E+02	-5.52833692894E+01	1.49408373491E+02	-5.87107007705E+00	-9.86606791698E-01
1.85339482165E+06	-1.21697783827E+01	-1.55927596354E+02	1.13882316926E+01	1.70616738501E+02	-4.38036328256E+01	1.09940794884E+02	-5.86101396188E+00	-1.13457041062E+00
1.87558617624E+06	-1.62893413021E+01	-1.49704818909E+02	1.14248045629E+01	1.70632093211E+02	-4.08629829113E+01	6.77326370212E+01	-5.86032981291E+00	-1.09393392798E+00
1.89777753084E+06	-1.59800980239E+01	-1.64107897168E+02	1.14098794733E+01	1.70593466451E+02	-3.41882989332E+01	3.64659091339E+01	-5.86528037680E+00	-1.22282716526E+00
1.91996888543E+06	-1.24621009537E+01	-1.74392286340E+02	1.13665825272E+01	1.70252388617E+02	-5.49786145523E+01	1.44978000812E+02	-5.89701794364E+00	-9.61019079490E-01
1.94216024003E+06	-1.74132577334E+01	-1.39331753701E+02	1.13922977595E+01	1.70310947788E+02	-4.62029875254E+01	-1.48866322398E+02	-5.87681779745E+00	-7.49810888859E-01
1.96435159462E+06	-1.18147231030E+01	-1.64623790923E+02	1.13725405793E+01	1.70023424311E+02	-4.81797588530E+01	-9.98984940420E+01	-5.88675268648E+00	-8.59900646563E-01
1.98654294922E+06	-1.67154053258E+01	-1.62046047449E+02	1.13766079031E+01	1.69994169107E+02	-4.16136354760E+01	1.37886204410E+02	-5.84483070296E+00	-1.22199686417E+00
2.00873430381E+06	-1.28852787362E+01	-1.77950129751E+02	1.13651993911E+01	1.70137663478E+02	-4.11925219987E+01	-4.69442335921E+01	-5.88646579292E+00	-1.00419281720E+00
2.03092565841E+06	-1.35226592292E+01	-1.76247588508E+02	1.13559157420E+01	1.69757938522E+02	-6.29297222439E+01	-6.81104587578E+01	-5.87127079672E+00	-1.16258770676E+00
2.05311701300E+06	-1.33022033673E+01	-1.69772076839E+02	1.13635573326E+01	1.69710566770E+02	-4.45554766176E+01	-2.84205353966E+01	-5.88079271174E+00	-1.12596136407E+00
2.07530836760E+06	-1.27626277045E+01	1.61856851577E+02	1.13377173414E+01	1.69690058213E+02	-5.93761075235E+01	-7.73723735478E+01	-5.87686452175E+00	-8.07026772002E-01
2.09749972219E+06	-1.16702762720E+01	-1.48175324253E+02	1.14077042081E+01	1.69067929374E+02	-4.40169350482E+01	1.60498107415E+01	-5.88948496596E+00	-1.15581716453E+00
2.11969107679E+06	-1.25914682765E+01	-1.65598676940E+02	1.13909026850E+01	1.69139298070E+02	-4.78831344141E+01	-9.20539606179E+01	-5.89079285401E+00	-1.10754954207E+00
2.14188243138E+06	-1.29384371204E+01	1.79540268501E+02	1.13694967372E+01	1.69211813977E+02	-4.58094164578E+01	1.63129315392E+02	-5.85882285846E+00	-1.17500787791E+00
2.16407378598E+06	-1.16571506579E+01	-1.65692609027E+02	1.13626837026E+01	1.68807542743E+02	-4.44483456824E+01	-1.07324739390E+02	-5.87013394937E+00	-1.02704772684E+00
2.18626514057E+06	-1.14286163503E+01	-1.67650062729E+02	1.13718752670E+01	1.68522194968E+02	-4.20001336216E+01	9.33417580091E+01	-5.86613286002E+00	-1.25870307298E+00
2.20845649517E+06	-1.12219859747E+01	-1.44815841475E+02	1.13854056147E+01	1.68448162628E+02	-3.61782615352E+01	-1.77086844843E+02	-5.85109866970E+00	-9.79135180863E-01
2.23064784976E+06	-1.20477167163E+01	-1.54013606321E+02	1.13955081936E+01	1.68425800309E+02	-4.21009967823E+01	7.02993782136E+01	-5.88310358904E+00	-1.21995020277E+00
2.25283920436E+06	-1.10134544676E+01	1.59882084571E+02	1.13020497721E+01	1.68303415269E+02	-5.38245618743E+01	-2.48760214188E+01	-5.88407897098E+00	-1.10517711147E+00
2.27503055895E+06	-1.26058179606E+01	1.78171401688E+02	1.13848457796E+01	1.68282786637E+02	-3.77440054600E+01	-8.66254474802E+01	-5.89192208183E+00	-8.68485761812E-01
2.29722191355E+06	-1.41969929159E+01	-1.56583099701E+02	1.14029138411E+01	1.68235980251E+02	-4.13886100697E+01	-1.58664903693E+02	-5.84670492325E+00	-1.15961623362E+00
2.31941326814E+06	-1.36062690743E+01	-1.76842661653E+02	1.13945251989E+01	1.68258369093E+02	-4.19976267832E+01	1.14751150135E+02	-5.84511869237E+00	-1.22225589869E+00
2.34160462274E+06	-1.36709216140E+01	-1.58345142449E+02	1.13917099390E+01	1.67787534121E+02	-4.42847277981E+01	1.42278050805E+02	-5.86378334542E+00	-1.27274755423E+00
2.36379597733E+06	-1.33087405501E+01	-1.57561163080E+02	1.14039452321E+01	1.67788838285E+02	-3.02998750257E+01	1.02068978373E+02	-5.77146110815E+00	-1.47721658463E+00
2.38598733193E+06	-1.34932055118E+01	-1.51522126279E+02	1.14562364675E+01	1.67638729524E+02	-5.18912904225E+01	6.60804556806E+01	-5.90127554826E+00	-1.18700086402E+00
2.40817868652E+06	-1.13429478073E+01	-1.67922910401E+02	1.13692480105E+01	1.67370897363E+02	-4.86619265399E+01	3.02205774371E+01	-5.86372919361E+00	-1.50501292946E+00
2.43037004112E+06	-1.43274298782E+01	-1.79010161352E+02	1.13633423956E+01	1.67578895285E+02	-5.07112185249E+01	-1.75535513618E+02	-5.85543507503E+00	-1.59598961986E+00
2.45256139571E+06	-1.21131547866E+01	-1.69644746424E+02	1.13752280325E+01	1.67360268396E+02	-5.14346437056E+01	3.09412958474E+01	-5.88226096854E+00	-1.29801151425E+00
2.47475275031E+06	-1.23727067160E+01	-1.67057388038E+02	1.13905279397E+01	1.67255132416E+02	-4.60673745243E+01	-6.56416976311E+01	-5.87130989559E+00	-1.15590299402E+00
2.49694410490E+06	-1.22457621809E+01	-1.72858552708E+02	1.13754915134E+01	1.67094830004E+02	-4.82148373881E+01	-8.32293884394E+00	-5.90646929428E+00	-1.40823098845E+00
2.51913545950E+06	-1.22848876460E+01	-1.52485565786E+02	1.14107231939E+01	1.66692127597E+02	-4.29002965149E+01	-1.46876746549E+02	-5.86034954836E+00	-1.30694857686E+00
2.54132681409E+06	-1.29329850481E+01	-1.70169716567E+02	1.13828363334E+01	1.66884273118E+02	-3.79064021246E+01	5.11928310454E+01	-5.86256009087E+00	-1.50366808602E+00
2.56351816869E+06	-9.57285510068E+00	-1.59177952096E+02	1.14206837920E+01	1.66406203111E+02	-4.81089409444E+01	8.99869060668E+00	-5.87946515439E+00	-1.44895169899E+00
2.58570952328E+06	-1.42558944494E+01	-1.71276904876E+02	1.13818753411E+01	1.66606672052E+02	-4.83341262493E+01	-4.79912542172E+01	-5.88100700859E+00	-1.31149048517E+00
2.60790087788E+06	-1.23237194908E+01	-1.68843876147E+02	1.13829343852E+01	1.66523173577E+02	-5.04381563338E+01	-1.28793849647E+02	-5.90016018272E+00	-1.27744910114E+00
2.63009223247E+06	-1.46314215680E+01	-1.52546348964E+02	1.14172215095E+01	1.66463486434E+02	-4.25172285638E+01	1.12858605914E+02	-5.86441792633E+00	-1.12965916684E+00
2.65228358707E+06	-1.02945085081E+01	-1.46434438846E+02	1.14282077042E+01	1.65837244863E+02	-5.22586180386E+01	8.23260828672E+01	-5.86987648446E+00	-1.61541323610E+00
2.67447494166E+06	-1.38856451586E+01	-1.63305142887E+02	1.14116984484E+01	1.66256815465E+02	-3.63501836708E+01	7.43332446334E+01	-5.86729050891E+00	-1.60100892339E+00
2.69666629626E+06	-1.54463751779E+01	-1.66127507682E+02	1.14067723976E+01	1.66255574616E+02	-3.75471101209E+01	-1.37932968995E+02	-5.87431360013E+00	-1.10276928062E+00
2.71885765085E+06	-1.98526572565E+01	1.58435195999E+02	1.14081923287E+01	1.66384618449E+02	-4.71732976087E+01	1.24570865771E+02	-5.86235171022E+00	-1.52243383482E+00
2.74104900545E+06	-1.24707986981E+01	1.79660171081E+02	1.13813343861E+01	1.65648623243E+02	-4.45135851027E+01	-2.06365369940E+01	-5.90415658067E+00	-1.42376542176E+00
2.76324036004E+06	-1.33650637398E+01	-1.61636965610E+02	1.14274805668E+01	1.65599332159E+02	-4.37348879986E+01	4.05231507090E+01	-5.88884631124E+00	-1.54707365973E+00
2.78543171463E+06	-1.19835478223E+01	-1.69768155138E+02	1.14274964855E+01	1.65432068757E+02	-4.76255276010E+01	4.64763583083E+01	-5.89286420648E+00	-1.57124632511E+00
2.80762306923E+06	-1.25430961494E+01	1.76729391212E+02	1.14163534220E+01	1.65549084607E+02	-4.32585459986E+01	1.45492104008E+02	-5.85745746751E+00	-1.46974186150E+00
2.82981442382E+06	-1.46411150089E+01	-1.70067463101E+02	1.13863169875E+01	1.65292610786E+02	-5.33423972832E+01	1.05999417695E+02	-5.86766669666E+00	-1.52498905933E+00
2.85200577842E+06	-1.14450162663E+01	-1.64523495972E+02	1.13955755867E+01	1.65148699080E+02	-3.79257193611E+01	-5.49236286961E+00	-5.89629608721E+00	-1.47364851874E+00
2.87419713301E+06	-1.16815292626E+01	-1.67668905430E+02	1.14206254939E+01	1.65119823496E+02	-5.10676764864E+01	3.75533431281E+01	-5.89281277331E+00	-1.47926366193E+00
