# Hz S DB R 50
! CMT, M5065, 19127446, 24.2.4/2
! Date: 11/8/2024 5:33:32 PM
! Data: Format (Calibration Info)
! Freq	S11:dB/Ang(F2)	S21:dB/Ang(F2)	S12:dB/Ang(F2)	S22:dB/Ang(F2)
3.00000000000E+05	-1.47073597322E+01	-1.71092288066E+02	2.28870391584E+01	-1.75661082340E+02	-4.18406882652E+01	1.62502611287E+02	-5.78198139984E+00	-3.26688630535E-01
3.22191354595E+05	-1.29819628520E+01	1.69497126052E+02	2.28778952401E+01	-1.76636866425E+02	-4.34011145637E+01	5.85068337063E+01	-5.90777659568E+00	-7.57382815564E-01
3.44382709190E+05	-1.46703537754E+01	1.79838757238E+02	2.28913640344E+01	-1.77618845809E+02	-4.46330412031E+01	-1.17701674778E+02	-5.85859838010E+00	-9.17308243634E-02
3.66574063785E+05	-1.38815403692E+01	1.77902444953E+02	2.29033545908E+01	-1.78441756141E+02	-4.27888401422E+01	2.42087502742E+01	-5.90609046663E+00	-5.55466328352E-01
3.88765418380E+05	-1.35359159785E+01	-1.56667074533E+02	2.29642638048E+01	-1.78535942721E+02	-4.67040405564E+01	1.59927210183E+02	-5.91151625858E+00	-3.48426719333E-01
4.10956772975E+05	-1.37286849522E+01	-1.57104025692E+02	2.29083913069E+01	-1.79790846179E+02	-4.63872251289E+01	1.36753668196E+02	-5.85661475274E+00	-7.69559467783E-01
4.33148127570E+05	-1.22837724838E+01	-1.66352674791E+02	2.28935544894E+01	1.79667437886E+02	-5.07818456680E+01	5.73031171533E+01	-5.90512016811E+00	-6.59186092056E-01
4.55339482165E+05	-1.20279860958E+01	-1.72321453785E+02	2.28583507139E+01	1.78942796383E+02	-4.52849669735E+01	3.17836391708E+01	-5.95504092492E+00	-2.09393663779E-01
4.77530836760E+05	-1.50553564494E+01	-1.77097433109E+02	2.29077522004E+01	1.78552711479E+02	-4.64458188648E+01	1.15347961520E+02	-5.81052245412E+00	-5.05182060209E-01
4.99722191355E+05	-1.63467903079E+01	1.74446859358E+02	2.28950593433E+01	1.77996076947E+02	-4.12104305249E+01	1.48874877391E+02	-5.78666882414E+00	-6.87711897017E-01
5.21913545950E+05	-1.17606666219E+01	-1.38857679327E+02	2.28967905083E+01	1.77196942946E+02	-4.53701838678E+01	-9.26150745722E-01	-5.94403572669E+00	-4.33517840038E-01
5.44104900545E+05	-1.34789710590E+01	-1.59710476343E+02	2.29035466549E+01	1.76859474960E+02	-4.43859158005E+01	2.20721086351E+01	-5.91960406356E+00	-6.92141934061E-01
5.66296255139E+05	-1.40006435804E+01	-1.68441146448E+02	2.28914345831E+01	1.76468619123E+02	-4.04804347658E+01	1.33355014953E+02	-5.81419596101E+00	-8.49451501943E-01
5.88487609734E+05	-1.33579289675E+01	1.70560829494E+02	2.28746631550E+01	1.76011759055E+02	-4.93893029412E+01	-9.71341230796E+01	-5.91378690456E+00	-1.80892176060E-01
6.10678964329E+05	-1.11490092402E+01	-1.74953273030E+02	2.28504656558E+01	1.75563902434E+02	-4.99544144364E+01	-7.47037241296E+01	-5.89331453823E+00	2.05102341700E-01
6.32870318924E+05	-1.14670065618E+01	1.69564744021E+02	2.28384082921E+01	1.75153717347E+02	-4.58214447313E+01	-9.95954943953E+01	-5.87606523900E+00	-4.03842542267E-01
6.55061673519E+05	-1.34277214878E+01	-1.74699919508E+02	2.28640104783E+01	1.74684262516E+02	-5.15257841135E+01	-5.48255826155E+00	-5.88066178646E+00	-3.25645337771E-01
6.77253028114E+05	-1.27680398169E+01	-1.63743240839E+02	2.28737140043E+01	1.74062064473E+02	-4.08373940571E+01	1.55814890958E+02	-5.78912747297E+00	-1.06956836830E+00
6.99444382709E+05	-1.27130557425E+01	1.76402259338E+02	2.28555529845E+01	1.73872284451E+02	-5.37986842481E+01	-1.23414783418E+02	-5.86468390147E+00	-5.00149197903E-01
7.21635737304E+05	-1.56995585548E+01	-1.78501733715E+02	2.28797733456E+01	1.73415873748E+02	-4.08794587451E+01	4.12360412788E+01	-5.89920467806E+00	-1.06330079446E+00
7.43827091899E+05	-1.27612312715E+01	-1.74822110140E+02	2.28425317249E+01	1.73021084971E+02	-4.62755661742E+01	9.85693502423E+01	-5.85669717805E+00	-7.32706838829E-01
7.66018446494E+05	-1.09255926526E+01	1.71114427898E+02	2.28159041853E+01	1.72754611501E+02	-5.83578635029E+01	4.19269769654E+01	-5.86364878475E+00	-6.10437236062E-01
7.88209801089E+05	-1.30497196637E+01	-1.76238300416E+02	2.28383413622E+01	1.72266803017E+02	-5.08393312056E+01	-1.46255204911E+02	-5.84253348833E+00	-1.99779534769E-01
8.10401155684E+05	-1.09894646542E+01	1.73896223311E+02	2.27804389947E+01	1.71827768896E+02	-4.13585882365E+01	-6.18125772837E+01	-5.91276252924E+00	-1.11108770464E-01
8.32592510279E+05	-1.25360031923E+01	-1.53835621392E+02	2.28284142823E+01	1.71155512520E+02	-4.86340028820E+01	8.98645934145E+01	-5.87785609509E+00	-8.25367525156E-01
8.54783864874E+05	-1.29762321225E+01	-1.69093169202E+02	2.28357604218E+01	1.70949325741E+02	-5.48187817319E+01	-7.56929848057E+01	-5.85441845111E+00	-4.31042286477E-01
8.76975219469E+05	-1.21384542043E+01	-1.75744218168E+02	2.28114404338E+01	1.70726688303E+02	-4.56226151025E+01	-1.26371885084E+02	-5.85649426757E+00	-6.33926236432E-02
8.99166574064E+05	-1.19865562608E+01	-1.76898794331E+02	2.28123574766E+01	1.70310603060E+02	-4.31266304187E+01	-7.40142253222E+00	-5.94808167889E+00	-4.39162372974E-01
9.21357928659E+05	-1.21124486201E+01	-1.72738125247E+02	2.27934013698E+01	1.70080281895E+02	-4.09371808796E+01	-1.59767497941E+02	-5.79619172529E+00	-4.26153607311E-01
9.43549283254E+05	-1.31216165146E+01	-1.75056342193E+02	2.27931275563E+01	1.69715134358E+02	-3.64811494902E+01	-1.30519594085E+02	-5.82446898540E+00	-3.11116156971E-01
9.65740637849E+05	-1.69994390793E+01	-1.74638414750E+02	2.28051220768E+01	1.69255177279E+02	-4.63594515821E+01	6.43302222882E+01	-5.86145651127E+00	-8.88354084343E-01
9.87931992444E+05	-1.38121050375E+01	-1.59746848834E+02	2.27787665301E+01	1.68878489993E+02	-4.78084578627E+01	1.56901181871E+02	-5.83953351299E+00	-6.86706184535E-01
1.01012334704E+06	-1.50901811991E+01	1.78900118316E+02	2.27783669723E+01	1.68712763105E+02	-4.43763653891E+01	1.61273357312E+01	-5.93843420895E+00	-8.63944522295E-01
1.03231470163E+06	-1.57310838077E+01	-1.79745770210E+02	2.27903346801E+01	1.68279518714E+02	-4.59061400392E+01	1.63464600383E+02	-5.79875630865E+00	-6.72600222625E-01
1.05450605623E+06	-1.27244098272E+01	-1.49103054150E+02	2.27762725202E+01	1.67640990531E+02	-4.40896020830E+01	-1.22187566055E+02	-5.82042499300E+00	-3.32724827658E-01
1.07669741082E+06	-1.29103384263E+01	-1.76654703259E+02	2.28396430353E+01	1.67475988212E+02	-4.59771806892E+01	2.75621996429E+01	-5.88043493695E+00	-7.03871616318E-01
1.09888876542E+06	-1.13147354855E+01	-1.60951832107E+02	2.27499550545E+01	1.67186966237E+02	-5.67573566465E+01	1.39974124213E+02	-5.86806114435E+00	-8.29215012837E-01
1.12108012001E+06	-1.37195494949E+01	-1.70902835332E+02	2.27578831717E+01	1.66840886033E+02	-5.56504398689E+01	-1.26284465458E+02	-5.85695135582E+00	-7.23263674908E-01
1.14327147461E+06	-1.10901172567E+01	-1.76373516241E+02	2.27388035821E+01	1.66542631103E+02	-4.30371980797E+01	-1.67379439741E+02	-5.76339198148E+00	-5.99291521131E-01
1.16546282920E+06	-1.31789809725E+01	-1.63359117258E+02	2.27430001514E+01	1.66156184486E+02	-5.57251619997E+01	1.25189672964E+01	-5.91425539740E+00	-7.35812262983E-01
1.18765418380E+06	-1.44646608203E+01	-1.61058696822E+02	2.27563561244E+01	1.65905521442E+02	-5.01886323435E+01	1.45447570262E+02	-5.79821599449E+00	-7.91554832863E-01
1.20984553839E+06	-1.50616895744E+01	-1.77894689809E+02	2.27356017609E+01	1.65674638235E+02	-3.70043224130E+01	1.00996989386E+02	-5.81382504026E+00	-1.79804233794E+00
1.23203689299E+06	-1.01832473465E+01	1.65106194189E+02	2.26756436733E+01	1.65412365753E+02	-4.21615281624E+01	-1.39257718009E+02	-5.83638314133E+00	-7.72673460826E-02
1.25422824758E+06	-1.07647999490E+01	-1.65367934521E+02	2.26900344421E+01	1.64797848822E+02	-4.02565617950E+01	1.51332140091E+02	-5.84460477795E+00	-1.03025789407E+00
1.27641960218E+06	-1.38823459879E+01	1.68163960384E+02	2.27204057505E+01	1.64875618023E+02	-4.91211133044E+01	2.29570264262E+01	-5.90653409616E+00	-8.79090315535E-01
1.29861095677E+06	-1.07472842795E+01	1.77344177037E+02	2.26643500727E+01	1.64480860282E+02	-4.56275867469E+01	9.87111534206E+01	-5.86189071869E+00	-9.26215766303E-01
1.32080231137E+06	-1.23717487350E+01	1.73038254132E+02	2.26797891418E+01	1.64171461144E+02	-4.67101931001E+01	-6.96384571209E+01	-5.90334246545E+00	-8.79336999434E-01
1.34299366596E+06	-1.29763536894E+01	-1.69640208250E+02	2.26826516352E+01	1.63667040998E+02	-4.59988360080E+01	1.21645864812E+02	-5.85108113909E+00	-1.18309408573E+00
1.36518502056E+06	-9.92332260409E+00	-1.71241516220E+02	2.26573379668E+01	1.63361842397E+02	-4.96076194498E+01	-1.62293085552E+02	-5.83917243012E+00	-9.18017115452E-01
1.38737637515E+06	-1.44489990376E+01	-1.64358074994E+02	2.26626409562E+01	1.63021158590E+02	-4.66508126579E+01	-7.93964391087E+01	-5.89635326997E+00	-6.88402062682E-01
1.40956772975E+06	-1.08782880461E+01	-1.70997612034E+02	2.26367136284E+01	1.62638056062E+02	-4.64846512935E+01	7.13031801925E+01	-5.89188324086E+00	-1.13529064887E+00
1.43175908434E+06	-1.30982842536E+01	1.77021441260E+02	2.26370598206E+01	1.62608935114E+02	-5.48069543476E+01	-1.12164289352E+02	-5.85714042749E+00	-7.94960068301E-01
1.45395043894E+06	-1.66132238029E+01	-1.65969638340E+02	2.26691527045E+01	1.62231252680E+02	-4.54399348863E+01	8.33512888459E+00	-5.93398796866E+00	-8.35553651705E-01
1.47614179353E+06	-1.61141913456E+01	1.71418301451E+02	2.26695743756E+01	1.62052387164E+02	-4.31059339363E+01	1.61962469661E+02	-5.78659913491E+00	-1.05837992298E+00
1.49833314813E+06	-1.42357386875E+01	-1.52429260574E+02	2.26815370268E+01	1.61481006178E+02	-4.24744224202E+01	-1.15402218066E+02	-5.84285350239E+00	-2.18220038294E-01
1.52052450272E+06	-1.04044017898E+01	-1.75127433650E+02	2.26144057845E+01	1.61142538330E+02	-4.94590514548E+01	-1.33473604579E+02	-5.84431542478E+00	-7.13054318352E-01
1.54271585732E+06	-1.34600745449E+01	-1.73125347675E+02	2.26356514750E+01	1.60983932345E+02	-4.42446499515E+01	-2.55921956520E+01	-5.93354811836E+00	-6.64100008388E-01
1.56490721191E+06	-1.23357746624E+01	-1.64887969697E+02	2.26183441023E+01	1.60624236786E+02	-3.81499119111E+01	4.30278887348E+01	-5.89278854656E+00	-1.14134863303E+00
1.58709856651E+06	-1.15601521208E+01	-1.49074253878E+02	2.26336222333E+01	1.60078233468E+02	-4.69214801384E+01	-1.55680506642E+02	-5.84743862062E+00	-8.82457166954E-01
1.60928992110E+06	-1.68096499893E+01	-1.76596068081E+02	2.26214431538E+01	1.60353802236E+02	-4.25354129439E+01	1.32820090568E+02	-5.80502084577E+00	-1.25096449983E+00
1.63148127570E+06	-1.13802073153E+01	-1.70801571546E+02	2.25945674937E+01	1.59501599023E+02	-4.77127658295E+01	1.56186323957E+02	-5.80946447660E+00	-8.82160908944E-01
1.65367263029E+06	-1.13930414829E+01	1.75289187318E+02	2.25732121657E+01	1.59546466139E+02	-5.92986948842E+01	1.01793435195E+01	-5.88441332783E+00	-8.69866542140E-01
1.67586398489E+06	-1.11070779727E+01	-1.60152109150E+02	2.25710590533E+01	1.58846929253E+02	-4.27468369815E+01	1.77099252773E+02	-5.79965110379E+00	-8.77859898971E-01
1.69805533948E+06	-1.10054971696E+01	-1.66164211062E+02	2.25704412853E+01	1.58649592521E+02	-4.83350214106E+01	1.64947581202E+02	-5.83920080740E+00	-7.79335820382E-01
1.72024669408E+06	-1.42091440248E+01	-1.74595252745E+02	2.25663461441E+01	1.58622505304E+02	-4.13866208517E+01	6.01005835801E+01	-5.86660569552E+00	-1.31342681279E+00
1.74243804867E+06	-1.46307555110E+01	-1.62966991869E+02	2.25847823220E+01	1.58248394929E+02	-4.94581943165E+01	7.54237443871E+01	-5.89771043861E+00	-1.24417798216E+00
1.76462940327E+06	-1.16586278920E+01	-1.78186108141E+02	2.25251730255E+01	1.57989686847E+02	-4.48689960906E+01	7.09006578818E+01	-5.86587268444E+00	-1.44667172519E+00
1.78682075786E+06	-1.38397381940E+01	-1.60667052913E+02	2.25671409539E+01	1.57581845799E+02	-6.26603218933E+01	-7.62086572584E+01	-5.86929927028E+00	-8.89333155939E-01
1.80901211246E+06	-1.24651503969E+01	-1.51904071705E+02	2.25700194750E+01	1.57088956729E+02	-4.64527769554E+01	-1.65717140795E+02	-5.84290227762E+00	-7.91327102669E-01
1.83120346705E+06	-1.38771971736E+01	-1.48124058417E+02	2.25536037756E+01	1.56881238704E+02	-5.27101129441E+01	8.25088579782E+01	-5.87557131881E+00	-1.05056976236E+00
1.85339482165E+06	-1.23800490967E+01	-1.79866585098E+02	2.24979924058E+01	1.56811553182E+02	-4.31515708472E+01	1.40619027271E+02	-5.80264047212E+00	-1.35259558996E+00
1.87558617624E+06	-1.36346282174E+01	-1.70067298845E+02	2.25166353290E+01	1.56500101643E+02	-4.21375847083E+01	1.45221526299E+01	-5.89400459503E+00	-1.55092117959E+00
1.89777753084E+06	-1.16486557533E+01	-1.64721324895E+02	2.25151062985E+01	1.56053661739E+02	-4.46747833655E+01	1.57148271364E+02	-5.81229622686E+00	-1.08413167931E+00
1.91996888543E+06	-1.32468440952E+01	-1.67870983065E+02	2.25072725885E+01	1.55824527308E+02	-4.68323827430E+01	1.40064625585E+02	-5.83863731047E+00	-1.23765987601E+00
1.94216024003E+06	-8.78906939413E+00	1.76510442137E+02	2.24817972513E+01	1.55535947012E+02	-4.29391525955E+01	8.16828700063E+01	-5.87221159994E+00	-1.59911727714E+00
1.96435159462E+06	-1.17152825717E+01	-1.67979122658E+02	2.24774278276E+01	1.55238797801E+02	-4.65235491486E+01	-1.15538554356E+02	-5.86361205051E+00	-9.78837798211E-01
1.98654294922E+06	-1.21154913125E+01	-1.76720350230E+02	2.24613628553E+01	1.55001995506E+02	-4.89972017856E+01	-6.64035292417E+01	-5.87201597339E+00	-9.35161516777E-01
2.00873430381E+06	-1.44930993394E+01	-1.78266311391E+02	2.24561504636E+01	1.54690540239E+02	-5.11644962781E+01	3.39807400680E+01	-5.88830697073E+00	-1.10605781465E+00
2.03092565841E+06	-1.75139716067E+01	-1.59927800360E+02	2.25126786769E+01	1.54621143195E+02	-4.10339361740E+01	-3.40592445640E+00	-5.93305705922E+00	-1.24342940366E+00
2.05311701300E+06	-1.44674616519E+01	-1.56930007671E+02	2.24846235438E+01	1.54106186669E+02	-4.22407644168E+01	7.68658115349E+01	-5.87700698589E+00	-1.81678358393E+00
2.07530836760E+06	-1.18029846506E+01	-1.65181798438E+02	2.24478211796E+01	1.53648487798E+02	-4.43215668415E+01	2.83095448573E+01	-5.91247456496E+00	-1.46147712564E+00
2.09749972219E+06	-1.47863906991E+01	-1.40683562849E+02	2.24791253951E+01	1.53504292729E+02	-4.34090864284E+01	1.47740846243E+02	-5.79548684174E+00	-1.23246049219E+00
2.11969107679E+06	-1.35356031124E+01	-1.64224065125E+02	2.24472647614E+01	1.53342175434E+02	-4.30900964846E+01	2.33289147180E+01	-5.94733966251E+00	-1.64816245419E+00
2.14188243138E+06	-1.26951314312E+01	-1.71676230242E+02	2.24136831182E+01	1.52998512623E+02	-4.05200373726E+01	-1.00134960869E+01	-5.95784914415E+00	-1.21583649100E+00
2.16407378598E+06	-1.29607053971E+01	-1.57045485120E+02	2.24284900158E+01	1.52558798356E+02	-5.27904229612E+01	-4.42527756760E+01	-5.87979352969E+00	-1.07236613528E+00
2.18626514057E+06	-1.28122482102E+01	-1.62866984593E+02	2.24220388047E+01	1.52459627149E+02	-3.64107413784E+01	1.64505389726E+02	-5.73969365722E+00	-1.45124109752E+00
2.20845649517E+06	-1.18706565871E+01	-1.48774400546E+02	2.24333554132E+01	1.51949656228E+02	-3.78487529895E+01	-7.99863285236E+01	-5.89650381223E+00	-5.30399902418E-01
2.23064784976E+06	-1.61349935077E+01	-1.68498891976E+02	2.24171839980E+01	1.51931183343E+02	-4.27178461184E+01	4.42222765602E+01	-5.89928249521E+00	-1.52578244398E+00
2.25283920436E+06	-1.05565311988E+01	-1.65718841028E+02	2.23736778849E+01	1.51226294016E+02	-4.28874577752E+01	-1.64777075129E+02	-5.75788477574E+00	-9.58825481533E-01
2.27503055895E+06	-1.43314664037E+01	-1.59845531060E+02	2.23763269965E+01	1.51334062311E+02	-4.31568153104E+01	1.81976399028E+01	-5.97113041158E+00	-1.33960808740E+00
2.29722191355E+06	-1.49196509761E+01	-1.72253322744E+02	2.23767886895E+01	1.51159760830E+02	-4.13341989754E+01	-1.72463959105E+02	-5.75700364596E+00	-1.29902916245E+00
2.31941326814E+06	-1.17860602762E+01	-1.56734002423E+02	2.23833499685E+01	1.50513745493E+02	-4.28683895222E+01	4.84793383427E+01	-5.94283718872E+00	-1.63862485462E+00
2.34160462274E+06	-1.42089539149E+01	-1.57168495368E+02	2.23886592620E+01	1.50414018005E+02	-3.40403402753E+01	1.44568953573E+02	-5.73558394572E+00	-1.92348000096E+00
2.36379597733E+06	-1.36773181707E+01	-1.55302656805E+02	2.23591636975E+01	1.50203417517E+02	-4.14047315055E+01	3.37089202401E+01	-5.96140320833E+00	-1.78291457342E+00
2.38598733193E+06	-1.24965276896E+01	-1.60831750576E+02	2.23400037791E+01	1.49825965612E+02	-4.18024884932E+01	1.21064443883E+02	-5.81781442509E+00	-1.81446571177E+00
2.40817868652E+06	-1.26345003000E+01	-1.56601817528E+02	2.23361093016E+01	1.49540168365E+02	-5.26618265356E+01	3.94037155892E+01	-5.89516367848E+00	-1.46803980772E+00
2.43037004112E+06	-1.10362499136E+01	1.79731534940E+02	2.22876190568E+01	1.49267927259E+02	-5.85490456274E+01	-8.29803374948E+01	-5.85975649925E+00	-1.69586860808E+00
2.45256139571E+06	-1.39923292086E+01	-1.75963852939E+02	2.23082147339E+01	1.49218722830E+02	-4.87105971438E+01	-1.62502957977E+02	-5.84297413393E+00	-1.05468042157E+00
2.47475275031E+06	-1.06834494303E+01	-1.64026935992E+02	2.22932013012E+01	1.48435601938E+02	-4.73157131308E+01	3.76118352494E+01	-5.92698634268E+00	-1.62929842483E+00
2.49694410490E+06	-9.96489721158E+00	-1.59493535486E+02	2.22722435614E+01	1.48165916485E+02	-3.14398439355E+01	1.62477281654E+02	-5.68646713309E+00	-1.46179685509E+00
2.51913545950E+06	-1.39243840988E+01	-1.49538850050E+02	2.23140357093E+01	1.48068440570E+02	-3.25849723204E+01	-1.46996336100E+02	-5.73978920990E+00	-5.79696094703E-01
2.54132681409E+06	-1.42645572876E+01	-1.76136973136E+02	2.22853294313E+01	1.48036771096E+02	-4.44006622748E+01	-7.68413282156E+01	-5.89398440461E+00	-9.00450817353E-01
2.56351816869E+06	-1.44875022215E+01	-1.64125935171E+02	2.22954296525E+01	1.47687492030E+02	-4.37803288359E+01	-1.74377751488E+02	-5.80636782915E+00	-1.29879352092E+00
2.58570952328E+06	-1.07068075989E+01	1.76673463585E+02	2.22204204551E+01	1.47318195603E+02	-4.29327394182E+01	-1.04068047067E+02	-5.83749062265E+00	-7.64297316267E-01
2.60790087788E+06	-1.25308699617E+01	-1.64331434975E+02	2.22580124079E+01	1.47024541904E+02	-5.41421978125E+01	-1.67929601258E+02	-5.82143922634E+00	-1.30472937169E+00
2.63009223247E+06	-1.20259270356E+01	-1.77688501714E+02	2.22422086123E+01	1.46826370920E+02	-5.31668950810E+01	-6.68256490333E+01	-5.86334485271E+00	-8.18619798262E-01
2.65228358707E+06	-1.30245836322E+01	-1.78865910569E+02	2.22308566170E+01	1.46518738217E+02	-3.58989510993E+01	-3.39548249403E+01	-5.96554240287E+00	-9.09983063272E-01
2.67447494166E+06	-1.58011479037E+01	-1.64801705876E+02	2.22422597542E+01	1.46335048994E+02	-4.02592798945E+01	-1.10089011313E+02	-5.82863465944E+00	-1.01803844912E+00
2.69666629626E+06	-1.45094417757E+01	-1.56241198001E+02	2.22219658097E+01	1.45903491183E+02	-4.67597583600E+01	-1.47566308082E+02	-5.83674976471E+00	-1.36544161448E+00
2.71885765085E+06	-1.47614663504E+01	-1.65704289674E+02	2.22155206281E+01	1.45666719795E+02	-5.14986481255E+01	1.66145713156E+02	-5.83511972851E+00	-1.60486139667E+00
2.74104900545E+06	-1.27150555040E+01	-1.75169501494E+02	2.21456078690E+01	1.45413561803E+02	-5.32891725326E+01	-1.75333900671E+02	-5.85722473289E+00	-1.42977477652E+00
2.76324036004E+06	-9.35221567333E+00	-1.74617338248E+02	2.21347298652E+01	1.44889177930E+02	-4.21909960319E+01	-1.70002612680E+02	-5.79706975489E+00	-1.19731846225E+00
2.78543171463E+06	-1.31725367589E+01	-1.59199628057E+02	2.21834007294E+01	1.44829351536E+02	-4.16415433709E+01	-1.65793537348E+02	-5.76058079866E+00	-1.22224020617E+00
2.80762306923E+06	-1.24391655823E+01	1.79159895665E+02	2.21258008669E+01	1.44724740735E+02	-4.58494317911E+01	7.20046803682E+01	-5.88797528217E+00	-2.12414416782E+00
2.82981442382E+06	-1.09048158146E+01	-1.59540352655E+02	2.21631859310E+01	1.44082524110E+02	-4.15043628375E+01	-3.80679674665E+01	-5.91143088892E+00	-1.00798764259E+00
2.85200577842E+06	-1.17068609586E+01	-1.70667374923E+02	2.21271567162E+01	1.43964791320E+02	-4.82530112000E+01	-1.49679389191E+02	-5.82939615621E+00	-1.44833149111E+00
2.87419713301E+06	-1.34029213514E+01	-1.70386269365E+02	2.21506586632E+01	1.43755962268E+02	-4.79623509479E+01	-2.71366569093E+01	-5.91389072938E+00	-1.43073832181E+00
