# Hz S DB R 50
! CMT, M5065, 19127446, 24.2.4/2
! Date: 11/8/2024 5:15:21 PM
! Data: Format (Calibration Info)
! Freq	S11:dB/Ang(F2)	S21:dB/Ang(F2)	S12:dB/Ang(F2)	S22:dB/Ang(F2)
3.00000000000E+05	-1.47857312680E+01	-1.62503334995E+02	1.23385979967E+01	-1.77326602011E+02	-5.46019137053E+01	3.94442934463E+01	-5.88009467717E+00	-4.29063454303E-01
3.22191354595E+05	-1.39728787829E+01	-1.59550323995E+02	1.23420650144E+01	-1.77765384244E+02	-4.58527157479E+01	-1.51113549258E+01	-5.88603082357E+00	-3.50321363829E-02
3.44382709190E+05	-1.04659771702E+01	-1.60120758484E+02	1.23623177861E+01	-1.78346638783E+02	-5.36754418297E+01	1.26411490038E+02	-5.87276983602E+00	-3.97920752105E-01
3.66574063785E+05	-1.47850042380E+01	-1.68763990429E+02	1.23657111700E+01	-1.78615077218E+02	-3.92536580276E+01	1.77363071277E+02	-5.84300136713E+00	-3.78608118329E-01
3.88765418380E+05	-1.79173697755E+01	-1.74860276514E+02	1.23433008884E+01	-1.78935667227E+02	-5.25441204525E+01	-1.63679535680E+02	-5.83510912237E+00	-2.90086776634E-01
4.10956772975E+05	-1.26944672078E+01	-1.73884012518E+02	1.23531550451E+01	-1.79306053317E+02	-4.71743630627E+01	1.36740715089E+02	-5.86553099575E+00	-4.04107137841E-01
4.33148127570E+05	-1.49698708086E+01	1.74443179848E+02	1.23494540335E+01	-1.79368644936E+02	-5.86703635553E+01	9.95782834005E+01	-5.88048892045E+00	-2.98657331593E-01
4.55339482165E+05	-1.29457724514E+01	1.63102633337E+02	1.23288327640E+01	-1.79481479128E+02	-6.64539097768E+01	-7.17616667604E+01	-5.88118567119E+00	-1.86113058428E-01
4.77530836760E+05	-1.56807060715E+01	1.74089980702E+02	1.23603756601E+01	-1.79959245579E+02	-5.41976844759E+01	4.25852951585E+01	-5.88350666037E+00	-4.25859060047E-01
4.99722191355E+05	-1.50933302430E+01	-1.78282488863E+02	1.23575966151E+01	1.79873295943E+02	-4.05798417053E+01	-6.81249700910E+01	-5.91500273842E+00	-3.51372864246E-01
5.21913545950E+05	-1.28052220698E+01	-1.53156897850E+02	1.23641300986E+01	1.79200524604E+02	-4.78988409193E+01	-2.59738587684E+01	-5.85606109548E+00	-4.16520685542E-01
5.44104900545E+05	-1.56988680011E+01	-1.67238840916E+02	1.23602610023E+01	1.79081874855E+02	-4.86496702376E+01	-1.67864307592E+02	-5.88266033481E+00	-4.10428245010E-01
5.66296255139E+05	-1.37137430521E+01	-1.73683412853E+02	1.23766690231E+01	1.78996584408E+02	-5.15597971296E+01	-2.91283317202E+01	-5.88643498457E+00	-3.73477401570E-01
5.88487609734E+05	-1.12311527415E+01	-1.77350882651E+02	1.23529955549E+01	1.78957192028E+02	-5.49963099076E+01	-1.15165507982E+02	-5.85256726403E+00	-3.21372392903E-01
6.10678964329E+05	-1.06856327710E+01	-1.71766693086E+02	1.23266910195E+01	1.78707016599E+02	-5.01445758377E+01	-1.64672360871E+02	-5.86800201889E+00	1.59695092684E-01
6.32870318924E+05	-1.34611204458E+01	-1.60823512379E+02	1.23532837741E+01	1.78412651435E+02	-4.51813980635E+01	-7.03182231166E+01	-5.86595590654E+00	-8.21509581036E-02
6.55061673519E+05	-1.18657659429E+01	-1.52449134627E+02	1.23626087846E+01	1.77906513951E+02	-3.96097968577E+01	-9.42159243217E+01	-5.88818763200E+00	-2.11245564085E-01
6.77253028114E+05	-1.35407071351E+01	-1.77899362185E+02	1.23610895516E+01	1.78051376874E+02	-4.32346517866E+01	-1.74528751252E+02	-5.88401756470E+00	-6.88028589068E-01
6.99444382709E+05	-1.15363683787E+01	-1.65050651169E+02	1.23405614134E+01	1.77759168106E+02	-5.08170209903E+01	-2.36364948382E+01	-5.89835274352E+00	-4.15162349877E-01
7.21635737304E+05	-1.23829294774E+01	-1.69314549970E+02	1.23737641833E+01	1.77480758990E+02	-4.58000121963E+01	-1.52178735964E+00	-5.88018977818E+00	-3.97246986581E-01
7.43827091899E+05	-1.29493013821E+01	-1.71293314882E+02	1.23577547122E+01	1.77504925954E+02	-4.96814526688E+01	1.37090345293E+02	-5.87300891546E+00	-5.40237035748E-01
7.66018446494E+05	-1.23380715802E+01	-1.68374743050E+02	1.23458008171E+01	1.77228818148E+02	-4.19398238355E+01	1.51464858123E+02	-5.86824007733E+00	-4.89716913173E-01
7.88209801089E+05	-1.36996042343E+01	1.66455548497E+02	1.23583788352E+01	1.77379680990E+02	-5.09977632812E+01	1.57844734875E+02	-5.86667697302E+00	-4.71074039696E-01
8.10401155684E+05	-1.52949054295E+01	-1.39884714626E+02	1.23699455756E+01	1.76615344701E+02	-5.15093546100E+01	1.49763406845E+01	-5.88842149688E+00	-5.87467608008E-01
8.32592510279E+05	-1.45441298628E+01	-1.67631077450E+02	1.23722845334E+01	1.76735451837E+02	-4.46099676226E+01	-1.39782855954E+01	-5.86206033828E+00	-4.38554393910E-01
8.54783864874E+05	-1.44616358249E+01	-1.69099845362E+02	1.23708414991E+01	1.76501819781E+02	-5.02835407119E+01	-4.88011904279E+01	-5.88165684259E+00	-3.97267040171E-01
8.76975219469E+05	-1.28573394785E+01	-1.64311162180E+02	1.23346184027E+01	1.76333137196E+02	-6.02052887137E+01	3.20433867244E+01	-5.87259850789E+00	-4.87054118713E-01
8.99166574064E+05	-1.40403997907E+01	1.77085021331E+02	1.23630334066E+01	1.76347311944E+02	-4.36846073522E+01	-1.29689094861E+02	-5.86360342115E+00	-3.64533839175E-01
9.21357928659E+05	-1.49337905253E+01	1.67560853627E+02	1.23589826231E+01	1.76209210575E+02	-4.46962545132E+01	4.96237967867E+01	-5.88900386259E+00	-6.97338542438E-01
9.43549283254E+05	-1.17720763216E+01	-1.70954654407E+02	1.23435921334E+01	1.75828823490E+02	-4.24845101139E+01	-4.35866292118E+01	-5.89838951452E+00	-5.40093484651E-01
9.65740637849E+05	-1.24365527569E+01	1.61595472134E+02	1.23472311233E+01	1.75762875972E+02	-4.13671855061E+01	-1.13872107479E+02	-5.86560367985E+00	-4.06122049051E-01
9.87931992444E+05	-1.39580328257E+01	-1.78609440038E+02	1.23743223424E+01	1.75615503933E+02	-4.18608941147E+01	-8.48314854818E+01	-5.86768390124E+00	-2.41836136192E-01
1.01012334704E+06	-1.20773531337E+01	-1.65004509731E+02	1.23532872641E+01	1.75243190264E+02	-4.31052505242E+01	3.53907176734E+01	-5.86530037715E+00	-6.61080845570E-01
1.03231470163E+06	-1.17587478808E+01	1.68797755779E+02	1.22716274087E+01	1.75427234095E+02	-4.76726540654E+01	1.50454574577E+02	-5.83728343482E+00	-6.09626053691E-01
1.05450605623E+06	-1.12075470297E+01	-1.71269439984E+02	1.23467601323E+01	1.75212220967E+02	-4.38317125643E+01	-1.71040900647E+02	-5.88415833864E+00	-4.49993859970E-01
1.07669741082E+06	-1.43725720836E+01	1.77965901116E+02	1.22733150261E+01	1.75395451847E+02	-4.58489359643E+01	8.27125969724E+01	-5.86809558478E+00	-4.57298833946E-01
1.09888876542E+06	-1.13486103151E+01	-1.51316660562E+02	1.23528108595E+01	1.74768456693E+02	-4.71675461394E+01	9.32371553243E+01	-5.87656277902E+00	-6.47642088028E-01
1.12108012001E+06	-1.36107772896E+01	-1.74716802460E+02	1.23472964503E+01	1.74599206812E+02	-4.84719616759E+01	-4.34895952542E+01	-5.85305687811E+00	-5.38822087524E-01
1.14327147461E+06	-1.37655271345E+01	-1.55497789162E+02	1.23728459933E+01	1.74440896521E+02	-4.06751937269E+01	-1.06855124709E+02	-5.86553795023E+00	-6.70667832108E-01
1.16546282920E+06	-1.53840564145E+01	-1.61381732662E+02	1.23505039539E+01	1.74297029259E+02	-5.09550915560E+01	1.43207708140E+02	-5.87780968979E+00	-6.11784669064E-01
1.18765418380E+06	-1.59105783914E+01	-1.79001086397E+02	1.23868704866E+01	1.74327488164E+02	-5.30870566606E+01	4.04282128239E+01	-5.87833465967E+00	-7.68605382162E-01
1.20984553839E+06	-1.56545199934E+01	-1.76694124117E+02	1.23654131149E+01	1.74170452758E+02	-4.26422177283E+01	1.24297097202E+02	-5.82388431498E+00	-9.28839444953E-01
1.23203689299E+06	-1.18345727587E+01	-1.67343136640E+02	1.23336491602E+01	1.73851354204E+02	-5.28976182791E+01	2.11583701226E+01	-5.89039295032E+00	-5.30647563082E-01
1.25422824758E+06	-1.68664894835E+01	1.71164495519E+02	1.23694589511E+01	1.74047608222E+02	-4.50037807023E+01	-1.12004103675E+02	-5.85566385076E+00	-6.49259464167E-01
1.27641960218E+06	-1.26670460778E+01	-1.63899068183E+02	1.23484531166E+01	1.73736797932E+02	-4.60636670896E+01	7.55435168350E+01	-5.87217753478E+00	-8.24997632663E-01
1.29861095677E+06	-1.35610246412E+01	-1.55189449471E+02	1.23683545347E+01	1.73404350837E+02	-4.69946899292E+01	1.76058166440E+02	-5.85959114373E+00	-5.87715957328E-01
1.32080231137E+06	-1.14719158576E+01	1.74026839664E+02	1.23212640816E+01	1.73337422753E+02	-4.36076823642E+01	-9.10714975695E+01	-5.85808774499E+00	-8.11948693437E-01
1.34299366596E+06	-1.16903519355E+01	1.78570485124E+02	1.23331859632E+01	1.73337533183E+02	-4.50034292033E+01	1.86733032281E+01	-5.88712505323E+00	-8.59387854148E-01
1.36518502056E+06	-1.11071189640E+01	-1.70329758273E+02	1.23423425464E+01	1.72946023354E+02	-4.39462123966E+01	1.77464365196E+02	-5.84903689557E+00	-5.41925660553E-01
1.38737637515E+06	-1.42519574395E+01	1.78957425268E+02	1.23524244689E+01	1.72993896778E+02	-4.57173096250E+01	1.15778107560E+02	-5.85387885661E+00	-7.02924416567E-01
1.40956772975E+06	-1.71138973967E+01	1.71242129304E+02	1.23805703786E+01	1.72845816714E+02	-4.21613962323E+01	-1.14706735750E+01	-5.89958061474E+00	-8.95257647325E-01
1.43175908434E+06	-1.38945093820E+01	-1.51347094317E+02	1.23703758229E+01	1.72666695812E+02	-5.01645424526E+01	-1.51285374531E+02	-5.87828660440E+00	-5.47437858859E-01
1.45395043894E+06	-1.20068740942E+01	-1.67121873061E+02	1.23363947296E+01	1.72336854279E+02	-3.89078022149E+01	-7.85870945286E+01	-5.90757955444E+00	-8.28752987260E-01
1.47614179353E+06	-1.80726837347E+01	-1.69967069396E+02	1.23637723609E+01	1.72475763590E+02	-3.90279826241E+01	-1.24721261189E+02	-5.87860923006E+00	-6.99211910863E-01
1.49833314813E+06	-1.46556266990E+01	1.79858648182E+02	1.23616630346E+01	1.72364591041E+02	-4.74023996914E+01	5.83973504103E+01	-5.84881124471E+00	-8.43194640926E-01
1.52052450272E+06	-1.44894472903E+01	-1.78727791642E+02	1.23439968182E+01	1.72084222388E+02	-3.92626046793E+01	1.43761049053E+02	-5.85567067959E+00	-8.96397311940E-01
1.54271585732E+06	-1.34108263080E+01	1.76431967965E+02	1.23586496037E+01	1.71995228584E+02	-3.94211810849E+01	9.47476502613E+01	-5.86921186353E+00	-1.10659178798E+00
1.56490721191E+06	-1.04491048567E+01	-1.61691546954E+02	1.23584100026E+01	1.71522908841E+02	-4.56429353569E+01	-9.73061049721E+01	-5.88807845464E+00	-8.09647558180E-01
1.58709856651E+06	-1.80887537030E+01	1.26463353466E+02	1.23822329803E+01	1.72163345917E+02	-4.80633372080E+01	-1.00286317446E+02	-5.85105556644E+00	-8.69500433020E-01
1.60928992110E+06	-1.28165551124E+01	1.73081980190E+02	1.23188413051E+01	1.71698204106E+02	-4.79007300716E+01	1.60762576219E+02	-5.86354247429E+00	-9.10633595467E-01
1.63148127570E+06	-1.52940069593E+01	-1.76726735969E+02	1.23464047350E+01	1.71467275400E+02	-3.85464768536E+01	4.73202873139E+01	-5.86456592031E+00	-1.22231410212E+00
1.65367263029E+06	-1.27712486143E+01	-1.55806870953E+02	1.23478523640E+01	1.71198166437E+02	-4.72948417059E+01	-3.56539467097E+01	-5.88228470038E+00	-8.45679602387E-01
1.67586398489E+06	-1.01261748667E+01	-1.66265610259E+02	1.23120510582E+01	1.70913158744E+02	-4.17032360149E+01	-1.04472039502E+01	-5.89607699071E+00	-1.10484145159E+00
1.69805533948E+06	-1.25749546320E+01	-1.65933033572E+02	1.23315605653E+01	1.70946608895E+02	-5.20046725213E+01	1.43067856839E+02	-5.87231239295E+00	-8.95715529680E-01
1.72024669408E+06	-1.00696803920E+01	-1.68029469526E+02	1.23600082755E+01	1.70622447959E+02	-5.02949991128E+01	-3.83636633812E+01	-5.85891114053E+00	-8.28408120066E-01
1.74243804867E+06	-1.18350432379E+01	-1.46040121398E+02	1.23859741568E+01	1.70626576652E+02	-4.52104017829E+01	-1.13890256452E+02	-5.87262732319E+00	-7.79082615132E-01
1.76462940327E+06	-1.36012521679E+01	-1.68202796807E+02	1.23681843306E+01	1.70509011620E+02	-3.98411405910E+01	9.53308351813E+01	-5.87059033151E+00	-1.14287447798E+00
1.78682075786E+06	-1.44848560474E+01	-1.77344005823E+02	1.23472296564E+01	1.70622565133E+02	-3.78310505777E+01	-6.70541797948E+01	-5.88463486118E+00	-9.49181037383E-01
1.80901211246E+06	-1.33375286609E+01	-1.77494637604E+02	1.23372209459E+01	1.70468111666E+02	-5.13807807858E+01	-5.29097063025E-01	-5.89470892262E+00	-9.15118714691E-01
1.83120346705E+06	-1.43700995928E+01	1.77659654878E+02	1.23490351491E+01	1.70185456450E+02	-4.34020787861E+01	-1.33333646897E+02	-5.85683614127E+00	-6.68397703277E-01
1.85339482165E+06	-1.32919920864E+01	-1.66720671594E+02	1.23430409567E+01	1.69986672527E+02	-4.33403178197E+01	-1.34082177880E+02	-5.86212880068E+00	-7.46408351664E-01
1.87558617624E+06	-1.38675552446E+01	-1.68717986762E+02	1.23708866184E+01	1.69914520042E+02	-4.03905874744E+01	-9.90750257878E+01	-5.89872023499E+00	-7.49222966302E-01
1.89777753084E+06	-1.47125658326E+01	-1.57485693465E+02	1.23647510954E+01	1.70074135150E+02	-4.31963614473E+01	4.80692111987E+01	-5.87949154106E+00	-1.00300564305E+00
1.91996888543E+06	-1.21149366637E+01	-1.74052609145E+02	1.23153868357E+01	1.69558151153E+02	-4.11400267574E+01	-7.68833617831E+01	-5.87191545599E+00	-9.09573192506E-01
1.94216024003E+06	-1.29359638353E+01	-1.62473186179E+02	1.23548611937E+01	1.69537013045E+02	-3.32189147301E+01	-5.53922400025E+01	-5.92095442272E+00	-8.65526060007E-01
1.96435159462E+06	-1.17410528007E+01	-1.77969298636E+02	1.23387587160E+01	1.69139016797E+02	-4.27928891403E+01	-1.01949395024E+02	-5.88976404844E+00	-8.79887203154E-01
1.98654294922E+06	-1.29125791514E+01	-1.63192121582E+02	1.23595057494E+01	1.69220213843E+02	-4.40468227817E+01	-8.05274782722E+01	-5.89310377282E+00	-8.97368191295E-01
2.00873430381E+06	-1.46759086985E+01	-1.47545764724E+02	1.23950380490E+01	1.69090924273E+02	-4.92610239543E+01	3.36884406850E+01	-5.87939501120E+00	-1.13656116424E+00
2.03092565841E+06	-1.18847342498E+01	-1.75545045191E+02	1.23119270594E+01	1.69022479128E+02	-4.18277460641E+01	-1.68131107505E+02	-5.86744897405E+00	-1.06961666589E+00
2.05311701300E+06	-1.15553557513E+01	-1.57928765400E+02	1.23680481871E+01	1.68667126773E+02	-5.24673430856E+01	-1.31826889211E+02	-5.88211097239E+00	-1.14079590855E+00
2.07530836760E+06	-9.18438628307E+00	-1.52932759554E+02	1.23752714397E+01	1.68475600542E+02	-5.08717118327E+01	5.31311772161E+01	-5.85088356974E+00	-1.11775468737E+00
2.09749972219E+06	-1.57139937564E+01	-1.63265342133E+02	1.23879766178E+01	1.68714014807E+02	-4.05883503407E+01	1.54597677333E+02	-5.81917350966E+00	-1.06081318038E+00
2.11969107679E+06	-1.56737261777E+01	-1.62596847159E+02	1.23810724595E+01	1.68461632583E+02	-4.63569876128E+01	2.48289054546E+01	-5.87222059520E+00	-1.21730594845E+00
2.14188243138E+06	-1.34379447822E+01	-1.64913490855E+02	1.23644149400E+01	1.68303612904E+02	-4.34201132662E+01	-1.37915365319E+02	-5.85968391292E+00	-1.15193869339E+00
2.16407378598E+06	-1.20602306546E+01	-1.65533072311E+02	1.23470246612E+01	1.68277266260E+02	-5.32940876283E+01	-2.49785533482E+01	-5.89423244839E+00	-1.10101878207E+00
2.18626514057E+06	-1.39314805061E+01	1.76453460915E+02	1.23525182168E+01	1.68022976679E+02	-4.74876272313E+01	-8.37245201387E+01	-5.88322213551E+00	-9.48294551986E-01
2.20845649517E+06	-1.50689000407E+01	-1.74148103463E+02	1.23990632910E+01	1.68110031314E+02	-4.59625713066E+01	1.03521902739E+02	-5.86639109972E+00	-1.24036867946E+00
2.23064784976E+06	-1.95131721127E+01	-1.63153879486E+02	1.23913492659E+01	1.67920418084E+02	-4.14876278507E+01	1.72569289402E+02	-5.82694696068E+00	-1.15321536001E+00
2.25283920436E+06	-1.14432814612E+01	-1.69891879876E+02	1.23402413739E+01	1.67516278248E+02	-3.38148220743E+01	8.19373530194E+01	-5.79875738219E+00	-1.43108613388E+00
2.27503055895E+06	-1.38099322388E+01	-1.62360150328E+02	1.23649410520E+01	1.67442629703E+02	-4.35919161217E+01	8.05304103401E+01	-5.85469386529E+00	-1.47345215895E+00
2.29722191355E+06	-1.51612611264E+01	-1.59520324875E+02	1.24095684811E+01	1.67481325730E+02	-4.69116056342E+01	1.09230580301E+02	-5.87502418312E+00	-1.49398394249E+00
2.31941326814E+06	-1.04398049812E+01	-1.61990511462E+02	1.23618644230E+01	1.66951314590E+02	-4.98398992208E+01	5.84907443213E+01	-5.88487738467E+00	-1.26796391105E+00
2.34160462274E+06	-1.13215993367E+01	-1.66731858624E+02	1.23318967055E+01	1.66839907474E+02	-4.69493727277E+01	1.75504777083E+02	-5.86084948333E+00	-1.25377951850E+00
2.36379597733E+06	-1.28894530003E+01	-1.40911864525E+02	1.24228519058E+01	1.66989701179E+02	-4.85283095104E+01	-1.04658033775E+02	-5.87291778493E+00	-1.00905501632E+00
2.38598733193E+06	-1.25201098448E+01	1.58766402461E+02	1.23359632650E+01	1.66837010077E+02	-4.25983162276E+01	4.31085756536E+01	-5.87964736750E+00	-1.39931123369E+00
2.40817868652E+06	-1.32815639698E+01	-1.71072849587E+02	1.23583367261E+01	1.66838407034E+02	-2.83520244248E+01	-1.23807287018E+02	-5.91529934720E+00	-7.52680018056E-01
2.43037004112E+06	-1.28949646398E+01	-1.64179172204E+02	1.23913552306E+01	1.66728155930E+02	-5.01096842465E+01	-7.28132194239E+01	-5.87512607075E+00	-1.58141225818E+00
2.45256139571E+06	-1.16205438916E+01	-1.62430444023E+02	1.23659803923E+01	1.66502684723E+02	-4.24953464095E+01	-1.49019761891E+02	-5.88387542967E+00	-1.17183706023E+00
2.47475275031E+06	-1.19092180227E+01	-1.58846772599E+02	1.24093109319E+01	1.66315688631E+02	-5.03715334029E+01	-7.44322206176E+01	-5.88346506172E+00	-1.41055417727E+00
2.49694410490E+06	-1.14465300516E+01	-1.68574271146E+02	1.23340122075E+01	1.66233685623E+02	-4.50957515504E+01	6.55463890671E+01	-5.87416841444E+00	-1.29539764245E+00
2.51913545950E+06	-1.66265388874E+01	-1.66536919361E+02	1.23889387893E+01	1.66487807706E+02	-3.81518644927E+01	-1.22802841188E+02	-5.85910099141E+00	-1.04304628031E+00
2.54132681409E+06	-1.17347879684E+01	1.78104511772E+02	1.23559082335E+01	1.65907659099E+02	-6.01061595775E+01	-4.01516065718E+01	-5.89091623433E+00	-1.38688207056E+00
2.56351816869E+06	-1.37010241926E+01	-1.45326414674E+02	1.24427621918E+01	1.65786153725E+02	-3.66893989456E+01	-1.16834850615E+02	-5.89313262472E+00	-9.62973742271E-01
2.58570952328E+06	-1.70906961864E+01	-1.47656100344E+02	1.24418093785E+01	1.65932921758E+02	-4.62016490345E+01	-1.25188679088E+02	-5.87958957397E+00	-1.17756365016E+00
2.60790087788E+06	-1.35998762182E+01	-1.70159733272E+02	1.23803329432E+01	1.65508561605E+02	-5.48737244291E+01	4.23889420221E+01	-5.89715028376E+00	-1.32425384812E+00
2.63009223247E+06	-1.24290412062E+01	-1.71511421277E+02	1.23758455925E+01	1.65514166937E+02	-4.98532975904E+01	8.17848619810E+01	-5.88664872925E+00	-1.14079366539E+00
2.65228358707E+06	-1.19293419460E+01	-1.57244123552E+02	1.23967377617E+01	1.65186476973E+02	-4.79153259998E+01	2.42258334305E+01	-5.89448561466E+00	-1.35752916543E+00
2.67447494166E+06	-1.10309860354E+01	-1.73052303291E+02	1.23501861031E+01	1.65219402782E+02	-4.64571798998E+01	1.37875305141E+02	-5.83081127414E+00	-1.39925672092E+00
2.69666629626E+06	-1.34010905729E+01	-1.56108842433E+02	1.24045197417E+01	1.65016668286E+02	-4.48845059171E+01	-9.18890160015E+01	-5.89055850830E+00	-1.11769769863E+00
2.71885765085E+06	-1.09521481151E+01	-1.72492179375E+02	1.23800569381E+01	1.64838851841E+02	-4.17070356919E+01	-1.13685319393E+02	-5.91741666016E+00	-1.32592101796E+00
2.74104900545E+06	-1.42447398487E+01	-1.59247924133E+02	1.24065509138E+01	1.64859690348E+02	-6.47337618755E+01	2.37161748093E+01	-5.88308170799E+00	-1.51179944750E+00
2.76324036004E+06	-1.22920867879E+01	-1.67660757373E+02	1.23718805975E+01	1.64590636381E+02	-4.14167314720E+01	8.39474868196E+01	-5.88459060349E+00	-1.70845458048E+00
2.78543171463E+06	-9.00287029016E+00	-1.67553989934E+02	1.23813937037E+01	1.64196279153E+02	-4.87842124519E+01	3.43097514205E+01	-5.89402746949E+00	-1.37674262238E+00
2.80762306923E+06	-1.19260397866E+01	-1.61948919660E+02	1.23752212114E+01	1.64385087260E+02	-4.63677191798E+01	-4.71835033360E+01	-5.90924273009E+00	-1.30415164782E+00
2.82981442382E+06	-1.40820243073E+01	-1.63617096908E+02	1.24146461061E+01	1.64329976520E+02	-4.37451172364E+01	1.02999272331E+02	-5.82701222728E+00	-1.56640274533E+00
2.85200577842E+06	-1.46422356717E+01	-1.74959390455E+02	1.23729685230E+01	1.64306358765E+02	-4.96551484233E+01	-1.51535677575E+02	-5.88316452742E+00	-1.35601050632E+00
2.87419713301E+06	-1.22520359744E+01	-1.62581470127E+02	1.24086827713E+01	1.63909777203E+02	-4.01705320842E+01	1.60676641177E+02	-5.85867827680E+00	-1.45690422571E+00
