# Hz S DB R 50
! CMT, M5065, 19127446, 24.2.4/2
! Date: 11/8/2024 5:12:02 PM
! Data: Format (Calibration Info)
! Freq	S11:dB/Ang(F2)	S21:dB/Ang(F2)	S12:dB/Ang(F2)	S22:dB/Ang(F2)
3.00000000000E+05	-1.53146675562E+01	-1.70177427292E+02	1.05656318563E+01	-1.77219463299E+02	-4.00920925303E+01	-8.95176859109E+01	-5.85691768459E+00	-1.75643829002E-01
3.22191354595E+05	-1.43561881130E+01	-1.52996434756E+02	1.06096338307E+01	-1.77840879368E+02	-5.69217871998E+01	1.75212590285E+02	-5.86105802191E+00	-2.18127572127E-01
3.44382709190E+05	-1.63186754676E+01	-1.68928416669E+02	1.05870635566E+01	-1.78200887730E+02	-5.09415435105E+01	5.01222653652E+01	-5.88754596973E+00	-3.53296374801E-01
3.66574063785E+05	-1.16280681674E+01	-1.58525150947E+02	1.05965931956E+01	-1.78746789864E+02	-5.24575223556E+01	1.21015572196E+02	-5.88440115316E+00	-3.89121091601E-01
3.88765418380E+05	-1.39342769493E+01	-1.71524644327E+02	1.05782119383E+01	-1.78744667056E+02	-4.59408910448E+01	-9.90215786999E+01	-5.89921324161E+00	-6.83718896468E-02
4.10956772975E+05	-1.49003774684E+01	-1.73863163658E+02	1.05999428652E+01	-1.79075512508E+02	-4.73137949287E+01	-8.60872253768E+01	-5.87055779105E+00	-1.68605840873E-01
4.33148127570E+05	-1.41426205194E+01	-1.72803898595E+02	1.05803805751E+01	-1.79313130020E+02	-5.24891492749E+01	-3.15349034363E+01	-5.86327937180E+00	-4.06236371107E-01
4.55339482165E+05	-1.09063433509E+01	-1.76186552556E+02	1.05959683923E+01	-1.79655587553E+02	-4.31791855793E+01	1.85720445340E+01	-5.89034928748E+00	-2.70663160601E-01
4.77530836760E+05	-1.38597966288E+01	-1.68074210310E+02	1.05686489324E+01	-1.79936243659E+02	-4.58263799755E+01	9.21036889236E+01	-5.87134118161E+00	-3.80297971143E-01
4.99722191355E+05	-1.28966310598E+01	-1.78174749367E+02	1.05730960232E+01	-1.79821180576E+02	-4.70916346474E+01	1.43521907078E+02	-5.87208973606E+00	-4.77162509397E-01
5.21913545950E+05	-1.48613999027E+01	-1.78623389212E+02	1.05770815549E+01	1.79677306108E+02	-4.63452770212E+01	-1.69915582643E+01	-5.86917083040E+00	-3.18274046068E-01
5.44104900545E+05	-1.18710775987E+01	1.66006737329E+02	1.05785833610E+01	1.79696163428E+02	-4.84464189279E+01	6.83916916552E+01	-5.86855672650E+00	-3.67661485186E-01
5.66296255139E+05	-1.21180056814E+01	1.75278956459E+02	1.05703963958E+01	1.79365539908E+02	-4.54873435097E+01	-5.76206806938E+00	-5.86814405910E+00	-3.35230058796E-01
5.88487609734E+05	-1.19445975763E+01	1.73192983025E+02	1.05637859613E+01	1.79014589832E+02	-4.05806452023E+01	-3.32528024622E+01	-5.86840016032E+00	-3.07930256833E-01
6.10678964329E+05	-1.63950481511E+01	-1.56915623371E+02	1.06345929434E+01	1.78958724985E+02	-4.71943496249E+01	-2.26314819232E+01	-5.88160434572E+00	-1.71535871340E-02
6.32870318924E+05	-1.31852055183E+01	-1.78083311459E+02	1.05866273129E+01	1.78656091722E+02	-4.98198537913E+01	-8.81282764010E+00	-5.90029762277E+00	-9.39815469084E-02
6.55061673519E+05	-1.22096043970E+01	-1.79762635815E+02	1.05848098377E+01	1.78260462128E+02	-3.92165600351E+01	-7.49686930387E+01	-5.86972326030E+00	-2.16618253281E-01
6.77253028114E+05	-1.33577362738E+01	-1.78857921761E+02	1.05842390810E+01	1.78222788576E+02	-4.26335387596E+01	4.14656206910E+01	-5.88438237464E+00	-8.57485505471E-01
6.99444382709E+05	-1.27312627849E+01	-1.79529425263E+02	1.05797809920E+01	1.77940362136E+02	-4.23191207136E+01	-1.68783419561E+02	-5.83389804790E+00	-4.25145864961E-01
7.21635737304E+05	-1.21412222808E+01	-1.49188974260E+02	1.05917746846E+01	1.77811209760E+02	-4.72208883275E+01	-1.75190957687E+02	-5.85719819780E+00	-5.00794901302E-01
7.43827091899E+05	-1.10242070639E+01	-1.77745919367E+02	1.05994045506E+01	1.77832330204E+02	-6.01191748462E+01	-4.11100060428E+01	-5.87385988398E+00	-5.84703925897E-01
7.66018446494E+05	-1.04436035108E+01	1.74667460051E+02	1.05656895383E+01	1.77872264083E+02	-5.29755182462E+01	7.03934647350E+01	-5.89398484955E+00	-4.55389444305E-01
7.88209801089E+05	-1.36113816081E+01	1.73898630460E+02	1.05760492721E+01	1.77383562991E+02	-4.20482083791E+01	-1.29846946674E+02	-5.84612538727E+00	-3.69167219116E-01
8.10401155684E+05	-1.47069394577E+01	-1.59389598443E+02	1.06281192042E+01	1.77409066933E+02	-4.49298861917E+01	-1.22370378797E+02	-5.86667309440E+00	-2.97769820189E-01
8.32592510279E+05	-1.42343956146E+01	-1.76406021621E+02	1.06144506475E+01	1.77180415973E+02	-4.61490504886E+01	-1.67781383215E+02	-5.85640266107E+00	-3.29922214349E-01
8.54783864874E+05	-1.35903462487E+01	-1.73701773889E+02	1.05954833937E+01	1.76821646995E+02	-4.81484214093E+01	-1.35045878653E+02	-5.85743889536E+00	-4.63532226918E-01
8.76975219469E+05	-1.51988802565E+01	-1.56589367896E+02	1.06269724649E+01	1.76734957020E+02	-3.72238235163E+01	2.14498884772E+01	-5.88706478633E+00	-4.82825942998E-01
8.99166574064E+05	-1.09622094661E+01	-1.70207646641E+02	1.05667422428E+01	1.76619276080E+02	-4.63634405506E+01	1.06656741832E+02	-5.86523130371E+00	-6.71590514344E-01
9.21357928659E+05	-1.38203391645E+01	1.74155323036E+02	1.05803849673E+01	1.76368857052E+02	-4.13767391981E+01	-2.34671363421E+00	-5.88465146579E+00	-4.64562276635E-01
9.43549283254E+05	-1.49560980787E+01	-1.71900549795E+02	1.06038973885E+01	1.76384559371E+02	-4.87529052506E+01	-4.68412946873E+01	-5.88153671461E+00	-6.33771799312E-01
9.65740637849E+05	-2.03796535158E+01	-1.50643528930E+02	1.06389432146E+01	1.76594126701E+02	-4.17477236029E+01	-3.84677076749E+01	-5.89712600749E+00	-5.71589397692E-01
9.87931992444E+05	-1.33103482773E+01	-1.73725805634E+02	1.05533005302E+01	1.76096653395E+02	-4.38955692571E+01	1.51487698814E+01	-5.86001371087E+00	-6.34706849415E-01
1.01012334704E+06	-1.61789931002E+01	-1.74913030950E+02	1.06409500932E+01	1.75997903284E+02	-5.24122437386E+01	1.53948215211E+02	-5.88259766230E+00	-5.91959912531E-01
1.03231470163E+06	-1.35616224799E+01	-1.67118114332E+02	1.05808924616E+01	1.75884955806E+02	-4.40040810710E+01	1.13640722472E+02	-5.86830267347E+00	-6.72169221950E-01
1.05450605623E+06	-1.37428292853E+01	-1.69313252547E+02	1.05852662044E+01	1.75749163575E+02	-4.22740833312E+01	1.79187218115E+01	-5.87990333301E+00	-8.16152450297E-01
1.07669741082E+06	-1.76037132464E+01	1.68580870205E+02	1.05829728983E+01	1.75884044300E+02	-5.91838882728E+01	1.01944335250E+02	-5.86037631999E+00	-7.66582488235E-01
1.09888876542E+06	-1.35078069618E+01	-1.78428102084E+02	1.05846403424E+01	1.75551805854E+02	-3.71114912021E+01	-5.94282594484E+01	-5.91719647374E+00	-7.18329077946E-01
1.12108012001E+06	-1.17851096785E+01	1.76163617142E+02	1.05571239255E+01	1.75320921790E+02	-5.01442359256E+01	-7.04961799377E+01	-5.89635926892E+00	-4.79372363674E-01
1.14327147461E+06	-1.62969650943E+01	-1.59041348510E+02	1.06221240604E+01	1.75257980629E+02	-3.97045814061E+01	-8.78142834930E+01	-5.90696041590E+00	-5.40379532946E-01
1.16546282920E+06	-1.06851930172E+01	1.67615941809E+02	1.05555077345E+01	1.75000006564E+02	-4.85536484132E+01	1.64133809972E+02	-5.86396653512E+00	-5.88398025975E-01
1.18765418380E+06	-1.29196531569E+01	-1.61414337131E+02	1.05939927587E+01	1.74909664790E+02	-4.58327970275E+01	-1.26623604838E+02	-5.86051722802E+00	-5.09733298090E-01
1.20984553839E+06	-1.29389208750E+01	-1.76568552628E+02	1.05921331742E+01	1.74691257624E+02	-6.02505238107E+01	9.03121394203E+01	-5.87024221865E+00	-7.78606446622E-01
1.23203689299E+06	-1.61427478712E+01	-1.64429503066E+02	1.06201131367E+01	1.74484625921E+02	-4.46407675239E+01	-6.00094160527E+01	-5.86703024942E+00	-4.72375233627E-01
1.25422824758E+06	-1.69040180222E+01	-1.60962785179E+02	1.05813983016E+01	1.74532777770E+02	-4.66982287074E+01	-1.30352441394E+02	-5.86881805624E+00	-6.25394371570E-01
1.27641960218E+06	-1.52766817197E+01	-1.74089572249E+02	1.06130669766E+01	1.74345111046E+02	-4.78294170242E+01	-3.38316875100E+01	-5.88665505306E+00	-5.30801824026E-01
1.29861095677E+06	-1.11690154789E+01	-1.65071842234E+02	1.06012817093E+01	1.74202028183E+02	-4.65014646985E+01	1.72672050597E+02	-5.85322331756E+00	-6.00689474463E-01
1.32080231137E+06	-1.27985731077E+01	-1.64853537397E+02	1.06018358369E+01	1.74200886651E+02	-4.70057797852E+01	9.61068829399E+01	-5.88562378890E+00	-9.73104878706E-01
1.34299366596E+06	-1.48805042846E+01	-1.58939388981E+02	1.06352577127E+01	1.73909399060E+02	-4.37482273981E+01	-1.32568728308E+02	-5.87064866505E+00	-7.15293884957E-01
1.36518502056E+06	-1.32745917991E+01	-1.78803880158E+02	1.06125846443E+01	1.73929018111E+02	-5.29186523211E+01	-5.47692492917E+01	-5.87983606069E+00	-6.22971912857E-01
1.38737637515E+06	-1.80575565707E+01	1.58244636178E+02	1.06108477501E+01	1.74036756860E+02	-4.21488610133E+01	1.01249724423E+02	-5.85803193748E+00	-7.77889735571E-01
1.40956772975E+06	-1.47158209206E+01	-1.69978884006E+02	1.05914942539E+01	1.73595799700E+02	-4.32635252173E+01	3.71154665440E+01	-5.87651268881E+00	-7.43763889705E-01
1.43175908434E+06	-1.00526705217E+01	-1.63416796830E+02	1.05598093807E+01	1.73264233601E+02	-4.75134494588E+01	-1.45284378699E+02	-5.87876518938E+00	-6.83896975888E-01
1.45395043894E+06	-1.44749921391E+01	-1.63454426933E+02	1.06104650684E+01	1.73291917396E+02	-4.89850255138E+01	6.74758436671E+01	-5.86800098713E+00	-8.80423656802E-01
1.47614179353E+06	-1.30262881577E+01	-1.78595440982E+02	1.05928422797E+01	1.73194922300E+02	-4.93347505670E+01	-1.46452895388E+02	-5.85684769107E+00	-7.71748996193E-01
1.49833314813E+06	-1.24905921150E+01	-1.67313584823E+02	1.05575949837E+01	1.73056039583E+02	-4.29269728746E+01	2.79372938714E+01	-5.87485877789E+00	-7.89084288278E-01
1.52052450272E+06	-1.22549284695E+01	-1.56779053944E+02	1.06275615853E+01	1.72821747231E+02	-4.46852687502E+01	6.96094318558E+01	-5.87042447730E+00	-9.07591867387E-01
1.54271585732E+06	-1.62307551806E+01	-1.45801951010E+02	1.06222419396E+01	1.72870925576E+02	-3.76147450725E+01	1.34211886390E+02	-5.86216063043E+00	-7.76414551164E-01
1.56490721191E+06	-1.34911490188E+01	1.70709081858E+02	1.06058705063E+01	1.72921444901E+02	-4.69170537733E+01	1.46879148869E+01	-5.89732750651E+00	-8.42139259368E-01
1.58709856651E+06	-9.71815402692E+00	-1.76291645671E+02	1.05932740150E+01	1.72575191945E+02	-4.41329283041E+01	-1.04073446297E+02	-5.87494123030E+00	-7.20052271102E-01
1.60928992110E+06	-1.26143912194E+01	-1.67861147075E+02	1.06050625788E+01	1.72322920428E+02	-4.22116324398E+01	-3.75585100283E+01	-5.89802019844E+00	-9.03354192874E-01
1.63148127570E+06	-1.42793824837E+01	-1.71441376924E+02	1.06250823754E+01	1.72307311334E+02	-4.71800458616E+01	3.98585055566E+00	-5.88539437524E+00	-8.90917982879E-01
1.65367263029E+06	-1.37104291919E+01	-1.66312308296E+02	1.06684278114E+01	1.72305840975E+02	-4.60353513367E+01	-6.43828277894E+01	-5.91239127185E+00	-9.50011080444E-01
1.67586398489E+06	-1.32305711689E+01	-1.68939040160E+02	1.06147760440E+01	1.72032116844E+02	-4.77508328406E+01	1.84314641707E+01	-5.87379440804E+00	-9.06012839306E-01
1.69805533948E+06	-1.39671214493E+01	-1.75918129012E+02	1.05849280924E+01	1.71992460639E+02	-4.63590740733E+01	1.06001563910E+02	-5.86329694229E+00	-8.09381373268E-01
1.72024669408E+06	-1.04130742041E+01	-1.72603329699E+02	1.05792151435E+01	1.71970051746E+02	-3.83730471275E+01	-1.02831490688E+02	-5.89295412091E+00	-5.63926911256E-01
1.74243804867E+06	-1.06395407501E+01	1.66583746327E+02	1.05373736926E+01	1.71833985800E+02	-4.32883177409E+01	-6.16681163702E+01	-5.85539516395E+00	-7.86113872474E-01
1.76462940327E+06	-1.44620490802E+01	1.73888141485E+02	1.06180454265E+01	1.71804708783E+02	-4.89851353962E+01	1.67928835628E+02	-5.86759447668E+00	-9.63652311519E-01
1.78682075786E+06	-1.26007168606E+01	-1.76898040819E+02	1.05805824809E+01	1.71581117567E+02	-4.93432533465E+01	-1.00223986828E+02	-5.87756823961E+00	-8.90251883614E-01
1.80901211246E+06	-1.35339418988E+01	1.77367596932E+02	1.06088070444E+01	1.71457715312E+02	-4.04480429407E+01	-6.96329720662E+01	-5.88430241590E+00	-8.91038145577E-01
1.83120346705E+06	-1.50099637005E+01	-1.63413595552E+02	1.06472541036E+01	1.71151187630E+02	-5.16118148318E+01	-1.10351723912E+02	-5.85802043262E+00	-9.78001351629E-01
1.85339482165E+06	-1.38313510993E+01	-1.72992166704E+02	1.06415233855E+01	1.71245242240E+02	-4.63841654456E+01	-1.40226042900E+00	-5.89796894413E+00	-1.00369609176E+00
1.87558617624E+06	-1.43892928329E+01	-1.65651757375E+02	1.06445920731E+01	1.71211465273E+02	-3.21506212583E+01	-1.27927535284E+02	-5.89306058633E+00	-7.45873551936E-01
1.89777753084E+06	-8.19006400043E+00	-1.66958053317E+02	1.05726602941E+01	1.70544525890E+02	-4.52714327014E+01	5.75692369314E+00	-5.89620783350E+00	-1.12458901953E+00
1.91996888543E+06	-1.23379969464E+01	-1.70662776285E+02	1.06029069214E+01	1.70875614157E+02	-4.91968818349E+01	-1.41336522014E+02	-5.86562871442E+00	-9.30103140055E-01
1.94216024003E+06	-1.59386862973E+01	-1.63778830648E+02	1.06334426245E+01	1.70733999438E+02	-4.44469535170E+01	1.16055395372E+02	-5.84789094473E+00	-1.24758044509E+00
1.96435159462E+06	-1.34618248878E+01	-1.57586897101E+02	1.06045115640E+01	1.70467619876E+02	-4.32137300352E+01	3.30584769278E+01	-5.88867652709E+00	-1.03113304135E+00
1.98654294922E+06	-1.38522845627E+01	-1.70246085343E+02	1.05950822349E+01	1.70524318279E+02	-5.06334037175E+01	1.13736095321E+02	-5.87756655490E+00	-1.10370755711E+00
2.00873430381E+06	-1.25817826534E+01	-1.60464533754E+02	1.06084557410E+01	1.70309743990E+02	-4.03423256118E+01	1.39747017578E+02	-5.84692566544E+00	-1.11632922290E+00
2.03092565841E+06	-1.51691426641E+01	-1.77346203663E+02	1.06261912283E+01	1.70323748335E+02	-3.71618195506E+01	-1.57880869092E+02	-5.85824408015E+00	-9.67910824156E-01
2.05311701300E+06	-1.21084445798E+01	1.70275159958E+02	1.05998291191E+01	1.70139582567E+02	-4.76519530898E+01	-2.64818340298E+00	-5.88605034826E+00	-1.29174231705E+00
2.07530836760E+06	-1.07967819935E+01	-1.61304295852E+02	1.06120973127E+01	1.69770421939E+02	-4.07367233493E+01	1.26300125559E+02	-5.83072254512E+00	-1.20525839531E+00
2.09749972219E+06	-1.28245876763E+01	-1.67407334402E+02	1.06218589805E+01	1.69806635424E+02	-5.06117437090E+01	4.39998264851E+01	-5.87915523462E+00	-1.18197870383E+00
2.11969107679E+06	-1.58587014950E+01	-1.74385961512E+02	1.06281859378E+01	1.69779312466E+02	-5.12262798692E+01	9.29143001886E+01	-5.86049563867E+00	-1.01720631895E+00
2.14188243138E+06	-1.25489943688E+01	-1.59545982667E+02	1.06129654979E+01	1.69605299416E+02	-5.78343074518E+01	-4.16311852883E+01	-5.90268732803E+00	-1.06436115856E+00
2.16407378598E+06	-1.14651208228E+01	-1.65660098783E+02	1.06131620243E+01	1.69286634607E+02	-3.62537710566E+01	6.41528904454E+01	-5.86254115435E+00	-1.35183936377E+00
2.18626514057E+06	-1.40815007052E+01	-1.73521378751E+02	1.06032713348E+01	1.69471076488E+02	-3.97692396048E+01	-5.02361868297E+01	-5.89840283752E+00	-9.86133989772E-01
2.20845649517E+06	-1.03689875255E+01	-1.71798442177E+02	1.06083957643E+01	1.69013528839E+02	-5.65428857310E+01	1.58643702246E+02	-5.89487362236E+00	-9.85815535796E-01
2.23064784976E+06	-1.01199413371E+01	-1.63506877327E+02	1.05930301775E+01	1.68934820356E+02	-4.07308593005E+01	-1.63350315035E+02	-5.86223137079E+00	-1.05161237478E+00
2.25283920436E+06	-1.55161631602E+01	-1.57505564507E+02	1.06561428886E+01	1.69193702900E+02	-5.82937783212E+01	4.72671128366E+01	-5.86575444866E+00	-1.16568837960E+00
2.27503055895E+06	-1.31380576657E+01	-1.79164679850E+02	1.06022529678E+01	1.69090023954E+02	-4.14554555461E+01	-1.66165372286E+01	-5.92014033485E+00	-1.15676916849E+00
2.29722191355E+06	-1.24119666199E+01	1.77232914581E+02	1.06319186510E+01	1.69026123279E+02	-3.89364867615E+01	-1.10339259727E+01	-5.90793365307E+00	-1.22901096125E+00
2.31941326814E+06	-1.37199473952E+01	-1.53403475038E+02	1.06491966879E+01	1.68908757017E+02	-3.78622355839E+01	-2.88344192639E+01	-5.90884905322E+00	-1.21533500510E+00
2.34160462274E+06	-1.24900115224E+01	-1.65995167387E+02	1.06409872146E+01	1.68517546684E+02	-4.02977089984E+01	6.15569455461E+01	-5.88735202703E+00	-1.29385424636E+00
2.36379597733E+06	-1.48528113107E+01	-1.60245049390E+02	1.06585778581E+01	1.68418762792E+02	-4.24425021412E+01	1.58759097126E+02	-5.84547317767E+00	-1.13373857945E+00
2.38598733193E+06	-1.33256709938E+01	-1.55164666772E+02	1.06417643541E+01	1.68070321466E+02	-4.15945939669E+01	-1.35269423972E+02	-5.86845141025E+00	-9.40697457988E-01
2.40817868652E+06	-1.31276672320E+01	-1.70449633521E+02	1.06321571620E+01	1.68251457883E+02	-4.50500020404E+01	7.51720852666E+01	-5.86739782816E+00	-1.40726994517E+00
2.43037004112E+06	-1.31691442721E+01	-1.57763312258E+02	1.06284405865E+01	1.68070462789E+02	-4.41566333022E+01	-1.51714339242E+01	-5.91691122910E+00	-1.77612979390E+00
2.45256139571E+06	-1.23917967451E+01	-1.75368691127E+02	1.06093987157E+01	1.68000204124E+02	-4.78954970336E+01	-3.71172391038E+01	-5.88476557548E+00	-1.26351308325E+00
2.47475275031E+06	-1.46674004285E+01	-1.75623493179E+02	1.06407777828E+01	1.67790461430E+02	-4.63648597804E+01	9.04740784440E+01	-5.85208782515E+00	-1.36786745743E+00
2.49694410490E+06	-1.26105196557E+01	-1.62731272130E+02	1.06401557921E+01	1.67789601709E+02	-3.29770949349E+01	-1.52228440685E+02	-5.87208028078E+00	-9.10701311850E-01
2.51913545950E+06	-5.00507479002E+00	-1.67437533267E+02	1.06369245068E+01	1.66305449358E+02	-5.04391379689E+01	-1.59028250373E+02	-5.86689865606E+00	-1.24094164688E+00
2.54132681409E+06	-1.48760110047E+01	-1.73605586716E+02	1.06265955358E+01	1.67731111594E+02	-4.12688347711E+01	-8.77456455299E+01	-5.88479649430E+00	-1.20964250369E+00
2.56351816869E+06	-1.48233613853E+01	-1.71298754010E+02	1.06704347426E+01	1.67539551358E+02	-5.28407099731E+01	-1.71986983589E+01	-5.90214666983E+00	-1.20826403746E+00
2.58570952328E+06	-1.20720305519E+01	-1.59586013096E+02	1.06473108327E+01	1.67033969071E+02	-5.02311080817E+01	-1.79582816818E+01	-5.88617338119E+00	-1.25946701531E+00
2.60790087788E+06	-1.03963264936E+01	-1.64245860067E+02	1.06160302927E+01	1.66944267576E+02	-4.05204507811E+01	-7.15531035076E+01	-5.87181975803E+00	-1.25720535321E+00
2.63009223247E+06	-1.37324867671E+01	-1.70784829136E+02	1.06445491327E+01	1.66979964894E+02	-4.74167695250E+01	9.01486244288E+01	-5.85502067114E+00	-9.92423088501E-01
2.65228358707E+06	-1.34752136801E+01	-1.68089772186E+02	1.06491822586E+01	1.66885519539E+02	-3.13602222017E+01	3.46578619337E+01	-5.86927319972E+00	-1.88684058907E+00
2.67447494166E+06	-1.13252125382E+01	-1.75977112054E+02	1.06322448056E+01	1.66798457435E+02	-4.37398803540E+01	1.07097040963E+02	-5.87764445564E+00	-1.46171415160E+00
2.69666629626E+06	-1.31626752476E+01	-1.61647887636E+02	1.06736635521E+01	1.66727468077E+02	-4.27281755710E+01	-8.58761831407E+01	-5.91422537186E+00	-1.17431049467E+00
2.71885765085E+06	-1.30053364266E+01	-1.48115929576E+02	1.06579248719E+01	1.66618261946E+02	-5.39607537653E+01	-7.94337923740E+01	-5.91250620756E+00	-1.46603733243E+00
2.74104900545E+06	-1.02398846253E+01	-1.64720036586E+02	1.06308691018E+01	1.66220673482E+02	-4.59234551901E+01	-5.71884468057E+01	-5.89915540459E+00	-1.44732699878E+00
2.76324036004E+06	-1.34232025487E+01	-1.50532435417E+02	1.06689839729E+01	1.66278272853E+02	-4.33818628692E+01	6.71154829132E+01	-5.88124263153E+00	-1.55351733668E+00
2.78543171463E+06	-1.38437729782E+01	-1.52725355989E+02	1.06628373849E+01	1.66173728651E+02	-4.78083557422E+01	1.23822597980E+02	-5.88022708421E+00	-1.40868547687E+00
2.80762306923E+06	-1.47376501236E+01	-1.63056679142E+02	1.06539730562E+01	1.66196995827E+02	-4.11345722319E+01	1.63864413891E+02	-5.84706655408E+00	-1.42217759314E+00
2.82981442382E+06	-1.19555596922E+01	-1.47748922816E+02	1.06663971272E+01	1.66208276704E+02	-5.02013930367E+01	-3.14227937827E+01	-5.90518221629E+00	-1.41561482719E+00
2.85200577842E+06	-1.26288258520E+01	-1.68143083922E+02	1.06415947580E+01	1.65986668813E+02	-4.32230434974E+01	1.09157484783E+02	-5.86019114786E+00	-1.62959303109E+00
2.87419713301E+06	-1.35047358849E+01	-1.74245713996E+02	1.06705401562E+01	1.65935933930E+02	-4.01088677977E+01	-1.76208723391E+02	-5.85695033092E+00	-1.37442163822E+00
