# Hz S DB R 50
! CMT, M5065, 19127446, 24.2.4/2
! Date: 11/8/2024 5:08:11 PM
! Data: Format (Calibration Info)
! Freq	S11:dB/Ang(F2)	S21:dB/Ang(F2)	S12:dB/Ang(F2)	S22:dB/Ang(F2)
3.00000000000E+05	-1.44983988688E+01	1.71217090929E+02	8.80840516207E+00	-1.77280868521E+02	-3.80026049876E+01	-1.77437859783E+02	-5.85881089494E+00	-2.64251052965E-01
3.22191354595E+05	-1.42820530077E+01	1.78756398388E+02	8.78862637769E+00	-1.77703331706E+02	-4.72971163672E+01	-1.07058120819E+02	-5.87106869199E+00	-2.81225405850E-01
3.44382709190E+05	-1.55780954031E+01	-1.75626035895E+02	8.79860132635E+00	-1.78410930078E+02	-5.19436093787E+01	-3.58772804195E+01	-5.88613840977E+00	-3.95768581023E-01
3.66574063785E+05	-1.20447715455E+01	-1.77488577938E+02	8.81517225496E+00	-1.78636801016E+02	-4.18720962111E+01	1.19300521147E+02	-5.84362237325E+00	-3.57738928326E-01
3.88765418380E+05	-2.09622596075E+01	-1.75649400691E+02	8.87527998686E+00	-1.78343924620E+02	-4.66368237542E+01	-2.98422023037E+01	-5.95609053269E+00	-2.68431456141E-01
4.10956772975E+05	-1.36490414169E+01	1.70217237067E+02	8.82977940790E+00	-1.79035796377E+02	-4.91074357929E+01	-2.07405917608E+01	-5.86816537700E+00	-3.65199266493E-01
4.33148127570E+05	-1.37480557998E+01	-1.56504662016E+02	8.82182074984E+00	-1.79275132244E+02	-4.94374011201E+01	1.48400741549E+02	-5.86614369443E+00	-4.34955563330E-01
4.55339482165E+05	-1.31869097343E+01	1.73036608410E+02	8.77840629165E+00	-1.79346747212E+02	-5.06649835950E+01	1.02278978822E+01	-5.86061730110E+00	-2.27925645100E-01
4.77530836760E+05	-1.32920899791E+01	-1.68162271535E+02	8.83459022034E+00	-1.79780134348E+02	-4.49466591002E+01	-7.35919735182E+00	-5.87996778423E+00	-5.18737385899E-01
4.99722191355E+05	-1.24951233638E+01	-1.74797572202E+02	8.81237424459E+00	1.79880837648E+02	-4.37236519311E+01	1.46685614409E+02	-5.87243362734E+00	-3.03304784559E-01
5.21913545950E+05	-1.76878176846E+01	-1.73396477893E+02	8.85686544652E+00	1.79865736128E+02	-4.88080377624E+01	1.03051016194E+01	-5.88307648750E+00	-4.52064737064E-01
5.44104900545E+05	-1.56711452182E+01	-1.39486004948E+02	8.84273208092E+00	1.79207421400E+02	-4.60583758391E+01	-1.30777228313E+02	-5.86763569125E+00	-3.15199781849E-01
5.66296255139E+05	-1.56585741769E+01	-1.72924668359E+02	8.85467503842E+00	1.79311466735E+02	-3.59502038304E+01	3.78841642360E+01	-5.87342715286E+00	-5.22365790957E-01
5.88487609734E+05	-1.39913616354E+01	-1.57241336132E+02	8.84695404196E+00	1.79157390101E+02	-4.35531197339E+01	1.54242638038E+02	-5.85113397663E+00	-4.43031150004E-01
6.10678964329E+05	-1.36167376869E+01	-1.69651486193E+02	8.83438272781E+00	1.79076939291E+02	-3.89316519638E+01	-3.19530549023E+01	-5.89737434633E+00	2.59675991825E-01
6.32870318924E+05	-1.19722883414E+01	-1.61499101919E+02	8.78416784496E+00	1.78704629667E+02	-4.22639308372E+01	1.66906126233E+02	-5.87060310138E+00	-1.82410002638E-01
6.55061673519E+05	-1.14374749504E+01	-1.72248849762E+02	8.83991052911E+00	1.78781285433E+02	-5.08952372944E+01	1.54216844085E+01	-5.89008983442E+00	-3.48085885618E-01
6.77253028114E+05	-1.38461652441E+01	-1.79531411032E+02	8.85103169559E+00	1.78315372299E+02	-4.20316166006E+01	-1.48958147510E+02	-5.85692388591E+00	-5.15329538153E-01
6.99444382709E+05	-1.33191556501E+01	-1.68467914129E+02	8.82347903922E+00	1.78120675574E+02	-4.96795385216E+01	-1.46999171922E+02	-5.87991953926E+00	-2.79095322205E-01
7.21635737304E+05	-1.42049894357E+01	-1.68285978405E+02	8.82116987309E+00	1.78287120554E+02	-3.85702282741E+01	1.48342058911E+02	-5.86467509131E+00	-4.98849151180E-01
7.43827091899E+05	-1.45481527407E+01	1.69017385684E+02	8.82967122336E+00	1.78270858845E+02	-4.77619378422E+01	1.72344105351E+02	-5.84670111067E+00	-3.63734624744E-01
7.66018446494E+05	-1.17671995731E+01	-1.63811290196E+02	8.78962548974E+00	1.77677200985E+02	-4.63652690176E+01	-1.32357677462E+02	-5.86820231489E+00	-4.01049942805E-01
7.88209801089E+05	-1.33923353573E+01	-1.70728055511E+02	8.82219192965E+00	1.77618958401E+02	-4.59786300561E+01	-1.47700598676E+02	-5.88108710510E+00	-6.32882402868E-01
8.10401155684E+05	-1.59458854484E+01	1.61048984470E+02	8.87171480339E+00	1.77665172293E+02	-4.91321106354E+01	1.35377145953E+02	-5.85252507359E+00	-4.47694410685E-01
8.32592510279E+05	-1.32641298883E+01	-1.56363947157E+02	8.87039502695E+00	1.77283903157E+02	-4.80157022251E+01	4.27820811458E+01	-5.86516351468E+00	-4.78341857116E-01
8.54783864874E+05	-1.37104114187E+01	-1.70954103352E+02	8.78841938581E+00	1.77482595018E+02	-4.85349129417E+01	-1.04496385687E+01	-5.86647443043E+00	-4.64960426437E-01
8.76975219469E+05	-1.84713125533E+01	1.51282387395E+02	8.81842147060E+00	1.77428258391E+02	-3.81855957625E+01	2.58427633515E+00	-5.88938452974E+00	-5.19395799533E-01
8.99166574064E+05	-1.46732340063E+01	-1.67705999483E+02	8.80705854783E+00	1.77038965250E+02	-4.56987902012E+01	-1.49461584152E+01	-5.89160842317E+00	-4.95655573106E-01
9.21357928659E+05	-1.54380478594E+01	-1.51690567775E+02	8.84978399048E+00	1.77074268062E+02	-3.85747399791E+01	8.78573794266E+01	-5.86656192536E+00	-7.26009000882E-01
9.43549283254E+05	-1.76050476057E+01	1.63833223608E+02	8.88836139953E+00	1.76835176816E+02	-4.29924833713E+01	-1.61187677549E+02	-5.86699970913E+00	-5.31092740212E-01
9.65740637849E+05	-1.80709224095E+01	-1.49745537506E+02	8.85314435376E+00	1.76657755787E+02	-4.69974048192E+01	3.49541799329E+01	-5.86058445539E+00	-5.99643234123E-01
9.87931992444E+05	-1.58098538058E+01	1.72843708599E+02	8.83817912576E+00	1.76544680012E+02	-4.63787091555E+01	-1.35106460689E+02	-5.87905539094E+00	-3.49736129936E-01
1.01012334704E+06	-1.71877851270E+01	-1.52578747146E+02	8.87095904925E+00	1.76381272624E+02	-4.87994228372E+01	-1.04129451434E+01	-5.87338493971E+00	-5.31788795626E-01
1.03231470163E+06	-1.68612929758E+01	-1.72857621463E+02	8.85353488550E+00	1.76257800569E+02	-4.60629790486E+01	1.57040896362E+02	-5.84610855204E+00	-5.95977440641E-01
1.05450605623E+06	-1.55051802525E+01	-1.62949036087E+02	8.78615864095E+00	1.76103956414E+02	-4.61569578569E+01	1.67647238409E+02	-5.87829348781E+00	-6.01059423316E-01
1.07669741082E+06	-1.22654264398E+01	1.76551160811E+02	8.87543159328E+00	1.76202972312E+02	-6.19408400736E+01	1.25732570912E+02	-5.86303079962E+00	-6.86929523153E-01
1.09888876542E+06	-1.63100642944E+01	-1.69146102534E+02	8.84105296526E+00	1.75851175364E+02	-4.97211855261E+01	-1.68690003412E+02	-5.87080624413E+00	-8.49040581267E-01
1.12108012001E+06	-1.33516316579E+01	-1.73537130110E+02	8.84961077507E+00	1.75941740034E+02	-5.36401445568E+01	-7.43665216457E+01	-5.88183444634E+00	-4.64092049329E-01
1.14327147461E+06	-1.13926746039E+01	-1.68847866212E+02	8.84457366797E+00	1.75569199583E+02	-4.88463813628E+01	1.56286408874E+02	-5.86169232946E+00	-6.44661200143E-01
1.16546282920E+06	-1.23504826078E+01	-1.69529137891E+02	8.83810989649E+00	1.75781778163E+02	-4.80441743593E+01	1.13988655443E+02	-5.86918801011E+00	-7.86564743889E-01
1.18765418380E+06	-1.46611569452E+01	-1.57309095702E+02	8.86790596957E+00	1.75426472966E+02	-3.94907134844E+01	-1.33896825592E+02	-5.83451676944E+00	-6.02423648024E-01
1.20984553839E+06	-1.39243598097E+01	-1.57874732951E+02	8.84167514333E+00	1.75234094813E+02	-4.43931999110E+01	1.07662149935E+02	-5.85660283004E+00	-9.63920995499E-01
1.23203689299E+06	-1.47445510526E+01	-1.55587421658E+02	8.85237845216E+00	1.75053231135E+02	-4.55131323239E+01	-4.35195725967E+01	-5.89377862110E+00	-4.75841312433E-01
1.25422824758E+06	-1.59409158263E+01	-1.67315966887E+02	8.88952864766E+00	1.75022282908E+02	-5.53261705752E+01	6.68932651394E+01	-5.88220973578E+00	-6.52125040929E-01
1.27641960218E+06	-1.44389301417E+01	1.71533770057E+02	8.82564450360E+00	1.75312614652E+02	-4.94429671150E+01	2.51648826051E+01	-5.86359905921E+00	-7.21367913587E-01
1.29861095677E+06	-1.47321418599E+01	1.78873302024E+02	8.82749840173E+00	1.74900503702E+02	-4.20374478189E+01	-9.96610922053E+00	-5.89648585446E+00	-8.31968270113E-01
1.32080231137E+06	-1.23175100793E+01	-1.79867013016E+02	8.84041358666E+00	1.75031739155E+02	-4.73012236459E+01	7.98085751452E+01	-5.88627953264E+00	-1.19208074658E+00
1.34299366596E+06	-2.17728280676E+01	-1.51162871669E+02	8.84851041678E+00	1.74858727931E+02	-4.24586468209E+01	-1.73068532312E+02	-5.87428938027E+00	-8.18944771014E-01
1.36518502056E+06	-1.75573477866E+01	-1.73655681938E+02	8.84289864529E+00	1.74695888229E+02	-4.48226288202E+01	4.74886434919E+00	-5.90605053811E+00	-7.60014936209E-01
1.38737637515E+06	-1.69236427486E+01	-1.65524303376E+02	8.87731804490E+00	1.74280497805E+02	-4.41199383908E+01	8.22721274932E+01	-5.85314261658E+00	-8.69779156488E-01
1.40956772975E+06	-1.57231928204E+01	-1.70510433114E+02	8.85684003228E+00	1.74456858430E+02	-5.09545922398E+01	1.62269295899E+02	-5.86228434980E+00	-7.17126378108E-01
1.43175908434E+06	-1.40586635318E+01	-1.71768927061E+02	8.86696576427E+00	1.74117191144E+02	-4.86820287392E+01	-5.52423560526E+01	-5.85910357264E+00	-6.93895231972E-01
1.45395043894E+06	-1.70083798035E+01	-1.70203871985E+02	8.85788437267E+00	1.74238579118E+02	-5.21204804281E+01	-5.21561003872E+01	-5.86932481969E+00	-5.19887189996E-01
1.47614179353E+06	-1.39766789943E+01	-1.72839302397E+02	8.83897623112E+00	1.73959330627E+02	-4.52613378475E+01	-1.43907764376E+02	-5.86832398240E+00	-6.12904054253E-01
1.49833314813E+06	-1.87330923959E+01	1.70217009284E+02	8.84219311414E+00	1.74172986445E+02	-3.92209448362E+01	8.87162773331E+01	-5.87505009098E+00	-8.20996376112E-01
1.52052450272E+06	-1.42368908292E+01	-1.48445669565E+02	8.84841473613E+00	1.73591610422E+02	-4.79724469502E+01	-1.01403732406E+02	-5.86477622994E+00	-8.52037722118E-01
1.54271585732E+06	-1.28325013434E+01	1.77946939435E+02	8.81958848926E+00	1.73788655431E+02	-4.63055886229E+01	-9.92808628503E+01	-5.86741908395E+00	-6.12731403586E-01
1.56490721191E+06	-1.38470653617E+01	-1.67365349497E+02	8.88251569632E+00	1.73717155673E+02	-5.12272034834E+01	9.35122321141E+01	-5.85844982116E+00	-7.80857133415E-01
1.58709856651E+06	-9.95100259336E+00	1.73476217505E+02	8.79783819186E+00	1.73579940098E+02	-5.80178744842E+01	9.28411133996E+01	-5.85775166232E+00	-1.01158019087E+00
1.60928992110E+06	-1.67943192663E+01	1.74789735499E+02	8.87636453437E+00	1.73583844876E+02	-5.38898561873E+01	1.70845515893E+00	-5.87769217313E+00	-9.26309693433E-01
1.63148127570E+06	-1.40887115477E+01	-1.75894922450E+02	8.85973130104E+00	1.73306827915E+02	-5.07856696587E+01	8.69335011884E+01	-5.88883828121E+00	-8.57319701511E-01
1.65367263029E+06	-1.47008509471E+01	-1.51416223139E+02	8.86051720877E+00	1.72927247353E+02	-3.60151911218E+01	-1.20872399445E+02	-5.88770817367E+00	-6.16706807916E-01
1.67586398489E+06	-1.51109012650E+01	-1.59057834577E+02	8.86917188957E+00	1.72962806470E+02	-4.64249915129E+01	1.15465573659E+02	-5.88145503402E+00	-7.04672092439E-01
1.69805533948E+06	-1.39245416754E+01	-1.59974105695E+02	8.84609657477E+00	1.73065493602E+02	-4.21745870454E+01	6.57764733357E+01	-5.85037559005E+00	-9.28945140745E-01
1.72024669408E+06	-1.37680542818E+01	-1.63712308029E+02	8.84858715384E+00	1.72732286252E+02	-4.71238611863E+01	7.40542544947E+01	-5.86335960876E+00	-9.06245243636E-01
1.74243804867E+06	-1.27680885470E+01	-1.72413599527E+02	8.85585578229E+00	1.72535071542E+02	-4.54989177315E+01	-5.79680822385E+01	-5.88352327292E+00	-9.09034453358E-01
1.76462940327E+06	-1.42609465881E+01	-1.52584284439E+02	8.87466903723E+00	1.72459614913E+02	-4.18494160009E+01	-1.41269352947E+02	-5.85257515083E+00	-7.26136488125E-01
1.78682075786E+06	-1.47864527036E+01	-1.71155389452E+02	8.82279351165E+00	1.72648334651E+02	-4.67512062926E+01	6.30226796940E+01	-5.86132610030E+00	-1.20172506545E+00
1.80901211246E+06	-1.18063951322E+01	1.77193685023E+02	8.79626010113E+00	1.72288543336E+02	-3.20055471662E+01	4.76177842711E+01	-5.85620187836E+00	-1.28451157748E+00
1.83120346705E+06	-1.34398364280E+01	-1.61857241971E+02	8.87231781568E+00	1.72192752834E+02	-5.25484758127E+01	-8.52265750206E+01	-5.88364597883E+00	-9.32749170074E-01
1.85339482165E+06	-1.24848927042E+01	-1.63319857055E+02	8.83680226290E+00	1.72035230402E+02	-4.85312561417E+01	1.21166802126E+02	-5.85050257512E+00	-1.07024047383E+00
1.87558617624E+06	-1.29576501701E+01	-1.75648944467E+02	8.85537539324E+00	1.72013573736E+02	-5.01896589879E+01	1.38002882748E+02	-5.85923211743E+00	-9.43574274491E-01
1.89777753084E+06	-1.29477949709E+01	-1.73197146537E+02	8.85220566500E+00	1.71826847677E+02	-4.96327850019E+01	1.77663839125E+02	-5.86782825173E+00	-8.89007904455E-01
1.91996888543E+06	-1.65489142556E+01	-1.70598759076E+02	8.84650742953E+00	1.71832241415E+02	-4.46717646924E+01	1.55655373058E+02	-5.83961082050E+00	-1.01191065999E+00
1.94216024003E+06	-1.58898332767E+01	-1.63753715651E+02	8.83408162434E+00	1.71545762185E+02	-5.34136155092E+01	-1.53490799436E+02	-5.88007682800E+00	-1.27244187913E+00
1.96435159462E+06	-1.51232665546E+01	-9.95921285836E+01	8.90241656865E+00	1.71544281006E+02	-5.22575873205E+01	-1.34622575813E+02	-5.86071607104E+00	-1.18230288326E+00
1.98654294922E+06	-1.51865658519E+01	-1.67217288383E+02	8.88856856794E+00	1.71600457287E+02	-4.35031225219E+01	1.28686111595E+01	-5.86652128515E+00	-1.02738239576E+00
2.00873430381E+06	-1.36511817172E+01	-1.77652776814E+02	8.85662392853E+00	1.71506320902E+02	-4.39675977621E+01	-7.72076056751E+01	-5.88100795970E+00	-8.40610672581E-01
2.03092565841E+06	-1.39459361641E+01	-1.75160196627E+02	8.88391436258E+00	1.71294585719E+02	-4.25418671514E+01	1.71618415772E+02	-5.86461029252E+00	-9.58208134653E-01
2.05311701300E+06	-1.44297414685E+01	-1.52442274068E+02	8.89649056846E+00	1.71151697390E+02	-4.64675519773E+01	-2.77158797404E+01	-5.87823098064E+00	-9.20800097662E-01
2.07530836760E+06	-1.65083078874E+01	-1.67305221430E+02	8.86740080637E+00	1.71137360732E+02	-4.00590985711E+01	7.65159555866E+01	-5.83685032994E+00	-1.22943158301E+00
2.09749972219E+06	-1.42761436427E+01	-1.64629100208E+02	8.85112752852E+00	1.70817106074E+02	-4.38388842551E+01	1.42932344615E+02	-5.86759303922E+00	-1.15681370221E+00
2.11969107679E+06	-2.30549434815E+01	1.24040187148E+02	8.81151210746E+00	1.71270146851E+02	-3.92898647316E+01	2.29420108533E+00	-5.89192089861E+00	-1.14602543315E+00
2.14188243138E+06	-1.25962486349E+01	-1.38726675935E+02	8.92050974976E+00	1.70604270145E+02	-3.83541706165E+01	-9.30375382271E+00	-5.90686900831E+00	-1.11498087639E+00
2.16407378598E+06	-1.46766044043E+01	-1.65951342245E+02	8.88840824987E+00	1.70600020108E+02	-5.10253782908E+01	5.11119723175E+01	-5.87743838034E+00	-1.16351852359E+00
2.18626514057E+06	-1.64684483683E+01	-1.69052298272E+02	8.87380604829E+00	1.70722488700E+02	-5.87981141078E+01	-1.33374325392E+02	-5.87775935849E+00	-1.19390808610E+00
2.20845649517E+06	-1.27541899036E+01	-1.69694461900E+02	8.83641864984E+00	1.70346925925E+02	-4.86858027104E+01	-1.35412840856E+02	-5.87081181087E+00	-1.10164901194E+00
2.23064784976E+06	-1.03683159261E+01	-1.70178270875E+02	8.83404289061E+00	1.70058149068E+02	-4.29369281242E+01	-1.60146155953E+02	-5.84778991315E+00	-1.03569599898E+00
2.25283920436E+06	-1.41872944006E+01	-1.74770362925E+02	8.86960134477E+00	1.70086796234E+02	-5.09222880043E+01	1.76434408014E+01	-5.87911932154E+00	-1.32611510950E+00
2.27503055895E+06	-1.34942715937E+01	1.41171709823E+02	8.79838589367E+00	1.70420798888E+02	-5.01918190244E+01	9.70945568349E+01	-5.86659084598E+00	-1.19038883826E+00
2.29722191355E+06	-1.35012167192E+01	-1.56932093509E+02	8.85316604061E+00	1.70011867787E+02	-5.31056121661E+01	-1.15364067855E+02	-5.86388391319E+00	-1.15320598927E+00
2.31941326814E+06	-2.03862044947E+01	-1.75176688901E+02	8.89771688092E+00	1.70060883514E+02	-6.65869146089E+01	6.15432414065E+01	-5.88051331980E+00	-1.14740248871E+00
2.34160462274E+06	-1.52809880690E+01	-1.45318757547E+02	8.91342799973E+00	1.69689012682E+02	-4.97668690511E+01	-1.41326704858E+02	-5.86293437752E+00	-1.08977586880E+00
2.36379597733E+06	-1.25704613558E+01	-1.68762086448E+02	8.85604244528E+00	1.69408595395E+02	-4.42221481131E+01	-3.17079855146E+01	-5.88215578547E+00	-1.24251590993E+00
2.38598733193E+06	-1.58140431676E+01	-1.78024814953E+02	8.86474824293E+00	1.69794288127E+02	-4.23907396054E+01	-9.69457898354E+01	-5.88628260909E+00	-1.05921577497E+00
2.40817868652E+06	-1.22405571160E+01	-1.59552316502E+02	8.87102265721E+00	1.69034266585E+02	-4.72961599299E+01	-1.37917709357E+02	-5.87716995852E+00	-1.33949106465E+00
2.43037004112E+06	-2.02822177976E+01	-8.72134048328E+01	8.93605904544E+00	1.69373576138E+02	-4.46104320499E+01	7.23636901512E+01	-5.89075348002E+00	-1.71331146605E+00
2.45256139571E+06	-1.59644801639E+01	-1.46624358822E+02	8.90442616567E+00	1.69531734645E+02	-4.74693956092E+01	1.07104550932E+02	-5.89405742793E+00	-1.27019583304E+00
2.47475275031E+06	-1.44555822413E+01	-1.57438244311E+02	8.89286130063E+00	1.69047724823E+02	-4.28635025318E+01	-3.05151921928E+00	-5.89669243464E+00	-1.17285519256E+00
2.49694410490E+06	-1.15368904452E+01	-1.69952981419E+02	8.85361741610E+00	1.68956851717E+02	-4.72105089909E+01	-3.72769863786E+01	-5.86521437337E+00	-1.26179624753E+00
2.51913545950E+06	-1.25076178911E+01	-1.73896869366E+02	8.85855695790E+00	1.68870508738E+02	-4.33525276275E+01	-2.30426314338E+01	-5.89608937519E+00	-1.24186166449E+00
2.54132681409E+06	-1.33558257724E+01	-1.60291375437E+02	8.89857457270E+00	1.68683130141E+02	-4.40166224176E+01	1.28492245638E+02	-5.84757388057E+00	-1.41924968803E+00
2.56351816869E+06	-1.17698910975E+01	-1.69392865565E+02	8.86394425000E+00	1.68507848427E+02	-5.47954311472E+01	-7.50989255525E+01	-5.88223896185E+00	-1.23670458876E+00
2.58570952328E+06	-1.33002127295E+01	-1.60000801111E+02	8.86767523255E+00	1.68531104625E+02	-4.29691031750E+01	1.42378881427E+01	-5.88885973040E+00	-1.48626473839E+00
2.60790087788E+06	-1.12775712126E+01	-1.45095035525E+02	8.90280834313E+00	1.68213389346E+02	-3.70120313817E+01	-1.58487858793E+02	-5.89312915681E+00	-1.05826115366E+00
2.63009223247E+06	-1.27306434233E+01	-1.49853951068E+02	8.92920027334E+00	1.68148248111E+02	-4.64913437862E+01	1.20425887123E+02	-5.88856779423E+00	-9.87585215041E-01
2.65228358707E+06	-1.51897438941E+01	-1.61734103622E+02	8.87649426921E+00	1.68470486695E+02	-4.81106427297E+01	-1.32927270609E+02	-5.86395319123E+00	-1.26016419455E+00
2.67447494166E+06	-1.40472473100E+01	-1.65910962952E+02	8.90256814574E+00	1.68143077333E+02	-5.10049295812E+01	-1.10421824353E+02	-5.88491489905E+00	-1.36924515659E+00
2.69666629626E+06	-1.16637093767E+01	-1.58050650656E+02	8.92510028131E+00	1.67709800797E+02	-4.69391526201E+01	9.45129243440E+00	-5.88704720632E+00	-1.52841248558E+00
2.71885765085E+06	-1.27320743852E+01	-1.47107024012E+02	8.93756436431E+00	1.67691088472E+02	-4.38476283160E+01	9.21091357314E+01	-5.86522341746E+00	-1.59251047418E+00
2.74104900545E+06	-1.37533130852E+01	1.75921639855E+02	8.88843847195E+00	1.67880892022E+02	-4.42111718394E+01	1.60861635232E+02	-5.86394587501E+00	-1.42173879829E+00
2.76324036004E+06	-1.06213069234E+01	-1.70436423543E+02	8.88390922727E+00	1.67807317681E+02	-5.00053779824E+01	-1.79719069908E+02	-5.87696565022E+00	-1.20264706798E+00
2.78543171463E+06	-1.19313665344E+01	-1.74526968587E+02	8.86616673919E+00	1.67682675393E+02	-4.23426316709E+01	-1.04451620944E+02	-5.87948706243E+00	-1.27021077268E+00
2.80762306923E+06	-1.61536765878E+01	-1.50312687072E+02	8.91264547316E+00	1.67510740428E+02	-4.76582656887E+01	-1.41548811586E+02	-5.87903862568E+00	-1.32696517939E+00
2.82981442382E+06	-1.20159065507E+01	-1.65499239225E+02	8.88537729290E+00	1.67331100261E+02	-4.60652710684E+01	-1.65034608764E+02	-5.85963961167E+00	-1.47032572933E+00
2.85200577842E+06	-1.45170401143E+01	-1.66215933736E+02	8.88495072883E+00	1.67163086498E+02	-4.31729460272E+01	-2.18695450301E+01	-5.90768810435E+00	-1.38046789199E+00
2.87419713301E+06	-1.52096731367E+01	-1.37952911317E+02	8.91469642713E+00	1.66979531169E+02	-5.98604087645E+01	8.82985869557E+01	-5.86802306108E+00	-1.46365666606E+00
