# Hz S DB R 50
! CMT, M5065, 19127446, 24.2.4/2
! Date: 11/8/2024 5:06:30 PM
! Data: Format (Calibration Info)
! Freq	S11:dB/Ang(F2)	S21:dB/Ang(F2)	S12:dB/Ang(F2)	S22:dB/Ang(F2)
3.00000000000E+05	-1.27833704415E+01	-1.57709766627E+02	8.13564182345E+00	-1.77497253409E+02	-5.38437021337E+01	-1.47901974753E+02	-5.89521264645E+00	-3.19744464749E-01
3.22191354595E+05	-1.53435272725E+01	-1.50439365012E+02	8.18375780695E+00	-1.78263498964E+02	-4.24001138019E+01	1.51879362788E+02	-5.84638448746E+00	-3.50606588797E-01
3.44382709190E+05	-1.58396151460E+01	-1.69011289981E+02	8.16853188544E+00	-1.78253638282E+02	-4.70779316688E+01	2.26660515753E+01	-5.90860994830E+00	-1.43043882064E-01
3.66574063785E+05	-1.73455444027E+01	-1.65114515791E+02	8.16921795646E+00	-1.78645647676E+02	-4.66861434071E+01	-3.17103064440E+01	-5.90027359667E+00	-1.40722494930E-01
3.88765418380E+05	-1.71717332340E+01	1.44094947414E+02	8.13922564251E+00	-1.78473408177E+02	-3.75406677069E+01	-2.59326973151E+01	-5.62308947286E+00	-4.85578363657E-01
4.10956772975E+05	-1.38086445153E+01	1.78634225389E+02	8.16614970325E+00	-1.78904756357E+02	-4.41732303500E+01	-9.76524333085E+01	-5.86708539905E+00	-2.25962321082E-01
4.33148127570E+05	-1.33879367403E+01	-1.75059480042E+02	8.19819413737E+00	-1.79292795655E+02	-5.60381865937E+01	-1.21514065657E+02	-5.86837976925E+00	-2.64824878411E-01
4.55339482165E+05	-1.26506338885E+01	-1.56971942222E+02	8.17536355293E+00	-1.79557129136E+02	-5.57564653511E+01	2.66612335620E+01	-5.87751049321E+00	-3.58201279775E-01
4.77530836760E+05	-1.20753324258E+01	-1.77165052059E+02	8.13406597167E+00	-1.79680946213E+02	-5.23993420831E+01	1.45299430451E+02	-5.85265559793E+00	-3.83621483906E-01
4.99722191355E+05	-1.49039391512E+01	1.72113874107E+02	8.17232243043E+00	-1.79985215164E+02	-4.28159389027E+01	-3.77546633684E+01	-5.89438738584E+00	-5.26971466983E-01
5.21913545950E+05	-1.29482629047E+01	-1.70127270841E+02	8.16932781145E+00	1.79575206426E+02	-5.20186106284E+01	1.31249124777E+02	-5.86518882967E+00	-3.93959477665E-01
5.44104900545E+05	-1.66357803114E+01	-1.79851453516E+02	8.18871688222E+00	1.79784441226E+02	-4.77890138171E+01	1.28817504075E+02	-5.87699762704E+00	-4.28455490391E-01
5.66296255139E+05	-1.66151339455E+01	-1.78347320681E+02	8.18283879012E+00	1.79614281924E+02	-4.92661419130E+01	4.01074781380E+01	-5.85907235007E+00	-4.35077424428E-01
5.88487609734E+05	-1.27126293460E+01	-1.56947164227E+02	8.16563165352E+00	1.79199746182E+02	-4.64247497499E+01	1.68406503336E+02	-5.85783961021E+00	-3.09950472359E-01
6.10678964329E+05	-1.63043589727E+01	-1.51091582068E+02	8.18941091208E+00	1.79306259129E+02	-4.57989353597E+01	7.02131393258E+01	-5.88725064258E+00	1.04621502140E-01
6.32870318924E+05	-1.54273842614E+01	-1.49301473828E+02	8.18375492275E+00	1.78750767145E+02	-5.31638566128E+01	1.17558966022E+02	-5.88141793105E+00	-1.95898454728E-01
6.55061673519E+05	-1.56105558638E+01	1.64616632063E+02	8.17109159452E+00	1.78749250108E+02	-4.75374610946E+01	1.46848940989E+02	-5.86765427192E+00	-4.38693042823E-01
6.77253028114E+05	-1.26277581953E+01	-1.77158165203E+02	8.14017408984E+00	1.78512374373E+02	-4.76610801987E+01	1.73106162998E+02	-5.84671775942E+00	-6.35049277533E-01
6.99444382709E+05	-1.82568633312E+01	-1.77188088633E+02	8.20577212991E+00	1.78580288368E+02	-5.11534321666E+01	-1.01003362759E+02	-5.87522671379E+00	-5.08791105231E-01
7.21635737304E+05	-1.09168500804E+01	1.75290675029E+02	8.17282882920E+00	1.78569947802E+02	-3.74378642273E+01	2.86709815134E+01	-5.88370873663E+00	-4.63732642049E-01
7.43827091899E+05	-1.49855560559E+01	-1.72303539887E+02	8.17966361168E+00	1.78238781276E+02	-4.38107494380E+01	-1.50108053652E+02	-5.85551819300E+00	-4.49785462374E-01
7.66018446494E+05	-1.46322817242E+01	-1.64672882256E+02	8.20847938417E+00	1.78010479812E+02	-4.38831066989E+01	5.12307454222E+01	-5.87123613819E+00	-6.08365798645E-01
7.88209801089E+05	-1.46774132161E+01	-1.74750608905E+02	8.19451779860E+00	1.77914451151E+02	-6.16734842052E+01	-8.87569337529E+01	-5.86920908785E+00	-4.51661686798E-01
8.10401155684E+05	-1.31394648150E+01	1.79461235083E+02	8.16443765723E+00	1.77615570953E+02	-4.58184273792E+01	1.17420979279E+02	-5.86147025317E+00	-4.72134169087E-01
8.32592510279E+05	-1.29685813539E+01	-1.68094031348E+02	8.18760109657E+00	1.77575764223E+02	-4.33787511362E+01	-8.81406761452E+01	-5.85892005132E+00	-3.59667753465E-01
8.54783864874E+05	-1.46112255910E+01	1.72282565973E+02	8.18617559944E+00	1.77587208825E+02	-3.83710680407E+01	-1.87384047842E+00	-5.90494051792E+00	-5.20393766513E-01
8.76975219469E+05	-1.41696738185E+01	-1.72466518970E+02	8.16368976759E+00	1.77162059063E+02	-4.28353363318E+01	1.23007682182E+02	-5.86121608734E+00	-4.36736835576E-01
8.99166574064E+05	-1.69042801236E+01	-1.67418524715E+02	8.22370897757E+00	1.77126011298E+02	-4.84470739299E+01	-1.97890136122E+01	-5.89113374407E+00	-4.57087418278E-01
9.21357928659E+05	-1.34589955315E+01	-1.62848337436E+02	8.17594067956E+00	1.77128167181E+02	-5.02550806229E+01	-4.58235617782E+01	-5.86990569246E+00	-5.46997128181E-01
9.43549283254E+05	-1.31843358723E+01	-1.70887861432E+02	8.19331780215E+00	1.76866225104E+02	-4.82047210432E+01	-5.41067564690E+01	-5.88923943252E+00	-6.50890608913E-01
9.65740637849E+05	-1.39650656411E+01	-1.54220442370E+02	8.20803467655E+00	1.76656554338E+02	-4.22174400415E+01	-4.79428169514E+01	-5.87875376936E+00	-5.25683484838E-01
9.87931992444E+05	-1.60914782243E+01	-1.79110015682E+02	8.20167716641E+00	1.76653051693E+02	-4.20001427893E+01	-1.24784599516E+02	-5.87592443861E+00	-5.01758065287E-01
1.01012334704E+06	-1.25650833618E+01	-1.72054097550E+02	8.16027924018E+00	1.76526627202E+02	-3.94382224821E+01	-1.05610507991E+02	-5.88848587818E+00	-5.07147941096E-01
1.03231470163E+06	-1.39595389204E+01	1.71077322086E+02	8.18747538447E+00	1.76301638318E+02	-4.40810743681E+01	-1.54422759431E+02	-5.87014711725E+00	-6.12252296275E-01
1.05450605623E+06	-1.39555140167E+01	-1.50937183553E+02	8.20218103356E+00	1.75954892375E+02	-4.96308883627E+01	2.70976414561E+01	-5.86825975672E+00	-6.62897754108E-01
1.07669741082E+06	-1.73144583692E+01	-1.75858845688E+02	8.18342778797E+00	1.76117882060E+02	-4.37092516084E+01	1.79416719498E+02	-5.83826371639E+00	-7.09790559254E-01
1.09888876542E+06	-1.36275112563E+01	-1.69054983139E+02	8.18081345533E+00	1.76233020647E+02	-5.21766025582E+01	-1.08108376264E+02	-5.86689097829E+00	-5.14671363870E-01
1.12108012001E+06	-1.05278368165E+01	-1.74246593706E+02	8.14617667709E+00	1.76064772726E+02	-5.20631774111E+01	1.25808508695E+02	-5.88503013729E+00	-5.29657791672E-01
1.14327147461E+06	-1.26906970492E+01	-1.70315200063E+02	8.19449126463E+00	1.75904074813E+02	-4.86976969432E+01	-1.24297455824E+02	-5.84181928485E+00	-5.03421170689E-01
1.16546282920E+06	-1.40991094304E+01	-1.70574179994E+02	8.21565396558E+00	1.75899208111E+02	-5.20021861748E+01	-1.73914906892E+02	-5.86300778179E+00	-6.67373775491E-01
1.18765418380E+06	-1.87092157425E+01	-1.63335083514E+02	8.19556210531E+00	1.75733902191E+02	-3.77704531397E+01	-1.22333767202E+02	-5.86250814463E+00	-6.54834980769E-01
1.20984553839E+06	-1.22867615712E+01	-1.71224995617E+02	8.18084808697E+00	1.75435573996E+02	-4.04607205151E+01	1.77937874319E+00	-5.89567057809E+00	-8.47742158017E-01
1.23203689299E+06	-1.61231802146E+01	-1.53275826692E+02	8.19149054604E+00	1.75337350736E+02	-4.46648563799E+01	5.49257887197E+01	-5.89731097745E+00	-4.46505075623E-01
1.25422824758E+06	-1.50248958618E+01	-1.72640184024E+02	8.18000892483E+00	1.75372392802E+02	-4.43456822703E+01	1.84397314924E+01	-5.86881848906E+00	-7.20690838600E-01
1.27641960218E+06	-1.40360213431E+01	-1.68073442601E+02	8.19760745697E+00	1.75220296929E+02	-4.36028305936E+01	9.35978613489E+01	-5.88188750627E+00	-8.01472882833E-01
1.29861095677E+06	-1.41549493322E+01	1.70170944410E+02	8.17824494762E+00	1.75257874276E+02	-4.38025978120E+01	-1.63508831231E+02	-5.88147855538E+00	-6.27627658585E-01
1.32080231137E+06	-1.29006951842E+01	-1.67594930005E+02	8.17185850384E+00	1.74868423913E+02	-4.16340607410E+01	6.19339892777E+01	-5.86048716262E+00	-1.10874514863E+00
1.34299366596E+06	-1.32772405170E+01	-1.68730278925E+02	8.16266009434E+00	1.74783360010E+02	-3.78328827101E+01	4.94000895279E+01	-5.85783860659E+00	-1.03991779208E+00
1.36518502056E+06	-1.17514047392E+01	-1.61974224485E+02	8.19775589603E+00	1.74748240618E+02	-4.26195819623E+01	7.06487629565E+01	-5.87355139613E+00	-6.31064984220E-01
1.38737637515E+06	-2.30571906436E+01	-5.26023824606E+01	8.24841468556E+00	1.75050104061E+02	-4.51865277192E+01	1.70229644705E+02	-5.86724128946E+00	-6.68969082380E-01
1.40956772975E+06	-1.60258966726E+01	-1.47578747017E+02	8.20646434124E+00	1.74373652088E+02	-3.95048158293E+01	3.03421146493E+01	-5.87449812319E+00	-8.55762390257E-01
1.43175908434E+06	-1.28369310601E+01	-1.50118120422E+02	8.18688270372E+00	1.74142267653E+02	-4.37807338087E+01	6.35165016749E+01	-5.85309686554E+00	-7.99074639435E-01
1.45395043894E+06	-1.28312591153E+01	-1.69878008494E+02	8.17458120792E+00	1.74443737360E+02	-4.15032434621E+01	-1.23383689401E+02	-5.86265332598E+00	-5.66173196258E-01
1.47614179353E+06	-1.59187545675E+01	1.71734817371E+02	8.19763824146E+00	1.74314232948E+02	-4.37311072604E+01	-1.79414457235E+02	-5.85078372895E+00	-7.34317642459E-01
1.49833314813E+06	-1.50228178302E+01	-1.56853793332E+02	8.20008156678E+00	1.74228081855E+02	-4.84276762737E+01	5.07106668690E+01	-5.85659008776E+00	-9.32100772818E-01
1.52052450272E+06	-1.25006102795E+01	-1.70661130742E+02	8.15779632673E+00	1.73684506826E+02	-4.35369369763E+01	-7.18482218753E+01	-5.88129200746E+00	-7.54377041842E-01
1.54271585732E+06	-1.20402038958E+01	-1.59939538037E+02	8.21954778176E+00	1.73800293530E+02	-4.77557825740E+01	-3.75043291158E+01	-5.88962145148E+00	-8.11521199846E-01
1.56490721191E+06	-1.38864743135E+01	-1.54944046923E+02	8.24273292788E+00	1.73691202924E+02	-5.04791660023E+01	7.41855563501E+01	-5.88453023066E+00	-9.54570142707E-01
1.58709856651E+06	-1.50533762406E+01	-1.78928688198E+02	8.19879775475E+00	1.73841578837E+02	-4.81856096796E+01	2.17008473977E+01	-5.87442664915E+00	-9.14248998791E-01
1.60928992110E+06	-2.01170973553E+01	-1.57736612903E+02	8.22587254287E+00	1.73591673442E+02	-4.18039114698E+01	-7.43980878284E+01	-5.89021430383E+00	-6.69979057488E-01
1.63148127570E+06	-1.18276679603E+01	-1.78938798138E+02	8.15594707122E+00	1.73408514987E+02	-3.57506132777E+01	-6.29676951389E+01	-5.88147145724E+00	-7.95805263386E-01
1.65367263029E+06	-1.15727705715E+01	-1.74248748492E+02	8.16095303285E+00	1.73330465056E+02	-4.68000816280E+01	-4.06176770493E+00	-5.87565973139E+00	-1.10788438503E+00
1.67586398489E+06	-1.56392214953E+01	-1.69917498737E+02	8.20217346393E+00	1.73070377985E+02	-4.06799757825E+01	9.48335407913E+01	-5.89199583285E+00	-1.00628756186E+00
1.69805533948E+06	-1.82321793853E+01	-1.60735422758E+02	8.19884792334E+00	1.73156538976E+02	-4.88553684851E+01	1.38177871844E+02	-5.85182757616E+00	-7.64724349564E-01
1.72024669408E+06	-1.30429681469E+01	-1.78546602521E+02	8.19495428926E+00	1.73030180290E+02	-4.52040023198E+01	-9.17535697811E+01	-5.88223911145E+00	-8.67864852499E-01
1.74243804867E+06	-1.79167316954E+01	-1.45840832643E+02	8.28435127749E+00	1.72954555587E+02	-4.42761409836E+01	1.43903723218E+02	-5.87329588934E+00	-8.81748685878E-01
1.76462940327E+06	-1.40222539288E+01	-1.78945689182E+02	8.20823255459E+00	1.72742568679E+02	-4.73711090133E+01	-1.27168490571E+02	-5.87162781980E+00	-8.35674449355E-01
1.78682075786E+06	-1.87112779048E+01	-1.51957537829E+02	8.23926965615E+00	1.72848225237E+02	-3.20582008125E+01	-1.75929095739E+02	-5.85157055463E+00	-7.45660284526E-01
1.80901211246E+06	-1.15456096657E+01	-1.54856507246E+02	8.20536022320E+00	1.72331113739E+02	-3.20405199280E+01	1.68417454889E+02	-5.83301393355E+00	-7.36696860210E-01
1.83120346705E+06	-1.04876530873E+01	1.50039225128E+02	8.11479756888E+00	1.72557920304E+02	-4.97394794197E+01	1.12576013894E+02	-5.87853014273E+00	-1.04983923554E+00
1.85339482165E+06	-2.99267796549E+01	1.45572077551E+02	8.20387143938E+00	1.72583895022E+02	-4.55904295254E+01	1.04314981679E+02	-5.85541973629E+00	-1.18847395506E+00
1.87558617624E+06	-1.34591516011E+01	-1.73991954855E+02	8.16404635197E+00	1.72212157423E+02	-4.91661710725E+01	-6.89217885451E+01	-5.87448333064E+00	-9.81227499046E-01
1.89777753084E+06	-1.19671898461E+01	-1.58472509572E+02	8.22982508687E+00	1.71863709201E+02	-4.68826255384E+01	4.28194904629E+01	-5.87090769647E+00	-1.02527428932E+00
1.91996888543E+06	-1.36493878057E+01	-1.60503868732E+02	8.16575483002E+00	1.71962213693E+02	-4.48836173329E+01	6.93933602100E+01	-5.87402503563E+00	-1.08595697736E+00
1.94216024003E+06	-1.41922807788E+01	-1.35325885085E+02	8.22950927159E+00	1.71661185762E+02	-3.87756897099E+01	1.56753226385E+02	-5.85697245040E+00	-1.06990991237E+00
1.96435159462E+06	-1.15329655512E+01	-1.49243045806E+02	8.21593766299E+00	1.71670381646E+02	-3.94603499676E+01	1.34802590585E+01	-5.86050417707E+00	-1.02434319985E+00
1.98654294922E+06	-1.27891905766E+01	-1.57753837409E+02	8.21171898088E+00	1.71698991062E+02	-5.15668928721E+01	-1.29204929994E+01	-5.89263653221E+00	-9.59559986762E-01
2.00873430381E+06	-1.11308923585E+01	-1.35441294212E+02	8.24011286798E+00	1.71364031321E+02	-5.50201438392E+01	1.54794815282E+02	-5.84804744970E+00	-1.18190455718E+00
2.03092565841E+06	-1.36430116866E+01	-1.46974094686E+02	8.25220163116E+00	1.71168571927E+02	-4.48190957007E+01	3.84863553247E+01	-5.83768901855E+00	-1.08901439210E+00
2.05311701300E+06	-2.02155577435E+01	1.74832669814E+02	8.22922879012E+00	1.71774650915E+02	-4.47422058145E+01	-7.43586896434E+01	-5.88469644338E+00	-8.74771564871E-01
2.07530836760E+06	-1.36600860296E+01	-1.60385742129E+02	8.21808934048E+00	1.71215036478E+02	-4.26853613173E+01	7.15162792360E+01	-5.88862165171E+00	-1.19244616905E+00
2.09749972219E+06	-1.28385481932E+01	-1.65131734952E+02	8.22455887879E+00	1.71007495129E+02	-4.94147285364E+01	1.43670569509E+02	-5.86653268821E+00	-1.00585372595E+00
2.11969107679E+06	-1.60265208887E+01	-1.56880713733E+02	8.24260283358E+00	1.71310043564E+02	-4.70868675879E+01	-5.50844953262E+01	-5.86645833118E+00	-1.18072441710E+00
2.14188243138E+06	-1.32998082940E+01	1.71247043644E+02	8.19342161124E+00	1.71170411262E+02	-5.51663025454E+01	-1.15585472011E+02	-5.85537566595E+00	-9.51279240576E-01
2.16407378598E+06	-9.55004847669E+00	-5.78222172511E+01	8.37599837301E+00	1.71353478529E+02	-3.97500877854E+01	3.16821273066E+01	-5.89075181462E+00	-1.25449122485E+00
2.18626514057E+06	-1.36142753349E+01	-1.65223939242E+02	8.20935695088E+00	1.70868108768E+02	-4.32850628957E+01	-8.34510412071E+01	-5.88155660062E+00	-1.03638579772E+00
2.20845649517E+06	-1.40874123580E+01	-1.76166328099E+02	8.25846647719E+00	1.70596146411E+02	-6.21544210971E+01	-1.74520061109E+02	-5.87363161428E+00	-1.21551294531E+00
2.23064784976E+06	-1.34340853383E+01	-1.69785342326E+02	8.18850761665E+00	1.70470116627E+02	-3.96521865320E+01	1.70958721914E+02	-5.85876061007E+00	-1.21017558248E+00
2.25283920436E+06	-1.50378248634E+01	-1.72847300369E+02	8.21605069507E+00	1.70414835433E+02	-4.25741204362E+01	1.15169389519E+02	-5.84751719885E+00	-1.24815094234E+00
2.27503055895E+06	-1.42992662785E+01	-1.62717888803E+02	8.24069991902E+00	1.70354428090E+02	-3.46385322076E+01	1.08795998242E+02	-5.82941635716E+00	-1.19248641805E+00
2.29722191355E+06	-1.18837893938E+01	-1.60066745717E+02	8.18078984562E+00	1.70145109034E+02	-4.23611689712E+01	1.12797701412E+02	-5.86738852690E+00	-1.31226995870E+00
2.31941326814E+06	-1.10389499945E+01	-1.38899550286E+02	8.23091742116E+00	1.70195229063E+02	-4.14524530249E+01	6.46437214461E+00	-5.88183166625E+00	-1.28669325139E+00
2.34160462274E+06	-1.42696051593E+01	-1.69849382574E+02	8.18379711978E+00	1.70171976961E+02	-4.46871697993E+01	7.55717095582E+01	-5.84709119204E+00	-1.26493881312E+00
2.36379597733E+06	-1.12110576257E+01	-1.49947042048E+02	8.22560029210E+00	1.69770423779E+02	-5.65085672434E+01	2.44763289133E+01	-5.87071188869E+00	-1.22893034417E+00
2.38598733193E+06	-1.39911784518E+01	-1.57244664561E+02	8.28250068189E+00	1.69898944009E+02	-3.94817422636E+01	3.28683781493E+01	-5.89254303504E+00	-1.33128644982E+00
2.40817868652E+06	-1.36640212774E+01	-1.51125844802E+02	8.24163029351E+00	1.69515362232E+02	-4.18396513611E+01	-1.21535309757E+02	-5.87172162454E+00	-1.14999607089E+00
2.43037004112E+06	-1.50386984615E+01	-1.60543028868E+02	8.21483202523E+00	1.69760031750E+02	-4.62896173615E+01	-9.93548508232E+01	-5.86453508772E+00	-1.48091752424E+00
2.45256139571E+06	-1.20004183512E+01	-1.55962548631E+02	8.17725912475E+00	1.69334323499E+02	-4.37473185097E+01	8.15503490590E+01	-5.88209763199E+00	-1.32214814777E+00
2.47475275031E+06	-2.22269609390E+01	-8.55562850523E+01	8.25364159782E+00	1.70107762897E+02	-4.64232445485E+01	1.28863813242E+02	-5.85439929704E+00	-1.30825891466E+00
2.49694410490E+06	-1.26344000410E+01	-1.52578797638E+02	8.23222187646E+00	1.69386153250E+02	-4.29461455836E+01	2.96587327333E+01	-5.90180937616E+00	-1.41416664160E+00
2.51913545950E+06	-1.59765776760E+01	-1.53174003439E+02	8.26452449797E+00	1.69240146395E+02	-5.10388212872E+01	-7.40232225379E+01	-5.87032643278E+00	-1.30637256003E+00
2.54132681409E+06	-1.38237395158E+01	-1.65173492590E+02	8.24829990458E+00	1.69077038788E+02	-4.12989529259E+01	-1.44120493584E+02	-5.88859489188E+00	-1.11012584466E+00
2.56351816869E+06	-1.45300488384E+01	1.79973983675E+02	8.20394046890E+00	1.69415350305E+02	-4.73023765943E+01	1.42980493512E+02	-5.88047895076E+00	-1.29991033821E+00
2.58570952328E+06	-1.63640639189E+01	-1.58310427454E+02	8.24117093105E+00	1.68960585103E+02	-3.19739591587E+01	-1.45274399324E+02	-5.88382717240E+00	-9.77962499156E-01
2.60790087788E+06	-1.26775618040E+01	-1.68297573697E+02	8.21411261699E+00	1.68790824049E+02	-5.20438719857E+01	1.50151916673E+02	-5.87987183393E+00	-1.28324447148E+00
2.63009223247E+06	-1.28932938241E+01	-1.60403406685E+02	8.25131441271E+00	1.68526887965E+02	-5.02249201137E+01	8.91523208787E+01	-5.86937988726E+00	-1.02918779723E+00
2.65228358707E+06	-1.39006564679E+01	-1.62541416978E+02	8.23083290678E+00	1.68607489011E+02	-4.18646486538E+01	-1.66848687755E+02	-5.86885776063E+00	-1.30314115926E+00
2.67447494166E+06	-1.15007124567E+01	-1.52903667869E+02	8.23532774997E+00	1.68342136287E+02	-5.17502139783E+01	-4.12580182075E+01	-5.85802127870E+00	-1.31528864077E+00
2.69666629626E+06	-1.72169276868E+01	1.77562876984E+02	8.23515869917E+00	1.68854507166E+02	-4.78100287211E+01	2.97687540934E+01	-5.88823160099E+00	-1.27457986875E+00
2.71885765085E+06	-1.29666114451E+01	-1.60434000114E+02	8.23509283710E+00	1.68223627969E+02	-5.39244216366E+01	6.89523740230E+01	-5.86529852103E+00	-1.39986380094E+00
2.74104900545E+06	-1.24478529777E+01	-1.61571045462E+02	8.21756502287E+00	1.68126787396E+02	-3.20033758073E+01	-1.77167145064E+02	-5.86750016447E+00	-1.28953012900E+00
2.76324036004E+06	-1.43201149253E+01	-1.48383748039E+02	8.26474068290E+00	1.68216324406E+02	-4.45189617523E+01	-9.83252256145E+01	-5.87476323711E+00	-1.41752880194E+00
2.78543171463E+06	-1.28670743498E+01	1.54702880245E+02	8.19808980967E+00	1.68202162256E+02	-5.02016358765E+01	1.11565522935E+02	-5.90171621498E+00	-1.44239822285E+00
2.80762306923E+06	-1.11030291443E+01	-1.72919499874E+02	8.22295485486E+00	1.67904387559E+02	-5.63456157499E+01	-1.63612326732E+02	-5.87634941988E+00	-1.37012232372E+00
2.82981442382E+06	-1.50389936359E+01	-1.57205153955E+02	8.25187416887E+00	1.67813082895E+02	-5.46194006347E+01	1.14938858459E+02	-5.88940059366E+00	-1.38529718490E+00
2.85200577842E+06	-1.47031680587E+01	-1.66052746072E+02	8.26926427724E+00	1.67863588462E+02	-4.82707862326E+01	-6.93819598516E+01	-5.87849008403E+00	-1.38382684768E+00
2.87419713301E+06	-1.55404844500E+01	-1.51221192216E+02	8.26421425540E+00	1.67479816459E+02	-4.17137296715E+01	-1.01923243068E+01	-5.89919903545E+00	-1.62455943069E+00
