# Hz S DB R 50
! CMT, M5065, 19127446, 24.2.4/2
! Date: 11/8/2024 4:50:26 PM
! Data: Format (Calibration Info)
! Freq	S11:dB/Ang(F2)	S21:dB/Ang(F2)	S12:dB/Ang(F2)	S22:dB/Ang(F2)
3.00000000000E+05	-1.32304971196E+01	-1.76115294226E+02	5.04329005212E+00	-1.77488066449E+02	-4.83402797970E+01	7.98038938174E+01	-5.87884434857E+00	-2.07433489087E-01
3.22191354595E+05	-1.36718172085E+01	-1.59472030397E+02	5.09271947151E+00	-1.77962789887E+02	-4.26730473640E+01	-1.97399696343E+01	-5.88122893301E+00	-2.14662198104E-01
3.44382709190E+05	-1.39830863622E+01	-1.77985108871E+02	5.08494570549E+00	-1.78503518711E+02	-4.70201646264E+01	-1.58209223274E+02	-5.86295694140E+00	-3.59066617452E-01
3.66574063785E+05	-1.48067852643E+01	-1.76844626278E+02	5.09830110196E+00	-1.78429000654E+02	-4.92837798436E+01	1.06917311272E+02	-5.86757056319E+00	-4.44530976141E-01
3.88765418380E+05	-1.34588160391E+01	-1.69573085425E+02	5.05893396433E+00	-1.78640834977E+02	-4.74884785482E+01	-9.77754936517E+01	-5.92965285384E+00	-2.74199727254E-01
4.10956772975E+05	-1.16146612463E+01	-1.79631976900E+02	5.07875033019E+00	-1.78696386593E+02	-4.56196997587E+01	5.15969812154E+01	-5.86471223762E+00	-2.06774223443E-01
4.33148127570E+05	-1.21455159754E+01	1.77725621180E+02	5.04985749839E+00	-1.79214058957E+02	-4.56623088119E+01	4.77375290474E+01	-5.88128959538E+00	-3.49787338983E-01
4.55339482165E+05	-1.75522294314E+01	-1.62309967528E+02	5.15133723165E+00	-1.79394910628E+02	-4.05304369435E+01	-5.38867318666E+01	-5.87509330020E+00	-2.79264740556E-01
4.77530836760E+05	-1.17638590247E+01	1.65883591410E+02	5.03108315761E+00	-1.79112741022E+02	-4.57800233868E+01	-1.64337484453E+02	-5.88176667054E+00	-3.83855434187E-01
4.99722191355E+05	-1.29849905670E+01	-1.71995186169E+02	5.02927337888E+00	-1.79790957597E+02	-4.47131483427E+01	-6.20216756833E+01	-5.86277171403E+00	-4.21071238346E-01
5.21913545950E+05	-1.61618795909E+01	1.58808911053E+02	5.11588322737E+00	-1.79603307798E+02	-4.06288268946E+01	2.25755561879E+01	-5.88492992763E+00	-3.61965190517E-01
5.44104900545E+05	-1.39135103920E+01	-1.77605000868E+02	5.06585318175E+00	-1.79970820595E+02	-4.66321312297E+01	-4.71331029572E+01	-5.89312073798E+00	-2.67741336264E-01
5.66296255139E+05	-1.47957086103E+01	-1.61293047701E+02	5.15673631890E+00	1.79729142198E+02	-4.40410792666E+01	-2.65355373370E+00	-5.87671289287E+00	-3.61530901096E-01
5.88487609734E+05	-1.10750833184E+01	-1.52615282161E+02	5.10196183073E+00	1.79422789320E+02	-4.63759714224E+01	1.97507343543E+01	-5.89106891463E+00	-4.06609598498E-01
6.10678964329E+05	-1.10237581347E+01	1.67078124425E+02	5.09961712540E+00	1.79623643645E+02	-3.71298535902E+01	-1.79932144401E+02	-5.86472939160E+00	1.58630535258E-01
6.32870318924E+05	-1.37149255190E+01	1.68446526301E+02	5.06669925260E+00	1.79488077824E+02	-4.76990630339E+01	-1.65520159010E+02	-5.87376316138E+00	-1.75291212381E-01
6.55061673519E+05	-1.26420502980E+01	-1.68741098316E+02	5.07238172667E+00	1.78969862863E+02	-4.69806868564E+01	1.37910453845E+02	-5.86281936412E+00	-2.85385815174E-01
6.77253028114E+05	-1.93695990982E+01	-1.79716601696E+02	5.07719041366E+00	1.79106015381E+02	-6.92654599845E+01	-1.26329446440E+02	-5.85584621114E+00	-7.50395132176E-01
6.99444382709E+05	-1.27463812983E+01	-1.67048783996E+02	5.09822951179E+00	1.79090853799E+02	-4.39595767923E+01	1.64459944099E+02	-5.84296987886E+00	-3.75494014289E-01
7.21635737304E+05	-1.29717909400E+01	1.72922870005E+02	5.04751634864E+00	1.79141459182E+02	-3.41453287233E+01	-1.20782393159E+02	-5.85663672324E+00	-2.81344853297E-01
7.43827091899E+05	-1.05708559506E+01	1.61553006790E+02	5.06825915062E+00	1.78866732418E+02	-3.99279984030E+01	1.05017407233E+02	-5.87691176611E+00	-3.78805521970E-01
7.66018446494E+05	-1.30490608235E+01	-1.66381657123E+02	5.12064935612E+00	1.78519808426E+02	-4.25087358443E+01	-1.74688489164E+02	-5.84959347846E+00	-3.78233764419E-01
7.88209801089E+05	-1.52486617074E+01	1.76614701133E+02	5.07545059931E+00	1.78396806914E+02	-4.58290861684E+01	-4.35667809750E+01	-5.86803270159E+00	-4.04293757107E-01
8.10401155684E+05	-1.70233432406E+01	-1.73709698544E+02	5.11399004875E+00	1.78103398307E+02	-5.53794348462E+01	1.19328177225E+02	-5.87409411599E+00	-3.00979883968E-01
8.32592510279E+05	-1.49753172296E+01	-1.45584363591E+02	5.08653704132E+00	1.77850126810E+02	-4.29348603995E+01	-3.29093315982E+01	-5.86361048008E+00	-4.77386718301E-01
8.54783864874E+05	-1.32509419012E+01	-1.66987374851E+02	5.04103660626E+00	1.78097901641E+02	-4.89716561756E+01	9.53518204190E+01	-5.86998251942E+00	-4.20232987151E-01
8.76975219469E+05	-1.46310104730E+01	1.65173035252E+02	5.09857657204E+00	1.77697821937E+02	-5.09990506164E+01	-1.06609835659E+02	-5.88776065974E+00	-5.04258830723E-01
8.99166574064E+05	-1.69409580285E+01	-1.44605884635E+02	5.10984519285E+00	1.77846122315E+02	-5.05269756599E+01	-1.45937676230E+02	-5.89657644394E+00	-3.59202960849E-01
9.21357928659E+05	-1.33757101738E+01	1.79966243607E+02	5.08115084986E+00	1.77667060421E+02	-4.65526944359E+01	5.65342024113E+01	-5.87624408030E+00	-3.50983263367E-01
9.43549283254E+05	-1.50166213011E+01	-1.77470652376E+02	5.07735853071E+00	1.77512190734E+02	-4.33027285959E+01	3.41679696691E+01	-5.86442131678E+00	-6.40515848243E-01
9.65740637849E+05	-1.29469852543E+01	1.69595389665E+02	5.06799430272E+00	1.77664118522E+02	-5.65456794193E+01	1.37680295581E+02	-5.86978377208E+00	-6.60385416251E-01
9.87931992444E+05	-1.28791796485E+01	-1.70485448223E+02	5.04564169615E+00	1.77223768155E+02	-4.20752275331E+01	6.57531876417E+01	-5.88067390575E+00	-4.91926917670E-01
1.01012334704E+06	-1.47219266162E+01	-1.53856128466E+02	5.12421642718E+00	1.77246452586E+02	-4.99530106101E+01	-1.55509682505E+02	-5.85951870528E+00	-6.31775726235E-01
1.03231470163E+06	-1.41041738439E+01	-1.62929486152E+02	5.05232047545E+00	1.77060641549E+02	-5.08825448991E+01	8.35368874013E+01	-5.86091989131E+00	-6.05010241449E-01
1.05450605623E+06	-1.53478558805E+01	-1.70569046230E+02	5.08631435151E+00	1.77113662874E+02	-3.66855495051E+01	1.44507201651E+02	-5.83587896305E+00	-7.40380131406E-01
1.07669741082E+06	-1.33993772504E+01	-1.49501374580E+02	5.23463891457E+00	1.76883682025E+02	-4.03139849325E+01	7.29507242142E+01	-5.88727914506E+00	-6.68134740992E-01
1.09888876542E+06	-1.39718836069E+01	-1.61997791544E+02	5.13124333637E+00	1.76537420366E+02	-4.06743063173E+01	1.15999172738E+02	-5.88988890084E+00	-6.83093167475E-01
1.12108012001E+06	-1.21284901221E+01	-1.74158327500E+02	5.12666357787E+00	1.76654981634E+02	-4.13704978082E+01	-7.14621693613E+01	-5.89293286126E+00	-6.26826356772E-01
1.14327147461E+06	-1.47212515822E+01	-1.77140941634E+02	5.09601028437E+00	1.77065068236E+02	-4.68640935082E+01	2.78737540253E+01	-5.89178128680E+00	-6.39754864332E-01
1.16546282920E+06	-1.39320475662E+01	-1.73911673819E+02	5.10088851932E+00	1.76484842124E+02	-4.27527949751E+01	-1.37948421588E+02	-5.86667333828E+00	-5.30930282330E-01
1.18765418380E+06	-1.55298140433E+01	-1.73007319129E+02	5.14208955619E+00	1.76560938697E+02	-4.61751783891E+01	1.18078118427E+02	-5.85111968001E+00	-5.78726161318E-01
1.20984553839E+06	-1.52926782040E+01	-1.48170389725E+02	5.12040601691E+00	1.76263768345E+02	-3.73518872632E+01	-5.21469047998E+00	-5.87909741400E+00	-8.73760291800E-01
1.23203689299E+06	-1.40942211137E+01	-1.58352636008E+02	5.10846153444E+00	1.76192659988E+02	-4.71071609911E+01	5.21807371649E+01	-5.88032601941E+00	-5.13606109762E-01
1.25422824758E+06	-1.34106892660E+01	1.72205791974E+02	5.11819259631E+00	1.75876820014E+02	-4.68892692616E+01	1.63094225623E+02	-5.87229550636E+00	-6.09325814364E-01
1.27641960218E+06	-1.44004120011E+01	1.78733229748E+02	5.05820808363E+00	1.76046386240E+02	-4.86891033687E+01	-3.29740588168E+01	-5.88031927353E+00	-5.99247803121E-01
1.29861095677E+06	-1.26451742158E+01	-1.68936954235E+02	5.13071234624E+00	1.75729093449E+02	-6.51861116316E+01	8.83482808684E+01	-5.87088782503E+00	-8.11309532187E-01
1.32080231137E+06	-1.28758779425E+01	-1.79728080357E+02	5.09693745610E+00	1.75445491327E+02	-4.26792296652E+01	1.08388031029E+02	-5.85041378205E+00	-1.16457024599E+00
1.34299366596E+06	-1.76770956561E+01	-1.54089366468E+02	5.14137974733E+00	1.75679959035E+02	-3.84075882559E+01	-1.20674632798E+02	-5.88156184197E+00	-7.65347986870E-01
1.36518502056E+06	-1.74648372293E+01	-1.69706433738E+02	5.09264768942E+00	1.75624375765E+02	-5.00943443356E+01	4.51564155709E+01	-5.83371910018E+00	-8.06094603842E-01
1.38737637515E+06	-1.45477046023E+01	-1.33479553775E+02	5.17942117445E+00	1.75245196629E+02	-5.58282920340E+01	1.70600716060E+01	-5.86778683794E+00	-7.95088597688E-01
1.40956772975E+06	-1.55314343319E+01	-1.67181665186E+02	5.13717141876E+00	1.75198871812E+02	-4.69367014843E+01	7.62907467894E+01	-5.87273424816E+00	-7.47592160056E-01
1.43175908434E+06	-1.27454389830E+01	-1.72178248403E+02	5.08742882408E+00	1.75388692936E+02	-5.10147614211E+01	2.58498180994E+01	-5.88704966695E+00	-7.46175976689E-01
1.45395043894E+06	-1.38343577483E+01	-1.71441207956E+02	5.10068771469E+00	1.75340307758E+02	-4.90892396749E+01	-1.66379683757E+02	-5.86077002310E+00	-6.88097207091E-01
1.47614179353E+06	-1.28413714934E+01	-1.53450914935E+02	5.09857480664E+00	1.74932550824E+02	-4.77950622808E+01	1.23448957466E+02	-5.87680668509E+00	-8.10360065406E-01
1.49833314813E+06	-1.41997955699E+01	-1.49435499576E+02	5.11160830208E+00	1.75019644210E+02	-4.55781290127E+01	1.71044929229E+01	-5.88273927824E+00	-6.98679024678E-01
1.52052450272E+06	-1.78575153200E+01	-1.39396207572E+02	5.16612581571E+00	1.74758014743E+02	-4.17612615837E+01	1.80824101352E+01	-5.87698136504E+00	-8.16290807337E-01
1.54271585732E+06	-1.06844674776E+01	-1.50601717194E+02	5.15479369693E+00	1.74449618927E+02	-4.45672036886E+01	-1.10123547624E+02	-5.86713037810E+00	-8.42726380306E-01
1.56490721191E+06	-1.40052172657E+01	1.78828418916E+02	5.11774093589E+00	1.74844147911E+02	-4.22852773239E+01	7.52055231630E+01	-5.86883824978E+00	-8.62814246562E-01
1.58709856651E+06	-1.52398560840E+01	1.78562223176E+02	5.07552250392E+00	1.74791873780E+02	-4.62638945127E+01	-1.43687365064E+02	-5.88486354770E+00	-8.86750062980E-01
1.60928992110E+06	-1.32159350685E+01	-1.71090299620E+02	5.12893005839E+00	1.74642341236E+02	-4.32407925216E+01	3.64449053532E+00	-5.88945644678E+00	-7.53489801120E-01
1.63148127570E+06	-1.35843424503E+01	-1.65944263678E+02	5.10635992838E+00	1.74076862183E+02	-3.90431420149E+01	-3.11618198903E+01	-5.85803358454E+00	-7.04041213649E-01
1.65367263029E+06	-1.31811882596E+01	1.72518217845E+02	5.09448664957E+00	1.74630480546E+02	-4.15603269246E+01	-1.74617045173E+02	-5.85873705407E+00	-7.34944537303E-01
1.67586398489E+06	-1.47782599702E+01	-1.27533873335E+02	5.16194745894E+00	1.74330032748E+02	-4.22524676829E+01	1.41433920342E+02	-5.86160301004E+00	-7.69488407885E-01
1.69805533948E+06	-1.64694975095E+01	-1.33146583013E+02	5.11929707259E+00	1.74079188729E+02	-3.89287648022E+01	-1.28769051529E+02	-5.85248354526E+00	-6.78074257800E-01
1.72024669408E+06	-1.72936864735E+01	-1.57782837092E+02	5.15518675058E+00	1.74334730078E+02	-4.59730152623E+01	-9.11197981032E+01	-5.86195996629E+00	-8.07979989918E-01
1.74243804867E+06	-1.36940569365E+01	1.70581547272E+02	5.10344682911E+00	1.74339490526E+02	-4.70976441192E+01	1.34104432763E+02	-5.83592002277E+00	-8.72396022313E-01
1.76462940327E+06	-1.44082421930E+01	-1.74969880698E+02	5.15711167283E+00	1.74080185045E+02	-4.42052117520E+01	1.48789968916E+02	-5.85838689081E+00	-9.43270794439E-01
1.78682075786E+06	-1.64684865709E+01	1.76061046811E+02	5.11696670756E+00	1.74098482253E+02	-4.81383302755E+01	-1.52184435695E+02	-5.87009975668E+00	-8.33569072130E-01
1.80901211246E+06	-1.16716399108E+01	-1.61523730766E+02	5.13923831143E+00	1.73470205064E+02	-4.93529142414E+01	-1.70018823066E+02	-5.85478867320E+00	-9.46888036582E-01
1.83120346705E+06	-1.11174140989E+01	-1.53383286418E+02	5.11972001014E+00	1.73389158644E+02	-3.86951870290E+01	-1.32344435677E+02	-5.86284191439E+00	-7.54120740814E-01
1.85339482165E+06	-7.49030263238E+00	-1.51339828761E+02	5.10957765056E+00	1.73035448494E+02	-4.69318881197E+01	-1.06994270692E+02	-5.87718609943E+00	-9.27980388577E-01
1.87558617624E+06	-1.41300657618E+01	-1.64556439404E+02	5.12994569416E+00	1.73292685222E+02	-5.42340690399E+01	6.53222537911E+01	-5.86560446183E+00	-8.72462498217E-01
1.89777753084E+06	-1.45246793376E+01	-1.51823961009E+02	5.12048505829E+00	1.73376295225E+02	-4.79314815702E+01	-7.70454269386E+01	-5.88065265931E+00	-9.08235318822E-01
1.91996888543E+06	-1.58823887184E+01	-1.67767823479E+02	5.15713559690E+00	1.73347358671E+02	-4.02635250252E+01	8.47150511359E+00	-5.87797878355E+00	-1.06341688329E+00
1.94216024003E+06	-1.33748260690E+01	-1.64249688153E+02	5.11698524697E+00	1.72896984978E+02	-4.94988784575E+01	-1.66374080843E+02	-5.88657830409E+00	-1.12304677725E+00
1.96435159462E+06	-1.35651423661E+01	-1.49209506984E+02	5.11837869653E+00	1.72986095343E+02	-3.78617634328E+01	1.70222959956E+01	-5.87402349889E+00	-1.00436980982E+00
1.98654294922E+06	-1.88640535079E+01	-1.60225227537E+02	5.09403961478E+00	1.73574010843E+02	-4.00300548436E+01	-1.53039444790E+02	-5.86369977966E+00	-9.10219825502E-01
2.00873430381E+06	-1.56377225859E+01	-8.79745228473E+01	5.18029075521E+00	1.73390570187E+02	-4.82625156297E+01	-1.18160126467E+02	-5.87292653784E+00	-1.05631036787E+00
2.03092565841E+06	-1.76182495080E+01	-1.62392649757E+02	5.13282076500E+00	1.72681914715E+02	-4.08670432669E+01	-4.40464097102E+01	-5.88394124220E+00	-1.00526480336E+00
2.05311701300E+06	-1.42550360780E+01	-1.70952122327E+02	5.11142010004E+00	1.72672882411E+02	-4.98588277875E+01	-1.46150908493E+02	-5.86461933162E+00	-1.02855924524E+00
2.07530836760E+06	-1.24255223543E+01	-1.38959370067E+02	5.17324770236E+00	1.72582378862E+02	-4.94227210261E+01	-5.73839851967E+01	-5.87254089314E+00	-1.13171810513E+00
2.09749972219E+06	-1.05743597699E+01	-1.58853057614E+02	5.06537859823E+00	1.72177295976E+02	-4.84707978991E+01	1.41272383492E+01	-5.89413431023E+00	-9.71831573662E-01
2.11969107679E+06	-1.67157038328E+01	-1.40124527976E+02	5.16991674234E+00	1.72553598359E+02	-4.07227883593E+01	-9.55609369099E+01	-5.86992511417E+00	-1.02388657260E+00
2.14188243138E+06	-1.19946721883E+01	-1.45404179394E+02	5.12665874710E+00	1.72251359131E+02	-3.16247453742E+01	7.31107692759E+01	-5.84047381609E+00	-1.18979807467E+00
2.16407378598E+06	-1.07671763341E+01	-1.62267371962E+02	5.08731225699E+00	1.72229359046E+02	-5.78193905998E+01	-1.43176975679E+02	-5.87294399306E+00	-1.13362945594E+00
2.18626514057E+06	-1.37022285466E+01	-1.53219359916E+02	5.17188446089E+00	1.71737686026E+02	-4.22847297984E+01	7.46744708936E+01	-5.89266294690E+00	-1.16503166753E+00
2.20845649517E+06	-1.30947484265E+01	-1.51336701785E+02	5.15042759807E+00	1.71984400920E+02	-4.04170335975E+01	1.08863732506E+02	-5.85221723912E+00	-1.19947775668E+00
2.23064784976E+06	-1.32659437285E+01	-1.62995411346E+02	5.09565447867E+00	1.72180007523E+02	-3.98011647200E+01	-1.50828612792E+02	-5.88013489459E+00	-1.04531988447E+00
2.25283920436E+06	-1.43462047634E+01	-1.68857872385E+02	5.13297813123E+00	1.72092122165E+02	-4.55347586949E+01	1.61279769699E+02	-5.86908818849E+00	-1.07095175961E+00
2.27503055895E+06	-1.74409971057E+01	-1.69834740609E+02	5.19258302454E+00	1.71920635236E+02	-3.60703686305E+01	1.13571717155E+02	-5.85486212417E+00	-1.28849775022E+00
2.29722191355E+06	-1.52428334847E+01	-1.76334210551E+02	5.15822534573E+00	1.71780468442E+02	-3.31645910984E+01	-1.52961580204E+02	-5.84885403527E+00	-9.32403565137E-01
2.31941326814E+06	-1.36758481595E+01	-6.29248762544E+01	5.19926750830E+00	1.72111080854E+02	-3.95301987026E+01	-1.85388210804E+00	-5.88100309767E+00	-1.47815679314E+00
2.34160462274E+06	-1.45790790938E+01	-1.66519303023E+02	5.14285633722E+00	1.71546595969E+02	-5.69818361317E+01	8.35451395411E+01	-5.85617730831E+00	-1.11372924261E+00
2.36379597733E+06	-1.67682501340E+01	-1.64341851614E+02	5.17467977747E+00	1.71533278514E+02	-4.33581584818E+01	7.28945220178E+01	-5.87427345100E+00	-1.23162239176E+00
2.38598733193E+06	-1.34483368004E+01	1.79401993024E+02	5.13228705180E+00	1.71203715355E+02	-4.75658503006E+01	2.89815938621E+01	-5.87532516920E+00	-1.18025622087E+00
2.40817868652E+06	-1.26352265400E+01	1.75812843430E+02	5.12397985264E+00	1.71702119202E+02	-4.84872299176E+01	7.11116069959E+00	-5.90699287783E+00	-1.40999744127E+00
2.43037004112E+06	-1.44658398412E+01	-1.58148371527E+02	5.13799364691E+00	1.71152927806E+02	-3.58723391209E+01	-1.53116286011E+02	-5.86607894386E+00	-1.51115876100E+00
2.45256139571E+06	-9.90205901042E+00	-1.64633237511E+02	5.08515402904E+00	1.70880704653E+02	-4.35129443187E+01	-5.47438990866E+01	-5.86839244473E+00	-1.18007143940E+00
2.47475275031E+06	-1.22556277790E+01	-1.71606441827E+02	5.11621962427E+00	1.71006557286E+02	-4.92423516602E+01	-7.24584641402E+01	-5.87379098708E+00	-1.25472698365E+00
2.49694410490E+06	-1.54742377834E+01	-1.55706795268E+02	5.12025350733E+00	1.71108822776E+02	-5.48344347509E+01	-3.27215112120E+01	-5.86117455422E+00	-1.22944750166E+00
2.51913545950E+06	-1.47383699845E+01	-1.66254395938E+02	5.13709961509E+00	1.70866749776E+02	-4.53735186143E+01	1.22822147834E+01	-5.89064955360E+00	-1.32770700174E+00
2.54132681409E+06	-1.29387825855E+01	-1.72814064967E+02	5.09815891991E+00	1.70824766275E+02	-4.77668859513E+01	-1.12419525151E+02	-5.87497280360E+00	-1.16637024573E+00
2.56351816869E+06	-1.27511657075E+01	-1.47420701255E+02	5.09993533440E+00	1.70366978992E+02	-4.24247154403E+01	-9.56622377176E+01	-5.87274836934E+00	-1.28906300732E+00
2.58570952328E+06	-1.48590910758E+01	-1.78786783907E+02	5.15879578705E+00	1.70696724666E+02	-5.99971614793E+01	6.20368945654E+01	-5.85385026944E+00	-1.41450646912E+00
2.60790087788E+06	-1.07155099545E+01	-1.74206094822E+02	5.06122995904E+00	1.70329946938E+02	-4.02176725693E+01	-6.87483019979E+01	-5.89627810124E+00	-1.12594261158E+00
2.63009223247E+06	-1.38909326400E+01	-1.51029246156E+02	5.13441286229E+00	1.70503312205E+02	-4.11597896570E+01	2.12793405369E+01	-5.88736391059E+00	-1.13114333330E+00
2.65228358707E+06	-1.53141506533E+01	-1.70174853354E+02	5.13914028264E+00	1.70285134525E+02	-4.26728886671E+01	1.38590377702E+00	-5.89418837398E+00	-1.22545866185E+00
2.67447494166E+06	-1.43112167393E+01	-1.66713445849E+02	5.17271556191E+00	1.70357344011E+02	-4.82103228517E+01	7.96256587836E+01	-5.87139215962E+00	-1.39956812099E+00
2.69666629626E+06	-1.34966167440E+01	-1.67594515714E+02	5.15866255993E+00	1.69913841077E+02	-4.40517772635E+01	-1.51689346935E+02	-5.86612578746E+00	-1.22104247599E+00
2.71885765085E+06	-1.64913215653E+01	-1.65915678130E+02	5.15492464321E+00	1.70210413260E+02	-4.30181357804E+01	6.25718685653E+01	-5.87201498559E+00	-1.47991883017E+00
2.74104900545E+06	-1.31129438821E+01	-1.68197060870E+02	5.09842975585E+00	1.70088190245E+02	-4.81041261681E+01	1.19533688832E+02	-5.87067539462E+00	-1.28652526453E+00
2.76324036004E+06	-1.23468416348E+01	-1.60423407990E+02	5.17120387801E+00	1.69754300367E+02	-4.89227476433E+01	1.66680241638E+02	-5.87540064730E+00	-1.41686247301E+00
2.78543171463E+06	-1.06387908707E+01	-1.69490915491E+02	5.10868785813E+00	1.69624467481E+02	-5.69474821540E+01	3.60414677206E+01	-5.89887159506E+00	-1.25668724103E+00
2.80762306923E+06	-1.41865752816E+01	-1.61714099564E+02	5.19606267203E+00	1.69785976738E+02	-4.83377352792E+01	-7.62694480223E+01	-5.85931858186E+00	-1.28780445314E+00
2.82981442382E+06	-1.67738831241E+01	-1.55456388370E+02	5.18411171881E+00	1.69683035498E+02	-5.88736594871E+01	-1.63778798743E+02	-5.86195279978E+00	-1.33901890294E+00
2.85200577842E+06	-1.43504401147E+01	-1.73880052840E+02	5.16815393328E+00	1.69533572394E+02	-4.32140254758E+01	-8.63859140301E+01	-5.88538607148E+00	-1.31148151399E+00
2.87419713301E+06	-1.13344584256E+01	-1.56995448617E+02	5.14939865149E+00	1.69341048792E+02	-5.25582376509E+01	1.55459975208E+02	-5.85568013300E+00	-1.61365144638E+00
