# Hz S DB R 50
! CMT, M5065, 19127446, 24.2.4/2
! Date: 11/8/2024 5:09:22 PM
! Data: Format (Calibration Info)
! Freq	S11:dB/Ang(F2)	S21:dB/Ang(F2)	S12:dB/Ang(F2)	S22:dB/Ang(F2)
3.00000000000E+05	-1.94024695290E+01	-1.48030825760E+02	9.24109861290E+00	-1.77531859039E+02	-4.48762924642E+01	-1.69752137119E+02	-5.83975714659E+00	-4.68906890919E-01
3.22191354595E+05	-1.59974445121E+01	-1.38717118658E+02	9.22801690051E+00	-1.77880344614E+02	-4.02994103350E+01	1.70471729440E+01	-5.88515186007E+00	-1.92445650171E-01
3.44382709190E+05	-1.42198947622E+01	1.71837588416E+02	9.20928285496E+00	-1.78011783042E+02	-4.65621189334E+01	6.09947731583E+00	-5.89637409776E+00	-4.85707542768E-01
3.66574063785E+05	-1.36589153055E+01	1.62086339512E+02	9.19775980617E+00	-1.78285785426E+02	-5.09761512335E+01	-7.75934366341E+01	-5.88695461873E+00	-2.14655347745E-01
3.88765418380E+05	-1.76657158200E+01	-1.69494489091E+02	9.26065296280E+00	-1.78341291124E+02	-4.48495749965E+01	1.18861492851E+02	-5.84374243100E+00	-2.87646417643E-01
4.10956772975E+05	-1.29449213373E+01	-1.74965851242E+02	9.24212880803E+00	-1.79053722326E+02	-4.03399945077E+01	1.17279594091E+02	-5.83724407880E+00	-3.30105942846E-01
4.33148127570E+05	-1.56248217258E+01	1.77408434613E+02	9.27246236251E+00	-1.79341806163E+02	-4.36423620486E+01	8.15440137243E+01	-5.86278537864E+00	-2.65989044938E-01
4.55339482165E+05	-1.54978112532E+01	1.77183292256E+02	9.27250468136E+00	-1.79406423491E+02	-6.34610708652E+01	1.46085066192E+01	-5.88083631852E+00	-3.86608677502E-01
4.77530836760E+05	-1.41178148165E+01	1.67602630101E+02	9.21779778369E+00	-1.79677123646E+02	-3.71749287640E+01	-1.16280771582E+02	-5.84975694082E+00	-2.48475360488E-01
4.99722191355E+05	-1.15681395454E+01	-1.75528675537E+02	9.22983899832E+00	1.79780859969E+02	-4.37627280467E+01	-7.48035214358E+01	-5.85148078342E+00	-2.24501206337E-01
5.21913545950E+05	-1.83738755913E+01	-1.63355705144E+02	9.26995716525E+00	1.79571818452E+02	-3.87667008537E+01	5.51887307659E+01	-5.87990770295E+00	-4.83562298227E-01
5.44104900545E+05	-1.47825982434E+01	-1.72476465105E+02	9.25733126368E+00	1.79617634432E+02	-4.32419497359E+01	1.14182757106E+02	-5.87247661009E+00	-4.35316845136E-01
5.66296255139E+05	-1.68054380361E+01	-1.49828089536E+02	9.28671227376E+00	1.79070582836E+02	-4.05312593521E+01	-2.22192399966E+01	-5.88586731296E+00	-4.18188460522E-01
5.88487609734E+05	-1.13474593609E+01	-1.70503281751E+02	9.24967394569E+00	1.79285478084E+02	-4.43508289308E+01	-6.73714526599E+01	-5.88124711493E+00	-2.35224416561E-01
6.10678964329E+05	-1.33830301481E+01	-1.73691246323E+02	9.21873906047E+00	1.79091580488E+02	-4.39064785566E+01	5.79417651264E+01	-5.88509786624E+00	-5.43285317946E-03
6.32870318924E+05	-1.28206057004E+01	-1.58375189388E+02	9.20288137866E+00	1.78511158672E+02	-4.03567012792E+01	1.22917748487E+02	-5.85746503691E+00	-3.19323698518E-01
6.55061673519E+05	-1.15717733701E+01	1.78061075774E+02	9.21600831998E+00	1.78634186144E+02	-4.50893741299E+01	1.65784949819E+02	-5.86697863559E+00	-3.89277076248E-01
6.77253028114E+05	-1.40882993736E+01	-1.54424472228E+02	9.28944838462E+00	1.78370466461E+02	-4.45021278833E+01	1.53991016676E+02	-5.86001740022E+00	-7.25067531768E-01
6.99444382709E+05	-1.45824815638E+01	1.77685262570E+02	9.26069610221E+00	1.78321530119E+02	-4.68241548811E+01	-3.01583838952E+01	-5.87310819938E+00	-3.19161406754E-01
7.21635737304E+05	-1.16248413691E+01	1.78298679348E+02	9.23739274447E+00	1.78097405816E+02	-3.76105628439E+01	-4.89172692245E+01	-5.88529106179E+00	-4.17268183447E-01
7.43827091899E+05	-1.35567480012E+01	-1.51731177742E+02	9.24523607770E+00	1.77823569822E+02	-5.42502316877E+01	-1.56185591953E+01	-5.87763590420E+00	-2.88368841861E-01
7.66018446494E+05	-1.90912243140E+01	-1.38400733264E+02	9.25941023507E+00	1.77997011524E+02	-4.50393544220E+01	1.36657635478E+02	-5.85761087079E+00	-6.19053595635E-01
7.88209801089E+05	-1.67974160840E+01	-1.72348715048E+02	9.30735187885E+00	1.77716228420E+02	-4.46325942567E+01	4.31161271496E+01	-5.90602219592E+00	-5.33627240920E-01
8.10401155684E+05	-1.45278807346E+01	-1.59083408476E+02	9.26926456938E+00	1.77360951177E+02	-4.76560968453E+01	5.48535405792E+01	-5.87244476749E+00	-5.06697110067E-01
8.32592510279E+05	-1.48588798276E+01	-1.76147964316E+02	9.23170108494E+00	1.77575436115E+02	-4.01470931997E+01	-5.65733718696E+01	-5.88982195632E+00	-4.62761225117E-01
8.54783864874E+05	-1.34639970695E+01	-1.77593907852E+02	9.25447016304E+00	1.77247221713E+02	-4.25032688593E+01	-1.61497253492E+02	-5.86227520329E+00	-4.72941806192E-01
8.76975219469E+05	-1.25979435850E+01	-1.68053361466E+02	9.27187816205E+00	1.77051977779E+02	-4.28721974361E+01	-5.58674576512E+01	-5.90774043225E+00	-3.76679380558E-01
8.99166574064E+05	-1.57979184431E+01	-1.72070146365E+02	9.25328185877E+00	1.76936563297E+02	-3.56791198392E+01	1.22681750972E+02	-5.86926455407E+00	-6.89877142126E-01
9.21357928659E+05	-1.21339018775E+01	-1.74999562389E+02	9.23114266042E+00	1.76904729788E+02	-4.42303328813E+01	3.40617604034E+01	-5.89268292439E+00	-6.22257595240E-01
9.43549283254E+05	-1.33156959843E+01	1.78742320970E+02	9.24654172954E+00	1.76668744222E+02	-4.64771482350E+01	-7.62928393275E+01	-5.86450012719E+00	-4.22396263636E-01
9.65740637849E+05	-1.58542780264E+01	-1.60073327726E+02	9.29316393726E+00	1.76529472656E+02	-4.52660619168E+01	3.62656821170E+01	-5.89230298672E+00	-5.81828329275E-01
9.87931992444E+05	-1.60955562252E+01	1.65238239317E+02	9.22026605771E+00	1.76715976836E+02	-4.27442958009E+01	-9.22729325675E+01	-5.87426455578E+00	-3.62546837082E-01
1.01012334704E+06	-2.04663532219E+01	-1.48274561918E+02	9.28162121170E+00	1.76245515200E+02	-4.90592333893E+01	1.61431664293E+02	-5.84743978736E+00	-5.92290628611E-01
1.03231470163E+06	-1.28334477282E+01	-1.78132570353E+02	9.24229836351E+00	1.76129964550E+02	-4.44935814311E+01	1.19784110298E+02	-5.84985273783E+00	-5.47789175006E-01
1.05450605623E+06	-1.27144650447E+01	-1.58039785361E+02	9.22892266508E+00	1.75825272213E+02	-4.63978270141E+01	-3.85325335459E+01	-5.88235180063E+00	-5.77738721221E-01
1.07669741082E+06	-1.16291162918E+01	-1.71070066221E+02	9.16330303796E+00	1.75897100063E+02	-5.14611256584E+01	4.10772463258E+01	-5.86381092620E+00	-7.34093052939E-01
1.09888876542E+06	-1.42363104819E+01	-1.70234774529E+02	9.26345527716E+00	1.75805728765E+02	-5.19810253187E+01	-5.63081405807E+01	-5.88350024604E+00	-6.45841925736E-01
1.12108012001E+06	-1.70341088053E+01	-1.52413010324E+02	9.25450568789E+00	1.75724551039E+02	-4.96074182978E+01	-3.33641766836E+01	-5.87791978397E+00	-5.76505911961E-01
1.14327147461E+06	-1.86429913484E+01	1.73677547254E+02	9.28039292473E+00	1.75594942498E+02	-4.47737154611E+01	5.98371881647E+01	-5.84597035808E+00	-7.10538538105E-01
1.16546282920E+06	-1.31503996739E+01	-1.51368196292E+02	9.27260550533E+00	1.75315265915E+02	-4.74442763137E+01	1.31966024275E+02	-5.87051678315E+00	-7.99016669611E-01
1.18765418380E+06	-1.44131031922E+01	-1.71375316490E+02	9.28889456460E+00	1.75259531376E+02	-4.26194196213E+01	-1.78392085568E+02	-5.84522540277E+00	-5.64415641832E-01
1.20984553839E+06	-1.47472108091E+01	-1.58537438101E+02	9.26512543576E+00	1.75101814912E+02	-5.78631832602E+01	-8.58583382786E+01	-5.88216273867E+00	-7.10544542500E-01
1.23203689299E+06	-1.10642648214E+01	1.59683533187E+02	9.25660627505E+00	1.74971226503E+02	-4.28590547140E+01	-2.08547117332E+01	-5.89100610766E+00	-3.05270568808E-01
1.25422824758E+06	-1.48579837445E+01	-1.62418620075E+02	9.27289087486E+00	1.74832574289E+02	-4.09545621428E+01	-1.68408963652E+01	-5.90044700453E+00	-7.19586180536E-01
1.27641960218E+06	-1.32263009136E+01	-1.59332671133E+02	9.26833245524E+00	1.74771476266E+02	-4.68483996667E+01	-2.88437194723E+01	-5.87679727842E+00	-6.96437702774E-01
1.29861095677E+06	-1.34328168631E+01	1.73767575814E+02	9.24322879144E+00	1.74766726241E+02	-4.29902648454E+01	-5.25349710886E+01	-5.88140719074E+00	-7.69266041784E-01
1.32080231137E+06	-1.13710404593E+01	-1.55329180462E+02	9.24234899934E+00	1.74439137224E+02	-4.23627071472E+01	2.94837051307E+01	-5.88065911850E+00	-1.13394489973E+00
1.34299366596E+06	-1.41059088230E+01	-1.53375910794E+02	9.27301872316E+00	1.74286925083E+02	-4.04990921075E+01	-1.37038512546E+02	-5.85475188007E+00	-7.49177101211E-01
1.36518502056E+06	-1.50986882733E+01	-1.33796788661E+02	9.30281503241E+00	1.74257491397E+02	-4.82540200494E+01	5.86286685254E+01	-5.89058914969E+00	-6.77862391018E-01
1.38737637515E+06	-1.40181832063E+01	-1.74219574646E+02	9.28380761786E+00	1.74470060835E+02	-5.34005210194E+01	6.56404817174E+01	-5.86033191615E+00	-7.87041539240E-01
1.40956772975E+06	-1.74258729909E+01	-1.76821541208E+02	9.30314123273E+00	1.74330244982E+02	-4.35886728787E+01	-1.47994718610E+02	-5.84479874446E+00	-5.40705310003E-01
1.43175908434E+06	-1.60742071749E+01	-1.75935363752E+02	9.23050535907E+00	1.74147312851E+02	-5.23782570977E+01	7.61553227352E+01	-5.86111348282E+00	-7.56471277150E-01
1.45395043894E+06	-1.83656451663E+01	1.59787332609E+02	9.26270495409E+00	1.74167238565E+02	-4.26212109671E+01	1.38181551434E+02	-5.84610118786E+00	-8.30345470736E-01
1.47614179353E+06	-1.56022885436E+01	1.68600778125E+02	9.26309501069E+00	1.73965386845E+02	-4.77873940598E+01	2.64364699251E+01	-5.89532970730E+00	-8.91304138489E-01
1.49833314813E+06	-1.28992808586E+01	-1.72193847899E+02	9.28153280086E+00	1.73337426949E+02	-4.48172323670E+01	1.15230567839E+02	-5.84146552717E+00	-8.36111023912E-01
1.52052450272E+06	-1.29496506269E+01	-1.66748613822E+02	9.25562929284E+00	1.73540330531E+02	-4.13057379236E+01	-1.75262071696E+02	-5.86844913428E+00	-7.11962834529E-01
1.54271585732E+06	-1.12117479352E+01	-1.48169352171E+02	9.31820709917E+00	1.73232902446E+02	-4.65472075043E+01	-1.08848103692E+02	-5.86708343077E+00	-7.96103677392E-01
1.56490721191E+06	-1.85413439582E+01	-1.68702071970E+02	9.29551724907E+00	1.73401756120E+02	-4.80631766623E+01	-1.68649562410E+02	-5.85903615631E+00	-8.18388270678E-01
1.58709856651E+06	-1.13740334084E+01	-1.58016431904E+02	9.23632923565E+00	1.72783823073E+02	-6.22607841426E+01	1.00414074479E+02	-5.85144394296E+00	-8.38515304118E-01
1.60928992110E+06	-1.27821746312E+01	-1.68295751026E+02	9.28854801764E+00	1.73177581331E+02	-5.25308502634E+01	-4.65330751457E+01	-5.87636403096E+00	-8.82202013333E-01
1.63148127570E+06	-1.49196669693E+01	-1.67581679418E+02	9.26511405307E+00	1.73009116179E+02	-4.07845592369E+01	-1.40806714981E+00	-5.88964005576E+00	-8.49396942201E-01
1.65367263029E+06	-1.20298064232E+01	-1.75549595122E+02	9.23942641909E+00	1.73013368495E+02	-4.86870690348E+01	-1.01983489245E+02	-5.88023998704E+00	-8.68272397171E-01
1.67586398489E+06	-1.22383941245E+01	1.77621521378E+02	9.24842493646E+00	1.72728271605E+02	-3.52657751183E+01	3.45389793083E+01	-5.87384318866E+00	-1.02288938985E+00
1.69805533948E+06	-1.57213416734E+01	1.79124174563E+02	9.28459886329E+00	1.72603498926E+02	-4.02806283056E+01	-1.04748342439E+02	-5.87970954890E+00	-8.08803835954E-01
1.72024669408E+06	-1.21032139411E+01	-1.61066890707E+02	9.25849171954E+00	1.72301456744E+02	-4.02434738173E+01	1.83874395337E+01	-5.87957792685E+00	-1.09585745105E+00
1.74243804867E+06	-1.61340284571E+01	-1.67994481513E+02	9.28149497251E+00	1.72394411524E+02	-4.97138950599E+01	-1.32794867966E+01	-5.88601938140E+00	-8.84823458452E-01
1.76462940327E+06	-1.37567550707E+01	-1.58848072070E+02	9.28628074426E+00	1.72341381646E+02	-5.80372354980E+01	9.83869811403E+01	-5.87300192991E+00	-9.98495274520E-01
1.78682075786E+06	-1.40086628842E+01	-1.44532199956E+02	9.27100657099E+00	1.72064455612E+02	-4.74807661756E+01	6.08134606295E+00	-5.90299584588E+00	-1.09447773583E+00
1.80901211246E+06	-1.62787826156E+01	-1.39248863157E+02	9.29943598970E+00	1.72082731915E+02	-4.99414710847E+01	6.11035076652E+01	-5.86074934691E+00	-9.71550518955E-01
1.83120346705E+06	-1.33678522914E+01	-1.55147648137E+02	9.27541632266E+00	1.71801847839E+02	-3.67602787984E+01	-4.19505493368E+01	-5.89728485397E+00	-1.04920650714E+00
1.85339482165E+06	-1.20678544787E+01	-1.59458386853E+02	9.29385286589E+00	1.71819231509E+02	-4.81671532159E+01	6.68559427008E+01	-5.89470713781E+00	-1.05735538943E+00
1.87558617624E+06	-1.31931198067E+01	-1.57113212525E+02	9.28986347222E+00	1.71588955425E+02	-4.92305498208E+01	-1.77308479113E+02	-5.87838988122E+00	-9.74604872529E-01
1.89777753084E+06	-1.35889341337E+01	-1.40498928118E+02	9.28982873153E+00	1.71452873713E+02	-4.39514191521E+01	-1.06478476778E+02	-5.88225053311E+00	-8.86367559653E-01
1.91996888543E+06	-1.14215062386E+01	-1.76727600524E+02	9.22564230878E+00	1.71509500502E+02	-4.76060904228E+01	-1.49280450365E+02	-5.86872357424E+00	-8.87962076820E-01
1.94216024003E+06	-1.38040899961E+01	-1.52302923591E+02	9.29804167674E+00	1.71353134340E+02	-4.39487653925E+01	-1.49289354858E+02	-5.85144324103E+00	-9.82900836356E-01
1.96435159462E+06	-1.49026006353E+01	-1.70930789832E+02	9.27818589365E+00	1.71497334219E+02	-4.40702255912E+01	-1.07583382310E+02	-5.87726465083E+00	-9.36934137907E-01
1.98654294922E+06	-1.34707310850E+01	-1.39408901407E+02	9.29631901324E+00	1.71091905310E+02	-3.97095165602E+01	3.42355638104E+01	-5.87791229177E+00	-1.07724860751E+00
2.00873430381E+06	-8.92810273353E+00	1.76930386671E+02	9.19168020778E+00	1.70847038116E+02	-4.06274509325E+01	-1.58428435576E+02	-5.85669876818E+00	-9.73439415126E-01
2.03092565841E+06	-1.50563376236E+01	-1.77865625611E+02	9.32012191137E+00	1.71004236734E+02	-5.99962254224E+01	-7.58464123104E+01	-5.88473757017E+00	-1.02345036934E+00
2.05311701300E+06	-1.28609163894E+01	-1.77011209318E+02	9.26191692239E+00	1.70978253908E+02	-5.05566409277E+01	6.53974681905E+01	-5.85391302120E+00	-1.04751449959E+00
2.07530836760E+06	-1.41024248114E+01	-1.59388748360E+02	9.29731786904E+00	1.70616720644E+02	-4.67173544883E+01	-4.78359148725E+01	-5.86697728819E+00	-9.39282364177E-01
2.09749972219E+06	-1.37887365168E+01	-1.68590649047E+02	9.27568845262E+00	1.70737955725E+02	-6.66098776448E+01	1.15230302418E+02	-5.87440977121E+00	-9.50533549092E-01
2.11969107679E+06	-1.19139606065E+01	-1.70514156975E+02	9.27090700533E+00	1.70402331634E+02	-5.02208892066E+01	-3.65411246062E+01	-5.88551408600E+00	-1.06309667762E+00
2.14188243138E+06	-1.52977902333E+01	-1.61696067515E+02	9.31173110495E+00	1.70535407905E+02	-3.47387030792E+01	-7.55138905013E+00	-5.88608061997E+00	-1.34065157887E+00
2.16407378598E+06	-1.34322858782E+01	4.30958453931E+01	9.29403886030E+00	1.71298235303E+02	-4.71194175571E+01	-1.46441255852E+02	-5.85234021239E+00	-1.11209095027E+00
2.18626514057E+06	-1.14640735288E+01	1.74806702759E+02	9.25083673124E+00	1.70245246595E+02	-4.47239356349E+01	-1.52273292240E+02	-5.85344603030E+00	-9.42600033633E-01
2.20845649517E+06	-1.58449689888E+01	-1.67263719983E+02	9.31297708922E+00	1.70057238911E+02	-4.52935887355E+01	-8.16677086107E+01	-5.89055291299E+00	-1.13592961354E+00
2.23064784976E+06	-1.28468897243E+01	-1.71533494946E+02	9.25065585043E+00	1.70103749205E+02	-4.30991103718E+01	-1.14112681200E+02	-5.88340798515E+00	-1.17582118400E+00
2.25283920436E+06	-1.14864918283E+01	-1.66374865666E+02	9.27340411968E+00	1.69733917419E+02	-4.17449742271E+01	1.29914583008E+02	-5.84754740127E+00	-1.29066725816E+00
2.27503055895E+06	-1.63226934571E+01	-1.50516584083E+02	9.32672156688E+00	1.69856412654E+02	-4.75989883208E+01	1.69493963913E+02	-5.86774712560E+00	-1.20870593391E+00
2.29722191355E+06	-1.42048750526E+01	-1.58619595292E+02	9.31759484299E+00	1.69679448521E+02	-3.37977880827E+01	1.17953197468E+01	-5.88119329916E+00	-1.41828833912E+00
2.31941326814E+06	-1.13173893229E+01	-1.66862846259E+02	9.22365288608E+00	1.69153843078E+02	-4.82946584124E+01	-1.18090935373E+02	-5.88923057570E+00	-1.20652996381E+00
2.34160462274E+06	-1.24659461892E+01	-1.63265474060E+02	9.29594510279E+00	1.69337763186E+02	-5.14553866226E+01	1.23583852453E+02	-5.88859124444E+00	-1.23966821838E+00
2.36379597733E+06	-1.36625265451E+01	-1.52776335966E+02	9.27853301771E+00	1.69336326515E+02	-4.43065040820E+01	1.28758121916E+02	-5.87054572401E+00	-1.39715518805E+00
2.38598733193E+06	-1.43960259419E+01	-1.68813382978E+02	9.29765236517E+00	1.69204673064E+02	-5.13421544512E+01	1.82231790943E+01	-5.90416461998E+00	-1.35819122392E+00
2.40817868652E+06	-1.28429355951E+01	-1.60093236300E+02	9.30485898486E+00	1.68916951192E+02	-5.52709880233E+01	-1.70094617697E+02	-5.86522252348E+00	-1.40371067908E+00
2.43037004112E+06	-1.54560517180E+01	-1.41876158450E+02	9.34603431473E+00	1.69046899061E+02	-5.09633334549E+01	3.33844793794E+01	-5.89597490455E+00	-1.61361429707E+00
2.45256139571E+06	-1.43808298172E+01	-1.58482424146E+02	9.31158839673E+00	1.68783137673E+02	-4.42586988459E+01	1.30546527051E+02	-5.86197119205E+00	-1.26088075649E+00
2.47475275031E+06	-1.87780036595E+01	-1.30042462419E+02	9.31552960470E+00	1.68843632697E+02	-4.14815003155E+01	1.63711247927E+02	-5.86214088245E+00	-1.09015954596E+00
2.49694410490E+06	-1.05287550794E+01	1.63533396475E+02	9.21275219668E+00	1.68761948647E+02	-6.66750956574E+01	-1.08299756364E+02	-5.86999261779E+00	-1.21662409938E+00
2.51913545950E+06	-1.15936051741E+01	-1.52846780111E+02	9.30584585833E+00	1.68306652642E+02	-5.00380271555E+01	1.02122046029E+02	-5.86298270465E+00	-1.30057969095E+00
2.54132681409E+06	-1.34059756751E+01	-1.64437271489E+02	9.32375804644E+00	1.68494338274E+02	-4.54842996201E+01	4.04072542839E+01	-5.89149514843E+00	-1.29657635711E+00
2.56351816869E+06	-1.31316087405E+01	-1.48096377249E+02	9.33837098054E+00	1.68385023421E+02	-5.32940099227E+01	8.91724791721E+01	-5.89364324183E+00	-1.32063476852E+00
2.58570952328E+06	-1.35557586361E+01	-1.62990260944E+02	9.29243082796E+00	1.68214916995E+02	-4.34685719611E+01	1.85835237648E+00	-5.90020000777E+00	-1.27843638475E+00
2.60790087788E+06	-1.42971168236E+01	-1.63932882233E+02	9.30986361284E+00	1.68121585506E+02	-4.52246954888E+01	-1.68626028938E+02	-5.86043522670E+00	-1.11080733600E+00
2.63009223247E+06	-1.34653627111E+01	1.73702949890E+02	9.24779275681E+00	1.68170924161E+02	-4.17413448291E+01	-1.65215515277E+02	-5.86236249608E+00	-8.81889163001E-01
2.65228358707E+06	-1.13363233421E+01	-1.61750194650E+02	9.31965168749E+00	1.67849183460E+02	-4.58142146544E+01	2.07634952535E+01	-5.88707425743E+00	-1.49908981013E+00
2.67447494166E+06	-1.62223799377E+01	-1.66650325954E+02	9.31583984987E+00	1.67993425086E+02	-4.53154534427E+01	-2.75440140373E+01	-5.89018275688E+00	-1.40064476120E+00
2.69666629626E+06	-1.47201067799E+01	-1.57895987906E+02	9.31329754342E+00	1.67851791436E+02	-4.03390333175E+01	-6.98085244121E+01	-5.91845395470E+00	-1.29493972178E+00
2.71885765085E+06	-1.17913681484E+01	-1.72064610575E+02	9.28572132503E+00	1.67369343475E+02	-4.15492720983E+01	1.46966304760E+01	-5.88690555158E+00	-1.61055831933E+00
2.74104900545E+06	-1.61919144918E+01	-1.54967590839E+02	9.33983328572E+00	1.67604173076E+02	-5.97167085419E+01	-1.37917167361E+02	-5.89256871429E+00	-1.39570228097E+00
2.76324036004E+06	-1.25860497966E+01	-1.79717857234E+02	9.27743007683E+00	1.67459109726E+02	-4.15514096833E+01	-2.20489459075E+01	-5.89570392363E+00	-1.45910958764E+00
2.78543171463E+06	-1.44743134540E+01	-1.66286064261E+02	9.29846032148E+00	1.67519148579E+02	-4.32716067066E+01	4.56329404292E+01	-5.89085988176E+00	-1.38085943919E+00
2.80762306923E+06	-1.85363622947E+01	-1.40530716319E+02	9.34674627961E+00	1.67372200070E+02	-4.55882899722E+01	-4.68051562808E+01	-5.90155335949E+00	-1.43154130625E+00
2.82981442382E+06	-1.28931659303E+01	-1.41841351381E+02	9.32812104501E+00	1.66719238047E+02	-4.92229881737E+01	-1.64420318004E+01	-5.88916401847E+00	-1.48890732864E+00
2.85200577842E+06	-1.21949592646E+01	-1.60285131477E+02	9.29306447911E+00	1.66706696968E+02	-5.19974068346E+01	1.02212598184E+02	-5.86710831941E+00	-1.49282349061E+00
2.87419713301E+06	-1.45761490811E+01	1.66812272312E+02	9.29839205068E+00	1.67106077141E+02	-5.13979382160E+01	5.81369650171E+01	-5.88271250319E+00	-1.63453091906E+00
