# Hz S DB R 50
! CMT, M5065, 19127446, 24.2.4/2
! Date: 11/8/2024 5:40:03 PM
! Data: Format (Calibration Info)
! Freq	S11:dB/Ang(F2)	S21:dB/Ang(F2)	S12:dB/Ang(F2)	S22:dB/Ang(F2)
3.00000000000E+05	-1.24940577857E+01	-1.71160578969E+02	7.15419114912E+00	-1.77415698779E+02	-4.08525047152E+01	4.67063329972E+01	-5.87922771045E+00	-3.94701028981E-01
3.22191354595E+05	-1.39248555564E+01	-1.63496615261E+02	7.20272939977E+00	-1.78114859555E+02	-4.79675607869E+01	-1.39883984569E+02	-5.84815955943E+00	-1.65903311727E-01
3.44382709190E+05	-1.50411285449E+01	-1.68217182959E+02	7.21808279730E+00	-1.78258768611E+02	-4.28243331719E+01	5.97322209062E+01	-5.86581763719E+00	-3.27930679151E-01
3.66574063785E+05	-1.08864285072E+01	-1.69560796686E+02	7.20057705246E+00	-1.78723035270E+02	-4.70551419228E+01	3.08407443957E+01	-5.87570908066E+00	-2.44418836155E-01
3.88765418380E+05	-1.32410419852E+01	1.79788779094E+02	7.25507783417E+00	1.79705162161E+02	-4.63927992560E+01	6.66171878709E+01	-5.83983606107E+00	-4.07606938190E-01
4.10956772975E+05	-1.21284614125E+01	-1.61926917602E+02	7.17377186789E+00	-1.79021219739E+02	-4.12203422534E+01	1.32413702260E+02	-5.84976273006E+00	-5.25802292449E-01
4.33148127570E+05	-1.45323982826E+01	-1.68561011374E+02	7.21213538004E+00	-1.79270280282E+02	-4.75761808369E+01	1.39673297644E+02	-5.85155771536E+00	-2.74648392083E-01
4.55339482165E+05	-1.34009686185E+01	1.75568734147E+02	7.23278818569E+00	-1.79508044818E+02	-5.16441166181E+01	1.75745314817E+02	-5.88210509677E+00	-2.29963447863E-01
4.77530836760E+05	-1.33465706503E+01	-1.69073468468E+02	7.19927600828E+00	-1.79825358832E+02	-4.83930266394E+01	-1.51151680302E+02	-5.86371403365E+00	-3.17748581031E-01
4.99722191355E+05	-1.32915167497E+01	-1.69539970914E+02	7.21091775285E+00	1.79810114431E+02	-5.34960518977E+01	-1.54819287802E+02	-5.86086122928E+00	-2.65259163767E-01
5.21913545950E+05	-1.16682028015E+01	-1.35477948882E+02	7.21651313204E+00	1.79671494329E+02	-5.40823677006E+01	1.63185000093E+02	-5.85967263417E+00	-2.46887762802E-01
5.44104900545E+05	-1.13088132115E+01	-1.60522152168E+02	7.18672409688E+00	1.79610788071E+02	-4.35341006666E+01	-9.10970013695E+01	-5.89202792601E+00	-2.07023481576E-01
5.66296255139E+05	-1.18616338908E+01	-1.48400881471E+02	7.21565038145E+00	1.79169603447E+02	-4.58858985264E+01	-3.23825256167E+01	-5.87093066339E+00	-4.52846742153E-01
5.88487609734E+05	-1.37063761028E+01	1.75685132465E+02	7.21778867134E+00	1.79428317821E+02	-4.97501208417E+01	-7.73971969889E+01	-5.86284394563E+00	-3.50872889296E-01
6.10678964329E+05	-1.43085421855E+01	1.78018910181E+02	7.21050332081E+00	1.79592566846E+02	-4.50091939639E+01	-1.85286449948E+01	-5.87160712673E+00	8.20345365982E-02
6.32870318924E+05	-1.39705993618E+01	-1.70295777920E+02	7.19787946844E+00	1.79019940547E+02	-4.41090347007E+01	9.14865290005E+01	-5.86922102416E+00	-2.87782723539E-01
6.55061673519E+05	-1.24478163517E+01	-1.66841615825E+02	7.22743083817E+00	1.78898439845E+02	-3.92350293218E+01	5.86223121352E+01	-5.86969957701E+00	-6.09172724168E-01
6.77253028114E+05	-1.43285649569E+01	-1.67503211014E+02	7.19846227721E+00	1.78581393384E+02	-4.57593095626E+01	1.50946362235E+02	-5.85365472392E+00	-8.49351444297E-01
6.99444382709E+05	-2.03080662831E+01	1.75695132288E+02	7.24941435114E+00	1.78669470446E+02	-4.06148028805E+01	-9.83487032680E+01	-5.88396233552E+00	-3.76502295359E-01
7.21635737304E+05	-1.21755713606E+01	-1.75847202073E+02	7.20010421562E+00	1.78408267938E+02	-4.23165788074E+01	-1.06436682186E+02	-5.83805493326E+00	-3.27707249296E-01
7.43827091899E+05	-1.28148347196E+01	-1.55954833040E+02	7.21261088232E+00	1.78080389628E+02	-4.10045123040E+01	-3.90142560705E+01	-5.90514583333E+00	-3.44155952205E-01
7.66018446494E+05	-1.12752574754E+01	-1.74746860373E+02	7.17579184858E+00	1.78113363514E+02	-5.30565273575E+01	-3.92934501538E+01	-5.87873831777E+00	-4.66727509131E-01
7.88209801089E+05	-1.18078741046E+01	-1.72919242592E+02	7.20756046743E+00	1.77999717150E+02	-4.04052084866E+01	-4.58482924108E+01	-5.88352531514E+00	-3.48001004821E-01
8.10401155684E+05	-1.31946129864E+01	-1.79525768154E+02	7.19044069621E+00	1.77856776181E+02	-4.44965989739E+01	-1.69362930705E+02	-5.88169229670E+00	-6.04304108917E-01
8.32592510279E+05	-1.36194022443E+01	1.75056759085E+02	7.19983726817E+00	1.77893922490E+02	-5.15601115259E+01	-6.91745670648E+01	-5.87100373179E+00	-4.79552233974E-01
8.54783864874E+05	-1.33097197182E+01	-1.75555134310E+02	7.23134947202E+00	1.77437239295E+02	-4.19858244935E+01	-1.79035424587E+02	-5.84878482247E+00	-4.83634996197E-01
8.76975219469E+05	-1.37432361203E+01	-1.68293910934E+02	7.18658353061E+00	1.77374863166E+02	-4.37533988334E+01	-2.51933901559E+01	-5.86249504742E+00	-4.99635819630E-01
8.99166574064E+05	-1.20082338447E+01	-1.65042561939E+02	7.21365434069E+00	1.77288841264E+02	-4.77308564695E+01	-3.50375932185E+01	-5.85976839709E+00	-5.43302410957E-01
9.21357928659E+05	-1.13077968300E+01	-1.64207588890E+02	7.16041286955E+00	1.77148231698E+02	-4.40648188566E+01	-1.78148991477E+02	-5.87053817483E+00	-5.47382596527E-01
9.43549283254E+05	-1.28881600940E+01	1.79726669804E+02	7.16769910097E+00	1.77260893736E+02	-4.92991664684E+01	4.62369283791E+00	-5.87920303669E+00	-6.18090663468E-01
9.65740637849E+05	-1.48823744504E+01	-1.51598035662E+02	7.24334097462E+00	1.77108613156E+02	-5.28284559398E+01	-1.67908871524E+02	-5.87528494245E+00	-5.88364925473E-01
9.87931992444E+05	-1.50865473503E+01	-1.68931976708E+02	7.24795028680E+00	1.77021421703E+02	-4.58632124045E+01	7.90236308466E+01	-5.89168388692E+00	-7.50008338382E-01
1.01012334704E+06	-1.32503578784E+01	1.68680048002E+02	7.23971563115E+00	1.77066045577E+02	-4.92772756678E+01	-1.56701074027E+02	-5.87505364450E+00	-5.66170915759E-01
1.03231470163E+06	-1.14829326428E+01	1.79821385585E+02	7.14562690023E+00	1.76719091506E+02	-4.35039080059E+01	1.07609114315E+02	-5.84793662778E+00	-5.22743835565E-01
1.05450605623E+06	-1.20265410716E+01	-1.79146752427E+02	7.22326279657E+00	1.76825337049E+02	-4.77096234957E+01	1.52086470105E+02	-5.88050854152E+00	-5.58312038987E-01
1.07669741082E+06	-1.42053632509E+01	-1.63988253866E+02	7.32146051197E+00	1.76554139434E+02	-4.57774025982E+01	1.70069768791E+02	-5.85396667788E+00	-7.54717937953E-01
1.09888876542E+06	-1.23972273056E+01	-1.77649231945E+02	7.20678776983E+00	1.76448771725E+02	-4.14516085365E+01	8.69354041051E+01	-5.84557698784E+00	-6.53886219316E-01
1.12108012001E+06	-1.33225401420E+01	1.67860590330E+02	7.18749606538E+00	1.76320876840E+02	-4.66983915389E+01	1.09603349695E+01	-5.89257052557E+00	-7.80293307617E-01
1.14327147461E+06	-1.25735774427E+01	-1.47756886355E+02	7.21399715504E+00	1.76012114199E+02	-4.15770970877E+01	7.01669792160E+01	-5.88240618723E+00	-5.84337503482E-01
1.16546282920E+06	-1.18518462171E+01	-1.70840159401E+02	7.19197553781E+00	1.76043804548E+02	-4.19785682735E+01	1.19434589309E+02	-5.84709149622E+00	-7.33527813368E-01
1.18765418380E+06	-1.34995251640E+01	-1.51920741470E+02	7.27957905575E+00	1.75889089256E+02	-3.73604545961E+01	-1.68074999336E+02	-5.87370444251E+00	-6.96588077622E-01
1.20984553839E+06	-1.41309914368E+01	-1.70697930347E+02	7.23753707930E+00	1.75754341052E+02	-3.81732009418E+01	-1.17591701990E+02	-5.85988226994E+00	-7.01958274130E-01
1.23203689299E+06	-1.20403684384E+01	-1.69713103537E+02	7.21314609068E+00	1.75536681790E+02	-4.48037993112E+01	-9.85367032512E+01	-5.85951746238E+00	-2.38624232557E-01
1.25422824758E+06	-1.37176614362E+01	-1.71818313897E+02	7.25456123943E+00	1.75521661991E+02	-4.85709539031E+01	4.01471069335E+01	-5.89096075361E+00	-7.01629587814E-01
1.27641960218E+06	-1.25434415731E+01	-1.65497786440E+02	7.18335198207E+00	1.75463922202E+02	-4.83624349460E+01	9.03631073801E+01	-5.88025158969E+00	-7.58749455479E-01
1.29861095677E+06	-1.24498700241E+01	-1.61077311575E+02	7.22231806399E+00	1.75427259054E+02	-4.64796329349E+01	-5.75933672927E+01	-5.89610333931E+00	-5.79475723882E-01
1.32080231137E+06	-1.02104981918E+01	-1.64957348166E+02	7.19040992864E+00	1.74975467340E+02	-4.70234630217E+01	-1.06057349395E+02	-5.88554959243E+00	-9.98101737162E-01
1.34299366596E+06	-1.64202526575E+01	-1.70410770975E+02	7.24746255039E+00	1.75160075813E+02	-5.17287694787E+01	-1.56556607516E+02	-5.86861077680E+00	-7.82903768602E-01
1.36518502056E+06	-1.17287138789E+01	-1.73397049789E+02	7.22386987533E+00	1.74807566034E+02	-4.18280089600E+01	-1.65490419352E+02	-5.84959967684E+00	-5.66701787432E-01
1.38737637515E+06	-1.30205543219E+01	1.70509535209E+02	7.26197784354E+00	1.74936780961E+02	-4.65308350329E+01	-1.40680157598E+02	-5.89086191167E+00	-8.56401214737E-01
1.40956772975E+06	-1.14241163856E+01	-1.73167000739E+02	7.21504674150E+00	1.74941703358E+02	-4.85049701512E+01	7.18821966604E+01	-5.86471354096E+00	-9.06717545102E-01
1.43175908434E+06	-1.29005775018E+01	1.77221879440E+02	7.21691647484E+00	1.74760043244E+02	-4.41366389664E+01	-1.57225148070E+02	-5.84039364644E+00	-7.39168938261E-01
1.45395043894E+06	-1.50958231296E+01	-7.48845397629E+01	7.26955248341E+00	1.74687955831E+02	-5.18366031199E+01	7.57973646353E+01	-5.87022437432E+00	-8.31842312828E-01
1.47614179353E+06	-1.35263836467E+01	-1.72003894072E+02	7.23673435981E+00	1.74685818862E+02	-4.20276170648E+01	-1.25949612490E+02	-5.87348588595E+00	-7.37488504367E-01
1.49833314813E+06	-1.55318122805E+01	-1.53906608783E+02	7.22992947238E+00	1.74413473215E+02	-4.18535353758E+01	5.19432437730E+01	-5.88550235734E+00	-8.55196060784E-01
1.52052450272E+06	-1.25813789946E+01	-1.61117659084E+02	7.19506517266E+00	1.74401664351E+02	-4.25782314956E+01	3.09699926922E+00	-5.88103261913E+00	-8.79721663128E-01
1.54271585732E+06	-1.17988748862E+01	-1.64755028709E+02	7.21379386215E+00	1.74042060986E+02	-4.46038052206E+01	-6.09618534466E+01	-5.87002771475E+00	-7.78996189092E-01
1.56490721191E+06	-1.25805313745E+01	-1.76680826784E+02	7.19047631294E+00	1.74251005759E+02	-5.21861790197E+01	-1.19296138042E+02	-5.86067455409E+00	-8.54238788596E-01
1.58709856651E+06	-1.15930219900E+01	-1.52893498406E+02	7.20516380529E+00	1.73994081120E+02	-5.08583586367E+01	1.18484303513E+02	-5.87306491291E+00	-1.02850387577E+00
1.60928992110E+06	-1.11161508733E+01	-1.45189049338E+02	7.25739293522E+00	1.73794755151E+02	-5.31221440649E+01	6.15060468115E+01	-5.87640593002E+00	-9.94027686687E-01
1.63148127570E+06	-1.21756328469E+01	-1.65477631085E+02	7.21855317217E+00	1.73533164115E+02	-5.28086884755E+01	5.78144762549E+01	-5.85508340459E+00	-8.71421545978E-01
1.65367263029E+06	-1.26865212972E+01	1.79417759724E+02	7.21976703481E+00	1.73840719910E+02	-3.81432326272E+01	1.66420216267E+02	-5.86439999147E+00	-7.75666897022E-01
1.67586398489E+06	-1.39189373060E+01	1.79034427272E+02	7.24767145378E+00	1.73659419698E+02	-5.26352650587E+01	-1.37229970675E+02	-5.86089390414E+00	-7.06124465136E-01
1.69805533948E+06	-1.16322800301E+01	-1.70716881895E+02	7.18172694081E+00	1.73453930185E+02	-4.98311669696E+01	1.46430469003E+02	-5.85603017167E+00	-7.65160589153E-01
1.72024669408E+06	-1.52037008032E+01	-1.56748810482E+02	7.23943878210E+00	1.73452719285E+02	-5.06688027892E+01	1.39031180169E+02	-5.84972533657E+00	-1.01019251330E+00
1.74243804867E+06	-1.21919705935E+01	-1.64938437827E+02	7.21351897634E+00	1.73186567619E+02	-4.14835274336E+01	-1.86715764437E+01	-5.89003290145E+00	-9.37473297205E-01
1.76462940327E+06	-5.37918896327E+00	-1.65706967174E+02	7.21459032368E+00	1.72445869803E+02	-4.43429026938E+01	-5.55242230887E+01	-5.86710235119E+00	-7.55830672207E-01
1.78682075786E+06	-1.34711742350E+01	-1.53997153007E+02	7.26709123248E+00	1.72554347384E+02	-5.24906901873E+01	-1.01419587079E+01	-5.88026957485E+00	-9.85686396911E-01
1.80901211246E+06	-1.45717033904E+01	-1.72942982931E+02	7.27271362268E+00	1.72984305942E+02	-4.04789492725E+01	-2.06129502109E+01	-5.89797768808E+00	-9.37642397430E-01
1.83120346705E+06	-1.51264677174E+01	-1.62698532466E+02	7.27326895071E+00	1.73056861185E+02	-4.74826988541E+01	-5.82174695323E+01	-5.88408403561E+00	-9.20879202870E-01
1.85339482165E+06	-1.10626718439E+01	-1.63479648032E+02	7.18412756251E+00	1.72910418355E+02	-4.80925896741E+01	1.25115189247E+02	-5.86707938977E+00	-9.42442837055E-01
1.87558617624E+06	-1.21956022249E+01	-1.52418279855E+02	7.25281368650E+00	1.72379569320E+02	-4.75918414113E+01	1.05239749545E+02	-5.87287298020E+00	-1.20889081441E+00
1.89777753084E+06	-1.22009334428E+01	-1.67508533929E+02	7.20232596260E+00	1.72457503591E+02	-4.12181441278E+01	-1.19633415994E+02	-5.85030320480E+00	-8.36050708536E-01
1.91996888543E+06	-1.05554373203E+01	1.56567361503E+02	7.20246195812E+00	1.72340461804E+02	-5.40195267659E+01	-1.51032832907E+02	-5.85100023082E+00	-1.01748269540E+00
1.94216024003E+06	-1.28361075807E+01	-1.69002518783E+02	7.25414996634E+00	1.72215020759E+02	-5.25121249113E+01	-1.30146959744E+02	-5.86521285618E+00	-1.05366761433E+00
1.96435159462E+06	-1.28356100841E+01	1.74874963027E+02	7.21263711660E+00	1.72428740607E+02	-3.40876148007E+01	-6.80884672095E+01	-5.89444001856E+00	-9.42021963073E-01
1.98654294922E+06	-1.39101475646E+01	1.79816820120E+02	7.20655048795E+00	1.72519440340E+02	-3.89677519775E+01	-2.88737976519E+01	-5.88227370725E+00	-1.04898908462E+00
2.00873430381E+06	-1.16510287129E+01	-1.56105649918E+02	7.25861491253E+00	1.71941011388E+02	-4.81124772484E+01	-3.84654149263E+01	-5.88723033673E+00	-9.76199266874E-01
2.03092565841E+06	-1.27582648197E+01	-1.78156083313E+02	7.22848154034E+00	1.72089025344E+02	-3.85908800085E+01	-6.36861357860E+01	-5.87738685527E+00	-1.06721583064E+00
2.05311701300E+06	-8.68460363944E+00	-1.79000886887E+02	7.14700098084E+00	1.71717727123E+02	-5.16022666132E+01	1.31184785486E+02	-5.87500759308E+00	-1.01644780513E+00
2.07530836760E+06	-9.80021901424E+00	-1.73648524512E+02	7.19690574259E+00	1.71468967914E+02	-4.05817738936E+01	5.93161619172E+01	-5.87507853861E+00	-1.29044054352E+00
2.09749972219E+06	-1.34240464395E+01	-1.61198876505E+02	7.24185177753E+00	1.71791463013E+02	-4.27330943564E+01	1.02030885498E+02	-5.86725550119E+00	-1.15989675417E+00
2.11969107679E+06	-1.20141932993E+01	-1.60850640281E+02	7.24498936186E+00	1.71519714799E+02	-4.60778060871E+01	4.51653995034E+01	-5.86373981518E+00	-1.19239311024E+00
2.14188243138E+06	-1.31269571490E+01	-1.63702777895E+02	7.24184763103E+00	1.71353987534E+02	-4.68317733956E+01	-1.39429847547E+02	-5.88790504891E+00	-8.94120826114E-01
2.16407378598E+06	-9.83014840838E+00	-1.61605667021E+02	7.20381176334E+00	1.70867049954E+02	-4.14453519700E+01	9.07202698482E+01	-5.86411176457E+00	-1.14865866474E+00
2.18626514057E+06	-1.54252852013E+01	-1.47592808247E+02	7.27651599031E+00	1.71453030486E+02	-4.94475237043E+01	-5.65745865929E+01	-5.88213728616E+00	-1.12978128228E+00
2.20845649517E+06	-1.17720902078E+01	-1.69244714397E+02	7.24860025843E+00	1.71266342003E+02	-4.70580046770E+01	1.23601066562E+02	-5.85644033506E+00	-1.28031505547E+00
2.23064784976E+06	-1.23464044715E+01	1.71814629557E+02	7.24285540239E+00	1.71065616373E+02	-5.30369382774E+01	-2.88897883041E+01	-5.88446887766E+00	-1.06311985700E+00
2.25283920436E+06	-1.15652820292E+01	-1.30534470621E+02	7.31979870936E+00	1.70879523064E+02	-4.67897501390E+01	2.73558553450E+01	-5.88134442710E+00	-1.26076481195E+00
2.27503055895E+06	-1.13073995052E+01	-1.63662309889E+02	7.22866180140E+00	1.70802542748E+02	-4.62155835536E+01	3.11513859962E+01	-5.85119236996E+00	-1.11386277515E+00
2.29722191355E+06	-1.25727715342E+01	-1.45349079447E+02	7.27359468080E+00	1.70566700888E+02	-2.90750656386E+01	1.76238494378E+02	-5.84895707371E+00	-7.36813063061E-01
2.31941326814E+06	-1.26865775945E+01	-1.56637696787E+02	7.28480360728E+00	1.70445030170E+02	-5.04370781079E+01	1.45944270003E+01	-5.86981276136E+00	-1.28869056397E+00
2.34160462274E+06	-1.17905349120E+01	-1.66853729125E+02	7.23523970371E+00	1.70413577944E+02	-4.55734231997E+01	4.11046213800E+01	-5.85633468350E+00	-1.27021354777E+00
2.36379597733E+06	-1.14290356568E+01	-1.45614155421E+02	7.29514536456E+00	1.70489941526E+02	-4.68916926384E+01	-4.16198212306E+01	-5.90137428843E+00	-1.12060813450E+00
2.38598733193E+06	-1.31425232572E+01	1.77524926610E+02	7.23497642292E+00	1.70486164298E+02	-4.92930610953E+01	-3.17792426925E+01	-5.88512996726E+00	-1.26217665923E+00
2.40817868652E+06	-1.29820443873E+01	-1.70735615268E+02	7.23276237871E+00	1.70377594306E+02	-4.22448903007E+01	-1.59676464349E+02	-5.85792890377E+00	-1.39136695060E+00
2.43037004112E+06	-1.11792898069E+01	-1.52090563701E+02	7.26737767877E+00	1.69990687894E+02	-4.27413102791E+01	1.62994537690E+02	-5.86634417419E+00	-1.63841140715E+00
2.45256139571E+06	-1.30583509924E+01	1.77810196249E+02	7.22093282628E+00	1.70333021920E+02	-3.79918965855E+01	1.31412256313E+02	-5.85123601347E+00	-1.23567100072E+00
2.47475275031E+06	-1.53696705779E+01	-1.55372856699E+02	7.24717939604E+00	1.70041466938E+02	-4.27260178137E+01	1.27875265380E+02	-5.85804056053E+00	-1.28000690136E+00
2.49694410490E+06	-1.39268137755E+01	-1.65338765979E+02	7.25625733595E+00	1.69869861536E+02	-5.34017143285E+01	-8.27177489262E+01	-5.87161393894E+00	-1.34704076213E+00
2.51913545950E+06	-1.35711201479E+01	-1.67161628370E+02	7.27287924377E+00	1.69934398918E+02	-4.69752070217E+01	1.37506068595E+02	-5.86250076142E+00	-1.31659012060E+00
2.54132681409E+06	-1.43910837578E+01	-1.64681557465E+02	7.24011287504E+00	1.70038670750E+02	-4.84027979653E+01	-1.65655752143E+02	-5.86703349542E+00	-1.48947411696E+00
2.56351816869E+06	-1.19239283567E+01	-1.76099733077E+02	7.26733675520E+00	1.69508886456E+02	-4.32857707523E+01	5.94144178005E+01	-5.85003076469E+00	-1.48653148979E+00
2.58570952328E+06	-9.86141887501E+00	-1.62693385670E+02	7.21986912265E+00	1.69236369085E+02	-3.97519876893E+01	1.60131939497E+02	-5.85098743000E+00	-1.34543767304E+00
2.60790087788E+06	-1.38661079009E+01	-1.66141693317E+02	7.26359002401E+00	1.69455270029E+02	-3.66044295842E+01	1.15193315609E+02	-5.83992711939E+00	-1.27020208745E+00
2.63009223247E+06	-1.19089814280E+01	-1.67204551905E+02	7.23297708000E+00	1.69152548465E+02	-4.67175397586E+01	1.30125741426E+02	-5.86981341045E+00	-1.02570109367E+00
2.65228358707E+06	-1.11845771641E+01	-1.55414894492E+02	7.24646937111E+00	1.69073921762E+02	-4.09825023225E+01	8.36191326884E+01	-5.88961877250E+00	-1.37799939875E+00
2.67447494166E+06	-1.27862653791E+01	-1.66352376238E+02	7.23786485810E+00	1.69309937095E+02	-4.58800293352E+01	6.10509274168E+01	-5.87188949871E+00	-1.37741917164E+00
2.69666629626E+06	-1.31195003691E+01	-1.54148250137E+02	7.26758114556E+00	1.68948633339E+02	-4.20361795356E+01	5.76287780489E+00	-5.90555035057E+00	-1.49021960340E+00
2.71885765085E+06	-1.13616897594E+01	-1.65061422559E+02	7.25257472610E+00	1.68761309387E+02	-4.34411266947E+01	-1.36695778364E+02	-5.88843386362E+00	-1.36955751515E+00
2.74104900545E+06	-1.35803541708E+01	-1.54484141970E+02	7.29972233557E+00	1.68588030340E+02	-4.47555285169E+01	1.29261222095E+02	-5.84095427883E+00	-1.66978972279E+00
2.76324036004E+06	-1.46787584219E+01	1.74933862042E+02	7.26935203071E+00	1.68945288343E+02	-4.72971771516E+01	1.28424984172E+02	-5.89035169732E+00	-1.51242300481E+00
2.78543171463E+06	-1.36737717460E+01	-1.57982773580E+02	7.29514168220E+00	1.68500664483E+02	-4.92871250935E+01	9.65441126547E+00	-5.86935902688E+00	-1.51671000252E+00
2.80762306923E+06	-1.22666226471E+01	-1.68720473943E+02	7.23514956873E+00	1.68657356719E+02	-4.28834977711E+01	-5.80566929006E+01	-5.89994805667E+00	-1.45505341812E+00
2.82981442382E+06	-1.25592265844E+01	-1.62870877889E+02	7.28189039880E+00	1.68341407040E+02	-4.60740875204E+01	1.11534469499E+02	-5.86619620970E+00	-1.53037104720E+00
2.85200577842E+06	-1.34648983710E+01	-1.70843030867E+02	7.29403663114E+00	1.68079230870E+02	-5.22089492616E+01	-1.01285597493E+02	-5.88134412296E+00	-1.40017930424E+00
2.87419713301E+06	-1.14239138707E+01	-1.67009163741E+02	7.29169454205E+00	1.68298239153E+02	-4.34187970653E+01	7.87081514385E+01	-5.87837632443E+00	-1.50325040341E+00
