# Hz S DB R 50
! CMT, M5065, 19127446, 24.2.4/2
! Date: 11/8/2024 5:08:49 PM
! Data: Format (Calibration Info)
! Freq	S11:dB/Ang(F2)	S21:dB/Ang(F2)	S12:dB/Ang(F2)	S22:dB/Ang(F2)
3.00000000000E+05	-1.77713456798E+01	1.77468247683E+02	9.00250978382E+00	-1.77700627554E+02	-4.99334379413E+01	6.09584555262E+01	-5.87752906763E+00	-3.74240286884E-01
3.22191354595E+05	-1.54064172121E+01	-1.69540958505E+02	9.01372297837E+00	-1.77925501659E+02	-4.14310931998E+01	1.05086854042E+02	-5.86159097477E+00	-3.91391971797E-01
3.44382709190E+05	-1.54996554161E+01	-1.67707949224E+02	9.06011830790E+00	-1.78319874604E+02	-6.41898699547E+01	1.75494061586E+02	-5.86133382582E+00	-2.95113453017E-01
3.66574063785E+05	-1.58338340515E+01	-1.66524177202E+02	9.02655570717E+00	-1.78549574748E+02	-4.03254484234E+01	-1.46536940943E+02	-5.84208310274E+00	-2.23728722570E-01
3.88765418380E+05	-1.59756993215E+01	1.76305515858E+02	9.05135669806E+00	-1.78685613544E+02	-3.95347162517E+01	-1.22025998828E+02	-5.86732234284E+00	-3.59986707739E-01
4.10956772975E+05	-1.94173543318E+01	-1.61595088543E+02	9.08193336009E+00	-1.79073768378E+02	-4.02023614352E+01	1.71348250238E+02	-5.84160809929E+00	-2.21505309927E-01
4.33148127570E+05	-1.80731420338E+01	-1.63919358017E+02	9.06530237970E+00	-1.79357546269E+02	-4.78345352523E+01	4.48665733258E+01	-5.86298600609E+00	-4.71022495681E-01
4.55339482165E+05	-1.49631533043E+01	1.77652027520E+02	9.03418370365E+00	-1.79605939213E+02	-4.82063003370E+01	-1.73404750291E+02	-5.86342627256E+00	-1.69131605748E-01
4.77530836760E+05	-1.60346555528E+01	-1.73683797152E+02	9.03471731252E+00	-1.79932817937E+02	-4.14465485363E+01	-1.76350442879E+02	-5.86870461950E+00	-2.06416123509E-01
4.99722191355E+05	-1.40238769192E+01	-1.62190401480E+02	9.02716430633E+00	1.79911522807E+02	-4.64108222776E+01	9.87990588659E+01	-5.87512349715E+00	-5.68211505035E-01
5.21913545950E+05	-1.75335484957E+01	1.67712046436E+02	9.05970094020E+00	1.79850083548E+02	-4.46556085138E+01	8.06758138259E+01	-5.87179497820E+00	-3.33035465385E-01
5.44104900545E+05	-1.45657268746E+01	-1.56375759345E+02	9.08855702836E+00	1.79411003400E+02	-3.93133325948E+01	-1.20948034174E+02	-5.85805315580E+00	-2.18935472702E-01
5.66296255139E+05	-1.48692462821E+01	-1.61846172495E+02	9.08303650196E+00	1.79133007576E+02	-4.96283554612E+01	1.25661817997E+01	-5.85573331243E+00	-3.16769275954E-01
5.88487609734E+05	-1.59911952110E+01	-1.74187239151E+02	9.07404554904E+00	1.79200787684E+02	-4.16304699914E+01	-4.91552029687E+01	-5.88117326832E+00	-8.90129114143E-02
6.10678964329E+05	-1.48222020610E+01	-1.65706236986E+02	9.05383050688E+00	1.78998644628E+02	-4.91966356808E+01	1.53603678785E+02	-5.86530797091E+00	1.51901260715E-01
6.32870318924E+05	-1.34947379123E+01	-1.76660016644E+02	9.04739024414E+00	1.78889453655E+02	-5.52190778625E+01	1.32698498923E+02	-5.86695452341E+00	-1.16830445735E-01
6.55061673519E+05	-1.10407390403E+01	-1.67771411550E+02	9.05034185880E+00	1.78707866642E+02	-4.68569038882E+01	-8.80911592808E+01	-5.86647258277E+00	-2.68971997639E-01
6.77253028114E+05	-1.22676622781E+01	1.66368010166E+02	9.05460614916E+00	1.78557476810E+02	-4.94607263110E+01	6.37208632619E+01	-5.88187709697E+00	-8.27053632458E-01
6.99444382709E+05	-1.30329834577E+01	-1.64418464419E+02	9.02572057415E+00	1.78277471058E+02	-3.28712077272E+01	7.40109772528E+01	-5.87106416937E+00	-5.76538354506E-01
7.21635737304E+05	-1.28511658031E+01	-1.79535686215E+02	9.03290360930E+00	1.78029307377E+02	-4.95462384641E+01	1.77460843011E+02	-5.86940288697E+00	-5.42110081670E-01
7.43827091899E+05	-1.29563864706E+01	-1.77246062128E+02	9.03158712462E+00	1.77999658163E+02	-5.64270733983E+01	8.35739142262E+01	-5.86910332221E+00	-2.86390175722E-01
7.66018446494E+05	-1.24391748238E+01	-1.68084122764E+02	9.02222757922E+00	1.77751413344E+02	-4.96693610636E+01	8.82911542527E+01	-5.86395028576E+00	-3.57878205726E-01
7.88209801089E+05	-1.29208569737E+01	1.65648530132E+02	9.05938277884E+00	1.77873311160E+02	-4.63322531967E+01	-4.16801050849E+01	-5.88750634173E+00	-4.13162131597E-01
8.10401155684E+05	-1.90588827576E+01	1.78033040423E+02	9.05938744344E+00	1.77688229307E+02	-4.74380000668E+01	1.52364972583E+01	-5.88868936072E+00	-5.00142797277E-01
8.32592510279E+05	-1.61414146230E+01	1.58956896894E+02	9.01424125994E+00	1.77591887956E+02	-4.15286684312E+01	6.01549311598E+01	-5.88592335816E+00	-4.99858963117E-01
8.54783864874E+05	-1.47613097416E+01	-1.66257224402E+02	9.06019679876E+00	1.77202792525E+02	-4.16261774419E+01	-6.09569848785E+01	-5.88452024164E+00	-3.78395251703E-01
8.76975219469E+05	-1.74600967349E+01	-1.67983600978E+02	9.05761994385E+00	1.77182185815E+02	-4.49970029958E+01	-6.36332820738E+01	-5.88540148157E+00	-5.05017357030E-01
8.99166574064E+05	-1.49915981304E+01	1.78540911118E+02	9.04691197221E+00	1.76974373457E+02	-4.15106790026E+01	8.15966994400E+01	-5.86996044299E+00	-6.28475600233E-01
9.21357928659E+05	-1.37420554456E+01	1.72000102090E+02	9.07369905364E+00	1.76975067577E+02	-4.34958697087E+01	-9.72143355986E+01	-5.87402732510E+00	-4.00208015170E-01
9.43549283254E+05	-1.42024288672E+01	1.69395507994E+02	9.05154836273E+00	1.76995582424E+02	-4.38811546971E+01	1.42438354581E+02	-5.85727127832E+00	-5.95709858284E-01
9.65740637849E+05	-1.25763278540E+01	-1.73458147444E+02	9.01685238942E+00	1.76376967494E+02	-4.98310588305E+01	1.34192124206E+02	-5.86356950635E+00	-5.51933639526E-01
9.87931992444E+05	-1.01549439330E+01	-1.57863414887E+02	9.04897310402E+00	1.75981713658E+02	-4.30040730882E+01	-1.45349109446E+02	-5.86070867142E+00	-5.25706139487E-01
1.01012334704E+06	-1.26506290591E+01	-1.59008412555E+02	9.04781948772E+00	1.76304704768E+02	-4.40511432247E+01	-1.34765414740E+01	-5.87884961403E+00	-6.33148431782E-01
1.03231470163E+06	-1.55307643898E+01	-1.79870425958E+02	9.05666413772E+00	1.76281798803E+02	-5.17481717718E+01	1.56135631598E+02	-5.86882423318E+00	-5.13380552931E-01
1.05450605623E+06	-1.25776216433E+01	-1.67718846334E+02	9.01965160788E+00	1.75913591247E+02	-4.24343683930E+01	9.82694457281E+01	-5.85969714108E+00	-6.20144058946E-01
1.07669741082E+06	-1.08216083978E+01	1.72879045978E+02	9.01480454852E+00	1.75780598341E+02	-4.46071414873E+01	1.53238138895E+01	-5.89970948079E+00	-6.08014436987E-01
1.09888876542E+06	-1.33606310583E+01	-1.76954779132E+02	9.06211783973E+00	1.76066326994E+02	-5.64873622423E+01	-1.57799729608E+02	-5.87922953846E+00	-4.83960031111E-01
1.12108012001E+06	-1.40648739082E+01	-1.65138546592E+02	9.06580880550E+00	1.75546146815E+02	-4.28780475826E+01	-4.23656406931E+01	-5.85476459595E+00	-5.69805043325E-01
1.14327147461E+06	-1.15046115682E+01	-1.62317677759E+02	9.03112791565E+00	1.75669953049E+02	-4.51705139688E+01	1.51253395084E+02	-5.87232225266E+00	-5.07189466101E-01
1.16546282920E+06	-1.63224504469E+01	1.67813859610E+02	9.06145629855E+00	1.75855897804E+02	-3.95911823790E+01	-1.06951968310E+02	-5.88857703592E+00	-4.27704545108E-01
1.18765418380E+06	-1.23498908513E+01	-1.52188561486E+02	9.03256332693E+00	1.75203053170E+02	-4.76454709468E+01	-2.41285132904E+01	-5.87317175222E+00	-3.79717071769E-01
1.20984553839E+06	-1.30837800567E+01	-1.68611279017E+02	9.03490580593E+00	1.75389881107E+02	-5.02883181507E+01	1.46697338239E+02	-5.87200923701E+00	-8.80308510077E-01
1.23203689299E+06	-1.76611017976E+01	1.72001633042E+02	9.04248506122E+00	1.75447834496E+02	-4.11534419753E+01	-7.76259478122E+01	-5.90518719773E+00	-3.75646007846E-01
1.25422824758E+06	-1.08538012951E+01	-1.67618527811E+02	9.04245061747E+00	1.74828214251E+02	-4.65852371874E+01	-1.05297246747E+01	-5.89286190331E+00	-7.18194560889E-01
1.27641960218E+06	-1.24713021268E+01	-1.42122243024E+02	9.06855508098E+00	1.74724001803E+02	-5.33311741058E+01	-1.15698577809E+02	-5.86971968914E+00	-5.06651026102E-01
1.29861095677E+06	-1.79709877036E+01	-1.52940791259E+02	9.10907121306E+00	1.74985007244E+02	-4.50866688915E+01	-7.29559822248E+01	-5.88163053808E+00	-6.10927628444E-01
1.32080231137E+06	-1.59731142112E+01	-1.68472583397E+02	9.06151822123E+00	1.74548976683E+02	-3.65269906626E+01	1.68179679192E+02	-5.85243188637E+00	-8.34538656817E-01
1.34299366596E+06	-1.52543514782E+01	-1.49877217674E+02	9.08723338261E+00	1.74483924575E+02	-6.44463246262E+01	4.81082607452E-01	-5.87461510439E+00	-8.15721255945E-01
1.36518502056E+06	-1.34979253144E+01	-1.74632705122E+02	9.05357113503E+00	1.74391561565E+02	-4.46484388971E+01	-6.87733295329E+01	-5.89873472790E+00	-5.32926915588E-01
1.38737637515E+06	-1.61138948024E+01	-1.37551700075E+02	9.10304594384E+00	1.74120712796E+02	-4.48469295305E+01	-1.78836995012E+02	-5.86296818453E+00	-5.41548312000E-01
1.40956772975E+06	-1.28683478188E+01	-1.61101938405E+02	9.03716030649E+00	1.74180570577E+02	-4.94000493720E+01	9.76781443011E+01	-5.88123660650E+00	-9.05684594252E-01
1.43175908434E+06	-1.33616763926E+01	-1.61621486888E+02	9.00358679331E+00	1.73998721901E+02	-4.93781690588E+01	-1.68464493651E+02	-5.91019931329E+00	-5.80811707757E-01
1.45395043894E+06	-1.01262434027E+01	-1.36987992460E+02	9.09564778184E+00	1.73598801751E+02	-3.96102909820E+01	6.33429024893E+01	-5.88551931617E+00	-8.17865295262E-01
1.47614179353E+06	-1.38129178478E+01	-1.73696802631E+02	9.03289851594E+00	1.73846885696E+02	-5.50005395465E+01	-4.89007825085E+01	-5.86933454917E+00	-8.98578396628E-01
1.49833314813E+06	-1.70210836875E+01	-1.55923173060E+02	9.08407303615E+00	1.73694856382E+02	-4.14231638288E+01	-7.06528005928E+01	-5.88430142450E+00	-7.66182382900E-01
1.52052450272E+06	-1.46425349255E+01	-1.65768166683E+02	9.04982327617E+00	1.73797685573E+02	-4.60502650435E+01	2.93321668918E+01	-5.86484936601E+00	-8.34417958704E-01
1.54271585732E+06	-1.14388637170E+01	-1.68577710013E+02	9.05522285794E+00	1.73263916262E+02	-4.47386753760E+01	-1.68307549484E+02	-5.84760890609E+00	-7.78588259199E-01
1.56490721191E+06	-1.46836533390E+01	1.74959312771E+02	9.04574904695E+00	1.73471922907E+02	-5.02380861185E+01	1.20586008349E+02	-5.86425678287E+00	-7.61151169984E-01
1.58709856651E+06	-1.56289346031E+01	1.76102041879E+02	9.07049901599E+00	1.73460831366E+02	-4.06698020803E+01	8.65037196394E+01	-5.88935682221E+00	-8.91596202492E-01
1.60928992110E+06	-1.70866498355E+01	1.67933008271E+02	9.06284774423E+00	1.73418449725E+02	-4.82689513691E+01	6.70695008314E+01	-5.88201305344E+00	-8.95651009454E-01
1.63148127570E+06	-1.57314338210E+01	1.79122319191E+02	9.06184487117E+00	1.73110931558E+02	-4.25032895265E+01	-1.46992843660E+02	-5.89452049201E+00	-8.06444871804E-01
1.65367263029E+06	-1.52590910675E+01	-1.33821873275E+02	9.13065618895E+00	1.72778670462E+02	-4.34395011988E+01	-9.63763290124E+01	-5.87687877939E+00	-9.47296786711E-01
1.67586398489E+06	-1.39742825593E+01	1.70162587002E+02	9.08402403752E+00	1.73030040557E+02	-4.74985519424E+01	-1.40968067433E+01	-5.88923798918E+00	-9.00474731416E-01
1.69805533948E+06	-1.71136646189E+01	1.77862951307E+02	9.07790389495E+00	1.72884014705E+02	-4.44790853840E+01	1.36634716699E+02	-5.84009956942E+00	-9.84134863063E-01
1.72024669408E+06	-1.32287431590E+01	-1.53176824546E+02	9.07791217331E+00	1.72561615677E+02	-3.83567578930E+01	6.33157739611E+01	-5.90868939130E+00	-1.22622869932E+00
1.74243804867E+06	-1.64292504087E+01	-1.65720567884E+02	9.07159995415E+00	1.72585487784E+02	-4.44904756114E+01	-5.33042052213E+01	-5.88490207146E+00	-9.58069370454E-01
1.76462940327E+06	-2.20616667438E+01	-1.68014389526E+02	9.08979518408E+00	1.72504429269E+02	-4.10276796644E+01	1.07501131575E+02	-5.87914840173E+00	-9.37618922819E-01
1.78682075786E+06	-1.51297757872E+01	-1.59823680270E+02	9.06045325811E+00	1.72298647830E+02	-4.39253132299E+01	-1.39728447098E+01	-5.86296675084E+00	-9.35340891765E-01
1.80901211246E+06	-1.42022956095E+01	1.63582933261E+02	9.07380606984E+00	1.72277148215E+02	-4.74394014967E+01	1.10977566335E+02	-5.85245533004E+00	-9.98166903608E-01
1.83120346705E+06	-1.45323288608E+01	-1.67877562229E+02	9.09283179963E+00	1.72043949787E+02	-3.76691144440E+01	9.36511588135E+01	-5.85703345885E+00	-1.19252720598E+00
1.85339482165E+06	-1.59911078907E+01	-1.74870369752E+02	9.07075092768E+00	1.72111835338E+02	-4.34120171018E+01	9.76632060497E+01	-5.86534661440E+00	-1.13146636169E+00
1.87558617624E+06	-1.58868014635E+01	-1.50521424731E+02	9.07867103620E+00	1.71861580025E+02	-4.74878482374E+01	1.78453460857E+02	-5.87326550456E+00	-8.63984356786E-01
1.89777753084E+06	-1.45098175733E+01	-1.47525815953E+02	9.08461943077E+00	1.71770607989E+02	-4.23382028460E+01	1.30546065946E+02	-5.86216418629E+00	-1.16576598547E+00
1.91996888543E+06	-1.00964138855E+01	1.71675392611E+02	9.02134262897E+00	1.71495542423E+02	-6.25569812950E+01	3.19357550818E+01	-5.88160570485E+00	-1.09467652672E+00
1.94216024003E+06	-1.60880088767E+01	-1.69127972172E+02	9.07292893898E+00	1.71806412195E+02	-2.90848826742E+01	-6.94344897346E+00	-5.93809544413E+00	-1.43844309785E+00
1.96435159462E+06	-1.90636561147E+01	-1.71326054696E+02	9.07417626927E+00	1.71576418416E+02	-4.44927909592E+01	-7.94298819394E+01	-5.89302143890E+00	-8.77855319468E-01
1.98654294922E+06	-1.38897736859E+01	-1.48753991079E+02	9.09101320018E+00	1.71159386786E+02	-4.70277484808E+01	1.43698619674E+02	-5.88357923276E+00	-1.13494557578E+00
2.00873430381E+06	-1.37747874306E+01	-1.70635189493E+02	9.07487719175E+00	1.71159870986E+02	-4.07811580574E+01	-1.02889609514E+02	-5.89926244516E+00	-9.37930782200E-01
2.03092565841E+06	-1.29538198104E+01	1.77959482153E+02	9.06553372327E+00	1.71040643052E+02	-4.11965642016E+01	1.19811202889E+02	-5.86160722426E+00	-1.09423490844E+00
2.05311701300E+06	-1.63941418182E+01	-1.39908516502E+02	9.10743851358E+00	1.71150172767E+02	-4.45012304177E+01	7.12390865420E+01	-5.88000315746E+00	-1.12117310590E+00
2.07530836760E+06	-1.25417004737E+01	-1.40894324792E+02	9.11194767384E+00	1.70838287882E+02	-4.96650582151E+01	4.10944612504E+01	-5.86342862511E+00	-1.28814361990E+00
2.09749972219E+06	-1.89036489079E+01	-1.76568793386E+02	9.13491608109E+00	1.70980380004E+02	-3.46338034705E+01	-7.97599211862E+01	-5.89510528364E+00	-7.95432343625E-01
2.11969107679E+06	-1.37545111181E+01	-1.57026036730E+02	9.11086575843E+00	1.70570526499E+02	-4.23967302620E+01	5.10804330033E+01	-5.86304166623E+00	-1.32530154118E+00
2.14188243138E+06	-1.64530600622E+01	-1.69966504068E+02	9.11399934162E+00	1.70531615771E+02	-4.76466874857E+01	-1.22476277022E+02	-5.85974092205E+00	-1.11719902004E+00
2.16407378598E+06	-1.58260719091E+01	-1.56453226049E+02	9.09826982976E+00	1.70508603431E+02	-4.68410149608E+01	1.13922382624E+02	-5.87664461909E+00	-1.03208191537E+00
2.18626514057E+06	-1.23213295920E+01	-1.67042847972E+02	9.08768777935E+00	1.70294527259E+02	-4.12072155706E+01	-1.56136748271E+02	-5.82509952528E+00	-9.99593022588E-01
2.20845649517E+06	-2.10074550048E+01	-1.50486445940E+02	9.13222461619E+00	1.70327928890E+02	-4.37146817356E+01	1.13865717382E+02	-5.88246803984E+00	-1.23138193700E+00
2.23064784976E+06	-8.00848187833E+00	-1.77072286052E+02	9.06177355883E+00	1.69739780135E+02	-4.39930109170E+01	-1.22153163429E+02	-5.86621047942E+00	-1.00396117738E+00
2.25283920436E+06	-1.16051596177E+01	-1.61096791007E+02	9.07608917322E+00	1.69880087623E+02	-3.59183936665E+01	-1.34337664575E+02	-5.88426810498E+00	-9.63904878632E-01
2.27503055895E+06	-1.24124625874E+01	-1.51548132604E+02	9.10803378929E+00	1.69761450864E+02	-4.00911614100E+01	-6.31520326283E+01	-5.91374147927E+00	-1.04520853413E+00
2.29722191355E+06	-1.05819116256E+01	-1.58302822518E+02	9.08019713689E+00	1.69360301619E+02	-5.42222358833E+01	7.19619594363E+00	-5.89354311851E+00	-1.10897319056E+00
2.31941326814E+06	-1.50315157388E+01	-1.72124997007E+02	9.09330301221E+00	1.69633658488E+02	-4.41618269443E+01	2.57109274225E+01	-5.88810419201E+00	-1.31840499980E+00
2.34160462274E+06	-1.24493908194E+01	1.78989242135E+02	9.04359027958E+00	1.69577907490E+02	-4.22530234100E+01	1.68143460775E+02	-5.85176432194E+00	-1.19161143811E+00
2.36379597733E+06	-1.40259340674E+01	-1.76487903228E+02	9.08023244890E+00	1.69486910594E+02	-5.11819337170E+01	6.43234078333E+01	-5.86992146232E+00	-1.33706270663E+00
2.38598733193E+06	-2.33948678588E+01	1.50791788448E+02	9.13797719883E+00	1.69586389921E+02	-5.95150962228E+01	-1.13581337231E+02	-5.86669245505E+00	-1.18235079167E+00
2.40817868652E+06	-1.11137522887E+01	-1.60288580706E+02	9.08854063344E+00	1.68945556917E+02	-4.31350460277E+01	3.80908570766E+01	-5.89563918400E+00	-1.43022419586E+00
2.43037004112E+06	-1.57493102260E+01	-1.70253406170E+02	9.09539602481E+00	1.69305414706E+02	-3.97510000036E+01	-1.14233682710E+02	-5.88274803795E+00	-1.53756575132E+00
2.45256139571E+06	-1.58704940838E+01	-1.74165305519E+02	9.11345255826E+00	1.69315366819E+02	-4.22439368113E+01	-5.52271436489E+01	-5.88589074304E+00	-1.09785446146E+00
2.47475275031E+06	-1.46128438307E+01	-1.69166723644E+02	9.09225509432E+00	1.68981217204E+02	-5.59789184188E+01	-6.89792841798E+01	-5.88566597872E+00	-1.24024488023E+00
2.49694410490E+06	-1.59168484395E+01	-1.75525385446E+02	9.07981425802E+00	1.68798925961E+02	-4.55703526152E+01	1.91085223751E+01	-5.89939582362E+00	-1.37440159529E+00
2.51913545950E+06	-1.29140126388E+01	-1.56233379160E+02	9.10405857323E+00	1.68813036155E+02	-4.06781241564E+01	-1.25822503736E+02	-5.88812175613E+00	-1.23278917562E+00
2.54132681409E+06	-1.05111444907E+01	-1.61160052750E+02	9.09034990488E+00	1.68283422715E+02	-5.19814382914E+01	-7.85804805966E+01	-5.89224224202E+00	-1.27492385129E+00
2.56351816869E+06	-1.16846274543E+01	1.79866814421E+02	9.05351386593E+00	1.68429187812E+02	-3.77359123826E+01	8.42410674825E+00	-5.88673079138E+00	-1.44360312176E+00
2.58570952328E+06	-1.30040581965E+01	-1.65372857414E+02	9.06209779872E+00	1.68417326460E+02	-5.56764721536E+01	-1.25626378638E+02	-5.89477199483E+00	-1.37772474853E+00
2.60790087788E+06	-1.49223251410E+01	-1.65086306996E+02	9.10247861939E+00	1.68489317824E+02	-5.62367634058E+01	-9.06621253269E+01	-5.87195722621E+00	-1.24177254851E+00
2.63009223247E+06	-1.37846772618E+01	-1.54697578222E+02	9.13059952467E+00	1.68106954671E+02	-4.50315695918E+01	-1.30396520087E+02	-5.90004329655E+00	-8.01653728891E-01
2.65228358707E+06	-1.15907962803E+01	-1.77543550538E+02	9.04901647770E+00	1.67843041872E+02	-5.75480002385E+01	1.60688901946E+02	-5.88640977198E+00	-1.48911391181E+00
2.67447494166E+06	-1.31459408026E+01	-1.57936661211E+02	9.07462410924E+00	1.68106102549E+02	-3.83998183035E+01	-4.31532217662E+01	-5.92084963815E+00	-1.45945798813E+00
2.69666629626E+06	-1.03962183463E+01	1.72514885546E+02	9.03628888476E+00	1.67693095017E+02	-5.50399188431E+01	-1.15551089109E+02	-5.87638329918E+00	-1.39826424939E+00
2.71885765085E+06	-1.35033479059E+01	-1.55238773972E+02	9.13674668479E+00	1.67568475970E+02	-4.50707585357E+01	1.02625647335E+02	-5.86144358214E+00	-1.45959304307E+00
2.74104900545E+06	-1.27729070816E+01	-1.63712832110E+02	9.10344495234E+00	1.67526903178E+02	-3.97910253980E+01	-1.13367314645E+02	-5.87857493504E+00	-1.27564108850E+00
2.76324036004E+06	-1.29295469140E+01	-1.67370018061E+02	9.09665023384E+00	1.67599294028E+02	-4.54234794841E+01	-1.23465880885E+02	-5.87626293850E+00	-1.30484926779E+00
2.78543171463E+06	-1.29631664678E+01	-1.57267736826E+02	9.12406872178E+00	1.67467825255E+02	-4.56224934763E+01	-9.23275757779E+01	-5.88677991986E+00	-1.31902154470E+00
2.80762306923E+06	-1.44608123577E+01	-1.54631258788E+02	9.12186928619E+00	1.67388854467E+02	-4.51120029994E+01	-1.67243630537E+02	-5.85961139911E+00	-1.43522239229E+00
2.82981442382E+06	-1.36446530188E+01	-1.59423474245E+02	9.14391892088E+00	1.67017368346E+02	-4.41403556144E+01	-1.24799573255E+01	-5.90559031188E+00	-1.45363373562E+00
2.85200577842E+06	-1.18146847553E+01	-1.59939865569E+02	9.10509599672E+00	1.66907965482E+02	-4.70811479326E+01	-9.64612085413E+01	-5.89669399323E+00	-1.42539621116E+00
2.87419713301E+06	-1.34514939936E+01	-1.56691807743E+02	9.11919274818E+00	1.66812878222E+02	-4.75176601586E+01	6.24732256380E+00	-5.88449079175E+00	-1.56698385237E+00
