# Hz S DB R 50
! CMT, M5065, 19127446, 24.2.4/2
! Date: 11/8/2024 4:50:58 PM
! Data: Format (Calibration Info)
! Freq	S11:dB/Ang(F2)	S21:dB/Ang(F2)	S12:dB/Ang(F2)	S22:dB/Ang(F2)
3.00000000000E+05	-1.71440863412E+01	1.72740554093E+02	5.19869757498E+00	-1.77277661421E+02	-4.38642379595E+01	-1.09626169860E+02	-5.86801139577E+00	-2.44440300693E-01
3.22191354595E+05	-1.34890820417E+01	1.72949735580E+02	5.23663823508E+00	-1.77656293081E+02	-5.27495201240E+01	-3.25923274008E+01	-5.92253814960E+00	-4.28780085057E-01
3.44382709190E+05	-1.17670610143E+01	1.75754895834E+02	5.20180769852E+00	-1.77708872100E+02	-4.70224458406E+01	-4.08254258684E+01	-5.88699771126E+00	-2.48239799192E-01
3.66574063785E+05	-1.91049812886E+01	-1.65419578439E+02	5.24973639307E+00	-1.78409509048E+02	-5.07342011160E+01	-1.47690800730E+02	-5.85977911066E+00	-2.90090448866E-01
3.88765418380E+05	-1.42948522472E+01	-1.69716812501E+02	5.16071660073E+00	-1.79072976378E+02	-5.57641384503E+01	-5.25864131586E+01	-5.88050480221E+00	-3.43038394097E-01
4.10956772975E+05	-1.70727204750E+01	1.44455495415E+02	5.23903576811E+00	-1.78489929447E+02	-4.37448100379E+01	4.79313111957E+01	-5.89068566986E+00	-2.57433921816E-01
4.33148127570E+05	-1.15267989880E+01	1.64301253519E+02	5.21508001213E+00	-1.79039822623E+02	-5.91780786345E+01	7.59079509501E+01	-5.87044076702E+00	-4.25274352950E-01
4.55339482165E+05	-1.54186224504E+01	-1.62656185486E+02	5.26923941494E+00	-1.79511069810E+02	-4.27338141206E+01	1.50464769959E+02	-5.86344527339E+00	-3.72464487480E-01
4.77530836760E+05	-1.95559809930E+01	-1.72523555703E+02	5.25198962725E+00	-1.79842568770E+02	-5.65652569506E+01	1.25331617227E+02	-5.85145498486E+00	-4.47761712707E-01
4.99722191355E+05	-1.57085582130E+01	1.65789063874E+02	5.19759193191E+00	-1.79825699286E+02	-4.13984147101E+01	-1.44278318254E+02	-5.87069185024E+00	-3.94150957235E-01
5.21913545950E+05	-1.64165055964E+01	1.49871812337E+02	5.26762121283E+00	-1.79737361313E+02	-4.65666335982E+01	6.46155170208E+01	-5.86829617601E+00	-4.19641199538E-01
5.44104900545E+05	-1.92195730594E+01	-1.62778116234E+02	5.23727275942E+00	1.79826152765E+02	-4.54524578897E+01	-3.25735257733E+00	-5.86440435639E+00	-3.90602191328E-01
5.66296255139E+05	-1.48546624265E+01	1.75339350623E+02	5.24048933003E+00	1.79821096918E+02	-5.55979751037E+01	-1.54623887750E+02	-5.85525654961E+00	-4.58286151963E-01
5.88487609734E+05	-9.57362959062E+00	-1.56459829113E+02	5.17802669232E+00	1.79704482013E+02	-5.62370724312E+01	1.54692019022E+02	-5.85703277280E+00	-4.51993929049E-01
6.10678964329E+05	-1.39527271552E+01	1.78193800067E+02	5.20418171041E+00	1.79514672156E+02	-3.65466606948E+01	-1.34494073389E+02	-5.86163499465E+00	2.78265821864E-01
6.32870318924E+05	-1.50623705916E+01	-1.57876140221E+02	5.21925455700E+00	1.79297509638E+02	-4.76857350672E+01	1.40974992905E+02	-5.88539179291E+00	-1.45812377272E-01
6.55061673519E+05	-1.48279269221E+01	-1.73211615684E+02	5.22178846798E+00	1.78988467293E+02	-4.47155294614E+01	4.03780539599E+00	-5.88790618899E+00	-4.29783892716E-01
6.77253028114E+05	-1.41168149434E+01	-1.71690245160E+02	5.21645496163E+00	1.79082967270E+02	-3.84520236767E+01	4.66761970676E+01	-5.87482618863E+00	-8.48455669631E-01
6.99444382709E+05	-1.69638793125E+01	-1.60238419674E+02	5.23631610366E+00	1.78509184119E+02	-4.24674507906E+01	-1.30796803454E+02	-5.85297031054E+00	-4.42382455284E-01
7.21635737304E+05	-1.19138786623E+01	-1.76620092131E+02	5.22351946680E+00	1.79016632530E+02	-4.82716332905E+01	-3.28247716183E+01	-5.88514707919E+00	-4.08762115275E-01
7.43827091899E+05	-1.19592110825E+01	-1.78582293291E+02	5.19423060420E+00	1.78699574794E+02	-4.71704873133E+01	1.49144635142E+02	-5.88885736150E+00	-4.81979467304E-01
7.66018446494E+05	-1.15405673479E+01	1.67025423975E+02	5.21652884579E+00	1.78677541188E+02	-4.29991283250E+01	1.00727232213E+02	-5.86847220218E+00	-4.93280951981E-01
7.88209801089E+05	-1.48619877940E+01	1.79979142124E+02	5.24577697993E+00	1.78505760589E+02	-4.58084930987E+01	-1.78081071336E+02	-5.86387508765E+00	-3.97605459335E-01
8.10401155684E+05	-1.90506407207E+01	-1.73280234829E+02	5.23074116649E+00	1.78265108646E+02	-4.76456974007E+01	1.60342509607E+02	-5.87408016797E+00	-4.41093617351E-01
8.32592510279E+05	-1.12156894395E+01	-1.63384802929E+02	5.21344667913E+00	1.77452353619E+02	-4.06346062494E+01	2.46258691890E+01	-5.89100582717E+00	-3.91932858184E-01
8.54783864874E+05	-1.34647395072E+01	1.77067850774E+02	5.19324332151E+00	1.77910636320E+02	-4.87627426632E+01	-1.67330182837E+02	-5.85591658173E+00	-3.69880359134E-01
8.76975219469E+05	-1.82147478813E+01	1.60585416179E+02	5.25988098907E+00	1.78047412506E+02	-4.80305815306E+01	1.72020578143E+02	-5.87657184615E+00	-5.25342742754E-01
8.99166574064E+05	-1.38365341191E+01	-1.76943795038E+02	5.20554680103E+00	1.77874108109E+02	-4.90558028830E+01	3.30668631140E+00	-5.86464651229E+00	-6.43149555533E-01
9.21357928659E+05	-9.04149944074E+00	1.75198218375E+02	5.15743787490E+00	1.77807082302E+02	-4.41385102084E+01	-8.47601967687E+01	-5.88434482325E+00	-4.97293868316E-01
9.43549283254E+05	-1.57951241570E+01	1.73970748078E+02	5.22730033984E+00	1.77525083779E+02	-4.14471052835E+01	-1.19349622585E+02	-5.85283638488E+00	-4.90839947247E-01
9.65740637849E+05	-1.35981653949E+01	-1.65812347831E+02	5.20686312593E+00	1.77358393197E+02	-4.50981657665E+01	-9.41868033674E+01	-5.85484487877E+00	-4.06620932850E-01
9.87931992444E+05	-1.39530954482E+01	-1.73020358354E+02	5.22861505229E+00	1.77476040949E+02	-4.88210831308E+01	1.75003203126E+02	-5.84034911945E+00	-4.58104530624E-01
1.01012334704E+06	-1.26899794618E+01	1.77315027683E+02	5.18821317746E+00	1.77307272014E+02	-4.33573852499E+01	-7.07943064586E+00	-5.85844598772E+00	-4.89288248608E-01
1.03231470163E+06	-1.39421870865E+01	-1.78297624280E+02	5.24440858820E+00	1.77153543390E+02	-4.29664529580E+01	-1.34348173970E+02	-5.85929624896E+00	-5.64378891113E-01
1.05450605623E+06	-1.30321513583E+01	-1.60123424671E+02	5.23136647154E+00	1.76908826203E+02	-4.78337678680E+01	6.43270976968E+01	-5.87017761570E+00	-6.18898862912E-01
1.07669741082E+06	-1.51520209672E+01	-1.54854403359E+02	5.31607881053E+00	1.76775854668E+02	-6.12769443328E+01	1.82530522716E+01	-5.85392020920E+00	-7.86505601371E-01
1.09888876542E+06	-1.30733220880E+01	-1.79246729045E+02	5.25129752155E+00	1.76806922425E+02	-4.27730084519E+01	1.61366406665E+02	-5.87102612105E+00	-5.92328275642E-01
1.12108012001E+06	-1.37919576655E+01	-1.67841279947E+02	5.24081606597E+00	1.76645143162E+02	-4.73454503228E+01	1.34304205647E+02	-5.89041256323E+00	-6.50481634936E-01
1.14327147461E+06	-1.26604631606E+01	-1.66611348386E+02	5.22075881850E+00	1.76590482984E+02	-5.22676190155E+01	2.72780807785E+01	-5.88669230383E+00	-6.39311430801E-01
1.16546282920E+06	-1.50063956507E+01	-1.72007780147E+02	5.24098726931E+00	1.76486005300E+02	-4.65379808255E+01	4.95264277071E+01	-5.88072387407E+00	-5.67626091898E-01
1.18765418380E+06	-1.49537054868E+01	-1.60867468025E+02	5.25872468505E+00	1.76277928323E+02	-4.69143080608E+01	-8.28952838609E+01	-5.87950923602E+00	-6.23227708419E-01
1.20984553839E+06	-1.30170426955E+01	1.69037489798E+02	5.20701161292E+00	1.76412201854E+02	-4.13318090193E+01	4.41548619448E+01	-5.87375956525E+00	-9.02917220630E-01
1.23203689299E+06	-1.26925095226E+01	-1.58174258511E+02	5.23533979842E+00	1.76330968092E+02	-4.81433860677E+01	8.03370849635E+01	-5.85039406878E+00	-3.34249491121E-01
1.25422824758E+06	-1.38303116362E+01	-1.75597003202E+02	5.17940507978E+00	1.76260943171E+02	-3.84366155622E+01	1.79011993668E+02	-5.87029091032E+00	-6.40655337082E-01
1.27641960218E+06	-1.55711956655E+01	1.74171770435E+02	5.22112560413E+00	1.76251221383E+02	-4.93610411589E+01	-1.52857945687E+02	-5.86869639993E+00	-6.61971244180E-01
1.29861095677E+06	-1.26048674217E+01	-1.72762339686E+02	5.24338949526E+00	1.75801099982E+02	-4.43849177650E+01	-1.52974034712E+02	-5.87573113687E+00	-5.23040592349E-01
1.32080231137E+06	-1.67775396597E+01	-1.73089515402E+02	5.25358990631E+00	1.76001652368E+02	-4.38574436103E+01	-1.28174391421E+02	-5.88516071194E+00	-9.09729249569E-01
1.34299366596E+06	-1.47304212330E+01	-1.46695189537E+02	5.27026125383E+00	1.75750423738E+02	-4.57293646681E+01	-5.84313106377E+01	-5.85934485474E+00	-7.18676971469E-01
1.36518502056E+06	-1.22420114096E+01	-1.62254180689E+02	5.21949372552E+00	1.75695977058E+02	-4.40772122925E+01	-6.96894015541E+01	-5.87490897433E+00	-6.27047863002E-01
1.38737637515E+06	-1.00076228203E+01	-1.54722361338E+02	5.25462538295E+00	1.75203317543E+02	-4.20919168232E+01	-1.14104407072E+02	-5.86250594792E+00	-7.14773984074E-01
1.40956772975E+06	-1.43771008033E+01	-1.56755882717E+02	5.25935120787E+00	1.75170709269E+02	-3.73449873683E+01	-1.50552221431E+02	-5.85324460539E+00	-5.46391661129E-01
1.43175908434E+06	-1.41692372956E+01	-1.60623337279E+02	5.23500437491E+00	1.75200554253E+02	-4.74225193896E+01	1.22729142726E+02	-5.86248771242E+00	-7.09878656919E-01
1.45395043894E+06	-1.30128845895E+01	-1.65217193765E+02	5.25405973093E+00	1.75348840732E+02	-4.56355325451E+01	-6.97108759610E+01	-5.87480828390E+00	-8.24782082595E-01
1.47614179353E+06	-1.31415792768E+01	-1.59391626516E+02	5.23834231242E+00	1.74988541946E+02	-4.93860815113E+01	3.78138673201E+01	-5.88753183879E+00	-8.90933393165E-01
1.49833314813E+06	-1.21938392436E+01	1.73696439332E+02	5.22123004197E+00	1.75419671326E+02	-5.07298615288E+01	-5.68199685319E+01	-5.88093793024E+00	-7.81729722643E-01
1.52052450272E+06	-1.54567882840E+01	-1.59843252296E+02	5.23338637887E+00	1.74882584121E+02	-4.56682760472E+01	6.76760419666E+01	-5.89036595302E+00	-1.07646627292E+00
1.54271585732E+06	-1.39597809193E+01	-1.34351963210E+02	5.28095649290E+00	1.74586052309E+02	-4.92056572170E+01	-1.55783157145E+01	-5.86984099455E+00	-8.12210365419E-01
1.56490721191E+06	-1.32198972210E+01	-1.42746969280E+02	5.32366701011E+00	1.74414318099E+02	-3.96741052964E+01	7.51123140642E+01	-5.88470632613E+00	-8.35285163147E-01
1.58709856651E+06	-1.26844266268E+01	-1.61192277629E+02	5.22327920142E+00	1.74561462515E+02	-4.50011592559E+01	1.79957668718E+02	-5.86331218676E+00	-9.94046518934E-01
1.60928992110E+06	-1.40691237670E+01	1.79141909558E+02	5.21724640949E+00	1.74576695253E+02	-3.89945611090E+01	1.45882236966E+02	-5.85365987695E+00	-8.30502307841E-01
1.63148127570E+06	-1.98011800986E+01	-1.61003549357E+02	5.29358522790E+00	1.74738791083E+02	-6.18849395343E+01	-4.35956924109E+01	-5.88200505826E+00	-7.48917432672E-01
1.65367263029E+06	-1.28091015394E+01	-1.66398069855E+02	5.20083390482E+00	1.74422598094E+02	-5.15052996146E+01	-1.74941472214E+02	-5.87321085965E+00	-7.90865831946E-01
1.67586398489E+06	-1.27768668622E+01	1.77711315954E+02	5.22783086811E+00	1.74082857462E+02	-4.81193508080E+01	1.58488796570E+01	-5.88536343645E+00	-1.06715684423E+00
1.69805533948E+06	-1.71272093993E+01	-1.68475564358E+02	5.22920674559E+00	1.73858174306E+02	-4.51330105636E+01	-5.98096614262E+01	-5.85954966654E+00	-9.21719945331E-01
1.72024669408E+06	-1.49079802736E+01	1.75531295464E+02	5.25798928147E+00	1.74134587001E+02	-3.81606793240E+01	5.21666201097E+01	-5.87343611977E+00	-9.92109929613E-01
1.74243804867E+06	-1.48990859681E+01	-1.60048108165E+02	5.21761925670E+00	1.73777900249E+02	-5.65946119045E+01	4.68352119604E+01	-5.88595082514E+00	-8.70631182007E-01
1.76462940327E+06	-1.68364803917E+01	-1.77752496248E+02	5.27631498276E+00	1.74103879163E+02	-4.48150780158E+01	4.28243334110E+01	-5.86150058367E+00	-9.82243301479E-01
1.78682075786E+06	-1.31633814297E+01	-1.54246580550E+02	5.29057599443E+00	1.73829945021E+02	-4.31984025476E+01	-1.27053463792E+02	-5.86928166064E+00	-9.00411190511E-01
1.80901211246E+06	-1.47417269786E+01	1.79072953174E+02	5.23687284686E+00	1.73467857067E+02	-4.31520153545E+01	-1.43972531341E+02	-5.87995628999E+00	-9.24062367125E-01
1.83120346705E+06	-1.54955478544E+01	-1.49713985253E+02	5.25562689139E+00	1.73760335527E+02	-4.82288249136E+01	2.58669386277E+01	-5.89535106476E+00	-1.03473885913E+00
1.85339482165E+06	-1.41611558711E+01	-1.44589453849E+02	5.23557676278E+00	1.73631516167E+02	-4.32685308907E+01	-5.15621581765E+01	-5.87306148005E+00	-9.61741369603E-01
1.87558617624E+06	-1.36917529843E+01	-1.66773683008E+02	5.21455324616E+00	1.73371476335E+02	-4.59654698439E+01	-3.50644583969E+00	-5.87334849982E+00	-1.04219397045E+00
1.89777753084E+06	-1.68669297700E+01	-1.58493703677E+02	5.26680465044E+00	1.73280403683E+02	-4.37680531754E+01	1.36298338959E+02	-5.86542436443E+00	-9.36850166652E-01
1.91996888543E+06	-1.50525654144E+01	-1.60580307921E+02	5.25123871746E+00	1.73106615087E+02	-4.58192018007E+01	-1.07115028700E+02	-5.87479485370E+00	-9.41457585806E-01
1.94216024003E+06	-1.47552191277E+01	-1.58980477699E+02	5.28284009641E+00	1.73185905586E+02	-4.53813101124E+01	-1.46461783263E+02	-5.86451413227E+00	-1.12116574738E+00
1.96435159462E+06	-1.25721318992E+01	-1.53387100301E+02	5.20234142190E+00	1.72505613878E+02	-4.44255854896E+01	-1.14595621042E+02	-5.86898605105E+00	-9.19727601209E-01
1.98654294922E+06	-1.31263356009E+01	-1.75241151168E+02	5.23847729815E+00	1.73031179611E+02	-4.78472749223E+01	5.09356773114E+01	-5.88476178521E+00	-1.21257845852E+00
2.00873430381E+06	-1.51266798532E+01	-9.53856823024E+01	5.30391888178E+00	1.73162018280E+02	-4.16756609378E+01	1.33361537291E+02	-5.84663431110E+00	-1.01637759900E+00
2.03092565841E+06	-1.64558067685E+01	1.65313459249E+02	5.28493334406E+00	1.73080086825E+02	-3.42502851667E+01	-6.71383584221E+01	-5.91084184295E+00	-9.31523775089E-01
2.05311701300E+06	-1.73425872460E+01	1.72252706448E+02	5.24951515469E+00	1.72976017941E+02	-4.20377831028E+01	-4.62305601866E+01	-5.88108684767E+00	-1.10236947006E+00
2.07530836760E+06	-1.56744582705E+01	1.73905858734E+02	5.21254332158E+00	1.72948141092E+02	-5.01136677183E+01	-3.37441801927E+01	-5.88906806015E+00	-1.00896094762E+00
2.09749972219E+06	-1.45550521839E+01	-1.58869713767E+02	5.29785843955E+00	1.72471894060E+02	-4.69896258572E+01	-1.16778868139E+02	-5.86605823734E+00	-9.95948449416E-01
2.11969107679E+06	-1.06139233638E+01	-1.65485311494E+02	5.21311294229E+00	1.72109622684E+02	-4.13478463830E+01	-1.09018721703E+02	-5.87362054956E+00	-1.04918927005E+00
2.14188243138E+06	-1.23613441285E+01	-1.59899830511E+02	5.22845434122E+00	1.72204535086E+02	-5.71039754675E+01	1.66374602353E+02	-5.88250833621E+00	-1.24499888043E+00
2.16407378598E+06	-1.84097783997E+01	-1.78096020223E+02	5.24154907109E+00	1.72249794913E+02	-4.07785488669E+01	1.54229661869E+02	-5.86566846817E+00	-9.92854948354E-01
2.18626514057E+06	-1.05696918674E+01	-1.77591331612E+02	5.24129057381E+00	1.71779456008E+02	-3.16889291976E+01	1.42474609012E+02	-5.87421737395E+00	-1.07106016002E+00
2.20845649517E+06	-1.54664809049E+01	-1.78343048056E+02	5.23317003526E+00	1.72083954335E+02	-3.53831033303E+01	-1.47587239378E+02	-5.84872631301E+00	-8.45044043359E-01
2.23064784976E+06	-1.61973815598E+01	-1.55523808442E+02	5.28216490674E+00	1.71966208918E+02	-5.07056495836E+01	-5.24620829815E+01	-5.87636644922E+00	-1.03795653388E+00
2.25283920436E+06	-1.13037012875E+01	-1.64756178632E+02	5.23346451079E+00	1.71991690873E+02	-5.01110640762E+01	1.56088957057E+02	-5.83994737350E+00	-1.04660513537E+00
2.27503055895E+06	-1.58460225971E+01	-1.63425343166E+02	5.25911657677E+00	1.71767640368E+02	-4.81106876358E+01	-1.55366979576E+02	-5.85790907788E+00	-1.09169509597E+00
2.29722191355E+06	-1.38504471171E+01	1.79838809125E+02	5.21451085101E+00	1.71713844501E+02	-5.38490154001E+01	4.59938827333E+01	-5.88785347706E+00	-1.25210493759E+00
2.31941326814E+06	-2.89606146159E+01	-9.13780603134E+01	5.31246471372E+00	1.71865880209E+02	-4.00590594862E+01	1.00107988280E+02	-5.84513372780E+00	-1.33102481706E+00
2.34160462274E+06	-1.06906952316E+01	-1.71606517599E+02	5.24919364960E+00	1.71472373529E+02	-3.89354203760E+01	7.93966829576E+01	-5.87766107546E+00	-1.28046196775E+00
2.36379597733E+06	-1.89955378411E+01	-1.59795399622E+02	5.32416088114E+00	1.71584008805E+02	-5.04400314466E+01	1.48322660249E+02	-5.86737990396E+00	-1.21661425005E+00
2.38598733193E+06	-1.42615288743E+01	-1.49697482210E+02	5.29471725921E+00	1.71490402611E+02	-4.72027481697E+01	1.08335053983E+02	-5.85016788668E+00	-1.14378489910E+00
2.40817868652E+06	-1.43634069514E+01	-1.60195590659E+02	5.23927429764E+00	1.71104273520E+02	-4.85786961949E+01	6.67189087550E+01	-5.86973173026E+00	-1.28377742699E+00
2.43037004112E+06	-1.51626086307E+01	-1.68814435513E+02	5.22404130391E+00	1.71052174502E+02	-5.99179358143E+01	-1.69798348114E+02	-5.87607513835E+00	-1.56258981949E+00
2.45256139571E+06	-1.24267722832E+01	-1.60269961099E+02	5.28268234886E+00	1.71083954677E+02	-5.84959470198E+01	1.61374769044E+02	-5.87692754587E+00	-1.27189103829E+00
2.47475275031E+06	-1.64979700086E+01	-1.79928759500E+02	5.24604427596E+00	1.71342978664E+02	-4.21780619658E+01	-1.46263301083E+02	-5.86887994996E+00	-1.13089856225E+00
2.49694410490E+06	-1.49549490717E+01	-1.59723493080E+02	5.27581132073E+00	1.71051083353E+02	-3.31783436575E+01	5.98803130912E+01	-5.88696738732E+00	-1.58568049325E+00
2.51913545950E+06	-1.34133705226E+01	-1.63067252259E+02	5.26904524949E+00	1.70809056760E+02	-3.43932979050E+01	-1.78499094384E+02	-5.85321535185E+00	-1.12428030760E+00
2.54132681409E+06	-1.15211423814E+01	-1.67062288136E+02	5.24572530128E+00	1.70488344507E+02	-4.50935599092E+01	-3.34291500816E+01	-5.89786634267E+00	-1.26254484220E+00
2.56351816869E+06	-1.48696588509E+01	-1.68687768604E+02	5.28025366898E+00	1.70884177735E+02	-4.23080744572E+01	4.53949290064E+01	-5.88134049310E+00	-1.15867061220E+00
2.58570952328E+06	-1.29496694191E+01	-1.65784490754E+02	5.26753102129E+00	1.70346503757E+02	-5.34659615711E+01	-1.31794245132E+01	-5.89084412657E+00	-1.29852043905E+00
2.60790087788E+06	-1.41444166622E+01	-1.64189572621E+02	5.27399467277E+00	1.70507082347E+02	-4.31907935256E+01	1.41848550451E+02	-5.85568494944E+00	-1.24352087759E+00
2.63009223247E+06	-1.14512609174E+01	1.76942344718E+02	5.21306676086E+00	1.70531464601E+02	-4.64797870720E+01	2.11561757132E+01	-5.88943506506E+00	-9.78737226828E-01
2.65228358707E+06	-1.49537875834E+01	1.76695998828E+02	5.26658462193E+00	1.70424077864E+02	-5.18370215704E+01	-1.56139063768E+02	-5.86909281744E+00	-1.38654515644E+00
2.67447494166E+06	-1.48865886751E+01	-1.56072230865E+02	5.28378377693E+00	1.70161854591E+02	-5.14113920093E+01	1.17159861678E+02	-5.88187786660E+00	-1.41085526296E+00
2.69666629626E+06	-1.17599406369E+01	-1.60385616885E+02	5.26525105330E+00	1.70252627968E+02	-4.64947538881E+01	-8.59990497976E+01	-5.88310015565E+00	-1.30398113635E+00
2.71885765085E+06	-1.24123672026E+01	-1.73109160623E+02	5.24060739768E+00	1.70056225820E+02	-4.58918980867E+01	1.78451631224E+02	-5.85184415355E+00	-1.36978357108E+00
2.74104900545E+06	-1.73342082635E+01	-1.47422314140E+02	5.34820209242E+00	1.70090458820E+02	-4.48919298634E+01	6.46916439834E+01	-5.86879965999E+00	-1.48716600015E+00
2.76324036004E+06	-1.45352295845E+01	1.72201053103E+02	5.23433911851E+00	1.70009736571E+02	-4.63875941110E+01	1.61072699525E+02	-5.85415111642E+00	-1.59899748019E+00
2.78543171463E+06	-1.26586915681E+01	-1.57008333067E+02	5.24953697203E+00	1.69872894886E+02	-4.55628586967E+01	-1.04066714714E+02	-5.87673661163E+00	-1.34996382407E+00
2.80762306923E+06	-1.53258238705E+01	-1.63276183425E+02	5.30960007668E+00	1.69731439291E+02	-3.92989103463E+01	-2.53720096480E+01	-5.90249508490E+00	-1.48988525816E+00
2.82981442382E+06	-1.21393881611E+01	-1.77495563012E+02	5.28111707065E+00	1.69444727497E+02	-4.69690088846E+01	-7.37718702720E+01	-5.87009731985E+00	-1.43316102485E+00
2.85200577842E+06	-1.18780861984E+01	-1.76011202848E+02	5.26124029151E+00	1.69247011339E+02	-5.73797458299E+01	4.93531514450E+01	-5.88387706396E+00	-1.26458552670E+00
2.87419713301E+06	-1.35889793770E+01	-1.60391871621E+02	5.33789735051E+00	1.69298316438E+02	-4.83114678554E+01	-8.79303011794E+01	-5.87405423007E+00	-1.41000299533E+00
