# Hz S DB R 50
! CMT, M5065, 19127446, 24.2.4/2
! Date: 11/8/2024 5:13:07 PM
! Data: Format (Calibration Info)
! Freq	S11:dB/Ang(F2)	S21:dB/Ang(F2)	S12:dB/Ang(F2)	S22:dB/Ang(F2)
3.00000000000E+05	-1.52260697155E+01	1.65905945510E+02	1.11042016113E+01	-1.76998954407E+02	-4.86459097252E+01	1.47969806871E+02	-5.86061562491E+00	-3.92864903044E-01
3.22191354595E+05	-1.29845285726E+01	-1.79166894300E+02	1.10707704162E+01	-1.77863313749E+02	-4.96507285649E+01	1.62230461385E+02	-5.84321483618E+00	-3.84743415313E-01
3.44382709190E+05	-1.13278868095E+01	-1.68524275505E+02	1.10816861501E+01	-1.78313135510E+02	-6.66967012215E+01	-1.32494997503E+02	-5.87270920523E+00	-4.70584053710E-01
3.66574063785E+05	-1.60669842096E+01	-1.70360973150E+02	1.11308718111E+01	-1.78445217443E+02	-4.06428312926E+01	1.19736211514E+02	-5.85603220562E+00	-5.24518430523E-01
3.88765418380E+05	-1.31590731875E+01	-1.68854276971E+02	1.11689710161E+01	-1.78831458943E+02	-5.05587486436E+01	-7.21854609664E+01	-5.87166073838E+00	-2.24824419622E-01
4.10956772975E+05	-1.54979410981E+01	-1.66952548238E+02	1.11508193804E+01	-1.79264947420E+02	-3.92939095661E+01	-1.11369508210E+02	-5.84708323486E+00	-9.62264261897E-02
4.33148127570E+05	-1.41471580182E+01	-1.68240381219E+02	1.11075043146E+01	-1.79458964553E+02	-5.58421150104E+01	-1.06168447281E+02	-5.88628009550E+00	-2.06476039550E-01
4.55339482165E+05	-1.54065318193E+01	-1.65164063943E+02	1.11055596982E+01	-1.79655381116E+02	-6.15574606772E+01	1.31656789219E+02	-5.89732878348E+00	-4.03331580501E-01
4.77530836760E+05	-1.34232781110E+01	1.79251826173E+02	1.10749688158E+01	-1.79782827134E+02	-3.99746447808E+01	3.05051676585E+01	-5.89317144854E+00	-4.08965439086E-01
4.99722191355E+05	-1.24430240208E+01	-1.52872415261E+02	1.10913449376E+01	1.79799037263E+02	-6.22346321008E+01	1.62377836818E+02	-5.87255411171E+00	-4.46238800226E-01
5.21913545950E+05	-1.43506180745E+01	1.76902921423E+02	1.11064278510E+01	1.79660529321E+02	-4.70461342713E+01	-1.45090550418E+01	-5.86866128591E+00	-4.14436873635E-01
5.44104900545E+05	-1.40579125749E+01	-1.63794076589E+02	1.11231607323E+01	1.79298999118E+02	-3.94155814520E+01	-1.08726977119E+02	-5.87551791809E+00	-2.05865645530E-01
5.66296255139E+05	-1.25551667389E+01	-1.72126475556E+02	1.10955534268E+01	1.79005497844E+02	-4.73943844643E+01	4.90521049876E+01	-5.89731819682E+00	-4.60400598719E-01
5.88487609734E+05	-1.50474056180E+01	-1.61934759130E+02	1.11375459174E+01	1.78892921838E+02	-3.08494363244E+01	1.68047681666E+02	-5.82738806014E+00	-4.46836880469E-01
6.10678964329E+05	-1.18694556446E+01	-1.74330041676E+02	1.10827052818E+01	1.78803476890E+02	-4.13623537201E+01	-2.53847493160E+01	-5.89575845933E+00	9.60047670816E-02
6.32870318924E+05	-1.31170784397E+01	1.58874987068E+02	1.11012668497E+01	1.78644568965E+02	-4.31368304477E+01	-1.35689105186E+02	-5.85336331806E+00	-7.02481742724E-02
6.55061673519E+05	-1.12035132648E+01	-1.69629356699E+02	1.11037149492E+01	1.78130372310E+02	-6.18077357241E+01	7.55682481756E+01	-5.85820909393E+00	-1.72612264475E-01
6.77253028114E+05	-1.53927819033E+01	-1.65634804721E+02	1.11532606244E+01	1.77948774231E+02	-4.81683347460E+01	7.37591699579E+01	-5.88356737633E+00	-5.50162003941E-01
6.99444382709E+05	-1.20770360873E+01	-1.78218372514E+02	1.10795657321E+01	1.78177647891E+02	-4.41960366527E+01	1.66471169853E+02	-5.86126513319E+00	-4.70206333173E-01
7.21635737304E+05	-1.26550061984E+01	-1.76308912391E+02	1.10967728520E+01	1.77552344406E+02	-4.81052175070E+01	1.03449497376E+02	-5.88192318129E+00	-3.08031126615E-01
7.43827091899E+05	-1.66765144856E+01	-1.72604413163E+02	1.11302479419E+01	1.77598263509E+02	-4.38033508437E+01	1.58230248961E+02	-5.85057141293E+00	-4.58611352202E-01
7.66018446494E+05	-1.32365684978E+01	-1.75155247931E+02	1.10845497423E+01	1.77568584347E+02	-4.33605767252E+01	-2.14623966944E+01	-5.90992573276E+00	-3.62232352901E-01
7.88209801089E+05	-1.36904904197E+01	-1.76899705026E+02	1.11330551666E+01	1.77277379764E+02	-3.96115760714E+01	-1.34514701307E+00	-5.90392896176E+00	-5.19679263467E-01
8.10401155684E+05	-1.26058115879E+01	-1.61888795320E+02	1.11168556016E+01	1.77009177168E+02	-4.99769298938E+01	-7.08572651852E+01	-5.89191696166E+00	-3.80976817984E-01
8.32592510279E+05	-1.56909972623E+01	-1.77383551305E+02	1.11146632619E+01	1.77174682995E+02	-4.22479803860E+01	1.59402647033E+02	-5.84410510380E+00	-4.65498293908E-01
8.54783864874E+05	-1.24332502651E+01	-1.56392600460E+02	1.11076404761E+01	1.76681045748E+02	-5.19163941943E+01	5.15087274599E+00	-5.90216139519E+00	-4.68783372041E-01
8.76975219469E+05	-1.64475380273E+01	-1.45432302712E+02	1.11463335754E+01	1.76541519541E+02	-5.00845677909E+01	9.85698131752E+01	-5.86709445906E+00	-6.72290160045E-01
8.99166574064E+05	-1.74874986600E+01	1.75983499362E+02	1.11317959920E+01	1.76601649934E+02	-4.48915822133E+01	-1.25692762214E+01	-5.90702920008E+00	-4.88172337502E-01
9.21357928659E+05	-1.23965874930E+01	-1.63256788642E+02	1.10875767842E+01	1.76259318515E+02	-4.58929353490E+01	-5.00680879180E+01	-5.88590784950E+00	-4.51423961796E-01
9.43549283254E+05	-1.05866864628E+01	-1.77130889985E+02	1.10659349594E+01	1.76132562586E+02	-5.09722642088E+01	1.29122387304E+02	-5.88060250620E+00	-6.61466929255E-01
9.65740637849E+05	-1.28984164656E+01	1.79830409871E+02	1.11001956811E+01	1.76212844717E+02	-6.03002788964E+01	1.26347810390E+02	-5.86999327688E+00	-5.79229235464E-01
9.87931992444E+05	-1.26115253464E+01	-1.63201871937E+02	1.11329134584E+01	1.75813329718E+02	-4.36554285248E+01	-8.35345726270E+01	-5.87660882797E+00	-4.12123745306E-01
1.01012334704E+06	-1.42631439680E+01	1.76651374830E+02	1.10735594951E+01	1.75949960986E+02	-3.61014874590E+01	7.68577714082E+01	-5.86771284094E+00	-8.44976440522E-01
1.03231470163E+06	-1.05049514952E+01	-1.50154004969E+02	1.10824841485E+01	1.75149289371E+02	-4.11918409755E+01	-1.36453460633E+01	-5.89212540347E+00	-6.49518845384E-01
1.05450605623E+06	-1.19448006299E+01	1.79514230055E+02	1.11115531582E+01	1.75425461160E+02	-5.20298687157E+01	1.78655676518E+02	-5.86548494181E+00	-5.72310970044E-01
1.07669741082E+06	-1.24571006391E+01	-1.63171065162E+02	1.11336573406E+01	1.75140805040E+02	-3.55727877578E+01	-1.28303572493E+02	-5.87276907592E+00	-9.12417238786E-01
1.09888876542E+06	-1.31742065118E+01	1.77174855508E+02	1.10923658818E+01	1.75338472327E+02	-4.80195610713E+01	-1.79938136303E+02	-5.86583264023E+00	-8.05434076687E-01
1.12108012001E+06	-1.22995373197E+01	-1.75461016863E+02	1.11241814064E+01	1.75125338192E+02	-4.70742273868E+01	-6.71293851062E+01	-5.86561792890E+00	-5.31962610540E-01
1.14327147461E+06	-1.19563838963E+01	-1.71679770787E+02	1.10806830110E+01	1.74951399961E+02	-4.68601256379E+01	6.50673533193E+01	-5.88213975624E+00	-7.79531831804E-01
1.16546282920E+06	-1.45493843198E+01	-1.44354314193E+02	1.11634234256E+01	1.74663814720E+02	-4.93825044565E+01	-2.42253306040E+01	-5.89664092817E+00	-6.28699827499E-01
1.18765418380E+06	-1.33648330211E+01	-1.68383878480E+02	1.11126812335E+01	1.74522578815E+02	-4.75657582408E+01	-5.64562028842E+01	-5.88741334733E+00	-5.89639758911E-01
1.20984553839E+06	-1.40275063945E+01	-1.72386197996E+02	1.10946638743E+01	1.74545743999E+02	-4.24771400469E+01	-1.61565487241E+02	-5.87629740650E+00	-5.53796290803E-01
1.23203689299E+06	-1.16647745378E+01	-1.73436401927E+02	1.10785077448E+01	1.74384954495E+02	-4.55652121425E+01	5.89258945014E+01	-5.88179186242E+00	-4.68661337811E-01
1.25422824758E+06	-1.13962680591E+01	-1.71346087580E+02	1.10704739027E+01	1.74157219945E+02	-4.53099815365E+01	-3.62825795487E+01	-5.90926352887E+00	-7.40710151572E-01
1.27641960218E+06	-1.69338745115E+01	1.51739403167E+02	1.11142564089E+01	1.74473548503E+02	-5.08915264380E+01	-1.41073806569E+02	-5.86299038069E+00	-7.78864820057E-01
1.29861095677E+06	-1.32284343081E+01	-1.67376883922E+02	1.11191460638E+01	1.73966111874E+02	-4.34557604910E+01	1.20011149431E+02	-5.86096086641E+00	-6.94804701954E-01
1.32080231137E+06	-1.09010949299E+01	-1.75153447506E+02	1.10703976432E+01	1.74016137415E+02	-5.36163883560E+01	1.62336727558E+02	-5.85687695317E+00	-1.02369653074E+00
1.34299366596E+06	-1.52344648344E+01	-1.51757585834E+02	1.11388589204E+01	1.73771347874E+02	-5.07137810375E+01	1.69178728262E+02	-5.85157910977E+00	-7.41608887064E-01
1.36518502056E+06	-1.25984426851E+01	-1.71415487200E+02	1.10739620231E+01	1.73538342760E+02	-5.91985736145E+01	1.41817680036E+02	-5.85482525355E+00	-7.24442295876E-01
1.38737637515E+06	-1.43176424676E+01	-1.68845836281E+02	1.11008527402E+01	1.73574641056E+02	-4.46531156023E+01	6.05309995146E+01	-5.87649875701E+00	-9.31620994037E-01
1.40956772975E+06	-1.40450283547E+01	-1.64345362453E+02	1.11187984196E+01	1.73228345227E+02	-4.56591190802E+01	1.46467071986E+02	-5.87369942364E+00	-7.18276176814E-01
1.43175908434E+06	-1.85579068429E+01	-1.54785469527E+02	1.11480573700E+01	1.73495972090E+02	-6.04538671852E+01	1.28442723291E+02	-5.86809621018E+00	-7.23011654329E-01
1.45395043894E+06	-1.44302619279E+01	-1.79328528353E+02	1.11110897851E+01	1.73199357192E+02	-4.27243188854E+01	1.26122322591E+02	-5.88585929198E+00	-9.05940944208E-01
1.47614179353E+06	-1.16227893199E+01	-1.71935872493E+02	1.10873060740E+01	1.73040417356E+02	-4.08085994283E+01	-1.73100357786E+02	-5.84062015081E+00	-7.40732690784E-01
1.49833314813E+06	-1.42372173561E+01	-1.50097528968E+02	1.11755054450E+01	1.72660371799E+02	-4.38642182669E+01	-1.02286372091E+02	-5.87703942795E+00	-7.50318069411E-01
1.52052450272E+06	-1.25880396490E+01	-1.74329153905E+02	1.11097857819E+01	1.72756652318E+02	-4.06938989787E+01	1.66520102969E+02	-5.86481065750E+00	-7.18196359825E-01
1.54271585732E+06	-1.21446855884E+01	-1.64517798599E+02	1.11241033745E+01	1.72394912774E+02	-4.83511110970E+01	1.25086989303E+02	-5.87061313520E+00	-8.36611944736E-01
1.56490721191E+06	-1.34281044811E+01	-1.73534807424E+02	1.10825896271E+01	1.72612666255E+02	-5.18891074678E+01	-1.44382559425E+02	-5.86626635176E+00	-8.41644487121E-01
1.58709856651E+06	-9.98538181366E+00	1.66112474575E+02	1.10917052214E+01	1.72236830018E+02	-5.41834784535E+01	-1.57213718909E+02	-5.86068911908E+00	-6.47317769457E-01
1.60928992110E+06	-1.32508275698E+01	-1.69730733543E+02	1.11034810090E+01	1.72289707962E+02	-4.58836870610E+01	-3.87916856053E+01	-5.89549871766E+00	-8.62123112089E-01
1.63148127570E+06	-1.35023469915E+01	-1.61041548753E+02	1.11149320263E+01	1.72151167447E+02	-4.55862444202E+01	-8.06009036390E-01	-5.88773515180E+00	-8.83394850510E-01
1.65367263029E+06	-1.17782767777E+01	-1.67945844968E+02	1.11167077932E+01	1.71962460803E+02	-4.24700015072E+01	-1.01224244586E+02	-5.86202489296E+00	-6.90658267683E-01
1.67586398489E+06	-1.24456704904E+01	-1.69754346002E+02	1.10997536139E+01	1.71862069750E+02	-4.69688291524E+01	-5.82870079093E+01	-5.85634659992E+00	-9.93656583997E-01
1.69805533948E+06	-1.40399495714E+01	-1.68580962129E+02	1.10873213425E+01	1.71595328265E+02	-4.40459259831E+01	2.33460562213E+01	-5.91750785985E+00	-1.01364916431E+00
1.72024669408E+06	-1.13777561610E+01	1.78075474891E+02	1.10902727687E+01	1.71459526281E+02	-5.83606316753E+01	-3.04564035463E+01	-5.87335521933E+00	-8.73700429701E-01
1.74243804867E+06	-1.14965548882E+01	-1.68691683051E+02	1.10953165681E+01	1.71540466756E+02	-4.61080184644E+01	-1.14033433258E+02	-5.84872670175E+00	-9.08006047458E-01
1.76462940327E+06	-1.21703373557E+01	-1.69139544476E+02	1.11151112260E+01	1.71344734701E+02	-4.54411695313E+01	1.28296027586E+01	-5.88012837261E+00	-1.02248454974E+00
1.78682075786E+06	-1.20130975826E+01	-1.67141637252E+02	1.11212528973E+01	1.71097324351E+02	-5.12172181742E+01	-1.78082207094E+02	-5.86526640785E+00	-9.97629786210E-01
1.80901211246E+06	-1.46122825401E+01	-1.66053192799E+02	1.11170465153E+01	1.71200194834E+02	-4.44251110378E+01	-5.18398637100E+01	-5.90843561664E+00	-7.87870910833E-01
1.83120346705E+06	-1.47141841628E+01	-1.77807351326E+02	1.11342942205E+01	1.70974312521E+02	-3.90970686814E+01	-1.76826403122E+02	-5.83348746413E+00	-7.88804838668E-01
1.85339482165E+06	-1.67944410714E+01	1.61607153044E+02	1.11017654915E+01	1.71231731283E+02	-4.98144619195E+01	-1.61787931256E+01	-5.88372788665E+00	-8.83079715399E-01
1.87558617624E+06	-1.31114332501E+01	1.73314704378E+02	1.11010842373E+01	1.70840192567E+02	-4.51230017588E+01	1.31338627576E+02	-5.87176027552E+00	-9.91213123787E-01
1.89777753084E+06	-1.37407986126E+01	-1.57753467980E+02	1.11190824018E+01	1.70631357418E+02	-5.06087153084E+01	-4.57959179177E+01	-5.88720614015E+00	-8.97081036711E-01
1.91996888543E+06	-1.17826035625E+01	-1.68925536770E+02	1.11129982649E+01	1.70233990808E+02	-4.48497104743E+01	-1.72772148972E+02	-5.86999549299E+00	-9.32883680497E-01
1.94216024003E+06	-1.68198236623E+01	-1.73235688434E+02	1.11466576190E+01	1.70638452210E+02	-3.99671790441E+01	1.51676156499E+02	-5.85937451903E+00	-1.02887968173E+00
1.96435159462E+06	-1.31009224729E+01	-1.62741283006E+02	1.11412424535E+01	1.70125389493E+02	-4.70809196274E+01	-1.57604364365E+02	-5.86362218433E+00	-1.08231499466E+00
1.98654294922E+06	-1.18712433956E+01	-1.73561764089E+02	1.11133996511E+01	1.70073110388E+02	-3.49742247261E+01	-5.11729329707E+01	-5.90796988044E+00	-1.03378003274E+00
2.00873430381E+06	-1.35633601552E+01	1.79876480612E+02	1.11382089152E+01	1.70098975732E+02	-5.54766017122E+01	1.19659784121E+02	-5.86988531818E+00	-1.01368784173E+00
2.03092565841E+06	-1.55003789719E+01	-1.49858801726E+02	1.11390261829E+01	1.69833034201E+02	-4.04765883552E+01	7.19640050281E+01	-5.87003175264E+00	-1.19262190748E+00
2.05311701300E+06	-4.34647478050E+00	1.77870714245E+02	1.10421377428E+01	1.69138973835E+02	-5.26598916644E+01	1.59105496119E+02	-5.86745797313E+00	-8.83681470730E-01
2.07530836760E+06	-1.13679916343E+01	-1.68914251508E+02	1.10965299922E+01	1.69484639133E+02	-4.36528295220E+01	8.88157329345E+01	-5.85613079245E+00	-1.43357612274E+00
2.09749972219E+06	-1.33639717707E+01	-1.56352536747E+02	1.11282844119E+01	1.69412629921E+02	-4.09339460750E+01	9.54195498605E+01	-5.88304216904E+00	-1.36360152854E+00
2.11969107679E+06	-1.11945168244E+01	-1.75903062355E+02	1.10791117321E+01	1.69451656149E+02	-4.91333533797E+01	1.62475076912E+02	-5.85532350952E+00	-9.82199563463E-01
2.14188243138E+06	-1.38107555869E+01	-1.58475092497E+02	1.11283487551E+01	1.69288146377E+02	-3.81061610343E+01	-7.97025509436E+01	-5.87703568799E+00	-9.73324238541E-01
2.16407378598E+06	-1.57610161629E+01	-1.60736288233E+02	1.11295451671E+01	1.69259937467E+02	-4.42490370083E+01	-9.99571835290E+01	-5.87644449531E+00	-9.09513920237E-01
2.18626514057E+06	-1.43517163306E+01	-1.67391847614E+02	1.11261793293E+01	1.69181448721E+02	-6.49703346155E+01	1.62113209870E+02	-5.87932737805E+00	-1.13081921331E+00
2.20845649517E+06	-1.33506663691E+01	-1.77862338148E+02	1.10999720930E+01	1.68815309369E+02	-5.56267625754E+01	8.45149043924E+01	-5.87141359666E+00	-1.18716813886E+00
2.23064784976E+06	-1.43818444160E+01	-1.63918223708E+02	1.11490811653E+01	1.68847957963E+02	-4.27943010059E+01	-6.23719515231E+01	-5.90352510421E+00	-1.08104501275E+00
2.25283920436E+06	-1.11530773027E+01	-1.63908937955E+02	1.11213368859E+01	1.68542255472E+02	-4.93473239745E+01	8.13967816895E+01	-5.86308581349E+00	-1.13475710854E+00
2.27503055895E+06	-1.25664612375E+01	-1.53684771930E+02	1.11202028282E+01	1.68350416227E+02	-4.88131784829E+01	1.03762854012E+02	-5.87214327027E+00	-1.13940199947E+00
2.29722191355E+06	-1.30996962382E+01	-1.63671840544E+02	1.11331597419E+01	1.68472205584E+02	-4.00203131151E+01	1.35286177278E+02	-5.84277977529E+00	-1.03408226054E+00
2.31941326814E+06	-1.23876123542E+01	-1.41734087360E+02	1.11975210565E+01	1.68004725379E+02	-3.76693912026E+01	2.69260928128E+00	-5.90392269652E+00	-1.38349914416E+00
2.34160462274E+06	-1.37766193809E+01	1.76835587920E+02	1.10875821250E+01	1.68210620045E+02	-4.36482854216E+01	1.12916709627E+02	-5.85177600045E+00	-1.29660536900E+00
2.36379597733E+06	-1.79775864487E+01	1.74208314813E+02	1.11275706441E+01	1.68206826299E+02	-4.55742973362E+01	-9.15369793196E+01	-5.88402120225E+00	-1.12229490052E+00
2.38598733193E+06	-1.11724578567E+01	-1.56453891605E+02	1.11322058051E+01	1.67667506814E+02	-4.40595988303E+01	-5.57725548471E+01	-5.90062870133E+00	-1.14118229417E+00
2.40817868652E+06	-1.14679036261E+01	-1.67233446006E+02	1.11226047604E+01	1.67654450078E+02	-4.34423902944E+01	-3.87350129276E+01	-5.89659016293E+00	-1.40173175363E+00
2.43037004112E+06	-1.19945627631E+01	1.79599757519E+02	1.11192612845E+01	1.67661398163E+02	-4.36064426224E+01	-1.68043981518E+02	-5.84652968256E+00	-1.52948536286E+00
2.45256139571E+06	-1.05768281248E+01	1.72991670245E+02	1.10985464530E+01	1.67562293162E+02	-4.24276931395E+01	4.91891133541E+01	-5.87183801238E+00	-1.37072657775E+00
2.47475275031E+06	-1.48644229565E+01	-1.74053163063E+02	1.11633295680E+01	1.67577082094E+02	-3.65644988529E+01	-5.33359723926E+01	-5.91048902652E+00	-1.43228450444E+00
2.49694410490E+06	-1.47124296143E+01	-1.60639520170E+02	1.11484494764E+01	1.67307815573E+02	-4.69094331642E+01	6.18778252640E+01	-5.87542814031E+00	-1.37998043258E+00
2.51913545950E+06	-1.54018887087E+01	-1.39168375548E+02	1.11915004925E+01	1.67019477639E+02	-4.81145645145E+01	-2.45654727666E+01	-5.90570080230E+00	-1.29903473112E+00
2.54132681409E+06	-1.14316968651E+01	-1.77668670438E+02	1.11099534721E+01	1.67198194442E+02	-5.04168281302E+01	-2.45481055331E+01	-5.89772351954E+00	-1.26653591855E+00
2.56351816869E+06	-1.47593711503E+01	-1.65592735354E+02	1.11592410984E+01	1.67091444286E+02	-4.83234016660E+01	-1.04057967052E+02	-5.87443753477E+00	-1.29238386648E+00
2.58570952328E+06	-1.25780776383E+01	-1.63682676323E+02	1.11481331631E+01	1.66720620944E+02	-4.79963077354E+01	-1.22382939278E+02	-5.88744895294E+00	-1.26274396962E+00
2.60790087788E+06	-1.28482497708E+01	-1.69142954884E+02	1.11382518349E+01	1.66569756348E+02	-4.00550398353E+01	1.57245195943E+02	-5.86384871185E+00	-1.13687758725E+00
2.63009223247E+06	-1.28653573339E+01	-1.63896473616E+02	1.11334332063E+01	1.66572963327E+02	-3.03998042302E+01	-1.95432732630E+01	-5.94445506317E+00	-1.34593347973E+00
2.65228358707E+06	-1.26404266280E+01	-1.57195016525E+02	1.11851961718E+01	1.66185514429E+02	-4.53611458872E+01	8.70999335990E+01	-5.85967539915E+00	-1.49143092062E+00
2.67447494166E+06	-1.33403098417E+01	-1.54403075444E+02	1.11830700629E+01	1.66290345855E+02	-4.65209808828E+01	-5.51680155589E+01	-5.89138230445E+00	-1.31838874156E+00
2.69666629626E+06	-1.27039654186E+01	-1.61388693577E+02	1.11610238292E+01	1.66087886873E+02	-5.56781250995E+01	9.55796317310E+00	-5.85774944196E+00	-1.54435105087E+00
2.71885765085E+06	-1.27972788248E+01	-1.64287154627E+02	1.11470500028E+01	1.65925414213E+02	-4.34833101776E+01	1.50901099107E+02	-5.85585755465E+00	-1.25942809823E+00
2.74104900545E+06	-1.25224619894E+01	-1.68137875911E+02	1.11562259560E+01	1.65883979614E+02	-4.36174814578E+01	1.08034467761E+02	-5.85564867249E+00	-1.52967908381E+00
2.76324036004E+06	-1.23333136165E+01	-1.77658136893E+02	1.11010441451E+01	1.65899180403E+02	-3.81004438442E+01	2.41300865992E+01	-5.87639235075E+00	-1.60399433382E+00
2.78543171463E+06	-1.26516435300E+01	-1.51095607885E+02	1.12028720800E+01	1.65576401111E+02	-4.85337631892E+01	-7.50608063494E+01	-5.88437944750E+00	-1.31767057170E+00
2.80762306923E+06	-1.36459635918E+01	-1.66222741476E+02	1.11582284755E+01	1.65726628510E+02	-4.92489034267E+01	1.27947283861E+02	-5.89004020478E+00	-1.41356955480E+00
2.82981442382E+06	-1.52363443665E+01	-1.74744616926E+02	1.11454267146E+01	1.65393216224E+02	-4.66994199949E+01	1.24695613888E+01	-5.88567120766E+00	-1.60785946536E+00
2.85200577842E+06	-1.17454283713E+01	-1.65893426796E+02	1.11594019567E+01	1.65053715528E+02	-5.53184140473E+01	1.68653607898E+02	-5.86772732314E+00	-1.58220060785E+00
2.87419713301E+06	-1.24665835052E+01	-1.50298729839E+02	1.11872106096E+01	1.65016214591E+02	-5.82216131192E+01	-1.14075513183E+02	-5.88112302378E+00	-1.44932418858E+00
