# Hz S DB R 50
! CMT, M5065, 19127446, 24.2.4/2
! Date: 11/8/2024 4:47:53 PM
! Data: Format (Calibration Info)
! Freq	S11:dB/Ang(F2)	S21:dB/Ang(F2)	S12:dB/Ang(F2)	S22:dB/Ang(F2)
3.00000000000E+05	-1.29372662519E+01	-1.68274868534E+02	4.49005796355E+00	-1.77511984287E+02	-6.19947807589E+01	5.25984344690E+01	-5.88239347684E+00	-2.03566941421E-01
3.22191354595E+05	-1.49692428525E+01	1.71042834357E+02	4.52174441850E+00	-1.77851161808E+02	-5.96152659705E+01	1.62612269988E+02	-5.86449427128E+00	-3.31077843197E-01
3.44382709190E+05	-1.39332256568E+01	-1.58129379480E+02	4.49996851342E+00	-1.78364779108E+02	-4.52045833981E+01	-1.71649531323E+02	-5.88063451302E+00	-3.68907562500E-01
3.66574063785E+05	-1.74890412358E+01	1.64388194025E+02	4.55189133525E+00	-1.78090651768E+02	-4.45801880454E+01	-1.69096016381E+02	-5.88977531044E+00	-4.35585819601E-01
3.88765418380E+05	-1.58432275465E+01	-1.72881635134E+02	4.49115717604E+00	-1.78770361509E+02	-4.55841011965E+01	-9.76374644918E+01	-5.88703229653E+00	-4.63262608032E-02
4.10956772975E+05	-1.41171541069E+01	-1.74693030277E+02	4.54806121347E+00	-1.79006213664E+02	-5.70450131900E+01	6.78676767250E+01	-5.86720361180E+00	-2.48021625750E-01
4.33148127570E+05	-1.51619660865E+01	1.73062331544E+02	4.55719054323E+00	-1.79080493853E+02	-4.56018726521E+01	1.22854171415E+02	-5.85977237843E+00	-3.55489816970E-01
4.55339482165E+05	-1.26591122663E+01	1.77566097520E+02	4.55100327914E+00	-1.79291165238E+02	-4.52098612724E+01	1.44091648057E+02	-5.85732038302E+00	-3.27493075722E-01
4.77530836760E+05	-1.51243819767E+01	1.62610689377E+02	4.57218745329E+00	-1.79440205512E+02	-4.26300500112E+01	-1.92951205101E+00	-5.87648756758E+00	-4.28629878497E-01
4.99722191355E+05	-1.30630777638E+01	-1.70039593251E+02	4.48453326494E+00	-1.79500241177E+02	-4.05235253460E+01	-6.66770714023E+01	-5.89182478506E+00	-2.86108003593E-01
5.21913545950E+05	-1.64655823696E+01	-1.79888606197E+02	4.55668342233E+00	1.79871999471E+02	-5.58863022311E+01	-4.76767202637E+01	-5.86796564321E+00	-5.07181361481E-01
5.44104900545E+05	-1.35879087678E+01	1.73089946601E+02	4.55044441121E+00	-1.79899616248E+02	-3.87166291400E+01	-3.66427272919E+01	-5.87208359476E+00	-1.10806470146E-01
5.66296255139E+05	-1.54405525391E+01	1.70167740273E+02	4.56724767700E+00	1.79926863793E+02	-4.31478310857E+01	8.70922229093E+01	-5.84582082718E+00	-3.69062470162E-01
5.88487609734E+05	-1.43601672339E+01	1.73078631573E+02	4.50042347974E+00	1.79811160946E+02	-4.02236366322E+01	6.51344485128E+01	-5.88040879121E+00	-5.16659005903E-01
6.10678964329E+05	-1.36516549565E+01	1.61581840069E+02	4.54036917913E+00	1.79887828047E+02	-4.73553276800E+01	-9.83193486573E+01	-5.88632283026E+00	6.35176391632E-02
6.32870318924E+05	-1.76216946651E+01	1.73733068881E+02	4.58527375796E+00	1.79288932792E+02	-4.92464373358E+01	5.20028008534E+01	-5.89417850036E+00	-1.35093328967E-01
6.55061673519E+05	-1.30850604262E+01	-1.65466169378E+02	4.49941277771E+00	1.79233967889E+02	-6.23464518591E+01	1.74271124340E+02	-5.88526805647E+00	-4.18948361164E-01
6.77253028114E+05	-1.45136360980E+01	-1.76487190311E+02	4.58859237349E+00	1.79189465207E+02	-4.16960695834E+01	-8.02217443505E+01	-5.84905802160E+00	-6.64596584712E-01
6.99444382709E+05	-1.21374678161E+01	1.70853215775E+02	4.47609894522E+00	1.79179708956E+02	-6.04475514867E+01	8.16528446108E+01	-5.89670566498E+00	-4.74571307322E-01
7.21635737304E+05	-1.22986567794E+01	-1.71622662612E+02	4.53734202742E+00	1.78823514786E+02	-4.61427275828E+01	-3.14167875169E+01	-5.85911884641E+00	-3.43312732143E-01
7.43827091899E+05	-1.09543598513E+01	1.79026246884E+02	4.47510347442E+00	1.78618394835E+02	-4.82970896668E+01	7.79001777899E+01	-5.83744938424E+00	-3.77788243902E-01
7.66018446494E+05	-1.38921343946E+01	-1.75659127158E+02	4.54790927103E+00	1.78232790214E+02	-4.36691731493E+01	-1.09997983649E+01	-5.85123398178E+00	-3.98303647750E-01
7.88209801089E+05	-1.30095868928E+01	-1.62447214625E+02	4.52900090784E+00	1.78324704488E+02	-4.33860448499E+01	1.18424630935E+02	-5.85503253573E+00	-5.14296897255E-01
8.10401155684E+05	-1.39781862836E+01	-1.66296290122E+02	4.57155946212E+00	1.78013877925E+02	-4.39617531642E+01	-7.84216759016E+01	-5.85860142629E+00	-3.89956107294E-01
8.32592510279E+05	-1.24673904102E+01	1.51370583603E+02	4.54747443550E+00	1.78556785372E+02	-4.53432092980E+01	-7.27057857505E+01	-5.85844110562E+00	-6.23062087458E-01
8.54783864874E+05	-1.36079233118E+01	-1.77559308795E+02	4.52316602240E+00	1.77891241811E+02	-5.22596503509E+01	-6.93513264033E+01	-5.86281126044E+00	-4.71752364007E-01
8.76975219469E+05	-1.37863839206E+01	1.77584233819E+02	4.53172809947E+00	1.77917478964E+02	-4.04315564169E+01	-1.05543092406E+02	-5.87263903105E+00	-2.41845704325E-01
8.99166574064E+05	-1.47957028747E+01	-1.75412180195E+02	4.51661912026E+00	1.78034152648E+02	-4.57809420764E+01	7.44277591645E+01	-5.85493302322E+00	-5.03829546749E-01
9.21357928659E+05	-1.88260857917E+01	-1.72352047591E+02	4.55734557772E+00	1.77766315330E+02	-3.92302170539E+01	6.25976774071E+01	-5.87018423128E+00	-5.58503411047E-01
9.43549283254E+05	-1.30940881086E+01	-1.78435492056E+02	4.52748463413E+00	1.77919230124E+02	-4.37660590277E+01	1.70440331987E+02	-5.86621305226E+00	-4.24231986838E-01
9.65740637849E+05	-1.31057669325E+01	-1.58959556425E+02	4.55569662395E+00	1.77340198142E+02	-4.36980857531E+01	1.08940534870E+02	-5.87808031759E+00	-5.21271261954E-01
9.87931992444E+05	-1.26281562035E+01	-1.74534714729E+02	4.57467608795E+00	1.77155579653E+02	-3.88097707395E+01	1.69958593959E+01	-5.86889304054E+00	-5.64416446448E-01
1.01012334704E+06	-1.55681540934E+01	-1.65483989770E+02	4.56239078240E+00	1.77371743908E+02	-5.29517345785E+01	1.34791420477E+02	-5.87234860435E+00	-4.28388135035E-01
1.03231470163E+06	-1.82027215476E+01	-1.79356791393E+02	4.58530114081E+00	1.77372118101E+02	-4.50996368845E+01	-5.11741835827E+01	-5.90165939890E+00	-7.01278000261E-01
1.05450605623E+06	-1.46320023029E+01	-1.65817665601E+02	4.58583331995E+00	1.77265181999E+02	-4.48216380811E+01	-1.16100976863E+02	-5.85863660370E+00	-5.89429505037E-01
1.07669741082E+06	-1.31384343665E+01	-1.73103784716E+02	4.50403352594E+00	1.77462701321E+02	-3.81908432796E+01	-2.67731937419E+01	-5.86179570910E+00	-4.75470164729E-01
1.09888876542E+06	-1.45323551555E+01	1.70324259401E+02	4.48825384493E+00	1.76983819982E+02	-4.46420556517E+01	-6.91477124148E+01	-5.86843444879E+00	-6.62459881568E-01
1.12108012001E+06	-1.31989237107E+01	1.56840050183E+02	4.51847721120E+00	1.76824612909E+02	-4.10124591735E+01	-1.12248989464E+02	-5.88559115043E+00	-6.97483466317E-01
1.14327147461E+06	-1.42217891170E+01	-1.72751160323E+02	4.51077421357E+00	1.76940252451E+02	-4.51896447395E+01	-3.93523441076E+01	-5.85017817525E+00	-6.14953104352E-01
1.16546282920E+06	-1.39325943925E+01	1.76132133365E+02	4.47338902483E+00	1.76707550997E+02	-5.26432719632E+01	7.57706215997E+01	-5.87427667048E+00	-7.07855179725E-01
1.18765418380E+06	-1.41881243475E+01	-1.42562883440E+02	4.58517701836E+00	1.76343205935E+02	-4.02214850569E+01	-4.26274988794E+01	-5.89546340240E+00	-8.59999754527E-01
1.20984553839E+06	-1.33359602381E+01	-1.69132877830E+02	4.54588923087E+00	1.75981422680E+02	-4.53598161723E+01	-1.31453810784E+02	-5.87410542608E+00	-7.83159816498E-01
1.23203689299E+06	-1.45424926606E+01	-1.73352098578E+02	4.55207371357E+00	1.76370204137E+02	-5.55914413600E+01	9.57639642390E+01	-5.85475792021E+00	-4.11266274978E-01
1.25422824758E+06	-1.23777976491E+01	-1.59337481138E+02	4.52107248993E+00	1.76063568659E+02	-4.33436422596E+01	-8.88946610789E+00	-5.88085783080E+00	-6.82386541787E-01
1.27641960218E+06	-1.59818368856E+01	1.59337397870E+02	4.50646499398E+00	1.76433908086E+02	-4.33718635790E+01	-9.05933831452E+01	-5.87258974113E+00	-5.43319339454E-01
1.29861095677E+06	-1.44320375671E+01	-1.70387841833E+02	4.48778637930E+00	1.75899259513E+02	-4.30450120625E+01	2.60320435769E+01	-5.88845353305E+00	-7.80134858091E-01
1.32080231137E+06	-1.66405090656E+01	1.78264399003E+02	4.53247462639E+00	1.75952915972E+02	-4.47617257430E+01	-8.91743864256E+01	-5.90123816342E+00	-1.05003821972E+00
1.34299366596E+06	-1.43817494341E+01	-1.77841702321E+02	4.55065361904E+00	1.75656591264E+02	-3.88081160225E+01	-2.45074437791E+01	-5.90338651341E+00	-6.55015018474E-01
1.36518502056E+06	-1.61370081915E+01	-1.62812878715E+02	4.55519120060E+00	1.75875917091E+02	-5.56166311290E+01	2.15710726674E+01	-5.88226018516E+00	-7.32680118176E-01
1.38737637515E+06	-1.46165079629E+01	-1.64554236295E+02	4.58806081749E+00	1.75617182563E+02	-4.99851677837E+01	1.36927164341E+01	-5.88158108100E+00	-7.64974195501E-01
1.40956772975E+06	-1.44332922186E+01	1.78851841783E+02	4.54901588110E+00	1.75801848202E+02	-4.46065594666E+01	-1.04958611268E+02	-5.88187429054E+00	-5.64485468203E-01
1.43175908434E+06	-1.49979663469E+01	-1.47400742391E+02	4.52766432248E+00	1.75786914185E+02	-5.20815488810E+01	-4.63669019723E+01	-5.88908954744E+00	-6.81781034636E-01
1.45395043894E+06	-1.74794078501E+01	1.56023393790E+02	4.52069053046E+00	1.75307632561E+02	-5.08837225323E+01	8.27843062819E+01	-5.88268948302E+00	-8.78849172062E-01
1.47614179353E+06	-1.35185855019E+01	-1.63267650939E+02	4.54848687879E+00	1.75006789772E+02	-4.46524062943E+01	1.66931321241E+01	-5.86112119061E+00	-7.73026848252E-01
1.49833314813E+06	-1.17123300066E+01	1.79747729044E+02	4.53829549499E+00	1.75195260881E+02	-4.96605317573E+01	8.61243872984E+01	-5.85457671647E+00	-8.62751808492E-01
1.52052450272E+06	-1.53607890838E+01	-1.73009292948E+02	4.56492612341E+00	1.74961431541E+02	-4.70132299882E+01	9.43440266341E+01	-5.85016478121E+00	-9.23103582561E-01
1.54271585732E+06	-1.43215628672E+01	-1.47706164643E+02	4.60370090542E+00	1.74586508818E+02	-5.03386574673E+01	1.62517642223E+02	-5.84966355145E+00	-7.09057318917E-01
1.56490721191E+06	-1.14832022540E+01	-1.70515101474E+02	4.52929766792E+00	1.74760881053E+02	-4.58200885962E+01	-6.83049355860E+01	-5.87674893524E+00	-6.26554028288E-01
1.58709856651E+06	-1.56119758192E+01	-1.77514554572E+02	4.59596463870E+00	1.75124755983E+02	-4.65669095165E+01	8.73661972668E+01	-5.86747974193E+00	-1.06789230263E+00
1.60928992110E+06	-1.22595742483E+01	-1.76393217539E+02	4.53470135397E+00	1.74846136858E+02	-4.80581773842E+01	-7.80595125483E+01	-5.88251434307E+00	-8.49712400411E-01
1.63148127570E+06	-1.37053165078E+01	-1.79798790112E+02	4.54366433969E+00	1.74418110196E+02	-4.09386919419E+01	-1.65444933665E+02	-5.87035518979E+00	-7.72941451540E-01
1.65367263029E+06	-1.32361509044E+01	-1.71838985335E+02	4.50836516668E+00	1.74696347330E+02	-4.86942086061E+01	-3.87940709811E+01	-5.86069184346E+00	-8.30626827976E-01
1.67586398489E+06	-1.46442999064E+01	-1.44243974964E+02	4.60555149365E+00	1.74350164430E+02	-5.10428444215E+01	-6.04486736563E+00	-5.88459873748E+00	-9.37889367452E-01
1.69805533948E+06	-1.33428690576E+01	1.78241693019E+02	4.56236381012E+00	1.74587149414E+02	-4.97867474294E+01	-1.29195009107E+02	-5.89383415397E+00	-8.60707104447E-01
1.72024669408E+06	-1.28400044622E+01	-1.65820999906E+02	4.52447389996E+00	1.74192542457E+02	-4.31303365987E+01	7.23641413928E+01	-5.86885223720E+00	-1.01924881999E+00
1.74243804867E+06	-1.60296391135E+01	-1.58187348914E+02	4.54503276984E+00	1.74059696562E+02	-4.33075485221E+01	-6.38072274210E+01	-5.86937923046E+00	-7.81342953172E-01
1.76462940327E+06	-1.50068890845E+01	-1.57328104651E+02	4.55770917454E+00	1.74096235254E+02	-4.32348045722E+01	1.48885117402E+02	-5.86870852599E+00	-1.01474428053E+00
1.78682075786E+06	-1.13290331759E+01	-1.65377868415E+02	4.57974808206E+00	1.73953394881E+02	-3.76957892723E+01	1.21184735426E+02	-5.86497348449E+00	-8.55051087522E-01
1.80901211246E+06	-1.31150401836E+01	-6.27402319332E+01	4.62801741608E+00	1.74504734186E+02	-4.63714993532E+01	-1.81015026010E+01	-5.89812621109E+00	-9.90847577605E-01
1.83120346705E+06	-1.66534025406E+01	-1.72987112526E+02	4.56309663788E+00	1.74112843771E+02	-4.22507962159E+01	1.21675641648E+02	-5.88865734894E+00	-9.59166511469E-01
1.85339482165E+06	-1.28492592295E+01	-1.77751471129E+02	4.54091718461E+00	1.73416342184E+02	-6.56398626584E+01	7.40698474024E+01	-5.86953278398E+00	-8.34169904942E-01
1.87558617624E+06	-1.69289696139E+01	-1.62101732312E+02	4.52483835329E+00	1.73626862578E+02	-4.83461943887E+01	1.04803331938E+02	-5.88461815204E+00	-8.99532922890E-01
1.89777753084E+06	-1.22011798808E+01	-1.62911697119E+02	4.56375118964E+00	1.73384692159E+02	-5.04124110838E+01	-1.79150170693E+02	-5.86016547343E+00	-9.31512027893E-01
1.91996888543E+06	-1.10246261269E+01	-1.76094639269E+02	4.57077493851E+00	1.73803697382E+02	-4.77768717685E+01	-1.17411090074E+02	-5.86507779928E+00	-1.01986605439E+00
1.94216024003E+06	-1.47267159122E+01	-1.67403718221E+02	4.58368822580E+00	1.73476687686E+02	-3.03840235598E+01	3.16661436316E+01	-5.87018600750E+00	-1.22607982400E+00
1.96435159462E+06	-2.80534887674E+01	-1.32485237632E+01	4.58798609439E+00	1.74005298530E+02	-4.22449623577E+01	-5.09886487722E+01	-5.87132272440E+00	-9.51772454947E-01
1.98654294922E+06	-1.38679777408E+01	-1.58811736921E+02	4.57684065709E+00	1.73492986937E+02	-4.90328653565E+01	4.40052498824E+01	-5.87210280063E+00	-1.14589482524E+00
2.00873430381E+06	-1.31107652542E+01	-1.57157719026E+02	4.51878476866E+00	1.73067596598E+02	-4.53926137103E+01	-1.30896972975E+02	-5.89248353555E+00	-9.39935766830E-01
2.03092565841E+06	-1.62529095690E+01	-1.74189889161E+02	4.59905605735E+00	1.73331978042E+02	-5.28656286191E+01	-1.41282622039E+02	-5.85052571932E+00	-1.01886669564E+00
2.05311701300E+06	-1.45113498993E+01	-1.66157446566E+02	4.56568277066E+00	1.72778365125E+02	-4.68335846081E+01	-7.87750949596E+01	-5.86395913707E+00	-9.54411091728E-01
2.07530836760E+06	-1.70265226916E+01	-1.65460875827E+02	4.57260549143E+00	1.73262008970E+02	-4.95406523461E+01	-4.72693431863E+01	-5.85991471148E+00	-9.96055844080E-01
2.09749972219E+06	-1.29340275082E+01	-1.47102437943E+02	4.60644670801E+00	1.72814394455E+02	-4.54882244937E+01	1.55416121489E+02	-5.86912922234E+00	-1.12155739349E+00
2.11969107679E+06	-1.26722768113E+01	1.56516476701E+02	4.49551734288E+00	1.72804268819E+02	-4.38713182181E+01	1.15760174025E+02	-5.87399189095E+00	-9.91537965601E-01
2.14188243138E+06	-1.48557823992E+01	-1.73029362658E+02	4.59969157538E+00	1.72938241110E+02	-5.07629087382E+01	-1.64896038512E+02	-5.87256069702E+00	-1.08856117825E+00
2.16407378598E+06	-1.59403197888E+01	-1.59819006262E+02	4.51537056448E+00	1.72847131513E+02	-4.38245478697E+01	-1.31964914213E+02	-5.87096669300E+00	-8.93346381816E-01
2.18626514057E+06	-1.18086428952E+01	-1.55936205894E+02	4.53862096235E+00	1.72153400339E+02	-4.53394279558E+01	8.99260938812E+01	-5.86322938461E+00	-1.26982298529E+00
2.20845649517E+06	-1.18691743226E+01	-1.57618263263E+02	4.56751061644E+00	1.72121173209E+02	-4.60416132714E+01	1.75945059293E+02	-5.86675294827E+00	-1.16821413662E+00
2.23064784976E+06	-1.35883443185E+01	-1.59479367771E+02	4.54147435414E+00	1.72245935156E+02	-5.90487864401E+01	6.98621169617E+01	-5.84284958426E+00	-1.23415856357E+00
2.25283920436E+06	-1.56786261488E+01	-1.76598114795E+02	4.56528327371E+00	1.72160184200E+02	-3.37710111345E+01	-5.29833133387E+01	-5.88295454335E+00	-1.37201109015E+00
2.27503055895E+06	-8.42495084404E+00	-1.52526823549E+02	4.61463086651E+00	1.71969830685E+02	-3.62745478403E+01	-7.13820193593E+00	-5.89042397653E+00	-1.27813843072E+00
2.29722191355E+06	-1.27530609713E+01	-1.70490477484E+02	4.53076047781E+00	1.71855543976E+02	-4.61881867345E+01	-1.35119289867E+02	-5.84912351844E+00	-1.04745263552E+00
2.31941326814E+06	-1.26012715730E+01	-1.68582195337E+02	4.50961442699E+00	1.72050871741E+02	-4.43083759633E+01	-1.19667753857E+02	-5.86259900840E+00	-1.02407967017E+00
2.34160462274E+06	-1.62451224159E+01	-1.78869096238E+02	4.57289375559E+00	1.71600974846E+02	-5.22441208771E+01	-1.09870130637E+02	-5.87978242594E+00	-1.05650554798E+00
2.36379597733E+06	-1.38404185670E+01	1.76347081534E+02	4.57492726395E+00	1.72190905740E+02	-4.10717721644E+01	5.66951294675E+01	-5.86908554961E+00	-1.23376826836E+00
2.38598733193E+06	-1.36996157145E+01	-1.60018484539E+02	4.58475463154E+00	1.71822084073E+02	-4.29152992132E+01	1.41654618372E+02	-5.86186702450E+00	-1.19967111535E+00
2.40817868652E+06	-1.17283879024E+01	1.79580208846E+02	4.49657532464E+00	1.71784187129E+02	-3.63602479329E+01	1.34434317028E+02	-5.83010062366E+00	-1.28964162239E+00
2.43037004112E+06	-1.43197125226E+01	-1.41949945930E+02	4.55351886930E+00	1.71286146386E+02	-4.56507395082E+01	1.59885796338E+02	-5.85674665448E+00	-1.52166234146E+00
2.45256139571E+06	-1.48269672750E+01	1.78259118508E+02	4.61301124361E+00	1.71558624095E+02	-4.54367818731E+01	1.17188649725E+02	-5.85785227995E+00	-1.19570699804E+00
2.47475275031E+06	-1.44991383728E+01	-1.60509341893E+02	4.55354700146E+00	1.71464648915E+02	-4.43119346639E+01	5.83371514110E+01	-5.89071735323E+00	-1.38346604979E+00
2.49694410490E+06	-1.12645751524E+01	-1.45940084258E+02	4.59064782089E+00	1.71086270304E+02	-6.07712649845E+01	-8.90156984471E+01	-5.88333131082E+00	-1.17722855308E+00
2.51913545950E+06	-1.28155088594E+01	-1.52148900457E+02	4.58288108795E+00	1.70980984208E+02	-4.56866239589E+01	-1.16296704460E+02	-5.85795697459E+00	-1.21772123229E+00
2.54132681409E+06	-1.25201901135E+01	-1.66631040702E+02	4.56109461734E+00	1.71096971311E+02	-5.52567562264E+01	1.68396936740E+02	-5.86848334334E+00	-1.29521321274E+00
2.56351816869E+06	-1.30171983192E+01	-1.72604149708E+02	4.56430245366E+00	1.70969113852E+02	-4.20186189262E+01	-1.69492713525E+02	-5.88187638789E+00	-1.15280509309E+00
2.58570952328E+06	-1.17354289421E+01	1.66204535836E+02	4.52741822354E+00	1.70735052189E+02	-3.58480948870E+01	-4.07902961013E+01	-5.88448674486E+00	-1.24478416012E+00
2.60790087788E+06	-1.42242176166E+01	-1.47490644588E+02	4.56107010072E+00	1.70974942046E+02	-5.09307808714E+01	1.43102882749E+02	-5.86997750706E+00	-1.20042749667E+00
2.63009223247E+06	-1.42315671254E+01	-1.70657428220E+02	4.55710008776E+00	1.70526379665E+02	-5.12631018814E+01	-8.53332004448E+01	-5.86994277697E+00	-8.83650429287E-01
2.65228358707E+06	-1.49421111746E+01	-1.59791401109E+02	4.62277450663E+00	1.70513342542E+02	-4.84946182844E+01	1.31899141043E+02	-5.86783939420E+00	-1.30112962879E+00
2.67447494166E+06	-1.28244017601E+01	-1.69095988128E+02	4.56265130503E+00	1.70391626152E+02	-5.00531928668E+01	1.07104841718E+02	-5.86130398124E+00	-1.50381545400E+00
2.69666629626E+06	-1.63387797982E+01	-1.57098521091E+02	4.59603324216E+00	1.70407869116E+02	-4.85794479961E+01	8.14997593486E+01	-5.87229216009E+00	-1.36426111282E+00
2.71885765085E+06	-1.32856353041E+01	-1.67921292080E+02	4.55846250048E+00	1.70400675614E+02	-6.00931884493E+01	1.44964440912E+02	-5.86497873071E+00	-1.34300862192E+00
2.74104900545E+06	-2.04651275392E+01	1.52115643125E+02	4.57489608095E+00	1.70696467795E+02	-4.07216577409E+01	1.01136911480E+02	-5.87225120941E+00	-1.46478606406E+00
2.76324036004E+06	-1.60547952463E+01	-1.54271989007E+02	4.61397274372E+00	1.70052425448E+02	-5.84298091710E+01	-1.41993376495E+02	-5.89443209609E+00	-1.31541146632E+00
2.78543171463E+06	-1.56408693341E+01	-1.54079651074E+02	4.65548475520E+00	1.70340450847E+02	-4.67094172967E+01	3.17591528763E+01	-5.88443588731E+00	-1.38018790347E+00
2.80762306923E+06	-1.15592733322E+01	-1.48859195289E+02	4.61044613682E+00	1.69568654081E+02	-4.29271600697E+01	7.31115830320E+01	-5.87163294671E+00	-1.56045565710E+00
2.82981442382E+06	-1.44196424256E+01	-1.59331501175E+02	4.62052557352E+00	1.70036206331E+02	-4.48166298214E+01	-1.07752394493E+02	-5.86710866215E+00	-1.42680648140E+00
2.85200577842E+06	-1.37869401679E+01	-1.47690351866E+02	4.63308039660E+00	1.69696454926E+02	-5.01524210117E+01	1.03055259455E+02	-5.88078468851E+00	-1.50055197634E+00
2.87419713301E+06	-1.38122822358E+01	-1.54038703946E+02	4.60399995044E+00	1.69381101482E+02	-5.51106900610E+01	5.58099147298E+01	-5.87683757613E+00	-1.71556020585E+00
