# Hz S DB R 50
! CMT, M5065, 19127446, 24.2.4/2
! Date: 11/8/2024 5:21:54 PM
! Data: Format (Calibration Info)
! Freq	S11:dB/Ang(F2)	S21:dB/Ang(F2)	S12:dB/Ang(F2)	S22:dB/Ang(F2)
3.00000000000E+05	-1.18096711774E+01	1.75179464155E+02	1.71901083381E+01	-1.76641404058E+02	-4.61003042587E+01	-3.78404132854E+01	-5.86534091070E+00	-1.82162535917E-01
3.22191354595E+05	-1.26060198034E+01	-1.69058054190E+02	1.72202612567E+01	-1.77256021872E+02	-4.46809777836E+01	-1.77634453144E+02	-5.83369950372E+00	-3.70119982098E-01
3.44382709190E+05	-2.56642574512E+01	1.57943717941E+02	1.72721003723E+01	-1.77892820846E+02	-5.50199353242E+01	-5.93628577028E+01	-5.88472540376E+00	-2.33705723195E-01
3.66574063785E+05	-1.32621020960E+01	-1.76982831524E+02	1.72327430017E+01	-1.78423391901E+02	-4.95452341032E+01	-1.44066068214E+02	-5.84646015135E+00	-2.51571788862E-01
3.88765418380E+05	-1.38734036926E+01	1.79867282027E+02	1.71243760994E+01	-1.78460360926E+02	-4.34602749392E+01	-3.18775141116E+01	-6.05190112191E+00	4.53456072390E+00
4.10956772975E+05	-1.29846887619E+01	-1.73222788487E+02	1.72171467972E+01	-1.79294219847E+02	-4.62979843145E+01	-1.45372454894E+02	-5.83860516177E+00	-2.62318525733E-01
4.33148127570E+05	-1.30004331635E+01	1.59941606958E+02	1.72451339319E+01	-1.79696318268E+02	-5.44181239744E+01	3.33741105062E+01	-5.87433172026E+00	-4.03084662013E-01
4.55339482165E+05	-1.22851365380E+01	-1.72597234712E+02	1.72465495158E+01	1.79960658962E+02	-5.38368322111E+01	1.01478402938E+02	-5.86585116474E+00	-4.52444566968E-01
4.77530836760E+05	-1.07524914754E+01	-1.67593620724E+02	1.72094470047E+01	1.79352621689E+02	-4.25241481399E+01	1.07131793877E+02	-5.88907942318E+00	-5.55871314699E-01
4.99722191355E+05	-1.63421819979E+01	-1.78737603956E+02	1.72433175436E+01	1.79320038705E+02	-5.12603708326E+01	-1.16429457405E+02	-5.87246448727E+00	-2.15262097634E-01
5.21913545950E+05	-1.12538715786E+01	-1.67323905801E+02	1.72122360815E+01	1.78869085930E+02	-4.73811777465E+01	-7.79739312014E+01	-5.87024851677E+00	-2.16604981043E-01
5.44104900545E+05	-1.11894020355E+01	1.77947035392E+02	1.72077950969E+01	1.78514138083E+02	-4.21913565308E+01	1.75058613336E+02	-5.85039562858E+00	-4.42945905682E-01
5.66296255139E+05	-1.34686070366E+01	1.69553988077E+02	1.72410725134E+01	1.78504564767E+02	-4.49134398379E+01	1.35334585360E+01	-5.87672779690E+00	-5.42311612777E-01
5.88487609734E+05	-1.45167771295E+01	-1.72080975684E+02	1.72493694794E+01	1.78054472982E+02	-3.95127634424E+01	4.36824538883E+01	-5.89022401661E+00	-8.21075841983E-01
6.10678964329E+05	-1.44341996409E+01	1.71596491885E+02	1.72555891567E+01	1.77776071782E+02	-4.56752569948E+01	6.04001958367E+01	-5.85852545658E+00	2.38290280575E-02
6.32870318924E+05	-1.27305224773E+01	-1.74107050498E+02	1.71977095309E+01	1.77431694563E+02	-4.39538174127E+01	5.87524125679E+01	-5.89748611751E+00	-3.51191133615E-01
6.55061673519E+05	-1.13721712468E+01	1.79919252382E+02	1.72199698436E+01	1.77153803196E+02	-4.71559572575E+01	-1.03661966339E+01	-5.90013688452E+00	-1.84085454790E-01
6.77253028114E+05	-1.42264632364E+01	-1.72009007213E+02	1.72522056630E+01	1.76855089441E+02	-5.09493754707E+01	-3.72702195963E+01	-5.87764461858E+00	-5.53880864257E-01
6.99444382709E+05	-1.89821021959E+01	1.76304175393E+02	1.72732759701E+01	1.76592731685E+02	-4.25315390038E+01	-7.70442746879E+01	-5.90372284032E+00	-4.05437359606E-01
7.21635737304E+05	-1.45766828812E+01	-1.79217878412E+02	1.72306994825E+01	1.76216499737E+02	-3.88657125907E+01	-8.10999064960E+01	-5.90596320369E+00	-1.54512688332E-01
7.43827091899E+05	-1.27609252545E+01	-1.69475281553E+02	1.72098664090E+01	1.75986075707E+02	-4.34665598983E+01	-7.62021015581E+01	-5.86977564114E+00	-2.21424766461E-01
7.66018446494E+05	-1.40614077200E+01	-1.65189382150E+02	1.72245762190E+01	1.75899799615E+02	-4.85563159312E+01	-6.75286105355E+01	-5.86930715011E+00	-3.02896636948E-01
7.88209801089E+05	-1.24240507996E+01	-1.75757439034E+02	1.72054102341E+01	1.75528904692E+02	-5.84320953002E+01	7.75257880535E+01	-5.88068374598E+00	-4.87562180785E-01
8.10401155684E+05	-1.25047128455E+01	-1.42564116229E+02	1.72184187693E+01	1.75077784221E+02	-5.35243914816E+01	1.34440189194E+02	-5.84371896395E+00	-6.06010322584E-01
8.32592510279E+05	-1.00498206017E+01	1.74595899797E+02	1.71520278971E+01	1.75223299360E+02	-4.70363569477E+01	-1.27906619038E+02	-5.85089072782E+00	-3.01852249876E-01
8.54783864874E+05	-1.07192067027E+01	-1.65852400959E+02	1.71983151053E+01	1.74627868683E+02	-4.42400093375E+01	3.47415937745E+01	-5.89057601474E+00	-6.81200364911E-01
8.76975219469E+05	-1.57184653785E+01	1.62689235882E+02	1.72371014530E+01	1.74710602190E+02	-3.79393838859E+01	-6.42770622198E+01	-5.90631117659E+00	-2.81789584160E-01
8.99166574064E+05	-1.33471041103E+01	1.71836513826E+02	1.72091659434E+01	1.74555070282E+02	-4.40807362708E+01	9.27386766707E+01	-5.86187823184E+00	-8.27954552293E-01
9.21357928659E+05	-1.25988598966E+01	1.79467103427E+02	1.72038999793E+01	1.74132014454E+02	-5.10003241641E+01	-1.78592266386E+02	-5.86364146029E+00	-4.15294034285E-01
9.43549283254E+05	-1.51809009220E+01	-1.62157243127E+02	1.72333843233E+01	1.73774094416E+02	-5.10865755076E+01	6.24456597919E+00	-5.90676911199E+00	-7.34918776983E-01
9.65740637849E+05	-9.89868525073E+00	-1.71223446908E+02	1.71652403474E+01	1.73518732458E+02	-5.65624082495E+01	1.34211672106E+02	-5.86125759598E+00	-6.07517032892E-01
9.87931992444E+05	-1.24033357195E+01	1.76133330092E+02	1.72164931145E+01	1.73600115458E+02	-5.35486747151E+01	-2.02916107869E+01	-5.89679489874E+00	-3.61664714266E-01
1.01012334704E+06	-1.42092498997E+01	-1.64729276823E+02	1.72242637406E+01	1.73235629138E+02	-4.27451176796E+01	6.95277498324E+01	-5.88578139180E+00	-8.17982211601E-01
1.03231470163E+06	-1.25064773535E+01	1.71433061671E+02	1.71889366581E+01	1.73226517981E+02	-4.09438449752E+01	2.57810138212E+01	-5.90010754992E+00	-6.54731109600E-01
1.05450605623E+06	-1.08941770638E+01	-1.72363653255E+02	1.71860799973E+01	1.72723385450E+02	-5.50469141362E+01	-7.68678971807E+01	-5.89092567811E+00	-5.04318396144E-01
1.07669741082E+06	-1.45275406296E+01	1.79921668225E+02	1.71885228894E+01	1.73082702347E+02	-4.27349574013E+01	-5.69012432366E+01	-5.96849956462E+00	-3.02549616777E-01
1.09888876542E+06	-1.35466951928E+01	1.69593216276E+02	1.71813060094E+01	1.72530991800E+02	-5.59759520076E+01	1.58632557545E+01	-5.89686169331E+00	-6.14909275240E-01
1.12108012001E+06	-1.46763957154E+01	-1.77938089635E+02	1.72138341160E+01	1.72442053765E+02	-4.46966808146E+01	-1.01613852396E+02	-5.90425356283E+00	-4.83714942706E-01
1.14327147461E+06	-1.31617927049E+01	-1.73152842924E+02	1.72042480483E+01	1.71795971841E+02	-4.69323554533E+01	-1.24909573840E+01	-5.91964012107E+00	-7.09370205697E-01
1.16546282920E+06	-1.29924675526E+01	-1.67394197850E+02	1.72163392982E+01	1.71802533469E+02	-4.30163568289E+01	1.18021381263E+02	-5.85454704638E+00	-6.99348667729E-01
1.18765418380E+06	-1.70711087628E+01	-1.59044681838E+02	1.72549254717E+01	1.71558765643E+02	-4.19825973641E+01	-2.73911245711E+01	-5.91857285178E+00	-4.53836369568E-01
1.20984553839E+06	-1.04845049355E+01	-1.79661330543E+02	1.71539285913E+01	1.71457942623E+02	-6.43576516298E+01	6.15108331561E+01	-5.88550682182E+00	-9.82407660774E-01
1.23203689299E+06	-1.59469530436E+01	-1.73743271711E+02	1.72184574920E+01	1.71243328314E+02	-4.83603395790E+01	-1.10075435319E+02	-5.88433373996E+00	-3.92081184789E-01
1.25422824758E+06	-1.48517167415E+01	-1.70702123960E+02	1.72171389837E+01	1.70988929459E+02	-4.87798852998E+01	-3.33943398373E+01	-5.91365016239E+00	-6.53837158170E-01
1.27641960218E+06	-2.20788162210E+01	-1.73080089395E+02	1.72402833152E+01	1.71041208911E+02	-4.94431387169E+01	1.39278118349E+00	-5.90395413411E+00	-8.12051202844E-01
1.29861095677E+06	-1.63442921743E+01	-1.76787206194E+02	1.72166448168E+01	1.70863710855E+02	-3.74414998899E+01	-4.89450077800E+00	-5.94917776899E+00	-6.56868132072E-01
1.32080231137E+06	-1.32669980291E+01	-1.74342049626E+02	1.72008047110E+01	1.70313295879E+02	-5.62182754006E+01	-1.67278322557E+02	-5.87468210082E+00	-1.00996810272E+00
1.34299366596E+06	-1.36046555961E+01	-1.58302617289E+02	1.72111612829E+01	1.70003613692E+02	-4.48359169693E+01	-1.51821868510E+02	-5.89774765817E+00	-7.72318975217E-01
1.36518502056E+06	-1.32538081679E+01	-1.62302294899E+02	1.72044048435E+01	1.69847323565E+02	-3.75167735450E+01	1.17169878867E+02	-5.83612236361E+00	-1.10073518823E+00
1.38737637515E+06	-1.08346660394E+01	-1.50444624474E+02	1.72036747559E+01	1.69471556386E+02	-5.50396709519E+01	-7.30935257838E+01	-5.86403771794E+00	-6.98242700747E-01
1.40956772975E+06	-1.16372185981E+01	1.65354949600E+02	1.71630477185E+01	1.69713353099E+02	-4.10543349414E+01	-1.51407435710E+01	-5.91278043583E+00	-8.19989967622E-01
1.43175908434E+06	-9.71132805376E+00	-1.56284621525E+02	1.71887582231E+01	1.69051853222E+02	-5.54403972755E+01	1.31157036959E+02	-5.86687502868E+00	-7.91826350007E-01
1.45395043894E+06	-1.03575281060E+01	-1.76508100506E+02	1.71501641788E+01	1.69247986258E+02	-7.28592943634E+01	1.67954125633E+02	-5.85585806183E+00	-7.38960294071E-01
1.47614179353E+06	-1.26277370107E+01	1.65802752313E+02	1.71706049866E+01	1.69217879637E+02	-4.62303242585E+01	-1.70668503761E+02	-5.84990821817E+00	-6.58340096185E-01
1.49833314813E+06	-1.37540146895E+01	-1.49062289357E+02	1.72157485939E+01	1.68566244293E+02	-3.72895368496E+01	2.61554875124E+01	-5.88997489495E+00	-9.94895979046E-01
1.52052450272E+06	-1.09570064720E+01	-1.60043283518E+02	1.72004035856E+01	1.68492729713E+02	-4.45865114028E+01	-1.23003888609E+02	-5.88195752122E+00	-7.28907022243E-01
1.54271585732E+06	-1.43764985437E+01	-1.76323603484E+02	1.71786231713E+01	1.68380251960E+02	-6.45765250133E+01	7.08710679517E+01	-5.86510861732E+00	-9.39572210899E-01
1.56490721191E+06	-1.47363891491E+01	1.79064378337E+02	1.71803568622E+01	1.68305567198E+02	-4.10297748527E+01	1.10815376378E+02	-5.82068468598E+00	-1.15024150615E+00
1.58709856651E+06	-1.01368630930E+01	-1.78196967839E+02	1.71658693951E+01	1.67961658462E+02	-4.17827305407E+01	5.44966418085E+00	-5.91185230543E+00	-9.80190496132E-01
1.60928992110E+06	-2.02198784553E+01	-1.78558606731E+02	1.72180309657E+01	1.68163361576E+02	-4.71320257950E+01	3.82886142636E+00	-5.89707667417E+00	-8.28145104593E-01
1.63148127570E+06	-1.48628752965E+01	-1.75044145376E+02	1.71899096651E+01	1.67667427108E+02	-5.35428463844E+01	-6.46755183277E+01	-5.90127586657E+00	-8.61370939842E-01
1.65367263029E+06	-1.26280692832E+01	-1.64885662763E+02	1.71767580786E+01	1.67414285727E+02	-3.90783308957E+01	1.08018099633E+02	-5.87793651327E+00	-1.11655391615E+00
1.67586398489E+06	-1.53872750607E+01	-1.54583004767E+02	1.72064297221E+01	1.67315855336E+02	-4.70325435931E+01	1.51597933757E+01	-5.90566985161E+00	-1.07431249576E+00
1.69805533948E+06	-1.15968195510E+01	1.76070925291E+02	1.71251520589E+01	1.67039912394E+02	-5.04582430093E+01	-1.68804658646E+02	-5.87767593495E+00	-8.76745083665E-01
1.72024669408E+06	-1.17642824742E+01	-1.61662528715E+02	1.71957372940E+01	1.66744465387E+02	-4.65753417014E+01	1.14025980248E+02	-5.84943530127E+00	-1.21663626942E+00
1.74243804867E+06	-1.54021065012E+01	-1.67212467002E+02	1.71953476781E+01	1.66814897639E+02	-4.10645444141E+01	-5.14742230845E+00	-5.93632914314E+00	-1.04357020882E+00
1.76462940327E+06	-1.09722824377E+01	-1.60908935109E+02	1.71713110229E+01	1.66299398739E+02	-4.06811947584E+01	3.43489756034E+01	-5.92167800991E+00	-1.05579639288E+00
1.78682075786E+06	-1.46649739425E+01	-1.60928859554E+02	1.71870161518E+01	1.66275312380E+02	-4.95598172179E+01	1.67106837393E+02	-5.85242844157E+00	-8.83004670582E-01
1.80901211246E+06	-1.32048064684E+01	-1.69115297932E+02	1.71707310341E+01	1.66255177440E+02	-4.22697890666E+01	2.80384010412E+01	-5.89603820206E+00	-1.22236935408E+00
1.83120346705E+06	-1.31527388066E+01	-1.61500953366E+02	1.71695565235E+01	1.65855583895E+02	-4.10492026030E+01	1.61580963115E+02	-5.84283347989E+00	-1.03528148556E+00
1.85339482165E+06	-1.60846290280E+01	-1.65553189874E+02	1.71958958850E+01	1.65812913604E+02	-4.80187423181E+01	1.60520817642E+02	-5.86014796546E+00	-9.12033628928E-01
1.87558617624E+06	-1.39052267663E+01	-1.55066072940E+02	1.71925312647E+01	1.65598884207E+02	-4.71659104031E+01	-1.42087600230E+02	-5.85405588333E+00	-9.98674901792E-01
1.89777753084E+06	-1.31250940812E+01	-1.64400943019E+02	1.71781233741E+01	1.65375762257E+02	-4.61658917422E+01	-1.27832203557E+02	-5.85941395312E+00	-7.78156743517E-01
1.91996888543E+06	-9.44395331441E+00	-1.48790347111E+02	1.71862508491E+01	1.64871541954E+02	-4.68314511198E+01	1.41461079161E+02	-5.84877181531E+00	-1.07264937240E+00
1.94216024003E+06	-1.71550982285E+01	-1.60704130253E+02	1.71986525182E+01	1.65113789625E+02	-5.69293017946E+01	6.66922316950E+01	-5.88017878449E+00	-1.13033943377E+00
1.96435159462E+06	-1.19198798096E+01	-1.58082249935E+02	1.71719699603E+01	1.64676750756E+02	-3.75060779430E+01	4.00246244547E+01	-5.86008588175E+00	-1.44233600488E+00
1.98654294922E+06	-1.36169155113E+01	-1.61345064131E+02	1.71812177791E+01	1.64600929234E+02	-4.13008137759E+01	1.68957747197E+02	-5.89585899682E+00	-9.19389038073E-01
2.00873430381E+06	-1.05977369529E+01	-1.76040959736E+02	1.71364621815E+01	1.64408186338E+02	-4.56300798779E+01	7.20995993355E+01	-5.86254124159E+00	-1.36669230490E+00
2.03092565841E+06	-1.15150755413E+01	-1.51597395539E+02	1.71841169077E+01	1.64108959495E+02	-4.35768556351E+01	1.76178791412E+02	-5.85500025550E+00	-1.20204193722E+00
2.05311701300E+06	-1.21592846612E+01	-1.53369261744E+02	1.71813945642E+01	1.63887233254E+02	-5.45825184594E+01	-1.49682494797E+02	-5.85194141999E+00	-9.17196045190E-01
2.07530836760E+06	-9.90743687457E+00	-1.36903139963E+02	1.72084283010E+01	1.63846887906E+02	-4.21119834750E+01	1.30384264068E+02	-5.84766036920E+00	-1.27793091603E+00
2.09749972219E+06	-1.53045417281E+01	-1.74092197254E+02	1.71644589774E+01	1.63874280772E+02	-4.03278484311E+01	1.32390879320E+02	-5.83369284112E+00	-1.45675012755E+00
2.11969107679E+06	-1.21698346852E+01	-1.72595308040E+02	1.71363808596E+01	1.63555893259E+02	-3.36646539960E+01	1.38919602541E+02	-5.78027940038E+00	-1.08002077250E+00
2.14188243138E+06	-1.10499734493E+01	-1.77707883477E+02	1.71151537983E+01	1.63285598749E+02	-4.73136704188E+01	-4.32666697650E+01	-5.92718518299E+00	-1.12081477000E+00
2.16407378598E+06	-1.51917940973E+01	-1.68058379916E+02	1.71710760748E+01	1.63167907927E+02	-4.43987838204E+01	-1.31066106269E+02	-5.85481696598E+00	-8.82616946452E-01
2.18626514057E+06	-1.19704399016E+01	-1.63876082711E+02	1.71773077434E+01	1.62869577619E+02	-4.90004535836E+01	1.08127582549E+02	-5.85504842112E+00	-1.46146697042E+00
2.20845649517E+06	-1.20069536093E+01	-1.65203070267E+02	1.71823742329E+01	1.62650644055E+02	-4.63918813496E+01	1.40974760599E+02	-5.84274589259E+00	-1.17434173063E+00
2.23064784976E+06	-1.42530465966E+01	-1.57769226371E+02	1.71702705380E+01	1.62666186443E+02	-4.57558512601E+01	-1.60290027516E+02	-5.86265095221E+00	-8.38429451215E-01
2.25283920436E+06	-1.33393695867E+01	-1.72447112654E+02	1.71535638046E+01	1.62491843803E+02	-4.20194980569E+01	1.07059471487E+02	-5.84781337647E+00	-1.57069152676E+00
2.27503055895E+06	-1.29577395684E+01	-1.58398292856E+02	1.71735326442E+01	1.62141440516E+02	-4.24257741944E+01	-4.81641904706E+01	-5.86896956129E+00	-1.00957309662E+00
2.29722191355E+06	-1.45415585916E+01	1.79870278636E+02	1.71524370500E+01	1.62185320365E+02	-3.64828478810E+01	-3.78289882619E+01	-5.92109776391E+00	-1.20301713001E+00
2.31941326814E+06	-1.36281334158E+01	-1.72009189388E+02	1.71644186457E+01	1.61837554710E+02	-4.36869873874E+01	1.75413905445E+02	-5.83871595718E+00	-1.15102279291E+00
2.34160462274E+06	-1.60187296087E+01	-1.74019627095E+02	1.71673069819E+01	1.61796225809E+02	-6.41337132222E+01	-1.47004764998E+01	-5.86707679206E+00	-1.18421358297E+00
2.36379597733E+06	-1.24553926933E+01	-1.76579408926E+02	1.71521722056E+01	1.61499526994E+02	-4.11891000479E+01	2.81339763744E+01	-5.89706827255E+00	-1.48332608721E+00
2.38598733193E+06	-9.62372122978E+00	1.76222732430E+02	1.71231044713E+01	1.61142190823E+02	-4.35815387510E+01	-1.79924787405E+02	-5.84483463285E+00	-1.18577957265E+00
2.40817868652E+06	-1.17535561027E+01	-1.45473269707E+02	1.71856349488E+01	1.60884765711E+02	-4.18747735678E+01	1.56735641473E+02	-5.81883750059E+00	-1.26625349638E+00
2.43037004112E+06	-1.44519503790E+01	-1.55333388398E+02	1.71782260584E+01	1.60936706765E+02	-3.33285246735E+01	2.73026759448E+01	-5.90688420453E+00	-2.24288255803E+00
2.45256139571E+06	-1.32269920855E+01	-1.61548865484E+02	1.71604416771E+01	1.60680368085E+02	-4.08157295620E+01	3.83714086580E+01	-5.88000945354E+00	-1.63340290927E+00
2.47475275031E+06	-1.06830177892E+01	-1.66243918932E+02	1.71500445743E+01	1.60423881448E+02	-5.41621497438E+01	-9.55689223693E+01	-5.88678353507E+00	-1.08094160314E+00
2.49694410490E+06	-1.32459781149E+01	-1.53772101796E+02	1.71631502445E+01	1.60226443745E+02	-4.82601702545E+01	1.29274127428E+02	-5.86239772226E+00	-1.53989790717E+00
2.51913545950E+06	-1.45830616401E+01	1.67282555470E+02	1.71327570185E+01	1.60250401608E+02	-4.79102336247E+01	5.22192315582E+01	-5.89519752977E+00	-1.44476855940E+00
2.54132681409E+06	-1.22020795663E+01	-1.74863518494E+02	1.71101109999E+01	1.59937143579E+02	-4.40098790099E+01	1.70881225342E+01	-5.91846049846E+00	-1.52426034749E+00
2.56351816869E+06	-1.28324357686E+01	-1.60402844668E+02	1.71426046332E+01	1.59692736198E+02	-4.62530904235E+01	-4.82343697991E+01	-5.91722805573E+00	-1.19562805992E+00
2.58570952328E+06	-1.46769867268E+01	1.79103482750E+02	1.71548174229E+01	1.59882757796E+02	-4.03218858815E+01	-1.59941081637E+02	-5.87007672769E+00	-1.08408958424E+00
2.60790087788E+06	-1.07025351459E+01	-1.53775149220E+02	1.71346224491E+01	1.59175923753E+02	-3.78879885861E+01	-1.35425067703E+02	-5.85056668274E+00	-1.03192033904E+00
2.63009223247E+06	-1.24749115085E+01	-1.77783752042E+02	1.71157314662E+01	1.59204212781E+02	-4.17199009218E+01	-4.00776560794E+01	-5.94503417816E+00	-7.47128186273E-01
2.65228358707E+06	-1.14057325305E+01	-1.59816332751E+02	1.71312461674E+01	1.58899350588E+02	-4.37965655478E+01	6.41234265470E+00	-5.93814417071E+00	-1.49270936568E+00
2.67447494166E+06	-1.49746313026E+01	-1.64493397368E+02	1.71507518672E+01	1.58878720954E+02	-5.78785142552E+01	1.87808755571E+01	-5.89376811689E+00	-1.33225427580E+00
2.69666629626E+06	-1.13217040217E+01	-1.41709148238E+02	1.71786219915E+01	1.58620427557E+02	-4.40169223835E+01	6.22078149725E+01	-5.88773635260E+00	-1.58617368569E+00
2.71885765085E+06	-1.38691248089E+01	-1.73819096042E+02	1.71502314613E+01	1.58665349368E+02	-5.49941428567E+01	5.43312028900E+01	-5.88914280309E+00	-1.54560357503E+00
2.74104900545E+06	-1.03063327393E+01	-1.56148883316E+02	1.71333628780E+01	1.58055358148E+02	-4.47202047022E+01	1.12368375703E+02	-5.87086025774E+00	-1.56722761490E+00
2.76324036004E+06	-1.73955672068E+01	-1.74288997969E+02	1.71608698427E+01	1.58341203588E+02	-3.82428548456E+01	3.15949697660E+01	-5.93646754145E+00	-1.69141764045E+00
2.78543171463E+06	-1.30220386763E+01	-1.69169527666E+02	1.71227414600E+01	1.58011930505E+02	-5.70062536316E+01	7.81285566274E+01	-5.90614240837E+00	-1.39413375125E+00
2.80762306923E+06	-9.94914597080E+00	-1.65229226010E+02	1.71153449879E+01	1.57482641273E+02	-4.44485733521E+01	2.24910161436E+01	-5.91046662563E+00	-1.66684337500E+00
2.82981442382E+06	-1.24002343672E+01	-1.59935608170E+02	1.71316530006E+01	1.57514244229E+02	-4.78338245072E+01	9.86371357050E+01	-5.89471794671E+00	-1.64598570885E+00
2.85200577842E+06	-1.04388927875E+01	-1.66582911526E+02	1.71192267116E+01	1.57177290971E+02	-4.62491813623E+01	-1.07806787358E+02	-5.87356655213E+00	-1.40712753700E+00
2.87419713301E+06	-1.11195823515E+01	-1.68663495662E+02	1.71075947995E+01	1.57022112861E+02	-4.26701694187E+01	5.29749304330E+01	-5.90110034698E+00	-1.80862145822E+00
