# Hz S DB R 50
! CMT, M5065, 19127446, 24.2.4/2
! Date: 11/8/2024 5:37:26 PM
! Data: Format (Calibration Info)
! Freq	S11:dB/Ang(F2)	S21:dB/Ang(F2)	S12:dB/Ang(F2)	S22:dB/Ang(F2)
3.00000000000E+05	-1.54858585535E+01	-1.70462265877E+02	3.75381545171E+01	1.75864506138E+02	-5.18030656663E+01	-1.25321811863E+02	-5.59513026151E+00	-8.31899152479E-01
3.22191354595E+05	-1.52240057159E+01	-1.68566842449E+02	3.75479289600E+01	1.72540507841E+02	-4.71442772271E+01	3.73353944900E+01	-5.92954290454E+00	-1.46594781732E+00
3.44382709190E+05	-1.08196609319E+01	-1.63976554933E+02	3.74639693716E+01	1.69099334879E+02	-4.97422510565E+01	1.04330979396E+02	-5.68209589075E+00	-1.98881166225E+00
3.66574063785E+05	-1.75098684267E+01	1.63942596356E+02	3.75239237802E+01	1.66756464623E+02	-4.88928207656E+01	-1.49260233996E+02	-5.59882817595E+00	-1.69028666244E+00
3.88765418380E+05	-1.32689891309E+01	-1.57424188934E+02	3.75273037542E+01	1.63878188150E+02	-4.06558109746E+01	-2.35855390028E+01	-2.11641822372E-01	5.96298703219E+00
4.10956772975E+05	-1.45432768694E+01	-1.61428321253E+02	3.74387231872E+01	1.61505403837E+02	-4.79801943657E+01	5.56892454161E+01	-5.98295548534E+00	-2.09786240233E+00
4.33148127570E+05	-1.25931532446E+01	-1.63541260521E+02	3.74296406491E+01	1.59099561902E+02	-4.80379247826E+01	-2.12430535692E+01	-6.08169480937E+00	-4.32448455476E-01
4.55339482165E+05	-1.16756483698E+01	-1.78328598087E+02	3.73270659607E+01	1.57004713471E+02	-3.60332818109E+01	1.33157598368E+02	-5.49552173859E+00	-5.73896564692E+00
4.77530836760E+05	-1.40745865220E+01	-1.68181316682E+02	3.73327374330E+01	1.54991859198E+02	-3.80123348473E+01	7.95496068532E+01	-6.20624760888E+00	-3.34264463802E+00
4.99722191355E+05	-1.20886544447E+01	-1.71232625014E+02	3.72418349735E+01	1.52992159946E+02	-4.04100519517E+01	2.44783766349E+01	-6.48772536820E+00	-1.46725398064E+00
5.21913545950E+05	-1.50635720332E+01	-1.64372574361E+02	3.72399146368E+01	1.51277698376E+02	-5.21393139163E+01	-1.75143616032E+02	-5.77463980319E+00	-1.26645286428E+00
5.44104900545E+05	-1.46193421473E+01	-1.58638805200E+02	3.71943504197E+01	1.49505093838E+02	-4.83900382991E+01	3.82372093997E+01	-6.07014431128E+00	-2.05624708465E+00
5.66296255139E+05	-1.65591252530E+01	-1.73430763090E+02	3.71615947773E+01	1.47894659551E+02	-4.97566133812E+01	1.48874600883E+02	-5.83468910989E+00	-2.27741568081E+00
5.88487609734E+05	-1.54387920496E+01	1.67311435746E+02	3.70873347604E+01	1.46416947024E+02	-6.03849557418E+01	4.69848103105E+01	-5.86454852962E+00	-2.71856436716E+00
6.10678964329E+05	-1.28599775115E+01	-1.75278209895E+02	3.69970436723E+01	1.44900911847E+02	-4.05103614777E+01	1.37495445917E+02	-5.86881248661E+00	-3.84266866415E+00
6.32870318924E+05	-1.26940165816E+01	-1.63041870198E+02	3.69719026440E+01	1.43298517523E+02	-3.85250567152E+01	1.15469332586E+02	-5.90678670147E+00	-3.98797580955E+00
6.55061673519E+05	-1.51799688899E+01	-1.76194022887E+02	3.69249278316E+01	1.41939084917E+02	-4.51511264311E+01	6.50461173607E+01	-6.09599764673E+00	-2.16088509966E+00
6.77253028114E+05	-1.27452291897E+01	-1.54375977827E+02	3.68705050586E+01	1.40435130311E+02	-5.61240632492E+01	-6.18417006992E+01	-5.85425003369E+00	-6.60224241612E-01
6.99444382709E+05	-1.17449675929E+01	1.75601659516E+02	3.67842300234E+01	1.39540868726E+02	-5.37247048843E+01	7.13840791024E+01	-5.99695271778E+00	-9.78801125947E-01
7.21635737304E+05	-1.31084114418E+01	1.72805903259E+02	3.67153586080E+01	1.38284752374E+02	-4.42560442391E+01	-1.73951448880E+02	-5.69665252989E+00	-1.49283130510E+00
7.43827091899E+05	-1.27852602088E+01	-1.63676606263E+02	3.66325308327E+01	1.36919977773E+02	-4.06809282428E+01	-1.03211084092E+02	-5.53835250957E+00	8.35709650755E-01
7.66018446494E+05	-1.31878099758E+01	-1.64303618727E+02	3.65633225524E+01	1.35773968080E+02	-4.32349809111E+01	-4.88608242991E+01	-5.86903764576E+00	1.38822932474E+00
7.88209801089E+05	-1.04013796600E+01	1.78691657975E+02	3.64465536565E+01	1.34723573842E+02	-3.82855849820E+01	7.74086126736E+01	-6.40386436020E+00	-3.05037733902E+00
8.10401155684E+05	-1.26122211618E+01	1.69177723772E+02	3.64137595302E+01	1.33916807312E+02	-5.80839952619E+01	5.45982189908E+00	-5.95607867959E+00	-9.89709589770E-01
8.32592510279E+05	-1.25585013156E+01	-1.67033926431E+02	3.63105365437E+01	1.32464416113E+02	-3.69435798965E+01	9.43887389948E+01	-6.28544602966E+00	-4.86377482958E+00
8.54783864874E+05	-1.24040190306E+01	1.75162807941E+02	3.62212731954E+01	1.31704183767E+02	-4.74512446298E+01	-1.73634923341E+02	-5.76146721489E+00	-1.79457761093E+00
8.76975219469E+05	-1.12051850475E+01	-1.59566689733E+02	3.61341996803E+01	1.30344834315E+02	-4.53504141487E+01	3.12081045208E+01	-6.14929472656E+00	-5.03451466878E-01
8.99166574064E+05	-1.29058677099E+01	-1.71340380988E+02	3.60762361203E+01	1.29561431861E+02	-4.80948394315E+01	7.08171619838E+01	-6.05889455496E+00	-1.36451510576E+00
9.21357928659E+05	-1.29767675188E+01	-1.57467624543E+02	3.59942794746E+01	1.28695630582E+02	-4.59062672011E+01	1.01663572283E+02	-6.05318028320E+00	-1.90036871689E+00
9.43549283254E+05	-1.28590031408E+01	1.66350850052E+02	3.58437603947E+01	1.27986654394E+02	-4.68646840292E+01	-1.33304665991E+02	-5.72219687814E+00	-1.20152711876E+00
9.65740637849E+05	-1.37148053284E+01	-1.72961543667E+02	3.57920581197E+01	1.26924200893E+02	-4.75813227225E+01	-1.23094942133E+02	-5.66860186411E+00	-2.19187587564E-01
9.87931992444E+05	-1.15110562718E+01	-1.75185109771E+02	3.56560667831E+01	1.25977947265E+02	-5.83636547213E+01	-8.89756618589E+01	-5.82164140363E+00	-6.69513539087E-01
1.01012334704E+06	-1.01101930749E+01	-1.71924391558E+02	3.55490420049E+01	1.25002072693E+02	-4.39828802240E+01	1.29851160363E+02	-5.87804133726E+00	-2.89807123393E+00
1.03231470163E+06	-1.48942691160E+01	-1.49395120425E+02	3.54886519638E+01	1.24314989376E+02	-6.78761498440E+01	-1.68391552486E+02	-5.92176746537E+00	-9.87414780017E-01
1.05450605623E+06	-1.15209692980E+01	-1.76415320153E+02	3.53602184376E+01	1.23707379717E+02	-3.92595966365E+01	6.74585892813E+01	-6.38303797608E+00	-2.24109314672E+00
1.07669741082E+06	-1.34083339137E+01	-1.77713426745E+02	3.52574549369E+01	1.23014827799E+02	-4.24490695691E+01	3.02541013027E+01	-6.01313299331E+00	-2.53494915850E-01
1.09888876542E+06	-1.27875391019E+01	-1.73822726081E+02	3.51571180673E+01	1.22145451380E+02	-4.86697942754E+01	1.27413822112E+02	-5.89341464424E+00	-1.95526884949E+00
1.12108012001E+06	-1.18740116906E+01	-1.68694685267E+02	3.50467307463E+01	1.21370144477E+02	-4.44520672591E+01	-1.61209938256E+02	-5.67560632468E+00	-1.24686435590E+00
1.14327147461E+06	-1.37673487729E+01	-1.67958367368E+02	3.49603401639E+01	1.20680734265E+02	-5.35303657605E+01	-1.43180984599E+02	-5.83515137048E+00	-1.18124870832E+00
1.16546282920E+06	-1.20750221976E+01	-1.54454516593E+02	3.48368135942E+01	1.19821231849E+02	-6.06735288179E+01	1.39457985403E+02	-5.92097194205E+00	-1.08418225840E+00
1.18765418380E+06	-1.55420434659E+01	-1.56503262806E+02	3.47557454051E+01	1.19314118127E+02	-5.19727507400E+01	7.89398628495E+01	-5.99100286651E+00	-1.26565990681E+00
1.20984553839E+06	-8.88610351888E+00	1.70138801633E+02	3.45677587834E+01	1.18855462478E+02	-4.19756474338E+01	6.68253410998E+01	-6.21418574597E+00	-2.08917487126E+00
1.23203689299E+06	-1.04204127263E+01	-1.59055511149E+02	3.44877932131E+01	1.17852831924E+02	-3.99443085721E+01	1.66306965835E+02	-5.67120331868E+00	-2.75121046845E+00
1.25422824758E+06	-1.13989231745E+01	-1.74446817429E+02	3.43943537051E+01	1.17375078153E+02	-4.61386975021E+01	-1.53237711836E+02	-5.73439982362E+00	-1.07440437014E+00
1.27641960218E+06	-1.28460825329E+01	-1.64443111896E+02	3.42909691208E+01	1.16913310637E+02	-5.64258346659E+01	1.77119308515E+02	-5.92447381183E+00	-1.33407044246E+00
1.29861095677E+06	-1.46285461550E+01	-1.63724924560E+02	3.42082134648E+01	1.16259192106E+02	-4.49021768529E+01	-2.82598036851E+01	-5.97288642187E+00	7.66293403770E-01
1.32080231137E+06	-1.29190880396E+01	-1.57884863924E+02	3.41010380689E+01	1.15669327750E+02	-5.40752722151E+01	1.94789858157E+01	-5.98197034312E+00	-1.33611073381E+00
1.34299366596E+06	-1.25897781553E+01	-1.60689512392E+02	3.39853448093E+01	1.14958823969E+02	-4.96372111575E+01	-6.54432866124E+01	-5.82648250935E+00	-1.64371089516E-01
1.36518502056E+06	-1.02778794842E+01	-1.71099286153E+02	3.37935629964E+01	1.14527747170E+02	-4.23128296831E+01	7.49543326914E+01	-6.16687366527E+00	-2.05702079690E+00
1.38737637515E+06	-1.22911595379E+01	1.77424670136E+02	3.37238690883E+01	1.13965396432E+02	-5.03538715413E+01	-8.56606377167E+00	-6.03434189800E+00	-3.27585740255E-01
1.40956772975E+06	-1.53243274397E+01	-1.66269658846E+02	3.34584710734E+01	1.13445783553E+02	-4.09652069757E+01	-7.17163509728E+01	-5.66594950869E+00	4.90191237948E-01
1.43175908434E+06	-1.26090908935E+01	-1.71453534917E+02	3.35394713675E+01	1.12891687627E+02	-5.69284354717E+01	-1.25455850611E+02	-5.89435885757E+00	-9.12026153005E-01
1.45395043894E+06	-1.67259054956E+01	-1.67105574954E+02	3.34482755387E+01	1.12464145615E+02	-6.59122944734E+01	1.52015436629E+02	-5.90852685480E+00	-6.75667816119E-01
1.47614179353E+06	-9.40650124234E+00	-1.62124776693E+02	3.32965722432E+01	1.11744406994E+02	-4.05193260872E+01	1.38718053971E+02	-5.83631247367E+00	-3.14727284962E+00
1.49833314813E+06	-1.33511789762E+01	-1.62736724248E+02	3.32204629714E+01	1.11404985486E+02	-4.77627659513E+01	-7.00674875562E+01	-5.81772717563E+00	1.15835692107E-01
1.52052450272E+06	-1.12000446095E+01	-1.61985977868E+02	3.31158330106E+01	1.10827199657E+02	-5.09138885327E+01	1.52519951141E+02	-5.87733241514E+00	-1.59959016360E+00
1.54271585732E+06	-1.37252983066E+01	-1.71574722378E+02	3.30258704814E+01	1.10523125299E+02	-5.29011252782E+01	6.10458948146E+01	-5.92764978633E+00	-1.04136447070E+00
1.56490721191E+06	-1.30769747407E+01	-1.58188807429E+02	3.29033198721E+01	1.10039639639E+02	-4.90607096226E+01	1.29325359667E+02	-5.85986575801E+00	-1.96661728202E+00
1.58709856651E+06	-1.34228996964E+01	1.77936531962E+02	3.28189194006E+01	1.09627130488E+02	-4.72619271844E+01	-1.77123708782E+02	-5.75527529846E+00	-1.80788896151E+00
1.60928992110E+06	-1.49335158396E+01	-1.54247989325E+02	3.27486201284E+01	1.09104212659E+02	-5.71674377401E+01	1.01540183024E+02	-5.89723119426E+00	-9.81440142202E-01
1.63148127570E+06	-1.41005549815E+01	-1.49946860258E+02	3.26461184759E+01	1.08572599991E+02	-4.41015045838E+01	-1.36115718551E+02	-5.63259292699E+00	-7.79598683225E-01
1.65367263029E+06	-9.72890701254E+00	1.61973953160E+02	3.24716747496E+01	1.08578790042E+02	-4.21405582397E+01	-6.18358551829E+00	-6.06729134488E+00	5.69689801663E-01
1.67586398489E+06	-2.03357726700E+01	-1.34446604606E+02	3.24822807414E+01	1.07870499042E+02	-4.42197123653E+01	1.04581452059E+01	-6.04700911981E+00	-6.36534999381E-02
1.69805533948E+06	-1.15862600820E+01	-1.66649897080E+02	3.23248178369E+01	1.07280554205E+02	-4.52445666249E+01	-1.54113628517E+02	-5.75865755627E+00	-1.51292781468E+00
1.72024669408E+06	-1.18218689609E+01	1.79649706501E+02	3.22036694813E+01	1.07070585742E+02	-3.96401739178E+01	1.37904430077E+00	-6.03031653974E+00	1.85807655424E+00
1.74243804867E+06	-1.30460058807E+01	-1.63990205797E+02	3.21221177472E+01	1.06645711542E+02	-4.34151211022E+01	5.15348246958E+01	-6.15122595342E+00	-1.26235252823E+00
1.76462940327E+06	-1.72567274849E+01	1.73528800774E+02	3.20672440487E+01	1.06393766562E+02	-4.92274695022E+01	2.48667668060E+01	-6.01515528387E+00	-7.86630775281E-01
1.78682075786E+06	-1.17438261055E+01	-1.78464518467E+02	3.18928667176E+01	1.05828295850E+02	-3.79879521159E+01	-1.55145276049E+01	-6.08158324002E+00	1.49822695405E+00
1.80901211246E+06	-1.35698921484E+01	-1.68308694560E+02	3.18439707695E+01	1.05427248601E+02	-5.15067846703E+01	-1.21986226107E+01	-5.94908273873E+00	-4.11996550921E-01
1.83120346705E+06	-9.92752417796E+00	-1.35699859909E+02	3.17532180598E+01	1.04561685022E+02	-4.41474143223E+01	3.42444473003E+01	-6.08475872302E+00	-7.42995885404E-01
1.85339482165E+06	-1.35557509788E+01	-1.59549596854E+02	3.16569743728E+01	1.04614616742E+02	-5.28621487319E+01	1.11193037843E+02	-5.88571869857E+00	-1.51250283971E+00
1.87558617624E+06	-1.26608673474E+01	-1.79568655178E+02	3.15548344937E+01	1.04454426640E+02	-5.45812888982E+01	1.21208049369E+02	-5.93478848369E+00	-1.43554646100E+00
1.89777753084E+06	-1.08131984617E+01	-1.77129890624E+02	3.14396504788E+01	1.03938498778E+02	-4.67185362381E+01	8.75090021362E-01	-5.98810196924E+00	-3.89170330480E-01
1.91996888543E+06	-1.36452031707E+01	-1.65121820128E+02	3.13839006740E+01	1.03600599750E+02	-4.07665741533E+01	-3.52903361819E+01	-5.94026693152E+00	7.97615815455E-01
1.94216024003E+06	-1.44582592485E+01	-1.49974815342E+02	3.13185064675E+01	1.03239817860E+02	-4.62269389377E+01	8.78336506662E+00	-6.03301708584E+00	-4.32804054946E-01
1.96435159462E+06	-1.19449385764E+01	-1.76959848855E+02	3.11785905300E+01	1.03075034643E+02	-4.64047092958E+01	1.50664727047E+02	-5.87836719383E+00	-1.95705754725E+00
1.98654294922E+06	-6.42912062888E+00	-1.56161178148E+02	3.10261640234E+01	1.01991104038E+02	-4.68980229205E+01	-5.72859019486E+01	-5.86662051273E+00	-3.80770159501E-01
2.00873430381E+06	-1.10148523255E+01	1.75403826843E+02	3.09852084109E+01	1.02419287562E+02	-4.88562712366E+01	-5.05887065383E+01	-5.87363446814E+00	-4.60733149768E-01
2.03092565841E+06	-1.31607719742E+01	-1.54295515922E+02	3.09613426125E+01	1.01772700565E+02	-3.70829470387E+01	1.15213884368E+02	-6.14886405822E+00	-3.96535311619E+00
2.05311701300E+06	-1.15940923645E+01	-1.66473504120E+02	3.08551985077E+01	1.01440383448E+02	-4.43020653899E+01	-1.23960307418E+02	-5.72086782821E+00	-1.57809644066E+00
2.07530836760E+06	-1.17389914523E+01	-1.71184562595E+02	3.07744060897E+01	1.01331777166E+02	-4.12691847662E+01	4.73267682814E+01	-6.14432867653E+00	-8.62108690111E-01
2.09749972219E+06	-1.14083100208E+01	-1.72685141387E+02	3.06655179571E+01	1.00999587739E+02	-4.88355383805E+01	-1.20087369994E+02	-5.80395295138E+00	-9.55167327909E-01
2.11969107679E+06	-1.68197458984E+01	-1.33091238830E+02	3.06420470432E+01	1.00721120388E+02	-4.23683981330E+01	-1.66550415828E+02	-5.70643355792E+00	-1.82204835163E+00
2.14188243138E+06	-1.59085951286E+01	1.16697192611E+02	3.05496377320E+01	1.01096483792E+02	-4.42924069310E+01	-1.75601717184E+02	-5.78113958495E+00	-1.92500500661E+00
2.16407378598E+06	-1.14035808237E+01	-1.68883833477E+02	3.04148470557E+01	9.99806757501E+01	-4.77039768951E+01	1.60725343000E+02	-5.85230081166E+00	-1.75575201685E+00
2.18626514057E+06	-1.23563780543E+01	-1.79425174907E+02	3.03437038876E+01	9.98709368311E+01	-4.43536144026E+01	1.63098224472E+02	-5.82984618634E+00	-2.08897577730E+00
2.20845649517E+06	-1.33284987646E+01	-1.68309933218E+02	3.03065085446E+01	9.94202138783E+01	-6.19712874633E+01	1.73628330846E+02	-5.88342402197E+00	-1.65794379698E+00
2.23064784976E+06	-1.04019370738E+01	-1.54663361299E+02	3.02080031383E+01	9.88453216290E+01	-5.38864693944E+01	7.34245939400E-01	-5.94089040167E+00	-8.89110066783E-01
2.25283920436E+06	-1.15080392463E+01	-1.70979633022E+02	3.00873814607E+01	9.88390501772E+01	-4.70667079025E+01	-6.63668568025E+01	-5.86717894014E+00	-5.58713439572E-01
2.27503055895E+06	-1.36013599513E+01	-1.56731833261E+02	3.00629573495E+01	9.84256350155E+01	-5.23371446141E+01	1.64766541561E+02	-5.86912652412E+00	-1.61338853054E+00
2.29722191355E+06	-1.58877734294E+01	1.48787191908E+02	2.99774168724E+01	9.85963075809E+01	-4.02607528389E+01	-1.03731634742E+01	-6.04205659987E+00	2.73215694781E-01
2.31941326814E+06	-1.38389348734E+01	-1.74924467970E+02	2.98689456680E+01	9.81094838647E+01	-4.90508597599E+01	-1.09091590944E+02	-5.82800344150E+00	-7.74131956691E-01
2.34160462274E+06	-1.35391651297E+01	-1.55816940115E+02	2.98116333922E+01	9.77862071172E+01	-3.63309401347E+01	1.35452752609E+02	-5.98276684686E+00	-4.24301988190E+00
2.36379597733E+06	-1.46240787208E+01	-1.63312666302E+02	2.97313151605E+01	9.74256810211E+01	-3.35785050936E+01	7.51945814359E+01	-6.54777323950E+00	-1.92114220220E+00
2.38598733193E+06	-1.35120429564E+01	1.77640459580E+02	2.96503132858E+01	9.73928018103E+01	-5.58424863319E+01	1.43569476701E+02	-5.89816691502E+00	-1.52505191857E+00
2.40817868652E+06	-1.08832178928E+01	-1.70364644014E+02	2.95549397477E+01	9.69390803289E+01	-4.57711344940E+01	-1.32035871695E+02	-5.74221162563E+00	-1.62258695847E+00
2.43037004112E+06	-1.58824272841E+01	-1.27059969185E+02	2.95795513570E+01	9.66833942298E+01	-5.26961639303E+01	1.31894802350E+02	-5.88324294929E+00	-2.16713006215E+00
2.45256139571E+06	-8.31990583792E+00	-1.58307292445E+02	2.93646337091E+01	9.59227057917E+01	-3.99972180844E+01	1.45475220195E+02	-5.86634951958E+00	-2.99441005949E+00
2.47475275031E+06	-1.43728407873E+01	-1.58536946977E+02	2.93487184559E+01	9.60485360226E+01	-4.85856100403E+01	-1.48467664148E+02	-5.83457883898E+00	-1.57234935159E+00
2.49694410490E+06	-1.44188149825E+01	-1.79630981861E+02	2.92721899070E+01	9.60643460914E+01	-3.81440697382E+01	-1.39827741431E+02	-5.57383810586E+00	-1.89301151008E+00
2.51913545950E+06	-1.21323746730E+01	-1.60338938730E+02	2.91987796024E+01	9.54822726072E+01	-5.84724744721E+01	1.20515981574E+02	-6.01320346490E+00	-9.47891479239E-01
2.54132681409E+06	-1.26958513291E+01	-1.71924684339E+02	2.91347935131E+01	9.53585927635E+01	-4.92989948678E+01	-3.93734013967E+01	-5.91561670179E+00	-7.34926537473E-01
2.56351816869E+06	-1.39790807076E+01	-1.62632568900E+02	2.90776366519E+01	9.50819638143E+01	-5.21630209861E+01	-6.14123953148E+01	-5.89198021672E+00	-1.13758443882E+00
2.58570952328E+06	-9.51912088818E+00	-1.76105163926E+02	2.89275150448E+01	9.47558933878E+01	-4.60499613126E+01	1.46111643398E+02	-5.91742471708E+00	-2.46316132921E+00
2.60790087788E+06	-9.40303672146E+00	-1.67235563360E+02	2.88602686511E+01	9.45603365138E+01	-5.40398468294E+01	7.13151361913E+01	-5.95343897399E+00	-1.53004278546E+00
2.63009223247E+06	-1.28090915657E+01	-1.64734434836E+02	2.88459054704E+01	9.42528165133E+01	-4.50351031397E+01	1.32523981675E+02	-5.92919469615E+00	-1.78454394434E+00
2.65228358707E+06	-1.43129627673E+01	-1.56044981368E+02	2.88126428073E+01	9.42385720597E+01	-4.39270908005E+01	1.23206656173E+02	-5.94139079464E+00	-2.37649357282E+00
2.67447494166E+06	-1.11268550436E+01	-1.54062250077E+02	2.86351717993E+01	9.37392557134E+01	-3.63526290546E+01	5.16908575513E+01	-6.40477227351E+00	-1.72028788724E+00
2.69666629626E+06	-1.26119313464E+01	-1.59584600732E+02	2.86391515915E+01	9.36393518170E+01	-6.25555327779E+01	-5.17979615138E+01	-5.85393851964E+00	-1.29254842415E+00
2.71885765085E+06	-1.14737860511E+01	-1.63090535431E+02	2.85613259171E+01	9.31667274403E+01	-4.02585221030E+01	5.66624008772E+01	-6.18105792080E+00	-1.78477671893E+00
2.74104900545E+06	-1.24224833732E+01	-1.52836943427E+02	2.85267767829E+01	9.29741335994E+01	-5.82383318136E+01	1.31606814875E+02	-5.91316996250E+00	-1.91163010733E+00
2.76324036004E+06	-9.89117920520E+00	-1.73013474407E+02	2.83894468252E+01	9.27410752584E+01	-4.14165142853E+01	1.26362492703E+02	-5.95360052141E+00	-2.75189464881E+00
2.78543171463E+06	-1.41368036348E+01	1.72415869378E+02	2.83617062069E+01	9.28844616595E+01	-4.90424272081E+01	6.33471424736E+01	-5.98045134060E+00	-1.74707430712E+00
2.80762306923E+06	-1.12919235214E+01	-1.54081717911E+02	2.82907583084E+01	9.22486544774E+01	-4.48257133301E+01	3.22227733711E+00	-6.03315078655E+00	-9.51874114769E-01
2.82981442382E+06	-1.32974228410E+01	-1.62829738107E+02	2.82168422567E+01	9.23728987597E+01	-4.78519408369E+01	-2.72103236281E+00	-5.88732772756E+00	-8.19062708881E-01
2.85200577842E+06	-1.20363481591E+01	1.75818220469E+02	2.81308089059E+01	9.21538307654E+01	-4.85810195876E+01	-7.25266295431E+01	-5.81783428598E+00	-9.76992077654E-01
2.87419713301E+06	-1.24701815461E+01	-1.64637498229E+02	2.81144502060E+01	9.17038342301E+01	-4.44646530267E+01	-9.38774539516E+01	-5.79035367893E+00	-9.33913177272E-01
