# Hz S DB R 50
! CMT, M5065, 19127446, 24.2.4/2
! Date: 11/8/2024 5:05:51 PM
! Data: Format (Calibration Info)
! Freq	S11:dB/Ang(F2)	S21:dB/Ang(F2)	S12:dB/Ang(F2)	S22:dB/Ang(F2)
3.00000000000E+05	-1.46393481873E+01	1.72443092664E+02	7.94110465128E+00	-1.77224754223E+02	-5.09576540078E+01	1.13832461454E+02	-5.86648328756E+00	-8.89553281580E-02
3.22191354595E+05	-1.32217031117E+01	-1.77619787535E+02	7.98531015393E+00	-1.77820035256E+02	-4.15358827754E+01	6.81169317533E+01	-5.86843671102E+00	-3.03985973249E-01
3.44382709190E+05	-1.30248969800E+01	-1.56441142702E+02	7.96466157166E+00	-1.78257645831E+02	-4.28499916384E+01	9.87951274822E+01	-5.85159939018E+00	-3.46464179521E-01
3.66574063785E+05	-1.40501003128E+01	-1.67420603350E+02	7.98673321721E+00	-1.78471665345E+02	-4.90041324321E+01	2.16159509677E+01	-5.85932951623E+00	-4.16284812813E-01
3.88765418380E+05	-2.31058341735E+01	-1.44696769185E+02	7.94651685549E+00	-1.78775002639E+02	-4.60577502308E+01	-1.52029131698E+02	-5.87456498406E+00	2.32214776033E-01
4.10956772975E+05	-1.35076085144E+01	1.70647405069E+02	7.98831993230E+00	-1.78944138275E+02	-4.53178553953E+01	1.66447045736E+02	-5.86096072118E+00	-3.13778089756E-01
4.33148127570E+05	-1.74380158041E+01	-1.47954263365E+02	8.02653033733E+00	-1.79312875814E+02	-5.07277636057E+01	9.46930795392E+01	-5.87982079077E+00	-3.19818302073E-01
4.55339482165E+05	-1.36916769178E+01	-1.76933739161E+02	7.97219590069E+00	-1.79653652117E+02	-3.94131856574E+01	1.05930024208E+02	-5.86513321305E+00	-4.56850169703E-01
4.77530836760E+05	-1.71603727933E+01	-1.42424496774E+02	8.00018108967E+00	-1.79932216045E+02	-5.07080361491E+01	1.29116744548E+02	-5.83050990336E+00	-2.41066401458E-01
4.99722191355E+05	-1.26632051530E+01	-1.69484534025E+02	7.97766555927E+00	1.79886944429E+02	-4.46515618462E+01	-3.81227341186E+01	-5.88584184926E+00	-2.89644209353E-01
5.21913545950E+05	-1.64159515970E+01	-1.59567273120E+02	8.02514779642E+00	1.79745484229E+02	-5.64273107442E+01	-3.06255898392E+00	-5.87530756162E+00	-4.54719631207E-01
5.44104900545E+05	-1.64756994146E+01	-1.21632734351E+02	8.03268432170E+00	1.79482165136E+02	-5.15945516238E+01	-5.35882023627E+01	-5.88624106195E+00	-4.05551924970E-01
5.66296255139E+05	-1.27252900212E+01	-1.66830758527E+02	7.98540948975E+00	1.79369557555E+02	-4.16343686561E+01	-7.99938460500E+01	-5.85056051577E+00	-2.13833037556E-01
5.88487609734E+05	-1.28786491997E+01	1.69906919821E+02	7.99092442076E+00	1.79306228554E+02	-5.30800351081E+01	1.52131165052E+01	-5.87919386174E+00	-4.68288711214E-01
6.10678964329E+05	-1.86048656028E+01	1.68464198899E+02	8.01246695606E+00	1.79342728555E+02	-4.20523736174E+01	-1.27813221513E+02	-5.83314187724E+00	2.73670969623E-01
6.32870318924E+05	-1.24532532989E+01	-1.78490808135E+02	7.97370245389E+00	1.78932140486E+02	-7.14466503797E+01	-7.81660674300E+01	-5.86198043907E+00	-1.41732959441E-01
6.55061673519E+05	-1.37567256357E+01	-1.54163316736E+02	7.94150179051E+00	1.78651783076E+02	-4.85396719096E+01	-1.12443287612E+02	-5.88559387155E+00	-1.97691070417E-01
6.77253028114E+05	-1.49334633576E+01	-1.75381299252E+02	7.96166129337E+00	1.78714271079E+02	-4.74476622427E+01	6.38453981083E+00	-5.87876582643E+00	-7.16115347408E-01
6.99444382709E+05	-1.43429707342E+01	1.54557223217E+02	8.00101718558E+00	1.78528871738E+02	-4.62677162863E+01	-9.89720511671E+00	-5.85002197017E+00	-3.70853742545E-01
7.21635737304E+05	-1.15673778175E+01	1.72746981596E+02	7.95417337233E+00	1.78376663838E+02	-4.48053602774E+01	-1.55521155247E+02	-5.87141396003E+00	-2.73431710895E-01
7.43827091899E+05	-1.50836844763E+01	1.71650945150E+02	8.01070247134E+00	1.78338265250E+02	-4.73619487409E+01	-4.13917690111E+01	-5.87645305462E+00	-3.57915129445E-01
7.66018446494E+05	-1.67274684259E+01	1.65896544010E+02	8.00679673381E+00	1.78204454166E+02	-4.10126876596E+01	-1.03483027484E+02	-5.83964409358E+00	-2.60388427473E-01
7.88209801089E+05	-1.35340356788E+01	-1.70769894394E+02	8.01220030135E+00	1.77968287308E+02	-3.81208779622E+01	-5.68738176059E+01	-5.91187835750E+00	-3.13857291631E-01
8.10401155684E+05	-1.82565656932E+01	-1.58989043185E+02	8.04724422849E+00	1.77781779252E+02	-4.34306617382E+01	1.22747333947E+02	-5.86210937991E+00	-5.41053312035E-01
8.32592510279E+05	-1.32684396208E+01	1.75973500710E+02	7.97289194702E+00	1.77486681985E+02	-4.80042421715E+01	-2.07243189511E+00	-5.89189907692E+00	-4.93336334012E-01
8.54783864874E+05	-1.57770409022E+01	-1.46592120998E+02	7.97861980368E+00	1.77512078026E+02	-4.28319279392E+01	1.66431663045E+02	-5.86605092856E+00	-4.78239076294E-01
8.76975219469E+05	-1.26222809885E+01	1.74779631619E+02	8.01458933484E+00	1.77369887875E+02	-5.17164379530E+01	6.74015260624E+01	-5.87497051008E+00	-5.25098690785E-01
8.99166574064E+05	-1.23802438903E+01	-1.54504192168E+02	8.00409232888E+00	1.76956527556E+02	-5.64628929846E+01	-5.80170198302E+01	-5.85707818686E+00	-3.31679292697E-01
9.21357928659E+05	-1.36311104508E+01	1.78932779312E+02	7.96092470478E+00	1.77253879243E+02	-4.95466457251E+01	-3.79214536159E+01	-5.85687813647E+00	-5.90348088647E-01
9.43549283254E+05	-1.63836714190E+01	-1.73107738354E+02	7.98600129102E+00	1.77016035721E+02	-3.88764757073E+01	1.18520381469E+02	-5.84309584367E+00	-6.26443472955E-01
9.65740637849E+05	-1.72942730830E+01	-1.58588988528E+02	8.03364431782E+00	1.76900895274E+02	-5.69911904694E+01	-1.23535472161E+02	-5.87473333550E+00	-4.47220856454E-01
9.87931992444E+05	-1.32419270676E+01	-1.67601447636E+02	7.99463217328E+00	1.76727369090E+02	-4.34479950702E+01	-5.75704207304E+01	-5.87041779065E+00	-4.52120351630E-01
1.01012334704E+06	-1.48173320457E+01	-1.69189979086E+02	8.00478603070E+00	1.76559810623E+02	-3.99060197331E+01	9.34882543273E+01	-5.85984048187E+00	-7.73445295395E-01
1.03231470163E+06	-1.10053663028E+01	-1.71483686044E+02	7.94158780029E+00	1.76205270880E+02	-4.54802070898E+01	1.69527517277E+02	-5.85433533490E+00	-4.77580037062E-01
1.05450605623E+06	-1.23224811174E+01	1.67111811944E+02	7.96151086224E+00	1.76535977301E+02	-5.40415027794E+01	1.37294924562E+02	-5.86885678783E+00	-5.58499209424E-01
1.07669741082E+06	-1.49574104553E+01	-1.75123924171E+02	7.95035481763E+00	1.76374351976E+02	-4.00350267403E+01	-6.34829607457E+01	-5.88518225563E+00	-5.16039738918E-01
1.09888876542E+06	-1.39909180592E+01	-1.62970166579E+02	7.98800642410E+00	1.76163672794E+02	-3.91591203947E+01	-9.69809450814E+01	-5.86350676422E+00	-6.15417481914E-01
1.12108012001E+06	-1.71311510984E+01	-1.58576109887E+02	8.03951496615E+00	1.76053208719E+02	-5.17984967826E+01	3.27155513608E+01	-5.89211610826E+00	-6.66019567955E-01
1.14327147461E+06	-1.23742712031E+01	-1.69374012360E+02	8.04263096005E+00	1.75652589955E+02	-3.89080941654E+01	6.50186887147E+01	-5.87497385695E+00	-8.20291534324E-01
1.16546282920E+06	-1.25779763184E+01	-1.57626239785E+02	7.99847708659E+00	1.75553701710E+02	-5.40132508121E+01	1.24523605186E+02	-5.86703630539E+00	-6.75797009467E-01
1.18765418380E+06	-1.27839728903E+01	-1.72085907386E+02	8.01603321348E+00	1.75543146593E+02	-4.59388226696E+01	1.47900312320E+02	-5.86101721842E+00	-7.21527533881E-01
1.20984553839E+06	-1.30121140908E+01	-1.62111111803E+02	7.99987960949E+00	1.75342224577E+02	-4.76762083141E+01	6.82949378997E+01	-5.86612867841E+00	-8.29413123650E-01
1.23203689299E+06	-1.33689003464E+01	1.79271476912E+02	7.95511605464E+00	1.75420869175E+02	-3.88740818911E+01	1.74987630472E+02	-5.85891337978E+00	-3.42517046150E-01
1.25422824758E+06	-1.40552105828E+01	-1.72920644246E+02	8.01665312320E+00	1.75414499335E+02	-3.42048731265E+01	-1.15968255088E+02	-5.86836682598E+00	-5.81888707992E-01
1.27641960218E+06	-1.19574435710E+01	-1.79598440997E+02	8.00152589456E+00	1.75285533825E+02	-4.20945107447E+01	-4.61629499213E+01	-5.90565076033E+00	-5.09611234814E-01
1.29861095677E+06	-1.55964951963E+01	1.73860184734E+02	7.98992609573E+00	1.75236750507E+02	-4.95381381972E+01	-7.14312854958E+01	-5.86609946003E+00	-5.06021715906E-01
1.32080231137E+06	-1.16466013049E+01	-1.66026672138E+02	7.97821681066E+00	1.74800974259E+02	-5.21166196803E+01	-1.20502470943E+02	-5.85050875810E+00	-9.92218252295E-01
1.34299366596E+06	-1.51003433648E+01	-1.79115799921E+02	7.99408127714E+00	1.74905955945E+02	-4.97581870821E+01	1.11287048438E+02	-5.87737348338E+00	-6.45571766812E-01
1.36518502056E+06	-1.35059596771E+01	1.71906431067E+02	7.99957560971E+00	1.74908652998E+02	-4.65383526037E+01	7.16759878085E+01	-5.88049198885E+00	-6.36465806217E-01
1.38737637515E+06	-1.21817090322E+01	-1.75872739864E+02	7.99410465620E+00	1.74814008459E+02	-4.94483507113E+01	1.00706323296E+02	-5.85687664776E+00	-6.77863640063E-01
1.40956772975E+06	-1.35081508493E+01	-1.72056281324E+02	8.02075903477E+00	1.74585884969E+02	-4.57280123107E+01	-2.26264045293E+01	-5.85941596249E+00	-6.53533035941E-01
1.43175908434E+06	-1.21200417584E+01	1.79801287111E+02	7.95581495040E+00	1.74486736280E+02	-4.32925219971E+01	3.48585529074E+01	-5.88809978031E+00	-7.26191587462E-01
1.45395043894E+06	-1.29415311885E+01	1.79107005175E+02	7.98876685489E+00	1.74289915107E+02	-3.98867657930E+01	1.78918395444E+02	-5.86204607675E+00	-7.23309761662E-01
1.47614179353E+06	-1.34923417544E+01	-1.71985384389E+02	8.02264294622E+00	1.74295821158E+02	-3.95525559643E+01	-8.15744763313E+01	-5.88176037042E+00	-7.05770039468E-01
1.49833314813E+06	-1.33656397836E+01	-1.60447156612E+02	8.02661416582E+00	1.74009418244E+02	-4.71789703634E+01	-5.00530618395E+01	-5.85713254528E+00	-6.41063873742E-01
1.52052450272E+06	-1.52381211862E+01	-1.67081290776E+02	7.99985633364E+00	1.74167811701E+02	-4.56507024268E+01	3.36290550591E+01	-5.87362129764E+00	-7.96342804817E-01
1.54271585732E+06	-1.50507756931E+01	-1.71448858046E+02	7.99515879675E+00	1.74093706111E+02	-4.65785436008E+01	-1.65515305501E+02	-5.85465325739E+00	-7.34407499437E-01
1.56490721191E+06	-1.63366867766E+01	-1.77052165067E+02	7.99532328617E+00	1.73848966483E+02	-4.02824943258E+01	-5.48975844913E+01	-5.90016154434E+00	-8.27874419481E-01
1.58709856651E+06	-1.73665738704E+01	-1.65247737361E+02	8.04053276478E+00	1.73742772387E+02	-4.82904763227E+01	1.57686960837E+02	-5.85739858655E+00	-7.81260689630E-01
1.60928992110E+06	-1.54440814914E+01	-1.72351840101E+02	7.97676042038E+00	1.73597478806E+02	-4.75963071526E+01	1.75373627035E+02	-5.85928929205E+00	-7.66591767381E-01
1.63148127570E+06	-1.45416255533E+01	-1.39377779388E+02	8.03069210638E+00	1.73455475562E+02	-4.29245387297E+01	-1.24558190094E+02	-5.87247540188E+00	-6.24837423854E-01
1.65367263029E+06	-1.64540223503E+01	1.74360575474E+02	8.03386668246E+00	1.73535623269E+02	-4.61254148630E+01	7.31873705776E+01	-5.87022056055E+00	-9.01482275318E-01
1.67586398489E+06	-1.38089283590E+01	-1.74042375755E+02	7.99956934926E+00	1.73421995708E+02	-4.93986254338E+01	3.70860895794E+01	-5.87546867519E+00	-8.79436270362E-01
1.69805533948E+06	-1.44911239766E+01	-1.71289276856E+02	7.97115763416E+00	1.73140909125E+02	-3.96925155611E+01	-1.17705140914E+02	-5.84615297225E+00	-6.88362836057E-01
1.72024669408E+06	-1.28106990039E+01	-1.56345287955E+02	8.01168355490E+00	1.73029072410E+02	-3.59396835237E+01	-3.36877119779E+01	-5.91421080931E+00	-8.74090389841E-01
1.74243804867E+06	-1.21395842372E+01	-1.60401735688E+02	7.97735079854E+00	1.73003589620E+02	-3.82550237524E+01	-1.92173860359E+00	-5.88742712853E+00	-9.49675308273E-01
1.76462940327E+06	-1.79894306647E+01	-1.36822868256E+02	8.04067865655E+00	1.72799188939E+02	-4.77867268174E+01	-8.14796068396E+01	-5.85402605887E+00	-8.86202809515E-01
1.78682075786E+06	-1.38811809116E+01	-1.39020406690E+02	8.05682535950E+00	1.72605063997E+02	-5.11017226168E+01	-6.09100720539E+01	-5.88103595115E+00	-7.97508701253E-01
1.80901211246E+06	-1.80069859640E+01	1.53434875441E+02	7.98582327218E+00	1.73070104363E+02	-5.23943742451E+01	-1.32303208784E+02	-5.86930746988E+00	-8.87157178195E-01
1.83120346705E+06	-1.30212741740E+01	-1.62271038645E+02	7.98436179008E+00	1.72338060240E+02	-5.29212086891E+01	3.89507781948E+01	-5.88955111517E+00	-1.00062364059E+00
1.85339482165E+06	-1.51512024545E+01	1.79555867994E+02	7.99799381997E+00	1.72465791783E+02	-4.60465126084E+01	-9.65724570244E+01	-5.89818114660E+00	-1.06111977743E+00
1.87558617624E+06	-1.51193446785E+01	-1.63488935474E+02	7.99522499008E+00	1.72374735763E+02	-3.40730870138E+01	7.72996666473E+00	-5.89546780368E+00	-1.10547588380E+00
1.89777753084E+06	-1.37700800820E+01	-1.56394493056E+02	8.04118696730E+00	1.72127316398E+02	-4.04168158929E+01	-1.77113160541E+02	-5.84018412989E+00	-8.71161303474E-01
1.91996888543E+06	-1.33759137320E+01	-1.66369515809E+02	8.00584472273E+00	1.71959285929E+02	-4.98420975710E+01	-1.66370663974E+02	-5.85429524946E+00	-9.28287383872E-01
1.94216024003E+06	-1.58085110608E+01	-1.43449341074E+02	8.01566451215E+00	1.72276298318E+02	-4.87609361649E+01	-1.63337992054E+02	-5.86708600707E+00	-9.65640794473E-01
1.96435159462E+06	-1.35470140310E+01	1.49359894422E+02	7.98897422139E+00	1.72284011065E+02	-4.71196173272E+01	-5.95631071380E+01	-5.89886020153E+00	-9.71572251902E-01
1.98654294922E+06	-1.17919149531E+01	-1.60537924443E+02	7.97457596473E+00	1.71715648493E+02	-4.04470168725E+01	1.15849744101E+01	-5.88417812021E+00	-9.19731427305E-01
2.00873430381E+06	-1.88523911872E+01	-1.79505907364E+02	8.01246919580E+00	1.71998853138E+02	-4.03739046793E+01	-1.69357378370E+02	-5.84782329875E+00	-9.90234531932E-01
2.03092565841E+06	-1.39907650867E+01	-1.56691760750E+02	7.99075979543E+00	1.71751873336E+02	-4.16056141800E+01	-1.78129152823E+02	-5.87256203348E+00	-9.30830994232E-01
2.05311701300E+06	-1.14560247942E+01	-1.68956023841E+02	8.01632677790E+00	1.71631621157E+02	-3.44945630405E+01	1.19045976923E+02	-5.83523590237E+00	-9.97548894120E-01
2.07530836760E+06	-1.40330590498E+01	-1.57983359431E+02	8.01901199238E+00	1.71422758649E+02	-4.22813166261E+01	-1.65778668809E+02	-5.85945133806E+00	-9.57086788956E-01
2.09749972219E+06	-1.18156233934E+01	-1.56352767579E+02	8.06036174694E+00	1.70948528215E+02	-4.75375721065E+01	2.97216396520E+01	-5.89517632553E+00	-1.05245072679E+00
2.11969107679E+06	-8.21909381292E+00	-1.45614144240E+02	8.05333809440E+00	1.70558658756E+02	-5.01522904709E+01	-8.21648753566E+01	-5.87652306329E+00	-1.01867665930E+00
2.14188243138E+06	-1.57440709326E+01	-1.63560447252E+02	8.01780245690E+00	1.71179951238E+02	-4.69867651913E+01	9.19928258553E+01	-5.88491647192E+00	-1.00123819274E+00
2.16407378598E+06	-1.91185727884E+01	-1.49164222407E+02	8.05116934122E+00	1.71261937747E+02	-4.54219468280E+01	1.31609537610E+02	-5.86236835140E+00	-1.13299170352E+00
2.18626514057E+06	-1.30593932167E+01	-1.72365009743E+02	8.01559407551E+00	1.70910405521E+02	-3.46575927977E+01	-9.06590340230E+01	-5.89523521780E+00	-1.08567157603E+00
2.20845649517E+06	-1.88194393002E+01	-1.57640229703E+02	8.04925813979E+00	1.70875179190E+02	-5.11074684261E+01	-1.07712780249E+02	-5.89896027539E+00	-1.01367230677E+00
2.23064784976E+06	-1.75486272212E+01	-1.56984418815E+02	8.03270093000E+00	1.70811566885E+02	-4.30259176634E+01	1.44085882826E+02	-5.84901847850E+00	-1.23193484029E+00
2.25283920436E+06	-1.45280720297E+01	-1.55706403163E+02	8.00377495305E+00	1.70619184173E+02	-4.16550151229E+01	3.22564383781E+01	-5.85912427828E+00	-1.33503759931E+00
2.27503055895E+06	-1.70825570639E+01	-1.39769517827E+02	8.04232028266E+00	1.70865841812E+02	-4.71358879838E+01	-7.90017351747E+01	-5.87069648367E+00	-1.11916029123E+00
2.29722191355E+06	-1.40354316807E+01	-1.47293327128E+02	8.01808797952E+00	1.70313874964E+02	-4.19531898510E+01	1.42810147762E+02	-5.86272740837E+00	-1.18652773350E+00
2.31941326814E+06	-1.45058597766E+01	-1.51284941035E+02	8.06050184696E+00	1.70311455899E+02	-4.86516425427E+01	6.38959776607E+01	-5.87381538406E+00	-1.14065371115E+00
2.34160462274E+06	-1.22089235311E+01	-1.59826838934E+02	7.98050349616E+00	1.70119571573E+02	-4.89582272593E+01	1.58786332736E+02	-5.87816795218E+00	-1.36491032865E+00
2.36379597733E+06	-1.39860434885E+01	-1.45491475090E+02	8.05088595867E+00	1.69929403862E+02	-3.85479474105E+01	4.57667123789E+01	-5.87028876683E+00	-1.45418980121E+00
2.38598733193E+06	-1.07078825337E+01	-1.69269265720E+02	7.98992282404E+00	1.69836905900E+02	-4.44481054931E+01	1.56717979901E+02	-5.85496503956E+00	-1.18990868377E+00
2.40817868652E+06	-1.35107964573E+01	1.75106625469E+02	8.03696277614E+00	1.70018732837E+02	-4.27965345543E+01	-1.44672845070E+02	-5.86000037499E+00	-1.25784582501E+00
2.43037004112E+06	-1.20942080739E+01	1.58025407899E+02	7.97511573281E+00	1.69941396803E+02	-3.98783566105E+01	-3.97954250003E+01	-5.89543910734E+00	-1.59298790526E+00
2.45256139571E+06	-1.46353547968E+01	-1.58393921325E+02	8.04147643665E+00	1.69676025085E+02	-4.82610349482E+01	-7.31448636850E+01	-5.90132074291E+00	-1.27260048475E+00
2.47475275031E+06	-1.31500910139E+01	-1.56445249425E+02	8.01398169952E+00	1.69628137381E+02	-4.34625474599E+01	1.26241716949E+02	-5.86568822976E+00	-1.24918446524E+00
2.49694410490E+06	-1.77822945025E+01	-1.57189850993E+02	8.08888376874E+00	1.69827212359E+02	-4.14472092564E+01	-9.83836656408E+01	-5.91221404481E+00	-1.21454453930E+00
2.51913545950E+06	-1.44972261119E+01	-1.69688007573E+02	8.03669273737E+00	1.69548678537E+02	-3.24543738960E+01	-1.35195905799E+02	-5.89215899438E+00	-1.00461425428E+00
2.54132681409E+06	-1.44260302193E+01	-1.60887303447E+02	8.01522291612E+00	1.69288983851E+02	-5.02581801493E+01	2.05035454258E+01	-5.88723834290E+00	-1.41610371649E+00
2.56351816869E+06	-1.23752135144E+01	-1.53110120476E+02	8.07109971039E+00	1.69220665143E+02	-4.45815097531E+01	-1.21556093671E+02	-5.89901807833E+00	-1.13838004861E+00
2.58570952328E+06	-2.64906028814E+01	-2.64093543821E+01	8.07440283764E+00	1.69555878750E+02	-4.89008960341E+01	-7.36814166803E+01	-5.88417385741E+00	-1.19226922735E+00
2.60790087788E+06	-1.31563917094E+01	-1.70496308089E+02	8.05377596356E+00	1.68920789633E+02	-5.01469358817E+01	-1.44188038512E+02	-5.87424377790E+00	-1.11283541684E+00
2.63009223247E+06	-1.51089335215E+01	-1.77231133038E+02	8.02616191021E+00	1.68915369101E+02	-5.09087365649E+01	1.28524758661E+02	-5.89450888714E+00	-8.63402516191E-01
2.65228358707E+06	-1.47334992510E+01	-1.64550667671E+02	8.02651218523E+00	1.68768681513E+02	-4.34643680057E+01	7.59171439331E+01	-5.85743617681E+00	-1.55554755088E+00
2.67447494166E+06	-1.12618877733E+01	-1.59549420380E+02	8.02900510393E+00	1.68332396155E+02	-5.31822424515E+01	-1.56998869417E+02	-5.86663224950E+00	-1.42033348180E+00
2.69666629626E+06	-1.55769860337E+01	-1.67281644581E+02	8.05315252317E+00	1.68793071426E+02	-4.65039879180E+01	7.86498655412E+01	-5.84938800240E+00	-1.48403986552E+00
2.71885765085E+06	-1.26986255664E+01	-1.67454086127E+02	8.06965833545E+00	1.68389387723E+02	-4.48347250098E+01	-1.38284905608E+02	-5.86526971943E+00	-1.19170370343E+00
2.74104900545E+06	-1.10378348125E+01	-1.65447900143E+02	8.07491472813E+00	1.68047479877E+02	-4.45820266328E+01	1.63661758602E+02	-5.87667259895E+00	-1.29865817679E+00
2.76324036004E+06	-1.25433613766E+01	-1.66907143408E+02	8.06414815609E+00	1.68327695803E+02	-4.34540815987E+01	-1.63358877370E+02	-5.86554345933E+00	-1.45696811979E+00
2.78543171463E+06	-1.32740543293E+01	-1.71924720794E+02	8.00601865149E+00	1.68238075345E+02	-4.35703178825E+01	3.57931998133E+01	-5.88743600188E+00	-1.64419164628E+00
2.80762306923E+06	-1.44628509718E+01	-1.60091869211E+02	8.09099278195E+00	1.68173796163E+02	-4.59432385147E+01	8.32236316751E+01	-5.85351076501E+00	-1.58494415488E+00
2.82981442382E+06	-1.38448734620E+01	-1.44078919984E+02	8.07958712214E+00	1.67720313194E+02	-3.61737007711E+01	-4.89934340135E+01	-5.91943094041E+00	-1.57997093345E+00
2.85200577842E+06	-1.23154131511E+01	-1.66290444324E+02	8.05063249334E+00	1.67923631176E+02	-4.03133443326E+01	1.03678782641E+02	-5.87171375748E+00	-1.63603660545E+00
2.87419713301E+06	-1.40525851373E+01	-1.75519879565E+02	8.05442140165E+00	1.67869557629E+02	-5.30403906466E+01	-6.76694528984E+01	-5.88394517739E+00	-1.58247229187E+00
