# Hz S DB R 50
! CMT, M5065, 19127446, 24.2.4/2
! Date: 11/8/2024 4:59:11 PM
! Data: Format (Calibration Info)
! Freq	S11:dB/Ang(F2)	S21:dB/Ang(F2)	S12:dB/Ang(F2)	S22:dB/Ang(F2)
3.00000000000E+05	-1.82899809157E+01	-1.63027225754E+02	7.54729465700E+00	-1.77355120776E+02	-5.59558356801E+01	-8.21310308357E+01	-5.86708035118E+00	-8.35852825985E-02
3.22191354595E+05	-1.38671013516E+01	1.54027342838E+02	7.56792463662E+00	-1.77568212947E+02	-5.08754528605E+01	3.92166989424E+01	-5.85929926707E+00	-4.03403677869E-01
3.44382709190E+05	-1.31550601635E+01	-1.64018136993E+02	7.53163444373E+00	-1.78169610990E+02	-5.29137250973E+01	-5.97506513322E+01	-5.85958704801E+00	-2.69834524927E-01
3.66574063785E+05	-1.33905852802E+01	1.78553994190E+02	7.57545166709E+00	-1.78306544707E+02	-3.68237936204E+01	9.81707135004E+01	-5.83929014847E+00	-4.02345327439E-01
3.88765418380E+05	-1.40747209212E+01	-1.71711111387E+02	7.45812815966E+00	-1.78452450479E+02	-4.04288372858E+01	-7.19130071674E+01	-5.84056660421E+00	7.96912376286E-02
4.10956772975E+05	-1.32761033538E+01	-1.70019281621E+02	7.54527672883E+00	-1.79009525135E+02	-4.35519866111E+01	-1.50345170994E+02	-5.83287515419E+00	-3.20959104833E-01
4.33148127570E+05	-1.30358813640E+01	-1.63453320625E+02	7.50488211071E+00	-1.79671223240E+02	-4.80972949437E+01	1.84741886010E+01	-5.86093846735E+00	-3.54198282486E-01
4.55339482165E+05	-1.34119002440E+01	-1.49129239468E+02	7.55825525697E+00	-1.79613573128E+02	-5.44937356014E+01	1.67927639989E+01	-5.89075738093E+00	-4.23571636897E-01
4.77530836760E+05	-1.58027507401E+01	1.77143510006E+02	7.54734696478E+00	-1.79637599745E+02	-4.25665704665E+01	-3.84496702612E+00	-5.88155308382E+00	-4.01913973796E-01
4.99722191355E+05	-1.35326402024E+01	-1.72363704463E+02	7.56101419387E+00	1.79966293024E+02	-4.44943091361E+01	-2.13262532728E+01	-5.89114734095E+00	-2.74192353464E-01
5.21913545950E+05	-1.15806221185E+01	-1.77268776814E+02	7.54473640776E+00	1.79916620213E+02	-4.40803595463E+01	-9.83494428538E+01	-5.83976922810E+00	-3.86160252618E-01
5.44104900545E+05	-1.44967824054E+01	1.79149926875E+02	7.54573121650E+00	1.79835812193E+02	-4.32606165586E+01	7.18930471638E+01	-5.86202099065E+00	-5.26599531740E-01
5.66296255139E+05	-1.25718748446E+01	-1.64459976215E+02	7.55099956361E+00	1.79368559733E+02	-4.66005101952E+01	-2.05616913037E+01	-5.88083923187E+00	-3.24967651405E-01
5.88487609734E+05	-1.10366004728E+01	-1.79697565396E+02	7.53667823952E+00	1.79478046873E+02	-4.45693256466E+01	-4.76450994454E+00	-5.88499498663E+00	-2.87696537843E-01
6.10678964329E+05	-1.30083242064E+01	-1.76842004598E+02	7.58489314402E+00	1.79034221461E+02	-5.13742851777E+01	1.57976449075E+02	-5.86619157384E+00	7.61932435232E-02
6.32870318924E+05	-1.44064979446E+01	-1.76086099418E+02	7.54087257361E+00	1.78938152429E+02	-6.46652788928E+01	-1.23883064163E+02	-5.87894897667E+00	-1.64251413436E-01
6.55061673519E+05	-1.83306402502E+01	-1.78917559166E+02	7.56478925351E+00	1.79068373890E+02	-4.76739192573E+01	-8.47373799302E+00	-5.88616144276E+00	-2.88269949386E-01
6.77253028114E+05	-1.21288575738E+01	-1.72995940639E+02	7.55591525361E+00	1.78469551105E+02	-3.72897988636E+01	1.20208863573E+02	-5.86065254652E+00	-8.66794233222E-01
6.99444382709E+05	-1.54763297744E+01	-1.60182019022E+02	7.60255081371E+00	1.78602148221E+02	-4.90646432114E+01	9.89569884435E+00	-5.87422780838E+00	-3.34064748750E-01
7.21635737304E+05	-1.07557131944E+01	1.79448495010E+02	7.51875564121E+00	1.78327203131E+02	-4.42395494415E+01	6.79873168842E+01	-5.86901061254E+00	-5.11391914228E-01
7.43827091899E+05	-1.57421513570E+01	-1.67397354443E+02	7.59375185503E+00	1.78305732446E+02	-3.94060970462E+01	-1.22462437091E+01	-5.88946745017E+00	-3.42512970405E-01
7.66018446494E+05	-1.28967381288E+01	-1.70551300485E+02	7.56309537890E+00	1.78133360128E+02	-3.94065073270E+01	3.05899425034E+01	-5.88801449271E+00	-6.91114898373E-01
7.88209801089E+05	-1.46838211322E+01	-1.50343595837E+02	7.56072856104E+00	1.77984907580E+02	-4.04185183512E+01	4.84036231842E+01	-5.89595350418E+00	-5.94155619402E-01
8.10401155684E+05	-1.39045888101E+01	-1.78954543821E+02	7.56045951434E+00	1.77979248202E+02	-4.84058968809E+01	-7.95686386346E+01	-5.88714611082E+00	-5.12751452783E-01
8.32592510279E+05	-1.69817918323E+01	-1.61730345697E+02	7.54976271420E+00	1.77770536949E+02	-4.53102565565E+01	-9.18505056627E+01	-5.85601852570E+00	-4.84438973921E-01
8.54783864874E+05	-1.61493328140E+01	-1.76474410423E+02	7.54244934740E+00	1.77440888013E+02	-4.12942847948E+01	-1.69511694985E+02	-5.87020016998E+00	-4.24766793942E-01
8.76975219469E+05	-1.32850168922E+01	-1.68596502186E+02	7.53924005195E+00	1.77387116748E+02	-4.70933324796E+01	-9.63739725161E+01	-5.87818526491E+00	-5.79132944045E-01
8.99166574064E+05	-1.67098200816E+01	-1.66087467399E+02	7.57325411277E+00	1.77181577340E+02	-3.92761579073E+01	7.89709811655E+01	-5.89229357691E+00	-6.46343270103E-01
9.21357928659E+05	-1.23152299660E+01	-1.76202084026E+02	7.53424605791E+00	1.77228658816E+02	-4.64188765250E+01	-6.53175251161E+01	-5.85711669951E+00	-5.71840948008E-01
9.43549283254E+05	-1.09944235158E+01	-1.52445686561E+02	7.55398892855E+00	1.76776967622E+02	-5.05867964404E+01	-6.27572082863E+01	-5.84128129884E+00	-5.33614493675E-01
9.65740637849E+05	-1.39644888742E+01	-1.62286836760E+02	7.57517934723E+00	1.76756671327E+02	-4.13044032861E+01	9.84144914359E+01	-5.84271419576E+00	-5.78337676272E-01
9.87931992444E+05	-1.17892600734E+01	1.77250665299E+02	7.56654443961E+00	1.76916355703E+02	-3.79883255079E+01	-6.97006195843E+01	-5.87754954851E+00	-3.42735782131E-01
1.01012334704E+06	-1.58096853750E+01	1.74495377904E+02	7.57816104605E+00	1.76619195288E+02	-5.22723321285E+01	6.01108993620E+01	-5.86187096911E+00	-5.31173357523E-01
1.03231470163E+06	-1.67533588401E+01	1.79707180746E+02	7.57935917865E+00	1.76698963977E+02	-5.66640237942E+01	1.72281008671E+01	-5.84810765639E+00	-4.01582748836E-01
1.05450605623E+06	-1.78782776604E+01	-1.76415191651E+02	7.56103296584E+00	1.76688936370E+02	-5.37464325537E+01	-9.06034122758E+01	-5.85625266592E+00	-5.80419781336E-01
1.07669741082E+06	-1.55599658579E+01	-1.60673943956E+02	7.58892570913E+00	1.76205031718E+02	-4.50021129806E+01	-3.53015951070E+01	-5.84080429237E+00	-6.45376473070E-01
1.09888876542E+06	-1.34949105610E+01	-1.63984431591E+02	7.57531693439E+00	1.76345098503E+02	-4.46502799615E+01	5.03818854845E+01	-5.88481653054E+00	-6.05685114541E-01
1.12108012001E+06	-1.52318059441E+01	1.77560454534E+02	7.55550012123E+00	1.76245481343E+02	-4.28309942835E+01	-1.56368299898E+02	-5.84449798638E+00	-5.01541800634E-01
1.14327147461E+06	-1.46594307623E+01	-1.61437343673E+02	7.59040972081E+00	1.75865027588E+02	-4.36258737285E+01	9.54726953759E+01	-5.88084452940E+00	-7.22611000657E-01
1.16546282920E+06	-1.60758434034E+01	-1.52241680106E+02	7.60228747183E+00	1.75983144704E+02	-4.55388793405E+01	-6.09698597421E+01	-5.87397929513E+00	-7.88057539171E-01
1.18765418380E+06	-1.47554121532E+01	-1.69254280764E+02	7.53613576035E+00	1.75729134327E+02	-4.13013370446E+01	-1.82942965203E+01	-5.90645876063E+00	-6.33898457153E-01
1.20984553839E+06	-1.42223545997E+01	-1.77600397102E+02	7.55906568946E+00	1.75772683169E+02	-4.30738816101E+01	-9.35242756280E+01	-5.89484269040E+00	-6.21538981426E-01
1.23203689299E+06	-1.28323696305E+01	-1.72927060193E+02	7.57094950546E+00	1.75540856553E+02	-4.56876540411E+01	-9.98093328791E+00	-5.86233333643E+00	-5.20241446044E-01
1.25422824758E+06	-1.48208220084E+01	-1.34187969418E+02	7.57360108120E+00	1.75248201177E+02	-4.31161139351E+01	-1.68132143941E+01	-5.90038691589E+00	-5.93468825414E-01
1.27641960218E+06	-1.43060873467E+01	-1.65893742016E+02	7.55330049614E+00	1.75154948426E+02	-5.22876914408E+01	6.73329621028E+00	-5.87816301549E+00	-6.69406098654E-01
1.29861095677E+06	-1.18601526476E+01	-1.70450284479E+02	7.56293562250E+00	1.75283489856E+02	-4.10340831840E+01	-6.19622884453E+01	-5.88427549124E+00	-6.78169415954E-01
1.32080231137E+06	-1.19604015693E+01	1.77439375225E+02	7.54513717473E+00	1.75185148837E+02	-4.85615641045E+01	1.48559696952E+02	-5.86158554242E+00	-8.97089353835E-01
1.34299366596E+06	-1.43117008959E+01	-1.62419032094E+02	7.58933374408E+00	1.75212603549E+02	-4.66894214515E+01	8.19763381195E+01	-5.86030805268E+00	-9.03681992765E-01
1.36518502056E+06	-1.17056782892E+01	-1.78363921463E+02	7.50767776383E+00	1.75030286229E+02	-4.33114403609E+01	1.77859725809E+02	-5.85531283286E+00	-5.54714032586E-01
1.38737637515E+06	-1.69809322580E+01	1.57303380881E+02	7.52279123502E+00	1.75149264932E+02	-4.53696778933E+01	6.55462247229E+01	-5.89005121638E+00	-7.72294621597E-01
1.40956772975E+06	-1.28058327570E+01	-1.46650864286E+02	7.59358478142E+00	1.74425061671E+02	-5.27502093123E+01	3.10677340011E+01	-5.86501232993E+00	-7.20140705142E-01
1.43175908434E+06	-1.31911740738E+01	-1.62023818047E+02	7.57133164278E+00	1.74523800176E+02	-4.27438456526E+01	-7.47119794102E+01	-5.86014829968E+00	-6.06882123393E-01
1.45395043894E+06	-1.32373525817E+01	-1.51865157737E+02	7.57386863476E+00	1.74483551348E+02	-4.45507268563E+01	-1.54462300338E+02	-5.88378216565E+00	-7.21661480985E-01
1.47614179353E+06	-1.43284718448E+01	-1.60532095168E+02	7.59402665581E+00	1.74357339699E+02	-5.47456503944E+01	1.63235483269E+02	-5.86728161684E+00	-8.53954626861E-01
1.49833314813E+06	-1.14772980570E+01	1.66521202401E+02	7.58267907791E+00	1.74313294867E+02	-5.72388638353E+01	-1.52253761485E+02	-5.85047072600E+00	-6.32520640449E-01
1.52052450272E+06	-1.34593109023E+01	1.77519300698E+02	7.56163165330E+00	1.74262901941E+02	-4.36811195288E+01	1.00499386382E+02	-5.84737816767E+00	-8.68679889351E-01
1.54271585732E+06	-1.74776983881E+01	1.03385984900E+02	7.59467463674E+00	1.74658698084E+02	-4.55262683736E+01	-1.78953642321E+02	-5.84742875939E+00	-9.12918711634E-01
1.56490721191E+06	-1.40642622053E+01	-1.79640495565E+02	7.55426399264E+00	1.73897388127E+02	-4.86874262594E+01	-1.13490684411E+02	-5.86186353819E+00	-7.40345035168E-01
1.58709856651E+06	-1.34253746597E+01	-1.72420403973E+02	7.57010463618E+00	1.73870636233E+02	-5.19278487907E+01	1.77407356593E+02	-5.86828016424E+00	-6.98592938383E-01
1.60928992110E+06	-1.68040166549E+01	-1.34073216173E+02	7.62005106163E+00	1.73583876218E+02	-3.53706541429E+01	1.63668195566E+02	-5.84263089323E+00	-8.08244093899E-01
1.63148127570E+06	-1.59531106959E+01	-1.74149780364E+02	7.57730177721E+00	1.73878464999E+02	-4.85029643611E+01	-1.30523687307E+02	-5.88108637068E+00	-7.88035131210E-01
1.65367263029E+06	-1.15445046292E+01	-1.76561027921E+02	7.54853411334E+00	1.73536935033E+02	-4.59137102041E+01	-4.24139946942E+01	-5.89038883502E+00	-7.44413549171E-01
1.67586398489E+06	-1.28876412405E+01	-1.62936995672E+02	7.56049899307E+00	1.73315125236E+02	-4.91934520916E+01	1.04037664118E+02	-5.87698504096E+00	-9.24871087132E-01
1.69805533948E+06	-1.10127835667E+01	-1.64559745941E+02	7.59172029256E+00	1.73256646582E+02	-5.05685473574E+01	-1.28676440656E+02	-5.86507798111E+00	-8.60488920920E-01
1.72024669408E+06	-2.21716755948E+01	-1.25009657128E+02	7.62360924087E+00	1.73398054222E+02	-4.73242209268E+01	1.14590530814E+02	-5.87454679789E+00	-1.06489862545E+00
1.74243804867E+06	-1.39706887168E+01	1.77260753096E+02	7.54933954968E+00	1.73294851738E+02	-4.56903704622E+01	-6.90040450314E+01	-5.87124425700E+00	-9.54218267025E-01
1.76462940327E+06	-1.39349502485E+01	-1.64814828826E+02	7.58013173270E+00	1.73027571866E+02	-4.64745126534E+01	-1.60250314197E+02	-5.86332391052E+00	-8.06737371709E-01
1.78682075786E+06	-1.29254809081E+01	-1.46989572696E+02	7.58589146731E+00	1.72535644342E+02	-4.04704021822E+01	-2.93111274760E+01	-5.86787846368E+00	-9.44876786492E-01
1.80901211246E+06	-1.49480239746E+01	1.77250361867E+02	7.59609037358E+00	1.73096680341E+02	-5.50077526439E+01	-1.03668927013E+02	-5.86960787578E+00	-1.12853134383E+00
1.83120346705E+06	-1.88426057095E+01	-1.71828651317E+02	7.63984303090E+00	1.72660776378E+02	-4.56875634646E+01	-1.08672571041E+02	-5.85760093934E+00	-8.19923746962E-01
1.85339482165E+06	-1.31154997533E+01	-1.70193902835E+02	7.59961737847E+00	1.72685953251E+02	-5.31462221196E+01	1.22746556149E+02	-5.86922694941E+00	-1.06987580782E+00
1.87558617624E+06	-1.42607717757E+01	-1.60288617485E+02	7.57775698363E+00	1.72855895560E+02	-5.63699955898E+01	9.43984126831E+01	-5.87715902797E+00	-1.13231600576E+00
1.89777753084E+06	-1.63420349133E+01	-1.60238586949E+02	7.57331446797E+00	1.72275912973E+02	-4.86551913497E+01	1.63556183616E+02	-5.84584093342E+00	-8.44186368894E-01
1.91996888543E+06	-1.33032087838E+01	-1.71368691625E+02	7.55271018413E+00	1.72538992006E+02	-6.39550285366E+01	-5.10534779378E+01	-5.87865657034E+00	-1.15254262255E+00
1.94216024003E+06	-1.48955210968E+01	-1.70982076158E+02	7.61155281031E+00	1.72196120625E+02	-4.06303860642E+01	-4.20423849322E+01	-5.90133279227E+00	-1.09157269236E+00
1.96435159462E+06	-1.78128404306E+01	-1.76020887342E+02	7.58804119626E+00	1.72410789551E+02	-5.42791386516E+01	-9.79366418845E+01	-5.85807050594E+00	-1.01726336542E+00
1.98654294922E+06	-1.58622934994E+01	-1.68724455757E+02	7.60035733331E+00	1.71987956020E+02	-5.06585834851E+01	1.47500528412E+02	-5.87412535720E+00	-1.02043743242E+00
2.00873430381E+06	-9.89316119092E+00	1.52297823795E+02	7.50005156314E+00	1.72066150554E+02	-4.87730339360E+01	-1.72904318524E+02	-5.87684477391E+00	-9.61134669348E-01
2.03092565841E+06	-6.94994031075E+00	-1.72497448387E+02	7.56558608352E+00	1.70892540539E+02	-6.13724782381E+01	1.78260374171E+02	-5.86411235138E+00	-1.10089614024E+00
2.05311701300E+06	-1.28279727391E+01	-1.57253617301E+02	7.60726863657E+00	1.71419753785E+02	-3.99622948834E+01	3.00539912181E+01	-5.87526253271E+00	-1.13545573950E+00
2.07530836760E+06	-1.18943438705E+01	-1.70035473261E+02	7.54881118209E+00	1.71400136325E+02	-4.83077833280E+01	-9.72004798933E+01	-5.87513882117E+00	-1.04556365258E+00
2.09749972219E+06	-1.42587151857E+01	1.79420921117E+02	7.61597895542E+00	1.71624625511E+02	-3.32690384801E+01	-7.65191984819E+01	-5.93437256078E+00	-9.98176775095E-01
2.11969107679E+06	-1.64760908451E+01	1.79860209349E+02	7.58894308288E+00	1.71359427724E+02	-4.60087253920E+01	6.33772110258E+01	-5.85640934399E+00	-1.20741249196E+00
2.14188243138E+06	-1.43378067841E+01	-1.68297944310E+02	7.61420726123E+00	1.71253156726E+02	-4.20943346805E+01	-1.58807572526E+02	-5.85313947167E+00	-1.05222438942E+00
2.16407378598E+06	-1.31122935324E+01	-1.73581626360E+02	7.59125874978E+00	1.71013477644E+02	-5.03030231333E+01	-1.69687565238E+01	-5.87634438187E+00	-1.14891487385E+00
2.18626514057E+06	-8.55894353393E+00	-1.71920096395E+02	7.59530146015E+00	1.70723573077E+02	-4.61622771659E+01	-1.92944336296E+01	-5.88687321575E+00	-9.90587558651E-01
2.20845649517E+06	-1.56517242395E+01	-1.60248851967E+02	7.61886762014E+00	1.70861669225E+02	-4.51299354223E+01	-6.50032017840E+01	-5.86045655876E+00	-1.04901182265E+00
2.23064784976E+06	-1.19006674833E+01	-1.45704385144E+02	7.60971675270E+00	1.70732374316E+02	-4.37045452610E+01	-1.10397820706E+02	-5.86618066225E+00	-1.09093386543E+00
2.25283920436E+06	-1.54835923608E+01	-1.65799085555E+02	7.58883753752E+00	1.70682144869E+02	-4.07622914055E+01	1.22013782599E+02	-5.85196674862E+00	-1.14687067890E+00
2.27503055895E+06	-1.44875220693E+01	-1.62406051628E+02	7.59547972363E+00	1.70919300763E+02	-4.75426818662E+01	1.76404463706E+02	-5.85973053800E+00	-9.94211355627E-01
2.29722191355E+06	-1.37680283259E+01	-1.58913505084E+02	7.61797823878E+00	1.70823619827E+02	-4.02078207357E+01	5.57663674757E+01	-5.88031297849E+00	-1.32445590390E+00
2.31941326814E+06	-1.22684694854E+01	-1.42078949594E+02	7.65126795572E+00	1.70280375876E+02	-4.06046296363E+01	1.09945903778E+02	-5.86794108490E+00	-1.24965083401E+00
2.34160462274E+06	-2.37528141365E+01	1.08571627916E+02	7.59507809668E+00	1.70753946212E+02	-4.22640796235E+01	1.40562201098E+01	-5.90585179031E+00	-1.24484849688E+00
2.36379597733E+06	-1.65681888923E+01	-1.44697112218E+02	7.66217535302E+00	1.70141634940E+02	-4.78380742748E+01	1.56640046953E+02	-5.87579099289E+00	-1.20504477984E+00
2.38598733193E+06	-1.87125439789E+01	-1.77427968360E+02	7.60312842159E+00	1.70508323004E+02	-5.07115226994E+01	-9.84084275774E+01	-5.86644832028E+00	-1.23071160461E+00
2.40817868652E+06	-1.21622814991E+01	-1.79727415548E+02	7.54819816201E+00	1.70137187464E+02	-4.18312656562E+01	1.55890069516E+02	-5.87539454265E+00	-1.57473420169E+00
2.43037004112E+06	-1.55482994688E+01	1.67254746936E+02	7.60655141293E+00	1.70415046345E+02	-3.79575569453E+01	-1.24068810243E+02	-5.90183734349E+00	-1.38588777469E+00
2.45256139571E+06	-1.22326744427E+01	-1.68037701591E+02	7.58365772627E+00	1.69799532710E+02	-5.46571491109E+01	-5.38354546030E+01	-5.87500077696E+00	-1.31833230545E+00
2.47475275031E+06	-1.43299109589E+01	-1.66069208176E+02	7.61467082395E+00	1.69653266858E+02	-5.43845489395E+01	1.05344755895E+02	-5.89735831021E+00	-1.22471332152E+00
2.49694410490E+06	-2.05772309649E+01	-1.55760206686E+02	7.59794378391E+00	1.69871131190E+02	-4.09033889159E+01	5.71180675715E+01	-5.88202341776E+00	-1.39232534314E+00
2.51913545950E+06	-1.49513628418E+01	-1.59195099037E+02	7.55674033853E+00	1.69632276963E+02	-5.12106071581E+01	-1.12446615042E+02	-5.88309256639E+00	-1.17252129464E+00
2.54132681409E+06	-1.40762650581E+01	-1.70978513073E+02	7.60202560378E+00	1.69554018741E+02	-5.57966250985E+01	1.08967723048E+02	-5.87679129103E+00	-1.23216815913E+00
2.56351816869E+06	-1.46541841057E+01	-1.70434822149E+02	7.61765647429E+00	1.69537060424E+02	-3.64638899600E+01	-4.31899864124E+01	-5.89605182819E+00	-1.40570010447E+00
2.58570952328E+06	-1.29321481451E+01	-1.63340743646E+02	7.62717755180E+00	1.69194960070E+02	-3.86788921633E+01	8.84518237477E+01	-5.87426662863E+00	-1.42411604588E+00
2.60790087788E+06	-1.28608839097E+01	-1.61589323574E+02	7.62333329703E+00	1.69280621853E+02	-4.26305147649E+01	6.44605612785E+01	-5.87730849763E+00	-1.52369964004E+00
2.63009223247E+06	-1.47981088003E+01	-1.78498128719E+02	7.59906174295E+00	1.69167492477E+02	-4.96483602831E+01	-4.21027184872E+01	-5.88083434683E+00	-9.19701529241E-01
2.65228358707E+06	-1.48476724726E+01	1.78263166727E+02	7.66308496717E+00	1.68852426825E+02	-4.19989900027E+01	1.74306296235E+02	-5.84837374475E+00	-1.29171183537E+00
2.67447494166E+06	-1.67762029189E+01	-1.61849577798E+02	7.62068127682E+00	1.68779061505E+02	-4.41073390402E+01	-3.39935366674E+01	-5.87632122373E+00	-1.36895054359E+00
2.69666629626E+06	-1.16604845624E+01	-1.57941262932E+02	7.60390997104E+00	1.68668914501E+02	-4.64068415749E+01	3.55715183096E+01	-5.88821365591E+00	-1.42138251767E+00
2.71885765085E+06	-1.25606910715E+01	-1.61341369731E+02	7.59495512377E+00	1.68663513001E+02	-4.17352473139E+01	-7.25425666331E+01	-5.88642608468E+00	-1.45942187320E+00
2.74104900545E+06	-1.29845535081E+01	-1.78300329386E+02	7.55440570017E+00	1.68527091413E+02	-4.58117935110E+01	-1.71430191791E+02	-5.84789061102E+00	-1.40306533225E+00
2.76324036004E+06	-1.05983045930E+01	-1.56775175094E+02	7.64644536339E+00	1.68317819847E+02	-4.41538224439E+01	5.13145297680E+00	-5.90364409862E+00	-1.42273185971E+00
2.78543171463E+06	-1.42783132479E+01	-1.65727462337E+02	7.59626676536E+00	1.68481432193E+02	-4.85662307039E+01	-4.33405119530E+01	-5.91340146146E+00	-1.40439525980E+00
2.80762306923E+06	-1.05993596603E+01	-1.76043510175E+02	7.54732803237E+00	1.68350440884E+02	-4.54389748436E+01	1.38427318368E+02	-5.87011015769E+00	-1.32658808682E+00
2.82981442382E+06	-1.15829730225E+01	-1.69653353412E+02	7.58262190216E+00	1.68239582741E+02	-5.19898058900E+01	-6.35677922028E+01	-5.87680877892E+00	-1.43699172562E+00
2.85200577842E+06	-1.38066387540E+01	-1.58612416130E+02	7.59990969325E+00	1.68224676245E+02	-6.11034599479E+01	8.43614927317E+01	-5.86492201715E+00	-1.38838190766E+00
2.87419713301E+06	-2.37861036565E+01	-1.60086033980E+02	7.67516760587E+00	1.68505406300E+02	-4.53414297115E+01	8.29703106337E+01	-5.84738106255E+00	-1.62843005809E+00
