# Hz S DB R 50
! CMT, M5065, 19127446, 24.2.4/2
! Date: 11/8/2024 5:38:30 PM
! Data: Format (Calibration Info)
! Freq	S11:dB/Ang(F2)	S21:dB/Ang(F2)	S12:dB/Ang(F2)	S22:dB/Ang(F2)
3.00000000000E+05	-1.51903694993E+01	-1.58072887052E+02	3.48822471667E+01	-1.77341342500E+02	-4.34766060391E+01	-4.42128061823E+01	-6.13485138696E+00	4.38685517761E-01
3.22191354595E+05	-1.35054892953E+01	1.79915109471E+02	3.48987629494E+01	-1.79546661401E+02	-5.29919467523E+01	-7.99014256660E+01	-5.77773563762E+00	-6.99930135656E-01
3.44382709190E+05	-1.28300235699E+01	-1.46719291457E+02	3.48809911350E+01	1.77929185761E+02	-4.23510292559E+01	1.77748037734E+01	-6.14168126904E+00	-8.20600945726E-01
3.66574063785E+05	-1.21911590401E+01	-1.62419859937E+02	3.48432849037E+01	1.76005077664E+02	-4.09451086354E+01	-1.09399797669E+02	-5.79131764921E+00	1.39776351942E+00
3.88765418380E+05	-1.29221021599E+01	-1.79865441105E+02	3.49289992341E+01	1.74416771926E+02	-4.82746154695E+01	-3.28909247366E+00	-6.47416158481E+00	4.67938032095E-01
4.10956772975E+05	-1.35681213960E+01	-1.57270672771E+02	3.47844901176E+01	1.72340922297E+02	-4.62339046581E+01	-1.28032592598E+01	-6.02646639604E+00	-5.32028432232E-01
4.33148127570E+05	-1.39420787948E+01	-1.73718210448E+02	3.47708649052E+01	1.70889997584E+02	-4.70091208428E+01	1.23643999875E+02	-5.71382381140E+00	-1.66230877045E+00
4.55339482165E+05	-1.56146984572E+01	-1.77268971083E+02	3.47360404703E+01	1.69244507069E+02	-4.50248300050E+01	-1.50712721371E+02	-5.65076323839E+00	-1.78451718407E-01
4.77530836760E+05	-1.40376072690E+01	-1.63249809526E+02	3.46943849188E+01	1.67716542059E+02	-4.72176310196E+01	-1.20554265818E+02	-5.79302849949E+00	5.08901298753E-01
4.99722191355E+05	-1.22694681372E+01	-1.63284353981E+02	3.46049821109E+01	1.66251599161E+02	-4.76671199610E+01	1.56742519092E+02	-5.73989395409E+00	-9.27641769779E-01
5.21913545950E+05	-1.22167534163E+01	1.79922350276E+02	3.45588589113E+01	1.65065390938E+02	-4.45835821095E+01	1.01679457356E+02	-5.88667098439E+00	-1.86682637518E+00
5.44104900545E+05	-1.25835269667E+01	-1.71870536158E+02	3.45408199246E+01	1.63568905342E+02	-4.52687624859E+01	-1.61118788219E+02	-5.63836839173E+00	-6.04716991910E-01
5.66296255139E+05	-1.29205821920E+01	-1.66525556228E+02	3.44857944932E+01	1.62146268574E+02	-4.41563602307E+01	1.21995646149E+02	-5.77621068707E+00	-2.19137806848E+00
5.88487609734E+05	-1.70194917404E+01	-1.73232097224E+02	3.44733353007E+01	1.61154453423E+02	-4.55573843069E+01	-1.34766420055E+02	-5.70824884311E+00	-1.13503833890E-01
6.10678964329E+05	-1.44688111756E+01	-1.71178448950E+02	3.43904091092E+01	1.59826189013E+02	-5.83423365759E+01	-1.35274301014E+02	-5.84871575742E+00	-1.61624411145E-01
6.32870318924E+05	-1.43187019228E+01	-1.77301871692E+02	3.43325319304E+01	1.58753370390E+02	-4.24686756295E+01	-1.33157893811E+02	-5.69567082069E+00	6.45924472004E-01
6.55061673519E+05	-1.38119511048E+01	-1.79523942649E+02	3.42623299824E+01	1.57719215593E+02	-4.22104993792E+01	-2.02531973663E+01	-6.10444574895E+00	1.54348987930E-01
6.77253028114E+05	-1.32119679305E+01	-1.44849416234E+02	3.42314182546E+01	1.56229745220E+02	-3.94597805042E+01	-1.64256024480E+02	-5.44951782799E+00	-1.15288812355E+00
6.99444382709E+05	-1.13195817512E+01	-1.61243009486E+02	3.41531258126E+01	1.55215706420E+02	-4.70677321577E+01	-1.20404571542E+02	-5.76296530033E+00	-1.27865934807E-01
7.21635737304E+05	-8.15826452593E+00	1.59316151664E+02	3.40437333307E+01	1.54613033973E+02	-4.90953027404E+01	1.73303684643E+02	-5.73706764400E+00	-1.39152541217E+00
7.43827091899E+05	-9.40614541436E+00	1.72648688936E+02	3.39732922460E+01	1.53510605675E+02	-5.19766794148E+01	2.37634890726E+01	-5.91662297631E+00	-1.07944009511E+00
7.66018446494E+05	-1.37995104448E+01	-1.53808494421E+02	3.39531246132E+01	1.52144351745E+02	-4.05144942101E+01	-3.11281640756E+01	-6.06406385030E+00	1.59775254345E+00
7.88209801089E+05	-1.47084562054E+01	-1.62565315891E+02	3.39223715391E+01	1.51366207910E+02	-5.16805169037E+01	-1.26988928374E+02	-5.79831634626E+00	-3.44699731097E-01
8.10401155684E+05	-1.41799065722E+01	-1.77755044977E+02	3.38302542963E+01	1.50408164014E+02	-4.51317173145E+01	1.01660085033E+02	-5.97772602259E+00	-2.38945232446E+00
8.32592510279E+05	-1.45738613801E+01	1.70985317260E+02	3.37539373507E+01	1.49581255895E+02	-4.89007666404E+01	-4.06751458706E+01	-5.98166110704E+00	4.87322344940E-01
8.54783864874E+05	-1.34726196291E+01	-1.77059723289E+02	3.37083269334E+01	1.48596639185E+02	-4.02061686482E+01	-1.00873714804E+02	-5.71523495831E+00	1.03042393130E+00
8.76975219469E+05	-1.25019205806E+01	-1.52313629123E+02	3.36447843422E+01	1.47371941323E+02	-4.30306334884E+01	-1.35582133610E+02	-5.67468334784E+00	-2.08594576681E-01
8.99166574064E+05	-1.21187663508E+01	1.48267057050E+02	3.35573713217E+01	1.47052308964E+02	-4.39543164191E+01	-7.74288254342E+01	-5.90491392277E+00	6.28219264924E-01
9.21357928659E+05	-1.31582716598E+01	-1.73370147889E+02	3.35089751360E+01	1.45827304266E+02	-5.18110549110E+01	-1.09364315367E+02	-5.84999836596E+00	-4.16301704897E-01
9.43549283254E+05	-1.13849871946E+01	-1.56535638109E+02	3.34252316938E+01	1.44815223065E+02	-4.05068849951E+01	2.34491848559E+01	-6.22446378226E+00	-1.17657890399E+00
9.65740637849E+05	-1.38578541136E+01	-1.76890762666E+02	3.33685069303E+01	1.44285619248E+02	-4.14949719185E+01	-4.54220401353E+01	-5.96207628841E+00	6.75557880644E-01
9.87931992444E+05	-1.20148868367E+01	-1.71636727172E+02	3.32837241568E+01	1.43243908374E+02	-4.36306456343E+01	1.59068922568E+02	-5.74540410785E+00	-2.05660370510E+00
1.01012334704E+06	-1.40490172725E+01	-1.64879308175E+02	3.32080016692E+01	1.42588568848E+02	-4.79644512436E+01	1.07737953257E+02	-5.88879990465E+00	-1.59104807030E+00
1.03231470163E+06	-1.24015154990E+01	-1.75619313421E+02	3.31450525402E+01	1.41662190459E+02	-5.20536997832E+01	1.29807872651E+02	-5.88921333359E+00	-1.78669606123E+00
1.05450605623E+06	-9.76189675787E+00	-1.73943867029E+02	3.30343457168E+01	1.40893399228E+02	-4.35785744444E+01	5.77589015120E+01	-6.08235579410E+00	-1.72287572291E+00
1.07669741082E+06	-1.32825229153E+01	-1.59829249613E+02	3.29966391688E+01	1.40373048146E+02	-3.87117236549E+01	-1.60895348882E+02	-5.67427622170E+00	-1.47966439987E+00
1.09888876542E+06	-1.67783614782E+01	1.61296161908E+02	3.29657707793E+01	1.39753818385E+02	-5.29159992628E+01	-8.87485959877E+01	-5.85092361510E+00	-4.63206281249E-01
1.12108012001E+06	-1.45147803651E+01	-1.54669871274E+02	3.28970309961E+01	1.38619971959E+02	-3.82325972770E+01	-1.51950403612E+02	-5.60048106747E+00	-2.04822565579E-02
1.14327147461E+06	-8.97760702566E+00	-1.63248230036E+02	3.27515337700E+01	1.37873445246E+02	-5.77014581386E+01	-7.47973247526E+01	-5.93546657189E+00	-6.90584493032E-01
1.16546282920E+06	-1.08040386655E+01	-1.64227172500E+02	3.27162419316E+01	1.37133113093E+02	-5.48142482606E+01	-1.22541663995E+02	-5.84694007992E+00	-5.74723449830E-01
1.18765418380E+06	-1.29514161653E+01	-1.66554042300E+02	3.26589454587E+01	1.36490742976E+02	-4.92594386420E+01	-1.33369088983E+01	-5.98840800477E+00	-2.17853834552E-01
1.20984553839E+06	-1.62221359884E+01	-1.75141983122E+02	3.26027521275E+01	1.35968571708E+02	-4.41692662996E+01	-1.50797811001E+02	-5.63097977451E+00	-8.47679005215E-01
1.23203689299E+06	-1.40611276728E+01	-1.61727757012E+02	3.25261260128E+01	1.35239610301E+02	-5.20309045157E+01	5.23165240939E+01	-6.00227458324E+00	-7.00965706288E-01
1.25422824758E+06	-1.29937026583E+01	-1.67726810036E+02	3.24443716396E+01	1.34503491963E+02	-4.57413449178E+01	-1.44776449934E+02	-5.74991306675E+00	-8.81017378946E-01
1.27641960218E+06	-1.41670873363E+01	-1.46985129802E+02	3.23906963550E+01	1.33738819943E+02	-4.85213835222E+01	3.76887975453E+01	-6.02787488209E+00	-9.02524288519E-01
1.29861095677E+06	-1.26549153251E+01	1.75950212659E+02	3.22750078177E+01	1.33361458758E+02	-4.99302429441E+01	7.89068420093E+01	-6.00097333385E+00	-1.72156449678E+00
1.32080231137E+06	-1.38017916565E+01	-1.77816237963E+02	3.22190696131E+01	1.32778171980E+02	-4.88509722846E+01	1.22230610414E+02	-5.84207285818E+00	-1.86844765537E+00
1.34299366596E+06	-1.21372640667E+01	-1.60204460363E+02	3.21532956932E+01	1.31906328146E+02	-4.32730254490E+01	-1.13976937098E+02	-5.70150896586E+00	-1.69899417810E-02
1.36518502056E+06	-1.12889109023E+01	1.68826347607E+02	3.20549462283E+01	1.31646756098E+02	-5.00408821102E+01	1.23095960392E+02	-5.85922034864E+00	-1.30864328813E+00
1.38737637515E+06	-1.21743816861E+01	-1.55466712991E+02	3.20373860060E+01	1.30646170873E+02	-4.88736224816E+01	1.44478750921E+02	-5.82946657362E+00	-1.56352156600E+00
1.40956772975E+06	-1.24270202921E+01	-1.61461378360E+02	3.19442717120E+01	1.30026623880E+02	-4.01219762664E+01	-7.71888023356E+01	-5.80935988477E+00	1.21287487555E+00
1.43175908434E+06	-1.22935400988E+01	1.78619544433E+02	3.18438525384E+01	1.29810650941E+02	-4.95761403200E+01	-1.00728085064E+02	-5.81566569143E+00	-3.02063114227E-01
1.45395043894E+06	-1.29986514301E+01	-1.74430419748E+02	3.18046077331E+01	1.29090003250E+02	-4.46177729292E+01	-1.61513592486E+02	-5.70051609068E+00	-7.49574985371E-01
1.47614179353E+06	-1.79277043651E+01	-1.71418645000E+02	3.17372476953E+01	1.28718058803E+02	-3.85653205982E+01	-5.42049077291E+01	-5.96312925629E+00	1.81636493581E+00
1.49833314813E+06	-1.55307914716E+01	-1.60821283471E+02	3.16870908324E+01	1.27907893676E+02	-4.65466671054E+01	1.28646680483E+02	-5.87210340193E+00	-1.83647355258E+00
1.52052450272E+06	-1.33720881903E+01	-1.67995174746E+02	3.15804196927E+01	1.27233966637E+02	-5.03465220130E+01	-1.28877712059E+02	-5.79538831390E+00	-7.38906089839E-01
1.54271585732E+06	-9.76092077748E+00	-1.65047895627E+02	3.14902313688E+01	1.26528874549E+02	-4.55600022900E+01	1.20075436212E+02	-5.86072975423E+00	-1.96796853277E+00
1.56490721191E+06	-1.58763428509E+01	-1.68290047277E+02	3.14597091416E+01	1.26385285005E+02	-4.49278014948E+01	1.46978998688E+02	-5.79129105290E+00	-2.08281437821E+00
1.58709856651E+06	-1.38428932636E+01	-1.71779062121E+02	3.13800186427E+01	1.25822395784E+02	-5.00880966047E+01	-1.63790320836E+02	-5.80491272739E+00	-1.28698525473E+00
1.60928992110E+06	-1.11734976734E+01	-1.73449327107E+02	3.12824731815E+01	1.25167844153E+02	-4.03172632728E+01	-2.12445146166E+01	-6.01078182973E+00	4.32093296105E-01
1.63148127570E+06	-1.29578435297E+01	1.77698467944E+02	3.12193865145E+01	1.24741175509E+02	-4.85527044945E+01	1.30742700907E+02	-5.87200355573E+00	-1.62056804116E+00
1.65367263029E+06	-1.41329127288E+01	-1.74621142846E+02	3.11363821084E+01	1.24281695316E+02	-3.99525667077E+01	6.16342104147E+01	-6.13101531288E+00	-1.99205692668E+00
1.67586398489E+06	-9.48882530699E+00	-1.25330160782E+02	3.11269951802E+01	1.23105670549E+02	-4.41629551485E+01	-5.79446114522E+01	-5.86840668811E+00	8.57893693377E-02
1.69805533948E+06	-1.53705963752E+01	-1.49717206200E+02	3.10425039962E+01	1.23121667193E+02	-4.35295635021E+01	-6.97987470295E+00	-6.03824345318E+00	-1.30820365532E-01
1.72024669408E+06	-1.30201702475E+01	-1.72468558678E+02	3.09382405323E+01	1.22518377365E+02	-4.58863983304E+01	9.71643093731E+01	-5.92155175535E+00	-1.63328570695E+00
1.74243804867E+06	-1.32012286778E+01	1.67825084077E+02	3.08449332040E+01	1.22305200760E+02	-4.42473205186E+01	-1.26045870650E+02	-5.67195162811E+00	-8.99748503715E-01
1.76462940327E+06	-1.10975390537E+01	-1.68886705815E+02	3.07818457449E+01	1.21552240395E+02	-3.57528539454E+01	1.28531000229E+02	-5.93056944092E+00	-4.12991397671E+00
1.78682075786E+06	-1.68171576186E+01	-1.73541399514E+02	3.07597301487E+01	1.21450332488E+02	-4.30371196824E+01	7.91264293509E-01	-6.06829893001E+00	-3.61396803986E-01
1.80901211246E+06	-1.22279169955E+01	-1.64359960016E+02	3.06716006757E+01	1.20554717004E+02	-5.08654884225E+01	-2.47298032866E+01	-5.91740012380E+00	-7.56859891979E-01
1.83120346705E+06	-1.10595795899E+01	-1.38670961267E+02	3.06229649383E+01	1.19788794309E+02	-3.74811344476E+01	-9.60436292766E+01	-5.62871107024E+00	9.49064405811E-01
1.85339482165E+06	-1.61852158481E+01	-1.59513687262E+02	3.05685192131E+01	1.19755925215E+02	-4.02418435591E+01	5.05888972344E+01	-6.13123803696E+00	-1.66377116498E+00
1.87558617624E+06	-1.46410655392E+01	-1.48338678354E+02	3.04735936536E+01	1.19251200359E+02	-4.79839528764E+01	-1.23128059535E+02	-5.78629395534E+00	-7.13716498482E-01
1.89777753084E+06	-1.14800832985E+01	-1.71775220566E+02	3.03790443341E+01	1.18839627240E+02	-4.14882815709E+01	-8.55203529628E+01	-5.77041013883E+00	2.77567656969E-01
1.91996888543E+06	-1.19993997944E+01	-1.67309723146E+02	3.03094821026E+01	1.18267468958E+02	-4.49865078270E+01	-9.53263217561E+01	-5.74791462062E+00	-6.78658236720E-01
1.94216024003E+06	-1.05133881754E+01	-1.67461748088E+02	3.02358232837E+01	1.17881509076E+02	-4.57551431269E+01	6.41737769565E+01	-6.04362607730E+00	-1.67710538737E+00
1.96435159462E+06	-1.31822063756E+01	-1.61754641244E+02	3.01863035691E+01	1.17598236558E+02	-4.67277300324E+01	7.17645964771E+01	-5.98741797830E+00	-1.69132415906E+00
1.98654294922E+06	-1.59558667182E+01	1.64814551913E+02	3.01308040856E+01	1.17331442052E+02	-3.81017730597E+01	-1.48730692059E+02	-5.51857427139E+00	-9.71257857679E-01
2.00873430381E+06	-1.63587997389E+01	-1.62172577309E+02	3.00813974543E+01	1.16951716666E+02	-4.69084035725E+01	6.69515389253E+01	-5.97393549575E+00	-1.69079167346E+00
2.03092565841E+06	-1.09044328939E+01	-1.56168062362E+02	2.99915073974E+01	1.15972456430E+02	-3.82411116021E+01	4.06070708677E+01	-6.21871028980E+00	-1.20810092427E+00
2.05311701300E+06	-1.12055863867E+01	-1.61502064942E+02	2.99233046130E+01	1.15600870813E+02	-4.49689245898E+01	8.88050947468E+01	-5.91258530144E+00	-1.47072393312E+00
2.07530836760E+06	-1.00709859720E+01	-1.78638009412E+02	2.98053387649E+01	1.15380369809E+02	-4.09815428672E+01	1.09380155040E+02	-6.05742910658E+00	-1.93290192370E+00
2.09749972219E+06	-1.35331541548E+01	1.70987486557E+02	2.97713089507E+01	1.15313535872E+02	-4.88753102580E+01	-2.92603833841E+01	-5.94149183208E+00	-6.60856501559E-01
2.11969107679E+06	-1.31760512291E+01	-1.79048817734E+02	2.97286751612E+01	1.14718060027E+02	-4.03729927714E+01	3.48787343078E+01	-6.12421855978E+00	-1.18257045457E+00
2.14188243138E+06	-7.56415027211E+00	-1.72670114098E+02	2.95887038613E+01	1.14056759916E+02	-4.84162179987E+01	2.67298510426E+01	-5.98021141004E+00	-8.87821338203E-01
2.16407378598E+06	-1.05632115488E+01	-1.65565090538E+02	2.95777219359E+01	1.13797443777E+02	-4.72209238625E+01	-8.61410553846E+01	-5.86669324425E+00	-5.40160938161E-01
2.18626514057E+06	-1.36363797326E+01	-1.66593751491E+02	2.95326066478E+01	1.13529578772E+02	-4.14534331597E+01	1.65057381616E+02	-5.76275755878E+00	-2.34201644672E+00
2.20845649517E+06	-1.25718928711E+01	-1.74775351427E+02	2.94441950573E+01	1.13031068692E+02	-3.80509825638E+01	1.06694523933E+02	-6.06284364084E+00	-2.91862946812E+00
2.23064784976E+06	-1.33992572031E+01	-1.64845907820E+02	2.94109425504E+01	1.12704399254E+02	-4.06966510544E+01	-1.59228555912E+02	-5.62955360014E+00	-1.84211488090E+00
2.25283920436E+06	-1.51323402077E+01	1.77903787811E+02	2.93564558621E+01	1.12454276833E+02	-4.71287506201E+01	-1.38112454889E+02	-5.76703618198E+00	-1.31324972454E+00
2.27503055895E+06	-1.16328342719E+01	-1.61091668929E+02	2.92863569102E+01	1.11875023674E+02	-4.08801931476E+01	2.09850881494E+01	-6.12866797566E+00	-1.04010857843E+00
2.29722191355E+06	-1.71260205715E+01	-1.52409712926E+02	2.92746871207E+01	1.11626982895E+02	-4.12603681397E+01	8.82369635876E+01	-6.05007453271E+00	-2.47929149345E+00
2.31941326814E+06	-1.17787853023E+01	-1.70371888254E+02	2.91116665093E+01	1.11200873732E+02	-4.61715425794E+01	1.35969166167E+02	-5.88794924464E+00	-1.97153200104E+00
2.34160462274E+06	-1.28678520206E+01	-1.56074530236E+02	2.91022127168E+01	1.10647819118E+02	-5.31660972472E+01	-1.53409747417E+02	-5.84957877989E+00	-1.50131388831E+00
2.36379597733E+06	-1.14984469604E+01	-1.48120183738E+02	2.90584490092E+01	1.10291571486E+02	-4.35245774860E+01	1.14393653172E+02	-5.93800814605E+00	-2.43686547891E+00
2.38598733193E+06	-1.04716099252E+01	-1.71579169835E+02	2.89403495195E+01	1.10058295594E+02	-3.92200991902E+01	-3.22703248566E+01	-5.95422184317E+00	4.68943724969E-01
2.40817868652E+06	-1.31022088362E+01	1.76971611467E+02	2.88823283720E+01	1.09997696435E+02	-5.10560492774E+01	-1.64593534142E+02	-5.83395758933E+00	-1.48161567307E+00
2.43037004112E+06	-1.35333874860E+01	-1.58818360462E+02	2.88636787902E+01	1.09526931091E+02	-4.59014806914E+01	-7.97887755740E+01	-5.85877107618E+00	-9.95998674091E-01
2.45256139571E+06	-1.09884291861E+01	1.75628124456E+02	2.87465374804E+01	1.09234275454E+02	-4.48911824756E+01	-1.23680037747E+02	-5.72578434737E+00	-9.40923564816E-01
2.47475275031E+06	-1.55956036931E+01	-1.07083844083E+02	2.88034914476E+01	1.08614948877E+02	-4.65593996427E+01	-8.29217364921E+01	-5.83441375952E+00	-7.29817422152E-01
2.49694410490E+06	-1.30060303961E+01	-1.62603375008E+02	2.86640662624E+01	1.08457063065E+02	-5.08302608316E+01	-1.69253668876E+02	-5.83202103257E+00	-1.29617293887E+00
2.51913545950E+06	-1.29133625609E+01	-1.58357647540E+02	2.86197903954E+01	1.07997299072E+02	-3.44829478673E+01	6.92542608286E+00	-6.17506465021E+00	1.32411256601E+00
2.54132681409E+06	-1.34358367284E+01	-1.50594259235E+02	2.85846393285E+01	1.07608581574E+02	-2.99237655655E+01	-1.63505661566E+02	-5.25521384144E+00	-4.18036298331E+00
2.56351816869E+06	-1.19981533647E+01	-1.60972289401E+02	2.84884608694E+01	1.07338428268E+02	-4.59422355228E+01	2.98563085609E+01	-6.01100006480E+00	-1.23530080664E+00
2.58570952328E+06	-1.30103757008E+01	-1.78396626866E+02	2.84262685522E+01	1.07229111857E+02	-4.48356866742E+01	-4.37889565921E+01	-5.91308578930E+00	-3.15552405729E-01
2.60790087788E+06	-1.26601922201E+01	-1.51876991747E+02	2.83686061556E+01	1.06554698008E+02	-4.52477527079E+01	-1.36730272106E+02	-5.73731979707E+00	-1.16857930900E+00
2.63009223247E+06	-1.53943881421E+01	-1.16751467379E+02	2.83847106959E+01	1.06355054244E+02	-4.57690377691E+01	-5.38261951852E+01	-5.82874882281E+00	-3.65771139802E-01
2.65228358707E+06	-1.00518944847E+01	-1.64188672790E+02	2.82399897728E+01	1.05970689251E+02	-4.45993222069E+01	2.92324072737E+00	-6.01696955414E+00	-8.61723586973E-01
2.67447494166E+06	-1.14464853039E+01	-1.61551336354E+02	2.81841682182E+01	1.05566977417E+02	-4.52108339708E+01	3.41861661441E+01	-5.98960137667E+00	-9.65045948258E-01
2.69666629626E+06	-1.06061574692E+01	-1.65244121145E+02	2.81328393240E+01	1.05224346436E+02	-5.81145093377E+01	9.92966205342E+01	-5.96384698589E+00	-1.39108030692E+00
2.71885765085E+06	-1.22606063565E+01	-1.61329035243E+02	2.80832594859E+01	1.05113278288E+02	-4.52755434718E+01	1.32341622789E+02	-5.87716465861E+00	-2.24343131197E+00
2.74104900545E+06	-1.06262912007E+01	-1.68748918476E+02	2.79934407142E+01	1.04807089557E+02	-4.40217631087E+01	-1.18163179158E+02	-5.68970016287E+00	-9.57798305316E-01
2.76324036004E+06	-1.29329109673E+01	-1.59780609437E+02	2.79784067054E+01	1.04530898422E+02	-4.71980319529E+01	-8.01927753985E+01	-5.82417343474E+00	-9.96882444685E-01
2.78543171463E+06	-1.33102265926E+01	-1.41942629489E+02	2.79306758944E+01	1.04152939496E+02	-4.49160734390E+01	-1.66403603895E+02	-5.78669973918E+00	-2.01624485044E+00
2.80762306923E+06	-1.27726205911E+01	-1.58804396904E+02	2.78486883969E+01	1.03821788335E+02	-6.14832166719E+01	1.91922844922E+01	-5.90133937242E+00	-1.57706277635E+00
2.82981442382E+06	-1.26806197205E+01	-1.65880585435E+02	2.77803422074E+01	1.03687694242E+02	-4.27495306897E+01	1.76083959040E+02	-5.78375091506E+00	-2.34438333185E+00
2.85200577842E+06	-1.15154647947E+01	-1.64559159876E+02	2.77226628015E+01	1.03244044193E+02	-3.63036357744E+01	1.47981030379E+02	-5.86208333874E+00	-4.01530893839E+00
2.87419713301E+06	-1.25930625506E+01	-1.43230005206E+02	2.77103014639E+01	1.02828933195E+02	-4.58419221028E+01	1.01750678749E+02	-5.93019375357E+00	-2.20177714773E+00
